!  2-Port S-parameters saved by WinCal
! VAR MeasName=S-Parameters (CALIBRATED_DATA) read from VNA (P5004A)
! VAR MeasDate=29/08/2024 15:47:24
! VAR NAME=f39_RESET5_9k-100M_3
! VAR FILENAME=f39_RESET5_9k-100M_3.S2P
! VAR DATE=29/08/2024 15:47:24
! VAR PHYS_PORTS=1,2
! VAR ObjTypeName=DATASET
! VAR IndexType=Frequency
!
# Hz S MA R 50
9000.000 +8.7285348989E-002 -1.6679799327E+002  +7.8387589060E-003 +6.4469810918E+001  +1.1743280761E-002 +1.5840095369E+002  +2.9551138842E-001 -1.4888013926E+002 
134145.181 +1.1165204820E-001 +1.6962796312E+002  +2.2232853236E-004 -1.8290725602E+001  +3.3476216349E-004 +6.1792113492E+001  +2.4118720869E-001 -1.7154272248E+002 
259290.363 +1.1224814669E-001 +1.7091543801E+002  +5.7859003392E-004 +4.8135978099E+001  +4.9891010522E-004 +1.2977657665E+001  +2.4301036588E-001 -1.6910378008E+002 
384435.544 +1.1379238914E-001 +1.7050785556E+002  +6.6137199091E-005 +2.7283191414E+001  +9.1836833207E-004 -7.8472784180E+001  +2.4133036248E-001 -1.7032907482E+002 
509580.726 +1.1440848216E-001 +1.7097368070E+002  +1.8324349951E-003 -2.0016305136E+001  +1.9288096180E-003 +1.7101591714E+002  +2.5710649465E-001 -1.6111191775E+002 
634725.907 +1.1702705152E-001 +1.7167284340E+002  +6.7126262213E-004 -1.1961165510E+002  +4.6878186200E-004 -3.8937853736E+001  +2.5775799978E-001 -1.6672082419E+002 
759871.089 +1.2145439898E-001 +1.7175092370E+002  +9.7631920969E-004 +1.5768969296E+002  +2.7809736219E-004 -1.1552335646E+002  +2.5180360584E-001 -1.6581907717E+002 
885016.270 +1.2147168756E-001 +1.6955578709E+002  +3.6967948880E-004 -1.5695962865E+002  +2.5139856043E-004 +1.3898257405E+002  +2.4345626335E-001 -1.6779275861E+002 
1010161.452 +1.1716840549E-001 +1.6902711160E+002  +8.9796392633E-004 -4.6484269509E+001  +4.6339451340E-004 -3.4984251630E+000  +2.2622328974E-001 -1.6872901006E+002 
1135306.633 +1.1307697100E-001 +1.6870159758E+002  +3.4186024645E-003 -1.0570130773E+002  +4.6762655745E-003 +9.5820396032E+001  +1.5727868526E-001 -1.7062516588E+002 
1260451.815 +1.1705682695E-001 +1.7146168349E+002  +1.8682535626E-003 +1.7038744481E+002  +6.8859325885E-004 -1.3955869210E+002  +2.1363843209E-001 -1.5846068265E+002 
1385596.996 +1.2596114015E-001 +1.7209216370E+002  +4.3421353063E-004 -1.1178945203E+002  +1.1777717090E-003 +9.8706654654E+001  +2.6133111937E-001 -1.5713060541E+002 
1510742.178 +1.2794760138E-001 +1.7312968558E+002  +1.9473683924E-004 -1.4539663898E+002  +1.0076503031E-003 -2.4966705955E+001  +2.6553479304E-001 -1.5946707150E+002 
1635887.359 +1.2720342737E-001 +1.7008382746E+002  +1.6847076152E-003 +1.7826961288E+002  +2.2019960708E-003 +9.1420174876E+001  +2.4209853136E-001 -1.5397565457E+002 
1761032.541 +1.2750013581E-001 +1.6833304884E+002  +1.3586079513E-003 -1.5120439590E+002  +3.6557048093E-004 -8.5350674674E+001  +2.1989732588E-001 -1.5975388626E+002 
1886177.722 +1.3156410015E-001 +1.6918583206E+002  +1.9477480226E-003 +6.8622827259E+001  +1.8932149751E-003 -3.1910431580E+001  +1.8628983808E-001 -1.6765790266E+002 
2011322.904 +1.2889473289E-001 +1.6787548562E+002  +4.4016685515E-004 -6.1136837761E-001  +1.1404943756E-003 -6.0760181116E+001  +2.0960763329E-001 -1.6308854042E+002 
2136468.085 +1.3040836102E-001 +1.6509182132E+002  +1.2855433500E-003 +5.1386594465E+001  +1.7208495773E-003 +1.4638520622E+002  +1.8175021404E-001 +1.7452325111E+002 
2261613.267 +1.2989728323E-001 +1.6283271468E+002  +1.6356671110E-003 -1.1831973621E+001  +2.8553792262E-003 -3.6184761030E+001  +2.3818199262E-001 +1.5873784471E+002 
2386758.448 +1.3628414210E-001 +1.6792781827E+002  +1.8902194546E-002 +1.0994415900E+002  +2.1883471375E-002 -7.5309397268E+001  +1.0957437582E+000 -2.2137898980E+001 
2511903.630 +1.2767141512E-001 +1.6697008818E+002  +4.6802477007E-003 +2.7847876456E+001  +2.3579030317E-003 -3.4349791476E+001  +2.0423161996E-001 +1.7609359415E+002 
2637048.811 +1.1777114274E-001 +1.5963665422E+002  +4.6865955024E-002 +2.1590561020E+001  +1.2673307556E-002 +7.5719364623E+001  +1.1671572710E+000 +8.4799761814E+001 
2762193.992 +1.1630511950E-001 +1.6609654658E+002  +7.7114531586E-003 -3.0423817332E+001  +9.9717331944E-003 -6.3510157883E+001  +2.3894976690E-001 -2.9716753150E+001 
2887339.174 +1.1902760316E-001 +1.7691176913E+002  +1.1992683835E-002 +2.7896242485E+001  +1.1432918357E-002 +1.5238602590E+002  +2.8458319043E-001 -1.0408408934E+002 
3012484.355 +1.0863382402E-001 -1.7629692382E+002  +1.6765096935E-002 +1.0096628042E+002  +2.3719289971E-002 +1.2390420123E+002  +4.7287461463E-001 -7.4443967783E+001 
3137629.537 +1.1677243376E-001 +1.7058268759E+002  +4.2099686731E-003 -3.2507903882E+001  +1.7875772266E-002 +5.7436939562E+001  +4.5282811236E-001 -1.2415471811E+001 
3262774.718 +1.1167546248E-001 +1.5854093456E+002  +1.1885703263E-002 +6.2785517308E+001  +1.3278647383E-002 -9.8096975667E+001  +4.7540428227E-001 +7.2066101433E+001 
3387919.900 +1.2304117573E-001 +1.3491285452E+002  +1.1365642078E-002 +7.8079026825E+001  +3.4631749211E-003 -1.7013827724E+002  +7.6582150674E-002 -1.0856052167E+002 
3513065.081 +1.3699554727E-001 +1.5755680223E+002  +3.3845736674E-003 -1.7084636852E+002  +2.5258723255E-002 -9.4804975941E+001  +7.6637025563E-001 -2.3596294838E+001 
3638210.263 +2.1042175641E-001 +1.3405519269E+002  +1.0915687612E-002 +1.0583435218E+002  +9.3090770765E-003 -1.1330461521E+002  +8.6268661932E-001 +1.5378138452E+002 
3763355.444 +1.9250043718E-001 +1.4774799916E+002  +6.8593764211E-003 +7.3404771273E+001  +5.1725987846E-003 +1.2250195181E+002  +4.4524216332E-001 +1.4574163897E+002 
3888500.626 +1.6238741052E-001 +1.5297362395E+002  +6.9299386893E-003 +9.9487565753E+001  +1.1136679328E-002 +6.9420743395E+001  +8.8148450419E-001 +1.4405132644E+002 
4013645.807 +1.9154960302E-001 +1.4765833231E+002  +2.7032285018E-002 -1.0221877649E+002  +1.4735215519E-002 -4.2771311200E+001  +1.0545862999E+000 +1.3718886389E+002 
4138790.989 +1.4952995095E-001 +1.4827259945E+002  +1.7811511745E-002 +5.4604087634E+001  +3.7076633812E-003 +1.0451109913E+002  +4.1854519416E-001 +1.3480108990E+002 
4263936.170 +1.9079900952E-001 +1.4642333994E+002  +1.1651097951E-002 -1.3067976955E+002  +7.9229395836E-003 -3.0790428681E+001  +7.1816260315E-001 +1.0663200257E+002 
4389081.352 +2.2484840419E-001 +1.3429960518E+002  +1.4690511209E-002 +1.0454940246E+002  +3.9114706896E-002 +9.3597328917E+001  +8.4780719654E-001 +1.0480142707E+002 
4514226.533 +2.4901197366E-001 +1.3757617211E+002  +2.0335986677E-002 +1.2163247575E+002  +6.0579102928E-003 -8.1330034788E+001  +1.1961560472E+000 +8.6622462302E+001 
4639371.715 +2.1999652885E-001 +1.2671388028E+002  +7.0648107997E-003 +9.6390413213E+001  +2.1983161743E-002 -8.4908402314E+001  +1.0207143479E+000 +5.0233304362E+001 
4764516.896 +3.2775154098E-001 +1.2439963625E+002  +6.4394573981E-002 +1.3913226389E+002  +3.9867219825E-002 -1.3101865542E+001  +4.3121876298E+000 -5.4209891493E+000 
4889662.078 +4.5841789144E-001 +1.2605483422E+002  +1.6350126913E-002 +9.7836800175E+001  +2.6131398625E-002 -1.1103615490E+002  +1.8325549948E+000 -9.8683593336E+001 
5014807.259 +3.8197432005E-001 +1.2545846069E+002  +5.5083269438E-002 +1.0628084596E+002  +4.7647879239E-002 +1.1584809999E+002  +2.5723221492E+000 -1.2284240479E+002 
5139952.441 +3.9195459280E-001 +1.3595013921E+002  +3.1878997676E-002 +1.0610334894E+002  +8.2908581161E-003 +1.4100389943E+002  +3.3265986659E+000 +5.2542844220E+001 
5265097.622 +4.4949098393E-001 +1.2686500777E+002  +3.7276386390E-002 +1.1652325748E+002  +3.0062716561E-002 +3.3232525403E+001  +2.5612203442E+000 +7.9457181504E+001 
5390242.804 +5.6520808160E-001 +1.2086223214E+002  +3.4335210859E-002 +9.0604507405E+001  +5.8554605781E-002 +1.2732548791E+002  +2.7508379598E+000 +5.3567991481E+001 
5515387.985 +4.5162085715E-001 +1.0960807820E+002  +3.4300930041E-002 +3.7462085588E+001  +1.9291207887E-002 -3.2297685535E+001  +1.6673245771E+000 +1.2325224373E+002 
5640533.166 +4.6746023845E-001 +1.2928099000E+002  +3.4520378930E-002 +1.0080397813E+002  +9.8105599702E-003 +6.6710576191E+001  +5.6233737684E+000 +6.1870209897E+001 
5765678.348 +5.2731783038E-001 +1.2490337021E+002  +3.5174848513E-002 +1.2608875822E+002  +2.0731845966E-002 -1.7524457634E+001  +3.0672959991E+000 +2.5953460858E+001 
5890823.529 +5.1803081907E-001 +1.2203356716E+002  +1.3806998994E-002 -1.6572487184E+002  +9.6423162934E-003 -4.0390665963E+001  +2.0879748646E+000 +9.0199573519E+000 
6015968.711 +5.8865393910E-001 +1.1779262214E+002  +2.4367955845E-002 +1.4451876957E+002  +1.6597095416E-002 -8.2754134704E+001  +2.3409362619E+000 +5.7136548167E+001 
6141113.892 +6.8914139292E-001 +1.1661599503E+002  +3.3066832720E-002 +1.2982031980E+002  +2.2554382407E-002 +2.6412312793E+001  +1.9102808318E+000 +5.6758845768E+001 
6266259.074 +8.0684283757E-001 +1.0959969512E+002  +2.1220347612E-002 +9.5579404432E+001  +2.8854766999E-002 +6.0899113290E+001  +1.8927045266E+000 +1.9006009445E+001 
6391404.255 +1.0158674106E+000 +1.0400256158E+002  +1.8052771379E-002 +2.5036696132E+001  +3.4900914627E-002 +3.6267656769E+001  +1.6560380304E+000 +1.6086856409E+001 
6516549.437 +1.9134833178E+000 +8.7061780357E+001  +2.7855002527E-002 -5.6320806262E+001  +5.3933703241E-003 -7.9997032571E+000  +1.4751560431E+000 -5.1490859669E+000 
6641694.618 +1.4682601148E+000 +5.4760316820E+001  +1.3514120095E-002 +7.7278812342E+001  +2.5056841805E-002 -1.1259831906E+001  +1.3657272981E+000 -1.8723707921E+001 
6766839.800 +1.6346645463E+000 +4.7909945908E+001  +1.3385492793E-002 +1.3942168965E+002  +2.3404450803E-002 +2.5160503207E+001  +1.2902694505E+000 -7.5369992555E+000 
6891984.981 +1.5436700747E+000 +3.6582294636E+001  +1.5439870819E-002 +9.8046769777E+001  +3.5799984437E-003 +1.1854492652E+002  +1.3241105040E+000 -1.2722301032E+001 
7017130.163 +1.7285828723E+000 +1.8273304084E+001  +1.5557545820E-002 +3.0090654678E+001  +1.1554762121E-002 -6.1632121225E+001  +1.2449242681E+000 -6.5904588124E+000 
7142275.344 +1.3843787104E+000 -1.0782451210E+000  +7.3515487489E-003 -6.1781764715E+001  +1.4053178474E-002 -6.1239852283E+001  +1.3750783364E+000 -9.5745161259E+000 
7267420.526 +1.5231767299E+000 -7.2649469371E+000  +1.3481117894E-002 +2.6351467046E+001  +3.8127117682E-003 -9.3313739328E+000  +1.3882830268E+000 -1.3816465971E+001 
7392565.707 +1.1012801088E+000 -3.6549574305E+000  +1.1290920201E-002 +3.1804289575E+001  +7.6492466380E-003 -4.3723755059E+001  +1.2206946642E+000 -7.3467790625E+000 
7517710.889 +1.2568412961E+000 +3.8816575184E-001  +6.8427899815E-003 +2.7789217360E+001  +4.2328381408E-003 -1.2773969012E+002  +1.2165151787E+000 -4.8089188890E+000 
7642856.070 +1.0996957610E+000 -2.2606663230E+000  +3.9954178737E-003 +8.2061475570E+001  +8.6497500639E-003 +1.3854804344E+001  +1.0325367468E+000 -3.9955333299E+000 
7768001.252 +9.6262806780E-001 -5.4365524796E-001  +3.6251674571E-003 +5.7646594370E+000  +7.3471746329E-003 -8.3614872512E+001  +1.0822691555E+000 -8.6244394808E+000 
7893146.433 +8.1098510943E-001 +7.3606148748E+000  +8.9886421389E-003 -1.8184202769E+001  +9.6751603192E-003 -3.2697747328E+001  +9.7828292659E-001 +2.2536872840E-001 
8018291.615 +8.7136270165E-001 +6.6191175090E+000  +1.3315106239E-002 -4.1589587672E+001  +4.3418210312E-003 +1.2502949006E+001  +8.3914927128E-001 -3.3832040003E+000 
8143436.796 +7.1811797334E-001 +1.1840493918E+001  +3.7945497708E-003 -1.5890275301E+001  +1.1130323238E-003 +7.5478607526E+001  +7.5175588915E-001 -6.9875846935E+000 
8268581.977 +7.1910667548E-001 +3.1822937314E+000  +7.4729891696E-003 +2.7669300200E+001  +4.6264222262E-003 -4.6731995067E+001  +7.3976303496E-001 -2.3116728832E+000 
8393727.159 +7.5529876813E-001 +8.4105359763E+000  +6.4405088196E-003 +4.5819666503E+001  +1.0761261931E-002 -1.1721654538E+001  +7.1948915295E-001 -4.1692922809E+000 
8518872.340 +7.2132763719E-001 +7.4234915257E+000  +2.6172279874E-003 -5.1739815623E+000  +5.0521689202E-003 +7.4708976124E+001  +7.1251897304E-001 +5.7584593470E+000 
8644017.522 +6.1928762044E-001 +1.6337824717E+001  +5.2707573257E-003 -1.9375923825E+001  +3.7392597213E-003 +7.6656129975E+000  +7.0184473117E-001 -1.8862938544E+000 
8769162.703 +5.9997444252E-001 +5.5850649157E+000  +6.5741253842E-003 +1.5999147427E+001  +5.5087379304E-003 -4.2873129164E+001  +6.5171371564E-001 -1.0933701333E+000 
8894307.885 +5.8330485473E-001 +1.2053721990E+000  +3.1730624923E-003 -4.4408005147E+001  +4.2891793003E-003 +3.4521089707E+001  +6.2831951072E-001 -2.0833873912E+000 
9019453.066 +5.5943348690E-001 +2.8785023248E-001  +9.0561303565E-003 -1.4859380134E+001  +4.9168370883E-003 -4.3286815249E+001  +6.3497667696E-001 +3.7766861837E+000 
9144598.248 +6.6374491351E-001 +7.6474263332E+000  +2.9212488551E-003 -3.1168538087E+001  +4.7015818348E-003 +5.3203169662E+001  +6.2972875783E-001 -1.1487439276E+000 
9269743.429 +5.1844888965E-001 +6.4475462318E+000  +7.5818492018E-003 -2.5966531730E+001  +3.2858397199E-003 +3.0575776372E+000  +6.0401876156E-001 -4.9109336878E+000 
9394888.611 +5.2839012592E-001 +3.7401851863E+000  +3.4317785204E-003 +1.2394557908E+001  +4.8612656057E-003 +3.6153778380E+001  +5.9024883927E-001 -3.4571854498E-001 
9520033.792 +5.3298016342E-001 +1.1561229847E+000  +3.0257435959E-003 +1.1667592476E+001  +4.0282247672E-003 +3.8498324228E+001  +5.7223886431E-001 -2.8390978553E+000 
9645178.974 +5.2974971448E-001 -9.9440759955E-002  +4.6978776537E-003 +6.7126807891E+000  +3.7025456235E-003 -7.5755992517E+001  +5.8751358943E-001 -2.2236577648E+000 
9770324.155 +5.6754467120E-001 +2.4209291799E+000  +4.8519528347E-003 +3.1260038191E+001  +3.4422561467E-003 +2.6577347832E+001  +5.8765774008E-001 -6.3793282428E+000 
9895469.337 +5.3190219999E-001 +7.2275937080E-002  +3.1341632026E-003 -1.1013011060E+001  +1.7431989630E-003 +3.3630815761E+001  +5.8377816647E-001 -5.5814889152E+000 
10020614.518 +5.4712974471E-001 +5.1181960573E+000  +4.7259336226E-003 -1.1199959754E+001  +4.7895648136E-003 -1.1729660153E+001  +5.9496313743E-001 -6.8860403634E+000 
10145759.700 +5.3776028487E-001 +4.6162920373E+000  +2.9944817212E-003 -2.2218524358E+001  +5.4390720313E-003 +5.0550296648E+000  +5.5990514021E-001 -6.6652994374E+000 
10270904.881 +5.6678419161E-001 +4.0519401783E+000  +4.2678333419E-003 +2.4511040979E+000  +4.3925844813E-003 -1.2768216836E+001  +6.0392174997E-001 -3.3608107439E+000 
10396050.063 +5.0226682181E-001 +4.3608808312E+000  +3.4766435839E-003 +6.7963652556E-001  +4.1676821704E-003 +1.5106511116E-002  +5.4023010716E-001 -7.1928389315E-001 
10521195.244 +5.6886920761E-001 +6.8005115032E+000  +1.8643711834E-003 +9.9697780209E+000  +2.0928209460E-003 +6.6720913591E+000  +6.0517844776E-001 +1.3457567290E+000 
10646340.426 +5.3818420717E-001 +5.6125866569E+000  +4.7233050184E-003 -1.6791096701E+001  +4.0757981365E-003 -2.5727470005E+001  +6.1097934502E-001 +1.9295866965E+000 
10771485.607 +5.7969087238E-001 +9.8044310861E+000  +3.8402488139E-003 +6.5508304750E+000  +4.4158417078E-003 -9.4521051719E+000  +5.7206702055E-001 -2.5329164222E+000 
10896630.788 +6.0697448809E-001 +7.2673118479E+000  +2.8029325862E-003 +2.5898020747E+000  +2.8321710127E-003 +9.7054136342E+000  +6.0726979939E-001 -6.9502869819E-001 
11021775.970 +5.7562333152E-001 +5.5135649357E+000  +3.2256923266E-003 -3.4251684813E+001  +5.6105105526E-003 +4.6149548774E+001  +6.2015500114E-001 +3.4935336324E-001 
11146921.151 +5.6587290220E-001 +9.4378023898E+000  +2.8187114848E-003 +1.9751265902E+001  +5.5180189038E-003 +6.7508877956E+000  +6.2425703586E-001 -6.3347914222E-001 
11272066.333 +5.8198573231E-001 +9.7959171761E+000  +3.3688143638E-003 -1.2418794566E+001  +3.9232043073E-003 -2.2253135150E+001  +6.3408968635E-001 +2.7031803463E+000 
11397211.514 +6.2893667912E-001 +6.8503024310E+000  +3.8731667946E-003 +2.7087885370E+001  +4.1857093306E-003 +1.1313865844E+001  +6.4176022524E-001 -1.5731010116E+000 
11522356.696 +6.1933650309E-001 +9.3523808567E+000  +4.3765484579E-003 -2.2726340747E+001  +2.1147291371E-003 -2.7079641488E+000  +6.2788085230E-001 -8.4834808654E-001 
11647501.877 +6.6845768080E-001 +6.8407854901E+000  +4.4460762375E-003 +7.8470622359E+000  +4.3889066084E-003 +3.9541281548E+001  +6.5197520537E-001 +3.4657399475E+000 
11772647.059 +6.6794227704E-001 +6.0770380017E+000  +2.9849697404E-003 +3.5172540758E+001  +3.3091563233E-003 +4.7221472141E+001  +6.3633583531E-001 +3.9659713218E-001 
11897792.240 +6.4166712454E-001 +6.0329559887E+000  +2.8490000241E-003 +5.4468918505E+000  +2.8869943539E-003 +7.3516430807E+000  +6.7799697681E-001 +2.1662119479E+000 
12022937.422 +7.0518144467E-001 +3.8247374195E+000  +3.0360171054E-003 +6.9767067673E+000  +3.8979309857E-003 +1.2553585763E+001  +6.6865367306E-001 +2.6317594952E+000 
12148082.603 +7.0310628742E-001 +5.6082402520E+000  +5.2646294999E-003 -1.2435266601E+001  +4.0835363904E-003 -6.4068814726E+000  +6.7706877020E-001 +1.0773331595E+000 
12273227.785 +6.9205298496E-001 +4.9343503342E+000  +3.7907820532E-003 -1.4167369443E+001  +4.1762780875E-003 +3.1323338619E+001  +7.1233820177E-001 +1.6856767120E+000 
12398372.966 +7.2505680117E-001 +4.6299399858E+000  +6.2501444159E-003 -9.5333921131E-001  +4.0054649234E-003 +3.0110316932E+001  +7.2512060146E-001 -4.0100527645E-001 
12523518.148 +7.0699305276E-001 +3.3717909436E+000  +4.4652829943E-003 +5.4072554120E+000  +3.4170171464E-003 +2.5505701420E+001  +7.4800015363E-001 -4.5410494826E-001 
12648663.329 +7.3231826521E-001 +3.1966178705E+000  +4.3059810381E-003 +2.3678314559E+001  +4.7414361026E-003 +1.7517586199E+001  +7.6601791140E-001 +1.1348755766E+000 
12773808.511 +7.4874636759E-001 +1.7947662193E+000  +6.8702740206E-003 +2.6672232140E+001  +4.4002688647E-003 -1.8721201124E+001  +7.5023879849E-001 +7.1548078172E-001 
12898953.692 +7.6532862125E-001 +1.0344312758E+000  +2.7785736902E-003 -1.0942105243E+001  +6.9904265691E-003 +2.6561125343E+001  +7.7033224093E-001 +4.5100947093E-001 
13024098.874 +7.8390171973E-001 +1.4761309106E+000  +3.9446084518E-003 -5.7378052010E+000  +3.7086809879E-003 +1.9716005641E+001  +7.8862731185E-001 -1.4345221986E+000 
13149244.055 +8.1209370520E-001 -1.1720063593E-001  +3.7848768477E-003 +5.6893086155E+000  +4.1141923212E-003 +3.2970587464E+001  +8.0055008862E-001 -3.1769646308E+000 
13274389.237 +8.2166899924E-001 +9.0721456294E-002  +3.5480215769E-003 +7.8854552305E+000  +5.4824326677E-003 +2.0601751519E+001  +8.3375824028E-001 -1.0152856938E+000 
13399534.418 +8.4856809937E-001 -2.1695668458E+000  +4.9237575238E-003 +1.2656791387E+000  +5.4827134025E-003 +7.8513971387E+000  +8.4443335065E-001 -1.4711346039E+000 
13524679.599 +8.6084711536E-001 -2.7053564024E-001  +6.3777509125E-003 -1.6058788671E-001  +5.0998044824E-003 +1.5352641099E+001  +8.4324886929E-001 -7.0580990532E-001 
13649824.781 +8.8670729974E-001 +3.3474687773E-001  +4.9000266885E-003 +1.3740962257E+001  +4.7632544617E-003 -5.3807562485E-001  +8.5917504485E-001 -1.3785914474E+000 
13774969.962 +8.9065349392E-001 -1.8375406669E+000  +3.4892112010E-003 +3.0690983344E-001  +4.0837803205E-003 +7.3003046771E+000  +8.9972323313E-001 -3.7317782982E+000 
13900115.144 +9.1117260531E-001 -4.1997025573E+000  +5.1944077845E-003 +9.1775174267E+000  +4.1232267549E-003 +1.2771827102E+001  +9.2726543046E-001 -3.9999741650E+000 
14025260.325 +9.0885359019E-001 -3.3754443292E+000  +3.9524260772E-003 -1.2560573738E+001  +2.9898616406E-003 +1.0938166791E+001  +9.3584053868E-001 -3.6076586611E+000 
14150405.507 +9.4862250353E-001 -5.4175389792E+000  +4.4320009135E-003 +8.3883427757E+000  +5.1380782254E-003 +2.9289802895E+001  +9.5173587633E-001 -4.0041335123E+000 
14275550.688 +9.6219469870E-001 -5.4121049267E+000  +4.4321271062E-003 +3.8753739592E+000  +4.0415179316E-003 -1.5408246750E+001  +9.6544019690E-001 -4.2971308051E+000 
14400695.870 +9.7347930798E-001 -5.4201452810E+000  +4.6223836110E-003 +1.1201209353E+001  +3.2874526231E-003 +9.3919993215E+000  +9.5737685294E-001 -6.1315953134E+000 
