!  2-Port S-parameters saved by WinCal
! VAR MeasName=S-Parameters (CALIBRATED_DATA) read from VNA (P5004A)
! VAR MeasDate=29/08/2024 15:44:32
! VAR NAME=f39_SET2_9k-100M_3
! VAR FILENAME=f39_SET2_9k-100M_3.S2P
! VAR DATE=29/08/2024 15:44:32
! VAR PHYS_PORTS=1,2
! VAR ObjTypeName=DATASET
! VAR IndexType=Frequency
!
# Hz S MA R 50
9000.000 +9.5104154862E-002 -1.7147023737E+002  +7.8563111485E-003 -6.1480028969E+001  +6.7839949132E-003 +9.9537995187E+001  +2.5163657660E-001 -1.5087952607E+002 
134145.181 +1.1149351454E-001 +1.6973201184E+002  +6.3860732535E-004 -9.4471674904E+001  +4.2999591828E-004 +1.4290935874E+002  +2.3715949995E-001 -1.7063759396E+002 
259290.363 +1.1219297332E-001 +1.6966434727E+002  +5.3566006458E-004 -1.0988865899E+002  +1.1613775081E-004 +8.5001471833E+001  +2.4307864867E-001 -1.6877684976E+002 
384435.544 +1.1399256147E-001 +1.7028365028E+002  +2.1005122479E-004 +2.7170283931E+001  +1.4268476733E-003 +9.5613716675E+001  +2.4090436401E-001 -1.6801421713E+002 
509580.726 +1.1559711495E-001 +1.7088001019E+002  +3.9164819393E-004 -1.3889409719E+002  +6.4650090103E-004 +1.2938561218E+002  +2.4046299091E-001 -1.6575788856E+002 
634725.907 +1.1870538125E-001 +1.7201811135E+002  +1.3764108912E-003 -8.4844589996E+001  +1.5767332946E-003 +9.0037298847E+001  +2.4944737460E-001 -1.6455185262E+002 
759871.089 +1.1966160774E-001 +1.7118959244E+002  +7.8526347970E-004 -4.4404738291E+001  +1.2823751748E-003 +5.9230101918E+001  +2.4821824614E-001 -1.6692397749E+002 
885016.270 +1.2146687641E-001 +1.6890494213E+002  +4.4492566099E-004 -6.9011202220E+001  +1.7188505847E-004 +4.8358716680E+001  +2.4011532212E-001 -1.6718746341E+002 
1010161.452 +1.1784099347E-001 +1.6968399617E+002  +9.0399609561E-004 -4.5730019027E-001  +1.4291687766E-003 +1.4931339999E+002  +2.1624927481E-001 -1.6937899116E+002 
1135306.633 +1.1737569090E-001 +1.7019256551E+002  +3.8202157718E-003 -1.6812800046E+001  +1.7911330149E-003 -1.5506497926E+002  +1.9134287129E-001 -1.7253076479E+002 
1260451.815 +1.1933172635E-001 +1.7026956377E+002  +2.4380767641E-003 -2.0107861667E+001  +2.4950014048E-003 -1.4962991662E+002  +2.0560212473E-001 -1.6248049460E+002 
1385596.996 +1.2322893336E-001 +1.7297898303E+002  +1.7059893196E-003 -9.6626885106E+001  +1.4049255208E-003 +1.5548982087E+002  +2.6528772128E-001 -1.5988606069E+002 
1510742.178 +1.2778652193E-001 +1.7202514245E+002  +7.1699408828E-004 +3.6708878616E+001  +1.5549567376E-003 +1.4144238934E+002  +2.4771982032E-001 -1.6004432479E+002 
1635887.359 +1.2602955254E-001 +1.7121434621E+002  +1.3523677902E-003 +4.4216728367E+001  +2.6366852911E-003 +1.7507545107E+002  +2.4091024837E-001 -1.5848516107E+002 
1761032.541 +1.3084301838E-001 +1.7028025337E+002  +2.1286763586E-003 +2.8385904176E+001  +9.0555492813E-004 -1.3124265917E+002  +2.1330733189E-001 -1.5857104092E+002 
1886177.722 +1.3489819341E-001 +1.6833433606E+002  +1.3342900666E-003 +7.8865235311E+001  +2.7111072194E-003 -6.3403995897E+001  +2.2538021838E-001 -1.6966775247E+002 
2011322.904 +1.2696726206E-001 +1.6917179550E+002  +5.9285696819E-003 +4.1526002734E+001  +7.3180482506E-003 -8.2316413662E+001  +2.0764637917E-001 -1.5801481137E+002 
2136468.085 +1.3103075328E-001 +1.6775581398E+002  +8.9188350491E-003 +9.8889806204E+001  +5.4829026891E-003 -4.0089030183E+001  +2.0716538555E-001 +1.7888537111E+002 
2261613.267 +1.3672325814E-001 +1.6898003333E+002  +7.9319673503E-003 +3.1989089364E+001  +1.3751556328E-002 -9.0008800149E+001  +1.3101197920E-001 -1.6230683336E+002 
2386758.448 +1.3958026368E-001 +1.6404932935E+002  +8.7934764976E-003 +8.4863707751E+001  +9.0371134120E-003 -2.1638525284E+001  +2.3244746900E-001 -1.7998432007E+002 
2511903.630 +1.2515438178E-001 +1.6500900422E+002  +1.3263836331E-002 +8.3482659210E+001  +1.7994437503E-002 -3.1944252413E+001  +1.9148446604E-001 +1.7876999275E+002 
2637048.811 +1.3254593340E-001 +1.5744122921E+002  +4.3075574213E-002 +1.3808723310E+002  +5.8023510491E-002 +1.6105909354E+001  +4.3450219852E-001 +1.4409870371E+002 
2762193.992 +1.2829386086E-001 +1.7450499338E+002  +7.8928427880E-002 -9.0547910153E+000  +7.3517637052E-002 -1.0910097151E+002  +3.0221483310E-001 -3.1741374719E+001 
2887339.174 +1.1384181559E-001 +1.6630606430E+002  +5.3531091968E-002 +2.2835548740E+001  +4.7494000610E-002 -8.4275626198E+001  +7.8457674398E-002 -6.7511064036E+001 
3012484.355 +1.2262729441E-001 +1.6658472210E+002  +5.4869481620E-002 +6.4130407713E+001  +7.2972800474E-002 -3.7032178830E+001  +3.3923765122E-001 +9.7816377721E+001 
3137629.537 +1.2813207754E-001 +1.6896339230E+002  +9.0530051856E-002 +5.6230175639E+001  +1.1158771244E-001 -3.8828564150E+001  +6.5740263400E-001 +7.3461706874E+001 
3262774.718 +9.6793788497E-002 +1.6175073975E+002  +8.5794837165E-002 +6.7290413728E+001  +7.1989860888E-002 -3.6900380473E+001  +3.3230259117E-001 +9.9517980691E+001 
3387919.900 +1.3814278769E-001 +1.6046360585E+002  +3.6228101297E-002 +5.8944139486E+001  +3.5330228739E-002 -3.0852154709E+001  +1.4389898011E-001 +1.5242105133E+002 
3513065.081 +1.4978312232E-001 +1.5592660751E+002  +1.0874216609E-001 +6.1995561952E+001  +9.8154159420E-002 -2.1018656402E+001  +7.7187005632E-001 +4.7731661015E+001 
3638210.263 +1.6354689311E-001 +1.4797081026E+002  +1.4896739870E-001 +1.0540013974E+002  +1.1538131395E-001 +1.9416818054E+001  +1.0825223033E+000 +9.1822438019E+001 
3763355.444 +1.5742378184E-001 +1.3259584635E+002  +1.1184052532E-001 +1.0727106375E+002  +9.8500500816E-002 +3.4376819731E+001  +5.5413870301E-001 +1.2686670589E+002 
3888500.626 +1.4936124376E-001 +1.5226850421E+002  +5.4562535763E-002 +8.7709096877E+001  +4.8409344785E-002 +4.4890822768E+000  +3.3777964845E-001 +1.4426742150E+002 
4013645.807 +1.8635468372E-001 +1.5223628047E+002  +4.9928720246E-002 +8.0145320025E+001  +5.6925976105E-002 +2.0576799791E+000  +2.6911739292E-001 +1.2502487688E+002 
4138790.989 +1.7836552503E-001 +1.5166468526E+002  +7.1921330549E-002 +4.7107183209E+001  +7.8857792909E-002 -3.5495981167E+000  +3.2439386060E-001 +6.4895209206E+001 
4263936.170 +1.8577512667E-001 +1.5192905345E+002  +8.3024023995E-002 +1.0826786081E+002  +7.1245551688E-002 +3.8181205111E+001  +7.2590911536E-001 +1.2511867308E+002 
4389081.352 +1.9971405075E-001 +1.4159226029E+002  +8.9142992474E-002 +1.1722135786E+002  +8.0439152844E-002 +5.7976284871E+001  +7.4786092168E-001 +1.4348494414E+002 
4514226.533 +2.4135387390E-001 +1.4325631814E+002  +9.0758834936E-002 +1.1239965820E+002  +9.4334775631E-002 +5.3643483312E+001  +7.0585572477E-001 +1.1815510748E+002 
4639371.715 +2.3519406206E-001 +1.3273376914E+002  +1.9650381089E-001 +9.3877883705E+001  +1.6636946935E-001 +4.0216505722E+001  +1.0151733006E+000 +8.7944998608E+001 
4764516.896 +3.0983909705E-001 +1.3181759625E+002  +3.6977607068E-001 +1.3459012037E+002  +2.9519444749E-001 +8.6750777589E+001  +2.6611810263E+000 +1.1606579421E+002 
4889662.078 +3.4520360221E-001 +1.3733032851E+002  +6.3044383476E-001 -9.4562651564E+001  +6.0692309894E-001 -1.3929296656E+002  +3.9767925572E+000 -1.5002698176E+002 
5014807.259 +4.4590900654E-001 +1.0944046136E+002  +6.0047420589E-001 +8.0002049769E+001  +5.4825090083E-001 +2.9257791753E+001  +2.4686999422E+000 +4.0265432935E+001 
5139952.441 +3.7857029165E-001 +1.3360120312E+002  +7.3394067322E-001 +1.0504189505E+002  +6.8605462897E-001 +6.7314201161E+001  +6.9256783665E+000 +7.7786899466E+001 
5265097.622 +3.3781047227E-001 +1.2890058814E+002  +1.2062254548E-001 +1.0385535212E+002  +1.1861271406E-001 +5.7159119174E+001  +6.6409150365E-001 +1.1793602527E+002 
5390242.804 +4.0737042090E-001 +1.2888066030E+002  +2.2100071685E-001 +9.1522238140E+001  +2.1638118863E-001 +5.2611267468E+001  +1.1394795856E+000 +7.8477565704E+001 
5515387.985 +3.8358836255E-001 +1.3407745326E+002  +1.3692509231E-001 +9.3302656846E+001  +1.5063600551E-001 +6.1570588681E+001  +9.9262172883E-001 +9.9144895267E+001 
5640533.166 +3.8383555177E-001 +1.2715470716E+002  +1.5852342743E-001 +8.2823985960E+001  +1.6747588353E-001 +4.9513039282E+001  +9.7791009333E-001 +9.6623791094E+001 
5765678.348 +4.6646704508E-001 +1.2634775182E+002  +2.0815767333E-001 +9.1476005176E+001  +2.1661969429E-001 +5.9737050401E+001  +1.3511455715E+000 +9.0017853384E+001 
5890823.529 +5.0867256538E-001 +1.2340969570E+002  +2.3295602735E-001 +1.0082687224E+002  +2.1019860238E-001 +7.2153321610E+001  +1.7845556532E+000 +1.0162605935E+002 
6015968.711 +4.2360005555E-001 +1.0264026347E+002  +2.7668309566E-001 +5.2218476010E+001  +2.6274803727E-001 +3.4583109741E+001  +1.3078504009E+000 +6.5432818705E+001 
6141113.892 +6.1679323591E-001 +1.1947485497E+002  +2.8410890545E-001 +5.4627526079E+001  +2.8937874167E-001 +3.1812096791E+001  +1.9157820397E+000 +2.4926673932E+001 
6266259.074 +5.0449787264E-001 +1.0650248199E+002  +2.1816516107E-001 +4.9498108416E+001  +2.1287740671E-001 +3.3151365121E+001  +1.0969848095E+000 +6.5905255913E+001 
6391404.255 +7.5983182806E-001 +1.0175404408E+002  +2.9544907341E-001 +5.3246174979E+001  +3.0131988832E-001 +4.0391078046E+001  +1.4871481371E+000 +4.2190122214E+001 
6516549.437 +8.9265831621E-001 +7.9770127402E+001  +4.0040440988E-001 +2.7425063537E+001  +3.8340802392E-001 +1.8765366832E+001  +1.8548771605E+000 +1.5063603347E+001 
6641694.618 +8.1700089524E-001 +5.3843433356E+001  +3.2510929659E-001 +1.2026674266E+001  +3.1691003348E-001 +2.0185004693E+000  +1.1119114755E+000 +1.1666345614E+001 
6766839.800 +1.1738490891E+000 +4.8204546236E+001  +3.5192203931E-001 +1.4953075087E+001  +3.4448680098E-001 +9.1823198043E+000  +1.0595927243E+000 +8.5776419071E+000 
6891984.981 +1.1975893330E+000 +3.0389291334E+001  +3.0980661891E-001 +4.8282433447E+000  +3.2062848450E-001 -1.4961621772E-001  +9.8760804150E-001 +2.2672060367E+000 
7017130.163 +1.1842183085E+000 +8.0557841451E+000  +3.0202052884E-001 -6.1579478380E+000  +3.0109126281E-001 -8.8984043386E+000  +1.1264031592E+000 -3.3163348298E+000 
7142275.344 +1.0657938625E+000 +1.7782056021E+001  +2.4631201688E-001 +4.7341749440E-002  +2.3976876284E-001 -1.9167806974E+000  +1.0734466499E+000 -5.7971253186E+000 
7267420.526 +1.3041666624E+000 -2.4916179880E+000  +2.3467217387E-001 -1.4824346138E+000  +2.4237046522E-001 -6.1881425562E+000  +1.1365552140E+000 -2.1791190768E+001 
7392565.707 +9.5377810009E-001 +1.4323826766E+000  +1.9235265093E-001 +4.7810114383E+000  +1.8533412753E-001 +4.7913752383E+000  +1.0581669702E+000 -6.1268138081E+000 
7517710.889 +1.0257196209E+000 +7.3397045393E+000  +1.8441011959E-001 +6.2288511268E+000  +1.7796204285E-001 +7.6197518285E+000  +1.0308358649E+000 -8.3143802892E+000 
7642856.070 +9.5875448896E-001 +1.8831384158E+000  +1.7078665529E-001 +4.2111688252E+000  +1.7448203780E-001 +5.0286050396E+000  +9.4328071604E-001 -8.1616780194E+000 
7768001.252 +7.1762497139E-001 +1.3187965010E+001  +1.5162052221E-001 +1.2668227486E+000  +1.6154799453E-001 +7.7150740923E+000  +7.6935227959E-001 -4.1880277392E+000 
7893146.433 +7.4979743718E-001 +5.5735932731E+000  +1.5107787999E-001 +1.9737083951E+000  +1.5302279939E-001 +5.0019764002E+000  +6.9348699890E-001 +2.6442390006E+000 
8018291.615 +6.3582082840E-001 +1.3327039533E+001  +1.5155439232E-001 -1.4863534881E+000  +1.4535995465E-001 +6.0163762588E+000  +6.5413379883E-001 -1.7832614268E+000 
8143436.796 +6.7327082054E-001 +1.6764366962E+001  +1.4143423852E-001 +7.9125576917E-001  +1.5064442966E-001 +7.3221249882E+000  +6.7582915588E-001 -1.9491988920E+000 
8268581.977 +5.9267194321E-001 +1.2938840003E+001  +1.4567757310E-001 -8.8736270681E-001  +1.3898222934E-001 +8.2432604557E+000  +6.4204780130E-001 +8.1608832945E-001 
8393727.159 +5.5177185008E-001 +1.9872889249E+001  +1.3680159131E-001 -3.7678986396E+000  +1.3356695121E-001 +9.2274632986E+000  +5.4726508549E-001 +2.6222926954E+000 
8518872.340 +4.8173328239E-001 +1.0471879828E+001  +1.4408024915E-001 -2.7301452033E+000  +1.3418623396E-001 +6.3973911289E+000  +5.8578869519E-001 +4.3557953663E+000 
8644017.522 +5.0828452399E-001 +9.5491459341E+000  +1.3650534205E-001 -3.3534897601E+000  +1.3949397966E-001 +1.0259350471E+001  +5.0907097601E-001 +3.5708667277E+000 
8769162.703 +4.9649881083E-001 +7.6013471264E+000  +1.3544961069E-001 -3.5228535543E+000  +1.3181464430E-001 +1.0117426910E+001  +4.9110499668E-001 +2.2105718320E+000 
8894307.885 +5.0133462957E-001 +1.2656094535E+001  +1.2956686866E-001 -4.4080488922E+000  +1.3171892592E-001 +1.0780802406E+001  +5.1877483206E-001 +3.8900480694E+000 
9019453.066 +4.2735562411E-001 +1.0437306124E+001  +1.3526496155E-001 -4.1959590890E+000  +1.3256533925E-001 +9.2617312262E+000  +4.7416987516E-001 +1.3340951795E+000 
9144598.248 +5.1917864728E-001 +8.9184444794E+000  +1.3277350843E-001 -5.6213834056E+000  +1.3457582699E-001 +9.8285557254E+000  +4.1980480958E-001 -1.5428806152E+000 
9269743.429 +3.9266513136E-001 +7.3531422830E+000  +1.3435434687E-001 -4.4432834541E+000  +1.3346361598E-001 +1.0095109474E+001  +4.4212135544E-001 +1.1123342714E-001 
9394888.611 +4.5398787569E-001 +4.8777162033E+000  +1.3387254509E-001 -5.3378362337E+000  +1.3150137861E-001 +1.0004633256E+001  +4.0868786591E-001 +2.1140092052E+000 
9520033.792 +3.6439420495E-001 +1.3746409351E+001  +1.3405407775E-001 -4.9291689559E+000  +1.3197757041E-001 +9.4276568175E+000  +4.4114425509E-001 -6.0997160797E+000 
9645178.974 +4.1422389031E-001 +1.2546414565E+001  +1.3112818649E-001 -4.2966287562E+000  +1.3103021477E-001 +1.0807596761E+001  +4.0715103026E-001 +7.2395625276E-001 
9770324.155 +3.8410574443E-001 +2.9143381959E+000  +1.3430313989E-001 -4.7523224416E+000  +1.3275106496E-001 +1.1777540153E+001  +4.7472703549E-001 -6.8806410050E+000 
9895469.337 +4.2744260429E-001 +7.6575312398E+000  +1.3414425048E-001 -3.7585260750E+000  +1.3364108649E-001 +1.1834335360E+001  +3.9992349205E-001 -3.5069238315E+000 
10020614.518 +4.2956102718E-001 +2.5819209539E+000  +1.3742670213E-001 -3.1818895190E+000  +1.3657381915E-001 +1.2482957021E+001  +4.3852041583E-001 -2.1208575193E+000 
10145759.700 +4.2956079339E-001 +5.1596031976E+000  +1.3822520379E-001 -3.1770929217E+000  +1.3651582381E-001 +1.2236416656E+001  +4.3764197471E-001 -3.5807308148E+000 
10270904.881 +4.1017973245E-001 +2.5827391437E+000  +1.3815169633E-001 -3.0992655182E+000  +1.3563279952E-001 +1.2721042777E+001  +4.5516290493E-001 +2.4139316324E+000 
10396050.063 +4.0424565949E-001 +1.1972897046E+001  +1.3333701147E-001 -3.2588972782E+000  +1.3658346290E-001 +1.1369707462E+001  +4.1437437245E-001 +7.5382055341E+000 
10521195.244 +4.3888557543E-001 +8.3269390210E+000  +1.3927326437E-001 -1.6860573408E+000  +1.3611239048E-001 +1.1953888849E+001  +4.8501975388E-001 -3.0580057876E+000 
10646340.426 +4.2548590105E-001 +8.5475423939E+000  +1.3788052001E-001 -1.6157694159E+000  +1.3738163953E-001 +1.2593780258E+001  +4.6380756288E-001 +6.7201186252E+000 
10771485.607 +4.2602741963E-001 +5.9570154217E+000  +1.3847181020E-001 -1.8930896725E+000  +1.3953721666E-001 +1.3420246087E+001  +4.7271680259E-001 +2.1179589446E+000 
10896630.788 +4.6680786715E-001 +6.9772924476E+000  +1.4187002294E-001 -1.4732210248E+000  +1.3781505960E-001 +1.3195756626E+001  +4.3792143950E-001 +4.6522775972E+000 
11021775.970 +4.7086254598E-001 +1.4025877244E+001  +1.3975431506E-001 -1.4143462300E+000  +1.3758766408E-001 +1.3054880652E+001  +4.6214395370E-001 +6.5847285774E+000 
11146921.151 +4.7639521382E-001 +1.1625386079E+001  +1.4198489803E-001 -5.3873928570E-001  +1.4084492562E-001 +1.3237569933E+001  +4.9762232801E-001 +2.6367097381E+000 
11272066.333 +4.6264156528E-001 +8.4882252364E+000  +1.4088600930E-001 -8.9676673590E-001  +1.4491359439E-001 +1.2666712238E+001  +4.7163843799E-001 -7.4363404648E-001 
11397211.514 +4.7488267785E-001 +8.1349965302E+000  +1.4471470608E-001 -1.1490267389E-001  +1.4353160529E-001 +1.1546150082E+001  +5.0388291757E-001 +3.1642445007E+000 
11522356.696 +4.7973233803E-001 +9.8091326337E+000  +1.4564416654E-001 +3.8752854299E-001  +1.4592379135E-001 +1.2611421160E+001  +5.0513743236E-001 +4.6654119040E+000 
11647501.877 +4.9574066992E-001 +1.0964448432E+001  +1.4556178986E-001 +8.1834361213E-001  +1.4449855484E-001 +1.2202286004E+001  +5.3359298487E-001 +4.3363383508E+000 
11772647.059 +4.8970072330E-001 +7.7311380999E+000  +1.4855736961E-001 +5.3481539249E-001  +1.4765789366E-001 +1.0665283952E+001  +5.3358672471E-001 +4.1880690351E+000 
11897792.240 +5.0670860952E-001 +6.9946576224E+000  +1.5079725138E-001 +1.1288978723E+000  +1.4861671585E-001 +1.0852937906E+001  +5.3504847100E-001 +2.9730012801E+000 
12022937.422 +5.0990133852E-001 +9.2652536029E+000  +1.5283906554E-001 +5.6634156919E-001  +1.5095885737E-001 +1.0499916166E+001  +5.2520398686E-001 +1.7110235855E+000 
12148082.603 +5.2776296332E-001 +8.8967850875E+000  +1.5108987274E-001 +8.3770800134E-001  +1.5032632239E-001 +9.3692664661E+000  +5.1068581045E-001 +5.0393417671E+000 
12273227.785 +5.4136045279E-001 +5.6737305367E+000  +1.5562499594E-001 +1.2757241862E+000  +1.5452031208E-001 +9.6199894703E+000  +5.4941780888E-001 +2.9988969827E+000 
12398372.966 +5.5623901387E-001 +4.3452371721E+000  +1.5695261440E-001 +1.1214855668E+000  +1.5424172760E-001 +8.8216554382E+000  +5.5575984344E-001 +2.8435924252E+000 
12523518.148 +5.6855544068E-001 +6.0497316965E+000  +1.5805352835E-001 +2.1739036122E+000  +1.5756404540E-001 +8.6114682479E+000  +6.0149391396E-001 +2.7832807137E+000 
12648663.329 +5.6273386881E-001 +4.0183672555E+000  +1.6049521037E-001 +2.0698211936E+000  +1.5743954752E-001 +8.7169167795E+000  +6.0810394931E-001 +2.0019859973E+000 
12773808.511 +5.9374740670E-001 +3.2083635984E+000  +1.6040843376E-001 +2.2240202214E+000  +1.6051479037E-001 +8.7990184787E+000  +6.0608589332E-001 -3.8111082434E-001 
12898953.692 +6.1601796414E-001 +2.2008138370E+000  +1.6387159856E-001 +2.4484536301E+000  +1.6216897775E-001 +7.8012352113E+000  +6.0462304005E-001 -3.2115771945E+000 
13024098.874 +6.2198167324E-001 +4.1313007955E+000  +1.6417650295E-001 +2.7623804191E+000  +1.6202416414E-001 +7.9158006800E+000  +6.1865763485E-001 -6.5284585138E-001 
13149244.055 +6.4750708107E-001 +1.1258440892E+000  +1.6678951274E-001 +2.6394505899E+000  +1.6502433323E-001 +6.7296557005E+000  +6.4549775622E-001 +3.9571240389E-001 
13274389.237 +6.4739088289E-001 -2.0255320321E-002  +1.6817149062E-001 +1.9238811986E+000  +1.6604815154E-001 +6.2965746917E+000  +6.7772591287E-001 +2.8838729405E-001 
13399534.418 +6.6817626799E-001 +7.8696422114E-002  +1.6883826500E-001 +2.4495249698E+000  +1.6845130882E-001 +5.7901393229E+000  +6.7564869417E-001 -1.3901006258E+000 
13524679.599 +6.8043489962E-001 +9.9787042723E-001  +1.6946474499E-001 +2.1698678452E+000  +1.6760652643E-001 +5.3564182706E+000  +6.7757260269E-001 -1.1348817825E+000 
13649824.781 +7.1252360662E-001 -2.0947567231E+000  +1.7461985519E-001 +2.3747600268E+000  +1.7130910303E-001 +4.8580154903E+000  +7.1485656795E-001 -4.0976997292E+000 
13774969.962 +7.2118668521E-001 -1.7935691248E+000  +1.7230992940E-001 +2.4974662533E+000  +1.7150069049E-001 +4.8769090778E+000  +7.4080282010E-001 -1.3918362215E+000 
13900115.144 +7.2781404484E-001 -3.2462419166E+000  +1.7550501785E-001 +2.1497564934E+000  +1.7359690894E-001 +4.0138515395E+000  +7.5278658895E-001 -3.2825295377E+000 
14025260.325 +7.3952522354E-001 -3.2603763019E+000  +1.7638297506E-001 +2.0670314026E+000  +1.7413339440E-001 +3.4282474567E+000  +7.5678352477E-001 -4.3884135418E+000 
14150405.507 +7.5770413936E-001 -4.5603535779E+000  +1.7797326272E-001 +1.8203570785E+000  +1.7523553737E-001 +2.9277625240E+000  +7.6342683549E-001 -3.1352315846E+000 
14275550.688 +7.7980433404E-001 -3.0560463134E+000  +1.7565996327E-001 +1.4730232668E+000  +1.7481267338E-001 +3.0336247121E+000  +8.0855205307E-001 -3.7939920314E+000 
14400695.870 +7.9036639905E-001 -5.6078060782E+000  +1.7850102156E-001 +1.3036834608E+000  +1.7737253060E-001 +2.3216912856E+000  +7.9402930002E-001 -4.0147904575E+000 
