!  2-Port S-parameters saved by WinCal
! VAR MeasName=S-Parameters (CALIBRATED_DATA) read from VNA (P5004A)
! VAR MeasDate=29/08/2024 15:34:45
! VAR NAME=f39_SET1_9k-100M_2
! VAR FILENAME=f39_SET1_9k-100M_2.S2P
! VAR DATE=29/08/2024 15:34:45
! VAR PHYS_PORTS=1,2
! VAR ObjTypeName=DATASET
! VAR IndexType=Frequency
!
# Hz S MA R 50
9000.000 +1.0545171117E-001 -1.5652179861E+002  +9.7738397728E-003 -8.9086252237E+001  +5.5911579649E-003 -6.4771587119E+000  +2.4916650915E-001 -1.4280235270E+002 
134145.181 +1.1045873963E-001 +1.6937450979E+002  +5.2733348754E-004 +1.2040669351E+002  +2.8137125767E-004 +3.4245421771E+001  +2.3670068280E-001 -1.6996459566E+002 
259290.363 +1.1216521633E-001 +1.6938392223E+002  +4.6632239708E-004 -5.3951266546E+001  +8.1788229089E-004 -1.8600139464E+001  +2.4145868002E-001 -1.7005270761E+002 
384435.544 +1.1333178970E-001 +1.7012396878E+002  +4.5186349113E-004 +5.9468858334E+001  +6.3220070553E-004 +1.2059398993E+002  +2.3990300909E-001 -1.6838551854E+002 
509580.726 +1.1600546706E-001 +1.7032800944E+002  +5.2117423957E-004 -1.3943513144E+002  +2.4814658747E-004 +3.9575144613E+001  +2.5981790799E-001 -1.6661122677E+002 
634725.907 +1.1860916959E-001 +1.7129866214E+002  +1.1169097308E-003 -7.8683187360E+001  +1.2682228535E-003 +4.5489723119E+001  +2.4833061766E-001 -1.6561568282E+002 
759871.089 +1.2021107634E-001 +1.7095596339E+002  +5.6677677146E-004 -1.1271301032E+002  +1.3716461407E-003 +1.0256565721E+002  +2.5104355646E-001 -1.6610682254E+002 
885016.270 +1.2057298626E-001 +1.6934757503E+002  +3.0917274981E-004 -6.1991465525E+001  +2.3894309007E-004 +1.4013032776E+002  +2.4610953704E-001 -1.6710144495E+002 
1010161.452 +1.1888952870E-001 +1.7037082627E+002  +1.9663914964E-003 -6.1900160735E+001  +9.1846389881E-004 -1.6257503193E+002  +1.9659239875E-001 -1.7201029537E+002 
1135306.633 +1.1636068763E-001 +1.7024412105E+002  +1.2757760555E-003 -4.1969013482E+001  +3.2957189971E-003 +1.1922825220E+002  +1.9485320461E-001 -1.6963312171E+002 
1260451.815 +1.2011709689E-001 +1.6986422236E+002  +3.6520736738E-003 -9.5345698743E+001  +2.1852042609E-003 +4.7868513982E+001  +2.3011870741E-001 -1.4853255542E+002 
1385596.996 +1.2487416574E-001 +1.7229116971E+002  +1.0506658432E-003 -8.6638504873E+000  +6.8536735782E-004 +5.3107081896E+001  +2.7651757955E-001 -1.5605976167E+002 
1510742.178 +1.2687775430E-001 +1.7133379704E+002  +1.9716381267E-003 -6.8367288427E+001  +1.1277267308E-003 +1.4046259607E+002  +2.3318771510E-001 -1.5710467666E+002 
1635887.359 +1.2861183691E-001 +1.7164785725E+002  +7.6667527448E-004 +9.1178458017E+001  +1.0787174673E-003 -1.4755841065E+002  +2.4686365307E-001 -1.5889898159E+002 
1761032.541 +1.2963429184E-001 +1.7145922205E+002  +1.3858834673E-003 +3.7051255397E+001  +1.0270352006E-003 +1.6532882264E+002  +2.4375413470E-001 -1.5762322604E+002 
1886177.722 +1.2693907686E-001 +1.7075918020E+002  +3.3723758828E-003 +1.5854770501E+001  +1.5092606125E-003 -3.5915427508E+001  +2.1986932139E-001 -1.6109791265E+002 
2011322.904 +1.3121388402E-001 +1.6970984649E+002  +9.8518272539E-004 +7.9081326723E+001  +6.5654829027E-004 -4.5723115538E+001  +2.1613919342E-001 -1.7574658644E+002 
2136468.085 +1.3282180128E-001 +1.6708562326E+002  +2.9271303900E-003 +5.3896846615E+001  +4.6476417143E-003 -3.0300589739E+001  +1.9978569771E-001 -1.7387204103E+002 
2261613.267 +1.2315412533E-001 +1.6465402622E+002  +8.9176124154E-003 +4.2124356154E+001  +9.3126323305E-003 -2.5048350808E+001  +1.9645919990E-001 -1.7159531537E+002 
2386758.448 +1.3674282074E-001 +1.6379214227E+002  +5.8225600600E-003 +7.9696812190E+001  +1.1033436481E-002 -2.0950922083E+001  +2.0392344935E-001 +1.7080511034E+002 
2511903.630 +1.3607370918E-001 +1.6506887786E+002  +6.3242108318E-003 +8.6746846231E+001  +6.9192418211E-003 -3.0353142160E+001  +1.8922382544E-001 +1.6969473806E+002 
2637048.811 +1.2998586498E-001 +1.6480073932E+002  +2.1686561753E-002 +4.8026003587E+001  +9.0206818996E-003 -8.3027705636E+001  +1.2090186101E-001 -1.2870773772E+002 
2762193.992 +1.2544515066E-001 +1.6687906523E+002  +2.4460550287E-002 +3.9875459209E+001  +2.3483789286E-002 -7.9777253590E+001  +4.7405114999E-002 -1.3134837631E+002 
2887339.174 +1.3330658166E-001 +1.7064220526E+002  +1.9177205627E-002 -2.6589040303E+001  +1.2412772529E-002 -1.2181355477E+002  +2.5343546508E-001 -1.1679537376E+002 
3012484.355 +1.3333916592E-001 +1.7072444883E+002  +3.2769145379E-002 -9.9801524708E+000  +2.2344732806E-002 -1.2108135349E+002  +3.3709948294E-001 -3.3191739684E+001 
3137629.537 +1.2914567814E-001 +1.7146014261E+002  +1.6191651134E-002 +1.6416833586E+001  +2.2804501160E-002 -8.5685623492E+001  +3.5793778738E-002 -6.3772503964E+000 
3262774.718 +1.1456935253E-001 +1.7353498001E+002  +4.0527019329E-002 +8.4607405292E+000  +3.2596323840E-002 -1.0054125398E+002  +1.1946095550E-001 -9.6121546185E+000 
3387919.900 +1.3313365938E-001 +1.6199496610E+002  +4.1038880350E-002 +4.9109529771E+001  +5.0425786835E-002 +4.6057893630E+000  +5.7279560281E-001 +1.1367532327E+002 
3513065.081 +1.5483583120E-001 +1.4584456543E+002  +3.0281446373E-002 +1.3221090691E+002  +3.8529856963E-002 +3.7316945085E+001  +4.5040864175E-001 +1.4055592485E+002 
3638210.263 +1.3151512642E-001 +1.5178296853E+002  +3.9978679562E-002 +9.5451350477E+001  +3.0945091329E-002 +2.0767426504E+001  +4.8720139978E-001 +1.5577006327E+002 
3763355.444 +1.7642437483E-001 +1.5123096376E+002  +4.6856251072E-002 +9.7567978622E+001  +4.3278121401E-002 +3.7147088334E+001  +6.0304613625E-001 +1.1056465383E+002 
3888500.626 +1.6535212366E-001 +1.6075427937E+002  +2.1970643503E-002 +8.2312239641E+001  +2.0190667426E-002 +1.3155116035E+000  +4.7117049745E-001 +1.3546684813E+002 
4013645.807 +1.8683079697E-001 +1.5107899201E+002  +5.6837287669E-002 +9.5970612500E+001  +3.3920125446E-002 +2.0069515208E+001  +7.0564488679E-001 +1.0464942313E+002 
4138790.989 +2.1523884814E-001 +1.4232641699E+002  +3.7112534272E-002 +1.0504557977E+002  +2.7015802486E-002 +5.5798373575E+001  +3.6017427570E-001 +1.3300142956E+002 
4263936.170 +1.9333990796E-001 +1.4353231122E+002  +4.6438117458E-002 +1.0067969779E+002  +3.5408968746E-002 +2.7553594282E+001  +4.2155401272E-001 +1.2812488728E+002 
4389081.352 +2.3090160276E-001 +1.4332609290E+002  +7.6500019813E-002 +1.3718338421E+002  +9.1730332132E-002 +6.5052913338E+001  +1.3260583721E+000 +1.2039839825E+002 
4514226.533 +2.2270314666E-001 +1.3218182383E+002  +3.2957490082E-002 +1.1774571896E+002  +3.1789334637E-002 +5.2949401203E+001  +5.4264141824E-001 +1.3934347508E+002 
4639371.715 +2.4239998735E-001 +1.2862577210E+002  +6.8981492514E-002 +9.9679969900E+001  +4.6607404284E-002 +5.1710310329E+001  +6.0323690050E-001 +1.0424190262E+002 
4764516.896 +3.1002425895E-001 +1.2981419286E+002  +8.3484041693E-002 +1.2443028520E+002  +7.2284493493E-002 +7.2564003945E+001  +1.1389518605E+000 +1.0364247194E+002 
4889662.078 +3.5255951632E-001 +1.3596086787E+002  +3.6897776979E-001 -1.1218382827E+002  +3.2591343939E-001 -1.6381366897E+002  +4.6358017136E+000 -1.5411915898E+002 
5014807.259 +3.9101474165E-001 +1.3590693229E+002  +3.2025791415E-001 -1.7333791355E+002  +2.6783542309E-001 +1.3286988582E+002  +4.5997284190E+000 +1.5044564614E+002 
5139952.441 +3.3071316958E-001 +1.2757946611E+002  +2.3340878978E-001 +1.0966265049E+002  +1.9978689947E-001 +6.1012421230E+001  +3.2160635148E+000 +8.6868507228E+001 
5265097.622 +3.8664285663E-001 +1.3462221654E+002  +1.3684983505E-001 +1.2446634203E+002  +1.5143015366E-001 +9.1515901208E+001  +2.0233883699E+000 +1.0596262591E+002 
5390242.804 +4.8332486976E-001 +1.3505413243E+002  +1.2808124453E-001 +1.2809157192E+002  +1.3094516284E-001 +1.0095917686E+002  +1.8797066801E+000 +1.0065290689E+002 
5515387.985 +3.5735666534E-001 +1.3686006418E+002  +6.4733479749E-002 +7.5278228996E+001  +7.0627161743E-002 +4.3790404701E+001  +1.0772947761E+000 +8.7875184995E+001 
5640533.166 +4.8072822806E-001 +1.3507857681E+002  +7.2135569417E-002 +1.0421191285E+002  +8.4322954566E-002 +8.0589281253E+001  +1.2954057323E+000 +1.0052346236E+002 
5765678.348 +4.7085480559E-001 +1.2927150060E+002  +1.3429560102E-001 +1.1806876354E+002  +1.2487784283E-001 +8.7460518946E+001  +2.1616327730E+000 +1.0755806988E+002 
5890823.529 +5.8689662689E-001 +1.2449746747E+002  +1.8268363727E-001 +9.2837159154E+001  +1.3943570478E-001 +6.7805733313E+001  +2.2440102847E+000 +7.2713655439E+001 
6015968.711 +4.8883680071E-001 +1.1605081754E+002  +1.0583664645E-001 +6.5685124585E+001  +8.8622965512E-002 +2.7896640103E+001  +1.0126363536E+000 +7.1173160933E+001 
6141113.892 +7.3090451001E-001 +1.1324562688E+002  +1.4191924434E-001 +7.4285489328E+001  +1.4355190871E-001 +5.3331845225E+001  +1.3800483257E+000 +5.3451226507E+001 
6266259.074 +7.1545670813E-001 +1.0497952899E+002  +1.5571399163E-001 +4.3541325764E+001  +1.3882560035E-001 +2.8150595954E+001  +1.2012435054E+000 +2.4857529665E+001 
6391404.255 +8.3578593098E-001 +7.4409078657E+001  +2.0359731399E-001 +2.4673109689E+001  +1.7799180762E-001 +1.8833321298E+001  +1.4986957722E+000 +1.8042650954E+001 
6516549.437 +1.1691592340E+000 +8.6990470878E+001  +1.7264010375E-001 +3.9658112299E+001  +1.8152489735E-001 +2.3463175284E+001  +1.1612684559E+000 +9.6210779003E+000 
6641694.618 +1.2746646683E+000 +8.2869146204E+001  +1.7739768864E-001 +3.9768114667E+001  +2.0343718457E-001 +3.3200147191E+001  +1.4780956040E+000 +2.0320678576E+001 
6766839.800 +1.1943224793E+000 +5.4553804942E+001  +1.7768822747E-001 +2.1952098119E+000  +1.9378750150E-001 +6.8561702650E-001  +1.4335664735E+000 -6.4455096778E+000 
6891984.981 +1.8355704031E+000 +4.7930955169E+001  +1.8529694581E-001 +2.4100232936E+001  +2.0572339566E-001 +9.3110412940E+000  +1.2700021364E+000 -1.0317536794E+001 
7017130.163 +1.3450304946E+000 +1.9580305787E+001  +1.5307263379E-001 -3.8233314625E+000  +1.6181946452E-001 -2.2862803072E+000  +1.2054279098E+000 -1.4125821507E+001 
7142275.344 +1.1635560965E+000 +1.7323820146E+001  +1.2979557448E-001 +3.0006546063E+000  +1.2632052877E-001 +1.3233920024E+000  +1.1317989162E+000 -8.0975103490E+000 
7267420.526 +1.3433690932E+000 +8.4752154231E+000  +1.1829971988E-001 +6.5059933964E-001  +1.1933516160E-001 +5.4034275757E-001  +1.2116214454E+000 -7.4361338197E+000 
7392565.707 +1.0979801559E+000 +3.5655822938E+000  +9.7352257125E-002 +6.9022008984E+000  +9.4614921256E-002 +5.5846063674E+000  +1.3508062729E+000 -9.2507593039E+000 
7517710.889 +1.0903452176E+000 -9.4522048835E-001  +8.4797157539E-002 +8.3204415596E+000  +8.5263210901E-002 +1.6136893737E+000  +1.1464644457E+000 -5.0598179094E+000 
7642856.070 +9.9412011718E-001 -9.0051214914E-001  +1.0044188495E-001 +4.0938476585E+000  +8.5370957799E-002 +1.1430501553E+001  +1.0871372799E+000 -3.7249197781E+000 
7768001.252 +8.7574068676E-001 +2.3227538490E+000  +7.6912501263E-002 +2.0475698663E+000  +7.5042519971E-002 +8.3859337566E+000  +9.4118054468E-001 +3.3148385391E+000 
7893146.433 +7.5601171753E-001 +2.5898054908E+000  +8.0622796527E-002 +8.5491845272E-001  +8.0966539614E-002 +9.0655324729E+000  +8.6803156458E-001 -1.6801544287E+000 
8018291.615 +7.1162088968E-001 +3.4611637897E+000  +7.1007431353E-002 -5.3193331488E-002  +7.3474109800E-002 +9.9649519756E+000  +7.8505003272E-001 +1.1445806952E+000 
8143436.796 +6.7695464312E-001 +1.2535802094E+001  +7.4312410069E-002 +4.0146300318E-001  +7.4893199051E-002 +7.7501718299E+000  +7.6128864994E-001 +8.5019377728E-001 
8268581.977 +6.8315140700E-001 +5.2873677621E+000  +6.8993503290E-002 +1.1382449038E+000  +7.3992261664E-002 +1.1128711644E+001  +7.1612100559E-001 +2.5904282526E-001 
8393727.159 +5.5252201918E-001 +5.3399415419E+000  +7.2928848956E-002 -1.8322218859E+000  +7.1138881905E-002 +7.0490201414E+000  +6.4375575484E-001 +4.9738473535E+000 
8518872.340 +5.9117646591E-001 +1.2257176204E+001  +6.6249259278E-002 -1.8703203111E+000  +6.0796105770E-002 +1.0081563150E+001  +6.5198897644E-001 +7.6748251218E+000 
8644017.522 +5.3890545835E-001 +1.4876574104E+001  +6.5713275454E-002 -3.3138002185E+000  +6.5922134938E-002 +1.1078188901E+001  +5.9388285387E-001 +6.1174753543E-001 
8769162.703 +5.4940420238E-001 +1.3828349413E+001  +6.9685619767E-002 -1.6779503214E+000  +6.2865701233E-002 +1.1198883426E+001  +6.0582437484E-001 -6.8027271924E-001 
8894307.885 +5.5947680116E-001 +1.2277494408E+001  +6.5534864177E-002 -1.2311594858E+000  +6.2337927341E-002 +6.9187966829E+000  +6.3800127806E-001 +4.0369788639E+000 
9019453.066 +5.0632606871E-001 +1.4462177260E+001  +6.5361575874E-002 -9.5210877886E-001  +6.3658189791E-002 +1.2696257880E+001  +5.6386447007E-001 +3.1504139654E+000 
9144598.248 +5.1375785603E-001 +9.5706347282E+000  +6.8116315167E-002 -1.6860251585E+000  +6.6684024577E-002 +9.2022640557E+000  +5.1143765687E-001 +3.5858173683E-001 
9269743.429 +5.6986294532E-001 +8.8762796510E+000  +7.0918462822E-002 -3.7268352152E+000  +7.0347031668E-002 +1.3129647361E+001  +5.0024603573E-001 -3.2075784088E+000 
9394888.611 +5.1551549409E-001 +9.3102838820E+000  +6.7283241681E-002 -2.6903839570E+000  +7.0961887693E-002 +1.3114312063E+001  +5.3552396257E-001 -2.9184862584E+000 
9520033.792 +4.6135266861E-001 +6.3586772188E+000  +6.6246983477E-002 -3.2373721329E+000  +6.8245730843E-002 +1.0350161804E+001  +5.2100605382E-001 -4.4204679441E+000 
9645178.974 +4.7678833771E-001 +5.1202403199E+000  +6.5580141913E-002 -4.2931486383E+000  +6.5804631492E-002 +1.3079462838E+001  +5.2818397832E-001 -2.1158702825E+000 
9770324.155 +5.0555677090E-001 +4.8109790269E+000  +6.8674589554E-002 -1.9807462897E+000  +6.6461283203E-002 +1.2129002811E+001  +5.0563353609E-001 -2.5572552616E+000 
9895469.337 +4.8331921434E-001 -1.7226833660E+000  +6.9095378672E-002 -5.2188059515E+000  +6.5425142035E-002 +1.1125044815E+001  +5.1785902081E-001 -3.7762729668E+000 
10020614.518 +4.7837489536E-001 +2.9516461315E+000  +6.6851304716E-002 -2.9441549262E+000  +6.5882989118E-002 +1.4029221996E+001  +5.5417308651E-001 -8.6288916120E+000 
10145759.700 +4.6075881084E-001 +6.7271041672E+000  +6.4382505058E-002 -2.1190967138E+000  +6.4557250390E-002 +1.2702104205E+001  +5.1829157079E-001 -1.7104960849E+000 
10270904.881 +5.1270265228E-001 +1.1248273701E+001  +6.7110256648E-002 -5.2014903413E-001  +6.7171121027E-002 +1.5294404187E+001  +5.2713131142E-001 -2.9732359238E+000 
10396050.063 +5.1115155345E-001 +8.5422206166E+000  +6.7895398960E-002 -1.6259687462E+000  +6.8010103896E-002 +1.3435527907E+001  +5.1253749018E-001 -7.1117897261E+000 
10521195.244 +4.5124107051E-001 +1.1826451506E+001  +7.0039966997E-002 -4.9229093780E+000  +6.8614076312E-002 +1.1562138384E+001  +5.5877434404E-001 -5.4356056910E-001 
10646340.426 +4.9659389657E-001 +4.7638635657E+000  +7.0369713455E-002 -1.7699277813E+000  +6.8777864228E-002 +1.2890070743E+001  +5.6325210256E-001 +1.4960516262E+000 
10771485.607 +5.1973743284E-001 +1.0657453479E+001  +6.8947036791E-002 -2.7736046843E+000  +6.8193298949E-002 +1.3650429042E+001  +5.2862346350E-001 +9.3029790150E-001 
10896630.788 +5.2438205785E-001 +8.3928445460E+000  +7.0824505667E-002 +1.6176103894E+000  +7.0448099938E-002 +1.2826654248E+001  +5.5512986251E-001 +2.0937090992E+000 
11021775.970 +5.2233412272E-001 +1.1185465173E+001  +6.9099883566E-002 +1.5444789802E+000  +6.9280242874E-002 +1.2501394130E+001  +5.4609477727E-001 +1.4109885248E+000 
11146921.151 +5.1679379767E-001 +7.5729575104E+000  +7.3552130703E-002 -1.1229142141E+000  +6.9489487837E-002 +1.3140169611E+001  +5.6040948943E-001 +6.0604105305E-003 
11272066.333 +5.4105907933E-001 +8.5240048589E+000  +7.3062085119E-002 -1.3425781641E+000  +7.1709065722E-002 +1.2698049351E+001  +5.5312108984E-001 +3.1340128898E+000 
11397211.514 +5.5887754374E-001 +9.3072226578E+000  +7.0981920955E-002 +5.1853904895E-001  +7.1549020273E-002 +1.3148934105E+001  +5.5912366227E-001 +2.2509950709E+000 
11522356.696 +5.5553668164E-001 +6.9772825066E+000  +7.3038711387E-002 -3.4614656427E-001  +7.0774487078E-002 +1.2842777163E+001  +5.6475778612E-001 +3.7437564603E+000 
11647501.877 +5.8537930434E-001 +6.4781122626E+000  +7.2946504694E-002 +1.7712655588E+000  +7.4504157800E-002 +1.1973366805E+001  +5.6299716618E-001 +6.4261647201E+000 
11772647.059 +5.5960625424E-001 +4.9907776573E+000  +7.4984804506E-002 +1.9299515694E-001  +7.6702467393E-002 +1.2590608842E+001  +6.1163726032E-001 +2.5132377269E+000 
11897792.240 +5.8296091058E-001 +8.1781177486E+000  +7.7484015996E-002 +2.9629394307E+000  +7.4871350456E-002 +1.1138061201E+001  +5.8849511237E-001 +1.6105978064E+000 
12022937.422 +5.8162808917E-001 +6.9201802504E+000  +7.6406354169E-002 +1.2853129929E+000  +7.6594042756E-002 +1.1630733891E+001  +5.9833220119E-001 +9.2160618500E-001 
12148082.603 +6.2133673176E-001 +5.1951638890E+000  +7.7740732214E-002 +2.0665849837E+000  +7.6802568457E-002 +9.9557477184E+000  +6.4118002991E-001 +8.5754998726E-001 
12273227.785 +5.9819084658E-001 +3.5647622543E+000  +7.7533863123E-002 +7.1308980080E-001  +7.5899169534E-002 +9.5260787817E+000  +6.1436424741E-001 +1.8508922534E+000 
12398372.966 +6.1344635038E-001 +6.7508536823E+000  +7.8623073679E-002 +2.5207721809E+000  +7.8050471742E-002 +1.0246040789E+001  +6.5839058726E-001 +6.3580340887E-001 
12523518.148 +6.5525857560E-001 +1.9577035267E+000  +8.0473671763E-002 +1.6804760965E+000  +7.9694846943E-002 +8.9243573741E+000  +6.3722336682E-001 +3.9188579504E-001 
12648663.329 +6.6848638349E-001 +2.3025847044E+000  +8.1299114046E-002 +1.3909653314E+000  +8.0645220823E-002 +9.5149471023E+000  +6.5956118484E-001 -2.6955873701E-001 
12773808.511 +6.7402287230E-001 +3.6952590118E+000  +8.3552269745E-002 +1.6064952147E+000  +7.9832095809E-002 +9.1205313864E+000  +7.1750962941E-001 +3.9151161318E-001 
12898953.692 +6.8127870409E-001 -1.9319133291E-001  +8.2395534035E-002 +3.3277504792E+000  +8.2005158373E-002 +8.1471155745E+000  +6.9657060558E-001 -4.5931064496E-001 
13024098.874 +6.7992976438E-001 +1.5272889061E+000  +8.3670632842E-002 +2.1939752062E+000  +8.1371962481E-002 +9.1668287091E+000  +7.2679985506E-001 -2.0018972177E+000 
13149244.055 +7.3674466433E-001 +8.1399273735E-001  +8.4565479604E-002 +3.4035099881E+000  +8.2344362506E-002 +7.9666756425E+000  +7.4016517802E-001 -9.5614628580E-001 
13274389.237 +7.4726772411E-001 -1.4379390703E+000  +8.5134935964E-002 +2.5677192516E+000  +8.3747817631E-002 +7.7171381744E+000  +7.3192058429E-001 -7.3695241520E-001 
13399534.418 +7.3918367239E-001 +1.0064215527E+000  +8.3461603750E-002 +2.3823159056E+000  +8.4586834411E-002 +6.1309397679E+000  +7.6698552406E-001 -1.5438075140E+000 
13524679.599 +7.6645155572E-001 -2.1591362989E-001  +8.4739009389E-002 +3.6771067920E+000  +8.7287259594E-002 +6.1773304289E+000  +7.7758811390E-001 -1.8601598813E+000 
13649824.781 +7.9440228085E-001 -1.1769180649E+000  +8.5616219084E-002 +3.4161784094E+000  +8.5537520471E-002 +5.3693205956E+000  +8.0283028126E-001 -3.9782075299E+000 
13774969.962 +7.8903058030E-001 -4.3281943421E+000  +8.8056277186E-002 +3.0811880126E+000  +8.4727436241E-002 +3.6710429261E+000  +8.0527389021E-001 -3.6145994016E+000 
13900115.144 +8.3060330704E-001 -3.2491790889E+000  +8.9044564587E-002 +2.1709597386E+000  +8.7524514945E-002 +3.9975945086E+000  +8.2859296160E-001 -4.0571283937E+000 
14025260.325 +8.0749364951E-001 -2.9317486184E+000  +8.7347221797E-002 +2.1674763205E+000  +8.7714196978E-002 +4.1966168272E+000  +8.4457798451E-001 -3.0447287068E+000 
14150405.507 +8.5017837442E-001 -4.4504359447E+000  +8.7874667532E-002 +2.1606475652E+000  +8.7497176432E-002 +3.3343226730E+000  +8.6180399641E-001 -3.0073122054E+000 
14275550.688 +8.7290304064E-001 -3.8269780777E+000  +9.0502668469E-002 +1.5675026126E+000  +8.8748998054E-002 +1.5940789447E+000  +8.9064821200E-001 -4.8611357640E+000 
14400695.870 +9.1027278544E-001 -5.4778239147E+000  +8.9271094860E-002 +1.9430895292E+000  +8.8461942760E-002 +1.4976636028E+000  +8.7756380601E-001 -3.1689505208E+000 
