!  2-Port S-parameters saved by WinCal
! VAR MeasName=S-Parameters (CALIBRATED_DATA) read from VNA (P5004A)
! VAR MeasDate=29/08/2024 15:24:21
! VAR NAME=f39_RESET2_9k-100M_2
! VAR FILENAME=f39_RESET2_9k-100M_2.S2P
! VAR DATE=29/08/2024 15:24:21
! VAR PHYS_PORTS=1,2
! VAR ObjTypeName=DATASET
! VAR IndexType=Frequency
!
# Hz S MA R 50
9000.000 +8.4322792123E-002 -1.6964846475E+002  +1.9020360004E-003 +1.4834006931E+002  +7.5028681263E-003 +1.0104810022E+002  +2.4894848669E-001 -1.4609401847E+002 
134145.181 +1.1149539729E-001 +1.6967181554E+002  +6.8105892705E-005 +2.1867605102E+000  +4.4475421958E-004 +1.0756015703E+002  +2.4274661032E-001 -1.7105138920E+002 
259290.363 +1.1220115650E-001 +1.6948870027E+002  +2.6448255890E-004 -3.7777897274E+001  +6.0971591463E-004 +9.7390328325E+001  +2.4042915895E-001 -1.7023035543E+002 
384435.544 +1.1436180500E-001 +1.7006201251E+002  +4.7898762021E-004 -5.9595401256E+001  +1.3110623957E-003 +5.0512927584E+001  +2.3956508277E-001 -1.6866702596E+002 
509580.726 +1.1400709625E-001 +1.7113603670E+002  +4.9890473144E-004 -8.6125667212E+001  +9.5543233667E-004 +7.9797988311E+001  +2.4739541803E-001 -1.6562636567E+002 
634725.907 +1.1668014064E-001 +1.7150953909E+002  +1.5653608306E-003 -4.0561226159E+001  +1.8660608464E-003 +1.2652039901E+002  +2.3310400372E-001 -1.6291402171E+002 
759871.089 +1.1964127685E-001 +1.7029464498E+002  +5.4590788390E-004 -1.0279804532E+002  +1.2407069074E-003 +1.1425979052E+002  +2.4523039539E-001 -1.6782327402E+002 
885016.270 +1.2152174101E-001 +1.6859192526E+002  +5.9663453187E-004 -1.8638922296E+000  +9.0117858681E-004 +1.6479688030E+002  +2.4202199559E-001 -1.6747108372E+002 
1010161.452 +1.1707833573E-001 +1.7001329109E+002  +1.9605553726E-003 +1.4434476348E+001  +2.0266855359E-003 -1.5768067527E+002  +2.1778318181E-001 -1.6998226005E+002 
1135306.633 +1.1730640807E-001 +1.6912964334E+002  +4.4083672054E-003 +5.3285206523E+001  +5.8000936170E-003 -1.4167723929E+002  +1.9961065717E-001 -1.7191644187E+002 
1260451.815 +1.2047637553E-001 +1.6904207077E+002  +3.3628716383E-003 +1.5002145298E+001  +4.3355082424E-003 -1.4962197286E+002  +2.1705598039E-001 -1.6415001800E+002 
1385596.996 +1.2388815486E-001 +1.7092308770E+002  +3.4303309430E-003 -4.0959149951E+001  +2.5325521671E-003 +1.5890503407E+002  +2.5767234356E-001 -1.5712214457E+002 
1510742.178 +1.2818811939E-001 +1.7096976650E+002  +3.1694662245E-003 -4.1470319860E+001  +3.0791443589E-003 +1.6164957846E+002  +2.6075466097E-001 -1.5784124839E+002 
1635887.359 +1.2867431601E-001 +1.7176629436E+002  +1.8760968985E-003 +6.6580575781E+000  +3.2398782633E-003 -1.3466428289E+002  +2.4028133049E-001 -1.6022728988E+002 
1761032.541 +1.3241749579E-001 +1.7008080212E+002  +3.7062385687E-003 +1.7880277498E+001  +5.7485481383E-003 -8.0920486607E+001  +2.0906946568E-001 -1.5840921657E+002 
1886177.722 +1.3158797840E-001 +1.6899032833E+002  +5.0947978498E-003 +4.4720109501E+001  +6.0317951160E-003 -1.0069961356E+002  +2.3314798242E-001 -1.5811169707E+002 
2011322.904 +1.3412254478E-001 +1.6946581609E+002  +8.7331955399E-003 +5.3627964678E+001  +7.0437069043E-003 -6.8933978993E+001  +2.0271756606E-001 -1.6081180324E+002 
2136468.085 +1.3277596905E-001 +1.6756092047E+002  +1.2739832232E-002 +7.4022137200E+001  +1.3694946511E-002 -5.0879154743E+001  +2.0515755761E-001 -1.6725982039E+002 
2261613.267 +1.3722873492E-001 +1.6936708707E+002  +1.1844242969E-002 +6.7362716507E+001  +1.2350109248E-002 -5.0699627789E+001  +2.1856255725E-001 -1.6788028305E+002 
2386758.448 +1.3720623730E-001 +1.6683119010E+002  +1.9848649447E-002 +8.7168419490E+001  +2.1527512825E-002 -3.5001452177E+001  +1.9859569915E-001 -1.7485052676E+002 
2511903.630 +1.3632343230E-001 +1.6620508585E+002  +2.0160649858E-002 +7.8590061633E+001  +2.0965861903E-002 -3.8792493627E+001  +2.2052864816E-001 -1.6922785520E+002 
2637048.811 +1.2854265643E-001 +1.7346015282E+002  +5.2962540432E-002 +3.4473996449E+001  +5.0913631341E-002 -7.7098131974E+001  +1.3646849588E-001 -1.3972236382E+002 
2762193.992 +1.3448828426E-001 +1.7590247510E+002  +6.5127469951E-002 +8.2904119471E-001  +7.3115183365E-002 -1.0724268597E+002  +2.2972937123E-001 -1.1224925631E+002 
2887339.174 +1.3244622983E-001 -1.7343649530E+002  +1.7217139738E-001 -3.0285007369E+000  +1.8239486218E-001 -1.0582524247E+002  +4.7414850786E-001 -5.1629499975E+001 
3012484.355 +1.3535346886E-001 +1.6999818354E+002  +5.9983725478E-002 +1.7772738631E+001  +6.5425719892E-002 -7.6142805579E+001  +1.7011651330E-001 -1.1410255036E+002 
3137629.537 +1.3114407503E-001 +1.7567658095E+002  +8.2261208282E-002 +4.1658227124E+001  +8.0197278765E-002 -5.3392463401E+001  +8.1611141526E-002 +1.4017288577E+002 
3262774.718 +1.3433880654E-001 +1.7161670962E+002  +8.0543683731E-002 +1.4300841133E+001  +7.7321568829E-002 -8.1061198048E+001  +1.8983098842E-001 -1.0427599553E+002 
3387919.900 +1.0345390026E-001 +1.7250621856E+002  +1.2898925477E-001 +2.9297500986E+001  +1.1789834766E-001 -5.7131107717E+001  +7.7310331613E-002 -6.9118020480E+001 
3513065.081 +1.4152593847E-001 +1.6687102143E+002  +7.2401411003E-002 +5.1492355715E+001  +6.6559384174E-002 -3.1503494459E+001  +1.3741677390E-001 +1.7307503286E+002 
3638210.263 +1.6805610704E-001 +1.5358662374E+002  +9.5318266358E-002 +8.2588256632E+001  +8.8211482720E-002 +2.0911703476E+000  +1.4048085475E-001 +1.2443433546E+002 
3763355.444 +1.1317143791E-001 +1.3819596437E+002  +2.1470742108E-001 +7.1888719199E+001  +2.1566764364E-001 -5.0162178901E+000  +3.7417579749E-001 +8.1075569021E+001 
3888500.626 +1.7501329626E-001 +1.5527051289E+002  +1.0113240994E-001 +8.2273758182E+001  +1.0010276643E-001 +4.5075764422E+000  +2.1946784503E-001 +1.2090749828E+002 
4013645.807 +1.5820550053E-001 +1.5838030626E+002  +7.2226609644E-002 +7.4568982211E+001  +6.7756112474E-002 +4.5006011777E+000  +2.7770673757E-001 +1.7305944798E+002 
4138790.989 +1.7537782962E-001 +1.5724250465E+002  +8.2063861200E-002 +7.2010495871E+001  +7.5365973092E-002 +4.2130043306E+000  +2.2715349995E-001 +1.6490368450E+002 
4263936.170 +2.0069967500E-001 +1.5373156535E+002  +8.8635010889E-002 +9.7109366184E+001  +8.4839455899E-002 +3.3844223570E+001  +3.5264703607E-001 +1.5445040810E+002 
4389081.352 +1.4077260020E-001 +1.3230936662E+002  +2.8006660069E-001 +7.6355890435E+001  +2.8417510939E-001 +1.4885389074E+001  +6.2813707860E-001 +9.1831977335E+001 
4514226.533 +1.6016149828E-001 +1.4993578552E+002  +1.9225295861E-001 +5.3237943139E+001  +1.9775039818E-001 -5.1210996552E+000  +2.8995924245E-001 +6.3160644555E+001 
4639371.715 +2.7965190748E-001 +1.2637750095E+002  +3.3880803710E-001 +1.2114811757E+002  +3.3298163746E-001 +6.5483569454E+001  +9.7297616887E-001 +1.3018356684E+002 
4764516.896 +4.1757740992E-001 +1.2016407628E+002  +6.4264966286E-001 +1.2570419618E+002  +6.5745991184E-001 +7.5364579568E+001  +1.7460428616E+000 +1.1967734915E+002 
4889662.078 +4.2695328585E-001 +1.3536847791E+002  +4.6832520506E-001 +1.4504143157E+002  +4.3466644315E-001 +9.6248281706E+001  +1.2831976518E+000 +1.3731960921E+002 
5014807.259 +4.2078579518E-001 +1.2670154411E+002  +6.3185502618E-001 +1.1398045443E+002  +6.2281963123E-001 +7.0548085990E+001  +1.8610535737E+000 +1.0050727564E+002 
5139952.441 +3.6798730339E-001 +1.3660588258E+002  +2.9773908004E-001 +1.2728319387E+002  +2.7729979016E-001 +8.7907929773E+001  +9.3945830503E-001 +1.3872226858E+002 
5265097.622 +3.6255910485E-001 +1.3837038262E+002  +2.8177594150E-001 +1.3167132721E+002  +2.8528069365E-001 +9.2471682271E+001  +1.1194355196E+000 +1.4620387804E+002 
5390242.804 +3.4238452464E-001 +1.2302797421E+002  +4.3493278171E-001 +1.0526079349E+002  +4.3581448228E-001 +6.9776234033E+001  +1.3447730840E+000 +1.2388933685E+002 
5515387.985 +3.8092281095E-001 +1.3422075445E+002  +3.0578869300E-001 +1.0382666878E+002  +2.9817793582E-001 +7.0973928378E+001  +9.4385261528E-001 +1.2460534456E+002 
5640533.166 +4.2136178219E-001 +1.2445819214E+002  +3.9070797633E-001 +1.0456436169E+002  +3.8777631315E-001 +7.5091911270E+001  +1.1296457006E+000 +1.2649917336E+002 
5765678.348 +3.9515241350E-001 +1.3080028660E+002  +3.1481058983E-001 +9.4029816484E+001  +3.0687884560E-001 +6.6327884268E+001  +9.7208731754E-001 +1.2554487700E+002 
5890823.529 +3.6333446422E-001 +1.2143579959E+002  +3.5870146001E-001 +8.0362032395E+001  +3.6324109797E-001 +5.3789075649E+001  +9.5954833394E-001 +1.1966355690E+002 
6015968.711 +4.6586389613E-001 +1.0553521008E+002  +6.6380919448E-001 +7.4662789451E+001  +6.4246868045E-001 +4.8256498693E+001  +1.6449673811E+000 +8.6452464700E+001 
6141113.892 +4.5938483212E-001 +1.0969929259E+002  +5.0397418383E-001 +6.3233626963E+001  +5.0407324176E-001 +4.2324546599E+001  +1.0458075912E+000 +8.1884081071E+001 
6266259.074 +4.4818882192E-001 +1.1394242732E+002  +5.1438611686E-001 +5.7940174673E+001  +5.0943767651E-001 +3.8064781435E+001  +1.2744592082E+000 +7.5576029754E+001 
6391404.255 +4.4660060905E-001 +9.9785294951E+001  +5.4458299449E-001 +4.8433722076E+001  +5.2587971209E-001 +3.0282182589E+001  +9.9768287612E-001 +7.2771672790E+001 
6516549.437 +5.7845026115E-001 +9.7193489390E+001  +5.3224702750E-001 +4.0683590442E+001  +5.3534630203E-001 +2.6632906854E+001  +7.1803366943E-001 +4.3714532928E+001 
6641694.618 +6.6543393677E-001 +6.1236340052E+001  +7.8123979109E-001 +3.1329365479E+001  +7.8095521712E-001 +1.9814313859E+001  +1.1698440799E+000 +4.5733462352E+001 
6766839.800 +5.6620977678E-001 +6.5937166857E+001  +6.3680577730E-001 +2.2208814559E+001  +6.5797379194E-001 +1.2587391145E+001  +8.5976143485E-001 +3.5180098077E+001 
6891984.981 +6.3982960842E-001 +3.5305251256E+001  +6.8709019651E-001 +1.0137842663E+001  +6.8026713985E-001 +2.3341946290E+000  +7.0778501697E-001 +8.8787543551E+000 
7017130.163 +6.9571039761E-001 +3.3493382829E+001  +6.6013587865E-001 +8.9464207111E+000  +6.4199457262E-001 +3.6672940484E+000  +6.5112893279E-001 +1.5263889534E+001 
7142275.344 +7.1086190298E-001 -3.9394785285E+000  +6.6995338407E-001 -4.3680483085E-001  +6.5502839578E-001 -2.7446880552E+000  +7.2008817826E-001 +7.6148380965E+000 
7267420.526 +7.2855410932E-001 +5.1437467668E+000  +6.0234774543E-001 +2.7166330021E+000  +6.0148736200E-001 +4.4721141779E-001  +7.6002075052E-001 -6.7922638034E+000 
7392565.707 +5.7397326308E-001 +8.6259846699E+000  +5.3321881470E-001 +2.6658111500E+000  +5.3961632912E-001 +3.0940032115E+000  +6.6260323819E-001 -1.4925549292E+001 
7517710.889 +5.1100703228E-001 -5.8988220083E-001  +5.1147972447E-001 +2.3201686077E+000  +5.0622807211E-001 +4.1661788457E+000  +6.4467009703E-001 -9.8747138593E+000 
7642856.070 +4.0653527634E-001 +3.6996165282E+000  +4.8132974134E-001 -3.7290908892E-001  +4.8099533003E-001 +3.8533968954E+000  +5.8106056102E-001 -4.6470421151E+000 
7768001.252 +4.2197189453E-001 +4.1981680339E+000  +4.7415321209E-001 -7.1814354260E-001  +4.6994815761E-001 +3.6022148895E+000  +4.3807042115E-001 -7.6629758420E+000 
7893146.433 +4.3790918875E-001 +2.1345061536E+001  +4.4522561085E-001 -1.0172464723E+000  +4.3969332192E-001 +5.8317094735E+000  +3.9428304422E-001 +3.3054817637E+000 
8018291.615 +3.7463149841E-001 +1.8083602513E+001  +4.4540726401E-001 -2.1722368989E+000  +4.3912483882E-001 +5.9847637361E+000  +4.2423034981E-001 -3.3710128772E+000 
8143436.796 +2.6748586505E-001 +2.9005727043E+001  +4.1327005968E-001 -4.0432249868E+000  +4.2005439067E-001 +3.8954026618E+000  +2.7451514138E-001 +1.3660177685E+001 
8268581.977 +3.8575806756E-001 +3.2464207353E+001  +4.0605197272E-001 -3.0829756205E+000  +4.0194041546E-001 +7.7740557814E+000  +3.0310288485E-001 +2.7604825619E+001 
8393727.159 +2.9450929994E-001 +3.3347481322E+001  +4.0252290000E-001 -4.0790256875E+000  +3.9736581760E-001 +6.1654013776E+000  +3.1319770113E-001 +7.9165750024E+000 
8518872.340 +3.3048689515E-001 +2.6447446123E+001  +3.9545360352E-001 -4.4711505120E+000  +3.9270713033E-001 +7.5217245800E+000  +2.8210747280E-001 +2.0290880477E+001 
8644017.522 +2.0739719620E-001 +3.3704301060E+001  +3.8502292347E-001 -5.6011909748E+000  +3.8127442628E-001 +7.5450909427E+000  +2.6816234484E-001 +3.6412543974E+001 
8769162.703 +2.5408240763E-001 +2.9940238534E+001  +3.8468446026E-001 -5.2130075697E+000  +3.8255014011E-001 +8.1486974728E+000  +2.1911328199E-001 +3.3109812967E+001 
8894307.885 +2.8369106793E-001 +2.7410591011E+001  +3.9108632771E-001 -5.3709097619E+000  +3.8666968465E-001 +8.7597853263E+000  +1.7629924897E-001 +2.3153351773E+001 
9019453.066 +2.0523255522E-001 +3.2352734890E+001  +3.8099056373E-001 -5.5901358193E+000  +3.7930682656E-001 +8.3197910475E+000  +2.2763396389E-001 +2.9922250787E+001 
9144598.248 +2.3233019651E-001 +2.7697833439E+001  +3.8087648047E-001 -6.0533447854E+000  +3.8139180082E-001 +9.1236882477E+000  +2.2124118977E-001 +2.2150119283E+001 
9269743.429 +1.5217880883E-001 +3.3795894480E+001  +3.8558721954E-001 -7.0533611648E+000  +3.8401560748E-001 +8.1687643468E+000  +1.7378481757E-001 +9.3253875279E-001 
9394888.611 +1.5930111841E-001 +3.6235457603E+001  +3.7919724201E-001 -6.9110603957E+000  +3.7468182073E-001 +8.1307900391E+000  +1.5360598307E-001 +3.1810951298E+001 
9520033.792 +1.8282431559E-001 +2.8571267688E+001  +3.7944628884E-001 -6.4502346488E+000  +3.7770345148E-001 +9.7148779279E+000  +1.9255561416E-001 +1.6772227020E+001 
9645178.974 +1.8491632668E-001 +2.3094038890E+001  +3.8082788029E-001 -5.9609439254E+000  +3.7329702893E-001 +9.8422759436E+000  +1.8730435545E-001 +2.4572294785E+001 
9770324.155 +1.8821694553E-001 +2.2915152665E+001  +3.8807993954E-001 -6.1141351448E+000  +3.8333608604E-001 +1.0222580669E+001  +1.8111655367E-001 -2.0091584570E+000 
9895469.337 +9.9520311552E-002 +3.5229473293E+001  +3.8162200779E-001 -6.4580714351E+000  +3.7710639407E-001 +9.1334449316E+000  +1.9113074587E-001 +1.4767845761E+001 
10020614.518 +1.6037473957E-001 +4.0293515171E+001  +3.8115305540E-001 -6.4402994941E+000  +3.7509066296E-001 +9.6264943999E+000  +1.6346792255E-001 +2.5424738198E+001 
10145759.700 +1.5974190524E-001 +2.6542286668E+001  +3.8464354891E-001 -6.2335844332E+000  +3.8165987124E-001 +9.2272525508E+000  +1.4224846483E-001 +1.7995724184E+001 
10270904.881 +1.5216527545E-001 +2.3161600912E+001  +3.8848927220E-001 -5.6492166261E+000  +3.8385135365E-001 +9.9602221874E+000  +1.9805455788E-001 +2.4575175150E+001 
10396050.063 +2.1870253322E-001 +3.4340728580E+001  +3.8394773415E-001 -4.7854751063E+000  +3.8412200837E-001 +1.0613538688E+001  +1.7199075929E-001 +1.9993473545E+001 
10521195.244 +1.9396799621E-001 +3.4005791074E+001  +3.8616795947E-001 -4.4685235118E+000  +3.8096236944E-001 +1.0314572995E+001  +2.2291609702E-001 +2.8652143454E+001 
10646340.426 +1.8256927678E-001 +3.2707341550E+001  +3.9035188403E-001 -4.3373822241E+000  +3.8559268610E-001 +1.0171349888E+001  +2.0408326150E-001 +2.5735342056E+001 
10771485.607 +1.6512483168E-001 +3.8872506271E+001  +3.9028446460E-001 -4.7362498489E+000  +3.8635040404E-001 +9.6821581906E+000  +2.0034427928E-001 +3.3624870125E+001 
10896630.788 +1.8855849093E-001 +4.1222498839E+001  +3.9284331639E-001 -4.4502963210E+000  +3.8732366532E-001 +9.9234106669E+000  +2.0092075625E-001 +3.5384361879E+001 
11021775.970 +1.7983350751E-001 +3.6171637889E+001  +3.9641168632E-001 -4.0793364320E+000  +3.9269737479E-001 +9.6523399537E+000  +2.1294888526E-001 +2.6792527189E+001 
11146921.151 +2.0636432052E-001 +3.7199407156E+001  +3.9833782145E-001 -3.7763677214E+000  +3.9529635526E-001 +9.4289842929E+000  +1.7347265333E-001 +2.5791047289E+001 
11272066.333 +2.3895847410E-001 +2.6629624999E+001  +4.0544786999E-001 -2.9328107904E+000  +3.9988337990E-001 +9.5614253238E+000  +1.9642227257E-001 +2.5713457432E+001 
11397211.514 +2.1696134757E-001 +3.1358508712E+001  +4.0463067601E-001 -2.8157858791E+000  +4.0075778083E-001 +9.3586097730E+000  +2.4220766893E-001 +3.0086261277E+001 
11522356.696 +2.4193065971E-001 +2.8807208220E+001  +4.0736591257E-001 -2.2289280753E+000  +4.0597885455E-001 +9.5667634875E+000  +2.2917138289E-001 +2.5534689862E+001 
11647501.877 +2.5492588758E-001 +2.9019746908E+001  +4.1210343901E-001 -2.4013261735E+000  +4.1083668071E-001 +9.0155140821E+000  +1.9796953924E-001 +2.3344035157E+001 
11772647.059 +2.1729075165E-001 +2.8961131643E+001  +4.1824586244E-001 -1.9335276345E+000  +4.1340992771E-001 +8.7573892454E+000  +2.5138315284E-001 +2.4101007145E+001 
11897792.240 +2.2675797049E-001 +1.8004615021E+001  +4.2540207067E-001 -1.3864430081E+000  +4.2137645758E-001 +9.1359260148E+000  +2.6691587104E-001 +2.0906058134E+001 
12022937.422 +2.5989430097E-001 +2.3632325307E+001  +4.2541666835E-001 -9.7968751724E-001  +4.2038977178E-001 +8.3916038522E+000  +2.6456987021E-001 +1.8355495126E+001 
12148082.603 +2.5308028774E-001 +1.9893500323E+001  +4.3098849507E-001 -1.3904360073E+000  +4.2633010739E-001 +7.9757532953E+000  +2.6086674091E-001 +2.4643553173E+001 
12273227.785 +2.8318861562E-001 +1.2641494018E+001  +4.3799599791E-001 -3.2049719198E-001  +4.3435624798E-001 +8.2879542032E+000  +2.8867665678E-001 +1.7364868161E+001 
12398372.966 +2.7314494219E-001 +2.1538922298E+001  +4.4142643604E-001 -7.6241759481E-001  +4.3768820500E-001 +6.9271173787E+000  +2.5314058375E-001 +9.0500926550E+000 
12523518.148 +2.8914816242E-001 +1.9750352147E+001  +4.4198135702E-001 -3.8876454206E-001  +4.3739094265E-001 +6.9228543622E+000  +2.6927306840E-001 +1.4825177576E+001 
12648663.329 +2.7232045592E-001 +1.8967405479E+001  +4.4721998379E-001 -5.2105883154E-001  +4.4322276616E-001 +6.3143767864E+000  +2.8220222515E-001 +1.2947958360E+001 
12773808.511 +2.8415190556E-001 +1.1691359353E+001  +4.5629942984E-001 -5.1522120682E-002  +4.4966835352E-001 +6.2698521479E+000  +3.1434339090E-001 +1.0859086144E+001 
12898953.692 +3.3874570459E-001 +1.3518678866E+001  +4.6034376495E-001 +7.4322848893E-001  +4.5651326779E-001 +6.1888245416E+000  +3.1688594851E-001 +6.6281215526E+000 
13024098.874 +3.1542691566E-001 +8.0055415063E+000  +4.6746912959E-001 +1.5462652265E-001  +4.6271458981E-001 +5.0212376296E+000  +3.1132516252E-001 +4.8844825278E+000 
13149244.055 +3.1041393720E-001 +7.5841990611E+000  +4.6832313263E-001 +2.5912470208E-001  +4.6593619880E-001 +4.6033237083E+000  +3.2226594572E-001 +6.4212819799E+000 
13274389.237 +3.2727857480E-001 +7.7412974100E+000  +4.7494735370E-001 +2.1641567824E-001  +4.7104016508E-001 +4.2680131889E+000  +3.2734172212E-001 +1.1547178771E+000 
13399534.418 +3.4875499341E-001 +2.8544758236E+000  +4.8125274530E-001 +7.6610844197E-001  +4.7525701823E-001 +4.6474293228E+000  +3.7039571748E-001 +3.1069860162E+000 
13524679.599 +3.7351453826E-001 +3.6531234917E+000  +4.8694467438E-001 +1.0241084386E+000  +4.8096027585E-001 +3.9498422674E+000  +3.6862805516E-001 -1.6719556501E+000 
13649824.781 +3.5951699172E-001 -6.9263561210E-001  +4.8948836534E-001 +5.0701631937E-001  +4.8511545802E-001 +2.8779756676E+000  +3.6843199360E-001 +2.8928730201E+000 
13774969.962 +3.6965839868E-001 -3.9152899450E-001  +4.9433729585E-001 +6.3390542232E-001  +4.8872058732E-001 +2.5828721773E+000  +3.7149565646E-001 -7.6212490894E-001 
13900115.144 +3.7992056974E-001 +1.1554654531E-001  +4.9901748911E-001 +4.8883152777E-001  +4.9075031918E-001 +2.2449311274E+000  +3.9811948509E-001 -2.8921710326E-001 
14025260.325 +4.1202226990E-001 -2.1321190691E+000  +4.9902402509E-001 +7.8703655459E-001  +4.9486191308E-001 +2.1011784282E+000  +4.0284380060E-001 +7.2808205687E-002 
14150405.507 +4.2430760587E-001 -8.7486767342E-001  +5.0494297891E-001 +9.6335369162E-001  +4.9919732305E-001 +1.9631821125E+000  +4.4547824013E-001 -3.1588947351E+000 
14275550.688 +4.5466083267E-001 -4.4561404018E+000  +5.0873975837E-001 +8.6728552880E-001  +5.0648369125E-001 +1.7500065584E+000  +4.4156375179E-001 -3.1559560756E+000 
14400695.870 +4.5770787322E-001 -5.4320073172E+000  +5.1330497931E-001 +2.9804054323E-001  +5.0794473556E-001 +1.0230860677E+000  +4.3353410218E-001 -4.3838997817E+000 
