!  2-Port S-parameters saved by WinCal
! VAR MeasName=S-Parameters (CALIBRATED_DATA) read from VNA (P5004A)
! VAR MeasDate=29/08/2024 15:27:16
! VAR NAME=f39_RESET3_9k-100M_3
! VAR FILENAME=f39_RESET3_9k-100M_3.S2P
! VAR DATE=29/08/2024 15:27:16
! VAR PHYS_PORTS=1,2
! VAR ObjTypeName=DATASET
! VAR IndexType=Frequency
!
# Hz S MA R 50
9000.000 +8.7444638925E-002 -1.7454281364E+002  +5.1051767081E-003 +9.7105552117E+001  +9.5440555814E-003 +1.1998972059E+002  +2.2451950189E-001 -1.4187966304E+002 
134145.181 +1.1121153547E-001 +1.6941026960E+002  +5.5387644940E-004 +1.3571487332E+002  +5.4591852604E-004 +7.9069864114E+001  +2.3875972008E-001 -1.7182885164E+002 
259290.363 +1.1163891608E-001 +1.6974869493E+002  +2.5804241528E-004 -3.5396240629E+001  +1.0820186878E-003 -9.5869832993E+001  +2.3971272535E-001 -1.6912985228E+002 
384435.544 +1.1398088323E-001 +1.7001117171E+002  +4.3327894664E-004 +1.6232088475E+002  +2.9482321705E-004 -1.1089952006E+002  +2.4988444655E-001 -1.6929789678E+002 
509580.726 +1.1387161715E-001 +1.7204118647E+002  +8.4380230385E-004 +1.2327415296E+002  +2.4519930086E-003 -1.6083206106E+002  +2.4622963636E-001 -1.6608057507E+002 
634725.907 +1.1794761069E-001 +1.7117946913E+002  +6.1642140727E-004 -5.3093685310E+001  +4.3684095328E-004 -1.3041410920E+001  +2.5358757484E-001 -1.6535245194E+002 
759871.089 +1.1905352337E-001 +1.7086283830E+002  +2.3134099665E-004 +1.1750341861E+002  +5.0388143414E-004 +1.4698336696E+002  +2.4824844526E-001 -1.6629929071E+002 
885016.270 +1.2051707970E-001 +1.6899221334E+002  +2.4904963793E-004 -8.6217929593E+001  +3.2313910554E-004 +1.2787101641E+002  +2.4418331089E-001 -1.6842423007E+002 
1010161.452 +1.1571280027E-001 +1.6913961400E+002  +3.6753239294E-004 +7.7668219910E+000  +1.7080986020E-003 -1.7236183925E+002  +2.1506353326E-001 -1.6653140087E+002 
1135306.633 +1.1457339716E-001 +1.6766960585E+002  +2.5750166272E-003 -9.2524806648E+001  +9.4030685987E-004 +1.1893005949E+001  +1.9053769537E-001 -1.6954460669E+002 
1260451.815 +1.2132324899E-001 +1.7040645684E+002  +1.1597214361E-003 +1.0784276142E+001  +5.8626535643E-004 +1.0873759733E+002  +2.0692498181E-001 -1.6578595728E+002 
1385596.996 +1.2826172561E-001 +1.7250477714E+002  +8.5998145516E-004 -1.3799487227E+002  +8.0461721772E-004 -1.5521389261E+002  +2.7443584061E-001 -1.5684629892E+002 
1510742.178 +1.2822329960E-001 +1.7211839812E+002  +3.1438439764E-004 -1.1814248705E+002  +1.1241919347E-003 -1.7790167410E+002  +2.5689032719E-001 -1.5877875067E+002 
1635887.359 +1.3126595635E-001 +1.7168083951E+002  +2.9004494499E-004 +1.5855561421E+002  +3.6797167385E-004 +4.9636348395E+001  +2.1397752786E-001 -1.5686737193E+002 
1761032.541 +1.2580392809E-001 +1.6952295471E+002  +1.1663780932E-003 -3.2734263504E+001  +1.8688514891E-003 +1.3249176410E+002  +2.2407524196E-001 -1.5538808705E+002 
1886177.722 +1.2838361091E-001 +1.6754218501E+002  +2.0991769049E-003 +2.5972482945E+001  +2.3068736744E-003 +8.8025122923E+001  +1.9300433121E-001 -1.6768244970E+002 
2011322.904 +1.2472792356E-001 +1.6865346946E+002  +1.4050783980E-003 -7.6975664788E+001  +1.9011552182E-003 -1.7857071566E+002  +2.0085342225E-001 -1.7563069608E+002 
2136468.085 +1.3014092123E-001 +1.6421593176E+002  +2.1229060343E-003 -1.4994882785E+002  +2.9217930978E-003 -7.5096004882E+001  +1.9897456000E-001 -1.7273803724E+002 
2261613.267 +1.2602118503E-001 +1.6663502604E+002  +2.5036240789E-003 -1.7029193347E+002  +2.5840415828E-003 +7.3595532554E+001  +2.1658231656E-001 -1.7353121424E+002 
2386758.448 +1.3624169673E-001 +1.6474704363E+002  +9.7880313797E-004 +6.3550791270E+001  +2.1534985578E-003 +5.9720287191E+001  +1.9742915134E-001 -1.7190816636E+002 
2511903.630 +1.3124277792E-001 +1.6103099225E+002  +2.3877300133E-003 +5.6476851894E+001  +3.4593882596E-003 +7.4430467210E+001  +2.4910287372E-001 +1.6254292238E+002 
2637048.811 +8.7412138239E-002 +1.5811203760E+002  +1.0038951779E-002 -1.6954703537E+002  +1.0748311166E-002 -6.7499589049E+001  +1.4478642493E-001 +1.6750180430E+002 
2762193.992 +1.1458158304E-001 -1.7833388269E+002  +7.9620179295E-003 -2.3943819054E+001  +9.4485365872E-003 +8.0446007025E+001  +7.2242008681E-001 -1.1815664496E+002 
2887339.174 +1.2042567604E-001 +1.7811628592E+002  +6.8949559237E-003 +3.2009921354E+001  +4.5807593461E-003 +1.1149270510E+002  +2.3166513096E-001 -1.0853058956E+002 
3012484.355 +1.2040078957E-001 +1.6936868582E+002  +5.8880271940E-003 +1.1512211614E+002  +2.2915339875E-002 -1.0216989591E+002  +7.7149922099E-001 -7.3871264508E+001 
3137629.537 +1.0306019715E-001 +1.7027803033E+002  +5.3625651730E-003 +6.1082432678E+001  +1.2326946093E-002 -1.2029884070E+002  +7.6456112440E-002 -5.0078252303E+001 
3262774.718 +1.3776481656E-001 +1.7109866202E+002  +6.3768873433E-003 +1.1266723150E+002  +2.1405423182E-003 -1.6471368605E+002  +2.6819207161E-001 +4.4610881238E+001 
3387919.900 +1.3227136878E-001 +1.6804520225E+002  +1.6918239879E-002 -9.1075074419E+001  +1.2726144131E-002 +1.3963645510E+002  +7.2403688340E-001 +7.3621148035E+001 
3513065.081 +1.3752060519E-001 +1.5929111226E+002  +4.7457031612E-003 -9.8913655858E+001  +9.7854572091E-003 -2.3971857728E+001  +7.4144993676E-001 +1.4682376223E+002 
3638210.263 +1.8782055698E-001 +1.4513126648E+002  +1.2113667642E-002 -1.3370484974E+002  +1.3093015909E-002 -2.8847811459E+001  +1.1713816584E+000 +9.6965422707E+001 
3763355.444 +1.6155026860E-001 +1.4686509256E+002  +1.5087049431E-003 +1.0297380684E+001  +5.4525162182E-003 +7.8604980381E+001  +2.0598831234E-001 +1.3640475852E+002 
3888500.626 +1.7906408447E-001 +1.4814385791E+002  +2.0336874608E-002 +1.0285878018E+002  +1.3511353058E-002 +1.2287199089E+002  +9.2030441377E-001 +1.2582495344E+002 
4013645.807 +1.5488321020E-001 +1.4767410408E+002  +4.3860785188E-003 +1.1936145435E+002  +7.6487079805E-003 -1.9610358924E+001  +5.6221244666E-001 +1.4302979235E+002 
4138790.989 +2.0693279133E-001 +1.4597312957E+002  +8.7072627046E-003 +1.7861961078E+001  +3.4555640355E-003 +1.3616289042E+001  +6.0555052156E-001 +1.1999489497E+002 
4263936.170 +2.0824786879E-001 +1.5249551742E+002  +9.0272375299E-003 +1.2203581062E+002  +1.0319685688E-002 -1.4369067379E+002  +6.7164810110E-001 +9.8487668499E+001 
4389081.352 +1.9700135746E-001 +1.3323861097E+002  +1.0120561490E-002 +8.1870956278E+001  +1.3721133569E-002 +1.2768493004E+002  +1.8877460683E+000 +1.5207056795E+002 
4514226.533 +2.2399580585E-001 +1.3310595923E+002  +2.4723373172E-003 +1.1206446591E+002  +2.5280624800E-002 +1.0644298488E+000  +9.5072836842E-001 +1.2893565098E+002 
4639371.715 +3.7352952297E-001 +1.3009525660E+002  +1.4188464208E-002 -6.3736366722E+001  +2.4580124843E-002 -5.3204377866E+000  +1.0397356873E+000 +1.0417200008E+002 
4764516.896 +3.2622021698E-001 +1.3176055642E+002  +3.7306718964E-002 -4.6332616590E+001  +2.4710302735E-002 -1.3071191453E+002  +2.0375358596E+000 -1.1166302702E+002 
4889662.078 +4.0450486593E-001 +1.2473129731E+002  +6.3405559382E-002 -9.9009164768E+001  +2.9173812690E-002 -1.0681606640E+002  +5.1630820065E+000 -6.0078557153E+001 
5014807.259 +4.3843824804E-001 +1.3584813802E+002  +8.0194615567E-003 +1.7132876896E+002  +2.6793996899E-002 +4.9558978788E+001  +3.2610631907E+000 -7.1583338070E+001 
5139952.441 +4.4691573290E-001 +1.3394962421E+002  +4.2831068747E-002 -1.6821190139E+002  +6.5633533433E-002 +5.2256032400E+000  +2.9449193438E+000 +9.8645953888E+000 
5265097.622 +3.5765348809E-001 +1.2196300748E+002  +7.0379637198E-002 -1.7569783281E+001  +4.5602258492E-002 -1.7262790540E+002  +4.7106750717E+000 +7.6687912043E+001 
5390242.804 +3.7437621967E-001 +1.2847584527E+002  +1.2003275120E-002 -1.7299189916E+002  +6.4726912178E-003 -2.2264600899E+001  +1.6226969046E+000 +8.4001032807E+001 
5515387.985 +4.7958583162E-001 +1.1693770314E+002  +1.6380645121E-002 +5.3044194081E+001  +1.4800795363E-002 -1.8579263373E+001  +1.4438638180E+000 +6.8890865642E+001 
5640533.166 +5.5083392884E-001 +1.2840487146E+002  +5.5485302860E-003 +2.2081113634E+001  +2.5776665459E-002 +1.1780222634E+002  +1.4275920929E+000 +5.8481295822E+001 
5765678.348 +4.8373996910E-001 +1.2976482728E+002  +2.6092359550E-002 +3.8196714158E+001  +1.6855444715E-002 +3.1754032212E+001  +1.5250229753E+000 +5.6497142435E+001 
5890823.529 +6.5212170314E-001 +1.2604108256E+002  +7.3877873201E-003 -1.6107039373E+002  +1.1384118879E-002 -1.1973439130E+002  +1.6617509070E+000 +3.5005401261E+001 
6015968.711 +5.9040735394E-001 +1.2613996953E+002  +4.5159156324E-003 +2.7153833744E+001  +4.7922969291E-003 -1.1189789244E+002  +1.9740848512E+000 +7.0554654300E+001 
6141113.892 +7.1458031396E-001 +1.1639132641E+002  +1.4869250994E-002 +1.0829064147E+001  +1.8892459163E-003 +1.3022169940E+002  +2.3083198359E+000 +3.3194402800E+001 
6266259.074 +8.5625738336E-001 +1.1085087363E+002  +4.2450369634E-003 +4.2502050590E+001  +9.6963491822E-003 +1.3251801789E+002  +1.3195579127E+000 +8.1331197151E+000 
6391404.255 +1.0364246960E+000 +9.9256959715E+001  +1.5628844672E-002 +1.3467383408E+002  +2.0375407033E-003 -4.6764715646E+001  +1.5534074961E+000 +3.0925597150E+001 
6516549.437 +1.0107342725E+000 +8.7183550889E+001  +9.9671690833E-003 +1.5669025787E+002  +1.8828310908E-002 +8.2444114697E-001  +1.4482450443E+000 -6.3905118875E+000 
6641694.618 +1.9694499818E+000 +9.2866245477E+001  +3.5288519689E-002 +1.2571287574E+002  +2.1447431614E-002 +1.8588630251E+001  +1.6142925671E+000 +1.6907493023E+000 
6766839.800 +1.3785638742E+000 +5.1226084825E+001  +1.5437626197E-002 +4.1570528304E+001  +1.3579080850E-002 -4.5148937023E+001  +1.3379792121E+000 -1.4216230156E+001 
6891984.981 +1.8527142724E+000 +2.9299009948E+001  +1.8128897603E-002 -8.1267245342E+001  +2.0901716575E-002 -1.5892950577E+001  +1.3001580050E+000 -9.3900529443E+000 
7017130.163 +1.8092129709E+000 +1.5327519576E+001  +1.0395232937E-002 -5.3396596020E+000  +2.6951459926E-002 +1.1282861433E+001  +1.1762983645E+000 -1.0418744309E+001 
7142275.344 +1.5221297955E+000 +3.0805709194E+000  +2.1357448050E-002 +2.0558972377E+001  +2.2922930478E-002 -3.7073487001E+001  +1.3977900282E+000 -1.0093797088E+001 
7267420.526 +1.4861659311E+000 -6.9374725167E+000  +7.0649586207E-003 +2.0866353766E+001  +1.0841169287E-002 -3.5445979156E+001  +1.2380212867E+000 -7.6370461332E+000 
7392565.707 +1.5092902441E+000 +1.2920833529E+000  +6.3433795213E-003 -4.4567926081E+001  +1.8058584447E-003 +9.1428313883E+000  +1.4552508193E+000 -4.8987779872E+000 
7517710.889 +1.2581325863E+000 +8.6116411275E-001  +1.1144151735E-002 -3.2891469718E+001  +1.2902168265E-002 -5.2377637165E+001  +1.2683836215E+000 -6.0989799729E+000 
7642856.070 +1.1913310428E+000 +5.1087040077E+000  +3.7800089205E-003 +6.6235226673E+000  +7.7696868085E-003 +3.9007940611E+001  +1.0142478235E+000 -3.9576888668E+000 
7768001.252 +1.0193489151E+000 +5.2443394122E+000  +2.8442017701E-003 +5.4952252227E+001  +7.0938962311E-003 -3.5371358615E+001  +9.6988633410E-001 -7.8425240235E+000 
7893146.433 +9.1533023290E-001 +4.4090386776E+000  +8.1358866740E-003 +1.2090693338E+001  +1.1732272684E-002 +3.4153970479E+000  +9.4052056071E-001 -5.4034881701E+000 
8018291.615 +7.6497100002E-001 +9.9230974349E+000  +5.6161267316E-003 +1.4815668366E-001  +7.9140504637E-003 -1.4470478292E+000  +8.2530683446E-001 -3.1734484068E+000 
8143436.796 +7.7099380410E-001 +9.0248176310E+000  +5.5485196030E-003 +3.0910954217E+001  +4.1696522235E-003 -1.0332130644E+002  +7.5175909054E-001 +1.5704823274E+000 
8268581.977 +6.9281848221E-001 +1.3424310522E+001  +3.8927159839E-003 -7.4321598930E+000  +2.9590467180E-003 -2.7566615733E+001  +7.2482037625E-001 -7.2649358785E+000 
8393727.159 +6.6384914408E-001 +1.1797563819E+001  +4.1230011201E-003 -8.5151384527E+000  +4.8587480020E-003 +1.3351999609E+002  +7.1195832158E-001 +2.6872881530E+000 
8518872.340 +6.7715743035E-001 +1.3057883364E+001  +4.7393077540E-003 -7.0276076582E+001  +5.0396858039E-003 +8.4599514812E+000  +6.3205796166E-001 +1.0256400658E+000 
8644017.522 +6.6858233350E-001 +1.1833045009E+001  +7.5988616499E-003 +5.5373673488E+001  +2.9262457232E-003 -4.5486394063E+001  +7.5328953375E-001 +5.9740240835E+000 
8769162.703 +6.5588668356E-001 +8.1506675407E+000  +5.1412786095E-003 +4.0789252542E+001  +1.2306959648E-003 +2.5184182181E+001  +6.6419142101E-001 +1.2495606057E+000 
8894307.885 +6.2235659931E-001 +3.6409598217E+000  +3.8333658023E-003 -1.2211735299E+002  +5.8421249164E-003 +7.7272589412E+000  +6.4359292091E-001 +1.7735259654E+000 
9019453.066 +6.1730308705E-001 +1.2746811907E+001  +5.3169213942E-003 -3.3540761243E+001  +3.6176599741E-003 +3.8126257119E+001  +6.2569974896E-001 -3.1419777098E-001 
9144598.248 +5.3531072001E-001 +7.8391402172E+000  +6.7514358252E-003 -1.5994291960E+001  +2.7056119241E-003 +3.7561650962E+001  +6.3160768765E-001 -3.5377722996E+000 
9269743.429 +5.4406592876E-001 +2.8283991325E+000  +5.4598036696E-003 +1.3579792427E+001  +2.4929333832E-003 +7.2305833060E+001  +5.6793826136E-001 -5.4836587644E+000 
9394888.611 +5.2907683540E-001 +2.9593326973E+000  +5.2148410357E-003 -5.0960187581E+001  +6.8661950551E-003 -1.4356294736E+001  +6.0132725385E-001 -2.0408395965E+000 
9520033.792 +5.1700370621E-001 +8.4949815537E+000  +6.4717728047E-003 -2.1237414475E+001  +1.3384664071E-003 +1.2240921825E+002  +5.9144837208E-001 -3.7549378964E-001 
9645178.974 +5.4434594209E-001 +3.7360488598E+000  +5.0194385439E-003 +1.0724447168E+000  +3.5339395634E-003 -9.8043608570E+000  +5.8018769922E-001 -4.7050183066E+000 
9770324.155 +5.0249284866E-001 -2.0000914592E+000  +5.3880745518E-003 -4.8584852665E-001  +7.7536126276E-003 +6.7263886351E+000  +5.8722884082E-001 -7.2154642098E+000 
9895469.337 +5.7231159045E-001 +3.9340753664E+000  +4.7819978692E-003 +1.8392213749E+001  +5.6538120202E-003 +2.5798973506E+001  +5.5180737019E-001 -5.5263086687E+000 
10020614.518 +5.5118145096E-001 +6.5172914269E+000  +5.3634814888E-003 +1.7996559553E+001  +3.9315455944E-003 +4.5792597867E+001  +5.9188208722E-001 -6.2161622887E+000 
10145759.700 +5.7553986979E-001 +4.2740022849E+000  +5.9708777532E-003 +5.6501614717E+000  +6.5986101054E-003 +3.6551135222E+001  +5.8172626291E-001 +1.0346226080E+000 
10270904.881 +5.2801573350E-001 +7.1957690899E+000  +3.9219422670E-003 +3.0669808807E+001  +4.7056056390E-003 +3.6302805833E+001  +5.6827217678E-001 -3.3311616600E+000 
10396050.063 +5.3907600457E-001 +5.7820875714E+000  +3.7350650073E-003 -7.6154289675E+000  +5.3360919685E-003 -2.7659392109E+001  +5.9339826923E-001 -9.0902052376E-001 
10521195.244 +5.4815268048E-001 +3.6404320507E+000  +4.6295058065E-003 +5.9395928259E+000  +7.7558207301E-003 -1.2968135820E+001  +5.7608267198E-001 -3.5783741188E+000 
10646340.426 +5.5108168885E-001 +1.0064596266E+001  +2.5770799835E-003 -7.0460424746E+000  +3.7694792157E-003 +2.8276703892E+001  +6.0514879211E-001 +9.6568165370E-001 
10771485.607 +5.6059869655E-001 +7.7642883279E+000  +6.2031367594E-003 +1.5743785813E+001  +4.3589655668E-003 -3.5749446011E+000  +5.9000818249E-001 +1.7603438486E-001 
10896630.788 +5.7810454835E-001 +7.8784939323E+000  +4.2777177975E-003 -2.8235279458E+001  +4.7354152766E-003 +1.8722671970E+000  +5.9662626620E-001 +3.4857736803E+000 
11021775.970 +5.8702873511E-001 +6.5870901877E+000  +3.6524921426E-003 +3.0589859705E+001  +5.5661878357E-003 +3.5894756552E+001  +6.3184562379E-001 +4.0624264667E+000 
11146921.151 +6.2257425723E-001 +8.3461935157E+000  +3.9632234738E-003 +8.9940848574E+000  +5.4652088462E-003 -2.9505500408E+000  +5.8198952971E-001 -1.0779648783E+000 
11272066.333 +6.3367757699E-001 +1.0560915641E+001  +6.2097975493E-003 +1.0995701193E+001  +7.3368049968E-003 +5.6674656624E+000  +6.1762198565E-001 +3.8348260462E+000 
11397211.514 +6.2847334324E-001 +6.5911650892E+000  +5.2732857335E-003 -1.3010565549E+001  +5.7832388839E-003 +3.4275933524E+001  +6.0963532281E-001 +3.1213257537E+000 
11522356.696 +6.5922296531E-001 +6.7637255631E+000  +4.1332584167E-003 -3.4279794693E-001  +5.2005678726E-003 +1.4175008011E+001  +6.3786939043E-001 +1.6155709108E-001 
11647501.877 +6.3632725050E-001 +8.1561904289E+000  +2.3029954414E-003 -1.3299409610E+001  +4.4147764569E-003 +2.1987205044E+001  +6.5875095691E-001 +1.4172836002E+000 
11772647.059 +6.3947971418E-001 +7.8408081248E+000  +4.2006950366E-003 -1.0247331536E+001  +3.7928703184E-003 +2.1061570649E+001  +6.6852617194E-001 +3.9901982227E-001 
11897792.240 +6.3797027454E-001 +5.7158807501E+000  +2.6777076355E-003 +5.5802402262E+000  +5.8140982450E-003 +1.8814498942E+001  +6.8115393710E-001 +1.4723468521E-001 
12022937.422 +6.6219705123E-001 +5.5868367501E+000  +4.1748805317E-003 +4.9127378357E+000  +4.5513362131E-003 +2.2141188915E+001  +6.8778488419E-001 +6.9934758107E-001 
12148082.603 +6.8748797387E-001 +4.2622823595E+000  +6.1406886804E-003 -1.1635615483E+001  +6.1805541153E-003 -3.7812323070E+000  +7.0699489289E-001 +1.0537661938E+000 
12273227.785 +6.7978299995E-001 +3.5900912727E+000  +7.1564233818E-003 +1.4885386906E+001  +5.6288590126E-003 +2.5179277599E+001  +7.3293583056E-001 +3.4175339057E-001 
12398372.966 +7.2472168490E-001 +3.0725080842E+000  +4.5640456763E-003 +1.9522481779E+001  +4.8276006619E-003 +5.4693528376E+000  +7.0278588252E-001 +1.9733563245E+000 
12523518.148 +7.0741324486E-001 +4.4268266777E+000  +5.0017331760E-003 -2.0240047948E+000  +5.9188475775E-003 +2.3384729262E+001  +7.3073294812E-001 -8.7375064816E-001 
12648663.329 +7.4729582216E-001 +4.1027185604E-001  +4.3458637288E-003 +9.9833004584E+000  +5.0161330870E-003 +1.8309886792E+001  +7.5450475180E-001 -9.9876595795E-001 
12773808.511 +7.7321975109E-001 +2.0861395365E+000  +4.4213323051E-003 -1.2175264615E+001  +4.8547164068E-003 -4.2943466763E+000  +7.6604078420E-001 -1.8572799117E+000 
12898953.692 +7.8168329482E-001 +1.1603898235E+000  +4.3544701524E-003 -2.5092848342E+000  +3.7515229340E-003 +1.8451194314E+001  +7.7264158411E-001 -1.0509871222E+000 
13024098.874 +8.1056000420E-001 +1.7531153990E+000  +5.5143288082E-003 +1.4355475066E+001  +5.5133001181E-003 +2.4235102530E+001  +7.8978296059E-001 -1.5821227316E+000 
13149244.055 +7.9321166553E-001 +1.9260503593E+000  +4.5614576295E-003 +9.3942964808E-001  +5.7056016603E-003 -9.9070286351E+000  +8.0760615257E-001 -1.5144416753E+000 
13274389.237 +8.1217549324E-001 -1.0255422747E+000  +3.6257174885E-003 +8.4909679774E+000  +4.7888175815E-003 -1.0497935195E+001  +8.2412151192E-001 -2.8000607247E+000 
13399534.418 +8.4461359009E-001 -9.0934403127E-001  +5.1643507957E-003 -5.2766963652E+000  +4.5241007883E-003 +2.0322283631E+001  +8.4526730173E-001 -1.0213545440E+000 
13524679.599 +8.4010891947E-001 -3.1893401207E+000  +5.3542239894E-003 +5.2307445177E+000  +6.0456556259E-003 +1.3140903949E+001  +8.7747949060E-001 -3.6126909917E+000 
13649824.781 +8.7504351330E-001 -1.5435426762E+000  +5.1160850974E-003 +8.4757080783E-001  +4.8978430272E-003 -1.4498291770E+001  +8.7363466352E-001 -3.5579124485E+000 
13774969.962 +8.8681989343E-001 -2.2233804355E+000  +5.6547992816E-003 -2.7347413591E+000  +5.1797802742E-003 +2.1534206069E+001  +9.0293153905E-001 -2.2583066305E+000 
13900115.144 +9.0178213664E-001 -2.1245256218E+000  +7.4738094052E-003 +8.4750480351E+000  +4.8002105496E-003 -7.7877017134E+000  +9.1708664154E-001 -5.0575506439E+000 
14025260.325 +9.2748540001E-001 -3.8933262699E+000  +4.6718370864E-003 -4.4383122931E+000  +5.4935182185E-003 +5.4667291271E+000  +9.3244046355E-001 -4.1579529585E+000 
14150405.507 +9.3493116690E-001 -3.4858166266E+000  +4.5279759205E-003 +8.6380230158E+000  +5.1486746747E-003 +7.2475704617E+000  +9.3274304931E-001 -3.7234415983E+000 
14275550.688 +9.5308900179E-001 -4.5700005594E+000  +5.3884807659E-003 +1.2200409164E+000  +4.5418715173E-003 +1.8926264936E+001  +9.7590734611E-001 -5.6199577489E+000 
14400695.870 +9.6746963495E-001 -5.0395949846E+000  +6.7701934815E-003 +5.0846523229E+000  +4.2444428114E-003 +6.3658436739E+000  +9.9800713145E-001 -5.4951483003E+000 
