!  2-Port S-parameters saved by WinCal
! VAR MeasName=S-Parameters (CALIBRATED_DATA) read from VNA (P5004A)
! VAR MeasDate=29/08/2024 15:40:21
! VAR NAME=f39_RESET4_9k-100M_2
! VAR FILENAME=f39_RESET4_9k-100M_2.S2P
! VAR DATE=29/08/2024 15:40:21
! VAR PHYS_PORTS=1,2
! VAR ObjTypeName=DATASET
! VAR IndexType=Frequency
!
# Hz S MA R 50
9000.000 +8.4792361815E-002 -1.7235353310E+002  +1.2290084211E-002 -1.7112680512E+002  +2.7498613977E-003 +2.7567215533E+001  +2.6055321496E-001 -1.3976784392E+002 
134145.181 +1.1086436884E-001 +1.6973854062E+002  +5.2859906170E-004 -2.9272930167E+001  +2.2988681528E-004 -1.7940436014E+002  +2.4004487660E-001 -1.7085033956E+002 
259290.363 +1.1261714431E-001 +1.6979286534E+002  +2.1771178376E-004 +1.9217314685E+001  +1.0439738949E-003 +4.9618247475E+001  +2.4736360418E-001 -1.6882502039E+002 
384435.544 +1.1448951257E-001 +1.6974695622E+002  +9.0641015513E-004 +1.6288598607E+002  +2.4689341330E-004 +9.0486721848E+001  +2.5334218449E-001 -1.6927136726E+002 
509580.726 +1.1241420437E-001 +1.7129156593E+002  +1.2175348370E-003 +1.3507921328E+002  +1.7817551069E-003 +4.5944140264E+001  +2.5858203974E-001 -1.6472978824E+002 
634725.907 +1.1934856970E-001 +1.7150781147E+002  +2.7632044125E-004 +1.1292791198E+002  +4.2185841426E-004 +6.6608246570E+001  +2.5823083105E-001 -1.6461702572E+002 
759871.089 +1.2014992808E-001 +1.7154252126E+002  +3.3810879321E-004 -6.9645893820E+001  +6.4798097796E-004 -1.5040225934E+002  +2.4863539218E-001 -1.6690342273E+002 
885016.270 +1.2041663009E-001 +1.6903645285E+002  +2.8099838532E-004 +1.6233794180E+002  +8.5043080129E-004 +1.3017625288E+002  +2.4178784240E-001 -1.6840342067E+002 
1010161.452 +1.1622813213E-001 +1.7015543637E+002  +7.4989910473E-004 -1.7128336482E+002  +7.4923691305E-004 +1.5605597078E+002  +2.2297757293E-001 -1.6747683780E+002 
1135306.633 +1.1633939603E-001 +1.6925409814E+002  +2.0929455233E-004 +7.1556551004E+001  +1.7299235162E-003 -7.6928635032E+001  +2.1208315707E-001 -1.7126175525E+002 
1260451.815 +1.1740690590E-001 +1.7167232398E+002  +1.9282089531E-003 +7.7506729133E+001  +2.8080383901E-003 -1.6859985883E+002  +2.0537432357E-001 -1.5984779642E+002 
1385596.996 +1.2474902222E-001 +1.7262245310E+002  +3.0874682558E-004 -1.7581841109E+002  +1.9087805126E-003 +3.2742265606E+001  +2.5264132592E-001 -1.5872407856E+002 
1510742.178 +1.2778031031E-001 +1.7170865509E+002  +4.5307157422E-004 +1.2561529554E+002  +5.2166384452E-004 -1.1433058607E+002  +2.6400697115E-001 -1.5895496655E+002 
1635887.359 +1.2969593839E-001 +1.7127393576E+002  +8.2270245415E-004 +1.4531797330E+002  +1.2519608829E-003 -1.6740286657E+002  +2.6625262864E-001 -1.5661842898E+002 
1761032.541 +1.2846019376E-001 +1.6995539133E+002  +4.7900228779E-004 +5.7162265650E+001  +1.0697167116E-003 -1.3853743570E+002  +2.2339075928E-001 -1.5969953687E+002 
1886177.722 +1.3099028601E-001 +1.6669336510E+002  +2.1260545811E-003 +5.2708084888E+001  +1.1492085107E-003 +1.5714277533E+002  +2.1573642403E-001 -1.6462534234E+002 
2011322.904 +1.2865555102E-001 +1.6837616138E+002  +1.1501562832E-004 -9.9248624298E+001  +4.1318591946E-003 +1.8588172077E+001  +1.6258735002E-001 -1.6708595511E+002 
2136468.085 +1.2520873145E-001 +1.6371047335E+002  +5.0049050191E-003 -1.3341903603E+002  +4.7134221576E-003 -5.4060607859E+001  +1.6314043798E-001 -1.4282339005E+002 
2261613.267 +1.3242355283E-001 +1.6188449006E+002  +5.5380408213E-003 +1.6859702426E+002  +5.9894351176E-003 +1.7783787118E+002  +2.1128423032E-001 +1.5798362792E+002 
2386758.448 +1.3769293963E-001 +1.6194699089E+002  +2.4015352860E-003 +1.1697045573E+002  +1.1728716098E-003 -1.5159668844E+002  +1.3048418901E-001 -1.5682192565E+002 
2511903.630 +1.3088649842E-001 +1.6452457289E+002  +2.0448713323E-003 -1.7849728597E+002  +3.5287942975E-003 +1.0390098093E+001  +2.1876529830E-001 -1.7726797785E+002 
2637048.811 +1.3891604260E-001 +1.6324064241E+002  +5.9845750081E-003 -3.3446379199E-001  +6.7659404119E-003 -3.2290811712E+001  +3.4972652690E-001 +1.0910151196E+002 
2762193.992 +1.0729870926E-001 +1.6052779189E+002  +1.1068874423E-002 -1.6007514421E+002  +2.0421532878E-002 -3.0069021021E-001  +9.1302959888E-001 +1.3800590397E+002 
2887339.174 +1.2083365985E-001 +1.7569812828E+002  +1.1314234808E-002 -1.2658591737E+002  +4.7142076453E-003 -1.2777718178E+002  +4.2884078149E-001 -1.0476760086E+002 
3012484.355 +1.0945999325E-001 +1.7934342968E+002  +1.7803775619E-003 -4.0581529689E+001  +7.2449783733E-003 +8.8780748793E+001  +3.2822611226E-001 -1.0956861695E+002 
3137629.537 +1.2039758953E-001 +1.6538157689E+002  +5.7836705168E-003 +2.3215340617E+001  +3.9766178147E-003 -1.4701186156E+002  +3.4147998477E-001 -1.2492670948E+002 
3262774.718 +6.6599236566E-002 +1.7405262586E+002  +1.2765118580E-002 +7.1749630081E+001  +1.0186389804E-002 -6.1928995236E+001  +1.9876052136E-001 +2.0130973101E+001 
3387919.900 +1.4035995820E-001 +1.5000256836E+002  +2.4971987956E-003 -6.7952450085E+001  +1.6907832518E-003 -4.7298471199E+000  +1.6107868799E-001 +1.0320790777E+002 
3513065.081 +1.2438482952E-001 +1.5297277268E+002  +1.9379515116E-002 +1.3676435958E+002  +3.0625034884E-002 +1.4847957329E+002  +8.6776525091E-001 +1.1230542257E+002 
3638210.263 +1.7336535426E-001 +1.4926008908E+002  +1.8972028761E-003 +1.6489689211E+002  +3.6830230057E-003 +1.5041302722E+001  +6.3509437211E-001 +1.4580613262E+002 
3763355.444 +1.6695300904E-001 +1.4616794701E+002  +5.6885683679E-003 +1.2496272788E+001  +9.0866549369E-003 -8.2198585073E+001  +4.5851608700E-001 +1.4229651447E+002 
3888500.626 +1.5027800800E-001 +1.4862617835E+002  +4.5287514362E-003 +9.0403071314E+001  +7.5171986436E-003 -8.9814982536E+001  +2.0499442116E-001 +1.3477278066E+002 
4013645.807 +1.7733930974E-001 +1.4394457543E+002  +8.2928280894E-003 +1.2982051515E+002  +1.5369472788E-003 -1.3842053747E+000  +2.3393543537E-001 +1.1459328493E+002 
4138790.989 +1.7829596241E-001 +1.4055239563E+002  +2.2872058887E-003 +1.4481400049E+002  +2.0359687392E-002 +3.2932208744E+001  +2.3926490411E-001 +2.9098915969E+001 
4263936.170 +1.9331459606E-001 +1.3725045421E+002  +1.1061200396E-002 +8.0489386653E+001  +3.6075445871E-002 -8.5914965155E+001  +9.1499547744E-001 +8.4710869212E+001 
4389081.352 +1.9810596915E-001 +1.3338497534E+002  +1.1335506373E-002 +1.5041261175E+002  +1.6110552710E-002 +3.2804516999E+001  +7.0969327731E-001 +1.1513878577E+002 
4514226.533 +1.7525894037E-001 +1.2413509134E+002  +3.9777756041E-002 +8.5457177792E+001  +5.1936926468E-002 +1.6212612142E+001  +2.2188956431E+000 +2.2025544241E+001 
4639371.715 +2.3920043941E-001 +1.2226148485E+002  +1.8982658838E-002 +1.5267158592E+002  +4.9229447803E-002 +1.3331791660E+002  +2.0243157786E+000 +9.9304152626E+001 
4764516.896 +4.4689133034E-001 +1.0925033941E+002  +9.9511406095E-003 +1.6555893117E+002  +3.5904858309E-002 +4.5185035674E+001  +2.4361113796E+000 +1.1832679266E+002 
4889662.078 +3.1999803080E-001 +1.3145128642E+002  +4.6373052168E-002 -2.3198881216E+001  +5.0284452069E-002 -3.4822593582E+001  +3.4972290697E+000 -9.8518628945E+001 
5014807.259 +4.3974115823E-001 +1.1718109325E+002  +1.1467634579E-001 +1.1755198319E+002  +8.2703636285E-002 -1.5823843796E+002  +3.4131118511E+000 +3.2417168730E+001 
5139952.441 +4.4090449808E-001 +1.2645708159E+002  +2.3927677394E-002 -1.2281746562E+002  +7.9746233570E-002 +5.1657028004E+001  +3.4869387628E+000 +1.0185412752E+002 
5265097.622 +3.8938867305E-001 +1.2644183147E+002  +1.8034782380E-002 -3.2985079543E+001  +3.4443864279E-002 +4.0678190806E+001  +3.1084553083E+000 +6.8905705305E+001 
5390242.804 +3.8600244179E-001 +1.2788399724E+002  +8.0385159139E-003 +2.4901357454E+001  +1.1300445870E-002 -2.8619918793E+001  +2.0502551413E+000 +9.4334799695E+001 
5515387.985 +4.3738495137E-001 +1.2600963711E+002  +1.7532881059E-002 +1.1355012794E+002  +6.4981300497E-002 +8.5876326804E+000  +4.4822182215E+000 +4.7878611978E+001 
5640533.166 +4.5839762986E-001 +1.3039502776E+002  +1.7075818145E-002 +1.4665676255E+002  +2.9409555003E-002 +5.2218909514E+001  +2.5779425509E+000 +9.3561515643E+001 
5765678.348 +6.0146117227E-001 +1.2087540259E+002  +8.0213221161E-003 +1.0352075510E+002  +1.0725048227E-002 +1.0818748081E+002  +1.9529569175E+000 +4.3077802619E+001 
5890823.529 +5.6016941167E-001 +1.1065802811E+002  +1.1698674445E-002 -6.8302133814E+001  +5.5885001337E-002 +3.2091315968E+001  +2.1432963895E+000 +6.5712807555E+001 
6015968.711 +6.0565971801E-001 +1.2114199082E+002  +4.7112281998E-002 +9.8034594570E+001  +1.4685123873E-002 +4.3369817691E+001  +2.0925217570E+000 +5.8744722730E+001 
6141113.892 +7.2300991222E-001 +1.2238121564E+002  +3.3746020777E-002 +6.9682024352E+001  +2.8474696350E-002 +1.1064789541E+002  +2.0981001196E+000 +3.7347571704E+001 
6266259.074 +8.3375044659E-001 +1.0201515488E+002  +2.5136717366E-002 +7.3613246286E+001  +2.5282147946E-002 -1.2387665192E+001  +2.0867382108E+000 +2.5243235417E+001 
6391404.255 +1.1606616151E+000 +9.5470706186E+001  +3.2534569306E-002 +9.2601805543E+001  +2.0027865076E-002 +7.7901038520E+001  +1.8584433862E+000 +2.8780072851E+001 
6516549.437 +1.2865188029E+000 +6.3280639552E+001  +2.0872822950E-002 +4.4299344782E+001  +1.9067125434E-002 +4.6144553659E+001  +1.5987958871E+000 +9.4159476063E+000 
6641694.618 +1.3291434840E+000 +6.8855962255E+001  +3.8780580390E-003 +1.2044425194E+001  +2.4780149655E-002 +4.1385738394E+000  +1.7585072762E+000 -2.1631832375E+000 
6766839.800 +1.6179272943E+000 +5.1877890836E+001  +2.6910218018E-002 +1.0399740349E+001  +3.0118032114E-002 +4.7604665529E+001  +1.3522710461E+000 -1.2672783362E+001 
6891984.981 +1.6640949306E+000 +2.8831231441E+001  +2.7247758336E-002 +5.5110383528E+001  +4.2793996017E-002 -1.2217608658E+001  +1.3142843195E+000 +1.8481274646E+000 
7017130.163 +1.6999943563E+000 +2.0297614837E+001  +2.8338008854E-002 -1.9083105659E+000  +2.5828466050E-002 +1.0638190711E+001  +1.2227271711E+000 -1.0767147578E+001 
7142275.344 +1.8680371308E+000 +1.0229087178E+001  +1.0277749923E-002 +3.3747155093E+001  +2.9255548929E-002 +1.9156195751E+001  +1.2899633369E+000 -1.2201909903E+001 
7267420.526 +1.4308075667E+000 +5.3218444608E+000  +5.5911558509E-003 -1.5066637426E+002  +8.2329962606E-003 +1.0390530639E+001  +1.3103597920E+000 -1.3539001140E+001 
7392565.707 +1.3581701211E+000 +2.4685498479E-001  +1.3691292276E-002 +1.7218550723E+001  +1.8389989463E-002 +3.5993444468E+001  +1.2546911705E+000 -9.4947808715E+000 
7517710.889 +1.1140852200E+000 +4.5816011424E+000  +8.5004494171E-003 -1.4684259186E+002  +7.4366007897E-003 +1.6028086899E+001  +1.2003798888E+000 -2.6905516486E+000 
7642856.070 +1.0392774202E+000 -2.5069497916E+000  +1.3131334197E-003 -1.2312308469E+001  +3.7838284620E-003 +9.9334411590E+001  +1.1081868748E+000 -7.0427955031E-001 
7768001.252 +9.4477311453E-001 +7.7767069215E+000  +7.4188005585E-003 +2.6423344650E+001  +2.3331921080E-003 -5.1124362348E+001  +9.8440198260E-001 -7.0054770168E+000 
7893146.433 +9.1798017123E-001 +2.0821684670E+000  +1.0299969514E-002 +5.8334412038E+001  +8.1188963918E-003 -9.4001253557E+000  +8.7046941691E-001 -3.4348466374E-001 
8018291.615 +9.2481898877E-001 +6.1421845150E+000  +7.2734545199E-003 +1.8838652152E+001  +3.8065595226E-003 +6.2103308340E+001  +8.7861246757E-001 +1.6899064633E+000 
8143436.796 +7.5501686491E-001 +1.5189164369E+001  +1.0010716491E-002 -2.7726134224E+000  +4.3495237444E-003 +7.2859338470E+000  +7.9209529921E-001 +2.6155096742E+000 
8268581.977 +6.8059030960E-001 +5.6916627822E+000  +3.6051044311E-003 -9.0016344988E+001  +8.1519973868E-003 -1.0745907639E+001  +7.9801041398E-001 -2.4668035251E-001 
8393727.159 +7.1444946935E-001 +5.4167700674E+000  +6.6618772721E-003 -1.2488961894E+001  +4.9029012392E-003 -7.9096279653E+000  +7.1992493375E-001 +4.1567355930E+000 
8518872.340 +6.2782907663E-001 +8.0376838995E+000  +5.4133777982E-003 -6.3852857714E+001  +4.9329436718E-003 +2.9461422612E+001  +6.7080768430E-001 -4.1420280129E+000 
8644017.522 +6.8255695508E-001 +7.5836037831E+000  +2.5292412926E-003 +5.5146775807E+001  +5.3097632371E-003 +9.8527515012E+001  +6.8424894743E-001 +1.8316289867E+000 
8769162.703 +6.6794417992E-001 +9.4345022217E+000  +1.0430407700E-003 -1.6871042685E+001  +4.6502212987E-003 -9.7668245431E+001  +6.6312312236E-001 -1.3957408329E+000 
8894307.885 +6.3925203648E-001 +3.4039503116E+000  +5.3602848416E-003 +9.8530285994E-001  +4.9731435361E-003 -1.5818732232E+001  +6.1868809486E-001 -2.2524317877E+000 
9019453.066 +5.7911760362E-001 +2.7708247890E+000  +7.1715830704E-003 -1.8209580821E+000  +3.3038906673E-003 -6.3327992940E+000  +6.7692878086E-001 -3.0527498689E+000 
9144598.248 +5.8391919841E-001 +9.6291748393E+000  +2.1702119247E-003 -1.5051977704E+001  +8.7364152042E-003 -1.6175312670E+001  +6.3743087371E-001 -8.3854381994E-002 
9269743.429 +5.5736634916E-001 -3.2843345584E-001  +3.8753164336E-003 -9.5065318075E+001  +4.4280866747E-003 -3.0656126268E+001  +6.6330882951E-001 +1.7318810316E+000 
9394888.611 +5.2525878160E-001 +3.2619995415E+000  +4.9351902576E-003 -3.9003347658E+001  +6.7360675030E-003 -1.1566103126E+001  +6.1056437851E-001 -5.4544736620E+000 
9520033.792 +5.3587663956E-001 +8.2947779031E-001  +3.0950489128E-003 -2.2136003865E+001  +5.2598549308E-003 +1.8333529244E+001  +5.6842944383E-001 +2.1406519005E-001 
9645178.974 +5.2824849136E-001 +3.9766083335E+000  +3.5828434236E-003 +4.0879710156E+001  +3.1504372017E-003 +1.3215182732E+001  +6.0591221423E-001 -5.6772205811E+000 
9770324.155 +5.6117838846E-001 +5.1316632498E-003  +6.3396449994E-003 +1.4025020736E+001  +3.4672514079E-003 -1.2462577528E+001  +6.1215423425E-001 -6.6398512408E+000 
9895469.337 +5.3363552343E-001 -1.1242440698E+000  +5.7128621493E-003 +6.4701365435E+000  +5.6348610704E-003 -8.8232541659E+000  +5.8409240036E-001 -9.8866614425E+000 
10020614.518 +5.3870617760E-001 -2.1051719040E+000  +5.2932836528E-003 -3.0690621749E+001  +6.0351944363E-003 +2.0614848553E+001  +5.6414570499E-001 -2.1268769542E+000 
10145759.700 +5.4556337520E-001 +3.4820440929E+000  +5.4239828886E-003 +7.7264481265E+000  +2.8582713893E-003 +7.4802754869E+001  +5.9395809065E-001 -4.0794965968E+000 
10270904.881 +5.3943408361E-001 +3.0401525277E+000  +5.2860932161E-003 -3.0491053479E-001  +3.2763639414E-003 +4.8078727786E+000  +6.2126598935E-001 -2.6862814411E+000 
10396050.063 +5.5968959880E-001 +6.3150766872E+000  +6.9123377990E-003 -1.6188659867E+001  +3.4354950383E-003 -4.4230012628E+001  +5.9693844770E-001 +1.0385757982E+000 
10521195.244 +5.7342742790E-001 +6.0842827200E+000  +3.8597171300E-003 +3.1624885092E+001  +4.0283180548E-003 +8.7276591742E+000  +5.5760226554E-001 -2.4560518153E+000 
10646340.426 +5.5026366072E-001 +1.8786804503E+000  +6.3737302862E-003 -3.7918074084E+001  +5.4768464076E-003 +1.6569819691E+001  +6.0859615661E-001 +2.5211366608E+000 
10771485.607 +5.8915396539E-001 +5.1891950750E+000  +3.7407291268E-003 +8.4353542433E+000  +5.1211369801E-003 +2.1738325613E+001  +6.1920871514E-001 +1.2651177649E+000 
10896630.788 +5.8703746465E-001 +7.8825182711E+000  +4.3903942970E-003 +1.8843533643E+001  +4.9637277737E-003 -7.9368434541E-002  +6.0422985077E-001 +4.9917216703E-001 
11021775.970 +5.7397717127E-001 +9.9901137172E+000  +6.3894496938E-003 -1.2135431732E+001  +4.2712619699E-003 +1.4946183536E+001  +6.0363917326E-001 +2.5801391838E+000 
11146921.151 +5.9170807436E-001 +7.0925097929E+000  +3.5940968235E-003 -9.4638965238E+000  +6.8362520329E-003 -9.5621907109E-001  +6.1751961635E-001 +8.7160986536E-002 
11272066.333 +5.8707483924E-001 +8.8276781633E+000  +3.3636326625E-003 -4.1024987323E+000  +5.5705961463E-003 +5.7666935392E+000  +6.3200486118E-001 -9.5344516033E-001 
11397211.514 +5.7790821070E-001 +5.2670707890E+000  +3.7562313808E-003 +2.0305216411E+000  +5.8627277449E-003 +3.6402415846E+001  +6.1216968206E-001 +2.7139905083E+000 
11522356.696 +6.3395765610E-001 +8.4039664368E+000  +5.4931829439E-003 +1.8721764721E+001  +3.5893372085E-003 -1.4136907969E+001  +6.4989927474E-001 +4.4693321169E+000 
11647501.877 +6.4024315192E-001 +7.2365821478E+000  +4.2977452570E-003 +1.4508138361E+000  +5.9550028275E-003 +2.6034768826E+001  +6.5297966497E-001 +1.6031329760E-001 
11772647.059 +6.5802758562E-001 +5.5590073975E+000  +3.4018552244E-003 +2.3844077157E+001  +6.0302435557E-003 +2.3501363423E+001  +6.7262092056E-001 +2.7332125253E+000 
11897792.240 +6.5863712645E-001 +4.5765118554E+000  +5.4644520991E-003 +1.3676695913E+001  +6.6473169566E-003 +1.5933625367E+001  +6.7645300774E-001 +2.3802949969E+000 
12022937.422 +6.7065555759E-001 +6.2217621864E+000  +5.5716459227E-003 +8.6231667541E+000  +5.1397931745E-003 +7.5846480515E+000  +6.9929367400E-001 +1.3881232691E+000 
12148082.603 +6.9653452273E-001 +5.7531651916E+000  +4.2433297985E-003 +1.2814304611E+001  +4.7904123459E-003 +2.8554829814E+001  +6.9471514360E-001 +9.6468922316E-001 
12273227.785 +6.8273646608E-001 +4.5520426827E+000  +5.5971228797E-003 -9.4032061057E+000  +6.2408749959E-003 +2.4812680524E+001  +7.2181739113E-001 -1.8813354564E-001 
12398372.966 +7.0846276380E-001 +3.4883710567E+000  +4.8949493352E-003 +1.2513376774E+001  +4.2604047707E-003 -1.0563768389E+001  +7.2740725374E-001 -1.0353962254E+000 
12523518.148 +7.4620169693E-001 +3.9800669160E+000  +4.3812371744E-003 +9.3696590823E+000  +6.3419137119E-003 +2.0477688391E+001  +7.4831093760E-001 +2.6593905849E-001 
12648663.329 +7.5273640358E-001 +1.5159731712E+000  +6.0058056646E-003 +7.2879312874E+000  +5.9027291460E-003 -8.1748523829E+000  +7.3093712082E-001 +1.3483788187E-001 
12773808.511 +7.4787547346E-001 +2.1868727630E+000  +6.0968353687E-003 +2.2457743969E+001  +4.6871874279E-003 -1.9674365445E+001  +7.5465528620E-001 -2.1544390925E+000 
12898953.692 +7.5937530289E-001 +3.1828340178E+000  +4.7891819064E-003 +5.1057258652E+000  +6.1863651845E-003 +1.9353195283E+001  +7.8767347726E-001 -1.1708280748E+000 
13024098.874 +7.9956699827E-001 +2.9865400492E-001  +6.2720297201E-003 +1.9686231302E+001  +5.7127871140E-003 +4.3971824863E+000  +7.8901499447E-001 -7.2576840238E-001 
13149244.055 +7.9403900940E-001 +5.1059315273E-001  +5.0101047294E-003 +1.6091515270E+001  +4.2979385185E-003 -9.0092459856E+000  +8.2137820661E-001 -2.7289347361E+000 
13274389.237 +8.3907099829E-001 -7.2319790428E-001  +5.2570275147E-003 +3.1544735906E+000  +5.8028589733E-003 -2.8417039416E+000  +8.3158486220E-001 -2.4249626143E+000 
13399534.418 +8.3251241799E-001 -1.6379026393E+000  +6.2159134670E-003 +1.5015447745E+001  +6.1153641272E-003 +6.2937086900E+000  +8.3106120101E-001 -2.7046128461E+000 
13524679.599 +8.6217000493E-001 -9.6989196179E-001  +4.5182888797E-003 +1.4043901276E+001  +6.4179009054E-003 +1.4933720959E+001  +8.7006734409E-001 -2.9580579320E+000 
13649824.781 +8.6470412333E-001 -1.7617939728E+000  +5.8297598447E-003 +1.6347071185E+001  +6.1899349214E-003 +2.3208735792E+001  +8.7202330016E-001 -3.4759337555E+000 
13774969.962 +9.0082606850E-001 -2.0703369901E+000  +6.2300828891E-003 +2.3214625121E+001  +4.0261148849E-003 +2.7953402990E+001  +8.8621995843E-001 -2.2956449112E+000 
13900115.144 +9.1164094988E-001 -3.9978928812E+000  +6.9014253283E-003 +4.2361464313E+000  +5.1727477791E-003 +1.1507198391E+000  +9.1553795942E-001 -2.9268019414E+000 
14025260.325 +9.4334659337E-001 -4.0307322273E+000  +8.5844295429E-003 +7.6293944097E+000  +7.0253341513E-003 +6.8563568248E+000  +9.4620902009E-001 -3.0917207576E+000 
14150405.507 +9.2857637901E-001 -4.0331313253E+000  +7.0061842341E-003 +1.5004037406E+001  +5.1002605275E-003 +4.3214092716E+000  +9.4646864120E-001 -3.8178760460E+000 
14275550.688 +9.7757343517E-001 -5.0561647700E+000  +5.6086622379E-003 +9.7419980324E+000  +6.0770796401E-003 -5.7967932579E+000  +9.6793681722E-001 -4.7051480726E+000 
14400695.870 +9.4205988066E-001 -7.0570586839E+000  +7.4867864180E-003 -7.3542599467E-001  +5.2665838431E-003 +7.0191399306E-001  +9.9585986995E-001 -5.7300229637E+000 
