!  2-Port S-parameters saved by WinCal
! VAR MeasName=S-Parameters (CALIBRATED_DATA) read from VNA (P5004A)
! VAR MeasDate=29/08/2024 15:20:19
! VAR NAME=f39_RESET1_9k-100M_1
! VAR FILENAME=f39_RESET1_9k-100M_1.S2P
! VAR DATE=29/08/2024 15:20:19
! VAR PHYS_PORTS=1,2
! VAR ObjTypeName=DATASET
! VAR IndexType=Frequency
!
# Hz S MA R 50
9000.000 +1.0475228084E-001 -1.7053158250E+002  +7.1892056798E-003 +9.6800382943E+001  +8.2975099415E-003 -3.4320638602E+001  +3.1367687795E-001 -1.3719021135E+002 
134145.181 +1.1162545599E-001 +1.6949987016E+002  +2.5728257870E-004 +6.9623986386E+000  +3.0290647801E-004 +1.7562583582E+002  +2.3944454112E-001 -1.7129716876E+002 
259290.363 +1.1233044273E-001 +1.6981021693E+002  +3.3075107106E-004 -3.8493060881E+001  +1.5303833385E-003 +1.7395487836E+002  +2.4358652104E-001 -1.6817013126E+002 
384435.544 +1.1477635381E-001 +1.6947816559E+002  +4.2253454570E-004 -5.7702375019E+001  +6.1202811857E-005 -1.0779925572E+002  +2.4554926237E-001 -1.7040307988E+002 
509580.726 +1.1530688605E-001 +1.7017055906E+002  +1.4778217365E-003 +1.4498210119E+001  +1.9715389931E-003 +1.2769028351E+002  +2.4330364152E-001 -1.6590466273E+002 
634725.907 +1.1658270472E-001 +1.7122800581E+002  +1.6367352521E-003 -2.9410814552E+001  +1.5071509914E-003 +1.1273309841E+002  +2.4733049506E-001 -1.6500824355E+002 
759871.089 +1.1928803669E-001 +1.7060602904E+002  +1.1706112140E-003 -4.7922598724E+001  +1.4650865045E-003 +8.3120174340E+001  +2.4735684283E-001 -1.6748189199E+002 
885016.270 +1.2168065170E-001 +1.6924524693E+002  +1.1630179989E-003 -2.6132072795E+001  +1.0474108809E-003 +1.7104371994E+002  +2.4857169800E-001 -1.6691868449E+002 
1010161.452 +1.1881403130E-001 +1.6934943009E+002  +1.9814102906E-003 -2.1412956295E+000  +2.3954488666E-003 -1.3761373528E+002  +2.2692934122E-001 -1.6810541519E+002 
1135306.633 +1.1651032109E-001 +1.6808670840E+002  +3.7985191035E-003 +4.3709970358E+001  +3.9529552006E-003 -1.0565840113E+002  +1.9238254154E-001 -1.6457495428E+002 
1260451.815 +1.1826240083E-001 +1.6969758998E+002  +1.7438455339E-003 -2.2461168229E+001  +2.6139837815E-003 +1.7156055933E+002  +2.4204163287E-001 -1.6473390725E+002 
1385596.996 +1.2571298383E-001 +1.7141533076E+002  +4.0388218997E-003 -3.8098294107E+001  +3.4143104300E-003 +1.4524213422E+002  +2.7359218257E-001 -1.5684978034E+002 
1510742.178 +1.2962592957E-001 +1.7098203322E+002  +2.4250154041E-003 -2.4594357785E+001  +2.2423539153E-003 +1.7254275590E+002  +2.5721008845E-001 -1.5929435413E+002 
1635887.359 +1.3027392332E-001 +1.7140959155E+002  +3.2295790845E-003 +6.3874162922E+000  +2.9056071539E-003 -1.6012449445E+002  +2.5021190816E-001 -1.5971555644E+002 
1761032.541 +1.3037659784E-001 +1.7065002978E+002  +4.5717494249E-003 +3.6314273035E+001  +4.4776184932E-003 -1.0781089840E+002  +2.3939020294E-001 -1.6034448509E+002 
1886177.722 +1.3421950005E-001 +1.6897571137E+002  +7.6066639601E-003 +6.3076984609E+001  +6.3677245181E-003 -7.1460587906E+001  +2.1202009751E-001 -1.5898836442E+002 
2011322.904 +1.3357356651E-001 +1.6701380707E+002  +8.5839506343E-003 +7.4945815475E+001  +1.1521355305E-002 -5.2702037204E+001  +2.1920633984E-001 -1.6128192851E+002 
2136468.085 +1.3176649008E-001 +1.6774053749E+002  +2.0646342987E-002 +7.6784425571E+001  +2.3420443905E-002 -5.0883916156E+001  +1.6834367340E-001 -1.6638298837E+002 
2261613.267 +1.3316910705E-001 +1.6696467290E+002  +1.7623813633E-002 +8.6289685072E+001  +2.1009955847E-002 -3.4534161707E+001  +2.0669909479E-001 -1.6936147365E+002 
2386758.448 +1.3909421222E-001 +1.6540698327E+002  +3.1795394864E-002 +9.0716481810E+001  +2.9136779277E-002 -2.6567889912E+001  +1.5656662236E-001 +1.7971261763E+002 
2511903.630 +1.2510327805E-001 +1.6622449476E+002  +4.8260824156E-002 +7.0838851454E+001  +5.2730022662E-002 -4.3247963713E+001  +1.3030328652E-001 -1.6954930103E+002 
2637048.811 +1.1353498959E-001 +1.6796634499E+002  +5.8253802522E-002 +6.9941127106E+001  +5.8282998265E-002 -4.8714717109E+001  +1.6512108921E-001 -1.6936700058E+002 
2762193.992 +1.3100627497E-001 -1.7663252654E+002  +6.5549769082E-002 -3.9370764054E-002  +6.2422359268E-002 -1.0868439208E+002  +2.3278965499E-001 -1.3508929487E+002 
2887339.174 +1.3748842568E-001 +1.7933950636E+002  +6.7316106264E-002 -4.8937996556E+000  +7.8686137494E-002 -1.0222477910E+002  +2.4105939898E-001 -1.2053702453E+002 
3012484.355 +1.3208442299E-001 +1.7952191370E+002  +6.1227556647E-002 +2.3753768828E+001  +6.1249658788E-002 -7.6921837318E+001  +1.7726835221E-001 -1.4728030313E+002 
3137629.537 +1.3734267442E-001 +1.7821932630E+002  +6.0502494156E-002 +1.4930729411E+001  +6.4016389043E-002 -7.6685700689E+001  +1.8910475675E-001 -1.3970862970E+002 
3262774.718 +1.2310020712E-001 +1.7638120140E+002  +8.8170992080E-002 +3.2531608787E+001  +8.7000085547E-002 -6.0504451768E+001  +1.3357302752E-001 -1.4047638177E+002 
3387919.900 +1.2793007607E-001 +1.6678718877E+002  +8.5288981859E-002 +4.7557893372E+001  +8.1285896852E-002 -4.3358799955E+001  +1.2943596715E-001 -1.5105205962E+002 
3513065.081 +1.1554980692E-001 +1.6280314658E+002  +1.3287267423E-001 +5.4151172538E+001  +1.3067841968E-001 -2.8379838687E+001  +5.1312037052E-002 +1.0475241480E+002 
3638210.263 +1.4686419494E-001 +1.4850779958E+002  +1.3532745734E-001 +9.6723104868E+001  +1.2350267040E-001 +1.4930784177E+001  +2.9643246192E-001 +1.4022071130E+002 
3763355.444 +1.1922794779E-001 +1.6024142784E+002  +1.4709167655E-001 +5.2394686063E+001  +1.4971228860E-001 -3.0002668223E+001  +2.5846646647E-002 +4.7417440729E+001 
3888500.626 +1.7659369654E-001 +1.3787644989E+002  +2.0753579937E-001 +1.0883647181E+002  +2.0334181917E-001 +3.8353727779E+001  +5.1973669431E-001 +1.2945514272E+002 
4013645.807 +1.6816529523E-001 +1.6195028469E+002  +7.2822602391E-002 +5.9919936801E+001  +6.9684124984E-002 -1.1313055847E+001  +2.2081047830E-001 -1.6926061082E+002 
4138790.989 +1.9615535897E-001 +1.5587855118E+002  +7.7671588093E-002 +9.1413464630E+001  +7.6222694725E-002 +2.4707177351E+001  +2.8602371032E-001 +1.7355604097E+002 
4263936.170 +1.5910485958E-001 +1.5984005356E+002  +1.3422615322E-001 +6.0084118884E+001  +1.2643578155E-001 -4.6621054490E+000  +1.5589838045E-001 +1.4369601109E+002 
4389081.352 +1.9956517652E-001 +1.4470753008E+002  +1.7550384097E-001 +1.0343470512E+002  +1.7518912918E-001 +4.4384444037E+001  +4.9389480278E-001 +1.4335876320E+002 
4514226.533 +2.1639949655E-001 +1.3293803968E+002  +2.4077505068E-001 +9.8626994632E+001  +2.3673066347E-001 +4.1289662283E+001  +4.7615761206E-001 +1.2857422130E+002 
4639371.715 +3.1609664050E-001 +1.0701988972E+002  +4.3270498014E-001 +1.0617650496E+002  +4.3829057623E-001 +5.1491055547E+001  +7.3033423769E-001 +1.2363088309E+002 
4764516.896 +2.8416588078E-001 +1.2016493978E+002  +4.6310977578E-001 +1.0910960268E+002  +4.4671652251E-001 +5.6060318372E+001  +1.0819333238E+000 +1.2017437211E+002 
4889662.078 +4.2412437343E-001 +1.2951925192E+002  +5.2395346704E-001 +1.4082633155E+002  +5.1560757547E-001 +9.4134525958E+001  +1.3083975870E+000 +1.4881304787E+002 
5014807.259 +2.9825590227E-001 +7.9190788773E+001  +7.9828586126E-001 +7.0311875849E+001  +7.6119740753E-001 +2.4481256487E+001  +1.3914005753E+000 +6.8633707286E+001 
5139952.441 +3.2915175235E-001 +1.3113127598E+002  +3.5420549851E-001 +1.1391495838E+002  +3.3564721880E-001 +7.0462812029E+001  +8.7363971280E-001 +1.3752689803E+002 
5265097.622 +3.5044088433E-001 +1.3530221181E+002  +3.4435913608E-001 +1.1438451102E+002  +3.4458284290E-001 +7.4290827298E+001  +9.4977008142E-001 +1.3616171155E+002 
5390242.804 +3.6721252530E-001 +1.4094036749E+002  +2.7404733998E-001 +1.1461983571E+002  +2.5796320495E-001 +7.9512157002E+001  +7.9905154522E-001 +1.4458547227E+002 
5515387.985 +3.6405464442E-001 +1.2059447659E+002  +4.4270145888E-001 +9.9709994420E+001  +4.3983471475E-001 +6.5926943546E+001  +9.9491267125E-001 +1.3169112712E+002 
5640533.166 +4.0194324216E-001 +1.3318367755E+002  +3.7652682530E-001 +1.0695993193E+002  +3.7016325007E-001 +7.6173018565E+001  +1.0274523097E+000 +1.3629374915E+002 
5765678.348 +3.2208515847E-001 +1.2016540368E+002  +3.9384145376E-001 +7.5810861011E+001  +3.8789840801E-001 +4.8396859652E+001  +6.9660522356E-001 +1.2694597438E+002 
5890823.529 +4.0533959740E-001 +1.2255483690E+002  +4.5012360023E-001 +8.4992570510E+001  +4.4494219266E-001 +5.8852257258E+001  +9.2233917927E-001 +1.2074619477E+002 
6015968.711 +4.1015181179E-001 +1.1542172910E+002  +5.7123956738E-001 +8.0823624007E+001  +5.5589682322E-001 +5.6646392824E+001  +1.2215262107E+000 +1.1333725473E+002 
6141113.892 +4.9324219621E-001 +1.0023987672E+002  +6.7510964776E-001 +7.1800780539E+001  +6.6704997342E-001 +5.1665303613E+001  +1.0787194018E+000 +1.0389807543E+002 
6266259.074 +3.7299686833E-001 +1.1429982441E+002  +5.3814160766E-001 +5.2832622380E+001  +5.3174780964E-001 +3.4556834625E+001  +7.8696220080E-001 +8.7930949455E+001 
6391404.255 +3.2319757323E-001 +7.4174115464E+001  +7.7121414461E-001 +4.3431554365E+001  +7.6031841275E-001 +2.7103341301E+001  +1.0604710277E+000 +8.4009113356E+001 
6516549.437 +4.3263012836E-001 +8.8131062683E+001  +7.3640813382E-001 +4.1352958710E+001  +7.1449627447E-001 +2.7559223388E+001  +8.7225175125E-001 +7.0246380352E+001 
6641694.618 +3.2207236657E-001 +7.8009019616E+001  +7.5005631412E-001 +2.3941691989E+001  +7.4361562149E-001 +1.2559815206E+001  +8.0285649099E-001 +4.2316970991E+001 
6766839.800 +4.0876024534E-001 +6.7941405054E+001  +8.4212091335E-001 +2.3664300054E+001  +8.3453478150E-001 +1.4311150266E+001  +9.7245230558E-001 +4.3665599985E+001 
6891984.981 +2.5138433012E-001 +5.1583866528E+001  +7.9900847095E-001 +8.8842677737E+000  +8.0037304300E-001 +1.8029182382E+000  +7.6676407413E-001 +2.1254612751E+001 
7017130.163 +3.1794952018E-001 +5.2278377656E+001  +7.4912789067E-001 +9.5008569694E+000  +7.5217753406E-001 +4.2943591189E+000  +5.2178750597E-001 +3.1903696240E+001 
7142275.344 +3.9263430421E-001 +1.5363135711E+001  +8.1539083982E-001 +2.7926354326E+000  +8.1425414752E-001 -6.4280084386E-001  +5.6665341149E-001 -3.0817812716E+000 
7267420.526 +2.8540805827E-001 +7.8136134745E+000  +7.7082684932E-001 +1.0816798637E+000  +7.5369912055E-001 -4.2382139376E-001  +5.0255742371E-001 -1.8646098958E+000 
7392565.707 +2.5999858251E-001 -2.0484565808E-001  +7.3250367754E-001 +1.5808464299E+000  +7.3429442432E-001 +1.0872914078E+000  +4.0119288009E-001 +3.3132145569E+000 
7517710.889 +2.9004640705E-001 -4.9516274625E-001  +7.2283341394E-001 -6.4872427289E-001  +7.1674562680E-001 +1.5867770706E+000  +2.4923174067E-001 -1.9500965953E+001 
7642856.070 +2.5731784147E-001 +4.1261640105E+001  +6.7778921010E-001 -4.8594025546E-001  +6.7248568273E-001 +3.9203732836E+000  +2.9112014788E-001 -1.1101401465E+001 
7768001.252 +2.3074080247E-001 +4.0663416362E+001  +6.5615046491E-001 -6.8862620701E-001  +6.5072791209E-001 +3.8909677493E+000  +1.9341023171E-001 +6.7170304248E-001 
7893146.433 +1.7867535369E-001 +7.8780459262E+001  +6.1441201987E-001 -3.3089111466E+000  +6.1166015242E-001 +3.7265241911E+000  +2.0737430366E-001 +2.7244531695E+001 
8018291.615 +1.7905497203E-001 +7.4757596374E+001  +5.9624756407E-001 -3.3360949126E+000  +5.9268838478E-001 +4.1819543962E+000  +2.7909140074E-001 +3.6755617471E+001 
8143436.796 +1.3441896922E-001 +8.9541901268E+001  +5.8483541571E-001 -6.1244876452E+000  +5.8105347308E-001 +3.0515200671E+000  +1.3468597152E-001 +7.8275662274E+001 
8268581.977 +1.4407360773E-001 +7.1979618747E+001  +5.8374987451E-001 -5.1441744638E+000  +5.7764814482E-001 +5.2766736324E+000  +2.0593779334E-001 +4.7921476899E+001 
8393727.159 +1.9078432231E-001 +8.8939729679E+001  +5.6073843487E-001 -6.1807559432E+000  +5.5679285415E-001 +4.9760157469E+000  +1.6739641936E-001 +6.7240043126E+001 
8518872.340 +1.9032196400E-001 +6.3110835466E+001  +5.6231838866E-001 -4.7859879022E+000  +5.5997351588E-001 +6.8937191557E+000  +1.5732933698E-001 +5.7418758762E+001 
8644017.522 +1.8999776094E-001 +8.0172059931E+001  +5.4739411638E-001 -6.2537368892E+000  +5.4061787213E-001 +6.2114356583E+000  +1.9109039688E-001 +9.3302338958E+001 
8769162.703 +1.4232217569E-001 +6.7397452434E+001  +5.5090054678E-001 -6.0224149850E+000  +5.4782320009E-001 +7.1203166900E+000  +1.8424573842E-001 +6.7894657240E+001 
8894307.885 +1.7493881329E-001 +9.9710929680E+001  +5.4029806762E-001 -7.4058863988E+000  +5.3673225708E-001 +6.7044474372E+000  +1.3129590057E-001 +8.5158148137E+001 
9019453.066 +2.0478108025E-001 +9.3337941884E+001  +5.3462812866E-001 -6.8058356411E+000  +5.2843648855E-001 +7.5936834372E+000  +1.4769295961E-001 +8.6801516036E+001 
9144598.248 +1.3472177569E-001 +1.1512080922E+002  +5.3239604570E-001 -7.6963742005E+000  +5.3138871079E-001 +7.0702848175E+000  +1.8463560945E-001 +7.9822461639E+001 
9269743.429 +1.5683931674E-001 +8.7054179528E+001  +5.3368306531E-001 -6.5662691704E+000  +5.3292729975E-001 +8.2242408533E+000  +1.5042741323E-001 +7.5058297281E+001 
9394888.611 +1.5795365458E-001 +1.0624604304E+002  +5.3486202838E-001 -7.6838073920E+000  +5.3018192836E-001 +7.4224174878E+000  +9.5724619345E-002 +9.2427646079E+001 
9520033.792 +1.2386601710E-001 +1.1526830717E+002  +5.3825158962E-001 -7.8084956364E+000  +5.3193136429E-001 +8.1512931231E+000  +1.3365959001E-001 +7.5061164087E+001 
9645178.974 +9.3132669085E-002 +1.2288499051E+002  +5.4499796610E-001 -8.5594679058E+000  +5.3973396600E-001 +7.5654759156E+000  +9.5118173396E-002 +1.0189915361E+002 
9770324.155 +1.0823075798E-001 +1.1394078479E+002  +5.3957779100E-001 -7.9159625808E+000  +5.3728561530E-001 +7.7650963120E+000  +1.2034601731E-001 +1.0330067702E+002 
9895469.337 +1.2287735797E-001 +9.9535455989E+001  +5.4021574185E-001 -7.0700225539E+000  +5.3467821577E-001 +8.8051191539E+000  +1.1819309328E-001 +8.5533998259E+001 
10020614.518 +1.8480682243E-001 +1.0794977813E+002  +5.2431733664E-001 -7.4007524448E+000  +5.2421453320E-001 +8.7702570642E+000  +1.3164782659E-001 +8.1141314705E+001 
10145759.700 +1.4329303187E-001 +1.1616381183E+002  +5.3768155110E-001 -7.6984248034E+000  +5.3331828665E-001 +8.4500539066E+000  +1.2682509701E-001 +9.2969233452E+001 
10270904.881 +1.3388954526E-001 +1.0445230424E+002  +5.3912456854E-001 -6.7151742773E+000  +5.3196124426E-001 +8.7936620647E+000  +1.5305594122E-001 +7.9269480910E+001 
10396050.063 +1.5273603079E-001 +9.8525367084E+001  +5.4215380144E-001 -6.5814623381E+000  +5.3742744594E-001 +8.7673384934E+000  +1.1492881074E-001 +8.3291224516E+001 
10521195.244 +1.2103064712E-001 +1.0280819940E+002  +5.4502718223E-001 -6.5424579560E+000  +5.4259609232E-001 +8.8865430537E+000  +1.4374663600E-001 +8.1480931614E+001 
10646340.426 +1.2377980025E-001 +9.2726414832E+001  +5.4612168256E-001 -6.4107959444E+000  +5.4130024767E-001 +8.5091983709E+000  +1.5979368529E-001 +9.3760662302E+001 
10771485.607 +1.6336510158E-001 +9.8323500166E+001  +5.4465822680E-001 -6.1591743086E+000  +5.4086025376E-001 +8.5678172952E+000  +1.3718498948E-001 +9.3401267317E+001 
10896630.788 +1.4046221563E-001 +9.7440802046E+001  +5.5040550345E-001 -5.6814662402E+000  +5.4664889473E-001 +8.3139241623E+000  +1.5841883287E-001 +8.7930987950E+001 
11021775.970 +1.4109278948E-001 +9.0776182071E+001  +5.5255690621E-001 -5.3794279357E+000  +5.5279545541E-001 +8.5845882917E+000  +1.5405770399E-001 +8.7256083576E+001 
11146921.151 +1.7198117406E-001 +8.9557486420E+001  +5.5364319032E-001 -4.8482626496E+000  +5.5176711767E-001 +8.4678510116E+000  +1.4937714453E-001 +8.0466637847E+001 
11272066.333 +1.2711231534E-001 +8.5060360627E+001  +5.6373304933E-001 -4.8761416271E+000  +5.5681447987E-001 +7.9624126019E+000  +1.7145362263E-001 +8.7751638118E+001 
11397211.514 +1.5090239117E-001 +8.0275092922E+001  +5.7018770480E-001 -4.5015263651E+000  +5.6640601840E-001 +8.2020939225E+000  +1.2312530650E-001 +8.1114455724E+001 
11522356.696 +1.6097880415E-001 +7.9398026217E+001  +5.7085024219E-001 -3.9045282535E+000  +5.6739009308E-001 +8.0703466507E+000  +1.5200598930E-001 +7.9749834925E+001 
11647501.877 +1.2296018456E-001 +7.4944277684E+001  +5.8197579026E-001 -3.8332551903E+000  +5.7686726761E-001 +7.6033456225E+000  +1.2859151020E-001 +7.3446324533E+001 
11772647.059 +1.7709268235E-001 +6.8584871710E+001  +5.7893632050E-001 -2.8660933380E+000  +5.7632579483E-001 +7.9773560378E+000  +1.4838494110E-001 +6.8187196036E+001 
11897792.240 +1.3196392951E-001 +7.3016902653E+001  +5.8921510971E-001 -3.0801713621E+000  +5.8285102647E-001 +6.8739744780E+000  +1.4821489241E-001 +6.8535090854E+001 
12022937.422 +1.5158905745E-001 +7.8878889715E+001  +5.9244996525E-001 -2.9413918625E+000  +5.8779748834E-001 +6.6036009283E+000  +1.3403689442E-001 +6.1718783437E+001 
12148082.603 +1.5452711955E-001 +6.3027701071E+001  +5.9902019248E-001 -2.2677992312E+000  +5.9524749480E-001 +6.8288264587E+000  +1.4498656308E-001 +6.5126676048E+001 
12273227.785 +1.3776003267E-001 +5.9530558969E+001  +6.0806012513E-001 -2.2891475844E+000  +6.0328954868E-001 +6.4584875898E+000  +1.3525775399E-001 +5.5856228910E+001 
12398372.966 +1.4156875160E-001 +5.9602142603E+001  +6.1305544172E-001 -1.9956856571E+000  +6.0911451732E-001 +5.9726216369E+000  +1.4108070611E-001 +5.8134461811E+001 
12523518.148 +1.0751545361E-001 +4.1110595204E+001  +6.2671830887E-001 -1.6130147925E+000  +6.2157051935E-001 +5.6064220594E+000  +1.3668862924E-001 +4.4412333534E+001 
12648663.329 +1.2124966244E-001 +5.5480856894E+001  +6.2801820189E-001 -2.0665992586E+000  +6.2218602898E-001 +4.6531162805E+000  +1.2680966996E-001 +5.6906835772E+001 
12773808.511 +1.2161437409E-001 +3.7692580001E+001  +6.3940892880E-001 -1.3583801676E+000  +6.3258202416E-001 +4.7328917901E+000  +1.3049657785E-001 +4.0270220706E+001 
12898953.692 +1.3959665830E-001 +3.2207667250E+001  +6.4405912483E-001 -7.9151469306E-001  +6.4002073592E-001 +4.7423451793E+000  +1.4848281369E-001 +3.5521239959E+001 
13024098.874 +1.5456338742E-001 +3.7621626791E+001  +6.4852278225E-001 -7.8061309631E-001  +6.4491319495E-001 +4.1549317863E+000  +1.3006494757E-001 +2.9604922700E+001 
13149244.055 +1.5854421051E-001 +3.5895534176E+001  +6.5421080389E-001 -6.8786065256E-001  +6.5046563351E-001 +3.7371225390E+000  +1.2567167901E-001 +3.0979928802E+001 
13274389.237 +1.4047942648E-001 +2.0132143786E+001  +6.6639423247E-001 -6.6981570380E-001  +6.6059276816E-001 +3.1233914618E+000  +1.4258924186E-001 +2.8131291600E+001 
13399534.418 +1.6483064117E-001 +2.6286163092E+001  +6.6907409193E-001 -1.4623321948E-001  +6.6250613942E-001 +3.2110330535E+000  +1.7054206553E-001 +2.0049901710E+001 
13524679.599 +1.6851467046E-001 +1.9184542491E+001  +6.7577417551E-001 -2.4459514133E-001  +6.6988505567E-001 +2.6727847211E+000  +1.5349884653E-001 +2.1726376031E+001 
13649824.781 +1.5383530121E-001 +1.2584264514E+001  +6.8562699704E-001 -2.4390440040E-001  +6.8092231338E-001 +2.2933062194E+000  +1.8181716786E-001 +1.7856155314E+001 
13774969.962 +1.5971533521E-001 +6.3661646005E+000  +6.9490682612E-001 -1.5180674217E-001  +6.8923594114E-001 +1.9823328307E+000  +1.8297220568E-001 +9.5911378503E+000 
13900115.144 +1.8609564401E-001 +9.9490747551E+000  +6.9686327028E-001 +3.8269308679E-002  +6.9319605964E-001 +1.7254241874E+000  +1.8811965810E-001 +8.1557666187E+000 
14025260.325 +1.9116188816E-001 +3.6136758878E-001  +7.1000728092E-001 -1.9002556589E-001  +7.0238661911E-001 +1.0663994631E+000  +1.7588485348E-001 +3.4400050344E+000 
14150405.507 +1.9374805116E-001 +2.8646335132E+000  +7.1096308951E-001 -4.8767902806E-002  +7.0552906402E-001 +1.1100698375E+000  +2.1728313884E-001 +4.0873442239E+000 
14275550.688 +2.0365490469E-001 +3.2342989830E+000  +7.1608438006E-001 -3.5708444509E-001  +7.0931986748E-001 +4.5765468445E-001  +2.0927853578E-001 +3.1376522676E+000 
14400695.870 +2.3039637058E-001 -3.5134270820E+000  +7.2501046218E-001 -1.2100427148E-001  +7.1996874589E-001 +5.5081155575E-001  +2.2547180211E-001 -2.9550792239E+000 
