!  2-Port S-parameters saved by WinCal
! VAR MeasName=S-Parameters (CALIBRATED_DATA) read from VNA (P5004A)
! VAR MeasDate=29/08/2024 15:17:17
! VAR NAME=f39_pristine_9k-100M_1
! VAR FILENAME=f39_pristine_9k-100M_1.S2P
! VAR DATE=29/08/2024 15:17:17
! VAR PHYS_PORTS=1,2
! VAR ObjTypeName=DATASET
! VAR IndexType=Frequency
!
# Hz S MA R 50
9000.000 +8.6178431786E-002 -1.6651772494E+002  +5.9750780528E-003 +4.3603082578E+001  +1.8520540203E-002 -7.2634611935E+001  +2.2211915303E-001 -1.4289078121E+002 
134145.181 +1.1073408369E-001 +1.6989261660E+002  +4.7801753848E-004 -1.1384004897E+001  +3.3318211115E-004 -8.0626463705E+001  +2.3711016358E-001 -1.7112407977E+002 
259290.363 +1.1164051205E-001 +1.6959113764E+002  +7.6750948394E-004 -1.0444999411E+002  +8.5868556633E-004 -1.7597954533E+002  +2.3769342246E-001 -1.7046631388E+002 
384435.544 +1.1439847861E-001 +1.7063117459E+002  +8.3742614455E-004 -9.5555742345E+001  +7.2360929546E-004 +1.0312882263E+002  +2.4415435362E-001 -1.6815156610E+002 
509580.726 +1.1361929131E-001 +1.7084148190E+002  +1.3910123168E-003 -2.2579457359E+001  +1.5587610784E-003 +1.1211130705E+002  +2.3587962718E-001 -1.6882796282E+002 
634725.907 +1.1703714320E-001 +1.7178585006E+002  +3.3777692573E-003 -7.2737958333E+001  +1.6095554641E-003 -1.6267018828E+002  +2.4472353103E-001 -1.6231360188E+002 
759871.089 +1.2083194424E-001 +1.7015325538E+002  +8.7861179209E-004 -8.7140415341E+001  +1.0536981915E-003 +1.5305522705E+002  +2.5499921453E-001 -1.6697570176E+002 
885016.270 +1.2208960942E-001 +1.6882649439E+002  +7.0994237698E-004 -2.9359577063E+001  +1.1439784901E-003 +1.6399156844E+002  +2.4534451986E-001 -1.6714596480E+002 
1010161.452 +1.1854293305E-001 +1.6853323048E+002  +1.4292646402E-003 +4.7803309260E+001  +2.8694426641E-003 -1.1669773470E+002  +2.1564080559E-001 -1.6955431462E+002 
1135306.633 +1.1952923998E-001 +1.6922458793E+002  +3.7863772101E-003 +4.6272180977E+001  +3.2626135555E-003 -1.3508340903E+002  +2.0408983290E-001 -1.6871363729E+002 
1260451.815 +1.2024294392E-001 +1.7025824621E+002  +3.2859100615E-003 +4.1436475477E+001  +3.7078729649E-003 -1.3762981363E+002  +2.0522980876E-001 -1.6296123937E+002 
1385596.996 +1.2572095274E-001 +1.7222307978E+002  +4.3543732613E-003 -2.3530278621E+001  +2.8393764722E-003 -1.6506896219E+002  +2.3626533009E-001 -1.5882802657E+002 
1510742.178 +1.3027304336E-001 +1.7221923496E+002  +3.3855562112E-003 -2.3299362523E+001  +4.1638343616E-003 +1.6254350090E+002  +2.6796815180E-001 -1.5740758184E+002 
1635887.359 +1.2816523293E-001 +1.7074334538E+002  +4.1989145868E-003 +2.2855270286E+001  +3.2005229728E-003 -1.0992921743E+002  +2.3941268599E-001 -1.6060604423E+002 
1761032.541 +1.3159492116E-001 +1.7032732563E+002  +3.9651872631E-003 +5.7137808881E+001  +4.5201883087E-003 -8.3906239290E+001  +2.3552753623E-001 -1.6228098743E+002 
1886177.722 +1.3529155488E-001 +1.6897136481E+002  +5.7305796414E-003 +7.4400716620E+001  +6.0442093792E-003 -7.6701921915E+001  +2.3221907039E-001 -1.6208782391E+002 
2011322.904 +1.2959540823E-001 +1.7091457001E+002  +1.6357773303E-002 +5.3455780756E+001  +1.3738024407E-002 -7.1626983066E+001  +2.1618819962E-001 -1.5863986231E+002 
2136468.085 +1.3100993103E-001 +1.6967917066E+002  +1.7019005546E-002 +6.2069058863E+001  +1.8570890268E-002 -6.6625996414E+001  +2.1314527901E-001 -1.5899284644E+002 
2261613.267 +1.2697285077E-001 +1.6905775144E+002  +3.5703562023E-002 +8.9057396935E+001  +3.8598320799E-002 -3.7378706440E+001  +1.6916074216E-001 +1.7753807132E+002 
2386758.448 +1.3580182098E-001 +1.6727143885E+002  +2.1330907466E-002 +6.6202124542E+001  +1.9105051809E-002 -5.6192366030E+001  +2.3137507696E-001 -1.5963840857E+002 
2511903.630 +1.3335948724E-001 +1.6914313851E+002  +4.2118540741E-002 +6.0852742185E+001  +4.0048320627E-002 -6.0076599458E+001  +1.6553688903E-001 -1.5246429213E+002 
2637048.811 +1.1781469973E-001 +1.6133399188E+002  +8.7164553343E-002 +8.3488620163E+001  +9.4518729635E-002 -2.9838490821E+001  +9.2569810417E-002 +1.4768767149E+002 
2762193.992 +1.1853524652E-001 -1.6569174575E+002  +1.3839788417E-001 +1.0327890189E+001  +1.3245051288E-001 -9.7763183765E+001  +2.2083906088E-001 -9.1566884720E+001 
2887339.174 +1.4818138849E-001 -1.7904939165E+002  +6.6096340334E-002 -9.4244161342E+000  +6.4029706539E-002 -1.1300527474E+002  +2.6120125441E-001 -1.2490980895E+002 
3012484.355 +1.6287258542E-001 -1.7602504349E+002  +7.7646132027E-002 -3.0057763416E+001  +7.3489094118E-002 -1.3014810856E+002  +3.1356506044E-001 -1.2274883099E+002 
3137629.537 +1.2730416906E-001 +1.7984523242E+002  +9.5148771275E-002 +2.1981359949E+001  +9.8572664814E-002 -7.6103563834E+001  +1.6509569335E-001 -1.1019904126E+002 
3262774.718 +1.4063193120E-001 -1.7735150403E+002  +1.0022066369E-001 +1.2397014400E+001  +1.0265530355E-001 -7.8521818346E+001  +1.7499500255E-001 -1.0117814063E+002 
3387919.900 +1.0285285276E-001 +1.6030966707E+002  +1.3115367286E-001 +7.0470664986E+001  +1.2446437676E-001 -1.9172751003E+001  +1.4512843594E-001 +1.5052158124E+002 
3513065.081 +1.4732159793E-001 +1.6457060438E+002  +8.2733379646E-002 +4.2508156859E+001  +8.1669876599E-002 -4.4774084935E+001  +1.6733675909E-001 -1.2507629431E+002 
3638210.263 +1.8437827944E-001 +1.4686955559E+002  +1.3303187413E-001 +1.2263892713E+002  +1.3489195425E-001 +4.2134731121E+001  +3.7808701970E-001 +1.5076355852E+002 
3763355.444 +1.8648601300E-001 +1.4729476829E+002  +1.6179265473E-001 +1.0625746069E+002  +1.6039015687E-001 +2.8330257443E+001  +3.2428847104E-001 +1.2302540834E+002 
3888500.626 +1.6355076751E-001 +1.6587460201E+002  +7.1503277732E-002 +6.5340395633E+001  +7.1759322486E-002 -1.1055288575E+001  +2.3098149513E-001 -1.7277172930E+002 
4013645.807 +1.7504277314E-001 +1.5798389809E+002  +8.5828176274E-002 +8.8059846732E+001  +8.1126369257E-002 +1.6584305124E+001  +2.8981391688E-001 +1.7597022135E+002 
4138790.989 +1.5869841499E-001 +1.5751331667E+002  +1.3930999488E-001 +7.0984021314E+001  +1.3647937381E-001 +3.2575041348E+000  +1.9651317356E-001 +1.4393064590E+002 
4263936.170 +1.8222281411E-001 +1.5470901359E+002  +1.1184901512E-001 +8.3604180686E+001  +1.1115401857E-001 +1.6691048469E+001  +2.6217836304E-001 +1.6921096662E+002 
4389081.352 +1.4269834988E-001 +1.4604262310E+002  +1.6141469359E-001 +7.1125357801E+001  +1.6351561725E-001 +1.0107093605E+001  +2.4035033378E-001 +1.6301327972E+002 
4514226.533 +1.9730167704E-001 +1.4633818912E+002  +1.9516231248E-001 +9.6690553977E+001  +1.9173241366E-001 +3.7695559875E+001  +4.6334543988E-001 +1.4148591647E+002 
4639371.715 +2.0678384165E-001 +1.2576172543E+002  +3.0962045588E-001 +8.6214867729E+001  +3.0082060439E-001 +3.2085190911E+001  +4.4324564546E-001 +1.1426874731E+002 
4764516.896 +2.8475355000E-001 +1.2906673768E+002  +3.7783786526E-001 +1.1270393919E+002  +3.6352768529E-001 +6.2039477792E+001  +8.3804274066E-001 +1.3226963752E+002 
4889662.078 +7.9694674281E-001 +8.2726220517E+001  +1.5627535808E+000 +9.6706926736E+001  +1.5454768179E+000 +4.9821082354E+001  +2.8066126601E+000 +8.8168503697E+001 
5014807.259 +2.8882126056E-001 +5.7106487334E+001  +8.3950143515E-001 +6.0066341444E+001  +8.0306169670E-001 +1.5099501843E+001  +1.1447110853E+000 +6.0111681304E+001 
5139952.441 +2.9629499760E-001 +1.1917391052E+002  +4.0606175748E-001 +9.7584017482E+001  +3.9536979167E-001 +5.5069454799E+001  +7.2478616251E-001 +1.3185069755E+002 
5265097.622 +2.7110286363E-001 +1.3163736738E+002  +3.1205765503E-001 +8.7432129311E+001  +2.9994388127E-001 +4.7099470091E+001  +5.3584007635E-001 +1.3569158723E+002 
5390242.804 +3.0863897989E-001 +1.2610135130E+002  +4.5780930612E-001 +9.9335589046E+001  +4.4089392424E-001 +6.2243075242E+001  +1.0518928872E+000 +1.3224279888E+002 
5515387.985 +3.0613916463E-001 +1.2901658416E+002  +4.0254818133E-001 +8.5519551301E+001  +3.8603395814E-001 +5.2371744662E+001  +7.4061369276E-001 +1.2506784454E+002 
5640533.166 +3.3370467540E-001 +1.3570677467E+002  +3.6102334214E-001 +9.6623632252E+001  +3.5212508815E-001 +6.4539490141E+001  +9.1104517276E-001 +1.4166964120E+002 
5765678.348 +4.0750751298E-001 +1.3216912694E+002  +4.0011794051E-001 +1.0487058743E+002  +3.9152545762E-001 +7.5540174748E+001  +1.0122372789E+000 +1.4581579374E+002 
5890823.529 +3.4000982598E-001 +1.3418871069E+002  +3.6144368508E-001 +8.1800884511E+001  +3.5260672881E-001 +5.5338234932E+001  +7.9926420262E-001 +1.4200859556E+002 
6015968.711 +3.8518360553E-001 +1.1321990232E+002  +5.8016286391E-001 +8.1193714095E+001  +5.7199485427E-001 +5.7900257175E+001  +1.1039267367E+000 +1.2686364736E+002 
6141113.892 +3.5491836761E-001 +1.0879589076E+002  +6.0578827181E-001 +6.3226944274E+001  +5.7969497710E-001 +4.2685983765E+001  +8.1745387914E-001 +1.1073914446E+002 
6266259.074 +2.9899039153E-001 +1.1449737586E+002  +6.4840190009E-001 +5.2265052373E+001  +6.4040373289E-001 +3.2211092907E+001  +9.4754451926E-001 +9.1430586156E+001 
6391404.255 +3.5973792790E-001 +1.0565730621E+002  +6.7729200413E-001 +4.6855912822E+001  +6.5931543753E-001 +3.0849951850E+001  +7.1833183847E-001 +8.4193101579E+001 
6516549.437 +2.6976380065E-001 +8.7352990896E+001  +7.9307874210E-001 +3.5125577784E+001  +7.8003309236E-001 +2.1307743088E+001  +7.9750219699E-001 +7.3736706941E+001 
6641694.618 +2.5582046019E-001 +8.0159263002E+001  +8.4550463462E-001 +2.7021043590E+001  +8.4092842382E-001 +1.5536692521E+001  +7.6371375444E-001 +5.8178239450E+001 
6766839.800 +1.4163426220E-001 +8.1126495384E+001  +8.1919440171E-001 +1.7874231977E+001  +8.1503483481E-001 +8.4027871447E+000  +6.2078277149E-001 +6.0809109912E+001 
6891984.981 +1.0900028964E-001 +1.0872634002E+001  +9.0248143320E-001 +6.2177024519E+000  +9.1027574043E-001 -7.2651269603E-001  +5.6091428278E-001 +2.5872255360E+001 
7017130.163 +1.5170516684E-001 +6.5159739982E+001  +8.7034957119E-001 +8.6486423902E+000  +8.6340265051E-001 +3.5668994015E+000  +4.7808423856E-001 +3.7149252127E+001 
7142275.344 +1.0772484142E-001 +8.7096150191E+001  +8.7435156798E-001 +3.6736340952E+000  +8.6822601428E-001 +2.3196600866E-001  +4.8086079815E-001 +8.1011229564E+000 
7267420.526 +1.9313753994E-001 +1.9952802429E+001  +9.4559215658E-001 +2.5216376876E+000  +9.5100796952E-001 +8.5130339712E-001  +4.0372067161E-001 -1.4357623490E+001 
7392565.707 +8.2724284708E-002 +4.3463142835E+001  +9.0611879823E-001 +5.1023827570E-001  +9.0472938616E-001 +1.2760607026E+000  +1.1649594118E-001 +6.1557020820E+000 
7517710.889 +2.8837634065E-002 +1.7692936754E+001  +8.9615460878E-001 -9.1123881227E-001  +8.8214690091E-001 +5.0860456793E-001  +3.4570204945E-002 -2.6259767391E+001 
7642856.070 +1.3383107557E-001 +7.3104073739E+001  +8.3777429593E-001 -1.7750095057E+000  +8.4235942027E-001 +1.6683682649E+000  +9.5914653535E-002 +1.5970076487E+002 
7768001.252 +1.6599148060E-001 +8.0678224769E+001  +8.0391259610E-001 -1.5038038914E+000  +8.0814791134E-001 +3.7071333099E+000  +1.1863126627E-001 +9.9184102120E+001 
7893146.433 +2.1303948656E-001 +9.6874829415E+001  +7.6726859137E-001 -2.4836192799E+000  +7.6665799081E-001 +3.7420468758E+000  +1.9693989314E-001 +1.0396220313E+002 
8018291.615 +1.4174786474E-001 +1.3477094422E+002  +7.5616862725E-001 -4.3754077732E+000  +7.5569163294E-001 +2.8515619316E+000  +2.1499688382E-001 +1.0300640463E+002 
8143436.796 +1.6982140680E-001 +1.2679140861E+002  +7.2679766575E-001 -5.7512353188E+000  +7.2649472317E-001 +3.0912965050E+000  +3.1281087555E-001 +1.1754634521E+002 
8268581.977 +2.1650783944E-001 +1.2814847581E+002  +7.1223379435E-001 -6.0226498769E+000  +7.0792231879E-001 +3.8612887185E+000  +2.9050746892E-001 +1.1342012838E+002 
8393727.159 +2.3836721599E-001 +1.0535353785E+002  +7.1041828274E-001 -5.0662562840E+000  +7.0883185542E-001 +5.8406863472E+000  +2.0863784575E-001 +1.1564855058E+002 
8518872.340 +2.3183804995E-001 +1.1859756837E+002  +6.9532214663E-001 -5.7419910238E+000  +6.9038828819E-001 +6.0325028987E+000  +2.3556918104E-001 +9.7451050029E+001 
8644017.522 +2.6549483024E-001 +1.3479589188E+002  +6.8675403330E-001 -7.6283272374E+000  +6.8151305821E-001 +4.9312455279E+000  +2.3995210009E-001 +1.2004423039E+002 
8769162.703 +2.4550758458E-001 +1.3180121094E+002  +6.8542589352E-001 -8.0374157640E+000  +6.7906787337E-001 +5.2744825299E+000  +2.2807482141E-001 +1.3389896126E+002 
8894307.885 +2.7005841905E-001 +1.3370413829E+002  +6.7227896329E-001 -8.3588441331E+000  +6.6516113086E-001 +5.6143395256E+000  +2.6699515563E-001 +1.2206353736E+002 
9019453.066 +2.9504702060E-001 +1.4005848172E+002  +6.6583680699E-001 -9.7186119605E+000  +6.6373980868E-001 +4.5336130499E+000  +2.7463026042E-001 +1.3654915416E+002 
9144598.248 +2.8159318199E-001 +1.4053718334E+002  +6.6597837406E-001 -9.6315912084E+000  +6.6184763042E-001 +5.3774114923E+000  +2.5492369716E-001 +1.2803907442E+002 
9269743.429 +2.3755489078E-001 +1.4177188519E+002  +6.6672315637E-001 -8.8331826451E+000  +6.6939693336E-001 +6.5028347508E+000  +2.3742359565E-001 +1.2026531400E+002 
9394888.611 +2.3532004384E-001 +1.3297351187E+002  +6.6935154666E-001 -8.6319202758E+000  +6.6440990265E-001 +6.6374597553E+000  +2.2962201361E-001 +1.3323751259E+002 
9520033.792 +2.3568088883E-001 +1.4744168278E+002  +6.7181955288E-001 -9.3505730514E+000  +6.6825561870E-001 +6.4436388319E+000  +2.2280555755E-001 +1.3210094216E+002 
9645178.974 +2.5094111910E-001 +1.4166664624E+002  +6.6504865462E-001 -9.4261418563E+000  +6.5877861766E-001 +6.6132401087E+000  +2.4771525205E-001 +1.3256513120E+002 
9770324.155 +2.3383205721E-001 +1.4244179249E+002  +6.6824239325E-001 -8.9597578388E+000  +6.6331477841E-001 +7.0631535994E+000  +2.0747716525E-001 +1.2731812881E+002 
9895469.337 +2.8914657019E-001 +1.4347109938E+002  +6.5960467724E-001 -9.6980028427E+000  +6.5681497775E-001 +6.1651497291E+000  +2.4739262325E-001 +1.3388546504E+002 
10020614.518 +2.6143941186E-001 +1.4174693781E+002  +6.6885198398E-001 -8.7405700259E+000  +6.6284010238E-001 +7.2078977948E+000  +1.8815456253E-001 +1.2947819669E+002 
10145759.700 +2.3878690132E-001 +1.4252981553E+002  +6.6579087047E-001 -8.7330891725E+000  +6.5969477174E-001 +6.7536748234E+000  +2.6305385151E-001 +1.2676261546E+002 
10270904.881 +2.8414574888E-001 +1.4156881378E+002  +6.6387381341E-001 -9.1729228566E+000  +6.6054593042E-001 +6.7931261541E+000  +2.3875599264E-001 +1.3336204553E+002 
10396050.063 +2.2594934985E-001 +1.3274147771E+002  +6.7073598656E-001 -7.7883316232E+000  +6.6582093409E-001 +7.5561185178E+000  +2.3968613395E-001 +1.2337684330E+002 
10521195.244 +2.2182669994E-001 +1.3691758687E+002  +6.7483804024E-001 -7.7656758723E+000  +6.7023267460E-001 +7.4916379550E+000  +2.3299751476E-001 +1.2385639663E+002 
10646340.426 +2.4580104708E-001 +1.3082760891E+002  +6.6767318808E-001 -7.5086639770E+000  +6.6300390396E-001 +7.4962825223E+000  +2.7111135537E-001 +1.2211612225E+002 
10771485.607 +2.3244703256E-001 +1.3083950035E+002  +6.8027221254E-001 -7.0138900999E+000  +6.7341046476E-001 +7.3704497371E+000  +2.3036595305E-001 +1.2755970897E+002 
10896630.788 +2.4023256118E-001 +1.2685330001E+002  +6.7650452512E-001 -6.7109532857E+000  +6.7295678086E-001 +7.7565503818E+000  +2.5519652439E-001 +1.1669287867E+002 
11021775.970 +1.9876373188E-001 +1.2770406669E+002  +6.8823706530E-001 -6.6759027571E+000  +6.8368648781E-001 +7.0626202510E+000  +2.6266221909E-001 +1.2629915513E+002 
11146921.151 +2.3382811673E-001 +1.3265107458E+002  +6.8849921292E-001 -6.9050082043E+000  +6.8419662974E-001 +6.5779974072E+000  +2.5141087238E-001 +1.2733212944E+002 
11272066.333 +2.0406622573E-001 +1.2778765238E+002  +6.9583789433E-001 -6.2595060545E+000  +6.9186028486E-001 +6.4736459423E+000  +2.6294881816E-001 +1.2538193214E+002 
11397211.514 +2.1215514669E-001 +1.2360818434E+002  +6.9576858024E-001 -5.5015005460E+000  +6.9373353981E-001 +6.9941290539E+000  +2.3130924049E-001 +1.1617691885E+002 
11522356.696 +2.0848388599E-001 +1.2567958332E+002  +7.0425517122E-001 -5.2207974032E+000  +7.0152587699E-001 +6.6570990471E+000  +2.1509116716E-001 +1.1575948444E+002 
11647501.877 +2.0901904309E-001 +1.1965452440E+002  +7.0922065658E-001 -4.8404320273E+000  +7.0415830067E-001 +6.3801402321E+000  +2.3279801496E-001 +1.1861706869E+002 
11772647.059 +1.7382973762E-001 +1.2269657853E+002  +7.1960887078E-001 -4.5648791881E+000  +7.1502827801E-001 +6.2710496944E+000  +2.3232760694E-001 +1.1585594615E+002 
11897792.240 +1.8817099467E-001 +1.2821757605E+002  +7.2903277331E-001 -4.4823994899E+000  +7.2429867850E-001 +5.7422410423E+000  +1.9562937373E-001 +1.1987736642E+002 
12022937.422 +2.0049291923E-001 +1.2728118422E+002  +7.3070051146E-001 -4.4271868543E+000  +7.2435183204E-001 +5.3494372433E+000  +2.0534566028E-001 +1.1849820945E+002 
12148082.603 +1.9486372513E-001 +1.2367291528E+002  +7.4192122322E-001 -4.2058356444E+000  +7.3544953134E-001 +4.8536266908E+000  +2.0171742240E-001 +1.2546038031E+002 
12273227.785 +1.5970815278E-001 +1.2737289171E+002  +7.5295178467E-001 -3.6956336778E+000  +7.4722274164E-001 +4.8185731683E+000  +1.8319918896E-001 +1.2009156111E+002 
12398372.966 +1.7033973110E-001 +1.1543007289E+002  +7.5618198845E-001 -3.1039922700E+000  +7.5060862308E-001 +4.6977894926E+000  +1.7520882283E-001 +1.2057907489E+002 
12523518.148 +1.7044229392E-001 +1.2710576689E+002  +7.6285225101E-001 -3.2563684092E+000  +7.5663652676E-001 +4.1362706423E+000  +1.7986399171E-001 +1.1240995631E+002 
12648663.329 +1.3810874495E-001 +1.2042566336E+002  +7.7508344440E-001 -3.0120307026E+000  +7.6968818680E-001 +3.6911110356E+000  +1.6978506239E-001 +1.2122191262E+002 
12773808.511 +1.2898310942E-001 +1.2423800681E+002  +7.8834531457E-001 -2.6023037321E+000  +7.8317789473E-001 +3.5606745438E+000  +1.3238550823E-001 +1.1581703522E+002 
12898953.692 +1.3303652339E-001 +1.1571645909E+002  +7.9296477603E-001 -2.1271448170E+000  +7.8743341977E-001 +3.5303808732E+000  +1.2411261525E-001 +1.1177284740E+002 
13024098.874 +1.1058325189E-001 +1.1288402526E+002  +8.0406389647E-001 -1.9886439583E+000  +7.9992445198E-001 +2.9735330779E+000  +1.2597049631E-001 +1.1896279733E+002 
13149244.055 +1.0984699524E-001 +1.1562467225E+002  +8.0961973119E-001 -1.8386153932E+000  +8.0323517566E-001 +2.6952971683E+000  +1.2950594960E-001 +1.1275246369E+002 
13274389.237 +8.2115472893E-002 +1.2399356692E+002  +8.2692352153E-001 -1.8406694171E+000  +8.2147098020E-001 +2.1875745836E+000  +9.1961460512E-002 +1.2025712416E+002 
13399534.418 +7.7015217811E-002 +9.6072971525E+001  +8.3258366634E-001 -1.0902985058E+000  +8.2511937812E-001 +2.3544170265E+000  +9.5148454666E-002 +1.0771229819E+002 
13524679.599 +7.4635868540E-002 +9.7063917538E+001  +8.4347503577E-001 -4.9908644562E-001  +8.3092240099E-001 +2.0975344461E+000  +1.0105943515E-001 +9.4800809347E+001 
13649824.781 +5.4128813826E-002 +9.4773241118E+001  +8.6111786760E-001 -7.6462552813E-001  +8.4954098021E-001 +1.5130581164E+000  +6.0301155441E-002 +1.0710364826E+002 
13774969.962 +5.8259567758E-002 +9.9670604277E+001  +8.5551810741E-001 -4.2024511569E-001  +8.5280870790E-001 +1.2918934437E+000  +4.9987304612E-002 +8.6433969198E+001 
13900115.144 +4.9153442926E-002 +9.9340681553E+001  +8.6034348104E-001 -6.6507426735E-001  +8.6824846445E-001 +7.3820528939E-001  +4.2707651804E-002 +1.0388875017E+002 
14025260.325 +6.1446752743E-002 +7.8916156654E+001  +8.8265278114E-001 -7.4098531609E-001  +8.8102772648E-001 +1.1045997782E-001  +3.2202494935E-002 +7.7334147383E+001 
14150405.507 +3.6616400741E-002 +7.9902532771E+001  +8.8722773595E-001 -1.6895610380E+000  +8.8388707385E-001 -6.7718518264E-002  +2.8269449760E-002 +5.3362898258E+001 
14275550.688 +4.7019496082E-002 +2.1312756154E+001  +9.0135102598E-001 -1.2106835744E+000  +8.8003230199E-001 -2.1194686217E-001  +1.6461875006E-002 +2.3766534312E+001 
14400695.870 +2.7446156123E-002 +1.2874720348E+001  +9.1602828673E-001 -2.0618998501E+000  +8.9939791734E-001 -7.7296662403E-001  +3.2943806699E-002 +6.3932683890E+001 
