!  2-Port S-parameters saved by WinCal
! VAR MeasName=S-Parameters (CALIBRATED_DATA) read from VNA (P5004A)
! VAR MeasDate=29/08/2024 15:47:16
! VAR NAME=f39_RESET5_9k-100M_2
! VAR FILENAME=f39_RESET5_9k-100M_2.S2P
! VAR DATE=29/08/2024 15:47:16
! VAR PHYS_PORTS=1,2
! VAR ObjTypeName=DATASET
! VAR IndexType=Frequency
!
# Hz S MA R 50
9000.000 +9.9125341335E-002 -1.6665496554E+002  +9.2860440343E-003 -2.0872081773E+001  +5.0003694681E-003 -1.4389878293E+002  +2.5407174845E-001 -1.4909889511E+002 
134145.181 +1.1201142038E-001 +1.6956212617E+002  +8.7122653220E-005 +6.4252242505E+001  +6.3332627170E-004 -1.7019781338E+002  +2.4327587202E-001 -1.7083026452E+002 
259290.363 +1.1181094493E-001 +1.6966890159E+002  +1.1075448469E-004 +8.6867960883E+001  +6.5831343699E-004 +1.3451590065E+002  +2.4553795851E-001 -1.6886893776E+002 
384435.544 +1.1448963086E-001 +1.6980155106E+002  +1.1016521295E-003 -1.4826797213E+002  +6.2801807277E-004 -1.1366978535E+002  +2.4072916806E-001 -1.6770683013E+002 
509580.726 +1.1405415931E-001 +1.7171396171E+002  +4.1871414839E-004 +3.5076487611E+001  +2.4364383567E-003 +1.1558345945E+002  +2.6732821389E-001 -1.6630440589E+002 
634725.907 +1.1696166220E-001 +1.7214529863E+002  +7.0203211737E-004 -5.6521233178E+001  +5.7763208445E-004 +1.4850069450E+002  +2.5271141164E-001 -1.6598478959E+002 
759871.089 +1.1919168037E-001 +1.7068244028E+002  +3.0531746840E-004 +1.7099559187E+002  +4.8898332594E-004 -1.4350295415E+002  +2.5090573115E-001 -1.6766494015E+002 
885016.270 +1.2003130303E-001 +1.6901892210E+002  +1.2778122883E-004 -9.7134886788E+001  +5.3063572489E-004 +3.5830453817E+001  +2.4571335775E-001 -1.6621268267E+002 
1010161.452 +1.1447905403E-001 +1.6943223634E+002  +5.7155868672E-004 +8.7643836844E+001  +6.4871785735E-004 +1.1034788402E+002  +2.1680285257E-001 -1.6840486925E+002 
1135306.633 +1.1652769866E-001 +1.6839546125E+002  +9.0379319945E-004 +1.0650437717E+002  +7.1640521583E-004 +1.7566123151E+002  +1.9244239066E-001 -1.5794211748E+002 
1260451.815 +1.1849143617E-001 +1.7062961108E+002  +1.0923447016E-003 -8.7033292930E+001  +1.7797021720E-003 +9.6281673831E+001  +2.2441206827E-001 -1.5448218521E+002 
1385596.996 +1.2512177268E-001 +1.7320369243E+002  +7.4104345487E-004 +1.6291558535E+002  +1.1172480310E-003 +1.3702014549E+001  +2.5291667619E-001 -1.5651030032E+002 
1510742.178 +1.2789448350E-001 +1.7159700714E+002  +6.1843600524E-004 +1.4069600593E+002  +1.3275816887E-003 +1.2843056239E+002  +2.4193329984E-001 -1.5727558268E+002 
1635887.359 +1.2705694023E-001 +1.7180506837E+002  +3.1669306218E-004 -1.6307693641E+002  +1.4177805949E-003 -7.8601231501E+001  +2.5058142010E-001 -1.5465246808E+002 
1761032.541 +1.2965478625E-001 +1.6900428677E+002  +1.6027882209E-003 -6.5811461418E+001  +2.1455127837E-003 -1.1378733885E+002  +1.8028184735E-001 -1.6398387107E+002 
1886177.722 +1.3265364993E-001 +1.6736172877E+002  +7.3940229175E-004 +1.5499595581E+002  +1.7922586187E-003 +5.5404786443E+001  +2.2075493303E-001 -1.5406616075E+002 
2011322.904 +1.2922165062E-001 +1.6722052154E+002  +7.8879600161E-004 -3.2648494207E+001  +5.4728531006E-004 +2.8615432483E+001  +2.0058893311E-001 -1.7230646349E+002 
2136468.085 +1.2313357259E-001 +1.6648383565E+002  +1.3653856781E-003 -1.4494825775E+002  +2.0358506065E-003 -1.4898955307E+002  +1.8521457855E-001 -1.6086199669E+002 
2261613.267 +1.4186211298E-001 +1.6255297238E+002  +4.7843194414E-004 +1.4331805086E-001  +5.5159503168E-004 +1.6896432650E+002  +1.9262647443E-001 -1.7546805860E+002 
2386758.448 +1.3511628455E-001 +1.6349968197E+002  +7.2802007460E-004 -4.5956102443E+001  +4.1601121235E-003 -5.1475868572E+001  +1.8200288698E-001 -1.7512221477E+002 
2511903.630 +1.3035463646E-001 +1.6357007415E+002  +5.6835668673E-003 -4.7463377650E+001  +4.6275429803E-003 +1.2820397292E+002  +2.7199556412E-001 +1.4205336075E+002 
2637048.811 +1.3219140861E-001 +1.6277701643E+002  +1.6827640914E-002 -5.2843374632E+001  +2.0074523328E-002 +1.5095278814E+002  +4.9547589428E-001 +1.0503846019E+002 
2762193.992 +1.0516909451E-001 +1.7735239054E+002  +4.5419173526E-002 +9.3558681576E+000  +4.0606164816E-002 +1.3289969906E+002  +1.3748970043E+000 +1.2104160695E+001 
2887339.174 +7.5486368617E-002 +1.6581247431E+002  +3.5074769839E-002 +2.7079696854E+001  +2.7228448368E-002 +4.1821499382E+001  +1.0318899309E+000 +3.3770133642E+001 
3012484.355 +9.7773034850E-002 +1.6903021257E+002  +4.9270382201E-002 -2.1490660268E+001  +4.2451424484E-002 -5.7762619806E+001  +9.1013571682E-001 -5.9923058033E+001 
3137629.537 +1.3107745060E-001 +1.7974989567E+002  +1.0549207961E-002 +2.8130752089E+001  +2.1708981159E-002 +1.3988080812E+002  +5.2961881290E-001 -1.0000185901E+002 
3262774.718 +1.2528401590E-001 +1.7335677579E+002  +1.2818047837E-002 -2.0622347260E+000  +2.0949805904E-003 -4.7885826422E+001  +1.0832967752E-001 +6.1830097943E+001 
3387919.900 +8.2646750543E-002 +1.6175038530E+002  +2.2571512284E-002 +1.0812548342E+002  +1.2628159682E-002 +7.9521165893E+001  +2.4894590347E-001 +9.9337807436E+001 
3513065.081 +1.6279785461E-001 +1.4147685309E+002  +3.2968530675E-002 -1.5659018231E+002  +2.0400488823E-002 +9.2546668207E+001  +8.1489145946E-001 +1.1244593439E+002 
3638210.263 +2.1506460472E-001 +1.3716379086E+002  +1.5539208285E-002 +1.3833711025E+001  +3.4240765775E-003 +3.8070415753E+001  +5.0133862054E-001 +1.4233738112E+002 
3763355.444 +1.7775574586E-001 +1.3607441653E+002  +1.5509336634E-002 +1.2859266216E+001  +3.2150839539E-002 +6.8797480399E+000  +8.7333016338E-001 +1.5315463311E+002 
3888500.626 +1.7968902940E-001 +1.4992412544E+002  +9.9515663978E-003 +7.6804797702E+001  +5.7749636674E-003 -1.3030685749E+002  +4.4380949590E-001 +1.0406558265E+002 
4013645.807 +1.7863115488E-001 +1.4791516610E+002  +4.5646274524E-003 +5.1409352306E+001  +5.6801798651E-003 +5.7582405331E+000  +7.5069722439E-001 +1.1743604054E+002 
4138790.989 +1.9340016954E-001 +1.5194897191E+002  +1.8812562254E-003 -9.8018326960E+001  +9.1843993713E-003 +8.3468794602E+001  +3.5433437513E-001 +1.4432056890E+002 
4263936.170 +1.7817511335E-001 +1.4104467218E+002  +5.3689486802E-003 +1.0395913121E+002  +3.5305784559E-003 -1.2208291508E+002  +9.0423154359E-001 +1.1214037467E+002 
4389081.352 +2.3242534556E-001 +1.3856729331E+002  +2.6724310041E-002 -8.5742531324E+001  +1.2493903689E-002 +1.1518780214E+002  +1.1232977292E+000 +5.4335235904E+001 
4514226.533 +2.3606420012E-001 +1.2892039071E+002  +1.4828763921E-002 -7.9419479148E+001  +2.1520452099E-002 +9.0075532905E-001  +1.1607697751E+000 +4.0532220278E+001 
4639371.715 +2.4307661904E-001 +1.3076149934E+002  +1.1512927622E-002 -5.5126561465E+001  +2.5546682395E-002 +5.1446823753E+001  +8.7296212294E-001 -3.2286485465E+001 
4764516.896 +3.4186216354E-001 +1.3269861163E+002  +7.6385558495E-002 -4.4990274810E+001  +8.4339032256E-002 -1.2963983447E+002  +5.0040587576E+000 -6.7710645619E+001 
4889662.078 +6.0855897602E-001 +1.1867896896E+002  +1.6829994834E-002 +1.4297983379E+002  +6.3875313968E-002 -1.5969247015E+002  +2.6217801899E+000 -1.2595878047E+002 
5014807.259 +4.0326279340E-001 +1.2668854781E+002  +2.8747910832E-002 +1.3496163806E+002  +8.1895756980E-002 +1.0944451398E+002  +4.3490339940E+000 -1.4990265739E+002 
5139952.441 +4.3615915508E-001 +1.2131907609E+002  +1.0894975353E-002 +1.5551371485E+001  +9.2834538967E-002 +3.2853085908E+001  +3.5248664859E+000 +5.3815691834E+001 
5265097.622 +4.0147857106E-001 +1.3770761852E+002  +3.4106911437E-002 +1.0494229833E+002  +1.5937121770E-002 +1.2982249595E+002  +1.8161729424E+000 +2.3110324568E+001 
5390242.804 +3.9633371448E-001 +1.2227526356E+002  +2.5991386623E-002 +8.9775160816E+001  +7.8252913864E-002 -4.8382696853E+001  +4.1482713759E+000 +9.9438929582E+001 
5515387.985 +4.2468720183E-001 +1.2329045715E+002  +3.0252042337E-002 +1.5776951721E+002  +4.4818812248E-002 +1.0366099521E+002  +6.8442701073E+000 +1.0347725774E+002 
5640533.166 +4.5400011478E-001 +1.2104579486E+002  +8.4280853382E-003 -3.9084924484E+001  +3.5148619490E-002 -5.2032059148E+001  +1.5737030418E+000 +3.9939009543E+001 
5765678.348 +5.7046747225E-001 +1.2074915712E+002  +1.9580851765E-002 +1.7580785983E+002  +1.9965496563E-002 -4.7045132477E+001  +2.6176474681E+000 +6.9516368544E+001 
5890823.529 +5.8323302269E-001 +1.3078769563E+002  +1.6237553149E-002 +8.6227237573E+001  +1.5354711958E-002 +1.4683049505E+001  +1.7158830157E+000 +6.0098442096E+001 
6015968.711 +6.2909854074E-001 +1.0227347284E+002  +2.6006588033E-002 -5.9315899523E+000  +3.7960199077E-002 +3.4113393380E+001  +2.2126336002E+000 +1.9374133352E+001 
6141113.892 +7.8263466433E-001 +1.1468573967E+002  +8.1788405211E-003 +1.7545587127E+002  +1.8451821203E-002 +1.0001377795E+002  +1.7045404799E+000 +1.7985713106E+001 
6266259.074 +8.8628873081E-001 +9.7890921088E+001  +1.5825666771E-002 +5.8222806736E+001  +6.0352132022E-003 -5.1713175216E+001  +1.9656966138E+000 +1.4861062512E+000 
6391404.255 +1.0553998293E+000 +7.6467434586E+001  +1.2076263333E-002 +5.5586982804E+001  +5.8587075967E-003 -4.8317436048E+001  +1.2855618292E+000 +2.9634448633E-001 
6516549.437 +1.2646399049E+000 +9.1049728351E+001  +1.8832859534E-002 +4.7115847848E+000  +4.1199743992E-002 +1.3675464943E+001  +1.3534973360E+000 +8.1565558843E+000 
6641694.618 +1.8052304369E+000 +8.4965244274E+001  +1.8790587560E-002 +8.2864268830E+001  +9.7098893645E-003 +3.6680741640E+001  +1.5441862555E+000 -3.7580110829E+000 
6766839.800 +1.7587810277E+000 +5.0172073015E+001  +2.1185775236E-002 +1.4119939788E+001  +3.6340532310E-002 +3.4141285115E+001  +1.2450236377E+000 +1.4155421650E+000 
6891984.981 +1.7111910439E+000 +1.0709198991E+001  +2.4983078208E-002 -6.3567359913E+001  +2.3421549795E-002 -7.1023633814E+001  +1.4024656789E+000 -5.9044453452E+000 
7017130.163 +1.8005476241E+000 +4.2935299952E+000  +1.2770375167E-002 -6.2589969991E+001  +1.3624447407E-002 +2.9385715381E+001  +1.2589996422E+000 -1.5122041205E+001 
7142275.344 +1.5482118950E+000 +5.6670655030E+000  +1.2429995382E-002 +6.4028795655E+000  +1.3554042871E-002 +5.9061075959E+001  +1.2043258148E+000 -1.3050069835E+001 
7267420.526 +1.6148885882E+000 +5.8260161075E+000  +9.9697872134E-003 +3.7130237623E+001  +7.1565488761E-003 +6.2750205027E+000  +1.3157536920E+000 -1.1069210758E+001 
7392565.707 +1.4207446116E+000 -2.3956844299E+000  +9.2294672134E-003 +5.8250980187E+001  +1.5059841614E-002 -2.7401599494E+001  +1.3237170405E+000 -7.7339116601E+000 
7517710.889 +1.0969984269E+000 -8.5633540945E+000  +6.7495079987E-003 -8.6792306023E+001  +9.1628497287E-003 -4.4816184270E+001  +1.1117967592E+000 -3.0262547945E+000 
7642856.070 +1.0503652936E+000 -2.5271161925E-001  +3.5890105705E-003 +8.7868344400E+001  +1.2610769715E-002 +1.1780892448E+001  +1.0249575174E+000 -9.7630674918E+000 
7768001.252 +9.0828425131E-001 +4.5309437424E+000  +6.8359596416E-003 +4.3836306491E+001  +6.3615000310E-003 +9.0596884023E+001  +1.0877701954E+000 -2.7780512628E+000 
7893146.433 +8.3027795990E-001 +4.8627030461E-001  +2.9940509106E-003 -8.5616580045E+001  +8.9498405511E-003 +4.0557940358E+001  +8.6773554751E-001 -3.1434548382E+000 
8018291.615 +8.3166344947E-001 +3.5651894373E+000  +4.6264424807E-003 -1.3843895697E+002  +9.7677898523E-003 +6.4068313714E+001  +8.2019829684E-001 -1.8420523025E+000 
8143436.796 +7.3408716239E-001 +9.9982611542E+000  +7.9607419176E-003 +2.7604471767E+001  +1.0831079892E-002 -2.1661609620E+000  +8.1306583527E-001 -3.0172241145E-001 
8268581.977 +7.2435741393E-001 +4.6944132703E+000  +5.0055718216E-003 -4.8869749280E+001  +4.3806105481E-003 -5.9665837061E+001  +7.0215260534E-001 -8.0302134242E+000 
8393727.159 +6.8448058502E-001 +9.9882629288E+000  +5.9746479502E-003 -4.3985229555E+001  +3.2861740864E-003 +1.3259964506E+002  +7.4634205161E-001 -7.9284325198E-001 
8518872.340 +7.4163497483E-001 +9.8115430613E+000  +5.9164254143E-003 -5.4639701533E+001  +5.4077761466E-003 +8.2142499951E+001  +6.8303627994E-001 -7.6529330149E-001 
8644017.522 +7.0499811869E-001 +7.6280031447E+000  +5.0514754413E-003 +2.8377286049E+001  +4.5747574801E-003 -5.1795175509E+000  +6.3812446713E-001 +4.0048963085E+000 
8769162.703 +6.1754095978E-001 +3.1819607813E+000  +4.1027606860E-003 +2.7957288428E+001  +5.8951081387E-003 -4.0340874655E+001  +6.8341638846E-001 +2.0651893595E+000 
8894307.885 +6.2917075033E-001 +3.7081835341E+000  +4.1334494737E-003 +5.0620136705E+001  +3.3346944572E-003 +4.2150757109E+001  +6.1355730244E-001 -2.3459578487E+000 
9019453.066 +5.7408566262E-001 +8.5707343037E+000  +1.0578056000E-003 -7.2953349643E+001  +7.2844948420E-003 +3.2648396899E+001  +6.5854435355E-001 +4.4940674990E-001 
9144598.248 +5.9183509598E-001 +6.1323725632E+000  +3.0583487015E-003 +1.5184512865E+001  +8.7945097111E-003 +1.9648986106E+001  +6.2017135057E-001 -2.1200134420E+000 
9269743.429 +5.4143921313E-001 +5.5283183081E+000  +4.0726470701E-003 +4.4088774492E+001  +7.3373991830E-003 +5.6117690682E+000  +5.9261936307E-001 -2.4262504443E+000 
9394888.611 +5.6958859862E-001 +7.8555254798E+000  +2.7460355701E-003 +3.3254785275E+001  +3.6241781131E-003 -3.0697874962E+001  +6.1324799998E-001 -2.4991949565E+000 
9520033.792 +5.3275682999E-001 +8.7233087532E+000  +2.7683194039E-003 +6.6375242731E+000  +3.7975069263E-003 +2.0121956294E+001  +5.7009589143E-001 -2.2411226546E+000 
9645178.974 +5.4709177174E-001 +2.9260670917E+000  +1.3069087640E-003 -1.3413403780E+002  +3.9671196911E-003 -3.1029100978E+001  +5.5555171911E-001 -4.5883628715E+000 
9770324.155 +5.3438439409E-001 -4.7677947452E-001  +3.3984027808E-003 +2.6410262544E+001  +5.9836170526E-003 +3.4072219286E+001  +5.5304155599E-001 -8.6771575439E+000 
9895469.337 +5.2703364301E-001 +1.8732298881E+000  +3.5499821261E-003 -3.0635768822E+001  +7.1579372869E-003 -3.3637277960E+001  +5.6803235413E-001 -5.5165517280E+000 
10020614.518 +5.3422760373E-001 +5.2299171513E+000  +1.1101885536E-003 +2.8014854022E+001  +3.1891639431E-003 -7.7868196075E+000  +5.9326797040E-001 -3.3450279897E+000 
10145759.700 +5.4766139953E-001 +2.4322393297E+000  +6.6035851779E-003 -1.3288374421E+001  +4.7310229602E-003 +1.2858560355E+000  +5.8190735977E-001 -2.5157538979E+000 
10270904.881 +5.8290941348E-001 +7.7892325516E+000  +4.5281196454E-003 +1.6273317603E+001  +4.9492421690E-003 +1.0591422006E+001  +5.8487171326E-001 -2.9576793789E+000 
10396050.063 +5.8901816181E-001 +4.5380269325E+000  +4.9376344373E-003 -1.9343949683E+001  +4.9493568666E-003 +3.4672746476E+001  +5.8707636425E-001 -1.8198608912E+000 
10521195.244 +5.8534439739E-001 +5.7792742717E+000  +4.4845956274E-003 -1.3384903639E+000  +5.2034353857E-003 +3.4239025297E+001  +5.9159782021E-001 -3.0222038117E+000 
10646340.426 +5.9190821443E-001 +7.8416255999E+000  +3.7659777470E-003 -3.6406655031E+001  +5.1480501930E-003 +4.7513156430E+000  +5.8999921161E-001 +2.5113852822E+000 
10771485.607 +5.7683233417E-001 +5.6376811077E+000  +2.7187431912E-003 -1.9458104177E+001  +4.6233475356E-003 +3.9974053438E+001  +5.8658899860E-001 -1.3148670644E+000 
10896630.788 +5.8044822585E-001 +5.8991801872E+000  +2.9142559382E-003 -8.5604411975E+000  +3.9612216642E-003 +1.9469416457E+000  +6.2369007028E-001 -3.6731583131E-001 
11021775.970 +5.8903048595E-001 +5.9949207628E+000  +2.6014778992E-003 -1.1182230245E+001  +5.5890303309E-003 -1.4201938122E+001  +5.9308186431E-001 +3.1472392761E+000 
11146921.151 +6.0911753125E-001 +8.7443672651E+000  +4.9445201916E-003 +1.3326669057E+001  +4.0825341056E-003 +2.3381334517E+001  +5.9122524182E-001 +6.1402093013E-001 
11272066.333 +5.8949352079E-001 +6.5576455777E+000  +3.8578319117E-003 +2.9865105561E+000  +2.2784178347E-003 +2.9621740606E+001  +6.6578808761E-001 +3.7204402336E+000 
11397211.514 +5.9063128107E-001 +8.3457000384E+000  +4.9425841063E-003 +1.1152176912E+000  +1.6934249383E-003 +2.0979471789E+001  +6.3474145334E-001 +1.1836839512E+000 
11522356.696 +6.3852627894E-001 +5.2889470455E+000  +3.8654835386E-003 +9.6309171477E-001  +5.6713340771E-003 +1.9380862587E+001  +6.4437541922E-001 +3.8224570239E+000 
11647501.877 +6.3920116654E-001 +5.8756753434E+000  +5.1112711927E-003 -5.9637658089E+000  +2.9802991586E-003 +3.3344384720E+000  +6.3626880162E-001 +6.1208317158E-001 
11772647.059 +6.5889046904E-001 +6.6443588929E+000  +5.1464116222E-003 -1.9725758473E+001  +3.0282226568E-003 +1.2064841742E+001  +6.7451151549E-001 +2.0980935123E+000 
11897792.240 +6.8152492590E-001 +6.6829048488E+000  +3.7028746909E-003 -1.1439546494E-001  +4.7176949204E-003 -5.4715325786E+000  +6.7770679682E-001 +9.9001866457E-001 
12022937.422 +6.8595214913E-001 +3.6352099212E+000  +4.3131828752E-003 -2.5246751010E+001  +5.8425125990E-003 +2.9873144596E+001  +6.9276509577E-001 +2.1091002667E+000 
12148082.603 +6.7882663457E-001 +3.7080540950E+000  +5.0193053553E-003 -2.7480133805E+000  +2.9874801885E-003 +2.1446834294E+001  +7.0177191732E-001 +7.6229840494E-001 
12273227.785 +7.0578822083E-001 +2.5177159279E+000  +4.8295090319E-003 +1.3437763925E+001  +3.3101518333E-003 +7.8515683350E-001  +7.0846928480E-001 +1.7327755047E+000 
12398372.966 +7.4086156387E-001 +3.0810950930E+000  +3.3418678290E-003 +2.4005137957E+001  +5.3597460098E-003 +1.6405431316E+001  +7.1094518524E-001 -8.4232436792E-001 
12523518.148 +7.1454322654E-001 +1.8661420372E+000  +5.3092294328E-003 -2.6191342647E+000  +4.4279021676E-003 +5.7611455309E+001  +7.3570204306E-001 -4.1263144474E-001 
12648663.329 +7.4059869823E-001 +3.2306278483E+000  +5.0759394490E-003 +3.5272172164E+000  +1.5306668097E-003 -1.4969197959E+001  +7.5730288397E-001 +5.0630494746E-001 
12773808.511 +7.4724070435E-001 +2.1948943332E+000  +3.7491494027E-003 +3.3523979658E+001  +4.6429699709E-003 +5.5194484005E+000  +7.5020813641E-001 -1.1701858132E+000 
12898953.692 +7.9228544360E-001 +1.4871117223E+000  +4.1443653610E-003 -2.4422972602E+001  +5.1086622460E-003 -4.1388995071E+000  +7.8610703190E-001 -9.3457690879E-001 
13024098.874 +7.8858851701E-001 +1.8354375024E-001  +4.4333952448E-003 +1.8131522742E+001  +6.0557899789E-003 -1.2378041827E+001  +8.0534250407E-001 -1.2254202823E+000 
13149244.055 +7.7921876002E-001 +2.2941693803E+000  +4.3910844572E-003 -1.4532440417E+001  +3.4880247655E-003 +6.6253411050E+000  +8.3020528945E-001 -2.4439763888E+000 
13274389.237 +7.9715031403E-001 -5.0086494333E-001  +5.6977967565E-003 +1.7691770350E+001  +4.8362097223E-003 -1.2042255448E+001  +8.4342533862E-001 -2.9809499577E+000 
13399534.418 +8.2039177336E-001 -2.9536732133E+000  +5.1712076338E-003 +8.7110949951E+000  +5.7495990394E-003 +6.8462791172E+000  +8.7726051463E-001 -3.1132080678E+000 
13524679.599 +8.5370746512E-001 -2.3364920960E+000  +5.5937701922E-003 +5.3246675747E+000  +5.6242938332E-003 -5.3271072650E-001  +8.6314049960E-001 -2.0639518811E+000 
13649824.781 +8.8343685715E-001 -1.9725689467E+000  +5.0104828015E-003 +7.3933479274E+000  +3.2543502428E-003 +1.6211055529E+001  +8.9121125095E-001 -3.9588206956E+000 
13774969.962 +8.8690323479E-001 -2.7472217164E+000  +4.7474816188E-003 +1.3722724847E+001  +6.0186961942E-003 +1.3195701598E+001  +8.9264259618E-001 -3.1798168562E+000 
13900115.144 +9.1143272617E-001 -2.4570050019E+000  +6.1167273927E-003 -9.2863695589E+000  +3.2366493830E-003 +2.5863888777E+001  +9.2371869075E-001 -3.5643403044E+000 
14025260.325 +9.2573474425E-001 -3.6443426209E+000  +4.2812161002E-003 -1.3433339467E+001  +3.8510795495E-003 -1.0316261893E+001  +9.4724055247E-001 -3.9228205497E+000 
14150405.507 +9.3846255894E-001 -4.5517946796E+000  +5.4035519885E-003 +1.4206684383E+001  +3.9452366338E-003 +2.1784067821E+001  +9.5540756563E-001 -3.8605012452E+000 
14275550.688 +9.5911019605E-001 -4.4839572856E+000  +3.7579265367E-003 +3.5802509108E+000  +3.8755754599E-003 +9.2164755285E+000  +9.6059421323E-001 -4.1772915070E+000 
14400695.870 +9.6208322571E-001 -4.7768271507E+000  +3.8518268390E-003 -4.9895859822E-001  +3.4202147697E-003 +1.6405174700E+001  +1.0119906637E+000 -4.8245527232E+000 
