!  2-Port S-parameters saved by WinCal
! VAR MeasName=S-Parameters (CALIBRATED_DATA) read from VNA (P5004A)
! VAR MeasDate=29/08/2024 15:40:29
! VAR NAME=f39_RESET4_9k-100M_3
! VAR FILENAME=f39_RESET4_9k-100M_3.S2P
! VAR DATE=29/08/2024 15:40:29
! VAR PHYS_PORTS=1,2
! VAR ObjTypeName=DATASET
! VAR IndexType=Frequency
!
# Hz S MA R 50
9000.000 +7.8342517847E-002 -1.6527394018E+002  +5.1431901337E-003 +3.5546364547E+001  +9.2537260262E-003 -1.7204007899E+002  +2.3197088524E-001 -1.3818612834E+002 
134145.181 +1.1008224311E-001 +1.6952919281E+002  +5.9060917182E-004 -1.1162496403E+001  +7.3099184345E-004 +1.1514269356E+002  +2.3891101215E-001 -1.7068542290E+002 
259290.363 +1.1160786186E-001 +1.6951024139E+002  +1.2221846875E-003 -5.1135013817E+001  +7.9130703788E-005 -8.8981840676E+001  +2.4863158513E-001 -1.6925036096E+002 
384435.544 +1.1294532463E-001 +1.7004995487E+002  +7.7817969819E-004 +5.1765883069E+001  +1.3565419394E-003 +1.7905839534E+002  +2.3790590621E-001 -1.6783071736E+002 
509580.726 +1.1224046656E-001 +1.7044499883E+002  +1.3604508449E-003 -1.1969367330E+001  +1.0900558977E-003 -7.9960851377E+001  +2.4704993064E-001 -1.6404291578E+002 
634725.907 +1.1937986880E-001 +1.7173152923E+002  +8.3816259963E-004 -1.7833893829E+002  +5.1104245478E-004 +6.1286477922E+001  +2.6244933647E-001 -1.6707615497E+002 
759871.089 +1.2072305019E-001 +1.7161858001E+002  +8.2179405561E-004 +1.7164694606E+002  +1.2328554184E-003 +1.6081685382E+002  +2.5236224685E-001 -1.6686549926E+002 
885016.270 +1.2178674846E-001 +1.6944736285E+002  +1.1396499750E-004 -1.4920099718E+002  +2.4170864189E-004 -7.4653205650E+000  +2.4908665114E-001 -1.6578770861E+002 
1010161.452 +1.1677870878E-001 +1.7061023216E+002  +1.1621910208E-003 -1.2808322019E+002  +6.6517678672E-004 -1.3750231929E+002  +2.1364120476E-001 -1.7005580161E+002 
1135306.633 +1.1213215075E-001 +1.6969450061E+002  +2.3904063116E-003 +1.4547478180E+002  +4.4850594013E-003 +1.1857714523E+002  +1.6732210146E-001 -1.4888497269E+002 
1260451.815 +1.2148315124E-001 +1.6934236682E+002  +5.1823311833E-004 +1.6014855623E+002  +3.5187933757E-003 +3.2864165422E+000  +2.1401672699E-001 -1.5759846207E+002 
1385596.996 +1.2308976577E-001 +1.7317937950E+002  +6.4941921775E-004 +8.0570437657E+001  +1.4952005935E-003 +7.6992689636E+001  +2.9022244670E-001 -1.5480083660E+002 
1510742.178 +1.2808546181E-001 +1.7179286707E+002  +4.3047991304E-004 +1.0816009619E+002  +9.9086912330E-004 -1.2087308848E+002  +2.4777035703E-001 -1.5896143841E+002 
1635887.359 +1.2874571656E-001 +1.6997215681E+002  +1.2550334479E-003 +2.5597312806E+001  +2.3522335310E-004 +3.6084165963E+001  +2.3721168692E-001 -1.5397238097E+002 
1761032.541 +1.3001737754E-001 +1.7014752530E+002  +4.9204364589E-004 -4.6347378657E+001  +4.5793641183E-004 -1.2352201111E+002  +2.3657659561E-001 -1.5991129842E+002 
1886177.722 +1.2967066317E-001 +1.6941940163E+002  +1.8198420292E-003 +3.5988935125E+001  +1.5190457877E-003 -1.7288721451E+002  +2.2154733074E-001 -1.6332370740E+002 
2011322.904 +1.3107362106E-001 +1.6558560262E+002  +1.0422754248E-003 +1.6220757023E+002  +8.1104786225E-004 +1.4301046522E+002  +1.9416159813E-001 -1.6564244410E+002 
2136468.085 +1.3123815483E-001 +1.6575921033E+002  +2.3756512116E-003 -1.1691676565E+002  +5.7531009535E-003 -1.0669914806E+002  +1.6185478497E-001 -1.7836563350E+002 
2261613.267 +1.3658301508E-001 +1.6394972318E+002  +2.3396308568E-003 -9.0923413910E+001  +1.1483896044E-003 +2.4007379390E+001  +1.2354175398E-001 -1.6056778326E+002 
2386758.448 +1.2587964681E-001 +1.5953026205E+002  +4.1924221415E-003 +1.7715791626E+002  +1.7757450059E-003 +8.7725209891E+001  +1.6854818297E-001 -1.7014466089E+002 
2511903.630 +1.3390312563E-001 +1.6238299224E+002  +3.1417126498E-003 -9.9365537636E+001  +8.2326885521E-004 -1.4300968661E+002  +1.7419727221E-001 -1.6603105671E+002 
2637048.811 +1.2038705985E-001 +1.6736764722E+002  +4.5472018311E-003 -1.4160124030E+001  +6.9973442512E-003 -6.8448703410E+001  +1.6573933827E-001 +1.6502862682E+002 
2762193.992 +1.1847917922E-001 +1.6789668059E+002  +1.0352752670E-002 +8.9649046333E+001  +1.6835761689E-002 -7.4038877244E+001  +2.2918149702E-002 +1.4753826978E+001 
2887339.174 +1.3303449540E-001 +1.7941154559E+002  +4.6540992082E-003 -7.5625883157E+001  +9.1912094522E-003 +1.5320835860E+002  +2.5398855650E-001 -1.0206260066E+002 
3012484.355 +1.3133329861E-001 +1.6808356545E+002  +1.3393522714E-003 +5.9707964081E+001  +7.3459347959E-003 -1.5584153882E+002  +1.5025620129E-001 -1.3042960641E+002 
3137629.537 +1.2678778847E-001 +1.6197367972E+002  +9.3985398367E-003 +7.5853985151E+001  +2.5430567188E-003 +1.6332436643E+002  +3.5702316742E-001 -9.0637958325E+001 
3262774.718 +1.3426934235E-001 +1.6526249026E+002  +3.4333138207E-004 -1.7547210974E+002  +1.7998530703E-003 -1.0091933933E+002  +2.9932272869E-001 -1.0057275382E+002 
3387919.900 +1.1182975894E-001 +1.5574349147E+002  +4.5704600749E-002 -1.7801749611E+001  +2.9728150374E-003 -1.6156337174E+002  +9.9457620638E-001 +7.5712996612E+001 
3513065.081 +1.6702574069E-001 +1.3762332116E+002  +7.2232946181E-002 -6.2716943138E+001  +6.2337925321E-002 -5.9404702314E+001  +3.8399376448E+000 -1.6105796149E+002 
3638210.263 +1.6153622410E-001 +1.4607857495E+002  +3.1349916596E-003 -4.5858291890E+001  +6.4592301678E-003 +7.5110064425E+000  +4.0914621235E-001 +1.5300742473E+002 
3763355.444 +1.6249696862E-001 +1.4264177504E+002  +2.6487515554E-002 +9.6134371854E+001  +1.1444835244E-002 -5.0513871488E+001  +6.5772005082E-001 +9.7815573131E+001 
3888500.626 +2.1372419471E-001 +1.4195090143E+002  +2.6159047565E-003 -1.6881044763E+002  +2.4289697906E-002 -5.3124304424E+001  +4.5113231292E-001 +8.5769902842E+001 
4013645.807 +1.7814409317E-001 +1.4925906855E+002  +7.2077196180E-003 +6.8339244430E+001  +9.0537345118E-003 +2.8860799053E+001  +2.6363490445E-001 +1.3810752302E+002 
4138790.989 +1.7810599920E-001 +1.4917778542E+002  +2.0745625722E-002 -7.7067729729E+001  +7.7314544273E-003 -1.4964820224E+002  +5.4149501751E-001 +7.1257538984E+001 
4263936.170 +2.0898262219E-001 +1.4394778808E+002  +5.8207583834E-003 +7.3133349417E+001  +2.8295640814E-003 +9.2827880210E+001  +2.3512981573E-001 +1.3096245507E+002 
4389081.352 +2.0248976584E-001 +1.2798778299E+002  +1.1529734435E-002 -7.1308525360E+001  +1.4177027521E-002 +1.3457132512E+001  +9.4438778728E-001 +1.5648437653E+002 
4514226.533 +2.2220451124E-001 +1.3190790817E+002  +7.3357812518E-003 -2.0124595728E+001  +1.5682205866E-002 +7.3555180006E+001  +6.7154961868E-001 +9.6617794762E+001 
4639371.715 +2.8150824823E-001 +1.2468229025E+002  +1.1315652478E-002 +9.4089143535E+001  +3.6840009918E-002 +3.5808634150E+001  +1.6464624653E+000 +7.2098516032E+001 
4764516.896 +4.0562318997E-001 +1.3200938423E+002  +3.8696818262E-002 -1.0066562599E+002  +5.0209217264E-002 +1.6294500144E+002  +2.9318820066E+000 +9.3370111865E+001 
4889662.078 +5.1268976171E-001 +1.3187292654E+002  +5.0903295852E-002 -2.5076878105E+000  +1.0147715416E-002 +1.6823804082E+002  +2.9115767126E+000 -8.8178920916E+001 
5014807.259 +4.5024592386E-001 +1.2555219156E+002  +5.8527388341E-002 -7.0902005053E+001  +5.7046305328E-002 -1.4280973224E+002  +4.3588885719E+000 -1.7085744381E+002 
5139952.441 +4.0027245922E-001 +1.1952579207E+002  +7.0652472282E-002 +1.7181967084E+002  +4.5445454688E-002 -5.0761384414E+001  +5.0627278250E+000 +1.2926958822E+002 
5265097.622 +4.3664882733E-001 +1.3162346802E+002  +1.1797380259E-002 -1.7937626433E+002  +2.1602577599E-002 +2.8942318196E+001  +1.8999013991E+000 +9.4208898900E+001 
5390242.804 +3.6491718293E-001 +1.3013723116E+002  +3.1474933336E-003 +3.3813777104E+001  +9.6619752426E-003 -3.6523116474E+001  +1.0228845928E+000 +8.1358831496E+001 
5515387.985 +4.2264973506E-001 +1.3141011592E+002  +7.6828175725E-003 +1.2902920760E+002  +1.6717441351E-002 +6.3694273048E+001  +1.7620315885E+000 +1.2015444267E+002 
5640533.166 +4.6850428436E-001 +1.2166681531E+002  +1.5222208245E-002 +6.4977501959E+001  +1.3361561482E-002 -4.3311727963E+001  +3.4186500220E+000 +8.9318781147E+001 
5765678.348 +5.4531677893E-001 +1.0831342369E+002  +1.4802389394E-002 -4.6920285621E+001  +4.4937678368E-003 -3.6554784773E+001  +2.7015254536E+000 +9.4222537666E+001 
5890823.529 +6.8734004200E-001 +1.2894546038E+002  +3.8321355227E-002 +4.9193428667E+000  +1.8754841718E-002 -3.3707690725E+001  +1.3523355292E+000 +4.4282942062E+001 
6015968.711 +5.9166527882E-001 +1.0124743581E+002  +5.3302985356E-002 +1.3580438981E+002  +2.9243248001E-002 -1.0332862870E+002  +2.1475744095E+000 +5.6217429433E+001 
6141113.892 +6.3633576187E-001 +1.1183598949E+002  +2.1648096981E-002 +1.1583297633E+002  +1.1820854956E-002 +8.7765128415E+001  +2.3397439527E+000 +3.4568946712E+001 
6266259.074 +9.5008381623E-001 +1.1390782331E+002  +1.5696326935E-002 -6.2093624968E+001  +1.3475868278E-002 +1.2961837817E+002  +1.8296934632E+000 +1.0493008690E+001 
6391404.255 +1.1872433975E+000 +8.5045804696E+001  +2.8321719149E-002 -2.7338058186E+001  +5.4391929566E-003 +4.6057724095E+001  +1.0282101384E+000 +9.9154420995E+000 
6516549.437 +1.1189456433E+000 +8.9349804686E+001  +3.0963130881E-002 +3.9528494478E+001  +9.5795586762E-003 +1.2940139993E+002  +1.6894491157E+000 +1.0769558692E+001 
6641694.618 +1.2925101850E+000 +7.5759155049E+001  +3.3061562012E-003 -1.0343215516E+001  +1.5238338365E-002 +1.1038866066E+002  +1.5100226138E+000 -4.5218361376E+000 
6766839.800 +1.6163859934E+000 +3.7559143120E+001  +5.7180211172E-002 -8.8085401775E+000  +2.5528540773E-002 +3.3660325103E+001  +1.2809532569E+000 -1.1825293251E+001 
6891984.981 +1.6024388826E+000 +3.3141375476E+001  +6.1736414122E-003 +3.2244891078E+001  +2.9496891716E-003 -1.6887843972E+002  +1.3010271711E+000 -2.7705436664E+000 
7017130.163 +2.0457983984E+000 +1.4754627731E+001  +1.3305482057E-002 +3.6878813659E+001  +4.6704470662E-003 +6.0750528498E+001  +1.2750502983E+000 -7.6612969787E+000 
7142275.344 +1.4461008800E+000 +1.3647158038E-001  +1.8567573641E-002 +1.8232839794E+001  +1.8803017077E-002 -2.4348219543E+001  +1.4769425467E+000 -1.2995727030E+001 
7267420.526 +1.2943849626E+000 +8.3064890190E-001  +6.7883178821E-003 +3.0841930265E+001  +6.5285489298E-003 -1.0614175446E+001  +1.2978127313E+000 -3.9654826187E+000 
7392565.707 +1.3269372656E+000 -2.3100142778E+000  +9.0379941002E-003 +3.0021336489E+001  +1.1726258014E-002 -2.2726632323E+001  +1.3398996610E+000 -4.1911530888E+000 
7517710.889 +1.0962312368E+000 -6.4264855384E+000  +6.1186506520E-003 +2.0126766097E+001  +1.2917949764E-002 +4.3558137901E+001  +1.1149031262E+000 +1.5900718207E+000 
7642856.070 +1.0526558835E+000 +1.8701755259E+000  +8.7769020291E-003 +2.2259343904E+001  +3.4809691066E-003 +5.3579886544E+001  +1.0776351553E+000 -5.6161013209E+000 
7768001.252 +8.3337430046E-001 +2.7325317955E+000  +8.5782429874E-003 -2.0474360193E+000  +8.1179862868E-004 +4.2409893402E+001  +1.0530496204E+000 -3.5685989798E+000 
7893146.433 +8.0748091348E-001 +2.8731650241E+000  +1.3033799707E-002 -1.3844365505E+001  +7.1565354737E-003 +2.5135068991E+000  +9.3622059313E-001 -2.5322695017E+000 
8018291.615 +7.8860904643E-001 +9.0614655671E+000  +1.0259819760E-002 +2.2827685533E+001  +3.6204165171E-003 +3.7881038909E+001  +8.8530996848E-001 -6.5939229509E+000 
8143436.796 +7.4259811682E-001 +7.5841205542E+000  +7.8554273105E-003 +2.8184276678E+001  +9.6420510053E-003 -6.2164749691E+000  +7.6556314621E-001 -4.7975865881E-001 
8268581.977 +6.8673405246E-001 +1.3330559928E+001  +4.0122907806E-003 -7.4303805427E+001  +4.5534957455E-003 +2.7958467742E+000  +7.8520646831E-001 +1.8184813165E+000 
8393727.159 +7.4576952479E-001 +8.4627287638E+000  +5.5785157299E-003 +2.4121632543E+001  +4.6005141933E-003 -2.6960600197E+001  +7.7428469778E-001 -1.4503703374E-001 
8518872.340 +6.9224939048E-001 +1.4110619638E+001  +5.3608744840E-003 +3.1751907617E+001  +5.1265160034E-003 -6.0901071248E+001  +7.3300911485E-001 -4.0544179395E+000 
8644017.522 +6.4102477086E-001 +7.5634005341E+000  +7.8816829276E-003 +1.2440420612E+001  +5.2433954496E-003 -5.1568654424E+000  +6.9290262164E-001 +3.1759708229E+000 
8769162.703 +5.4655933090E-001 +3.0942861707E+000  +7.9320734103E-003 +1.8065279126E+001  +5.9446763398E-003 +2.0216218974E+001  +6.7883942053E-001 +4.5344922605E+000 
8894307.885 +5.7940689368E-001 +1.5771654604E+000  +8.9597872936E-003 +3.1657970541E+001  +5.3043568125E-003 -2.8140343517E+001  +6.6230845111E-001 -3.0405890446E+000 
9019453.066 +5.4739821685E-001 +7.6276042450E+000  +4.4351079761E-003 -7.0934149843E+000  +3.5684279049E-003 +6.6261521286E+001  +5.9692158038E-001 +3.5311519229E+000 
9144598.248 +5.8085277335E-001 +9.0657289832E+000  +3.6654269222E-003 -4.8056951083E-001  +6.7277745961E-003 -7.4942591982E+000  +5.5344335542E-001 +2.0202069858E-001 
9269743.429 +6.0850620110E-001 +6.2630234954E+000  +5.2959558573E-003 +1.7077429658E+001  +4.2329594509E-003 +1.0818194143E-001  +6.2487079111E-001 +1.7208713375E+000 
9394888.611 +5.8765111772E-001 +6.0002379983E+000  +4.9165608894E-003 -8.8941599687E+000  +5.2974501126E-003 -3.6493277479E+000  +5.7445776866E-001 +1.2136442104E+000 
9520033.792 +5.1462828039E-001 +2.2647074579E+000  +6.1843753264E-003 -5.5381509221E+000  +3.7266533470E-003 +1.2927399830E+001  +5.3734100036E-001 -1.5032627524E-001 
9645178.974 +5.4073290323E-001 +2.4467008671E-001  +6.5189948781E-003 -2.5434610383E+001  +6.0142611122E-003 +9.5168567815E+000  +5.6322054292E-001 -6.3985350933E+000 
9770324.155 +5.5916054956E-001 +5.7067187596E-001  +8.5106849512E-003 +1.3990497273E+001  +5.8037440245E-003 -1.4542320139E+001  +6.0459711267E-001 -7.5302181301E+000 
9895469.337 +5.2754702101E-001 +4.9604383891E+000  +3.8231242165E-003 +1.0306821886E+001  +2.7591723533E-003 -5.5861138398E+001  +5.5736856185E-001 -7.0680533715E+000 
10020614.518 +5.1025526573E-001 +2.5490724394E+000  +6.4337280378E-003 -1.0981786596E+000  +5.8383450351E-003 +4.3634428547E+001  +5.9252403048E-001 -5.3063782011E+000 
10145759.700 +5.5775964335E-001 +4.1404568007E+000  +2.9222447349E-003 +2.5781773816E+001  +5.5076295340E-003 -6.2337124903E+000  +5.5801042885E-001 -2.6001500249E+000 
10270904.881 +5.5786576321E-001 +3.6354960071E-001  +5.6235621058E-003 -1.1868697168E+001  +2.2215473412E-003 +6.1366116485E+000  +6.1542060664E-001 -1.5435285785E+000 
10396050.063 +5.8073625890E-001 +4.2073995895E+000  +5.6293820410E-003 +1.7209401519E+001  +2.3081808128E-003 +5.5374871420E+001  +5.7127553659E-001 -6.5593724372E-001 
10521195.244 +5.4359430455E-001 +6.2845222469E+000  +6.7201104187E-003 +8.1096415993E+000  +3.0209282340E-003 +4.1397796909E+001  +5.9081960503E-001 -1.0233869600E+000 
10646340.426 +5.5475787596E-001 +9.4905510877E+000  +3.1826526018E-003 +2.9583383232E+000  +5.8285421015E-003 +1.9564987810E+001  +5.7387623496E-001 +1.2939107800E-001 
10771485.607 +5.6267564454E-001 +3.8833771260E+000  +1.9369401065E-003 +1.1859807093E+001  +5.9128526412E-003 +4.5673449256E+001  +5.9703853300E-001 -3.6967116356E+000 
10896630.788 +5.8380850441E-001 +1.1669366868E+001  +2.6986016207E-003 +1.3750097089E+001  +3.6356865532E-003 +4.5365270414E+001  +6.2569228689E-001 +5.6677114441E+000 
11021775.970 +5.9355863672E-001 +9.5262101182E+000  +5.5713632456E-003 +2.8025087836E+000  +5.9196937417E-003 +2.1377783643E+001  +6.3637007700E-001 +2.6761953866E+000 
11146921.151 +5.7363025089E-001 +8.5650111898E+000  +6.6030338426E-003 -9.0515903671E+000  +3.7269520874E-003 +5.6568656347E+001  +6.0984386310E-001 +9.6136316883E-001 
11272066.333 +5.9422526494E-001 +6.0462246343E+000  +6.0454506788E-003 +2.5916092536E+000  +4.3968546730E-003 +3.4951291999E+001  +6.1806771924E-001 +4.1164863901E-001 
11397211.514 +6.3896968049E-001 +6.2480116843E+000  +5.6360256629E-003 +1.2664958572E+001  +5.1176295659E-003 +1.7051421089E+001  +6.2549241248E-001 +2.2967192427E-001 
11522356.696 +6.3668687350E-001 +7.7661419846E+000  +5.5150518671E-003 +5.3798061245E+000  +3.1763302293E-003 +1.3258042943E+001  +6.2630156687E-001 +3.6362326862E+000 
11647501.877 +6.0711131167E-001 +4.6632833095E+000  +4.1719515928E-003 -4.4255048026E+000  +5.8857082251E-003 +1.8889236656E+001  +6.4086869064E-001 +1.7377147492E-001 
11772647.059 +6.5017822166E-001 +5.6303880094E+000  +6.5008671956E-003 +9.5621153622E+000  +4.7395674116E-003 +3.1268091919E+001  +6.7208314284E-001 -1.7682042768E+000 
11897792.240 +6.7410144255E-001 +5.4474529627E+000  +6.5993021117E-003 -1.9625543898E+001  +5.0922421243E-003 +2.2320979320E+001  +6.5137384477E-001 +2.6785429096E+000 
12022937.422 +6.6948051372E-001 +7.6230287849E+000  +5.2350396818E-003 +7.4752769509E+000  +5.3956992120E-003 +2.2910560906E+001  +6.8504169657E-001 -4.2656317344E-001 
12148082.603 +6.5790069755E-001 +7.3122886171E+000  +3.5832211445E-003 +4.9280070647E+000  +6.3587835153E-003 +1.4000387930E+001  +7.1699512255E-001 +1.7644803276E-001 
12273227.785 +6.8920244042E-001 +4.8121536649E+000  +3.9770641140E-003 +1.9141031370E+001  +6.7564413508E-003 +1.4859281967E+001  +7.0362272787E-001 +3.5256197849E-001 
12398372.966 +7.4445433255E-001 +4.5137795372E+000  +6.2813535149E-003 +5.4674108774E+000  +4.7175997089E-003 +1.2571572404E+001  +7.2786153245E-001 -1.6592420076E+000 
12523518.148 +7.1630820835E-001 +1.7367403513E+000  +3.0027486046E-003 +2.6791805166E+000  +5.5840186791E-003 +1.4577700758E+001  +7.2424988278E-001 +1.2078165708E+000 
12648663.329 +7.5811237792E-001 +2.7243160485E+000  +5.1780125442E-003 +8.7067684878E+000  +5.7267397993E-003 +4.3779527294E+001  +7.6503800192E-001 -7.4349409678E-002 
12773808.511 +7.4377829283E-001 +3.8424155550E+000  +5.9089279499E-003 -4.1455878912E-001  +4.9542613751E-003 +2.2006642194E+001  +7.5044162105E-001 -1.4985708549E+000 
12898953.692 +7.7377497225E-001 +3.1230214279E-001  +6.9005825298E-003 +1.5520024083E+001  +4.9685099920E-003 +3.0812489279E+001  +7.9043289644E-001 -2.8157265558E+000 
13024098.874 +7.7121497330E-001 +1.0109874030E+000  +6.1616725139E-003 +2.9661227373E+000  +4.9218916271E-003 +2.2630170243E+001  +7.8779036670E-001 -4.9243399988E-001 
13149244.055 +8.0722300278E-001 -1.4717249826E-001  +5.2827855014E-003 +4.1881943089E+000  +3.6692568384E-003 +2.2368308939E+001  +8.1529071930E-001 -1.5169124072E+000 
13274389.237 +8.0514746819E-001 -6.7015467701E-001  +5.4550571160E-003 +3.6269111619E+000  +6.4611016217E-003 +1.0537843970E+001  +8.3837712156E-001 -4.3051262618E-001 
13399534.418 +8.4859096415E-001 -7.4083732731E-002  +5.9084181328E-003 -5.4838741283E+000  +5.4233946588E-003 -8.6601548076E+000  +8.4007999882E-001 -8.1177830885E-001 
13524679.599 +8.7491413465E-001 -1.0720590971E+000  +6.2983851595E-003 +1.9531743188E+001  +5.0997591843E-003 +1.7657164546E+001  +8.7364462214E-001 -2.5504831410E+000 
13649824.781 +8.6609132906E-001 -1.2692669152E+000  +7.1151777223E-003 +1.8049318793E+001  +5.2438953316E-003 +1.4405682677E+001  +8.9176755051E-001 -3.1259787128E+000 
13774969.962 +8.8447603142E-001 -3.1406459188E+000  +6.0001383681E-003 +4.8215702874E+000  +7.0997825385E-003 +1.1567258968E+001  +8.9827575762E-001 -5.3315241867E+000 
13900115.144 +8.9338591406E-001 -3.3208340249E+000  +5.1730998243E-003 -3.6380688520E+000  +6.7587727486E-003 -2.0863852424E+000  +9.2506704292E-001 -2.6000639309E+000 
14025260.325 +9.2934120816E-001 -3.3130095441E+000  +6.2336299840E-003 -4.5323412669E+000  +7.3335806066E-003 +1.3325332554E+001  +9.5291204450E-001 -4.1128349392E+000 
14150405.507 +9.4416464244E-001 -3.7679044338E+000  +4.9192029806E-003 -3.0359007803E+000  +6.3213498595E-003 -4.2613641938E-001  +9.5707371968E-001 -5.4877801249E+000 
14275550.688 +9.4861318108E-001 -5.3176430490E+000  +6.4111749310E-003 +6.6836994232E+000  +7.2942988925E-003 -1.5260158813E+000  +9.5841137094E-001 -4.5472993006E+000 
14400695.870 +9.7092660371E-001 -5.3210939548E+000  +4.7685504836E-003 +1.0852867408E+001  +6.0914610155E-003 +1.4284404763E+001  +9.8530366419E-001 -4.1445935803E+000 
