!  2-Port S-parameters saved by WinCal
! VAR MeasName=S-Parameters (CALIBRATED_DATA) read from VNA (P5004A)
! VAR MeasDate=29/08/2024 15:20:56
! VAR NAME=f39_RESET1_9k-100M_3
! VAR FILENAME=f39_RESET1_9k-100M_3.S2P
! VAR DATE=29/08/2024 15:20:56
! VAR PHYS_PORTS=1,2
! VAR ObjTypeName=DATASET
! VAR IndexType=Frequency
!
# Hz S MA R 50
9000.000 +9.5021317967E-002 -1.6036263561E+002  +7.2921065786E-003 +7.1345947481E+001  +8.4539675423E-003 -3.8565959626E+001  +1.9699482538E-001 -1.4144326472E+002 
134145.181 +1.1116416255E-001 +1.6986031820E+002  +8.1342616876E-005 -1.1303927422E+002  +1.9884595501E-004 +5.0601417366E+001  +2.4041229787E-001 -1.7186938588E+002 
259290.363 +1.1231405223E-001 +1.6999385515E+002  +2.4770514711E-004 +2.7841008883E+001  +3.9213064056E-004 +2.9833484524E+001  +2.4230692333E-001 -1.6932901684E+002 
384435.544 +1.1370962500E-001 +1.6970603975E+002  +4.4676757078E-004 -6.9731143804E+001  +6.5441062372E-004 +8.0567607296E+001  +2.4682125616E-001 -1.6937032946E+002 
509580.726 +1.1233336243E-001 +1.7104597551E+002  +1.6431544677E-003 -7.7970714418E+001  +2.9296816616E-004 -1.4276351433E+002  +2.4221729266E-001 -1.6633835569E+002 
634725.907 +1.1700389819E-001 +1.7167364518E+002  +1.0107117754E-003 -7.8412464476E+001  +1.2363014436E-003 +5.7615748708E+001  +2.5123444476E-001 -1.6677625518E+002 
759871.089 +1.2059627133E-001 +1.7058431212E+002  +9.4015048403E-004 -7.3549750887E+001  +1.2285786754E-003 +1.2518560145E+002  +2.4563631872E-001 -1.6719157862E+002 
885016.270 +1.2130035769E-001 +1.6928836248E+002  +7.2162917734E-004 -4.2857943385E+001  +1.5193952234E-003 +1.5637716642E+002  +2.4579433609E-001 -1.6648807041E+002 
1010161.452 +1.1715100984E-001 +1.6980701539E+002  +2.8869861921E-003 +2.5340794836E+001  +2.7487864643E-003 -1.4975891195E+002  +2.2223303632E-001 -1.6920157689E+002 
1135306.633 +1.1675912691E-001 +1.6999181645E+002  +2.5862645950E-003 +1.5638938094E+001  +3.7287795878E-003 -1.3091306874E+002  +2.0699567774E-001 -1.6964556580E+002 
1260451.815 +1.2308437705E-001 +1.7000399700E+002  +3.9142459527E-003 -5.5268973836E+001  +4.7095133112E-003 +1.7102921458E+002  +2.4702560882E-001 -1.5742044170E+002 
1385596.996 +1.2563299391E-001 +1.7231334729E+002  +3.7883361098E-003 -4.6981725098E+001  +3.1144181302E-003 +1.6352115069E+002  +2.4917628242E-001 -1.5777165308E+002 
1510742.178 +1.3016624091E-001 +1.7162121585E+002  +2.7680585124E-003 -3.4634675360E+001  +4.8058309840E-003 +1.7267785954E+002  +2.7098226605E-001 -1.5673855031E+002 
1635887.359 +1.2638940260E-001 +1.7097253091E+002  +3.5460900839E-003 -1.8715963001E+000  +4.1801795655E-003 -1.4727589370E+002  +2.4416281644E-001 -1.6013857021E+002 
1761032.541 +1.3148256757E-001 +1.7029467451E+002  +3.4031171689E-003 +5.0018806783E+001  +4.3637336608E-003 -1.0598598013E+002  +2.3438475852E-001 -1.5987781202E+002 
1886177.722 +1.3310701137E-001 +1.6863274319E+002  +5.9389413806E-003 +6.4612129548E+001  +6.5834555378E-003 -7.5182895700E+001  +2.3094423670E-001 -1.6125113856E+002 
2011322.904 +1.2790121436E-001 +1.6748794389E+002  +1.0576154129E-002 +7.4639257475E+001  +1.1939491160E-002 -5.9161646396E+001  +2.2168499429E-001 -1.6008036790E+002 
2136468.085 +1.3167649516E-001 +1.6993901195E+002  +1.7872012291E-002 +6.5763647545E+001  +1.7256619915E-002 -5.9791915035E+001  +1.9529099030E-001 -1.6203343033E+002 
2261613.267 +1.3531933525E-001 +1.6650620118E+002  +1.9074339530E-002 +9.7924412156E+001  +2.0824077244E-002 -2.1251726553E+001  +2.1658919154E-001 -1.7528080393E+002 
2386758.448 +1.3817136600E-001 +1.6685531095E+002  +2.3568295201E-002 +8.1567559886E+001  +2.2964290051E-002 -4.1257415956E+001  +1.9829453960E-001 -1.6626123545E+002 
2511903.630 +1.3390653278E-001 +1.6630350772E+002  +3.2188985374E-002 +8.7428070074E+001  +3.4308824033E-002 -2.9121473965E+001  +2.0094045404E-001 -1.7595312361E+002 
2637048.811 +1.2091367819E-001 +1.7127354303E+002  +5.0051309976E-002 +5.8451908642E+001  +5.1937021944E-002 -5.7773005284E+001  +1.6938831126E-001 -1.6271903638E+002 
2762193.992 +1.7905494130E-001 -1.7163384429E+002  +1.1742810312E-001 -4.5234380643E+001  +1.1323653410E-001 -1.5250067444E+002  +3.3202034505E-001 -1.1742387086E+002 
2887339.174 +1.5741020891E-001 -1.7815568530E+002  +5.5969882613E-002 -2.9000162882E+001  +6.2667529110E-002 -1.3348705026E+002  +2.7055674102E-001 -1.2871265681E+002 
3012484.355 +1.3280972093E-001 -1.7693043023E+002  +7.5945309154E-002 +7.1941838231E+000  +7.6924979051E-002 -9.1425633162E+001  +1.9111259596E-001 -1.2799293983E+002 
3137629.537 +1.4529183969E-001 +1.7875540279E+002  +6.3236539163E-002 -2.6396338584E+000  +5.9831561615E-002 -1.0109873319E+002  +2.5236597711E-001 -1.2805030304E+002 
3262774.718 +1.4143941693E-001 -1.7966983257E+002  +8.2981883327E-002 +5.5028632946E+000  +8.5958177706E-002 -8.3993313649E+001  +1.9763225029E-001 -1.1379443745E+002 
3387919.900 +9.6959104838E-002 +1.6606266378E+002  +1.6357845898E-001 +4.9120688677E+001  +1.6743108517E-001 -3.8309621614E+001  +1.1335166448E-001 +2.7061773787E+001 
3513065.081 +1.0544994857E-001 +1.5561917685E+002  +1.4502791792E-001 +7.0461308217E+001  +1.4688535237E-001 -1.4627057286E+001  +1.6927858795E-001 +1.2568405030E+002 
3638210.263 +1.4915800159E-001 +1.5269095162E+002  +1.0727707070E-001 +9.0371521272E+001  +1.0109329179E-001 +7.5927774014E+000  +2.3715079040E-001 +1.5374596249E+002 
3763355.444 +1.3997242572E-001 +1.4310261336E+002  +1.5769214725E-001 +8.4435754384E+001  +1.5698598232E-001 +7.4186985410E+000  +2.2868161727E-001 +1.2810631840E+002 
3888500.626 +1.6711952620E-001 +1.6124054158E+002  +9.1401793879E-002 +7.1295157530E+001  +8.5688362252E-002 -3.3685843901E+000  +1.7522945800E-001 +1.5787139703E+002 
4013645.807 +1.8940742056E-001 +1.5296364510E+002  +1.1846606929E-001 +1.1540684571E+002  +1.1446965897E-001 +4.5780262617E+001  +4.5226717020E-001 +1.5431366676E+002 
4138790.989 +1.5535557981E-001 +1.5057115685E+002  +2.0535581477E-001 +7.0031292304E+001  +2.0067642985E-001 +1.1309032980E+000  +3.2014280300E-001 +7.6463519396E+001 
4263936.170 +1.7442253046E-001 +1.5179679503E+002  +1.5054591620E-001 +8.3954687797E+001  +1.4091325904E-001 +1.8752770279E+001  +3.0831141552E-001 +1.3721279285E+002 
4389081.352 +1.3331074208E-001 +1.4365369906E+002  +2.3833124482E-001 +5.3736000678E+001  +2.2721839747E-001 -6.1005452135E+000  +1.9877314511E-001 +5.5086468990E+001 
4514226.533 +2.7509208542E-001 +1.3994541116E+002  +3.0017379500E-001 +1.2232664089E+002  +2.9619925386E-001 +6.5972256201E+001  +8.6457185808E-001 +1.2717644839E+002 
4639371.715 +1.9199286287E-001 +1.3813261306E+002  +2.1614740944E-001 +8.3000713107E+001  +2.1448822292E-001 +2.7977018213E+001  +3.7019421258E-001 +1.2653096668E+002 
4764516.896 +2.7494986959E-001 +1.2523772359E+002  +4.1509687807E-001 +1.0494480170E+002  +4.1160733085E-001 +5.5320576929E+001  +9.9641226463E-001 +1.1683211689E+002 
4889662.078 +8.9224353640E-001 +5.8566873755E+001  +1.9738149788E+000 +8.6107973937E+001  +1.8867866686E+000 +3.6715667600E+001  +3.6429313243E+000 +8.2352663273E+001 
5014807.259 +4.3248855509E-001 +9.5738695176E+001  +7.8648528781E-001 +8.8615781737E+001  +7.8380369892E-001 +4.2988315880E+001  +1.3659487878E+000 +8.3169163036E+001 
5139952.441 +3.3345001018E-001 +1.3198823296E+002  +3.4199422269E-001 +1.1338345638E+002  +3.3323573191E-001 +7.1501763355E+001  +8.5705958879E-001 +1.3774023956E+002 
5265097.622 +4.2770239016E-001 +1.1640200070E+002  +6.0794707696E-001 +1.1299654943E+002  +5.8970172957E-001 +7.4243916925E+001  +1.3426183042E+000 +1.2797615197E+002 
5390242.804 +3.5788177177E-001 +1.2805840758E+002  +4.1584766588E-001 +1.0980249858E+002  +4.0875547203E-001 +7.3847361499E+001  +1.0897576412E+000 +1.3636442060E+002 
5515387.985 +3.9451060017E-001 +1.2922394870E+002  +3.7495228863E-001 +1.0426521038E+002  +3.6419533540E-001 +7.0806125435E+001  +8.4091702552E-001 +1.3445048021E+002 
5640533.166 +3.3428239639E-001 +1.3527442776E+002  +3.3585333520E-001 +8.6043951396E+001  +3.2674435050E-001 +5.2654391856E+001  +7.5873890567E-001 +1.2244670588E+002 
5765678.348 +4.0348423849E-001 +1.3087804855E+002  +3.6242217071E-001 +1.0290224199E+002  +3.6124831402E-001 +7.4521855968E+001  +9.9837473591E-001 +1.4186852751E+002 
5890823.529 +3.9758960326E-001 +1.2898634475E+002  +3.7696513357E-001 +8.7029299319E+001  +3.6979737379E-001 +6.1389776739E+001  +8.6629585077E-001 +1.3078540260E+002 
6015968.711 +3.7757173042E-001 +1.0957802583E+002  +5.7947832758E-001 +7.3612859007E+001  +5.6213738610E-001 +4.9738318663E+001  +1.1073529986E+000 +1.0942512664E+002 
6141113.892 +3.6042243619E-001 +1.2147723515E+002  +4.7170448037E-001 +6.5169358917E+001  +4.6623742337E-001 +4.5361092992E+001  +9.1641932067E-001 +1.1178935060E+002 
6266259.074 +4.2733197156E-001 +9.9739839917E+001  +7.3812489934E-001 +5.8314625637E+001  +7.1785354364E-001 +4.0315458948E+001  +1.2645054080E+000 +8.3141980396E+001 
6391404.255 +4.6830070228E-001 +9.6862753429E+001  +6.8335567020E-001 +5.8809078945E+001  +6.7722400092E-001 +4.2854158687E+001  +1.0691637861E+000 +9.8516770711E+001 
6516549.437 +3.9894524247E-001 +8.6300684392E+001  +7.5220209487E-001 +4.1012254319E+001  +7.4251543339E-001 +2.8145459564E+001  +1.0153327168E+000 +7.3887602633E+001 
6641694.618 +5.7179624210E-001 +6.1250640068E+001  +9.3243702433E-001 +3.7450418375E+001  +9.5274883393E-001 +2.5548116378E+001  +1.0880740549E+000 +6.5510593392E+001 
6766839.800 +4.0024928571E-001 +6.3352273466E+001  +7.8773661471E-001 +2.3334353102E+001  +7.8189833173E-001 +1.3682919208E+001  +6.9103291201E-001 +5.1631748057E+001 
6891984.981 +4.1155183664E-001 +4.3584092041E+001  +8.3325098775E-001 +1.3189578637E+001  +8.4090716413E-001 +5.9991290153E+000  +6.6036461549E-001 +2.4476413780E+001 
7017130.163 +3.3484318137E-001 +3.0473101510E+001  +8.1413456211E-001 +6.0858865734E+000  +8.0408694769E-001 +1.0161166693E+000  +6.2464791410E-001 +1.1810377290E+001 
7142275.344 +3.2180408644E-001 +1.4943846240E+001  +7.9009632930E-001 +3.0209389181E+000  +7.8055536057E-001 -1.9009448658E+000  +4.6182788697E-001 +2.1938567962E+000 
7267420.526 +4.0604045162E-001 -1.5008278181E+001  +8.1626032043E-001 +2.5413275964E-001  +8.1311383818E-001 -2.0497215599E+000  +5.8341681773E-001 -5.9499337310E+000 
7392565.707 +4.3388354604E-001 +4.1759208783E+000  +7.6501083405E-001 +3.1347670519E+000  +7.5996258598E-001 +2.5392757388E+000  +4.0052320532E-001 +3.3349575164E-001 
7517710.889 +2.0356794040E-001 +2.3846757656E+001  +6.9877904185E-001 -1.6720584921E-001  +6.9564458519E-001 +2.1008254472E+000  +2.8603245725E-001 -1.2376157173E+001 
7642856.070 +2.0256487027E-001 +3.4991707365E+001  +6.6581899037E-001 -5.5656276339E-001  +6.6115322099E-001 +3.2181655621E+000  +2.6441342740E-001 +1.3482439379E+001 
7768001.252 +2.1510197440E-001 +3.9292518477E+001  +6.4732164946E-001 -2.0366049505E+000  +6.4588900878E-001 +3.2641641971E+000  +1.5507268668E-001 +9.0395938964E+000 
7893146.433 +1.8400916032E-001 +5.4320147152E+001  +6.1594244515E-001 -2.0191907943E+000  +6.1289719327E-001 +4.1591091900E+000  +2.4627615804E-001 +3.0039691668E+001 
8018291.615 +1.7073538095E-001 +6.7509554057E+001  +5.9697710355E-001 -2.8382144450E+000  +5.9649616840E-001 +4.7079278901E+000  +3.1295928265E-001 +4.8068279480E+001 
8143436.796 +1.7209808070E-001 +6.6849743925E+001  +5.8621958085E-001 -4.3721166629E+000  +5.8453570397E-001 +3.8672004122E+000  +1.7578983007E-001 +6.8211902752E+001 
8268581.977 +1.7013723479E-001 +7.4919085481E+001  +5.7322232304E-001 -4.7302393702E+000  +5.6987238617E-001 +5.7941397194E+000  +2.0817929930E-001 +6.3426203891E+001 
8393727.159 +1.3803697255E-001 +7.5259323533E+001  +5.7102869853E-001 -6.0554768481E+000  +5.7134377600E-001 +5.1996441637E+000  +1.4056077932E-001 +4.9977233101E+001 
8518872.340 +1.7771434185E-001 +8.5491125195E+001  +5.5520903145E-001 -6.1415689322E+000  +5.5647664165E-001 +5.5445216171E+000  +1.5768089600E-001 +6.9695929899E+001 
8644017.522 +1.5808121130E-001 +8.2540117355E+001  +5.5333428120E-001 -6.5911570890E+000  +5.5382895053E-001 +5.9513107376E+000  +1.4454500180E-001 +9.1672581679E+001 
8769162.703 +1.9805069603E-001 +8.3081638999E+001  +5.4401553754E-001 -5.6987383030E+000  +5.4441905933E-001 +7.5157428977E+000  +1.8614466265E-001 +6.0210231113E+001 
8894307.885 +1.1283594100E-001 +7.0533440286E+001  +5.4815597749E-001 -6.3575899761E+000  +5.4247093299E-001 +7.4612381975E+000  +2.0346916202E-001 +7.8022121575E+001 
9019453.066 +1.8317395419E-001 +9.1354528190E+001  +5.2854602526E-001 -6.8879603719E+000  +5.2820825481E-001 +6.6685170489E+000  +1.9276779956E-001 +8.6184600524E+001 
9144598.248 +1.2326936376E-001 +1.2348945661E+002  +5.4032564256E-001 -8.0709199804E+000  +5.3734527452E-001 +6.8630303636E+000  +1.3723253262E-001 +7.4146387539E+001 
9269743.429 +1.5444531099E-001 +8.9886403676E+001  +5.3333585869E-001 -7.3837434007E+000  +5.2977590441E-001 +8.0510098725E+000  +1.6729297435E-001 +9.2640879001E+001 
9394888.611 +1.5695792533E-001 +1.0609659414E+002  +5.3601066971E-001 -8.0685063144E+000  +5.3017402969E-001 +7.3866094958E+000  +9.9067343579E-002 +1.0155235433E+002 
9520033.792 +9.2684768937E-002 +9.7356310979E+001  +5.3386446485E-001 -8.0221642607E+000  +5.3172959637E-001 +8.0683462331E+000  +1.6315846884E-001 +9.5772357602E+001 
9645178.974 +9.8327552677E-002 +8.3920426458E+001  +5.3791456965E-001 -7.2125717670E+000  +5.3561358873E-001 +8.4646092410E+000  +1.4322858897E-001 +7.6642012731E+001 
9770324.155 +8.5136275822E-002 +9.9797805725E+001  +5.3958826028E-001 -7.9929788379E+000  +5.4005181835E-001 +8.1020956199E+000  +1.1582065488E-001 +9.9847530262E+001 
9895469.337 +1.0008463979E-001 +1.0006887194E+002  +5.3829627997E-001 -7.6082229474E+000  +5.3277427224E-001 +8.6323168313E+000  +1.5225361070E-001 +9.2218713742E+001 
10020614.518 +1.3715401368E-001 +1.1291120856E+002  +5.3953695137E-001 -7.4844405333E+000  +5.3406135061E-001 +8.3547514316E+000  +9.3831515892E-002 +7.5203392931E+001 
10145759.700 +1.7213598152E-001 +9.8767038393E+001  +5.3166729052E-001 -6.8777867662E+000  +5.3001217057E-001 +9.2375526696E+000  +1.4471141773E-001 +8.1275338384E+001 
10270904.881 +1.1167818826E-001 +1.0763068833E+002  +5.4332201934E-001 -7.2783620307E+000  +5.3871668771E-001 +8.3105140872E+000  +1.2434216096E-001 +9.4065026737E+001 
10396050.063 +1.6938836961E-001 +1.0015868163E+002  +5.4229500124E-001 -6.6283464505E+000  +5.3752079252E-001 +9.2252377470E+000  +1.0661975154E-001 +7.9489587280E+001 
10521195.244 +1.2608182221E-001 +1.0709454968E+002  +5.4384799782E-001 -6.9100007933E+000  +5.4033896877E-001 +8.5450434557E+000  +1.3610928951E-001 +9.0058729795E+001 
10646340.426 +1.1803215658E-001 +9.6705028168E+001  +5.4544245937E-001 -6.3691534126E+000  +5.4559179813E-001 +8.6915170457E+000  +1.4442342510E-001 +8.9489974333E+001 
10771485.607 +1.4553351623E-001 +1.0258075338E+002  +5.4870001877E-001 -6.3419095378E+000  +5.4483650372E-001 +8.2037730018E+000  +1.4947670248E-001 +9.0519730739E+001 
10896630.788 +1.4100790300E-001 +9.6468120741E+001  +5.5105909621E-001 -5.8628518612E+000  +5.4546462424E-001 +8.4658693404E+000  +1.5950624405E-001 +8.5662490834E+001 
11021775.970 +1.2652675849E-001 +8.6398941953E+001  +5.5855016298E-001 -5.1503666315E+000  +5.5613371976E-001 +8.7802663034E+000  +1.3640175959E-001 +7.7515327668E+001 
11146921.151 +1.2688738547E-001 +9.0707558195E+001  +5.6052013667E-001 -5.3438541143E+000  +5.5759049501E-001 +8.2233142494E+000  +1.3539194074E-001 +8.6819475546E+001 
11272066.333 +1.3151926209E-001 +8.5870745946E+001  +5.6185395930E-001 -4.9077315449E+000  +5.5738874592E-001 +7.9830725470E+000  +1.7018277841E-001 +8.5443288686E+001 
11397211.514 +1.4697889865E-001 +7.9073579059E+001  +5.6685847359E-001 -4.3027959718E+000  +5.6289524385E-001 +8.3616205832E+000  +1.4959421022E-001 +7.4931890405E+001 
11522356.696 +1.1258777957E-001 +8.3724187835E+001  +5.7417807024E-001 -4.2972694995E+000  +5.6990432934E-001 +7.7066934560E+000  +1.6239352223E-001 +7.9241872796E+001 
11647501.877 +1.2123815141E-001 +7.7091949742E+001  +5.8448539626E-001 -3.9358891757E+000  +5.7899732644E-001 +7.4634400374E+000  +1.0912974262E-001 +7.6692704872E+001 
11772647.059 +1.3596818247E-001 +8.3658650584E+001  +5.8758480673E-001 -3.7484362104E+000  +5.8521131434E-001 +7.0120627218E+000  +1.0977721217E-001 +6.7815261126E+001 
11897792.240 +1.3970224425E-001 +7.3005755814E+001  +5.9220375733E-001 -2.9901832101E+000  +5.8714774673E-001 +7.2531192110E+000  +1.2656598842E-001 +5.4371611027E+001 
12022937.422 +1.5756906153E-001 +6.4068280830E+001  +5.9088126440E-001 -2.3305258851E+000  +5.8651747636E-001 +7.2646136955E+000  +1.7326112174E-001 +6.7314321455E+001 
12148082.603 +1.4727660227E-001 +7.0441716550E+001  +6.0200851871E-001 -2.5717948623E+000  +5.9594451798E-001 +6.4587368750E+000  +1.3390778962E-001 +5.7191674646E+001 
12273227.785 +1.2267136335E-001 +7.1142645307E+001  +6.0492039359E-001 -2.8747850807E+000  +6.0154095474E-001 +5.5379048032E+000  +1.4416554584E-001 +7.1697636354E+001 
12398372.966 +1.2864819817E-001 +4.8169977579E+001  +6.1636908671E-001 -1.7797178170E+000  +6.0971162088E-001 +5.9898416242E+000  +1.4585951331E-001 +5.8420651650E+001 
12523518.148 +1.1486358843E-001 +5.5670733989E+001  +6.2220071471E-001 -1.9378158845E+000  +6.1786001786E-001 +5.4637865235E+000  +1.4536241380E-001 +5.0733769755E+001 
12648663.329 +1.2347612529E-001 +4.2598402064E+001  +6.3107203612E-001 -1.5519701519E+000  +6.2657077915E-001 +5.1410097914E+000  +1.2801734101E-001 +5.0861930909E+001 
12773808.511 +1.2296524694E-001 +4.4874739037E+001  +6.3660727748E-001 -1.3142839905E+000  +6.3083998849E-001 +4.6991891976E+000  +1.4542994862E-001 +3.9492136753E+001 
12898953.692 +1.5557745105E-001 +4.4494833753E+001  +6.4177571884E-001 -1.1310483904E+000  +6.3821899297E-001 +4.3595091709E+000  +1.1073354244E-001 +3.3397329079E+001 
13024098.874 +1.3819295316E-001 +3.4523905234E+001  +6.5169549998E-001 -1.0310235878E+000  +6.4752969133E-001 +3.9191904214E+000  +1.1621238842E-001 +2.8462353976E+001 
13149244.055 +1.4572172981E-001 +2.8258244170E+001  +6.5826553646E-001 -7.9312568625E-001  +6.5262987060E-001 +3.7251944957E+000  +1.3483581198E-001 +2.5801641185E+001 
13274389.237 +1.3623272384E-001 +2.4063491751E+001  +6.6569189228E-001 -4.0183200294E-001  +6.5928320108E-001 +3.6958601934E+000  +1.6980079393E-001 +2.0648062676E+001 
13399534.418 +1.5354731698E-001 +2.0021472949E+001  +6.7070812381E-001 -5.3854201562E-001  +6.6460850277E-001 +3.0101286270E+000  +1.4617493175E-001 +2.3534330133E+001 
13524679.599 +1.4208083249E-001 +1.2547454833E+001  +6.8095791493E-001 -4.9538848287E-001  +6.7476552564E-001 +2.4155177072E+000  +1.5977619482E-001 +1.8985984233E+001 
13649824.781 +1.6003171428E-001 +1.6210757530E+001  +6.8387387375E-001 -2.1221110433E-001  +6.7789736952E-001 +2.2460501770E+000  +1.7160246548E-001 +1.5220591290E+001 
13774969.962 +1.6630120547E-001 +1.0405968176E+001  +6.9581082485E-001 -9.9219323159E-002  +6.9105137613E-001 +1.9297349786E+000  +1.8237492851E-001 +1.5336524913E+000 
13900115.144 +1.8041082326E-001 +1.3106219934E+000  +7.0341695733E-001 -1.0609168394E-001  +6.9639348777E-001 +1.5505372780E+000  +1.8316393241E-001 +9.6625409923E+000 
14025260.325 +1.8660465435E-001 +3.2586673240E+000  +7.0782296120E-001 -2.6363328923E-001  +6.9990483844E-001 +1.1413295974E+000  +1.9123710016E-001 +5.3198557958E+000 
14150405.507 +2.2533929027E-001 +1.1234211667E+000  +7.1599107911E-001 +1.1686717085E-001  +7.0852399893E-001 +9.6477833813E-001  +1.8153125526E-001 -1.0956454284E+000 
14275550.688 +2.1039297252E-001 -1.8090673552E-001  +7.1998936681E-001 -5.6153531590E-001  +7.1505127335E-001 +3.7186183323E-001  +1.8622391865E-001 -4.9852348272E+000 
14400695.870 +2.3277635355E-001 +2.6065755047E-001  +7.2583726064E-001 +2.7326721187E-001  +7.1760499953E-001 +8.1970592735E-001  +2.4817094527E-001 -2.7440206154E+000 
