!  2-Port S-parameters saved by WinCal
! VAR MeasName=S-Parameters (CALIBRATED_DATA) read from VNA (P5004A)
! VAR MeasDate=29/08/2024 15:26:58
! VAR NAME=f39_RESET3_9k-100M_1
! VAR FILENAME=f39_RESET3_9k-100M_1.S2P
! VAR DATE=29/08/2024 15:26:58
! VAR PHYS_PORTS=1,2
! VAR ObjTypeName=DATASET
! VAR IndexType=Frequency
!
# Hz S MA R 50
9000.000 +1.0695683536E-001 -1.6342098245E+002  +4.0682148121E-003 -1.3854267532E+001  +1.7148488672E-002 -1.3670326772E+002  +2.1011653380E-001 -1.2752585760E+002 
134145.181 +1.1171172002E-001 +1.6943487087E+002  +3.9500080376E-004 -1.5798039400E+002  +1.8459562523E-004 -8.7546493910E+001  +2.3811136660E-001 -1.7157446721E+002 
259290.363 +1.1120770601E-001 +1.6954600648E+002  +3.6876765320E-004 +1.3937439973E+001  +5.5781855700E-004 +1.5556933529E+002  +2.3561946752E-001 -1.6970134721E+002 
384435.544 +1.1486658555E-001 +1.6972160461E+002  +5.1699486501E-004 -5.0256346372E+001  +8.0797729063E-004 -1.7918706778E+002  +2.3491970305E-001 -1.6704033059E+002 
509580.726 +1.1497449931E-001 +1.6995938910E+002  +1.8854541016E-003 -1.7851938750E+002  +2.7826805917E-003 +2.8765766118E+001  +2.4995850352E-001 -1.6146578907E+002 
634725.907 +1.1821685295E-001 +1.7160243037E+002  +8.6682781249E-005 +1.3602995119E+002  +2.0730961804E-004 +4.6751434088E+001  +2.6089449505E-001 -1.6500582742E+002 
759871.089 +1.1945796272E-001 +1.7086841782E+002  +5.0240056025E-004 +6.8826619824E+001  +2.1407072590E-004 -9.6453973299E+001  +2.5458604239E-001 -1.6563099377E+002 
885016.270 +1.2132506157E-001 +1.6905277813E+002  +3.5718873511E-004 +2.3570137800E+001  +4.1194451234E-004 -7.4393417704E+001  +2.5439801955E-001 -1.6779964958E+002 
1010161.452 +1.1852082448E-001 +1.7009457641E+002  +6.5422776041E-004 -1.5170969075E+002  +1.3693802794E-003 -1.5873172637E+002  +2.0435169285E-001 -1.6947444632E+002 
1135306.633 +1.1927725952E-001 +1.7019751854E+002  +1.9291148097E-003 -6.4378980310E+001  +3.2213178343E-003 -5.3648845521E+001  +1.9525458507E-001 -1.6066731411E+002 
1260451.815 +1.2209276669E-001 +1.7038015292E+002  +5.5060216246E-004 +1.3004168997E+002  +7.4328751258E-004 +1.1410473655E+002  +2.3835870507E-001 -1.6432742656E+002 
1385596.996 +1.2565624511E-001 +1.7313634350E+002  +1.2145182698E-003 -1.5335816170E+002  +5.3803826186E-004 +1.3044094224E+002  +2.4991545398E-001 -1.5966593871E+002 
1510742.178 +1.2845266057E-001 +1.7073592084E+002  +1.6702160137E-003 +1.1793343201E+002  +1.3401133367E-003 -1.3614233106E+002  +2.4526143299E-001 -1.5275113059E+002 
1635887.359 +1.3212387381E-001 +1.7203260806E+002  +7.3701074495E-004 -1.7404053511E+002  +8.0937936062E-004 -6.9860491656E+001  +2.1613771152E-001 -1.5569894022E+002 
1761032.541 +1.2929623524E-001 +1.6948412005E+002  +7.4908158296E-004 -5.7696375714E+001  +7.0888718570E-004 -5.9234070789E+001  +2.1413748493E-001 -1.6067443504E+002 
1886177.722 +1.2925972154E-001 +1.6887697556E+002  +2.6221588970E-003 -1.0001971685E+001  +2.7807605160E-003 +6.4530553249E+001  +2.1371478678E-001 -1.5804437404E+002 
2011322.904 +1.2898844527E-001 +1.6865202128E+002  +2.5718171159E-003 +5.6935413606E+001  +1.7684629278E-003 -4.3208128942E+001  +1.9708685146E-001 -1.6688434224E+002 
2136468.085 +1.2988753059E-001 +1.6609743439E+002  +2.2788206743E-003 -1.1069856386E+002  +2.1421390750E-003 -5.7095476141E+001  +1.9762380060E-001 -1.7538358591E+002 
2261613.267 +1.3357249930E-001 +1.6601470855E+002  +1.4562247539E-003 -3.0135566841E+001  +4.4494239590E-003 -1.6223421343E+002  +1.4818989689E-001 -1.6100809354E+002 
2386758.448 +1.3744840223E-001 +1.6671015918E+002  +1.4499012541E-003 +1.1510752710E+002  +5.2434517470E-003 -1.1591124709E+002  +2.4482237155E-001 +1.5403319603E+002 
2511903.630 +1.2635003238E-001 +1.6066816723E+002  +1.1719860422E-003 -1.2807362127E+002  +5.5437216519E-003 +8.2339824987E+001  +2.4117706653E-001 +1.7210282101E+002 
2637048.811 +1.1964689398E-001 +1.6788688095E+002  +8.8530079567E-004 +4.8542646699E-001  +2.1048862334E-002 -7.4455702876E+001  +2.7689544303E-001 +1.2170140228E+002 
2762193.992 +1.0293468826E-001 +1.7536132368E+002  +6.2796367755E-003 -7.2840645517E+001  +1.9338145321E-002 +2.7226052506E+001  +6.0203059100E-002 -6.3941062091E+001 
2887339.174 +1.2126641125E-001 +1.7200080202E+002  +1.3695217414E-002 +7.3940905923E+001  +7.9588513687E-003 -1.2804794666E+002  +2.3484536159E-001 -1.5849583399E+001 
3012484.355 +1.1764650508E-001 +1.6508412397E+002  +8.6990565107E-003 +1.0628457376E+002  +1.7478399750E-002 +1.6748604824E+001  +2.3629999045E-001 -8.7476192371E+001 
3137629.537 +1.0949268684E-001 +1.7028294137E+002  +1.2755773099E-002 -5.7310112456E+001  +1.2251902233E-002 +1.2065021438E+002  +1.1910369073E-001 -7.0612779784E+001 
3262774.718 +1.4098938862E-001 +1.6520173943E+002  +2.2363491438E-003 -1.1056214723E+002  +7.8426306472E-003 -4.2990313541E+001  +1.5043751779E-001 -1.0886775933E+002 
3387919.900 +1.4091721138E-001 +1.5508841331E+002  +2.1889588798E-002 +9.5406276712E+001  +3.2447317275E-002 -6.9582496420E+001  +5.1349951250E-001 -8.1884056734E+000 
3513065.081 +1.2824784424E-001 +1.5565485618E+002  +1.3084759753E-002 -9.8708485721E+001  +8.9258168205E-003 -3.2308476162E+001  +3.9907870483E-001 +1.4587756572E+002 
3638210.263 +1.9075086827E-001 +1.4701250939E+002  +1.2111121420E-002 -1.7037712075E+002  +7.9566189007E-003 -8.4815454848E+001  +6.8122762153E-001 +1.5388875966E+002 
3763355.444 +1.5951452745E-001 +1.4975006617E+002  +5.0180240027E-003 -1.9571773579E+001  +1.4770274291E-002 -4.5007722490E+001  +9.5787085218E-001 +1.4818880571E+002 
3888500.626 +1.8078310609E-001 +1.4470379434E+002  +7.7563594571E-003 -1.5425508425E+002  +1.0100479774E-002 -1.2498662275E+002  +2.0990609575E-001 +6.7147133905E+001 
4013645.807 +1.7991006707E-001 +1.5043154338E+002  +5.3766912921E-003 +7.3702242058E+001  +3.5952106905E-003 -6.9854478225E+001  +4.8401189726E-001 +1.2735980876E+002 
4138790.989 +1.7498420338E-001 +1.4498262346E+002  +1.2133410807E-002 -6.8371475896E+001  +6.7391416361E-003 -6.7833396306E+001  +9.5861826684E-001 +1.1335155665E+002 
4263936.170 +1.8000625139E-001 +1.4553870843E+002  +5.7320689935E-003 -1.3967118420E+001  +8.1645364084E-003 -6.0237715216E+001  +5.4375772075E-001 +1.3758945173E+002 
4389081.352 +2.4746992134E-001 +1.4542651233E+002  +4.4776470132E-003 +1.1482865237E+002  +1.6518170025E-002 +5.2957357235E+001  +5.9830067806E-001 +9.8289731531E+001 
4514226.533 +2.2368062314E-001 +1.3941080173E+002  +7.9099574318E-003 -1.0302766938E+002  +1.4141257047E-002 +1.5530114783E+002  +1.5504240241E+000 +1.1521494249E+002 
4639371.715 +2.7084236760E-001 +1.3798537161E+002  +1.9170511377E-002 +1.6925263148E+002  +2.7463270586E-002 -1.5213854371E+002  +1.8984001992E+000 +1.4968029452E+002 
4764516.896 +4.6431001208E-001 +1.4111153467E+002  +4.8019545366E-002 -1.1321813746E+002  +1.6787152692E-001 -1.6687674252E+002  +4.6508404690E+000 -1.5165418849E+002 
4889662.078 +4.9313860701E-001 +1.3597048642E+002  +3.9382927254E-002 +6.7405969066E+001  +1.7371370962E-002 -9.4016580850E+001  +2.1482612030E+000 -9.3686803864E+001 
5014807.259 +3.3762507997E-001 +1.2074646495E+002  +9.8015203641E-003 -1.3945826939E+002  +2.0334897780E-002 -1.7769920934E+001  +1.8886216479E+000 +9.9781845839E+001 
5139952.441 +5.2416010997E-001 +1.3396153509E+002  +2.3913737750E-002 +1.3661456132E+002  +3.4156111688E-002 -1.5795834683E+002  +5.7551753178E+000 -1.6557886223E+001 
5265097.622 +3.1851476040E-001 +1.0975951215E+002  +4.3823230951E-002 +4.3493185759E+001  +4.4049656834E-002 +1.6287060703E+001  +3.7472184741E+000 +3.4428915644E+001 
5390242.804 +5.0450313191E-001 +1.3048613278E+002  +4.1818518107E-002 +4.8634731196E+001  +6.1211738713E-002 -9.0271145512E+001  +3.7856572693E+000 +3.1946561114E+001 
5515387.985 +4.2828438351E-001 +1.1262549360E+002  +3.8017239194E-002 +1.2777205821E+002  +3.2701875667E-002 -1.0333934729E+002  +3.1162139943E+000 +1.1532643402E+002 
5640533.166 +4.5618474774E-001 +1.3059757937E+002  +8.5049261428E-003 +8.4213049024E+001  +3.0674392578E-002 -2.0185592482E+001  +2.1441100461E+000 +6.9120120092E+001 
5765678.348 +5.2056119928E-001 +1.3013771897E+002  +1.2934006576E-002 +1.7251911849E+002  +9.8944482076E-003 +2.0917752140E+001  +3.5126498271E+000 +5.7183774321E+001 
5890823.529 +5.2347430628E-001 +1.1970507520E+002  +8.1237570142E-003 +9.8732722463E+001  +2.4068668216E-002 +6.6404259289E+001  +1.7005416222E+000 +7.1970277479E+001 
6015968.711 +6.9159090755E-001 +1.2231482647E+002  +2.0224219057E-002 +1.0183993996E+002  +2.8262431597E-002 +4.3305400846E+001  +2.0096058858E+000 +4.4714607698E+001 
6141113.892 +8.1261275082E-001 +1.0900554605E+002  +2.1727214990E-002 -1.2742199092E+002  +5.9090181144E-002 +6.1692195231E+001  +2.2458005740E+000 +1.8771729621E+001 
6266259.074 +7.1673325724E-001 +1.0414438902E+002  +1.6321910371E-002 +1.3824363079E+001  +4.6119922502E-002 +5.8228646323E+001  +1.7489143639E+000 +1.3397153475E+001 
6391404.255 +9.7711798658E-001 +9.5892756946E+001  +1.0483630952E-002 -1.1265001921E+002  +7.9563499851E-003 -3.5666696303E+001  +1.7487085459E+000 +1.4207693065E+001 
6516549.437 +1.5679346136E+000 +7.5673229564E+001  +3.5756140834E-002 +9.4756549730E+001  +4.7776785992E-002 +6.3262399116E+001  +1.1930204630E+000 +2.4606843768E+000 
6641694.618 +1.6094266273E+000 +6.7235714218E+001  +4.7041095941E-002 +5.1893393742E+001  +2.8308345748E-002 -4.9449154348E+001  +1.6114128048E+000 -1.1416858923E+001 
6766839.800 +1.4574385871E+000 +6.9434319183E+001  +2.1817342239E-002 -4.2390009508E+000  +3.9959263463E-003 -4.8234951781E+001  +1.2572814300E+000 -7.3980652014E+000 
6891984.981 +1.6656957807E+000 +2.7174291468E+001  +1.0016462555E-002 -1.4061051498E+002  +3.2831741989E-002 -1.1943239705E+001  +1.2689836843E+000 -1.2670212971E+001 
7017130.163 +1.8688579782E+000 +1.2117896223E+001  +2.9564179701E-002 -5.0276989752E+001  +2.5333419391E-002 +4.8910030830E+001  +1.0044995136E+000 -8.6657504896E+000 
7142275.344 +1.4353522027E+000 +7.4749823831E+000  +7.1876261975E-003 -9.2771748674E+001  +2.3915659370E-003 +1.0115472481E+002  +1.3647866220E+000 -1.1432751497E+001 
7267420.526 +1.3455341460E+000 +7.8712257207E+000  +8.9045943292E-003 -7.7379170941E+001  +1.3400432520E-002 -6.1818473843E+000  +1.2969336237E+000 -7.4544478811E+000 
7392565.707 +1.1547118865E+000 +2.7616076868E+000  +5.9881340439E-003 -3.4775318505E+001  +3.5277559736E-003 +2.0149361541E+001  +1.3250889345E+000 -1.4609015707E+001 
7517710.889 +1.1399869582E+000 -1.5764993514E+000  +5.5735337125E-003 -6.3417379235E+001  +9.7208200271E-003 +1.6429112751E+002  +1.1494534821E+000 -7.9572045630E+000 
7642856.070 +9.7785953262E-001 -5.2847039418E+000  +8.8294064901E-003 +6.2252548736E+000  +7.8776655409E-003 +1.9868959489E+001  +1.1606280773E+000 -5.7506576348E+000 
7768001.252 +1.0104113808E+000 +3.9188446581E+000  +1.1356649813E-002 +3.2977779173E+001  +2.3906220870E-003 -8.4518984385E+001  +1.0271663113E+000 -7.0442469687E+000 
7893146.433 +8.2936203142E-001 +9.2644558569E-001  +9.8106320935E-003 +4.2838547134E+001  +3.8307215864E-003 -1.3903643344E+001  +8.4837521048E-001 -3.7362130128E+000 
8018291.615 +8.9605074228E-001 +8.9571840821E+000  +7.3390143236E-003 +1.3604421539E+001  +4.1964256664E-003 +2.6698174881E+001  +8.3136465857E-001 -4.3022860576E+000 
8143436.796 +7.3808344596E-001 +1.1316658986E+001  +7.0636424236E-003 +7.6266459827E+001  +1.0180672607E-002 +2.0549070815E+001  +7.6878554310E-001 -2.2214367129E+000 
8268581.977 +7.4699620417E-001 +1.2540932671E+001  +2.7835545908E-003 +1.4980510006E+002  +1.0519741817E-002 +6.7503061653E+001  +7.1102936948E-001 -4.0522394570E+000 
8393727.159 +6.8666418112E-001 +8.6014058718E+000  +1.6666766271E-003 +1.1886899978E+002  +2.9403295701E-003 +2.4890899223E+001  +7.3395879049E-001 +4.4757309195E+000 
8518872.340 +6.7904111502E-001 +8.4736430096E+000  +4.8475054775E-003 -3.6680027100E+000  +3.9681362197E-003 -1.9089515273E+001  +7.3648016935E-001 -3.8562328495E+000 
8644017.522 +6.5684666666E-001 +3.8178806256E+000  +8.6003212951E-003 -3.0836578709E+001  +3.3298592604E-003 +1.6653096316E+001  +7.1951299138E-001 -7.9938689084E-001 
8769162.703 +5.7819115331E-001 +5.6753700360E+000  +1.9212423423E-003 -1.3604581058E+002  +4.6173293249E-003 -3.3123541355E+001  +6.4058896865E-001 +6.7846971761E-001 
8894307.885 +6.1924848418E-001 +5.9804520466E+000  +6.3677974472E-003 +5.6551956242E+000  +5.9707507196E-003 -4.0193356913E+000  +6.4686624374E-001 +1.0335561948E+000 
9019453.066 +5.9237886392E-001 +9.1426462540E+000  +3.8354940464E-003 -3.8601232022E+001  +1.9414103975E-003 +4.4095085705E+001  +6.5262931820E-001 +1.3383655135E+000 
9144598.248 +5.5671538064E-001 +2.6892318187E+000  +8.5070066128E-003 +1.3115896063E+001  +4.9631541127E-003 +5.8828712186E+001  +6.3677087344E-001 +5.7313401366E-001 
9269743.429 +5.5894168003E-001 +9.0636704171E+000  +1.5840379348E-003 -8.6106088191E+001  +5.9920543059E-003 +2.4573572745E+001  +6.1494912056E-001 -1.2737115389E+000 
9394888.611 +5.5180063275E-001 +4.8618362003E+000  +5.3100542424E-003 -1.8818849744E+001  +2.0759180097E-003 -5.6289567018E+001  +5.8016266111E-001 +5.7109303675E+000 
9520033.792 +5.4311171938E-001 +7.4407555838E+000  +5.9971531876E-003 -3.1786765574E+000  +4.8329948664E-003 +3.9687978483E+000  +6.1864882855E-001 -3.7333652263E+000 
9645178.974 +5.1586299005E-001 -6.0408954438E-002  +7.2757837587E-003 -5.2293688504E+000  +4.5267435150E-003 +4.8193638384E+001  +5.6682690711E-001 -8.8970966213E+000 
9770324.155 +5.4712349156E-001 +2.3054653898E+000  +2.7064367789E-003 +5.0221998042E+000  +7.8917019257E-003 -1.4337976374E+001  +5.1560403600E-001 -7.9053155553E+000 
9895469.337 +5.3712219718E-001 -4.1212822403E-001  +7.3364187969E-003 -4.0984914409E+000  +3.7838415653E-003 +1.2392032547E+001  +6.0072842656E-001 -4.7858939884E+000 
10020614.518 +5.0467443468E-001 +1.5459717285E+000  +3.9094587180E-003 -3.9488144666E+000  +7.3516169543E-003 -1.2571746674E+001  +5.6389506238E-001 -6.1088774424E+000 
10145759.700 +5.5058459764E-001 +5.8551274748E+000  +7.1246711581E-003 -4.2729463468E+000  +6.0270631770E-003 +9.8080789266E+000  +5.6963797882E-001 -3.2859365087E+000 
10270904.881 +5.5030973754E-001 +6.6760870534E+000  +4.4336219000E-003 +4.2454915999E+001  +4.6772966355E-003 +9.7623560416E+000  +5.6157400454E-001 -1.3425479363E+000 
10396050.063 +5.3557149507E-001 +7.5774405718E+000  +3.9104816011E-003 +7.8803508072E+000  +2.0350025100E-003 +4.0886840428E+001  +5.6186080069E-001 -2.8295960449E+000 
10521195.244 +5.6045224113E-001 +2.4578616865E+000  +5.5513618352E-003 -3.8186044061E+001  +2.9392076464E-003 -5.4712874257E+000  +5.9239589360E-001 -1.0237289381E-001 
10646340.426 +5.3887909226E-001 +5.5300994438E+000  +2.5488920406E-003 -1.4701478564E+001  +3.4022231816E-003 +3.7232547344E+001  +6.2663517518E-001 -1.1516562638E+000 
10771485.607 +5.6391213038E-001 +6.3910116371E+000  +4.4008238441E-003 +2.0582163200E+001  +4.4301079872E-003 +3.1636629994E+001  +6.0945253328E-001 +4.0764731588E-001 
10896630.788 +5.6519241571E-001 +7.4233381271E+000  +2.7700654880E-003 +3.5053891922E+001  +2.3201640574E-003 +5.5211532246E+001  +6.0002938678E-001 +3.2421459474E+000 
11021775.970 +5.7961268931E-001 +7.4987657188E+000  +5.5380139473E-003 +2.9238955922E+000  +5.0716088520E-003 +1.5968699626E+001  +6.5143299427E-001 +3.3885534101E+000 
11146921.151 +6.0214017371E-001 +6.7220845535E+000  +5.3644827617E-003 -2.2532490287E+001  +3.1654532405E-003 +1.6679912646E+001  +6.1268562456E-001 -1.1623260498E+000 
11272066.333 +6.0540422625E-001 +7.5666473129E+000  +2.0407905584E-003 +1.0013293832E+002  +4.4928685488E-003 +1.4399682765E+001  +6.1787016550E-001 +3.7442085167E+000 
11397211.514 +6.1052689791E-001 +7.4781060006E+000  +3.7742917502E-003 +3.7115583935E+001  +3.6741756622E-003 +2.2034137567E+001  +6.5527813092E-001 +1.3963685659E+000 
11522356.696 +6.5940670206E-001 +8.3662668020E+000  +3.5474534560E-003 +6.6472312329E+000  +4.9146868179E-003 +3.1231379180E+001  +6.2617465386E-001 +9.9353785510E-001 
11647501.877 +6.3886709772E-001 +3.1328142777E+000  +3.8786336843E-003 +1.2152369974E+001  +6.7766844427E-003 +2.7451081517E-001  +6.3548339411E-001 -6.0438857840E-001 
11772647.059 +6.3638179993E-001 +3.8685993916E+000  +4.2025605686E-003 -2.8135578042E+000  +2.4815694190E-003 +3.3650584041E+001  +6.5364045698E-001 +4.0371915909E+000 
11897792.240 +6.5938596444E-001 +5.1652687592E+000  +3.7837594856E-003 +7.7798998930E+000  +3.8644969451E-003 +3.9156975773E+000  +6.7780751025E-001 -6.5585334784E-001 
12022937.422 +6.7884162201E-001 +3.5512612151E+000  +4.0886332290E-003 +1.2537439529E+000  +4.2292984324E-003 +3.5007312620E+001  +6.8847616837E-001 +1.4842359289E+000 
12148082.603 +6.8235550509E-001 +5.0488314720E+000  +5.4333776535E-003 +7.3575605894E+000  +6.3275545742E-003 +2.4378535909E+001  +6.9809529269E-001 +2.4283393879E+000 
12273227.785 +7.1575228611E-001 +7.6770322220E+000  +2.7895889087E-003 -3.7846065270E+000  +5.3240166707E-003 +1.0814102420E+001  +7.1307515181E-001 +5.9026385057E-001 
12398372.966 +6.9994594799E-001 +3.6726170064E+000  +5.4703978098E-003 +1.0179011982E+000  +6.0815566427E-003 -1.0489122536E+000  +7.2057916896E-001 -7.1387965505E-001 
12523518.148 +7.1255118941E-001 +4.6896023698E+000  +5.5193647071E-003 +1.0311130219E+001  +5.1949670955E-003 +8.4787327602E+000  +7.5540273888E-001 +8.0114860286E-001 
12648663.329 +7.4444099251E-001 +9.5457108989E-001  +3.8456789216E-003 +1.3704439559E+001  +4.9972751334E-003 -1.6682171713E+001  +7.3917318861E-001 -1.9848146722E+000 
12773808.511 +7.4878789008E-001 +4.0585572995E-001  +6.0265754995E-003 +1.9626107726E+001  +3.4312782039E-003 +1.1990363862E+001  +8.0798220192E-001 +2.8519110377E-001 
12898953.692 +7.5537441444E-001 +2.1476264281E+000  +5.6664055791E-003 +2.3941989602E+000  +6.3676554880E-003 +1.6500075755E+001  +7.7957117910E-001 -2.2415706103E+000 
13024098.874 +7.9787553323E-001 +3.2561205097E-001  +4.6268930934E-003 +1.4512467339E+001  +4.8537297643E-003 +1.0323250417E+001  +8.0214668532E-001 -1.9702671760E+000 
13149244.055 +7.7997134086E-001 +4.4272967268E-001  +4.1001475811E-003 +2.7654087007E+000  +5.0493597077E-003 -1.1188737598E+001  +7.9746001432E-001 -3.4131376354E+000 
13274389.237 +8.3282642588E-001 -9.1632091143E-001  +4.7642799625E-003 +1.2557786245E+000  +5.5839873254E-003 +4.0425286752E-001  +8.3552613967E-001 -2.1748588272E+000 
13399534.418 +8.4052492596E-001 -8.0309671262E-001  +4.3878094707E-003 +1.0487656673E+001  +5.7249304802E-003 +2.3109364178E+001  +8.4854753100E-001 -1.2821254857E+000 
13524679.599 +8.4522859633E-001 -1.2213591239E+000  +5.9446810128E-003 -4.5735147906E+000  +5.9690386950E-003 +3.7001056920E+000  +8.6762482198E-001 -3.1744638660E+000 
13649824.781 +8.7513517655E-001 -2.9762139639E+000  +5.6744983892E-003 +2.7930825383E+000  +4.5964997206E-003 +1.1176519075E+001  +8.7157052318E-001 -3.0941508579E+000 
13774969.962 +8.7124093897E-001 -3.0989803589E+000  +4.7085773530E-003 +1.8615348236E+001  +5.8558682093E-003 +2.6123994136E+000  +8.9457079951E-001 -2.1575318675E+000 
13900115.144 +9.0449156691E-001 -3.7546656329E+000  +4.8644410885E-003 +9.4066254912E+000  +5.6568336072E-003 +8.2031659045E+000  +9.2879691545E-001 -3.3299885018E+000 
14025260.325 +9.2026662011E-001 -3.6493958632E+000  +7.1946256844E-003 +9.0563081945E+000  +5.8300378785E-003 +1.9810564042E+000  +9.3758200576E-001 -2.6628255673E+000 
14150405.507 +9.4463109697E-001 -4.2728240147E+000  +6.2059077638E-003 +9.1674962920E+000  +5.1048438980E-003 -7.8971906761E+000  +9.2053559184E-001 -5.1549015023E+000 
14275550.688 +9.5481852774E-001 -6.2668640076E+000  +4.8508030081E-003 +8.8427505162E+000  +5.7007388167E-003 -8.0975941482E+000  +9.6943812641E-001 -4.5759100192E+000 
14400695.870 +9.6996882693E-001 -6.7598454245E+000  +5.5820050971E-003 +5.2093717549E+000  +5.9311671396E-003 -6.8400596435E+000  +9.8861960056E-001 -4.5538593920E+000 
