!  2-Port S-parameters saved by WinCal
! VAR MeasName=S-Parameters (CALIBRATED_DATA) read from VNA (P5004A)
! VAR MeasDate=29/08/2024 15:39:59
! VAR NAME=f39_RESET4_9k-100M_1
! VAR FILENAME=f39_RESET4_9k-100M_1.S2P
! VAR DATE=29/08/2024 15:39:59
! VAR PHYS_PORTS=1,2
! VAR ObjTypeName=DATASET
! VAR IndexType=Frequency
!
# Hz S MA R 50
9000.000 +7.5933025918E-002 -1.6993843040E+002  +1.1492351362E-002 -4.8943561050E+001  +2.8357777127E-003 +4.2062359223E+001  +2.1862375514E-001 -1.3629275460E+002 
134145.181 +1.1198970869E-001 +1.6992434137E+002  +4.3314150351E-004 -4.9256220167E+001  +4.0623291262E-004 -3.2801365631E+001  +2.4054184993E-001 -1.6917900572E+002 
259290.363 +1.1110178537E-001 +1.6952596010E+002  +4.7759371661E-004 -1.7318229550E+002  +6.6068110473E-004 +5.1798695368E+001  +2.4385467465E-001 -1.6811322007E+002 
384435.544 +1.1388431447E-001 +1.7006801036E+002  +4.7446945996E-004 +6.5737627061E+001  +1.6612956936E-003 -1.0622032963E+002  +2.4680445379E-001 -1.6586814583E+002 
509580.726 +1.1346459729E-001 +1.7110954443E+002  +4.1547478054E-004 -1.7263058416E+002  +1.5123358226E-003 -1.0222753337E+002  +2.4929064680E-001 -1.6530516577E+002 
634725.907 +1.1772571071E-001 +1.7258859294E+002  +1.5687764610E-003 +2.6599979059E+001  +1.6846170542E-003 +1.6022938683E+002  +2.4796799486E-001 -1.6390683986E+002 
759871.089 +1.1940347262E-001 +1.7013685453E+002  +3.5341702966E-004 -1.6534352335E+002  +2.2251203193E-004 -1.2687067403E+002  +2.5908444253E-001 -1.6599901259E+002 
885016.270 +1.2057347109E-001 +1.6908732349E+002  +2.6275463787E-004 -1.4230460841E+002  +5.4164424238E-004 +1.0933606913E+002  +2.4764711086E-001 -1.6620055283E+002 
1010161.452 +1.1849258348E-001 +1.7030224335E+002  +6.0600418058E-004 +4.9789020548E+001  +1.9007930992E-003 +1.1341318438E+002  +2.1474245788E-001 -1.6498883157E+002 
1135306.633 +1.1570286258E-001 +1.6833437154E+002  +1.0229374900E-003 -1.7606309069E+001  +1.5951454119E-003 +9.8103084870E+001  +1.8595527797E-001 -1.7191626920E+002 
1260451.815 +1.1990278254E-001 +1.6924753959E+002  +3.4618112461E-003 +9.0237825492E+001  +2.0084539129E-003 +1.7007614254E+002  +1.3970154998E-001 -1.6393135515E+002 
1385596.996 +1.2642698325E-001 +1.7210481710E+002  +7.3232922003E-004 +6.2213287615E+001  +1.3049665288E-003 +5.3877824395E+001  +2.7175948960E-001 -1.5819870573E+002 
1510742.178 +1.2852438083E-001 +1.7192601915E+002  +6.4649739216E-004 +1.6764915938E+002  +7.5222892054E-004 +5.3574746943E+001  +2.5712309097E-001 -1.5970721487E+002 
1635887.359 +1.2903681866E-001 +1.7013182643E+002  +8.2542514010E-004 -9.6970336976E+001  +1.2913614947E-004 -1.2003460744E+002  +2.3461345256E-001 -1.5833392154E+002 
1761032.541 +1.2844801562E-001 +1.7133095923E+002  +2.7313157404E-004 -1.1526143055E+002  +1.1636439795E-003 -1.3208312199E+002  +2.2400521477E-001 -1.5876973912E+002 
1886177.722 +1.2679128941E-001 +1.6920843691E+002  +1.0061765768E-003 +1.2279916264E+002  +5.3395216181E-004 +1.6653718004E+002  +1.9024087159E-001 -1.6179028169E+002 
2011322.904 +1.2052260031E-001 +1.6776174390E+002  +3.5616373506E-003 -1.7240240642E+002  +5.7632494839E-003 -1.0986109243E+002  +1.5359516372E-001 -1.5593337649E+002 
2136468.085 +1.2960538584E-001 +1.6581370357E+002  +2.1688652430E-003 -3.7477157853E+000  +2.4880393755E-003 -1.4998311572E+001  +1.3634649790E-001 -1.6413525275E+002 
2261613.267 +1.3183101454E-001 +1.6529192552E+002  +1.2985688681E-003 -8.0872789320E+000  +2.9557993962E-003 -1.2253419215E+002  +1.9869506476E-001 +1.6137375347E+002 
2386758.448 +1.3045001659E-001 +1.6663118945E+002  +2.4766124648E-003 +1.2144200952E+002  +3.8763603099E-003 -9.2647284310E+001  +2.2212066247E-001 +1.7484672976E+002 
2511903.630 +1.3570143201E-001 +1.6334175607E+002  +2.1876400406E-003 +4.1721809548E+001  +2.4477283103E-003 -1.7636628852E+002  +2.2356575485E-001 +1.7493288519E+002 
2637048.811 +1.1884091043E-001 +1.7283876408E+002  +2.3037120823E-002 -7.8594640111E+001  +6.9994597908E-003 +5.9277733227E+001  +8.0736919699E-001 +1.6215689938E+002 
2762193.992 +1.2399155737E-001 +1.7099240707E+002  +3.9909136007E-003 +5.9243876663E+001  +8.5838249726E-003 +1.4340793867E+000  +8.4098614808E-001 -1.6124751272E+002 
2887339.174 +1.2057599353E-001 +1.7292527087E+002  +8.3503369705E-003 +5.2524615542E+001  +1.0485642600E-002 -8.5113234217E+001  +6.3327588822E-002 -1.7880581757E+002 
3012484.355 +1.3175559305E-001 +1.7377513849E+002  +8.9042272625E-003 +3.3961653414E+001  +1.4405049021E-002 -1.5781681544E+002  +1.8669044995E-001 -2.8619067571E+001 
3137629.537 +1.0051816576E-001 +1.6824279487E+002  +7.9664376872E-003 -8.5372670605E+001  +4.3038111353E-003 -1.6461682413E+002  +2.8115877938E-001 -2.6347077613E+001 
3262774.718 +1.3772144505E-001 +1.6386394240E+002  +3.4811563506E-003 -5.8114150948E+001  +5.7786395018E-003 +4.2848636750E+001  +6.3493698026E-002 -6.0124547248E+001 
3387919.900 +1.1995647654E-001 +1.5537152963E+002  +1.4890156830E-002 +1.3808496372E+001  +1.0371911045E-002 -1.6970687036E+002  +9.6049973995E-002 -5.2391554609E+001 
3513065.081 +1.5847355936E-001 +1.5387938786E+002  +1.2305210326E-002 +1.7483508867E+002  +9.2475756240E-003 +1.4643148707E+001  +6.5519974759E-001 +1.1658844752E+002 
3638210.263 +1.6903735117E-001 +1.4967512436E+002  +7.2773711285E-003 -1.7082929245E+002  +1.6456153351E-003 +1.4689952502E+002  +6.4431487150E-001 +1.4315174369E+002 
3763355.444 +1.7102963702E-001 +1.4327529176E+002  +8.3791110398E-002 +1.3716502223E+002  +1.4134098348E-001 +1.0606072324E+002  +4.7643627136E+000 +1.0106915063E+002 
3888500.626 +1.8522538256E-001 +1.5296010333E+002  +3.6052597931E-003 +7.3968748709E+000  +1.6755503392E-002 +4.8959788856E+001  +6.1153895166E-001 +1.1610424010E+002 
4013645.807 +1.7316852306E-001 +1.4854520724E+002  +4.2083137946E-003 -1.0888006642E+002  +5.7713244542E-003 +8.6869406880E+001  +4.4147237564E-001 +1.5370969526E+002 
4138790.989 +1.9695755239E-001 +1.4143729122E+002  +2.4457205566E-002 +7.9636134368E+001  +3.2860343384E-002 +1.7129754395E+002  +1.6014178059E+000 +1.3033677389E+002 
4263936.170 +1.9561595690E-001 +1.4934549063E+002  +1.2843477237E-002 +9.9852418233E+001  +2.7368747493E-002 +4.7655967335E+001  +4.8018761016E-001 +8.2082581851E+001 
4389081.352 +2.0322834558E-001 +1.4609133158E+002  +2.2112949253E-002 +7.2069190804E+001  +2.1845091411E-002 +1.6797042124E+002  +1.3149377174E+000 +5.5184676753E+001 
4514226.533 +2.2825754400E-001 +1.3935135211E+002  +3.0812515064E-002 +1.0172309802E+002  +2.8632859665E-002 -1.9270661555E+001  +8.6249777471E-001 +8.0703220342E+001 
4639371.715 +2.4178866198E-001 +1.2877023289E+002  +5.3844170631E-002 +4.8399464629E+001  +1.1684130581E-002 +4.6891579933E+001  +2.5320476906E+000 +1.4253848344E+002 
4764516.896 +3.0548221857E-001 +1.3055707580E+002  +1.3130699928E-001 +5.8383828241E+001  +9.2836896309E-003 +1.5448662402E+002  +4.5607660870E+000 -7.6429676355E+001 
4889662.078 +4.6099391146E-001 +1.0103956947E+002  +2.2658218125E-002 -1.0611391724E+002  +5.9160615205E-002 -1.3288863116E+002  +2.0865390662E+000 -1.3794304569E+002 
5014807.259 +4.2598987408E-001 +1.2620541060E+002  +3.4954814229E-002 +5.0320898569E+001  +3.4442024392E-002 +6.9183301952E+000  +2.7574225627E+000 -1.2176317075E+001 
5139952.441 +3.9145990732E-001 +1.2179873443E+002  +3.8368965844E-002 -1.0700185896E+002  +3.1389701082E-002 +1.7105802566E+002  +2.6066615968E+000 -7.7329918121E+000 
5265097.622 +3.2581309343E-001 +1.3022003252E+002  +1.9580953471E-002 -3.1596962555E+001  +2.1483006439E-003 -8.6331924184E+001  +2.3353924642E+000 -3.4420966016E+000 
5390242.804 +3.8158461472E-001 +1.2513136894E+002  +1.3528119696E-002 +6.6255059002E+000  +3.5043263929E-002 +7.1969448276E+001  +1.8683459167E+000 +4.3446499032E+001 
5515387.985 +5.6726260024E-001 +1.0839276468E+002  +2.1789877777E-002 -7.0901069101E+001  +3.8669640248E-002 +3.7504158603E+001  +2.4534754795E+000 +8.3729624970E+001 
5640533.166 +4.6628401035E-001 +1.2533829785E+002  +1.9976798548E-002 +1.0326629696E+002  +3.5478088729E-002 +1.2416866360E+002  +1.9452225039E+000 +9.3331525834E+001 
5765678.348 +5.5224492324E-001 +1.2324755726E+002  +5.1442047443E-003 -6.9290899397E+000  +3.4527093704E-002 -1.6352222984E+001  +3.0736761549E+000 +2.0655495568E+001 
5890823.529 +7.0537314230E-001 +1.2799211131E+002  +2.9605773992E-002 +1.7652831089E+002  +3.2231044028E-002 +1.0938238780E+002  +2.3284091563E+000 +8.9881639574E+001 
6015968.711 +6.7604599930E-001 +1.1005863087E+002  +8.1813286383E-003 +2.7129569732E+001  +3.6570811665E-003 +7.2642269933E+001  +1.8647304501E+000 +1.4603773296E+001 
6141113.892 +6.2566841319E-001 +1.1759831555E+002  +1.8907791944E-002 +6.9552006213E+001  +1.7081592706E-002 -2.7499717781E+001  +2.1388613712E+000 +4.9888593561E+001 
6266259.074 +7.1997283409E-001 +1.0255946876E+002  +1.8643899763E-002 +5.0606166310E+001  +2.0955262018E-003 +6.2075460105E+001  +2.0070758196E+000 +2.4567815830E+001 
6391404.255 +9.3014739888E-001 +9.8003910691E+001  +1.6106395938E-002 +2.0751328493E+001  +2.6471538726E-002 -2.3065463026E+001  +1.3818236892E+000 +1.2449327923E+001 
6516549.437 +1.2321002703E+000 +9.0297348158E+001  +4.0382099545E-002 +6.0476831915E+000  +1.5144395529E-002 -1.0510127897E+001  +1.6253513571E+000 +2.2718221733E+001 
6641694.618 +1.4712151501E+000 +8.5134479740E+001  +4.7762503662E-002 -2.8141219764E+000  +2.2939154879E-002 +1.1865958001E+001  +1.5300359490E+000 +1.1380240685E+001 
6766839.800 +1.3614121866E+000 +5.6547145458E+001  +2.7255468639E-002 +1.7233188018E+000  +5.1450205704E-002 +2.5559967722E+000  +1.4054896094E+000 -1.1202970222E+001 
6891984.981 +1.4177852832E+000 +1.6986874640E+001  +4.1398563019E-002 -1.2406045575E+001  +1.9403760502E-002 -9.2540478604E+001  +9.1940272434E-001 -1.3389602254E+001 
7017130.163 +1.9137735389E+000 +2.9349060716E+001  +1.9964899809E-002 +9.2267001157E+001  +1.6963631596E-002 -3.3827409604E+001  +1.1887911671E+000 -2.0757178756E+001 
7142275.344 +1.8207311500E+000 +1.4214130976E+001  +1.0411871320E-002 -4.5841630234E+001  +7.2026804286E-003 +4.3801424909E+001  +1.2470888335E+000 -1.8271706256E+001 
7267420.526 +1.3669122099E+000 -8.9559786808E+000  +7.1465482936E-003 -1.2686971397E+002  +2.1158214791E-002 -1.6622947491E+001  +1.4026925139E+000 -1.8106506273E+001 
7392565.707 +1.2783464805E+000 -1.4820991108E+000  +6.1622424527E-003 -5.2994243498E+001  +6.9982353299E-003 -1.5831968886E+001  +1.3692719686E+000 -1.2896193311E+001 
7517710.889 +1.1461723501E+000 +1.2957346403E+000  +5.1434457204E-003 -1.1166176959E+001  +8.4294969837E-003 -2.0287895442E+001  +1.1875038331E+000 -2.1107943480E+000 
7642856.070 +1.1180710726E+000 +5.7111908352E-001  +7.3240592664E-003 -1.6044490398E+001  +1.0649370901E-002 +1.0942122881E+001  +1.1713867389E+000 -9.4259241752E+000 
7768001.252 +1.0244398171E+000 +7.0845345242E+000  +3.8339452920E-003 +5.0894324281E+001  +6.5936767591E-003 -3.5514874324E-001  +1.0061559433E+000 -6.8371046470E+000 
7893146.433 +8.2563124253E-001 +4.0004399046E+000  +2.3855066123E-003 -2.4655647168E+001  +5.4759780045E-003 -3.8433509602E+001  +7.9206710179E-001 +2.4750626285E+000 
8018291.615 +8.8564757140E-001 +8.4272343702E+000  +3.7759566855E-003 -9.3964092189E+001  +7.8290462464E-003 -1.2613277641E+001  +7.7986246641E-001 -6.0345871327E+000 
8143436.796 +7.9260501745E-001 +7.2117545883E+000  +6.1287185150E-003 +1.0349007149E+001  +1.4556468484E-003 -5.2183539495E+001  +7.7991482857E-001 +2.9073116828E+000 
8268581.977 +7.8130629957E-001 +6.9117325425E+000  +6.7655134777E-003 -1.5810124207E+001  +1.5958768640E-003 +1.7358965674E+001  +7.1923950422E-001 -9.0086484872E-001 
8393727.159 +6.6157978714E-001 +9.4913475614E+000  +3.7141184584E-003 -2.2944786200E+001  +3.2663413561E-003 +1.5012832166E+001  +7.0094761920E-001 -4.2692145496E+000 
8518872.340 +6.4187095225E-001 +1.0324748364E+001  +3.0743652224E-003 -1.3494887049E+002  +7.5011402785E-003 -6.9145270033E+000  +6.9250328757E-001 -3.3091541978E+000 
8644017.522 +5.9306825361E-001 +3.4009146257E+000  +2.0128569035E-003 +9.1058613967E+001  +2.9326815997E-003 -2.8931476016E+000  +6.3570503439E-001 -1.5557935270E+000 
8769162.703 +5.9191413819E-001 +7.7808543844E+000  +4.1050801479E-003 -3.1575595328E+000  +4.9908122983E-003 +3.6752753738E+001  +7.2190502294E-001 -4.1290474840E-001 
8894307.885 +5.7357040833E-001 +7.5549616618E+000  +8.1268995355E-003 +6.5185173696E+000  +7.7387023680E-003 +8.8828907232E+000  +7.0595181734E-001 +2.2225896360E+000 
9019453.066 +6.0662333631E-001 +6.9198380625E+000  +3.0808730061E-003 -4.9076573452E+001  +6.6570786446E-003 +1.8490514225E+001  +6.5201310780E-001 +1.4831445683E+000 
9144598.248 +6.1111427822E-001 +5.4155341575E+000  +5.0050409906E-003 +1.8049808064E+001  +6.9161036778E-003 +3.3654768049E+001  +5.5383433207E-001 +2.4985130020E+000 
9269743.429 +5.7162251343E-001 +4.0078759458E+000  +5.7521103856E-003 +2.4802814029E+001  +5.0539538910E-003 +4.2735822398E+001  +5.8804569648E-001 -4.0924406677E+000 
9394888.611 +5.8002832915E-001 +6.2211206330E+000  +4.7980089855E-003 -1.6516281345E+001  +4.9456368180E-003 +2.0648877184E+001  +5.3659239720E-001 +1.7043239791E+000 
9520033.792 +5.9391172339E-001 +6.5408046311E-001  +4.6373318019E-003 +9.8467860402E+000  +5.7297736308E-003 -7.6077403073E+000  +5.2637111271E-001 -9.5343905579E+000 
9645178.974 +5.8854837072E-001 +1.3572122663E+000  +6.1724943544E-003 +9.9949315817E+000  +6.2095617568E-003 +5.0423989698E+001  +5.6802989713E-001 -6.0217114724E+000 
9770324.155 +5.4135000730E-001 +9.7277933824E-001  +1.3474898691E-003 -1.5511365208E+001  +5.9353331267E-003 +3.1430277343E+001  +6.0643194077E-001 -4.8960972448E+000 
9895469.337 +5.5903232433E-001 +3.0927028209E+000  +4.0577351352E-003 +2.9295373631E+000  +4.6180968588E-003 +1.8076512806E+001  +5.8718534975E-001 -4.6857976863E+000 
10020614.518 +5.4623321789E-001 +3.5523980947E+000  +4.6695654991E-003 -2.3514386149E+001  +5.0352771889E-003 +2.2774935051E-001  +5.5696126949E-001 -5.5505260665E+000 
10145759.700 +5.6707006266E-001 +3.7348711264E+000  +7.0786070803E-003 +3.1963384556E+001  +5.2879741267E-003 -1.2314042407E+001  +5.9067861039E-001 -4.1051671631E+000 
10270904.881 +5.5912584327E-001 +8.8437888521E+000  +3.9643888593E-003 -4.4956639783E+001  +4.6373344091E-003 +1.1428935973E+001  +6.0725093702E-001 -1.0650574310E+000 
10396050.063 +5.6750306558E-001 +4.1454426903E+000  +4.9921714605E-003 -4.1364820565E+000  +3.8846755260E-003 +2.3729537321E+001  +5.7559624796E-001 -5.5723310649E+000 
10521195.244 +5.6606842214E-001 +4.3239320124E+000  +5.8611391185E-003 -1.1758347533E+000  +4.5071868236E-003 +4.1539187898E+001  +5.8850202737E-001 -4.1722810412E+000 
10646340.426 +5.3369638310E-001 +5.9322728125E+000  +1.8746782708E-003 +4.3322853855E+000  +3.5609497490E-003 +4.8768364845E+001  +5.9664577957E-001 +1.3983627848E+000 
10771485.607 +5.6627296285E-001 +1.1590932838E+001  +8.1014154698E-003 +5.2426819222E+000  +3.7831424778E-003 +1.7117442628E+001  +6.0297952458E-001 -2.6984786148E+000 
10896630.788 +5.7753525282E-001 +6.3039735703E+000  +7.0060225183E-003 +1.7685460573E+001  +5.1434291731E-003 +2.9621638792E+000  +6.0101771134E-001 +9.2883948631E-001 
11021775.970 +5.7506491224E-001 +8.0681423214E+000  +4.5594316688E-003 -1.0705049914E+000  +6.6262908402E-003 +2.2783988216E+001  +6.1926313124E-001 +8.5224283230E-001 
11146921.151 +6.0285665300E-001 +6.7787546452E+000  +7.8772166985E-003 +9.9963138950E+000  +3.1991062955E-003 +2.7858944738E+000  +6.3808893331E-001 +1.9244164349E+000 
11272066.333 +5.8771819174E-001 +7.6099607789E+000  +2.6123237553E-003 -3.4867167739E+001  +7.3891927293E-003 +1.5787541051E+000  +5.8432511619E-001 +1.3713087270E+000 
11397211.514 +6.2388287176E-001 +6.2417125024E+000  +5.4077350675E-003 -1.5665138660E+001  +4.4346991608E-003 +2.6158527504E+001  +6.3461225024E-001 +3.4899318753E+000 
11522356.696 +6.2233385179E-001 +5.1529446514E+000  +5.2874296101E-003 +1.8459099971E+001  +6.1976231567E-003 +2.6623487691E+001  +6.5525112325E-001 -1.5577306025E-001 
11647501.877 +6.2665911075E-001 +4.7351260529E+000  +5.9983205683E-003 +2.1399416050E+000  +5.3598458860E-003 +1.3596198002E+001  +6.8631802533E-001 +1.1929544165E+000 
11772647.059 +6.3243007019E-001 +6.6884025950E+000  +4.0448056769E-003 +6.8336420126E+000  +6.8902555751E-003 +1.4671736950E+001  +6.3776320571E-001 +1.3971549794E+000 
11897792.240 +6.7029106934E-001 +7.6111395033E+000  +7.0993820660E-003 +4.9670934732E-001  +4.2583343987E-003 +1.3694063049E+001  +6.5248430105E-001 +6.3394301575E-001 
12022937.422 +6.7078506246E-001 +5.7771766175E+000  +3.4854129320E-003 -4.9362354935E-001  +7.5309829493E-003 +7.6638516419E+000  +6.7348765917E-001 +2.4650612475E+000 
12148082.603 +6.7432141611E-001 +5.1085210462E+000  +4.9349468826E-003 -4.7537134122E+000  +4.7348955049E-003 +7.1201204343E+000  +7.1107730286E-001 +3.6224614074E+000 
12273227.785 +6.9288609776E-001 +4.7711260022E+000  +4.4450960931E-003 +8.7168265569E+000  +3.2728317239E-003 +2.3111888961E+001  +7.0619861739E-001 +6.2448698909E-001 
12398372.966 +6.9733626993E-001 +2.6983851075E+000  +6.2805289801E-003 -1.1539673608E+001  +4.8658025896E-003 +2.1770456018E+001  +7.2300608771E-001 -1.4509558145E+000 
12523518.148 +7.1743875256E-001 +1.7745994211E+000  +4.8860976281E-003 +2.2013761283E+000  +5.1880476673E-003 -1.4993336760E+001  +7.2701592164E-001 -2.1409452459E-001 
12648663.329 +7.4877065676E-001 +2.6146426348E+000  +6.4561414463E-003 +5.1713136748E+000  +5.5313740779E-003 +4.1446630995E+000  +7.4031840053E-001 -1.2152554076E+000 
12773808.511 +7.5743166663E-001 +2.0953408942E+000  +5.1142633209E-003 -2.0448547362E+000  +6.5480808196E-003 -1.8399280386E+001  +7.7565029045E-001 +1.0297017672E+000 
12898953.692 +7.7775409878E-001 +2.3898689633E-001  +7.3436980077E-003 -7.8149093152E+000  +6.2854723720E-003 -2.0731661859E+000  +7.7644312570E-001 -3.4709725329E-001 
13024098.874 +7.8355607231E-001 +1.3248979805E+000  +7.3416789450E-003 +1.7598509107E+000  +5.4671185916E-003 +1.5094876480E+001  +7.9642547538E-001 -1.2777904656E-001 
13149244.055 +8.0491913874E-001 +9.9231242014E-002  +6.1744919379E-003 -1.5603102287E+001  +6.0327849861E-003 -1.1117647455E+001  +7.9826873209E-001 -1.0815328840E+000 
13274389.237 +8.3381007036E-001 -1.7951585680E+000  +4.8246134987E-003 +3.4578653686E+000  +5.9603543490E-003 +7.0637690627E+000  +8.2800202793E-001 -2.0083148737E+000 
13399534.418 +8.2964291234E-001 -1.6256666729E+000  +5.4899185623E-003 +6.2354964035E+000  +6.3712542038E-003 +1.0790374340E+001  +8.4529127959E-001 -1.9945878651E+000 
13524679.599 +8.6176577493E-001 -2.4889558307E+000  +6.2400526973E-003 +4.8147106042E-001  +7.1243142570E-003 +7.7910366072E+000  +8.7600011117E-001 -3.2852042357E+000 
13649824.781 +8.7469390127E-001 -3.3362100047E+000  +5.6268742918E-003 +2.4796083646E+001  +4.7940781588E-003 +1.8930167589E+001  +8.6827626590E-001 -2.5345366779E+000 
13774969.962 +9.0055963914E-001 -2.9711231027E+000  +5.8060393681E-003 +5.3982669933E+000  +6.2630105323E-003 +1.5935450881E+001  +8.6818784708E-001 -4.1327181886E+000 
13900115.144 +9.0617603246E-001 -3.4193860310E+000  +5.8065455612E-003 -2.2441030816E-001  +7.0629298706E-003 +1.9501795915E+001  +9.2598307923E-001 -4.0617339233E+000 
14025260.325 +9.3620140965E-001 -3.7631225781E+000  +4.2253637686E-003 -1.9768931392E+000  +6.2995935891E-003 +2.0032936323E+000  +9.0489031908E-001 -4.6548615754E+000 
14150405.507 +9.3264095523E-001 -4.5078763394E+000  +6.5023307464E-003 +1.3000319819E+001  +5.9686878329E-003 +9.6074350449E+000  +9.4688593564E-001 -4.3502430319E+000 
14275550.688 +9.4626523349E-001 -4.8595781283E+000  +6.3744120467E-003 -2.7515054229E+000  +7.4372768252E-003 +1.3405539692E+000  +9.6537551292E-001 -5.3502151587E+000 
14400695.870 +9.8274768962E-001 -6.3353024224E+000  +5.7399580511E-003 +7.4279142863E+000  +5.4900155146E-003 +1.0083231348E+001  +9.8552257531E-001 -4.7515071075E+000 
