!  2-Port S-parameters saved by WinCal
! VAR MeasName=S-Parameters (CALIBRATED_DATA) read from VNA (P5004A)
! VAR MeasDate=29/08/2024 15:34:52
! VAR NAME=f39_SET1_9k-100M_3
! VAR FILENAME=f39_SET1_9k-100M_3.S2P
! VAR DATE=29/08/2024 15:34:52
! VAR PHYS_PORTS=1,2
! VAR ObjTypeName=DATASET
! VAR IndexType=Frequency
!
# Hz S MA R 50
9000.000 +9.7752821131E-002 -1.6946821827E+002  +9.5742716719E-003 -8.7932091277E+001  +1.4994736504E-002 +4.0443670218E+001  +3.6035882176E-001 -1.3936206499E+002 
134145.181 +1.1127365268E-001 +1.6998886680E+002  +1.3085992625E-004 -1.7734106203E+002  +2.7428703319E-004 -1.6731525425E+002  +2.3945741573E-001 -1.7110360469E+002 
259290.363 +1.1190917228E-001 +1.6996731422E+002  +9.3008039520E-004 +1.4917997374E+001  +6.6853454681E-004 +4.6908761042E+001  +2.3857046273E-001 -1.6834046554E+002 
384435.544 +1.1379648979E-001 +1.7007214294E+002  +7.2913558270E-004 -7.7312874123E+001  +1.9987836666E-004 -3.7056623665E+000  +2.4529141850E-001 -1.6920410901E+002 
509580.726 +1.1404428347E-001 +1.7071636330E+002  +2.9105569579E-004 +2.8989169868E+001  +5.8119024722E-004 +9.3271550238E+001  +2.3841556747E-001 -1.6804645647E+002 
634725.907 +1.1940109117E-001 +1.7121412089E+002  +1.6224678299E-003 -1.1511649974E+002  +1.0080161827E-003 +1.1639812166E+002  +2.3386477866E-001 -1.6143425104E+002 
759871.089 +1.2015849615E-001 +1.7066679194E+002  +4.4840663436E-004 -1.1365018337E+002  +6.9602843174E-005 -1.6924871762E+002  +2.5128383462E-001 -1.6732269842E+002 
885016.270 +1.2114110080E-001 +1.6964867643E+002  +1.3171512276E-004 +1.5598025566E+002  +3.6994611299E-004 +8.3769852488E+001  +2.4399406340E-001 -1.6652173725E+002 
1010161.452 +1.1467027642E-001 +1.7047554433E+002  +2.6982238767E-004 +1.5502598891E+002  +1.0917763891E-003 +1.5337000828E+002  +2.1433311114E-001 -1.7051469788E+002 
1135306.633 +1.1669234989E-001 +1.6897744417E+002  +4.5186288554E-004 +5.7054005168E+001  +3.7255255567E-004 -7.8418712526E+001  +2.0580350078E-001 -1.6676710221E+002 
1260451.815 +1.1866458645E-001 +1.7108582060E+002  +1.3921869213E-003 +9.2059735010E+001  +3.4829168966E-003 +1.0059453940E+002  +1.8899720698E-001 -1.6133731288E+002 
1385596.996 +1.2680219756E-001 +1.7299019881E+002  +1.1484862821E-003 -1.0845538110E+002  +7.5492840913E-004 -1.1750916655E+002  +2.5692787427E-001 -1.5834819741E+002 
1510742.178 +1.2585315572E-001 +1.7082019879E+002  +9.0310628262E-004 +1.8106430811E+001  +2.4473515436E-003 +7.8443446240E+001  +2.6298940334E-001 -1.5754290445E+002 
1635887.359 +1.2787446214E-001 +1.7160570091E+002  +7.8245589646E-004 +4.5641782879E+001  +8.0568321926E-004 +9.5536315881E+001  +2.5346190313E-001 -1.5923999923E+002 
1761032.541 +1.3176558005E-001 +1.7015272943E+002  +1.2562422885E-003 -7.8317537247E-001  +6.7110997306E-004 -1.7451138553E+001  +2.4147856508E-001 -1.5712827490E+002 
1886177.722 +1.3179182232E-001 +1.6964884711E+002  +2.4912233116E-003 +9.3443718253E+001  +2.8859737909E-003 -9.0789273766E+001  +2.1650232973E-001 -1.6671121203E+002 
2011322.904 +1.3235010261E-001 +1.6715314868E+002  +2.0131645792E-003 +5.9326688707E+001  +3.3438656786E-003 -3.8623429059E+001  +2.2513347170E-001 -1.6451681070E+002 
2136468.085 +1.2593445826E-001 +1.6509575645E+002  +1.3107802639E-002 +1.1013126561E+001  +9.5585669279E-003 -8.6627818076E+001  +1.7752132698E-001 -1.4324651431E+002 
2261613.267 +1.3345995087E-001 +1.6328973190E+002  +5.3436133462E-003 +1.0993140111E+002  +4.5918100293E-003 -4.1014413033E+001  +2.2493995020E-001 -1.7867233955E+002 
2386758.448 +1.3657938726E-001 +1.6530027161E+002  +8.7640730946E-003 +5.0582556593E+001  +6.5011264674E-003 -8.9908115214E+000  +1.5785313118E-001 +1.7003683304E+002 
2511903.630 +1.3474468402E-001 +1.6666899601E+002  +9.0280538599E-003 +6.5373772852E+001  +7.1745368924E-003 -4.3567458375E+001  +2.0387880967E-001 +1.7829066907E+002 
2637048.811 +1.0133991061E-001 +1.5255610591E+002  +2.3637374045E-002 +6.7175977336E+001  +2.5607151743E-002 -3.9082334708E+001  +1.9462560988E-001 +1.7864847092E+002 
2762193.992 +1.2157710212E-001 +1.7504080523E+002  +3.2339168840E-002 -2.3491580328E+000  +3.8213314703E-002 -9.1044226618E+001  +1.5516609566E-001 +3.2671888456E+001 
2887339.174 +1.0653532940E-001 -1.7245492954E+002  +5.7791745297E-002 -4.0934341487E+001  +5.9093900865E-002 -1.1931718567E+002  +2.1884308593E-001 -6.8906561081E+001 
3012484.355 +9.4033817338E-002 +1.7020775567E+002  +3.3991424483E-002 -7.5063061570E+000  +5.1198867175E-002 -1.0931585516E+002  +6.9961994670E-002 -7.0152641967E+001 
3137629.537 +1.0655790893E-001 +1.6442516736E+002  +5.2323841350E-002 -2.2541850645E+001  +3.1265452684E-002 -9.7944493122E+001  +2.1105768288E-001 -7.6185764322E+001 
3262774.718 +1.1586857131E-001 +1.6911461822E+002  +1.5986143581E-002 -7.2119185631E+000  +1.0712672303E-002 -9.6260262069E+001  +1.0632336539E-001 -1.7980395488E+002 
3387919.900 +1.2581777654E-001 +1.5755542807E+002  +2.6459514975E-002 +9.0719146190E+001  +3.0731765928E-002 -2.5463683411E+000  +4.0542087809E-001 +1.2635674997E+002 
3513065.081 +1.2149172490E-001 +1.4824225983E+002  +6.5014391331E-002 +6.5577415594E+001  +7.1491173133E-002 +1.9966792482E+001  +8.4040361686E-001 +1.0636305653E+002 
3638210.263 +1.8309185144E-001 +1.4645559535E+002  +3.7559995096E-002 +1.3949088085E+002  +3.0704390671E-002 +7.3740671049E+001  +6.5699042640E-001 +1.3011402703E+002 
3763355.444 +1.7849089091E-001 +1.5092618168E+002  +2.2430725439E-002 +9.4264781727E+001  +2.3253210402E-002 +1.9888979728E+001  +3.2862294851E-001 +1.4576494291E+002 
3888500.626 +1.9479225959E-001 +1.4691899664E+002  +2.6820456225E-002 +8.9168357445E+001  +2.6676422325E-002 +1.0423601196E+001  +1.5571113247E-001 +1.2090004961E+002 
4013645.807 +1.7566795267E-001 +1.5263662535E+002  +1.8989629431E-002 +9.1990826620E+001  +2.7985117155E-002 +2.3052158425E+001  +3.5496177886E-001 +1.5450948923E+002 
4138790.989 +1.7553086581E-001 +1.4832979895E+002  +2.9176994711E-002 +6.1444051838E+001  +2.4441098964E-002 +1.0600346662E+001  +2.5508031017E-001 +1.3757628268E+002 
4263936.170 +2.1547162454E-001 +1.4562491713E+002  +3.9125131802E-002 +1.3095771191E+002  +3.2577136044E-002 +5.6322401970E+001  +6.2451847617E-001 +1.4620830237E+002 
4389081.352 +2.2414744045E-001 +1.3409877897E+002  +4.3018350715E-002 +1.4660290763E+002  +6.1375567910E-002 +9.3619286840E+001  +8.6269830401E-001 +1.4700710261E+002 
4514226.533 +2.3523944398E-001 +1.3365172039E+002  +5.3539442195E-002 +1.1133593361E+002  +6.2471433326E-002 +5.5277963569E+001  +9.2809897209E-001 +1.3589055238E+002 
4639371.715 +2.9215149689E-001 +1.2709880661E+002  +3.2290838661E-001 +9.2509555921E+001  +4.1271643401E-001 +3.4663124162E+001  +4.6844788798E+000 +5.0395959665E+001 
4764516.896 +3.2043742808E-001 +1.2742095639E+002  +2.9709791213E-001 +1.7343413572E+002  +2.4460201511E-001 +1.2580795851E+002  +3.4362701426E+000 +1.4836821633E+002 
4889662.078 +4.4664651730E-001 +1.3125952434E+002  +3.9737961703E-001 +1.3402579547E+002  +4.2557693465E-001 +1.1138734948E+002  +4.6957702204E+000 +1.0230465859E+002 
5014807.259 +3.5709029772E-001 +1.2181295639E+002  +3.0775769865E-001 +1.0932769162E+002  +3.1553209608E-001 +6.4086942074E+001  +3.5539549028E+000 +8.4251682561E+001 
5139952.441 +3.4754612336E-001 +1.2984569159E+002  +1.7178675199E-001 +1.1061448298E+002  +1.4962410819E-001 +7.0979464480E+001  +2.5155958713E+000 +9.9568905070E+001 
5265097.622 +3.4969518090E-001 +1.2379134268E+002  +1.1675200018E-001 +9.5857818187E+001  +9.9809021155E-002 +6.6004817647E+001  +1.1968729332E+000 +1.0501707457E+002 
5390242.804 +3.9951446561E-001 +1.2772907242E+002  +9.2568712486E-002 +1.0728478146E+002  +1.0106283536E-001 +6.0509953482E+001  +1.2560738021E+000 +9.8700473033E+001 
5515387.985 +4.1495494471E-001 +1.3415111993E+002  +9.4975192432E-002 +9.1226920635E+001  +1.0711414774E-001 +5.9252266014E+001  +1.4613315649E+000 +6.8173026053E+001 
5640533.166 +4.9760267559E-001 +1.1808557082E+002  +1.0288278304E-001 +8.8243776174E+001  +1.1504231672E-001 +6.1832837722E+001  +9.6529585316E-001 +8.3102876225E+001 
5765678.348 +4.4122203203E-001 +1.2537368978E+002  +1.7922992560E-001 +6.8359906597E+001  +1.4942792198E-001 +5.1012298340E+001  +2.5300776944E+000 +5.8121847302E+001 
5890823.529 +5.1105539286E-001 +1.1285014768E+002  +1.8070398222E-001 +7.6195068289E+001  +1.8610339659E-001 +4.7025120006E+001  +2.0478090278E+000 +6.6598512053E+001 
6015968.711 +6.2345607840E-001 +1.1506812999E+002  +1.7771484378E-001 +8.4411921690E+001  +2.2420342374E-001 +6.3090013628E+001  +2.1417578669E+000 +7.4116916830E+001 
6141113.892 +5.8686869874E-001 +1.0587355427E+002  +1.9449559502E-001 +6.6781250416E+001  +2.0094763275E-001 +4.3800318095E+001  +2.4064682716E+000 +5.3620227484E+001 
6266259.074 +8.1372733175E-001 +9.6463367619E+001  +1.7755785641E-001 +4.6508748000E+001  +1.9442387851E-001 +3.0912466527E+001  +1.4734075979E+000 +3.4784952804E+001 
6391404.255 +7.3140571426E-001 +9.5625079338E+001  +1.6932444479E-001 +3.4090621054E+001  +1.7302969555E-001 +1.3261230434E+001  +1.9989708253E+000 +1.8185059930E+001 
6516549.437 +1.0490077261E+000 +8.8730304140E+001  +1.6439761740E-001 +3.5342652988E+001  +1.9625649351E-001 +2.5778378512E+001  +1.5318776871E+000 +1.4647997832E+001 
6641694.618 +1.0748643182E+000 +6.8664962347E+001  +1.9555820020E-001 +3.0817220994E+001  +1.8634075818E-001 +6.0110471998E+000  +1.7404197051E+000 +1.8735081547E+001 
6766839.800 +1.5175322746E+000 +5.4098751792E+001  +2.0679253330E-001 +2.2268910178E+001  +2.0147963559E-001 +9.6928063594E+000  +1.3696585848E+000 +1.7674089193E+000 
6891984.981 +1.6051014454E+000 +3.3862985970E+001  +1.8745466000E-001 +5.9619036696E+000  +1.9786545269E-001 +2.2662616480E+000  +1.1312189812E+000 +1.8858338239E+000 
7017130.163 +1.6774879899E+000 +2.8446725568E+001  +1.5607201353E-001 +2.2768158515E+000  +1.7108543727E-001 +2.0723628182E+000  +1.1797304223E+000 -4.2387412607E+000 
7142275.344 +1.3735851806E+000 +1.1482120566E+001  +1.3273704170E-001 +1.9779451652E-001  +1.5479234985E-001 -4.6504748996E+000  +1.3030816109E+000 -8.5836279831E+000 
7267420.526 +1.3749669303E+000 -7.8284433503E-001  +1.1880824518E-001 -8.0491622294E-002  +1.2581739178E-001 -5.0212032340E-001  +1.1663136104E+000 -2.3760010195E+001 
7392565.707 +1.1315052062E+000 -2.7411271725E-001  +1.0096901662E-001 +1.2694314924E+000  +9.7845337049E-002 +4.3911692128E+000  +1.2903111248E+000 -8.1558291351E+000 
7517710.889 +1.1783157427E+000 -5.1418910385E+000  +8.6818601092E-002 +1.0349881863E+001  +9.4746524817E-002 +6.0991451141E+000  +1.1197448768E+000 -7.9193820306E+000 
7642856.070 +1.0057116118E+000 +9.2295518663E+000  +8.4893091086E-002 +1.0038601166E+000  +7.8801429337E-002 +6.8263556197E+000  +9.5102273119E-001 -5.0929236535E+000 
7768001.252 +8.9277343915E-001 +4.2119119820E+000  +8.8315332085E-002 +1.1894647849E+000  +8.0256774173E-002 +6.3550190756E+000  +9.1037162891E-001 -1.0885555377E+000 
7893146.433 +7.5309494001E-001 +9.2818158528E+000  +7.3417638524E-002 +1.1412290421E+000  +6.8913002703E-002 +1.1123817684E+001  +8.4275419716E-001 -3.4693331418E-001 
8018291.615 +7.3076243130E-001 +1.2140311366E+001  +7.7643559519E-002 -3.5276851119E+000  +7.0534660952E-002 +6.4433339108E+000  +7.4861083564E-001 -4.8643573649E+000 
8143436.796 +6.8917926464E-001 +7.5693270988E+000  +7.3310146408E-002 +5.0175283057E-001  +7.5420103610E-002 +1.0722147778E+001  +6.9807405990E-001 +2.5579093971E+000 
8268581.977 +6.6926981429E-001 +1.3587207549E+001  +7.3601783569E-002 -2.2692815052E+000  +7.3734551471E-002 +8.5098508066E+000  +6.4258152340E-001 -1.5425855478E+000 
8393727.159 +6.5872233969E-001 +1.0835827772E+001  +6.9515828707E-002 -1.4946754740E+000  +7.1588695971E-002 +8.8751370989E+000  +6.8583605218E-001 +3.1410623349E+000 
8518872.340 +6.8805047901E-001 +5.4783729240E+000  +6.6490286613E-002 -7.0147751217E+000  +6.8862485676E-002 +1.1996276033E+001  +6.5003700069E-001 +6.8258781756E+000 
8644017.522 +4.9513146490E-001 +1.1943713522E+001  +6.9817087287E-002 -3.6105901156E+000  +6.1638711485E-002 +8.3589505058E+000  +6.6378130403E-001 -1.5980173225E-001 
8769162.703 +5.6277200049E-001 +6.0986698264E+000  +6.9467889848E-002 -1.3713068340E+000  +6.5989435585E-002 +8.1486192939E+000  +6.1479888078E-001 +7.1147938025E+000 
8894307.885 +5.9513151735E-001 +8.3916687361E+000  +7.1686118982E-002 -2.2157869712E+000  +6.7320084567E-002 +1.0226623096E+001  +5.6383836268E-001 -6.8553423365E+000 
9019453.066 +5.1454659817E-001 +6.4616865979E+000  +6.7546314834E-002 -4.2720582614E+000  +6.4618714070E-002 +1.2797641458E+001  +5.6316655823E-001 -9.8598913734E-001 
9144598.248 +5.2221087579E-001 +6.5595266387E+000  +6.6514272429E-002 -3.4463023247E+000  +6.6887619712E-002 +1.4567005415E+001  +5.6652713909E-001 +2.2956565182E+000 
9269743.429 +4.9739461218E-001 +4.9027096925E+000  +6.5787990030E-002 -3.9426912722E+000  +6.4913668973E-002 +1.1652120607E+001  +5.5092948168E-001 +1.9043375132E+000 
9394888.611 +4.9035683192E-001 +6.6168482903E+000  +6.6745088372E-002 -4.0964822507E+000  +6.7244619323E-002 +1.2019676483E+001  +5.1637791567E-001 -3.8175333223E+000 
9520033.792 +4.6300566758E-001 -1.4137540275E+000  +6.9700968977E-002 -7.2027307515E+000  +6.7249641365E-002 +9.8258256596E+000  +5.3120570290E-001 -1.9911782163E-001 
9645178.974 +5.0478575370E-001 +2.9599556405E+000  +6.8201548834E-002 -3.3267660808E+000  +6.5083180644E-002 +1.0686882434E+001  +5.1046505642E-001 -5.3868650452E-001 
9770324.155 +4.9337909384E-001 -3.3279216022E-001  +6.8254666889E-002 -1.2027323521E+000  +6.6049704175E-002 +1.3647862388E+001  +5.0399135149E-001 -7.5669918982E+000 
9895469.337 +4.5144608824E-001 +2.1665121360E+000  +6.9527755194E-002 -3.8159890694E+000  +6.6426451736E-002 +1.2727011841E+001  +5.3874441987E-001 -7.7986752695E+000 
10020614.518 +4.7806327746E-001 +6.3036954373E+000  +6.7849882683E-002 -3.8658670328E+000  +6.4821021446E-002 +1.1438846406E+001  +4.9176599173E-001 -7.5978150029E+000 
10145759.700 +4.9211876995E-001 +3.7879372332E+000  +6.9138344899E-002 -2.8987461045E+000  +6.7433342328E-002 +1.4763818981E+001  +5.0294531196E-001 -5.7296575943E+000 
10270904.881 +4.6081850136E-001 +4.5941037421E+000  +6.8555847976E-002 -4.5762809815E+000  +6.9709420458E-002 +1.2711174876E+001  +4.8970249843E-001 -3.4423965135E+000 
10396050.063 +5.2247015204E-001 +7.5891975760E+000  +6.3942045637E-002 -1.6952088441E+000  +7.0413842235E-002 +1.2630406705E+001  +5.2187836502E-001 +4.3647421685E-001 
10521195.244 +4.8297094680E-001 +9.1832777254E+000  +6.8744708711E-002 -1.4018038132E-001  +6.8847186077E-002 +1.2504864669E+001  +4.9860246489E-001 +6.1075122689E-001 
10646340.426 +5.3577854680E-001 +8.7992846141E+000  +6.9685389484E-002 -3.0051736256E-001  +6.8343606153E-002 +1.5028999091E+001  +5.2020724388E-001 +1.7732025456E+000 
10771485.607 +5.0166113552E-001 +9.3811888191E+000  +6.9410531920E-002 -2.2987397292E+000  +7.0454132115E-002 +1.3979627908E+001  +5.2668672640E-001 +3.8799745215E+000 
10896630.788 +5.0206115950E-001 +6.5568091314E+000  +6.9459589468E-002 -2.7640712087E+000  +7.1146707080E-002 +1.3665494724E+001  +5.1787726374E-001 +1.7305223134E+000 
11021775.970 +5.2177869498E-001 +7.5984044972E+000  +6.7890830155E-002 -1.7627161930E+000  +7.2602858976E-002 +1.3747822335E+001  +5.4040401280E-001 +3.6826117865E+000 
11146921.151 +5.2682842924E-001 +1.0774800708E+001  +7.3421392341E-002 -5.1395620583E-001  +6.9067987350E-002 +1.3562774181E+001  +5.6204946278E-001 +5.2326369930E-001 
11272066.333 +5.4378567301E-001 +7.5465932370E+000  +7.1252857661E-002 -4.5282210314E-001  +7.0670527880E-002 +1.2386679099E+001  +5.5254772401E-001 +2.2379271641E+000 
11397211.514 +5.4914679411E-001 +9.9991713749E+000  +7.1478867005E-002 +6.1247377133E-001  +7.1072131115E-002 +1.3009139837E+001  +5.7000961051E-001 +6.0663681700E+000 
11522356.696 +5.7221098598E-001 +7.3872725466E+000  +7.3317845539E-002 +1.6452296930E+000  +7.2055690432E-002 +1.3385151131E+001  +5.9055697450E-001 +4.2270768698E+000 
11647501.877 +5.6475291982E-001 +1.1141323800E+001  +7.3040603863E-002 -1.6347419729E-001  +7.2848868894E-002 +1.2289384731E+001  +5.6937811501E-001 +6.4700090686E+000 
11772647.059 +5.7180184692E-001 +6.5805592649E+000  +7.3836193389E-002 +1.8106572896E+000  +7.5199800252E-002 +1.2724066407E+001  +5.9718499743E-001 +1.0872043094E+000 
11897792.240 +5.9340424361E-001 +8.0210728321E+000  +7.4442811482E-002 +2.1817625305E+000  +7.4983051812E-002 +1.2467778641E+001  +5.9851883835E-001 +4.3787597968E+000 
12022937.422 +6.0180578045E-001 +4.7833753142E+000  +7.7289018423E-002 +1.7728439744E+000  +7.4331272383E-002 +1.2061894075E+001  +6.0516039357E-001 +2.4925264567E+000 
12148082.603 +6.3858910254E-001 +5.9176951318E+000  +7.6179024766E-002 +1.3130048352E+000  +7.7454287361E-002 +1.0286414299E+001  +6.1911823538E-001 +5.0306028765E-001 
12273227.785 +5.9782092144E-001 +5.6689849218E+000  +7.7988742522E-002 +3.7885655653E-001  +7.5479854204E-002 +1.0735502216E+001  +6.5249563706E-001 +2.3913365890E+000 
12398372.966 +6.4354892721E-001 +1.4986837792E+000  +7.8320685886E-002 +7.4285569970E-001  +7.7211381019E-002 +9.8300720123E+000  +6.3473441737E-001 +1.1896544014E+000 
12523518.148 +6.2492829070E-001 +3.7192659550E+000  +8.1150182734E-002 +1.8131340409E+000  +7.8046650040E-002 +8.5900596110E+000  +6.4475344132E-001 +2.6307873430E+000 
12648663.329 +6.6809906840E-001 +3.6169978322E+000  +8.2208495325E-002 +3.0873303085E+000  +7.8981234469E-002 +1.1698120030E+001  +6.9803776729E-001 -5.0528355244E-001 
12773808.511 +6.8915611349E-001 +3.4545149605E+000  +8.0899420327E-002 +2.6355496282E+000  +7.9757224516E-002 +1.0018938048E+001  +6.8416825861E-001 -1.4293620158E+000 
12898953.692 +7.1085773506E-001 +8.3674643574E-001  +8.3884463098E-002 +2.2009792019E+000  +8.2601164649E-002 +9.6532835879E+000  +7.0387064626E-001 +9.6182448175E-001 
13024098.874 +7.1501960994E-001 +8.8729688543E-001  +8.4308950825E-002 +3.2496754665E+000  +8.1162960176E-002 +7.2083691968E+000  +7.1892910858E-001 -4.8769528221E-001 
13149244.055 +6.8944029826E-001 +2.4736889469E-001  +8.4284802405E-002 +3.4183723462E+000  +8.0173364647E-002 +7.6331832971E+000  +7.4751057204E-001 -2.9062054291E-001 
13274389.237 +7.3374803160E-001 -1.2349121831E+000  +8.5210620724E-002 +2.6623732990E+000  +8.3458814410E-002 +7.1638771060E+000  +7.3311276604E-001 -9.6576674651E-001 
13399534.418 +7.6917525136E-001 -3.5330074553E-001  +8.5695935633E-002 +3.4753846468E+000  +8.4809159935E-002 +6.9301579868E+000  +7.7098670140E-001 -2.3248015216E+000 
13524679.599 +7.7259869242E-001 -4.9928462134E-001  +8.8191118284E-002 +2.2471344611E+000  +8.4968928334E-002 +6.2912133018E+000  +7.8393692545E-001 -2.9079759388E+000 
13649824.781 +8.0302517030E-001 -1.1004235238E+000  +8.6176373935E-002 +3.1914140286E+000  +8.6800822660E-002 +5.6634666898E+000  +7.9351608626E-001 -1.3921772808E+000 
13774969.962 +8.0324549178E-001 -2.7990735421E+000  +8.8398896686E-002 +2.2944353466E+000  +8.6027552723E-002 +4.9390533776E+000  +8.1635675203E-001 -1.6039836494E+000 
13900115.144 +8.1846007214E-001 -3.0972777241E+000  +8.7330720630E-002 +1.9027559745E+000  +8.6539022069E-002 +4.2950662933E+000  +8.2103921788E-001 -1.7843450839E+000 
14025260.325 +8.4374455144E-001 -4.3798149113E+000  +8.8419622388E-002 +2.9399782879E+000  +8.7620655455E-002 +4.0300547985E+000  +8.4113479863E-001 -5.1434839832E+000 
14150405.507 +8.5112794827E-001 -3.9207082342E+000  +8.9385051028E-002 +2.1942236867E+000  +8.7307617967E-002 +3.9246491960E+000  +8.6343642287E-001 -4.6884178907E+000 
14275550.688 +8.6636158561E-001 -4.4381551836E+000  +8.8927371587E-002 +3.0269742691E+000  +8.7422749416E-002 +3.0999598987E+000  +8.7047823835E-001 -3.7584910520E+000 
14400695.870 +8.8463798910E-001 -5.1761713037E+000  +8.9271556064E-002 +1.6608230153E+000  +8.7139238292E-002 +2.2892971328E+000  +9.0168008532E-001 -4.6444826539E+000 
