!  2-Port S-parameters saved by WinCal
! VAR MeasName=S-Parameters (CALIBRATED_DATA) read from VNA (P5004A)
! VAR MeasDate=29/08/2024 15:34:36
! VAR NAME=f39_SET1_9k-100M_1
! VAR FILENAME=f39_SET1_9k-100M_1.S2P
! VAR DATE=29/08/2024 15:34:37
! VAR PHYS_PORTS=1,2
! VAR ObjTypeName=DATASET
! VAR IndexType=Frequency
!
# Hz S MA R 50
9000.000 +9.1917031583E-002 -1.6674975996E+002  +4.2680193521E-003 +1.7183391444E+002  +6.9544629674E-003 -1.1388191656E+002  +2.5955753444E-001 -1.5470548464E+002 
134145.181 +1.1137089441E-001 +1.6975117221E+002  +1.6842840222E-004 +1.5753710703E+002  +4.5644852956E-004 -1.4936609740E+002  +2.3896319437E-001 -1.7057428027E+002 
259290.363 +1.1218992948E-001 +1.6951002933E+002  +9.7749846812E-005 -1.5950046860E+002  +3.0404213953E-004 -8.8864256043E+001  +2.4441874478E-001 -1.6912331626E+002 
384435.544 +1.1457648706E-001 +1.7085263465E+002  +2.0012324164E-004 +3.6344903337E+000  +4.6872119182E-004 +8.2383297993E+001  +2.4456108338E-001 -1.6879435110E+002 
509580.726 +1.1292345057E-001 +1.7054953192E+002  +1.6055059143E-003 -3.0457663097E+001  +1.8334408553E-003 -1.7441266410E+002  +2.3103713903E-001 -1.6115862616E+002 
634725.907 +1.1877621307E-001 +1.7205594268E+002  +2.4411543081E-004 +1.2646665161E+002  +1.6714603482E-003 +4.9848433603E+001  +2.3851829725E-001 -1.6443546519E+002 
759871.089 +1.1947402671E-001 +1.7037049064E+002  +2.3666513562E-004 -1.1776568255E+002  +1.1791966343E-003 +4.3132919847E+001  +2.5764874208E-001 -1.6582201144E+002 
885016.270 +1.2118088687E-001 +1.6924534287E+002  +2.8697260199E-004 +2.8840294505E+001  +4.6055060322E-004 +1.5633159700E+002  +2.4181355099E-001 -1.6742114008E+002 
1010161.452 +1.1642601536E-001 +1.7075981758E+002  +1.1551740242E-003 -4.6453186314E+000  +1.7531594515E-003 +1.5900010841E+002  +2.1301677019E-001 -1.6789912306E+002 
1135306.633 +1.1596640168E-001 +1.7017844855E+002  +3.9172932168E-004 -6.1431706046E+001  +2.5053366265E-003 +8.9397523580E+001  +1.9081107015E-001 -1.7283970038E+002 
1260451.815 +1.2149808996E-001 +1.7253003981E+002  +4.4648951806E-004 +4.6298361301E+001  +2.6967004252E-003 +1.4061072678E+002  +2.0978920357E-001 -1.5905115213E+002 
1385596.996 +1.2889949118E-001 +1.7278726244E+002  +4.0435369070E-004 +1.6922072568E+002  +1.0317685857E-003 +1.9935662430E+001  +2.7614831413E-001 -1.5827175071E+002 
1510742.178 +1.2946072255E-001 +1.7271203817E+002  +6.8778962869E-004 -1.0602202390E+002  +2.1360561485E-004 +4.9775825323E+000  +2.4688926760E-001 -1.5562527413E+002 
1635887.359 +1.2898400465E-001 +1.7148846880E+002  +4.1905953743E-004 +2.1866878744E+000  +6.3852672910E-004 +8.8049526637E+001  +2.4168469619E-001 -1.6025249561E+002 
1761032.541 +1.2864823355E-001 +1.6882447849E+002  +7.5856886464E-004 +7.9038979978E+001  +4.0534383559E-004 -6.0748162617E+001  +2.2524748239E-001 -1.6213000756E+002 
1886177.722 +1.3032952951E-001 +1.6856006244E+002  +3.4872362721E-003 +6.9333266835E+001  +3.5549678998E-003 -8.4221461047E+001  +2.0057512443E-001 -1.6263847811E+002 
2011322.904 +1.3310279075E-001 +1.6680191364E+002  +1.1529861722E-003 +6.2684862477E+001  +9.1075793310E-004 -1.1824873897E+002  +2.2813349942E-001 -1.6291588142E+002 
2136468.085 +1.2747266812E-001 +1.6652451899E+002  +5.4424521072E-003 +8.9947506374E+001  +4.8680685387E-003 -4.0216336134E+001  +1.9957553661E-001 -1.7775722459E+002 
2261613.267 +1.3692549767E-001 +1.6518078839E+002  +5.2201839095E-003 +1.1859517431E+002  +5.3389414082E-003 -4.5445994363E+001  +1.9612592034E-001 +1.7516715678E+002 
2386758.448 +1.3042141884E-001 +1.6373369600E+002  +8.7638901739E-003 +1.0474458437E+002  +9.0309556538E-003 -5.1231530907E+001  +1.6475676452E-001 -1.7856733954E+002 
2511903.630 +1.3174378955E-001 +1.6504713843E+002  +1.3698240313E-002 +7.6896522750E+001  +1.1035611480E-002 -5.3529920884E+001  +1.5549653243E-001 +1.7365746081E+002 
2637048.811 +1.2578267268E-001 +1.6972564651E+002  +8.7393320321E-003 +6.1046608601E+001  +5.1077072872E-003 -6.6505958102E+001  +2.0199773488E-001 -1.7209504025E+002 
2762193.992 +1.1480343266E-001 +1.7014146763E+002  +2.0970059815E-002 -8.6951483283E+000  +2.5771083949E-002 -1.0377324913E+002  +1.4141686913E-001 -1.0657119561E+002 
2887339.174 +1.2840066699E-001 +1.7487683007E+002  +7.6760278515E-003 +3.0810600611E+001  +9.6254893563E-003 -1.0840938026E+002  +1.4709343542E-001 -1.6594290778E+002 
3012484.355 +1.2038713241E-001 +1.7185538200E+002  +7.3377462940E-002 -3.8373871206E+000  +4.7117058161E-002 -1.0463660200E+002  +4.4948285377E-001 +1.0434126653E+000 
3137629.537 +1.2158222502E-001 +1.7563444167E+002  +1.5359697649E-002 +1.1577385231E+000  +1.7960824657E-002 -1.2166354651E+002  +1.9231255768E-001 -1.3318848502E+002 
3262774.718 +1.2077506093E-001 +1.5478570784E+002  +2.5653490302E-002 -8.6439759939E+000  +1.9422887577E-002 -9.7844880528E+001  +2.5595099308E-001 -9.5258574036E+001 
3387919.900 +1.4469023270E-001 +1.6545964166E+002  +2.8406549431E-002 -1.1092742910E+000  +1.8625940123E-002 -1.2026062008E+002  +1.3565556633E-001 -3.5104834087E+001 
3513065.081 +1.2598422411E-001 +1.4980915556E+002  +4.4999325134E-002 +6.2831989496E+001  +3.9847836139E-002 -1.9980944662E+001  +4.2720133291E-001 +1.0317171719E+002 
3638210.263 +1.6773639738E-001 +1.5111798140E+002  +3.2101974270E-002 +8.8083538204E+001  +2.7504502373E-002 +2.3290361019E+001  +4.6415511874E-001 +1.3107661312E+002 
3763355.444 +1.7232918557E-001 +1.5223876498E+002  +1.1094870819E-002 +1.0637257140E+002  +1.8745765985E-002 +3.5081302287E+001  +3.6092625662E-001 +1.5635055015E+002 
3888500.626 +1.9556503246E-001 +1.4781672803E+002  +2.7024404347E-002 +1.1124883248E+002  +3.4189714321E-002 +3.4310842874E+001  +4.4403784874E-001 +1.2920160143E+002 
4013645.807 +1.6373369619E-001 +1.4992641428E+002  +2.5175806197E-002 +7.5694804838E+001  +2.8450421768E-002 +1.2910803148E+001  +2.8477299776E-001 +1.2448715923E+002 
4138790.989 +1.7804743999E-001 +1.4202916338E+002  +4.2778008022E-002 +7.4331756970E+001  +4.3817931081E-002 +3.0817435418E+001  +4.0442761985E-001 +1.0348897243E+002 
4263936.170 +1.9608261286E-001 +1.4666550173E+002  +5.4753352274E-002 +1.1239461057E+002  +4.9744476152E-002 +3.9454868779E+001  +8.3798905550E-001 +1.2609674536E+002 
4389081.352 +2.0889038643E-001 +1.4475698215E+002  +3.0434157903E-002 +1.2032724653E+002  +4.3906212985E-002 +5.2941720863E+001  +6.0745009027E-001 +1.4233064025E+002 
4514226.533 +2.0872433143E-001 +1.3926749113E+002  +4.9442496696E-002 +8.7678259136E+001  +5.9154858103E-002 +3.0509358667E+001  +6.1410650816E-001 +9.9922743803E+001 
4639371.715 +2.6294773243E-001 +1.2863046624E+002  +3.9976953311E-001 +1.0245394130E+002  +2.3256044080E-001 +5.2321290230E+001  +4.1963652561E+000 +8.1679712210E+001 
4764516.896 +3.7805289014E-001 +1.2757493806E+002  +3.2142936747E-001 -1.1851012278E+002  +3.3972627048E-001 -1.7133358735E+002  +3.6293814041E+000 -1.7052666430E+002 
4889662.078 +3.7369959916E-001 +1.2881787136E+002  +1.5104341823E-001 -8.4561890115E+001  +1.6928282189E-001 -1.2678298039E+002  +2.2891766655E+000 -1.3318171113E+002 
5014807.259 +2.8948838746E-001 +1.1498605337E+002  +2.5862392594E-001 +1.7044802964E+002  +2.2798304629E-001 +1.3201080847E+002  +3.2980143979E+000 +1.6732122451E+002 
5139952.441 +2.8163780678E-001 +1.2889380388E+002  +1.8002897154E-001 +1.0987463243E+002  +1.3261632598E-001 +7.1539840738E+001  +2.1111830434E+000 +1.1289753396E+002 
5265097.622 +3.7142488199E-001 +1.3830492738E+002  +8.4038086220E-002 +1.0716269665E+002  +9.1711917235E-002 +6.7639306100E+001  +1.3712324901E+000 +9.3980656431E+001 
5390242.804 +3.9432787801E-001 +1.3487135448E+002  +1.7135867482E-001 +1.0264157721E+002  +1.5386922793E-001 +6.7859984679E+001  +2.9692496779E+000 +8.6665028220E+001 
5515387.985 +4.5067535156E-001 +1.2183823368E+002  +2.1850228042E-001 +9.7396431745E+001  +2.6198088262E-001 +5.1949055405E+001  +2.7466394073E+000 +6.9086336470E+001 
5640533.166 +3.8968690917E-001 +1.2898459737E+002  +1.5431815559E-001 +8.7154351590E+001  +1.2416383346E-001 +5.5813058052E+001  +2.0920355732E+000 +7.9002311969E+001 
5765678.348 +4.8278644336E-001 +1.2721817707E+002  +1.3671627206E-001 +8.8442945067E+001  +1.3704135902E-001 +5.2868685078E+001  +1.8479874349E+000 +7.3901946336E+001 
5890823.529 +5.1563699274E-001 +1.3151912125E+002  +1.2471169477E-001 +6.3688087027E+001  +1.1257856166E-001 +4.0198164711E+001  +1.7837511435E+000 +4.4387284271E+001 
6015968.711 +5.4628744305E-001 +1.1166647365E+002  +1.3626022958E-001 +5.7363750391E+001  +1.2923826562E-001 +3.3747818504E+001  +1.3140587820E+000 +5.2123353771E+001 
6141113.892 +6.3517289873E-001 +1.1944081112E+002  +1.3355338128E-001 +5.9155658318E+001  +1.1337699220E-001 +3.2165973385E+001  +1.3594108813E+000 +3.1849532300E+001 
6266259.074 +7.3469520540E-001 +9.8339242602E+001  +1.9003591455E-001 +6.8077314696E+001  +2.0751734788E-001 +3.7990332536E+001  +1.6641864122E+000 +5.2896277656E+001 
6391404.255 +7.7587003984E-001 +9.5397642605E+001  +1.6484978807E-001 +3.7713180974E+001  +1.6226607261E-001 +2.2486172483E+001  +1.4066487820E+000 +2.7535015973E+001 
6516549.437 +1.1400501585E+000 +8.2782175332E+001  +2.0237742416E-001 +2.8992892235E+001  +1.9793887683E-001 +2.1026606014E+001  +1.3685323882E+000 +3.9888831441E+000 
6641694.618 +1.2845256617E+000 +7.0367591991E+001  +2.1440873274E-001 +2.2591256179E+001  +1.8027299249E-001 +1.3668677626E+001  +1.3334420063E+000 +6.9279100197E+000 
6766839.800 +1.0247637480E+000 +5.0322196685E+001  +1.5946353700E-001 +5.5884241333E+000  +1.3645413890E-001 -1.5055535912E+000  +1.1150355041E+000 +6.2794577293E-001 
6891984.981 +1.7921521318E+000 +2.5812640318E+001  +2.2061550553E-001 -1.5681670395E+000  +1.9612882851E-001 +3.0613727062E-001  +1.0192532015E+000 +1.9855585467E+000 
7017130.163 +1.2555796231E+000 +7.8458928561E+000  +1.3789904893E-001 -8.1630732450E+000  +1.5069841490E-001 -1.2046989544E+001  +1.2797750000E+000 -1.6149102968E+001 
7142275.344 +1.2943769321E+000 +1.5650390595E+001  +1.2810473251E-001 -2.9956968549E+000  +1.2189454583E-001 -8.0813114040E+000  +1.2304945734E+000 -1.4953741925E+001 
7267420.526 +1.1154769551E+000 +1.4126175043E+001  +1.0876959855E-001 +1.3660967558E+000  +1.1168398668E-001 +2.0606402530E-001  +1.1183868190E+000 -1.2105517394E+001 
7392565.707 +1.2417060050E+000 -5.2205982510E+000  +1.0164874206E-001 +4.8631769891E+000  +1.0488649934E-001 +7.6178059194E+000  +1.3360139892E+000 -1.0945557704E+001 
7517710.889 +1.1164070142E+000 +1.9860752536E+000  +8.9736646573E-002 +6.7836948544E+000  +9.2223274697E-002 +8.4351417655E+000  +1.1542810410E+000 -2.4041937513E+000 
7642856.070 +9.6357786870E-001 +3.9234167651E+000  +8.1829646339E-002 +5.5165602191E+000  +8.6711450615E-002 +4.0262939330E+000  +9.3043726334E-001 -8.0237025598E+000 
7768001.252 +8.2892091843E-001 +2.5658104064E+000  +8.6702627964E-002 +7.8087211725E-001  +9.2386140450E-002 +8.4217756272E+000  +9.1506124835E-001 -3.0398538110E+000 
7893146.433 +8.1577024055E-001 -1.9937737163E+000  +7.9761703332E-002 -4.0585504333E+000  +7.5867854425E-002 +2.4464442064E+000  +7.5201224531E-001 +2.2127786145E+000 
8018291.615 +7.7917041329E-001 +1.6894300247E+000  +8.3301349077E-002 -5.1377857281E+000  +7.5243658112E-002 +5.3553231979E+000  +7.4946404226E-001 -6.6485779968E+000 
8143436.796 +6.9871030111E-001 +1.1423497364E+001  +7.1794255278E-002 -1.9043124345E+000  +7.2878778766E-002 +8.6873912067E+000  +6.6415180800E-001 -1.0107968663E-001 
8268581.977 +6.7336463297E-001 +8.8922366500E+000  +7.5979496948E-002 -5.8163976318E-001  +7.3259890201E-002 +8.1060718962E+000  +7.9429147875E-001 -1.1419517928E+000 
8393727.159 +6.3774040460E-001 +8.4523587564E+000  +7.2155946629E-002 +2.0810205669E+000  +6.8265519275E-002 +6.7711964535E+000  +6.8168915111E-001 +2.2871756598E+000 
8518872.340 +5.5981652611E-001 +1.0527152057E+001  +6.2249836403E-002 -3.6024962198E+000  +6.6586035454E-002 +1.1462346165E+001  +6.5505538554E-001 -1.1382694114E+000 
8644017.522 +6.2663800643E-001 +9.6420696783E+000  +6.4189734851E-002 +2.6097720142E-001  +6.5204585524E-002 +8.0578993561E+000  +6.4233153863E-001 +2.4512687966E+000 
8769162.703 +5.8853023012E-001 +1.4268562133E+001  +6.7664597939E-002 -5.7568438169E+000  +6.4923924218E-002 +1.0826626693E+001  +5.9392594186E-001 +1.3884989537E+000 
8894307.885 +4.6374555157E-001 +5.8043242910E+000  +6.8228092230E-002 -3.7198196560E+000  +6.7140268442E-002 +1.2692881412E+001  +5.8220835391E-001 +1.5109661873E+000 
9019453.066 +5.2567390732E-001 +1.0615057439E+001  +6.6241116743E-002 -3.3554796516E+000  +6.8324622822E-002 +1.2699039936E+001  +5.7758212712E-001 +3.1269021821E+000 
9144598.248 +4.6893836168E-001 +7.0967797528E+000  +6.7454230467E-002 -4.9649550126E+000  +6.7270253690E-002 +6.8686937662E+000  +5.3780421661E-001 +7.3801764107E-001 
9269743.429 +5.1315208867E-001 +9.2726666145E-001  +6.3954010938E-002 -3.3968636313E+000  +6.1813963755E-002 +1.3416500099E+001  +5.6730826130E-001 +1.8182582205E+000 
9394888.611 +4.8899613382E-001 +1.3025338407E+001  +6.2346634396E-002 -3.6614394853E+000  +6.7022233733E-002 +1.3685927760E+001  +5.2623072531E-001 +1.0734898727E+000 
9520033.792 +4.5430032993E-001 +6.1979482031E+000  +6.4588121211E-002 -4.9474915522E+000  +6.6744927454E-002 +1.1644776258E+001  +4.9857608151E-001 -3.6345517309E+000 
9645178.974 +4.7524417769E-001 +7.8507576388E+000  +6.7979894633E-002 -3.9871188893E+000  +6.5423872666E-002 +1.1869806643E+001  +5.0711087277E-001 -2.4849797441E+000 
9770324.155 +5.1843666508E-001 +6.0438717262E-001  +6.7210706717E-002 -1.7686064649E+000  +6.8120879188E-002 +1.2945660029E+001  +5.2213396159E-001 -4.3463466711E+000 
9895469.337 +4.4110554176E-001 +2.6976893568E+000  +6.7276061701E-002 -3.4158439205E+000  +6.5994851145E-002 +1.2761401316E+001  +4.9215712757E-001 -7.4709137144E+000 
10020614.518 +5.2612514705E-001 +4.1476807620E+000  +6.5864454614E-002 -1.4586121053E+000  +6.6806613420E-002 +1.1094524681E+001  +4.8039941164E-001 -7.7634825794E+000 
10145759.700 +4.7738719718E-001 +9.2085213865E+000  +7.0917558439E-002 -5.3767057277E+000  +6.6546348878E-002 +1.2045906847E+001  +5.3076446068E-001 -2.2391721835E-001 
10270904.881 +4.9236478557E-001 +7.9298786010E+000  +6.6834071149E-002 -3.3171267394E+000  +6.7693006917E-002 +1.0618324211E+001  +4.6151861893E-001 -1.7150379966E+000 
10396050.063 +5.2303286361E-001 +9.2207068163E+000  +6.7173947968E-002 -1.1030246450E+000  +6.7546026083E-002 +1.2044997626E+001  +5.1935905943E-001 -5.1343068881E+000 
10521195.244 +4.9981446815E-001 +8.8732760805E+000  +6.7100050732E-002 -3.4615234481E-001  +6.7042212515E-002 +1.3732338086E+001  +5.1133556068E-001 -8.6390207997E-001 
10646340.426 +4.5279977486E-001 +9.3435682362E+000  +6.8754147158E-002 -1.5950008831E+000  +6.8055678655E-002 +1.4390245919E+001  +5.2032366825E-001 +1.0303820219E+000 
10771485.607 +5.3942330158E-001 +7.2651282183E+000  +6.8124491453E-002 -2.5980451791E+000  +6.9178517736E-002 +1.2354541652E+001  +5.0832387974E-001 +3.2856261461E+000 
10896630.788 +5.0616550941E-001 +9.8269282424E+000  +6.9307451825E-002 -2.2503078779E-002  +7.1914100990E-002 +1.3176633924E+001  +5.5582024606E-001 +9.4685863568E-001 
11021775.970 +5.4164621480E-001 +1.0312538736E+001  +6.8451632032E-002 +7.5257803739E-001  +6.8063915862E-002 +1.4954386609E+001  +5.3709781755E-001 +4.0693801326E+000 
11146921.151 +5.2378740964E-001 +1.1438911819E+001  +6.9380745734E-002 -3.3382896470E-001  +6.7940343248E-002 +1.5142546002E+001  +5.6477922302E-001 +2.1038353858E+000 
11272066.333 +5.4654194892E-001 +7.5492143683E+000  +7.2740554123E-002 -6.0479621263E-001  +7.2751579117E-002 +1.3363752987E+001  +5.5290912635E-001 +1.9361497393E+000 
11397211.514 +5.2237827370E-001 +6.0266927194E+000  +7.3292907912E-002 +5.5279338510E-002  +7.0797104125E-002 +1.1362529746E+001  +5.4212654782E-001 +3.9070179883E+000 
11522356.696 +5.4978649462E-001 +7.6036584107E+000  +7.3714851621E-002 +1.1488661077E+000  +7.3308607208E-002 +1.1653487207E+001  +5.6666299507E-001 +1.5517485313E+000 
11647501.877 +5.5935020710E-001 +5.9913405024E+000  +7.2704768732E-002 +1.2598311868E+000  +7.4739221865E-002 +1.2637378965E+001  +5.8150841276E-001 +1.7542095390E+000 
11772647.059 +5.9526756336E-001 +9.8300254144E+000  +7.4971848741E-002 +3.5057328293E+000  +7.2631501044E-002 +1.2741428966E+001  +5.8658465711E-001 +3.0957435843E+000 
11897792.240 +5.8587217663E-001 +5.7519250053E+000  +7.5056986219E-002 +2.8105999093E+000  +7.5027463653E-002 +1.3451274486E+001  +6.4193702008E-001 +6.8870977517E-001 
12022937.422 +5.9469830496E-001 +7.4629541970E+000  +7.6206654271E-002 +3.0840738268E+000  +7.4523098169E-002 +9.5285593883E+000  +6.2101057176E-001 -3.3065820266E-001 
12148082.603 +6.0260389277E-001 +6.8414603284E+000  +7.6443739342E-002 +1.5319019242E+000  +7.4330954412E-002 +1.0319522921E+001  +6.2536664887E-001 +1.2551353926E+000 
12273227.785 +6.0195891756E-001 +2.8091288362E+000  +7.8656205895E-002 +1.7698522980E+000  +7.6841016969E-002 +9.5619448739E+000  +6.5417314338E-001 +2.6224501870E+000 
12398372.966 +6.4121811359E-001 +3.5647650226E+000  +8.0018585187E-002 +2.6862680465E+000  +7.8543936208E-002 +9.5687624945E+000  +6.3172841949E-001 +6.8350715555E-001 
12523518.148 +6.5372959092E-001 +7.0283420298E+000  +7.8763140246E-002 +2.1921814526E+000  +7.7679594005E-002 +9.2265179378E+000  +6.6349815611E-001 +2.9953089656E+000 
12648663.329 +6.7868607323E-001 +3.6228681029E+000  +8.0893822139E-002 +2.9532891570E+000  +8.1717974225E-002 +8.2932549127E+000  +6.4685652518E-001 +5.7244323912E-001 
12773808.511 +6.7219892218E-001 +1.8600854563E+000  +8.1122195153E-002 +2.6608004874E+000  +8.0649367588E-002 +8.6504528487E+000  +6.9631020166E-001 -3.1864226885E-001 
12898953.692 +6.9913102660E-001 +8.8785477503E-001  +8.2192576036E-002 +2.7320319075E+000  +8.2407322216E-002 +7.6080578534E+000  +7.2831325677E-001 -5.3857537808E-001 
13024098.874 +6.9835530847E-001 +6.7200173910E-001  +8.2581137983E-002 +3.4419481117E+000  +8.1722608324E-002 +7.8802011424E+000  +7.1471217992E-001 -1.0775810904E+000 
13149244.055 +7.0083249778E-001 -6.3854611221E-001  +8.4463093235E-002 +2.5201599563E+000  +8.1417130797E-002 +6.2860286214E+000  +7.3146550836E-001 -1.7105828406E+000 
13274389.237 +7.5099013838E-001 -1.2454241147E-001  +8.4471202895E-002 +2.3985503401E+000  +8.3272870092E-002 +6.5301810901E+000  +7.3279004293E-001 -2.1525041688E+000 
13399534.418 +7.6584010703E-001 -1.0979176721E+000  +8.4538808377E-002 +3.0156531369E+000  +8.4760979466E-002 +7.1930275425E+000  +7.7795117740E-001 +3.7391971671E-001 
13524679.599 +7.6307930172E-001 -1.8577866984E+000  +8.7101481033E-002 +3.0985262411E+000  +8.4843660493E-002 +6.3016772811E+000  +7.8430975262E-001 -6.5549704304E-001 
13649824.781 +7.9150683556E-001 -2.0574989747E+000  +8.6335666765E-002 +3.2088420897E+000  +8.7460024933E-002 +5.2925660455E+000  +8.1086865266E-001 -2.4798769402E+000 
13774969.962 +8.1635596290E-001 -3.6936581719E+000  +8.8171204067E-002 +2.9690729574E+000  +8.5804840485E-002 +3.8031728238E+000  +7.8555007579E-001 -3.2695396270E+000 
13900115.144 +8.2441064032E-001 -2.8129187224E+000  +8.8318275900E-002 +2.4317019928E+000  +8.7546536362E-002 +4.3307606454E+000  +8.1948713509E-001 -2.5668391931E+000 
14025260.325 +8.4933370809E-001 -3.1069387426E+000  +8.7952365848E-002 +3.5928587195E+000  +8.6718420715E-002 +3.6445839810E+000  +8.4456898553E-001 -4.0952142417E+000 
14150405.507 +8.4016065502E-001 -4.4746925902E+000  +8.8187451279E-002 +1.3361514385E+000  +8.8018007504E-002 +3.3644914927E+000  +8.7225158245E-001 -4.3517808163E+000 
14275550.688 +8.5721462379E-001 -4.9192316582E+000  +8.9298992588E-002 +1.8997774569E+000  +8.7202978880E-002 +2.3289411333E+000  +8.9025141799E-001 -5.0417965669E+000 
14400695.870 +8.8167222989E-001 -4.7439309934E+000  +8.9117079187E-002 +1.7572211633E+000  +8.8316955953E-002 +2.1482713142E+000  +8.8540526357E-001 -5.3505072449E+000 
