!  2-Port S-parameters saved by WinCal
! VAR MeasName=S-Parameters (CALIBRATED_DATA) read from VNA (P5004A)
! VAR MeasDate=29/08/2024 15:24:29
! VAR NAME=f39_RESET2_9k-100M_3
! VAR FILENAME=f39_RESET2_9k-100M_3.S2P
! VAR DATE=29/08/2024 15:24:29
! VAR PHYS_PORTS=1,2
! VAR ObjTypeName=DATASET
! VAR IndexType=Frequency
!
# Hz S MA R 50
9000.000 +7.5701955007E-002 -1.6851779114E+002  +5.0559199838E-003 -7.0456790674E+001  +9.8026203086E-003 +3.7663643640E-001  +1.9375511240E-001 -1.5024444041E+002 
134145.181 +1.1107087478E-001 +1.6945960543E+002  +5.3428021362E-004 +5.8022785229E+001  +5.6106471367E-004 +8.4933265091E+001  +2.3933720963E-001 -1.7066445333E+002 
259290.363 +1.1230685885E-001 +1.6924714229E+002  +7.6275489382E-004 -2.0397549427E+001  +3.7334290444E-004 +9.1366930119E+001  +2.4463289688E-001 -1.7065306732E+002 
384435.544 +1.1355483139E-001 +1.7012549152E+002  +1.0807837371E-003 -9.1144649529E+001  +9.8317883664E-004 +5.7514820817E+001  +2.4456227999E-001 -1.6945247593E+002 
509580.726 +1.1460008364E-001 +1.7134037806E+002  +1.5830682259E-003 -1.7106603728E+000  +1.3038260000E-003 +1.7893904625E+002  +2.2791868622E-001 -1.6398316157E+002 
634725.907 +1.1741961891E-001 +1.7203006484E+002  +1.9139947163E-003 -9.3969899737E+001  +2.0591909515E-003 +7.9828712062E+001  +2.4843454417E-001 -1.6655614482E+002 
759871.089 +1.1970913270E-001 +1.7098109243E+002  +1.4328183454E-003 -7.0493559372E+001  +1.8508988553E-003 +1.2673993182E+002  +2.4677108216E-001 -1.6470015519E+002 
885016.270 +1.2118075412E-001 +1.6870200358E+002  +1.0249160746E-003 -3.1389566188E+001  +8.8356635995E-004 +1.4008854320E+002  +2.4738789830E-001 -1.6838799641E+002 
1010161.452 +1.1723511113E-001 +1.6997719448E+002  +2.2080458278E-003 +1.4890826302E+001  +2.2080709252E-003 -1.6799793229E+002  +2.2584013360E-001 -1.6893857767E+002 
1135306.633 +1.1580849287E-001 +1.6989129831E+002  +5.0002994055E-003 +8.9689714040E+000  +4.2744633516E-003 -1.4648133232E+002  +1.9683283990E-001 -1.6079072920E+002 
1260451.815 +1.1924228719E-001 +1.7019775778E+002  +2.7953666656E-003 +4.6389657990E+000  +4.0906503976E-003 -1.4772725168E+002  +2.1683223391E-001 -1.6239865587E+002 
1385596.996 +1.2711190015E-001 +1.7188234911E+002  +2.9321522379E-003 -5.4376061730E+001  +4.2650355944E-003 +1.6209538488E+002  +2.5401618313E-001 -1.5195327233E+002 
1510742.178 +1.2776879936E-001 +1.7106724184E+002  +7.8771662734E-004 -4.2891669447E+000  +2.3550670584E-003 -1.7208353918E+002  +2.5623747718E-001 -1.6054830693E+002 
1635887.359 +1.2843669580E-001 +1.6974086347E+002  +2.4541991872E-003 +9.7675711859E+000  +2.1239701741E-003 -1.0079919427E+002  +2.3739049778E-001 -1.6133043227E+002 
1761032.541 +1.2965091020E-001 +1.6956561337E+002  +4.7028347169E-003 +3.1802560458E+001  +3.7847174808E-003 -1.1786970718E+002  +2.2489105489E-001 -1.5783516786E+002 
1886177.722 +1.3453584931E-001 +1.6879236642E+002  +4.1497178610E-003 +7.4450712259E+001  +3.3910613175E-003 -6.9850128457E+001  +2.2820553204E-001 -1.6240264607E+002 
2011322.904 +1.3181891920E-001 +1.6602965616E+002  +1.1211860799E-002 +9.1608360754E+001  +1.0411511731E-002 -4.5443517267E+001  +2.0028549396E-001 -1.6288045554E+002 
2136468.085 +1.2957147502E-001 +1.6924686417E+002  +1.3588062910E-002 +5.3090678807E+001  +1.6678040163E-002 -6.5742881395E+001  +2.0702525916E-001 -1.5702932134E+002 
2261613.267 +1.2418482470E-001 +1.6821788575E+002  +2.3471345540E-002 +6.7629012143E+001  +2.7798556148E-002 -5.8137310917E+001  +1.7711138040E-001 -1.6436375506E+002 
2386758.448 +1.4033135496E-001 +1.6857334287E+002  +2.7241376761E-002 +7.7707708666E+001  +2.6365500370E-002 -4.8108641707E+001  +1.2690661538E-001 +1.7970251711E+002 
2511903.630 +1.4304297481E-001 +1.6436795185E+002  +2.3179795130E-002 +1.0375128777E+002  +2.2218337627E-002 -1.3364231835E+001  +2.1214017297E-001 +1.7874262041E+002 
2637048.811 +1.2861482577E-001 +1.6338978229E+002  +4.5200876859E-002 +7.8036587083E+001  +4.1492001777E-002 -4.2298553305E+001  +1.5693966088E-001 -1.7202230201E+002 
2762193.992 +1.1080072599E-001 +1.6539863729E+002  +1.0534527024E-001 +7.4253198049E+001  +1.0548294730E-001 -3.6225455941E+001  +1.7165499870E-001 +1.0172468862E+002 
2887339.174 +1.2717203595E-001 -1.7711885319E+002  +9.2960768175E-002 +8.2227412049E+000  +9.4070017108E-002 -9.4262484502E+001  +1.2567045214E-001 -1.0259407682E+002 
3012484.355 +1.3400812513E-001 +1.7222467781E+002  +5.3564652570E-002 -1.0781152644E+001  +5.0087973906E-002 -1.1247515357E+002  +2.8251408221E-001 -1.2732645852E+002 
3137629.537 +1.4192455859E-001 +1.7355385648E+002  +4.3866064024E-002 +1.7584437449E+001  +4.4243550869E-002 -7.8812054148E+001  +1.9684096125E-001 -1.4510378797E+002 
3262774.718 +1.3502973722E-001 +1.7931942176E+002  +5.9172174475E-002 +1.5434969558E+001  +5.8155767675E-002 -8.2204330708E+001  +1.9230271296E-001 -1.4643962884E+002 
3387919.900 +1.4893324969E-001 +1.6475896848E+002  +6.1879039511E-002 +4.2494572279E+001  +6.1786791780E-002 -4.6219947914E+001  +1.1605984076E-001 -1.3506938037E+002 
3513065.081 +1.4011447901E-001 +1.6254832165E+002  +1.0777013340E-001 +5.4040428441E+001  +1.0639721581E-001 -3.3509513598E+001  +9.4398339571E-002 +5.8444299847E+001 
3638210.263 +1.6005993979E-001 +1.4189353512E+002  +1.1487148359E-001 +9.7710709991E+001  +1.1387325169E-001 +1.7841426098E+001  +2.4674586425E-001 +1.4073042175E+002 
3763355.444 +1.6748208749E-001 +1.4453104437E+002  +1.7513438387E-001 +9.7269141366E+001  +1.7030409558E-001 +1.9362580629E+001  +4.6699501898E-001 +1.0326883026E+002 
3888500.626 +1.7914545220E-001 +1.5266689670E+002  +1.2403202130E-001 +8.3444570698E+001  +1.1686858297E-001 +1.0376024594E+001  +2.6340253200E-001 +9.9521071759E+001 
4013645.807 +1.7176651494E-001 +1.5135461866E+002  +1.0176848252E-001 +8.7075558608E+001  +9.6263058784E-002 +2.1125382220E+001  +2.8919311496E-001 +1.4917786877E+002 
4138790.989 +1.8094161816E-001 +1.5686386245E+002  +8.4406424707E-002 +8.1411086730E+001  +8.3030442608E-002 +1.6084532213E+001  +2.8193279348E-001 +1.5218961496E+002 
4263936.170 +1.5908933663E-001 +1.4963996641E+002  +1.1953690901E-001 +7.5634598655E+001  +1.2018068855E-001 +1.1855315309E+001  +2.7220214091E-001 +1.4641434647E+002 
4389081.352 +2.2115369430E-001 +1.5045236304E+002  +9.0672764997E-002 +8.7569673376E+001  +8.0118413226E-002 +2.5464798785E+001  +2.4567711155E-001 +1.6539732084E+002 
4514226.533 +1.9662721980E-001 +1.4826972915E+002  +1.2669498556E-001 +8.2209271094E+001  +1.2343465018E-001 +2.6660791644E+001  +3.2136605510E-001 +1.3863566812E+002 
4639371.715 +2.4535813771E-001 +1.4257668026E+002  +1.6227824419E-001 +1.0148807803E+002  +1.5780209425E-001 +4.9010882587E+001  +4.5074710909E-001 +1.3333880714E+002 
4764516.896 +4.8308868779E-001 +1.2658137391E+002  +6.5968236428E-001 +1.3825743986E+002  +6.7079437248E-001 +8.7979187940E+001  +1.6825163429E+000 +1.2744162069E+002 
4889662.078 +1.5370999930E+000 +1.6013133294E+002  +3.2861284235E+000 -1.7827066786E+002  +3.1880080150E+000 +1.3236567358E+002  +8.2440530646E+000 +1.5222431039E+002 
5014807.259 +4.3573308606E-001 +1.3711388852E+002  +6.4691152922E-001 +1.3483408117E+002  +6.1903246189E-001 +8.6776008963E+001  +2.2599465144E+000 +1.1626672913E+002 
5139952.441 +3.2531011634E-001 +1.3503027917E+002  +3.0048571340E-001 +1.1550118996E+002  +2.9300162343E-001 +7.0858152857E+001  +9.7965631477E-001 +1.2859301888E+002 
5265097.622 +3.7035099760E-001 +1.3401839709E+002  +3.7001660937E-001 +1.1758454945E+002  +3.5466400154E-001 +8.0352445040E+001  +1.2112675081E+000 +1.2484080049E+002 
5390242.804 +2.9878649371E-001 +1.3729803725E+002  +2.1507684304E-001 +9.7217388132E+001  +2.0986782617E-001 +5.9540135677E+001  +7.1940825649E-001 +1.4075565829E+002 
5515387.985 +3.5287725158E-001 +1.3833727221E+002  +2.0052582190E-001 +1.0013813060E+002  +1.9455611258E-001 +6.6476596732E+001  +6.6713756392E-001 +1.4232480697E+002 
5640533.166 +2.9209980403E-001 +1.2668833309E+002  +3.0577341936E-001 +6.8431887944E+001  +2.9557614847E-001 +3.7183093040E+001  +5.9157466200E-001 +1.0662958646E+002 
5765678.348 +4.2796627833E-001 +1.3045902032E+002  +3.1428286262E-001 +9.3467481227E+001  +2.9825624622E-001 +6.6819437403E+001  +8.3800935407E-001 +1.2161710706E+002 
5890823.529 +3.6077023261E-001 +1.2013963146E+002  +3.9315151295E-001 +8.0119032650E+001  +3.8233289897E-001 +5.3023608387E+001  +1.0313350424E+000 +1.1581485773E+002 
6015968.711 +3.9069484843E-001 +1.1290112711E+002  +5.7049662874E-001 +6.4468519549E+001  +5.5931092981E-001 +4.1723601842E+001  +1.4973452329E+000 +7.9531408138E+001 
6141113.892 +4.8017163697E-001 +1.0808674755E+002  +5.4426304382E-001 +6.7447032199E+001  +5.5180523623E-001 +4.6968276413E+001  +1.2404862627E+000 +8.5905710857E+001 
6266259.074 +5.3447558607E-001 +1.1221099747E+002  +5.3496215010E-001 +6.5213667121E+001  +5.2124080038E-001 +4.6621370518E+001  +1.2196035045E+000 +7.8711820503E+001 
6391404.255 +3.8998211890E-001 +8.1019818955E+001  +6.2202338749E-001 +3.0039263752E+001  +6.1335493795E-001 +1.3994423894E+001  +8.9034080127E-001 +3.9328131414E+001 
6516549.437 +6.6560529563E-001 +6.4539652215E+001  +9.0030178396E-001 +3.6322439700E+001  +8.8653882597E-001 +2.2396191037E+001  +1.5309870262E+000 +4.4671965673E+001 
6641694.618 +4.3531147942E-001 +6.8346693137E+001  +6.2265448207E-001 +2.1041004946E+001  +6.3359812617E-001 +1.0515873295E+001  +8.6395430601E-001 +3.3865923110E+001 
6766839.800 +4.5328819270E-001 +2.2567398996E+001  +7.4193102999E-001 +5.8281076393E+000  +7.1828146658E-001 -3.3883472514E+000  +9.2724620474E-001 +1.9047113105E+001 
6891984.981 +5.3829621709E-001 +3.2737396006E+001  +6.6878150982E-001 +5.7132443288E+000  +6.6852515740E-001 -1.1013286054E+000  +8.1022450679E-001 +2.6264577393E+000 
7017130.163 +5.3051292949E-001 +4.8800122399E+001  +5.8887907077E-001 +8.7713602592E+000  +5.7984875725E-001 +4.0024751688E+000  +6.9207795885E-001 +7.0674463677E+000 
7142275.344 +5.8799042762E-001 +8.0603879924E+000  +6.1750665499E-001 +1.4020252795E+000  +6.1246362093E-001 -2.6472173372E+000  +5.8686722544E-001 +1.0405379940E+001 
7267420.526 +6.4460547675E-001 -2.7623377285E+000  +5.8341046019E-001 -4.9839430078E-001  +5.9306355213E-001 -1.5526871583E+000  +6.5256353090E-001 -5.6194840018E+000 
7392565.707 +6.2580705025E-001 +2.9434884902E+000  +5.4085227864E-001 +4.8419030293E+000  +5.4703695539E-001 +5.3721962632E+000  +8.4562438041E-001 -8.0388142169E+000 
7517710.889 +5.2080868756E-001 -4.5938174302E-001  +5.0236272734E-001 +1.2817843899E+000  +5.0862833779E-001 +3.2249162832E+000  +5.3014341522E-001 -6.0488276542E+000 
7642856.070 +5.2302201194E-001 +9.9242685326E+000  +4.7837219847E-001 +1.0001394773E+000  +4.8211368073E-001 +4.4427700955E+000  +4.5501592755E-001 +2.6121213416E+000 
7768001.252 +4.5621552681E-001 +2.0911438257E+001  +4.5356194397E-001 +1.2004996271E-001  +4.5744419500E-001 +4.8603369508E+000  +4.0831071244E-001 -3.8439648472E+000 
7893146.433 +4.2441236306E-001 +1.5775502975E+001  +4.4296634433E-001 -1.1263737297E+000  +4.4480755500E-001 +5.5116388826E+000  +3.6683149390E-001 +3.3736651511E+000 
8018291.615 +3.0341619971E-001 +2.5546485689E+001  +4.2094629491E-001 -2.5455557320E+000  +4.1483249576E-001 +4.7092834924E+000  +3.7594521203E-001 +1.9925804305E+001 
8143436.796 +3.5896957064E-001 +2.1117633342E+001  +4.1723430665E-001 -3.3876014546E+000  +4.1395071597E-001 +5.7681067426E+000  +2.9510408657E-001 +2.2100228152E+001 
8268581.977 +2.8028086212E-001 +3.0462873171E+001  +4.0456265203E-001 -4.0419112843E+000  +3.9882253382E-001 +5.4002107061E+000  +2.8427794442E-001 +2.7321740898E+001 
8393727.159 +2.1101341543E-001 +2.7677923025E+001  +4.0047422132E-001 -4.9678816532E+000  +4.0013412405E-001 +6.4556393552E+000  +2.9058161753E-001 +1.9743765869E+001 
8518872.340 +2.8410607520E-001 +2.8728136666E+001  +3.9523682453E-001 -4.1684335714E+000  +3.9856199245E-001 +6.7648603565E+000  +2.8123620534E-001 +1.3894406493E+001 
8644017.522 +2.4513354257E-001 +2.7292029071E+001  +3.9740003517E-001 -4.8774468481E+000  +3.9242529356E-001 +7.5543464196E+000  +2.3301948026E-001 +1.1055080205E+001 
8769162.703 +2.3791683122E-001 +2.4727447597E+001  +3.8958424990E-001 -5.1824610236E+000  +3.8964717007E-001 +7.4715850690E+000  +2.5510160823E-001 +1.6428774082E+001 
8894307.885 +2.2455845668E-001 +3.5844573717E+001  +3.8235276356E-001 -5.5153889622E+000  +3.7892641732E-001 +8.9235179585E+000  +2.7355047248E-001 +2.4994870756E+001 
9019453.066 +2.0509553795E-001 +4.3477068867E+001  +3.8110923465E-001 -6.1710579160E+000  +3.7776263359E-001 +8.2814292499E+000  +2.3503556685E-001 +1.7110169775E+001 
9144598.248 +1.8024969882E-001 +2.3733203780E+001  +3.8449754751E-001 -6.1807632099E+000  +3.8387976161E-001 +8.8756140500E+000  +2.1184295129E-001 +1.7504073850E+001 
9269743.429 +1.2237645007E-001 +3.5278115115E+001  +3.7941116063E-001 -7.0872248027E+000  +3.7548377105E-001 +8.2742720670E+000  +2.1401548798E-001 +2.1623260761E+001 
9394888.611 +2.0126499365E-001 +2.2355035889E+001  +3.8119806472E-001 -5.9174438563E+000  +3.7862829999E-001 +8.8579768193E+000  +1.8854404781E-001 +3.7825763039E+001 
9520033.792 +1.3183847214E-001 +3.2668999962E+001  +3.7832482902E-001 -7.4188830509E+000  +3.7981548961E-001 +8.7583705154E+000  +1.4228435730E-001 +1.9677499304E+001 
9645178.974 +1.1783687136E-001 +3.6536131245E+001  +3.7691359937E-001 -7.2708402867E+000  +3.7657690679E-001 +8.4496822743E+000  +1.6810763771E-001 +3.0096664539E+001 
9770324.155 +1.0393036601E-001 +5.0612409539E+001  +3.7503896675E-001 -7.4139710515E+000  +3.7633658158E-001 +8.9418791134E+000  +1.8212026230E-001 +1.7792022460E+001 
9895469.337 +1.5849721247E-001 +2.1028549269E+001  +3.8660904159E-001 -6.7890327380E+000  +3.8027499036E-001 +9.5727396675E+000  +1.3667815329E-001 +1.3375324334E+001 
10020614.518 +1.5435499500E-001 +3.2521661653E+001  +3.8688430438E-001 -6.3325001010E+000  +3.8279232324E-001 +9.7610181357E+000  +1.4759171310E-001 +2.2763058648E+001 
10145759.700 +1.4001589756E-001 +4.1939989192E+001  +3.7975586775E-001 -6.3247811273E+000  +3.7964545728E-001 +9.3079132375E+000  +1.8855930717E-001 +3.1530649829E+001 
10270904.881 +1.7030070278E-001 +4.0058046313E+001  +3.8116943626E-001 -5.3463625858E+000  +3.8168253205E-001 +1.0408325759E+001  +2.0408530450E-001 +2.4572025152E+001 
10396050.063 +1.6790296850E-001 +3.5407571352E+001  +3.8342960414E-001 -5.6674314131E+000  +3.7990321714E-001 +9.6679503800E+000  +1.6464559780E-001 +4.3156242516E+001 
10521195.244 +1.8171637450E-001 +4.3759567042E+001  +3.8087839297E-001 -4.7699742780E+000  +3.8113620580E-001 +9.9044528145E+000  +1.9955650341E-001 +2.9139918957E+001 
10646340.426 +1.7922151974E-001 +3.5854385518E+001  +3.8742717930E-001 -4.9134572122E+000  +3.8536407446E-001 +9.4701060768E+000  +1.7302644426E-001 +3.4306047107E+001 
10771485.607 +2.0106221575E-001 +4.3109620297E+001  +3.8840110625E-001 -3.9440728072E+000  +3.8208233232E-001 +1.0465445294E+001  +2.3401684750E-001 +2.7926091984E+001 
10896630.788 +1.6298467790E-001 +2.9420841472E+001  +3.9765909404E-001 -4.4180549158E+000  +3.9246016922E-001 +9.7902539294E+000  +2.2390875682E-001 +2.6039593173E+001 
11021775.970 +2.0022462897E-001 +3.2260216390E+001  +3.9618424236E-001 -3.8287992438E+000  +3.9159764071E-001 +9.9704455890E+000  +2.1073636006E-001 +3.0819295706E+001 
11146921.151 +1.9585885861E-001 +3.6773492019E+001  +3.9801842798E-001 -3.5016849660E+000  +3.9561041998E-001 +9.6733957086E+000  +2.1615165905E-001 +2.8032207309E+001 
11272066.333 +2.1207009314E-001 +3.9556427449E+001  +3.9570658949E-001 -3.0737307880E+000  +3.9631999710E-001 +9.4880970510E+000  +2.1712715192E-001 +2.9175804551E+001 
11397211.514 +2.3210929150E-001 +2.9313130274E+001  +4.0715576555E-001 -2.4189197398E+000  +4.0278028428E-001 +9.6557201447E+000  +1.9938096301E-001 +2.5896675665E+001 
11522356.696 +2.2816554260E-001 +2.8736686540E+001  +4.0979233510E-001 -2.3014213991E+000  +4.0846083668E-001 +9.8756965596E+000  +2.3451757843E-001 +2.1225839249E+001 
11647501.877 +2.2536247364E-001 +3.1164547557E+001  +4.1237240329E-001 -2.4712688062E+000  +4.0899751089E-001 +8.8874760773E+000  +2.3927518609E-001 +2.4209485477E+001 
11772647.059 +2.2406557217E-001 +2.6300400878E+001  +4.1826798502E-001 -1.9678151862E+000  +4.1577979864E-001 +8.8147557461E+000  +2.4764953097E-001 +1.7962896083E+001 
11897792.240 +2.4632136163E-001 +2.7513018240E+001  +4.1968090985E-001 -1.4084482672E+000  +4.1723973650E-001 +8.5810125010E+000  +2.5078855917E-001 +2.0439963570E+001 
12022937.422 +2.2658322530E-001 +3.0124522317E+001  +4.2387887645E-001 -1.8608810500E+000  +4.2068685774E-001 +7.9405618413E+000  +2.6194240087E-001 +1.9601542867E+001 
12148082.603 +2.5943029823E-001 +2.6968437483E+001  +4.2835579689E-001 -1.1798775612E+000  +4.2554612142E-001 +7.9922853274E+000  +2.5662557795E-001 +1.4463339858E+001 
12273227.785 +2.4005380498E-001 +2.2008914436E+001  +4.3608804381E-001 -1.0204285459E+000  +4.3146540587E-001 +7.5555522935E+000  +2.7235770692E-001 +1.1781138761E+001 
12398372.966 +2.4569334165E-001 +1.3701749133E+001  +4.4254330488E-001 -9.5327916970E-001  +4.3628410520E-001 +6.7984643299E+000  +2.5945997794E-001 +1.9285378606E+001 
12523518.148 +2.8005535366E-001 +1.5530409371E+001  +4.4448487569E-001 -1.8711854085E-001  +4.3659275652E-001 +6.9087764566E+000  +2.8190948821E-001 +1.6477779048E+001 
12648663.329 +2.7955187009E-001 +1.2951311152E+001  +4.5283757326E-001 -8.7104869339E-002  +4.4689305915E-001 +6.6272296668E+000  +3.1095170250E-001 +1.0660710881E+001 
12773808.511 +2.8328239015E-001 +1.3994799008E+001  +4.5340419097E-001 -3.0064456688E-002  +4.5258469104E-001 +6.1496826481E+000  +2.9471378275E-001 +1.0945624800E+001 
12898953.692 +3.0170635942E-001 +1.0101617986E+001  +4.6026639388E-001 -9.3161467576E-002  +4.5497990719E-001 +5.4825866537E+000  +3.0787662523E-001 +1.0536428528E+001 
13024098.874 +2.9615045829E-001 +8.0255895312E+000  +4.6881196158E-001 +3.2756896399E-001  +4.6278450694E-001 +5.3060029984E+000  +3.2737022185E-001 +2.8807958663E+000 
13149244.055 +3.1503255564E-001 +3.7290326179E+000  +4.7329802112E-001 +6.0633564719E-001  +4.6830790725E-001 +5.0455632405E+000  +3.4214360613E-001 +4.5292303397E+000 
13274389.237 +3.4232125835E-001 +5.9502949289E+000  +4.7563686002E-001 +5.9779994469E-001  +4.7023191256E-001 +4.5801571738E+000  +3.3872002770E-001 +2.0917233974E+000 
13399534.418 +3.5061974801E-001 +6.5617592829E+000  +4.7768174061E-001 +8.2100117317E-001  +4.7405366121E-001 +4.3457976289E+000  +3.4481437258E-001 +4.0990403794E+000 
13524679.599 +3.5214823645E-001 +2.0291025323E+000  +4.8674679987E-001 +5.9828079221E-001  +4.8209437668E-001 +3.4415951698E+000  +3.5877256255E-001 +2.0698381193E-001 
13649824.781 +3.7989473199E-001 +1.6507143562E+000  +4.8645724379E-001 +6.9171409558E-001  +4.8306315233E-001 +3.0455786670E+000  +3.6055243594E-001 +2.9406048605E+000 
13774969.962 +3.8754074407E-001 +1.4829869471E+000  +4.9260886652E-001 +6.1549252454E-001  +4.8748230775E-001 +2.9178234985E+000  +3.7481717085E-001 +3.4971443264E-001 
13900115.144 +4.0995878356E-001 +4.3482066129E-001  +4.9765221658E-001 +1.1021679229E+000  +4.9220195196E-001 +2.7424978661E+000  +3.9175378612E-001 -2.7854505077E+000 
14025260.325 +4.1029027654E-001 -3.3419259272E-001  +5.0049260406E-001 +6.7199594468E-001  +4.9499685764E-001 +1.9939058333E+000  +3.8965123827E-001 -1.6376050725E+000 
14150405.507 +4.1876797624E-001 -4.5152240277E+000  +5.0732613895E-001 +8.2166596636E-001  +5.0198751586E-001 +2.2125997653E+000  +4.4455141587E-001 -3.4737058762E+000 
14275550.688 +4.3933780834E-001 -4.4615827550E+000  +5.1023384399E-001 +6.0257936946E-001  +5.0600085850E-001 +1.2981054788E+000  +4.2511154001E-001 -4.9498374685E+000 
14400695.870 +4.5134139000E-001 -5.1752393193E+000  +5.1347335004E-001 +6.3933196245E-001  +5.0711497155E-001 +1.1988657838E+000  +4.7111792235E-001 -4.1722588668E+000 
