!  2-Port S-parameters saved by WinCal
! VAR NAME=f39_RESET1_9k-100M_2
! VAR DATE=29/08/2024 15:20:47
! VAR FILENAME=f39_RESET1_9k-100M_2.S2P
! VAR MeasName=S-Parameters (CALIBRATED_DATA) read from VNA (P5004A)
! VAR MeasDate=29/08/2024 15:20:36
! VAR PHYS_PORTS=1,2
! VAR ObjTypeName=DATASET
! VAR IndexType=Frequency
!
# Hz S MA R 50
9000.000 +9.5235455464E-002 -1.6144521599E+002  +5.7752952490E-004 -1.9079823683E+001  +8.0121146781E-003 +1.0411001066E+002  +2.5908625181E-001 -1.4770363251E+002 
134145.181 +1.1174332170E-001 +1.6950595620E+002  +8.4635827405E-004 -1.8890071488E+001  +1.0400369358E-003 -4.0546728848E+001  +2.4092712114E-001 -1.7016651062E+002 
259290.363 +1.1306393959E-001 +1.6978735339E+002  +7.7800218822E-004 -7.7660591580E+001  +3.0186056698E-004 +9.4463248735E+001  +2.4284498907E-001 -1.6998770760E+002 
384435.544 +1.1496205981E-001 +1.7005147582E+002  +8.4787703143E-004 -6.8890062090E+001  +8.0815230099E-004 +1.0678802834E+002  +2.3797610703E-001 -1.6917998807E+002 
509580.726 +1.1482462583E-001 +1.7067304752E+002  +6.6631438259E-004 -1.6187294179E+001  +5.9815001213E-004 -1.6438146726E+002  +2.4862510519E-001 -1.6738494724E+002 
634725.907 +1.1715753132E-001 +1.7116108532E+002  +7.8182550094E-004 -2.8784485028E+001  +1.2952407597E-003 +1.5926219001E+002  +2.4307931902E-001 -1.6796582799E+002 
759871.089 +1.2046838199E-001 +1.7001251290E+002  +4.6497486074E-004 -6.3059008394E+001  +7.9538960975E-004 +1.1355790503E+002  +2.4878287478E-001 -1.6703121047E+002 
885016.270 +1.2105958231E-001 +1.6918829582E+002  +4.9287121684E-004 -8.1616046338E+001  +1.1900281647E-003 +1.5039818671E+002  +2.4683843691E-001 -1.6720356042E+002 
1010161.452 +1.1919666374E-001 +1.6922134259E+002  +2.0208150462E-003 +2.5892251927E+001  +2.3112689619E-003 -1.4779383592E+002  +2.1905134741E-001 -1.6695598310E+002 
1135306.633 +1.1645713377E-001 +1.6711521432E+002  +2.3780447877E-003 +7.9706326321E+001  +4.4071777971E-003 -1.1227024971E+002  +2.0496520148E-001 -1.6984479681E+002 
1260451.815 +1.2252463049E-001 +1.6980841129E+002  +2.7834747381E-003 -2.0533997591E+001  +3.1353355066E-003 -1.7415833010E+002  +2.4037255611E-001 -1.6313645443E+002 
1385596.996 +1.2721514697E-001 +1.7221010096E+002  +2.3847419720E-003 -7.7681510788E+001  +4.2307796335E-003 +1.4636927841E+002  +2.7701191654E-001 -1.5765729029E+002 
1510742.178 +1.2849796862E-001 +1.7238638738E+002  +3.7533412905E-003 -2.7775536832E+001  +4.0057960529E-003 -1.6380114223E+002  +2.5177120763E-001 -1.5963630617E+002 
1635887.359 +1.3260726812E-001 +1.7109107853E+002  +2.4213677298E-003 +5.4593299710E+000  +2.4907012510E-003 -1.3591400142E+002  +2.5742126364E-001 -1.6068019067E+002 
1761032.541 +1.2886651241E-001 +1.7038492372E+002  +6.3202926518E-003 +2.6599572650E+001  +6.1508764612E-003 -1.2578272048E+002  +2.3741085486E-001 -1.5420200561E+002 
1886177.722 +1.3242241857E-001 +1.6964070989E+002  +6.7727647228E-003 +6.5328252872E+001  +7.7729390605E-003 -7.2644254934E+001  +2.1881192178E-001 -1.6289328109E+002 
2011322.904 +1.2842087527E-001 +1.6705530269E+002  +1.4407582128E-002 +8.2941851006E+001  +1.5214598904E-002 -4.5879078895E+001  +2.0669328381E-001 -1.6364638814E+002 
2136468.085 +1.3263902808E-001 +1.6786980782E+002  +1.9139752055E-002 +8.1609273336E+001  +1.9766563977E-002 -5.1652874361E+001  +1.8742670132E-001 -1.6654414974E+002 
2261613.267 +1.2874088115E-001 +1.6576048450E+002  +2.1235121977E-002 +7.2781953018E+001  +2.4002743370E-002 -5.0838326997E+001  +2.1475093733E-001 -1.6082896364E+002 
2386758.448 +1.4134817169E-001 +1.6557037295E+002  +2.0523384427E-002 +8.4925747282E+001  +2.0042971648E-002 -2.9352002394E+001  +2.0610035788E-001 -1.6684425635E+002 
2511903.630 +1.3408148781E-001 +1.6782608308E+002  +2.9013425420E-002 +8.6096247610E+001  +2.9946013597E-002 -3.2866051647E+001  +2.1158459199E-001 -1.7496321877E+002 
2637048.811 +1.3507137266E-001 +1.6539787887E+002  +3.6375712124E-002 +6.9668439091E+001  +3.8440826955E-002 -3.9396428316E+001  +1.8312970967E-001 -1.6157114591E+002 
2762193.992 +1.3290188025E-001 +1.7254339477E+002  +6.2087119618E-002 +3.8412259185E+001  +6.2153705089E-002 -6.9604594583E+001  +1.2063162614E-001 -1.3707425332E+002 
2887339.174 +1.4672960124E-001 +1.7910145604E+002  +5.1070040449E-002 +3.4087540226E+000  +5.7612407889E-002 -9.9645937069E+001  +1.9778183024E-001 -1.3389323189E+002 
3012484.355 +1.1696755769E-001 -1.7550532017E+002  +1.1287484729E-001 +1.5789854709E+000  +1.1567650173E-001 -9.6453278419E+001  +2.7643049709E-001 -1.0348478698E+002 
3137629.537 +1.4186633048E-001 +1.7394400747E+002  +5.4481892749E-002 +1.1881906663E+001  +4.8248816445E-002 -8.1762866400E+001  +2.3664217494E-001 -1.3547386833E+002 
3262774.718 +1.4533337101E-001 +1.6802221361E+002  +5.8003124834E-002 +4.5641909014E+001  +6.0571758731E-002 -4.6513553741E+001  +1.5144942694E-001 -1.4837243637E+002 
3387919.900 +1.2363790687E-001 +1.7321521568E+002  +1.0704480060E-001 +3.9822201900E+001  +1.0150657932E-001 -4.9224300126E+001  +6.5791368755E-002 -1.3918863694E+002 
3513065.081 +9.6337824274E-002 +1.4345044298E+002  +1.5557981876E-001 +5.5773108276E+001  +1.4398838907E-001 -3.3979782696E+001  +5.4155501253E-002 -1.1294558352E+002 
3638210.263 +1.3561072430E-001 +1.5863552784E+002  +1.3654600684E-001 +8.1685868980E+001  +1.3886913113E-001 -1.5191662121E+000  +2.9095158552E-001 +1.1741674924E+002 
3763355.444 +7.6393476618E-002 +1.6632416286E+002  +2.2874251883E-001 +4.6964262668E+001  +2.1758689115E-001 -2.7912439533E+001  +1.8287217275E-001 +4.9925865433E+001 
3888500.626 +1.6179753637E-001 +1.5402083622E+002  +1.0263363871E-001 +9.6253412926E+001  +1.0089891502E-001 +2.4281989561E+001  +3.3190357328E-001 +1.5935109411E+002 
4013645.807 +1.6176687527E-001 +1.5968207111E+002  +9.5808975527E-002 +6.8479898349E+001  +9.4998225044E-002 -2.0358223065E+000  +1.9800785717E-001 +1.6859786015E+002 
4138790.989 +1.6669727652E-001 +1.5144339582E+002  +1.3428777123E-001 +7.8767590477E+001  +1.2903993624E-001 +1.0396884535E+001  +2.2097431352E-001 +1.4277653337E+002 
4263936.170 +1.5417229160E-001 +1.4041711592E+002  +1.5685826745E-001 +7.9863545658E+001  +1.5248576562E-001 +1.8841489588E+001  +2.7531484273E-001 +1.5365139295E+002 
4389081.352 +1.7840563480E-001 +1.5320703248E+002  +1.5587654192E-001 +7.4697560752E+001  +1.5281234010E-001 +1.3312895071E+001  +2.5515292521E-001 +1.2603622195E+002 
4514226.533 +2.3012990718E-001 +1.4862655758E+002  +1.1779752515E-001 +1.0598763166E+002  +1.1614363087E-001 +4.7259332564E+001  +3.9280268717E-001 +1.6407147672E+002 
4639371.715 +2.4650125581E-001 +1.2513668253E+002  +3.0509720680E-001 +1.0713378141E+002  +2.8567127068E-001 +5.3226357501E+001  +6.3688130890E-001 +1.3541014912E+002 
4764516.896 +1.4968985061E-001 +7.9384551271E+001  +5.5766073831E-001 +6.6036516310E+001  +5.4127526239E-001 +1.3494612392E+001  +8.9937522052E-001 +7.5694169638E+001 
4889662.078 +4.3987949920E-001 +1.3436022283E+002  +4.5810606410E-001 +1.5453742367E+002  +4.3976658590E-001 +1.0470430061E+002  +1.1315871625E+000 +1.6183745531E+002 
5014807.259 +4.5838446862E-001 +9.4986851736E+001  +9.0006102467E-001 +1.0197136330E+002  +8.8582609906E-001 +5.8233372241E+001  +1.8517549859E+000 +1.0940540183E+002 
5139952.441 +3.9015387260E-001 +1.2751071259E+002  +4.4529880397E-001 +1.2595160036E+002  +4.4028120743E-001 +8.3512435129E+001  +1.1167199400E+000 +1.4330911561E+002 
5265097.622 +3.8563105906E-001 +1.2119029723E+002  +4.0357155083E-001 +1.0834966477E+002  +4.0085790075E-001 +7.1196115742E+001  +8.0705758943E-001 +1.3772302478E+002 
5390242.804 +3.3449236297E-001 +1.2787037249E+002  +3.6916029170E-001 +9.8886901111E+001  +3.6251204192E-001 +6.1907027748E+001  +8.2504451543E-001 +1.2977173391E+002 
5515387.985 +2.9510512872E-001 +1.3518609744E+002  +2.9785645554E-001 +8.8789847371E+001  +2.9992823526E-001 +5.6115109631E+001  +7.4634106381E-001 +1.3703997712E+002 
5640533.166 +3.5538158422E-001 +1.4124911936E+002  +2.1543133730E-001 +9.8530291970E+001  +2.1038930160E-001 +6.7053732435E+001  +6.9775678629E-001 +1.5799960535E+002 
5765678.348 +3.3261935678E-001 +1.3791713806E+002  +3.2470381507E-001 +8.1156200745E+001  +3.1614341522E-001 +5.1440893201E+001  +7.8779015653E-001 +1.2612886243E+002 
5890823.529 +3.4957592514E-001 +1.3494810783E+002  +3.2986328421E-001 +7.0096962727E+001  +3.1921926654E-001 +4.3288622794E+001  +5.7592307169E-001 +1.2006071904E+002 
6015968.711 +3.8556015937E-001 +1.2351855614E+002  +4.2987997113E-001 +7.3986670994E+001  +4.2415491003E-001 +5.1625060291E+001  +8.3817915088E-001 +1.1974139526E+002 
6141113.892 +4.5734081744E-001 +1.1488462186E+002  +5.5994174169E-001 +7.7030070064E+001  +5.4511844763E-001 +5.6896310634E+001  +1.1082196326E+000 +1.1340924006E+002 
6266259.074 +4.8106692047E-001 +9.8973603977E+001  +7.1131088475E-001 +6.3440018196E+001  +6.8331863330E-001 +4.6315008092E+001  +1.1228196582E+000 +9.3791935377E+001 
6391404.255 +3.5794989996E-001 +1.0611330249E+002  +6.3326526974E-001 +4.1859079895E+001  +6.1672914147E-001 +2.5464645891E+001  +8.4940150199E-001 +6.5481699352E+001 
6516549.437 +4.6101436621E-001 +9.3405240048E+001  +6.7390992804E-001 +4.4738009845E+001  +6.7998922344E-001 +3.0726865364E+001  +7.8745919811E-001 +7.7723421777E+001 
6641694.618 +4.0985936736E-001 +6.3423605834E+001  +8.6100437483E-001 +2.6439375111E+001  +8.4565110716E-001 +1.5385587183E+001  +9.1386310593E-001 +4.5294111137E+001 
6766839.800 +1.8180156502E-001 +4.0500255423E+001  +7.7210017600E-001 +1.0457041588E+001  +7.6976757548E-001 +5.4994035893E-001  +6.5055224059E-001 +3.4345368524E+001 
6891984.981 +4.0616251551E-001 +4.5997154165E+001  +8.8188985308E-001 +1.6004128683E+001  +8.8984617382E-001 +8.4011717984E+000  +9.6907427306E-001 +3.6419022287E+001 
7017130.163 +2.6824808679E-001 +5.0777649431E+000  +8.0078659135E-001 +2.7215618719E+000  +8.0069893056E-001 -2.4465485279E+000  +5.2469401733E-001 +2.0381659061E+001 
7142275.344 +2.5747192745E-001 +5.7304843589E+000  +7.7904453794E-001 +3.4393810249E-001  +7.6343599147E-001 -3.0818082205E+000  +5.0149086730E-001 -5.5414769880E+000 
7267420.526 +2.9270195016E-001 +2.2813961951E+001  +7.5189260335E-001 +1.9921893722E+000  +7.5057202525E-001 +6.9296588358E-001  +4.5188317152E-001 -2.7467374238E+000 
7392565.707 +2.8499053039E-001 -6.9682416417E+000  +7.6260765083E-001 -3.4000895705E-001  +7.5550417468E-001 -9.3084020622E-002  +3.6534982514E-001 -2.3558086381E+001 
7517710.889 +2.7987799349E-001 +7.7924309140E+000  +7.0928441280E-001 +5.5674930135E-001  +7.1663230137E-001 +3.1299192115E+000  +3.2806827153E-001 -4.8316431466E+000 
7642856.070 +1.4966279075E-001 +2.5008872376E+001  +6.8046130683E-001 -1.1586811882E+000  +6.7332378612E-001 +3.0700394961E+000  +3.2510370287E-001 +2.1559803441E+000 
7768001.252 +1.2625164091E-001 -1.6710725207E+001  +6.6053164020E-001 -3.2002533143E+000  +6.6425665676E-001 +1.6687480358E+000  +2.1253333756E-001 +1.2594469337E+001 
7893146.433 +2.3406512228E-001 +3.5736343069E+001  +6.2246241273E-001 -1.7150772775E+000  +6.2409279074E-001 +4.8094010230E+000  +2.5020551001E-001 +3.4833704629E+001 
8018291.615 +1.8441210260E-001 +4.3759486632E+001  +6.2131085463E-001 -3.6167938569E+000  +6.1090922225E-001 +4.3690389747E+000  +1.1311936123E-001 +1.2592973020E+001 
8143436.796 +1.8063045778E-001 +6.3992142053E+001  +5.9125563990E-001 -3.9768209366E+000  +5.8834426719E-001 +4.4053098248E+000  +1.9988007788E-001 +5.4660634168E+001 
8268581.977 +1.3948978549E-001 +5.3423872247E+001  +5.8230874313E-001 -4.3605591853E+000  +5.7523667060E-001 +5.7811266279E+000  +2.3689759791E-001 +4.7870818443E+001 
8393727.159 +1.7441315702E-001 +7.0344703065E+001  +5.7151397262E-001 -5.1603749509E+000  +5.6656386082E-001 +5.7442336181E+000  +1.2955888676E-001 +5.5129729742E+001 
8518872.340 +1.6728963966E-001 +1.0621283790E+002  +5.5142714780E-001 -6.5397589540E+000  +5.5679887471E-001 +4.7051636769E+000  +1.7019707856E-001 +6.2179588426E+001 
8644017.522 +1.4237173276E-001 +9.5729939669E+001  +5.5509523122E-001 -6.9599167193E+000  +5.5510869161E-001 +5.9452420262E+000  +1.3935801214E-001 +7.5817993645E+001 
8769162.703 +1.6075354653E-001 +8.0203293188E+001  +5.4820501964E-001 -6.7127531239E+000  +5.4457498005E-001 +6.9081837675E+000  +1.5684029252E-001 +7.6128515091E+001 
8894307.885 +1.7329228655E-001 +1.0148451695E+002  +5.3968360275E-001 -7.4896582207E+000  +5.3656771128E-001 +6.5225356556E+000  +1.5565305232E-001 +7.5645491145E+001 
9019453.066 +1.7090943087E-001 +8.2105938033E+001  +5.3737203855E-001 -6.8630733662E+000  +5.3980393291E-001 +7.6464761060E+000  +1.2455658229E-001 +8.1074580063E+001 
9144598.248 +1.3972652572E-001 +1.0656959855E+002  +5.3697697914E-001 -7.6851098712E+000  +5.3043898449E-001 +6.6165453592E+000  +1.6301592716E-001 +9.6804892868E+001 
9269743.429 +1.5976258435E-001 +9.9705945038E+001  +5.3521201651E-001 -8.1293991706E+000  +5.3172749879E-001 +7.2213417695E+000  +1.3317432834E-001 +1.0708901220E+002 
9394888.611 +1.5076699302E-001 +1.0116024099E+002  +5.3190824077E-001 -7.9578293988E+000  +5.3272636524E-001 +7.4352524241E+000  +1.1871230107E-001 +1.1143975358E+002 
9520033.792 +1.2671417364E-001 +1.2088960322E+002  +5.3814092163E-001 -8.2611798441E+000  +5.3173454146E-001 +7.7013973422E+000  +1.1072247023E-001 +8.7856398180E+001 
9645178.974 +1.0881192724E-001 +1.1466756402E+002  +5.4053183208E-001 -8.6465708056E+000  +5.3645388527E-001 +7.1239914327E+000  +1.2092890972E-001 +1.1412242573E+002 
9770324.155 +1.3934723775E-001 +1.2160670428E+002  +5.3638315040E-001 -8.3192686972E+000  +5.3392959675E-001 +7.2727563830E+000  +7.8720145110E-002 +1.0479294875E+002 
9895469.337 +1.3865287240E-001 +1.1354121697E+002  +5.3787319140E-001 -8.1699983073E+000  +5.3468689637E-001 +8.1313626433E+000  +9.6190005735E-002 +1.0356528998E+002 
10020614.518 +1.0456701153E-001 +9.6316580066E+001  +5.3868844894E-001 -7.4130321506E+000  +5.3621383349E-001 +8.3767449233E+000  +1.3178734028E-001 +9.7329783574E+001 
10145759.700 +1.2708110770E-001 +1.0610432043E+002  +5.3537094133E-001 -7.2604611840E+000  +5.3166460855E-001 +8.8313877034E+000  +1.5833739701E-001 +8.9410272709E+001 
10270904.881 +1.4204152810E-001 +9.7081045163E+001  +5.4031794025E-001 -6.8718418701E+000  +5.3714396648E-001 +8.6898552111E+000  +1.2342756089E-001 +1.0367731402E+002 
10396050.063 +1.1133035936E-001 +9.5617547857E+001  +5.4439198029E-001 -6.6247754114E+000  +5.4032429908E-001 +8.7893815405E+000  +1.4809147496E-001 +8.1779198440E+001 
10521195.244 +9.8956059107E-002 +1.0638128156E+002  +5.4343831350E-001 -6.6195962826E+000  +5.4221572737E-001 +8.4586139406E+000  +1.6986773198E-001 +8.8534544898E+001 
10646340.426 +1.4747047175E-001 +9.8066905901E+001  +5.4402515434E-001 -6.1179117608E+000  +5.3973758306E-001 +8.7285145462E+000  +1.5591990915E-001 +8.8191162567E+001 
10771485.607 +1.4512229675E-001 +9.2377801732E+001  +5.4932111615E-001 -6.0534325531E+000  +5.4604211151E-001 +8.6233447743E+000  +1.4524876212E-001 +9.1013327666E+001 
10896630.788 +1.5761218714E-001 +8.4559001928E+001  +5.4953619277E-001 -5.2868955711E+000  +5.4366818699E-001 +9.0836590888E+000  +1.5858899505E-001 +8.6148688252E+001 
11021775.970 +1.5711393655E-001 +8.9514965004E+001  +5.5459852628E-001 -5.0793773391E+000  +5.4789942266E-001 +8.8036486183E+000  +1.4220027370E-001 +7.8032137352E+001 
11146921.151 +1.1873990233E-001 +8.7303447972E+001  +5.6233666405E-001 -5.3475575479E+000  +5.5658875676E-001 +8.2283070155E+000  +1.5414760787E-001 +9.2633089699E+001 
11272066.333 +1.4369372509E-001 +9.1844905408E+001  +5.6346234716E-001 -4.7423870212E+000  +5.6022637837E-001 +8.3257804160E+000  +1.3736702992E-001 +6.9256995120E+001 
11397211.514 +1.4006378892E-001 +8.4003254986E+001  +5.6708430191E-001 -4.4591373759E+000  +5.6579745503E-001 +7.8531422222E+000  +1.3766029343E-001 +8.5079282559E+001 
11522356.696 +1.3215677852E-001 +7.5743268136E+001  +5.7235086029E-001 -4.0382167840E+000  +5.6847771227E-001 +7.9095937396E+000  +1.5541018239E-001 +8.6893186719E+001 
11647501.877 +1.6715220509E-001 +6.5197245850E+001  +5.7829143433E-001 -3.3145776829E+000  +5.7383032233E-001 +8.2183486804E+000  +1.4583539564E-001 +7.1369938168E+001 
11772647.059 +1.3850998099E-001 +6.8175439071E+001  +5.8686585529E-001 -3.2572433141E+000  +5.7987192498E-001 +7.4905053679E+000  +1.4393330661E-001 +7.3021222941E+001 
11897792.240 +1.3355268184E-001 +7.3090842345E+001  +5.8977800443E-001 -3.5496453145E+000  +5.8570740470E-001 +6.8296265215E+000  +1.3015718496E-001 +7.7698559516E+001 
12022937.422 +1.1489764628E-001 +7.1973437622E+001  +5.9803414604E-001 -3.3997712486E+000  +5.9327109554E-001 +6.1756101993E+000  +1.2170030487E-001 +7.7293501848E+001 
12148082.603 +9.7848907137E-002 +5.1928706044E+001  +6.0323951092E-001 -2.6861865960E+000  +5.9827868533E-001 +6.3494385742E+000  +1.6670984127E-001 +7.3164438225E+001 
12273227.785 +1.4030788770E-001 +6.9274137924E+001  +6.0206709996E-001 -2.4107420585E+000  +5.9893054389E-001 +5.9347867254E+000  +1.4740843025E-001 +6.5072592856E+001 
12398372.966 +1.3339060949E-001 +5.4558551619E+001  +6.1425625183E-001 -1.8173806475E+000  +6.0948593974E-001 +6.1627969754E+000  +1.5288993168E-001 +5.5487265068E+001 
12523518.148 +1.3169496625E-001 +4.9436343914E+001  +6.2255145760E-001 -1.5846118276E+000  +6.1823989988E-001 +5.6750852947E+000  +1.3173502333E-001 +4.8311937110E+001 
12648663.329 +1.1732174219E-001 +5.4982673817E+001  +6.2710089488E-001 -1.8409172020E+000  +6.2136882585E-001 +4.9356018340E+000  +1.4206735041E-001 +4.9869084032E+001 
12773808.511 +1.3254437670E-001 +3.8193890348E+001  +6.3512419814E-001 -1.2288980190E+000  +6.2953187177E-001 +5.1037057778E+000  +1.5516959234E-001 +4.4969791118E+001 
12898953.692 +1.3529471844E-001 +2.9384929310E+001  +6.4742460502E-001 -1.2877753869E+000  +6.4180461943E-001 +4.3873354575E+000  +1.1418955124E-001 +3.7627482133E+001 
13024098.874 +1.4635033324E-001 +3.9702478013E+001  +6.4908208983E-001 -9.1921506244E-001  +6.4503361407E-001 +4.1289084507E+000  +1.3384330567E-001 +2.8549093960E+001 
13149244.055 +1.1370839571E-001 +2.2888170810E+001  +6.6147832588E-001 -1.2323107994E+000  +6.5536158210E-001 +3.2950951060E+000  +1.1950639988E-001 +3.0108936168E+001 
13274389.237 +1.5019850352E-001 +2.4324256913E+001  +6.6651298101E-001 -5.5692222243E-001  +6.5971962495E-001 +3.4466062596E+000  +1.4558627953E-001 +1.7723350555E+001 
13399534.418 +1.6895316050E-001 +2.0545560659E+001  +6.6996877652E-001 -3.9482684711E-001  +6.6429567693E-001 +2.9987404948E+000  +1.3458753929E-001 +2.4240053835E+001 
13524679.599 +1.7595022134E-001 +2.3117756098E+001  +6.7656929107E-001 -2.4777167877E-001  +6.7058040045E-001 +2.7698867966E+000  +1.6130404571E-001 +1.7126220008E+001 
13649824.781 +1.4767013069E-001 +1.0780229441E+001  +6.8660817153E-001 -2.3826237498E-001  +6.7996969703E-001 +2.4809977752E+000  +1.8235745493E-001 +1.2535639030E+001 
13774969.962 +1.6535067645E-001 +9.4074612470E+000  +6.9357925017E-001 -2.6546036269E-001  +6.8638036028E-001 +1.8350354591E+000  +1.7798945772E-001 +1.2220244510E+001 
13900115.144 +1.7606521248E-001 +8.4439109114E+000  +6.9956430306E-001 -7.6341972371E-002  +6.9560354188E-001 +1.6118776774E+000  +1.7981274699E-001 +3.1525979503E+000 
14025260.325 +1.9470910491E-001 +3.3608243092E+000  +7.1026476789E-001 -2.4888880700E-001  +7.0356326519E-001 +1.0683346074E+000  +1.7868383831E-001 -1.0256995402E+000 
14150405.507 +2.0140182383E-001 -1.0477031370E+000  +7.1620277368E-001 -1.6468301247E-001  +7.0951357257E-001 +9.9487821846E-001  +1.9874288411E-001 -2.0850220751E+000 
14275550.688 +2.0900618962E-001 +5.8246424515E+000  +7.1606121204E-001 -2.8404084688E-001  +7.0865046808E-001 +5.5010083974E-001  +1.9685549568E-001 -2.0994442261E-001 
14400695.870 +2.2789076320E-001 +6.8914482138E-001  +7.2378827345E-001 -9.0661286091E-002  +7.1751204611E-001 +3.8839563698E-001  +2.1506096975E-001 -3.4556199319E+000 
