!  2-Port S-parameters saved by WinCal
! VAR MeasName=S-Parameters (CALIBRATED_DATA) read from VNA (P5004A)
! VAR MeasDate=29/08/2024 15:17:34
! VAR NAME=f39_pristine_9k-100M_3
! VAR FILENAME=f39_pristine_9k-100M_3.S2P
! VAR DATE=29/08/2024 15:17:34
! VAR PHYS_PORTS=1,2
! VAR ObjTypeName=DATASET
! VAR IndexType=Frequency
!
# Hz S MA R 50
9000.000 +8.1706130493E-002 -1.6458761711E+002  +1.2213018720E-002 -1.5109208133E+002  +1.0697652643E-002 -1.1095130643E+002  +2.2286447606E-001 -1.3805895106E+002 
134145.181 +1.1152237869E-001 +1.6965496870E+002  +1.0034231134E-004 +1.8868429537E+001  +4.6136651402E-004 +1.3751219713E+002  +2.4132960519E-001 -1.7164822718E+002 
259290.363 +1.1193304669E-001 +1.6963248254E+002  +6.4300712404E-004 -3.9240734487E+001  +4.7793154166E-004 +1.2789770733E+002  +2.3505388858E-001 -1.6917608658E+002 
384435.544 +1.1483092736E-001 +1.7027472338E+002  +6.3323979221E-004 -4.2010682125E+001  +9.6645829468E-004 +1.0880842837E+002  +2.4777031642E-001 -1.6842392661E+002 
509580.726 +1.1503547608E-001 +1.7022980235E+002  +1.1773604075E-003 -3.7061911078E+001  +8.9641245926E-004 +7.5057462114E+001  +2.4445115765E-001 -1.6626071990E+002 
634725.907 +1.1603186744E-001 +1.7132072828E+002  +1.9099656367E-003 -7.2872765168E+001  +6.7330215327E-004 +8.8369943341E+001  +2.6172092671E-001 -1.6766499322E+002 
759871.089 +1.1933780418E-001 +1.7056914871E+002  +1.3326695771E-003 -1.1078348240E+002  +1.8806880107E-003 +1.0020006513E+002  +2.6030020089E-001 -1.6704633836E+002 
885016.270 +1.2187947564E-001 +1.6911983765E+002  +7.8365929226E-004 -3.8516268095E+001  +1.1225646210E-003 +1.6345941199E+002  +2.4777762782E-001 -1.6823230294E+002 
1010161.452 +1.1891595230E-001 +1.6897423186E+002  +1.6074311247E-003 +1.5501574478E+001  +2.1657316338E-003 -1.4226959355E+002  +2.2155777889E-001 -1.6813361207E+002 
1135306.633 +1.2040939644E-001 +1.6905673757E+002  +3.1466287344E-003 +3.4702400580E+001  +5.2929923684E-003 -1.1514019932E+002  +1.8943923840E-001 -1.6405068326E+002 
1260451.815 +1.1941237161E-001 +1.6998010859E+002  +3.9258551026E-003 +1.3618743999E+001  +4.7034280199E-003 -1.5163913196E+002  +2.2429836478E-001 -1.6282072226E+002 
1385596.996 +1.2851895010E-001 +1.7153543571E+002  +2.8643721009E-003 -4.8479921524E+001  +2.3902503633E-003 -1.6349814122E+002  +2.5888021672E-001 -1.6094244622E+002 
1510742.178 +1.2882498043E-001 +1.7092960239E+002  +2.5313927888E-003 -3.3558012392E+001  +3.2336563610E-003 -1.7891256911E+002  +2.6533319908E-001 -1.6009618640E+002 
1635887.359 +1.3229472959E-001 +1.7146048092E+002  +2.8718700995E-003 +5.0561442803E+000  +2.1818933748E-003 -1.2231032450E+002  +2.5048280114E-001 -1.6134517942E+002 
1761032.541 +1.3426023659E-001 +1.7136022907E+002  +5.8657645662E-003 +3.1967729520E+001  +5.5605136358E-003 -1.1431462549E+002  +2.3586678938E-001 -1.5628628506E+002 
1886177.722 +1.2651536187E-001 +1.7085150179E+002  +1.0651790533E-002 +5.7192411037E+001  +1.0037600285E-002 -9.3668496845E+001  +2.2950432894E-001 -1.6013940466E+002 
2011322.904 +1.2988046511E-001 +1.7011751068E+002  +1.2114351552E-002 +6.1233353038E+001  +1.0925165020E-002 -7.3535671605E+001  +2.2959126836E-001 -1.5986258003E+002 
2136468.085 +1.3046696777E-001 +1.6731700945E+002  +2.1492041583E-002 +8.1597984711E+001  +2.3872441141E-002 -5.4877795448E+001  +1.8537074505E-001 -1.5968415204E+002 
2261613.267 +1.3136453520E-001 +1.6802409415E+002  +2.2254860375E-002 +7.7050661520E+001  +2.3649791601E-002 -5.1141008221E+001  +2.0715289559E-001 -1.6495623437E+002 
2386758.448 +1.3288730980E-001 +1.6812341176E+002  +3.0640527764E-002 +8.2357254671E+001  +2.7584047237E-002 -3.9525031935E+001  +1.9625585030E-001 -1.7083666248E+002 
2511903.630 +1.3287349821E-001 +1.6847706501E+002  +3.2569030015E-002 +5.8192825905E+001  +3.4472686813E-002 -6.0315349993E+001  +2.0229574899E-001 -1.5482888586E+002 
2637048.811 +1.2632522171E-001 +1.5770888300E+002  +8.5148863860E-002 +9.4631554678E+001  +8.8286870434E-002 -1.2149631725E+001  +1.4256194868E-001 +1.4476899427E+002 
2762193.992 +1.2964642524E-001 +1.7422172021E+002  +5.6662406911E-002 +2.7477845499E+001  +5.8756587838E-002 -7.9946815801E+001  +1.9779861428E-001 -1.3812684595E+002 
2887339.174 +1.4725486270E-001 -1.7851218642E+002  +5.8532022343E-002 -1.3648276164E+001  +5.5595299834E-002 -1.2090925290E+002  +2.8377954048E-001 -1.3266833085E+002 
3012484.355 +1.5075627875E-001 -1.7334492844E+002  +9.3386920488E-002 -7.8096963350E+000  +9.5333877312E-002 -1.0645827074E+002  +2.3966275830E-001 -1.0780578802E+002 
3137629.537 +1.5624703796E-001 +1.7969638272E+002  +6.3975190747E-002 -1.2269742271E+001  +6.1257104218E-002 -1.0745456376E+002  +2.8729187267E-001 -1.2490952352E+002 
3262774.718 +1.3226891978E-001 -1.7732049245E+002  +1.1033667040E-001 +3.0610234640E+001  +1.1054163435E-001 -6.6332728817E+001  +7.0596161452E-002 -1.0361017170E+002 
3387919.900 +1.0900996773E-001 +1.7497693317E+002  +1.3351068228E-001 +3.5423439911E+001  +1.3718750006E-001 -5.4163972156E+001  +1.0301243958E-001 -8.6928138740E+001 
3513065.081 +1.3769562459E-001 +1.6148154910E+002  +1.0296289720E-001 +6.7321933132E+001  +1.0363050176E-001 -2.1131991409E+001  +1.0576466107E-001 +1.6925655289E+002 
3638210.263 +1.7556839793E-001 +1.5117776196E+002  +1.2702338933E-001 +1.1486404544E+002  +1.2628046860E-001 +3.2427001547E+001  +3.5413046640E-001 +1.4437598563E+002 
3763355.444 +1.0794024379E-001 +1.5966776915E+002  +1.5134972358E-001 +5.5484457526E+001  +1.4582490783E-001 -2.0956178798E+001  +8.3646637020E-002 +1.6426268251E+002 
3888500.626 +1.3954559882E-001 +1.5490912638E+002  +1.3246611329E-001 +7.3738705018E+001  +1.2889597319E-001 -1.7704568601E+000  +1.7735774892E-001 +1.5488778390E+002 
4013645.807 +1.7014056701E-001 +1.5521524641E+002  +1.3037916496E-001 +8.6406125199E+001  +1.2583282762E-001 +1.6144780935E+001  +2.6002766789E-001 +1.4465664285E+002 
4138790.989 +1.8712617687E-001 +1.5610595454E+002  +1.0304976890E-001 +9.0165718026E+001  +1.0095530976E-001 +2.4028821679E+001  +2.8430271195E-001 +1.6539859662E+002 
4263936.170 +1.3830284177E-001 +1.4309978938E+002  +1.9713525114E-001 +7.1085755194E+001  +1.8406768032E-001 +7.1970830957E+000  +2.0257952306E-001 +1.3486799594E+002 
4389081.352 +1.6084424599E-001 +1.5385467435E+002  +1.4860076914E-001 +6.8513502093E+001  +1.4292779865E-001 +7.0426589880E+000  +2.1241016332E-001 +1.6099192009E+002 
4514226.533 +1.6368661262E-001 +1.5108944067E+002  +1.8416711050E-001 +7.7005917795E+001  +1.7797150595E-001 +1.5628854762E+001  +3.1018045709E-001 +1.4110724624E+002 
4639371.715 +1.8419228849E-001 +8.8385145510E+001  +5.1096520201E-001 +7.3684636212E+001  +4.8039552929E-001 +1.9921392284E+001  +6.7035173191E-001 +8.5029432104E+001 
4764516.896 +2.2572868024E-001 +1.1634818056E+002  +3.7715076445E-001 +8.7753107558E+001  +3.6613540399E-001 +3.8211128030E+001  +5.6444742017E-001 +1.1454583718E+002 
4889662.078 +7.5470500688E-001 +1.1295838130E+002  +1.1313381765E+000 +1.3779798016E+002  +1.1127416243E+000 +8.8938703149E+001  +2.1243618752E+000 +1.4166210762E+002 
5014807.259 +3.4825598786E-001 +1.2934043374E+002  +3.9842205526E-001 +1.1942880299E+002  +3.8535440678E-001 +7.3508675653E+001  +8.7907641095E-001 +1.4164491237E+002 
5139952.441 +2.3509218220E-001 +1.3584546729E+002  +2.5693659571E-001 +9.0855281288E+001  +2.5742443698E-001 +4.8710671315E+001  +5.6917344662E-001 +1.4968306884E+002 
5265097.622 +3.2549742183E-001 +1.1776661115E+002  +4.0529603874E-001 +1.0742011734E+002  +4.1195097689E-001 +6.7855956604E+001  +8.6621540867E-001 +1.4861875506E+002 
5390242.804 +2.6417934512E-001 +1.3168812477E+002  +3.4068920144E-001 +8.2716945796E+001  +3.3012376548E-001 +4.6644275595E+001  +6.1668180345E-001 +1.3175818837E+002 
5515387.985 +3.6199158075E-001 +1.2336637172E+002  +4.1571921034E-001 +9.8936179323E+001  +4.0159007006E-001 +6.5948902695E+001  +8.0823608607E-001 +1.4101921683E+002 
5640533.166 +3.4209900223E-001 +1.3449667052E+002  +3.1260022440E-001 +9.1448537854E+001  +3.0761932349E-001 +6.1184526611E+001  +6.8230483754E-001 +1.4805649421E+002 
5765678.348 +3.2419748412E-001 +1.3640645367E+002  +3.7986631809E-001 +8.3177769735E+001  +3.7047476926E-001 +5.4163593994E+001  +8.5119280304E-001 +1.3131481699E+002 
5890823.529 +2.9759790076E-001 +1.1085991847E+002  +5.3454636921E-001 +7.5983529762E+001  +5.2273962532E-001 +4.9869337436E+001  +9.5588182597E-001 +1.2875969344E+002 
6015968.711 +4.3854989766E-001 +1.2316800766E+002  +5.5092636193E-001 +9.0325956559E+001  +5.4043044194E-001 +6.6051384107E+001  +1.1914889018E+000 +1.2851932339E+002 
6141113.892 +3.4257488758E-001 +1.1086735595E+002  +5.7818018585E-001 +6.7114966999E+001  +5.7281415671E-001 +4.7499863683E+001  +9.3627521013E-001 +1.2154982021E+002 
6266259.074 +3.0412375713E-001 +1.1170308368E+002  +6.1307191942E-001 +5.6000886287E+001  +6.0230530278E-001 +3.6735107085E+001  +8.9032178445E-001 +1.0816864956E+002 
6391404.255 +3.3135930596E-001 +9.8940020237E+001  +7.3915489487E-001 +5.3844492101E+001  +7.3780515879E-001 +3.7352508666E+001  +1.1139699721E+000 +1.0171346845E+002 
6516549.437 +2.7268702730E-001 +8.9984971366E+001  +7.6743692317E-001 +3.7637024977E+001  +7.6026363087E-001 +2.3458831264E+001  +7.9013513912E-001 +8.3574738934E+001 
6641694.618 +3.3112003320E-001 +9.0729943024E+001  +7.9836289088E-001 +3.2919147205E+001  +7.9503908691E-001 +2.1083114035E+001  +7.4509558931E-001 +6.6285454404E+001 
6766839.800 +1.4230898265E-001 +6.0151511876E+001  +8.8725800438E-001 +1.4984222174E+001  +8.7320665020E-001 +5.6020878867E+000  +6.8612915074E-001 +4.0299431582E+001 
6891984.981 +2.1661125453E-001 +6.0584000011E+001  +8.8712081578E-001 +1.5567337247E+001  +8.8399906874E-001 +7.7872980571E+000  +5.9296668193E-001 +4.7169477006E+001 
7017130.163 +1.0876805127E-001 +1.0559605523E+002  +8.2373960940E-001 +7.3915403780E+000  +8.1177373921E-001 +1.6808854729E+000  +4.0437991384E-001 +4.2159486113E+001 
7142275.344 +1.6066145301E-001 +3.3321896173E+000  +9.2432987748E-001 +1.5865521309E+000  +9.1710382496E-001 -1.9298368560E+000  +3.1795480177E-001 -1.7009939481E+001 
7267420.526 +1.4503837123E-001 +5.0714267286E+001  +8.8685612695E-001 +3.7028831590E+000  +8.9621780100E-001 +2.2475128042E+000  +3.4933288979E-001 +2.5160365690E+001 
7392565.707 +1.5786800860E-001 -2.5111015644E+001  +9.5049645078E-001 +9.7000867954E-001  +9.5465199948E-001 +6.7145128564E-001  +1.9235286331E-001 -1.3200374003E+001 
7517710.889 +1.1935534599E-001 +6.5761207214E+001  +8.7300237335E-001 -4.4380709528E-001  +8.7498595350E-001 +1.0801039972E+000  +1.0736629834E-002 +1.7168778288E+001 
7642856.070 +1.6520641616E-001 +1.1753165601E+002  +8.1909686382E-001 -2.6167116990E+000  +8.2551849221E-001 +1.0109971010E+000  +4.7140560276E-002 +9.5190907725E+001 
7768001.252 +1.8413610255E-001 +1.0343677800E+002  +7.9454898598E-001 -2.7437742577E+000  +7.9848134050E-001 +2.2488955527E+000  +1.1084185928E-001 +1.2742908653E+002 
7893146.433 +1.3288334336E-001 +1.4163035731E+002  +7.8560899641E-001 -3.9212159164E+000  +7.7787102097E-001 +2.1877080381E+000  +1.7968765377E-001 +9.6217526364E+001 
8018291.615 +2.3241274462E-001 +1.1781027641E+002  +7.3626667152E-001 -4.7763283670E+000  +7.3981191737E-001 +3.3014424012E+000  +2.2976038554E-001 +1.1030616343E+002 
8143436.796 +2.3829210597E-001 +1.2517688918E+002  +7.2916180935E-001 -5.0911049619E+000  +7.2829463165E-001 +3.7318205199E+000  +1.9152644591E-001 +1.0462311760E+002 
8268581.977 +2.4872065312E-001 +1.3143375032E+002  +7.1033061249E-001 -6.5470378604E+000  +7.1139185282E-001 +3.6390426409E+000  +2.5011029782E-001 +1.1790484697E+002 
8393727.159 +1.7936646433E-001 +1.3540786266E+002  +7.1602144893E-001 -6.3234877993E+000  +7.1476989272E-001 +4.9247300337E+000  +1.9861830048E-001 +1.1001679099E+002 
8518872.340 +2.3962586230E-001 +1.2040724468E+002  +6.9685154062E-001 -6.2378387170E+000  +6.8796792690E-001 +5.3834052652E+000  +2.2109522029E-001 +1.0979232065E+002 
8644017.522 +2.5935801704E-001 +1.2881844250E+002  +6.8638874492E-001 -7.4241783617E+000  +6.8259082018E-001 +5.1930327353E+000  +2.3670586682E-001 +1.2140461163E+002 
8769162.703 +2.7790003186E-001 +1.3371244023E+002  +6.7283674642E-001 -8.0346160481E+000  +6.6783570443E-001 +5.6073647739E+000  +2.7738793472E-001 +1.1654545284E+002 
8894307.885 +2.1193650350E-001 +1.3589502988E+002  +6.7895296344E-001 -8.0159469324E+000  +6.7334641769E-001 +5.6568228019E+000  +2.7284562903E-001 +1.1630472058E+002 
9019453.066 +2.7362180895E-001 +1.3548021178E+002  +6.6865422952E-001 -8.0392854984E+000  +6.6613874010E-001 +6.1704499027E+000  +2.3509994306E-001 +1.1870165221E+002 
9144598.248 +2.1175002123E-001 +1.3222447868E+002  +6.7476195785E-001 -8.8696964678E+000  +6.7233801029E-001 +6.0531323683E+000  +2.6107193122E-001 +1.3517460451E+002 
9269743.429 +2.4161159944E-001 +1.3530299588E+002  +6.6625494469E-001 -8.5893340978E+000  +6.6016550061E-001 +6.5250284275E+000  +2.5887812886E-001 +1.2503326922E+002 
9394888.611 +2.3223314488E-001 +1.3126859246E+002  +6.6126791842E-001 -8.8261777497E+000  +6.6296909458E-001 +6.5197595473E+000  +2.6696513144E-001 +1.3612980350E+002 
9520033.792 +2.3208313839E-001 +1.4681871026E+002  +6.7013042581E-001 -9.1762523534E+000  +6.6655788912E-001 +6.2936064982E+000  +2.2887563972E-001 +1.3372295707E+002 
9645178.974 +2.3372560012E-001 +1.4288415259E+002  +6.6619526784E-001 -9.1739669260E+000  +6.6055387310E-001 +6.8027928895E+000  +2.4791857809E-001 +1.2813687230E+002 
9770324.155 +2.1139223979E-001 +1.4027287920E+002  +6.6988270726E-001 -8.8847173448E+000  +6.6634638555E-001 +6.9035569714E+000  +2.2936053824E-001 +1.3215332467E+002 
9895469.337 +2.4190946936E-001 +1.3852451142E+002  +6.6376426219E-001 -8.8117725786E+000  +6.6159911705E-001 +6.9917413118E+000  +2.3637580943E-001 +1.2899907041E+002 
10020614.518 +2.3562025217E-001 +1.3910520878E+002  +6.6874110289E-001 -8.8332819162E+000  +6.6387838516E-001 +6.9913783408E+000  +2.3257239007E-001 +1.3138783171E+002 
10145759.700 +2.8228390423E-001 +1.3393359642E+002  +6.5959015720E-001 -8.6996198526E+000  +6.5760254820E-001 +7.3720486901E+000  +2.3835863784E-001 +1.3432923457E+002 
10270904.881 +2.5452909602E-001 +1.4068084720E+002  +6.6795079722E-001 -9.0920264558E+000  +6.6645404915E-001 +6.9254011983E+000  +2.4078537271E-001 +1.3021268459E+002 
10396050.063 +2.3590556401E-001 +1.3586900849E+002  +6.7317197918E-001 -7.8254619181E+000  +6.6892143795E-001 +7.6541072920E+000  +2.2120639997E-001 +1.2419578958E+002 
10521195.244 +2.4721903115E-001 +1.2407399709E+002  +6.6910664448E-001 -7.4961623257E+000  +6.6413346662E-001 +7.6116724363E+000  +2.4708124183E-001 +1.3013462616E+002 
10646340.426 +2.4202256947E-001 +1.3202366584E+002  +6.7111432561E-001 -7.6492060041E+000  +6.6952697855E-001 +7.3675565896E+000  +2.3221218596E-001 +1.2532158189E+002 
10771485.607 +2.3449899219E-001 +1.3097712617E+002  +6.7394314925E-001 -7.4440348355E+000  +6.7035251988E-001 +7.2889122791E+000  +2.6985675512E-001 +1.2693875657E+002 
10896630.788 +2.2615008040E-001 +1.3483536863E+002  +6.8271226392E-001 -7.4346998380E+000  +6.7761945812E-001 +6.7859355302E+000  +2.6932125348E-001 +1.2862026775E+002 
11021775.970 +2.0777501139E-001 +1.3332424352E+002  +6.9101477592E-001 -6.5726657565E+000  +6.8451747323E-001 +7.0826707676E+000  +2.4290870778E-001 +1.2310713763E+002 
11146921.151 +2.2363493475E-001 +1.2516190525E+002  +6.8983706441E-001 -6.3907628938E+000  +6.8903407405E-001 +6.8140607817E+000  +2.3419647740E-001 +1.2947588164E+002 
11272066.333 +2.0996342861E-001 +1.2883684683E+002  +6.9477401574E-001 -6.0992919587E+000  +6.8984391800E-001 +6.6544369292E+000  +2.5611555412E-001 +1.2533717988E+002 
11397211.514 +2.1148142631E-001 +1.3050744688E+002  +7.0255213214E-001 -5.8679300945E+000  +6.9798982778E-001 +6.6403615277E+000  +2.2945792358E-001 +1.2071435638E+002 
11522356.696 +2.1184054598E-001 +1.2955102920E+002  +7.0614174370E-001 -5.5865095702E+000  +6.9985015429E-001 +6.4564863573E+000  +2.2275056023E-001 +1.1605797967E+002 
11647501.877 +2.3244928731E-001 +1.2170944402E+002  +7.0753178536E-001 -5.4580702558E+000  +7.0233780349E-001 +5.8885832172E+000  +2.4152581864E-001 +1.2593872566E+002 
11772647.059 +1.9992814270E-001 +1.3066562622E+002  +7.2109303724E-001 -5.3525157717E+000  +7.1638408964E-001 +5.6494678285E+000  +2.2421458486E-001 +1.2475936965E+002 
11897792.240 +1.7815101244E-001 +1.2673514439E+002  +7.2946053364E-001 -4.3719364895E+000  +7.2665438481E-001 +5.7692748232E+000  +1.9580259541E-001 +1.1857122153E+002 
12022937.422 +1.5452465866E-001 +1.1969998308E+002  +7.3904363568E-001 -3.8463573234E+000  +7.3437073714E-001 +5.8192609358E+000  +1.9567879266E-001 +1.2002750568E+002 
12148082.603 +1.7957157098E-001 +1.2822782251E+002  +7.4386759912E-001 -3.9562355287E+000  +7.3851229225E-001 +5.3224050241E+000  +1.8192262670E-001 +1.1401169820E+002 
12273227.785 +1.6173236673E-001 +1.1914153577E+002  +7.4884657132E-001 -3.4548204361E+000  +7.4465422665E-001 +5.0591285476E+000  +1.9195091368E-001 +1.1599121554E+002 
12398372.966 +1.8775696756E-001 +1.1720139036E+002  +7.5554904128E-001 -3.1929132240E+000  +7.5190207672E-001 +4.6310254162E+000  +1.5478432679E-001 +1.1985959348E+002 
12523518.148 +1.7657176755E-001 +1.2141361575E+002  +7.6095896567E-001 -3.0948452003E+000  +7.5477976254E-001 +4.1482850863E+000  +1.7882588560E-001 +1.1234042492E+002 
12648663.329 +1.3972744023E-001 +1.1639381802E+002  +7.7437831099E-001 -2.7020160237E+000  +7.7113479135E-001 +3.8827283483E+000  +1.6682667797E-001 +1.2161088348E+002 
12773808.511 +1.3580563922E-001 +1.1371041619E+002  +7.8439942068E-001 -2.3716488575E+000  +7.7976160774E-001 +3.7183172102E+000  +1.4098273371E-001 +1.2011228941E+002 
12898953.692 +1.1300211963E-001 +1.2372382788E+002  +7.9649380869E-001 -2.5324346863E+000  +7.9021392224E-001 +3.0278309975E+000  +1.5793843769E-001 +1.2189215925E+002 
13024098.874 +1.1071592785E-001 +1.1820175261E+002  +8.0635746663E-001 -2.0312158136E+000  +8.0030281810E-001 +2.9263011428E+000  +1.1004603933E-001 +1.2041989828E+002 
13149244.055 +1.2059087068E-001 +1.1959126003E+002  +8.1180171481E-001 -1.9987846994E+000  +8.0286064005E-001 +2.2802073633E+000  +1.1926890158E-001 +1.1692893767E+002 
13274389.237 +9.1986399273E-002 +1.0814968482E+002  +8.2262911484E-001 -1.3990618798E+000  +8.1654651734E-001 +2.4632487913E+000  +9.6153733549E-002 +1.1291271912E+002 
13399534.418 +8.2920110344E-002 +1.0487722810E+002  +8.3315970970E-001 -1.3408372713E+000  +8.2544485995E-001 +2.0749962810E+000  +9.1337857427E-002 +1.1568596546E+002 
13524679.599 +6.9866188830E-002 +8.6261822418E+001  +8.4297439035E-001 -9.0838763375E-001  +8.3970378778E-001 +2.0760349991E+000  +6.7778585612E-002 +1.1407206085E+002 
13649824.781 +7.1270479267E-002 +9.5628545800E+001  +8.4974570601E-001 -1.2098613781E+000  +8.4548257320E-001 +1.3234163473E+000  +7.1031158427E-002 +1.1700139079E+002 
13774969.962 +6.1912719185E-002 +9.7811932627E+001  +8.5131678813E-001 -1.6667125858E+000  +8.5082858446E-001 +1.0445146715E+000  +4.7502266413E-002 +9.5902736526E+001 
13900115.144 +5.2505022741E-002 +9.5766084620E+001  +8.6125253310E-001 -1.4891028587E+000  +8.6581283868E-001 +1.1917283940E+000  +5.1820667826E-002 +1.0336207859E+002 
14025260.325 +5.9827972992E-002 +7.3833180756E+001  +8.7617921206E-001 -8.3897457370E-001  +8.6896753984E-001 +2.9183474609E-001  +4.0672489852E-002 +9.0193651541E+001 
14150405.507 +3.1484540130E-002 +6.6137980035E+001  +8.9536924972E-001 -8.1489630096E-001  +8.8358644008E-001 +1.2191689737E-001  +4.8480658919E-002 +7.6978124166E+001 
14275550.688 +4.4023624954E-002 +6.8199765434E+001  +8.9027140027E-001 -1.2021610923E+000  +8.8687647797E-001 -1.0208203755E-002  +2.9739312013E-002 +6.9572745307E+001 
14400695.870 +5.9835960961E-002 +4.4725642856E+001  +9.0591777196E-001 +3.2006248724E-001  +9.0676586568E-001 -6.4427679933E-001  +2.9971739212E-002 +2.1290917027E+001 
