!  2-Port S-parameters saved by WinCal
! VAR MeasName=S-Parameters (CALIBRATED_DATA) read from VNA (P5004A)
! VAR MeasDate=29/08/2024 15:47:04
! VAR NAME=f39_RESET5_9k-100M_1
! VAR FILENAME=f39_RESET5_9k-100M_1.S2P
! VAR DATE=29/08/2024 15:47:04
! VAR PHYS_PORTS=1,2
! VAR ObjTypeName=DATASET
! VAR IndexType=Frequency
!
# Hz S MA R 50
9000.000 +9.5774740165E-002 -1.7314264669E+002  +5.7106749318E-003 -1.7725739809E+002  +9.0544160469E-004 -7.3374122749E+001  +3.0279328443E-001 -1.4983123740E+002 
134145.181 +1.1065159111E-001 +1.6938706532E+002  +5.9316021332E-004 -2.1695063061E+001  +1.2155225878E-004 -1.5444114201E+001  +2.4389196000E-001 -1.7022786803E+002 
259290.363 +1.1269069288E-001 +1.7007871663E+002  +3.9884112822E-004 +1.2552228155E+002  +1.6120831490E-003 +3.2763325065E+001  +2.4821042667E-001 -1.6972687273E+002 
384435.544 +1.1392751667E-001 +1.6950936596E+002  +4.2523104542E-004 -1.4262193169E+002  +5.4024327346E-004 +1.1406774533E+002  +2.4636915271E-001 -1.6745927367E+002 
509580.726 +1.1489958553E-001 +1.7110923478E+002  +6.6525684004E-004 -1.4703750650E+002  +1.6420691225E-003 +8.9172138978E+001  +2.5222764053E-001 -1.6562678794E+002 
634725.907 +1.1966925871E-001 +1.7298359025E+002  +3.2871946466E-004 +1.5407393339E+002  +4.0594355088E-004 +4.3811690965E+001  +2.5399070214E-001 -1.6760902251E+002 
759871.089 +1.2114295784E-001 +1.7119190621E+002  +7.1305979651E-004 -1.1369499228E+002  +3.0170455614E-004 +1.3223592397E+001  +2.5619333242E-001 -1.6553263367E+002 
885016.270 +1.2166663489E-001 +1.6947423214E+002  +9.1228516461E-005 +7.5934018599E+001  +1.0752523590E-003 +8.8734335125E+001  +2.4835996532E-001 -1.6707220425E+002 
1010161.452 +1.1848262456E-001 +1.7061141409E+002  +1.0191232780E-003 -1.5994716885E+002  +9.3911205462E-004 -1.5588881489E+002  +2.1874726047E-001 -1.6733142284E+002 
1135306.633 +1.1194230126E-001 +1.6973842213E+002  +1.8190985261E-003 +2.0673135348E+001  +3.4588967311E-003 +8.7199329166E+001  +1.9251392985E-001 -1.5986544412E+002 
1260451.815 +1.1544428880E-001 +1.7104632902E+002  +2.3274485930E-003 +5.2169123466E+001  +1.3184624116E-003 -5.0323835628E+001  +2.2344658926E-001 -1.5947681011E+002 
1385596.996 +1.2622455479E-001 +1.7292681221E+002  +1.3702724808E-003 +7.5638473383E+000  +7.9027654562E-004 +6.7801118104E+001  +2.9003371847E-001 -1.5915384922E+002 
1510742.178 +1.2529024267E-001 +1.7083009828E+002  +9.1159672466E-004 +1.7129516535E+002  +7.1475883985E-004 +6.7806464969E+000  +2.5383371283E-001 -1.5535713607E+002 
1635887.359 +1.2700871721E-001 +1.7037599782E+002  +6.5587188898E-004 +1.2007382268E+001  +1.0652936764E-003 -1.6413241145E+002  +2.5382476202E-001 -1.5948520062E+002 
1761032.541 +1.3066701154E-001 +1.7025605855E+002  +1.3880344847E-003 +5.1404077711E+001  +1.5558963064E-003 -8.6239925083E+001  +2.1043959861E-001 -1.5863539048E+002 
1886177.722 +1.2922352323E-001 +1.6983702288E+002  +1.0517253819E-003 -5.6648497715E+001  +1.5594937360E-003 +1.2796137113E+002  +2.0641497899E-001 -1.7513022261E+002 
2011322.904 +1.2935723749E-001 +1.6477764109E+002  +2.2097399407E-003 +1.5053148368E+002  +1.9059362796E-003 +1.3486662007E+002  +2.0830493439E-001 -1.5949110437E+002 
2136468.085 +1.2880022712E-001 +1.6294001948E+002  +2.9510396802E-004 -7.5011096978E+000  +1.7988712841E-003 -1.6170805889E+002  +1.8945031422E-001 -1.7859849306E+002 
2261613.267 +1.3610220434E-001 +1.6362079050E+002  +9.7961634951E-004 +1.1464513315E+002  +1.3253441263E-004 +5.0753366898E+001  +1.9798566032E-001 -1.7512712538E+002 
2386758.448 +1.4024511321E-001 +1.6338736397E+002  +1.7114649843E-003 -5.7215028315E+001  +1.8254239528E-003 -1.1362470547E+002  +2.0457194334E-001 +1.7094112464E+002 
2511903.630 +1.3436534605E-001 +1.6380950688E+002  +2.5044399360E-003 +1.6939560196E+002  +3.2169448262E-003 -5.5436875303E+001  +1.0929568192E-001 -1.7785214994E+002 
2637048.811 +1.3604423759E-001 +1.6303505439E+002  +8.4311768183E-003 +3.1332761045E+001  +4.9751094851E-003 +8.2434731760E+001  +7.1530889058E-002 +1.4401167462E+002 
2762193.992 +8.9550103564E-002 +1.7044777253E+002  +2.6024123631E-002 +1.5415069711E+002  +8.5957395455E-002 +2.5544725326E+000  +1.4462724961E+000 +1.4232463089E+002 
2887339.174 +1.1565546160E-001 +1.6881900154E+002  +1.0961886592E-002 +4.8419293329E+001  +9.1490605889E-003 -9.6771620579E+001  +3.4520285950E-001 -2.7427233578E+001 
3012484.355 +9.8410867039E-002 +1.7250905878E+002  +7.6300658022E-003 -2.4844128245E+001  +2.8309187242E-003 +1.5932395037E+002  +3.2952281870E-001 -1.0766455424E+002 
3137629.537 +1.0648138092E-001 +1.7201036861E+002  +2.3619813321E-002 -2.3638996343E+001  +1.5095372092E-002 +5.4725195453E+001  +3.1798114725E-001 +4.3623773498E+001 
3262774.718 +1.2052418615E-001 +1.6242927198E+002  +2.0111368147E-002 -6.8259676152E+001  +1.5673585894E-002 -9.2285265834E+001  +5.0317919753E-001 -6.4321471135E+001 
3387919.900 +1.2711578060E-001 +1.5555966833E+002  +4.9453440961E-002 +6.8917519101E+001  +2.1028171653E-002 +6.6878181854E+001  +1.9819302048E+000 +3.4557489978E+001 
3513065.081 +1.4386144860E-001 +1.2969198073E+002  +7.5755973198E-003 +1.5699832486E+002  +5.0704660177E-003 +2.4008828967E+001  +4.2850584791E-001 +1.5426734325E+002 
3638210.263 +1.8625282258E-001 +1.4010216940E+002  +1.4377810813E-002 -9.1094332844E+001  +1.4840269949E-002 -1.4948909170E+002  +7.5822096303E-001 +1.5560822991E+002 
3763355.444 +1.7854405093E-001 +1.5380241884E+002  +8.0283264167E-003 -7.6550547538E+001  +1.4250035770E-002 +1.0203630765E+002  +5.0392725809E-001 +1.3840210984E+002 
3888500.626 +1.5578642532E-001 +1.2601547976E+002  +2.1806106839E-002 -3.5834727098E+001  +5.9688873702E-003 -1.2729119999E+002  +3.4420345087E-001 +1.1879180153E+002 
4013645.807 +1.7271032810E-001 +1.4981258727E+002  +1.0936171904E-002 -1.0358344596E+002  +1.3637784866E-002 -1.2353006474E+002  +1.2746081473E+000 +1.4464191984E+002 
4138790.989 +1.7786209342E-001 +1.5195272598E+002  +7.2490167057E-003 +1.2891445014E+002  +3.3943135402E-003 -1.6465355155E+002  +2.4651730730E-001 +1.3690805469E+002 
4263936.170 +2.3445857991E-001 +1.3616546029E+002  +1.5607057972E-002 +5.0621538937E+001  +1.0750931627E-002 -1.2350540920E+002  +8.2359227799E-001 +1.4852482161E+002 
4389081.352 +1.6508940580E-001 +1.3681769936E+002  +1.9308780073E-003 -6.5041957772E+001  +6.1969246704E-003 +1.2105051417E+002  +5.8019663984E-001 +1.3106926621E+002 
4514226.533 +2.0626612407E-001 +1.3762072462E+002  +6.2069471601E-004 +1.4337236745E+002  +2.0698667999E-002 -1.0770093665E+001  +8.7972641460E-001 +8.6732370096E+001 
4639371.715 +2.3892050940E-001 +1.2264394459E+002  +3.6873533767E-002 +1.5657071144E+002  +4.6472856885E-002 -1.6825328011E+002  +2.8608754850E+000 +1.7953013199E+002 
4764516.896 +3.1747149614E-001 +8.8603565062E+001  +3.1759678598E-001 +3.6708351931E+001  +4.1872009116E-001 +6.5088891453E+001  +1.1053873734E+001 +1.0436412942E+002 
4889662.078 +3.9164678963E-001 +1.2979078246E+002  +2.3751648975E-002 -1.3389816316E+002  +4.9818984227E-002 +1.1052393345E+002  +3.4631914165E+000 -1.3138574604E+002 
5014807.259 +4.1293518951E-001 +1.4182450393E+002  +6.1867028671E-002 +4.3918403356E+001  +1.2499814564E-001 -1.1071182977E+002  +9.5465214793E+000 -9.5834611317E+001 
5139952.441 +3.3808273028E-001 +1.2084101380E+002  +1.1869671826E-002 +3.2231847383E+001  +5.4727576128E-002 -3.0749752025E+001  +3.5763951989E+000 +8.9198226408E+000 
5265097.622 +4.9652844715E-001 +1.2491297475E+002  +1.9687447739E-002 +7.1230550531E+000  +2.8186536636E-002 -1.3930166166E+002  +1.9649895162E+000 +4.5299801544E+001 
5390242.804 +4.4301614081E-001 +1.0976941938E+002  +5.0817483366E-002 -1.6661521015E+002  +2.1786941311E-002 +3.6528244168E+001  +1.6750610948E+000 +8.6857759726E+001 
5515387.985 +4.3956378081E-001 +1.2825859060E+002  +2.5526510381E-002 +8.9581880997E+001  +1.3509153301E-002 +1.5600489205E+001  +2.2342992815E+000 +5.8805705661E+001 
5640533.166 +5.2408112142E-001 +1.1872742956E+002  +4.1558033854E-002 +7.2527531948E+001  +3.3657537214E-002 +1.7315055175E+002  +2.2131668526E+000 +4.9444544144E+001 
5765678.348 +4.8030419466E-001 +1.2576130258E+002  +1.6319178508E-002 -2.0334364503E+001  +1.8470157013E-002 +1.9979660576E+001  +2.9727226869E+000 +6.4817592107E+001 
5890823.529 +5.3400879208E-001 +1.2345539792E+002  +6.6970308084E-003 +6.2397877251E+001  +9.9034231489E-003 +1.0810231250E+000  +1.3528616221E+000 +7.8856466709E+001 
6015968.711 +7.2925735119E-001 +1.1560578781E+002  +4.7282177977E-002 +1.2542275350E+002  +6.4526322283E-002 -1.5303070473E+002  +4.0757739922E+000 +3.3290098315E+001 
6141113.892 +7.0497821207E-001 +1.1166706702E+002  +2.3492748597E-002 +1.4302815752E+002  +1.8431325790E-002 +1.2948009218E+002  +1.9925841889E+000 +1.4932899437E+001 
6266259.074 +8.5623431471E-001 +9.8486319376E+001  +2.0660973694E-002 +3.0254138622E+001  +1.2545776476E-002 -1.4624570754E+002  +1.9645711851E+000 +3.1277950641E-001 
6391404.255 +1.1458197427E+000 +1.0333936664E+002  +2.9684813968E-002 +6.5243243623E+001  +1.4561456800E-002 +4.5506690737E+000  +1.9747944860E+000 +2.2509959092E+001 
6516549.437 +9.6298878111E-001 +8.9536437441E+001  +1.0665907869E-002 -1.3865280179E+001  +8.4274179493E-003 +6.2157431016E+001  +1.7257048843E+000 +1.0595059734E+001 
6641694.618 +1.0920609680E+000 +6.0563561310E+001  +4.4356474135E-003 +1.2500240824E+002  +1.0791076183E-002 +5.4341953689E+001  +1.5089645339E+000 -3.8286933116E+000 
6766839.800 +2.6767766684E+000 +4.9239892150E+001  +4.8135448197E-002 +4.0522689528E+001  +3.0035399545E-002 +8.7832471389E+001  +1.5493201074E+000 -8.5944495544E+000 
6891984.981 +1.7606926690E+000 +2.5006801339E+001  +1.5438759773E-002 -1.5252748112E+002  +1.4723321966E-002 +1.1659931185E+002  +1.3141107360E+000 -1.2313444735E+001 
7017130.163 +1.7378885179E+000 +1.4289612882E+001  +1.7117631091E-002 +2.4502947402E+001  +1.0767363617E-002 -9.2882182888E+001  +1.1674615013E+000 -7.4872234939E+000 
7142275.344 +1.7770093183E+000 +1.8696336715E+000  +8.3786385196E-003 +1.7994201795E+002  +3.0511518209E-003 +1.0416327134E+002  +1.4413467303E+000 -1.3793132325E+001 
7267420.526 +1.3321723560E+000 +4.6288329217E+000  +8.5444291758E-003 +6.0215318553E+000  +4.3539454971E-003 +1.5940234424E+001  +1.3744433049E+000 -1.3590292049E+001 
7392565.707 +1.4271432500E+000 +1.5875557058E+000  +1.1729964487E-002 -1.4306040479E+001  +5.3185449680E-003 +1.3476077448E+001  +1.3832251833E+000 -6.0166318534E+000 
7517710.889 +1.0509223257E+000 -6.5114352031E+000  +5.5624719259E-003 +2.8504839145E+001  +5.3477687552E-003 +1.6278335810E+001  +1.2110557909E+000 -1.3349200363E+001 
7642856.070 +1.0002084112E+000 +3.3832938877E-001  +4.3367418785E-003 -2.1263964953E+001  +2.5702512472E-003 +1.7273063296E+002  +1.0715275085E+000 -5.3184033389E+000 
7768001.252 +9.7669345872E-001 +2.3576807191E+000  +7.8886224777E-003 +2.5910222472E+001  +1.7498073453E-003 +1.7788580544E+002  +9.5500344330E-001 -1.0563841205E+001 
7893146.433 +8.1283634491E-001 +3.3045270313E+000  +5.4722709109E-003 -1.0676777836E+001  +1.0494034170E-002 +3.2277038049E+001  +8.0688413535E-001 -4.4508334026E+000 
8018291.615 +7.5087513290E-001 +5.9221493621E+000  +7.4657467501E-003 -2.3665103290E+001  +9.0018309251E-003 +4.2540311333E+001  +7.8245413490E-001 -1.2798674416E+000 
8143436.796 +7.1767256128E-001 +2.0412706194E+000  +4.5790652566E-003 -6.5386331735E+000  +8.9653496890E-003 +5.8572902608E+001  +8.3369821711E-001 -3.3926915869E+000 
8268581.977 +6.5595533382E-001 +2.4193143585E+000  +5.8831284088E-003 +2.7335800718E+001  +9.3490756265E-003 +1.2297874206E+001  +7.7417153882E-001 +3.3830907613E+000 
8393727.159 +6.5669128161E-001 +1.1241286233E+001  +7.1645078511E-003 +6.2052743551E+001  +6.5736880593E-003 +1.6192026515E+001  +7.6550570158E-001 +6.1668661493E+000 
8518872.340 +6.8549488148E-001 +5.7542327525E+000  +3.7954084203E-003 +2.3998091369E+001  +7.9700304228E-004 +4.5525389600E+001  +7.2915583871E-001 -5.3132889558E-001 
8644017.522 +5.8147108302E-001 +4.3252757801E+000  +5.4197705099E-003 +2.9461573783E+001  +6.1694308376E-003 +3.4647201398E+001  +6.9145071048E-001 -8.8981220060E-001 
8769162.703 +6.1376963458E-001 +1.0557208409E+001  +2.2031053680E-003 +3.8763696760E+001  +5.0714200637E-003 +3.1981472040E+000  +6.8706220062E-001 +2.4290028060E+000 
8894307.885 +5.9295988690E-001 +9.6469802196E+000  +5.3288842365E-003 +2.1373566845E+001  +3.5357565579E-003 -8.9928625304E+001  +6.4380940278E-001 +3.5209436595E+000 
9019453.066 +5.9735334688E-001 +6.8665959603E+000  +9.4520578970E-003 -3.0070248716E+001  +6.8513985656E-003 +3.1053828158E+001  +5.7434634161E-001 -2.0861747708E+000 
9144598.248 +5.7710085749E-001 +2.2491190203E+000  +4.6972496804E-003 +2.4025512694E+001  +4.6577838808E-003 +2.3606719373E+001  +5.9320282386E-001 -1.3323394336E-001 
9269743.429 +5.6677161245E-001 +8.0822002948E+000  +4.5436724433E-003 +1.9955972739E+001  +3.2925010014E-003 +8.4578034018E+000  +5.7718924672E-001 -1.0722966379E+001 
9394888.611 +5.2354670181E-001 +1.1286907296E+001  +1.9175661357E-003 -2.0110385857E+001  +4.5870162842E-003 +9.7774056827E+001  +5.8401814278E-001 -2.0302217646E+000 
9520033.792 +5.3255102167E-001 +4.6634270442E+000  +2.8880082357E-003 -2.2091088842E+001  +4.9882172125E-003 -1.2682327806E+001  +5.8370211301E-001 +2.0196623828E+000 
9645178.974 +5.3436487815E-001 +2.0108943009E+000  +5.8894623820E-004 -9.3626616537E+000  +7.6073740821E-003 +3.1017917077E+001  +5.6616476534E-001 -5.1343520385E+000 
9770324.155 +5.5527293285E-001 +2.3108509737E+000  +1.1299953810E-003 +4.0148056813E+001  +4.7236740063E-003 +3.1356697404E+001  +5.8374555504E-001 -7.7302479467E+000 
9895469.337 +5.0860738039E-001 +4.7982658109E+000  +3.9322861161E-003 -2.0125223026E+001  +8.6311249085E-004 +1.7459491985E+002  +5.7208383849E-001 -3.7370285503E+000 
10020614.518 +5.7991116464E-001 -1.5254051562E+000  +6.0399798122E-003 -7.5168768531E+000  +5.1583744555E-003 +4.1341267491E+001  +5.9932520956E-001 -3.9209637413E+000 
10145759.700 +5.3554946208E-001 +3.8238962696E+000  +2.9842877509E-003 -3.4789306282E+001  +3.1893178739E-003 -1.8561627604E+001  +5.6638718295E-001 -5.0472093646E+000 
10270904.881 +5.5817903935E-001 +6.7008158086E+000  +4.7192638065E-003 -3.1910665933E+001  +4.5343052341E-003 +1.6814987435E+001  +5.6183895838E-001 -7.9658814213E+000 
10396050.063 +5.3788222299E-001 +8.6927000319E+000  +3.3396895898E-003 +5.6168424619E+000  +3.6169525247E-003 +5.6030219857E+001  +5.5587329334E-001 -1.2258205702E+000 
10521195.244 +5.4432684616E-001 +8.4693310999E+000  +4.6492978739E-003 -1.7498009828E+001  +3.3202058365E-003 +4.3726212547E+001  +5.8157310797E-001 -1.9687701776E+000 
10646340.426 +5.5532877432E-001 +9.7207774690E+000  +3.4428235229E-003 +1.6914832838E-001  +1.7952144271E-003 -2.8496266270E+001  +5.6805888689E-001 -1.6955188525E+000 
10771485.607 +5.8942822548E-001 +5.2928663559E+000  +2.4258938460E-003 +1.8427871668E+001  +3.4577495823E-003 +5.1658081177E+001  +5.4796289019E-001 +1.3436331948E+000 
10896630.788 +5.7828039502E-001 +6.9985142402E+000  +3.5358393345E-003 -5.9859823191E+000  +3.0508240000E-003 +4.6672452695E+000  +5.9862982295E-001 +1.4454490676E+000 
11021775.970 +5.8248506920E-001 +6.2399491458E+000  +3.3802551708E-003 +1.0911732583E+001  +4.8687615721E-003 +3.5444301576E+001  +6.2061590846E-001 +3.6509975749E+000 
11146921.151 +5.9099138932E-001 +4.8178682747E+000  +5.8227999688E-003 -1.6485999377E+001  +4.3117746659E-003 +4.1172119503E+001  +6.2388413217E-001 +2.2795944684E-001 
11272066.333 +5.8334826315E-001 +8.5220529490E+000  +1.3710994263E-003 -1.8244331371E+000  +2.0295287020E-003 +3.6781810724E+001  +6.3392118243E-001 -4.6655753598E-001 
11397211.514 +5.9527340974E-001 +6.4879526587E+000  +3.6462598191E-003 +1.7367699989E+001  +5.4713660621E-003 +7.0170608596E+000  +6.7317469671E-001 +4.3815176763E+000 
11522356.696 +6.1668535776E-001 +6.7650546059E+000  +4.2974311009E-003 +2.5268561450E+001  +2.4212952308E-003 -4.5022687368E+001  +6.4970174485E-001 +1.0309520155E+000 
11647501.877 +5.9822819234E-001 +5.1066322638E+000  +4.2432961400E-003 -1.1628994929E+001  +4.2319471284E-003 +4.9930942274E+001  +6.4959807250E-001 +7.4818206954E-001 
11772647.059 +6.3290767601E-001 +4.8885891878E+000  +2.2819553127E-003 +3.5623739263E-001  +5.3127762728E-003 -3.7638431214E-001  +6.8057314755E-001 +3.2033381786E+000 
11897792.240 +6.7488407412E-001 +8.5886912013E+000  +4.6729579849E-003 +1.4029222704E+001  +4.0562414378E-003 +1.7322812321E+001  +6.8138667966E-001 +2.4904437765E+000 
12022937.422 +6.7163255705E-001 +5.6997455018E+000  +2.0770520058E-003 -1.5201717508E+001  +5.0358691864E-003 +1.8013865673E+001  +7.0190748056E-001 +2.0167652619E+000 
12148082.603 +6.9690604470E-001 +3.3061682975E+000  +4.2982205761E-003 +1.0810177694E+001  +3.4094548168E-003 +4.5876648040E+001  +6.8072916394E-001 +1.1452001640E+000 
12273227.785 +7.0064648442E-001 +2.4048101280E+000  +3.0865048572E-003 +2.1695368079E+001  +3.3679660740E-003 +2.6819665651E+001  +7.2491195015E-001 +1.7199531513E+000 
12398372.966 +7.2730533563E-001 +1.9933273468E+000  +3.7526966588E-003 +2.0583804034E+001  +4.1986057906E-003 +1.0625013350E+001  +7.4353935919E-001 -1.3493923220E+000 
12523518.148 +7.5749409558E-001 +4.6936028265E+000  +5.3436308785E-003 -1.1727573804E+001  +4.7808337103E-003 +1.7336016157E+001  +7.2646438512E-001 -7.8293733657E-001 
12648663.329 +7.5162879199E-001 +2.7481502286E+000  +5.3043016014E-003 -5.8807019932E+000  +6.1697050397E-003 +7.7346514381E+000  +7.6201255932E-001 +4.7875405356E-001 
12773808.511 +7.2375667880E-001 +2.0886468179E+000  +5.2469579250E-003 +1.5915857114E+001  +3.0502253120E-003 +3.5991559609E+000  +7.5185498967E-001 -8.5928833548E-001 
12898953.692 +7.6663856612E-001 +1.9383695973E+000  +4.1898551357E-003 +2.0087619884E+001  +4.7656169748E-003 -3.9052019863E+000  +7.7584919538E-001 -1.2904943734E+000 
13024098.874 +7.7471906154E-001 +2.0060827545E+000  +4.1371466100E-003 -9.6075037733E+000  +4.1048074540E-003 +1.0382532871E+001  +8.0709139322E-001 -1.4217539509E+000 
13149244.055 +8.3482084769E-001 +2.8088534442E-002  +3.5652736642E-003 +1.1404741783E+001  +6.8790490309E-003 +2.0059131169E+001  +8.2538323095E-001 -3.5000082686E+000 
13274389.237 +8.3030136686E-001 -2.0421613741E+000  +5.1774015668E-003 +7.7262223817E+000  +4.8612569076E-003 +1.3708238491E+001  +8.3954113836E-001 -1.6771640340E+000 
13399534.418 +8.3962096087E-001 -2.2562365208E-001  +4.1903614794E-003 -3.1539739684E+001  +4.1660424496E-003 +2.3371580582E+001  +8.5601563778E-001 -2.3122458209E+000 
13524679.599 +8.3196376923E-001 -7.2384200085E-001  +3.8031493843E-003 +6.4801492954E+000  +4.5792815791E-003 +1.0018528615E+000  +8.7150759634E-001 -1.9557409567E+000 
13649824.781 +8.6577964009E-001 -2.9619622617E+000  +4.5911284447E-003 +1.6821565547E+001  +4.8850422622E-003 -3.6740167203E+000  +8.7371376819E-001 -1.6742211564E+000 
13774969.962 +8.9182206668E-001 -3.3965269147E+000  +4.6490490672E-003 -1.0150512814E+001  +4.5079995769E-003 +4.5324352897E+000  +9.1519013344E-001 -2.8603520699E+000 
13900115.144 +9.1693960172E-001 -4.1720134057E+000  +5.3677585110E-003 +2.7184052645E+000  +5.7418487247E-003 +1.5522077380E+001  +9.2582096240E-001 -4.3022030589E+000 
14025260.325 +9.1682978586E-001 -3.8591655148E+000  +5.6133865402E-003 -1.4216111906E+001  +2.8561637382E-003 +7.0767880362E+000  +9.2205849864E-001 -3.9778771135E+000 
14150405.507 +9.5091991993E-001 -5.0289221162E+000  +5.5563617515E-003 +1.7918580950E+001  +3.9242327446E-003 +1.6449576846E+001  +9.6926181121E-001 -3.1315566888E+000 
14275550.688 +9.4312180481E-001 -4.8003415039E+000  +3.7092155707E-003 -1.8781778299E+000  +1.8302499153E-003 +1.7998372048E+001  +9.8030631784E-001 -4.1204079567E+000 
14400695.870 +9.8057424148E-001 -4.9298859115E+000  +4.2046847424E-003 +7.0633548584E+000  +4.4572200648E-003 +1.5544085492E+001  +9.9869152928E-001 -4.8779711611E+000 
