!  2-Port S-parameters saved by WinCal
! VAR MeasName=S-Parameters (CALIBRATED_DATA) read from VNA (P5004A)
! VAR MeasDate=29/08/2024 15:17:26
! VAR NAME=f39_pristine_9k-100M_2
! VAR FILENAME=f39_pristine_9k-100M_2.S2P
! VAR DATE=29/08/2024 15:17:26
! VAR PHYS_PORTS=1,2
! VAR ObjTypeName=DATASET
! VAR IndexType=Frequency
!
# Hz S MA R 50
9000.000 +7.7248082720E-002 -1.7157359732E+002  +9.1570386079E-003 -1.4591290457E+001  +9.8170221246E-003 +4.1435049149E+001  +2.4412532363E-001 -1.4647786069E+002 
134145.181 +1.1140065226E-001 +1.6940244244E+002  +3.1071736443E-004 -1.3655331719E+002  +1.8152682421E-004 +1.5868227359E+002  +2.4338888318E-001 -1.6996019945E+002 
259290.363 +1.1153802239E-001 +1.6981758183E+002  +7.3946551381E-004 -1.8591610483E+001  +1.9566014071E-004 +2.9005434913E+001  +2.4063318943E-001 -1.6953707914E+002 
384435.544 +1.1458594821E-001 +1.6933648554E+002  +5.2438882942E-004 -1.1979926440E+002  +6.8163473540E-004 +1.0622425275E+002  +2.4297129622E-001 -1.7008534893E+002 
509580.726 +1.1317136105E-001 +1.7173871387E+002  +1.6666020424E-003 -6.6109811899E+001  +1.3972695067E-003 +1.7370451202E+002  +2.4774393402E-001 -1.6762066159E+002 
634725.907 +1.1772007448E-001 +1.7138913301E+002  +9.3352911627E-004 -6.0586437444E+001  +9.7429424182E-004 +1.0212287216E+002  +2.4780440478E-001 -1.6583836317E+002 
759871.089 +1.1984648705E-001 +1.7072764688E+002  +8.2885411582E-004 -7.3454067585E+001  +7.9772162605E-004 +9.4636063088E+001  +2.5067314730E-001 -1.6680474172E+002 
885016.270 +1.2132849397E-001 +1.6880517699E+002  +1.0459557602E-003 -2.6430559677E+001  +1.0984969711E-003 +1.6020383542E+002  +2.4757887645E-001 -1.6715403553E+002 
1010161.452 +1.1968551785E-001 +1.6969188742E+002  +1.9759270313E-003 +4.6992819561E+001  +2.7855732175E-003 -1.5007224920E+002  +2.1985333536E-001 -1.6883003173E+002 
1135306.633 +1.1834136589E-001 +1.7078408471E+002  +3.7275565532E-003 +3.2268425608E+001  +4.3870466950E-003 -1.4160431231E+002  +2.0954806952E-001 -1.6815295535E+002 
1260451.815 +1.2206019415E-001 +1.7092402757E+002  +4.9483389038E-003 +3.5633399567E+001  +3.8155883487E-003 -1.4875491350E+002  +2.0332953227E-001 -1.5859882868E+002 
1385596.996 +1.2818043489E-001 +1.7149656001E+002  +2.9038138230E-003 -2.8719153077E+001  +2.0439972007E-003 +1.6658074341E+002  +2.5715183433E-001 -1.6165258819E+002 
1510742.178 +1.2989333406E-001 +1.7114833756E+002  +3.1700720837E-003 -2.6246551679E+001  +3.9856689736E-003 -1.6744806314E+002  +2.5471999583E-001 -1.5733673320E+002 
1635887.359 +1.3115790815E-001 +1.7043839395E+002  +3.0429638784E-003 +1.4568602389E+001  +3.0227766866E-003 -1.4301899124E+002  +2.5101969294E-001 -1.6125037924E+002 
1761032.541 +1.3030897846E-001 +1.7008392187E+002  +3.5390701144E-003 +4.5209291179E+001  +4.7111324701E-003 -9.9577245675E+001  +2.4700009322E-001 -1.6163271842E+002 
1886177.722 +1.3020369559E-001 +1.7010957594E+002  +7.8895354030E-003 +6.2517783380E+001  +7.6671993192E-003 -5.9757394980E+001  +2.3011112156E-001 -1.6329581706E+002 
2011322.904 +1.2930626665E-001 +1.6898164840E+002  +1.4036423185E-002 +6.7366272667E+001  +1.6702637613E-002 -5.6685669644E+001  +2.1273405817E-001 -1.6009542665E+002 
2136468.085 +1.3461914528E-001 +1.6809307806E+002  +1.3427643568E-002 +7.1225530177E+001  +1.4203254773E-002 -5.8361667312E+001  +2.3140353593E-001 -1.6055198183E+002 
2261613.267 +1.3361310650E-001 +1.7010726031E+002  +2.1418274237E-002 +7.4931258038E+001  +2.0727122284E-002 -4.9283942709E+001  +2.0627584490E-001 -1.6778664461E+002 
2386758.448 +1.3811355473E-001 +1.6665770952E+002  +3.2379356688E-002 +6.5095427537E+001  +2.9911566429E-002 -6.0039007350E+001  +1.8557985665E-001 -1.4625588049E+002 
2511903.630 +1.2831868967E-001 +1.6854585579E+002  +3.6181923253E-002 +6.4912310407E+001  +3.8272626560E-002 -4.8315452482E+001  +1.9403076465E-001 -1.6189114405E+002 
2637048.811 +1.1543872303E-001 -1.7943357366E+002  +7.9635270490E-002 +3.3251323440E+001  +8.4394066609E-002 -8.3087422858E+001  +1.5398321243E-001 -1.2766666637E+002 
2762193.992 +1.0704243863E-001 +1.7448213191E+002  +8.8132101417E-002 +4.9745882704E+001  +8.7589694336E-002 -5.7318008412E+001  +1.0207365050E-001 -1.5399896553E+002 
2887339.174 +1.2595578089E-001 -1.7587279089E+002  +7.6391663967E-002 +1.0355638466E+001  +7.5666886575E-002 -8.8077319798E+001  +2.0801638740E-001 -1.3196199351E+002 
3012484.355 +1.4768961863E-001 -1.7588568086E+002  +8.3211008292E-002 +1.7948560851E+000  +8.2650179340E-002 -1.0024055776E+002  +2.1074818945E-001 -1.1494721522E+002 
3137629.537 +1.3178558765E-001 +1.7700685201E+002  +6.9948249994E-002 +3.0682590274E+001  +6.7582818504E-002 -6.8545127926E+001  +1.8653459980E-001 -1.4181196289E+002 
3262774.718 +1.2395254200E-001 +1.7508029846E+002  +1.1307042552E-001 +3.8069547480E+001  +1.0315414989E-001 -5.1088630965E+001  +6.6900372725E-002 -1.1648742643E+002 
3387919.900 +1.1555216062E-001 +1.5237928371E+002  +1.1830220557E-001 +6.5725388719E+001  +1.2121692357E-001 -2.0770347323E+001  +9.4200692415E-002 -1.7755385581E+002 
3513065.081 +9.8041715531E-002 +1.3955077388E+002  +2.3998736896E-001 +7.1986567263E+001  +2.3998938204E-001 -1.0581001729E+001  +3.0641346402E-001 +6.7818916245E+001 
3638210.263 +1.9830078181E-001 +1.3085872357E+002  +2.5920635058E-001 +1.1998939734E+002  +2.5998050536E-001 +3.9322768116E+001  +5.5406534085E-001 +1.2308678103E+002 
3763355.444 +1.5042059524E-001 +1.4520991593E+002  +1.5722618038E-001 +9.4333470106E+001  +1.5204602122E-001 +1.3706550326E+001  +2.6761034788E-001 +1.3755648972E+002 
3888500.626 +1.7784288950E-001 +1.5393534187E+002  +9.9510695441E-002 +9.6280790734E+001  +9.8532162677E-002 +2.1752130343E+001  +2.6395472280E-001 +1.6453273406E+002 
4013645.807 +1.6240266648E-001 +1.5346848911E+002  +1.0681348195E-001 +8.7727701954E+001  +1.0770379432E-001 +1.8561717364E+001  +2.8809280998E-001 +1.6903844665E+002 
4138790.989 +1.5042710088E-001 +1.5321257105E+002  +1.7507852817E-001 +8.1696377131E+001  +1.7463929075E-001 +1.2473914345E+001  +3.2270617274E-001 +1.2827646481E+002 
4263936.170 +1.8988771820E-001 +1.5665709086E+002  +1.1228226975E-001 +9.3785554765E+001  +1.0903768298E-001 +2.8919189927E+001  +3.4784951181E-001 +1.6215504112E+002 
4389081.352 +2.1973805531E-001 +1.4917482035E+002  +1.3859677056E-001 +1.0408869958E+002  +1.3419482169E-001 +4.2911095425E+001  +3.5274946630E-001 +1.5804130135E+002 
4514226.533 +1.5941602012E-001 +1.3944171258E+002  +2.1729867607E-001 +8.2652053419E+001  +2.0845852776E-001 +2.4980821529E+001  +3.6531912483E-001 +1.4075407308E+002 
4639371.715 +3.0476070193E-001 +1.2762618774E+002  +3.6971070557E-001 +1.2144588912E+002  +3.5278555153E-001 +6.8522178576E+001  +7.9038930914E-001 +1.4092225511E+002 
4764516.896 +3.1379910193E-001 +1.2041831695E+002  +4.2681860068E-001 +1.0909310304E+002  +4.0845251507E-001 +5.7277030232E+001  +7.6496314436E-001 +1.2557756206E+002 
4889662.078 +6.1268754771E-001 +1.2723911750E+002  +8.6741216370E-001 +1.4503401171E+002  +8.4050860958E-001 +9.7545841370E+001  +1.8112559950E+000 +1.4663156062E+002 
5014807.259 +3.7912992529E-001 +1.2336198643E+002  +4.9206289205E-001 +1.1928953612E+002  +4.8912494548E-001 +7.3544068095E+001  +1.0437560449E+000 +1.3681351699E+002 
5139952.441 +2.9509652409E-001 +1.2882438881E+002  +3.5361855919E-001 +9.9164857654E+001  +3.4652668176E-001 +5.5502190786E+001  +6.8490145248E-001 +1.3187705955E+002 
5265097.622 +3.4488899393E-001 +1.2578443270E+002  +4.4136260913E-001 +1.0001888581E+002  +4.2704082762E-001 +6.0747312996E+001  +8.3686273387E-001 +1.2320504350E+002 
5390242.804 +3.1025507844E-001 +1.4030501082E+002  +2.4780602436E-001 +9.4787677557E+001  +2.4338941934E-001 +5.7597950964E+001  +5.6703678814E-001 +1.5193752209E+002 
5515387.985 +3.2182823109E-001 +1.3257811672E+002  +4.1572224253E-001 +9.3782711897E+001  +4.0697843304E-001 +5.8947123740E+001  +9.4949748385E-001 +1.2676367150E+002 
5640533.166 +3.0422682380E-001 +1.3031219968E+002  +3.4413099276E-001 +8.9335320082E+001  +3.4274448076E-001 +5.8804144233E+001  +7.8298604536E-001 +1.4708647000E+002 
5765678.348 +3.8565397047E-001 +1.2827472544E+002  +4.2946807745E-001 +9.4159771375E+001  +4.1378379387E-001 +6.4287300860E+001  +8.9147763340E-001 +1.3647707026E+002 
5890823.529 +3.6577739098E-001 +1.3550832883E+002  +3.9102869220E-001 +8.6452128076E+001  +3.8640385022E-001 +6.0305499040E+001  +9.3546656612E-001 +1.3534035253E+002 
6015968.711 +3.6363723173E-001 +1.2174118568E+002  +5.0112012556E-001 +7.8282254574E+001  +4.9539022135E-001 +5.4316312700E+001  +9.6953525619E-001 +1.2726401123E+002 
6141113.892 +3.3493533227E-001 +1.2091586107E+002  +4.9593761069E-001 +6.7015834205E+001  +4.9353565972E-001 +4.6090685788E+001  +8.4323665554E-001 +1.2641498575E+002 
6266259.074 +3.6933887333E-001 +1.1333445285E+002  +6.4321860195E-001 +6.6281497358E+001  +6.3529445523E-001 +4.6628298085E+001  +1.1508179269E+000 +1.1223252174E+002 
6391404.255 +4.2624624664E-001 +1.0570614612E+002  +7.3173135017E-001 +6.0182145245E+001  +7.1537073138E-001 +4.3975532137E+001  +1.1227822291E+000 +1.0060245384E+002 
6516549.437 +1.5818826533E-001 +8.7858416087E+001  +7.8291928953E-001 +2.6463005645E+001  +7.7824324378E-001 +1.2669555210E+001  +7.4392457874E-001 +6.3108969763E+001 
6641694.618 +1.9593189119E-001 +9.0220803898E+001  +8.3455683087E-001 +2.4251932009E+001  +8.1254172051E-001 +1.2746587476E+001  +8.1910012622E-001 +5.6528926128E+001 
6766839.800 +1.7515052660E-001 +6.4872939518E+001  +8.8893646092E-001 +2.0990258881E+001  +8.7820016737E-001 +1.1891710163E+001  +8.2162425340E-001 +6.4748196757E+001 
6891984.981 +7.5403291862E-002 -2.7962708513E+001  +8.8422804906E-001 +6.9903588151E+000  +8.7845174248E-001 -5.4126613232E-001  +5.2384570557E-001 +4.7187676378E+001 
7017130.163 +1.0932760711E-001 -6.1646859987E+000  +9.0973401254E-001 +3.0764141330E+000  +8.9394263414E-001 -2.6598132720E+000  +4.1120636556E-001 +1.5111670854E+001 
7142275.344 +1.0816372592E-001 +4.7604766371E+001  +8.7295448878E-001 +4.2777780511E+000  +8.6854373977E-001 +6.6887211701E-001  +2.7550093216E-001 +2.4642409839E+001 
7267420.526 +1.1277317297E-001 -4.1112588136E+001  +9.4001423043E-001 -1.2519567076E+000  +9.2197607575E-001 -3.2215734792E+000  +2.7894114403E-001 -3.0938321149E+001 
7392565.707 +1.0382686580E-001 -3.0075833543E+001  +9.4589098128E-001 +3.0327221649E-001  +9.4434962073E-001 +4.7895800430E-001  +2.6005891605E-001 -2.2222890146E+001 
7517710.889 +3.8622149617E-002 -1.6830134351E+002  +8.7937319239E-001 -2.0294500377E+000  +8.7444756260E-001 -3.0336357818E-001  +8.0290164874E-002 +5.7689605979E+001 
7642856.070 +2.2524022764E-001 +1.2339112010E+002  +8.1020230068E-001 -1.7325396932E+000  +8.0907727909E-001 +1.6992578207E+000  +1.4361117902E-001 +6.1371648713E+001 
7768001.252 +1.6766909937E-001 +1.1381821323E+002  +7.9982315795E-001 -3.3937648777E+000  +7.9461940346E-001 +2.2117174117E+000  +9.9876616841E-002 +1.2406833978E+002 
7893146.433 +2.1238462442E-001 +1.3493858434E+002  +7.7273057043E-001 -4.1306266237E+000  +7.6105143995E-001 +2.0946182770E+000  +1.4053542679E-001 +8.7496874283E+001 
8018291.615 +1.7797544901E-001 +1.2899521033E+002  +7.5795126212E-001 -5.1150818932E+000  +7.4724067460E-001 +2.5975434070E+000  +1.9990798540E-001 +1.1865874425E+002 
8143436.796 +2.0514628670E-001 +1.2810478246E+002  +7.3714337076E-001 -5.4094154057E+000  +7.3209424521E-001 +3.5870178544E+000  +1.9364521048E-001 +1.1296619276E+002 
8268581.977 +2.8102517598E-001 +1.1194605590E+002  +7.0705303303E-001 -4.5774375851E+000  +7.0314231030E-001 +5.3618256928E+000  +2.2813301968E-001 +1.0350486051E+002 
8393727.159 +2.2071876096E-001 +1.2847306192E+002  +7.0458932241E-001 -7.0039346752E+000  +7.0421666469E-001 +3.7311720020E+000  +2.5749464857E-001 +1.2738795216E+002 
8518872.340 +2.4383228526E-001 +1.1243157096E+002  +6.9417511681E-001 -6.0235844959E+000  +6.8930114341E-001 +5.8169312585E+000  +2.4884375866E-001 +1.2250894066E+002 
8644017.522 +2.2224665901E-001 +1.2860156803E+002  +6.8939692016E-001 -7.2249919108E+000  +6.8423343802E-001 +5.1410172771E+000  +2.6393698711E-001 +1.2044319230E+002 
8769162.703 +2.4064177374E-001 +1.3154758742E+002  +6.8415345091E-001 -7.5377551355E+000  +6.7814970178E-001 +5.6624548369E+000  +2.2232882914E-001 +1.1431482583E+002 
8894307.885 +3.0370085397E-001 +1.3387581150E+002  +6.6389988305E-001 -8.3085077711E+000  +6.6168066931E-001 +5.4911063655E+000  +2.6239633623E-001 +1.1908760013E+002 
9019453.066 +2.0868904645E-001 +1.4253082951E+002  +6.7978299097E-001 -8.6024556713E+000  +6.7507947161E-001 +5.8608669360E+000  +2.4876248022E-001 +1.1983208867E+002 
9144598.248 +2.8433684815E-001 +1.3394916896E+002  +6.5808227204E-001 -9.3894930213E+000  +6.5882001285E-001 +5.1740399700E+000  +2.9570458847E-001 +1.3232746864E+002 
9269743.429 +2.3902125016E-001 +1.3464875620E+002  +6.6631684842E-001 -8.9151842729E+000  +6.6667812765E-001 +6.6093222036E+000  +2.2493247578E-001 +1.2409285027E+002 
9394888.611 +2.3457913167E-001 +1.3630250275E+002  +6.6000048122E-001 -9.0803518444E+000  +6.5668652021E-001 +5.9476964742E+000  +2.9776044770E-001 +1.3295374919E+002 
9520033.792 +2.8375829706E-001 +1.3923042133E+002  +6.6370867326E-001 -9.6502256868E+000  +6.6075067873E-001 +6.2684436423E+000  +2.1600731178E-001 +1.4101894632E+002 
9645178.974 +2.4522186459E-001 +1.4091952536E+002  +6.6185691851E-001 -9.2312224723E+000  +6.6103040145E-001 +6.6827802608E+000  +2.4959673801E-001 +1.2830797275E+002 
9770324.155 +2.7386219075E-001 +1.4540409022E+002  +6.6638530693E-001 -9.4062354960E+000  +6.6248557316E-001 +6.6389982636E+000  +2.0454644119E-001 +1.3279254949E+002 
9895469.337 +2.5222171287E-001 +1.4040106194E+002  +6.6561701553E-001 -8.7587343432E+000  +6.6059586203E-001 +6.8390302499E+000  +2.2879267158E-001 +1.3093623212E+002 
10020614.518 +2.4138869264E-001 +1.3994023185E+002  +6.7102752982E-001 -8.7766904650E+000  +6.6583332330E-001 +7.2134168816E+000  +1.9369184780E-001 +1.2823428294E+002 
10145759.700 +2.0314508104E-001 +1.4201932937E+002  +6.7344689637E-001 -8.5636818221E+000  +6.6870452318E-001 +7.2812453875E+000  +2.4027873856E-001 +1.3339193378E+002 
10270904.881 +2.2612929156E-001 +1.3488058724E+002  +6.6728741910E-001 -8.1668774677E+000  +6.6618873505E-001 +7.3785004202E+000  +2.5754601574E-001 +1.2940398408E+002 
10396050.063 +2.2341815761E-001 +1.4112362865E+002  +6.7270897048E-001 -7.9837636881E+000  +6.6532651476E-001 +7.6026246826E+000  +2.3789003912E-001 +1.1601668641E+002 
10521195.244 +2.6041515576E-001 +1.2904075904E+002  +6.6706092617E-001 -7.7841172766E+000  +6.6405304432E-001 +7.5717964528E+000  +2.4057470553E-001 +1.2747515185E+002 
10646340.426 +2.3425033672E-001 +1.2558750568E+002  +6.7372974151E-001 -7.3517091936E+000  +6.6962503525E-001 +7.6675825452E+000  +2.3091343545E-001 +1.3006974460E+002 
10771485.607 +2.3500217602E-001 +1.3208513334E+002  +6.7486391939E-001 -7.3568059117E+000  +6.6980440731E-001 +7.0324303629E+000  +2.6869356424E-001 +1.2322512829E+002 
10896630.788 +2.1532615599E-001 +1.3059711439E+002  +6.8338457840E-001 -6.9393845520E+000  +6.8018014145E-001 +7.1050692814E+000  +2.4398580318E-001 +1.2401196891E+002 
11021775.970 +2.2183992312E-001 +1.3092145031E+002  +6.8752610258E-001 -6.7222262476E+000  +6.8143949210E-001 +6.7149285473E+000  +2.5918362445E-001 +1.2366263530E+002 
11146921.151 +2.2721236983E-001 +1.2895319844E+002  +6.9143817135E-001 -6.3503087344E+000  +6.8399795416E-001 +6.9243406484E+000  +2.2703579235E-001 +1.2297772231E+002 
11272066.333 +2.2579572949E-001 +1.2602941695E+002  +6.9347464639E-001 -5.6285299030E+000  +6.9032966316E-001 +7.0762193342E+000  +2.2825638281E-001 +1.1382343464E+002 
11397211.514 +2.1680941089E-001 +1.3045969183E+002  +7.0198831179E-001 -5.9865650535E+000  +6.9739222191E-001 +6.6145259014E+000  +2.2017343413E-001 +1.2214217787E+002 
11522356.696 +1.9654922204E-001 +1.2159661221E+002  +7.0606457488E-001 -5.5573414369E+000  +7.0256596092E-001 +6.3561431553E+000  +2.4165653658E-001 +1.2538487458E+002 
11647501.877 +1.8831557124E-001 +1.1849047671E+002  +7.1493344585E-001 -4.9283364133E+000  +7.0862500006E-001 +6.5142061741E+000  +2.2482896659E-001 +1.2309395572E+002 
11772647.059 +2.0420025132E-001 +1.2954583774E+002  +7.1996901307E-001 -4.8999001377E+000  +7.1445517834E-001 +5.8234192149E+000  +2.0292784063E-001 +1.1677352378E+002 
11897792.240 +1.9506388448E-001 +1.2192302840E+002  +7.2474876919E-001 -4.3955924172E+000  +7.2021720588E-001 +5.9812984732E+000  +2.1327094350E-001 +1.1619599598E+002 
12022937.422 +1.8576828050E-001 +1.3138325110E+002  +7.3786234590E-001 -4.9037573345E+000  +7.2899271445E-001 +4.6962192866E+000  +2.2193662739E-001 +1.2687786617E+002 
12148082.603 +1.7788080631E-001 +1.2067154312E+002  +7.3934844419E-001 -3.8736877462E+000  +7.3426272996E-001 +5.1979881415E+000  +2.0003608432E-001 +1.1912187260E+002 
12273227.785 +1.7291283476E-001 +1.2671535368E+002  +7.4880084652E-001 -3.7395700520E+000  +7.4204894483E-001 +4.8795985198E+000  +1.9324851800E-001 +1.1355596098E+002 
12398372.966 +1.6914116041E-001 +1.1891549628E+002  +7.6156085218E-001 -3.1677654319E+000  +7.5738075036E-001 +4.7819744632E+000  +1.3816545354E-001 +1.2003837885E+002 
12523518.148 +1.5607638696E-001 +1.1641088132E+002  +7.6647093136E-001 -3.0669544181E+000  +7.6364016987E-001 +4.2794145650E+000  +1.5408557944E-001 +1.2341154518E+002 
12648663.329 +1.2071535925E-001 +1.1212141861E+002  +7.7802317585E-001 -2.5313265119E+000  +7.7351259819E-001 +3.9932647093E+000  +1.5684407520E-001 +1.2409662881E+002 
12773808.511 +1.4555125260E-001 +1.2002223491E+002  +7.8390730080E-001 -2.3509952631E+000  +7.7811702187E-001 +3.7569971974E+000  +1.2526196749E-001 +1.1042869409E+002 
12898953.692 +1.2044180211E-001 +1.1055753032E+002  +7.9340100870E-001 -2.0828157852E+000  +7.8825078064E-001 +3.4955236056E+000  +1.3646961234E-001 +1.1754563319E+002 
13024098.874 +1.0279347119E-001 +1.1762639889E+002  +8.0824159164E-001 -1.9917927821E+000  +8.0123162088E-001 +3.1770908394E+000  +1.1093641607E-001 +1.1319748498E+002 
13149244.055 +1.0355755428E-001 +1.0954136249E+002  +8.1147940883E-001 -1.6139991639E+000  +8.0577356761E-001 +2.8486666246E+000  +1.2954843910E-001 +1.1398790771E+002 
13274389.237 +1.0748601669E-001 +1.1889382239E+002  +8.2437189945E-001 -1.6976235683E+000  +8.1720274912E-001 +2.2823215960E+000  +8.1307051573E-002 +1.1136790844E+002 
13399534.418 +7.1131214191E-002 +1.0828362162E+002  +8.3313293244E-001 -1.2407323987E+000  +8.2686294680E-001 +1.9636375557E+000  +1.0033538440E-001 +1.1431620733E+002 
13524679.599 +7.7570647822E-002 +1.0826750857E+002  +8.4217456431E-001 -1.5101589835E+000  +8.3442064253E-001 +1.5106191575E+000  +7.7321871457E-002 +1.1358008132E+002 
13649824.781 +8.0881032402E-002 +9.1798283632E+001  +8.4805748695E-001 -1.0075029757E+000  +8.5486057474E-001 +1.0476507009E+000  +6.2229119656E-002 +1.0107985666E+002 
13774969.962 +5.5078257011E-002 +8.4759152981E+001  +8.6127695125E-001 -7.9227662552E-001  +8.4983602635E-001 +9.9353978551E-001  +6.7624646811E-002 +1.0172387756E+002 
13900115.144 +6.5218110625E-002 +9.2472585375E+001  +8.7298325975E-001 -1.5584616383E+000  +8.6964864769E-001 +4.1254480459E-001  +4.2876272051E-002 +1.1207585348E+002 
14025260.325 +3.5582763527E-002 +6.0568941390E+001  +8.6416215057E-001 -8.5918326461E-001  +8.6900810740E-001 +9.5229321379E-001  +4.7149790777E-002 +9.7864016056E+001 
14150405.507 +3.3517915333E-002 +7.2758603098E+001  +8.7884360774E-001 -1.0247148028E+000  +8.7977374874E-001 +4.1822262780E-001  +3.7535895715E-002 +5.6025397069E+001 
14275550.688 +3.7678226167E-002 +6.8829891657E+001  +8.8932280318E-001 -7.1253963156E-001  +8.8953120250E-001 +9.9451785625E-001  +5.5147945359E-002 +5.5480468160E+001 
14400695.870 +3.1051568663E-002 +3.0285871208E+001  +9.1133894499E-001 -6.5834954561E-001  +8.9834903348E-001 -3.1361486518E-001  +2.7103899869E-002 +3.8337028519E+001 
