!  2-Port S-parameters saved by WinCal
! VAR MeasName=S-Parameters (CALIBRATED_DATA) read from VNA (P5004A)
! VAR MeasDate=29/08/2024 15:27:07
! VAR NAME=f39_RESET3_9k-100M_2
! VAR FILENAME=f39_RESET3_9k-100M_2.S2P
! VAR DATE=29/08/2024 15:27:07
! VAR PHYS_PORTS=1,2
! VAR ObjTypeName=DATASET
! VAR IndexType=Frequency
!
# Hz S MA R 50
9000.000 +9.4468599003E-002 -1.7356652407E+002  +4.2602185765E-003 +4.9733952970E+001  +2.7443579749E-003 +1.6102867079E+002  +2.3645140762E-001 -1.4158370129E+002 
134145.181 +1.1123480210E-001 +1.6960260058E+002  +3.0873004652E-004 -6.3578918216E+001  +6.0574300934E-004 +1.3405397018E+002  +2.3951747081E-001 -1.7104585024E+002 
259290.363 +1.1257092556E-001 +1.7000589809E+002  +7.4232411647E-004 -1.4332184565E+002  +7.5838486804E-004 -8.2842522717E+001  +2.4400664002E-001 -1.6702408434E+002 
384435.544 +1.1366346430E-001 +1.7007401697E+002  +3.9295384026E-004 +1.0967307617E+002  +7.6662574184E-004 -8.5747509518E+001  +2.3852977791E-001 -1.7035175344E+002 
509580.726 +1.1424068695E-001 +1.7121878481E+002  +2.6368956126E-004 +1.1343514466E+002  +1.1392335793E-003 -1.0690413180E+002  +2.6469412626E-001 -1.6592487303E+002 
634725.907 +1.2063252573E-001 +1.7335740803E+002  +1.7097617957E-004 -1.0914866819E+002  +1.3624594048E-003 +7.2920899284E+001  +2.5173234226E-001 -1.6430217344E+002 
759871.089 +1.1908080063E-001 +1.7105672757E+002  +4.5319173448E-004 +7.9287190783E+001  +7.9034723932E-004 -7.8113701265E+001  +2.5339570837E-001 -1.6684416389E+002 
885016.270 +1.2048169869E-001 +1.6991629369E+002  +1.4592364267E-004 -9.5748556571E+001  +8.3065156209E-004 +2.8939732182E+001  +2.4322131631E-001 -1.6606952698E+002 
1010161.452 +1.1845018416E-001 +1.7043956309E+002  +1.2500870849E-003 +1.5353592108E+002  +1.1478922670E-004 -4.8304358721E+001  +2.0738135255E-001 -1.7217711514E+002 
1135306.633 +1.1361688561E-001 +1.7096818799E+002  +5.5370929686E-004 -1.0417881517E+001  +7.0369441585E-004 -1.3231025843E+002  +2.0454394288E-001 -1.6569850410E+002 
1260451.815 +1.2170394887E-001 +1.7123569779E+002  +2.0066587421E-003 -6.5199655042E+001  +1.6836293491E-003 +4.6464045973E+001  +2.3281327327E-001 -1.5972366631E+002 
1385596.996 +1.2573703530E-001 +1.7255929048E+002  +2.6710552097E-004 -1.2759975955E+002  +1.3217904923E-003 +1.6052494412E+002  +2.6175533494E-001 -1.6070166895E+002 
1510742.178 +1.2692807886E-001 +1.7231145037E+002  +1.3673104389E-003 -1.6374636573E+002  +5.3459794844E-004 +1.2649251528E+002  +2.6111246097E-001 -1.5996067041E+002 
1635887.359 +1.2645178881E-001 +1.7118443370E+002  +1.7688419102E-003 +8.0424342673E+001  +1.9761136802E-003 -7.2054717596E+001  +2.5763205022E-001 -1.5278260311E+002 
1761032.541 +1.2613047899E-001 +1.6968984038E+002  +1.9337981008E-003 +8.1751218204E+001  +2.3888859511E-003 +1.2101720079E+002  +2.3161844945E-001 -1.4861811854E+002 
1886177.722 +1.2547453307E-001 +1.6817247404E+002  +2.4932801466E-003 +1.4918374743E+002  +2.6007061339E-003 -1.5751242305E+001  +1.8566716039E-001 -1.6025977935E+002 
2011322.904 +1.2380940762E-001 +1.6824376639E+002  +1.0539403837E-003 -6.9892000956E+000  +7.6797833756E-004 -1.2852505055E+002  +2.0322774659E-001 -1.6289139534E+002 
2136468.085 +1.2567814057E-001 +1.6829440712E+002  +2.3819032062E-003 +4.5866240799E+001  +7.7258277666E-003 +5.7223160373E+001  +8.7675168382E-002 -1.2062811012E+002 
2261613.267 +1.3460455175E-001 +1.6078412372E+002  +2.8986446960E-003 -1.5848077520E+000  +3.6657971031E-003 -1.5273379547E+002  +1.3255022289E-001 -1.7644417042E+002 
2386758.448 +1.3775722719E-001 +1.6297074490E+002  +5.4484436654E-004 -1.2550062946E+002  +2.0187249790E-003 -1.2871520471E+002  +2.0311523783E-001 +1.7890024649E+002 
2511903.630 +1.2062017886E-001 +1.6596322607E+002  +2.1397651548E-003 -1.3707158034E+002  +1.8227788956E-003 -1.4246349927E+002  +2.2614113238E-001 +1.7813007964E+002 
2637048.811 +1.2253947977E-001 +1.6410955239E+002  +6.7966634564E-003 +8.5142818771E+000  +1.5725078799E-002 -3.6639263919E+001  +3.2306562649E-001 +1.1315557346E+002 
2762193.992 +1.2794929052E-001 +1.5872504971E+002  +2.1194437327E-002 +6.3091047685E+000  +5.1186018811E-003 -1.4221087133E+002  +2.0750413356E-001 +8.9864958204E+001 
2887339.174 +1.2524651526E-001 +1.5376735754E+002  +2.0174139599E-002 -5.7846470393E+001  +1.3732823119E-002 +1.7377316238E+002  +3.2282838347E-001 -5.4214730478E+000 
3012484.355 +1.1941604263E-001 +1.6553994110E+002  +4.8058830950E-003 +1.2667410170E+002  +6.3688332272E-003 -2.0948587195E+001  +4.0364221906E-001 -1.0084596265E+002 
3137629.537 +1.3399802301E-001 +1.7124616811E+002  +2.2894398811E-003 -1.7495052915E+002  +2.5371544478E-003 -4.7637426810E+001  +1.6088295506E-001 -1.4690162768E+002 
3262774.718 +1.2925698981E-001 +1.7150643000E+002  +1.7859717658E-003 +1.7527769502E+002  +8.6459823369E-003 +1.6874864040E+002  +6.1318995474E-001 -4.6062211176E+000 
3387919.900 +1.0867168732E-001 +1.5795301757E+002  +7.5418887707E-003 +9.9340234445E+001  +1.5433277143E-002 -8.1561810728E+001  +4.0054131203E-001 +1.2773354555E+002 
3513065.081 +1.4669022685E-001 +1.5001319337E+002  +1.0058229202E-002 +3.1650434998E+001  +1.5647172688E-003 +1.6364970842E+002  +4.0917959558E-001 +9.3735320450E+001 
3638210.263 +1.7882568203E-001 +1.5280254163E+002  +1.6630272583E-002 -1.4486896379E+002  +3.5624838722E-003 +1.3849067890E+002  +7.7867294171E-001 +1.6897849923E+002 
3763355.444 +1.4185440122E-001 +1.5358015958E+002  +5.9085288274E-003 +1.2221945769E+002  +1.3052868912E-002 +4.0023849534E+001  +5.8428714651E-001 +1.2940302408E+002 
3888500.626 +1.6951165259E-001 +1.4973230538E+002  +4.9553455365E-003 +1.5381932310E+002  +6.3204460980E-003 -1.7151616947E+002  +3.9315189648E-001 +1.3210321196E+002 
4013645.807 +1.8637188725E-001 +1.4463613271E+002  +1.2041030150E-002 +1.3002684026E+002  +1.2313135027E-002 +1.5994370207E+001  +8.9825829424E-001 +1.4900771784E+002 
4138790.989 +1.7212247145E-001 +1.4905201633E+002  +5.0992178603E-003 +1.6694654822E+002  +9.6732240359E-003 -3.1952248646E+001  +4.4210538031E-001 +1.2657997223E+002 
4263936.170 +2.1724636395E-001 +1.4732154212E+002  +6.9806955117E-003 +5.2023984080E+001  +3.6870200284E-003 +6.0584622021E+001  +6.9601000669E-001 +1.3107675747E+002 
4389081.352 +2.0053971556E-001 +1.3161194554E+002  +1.9430108987E-002 -1.3248612658E+002  +1.6219009931E-002 +9.5137992394E+001  +4.1066983282E-001 +7.1543782638E+001 
4514226.533 +1.9957401683E-001 +1.2757290803E+002  +1.1769626645E-002 +1.5664466312E+002  +1.6383131025E-002 -2.4242788705E+001  +1.8922917833E+000 +1.7484454804E+002 
4639371.715 +2.6838753202E-001 +1.3644260966E+002  +6.3690806412E-002 -6.1899520508E+000  +1.0937624384E-002 -4.4834412861E+001  +4.5806998830E+000 +1.3872550166E+002 
4764516.896 +3.2691361144E-001 +1.3207841228E+002  +5.8241465407E-002 -4.5115527550E+001  +6.8687888447E-003 +7.3425005494E+001  +2.0479124742E+000 -7.7438022634E+001 
4889662.078 +4.6503913327E-001 +1.3376144590E+002  +1.5044398695E-002 -1.0978726194E+002  +3.2845980867E-002 +1.1322352051E+002  +2.2169327770E+000 -1.3839844476E+002 
5014807.259 +3.6986144590E-001 +1.3895350500E+002  +8.2029388244E-002 -1.7803805121E+002  +1.0867735966E-001 +1.3378437303E+002  +1.1790164561E+001 +1.2647738953E+002 
5139952.441 +3.3240390773E-001 +1.2977226344E+002  +2.0740349345E-002 +1.2817944538E+002  +1.7906383136E-002 +1.6770297161E+002  +1.6119757051E+000 +7.0334854875E+001 
5265097.622 +4.0134153265E-001 +1.2650643162E+002  +2.7721478181E-002 +6.9639053605E+001  +4.4918953542E-002 +1.5407349555E+002  +2.7544010544E+000 +1.1824853757E+002 
5390242.804 +3.6609938576E-001 +1.2742114588E+002  +3.0439511483E-002 -1.5841603056E+002  +3.2558265444E-002 -1.4455337727E+001  +4.3189385735E+000 +7.0392425458E+001 
5515387.985 +4.5102759717E-001 +1.1797861963E+002  +4.4916188535E-002 +1.2688159431E+002  +4.0762076149E-002 +6.0905729934E+001  +2.9861390665E+000 +6.6076309258E+001 
5640533.166 +4.1660919345E-001 +1.2523446994E+002  +2.3080327705E-002 -3.4412606533E+001  +6.7298565234E-003 +1.6142895147E+002  +1.9376793333E+000 +3.6761374069E+001 
5765678.348 +4.8903609038E-001 +1.2429433681E+002  +3.5753674213E-002 +1.0623976018E+002  +4.1401595801E-002 +4.4248227305E+001  +2.2181896390E+000 +4.4465535979E+001 
5890823.529 +5.1607151521E-001 +1.0808564768E+002  +3.4047551290E-002 +3.9991609689E+001  +1.3457857713E-002 +4.9716714815E+000  +2.1651474782E+000 +2.0231882667E+001 
6015968.711 +5.8898223051E-001 +1.2135265790E+002  +2.9311702383E-002 +6.9247584029E+001  +8.2479453460E-003 -1.3916822496E+002  +2.2260809924E+000 +3.2959585681E+001 
6141113.892 +6.5268763255E-001 +1.2108734078E+002  +3.1755207883E-002 +7.5389751910E+001  +9.8288550373E-003 -4.6895970889E+001  +1.9845653059E+000 +1.4773607210E+001 
6266259.074 +9.1887343323E-001 +9.4045779048E+001  +9.3992125378E-003 +1.4806399158E+002  +4.3858635299E-002 +1.3692908313E+002  +2.1107570787E+000 +2.4123314262E+001 
6391404.255 +9.0225043671E-001 +8.6265516157E+001  +2.3733375091E-002 +1.2553563967E+002  +1.4266447091E-002 -5.4647668862E+001  +1.7164934446E+000 +2.7960579989E+001 
6516549.437 +1.3075534425E+000 +9.2997828045E+001  +4.2427788312E-002 +2.6446442945E+001  +1.2559492881E-002 -3.5033363790E+001  +1.1868307229E+000 +4.2951837270E+000 
6641694.618 +1.5995359612E+000 +5.8786417040E+001  +2.4142464922E-003 +5.4509010732E+001  +1.9524773751E-002 +1.0335383853E+002  +1.1726108370E+000 -8.1899803259E+000 
6766839.800 +1.8240937364E+000 +4.3823282448E+001  +1.7838406606E-002 +4.3446052422E+001  +4.6639078222E-002 -1.6025646160E+001  +1.3797931096E+000 -2.7725800211E-001 
6891984.981 +1.6460785109E+000 +2.2100607884E+001  +2.7621298549E-002 +2.5108502994E+001  +1.4580937854E-002 +1.1706679150E+002  +1.0790990024E+000 -9.2045996331E+000 
7017130.163 +1.9428359114E+000 +2.7601526774E+001  +1.0340474177E-002 +1.5652390599E+002  +4.1117383278E-002 +4.0311817574E+001  +1.3221104672E+000 -1.0426641381E+001 
7142275.344 +1.6994700175E+000 +5.6016349279E+000  +1.4811874636E-002 +3.1005242685E+001  +5.5442308676E-003 +1.0858303782E+002  +1.2946638630E+000 -1.4455757227E+001 
7267420.526 +1.6073842262E+000 +1.2446161124E+000  +1.8747215253E-002 +1.5168341031E+001  +1.5595049191E-002 -6.0082171317E+001  +1.3199044945E+000 -1.0015912467E+001 
7392565.707 +1.3906862813E+000 +2.1878510758E+000  +4.5088972300E-003 +9.4573854843E+001  +1.4595621844E-002 +3.7073573933E+001  +1.3394381084E+000 -1.2956921785E+001 
7517710.889 +1.1854600487E+000 -3.8612887673E+000  +1.2166760507E-002 -3.1924913496E+001  +5.1276467101E-003 -1.4346938640E+002  +1.2061875711E+000 -4.0772818501E+000 
7642856.070 +1.1085760089E+000 +2.6979156311E+000  +4.8864886362E-003 -5.5552712529E+001  +9.3818934591E-003 +1.8117240593E+001  +9.8442574394E-001 -3.7824006660E+000 
7768001.252 +9.3241158304E-001 +3.3125183965E+000  +2.6968706683E-003 +1.0553174800E+002  +1.2001713585E-002 +6.6090786714E+001  +1.0259913992E+000 -1.9483504375E+000 
7893146.433 +9.3014507786E-001 +1.2945246642E+000  +1.0130265715E-002 -2.1935842827E+001  +5.1469833751E-003 +6.2972393625E+001  +9.0647138428E-001 -3.8460400679E+000 
8018291.615 +7.9525102070E-001 +9.4439029672E+000  +9.1994334583E-003 -1.4134691075E+001  +9.8459562380E-003 -2.2931037782E+001  +8.1908798499E-001 +3.7418114590E-001 
8143436.796 +8.0049848201E-001 +5.8667478863E+000  +2.4681854922E-003 -1.2762630151E+002  +3.3769482285E-003 +2.1063529230E+001  +8.0980799511E-001 +2.9871660340E+000 
8268581.977 +7.9660788716E-001 +1.0218722283E+001  +6.3771742017E-003 +2.3210805899E+001  +5.7245852711E-003 -6.3319638085E+001  +7.1620777883E-001 +4.5213041425E+000 
8393727.159 +7.6092983515E-001 +8.7829502246E+000  +6.8119930379E-004 -2.7732384522E+000  +1.5379774032E-003 -1.0928810326E+002  +7.3109620167E-001 +4.0720171214E+000 
8518872.340 +6.7908200963E-001 +1.1482192878E+001  +5.5244496481E-003 -4.7639658135E+001  +8.6919487507E-003 -4.1846461457E+000  +7.0438818696E-001 -1.8201768843E+000 
8644017.522 +6.6125660935E-001 +8.8909213573E+000  +3.9756692998E-003 +5.1393369290E+001  +5.8354499148E-003 +6.5204778282E+001  +6.2126337221E-001 -1.5699888886E+000 
8769162.703 +6.2378753340E-001 +5.6039220179E+000  +5.4421600634E-003 +7.5685256957E+001  +4.6673201164E-003 -8.3584299976E+000  +6.6232823939E-001 -1.7780039952E+000 
8894307.885 +5.5803486205E-001 +9.9658085962E+000  +6.0187707528E-003 -9.7312016550E+001  +2.7521693020E-003 -9.8723406429E+001  +6.9397629348E-001 -2.9197475943E-001 
9019453.066 +5.5250094527E-001 +8.9828218644E+000  +7.8574045276E-003 -1.7110466803E+001  +2.1490649606E-003 -3.2686925221E+001  +6.5824083783E-001 +2.3631350289E+000 
9144598.248 +5.9026832966E-001 +5.1972045086E+000  +7.5422241502E-003 +1.2619874977E+001  +2.7964833768E-003 -6.9291040288E+000  +5.7811033066E-001 -1.2319349177E+000 
9269743.429 +5.1295980208E-001 +7.6445213606E+000  +1.3721863664E-003 -2.6733146343E+001  +4.2780718015E-003 -3.1187486636E+001  +6.1137512324E-001 -3.9322862282E+000 
9394888.611 +5.6915352575E-001 +3.4445378416E+000  +4.4248880912E-003 -1.0449743522E+001  +5.8085338238E-003 +5.2557295826E+000  +6.1477129599E-001 +2.2203722321E+000 
9520033.792 +4.9490930343E-001 +1.4055512186E+000  +3.0949811013E-003 -1.0479751758E+001  +3.1287867043E-003 -2.1407338386E+001  +5.9099489708E-001 -1.5502264069E+000 
9645178.974 +5.3271833548E-001 +5.9688161608E+000  +1.3466472187E-003 +7.0379712643E+001  +1.3663832019E-003 +6.8735060419E+000  +6.5178188702E-001 -5.3081457090E+000 
9770324.155 +5.5838353266E-001 +4.8715221898E+000  +4.3202275814E-003 +5.5817264043E+000  +3.6517432462E-003 +1.1097623200E+001  +5.9946755794E-001 -6.0793337635E+000 
9895469.337 +5.5035518733E-001 +3.1197085689E+000  +2.0098358215E-003 +4.6398684070E+001  +3.7573911920E-003 +8.4692879558E+000  +5.3298373602E-001 -4.4930622543E+000 
10020614.518 +5.7395655614E-001 +5.2452583893E+000  +4.0895406273E-003 +3.5047741605E+001  +7.6988990433E-003 +1.4312914020E+001  +5.9956999922E-001 -4.9901489814E+000 
10145759.700 +5.7288203176E-001 +2.2881793184E+000  +3.7671221776E-003 -2.4518574553E+001  +2.4176544098E-003 +1.1754337753E+001  +5.6682624937E-001 -4.7882010815E+000 
10270904.881 +5.5537381503E-001 +6.5791212831E+000  +3.7696152971E-003 -2.5229097646E+001  +5.6608397617E-003 +2.2225172272E+001  +5.6552112999E-001 -4.1605895771E-001 
10396050.063 +5.6343680039E-001 +6.5921015526E+000  +5.9515115225E-003 -9.2889961628E+000  +3.4670226231E-003 +1.3680439959E+001  +5.7428924137E-001 -5.2893814483E+000 
10521195.244 +5.5457484883E-001 +5.5070779694E+000  +5.4024994172E-003 -2.5910497903E+001  +3.2914847423E-003 -1.3140856015E+001  +5.6856770966E-001 +3.9576746318E-002 
10646340.426 +5.8656227053E-001 +7.1384477566E+000  +1.0674689190E-003 -5.8962139564E+000  +6.4368883363E-003 +5.1523166635E+001  +5.9167430254E-001 -1.4762097158E+000 
10771485.607 +5.7375336124E-001 +6.2141669818E+000  +5.7785428451E-003 -2.1582870321E+001  +4.7076550612E-003 -4.9671276656E+000  +5.8034736694E-001 +1.4924809658E+000 
10896630.788 +5.5597321870E-001 +7.8176124197E+000  +4.7854417152E-003 -2.1585180787E+000  +4.6454651301E-003 +1.1347474872E+001  +6.0285874808E-001 +2.2999027956E+000 
11021775.970 +6.1145688022E-001 +8.5567523043E+000  +5.5594481227E-003 -5.6064734570E+000  +3.4516090018E-003 +1.1982212777E+001  +6.0212301520E-001 +1.0160671900E-001 
11146921.151 +6.2236636796E-001 +7.4307312536E+000  +4.6331230461E-003 +1.3907236943E+001  +4.9428951778E-003 -6.1855438726E-001  +6.1163797064E-001 +6.5197411551E-001 
11272066.333 +5.8936765630E-001 +9.4041748248E+000  +8.0995219176E-003 -5.3752840770E+000  +5.2239696972E-003 +1.5628667875E+001  +6.4858895342E-001 +4.7576510985E+000 
11397211.514 +6.1434374191E-001 +1.1047283690E+001  +5.5838205354E-003 +2.5363625782E+000  +5.4567481545E-003 +2.6951469699E+001  +6.5336120561E-001 +2.3780437976E+000 
11522356.696 +6.3114026287E-001 +4.5689797137E+000  +3.1613800078E-003 -3.5023475668E+001  +4.1177985177E-003 +1.3859853138E+001  +6.4547441891E-001 +2.3259103722E+000 
11647501.877 +6.5760477969E-001 +4.2420273924E+000  +4.4798300437E-003 -2.6391334704E+001  +3.9187137987E-003 -1.0493295041E+001  +6.5586161468E-001 +1.1310675658E+000 
11772647.059 +6.3272594906E-001 +7.0928577387E+000  +5.5107161824E-003 +1.7773291438E+001  +3.8835149662E-003 +5.5464798391E+000  +6.4555250138E-001 +1.2674289166E+000 
11897792.240 +6.7080637706E-001 +5.8859468235E+000  +5.7399321740E-003 +1.0809790727E+001  +3.9490955152E-003 -1.2275423576E+001  +6.8162335818E-001 +9.8367308561E-001 
12022937.422 +6.4827005280E-001 +5.6294584273E+000  +5.1153296067E-003 +1.4044380026E+001  +2.7757442435E-003 +1.6503869779E+001  +6.9552324823E-001 -1.0358020628E+000 
12148082.603 +7.0342078673E-001 +6.5218831274E+000  +5.5410897891E-003 -9.6080797961E+000  +3.9648784367E-003 +3.3274319415E+001  +6.9092244274E-001 -8.0955204897E-001 
12273227.785 +7.0234780132E-001 +4.3131418200E+000  +4.5398894784E-003 +1.8563279940E+001  +4.7325395042E-003 +1.6801756695E+001  +7.1378656519E-001 +1.2264361515E+000 
12398372.966 +7.3266796974E-001 +4.8454380139E+000  +3.6664122443E-003 +1.4529111359E+000  +4.4455415985E-003 +1.3635360676E+001  +7.1331698388E-001 +2.4436889543E+000 
12523518.148 +7.3299893613E-001 +4.3276343662E+000  +4.4672745491E-003 -2.4169724798E+001  +5.8935611615E-003 +9.9721234647E+000  +7.1686913105E-001 -2.2288870101E+000 
12648663.329 +7.4785837641E-001 +2.9587348749E+000  +5.0342784043E-003 +1.0404740019E+000  +4.7534619069E-003 +3.2234788486E+001  +7.6045579846E-001 +1.1327273334E+000 
12773808.511 +7.6854723434E-001 +4.7438778240E-001  +7.1327230331E-003 -2.9853464393E-002  +5.0111774333E-003 +1.8235418941E+001  +7.4925411066E-001 -1.7028123959E+000 
12898953.692 +7.7595748037E-001 +1.1550475110E+000  +5.8471284030E-003 +8.8826211043E+000  +7.4416457982E-003 +2.5279562875E+001  +7.6764869428E-001 -6.3379621204E-001 
13024098.874 +7.8794039670E-001 +1.4303763675E+000  +4.4999222652E-003 +1.4389853502E+001  +4.6525919659E-003 +1.7858537097E+001  +7.9688018773E-001 -1.9993539223E+000 
13149244.055 +8.0710161912E-001 +2.8301951235E-001  +4.9296828201E-003 +8.3593982279E+000  +5.0850725430E-003 +2.2163419244E+001  +7.9284215229E-001 -9.2729618926E-001 
13274389.237 +8.1467692227E-001 +1.2532194365E-001  +3.7718159935E-003 +9.9958966199E+000  +6.4349563302E-003 +2.0159529730E+001  +8.3903049256E-001 -9.3188130943E-001 
13399534.418 +8.4580860007E-001 -2.4926342190E+000  +5.5065639795E-003 -9.1750904650E+000  +4.6803814451E-003 +2.8317519011E+001  +8.2130998579E-001 -3.1706556597E+000 
13524679.599 +8.5955881344E-001 -1.2083399693E+000  +5.7940494666E-003 +1.2120206639E+001  +4.8349240839E-003 -3.0183932439E+000  +8.6399129838E-001 -2.2099997937E+000 
13649824.781 +8.7098224990E-001 -1.0964000456E+000  +5.8203811321E-003 -9.5199592323E-001  +5.6299552977E-003 +1.5698683039E+000  +8.9260796567E-001 -3.1041419438E+000 
13774969.962 +8.8640241018E-001 -2.8423741838E+000  +4.9076472748E-003 -6.5526368899E+000  +5.7623903069E-003 +1.0243606278E+001  +8.9359325951E-001 -3.1956877402E+000 
13900115.144 +8.9033601011E-001 -2.4649757257E+000  +5.4546239826E-003 +2.6129453592E+000  +5.9464608948E-003 +2.5362172715E+001  +9.1176535251E-001 -4.5362351865E+000 
14025260.325 +9.3790065542E-001 -4.5018102060E+000  +5.8565956094E-003 +5.1900188752E+000  +7.0902502897E-003 +7.3480478978E+000  +9.3978770802E-001 -2.8924087438E+000 
14150405.507 +9.3002222034E-001 -4.2923922583E+000  +4.6655026948E-003 +1.1209026879E+001  +6.4736837966E-003 +1.4633868190E+001  +9.6094481203E-001 -5.8726794688E+000 
14275550.688 +9.7379055987E-001 -4.0379910308E+000  +6.9326551561E-003 +8.0964801471E+000  +4.7914111433E-003 +1.0403210832E+001  +9.6576381261E-001 -5.1447608549E+000 
14400695.870 +9.6834260108E-001 -4.4459015932E+000  +6.0789614828E-003 +6.2291638056E+000  +4.8724186259E-003 +1.4140230417E+000  +1.0178635691E+000 -5.1229928317E+000 
