!  2-Port S-parameters saved by WinCal
! VAR MeasName=S-Parameters (CALIBRATED_DATA) read from VNA (P5004A)
! VAR MeasDate=29/08/2024 15:24:02
! VAR NAME=f39_RESET2_9k-100M_1
! VAR FILENAME=f39_RESET2_9k-100M_1.S2P
! VAR DATE=29/08/2024 15:24:02
! VAR PHYS_PORTS=1,2
! VAR ObjTypeName=DATASET
! VAR IndexType=Frequency
!
# Hz S MA R 50
9000.000 +8.1378827635E-002 -1.5973452598E+002  +7.3179529161E-003 -3.1675959770E+001  +5.8665604154E-003 -9.2105137969E+000  +1.9321131668E-001 -1.4927576863E+002 
134145.181 +1.1102010910E-001 +1.6957628784E+002  +1.8605187552E-004 -1.3751521573E+002  +5.5730997384E-004 +1.3038164566E+002  +2.4067461309E-001 -1.7151651121E+002 
259290.363 +1.1203642780E-001 +1.6914241647E+002  +5.4409397971E-004 -1.9494211892E+001  +1.0254077464E-003 +1.4153895804E+002  +2.4750506902E-001 -1.6896373050E+002 
384435.544 +1.1483260970E-001 +1.7017301655E+002  +9.0617218496E-004 -6.2138837635E+001  +7.6066474164E-004 +4.7899013255E+001  +2.4099105973E-001 -1.7056858424E+002 
509580.726 +1.1429940434E-001 +1.7009551650E+002  +8.9160597808E-004 -9.0005365749E+001  +2.0402123247E-003 +1.4129908734E+002  +2.3645278064E-001 -1.6550528213E+002 
634725.907 +1.1827862040E-001 +1.7147738081E+002  +8.7419295316E-004 -1.2359095274E+002  +1.9057838553E-003 +9.9131803323E+001  +2.4538219134E-001 -1.6493700280E+002 
759871.089 +1.2011774692E-001 +1.7054224318E+002  +9.4020278857E-004 -3.4961411828E+001  +8.3212797025E-004 +1.2539322212E+002  +2.4247159093E-001 -1.6854555042E+002 
885016.270 +1.2137853123E-001 +1.6887351230E+002  +8.3163790700E-004 -4.7008455399E+001  +1.1177375076E-003 +1.2341005519E+002  +2.4495230750E-001 -1.6738819015E+002 
1010161.452 +1.1747125071E-001 +1.7085042731E+002  +1.9520253724E-003 -5.1611002143E-001  +1.5986211514E-003 +1.7294928978E+002  +2.2383107970E-001 -1.6809029452E+002 
1135306.633 +1.1741755844E-001 +1.6811021480E+002  +2.6166954465E-003 +4.8335220428E+001  +2.7403861779E-003 -9.6319898189E+001  +2.0722425393E-001 -1.7395176914E+002 
1260451.815 +1.2086402685E-001 +1.6854249382E+002  +5.5021063107E-003 +1.3815850162E+001  +6.7190969342E-003 -1.5637725736E+002  +1.7886953509E-001 -1.5714825411E+002 
1385596.996 +1.2706743306E-001 +1.7113116591E+002  +1.9809249177E-003 -4.8854779949E+001  +3.4834061497E-003 +1.5336811700E+002  +2.5847907981E-001 -1.5920402683E+002 
1510742.178 +1.2811968578E-001 +1.7071368142E+002  +2.3800273324E-003 -4.7644390503E+000  +1.7637823960E-003 -1.7912186103E+002  +2.4881215470E-001 -1.5853446828E+002 
1635887.359 +1.2791464297E-001 +1.7075994990E+002  +1.9026090591E-003 -1.2615757375E+001  +3.6113563212E-003 -1.5670676170E+002  +2.4742881546E-001 -1.5952924847E+002 
1761032.541 +1.3127677833E-001 +1.6959672836E+002  +2.3017373683E-003 +5.9054441825E+001  +2.4340531301E-003 -8.4363166003E+001  +2.3579770854E-001 -1.6287666977E+002 
1886177.722 +1.3064568896E-001 +1.7007437488E+002  +6.8428967259E-003 +4.7634671861E+001  +9.2079263413E-003 -8.0263652521E+001  +1.7756085556E-001 -1.5573519474E+002 
2011322.904 +1.3172926597E-001 +1.6855171513E+002  +1.0830555947E-002 +5.6088816463E+001  +1.0482047406E-002 -8.6765758223E+001  +2.0730067232E-001 -1.5555307129E+002 
2136468.085 +1.3419726505E-001 +1.6665597240E+002  +1.0078474110E-002 +7.5826365211E+001  +8.5250125222E-003 -4.5055831957E+001  +2.2501554816E-001 -1.6501380903E+002 
2261613.267 +1.3415868642E-001 +1.6695358201E+002  +1.6419000404E-002 +5.2075231421E+001  +1.4771497221E-002 -7.4769788429E+001  +2.1681905710E-001 -1.5269758914E+002 
2386758.448 +1.4085832769E-001 +1.6788096534E+002  +1.8729503464E-002 +8.0375730580E+001  +1.8222417890E-002 -3.5979872316E+001  +2.0053453424E-001 -1.7683072046E+002 
2511903.630 +1.3372289521E-001 +1.6973297293E+002  +3.9322890146E-002 +5.5984481553E+001  +4.0850842308E-002 -5.8362152904E+001  +1.0767001125E-001 -1.6210239744E+002 
2637048.811 +1.3185018187E-001 +1.6597656866E+002  +5.2924092481E-002 +7.4227200470E+001  +5.7991747031E-002 -4.0301008367E+001  +1.0337532895E-001 +1.6753562149E+002 
2762193.992 +1.1859765650E-001 +1.7916360474E+002  +5.6991125909E-002 +1.7294303076E+001  +5.5788239200E-002 -8.7881417659E+001  +1.8254999394E-001 -1.4782549812E+002 
2887339.174 +1.5435792549E-001 -1.7698937901E+002  +1.2617428573E-001 -3.6113280072E+001  +1.2235888286E-001 -1.4198921838E+002  +4.3773185520E-001 -9.7350713581E+001 
3012484.355 +1.3801875330E-001 +1.7616013617E+002  +7.2524975654E-002 +1.1058455665E+001  +6.9650171197E-002 -8.6135875799E+001  +1.2824905574E-001 -1.0383588208E+002 
3137629.537 +1.2874618350E-001 -1.7992145213E+002  +8.3370821125E-002 +1.3284099054E+001  +8.4369578408E-002 -8.4515745071E+001  +1.3512884187E-001 -1.1549615473E+002 
3262774.718 +1.2498619711E-001 +1.6717826882E+002  +9.1413889688E-002 +4.6872736135E+001  +8.0170444517E-002 -4.2840483752E+001  +5.7861894950E-002 -1.7752892416E+002 
3387919.900 +1.3027993819E-001 +1.6480019968E+002  +6.9054041654E-002 +4.5912827498E+001  +7.7141329313E-002 -4.2389655480E+001  +1.0491686637E-001 -1.6180413396E+002 
3513065.081 +1.2137418395E-001 +1.6355197489E+002  +1.2539283957E-001 +5.5795384291E+001  +1.1777046499E-001 -3.0178935710E+001  +1.1195714666E-001 +9.1686714508E+001 
3638210.263 +1.5061665876E-001 +1.5188661935E+002  +1.0635563557E-001 +1.0255295899E+002  +1.0799843213E-001 +1.9005115166E+001  +3.6782205367E-001 +1.4185774242E+002 
3763355.444 +1.7542792183E-001 +1.4826122113E+002  +1.0297996299E-001 +9.3529706090E+001  +9.6881874645E-002 +1.7946251760E+001  +2.2309880324E-001 +1.4268055270E+002 
3888500.626 +1.4700385717E-001 +1.5709808595E+002  +1.0358695453E-001 +6.8830464252E+001  +1.0846175761E-001 -8.1782059992E+000  +1.9317727246E-001 +1.3508363546E+002 
4013645.807 +1.7408914530E-001 +1.5557934318E+002  +7.7040050028E-002 +7.9098153040E+001  +7.2170781109E-002 +1.1053135564E+001  +2.5006970805E-001 +1.6342417055E+002 
4138790.989 +1.6446693175E-001 +1.6144761477E+002  +1.2840765310E-001 +6.8274426776E+001  +1.2992095717E-001 +1.6881677024E-001  +3.3354472041E-001 +1.0768882438E+002 
4263936.170 +1.9931489542E-001 +1.5288403731E+002  +8.4850313537E-002 +9.0142663335E+001  +8.2011879544E-002 +2.6689760032E+001  +2.9087790378E-001 +1.6049356689E+002 
4389081.352 +1.3397286826E-001 +1.4168077119E+002  +1.7582563836E-001 +6.2064041644E+001  +1.7363602900E-001 +1.3149564248E+000  +2.0035220504E-001 +1.1717975174E+002 
4514226.533 +2.1461852575E-001 +1.5122723164E+002  +1.0596455283E-001 +7.7050970558E+001  +9.9516349386E-002 +2.1764009726E+001  +2.2957231428E-001 +1.5228740368E+002 
4639371.715 +2.2317462681E-001 +1.3941333376E+002  +1.8136274286E-001 +9.8494781428E+001  +1.7555124118E-001 +4.6056099695E+001  +5.0346028127E-001 +1.3326690945E+002 
4764516.896 +2.5456407222E-001 +1.3044376412E+002  +2.6302640621E-001 +9.8237951801E+001  +2.6879060368E-001 +4.6144973789E+001  +6.3660635970E-001 +1.1295321838E+002 
4889662.078 +7.8772137566E-001 +1.4834200060E+002  +1.3770115869E+000 +1.7224310733E+002  +1.3592328936E+000 +1.2288423334E+002  +3.6292384218E+000 +1.4822742205E+002 
5014807.259 +4.8385716762E-001 +1.2597379549E+002  +7.1710811563E-001 +1.3305160825E+002  +6.7156089944E-001 +8.9346315134E+001  +2.0023848257E+000 +1.2608284249E+002 
5139952.441 +3.6986936160E-001 +1.2280246548E+002  +3.4007135839E-001 +1.2107933860E+002  +3.3891724944E-001 +7.8164524762E+001  +9.1137742419E-001 +1.4077327740E+002 
5265097.622 +4.1910531872E-001 +1.3622863170E+002  +4.4899812598E-001 +1.3278512011E+002  +4.2060188154E-001 +9.3457954501E+001  +1.5132514781E+000 +1.3032400549E+002 
5390242.804 +3.6203775104E-001 +1.2778951205E+002  +4.0006432151E-001 +1.0599778163E+002  +3.9608232412E-001 +7.0484383834E+001  +1.2371207985E+000 +1.1940966210E+002 
5515387.985 +3.7411014529E-001 +1.3265833704E+002  +2.5735636240E-001 +1.0418595591E+002  +2.5598374180E-001 +7.1236478668E+001  +7.8777240376E-001 +1.3673746146E+002 
5640533.166 +3.9466457823E-001 +1.2991957037E+002  +3.4183119505E-001 +9.4081267505E+001  +3.2956395140E-001 +6.6138292203E+001  +9.5536206417E-001 +1.1588567547E+002 
5765678.348 +3.9138042354E-001 +1.2607180616E+002  +3.9493907771E-001 +8.6965331206E+001  +3.9241173334E-001 +5.5775317440E+001  +1.0873382166E+000 +1.0452675988E+002 
5890823.529 +4.0239027608E-001 +1.2460442710E+002  +4.1921356603E-001 +8.8096738306E+001  +4.1008634911E-001 +6.3086793460E+001  +1.3224881505E+000 +1.1473305993E+002 
6015968.711 +4.0055667814E-001 +1.2155265013E+002  +3.8344506064E-001 +7.6728271087E+001  +3.7113053019E-001 +5.4324635676E+001  +9.8701653746E-001 +1.1358323220E+002 
6141113.892 +5.3922582007E-001 +1.0332923720E+002  +5.8774957859E-001 +7.0459452465E+001  +5.6698787278E-001 +4.9545010435E+001  +1.1433272804E+000 +8.8339314818E+001 
6266259.074 +5.2457826468E-001 +9.8893941897E+001  +6.3167931334E-001 +5.2825582583E+001  +6.0581571470E-001 +3.4761106906E+001  +1.1305925671E+000 +5.9795060742E+001 
6391404.255 +4.0664994790E-001 +9.3785288813E+001  +5.7344833261E-001 +3.8759223687E+001  +5.7020755950E-001 +2.3667734351E+001  +9.7549673185E-001 +5.8501140967E+001 
6516549.437 +5.2926867514E-001 +7.3560030503E+001  +7.2194021944E-001 +2.9875306995E+001  +7.2529577415E-001 +1.6365213817E+001  +1.1517925918E+000 +3.5310226068E+001 
6641694.618 +5.7324604844E-001 +7.1588543146E+001  +6.8395648080E-001 +2.9269786570E+001  +6.6635571062E-001 +1.8831591344E+001  +9.7868917019E-001 +4.3800724448E+001 
6766839.800 +8.1539184969E-001 +6.4030693342E+001  +7.3301674392E-001 +2.8978369265E+001  +7.2599516333E-001 +1.8172122424E+001  +9.0055049387E-001 +2.8478745915E+001 
6891984.981 +7.3074231542E-001 +4.2730464078E+001  +7.0308366116E-001 +1.1226490216E+001  +6.8454353874E-001 +5.0900848017E+000  +7.8055512280E-001 -2.7777222524E-001 
7017130.163 +5.2047392717E-001 +4.0557600800E+001  +6.1222455739E-001 +5.9714731619E+000  +6.1100799897E-001 +8.8909305415E-001  +8.3080942073E-001 +5.0641683954E+000 
7142275.344 +5.1456330282E-001 +9.1085494578E+000  +6.0338396418E-001 -1.5058617336E+000  +6.1415323250E-001 -4.5112066887E+000  +7.9551751796E-001 -9.9943334850E+000 
7267420.526 +5.7508039184E-001 +7.1537803751E+000  +5.6976343751E-001 +1.2365929415E+000  +5.7426909798E-001 +1.0809866456E+000  +7.0238291824E-001 +2.4736832146E+000 
7392565.707 +6.9884202654E-001 -7.7839797501E+000  +5.5295096505E-001 +2.0290759910E+000  +5.5533987710E-001 +2.8796602383E+000  +6.4990924844E-001 -9.1030618202E+000 
7517710.889 +4.9340945333E-001 +2.2310401468E+000  +5.0510727194E-001 +2.5270036956E+000  +4.9669921613E-001 +3.4093912308E+000  +6.8542201327E-001 -5.6755060021E-001 
7642856.070 +4.8789046192E-001 +1.3174142387E+001  +4.6911233426E-001 +1.0117195349E+000  +4.7561201816E-001 +4.9637310719E+000  +4.7987935822E-001 +4.5261809070E+000 
7768001.252 +4.1221695942E-001 +1.2343385340E+001  +4.6377087081E-001 +5.3054672454E-001  +4.5728455967E-001 +5.5090421526E+000  +4.9576522662E-001 +4.9020216280E+000 
7893146.433 +3.7671177491E-001 +1.7722635542E+001  +4.4193233073E-001 -1.2851923214E+000  +4.4519272253E-001 +5.1719217681E+000  +3.7524520501E-001 +2.3147196364E+000 
8018291.615 +3.2465258420E-001 +1.6464768154E+001  +4.4069449121E-001 -2.7520293117E+000  +4.3179134335E-001 +5.2602288045E+000  +3.6868508859E-001 -1.3652305577E+000 
8143436.796 +3.6268267342E-001 +2.4086170933E+001  +4.1947255911E-001 -2.0753597115E+000  +4.2303045073E-001 +6.6996872497E+000  +3.6725879443E-001 +2.9950904480E+000 
8268581.977 +2.8251755236E-001 +3.8303414174E+001  +3.9462322689E-001 -3.4739210238E+000  +3.9572338948E-001 +6.3235290644E+000  +3.4482828951E-001 +2.8825950436E+001 
8393727.159 +3.1601473170E-001 +2.0862694619E+001  +4.1317515425E-001 -2.9827106288E+000  +4.1170780691E-001 +7.4945520430E+000  +3.6470231501E-001 +7.6379713666E+000 
8518872.340 +3.1235342067E-001 +3.9529414173E+001  +3.8913071320E-001 -4.4346207004E+000  +3.8476989171E-001 +8.0698419496E+000  +2.7675589658E-001 +2.4519965339E+001 
8644017.522 +2.4169040149E-001 +2.1433234625E+001  +3.9523720634E-001 -5.0960974446E+000  +3.9002307311E-001 +6.5764197768E+000  +2.4224412768E-001 +2.7434201692E+001 
8769162.703 +2.1555764447E-001 +2.5261893118E+001  +3.9099333687E-001 -5.7529420641E+000  +3.8995192658E-001 +7.4052939603E+000  +2.4329837160E-001 +1.9390368730E+001 
8894307.885 +2.3362363373E-001 +4.3279160845E+001  +3.7813433225E-001 -5.7227969552E+000  +3.7998087381E-001 +8.4424426645E+000  +2.3953723518E-001 +3.6813678520E+001 
9019453.066 +1.9315353541E-001 +3.7172883922E+001  +3.7907872622E-001 -6.1503333649E+000  +3.7513057763E-001 +7.6192797168E+000  +2.0430612753E-001 +2.7570432613E+001 
9144598.248 +1.1873471305E-001 +3.1132420924E+001  +3.8352002349E-001 -7.6319855442E+000  +3.7887241481E-001 +7.7945643776E+000  +2.1293832668E-001 +2.2483691507E+001 
9269743.429 +1.6716647299E-001 +3.8859948458E+001  +3.8230909425E-001 -6.7451164611E+000  +3.7649151865E-001 +8.5787393160E+000  +1.6686045531E-001 +1.6522281181E+001 
9394888.611 +1.3664162886E-001 +3.4434694619E+001  +3.8202562284E-001 -7.1464461442E+000  +3.7544485616E-001 +8.1116616774E+000  +1.7591936410E-001 +2.5688592085E+001 
9520033.792 +1.6101104660E-001 +3.1765021902E+001  +3.8086607077E-001 -6.5149781552E+000  +3.7727529295E-001 +8.9683127083E+000  +1.7100226004E-001 +2.0164858487E+001 
9645178.974 +1.8325432803E-001 +3.6830028170E+001  +3.7908039067E-001 -6.4291582754E+000  +3.7611148821E-001 +9.4239933959E+000  +1.6356236558E-001 +1.1512962801E+001 
9770324.155 +1.6827839929E-001 +3.5131655434E+001  +3.8236693931E-001 -6.1606228869E+000  +3.7785214610E-001 +9.7563220015E+000  +1.8325488247E-001 +1.6576074108E+001 
9895469.337 +1.6498378473E-001 +2.2631227822E+001  +3.8178939052E-001 -6.1283899554E+000  +3.8479955720E-001 +9.5761339980E+000  +1.7309169200E-001 +1.2930877243E+001 
10020614.518 +1.3606652687E-001 +2.5822478774E+001  +3.8864336257E-001 -5.8761988779E+000  +3.8468672742E-001 +9.5301262030E+000  +1.9596007175E-001 +4.7324420522E+000 
10145759.700 +1.4446288267E-001 +2.7047041761E+001  +3.8501824817E-001 -6.0624959786E+000  +3.8472368631E-001 +9.5165526730E+000  +1.4692683842E-001 +1.1432063631E+001 
10270904.881 +2.0713139048E-001 +3.6159939286E+001  +3.8446438474E-001 -5.4080288335E+000  +3.7910388724E-001 +1.0139592946E+001  +1.4374324876E-001 +3.2838475982E+001 
10396050.063 +1.7661801434E-001 +3.8776347820E+001  +3.8277350130E-001 -5.4666839651E+000  +3.8276766669E-001 +1.0036855611E+001  +1.9253541064E-001 +2.9502326195E+001 
10521195.244 +1.9978016524E-001 +2.3920223712E+001  +3.9228757370E-001 -3.9632868093E+000  +3.8925516041E-001 +1.0832875553E+001  +2.2150629099E-001 +1.6641438426E+001 
10646340.426 +2.0612543774E-001 +3.8889782033E+001  +3.9026816161E-001 -4.4206884812E+000  +3.8650532793E-001 +1.0606359051E+001  +1.9336792317E-001 +2.5263365497E+001 
10771485.607 +2.0473170928E-001 +2.9844113794E+001  +3.9245130975E-001 -4.7926665371E+000  +3.9253551404E-001 +1.0018057503E+001  +1.5568407321E-001 +3.0565707120E+001 
10896630.788 +1.8326090641E-001 +2.9303312577E+001  +3.9520893984E-001 -3.8676396335E+000  +3.9320537053E-001 +1.0258691642E+001  +2.1562377189E-001 +3.0182974287E+001 
11021775.970 +1.9407326678E-001 +3.5570130248E+001  +3.9638862664E-001 -4.1470934473E+000  +3.9074918832E-001 +9.7203645862E+000  +2.0684517189E-001 +3.2700647665E+001 
11146921.151 +2.0640873337E-001 +2.6487636150E+001  +4.0010946172E-001 -3.4924113305E+000  +3.9938349169E-001 +9.6238873388E+000  +1.9228943580E-001 +2.6926207244E+001 
11272066.333 +2.2031818712E-001 +2.8501693403E+001  +4.0343743535E-001 -3.0297626041E+000  +4.0182041566E-001 +1.0378823285E+001  +2.2020297132E-001 +2.1833723281E+001 
11397211.514 +2.0011635279E-001 +2.4766477176E+001  +4.0856523186E-001 -3.1773430475E+000  +4.0290308284E-001 +9.0728424540E+000  +2.1784655788E-001 +2.9672017627E+001 
11522356.696 +2.0083563815E-001 +3.5313969855E+001  +4.0716172588E-001 -3.0002433871E+000  +4.0525393959E-001 +9.0947201974E+000  +2.3156451762E-001 +2.7772614409E+001 
11647501.877 +2.4313351284E-001 +3.2763723597E+001  +4.0914098657E-001 -1.9665210026E+000  +4.0867832607E-001 +9.6340434350E+000  +2.4864557396E-001 +2.8026814717E+001 
11772647.059 +2.3069087481E-001 +2.6103443786E+001  +4.1819455493E-001 -1.9869320182E+000  +4.1425943098E-001 +8.5640055869E+000  +2.3428525338E-001 +2.3446877865E+001 
11897792.240 +2.3251823975E-001 +2.6957101692E+001  +4.2285804261E-001 -1.7103673502E+000  +4.1861410982E-001 +8.6835262859E+000  +2.5614611456E-001 +1.8962706795E+001 
12022937.422 +2.5160443511E-001 +2.3545830311E+001  +4.2467147752E-001 -1.0869757654E+000  +4.2219061319E-001 +8.6789691966E+000  +2.7668432356E-001 +1.9435332053E+001 
12148082.603 +2.4408942649E-001 +2.6082155452E+001  +4.3300867845E-001 -1.2342941940E+000  +4.2645908925E-001 +7.7207048901E+000  +2.5121370290E-001 +1.6628888203E+001 
12273227.785 +2.5743865743E-001 +2.0082137628E+001  +4.3631753861E-001 -9.8312428286E-001  +4.3188049903E-001 +7.6674672259E+000  +2.7115608980E-001 +1.4938687836E+001 
12398372.966 +2.7515385698E-001 +2.0632440935E+001  +4.3769645433E-001 -3.6859699121E-001  +4.3483725194E-001 +7.5386022658E+000  +2.8695373610E-001 +1.6778274931E+001 
12523518.148 +2.7224314788E-001 +1.4198889223E+001  +4.4905049278E-001 -5.9271382695E-001  +4.4412001265E-001 +6.7512285106E+000  +2.6669947163E-001 +1.1845206461E+001 
12648663.329 +2.7072525092E-001 +1.2719753090E+001  +4.5163970860E-001 -4.3754746056E-001  +4.4759136660E-001 +6.2831033923E+000  +2.7970896037E-001 +1.3130115724E+001 
12773808.511 +2.9464027494E-001 +1.6528969122E+001  +4.5395888951E-001 +1.3404908144E-001  +4.4807658776E-001 +5.9727533752E+000  +3.0544149441E-001 +1.0137333134E+001 
12898953.692 +3.0493525255E-001 +1.1629721171E+001  +4.5772681224E-001 +1.3899835628E-001  +4.5503928391E-001 +5.8878392354E+000  +3.1931782016E-001 +1.0637475715E+001 
13024098.874 +3.2114367207E-001 +1.1646832691E+001  +4.6587424109E-001 +3.9129453244E-001  +4.6087497085E-001 +5.5509012511E+000  +3.2533763331E-001 +5.4128452779E+000 
13149244.055 +3.2136233874E-001 +6.6624120051E+000  +4.6969467828E-001 +4.7304350430E-001  +4.6732916762E-001 +4.9684571949E+000  +3.3080496547E-001 +5.1777211520E+000 
13274389.237 +3.2909887329E-001 +6.3564522007E+000  +4.7640052470E-001 +3.9662754357E-001  +4.7200226697E-001 +4.5648888010E+000  +3.4336943744E-001 +1.8536992414E+000 
13399534.418 +3.5398812613E-001 +1.4366077467E+000  +4.8369758916E-001 +6.5169529313E-001  +4.7806988612E-001 +3.9073534398E+000  +3.3157012218E-001 +9.6290733937E-001 
13524679.599 +3.5441885529E-001 +4.3499638950E+000  +4.8391607733E-001 +7.4077831494E-001  +4.7908152866E-001 +3.8905373124E+000  +3.6839545589E-001 +2.3078075838E-001 
13649824.781 +3.7507080526E-001 +5.4042551684E-001  +4.9107279225E-001 +7.6523478375E-001  +4.8538363072E-001 +3.4359648862E+000  +3.8268096552E-001 +1.0221926729E-001 
13774969.962 +4.1366867792E-001 -6.7510306280E-001  +4.9440601756E-001 +1.0560996718E+000  +4.8897159515E-001 +3.1386365726E+000  +3.7052756996E-001 -5.2152363433E-002 
13900115.144 +4.1066416756E-001 -1.3299224109E+000  +4.9960866452E-001 +9.4558767466E-001  +4.9430551306E-001 +2.7465346982E+000  +4.0942297576E-001 -2.6051556877E+000 
14025260.325 +4.0775400720E-001 -2.0380868683E+000  +5.0250606702E-001 +6.9980260785E-001  +4.9618341016E-001 +2.0912308958E+000  +4.0518832371E-001 -1.9277937718E+000 
14150405.507 +4.2696959166E-001 -3.7928955123E+000  +5.0426619442E-001 +7.3856173294E-001  +5.0170812485E-001 +1.7930883211E+000  +4.3320627995E-001 -1.6702153597E+000 
14275550.688 +4.4296839957E-001 -4.7710041846E+000  +5.1138952613E-001 +5.5225470876E-001  +5.0410030764E-001 +1.6372550811E+000  +4.3303457029E-001 -5.4057947740E+000 
14400695.870 +4.4239680997E-001 -4.7209057497E+000  +5.1282082797E-001 +5.7469886152E-001  +5.0661064042E-001 +1.2128255158E+000  +4.7157924324E-001 -3.3664647831E+000 
