!  2-Port S-parameters saved by WinCal
! VAR MeasName=S-Parameters (CALIBRATED_DATA) read from VNA (P5004A)
! VAR MeasDate=29/08/2024 15:44:15
! VAR NAME=f39_SET2_9k-100M_1
! VAR FILENAME=f39_SET2_9k-100M_1.S2P
! VAR DATE=29/08/2024 15:44:15
! VAR PHYS_PORTS=1,2
! VAR ObjTypeName=DATASET
! VAR IndexType=Frequency
!
# Hz S MA R 50
9000.000 +1.0062865039E-001 -1.6271359374E+002  +6.5078146985E-003 -4.9994029473E+001  +1.0244366272E-002 -2.3019554623E+001  +2.8052248121E-001 -1.4572791798E+002 
134145.181 +1.1158689363E-001 +1.6924407404E+002  +2.5433835986E-005 -1.4666177794E+001  +3.4346421192E-004 +1.2465300421E+002  +2.4066235601E-001 -1.7082798758E+002 
259290.363 +1.1207481519E-001 +1.7007956848E+002  +4.6745299336E-004 -1.2351992259E+002  +8.5634758491E-004 +1.2296399093E+002  +2.4828023513E-001 -1.6737893605E+002 
384435.544 +1.1509728462E-001 +1.7120274122E+002  +1.1913317742E-003 -8.1887076224E+001  +6.7760344783E-004 +1.4748375588E+002  +2.3850909323E-001 -1.6539983124E+002 
509580.726 +1.1325171923E-001 +1.7124378568E+002  +8.5901843154E-004 -1.3702543290E+002  +1.4616190156E-003 +1.1572014256E+002  +2.5377970540E-001 -1.6487328174E+002 
634725.907 +1.1727711115E-001 +1.7189039250E+002  +6.4268445838E-004 -5.0976801036E+001  +1.4461743407E-003 +4.1001323136E+001  +2.5423167348E-001 -1.6592891893E+002 
759871.089 +1.1970435040E-001 +1.7115137077E+002  +9.0755046648E-004 -1.3491072967E+002  +8.8482079835E-004 +5.6060693364E+001  +2.5367193198E-001 -1.6765947159E+002 
885016.270 +1.2102680301E-001 +1.6883539069E+002  +2.2506225187E-004 -6.4148387273E+001  +5.1667102056E-004 +6.9081695386E+001  +2.3852873597E-001 -1.6646173737E+002 
1010161.452 +1.1608681525E-001 +1.7073673689E+002  +1.6681944505E-003 -5.2883601110E+001  +9.9341068312E-004 +1.4509323048E+002  +2.2113306707E-001 -1.7033262632E+002 
1135306.633 +1.1855390477E-001 +1.6897715482E+002  +1.4837484827E-003 -1.6198057176E+001  +2.3760554174E-003 -1.4611528341E+002  +2.0193917679E-001 -1.7181592847E+002 
1260451.815 +1.1558231193E-001 +1.7063971030E+002  +1.6582992881E-003 -4.6921127303E+001  +1.6115557810E-003 -1.7540969946E+002  +2.2914240244E-001 -1.6734337318E+002 
1385596.996 +1.2689761706E-001 +1.7169184692E+002  +7.6175719430E-004 -3.7860610699E+001  +2.5599101322E-003 +1.0412953721E+002  +2.7069573756E-001 -1.5218024740E+002 
1510742.178 +1.2730378649E-001 +1.7381312052E+002  +1.4863993768E-003 -6.4938100225E+001  +1.6469141405E-003 +1.2406418209E+002  +2.6046891474E-001 -1.5950391065E+002 
1635887.359 +1.3127422169E-001 +1.7130800536E+002  +2.5864227788E-003 -3.0340763842E+001  +1.4965573827E-003 +1.5596461576E+002  +2.3372048295E-001 -1.5918987648E+002 
1761032.541 +1.3092929743E-001 +1.7022436986E+002  +2.1620784150E-003 +3.6548734266E+001  +2.3370478692E-003 -1.2081692822E+002  +2.2669301224E-001 -1.6293555666E+002 
1886177.722 +1.3172939115E-001 +1.6805332936E+002  +2.8941243881E-003 +6.0191442667E+000  +3.9741522645E-003 -6.0057751635E+001  +2.1048606792E-001 -1.5881950243E+002 
2011322.904 +1.2742537635E-001 +1.6625992267E+002  +6.1811256030E-003 +4.7136261214E+001  +9.2942304047E-003 -9.3567433370E+001  +1.6343920969E-001 -1.5296661246E+002 
2136468.085 +1.2607258627E-001 +1.6554669341E+002  +1.0830795537E-002 +8.4444285579E+001  +6.1731945498E-003 -2.9087374840E+001  +1.8929921159E-001 +1.7922602495E+002 
2261613.267 +1.3596362128E-001 +1.6656556742E+002  +6.2809245448E-003 +7.1564867147E+001  +4.9826431167E-003 -6.1499245922E+001  +2.1004783125E-001 -1.6505759718E+002 
2386758.448 +1.3385902188E-001 +1.6417831511E+002  +7.9421809182E-003 +6.6493211820E+001  +6.2020313361E-003 -2.8700152377E+001  +2.4100195024E-001 -1.7211896276E+002 
2511903.630 +1.1269000680E-001 +1.6366944566E+002  +2.7093367906E-002 +6.6550691200E+001  +3.6054671886E-002 -4.4718182347E+001  +1.2487922174E-001 +1.5495864475E+002 
2637048.811 +1.0933301148E-001 +1.6934509431E+002  +5.9303319826E-002 +4.0831873272E+001  +6.1569849515E-002 -6.9608328007E+001  +3.2403983066E-002 +1.3290796275E+001 
2762193.992 +9.9236777425E-002 +1.7496215271E+002  +9.9089557141E-002 +4.4320502109E+001  +1.2122141932E-001 -6.7484787606E+001  +3.0521780277E-001 +5.5236446086E+001 
2887339.174 +1.3569773839E-001 +1.7473321091E+002  +4.8842240557E-002 +1.1125902351E+001  +5.3848927467E-002 -9.6624027211E+001  +1.8509025922E-001 +2.8084411146E+001 
3012484.355 +1.4215002645E-001 +1.7713006407E+002  +4.3411971011E-002 -1.7770399984E+001  +3.1449261526E-002 -1.1933768956E+002  +9.8491087027E-002 -5.6166454507E+001 
3137629.537 +1.3594661274E-001 +1.6862798553E+002  +2.3697510615E-002 -6.1665821550E+000  +2.6870356607E-002 -1.0278862221E+002  +2.1136553297E-001 -1.1935922756E+002 
3262774.718 +1.2488359809E-001 +1.5929942043E+002  +3.9017868061E-002 +1.6576125727E+001  +5.1000889251E-002 -7.7874818782E+001  +1.6143242098E-001 -6.5487738772E+001 
3387919.900 +1.3689911626E-001 +1.6031140645E+002  +1.2265234673E-001 +7.2168015900E+001  +1.1193413829E-001 -1.9041489314E+001  +7.7032524716E-001 +8.1122769563E+001 
3513065.081 +1.4716216599E-001 +1.5635600457E+002  +5.3442335694E-002 +5.9271177323E+001  +4.4908583948E-002 -2.2683854669E+001  +1.5715394676E-001 +1.0820286877E+002 
3638210.263 +1.6853435119E-001 +1.4716946628E+002  +8.5698652489E-002 +1.1431627871E+002  +1.0048225433E-001 +1.7019314921E+001  +6.7357377351E-001 +1.0904986217E+002 
3763355.444 +1.7488742258E-001 +1.5353920895E+002  +5.7392268325E-002 +8.7270476352E+001  +5.4660633737E-002 +6.6405332762E+000  +3.5671958728E-001 +1.0333119709E+002 
3888500.626 +1.7351728628E-001 +1.4564978092E+002  +8.8668945552E-002 +1.0745263419E+002  +6.7043127104E-002 +3.0093606153E+001  +4.5768373146E-001 +1.2330381298E+002 
4013645.807 +1.5069891785E-001 +1.4999371366E+002  +1.0020424060E-001 +5.7271444271E+001  +8.7759971875E-002 -1.5980341836E+001  +3.9159720665E-001 +6.8310575488E+001 
4138790.989 +1.7010774068E-001 +1.5406858889E+002  +4.6082115341E-002 +6.4300554191E+001  +4.9191094281E-002 -1.1827497750E+001  +2.0973192939E-001 +1.3284541061E+002 
4263936.170 +1.9167231639E-001 +1.4733738054E+002  +7.5161056759E-002 +7.7039069759E+001  +7.1076901369E-002 +9.9877666707E+000  +3.4380992337E-001 +1.0225233690E+002 
4389081.352 +1.8107800312E-001 +1.4439093824E+002  +1.1781453310E-001 +1.0586333577E+002  +1.2007656280E-001 +4.4433683033E+001  +9.4387896908E-001 +1.1980329670E+002 
4514226.533 +1.9763591295E-001 +1.3568422493E+002  +1.4624228296E-001 +8.3813846276E+001  +1.5128793440E-001 +3.3270845140E+001  +7.8839984958E-001 +1.0120105852E+002 
4639371.715 +2.3546488339E-001 +1.2943069231E+002  +1.2570884569E-001 +8.9192493603E+001  +1.2382273238E-001 +4.3462533996E+001  +6.1757595479E-001 +1.0505186691E+002 
4764516.896 +3.2368342396E-001 +1.3551335191E+002  +2.5479038754E-001 +1.1008162916E+002  +2.8371935958E-001 +6.6573168282E+001  +1.8176380589E+000 +8.7670530876E+001 
4889662.078 +4.1694370664E-001 +1.2537640090E+002  +2.9998948616E-001 +1.5680797688E+002  +2.8169202127E-001 +1.0887866831E+002  +1.6444317983E+000 +1.3309136096E+002 
5014807.259 +3.8580226923E-001 +1.3410624477E+002  +5.1040007914E-001 -1.7442644983E+002  +4.4277385961E-001 +1.4122003187E+002  +3.7702798144E+000 +1.6062118474E+002 
5139952.441 +3.1352268025E-001 +1.2596601591E+002  +2.1828279761E-001 +1.1510002993E+002  +2.0467129041E-001 +7.4257519870E+001  +1.5034218566E+000 +1.1872598759E+002 
5265097.622 +3.5832077149E-001 +1.1631908915E+002  +5.2659140152E-001 +1.0786849048E+002  +4.8073530175E-001 +7.3172011492E+001  +3.4420889655E+000 +1.0153988550E+002 
5390242.804 +4.7570910994E-001 +1.2542437143E+002  +4.2621179010E-001 +1.1015367971E+002  +4.2799998417E-001 +7.2719050238E+001  +2.8575444639E+000 +8.6688711159E+001 
5515387.985 +4.2483948967E-001 +1.2759118628E+002  +2.1355030894E-001 +1.0396179319E+002  +1.9925665188E-001 +6.4482310349E+001  +1.3896843661E+000 +9.4667537456E+001 
5640533.166 +3.8798378205E-001 +1.3607690146E+002  +1.8094924263E-001 +7.5915482972E+001  +1.8145693588E-001 +4.5683999705E+001  +1.3657601855E+000 +7.2038089898E+001 
5765678.348 +4.8713341805E-001 +1.3028611783E+002  +2.2237657227E-001 +9.0553817294E+001  +2.0070042195E-001 +6.1763994976E+001  +1.3924123671E+000 +8.2445476700E+001 
5890823.529 +4.7925588154E-001 +1.2214044877E+002  +2.6716037747E-001 +9.4731552695E+001  +2.3874375791E-001 +6.5800388293E+001  +2.0069127199E+000 +9.6278114113E+001 
6015968.711 +5.9852015393E-001 +1.1064258666E+002  +3.0591937487E-001 +5.8261969087E+001  +3.1139875910E-001 +3.5304672061E+001  +1.4229080874E+000 +4.0708330850E+001 
6141113.892 +6.4471323107E-001 +1.0719094878E+002  +2.5109774898E-001 +4.9787049163E+001  +2.6365227669E-001 +2.7559234354E+001  +1.1068028118E+000 +2.7044784389E+001 
6266259.074 +7.1576631353E-001 +1.0711361763E+002  +3.4938287924E-001 +5.8077133704E+001  +3.5202000015E-001 +4.2826631875E+001  +2.1854562064E+000 +4.8786446512E+001 
6391404.255 +6.5249802701E-001 +9.5101853395E+001  +2.5511144165E-001 +4.6016366602E+001  +2.5646497928E-001 +2.9361274490E+001  +1.0667307806E+000 +4.9772148140E+001 
6516549.437 +8.6930360321E-001 +9.1607306092E+001  +3.1003310144E-001 +4.3773269136E+001  +3.0679369815E-001 +3.1077733453E+001  +1.3579488331E+000 +3.0453118552E+001 
6641694.618 +1.0769995258E+000 +8.7459477651E+001  +2.6384048568E-001 +3.9162791191E+001  +2.7162792902E-001 +2.4143556095E+001  +8.3746290582E-001 +1.3303815642E+001 
6766839.800 +1.3320008942E+000 +3.6086375163E+001  +4.0033177537E-001 +7.0577043552E+000  +3.8430600475E-001 -9.8994578305E-001  +1.1221787827E+000 +1.7518650805E+000 
6891984.981 +1.2080660275E+000 +3.5478569258E+001  +3.0072263148E-001 +5.2177808739E+000  +2.8526296760E-001 -3.7576356397E-001  +9.8451078584E-001 -1.4682562529E+001 
7017130.163 +1.5403568467E+000 +1.5107149069E+001  +3.4235175870E-001 +5.7070297428E+000  +3.4032978200E-001 -2.4629900317E+000  +1.1770583714E+000 -4.0731998338E+000 
7142275.344 +1.1820265167E+000 +1.3124663869E+001  +2.4301760751E-001 +4.7801388180E-001  +2.6456967685E-001 -4.3029511033E+000  +9.3131478050E-001 -1.2566736975E+001 
7267420.526 +9.9623805075E-001 +3.2715863815E+000  +2.1422082767E-001 -9.1230932389E-001  +2.2630006936E-001 -1.5305972427E+000  +1.1038102262E+000 -7.6550656862E+000 
7392565.707 +9.9859795538E-001 +2.5649212674E+000  +1.9083851538E-001 +6.5016206537E+000  +1.9390196476E-001 +2.3600665963E+000  +1.2363621490E+000 -8.1274854850E+000 
7517710.889 +9.4416803808E-001 +2.0565664382E+000  +1.8455352169E-001 +3.6474933066E+000  +1.7319700305E-001 +6.2209817684E+000  +1.0457984508E+000 -7.4242540736E+000 
7642856.070 +8.2627755555E-001 -3.9323777578E+000  +1.7529722256E-001 -1.1898239997E+000  +1.6621296625E-001 +3.4261213052E+000  +8.2324071937E-001 -1.4092438511E+001 
7768001.252 +6.9326147688E-001 +7.5132257344E+000  +1.5662472186E-001 -1.0610118745E+000  +1.5407413183E-001 +5.0283479190E+000  +8.5813352286E-001 -6.7625638867E+000 
7893146.433 +7.9679521052E-001 +7.8748200369E+000  +1.5256157463E-001 +1.0596679607E+000  +1.5577793690E-001 +6.2693454468E+000  +6.8780437240E-001 +4.0207320804E+000 
8018291.615 +6.4048088327E-001 +8.1029313321E+000  +1.4691718951E-001 -1.1191205341E+000  +1.4515770024E-001 +7.0748754186E+000  +6.3255910470E-001 +2.0688671263E+000 
8143436.796 +6.4182885528E-001 +1.2115575217E+001  +1.4393981819E-001 -1.0440528397E+000  +1.4223303108E-001 +9.5767183342E+000  +6.7525996274E-001 -1.6658885336E+000 
8268581.977 +5.9495486951E-001 +1.4742563932E+001  +1.4062554180E-001 -8.1527233430E-001  +1.3359106648E-001 +7.5555474544E+000  +6.2144465767E-001 +6.8708229939E+000 
8393727.159 +5.5908909031E-001 +1.5904804296E+001  +1.3854555768E-001 -2.1367830096E+000  +1.3730158412E-001 +7.2021818894E+000  +5.7526124973E-001 +4.3967118666E+000 
8518872.340 +5.3632828203E-001 +1.5668937331E+001  +1.3625565352E-001 -2.7213553609E+000  +1.3470045696E-001 +7.6955248847E+000  +5.1748490111E-001 +7.6847407208E+000 
8644017.522 +5.3688111158E-001 +5.3492947036E+000  +1.3587079919E-001 -5.6931632662E+000  +1.3055813142E-001 +6.3910082569E+000  +4.6082041271E-001 +8.5346568945E+000 
8769162.703 +4.6748051849E-001 +1.2061222622E+001  +1.3557877370E-001 -6.1487583899E+000  +1.3443737055E-001 +8.7134988852E+000  +5.1440831700E-001 +6.1381151572E+000 
8894307.885 +4.7164154959E-001 +9.0240631024E+000  +1.3009132111E-001 -5.7002321491E+000  +1.3493996760E-001 +1.0288925024E+001  +4.8626454393E-001 +9.4080685231E-001 
9019453.066 +4.5008379812E-001 +1.0380805539E+001  +1.3587145682E-001 -4.4745250536E+000  +1.3059197165E-001 +9.3003622955E+000  +4.7075680578E-001 +8.2882783456E+000 
9144598.248 +4.1346830017E-001 +1.0874541707E+001  +1.2984170047E-001 -4.8322239545E+000  +1.3170406106E-001 +9.4768410312E+000  +4.6237114874E-001 +1.0467957518E+000 
9269743.429 +4.3865109696E-001 +6.8464255041E+000  +1.3414079602E-001 -4.5416795240E+000  +1.2845217113E-001 +1.0336877645E+001  +4.5010244086E-001 -1.0499433200E+000 
9394888.611 +4.3185956845E-001 +1.4107266839E+001  +1.3048318055E-001 -4.8349408645E+000  +1.2807738223E-001 +1.0647575795E+001  +4.2272709991E-001 +1.9928104421E+000 
9520033.792 +3.9248795741E-001 +5.6236115305E+000  +1.3174591676E-001 -5.5437168317E+000  +1.3217476479E-001 +1.0970801738E+001  +4.3665266430E-001 +4.1835135591E+000 
9645178.974 +4.1582243833E-001 +1.1183329923E+000  +1.2967864548E-001 -4.4917196408E+000  +1.3547368552E-001 +1.1040417922E+001  +4.2326700758E-001 -2.0592611971E+000 
9770324.155 +4.1238687531E-001 +6.6758540463E+000  +1.3630523245E-001 -4.2483053992E+000  +1.3318710547E-001 +1.2544886132E+001  +4.5329135207E-001 -2.6332763802E+000 
9895469.337 +4.0587794199E-001 +9.0897103283E+000  +1.3531187777E-001 -3.8573913369E+000  +1.3240140789E-001 +1.0739085662E+001  +3.8866030234E-001 -9.4408143466E+000 
10020614.518 +3.9515323495E-001 +6.8452152778E+000  +1.3415497270E-001 -4.3314270474E+000  +1.3598424991E-001 +1.0587392068E+001  +4.1717196581E-001 -7.6359325935E+000 
10145759.700 +4.1758294786E-001 +2.0230714467E+000  +1.3706600821E-001 -2.6747304749E+000  +1.3556582339E-001 +1.2021382500E+001  +4.1659846258E-001 -4.5571572605E+000 
10270904.881 +4.2535076058E-001 +9.5866782776E+000  +1.3521817990E-001 -2.0188363099E+000  +1.3141579146E-001 +1.2296084282E+001  +4.4403774814E-001 +1.4508277243E+000 
10396050.063 +4.6518421365E-001 +1.1189567815E+001  +1.3476409009E-001 -2.1665590468E+000  +1.3613046351E-001 +1.2058075882E+001  +4.4694031196E-001 +1.7439403527E+000 
10521195.244 +4.2912062786E-001 +1.4423374887E+001  +1.3549824153E-001 -1.3018249672E+000  +1.3388157883E-001 +1.3005722594E+001  +4.4514488130E-001 +3.1258186025E+000 
10646340.426 +4.3748957548E-001 +1.3616103239E+001  +1.3607138725E-001 -1.5093313086E+000  +1.3642421628E-001 +1.2724890324E+001  +4.6209183335E-001 +2.9797113479E+000 
10771485.607 +4.5058141689E-001 +1.2889826720E+001  +1.3639388378E-001 -2.1614893786E+000  +1.3491354497E-001 +1.3593932339E+001  +4.6516802421E-001 +4.5275292231E+000 
10896630.788 +4.2185529921E-001 +1.3600786501E+001  +1.3869694508E-001 -2.3565220798E+000  +1.3820381543E-001 +1.2746765129E+001  +4.6735121283E-001 +4.0968102493E+000 
11021775.970 +4.3963798161E-001 +1.4655932625E+001  +1.4135010635E-001 -1.7348588092E+000  +1.3844749362E-001 +1.1315843430E+001  +4.6199153010E-001 +4.3793101591E+000 
11146921.151 +4.4923226349E-001 +1.0194208214E+001  +1.4235304291E-001 -4.5380687605E-002  +1.4172081463E-001 +1.2640418345E+001  +4.5426214650E-001 +8.0846945361E+000 
11272066.333 +4.8031913368E-001 +1.0574469750E+001  +1.4285338354E-001 +4.7990946581E-001  +1.4299408952E-001 +1.1417016116E+001  +4.6244025416E-001 +7.1806627110E+000 
11397211.514 +4.7386321449E-001 +6.9264413316E+000  +1.4458654519E-001 -3.5361611578E-001  +1.4373826591E-001 +1.2290147663E+001  +4.8780603395E-001 +3.2569802164E+000 
11522356.696 +4.8294913484E-001 +1.0872054975E+001  +1.4690459859E-001 -2.5117035880E-001  +1.4363025450E-001 +1.2125236980E+001  +4.8652832765E-001 +6.8083634718E+000 
11647501.877 +4.9373349206E-001 +1.1370979233E+001  +1.4597626161E-001 +4.8231125944E-001  +1.4629451905E-001 +1.1368307918E+001  +5.3649734515E-001 +1.8178317478E+000 
11772647.059 +5.0441585495E-001 +9.1190790040E+000  +1.5045338515E-001 +6.9545099535E-001  +1.4697069619E-001 +1.1478975371E+001  +5.0361068329E-001 +2.2339131118E+000 
11897792.240 +5.3944468685E-001 +9.5615389049E+000  +1.5022159905E-001 +1.1216990141E+000  +1.4793026948E-001 +1.1610701441E+001  +5.1452470390E-001 +4.9040098345E+000 
12022937.422 +5.2990767344E-001 +3.6306988881E+000  +1.5228011957E-001 +1.5271522127E+000  +1.5085722535E-001 +1.0257926715E+001  +5.4621730131E-001 +2.3612041872E+000 
12148082.603 +5.1194075981E-001 +6.8042733373E+000  +1.5492434187E-001 +6.8387847003E-001  +1.5262266005E-001 +1.0322517995E+001  +5.5193738091E-001 +2.1139018673E+000 
12273227.785 +5.5609719974E-001 +5.3024782874E+000  +1.5543646292E-001 +1.9811930676E+000  +1.5338224707E-001 +1.0187950267E+001  +5.3504810609E-001 +3.8667602949E+000 
12398372.966 +5.8479583960E-001 +4.6077048777E+000  +1.5813661055E-001 +1.6180141904E+000  +1.5696445760E-001 +9.8258357401E+000  +5.7655775006E-001 +1.7301653048E+000 
12523518.148 +5.8152140454E-001 +6.1523574884E+000  +1.5897833207E-001 +2.3353752268E+000  +1.5688090927E-001 +9.5137417441E+000  +5.8878186942E-001 +1.4374551205E+000 
12648663.329 +5.9782551120E-001 +2.4014798119E+000  +1.6223001192E-001 +2.3421195632E+000  +1.5925778478E-001 +8.4856565824E+000  +5.8104593317E-001 +9.8930357009E-001 
12773808.511 +5.9818401827E-001 +3.7808554575E+000  +1.6187506726E-001 +2.6660070113E+000  +1.6012771756E-001 +8.4949414070E+000  +6.1078424268E-001 -8.0717824832E-002 
12898953.692 +6.3729747407E-001 +3.5747359085E+000  +1.6324535252E-001 +2.9900329080E+000  +1.6209121723E-001 +7.6741638790E+000  +6.2438044606E-001 -1.3390894898E-001 
13024098.874 +6.1827029697E-001 +2.5228991983E+000  +1.6326494298E-001 +2.1734089550E+000  +1.6294483123E-001 +7.0671103902E+000  +6.1787614107E-001 +5.7194662372E-001 
13149244.055 +6.4502020502E-001 +6.1844378686E-002  +1.6792335802E-001 +2.0524773405E+000  +1.6696005905E-001 +6.1385873745E+000  +6.3098505197E-001 -1.5840489551E+000 
13274389.237 +6.4458163772E-001 -1.6957835218E-001  +1.6984537842E-001 +2.3676478013E+000  +1.6721727140E-001 +6.2889355821E+000  +6.7761143886E-001 -1.9445613452E-001 
13399534.418 +6.8175037130E-001 +2.0079333626E-001  +1.7027089116E-001 +2.5179151564E+000  +1.6670884468E-001 +6.1984002634E+000  +6.9332030089E-001 -5.0090780535E-002 
13524679.599 +6.5254276415E-001 -8.3834536330E-001  +1.7203114998E-001 +1.8776993565E+000  +1.6791937441E-001 +4.9235183230E+000  +6.7946568858E-001 -2.2687397659E+000 
13649824.781 +7.0268361447E-001 -1.8954995213E+000  +1.7258875028E-001 +2.0140383176E+000  +1.7080774056E-001 +5.3358572633E+000  +7.1305826381E-001 -2.0449058408E+000 
13774969.962 +7.2825346096E-001 -2.9979548461E+000  +1.7493815366E-001 +2.2055201540E+000  +1.7224627642E-001 +4.1688404700E+000  +7.3464745624E-001 -2.4602595703E+000 
13900115.144 +7.2804925218E-001 -1.7204969462E+000  +1.7397164666E-001 +2.3376142331E+000  +1.7113213602E-001 +3.8032537413E+000  +7.5129695140E-001 -2.9483084616E+000 
14025260.325 +7.5156938043E-001 -3.5473210574E+000  +1.7782547838E-001 +1.8810666743E+000  +1.7421093735E-001 +3.0739882004E+000  +7.5084004654E-001 -2.8492455068E+000 
14150405.507 +7.8281883079E-001 -5.0694752048E+000  +1.7772371259E-001 +2.3999536681E+000  +1.7504721988E-001 +2.8618702350E+000  +7.8109832660E-001 -4.2879994202E+000 
14275550.688 +7.9082089135E-001 -2.9472974275E+000  +1.7965565654E-001 +1.9265546003E+000  +1.7506535901E-001 +2.6982533647E+000  +8.0035893302E-001 -4.4278134931E+000 
14400695.870 +7.8538386166E-001 -5.4309924964E+000  +1.7878794964E-001 +1.0051321598E+000  +1.7765859283E-001 +1.8741048740E+000  +7.8614387377E-001 -6.0005477803E+000 
