!  2-Port S-parameters saved by WinCal
! VAR MeasName=S-Parameters (CALIBRATED_DATA) read from VNA (P5004A)
! VAR MeasDate=29/08/2024 15:44:24
! VAR NAME=f39_SET2_9k-100M_2
! VAR FILENAME=f39_SET2_9k-100M_2.S2P
! VAR DATE=29/08/2024 15:44:24
! VAR PHYS_PORTS=1,2
! VAR ObjTypeName=DATASET
! VAR IndexType=Frequency
!
# Hz S MA R 50
9000.000 +9.2711021081E-002 -1.7196547784E+002  +2.9906448738E-003 -2.7302715779E+001  +4.5472784296E-003 -4.9332119079E+000  +2.6955613329E-001 -1.5700179138E+002 
134145.181 +1.1093608938E-001 +1.6920003496E+002  +1.5856753696E-004 -1.6953090982E+002  +4.9192343119E-004 +1.6483281477E+002  +2.3921888946E-001 -1.7124357378E+002 
259290.363 +1.1174256137E-001 +1.6974412430E+002  +8.9341442540E-004 -1.0859900175E+002  +8.4728354807E-004 +8.2947271770E+001  +2.4593198155E-001 -1.7121009085E+002 
384435.544 +1.1468162202E-001 +1.7060281867E+002  +3.2069403125E-004 -3.1260675821E+001  +9.8914029130E-004 +1.0173801044E+002  +2.4150971431E-001 -1.6959226493E+002 
509580.726 +1.1363609177E-001 +1.7136673644E+002  +4.9742571342E-004 -6.8760190605E+001  +1.3126704901E-003 +1.5253420363E+002  +2.3843946252E-001 -1.6778567169E+002 
634725.907 +1.1834266097E-001 +1.7200181014E+002  +6.0695152110E-004 -1.1154357882E+002  +5.7182641108E-004 -8.0001418186E+001  +2.5841768168E-001 -1.6298799182E+002 
759871.089 +1.1823112361E-001 +1.7129161166E+002  +7.4458405801E-004 -8.3457139089E+001  +9.7757993893E-004 +7.4309777272E+001  +2.5177809765E-001 -1.6600359435E+002 
885016.270 +1.2054650003E-001 +1.6898303529E+002  +6.5798437778E-004 -4.1388967295E+001  +9.7615672875E-004 +1.0692130777E+002  +2.4393091835E-001 -1.6670844760E+002 
1010161.452 +1.1967135821E-001 +1.7132963689E+002  +5.9666486253E-004 -6.4122584395E+001  +7.1733909510E-004 +1.7481978699E+002  +2.1981523637E-001 -1.6868005751E+002 
1135306.633 +1.1345597967E-001 +1.6766234221E+002  +4.0713140517E-004 -7.7906296206E+001  +7.3228618120E-004 +6.8456048368E+001  +2.1057981866E-001 -1.6333508973E+002 
1260451.815 +1.2296802602E-001 +1.7075728652E+002  +1.4834846041E-003 -5.4645566747E+001  +3.6407894998E-004 +7.0331736264E+001  +2.3172044864E-001 -1.5744755572E+002 
1385596.996 +1.2354844079E-001 +1.7294382140E+002  +8.8387029438E-004 -1.6379828865E+002  +7.6391918646E-004 +1.0971517638E+002  +2.4771099686E-001 -1.5073090557E+002 
1510742.178 +1.3037496591E-001 +1.7224894592E+002  +1.0816510265E-003 -3.1177730530E+001  +1.4785583477E-003 +9.0144688613E+001  +2.6257000987E-001 -1.5423257341E+002 
1635887.359 +1.2980177855E-001 +1.7173371170E+002  +1.3465350794E-003 -5.4244118201E+001  +1.1868063528E-003 +1.5216811384E+002  +2.4461971153E-001 -1.5643041002E+002 
1761032.541 +1.3124930055E-001 +1.7010270435E+002  +8.4636494761E-004 +2.9986880663E+001  +1.4833978022E-003 -7.6852544158E+001  +2.2761751023E-001 -1.6248125053E+002 
1886177.722 +1.3178152775E-001 +1.6970233393E+002  +3.1476500609E-003 +5.5358971022E+001  +3.9307919505E-003 -8.6207694501E+001  +2.0784737207E-001 -1.5516500030E+002 
2011322.904 +1.2919276955E-001 +1.6789520551E+002  +4.1464564988E-003 +5.4235267531E+001  +4.3303774055E-003 -8.7500892043E+001  +2.1322758960E-001 -1.6554928574E+002 
2136468.085 +1.2741984587E-001 +1.6726472522E+002  +1.0425062556E-002 +3.9327415062E+001  +7.8728906776E-003 -9.0615014685E+001  +1.8752063714E-001 -1.5782146642E+002 
2261613.267 +1.3425859256E-001 +1.6903018141E+002  +1.1173840439E-002 +6.9964150309E+001  +1.1009214349E-002 -4.9650203368E+001  +1.8093861212E-001 -1.7845336186E+002 
2386758.448 +1.3757994899E-001 +1.6384442840E+002  +1.2995870123E-002 +8.6101918243E+001  +1.7404946539E-002 -1.1375274204E+000  +2.1162785357E-001 +1.6318319051E+002 
2511903.630 +1.3604510015E-001 +1.5800345231E+002  +1.6536293261E-002 +8.2811991989E+001  +1.8439968773E-002 -2.8927630353E+001  +1.5682602452E-001 -1.7236091105E+002 
2637048.811 +1.2035604610E-001 +1.6336205837E+002  +7.0291218956E-002 +8.1092657081E+001  +9.1486289430E-002 -4.8299106401E+001  +2.9685790858E-001 +6.7545041357E+001 
2762193.992 +1.2989035688E-001 +1.7285064089E+002  +3.8088883214E-002 -6.7650405947E+000  +3.5761633748E-002 -1.1816125511E+002  +1.6950996293E-001 -1.0802365990E+002 
2887339.174 +1.2252162599E-001 +1.7222611538E+002  +5.1894821268E-002 -2.3916435356E+001  +5.8503184690E-002 -1.3029543871E+002  +2.6738359368E-001 -8.8570152788E+001 
3012484.355 +1.2994371640E-001 +1.6847741143E+002  +3.0531025627E-002 -2.3624022845E+001  +2.5097965209E-002 -1.1096472806E+002  +2.2127844120E-001 -1.1819412367E+002 
3137629.537 +1.0333354641E-001 -1.7702468372E+002  +7.0719556558E-002 +1.1160774533E+001  +7.0872554709E-002 -7.9821406266E+001  +4.8611305167E-003 -1.3898948548E+002 
3262774.718 +1.4102908424E-001 +1.6463268578E+002  +3.0827552137E-002 +3.5926837322E+001  +2.2644434735E-002 -6.3846482611E+001  +9.1028476393E-002 -1.6954668444E+002 
3387919.900 +1.3038898381E-001 +1.5228926252E+002  +5.4087953999E-002 +5.4081876933E+001  +5.0408102139E-002 -2.8173292153E+001  +1.0717491055E-001 +1.2316274264E+002 
3513065.081 +1.4867334771E-001 +1.4995385234E+002  +5.3199299378E-002 +7.3993570360E+001  +4.9324225262E-002 -1.3047373533E+001  +1.5948961117E-001 +1.1657839776E+002 
3638210.263 +1.6605802851E-001 +1.4834050335E+002  +6.1153760927E-002 +1.0396746065E+002  +5.7124847310E-002 +3.4010398204E+001  +5.0404984158E-001 +1.3107675645E+002 
3763355.444 +1.5350459999E-001 +1.4388542374E+002  +1.4219156359E-001 +1.2001633508E+002  +1.1805134751E-001 +3.4671380086E+001  +1.0248440115E+000 +1.2437359478E+002 
3888500.626 +1.6514634389E-001 +1.5174214377E+002  +4.7660543579E-002 +7.1812691041E+001  +4.8759505085E-002 +1.3116409304E+001  +2.6961565340E-001 +1.3731189967E+002 
4013645.807 +1.9555172823E-001 +1.5110403259E+002  +5.4301857539E-002 +9.8852473952E+001  +5.8407832162E-002 +3.4046846319E+001  +4.7241955938E-001 +1.1842490731E+002 
4138790.989 +1.9591189491E-001 +1.5705863387E+002  +4.0757717005E-002 +8.7850222709E+001  +3.6317449107E-002 +2.2807542400E+001  +3.6100305402E-001 +1.3559440996E+002 
4263936.170 +1.9604157322E-001 +1.5196971876E+002  +5.1930878890E-002 +1.0102464653E+002  +5.3235846672E-002 +2.4644675911E+001  +4.0544551073E-001 +1.3451804312E+002 
4389081.352 +2.2420762522E-001 +1.4102025035E+002  +1.1850060202E-001 +1.1148652244E+002  +1.1563769112E-001 +4.2615607671E+001  +8.5922877038E-001 +1.0750923568E+002 
4514226.533 +2.2530964386E-001 +1.4485797649E+002  +8.2320803743E-002 +1.1074439246E+002  +7.6086338142E-002 +5.2395152946E+001  +6.9217745231E-001 +1.3337320940E+002 
4639371.715 +2.6634630888E-001 +1.4114800667E+002  +2.6876345504E-001 +1.3104129304E+002  +2.5803159718E-001 +7.7919347190E+001  +2.6537386236E+000 +1.1691851180E+002 
4764516.896 +4.1073781133E-001 +1.2347863338E+002  +6.5238794538E-001 +1.2629146041E+002  +6.3732705710E-001 +7.3417325466E+001  +3.5247552036E+000 +9.6478527858E+001 
4889662.078 +3.7089665297E-001 +1.3867502474E+002  +3.7769941282E-001 -1.1093060116E+002  +2.9832962929E-001 -1.5722810301E+002  +2.7080967877E+000 -1.6274675853E+002 
5014807.259 +3.3442524165E-001 +1.3201145451E+002  +2.4278996420E-001 +1.1416765790E+002  +1.8713984755E-001 +6.8628584640E+001  +1.5413945331E+000 +9.7093877097E+001 
5139952.441 +4.1413679856E-001 +1.3480699023E+002  +9.2427857051E-001 +1.4082829385E+002  +9.1136050005E-001 +1.0045032696E+002  +8.0134081147E+000 +1.1678108640E+002 
5265097.622 +4.1608017031E-001 +1.1893410531E+002  +6.1095986716E-001 +1.3129781381E+002  +5.5167310631E-001 +9.6977689855E+001  +3.7581534379E+000 +1.2476815481E+002 
5390242.804 +3.5295752786E-001 +1.2959327734E+002  +1.8987457789E-001 +9.8469415459E+001  +1.9736624614E-001 +5.9510984737E+001  +1.4698809810E+000 +9.5483166027E+001 
5515387.985 +4.0523709294E-001 +1.3142485400E+002  +1.7754502076E-001 +1.0168577930E+002  +1.6923897373E-001 +7.2640943238E+001  +1.2799764717E+000 +1.0797670568E+002 
5640533.166 +4.1048027939E-001 +1.2211021201E+002  +2.0500680102E-001 +9.1211522616E+001  +1.9148320153E-001 +5.8944807554E+001  +1.1330745138E+000 +1.0070772402E+002 
5765678.348 +5.1444898458E-001 +1.2665144216E+002  +3.0354700274E-001 +7.5295058285E+001  +2.9000301612E-001 +4.4478449737E+001  +1.9940984200E+000 +4.9662263682E+001 
5890823.529 +4.6285046407E-001 +1.2572486979E+002  +1.9637956152E-001 +6.8177152044E+001  +1.8431535871E-001 +4.6635072837E+001  +1.1410018970E+000 +6.7868684486E+001 
6015968.711 +4.8170783060E-001 +1.1864344303E+002  +2.4114603958E-001 +6.9386792807E+001  +2.4451933905E-001 +4.8251383639E+001  +1.6398165374E+000 +7.7400526150E+001 
6141113.892 +5.8292343079E-001 +1.0586117746E+002  +2.5732497918E-001 +7.0262894272E+001  +2.4205660962E-001 +4.7326752919E+001  +1.1546800480E+000 +7.9720225932E+001 
6266259.074 +7.9855738474E-001 +9.7073076810E+001  +3.1527855848E-001 +6.3710152086E+001  +3.2929942044E-001 +4.7551697760E+001  +1.2596263168E+000 +5.7649279295E+001 
6391404.255 +7.1118381197E-001 +1.0021997693E+002  +2.5166172871E-001 +3.7216336237E+001  +2.4646632418E-001 +1.9718359971E+001  +1.0788501067E+000 +1.3110884358E+001 
6516549.437 +8.4155499022E-001 +8.5154401382E+001  +3.0406944973E-001 +3.7124172820E+001  +2.9010511305E-001 +2.2620186865E+001  +1.2326768837E+000 +2.1322201304E+001 
6641694.618 +1.2711614204E+000 +7.7778778808E+001  +3.6639719605E-001 +3.7431032202E+001  +3.6961504792E-001 +2.4640597357E+001  +1.3799570994E+000 +1.7326342232E+001 
6766839.800 +1.4738406436E+000 +5.1776039180E+001  +3.6822310567E-001 +2.0241934905E+001  +3.9312907096E-001 +8.2180287095E+000  +1.1333097612E+000 -8.2282605464E-001 
6891984.981 +1.1362316233E+000 +2.2414439244E+001  +3.2885857063E-001 +7.4927744931E-001  +3.4401711566E-001 -8.8102012614E+000  +1.1134082196E+000 -1.6006507718E+001 
7017130.163 +1.3645219019E+000 +1.7049517570E+001  +3.1104093267E-001 -1.0566661217E+000  +3.1244694040E-001 -8.4364706995E+000  +1.2091706391E+000 -1.3618860950E+001 
7142275.344 +1.1747465275E+000 +1.1692731098E+001  +2.5312547884E-001 +1.0720325711E+000  +2.5048733741E-001 -3.5101895154E+000  +9.9467954226E-001 -1.3859847200E+001 
7267420.526 +1.2627440906E+000 +1.4051184101E+000  +2.3929042225E-001 +1.6093561470E+000  +2.3523995660E-001 -3.4297324932E+000  +1.0807845219E+000 -1.3268809384E+001 
7392565.707 +1.0720145648E+000 -5.3974259992E+000  +1.9982118765E-001 +3.5397150985E-001  +1.9395971983E-001 +3.5266647075E+000  +1.1502054278E+000 -6.4055623471E+000 
7517710.889 +1.0033171801E+000 +4.0428820753E-001  +1.7076392163E-001 +3.1283795859E+000  +1.8952181060E-001 +5.9952844950E+000  +1.0180829806E+000 -6.5144894321E+000 
7642856.070 +6.9828486682E-001 +4.3523276451E+000  +1.6701558963E-001 -1.2849509749E+000  +1.6969620988E-001 +2.6999608021E+000  +9.1566754100E-001 -9.5982847507E+000 
7768001.252 +7.5888005056E-001 +9.1863332918E+000  +1.5186877799E-001 -1.0406802839E-002  +1.5733015206E-001 +5.6825032595E+000  +7.1030138865E-001 -2.4861386413E+000 
7893146.433 +7.2550636929E-001 +5.7035021519E-001  +1.6118240037E-001 +1.9468557123E+000  +1.5875858132E-001 +5.2885483390E+000  +6.5573301928E-001 -4.5343147378E-001 
8018291.615 +5.8752463884E-001 +9.0150140883E+000  +1.4673041187E-001 +2.3665354119E+000  +1.4699504585E-001 +5.5158272761E+000  +7.2611732445E-001 +4.4311036073E+000 
8143436.796 +6.5277184991E-001 +6.2971175645E+000  +1.5348299702E-001 -3.7107848187E+000  +1.5003517183E-001 +6.9939951618E+000  +5.6009743160E-001 -7.1928168451E+000 
8268581.977 +5.5434133820E-001 +9.6783037878E+000  +1.4265321477E-001 -2.4016834718E+000  +1.3946625538E-001 +6.5191288508E+000  +5.3616293367E-001 +2.2902460615E+000 
8393727.159 +5.3681660215E-001 +1.1993024134E+001  +1.4015898746E-001 -3.4521283701E+000  +1.4058809190E-001 +7.0802320316E+000  +5.8271420641E-001 -2.1014818431E+000 
8518872.340 +4.6981348694E-001 +9.7566664200E+000  +1.3763781884E-001 -4.6727555032E+000  +1.3808226422E-001 +7.8938081723E+000  +5.9090773063E-001 +4.1812506990E+000 
8644017.522 +5.4148561019E-001 +1.5822356405E+001  +1.3921826294E-001 -2.3929996281E+000  +1.3584949163E-001 +9.6605239579E+000  +6.0784378481E-001 -3.6895464400E+000 
8769162.703 +4.3370310143E-001 +1.8316109893E+001  +1.2969517058E-001 -5.4749755183E+000  +1.2961475130E-001 +1.0403738141E+001  +5.2135010862E-001 +4.7009006938E+000 
8894307.885 +4.6798052351E-001 +9.1892157636E+000  +1.3612039166E-001 -3.1619544874E+000  +1.3532753887E-001 +8.8877900583E+000  +5.1050123299E-001 +4.2395040010E+000 
9019453.066 +4.8012010711E-001 +1.4238951450E+001  +1.3042466686E-001 -3.3228613232E+000  +1.3420982345E-001 +8.5704357346E+000  +4.6158358344E-001 -2.5927292944E+000 
9144598.248 +4.1359879053E-001 +1.3993042899E+001  +1.3281203004E-001 -2.5382302938E+000  +1.3294689320E-001 +1.1908716015E+001  +4.9406862213E-001 +2.6311941015E+000 
9269743.429 +4.3440332090E-001 +6.1487329408E+000  +1.3308446486E-001 -5.5117692080E+000  +1.3291204677E-001 +1.0992278872E+001  +4.6374287620E-001 -3.1597821376E+000 
9394888.611 +4.2327916809E-001 +7.2282057107E+000  +1.3505911476E-001 -4.8454315872E+000  +1.3247729634E-001 +1.0352505386E+001  +4.1995606571E-001 -1.5459692517E+000 
9520033.792 +4.2845715222E-001 +7.2975132257E+000  +1.3341338923E-001 -4.3812446920E+000  +1.3253950195E-001 +9.2355465190E+000  +3.8196971389E-001 -7.0338400126E-001 
9645178.974 +4.1103097911E-001 +1.0261264486E+001  +1.2997916594E-001 -4.2286931791E+000  +1.2941576495E-001 +1.0153577207E+001  +4.3630280936E-001 +2.4658527848E+000 
9770324.155 +3.9492126356E-001 +3.2294293952E+000  +1.3459934481E-001 -5.5624424847E+000  +1.3397452387E-001 +1.0836089710E+001  +4.1963421612E-001 -4.7159218245E-002 
9895469.337 +4.3401492926E-001 +8.0184133976E+000  +1.3474517437E-001 -4.0706157796E+000  +1.3061451757E-001 +1.1414509091E+001  +4.2100512688E-001 +3.8919127425E-001 
10020614.518 +4.1073063935E-001 +8.4151660060E+000  +1.3537066322E-001 -5.4230571984E+000  +1.3635272695E-001 +1.1285370978E+001  +4.3075432122E-001 -7.3472415326E+000 
10145759.700 +3.9207422414E-001 +5.4648575927E+000  +1.3694220774E-001 -3.9990640674E+000  +1.3344382786E-001 +1.2192915687E+001  +4.1801363254E-001 +1.0466034997E+000 
10270904.881 +3.6721955832E-001 +9.6606791865E+000  +1.3453785492E-001 -3.5034593842E+000  +1.3426873308E-001 +1.2711482310E+001  +4.4634153425E-001 +7.2792061067E-001 
10396050.063 +4.0897636579E-001 +1.1919828758E+001  +1.3510002293E-001 -3.4080489427E+000  +1.3391064331E-001 +1.2913567467E+001  +4.3143323958E-001 -2.9532209164E-001 
10521195.244 +3.9567781611E-001 +1.4601733932E+001  +1.3632321199E-001 -2.9548086090E+000  +1.3601133941E-001 +1.1839384712E+001  +4.3748973659E-001 -1.4177114742E+000 
10646340.426 +4.4248682978E-001 +1.1882408225E+001  +1.3645656631E-001 -2.5909085381E+000  +1.3732692965E-001 +1.3757712491E+001  +4.0755219803E-001 +2.5587449977E+000 
10771485.607 +4.2989008789E-001 +1.1874776038E+001  +1.4057981427E-001 -1.8906148794E+000  +1.3731558636E-001 +1.2188884529E+001  +4.2344474245E-001 +4.4103950485E+000 
10896630.788 +4.2928638234E-001 +1.0666364922E+001  +1.3721696441E-001 -1.4517052909E+000  +1.3715414820E-001 +1.2446634504E+001  +4.6472966912E-001 +1.7297926570E+000 
11021775.970 +4.5528529027E-001 +1.2977053908E+001  +1.3946938775E-001 -2.0146000483E+000  +1.3818928419E-001 +1.2717270154E+001  +4.4797143962E-001 +5.2046177550E+000 
11146921.151 +5.0786862404E-001 +1.0966533426E+001  +1.4235800631E-001 +2.9202220907E-001  +1.4105720106E-001 +1.2267243238E+001  +4.7248130069E-001 +4.0434656689E+000 
11272066.333 +4.6144411790E-001 +6.7723088113E+000  +1.4311946952E-001 -1.3153923690E+000  +1.4372929896E-001 +1.1980225753E+001  +4.4951542558E-001 +4.0605522708E-001 
11397211.514 +5.0615739639E-001 +1.1582951503E+001  +1.4449517871E-001 +2.3024653418E-001  +1.4342403935E-001 +1.3162765367E+001  +4.8797917583E-001 +7.1443174422E+000 
11522356.696 +5.1221026400E-001 +9.9944785423E+000  +1.4460065036E-001 +3.4447103200E-001  +1.4316589015E-001 +1.2757095417E+001  +4.9965798286E-001 +4.9525306263E+000 
11647501.877 +4.7966288680E-001 +1.0054248628E+001  +1.4778972850E-001 +3.0529006354E-001  +1.4493679689E-001 +1.1313412676E+001  +5.0281085912E-001 +6.2336359741E+000 
11772647.059 +4.9467683350E-001 +1.0883541453E+001  +1.4738883743E-001 +7.4469367151E-001  +1.4553259305E-001 +1.1442214125E+001  +5.2250845864E-001 +5.6822852489E+000 
11897792.240 +5.3096644131E-001 +7.4463599420E+000  +1.5194051145E-001 +1.0837871015E+000  +1.4990454735E-001 +1.1384700749E+001  +5.3624068073E-001 +1.8852535781E+000 
12022937.422 +4.9865487083E-001 +7.3947916023E+000  +1.5006554592E-001 +2.6938831268E-001  +1.5038715626E-001 +1.0591245391E+001  +5.2941813315E-001 +4.5211321460E+000 
12148082.603 +5.5261188124E-001 +6.1984429667E+000  +1.5329854488E-001 +1.5726763257E+000  +1.5227221503E-001 +9.7535553264E+000  +5.3807727071E-001 +2.9873373783E+000 
12273227.785 +5.2901340838E-001 +6.3846450391E+000  +1.5687067330E-001 +1.8564731205E+000  +1.5375186439E-001 +9.6305017009E+000  +5.7171376659E-001 +3.5332838301E+000 
12398372.966 +5.4330911995E-001 +3.7076746939E+000  +1.5864193868E-001 +1.2427658391E+000  +1.5603925887E-001 +9.0723721635E+000  +5.6439457968E-001 +2.9997014900E-001 
12523518.148 +5.8231761385E-001 +5.8451267161E+000  +1.5893767009E-001 +2.2215367313E+000  +1.5667821148E-001 +9.1297648987E+000  +5.8307536792E-001 +2.1310166779E+000 
12648663.329 +5.7923638126E-001 +4.6469656244E+000  +1.6066191943E-001 +1.9037177092E+000  +1.5827169962E-001 +9.8065557042E+000  +6.0721311610E-001 +7.6985951959E-001 
12773808.511 +6.0169032767E-001 +2.2592268869E+000  +1.6197661230E-001 +2.6511428430E+000  +1.6084671354E-001 +7.9170163339E+000  +5.9189141889E-001 +2.6192167100E+000 
12898953.692 +6.0294811443E-001 +3.3749064886E+000  +1.6251260868E-001 +2.1757654167E+000  +1.6289555357E-001 +8.0286702830E+000  +6.2439614151E-001 +3.9578792760E-001 
13024098.874 +6.3049542795E-001 -5.7678440103E-001  +1.6542014704E-001 +2.0389046761E+000  +1.6519286787E-001 +7.7544025927E+000  +6.3515482743E-001 -4.7959634669E-002 
13149244.055 +6.4484790196E-001 +2.7252196847E+000  +1.6683839468E-001 +2.3202262135E+000  +1.6474607942E-001 +6.9360111504E+000  +6.4343380977E-001 +2.7683796109E-001 
13274389.237 +6.7013631718E-001 +1.9450412028E+000  +1.6819796430E-001 +2.6599074228E+000  +1.6634840142E-001 +6.8883776512E+000  +6.8135875282E-001 -9.2570897896E-001 
13399534.418 +6.5478415908E-001 -6.1424035680E-001  +1.7159321577E-001 +1.8381842614E+000  +1.7099676529E-001 +5.4486684515E+000  +6.7917794739E-001 -3.3367104544E+000 
13524679.599 +6.8359226939E-001 +2.7192088577E-001  +1.7169144322E-001 +2.5671919302E+000  +1.7013158341E-001 +5.3179917944E+000  +6.9992065912E-001 -2.7096357348E+000 
13649824.781 +6.9849671222E-001 -2.5672987628E+000  +1.7395930873E-001 +1.9436547772E+000  +1.7208947258E-001 +4.4028473766E+000  +7.1031985269E-001 -3.1150611839E+000 
13774969.962 +7.4625615845E-001 -2.4022399316E+000  +1.7567105263E-001 +2.6551001082E+000  +1.7339057775E-001 +5.0863200135E+000  +7.3531597466E-001 -4.0072312193E+000 
13900115.144 +7.3734310689E-001 -2.3462513569E+000  +1.7703083190E-001 +1.9267797443E+000  +1.7210913058E-001 +4.2248066087E+000  +7.5336300220E-001 -3.4643178858E+000 
14025260.325 +7.5025675154E-001 -4.9987675668E+000  +1.7858718230E-001 +1.5346724025E+000  +1.7479826468E-001 +3.0064058085E+000  +7.4613218171E-001 -3.3719391936E+000 
14150405.507 +7.6892836466E-001 -2.7746888070E+000  +1.7627614280E-001 +1.9365945575E+000  +1.7559969138E-001 +2.9006086124E+000  +7.8173951991E-001 -3.5292098475E+000 
14275550.688 +7.7911213455E-001 -3.9798072366E+000  +1.7883341992E-001 +1.4954532493E+000  +1.7525206743E-001 +2.3528620928E+000  +7.8098004934E-001 -5.6785065941E+000 
14400695.870 +8.0340040941E-001 -5.7903252031E+000  +1.7885466411E-001 +1.8909681841E+000  +1.7722608789E-001 +2.1340008614E+000  +8.0792574731E-001 -4.0740967088E+000 
