!  2-Port S-parameters saved by WinCal
! VAR MeasName=S-Parameters (CALIBRATED_DATA) read from VNA (P5004A)
! VAR MeasDate=24/04/2024 14:51:37
! VAR NAME=thru calibration ISS
! VAR FILENAME=thru calibration ISS.S2P
! VAR DATE=24/04/2024 14:51:38
! VAR PHYS_PORTS=1,2
! VAR ObjTypeName=DATASET
! VAR IndexType=Frequency
!
# Hz S MA R 50
9000.000 +5.4469990585E-004 -5.0127706539E+001  +9.9985888186E-001 -1.2979191133E-002  +9.9918296192E-001 +3.0502935123E-002  +9.1043929319E-004 +3.3765140485E+001 
4009798.360 +1.7617371888E-004 +1.0537537682E+002  +1.0002722746E+000 -2.8042245302E-002  +9.9967123975E-001 +1.1162491411E-002  +1.3299265853E-004 -5.0387323671E+000 
8010596.719 +9.8488072629E-005 +6.2773168192E+001  +9.9987980210E-001 -2.3524292186E-002  +9.9974966125E-001 +2.2323231489E-003  +1.5165306849E-004 +4.1356464501E+000 
12011395.079 +1.3663471785E-004 +1.7025116962E+001  +9.9986687197E-001 -1.3738620208E-002  +9.9971777216E-001 +1.0009051968E-003  +9.9054206903E-005 -4.1562188515E+001 
16012193.439 +1.7370793904E-004 +5.0102398569E+001  +9.9963970304E-001 -9.2821563608E-003  +9.9994087220E-001 -2.1516368101E-004  +7.5636981638E-005 -9.8410353958E+000 
20012991.798 +7.9219037269E-005 +7.7565262531E+001  +9.9970194046E-001 -1.2366328396E-002  +9.9985547105E-001 -8.9915360692E-003  +8.5730989079E-005 -2.5883909911E+001 
24013790.158 +1.1555226968E-004 +6.1963167330E+001  +9.9978457147E-001 -2.5863815106E-002  +9.9969799444E-001 -8.5659366643E-003  +1.2686951086E-004 +3.3518569959E+001 
28014588.518 +1.5732690801E-004 +1.0658040958E+002  +9.9987040164E-001 -1.6556816967E-002  +9.9973752429E-001 -1.2330020331E-002  +5.6305933643E-005 +2.6375105685E+001 
32015386.877 +6.8509512938E-005 +1.1532908778E+002  +9.9971081922E-001 -1.1730827217E-002  +9.9986943238E-001 -2.3731176378E-002  +1.2008740465E-004 +1.3611069120E+002 
36016185.237 +1.5481061424E-004 +8.4072123935E+001  +9.9985676248E-001 -1.8486847772E-002  +9.9999126369E-001 -1.2956982162E-002  +3.8890846954E-005 -1.7695396043E+002 
40016983.597 +1.5572113787E-004 -1.4301874440E+002  +9.9953809682E-001 -1.4683151334E-002  +9.9985189611E-001 -9.4671905868E-003  +5.1910870668E-005 +8.2332572646E+001 
44017781.956 +1.3873805292E-004 +1.4310135472E+002  +9.9978333562E-001 -3.4124190418E-002  +9.9979896981E-001 -2.2322131100E-002  +7.5427253779E-005 -1.4520730548E+001 
48018580.316 +1.0475354679E-004 -1.2672817607E+002  +9.9981525682E-001 -3.1429800841E-002  +9.9983565704E-001 -1.7501821227E-002  +1.0908482196E-004 +6.7055238340E+000 
52019378.676 +1.6027378888E-004 -1.3640403706E+002  +9.9966094231E-001 -2.4679865717E-002  +9.9980459650E-001 -2.5592597912E-002  +5.3679968003E-005 +6.4552261447E+000 
56020177.035 +1.4455996818E-004 -1.2676845367E+002  +9.9957100940E-001 -2.6041023177E-002  +9.9973740486E-001 -1.2270241949E-002  +3.0286581617E-005 -9.9810559074E+001 
60020975.395 +2.1130547843E-004 -1.4778437700E+002  +9.9976812863E-001 -2.6865949340E-002  +9.9988761865E-001 -3.1615377609E-002  +1.1206923951E-004 -9.1666013234E+001 
64021773.755 +8.1384890308E-005 -1.2677811232E+002  +9.9978249441E-001 -3.3468805186E-002  +9.9975746430E-001 -2.7458685140E-002  +5.8867532066E-005 -2.8723614519E+001 
68022572.114 +1.9615400060E-004 -6.9701973269E+001  +9.9974080049E-001 -3.6233302332E-002  +9.9977255116E-001 -3.9774411186E-002  +1.2783286595E-005 -1.1138520418E+002 
72023370.474 +9.2169024825E-005 -1.0605136970E+002  +9.9975518484E-001 -3.2408645731E-002  +9.9975360116E-001 -2.0876494962E-002  +1.0026770486E-004 +3.6117361398E+001 
76024168.834 +1.8194084818E-004 -6.2912821097E+001  +9.9962940916E-001 -3.1393793738E-002  +9.9972615146E-001 -4.2359630609E-002  +5.0785460982E-005 -9.0736792035E+001 
80024967.193 +1.6481472337E-004 -9.0227839718E+001  +9.9980658972E-001 -3.4912436337E-002  +9.9975907165E-001 -3.3651913939E-002  +6.9401578974E-005 -7.1755669122E+001 
84025765.553 +1.2961392571E-004 -7.0065271521E+000  +9.9975784544E-001 -3.6053348659E-002  +9.9963747715E-001 -3.8953032822E-002  +1.1019831560E-004 +6.9715270317E+000 
88026563.913 +1.3407949332E-004 +7.4145075748E+000  +9.9968300113E-001 -3.2156480584E-002  +9.9978292439E-001 -3.9941374515E-002  +6.0831236351E-005 +9.2401441686E+001 
92027362.272 +2.4897852283E-004 -2.2344246947E+001  +9.9984739039E-001 -4.2595295171E-002  +9.9968985226E-001 -4.6755198244E-002  +4.2580882730E-005 -1.3358911966E+002 
96028160.632 +1.5775741421E-004 +1.0347437722E+001  +9.9985216345E-001 -3.8128340428E-002  +9.9972431179E-001 -3.2626564903E-002  +1.1810460340E-004 -3.6359243813E+001 
100028958.992 +2.2293636397E-004 +1.8972396869E+000  +9.9969839752E-001 -3.9323016773E-002  +9.9977308631E-001 -4.4327745423E-002  +1.3644373409E-004 +3.2753766125E+001 
104029757.351 +2.2945290279E-004 +5.9327224901E+001  +9.9970670608E-001 -4.9836157164E-002  +9.9977552320E-001 -4.8073557567E-002  +1.5177723116E-004 +4.1895278783E+001 
108030555.711 +1.1697657469E-004 +7.1949982182E+001  +9.9957410070E-001 -4.2416468290E-002  +9.9988427654E-001 -4.6322585965E-002  +1.3912275404E-004 +7.7925019919E+001 
112031354.071 +2.2499290785E-004 +3.5584272961E+001  +9.9984237693E-001 -5.0530880673E-002  +9.9977251144E-001 -6.0578787183E-002  +1.7031167109E-004 -1.3334742629E+001 
116032152.430 +1.3583649264E-004 +6.0327789785E+001  +9.9964648936E-001 -5.2630279279E-002  +9.9982434934E-001 -5.9585734831E-002  +7.3809349133E-005 +2.1021565193E+001 
120032950.790 +1.8712946861E-004 +8.0776710869E+001  +9.9971322740E-001 -4.3139897382E-002  +1.0000315934E+000 -4.8656736262E-002  +8.2139024900E-005 +6.9695429044E+001 
124033749.150 +1.9889634964E-005 -1.5227462186E+001  +9.9982542428E-001 -5.2736566814E-002  +9.9986779852E-001 -5.2444010304E-002  +4.2724735021E-005 +2.9415536534E+001 
128034547.510 +1.2271251268E-004 +6.6874958702E+001  +9.9963967423E-001 -5.5034451234E-002  +9.9992525319E-001 -5.9205954397E-002  +1.2542702191E-004 +2.3201657258E+001 
132035345.869 +1.1153766614E-004 +1.0278871139E+002  +9.9958083591E-001 -5.4524357361E-002  +9.9981031698E-001 -5.1007289391E-002  +6.7072758449E-005 +7.6301103687E+000 
136036144.229 +1.9210210812E-004 +6.6725818276E+001  +9.9956317947E-001 -6.6712293234E-002  +9.9998910198E-001 -5.9877516805E-002  +1.0119603853E-004 -1.2011305936E+002 
140036942.589 +4.7213256474E-005 +8.8358905132E+001  +9.9976878287E-001 -5.1668674377E-002  +9.9974652384E-001 -5.7259192576E-002  +4.7228066509E-005 +9.9846824946E+001 
144037740.948 +1.4174668471E-004 +1.5653204186E+002  +9.9982837055E-001 -6.1092878659E-002  +9.9971408173E-001 -5.6266119462E-002  +9.1467812731E-005 +1.3688403650E+002 
148038539.308 +1.0500016215E-004 +1.1777725761E+002  +9.9951448671E-001 -6.6922256944E-002  +9.9965481985E-001 -7.0892824159E-002  +8.0025905966E-005 +1.7080669147E+002 
152039337.668 +1.8183762256E-004 -1.2140213265E+002  +9.9964727814E-001 -6.9417516472E-002  +9.9980724234E-001 -6.8714719524E-002  +5.9055834555E-005 -6.3643262478E+001 
156040136.027 +1.5437136318E-004 -1.1789759899E+002  +9.9972260263E-001 -7.1458069990E-002  +9.9974403144E-001 -6.7268984311E-002  +8.2192404157E-005 -1.1693631630E+002 
160040934.387 +7.3477678607E-005 -1.5147652302E+002  +9.9961795488E-001 -6.6648850605E-002  +9.9984466655E-001 -6.8353506633E-002  +7.0523719394E-005 -1.5892710175E+002 
164041732.747 +1.9333444496E-004 -7.9224005333E+001  +9.9983555500E-001 -6.2783190511E-002  +9.9971517218E-001 -6.6749975536E-002  +8.5604778595E-005 +1.0141997919E+000 
168042531.106 +6.0631523497E-005 -7.7417747802E+001  +9.9955418867E-001 -6.7178861554E-002  +9.9979001807E-001 -6.8785553923E-002  +8.8975056303E-005 -6.4013752738E+001 
172043329.466 +4.9789015164E-005 -5.5744459552E+001  +9.9955210368E-001 -7.2827087212E-002  +9.9976930394E-001 -7.5499567362E-002  +5.5107623804E-005 -3.8977880657E+001 
176044127.826 +1.7391816229E-004 -8.2418106732E+001  +9.9963783460E-001 -7.3695423085E-002  +9.9972686482E-001 -6.7246227198E-002  +9.8770435249E-005 -1.0461831206E+002 
180044926.185 +1.9062923524E-004 -2.6690524601E+001  +9.9979200734E-001 -6.6981817358E-002  +9.9989316616E-001 -8.0665921517E-002  +2.3289562850E-005 -6.2980098588E+001 
184045724.545 +9.5469671043E-005 -4.1471091531E+001  +9.9975876543E-001 -7.5999087762E-002  +9.9967357555E-001 -7.5358191926E-002  +3.0290736438E-005 -1.5552485155E+001 
188046522.905 +1.0465597448E-004 -3.6871737158E+001  +9.9967728977E-001 -8.1146663202E-002  +9.9970793534E-001 -7.9062065394E-002  +1.0989992496E-004 +9.7047854078E-001 
192047321.264 +1.8566059682E-004 -3.3352406799E+000  +9.9980249578E-001 -7.7712189211E-002  +9.9972619249E-001 -8.6856864011E-002  +1.4776525518E-004 +1.0725423777E+002 
196048119.624 +1.3911645459E-004 -2.9201873465E+000  +9.9950209474E-001 -8.5191001709E-002  +9.9984235577E-001 -7.7052435063E-002  +4.9593051153E-005 -6.7031230418E+001 
200048917.984 +1.8933942244E-004 +3.2091186586E+001  +9.9959124000E-001 -8.6575625916E-002  +9.9989342062E-001 -8.5994448979E-002  +6.9988478830E-005 +4.1448926724E+000 
204049716.343 +2.9861008348E-004 +1.6580365818E+001  +9.9966635615E-001 -8.2496964686E-002  +9.9972321001E-001 -7.9718445764E-002  +6.8863868810E-005 +1.7687311181E+001 
208050514.703 +2.2189785091E-004 +4.2096990986E+001  +9.9970255685E-001 -9.2234174270E-002  +9.9970075931E-001 -8.9743987807E-002  +7.3752771061E-005 +1.9730991277E+001 
212051313.063 +6.7713865840E-005 +1.3503293238E+001  +9.9961701113E-001 -8.5133378414E-002  +9.9987690819E-001 -8.1238051660E-002  +1.0193947627E-004 +3.3082332832E+001 
216052111.422 +1.5914753225E-004 +4.2229094840E+001  +9.9972131527E-001 -8.0236128414E-002  +9.9967664213E-001 -8.6141204386E-002  +1.0591357233E-004 -6.2994984009E+001 
220052909.782 +1.4108737648E-004 +3.2801516908E+001  +9.9964909765E-001 -9.4549598421E-002  +9.9974362942E-001 -9.2409089852E-002  +9.7355064676E-005 +2.0311829004E+001 
224053708.142 +1.2667448807E-004 +5.7058293948E+001  +9.9973468412E-001 -9.2245728271E-002  +9.9970858459E-001 -8.5924946149E-002  +1.4103366894E-004 +6.1280013533E+001 
228054506.501 +1.0036604455E-004 +1.4436890998E+002  +9.9988865545E-001 -9.0547692222E-002  +9.9979410486E-001 -9.6219655742E-002  +4.2428514953E-005 +1.1522427280E+001 
232055304.861 +1.7385520606E-004 +8.6062296113E+001  +9.9971861926E-001 -9.3251959332E-002  +9.9963804418E-001 -9.1506468645E-002  +1.0704405556E-004 +4.8226049618E+000 
236056103.221 +1.5337278966E-004 +1.4899100461E+002  +9.9967691151E-001 -9.5861985764E-002  +9.9966680043E-001 -8.8126886039E-002  +6.2943382628E-005 -1.5228093509E+002 
240056901.580 +3.2738410291E-005 -1.3580280687E+002  +9.9951110418E-001 -1.0781608406E-001  +9.9956521350E-001 -9.5905155580E-002  +1.2452640433E-004 -1.6039049329E+002 
244057699.940 +8.0069211614E-005 +1.5975515644E+002  +9.9964107391E-001 -9.9362885950E-002  +9.9976081725E-001 -1.0502567724E-001  +5.3724609100E-005 +6.3000066103E+001 
248058498.300 +1.4162174739E-004 -1.7272001092E+002  +9.9974822013E-001 -9.6591287516E-002  +9.9990374900E-001 -9.5239977075E-002  +1.1058122320E-004 -8.0653794258E+001 
252059296.659 +1.6574801791E-004 -1.2591013971E+002  +9.9954654076E-001 -9.1140722624E-002  +9.9968262707E-001 -1.0159379420E-001  +1.1023850499E-004 -1.7876900238E+002 
256060095.019 +1.4004815635E-004 -1.3030022531E+002  +9.9974695699E-001 -1.0952083520E-001  +9.9981120462E-001 -1.0192059565E-001  +8.3389475535E-005 +1.1243834403E+002 
260060893.379 +3.2269931283E-004 -1.7435916074E+002  +9.9965807715E-001 -1.1951376631E-001  +9.9970573355E-001 -1.0659860262E-001  +4.1710475855E-005 -9.8212178393E+001 
264061691.738 +1.1670210078E-004 -7.6308567575E+001  +9.9952175404E-001 -1.0538222029E-001  +9.9979395157E-001 -1.0850973279E-001  +7.1400675039E-005 -1.5054452775E+002 
268062490.098 +2.5293479902E-004 -7.0877246422E+001  +9.9964106752E-001 -1.1212201250E-001  +9.9977476337E-001 -1.1043324236E-001  +9.3738724196E-005 -1.1282949480E+002 
272063288.458 +1.9992606160E-004 -6.4481459115E+001  +9.9971723829E-001 -1.1544381497E-001  +9.9975560874E-001 -1.0430717006E-001  +7.1208440048E-005 -1.0989584615E+002 
276064086.817 +1.6760881857E-004 -7.4516068168E+001  +9.9988588222E-001 -1.1089572294E-001  +9.9971838795E-001 -1.1075033157E-001  +1.0810253989E-004 -1.3954447369E+002 
280064885.177 +1.2091390126E-004 -6.3776528920E+001  +9.9963484268E-001 -1.0958778012E-001  +9.9972144855E-001 -1.1482534344E-001  +9.2035183256E-005 -1.0271298234E+001 
284065683.537 +2.0521004636E-004 -5.7223409211E+001  +9.9977230916E-001 -1.2510001938E-001  +9.9979374446E-001 -1.1297250515E-001  +8.1265594809E-005 -1.6773049933E+002 
288066481.896 +2.8865687634E-004 -2.4584044843E+001  +9.9966822909E-001 -1.0619521599E-001  +9.9968772285E-001 -1.1167609411E-001  +3.1588690824E-004 -5.1127565160E+001 
292067280.256 +2.5675094078E-004 +3.0007507242E+000  +9.9967225699E-001 -1.2258240046E-001  +9.9971335450E-001 -1.2495495408E-001  +1.1262358786E-004 -5.2430994286E+001 
296068078.616 +2.2959630508E-004 -1.5223500465E+000  +9.9961016962E-001 -1.2153860664E-001  +9.9971946730E-001 -1.2267140736E-001  +1.8818033700E-004 -7.8946776844E+000 
300068876.975 +1.6129566262E-004 -3.5550582670E+000  +9.9959297510E-001 -1.2077027816E-001  +9.9986981495E-001 -1.1166344108E-001  +7.9204622265E-005 +5.1654733842E+001 
304069675.335 +1.3391003424E-004 +5.5399242199E+001  +9.9974055151E-001 -1.2383623441E-001  +9.9970979198E-001 -1.1724698417E-001  +5.6663308723E-005 -8.1861246872E-001 
308070473.695 +1.9180681867E-004 +1.3047056849E+001  +9.9946082382E-001 -1.2217950590E-001  +9.9974558925E-001 -1.2775543812E-001  +1.4979223154E-004 -7.8573051244E+000 
312071272.054 +2.2185274882E-004 +2.5361911700E+001  +9.9973356823E-001 -1.3126351209E-001  +9.9967489750E-001 -1.3518790578E-001  +9.9605139428E-005 -9.7539775003E+000 
316072070.414 +8.4554640530E-005 +1.1346500904E+002  +9.9977144092E-001 -1.3623377559E-001  +9.9975173805E-001 -1.3102200985E-001  +9.4302547220E-005 -1.3871711846E+001 
320072868.774 +5.7275718625E-005 +1.7655774919E+002  +9.9966013712E-001 -1.2981440926E-001  +9.9981874483E-001 -1.3277915754E-001  +9.5222637449E-005 -1.0746463810E+002 
324073667.133 +7.9633992127E-005 +7.3338342160E+001  +9.9947998340E-001 -1.3210170480E-001  +9.9955650596E-001 -1.3907783082E-001  +8.5644126845E-005 -3.0570286123E+001 
328074465.493 +1.1557241820E-004 +7.5774091971E+001  +9.9984032953E-001 -1.2999424501E-001  +9.9963399724E-001 -1.3345280449E-001  +6.5787605387E-005 +2.7225230244E+000 
332075263.853 +3.5308842189E-005 +1.6662109182E+002  +9.9947759454E-001 -1.3779092727E-001  +9.9965193012E-001 -1.3177471882E-001  +7.9792433844E-005 -6.2585868120E+001 
336076062.212 +6.4967784730E-005 +1.7173483218E+002  +9.9974161854E-001 -1.3860511848E-001  +9.9964080105E-001 -1.3799390865E-001  +5.2931119955E-005 +1.5825310058E+002 
340076860.572 +7.2018276149E-005 -1.5089518868E+002  +9.9969582586E-001 -1.4102497316E-001  +9.9986182180E-001 -1.2935956932E-001  +6.8726470005E-005 +4.0945538536E+001 
344077658.932 +1.1117273205E-004 -1.0200766283E+002  +9.9975127180E-001 -1.3854058500E-001  +9.9968362546E-001 -1.3724326888E-001  +5.8017765106E-005 -6.3321422016E+001 
348078457.291 +1.0922907066E-004 -1.5078069403E+002  +9.9968104586E-001 -1.4107146871E-001  +9.9963573258E-001 -1.3361997389E-001  +4.2427049619E-005 -4.9228466040E+001 
352079255.651 +1.0830050502E-004 -1.3951846733E+002  +9.9966938958E-001 -1.3165626542E-001  +9.9976973007E-001 -1.3949447673E-001  +3.3272391531E-005 -5.7628197942E+001 
356080054.011 +1.0899611073E-004 -1.3832034308E+002  +9.9953533661E-001 -1.4301734005E-001  +9.9971287622E-001 -1.3830165578E-001  +1.0605604859E-004 -3.6524452634E+001 
360080852.370 +1.4573393111E-004 -1.2510723921E+002  +9.9969491465E-001 -1.4874217941E-001  +9.9957229173E-001 -1.3743621667E-001  +6.7446586544E-005 -3.6708298628E+001 
364081650.730 +1.3234567280E-004 -1.4089296363E+002  +9.9970686225E-001 -1.3702571821E-001  +9.9968737004E-001 -1.4395809662E-001  +1.2707724820E-004 +1.5301516935E+002 
368082449.090 +1.4747223557E-004 -7.4610010049E+001  +9.9963180628E-001 -1.3953592982E-001  +9.9974849974E-001 -1.4338993009E-001  +1.1060664981E-004 -4.8100712076E+000 
372083247.449 +2.4707845323E-004 -1.1370448764E+002  +9.9958645741E-001 -1.4392052794E-001  +9.9966969758E-001 -1.4732648611E-001  +4.7390703625E-005 -1.2655461627E+002 
376084045.809 +2.0254901556E-004 -7.7654360069E+001  +9.9974628368E-001 -1.4718987657E-001  +9.9991657461E-001 -1.5495937286E-001  +6.2923893191E-005 -1.5647634400E+002 
380084844.169 +1.4460637265E-004 +3.4430823303E+000  +9.9971571405E-001 -1.4868271950E-001  +9.9972118333E-001 -1.5355149807E-001  +3.6660713162E-005 +1.1822167214E+002 
384085642.529 +1.7439288796E-004 -4.8165534962E+001  +9.9976630563E-001 -1.5101167434E-001  +9.9967101537E-001 -1.4613744398E-001  +2.2077794099E-005 +4.0395917675E-001 
388086440.888 +1.9554550832E-004 -2.0796367098E+001  +9.9940218410E-001 -1.5367910474E-001  +9.9970410599E-001 -1.4901111211E-001  +8.8227433219E-005 -6.5479695346E+001 
392087239.248 +2.2819302996E-004 +8.6241314504E+000  +9.9955949406E-001 -1.5267435118E-001  +9.9978380122E-001 -1.5551453168E-001  +1.4451711820E-004 -1.7477908649E+001 
396088037.608 +8.1264616726E-005 +1.9528905646E-001  +9.9958120052E-001 -1.6401394351E-001  +9.9950105152E-001 -1.5833981056E-001  +7.2886507878E-005 +7.9405064462E+001 
400088835.967 +2.2514590931E-004 +3.4571667152E+001  +9.9978723162E-001 -1.6592887841E-001  +9.9984617380E-001 -1.7272645706E-001  +9.6938035547E-005 +3.2815676579E+001 
404089634.327 +2.0566520515E-004 +2.1308038170E+001  +9.9973112759E-001 -1.6561537564E-001  +9.9963167485E-001 -1.7421718529E-001  +1.6379750479E-004 +6.0538080140E+001 
408090432.687 +2.2727965581E-004 +4.8666038479E+001  +9.9978392993E-001 -1.5944102611E-001  +9.9977021213E-001 -1.7562601223E-001  +1.3623637665E-005 -3.3056459202E+001 
412091231.046 +7.8360396433E-005 +1.0215101966E+002  +9.9976395245E-001 -1.5038862571E-001  +9.9981962437E-001 -1.6528817769E-001  +7.3769458800E-005 -3.6217070980E+001 
416092029.406 +2.1879542029E-004 +4.6346282838E+001  +9.9955387519E-001 -1.6820807370E-001  +9.9975199271E-001 -1.6088850654E-001  +1.1268021083E-004 +1.2175502687E+001 
420092827.766 +1.1144579001E-004 +3.0153436867E+001  +9.9956385594E-001 -1.6161833736E-001  +9.9989076391E-001 -1.7169752485E-001  +1.2788815534E-005 +8.1946677184E+001 
424093626.125 +1.2820075958E-004 +8.6341762479E+001  +9.9961134067E-001 -1.6120410407E-001  +9.9962123598E-001 -1.6834962279E-001  +6.3825726857E-005 -1.6215377062E+002 
428094424.485 +6.7576995423E-005 +7.9010897233E+001  +9.9954180667E-001 -1.7894999782E-001  +9.9952160222E-001 -1.7677864303E-001  +5.0664705164E-005 +2.0512184850E+001 
432095222.845 +1.4326874972E-004 +1.5532822846E+002  +9.9960474574E-001 -1.7104969514E-001  +9.9972515413E-001 -1.6770869456E-001  +4.8591407431E-005 +1.4077578682E+002 
436096021.204 +1.6375545122E-004 +1.6467773252E+002  +9.9957687288E-001 -1.7261412244E-001  +9.9963869642E-001 -1.6943478775E-001  +5.6384827714E-005 -1.4826435519E+002 
440096819.564 +1.1131151973E-004 -1.6052649098E+002  +9.9964074871E-001 -1.8000117268E-001  +9.9965909134E-001 -1.8822639970E-001  +4.2141736945E-005 +1.5091222678E+002 
444097617.924 +1.2367778553E-004 -1.4515351246E+002  +9.9947506821E-001 -1.7034067083E-001  +9.9956527884E-001 -1.7981830899E-001  +3.9463363550E-005 -8.8086576390E+000 
448098416.283 +1.3716926266E-004 -1.1703462490E+002  +9.9958956707E-001 -1.7925875626E-001  +9.9973220585E-001 -1.7603065589E-001  +5.1091070922E-005 -2.9726405429E+001 
452099214.643 +1.6822882462E-004 -1.6333764555E+002  +9.9971753588E-001 -1.8245119219E-001  +9.9965959583E-001 -1.7470426267E-001  +9.7570514397E-005 +3.7181401327E+001 
456100013.003 +1.9488271146E-004 -1.5144974138E+002  +9.9948920570E-001 -1.8698176947E-001  +9.9977307759E-001 -1.8226940788E-001  +9.1947007659E-005 -3.6299094025E+001 
