!  2-Port S-parameters saved by WinCal
! VAR MeasName=S-Parameters (CALIBRATED_DATA) read from VNA (P5004A)
! VAR MeasDate=24/04/2024 16:24:58
! VAR NAME=Wafer2_r1_c3_pristine 18
! VAR FILENAME=Wafer2_r1_c3_pristine 18.S2P
! VAR DATE=24/04/2024 16:24:58
! VAR PHYS_PORTS=1,2
! VAR ObjTypeName=DATASET
! VAR IndexType=Frequency
!
# Hz S MA R 50
9000.000 +7.8691092157E-001 +1.8096529159E+001  +1.3639131829E-005 +2.7037837783E+001  +1.9886554221E-005 +2.7061319551E+001  +7.9231256349E-001 +1.8005343209E+001 
4009798.360 +9.8798500751E-001 -3.1155731545E+000  +1.8979389742E-003 +8.5998894718E+001  +1.9146151852E-003 +8.5979647405E+001  +9.8750739852E-001 -3.0368162635E+000 
8010596.719 +9.7683273039E-001 -5.8687607047E-001  +3.7217837801E-003 +8.8520407062E+001  +3.7655518327E-003 +8.8221831025E+001  +9.7684550189E-001 -5.9509852198E-001 
12011395.079 +9.7623711445E-001 +8.4794319343E-002  +5.5960040864E-003 +8.9162344064E+001  +5.6360831296E-003 +8.8741548391E+001  +9.7314845433E-001 +3.9186007759E-002 
16012193.439 +9.8817372291E-001 +2.6624510699E-001  +7.5068765732E-003 +8.9291734186E+001  +7.5444981309E-003 +8.8757511076E+001  +9.8576816769E-001 +2.3276497061E-001 
20012991.798 +9.9597103116E-001 +2.5854237229E-001  +9.4321322756E-003 +8.9237887518E+001  +9.4537608589E-003 +8.8644299142E+001  +9.9456099599E-001 +2.7100794335E-001 
24013790.158 +1.0007696748E+000 +2.6750861138E-001  +1.1359665839E-002 +8.9169180558E+001  +1.1348761916E-002 +8.8543079729E+001  +1.0002468783E+000 +1.5312510234E-001 
28014588.518 +1.0045994222E+000 +1.1423549719E-001  +1.3305063625E-002 +8.9000361512E+001  +1.3255621289E-002 +8.8411037817E+001  +1.0035058264E+000 +1.6624454598E-003 
32015386.877 +1.0098029442E+000 -2.2627277286E-001  +1.5254203199E-002 +8.8877007392E+001  +1.5180211830E-002 +8.8357832271E+001  +1.0095105090E+000 -2.7413945494E-001 
36016185.237 +1.0122727457E+000 -4.9292920028E-001  +1.7208952240E-002 +8.8579350731E+001  +1.7109021262E-002 +8.8108693615E+001  +1.0124614392E+000 -5.4351290550E-001 
40016983.597 +1.0137807055E+000 -8.1670489339E-001  +1.9162325669E-002 +8.8181495337E+001  +1.9018081599E-002 +8.7828247912E+001  +1.0140241037E+000 -8.6693625368E-001 
44017781.956 +1.0147482867E+000 -1.2082324079E+000  +2.1105677742E-002 +8.7725959833E+001  +2.0914969643E-002 +8.7501562113E+001  +1.0147711910E+000 -1.2282067648E+000 
48018580.316 +1.0149700437E+000 -1.5703890464E+000  +2.3018333032E-002 +8.7230265038E+001  +2.2801110285E-002 +8.7134977404E+001  +1.0154888970E+000 -1.5759802724E+000 
52019378.676 +1.0224424775E+000 -2.1395284261E+000  +2.4946766067E-002 +8.6886549981E+001  +2.4686417006E-002 +8.6886910122E+001  +1.0224508229E+000 -2.1003330826E+000 
56020177.035 +1.0217274412E+000 -2.4903903645E+000  +2.6727531994E-002 +8.6346124571E+001  +2.6474452963E-002 +8.6489522044E+001  +1.0218657022E+000 -2.4114137386E+000 
60020975.395 +1.0196937437E+000 -2.7939630015E+000  +2.8433722613E-002 +8.5944573316E+001  +2.8216034174E-002 +8.6227445443E+001  +1.0213018767E+000 -2.6240163217E+000 
64021773.755 +1.0118350513E+000 -2.8767785708E+000  +3.0066583721E-002 +8.5607264252E+001  +2.9905534067E-002 +8.6075652403E+001  +1.0152024714E+000 -2.6929349255E+000 
68022572.114 +9.8902689447E-001 -2.6890855220E+000  +3.1412948156E-002 +8.4894274745E+001  +3.1425258146E-002 +8.5706503437E+001  +1.0000473708E+000 -2.6169549433E+000 
72023370.474 +9.5006216784E-001 -2.4584028565E+000  +3.2449988990E-002 +8.4050406526E+001  +3.2666913985E-002 +8.5105586700E+001  +9.6916043795E-001 -2.4924162643E+000 
76024168.834 +9.0078407483E-001 -2.3918044778E+000  +3.3314438721E-002 +8.3558266551E+001  +3.3534403174E-002 +8.4416610923E+001  +9.1335507360E-001 -2.3480968601E+000 
80024967.193 +8.5327510420E-001 -2.4996760578E+000  +3.4108930109E-002 +8.3418103403E+001  +3.4037042677E-002 +8.3765495231E+001  +8.4434963449E-001 -2.3833634266E+000 
84025765.553 +8.0426968228E-001 -2.0651710766E+000  +3.4748496418E-002 +8.3784761138E+001  +3.5127210912E-002 +8.4418200695E+001  +8.1402199386E-001 -2.1523205207E+000 
88026563.913 +7.7701384355E-001 -2.0596649671E+000  +3.5916546677E-002 +8.4718546570E+001  +3.6721471223E-002 +8.5386599334E+001  +8.0178010875E-001 -2.1699572737E+000 
92027362.272 +7.5722062737E-001 -2.7966862906E+000  +3.7246902765E-002 +8.5242678158E+001  +3.8249008050E-002 +8.5726833323E+001  +7.8681519114E-001 -2.7467830219E+000 
96028160.632 +7.4428790803E-001 -3.6076356247E+000  +3.8641810583E-002 +8.5718759707E+001  +3.9902499625E-002 +8.6003864669E+001  +7.8119308908E-001 -3.3114957681E+000 
100028958.992 +7.4526767160E-001 -4.6101226513E+000  +4.0322206336E-002 +8.6253723033E+001  +4.1667297561E-002 +8.6290466597E+001  +7.8162824067E-001 -4.0345438615E+000 
104029757.351 +7.6273544613E-001 -5.1154154667E+000  +4.2284057083E-002 +8.6847834218E+001  +4.3683681108E-002 +8.6628406975E+001  +7.9763085769E-001 -4.3730765073E+000 
108030555.711 +7.9034352648E-001 -5.0842030608E+000  +4.4505617837E-002 +8.7516654271E+001  +4.5869934137E-002 +8.7009262050E+001  +8.2182242687E-001 -4.3666179283E+000 
112031354.071 +8.0975048774E-001 -4.4660997516E+000  +4.6779301431E-002 +8.8511010437E+001  +4.8041127727E-002 +8.7726837879E+001  +8.3788853002E-001 -3.8052319698E+000 
116032152.430 +8.4298411491E-001 -3.1572900885E+000  +4.9730492390E-002 +8.9303123255E+001  +5.0757102684E-002 +8.8205244089E+001  +8.6692398607E-001 -2.9391018350E+000 
120032950.790 +9.0898725488E-001 -2.8675421863E+000  +5.3333296828E-002 +8.8665029888E+001  +5.3966013492E-002 +8.7708577113E+001  +9.2175229003E-001 -2.8464756452E+000 
124033749.150 +9.6924916213E-001 -2.9400903318E+000  +5.6828206794E-002 +8.7541284191E+001  +5.7139492271E-002 +8.6793870114E+001  +9.7480880741E-001 -2.9813017783E+000 
128034547.510 +1.0114213333E+000 -3.0791494686E+000  +5.9932639222E-002 +8.6366956540E+001  +6.0026906740E-002 +8.5811263672E+001  +1.0122854105E+000 -3.0976767806E+000 
132035345.869 +1.0288146740E+000 -3.2390444089E+000  +6.2461107318E-002 +8.5428551333E+001  +6.2337759034E-002 +8.5133134863E+001  +1.0247664133E+000 -3.3000446391E+000 
136036144.229 +1.0288672824E+000 -3.5259154392E+000  +6.4512981088E-002 +8.4858174776E+001  +6.4279640858E-002 +8.4689490133E+001  +1.0232287579E+000 -3.6682872808E+000 
140036942.589 +1.0252344104E+000 -3.9657299651E+000  +6.6419671522E-002 +8.4304252561E+001  +6.6037447404E-002 +8.4266014759E+001  +1.0190207524E+000 -4.1628016145E+000 
144037740.948 +1.0212055778E+000 -4.4623032694E+000  +6.8094491065E-002 +8.3738329549E+001  +6.7652185161E-002 +8.3811191578E+001  +1.0153800781E+000 -4.6696888038E+000 
148038539.308 +1.0168796053E+000 -4.9368223932E+000  +6.9636204414E-002 +8.3233482701E+001  +6.9168481576E-002 +8.3453070414E+001  +1.0110080575E+000 -5.1272678621E+000 
152039337.668 +1.0125069053E+000 -5.2905085489E+000  +7.1036895720E-002 +8.2805560588E+001  +7.0622770565E-002 +8.3138451100E+001  +1.0059446829E+000 -5.4339738384E+000 
156040136.027 +1.0065078237E+000 -5.4035583855E+000  +7.2332832461E-002 +8.2533934631E+001  +7.2011514811E-002 +8.2998890583E+001  +9.9961083580E-001 -5.5361678097E+000 
160040934.387 +9.9865878983E-001 -5.3712610161E+000  +7.3545178207E-002 +8.2394878454E+001  +7.3310471558E-002 +8.2980041357E+001  +9.9019228907E-001 -5.6086273154E+000 
164041732.747 +9.8617143914E-001 -5.2190221792E+000  +7.4706080775E-002 +8.2274833839E+001  +7.4678150880E-002 +8.3027501120E+001  +9.8004803061E-001 -5.5966470181E+000 
168042531.106 +9.5303644088E-001 -5.0724192205E+000  +7.5209871520E-002 +8.1729534490E+001  +7.5708974020E-002 +8.2874927701E+001  +9.6008972678E-001 -5.5562861423E+000 
172043329.466 +8.9935706297E-001 -4.9342425764E+000  +7.4935404359E-002 +8.0937317193E+001  +7.6054981075E-002 +8.2362168079E+001  +9.2098313104E-001 -5.4878435235E+000 
176044127.826 +8.3664939479E-001 -4.7976635112E+000  +7.4160622909E-002 +8.0252478623E+001  +7.5883013118E-002 +8.1809704345E+001  +8.6846764244E-001 -5.2834597536E+000 
180044926.185 +7.8285470490E-001 -4.1947846539E+000  +7.3524152699E-002 +8.0280375533E+001  +7.5771431392E-002 +8.1663393753E+001  +8.1808110791E-001 -4.7344755853E+000 
184045724.545 +7.6893421807E-001 -2.8983699799E+000  +7.4264260661E-002 +8.1532609643E+001  +7.6523147315E-002 +8.2380375019E+001  +7.9598390772E-001 -3.5004438246E+000 
188046522.905 +7.5184033099E-001 -2.9464824697E+000  +7.5413683359E-002 +8.2205414081E+001  +7.8050345443E-002 +8.3034486220E+001  +7.8542322646E-001 -3.0686868286E+000 
192047321.264 +7.3635530533E-001 -3.3880814691E+000  +7.6712407636E-002 +8.2768335600E+001  +7.9559371836E-002 +8.3294739687E+001  +7.7081904775E-001 -3.4190537750E+000 
196048119.624 +7.3211189739E-001 -4.3866631713E+000  +7.8311069044E-002 +8.3251708747E+001  +8.1334062426E-002 +8.3482895360E+001  +7.6757690086E-001 -4.2283853390E+000 
200048917.984 +7.4416631456E-001 -5.5056640722E+000  +8.0426779133E-002 +8.3698264065E+001  +8.3433855880E-002 +8.3650975020E+001  +7.7868258539E-001 -5.1382853988E+000 
204049716.343 +7.7038917675E-001 -6.1928093320E+000  +8.3086569103E-002 +8.4276007117E+001  +8.5633688995E-002 +8.3930285929E+001  +7.9736579697E-001 -5.7959930454E+000 
208050514.703 +8.0487626591E-001 -6.5120199244E+000  +8.6153062433E-002 +8.4799207491E+001  +8.8183838140E-002 +8.4261626526E+001  +8.2451538840E-001 -6.0227709139E+000 
212051313.063 +8.3237300470E-001 -5.8610780130E+000  +8.9435576608E-002 +8.5663190830E+001  +9.1210154655E-002 +8.4825860576E+001  +8.5336420026E-001 -5.3806518884E+000 
216052111.422 +8.8580877585E-001 -5.6222632778E+000  +9.4059765192E-002 +8.5617160152E+001  +9.5301215812E-002 +8.4585395232E+001  +9.0654025428E-001 -5.1937433693E+000 
220052909.782 +9.4893690376E-001 -5.8077096336E+000  +9.9020361823E-002 +8.4631000340E+001  +9.9699414675E-002 +8.3702697762E+001  +9.6633050748E-001 -5.3430980624E+000 
224053708.142 +9.9522871661E-001 -5.9642200808E+000  +1.0343337673E-001 +8.3390396982E+001  +1.0358203779E-001 +8.2597033443E+001  +1.0089161928E+000 -5.5501066096E+000 
228054506.501 +1.0173962443E+000 -6.1824739185E+000  +1.0678870904E-001 +8.2211458219E+001  +1.0633540462E-001 +8.1686399068E+001  +1.0252990203E+000 -5.9068257928E+000 
232055304.861 +1.0187280269E+000 -6.6336690175E+000  +1.0898508620E-001 +8.1425628765E+001  +1.0818059870E-001 +8.1080753802E+001  +1.0247241731E+000 -6.4210359425E+000 
236056103.221 +1.0140773301E+000 -7.2256076778E+000  +1.1063586241E-001 +8.0788092819E+001  +1.0959868949E-001 +8.0551487874E+001  +1.0206406565E+000 -6.9848476692E+000 
240056901.580 +1.0083118951E+000 -7.8064301362E+000  +1.1194463089E-001 +8.0190497070E+001  +1.1078101419E-001 +8.0078754154E+001  +1.0153414278E+000 -7.5232349759E+000 
244057699.940 +1.0017249490E+000 -8.2703704595E+000  +1.1296596958E-001 +7.9712071696E+001  +1.1175838879E-001 +7.9731573275E+001  +1.0093527367E+000 -7.9630133947E+000 
248058498.300 +9.9457313483E-001 -8.5581157451E+000  +1.1379820745E-001 +7.9367403547E+001  +1.1261529360E-001 +7.9529468059E+001  +1.0028230833E+000 -8.2574585556E+000 
252059296.659 +9.8614542911E-001 -8.6713076172E+000  +1.1452486112E-001 +7.9163275377E+001  +1.1340865575E-001 +7.9462401697E+001  +9.9682918622E-001 -8.4285603308E+000 
256060095.019 +9.7751274607E-001 -8.6455506186E+000  +1.1528215396E-001 +7.9099694702E+001  +1.1433356771E-001 +7.9540699314E+001  +9.9111523103E-001 -8.4705155454E+000 
260060893.379 +9.6821105686E-001 -8.5425611236E+000  +1.1607968036E-001 +7.9149927274E+001  +1.1536186015E-001 +7.9718476198E+001  +9.8706559291E-001 -8.4108690202E+000 
264061691.738 +9.5358527709E-001 -8.3627404810E+000  +1.1665248099E-001 +7.9037540812E+001  +1.1649164169E-001 +7.9858835157E+001  +9.8021989500E-001 -8.2529186108E+000 
268062490.098 +9.2104893357E-001 -8.1157504399E+000  +1.1625544977E-001 +7.8492531753E+001  +1.1702573331E-001 +7.9677226576E+001  +9.5755951022E-001 -7.9747567463E+000 
272063288.458 +8.7239896073E-001 -7.7627677883E+000  +1.1510553268E-001 +7.7907808553E+001  +1.1672633993E-001 +7.9201912229E+001  +9.1259346279E-001 -7.6397848539E+000 
276064086.817 +8.1951061973E-001 -7.3639530174E+000  +1.1383253109E-001 +7.7651944582E+001  +1.1613405669E-001 +7.8849187775E+001  +8.5858234015E-001 -7.3527416537E+000 
280064885.177 +7.8126180889E-001 -6.5054374538E+000  +1.1320265174E-001 +7.8173880078E+001  +1.1580168174E-001 +7.8983965166E+001  +8.1333151190E-001 -6.7900181294E+000 
284065683.537 +7.7129699798E-001 -5.3914395378E+000  +1.1413938341E-001 +7.9338948712E+001  +1.1672905296E-001 +7.9782622776E+001  +7.9564338186E-001 -5.8483084886E+000 
288066481.896 +7.6017070251E-001 -5.5480352934E+000  +1.1559368350E-001 +8.0029560108E+001  +1.1834263405E-001 +8.0298288429E+001  +7.8340944225E-001 -5.8428664721E+000 
292067280.256 +7.5521707494E-001 -6.1608590514E+000  +1.1736700219E-001 +8.0605051382E+001  +1.2012083184E-001 +8.0619453151E+001  +7.7600273723E-001 -6.4086423331E+000 
296068078.616 +7.6306649907E-001 -7.1389969431E+000  +1.1980210365E-001 +8.1069005997E+001  +1.2243527814E-001 +8.0877230458E+001  +7.8152320395E-001 -7.2782774309E+000 
300068876.975 +7.7917757199E-001 -8.0845062764E+000  +1.2253196934E-001 +8.1463430548E+001  +1.2511216827E-001 +8.1100821023E+001  +7.9699665134E-001 -8.0736658327E+000 
304069675.335 +8.0842664715E-001 -8.6138767564E+000  +1.2594999851E-001 +8.1849417310E+001  +1.2831536538E-001 +8.1312363649E+001  +8.2451696139E-001 -8.4983887354E+000 
308070473.695 +8.3975585790E-001 -8.5341722566E+000  +1.2980983359E-001 +8.2272138664E+001  +1.3190979459E-001 +8.1574881842E+001  +8.5416862904E-001 -8.3446977425E+000 
312071272.054 +8.8307569872E-001 -8.1920778121E+000  +1.3488315389E-001 +8.2393705594E+001  +1.3661550667E-001 +8.1513088722E+001  +8.9703049050E-001 -8.0818386215E+000 
316072070.414 +9.4164708449E-001 -8.3789837596E+000  +1.4091001460E-001 +8.1607143180E+001  +1.4209307037E-001 +8.0754870818E+001  +9.5085660100E-001 -8.2798815404E+000 
320072868.774 +9.8915505533E-001 -8.6912076816E+000  +1.4638910453E-001 +8.0417624945E+001  +1.4694367914E-001 +7.9685447839E+001  +9.9313463690E-001 -8.5888571890E+000 
324073667.133 +1.0132406067E+000 -9.0906895765E+000  +1.5037469269E-001 +7.9278881557E+001  +1.5030889196E-001 +7.8739465736E+001  +1.0121054810E+000 -8.9952630940E+000 
328074465.493 +1.0163446060E+000 -9.6124710621E+000  +1.5274081363E-001 +7.8449434314E+001  +1.5221235941E-001 +7.8054275187E+001  +1.0139997878E+000 -9.4851091805E+000 
332075263.853 +1.0120170246E+000 -1.0184556044E+001  +1.5416952676E-001 +7.7773339778E+001  +1.5339555912E-001 +7.7482550436E+001  +1.0097407032E+000 -1.0002191461E+001 
336076062.212 +1.0051637513E+000 -1.0711306496E+001  +1.5509152575E-001 +7.7181298452E+001  +1.5412665100E-001 +7.6993912539E+001  +1.0031071843E+000 -1.0482872566E+001 
340076860.572 +9.9690141613E-001 -1.1154670106E+001  +1.5557870620E-001 +7.6697600018E+001  +1.5456621258E-001 +7.6644965159E+001  +9.9508698935E-001 -1.0886813305E+001 
344077658.932 +9.8811978747E-001 -1.1465240426E+001  +1.5591267713E-001 +7.6369383275E+001  +1.5485635474E-001 +7.6414586766E+001  +9.8644466151E-001 -1.1175159734E+001 
348078457.291 +9.7921580178E-001 -1.1597201985E+001  +1.5602856123E-001 +7.6220329200E+001  +1.5506854405E-001 +7.6381568034E+001  +9.7779610267E-001 -1.1302776312E+001 
352079255.651 +9.7104595071E-001 -1.1579481814E+001  +1.5624996693E-001 +7.6225867041E+001  +1.5544657697E-001 +7.6485290561E+001  +9.6979943260E-001 -1.1286471865E+001 
356080054.011 +9.6393623559E-001 -1.1425148828E+001  +1.5664899461E-001 +7.6368950552E+001  +1.5607198789E-001 +7.6715695788E+001  +9.6306893557E-001 -1.1119720673E+001 
360080852.370 +9.5728392379E-001 -1.1162309269E+001  +1.5733351565E-001 +7.6578349853E+001  +1.5704212708E-001 +7.7015139121E+001  +9.5740757300E-001 -1.0852570454E+001 
364081650.730 +9.4369986435E-001 -1.0783912074E+001  +1.5773336932E-001 +7.6576930964E+001  +1.5804310413E-001 +7.7213419925E+001  +9.4821339595E-001 -1.0504853758E+001 
368082449.090 +9.0945277858E-001 -1.0365074184E+001  +1.5692154453E-001 +7.6100748856E+001  +1.5820512920E-001 +7.6981149056E+001  +9.2219567564E-001 -1.0132577298E+001 
372083247.449 +8.6027661702E-001 -9.9720300932E+000  +1.5516081864E-001 +7.5571347815E+001  +1.5735700380E-001 +7.6529345095E+001  +8.8003211051E-001 -9.8537035001E+000 
376084045.809 +8.1077739782E-001 -9.5627091222E+000  +1.5334163661E-001 +7.5410814511E+001  +1.5619844820E-001 +7.6256937855E+001  +8.3447975977E-001 -9.5934268471E+000 
380084844.169 +7.8004282540E-001 -8.6755974828E+000  +1.5245457487E-001 +7.6042951695E+001  +1.5563924995E-001 +7.6590216250E+001  +8.0333806202E-001 -9.0009890547E+000 
384085642.529 +7.7000228622E-001 -7.8031922705E+000  +1.5327416191E-001 +7.7066604990E+001  +1.5659325262E-001 +7.7348704123E+001  +7.9309024730E-001 -8.3154119182E+000 
388086440.888 +7.5930868601E-001 -8.0092350039E+000  +1.5456871240E-001 +7.7705289699E+001  +1.5817940720E-001 +7.7803151792E+001  +7.8466699495E-001 -8.4455501994E+000 
392087239.248 +7.5835931845E-001 -8.6600746000E+000  +1.5663345552E-001 +7.8253831180E+001  +1.6024460532E-001 +7.8140436487E+001  +7.8408473745E-001 -8.9660827139E+000 
396088037.608 +7.6982452865E-001 -9.6490884720E+000  +1.5952254059E-001 +7.8680075362E+001  +1.6300001273E-001 +7.8383300505E+001  +7.9565290963E-001 -9.7555961109E+000 
400088835.967 +7.9386184045E-001 -1.0521864512E+001  +1.6325830734E-001 +7.9015207698E+001  +1.6650617113E-001 +7.8560705132E+001  +8.1771575347E-001 -1.0450681654E+001 
404089634.327 +8.2494124377E-001 -1.1002747641E+001  +1.6773897906E-001 +7.9281797436E+001  +1.7065621553E-001 +7.8685270700E+001  +8.4700062999E-001 -1.0804965523E+001 
408090432.687 +8.5774808890E-001 -1.0926572702E+001  +1.7279657473E-001 +7.9531125131E+001  +1.7552368527E-001 +7.8745184189E+001  +8.7994325123E-001 -1.0750879079E+001 
412091231.046 +9.0682988532E-001 -1.1012690373E+001  +1.7949924310E-001 +7.9154463015E+001  +1.8169204644E-001 +7.8237426104E+001  +9.2754643107E-001 -1.0903556427E+001 
416092029.406 +9.5982825122E-001 -1.1425331429E+001  +1.8646772162E-001 +7.8035110376E+001  +1.8790345302E-001 +7.7200103606E+001  +9.7522312754E-001 -1.1294712937E+001 
420092827.766 +9.9487353431E-001 -1.1875456845E+001  +1.9189467148E-001 +7.6770010175E+001  +1.9243363418E-001 +7.6107774672E+001  +1.0036935426E+000 -1.1723525044E+001 
424093626.125 +1.0078275285E+000 -1.2353764607E+001  +1.9517311210E-001 +7.5670088366E+001  +1.9472943177E-001 +7.5270231556E+001  +1.0103196951E+000 -1.2193939773E+001 
428094424.485 +1.0049443380E+000 -1.2900452302E+001  +1.9656972406E-001 +7.4867927263E+001  +1.9571715846E-001 +7.4609622230E+001  +1.0058755824E+000 -1.2721108687E+001 
432095222.845 +9.9722867882E-001 -1.3413643786E+001  +1.9708264254E-001 +7.4260384952E+001  +1.9600229223E-001 +7.4100829592E+001  +9.9795106239E-001 -1.3200229516E+001 
436096021.204 +9.8738268455E-001 -1.3852414821E+001  +1.9700044248E-001 +7.3753748956E+001  +1.9581946731E-001 +7.3690923827E+001  +9.8818608716E-001 -1.3629576483E+001 
440096819.564 +9.7687686360E-001 -1.4172177836E+001  +1.9662452139E-001 +7.3431075270E+001  +1.9535970130E-001 +7.3454449552E+001  +9.7814306593E-001 -1.3942270868E+001 
444097617.924 +9.6656671113E-001 -1.4330127927E+001  +1.9611356418E-001 +7.3283114532E+001  +1.9494730026E-001 +7.3384524889E+001  +9.6820230598E-001 -1.4104879864E+001 
448098416.283 +9.5737511064E-001 -1.4304547689E+001  +1.9566703556E-001 +7.3293047318E+001  +1.9472545450E-001 +7.3506849352E+001  +9.5934729029E-001 -1.4096031741E+001 
452099214.643 +9.4936935347E-001 -1.4088196429E+001  +1.9542123836E-001 +7.3487962298E+001  +1.9473909249E-001 +7.3777722417E+001  +9.5175495804E-001 -1.3903811153E+001 
456100013.003 +9.4235395274E-001 -1.3746062126E+001  +1.9567720051E-001 +7.3765454071E+001  +1.9526469661E-001 +7.4109332947E+001  +9.4524085109E-001 -1.3599280597E+001 
