!  2-Port S-parameters saved by WinCal
! VAR MeasName=S-Parameters (CALIBRATED_DATA) read from VNA (P5004A)
! VAR MeasDate=24/04/2024 15:31:41
! VAR NAME=Wafer2_r10_c1_thru
! VAR FILENAME=Wafer2_r10_c1_thru.S2P
! VAR DATE=24/04/2024 15:31:41
! VAR PHYS_PORTS=1,2
! VAR ObjTypeName=DATASET
! VAR IndexType=Frequency
!
# Hz S MA R 50
9000.000 +9.1240585706E-003 -2.2064152236E+000  +9.8961831626E-001 +2.0009688194E-001  +9.9029657611E-001 +2.0996761149E-001  +9.3397667730E-003 -3.2974305221E+000 
4009798.360 +9.3646939660E-003 +6.0392876696E-001  +9.9077993088E-001 -6.2560793878E-002  +9.9001571908E-001 -1.4910618312E-002  +9.6845698286E-003 -4.3859653138E-001 
8010596.719 +9.3729250765E-003 -2.6990727987E-001  +9.9036350581E-001 -2.3981372340E-002  +9.9026715783E-001 +1.3587719798E-003  +9.4186133786E-003 -8.7641692658E-001 
12011395.079 +9.3236688442E-003 -9.2803208860E-001  +9.9045759500E-001 -1.9977262671E-002  +9.9044151097E-001 -8.0705985169E-003  +9.3755928103E-003 -9.3350513783E-001 
16012193.439 +9.2813592131E-003 -7.7581166836E-001  +9.9040579545E-001 -1.9454615580E-002  +9.9071333742E-001 -1.6096264956E-002  +9.2968406702E-003 -1.3025982194E+000 
20012991.798 +9.1410285932E-003 -1.0495555709E+000  +9.9058605166E-001 -2.1364465609E-002  +9.9062783948E-001 -2.2120269667E-002  +9.3105262335E-003 -1.2211300894E+000 
24013790.158 +9.0573409490E-003 -6.5309514159E-001  +9.9085727710E-001 -2.4845721407E-002  +9.9071170269E-001 -2.2039975385E-002  +9.3231985415E-003 -7.1534098387E-001 
28014588.518 +9.0812229468E-003 -1.0086435287E+000  +9.9074933497E-001 -3.2013841937E-002  +9.9056827379E-001 -3.9213136409E-002  +9.2276249987E-003 -1.7031068439E+000 
32015386.877 +9.0093498675E-003 -1.6485038014E+000  +9.9070727114E-001 -3.9152480703E-002  +9.9063803161E-001 -4.0897862546E-002  +9.1348526635E-003 -1.2665486409E+000 
36016185.237 +9.0165108919E-003 -1.1481726909E+000  +9.9074293534E-001 -4.5436684315E-002  +9.9090027729E-001 -3.9679055502E-002  +9.0392180874E-003 -2.0233776537E+000 
40016983.597 +8.9649015921E-003 -2.5932341233E+000  +9.9058508398E-001 -5.5937418314E-002  +9.9079406943E-001 -4.9143125214E-002  +9.2709671210E-003 -2.2875824935E+000 
44017781.956 +9.0417170561E-003 -2.7501671491E+000  +9.9062891963E-001 -6.3975147176E-002  +9.9070670271E-001 -6.3921864464E-002  +9.3338805159E-003 -2.5994652817E+000 
48018580.316 +9.2421791167E-003 -3.2515945005E+000  +9.9066986432E-001 -8.5019754504E-002  +9.9099171417E-001 -5.9757773492E-002  +9.4250157104E-003 -3.0218166879E+000 
52019378.676 +9.2373863856E-003 -4.4904532383E+000  +9.9049148853E-001 -9.0324117810E-002  +9.9069668633E-001 -7.7734017350E-002  +9.3865235717E-003 -3.8767347022E+000 
56020177.035 +9.2850408484E-003 -4.9225723036E+000  +9.9023449981E-001 -8.4562234594E-002  +9.9057869884E-001 -7.6453450978E-002  +9.4638134591E-003 -4.4089058971E+000 
60020975.395 +9.2322360302E-003 -5.3516047578E+000  +9.9044539282E-001 -9.9965604524E-002  +9.9054143101E-001 -1.0431898986E-001  +9.5287381908E-003 -5.1678541525E+000 
64021773.755 +9.2821732446E-003 -5.8012176946E+000  +9.9043783295E-001 -1.0415922193E-001  +9.9058386522E-001 -1.0031621019E-001  +9.5492165695E-003 -5.5521452664E+000 
68022572.114 +9.3244349974E-003 -6.0845318174E+000  +9.9032945957E-001 -1.1289692066E-001  +9.9053358472E-001 -9.7184723271E-002  +9.3404693957E-003 -5.5282967049E+000 
72023370.474 +9.3318161106E-003 -6.4138378571E+000  +9.9046583667E-001 -1.1293826746E-001  +9.9044118754E-001 -9.2678556775E-002  +9.4014513029E-003 -5.4000418914E+000 
76024168.834 +9.3214840075E-003 -6.2872712695E+000  +9.9035731796E-001 -1.1181613474E-001  +9.9036613696E-001 -1.0814784909E-001  +9.4065444574E-003 -6.1497808108E+000 
80024967.193 +9.3202029174E-003 -6.8185939084E+000  +9.9030671852E-001 -1.1371509025E-001  +9.9061576133E-001 -1.0813783424E-001  +9.4286790057E-003 -6.2469091522E+000 
84025765.553 +9.4358158768E-003 -6.0526818728E+000  +9.9038658721E-001 -1.2365584916E-001  +9.9047452239E-001 -1.1591112939E-001  +9.3243997093E-003 -6.3747104615E+000 
88026563.913 +9.3646410529E-003 -5.8263420440E+000  +9.9019214908E-001 -1.2345939930E-001  +9.9062547631E-001 -1.1519536411E-001  +9.2699128972E-003 -5.8102641705E+000 
92027362.272 +9.5664744504E-003 -5.9877703771E+000  +9.9054902983E-001 -1.2576020740E-001  +9.9063052914E-001 -1.2310656484E-001  +9.2736571624E-003 -6.3320979312E+000 
96028160.632 +9.3875297716E-003 -6.5101871029E+000  +9.9049891543E-001 -1.2131796768E-001  +9.9049444301E-001 -1.1795856030E-001  +9.2979676282E-003 -6.3967048391E+000 
100028958.992 +9.4233696670E-003 -6.0105660298E+000  +9.9044234149E-001 -1.2897269021E-001  +9.9081671679E-001 -1.3779590934E-001  +9.2838604447E-003 -5.7805015044E+000 
104029757.351 +9.4194774240E-003 -5.6900940142E+000  +9.9038318564E-001 -1.3861829511E-001  +9.9064545868E-001 -1.3008947423E-001  +9.2402561898E-003 -6.5343301893E+000 
108030555.711 +9.4258044405E-003 -6.5284914146E+000  +9.9048276984E-001 -1.4521746825E-001  +9.9069837445E-001 -1.3570270240E-001  +9.2183530786E-003 -6.1218850916E+000 
112031354.071 +9.4397903484E-003 -5.6059125438E+000  +9.9058579840E-001 -1.4181341169E-001  +9.9089760407E-001 -1.4349547184E-001  +9.2459989858E-003 -7.3504845562E+000 
116032152.430 +9.4814057093E-003 -6.3935165405E+000  +9.9036289776E-001 -1.4641879485E-001  +9.9070746435E-001 -1.6038727911E-001  +9.2118832801E-003 -7.3541770068E+000 
120032950.790 +9.4411265848E-003 -6.7731920391E+000  +9.9050652424E-001 -1.4994441920E-001  +9.9067943681E-001 -1.4455434865E-001  +9.2513915494E-003 -7.3251330913E+000 
124033749.150 +9.3824507119E-003 -7.6885105005E+000  +9.9060034874E-001 -1.5903337374E-001  +9.9081964428E-001 -1.6290334348E-001  +9.3385225223E-003 -7.2245336394E+000 
128034547.510 +9.4404435271E-003 -7.7393174442E+000  +9.9048873554E-001 -1.6685131146E-001  +9.9088146370E-001 -1.7924096773E-001  +9.5140009824E-003 -7.6203036413E+000 
132035345.869 +9.2712095917E-003 -7.8407048845E+000  +9.9062524595E-001 -1.7296043216E-001  +9.9057897431E-001 -1.8583664554E-001  +9.5066775747E-003 -7.7637645163E+000 
136036144.229 +9.2915748064E-003 -8.7463807943E+000  +9.9045187356E-001 -1.8220212873E-001  +9.9083561795E-001 -1.9184263901E-001  +9.5441753181E-003 -8.8793832999E+000 
140036942.589 +9.2374865517E-003 -9.1543797461E+000  +9.9058110010E-001 -1.9584027941E-001  +9.9055274733E-001 -1.9209480338E-001  +9.5325849770E-003 -9.0504841917E+000 
144037740.948 +9.1408226480E-003 -9.9563860474E+000  +9.9077811901E-001 -2.0220050965E-001  +9.9070579690E-001 -2.0185245747E-001  +9.4558705698E-003 -9.1021417349E+000 
148038539.308 +9.1804776751E-003 -9.7601620823E+000  +9.9041408612E-001 -2.0947547206E-001  +9.9061986942E-001 -2.0989736357E-001  +9.4869928954E-003 -1.0326977067E+001 
152039337.668 +9.0958415404E-003 -1.1187349350E+001  +9.9051041838E-001 -2.2857508554E-001  +9.9037128646E-001 -2.2223986683E-001  +9.5306919555E-003 -1.0957792731E+001 
156040136.027 +9.1226420190E-003 -1.2203564109E+001  +9.9058142482E-001 -2.2795278634E-001  +9.9045013573E-001 -2.2211657784E-001  +9.4828795846E-003 -1.1368449844E+001 
160040934.387 +9.1134076893E-003 -1.2028087352E+001  +9.9027924180E-001 -2.3415317644E-001  +9.9039706175E-001 -2.3556151137E-001  +9.2944177966E-003 -1.1781056355E+001 
164041732.747 +9.2766432235E-003 -1.2348810419E+001  +9.9050563959E-001 -2.3270844549E-001  +9.9025728913E-001 -2.2353113133E-001  +9.3502769170E-003 -1.2192837825E+001 
168042531.106 +9.1811292803E-003 -1.2105933105E+001  +9.9015182851E-001 -2.3781894568E-001  +9.9021704822E-001 -2.2518238502E-001  +9.4488168654E-003 -1.2153031941E+001 
172043329.466 +9.2587221789E-003 -1.2174607145E+001  +9.9034385293E-001 -2.4405728814E-001  +9.9024651625E-001 -2.3157434459E-001  +9.3664191533E-003 -1.2156033648E+001 
176044127.826 +9.4001338182E-003 -1.2358155918E+001  +9.9019419669E-001 -2.3177109891E-001  +9.9032194758E-001 -2.2422002988E-001  +9.4894950220E-003 -1.2291759274E+001 
180044926.185 +9.4499336286E-003 -1.2516908956E+001  +9.9038915647E-001 -2.4732240855E-001  +9.9048375180E-001 -2.3922759904E-001  +9.3575038810E-003 -1.2561958337E+001 
184045724.545 +9.4957161043E-003 -1.2103768037E+001  +9.9028040675E-001 -2.3961210315E-001  +9.9045721917E-001 -2.3745396316E-001  +9.4094627051E-003 -1.2464192723E+001 
188046522.905 +9.5904371861E-003 -1.2341115376E+001  +9.9025980988E-001 -2.5974897947E-001  +9.9051346480E-001 -2.4933378073E-001  +9.3745128482E-003 -1.2860998232E+001 
192047321.264 +9.5938039301E-003 -1.1691168357E+001  +9.9051974955E-001 -2.5047170098E-001  +9.9060967603E-001 -2.5953571554E-001  +9.3544112168E-003 -1.2077050178E+001 
196048119.624 +9.5958615922E-003 -1.2330438954E+001  +9.9021282166E-001 -2.5720826882E-001  +9.9060329907E-001 -2.5648374141E-001  +9.4249206343E-003 -1.2759781766E+001 
200048917.984 +9.6790283598E-003 -1.1626939061E+001  +9.9031071684E-001 -2.6803627415E-001  +9.9077894183E-001 -2.5936814869E-001  +9.5074451354E-003 -1.2314068193E+001 
204049716.343 +9.8476135730E-003 -1.2182856256E+001  +9.9027851590E-001 -2.6414800701E-001  +9.9062042898E-001 -2.6436366010E-001  +9.5298773003E-003 -1.2613571819E+001 
208050514.703 +9.5515171398E-003 -1.1617157232E+001  +9.9037139899E-001 -2.7028713109E-001  +9.9076055830E-001 -2.8378706708E-001  +9.5954430577E-003 -1.2724771621E+001 
212051313.063 +9.6594129117E-003 -1.2822815356E+001  +9.9038770957E-001 -2.7438095935E-001  +9.9070832590E-001 -2.8841002975E-001  +9.7080541157E-003 -1.2669241036E+001 
216052111.422 +9.5896705964E-003 -1.3167010377E+001  +9.9056350134E-001 -2.7956065469E-001  +9.9048797025E-001 -2.9052054283E-001  +9.7286996337E-003 -1.2977195392E+001 
220052909.782 +9.5272186089E-003 -1.2805753112E+001  +9.9065285493E-001 -2.9742115521E-001  +9.9077370014E-001 -2.8894627998E-001  +9.6003047624E-003 -1.2725427791E+001 
224053708.142 +9.4804486123E-003 -1.3452088119E+001  +9.9071347723E-001 -2.9746074935E-001  +9.9063843532E-001 -2.9681103685E-001  +9.7064966098E-003 -1.3838573748E+001 
228054506.501 +9.4551694622E-003 -1.3732485651E+001  +9.9083149591E-001 -3.1424715598E-001  +9.9095866059E-001 -3.1577489880E-001  +9.6132781321E-003 -1.3957235873E+001 
232055304.861 +9.4425435518E-003 -1.4763899850E+001  +9.9055279191E-001 -3.2182057103E-001  +9.9082325259E-001 -3.1656514257E-001  +9.6592932545E-003 -1.4657505970E+001 
236056103.221 +9.3685442250E-003 -1.5238247026E+001  +9.9072258295E-001 -3.2583130585E-001  +9.9067942558E-001 -3.2640740706E-001  +9.6101151662E-003 -1.5140788801E+001 
240056901.580 +9.4283618739E-003 -1.6584516819E+001  +9.9064961817E-001 -3.5254498931E-001  +9.9044389667E-001 -3.4324970655E-001  +9.6468997754E-003 -1.5925773976E+001 
244057699.940 +9.3155137113E-003 -1.6558265001E+001  +9.9058113709E-001 -3.5594631802E-001  +9.9069391322E-001 -3.4583296602E-001  +9.5812575315E-003 -1.6900610373E+001 
248058498.300 +9.3288627265E-003 -1.7358062352E+001  +9.9055099015E-001 -3.5216808770E-001  +9.9066416202E-001 -3.4632770342E-001  +9.5803159873E-003 -1.7216719010E+001 
252059296.659 +9.3830888752E-003 -1.8062331143E+001  +9.9037156415E-001 -3.5092496204E-001  +9.9048031304E-001 -3.5062610940E-001  +9.4845195968E-003 -1.7524759325E+001 
256060095.019 +9.2998564750E-003 -1.8049744103E+001  +9.9029398440E-001 -3.7194601985E-001  +9.9061940404E-001 -3.5705472923E-001  +9.5097359039E-003 -1.7458693656E+001 
260060893.379 +9.2447714574E-003 -1.8522482310E+001  +9.9023744598E-001 -3.6630513201E-001  +9.9041626778E-001 -3.5926412765E-001  +9.4265259995E-003 -1.7886909175E+001 
264061691.738 +9.4861087558E-003 -1.8331365665E+001  +9.9013290313E-001 -3.5651618678E-001  +9.9035250815E-001 -3.5888551551E-001  +9.5271123701E-003 -1.8323297865E+001 
268062490.098 +9.5329664753E-003 -1.8672030573E+001  +9.9011434182E-001 -3.7678211518E-001  +9.9060790386E-001 -3.6203367674E-001  +9.4552617828E-003 -1.8952130783E+001 
272063288.458 +9.6869793654E-003 -1.8349624416E+001  +9.9024482994E-001 -3.6731775126E-001  +9.9035957036E-001 -3.6079725269E-001  +9.4923708350E-003 -1.9232600578E+001 
276064086.817 +9.6762584317E-003 -1.8011599743E+001  +9.9027585066E-001 -3.7182522897E-001  +9.9046845658E-001 -3.6610849721E-001  +9.4431173102E-003 -1.9013208078E+001 
280064885.177 +9.7537270280E-003 -1.7898123558E+001  +9.9026226913E-001 -3.6330157524E-001  +9.9046434940E-001 -3.7731961235E-001  +9.5850983130E-003 -1.8176176590E+001 
284065683.537 +9.8620547468E-003 -1.8583888668E+001  +9.9012053775E-001 -3.8402834898E-001  +9.9071602293E-001 -3.7220209325E-001  +9.5417751799E-003 -1.8611347450E+001 
288066481.896 +9.9593435618E-003 -1.8042598101E+001  +9.9019694473E-001 -3.6442059220E-001  +9.9057241065E-001 -3.6504094732E-001  +9.7819372463E-003 -1.9269328540E+001 
292067280.256 +9.9751858644E-003 -1.7646435105E+001  +9.9024405608E-001 -3.8671880813E-001  +9.9055201048E-001 -3.8389899348E-001  +9.7555208093E-003 -1.8129527126E+001 
296068078.616 +1.0036484861E-002 -1.7427965795E+001  +9.9024686854E-001 -3.8167037920E-001  +9.9055835930E-001 -3.8621426528E-001  +9.9139610776E-003 -1.7856122772E+001 
300068876.975 +1.0047654629E-002 -1.8226084538E+001  +9.9047355992E-001 -3.9196932187E-001  +9.9054366239E-001 -3.9100895724E-001  +9.8207089917E-003 -1.8141491539E+001 
304069675.335 +1.0012386424E-002 -1.7852134947E+001  +9.9031647442E-001 -3.9075983795E-001  +9.9053449123E-001 -3.9609723600E-001  +1.0037814775E-002 -1.8156927908E+001 
308070473.695 +1.0053232282E-002 -1.7702107613E+001  +9.9042294514E-001 -4.0915536347E-001  +9.9066948796E-001 -4.0682999875E-001  +1.0036340682E-002 -1.8768442839E+001 
312071272.054 +9.8875011882E-003 -1.8290284671E+001  +9.9052170628E-001 -4.1294945231E-001  +9.9071108675E-001 -4.2760904780E-001  +9.9274742947E-003 -1.8658243302E+001 
316072070.414 +9.8813014001E-003 -1.9411732825E+001  +9.9073998925E-001 -4.3760267811E-001  +9.9070676406E-001 -4.2644316602E-001  +9.9712900296E-003 -1.9178536261E+001 
320072868.774 +9.8237929550E-003 -2.0716051969E+001  +9.9060009602E-001 -4.3171736790E-001  +9.9073571218E-001 -4.3951427723E-001  +9.8968949623E-003 -2.0258056716E+001 
324073667.133 +9.7686669815E-003 -2.0298515275E+001  +9.9066351938E-001 -4.5490257576E-001  +9.9074676886E-001 -4.5691709861E-001  +9.8875098294E-003 -1.9251710464E+001 
328074465.493 +9.7060100158E-003 -2.0465834220E+001  +9.9083052876E-001 -4.5135679477E-001  +9.9059332391E-001 -4.5505558666E-001  +1.0033178269E-002 -2.0498829058E+001 
332075263.853 +9.7668380964E-003 -2.1562809203E+001  +9.9069140325E-001 -4.7102839379E-001  +9.9068727589E-001 -4.5730833670E-001  +9.9332889244E-003 -2.0647025230E+001 
336076062.212 +9.6340349524E-003 -2.2340160709E+001  +9.9071776296E-001 -4.6818010227E-001  +9.9063203506E-001 -4.6976897956E-001  +9.8388617268E-003 -2.1055208096E+001 
340076860.572 +9.6657564392E-003 -2.3138190018E+001  +9.9051705416E-001 -4.8181189087E-001  +9.9059800202E-001 -4.7563573961E-001  +9.9292696626E-003 -2.2111241378E+001 
344077658.932 +9.7422546687E-003 -2.3332493688E+001  +9.9059905208E-001 -4.9181322639E-001  +9.9044907300E-001 -4.7914161385E-001  +9.9008078139E-003 -2.3085955070E+001 
348078457.291 +9.6687159933E-003 -2.3322636993E+001  +9.9054566955E-001 -4.8673524041E-001  +9.9048112547E-001 -4.7985536775E-001  +9.7875518744E-003 -2.3203189984E+001 
352079255.651 +9.7365279388E-003 -2.3669963591E+001  +9.9037680743E-001 -4.9481335814E-001  +9.9043387808E-001 -4.8491263343E-001  +9.8362869271E-003 -2.3385068718E+001 
356080054.011 +9.6481775438E-003 -2.3795758271E+001  +9.9006605785E-001 -4.9906148787E-001  +9.9027013953E-001 -4.8938310385E-001  +9.9191539868E-003 -2.3958446996E+001 
360080852.370 +9.7404014878E-003 -2.4031744974E+001  +9.8995799650E-001 -5.0500661739E-001  +9.9028444606E-001 -4.9180566112E-001  +9.8895433499E-003 -2.4308848719E+001 
364081650.730 +9.8733659557E-003 -2.3841743557E+001  +9.9011868144E-001 -4.8656745124E-001  +9.9036605539E-001 -4.8334749095E-001  +9.8241180427E-003 -2.3381250990E+001 
368082449.090 +1.0114775710E-002 -2.4368419017E+001  +9.9001272220E-001 -4.8590199748E-001  +9.9030699888E-001 -4.8303317579E-001  +9.9767984832E-003 -2.3416044439E+001 
372083247.449 +1.0194890504E-002 -2.4722906968E+001  +9.8993163571E-001 -4.9860831292E-001  +9.9030794537E-001 -4.9029210597E-001  +9.9443496151E-003 -2.4093595739E+001 
376084045.809 +1.0219836000E-002 -2.3210399469E+001  +9.9002551570E-001 -5.0372922863E-001  +9.9042162111E-001 -4.9434226514E-001  +9.9221884112E-003 -2.3586713635E+001 
380084844.169 +1.0365878374E-002 -2.2787727465E+001  +9.9004496910E-001 -4.9596406152E-001  +9.9037347994E-001 -4.9886001647E-001  +1.0142153934E-002 -2.3147513814E+001 
384085642.529 +1.0354156139E-002 -2.3636174596E+001  +9.9010854971E-001 -5.0098549924E-001  +9.9025021796E-001 -4.9251587892E-001  +1.0231564282E-002 -2.3008943437E+001 
388086440.888 +1.0404106451E-002 -2.3335441984E+001  +9.9003925141E-001 -5.0897445375E-001  +9.9048373046E-001 -5.0851890598E-001  +1.0339274984E-002 -2.3987772093E+001 
392087239.248 +1.0444043862E-002 -2.2842560810E+001  +9.9015269422E-001 -5.1675012646E-001  +9.9048950826E-001 -5.1236263968E-001  +1.0311339595E-002 -2.3146831810E+001 
396088037.608 +1.0352987510E-002 -2.3024681222E+001  +9.9031431221E-001 -5.2070759374E-001  +9.9042276306E-001 -5.2914881843E-001  +1.0221881451E-002 -2.3297950459E+001 
400088835.967 +1.0423196495E-002 -2.2723218868E+001  +9.9051893091E-001 -5.3188940494E-001  +9.9067462347E-001 -5.3852305471E-001  +1.0333127464E-002 -2.3942234612E+001 
404089634.327 +1.0382592270E-002 -2.3463455321E+001  +9.9050239977E-001 -5.3102163101E-001  +9.9059126504E-001 -5.4346667159E-001  +1.0307776893E-002 -2.3368322203E+001 
408090432.687 +1.0233851977E-002 -2.3583577804E+001  +9.9061093019E-001 -5.4633464446E-001  +9.9075830722E-001 -5.5617415566E-001  +1.0306244268E-002 -2.4093635537E+001 
412091231.046 +1.0150626458E-002 -2.4112080842E+001  +9.9060140768E-001 -5.4206825599E-001  +9.9095360051E-001 -5.5308510279E-001  +1.0220534958E-002 -2.4392669542E+001 
416092029.406 +1.0280211431E-002 -2.4050020161E+001  +9.9054989553E-001 -5.6832931707E-001  +9.9093534769E-001 -5.5904480579E-001  +1.0347052726E-002 -2.5164970664E+001 
420092827.766 +1.0237486155E-002 -2.5603223628E+001  +9.9069824530E-001 -5.6406432654E-001  +9.9088259875E-001 -5.7508528848E-001  +1.0221196232E-002 -2.5034908939E+001 
424093626.125 +1.0214022617E-002 -2.5609727453E+001  +9.9067966141E-001 -5.8070686962E-001  +9.9074576643E-001 -5.8104731090E-001  +1.0388105278E-002 -2.5731762626E+001 
428094424.485 +1.0144686407E-002 -2.6607929540E+001  +9.9055424419E-001 -5.9114352883E-001  +9.9056461520E-001 -5.9844583476E-001  +1.0307533144E-002 -2.7014900414E+001 
432095222.845 +1.0067416926E-002 -2.6780197711E+001  +9.9067797708E-001 -6.0494317946E-001  +9.9068528970E-001 -5.9661842902E-001  +1.0249595301E-002 -2.7153835996E+001 
436096021.204 +1.0149021935E-002 -2.8141532282E+001  +9.9029951569E-001 -6.1492914695E-001  +9.9064515481E-001 -6.0669216296E-001  +1.0298557735E-002 -2.8443577848E+001 
440096819.564 +1.0098937910E-002 -2.8339328927E+001  +9.9040318530E-001 -6.2486898192E-001  +9.9045290103E-001 -6.2044027705E-001  +1.0238128521E-002 -2.8987492960E+001 
444097617.924 +1.0178417240E-002 -2.8567819791E+001  +9.9018831709E-001 -6.2052889427E-001  +9.9041483824E-001 -6.2217320988E-001  +1.0313213937E-002 -2.8658351979E+001 
448098416.283 +1.0252073026E-002 -2.9028763013E+001  +9.8998186002E-001 -6.3545648697E-001  +9.9037608668E-001 -6.2150441010E-001  +1.0258977787E-002 -2.9603861912E+001 
452099214.643 +1.0220699113E-002 -2.9387330697E+001  +9.9000600188E-001 -6.2225852861E-001  +9.9029410242E-001 -6.2201713796E-001  +1.0350719884E-002 -2.8680307748E+001 
456100013.003 +1.0288005904E-002 -2.8654533130E+001  +9.8976169395E-001 -6.3435216745E-001  +9.9010106149E-001 -6.3100780253E-001  +1.0359222539E-002 -2.9186336394E+001 
