!  2-Port S-parameters saved by WinCal
! VAR MeasName=S-Parameters (CALIBRATED_DATA) read from VNA (P5004A)
! VAR MeasDate=24/04/2024 15:24:18
! VAR NAME=Wafer2_r1_c3_pristine 4
! VAR FILENAME=Wafer2_r1_c3_pristine 4.S2P
! VAR DATE=24/04/2024 15:24:18
! VAR PHYS_PORTS=1,2
! VAR ObjTypeName=DATASET
! VAR IndexType=Frequency
!
# Hz S MA R 50
9000.000 +7.9974059725E-001 +1.7310728694E+001  +1.2383601500E-005 -1.2646663653E+002  +1.5497573649E-005 -9.9650400763E+001  +7.9897682692E-001 +1.7291174026E+001 
4009798.360 +9.8729768671E-001 -3.1403412029E+000  +1.8808259232E-003 +8.5866481819E+001  +1.9095893905E-003 +8.6509017529E+001  +9.8706735821E-001 -3.0575600514E+000 
8010596.719 +9.7591740471E-001 -6.3359456902E-001  +3.7110035267E-003 +8.8550136453E+001  +3.7521342326E-003 +8.8342619550E+001  +9.7646647548E-001 -6.1214071452E-001 
12011395.079 +9.8348285982E-001 -1.2157913975E-002  +5.6007802346E-003 +8.9168688237E+001  +5.6363171730E-003 +8.8761649519E+001  +9.8375030093E-001 -1.0716971494E-002 
16012193.439 +9.8957452759E-001 +1.6943933591E-001  +7.4805153030E-003 +8.9268476768E+001  +7.5275738235E-003 +8.8787311477E+001  +9.8969771645E-001 +1.6561216882E-001 
20012991.798 +9.9469847649E-001 +1.9148215690E-001  +9.3772423260E-003 +8.9356372308E+001  +9.4092695553E-003 +8.8707569986E+001  +9.9473753745E-001 +1.8662355427E-001 
24013790.158 +9.9955540507E-001 +1.2186899049E-001  +1.1314034569E-002 +8.9329788435E+001  +1.1292475625E-002 +8.8653457264E+001  +9.9956722707E-001 +1.1751824197E-001 
28014588.518 +1.0035413396E+000 -3.8592214931E-002  +1.3249063753E-002 +8.9155330251E+001  +1.3191775410E-002 +8.8570230082E+001  +1.0036133080E+000 -2.2068854908E-002 
32015386.877 +1.0079473129E+000 -2.4115355202E-001  +1.5204029855E-002 +8.8925111307E+001  +1.5289028803E-002 +8.8181303679E+001  +1.0077869322E+000 -2.2385177345E-001 
36016185.237 +1.0110313651E+000 -5.1213182439E-001  +1.7156422519E-002 +8.8576846582E+001  +1.7105809276E-002 +8.8188147697E+001  +1.0110394641E+000 -4.9517555027E-001 
40016983.597 +1.0128555427E+000 -8.2609446322E-001  +1.9206956495E-002 +8.8217407430E+001  +1.8994465081E-002 +8.7851339231E+001  +1.0130154427E+000 -8.2758915447E-001 
44017781.956 +1.0139938388E+000 -1.2007467936E+000  +2.1210735206E-002 +8.7726609359E+001  +2.0875467202E-002 +8.7145587077E+001  +1.0139508338E+000 -1.1781372760E+000 
48018580.316 +1.0143886887E+000 -1.5686858758E+000  +2.3067111525E-002 +8.7042084371E+001  +2.2878294118E-002 +8.7148733130E+001  +1.0147562714E+000 -1.5357250980E+000 
52019378.676 +1.0129464814E+000 -1.9430996370E+000  +2.4865318380E-002 +8.6760174430E+001  +2.4735994062E-002 +8.6815263670E+001  +1.0128926423E+000 -1.9135660243E+000 
56020177.035 +1.0100673310E+000 -2.2896910626E+000  +2.6701511494E-002 +8.6149180497E+001  +2.6553689056E-002 +8.6322331501E+001  +1.0103583531E+000 -2.2475639582E+000 
60020975.395 +1.0065495923E+000 -2.6032764358E+000  +2.8482503963E-002 +8.5755095318E+001  +2.8301669255E-002 +8.6157127535E+001  +1.0065283128E+000 -2.5633304555E+000 
64021773.755 +1.0015769488E+000 -2.8126424593E+000  +3.0156985897E-002 +8.5536143095E+001  +2.9807592303E-002 +8.6152030280E+001  +1.0017569541E+000 -2.7706693785E+000 
68022572.114 +9.9644521418E-001 -2.9409222358E+000  +3.1761098753E-002 +8.5258027220E+001  +3.1665526723E-002 +8.6017318045E+001  +9.9668402200E-001 -2.9027582258E+000 
72023370.474 +9.9193262731E-001 -2.9822413353E+000  +3.3388144833E-002 +8.5293586921E+001  +3.3346774457E-002 +8.5926685381E+001  +9.9192336130E-001 -2.9518275891E+000 
76024168.834 +9.8738367354E-001 -2.9422567490E+000  +3.5082597967E-002 +8.5348583172E+001  +3.5101389477E-002 +8.5996439975E+001  +9.8771183472E-001 -2.9032235484E+000 
80024967.193 +9.8422078800E-001 -2.8401372006E+000  +3.6745462311E-002 +8.5479378543E+001  +3.6803204990E-002 +8.6039631914E+001  +9.8446750631E-001 -2.8153972187E+000 
84025765.553 +9.8229022428E-001 -2.7333968523E+000  +3.8538664705E-002 +8.5649999228E+001  +3.8621802793E-002 +8.6088228236E+001  +9.8230196655E-001 -2.7222037124E+000 
88026563.913 +9.8131885649E-001 -2.5487930337E+000  +4.0166832822E-002 +8.5830056196E+001  +4.0520388308E-002 +8.6196485035E+001  +9.8151396143E-001 -2.5548947940E+000 
92027362.272 +9.8188811153E-001 -2.4155651290E+000  +4.1947414190E-002 +8.5947240803E+001  +4.2394731899E-002 +8.6359981432E+001  +9.8178945338E-001 -2.4229207992E+000 
96028160.632 +9.8261225919E-001 -2.2893508238E+000  +4.3839166154E-002 +8.6176909204E+001  +4.4243854400E-002 +8.6269043589E+001  +9.8269204869E-001 -2.2903578026E+000 
100028958.992 +9.8544919582E-001 -2.1930144191E+000  +4.5722803957E-002 +8.6328260907E+001  +4.6167344453E-002 +8.6250502012E+001  +9.8518604282E-001 -2.2004534839E+000 
104029757.351 +9.8862664414E-001 -2.1397100491E+000  +4.7704553219E-002 +8.6381408266E+001  +4.8128373708E-002 +8.6158978833E+001  +9.8835482823E-001 -2.1224141344E+000 
108030555.711 +9.9236325052E-001 -2.1169275431E+000  +4.9660355640E-002 +8.6490090216E+001  +5.0110075795E-002 +8.6108429890E+001  +9.9219137156E-001 -2.1243983618E+000 
112031354.071 +9.9685617513E-001 -2.1828913454E+000  +5.1738483580E-002 +8.6508275282E+001  +5.2065396549E-002 +8.6039858743E+001  +9.9649121443E-001 -2.1735515990E+000 
116032152.430 +1.0015484113E+000 -2.2910864646E+000  +5.3855492147E-002 +8.6358732396E+001  +5.4099925620E-002 +8.5864648882E+001  +1.0008164795E+000 -2.2892110571E+000 
120032950.790 +1.0062393872E+000 -2.4887488802E+000  +5.6004269072E-002 +8.6235543555E+001  +5.6064751975E-002 +8.5726680041E+001  +1.0054949157E+000 -2.4670368029E+000 
124033749.150 +1.0103738341E+000 -2.7641068879E+000  +5.8216087898E-002 +8.6007529654E+001  +5.8091410825E-002 +8.5351560728E+001  +1.0099698290E+000 -2.7424118013E+000 
128034547.510 +1.0141476135E+000 -3.1073166168E+000  +6.0357942818E-002 +8.5668569488E+001  +6.0141091747E-002 +8.5078365196E+001  +1.0133868862E+000 -3.0591904445E+000 
132035345.869 +1.0162553102E+000 -3.5138050451E+000  +6.2476393457E-002 +8.5220074751E+001  +6.2168430198E-002 +8.4777437841E+001  +1.0157275901E+000 -3.4634672681E+000 
136036144.229 +1.0170439393E+000 -3.9708595655E+000  +6.4478018459E-002 +8.4739764681E+001  +6.4023175322E-002 +8.4277793656E+001  +1.0168029963E+000 -3.9035205003E+000 
140036942.589 +1.0158485846E+000 -4.4276449291E+000  +6.6309276357E-002 +8.4186552159E+001  +6.5671837236E-002 +8.3908778977E+001  +1.0157981204E+000 -4.3504969119E+000 
144037740.948 +1.0131174061E+000 -4.8683862916E+000  +6.8027120645E-002 +8.3647469486E+001  +6.7388770657E-002 +8.3487722030E+001  +1.0130223571E+000 -4.7739277893E+000 
148038539.308 +1.0085442141E+000 -5.2395216495E+000  +6.9447546206E-002 +8.3130131218E+001  +6.8799562359E-002 +8.3165938835E+001  +1.0087273267E+000 -5.1512599057E+000 
152039337.668 +1.0028500520E+000 -5.5683211918E+000  +7.0957207868E-002 +8.2684098967E+001  +7.0245531762E-002 +8.2852921632E+001  +1.0030013880E+000 -5.4724399952E+000 
156040136.027 +9.9616679591E-001 -5.7517047625E+000  +7.2253335075E-002 +8.2494321878E+001  +7.1588057269E-002 +8.2770495089E+001  +9.9661468286E-001 -5.6665687632E+000 
160040934.387 +9.8975745261E-001 -5.8320689564E+000  +7.3469535305E-002 +8.2308321443E+001  +7.2940116512E-002 +8.2720826790E+001  +9.9015296827E-001 -5.7386695010E+000 
164041732.747 +9.8374327084E-001 -5.8033359990E+000  +7.4781846265E-002 +8.2285254499E+001  +7.4335539710E-002 +8.2787755324E+001  +9.8451361963E-001 -5.7304626121E+000 
168042531.106 +9.7895696283E-001 -5.7102907968E+000  +7.6197571626E-002 +8.2486406832E+001  +7.5890012397E-002 +8.3012346425E+001  +9.7957535264E-001 -5.6293178411E+000 
172043329.466 +9.7530325632E-001 -5.5384806449E+000  +7.7535998592E-002 +8.2603642599E+001  +7.7498757333E-002 +8.3177177204E+001  +9.7598931360E-001 -5.4866627314E+000 
176044127.826 +9.7297002998E-001 -5.3243201595E+000  +7.9122473485E-002 +8.2859104194E+001  +7.9288368517E-002 +8.3354099199E+001  +9.7380770883E-001 -5.2943523245E+000 
180044926.185 +9.7225706865E-001 -5.1235996419E+000  +8.0724211541E-002 +8.3005267601E+001  +8.1181640766E-002 +8.3519202356E+001  +9.7311177819E-001 -5.0788550373E+000 
184045724.545 +9.7282733288E-001 -4.9104956209E+000  +8.2499825576E-002 +8.3260106727E+001  +8.3099761191E-002 +8.3701924524E+001  +9.7373361603E-001 -4.8884070174E+000 
188046522.905 +9.7469561905E-001 -4.7278065717E+000  +8.4407044010E-002 +8.3442853363E+001  +8.5070020759E-002 +8.3760576225E+001  +9.7517178927E-001 -4.7107218693E+000 
192047321.264 +9.7780104914E-001 -4.5786381411E+000  +8.6358391596E-002 +8.3593655352E+001  +8.7156105028E-002 +8.3757334546E+001  +9.7818109157E-001 -4.5641259556E+000 
196048119.624 +9.8157201730E-001 -4.4778740157E+000  +8.8356424291E-002 +8.3730386392E+001  +8.9296058073E-002 +8.3760170845E+001  +9.8163587063E-001 -4.4772506300E+000 
200048917.984 +9.8662887976E-001 -4.4507972308E+000  +9.0554828071E-002 +8.3810671468E+001  +9.1420639158E-002 +8.3673003937E+001  +9.8635767629E-001 -4.4376913294E+000 
204049716.343 +9.9188727052E-001 -4.4655963314E+000  +9.2832535496E-002 +8.3856144302E+001  +9.3612404104E-002 +8.3572300076E+001  +9.9124166840E-001 -4.4694653707E+000 
208050514.703 +9.9759802116E-001 -4.5962779021E+000  +9.5236694727E-002 +8.3852358825E+001  +9.5866113138E-002 +8.3404002381E+001  +9.9658797426E-001 -4.5769392183E+000 
212051313.063 +1.0030536148E+000 -4.7903644659E+000  +9.7661325808E-002 +8.3736986541E+001  +9.8057271826E-002 +8.3191801303E+001  +1.0021443438E+000 -4.7695179301E+000 
216052111.422 +1.0080642268E+000 -5.1031145297E+000  +1.0005542737E-001 +8.3438733191E+001  +1.0028823450E-001 +8.2878496738E+001  +1.0071150877E+000 -5.0417193686E+000 
220052909.782 +1.0126095522E+000 -5.4638587054E+000  +1.0256036373E-001 +8.3090417251E+001  +1.0245365842E-001 +8.2579562913E+001  +1.0113559247E+000 -5.4078661769E+000 
224053708.142 +1.0157690573E+000 -5.9223777023E+000  +1.0484684745E-001 +8.2606049750E+001  +1.0465374210E-001 +8.2123309372E+001  +1.0145699511E+000 -5.8408392796E+000 
228054506.501 +1.0171750201E+000 -6.4293986834E+000  +1.0712747900E-001 +8.2100752710E+001  +1.0652785247E-001 +8.1647426664E+001  +1.0163309565E+000 -6.3253955366E+000 
232055304.861 +1.0162704843E+000 -6.9573489862E+000  +1.0904422789E-001 +8.1498084365E+001  +1.0825546073E-001 +8.1107746309E+001  +1.0155756452E+000 -6.8437258788E+000 
236056103.221 +1.0133803906E+000 -7.4806056607E+000  +1.1061153442E-001 +8.0876120946E+001  +1.0956897034E-001 +8.0605651680E+001  +1.0129564830E+000 -7.3416209206E+000 
240056901.580 +1.0083574797E+000 -7.9534576188E+000  +1.1197946937E-001 +8.0253627743E+001  +1.1094576409E-001 +8.0137668155E+001  +1.0082758249E+000 -7.8149401557E+000 
244057699.940 +1.0017162352E+000 -8.3312565722E+000  +1.1306944672E-001 +7.9806632888E+001  +1.1193290144E-001 +7.9806735856E+001  +1.0020396862E+000 -8.1893361759E+000 
248058498.300 +9.9418589595E-001 -8.5922930399E+000  +1.1388601141E-001 +7.9489674775E+001  +1.1289721414E-001 +7.9661926916E+001  +9.9460567550E-001 -8.4293939977E+000 
252059296.659 +9.8598082645E-001 -8.7146661509E+000  +1.1459692266E-001 +7.9313187993E+001  +1.1352291534E-001 +7.9523769735E+001  +9.8674633717E-001 -8.5608416759E+000 
256060095.019 +9.7859273050E-001 -8.7208672651E+000  +1.1539129999E-001 +7.9232329981E+001  +1.1461731109E-001 +7.9637473887E+001  +9.7922783719E-001 -8.5809409905E+000 
260060893.379 +9.7170129718E-001 -8.6138580883E+000  +1.1626828620E-001 +7.9349843246E+001  +1.1555554671E-001 +7.9841721604E+001  +9.7293686617E-001 -8.4759577955E+000 
264061691.738 +9.6672554322E-001 -8.4086193964E+000  +1.1733211049E-001 +7.9554087357E+001  +1.1700431514E-001 +8.0143397128E+001  +9.6792691650E-001 -8.3010018671E+000 
268062490.098 +9.6316133465E-001 -8.1484084127E+000  +1.1855642612E-001 +7.9806086431E+001  +1.1847827844E-001 +8.0397409087E+001  +9.6458960165E-001 -8.0567839921E+000 
272063288.458 +9.6143477410E-001 -7.8669969979E+000  +1.2009087590E-001 +8.0073141471E+001  +1.2026426092E-001 +8.0693365795E+001  +9.6253075791E-001 -7.7875756660E+000 
276064086.817 +9.6152048682E-001 -7.5662809947E+000  +1.2174541999E-001 +8.0385557906E+001  +1.2226684331E-001 +8.0846759468E+001  +9.6246114697E-001 -7.5219372838E+000 
280064885.177 +9.6288580793E-001 -7.2849564947E+000  +1.2351850657E-001 +8.0631441560E+001  +1.2430665820E-001 +8.1048699103E+001  +9.6399416409E-001 -7.2620962441E+000 
284065683.537 +9.6585080609E-001 -7.0777984594E+000  +1.2555317272E-001 +8.0811621728E+001  +1.2665314297E-001 +8.1165034172E+001  +9.6642329081E-001 -7.0546601255E+000 
288066481.896 +9.7007533014E-001 -6.8924621436E+000  +1.2775407528E-001 +8.1034082169E+001  +1.2884062715E-001 +8.1191747414E+001  +9.7027191882E-001 -6.8627572641E+000 
292067280.256 +9.7521820493E-001 -6.7810455324E+000  +1.3009688781E-001 +8.1144774254E+001  +1.3125780718E-001 +8.1145519921E+001  +9.7511037896E-001 -6.7767324636E+000 
296068078.616 +9.8143724823E-001 -6.7542442743E+000  +1.3249875963E-001 +8.1217079888E+001  +1.3371329085E-001 +8.1139470092E+001  +9.8083367449E-001 -6.7515198620E+000 
300068876.975 +9.8778516547E-001 -6.8135781763E+000  +1.3515070689E-001 +8.1234212585E+001  +1.3612606254E-001 +8.1004445743E+001  +9.8695348978E-001 -6.7995741526E+000 
304069675.335 +9.9426387924E-001 -6.9733539847E+000  +1.3786314163E-001 +8.1174223005E+001  +1.3878363064E-001 +8.0823232538E+001  +9.9355020501E-001 -6.9552423338E+000 
308070473.695 +1.0007055038E+000 -7.2374706383E+000  +1.4067246975E-001 +8.0995926223E+001  +1.4128492618E-001 +8.0556984750E+001  +9.9977435879E-001 -7.1987423853E+000 
312071272.054 +1.0064373122E+000 -7.6067620060E+000  +1.4335864187E-001 +8.0683679770E+001  +1.4384090230E-001 +8.0170611670E+001  +1.0051685691E+000 -7.5487245241E+000 
316072070.414 +1.0110939755E+000 -8.0650685490E+000  +1.4610442976E-001 +8.0228805845E+001  +1.4621686735E-001 +7.9738061065E+001  +1.0094030119E+000 -7.9904983341E+000 
320072868.774 +1.0134869485E+000 -8.6062327636E+000  +1.4855492551E-001 +7.9721282284E+001  +1.4831255134E-001 +7.9205460342E+001  +1.0125524382E+000 -8.5046657657E+000 
324073667.133 +1.0146440044E+000 -9.1915655068E+000  +1.5085138249E-001 +7.9059561150E+001  +1.5021636961E-001 +7.8657463293E+001  +1.0132026602E+000 -9.0614026557E+000 
328074465.493 +1.0129185719E+000 -9.7845410045E+000  +1.5262345877E-001 +7.8450609391E+001  +1.5188072106E-001 +7.8090991738E+001  +1.0120047356E+000 -9.6327669432E+000 
332075263.853 +1.0089420039E+000 -1.0362682278E+001  +1.5397703696E-001 +7.7786038356E+001  +1.5292544271E-001 +7.7462218572E+001  +1.0081104939E+000 -1.0189536002E+001 
336076062.212 +1.0026635853E+000 -1.0844757937E+001  +1.5479614812E-001 +7.7192226783E+001  +1.5366025761E-001 +7.7022339399E+001  +1.0021351922E+000 -1.0672117715E+001 
340076860.572 +9.9450804546E-001 -1.1247134585E+001  +1.5534196824E-001 +7.6721004058E+001  +1.5413140019E-001 +7.6671674432E+001  +9.9467923503E-001 -1.1060720943E+001 
344077658.932 +9.8556215386E-001 -1.1490408001E+001  +1.5568167270E-001 +7.6433686336E+001  +1.5444469267E-001 +7.6435835879E+001  +9.8603262884E-001 -1.1313389818E+001 
348078457.291 +9.7629994028E-001 -1.1593123691E+001  +1.5576005760E-001 +7.6269902128E+001  +1.5462503734E-001 +7.6407539278E+001  +9.7697454344E-001 -1.1403810195E+001 
352079255.651 +9.6740913194E-001 -1.1538029492E+001  +1.5599283207E-001 +7.6312700503E+001  +1.5500429177E-001 +7.6532921546E+001  +9.6859656376E-001 -1.1369785236E+001 
356080054.011 +9.6005844863E-001 -1.1374915013E+001  +1.5646987555E-001 +7.6471454929E+001  +1.5566556893E-001 +7.6836065227E+001  +9.6124484278E-001 -1.1198974022E+001 
360080852.370 +9.5432341485E-001 -1.1105165548E+001  +1.5721552421E-001 +7.6728606693E+001  +1.5667654572E-001 +7.7124811183E+001  +9.5575654496E-001 -1.0960925977E+001 
364081650.730 +9.5062960670E-001 -1.0755161917E+001  +1.5821849655E-001 +7.7053423750E+001  +1.5804434511E-001 +7.7507296842E+001  +9.5211503496E-001 -1.0642435413E+001 
368082449.090 +9.4886818183E-001 -1.0409977360E+001  +1.5962973295E-001 +7.7370595712E+001  +1.5977755196E-001 +7.7827385526E+001  +9.5016898656E-001 -1.0303731112E+001 
372083247.449 +9.4892243166E-001 -1.0057841129E+001  +1.6130699433E-001 +7.7692932862E+001  +1.6167988453E-001 +7.8121336269E+001  +9.5027299160E-001 -9.9695150942E+000 
376084045.809 +9.5104107494E-001 -9.7252150507E+000  +1.6333166251E-001 +7.7957781757E+001  +1.6399025058E-001 +7.8372561644E+001  +9.5216007259E-001 -9.6524332186E+000 
380084844.169 +9.5450577513E-001 -9.4385825486E+000  +1.6547700429E-001 +7.8250752572E+001  +1.6652820777E-001 +7.8581831845E+001  +9.5552360937E-001 -9.3923589205E+000 
384085642.529 +9.5936593387E-001 -9.2251338970E+000  +1.6783084701E-001 +7.8412990721E+001  +1.6909151450E-001 +7.8663248496E+001  +9.6007006873E-001 -9.1975488421E+000 
388086440.888 +9.6549561348E-001 -9.0858135076E+000  +1.7042802753E-001 +7.8596244972E+001  +1.7184208452E-001 +7.8676042115E+001  +9.6567812773E-001 -9.0797348544E+000 
392087239.248 +9.7243877092E-001 -9.0452098629E+000  +1.7324131903E-001 +7.8671875707E+001  +1.7463983259E-001 +7.8639510334E+001  +9.7228928107E-001 -9.0289342516E+000 
396088037.608 +9.7969492063E-001 -9.1214349055E+000  +1.7623532248E-001 +7.8644880698E+001  +1.7750260321E-001 +7.8497221541E+001  +9.7943263388E-001 -9.0962426363E+000 
400088835.967 +9.8762045106E-001 -9.2907119699E+000  +1.7935559540E-001 +7.8554087258E+001  +1.8053865383E-001 +7.8334567483E+001  +9.8669618026E-001 -9.2730669340E+000 
404089634.327 +9.9471171426E-001 -9.5820572804E+000  +1.8250977936E-001 +7.8354880755E+001  +1.8349411797E-001 +7.8066365196E+001  +9.9348947425E-001 -9.5468524847E+000 
408090432.687 +1.0011929915E+000 -9.9758174948E+000  +1.8560313223E-001 +7.8018260441E+001  +1.8641326093E-001 +7.7638347618E+001  +9.9980493929E-001 -9.9251620963E+000 
412091231.046 +1.0062505748E+000 -1.0489401588E+001  +1.8864192978E-001 +7.7526084993E+001  +1.8908824067E-001 +7.7146635029E+001  +1.0048353944E+000 -1.0408802104E+001 
416092029.406 +1.0096575652E+000 -1.1083014513E+001  +1.9138734239E-001 +7.6958050883E+001  +1.9147166249E-001 +7.6591385127E+001  +1.0078500150E+000 -1.0969181032E+001 
420092827.766 +1.0103565140E+000 -1.1753583280E+001  +1.9370533713E-001 +7.6292180025E+001  +1.9344001857E-001 +7.5906011427E+001  +1.0087556139E+000 -1.1609224251E+001 
424093626.125 +1.0083843174E+000 -1.2405169987E+001  +1.9530987070E-001 +7.5548214201E+001  +1.9471355481E-001 +7.5222047431E+001  +1.0071652999E+000 -1.2228343019E+001 
428094424.485 +1.0037904500E+000 -1.3048103454E+001  +1.9640275033E-001 +7.4825137543E+001  +1.9557637966E-001 +7.4565989850E+001  +1.0028137120E+000 -1.2864194099E+001 
432095222.845 +9.9675529188E-001 -1.3602634809E+001  +1.9683522165E-001 +7.4219048969E+001  +1.9586674176E-001 +7.4047955301E+001  +9.9616230745E-001 -1.3391655343E+001 
436096021.204 +9.8755531891E-001 -1.4026973099E+001  +1.9666658844E-001 +7.3702030811E+001  +1.9562742143E-001 +7.3625504217E+001  +9.8734124647E-001 -1.3812427321E+001 
440096819.564 +9.7724844729E-001 -1.4316197172E+001  +1.9630185544E-001 +7.3389468084E+001  +1.9516825661E-001 +7.3392145428E+001  +9.7774764989E-001 -1.4087586499E+001 
444097617.924 +9.6685237025E-001 -1.4418220606E+001  +1.9581892856E-001 +7.3276431642E+001  +1.9466116282E-001 +7.3328487249E+001  +9.6759955147E-001 -1.4188224408E+001 
448098416.283 +9.5709998632E-001 -1.4365411911E+001  +1.9541628813E-001 +7.3305834160E+001  +1.9448688940E-001 +7.3477188205E+001  +9.5812484839E-001 -1.4153016107E+001 
452099214.643 +9.4865876540E-001 -1.4153901042E+001  +1.9531305669E-001 +7.3532955884E+001  +1.9450010162E-001 +7.3776290082E+001  +9.4982019227E-001 -1.3962495817E+001 
456100013.003 +9.4201436523E-001 -1.3851272637E+001  +1.9562677172E-001 +7.3829381984E+001  +1.9508529878E-001 +7.4118320223E+001  +9.4329936772E-001 -1.3676996672E+001 
