!  2-Port S-parameters saved by WinCal
! VAR MeasName=S-Parameters (CALIBRATED_DATA) read from VNA (P5004A)
! VAR MeasDate=24/04/2024 15:59:44
! VAR NAME=Wafer2_r1_c3_pristine 7
! VAR FILENAME=Wafer2_r1_c3_pristine 7.S2P
! VAR DATE=24/04/2024 15:59:44
! VAR PHYS_PORTS=1,2
! VAR ObjTypeName=DATASET
! VAR IndexType=Frequency
!
# Hz S MA R 50
9000.000 +7.9994773137E-001 +1.7289463501E+001  +6.0920532156E-005 +9.0793090050E+000  +4.4402976556E-005 +3.3030520219E+001  +7.9904191574E-001 +1.7292966449E+001 
4009798.360 +9.8731805395E-001 -3.1273828222E+000  +1.8875806618E-003 +8.6279312498E+001  +1.9009051210E-003 +8.5968789130E+001  +9.8701951986E-001 -3.0525317764E+000 
8010596.719 +9.7584228389E-001 -6.2779509626E-001  +3.7046849555E-003 +8.8610655063E+001  +3.7480174908E-003 +8.8573554530E+001  +9.7661425903E-001 -6.0232623170E-001 
12011395.079 +9.8349416532E-001 -4.2953706840E-003  +5.5994629124E-003 +8.9190528921E+001  +5.6350740197E-003 +8.8788006817E+001  +9.8393261612E-001 -3.4600158189E-003 
16012193.439 +9.8953018745E-001 +1.8516389736E-001  +7.4701302776E-003 +8.9304575274E+001  +7.5243738760E-003 +8.8752834396E+001  +9.8982340743E-001 +1.7346626829E-001 
20012991.798 +9.9463564450E-001 +2.0522838806E-001  +9.3703948594E-003 +8.9384858005E+001  +9.3903337159E-003 +8.8765300928E+001  +9.9480806875E-001 +1.9619336697E-001 
24013790.158 +9.9965567374E-001 +1.3588059416E-001  +1.1296456245E-002 +8.9327889251E+001  +1.1281210367E-002 +8.8684127601E+001  +9.9941857157E-001 +1.3013538464E-001 
28014588.518 +1.0035218693E+000 -3.5118388401E-002  +1.3242000799E-002 +8.9186227742E+001  +1.3187896762E-002 +8.8574512633E+001  +1.0034539157E+000 -2.0615730898E-002 
32015386.877 +1.0077434844E+000 -2.3158807062E-001  +1.5178833141E-002 +8.8913555539E+001  +1.5118271090E-002 +8.8417166679E+001  +1.0075568339E+000 -2.0541314745E-001 
36016185.237 +1.0108016150E+000 -4.9895461217E-001  +1.7146767550E-002 +8.8572311063E+001  +1.7026985458E-002 +8.8150294397E+001  +1.0107918588E+000 -4.8968304644E-001 
40016983.597 +1.0126951092E+000 -8.2249689921E-001  +1.9242987086E-002 +8.8185001285E+001  +1.9029999387E-002 +8.7837781957E+001  +1.0127022673E+000 -8.0973084786E-001 
44017781.956 +1.0139319365E+000 -1.2026224792E+000  +2.1171848231E-002 +8.7803893966E+001  +2.0814046940E-002 +8.7471276612E+001  +1.0138463042E+000 -1.1706848858E+000 
48018580.316 +1.0144650788E+000 -1.5671027908E+000  +2.3029771994E-002 +8.7093887245E+001  +2.2769621372E-002 +8.7198158406E+001  +1.0143156514E+000 -1.5352573275E+000 
52019378.676 +1.0127647706E+000 -1.9525396483E+000  +2.4900493782E-002 +8.6888410891E+001  +2.4602947258E-002 +8.6664141571E+001  +1.0126081740E+000 -1.9168029401E+000 
56020177.035 +1.0102090666E+000 -2.2846110615E+000  +2.6770153976E-002 +8.6351634372E+001  +2.6400716508E-002 +8.6510889681E+001  +1.0103090109E+000 -2.2483232902E+000 
60020975.395 +1.0064165721E+000 -2.6088433868E+000  +2.8458659720E-002 +8.5828952938E+001  +2.8220270819E-002 +8.6202034031E+001  +1.0064404367E+000 -2.5451447629E+000 
64021773.755 +1.0015040530E+000 -2.8241881187E+000  +3.0166327756E-002 +8.5587568417E+001  +2.9985239590E-002 +8.5909562443E+001  +1.0015258320E+000 -2.7650872637E+000 
68022572.114 +9.9640506529E-001 -2.9476816572E+000  +3.1797745035E-002 +8.5442222826E+001  +3.1686475617E-002 +8.5997403761E+001  +9.9636928538E-001 -2.9056922146E+000 
72023370.474 +9.9183683062E-001 -2.9870670453E+000  +3.3431718198E-002 +8.5353793009E+001  +3.3334361148E-002 +8.5995664817E+001  +9.9186092426E-001 -2.9527548237E+000 
76024168.834 +9.8737408834E-001 -2.9521723226E+000  +3.5032996668E-002 +8.5439008675E+001  +3.5061119131E-002 +8.5949249992E+001  +9.8760077376E-001 -2.9113433702E+000 
80024967.193 +9.8411336454E-001 -2.8437030824E+000  +3.6680888920E-002 +8.5496751180E+001  +3.6875206561E-002 +8.6184705103E+001  +9.8442506038E-001 -2.8112083288E+000 
84025765.553 +9.8238587286E-001 -2.7322952487E+000  +3.8416465151E-002 +8.5714066936E+001  +3.8584802430E-002 +8.6178718292E+001  +9.8233594799E-001 -2.7129994800E+000 
88026563.913 +9.8141939199E-001 -2.5520802764E+000  +4.0146589801E-002 +8.5800153634E+001  +4.0447919444E-002 +8.6297612905E+001  +9.8137677779E-001 -2.5500288764E+000 
92027362.272 +9.8194230428E-001 -2.4092355880E+000  +4.2001349585E-002 +8.5949113028E+001  +4.2312833734E-002 +8.6233999077E+001  +9.8178480974E-001 -2.4130402974E+000 
96028160.632 +9.8274723977E-001 -2.2827987499E+000  +4.3748262219E-002 +8.6149533237E+001  +4.4193515975E-002 +8.6344167959E+001  +9.8270775451E-001 -2.2794873527E+000 
100028958.992 +9.8569627619E-001 -2.1893248995E+000  +4.5682135206E-002 +8.6417892216E+001  +4.6075529609E-002 +8.6279845079E+001  +9.8524995627E-001 -2.1902737913E+000 
104029757.351 +9.8883258134E-001 -2.1314284607E+000  +4.7705754334E-002 +8.6441901693E+001  +4.8099723752E-002 +8.6221516601E+001  +9.8848192416E-001 -2.1158601529E+000 
108030555.711 +9.9265586738E-001 -2.1015926005E+000  +4.9671886647E-002 +8.6535549263E+001  +5.0047027125E-002 +8.6170346248E+001  +9.9228819699E-001 -2.1056864579E+000 
112031354.071 +9.9697896063E-001 -2.1741057080E+000  +5.1726859014E-002 +8.6490006624E+001  +5.1953848526E-002 +8.6037120291E+001  +9.9660056519E-001 -2.1582536925E+000 
116032152.430 +1.0015730195E+000 -2.2839557075E+000  +5.3807492370E-002 +8.6442378428E+001  +5.3975889527E-002 +8.6009538562E+001  +1.0007857142E+000 -2.2805024524E+000 
120032950.790 +1.0062471232E+000 -2.4794828698E+000  +5.5996830267E-002 +8.6300164737E+001  +5.5925170913E-002 +8.5746411289E+001  +1.0056331296E+000 -2.4523737340E+000 
124033749.150 +1.0105522543E+000 -2.7482174905E+000  +5.8135929131E-002 +8.6059130137E+001  +5.8052589378E-002 +8.5446197478E+001  +1.0099218915E+000 -2.7260128703E+000 
128034547.510 +1.0141254249E+000 -3.0845131430E+000  +6.0331846755E-002 +8.5707487567E+001  +6.0082266884E-002 +8.5157192143E+001  +1.0133689018E+000 -3.0464524937E+000 
132035345.869 +1.0161415381E+000 -3.5045150113E+000  +6.2378457177E-002 +8.5174552193E+001  +6.2046157158E-002 +8.4736223057E+001  +1.0157231078E+000 -3.4530406433E+000 
136036144.229 +1.0169621928E+000 -3.9563731008E+000  +6.4388653696E-002 +8.4821156122E+001  +6.3903691791E-002 +8.4299535571E+001  +1.0165996881E+000 -3.8916083276E+000 
140036942.589 +1.0157839135E+000 -4.4270455807E+000  +6.6306834071E-002 +8.4147346947E+001  +6.5622022069E-002 +8.3966391365E+001  +1.0156071956E+000 -4.3358459173E+000 
144037740.948 +1.0131645976E+000 -4.8676270188E+000  +6.7917297665E-002 +8.3642681637E+001  +6.7282756875E-002 +8.3532974030E+001  +1.0130862465E+000 -4.7642847238E+000 
148038539.308 +1.0084685096E+000 -5.2414939675E+000  +6.9560654702E-002 +8.3182136997E+001  +6.8750615811E-002 +8.3158367293E+001  +1.0086336510E+000 -5.1385255271E+000 
152039337.668 +1.0028629839E+000 -5.5618578524E+000  +7.0821033491E-002 +8.2753642725E+001  +7.0186737890E-002 +8.2859126187E+001  +1.0029428717E+000 -5.4595258445E+000 
156040136.027 +9.9614332199E-001 -5.7491096443E+000  +7.2204196873E-002 +8.2523240756E+001  +7.1603729694E-002 +8.2738125413E+001  +9.9656118432E-001 -5.6522805647E+000 
160040934.387 +9.8975330914E-001 -5.8416316454E+000  +7.3445366637E-002 +8.2364225617E+001  +7.2847666188E-002 +8.2770177964E+001  +9.9001003173E-001 -5.7267877142E+000 
164041732.747 +9.8372880581E-001 -5.7983060920E+000  +7.4754657784E-002 +8.2358561532E+001  +7.4310310642E-002 +8.2850827245E+001  +9.8445639659E-001 -5.7198477572E+000 
168042531.106 +9.7877808945E-001 -5.7126010674E+000  +7.6048616238E-002 +8.2491078677E+001  +7.5773848255E-002 +8.2995255320E+001  +9.7949631076E-001 -5.6173372251E+000 
172043329.466 +9.7543191611E-001 -5.5359943494E+000  +7.7475318579E-002 +8.2633130103E+001  +7.7369982233E-002 +8.3119942258E+001  +9.7606454906E-001 -5.4711420339E+000 
176044127.826 +9.7302983840E-001 -5.3305607470E+000  +7.8997673453E-002 +8.2857602530E+001  +7.9246342804E-002 +8.3455438697E+001  +9.7373207869E-001 -5.2751055817E+000 
180044926.185 +9.7220855478E-001 -5.1197168562E+000  +8.0680000095E-002 +8.3107895326E+001  +8.1011752738E-002 +8.3580333946E+001  +9.7309965269E-001 -5.0722845243E+000 
184045724.545 +9.7305877997E-001 -4.9138477643E+000  +8.2468870781E-002 +8.3249220054E+001  +8.3033456258E-002 +8.3697829234E+001  +9.7370484691E-001 -4.8708458064E+000 
188046522.905 +9.7492768596E-001 -4.7175611034E+000  +8.4329155940E-002 +8.3500672120E+001  +8.4961238169E-002 +8.3775575852E+001  +9.7525151331E-001 -4.6941927496E+000 
192047321.264 +9.7803979524E-001 -4.5596900476E+000  +8.6331794685E-002 +8.3662647868E+001  +8.7150545425E-002 +8.3770130379E+001  +9.7814698663E-001 -4.5505759018E+000 
196048119.624 +9.8190292820E-001 -4.4605478401E+000  +8.8332968618E-002 +8.3800758092E+001  +8.9241708357E-002 +8.3735331379E+001  +9.8176260045E-001 -4.4617920578E+000 
200048917.984 +9.8682154732E-001 -4.4321925344E+000  +9.0438743046E-002 +8.3874209023E+001  +9.1358203024E-002 +8.3697473646E+001  +9.8642157551E-001 -4.4119710331E+000 
204049716.343 +9.9198539682E-001 -4.4600343997E+000  +9.2694389149E-002 +8.3934796943E+001  +9.3484147173E-002 +8.3585290184E+001  +9.9127787454E-001 -4.4414635927E+000 
208050514.703 +9.9755036971E-001 -4.5724678088E+000  +9.5102940297E-002 +8.3918857572E+001  +9.5720175614E-002 +8.3413394965E+001  +9.9666721951E-001 -4.5496458591E+000 
212051313.063 +1.0031817675E+000 -4.7677084547E+000  +9.7514616898E-002 +8.3726658564E+001  +9.7969320154E-002 +8.3225237211E+001  +1.0021568824E+000 -4.7437775105E+000 
216052111.422 +1.0081536731E+000 -5.0880383373E+000  +1.0005132445E-001 +8.3504483782E+001  +1.0011965562E-001 +8.2974327022E+001  +1.0071578709E+000 -5.0145217566E+000 
220052909.782 +1.0127330136E+000 -5.4437743408E+000  +1.0244947552E-001 +8.3147107723E+001  +1.0234673163E-001 +8.2610867664E+001  +1.0112938008E+000 -5.3810109602E+000 
224053708.142 +1.0157555553E+000 -5.8960785343E+000  +1.0481242173E-001 +8.2700106360E+001  +1.0448182266E-001 +8.2200092506E+001  +1.0144872232E+000 -5.8110338725E+000 
228054506.501 +1.0171198049E+000 -6.4122689171E+000  +1.0693388667E-001 +8.2178808526E+001  +1.0635853990E-001 +8.1656458409E+001  +1.0160617138E+000 -6.2975841151E+000 
232055304.861 +1.0162746212E+000 -6.9447120229E+000  +1.0895581735E-001 +8.1543544657E+001  +1.0817980150E-001 +8.1142192944E+001  +1.0156571752E+000 -6.8149996881E+000 
236056103.221 +1.0134600643E+000 -7.4707461599E+000  +1.1059684279E-001 +8.0924613870E+001  +1.0957528677E-001 +8.0640935816E+001  +1.0127719244E+000 -7.3155297337E+000 
240056901.580 +1.0084258696E+000 -7.9494269149E+000  +1.1190118662E-001 +8.0323583000E+001  +1.1073750764E-001 +8.0131180303E+001  +1.0080729226E+000 -7.7883231477E+000 
244057699.940 +1.0017381697E+000 -8.3261285489E+000  +1.1294252002E-001 +7.9886282847E+001  +1.1183289519E-001 +7.9847491796E+001  +1.0020640890E+000 -8.1508035543E+000 
248058498.300 +9.9417572938E-001 -8.5790933941E+000  +1.1373336172E-001 +7.9547022528E+001  +1.1274156410E-001 +7.9715399929E+001  +9.9448367583E-001 -8.4014310368E+000 
252059296.659 +9.8613033653E-001 -8.7084103884E+000  +1.1448761316E-001 +7.9362619877E+001  +1.1345508516E-001 +7.9664639484E+001  +9.8665042153E-001 -8.5354532467E+000 
256060095.019 +9.7845134017E-001 -8.7085726549E+000  +1.1530428266E-001 +7.9334880224E+001  +1.1433534719E-001 +7.9711134637E+001  +9.7936771140E-001 -8.5651146957E+000 
260060893.379 +9.7167248420E-001 -8.6075445486E+000  +1.1612368711E-001 +7.9426767703E+001  +1.1543791733E-001 +7.9957452734E+001  +9.7294502741E-001 -8.4574682425E+000 
264061691.738 +9.6680398348E-001 -8.3992625934E+000  +1.1719530219E-001 +7.9636189740E+001  +1.1673723224E-001 +8.0157786933E+001  +9.6796476783E-001 -8.2790866448E+000 
268062490.098 +9.6323316749E-001 -8.1479828612E+000  +1.1842034941E-001 +7.9916559384E+001  +1.1827477782E-001 +8.0410869697E+001  +9.6448828990E-001 -8.0369288013E+000 
272063288.458 +9.6153287240E-001 -7.8538644788E+000  +1.1989695904E-001 +8.0177496901E+001  +1.2008267658E-001 +8.0721876883E+001  +9.6263771633E-001 -7.7654185472E+000 
276064086.817 +9.6156047013E-001 -7.5691926576E+000  +1.2159480081E-001 +8.0436387737E+001  +1.2210627770E-001 +8.0968242719E+001  +9.6249570204E-001 -7.4860672008E+000 
280064885.177 +9.6298099970E-001 -7.2828631513E+000  +1.2340050134E-001 +8.0676177749E+001  +1.2421969691E-001 +8.1120180137E+001  +9.6390292230E-001 -7.2300598165E+000 
284065683.537 +9.6604501138E-001 -7.0618113571E+000  +1.2549716613E-001 +8.0897841605E+001  +1.2649164459E-001 +8.1223161572E+001  +9.6648939915E-001 -7.0122900435E+000 
288066481.896 +9.7040464571E-001 -6.8819870582E+000  +1.2758180935E-001 +8.1125416838E+001  +1.2880950871E-001 +8.1274884828E+001  +9.7058839901E-001 -6.8336799941E+000 
292067280.256 +9.7541914010E-001 -6.7742088455E+000  +1.2983035792E-001 +8.1238449304E+001  +1.3106972785E-001 +8.1247085363E+001  +9.7515770868E-001 -6.7354583891E+000 
296068078.616 +9.8133263951E-001 -6.7382511198E+000  +1.3238108734E-001 +8.1333931814E+001  +1.3364785302E-001 +8.1207541674E+001  +9.8097018995E-001 -6.7094423987E+000 
300068876.975 +9.8786781284E-001 -6.7948978643E+000  +1.3496438774E-001 +8.1309860921E+001  +1.3608925118E-001 +8.1061317990E+001  +9.8721133204E-001 -6.7511471550E+000 
304069675.335 +9.9444154528E-001 -6.9432120499E+000  +1.3760317273E-001 +8.1263746729E+001  +1.3857695264E-001 +8.0883749997E+001  +9.9371256180E-001 -6.9003618419E+000 
308070473.695 +1.0009713879E+000 -7.2148835838E+000  +1.4053459218E-001 +8.1095017427E+001  +1.4106628990E-001 +8.0629363656E+001  +9.9973577028E-001 -7.1396107750E+000 
312071272.054 +1.0066949534E+000 -7.5816691865E+000  +1.4328776316E-001 +8.0768231517E+001  +1.4363204061E-001 +8.0245186256E+001  +1.0052752142E+000 -7.4877011951E+000 
316072070.414 +1.0112273625E+000 -8.0407615149E+000  +1.4597407437E-001 +8.0342327642E+001  +1.4596136647E-001 +7.9858209760E+001  +1.0097052046E+000 -7.9309025228E+000 
320072868.774 +1.0137840545E+000 -8.5842447723E+000  +1.4840533669E-001 +7.9815128650E+001  +1.4815241068E-001 +7.9349417663E+001  +1.0127433524E+000 -8.4357510330E+000 
324073667.133 +1.0147173143E+000 -9.1676448053E+000  +1.5063369266E-001 +7.9188621758E+001  +1.5015757301E-001 +7.8699015822E+001  +1.0133887529E+000 -9.0108748055E+000 
328074465.493 +1.0130765798E+000 -9.7594437123E+000  +1.5245784396E-001 +7.8544778726E+001  +1.5162308901E-001 +7.8139092619E+001  +1.0121315555E+000 -9.5754051793E+000 
332075263.853 +1.0090846150E+000 -1.0334112632E+001  +1.5379478808E-001 +7.7843655066E+001  +1.5276843252E-001 +7.7598791048E+001  +1.0083383174E+000 -1.0127509938E+001 
336076062.212 +1.0028514380E+000 -1.0839622975E+001  +1.5472105016E-001 +7.7260194523E+001  +1.5344339753E-001 +7.7074485754E+001  +1.0022181608E+000 -1.0618548375E+001 
340076860.572 +9.9469469905E-001 -1.1237860842E+001  +1.5515940655E-001 +7.6807425138E+001  +1.5393617545E-001 +7.6738951285E+001  +9.9459393414E-001 -1.1011114528E+001 
344077658.932 +9.8565738331E-001 -1.1493845504E+001  +1.5552769781E-001 +7.6489726578E+001  +1.5414597761E-001 +7.6496432272E+001  +9.8613944454E-001 -1.1260063819E+001 
348078457.291 +9.7633171766E-001 -1.1580589325E+001  +1.5563050537E-001 +7.6344796875E+001  +1.5436272351E-001 +7.6500898762E+001  +9.7695175231E-001 -1.1354878559E+001 
352079255.651 +9.6752347946E-001 -1.1538905910E+001  +1.5591706482E-001 +7.6371587156E+001  +1.5475426226E-001 +7.6633826879E+001  +9.6856381138E-001 -1.1335237663E+001 
356080054.011 +9.6023109117E-001 -1.1378855681E+001  +1.5631654737E-001 +7.6535441390E+001  +1.5534448792E-001 +7.6914586862E+001  +9.6124682626E-001 -1.1170963172E+001 
360080852.370 +9.5445338180E-001 -1.1102966872E+001  +1.5702275479E-001 +7.6778224652E+001  +1.5646497206E-001 +7.7222552747E+001  +9.5571493738E-001 -1.0923043182E+001 
364081650.730 +9.5081302633E-001 -1.0743226249E+001  +1.5821963749E-001 +7.7162897973E+001  +1.5776055728E-001 +7.7627699602E+001  +9.5226355628E-001 -1.0617412360E+001 
368082449.090 +9.4898580640E-001 -1.0402026382E+001  +1.5954627832E-001 +7.7453417190E+001  +1.5947228061E-001 +7.7926393428E+001  +9.5027484736E-001 -1.0264647150E+001 
372083247.449 +9.4904438474E-001 -1.0048453189E+001  +1.6115209545E-001 +7.7773179956E+001  +1.6149150773E-001 +7.8213846791E+001  +9.5048224208E-001 -9.9310599169E+000 
376084045.809 +9.5128377424E-001 -9.7182270459E+000  +1.6311275533E-001 +7.8065416679E+001  +1.6378854700E-001 +7.8468707745E+001  +9.5225882131E-001 -9.6183067053E+000 
380084844.169 +9.5479761644E-001 -9.4244385639E+000  +1.6525928125E-001 +7.8341086300E+001  +1.6626819711E-001 +7.8669175466E+001  +9.5565688587E-001 -9.3494307994E+000 
384085642.529 +9.5960365304E-001 -9.1967350203E+000  +1.6765603622E-001 +7.8550021843E+001  +1.6875667689E-001 +7.8765807657E+001  +9.6024897677E-001 -9.1450897487E+000 
388086440.888 +9.6571977929E-001 -9.0672679453E+000  +1.7019897043E-001 +7.8688385504E+001  +1.7155943420E-001 +7.8816450122E+001  +9.6583520419E-001 -9.0180959146E+000 
392087239.248 +9.7272295228E-001 -9.0245179657E+000  +1.7299267562E-001 +7.8769123541E+001  +1.7440351216E-001 +7.8747915320E+001  +9.7242795054E-001 -8.9769722051E+000 
396088037.608 +9.8001714981E-001 -9.0947485904E+000  +1.7598029577E-001 +7.8775418332E+001  +1.7731140233E-001 +7.8628630260E+001  +9.7964981961E-001 -9.0264507784E+000 
400088835.967 +9.8809062206E-001 -9.2665896733E+000  +1.7908652693E-001 +7.8700227272E+001  +1.8024374717E-001 +7.8441006490E+001  +9.8663818659E-001 -9.2041130548E+000 
404089634.327 +9.9508652963E-001 -9.5626704504E+000  +1.8236632054E-001 +7.8457101964E+001  +1.8314602011E-001 +7.8132796128E+001  +9.9377087830E-001 -9.4726123400E+000 
408090432.687 +1.0015408705E+000 -9.9402296891E+000  +1.8545346049E-001 +7.8145561622E+001  +1.8600531959E-001 +7.7736647133E+001  +9.9985462909E-001 -9.8651204667E+000 
412091231.046 +1.0066161090E+000 -1.0459826199E+001  +1.8841887663E-001 +7.7683276226E+001  +1.8874197874E-001 +7.7267470408E+001  +1.0048894937E+000 -1.0343737113E+001 
416092029.406 +1.0098345148E+000 -1.1061096610E+001  +1.9121872953E-001 +7.7061707640E+001  +1.9112325215E-001 +7.6688318580E+001  +1.0079684066E+000 -1.0898391030E+001 
420092827.766 +1.0106266516E+000 -1.1727878286E+001  +1.9346151139E-001 +7.6372430490E+001  +1.9305515460E-001 +7.6009470653E+001  +1.0090394999E+000 -1.1531947839E+001 
424093626.125 +1.0086659215E+000 -1.2387098959E+001  +1.9523997946E-001 +7.5669933338E+001  +1.9434324524E-001 +7.5362586142E+001  +1.0073047694E+000 -1.2168282195E+001 
428094424.485 +1.0037738963E+000 -1.3029154107E+001  +1.9619063663E-001 +7.4962723034E+001  +1.9520695876E-001 +7.4700277246E+001  +1.0030204863E+000 -1.2787751676E+001 
432095222.845 +9.9691042199E-001 -1.3579567425E+001  +1.9655823446E-001 +7.4331972848E+001  +1.9552109634E-001 +7.4164636874E+001  +9.9635940019E-001 -1.3319150451E+001 
436096021.204 +9.8782691203E-001 -1.4010984821E+001  +1.9651333206E-001 +7.3820816721E+001  +1.9530211036E-001 +7.3740987327E+001  +9.8752600829E-001 -1.3754165812E+001 
440096819.564 +9.7753324758E-001 -1.4295976316E+001  +1.9617813683E-001 +7.3507637392E+001  +1.9482798417E-001 +7.3504988896E+001  +9.7797673060E-001 -1.4024636232E+001 
444097617.924 +9.6705673650E-001 -1.4404225776E+001  +1.9557383374E-001 +7.3360339065E+001  +1.9440140179E-001 +7.3487925341E+001  +9.6785339419E-001 -1.4131666136E+001 
448098416.283 +9.5715662846E-001 -1.4353306665E+001  +1.9521957279E-001 +7.3415800583E+001  +1.9416499633E-001 +7.3613826012E+001  +9.5837585032E-001 -1.4097197728E+001 
452099214.643 +9.4878986242E-001 -1.4147123480E+001  +1.9514541843E-001 +7.3644520885E+001  +1.9418059952E-001 +7.3870706843E+001  +9.5011682351E-001 -1.3897510935E+001 
456100013.003 +9.4219728009E-001 -1.3840830541E+001  +1.9540560315E-001 +7.3940501557E+001  +1.9476911272E-001 +7.4251190497E+001  +9.4350371153E-001 -1.3620765152E+001 
