!  2-Port S-parameters saved by WinCal
! VAR NAME=Wafer2_r1_c1_overformed2
! VAR DATE=24/04/2024 15:55:31
! VAR FILENAME=Wafer2_r1_c1_overformed2.S2P
! VAR MeasName=S-Parameters (CALIBRATED_DATA) read from VNA (P5004A)
! VAR MeasDate=24/04/2024 15:54:44
! VAR PHYS_PORTS=1,2
! VAR ObjTypeName=DATASET
! VAR IndexType=Frequency
!
# Hz S MA R 50
9000.000 +7.8383592820E-001 +1.6650817916E+001  +1.7778797696E-002 +2.6916122442E+000  +1.7946320845E-002 +1.5465336326E+000  +7.8319413986E-001 +1.6638792717E+001 
4009798.360 +9.6455781818E-001 -3.0712157621E+000  +2.3164021901E-002 +1.7595175148E+000  +2.3416558373E-002 +1.5817031112E+000  +9.6410045653E-001 -2.9918966692E+000 
8010596.719 +9.5358966290E-001 -6.1770634666E-001  +2.3208200318E-002 +8.7939131842E+000  +2.3424111018E-002 +8.5157788986E+000  +9.5408731949E-001 -5.9773013665E-001 
12011395.079 +9.6065738288E-001 -2.4005284463E-002  +2.3907909643E-002 +1.3722337195E+001  +2.3981769237E-002 +1.3211447786E+001  +9.6096075067E-001 -5.7598757849E-003 
16012193.439 +9.6647564216E-001 +1.6048543219E-001  +2.4664659800E-002 +1.7968182192E+001  +2.4602864060E-002 +1.7580896913E+001  +9.6663898536E-001 +1.7431109924E-001 
20012991.798 +9.7123038607E-001 +1.8062860717E-001  +2.5497826674E-002 +2.1935645324E+001  +2.5342473290E-002 +2.1585090778E+001  +9.7149919528E-001 +1.9023867614E-001 
24013790.158 +9.7558350126E-001 +1.1174076790E-001  +2.6546917695E-002 +2.5501832874E+001  +2.6102396294E-002 +2.5313131136E+001  +9.7610189292E-001 +1.1895700021E-001 
28014588.518 +9.7955624663E-001 -4.7860879941E-002  +2.7526318772E-002 +2.8851231987E+001  +2.6962545538E-002 +2.8819181562E+001  +9.8017096889E-001 -2.0591519309E-002 
32015386.877 +9.8364148543E-001 -2.4564388130E-001  +2.8586804122E-002 +3.1775324217E+001  +2.8084936889E-002 +3.1907772185E+001  +9.8405082571E-001 -2.2318837357E-001 
36016185.237 +9.8647439998E-001 -5.0391305744E-001  +2.9736102487E-002 +3.4560061439E+001  +2.9286592623E-002 +3.4813657237E+001  +9.8699393552E-001 -4.9438995980E-001 
40016983.597 +9.8811619656E-001 -8.2051085669E-001  +3.0995096785E-002 +3.6964908805E+001  +3.0497872784E-002 +3.6920459975E+001  +9.8899816959E-001 -8.0800547064E-001 
44017781.956 +9.8933103762E-001 -1.1856147792E+000  +3.2248008376E-002 +3.9075315779E+001  +3.1771050526E-002 +3.9335439921E+001  +9.9006365189E-001 -1.1524083048E+000 
48018580.316 +9.8972981869E-001 -1.5431247907E+000  +3.3546863030E-002 +4.0926687964E+001  +3.3103773553E-002 +4.1504366041E+001  +9.9064974100E-001 -1.4930446991E+000 
52019378.676 +9.8839423840E-001 -1.9253459129E+000  +3.4809567144E-002 +4.2894020681E+001  +3.4284083196E-002 +4.3324172491E+001  +9.8882625325E-001 -1.8877580288E+000 
56020177.035 +9.8582151093E-001 -2.2468383505E+000  +3.6036777177E-002 +4.4384334881E+001  +3.5526212044E-002 +4.4958914339E+001  +9.8648567426E-001 -2.2066767022E+000 
60020975.395 +9.8213291608E-001 -2.5612065122E+000  +3.7233591838E-002 +4.6016432066E+001  +3.6738834692E-002 +4.6788048552E+001  +9.8292234503E-001 -2.5145344148E+000 
64021773.755 +9.7776235315E-001 -2.7606065904E+000  +3.8497111173E-002 +4.7446442759E+001  +3.8032219545E-002 +4.8131627243E+001  +9.7826336865E-001 -2.7286666871E+000 
68022572.114 +9.7293650883E-001 -2.8848927818E+000  +3.9641818086E-002 +4.9053916184E+001  +3.9259716545E-002 +4.9788662759E+001  +9.7329293212E-001 -2.8700196444E+000 
72023370.474 +9.6858714607E-001 -2.9352630432E+000  +4.0885303191E-002 +5.0432329603E+001  +4.0692575905E-002 +5.1163082979E+001  +9.6886198827E-001 -2.9057247642E+000 
76024168.834 +9.6436418872E-001 -2.9028217851E+000  +4.2164036267E-002 +5.1935503186E+001  +4.2075809350E-002 +5.2484381394E+001  +9.6473271643E-001 -2.8754972640E+000 
80024967.193 +9.6136423071E-001 -2.7983650837E+000  +4.3565422921E-002 +5.3425445920E+001  +4.3560409778E-002 +5.4083722803E+001  +9.6164672455E-001 -2.7826678903E+000 
84025765.553 +9.5962469825E-001 -2.6878105571E+000  +4.4889490966E-002 +5.4656243152E+001  +4.5085645028E-002 +5.5425199213E+001  +9.5955680971E-001 -2.6918506364E+000 
88026563.913 +9.5869123710E-001 -2.5094877038E+000  +4.6354375885E-002 +5.6044536332E+001  +4.6603841363E-002 +5.6478153255E+001  +9.5887386704E-001 -2.5222329238E+000 
92027362.272 +9.5938101373E-001 -2.3875391652E+000  +4.7897862907E-002 +5.7236310207E+001  +4.8271724150E-002 +5.7560699104E+001  +9.5891482324E-001 -2.3893689216E+000 
96028160.632 +9.5993705480E-001 -2.2603869397E+000  +4.9546499589E-002 +5.8364041810E+001  +4.9888037175E-002 +5.8498627289E+001  +9.5980485230E-001 -2.2581969251E+000 
100028958.992 +9.6272142094E-001 -2.1716338626E+000  +5.1183501783E-002 +5.9471442630E+001  +5.1698152518E-002 +5.9468609885E+001  +9.6222708825E-001 -2.1724232913E+000 
104029757.351 +9.6572395497E-001 -2.1190140402E+000  +5.2965664866E-002 +6.0380692292E+001  +5.3410010760E-002 +6.0316271784E+001  +9.6512030695E-001 -2.1039734251E+000 
108030555.711 +9.6936129865E-001 -2.0927222688E+000  +5.4748720200E-002 +6.1373715173E+001  +5.5203810258E-002 +6.0999226003E+001  +9.6875851544E-001 -2.0902804617E+000 
112031354.071 +9.7349032934E-001 -2.1677924436E+000  +5.6657450878E-002 +6.2002808890E+001  +5.6951421984E-002 +6.1666255701E+001  +9.7289492573E-001 -2.1407053235E+000 
116032152.430 +9.7789796889E-001 -2.2745687319E+000  +5.8611411995E-002 +6.2787424784E+001  +5.8890685084E-002 +6.2188890683E+001  +9.7693557014E-001 -2.2562049337E+000 
120032950.790 +9.8213504809E-001 -2.4674971479E+000  +6.0571694255E-002 +6.3301342516E+001  +6.0832238849E-002 +6.2638453378E+001  +9.8133207846E-001 -2.4228699411E+000 
124033749.150 +9.8627485809E-001 -2.7300549547E+000  +6.2649897960E-002 +6.3666914892E+001  +6.2493294195E-002 +6.3263797320E+001  +9.8574026175E-001 -2.6927878972E+000 
128034547.510 +9.8954043827E-001 -3.0639158903E+000  +6.4775488242E-002 +6.3937119584E+001  +6.4450475136E-002 +6.3573128567E+001  +9.8919520252E-001 -3.0053660145E+000 
132035345.869 +9.9145546695E-001 -3.4694559734E+000  +6.6708058184E-002 +6.4049732581E+001  +6.6233902289E-002 +6.3724220274E+001  +9.9149581878E-001 -3.3983654678E+000 
136036144.229 +9.9232267963E-001 -3.9195258804E+000  +6.8529829254E-002 +6.4152720360E+001  +6.8105580457E-002 +6.3877722072E+001  +9.9220938960E-001 -3.8283217405E+000 
140036942.589 +9.9136482989E-001 -4.3701401882E+000  +7.0313692317E-002 +6.4146277722E+001  +6.9610780241E-002 +6.3860351907E+001  +9.9116214788E-001 -4.2693407501E+000 
144037740.948 +9.8874512076E-001 -4.7963926816E+000  +7.1938287170E-002 +6.4121536968E+001  +7.1143283126E-002 +6.4075075482E+001  +9.8890634321E-001 -4.6955678340E+000 
148038539.308 +9.8433710678E-001 -5.1574664062E+000  +7.3252280968E-002 +6.4155590647E+001  +7.2444902535E-002 +6.4184708730E+001  +9.8492865510E-001 -5.0678336178E+000 
152039337.668 +9.7892352345E-001 -5.4787882041E+000  +7.4567015768E-002 +6.4141498739E+001  +7.3782383111E-002 +6.4351813424E+001  +9.7926263015E-001 -5.3778257017E+000 
156040136.027 +9.7234977407E-001 -5.6676971859E+000  +7.5720297140E-002 +6.4364056548E+001  +7.4962810306E-002 +6.4706021179E+001  +9.7327442714E-001 -5.5677355617E+000 
160040934.387 +9.6635860351E-001 -5.7379443932E+000  +7.6696764704E-002 +6.4780934979E+001  +7.6154627091E-002 +6.5053816232E+001  +9.6701610296E-001 -5.6499433776E+000 
164041732.747 +9.6087185262E-001 -5.7192441819E+000  +7.7955385956E-002 +6.5083620014E+001  +7.7488526323E-002 +6.5545205465E+001  +9.6161035523E-001 -5.6401660983E+000 
168042531.106 +9.5608011669E-001 -5.6227729592E+000  +7.9055016864E-002 +6.5606822045E+001  +7.8949323595E-002 +6.6091532572E+001  +9.5680511088E-001 -5.5438567995E+000 
172043329.466 +9.5300655465E-001 -5.4592296614E+000  +8.0464304001E-002 +6.6132713633E+001  +8.0390674009E-002 +6.6644791352E+001  +9.5353553133E-001 -5.4054523953E+000 
176044127.826 +9.5059045939E-001 -5.2520158671E+000  +8.1882509484E-002 +6.6673031575E+001  +8.2065353746E-002 +6.7163633592E+001  +9.5131478065E-001 -5.2070005108E+000 
180044926.185 +9.4999662797E-001 -5.0511969275E+000  +8.3401542765E-002 +6.7163356265E+001  +8.3907933382E-002 +6.7701460115E+001  +9.5073561289E-001 -5.0121648426E+000 
184045724.545 +9.5075100763E-001 -4.8522061318E+000  +8.5164628804E-002 +6.7766684995E+001  +8.5688570941E-002 +6.8203352027E+001  +9.5117933650E-001 -4.8182753244E+000 
188046522.905 +9.5251971290E-001 -4.6703402148E+000  +8.6942009794E-002 +6.8288572879E+001  +8.7672847910E-002 +6.8485596009E+001  +9.5262844810E-001 -4.6529260974E+000 
192047321.264 +9.5549602253E-001 -4.5190144529E+000  +8.8848291221E-002 +6.8695111954E+001  +8.9659867347E-002 +6.8817766535E+001  +9.5519732920E-001 -4.5049408642E+000 
196048119.624 +9.5894468805E-001 -4.4266387999E+000  +9.0787873114E-002 +6.9074009131E+001  +9.1694707773E-002 +6.9136595201E+001  +9.5882994932E-001 -4.4109555627E+000 
200048917.984 +9.6373370251E-001 -4.3933958153E+000  +9.2913575072E-002 +6.9448293265E+001  +9.3804257689E-002 +6.9299766383E+001  +9.6329938616E-001 -4.3710690785E+000 
204049716.343 +9.6868983398E-001 -4.4237009831E+000  +9.5102911022E-002 +6.9747313600E+001  +9.5843941312E-002 +6.9437811275E+001  +9.6787577265E-001 -4.3980090517E+000 
208050514.703 +9.7390855273E-001 -4.5360576551E+000  +9.7395891292E-002 +6.9956924500E+001  +9.7970443211E-002 +6.9585654900E+001  +9.7301148485E-001 -4.5071116745E+000 
212051313.063 +9.7914664088E-001 -4.7262266574E+000  +9.9793569114E-002 +7.0000436616E+001  +1.0018886611E-001 +6.9589768307E+001  +9.7824651003E-001 -4.6895475577E+000 
216052111.422 +9.8399310208E-001 -5.0342235028E+000  +1.0208056041E-001 +7.0025934463E+001  +1.0230518657E-001 +6.9501599189E+001  +9.8302245524E-001 -4.9513162381E+000 
220052909.782 +9.8819776698E-001 -5.3846384689E+000  +1.0453108265E-001 +6.9952693052E+001  +1.0437714817E-001 +6.9450870759E+001  +9.8721776497E-001 -5.3020166841E+000 
224053708.142 +9.9121407042E-001 -5.8356111505E+000  +1.0678526232E-001 +6.9727741868E+001  +1.0643252151E-001 +6.9235772324E+001  +9.9016540791E-001 -5.7271599362E+000 
228054506.501 +9.9254144865E-001 -6.3272707399E+000  +1.0890656030E-001 +6.9430568260E+001  +1.0829737809E-001 +6.8902102795E+001  +9.9172015772E-001 -6.2003272104E+000 
232055304.861 +9.9180901375E-001 -6.8538076515E+000  +1.1069941657E-001 +6.9041480110E+001  +1.0998407915E-001 +6.8736863004E+001  +9.9128297229E-001 -6.7089657266E+000 
236056103.221 +9.8896500119E-001 -7.3715712659E+000  +1.1231184892E-001 +6.8658672801E+001  +1.1129827127E-001 +6.8424778403E+001  +9.8863691675E-001 -7.2208613790E+000 
240056901.580 +9.8412367881E-001 -7.8397993981E+000  +1.1355733706E-001 +6.8213496388E+001  +1.1258950723E-001 +6.8126008976E+001  +9.8427309186E-001 -7.6758424763E+000 
244057699.940 +9.7774664030E-001 -8.2036047930E+000  +1.1456103295E-001 +6.7974254506E+001  +1.1356355426E-001 +6.7987992659E+001  +9.7831135646E-001 -8.0474276550E+000 
248058498.300 +9.7054361370E-001 -8.4568484259E+000  +1.1538164301E-001 +6.7870653185E+001  +1.1436053590E-001 +6.7961360532E+001  +9.7139220925E-001 -8.2909843232E+000 
252059296.659 +9.6283702614E-001 -8.5880949211E+000  +1.1602146700E-001 +6.7855218376E+001  +1.1508374195E-001 +6.8088088361E+001  +9.6382909462E-001 -8.4288767164E+000 
256060095.019 +9.5586757864E-001 -8.5866146869E+000  +1.1686629512E-001 +6.8022780924E+001  +1.1602171966E-001 +6.8279461777E+001  +9.5658609093E-001 -8.4412920055E+000 
260060893.379 +9.4912953429E-001 -8.4808339445E+000  +1.1760368792E-001 +6.8278080036E+001  +1.1692585681E-001 +6.8720185185E+001  +9.5060917704E-001 -8.3422192600E+000 
264061691.738 +9.4446917894E-001 -8.2821376254E+000  +1.1862105286E-001 +6.8632842542E+001  +1.1829681259E-001 +6.9119521422E+001  +9.4582719615E-001 -8.1686469726E+000 
268062490.098 +9.4119238155E-001 -8.0446404835E+000  +1.1990020155E-001 +6.9000812681E+001  +1.1978060112E-001 +6.9572710954E+001  +9.4252991420E-001 -7.9336153259E+000 
272063288.458 +9.3973952551E-001 -7.7594478442E+000  +1.2126450783E-001 +6.9498452176E+001  +1.2142285046E-001 +6.9952740506E+001  +9.4064501529E-001 -7.6641174253E+000 
276064086.817 +9.3993737595E-001 -7.4730581003E+000  +1.2288331208E-001 +6.9885325315E+001  +1.2332694891E-001 +7.0319143618E+001  +9.4051357045E-001 -7.4068458018E+000 
280064885.177 +9.4115665908E-001 -7.1931868571E+000  +1.2465323442E-001 +7.0302411080E+001  +1.2543027528E-001 +7.0642115598E+001  +9.4179225085E-001 -7.1560388195E+000 
284065683.537 +9.4394445974E-001 -6.9831261783E+000  +1.2661914912E-001 +7.0580146114E+001  +1.2758149619E-001 +7.0867118050E+001  +9.4425956078E-001 -6.9463594135E+000 
288066481.896 +9.4818990373E-001 -6.8039599633E+000  +1.2878803144E-001 +7.0931317102E+001  +1.2989616397E-001 +7.1022919194E+001  +9.4796481169E-001 -6.7639831718E+000 
292067280.256 +9.5296264141E-001 -6.7139309409E+000  +1.3095293937E-001 +7.1195505209E+001  +1.3219284537E-001 +7.1137039604E+001  +9.5248703452E-001 -6.6769471524E+000 
296068078.616 +9.5844775506E-001 -6.6803790873E+000  +1.3338326860E-001 +7.1395199445E+001  +1.3458079054E-001 +7.1202119272E+001  +9.5788328219E-001 -6.6448877389E+000 
300068876.975 +9.6467947796E-001 -6.7327037185E+000  +1.3592519725E-001 +7.1445066230E+001  +1.3695586397E-001 +7.1266864545E+001  +9.6380399950E-001 -6.6867648918E+000 
304069675.335 +9.7112060015E-001 -6.8768250706E+000  +1.3858486504E-001 +7.1603438903E+001  +1.3948931304E-001 +7.1262497042E+001  +9.6997965567E-001 -6.8267980844E+000 
308070473.695 +9.7716605695E-001 -7.1466387609E+000  +1.4129437929E-001 +7.1516065129E+001  +1.4190232822E-001 +7.1062643261E+001  +9.7585256250E-001 -7.0568335929E+000 
312071272.054 +9.8258100900E-001 -7.5023851926E+000  +1.4402063035E-001 +7.1309228424E+001  +1.4437024968E-001 +7.0876975896E+001  +9.8116974331E-001 -7.3994391897E+000 
316072070.414 +9.8685943997E-001 -7.9546873012E+000  +1.4666490077E-001 +7.1056105011E+001  +1.4661189749E-001 +7.0611170597E+001  +9.8551284625E-001 -7.8395332881E+000 
320072868.774 +9.8918496964E-001 -8.4852884904E+000  +1.4917463178E-001 +7.0593444710E+001  +1.4883197891E-001 +7.0172712193E+001  +9.8851002877E-001 -8.3334690414E+000 
324073667.133 +9.9020481316E-001 -9.0547295678E+000  +1.5129805466E-001 +7.0090840399E+001  +1.5068971435E-001 +6.9712509551E+001  +9.8908438806E-001 -8.8789618762E+000 
328074465.493 +9.8860828969E-001 -9.6477886372E+000  +1.5312001277E-001 +6.9575299822E+001  +1.5215327518E-001 +6.9154928436E+001  +9.8781276866E-001 -9.4490668018E+000 
332075263.853 +9.8490791048E-001 -1.0201953542E+001  +1.5438455098E-001 +6.9048816776E+001  +1.5315470089E-001 +6.8731100557E+001  +9.8429548337E-001 -9.9929873374E+000 
336076062.212 +9.7871130547E-001 -1.0691599797E+001  +1.5513093072E-001 +6.8588433507E+001  +1.5404000386E-001 +6.8378079371E+001  +9.7859232250E-001 -1.0470600990E+001 
340076860.572 +9.7103705178E-001 -1.1077463590E+001  +1.5563626053E-001 +6.8199739063E+001  +1.5434334473E-001 +6.8090800756E+001  +9.7121156636E-001 -1.0853439294E+001 
344077658.932 +9.6249384585E-001 -1.1331072518E+001  +1.5595034452E-001 +6.8007014003E+001  +1.5470237218E-001 +6.7998048325E+001  +9.6305637753E-001 -1.1101968179E+001 
348078457.291 +9.5341545054E-001 -1.1424103088E+001  +1.5611010195E-001 +6.7912835999E+001  +1.5490992288E-001 +6.8091283778E+001  +9.5454341221E-001 -1.1196311799E+001 
352079255.651 +9.4509610633E-001 -1.1373693072E+001  +1.5630648528E-001 +6.8070767973E+001  +1.5518496009E-001 +6.8304335014E+001  +9.4645372700E-001 -1.1178843581E+001 
356080054.011 +9.3815423851E-001 -1.1218964584E+001  +1.5675390767E-001 +6.8345838694E+001  +1.5584221231E-001 +6.8658311013E+001  +9.3956389488E-001 -1.1033567661E+001 
360080852.370 +9.3280877456E-001 -1.0948341982E+001  +1.5747534615E-001 +6.8722413284E+001  +1.5674541534E-001 +6.9073491768E+001  +9.3412753378E-001 -1.0783406272E+001 
364081650.730 +9.2932438583E-001 -1.0613632930E+001  +1.5844454435E-001 +6.9095146481E+001  +1.5820801412E-001 +6.9462378375E+001  +9.3050992226E-001 -1.0476959378E+001 
368082449.090 +9.2769010788E-001 -1.0269094442E+001  +1.5986417639E-001 +6.9520516143E+001  +1.5985414617E-001 +6.9891705370E+001  +9.2886325401E-001 -1.0144330343E+001 
372083247.449 +9.2769675139E-001 -9.9203591689E+000  +1.6137606620E-001 +6.9860479065E+001  +1.6175784336E-001 +7.0285970359E+001  +9.2894366369E-001 -9.8165589906E+000 
376084045.809 +9.2967694780E-001 -9.6019751551E+000  +1.6343496989E-001 +7.0260754463E+001  +1.6399221457E-001 +7.0589395325E+001  +9.3054078970E-001 -9.5160239342E+000 
380084844.169 +9.3322876127E-001 -9.3241693646E+000  +1.6549197660E-001 +7.0585985896E+001  +1.6647050818E-001 +7.0863163806E+001  +9.3373542897E-001 -9.2581150626E+000 
384085642.529 +9.3761633520E-001 -9.1067800003E+000  +1.6788677918E-001 +7.0860603922E+001  +1.6893502542E-001 +7.1037637955E+001  +9.3815710210E-001 -9.0518822235E+000 
388086440.888 +9.4340821755E-001 -8.9820811218E+000  +1.7034969004E-001 +7.1055374843E+001  +1.7164405262E-001 +7.1107765572E+001  +9.4333240039E-001 -8.9321494180E+000 
392087239.248 +9.5019996301E-001 -8.9490851603E+000  +1.7309506130E-001 +7.1207281003E+001  +1.7438604062E-001 +7.1139349915E+001  +9.4975577541E-001 -8.8899815390E+000 
396088037.608 +9.5699984251E-001 -9.0109570261E+000  +1.7591500753E-001 +7.1290684159E+001  +1.7721851951E-001 +7.1107299840E+001  +9.5642979826E-001 -8.9483959248E+000 
400088835.967 +9.6456101743E-001 -9.1720604104E+000  +1.7903452059E-001 +7.1247088882E+001  +1.8009013112E-001 +7.1018093728E+001  +9.6346473613E-001 -9.1205853357E+000 
404089634.327 +9.7137217619E-001 -9.4550413368E+000  +1.8212487030E-001 +7.1072333981E+001  +1.8296429241E-001 +7.0779413045E+001  +9.6978321952E-001 -9.3750227719E+000 
408090432.687 +9.7745847125E-001 -9.8444752832E+000  +1.8511164460E-001 +7.0834217165E+001  +1.8573412330E-001 +7.0474646410E+001  +9.7587414581E-001 -9.7422397564E+000 
412091231.046 +9.8267259196E-001 -1.0337577917E+001  +1.8815037479E-001 +7.0520518341E+001  +1.8844215188E-001 +7.0016164019E+001  +9.8074389448E-001 -1.0207651997E+001 
416092029.406 +9.8542558804E-001 -1.0925057714E+001  +1.9083050833E-001 +6.9928593819E+001  +1.9072603584E-001 +6.9562223152E+001  +9.8369962539E-001 -1.0761533692E+001 
420092827.766 +9.8620792646E-001 -1.1572501176E+001  +1.9300883360E-001 +6.9356517237E+001  +1.9259163435E-001 +6.9012608923E+001  +9.8461853343E-001 -1.1374531761E+001 
424093626.125 +9.8419682464E-001 -1.2223967788E+001  +1.9475461093E-001 +6.8687495990E+001  +1.9394235721E-001 +6.8403245846E+001  +9.8320069537E-001 -1.1999515786E+001 
428094424.485 +9.7973224624E-001 -1.2850312935E+001  +1.9574292969E-001 +6.8041131780E+001  +1.9469368118E-001 +6.7837562023E+001  +9.7923408678E-001 -1.2617838367E+001 
432095222.845 +9.7307331035E-001 -1.3394013315E+001  +1.9620325400E-001 +6.7501239382E+001  +1.9512526549E-001 +6.7352525884E+001  +9.7277960514E-001 -1.3135692970E+001 
436096021.204 +9.6441386633E-001 -1.3822861198E+001  +1.9602470990E-001 +6.7092580733E+001  +1.9483700794E-001 +6.6988517007E+001  +9.6439716525E-001 -1.3560326521E+001 
440096819.564 +9.5469366404E-001 -1.4095106816E+001  +1.9570832596E-001 +6.6818233259E+001  +1.9445582726E-001 +6.6868881496E+001  +9.5520570181E-001 -1.3827285986E+001 
444097617.924 +9.4455437798E-001 -1.4203308539E+001  +1.9522530300E-001 +6.6779801449E+001  +1.9402799484E-001 +6.6836690041E+001  +9.4565176263E-001 -1.3946916310E+001 
448098416.283 +9.3520684529E-001 -1.4159358399E+001  +1.9480740353E-001 +6.6877405031E+001  +1.9389884715E-001 +6.7043039035E+001  +9.3643140753E-001 -1.3908697151E+001 
452099214.643 +9.2718108661E-001 -1.3952723885E+001  +1.9475223825E-001 +6.7121717980E+001  +1.9385709721E-001 +6.7387607521E+001  +9.2866688846E-001 -1.3719746008E+001 
456100013.003 +9.2070674634E-001 -1.3657652805E+001  +1.9501135082E-001 +6.7453866512E+001  +1.9437324238E-001 +6.7804371676E+001  +9.2233489630E-001 -1.3447751211E+001 
