!  2-Port S-parameters saved by WinCal
! VAR MeasName=S-Parameters (CALIBRATED_DATA) read from VNA (P5004A)
! VAR MeasDate=24/04/2024 15:10:43
! VAR NAME=Wafer2_r1_c2_pristine
! VAR FILENAME=Wafer2_r1_c2_pristine.S2P
! VAR DATE=24/04/2024 15:10:43
! VAR PHYS_PORTS=1,2
! VAR ObjTypeName=DATASET
! VAR IndexType=Frequency
!
# Hz S MA R 50
9000.000 +7.9984377122E-001 +1.7315313694E+001  +4.9439172398E-005 -1.1459500531E+002  +7.6340122877E-005 -4.1125512227E+001  +7.9911345416E-001 +1.7289587050E+001 
4009798.360 +9.8731774657E-001 -3.1324414258E+000  +1.8779720704E-003 +8.6331243982E+001  +1.9056365463E-003 +8.6109657449E+001  +9.8719529308E-001 -3.0661308661E+000 
8010596.719 +9.7580383691E-001 -6.3130056966E-001  +3.7037098380E-003 +8.8634307890E+001  +3.7306024550E-003 +8.8357471995E+001  +9.7664565097E-001 -6.1732105635E-001 
12011395.079 +9.8346731759E-001 -1.5657522523E-002  +5.5717609491E-003 +8.9244011389E+001  +5.6212018751E-003 +8.8805077773E+001  +9.8387486855E-001 -8.6169213283E-003 
16012193.439 +9.8947794386E-001 +1.7244826130E-001  +7.4525450652E-003 +8.9266441826E+001  +7.4914508025E-003 +8.8735126694E+001  +9.8976338097E-001 +1.6400880828E-001 
20012991.798 +9.9473651698E-001 +1.9475180886E-001  +9.3405163695E-003 +8.9327866387E+001  +9.3658874266E-003 +8.8719077853E+001  +9.9484480109E-001 +1.8827692726E-001 
24013790.158 +9.9956189507E-001 +1.2641654720E-001  +1.1266487263E-002 +8.9314589683E+001  +1.1254618127E-002 +8.8626480383E+001  +9.9949942366E-001 +1.1490722772E-001 
28014588.518 +1.0035754084E+000 -4.5885082397E-002  +1.3201187901E-002 +8.9182846605E+001  +1.3139378757E-002 +8.8570223829E+001  +1.0034977156E+000 -2.7433125232E-002 
32015386.877 +1.0079724534E+000 -2.3773570758E-001  +1.5209807063E-002 +8.8597863919E+001  +1.5067637858E-002 +8.8330348348E+001  +1.0077694550E+000 -2.1928078767E-001 
36016185.237 +1.0108664180E+000 -5.1468002301E-001  +1.7165561125E-002 +8.8461896335E+001  +1.6988088529E-002 +8.8071353682E+001  +1.0108151749E+000 -5.0107986793E-001 
40016983.597 +1.0128878467E+000 -8.3445089544E-001  +1.9128362737E-002 +8.8034562678E+001  +1.8938082291E-002 +8.7622300299E+001  +1.0127577360E+000 -8.2169651356E-001 
44017781.956 +1.0139751200E+000 -1.1917154205E+000  +2.1077809005E-002 +8.7496965327E+001  +2.0905100080E-002 +8.7424706841E+001  +1.0139843333E+000 -1.1672612367E+000 
48018580.316 +1.0143747483E+000 -1.5709235591E+000  +2.2927860207E-002 +8.7281255581E+001  +2.2762444450E-002 +8.7286989496E+001  +1.0147555991E+000 -1.5211805760E+000 
52019378.676 +1.0129887978E+000 -1.9500019099E+000  +2.4851395056E-002 +8.6713780868E+001  +2.4557396654E-002 +8.6905938144E+001  +1.0128350440E+000 -1.9093405321E+000 
56020177.035 +1.0102063484E+000 -2.2824417645E+000  +2.6666414336E-002 +8.6381690436E+001  +2.6381899866E-002 +8.6618937385E+001  +1.0103651731E+000 -2.2327192647E+000 
60020975.395 +1.0066463028E+000 -2.5972087400E+000  +2.8377788469E-002 +8.5860426890E+001  +2.8215029889E-002 +8.6149998966E+001  +1.0065482015E+000 -2.5453136004E+000 
64021773.755 +1.0016388326E+000 -2.8150725011E+000  +3.0006159497E-002 +8.5557382691E+001  +2.9931953271E-002 +8.5989824807E+001  +1.0017051389E+000 -2.7586321844E+000 
68022572.114 +9.9656039936E-001 -2.9425876722E+000  +3.1799079597E-002 +8.5302034913E+001  +3.1520788933E-002 +8.5907388897E+001  +9.9653755642E-001 -2.9032229676E+000 
72023370.474 +9.9186423076E-001 -2.9875343759E+000  +3.3303988428E-002 +8.5335199510E+001  +3.3268662903E-002 +8.5826039757E+001  +9.9198645219E-001 -2.9391038092E+000 
76024168.834 +9.8740932610E-001 -2.9454092545E+000  +3.4936275322E-002 +8.5378045233E+001  +3.4991860850E-002 +8.5850031790E+001  +9.8772179985E-001 -2.8983708248E+000 
80024967.193 +9.8417911250E-001 -2.8401133843E+000  +3.6581990995E-002 +8.5407329687E+001  +3.6721350654E-002 +8.5941138567E+001  +9.8441004213E-001 -2.8104541156E+000 
84025765.553 +9.8245359052E-001 -2.7302397350E+000  +3.8259397511E-002 +8.5570859667E+001  +3.8475374436E-002 +8.6130990053E+001  +9.8237972466E-001 -2.7011953529E+000 
88026563.913 +9.8143402617E-001 -2.5554600457E+000  +3.9969676131E-002 +8.5821160721E+001  +4.0313294077E-002 +8.6276665342E+001  +9.8161883367E-001 -2.5396077985E+000 
92027362.272 +9.8192890944E-001 -2.4214059800E+000  +4.1830353178E-002 +8.6004592027E+001  +4.2206471159E-002 +8.6240459256E+001  +9.8175022115E-001 -2.4032061343E+000 
96028160.632 +9.8268462103E-001 -2.2891821534E+000  +4.3701244605E-002 +8.6100295657E+001  +4.4050258362E-002 +8.6151591560E+001  +9.8263000295E-001 -2.2839025490E+000 
100028958.992 +9.8547376710E-001 -2.2012343222E+000  +4.5576183799E-002 +8.6267931062E+001  +4.6011309853E-002 +8.6237653293E+001  +9.8518330164E-001 -2.1868732777E+000 
104029757.351 +9.8877367224E-001 -2.1422988963E+000  +4.7498447369E-002 +8.6329646918E+001  +4.7937916150E-002 +8.6202543361E+001  +9.8849252021E-001 -2.1160146438E+000 
108030555.711 +9.9265368031E-001 -2.1194665883E+000  +4.9468235088E-002 +8.6430632499E+001  +4.9912552517E-002 +8.6097984107E+001  +9.9201904099E-001 -2.0996214532E+000 
112031354.071 +9.9678153541E-001 -2.1844794691E+000  +5.1523432353E-002 +8.6460593369E+001  +5.1775244784E-002 +8.5954349148E+001  +9.9643496418E-001 -2.1571291852E+000 
116032152.430 +1.0016689478E+000 -2.2957426493E+000  +5.3624745321E-002 +8.6437779153E+001  +5.3777002996E-002 +8.5791660112E+001  +1.0009400931E+000 -2.2842717393E+000 
120032950.790 +1.0063196186E+000 -2.4973923678E+000  +5.5823652880E-002 +8.6272482458E+001  +5.5818022469E-002 +8.5639949810E+001  +1.0056577490E+000 -2.4420878254E+000 
124033749.150 +1.0105923670E+000 -2.7691553382E+000  +5.7931182274E-002 +8.5854516889E+001  +5.7804674926E-002 +8.5320721267E+001  +1.0098093031E+000 -2.7242500358E+000 
128034547.510 +1.0142035610E+000 -3.1176896149E+000  +6.0125699778E-002 +8.5603590213E+001  +5.9831866582E-002 +8.5022379683E+001  +1.0134647932E+000 -3.0431864130E+000 
132035345.869 +1.0162738851E+000 -3.5285258828E+000  +6.2198741181E-002 +8.5218324944E+001  +6.1868245844E-002 +8.4726053252E+001  +1.0158039437E+000 -3.4441954921E+000 
136036144.229 +1.0169907132E+000 -3.9804087587E+000  +6.4219582317E-002 +8.4663291030E+001  +6.3647334538E-002 +8.4298626355E+001  +1.0165644700E+000 -3.8891573428E+000 
140036942.589 +1.0157928851E+000 -4.4416589896E+000  +6.6046076320E-002 +8.4176378436E+001  +6.5472948356E-002 +8.3837773733E+001  +1.0157499889E+000 -4.3352596671E+000 
144037740.948 +1.0132445262E+000 -4.8653283824E+000  +6.7758576880E-002 +8.3594791541E+001  +6.7137301718E-002 +8.3377192587E+001  +1.0130654309E+000 -4.7500570928E+000 
148038539.308 +1.0086826862E+000 -5.2409847952E+000  +6.9312324243E-002 +8.3098941476E+001  +6.8520371951E-002 +8.3066865935E+001  +1.0087937428E+000 -5.1293362347E+000 
152039337.668 +1.0028481567E+000 -5.5748224477E+000  +7.0680465393E-002 +8.2621726248E+001  +6.9867464305E-002 +8.2829685662E+001  +1.0031446039E+000 -5.4389537350E+000 
156040136.027 +9.9612590761E-001 -5.7628961477E+000  +7.1915247208E-002 +8.2399693083E+001  +7.1222754197E-002 +8.2691922306E+001  +9.9672109156E-001 -5.6349557918E+000 
160040934.387 +9.8954618822E-001 -5.8318284085E+000  +7.3199804597E-002 +8.2304005290E+001  +7.2647716631E-002 +8.2664416005E+001  +9.9022292583E-001 -5.7113501701E+000 
164041732.747 +9.8377958787E-001 -5.8033077053E+000  +7.4402504462E-002 +8.2309249874E+001  +7.4108517977E-002 +8.2756496929E+001  +9.8447854195E-001 -5.7040828449E+000 
168042531.106 +9.7873641301E-001 -5.7087878853E+000  +7.5795825041E-002 +8.2383670984E+001  +7.5575628697E-002 +8.2907201053E+001  +9.7944788030E-001 -5.6050477909E+000 
172043329.466 +9.7543252321E-001 -5.5422380316E+000  +7.7237394294E-002 +8.2553942001E+001  +7.7216287024E-002 +8.3092954164E+001  +9.7607603683E-001 -5.4523894839E+000 
176044127.826 +9.7288932407E-001 -5.3373862018E+000  +7.8724339070E-002 +8.2761153980E+001  +7.8953395193E-002 +8.3265605893E+001  +9.7378157852E-001 -5.2624623959E+000 
180044926.185 +9.7211006072E-001 -5.1278649160E+000  +8.0387574820E-002 +8.2982860504E+001  +8.0738314685E-002 +8.3417732168E+001  +9.7309146379E-001 -5.0528823627E+000 
184045724.545 +9.7276656627E-001 -4.9190291053E+000  +8.2190094118E-002 +8.3189671685E+001  +8.2767189810E-002 +8.3596434534E+001  +9.7357335852E-001 -4.8555346313E+000 
188046522.905 +9.7458675762E-001 -4.7328980413E+000  +8.4077997018E-002 +8.3364534532E+001  +8.4740901684E-002 +8.3670558565E+001  +9.7514156791E-001 -4.6791741778E+000 
192047321.264 +9.7777987659E-001 -4.5859791887E+000  +8.5958159220E-002 +8.3535251093E+001  +8.6786460176E-002 +8.3657201948E+001  +9.7795260659E-001 -4.5355475900E+000 
196048119.624 +9.8157356757E-001 -4.4862853838E+000  +8.8061792024E-002 +8.3682863539E+001  +8.8868418828E-002 +8.3666154231E+001  +9.8160836716E-001 -4.4511462438E+000 
200048917.984 +9.8648915247E-001 -4.4567190491E+000  +9.0195211860E-002 +8.3801438763E+001  +9.1036280273E-002 +8.3615715126E+001  +9.8629074063E-001 -4.4109113234E+000 
204049716.343 +9.9172112599E-001 -4.4785813414E+000  +9.2432537602E-002 +8.3846591282E+001  +9.3232481984E-002 +8.3443512040E+001  +9.9105225053E-001 -4.4319765707E+000 
208050514.703 +9.9732510635E-001 -4.6029807721E+000  +9.4749326005E-002 +8.3756687801E+001  +9.5412170759E-002 +8.3317121774E+001  +9.9660604141E-001 -4.5417263459E+000 
212051313.063 +1.0030636505E+000 -4.7953268858E+000  +9.7162914724E-002 +8.3619493209E+001  +9.7540867513E-002 +8.3145693680E+001  +1.0021592881E+000 -4.7368178100E+000 
216052111.422 +1.0080253146E+000 -5.1115536631E+000  +9.9644159198E-002 +8.3370658385E+001  +9.9746167946E-002 +8.2816169736E+001  +1.0071160228E+000 -5.0152429574E+000 
220052909.782 +1.0125945185E+000 -5.4659453554E+000  +1.0204424158E-001 +8.3000849178E+001  +1.0203208005E-001 +8.2464998366E+001  +1.0112967290E+000 -5.3678480713E+000 
224053708.142 +1.0155493752E+000 -5.9238121632E+000  +1.0445212077E-001 +8.2563861428E+001  +1.0404566529E-001 +8.2057438274E+001  +1.0145162837E+000 -5.8016854768E+000 
228054506.501 +1.0170330984E+000 -6.4331736406E+000  +1.0668833234E-001 +8.2002601829E+001  +1.0597088447E-001 +8.1529099347E+001  +1.0161536982E+000 -6.2864810816E+000 
232055304.861 +1.0162882851E+000 -6.9661777278E+000  +1.0851785600E-001 +8.1412332355E+001  +1.0765942905E-001 +8.1017483514E+001  +1.0155180560E+000 -6.7886058171E+000 
236056103.221 +1.0133023793E+000 -7.4837716638E+000  +1.1020881605E-001 +8.0828782040E+001  +1.0924286073E-001 +8.0501975959E+001  +1.0127313121E+000 -7.3033423678E+000 
240056901.580 +1.0082704981E+000 -7.9564857568E+000  +1.1157847518E-001 +8.0185178150E+001  +1.1039311920E-001 +8.0028020451E+001  +1.0081401343E+000 -7.7656731485E+000 
244057699.940 +1.0016581788E+000 -8.3309331225E+000  +1.1254934230E-001 +7.9756739420E+001  +1.1139296000E-001 +7.9694928933E+001  +1.0019144319E+000 -8.1384497977E+000 
248058498.300 +9.9404761441E-001 -8.5915125211E+000  +1.1332102676E-001 +7.9393189284E+001  +1.1225704225E-001 +7.9492453344E+001  +9.9459080237E-001 -8.3844227183E+000 
252059296.659 +9.8582004233E-001 -8.7172638627E+000  +1.1407932176E-001 +7.9238947215E+001  +1.1314563320E-001 +7.9416595901E+001  +9.8684358222E-001 -8.5228487180E+000 
256060095.019 +9.7839918086E-001 -8.7259147780E+000  +1.1487152849E-001 +7.9181135510E+001  +1.1394436509E-001 +7.9541729423E+001  +9.7930834153E-001 -8.5323430316E+000 
260060893.379 +9.7134391904E-001 -8.6223943248E+000  +1.1576818408E-001 +7.9255370273E+001  +1.1505277060E-001 +7.9721036632E+001  +9.7284892906E-001 -8.4322804761E+000 
264061691.738 +9.6657866946E-001 -8.4032382713E+000  +1.1681104256E-001 +7.9454808932E+001  +1.1639288647E-001 +7.9964733047E+001  +9.6784564851E-001 -8.2509159228E+000 
268062490.098 +9.6301023015E-001 -8.1556730207E+000  +1.1799956695E-001 +7.9710305418E+001  +1.1794134889E-001 +8.0233238680E+001  +9.6437639339E-001 -8.0108774375E+000 
272063288.458 +9.6136326076E-001 -7.8662312619E+000  +1.1950461481E-001 +8.0018701124E+001  +1.1971764466E-001 +8.0537619171E+001  +9.6249675755E-001 -7.7365263685E+000 
276064086.817 +9.6140042470E-001 -7.5733250657E+000  +1.2120427519E-001 +8.0275075437E+001  +1.2164633069E-001 +8.0720822518E+001  +9.6230375238E-001 -7.4755746095E+000 
280064885.177 +9.6283224124E-001 -7.3030752447E+000  +1.2304070263E-001 +8.0527985351E+001  +1.2378626345E-001 +8.0908898255E+001  +9.6372719710E-001 -7.2167650423E+000 
284065683.537 +9.6570044850E-001 -7.0751185015E+000  +1.2504969469E-001 +8.0752009097E+001  +1.2592384101E-001 +8.1036787321E+001  +9.6620631031E-001 -7.0024998380E+000 
288066481.896 +9.6977129554E-001 -6.8982995428E+000  +1.2712346948E-001 +8.0920388389E+001  +1.2828055306E-001 +8.1081540658E+001  +9.7029520481E-001 -6.8261022680E+000 
292067280.256 +9.7502487724E-001 -6.7969324331E+000  +1.2943645354E-001 +8.1073743771E+001  +1.3058520460E-001 +8.1065584999E+001  +9.7490626722E-001 -6.7280360943E+000 
296068078.616 +9.8094431168E-001 -6.7683285630E+000  +1.3185991826E-001 +8.1141800536E+001  +1.3307644971E-001 +8.1011706397E+001  +9.8064304546E-001 -6.7102177936E+000 
300068876.975 +9.8753851220E-001 -6.8215623482E+000  +1.3448398693E-001 +8.1110282510E+001  +1.3557635484E-001 +8.0874185149E+001  +9.8683299782E-001 -6.7482797888E+000 
304069675.335 +9.9411997181E-001 -6.9783744651E+000  +1.3709786001E-001 +8.1077020779E+001  +1.3804801552E-001 +8.0688463677E+001  +9.9330913379E-001 -6.9035555192E+000 
308070473.695 +1.0006450192E+000 -7.2457372200E+000  +1.3995909182E-001 +8.0877506775E+001  +1.4065557723E-001 +8.0431305348E+001  +9.9949864407E-001 -7.1449291489E+000 
312071272.054 +1.0063906729E+000 -7.6156627063E+000  +1.4278749624E-001 +8.0572983812E+001  +1.4301763866E-001 +8.0046695350E+001  +1.0049925239E+000 -7.4871975270E+000 
316072070.414 +1.0108009367E+000 -8.0705633471E+000  +1.4542877736E-001 +8.0140181548E+001  +1.4545226634E-001 +7.9632525911E+001  +1.0095824927E+000 -7.9294051204E+000 
320072868.774 +1.0133535398E+000 -8.6141334590E+000  +1.4794832486E-001 +7.9624804307E+001  +1.4765603384E-001 +7.9090859101E+001  +1.0124674860E+000 -8.4347347669E+000 
324073667.133 +1.0143699533E+000 -9.2019973290E+000  +1.5003305857E-001 +7.8982015042E+001  +1.4948697433E-001 +7.8532426493E+001  +1.0132110435E+000 -9.0002230003E+000 
328074465.493 +1.0126023555E+000 -9.7944971504E+000  +1.5180987118E-001 +7.8347535906E+001  +1.5099111343E-001 +7.7942393108E+001  +1.0119206658E+000 -9.5667412932E+000 
332075263.853 +1.0087745607E+000 -1.0357290557E+001  +1.5320930217E-001 +7.7707649710E+001  +1.5207835208E-001 +7.7355282631E+001  +1.0079991291E+000 -1.0118527916E+001 
336076062.212 +1.0024256475E+000 -1.0855985124E+001  +1.5415126590E-001 +7.7065437278E+001  +1.5276486988E-001 +7.6856654862E+001  +1.0021609154E+000 -1.0608354313E+001 
340076860.572 +9.9448421210E-001 -1.1247061019E+001  +1.5455448146E-001 +7.6579379035E+001  +1.5323570647E-001 +7.6520684948E+001  +9.9450619970E-001 -1.0989233559E+001 
344077658.932 +9.8544189377E-001 -1.1508709300E+001  +1.5490591073E-001 +7.6325158733E+001  +1.5347316247E-001 +7.6270006112E+001  +9.8593807774E-001 -1.1238768540E+001 
348078457.291 +9.7598415371E-001 -1.1591644679E+001  +1.5505349533E-001 +7.6167449401E+001  +1.5375450855E-001 +7.6289477742E+001  +9.7688910201E-001 -1.1334040398E+001 
352079255.651 +9.6709307543E-001 -1.1546176231E+001  +1.5531254012E-001 +7.6227563745E+001  +1.5422475096E-001 +7.6406464941E+001  +9.6837535428E-001 -1.1300697862E+001 
356080054.011 +9.5974238399E-001 -1.1384391575E+001  +1.5574286329E-001 +7.6357897723E+001  +1.5486968339E-001 +7.6690535284E+001  +9.6114763944E-001 -1.1135004535E+001 
360080852.370 +9.5416866499E-001 -1.1107011404E+001  +1.5647025110E-001 +7.6590213583E+001  +1.5584825753E-001 +7.7028080461E+001  +9.5563636730E-001 -1.0889738523E+001 
364081650.730 +9.5036330711E-001 -1.0761008799E+001  +1.5755733472E-001 +7.6961134614E+001  +1.5714945700E-001 +7.7364092825E+001  +9.5195700984E-001 -1.0574766192E+001 
368082449.090 +9.4853708493E-001 -1.0413534471E+001  +1.5886356600E-001 +7.7252626772E+001  +1.5889200253E-001 +7.7708217119E+001  +9.5018764976E-001 -1.0228125912E+001 
372083247.449 +9.4871364073E-001 -1.0053076655E+001  +1.6054406864E-001 +7.7577117098E+001  +1.6085067930E-001 +7.8018612441E+001  +9.5011684583E-001 -9.9025190527E+000 
376084045.809 +9.5073117365E-001 -9.7286473301E+000  +1.6248381961E-001 +7.7852623345E+001  +1.6312657458E-001 +7.8263040535E+001  +9.5194213306E-001 -9.5913990008E+000 
380084844.169 +9.5414983032E-001 -9.4405266491E+000  +1.6467259508E-001 +7.8108607632E+001  +1.6561958285E-001 +7.8429434385E+001  +9.5518686352E-001 -9.3198957431E+000 
384085642.529 +9.5913235510E-001 -9.2222435504E+000  +1.6708341428E-001 +7.8305895033E+001  +1.6815898332E-001 +7.8516246904E+001  +9.5982917705E-001 -9.1222147700E+000 
388086440.888 +9.6516573737E-001 -9.0926682932E+000  +1.6957670861E-001 +7.8480913857E+001  +1.7080217664E-001 +7.8536457446E+001  +9.6546653778E-001 -8.9941721816E+000 
392087239.248 +9.7216447195E-001 -9.0493930272E+000  +1.7232108873E-001 +7.8547155748E+001  +1.7363629030E-001 +7.8506040924E+001  +9.7196044963E-001 -8.9527943129E+000 
396088037.608 +9.7923678990E-001 -9.1176730458E+000  +1.7522547485E-001 +7.8562082564E+001  +1.7651793461E-001 +7.8373470626E+001  +9.7909630876E-001 -9.0176566408E+000 
400088835.967 +9.8718651591E-001 -9.2950239870E+000  +1.7826856446E-001 +7.8457652710E+001  +1.7939974533E-001 +7.8167579592E+001  +9.8633766147E-001 -9.1947557960E+000 
404089634.327 +9.9427972033E-001 -9.5879457263E+000  +1.8152835786E-001 +7.8232058124E+001  +1.8233383464E-001 +7.7893001554E+001  +9.9308521073E-001 -9.4631894509E+000 
408090432.687 +1.0006650542E+000 -9.9848284814E+000  +1.8454045849E-001 +7.7905442616E+001  +1.8519773341E-001 +7.7484214619E+001  +9.9946109049E-001 -9.8491556034E+000 
412091231.046 +1.0059714196E+000 -1.0488764214E+001  +1.8767159255E-001 +7.7440045342E+001  +1.8776411525E-001 +7.7001759140E+001  +1.0043658459E+000 -1.0330708186E+001 
416092029.406 +1.0091504260E+000 -1.1087384846E+001  +1.9037223356E-001 +7.6862338594E+001  +1.9017605307E-001 +7.6404331123E+001  +1.0074400668E+000 -1.0890316286E+001 
420092827.766 +1.0100940766E+000 -1.1755364874E+001  +1.9261041586E-001 +7.6180876925E+001  +1.9214647490E-001 +7.5746670133E+001  +1.0084490980E+000 -1.1518891152E+001 
424093626.125 +1.0080134978E+000 -1.2413745285E+001  +1.9431085952E-001 +7.5483725817E+001  +1.9351280158E-001 +7.5071444648E+001  +1.0068181538E+000 -1.2149220310E+001 
428094424.485 +1.0032836063E+000 -1.3050095329E+001  +1.9530316506E-001 +7.4751013629E+001  +1.9433000258E-001 +7.4426734476E+001  +1.0026020656E+000 -1.2773465534E+001 
432095222.845 +9.9642576223E-001 -1.3604099097E+001  +1.9577676769E-001 +7.4120321753E+001  +1.9453211897E-001 +7.3894413330E+001  +9.9601667680E-001 -1.3289227477E+001 
436096021.204 +9.8726984010E-001 -1.4032898526E+001  +1.9565357257E-001 +7.3604562159E+001  +1.9429570020E-001 +7.3485126814E+001  +9.8707123275E-001 -1.3723586729E+001 
440096819.564 +9.7703640322E-001 -1.4311064556E+001  +1.9530003818E-001 +7.3288244731E+001  +1.9389408125E-001 +7.3278325959E+001  +9.7765438879E-001 -1.3990407513E+001 
444097617.924 +9.6650975895E-001 -1.4417468159E+001  +1.9478821123E-001 +7.3177156040E+001  +1.9351720921E-001 +7.3205628316E+001  +9.6755937751E-001 -1.4095645852E+001 
448098416.283 +9.5684418961E-001 -1.4365449702E+001  +1.9436642100E-001 +7.3184222501E+001  +1.9321443643E-001 +7.3377292115E+001  +9.5811692590E-001 -1.4058758235E+001 
452099214.643 +9.4823952408E-001 -1.4148285818E+001  +1.9434885907E-001 +7.3429194410E+001  +1.9335376818E-001 +7.3657353290E+001  +9.4979174111E-001 -1.3862927722E+001 
456100013.003 +9.4167691230E-001 -1.3847744299E+001  +1.9463349247E-001 +7.3715901287E+001  +1.9386412043E-001 +7.3981707671E+001  +9.4304472868E-001 -1.3579231276E+001 
