!  2-Port S-parameters saved by WinCal
! VAR MeasName=S-Parameters (CALIBRATED_DATA) read from VNA (P5004A)
! VAR MeasDate=24/04/2024 16:21:32
! VAR NAME=Wafer2_r1_c3_pristine 17
! VAR FILENAME=Wafer2_r1_c3_pristine 17.S2P
! VAR DATE=24/04/2024 16:21:32
! VAR PHYS_PORTS=1,2
! VAR ObjTypeName=DATASET
! VAR IndexType=Frequency
!
# Hz S MA R 50
9000.000 +7.8687987467E-001 +1.8095228089E+001  +3.6816911953E-006 +8.1740935297E+001  +6.8618577781E-006 +2.1486524750E+001  +7.9227427722E-001 +1.8004424482E+001 
4009798.360 +9.8795720433E-001 -3.1167323598E+000  +1.8936399226E-003 +8.6010044707E+001  +1.9221715971E-003 +8.6055375250E+001  +9.8751185211E-001 -3.0375090368E+000 
8010596.719 +9.7675637884E-001 -5.8997443292E-001  +3.7229701414E-003 +8.8445468486E+001  +3.7636085052E-003 +8.8300624965E+001  +9.7682506867E-001 -5.9550430508E-001 
12011395.079 +9.7616588251E-001 +8.4623396258E-002  +5.5997293218E-003 +8.9139824203E+001  +5.6397630845E-003 +8.8706550036E+001  +9.7311274017E-001 +3.8229364711E-002 
16012193.439 +9.8811020618E-001 +2.6578180632E-001  +7.5117578919E-003 +8.9275892098E+001  +7.5504061248E-003 +8.8760229472E+001  +9.8575370436E-001 +2.3306113429E-001 
20012991.798 +9.9587928223E-001 +2.5680698113E-001  +9.4409643049E-003 +8.9235562268E+001  +9.4626626389E-003 +8.8651579210E+001  +9.9453029021E-001 +2.7089784061E-001 
24013790.158 +1.0007178477E+000 +2.6640566560E-001  +1.1369678746E-002 +8.9174002301E+001  +1.1361748397E-002 +8.8545738398E+001  +1.0001880689E+000 +1.5228817225E-001 
28014588.518 +1.0045380071E+000 +1.1359824314E-001  +1.3317031413E-002 +8.8998214205E+001  +1.3265000425E-002 +8.8392877416E+001  +1.0034801960E+000 +1.8377553272E-004 
32015386.877 +1.0097501885E+000 -2.2705234171E-001  +1.5266679650E-002 +8.8877914769E+001  +1.5191941214E-002 +8.8346940663E+001  +1.0094527532E+000 -2.7486560223E-001 
36016185.237 +1.0122253040E+000 -4.9374856148E-001  +1.7224103834E-002 +8.8557537936E+001  +1.7117313281E-002 +8.8106556579E+001  +1.0124153254E+000 -5.4506579771E-001 
40016983.597 +1.0137337990E+000 -8.1838599873E-001  +1.9175477218E-002 +8.8173947084E+001  +1.9034673392E-002 +8.7812437110E+001  +1.0139730093E+000 -8.6757615236E-001 
44017781.956 +1.0146738421E+000 -1.2084405759E+000  +2.1118729615E-002 +8.7722313636E+001  +2.0929068436E-002 +8.7486862125E+001  +1.0147198725E+000 -1.2280837417E+000 
48018580.316 +1.0149026244E+000 -1.5705506181E+000  +2.3038894421E-002 +8.7210309811E+001  +2.2825681871E-002 +8.7126638078E+001  +1.0154714205E+000 -1.5782901054E+000 
52019378.676 +1.0223796825E+000 -2.1410675804E+000  +2.4968242795E-002 +8.6878673591E+001  +2.4706735239E-002 +8.6886180748E+001  +1.0224657876E+000 -2.1013259093E+000 
56020177.035 +1.0216400621E+000 -2.4912676625E+000  +2.6748114366E-002 +8.6340268313E+001  +2.6497119427E-002 +8.6478217720E+001  +1.0218264816E+000 -2.4133645600E+000 
60020975.395 +1.0196170401E+000 -2.7951072679E+000  +2.8455481052E-002 +8.5933968957E+001  +2.8238900398E-002 +8.6217085658E+001  +1.0213029323E+000 -2.6250161455E+000 
64021773.755 +1.0117525974E+000 -2.8778811597E+000  +3.0092808670E-002 +8.5596163200E+001  +2.9931117100E-002 +8.6064384975E+001  +1.0152167038E+000 -2.6939741543E+000 
68022572.114 +9.8890175788E-001 -2.6901797278E+000  +3.1436562958E-002 +8.4875396539E+001  +3.1451931655E-002 +8.5691660950E+001  +1.0000179142E+000 -2.6175021395E+000 
72023370.474 +9.4978234417E-001 -2.4580389037E+000  +3.2467217742E-002 +8.4039957295E+001  +3.2690565959E-002 +8.5095581336E+001  +9.6906762799E-001 -2.4937433358E+000 
76024168.834 +9.0057792812E-001 -2.3926625678E+000  +3.3336598568E-002 +8.3545784425E+001  +3.3555606093E-002 +8.4401880277E+001  +9.1316126589E-001 -2.3484780585E+000 
80024967.193 +8.5299086214E-001 -2.5001118107E+000  +3.4132711305E-002 +8.3404879193E+001  +3.4062163527E-002 +8.3752960821E+001  +8.4405714918E-001 -2.3836704391E+000 
84025765.553 +8.0402277519E-001 -2.0642605711E+000  +3.4770932320E-002 +8.3774892262E+001  +3.5150248959E-002 +8.4411031808E+001  +8.1372293545E-001 -2.1507747013E+000 
88026563.913 +7.7672807225E-001 -2.0582760688E+000  +3.5941109667E-002 +8.4710192728E+001  +3.6742093947E-002 +8.5377512581E+001  +8.0148131849E-001 -2.1684629706E+000 
92027362.272 +7.5718264817E-001 -2.7978483448E+000  +3.7276738704E-002 +8.5231683558E+001  +3.8269927472E-002 +8.5717120818E+001  +7.8650974070E-001 -2.7468083728E+000 
96028160.632 +7.4438066613E-001 -3.6087392456E+000  +3.8671575776E-002 +8.5708293123E+001  +3.9922694263E-002 +8.5988720241E+001  +7.8076595530E-001 -3.3136796348E+000 
100028958.992 +7.4539065176E-001 -4.6106692431E+000  +4.0358898644E-002 +8.6243984573E+001  +4.1691466783E-002 +8.6279066926E+001  +7.8130277175E-001 -4.0377774214E+000 
104029757.351 +7.6281957269E-001 -5.1157060828E+000  +4.2319626365E-002 +8.6841364324E+001  +4.3707876580E-002 +8.6617738840E+001  +7.9737340177E-001 -4.3788683056E+000 
108030555.711 +7.9042168432E-001 -5.0840134858E+000  +4.4539240471E-002 +8.7507377621E+001  +4.5895345582E-002 +8.6997870508E+001  +8.2155656114E-001 -4.3723173895E+000 
112031354.071 +8.0980580867E-001 -4.4676869721E+000  +4.6819337292E-002 +8.8495925726E+001  +4.8068095359E-002 +8.7719865899E+001  +8.3756872307E-001 -3.8109634885E+000 
116032152.430 +8.4296324224E-001 -3.1610646948E+000  +4.9770555661E-002 +8.9293108357E+001  +5.0785074958E-002 +8.8202017373E+001  +8.6658511100E-001 -2.9426427449E+000 
120032950.790 +9.0892016611E-001 -2.8702331954E+000  +5.3375626239E-002 +8.8652110815E+001  +5.3992429373E-002 +8.7707164736E+001  +9.2140490768E-001 -2.8500620273E+000 
124033749.150 +9.6916539337E-001 -2.9435537568E+000  +5.6870308432E-002 +8.7532100473E+001  +5.7180263329E-002 +8.6790716924E+001  +9.7463610861E-001 -2.9844339947E+000 
128034547.510 +1.0112991642E+000 -3.0830008560E+000  +5.9976418649E-002 +8.6353260004E+001  +6.0069466605E-002 +8.5800620559E+001  +1.0122460782E+000 -3.1003650902E+000 
132035345.869 +1.0287549179E+000 -3.2412210748E+000  +6.2506931503E-002 +8.5417438226E+001  +6.2382001081E-002 +8.5121722355E+001  +1.0247250811E+000 -3.3026899146E+000 
136036144.229 +1.0288190922E+000 -3.5281294535E+000  +6.4561343899E-002 +8.4846455449E+001  +6.4325755723E-002 +8.4677538800E+001  +1.0231949295E+000 -3.6716044306E+000 
140036942.589 +1.0251693280E+000 -3.9684606897E+000  +6.6470355375E-002 +8.4293773543E+001  +6.6085536182E-002 +8.4257869431E+001  +1.0189867525E+000 -4.1657130316E+000 
144037740.948 +1.0211237949E+000 -4.4648846607E+000  +6.8149429348E-002 +8.3729393797E+001  +6.7702611265E-002 +8.3800986005E+001  +1.0153399157E+000 -4.6733405972E+000 
148038539.308 +1.0168265311E+000 -4.9392752970E+000  +6.9688928240E-002 +8.3220903438E+001  +6.9221381392E-002 +8.3440761065E+001  +1.0109219907E+000 -5.1296795658E+000 
152039337.668 +1.0124296574E+000 -5.2926122477E+000  +7.1089083656E-002 +8.2794904711E+001  +7.0673697820E-002 +8.3128731313E+001  +1.0058640438E+000 -5.4365969291E+000 
156040136.027 +1.0064578441E+000 -5.4059074557E+000  +7.2389001624E-002 +8.2522280833E+001  +7.2058060518E-002 +8.2991182494E+001  +9.9952378949E-001 -5.5393337091E+000 
160040934.387 +9.9859474705E-001 -5.3731333564E+000  +7.3598624454E-002 +8.2385753362E+001  +7.3364984978E-002 +8.2971532899E+001  +9.9014618564E-001 -5.6113516696E+000 
164041732.747 +9.8610216502E-001 -5.2219754701E+000  +7.4764540890E-002 +8.2262645338E+001  +7.4734440016E-002 +8.3018842506E+001  +9.7999208548E-001 -5.6004287905E+000 
168042531.106 +9.5291418517E-001 -5.0755767692E+000  +7.5266813741E-002 +8.1715778479E+001  +7.5763773129E-002 +8.2863570456E+001  +9.6002484133E-001 -5.5595373296E+000 
172043329.466 +8.9907598624E-001 -4.9364409404E+000  +7.4988181237E-002 +8.0920809764E+001  +7.6108673945E-002 +8.2344902191E+001  +9.2085272695E-001 -5.4909143676E+000 
176044127.826 +8.3634282040E-001 -4.8006679079E+000  +7.4208172416E-002 +8.0234899193E+001  +7.5929943174E-002 +8.1796234402E+001  +8.6825894842E-001 -5.2864732979E+000 
180044926.185 +7.8252889293E-001 -4.1961820536E+000  +7.3565257819E-002 +8.0263587651E+001  +7.5813147458E-002 +8.1649390565E+001  +8.1780777249E-001 -4.7365413800E+000 
184045724.545 +7.6856739294E-001 -2.8958704056E+000  +7.4310332036E-002 +8.1520594317E+001  +7.6565348389E-002 +8.2364701954E+001  +7.9569040315E-001 -3.5005842314E+000 
188046522.905 +7.5147237655E-001 -2.9463861099E+000  +7.5457733966E-002 +8.2189755948E+001  +7.8095724532E-002 +8.3020989457E+001  +7.8514274829E-001 -3.0689390680E+000 
192047321.264 +7.3595859405E-001 -3.3899593046E+000  +7.6755462468E-002 +8.2753207931E+001  +7.9606547951E-002 +8.3285901865E+001  +7.7051150898E-001 -3.4205799106E+000 
196048119.624 +7.3174088960E-001 -4.3907955806E+000  +7.8358781260E-002 +8.3239690456E+001  +8.1376597711E-002 +8.3472223012E+001  +7.6724893436E-001 -4.2319825034E+000 
200048917.984 +7.4375417435E-001 -5.5139532479E+000  +8.0472943567E-002 +8.3684329628E+001  +8.3479460943E-002 +8.3639634238E+001  +7.7836610227E-001 -5.1440938677E+000 
204049716.343 +7.6999096546E-001 -6.2014829972E+000  +8.3134819665E-002 +8.4262493402E+001  +8.5682647378E-002 +8.3918036004E+001  +7.9704823462E-001 -5.8035159786E+000 
208050514.703 +8.0449489968E-001 -6.5222684085E+000  +8.6201939242E-002 +8.4788067563E+001  +8.8227393182E-002 +8.4248886342E+001  +8.2417760495E-001 -6.0308698123E+000 
212051313.063 +8.3201449387E-001 -5.8674105522E+000  +8.9489788581E-002 +8.5654281775E+001  +9.1254188873E-002 +8.4818547080E+001  +8.5303798643E-001 -5.3874425173E+000 
216052111.422 +8.8549983624E-001 -5.6284320227E+000  +9.4111727834E-002 +8.5608093326E+001  +9.5355314223E-002 +8.4575603944E+001  +9.0631456530E-001 -5.1988239279E+000 
220052909.782 +9.4870480634E-001 -5.8138265370E+000  +9.9080770629E-002 +8.4622196197E+001  +9.9754811764E-002 +8.3693286450E+001  +9.6616591061E-001 -5.3477088690E+000 
224053708.142 +9.9507460565E-001 -5.9690550461E+000  +1.0350094290E-001 +8.3379287274E+001  +1.0364301855E-001 +8.2583827688E+001  +1.0088483507E+000 -5.5548344186E+000 
228054506.501 +1.0173037385E+000 -6.1873047102E+000  +1.0685635990E-001 +8.2200111541E+001  +1.0640339928E-001 +8.1673667707E+001  +1.0252472832E+000 -5.9107282261E+000 
232055304.861 +1.0186365592E+000 -6.6378961499E+000  +1.0906083903E-001 +8.1411208387E+001  +1.0824658762E-001 +8.1068431292E+001  +1.0246909478E+000 -6.4252683908E+000 
236056103.221 +1.0139903694E+000 -7.2296935114E+000  +1.1071020159E-001 +8.0774374826E+001  +1.0966783259E-001 +8.0536056209E+001  +1.0206009854E+000 -6.9890665113E+000 
240056901.580 +1.0081953877E+000 -7.8104303960E+000  +1.1202487337E-001 +8.0176717664E+001  +1.1084964166E-001 +8.0066841694E+001  +1.0153020340E+000 -7.5273641811E+000 
244057699.940 +1.0016430803E+000 -8.2744878987E+000  +1.1304384325E-001 +7.9699963263E+001  +1.1183042318E-001 +7.9721439992E+001  +1.0093001889E+000 -7.9668933800E+000 
248058498.300 +9.9447053083E-001 -8.5629087522E+000  +1.1386726589E-001 +7.9355549646E+001  +1.1268682427E-001 +7.9517867207E+001  +1.0027660965E+000 -8.2614610866E+000 
252059296.659 +9.8606179549E-001 -8.6759673450E+000  +1.1459645756E-001 +7.9149807687E+001  +1.1347953962E-001 +7.9451599420E+001  +9.9678404687E-001 -8.4330438983E+000 
256060095.019 +9.7740264812E-001 -8.6500785483E+000  +1.1535874382E-001 +7.9087602827E+001  +1.1440705023E-001 +7.9530226509E+001  +9.9105730940E-001 -8.4750956690E+000 
260060893.379 +9.6811163220E-001 -8.5475570745E+000  +1.1615683338E-001 +7.9135739310E+001  +1.1544021485E-001 +7.9706492984E+001  +9.8702244644E-001 -8.4156437562E+000 
264061691.738 +9.5348604894E-001 -8.3677856919E+000  +1.1673068905E-001 +7.9023350666E+001  +1.1656432417E-001 +7.9848152509E+001  +9.8015863289E-001 -8.2582772537E+000 
268062490.098 +9.2084964965E-001 -8.1196652003E+000  +1.1633557147E-001 +7.8477594903E+001  +1.1709949003E-001 +7.9662848666E+001  +9.5747374368E-001 -7.9792286393E+000 
272063288.458 +8.7212098883E-001 -7.7670614141E+000  +1.1516923383E-001 +7.7890019325E+001  +1.1679984560E-001 +7.9187133411E+001  +9.1241449001E-001 -7.6445410755E+000 
276064086.817 +8.1914656844E-001 -7.3671598377E+000  +1.1388863264E-001 +7.7632492911E+001  +1.1620260962E-001 +7.8832193281E+001  +8.5833051774E-001 -7.3577410873E+000 
280064885.177 +7.8086874575E-001 -6.5065165161E+000  +1.1325915291E-001 +7.8156797819E+001  +1.1586140694E-001 +7.8968502678E+001  +8.1301429306E-001 -6.7933313684E+000 
284065683.537 +7.7091996915E-001 -5.3908025393E+000  +1.1419389186E-001 +7.9324516093E+001  +1.1678569177E-001 +7.9769064559E+001  +7.9534290135E-001 -5.8498679861E+000 
288066481.896 +7.5980698961E-001 -5.5497781916E+000  +1.1565187322E-001 +8.0016050133E+001  +1.1839665085E-001 +8.0282931438E+001  +7.8308711390E-001 -5.8458782423E+000 
292067280.256 +7.5479453014E-001 -6.1645602736E+000  +1.1742132167E-001 +8.0591923958E+001  +1.2017455751E-001 +8.0605286555E+001  +7.7565218257E-001 -6.4127205301E+000 
296068078.616 +7.6262670348E-001 -7.1456835687E+000  +1.1985900467E-001 +8.1055468346E+001  +1.2248946769E-001 +8.0863651893E+001  +7.8114971999E-001 -7.2844680255E+000 
300068876.975 +7.7882880501E-001 -8.0940358633E+000  +1.2258867014E-001 +8.1451171612E+001  +1.2513607399E-001 +8.1091124513E+001  +7.9616743202E-001 -8.0848332313E+000 
304069675.335 +8.0810078891E-001 -8.6244421672E+000  +1.2601435207E-001 +8.1836187203E+001  +1.2837994487E-001 +8.1299862757E+001  +8.2424833423E-001 -8.5065622139E+000 
308070473.695 +8.3943276563E-001 -8.5448691762E+000  +1.2987184157E-001 +8.2260976004E+001  +1.3198109491E-001 +8.1560225379E+001  +8.5397751522E-001 -8.3523432853E+000 
312071272.054 +8.8277972660E-001 -8.2006005044E+000  +1.3494932797E-001 +8.2382825624E+001  +1.3668625437E-001 +8.1499690851E+001  +8.9682049682E-001 -8.0893889972E+000 
316072070.414 +9.4144679641E-001 -8.3863140173E+000  +1.4098956049E-001 +8.1597313536E+001  +1.4217160609E-001 +8.0742022085E+001  +9.5071415404E-001 -8.2869388570E+000 
320072868.774 +9.8907526215E-001 -8.6978924687E+000  +1.4648225443E-001 +8.0407897426E+001  +1.4702669775E-001 +7.9672086491E+001  +9.9303349340E-001 -8.5950983407E+000 
324073667.133 +1.0131864907E+000 -9.0963089581E+000  +1.5047494539E-001 +7.9266858897E+001  +1.5039801141E-001 +7.8726403562E+001  +1.0120254054E+000 -9.0020391743E+000 
328074465.493 +1.0163284486E+000 -9.6176761400E+000  +1.5284939938E-001 +7.8437208495E+001  +1.5230260615E-001 +7.8041953278E+001  +1.0139105960E+000 -9.4910361534E+000 
332075263.853 +1.0119883511E+000 -1.0190061019E+001  +1.5426941516E-001 +7.7760715187E+001  +1.5349176795E-001 +7.7469699374E+001  +1.0096602720E+000 -1.0008773547E+001 
336076062.212 +1.0051411108E+000 -1.0716364887E+001  +1.5519552584E-001 +7.7169689889E+001  +1.5421624632E-001 +7.6981117379E+001  +1.0030320833E+000 -1.0489795152E+001 
340076860.572 +9.9689146814E-001 -1.1159844122E+001  +1.5568667754E-001 +7.6685916435E+001  +1.5465405470E-001 +7.6631621863E+001  +9.9500669623E-001 -1.0893120086E+001 
344077658.932 +9.8808838573E-001 -1.1469963409E+001  +1.5601844783E-001 +7.6355545110E+001  +1.5494486269E-001 +7.6400765561E+001  +9.8638103078E-001 -1.1181190782E+001 
348078457.291 +9.7920865572E-001 -1.1602397748E+001  +1.5613205063E-001 +7.6206373935E+001  +1.5516143250E-001 +7.6367801245E+001  +9.7770478902E-001 -1.1309007344E+001 
352079255.651 +9.7096786034E-001 -1.1584010917E+001  +1.5634344921E-001 +7.6213256302E+001  +1.5553516910E-001 +7.6473440966E+001  +9.6971005258E-001 -1.1292182799E+001 
356080054.011 +9.6385874868E-001 -1.1429793916E+001  +1.5674755089E-001 +7.6355374042E+001  +1.5616660532E-001 +7.6702788372E+001  +9.6303488294E-001 -1.1125592379E+001 
360080852.370 +9.5721072498E-001 -1.1167194983E+001  +1.5743179643E-001 +7.6565076783E+001  +1.5713353621E-001 +7.7002703486E+001  +9.5734027692E-001 -1.0858975349E+001 
364081650.730 +9.4358748873E-001 -1.0788301101E+001  +1.5782985769E-001 +7.6562855568E+001  +1.5813557558E-001 +7.7200503071E+001  +9.4813107424E-001 -1.0511490141E+001 
368082449.090 +9.0928389392E-001 -1.0369536775E+001  +1.5701934907E-001 +7.6084407154E+001  +1.5829253710E-001 +7.6965665424E+001  +9.2206671583E-001 -1.0139609836E+001 
372083247.449 +8.6001186852E-001 -9.9760505856E+000  +1.5525013666E-001 +7.5553460314E+001  +1.5743814155E-001 +7.6513634196E+001  +8.7984483650E-001 -9.8605601895E+000 
376084045.809 +8.1045666573E-001 -9.5670653374E+000  +1.5342681449E-001 +7.5390373873E+001  +1.5627633632E-001 +7.6240451284E+001  +8.3420338455E-001 -9.6002298082E+000 
380084844.169 +7.7972379982E-001 -8.6781488317E+000  +1.5253633676E-001 +7.6024933004E+001  +1.5571362542E-001 +7.6573979567E+001  +8.0303901511E-001 -9.0063860957E+000 
384085642.529 +7.6968716068E-001 -7.8061337800E+000  +1.5335274707E-001 +7.7049975151E+001  +1.5666314214E-001 +7.7334719337E+001  +7.9276179490E-001 -8.3195040934E+000 
388086440.888 +7.5894840444E-001 -8.0124457597E+000  +1.5464680828E-001 +7.7689051418E+001  +1.5825071608E-001 +7.7788644501E+001  +7.8433871045E-001 -8.4505596937E+000 
392087239.248 +7.5798701165E-001 -8.6647096044E+000  +1.5671336444E-001 +7.8239888627E+001  +1.6031552499E-001 +7.8125707247E+001  +7.8380367114E-001 -8.9729326350E+000 
396088037.608 +7.6946312590E-001 -9.6573847912E+000  +1.5960636683E-001 +7.8666728266E+001  +1.6306657409E-001 +7.8368869156E+001  +7.9529999481E-001 -9.7642767743E+000 
400088835.967 +7.9316442328E-001 -1.0532234535E+001  +1.6331516282E-001 +7.9006004244E+001  +1.6657957469E-001 +7.8545721662E+001  +8.1740699061E-001 -1.0460207341E+001 
404089634.327 +8.2464225548E-001 -1.1012919985E+001  +1.6782601975E-001 +7.9271153895E+001  +1.7072072441E-001 +7.8672609958E+001  +8.4667123002E-001 -1.0815322003E+001 
408090432.687 +8.5751680179E-001 -1.0935855267E+001  +1.7289566844E-001 +7.9520412834E+001  +1.7559693151E-001 +7.8733010227E+001  +8.7965164712E-001 -1.0759670157E+001 
412091231.046 +9.0661529456E-001 -1.1021679887E+001  +1.7960182714E-001 +7.9145287693E+001  +1.8178688553E-001 +7.8226605354E+001  +9.2733859819E-001 -1.0911693238E+001 
416092029.406 +9.5968947978E-001 -1.1433608852E+001  +1.8658006692E-001 +7.8024529609E+001  +1.8799952587E-001 +7.7187500678E+001  +9.7505327819E-001 -1.1302088868E+001 
420092827.766 +9.9477481201E-001 -1.1883414557E+001  +1.9202049045E-001 +7.6756156128E+001  +1.9253362222E-001 +7.6094449642E+001  +1.0036011980E+000 -1.1730389958E+001 
424093626.125 +1.0077500777E+000 -1.2361502695E+001  +1.9529949339E-001 +7.5657510439E+001  +1.9483410865E-001 +7.5257709276E+001  +1.0102465585E+000 -1.2200750224E+001 
428094424.485 +1.0048646590E+000 -1.2907330340E+001  +1.9669295058E-001 +7.4854350545E+001  +1.9581626725E-001 +7.4595900876E+001  +1.0057535287E+000 -1.2727853814E+001 
432095222.845 +9.9713444810E-001 -1.3420790533E+001  +1.9720171791E-001 +7.4246339997E+001  +1.9610291616E-001 +7.4087700707E+001  +9.9782359160E-001 -1.3206955890E+001 
436096021.204 +9.8730421405E-001 -1.3859373457E+001  +1.9712702360E-001 +7.3741685723E+001  +1.9592107570E-001 +7.3678336639E+001  +9.8807200586E-001 -1.3636159658E+001 
440096819.564 +9.7679079177E-001 -1.4178743737E+001  +1.9675405523E-001 +7.3416763708E+001  +1.9546173777E-001 +7.3442275048E+001  +9.7804139902E-001 -1.3948393353E+001 
444097617.924 +9.6650417905E-001 -1.4336401321E+001  +1.9623692771E-001 +7.3270369900E+001  +1.9505079491E-001 +7.3372429895E+001  +9.6810071169E-001 -1.4110899192E+001 
448098416.283 +9.5729734949E-001 -1.4310665961E+001  +1.9579034631E-001 +7.3278522938E+001  +1.9483072419E-001 +7.3495309884E+001  +9.5927491579E-001 -1.4101984535E+001 
452099214.643 +9.4930084709E-001 -1.4094006788E+001  +1.9554267257E-001 +7.3474982655E+001  +1.9484270053E-001 +7.3764862693E+001  +9.5163458788E-001 -1.3910570314E+001 
456100013.003 +9.4228865787E-001 -1.3752053650E+001  +1.9580658196E-001 +7.3750949090E+001  +1.9537340027E-001 +7.4095880679E+001  +9.4512993342E-001 -1.3605783863E+001 
