!  2-Port S-parameters saved by WinCal
! VAR MeasName=S-Parameters (CALIBRATED_DATA) read from VNA (P5004A)
! VAR MeasDate=24/04/2024 16:00:33
! VAR NAME=Wafer2_r1_c3_pristine 9
! VAR FILENAME=Wafer2_r1_c3_pristine 9.S2P
! VAR DATE=24/04/2024 16:00:33
! VAR PHYS_PORTS=1,2
! VAR ObjTypeName=DATASET
! VAR IndexType=Frequency
!
# Hz S MA R 50
9000.000 +8.0005233403E-001 +1.7282462388E+001  +5.7429137452E-005 +1.6158362420E+002  +8.6987146806E-005 +2.7798830866E+001  +7.9911295529E-001 +1.7299549384E+001 
4009798.360 +9.8732338612E-001 -3.1301285399E+000  +1.8869150169E-003 +8.6123914898E+001  +1.9120103936E-003 +8.6362574623E+001  +9.8700286205E-001 -3.0573962142E+000 
8010596.719 +9.7596348594E-001 -6.3076161951E-001  +3.7098947673E-003 +8.8579795341E+001  +3.7404668329E-003 +8.8361112684E+001  +9.7676141864E-001 -6.0623552218E-001 
12011395.079 +9.8351223751E-001 -9.9191898642E-003  +5.5898739178E-003 +8.9188219262E+001  +5.6326205932E-003 +8.8866825097E+001  +9.8398959738E-001 -2.5938854670E-003 
16012193.439 +9.8964006657E-001 +1.7692510999E-001  +7.4736429739E-003 +8.9304604036E+001  +7.5154371881E-003 +8.8775191955E+001  +9.8976689347E-001 +1.7780817417E-001 
20012991.798 +9.9462943648E-001 +2.0508202607E-001  +9.3678717516E-003 +8.9350789586E+001  +9.3859036921E-003 +8.8750768972E+001  +9.9483258571E-001 +1.9949780308E-001 
24013790.158 +9.9944816844E-001 +1.2639847070E-001  +1.1296490107E-002 +8.9307908150E+001  +1.1275510061E-002 +8.8645346749E+001  +9.9954086195E-001 +1.2188101367E-001 
28014588.518 +1.0035616909E+000 -3.5642754515E-002  +1.3237142844E-002 +8.9225690069E+001  +1.3177694974E-002 +8.8611569099E+001  +1.0035804867E+000 -1.5287575643E-002 
32015386.877 +1.0077317233E+000 -2.4037824653E-001  +1.5177417640E-002 +8.8961644848E+001  +1.5118727336E-002 +8.8409429026E+001  +1.0076761166E+000 -2.1394970421E-001 
36016185.237 +1.0107228986E+000 -4.9404494113E-001  +1.7135640777E-002 +8.8596713270E+001  +1.7197547018E-002 +8.7942443967E+001  +1.0108930273E+000 -4.8860024273E-001 
40016983.597 +1.0126755291E+000 -8.1909120491E-001  +1.9084863420E-002 +8.8294108603E+001  +1.9060402370E-002 +8.7810960018E+001  +1.0125789838E+000 -8.1871479354E-001 
44017781.956 +1.0139559277E+000 -1.1845809352E+000  +2.1171956132E-002 +8.7647910884E+001  +2.0986986095E-002 +8.7524321370E+001  +1.0139368824E+000 -1.1748536875E+000 
48018580.316 +1.0143147842E+000 -1.5618516972E+000  +2.3076486828E-002 +8.7274391054E+001  +2.2821371972E-002 +8.7061965799E+001  +1.0143924646E+000 -1.5327734482E+000 
52019378.676 +1.0128675030E+000 -1.9518034311E+000  +2.4914523524E-002 +8.6608380630E+001  +2.4657352920E-002 +8.6651348142E+001  +1.0125242612E+000 -1.9078036759E+000 
56020177.035 +1.0102107659E+000 -2.2793885388E+000  +2.6790814705E-002 +8.6414930381E+001  +2.6464853545E-002 +8.6468181400E+001  +1.0102365847E+000 -2.2434775889E+000 
60020975.395 +1.0063671196E+000 -2.6035585507E+000  +2.8441256879E-002 +8.5854637649E+001  +2.8208754999E-002 +8.6203743970E+001  +1.0062613782E+000 -2.5540604002E+000 
64021773.755 +1.0015308990E+000 -2.8075194788E+000  +3.0057654386E-002 +8.5637584707E+001  +2.9911584795E-002 +8.6088349291E+001  +1.0016415137E+000 -2.7596084328E+000 
68022572.114 +9.9647793617E-001 -2.9422085477E+000  +3.1852829554E-002 +8.5444426088E+001  +3.1598897905E-002 +8.5912621336E+001  +9.9635480874E-001 -2.8973930208E+000 
72023370.474 +9.9186582057E-001 -2.9910756379E+000  +3.3447341876E-002 +8.5373912445E+001  +3.3291551367E-002 +8.5962348123E+001  +9.9175525049E-001 -2.9468959838E+000 
76024168.834 +9.8745904088E-001 -2.9532046463E+000  +3.5040925049E-002 +8.5462083820E+001  +3.5083619415E-002 +8.5985169187E+001  +9.8763707875E-001 -2.9077540436E+000 
80024967.193 +9.8414368228E-001 -2.8458720292E+000  +3.6688920401E-002 +8.5485851671E+001  +3.6806533466E-002 +8.6003079077E+001  +9.8440854948E-001 -2.8192130222E+000 
84025765.553 +9.8235300195E-001 -2.7279266198E+000  +3.8376771674E-002 +8.5722584669E+001  +3.8605853737E-002 +8.6214696488E+001  +9.8238748493E-001 -2.7118738849E+000 
88026563.913 +9.8139188712E-001 -2.5469173263E+000  +4.0172934122E-002 +8.5916478081E+001  +4.0489139801E-002 +8.6283279703E+001  +9.8136803250E-001 -2.5456782369E+000 
92027362.272 +9.8183805006E-001 -2.4166257223E+000  +4.1896467951E-002 +8.5988216856E+001  +4.2310857109E-002 +8.6220999349E+001  +9.8180989075E-001 -2.4185211032E+000 
96028160.632 +9.8273171191E-001 -2.2846033337E+000  +4.3741695667E-002 +8.6136382754E+001  +4.4226859395E-002 +8.6309489765E+001  +9.8274057136E-001 -2.2890030642E+000 
100028958.992 +9.8557663564E-001 -2.1903432645E+000  +4.5653730127E-002 +8.6225858999E+001  +4.6139115055E-002 +8.6286865896E+001  +9.8531807160E-001 -2.2003128367E+000 
104029757.351 +9.8869624535E-001 -2.1262439166E+000  +4.7668547030E-002 +8.6512993573E+001  +4.8047511972E-002 +8.6265183193E+001  +9.8838883439E-001 -2.1199998622E+000 
108030555.711 +9.9257525806E-001 -2.1080106097E+000  +4.9653357383E-002 +8.6523393675E+001  +4.9984831254E-002 +8.6163530327E+001  +9.9217462395E-001 -2.1062341497E+000 
112031354.071 +9.9688654151E-001 -2.1671938033E+000  +5.1682075936E-002 +8.6483322241E+001  +5.1973659068E-002 +8.5996319692E+001  +9.9644147772E-001 -2.1606957108E+000 
116032152.430 +1.0015873946E+000 -2.2759833603E+000  +5.3781848988E-002 +8.6518555414E+001  +5.3975913068E-002 +8.5864577404E+001  +1.0007776449E+000 -2.2712844043E+000 
120032950.790 +1.0060800081E+000 -2.4847264326E+000  +5.5940137722E-002 +8.6324223913E+001  +5.6008871964E-002 +8.5693437042E+001  +1.0055239731E+000 -2.4436537095E+000 
124033749.150 +1.0104895362E+000 -2.7574341120E+000  +5.8159484317E-002 +8.6068106267E+001  +5.7971181947E-002 +8.5445161456E+001  +1.0098274277E+000 -2.7216686130E+000 
128034547.510 +1.0141549084E+000 -3.0891366244E+000  +6.0265189411E-002 +8.5743506180E+001  +6.0110474232E-002 +8.5160776139E+001  +1.0133257996E+000 -3.0498677211E+000 
132035345.869 +1.0160223641E+000 -3.5012324034E+000  +6.2436741383E-002 +8.5279478067E+001  +6.1992739983E-002 +8.4815236847E+001  +1.0156606949E+000 -3.4395482334E+000 
136036144.229 +1.0168649612E+000 -3.9644747457E+000  +6.4391543170E-002 +8.4757121899E+001  +6.3977826550E-002 +8.4358009151E+001  +1.0166459117E+000 -3.8857494229E+000 
140036942.589 +1.0158835123E+000 -4.4260003931E+000  +6.6268435346E-002 +8.4174633159E+001  +6.5630248403E-002 +8.3928084215E+001  +1.0156312327E+000 -4.3331819339E+000 
144037740.948 +1.0130154978E+000 -4.8590196905E+000  +6.8014682771E-002 +8.3660707740E+001  +6.7223188693E-002 +8.3475171691E+001  +1.0128540048E+000 -4.7644103152E+000 
148038539.308 +1.0084883130E+000 -5.2347749813E+000  +6.9495869762E-002 +8.3220003820E+001  +6.8793147500E-002 +8.3204106539E+001  +1.0087060673E+000 -5.1419288438E+000 
152039337.668 +1.0028387455E+000 -5.5586686923E+000  +7.0936601743E-002 +8.2770340150E+001  +7.0200838860E-002 +8.2897830557E+001  +1.0028389447E+000 -5.4593219261E+000 
156040136.027 +9.9608003673E-001 -5.7561077544E+000  +7.2185172887E-002 +8.2552367336E+001  +7.1595252651E-002 +8.2696434994E+001  +9.9649373718E-001 -5.6495980658E+000 
160040934.387 +9.8953643844E-001 -5.8320074887E+000  +7.3414081174E-002 +8.2333559016E+001  +7.2865656064E-002 +8.2781062385E+001  +9.9013926762E-001 -5.7283221016E+000 
164041732.747 +9.8382349835E-001 -5.7967098348E+000  +7.4749702502E-002 +8.2392961395E+001  +7.4293043466E-002 +8.2815296994E+001  +9.8437560212E-001 -5.7283782686E+000 
168042531.106 +9.7857920118E-001 -5.7050855305E+000  +7.6030853935E-002 +8.2409566439E+001  +7.5792040932E-002 +8.3001883485E+001  +9.7951486191E-001 -5.6262612986E+000 
172043329.466 +9.7534885346E-001 -5.5297095869E+000  +7.7451815191E-002 +8.2672632655E+001  +7.7437289144E-002 +8.3193656020E+001  +9.7594971870E-001 -5.4769833259E+000 
176044127.826 +9.7287208797E-001 -5.3205319053E+000  +7.8983440203E-002 +8.2814632823E+001  +7.9196894924E-002 +8.3409936945E+001  +9.7385689554E-001 -5.2745032841E+000 
180044926.185 +9.7239840340E-001 -5.1197728975E+000  +8.0630502269E-002 +8.3064287067E+001  +8.1015610349E-002 +8.3605193253E+001  +9.7314260618E-001 -5.0650877918E+000 
184045724.545 +9.7313577568E-001 -4.9127834957E+000  +8.2448431019E-002 +8.3332330938E+001  +8.2961055715E-002 +8.3693410967E+001  +9.7356260712E-001 -4.8674665409E+000 
188046522.905 +9.7494064310E-001 -4.7258441625E+000  +8.4328499440E-002 +8.3518565342E+001  +8.5060778947E-002 +8.3798977294E+001  +9.7525719552E-001 -4.6927810115E+000 
192047321.264 +9.7801495105E-001 -4.5699349741E+000  +8.6279015536E-002 +8.3653761453E+001  +8.7086208815E-002 +8.3843243833E+001  +9.7811461690E-001 -4.5498117756E+000 
196048119.624 +9.8189235166E-001 -4.4704244249E+000  +8.8299023421E-002 +8.3782759885E+001  +8.9223166828E-002 +8.3820874403E+001  +9.8185978750E-001 -4.4546589832E+000 
200048917.984 +9.8659219715E-001 -4.4265294179E+000  +9.0422879494E-002 +8.3878236801E+001  +9.1324375859E-002 +8.3702063982E+001  +9.8634198491E-001 -4.4142950260E+000 
204049716.343 +9.9184916252E-001 -4.4592944253E+000  +9.2669024270E-002 +8.3927797360E+001  +9.3509314110E-002 +8.3610071079E+001  +9.9123725687E-001 -4.4405556939E+000 
208050514.703 +9.9751355498E-001 -4.5823910793E+000  +9.5089757035E-002 +8.3863949366E+001  +9.5696547783E-002 +8.3416170024E+001  +9.9658077357E-001 -4.5474527961E+000 
212051313.063 +1.0030467358E+000 -4.7712865964E+000  +9.7485417822E-002 +8.3739397655E+001  +9.7954963919E-002 +8.3230758936E+001  +1.0021310537E+000 -4.7422176405E+000 
216052111.422 +1.0082385281E+000 -5.0839890765E+000  +9.9951085489E-002 +8.3534813563E+001  +1.0025519621E-001 +8.2947039943E+001  +1.0071377248E+000 -5.0129424886E+000 
220052909.782 +1.0127997722E+000 -5.4391152307E+000  +1.0239418877E-001 +8.3158453265E+001  +1.0231569273E-001 +8.2612729236E+001  +1.0113399391E+000 -5.3763516773E+000 
224053708.142 +1.0156577718E+000 -5.9042607579E+000  +1.0471146469E-001 +8.2657952243E+001  +1.0443987926E-001 +8.2168516286E+001  +1.0145540973E+000 -5.8070495002E+000 
228054506.501 +1.0172178236E+000 -6.4065605651E+000  +1.0704388463E-001 +8.2114791864E+001  +1.0633045210E-001 +8.1639653061E+001  +1.0161875333E+000 -6.2932984249E+000 
232055304.861 +1.0161630934E+000 -6.9490079308E+000  +1.0890204642E-001 +8.1521118102E+001  +1.0810951601E-001 +8.1193319807E+001  +1.0155300783E+000 -6.8154172159E+000 
236056103.221 +1.0132980514E+000 -7.4695782562E+000  +1.1052768525E-001 +8.0933726466E+001  +1.0953716889E-001 +8.0653837541E+001  +1.0128370988E+000 -7.3187210699E+000 
240056901.580 +1.0082859096E+000 -7.9518370749E+000  +1.1184316767E-001 +8.0358943798E+001  +1.1073380280E-001 +8.0191234187E+001  +1.0081349718E+000 -7.7909077332E+000 
244057699.940 +1.0017997535E+000 -8.3166434287E+000  +1.1286705122E-001 +7.9842756949E+001  +1.1179289361E-001 +7.9852775839E+001  +1.0019481633E+000 -8.1557480649E+000 
248058498.300 +9.9403367549E-001 -8.5784116103E+000  +1.1373958185E-001 +7.9575878824E+001  +1.1274529986E-001 +7.9701193384E+001  +9.9454254528E-001 -8.4082689394E+000 
252059296.659 +9.8603635463E-001 -8.7126281022E+000  +1.1451713576E-001 +7.9374978537E+001  +1.1352671579E-001 +7.9614435408E+001  +9.8685393497E-001 -8.5348836647E+000 
256060095.019 +9.7848542753E-001 -8.7137645511E+000  +1.1530265747E-001 +7.9302388026E+001  +1.1439404595E-001 +7.9713731387E+001  +9.7931386463E-001 -8.5558533356E+000 
260060893.379 +9.7162467768E-001 -8.5979804404E+000  +1.1616381910E-001 +7.9429632628E+001  +1.1552218135E-001 +7.9941499031E+001  +9.7304139406E-001 -8.4538923342E+000 
264061691.738 +9.6665564779E-001 -8.3965057052E+000  +1.1716213963E-001 +7.9637372325E+001  +1.1679082555E-001 +8.0181415524E+001  +9.6789966881E-001 -8.2727428206E+000 
268062490.098 +9.6310319572E-001 -8.1496451398E+000  +1.1843302447E-001 +7.9883571490E+001  +1.1834640199E-001 +8.0441364585E+001  +9.6440291500E-001 -8.0326400093E+000 
272063288.458 +9.6149708330E-001 -7.8590403306E+000  +1.1992036565E-001 +8.0175420282E+001  +1.2005854606E-001 +8.0706922563E+001  +9.6262975310E-001 -7.7582900043E+000 
276064086.817 +9.6156568238E-001 -7.5608751614E+000  +1.2154460194E-001 +8.0445099866E+001  +1.2209089019E-001 +8.0943901156E+001  +9.6248721991E-001 -7.4909379834E+000 
280064885.177 +9.6303794044E-001 -7.2746510628E+000  +1.2336690816E-001 +8.0726057801E+001  +1.2418366675E-001 +8.1123697710E+001  +9.6402757058E-001 -7.2230369703E+000 
284065683.537 +9.6593538127E-001 -7.0597308187E+000  +1.2539700200E-001 +8.0930599271E+001  +1.2635731449E-001 +8.1244894341E+001  +9.6650708437E-001 -7.0204036083E+000 
288066481.896 +9.7021908389E-001 -6.8768214829E+000  +1.2764899168E-001 +8.1118502013E+001  +1.2873813306E-001 +8.1249237819E+001  +9.7059526367E-001 -6.8291645782E+000 
292067280.256 +9.7521422273E-001 -6.7684784023E+000  +1.2986715925E-001 +8.1236253797E+001  +1.3107780271E-001 +8.1265313269E+001  +9.7520420509E-001 -6.7371510276E+000 
296068078.616 +9.8130966401E-001 -6.7369518085E+000  +1.3242526189E-001 +8.1324794377E+001  +1.3357790642E-001 +8.1192829989E+001  +9.8087005459E-001 -6.7040915108E+000 
300068876.975 +9.8773039581E-001 -6.8065687950E+000  +1.3492501609E-001 +8.1312493683E+001  +1.3605702002E-001 +8.1056704117E+001  +9.8714250691E-001 -6.7516566256E+000 
304069675.335 +9.9451202761E-001 -6.9453656586E+000  +1.3771834459E-001 +8.1259691341E+001  +1.3857379325E-001 +8.0930976601E+001  +9.9376696910E-001 -6.8962471841E+000 
308070473.695 +1.0008691998E+000 -7.2221650009E+000  +1.4040975296E-001 +8.1066381342E+001  +1.4110444679E-001 +8.0611376176E+001  +9.9966642157E-001 -7.1439397832E+000 
312071272.054 +1.0066279850E+000 -7.5841701704E+000  +1.4326382235E-001 +8.0784435446E+001  +1.4367156231E-001 +8.0239859731E+001  +1.0053575684E+000 -7.4882457737E+000 
316072070.414 +1.0110024712E+000 -8.0437082323E+000  +1.4596321038E-001 +8.0346817304E+001  +1.4598859316E-001 +7.9813119853E+001  +1.0097540316E+000 -7.9376978644E+000 
320072868.774 +1.0137356661E+000 -8.5839574800E+000  +1.4843968124E-001 +7.9816023033E+001  +1.4813824682E-001 +7.9273197928E+001  +1.0125908114E+000 -8.4391637622E+000 
324073667.133 +1.0146985151E+000 -9.1744154871E+000  +1.5072652484E-001 +7.9163607875E+001  +1.5006200160E-001 +7.8729202030E+001  +1.0133649078E+000 -9.0049100743E+000 
328074465.493 +1.0129402711E+000 -9.7720695843E+000  +1.5250652478E-001 +7.8481868039E+001  +1.5160938345E-001 +7.8145728380E+001  +1.0121098032E+000 -9.5810657707E+000 
332075263.853 +1.0090028755E+000 -1.0341824475E+001  +1.5381942731E-001 +7.7823601404E+001  +1.5267470529E-001 +7.7581517178E+001  +1.0084357912E+000 -1.0131512355E+001 
336076062.212 +1.0027102190E+000 -1.0832575973E+001  +1.5472846216E-001 +7.7247360611E+001  +1.5345810375E-001 +7.7054530568E+001  +1.0023023872E+000 -1.0628711305E+001 
340076860.572 +9.9453914752E-001 -1.1236016147E+001  +1.5511857342E-001 +7.6759228825E+001  +1.5388263061E-001 +7.6739737810E+001  +9.9464014731E-001 -1.1010809906E+001 
344077658.932 +9.8558689164E-001 -1.1494090046E+001  +1.5550097311E-001 +7.6471708666E+001  +1.5412798964E-001 +7.6511641703E+001  +9.8623521290E-001 -1.1263517826E+001 
348078457.291 +9.7628716650E-001 -1.1591627733E+001  +1.5563145947E-001 +7.6345744550E+001  +1.5436596144E-001 +7.6516989361E+001  +9.7707327025E-001 -1.1357041114E+001 
352079255.651 +9.6750205877E-001 -1.1536997926E+001  +1.5595047856E-001 +7.6395464490E+001  +1.5471718522E-001 +7.6659937839E+001  +9.6856362920E-001 -1.1327162237E+001 
356080054.011 +9.6013002868E-001 -1.1367740918E+001  +1.5631186919E-001 +7.6523279693E+001  +1.5546584997E-001 +7.6895729105E+001  +9.6136338740E-001 -1.1168552112E+001 
360080852.370 +9.5438395889E-001 -1.1104900637E+001  +1.5706410639E-001 +7.6817126794E+001  +1.5637621784E-001 +7.7197093968E+001  +9.5580691113E-001 -1.0924610123E+001 
364081650.730 +9.5080614215E-001 -1.0752789343E+001  +1.5813102461E-001 +7.7142988327E+001  +1.5774720796E-001 +7.7611645803E+001  +9.5216076699E-001 -1.0605823751E+001 
368082449.090 +9.4895374543E-001 -1.0409019119E+001  +1.5948783682E-001 +7.7481893746E+001  +1.5937332933E-001 +7.7948839703E+001  +9.5025361750E-001 -1.0270686226E+001 
372083247.449 +9.4900605955E-001 -1.0051585029E+001  +1.6118702554E-001 +7.7773006215E+001  +1.6150724562E-001 +7.8217395897E+001  +9.5040759181E-001 -9.9342126665E+000 
376084045.809 +9.5136397254E-001 -9.7124878447E+000  +1.6311819378E-001 +7.8065617152E+001  +1.6377768969E-001 +7.8450100899E+001  +9.5220095261E-001 -9.6150599889E+000 
380084844.169 +9.5483526294E-001 -9.4187376833E+000  +1.6524733712E-001 +7.8360610274E+001  +1.6624888729E-001 +7.8663389941E+001  +9.5560775697E-001 -9.3487422967E+000 
384085642.529 +9.5960866653E-001 -9.2019447545E+000  +1.6770051574E-001 +7.8543290047E+001  +1.6880546535E-001 +7.8796732958E+001  +9.6031246423E-001 -9.1439396675E+000 
388086440.888 +9.6562024513E-001 -9.0713281273E+000  +1.7020076063E-001 +7.8715223813E+001  +1.7156045849E-001 +7.8804001506E+001  +9.6604926536E-001 -9.0208460138E+000 
392087239.248 +9.7272157179E-001 -9.0293317645E+000  +1.7309099478E-001 +7.8793291323E+001  +1.7433889686E-001 +7.8741991509E+001  +9.7239467000E-001 -8.9748446279E+000 
396088037.608 +9.7992701594E-001 -9.0932010452E+000  +1.7592660090E-001 +7.8783036769E+001  +1.7728845107E-001 +7.8622086287E+001  +9.7963521645E-001 -9.0376878569E+000 
400088835.967 +9.8789354087E-001 -9.2627391751E+000  +1.7906708437E-001 +7.8674790253E+001  +1.8013679090E-001 +7.8448486696E+001  +9.8675143813E-001 -9.2102902546E+000 
404089634.327 +9.9491115336E-001 -9.5604088885E+000  +1.8221449820E-001 +7.8460417202E+001  +1.8316026815E-001 +7.8164623460E+001  +9.9370126840E-001 -9.4790432902E+000 
408090432.687 +1.0014731049E+000 -9.9542486833E+000  +1.8541370887E-001 +7.8155580768E+001  +1.8601107549E-001 +7.7754347731E+001  +9.9995976167E-001 -9.8598715651E+000 
412091231.046 +1.0067063306E+000 -1.0466336483E+001  +1.8850002319E-001 +7.7645722533E+001  +1.8866019791E-001 +7.7240482573E+001  +1.0049067936E+000 -1.0334317134E+001 
416092029.406 +1.0098517997E+000 -1.1057810597E+001  +1.9123578835E-001 +7.7091796328E+001  +1.9108785620E-001 +7.6668957675E+001  +1.0080642264E+000 -1.0904760854E+001 
420092827.766 +1.0106880036E+000 -1.1726728329E+001  +1.9339006256E-001 +7.6362219669E+001  +1.9302764840E-001 +7.6035714515E+001  +1.0088883294E+000 -1.1536670610E+001 
424093626.125 +1.0087117902E+000 -1.2388986951E+001  +1.9510685311E-001 +7.5666521261E+001  +1.9442180586E-001 +7.5367730733E+001  +1.0072553818E+000 -1.2160993937E+001 
428094424.485 +1.0039189736E+000 -1.3032101130E+001  +1.9616993952E-001 +7.4937554323E+001  +1.9513567347E-001 +7.4671954242E+001  +1.0029855633E+000 -1.2790006990E+001 
432095222.845 +9.9688435008E-001 -1.3581023676E+001  +1.9660950795E-001 +7.4323066454E+001  +1.9545955555E-001 +7.4168834594E+001  +9.9629104938E-001 -1.3322529240E+001 
436096021.204 +9.8788215821E-001 -1.4017256105E+001  +1.9652815252E-001 +7.3831652907E+001  +1.9517006492E-001 +7.3742378178E+001  +9.8751778529E-001 -1.3739845791E+001 
440096819.564 +9.7744345637E-001 -1.4290941169E+001  +1.9602784989E-001 +7.3505468811E+001  +1.9474331738E-001 +7.3526496717E+001  +9.7805201846E-001 -1.4027063406E+001 
444097617.924 +9.6712854210E-001 -1.4402420460E+001  +1.9569271439E-001 +7.3382935646E+001  +1.9437468360E-001 +7.3455703828E+001  +9.6786143568E-001 -1.4143639517E+001 
448098416.283 +9.5718794624E-001 -1.4357940582E+001  +1.9520483573E-001 +7.3425930161E+001  +1.9418327786E-001 +7.3599431118E+001  +9.5837425694E-001 -1.4094945573E+001 
452099214.643 +9.4870622705E-001 -1.4137994869E+001  +1.9514459700E-001 +7.3648512664E+001  +1.9419376881E-001 +7.3897284060E+001  +9.5015247900E-001 -1.3902204350E+001 
456100013.003 +9.4215900328E-001 -1.3838397942E+001  +1.9544390763E-001 +7.3953609390E+001  +1.9467994249E-001 +7.4255060311E+001  +9.4359336491E-001 -1.3620608875E+001 
