!  2-Port S-parameters saved by WinCal
! VAR MeasName=S-Parameters (CALIBRATED_DATA) read from VNA (P5004A)
! VAR MeasDate=24/04/2024 15:57:08
! VAR NAME=Wafer2_r1_c2_pristine 3
! VAR FILENAME=Wafer2_r1_c2_pristine 3.S2P
! VAR DATE=24/04/2024 15:57:08
! VAR PHYS_PORTS=1,2
! VAR ObjTypeName=DATASET
! VAR IndexType=Frequency
!
# Hz S MA R 50
9000.000 +7.9981307842E-001 +1.7309924394E+001  +6.6205748600E-005 +7.1991018754E+001  +6.2633054486E-005 -7.2619005267E+001  +7.9892648914E-001 +1.7276896601E+001 
4009798.360 +9.8734871401E-001 -3.1393820115E+000  +1.8918683066E-003 +8.6146296437E+001  +1.8930530660E-003 +8.5942798294E+001  +9.8705012398E-001 -3.0547220894E+000 
8010596.719 +9.7582283087E-001 -6.2959782006E-001  +3.6968274925E-003 +8.8599334363E+001  +3.7269014504E-003 +8.8391690417E+001  +9.7655565859E-001 -6.0693331684E-001 
12011395.079 +9.8344500399E-001 -1.0093497155E-002  +5.5689985959E-003 +8.9148901688E+001  +5.6102872175E-003 +8.8853242793E+001  +9.8392969461E-001 +2.4695258323E-003 
16012193.439 +9.8959354381E-001 +1.8294856308E-001  +7.4415682344E-003 +8.9344414745E+001  +7.4876332730E-003 +8.8791607036E+001  +9.8973494215E-001 +1.6861825164E-001 
20012991.798 +9.9474844235E-001 +2.0370998148E-001  +9.3248963036E-003 +8.9367973068E+001  +9.3527196448E-003 +8.8686134710E+001  +9.9477078039E-001 +1.9859356896E-001 
24013790.158 +9.9946731279E-001 +1.3708077022E-001  +1.1253413700E-002 +8.9347747794E+001  +1.1246560104E-002 +8.8653618956E+001  +9.9948528672E-001 +1.3206405903E-001 
28014588.518 +1.0034994106E+000 -3.0387044234E-002  +1.3184056735E-002 +8.9178481738E+001  +1.3126660012E-002 +8.8608432857E+001  +1.0034273110E+000 -1.6943976364E-002 
32015386.877 +1.0078298946E+000 -2.2279515713E-001  +1.5116724559E-002 +8.8936242896E+001  +1.5060505730E-002 +8.8437229005E+001  +1.0076766370E+000 -2.0911334663E-001 
36016185.237 +1.0106403558E+000 -5.0459650478E-001  +1.7195702093E-002 +8.8264809828E+001  +1.7003638344E-002 +8.7942759963E+001  +1.0107367601E+000 -4.8874505399E-001 
40016983.597 +1.0126705872E+000 -8.2311463084E-001  +1.9081742227E-002 +8.8079008676E+001  +1.8995428726E-002 +8.7741746017E+001  +1.0128259587E+000 -8.0566205112E-001 
44017781.956 +1.0138835076E+000 -1.1782508953E+000  +2.1078107145E-002 +8.7495700814E+001  +2.0818433173E-002 +8.7467845797E+001  +1.0137507120E+000 -1.1668142596E+000 
48018580.316 +1.0142865351E+000 -1.5599028925E+000  +2.2880553787E-002 +8.7246942359E+001  +2.2677322947E-002 +8.7149679761E+001  +1.0144764282E+000 -1.5216801050E+000 
52019378.676 +1.0127350644E+000 -1.9461853050E+000  +2.4755742358E-002 +8.6748004316E+001  +2.4535459423E-002 +8.6826553601E+001  +1.0126495441E+000 -1.9090931673E+000 
56020177.035 +1.0102024809E+000 -2.2767615193E+000  +2.6558771995E-002 +8.6129228182E+001  +2.6329914576E-002 +8.6603975017E+001  +1.0102813880E+000 -2.2392508736E+000 
60020975.395 +1.0064107825E+000 -2.5885589252E+000  +2.8285220219E-002 +8.5790791673E+001  +2.8066401486E-002 +8.6214370299E+001  +1.0063358784E+000 -2.5403666225E+000 
64021773.755 +1.0014324827E+000 -2.8074379618E+000  +3.0060494899E-002 +8.5623020144E+001  +2.9757676184E-002 +8.6093166031E+001  +1.0015113722E+000 -2.7596877948E+000 
68022572.114 +9.9644992344E-001 -2.9346298984E+000  +3.1679030824E-002 +8.5393670511E+001  +3.1547336662E-002 +8.5980547187E+001  +9.9639426487E-001 -2.8959088861E+000 
72023370.474 +9.9182420205E-001 -2.9826641875E+000  +3.3318522765E-002 +8.5374624620E+001  +3.3200851697E-002 +8.5906543003E+001  +9.9195864648E-001 -2.9517742063E+000 
76024168.834 +9.8732635217E-001 -2.9427671413E+000  +3.4931367409E-002 +8.5451127467E+001  +3.4931515071E-002 +8.5920153265E+001  +9.8764658072E-001 -2.8972522999E+000 
80024967.193 +9.8422171417E-001 -2.8336535916E+000  +3.6547265602E-002 +8.5460339281E+001  +3.6629043173E-002 +8.6029820605E+001  +9.8440529956E-001 -2.8092884567E+000 
84025765.553 +9.8225333269E-001 -2.7283446020E+000  +3.8256988928E-002 +8.5656841876E+001  +3.8409292703E-002 +8.6160275801E+001  +9.8224237457E-001 -2.7068118198E+000 
88026563.913 +9.8151345043E-001 -2.5420957373E+000  +3.9968349449E-002 +8.5899143418E+001  +4.0287801227E-002 +8.6320715046E+001  +9.8147269998E-001 -2.5397406241E+000 
92027362.272 +9.8202353241E-001 -2.4043146482E+000  +4.1780093356E-002 +8.6066270289E+001  +4.2141310414E-002 +8.6337321014E+001  +9.8179960196E-001 -2.4059208471E+000 
96028160.632 +9.8267228228E-001 -2.2745317103E+000  +4.3653210291E-002 +8.6159719421E+001  +4.4022032445E-002 +8.6317241292E+001  +9.8264335726E-001 -2.2714735781E+000 
100028958.992 +9.8560983770E-001 -2.1756644497E+000  +4.5503822642E-002 +8.6299201062E+001  +4.5985683517E-002 +8.6255321359E+001  +9.8527449979E-001 -2.1855954753E+000 
104029757.351 +9.8881647134E-001 -2.1200602398E+000  +4.7439862410E-002 +8.6445255291E+001  +4.7863951203E-002 +8.6181474330E+001  +9.8839514919E-001 -2.1066829816E+000 
108030555.711 +9.9264227052E-001 -2.0981218754E+000  +4.9419093622E-002 +8.6455466270E+001  +4.9853744835E-002 +8.6133216350E+001  +9.9205386044E-001 -2.0887673836E+000 
112031354.071 +9.9691549853E-001 -2.1551547584E+000  +5.1563548378E-002 +8.6494954640E+001  +5.1773754424E-002 +8.6103293272E+001  +9.9655517000E-001 -2.1444633183E+000 
116032152.430 +1.0016254681E+000 -2.2701604033E+000  +5.3587841653E-002 +8.6416120257E+001  +5.3705656180E-002 +8.5886439863E+001  +1.0007643776E+000 -2.2683192171E+000 
120032950.790 +1.0062150318E+000 -2.4680099327E+000  +5.5753690334E-002 +8.6244188438E+001  +5.5749643651E-002 +8.5753848638E+001  +1.0055011741E+000 -2.4316630702E+000 
124033749.150 +1.0105889894E+000 -2.7446632715E+000  +5.7910789178E-002 +8.6023980083E+001  +5.7751252077E-002 +8.5409212161E+001  +1.0098486778E+000 -2.7093994746E+000 
128034547.510 +1.0139737760E+000 -3.0838521461E+000  +6.0058742601E-002 +8.5683915695E+001  +5.9846961893E-002 +8.5146545645E+001  +1.0132636107E+000 -3.0313217745E+000 
132035345.869 +1.0160887897E+000 -3.4980585263E+000  +6.2203941217E-002 +8.5154940083E+001  +6.1810893215E-002 +8.4776534006E+001  +1.0156845224E+000 -3.4271424584E+000 
136036144.229 +1.0170089138E+000 -3.9533535242E+000  +6.4199400955E-002 +8.4686286242E+001  +6.3714605475E-002 +8.4326189898E+001  +1.0166497829E+000 -3.8763595089E+000 
140036942.589 +1.0158048274E+000 -4.4181440611E+000  +6.6024415234E-002 +8.4115163050E+001  +6.5431084645E-002 +8.3839073694E+001  +1.0155266059E+000 -4.3252375892E+000 
144037740.948 +1.0131854004E+000 -4.8490710969E+000  +6.7678420749E-002 +8.3621716776E+001  +6.7057649174E-002 +8.3381137176E+001  +1.0130204224E+000 -4.7455555250E+000 
148038539.308 +1.0085366692E+000 -5.2308356008E+000  +6.9302719710E-002 +8.3158084704E+001  +6.8524516660E-002 +8.3149087140E+001  +1.0086298060E+000 -5.1212485546E+000 
152039337.668 +1.0029121712E+000 -5.5531850232E+000  +7.0575242765E-002 +8.2755800235E+001  +6.9979549289E-002 +8.2835692485E+001  +1.0028856159E+000 -5.4385034064E+000 
156040136.027 +9.9619132329E-001 -5.7356197200E+000  +7.1915189550E-002 +8.2475226351E+001  +7.1180600047E-002 +8.2743819218E+001  +9.9656331738E-001 -5.6334820919E+000 
160040934.387 +9.8957832896E-001 -5.8126562179E+000  +7.3141941565E-002 +8.2370812896E+001  +7.2645160312E-002 +8.2697548995E+001  +9.9016847427E-001 -5.7061835061E+000 
164041732.747 +9.8385670084E-001 -5.7851919483E+000  +7.4373281471E-002 +8.2370609623E+001  +7.4017159257E-002 +8.2855472967E+001  +9.8456277256E-001 -5.7085536895E+000 
168042531.106 +9.7890399171E-001 -5.6934957310E+000  +7.5776775208E-002 +8.2478157170E+001  +7.5424635949E-002 +8.2999138300E+001  +9.7951174935E-001 -5.6031348876E+000 
172043329.466 +9.7537908809E-001 -5.5229068754E+000  +7.7239805694E-002 +8.2633736960E+001  +7.7028196616E-002 +8.3209269152E+001  +9.7596331074E-001 -5.4449206359E+000 
176044127.826 +9.7300671318E-001 -5.3080607169E+000  +7.8594929434E-002 +8.2839057663E+001  +7.8837388954E-002 +8.3396610165E+001  +9.7365265752E-001 -5.2489908750E+000 
180044926.185 +9.7232512956E-001 -5.1099858188E+000  +8.0403941468E-002 +8.3062306844E+001  +8.0735127039E-002 +8.3524971133E+001  +9.7316244419E-001 -5.0461931320E+000 
184045724.545 +9.7300361378E-001 -4.8908012571E+000  +8.2042484487E-002 +8.3275067335E+001  +8.2649686456E-002 +8.3679619563E+001  +9.7367619932E-001 -4.8445907163E+000 
188046522.905 +9.7491765502E-001 -4.7065714073E+000  +8.3946225576E-002 +8.3486478829E+001  +8.4712607389E-002 +8.3755341305E+001  +9.7506316153E-001 -4.6714371548E+000 
192047321.264 +9.7804949730E-001 -4.5564939354E+000  +8.5982330327E-002 +8.3615044869E+001  +8.6770552571E-002 +8.3784499614E+001  +9.7801681094E-001 -4.5275833284E+000 
196048119.624 +9.8191432118E-001 -4.4470023437E+000  +8.7958412164E-002 +8.3744480086E+001  +8.8863923549E-002 +8.3793695868E+001  +9.8162739025E-001 -4.4346277610E+000 
200048917.984 +9.8660574424E-001 -4.4199588935E+000  +9.0133006801E-002 +8.3846704823E+001  +9.0989776582E-002 +8.3669223159E+001  +9.8625672540E-001 -4.4006796446E+000 
204049716.343 +9.9191917868E-001 -4.4363028261E+000  +9.2393413801E-002 +8.3906357093E+001  +9.3183903788E-002 +8.3541959079E+001  +9.9126968343E-001 -4.4166139201E+000 
208050514.703 +9.9761116306E-001 -4.5575298377E+000  +9.4721643802E-002 +8.3860925429E+001  +9.5319558624E-002 +8.3456011547E+001  +9.9659745170E-001 -4.5259616166E+000 
212051313.063 +1.0031986254E+000 -4.7561794384E+000  +9.7163072370E-002 +8.3705062872E+001  +9.7642733697E-002 +8.3201176424E+001  +1.0022104600E+000 -4.7209701675E+000 
216052111.422 +1.0082198736E+000 -5.0718293334E+000  +9.9628873363E-002 +8.3451387079E+001  +9.9842072345E-002 +8.2896069392E+001  +1.0070270392E+000 -4.9952958155E+000 
220052909.782 +1.0126940204E+000 -5.4274251152E+000  +1.0199759130E-001 +8.3145619601E+001  +1.0200937977E-001 +8.2571100187E+001  +1.0112026581E+000 -5.3558010849E+000 
224053708.142 +1.0157210370E+000 -5.8766026013E+000  +1.0441089913E-001 +8.2662831789E+001  +1.0407576878E-001 +8.2169186869E+001  +1.0145913293E+000 -5.7804225395E+000 
228054506.501 +1.0171489420E+000 -6.3954651413E+000  +1.0653181704E-001 +8.2132972254E+001  +1.0603448704E-001 +8.1647232752E+001  +1.0161577895E+000 -6.2687845306E+000 
232055304.861 +1.0162750703E+000 -6.9194163716E+000  +1.0849523659E-001 +8.1516564548E+001  +1.0770890371E-001 +8.1087000408E+001  +1.0155340600E+000 -6.7854364322E+000 
236056103.221 +1.0132675403E+000 -7.4427865509E+000  +1.1012165843E-001 +8.0920431164E+001  +1.0915839324E-001 +8.0634341017E+001  +1.0128170739E+000 -7.2951993509E+000 
240056901.580 +1.0083935199E+000 -7.9276145281E+000  +1.1135537404E-001 +8.0283375674E+001  +1.1033247807E-001 +8.0182391853E+001  +1.0080371762E+000 -7.7552733775E+000 
244057699.940 +1.0016782157E+000 -8.2996877458E+000  +1.1244116167E-001 +7.9803329316E+001  +1.1140742227E-001 +7.9813242780E+001  +1.0018401830E+000 -8.1347854017E+000 
248058498.300 +9.9417670662E-001 -8.5522989366E+000  +1.1330376222E-001 +7.9516290289E+001  +1.1224566170E-001 +7.9655660588E+001  +9.9451525325E-001 -8.3846121320E+000 
252059296.659 +9.8593393061E-001 -8.6861414319E+000  +1.1398582533E-001 +7.9331207366E+001  +1.1295886434E-001 +7.9565308580E+001  +9.8662062120E-001 -8.5071543639E+000 
256060095.019 +9.7850768497E-001 -8.6983877176E+000  +1.1480935035E-001 +7.9333015476E+001  +1.1387627957E-001 +7.9699078303E+001  +9.7932345983E-001 -8.5286012581E+000 
260060893.379 +9.7169425387E-001 -8.5873756258E+000  +1.1567648376E-001 +7.9335517762E+001  +1.1504534711E-001 +7.9885225381E+001  +9.7300341055E-001 -8.4243962390E+000 
264061691.738 +9.6663244950E-001 -8.3838416217E+000  +1.1658401586E-001 +7.9602251942E+001  +1.1637521135E-001 +8.0097229991E+001  +9.6792337576E-001 -8.2504376847E+000 
268062490.098 +9.6319767590E-001 -8.1221643621E+000  +1.1796471400E-001 +7.9840343400E+001  +1.1792210232E-001 +8.0423523966E+001  +9.6438770320E-001 -8.0024595830E+000 
272063288.458 +9.6156538876E-001 -7.8387340281E+000  +1.1940057873E-001 +8.0125979370E+001  +1.1961267013E-001 +8.0657701309E+001  +9.6261193155E-001 -7.7382579184E+000 
276064086.817 +9.6157292443E-001 -7.5482445108E+000  +1.2112623787E-001 +8.0414233265E+001  +1.2153798080E-001 +8.0902227266E+001  +9.6236003075E-001 -7.4661085887E+000 
280064885.177 +9.6309942972E-001 -7.2642071875E+000  +1.2294166861E-001 +8.0659430182E+001  +1.2372072231E-001 +8.1057866409E+001  +9.6405561601E-001 -7.2008803655E+000 
284065683.537 +9.6601343469E-001 -7.0320513586E+000  +1.2498893969E-001 +8.0887140403E+001  +1.2588089194E-001 +8.1237016917E+001  +9.6650447383E-001 -6.9877038942E+000 
288066481.896 +9.7029915196E-001 -6.8531960768E+000  +1.2714449185E-001 +8.1071585383E+001  +1.2824561321E-001 +8.1224055506E+001  +9.7042273086E-001 -6.8051477348E+000 
292067280.256 +9.7528228467E-001 -6.7487792734E+000  +1.2942231063E-001 +8.1208834911E+001  +1.3052908588E-001 +8.1184309562E+001  +9.7538249976E-001 -6.7066590616E+000 
296068078.616 +9.8135912412E-001 -6.7074328925E+000  +1.3189699837E-001 +8.1298337566E+001  +1.3302338511E-001 +8.1156164471E+001  +9.8081010966E-001 -6.6777386067E+000 
300068876.975 +9.8772008398E-001 -6.7851282867E+000  +1.3440850843E-001 +8.1276508619E+001  +1.3555304448E-001 +8.1035460433E+001  +9.8704085326E-001 -6.7255423172E+000 
304069675.335 +9.9435066819E-001 -6.9237379147E+000  +1.3706165778E-001 +8.1238594491E+001  +1.3805491538E-001 +8.0860041456E+001  +9.9351566186E-001 -6.8702406955E+000 
308070473.695 +1.0008723407E+000 -7.1936725712E+000  +1.3986568934E-001 +8.1054304691E+001  +1.4067077977E-001 +8.0591791300E+001  +9.9976593872E-001 -7.1052622483E+000 
312071272.054 +1.0065081869E+000 -7.5538439111E+000  +1.4272443757E-001 +8.0731667638E+001  +1.4306160391E-001 +8.0223930439E+001  +1.0051988661E+000 -7.4521345840E+000 
316072070.414 +1.0109605485E+000 -8.0150154185E+000  +1.4540908620E-001 +8.0303079985E+001  +1.4539956490E-001 +7.9811987349E+001  +1.0095899611E+000 -7.9025863008E+000 
320072868.774 +1.0135040554E+000 -8.5601242749E+000  +1.4780600576E-001 +7.9765744992E+001  +1.4751995373E-001 +7.9253933052E+001  +1.0125321732E+000 -8.4076398334E+000 
324073667.133 +1.0145163854E+000 -9.1531401670E+000  +1.5006672827E-001 +7.9109531903E+001  +1.4947684425E-001 +7.8695174920E+001  +1.0133329417E+000 -8.9706161664E+000 
328074465.493 +1.0128767563E+000 -9.7422639200E+000  +1.5193248499E-001 +7.8480217934E+001  +1.5097050779E-001 +7.8101647464E+001  +1.0121063164E+000 -9.5358190692E+000 
332075263.853 +1.0088826099E+000 -1.0309361769E+001  +1.5314961735E-001 +7.7829944625E+001  +1.5210470757E-001 +7.7477279906E+001  +1.0081209840E+000 -1.0091199238E+001 
336076062.212 +1.0025657175E+000 -1.0808604620E+001  +1.5401320246E-001 +7.7215761776E+001  +1.5280311675E-001 +7.7015586393E+001  +1.0020488307E+000 -1.0589559759E+001 
340076860.572 +9.9461409776E-001 -1.1210707242E+001  +1.5461738258E-001 +7.6730383216E+001  +1.5323673985E-001 +7.6691905856E+001  +9.9449790386E-001 -1.0971914916E+001 
344077658.932 +9.8552182152E-001 -1.1459156631E+001  +1.5486938852E-001 +7.6422845577E+001  +1.5358531279E-001 +7.6516812242E+001  +9.8619542116E-001 -1.1221889314E+001 
348078457.291 +9.7618748157E-001 -1.1561096396E+001  +1.5500672769E-001 +7.6295207795E+001  +1.5379509445E-001 +7.6478670575E+001  +9.7696368060E-001 -1.1321312565E+001 
352079255.651 +9.6731253949E-001 -1.1510217403E+001  +1.5515573389E-001 +7.6316849344E+001  +1.5421588630E-001 +7.6592414540E+001  +9.6857031685E-001 -1.1290824574E+001 
356080054.011 +9.5995710175E-001 -1.1346652746E+001  +1.5566377536E-001 +7.6495871708E+001  +1.5478213858E-001 +7.6839604718E+001  +9.6128234655E-001 -1.1129548188E+001 
360080852.370 +9.5432277669E-001 -1.1071309572E+001  +1.5646230091E-001 +7.6777996139E+001  +1.5574435869E-001 +7.7182929831E+001  +9.5570881372E-001 -1.0886911583E+001 
364081650.730 +9.5061505577E-001 -1.0729434353E+001  +1.5742101758E-001 +7.7063436140E+001  +1.5706320673E-001 +7.7557280823E+001  +9.5207421394E-001 -1.0573045291E+001 
368082449.090 +9.4883267138E-001 -1.0369623611E+001  +1.5877975893E-001 +7.7434071303E+001  +1.5891126753E-001 +7.7909866652E+001  +9.5023038122E-001 -1.0222042464E+001 
372083247.449 +9.4891800537E-001 -1.0019829221E+001  +1.6050968322E-001 +7.7751214009E+001  +1.6083934227E-001 +7.8178072415E+001  +9.5039394437E-001 -9.8972454839E+000 
376084045.809 +9.5113764996E-001 -9.6859836326E+000  +1.6247024442E-001 +7.8035041063E+001  +1.6304616635E-001 +7.8420392859E+001  +9.5216265428E-001 -9.5833021520E+000 
380084844.169 +9.5464687202E-001 -9.3950981929E+000  +1.6455454281E-001 +7.8308228313E+001  +1.6552727125E-001 +7.8650067878E+001  +9.5551910130E-001 -9.3093283572E+000 
384085642.529 +9.5946983910E-001 -9.1706606369E+000  +1.6698267756E-001 +7.8500521099E+001  +1.6809596547E-001 +7.8725911346E+001  +9.6005605373E-001 -9.1089498274E+000 
388086440.888 +9.6566272791E-001 -9.0402046617E+000  +1.6956782529E-001 +7.8656693140E+001  +1.7087926204E-001 +7.8744210768E+001  +9.6584342577E-001 -8.9797168210E+000 
392087239.248 +9.7257708023E-001 -8.9963794381E+000  +1.7232200577E-001 +7.8725427532E+001  +1.7363706209E-001 +7.8687243805E+001  +9.7229922441E-001 -8.9356348576E+000 
396088037.608 +9.7984921760E-001 -9.0606845183E+000  +1.7521706866E-001 +7.8714790771E+001  +1.7650862598E-001 +7.8586556937E+001  +9.7946454840E-001 -8.9914066315E+000 
400088835.967 +9.8779983103E-001 -9.2318727521E+000  +1.7837621576E-001 +7.8640053296E+001  +1.7941613346E-001 +7.8405385817E+001  +9.8671556735E-001 -9.1735641668E+000 
404089634.327 +9.9480843813E-001 -9.5183306659E+000  +1.8147506069E-001 +7.8426524630E+001  +1.8238213459E-001 +7.8104257479E+001  +9.9359755005E-001 -9.4366585013E+000 
408090432.687 +1.0014025425E+000 -9.9228308181E+000  +1.8462573242E-001 +7.8083617765E+001  +1.8521868023E-001 +7.7732196518E+001  +9.9990445985E-001 -9.8120854438E+000 
412091231.046 +1.0064809767E+000 -1.0418862980E+001  +1.8765492589E-001 +7.7653427456E+001  +1.8788051839E-001 +7.7240612481E+001  +1.0048351811E+000 -1.0296015537E+001 
416092029.406 +1.0096895696E+000 -1.1018411753E+001  +1.9040612276E-001 +7.7046288624E+001  +1.9032380487E-001 +7.6609244590E+001  +1.0079660820E+000 -1.0858603128E+001 
420092827.766 +1.0103874846E+000 -1.1683283494E+001  +1.9269012073E-001 +7.6331677879E+001  +1.9225612780E-001 +7.5991501484E+001  +1.0089251604E+000 -1.1490075751E+001 
424093626.125 +1.0084933642E+000 -1.2353182304E+001  +1.9433323771E-001 +7.5630936400E+001  +1.9355158471E-001 +7.5288984338E+001  +1.0071757780E+000 -1.2117642884E+001 
428094424.485 +1.0037813970E+000 -1.2987976132E+001  +1.9544395963E-001 +7.4884272548E+001  +1.9434590111E-001 +7.4623774060E+001  +1.0029545950E+000 -1.2746765560E+001 
432095222.845 +9.9676134033E-001 -1.3547174818E+001  +1.9574067014E-001 +7.4291890177E+001  +1.9455656748E-001 +7.4108479388E+001  +9.9626111236E-001 -1.3267529151E+001 
436096021.204 +9.8772679975E-001 -1.3978707213E+001  +1.9572504080E-001 +7.3783461910E+001  +1.9446206126E-001 +7.3705101345E+001  +9.8755214634E-001 -1.3697354031E+001 
440096819.564 +9.7736909647E-001 -1.4258192339E+001  +1.9528230144E-001 +7.3451212711E+001  +1.9401100604E-001 +7.3459391207E+001  +9.7798095182E-001 -1.3972865936E+001 
444097617.924 +9.6699877560E-001 -1.4360963036E+001  +1.9482088911E-001 +7.3349741595E+001  +1.9362201686E-001 +7.3374299129E+001  +9.6765963883E-001 -1.4088622498E+001 
448098416.283 +9.5708531528E-001 -1.4310551074E+001  +1.9444903497E-001 +7.3369419520E+001  +1.9336615481E-001 +7.3577802070E+001  +9.5829327981E-001 -1.4047429633E+001 
452099214.643 +9.4864967357E-001 -1.4108679015E+001  +1.9428354786E-001 +7.3571715806E+001  +1.9339317868E-001 +7.3834306025E+001  +9.4995087495E-001 -1.3858681707E+001 
456100013.003 +9.4198804652E-001 -1.3805864073E+001  +1.9458987350E-001 +7.3907930301E+001  +1.9392874779E-001 +7.4194888803E+001  +9.4337376822E-001 -1.3572122363E+001 
