!  2-Port S-parameters saved by WinCal
! VAR MeasName=S-Parameters (CALIBRATED_DATA) read from VNA (P5004A)
! VAR MeasDate=24/04/2024 15:57:28
! VAR NAME=Wafer2_r1_c2_pristine 4
! VAR FILENAME=Wafer2_r1_c2_pristine 4.S2P
! VAR DATE=24/04/2024 15:57:28
! VAR PHYS_PORTS=1,2
! VAR ObjTypeName=DATASET
! VAR IndexType=Frequency
!
# Hz S MA R 50
9000.000 +7.9984213919E-001 +1.7291812316E+001  +4.0693543166E-005 -8.2022557350E+001  +9.6717092779E-005 +8.2736410769E+001  +7.9915119388E-001 +1.7283511798E+001 
4009798.360 +9.8744637073E-001 -3.1307150576E+000  +1.8777272842E-003 +8.5939563450E+001  +1.9022004616E-003 +8.6000770729E+001  +9.8699472473E-001 -3.0538697989E+000 
8010596.719 +9.7596288020E-001 -6.2367744517E-001  +3.6979615092E-003 +8.8518000493E+001  +3.7395337756E-003 +8.8360091601E+001  +9.7662885206E-001 -6.0425807354E-001 
12011395.079 +9.8343880037E-001 -8.3824346443E-003  +5.5769913600E-003 +8.9192724690E+001  +5.6131855659E-003 +8.8796255163E+001  +9.8376965686E-001 -3.3035064292E-003 
16012193.439 +9.8958987384E-001 +1.7457357491E-001  +7.4437887652E-003 +8.9294256963E+001  +7.4894961005E-003 +8.8782099992E+001  +9.8965165425E-001 +1.7513723853E-001 
20012991.798 +9.9471861032E-001 +2.0801451855E-001  +9.3317523235E-003 +8.9373624158E+001  +9.3521012282E-003 +8.8741250700E+001  +9.9472950974E-001 +1.9519434813E-001 
24013790.158 +9.9941484198E-001 +1.3373835131E-001  +1.1245530631E-002 +8.9327969696E+001  +1.1237362482E-002 +8.8682039178E+001  +9.9937836216E-001 +1.2770499166E-001 
28014588.518 +1.0034116740E+000 -3.0544559724E-002  +1.3180171051E-002 +8.9227312954E+001  +1.3124842898E-002 +8.8625028003E+001  +1.0035365130E+000 -1.8117889722E-002 
32015386.877 +1.0077068952E+000 -2.2662142279E-001  +1.5117664041E-002 +8.8948368528E+001  +1.5122548720E-002 +8.8794646008E+001  +1.0076006936E+000 -2.1987675894E-001 
36016185.237 +1.0108537789E+000 -5.0479065738E-001  +1.7066793678E-002 +8.8578175204E+001  +1.7123012096E-002 +8.8025506794E+001  +1.0108676468E+000 -4.8149738831E-001 
40016983.597 +1.0127680847E+000 -8.2769518536E-001  +1.9062823424E-002 +8.8244684917E+001  +1.9056680681E-002 +8.7657631552E+001  +1.0126412760E+000 -8.0706283226E-001 
44017781.956 +1.0140528465E+000 -1.1923230262E+000  +2.0971330540E-002 +8.7813749694E+001  +2.0977254748E-002 +8.7500246663E+001  +1.0138518340E+000 -1.1618732693E+000 
48018580.316 +1.0143831042E+000 -1.5692199118E+000  +2.2874039529E-002 +8.7400242548E+001  +2.2738992785E-002 +8.7267565556E+001  +1.0145846396E+000 -1.5248260374E+000 
52019378.676 +1.0127991941E+000 -1.9548337221E+000  +2.4787169592E-002 +8.6604879434E+001  +2.4521125983E-002 +8.6924319326E+001  +1.0126665969E+000 -1.9143438269E+000 
56020177.035 +1.0101846080E+000 -2.2844397211E+000  +2.6584939396E-002 +8.6381965956E+001  +2.6419746763E-002 +8.6401243876E+001  +1.0101928598E+000 -2.2407971157E+000 
60020975.395 +1.0064530244E+000 -2.5945608198E+000  +2.8294467026E-002 +8.5971171242E+001  +2.8128173237E-002 +8.6270697772E+001  +1.0063026250E+000 -2.5447003335E+000 
64021773.755 +1.0014546755E+000 -2.8054799469E+000  +2.9977384794E-002 +8.5646559435E+001  +2.9845861243E-002 +8.5957646294E+001  +1.0015286943E+000 -2.7527583837E+000 
68022572.114 +9.9635903738E-001 -2.9413295531E+000  +3.1628588874E-002 +8.5443999715E+001  +3.1545235258E-002 +8.5733909667E+001  +9.9645214199E-001 -2.8981993088E+000 
72023370.474 +9.9172438482E-001 -2.9793939924E+000  +3.3355683892E-002 +8.5333710359E+001  +3.3198504212E-002 +8.5885748853E+001  +9.9185963802E-001 -2.9467631217E+000 
76024168.834 +9.8744308808E-001 -2.9391891817E+000  +3.4926778258E-002 +8.5471051935E+001  +3.4854202014E-002 +8.5919634585E+001  +9.8762631660E-001 -2.9114103988E+000 
80024967.193 +9.8405108558E-001 -2.8369389891E+000  +3.6523468271E-002 +8.5621421063E+001  +3.6662616791E-002 +8.6201466868E+001  +9.8443029406E-001 -2.8024025137E+000 
84025765.553 +9.8227020158E-001 -2.7242288015E+000  +3.8284275137E-002 +8.5614090794E+001  +3.8503311316E-002 +8.6191755820E+001  +9.8215451653E-001 -2.7033955788E+000 
88026563.913 +9.8140918469E-001 -2.5437766920E+000  +4.0061882818E-002 +8.5897177784E+001  +4.0198305804E-002 +8.6309992969E+001  +9.8141950455E-001 -2.5366294502E+000 
92027362.272 +9.8188226567E-001 -2.4072995019E+000  +4.1821083919E-002 +8.6052501599E+001  +4.2160230734E-002 +8.6326360407E+001  +9.8161948586E-001 -2.4047451262E+000 
96028160.632 +9.8264212596E-001 -2.2700138631E+000  +4.3611568649E-002 +8.6157381317E+001  +4.4003852070E-002 +8.6360706295E+001  +9.8257488799E-001 -2.2739433386E+000 
100028958.992 +9.8559871967E-001 -2.1766321629E+000  +4.5486794509E-002 +8.6316866991E+001  +4.5962145476E-002 +8.6235815022E+001  +9.8525069708E-001 -2.1800393568E+000 
104029757.351 +9.8867537909E-001 -2.1223452776E+000  +4.7418492532E-002 +8.6396182733E+001  +4.7800403810E-002 +8.6153116931E+001  +9.8824616356E-001 -2.1031194988E+000 
108030555.711 +9.9252675571E-001 -2.0955152750E+000  +4.9410016399E-002 +8.6437622797E+001  +4.9855452254E-002 +8.6195598573E+001  +9.9199675035E-001 -2.0968265645E+000 
112031354.071 +9.9682964419E-001 -2.1542090984E+000  +5.1481680911E-002 +8.6502287929E+001  +5.1774640761E-002 +8.5991610283E+001  +9.9655074899E-001 -2.1471065537E+000 
116032152.430 +1.0014067437E+000 -2.2695829108E+000  +5.3580933970E-002 +8.6436420032E+001  +5.3805486995E-002 +8.5872467168E+001  +1.0009030168E+000 -2.2617715719E+000 
120032950.790 +1.0061627007E+000 -2.4685494515E+000  +5.5714738950E-002 +8.6243163707E+001  +5.5724114864E-002 +8.5646664996E+001  +1.0054114127E+000 -2.4346562148E+000 
124033749.150 +1.0105338134E+000 -2.7412285642E+000  +5.7908184671E-002 +8.6017630650E+001  +5.7772855147E-002 +8.5354587259E+001  +1.0097916744E+000 -2.7160244424E+000 
128034547.510 +1.0141004260E+000 -3.0920888681E+000  +6.0068015050E-002 +8.5686797013E+001  +5.9832757179E-002 +8.5122839171E+001  +1.0132868741E+000 -3.0341086653E+000 
132035345.869 +1.0160495871E+000 -3.4985825988E+000  +6.2083915387E-002 +8.5234521059E+001  +6.1755942753E-002 +8.4812281050E+001  +1.0155936709E+000 -3.4324535979E+000 
136036144.229 +1.0168296205E+000 -3.9510689223E+000  +6.4189910592E-002 +8.4787078904E+001  +6.3596639860E-002 +8.4290150580E+001  +1.0165203913E+000 -3.8661154343E+000 
140036942.589 +1.0157426739E+000 -4.4112575126E+000  +6.6084909870E-002 +8.4213276256E+001  +6.5340432369E-002 +8.3916435749E+001  +1.0155038236E+000 -4.3268811293E+000 
144037740.948 +1.0131728784E+000 -4.8515693291E+000  +6.7679950791E-002 +8.3640020000E+001  +6.7027697031E-002 +8.3579833889E+001  +1.0129468706E+000 -4.7432824275E+000 
148038539.308 +1.0083695408E+000 -5.2219767358E+000  +6.9221173818E-002 +8.3096445929E+001  +6.8518197712E-002 +8.3208259507E+001  +1.0086467793E+000 -5.1146302545E+000 
152039337.668 +1.0027174633E+000 -5.5503572184E+000  +7.0666746749E-002 +8.2777801948E+001  +6.9876287341E-002 +8.2841689606E+001  +1.0028231588E+000 -5.4368812718E+000 
156040136.027 +9.9606209240E-001 -5.7326246139E+000  +7.1805776381E-002 +8.2479891150E+001  +7.1247677588E-002 +8.2778011695E+001  +9.9658276938E-001 -5.6276763641E+000 
160040934.387 +9.8965352128E-001 -5.8147694463E+000  +7.3101095657E-002 +8.2364864578E+001  +7.2626945403E-002 +8.2842185074E+001  +9.9010932566E-001 -5.7112311634E+000 
164041732.747 +9.8391294270E-001 -5.7867335643E+000  +7.4456951935E-002 +8.2361690959E+001  +7.3978706987E-002 +8.2814386343E+001  +9.8431033736E-001 -5.7072923823E+000 
168042531.106 +9.7872563456E-001 -5.6992408768E+000  +7.5661373234E-002 +8.2416246593E+001  +7.5504147419E-002 +8.3010731418E+001  +9.7949261970E-001 -5.5972250937E+000 
172043329.466 +9.7529968079E-001 -5.5250148813E+000  +7.7147283787E-002 +8.2572985741E+001  +7.7091052359E-002 +8.3247535607E+001  +9.7604259262E-001 -5.4573377240E+000 
176044127.826 +9.7303078654E-001 -5.3167095160E+000  +7.8679206607E-002 +8.2804526975E+001  +7.8819824326E-002 +8.3370937486E+001  +9.7362593654E-001 -5.2543396694E+000 
180044926.185 +9.7242387480E-001 -5.1019786702E+000  +8.0338851574E-002 +8.3036981548E+001  +8.0687105862E-002 +8.3571356547E+001  +9.7315221302E-001 -5.0449168442E+000 
184045724.545 +9.7295614934E-001 -4.8883542644E+000  +8.2093566651E-002 +8.3218599359E+001  +8.2690390222E-002 +8.3685157309E+001  +9.7369059231E-001 -4.8477713712E+000 
188046522.905 +9.7490560875E-001 -4.7044610337E+000  +8.3954598911E-002 +8.3481926486E+001  +8.4693893144E-002 +8.3787204385E+001  +9.7525052331E-001 -4.6799414544E+000 
192047321.264 +9.7794432733E-001 -4.5564551279E+000  +8.5921232047E-002 +8.3617976571E+001  +8.6758936723E-002 +8.3819860948E+001  +9.7816786854E-001 -4.5287073501E+000 
196048119.624 +9.8178692796E-001 -4.4475465155E+000  +8.7930950172E-002 +8.3779416339E+001  +8.8836462096E-002 +8.3754005499E+001  +9.8174131822E-001 -4.4369068429E+000 
200048917.984 +9.8665045442E-001 -4.4067293094E+000  +9.0108445504E-002 +8.3855177494E+001  +9.0987227824E-002 +8.3721088467E+001  +9.8647613991E-001 -4.3942823793E+000 
204049716.343 +9.9182241909E-001 -4.4471293100E+000  +9.2406759207E-002 +8.3910794567E+001  +9.3151337850E-002 +8.3574275997E+001  +9.9120414369E-001 -4.4153471662E+000 
208050514.703 +9.9770429310E-001 -4.5539324039E+000  +9.4674790181E-002 +8.3854752640E+001  +9.5321812685E-002 +8.3386567055E+001  +9.9651765211E-001 -4.5265852141E+000 
212051313.063 +1.0030291019E+000 -4.7604341556E+000  +9.7092526489E-002 +8.3676234126E+001  +9.7646296311E-002 +8.3226971781E+001  +1.0021208269E+000 -4.7178764690E+000 
216052111.422 +1.0082294699E+000 -5.0634071739E+000  +9.9598803122E-002 +8.3424631621E+001  +9.9766271306E-002 +8.2917995477E+001  +1.0070510899E+000 -4.9961514915E+000 
220052909.782 +1.0125651399E+000 -5.4231958107E+000  +1.0200424947E-001 +8.3098885998E+001  +1.0199753370E-001 +8.2630103867E+001  +1.0113645730E+000 -5.3429293371E+000 
224053708.142 +1.0157470654E+000 -5.8824576200E+000  +1.0436843321E-001 +8.2631862275E+001  +1.0406202353E-001 +8.2118875163E+001  +1.0146098170E+000 -5.7852528481E+000 
228054506.501 +1.0170710969E+000 -6.3878070734E+000  +1.0654662684E-001 +8.2132327419E+001  +1.0605093791E-001 +8.1595310704E+001  +1.0162186837E+000 -6.2794711794E+000 
232055304.861 +1.0162527134E+000 -6.9158351274E+000  +1.0853585935E-001 +8.1588596207E+001  +1.0765821986E-001 +8.1122221806E+001  +1.0156318071E+000 -6.7930148888E+000 
236056103.221 +1.0133094494E+000 -7.4489552832E+000  +1.1004560781E-001 +8.0947497708E+001  +1.0917784530E-001 +8.0658831959E+001  +1.0127900686E+000 -7.2943121950E+000 
240056901.580 +1.0083195640E+000 -7.9231951659E+000  +1.1142168342E-001 +8.0307212382E+001  +1.1032359199E-001 +8.0193340440E+001  +1.0081805101E+000 -7.7663294418E+000 
244057699.940 +1.0015163995E+000 -8.3011665624E+000  +1.1232742334E-001 +7.9834711221E+001  +1.1132966379E-001 +7.9822202011E+001  +1.0019439563E+000 -8.1320753040E+000 
248058498.300 +9.9416207356E-001 -8.5543597911E+000  +1.1331514110E-001 +7.9517040790E+001  +1.1211759763E-001 +7.9623354933E+001  +9.9452647739E-001 -8.3816749610E+000 
252059296.659 +9.8581237666E-001 -8.6830224392E+000  +1.1403794091E-001 +7.9321426890E+001  +1.1304419923E-001 +7.9567080207E+001  +9.8659927391E-001 -8.5210372623E+000 
256060095.019 +9.7850316654E-001 -8.6911629033E+000  +1.1479432309E-001 +7.9290489296E+001  +1.1389535668E-001 +7.9702763407E+001  +9.7935624038E-001 -8.5260587506E+000 
260060893.379 +9.7148092245E-001 -8.5778830734E+000  +1.1563021413E-001 +7.9369784606E+001  +1.1500325783E-001 +7.9890961843E+001  +9.7298403502E-001 -8.4217710166E+000 
264061691.738 +9.6680938259E-001 -8.3752785673E+000  +1.1669174793E-001 +7.9590034359E+001  +1.1631091720E-001 +8.0155487595E+001  +9.6798182278E-001 -8.2483336083E+000 
268062490.098 +9.6297223786E-001 -8.1338460856E+000  +1.1801107910E-001 +7.9848930543E+001  +1.1783823191E-001 +8.0408619787E+001  +9.6440505592E-001 -8.0047051875E+000 
272063288.458 +9.6147723663E-001 -7.8329730275E+000  +1.1940475202E-001 +8.0110421285E+001  +1.1965522404E-001 +8.0689099222E+001  +9.6265700166E-001 -7.7285895388E+000 
276064086.817 +9.6155668676E-001 -7.5447542305E+000  +1.2113243186E-001 +8.0411086092E+001  +1.2154659974E-001 +8.0904442888E+001  +9.6251147768E-001 -7.4638231901E+000 
280064885.177 +9.6299522274E-001 -7.2580548492E+000  +1.2295729740E-001 +8.0692648186E+001  +1.2371153494E-001 +8.1068909142E+001  +9.6395847305E-001 -7.1940109569E+000 
284065683.537 +9.6590997996E-001 -7.0386725759E+000  +1.2488488221E-001 +8.0890034616E+001  +1.2587431211E-001 +8.1200491705E+001  +9.6644655026E-001 -6.9886165284E+000 
288066481.896 +9.7031542742E-001 -6.8486849203E+000  +1.2706015744E-001 +8.1088400085E+001  +1.2826335170E-001 +8.1265097078E+001  +9.7053522177E-001 -6.8068695340E+000 
292067280.256 +9.7526552650E-001 -6.7464186705E+000  +1.2930349157E-001 +8.1207631161E+001  +1.3052419535E-001 +8.1230495915E+001  +9.7518475503E-001 -6.7078912698E+000 
296068078.616 +9.8131775274E-001 -6.7166231514E+000  +1.3181118618E-001 +8.1282659218E+001  +1.3305481154E-001 +8.1178483309E+001  +9.8096597131E-001 -6.6737911322E+000 
300068876.975 +9.8780600364E-001 -6.7738938474E+000  +1.3438213457E-001 +8.1317676074E+001  +1.3549477105E-001 +8.1042211844E+001  +9.8712534877E-001 -6.7216667485E+000 
304069675.335 +9.9422746790E-001 -6.9285550575E+000  +1.3709105025E-001 +8.1233792548E+001  +1.3806337627E-001 +8.0872406504E+001  +9.9367263831E-001 -6.8608023416E+000 
308070473.695 +1.0006816336E+000 -7.1920821871E+000  +1.3985625550E-001 +8.1002412453E+001  +1.4067920440E-001 +8.0594993510E+001  +9.9975438697E-001 -7.1151057128E+000 
312071272.054 +1.0063898942E+000 -7.5562080742E+000  +1.4270424867E-001 +8.0717234815E+001  +1.4307827217E-001 +8.0203626649E+001  +1.0052452475E+000 -7.4501587774E+000 
316072070.414 +1.0110454086E+000 -8.0096309798E+000  +1.4551423092E-001 +8.0290466828E+001  +1.4541626647E-001 +7.9809294006E+001  +1.0097637427E+000 -7.8998278734E+000 
320072868.774 +1.0135625485E+000 -8.5579603682E+000  +1.4786290364E-001 +7.9751760622E+001  +1.4755222029E-001 +7.9254479293E+001  +1.0125288214E+000 -8.4072331585E+000 
324073667.133 +1.0146518707E+000 -9.1465388942E+000  +1.5002527110E-001 +7.9123005459E+001  +1.4946169963E-001 +7.8690385825E+001  +1.0132597535E+000 -8.9754809316E+000 
328074465.493 +1.0129348563E+000 -9.7403450359E+000  +1.5199465239E-001 +7.8472065595E+001  +1.5108993595E-001 +7.8128578164E+001  +1.0121565578E+000 -9.5348263991E+000 
332075263.853 +1.0089761140E+000 -1.0318821760E+001  +1.5324664923E-001 +7.7810473635E+001  +1.5207759412E-001 +7.7547101798E+001  +1.0082302234E+000 -1.0101060988E+001 
336076062.212 +1.0026110290E+000 -1.0811850218E+001  +1.5416384169E-001 +7.7232976527E+001  +1.5276132310E-001 +7.7046068144E+001  +1.0022093647E+000 -1.0583094758E+001 
340076860.572 +9.9461036405E-001 -1.1212041519E+001  +1.5453632553E-001 +7.6738603310E+001  +1.5323245125E-001 +7.6694739973E+001  +9.9463423438E-001 -1.0971742398E+001 
344077658.932 +9.8547487272E-001 -1.1459069951E+001  +1.5484654530E-001 +7.6467687782E+001  +1.5356630652E-001 +7.6482502795E+001  +9.8617423652E-001 -1.1226094729E+001 
348078457.291 +9.7639984160E-001 -1.1553092296E+001  +1.5504069459E-001 +7.6341828239E+001  +1.5370490475E-001 +7.6446250800E+001  +9.7704927420E-001 -1.1318589497E+001 
352079255.651 +9.6758125673E-001 -1.1509256209E+001  +1.5521397293E-001 +7.6309191073E+001  +1.5407161606E-001 +7.6618223418E+001  +9.6859791266E-001 -1.1294245987E+001 
356080054.011 +9.6006183576E-001 -1.1343484699E+001  +1.5569133299E-001 +7.6518522989E+001  +1.5480697704E-001 +7.6848543573E+001  +9.6127978344E-001 -1.1136260411E+001 
360080852.370 +9.5439831091E-001 -1.1071023893E+001  +1.5641043024E-001 +7.6742714921E+001  +1.5578607988E-001 +7.7186361769E+001  +9.5576436448E-001 -1.0891795501E+001 
364081650.730 +9.5080543388E-001 -1.0723571086E+001  +1.5747704860E-001 +7.7078999157E+001  +1.5711133371E-001 +7.7556199240E+001  +9.5219603245E-001 -1.0568960796E+001 
368082449.090 +9.4896941899E-001 -1.0375195699E+001  +1.5878082574E-001 +7.7426291491E+001  +1.5882961072E-001 +7.7884161141E+001  +9.5023602015E-001 -1.0221882551E+001 
372083247.449 +9.4896855655E-001 -1.0011411003E+001  +1.6044116024E-001 +7.7725651622E+001  +1.6087909321E-001 +7.8211819265E+001  +9.5027581425E-001 -9.8949787593E+000 
376084045.809 +9.5104770418E-001 -9.6844569118E+000  +1.6243164261E-001 +7.8043391543E+001  +1.6310582112E-001 +7.8452018137E+001  +9.5216533215E-001 -9.5741696893E+000 
380084844.169 +9.5462378147E-001 -9.3902274766E+000  +1.6455383919E-001 +7.8302961342E+001  +1.6555800425E-001 +7.8624753360E+001  +9.5558350721E-001 -9.3038769299E+000 
384085642.529 +9.5942075939E-001 -9.1790122038E+000  +1.6695297947E-001 +7.8508912119E+001  +1.6811438844E-001 +7.8717095970E+001  +9.6006007155E-001 -9.1074343197E+000 
388086440.888 +9.6555034810E-001 -9.0351835391E+000  +1.6946503346E-001 +7.8663316253E+001  +1.7093126071E-001 +7.8757078072E+001  +9.6585292720E-001 -8.9923135598E+000 
392087239.248 +9.7267953985E-001 -9.0022117529E+000  +1.7232246266E-001 +7.8722714564E+001  +1.7370807537E-001 +7.8679228128E+001  +9.7244615037E-001 -8.9340088835E+000 
396088037.608 +9.7978645800E-001 -9.0588961355E+000  +1.7527526503E-001 +7.8731281148E+001  +1.7648393269E-001 +7.8590037884E+001  +9.7946367748E-001 -8.9880275998E+000 
400088835.967 +9.8787733923E-001 -9.2332846681E+000  +1.7837974392E-001 +7.8635871359E+001  +1.7942436599E-001 +7.8381233345E+001  +9.8664863267E-001 -9.1622106630E+000 
404089634.327 +9.9477809347E-001 -9.5212970916E+000  +1.8146550499E-001 +7.8427796552E+001  +1.8237163258E-001 +7.8117792852E+001  +9.9362627430E-001 -9.4362055165E+000 
408090432.687 +1.0013816410E+000 -9.9165467826E+000  +1.8468092270E-001 +7.8109573392E+001  +1.8522595298E-001 +7.7718062385E+001  +9.9978600465E-001 -9.8159876703E+000 
412091231.046 +1.0064524379E+000 -1.0419371309E+001  +1.8762435723E-001 +7.7630379441E+001  +1.8794421223E-001 +7.7232267055E+001  +1.0049070427E+000 -1.0292083181E+001 
416092029.406 +1.0096662788E+000 -1.1025231081E+001  +1.9032000965E-001 +7.7021015303E+001  +1.9029257927E-001 +7.6631630066E+001  +1.0078688035E+000 -1.0857184950E+001 
420092827.766 +1.0104658247E+000 -1.1686589258E+001  +1.9260187277E-001 +7.6349745478E+001  +1.9228993757E-001 +7.5999400804E+001  +1.0088929183E+000 -1.1486080124E+001 
424093626.125 +1.0086037690E+000 -1.2345716106E+001  +1.9444238740E-001 +7.5633028449E+001  +1.9358149696E-001 +7.5277273145E+001  +1.0073302828E+000 -1.2120217014E+001 
428094424.485 +1.0037316203E+000 -1.2982013869E+001  +1.9531704928E-001 +7.4899402259E+001  +1.9441714330E-001 +7.4663575060E+001  +1.0030369923E+000 -1.2745057645E+001 
432095222.845 +9.9680377205E-001 -1.3543723851E+001  +1.9573847620E-001 +7.4286199756E+001  +1.9466385204E-001 +7.4134711924E+001  +9.9622166520E-001 -1.3273157053E+001 
436096021.204 +9.8759201761E-001 -1.3976612703E+001  +1.9564586419E-001 +7.3765986209E+001  +1.9443970370E-001 +7.3698422243E+001  +9.8738610394E-001 -1.3702881452E+001 
440096819.564 +9.7750381561E-001 -1.4259831878E+001  +1.9529349645E-001 +7.3450350697E+001  +1.9387653137E-001 +7.3466384161E+001  +9.7783783950E-001 -1.3972620332E+001 
444097617.924 +9.6688467814E-001 -1.4362324045E+001  +1.9483837584E-001 +7.3352183931E+001  +1.9353509394E-001 +7.3393743966E+001  +9.6780381890E-001 -1.4093147209E+001 
448098416.283 +9.5712151013E-001 -1.4314093163E+001  +1.9438082272E-001 +7.3379400412E+001  +1.9334086120E-001 +7.3579007619E+001  +9.5828035571E-001 -1.4044854909E+001 
452099214.643 +9.4858771676E-001 -1.4102502543E+001  +1.9424850476E-001 +7.3621173159E+001  +1.9337309550E-001 +7.3834900232E+001  +9.5006581004E-001 -1.3853685865E+001 
456100013.003 +9.4206041177E-001 -1.3800029606E+001  +1.9459533808E-001 +7.3904379467E+001  +1.9393540713E-001 +7.4217403796E+001  +9.4355633981E-001 -1.3573225218E+001 
