!  2-Port S-parameters saved by WinCal
! VAR MeasName=S-Parameters (CALIBRATED_DATA) read from VNA (P5004A)
! VAR MeasDate=24/04/2024 15:23:36
! VAR NAME=Wafer2_r1_c3_pristine 3
! VAR FILENAME=Wafer2_r1_c3_pristine 3.S2P
! VAR DATE=24/04/2024 15:23:36
! VAR PHYS_PORTS=1,2
! VAR ObjTypeName=DATASET
! VAR IndexType=Frequency
!
# Hz S MA R 50
9000.000 +7.9961899412E-001 +1.7299892144E+001  +5.6088311000E-005 +3.0601726049E+001  +2.5579542729E-005 -1.5984018842E+002  +7.9924033019E-001 +1.7295774563E+001 
4009798.360 +9.8742807968E-001 -3.1423195669E+000  +1.8846326249E-003 +8.6107079793E+001  +1.8977416037E-003 +8.6261704733E+001  +9.8706579155E-001 -3.0620812556E+000 
8010596.719 +9.7574355200E-001 -6.2991674232E-001  +3.7161240593E-003 +8.8542286434E+001  +3.7540054706E-003 +8.8336421074E+001  +9.7645895355E-001 -6.1273303160E-001 
12011395.079 +9.8335852132E-001 -1.1243042759E-002  +5.5925934130E-003 +8.9205067010E+001  +5.6399600491E-003 +8.8728346371E+001  +9.8375227794E-001 -1.3489809468E-002 
16012193.439 +9.8952977767E-001 +1.7086200898E-001  +7.4824343974E-003 +8.9255222222E+001  +7.5211345636E-003 +8.8822365021E+001  +9.8973256081E-001 +1.6631369839E-001 
20012991.798 +9.9472064596E-001 +1.9947218806E-001  +9.3791889523E-003 +8.9323750526E+001  +9.3951827310E-003 +8.8706503871E+001  +9.9476454876E-001 +1.9301947765E-001 
24013790.158 +9.9947521761E-001 +1.2453967545E-001  +1.1308498748E-002 +8.9307033949E+001  +1.1297840289E-002 +8.8650310751E+001  +9.9949929685E-001 +1.1805412657E-001 
28014588.518 +1.0035140255E+000 -3.7283057752E-002  +1.3256733605E-002 +8.9211084397E+001  +1.3202496519E-002 +8.8577193040E+001  +1.0035035867E+000 -3.0790193632E-002 
32015386.877 +1.0078205174E+000 -2.3688372886E-001  +1.5203626511E-002 +8.8919887446E+001  +1.5130964516E-002 +8.8397718698E+001  +1.0077334160E+000 -2.2398566212E-001 
36016185.237 +1.0108651641E+000 -5.1127004224E-001  +1.7159859053E-002 +8.8588057577E+001  +1.7256847407E-002 +8.7732323204E+001  +1.0107867806E+000 -4.9393600476E-001 
40016983.597 +1.0126966834E+000 -8.2118198326E-001  +1.9259423778E-002 +8.8227495901E+001  +1.9073118187E-002 +8.7793484673E+001  +1.0129134039E+000 -8.2624621301E-001 
44017781.956 +1.0139730203E+000 -1.1924893352E+000  +2.1143751568E-002 +8.7633253635E+001  +2.0863236835E-002 +8.7249795356E+001  +1.0140288205E+000 -1.1722460016E+000 
48018580.316 +1.0143567540E+000 -1.5633178195E+000  +2.3020739512E-002 +8.7302441961E+001  +2.2787432698E-002 +8.7329127667E+001  +1.0144926955E+000 -1.5356645251E+000 
52019378.676 +1.0128692251E+000 -1.9540667910E+000  +2.4962748622E-002 +8.6592425474E+001  +2.4641805076E-002 +8.6874772287E+001  +1.0127276889E+000 -1.9073030636E+000 
56020177.035 +1.0102379271E+000 -2.2967742963E+000  +2.6844131412E-002 +8.6180288738E+001  +2.6441587471E-002 +8.6462299766E+001  +1.0103295463E+000 -2.2400591207E+000 
60020975.395 +1.0064197516E+000 -2.6077464551E+000  +2.8494345790E-002 +8.6010818799E+001  +2.8315429918E-002 +8.6127989590E+001  +1.0065671120E+000 -2.5438580405E+000 
64021773.755 +1.0015533008E+000 -2.8167900470E+000  +3.0174815752E-002 +8.5713981887E+001  +2.9881692554E-002 +8.5989847881E+001  +1.0017025061E+000 -2.7567813563E+000 
68022572.114 +9.9638799864E-001 -2.9465515784E+000  +3.1769774500E-002 +8.5318971408E+001  +3.1612094538E-002 +8.5959166487E+001  +9.9637002758E-001 -2.9009848562E+000 
72023370.474 +9.9189435485E-001 -2.9871849849E+000  +3.3458098840E-002 +8.5378174304E+001  +3.3386049260E-002 +8.5992091325E+001  +9.9197427639E-001 -2.9521671865E+000 
76024168.834 +9.8749228953E-001 -2.9530756894E+000  +3.5114384326E-002 +8.5372670332E+001  +3.5057366358E-002 +8.6036802715E+001  +9.8770306980E-001 -2.9046661812E+000 
80024967.193 +9.8412100662E-001 -2.8469226728E+000  +3.6739309751E-002 +8.5461019719E+001  +3.6794074044E-002 +8.5971198965E+001  +9.8440151992E-001 -2.8117410428E+000 
84025765.553 +9.8227411674E-001 -2.7327455728E+000  +3.8420538213E-002 +8.5680206636E+001  +3.8689125054E-002 +8.6172131943E+001  +9.8226791187E-001 -2.7085756871E+000 
88026563.913 +9.8123236927E-001 -2.5615510868E+000  +4.0189468765E-002 +8.5830844765E+001  +4.0481741753E-002 +8.6150758545E+001  +9.8154400499E-001 -2.5443787200E+000 
92027362.272 +9.8175618900E-001 -2.4199086126E+000  +4.1951665237E-002 +8.6078863321E+001  +4.2386650096E-002 +8.6233834965E+001  +9.8177267691E-001 -2.4131745831E+000 
96028160.632 +9.8261672266E-001 -2.2977596365E+000  +4.3827648677E-002 +8.6218314838E+001  +4.4247159762E-002 +8.6237934103E+001  +9.8270323213E-001 -2.2837809582E+000 
100028958.992 +9.8553331519E-001 -2.2041477042E+000  +4.5789498935E-002 +8.6298064893E+001  +4.6131333176E-002 +8.6257230440E+001  +9.8521957727E-001 -2.1946861177E+000 
104029757.351 +9.8865661777E-001 -2.1474235796E+000  +4.7661465571E-002 +8.6417792010E+001  +4.8167642377E-002 +8.6160670966E+001  +9.8826453864E-001 -2.1174846489E+000 
108030555.711 +9.9260755820E-001 -2.1229735744E+000  +4.9721184986E-002 +8.6447773670E+001  +5.0046841150E-002 +8.6106311637E+001  +9.9202152970E-001 -2.1074739602E+000 
112031354.071 +9.9678089062E-001 -2.1869220589E+000  +5.1708580224E-002 +8.6428281576E+001  +5.2020837917E-002 +8.6021280494E+001  +9.9655157250E-001 -2.1697453153E+000 
116032152.430 +1.0014411467E+000 -2.2975467013E+000  +5.3883029109E-002 +8.6408598752E+001  +5.4050455472E-002 +8.5801064828E+001  +1.0009162790E+000 -2.2889566455E+000 
120032950.790 +1.0062477438E+000 -2.4993611480E+000  +5.6026588242E-002 +8.6316883798E+001  +5.6046670359E-002 +8.5708791288E+001  +1.0054667916E+000 -2.4598135630E+000 
124033749.150 +1.0105219892E+000 -2.7740920042E+000  +5.8214958125E-002 +8.5997039600E+001  +5.8072075767E-002 +8.5491497264E+001  +1.0098571606E+000 -2.7324917254E+000 
128034547.510 +1.0141292980E+000 -3.1140911993E+000  +6.0343001937E-002 +8.5699223194E+001  +6.0050288613E-002 +8.5169605464E+001  +1.0133242798E+000 -3.0472402485E+000 
132035345.869 +1.0161705130E+000 -3.5305452826E+000  +6.2444594016E-002 +8.5201463705E+001  +6.2125154926E-002 +8.4726256731E+001  +1.0157768936E+000 -3.4546443955E+000 
136036144.229 +1.0170970492E+000 -3.9779758275E+000  +6.4459026384E-002 +8.4693328690E+001  +6.3974232443E-002 +8.4262706395E+001  +1.0166032655E+000 -3.8918993333E+000 
140036942.589 +1.0158454397E+000 -4.4429208294E+000  +6.6369642443E-002 +8.4134112299E+001  +6.5758567405E-002 +8.3826919503E+001  +1.0157297325E+000 -4.3434859930E+000 
144037740.948 +1.0131736727E+000 -4.8748396536E+000  +6.8066776134E-002 +8.3620162571E+001  +6.7342624201E-002 +8.3425403809E+001  +1.0132599717E+000 -4.7634144146E+000 
148038539.308 +1.0086273258E+000 -5.2559788664E+000  +6.9557720853E-002 +8.3120429438E+001  +6.8763691399E-002 +8.3069490325E+001  +1.0087543402E+000 -5.1388540457E+000 
152039337.668 +1.0026723408E+000 -5.5749013303E+000  +7.1010348172E-002 +8.2764782629E+001  +7.0256546431E-002 +8.2921529034E+001  +1.0030105868E+000 -5.4602027729E+000 
156040136.027 +9.9596581105E-001 -5.7700833887E+000  +7.2369500537E-002 +8.2451818201E+001  +7.1542220981E-002 +8.2735026595E+001  +9.9665160498E-001 -5.6478127620E+000 
160040934.387 +9.8947053061E-001 -5.8456453466E+000  +7.3498464261E-002 +8.2317099010E+001  +7.2948370613E-002 +8.2757594306E+001  +9.9009743118E-001 -5.7246096258E+000 
164041732.747 +9.8382975808E-001 -5.8077140843E+000  +7.4785036874E-002 +8.2358595724E+001  +7.4379727011E-002 +8.2793344086E+001  +9.8450656692E-001 -5.7276224132E+000 
168042531.106 +9.7879601981E-001 -5.7315795877E+000  +7.6087113598E-002 +8.2439660401E+001  +7.5891150207E-002 +8.2988824349E+001  +9.7953270169E-001 -5.6218805122E+000 
172043329.466 +9.7534388335E-001 -5.5523735501E+000  +7.7590178307E-002 +8.2621084418E+001  +7.7481273291E-002 +8.3212936599E+001  +9.7604653751E-001 -5.4709656255E+000 
176044127.826 +9.7292212144E-001 -5.3387393177E+000  +7.9117580122E-002 +8.2864474547E+001  +7.9238605341E-002 +8.3375650261E+001  +9.7370846550E-001 -5.2702781185E+000 
180044926.185 +9.7218256395E-001 -5.1350732196E+000  +8.0765233002E-002 +8.3013917507E+001  +8.1147499714E-002 +8.3552943047E+001  +9.7297578624E-001 -5.0727610514E+000 
184045724.545 +9.7269452069E-001 -4.9245833741E+000  +8.2508830603E-002 +8.3240900795E+001  +8.3036186208E-002 +8.3696930410E+001  +9.7364476394E-001 -4.8718212377E+000 
188046522.905 +9.7487169024E-001 -4.7422748932E+000  +8.4354173685E-002 +8.3472777829E+001  +8.5106959878E-002 +8.3775662067E+001  +9.7515947768E-001 -4.6928693040E+000 
192047321.264 +9.7789194195E-001 -4.5919647066E+000  +8.6427309278E-002 +8.3597409665E+001  +8.7200667218E-002 +8.3763344441E+001  +9.7797495705E-001 -4.5476665787E+000 
196048119.624 +9.8175770556E-001 -4.4809838546E+000  +8.8419157564E-002 +8.3745189300E+001  +8.9206283160E-002 +8.3765632665E+001  +9.8162831293E-001 -4.4655853104E+000 
200048917.984 +9.8657377583E-001 -4.4533969024E+000  +9.0616719579E-002 +8.3807023291E+001  +9.1494901983E-002 +8.3647707861E+001  +9.8627512547E-001 -4.4255103385E+000 
204049716.343 +9.9185033957E-001 -4.4896452544E+000  +9.2838177467E-002 +8.3857093738E+001  +9.3593864609E-002 +8.3531794508E+001  +9.9116558368E-001 -4.4414960520E+000 
208050514.703 +9.9741818474E-001 -4.6040711516E+000  +9.5259592564E-002 +8.3836034535E+001  +9.5817919974E-002 +8.3437308145E+001  +9.9665026770E-001 -4.5576947911E+000 
212051313.063 +1.0029012321E+000 -4.8082876574E+000  +9.7605375982E-002 +8.3678987761E+001  +9.8012148255E-002 +8.3170586289E+001  +1.0020769042E+000 -4.7591561010E+000 
216052111.422 +1.0080279992E+000 -5.1188820288E+000  +1.0006132084E-001 +8.3449389086E+001  +1.0028386321E-001 +8.2894487043E+001  +1.0072822955E+000 -5.0272865704E+000 
220052909.782 +1.0125101567E+000 -5.4693110317E+000  +1.0251448965E-001 +8.3082508875E+001  +1.0241093836E-001 +8.2575522144E+001  +1.0113734111E+000 -5.3976836134E+000 
224053708.142 +1.0158055876E+000 -5.9236680606E+000  +1.0496725251E-001 +8.2667417181E+001  +1.0456021251E-001 +8.2146159462E+001  +1.0145584498E+000 -5.8191018650E+000 
228054506.501 +1.0171350003E+000 -6.4366148159E+000  +1.0713876592E-001 +8.2092044480E+001  +1.0653767420E-001 +8.1617626583E+001  +1.0162540794E+000 -6.3065197875E+000 
232055304.861 +1.0162766606E+000 -6.9715068813E+000  +1.0904274953E-001 +8.1497958351E+001  +1.0814280490E-001 +8.1049650662E+001  +1.0157427057E+000 -6.8164962457E+000 
236056103.221 +1.0133717851E+000 -7.4961945766E+000  +1.1065156881E-001 +8.0844004968E+001  +1.0971364422E-001 +8.0610482978E+001  +1.0128399485E+000 -7.3301313200E+000 
240056901.580 +1.0082824276E+000 -7.9706217244E+000  +1.1201500296E-001 +8.0281708618E+001  +1.1102538910E-001 +8.0136272964E+001  +1.0081734365E+000 -7.7917916060E+000 
244057699.940 +1.0017005773E+000 -8.3520794645E+000  +1.1300921727E-001 +7.9793114646E+001  +1.1194512589E-001 +7.9798360446E+001  +1.0020552484E+000 -8.1686966434E+000 
248058498.300 +9.9400880632E-001 -8.6000455913E+000  +1.1388133353E-001 +7.9511136327E+001  +1.1282655359E-001 +7.9617554586E+001  +9.9454841348E-001 -8.4074327595E+000 
252059296.659 +9.8592512298E-001 -8.7341281536E+000  +1.1465804642E-001 +7.9320386083E+001  +1.1365145022E-001 +7.9521144878E+001  +9.8676558548E-001 -8.5378250800E+000 
256060095.019 +9.7829415502E-001 -8.7424748486E+000  +1.1542485800E-001 +7.9255321834E+001  +1.1455706833E-001 +7.9635273268E+001  +9.7934917220E-001 -8.5576760120E+000 
260060893.379 +9.7158119279E-001 -8.6364221819E+000  +1.1628453312E-001 +7.9358048895E+001  +1.1551326425E-001 +7.9847319774E+001  +9.7301252420E-001 -8.4627428058E+000 
264061691.738 +9.6663595907E-001 -8.4208400047E+000  +1.1740647814E-001 +7.9544785716E+001  +1.1693504231E-001 +8.0083913507E+001  +9.6792258134E-001 -8.2774105954E+000 
268062490.098 +9.6320231192E-001 -8.1691831536E+000  +1.1858114796E-001 +7.9804159696E+001  +1.1851276417E-001 +8.0372614185E+001  +9.6445350296E-001 -8.0358169895E+000 
272063288.458 +9.6149827518E-001 -7.8774049511E+000  +1.2011062708E-001 +8.0074702890E+001  +1.2024170900E-001 +8.0633493094E+001  +9.6264849797E-001 -7.7695980448E+000 
276064086.817 +9.6140434863E-001 -7.5854778833E+000  +1.2179064405E-001 +8.0348428197E+001  +1.2214935746E-001 +8.0875581998E+001  +9.6240843272E-001 -7.4995736536E+000 
280064885.177 +9.6284850261E-001 -7.3176983790E+000  +1.2359816412E-001 +8.0619189189E+001  +1.2436140056E-001 +8.1018659387E+001  +9.6387704952E-001 -7.2378926004E+000 
284065683.537 +9.6583918952E-001 -7.0817744281E+000  +1.2559508404E-001 +8.0838351152E+001  +1.2659488215E-001 +8.1155924198E+001  +9.6640085126E-001 -7.0347895425E+000 
288066481.896 +9.6995950634E-001 -6.9106531517E+000  +1.2781488112E-001 +8.1016921850E+001  +1.2896467805E-001 +8.1207683038E+001  +9.7050560949E-001 -6.8551726174E+000 
292067280.256 +9.7512340750E-001 -6.8148547507E+000  +1.3004023387E-001 +8.1126992581E+001  +1.3129989852E-001 +8.1173231325E+001  +9.7515955124E-001 -6.7637865585E+000 
296068078.616 +9.8118554011E-001 -6.7769742618E+000  +1.3249413052E-001 +8.1238756481E+001  +1.3380302403E-001 +8.1114400027E+001  +9.8073498120E-001 -6.7318739355E+000 
300068876.975 +9.8756933848E-001 -6.8350148494E+000  +1.3517491123E-001 +8.1221359301E+001  +1.3633583689E-001 +8.1011634971E+001  +9.8705468679E-001 -6.7784678633E+000 
304069675.335 +9.9422433902E-001 -6.9921019273E+000  +1.3783708157E-001 +8.1174955903E+001  +1.3875653937E-001 +8.0807265618E+001  +9.9345884585E-001 -6.9384315568E+000 
308070473.695 +1.0007057197E+000 -7.2659823380E+000  +1.4074072965E-001 +8.0969862119E+001  +1.4130398672E-001 +8.0531835603E+001  +9.9970498633E-001 -7.1783032230E+000 
312071272.054 +1.0064488511E+000 -7.6291302469E+000  +1.4350242119E-001 +8.0673776922E+001  +1.4385899696E-001 +8.0184370970E+001  +1.0051422942E+000 -7.5231545498E+000 
316072070.414 +1.0110005727E+000 -8.0922890422E+000  +1.4626563815E-001 +8.0264517388E+001  +1.4617928575E-001 +7.9762735324E+001  +1.0094990291E+000 -7.9669126098E+000 
320072868.774 +1.0136050803E+000 -8.6279464991E+000  +1.4869273683E-001 +7.9716040472E+001  +1.4837648538E-001 +7.9211126586E+001  +1.0124690398E+000 -8.4782637365E+000 
324073667.133 +1.0146974001E+000 -9.2103898623E+000  +1.5089862371E-001 +7.9114381002E+001  +1.5025815081E-001 +7.8651278713E+001  +1.0132285516E+000 -9.0391391206E+000 
328074465.493 +1.0127891728E+000 -9.8083347446E+000  +1.5281136878E-001 +7.8418252652E+001  +1.5183226446E-001 +7.8059610522E+001  +1.0120205397E+000 -9.6101623315E+000 
332075263.853 +1.0088448262E+000 -1.0377543023E+001  +1.5403207155E-001 +7.7799546061E+001  +1.5291318951E-001 +7.7455730781E+001  +1.0081530019E+000 -1.0166108241E+001 
336076062.212 +1.0026283390E+000 -1.0882010070E+001  +1.5493324471E-001 +7.7159914285E+001  +1.5370628438E-001 +7.6984305815E+001  +1.0021154725E+000 -1.0652056818E+001 
340076860.572 +9.9453614335E-001 -1.1272868982E+001  +1.5541049885E-001 +7.6704342703E+001  +1.5416407642E-001 +7.6637441323E+001  +9.9455333030E-001 -1.1031363192E+001 
344077658.932 +9.8538306364E-001 -1.1528717785E+001  +1.5582279867E-001 +7.6427087845E+001  +1.5438244501E-001 +7.6441917345E+001  +9.8596116207E-001 -1.1285994916E+001 
348078457.291 +9.7623606704E-001 -1.1612955852E+001  +1.5590912305E-001 +7.6256071412E+001  +1.5467540157E-001 +7.6442856534E+001  +9.7703306158E-001 -1.1373849096E+001 
352079255.651 +9.6724648757E-001 -1.1572372768E+001  +1.5619115819E-001 +7.6320176279E+001  +1.5504448095E-001 +7.6535359771E+001  +9.6850200136E-001 -1.1348886248E+001 
356080054.011 +9.5998216571E-001 -1.1402214977E+001  +1.5657990509E-001 +7.6485352197E+001  +1.5564026001E-001 +7.6801804644E+001  +9.6133680816E-001 -1.1186740607E+001 
360080852.370 +9.5422348158E-001 -1.1132461445E+001  +1.5740897675E-001 +7.6687330214E+001  +1.5678015304E-001 +7.7105002382E+001  +9.5584625347E-001 -1.0935409015E+001 
364081650.730 +9.5044193122E-001 -1.0782539192E+001  +1.5837481428E-001 +7.7036696198E+001  +1.5802002924E-001 +7.7478809239E+001  +9.5199876112E-001 -1.0626530677E+001 
368082449.090 +9.4878780256E-001 -1.0438537498E+001  +1.5976573502E-001 +7.7337030224E+001  +1.5980188029E-001 +7.7842802159E+001  +9.5005167274E-001 -1.0280645271E+001 
372083247.449 +9.4877397751E-001 -1.0077723873E+001  +1.6141984013E-001 +7.7668566296E+001  +1.6175753479E-001 +7.8136874192E+001  +9.5022680578E-001 -9.9464004495E+000 
376084045.809 +9.5103212388E-001 -9.7519419177E+000  +1.6335707809E-001 +7.7978589763E+001  +1.6403248885E-001 +7.8376684166E+001  +9.5206787468E-001 -9.6425032731E+000 
380084844.169 +9.5446150360E-001 -9.4673244732E+000  +1.6555377645E-001 +7.8222341774E+001  +1.6652520757E-001 +7.8586529546E+001  +9.5534056387E-001 -9.3638216675E+000 
384085642.529 +9.5929695831E-001 -9.2451369872E+000  +1.6792442200E-001 +7.8425382017E+001  +1.6907145334E-001 +7.8648641213E+001  +9.6012038103E-001 -9.1746943192E+000 
388086440.888 +9.6536678753E-001 -9.1187031553E+000  +1.7053284091E-001 +7.8571253715E+001  +1.7188337160E-001 +7.8691336833E+001  +9.6579602617E-001 -9.0434355711E+000 
392087239.248 +9.7233637229E-001 -9.0794251656E+000  +1.7335899910E-001 +7.8672263771E+001  +1.7469075590E-001 +7.8641831671E+001  +9.7211801428E-001 -8.9947819186E+000 
396088037.608 +9.7966491774E-001 -9.1380002837E+000  +1.7635753887E-001 +7.8674738536E+001  +1.7751509080E-001 +7.8533111998E+001  +9.7927604062E-001 -9.0700619394E+000 
400088835.967 +9.8767310081E-001 -9.3144708533E+000  +1.7941935379E-001 +7.8553543914E+001  +1.8052821833E-001 +7.8325796089E+001  +9.8661694373E-001 -9.2406823250E+000 
404089634.327 +9.9464081330E-001 -9.6151490950E+000  +1.8267702850E-001 +7.8354582682E+001  +1.8347877523E-001 +7.8008811386E+001  +9.9341446112E-001 -9.5201375180E+000 
408090432.687 +1.0010866380E+000 -1.0013039769E+001  +1.8573049736E-001 +7.8018567888E+001  +1.8632293094E-001 +7.7655041115E+001  +9.9969220596E-001 -9.8980707988E+000 
412091231.046 +1.0062704926E+000 -1.0527856766E+001  +1.8877981751E-001 +7.7551423686E+001  +1.8905384919E-001 +7.7142862505E+001  +1.0046424038E+000 -1.0382266546E+001 
416092029.406 +1.0095215400E+000 -1.1120092769E+001  +1.9160638622E-001 +7.6938958728E+001  +1.9143227476E-001 +7.6569750471E+001  +1.0079585846E+000 -1.0948635652E+001 
420092827.766 +1.0102314546E+000 -1.1782024254E+001  +1.9380505319E-001 +7.6282085008E+001  +1.9351428652E-001 +7.5906862880E+001  +1.0087933704E+000 -1.1577613861E+001 
424093626.125 +1.0082335086E+000 -1.2451816951E+001  +1.9559597857E-001 +7.5543845132E+001  +1.9476117421E-001 +7.5252997146E+001  +1.0070229451E+000 -1.2200289891E+001 
428094424.485 +1.0037272461E+000 -1.3090308540E+001  +1.9660865126E-001 +7.4832853951E+001  +1.9558271561E-001 +7.4590582765E+001  +1.0029490285E+000 -1.2831749900E+001 
432095222.845 +9.9664030708E-001 -1.3633996900E+001  +1.9706307569E-001 +7.4210947364E+001  +1.9591100900E-001 +7.4036378735E+001  +9.9611778334E-001 -1.3357259583E+001 
436096021.204 +9.8758556902E-001 -1.4075361837E+001  +1.9691900405E-001 +7.3725319914E+001  +1.9559412118E-001 +7.3622966656E+001  +9.8745647893E-001 -1.3787305892E+001 
440096819.564 +9.7724613599E-001 -1.4350152694E+001  +1.9656390022E-001 +7.3398865502E+001  +1.9517872228E-001 +7.3365138476E+001  +9.7775662473E-001 -1.4057104769E+001 
444097617.924 +9.6679223628E-001 -1.4451632887E+001  +1.9597441001E-001 +7.3269304351E+001  +1.9484082013E-001 +7.3369075793E+001  +9.6766562078E-001 -1.4168104925E+001 
448098416.283 +9.5676289783E-001 -1.4394220729E+001  +1.9566273182E-001 +7.3296457179E+001  +1.9455284368E-001 +7.3486536299E+001  +9.5809885065E-001 -1.4127614863E+001 
452099214.643 +9.4838191763E-001 -1.4193111966E+001  +1.9552607834E-001 +7.3506138663E+001  +1.9465956113E-001 +7.3781220033E+001  +9.5005014770E-001 -1.3933863560E+001 
456100013.003 +9.4176929690E-001 -1.3880748427E+001  +1.9574179583E-001 +7.3811181542E+001  +1.9522411544E-001 +7.4134049659E+001  +9.4329401486E-001 -1.3648023716E+001 
