!  2-Port S-parameters saved by WinCal
! VAR MeasName=S-Parameters (CALIBRATED_DATA) read from VNA (P5004A)
! VAR MeasDate=24/04/2024 15:20:22
! VAR NAME=Wafer2_r1_c3_pristine 2
! VAR FILENAME=Wafer2_r1_c3_pristine 2.S2P
! VAR DATE=24/04/2024 15:20:22
! VAR PHYS_PORTS=1,2
! VAR ObjTypeName=DATASET
! VAR IndexType=Frequency
!
# Hz S MA R 50
9000.000 +7.9972549736E-001 +1.7302821299E+001  +4.2294536937E-005 -7.5400626216E+001  +5.0618734684E-005 -1.6977691231E+002  +7.9891265413E-001 +1.7307317745E+001 
4009798.360 +9.8741778162E-001 -3.1352758123E+000  +1.8812857723E-003 +8.6160181675E+001  +1.9037185988E-003 +8.6648945584E+001  +9.8709663187E-001 -3.0661379253E+000 
8010596.719 +9.7592950770E-001 -6.3613437622E-001  +3.7210985381E-003 +8.8523758402E+001  +3.7387269230E-003 +8.8274426374E+001  +9.7651503602E-001 -6.0841874025E-001 
12011395.079 +9.8340036537E-001 -1.1704872994E-002  +5.6048553190E-003 +8.9123878291E+001  +5.6432184154E-003 +8.8716141468E+001  +9.8384741775E-001 -1.5939146017E-002 
16012193.439 +9.8955481069E-001 +1.7427950986E-001  +7.4845318131E-003 +8.9315294756E+001  +7.5210165010E-003 +8.8779723462E+001  +9.8975495624E-001 +1.5992831212E-001 
20012991.798 +9.9473316551E-001 +1.9248827215E-001  +9.3902547399E-003 +8.9315628044E+001  +9.3961276744E-003 +8.8730534456E+001  +9.9483152057E-001 +1.8102410171E-001 
24013790.158 +9.9960683028E-001 +1.2309947419E-001  +1.1306819957E-002 +8.9291007953E+001  +1.1299267507E-002 +8.8686681367E+001  +9.9958816189E-001 +1.2117144541E-001 
28014588.518 +1.0035204977E+000 -4.0229914632E-002  +1.3258043443E-002 +8.9195943139E+001  +1.3197720548E-002 +8.8578101692E+001  +1.0035509056E+000 -3.0012855255E-002 
32015386.877 +1.0077818900E+000 -2.3847196740E-001  +1.5199801096E-002 +8.8921710038E+001  +1.5274503456E-002 +8.8070176721E+001  +1.0077794736E+000 -2.2460234570E-001 
36016185.237 +1.0108346741E+000 -5.0459410230E-001  +1.7250097351E-002 +8.8228846716E+001  +1.7224384356E-002 +8.7972011650E+001  +1.0109586745E+000 -5.0008649105E-001 
40016983.597 +1.0128105243E+000 -8.4065211719E-001  +1.9227973512E-002 +8.8064459507E+001  +1.9127333346E-002 +8.7760264305E+001  +1.0128613334E+000 -8.2636119248E-001 
44017781.956 +1.0139721887E+000 -1.1960527850E+000  +2.1146616542E-002 +8.7605937324E+001  +2.0950926764E-002 +8.7500746403E+001  +1.0140834486E+000 -1.1762417348E+000 
48018580.316 +1.0143801124E+000 -1.5630393203E+000  +2.3030479013E-002 +8.7132894191E+001  +2.2844551815E-002 +8.7032922656E+001  +1.0146530319E+000 -1.5332803988E+000 
52019378.676 +1.0130237204E+000 -1.9584607210E+000  +2.4975740319E-002 +8.6585923297E+001  +2.4615100993E-002 +8.6725130819E+001  +1.0127922361E+000 -1.9178432158E+000 
56020177.035 +1.0103101002E+000 -2.2884842846E+000  +2.6847783701E-002 +8.6144566705E+001  +2.6387808121E-002 +8.6487792700E+001  +1.0103542079E+000 -2.2574117963E+000 
60020975.395 +1.0065589957E+000 -2.6065312753E+000  +2.8547841678E-002 +8.5757737950E+001  +2.8234644703E-002 +8.6121123853E+001  +1.0065950401E+000 -2.5603229659E+000 
64021773.755 +1.0016207294E+000 -2.8077488116E+000  +3.0174497370E-002 +8.5578565910E+001  +2.9914800981E-002 +8.5979178200E+001  +1.0017199954E+000 -2.7708570134E+000 
68022572.114 +9.9632380694E-001 -2.9429129379E+000  +3.1795287025E-002 +8.5467104586E+001  +3.1654338242E-002 +8.5798302668E+001  +9.9637192288E-001 -2.9100293636E+000 
72023370.474 +9.9175991899E-001 -2.9827283849E+000  +3.3452647338E-002 +8.5246358521E+001  +3.3354799068E-002 +8.5942603475E+001  +9.9195254220E-001 -2.9568324596E+000 
76024168.834 +9.8755390551E-001 -2.9533691334E+000  +3.5016745739E-002 +8.5398372447E+001  +3.5015783746E-002 +8.5922692116E+001  +9.8771902071E-001 -2.9170080839E+000 
80024967.193 +9.8413269737E-001 -2.8517322117E+000  +3.6716017167E-002 +8.5476099854E+001  +3.6935559120E-002 +8.5968423292E+001  +9.8448968759E-001 -2.8232037837E+000 
84025765.553 +9.8227879857E-001 -2.7218189648E+000  +3.8399935992E-002 +8.5587528383E+001  +3.8655176935E-002 +8.6133252142E+001  +9.8241407424E-001 -2.7174956696E+000 
88026563.913 +9.8148931293E-001 -2.5555876739E+000  +4.0178248107E-002 +8.5884239981E+001  +4.0451166231E-002 +8.6215282507E+001  +9.8133644703E-001 -2.5585429292E+000 
92027362.272 +9.8183822067E-001 -2.4225462419E+000  +4.1991214799E-002 +8.5949094249E+001  +4.2369672343E-002 +8.6269945966E+001  +9.8168337823E-001 -2.4253015175E+000 
96028160.632 +9.8262892728E-001 -2.2941676053E+000  +4.3833380926E-002 +8.6161494460E+001  +4.4234604256E-002 +8.6237278195E+001  +9.8265304216E-001 -2.3025093402E+000 
100028958.992 +9.8558822055E-001 -2.2025684644E+000  +4.5789156791E-002 +8.6242930645E+001  +4.6223084158E-002 +8.6238482769E+001  +9.8527402560E-001 -2.2117105637E+000 
104029757.351 +9.8856289616E-001 -2.1409340291E+000  +4.7682914878E-002 +8.6429740152E+001  +4.8178481953E-002 +8.6187081961E+001  +9.8834576112E-001 -2.1336721629E+000 
108030555.711 +9.9244828440E-001 -2.1293421996E+000  +4.9673079370E-002 +8.6384970697E+001  +5.0050540826E-002 +8.6085152709E+001  +9.9203728641E-001 -2.1252021491E+000 
112031354.071 +9.9682134684E-001 -2.1874829565E+000  +5.1745240949E-002 +8.6458674863E+001  +5.2077970119E-002 +8.5943864114E+001  +9.9642329784E-001 -2.1805320396E+000 
116032152.430 +1.0013740227E+000 -2.2965895987E+000  +5.3815527125E-002 +8.6448285646E+001  +5.3978707408E-002 +8.5839422632E+001  +1.0008383613E+000 -2.2938896393E+000 
120032950.790 +1.0061560663E+000 -2.4983778419E+000  +5.6008940117E-002 +8.6178101391E+001  +5.6089711984E-002 +8.5611558789E+001  +1.0054918732E+000 -2.4694817828E+000 
124033749.150 +1.0105760057E+000 -2.7659234793E+000  +5.8212145498E-002 +8.5963832670E+001  +5.8134747978E-002 +8.5451210250E+001  +1.0098787779E+000 -2.7525823817E+000 
128034547.510 +1.0139691706E+000 -3.1235920192E+000  +6.0268206635E-002 +8.5583293433E+001  +6.0106252483E-002 +8.5134882450E+001  +1.0134652803E+000 -3.0653318828E+000 
132035345.869 +1.0161214633E+000 -3.5269765407E+000  +6.2470890553E-002 +8.5192886734E+001  +6.2103475559E-002 +8.4778938713E+001  +1.0156937707E+000 -3.4782205737E+000 
136036144.229 +1.0168845266E+000 -3.9762836647E+000  +6.4519115507E-002 +8.4646855062E+001  +6.3969986701E-002 +8.4355644047E+001  +1.0165834101E+000 -3.9230379970E+000 
140036942.589 +1.0157317021E+000 -4.4440288802E+000  +6.6342796086E-002 +8.4049124321E+001  +6.5611338703E-002 +8.3861085646E+001  +1.0157541156E+000 -4.3524399521E+000 
144037740.948 +1.0131553238E+000 -4.8710013604E+000  +6.8032884552E-002 +8.3655761999E+001  +6.7321514407E-002 +8.3436804314E+001  +1.0129543067E+000 -4.7819527419E+000 
148038539.308 +1.0087751417E+000 -5.2534472096E+000  +6.9567860550E-002 +8.3119859359E+001  +6.8772480456E-002 +8.3161717209E+001  +1.0087347642E+000 -5.1577518186E+000 
152039337.668 +1.0027842723E+000 -5.5755328846E+000  +7.0981420544E-002 +8.2741930157E+001  +7.0228336472E-002 +8.2799960129E+001  +1.0030660360E+000 -5.4777450361E+000 
156040136.027 +9.9607168199E-001 -5.7621736997E+000  +7.2277422849E-002 +8.2412594202E+001  +7.1594344699E-002 +8.2752315325E+001  +9.9668201622E-001 -5.6753813544E+000 
160040934.387 +9.8950485646E-001 -5.8406923263E+000  +7.3523361598E-002 +8.2298201242E+001  +7.2994304602E-002 +8.2721270555E+001  +9.9009045562E-001 -5.7363394659E+000 
164041732.747 +9.8389751115E-001 -5.7971008850E+000  +7.4829746313E-002 +8.2340404957E+001  +7.4349496392E-002 +8.2792082413E+001  +9.8443314716E-001 -5.7358329473E+000 
168042531.106 +9.7871652381E-001 -5.7273834182E+000  +7.6132521768E-002 +8.2409733809E+001  +7.5981070810E-002 +8.2984973218E+001  +9.7947601698E-001 -5.6476455668E+000 
172043329.466 +9.7530679839E-001 -5.5436354425E+000  +7.7453133892E-002 +8.2584331608E+001  +7.7505330492E-002 +8.3112804393E+001  +9.7594011054E-001 -5.4946459906E+000 
176044127.826 +9.7294539401E-001 -5.3400125740E+000  +7.9153508648E-002 +8.2762393277E+001  +7.9243387621E-002 +8.3259472293E+001  +9.7363164732E-001 -5.2931654039E+000 
180044926.185 +9.7222379976E-001 -5.1317380193E+000  +8.0732449382E-002 +8.2998608510E+001  +8.1024128376E-002 +8.3477366050E+001  +9.7302837407E-001 -5.0975814416E+000 
184045724.545 +9.7296847252E-001 -4.9256946859E+000  +8.2553806882E-002 +8.3210842469E+001  +8.3049691615E-002 +8.3629833671E+001  +9.7353661025E-001 -4.8876171571E+000 
188046522.905 +9.7488944606E-001 -4.7323865612E+000  +8.4404245775E-002 +8.3377413110E+001  +8.5124009008E-002 +8.3697893984E+001  +9.7513783344E-001 -4.7252939764E+000 
192047321.264 +9.7789263980E-001 -4.5868874301E+000  +8.6325130520E-002 +8.3565236284E+001  +8.7199087419E-002 +8.3700961366E+001  +9.7807228762E-001 -4.5745730604E+000 
196048119.624 +9.8158293215E-001 -4.4891591546E+000  +8.8425054245E-002 +8.3681714700E+001  +8.9273142332E-002 +8.3621213644E+001  +9.8153126324E-001 -4.4848807001E+000 
200048917.984 +9.8672121643E-001 -4.4517997418E+000  +9.0637867607E-002 +8.3773718907E+001  +9.1452519807E-002 +8.3619525190E+001  +9.8624265259E-001 -4.4564928010E+000 
204049716.343 +9.9165115520E-001 -4.4902829087E+000  +9.2863083011E-002 +8.3860506815E+001  +9.3626590823E-002 +8.3486280029E+001  +9.9109698438E-001 -4.4775934234E+000 
208050514.703 +9.9739080744E-001 -4.6032677447E+000  +9.5205101379E-002 +8.3805807840E+001  +9.5843513471E-002 +8.3336305769E+001  +9.9658385739E-001 -4.5932353037E+000 
212051313.063 +1.0029757589E+000 -4.7974275090E+000  +9.7640727197E-002 +8.3655921888E+001  +9.8124097121E-002 +8.3172309296E+001  +1.0021471403E+000 -4.7864455908E+000 
216052111.422 +1.0079503432E+000 -5.1130438238E+000  +1.0011237740E-001 +8.3420374784E+001  +1.0031286617E-001 +8.2808045520E+001  +1.0070168532E+000 -5.0580655835E+000 
220052909.782 +1.0124963738E+000 -5.4656936684E+000  +1.0252901468E-001 +8.3009831752E+001  +1.0252903004E-001 +8.2473050123E+001  +1.0113633059E+000 -5.4173627700E+000 
224053708.142 +1.0156334107E+000 -5.9175648610E+000  +1.0483446958E-001 +8.2598507513E+001  +1.0457024583E-001 +8.2094020016E+001  +1.0145471539E+000 -5.8508700674E+000 
228054506.501 +1.0170732758E+000 -6.4420926198E+000  +1.0706120836E-001 +8.2009889226E+001  +1.0656237167E-001 +8.1566328387E+001  +1.0161303531E+000 -6.3376748100E+000 
232055304.861 +1.0161133451E+000 -6.9674706234E+000  +1.0903922921E-001 +8.1423220363E+001  +1.0825559680E-001 +8.1015969187E+001  +1.0154702362E+000 -6.8503304897E+000 
236056103.221 +1.0132464757E+000 -7.4856367782E+000  +1.1068935505E-001 +8.0768189428E+001  +1.0967015152E-001 +8.0483693131E+001  +1.0127813294E+000 -7.3571603189E+000 
240056901.580 +1.0083909520E+000 -7.9663745533E+000  +1.1194467426E-001 +8.0203583027E+001  +1.1087406572E-001 +8.0059657169E+001  +1.0081801415E+000 -7.8345366661E+000 
244057699.940 +1.0017196464E+000 -8.3416880996E+000  +1.1308566053E-001 +7.9761450623E+001  +1.1193584377E-001 +7.9749578437E+001  +1.0020305967E+000 -8.1978987636E+000 
248058498.300 +9.9405304598E-001 -8.5986870681E+000  +1.1391644997E-001 +7.9434375192E+001  +1.1285346006E-001 +7.9575362575E+001  +9.9451454077E-001 -8.4460221169E+000 
252059296.659 +9.8584495538E-001 -8.7277521023E+000  +1.1466301725E-001 +7.9226341060E+001  +1.1370381685E-001 +7.9455716757E+001  +9.8680029508E-001 -8.5815354733E+000 
256060095.019 +9.7847886353E-001 -8.7373730884E+000  +1.1546336152E-001 +7.9200088786E+001  +1.1453782907E-001 +7.9535835469E+001  +9.7932391683E-001 -8.5863826404E+000 
260060893.379 +9.7158349443E-001 -8.6255349764E+000  +1.1628793607E-001 +7.9300636762E+001  +1.1567404690E-001 +7.9781852897E+001  +9.7291686914E-001 -8.4902387486E+000 
264061691.738 +9.6659309704E-001 -8.4169462606E+000  +1.1737511451E-001 +7.9515538187E+001  +1.1703288626E-001 +7.9997417083E+001  +9.6782272542E-001 -8.3081423769E+000 
268062490.098 +9.6297986841E-001 -8.1652360787E+000  +1.1861183741E-001 +7.9785775231E+001  +1.1850741332E-001 +8.0299635141E+001  +9.6427062549E-001 -8.0791996587E+000 
272063288.458 +9.6133943302E-001 -7.8682815278E+000  +1.2009580704E-001 +7.9998674839E+001  +1.2024489100E-001 +8.0546240379E+001  +9.6254667678E-001 -7.8033648335E+000 
276064086.817 +9.6145532107E-001 -7.5806515227E+000  +1.2173186763E-001 +8.0318754700E+001  +1.2220650128E-001 +8.0810769241E+001  +9.6240617407E-001 -7.5378770202E+000 
280064885.177 +9.6277222937E-001 -7.3087470185E+000  +1.2362832912E-001 +8.0549798625E+001  +1.2435793531E-001 +8.0970465041E+001  +9.6381446850E-001 -7.2733948490E+000 
284065683.537 +9.6573713620E-001 -7.0921471403E+000  +1.2560392918E-001 +8.0732231220E+001  +1.2652161531E-001 +8.1093636588E+001  +9.6619394229E-001 -7.0757902059E+000 
288066481.896 +9.7001305307E-001 -6.8972634530E+000  +1.2778668034E-001 +8.0923494344E+001  +1.2894440394E-001 +8.1130806310E+001  +9.7020018703E-001 -6.8834106935E+000 
292067280.256 +9.7500329497E-001 -6.8062620881E+000  +1.3006310286E-001 +8.1110098449E+001  +1.3127452545E-001 +8.1076678416E+001  +9.7506030387E-001 -6.7985061359E+000 
296068078.616 +9.8110320124E-001 -6.7682442811E+000  +1.3260970871E-001 +8.1139818104E+001  +1.3374774418E-001 +8.1030004623E+001  +9.8071827143E-001 -6.7734117628E+000 
300068876.975 +9.8748407733E-001 -6.8357332057E+000  +1.3508010103E-001 +8.1165669914E+001  +1.3619520543E-001 +8.0910791229E+001  +9.8695744021E-001 -6.8105778627E+000 
304069675.335 +9.9426665530E-001 -6.9774332614E+000  +1.3784625769E-001 +8.1077328567E+001  +1.3868295245E-001 +8.0719889584E+001  +9.9341355305E-001 -6.9760554647E+000 
308070473.695 +1.0006180476E+000 -7.2602839683E+000  +1.4071259340E-001 +8.0899881597E+001  +1.4132409898E-001 +8.0472002361E+001  +9.9950321539E-001 -7.2222032628E+000 
312071272.054 +1.0063571578E+000 -7.6143994199E+000  +1.4351238150E-001 +8.0600764456E+001  +1.4377621064E-001 +8.0102758494E+001  +1.0051141448E+000 -7.5690734422E+000 
316072070.414 +1.0109596602E+000 -8.0796190234E+000  +1.4618451777E-001 +8.0171959221E+001  +1.4621872877E-001 +7.9702431713E+001  +1.0094947534E+000 -8.0117457199E+000 
320072868.774 +1.0132554578E+000 -8.6157764305E+000  +1.4856479039E-001 +7.9644707138E+001  +1.4827200058E-001 +7.9149193180E+001  +1.0124138721E+000 -8.5173566272E+000 
324073667.133 +1.0145370710E+000 -9.2156629521E+000  +1.5085146702E-001 +7.9040534639E+001  +1.5026314557E-001 +7.8567025314E+001  +1.0130453271E+000 -9.0898980060E+000 
328074465.493 +1.0126700695E+000 -9.7991248850E+000  +1.5272414735E-001 +7.8376341641E+001  +1.5184561910E-001 +7.7966755838E+001  +1.0119048523E+000 -9.6474763681E+000 
332075263.853 +1.0087439447E+000 -1.0376136635E+001  +1.5393916783E-001 +7.7700265780E+001  +1.5296570149E-001 +7.7381757625E+001  +1.0080245064E+000 -1.0212264649E+001 
336076062.212 +1.0024835051E+000 -1.0861379641E+001  +1.5495171250E-001 +7.7087879761E+001  +1.5365129904E-001 +7.6918059547E+001  +1.0020850421E+000 -1.0687090417E+001 
340076860.572 +9.9445342406E-001 -1.1272780703E+001  +1.5535345460E-001 +7.6637276775E+001  +1.5398746701E-001 +7.6570509686E+001  +9.9441021358E-001 -1.1074718093E+001 
344077658.932 +9.8517127087E-001 -1.1525185796E+001  +1.5564686605E-001 +7.6340895955E+001  +1.5427960614E-001 +7.6344815445E+001  +9.8602068536E-001 -1.1325010140E+001 
348078457.291 +9.7598479484E-001 -1.1602341492E+001  +1.5586001051E-001 +7.6201063258E+001  +1.5461670367E-001 +7.6331657917E+001  +9.7683131756E-001 -1.1420763594E+001 
352079255.651 +9.6733990552E-001 -1.1566923530E+001  +1.5612412821E-001 +7.6226786570E+001  +1.5502439630E-001 +7.6466839807E+001  +9.6834764313E-001 -1.1392353186E+001 
356080054.011 +9.5978077081E-001 -1.1394398151E+001  +1.5656678319E-001 +7.6358419821E+001  +1.5561203139E-001 +7.6722173060E+001  +9.6113624192E-001 -1.1228676741E+001 
360080852.370 +9.5400185172E-001 -1.1130266672E+001  +1.5728940236E-001 +7.6619981169E+001  +1.5665039084E-001 +7.7058550004E+001  +9.5567526557E-001 -1.0981659639E+001 
364081650.730 +9.5045453919E-001 -1.0777963183E+001  +1.5835418810E-001 +7.6950142320E+001  +1.5797420985E-001 +7.7418519274E+001  +9.5197162271E-001 -1.0662372789E+001 
368082449.090 +9.4870776883E-001 -1.0428309947E+001  +1.5974346920E-001 +7.7282699804E+001  +1.5974479087E-001 +7.7766477905E+001  +9.4993619648E-001 -1.0330196625E+001 
372083247.449 +9.4854875310E-001 -1.0075350468E+001  +1.6147094050E-001 +7.7592538198E+001  +1.6171033333E-001 +7.8039087004E+001  +9.5005375241E-001 -9.9925012251E+000 
376084045.809 +9.5073610621E-001 -9.7494479018E+000  +1.6342685150E-001 +7.7886862052E+001  +1.6401835061E-001 +7.8285175343E+001  +9.5195644032E-001 -9.6720117054E+000 
380084844.169 +9.5438723539E-001 -9.4589878894E+000  +1.6556736339E-001 +7.8158102317E+001  +1.6649227026E-001 +7.8472236121E+001  +9.5522445222E-001 -9.4087154040E+000 
384085642.529 +9.5929046193E-001 -9.2410017671E+000  +1.6792975789E-001 +7.8341435141E+001  +1.6906632870E-001 +7.8591980901E+001  +9.5992340093E-001 -9.2160480345E+000 
388086440.888 +9.6525714942E-001 -9.1072619039E+000  +1.7055595308E-001 +7.8500197926E+001  +1.7184107722E-001 +7.8584890522E+001  +9.6558529580E-001 -9.1091159008E+000 
392087239.248 +9.7217106335E-001 -9.0729299189E+000  +1.7330195264E-001 +7.8567170872E+001  +1.7467407525E-001 +7.8508766506E+001  +9.7194317173E-001 -9.0567935635E+000 
396088037.608 +9.7944331342E-001 -9.1318569604E+000  +1.7629622577E-001 +7.8572055236E+001  +1.7743673803E-001 +7.8405203094E+001  +9.7915914624E-001 -9.1213659239E+000 
400088835.967 +9.8731166872E-001 -9.3095783244E+000  +1.7935504346E-001 +7.8477537552E+001  +1.8051286108E-001 +7.8227570620E+001  +9.8628487944E-001 -9.2896988607E+000 
404089634.327 +9.9444251483E-001 -9.6082968039E+000  +1.8260200140E-001 +7.8253108320E+001  +1.8341689775E-001 +7.7945902935E+001  +9.9331914426E-001 -9.5643925998E+000 
408090432.687 +1.0010091848E+000 -1.0009886947E+001  +1.8570509624E-001 +7.7920511609E+001  +1.8631600041E-001 +7.7559030059E+001  +9.9941464679E-001 -9.9492401116E+000 
412091231.046 +1.0062524479E+000 -1.0510091000E+001  +1.8874249345E-001 +7.7477144499E+001  +1.8894408234E-001 +7.7057762795E+001  +1.0044615572E+000 -1.0440712373E+001 
416092029.406 +1.0092635014E+000 -1.1106629985E+001  +1.9142585061E-001 +7.6872302560E+001  +1.9139784878E-001 +7.6462582294E+001  +1.0076095946E+000 -1.0995478163E+001 
420092827.766 +1.0101016880E+000 -1.1771501166E+001  +1.9378367759E-001 +7.6173736506E+001  +1.9332703471E-001 +7.5789149421E+001  +1.0084945702E+000 -1.1627149043E+001 
424093626.125 +1.0081664589E+000 -1.2434626913E+001  +1.9540772429E-001 +7.5476729236E+001  +1.9471262971E-001 +7.5135143012E+001  +1.0068483316E+000 -1.2256955802E+001 
428094424.485 +1.0032105901E+000 -1.3082162553E+001  +1.9649164541E-001 +7.4716055019E+001  +1.9542065938E-001 +7.4457688931E+001  +1.0026433149E+000 -1.2882813978E+001 
432095222.845 +9.9629864722E-001 -1.3618769399E+001  +1.9688346401E-001 +7.4134434546E+001  +1.9573885568E-001 +7.3953586774E+001  +9.9600239372E-001 -1.3412750795E+001 
436096021.204 +9.8726692893E-001 -1.4050913605E+001  +1.9681818604E-001 +7.3613496603E+001  +1.9552770087E-001 +7.3539940077E+001  +9.8700372068E-001 -1.3838041872E+001 
440096819.564 +9.7694057424E-001 -1.4338052933E+001  +1.9644734337E-001 +7.3268104176E+001  +1.9509795765E-001 +7.3286230088E+001  +9.7764709944E-001 -1.4111544396E+001 
444097617.924 +9.6645869431E-001 -1.4449511064E+001  +1.9598413193E-001 +7.3158543006E+001  +1.9464600718E-001 +7.3254147977E+001  +9.6744035075E-001 -1.4220988198E+001 
448098416.283 +9.5667618092E-001 -1.4385671289E+001  +1.9554682055E-001 +7.3225351857E+001  +1.9454584436E-001 +7.3397319093E+001  +9.5790682869E-001 -1.4173200135E+001 
452099214.643 +9.4836389140E-001 -1.4179105884E+001  +1.9552680163E-001 +7.3419639296E+001  +1.9453292752E-001 +7.3668184523E+001  +9.4971546827E-001 -1.3984564105E+001 
456100013.003 +9.4154883776E-001 -1.3887978380E+001  +1.9584499810E-001 +7.3693758775E+001  +1.9503503651E-001 +7.4042006986E+001  +9.4315584716E-001 -1.3694250827E+001 
