!  2-Port S-parameters saved by WinCal
! VAR MeasName=S-Parameters (CALIBRATED_DATA) read from VNA (P5004A)
! VAR MeasDate=24/04/2024 16:28:09
! VAR NAME=Wafer2_r1_c1_overformed 2
! VAR FILENAME=Wafer2_r1_c1_overformed 2.S2P
! VAR DATE=24/04/2024 16:28:09
! VAR PHYS_PORTS=1,2
! VAR ObjTypeName=DATASET
! VAR IndexType=Frequency
!
# Hz S MA R 50
9000.000 +7.8689122302E-001 +1.8097826571E+001  +7.4063382900E-006 -7.6730703045E+000  +2.2463632393E-005 -1.3232801944E+000  +7.9230271500E-001 +1.8002984497E+001 
4009798.360 +9.8795695073E-001 -3.1177336343E+000  +1.9330027516E-003 +8.5628109889E+001  +1.9585040844E-003 +8.5624251947E+001  +9.8750519314E-001 -3.0394948900E+000 
8010596.719 +9.7675996367E-001 -5.9340761451E-001  +3.8068194978E-003 +8.8247204852E+001  +3.8414911407E-003 +8.7998605037E+001  +9.7685042606E-001 -6.0066324676E-001 
12011395.079 +9.7612452602E-001 +7.7589051131E-002  +5.7176302502E-003 +8.8887748014E+001  +5.7596973587E-003 +8.8471011434E+001  +9.7321883097E-001 +3.1973785042E-002 
16012193.439 +9.8807254957E-001 +2.5763493614E-001  +7.6689687475E-003 +8.9076983683E+001  +7.7032186046E-003 +8.8534496693E+001  +9.8580367660E-001 +2.2295261180E-001 
20012991.798 +9.9587874037E-001 +2.4738351296E-001  +9.6354519297E-003 +8.9031600907E+001  +9.6549942455E-003 +8.8461100951E+001  +9.9457135172E-001 +2.5969255982E-001 
24013790.158 +1.0006662578E+000 +2.5475511156E-001  +1.1602261393E-002 +8.8997388627E+001  +1.1593616284E-002 +8.8364750975E+001  +1.0002372906E+000 +1.3856801418E-001 
28014588.518 +1.0044651581E+000 +9.8538039674E-002  +1.3588638028E-002 +8.8838105967E+001  +1.3531263293E-002 +8.8241648054E+001  +1.0034945357E+000 -1.5040451298E-002 
32015386.877 +1.0096880990E+000 -2.4536484479E-001  +1.5575829459E-002 +8.8733218719E+001  +1.5503090032E-002 +8.8190359227E+001  +1.0094852908E+000 -2.9255007999E-001 
36016185.237 +1.0121967460E+000 -5.1328825725E-001  +1.7574324069E-002 +8.8431681681E+001  +1.7464721190E-002 +8.7967864878E+001  +1.0124405153E+000 -5.6477754517E-001 
40016983.597 +1.0137153774E+000 -8.3956813256E-001  +1.9564218908E-002 +8.8043835287E+001  +1.9415288954E-002 +8.7673490180E+001  +1.0139947553E+000 -8.9058110901E-001 
44017781.956 +1.0146164288E+000 -1.2326142605E+000  +2.1549222612E-002 +8.7585063824E+001  +2.1343961027E-002 +8.7351552307E+001  +1.0147321817E+000 -1.2530282904E+000 
48018580.316 +1.0148544762E+000 -1.5983608766E+000  +2.3499185825E-002 +8.7082485894E+001  +2.3278661048E-002 +8.7003382191E+001  +1.0154577790E+000 -1.6057951554E+000 
52019378.676 +1.0222904311E+000 -2.1692856107E+000  +2.5471511093E-002 +8.6720598841E+001  +2.5200566824E-002 +8.6723998196E+001  +1.0224413713E+000 -2.1319508800E+000 
56020177.035 +1.0215404618E+000 -2.5202151296E+000  +2.7288393320E-002 +8.6184725493E+001  +2.7025403604E-002 +8.6329461331E+001  +1.0218043926E+000 -2.4456697642E+000 
60020975.395 +1.0195578061E+000 -2.8259436554E+000  +2.9028612273E-002 +8.5777036737E+001  +2.8804266248E-002 +8.6062970965E+001  +1.0212488613E+000 -2.6588086087E+000 
64021773.755 +1.0116910557E+000 -2.9113574667E+000  +3.0695463685E-002 +8.5440053365E+001  +3.0529398236E-002 +8.5912613099E+001  +1.0151387764E+000 -2.7309430067E+000 
68022572.114 +9.8887583843E-001 -2.7256053858E+000  +3.2067613934E-002 +8.4728292538E+001  +3.2076272149E-002 +8.5547085241E+001  +9.9991235235E-001 -2.6578615076E+000 
72023370.474 +9.4992044291E-001 -2.4983462147E+000  +3.3123304306E-002 +8.3894405449E+001  +3.3338119553E-002 +8.4950645549E+001  +9.6898974691E-001 -2.5355629274E+000 
76024168.834 +9.0076324117E-001 -2.4346441220E+000  +3.4005314725E-002 +8.3405122774E+001  +3.4223510376E-002 +8.4259757971E+001  +9.1328724766E-001 -2.3940150996E+000 
80024967.193 +8.5330979830E-001 -2.5441096656E+000  +3.4819811487E-002 +8.3264371480E+001  +3.4739704719E-002 +8.3615395181E+001  +8.4434435292E-001 -2.4314573072E+000 
84025765.553 +8.0443922006E-001 -2.1127501775E+000  +3.5472397192E-002 +8.3639259382E+001  +3.5851010502E-002 +8.4263149577E+001  +8.1414887447E-001 -2.2032306069E+000 
88026563.913 +7.7714974821E-001 -2.1117808707E+000  +3.6665043948E-002 +8.4564069679E+001  +3.7476115044E-002 +8.5232338203E+001  +8.0190849486E-001 -2.2278318456E+000 
92027362.272 +7.5778431935E-001 -2.8507445515E+000  +3.8029013083E-002 +8.5084122433E+001  +3.9036135956E-002 +8.5568774094E+001  +7.8698289356E-001 -2.8052335037E+000 
96028160.632 +7.4495777522E-001 -3.6591579955E+000  +3.9451964627E-002 +8.5560973688E+001  +4.0722561035E-002 +8.5841370387E+001  +7.8133353621E-001 -3.3711430097E+000 
100028958.992 +7.4605081735E-001 -4.6549826188E+000  +4.1171426874E-002 +8.6093701815E+001  +4.2523118899E-002 +8.6132345745E+001  +7.8184187687E-001 -4.0924457718E+000 
104029757.351 +7.6353075680E-001 -5.1544928518E+000  +4.3175052040E-002 +8.6688262868E+001  +4.4583617459E-002 +8.6463079492E+001  +7.9801925013E-001 -4.4266931182E+000 
108030555.711 +7.9113158499E-001 -5.1242519258E+000  +4.5441425397E-002 +8.7349071194E+001  +4.6816679923E-002 +8.6844452365E+001  +8.2222491527E-001 -4.4215362023E+000 
112031354.071 +8.1044956406E-001 -4.5029052035E+000  +4.7764766475E-002 +8.8338931287E+001  +4.9032962688E-002 +8.7559363329E+001  +8.3822284755E-001 -3.8586696439E+000 
116032152.430 +8.4390067136E-001 -3.2086668004E+000  +5.0778848259E-002 +8.9114110712E+001  +5.1808689090E-002 +8.8027680759E+001  +8.6740093929E-001 -3.0030167755E+000 
120032950.790 +9.0972206790E-001 -2.9279640582E+000  +5.4450788480E-002 +8.8469680273E+001  +5.5074863461E-002 +8.7530847216E+001  +9.2211677412E-001 -2.9169368928E+000 
124033749.150 +9.6964998605E-001 -3.0043370705E+000  +5.8005399353E-002 +8.7346456278E+001  +5.8314812308E-002 +8.6610698958E+001  +9.7499512684E-001 -3.0550563867E+000 
128034547.510 +1.0114650251E+000 -3.1465474305E+000  +6.1162343865E-002 +8.6174815320E+001  +6.1249817433E-002 +8.5624042635E+001  +1.0122953316E+000 -3.1728188925E+000 
132035345.869 +1.0286053840E+000 -3.3079045108E+000  +6.3731029670E-002 +8.5242977247E+001  +6.3598814573E-002 +8.4945767543E+001  +1.0245533379E+000 -3.3783933727E+000 
136036144.229 +1.0285764939E+000 -3.5977759861E+000  +6.5824708979E-002 +8.4669807211E+001  +6.5575894502E-002 +8.4504385758E+001  +1.0229708428E+000 -3.7492006486E+000 
140036942.589 +1.0248885483E+000 -4.0407276779E+000  +6.7768689239E-002 +8.4112846205E+001  +6.7367224287E-002 +8.4079549488E+001  +1.0187452675E+000 -4.2466678250E+000 
144037740.948 +1.0208535113E+000 -4.5400210810E+000  +6.9476700895E-002 +8.3548515720E+001  +6.9013854536E-002 +8.3624310970E+001  +1.0151039955E+000 -4.7549286875E+000 
148038539.308 +1.0165417782E+000 -5.0174905549E+000  +7.1051574037E-002 +8.3040240074E+001  +7.0561262649E-002 +8.3257278042E+001  +1.0106962635E+000 -5.2136508327E+000 
152039337.668 +1.0121415412E+000 -5.3714334305E+000  +7.2472101426E-002 +8.2609708682E+001  +7.2036338891E-002 +8.2945805913E+001  +1.0055754405E+000 -5.5218812530E+000 
156040136.027 +1.0061861196E+000 -5.4853582519E+000  +7.3795415596E-002 +8.2336623093E+001  +7.3453216500E-002 +8.2803717461E+001  +9.9926767019E-001 -5.6258655679E+000 
160040934.387 +9.9831210901E-001 -5.4546383654E+000  +7.5034676440E-002 +8.2198346670E+001  +7.4785865411E-002 +8.2783915715E+001  +9.8985675142E-001 -5.7002145899E+000 
164041732.747 +9.8581254956E-001 -5.3040507377E+000  +7.6218773818E-002 +8.2072934969E+001  +7.6176454539E-002 +8.2828333991E+001  +9.7967058992E-001 -5.6907520438E+000 
168042531.106 +9.5265909267E-001 -5.1608875142E+000  +7.6727398837E-002 +8.1526292558E+001  +7.7223351018E-002 +8.2669968786E+001  +9.5965257874E-001 -5.6519933677E+000 
172043329.466 +8.9901540181E-001 -5.0249257894E+000  +7.6444730571E-002 +8.0734460371E+001  +7.7570664906E-002 +8.2158592444E+001  +9.2054802248E-001 -5.5860250887E+000 
176044127.826 +8.3642174171E-001 -4.8913594689E+000  +7.5660151236E-002 +8.0053024961E+001  +7.7392561233E-002 +8.1605341186E+001  +8.6809456668E-001 -5.3834027599E+000 
180044926.185 +7.8287215820E-001 -4.2896124218E+000  +7.5012149354E-002 +8.0082189829E+001  +7.7281390540E-002 +8.1462437034E+001  +8.1791077471E-001 -4.8349426166E+000 
184045724.545 +7.6895729583E-001 -3.0030810178E+000  +7.5776744277E-002 +8.1326722736E+001  +7.8061476190E-002 +8.2175662015E+001  +7.9598525856E-001 -3.6084440870E+000 
188046522.905 +7.5184047479E-001 -3.0551513249E+000  +7.6947283742E-002 +8.1996045243E+001  +7.9587679528E-002 +8.2816231319E+001  +7.8457191481E-001 -3.1795331356E+000 
192047321.264 +7.3642270254E-001 -3.4978688493E+000  +7.8271390441E-002 +8.2552539873E+001  +8.1159790574E-002 +8.3083259471E+001  +7.7082820089E-001 -3.5384542399E+000 
196048119.624 +7.3229695642E-001 -4.4924372548E+000  +7.9903010011E-002 +8.3038181281E+001  +8.2971745370E-002 +8.3266849314E+001  +7.6779377690E-001 -4.3466419711E+000 
200048917.984 +7.4442447125E-001 -5.6051398912E+000  +8.2062183508E-002 +8.3479768094E+001  +8.5116258001E-002 +8.3432259447E+001  +7.7899499494E-001 -5.2512623482E+000 
204049716.343 +7.7072486762E-001 -6.2876319893E+000  +8.4783886790E-002 +8.4055964220E+001  +8.7361325864E-002 +8.3708500845E+001  +7.9768379500E-001 -5.9045209604E+000 
208050514.703 +8.0510630793E-001 -6.6031894768E+000  +8.7908141413E-002 +8.4576809545E+001  +8.9958937801E-002 +8.4037152409E+001  +8.2474536508E-001 -6.1258451459E+000 
212051313.063 +8.3280326155E-001 -5.9565904727E+000  +9.1269098165E-002 +8.5431338509E+001  +9.3052338571E-002 +8.4593684454E+001  +8.5378505665E-001 -5.4917235678E+000 
216052111.422 +8.8642846555E-001 -5.7301479514E+000  +9.5994159809E-002 +8.5364387966E+001  +9.7224333236E-002 +8.4339832636E+001  +9.0707523910E-001 -5.3137111769E+000 
220052909.782 +9.4933469870E-001 -5.9191833016E+000  +1.0103408072E-001 +8.4373666468E+001  +1.0169484547E-001 +8.3450655039E+001  +9.6654621008E-001 -5.4672595091E+000 
224053708.142 +9.9522728329E-001 -6.0775140036E+000  +1.0551314561E-001 +8.3129798046E+001  +1.0563523286E-001 +8.2344656244E+001  +1.0087211213E+000 -5.6776944339E+000 
228054506.501 +1.0169774873E+000 -6.3003820759E+000  +1.0891334466E-001 +8.1956540666E+001  +1.0842682308E-001 +8.1438692702E+001  +1.0247531561E+000 -6.0382236146E+000 
232055304.861 +1.0181044055E+000 -6.7559941822E+000  +1.1113850501E-001 +8.1174896877E+001  +1.1029334562E-001 +8.0833753445E+001  +1.0240543291E+000 -6.5556217206E+000 
236056103.221 +1.0134404735E+000 -7.3496186809E+000  +1.1281646638E-001 +8.0536365846E+001  +1.1174127843E-001 +8.0302358428E+001  +1.0199852686E+000 -7.1207562974E+000 
240056901.580 +1.0076343499E+000 -7.9320602399E+000  +1.1414667252E-001 +7.9934137518E+001  +1.1293813957E-001 +7.9829181697E+001  +1.0146697303E+000 -7.6600880929E+000 
244057699.940 +1.0010592927E+000 -8.3971491248E+000  +1.1518568155E-001 +7.9455717393E+001  +1.1394122590E-001 +7.9481043210E+001  +1.0086843767E+000 -8.1011980810E+000 
248058498.300 +9.9388216609E-001 -8.6857047258E+000  +1.1603391665E-001 +7.9108561734E+001  +1.1481480278E-001 +7.9273199139E+001  +1.0021401940E+000 -8.3967081922E+000 
252059296.659 +9.8549448308E-001 -8.7998774358E+000  +1.1677127242E-001 +7.8903399229E+001  +1.1562242360E-001 +7.9207089614E+001  +9.9614696800E-001 -8.5686038862E+000 
256060095.019 +9.7683303275E-001 -8.7747615684E+000  +1.1754371319E-001 +7.8839144084E+001  +1.1656184459E-001 +7.9282735192E+001  +9.9043516873E-001 -8.6110936171E+000 
260060893.379 +9.6757670334E-001 -8.6731670400E+000  +1.1835915212E-001 +7.8882671619E+001  +1.1761514349E-001 +7.9459017229E+001  +9.8636451374E-001 -8.5525211870E+000 
264061691.738 +9.5294547160E-001 -8.4945949450E+000  +1.1894567789E-001 +7.8769627796E+001  +1.1876452393E-001 +7.9594867875E+001  +9.7950568675E-001 -8.3962441184E+000 
268062490.098 +9.2037435136E-001 -8.2485531568E+000  +1.1853965193E-001 +7.8223615300E+001  +1.1930215314E-001 +7.9406794102E+001  +9.5675419093E-001 -8.1201086218E+000 
272063288.458 +8.7177914070E-001 -7.8976369062E+000  +1.1736190348E-001 +7.7640385014E+001  +1.1899363020E-001 +7.8932380446E+001  +9.1175973308E-001 -7.7875606984E+000 
276064086.817 +8.1900944168E-001 -7.4998316485E+000  +1.1606714766E-001 +7.7385597776E+001  +1.1839196526E-001 +7.8582689700E+001  +8.5788964439E-001 -7.5028589335E+000 
280064885.177 +7.8102667091E-001 -6.6449479377E+000  +1.1544042737E-001 +7.7911084010E+001  +1.1806564151E-001 +7.8720273071E+001  +8.1296601278E-001 -6.9421314652E+000 
284065683.537 +7.7100951967E-001 -5.5452546461E+000  +1.1639587373E-001 +7.9063622232E+001  +1.1901848431E-001 +7.9511659849E+001  +7.9537451879E-001 -6.0136771118E+000 
288066481.896 +7.5993384043E-001 -5.7041978063E+000  +1.1788259310E-001 +7.9752548401E+001  +1.2066085208E-001 +8.0021422798E+001  +7.8315252971E-001 -6.0139460769E+000 
292067280.256 +7.5504287660E-001 -6.3139052423E+000  +1.1968590912E-001 +8.0323743377E+001  +1.2247837170E-001 +8.0339478246E+001  +7.7586355856E-001 -6.5785546685E+000 
296068078.616 +7.6299632796E-001 -7.2852727175E+000  +1.2217328370E-001 +8.0787412902E+001  +1.2483795949E-001 +8.0595340941E+001  +7.8147699423E-001 -7.4434014448E+000 
300068876.975 +7.7932154497E-001 -8.2239205246E+000  +1.2496953331E-001 +8.1179081120E+001  +1.2753534807E-001 +8.0820883376E+001  +7.9659759743E-001 -8.2358547488E+000 
304069675.335 +8.0859762627E-001 -8.7500579098E+000  +1.2845433568E-001 +8.1559625722E+001  +1.3083861067E-001 +8.1024524709E+001  +8.2468223225E-001 -8.6531922878E+000 
308070473.695 +8.4001832463E-001 -8.6672364893E+000  +1.3240254484E-001 +8.1975923111E+001  +1.3452181376E-001 +8.1279654820E+001  +8.5448185387E-001 -8.4970779427E+000 
312071272.054 +8.8352253651E-001 -8.3397138963E+000  +1.3758394975E-001 +8.2079867724E+001  +1.3933354596E-001 +8.1199067641E+001  +8.9747697642E-001 -8.2489739677E+000 
316072070.414 +9.4186754190E-001 -8.5335365062E+000  +1.4370781509E-001 +8.1282363692E+001  +1.4489886462E-001 +8.0432641685E+001  +9.5103283840E-001 -8.4532990996E+000 
320072868.774 +9.8890460487E-001 -8.8494437159E+000  +1.4926621990E-001 +8.0090879167E+001  +1.4980499012E-001 +7.9363637897E+001  +9.9281328460E-001 -8.7652896297E+000 
324073667.133 +1.0124692461E+000 -9.2520796585E+000  +1.5329797396E-001 +7.8957358071E+001  +1.5319411944E-001 +7.8420974043E+001  +1.0112862198E+000 -9.1759728618E+000 
328074465.493 +1.0153423822E+000 -9.7769631674E+000  +1.5568452048E-001 +7.8129576800E+001  +1.5511472802E-001 +7.7738157682E+001  +1.0129951496E+000 -9.6676819446E+000 
332075263.853 +1.0109136522E+000 -1.0350923106E+001  +1.5712181418E-001 +7.7452107515E+001  +1.5631248662E-001 +7.7165302165E+001  +1.0087094586E+000 -1.0186482412E+001 
336076062.212 +1.0040455806E+000 -1.0878042140E+001  +1.5805546421E-001 +7.6859171396E+001  +1.5705128207E-001 +7.6674597709E+001  +1.0020327221E+000 -1.0667839322E+001 
340076860.572 +9.9578155368E-001 -1.1321894531E+001  +1.5854451139E-001 +7.6375921102E+001  +1.5748962581E-001 +7.6324652053E+001  +9.9398384559E-001 -1.1071675996E+001 
344077658.932 +9.8697317495E-001 -1.1633501226E+001  +1.5888333093E-001 +7.6044256665E+001  +1.5778410650E-001 +7.6093167759E+001  +9.8537289173E-001 -1.1360930158E+001 
348078457.291 +9.7807837579E-001 -1.1764980926E+001  +1.5899242215E-001 +7.5894815675E+001  +1.5800196339E-001 +7.6061175498E+001  +9.7670496091E-001 -1.1488901411E+001 
352079255.651 +9.6990627422E-001 -1.1747304757E+001  +1.5921171338E-001 +7.5899378190E+001  +1.5838118381E-001 +7.6163506984E+001  +9.6873685771E-001 -1.1473084670E+001 
356080054.011 +9.6281222634E-001 -1.1593072360E+001  +1.5961837420E-001 +7.6039026328E+001  +1.5902099784E-001 +7.6391367177E+001  +9.6203669028E-001 -1.1306396552E+001 
360080852.370 +9.5615250681E-001 -1.1331121836E+001  +1.6031803511E-001 +7.6244928574E+001  +1.6000426534E-001 +7.6688751874E+001  +9.5632016613E-001 -1.1039296003E+001 
364081650.730 +9.4251434487E-001 -1.0953638829E+001  +1.6072753167E-001 +7.6241316001E+001  +1.6102768891E-001 +7.6882407255E+001  +9.4708664404E-001 -1.0693814961E+001 
368082449.090 +9.0827849038E-001 -1.0537716506E+001  +1.5989666885E-001 +7.5762704452E+001  +1.6118101177E-001 +7.6644457059E+001  +9.2098543292E-001 -1.0324940343E+001 
372083247.449 +8.5922243091E-001 -1.0147735157E+001  +1.5810573355E-001 +7.5237558842E+001  +1.6031631982E-001 +7.6194597268E+001  +8.7889919526E-001 -1.0050526196E+001 
376084045.809 +8.1005953237E-001 -9.7399558593E+000  +1.5627024151E-001 +7.5079332741E+001  +1.5916118797E-001 +7.5927468719E+001  +8.3365525233E-001 -9.7919837290E+000 
380084844.169 +7.7959495069E-001 -8.8600935698E+000  +1.5538694896E-001 +7.5710891237E+001  +1.5861241669E-001 +7.6260409509E+001  +8.0281194898E-001 -9.2048539171E+000 
384085642.529 +7.6951637949E-001 -8.0036327831E+000  +1.5621869334E-001 +7.6722052566E+001  +1.5958715398E-001 +7.7009650356E+001  +7.9256446869E-001 -8.5318603237E+000 
388086440.888 +7.5891083379E-001 -8.2061107296E+000  +1.5754307841E-001 +7.7358477935E+001  +1.6120694190E-001 +7.7459296510E+001  +7.8420106662E-001 -8.6612799746E+000 
392087239.248 +7.5817265081E-001 -8.8490938726E+000  +1.5964820010E-001 +7.7907855623E+001  +1.6331444908E-001 +7.7793129489E+001  +7.8383385266E-001 -9.1777820624E+000 
396088037.608 +7.6980672854E-001 -9.8299190594E+000  +1.6260694914E-001 +7.8331803974E+001  +1.6612210495E-001 +7.8035762177E+001  +7.9551888735E-001 -9.9612477496E+000 
400088835.967 +7.9356205906E-001 -1.0696220857E+001  +1.6639987655E-001 +7.8665242744E+001  +1.6971223520E-001 +7.8208394822E+001  +8.1768761832E-001 -1.0650738280E+001 
404089634.327 +8.2498922250E-001 -1.1172265822E+001  +1.7099890367E-001 +7.8923277870E+001  +1.7393285733E-001 +7.8328159533E+001  +8.4695211469E-001 -1.1002135401E+001 
408090432.687 +8.5804501040E-001 -1.1103411214E+001  +1.7617641627E-001 +7.9157117904E+001  +1.7891643656E-001 +7.8372425141E+001  +8.8009686692E-001 -1.0956150461E+001 
412091231.046 +9.0715635746E-001 -1.1203450101E+001  +1.8301266696E-001 +7.8757789328E+001  +1.8520510569E-001 +7.7849386276E+001  +9.2768202032E-001 -1.1119928466E+001 
416092029.406 +9.5969192195E-001 -1.1620256664E+001  +1.9006780698E-001 +7.7632758166E+001  +1.9148404654E-001 +7.6806612555E+001  +9.7484271230E-001 -1.1514862275E+001 
420092827.766 +9.9405407536E-001 -1.2073662833E+001  +1.9553601720E-001 +7.6369494681E+001  +1.9603151094E-001 +7.5719551143E+001  +1.0026295763E+000 -1.1945199464E+001 
424093626.125 +1.0063941295E+000 -1.2555814612E+001  +1.9880699333E-001 +7.5278095240E+001  +1.9831627140E-001 +7.4888823546E+001  +1.0088508430E+000 -1.2418435185E+001 
428094424.485 +1.0033338889E+000 -1.3104743868E+001  +2.0020011517E-001 +7.4480143322E+001  +1.9930414906E-001 +7.4226266007E+001  +1.0042687293E+000 -1.2947498651E+001 
432095222.845 +9.9555347421E-001 -1.3618530130E+001  +2.0070732851E-001 +7.3871772169E+001  +1.9958014185E-001 +7.3719064665E+001  +9.9630273258E-001 -1.3427245555E+001 
436096021.204 +9.8570755160E-001 -1.4058200297E+001  +2.0062376896E-001 +7.3366968093E+001  +1.9938713665E-001 +7.3308778314E+001  +9.8655348703E-001 -1.3856867065E+001 
440096819.564 +9.7520650698E-001 -1.4378248472E+001  +2.0023807933E-001 +7.3042207769E+001  +1.9891864536E-001 +7.3072367591E+001  +9.7652983104E-001 -1.4169234572E+001 
444097617.924 +9.6492138907E-001 -1.4535514533E+001  +1.9970711889E-001 +7.2895178645E+001  +1.9849316926E-001 +7.3002074469E+001  +9.6661576435E-001 -1.4331988767E+001 
448098416.283 +9.5573066813E-001 -1.4509690007E+001  +1.9925081258E-001 +7.2903830502E+001  +1.9826865319E-001 +7.3123722836E+001  +9.5776637037E-001 -1.4322384747E+001 
452099214.643 +9.4772872730E-001 -1.4292498838E+001  +1.9900291066E-001 +7.3097435793E+001  +1.9827777993E-001 +7.3393406428E+001  +9.5016789059E-001 -1.4130368547E+001 
456100013.003 +9.4075331967E-001 -1.3951035674E+001  +1.9926415831E-001 +7.3372330025E+001  +1.9882632547E-001 +7.3722114898E+001  +9.4370035593E-001 -1.3825713547E+001 
