!  2-Port S-parameters saved by WinCal
! VAR MeasName=S-Parameters (CALIBRATED_DATA) read from VNA (P5004A)
! VAR MeasDate=24/04/2024 16:14:13
! VAR NAME=Wafer2_r1_c3_pristine 13
! VAR FILENAME=Wafer2_r1_c3_pristine 13.S2P
! VAR DATE=24/04/2024 16:14:13
! VAR PHYS_PORTS=1,2
! VAR ObjTypeName=DATASET
! VAR IndexType=Frequency
!
# Hz S MA R 50
9000.000 +7.8700398427E-001 +1.8097801801E+001  +7.6826683091E-006 -1.5245969073E+002  +4.4614218821E-006 +1.7906744542E+002  +7.9232876596E-001 +1.8009575041E+001 
4009798.360 +9.8800096946E-001 -3.1198568106E+000  +1.9046092969E-003 +8.5919871515E+001  +1.9290975935E-003 +8.5886152710E+001  +9.8754625287E-001 -3.0424868624E+000 
8010596.719 +9.7678048187E-001 -5.9483044761E-001  +3.7490767808E-003 +8.8395651004E+001  +3.7829506859E-003 +8.8232943771E+001  +9.7678509429E-001 -5.9764577679E-001 
12011395.079 +9.8493763762E-001 +4.2251039302E-002  +5.6408588854E-003 +8.9020744710E+001  +5.6848404324E-003 +8.8622926354E+001  +9.8436617578E-001 +1.9476838844E-002 
16012193.439 +9.9071513281E-001 +2.2815211720E-001  +7.5497684705E-003 +8.9197735903E+001  +7.5896143721E-003 +8.8635932897E+001  +9.9021312247E-001 +2.0219086032E-001 
20012991.798 +9.9550352371E-001 +2.2835144216E-001  +9.4679211322E-003 +8.9180083121E+001  +9.4919660337E-003 +8.8617940308E+001  +9.9512678730E-001 +2.3718910180E-001 
24013790.158 +9.9987380022E-001 +1.9254122672E-001  +1.1396764837E-002 +8.9168355156E+001  +1.1390307913E-002 +8.8538250354E+001  +9.9974439937E-001 +1.3669178551E-001 
28014588.518 +1.0037182205E+000 +3.6350008100E-002  +1.3347710762E-002 +8.8960583135E+001  +1.3296050884E-002 +8.8380893231E+001  +1.0034786922E+000 -1.7334483203E-002 
32015386.877 +1.0080614165E+000 -2.2302517562E-001  +1.5304010215E-002 +8.8777254450E+001  +1.5235484675E-002 +8.8262184694E+001  +1.0081188097E+000 -2.5156334378E-001 
36016185.237 +1.0109449008E+000 -4.8870354441E-001  +1.7267928526E-002 +8.8455628257E+001  +1.7158324050E-002 +8.8017812573E+001  +1.0111433527E+000 -5.2510418190E-001 
40016983.597 +1.0127544880E+000 -8.0973799305E-001  +1.9216682397E-002 +8.8066007813E+001  +1.9063486313E-002 +8.7724794566E+001  +1.0130024650E+000 -8.5520576769E-001 
44017781.956 +1.0139976674E+000 -1.1875302855E+000  +2.1157214275E-002 +8.7635139132E+001  +2.0969556332E-002 +8.7420549027E+001  +1.0140762093E+000 -1.2055014736E+000 
48018580.316 +1.0143151006E+000 -1.5578077517E+000  +2.3077290205E-002 +8.7138992643E+001  +2.2862400471E-002 +8.7063418355E+001  +1.0147091444E+000 -1.5571285860E+000 
52019378.676 +1.0127730362E+000 -1.9539833766E+000  +2.4952219121E-002 +8.6646461014E+001  +2.4691157197E-002 +8.6711111665E+001  +1.0127568426E+000 -1.9421266679E+000 
56020177.035 +1.0101732562E+000 -2.2869572756E+000  +2.6761496515E-002 +8.6195928232E+001  +2.6494680903E-002 +8.6394407625E+001  +1.0104572235E+000 -2.2716936926E+000 
60020975.395 +1.0065313896E+000 -2.6109536716E+000  +2.8503289226E-002 +8.5831176254E+001  +2.8259916712E-002 +8.6120301832E+001  +1.0066830534E+000 -2.5818866867E+000 
64021773.755 +1.0016880963E+000 -2.8270916771E+000  +3.0194752575E-002 +8.5541990247E+001  +2.9967916955E-002 +8.5951178027E+001  +1.0018326694E+000 -2.8070176192E+000 
68022572.114 +9.9656116382E-001 -2.9556299696E+000  +3.1825173947E-002 +8.5357626964E+001  +3.1675332709E-002 +8.5866591778E+001  +9.9668661215E-001 -2.9540928004E+000 
72023370.474 +9.9197393294E-001 -3.0054475336E+000  +3.3463819370E-002 +8.5316010209E+001  +3.3373997831E-002 +8.5864914885E+001  +9.9229720763E-001 -3.0011245616E+000 
76024168.834 +9.8773935212E-001 -2.9857476983E+000  +3.5094019201E-002 +8.5370627939E+001  +3.5096750888E-002 +8.5931302161E+001  +9.8795047255E-001 -2.9648498697E+000 
80024967.193 +9.8475626990E-001 -2.8944800223E+000  +3.6752424275E-002 +8.5494950816E+001  +3.6842988997E-002 +8.6034021223E+001  +9.8481105597E-001 -2.8757392959E+000 
84025765.553 +9.8308371317E-001 -2.7764291454E+000  +3.8454342293E-002 +8.5618130588E+001  +3.8642122918E-002 +8.6115044459E+001  +9.8294338750E-001 -2.7770380057E+000 
88026563.913 +9.8246400557E-001 -2.6053373335E+000  +4.0189769221E-002 +8.5829424930E+001  +4.0499118029E-002 +8.6220324799E+001  +9.8228908280E-001 -2.6240331212E+000 
92027362.272 +9.8320489625E-001 -2.4638987978E+000  +4.2001817848E-002 +8.5995752438E+001  +4.2368459503E-002 +8.6243546132E+001  +9.8272928903E-001 -2.4865108422E+000 
96028160.632 +9.8420137921E-001 -2.3148110401E+000  +4.3824133432E-002 +8.6144781931E+001  +4.4248855343E-002 +8.6268629580E+001  +9.8365611765E-001 -2.3427076861E+000 
100028958.992 +9.8711423515E-001 -2.2145410455E+000  +4.5749730420E-002 +8.6290630057E+001  +4.6185089984E-002 +8.6232992896E+001  +9.8594309144E-001 -2.2461503678E+000 
104029757.351 +9.9009170388E-001 -2.1425245933E+000  +4.7703697133E-002 +8.6398344862E+001  +4.8132143385E-002 +8.6195385449E+001  +9.8888302826E-001 -2.1634804126E+000 
108030555.711 +9.9373637608E-001 -2.1037220650E+000  +4.9708486077E-002 +8.6465719105E+001  +5.0102550163E-002 +8.6119712781E+001  +9.9235285329E-001 -2.1443898717E+000 
112031354.071 +9.9775306773E-001 -2.1556225119E+000  +5.1788983353E-002 +8.6463309095E+001  +5.2082871202E-002 +8.6007318797E+001  +9.9654078447E-001 -2.1876961515E+000 
116032152.430 +1.0022025097E+000 -2.2563156971E+000  +5.3891035325E-002 +8.6409045696E+001  +5.4088816151E-002 +8.5878923720E+001  +1.0007306263E+000 -2.2934594190E+000 
120032950.790 +1.0065678246E+000 -2.4458009511E+000  +5.6057548617E-002 +8.6275465568E+001  +5.6119361493E-002 +8.5706648024E+001  +1.0052835052E+000 -2.4580555398E+000 
124033749.150 +1.0107217462E+000 -2.7163444121E+000  +5.8248121103E-002 +8.6021766121E+001  +5.8160733210E-002 +8.5454664217E+001  +1.0094840381E+000 -2.7271758228E+000 
128034547.510 +1.0141135253E+000 -3.0606798429E+000  +6.0407254442E-002 +8.5692110489E+001  +6.0194328128E-002 +8.5155603760E+001  +1.0129386130E+000 -3.0401753506E+000 
132035345.869 +1.0160304994E+000 -3.4728403267E+000  +6.2522312466E-002 +8.5242972810E+001  +6.2153661724E-002 +8.4780114319E+001  +1.0151883259E+000 -3.4454440763E+000 
136036144.229 +1.0167798868E+000 -3.9344407516E+000  +6.4514649003E-002 +8.4717023747E+001  +6.4047030231E-002 +8.4353308448E+001  +1.0161231676E+000 -3.8896143880E+000 
140036942.589 +1.0156314197E+000 -4.4039503497E+000  +6.6419201710E-002 +8.4163434309E+001  +6.5797258803E-002 +8.3915523164E+001  +1.0151018072E+000 -4.3446149663E+000 
144037740.948 +1.0129485560E+000 -4.8393549403E+000  +6.8112280042E-002 +8.3636336182E+001  +6.7432463426E-002 +8.3512243613E+001  +1.0125418390E+000 -4.7697197579E+000 
148038539.308 +1.0083020661E+000 -5.2265394252E+000  +6.9652193289E-002 +8.3146543752E+001  +6.8929174035E-002 +8.3166689173E+001  +1.0082059658E+000 -5.1588879671E+000 
152039337.668 +1.0025399338E+000 -5.5580478650E+000  +7.1029883526E-002 +8.2737960494E+001  +7.0338003307E-002 +8.2887792143E+001  +1.0024256212E+000 -5.4845819481E+000 
156040136.027 +9.9588376536E-001 -5.7510012510E+000  +7.2306142830E-002 +8.2483211119E+001  +7.1680425242E-002 +8.2769176750E+001  +9.9608896209E-001 -5.6871904105E+000 
160040934.387 +9.8936978151E-001 -5.8327694849E+000  +7.3528164174E-002 +8.2354821731E+001  +7.3026156779E-002 +8.2766967584E+001  +9.8961434913E-001 -5.7687807487E+000 
164041732.747 +9.8360134102E-001 -5.8153423928E+000  +7.4805111086E-002 +8.2350172119E+001  +7.4433235267E-002 +8.2859016474E+001  +9.8391481351E-001 -5.7821610630E+000 
168042531.106 +9.7868085578E-001 -5.7364178354E+000  +7.6124857258E-002 +8.2444016287E+001  +7.5929287568E-002 +8.3017789284E+001  +9.7900568451E-001 -5.7003027846E+000 
172043329.466 +9.7533471545E-001 -5.5767443410E+000  +7.7570159235E-002 +8.2618499418E+001  +7.7565537114E-002 +8.3203561963E+001  +9.7556793175E-001 -5.5637684540E+000 
176044127.826 +9.7314951335E-001 -5.3806467520E+000  +7.9087113026E-002 +8.2824242936E+001  +7.9312230971E-002 +8.3401319705E+001  +9.7346807423E-001 -5.3828167534E+000 
180044926.185 +9.7267914560E-001 -5.1845687353E+000  +8.0750280789E-002 +8.3037425613E+001  +8.1178119346E-002 +8.3557126220E+001  +9.7304145044E-001 -5.1895610305E+000 
184045724.545 +9.7370371036E-001 -4.9764398276E+000  +8.2528858414E-002 +8.3244883540E+001  +8.3125975182E-002 +8.3673985211E+001  +9.7391531418E-001 -4.9872107398E+000 
188046522.905 +9.7582687151E-001 -4.7875410814E+000  +8.4375725661E-002 +8.3428822797E+001  +8.5143920771E-002 +8.3736820386E+001  +9.7578180715E-001 -4.8040590821E+000 
192047321.264 +9.7899805865E-001 -4.6252205066E+000  +8.6357395940E-002 +8.3599718833E+001  +8.7221968936E-002 +8.3755953612E+001  +9.7890481826E-001 -4.6393798755E+000 
196048119.624 +9.8295661547E-001 -4.5079352982E+000  +8.8381296649E-002 +8.3737761598E+001  +8.9307059602E-002 +8.3721508024E+001  +9.8268473860E-001 -4.5199361668E+000 
200048917.984 +9.8780563748E-001 -4.4559256692E+000  +9.0554672693E-002 +8.3805983026E+001  +9.1453838206E-002 +8.3645752660E+001  +9.8740216089E-001 -4.4502793512E+000 
204049716.343 +9.9282606671E-001 -4.4787674763E+000  +9.2808221095E-002 +8.3850674819E+001  +9.3609863106E-002 +8.3549686986E+001  +9.9218424077E-001 -4.4575083374E+000 
208050514.703 +9.9825961153E-001 -4.5876867196E+000  +9.5164151413E-002 +8.3819964329E+001  +9.5814603357E-002 +8.3384318805E+001  +9.9752983686E-001 -4.5493745921E+000 
212051313.063 +1.0036377886E+000 -4.7741435014E+000  +9.7609419634E-002 +8.3687914544E+001  +9.8067540652E-002 +8.3189321706E+001  +1.0028466818E+000 -4.7274129121E+000 
216052111.422 +1.0084478800E+000 -5.0770491485E+000  +1.0007524152E-001 +8.3451064262E+001  +1.0027403951E-001 +8.2897770729E+001  +1.0077196088E+000 -4.9886460879E+000 
220052909.782 +1.0127478041E+000 -5.4298594063E+000  +1.0253262913E-001 +8.3107098864E+001  +1.0246339560E-001 +8.2564385683E+001  +1.0117600442E+000 -5.3436571304E+000 
224053708.142 +1.0157222667E+000 -5.8854139398E+000  +1.0491246412E-001 +8.2653925693E+001  +1.0457837438E-001 +8.2130707198E+001  +1.0148202988E+000 -5.7750719184E+000 
228054506.501 +1.0169215009E+000 -6.3996218508E+000  +1.0710041670E-001 +8.2102341461E+001  +1.0652060362E-001 +8.1633357628E+001  +1.0163097797E+000 -6.2661597843E+000 
232055304.861 +1.0159445016E+000 -6.9344220314E+000  +1.0902554723E-001 +8.1501706096E+001  +1.0822892330E-001 +8.1120206717E+001  +1.0155605502E+000 -6.7821146871E+000 
236056103.221 +1.0129379951E+000 -7.4654410778E+000  +1.1066029913E-001 +8.0879009631E+001  +1.0967900455E-001 +8.0610076622E+001  +1.0127251496E+000 -7.2949404134E+000 
240056901.580 +1.0079121616E+000 -7.9509268988E+000  +1.1199094487E-001 +8.0283846946E+001  +1.1089162184E-001 +8.0146740157E+001  +1.0080965703E+000 -7.7673732892E+000 
244057699.940 +1.0012347231E+000 -8.3342178936E+000  +1.1302366298E-001 +7.9821839799E+001  +1.1191172622E-001 +7.9815668324E+001  +1.0019229954E+000 -8.1477919095E+000 
248058498.300 +9.9364608597E-001 -8.5930093063E+000  +1.1387139729E-001 +7.9493859136E+001  +1.1278579318E-001 +7.9624764846E+001  +9.9454623146E-001 -8.4000501034E+000 
252059296.659 +9.8547384142E-001 -8.7310364626E+000  +1.1461773970E-001 +7.9307072947E+001  +1.1359648863E-001 +7.9573670518E+001  +9.8679443517E-001 -8.5426410260E+000 
256060095.019 +9.7800543128E-001 -8.7429871398E+000  +1.1539185923E-001 +7.9267162259E+001  +1.1453375701E-001 +7.9660510151E+001  +9.7949298856E-001 -8.5631330352E+000 
260060893.379 +9.7117117308E-001 -8.6422748553E+000  +1.1622808074E-001 +7.9354381884E+001  +1.1558987704E-001 +7.9850488461E+001  +9.7329210915E-001 -8.4698588212E+000 
264061691.738 +9.6632227795E-001 -8.4407996841E+000  +1.1728593252E-001 +7.9556279390E+001  +1.1692236895E-001 +8.0093131485E+001  +9.6838199745E-001 -8.2989497916E+000 
268062490.098 +9.6286726080E-001 -8.2041984191E+000  +1.1853172580E-001 +7.9805046375E+001  +1.1846220927E-001 +8.0376165833E+001  +9.6500903758E-001 -8.0709246384E+000 
272063288.458 +9.6140477457E-001 -7.9225071147E+000  +1.1999983966E-001 +8.0087715610E+001  +1.2022228741E-001 +8.0646395459E+001  +9.6335185741E-001 -7.8062519590E+000 
276064086.817 +9.6172303737E-001 -7.6394091570E+000  +1.2167849470E-001 +8.0367140571E+001  +1.2218264446E-001 +8.0876459516E+001  +9.6339306728E-001 -7.5520300600E+000 
280064885.177 +9.6344867527E-001 -7.3633697572E+000  +1.2352586336E-001 +8.0629398630E+001  +1.2433245546E-001 +8.1047744100E+001  +9.6503291584E-001 -7.3030383446E+000 
284065683.537 +9.6669061136E-001 -7.1435025427E+000  +1.2552099649E-001 +8.0829448592E+001  +1.2654870419E-001 +8.1150883887E+001  +9.6763471826E-001 -7.0995344241E+000 
288066481.896 +9.7122367034E-001 -6.9581861189E+000  +1.2771521763E-001 +8.1024814394E+001  +1.2890005827E-001 +8.1194805315E+001  +9.7170076386E-001 -6.9164114271E+000 
292067280.256 +9.7645719005E-001 -6.8451184062E+000  +1.2999935018E-001 +8.1162096107E+001  +1.3125782311E-001 +8.1174850426E+001  +9.7628290922E-001 -6.8154964727E+000 
296068078.616 +9.8252869040E-001 -6.7934454146E+000  +1.3250637689E-001 +8.1244162146E+001  +1.3372815492E-001 +8.1122508381E+001  +9.8177572365E-001 -6.7763391163E+000 
300068876.975 +9.8899162136E-001 -6.8332261075E+000  +1.3508390153E-001 +8.1247239166E+001  +1.3622530648E-001 +8.1010009776E+001  +9.8779834579E-001 -6.8105342147E+000 
304069675.335 +9.9557099539E-001 -6.9650861280E+000  +1.3780558169E-001 +8.1189784662E+001  +1.3876305999E-001 +8.0838360652E+001  +9.9422037380E-001 -6.9389647393E+000 
308070473.695 +1.0019007064E+000 -7.2161028345E+000  +1.4061484714E-001 +8.1011198823E+001  +1.4131634662E-001 +8.0567042366E+001  +1.0001198665E+000 -7.1616139832E+000 
312071272.054 +1.0074155229E+000 -7.5702905148E+000  +1.4342851449E-001 +8.0709741349E+001  +1.4380826830E-001 +8.0214034210E+001  +1.0054638082E+000 -7.4936181121E+000 
316072070.414 +1.0118209148E+000 -8.0212473926E+000  +1.4612771295E-001 +8.0283009713E+001  +1.4621175550E-001 +7.9792040892E+001  +1.0097474300E+000 -7.9260390465E+000 
320072868.774 +1.0142523182E+000 -8.5579958173E+000  +1.4863174161E-001 +7.9744702236E+001  +1.4839330495E-001 +7.9267030912E+001  +1.0125945668E+000 -8.4287776155E+000 
324073667.133 +1.0151487946E+000 -9.1481259212E+000  +1.5086163641E-001 +7.9120841235E+001  +1.5034944687E-001 +7.8686915856E+001  +1.0132142230E+000 -8.9892428933E+000 
328074465.493 +1.0132916994E+000 -9.7461707971E+000  +1.5269053136E-001 +7.8463462534E+001  +1.5188317593E-001 +7.8095863350E+001  +1.0119160328E+000 -9.5567321266E+000 
332075263.853 +1.0091994825E+000 -1.0325221974E+001  +1.5402522995E-001 +7.7804655564E+001  +1.5302592735E-001 +7.7525688679E+001  +1.0080155203E+000 -1.0113874010E+001 
336076062.212 +1.0028321894E+000 -1.0830326317E+001  +1.5491358773E-001 +7.7209513241E+001  +1.5374059724E-001 +7.7031571595E+001  +1.0019610550E+000 -1.0607617565E+001 
340076860.572 +9.9474069101E-001 -1.1231461121E+001  +1.5538795435E-001 +7.6740452264E+001  +1.5417832350E-001 +7.6689049041E+001  +9.9435298998E-001 -1.0999007139E+001 
344077658.932 +9.8567628309E-001 -1.1495388160E+001  +1.5572412961E-001 +7.6426588882E+001  +1.5446917153E-001 +7.6470972708E+001  +9.8578570009E-001 -1.1257320459E+001 
348078457.291 +9.7638905246E-001 -1.1593846913E+001  +1.5585467327E-001 +7.6297784986E+001  +1.5468877905E-001 +7.6461947449E+001  +9.7674257364E-001 -1.1355593431E+001 
352079255.651 +9.6767342138E-001 -1.1556707622E+001  +1.5609982117E-001 +7.6321255048E+001  +1.5506770823E-001 +7.6585725284E+001  +9.6830584800E-001 -1.1332626752E+001 
356080054.011 +9.6029290145E-001 -1.1392179852E+001  +1.5651561493E-001 +7.6479447316E+001  +1.5571555059E-001 +7.6837171024E+001  +9.6106606310E-001 -1.1174828118E+001 
360080852.370 +9.5465661611E-001 -1.1131313691E+001  +1.5726330912E-001 +7.6736409579E+001  +1.5671606964E-001 +7.7165294690E+001  +9.5557794857E-001 -1.0934850020E+001 
364081650.730 +9.5110582951E-001 -1.0794311746E+001  +1.5832517464E-001 +7.7066016583E+001  +1.5807642680E-001 +7.7525712032E+001  +9.5194108538E-001 -1.0630147729E+001 
368082449.090 +9.4942065333E-001 -1.0453134515E+001  +1.5971556080E-001 +7.7397359640E+001  +1.5978634864E-001 +7.7855416896E+001  +9.5006787537E-001 -1.0302886872E+001 
372083247.449 +9.4961085351E-001 -1.0109833852E+001  +1.6135733577E-001 +7.7705854835E+001  +1.6176966336E-001 +7.8152607911E+001  +9.5035371029E-001 -9.9892310382E+000 
376084045.809 +9.5196610143E-001 -9.7923142387E+000  +1.6332601720E-001 +7.8000891194E+001  +1.6405137926E-001 +7.8389251954E+001  +9.5232789607E-001 -9.6901890747E+000 
380084844.169 +9.5561754429E-001 -9.5083209854E+000  +1.6547984320E-001 +7.8268818385E+001  +1.6652775623E-001 +7.8579208777E+001  +9.5588205818E-001 -9.4405344296E+000 
384085642.529 +9.6061163640E-001 -9.2927932062E+000  +1.6785296021E-001 +7.8460092517E+001  +1.6907338057E-001 +7.8676593811E+001  +9.6076798794E-001 -9.2518426372E+000 
388086440.888 +9.6675680149E-001 -9.1546278150E+000  +1.7042075573E-001 +7.8615146299E+001  +1.7180898764E-001 +7.8698330851E+001  +9.6657124243E-001 -9.1284188064E+000 
392087239.248 +9.7378879388E-001 -9.1054630221E+000  +1.7322608700E-001 +7.8690264711E+001  +1.7461545755E-001 +7.8652443158E+001  +9.7326342809E-001 -9.0780361914E+000 
396088037.608 +9.8090603309E-001 -9.1535345241E+000  +1.7616919371E-001 +7.8696983425E+001  +1.7745000397E-001 +7.8544437145E+001  +9.8049720681E-001 -9.1248380282E+000 
400088835.967 +9.8866017662E-001 -9.3077891467E+000  +1.7925404061E-001 +7.8607220793E+001  +1.8040606409E-001 +7.8354764004E+001  +9.8758188554E-001 -9.2796629993E+000 
404089634.327 +9.9560531656E-001 -9.5789243949E+000  +1.8246089134E-001 +7.8407837371E+001  +1.8332594954E-001 +7.8074604082E+001  +9.9433387884E-001 -9.5295569859E+000 
408090432.687 +1.0018833985E+000 -9.9599056822E+000  +1.8560122858E-001 +7.8074627945E+001  +1.8622978045E-001 +7.7689326176E+001  +1.0004252785E+000 -9.8914327689E+000 
412091231.046 +1.0069038839E+000 -1.0451786648E+001  +1.8865606815E-001 +7.7621220837E+001  +1.8892548702E-001 +7.7209507956E+001  +1.0052217113E+000 -1.0350794298E+001 
416092029.406 +1.0098888372E+000 -1.1040692607E+001  +1.9140537230E-001 +7.7030479462E+001  +1.9135143607E-001 +7.6624679938E+001  +1.0082465762E+000 -1.0904207206E+001 
420092827.766 +1.0106102889E+000 -1.1695335583E+001  +1.9372744631E-001 +7.6356537158E+001  +1.9331731746E-001 +7.5972771273E+001  +1.0090461367E+000 -1.1525209591E+001 
424093626.125 +1.0084778358E+000 -1.2362272828E+001  +1.9543338595E-001 +7.5633452052E+001  +1.9467170287E-001 +7.5309434107E+001  +1.0072520948E+000 -1.2152494451E+001 
428094424.485 +1.0036664346E+000 -1.3007032380E+001  +1.9647219817E-001 +7.4910466535E+001  +1.9550837079E-001 +7.4650648248E+001  +1.0029170748E+000 -1.2779458043E+001 
432095222.845 +9.9666196321E-001 -1.3563067934E+001  +1.9692261591E-001 +7.4291942308E+001  +1.9578060895E-001 +7.4121709272E+001  +9.9613521110E-001 -1.3308787455E+001 
436096021.204 +9.8750056880E-001 -1.4000092642E+001  +1.9681661367E-001 +7.3779863917E+001  +1.9559097889E-001 +7.3704990798E+001  +9.8735403020E-001 -1.3741713523E+001 
440096819.564 +9.7720454865E-001 -1.4287370573E+001  +1.9643006643E-001 +7.3462957106E+001  +1.9513344366E-001 +7.3474929586E+001  +9.7772594862E-001 -1.4021508113E+001 
444097617.924 +9.6668106501E-001 -1.4401177880E+001  +1.9593371550E-001 +7.3338700048E+001  +1.9471023696E-001 +7.3420441729E+001  +9.6762759450E-001 -1.4140977650E+001 
448098416.283 +9.5690097345E-001 -1.4352136253E+001  +1.9552966013E-001 +7.3376408030E+001  +1.9450060450E-001 +7.3566598649E+001  +9.5813969186E-001 -1.4103331468E+001 
452099214.643 +9.4845097663E-001 -1.4150185595E+001  +1.9543989186E-001 +7.3592955069E+001  +1.9453465656E-001 +7.3855435678E+001  +9.4992344141E-001 -1.3916665556E+001 
456100013.003 +9.4174843660E-001 -1.3851972395E+001  +1.9573562938E-001 +7.3892678892E+001  +1.9509735743E-001 +7.4202793478E+001  +9.4333563321E-001 -1.3643213292E+001 
