!  2-Port S-parameters saved by WinCal
! VAR MeasName=S-Parameters (CALIBRATED_DATA) read from VNA (P5004A)
! VAR MeasDate=24/04/2024 17:33:12
! VAR NAME=Wafer2_r1_c1_LRS 4
! VAR FILENAME=Wafer2_r1_c1_LRS 4.S2P
! VAR DATE=24/04/2024 17:33:12
! VAR PHYS_PORTS=1,2
! VAR ObjTypeName=DATASET
! VAR IndexType=Frequency
!
# Hz S MA R 50
9000.000 +7.7642740970E-001 +1.6347533598E+001  +2.6537578834E-002 +3.0411948069E+000  +2.6954645754E-002 +2.1520109506E+000  +7.7538469788E-001 +1.6308280188E+001 
4009798.360 +9.5349180607E-001 -3.0305543963E+000  +3.4393348499E-002 +9.3098604447E-002  +3.4629848080E-002 +2.2244833823E-001  +9.5277486886E-001 -2.9401627108E+000 
8010596.719 +9.4280769345E-001 -6.1063765969E-001  +3.4188390437E-002 +5.7212873902E+000  +3.4497602049E-002 +5.4580475704E+000  +9.4323591176E-001 -5.7490727274E-001 
12011395.079 +9.4972168654E-001 -1.8988546254E-002  +3.4758704024E-002 +9.2405046553E+000  +3.5101809656E-002 +8.9573288421E+000  +9.4995822414E-001 +1.1433880063E-002 
16012193.439 +9.5535428089E-001 +1.6582291191E-001  +3.5380279194E-002 +1.2367636204E+001  +3.5592065440E-002 +1.1725832156E+001  +9.5549396211E-001 +1.7940915874E-001 
20012991.798 +9.6007225998E-001 +1.8246823995E-001  +3.6084187460E-002 +1.5237033188E+001  +3.6180770084E-002 +1.4606656230E+001  +9.6016114803E-001 +1.9880912992E-001 
24013790.158 +9.6443959186E-001 +1.1806281870E-001  +3.6785534483E-002 +1.7845903372E+001  +3.6780431513E-002 +1.7298448547E+001  +9.6455336084E-001 +1.4254103537E-001 
28014588.518 +9.6805545399E-001 -3.7353987755E-002  +3.7593160049E-002 +2.0352441094E+001  +3.7505763527E-002 +1.9738496001E+001  +9.6838051343E-001 -4.2178183789E-003 
32015386.877 +9.7217408815E-001 -2.3282833775E-001  +3.8492870889E-002 +2.2698044942E+001  +3.8395454605E-002 +2.2217128507E+001  +9.7212069285E-001 -1.9539717440E-001 
36016185.237 +9.7470234896E-001 -4.9765777751E-001  +3.9482798522E-002 +2.4814211553E+001  +3.9185878922E-002 +2.4439427245E+001  +9.7517366755E-001 -4.5824296761E-001 
40016983.597 +9.7667271375E-001 -8.0694529932E-001  +4.0461071452E-002 +2.6794111279E+001  +4.0205632643E-002 +2.6566717841E+001  +9.7692386073E-001 -7.8176257768E-001 
44017781.956 +9.7761766492E-001 -1.1636818897E+000  +4.1455884443E-002 +2.8604429150E+001  +4.0952982262E-002 +2.8429104626E+001  +9.7818041129E-001 -1.1229786699E+000 
48018580.316 +9.7815664609E-001 -1.5251020680E+000  +4.2450088901E-002 +3.0310755378E+001  +4.2090372299E-002 +3.0138210940E+001  +9.7876149458E-001 -1.4783810559E+000 
52019378.676 +9.7671229861E-001 -1.9002277717E+000  +4.3415304367E-002 +3.1892684909E+001  +4.3018730105E-002 +3.1937676722E+001  +9.7695303199E-001 -1.8511659542E+000 
56020177.035 +9.7428921476E-001 -2.2125956015E+000  +4.4390379653E-002 +3.3290787551E+001  +4.4038135901E-002 +3.3555610833E+001  +9.7485923657E-001 -2.1725120333E+000 
60020975.395 +9.7075988871E-001 -2.5335721845E+000  +4.5286428612E-002 +3.4877920316E+001  +4.4915677536E-002 +3.5183159537E+001  +9.7133817142E-001 -2.4745446471E+000 
64021773.755 +9.6627634209E-001 -2.7307510921E+000  +4.6231938015E-002 +3.6339144148E+001  +4.5850497194E-002 +3.6617286845E+001  +9.6654236642E-001 -2.6920667959E+000 
68022572.114 +9.6156752652E-001 -2.8585828067E+000  +4.7148311711E-002 +3.7768160926E+001  +4.6912757801E-002 +3.8415525661E+001  +9.6183791508E-001 -2.8201440060E+000 
72023370.474 +9.5734071092E-001 -2.9063271548E+000  +4.8072297495E-002 +3.9377343359E+001  +4.7951831213E-002 +3.9815871227E+001  +9.5761338859E-001 -2.8683716084E+000 
76024168.834 +9.5336038888E-001 -2.8624886759E+000  +4.9022571724E-002 +4.0892973298E+001  +4.8970546061E-002 +4.1461206469E+001  +9.5359599090E-001 -2.8231212743E+000 
80024967.193 +9.5043440265E-001 -2.7700764632E+000  +5.0103404005E-002 +4.2429478624E+001  +5.0145777470E-002 +4.3038372060E+001  +9.5050002949E-001 -2.7421118010E+000 
84025765.553 +9.4862675905E-001 -2.6598118150E+000  +5.1267133116E-002 +4.3865879641E+001  +5.1491068556E-002 +4.4431526312E+001  +9.4860023458E-001 -2.6376460097E+000 
88026563.913 +9.4788834007E-001 -2.4792948970E+000  +5.2495421914E-002 +4.5377621229E+001  +5.2869815067E-002 +4.5779587469E+001  +9.4777352053E-001 -2.4778326897E+000 
92027362.272 +9.4836485282E-001 -2.3521758188E+000  +5.3834651141E-002 +4.6807160569E+001  +5.4354670775E-002 +4.6993415165E+001  +9.4809555513E-001 -2.3432719081E+000 
96028160.632 +9.4916230949E-001 -2.2256764423E+000  +5.5256740001E-002 +4.8125669741E+001  +5.5745670181E-002 +4.8239157024E+001  +9.4899965440E-001 -2.2097891276E+000 
100028958.992 +9.5185697738E-001 -2.1405250251E+000  +5.6863923482E-002 +4.9213900782E+001  +5.7342810139E-002 +4.9274781816E+001  +9.5127667686E-001 -2.1191735352E+000 
104029757.351 +9.5475293501E-001 -2.0824896693E+000  +5.8374874569E-002 +5.0409800069E+001  +5.8943541423E-002 +5.0280964707E+001  +9.5404586048E-001 -2.0362788720E+000 
108030555.711 +9.5830483902E-001 -2.0617628761E+000  +6.0028028496E-002 +5.1465451262E+001  +6.0525351341E-002 +5.1194833579E+001  +9.5764723318E-001 -2.0335525518E+000 
112031354.071 +9.6227146657E-001 -2.1213610095E+000  +6.1837802196E-002 +5.2432250830E+001  +6.2211622722E-002 +5.2000556328E+001  +9.6173831223E-001 -2.0821750289E+000 
116032152.430 +9.6652552395E-001 -2.2250978572E+000  +6.3637321226E-002 +5.3326093224E+001  +6.3848174503E-002 +5.2772169427E+001  +9.6567310020E-001 -2.1852538857E+000 
120032950.790 +9.7075607693E-001 -2.4257608011E+000  +6.5470012476E-002 +5.3958271910E+001  +6.5604401836E-002 +5.3478687566E+001  +9.7014548638E-001 -2.3564181091E+000 
124033749.150 +9.7477582998E-001 -2.6831119807E+000  +6.7316886515E-002 +5.4524872583E+001  +6.7309804386E-002 +5.4032438703E+001  +9.7431593633E-001 -2.6225826940E+000 
128034547.510 +9.7796787514E-001 -3.0132664213E+000  +6.9287396166E-002 +5.5063174597E+001  +6.9018812618E-002 +5.4494292942E+001  +9.7759642228E-001 -2.9332340331E+000 
132035345.869 +9.7989687471E-001 -3.4177244106E+000  +7.1005648720E-002 +5.5313324715E+001  +7.0663152557E-002 +5.4944695839E+001  +9.7980881984E-001 -3.3209575647E+000 
136036144.229 +9.8056870360E-001 -3.8585348150E+000  +7.2865279787E-002 +5.5635588161E+001  +7.2314572343E-002 +5.5234617885E+001  +9.8062708375E-001 -3.7463237255E+000 
140036942.589 +9.7962961661E-001 -4.3131870368E+000  +7.4469398642E-002 +5.5639488765E+001  +7.3822500279E-002 +5.5540548313E+001  +9.7978120288E-001 -4.1863783651E+000 
144037740.948 +9.7713117293E-001 -4.7325018033E+000  +7.5882065549E-002 +5.5802074123E+001  +7.5143885464E-002 +5.5718267998E+001  +9.7745817944E-001 -4.5961537258E+000 
148038539.308 +9.7277542042E-001 -5.0921626431E+000  +7.7179968429E-002 +5.6016067555E+001  +7.6340844926E-002 +5.6002406691E+001  +9.7331393792E-001 -4.9743099282E+000 
152039337.668 +9.6741794385E-001 -5.4090296095E+000  +7.8229479397E-002 +5.6217802137E+001  +7.7445858967E-002 +5.6340600417E+001  +9.6806940602E-001 -5.2831758649E+000 
156040136.027 +9.6121505877E-001 -5.5979705201E+000  +7.9299055409E-002 +5.6551361641E+001  +7.8570270877E-002 +5.6795212525E+001  +9.6211488629E-001 -5.4835135558E+000 
160040934.387 +9.5513951132E-001 -5.6797129467E+000  +8.0188623353E-002 +5.6962036543E+001  +7.9705768528E-002 +5.7349512138E+001  +9.5605765886E-001 -5.5505634062E+000 
164041732.747 +9.4984635065E-001 -5.6528922168E+000  +8.1287292270E-002 +5.7506913709E+001  +8.0807970286E-002 +5.7971084118E+001  +9.5064214559E-001 -5.5524117078E+000 
168042531.106 +9.4510718788E-001 -5.5530657406E+000  +8.2386831525E-002 +5.8099593106E+001  +8.2105405937E-002 +5.8655071861E+001  +9.4596541267E-001 -5.4556639142E+000 
172043329.466 +9.4193303585E-001 -5.3877218689E+000  +8.3573549111E-002 +5.8821607906E+001  +8.3518433148E-002 +5.9323457461E+001  +9.4272398792E-001 -5.3091920299E+000 
176044127.826 +9.3997736098E-001 -5.1872106711E+000  +8.4943832173E-002 +5.9477662846E+001  +8.5114091133E-002 +5.9989626935E+001  +9.4069578469E-001 -5.1166130103E+000 
180044926.185 +9.3941845050E-001 -4.9895846988E+000  +8.6335232341E-002 +6.0111590512E+001  +8.6742463302E-002 +6.0556309841E+001  +9.3996487474E-001 -4.9227918508E+000 
184045724.545 +9.4002902594E-001 -4.7794049910E+000  +8.7981106756E-002 +6.0806874947E+001  +8.8533891314E-002 +6.1155367082E+001  +9.4044379183E-001 -4.7276277819E+000 
188046522.905 +9.4177908850E-001 -4.5955705174E+000  +8.9670708891E-002 +6.1351682015E+001  +9.0493527450E-002 +6.1676335010E+001  +9.4193726545E-001 -4.5546279579E+000 
192047321.264 +9.4462952938E-001 -4.4473370919E+000  +9.1474703293E-002 +6.1960395736E+001  +9.2383493424E-002 +6.2109222481E+001  +9.4468360575E-001 -4.4044507293E+000 
196048119.624 +9.4838984367E-001 -4.3648731616E+000  +9.3364069403E-002 +6.2492433534E+001  +9.4281400313E-002 +6.2491256169E+001  +9.4807504689E-001 -4.3144082925E+000 
200048917.984 +9.5291919925E-001 -4.3301996128E+000  +9.5381559151E-002 +6.2925615341E+001  +9.6333419390E-002 +6.2795717315E+001  +9.5238020528E-001 -4.2697001215E+000 
204049716.343 +9.5774473617E-001 -4.3529019953E+000  +9.7472346462E-002 +6.3353480720E+001  +9.8335711772E-002 +6.3066946864E+001  +9.5676427385E-001 -4.2901865407E+000 
208050514.703 +9.6281622073E-001 -4.4702561180E+000  +9.9730111138E-002 +6.3646915570E+001  +1.0030168980E-001 +6.3235988959E+001  +9.6189431826E-001 -4.3937634131E+000 
212051313.063 +9.6790787531E-001 -4.6563361171E+000  +1.0198511008E-001 +6.3851662280E+001  +1.0247906762E-001 +6.3405570683E+001  +9.6701326909E-001 -4.5766766324E+000 
216052111.422 +9.7251988192E-001 -4.9547970420E+000  +1.0440067401E-001 +6.3954762476E+001  +1.0454571416E-001 +6.3425478735E+001  +9.7152353797E-001 -4.8342722979E+000 
220052909.782 +9.7673999731E-001 -5.3095541548E+000  +1.0667016182E-001 +6.3964160081E+001  +1.0659317477E-001 +6.3405475938E+001  +9.7565532436E-001 -5.1810313960E+000 
224053708.142 +9.7953044268E-001 -5.7444462265E+000  +1.0880327473E-001 +6.3859597960E+001  +1.0848936067E-001 +6.3328234792E+001  +9.7871062947E-001 -5.6009779212E+000 
228054506.501 +9.8092682020E-001 -6.2479205591E+000  +1.1081636965E-001 +6.3591926567E+001  +1.1025445538E-001 +6.3113539370E+001  +9.8028832192E-001 -6.0809512588E+000 
232055304.861 +9.8004875458E-001 -6.7591494154E+000  +1.1270326798E-001 +6.3320328393E+001  +1.1199689811E-001 +6.2923625967E+001  +9.7984331757E-001 -6.5801868671E+000 
236056103.221 +9.7721463543E-001 -7.2623579161E+000  +1.1415399851E-001 +6.3000281402E+001  +1.1323287005E-001 +6.2714593596E+001  +9.7735249887E-001 -7.0677790211E+000 
240056901.580 +9.7265017017E-001 -7.7359899976E+000  +1.1541382771E-001 +6.2729523525E+001  +1.1428824330E-001 +6.2509788851E+001  +9.7303397640E-001 -7.5381201549E+000 
244057699.940 +9.6650319881E-001 -8.0955153362E+000  +1.1631102594E-001 +6.2515109401E+001  +1.1515786190E-001 +6.2508467478E+001  +9.6720011709E-001 -7.8959669498E+000 
248058498.300 +9.5926754872E-001 -8.3477718963E+000  +1.1693568837E-001 +6.2469654210E+001  +1.1598868977E-001 +6.2579224519E+001  +9.6028774721E-001 -8.1432864286E+000 
252059296.659 +9.5198718857E-001 -8.4820557490E+000  +1.1760054305E-001 +6.2520234847E+001  +1.1654640931E-001 +6.2767945040E+001  +9.5295361685E-001 -8.2846672047E+000 
256060095.019 +9.4488531015E-001 -8.4856937593E+000  +1.1827596015E-001 +6.2726647826E+001  +1.1748643547E-001 +6.3093195423E+001  +9.4610251729E-001 -8.2984118651E+000 
260060893.379 +9.3862558066E-001 -8.3814971046E+000  +1.1907643570E-001 +6.3057357685E+001  +1.1841499461E-001 +6.3508612235E+001  +9.4018864440E-001 -8.2075045769E+000 
264061691.738 +9.3396160821E-001 -8.1817925883E+000  +1.1996534707E-001 +6.3472161487E+001  +1.1962291436E-001 +6.4029777934E+001  +9.3526442066E-001 -8.0345108559E+000 
268062490.098 +9.3084804549E-001 -7.9368215258E+000  +1.2107521493E-001 +6.3962810320E+001  +1.2102952341E-001 +6.4510537741E+001  +9.3202650656E-001 -7.8039882663E+000 
272063288.458 +9.2930120303E-001 -7.6555025805E+000  +1.2247361165E-001 +6.4429183277E+001  +1.2265945444E-001 +6.4962799400E+001  +9.3023795212E-001 -7.5319873365E+000 
276064086.817 +9.2923144100E-001 -7.3714305880E+000  +1.2401736638E-001 +6.4936452840E+001  +1.2456938531E-001 +6.5451936632E+001  +9.3026372045E-001 -7.2785609320E+000 
280064885.177 +9.3072378024E-001 -7.0965395335E+000  +1.2581899212E-001 +6.5425818620E+001  +1.2664852643E-001 +6.5809258308E+001  +9.3162758614E-001 -7.0178660145E+000 
284065683.537 +9.3362385187E-001 -6.8810313530E+000  +1.2764106622E-001 +6.5823665860E+001  +1.2870269716E-001 +6.6091997111E+001  +9.3407534676E-001 -6.8121255888E+000 
288066481.896 +9.3763452283E-001 -6.7134138897E+000  +1.2981281455E-001 +6.6169085957E+001  +1.3095606321E-001 +6.6349289587E+001  +9.3773371857E-001 -6.6218516963E+000 
292067280.256 +9.4220492604E-001 -6.6150269426E+000  +1.3197189372E-001 +6.6528006362E+001  +1.3322170783E-001 +6.6494393314E+001  +9.4201867848E-001 -6.5234816053E+000 
296068078.616 +9.4777535085E-001 -6.5748383001E+000  +1.3439935582E-001 +6.6800623531E+001  +1.3554398825E-001 +6.6679723738E+001  +9.4713682161E-001 -6.4857714660E+000 
300068876.975 +9.5405609071E-001 -6.6339812161E+000  +1.3682172831E-001 +6.6965317763E+001  +1.3787136407E-001 +6.6776507684E+001  +9.5303094457E-001 -6.5377840090E+000 
304069675.335 +9.5998360861E-001 -6.7800169776E+000  +1.3948084982E-001 +6.7088533005E+001  +1.4032321164E-001 +6.6740834928E+001  +9.5907167926E-001 -6.6788680624E+000 
308070473.695 +9.6603095722E-001 -7.0331707453E+000  +1.4215526588E-001 +6.7081705372E+001  +1.4273084391E-001 +6.6619677113E+001  +9.6464124836E-001 -6.9027532198E+000 
312071272.054 +9.7112050109E-001 -7.3822904674E+000  +1.4475827987E-001 +6.6956942299E+001  +1.4514942257E-001 +6.6470919247E+001  +9.7002081961E-001 -7.2265108384E+000 
316072070.414 +9.7541768377E-001 -7.8266681388E+000  +1.4738670906E-001 +6.6690300022E+001  +1.4739361983E-001 +6.6222389434E+001  +9.7409165905E-001 -7.6600901576E+000 
320072868.774 +9.7775756241E-001 -8.3478511603E+000  +1.4972495007E-001 +6.6323846209E+001  +1.4946093843E-001 +6.5873361220E+001  +9.7694149482E-001 -8.1436880446E+000 
324073667.133 +9.7876395820E-001 -8.9241238292E+000  +1.5182066651E-001 +6.5900848515E+001  +1.5135179032E-001 +6.5482945826E+001  +9.7779505047E-001 -8.6948187436E+000 
328074465.493 +9.7716941130E-001 -9.4934320934E+000  +1.5353443694E-001 +6.5407348983E+001  +1.5273924680E-001 +6.5063822306E+001  +9.7669408316E-001 -9.2538790494E+000 
332075263.853 +9.7335330605E-001 -1.0064809393E+001  +1.5482106141E-001 +6.4925543174E+001  +1.5372138502E-001 +6.4653038259E+001  +9.7309784361E-001 -9.8024516672E+000 
336076062.212 +9.6755135283E-001 -1.0543470732E+001  +1.5562702357E-001 +6.4492609124E+001  +1.5445788504E-001 +6.4331402619E+001  +9.6759577748E-001 -1.0284060040E+001 
340076860.572 +9.5990103160E-001 -1.0939339532E+001  +1.5596339892E-001 +6.4186767636E+001  +1.5482926469E-001 +6.4101595752E+001  +9.6049749195E-001 -1.0665902154E+001 
344077658.932 +9.5159945699E-001 -1.1188780604E+001  +1.5638537056E-001 +6.4025818716E+001  +1.5503742672E-001 +6.4049541094E+001  +9.5252633843E-001 -1.0919000829E+001 
348078457.291 +9.4283332123E-001 -1.1284751479E+001  +1.5637710391E-001 +6.4024057682E+001  +1.5515996189E-001 +6.4170391923E+001  +9.4406558627E-001 -1.1008718106E+001 
352079255.651 +9.3458048347E-001 -1.1237507307E+001  +1.5658970946E-001 +6.4192978149E+001  +1.5559431276E-001 +6.4456600467E+001  +9.3607220723E-001 -1.0995951584E+001 
356080054.011 +9.2772019317E-001 -1.1070718091E+001  +1.5700959826E-001 +6.4460813672E+001  +1.5615892450E-001 +6.4841520084E+001  +9.2930438977E-001 -1.0836231958E+001 
360080852.370 +9.2250416019E-001 -1.0814302637E+001  +1.5774725917E-001 +6.4850871598E+001  +1.5706220306E-001 +6.5271917836E+001  +9.2413066272E-001 -1.0605595365E+001 
364081650.730 +9.1913025392E-001 -1.0480040852E+001  +1.5865514765E-001 +6.5310432794E+001  +1.5832895205E-001 +6.5765359681E+001  +9.2070984741E-001 -1.0299771857E+001 
368082449.090 +9.1752539675E-001 -1.0139065978E+001  +1.6005676346E-001 +6.5751290970E+001  +1.5997954763E-001 +6.6189186990E+001  +9.1884175893E-001 -9.9706974976E+000 
372083247.449 +9.1763336996E-001 -9.8046559527E+000  +1.6152229981E-001 +6.6147820971E+001  +1.6197282941E-001 +6.6635080105E+001  +9.1888978140E-001 -9.6429711477E+000 
376084045.809 +9.1970466488E-001 -9.4794485166E+000  +1.6344763689E-001 +6.6570379769E+001  +1.6409936805E-001 +6.6963155809E+001  +9.2075757307E-001 -9.3327195323E+000 
380084844.169 +9.2313659669E-001 -9.1960169843E+000  +1.6552885857E-001 +6.6967304403E+001  +1.6648927264E-001 +6.7288092323E+001  +9.2376130326E-001 -9.0677394527E+000 
384085642.529 +9.2758699374E-001 -8.9874536924E+000  +1.6783653958E-001 +6.7254391384E+001  +1.6892413259E-001 +6.7498472245E+001  +9.2811457980E-001 -8.8667288481E+000 
388086440.888 +9.3320428287E-001 -8.8574309847E+000  +1.7020714590E-001 +6.7519405268E+001  +1.7153008680E-001 +6.7627218105E+001  +9.3332690357E-001 -8.7456282715E+000 
392087239.248 +9.3978364281E-001 -8.8084428935E+000  +1.7301361196E-001 +6.7708871926E+001  +1.7427598490E-001 +6.7684043244E+001  +9.3931476221E-001 -8.6981687985E+000 
396088037.608 +9.4656978449E-001 -8.8714270267E+000  +1.7578787717E-001 +6.7830926962E+001  +1.7696515181E-001 +6.7696667381E+001  +9.4597890656E-001 -8.7524969418E+000 
400088835.967 +9.5380583583E-001 -9.0321195963E+000  +1.7885331206E-001 +6.7827662859E+001  +1.7995002278E-001 +6.7626717917E+001  +9.5264046326E-001 -8.9052471120E+000 
404089634.327 +9.6050664331E-001 -9.3164029323E+000  +1.8191814452E-001 +6.7749297679E+001  +1.8259381356E-001 +6.7424014998E+001  +9.5903762129E-001 -9.1672923703E+000 
408090432.687 +9.6658051200E-001 -9.7003545575E+000  +1.8492911088E-001 +6.7504109052E+001  +1.8548913430E-001 +6.7152591068E+001  +9.6496417945E-001 -9.5281863008E+000 
412091231.046 +9.7138860191E-001 -1.0180746606E+001  +1.8783722920E-001 +6.7170546272E+001  +1.8814452249E-001 +6.6751729269E+001  +9.6969572881E-001 -9.9907707949E+000 
416092029.406 +9.7435174125E-001 -1.0758318658E+001  +1.9046824166E-001 +6.6700088172E+001  +1.9042604034E-001 +6.6316276099E+001  +9.7274806271E-001 -1.0529672519E+001 
420092827.766 +9.7501126275E-001 -1.1404233296E+001  +1.9260376471E-001 +6.6142112952E+001  +1.9226856680E-001 +6.5767841431E+001  +9.7353770930E-001 -1.1140446708E+001 
424093626.125 +9.7305430366E-001 -1.2050952142E+001  +1.9428336394E-001 +6.5526912420E+001  +1.9357054391E-001 +6.5225583974E+001  +9.7219386026E-001 -1.1758177749E+001 
428094424.485 +9.6871004536E-001 -1.2682152299E+001  +1.9523742764E-001 +6.4890578470E+001  +1.9425474159E-001 +6.4650191837E+001  +9.6824556266E-001 -1.2372088564E+001 
432095222.845 +9.6216397136E-001 -1.3212956953E+001  +1.9566533598E-001 +6.4412370870E+001  +1.9457579381E-001 +6.4230575768E+001  +9.6200854011E-001 -1.2883470712E+001 
436096021.204 +9.5382993724E-001 -1.3642882989E+001  +1.9559624252E-001 +6.3984601991E+001  +1.9435195173E-001 +6.3899191072E+001  +9.5391454991E-001 -1.3315278346E+001 
440096819.564 +9.4416815893E-001 -1.3920570358E+001  +1.9524562910E-001 +6.3775177419E+001  +1.9395207513E-001 +6.3787786000E+001  +9.4486725776E-001 -1.3581512807E+001 
444097617.924 +9.3429549130E-001 -1.4021520844E+001  +1.9476799335E-001 +6.3743404265E+001  +1.9350679765E-001 +6.3801285569E+001  +9.3551655989E-001 -1.3713195321E+001 
448098416.283 +9.2518775651E-001 -1.3983555714E+001  +1.9436074021E-001 +6.3870354094E+001  +1.9327350980E-001 +6.4035539208E+001  +9.2661170077E-001 -1.3673680468E+001 
452099214.643 +9.1726733914E-001 -1.3778399574E+001  +1.9419641063E-001 +6.4157679336E+001  +1.9326624179E-001 +6.4390332077E+001  +9.1885780724E-001 -1.3491034009E+001 
456100013.003 +9.1104047664E-001 -1.3500782815E+001  +1.9455432254E-001 +6.4516427326E+001  +1.9383753558E-001 +6.4839313122E+001  +9.1263345804E-001 -1.3220785497E+001 
