!  2-Port S-parameters saved by WinCal
! VAR MeasName=S-Parameters (CALIBRATED_DATA) read from VNA (P5004A)
! VAR MeasDate=24/04/2024 16:00:03
! VAR NAME=Wafer2_r1_c3_pristine 8
! VAR FILENAME=Wafer2_r1_c3_pristine 8.S2P
! VAR DATE=24/04/2024 16:00:03
! VAR PHYS_PORTS=1,2
! VAR ObjTypeName=DATASET
! VAR IndexType=Frequency
!
# Hz S MA R 50
9000.000 +7.9993488907E-001 +1.7308476377E+001  +3.9757749613E-005 +3.7328190043E+001  +2.3603293004E-005 +1.2888303772E+002  +7.9913948391E-001 +1.7290722584E+001 
4009798.360 +9.8735138017E-001 -3.1386027764E+000  +1.8883869185E-003 +8.6120957666E+001  +1.9031843916E-003 +8.6081724505E+001  +9.8707778294E-001 -3.0553310894E+000 
8010596.719 +9.7591727473E-001 -6.3131817523E-001  +3.7084897457E-003 +8.8558856424E+001  +3.7491419775E-003 +8.8433342691E+001  +9.7663351183E-001 -6.0232309983E-001 
12011395.079 +9.8341889243E-001 -8.3891156014E-003  +5.5933255354E-003 +8.9159259754E+001  +5.6429615294E-003 +8.8777876485E+001  +9.8390114716E-001 -5.2238147830E-003 
16012193.439 +9.8948904359E-001 +1.8379621788E-001  +7.4690843836E-003 +8.9309856101E+001  +7.5158578976E-003 +8.8762263173E+001  +9.8969189289E-001 +1.6833227842E-001 
20012991.798 +9.9458732782E-001 +2.0750288465E-001  +9.3667088369E-003 +8.9366356394E+001  +9.3840115054E-003 +8.8783872408E+001  +9.9466201437E-001 +1.9582046302E-001 
24013790.158 +9.9941494325E-001 +1.2573890071E-001  +1.1298995941E-002 +8.9321960716E+001  +1.1282801433E-002 +8.8693232217E+001  +9.9940246772E-001 +1.2681772518E-001 
28014588.518 +1.0035435267E+000 -3.1304528219E-002  +1.3236780411E-002 +8.9247205749E+001  +1.3179583079E-002 +8.8614623250E+001  +1.0034832301E+000 -1.8779080399E-002 
32015386.877 +1.0076654472E+000 -2.3054859309E-001  +1.5186363199E-002 +8.8939459140E+001  +1.5167739160E-002 +8.8210599919E+001  +1.0076246789E+000 -2.0938510380E-001 
36016185.237 +1.0109604884E+000 -4.9947920722E-001  +1.7143718433E-002 +8.8576934422E+001  +1.7136150813E-002 +8.7933199296E+001  +1.0108485625E+000 -4.9491093951E-001 
40016983.597 +1.0129061014E+000 -8.1813931193E-001  +1.9266279105E-002 +8.8234734172E+001  +1.8983476583E-002 +8.7942216437E+001  +1.0127511081E+000 -8.1953341099E-001 
44017781.956 +1.0138157030E+000 -1.1913923917E+000  +2.1042576654E-002 +8.7559430397E+001  +2.0869709233E-002 +8.7483666183E+001  +1.0139511704E+000 -1.1685391396E+000 
48018580.316 +1.0141820035E+000 -1.5610035473E+000  +2.2982512806E-002 +8.7269595111E+001  +2.2836307513E-002 +8.6797424395E+001  +1.0145291512E+000 -1.5280343858E+000 
52019378.676 +1.0127678501E+000 -1.9594192133E+000  +2.4931266957E-002 +8.6699594312E+001  +2.4617689187E-002 +8.6715563443E+001  +1.0126458631E+000 -1.9135702457E+000 
56020177.035 +1.0099152230E+000 -2.2852930629E+000  +2.6682260998E-002 +8.6228776697E+001  +2.6462352054E-002 +8.6595409520E+001  +1.0102743870E+000 -2.2422450867E+000 
60020975.395 +1.0063596040E+000 -2.6087856499E+000  +2.8414839282E-002 +8.5759692177E+001  +2.8227320933E-002 +8.6112800289E+001  +1.0065495488E+000 -2.5500903845E+000 
64021773.755 +1.0014446915E+000 -2.8170703879E+000  +3.0083019929E-002 +8.5613929692E+001  +2.9868652402E-002 +8.5876029984E+001  +1.0015668620E+000 -2.7674588835E+000 
68022572.114 +9.9649035338E-001 -2.9397405342E+000  +3.1796532196E-002 +8.5440494715E+001  +3.1615459704E-002 +8.5894431829E+001  +9.9640804279E-001 -2.9069363792E+000 
72023370.474 +9.9172355974E-001 -2.9845688701E+000  +3.3422386039E-002 +8.5327287649E+001  +3.3337065767E-002 +8.5860040237E+001  +9.9183217232E-001 -2.9517027241E+000 
76024168.834 +9.8738733373E-001 -2.9505551468E+000  +3.5063734634E-002 +8.5324766539E+001  +3.5050817745E-002 +8.5959551608E+001  +9.8764583171E-001 -2.9160351350E+000 
80024967.193 +9.8417655659E-001 -2.8446738052E+000  +3.6675393057E-002 +8.5640368956E+001  +3.6837904830E-002 +8.6202240452E+001  +9.8437384720E-001 -2.8199533515E+000 
84025765.553 +9.8227973326E-001 -2.7241362146E+000  +3.8503505565E-002 +8.5713147682E+001  +3.8584606103E-002 +8.6055898009E+001  +9.8226995720E-001 -2.7147690534E+000 
88026563.913 +9.8144614930E-001 -2.5559430899E+000  +4.0210699584E-002 +8.5897673351E+001  +4.0530437285E-002 +8.6188113964E+001  +9.8159968081E-001 -2.5513570026E+000 
92027362.272 +9.8192621864E-001 -2.4199975682E+000  +4.1909056085E-002 +8.6053846552E+001  +4.2318131121E-002 +8.6309477106E+001  +9.8184461875E-001 -2.4118453402E+000 
96028160.632 +9.8268512740E-001 -2.2829518098E+000  +4.3805038437E-002 +8.6215669080E+001  +4.4232952882E-002 +8.6395326228E+001  +9.8273118892E-001 -2.2814831653E+000 
100028958.992 +9.8548439949E-001 -2.1872278287E+000  +4.5666309279E-002 +8.6305345292E+001  +4.6120684434E-002 +8.6228021654E+001  +9.8535784365E-001 -2.1926056626E+000 
104029757.351 +9.8861085738E-001 -2.1327899350E+000  +4.7631178379E-002 +8.6428585872E+001  +4.8112015453E-002 +8.6265098180E+001  +9.8832633324E-001 -2.1138373514E+000 
108030555.711 +9.9247784985E-001 -2.1050962406E+000  +4.9563275103E-002 +8.6463598707E+001  +5.0037420118E-002 +8.6157027788E+001  +9.9215319026E-001 -2.1045144016E+000 
112031354.071 +9.9689012943E-001 -2.1703759433E+000  +5.1693696240E-002 +8.6482620372E+001  +5.2049814696E-002 +8.5989513571E+001  +9.9669915150E-001 -2.1540489521E+000 
116032152.430 +1.0015913575E+000 -2.2773938930E+000  +5.3765421532E-002 +8.6406637456E+001  +5.4036920932E-002 +8.5891557204E+001  +1.0008959638E+000 -2.2830919745E+000 
120032950.790 +1.0060700099E+000 -2.4806841189E+000  +5.5947655198E-002 +8.6270534623E+001  +5.5983691090E-002 +8.5686504865E+001  +1.0053503661E+000 -2.4481117644E+000 
124033749.150 +1.0105467293E+000 -2.7553561787E+000  +5.8164160006E-002 +8.6084561352E+001  +5.8128832404E-002 +8.5327597924E+001  +1.0098060521E+000 -2.7252119039E+000 
128034547.510 +1.0140848590E+000 -3.0909155100E+000  +6.0309296696E-002 +8.5765243205E+001  +6.0151620326E-002 +8.5139174544E+001  +1.0133528723E+000 -3.0423564042E+000 
132035345.869 +1.0160568396E+000 -3.5016354050E+000  +6.2443943332E-002 +8.5175954288E+001  +6.1982308272E-002 +8.4778546976E+001  +1.0156506984E+000 -3.4448454821E+000 
136036144.229 +1.0170192769E+000 -3.9618896716E+000  +6.4388197648E-002 +8.4733532849E+001  +6.3979071920E-002 +8.4293337586E+001  +1.0166175162E+000 -3.8915298757E+000 
140036942.589 +1.0156054413E+000 -4.4235881733E+000  +6.6292069244E-002 +8.4133997696E+001  +6.5639063999E-002 +8.3912084301E+001  +1.0155652190E+000 -4.3323647376E+000 
144037740.948 +1.0130733379E+000 -4.8635905666E+000  +6.7960586971E-002 +8.3620852468E+001  +6.7259420016E-002 +8.3459808279E+001  +1.0129542444E+000 -4.7576646516E+000 
148038539.308 +1.0083784715E+000 -5.2429665695E+000  +6.9496668002E-002 +8.3138060509E+001  +6.8817858944E-002 +8.3219934546E+001  +1.0087825241E+000 -5.1416859400E+000 
152039337.668 +1.0028151627E+000 -5.5608904253E+000  +7.0926858993E-002 +8.2769969682E+001  +7.0113998182E-002 +8.2836154481E+001  +1.0028411894E+000 -5.4498816424E+000 
156040136.027 +9.9608195351E-001 -5.7589442552E+000  +7.2185869883E-002 +8.2546723094E+001  +7.1528139661E-002 +8.2769028470E+001  +9.9656418867E-001 -5.6475521973E+000 
160040934.387 +9.8950269646E-001 -5.8276865933E+000  +7.3390135538E-002 +8.2405012710E+001  +7.2879833899E-002 +8.2776503562E+001  +9.9015574287E-001 -5.7220997156E+000 
164041732.747 +9.8381135906E-001 -5.7954853946E+000  +7.4694078754E-002 +8.2386617181E+001  +7.4217989638E-002 +8.2820148552E+001  +9.8438973133E-001 -5.7287211454E+000 
168042531.106 +9.7880766607E-001 -5.7025936871E+000  +7.5927244556E-002 +8.2457531944E+001  +7.5799480265E-002 +8.3060319994E+001  +9.7960550293E-001 -5.6272703118E+000 
172043329.466 +9.7521690552E-001 -5.5342351990E+000  +7.7549197074E-002 +8.2717456600E+001  +7.7415463724E-002 +8.3259283108E+001  +9.7600887458E-001 -5.4734973273E+000 
176044127.826 +9.7299922434E-001 -5.3168895265E+000  +7.9005384092E-002 +8.2894773087E+001  +7.9192395696E-002 +8.3425873606E+001  +9.7365656680E-001 -5.2739413349E+000 
180044926.185 +9.7227823195E-001 -5.1224448416E+000  +8.0616609920E-002 +8.3118432316E+001  +8.0996108839E-002 +8.3595838378E+001  +9.7308305107E-001 -5.0734181676E+000 
184045724.545 +9.7292428752E-001 -4.9071179314E+000  +8.2421230571E-002 +8.3323196732E+001  +8.3010759729E-002 +8.3723971107E+001  +9.7356521303E-001 -4.8629401902E+000 
188046522.905 +9.7479900909E-001 -4.7203067333E+000  +8.4310469215E-002 +8.3471214232E+001  +8.5022376775E-002 +8.3787650343E+001  +9.7519975967E-001 -4.6904525981E+000 
192047321.264 +9.7783764370E-001 -4.5717201264E+000  +8.6266664120E-002 +8.3644216088E+001  +8.7171622529E-002 +8.3837314767E+001  +9.7813123743E-001 -4.5471687360E+000 
196048119.624 +9.8184984457E-001 -4.4636372207E+000  +8.8375589757E-002 +8.3804827241E+001  +8.9260666215E-002 +8.3744485372E+001  +9.8173760357E-001 -4.4534175977E+000 
200048917.984 +9.8676210616E-001 -4.4287752901E+000  +9.0510399753E-002 +8.3904617996E+001  +9.1325514227E-002 +8.3737578974E+001  +9.8646690586E-001 -4.4106776110E+000 
204049716.343 +9.9190689369E-001 -4.4555127511E+000  +9.2716799120E-002 +8.3923478758E+001  +9.3506804287E-002 +8.3582146692E+001  +9.9121529661E-001 -4.4389834254E+000 
208050514.703 +9.9754262545E-001 -4.5780251216E+000  +9.5102312825E-002 +8.3906359894E+001  +9.5755681623E-002 +8.3445377827E+001  +9.9656748987E-001 -4.5472729013E+000 
212051313.063 +1.0031513774E+000 -4.7725761203E+000  +9.7578037523E-002 +8.3774394396E+001  +9.7991599649E-002 +8.3230208771E+001  +1.0021487917E+000 -4.7450434924E+000 
216052111.422 +1.0081707346E+000 -5.0795180336E+000  +9.9930111768E-002 +8.3504576539E+001  +1.0015644283E-001 +8.2930957217E+001  +1.0072343193E+000 -5.0141214639E+000 
220052909.782 +1.0125533221E+000 -5.4372600411E+000  +1.0240606778E-001 +8.3128493349E+001  +1.0229997016E-001 +8.2618207463E+001  +1.0114506062E+000 -5.3748566301E+000 
224053708.142 +1.0156160962E+000 -5.8986522524E+000  +1.0470251360E-001 +8.2653249290E+001  +1.0456988757E-001 +8.2221463089E+001  +1.0146249516E+000 -5.8080686150E+000 
228054506.501 +1.0172163167E+000 -6.4106174253E+000  +1.0696984170E-001 +8.2140721043E+001  +1.0634179803E-001 +8.1699121673E+001  +1.0162112441E+000 -6.2967128763E+000 
232055304.861 +1.0163246101E+000 -6.9415020332E+000  +1.0890872280E-001 +8.1540778481E+001  +1.0814152181E-001 +8.1150054739E+001  +1.0154468724E+000 -6.8079285632E+000 
236056103.221 +1.0134001717E+000 -7.4634257354E+000  +1.1042632040E-001 +8.0920708528E+001  +1.0957640487E-001 +8.0619899970E+001  +1.0128875046E+000 -7.3236629566E+000 
240056901.580 +1.0083960027E+000 -7.9396191623E+000  +1.1173427624E-001 +8.0342048372E+001  +1.1076927985E-001 +8.0223726028E+001  +1.0082000411E+000 -7.7873487439E+000 
244057699.940 +1.0015553802E+000 -8.3174498866E+000  +1.1288585457E-001 +7.9884072015E+001  +1.1185754688E-001 +7.9851132209E+001  +1.0020649439E+000 -8.1585688303E+000 
248058498.300 +9.9414434863E-001 -8.5824642678E+000  +1.1379396566E-001 +7.9570804471E+001  +1.1272430312E-001 +7.9643877999E+001  +9.9450364876E-001 -8.3981986184E+000 
252059296.659 +9.8593037013E-001 -8.7199971153E+000  +1.1449140201E-001 +7.9395922852E+001  +1.1344597363E-001 +7.9613381053E+001  +9.8668302589E-001 -8.5387163076E+000 
256060095.019 +9.7853046605E-001 -8.7148909582E+000  +1.1527004656E-001 +7.9312385804E+001  +1.1440599174E-001 +7.9710773590E+001  +9.7931149309E-001 -8.5511090761E+000 
260060893.379 +9.7173179896E-001 -8.6037379448E+000  +1.1608514681E-001 +7.9422859710E+001  +1.1544371325E-001 +7.9867978634E+001  +9.7293222325E-001 -8.4520612896E+000 
264061691.738 +9.6671358867E-001 -8.3939812340E+000  +1.1718385877E-001 +7.9629587404E+001  +1.1683116807E-001 +8.0165115244E+001  +9.6793282695E-001 -8.2688065551E+000 
268062490.098 +9.6326780885E-001 -8.1524172128E+000  +1.1842406465E-001 +7.9890405062E+001  +1.1831732874E-001 +8.0432199298E+001  +9.6438172079E-001 -8.0357288410E+000 
272063288.458 +9.6151312331E-001 -7.8489964908E+000  +1.1982858796E-001 +8.0187443844E+001  +1.2008320611E-001 +8.0670441991E+001  +9.6267315720E-001 -7.7514685332E+000 
276064086.817 +9.6164224079E-001 -7.5669797005E+000  +1.2156689948E-001 +8.0442451480E+001  +1.2208673773E-001 +8.0918841792E+001  +9.6260865376E-001 -7.4817325595E+000 
280064885.177 +9.6302763800E-001 -7.2823637497E+000  +1.2347862172E-001 +8.0714203057E+001  +1.2415522845E-001 +8.1097424588E+001  +9.6401340010E-001 -7.2341619155E+000 
284065683.537 +9.6601704454E-001 -7.0535926277E+000  +1.2542561122E-001 +8.0925853384E+001  +1.2640618707E-001 +8.1235976731E+001  +9.6650422174E-001 -7.0215695384E+000 
288066481.896 +9.7030390397E-001 -6.8821342660E+000  +1.2759540668E-001 +8.1092964236E+001  +1.2875483435E-001 +8.1279330375E+001  +9.7059143304E-001 -6.8305311846E+000 
292067280.256 +9.7543913257E-001 -6.7776532362E+000  +1.2989703463E-001 +8.1257828319E+001  +1.3110120730E-001 +8.1227679899E+001  +9.7529604373E-001 -6.7298091549E+000 
296068078.616 +9.8143541867E-001 -6.7431852473E+000  +1.3235449360E-001 +8.1318075964E+001  +1.3361488344E-001 +8.1202716861E+001  +9.8087440539E-001 -6.7027939068E+000 
300068876.975 +9.8778448503E-001 -6.7953014246E+000  +1.3494008013E-001 +8.1336052808E+001  +1.3608720564E-001 +8.1093378367E+001  +9.8726058924E-001 -6.7548145801E+000 
304069675.335 +9.9448928386E-001 -6.9471892570E+000  +1.3766146008E-001 +8.1262390545E+001  +1.3859651925E-001 +8.0908569482E+001  +9.9372565637E-001 -6.8999069902E+000 
308070473.695 +1.0009748669E+000 -7.2194434415E+000  +1.4049190916E-001 +8.1028636986E+001  +1.4116118597E-001 +8.0641578421E+001  +9.9988612962E-001 -7.1403266477E+000 
312071272.054 +1.0064090317E+000 -7.5922571891E+000  +1.4327260536E-001 +8.0755983519E+001  +1.4359312385E-001 +8.0295669686E+001  +1.0052398490E+000 -7.4917078978E+000 
316072070.414 +1.0111270993E+000 -8.0348290417E+000  +1.4599508930E-001 +8.0372621711E+001  +1.4612624553E-001 +7.9842230233E+001  +1.0097218195E+000 -7.9339436112E+000 
320072868.774 +1.0137651142E+000 -8.5871284794E+000  +1.4853586584E-001 +7.9800847753E+001  +1.4811982066E-001 +7.9280383498E+001  +1.0125733743E+000 -8.4397755609E+000 
324073667.133 +1.0148313384E+000 -9.1731046469E+000  +1.5062078797E-001 +7.9178009393E+001  +1.5015353023E-001 +7.8712255990E+001  +1.0133445019E+000 -9.0094707675E+000 
328074465.493 +1.0129539658E+000 -9.7672698852E+000  +1.5252607715E-001 +7.8513118547E+001  +1.5158784640E-001 +7.8153476410E+001  +1.0120831691E+000 -9.5884502181E+000 
332075263.853 +1.0089526408E+000 -1.0340012268E+001  +1.5383880541E-001 +7.7840869265E+001  +1.5272361840E-001 +7.7546583481E+001  +1.0083462749E+000 -1.0131908646E+001 
336076062.212 +1.0027197381E+000 -1.0829057172E+001  +1.5472665000E-001 +7.7252976501E+001  +1.5345117342E-001 +7.7099093554E+001  +1.0023184793E+000 -1.0627221346E+001 
340076860.572 +9.9465092323E-001 -1.1239158260E+001  +1.5524778730E-001 +7.6797679200E+001  +1.5385155539E-001 +7.6729697007E+001  +9.9466181170E-001 -1.1014077161E+001 
344077658.932 +9.8562128478E-001 -1.1488775816E+001  +1.5548751606E-001 +7.6487116321E+001  +1.5410968786E-001 +7.6499375481E+001  +9.8599461159E-001 -1.1263768358E+001 
348078457.291 +9.7632666138E-001 -1.1578322117E+001  +1.5563397708E-001 +7.6354201854E+001  +1.5444567013E-001 +7.6505075117E+001  +9.7708968804E-001 -1.1355124978E+001 
352079255.651 +9.6757002082E-001 -1.1531370069E+001  +1.5588317287E-001 +7.6357378231E+001  +1.5479237509E-001 +7.6639520215E+001  +9.6849829399E-001 -1.1332173779E+001 
356080054.011 +9.6014340100E-001 -1.1371077927E+001  +1.5626288014E-001 +7.6532803118E+001  +1.5532785275E-001 +7.6900910379E+001  +9.6120589045E-001 -1.1170086965E+001 
360080852.370 +9.5446824386E-001 -1.1101920337E+001  +1.5705774592E-001 +7.6813780514E+001  +1.5648280348E-001 +7.7217767425E+001  +9.5588860751E-001 -1.0925209554E+001 
364081650.730 +9.5069451946E-001 -1.0749075901E+001  +1.5809694466E-001 +7.7124041271E+001  +1.5780417976E-001 +7.7590296365E+001  +9.5227675043E-001 -1.0611796916E+001 
368082449.090 +9.4900424085E-001 -1.0405537542E+001  +1.5944964114E-001 +7.7451971461E+001  +1.5945216323E-001 +7.7919283957E+001  +9.5034274470E-001 -1.0266601018E+001 
372083247.449 +9.4898243219E-001 -1.0052815546E+001  +1.6111729036E-001 +7.7764094219E+001  +1.6143769845E-001 +7.8222133523E+001  +9.5046916822E-001 -9.9364324263E+000 
376084045.809 +9.5126911886E-001 -9.7156246439E+000  +1.6309707248E-001 +7.8037343533E+001  +1.6372530992E-001 +7.8464615863E+001  +9.5216168628E-001 -9.6212525790E+000 
380084844.169 +9.5467731577E-001 -9.4243496929E+000  +1.6526529111E-001 +7.8339348232E+001  +1.6626143382E-001 +7.8682801434E+001  +9.5569546030E-001 -9.3398261629E+000 
384085642.529 +9.5960653517E-001 -9.2159702238E+000  +1.6765046344E-001 +7.8530785684E+001  +1.6874274503E-001 +7.8768873586E+001  +9.6020579362E-001 -9.1519061197E+000 
388086440.888 +9.6565509993E-001 -9.0674569004E+000  +1.7023753626E-001 +7.8704483807E+001  +1.7155849675E-001 +7.8789993961E+001  +9.6589560192E-001 -9.0255992294E+000 
392087239.248 +9.7264117359E-001 -9.0254572800E+000  +1.7297467562E-001 +7.8768130859E+001  +1.7440215326E-001 +7.8748152189E+001  +9.7252746032E-001 -8.9752177467E+000 
396088037.608 +9.7983486951E-001 -9.0970919842E+000  +1.7596424254E-001 +7.8768433884E+001  +1.7717884470E-001 +7.8625653056E+001  +9.7967143832E-001 -9.0398658780E+000 
400088835.967 +9.8790834105E-001 -9.2644800673E+000  +1.7901186617E-001 +7.8679247161E+001  +1.8012917373E-001 +7.8446399850E+001  +9.8678601835E-001 -9.2072124687E+000 
404089634.327 +9.9503075897E-001 -9.5514109689E+000  +1.8227520269E-001 +7.8469354151E+001  +1.8310657674E-001 +7.8139246822E+001  +9.9365378730E-001 -9.4816782305E+000 
408090432.687 +1.0015242470E+000 -9.9580177337E+000  +1.8548275457E-001 +7.8118390987E+001  +1.8597613472E-001 +7.7781182436E+001  +9.9991915932E-001 -9.8525663520E+000 
412091231.046 +1.0064793920E+000 -1.0466783821E+001  +1.8851901205E-001 +7.7656759476E+001  +1.8869769879E-001 +7.7247398587E+001  +1.0049473039E+000 -1.0341543916E+001 
416092029.406 +1.0097450735E+000 -1.1060431999E+001  +1.9114883162E-001 +7.7049857057E+001  +1.9107530698E-001 +7.6662960763E+001  +1.0080265569E+000 -1.0904356517E+001 
420092827.766 +1.0106331736E+000 -1.1719798287E+001  +1.9353334610E-001 +7.6414303239E+001  +1.9297529042E-001 +7.6024825490E+001  +1.0089161311E+000 -1.1538566268E+001 
424093626.125 +1.0086744272E+000 -1.2384721483E+001  +1.9519439783E-001 +7.5663868762E+001  +1.9437180637E-001 +7.5352308220E+001  +1.0072199507E+000 -1.2170324132E+001 
428094424.485 +1.0038443867E+000 -1.3029805800E+001  +1.9623677225E-001 +7.4957909515E+001  +1.9518226276E-001 +7.4688074147E+001  +1.0031141141E+000 -1.2791163591E+001 
432095222.845 +9.9690423109E-001 -1.3582310649E+001  +1.9662800025E-001 +7.4315775419E+001  +1.9543287581E-001 +7.4125519451E+001  +9.9631673852E-001 -1.3318875310E+001 
436096021.204 +9.8785115633E-001 -1.4016105131E+001  +1.9656266528E-001 +7.3801910056E+001  +1.9525690308E-001 +7.3731595681E+001  +9.8753112754E-001 -1.3754913762E+001 
440096819.564 +9.7760111229E-001 -1.4297084305E+001  +1.9606294803E-001 +7.3496139252E+001  +1.9483048793E-001 +7.3504601374E+001  +9.7802273426E-001 -1.4023567151E+001 
444097617.924 +9.6688648818E-001 -1.4413700200E+001  +1.9559664448E-001 +7.3370880075E+001  +1.9439298286E-001 +7.3445046284E+001  +9.6791562901E-001 -1.4140053091E+001 
448098416.283 +9.5715580132E-001 -1.4356308046E+001  +1.9520668841E-001 +7.3445503232E+001  +1.9416994113E-001 +7.3603676772E+001  +9.5840403113E-001 -1.4089742807E+001 
452099214.643 +9.4878520525E-001 -1.4141971615E+001  +1.9516159612E-001 +7.3638638151E+001  +1.9417157730E-001 +7.3909730512E+001  +9.5011609467E-001 -1.3903647230E+001 
456100013.003 +9.4216236891E-001 -1.3840107685E+001  +1.9543067587E-001 +7.3941560644E+001  +1.9463710683E-001 +7.4233942981E+001  +9.4357879692E-001 -1.3618310437E+001 
