!  2-Port S-parameters saved by WinCal
! VAR MeasName=S-Parameters (CALIBRATED_DATA) read from VNA (P5004A)
! VAR MeasDate=24/04/2024 16:29:36
! VAR NAME=Wafer2_r1_c1_overformed 3
! VAR FILENAME=Wafer2_r1_c1_overformed 3.S2P
! VAR DATE=24/04/2024 16:29:36
! VAR PHYS_PORTS=1,2
! VAR ObjTypeName=DATASET
! VAR IndexType=Frequency
!
# Hz S MA R 50
9000.000 +7.8687802572E-001 +1.8096408988E+001  +1.3607380705E-005 +1.2156263081E+000  +1.1710573106E-005 +2.7266389143E+001  +7.9232481869E-001 +1.8005448334E+001 
4009798.360 +9.8794428580E-001 -3.1162607956E+000  +1.9345705287E-003 +8.5703205374E+001  +1.9532126823E-003 +8.5588293101E+001  +9.8753520585E-001 -3.0392223486E+000 
8010596.719 +9.7676886194E-001 -5.9113472504E-001  +3.7944140039E-003 +8.8371031755E+001  +3.8343883116E-003 +8.8071747721E+001  +9.7689073278E-001 -5.9939386017E-001 
12011395.079 +9.7597821152E-001 +7.8238403715E-002  +5.7043881511E-003 +8.8928700611E+001  +5.7440626655E-003 +8.8499883856E+001  +9.7322557626E-001 +3.3008293926E-002 
16012193.439 +9.8801072146E-001 +2.5894381621E-001  +7.6489129321E-003 +8.9101106105E+001  +7.6871187978E-003 +8.8562415251E+001  +9.8585859036E-001 +2.2410066911E-001 
20012991.798 +9.9585339175E-001 +2.4874954593E-001  +9.6137513174E-003 +8.9063838022E+001  +9.6337100388E-003 +8.8493303438E+001  +9.9461054965E-001 +2.6167383368E-001 
24013790.158 +1.0007111267E+000 +2.5534432448E-001  +1.1576979859E-002 +8.9032151911E+001  +1.1567786062E-002 +8.8393731653E+001  +1.0002665710E+000 +1.4030861136E-001 
28014588.518 +1.0045244771E+000 +1.0089502469E-001  +1.3556876644E-002 +8.8879110136E+001  +1.3500133964E-002 +8.8281138582E+001  +1.0035373253E+000 -1.3535658810E-002 
32015386.877 +1.0097359413E+000 -2.4429797368E-001  +1.5537441830E-002 +8.8763775338E+001  +1.5473491294E-002 +8.8230952319E+001  +1.0095138382E+000 -2.9051541768E-001 
36016185.237 +1.0122093390E+000 -5.1074628300E-001  +1.7533292755E-002 +8.8467056551E+001  +1.7427785360E-002 +8.8006095999E+001  +1.0124932338E+000 -5.6286762362E-001 
40016983.597 +1.0137136637E+000 -8.3801548270E-001  +1.9525812870E-002 +8.8063479563E+001  +1.9374407849E-002 +8.7698289440E+001  +1.0140133566E+000 -8.8928902497E-001 
44017781.956 +1.0146223553E+000 -1.2309557150E+000  +2.1501052853E-002 +8.7617197864E+001  +2.1299942792E-002 +8.7395161317E+001  +1.0147598166E+000 -1.2520314207E+000 
48018580.316 +1.0148609802E+000 -1.5946257168E+000  +2.3453893176E-002 +8.7115372363E+001  +2.3231756990E-002 +8.7014385932E+001  +1.0154938426E+000 -1.6030096596E+000 
52019378.676 +1.0222957679E+000 -2.1662363244E+000  +2.5417471949E-002 +8.6739999224E+001  +2.5148969373E-002 +8.6765541964E+001  +1.0224613392E+000 -2.1293251458E+000 
56020177.035 +1.0215719207E+000 -2.5178787763E+000  +2.7227805549E-002 +8.6214751267E+001  +2.6970816602E-002 +8.6361372976E+001  +1.0218109853E+000 -2.4425746805E+000 
60020975.395 +1.0195520590E+000 -2.8223879327E+000  +2.8966695972E-002 +8.5809321460E+001  +2.8744190562E-002 +8.6097774624E+001  +1.0212740669E+000 -2.6566758249E+000 
64021773.755 +1.0117256325E+000 -2.9070579709E+000  +3.0633007917E-002 +8.5471915139E+001  +3.0468157585E-002 +8.5946895410E+001  +1.0151631559E+000 -2.7277323810E+000 
68022572.114 +9.8895892152E-001 -2.7227954866E+000  +3.1998894589E-002 +8.4755710512E+001  +3.2012026167E-002 +8.5583374170E+001  +9.9997627691E-001 -2.6543478453E+000 
72023370.474 +9.4991330102E-001 -2.4934169651E+000  +3.3057658163E-002 +8.3922747227E+001  +3.3273961067E-002 +8.4983665589E+001  +9.6918245433E-001 -2.5326882049E+000 
76024168.834 +9.0081508821E-001 -2.4294680892E+000  +3.3934896076E-002 +8.3439428495E+001  +3.4156402404E-002 +8.4291322858E+001  +9.1342114771E-001 -2.3908363608E+000 
80024967.193 +8.5329866807E-001 -2.5395477972E+000  +3.4750344555E-002 +8.3301902255E+001  +3.4675618408E-002 +8.3647377597E+001  +8.4448553854E-001 -2.4277912032E+000 
84025765.553 +8.0452771768E-001 -2.1091471000E+000  +3.5404277975E-002 +8.3666146158E+001  +3.5784340232E-002 +8.4299186150E+001  +8.1427954199E-001 -2.2001319730E+000 
88026563.913 +7.7724290975E-001 -2.1084311611E+000  +3.6594378870E-002 +8.4595976487E+001  +3.7406551419E-002 +8.5266147590E+001  +8.0204017790E-001 -2.2239514399E+000 
92027362.272 +7.5750774533E-001 -2.8448100066E+000  +3.7945287205E-002 +8.5114696130E+001  +3.8965533206E-002 +8.5604696600E+001  +7.8718089326E-001 -2.8009666876E+000 
96028160.632 +7.4468942121E-001 -3.6550559501E+000  +3.9366082052E-002 +8.5587940057E+001  +4.0650407798E-002 +8.5872001343E+001  +7.8151535009E-001 -3.3660154526E+000 
100028958.992 +7.4574455379E-001 -4.6540062528E+000  +4.1086403022E-002 +8.6124738890E+001  +4.2451840283E-002 +8.6161686441E+001  +7.8213046562E-001 -4.0846295259E+000 
104029757.351 +7.6326053369E-001 -5.1544302036E+000  +4.3082952847E-002 +8.6718970190E+001  +4.4506416712E-002 +8.6497054192E+001  +7.9819350469E-001 -4.4210789131E+000 
108030555.711 +7.9086181826E-001 -5.1236308102E+000  +4.5345776156E-002 +8.7378768498E+001  +4.6732192603E-002 +8.6873041734E+001  +8.2234114677E-001 -4.4149182700E+000 
112031354.071 +8.1012470681E-001 -4.5032070950E+000  +4.7662938195E-002 +8.8372301494E+001  +4.8944777083E-002 +8.7591180352E+001  +8.3835486247E-001 -3.8516306867E+000 
116032152.430 +8.4349857642E-001 -3.2063905027E+000  +5.0671274526E-002 +8.9151162366E+001  +5.1711192757E-002 +8.8055334778E+001  +8.6750968073E-001 -2.9963120054E+000 
120032950.790 +9.0946513091E-001 -2.9233983080E+000  +5.4341503875E-002 +8.8503499009E+001  +5.4976415485E-002 +8.7558706058E+001  +9.2222036541E-001 -2.9100681945E+000 
124033749.150 +9.6948903061E-001 -2.9997180345E+000  +5.7890474102E-002 +8.7382452959E+001  +5.8206932006E-002 +8.6638303993E+001  +9.7510213860E-001 -3.0481359003E+000 
128034547.510 +1.0113878304E+000 -3.1415507986E+000  +6.1045465001E-002 +8.6206261858E+001  +6.1139402208E-002 +8.5656970328E+001  +1.0123663168E+000 -3.1662973157E+000 
132035345.869 +1.0285593947E+000 -3.3022440668E+000  +6.3614796808E-002 +8.5275436201E+001  +6.3484355487E-002 +8.4979287050E+001  +1.0246371957E+000 -3.3711719202E+000 
136036144.229 +1.0285577166E+000 -3.5913993657E+000  +6.5698256099E-002 +8.4705376366E+001  +6.5457755089E-002 +8.4534260259E+001  +1.0230570659E+000 -3.7423274800E+000 
140036942.589 +1.0249145373E+000 -4.0338624737E+000  +6.7640501748E-002 +8.4146493883E+001  +6.7250375127E-002 +8.4108703414E+001  +1.0188535047E+000 -4.2392802038E+000 
144037740.948 +1.0208714767E+000 -4.5331044404E+000  +6.9345791375E-002 +8.3580431399E+001  +6.8889651703E-002 +8.3649646104E+001  +1.0152116127E+000 -4.7484842477E+000 
148038539.308 +1.0165633234E+000 -5.0097286984E+000  +7.0913204234E-002 +8.3071450950E+001  +7.0436478456E-002 +8.3286526782E+001  +1.0107882582E+000 -5.2071411599E+000 
152039337.668 +1.0121590242E+000 -5.3632103392E+000  +7.2341008177E-002 +8.2641978626E+001  +7.1911318142E-002 +8.2975547015E+001  +1.0056683902E+000 -5.5158151225E+000 
156040136.027 +1.0061862624E+000 -5.4772705412E+000  +7.3660546701E-002 +8.2368200610E+001  +7.3321368650E-002 +8.2834734072E+001  +9.9932847868E-001 -5.6195273847E+000 
160040934.387 +9.9830078224E-001 -5.4452313262E+000  +7.4891588853E-002 +8.2226578959E+001  +7.4647557784E-002 +8.2813125508E+001  +9.8993145877E-001 -5.6927832158E+000 
164041732.747 +9.8581339986E-001 -5.2953570650E+000  +7.6070493989E-002 +8.2102433517E+001  +7.6037196826E-002 +8.2855846455E+001  +9.7974562590E-001 -5.6837415059E+000 
168042531.106 +9.5267777476E-001 -5.1522390492E+000  +7.6582743910E-002 +8.1557228161E+001  +7.7087699321E-002 +8.2699240885E+001  +9.5978144211E-001 -5.6458646767E+000 
172043329.466 +8.9905947163E-001 -5.0161373944E+000  +7.6306724095E-002 +8.0765757236E+001  +7.7434997767E-002 +8.2187442411E+001  +9.2066995811E-001 -5.5787046995E+000 
176044127.826 +8.3651035268E-001 -4.8830323881E+000  +7.5519556400E-002 +8.0083165330E+001  +7.7264545011E-002 +8.1634986219E+001  +8.6825291139E-001 -5.3768950080E+000 
180044926.185 +7.8296770732E-001 -4.2811812111E+000  +7.4883546218E-002 +8.0116733463E+001  +7.7152728857E-002 +8.1493438875E+001  +8.1806457826E-001 -4.8288076717E+000 
184045724.545 +7.6905871631E-001 -2.9950362865E+000  +7.5637997538E-002 +8.1360295127E+001  +7.7930605499E-002 +8.2205560360E+001  +7.9614342279E-001 -3.6028028541E+000 
188046522.905 +7.5190044760E-001 -3.0474503108E+000  +7.6807276930E-002 +8.2025049746E+001  +7.9488123568E-002 +8.2853617119E+001  +7.8553186575E-001 -3.1802002936E+000 
192047321.264 +7.3653368888E-001 -3.4899236542E+000  +7.8133374719E-002 +8.2583919600E+001  +8.1022807313E-002 +8.3114733698E+001  +7.7101753714E-001 -3.5313047550E+000 
196048119.624 +7.3238922874E-001 -4.4839947089E+000  +7.9762147020E-002 +8.3067691592E+001  +8.2827700076E-002 +8.3298930999E+001  +7.6785023217E-001 -4.3375035517E+000 
200048917.984 +7.4449532209E-001 -5.5959741731E+000  +8.1916971033E-002 +8.3510589277E+001  +8.4970543331E-002 +8.3460040287E+001  +7.7905429409E-001 -5.2427154560E+000 
204049716.343 +7.7083179236E-001 -6.2781227561E+000  +8.4635882553E-002 +8.4086727566E+001  +8.7215155327E-002 +8.3738475669E+001  +7.9779091979E-001 -5.8955142585E+000 
208050514.703 +8.0521255090E-001 -6.5940597782E+000  +8.7754286724E-002 +8.4606102885E+001  +8.9806191658E-002 +8.4068961231E+001  +8.2485360404E-001 -6.1163547638E+000 
212051313.063 +8.3293410389E-001 -5.9469945699E+000  +9.1108000902E-002 +8.5459626218E+001  +9.2891187113E-002 +8.4623478850E+001  +8.5391131896E-001 -5.4819614933E+000 
216052111.422 +8.8650832231E-001 -5.7205743554E+000  +9.5816028638E-002 +8.5395259816E+001  +9.7061948498E-002 +8.4369728097E+001  +9.0716698097E-001 -5.3034802106E+000 
220052909.782 +9.4935877163E-001 -5.9095732261E+000  +1.0085969449E-001 +8.4406093068E+001  +1.0152422335E-001 +8.3482845598E+001  +9.6666038210E-001 -5.4570446094E+000 
224053708.142 +9.9523547550E-001 -6.0676100089E+000  +1.0533383552E-001 +8.3163345473E+001  +1.0546368639E-001 +8.2374868672E+001  +1.0088492404E+000 -5.6675208369E+000 
228054506.501 +1.0170012657E+000 -6.2904149203E+000  +1.0872100811E-001 +8.1989749433E+001  +1.0824551548E-001 +8.1467870149E+001  +1.0248769246E+000 -6.0279822557E+000 
232055304.861 +1.0181300760E+000 -6.7460555818E+000  +1.1095044572E-001 +8.1205698468E+001  +1.1011472946E-001 +8.0865184021E+001  +1.0241908418E+000 -6.5451378376E+000 
236056103.221 +1.0134625818E+000 -7.3390709931E+000  +1.1262787068E-001 +8.0566643771E+001  +1.1155182606E-001 +8.0329829110E+001  +1.0201045457E+000 -7.1102619666E+000 
240056901.580 +1.0076749215E+000 -7.9216445751E+000  +1.1395491491E-001 +7.9965502184E+001  +1.1275031429E-001 +7.9859271712E+001  +1.0147814631E+000 -7.6500290292E+000 
244057699.940 +1.0010946120E+000 -8.3862377898E+000  +1.1499103127E-001 +7.9487561221E+001  +1.1375043660E-001 +7.9510396737E+001  +1.0087740599E+000 -8.0906600041E+000 
248058498.300 +9.9391583105E-001 -8.6744194882E+000  +1.1583415247E-001 +7.9140770176E+001  +1.1462285157E-001 +7.9305884955E+001  +1.0022479443E+000 -8.3862332587E+000 
252059296.659 +9.8552096666E-001 -8.7886146767E+000  +1.1657300009E-001 +7.8935183402E+001  +1.1542939148E-001 +7.9236991993E+001  +9.9625124049E-001 -8.5581723936E+000 
256060095.019 +9.7686296364E-001 -8.7633480056E+000  +1.1734231078E-001 +7.8871414242E+001  +1.1637452436E-001 +7.9314938485E+001  +9.9052993739E-001 -8.6013254310E+000 
260060893.379 +9.6760683608E-001 -8.6612167614E+000  +1.1815533643E-001 +7.8916869408E+001  +1.1741731268E-001 +7.9490131141E+001  +9.8646796806E-001 -8.5420480444E+000 
264061691.738 +9.5295139246E-001 -8.4826805886E+000  +1.1873683759E-001 +7.8803448564E+001  +1.1856226915E-001 +7.9626288900E+001  +9.7958504070E-001 -8.3859491329E+000 
268062490.098 +9.2043054855E-001 -8.2364689712E+000  +1.1833748927E-001 +7.8256867716E+001  +1.1910453507E-001 +7.9439790215E+001  +9.5684858948E-001 -8.1092832698E+000 
272063288.458 +8.7185240309E-001 -7.8851544598E+000  +1.1716597148E-001 +7.7674168458E+001  +1.1879971987E-001 +7.8965751813E+001  +9.1190988892E-001 -7.7768563802E+000 
276064086.817 +8.1910966476E-001 -7.4874622027E+000  +1.1587813538E-001 +7.7419437916E+001  +1.1820424910E-001 +7.8616421877E+001  +8.5806990572E-001 -7.4925004578E+000 
280064885.177 +7.8109718587E-001 -6.6330770226E+000  +1.1524714974E-001 +7.7942766344E+001  +1.1788276646E-001 +7.8752513298E+001  +8.1314471252E-001 -6.9313201342E+000 
284065683.537 +7.7105404559E-001 -5.5340378263E+000  +1.1620076223E-001 +7.9095615407E+001  +1.1883010853E-001 +7.9543973999E+001  +7.9553549951E-001 -6.0023550468E+000 
288066481.896 +7.5994905179E-001 -5.6922463895E+000  +1.1767735861E-001 +7.9784749573E+001  +1.2047332405E-001 +8.0054581016E+001  +7.8330247211E-001 -6.0023151896E+000 
292067280.256 +7.5506901665E-001 -6.3024575554E+000  +1.1948454788E-001 +8.0356186189E+001  +1.2228716079E-001 +8.0371503360E+001  +7.7604928339E-001 -6.5666144245E+000 
296068078.616 +7.6305143804E-001 -7.2731615543E+000  +1.2196939698E-001 +8.0819916954E+001  +1.2464506686E-001 +8.0626129785E+001  +7.8167113634E-001 -7.4307343034E+000 
300068876.975 +7.7930334599E-001 -8.2127557193E+000  +1.2475692808E-001 +8.1211783850E+001  +1.2734086229E-001 +8.0851598573E+001  +7.9675638712E-001 -8.2223062817E+000 
304069675.335 +8.0861685904E-001 -8.7387211496E+000  +1.2824248350E-001 +8.1593856346E+001  +1.3063776613E-001 +8.1056182715E+001  +8.2483477855E-001 -8.6389028396E+000 
308070473.695 +8.4001298933E-001 -8.6568844220E+000  +1.3217726806E-001 +8.2009125884E+001  +1.3431513755E-001 +8.1310754969E+001  +8.5464800471E-001 -8.4841942460E+000 
312071272.054 +8.8352433665E-001 -8.3278433031E+000  +1.3735070029E-001 +8.2114534171E+001  +1.3911244536E-001 +8.1232186525E+001  +8.9764475509E-001 -8.2348479886E+000 
316072070.414 +9.4185188484E-001 -8.5211932638E+000  +1.4346389669E-001 +8.1318442580E+001  +1.4466215823E-001 +8.0466653480E+001  +9.5113718642E-001 -8.4398217700E+000 
320072868.774 +9.8892775586E-001 -8.8373313381E+000  +1.4900677206E-001 +8.0128624970E+001  +1.4956469267E-001 +7.9396812590E+001  +9.9292995113E-001 -8.7516123123E+000 
324073667.133 +1.0125354436E+000 -9.2398868323E+000  +1.5302940167E-001 +7.8993297718E+001  +1.5295091405E-001 +7.8456208862E+001  +1.0114267405E+000 -9.1620168478E+000 
328074465.493 +1.0154697182E+000 -9.7641872664E+000  +1.5542243178E-001 +7.8165317426E+001  +1.5487115350E-001 +7.7771196119E+001  +1.0131239764E+000 -9.6539961303E+000 
332075263.853 +1.0110546307E+000 -1.0337788095E+001  +1.5685858415E-001 +7.7487660837E+001  +1.5606906395E-001 +7.7199520304E+001  +1.0088438315E+000 -1.0172382348E+001 
336076062.212 +1.0042090035E+000 -1.0864581990E+001  +1.5779779028E-001 +7.6894831384E+001  +1.5681347344E-001 +7.6709163438E+001  +1.0022047118E+000 -1.0653925727E+001 
340076860.572 +9.9593215082E-001 -1.1308112714E+001  +1.5828428908E-001 +7.6411594568E+001  +1.5724278155E-001 +7.6359324015E+001  +9.9413966984E-001 -1.1058782500E+001 
344077658.932 +9.8711149342E-001 -1.1618443845E+001  +1.5861986581E-001 +7.6080367364E+001  +1.5752708641E-001 +7.6127819114E+001  +9.8548400331E-001 -1.1346524265E+001 
348078457.291 +9.7821598752E-001 -1.1750833845E+001  +1.5873487058E-001 +7.5930014189E+001  +1.5774425028E-001 +7.6094142976E+001  +9.7681826671E-001 -1.1474901048E+001 
352079255.651 +9.7005742446E-001 -1.1733719018E+001  +1.5895357202E-001 +7.5934754282E+001  +1.5813440450E-001 +7.6197060874E+001  +9.6887199237E-001 -1.1458702045E+001 
356080054.011 +9.6295782455E-001 -1.1579279681E+001  +1.5936595155E-001 +7.6073940616E+001  +1.5877414902E-001 +7.6425980908E+001  +9.6218528371E-001 -1.1292223576E+001 
360080852.370 +9.5628177770E-001 -1.1317018161E+001  +1.6006034722E-001 +7.6281479933E+001  +1.5975524546E-001 +7.6722926860E+001  +9.5647083524E-001 -1.1025638886E+001 
364081650.730 +9.4262335032E-001 -1.0939472492E+001  +1.6046456583E-001 +7.6275271231E+001  +1.6077560532E-001 +7.6916533783E+001  +9.4722633337E-001 -1.0679620048E+001 
368082449.090 +9.0837423578E-001 -1.0523136575E+001  +1.5964193683E-001 +7.5799363968E+001  +1.6092997623E-001 +7.6679552427E+001  +9.2115165166E-001 -1.0311310876E+001 
372083247.449 +8.5934702000E-001 -1.0132443464E+001  +1.5786225040E-001 +7.5273439820E+001  +1.6006926748E-001 +7.6229990577E+001  +8.7906838402E-001 -1.0035710912E+001 
376084045.809 +8.1014464443E-001 -9.7242045528E+000  +1.5602266306E-001 +7.5115813991E+001  +1.5891270739E-001 +7.5962152483E+001  +8.3379909633E-001 -9.7773580389E+000 
380084844.169 +7.7970511689E-001 -8.8462403041E+000  +1.5514349250E-001 +7.5745550708E+001  +1.5836286077E-001 +7.6294799792E+001  +8.0295800535E-001 -9.1903751595E+000 
384085642.529 +7.6963087653E-001 -7.9893501253E+000  +1.5597293092E-001 +7.6758039237E+001  +1.5934505827E-001 +7.7044783123E+001  +7.9273981645E-001 -8.5174832657E+000 
388086440.888 +7.5903823393E-001 -8.1912675078E+000  +1.5729301695E-001 +7.7394230945E+001  +1.6095875259E-001 +7.7494383789E+001  +7.8437559507E-001 -8.6460796522E+000 
392087239.248 +7.5826601441E-001 -8.8346406767E+000  +1.5940635522E-001 +7.7944031084E+001  +1.6306539689E-001 +7.7829353208E+001  +7.8398687028E-001 -9.1624026052E+000 
396088037.608 +7.6988348657E-001 -9.8147304677E+000  +1.6235296205E-001 +7.8368068920E+001  +1.6587462523E-001 +7.8070954019E+001  +7.9568664544E-001 -9.9450097858E+000 
400088835.967 +7.9364557020E-001 -1.0681622075E+001  +1.6614153960E-001 +7.8701710985E+001  +1.6945872121E-001 +7.8242195163E+001  +8.1787348774E-001 -1.0634021537E+001 
404089634.327 +8.2505944706E-001 -1.1158047440E+001  +1.7072429830E-001 +7.8958764123E+001  +1.7367246078E-001 +7.8361633130E+001  +8.4709066732E-001 -1.0986086018E+001 
408090432.687 +8.5812428442E-001 -1.1089352154E+001  +1.7590564780E-001 +7.9191630759E+001  +1.7864371223E-001 +7.8406254895E+001  +8.8019841676E-001 -1.0939575251E+001 
412091231.046 +9.0721805855E-001 -1.1188996073E+001  +1.8271820874E-001 +7.8797057825E+001  +1.8491492938E-001 +7.7886143148E+001  +9.2777032613E-001 -1.1103038344E+001 
416092029.406 +9.5974550046E-001 -1.1605363310E+001  +1.8975847698E-001 +7.7671852016E+001  +1.9118385135E-001 +7.6843408265E+001  +9.7492246510E-001 -1.1497953186E+001 
420092827.766 +9.9414250453E-001 -1.2058228114E+001  +1.9522243123E-001 +7.6409110901E+001  +1.9572794368E-001 +7.5756141707E+001  +1.0027660379E+000 -1.1928517516E+001 
424093626.125 +1.0065418927E+000 -1.2540147156E+001  +1.9849158749E-001 +7.5317204720E+001  +1.9801360441E-001 +7.4925257957E+001  +1.0090060034E+000 -1.2402375428E+001 
428094424.485 +1.0034932834E+000 -1.3088696990E+001  +1.9988980719E-001 +7.4518406217E+001  +1.9900078188E-001 +7.4263144023E+001  +1.0044174206E+000 -1.2930798654E+001 
432095222.845 +9.9572015673E-001 -1.3602539235E+001  +2.0038442448E-001 +7.3911050800E+001  +1.9928415137E-001 +7.3755015864E+001  +9.9646006073E-001 -1.3410814345E+001 
436096021.204 +9.8588664680E-001 -1.4041430488E+001  +2.0030226529E-001 +7.3405877481E+001  +1.9908818646E-001 +7.3343751458E+001  +9.8672122279E-001 -1.3840473208E+001 
440096819.564 +9.7536693013E-001 -1.4361094977E+001  +1.9992049633E-001 +7.3080156292E+001  +1.9861685990E-001 +7.3106549168E+001  +9.7669154696E-001 -1.4153007149E+001 
444097617.924 +9.6507777689E-001 -1.4518285935E+001  +1.9939081781E-001 +7.2932322867E+001  +1.9819471405E-001 +7.3037313632E+001  +9.6676863482E-001 -1.4315610367E+001 
448098416.283 +9.5588246266E-001 -1.4492103804E+001  +1.9882194815E-001 +7.2944878673E+001  +1.9796341908E-001 +7.3159544154E+001  +9.5793971756E-001 -1.4305988305E+001 
452099214.643 +9.4789897979E-001 -1.4274785115E+001  +1.9868478005E-001 +7.3135714502E+001  +1.9797647996E-001 +7.3427837477E+001  +9.5031969504E-001 -1.4113427359E+001 
456100013.003 +9.4090555737E-001 -1.3933136148E+001  +1.9895749512E-001 +7.3411218840E+001  +1.9851800330E-001 +7.3758437437E+001  +9.4381361758E-001 -1.3809004789E+001 
