!  2-Port S-parameters saved by WinCal
! VAR NAME=Wafer2_r1_c1_LRS
! VAR DATE=24/04/2024 17:08:57
! VAR FILENAME=Wafer2_r1_c1_LRS.S2P
! VAR MeasName=S-Parameters (CALIBRATED_DATA) read from VNA (P5004A)
! VAR MeasDate=24/04/2024 17:00:34
! VAR PHYS_PORTS=1,2
! VAR ObjTypeName=DATASET
! VAR IndexType=Frequency
!
# Hz S MA R 50
9000.000 +7.8530540849E-001 +1.6709361647E+001  +1.6280332936E-002 +3.0218057461E+000  +1.6037128765E-002 +2.0534483766E+000  +7.8487115112E-001 +1.6703806768E+001 
4009798.360 +9.6743571795E-001 -3.0859259665E+000  +2.0253570236E-002 +2.3697063465E+000  +2.0029701990E-002 +2.4404827330E+000  +9.6738258155E-001 -3.0014763783E+000 
8010596.719 +9.5634104415E-001 -6.1963605895E-001  +2.0340339956E-002 +1.0095914250E+001  +2.0207940825E-002 +9.9529046815E+000  +9.5724831027E-001 -5.9179777978E-001 
12011395.079 +9.6350587876E-001 -9.9820461771E-003  +2.1093221348E-002 +1.5517351345E+001  +2.0909282175E-002 +1.5538360953E+001  +9.6419107956E-001 +1.6970258572E-003 
16012193.439 +9.6932352713E-001 +1.6833569175E-001  +2.1797289216E-002 +2.0501405929E+001  +2.1489698314E-002 +2.0244078909E+001  +9.7002933656E-001 +1.7476333105E-001 
20012991.798 +9.7426070813E-001 +1.9259135261E-001  +2.2624404035E-002 +2.4739419196E+001  +2.2364437926E-002 +2.4743823292E+001  +9.7478855628E-001 +1.9442972193E-001 
24013790.158 +9.7888001968E-001 +1.2248758244E-001  +2.3618244007E-002 +2.8847315141E+001  +2.3250778313E-002 +2.8709920543E+001  +9.7928596556E-001 +1.2981514633E-001 
28014588.518 +9.8275483615E-001 -3.5479975940E-002  +2.4674897194E-002 +3.2550342932E+001  +2.4271949267E-002 +3.2344648389E+001  +9.8328170539E-001 -1.4931114559E-002 
32015386.877 +9.8686627761E-001 -2.3367910025E-001  +2.5827141272E-002 +3.5930435302E+001  +2.5378911580E-002 +3.5668518257E+001  +9.8718739251E-001 -2.1730218063E-001 
36016185.237 +9.8968448926E-001 -4.9968870723E-001  +2.7067252841E-002 +3.8892573259E+001  +2.6691613179E-002 +3.8791593130E+001  +9.9019164924E-001 -4.8825094518E-001 
40016983.597 +9.9163648274E-001 -8.1266828694E-001  +2.8372483679E-002 +4.1366986777E+001  +2.7998971808E-002 +4.1268823950E+001  +9.9221105960E-001 -8.0506875761E-001 
44017781.956 +9.9280816728E-001 -1.1799599838E+000  +2.9748978028E-002 +4.3597524824E+001  +2.9186822252E-002 +4.3808379191E+001  +9.9326761999E-001 -1.1590210743E+000 
48018580.316 +9.9306654882E-001 -1.5464083364E+000  +3.1158652087E-002 +4.5522182033E+001  +3.0695482416E-002 +4.5874552736E+001  +9.9387986438E-001 -1.5114050069E+000 
52019378.676 +9.9151098658E-001 -1.9345339251E+000  +3.2512488742E-002 +4.7193044842E+001  +3.2034599930E-002 +4.7841860755E+001  +9.9220588193E-001 -1.8946402315E+000 
56020177.035 +9.8902660054E-001 -2.2589724301E+000  +3.3859032702E-002 +4.8588017580E+001  +3.3395876885E-002 +4.9455722205E+001  +9.9000999709E-001 -2.2178005236E+000 
60020975.395 +9.8553530378E-001 -2.5777146807E+000  +3.5222238975E-002 +5.0177230889E+001  +3.4807488456E-002 +5.1059910288E+001  +9.8615238882E-001 -2.5279146755E+000 
64021773.755 +9.8092545001E-001 -2.7756281711E+000  +3.6511129461E-002 +5.1705359243E+001  +3.6114850895E-002 +5.2488054513E+001  +9.8154550944E-001 -2.7424268938E+000 
68022572.114 +9.7592489459E-001 -2.9061771787E+000  +3.7838814488E-002 +5.3033887308E+001  +3.7454838337E-002 +5.4030046424E+001  +9.7663507503E-001 -2.8781458017E+000 
72023370.474 +9.7156865698E-001 -2.9533173064E+000  +3.9251703125E-002 +5.4427539410E+001  +3.8966093624E-002 +5.5390503712E+001  +9.7225514307E-001 -2.9195845037E+000 
76024168.834 +9.6761475454E-001 -2.9175224410E+000  +4.0503134889E-002 +5.5857890480E+001  +4.0398077826E-002 +5.6754835225E+001  +9.6826919395E-001 -2.8883727552E+000 
80024967.193 +9.6433331317E-001 -2.8149660995E+000  +4.1987555969E-002 +5.7002128374E+001  +4.1910322729E-002 +5.7984763054E+001  +9.6511340661E-001 -2.7988525910E+000 
84025765.553 +9.6258620232E-001 -2.6995971955E+000  +4.3435742014E-002 +5.8219569194E+001  +4.3371864933E-002 +5.9233824338E+001  +9.6300059023E-001 -2.6967767124E+000 
88026563.913 +9.6178004406E-001 -2.5246785110E+000  +4.5000429030E-002 +5.9401074711E+001  +4.5118861549E-002 +6.0292014220E+001  +9.6217752375E-001 -2.5379491304E+000 
92027362.272 +9.6221675002E-001 -2.3915792548E+000  +4.6555399360E-002 +6.0586914325E+001  +4.6798961446E-002 +6.1278275943E+001  +9.6227418366E-001 -2.4002163028E+000 
96028160.632 +9.6294391642E-001 -2.2645656186E+000  +4.8209361770E-002 +6.1561161459E+001  +4.8549424091E-002 +6.2166079519E+001  +9.6324746464E-001 -2.2740313389E+000 
100028958.992 +9.6560255166E-001 -2.1645883827E+000  +5.0040039409E-002 +6.2596351835E+001  +5.0345212705E-002 +6.2914581089E+001  +9.6559397162E-001 -2.1833430620E+000 
104029757.351 +9.6878292726E-001 -2.1167194123E+000  +5.1844020030E-002 +6.3466797764E+001  +5.2166829120E-002 +6.3667182019E+001  +9.6857370820E-001 -2.1084249015E+000 
108030555.711 +9.7228958611E-001 -2.0892320548E+000  +5.3712289375E-002 +6.4286135466E+001  +5.3955739851E-002 +6.4348467929E+001  +9.7231828850E-001 -2.0869403055E+000 
112031354.071 +9.7659221451E-001 -2.1549739686E+000  +5.5610143656E-002 +6.4968814226E+001  +5.5773002444E-002 +6.4954445177E+001  +9.7652779725E-001 -2.1446277554E+000 
116032152.430 +9.8095089399E-001 -2.2657999876E+000  +5.7541503049E-002 +6.5596638441E+001  +5.7637252260E-002 +6.5424244939E+001  +9.8061334889E-001 -2.2651269395E+000 
120032950.790 +9.8536398965E-001 -2.4589832029E+000  +5.9583395660E-002 +6.6121881322E+001  +5.9513724310E-002 +6.5869075783E+001  +9.8516655386E-001 -2.4350011882E+000 
124033749.150 +9.8947067869E-001 -2.7271635187E+000  +6.1591840875E-002 +6.6519865414E+001  +6.1541357441E-002 +6.6298746177E+001  +9.8932141206E-001 -2.6997143813E+000 
128034547.510 +9.9286851004E-001 -3.0698924773E+000  +6.3674505815E-002 +6.6734310643E+001  +6.3373318310E-002 +6.6584193570E+001  +9.9272498446E-001 -3.0159418036E+000 
132035345.869 +9.9478330547E-001 -3.4745315607E+000  +6.5720929180E-002 +6.6827211023E+001  +6.5203388337E-002 +6.6698060661E+001  +9.9507591642E-001 -3.4145640253E+000 
136036144.229 +9.9564276453E-001 -3.9246657893E+000  +6.7582571165E-002 +6.6852701871E+001  +6.6990601318E-002 +6.6732643098E+001  +9.9593223295E-001 -3.8541998730E+000 
140036942.589 +9.9468500131E-001 -4.3705583732E+000  +6.9352561948E-002 +6.6771699671E+001  +6.8609241528E-002 +6.6773809763E+001  +9.9495324686E-001 -4.3013843768E+000 
144037740.948 +9.9204558073E-001 -4.8141710895E+000  +7.0982265741E-002 +6.6761353962E+001  +7.0158392581E-002 +6.6908962882E+001  +9.9250164466E-001 -4.7116684654E+000 
148038539.308 +9.8739773436E-001 -5.1822973005E+000  +7.2450481910E-002 +6.6690463153E+001  +7.1534603401E-002 +6.6998347669E+001  +9.8830226073E-001 -5.0947325708E+000 
152039337.668 +9.8206107466E-001 -5.5040397776E+000  +7.3655037001E-002 +6.6663278632E+001  +7.2869966585E-002 +6.7096028322E+001  +9.8269083978E-001 -5.4155026074E+000 
156040136.027 +9.7561413201E-001 -5.6945046845E+000  +7.4791659473E-002 +6.6872252491E+001  +7.4089003602E-002 +6.7285715329E+001  +9.7671431141E-001 -5.6074314419E+000 
160040934.387 +9.6924754325E-001 -5.7725719159E+000  +7.5971849559E-002 +6.7039400840E+001  +7.5358980751E-002 +6.7723986797E+001  +9.7048045896E-001 -5.6787826263E+000 
164041732.747 +9.6383647643E-001 -5.7363402252E+000  +7.7190167206E-002 +6.7490090771E+001  +7.6741669420E-002 +6.8111751282E+001  +9.6486637113E-001 -5.6856994136E+000 
168042531.106 +9.5911614866E-001 -5.6506175306E+000  +7.8481300589E-002 +6.7769894700E+001  +7.8170380428E-002 +6.8549308924E+001  +9.6023017532E-001 -5.5880886302E+000 
172043329.466 +9.5574900381E-001 -5.4793227811E+000  +7.9869099688E-002 +6.8287240068E+001  +7.9730260173E-002 +6.9056602919E+001  +9.5681966479E-001 -5.4388277005E+000 
176044127.826 +9.5350278866E-001 -5.2768677856E+000  +8.1286317041E-002 +6.8768159614E+001  +8.1340882558E-002 +6.9575223596E+001  +9.5466838174E-001 -5.2387491813E+000 
180044926.185 +9.5284089196E-001 -5.0684888839E+000  +8.2911484468E-002 +6.9269114331E+001  +8.3264389905E-002 +7.0032393555E+001  +9.5408808565E-001 -5.0457336315E+000 
184045724.545 +9.5363660250E-001 -4.8666955745E+000  +8.4639982638E-002 +6.9716536962E+001  +8.5166195979E-002 +7.0404320471E+001  +9.5454201460E-001 -4.8502856279E+000 
188046522.905 +9.5559293473E-001 -4.6833540794E+000  +8.6451128893E-002 +7.0191598451E+001  +8.7084390409E-002 +7.0487839352E+001  +9.5564832212E-001 -4.6745986535E+000 
192047321.264 +9.5840408294E-001 -4.5353333406E+000  +8.8378158716E-002 +7.0581298797E+001  +8.9154200123E-002 +7.0807372886E+001  +9.5835638784E-001 -4.5282216274E+000 
196048119.624 +9.6206735181E-001 -4.4349244776E+000  +9.0257980388E-002 +7.0954552188E+001  +9.1239483758E-002 +7.1009212889E+001  +9.6193511724E-001 -4.4299225099E+000 
200048917.984 +9.6668842310E-001 -4.3994478979E+000  +9.2491548145E-002 +7.1237342874E+001  +9.3317895600E-002 +7.1191209669E+001  +9.6641042767E-001 -4.3976395312E+000 
204049716.343 +9.7168979124E-001 -4.4360773485E+000  +9.4716245958E-002 +7.1603147869E+001  +9.5395143099E-002 +7.1348204949E+001  +9.7096106228E-001 -4.4145427227E+000 
208050514.703 +9.7709707449E-001 -4.5410470913E+000  +9.6953522935E-002 +7.1810042587E+001  +9.7501647396E-002 +7.1448454018E+001  +9.7643093393E-001 -4.5194868595E+000 
212051313.063 +9.8238756149E-001 -4.7361624701E+000  +9.9300027103E-002 +7.1866979722E+001  +9.9791773197E-002 +7.1478964747E+001  +9.8159773306E-001 -4.7106909682E+000 
216052111.422 +9.8741042892E-001 -5.0461151959E+000  +1.0175613827E-001 +7.1904194661E+001  +1.0194859593E-001 +7.1340230087E+001  +9.8642749354E-001 -4.9745626756E+000 
220052909.782 +9.9155749442E-001 -5.3919788500E+000  +1.0413864603E-001 +7.1721715310E+001  +1.0408946279E-001 +7.1245476874E+001  +9.9050868660E-001 -5.3274500083E+000 
224053708.142 +9.9450690291E-001 -5.8426409814E+000  +1.0640652734E-001 +7.1500641409E+001  +1.0609524926E-001 +7.1039113814E+001  +9.9373700646E-001 -5.7550344643E+000 
228054506.501 +9.9585701462E-001 -6.3463827835E+000  +1.0854230518E-001 +7.1176802855E+001  +1.0795316700E-001 +7.0716350683E+001  +9.9517653326E-001 -6.2341734610E+000 
232055304.861 +9.9494071281E-001 -6.8720974349E+000  +1.1037844316E-001 +7.0728696539E+001  +1.0970922015E-001 +7.0405606054E+001  +9.9456437782E-001 -6.7499566801E+000 
236056103.221 +9.9210812942E-001 -7.3869310920E+000  +1.1199349404E-001 +7.0317216199E+001  +1.1104212527E-001 +7.0088249824E+001  +9.9207196553E-001 -7.2477735861E+000 
240056901.580 +9.8740231939E-001 -7.8602184497E+000  +1.1332496362E-001 +6.9955368372E+001  +1.1225770655E-001 +6.9838268522E+001  +9.8755573404E-001 -7.7230545589E+000 
244057699.940 +9.8102523014E-001 -8.2370759389E+000  +1.1424447804E-001 +6.9629196573E+001  +1.1316908137E-001 +6.9641492693E+001  +9.8159671390E-001 -8.0882406156E+000 
248058498.300 +9.7371229523E-001 -8.4910888583E+000  +1.1511567093E-001 +6.9419469574E+001  +1.1415340974E-001 +6.9658239232E+001  +9.7467422225E-001 -8.3373999681E+000 
252059296.659 +9.6575510519E-001 -8.6181949641E+000  +1.1581504941E-001 +6.9445634676E+001  +1.1474090638E-001 +6.9819855144E+001  +9.6687625641E-001 -8.4785792924E+000 
256060095.019 +9.5865270474E-001 -8.6273174134E+000  +1.1663462125E-001 +6.9538244812E+001  +1.1580933290E-001 +6.9969706965E+001  +9.5974742664E-001 -8.4891243653E+000 
260060893.379 +9.5210849108E-001 -8.5277449989E+000  +1.1740145042E-001 +6.9735477789E+001  +1.1674597090E-001 +7.0297822505E+001  +9.5361104042E-001 -8.3951966607E+000 
264061691.738 +9.4746227299E-001 -8.3123621563E+000  +1.1843010859E-001 +7.0104651610E+001  +1.1811188583E-001 +7.0687605360E+001  +9.4899377535E-001 -8.2214708393E+000 
268062490.098 +9.4406990087E-001 -8.0754374616E+000  +1.1959969793E-001 +7.0444708392E+001  +1.1948686788E-001 +7.1101444553E+001  +9.4545440665E-001 -7.9796262174E+000 
272063288.458 +9.4245561790E-001 -7.7890278825E+000  +1.2106488371E-001 +7.0864185395E+001  +1.2128395394E-001 +7.1461795283E+001  +9.4358437467E-001 -7.7188435076E+000 
276064086.817 +9.4263618112E-001 -7.4975826305E+000  +1.2267985544E-001 +7.1260254424E+001  +1.2314410119E-001 +7.1760247317E+001  +9.4347726126E-001 -7.4493358281E+000 
280064885.177 +9.4405056299E-001 -7.2208261425E+000  +1.2457994528E-001 +7.1629036041E+001  +1.2523635026E-001 +7.2112506088E+001  +9.4507594140E-001 -7.1952393141E+000 
284065683.537 +9.4682550385E-001 -7.0093431607E+000  +1.2648766427E-001 +7.1943360651E+001  +1.2747261105E-001 +7.2320867999E+001  +9.4748432755E-001 -6.9869963489E+000 
288066481.896 +9.5088782757E-001 -6.8320608868E+000  +1.2866546721E-001 +7.2272499391E+001  +1.2984470191E-001 +7.2490787272E+001  +9.5131054211E-001 -6.8102264593E+000 
292067280.256 +9.5580137561E-001 -6.7256700983E+000  +1.3090581926E-001 +7.2504328092E+001  +1.3204645298E-001 +7.2599357854E+001  +9.5575932238E-001 -6.6992984207E+000 
296068078.616 +9.6177695548E-001 -6.6846965161E+000  +1.3331061462E-001 +7.2734375838E+001  +1.3458880622E-001 +7.2668353948E+001  +9.6113747555E-001 -6.6746845477E+000 
300068876.975 +9.6798204080E-001 -6.7424382451E+000  +1.3591625048E-001 +7.2811478370E+001  +1.3698113579E-001 +7.2625720652E+001  +9.6714643359E-001 -6.7176643519E+000 
304069675.335 +9.7412658383E-001 -6.8941141893E+000  +1.3859463155E-001 +7.2887889032E+001  +1.3949584302E-001 +7.2555384006E+001  +9.7331146917E-001 -6.8667737641E+000 
308070473.695 +9.8021509226E-001 -7.1419017952E+000  +1.4135683985E-001 +7.2822089043E+001  +1.4193450618E-001 +7.2375892614E+001  +9.7919671462E-001 -7.1039314970E+000 
312071272.054 +9.8567273169E-001 -7.5062971240E+000  +1.4402225464E-001 +7.2639991087E+001  +1.4434613567E-001 +7.2183306784E+001  +9.8457663691E-001 -7.4379667915E+000 
316072070.414 +9.9007698821E-001 -7.9577295872E+000  +1.4671980878E-001 +7.2293050112E+001  +1.4672357708E-001 +7.1844378532E+001  +9.8891054632E-001 -7.8700129818E+000 
320072868.774 +9.9253861777E-001 -8.4920246765E+000  +1.4918772153E-001 +7.1872573534E+001  +1.4890478904E-001 +7.1415613786E+001  +9.9166105718E-001 -8.3735131678E+000 
324073667.133 +9.9343316821E-001 -9.0641797766E+000  +1.5129386618E-001 +7.1392449909E+001  +1.5083259605E-001 +7.0968815065E+001  +9.9245727994E-001 -8.9299510257E+000 
328074465.493 +9.9183275753E-001 -9.6685065013E+000  +1.5321853411E-001 +7.0814615871E+001  +1.5235618651E-001 +7.0490360199E+001  +9.9121610687E-001 -9.4919886780E+000 
332075263.853 +9.8798024105E-001 -1.0231890629E+001  +1.5444585615E-001 +7.0214126091E+001  +1.5349122379E-001 +7.0001330942E+001  +9.8769426336E-001 -1.0047555271E+001 
336076062.212 +9.8178568362E-001 -1.0720642881E+001  +1.5532749101E-001 +6.9713424332E+001  +1.5410068124E-001 +6.9613323784E+001  +9.8171017504E-001 -1.0529678301E+001 
340076860.572 +9.7404105409E-001 -1.1104579939E+001  +1.5575289422E-001 +6.9380946654E+001  +1.5454452409E-001 +6.9368819931E+001  +9.7449810808E-001 -1.0916845584E+001 
344077658.932 +9.6545599568E-001 -1.1369193776E+001  +1.5604878142E-001 +6.9153578074E+001  +1.5479159685E-001 +6.9218870122E+001  +9.6632781346E-001 -1.1170757508E+001 
348078457.291 +9.5649159176E-001 -1.1456551658E+001  +1.5630303137E-001 +6.9098443986E+001  +1.5493718898E-001 +6.9263523438E+001  +9.5751882263E-001 -1.1272432516E+001 
352079255.651 +9.4796902960E-001 -1.1420147603E+001  +1.5636736188E-001 +6.9179922447E+001  +1.5540331422E-001 +6.9494291280E+001  +9.4932588296E-001 -1.1250289158E+001 
356080054.011 +9.4100589830E-001 -1.1252745626E+001  +1.5686704615E-001 +6.9428231342E+001  +1.5594261125E-001 +6.9788683922E+001  +9.4228770551E-001 -1.1091125346E+001 
360080852.370 +9.3543849800E-001 -1.0993813757E+001  +1.5765859967E-001 +6.9753975036E+001  +1.5697289007E-001 +7.0214243113E+001  +9.3705396541E-001 -1.0853063528E+001 
364081650.730 +9.3199306200E-001 -1.0658856814E+001  +1.5862907995E-001 +7.0128299006E+001  +1.5830797716E-001 +7.0620037728E+001  +9.3345091426E-001 -1.0544528019E+001 
368082449.090 +9.3020833947E-001 -1.0306880411E+001  +1.5998895235E-001 +7.0537442193E+001  +1.5994048589E-001 +7.1028877249E+001  +9.3157533397E-001 -1.0209475993E+001 
372083247.449 +9.3043687966E-001 -9.9593220525E+000  +1.6159812352E-001 +7.0916188188E+001  +1.6197882978E-001 +7.1356197696E+001  +9.3181046585E-001 -9.8844006569E+000 
376084045.809 +9.3265587326E-001 -9.6423030179E+000  +1.6353192310E-001 +7.1252316375E+001  +1.6426577873E-001 +7.1682710700E+001  +9.3361705194E-001 -9.5713102942E+000 
380084844.169 +9.3595099574E-001 -9.3477881631E+000  +1.6565576915E-001 +7.1595320769E+001  +1.6662664328E-001 +7.1951966489E+001  +9.3671954346E-001 -9.3110821452E+000 
384085642.529 +9.4064810229E-001 -9.1403570681E+000  +1.6803442077E-001 +7.1862686278E+001  +1.6915746057E-001 +7.2088896212E+001  +9.4125120835E-001 -9.1097450686E+000 
388086440.888 +9.4649818833E-001 -9.0061393164E+000  +1.7058750764E-001 +7.2073463776E+001  +1.7192008283E-001 +7.2189152021E+001  +9.4666781923E-001 -8.9794102390E+000 
392087239.248 +9.5323738652E-001 -8.9638170846E+000  +1.7331396218E-001 +7.2217593952E+001  +1.7463092747E-001 +7.2198529329E+001  +9.5278606163E-001 -8.9368964449E+000 
396088037.608 +9.6009025788E-001 -9.0309812392E+000  +1.7625777211E-001 +7.2279313695E+001  +1.7750064123E-001 +7.2188499842E+001  +9.5972618334E-001 -8.9941950039E+000 
400088835.967 +9.6775723974E-001 -9.1877894122E+000  +1.7931201047E-001 +7.2265441292E+001  +1.8049983136E-001 +7.2062672982E+001  +9.6677813069E-001 -9.1594065382E+000 
404089634.327 +9.7450466768E-001 -9.4664801142E+000  +1.8246401987E-001 +7.2119133417E+001  +1.8328422585E-001 +7.1862644820E+001  +9.7327709578E-001 -9.4265919133E+000 
408090432.687 +9.8076813166E-001 -9.8621633075E+000  +1.8554679579E-001 +7.1882638511E+001  +1.8609246747E-001 +7.1544129969E+001  +9.7947609838E-001 -9.7919624334E+000 
412091231.046 +9.8582634814E-001 -1.0360686641E+001  +1.8854880179E-001 +7.1468390756E+001  +1.8874950899E-001 +7.1082621558E+001  +9.8401965725E-001 -1.0265366375E+001 
416092029.406 +9.8861680234E-001 -1.0941255497E+001  +1.9121794373E-001 +7.0959166709E+001  +1.9116232178E-001 +7.0573481205E+001  +9.8719271422E-001 -1.0816468989E+001 
420092827.766 +9.8961896829E-001 -1.1605833876E+001  +1.9348547830E-001 +7.0327971165E+001  +1.9304623734E-001 +7.0007543544E+001  +9.8802060606E-001 -1.1439566821E+001 
424093626.125 +9.8758087300E-001 -1.2255378244E+001  +1.9510392310E-001 +6.9674664029E+001  +1.9444947244E-001 +6.9391042069E+001  +9.8642133367E-001 -1.2063040501E+001 
428094424.485 +9.8305149760E-001 -1.2887031966E+001  +1.9611955019E-001 +6.9031615287E+001  +1.9516313171E-001 +6.8787422740E+001  +9.8233781577E-001 -1.2674961258E+001 
432095222.845 +9.7637182451E-001 -1.3435272861E+001  +1.9671711990E-001 +6.8462118635E+001  +1.9543613418E-001 +6.8327079421E+001  +9.7600890842E-001 -1.3206072869E+001 
436096021.204 +9.6749493554E-001 -1.3858579810E+001  +1.9658743587E-001 +6.8016658736E+001  +1.9531266202E-001 +6.8013396492E+001  +9.6758310732E-001 -1.3629027330E+001 
440096819.564 +9.5762147562E-001 -1.4149634168E+001  +1.9611010223E-001 +6.7749561471E+001  +1.9478996655E-001 +6.7789472001E+001  +9.5817387908E-001 -1.3912608828E+001 
444097617.924 +9.4753341870E-001 -1.4250928867E+001  +1.9572291156E-001 +6.7681393564E+001  +1.9444402778E-001 +6.7774271919E+001  +9.4856410377E-001 -1.4026408664E+001 
448098416.283 +9.3809208861E-001 -1.4207047331E+001  +1.9539313914E-001 +6.7797810127E+001  +1.9421512715E-001 +6.7982307929E+001  +9.3939866504E-001 -1.3987240375E+001 
452099214.643 +9.3002344940E-001 -1.4004043698E+001  +1.9518779456E-001 +6.8024244294E+001  +1.9431547306E-001 +6.8288419391E+001  +9.3146605859E-001 -1.3801443178E+001 
456100013.003 +9.2364750499E-001 -1.3715746469E+001  +1.9545666067E-001 +6.8376287413E+001  +1.9484281277E-001 +6.8698743250E+001  +9.2512748355E-001 -1.3537605750E+001 
