!  2-Port S-parameters saved by WinCal
! VAR MeasName=S-Parameters (CALIBRATED_DATA) read from VNA (P5004A)
! VAR MeasDate=24/04/2024 16:19:15
! VAR NAME=Wafer2_r1_c3_pristine 16
! VAR FILENAME=Wafer2_r1_c3_pristine 16.S2P
! VAR DATE=24/04/2024 16:19:15
! VAR PHYS_PORTS=1,2
! VAR ObjTypeName=DATASET
! VAR IndexType=Frequency
!
# Hz S MA R 50
9000.000 +7.8685846020E-001 +1.8098392760E+001  +5.2253109754E-006 +1.5115163551E+002  +4.5729402456E-006 +5.2715917460E+001  +7.9229050229E-001 +1.8009665590E+001 
4009798.360 +9.8797084009E-001 -3.1166962245E+000  +1.8974270400E-003 +8.5943643456E+001  +1.9195909419E-003 +8.5930571560E+001  +9.8749919104E-001 -3.0397194420E+000 
8010596.719 +9.7676562571E-001 -5.8899856472E-001  +3.7293010424E-003 +8.8406272074E+001  +3.7681306504E-003 +8.8205182534E+001  +9.7680715354E-001 -5.9666378492E-001 
12011395.079 +9.7578222779E-001 +8.3065983221E-002  +5.6048614890E-003 +8.9157119811E+001  +5.6479529689E-003 +8.8756230626E+001  +9.7308234238E-001 +3.8281447632E-002 
16012193.439 +9.8790931140E-001 +2.6546942000E-001  +7.5177030609E-003 +8.9273891528E+001  +7.5547654572E-003 +8.8734158430E+001  +9.8573779640E-001 +2.3230269786E-001 
20012991.798 +9.9581656769E-001 +2.5668083118E-001  +9.4519111941E-003 +8.9204423373E+001  +9.4683244610E-003 +8.8628156521E+001  +9.9456228121E-001 +2.7068996619E-001 
24013790.158 +1.0007016773E+000 +2.6692529377E-001  +1.1382958744E-002 +8.9163401802E+001  +1.1371858091E-002 +8.8536209786E+001  +1.0002274167E+000 +1.5247167673E-001 
28014588.518 +1.0045071150E+000 +1.1311386853E-001  +1.3329780235E-002 +8.8990720518E+001  +1.3276898717E-002 +8.8379083726E+001  +1.0034798384E+000 +3.2671217460E-004 
32015386.877 +1.0097382851E+000 -2.2900315689E-001  +1.5274219167E-002 +8.8861278978E+001  +1.5207413635E-002 +8.8340085857E+001  +1.0094691362E+000 -2.7405934690E-001 
36016185.237 +1.0122087047E+000 -4.9512482756E-001  +1.7239541659E-002 +8.8555696522E+001  +1.7133642301E-002 +8.8093071045E+001  +1.0124276246E+000 -5.4376550527E-001 
40016983.597 +1.0137538672E+000 -8.1901161146E-001  +1.9193247395E-002 +8.8160829025E+001  +1.9042185692E-002 +8.7799671648E+001  +1.0139755438E+000 -8.6858029649E-001 
44017781.956 +1.0147039463E+000 -1.2114613711E+000  +2.1136505555E-002 +8.7711180373E+001  +2.0939986172E-002 +8.7487469270E+001  +1.0147324646E+000 -1.2295294680E+000 
48018580.316 +1.0149103681E+000 -1.5732332662E+000  +2.3054854195E-002 +8.7212099994E+001  +2.2840464564E-002 +8.7120453686E+001  +1.0154603136E+000 -1.5782569072E+000 
52019378.676 +1.0223569631E+000 -2.1411657416E+000  +2.4986288539E-002 +8.6857809993E+001  +2.4721317554E-002 +8.6872836878E+001  +1.0224730533E+000 -2.1027661170E+000 
56020177.035 +1.0216635266E+000 -2.4927511709E+000  +2.6768865883E-002 +8.6337198735E+001  +2.6517924410E-002 +8.6469024932E+001  +1.0218518799E+000 -2.4138196748E+000 
60020975.395 +1.0196355179E+000 -2.7957691550E+000  +2.8480272211E-002 +8.5926621760E+001  +2.8259833489E-002 +8.6209258755E+001  +1.0213153316E+000 -2.6258779923E+000 
64021773.755 +1.0117281554E+000 -2.8791212008E+000  +3.0117077983E-002 +8.5584824276E+001  +2.9952327452E-002 +8.6055757826E+001  +1.0151809984E+000 -2.6945198325E+000 
68022572.114 +9.8883526777E-001 -2.6908205937E+000  +3.1457062318E-002 +8.4868430876E+001  +3.1474831923E-002 +8.5688694547E+001  +9.9997112184E-001 -2.6184571759E+000 
72023370.474 +9.4965878774E-001 -2.4580367561E+000  +3.2492211745E-002 +8.4023214995E+001  +3.2711724099E-002 +8.5085227808E+001  +9.6900535780E-001 -2.4950607666E+000 
76024168.834 +9.0030218652E-001 -2.3916498564E+000  +3.3356839486E-002 +8.3529698115E+001  +3.3578970928E-002 +8.4387560734E+001  +9.1300599522E-001 -2.3497719395E+000 
80024967.193 +8.5259235350E-001 -2.5010756464E+000  +3.4151070165E-002 +8.3385233327E+001  +3.4082846719E-002 +8.3739730270E+001  +8.4385685973E-001 -2.3845079145E+000 
84025765.553 +8.0377985545E-001 -2.0641576901E+000  +3.4792273073E-002 +8.3759418921E+001  +3.5174836603E-002 +8.4393562273E+001  +8.1351155936E-001 -2.1506847603E+000 
88026563.913 +7.7654261145E-001 -2.0584587098E+000  +3.5961888373E-002 +8.4695342961E+001  +3.6764971754E-002 +8.5368499280E+001  +8.0125907710E-001 -2.1681338311E+000 
92027362.272 +7.5722277208E-001 -2.8004679223E+000  +3.7301929916E-002 +8.5223855818E+001  +3.8293564100E-002 +8.5706149107E+001  +7.8626149917E-001 -2.7469881278E+000 
96028160.632 +7.4447263488E-001 -3.6106278114E+000  +3.8703726517E-002 +8.5700032735E+001  +3.9945242136E-002 +8.5979959067E+001  +7.8049504865E-001 -3.3155367286E+000 
100028958.992 +7.4545548238E-001 -4.6125585499E+000  +4.0388552583E-002 +8.6232540649E+001  +4.1714518231E-002 +8.6269241518E+001  +7.8105059296E-001 -4.0417275119E+000 
104029757.351 +7.6291631032E-001 -5.1160837477E+000  +4.2351078032E-002 +8.6831964909E+001  +4.3734579926E-002 +8.6604393891E+001  +7.9711152063E-001 -4.3835898818E+000 
108030555.711 +7.9052727351E-001 -5.0845752110E+000  +4.4574942355E-002 +8.7497424061E+001  +4.5921130705E-002 +8.6991829075E+001  +8.2131641717E-001 -4.3781918050E+000 
112031354.071 +8.0989316366E-001 -4.4692089285E+000  +4.6852312660E-002 +8.8485081036E+001  +4.8094471042E-002 +8.7716013706E+001  +8.3732494374E-001 -3.8153856344E+000 
116032152.430 +8.4298111224E-001 -3.1642480939E+000  +4.9800307900E-002 +8.9278682689E+001  +5.0815406305E-002 +8.8195602831E+001  +8.6635196039E-001 -2.9452169977E+000 
120032950.790 +9.0882398158E-001 -2.8736318197E+000  +5.3406588792E-002 +8.8641592933E+001  +5.4028719324E-002 +8.7698323111E+001  +9.2127329845E-001 -2.8508592212E+000 
124033749.150 +9.6900276161E-001 -2.9465096991E+000  +5.6903576749E-002 +8.7526174211E+001  +5.7215914350E-002 +8.6779675052E+001  +9.7456093326E-001 -2.9856100911E+000 
128034547.510 +1.0112193759E+000 -3.0853429444E+000  +6.0013262518E-002 +8.6347997786E+001  +6.0110419148E-002 +8.5793227313E+001  +1.0122541466E+000 -3.1015604867E+000 
132035345.869 +1.0287039855E+000 -3.2436195330E+000  +6.2547781959E-002 +8.5409600623E+001  +6.2427056973E-002 +8.5112452103E+001  +1.0247363937E+000 -3.3042791192E+000 
136036144.229 +1.0287828814E+000 -3.5299433274E+000  +6.4603674681E-002 +8.4835757697E+001  +6.4369954708E-002 +8.4668558960E+001  +1.0232244305E+000 -3.6731639633E+000 
140036942.589 +1.0251394599E+000 -3.9701017494E+000  +6.6511968108E-002 +8.4283423018E+001  +6.6130373431E-002 +8.4246347688E+001  +1.0189954924E+000 -4.1681227085E+000 
144037740.948 +1.0211115658E+000 -4.4668369862E+000  +6.8191514157E-002 +8.3721103987E+001  +6.7747178400E-002 +8.3793420742E+001  +1.0153336304E+000 -4.6757715661E+000 
148038539.308 +1.0167952272E+000 -4.9412549348E+000  +6.9729229212E-002 +8.3212958012E+001  +6.9263992572E-002 +8.3432040339E+001  +1.0109121643E+000 -5.1318630172E+000 
152039337.668 +1.0123972642E+000 -5.2947638954E+000  +7.1136224031E-002 +8.2784667410E+001  +7.0713984690E-002 +8.3117167089E+001  +1.0058413075E+000 -5.4396874229E+000 
156040136.027 +1.0064280374E+000 -5.4077134639E+000  +7.2433948948E-002 +8.2511853291E+001  +7.2106500026E-002 +8.2983043122E+001  +9.9950340068E-001 -5.5425018501E+000 
160040934.387 +9.9855757763E-001 -5.3750738417E+000  +7.3645611548E-002 +8.2375047640E+001  +7.3410854671E-002 +8.2961452724E+001  +9.9010537245E-001 -5.6152852391E+000 
164041732.747 +9.8601664214E-001 -5.2233878402E+000  +7.4809797265E-002 +8.2255532009E+001  +7.4782123183E-002 +8.3006525709E+001  +9.7995018997E-001 -5.6040866427E+000 
168042531.106 +9.5274772223E-001 -5.0775684128E+000  +7.5307978912E-002 +8.1704477495E+001  +7.5809601624E-002 +8.2851236540E+001  +9.5998959521E-001 -5.5638851007E+000 
172043329.466 +8.9891846727E-001 -4.9376360492E+000  +7.5031618260E-002 +8.0908560216E+001  +7.6147960217E-002 +8.2338048820E+001  +9.2077430102E-001 -5.4947220268E+000 
176044127.826 +8.3608949805E-001 -4.8025644442E+000  +7.4247706114E-002 +8.0225878025E+001  +7.5968892755E-002 +8.1784066081E+001  +8.6810139129E-001 -5.2901813122E+000 
180044926.185 +7.8227101539E-001 -4.1969653813E+000  +7.3605951398E-002 +8.0249532814E+001  +7.5854957529E-002 +8.1636026330E+001  +8.1763044840E-001 -4.7388754606E+000 
184045724.545 +7.6835013144E-001 -2.8951323126E+000  +7.4347137548E-002 +8.1509116648E+001  +7.6607931056E-002 +8.2356499816E+001  +7.9551722159E-001 -3.5011408017E+000 
188046522.905 +7.5122161846E-001 -2.9460799702E+000  +7.5496833634E-002 +8.2180225470E+001  +7.8135844719E-002 +8.3011600831E+001  +7.8492951928E-001 -3.0696493783E+000 
192047321.264 +7.3571766027E-001 -3.3900279895E+000  +7.6798553061E-002 +8.2745310329E+001  +7.9644281014E-002 +8.3275058556E+001  +7.7026512619E-001 -3.4218241382E+000 
196048119.624 +7.3146222927E-001 -4.3937569756E+000  +7.8399777621E-002 +8.3226004253E+001  +8.1420355177E-002 +8.3462317189E+001  +7.6701163174E-001 -4.2355153725E+000 
200048917.984 +7.4348607063E-001 -5.5188642753E+000  +8.0512481049E-002 +8.3674099363E+001  +8.3518840654E-002 +8.3627514962E+001  +7.7812102926E-001 -5.1493737283E+000 
204049716.343 +7.6974567499E-001 -6.2083704538E+000  +8.3178077685E-002 +8.4257059024E+001  +8.5725139445E-002 +8.3908310612E+001  +7.9684096848E-001 -5.8102712803E+000 
208050514.703 +8.0429072912E-001 -6.5289471170E+000  +8.6250332209E-002 +8.4779882753E+001  +8.8277254315E-002 +8.4240420333E+001  +8.2401284237E-001 -6.0376131300E+000 
212051313.063 +8.3174335829E-001 -5.8740312954E+000  +8.9536755464E-002 +8.5647889710E+001  +9.1302018820E-002 +8.4807355954E+001  +8.5288501976E-001 -5.3924717874E+000 
216052111.422 +8.8525625528E-001 -5.6328000126E+000  +9.4168452808E-002 +8.5602110134E+001  +9.5404357154E-002 +8.4567423673E+001  +9.0616827002E-001 -5.2031754988E+000 
220052909.782 +9.4855810047E-001 -5.8188480668E+000  +9.9140083992E-002 +8.4614443672E+001  +9.9813300689E-002 +8.3685281311E+001  +9.6611459730E-001 -5.3521769204E+000 
224053708.142 +9.9497331554E-001 -5.9740978231E+000  +1.0356379804E-001 +8.3371104819E+001  +1.0370444384E-001 +8.2574062710E+001  +1.0088508524E+000 -5.5588118106E+000 
228054506.501 +1.0172443718E+000 -6.1913463315E+000  +1.0692326006E-001 +8.2188584700E+001  +1.0646795293E-001 +8.1662933878E+001  +1.0252836334E+000 -5.9144342170E+000 
232055304.861 +1.0185925090E+000 -6.6424168366E+000  +1.0913225571E-001 +8.1403330897E+001  +1.0831316981E-001 +8.1058481824E+001  +1.0246994475E+000 -6.4293682020E+000 
236056103.221 +1.0139538956E+000 -7.2339459132E+000  +1.1078044167E-001 +8.0764272965E+001  +1.0973223381E-001 +8.0528579487E+001  +1.0206040493E+000 -6.9931633643E+000 
240056901.580 +1.0081820455E+000 -7.8151707268E+000  +1.1209229163E-001 +8.0165160295E+001  +1.1091264419E-001 +8.0057468271E+001  +1.0152824864E+000 -7.5310318225E+000 
244057699.940 +1.0016424403E+000 -8.2791152020E+000  +1.1311453747E-001 +7.9691534310E+001  +1.1189651308E-001 +7.9710668021E+001  +1.0092890596E+000 -7.9708981437E+000 
248058498.300 +9.9445656089E-001 -8.5669725131E+000  +1.1394744670E-001 +7.9343539246E+001  +1.1275821763E-001 +7.9505153064E+001  +1.0027669227E+000 -8.2659564481E+000 
252059296.659 +9.8601973367E-001 -8.6794427606E+000  +1.1467047164E-001 +7.9139086070E+001  +1.1355816610E-001 +7.9441691417E+001  +9.9680431464E-001 -8.4375365304E+000 
256060095.019 +9.7736573817E-001 -8.6538599508E+000  +1.1542893024E-001 +7.9076572168E+001  +1.1448226221E-001 +7.9517497106E+001  +9.9107097837E-001 -8.4797430613E+000 
260060893.379 +9.6805339445E-001 -8.5514436973E+000  +1.1622620862E-001 +7.9124627913E+001  +1.1551460218E-001 +7.9695384742E+001  +9.8703070671E-001 -8.4210107923E+000 
264061691.738 +9.5341234456E-001 -8.3710983008E+000  +1.1680183712E-001 +7.9012058048E+001  +1.1664290347E-001 +7.9835046131E+001  +9.8016318147E-001 -8.2631641768E+000 
268062490.098 +9.2072343268E-001 -8.1230169681E+000  +1.1639835870E-001 +7.8463295121E+001  +1.1717215254E-001 +7.9650971811E+001  +9.5745919617E-001 -7.9845533555E+000 
272063288.458 +8.7189417901E-001 -7.7695440401E+000  +1.1523521670E-001 +7.7873749383E+001  +1.1686445112E-001 +7.9174226755E+001  +9.1230864932E-001 -7.6491847037E+000 
276064086.817 +8.1881902585E-001 -7.3695049873E+000  +1.1394479473E-001 +7.7616095842E+001  +1.1626533485E-001 +7.8819964637E+001  +8.5814402445E-001 -7.3623985850E+000 
280064885.177 +7.8048094610E-001 -6.5061190900E+000  +1.1330595255E-001 +7.8141705983E+001  +1.1592614686E-001 +7.8955276323E+001  +8.1283064000E-001 -6.7968981419E+000 
284065683.537 +7.7051416708E-001 -5.3885320556E+000  +1.1424146296E-001 +7.9309491112E+001  +1.1685277358E-001 +7.9755346390E+001  +7.9513374916E-001 -5.8517758569E+000 
288066481.896 +7.5929989691E-001 -5.5489072916E+000  +1.1569387474E-001 +8.0004925964E+001  +1.1846590606E-001 +8.0272882605E+001  +7.8285786791E-001 -5.8481003651E+000 
292067280.256 +7.5426787310E-001 -6.1658778984E+000  +1.1746524226E-001 +8.0577248189E+001  +1.2024389864E-001 +8.0594288457E+001  +7.7544624477E-001 -6.4166842931E+000 
296068078.616 +7.6205735351E-001 -7.1502964537E+000  +1.1989489449E-001 +8.1046370685E+001  +1.2255858287E-001 +8.0853242588E+001  +7.8095289940E-001 -7.2899685936E+000 
300068876.975 +7.7831976882E-001 -8.1013206712E+000  +1.2263648854E-001 +8.1441815498E+001  +1.2520723349E-001 +8.1080043215E+001  +7.9598389480E-001 -8.0914919439E+000 
304069675.335 +8.0765849759E-001 -8.6334180764E+000  +1.2605740705E-001 +8.1828602868E+001  +1.2844802278E-001 +8.1288310821E+001  +8.2404287042E-001 -8.5150977913E+000 
308070473.695 +8.3903338758E-001 -8.5539844054E+000  +1.2992271849E-001 +8.2252528812E+001  +1.3205475369E-001 +8.1551260260E+001  +8.5378696772E-001 -8.3591984516E+000 
312071272.054 +8.8236570288E-001 -8.2081907840E+000  +1.3500167088E-001 +8.2378786716E+001  +1.3677461977E-001 +8.1489479023E+001  +8.9673962332E-001 -8.0944393747E+000 
316072070.414 +9.4109541834E-001 -8.3939960922E+000  +1.4104791338E-001 +8.1591269639E+001  +1.4225882751E-001 +8.0731206885E+001  +9.5065622802E-001 -8.2919797646E+000 
320072868.774 +9.8883027171E-001 -8.7049468729E+000  +1.4654576375E-001 +8.0399738714E+001  +1.4711701852E-001 +7.9659724626E+001  +9.9303746123E-001 -8.5996722492E+000 
324073667.133 +1.0130537021E+000 -9.1022816939E+000  +1.5054787201E-001 +7.9257441224E+001  +1.5048874627E-001 +7.8713971479E+001  +1.0120335105E+000 -9.0063149447E+000 
328074465.493 +1.0162190426E+000 -9.6232718039E+000  +1.5292350256E-001 +7.8425430781E+001  +1.5239964671E-001 +7.8028577719E+001  +1.0139306013E+000 -9.4966525678E+000 
332075263.853 +1.0118852096E+000 -1.0194788498E+001  +1.5434678012E-001 +7.7748539298E+001  +1.5358396456E-001 +7.7457308117E+001  +1.0096683979E+000 -1.0013662162E+001 
336076062.212 +1.0050511417E+000 -1.0721222633E+001  +1.5527604086E-001 +7.7157578650E+001  +1.5430917162E-001 +7.6968748953E+001  +1.0030093782E+000 -1.0494739442E+001 
340076860.572 +9.9681610185E-001 -1.1164630788E+001  +1.5576304880E-001 +7.6674676406E+001  +1.5474864543E-001 +7.6619508391E+001  +9.9497728330E-001 -1.0898393704E+001 
344077658.932 +9.8800803339E-001 -1.1475121926E+001  +1.5609687265E-001 +7.6343807009E+001  +1.5504193567E-001 +7.6388783938E+001  +9.8635714170E-001 -1.1186953228E+001 
348078457.291 +9.7912330362E-001 -1.1607275000E+001  +1.5621378318E-001 +7.6195631830E+001  +1.5525194817E-001 +7.6355760182E+001  +9.7767662995E-001 -1.1315004054E+001 
352079255.651 +9.7091181353E-001 -1.1589104396E+001  +1.5642729729E-001 +7.6201515826E+001  +1.5562825584E-001 +7.6461070242E+001  +9.6969941546E-001 -1.1298152353E+001 
356080054.011 +9.6380903159E-001 -1.1434467435E+001  +1.5683429081E-001 +7.6342532319E+001  +1.5625946801E-001 +7.6690112848E+001  +9.6301441998E-001 -1.1132429564E+001 
360080852.370 +9.5712623980E-001 -1.1171678506E+001  +1.5751712190E-001 +7.6550751214E+001  +1.5723175131E-001 +7.6990197087E+001  +9.5731635495E-001 -1.0865389737E+001 
364081650.730 +9.4346801155E-001 -1.0792688698E+001  +1.5791586627E-001 +7.6547324259E+001  +1.5823171402E-001 +7.7188807354E+001  +9.4810086899E-001 -1.0516676624E+001 
368082449.090 +9.0904493997E-001 -1.0373365905E+001  +1.5709589440E-001 +7.6067082340E+001  +1.5838556883E-001 +7.6952373732E+001  +9.2198986208E-001 -1.0145430943E+001 
372083247.449 +8.5969993109E-001 -9.9799867065E+000  +1.5531703349E-001 +7.5535394209E+001  +1.5751973511E-001 +7.6498938408E+001  +8.7967648886E-001 -9.8667996464E+000 
376084045.809 +8.1011152474E-001 -9.5704389763E+000  +1.5348379824E-001 +7.5373017403E+001  +1.5635945720E-001 +7.6225810634E+001  +8.3403225886E-001 -9.6056100875E+000 
380084844.169 +7.7938604634E-001 -8.6795516949E+000  +1.5259240239E-001 +7.6009994186E+001  +1.5578702722E-001 +7.6559888967E+001  +8.0283288947E-001 -9.0110972977E+000 
384085642.529 +7.6936835694E-001 -7.8076345240E+000  +1.5340827285E-001 +7.7036112604E+001  +1.5674130813E-001 +7.7320864408E+001  +7.9259918829E-001 -8.3238096165E+000 
388086440.888 +7.5861912246E-001 -8.0156907417E+000  +1.5470188416E-001 +7.7676476023E+001  +1.5832479234E-001 +7.7774638230E+001  +7.8412915647E-001 -8.4553724285E+000 
392087239.248 +7.5767876649E-001 -8.6684943198E+000  +1.5677154818E-001 +7.8228412868E+001  +1.6039260487E-001 +7.8112829771E+001  +7.8356752268E-001 -8.9790104501E+000 
396088037.608 +7.6916960809E-001 -9.6637446718E+000  +1.5966239453E-001 +7.8656076366E+001  +1.6314213066E-001 +7.8356431740E+001  +7.9509839476E-001 -9.7722945209E+000 
400088835.967 +7.9287472266E-001 -1.0540373175E+001  +1.6338036250E-001 +7.8994441930E+001  +1.6666277310E-001 +7.8533471067E+001  +8.1720477963E-001 -1.0469107971E+001 
404089634.327 +8.2435751379E-001 -1.1021478502E+001  +1.6789098354E-001 +7.9258228950E+001  +1.7080716782E-001 +7.8660601544E+001  +8.4650819918E-001 -1.0823905310E+001 
408090432.687 +8.5725385433E-001 -1.0944264074E+001  +1.7295980133E-001 +7.9508421419E+001  +1.7567836088E-001 +7.8720795901E+001  +8.7945024198E-001 -1.0768494028E+001 
412091231.046 +9.0638299400E-001 -1.1029413288E+001  +1.7967721954E-001 +7.9132881135E+001  +1.8186752179E-001 +7.8215668836E+001  +9.2718176004E-001 -1.0919381629E+001 
416092029.406 +9.5954753717E-001 -1.1439673156E+001  +1.8666288483E-001 +7.8013405837E+001  +1.8809884574E-001 +7.7174974558E+001  +9.7499627432E-001 -1.1309596050E+001 
420092827.766 +9.9469770687E-001 -1.1888383963E+001  +1.9211285075E-001 +7.6744999857E+001  +1.9264595405E-001 +7.6080928854E+001  +1.0035828480E+000 -1.1736507197E+001 
424093626.125 +1.0076962814E+000 -1.2366953140E+001  +1.9539605233E-001 +7.5644040637E+001  +1.9494356695E-001 +7.5244431940E+001  +1.0102247623E+000 -1.2207012294E+001 
428094424.485 +1.0048295315E+000 -1.2912906269E+001  +1.9679946501E-001 +7.4842071920E+001  +1.9593147862E-001 +7.4582242404E+001  +1.0057396092E+000 -1.2734574956E+001 
432095222.845 +9.9710695576E-001 -1.3426239785E+001  +1.9730756748E-001 +7.4233202705E+001  +1.9621802315E-001 +7.4074268541E+001  +9.9779664436E-001 -1.3213888056E+001 
436096021.204 +9.8728378827E-001 -1.3865297009E+001  +1.9723246017E-001 +7.3729216474E+001  +1.9603566440E-001 +7.3664627034E+001  +9.8807433252E-001 -1.3643252612E+001 
440096819.564 +9.7674488967E-001 -1.4184186147E+001  +1.9684747811E-001 +7.3403870749E+001  +1.9557663208E-001 +7.3429830455E+001  +9.7804132964E-001 -1.3956226134E+001 
444097617.924 +9.6643257142E-001 -1.4342180454E+001  +1.9633719744E-001 +7.3257184294E+001  +1.9516150660E-001 +7.3359408389E+001  +9.6811469806E-001 -1.4118993449E+001 
448098416.283 +9.5722495673E-001 -1.4315473583E+001  +1.9588889805E-001 +7.3266635128E+001  +1.9494418089E-001 +7.3481144999E+001  +9.5923078785E-001 -1.4109113049E+001 
452099214.643 +9.4924005006E-001 -1.4099512070E+001  +1.9575309452E-001 +7.3458431452E+001  +1.9495843915E-001 +7.3751830023E+001  +9.5163484591E-001 -1.3917781447E+001 
456100013.003 +9.4220558472E-001 -1.3757819219E+001  +1.9590741389E-001 +7.3738144987E+001  +1.9547839709E-001 +7.4082728722E+001  +9.4513848698E-001 -1.3613146763E+001 
