!  2-Port S-parameters saved by WinCal
! VAR MeasName=S-Parameters (CALIBRATED_DATA) read from VNA (P5004A)
! VAR MeasDate=24/04/2024 15:19:17
! VAR NAME=Wafer2_r1_c3_pristine
! VAR FILENAME=Wafer2_r1_c3_pristine.S2P
! VAR DATE=24/04/2024 15:19:17
! VAR PHYS_PORTS=1,2
! VAR ObjTypeName=DATASET
! VAR IndexType=Frequency
!
# Hz S MA R 50
9000.000 +7.9983740130E-001 +1.7297975195E+001  +8.3600637499E-005 -3.8869102983E+001  +1.9400535789E-005 -7.6001871882E+001  +7.9916680891E-001 +1.7296511801E+001 
4009798.360 +9.8746962243E-001 -3.0203937136E+000  +3.7212731497E-005 +7.2849621926E+001  +3.6317044802E-005 +7.9320666402E+001  +9.8728009819E-001 -2.9701978225E+000 
8010596.719 +9.7593416848E-001 -4.0465288365E-001  +5.0731856693E-005 +9.8528474360E+001  +5.6577363573E-005 +8.4060271277E+001  +9.7661341870E-001 -4.1037747025E-001 
12011395.079 +9.8341043355E-001 +3.2612047323E-001  +9.4962048433E-005 +9.0567659723E+001  +8.8317956062E-005 +8.5737261215E+001  +9.8392698725E-001 +2.8872568319E-001 
16012193.439 +9.8954192107E-001 +6.2841687563E-001  +1.2163509637E-004 +9.0454665386E+001  +1.1520336690E-004 +8.9357602253E+001  +9.8986620225E-001 +5.7252057171E-001 
20012991.798 +9.9480683308E-001 +7.6998989192E-001  +1.4701435906E-004 +9.1636135913E+001  +1.4718568363E-004 +8.9726586360E+001  +9.9502024913E-001 +6.9089176267E-001 
24013790.158 +9.9954915032E-001 +8.1439603498E-001  +1.7990561003E-004 +8.9822415171E+001  +1.8196461484E-004 +8.9119324571E+001  +9.9981479123E-001 +7.2818945320E-001 
28014588.518 +1.0036850648E+000 +7.6810407726E-001  +1.9681119826E-004 +9.4233732362E+001  +2.0665696628E-004 +9.0581974540E+001  +1.0039143780E+000 +6.7947700627E-001 
32015386.877 +1.0080151791E+000 +6.8380239670E-001  +2.2337777182E-004 +9.0149984261E+001  +2.4651198691E-004 +8.9806356100E+001  +1.0079551089E+000 +5.8537770531E-001 
36016185.237 +1.0109683920E+000 +5.4562804492E-001  +2.6253480760E-004 +9.4140624983E+001  +2.7829690049E-004 +9.1153176689E+001  +1.0113752097E+000 +4.1558566239E-001 
40016983.597 +1.0133433738E+000 +3.3733721221E-001  +2.7614576799E-004 +8.9820931080E+001  +2.9502766122E-004 +9.1435010487E+001  +1.0136266642E+000 +1.8167343589E-001 
44017781.956 +1.0147236337E+000 +8.6905048091E-002  +3.0757233113E-004 +9.1119664579E+001  +3.2993344241E-004 +9.0635703879E+001  +1.0147607904E+000 -7.0720919167E-002 
48018580.316 +1.0153302344E+000 -1.6267066192E-001  +3.3259091270E-004 +9.1112142710E+001  +3.6713785453E-004 +8.9517322124E+001  +1.0153953855E+000 -3.2121172342E-001 
52019378.676 +1.0139585375E+000 -4.4078301620E-001  +3.6698003657E-004 +9.0397232081E+001  +3.9753584710E-004 +9.0074987386E+001  +1.0136589557E+000 -6.0982236493E-001 
56020177.035 +1.0115989867E+000 -6.6546112170E-001  +4.1873628061E-004 +8.8819053790E+001  +4.0444791009E-004 +8.9260209344E+001  +1.0113450332E+000 -8.4793656234E-001 
60020975.395 +1.0081804578E+000 -8.8095277223E-001  +4.5144294381E-004 +8.7984157654E+001  +4.4875713511E-004 +9.1117320062E+001  +1.0078065984E+000 -1.0712066869E+000 
64021773.755 +1.0034780086E+000 -9.8133233652E-001  +4.7700624495E-004 +8.7871075500E+001  +4.8050553938E-004 +8.9031504910E+001  +1.0030419720E+000 -1.1752126448E+000 
68022572.114 +9.9829979170E-001 -1.0008486289E+000  +5.0085902237E-004 +8.7995285695E+001  +5.0511415435E-004 +8.7812620438E+001  +9.9817310923E-001 -1.2333635362E+000 
72023370.474 +9.9384784302E-001 -9.4813310876E-001  +5.3093273331E-004 +8.7716541880E+001  +5.2605185655E-004 +8.9008161541E+001  +9.9366419134E-001 -1.1799024156E+000 
76024168.834 +9.8963091623E-001 -8.1353449554E-001  +5.5361345488E-004 +8.8153492965E+001  +5.7081368970E-004 +8.9054748092E+001  +9.8951990309E-001 -1.0412087970E+000 
80024967.193 +9.8628346673E-001 -6.1291250358E-001  +5.7456431225E-004 +8.7505225193E+001  +5.8977717939E-004 +8.9494212575E+001  +9.8633739731E-001 -8.6883774398E-001 
84025765.553 +9.8445086268E-001 -3.9463361375E-001  +6.1187536828E-004 +8.8733067814E+001  +6.1644774838E-004 +8.8441299643E+001  +9.8400387695E-001 -6.7380860883E-001 
88026563.913 +9.8335015150E-001 -1.1614314464E-001  +6.3851108080E-004 +8.8736807979E+001  +6.4703101796E-004 +8.9774297489E+001  +9.8328668094E-001 -4.1370520577E-001 
92027362.272 +9.8377968873E-001 +1.3129373819E-001  +6.7531951153E-004 +8.9796935365E+001  +6.7253748347E-004 +9.0396018040E+001  +9.8341679150E-001 -1.7834512263E-001 
96028160.632 +9.8443247117E-001 +3.6667075107E-001  +7.0085084231E-004 +8.9702977756E+001  +7.0154703609E-004 +9.0209158226E+001  +9.8444986324E-001 +4.4568478034E-002 
100028958.992 +9.8722141815E-001 +5.8046309361E-001  +7.3041453591E-004 +8.9576874253E+001  +7.3344200494E-004 +9.0424418993E+001  +9.8695518945E-001 +2.4581914286E-001 
104029757.351 +9.9028737161E-001 +7.5177656810E-001  +7.5916554177E-004 +9.0963405892E+001  +7.5912022772E-004 +9.0208326453E+001  +9.9022471511E-001 +4.2168305318E-001 
108030555.711 +9.9392702958E-001 +8.9633277610E-001  +7.9140578284E-004 +9.0869011896E+001  +8.0251139179E-004 +9.0616742823E+001  +9.9398670567E-001 +5.3671569446E-001 
112031354.071 +9.9836013726E-001 +9.6663420379E-001  +8.2630272685E-004 +9.1076333884E+001  +8.3620393311E-004 +9.0383727623E+001  +9.9860774281E-001 +5.8517829727E-001 
116032152.430 +1.0032314088E+000 +9.8318863178E-001  +8.6556566664E-004 +9.0749101037E+001  +8.6701637937E-004 +9.0575729458E+001  +1.0030018418E+000 +5.7675086755E-001 
120032950.790 +1.0080696915E+000 +9.1973237089E-001  +8.9957669616E-004 +9.1303278553E+001  +8.9436289979E-004 +9.0677012301E+001  +1.0081747503E+000 +5.1811210604E-001 
124033749.150 +1.0126765312E+000 +7.7467147108E-001  +9.2306138270E-004 +9.0589310890E+001  +9.3324443066E-004 +8.9977507687E+001  +1.0127808569E+000 +3.4001568436E-001 
128034547.510 +1.0168092766E+000 +5.6548967752E-001  +9.5879652751E-004 +9.0452597306E+001  +9.5343289159E-004 +9.0529080484E+001  +1.0167688517E+000 +1.2507824352E-001 
132035345.869 +1.0194260747E+000 +2.8355831353E-001  +9.8934937618E-004 +9.0241401622E+001  +9.9603145394E-004 +9.0212854549E+001  +1.0194433246E+000 -1.8259826585E-001 
136036144.229 +1.0208969005E+000 -6.1334079027E-002  +1.0292071862E-003 +9.0447301025E+001  +1.0285401551E-003 +9.0192099713E+001  +1.0208898888E+000 -5.2542331448E-001 
140036942.589 +1.0201811522E+000 -4.0592578369E-001  +1.0611964807E-003 +8.9842687343E+001  +1.0519981468E-003 +8.9864495658E+001  +1.0203567727E+000 -8.7888624684E-001 
144037740.948 +1.0182187823E+000 -7.4251009552E-001  +1.0785195463E-003 +8.9910277523E+001  +1.0732193476E-003 +8.9520377040E+001  +1.0181941564E+000 -1.2106553240E+000 
148038539.308 +1.0141035106E+000 -1.0240910540E+000  +1.1014643776E-003 +8.9088234734E+001  +1.1004531161E-003 +8.8986690269E+001  +1.0142445280E+000 -1.5184728502E+000 
152039337.668 +1.0090004265E+000 -1.2555178225E+000  +1.1412993933E-003 +8.9456459398E+001  +1.1333779715E-003 +8.9484107577E+001  +1.0087939174E+000 -1.7488457203E+000 
156040136.027 +1.0027373820E+000 -1.3592279255E+000  +1.1711278414E-003 +8.9258445574E+001  +1.1699954908E-003 +8.9149690107E+001  +1.0025580289E+000 -1.8648629629E+000 
160040934.387 +9.9639681586E-001 -1.3584885764E+000  +1.2025594278E-003 +8.8246395782E+001  +1.1914657420E-003 +8.9346948812E+001  +9.9608310386E-001 -1.8568723609E+000 
164041732.747 +9.9075820119E-001 -1.2467914917E+000  +1.2259549638E-003 +8.8334293911E+001  +1.2152194747E-003 +8.9075858694E+001  +9.9044196019E-001 -1.7849293129E+000 
168042531.106 +9.8569931477E-001 -1.0777007135E+000  +1.2390896066E-003 +8.8522304140E+001  +1.2299551821E-003 +8.9285467638E+001  +9.8544088520E-001 -1.6059015505E+000 
172043329.466 +9.8203626360E-001 -8.1883611682E-001  +1.2672639588E-003 +8.8631148457E+001  +1.2586127026E-003 +8.9692411457E+001  +9.8182491416E-001 -1.3701425098E+000 
176044127.826 +9.7936810675E-001 -5.1791077264E-001  +1.2829985003E-003 +8.9092228596E+001  +1.2854324943E-003 +8.9797374396E+001  +9.7935003395E-001 -1.0861198351E+000 
180044926.185 +9.7836390652E-001 -2.2053123984E-001  +1.3222141161E-003 +8.9685801898E+001  +1.3089269506E-003 +8.9742111741E+001  +9.7848116167E-001 -7.8297474364E-001 
184045724.545 +9.7871530824E-001 +9.8223917926E-002  +1.3242463010E-003 +9.0391912265E+001  +1.3395217728E-003 +9.0473195567E+001  +9.7883139271E-001 -4.8349581978E-001 
188046522.905 +9.8037651036E-001 +3.9226589343E-001  +1.2800729393E-003 +9.0988020448E+001  +1.3856396393E-003 +9.0515565551E+001  +9.8024639545E-001 -2.1842977163E-001 
192047321.264 +9.8297676380E-001 +6.6311556090E-001  +1.2910019019E-003 +9.0612135107E+001  +1.4198235519E-003 +9.0798857494E+001  +9.8315141768E-001 +4.7612048611E-002 
196048119.624 +9.8645271097E-001 +8.9369231935E-001  +1.3216303948E-003 +9.1279045534E+001  +1.4457458604E-003 +9.0884383290E+001  +9.8667100442E-001 +2.5392266943E-001 
200048917.984 +9.9127931055E-001 +1.0629895819E+000  +1.4525219926E-003 +9.2334449804E+001  +1.4940795067E-003 +9.1210721457E+001  +9.9140962875E-001 +4.1460943567E-001 
204049716.343 +9.9659034693E-001 +1.1889102423E+000  +1.4856613580E-003 +9.2205539819E+001  +1.5150375073E-003 +9.1057380023E+001  +9.9655155142E-001 +5.0972734528E-001 
208050514.703 +1.0023581158E+000 +1.2114024159E+000  +1.5227986304E-003 +9.2559018809E+001  +1.5547904867E-003 +9.1340587389E+001  +1.0022096563E+000 +5.1902355198E-001 
212051313.063 +1.0082297176E+000 +1.1728352582E+000  +1.5078352795E-003 +9.3163487886E+001  +1.5997849179E-003 +9.1535068944E+001  +1.0082598682E+000 +4.4994422486E-001 
216052111.422 +1.0139083902E+000 +1.0037133601E+000  +1.6303161700E-003 +9.1517301627E+001  +1.6374948901E-003 +9.1415282227E+001  +1.0139845496E+000 +2.9651620862E-001 
220052909.782 +1.0192413449E+000 +7.9115742990E-001  +1.6707458404E-003 +9.1467865510E+001  +1.6810145289E-003 +9.1166949647E+001  +1.0190101277E+000 +4.3901149275E-002 
224053708.142 +1.0233013696E+000 +4.7101273113E-001  +1.7193948819E-003 +9.0718589770E+001  +1.7068729191E-003 +9.1073777920E+001  +1.0231759445E+000 -2.9389424283E-001 
228054506.501 +1.0257677176E+000 +8.4154897240E-002  +1.7623514537E-003 +9.0496207452E+001  +1.7436099808E-003 +8.9950062466E+001  +1.0257264132E+000 -6.8157742077E-001 
232055304.861 +1.0260212147E+000 -3.3231847837E-001  +1.7920996500E-003 +8.9617087045E+001  +1.7820290878E-003 +8.9505849319E+001  +1.0260696750E+000 -1.1110624225E+000 
236056103.221 +1.0245185476E+000 -7.6372327482E-001  +1.8191527127E-003 +8.9338066684E+001  +1.8158193181E-003 +8.8882404294E+001  +1.0240083366E+000 -1.5508497946E+000 
240056901.580 +1.0203252247E+000 -1.1577632134E+000  +1.8432029034E-003 +8.8729179531E+001  +1.8263981839E-003 +8.8656643795E+001  +1.0200974181E+000 -1.9529310090E+000 
244057699.940 +1.0146292682E+000 -1.4618608986E+000  +1.8649716111E-003 +8.7881339861E+001  +1.8473401092E-003 +8.8020692444E+001  +1.0144311902E+000 -2.2566706594E+000 
248058498.300 +1.0076855973E+000 -1.6529509349E+000  +1.8883408903E-003 +8.7919582663E+001  +1.8598763207E-003 +8.8085402019E+001  +1.0072776887E+000 -2.4509354063E+000 
252059296.659 +9.9987525386E-001 -1.7305470879E+000  +1.8982924729E-003 +8.7677102928E+001  +1.8740653303E-003 +8.7685333440E+001  +9.9950313296E-001 -2.5281737293E+000 
256060095.019 +9.9253050889E-001 -1.6729426204E+000  +1.9180405290E-003 +8.7635761762E+001  +1.8929931112E-003 +8.8086430163E+001  +9.9215779017E-001 -2.4877057420E+000 
260060893.379 +9.8560822107E-001 -1.5105027609E+000  +1.9273094081E-003 +8.7736719992E+001  +1.9065846581E-003 +8.8366865223E+001  +9.8541950056E-001 -2.3300348166E+000 
264061691.738 +9.8038147376E-001 -1.2441663241E+000  +1.9317535427E-003 +8.7914164120E+001  +1.9226511931E-003 +8.8567441339E+001  +9.8007269824E-001 -2.0758221306E+000 
268062490.098 +9.7631442716E-001 -9.3308320680E-001  +1.9559986928E-003 +8.8353766735E+001  +1.9396075880E-003 +8.8681352834E+001  +9.7611762640E-001 -1.7588099925E+000 
272063288.458 +9.7396444141E-001 -5.5615979095E-001  +1.9812272842E-003 +8.8730275961E+001  +1.9780676815E-003 +8.9247350819E+001  +9.7384216020E-001 -1.4027393954E+000 
276064086.817 +9.7346811335E-001 -1.6871530138E-001  +2.0144345285E-003 +8.9226985567E+001  +2.0073098038E-003 +8.9468484871E+001  +9.7326077230E-001 -1.0468113017E+000 
280064885.177 +9.7423883497E-001 +2.2261259461E-001  +2.0349677412E-003 +8.9650186980E+001  +2.0425857898E-003 +8.9804313279E+001  +9.7432057065E-001 -6.8190071363E-001 
284065683.537 +9.7656638005E-001 +5.6304521847E-001  +2.0628774681E-003 +8.9513597939E+001  +2.0773146311E-003 +9.0068649244E+001  +9.7652563073E-001 -3.5328170282E-001 
288066481.896 +9.8021183839E-001 +8.7729570398E-001  +2.0906416740E-003 +8.9857895214E+001  +2.1246379346E-003 +9.0249393837E+001  +9.8043200180E-001 -5.0808504416E-002 
292067280.256 +9.8497617408E-001 +1.1221082605E+000  +2.1261214227E-003 +9.0474374757E+001  +2.1555364922E-003 +9.0486502282E+001  +9.8499927347E-001 +1.8002271948E-001 
296068078.616 +9.9072543559E-001 +1.3189125517E+000  +2.1589909541E-003 +9.0410973716E+001  +2.1996242095E-003 +9.0594788666E+001  +9.9085293034E-001 +3.5363418339E-001 
300068876.975 +9.9728053004E-001 +1.4268376810E+000  +2.2046170146E-003 +9.0813750787E+001  +2.2330984645E-003 +9.0713122327E+001  +9.9763084152E-001 +4.4025926558E-001 
304069675.335 +1.0043580402E+000 +1.4497450733E+000  +2.2430626713E-003 +9.1060378615E+001  +2.2781057197E-003 +9.0949874731E+001  +1.0047324734E+000 +4.3136379273E-001 
308070473.695 +1.0114798823E+000 +1.3617229275E+000  +2.2788118672E-003 +9.1004942578E+001  +2.3127147559E-003 +9.0759308377E+001  +1.0117842180E+000 +3.3047932447E-001 
312071272.054 +1.0183359976E+000 +1.1681928166E+000  +2.3323257561E-003 +9.0991497991E+001  +2.3590653993E-003 +9.0502546449E+001  +1.0184993908E+000 +1.0785642666E-001 
316072070.414 +1.0242064167E+000 +8.7249622541E-001  +2.3652156376E-003 +9.0864684656E+001  +2.3941686967E-003 +9.0306629232E+001  +1.0243048723E+000 -2.1060308435E-001 
320072868.774 +1.0283133829E+000 +4.6564487103E-001  +2.4197366223E-003 +9.0625174171E+001  +2.4311979524E-003 +9.0069561287E+001  +1.0285138031E+000 -6.2121734232E-001 
324073667.133 +1.0310392382E+000 -1.3012099964E-003  +2.4709880716E-003 +9.0597959545E+001  +2.4751861573E-003 +8.9797193311E+001  +1.0308104226E+000 -1.0934251942E+000 
328074465.493 +1.0312856651E+000 -4.9754638775E-001  +2.5185198801E-003 +8.9806762728E+001  +2.5248262927E-003 +8.9371527663E+001  +1.0310474305E+000 -1.5927683538E+000 
332075263.853 +1.0287601250E+000 -9.9007669356E-001  +2.5601063432E-003 +8.9234241690E+001  +2.5525752015E-003 +8.8685526974E+001  +1.0284881962E+000 -2.1018063286E+000 
336076062.212 +1.0239062365E+000 -1.4270682010E+000  +2.5957985790E-003 +8.8461127986E+001  +2.5689006940E-003 +8.8230146681E+001  +1.0233500726E+000 -2.5409901059E+000 
340076860.572 +1.0168871017E+000 -1.7789432908E+000  +2.6057836636E-003 +8.8144438555E+001  +2.5627145241E-003 +8.7783362471E+001  +1.0163261870E+000 -2.9018303365E+000 
344077658.932 +1.0084508999E+000 -2.0106433204E+000  +2.6186433202E-003 +8.7653403491E+001  +2.5852935851E-003 +8.7433906710E+001  +1.0080515424E+000 -3.1247217092E+000 
348078457.291 +9.9963229740E-001 -2.0726387230E+000  +2.6152610173E-003 +8.7266840474E+001  +2.5914870462E-003 +8.7281917176E+001  +9.9910212355E-001 -3.1980389894E+000 
352079255.651 +9.9075056045E-001 -2.0060610904E+000  +2.6236742610E-003 +8.7329782535E+001  +2.5953959371E-003 +8.7476652190E+001  +9.9029616285E-001 -3.1343261412E+000 
356080054.011 +9.8291304837E-001 -1.8119545418E+000  +2.6203826003E-003 +8.7456055932E+001  +2.6138696806E-003 +8.7840803180E+001  +9.8243375027E-001 -2.9257227403E+000 
360080852.370 +9.7660956558E-001 -1.4953132989E+000  +2.6314748757E-003 +8.7905128968E+001  +2.6224046458E-003 +8.8052583852E+001  +9.7642276651E-001 -2.6258463605E+000 
364081650.730 +9.7188096437E-001 -1.0900650204E+000  +2.6490271297E-003 +8.8450582087E+001  +2.6380902168E-003 +8.8399889671E+001  +9.7181079214E-001 -2.2550572215E+000 
368082449.090 +9.6941329253E-001 -6.7157039201E-001  +2.6568118028E-003 +8.8750157720E+001  +2.6583596884E-003 +8.9008381861E+001  +9.6913153368E-001 -1.8225292569E+000 
372083247.449 +9.6836265972E-001 -2.1976491838E-001  +2.6758209163E-003 +8.8815860138E+001  +2.6947231275E-003 +8.9651002800E+001  +9.6836420375E-001 -1.4075835690E+000 
376084045.809 +9.6939497861E-001 +2.2004897954E-001  +2.7058709133E-003 +8.9455348899E+001  +2.7057617060E-003 +9.0259332128E+001  +9.6919376429E-001 -9.7373013877E-001 
380084844.169 +9.7194876840E-001 +6.3213201451E-001  +2.7464371121E-003 +8.9771777681E+001  +2.7560145573E-003 +9.0227598633E+001  +9.7215971111E-001 -5.7083197962E-001 
384085642.529 +9.7608104390E-001 +1.0020777000E+000  +2.7760594853E-003 +9.0019649483E+001  +2.7907309866E-003 +9.0542520978E+001  +9.7661091042E-001 -2.3531994027E-001 
388086440.888 +9.8151935452E-001 +1.3085182384E+000  +2.8134240868E-003 +9.0333293056E+001  +2.8290253661E-003 +9.0595118454E+001  +9.8201827560E-001 +4.7767621644E-002 
392087239.248 +9.8828312142E-001 +1.5435417447E+000  +2.8588009955E-003 +9.0652736134E+001  +2.8774947113E-003 +9.0892594207E+001  +9.8870198097E-001 +2.5840181303E-001 
396088037.608 +9.9579562017E-001 +1.6702536172E+000  +2.9106499771E-003 +9.0814927904E+001  +2.9251860153E-003 +9.1038148983E+001  +9.9648739150E-001 +3.6552332400E-001 
400088835.967 +1.0042192782E+000 +1.7007179029E+000  +2.9536701416E-003 +9.0968323354E+001  +2.9727206512E-003 +9.0783905749E+001  +1.0046320621E+000 +3.6237552522E-001 
404089634.327 +1.0124765051E+000 +1.6154158392E+000  +3.0096410975E-003 +9.1025416706E+001  +3.0309331728E-003 +9.0907780060E+001  +1.0130252987E+000 +2.5189567303E-001 
408090432.687 +1.0204603600E+000 +1.4023593636E+000  +3.0717804308E-003 +9.0813714756E+001  +3.0813800352E-003 +9.0458895369E+001  +1.0208695235E+000 +1.3892948731E-002 
412091231.046 +1.0276546631E+000 +1.0685498471E+000  +3.1295525325E-003 +9.0640091961E+001  +3.1393006393E-003 +9.0271681440E+001  +1.0278832995E+000 -3.3121226197E-001 
416092029.406 +1.0333205829E+000 +6.3078959721E-001  +3.1885597247E-003 +9.0218671754E+001  +3.1771959475E-003 +8.9876524468E+001  +1.0330578033E+000 -7.8914617275E-001 
420092827.766 +1.0364925017E+000 +9.2338407680E-002  +3.2326472576E-003 +8.9771666203E+001  +3.2178872243E-003 +8.9191375758E+001  +1.0361575309E+000 -1.3389699553E+000 
424093626.125 +1.0369570368E+000 -4.7751283656E-001  +3.2815652162E-003 +8.9044144214E+001  +3.2372414161E-003 +8.8692521559E+001  +1.0365828645E+000 -1.9159648946E+000 
428094424.485 +1.0345385653E+000 -1.0597744760E+000  +3.2948545241E-003 +8.8444251306E+001  +3.2605270864E-003 +8.7973743826E+001  +1.0340686515E+000 -2.4993122764E+000 
432095222.845 +1.0294730511E+000 -1.5815703528E+000  +3.3212349307E-003 +8.7901401460E+001  +3.2787998507E-003 +8.7429918324E+001  +1.0286879707E+000 -3.0226289588E+000 
436096021.204 +1.0217134932E+000 -2.0047659944E+000  +3.3233735810E-003 +8.7321202138E+001  +3.2755114772E-003 +8.7178062612E+001  +1.0207027225E+000 -3.4542845481E+000 
440096819.564 +1.0122120218E+000 -2.2897934545E+000  +3.3251031310E-003 +8.6892657724E+001  +3.2920650224E-003 +8.6807479509E+001  +1.0114062456E+000 -3.7334433556E+000 
444097617.924 +1.0019031216E+000 -2.4144944685E+000  +3.3192403463E-003 +8.6881958476E+001  +3.2805646810E-003 +8.6791232996E+001  +1.0010843744E+000 -3.8530879455E+000 
448098416.283 +9.9189594206E-001 -2.3670725542E+000  +3.2964963294E-003 +8.6840143465E+001  +3.2815755970E-003 +8.6985882774E+001  +9.9106364270E-001 -3.8129341355E+000 
452099214.643 +9.8270022304E-001 -2.1645555733E+000  +3.2925297971E-003 +8.7050621251E+001  +3.2888392062E-003 +8.7217326628E+001  +9.8193172884E-001 -3.6111093443E+000 
456100013.003 +9.7508663676E-001 -1.8441515174E+000  +3.3019374996E-003 +8.7347581614E+001  +3.2900321544E-003 +8.7645101324E+001  +9.7433862743E-001 -3.2909638541E+000 
