!  2-Port S-parameters saved by WinCal
! VAR MeasName=S-Parameters (CALIBRATED_DATA) read from VNA (P5004A)
! VAR MeasDate=24/04/2024 15:26:49
! VAR NAME=Wafer2_r1_c3_pristine 5
! VAR FILENAME=Wafer2_r1_c3_pristine 5.S2P
! VAR DATE=24/04/2024 15:26:50
! VAR PHYS_PORTS=1,2
! VAR ObjTypeName=DATASET
! VAR IndexType=Frequency
!
# Hz S MA R 50
9000.000 +7.9988978497E-001 +1.7295995050E+001  +8.3067099909E-005 +2.5054173476E+001  +5.3715982270E-005 +1.5594931131E+002  +7.9906355371E-001 +1.7284015764E+001 
4009798.360 +9.8738871659E-001 -3.1409052517E+000  +1.8845581896E-003 +8.6138113361E+001  +1.9037275380E-003 +8.6111541267E+001  +9.8706155168E-001 -3.0644747460E+000 
8010596.719 +9.7586829246E-001 -6.3298775116E-001  +3.7151395770E-003 +8.8653514908E+001  +3.7560301361E-003 +8.8419071405E+001  +9.7660610929E-001 -6.0771678561E-001 
12011395.079 +9.8341992892E-001 -1.5009321469E-002  +5.5956519329E-003 +8.9200444519E+001  +5.6427148036E-003 +8.8762394011E+001  +9.8379809108E-001 -5.4395848816E-003 
16012193.439 +9.8963693873E-001 +1.7299685129E-001  +7.4805612803E-003 +8.9321906357E+001  +7.5208336940E-003 +8.8802335663E+001  +9.8973938044E-001 +1.6561554874E-001 
20012991.798 +9.9470082794E-001 +1.9296660973E-001  +9.3726694645E-003 +8.9339247893E+001  +9.3984704650E-003 +8.8721358480E+001  +9.9480286457E-001 +1.9079435418E-001 
24013790.158 +9.9956106204E-001 +1.1846109466E-001  +1.1306946511E-002 +8.9339224606E+001  +1.1296840944E-002 +8.8671073815E+001  +9.9954876099E-001 +1.1783645258E-001 
28014588.518 +1.0036782939E+000 -3.7110229364E-002  +1.3252969684E-002 +8.9185218134E+001  +1.3186606147E-002 +8.8620030339E+001  +1.0035160844E+000 -2.8673063714E-002 
32015386.877 +1.0079882697E+000 -2.4366447029E-001  +1.5193545359E-002 +8.8931431741E+001  +1.5133254686E-002 +8.8395439116E+001  +1.0078119234E+000 -2.2322609974E-001 
36016185.237 +1.0108455671E+000 -5.0870040304E-001  +1.7276006685E-002 +8.8645808830E+001  +1.7265824860E-002 +8.7751626037E+001  +1.0109127428E+000 -5.0372067869E-001 
40016983.597 +1.0127320183E+000 -8.3396718891E-001  +1.9196392539E-002 +8.8125031257E+001  +1.9130707715E-002 +8.7736379683E+001  +1.0129491948E+000 -8.2634177311E-001 
44017781.956 +1.0140027253E+000 -1.2022016426E+000  +2.1142112744E-002 +8.7357098902E+001  +2.0969859384E-002 +8.7284312495E+001  +1.0141412587E+000 -1.1669677592E+000 
48018580.316 +1.0143158003E+000 -1.5639552247E+000  +2.2976275692E-002 +8.7323235607E+001  +2.2875056301E-002 +8.7052000267E+001  +1.0148091506E+000 -1.5308007155E+000 
52019378.676 +1.0130641988E+000 -1.9537913355E+000  +2.4935230052E-002 +8.6766120651E+001  +2.4634340622E-002 +8.6752903726E+001  +1.0126363514E+000 -1.9111962285E+000 
56020177.035 +1.0103087506E+000 -2.2862292284E+000  +2.6821698660E-002 +8.6183679137E+001  +2.6437364382E-002 +8.6313200283E+001  +1.0105087663E+000 -2.2435595777E+000 
60020975.395 +1.0064918690E+000 -2.6066033372E+000  +2.8463158970E-002 +8.5773893052E+001  +2.8223873728E-002 +8.6376370016E+001  +1.0065629503E+000 -2.5449468510E+000 
64021773.755 +1.0015916262E+000 -2.8047064431E+000  +3.0161083200E-002 +8.5505557880E+001  +2.9899344768E-002 +8.6134932228E+001  +1.0015575811E+000 -2.7588631159E+000 
68022572.114 +9.9650925708E-001 -2.9418603381E+000  +3.1783392895E-002 +8.5324284891E+001  +3.1612063676E-002 +8.6036292608E+001  +9.9645819309E-001 -2.9000553615E+000 
72023370.474 +9.9184340841E-001 -2.9832459544E+000  +3.3382136521E-002 +8.5395957017E+001  +3.3337127757E-002 +8.5905376709E+001  +9.9195382549E-001 -2.9389920016E+000 
76024168.834 +9.8755432188E-001 -2.9463117261E+000  +3.5108515229E-002 +8.5445460990E+001  +3.5015640427E-002 +8.5857658009E+001  +9.8777352088E-001 -2.9066068907E+000 
80024967.193 +9.8410179770E-001 -2.8377638078E+000  +3.6791143916E-002 +8.5422294857E+001  +3.6866106713E-002 +8.6120962912E+001  +9.8445346921E-001 -2.8073187757E+000 
84025765.553 +9.8232716136E-001 -2.7297491158E+000  +3.8457822360E-002 +8.5710823149E+001  +3.8637182904E-002 +8.6217415963E+001  +9.8235430753E-001 -2.6994276945E+000 
88026563.913 +9.8143049193E-001 -2.5510673994E+000  +4.0200270900E-002 +8.5824568549E+001  +4.0476230615E-002 +8.6139232378E+001  +9.8158863137E-001 -2.5388057709E+000 
92027362.272 +9.8194109754E-001 -2.4247211615E+000  +4.1934341781E-002 +8.5917270768E+001  +4.2342371047E-002 +8.6271039535E+001  +9.8182029334E-001 -2.4103776616E+000 
96028160.632 +9.8264524887E-001 -2.2897886956E+000  +4.3800730330E-002 +8.6229273379E+001  +4.4241325630E-002 +8.6261812329E+001  +9.8262036013E-001 -2.2751076102E+000 
100028958.992 +9.8563014905E-001 -2.1929843519E+000  +4.5685868803E-002 +8.6346790731E+001  +4.6143130680E-002 +8.6247314784E+001  +9.8529072793E-001 -2.1887800600E+000 
104029757.351 +9.8865217420E-001 -2.1410996721E+000  +4.7666809283E-002 +8.6419968562E+001  +4.8095078051E-002 +8.6329970843E+001  +9.8845910157E-001 -2.1155196472E+000 
108030555.711 +9.9249911270E-001 -2.1130893583E+000  +4.9629887962E-002 +8.6534292126E+001  +5.0024990918E-002 +8.6108878493E+001  +9.9217006983E-001 -2.1136802400E+000 
112031354.071 +9.9678054270E-001 -2.1810033183E+000  +5.1716786056E-002 +8.6482859220E+001  +5.2085783114E-002 +8.6063461181E+001  +9.9651765930E-001 -2.1626224281E+000 
116032152.430 +1.0015926494E+000 -2.2953129908E+000  +5.3822500652E-002 +8.6416843077E+001  +5.4050324522E-002 +8.5901559543E+001  +1.0009074283E+000 -2.2844782196E+000 
120032950.790 +1.0062097227E+000 -2.4944311257E+000  +5.5963143138E-002 +8.6285534025E+001  +5.6045986712E-002 +8.5674016992E+001  +1.0056464640E+000 -2.4526522084E+000 
124033749.150 +1.0105976890E+000 -2.7613931668E+000  +5.8170377336E-002 +8.6017796101E+001  +5.8110719914E-002 +8.5436814036E+001  +1.0098999791E+000 -2.7253577336E+000 
128034547.510 +1.0141756968E+000 -3.1090844219E+000  +6.0358313996E-002 +8.5688686269E+001  +6.0131749881E-002 +8.5157756791E+001  +1.0133795828E+000 -3.0461318109E+000 
132035345.869 +1.0162020219E+000 -3.5145535044E+000  +6.2425754962E-002 +8.5254166234E+001  +6.1973143038E-002 +8.4753517815E+001  +1.0156704301E+000 -3.4596117413E+000 
136036144.229 +1.0171172352E+000 -3.9744822265E+000  +6.4378830868E-002 +8.4752557930E+001  +6.3966228297E-002 +8.4327486860E+001  +1.0166674961E+000 -3.8976915769E+000 
140036942.589 +1.0157805331E+000 -4.4430215113E+000  +6.6348260980E-002 +8.4177569770E+001  +6.5654981729E-002 +8.3898465040E+001  +1.0157160808E+000 -4.3406269201E+000 
144037740.948 +1.0131075572E+000 -4.8681224873E+000  +6.7988913752E-002 +8.3596687868E+001  +6.7308140235E-002 +8.3468580730E+001  +1.0132051662E+000 -4.7547891974E+000 
148038539.308 +1.0085672874E+000 -5.2397992826E+000  +6.9540399028E-002 +8.3180919104E+001  +6.8765248979E-002 +8.3160241236E+001  +1.0087761290E+000 -5.1342441306E+000 
152039337.668 +1.0028853754E+000 -5.5636458333E+000  +7.0939857651E-002 +8.2722322103E+001  +7.0239686122E-002 +8.2891296536E+001  +1.0029424776E+000 -5.4493672135E+000 
156040136.027 +9.9628111264E-001 -5.7535945916E+000  +7.2210047757E-002 +8.2452445646E+001  +7.1606759750E-002 +8.2759926946E+001  +9.9681373314E-001 -5.6477380887E+000 
160040934.387 +9.8980289320E-001 -5.8258661794E+000  +7.3400898619E-002 +8.2426563825E+001  +7.2965360722E-002 +8.2786742110E+001  +9.9033253143E-001 -5.7214508580E+000 
164041732.747 +9.8387185256E-001 -5.7987406134E+000  +7.4756299650E-002 +8.2332307114E+001  +7.4362208653E-002 +8.2846240059E+001  +9.8454936527E-001 -5.7151121519E+000 
168042531.106 +9.7902136283E-001 -5.7080147332E+000  +7.6092535785E-002 +8.2452743797E+001  +7.5845229621E-002 +8.3024153828E+001  +9.7964823312E-001 -5.6121920142E+000 
172043329.466 +9.7545613462E-001 -5.5384769630E+000  +7.7505872738E-002 +8.2650889338E+001  +7.7538099026E-002 +8.3187985534E+001  +9.7603827011E-001 -5.4579928849E+000 
176044127.826 +9.7295614397E-001 -5.3222406935E+000  +7.9126982253E-002 +8.2817584237E+001  +7.9219204434E-002 +8.3391249903E+001  +9.7378328588E-001 -5.2713459594E+000 
180044926.185 +9.7236174183E-001 -5.1263167857E+000  +8.0743488370E-002 +8.3039429535E+001  +8.1102144417E-002 +8.3537959226E+001  +9.7306190918E-001 -5.0668531204E+000 
184045724.545 +9.7298260192E-001 -4.9054668189E+000  +8.2448472253E-002 +8.3291231626E+001  +8.3047475904E-002 +8.3701796072E+001  +9.7365765100E-001 -4.8684511330E+000 
188046522.905 +9.7493136072E-001 -4.7309348559E+000  +8.4340136237E-002 +8.3477359443E+001  +8.5110624873E-002 +8.3776725807E+001  +9.7527389321E-001 -4.6942446514E+000 
192047321.264 +9.7786763591E-001 -4.5781820524E+000  +8.6308519759E-002 +8.3644607492E+001  +8.7218740700E-002 +8.3784536452E+001  +9.7822433708E-001 -4.5517037359E+000 
196048119.624 +9.8176907412E-001 -4.4784074457E+000  +8.8349835221E-002 +8.3758148018E+001  +8.9243587500E-002 +8.3745522264E+001  +9.8166315032E-001 -4.4610568268E+000 
200048917.984 +9.8655984503E-001 -4.4429968075E+000  +9.0574179353E-002 +8.3836159621E+001  +9.1439790980E-002 +8.3686368348E+001  +9.8639667695E-001 -4.4232311090E+000 
204049716.343 +9.9173339076E-001 -4.4796898769E+000  +9.2859235004E-002 +8.3865861048E+001  +9.3620481146E-002 +8.3603482637E+001  +9.9116786640E-001 -4.4466178381E+000 
208050514.703 +9.9768901567E-001 -4.6009625246E+000  +9.5134369672E-002 +8.3876324739E+001  +9.5811160918E-002 +8.3411327363E+001  +9.9646026157E-001 -4.5602950630E+000 
212051313.063 +1.0029795899E+000 -4.7925007535E+000  +9.7658505863E-002 +8.3721068394E+001  +9.8014983893E-002 +8.3207019852E+001  +1.0022217255E+000 -4.7514829119E+000 
216052111.422 +1.0081792786E+000 -5.1070963042E+000  +9.9989933018E-002 +8.3465499318E+001  +1.0026934531E-001 +8.2875053356E+001  +1.0073402187E+000 -5.0283716867E+000 
220052909.782 +1.0126316482E+000 -5.4684267024E+000  +1.0248489353E-001 +8.3087712605E+001  +1.0247382258E-001 +8.2554293838E+001  +1.0115375607E+000 -5.3791237657E+000 
224053708.142 +1.0157937199E+000 -5.9156474367E+000  +1.0488040496E-001 +8.2692947326E+001  +1.0454572399E-001 +8.2151102747E+001  +1.0146240006E+000 -5.8202335739E+000 
228054506.501 +1.0171715731E+000 -6.4320525716E+000  +1.0705614118E-001 +8.2110012209E+001  +1.0651911756E-001 +8.1649246158E+001  +1.0162032902E+000 -6.3088767627E+000 
232055304.861 +1.0162017477E+000 -6.9600475129E+000  +1.0898078692E-001 +8.1541842163E+001  +1.0816360469E-001 +8.1122734150E+001  +1.0156573086E+000 -6.8180655836E+000 
236056103.221 +1.0134785678E+000 -7.4863784204E+000  +1.1063355804E-001 +8.0898228756E+001  +1.0961198747E-001 +8.0598705750E+001  +1.0130488095E+000 -7.3247251722E+000 
240056901.580 +1.0084461663E+000 -7.9646737582E+000  +1.1199031785E-001 +8.0292319291E+001  +1.1082297605E-001 +8.0150715608E+001  +1.0082761156E+000 -7.7890121060E+000 
244057699.940 +1.0018721642E+000 -8.3358297359E+000  +1.1310854910E-001 +7.9847524170E+001  +1.1190141063E-001 +7.9816633204E+001  +1.0021770446E+000 -8.1622828018E+000 
248058498.300 +9.9425146058E-001 -8.5918480727E+000  +1.1392330967E-001 +7.9514022543E+001  +1.1279075708E-001 +7.9626207670E+001  +9.9479279093E-001 -8.4012298410E+000 
252059296.659 +9.8598522798E-001 -8.7113506347E+000  +1.1463089642E-001 +7.9334842141E+001  +1.1361294613E-001 +7.9605163826E+001  +9.8695933379E-001 -8.5338744384E+000 
256060095.019 +9.7856488945E-001 -8.7225313728E+000  +1.1541728935E-001 +7.9263836817E+001  +1.1459235002E-001 +7.9696968710E+001  +9.7949231666E-001 -8.5480131341E+000 
260060893.379 +9.7174552571E-001 -8.6053518110E+000  +1.1626380032E-001 +7.9356216826E+001  +1.1560231755E-001 +7.9888349292E+001  +9.7300420995E-001 -8.4589744361E+000 
264061691.738 +9.6678746427E-001 -8.4010960981E+000  +1.1735770580E-001 +7.9593354349E+001  +1.1701110796E-001 +8.0120188540E+001  +9.6792572161E-001 -8.2690281193E+000 
268062490.098 +9.6316860598E-001 -8.1579029639E+000  +1.1867054568E-001 +7.9847469649E+001  +1.1850754720E-001 +8.0408918163E+001  +9.6449399890E-001 -8.0342651257E+000 
272063288.458 +9.6160521698E-001 -7.8666245002E+000  +1.2005166174E-001 +8.0092806435E+001  +1.2030293268E-001 +8.0679330844E+001  +9.6257118770E-001 -7.7593262160E+000 
276064086.817 +9.6162569217E-001 -7.5714492042E+000  +1.2172965960E-001 +8.0387187645E+001  +1.2221520894E-001 +8.0878410673E+001  +9.6240555740E-001 -7.4978925330E+000 
280064885.177 +9.6302662306E-001 -7.2903635576E+000  +1.2361733263E-001 +8.0638438672E+001  +1.2433782955E-001 +8.1075176983E+001  +9.6401845788E-001 -7.2419835687E+000 
284065683.537 +9.6585005540E-001 -7.0726456923E+000  +1.2550693173E-001 +8.0868042528E+001  +1.2653837692E-001 +8.1160354021E+001  +9.6642474539E-001 -7.0286081355E+000 
288066481.896 +9.7025336178E-001 -6.8896543799E+000  +1.2773899643E-001 +8.1060089940E+001  +1.2890675480E-001 +8.1247135843E+001  +9.7037630677E-001 -6.8491304897E+000 
292067280.256 +9.7538458463E-001 -6.7905829760E+000  +1.3001105698E-001 +8.1185365466E+001  +1.3129217709E-001 +8.1208902336E+001  +9.7511384932E-001 -6.7527330122E+000 
296068078.616 +9.8129125246E-001 -6.7533149677E+000  +1.3243638805E-001 +8.1312830064E+001  +1.3374541111E-001 +8.1113818832E+001  +9.8088311867E-001 -6.7278393141E+000 
300068876.975 +9.8778412886E-001 -6.8218706614E+000  +1.3505382041E-001 +8.1277668321E+001  +1.3621882020E-001 +8.0996420268E+001  +9.8725022175E-001 -6.7735013799E+000 
304069675.335 +9.9439428266E-001 -6.9714194783E+000  +1.3772041841E-001 +8.1198765765E+001  +1.3870035675E-001 +8.0828247296E+001  +9.9360415139E-001 -6.9217948675E+000 
308070473.695 +1.0009181462E+000 -7.2469738862E+000  +1.4063919800E-001 +8.1032239999E+001  +1.4130302993E-001 +8.0552218300E+001  +9.9975777777E-001 -7.1727449447E+000 
312071272.054 +1.0064308957E+000 -7.6104087973E+000  +1.4337767369E-001 +8.0706537061E+001  +1.4377201190E-001 +8.0215422138E+001  +1.0051916329E+000 -7.5164733171E+000 
316072070.414 +1.0111804877E+000 -8.0775545184E+000  +1.4625192115E-001 +8.0243077482E+001  +1.4620284127E-001 +7.9758477234E+001  +1.0095959926E+000 -7.9703061149E+000 
320072868.774 +1.0136345566E+000 -8.6137171838E+000  +1.4869398714E-001 +7.9748589458E+001  +1.4837486641E-001 +7.9275275804E+001  +1.0124711285E+000 -8.4783245548E+000 
324073667.133 +1.0147448426E+000 -9.2059247313E+000  +1.5086055969E-001 +7.9111278865E+001  +1.5030233885E-001 +7.8671895603E+001  +1.0134168863E+000 -9.0378196968E+000 
328074465.493 +1.0129665803E+000 -9.7973230530E+000  +1.5264627114E-001 +7.8448041920E+001  +1.5174534080E-001 +7.8070796235E+001  +1.0120776884E+000 -9.6000577180E+000 
332075263.853 +1.0090306289E+000 -1.0370499680E+001  +1.5402110013E-001 +7.7801110774E+001  +1.5297555224E-001 +7.7516875982E+001  +1.0081602416E+000 -1.0154116831E+001 
336076062.212 +1.0027554719E+000 -1.0868554525E+001  +1.5493851700E-001 +7.7211891429E+001  +1.5374112124E-001 +7.7020087889E+001  +1.0022562697E+000 -1.0639615586E+001 
340076860.572 +9.9462589024E-001 -1.1260701763E+001  +1.5536825106E-001 +7.6751717776E+001  +1.5414595480E-001 +7.6677215121E+001  +9.9476833407E-001 -1.1025432168E+001 
344077658.932 +9.8552185785E-001 -1.1510595368E+001  +1.5570030486E-001 +7.6454940319E+001  +1.5434187914E-001 +7.6459896811E+001  +9.8614328776E-001 -1.1277842890E+001 
348078457.291 +9.7622135594E-001 -1.1603537133E+001  +1.5580623024E-001 +7.6293238503E+001  +1.5460711569E-001 +7.6451455352E+001  +9.7714492170E-001 -1.1376309466E+001 
352079255.651 +9.6734362958E-001 -1.1549148492E+001  +1.5615981129E-001 +7.6301139575E+001  +1.5500988657E-001 +7.6574250537E+001  +9.6870183952E-001 -1.1343854020E+001 
356080054.011 +9.5999219815E-001 -1.1384080225E+001  +1.5653264920E-001 +7.6497061355E+001  +1.5563788498E-001 +7.6850116067E+001  +9.6150465249E-001 -1.1176895175E+001 
360080852.370 +9.5441751340E-001 -1.1115938073E+001  +1.5735081308E-001 +7.6761462271E+001  +1.5672573017E-001 +7.7169584277E+001  +9.5586835577E-001 -1.0928873383E+001 
364081650.730 +9.5069400422E-001 -1.0771404755E+001  +1.5833979649E-001 +7.7075599249E+001  +1.5802131151E-001 +7.7511522672E+001  +9.5232008782E-001 -1.0617338475E+001 
368082449.090 +9.4895610268E-001 -1.0417877169E+001  +1.5970878556E-001 +7.7421533615E+001  +1.5971361296E-001 +7.7861719242E+001  +9.5029051686E-001 -1.0262765015E+001 
372083247.449 +9.4893476915E-001 -1.0058949892E+001  +1.6122512405E-001 +7.7709688019E+001  +1.6162444960E-001 +7.8145059607E+001  +9.5051877186E-001 -9.9345526375E+000 
376084045.809 +9.5118257005E-001 -9.7294178398E+000  +1.6322136223E-001 +7.8019192165E+001  +1.6390984400E-001 +7.8405539921E+001  +9.5217397650E-001 -9.6142391147E+000 
380084844.169 +9.5443293804E-001 -9.4348406902E+000  +1.6529156827E-001 +7.8295930582E+001  +1.6638553723E-001 +7.8604273318E+001  +9.5545494161E-001 -9.3569072493E+000 
384085642.529 +9.5937804317E-001 -9.2298074950E+000  +1.6781581066E-001 +7.8481491466E+001  +1.6889919892E-001 +7.8700628661E+001  +9.6021330837E-001 -9.1471525168E+000 
388086440.888 +9.6549902341E-001 -9.0989186411E+000  +1.7053097165E-001 +7.8620653172E+001  +1.7165895788E-001 +7.8706838331E+001  +9.6570231682E-001 -9.0301824522E+000 
392087239.248 +9.7240597686E-001 -9.0599116027E+000  +1.7332585490E-001 +7.8707576180E+001  +1.7451805160E-001 +7.8643943386E+001  +9.7238236640E-001 -8.9921207460E+000 
396088037.608 +9.7959700139E-001 -9.1317202439E+000  +1.7629926931E-001 +7.8714937703E+001  +1.7748271797E-001 +7.8554889160E+001  +9.7945381699E-001 -9.0527780413E+000 
400088835.967 +9.8765946091E-001 -9.3031665019E+000  +1.7943739574E-001 +7.8587671157E+001  +1.8042023303E-001 +7.8363622261E+001  +9.8660894314E-001 -9.2287871136E+000 
404089634.327 +9.9485918974E-001 -9.6030629157E+000  +1.8269986623E-001 +7.8399416801E+001  +1.8345269333E-001 +7.8070211756E+001  +9.9358752376E-001 -9.5041124677E+000 
408090432.687 +1.0012476394E+000 -9.9955658571E+000  +1.8571932470E-001 +7.8081387454E+001  +1.8633141308E-001 +7.7664108569E+001  +9.9981271435E-001 -9.8921415587E+000 
412091231.046 +1.0065349157E+000 -1.0501838691E+001  +1.8883992722E-001 +7.7594639122E+001  +1.8910116701E-001 +7.7164817655E+001  +1.0048550776E+000 -1.0361551726E+001 
416092029.406 +1.0095940575E+000 -1.1104995772E+001  +1.9147773921E-001 +7.6985604636E+001  +1.9143966571E-001 +7.6583997005E+001  +1.0080088615E+000 -1.0940536951E+001 
420092827.766 +1.0105268036E+000 -1.1761926719E+001  +1.9379033444E-001 +7.6318631057E+001  +1.9341858844E-001 +7.5918721411E+001  +1.0088908630E+000 -1.1568306236E+001 
424093626.125 +1.0085121428E+000 -1.2432481147E+001  +1.9546943013E-001 +7.5596738005E+001  +1.9476869513E-001 +7.5280763458E+001  +1.0073490301E+000 -1.2197261399E+001 
428094424.485 +1.0036618327E+000 -1.3070583975E+001  +1.9660532377E-001 +7.4882869371E+001  +1.9559378406E-001 +7.4610027044E+001  +1.0030783084E+000 -1.2827070206E+001 
432095222.845 +9.9682281210E-001 -1.3622752271E+001  +1.9701325939E-001 +7.4237087833E+001  +1.9584559770E-001 +7.4070102869E+001  +9.9624473676E-001 -1.3355067903E+001 
436096021.204 +9.8772880427E-001 -1.4052083262E+001  +1.9699438554E-001 +7.3755983648E+001  +1.9565997314E-001 +7.3649715708E+001  +9.8755312332E-001 -1.3778534495E+001 
440096819.564 +9.7735670210E-001 -1.4331617461E+001  +1.9651232647E-001 +7.3428540883E+001  +1.9496131453E-001 +7.3418492759E+001  +9.7786678526E-001 -1.4046113057E+001 
444097617.924 +9.6682876931E-001 -1.4423575002E+001  +1.9601447882E-001 +7.3289528365E+001  +1.9471204715E-001 +7.3385910633E+001  +9.6769388612E-001 -1.4156115400E+001 
448098416.283 +9.5720675430E-001 -1.4364351514E+001  +1.9532056857E-001 +7.3370578934E+001  +1.9453204323E-001 +7.3515408876E+001  +9.5824503384E-001 -1.4113581627E+001 
452099214.643 +9.4879076536E-001 -1.4154421562E+001  +1.9523839186E-001 +7.3597798353E+001  +1.9460636017E-001 +7.3801151632E+001  +9.5006555084E-001 -1.3932651650E+001 
456100013.003 +9.4204894732E-001 -1.3851156334E+001  +1.9546184251E-001 +7.3894871392E+001  +1.9513422498E-001 +7.4165265656E+001  +9.4335439037E-001 -1.3639204080E+001 
