!  2-Port S-parameters saved by WinCal
! VAR MeasName=S-Parameters (CALIBRATED_DATA) read from VNA (P5004A)
! VAR MeasDate=24/04/2024 17:10:01
! VAR NAME=Wafer2_r1_c1_HRS
! VAR FILENAME=Wafer2_r1_c1_HRS.S2P
! VAR DATE=24/04/2024 17:10:01
! VAR PHYS_PORTS=1,2
! VAR ObjTypeName=DATASET
! VAR IndexType=Frequency
!
# Hz S MA R 50
9000.000 +7.9999474253E-001 +1.7307438985E+001  +6.8772138196E-005 +1.7843922865E+002  +1.6143274951E-005 -8.7438105511E+001  +7.9892094080E-001 +1.7293183902E+001 
4009798.360 +9.8726633946E-001 -3.1470821835E+000  +1.9182118681E-003 +8.6156979050E+001  +1.9333233374E-003 +8.6103524340E+001  +9.8693961002E-001 -3.0554699007E+000 
8010596.719 +9.7587373921E-001 -6.3278998256E-001  +3.7602973712E-003 +8.8409883520E+001  +3.8066477244E-003 +8.8412969060E+001  +9.7662925608E-001 -6.0584022185E-001 
12011395.079 +9.8338664727E-001 -8.7592427399E-003  +5.6815351195E-003 +8.9132716621E+001  +5.7256727799E-003 +8.8743479821E+001  +9.8375731829E-001 -2.8609340675E-003 
16012193.439 +9.8941453690E-001 +1.7609389774E-001  +7.5936497550E-003 +8.9358946991E+001  +7.6310155196E-003 +8.8766574725E+001  +9.8975728459E-001 +1.6843329660E-001 
20012991.798 +9.9459921086E-001 +2.0305896500E-001  +9.5325434013E-003 +8.9325832683E+001  +9.5503813287E-003 +8.8752681854E+001  +9.9471065703E-001 +1.9286857129E-001 
24013790.158 +9.9931926467E-001 +1.3000136733E-001  +1.1486803536E-002 +8.9284989180E+001  +1.1474567094E-002 +8.8632790937E+001  +9.9942673218E-001 +1.2062891078E-001 
28014588.518 +1.0032702179E+000 -4.4831897745E-002  +1.3453316793E-002 +8.9162571976E+001  +1.3395098398E-002 +8.8562201964E+001  +1.0034027410E+000 -3.1358271453E-002 
32015386.877 +1.0074625397E+000 -2.4350009863E-001  +1.5557177673E-002 +8.9010635730E+001  +1.5366375473E-002 +8.8400483353E+001  +1.0076264164E+000 -2.2644972377E-001 
36016185.237 +1.0105377522E+000 -5.1847544317E-001  +1.7602251184E-002 +8.8350985848E+001  +1.7312113304E-002 +8.8130899643E+001  +1.0106501049E+000 -5.0211803554E-001 
40016983.597 +1.0126976701E+000 -8.4451051406E-001  +1.9511866327E-002 +8.8111203518E+001  +1.9438307850E-002 +8.7555952897E+001  +1.0126306196E+000 -8.3326988735E-001 
44017781.956 +1.0138691394E+000 -1.2158180489E+000  +2.1543791262E-002 +8.7486367117E+001  +2.1268860663E-002 +8.7193808598E+001  +1.0136496200E+000 -1.1839465322E+000 
48018580.316 +1.0142709338E+000 -1.5815649123E+000  +2.3480496866E-002 +8.7028035296E+001  +2.3218010968E-002 +8.7039806041E+001  +1.0142736068E+000 -1.5503720353E+000 
52019378.676 +1.0126360568E+000 -1.9751542831E+000  +2.5338827203E-002 +8.6594362103E+001  +2.5055477667E-002 +8.6682141848E+001  +1.0125747850E+000 -1.9350813632E+000 
56020177.035 +1.0098162150E+000 -2.3054103081E+000  +2.7085803599E-002 +8.6169801808E+001  +2.6787870492E-002 +8.6361150339E+001  +1.0100936398E+000 -2.2666446174E+000 
60020975.395 +1.0064423776E+000 -2.6341046044E+000  +2.8829838570E-002 +8.5750231733E+001  +2.8662382320E-002 +8.6003100102E+001  +1.0063617091E+000 -2.5840110117E+000 
64021773.755 +1.0013915796E+000 -2.8463404268E+000  +3.0705769908E-002 +8.5534649053E+001  +3.0411781314E-002 +8.5861507926E+001  +1.0015175816E+000 -2.7958579146E+000 
68022572.114 +9.9609749910E-001 -2.9772501188E+000  +3.2215873266E-002 +8.5271290073E+001  +3.2101549601E-002 +8.5888221679E+001  +9.9626948517E-001 -2.9368866410E+000 
72023370.474 +9.9147584194E-001 -3.0297168678E+000  +3.3991508306E-002 +8.5301243120E+001  +3.3979552206E-002 +8.5830983191E+001  +9.9177030188E-001 -2.9857021572E+000 
76024168.834 +9.8718855634E-001 -2.9862606705E+000  +3.5615208914E-002 +8.5232970251E+001  +3.5634379518E-002 +8.5895926682E+001  +9.8753827016E-001 -2.9428146564E+000 
80024967.193 +9.8415538283E-001 -2.8843364746E+000  +3.7345992366E-002 +8.5527927806E+001  +3.7405051145E-002 +8.5972285007E+001  +9.8429942279E-001 -2.8571474175E+000 
84025765.553 +9.8220619280E-001 -2.7761372034E+000  +3.9093245266E-002 +8.5580354548E+001  +3.9221879614E-002 +8.6166660081E+001  +9.8205722156E-001 -2.7486175818E+000 
88026563.913 +9.8122606898E-001 -2.5930068021E+000  +4.0728081396E-002 +8.5854619368E+001  +4.1137498296E-002 +8.6193566225E+001  +9.8127827115E-001 -2.5979185684E+000 
92027362.272 +9.8188326019E-001 -2.4630188269E+000  +4.2606127417E-002 +8.5967149488E+001  +4.3065491182E-002 +8.6291356331E+001  +9.8167857709E-001 -2.4588998315E+000 
96028160.632 +9.8256976144E-001 -2.3301066343E+000  +4.4497011409E-002 +8.6142814929E+001  +4.4976014665E-002 +8.6265600389E+001  +9.8262479300E-001 -2.3170348958E+000 
100028958.992 +9.8562129088E-001 -2.2362473332E+000  +4.6452682928E-002 +8.6264298225E+001  +4.6924915885E-002 +8.6190827622E+001  +9.8523426900E-001 -2.2363179691E+000 
104029757.351 +9.8865017350E-001 -2.1705265407E+000  +4.8418226907E-002 +8.6423888087E+001  +4.8888465849E-002 +8.6235913172E+001  +9.8832967004E-001 -2.1594315698E+000 
108030555.711 +9.9243879867E-001 -2.1564871821E+000  +5.0497657386E-002 +8.6457182141E+001  +5.0895607399E-002 +8.6103407015E+001  +9.9191588901E-001 -2.1450421178E+000 
112031354.071 +9.9676339524E-001 -2.2176543319E+000  +5.2570041236E-002 +8.6396455170E+001  +5.2814133304E-002 +8.5984212026E+001  +9.9641588568E-001 -2.2056756498E+000 
116032152.430 +1.0014402743E+000 -2.3356276630E+000  +5.4724981898E-002 +8.6339823481E+001  +5.4963534118E-002 +8.5794028032E+001  +1.0007382142E+000 -2.3179904203E+000 
120032950.790 +1.0059882561E+000 -2.5252791195E+000  +5.6881752097E-002 +8.6213697863E+001  +5.7068982587E-002 +8.5594227898E+001  +1.0052707419E+000 -2.5000014447E+000 
124033749.150 +1.0104359311E+000 -2.8089214400E+000  +5.9144156450E-002 +8.5931949994E+001  +5.9051003781E-002 +8.5394779557E+001  +1.0096306962E+000 -2.7701830469E+000 
128034547.510 +1.0137511536E+000 -3.1536003350E+000  +6.1312903532E-002 +8.5653837563E+001  +6.1157357101E-002 +8.5071380240E+001  +1.0130052711E+000 -3.0951560077E+000 
132035345.869 +1.0159299581E+000 -3.5661653731E+000  +6.3390842017E-002 +8.5183897192E+001  +6.3056936563E-002 +8.4695286083E+001  +1.0154294221E+000 -3.5043509380E+000 
136036144.229 +1.0165318445E+000 -4.0189422916E+000  +6.5499745336E-002 +8.4667231741E+001  +6.4974299320E-002 +8.4237437475E+001  +1.0162687984E+000 -3.9394119610E+000 
140036942.589 +1.0155243605E+000 -4.4987179733E+000  +6.7294920520E-002 +8.4192470759E+001  +6.6745257245E-002 +8.3803210771E+001  +1.0153330860E+000 -4.3960398767E+000 
144037740.948 +1.0127360417E+000 -4.9311935880E+000  +6.9163049973E-002 +8.3512958792E+001  +6.8435820138E-002 +8.3398634967E+001  +1.0126463141E+000 -4.8273993712E+000 
148038539.308 +1.0081457400E+000 -5.3151939801E+000  +7.0732363919E-002 +8.3038893579E+001  +6.9964756226E-002 +8.3071598695E+001  +1.0084893849E+000 -5.2037250374E+000 
152039337.668 +1.0024763872E+000 -5.6428689319E+000  +7.2082476354E-002 +8.2685054395E+001  +7.1455321358E-002 +8.2787837653E+001  +1.0025916005E+000 -5.5227936621E+000 
156040136.027 +9.9574180910E-001 -5.8327833111E+000  +7.3430203485E-002 +8.2394215399E+001  +7.2808577368E-002 +8.2668887581E+001  +9.9621819656E-001 -5.7215938463E+000 
160040934.387 +9.8928082729E-001 -5.9131425193E+000  +7.4691590540E-002 +8.2286330504E+001  +7.4141096124E-002 +8.2641836075E+001  +9.8992706343E-001 -5.8019063735E+000 
164041732.747 +9.8357974445E-001 -5.8806862643E+000  +7.5928728208E-002 +8.2310608892E+001  +7.5567219700E-002 +8.2737161643E+001  +9.8411698146E-001 -5.7939828760E+000 
168042531.106 +9.7853485074E-001 -5.7948757369E+000  +7.7309261240E-002 +8.2344446140E+001  +7.7102017209E-002 +8.2921086359E+001  +9.7927375780E-001 -5.6958519432E+000 
172043329.466 +9.7494884411E-001 -5.6205765404E+000  +7.8841989915E-002 +8.2501520776E+001  +7.8696961901E-002 +8.3107063031E+001  +9.7582911875E-001 -5.5492874839E+000 
176044127.826 +9.7276225009E-001 -5.4109407147E+000  +8.0378581853E-002 +8.2773090614E+001  +8.0499709136E-002 +8.3326987844E+001  +9.7368147431E-001 -5.3535546376E+000 
180044926.185 +9.7212699440E-001 -5.2076619103E+000  +8.1981644015E-002 +8.2983296639E+001  +8.2373599421E-002 +8.3494425826E+001  +9.7284768032E-001 -5.1460439103E+000 
184045724.545 +9.7276108004E-001 -4.9912667762E+000  +8.3796588525E-002 +8.3176725210E+001  +8.4432541276E-002 +8.3586100428E+001  +9.7352127309E-001 -4.9498302812E+000 
188046522.905 +9.7473940405E-001 -4.8095286723E+000  +8.5729779810E-002 +8.3389554976E+001  +8.6476018732E-002 +8.3679658805E+001  +9.7496468738E-001 -4.7704467880E+000 
192047321.264 +9.7772790937E-001 -4.6547469710E+000  +8.7742245965E-002 +8.3534497363E+001  +8.8557895934E-002 +8.3680645598E+001  +9.7792871035E-001 -4.6266813100E+000 
196048119.624 +9.8145967538E-001 -4.5456830169E+000  +8.9771065686E-002 +8.3698231200E+001  +9.0731230036E-002 +8.3658604007E+001  +9.8158074785E-001 -4.5322242764E+000 
200048917.984 +9.8640445110E-001 -4.5222786912E+000  +9.2053427405E-002 +8.3738860613E+001  +9.2922933527E-002 +8.3579175883E+001  +9.8611988827E-001 -4.5025447710E+000 
204049716.343 +9.9165906510E-001 -4.5506820551E+000  +9.4365404683E-002 +8.3798651690E+001  +9.5076791980E-002 +8.3504542410E+001  +9.9092932959E-001 -4.5207276962E+000 
208050514.703 +9.9722260812E-001 -4.6706730639E+000  +9.6746274078E-002 +8.3782823853E+001  +9.7311417180E-002 +8.3288551510E+001  +9.9649735525E-001 -4.6347476598E+000 
212051313.063 +1.0027764640E+000 -4.8749506808E+000  +9.9192503465E-002 +8.3615759450E+001  +9.9581330351E-002 +8.3060803154E+001  +1.0018677470E+000 -4.8315745464E+000 
216052111.422 +1.0077677737E+000 -5.1813062465E+000  +1.0168190629E-001 +8.3391707664E+001  +1.0178984529E-001 +8.2805127948E+001  +1.0067224241E+000 -5.1113272426E+000 
220052909.782 +1.0121231162E+000 -5.5426013675E+000  +1.0414597685E-001 +8.3014486245E+001  +1.0407217378E-001 +8.2465520081E+001  +1.0110852341E+000 -5.4737248429E+000 
224053708.142 +1.0152974988E+000 -6.0038648903E+000  +1.0661454338E-001 +8.2542591162E+001  +1.0630131843E-001 +8.2029952053E+001  +1.0142930082E+000 -5.9046054369E+000 
228054506.501 +1.0165858871E+000 -6.5190807715E+000  +1.0876497054E-001 +8.1969777685E+001  +1.0815671127E-001 +8.1504692788E+001  +1.0157283832E+000 -6.3971339982E+000 
232055304.861 +1.0158460046E+000 -7.0597556017E+000  +1.1078028456E-001 +8.1369815912E+001  +1.0992000634E-001 +8.0989406241E+001  +1.0151921208E+000 -6.9157701399E+000 
236056103.221 +1.0126511112E+000 -7.5830789031E+000  +1.1244527695E-001 +8.0756099769E+001  +1.1141504150E-001 +8.0526143787E+001  +1.0123813083E+000 -7.4289917222E+000 
240056901.580 +1.0078054298E+000 -8.0684263404E+000  +1.1370840579E-001 +8.0196188521E+001  +1.1256829940E-001 +8.0006600183E+001  +1.0077231315E+000 -7.8927265594E+000 
244057699.940 +1.0010146032E+000 -8.4471656958E+000  +1.1475444493E-001 +7.9668467067E+001  +1.1361869433E-001 +7.9696184878E+001  +1.0014724128E+000 -8.2705175938E+000 
248058498.300 +9.9364606341E-001 -8.6956057196E+000  +1.1560708773E-001 +7.9358994791E+001  +1.1448933249E-001 +7.9529736738E+001  +9.9398425342E-001 -8.5146753891E+000 
252059296.659 +9.8543244657E-001 -8.8293107195E+000  +1.1632958008E-001 +7.9192833315E+001  +1.1537144628E-001 +7.9444604452E+001  +9.8623594025E-001 -8.6547819990E+000 
256060095.019 +9.7797615949E-001 -8.8361934199E+000  +1.1718115082E-001 +7.9187885650E+001  +1.1632741138E-001 +7.9556810448E+001  +9.7883654267E-001 -8.6620895066E+000 
260060893.379 +9.7109708833E-001 -8.7315044909E+000  +1.1816041908E-001 +7.9270571194E+001  +1.1745244935E-001 +7.9740052520E+001  +9.7251237436E-001 -8.5745232028E+000 
264061691.738 +9.6616449048E-001 -8.5205754520E+000  +1.1914710971E-001 +7.9460288483E+001  +1.1872790305E-001 +7.9985825995E+001  +9.6744950231E-001 -8.3913770010E+000 
268062490.098 +9.6264246326E-001 -8.2699443599E+000  +1.2036208807E-001 +7.9685724005E+001  +1.2034945517E-001 +8.0258150623E+001  +9.6396128685E-001 -8.1557156810E+000 
272063288.458 +9.6091670705E-001 -7.9846059883E+000  +1.2183599987E-001 +7.9965734285E+001  +1.2216988737E-001 +8.0532431107E+001  +9.6226340649E-001 -7.8736140455E+000 
276064086.817 +9.6111723210E-001 -7.6980547891E+000  +1.2359600547E-001 +8.0255553978E+001  +1.2410334781E-001 +8.0771948116E+001  +9.6205588372E-001 -7.6066197945E+000 
280064885.177 +9.6261894910E-001 -7.4061609068E+000  +1.2553921573E-001 +8.0519915839E+001  +1.2625053449E-001 +8.0968581541E+001  +9.6359317180E-001 -7.3532487517E+000 
284065683.537 +9.6549333667E-001 -7.1832704152E+000  +1.2751627410E-001 +8.0724374290E+001  +1.2855684337E-001 +8.1014901028E+001  +9.6618188298E-001 -7.1309056015E+000 
288066481.896 +9.6974972047E-001 -6.9979377925E+000  +1.2970675375E-001 +8.0940889117E+001  +1.3087990264E-001 +8.1086531687E+001  +9.7013445359E-001 -6.9583769337E+000 
292067280.256 +9.7500164356E-001 -6.9017236566E+000  +1.3208092902E-001 +8.1064191769E+001  +1.3329652069E-001 +8.1080210675E+001  +9.7492500560E-001 -6.8530328931E+000 
296068078.616 +9.8079088466E-001 -6.8644043341E+000  +1.3455818933E-001 +8.1132571666E+001  +1.3582183542E-001 +8.1024336664E+001  +9.8052519175E-001 -6.8241119744E+000 
300068876.975 +9.8725269963E-001 -6.9248647389E+000  +1.3721948810E-001 +8.1115833008E+001  +1.3834254114E-001 +8.0881350437E+001  +9.8653055229E-001 -6.8753836558E+000 
304069675.335 +9.9395031489E-001 -7.0745102568E+000  +1.3996821412E-001 +8.1040443388E+001  +1.4089397142E-001 +8.0690027867E+001  +9.9311568856E-001 -7.0172056922E+000 
308070473.695 +1.0004176699E+000 -7.3493968637E+000  +1.4281301087E-001 +8.0870842229E+001  +1.4351787988E-001 +8.0416343942E+001  +9.9912487744E-001 -7.2735144960E+000 
312071272.054 +1.0059208430E+000 -7.7190758311E+000  +1.4568010466E-001 +8.0573338510E+001  +1.4595649240E-001 +8.0045215874E+001  +1.0045330170E+000 -7.6168070599E+000 
316072070.414 +1.0104485390E+000 -8.1779522554E+000  +1.4844221165E-001 +8.0094433131E+001  +1.4841066207E-001 +7.9657737808E+001  +1.0090126923E+000 -8.0684747658E+000 
320072868.774 +1.0129589004E+000 -8.7292859450E+000  +1.5091389203E-001 +7.9564043112E+001  +1.5063528733E-001 +7.9092649839E+001  +1.0120232166E+000 -8.5843575111E+000 
324073667.133 +1.0139772729E+000 -9.3244131227E+000  +1.5322746366E-001 +7.8939895867E+001  +1.5267424159E-001 +7.8502789666E+001  +1.0126424101E+000 -9.1414989346E+000 
328074465.493 +1.0121455767E+000 -9.9191093941E+000  +1.5504901331E-001 +7.8281573998E+001  +1.5410890884E-001 +7.7893885799E+001  +1.0113274173E+000 -9.7212532270E+000 
332075263.853 +1.0082401686E+000 -1.0484693778E+001  +1.5633282534E-001 +7.7622126364E+001  +1.5514564076E-001 +7.7315829607E+001  +1.0073198873E+000 -1.0270000137E+001 
336076062.212 +1.0018245234E+000 -1.0991462635E+001  +1.5721299861E-001 +7.7001495912E+001  +1.5596834713E-001 +7.6861684603E+001  +1.0014141148E+000 -1.0773616100E+001 
340076860.572 +9.9367296558E-001 -1.1390109502E+001  +1.5764812681E-001 +7.6535357069E+001  +1.5640447717E-001 +7.6518462657E+001  +9.9371008029E-001 -1.1162798971E+001 
344077658.932 +9.8472485218E-001 -1.1648682435E+001  +1.5799626281E-001 +7.6253726271E+001  +1.5671221458E-001 +7.6266522456E+001  +9.8509789247E-001 -1.1416560558E+001 
348078457.291 +9.7525289133E-001 -1.1738384486E+001  +1.5808836203E-001 +7.6125680529E+001  +1.5697955817E-001 +7.6267548867E+001  +9.7614471129E-001 -1.1515217427E+001 
352079255.651 +9.6651002276E-001 -1.1702997890E+001  +1.5839160625E-001 +7.6146812182E+001  +1.5731599857E-001 +7.6378577773E+001  +9.6781961944E-001 -1.1478525868E+001 
356080054.011 +9.5920443949E-001 -1.1531508399E+001  +1.5882349995E-001 +7.6324717577E+001  +1.5790406968E-001 +7.6637540415E+001  +9.6032468545E-001 -1.1321509741E+001 
360080852.370 +9.5340164514E-001 -1.1265829267E+001  +1.5960726635E-001 +7.6545977989E+001  +1.5892642750E-001 +7.6998705322E+001  +9.5501733500E-001 -1.1086194966E+001 
364081650.730 +9.4994902174E-001 -1.0914836498E+001  +1.6063791807E-001 +7.6903724666E+001  +1.6032190370E-001 +7.7358790721E+001  +9.5125748994E-001 -1.0757933511E+001 
368082449.090 +9.4817157514E-001 -1.0564665021E+001  +1.6210714842E-001 +7.7223229372E+001  +1.6212977153E-001 +7.7697065574E+001  +9.4940410185E-001 -1.0416609446E+001 
372083247.449 +9.4812538487E-001 -1.0205194079E+001  +1.6372723582E-001 +7.7522208209E+001  +1.6410292021E-001 +7.8001718891E+001  +9.4979402326E-001 -1.0090835254E+001 
376084045.809 +9.5038337550E-001 -9.8780838251E+000  +1.6576842615E-001 +7.7807943244E+001  +1.6641005338E-001 +7.8215230754E+001  +9.5139460155E-001 -9.7660772887E+000 
380084844.169 +9.5397741131E-001 -9.5850582819E+000  +1.6795392173E-001 +7.8107979306E+001  +1.6896269192E-001 +7.8444886230E+001  +9.5478315151E-001 -9.4996025224E+000 
384085642.529 +9.5883305139E-001 -9.3749456740E+000  +1.7036198893E-001 +7.8287597856E+001  +1.7155527755E-001 +7.8524380463E+001  +9.5949060497E-001 -9.3066701930E+000 
388086440.888 +9.6495934128E-001 -9.2290638807E+000  +1.7295995761E-001 +7.8462984312E+001  +1.7437860501E-001 +7.8533792921E+001  +9.6504742630E-001 -9.1748849350E+000 
392087239.248 +9.7180874645E-001 -9.1880740049E+000  +1.7583595268E-001 +7.8498477516E+001  +1.7723440152E-001 +7.8472805623E+001  +9.7176929653E-001 -9.1332996569E+000 
396088037.608 +9.7917575771E-001 -9.2546321068E+000  +1.7887342482E-001 +7.8528725105E+001  +1.8014481405E-001 +7.8371453648E+001  +9.7891682711E-001 -9.1904490784E+000 
400088835.967 +9.8698484122E-001 -9.4228147298E+000  +1.8197854448E-001 +7.8423245318E+001  +1.8320227008E-001 +7.8143447598E+001  +9.8607645097E-001 -9.3710021769E+000 
404089634.327 +9.9400487883E-001 -9.7159438240E+000  +1.8517825311E-001 +7.8198442542E+001  +1.8616135472E-001 +7.7861437861E+001  +9.9288209289E-001 -9.6435681053E+000 
408090432.687 +1.0005759373E+000 -1.0129722903E+001  +1.8848060926E-001 +7.7852056219E+001  +1.8898377068E-001 +7.7470049332E+001  +9.9893273485E-001 -1.0021823565E+001 
412091231.046 +1.0055051262E+000 -1.0631365349E+001  +1.9143432874E-001 +7.7408663110E+001  +1.9174333759E-001 +7.6966337083E+001  +1.0036276726E+000 -1.0508512445E+001 
416092029.406 +1.0086988771E+000 -1.1231106157E+001  +1.9426141613E-001 +7.6779248624E+001  +1.9418551719E-001 +7.6380804910E+001  +1.0068591125E+000 -1.1071122679E+001 
420092827.766 +1.0094293029E+000 -1.1895458147E+001  +1.9651722602E-001 +7.6104714559E+001  +1.9611230895E-001 +7.5740149672E+001  +1.0077932354E+000 -1.1702285899E+001 
424093626.125 +1.0072610846E+000 -1.2573040626E+001  +1.9824371060E-001 +7.5383028255E+001  +1.9747527285E-001 +7.5048709927E+001  +1.0060484376E+000 -1.2327524905E+001 
428094424.485 +1.0025273414E+000 -1.3212226975E+001  +1.9938469236E-001 +7.4642926673E+001  +1.9829907250E-001 +7.4356898756E+001  +1.0015655047E+000 -1.2970358913E+001 
432095222.845 +9.9565017759E-001 -1.3767957833E+001  +1.9969628346E-001 +7.4051241121E+001  +1.9858072893E-001 +7.3853779104E+001  +9.9489408798E-001 -1.3496059788E+001 
436096021.204 +9.8639335355E-001 -1.4198863160E+001  +1.9964635878E-001 +7.3482731047E+001  +1.9833192784E-001 +7.3438045423E+001  +9.8613819005E-001 -1.3927619265E+001 
440096819.564 +9.7618989152E-001 -1.4489093753E+001  +1.9925555930E-001 +7.3210388139E+001  +1.9782141269E-001 +7.3218940366E+001  +9.7659807365E-001 -1.4201014994E+001 
444097617.924 +9.6560135091E-001 -1.4596122601E+001  +1.9869142486E-001 +7.3034699328E+001  +1.9741917818E-001 +7.3146831727E+001  +9.6644729841E-001 -1.4319115165E+001 
448098416.283 +9.5580823366E-001 -1.4551555644E+001  +1.9830891091E-001 +7.3119447836E+001  +1.9721270482E-001 +7.3295946512E+001  +9.5694009404E-001 -1.4276541515E+001 
452099214.643 +9.4751139502E-001 -1.4341612023E+001  +1.9815594109E-001 +7.3325135961E+001  +1.9717353883E-001 +7.3608084736E+001  +9.4877330073E-001 -1.4086757184E+001 
456100013.003 +9.4077231784E-001 -1.4032401281E+001  +1.9846213922E-001 +7.3650568913E+001  +1.9782613234E-001 +7.3965141798E+001  +9.4225247375E-001 -1.3798726652E+001 
