!  2-Port S-parameters saved by WinCal
! VAR MeasName=S-Parameters (CALIBRATED_DATA) read from VNA (P5004A)
! VAR MeasDate=24/04/2024 16:13:10
! VAR NAME=Wafer2_r1_c3_pristine 12
! VAR FILENAME=Wafer2_r1_c3_pristine 12.S2P
! VAR DATE=24/04/2024 16:13:10
! VAR PHYS_PORTS=1,2
! VAR ObjTypeName=DATASET
! VAR IndexType=Frequency
!
# Hz S MA R 50
9000.000 +7.8837562957E-001 +1.7703541063E+001  +4.5637230146E-006 -7.3877577871E+000  +1.7156867078E-005 +5.6725112174E+001  +7.9224417410E-001 +1.7549767083E+001 
4009798.360 +9.8749225333E-001 -3.1285380957E+000  +1.8854065614E-003 +8.6176548405E+001  +1.9036717473E-003 +8.6117339389E+001  +9.8710408195E-001 -3.0392950828E+000 
8010596.719 +9.7637124188E-001 -6.1421174073E-001  +3.7066042302E-003 +8.8589471517E+001  +3.7792133393E-003 +8.8247559213E+001  +9.7661067186E-001 -6.0060088811E-001 
12011395.079 +9.8402724301E-001 +1.5521938876E-002  +5.6329399264E-003 +8.8962960755E+001  +5.6777119950E-003 +8.8726290050E+001  +9.8374885985E-001 -6.6566215716E-003 
16012193.439 +9.9004577418E-001 +1.9358071130E-001  +7.5337613221E-003 +8.9222583970E+001  +7.5723002239E-003 +8.8677920319E+001  +9.8977221687E-001 +1.7815398315E-001 
20012991.798 +9.9522601904E-001 +1.9214416476E-001  +9.4600838666E-003 +8.9206255883E+001  +9.4618307127E-003 +8.8710384592E+001  +9.9473891105E-001 +2.0762404068E-001 
24013790.158 +9.9945311531E-001 +1.4647939526E-001  +1.1393392180E-002 +8.9183327194E+001  +1.1375252043E-002 +8.8572083445E+001  +9.9966464714E-001 +1.2468518030E-001 
28014588.518 +1.0035900589E+000 -2.1574247362E-002  +1.3314572754E-002 +8.9027422047E+001  +1.3293142468E-002 +8.8466199466E+001  +1.0035693530E+000 -2.6536191492E-002 
32015386.877 +1.0078249256E+000 -2.1266094201E-001  +1.5268399496E-002 +8.8819927474E+001  +1.5222937782E-002 +8.8294140911E+001  +1.0076294117E+000 -2.3174985919E-001 
36016185.237 +1.0109373812E+000 -4.8386612129E-001  +1.7249690029E-002 +8.8463721156E+001  +1.7128563147E-002 +8.8017849034E+001  +1.0105689006E+000 -5.0199109862E-001 
40016983.597 +1.0129597505E+000 -8.2049497591E-001  +1.9178939645E-002 +8.8037437140E+001  +1.9030836929E-002 +8.7740199444E+001  +1.0125097831E+000 -8.2883146819E-001 
44017781.956 +1.0141420081E+000 -1.1844578601E+000  +2.1117541159E-002 +8.7579958342E+001  +2.0918043058E-002 +8.7435095677E+001  +1.0136146637E+000 -1.1822585882E+000 
48018580.316 +1.0145220404E+000 -1.5573855244E+000  +2.3037912240E-002 +8.7192253432E+001  +2.2841186005E-002 +8.7100911127E+001  +1.0143779733E+000 -1.5451791309E+000 
52019378.676 +1.0129443542E+000 -1.9534461521E+000  +2.4909485291E-002 +8.6720314058E+001  +2.4631455800E-002 +8.6770567370E+001  +1.0124367329E+000 -1.9257879995E+000 
56020177.035 +1.0103132388E+000 -2.2887055196E+000  +2.6701879551E-002 +8.6231401310E+001  +2.6453670583E-002 +8.6441393497E+001  +1.0100307080E+000 -2.2554179969E+000 
60020975.395 +1.0065740347E+000 -2.6182962147E+000  +2.8463138671E-002 +8.5857337605E+001  +2.8207234783E-002 +8.6167366361E+001  +1.0062013025E+000 -2.5602298417E+000 
64021773.755 +1.0015630187E+000 -2.8223937059E+000  +3.0130263941E-002 +8.5586796298E+001  +2.9903506728E-002 +8.6044222511E+001  +1.0013663576E+000 -2.7802859961E+000 
68022572.114 +9.9637881144E-001 -2.9473561296E+000  +3.1771381002E-002 +8.5438729290E+001  +3.1615949431E-002 +8.5935836460E+001  +9.9628637438E-001 -2.9236086807E+000 
72023370.474 +9.9172259933E-001 -2.9981563301E+000  +3.3416222349E-002 +8.5316092897E+001  +3.3327619126E-002 +8.5925601908E+001  +9.9184239094E-001 -2.9660581452E+000 
76024168.834 +9.8738280828E-001 -2.9619678431E+000  +3.5053262500E-002 +8.5398312009E+001  +3.5038186398E-002 +8.5966844156E+001  +9.8760487024E-001 -2.9222596166E+000 
80024967.193 +9.8412862828E-001 -2.8605639979E+000  +3.6694707990E-002 +8.5539771003E+001  +3.6781959900E-002 +8.6072139309E+001  +9.8444128940E-001 -2.8293949082E+000 
84025765.553 +9.8239789094E-001 -2.7454920068E+000  +3.8397900952E-002 +8.5665279415E+001  +3.8604280871E-002 +8.6169513899E+001  +9.8236874065E-001 -2.7265934201E+000 
88026563.913 +9.8154257726E-001 -2.5655359337E+000  +4.0145644237E-002 +8.5869558926E+001  +4.0436961599E-002 +8.6259094499E+001  +9.8154871661E-001 -2.5634284668E+000 
92027362.272 +9.8209096239E-001 -2.4308011600E+000  +4.1959885751E-002 +8.6030915052E+001  +4.2308528954E-002 +8.6286834088E+001  +9.8179816797E-001 -2.4242431477E+000 
96028160.632 +9.8296835831E-001 -2.3002473876E+000  +4.3764887755E-002 +8.6177390907E+001  +4.4160812084E-002 +8.6315627783E+001  +9.8268215804E-001 -2.2950658183E+000 
100028958.992 +9.8591028907E-001 -2.2056686372E+000  +4.5695350637E-002 +8.6310384563E+001  +4.6112868258E-002 +8.6254116510E+001  +9.8520145514E-001 -2.2006688079E+000 
104029757.351 +9.8909625188E-001 -2.1425949757E+000  +4.7654509259E-002 +8.6416406771E+001  +4.8057781002E-002 +8.6212190103E+001  +9.8834594914E-001 -2.1254103238E+000 
108030555.711 +9.9290895228E-001 -2.1167513583E+000  +4.9630461827E-002 +8.6475124682E+001  +5.0023569062E-002 +8.6151159608E+001  +9.9199197281E-001 -2.1123787281E+000 
112031354.071 +9.9720969184E-001 -2.1798072355E+000  +5.1704752591E-002 +8.6495338566E+001  +5.1992378945E-002 +8.6013831672E+001  +9.9635097975E-001 -2.1669392332E+000 
116032152.430 +1.0018317655E+000 -2.2873395566E+000  +5.3802096949E-002 +8.6421503507E+001  +5.3995441513E-002 +8.5900004008E+001  +1.0005766856E+000 -2.2813480297E+000 
120032950.790 +1.0064515952E+000 -2.4847526815E+000  +5.5970892505E-002 +8.6301825938E+001  +5.5994599342E-002 +8.5736262130E+001  +1.0052120140E+000 -2.4551768048E+000 
124033749.150 +1.0108196952E+000 -2.7563619554E+000  +5.8137154820E-002 +8.6029155770E+001  +5.8037795248E-002 +8.5467309976E+001  +1.0094553233E+000 -2.7319206742E+000 
128034547.510 +1.0142999582E+000 -3.0991168604E+000  +6.0310966992E-002 +8.5718098958E+001  +6.0062184696E-002 +8.5175602381E+001  +1.0129345091E+000 -3.0495213293E+000 
132035345.869 +1.0163206853E+000 -3.5118718799E+000  +6.2381071134E-002 +8.5242460406E+001  +6.2001732201E-002 +8.4781860421E+001  +1.0152187251E+000 -3.4529974340E+000 
136036144.229 +1.0171584599E+000 -3.9681787261E+000  +6.4387476893E-002 +8.4731534562E+001  +6.3891349981E-002 +8.4358040507E+001  +1.0161985851E+000 -3.8959694983E+000 
140036942.589 +1.0159866620E+000 -4.4323292337E+000  +6.6287875727E-002 +8.4182965588E+001  +6.5647583661E-002 +8.3904973416E+001  +1.0151770050E+000 -4.3428376068E+000 
144037740.948 +1.0132609449E+000 -4.8680484524E+000  +6.7959451724E-002 +8.3662167616E+001  +6.7273414527E-002 +8.3502673990E+001  +1.0125876286E+000 -4.7665371846E+000 
148038539.308 +1.0086305609E+000 -5.2482130238E+000  +6.9498331882E-002 +8.3157071499E+001  +6.8778873724E-002 +8.3154007449E+001  +1.0082543022E+000 -5.1496004179E+000 
152039337.668 +1.0028892219E+000 -5.5755480349E+000  +7.0885813105E-002 +8.2755785347E+001  +7.0181461431E-002 +8.2876061768E+001  +1.0025563087E+000 -5.4651071508E+000 
156040136.027 +9.9621747096E-001 -5.7593244910E+000  +7.2186503493E-002 +8.2515454110E+001  +7.1517175355E-002 +8.2776093086E+001  +9.9618887420E-001 -5.6584395156E+000 
160040934.387 +9.8972521393E-001 -5.8398036288E+000  +7.3424660902E-002 +8.2386153353E+001  +7.2856977248E-002 +8.2785055594E+001  +9.8979996597E-001 -5.7338119731E+000 
164041732.747 +9.8389426829E-001 -5.8081169890E+000  +7.4682502339E-002 +8.2397413445E+001  +7.4269582688E-002 +8.2864830857E+001  +9.8417152419E-001 -5.7296032114E+000 
168042531.106 +9.7885308579E-001 -5.7198512643E+000  +7.6022402714E-002 +8.2481551835E+001  +7.5783483842E-002 +8.3027634657E+001  +9.7924204164E-001 -5.6337580379E+000 
172043329.466 +9.7542199152E-001 -5.5467724502E+000  +7.7464290540E-002 +8.2648960424E+001  +7.7411226832E-002 +8.3228099702E+001  +9.7580227354E-001 -5.4799370062E+000 
176044127.826 +9.7303489273E-001 -5.3372974504E+000  +7.8979212288E-002 +8.2880487082E+001  +7.9155864998E-002 +8.3434915842E+001  +9.7355335428E-001 -5.2832720720E+000 
180044926.185 +9.7240274857E-001 -5.1295084718E+000  +8.0634068494E-002 +8.3080301181E+001  +8.1015858897E-002 +8.3578276578E+001  +9.7297513821E-001 -5.0805026453E+000 
184045724.545 +9.7314592147E-001 -4.9171085906E+000  +8.2416910891E-002 +8.3310372115E+001  +8.2966953387E-002 +8.3711996939E+001  +9.7354862110E-001 -4.8761075419E+000 
188046522.905 +9.7509281639E-001 -4.7299388663E+000  +8.4272855192E-002 +8.3490387022E+001  +8.4979216100E-002 +8.3789363979E+001  +9.7518417449E-001 -4.7012922375E+000 
192047321.264 +9.7809499267E-001 -4.5754360248E+000  +8.6253712741E-002 +8.3668162508E+001  +8.7079538836E-002 +8.3811014487E+001  +9.7807260015E-001 -4.5547520595E+000 
196048119.624 +9.8195831149E-001 -4.4690970517E+000  +8.8290292975E-002 +8.3807896283E+001  +8.9180466466E-002 +8.3785303613E+001  +9.8167786216E-001 -4.4590471122E+000 
200048917.984 +9.8682618548E-001 -4.4358891812E+000  +9.0455623337E-002 +8.3880461272E+001  +9.1312727608E-002 +8.3716056346E+001  +9.8640188461E-001 -4.4160925588E+000 
204049716.343 +9.9208087233E-001 -4.4619358204E+000  +9.2708546207E-002 +8.3922629009E+001  +9.3492202289E-002 +8.3610704620E+001  +9.9120035577E-001 -4.4409900293E+000 
208050514.703 +9.9769246097E-001 -4.5786599050E+000  +9.5068937638E-002 +8.3888502894E+001  +9.5706965112E-002 +8.3426838902E+001  +9.9661879216E-001 -4.5509020921E+000 
212051313.063 +1.0033119185E+000 -4.7729890879E+000  +9.7511117246E-002 +8.3743262897E+001  +9.7930896547E-002 +8.3231563321E+001  +1.0020641314E+000 -4.7441577542E+000 
216052111.422 +1.0083277713E+000 -5.0839646613E+000  +9.9957748112E-002 +8.3508561482E+001  +1.0015726318E-001 +8.2949500986E+001  +1.0071021409E+000 -5.0156305427E+000 
220052909.782 +1.0127822968E+000 -5.4408983318E+000  +1.0241231460E-001 +8.3162531517E+001  +1.0234580186E-001 +8.2607130978E+001  +1.0112726583E+000 -5.3777275865E+000 
224053708.142 +1.0159180949E+000 -5.8983862875E+000  +1.0479779062E-001 +8.2701640134E+001  +1.0444552893E-001 +8.2170099807E+001  +1.0144547379E+000 -5.8113593330E+000 
228054506.501 +1.0173023670E+000 -6.4083517441E+000  +1.0697406372E-001 +8.2151194705E+001  +1.0638334972E-001 +8.1668948381E+001  +1.0160664729E+000 -6.3040571621E+000 
232055304.861 +1.0164453855E+000 -6.9435429395E+000  +1.0889841781E-001 +8.1550592281E+001  +1.0811415390E-001 +8.1166843306E+001  +1.0154054571E+000 -6.8160967504E+000 
236056103.221 +1.0134831980E+000 -7.4705083887E+000  +1.1051888175E-001 +8.0918683979E+001  +1.0952773437E-001 +8.0647347137E+001  +1.0126637544E+000 -7.3240523604E+000 
240056901.580 +1.0084313456E+000 -7.9492552411E+000  +1.1185070107E-001 +8.0335207675E+001  +1.1076031178E-001 +8.0184857246E+001  +1.0079915859E+000 -7.7921220338E+000 
244057699.940 +1.0018523626E+000 -8.3262614342E+000  +1.1287033208E-001 +7.9866430155E+001  +1.1178111848E-001 +7.9857040744E+001  +1.0018089259E+000 -8.1657769216E+000 
248058498.300 +9.9422785927E-001 -8.5819437634E+000  +1.1372371817E-001 +7.9550578756E+001  +1.1265507541E-001 +7.9665490075E+001  +9.9438674987E-001 -8.4122438941E+000 
252059296.659 +9.8599929404E-001 -8.7140776678E+000  +1.1447697865E-001 +7.9362555465E+001  +1.1344402572E-001 +7.9611986078E+001  +9.8658213896E-001 -8.5487390095E+000 
256060095.019 +9.7858376038E-001 -8.7208269025E+000  +1.1525956120E-001 +7.9312583704E+001  +1.1439978563E-001 +7.9701326147E+001  +9.7920327290E-001 -8.5624434912E+000 
260060893.379 +9.7169056500E-001 -8.6135993705E+000  +1.1609717395E-001 +7.9416855387E+001  +1.1548195811E-001 +7.9895962530E+001  +9.7290819925E-001 -8.4630713657E+000 
264061691.738 +9.6683680775E-001 -8.4023281179E+000  +1.1716655217E-001 +7.9628249768E+001  +1.1677867719E-001 +8.0147104766E+001  +9.6782864035E-001 -8.2815358469E+000 
268062490.098 +9.6330106686E-001 -8.1575990730E+000  +1.1839487522E-001 +7.9865824510E+001  +1.1830652924E-001 +8.0429449661E+001  +9.6432847445E-001 -8.0416154343E+000 
272063288.458 +9.6161036809E-001 -7.8636557081E+000  +1.1987483575E-001 +8.0161745235E+001  +1.2006866878E-001 +8.0700323909E+001  +9.6259860394E-001 -7.7675666174E+000 
276064086.817 +9.6172033099E-001 -7.5723905899E+000  +1.2154497364E-001 +8.0441605158E+001  +1.2204409746E-001 +8.0930180950E+001  +9.6251823790E-001 -7.5017335985E+000 
280064885.177 +9.6315635904E-001 -7.2913976750E+000  +1.2341468064E-001 +8.0710250257E+001  +1.2416303956E-001 +8.1112794706E+001  +9.6398616209E-001 -7.2415757543E+000 
284065683.537 +9.6614198017E-001 -7.0663103456E+000  +1.2538996208E-001 +8.0913187932E+001  +1.2639513990E-001 +8.1214112499E+001  +9.6656395438E-001 -7.0312637560E+000 
288066481.896 +9.7048958211E-001 -6.8823902434E+000  +1.2758094990E-001 +8.1104748832E+001  +1.2874742121E-001 +8.1268697030E+001  +9.7056850112E-001 -6.8456324967E+000 
292067280.256 +9.7554486951E-001 -6.7792718703E+000  +1.2986069618E-001 +8.1248070688E+001  +1.3109059742E-001 +8.1242069818E+001  +9.7531674750E-001 -6.7475630082E+000 
296068078.616 +9.8154771111E-001 -6.7416122952E+000  +1.3235440525E-001 +8.1324140360E+001  +1.3356184089E-001 +8.1189800572E+001  +9.8095489971E-001 -6.7181445442E+000 
300068876.975 +9.8804292779E-001 -6.7968346114E+000  +1.3493719180E-001 +8.1325878238E+001  +1.3603954423E-001 +8.1078025862E+001  +9.8721921947E-001 -6.7657097877E+000 
304069675.335 +9.9462664155E-001 -6.9447066545E+000  +1.3763393323E-001 +8.1261078080E+001  +1.3859972093E-001 +8.0898043335E+001  +9.9375144910E-001 -6.9089575798E+000 
308070473.695 +1.0011506935E+000 -7.2160902593E+000  +1.4044623831E-001 +8.1074143951E+001  +1.4112151191E-001 +8.0618986408E+001  +9.9974386736E-001 -7.1507276685E+000 
312071272.054 +1.0068226409E+000 -7.5777994290E+000  +1.4326269898E-001 +8.0758995402E+001  +1.4361625497E-001 +8.0260567664E+001  +1.0052180768E+000 -7.4958716892E+000 
316072070.414 +1.0113520910E+000 -8.0348695774E+000  +1.4595146562E-001 +8.0339181018E+001  +1.4599903547E-001 +7.9829475915E+001  +1.0096515168E+000 -7.9392791374E+000 
320072868.774 +1.0139581166E+000 -8.5782757546E+000  +1.4845712678E-001 +7.9790803498E+001  +1.4813629697E-001 +7.9300126624E+001  +1.0125821622E+000 -8.4468005960E+000 
324073667.133 +1.0149608737E+000 -9.1692508416E+000  +1.5065338341E-001 +7.9169273634E+001  +1.5007979119E-001 +7.8720536900E+001  +1.0132411844E+000 -9.0098152440E+000 
328074465.493 +1.0131978439E+000 -9.7646923579E+000  +1.5246277904E-001 +7.8505747326E+001  +1.5161428197E-001 +7.8124783424E+001  +1.0120440605E+000 -9.5783163384E+000 
332075263.853 +1.0091487030E+000 -1.0337635554E+001  +1.5378758299E-001 +7.7857363379E+001  +1.5274384286E-001 +7.7561903630E+001  +1.0081835588E+000 -1.0134674337E+001 
336076062.212 +1.0028938226E+000 -1.0837004529E+001  +1.5468808317E-001 +7.7256964092E+001  +1.5343950090E-001 +7.7063467392E+001  +1.0021412859E+000 -1.0625154830E+001 
340076860.572 +9.9482775103E-001 -1.1233076354E+001  +1.5515639367E-001 +7.6786726459E+001  +1.5386989937E-001 +7.6726091621E+001  +9.9454024261E-001 -1.1012746643E+001 
344077658.932 +9.8571643642E-001 -1.1494017262E+001  +1.5549172760E-001 +7.6470188693E+001  +1.5414375530E-001 +7.6512429333E+001  +9.8595298868E-001 -1.1266129006E+001 
348078457.291 +9.7639723719E-001 -1.1586544100E+001  +1.5560280817E-001 +7.6355636145E+001  +1.5435744633E-001 +7.6497400901E+001  +9.7688246443E-001 -1.1361096756E+001 
352079255.651 +9.6760677477E-001 -1.1539880173E+001  +1.5586752869E-001 +7.6377765601E+001  +1.5477591803E-001 +7.6637981160E+001  +9.6844637004E-001 -1.1334772880E+001 
356080054.011 +9.6020895861E-001 -1.1375050956E+001  +1.5628705410E-001 +7.6534405800E+001  +1.5539286298E-001 +7.6879563676E+001  +9.6127047068E-001 -1.1172781602E+001 
360080852.370 +9.5442529735E-001 -1.1106007040E+001  +1.5701016677E-001 +7.6792529564E+001  +1.5640619265E-001 +7.7214926808E+001  +9.5579532836E-001 -1.0926762876E+001 
364081650.730 +9.5076315180E-001 -1.0761572696E+001  +1.5807782121E-001 +7.7120311338E+001  +1.5777928731E-001 +7.7585172647E+001  +9.5214658321E-001 -1.0612916887E+001 
368082449.090 +9.4903244523E-001 -1.0410266540E+001  +1.5946416727E-001 +7.7455802945E+001  +1.5948580308E-001 +7.7919193505E+001  +9.5020218228E-001 -1.0270663803E+001 
372083247.449 +9.4908386273E-001 -1.0057382513E+001  +1.6112105484E-001 +7.7766122314E+001  +1.6148504281E-001 +7.8218913482E+001  +9.5040092501E-001 -9.9411842685E+000 
376084045.809 +9.5130176104E-001 -9.7279292730E+000  +1.6308773461E-001 +7.8071717173E+001  +1.6377140788E-001 +7.8461042385E+001  +9.5222867863E-001 -9.6232938181E+000 
380084844.169 +9.5486799510E-001 -9.4382940389E+000  +1.6524409543E-001 +7.8336512615E+001  +1.6623946453E-001 +7.8657304350E+001  +9.5560921290E-001 -9.3560676638E+000 
384085642.529 +9.5966525079E-001 -9.2180224083E+000  +1.6759422986E-001 +7.8533948016E+001  +1.6881922971E-001 +7.8752565526E+001  +9.6034589712E-001 -9.1571727291E+000 
388086440.888 +9.6571716899E-001 -9.0819709099E+000  +1.7016913501E-001 +7.8683253637E+001  +1.7158842592E-001 +7.8778681930E+001  +9.6598397462E-001 -9.0301343793E+000 
392087239.248 +9.7276814593E-001 -9.0419775362E+000  +1.7301522540E-001 +7.8765746365E+001  +1.7440145894E-001 +7.8729067767E+001  +9.7256215220E-001 -8.9851138420E+000 
396088037.608 +9.7999569347E-001 -9.1024295686E+000  +1.7595767894E-001 +7.8763777364E+001  +1.7722966577E-001 +7.8623245865E+001  +9.7975001969E-001 -9.0403983222E+000 
400088835.967 +9.8792246853E-001 -9.2728060076E+000  +1.7902788009E-001 +7.8673253771E+001  +1.8018681223E-001 +7.8427803616E+001  +9.8689247138E-001 -9.2117741233E+000 
404089634.327 +9.9512468618E-001 -9.5613537336E+000  +1.8224666911E-001 +7.8464766474E+001  +1.8311512649E-001 +7.8136921533E+001  +9.9379872967E-001 -9.4818974295E+000 
408090432.687 +1.0015294282E+000 -9.9577735500E+000  +1.8537151319E-001 +7.8134806918E+001  +1.8600198378E-001 +7.7744077952E+001  +9.9995796087E-001 -9.8603349367E+000 
412091231.046 +1.0066869898E+000 -1.0460656236E+001  +1.8839572354E-001 +7.7668053398E+001  +1.8871432516E-001 +7.7246286709E+001  +1.0049611691E+000 -1.0336864139E+001 
416092029.406 +1.0098724034E+000 -1.1060336121E+001  +1.9115458038E-001 +7.7058091177E+001  +1.9111306297E-001 +7.6661577592E+001  +1.0081028795E+000 -1.0900315020E+001 
420092827.766 +1.0107364889E+000 -1.1721381890E+001  +1.9344558035E-001 +7.6392432537E+001  +1.9305202604E-001 +7.6006465925E+001  +1.0089545866E+000 -1.1531510150E+001 
424093626.125 +1.0086874206E+000 -1.2384388701E+001  +1.9513132643E-001 +7.5671554668E+001  +1.9436376561E-001 +7.5339095995E+001  +1.0072851295E+000 -1.2162472664E+001 
428094424.485 +1.0039670222E+000 -1.3029164674E+001  +1.9616972585E-001 +7.4941487937E+001  +1.9518424644E-001 +7.4672786192E+001  +1.0030507635E+000 -1.2791094854E+001 
432095222.845 +9.9699678068E-001 -1.3582431714E+001  +1.9657837764E-001 +7.4322703289E+001  +1.9546573877E-001 +7.4153291865E+001  +9.9629228675E-001 -1.3318961632E+001 
436096021.204 +9.8783203536E-001 -1.4014231566E+001  +1.9646898295E-001 +7.3816830110E+001  +1.9525950900E-001 +7.3734579065E+001  +9.8756427198E-001 -1.3749547832E+001 
440096819.564 +9.7755849545E-001 -1.4297185491E+001  +1.9608380457E-001 +7.3508098713E+001  +1.9478841516E-001 +7.3506210724E+001  +9.7791112507E-001 -1.4024479607E+001 
444097617.924 +9.6703834477E-001 -1.4404398085E+001  +1.9559324544E-001 +7.3380775536E+001  +1.9435516005E-001 +7.3451584790E+001  +9.6782699560E-001 -1.4138320153E+001 
448098416.283 +9.5722742857E-001 -1.4354238511E+001  +1.9519506545E-001 +7.3416585894E+001  +1.9417863533E-001 +7.3599133349E+001  +9.5835106654E-001 -1.4098086055E+001 
452099214.643 +9.4873744550E-001 -1.4147171512E+001  +1.9507400616E-001 +7.3638871612E+001  +1.9420012693E-001 +7.3888759431E+001  +9.5012493350E-001 -1.3906054531E+001 
456100013.003 +9.4206157413E-001 -1.3844093341E+001  +1.9536484066E-001 +7.3946660110E+001  +1.9474906331E-001 +7.4241421272E+001  +9.4354384926E-001 -1.3627579252E+001 
