!  2-Port S-parameters saved by WinCal
! VAR MeasName=S-Parameters (CALIBRATED_DATA) read from VNA (P5004A)
! VAR MeasDate=24/04/2024 17:22:50
! VAR NAME=Wafer2_r1_c1_HRS 3
! VAR FILENAME=Wafer2_r1_c1_HRS 3.S2P
! VAR DATE=24/04/2024 17:22:50
! VAR PHYS_PORTS=1,2
! VAR ObjTypeName=DATASET
! VAR IndexType=Frequency
!
# Hz S MA R 50
9000.000 +7.9982728811E-001 +1.7291152979E+001  +6.1819061510E-005 +2.9262976552E+001  +1.6530364456E-005 +2.6504404687E+001  +7.9912724746E-001 +1.7285056391E+001 
4009798.360 +9.8731809450E-001 -3.1407750667E+000  +1.9247053810E-003 +8.5847093083E+001  +1.9264498674E-003 +8.5868535165E+001  +9.8699546712E-001 -3.0572736121E+000 
8010596.719 +9.7589797284E-001 -6.2787475852E-001  +3.7666952559E-003 +8.8458997643E+001  +3.8023673290E-003 +8.8197216351E+001  +9.7659187216E-001 -6.0644743788E-001 
12011395.079 +9.8344935485E-001 -1.0002731664E-002  +5.6835612740E-003 +8.9142185472E+001  +5.7285009568E-003 +8.8676048175E+001  +9.8380923340E-001 -2.1496010105E-003 
16012193.439 +9.8949004877E-001 +1.7023899176E-001  +7.6057814100E-003 +8.9314140847E+001  +7.6459507262E-003 +8.8753724814E+001  +9.8977603012E-001 +1.6901494704E-001 
20012991.798 +9.9465531178E-001 +1.9026643658E-001  +9.5373812256E-003 +8.9338207355E+001  +9.5516618068E-003 +8.8663821521E+001  +9.9472778089E-001 +1.8904580031E-001 
24013790.158 +9.9941846139E-001 +1.2577690034E-001  +1.1486395742E-002 +8.9280473499E+001  +1.1477191423E-002 +8.8621525874E+001  +9.9957061541E-001 +1.1558150331E-001 
28014588.518 +1.0034281265E+000 -4.1509903551E-002  +1.3461980517E-002 +8.9159699726E+001  +1.3406274333E-002 +8.8539336252E+001  +1.0035183587E+000 -2.9712652389E-002 
32015386.877 +1.0079070499E+000 -2.4790597005E-001  +1.5623068215E-002 +8.8710885424E+001  +1.5530006966E-002 +8.8434006585E+001  +1.0075991005E+000 -2.2792006862E-001 
36016185.237 +1.0108723241E+000 -5.2254892631E-001  +1.7514132131E-002 +8.8692797780E+001  +1.7464040814E-002 +8.7845249795E+001  +1.0106451823E+000 -5.0496919218E-001 
40016983.597 +1.0124938450E+000 -8.4788013009E-001  +1.9492260522E-002 +8.8015308515E+001  +1.9436086493E-002 +8.7880684943E+001  +1.0126834535E+000 -8.3426941171E-001 
44017781.956 +1.0137253943E+000 -1.2254490011E+000  +2.1502531059E-002 +8.7690682773E+001  +2.1189772241E-002 +8.7639838386E+001  +1.0137245279E+000 -1.1911760816E+000 
48018580.316 +1.0142109035E+000 -1.5916883592E+000  +2.3443883396E-002 +8.7151340328E+001  +2.3192284272E-002 +8.7091717949E+001  +1.0146589039E+000 -1.5508505033E+000 
52019378.676 +1.0126167449E+000 -1.9874639817E+000  +2.5370324800E-002 +8.6439928778E+001  +2.5028386979E-002 +8.6776371241E+001  +1.0124249142E+000 -1.9379781516E+000 
56020177.035 +1.0099290483E+000 -2.3150989681E+000  +2.7174045562E-002 +8.6281746437E+001  +2.6975869087E-002 +8.6472080500E+001  +1.0101560667E+000 -2.2770945676E+000 
60020975.395 +1.0062945474E+000 -2.6372368819E+000  +2.8960104546E-002 +8.5708577569E+001  +2.8694652591E-002 +8.6250720901E+001  +1.0064714067E+000 -2.5795327045E+000 
64021773.755 +1.0014088222E+000 -2.8499728569E+000  +3.0727119852E-002 +8.5657022169E+001  +3.0371088348E-002 +8.5884011003E+001  +1.0014715172E+000 -2.7905457693E+000 
68022572.114 +9.9627209012E-001 -2.9855014200E+000  +3.2322034324E-002 +8.5404502295E+001  +3.2247347703E-002 +8.5824226228E+001  +9.9627419657E-001 -2.9410945685E+000 
72023370.474 +9.9166036439E-001 -3.0285076954E+000  +3.3974874000E-002 +8.5277545822E+001  +3.3953920481E-002 +8.5843475832E+001  +9.9191222003E-001 -2.9842316857E+000 
76024168.834 +9.8741450305E-001 -2.9866330297E+000  +3.5642881684E-002 +8.5329152524E+001  +3.5681710288E-002 +8.5962353494E+001  +9.8766714930E-001 -2.9391337748E+000 
80024967.193 +9.8407089956E-001 -2.8905644140E+000  +3.7269641802E-002 +8.5344590135E+001  +3.7381813253E-002 +8.6040782779E+001  +9.8439066133E-001 -2.8459077080E+000 
84025765.553 +9.8242057990E-001 -2.7734514415E+000  +3.9042364752E-002 +8.5644780193E+001  +3.9251448880E-002 +8.6136546183E+001  +9.8232202465E-001 -2.7496720401E+000 
88026563.913 +9.8130720937E-001 -2.6018316511E+000  +4.0832751715E-002 +8.5871014667E+001  +4.1180236597E-002 +8.6200117181E+001  +9.8151860762E-001 -2.5907723344E+000 
92027362.272 +9.8175441305E-001 -2.4603705808E+000  +4.2650297303E-002 +8.6044862275E+001  +4.3095631806E-002 +8.6263294502E+001  +9.8167107145E-001 -2.4461517148E+000 
96028160.632 +9.8278502335E-001 -2.3375740553E+000  +4.4566687619E-002 +8.6086539063E+001  +4.4979188920E-002 +8.6304102270E+001  +9.8257967413E-001 -2.3218999256E+000 
100028958.992 +9.8550262356E-001 -2.2442798249E+000  +4.6424612679E-002 +8.6253027519E+001  +4.6967208822E-002 +8.6108609898E+001  +9.8510758851E-001 -2.2386508883E+000 
104029757.351 +9.8863175627E-001 -2.1851826059E+000  +4.8470581140E-002 +8.6384054121E+001  +4.8947817631E-002 +8.6136993602E+001  +9.8845658415E-001 -2.1612420335E+000 
108030555.711 +9.9253825342E-001 -2.1599035823E+000  +5.0549162381E-002 +8.6441953444E+001  +5.0935528881E-002 +8.6106209530E+001  +9.9203227044E-001 -2.1499284843E+000 
112031354.071 +9.9681775459E-001 -2.2245773390E+000  +5.2615348494E-002 +8.6461321267E+001  +5.2987274779E-002 +8.5969215816E+001  +9.9656292914E-001 -2.2019463516E+000 
116032152.430 +1.0014840008E+000 -2.3372169200E+000  +5.4752130025E-002 +8.6427734394E+001  +5.4935752829E-002 +8.5851227008E+001  +1.0007685392E+000 -2.3190324528E+000 
120032950.790 +1.0061430184E+000 -2.5440034501E+000  +5.7020277400E-002 +8.6270069615E+001  +5.7017166061E-002 +8.5702485476E+001  +1.0051978451E+000 -2.4917441179E+000 
124033749.150 +1.0103861283E+000 -2.8175607845E+000  +5.9157393561E-002 +8.5880682435E+001  +5.9164182193E-002 +8.5349217203E+001  +1.0097610217E+000 -2.7787034571E+000 
128034547.510 +1.0138857034E+000 -3.1660633519E+000  +6.1367112992E-002 +8.5598022619E+001  +6.1200435114E-002 +8.5061691463E+001  +1.0132289838E+000 -3.1003827699E+000 
132035345.869 +1.0159161660E+000 -3.5806766414E+000  +6.3442610087E-002 +8.5149982378E+001  +6.3102162448E-002 +8.4652569676E+001  +1.0154971636E+000 -3.5031616893E+000 
136036144.229 +1.0166394542E+000 -4.0382094460E+000  +6.5533954691E-002 +8.4616613435E+001  +6.4932206698E-002 +8.4298127956E+001  +1.0163712738E+000 -3.9469947574E+000 
140036942.589 +1.0154746558E+000 -4.5079980745E+000  +6.7434054320E-002 +8.4014972438E+001  +6.6806163344E-002 +8.3806176435E+001  +1.0154126799E+000 -4.3994363211E+000 
144037740.948 +1.0128529455E+000 -4.9431060568E+000  +6.9207498760E-002 +8.3605633703E+001  +6.8547409551E-002 +8.3387810642E+001  +1.0128483482E+000 -4.8275414993E+000 
148038539.308 +1.0080688917E+000 -5.3322178434E+000  +7.0765540887E-002 +8.3087487015E+001  +6.9950518785E-002 +8.3086739890E+001  +1.0083030918E+000 -5.2139994176E+000 
152039337.668 +1.0024219391E+000 -5.6554992127E+000  +7.2208225892E-002 +8.2601190802E+001  +7.1387765907E-002 +8.2810564916E+001  +1.0026509410E+000 -5.5230748944E+000 
156040136.027 +9.9576903056E-001 -5.8435165006E+000  +7.3449092618E-002 +8.2396062032E+001  +7.2819673141E-002 +8.2655664911E+001  +9.9627916478E-001 -5.7212080895E+000 
160040934.387 +9.8928503144E-001 -5.9273050890E+000  +7.4632224927E-002 +8.2336686374E+001  +7.4217975323E-002 +8.2663218601E+001  +9.8993142000E-001 -5.7954432035E+000 
164041732.747 +9.8345635842E-001 -5.8928351073E+000  +7.6044202346E-002 +8.2230665373E+001  +7.5593479250E-002 +8.2747030433E+001  +9.8415745069E-001 -5.7961992854E+000 
168042531.106 +9.7852370791E-001 -5.8137875461E+000  +7.7361374689E-002 +8.2342698128E+001  +7.7113197383E-002 +8.2891404581E+001  +9.7941078795E-001 -5.6968929721E+000 
172043329.466 +9.7511861930E-001 -5.6415159943E+000  +7.8764960045E-002 +8.2543724465E+001  +7.8810136879E-002 +8.3118342153E+001  +9.7571356549E-001 -5.5538976420E+000 
176044127.826 +9.7281505949E-001 -5.4323064184E+000  +8.0360246047E-002 +8.2772391340E+001  +8.0500747295E-002 +8.3296963730E+001  +9.7349736516E-001 -5.3520367165E+000 
180044926.185 +9.7200043605E-001 -5.2236810518E+000  +8.2089414445E-002 +8.2950874691E+001  +8.2493520265E-002 +8.3413768310E+001  +9.7279423312E-001 -5.1519865179E+000 
184045724.545 +9.7278201473E-001 -5.0121607631E+000  +8.3906413143E-002 +8.3173513862E+001  +8.4420806141E-002 +8.3615190828E+001  +9.7344188634E-001 -4.9437714580E+000 
188046522.905 +9.7481502460E-001 -4.8289290563E+000  +8.5790165193E-002 +8.3367809415E+001  +8.6461324275E-002 +8.3630482501E+001  +9.7496275344E-001 -4.7661346290E+000 
192047321.264 +9.7774540646E-001 -4.6717423108E+000  +8.7791521943E-002 +8.3526226994E+001  +8.8682355628E-002 +8.3655278993E+001  +9.7800378762E-001 -4.6324561969E+000 
196048119.624 +9.8155555984E-001 -4.5737634921E+000  +8.9869162731E-002 +8.3658808967E+001  +9.0845662503E-002 +8.3615868186E+001  +9.8162188381E-001 -4.5337204691E+000 
200048917.984 +9.8650261747E-001 -4.5343293176E+000  +9.2051280478E-002 +8.3722105202E+001  +9.2977688294E-002 +8.3523581115E+001  +9.8622471443E-001 -4.4950956359E+000 
204049716.343 +9.9162299242E-001 -4.5699448089E+000  +9.4343435537E-002 +8.3744948561E+001  +9.5105454914E-002 +8.3477127732E+001  +9.9092491955E-001 -4.5227054577E+000 
208050514.703 +9.9727203381E-001 -4.6908356808E+000  +9.6761820171E-002 +8.3767635582E+001  +9.7384014963E-002 +8.3296690522E+001  +9.9630873348E-001 -4.6350785126E+000 
212051313.063 +1.0027836252E+000 -4.8853475350E+000  +9.9192634092E-002 +8.3601284432E+001  +9.9697862686E-002 +8.3074882519E+001  +1.0018901384E+000 -4.8232034000E+000 
216052111.422 +1.0078328927E+000 -5.2048936551E+000  +1.0167283927E-001 +8.3369593856E+001  +1.0202029787E-001 +8.2749771074E+001  +1.0068159804E+000 -5.0927662888E+000 
220052909.782 +1.0121824523E+000 -5.5577010912E+000  +1.0415912390E-001 +8.2982260824E+001  +1.0408550401E-001 +8.2410398321E+001  +1.0110847276E+000 -5.4639978814E+000 
224053708.142 +1.0154136194E+000 -6.0202253895E+000  +1.0664176794E-001 +8.2517308821E+001  +1.0626006499E-001 +8.2022464678E+001  +1.0142437778E+000 -5.9040958706E+000 
228054506.501 +1.0167133140E+000 -6.5368093342E+000  +1.0878045256E-001 +8.2013054184E+001  +1.0814886460E-001 +8.1474728824E+001  +1.0157322868E+000 -6.3912495281E+000 
232055304.861 +1.0157737776E+000 -7.0708372443E+000  +1.1080541133E-001 +8.1368679276E+001  +1.1009261687E-001 +8.1016345893E+001  +1.0151323225E+000 -6.9074406109E+000 
236056103.221 +1.0128035462E+000 -7.5972488365E+000  +1.1255733175E-001 +8.0747594046E+001  +1.1155688352E-001 +8.0429867380E+001  +1.0122945861E+000 -7.4167512796E+000 
240056901.580 +1.0077688139E+000 -8.0835691799E+000  +1.1377608617E-001 +8.0168128264E+001  +1.1283247082E-001 +7.9996586494E+001  +1.0077186767E+000 -7.8886526550E+000 
244057699.940 +1.0010377090E+000 -8.4629305864E+000  +1.1485563093E-001 +7.9680208461E+001  +1.1369088100E-001 +7.9676712318E+001  +1.0014869487E+000 -8.2674195002E+000 
248058498.300 +9.9345243709E-001 -8.7199882344E+000  +1.1568420691E-001 +7.9385370475E+001  +1.1461494838E-001 +7.9483168018E+001  +9.9407049617E-001 -8.5139320625E+000 
252059296.659 +9.8530850196E-001 -8.8579921876E+000  +1.1646194850E-001 +7.9206504768E+001  +1.1547648310E-001 +7.9448050897E+001  +9.8627617450E-001 -8.6506698182E+000 
256060095.019 +9.7777378382E-001 -8.8626887203E+000  +1.1721270571E-001 +7.9157349313E+001  +1.1639678092E-001 +7.9466221718E+001  +9.7891580506E-001 -8.6662032501E+000 
260060893.379 +9.7106823449E-001 -8.7493833301E+000  +1.1810099530E-001 +7.9228101275E+001  +1.1750963595E-001 +7.9732922102E+001  +9.7253197338E-001 -8.5663500155E+000 
264061691.738 +9.6626531077E-001 -8.5436783560E+000  +1.1919834144E-001 +7.9449541290E+001  +1.1884831487E-001 +7.9952765205E+001  +9.6744999236E-001 -8.3841204292E+000 
268062490.098 +9.6264558190E-001 -8.2927466301E+000  +1.2050185011E-001 +7.9698703286E+001  +1.2035098573E-001 +8.0288877653E+001  +9.6405267104E-001 -8.1463379865E+000 
272063288.458 +9.6100575889E-001 -8.0044227006E+000  +1.2195604069E-001 +7.9986283360E+001  +1.2221336101E-001 +8.0513434828E+001  +9.6227761616E-001 -7.8782280825E+000 
276064086.817 +9.6114997469E-001 -7.7197057621E+000  +1.2367952428E-001 +8.0241208394E+001  +1.2415950394E-001 +8.0719895807E+001  +9.6204149991E-001 -7.6088400398E+000 
280064885.177 +9.6275180948E-001 -7.4335859467E+000  +1.2561874545E-001 +8.0485428481E+001  +1.2631691680E-001 +8.0928278058E+001  +9.6364855393E-001 -7.3423452223E+000 
284065683.537 +9.6542256723E-001 -7.2118429152E+000  +1.2758312850E-001 +8.0699917009E+001  +1.2859250513E-001 +8.1018053682E+001  +9.6612264451E-001 -7.1358537994E+000 
288066481.896 +9.6982563053E-001 -7.0305246978E+000  +1.2983633171E-001 +8.0906192867E+001  +1.3093798246E-001 +8.1074941081E+001  +9.7024997363E-001 -6.9498249524E+000 
292067280.256 +9.7484991756E-001 -6.9302030680E+000  +1.3217426938E-001 +8.1045707493E+001  +1.3345382065E-001 +8.1029784755E+001  +9.7483590088E-001 -6.8499715386E+000 
296068078.616 +9.8088839974E-001 -6.8918283812E+000  +1.3464627674E-001 +8.1122877748E+001  +1.3587205222E-001 +8.0985724840E+001  +9.8055205025E-001 -6.8278457638E+000 
300068876.975 +9.8720839391E-001 -6.9568145807E+000  +1.3728462889E-001 +8.1130499748E+001  +1.3832998737E-001 +8.0845816300E+001  +9.8672957639E-001 -6.8689929197E+000 
304069675.335 +9.9398150400E-001 -7.1120518564E+000  +1.4007514044E-001 +8.1044273793E+001  +1.4099944062E-001 +8.0706335603E+001  +9.9314786602E-001 -7.0249926315E+000 
308070473.695 +1.0003284224E+000 -7.3700243121E+000  +1.4293148309E-001 +8.0852795171E+001  +1.4362000432E-001 +8.0405002892E+001  +9.9923950207E-001 -7.2695075818E+000 
312071272.054 +1.0059371500E+000 -7.7464040770E+000  +1.4578243137E-001 +8.0518669204E+001  +1.4608716949E-001 +8.0062453340E+001  +1.0047270568E+000 -7.6152098728E+000 
316072070.414 +1.0104437724E+000 -8.2025507840E+000  +1.4846887337E-001 +8.0074043663E+001  +1.4857836014E-001 +7.9621306610E+001  +1.0089886270E+000 -8.0633185518E+000 
320072868.774 +1.0131101022E+000 -8.7561063735E+000  +1.5103426100E-001 +7.9564910690E+001  +1.5075250421E-001 +7.9066785150E+001  +1.0120043698E+000 -8.5743894736E+000 
324073667.133 +1.0138402005E+000 -9.3424973870E+000  +1.5324138748E-001 +7.8902897407E+001  +1.5266166787E-001 +7.8483049884E+001  +1.0124857863E+000 -9.1453337397E+000 
328074465.493 +1.0121020652E+000 -9.9387747072E+000  +1.5507016280E-001 +7.8282909532E+001  +1.5418591432E-001 +7.7868279880E+001  +1.0112357366E+000 -9.7138891377E+000 
332075263.853 +1.0080524667E+000 -1.0528029031E+001  +1.5639077368E-001 +7.7596799884E+001  +1.5534020900E-001 +7.7295505820E+001  +1.0075212085E+000 -1.0273792241E+001 
336076062.212 +1.0018188315E+000 -1.1018325117E+001  +1.5732373573E-001 +7.7046424506E+001  +1.5606050260E-001 +7.6827945713E+001  +1.0014115242E+000 -1.0762450752E+001 
340076860.572 +9.9373117418E-001 -1.1420684679E+001  +1.5788409129E-001 +7.6556924608E+001  +1.5648451876E-001 +7.6473031130E+001  +9.9375785207E-001 -1.1162999809E+001 
344077658.932 +9.8462876092E-001 -1.1688743287E+001  +1.5816202524E-001 +7.6214423885E+001  +1.5676701553E-001 +7.6257911351E+001  +9.8514032688E-001 -1.1409042166E+001 
348078457.291 +9.7530194408E-001 -1.1770127755E+001  +1.5826052812E-001 +7.6106822755E+001  +1.5692913764E-001 +7.6273094835E+001  +9.7611448926E-001 -1.1510294493E+001 
352079255.651 +9.6655328679E-001 -1.1725321481E+001  +1.5846310083E-001 +7.6113382679E+001  +1.5739990303E-001 +7.6390136570E+001  +9.6763260365E-001 -1.1484503775E+001 
356080054.011 +9.5916633379E-001 -1.1564085051E+001  +1.5900239852E-001 +7.6301313511E+001  +1.5801422311E-001 +7.6673072821E+001  +9.6040546869E-001 -1.1318737082E+001 
360080852.370 +9.5345333806E-001 -1.1299488243E+001  +1.5968424261E-001 +7.6557633232E+001  +1.5906659700E-001 +7.6982480475E+001  +9.5505407634E-001 -1.1073261446E+001 
364081650.730 +9.4984531085E-001 -1.0953400756E+001  +1.6071174568E-001 +7.6869780809E+001  +1.6038906331E-001 +7.7324012125E+001  +9.5132571233E-001 -1.0758538631E+001 
368082449.090 +9.4820920517E-001 -1.0600134732E+001  +1.6220943491E-001 +7.7206833003E+001  +1.6227104479E-001 +7.7672891662E+001  +9.4957673324E-001 -1.0407904202E+001 
372083247.449 +9.4819388544E-001 -1.0243038706E+001  +1.6382869311E-001 +7.7523731205E+001  +1.6415916224E-001 +7.7972085991E+001  +9.4968800104E-001 -1.0078528897E+001 
376084045.809 +9.5035737685E-001 -9.9168499257E+000  +1.6584014787E-001 +7.7792970088E+001  +1.6653422103E-001 +7.8199725060E+001  +9.5151582663E-001 -9.7677771843E+000 
380084844.169 +9.5396346166E-001 -9.6210936506E+000  +1.6801599563E-001 +7.8085183454E+001  +1.6898077727E-001 +7.8432783056E+001  +9.5496174086E-001 -9.4999306632E+000 
384085642.529 +9.5892414769E-001 -9.4011217747E+000  +1.7048157834E-001 +7.8276737881E+001  +1.7169345313E-001 +7.8485717424E+001  +9.5951741192E-001 -9.3009203956E+000 
388086440.888 +9.6498904705E-001 -9.2729585727E+000  +1.7312995184E-001 +7.8416140592E+001  +1.7448986684E-001 +7.8515675629E+001  +9.6515676934E-001 -9.1747962118E+000 
392087239.248 +9.7186763480E-001 -9.2241018592E+000  +1.7598164390E-001 +7.8489385069E+001  +1.7738046035E-001 +7.8477162723E+001  +9.7162590441E-001 -9.1253641154E+000 
396088037.608 +9.7916088143E-001 -9.2883093160E+000  +1.7892985430E-001 +7.8506570556E+001  +1.8025361461E-001 +7.8333151634E+001  +9.7899856545E-001 -9.1911203932E+000 
400088835.967 +9.8702266325E-001 -9.4618950243E+000  +1.8210527473E-001 +7.8392617409E+001  +1.8319867023E-001 +7.8135838413E+001  +9.8590791941E-001 -9.3634309210E+000 
404089634.327 +9.9413269423E-001 -9.7532784320E+000  +1.8539303672E-001 +7.8171650405E+001  +1.8621709430E-001 +7.7844878383E+001  +9.9275125361E-001 -9.6363966240E+000 
408090432.687 +1.0004083724E+000 -1.0164533915E+001  +1.8852727943E-001 +7.7835113144E+001  +1.8918541689E-001 +7.7429365193E+001  +9.9895739077E-001 -1.0025012322E+001 
412091231.046 +1.0056664527E+000 -1.0669549555E+001  +1.9161504952E-001 +7.7369738794E+001  +1.9189584995E-001 +7.6978885047E+001  +1.0037753105E+000 -1.0499001991E+001 
416092029.406 +1.0087018094E+000 -1.1268769361E+001  +1.9440826701E-001 +7.6752587546E+001  +1.9426280375E-001 +7.6369167154E+001  +1.0068936657E+000 -1.1067729499E+001 
420092827.766 +1.0093718789E+000 -1.1942871977E+001  +1.9665142656E-001 +7.6087757963E+001  +1.9637650628E-001 +7.5702625750E+001  +1.0078336551E+000 -1.1698944681E+001 
424093626.125 +1.0073605341E+000 -1.2602277505E+001  +1.9840713811E-001 +7.5344838809E+001  +1.9752707349E-001 +7.5023824811E+001  +1.0060605254E+000 -1.2340160558E+001 
428094424.485 +1.0026009502E+000 -1.3250343762E+001  +1.9944778822E-001 +7.4618988653E+001  +1.9846785159E-001 +7.4374904036E+001  +1.0016880014E+000 -1.2961587118E+001 
432095222.845 +9.9537941324E-001 -1.3810247170E+001  +1.9981560735E-001 +7.4021762080E+001  +1.9848314564E-001 +7.3836485477E+001  +9.9490770957E-001 -1.3490855365E+001 
436096021.204 +9.8641116860E-001 -1.4244716074E+001  +1.9977462088E-001 +7.3473709285E+001  +1.9837030766E-001 +7.3417496757E+001  +9.8625134535E-001 -1.3923311641E+001 
440096819.564 +9.7605560907E-001 -1.4523926970E+001  +1.9938399385E-001 +7.3195738059E+001  +1.9802891675E-001 +7.3194551976E+001  +9.7659159190E-001 -1.4196418326E+001 
444097617.924 +9.6552544390E-001 -1.4638864326E+001  +1.9875154812E-001 +7.3054832322E+001  +1.9750888087E-001 +7.3138971487E+001  +9.6648832100E-001 -1.4317927338E+001 
448098416.283 +9.5570415248E-001 -1.4584115102E+001  +1.9842650489E-001 +7.3095066630E+001  +1.9729703281E-001 +7.3286458931E+001  +9.5707457418E-001 -1.4281742790E+001 
452099214.643 +9.4738729616E-001 -1.4386131766E+001  +1.9837858736E-001 +7.3331538284E+001  +1.9734717701E-001 +7.3585579445E+001  +9.4892071934E-001 -1.4084286103E+001 
456100013.003 +9.4071028065E-001 -1.4077684419E+001  +1.9861240117E-001 +7.3618192926E+001  +1.9793894863E-001 +7.3930505552E+001  +9.4236447617E-001 -1.3804497046E+001 
