!  2-Port S-parameters saved by WinCal
! VAR MeasName=S-Parameters (CALIBRATED_DATA) read from VNA (P5004A)
! VAR MeasDate=24/04/2024 16:10:34
! VAR NAME=Wafer2_r1_c3_pristine 10
! VAR FILENAME=Wafer2_r1_c3_pristine 10.S2P
! VAR DATE=24/04/2024 16:10:34
! VAR PHYS_PORTS=1,2
! VAR ObjTypeName=DATASET
! VAR IndexType=Frequency
!
# Hz S MA R 50
9000.000 +7.9029208164E-001 +1.7579146189E+001  +1.4952597039E-005 +1.2810880985E+002  +1.8833693550E-005 +4.0439790610E+001  +7.9344668489E-001 +1.7503413416E+001 
4009798.360 +9.8739426678E-001 -3.1304076100E+000  +1.8872719955E-003 +8.6143076329E+001  +1.9045620152E-003 +8.6096150768E+001  +9.8720494342E-001 -3.0399992900E+000 
8010596.719 +9.7628674440E-001 -6.2149403225E-001  +3.7075896124E-003 +8.8579435845E+001  +3.7416718231E-003 +8.8396744434E+001  +9.7684871922E-001 -5.9306700611E-001 
12011395.079 +9.8387834292E-001 +1.3772707423E-002  +5.6269576097E-003 +8.9047295421E+001  +5.6898886956E-003 +8.8646755050E+001  +9.8396134938E-001 -6.1206868704E-003 
16012193.439 +9.8992061816E-001 +1.8970508928E-001  +7.5206068836E-003 +8.9240663379E+001  +7.5826245913E-003 +8.8754480415E+001  +9.8986969251E-001 +1.7744470242E-001 
20012991.798 +9.9512974230E-001 +1.9694843875E-001  +9.4524771642E-003 +8.9232716431E+001  +9.4705775891E-003 +8.8708256368E+001  +9.9469581213E-001 +2.0564857333E-001 
24013790.158 +9.9949033439E-001 +1.3883643423E-001  +1.1383527812E-002 +8.9286053050E+001  +1.1384411400E-002 +8.8637391565E+001  +9.9961818771E-001 +1.2396413472E-001 
28014588.518 +1.0036390719E+000 -2.4142241446E-002  +1.3339661126E-002 +8.8975645039E+001  +1.3278021606E-002 +8.8356059507E+001  +1.0036117406E+000 -1.9270082460E-002 
32015386.877 +1.0078067042E+000 -2.1833402261E-001  +1.5291635681E-002 +8.8762952616E+001  +1.5234566853E-002 +8.8293425035E+001  +1.0075926436E+000 -2.3436475573E-001 
36016185.237 +1.0109049741E+000 -4.9192723872E-001  +1.7246329516E-002 +8.8498627277E+001  +1.7127490227E-002 +8.8144517721E+001  +1.0106569573E+000 -5.0556142977E-001 
40016983.597 +1.0129830324E+000 -8.2062784199E-001  +1.9207934996E-002 +8.8106360915E+001  +1.9037065746E-002 +8.7788998142E+001  +1.0125819295E+000 -8.3215638649E-001 
44017781.956 +1.0141405996E+000 -1.1893956012E+000  +2.1112499836E-002 +8.7730461367E+001  +2.0921894855E-002 +8.7401367274E+001  +1.0137439705E+000 -1.1837183921E+000 
48018580.316 +1.0145307573E+000 -1.5601317467E+000  +2.3024796095E-002 +8.7195114689E+001  +2.2822680815E-002 +8.7113529466E+001  +1.0144161876E+000 -1.5437923167E+000 
52019378.676 +1.0129890898E+000 -1.9550380507E+000  +2.4910125044E-002 +8.6677466234E+001  +2.4635659953E-002 +8.6839000090E+001  +1.0125583586E+000 -1.9265293335E+000 
56020177.035 +1.0103061057E+000 -2.2904334640E+000  +2.6719610435E-002 +8.6231181832E+001  +2.6440215334E-002 +8.6431574790E+001  +1.0100534075E+000 -2.2588982039E+000 
60020975.395 +1.0065849952E+000 -2.6153010212E+000  +2.8457438489E-002 +8.5907648907E+001  +2.8197575315E-002 +8.6220925098E+001  +1.0062610957E+000 -2.5596342693E+000 
64021773.755 +1.0016456283E+000 -2.8240742948E+000  +3.0118464504E-002 +8.5560946021E+001  +2.9934960545E-002 +8.5969760533E+001  +1.0014271171E+000 -2.7760768488E+000 
68022572.114 +9.9637781217E-001 -2.9511703857E+000  +3.1778805938E-002 +8.5375668457E+001  +3.1606096679E-002 +8.5955338309E+001  +9.9631592416E-001 -2.9202544542E+000 
72023370.474 +9.9174634576E-001 -2.9967638029E+000  +3.3416255770E-002 +8.5349775109E+001  +3.3325885195E-002 +8.5920761638E+001  +9.9183491529E-001 -2.9669062759E+000 
76024168.834 +9.8738971816E-001 -2.9610154592E+000  +3.5049778928E-002 +8.5377795012E+001  +3.5074515441E-002 +8.5971878347E+001  +9.8758383030E-001 -2.9223591500E+000 
80024967.193 +9.8418673261E-001 -2.8589375100E+000  +3.6693181841E-002 +8.5528970355E+001  +3.6782085506E-002 +8.6084387830E+001  +9.8442902916E-001 -2.8318927798E+000 
84025765.553 +9.8239609336E-001 -2.7433775422E+000  +3.8409355626E-002 +8.5674697217E+001  +3.8604700783E-002 +8.6196051074E+001  +9.8226780885E-001 -2.7285340882E+000 
88026563.913 +9.8161158160E-001 -2.5621558662E+000  +4.0149369361E-002 +8.5856636177E+001  +4.0421149743E-002 +8.6274700147E+001  +9.8142988986E-001 -2.5617483945E+000 
92027362.272 +9.8214112417E-001 -2.4284895526E+000  +4.1946496713E-002 +8.6022137836E+001  +4.2311280633E-002 +8.6287839245E+001  +9.8165433575E-001 -2.4263030177E+000 
96028160.632 +9.8296979706E-001 -2.2959255124E+000  +4.3789279064E-002 +8.6206459819E+001  +4.4180982542E-002 +8.6306896461E+001  +9.8252587485E-001 -2.2931647520E+000 
100028958.992 +9.8584646750E-001 -2.2036916168E+000  +4.5702165755E-002 +8.6309831038E+001  +4.6113552520E-002 +8.6270213318E+001  +9.8498987259E-001 -2.2014679108E+000 
104029757.351 +9.8898389124E-001 -2.1419685794E+000  +4.7640332991E-002 +8.6399171405E+001  +4.8073211226E-002 +8.6230922537E+001  +9.8808902434E-001 -2.1239637043E+000 
108030555.711 +9.9285065787E-001 -2.1169049555E+000  +4.9651994702E-002 +8.6503820825E+001  +5.0032166053E-002 +8.6155449926E+001  +9.9180606224E-001 -2.1141582953E+000 
112031354.071 +9.9718550281E-001 -2.1803896419E+000  +5.1721645842E-002 +8.6488980537E+001  +5.1990969314E-002 +8.6044748461E+001  +9.9624020165E-001 -2.1694564000E+000 
116032152.430 +1.0018411959E+000 -2.2892254908E+000  +5.3809184814E-002 +8.6401734539E+001  +5.3975736114E-002 +8.5877174618E+001  +1.0005363961E+000 -2.2826844250E+000 
120032950.790 +1.0064582347E+000 -2.4848534544E+000  +5.5979622515E-002 +8.6287043597E+001  +5.5985847514E-002 +8.5723349095E+001  +1.0051436471E+000 -2.4564491422E+000 
124033749.150 +1.0108485668E+000 -2.7598600155E+000  +5.8151999477E-002 +8.6039543928E+001  +5.8047891603E-002 +8.5454219837E+001  +1.0094450153E+000 -2.7303059033E+000 
128034547.510 +1.0142735388E+000 -3.1014455035E+000  +6.0272756364E-002 +8.5693527490E+001  +6.0061476612E-002 +8.5139205611E+001  +1.0128855893E+000 -3.0494214292E+000 
132035345.869 +1.0163508243E+000 -3.5142133548E+000  +6.2417905536E-002 +8.5266989657E+001  +6.2003528659E-002 +8.4789010210E+001  +1.0152070693E+000 -3.4565032371E+000 
136036144.229 +1.0172064105E+000 -3.9693694988E+000  +6.4388474344E-002 +8.4758367639E+001  +6.3891942945E-002 +8.4360270021E+001  +1.0161363720E+000 -3.8957047854E+000 
140036942.589 +1.0159951903E+000 -4.4342709758E+000  +6.6271633568E-002 +8.4164231564E+001  +6.5634611609E-002 +8.3905539282E+001  +1.0151485310E+000 -4.3473515365E+000 
144037740.948 +1.0132966560E+000 -4.8665776048E+000  +6.7969885479E-002 +8.3638552984E+001  +6.7248309308E-002 +8.3495605109E+001  +1.0125613587E+000 -4.7670562662E+000 
148038539.308 +1.0086950359E+000 -5.2468498498E+000  +6.9525511509E-002 +8.3163103388E+001  +6.8770283907E-002 +8.3143999897E+001  +1.0082599672E+000 -5.1490969885E+000 
152039337.668 +1.0029264229E+000 -5.5723640322E+000  +7.0878799373E-002 +8.2750955926E+001  +7.0179805753E-002 +8.2883840414E+001  +1.0025259407E+000 -5.4644570436E+000 
156040136.027 +9.9622986518E-001 -5.7598331481E+000  +7.2180467872E-002 +8.2496462562E+001  +7.1534426631E-002 +8.2762625538E+001  +9.9626503926E-001 -5.6624922256E+000 
160040934.387 +9.8971977732E-001 -5.8400838215E+000  +7.3408616150E-002 +8.2372406431E+001  +7.2862342767E-002 +8.2775804093E+001  +9.8982001452E-001 -5.7349403045E+000 
164041732.747 +9.8390391696E-001 -5.8052024554E+000  +7.4677227377E-002 +8.2368681155E+001  +7.4247653285E-002 +8.2874767570E+001  +9.8419110058E-001 -5.7331750280E+000 
168042531.106 +9.7886056896E-001 -5.7208286035E+000  +7.5977262816E-002 +8.2480628133E+001  +7.5749576415E-002 +8.3025514417E+001  +9.7924745663E-001 -5.6351578931E+000 
172043329.466 +9.7544822310E-001 -5.5431141028E+000  +7.7464656541E-002 +8.2650953973E+001  +7.7406385893E-002 +8.3218248220E+001  +9.7579404059E-001 -5.4804685745E+000 
176044127.826 +9.7302933397E-001 -5.3320933702E+000  +7.8991611671E-002 +8.2852227328E+001  +7.9146033209E-002 +8.3417058015E+001  +9.7356357533E-001 -5.2855097911E+000 
180044926.185 +9.7241958951E-001 -5.1302709459E+000  +8.0637395035E-002 +8.3081829231E+001  +8.1009350595E-002 +8.3615986819E+001  +9.7296026058E-001 -5.0826970513E+000 
184045724.545 +9.7315408605E-001 -4.9135238435E+000  +8.2413301482E-002 +8.3298250565E+001  +8.2960587931E-002 +8.3707921100E+001  +9.7354064883E-001 -4.8777881954E+000 
188046522.905 +9.7507822823E-001 -4.7283281783E+000  +8.4267324029E-002 +8.3500027806E+001  +8.4998376874E-002 +8.3769960206E+001  +9.7517355186E-001 -4.7036152786E+000 
192047321.264 +9.7809928175E-001 -4.5715270286E+000  +8.6275706769E-002 +8.3674088226E+001  +8.7081097323E-002 +8.3809425133E+001  +9.7812517191E-001 -4.5564322546E+000 
196048119.624 +9.8192487598E-001 -4.4736809037E+000  +8.8285507296E-002 +8.3804560850E+001  +8.9169434272E-002 +8.3795749685E+001  +9.8174185692E-001 -4.4640288844E+000 
200048917.984 +9.8684683677E-001 -4.4335365438E+000  +9.0488478572E-002 +8.3882646609E+001  +9.1322280997E-002 +8.3716119118E+001  +9.8640385810E-001 -4.4231467555E+000 
204049716.343 +9.9201089081E-001 -4.4651854738E+000  +9.2721198841E-002 +8.3905620611E+001  +9.3511203877E-002 +8.3616059885E+001  +9.9126589797E-001 -4.4466065599E+000 
208050514.703 +9.9768445468E-001 -4.5814507838E+000  +9.5084497736E-002 +8.3896031816E+001  +9.5714540118E-002 +8.3450725936E+001  +9.9667777402E-001 -4.5540721091E+000 
212051313.063 +1.0033206137E+000 -4.7761532097E+000  +9.7499142478E-002 +8.3759580977E+001  +9.7946325770E-002 +8.3247170517E+001  +1.0021730395E+000 -4.7477374719E+000 
216052111.422 +1.0083264093E+000 -5.0853877609E+000  +9.9989373304E-002 +8.3506581175E+001  +1.0017608293E-001 +8.2943815034E+001  +1.0070757582E+000 -5.0181536851E+000 
220052909.782 +1.0127807455E+000 -5.4440301752E+000  +1.0241893652E-001 +8.3158665494E+001  +1.0232812699E-001 +8.2595616014E+001  +1.0113401390E+000 -5.3831709799E+000 
224053708.142 +1.0158591237E+000 -5.9032215129E+000  +1.0477856072E-001 +8.2691739489E+001  +1.0446151543E-001 +8.2172569895E+001  +1.0144852989E+000 -5.8148854689E+000 
228054506.501 +1.0172753945E+000 -6.4122096982E+000  +1.0699378159E-001 +8.2152372374E+001  +1.0637429353E-001 +8.1669327129E+001  +1.0161274741E+000 -6.3070940270E+000 
232055304.861 +1.0164123916E+000 -6.9439462996E+000  +1.0888698948E-001 +8.1552066165E+001  +1.0810716282E-001 +8.1157415959E+001  +1.0154569397E+000 -6.8199956487E+000 
236056103.221 +1.0134168321E+000 -7.4690053511E+000  +1.1052940268E-001 +8.0934103191E+001  +1.0952590386E-001 +8.0640452464E+001  +1.0127055441E+000 -7.3281089775E+000 
240056901.580 +1.0084937112E+000 -7.9521506122E+000  +1.1183707446E-001 +8.0342053112E+001  +1.1076726442E-001 +8.0173751634E+001  +1.0080561862E+000 -7.7947654148E+000 
244057699.940 +1.0018062444E+000 -8.3265303160E+000  +1.1287181124E-001 +7.9868914680E+001  +1.1176638406E-001 +7.9857598436E+001  +1.0018361232E+000 -8.1659609522E+000 
248058498.300 +9.9424836940E-001 -8.5818574467E+000  +1.1373238753E-001 +7.9546744963E+001  +1.1265009255E-001 +7.9661666083E+001  +9.9448206585E-001 -8.4079925220E+000 
252059296.659 +9.8606235791E-001 -8.7168849446E+000  +1.1448268761E-001 +7.9363665004E+001  +1.1343074070E-001 +7.9624931456E+001  +9.8657316812E-001 -8.5480209698E+000 
256060095.019 +9.7858540701E-001 -8.7164826843E+000  +1.1525474760E-001 +7.9334712792E+001  +1.1439822202E-001 +7.9709834857E+001  +9.7921976911E-001 -8.5620142491E+000 
260060893.379 +9.7167032712E-001 -8.6106724016E+000  +1.1610485984E-001 +7.9406269844E+001  +1.1544676492E-001 +7.9908981572E+001  +9.7290829201E-001 -8.4623448168E+000 
264061691.738 +9.6683382787E-001 -8.4031147344E+000  +1.1715939770E-001 +7.9627694590E+001  +1.1676446450E-001 +8.0157802807E+001  +9.6785780395E-001 -8.2798743271E+000 
268062490.098 +9.6332016533E-001 -8.1545049041E+000  +1.1842973291E-001 +7.9874913432E+001  +1.1830790773E-001 +8.0432826212E+001  +9.6439373732E-001 -8.0423283009E+000 
272063288.458 +9.6163337705E-001 -7.8611737259E+000  +1.1988143120E-001 +8.0151555267E+001  +1.2006389456E-001 +8.0710414269E+001  +9.6257051403E-001 -7.7679092750E+000 
276064086.817 +9.6166142734E-001 -7.5683844174E+000  +1.2156469169E-001 +8.0436874142E+001  +1.2202527953E-001 +8.0933868303E+001  +9.6248531262E-001 -7.5026394691E+000 
280064885.177 +9.6313156625E-001 -7.2870214794E+000  +1.2340215030E-001 +8.0697117495E+001  +1.2418984732E-001 +8.1113843200E+001  +9.6408394769E-001 -7.2421513718E+000 
284065683.537 +9.6614762605E-001 -7.0630627802E+000  +1.2539098299E-001 +8.0905855053E+001  +1.2639578046E-001 +8.1222940202E+001  +9.6660616386E-001 -7.0300754399E+000 
288066481.896 +9.7045803551E-001 -6.8791165461E+000  +1.2758299124E-001 +8.1105859209E+001  +1.2873543033E-001 +8.1269455881E+001  +9.7059522650E-001 -6.8451950326E+000 
292067280.256 +9.7550768089E-001 -6.7760219129E+000  +1.2987296144E-001 +8.1242174153E+001  +1.3107377236E-001 +8.1237320199E+001  +9.7532534477E-001 -6.7449769422E+000 
296068078.616 +9.8148707686E-001 -6.7392632027E+000  +1.3235411282E-001 +8.1318685393E+001  +1.3353656688E-001 +8.1194815326E+001  +9.8099578460E-001 -6.7171096193E+000 
300068876.975 +9.8804660740E-001 -6.7971938164E+000  +1.3493258101E-001 +8.1316312931E+001  +1.3605821146E-001 +8.1089500649E+001  +9.8726155571E-001 -6.7611964212E+000 
304069675.335 +9.9466530092E-001 -6.9463204485E+000  +1.3766189642E-001 +8.1248645054E+001  +1.3856330166E-001 +8.0891941130E+001  +9.9372968965E-001 -6.9097742637E+000 
308070473.695 +1.0010706985E+000 -7.2152085244E+000  +1.4047554729E-001 +8.1070851260E+001  +1.4114334573E-001 +8.0624716268E+001  +9.9986305716E-001 -7.1503742463E+000 
312071272.054 +1.0067165263E+000 -7.5816375203E+000  +1.4328508943E-001 +8.0759882367E+001  +1.4358698091E-001 +8.0261173446E+001  +1.0052651207E+000 -7.4928899218E+000 
316072070.414 +1.0113154622E+000 -8.0395431521E+000  +1.4595550405E-001 +8.0330220901E+001  +1.4599992887E-001 +7.9830767136E+001  +1.0096994543E+000 -7.9382150628E+000 
320072868.774 +1.0138938480E+000 -8.5786328548E+000  +1.4843539779E-001 +7.9787595185E+001  +1.4817394126E-001 +7.9294903510E+001  +1.0125755883E+000 -8.4480611545E+000 
324073667.133 +1.0149014233E+000 -9.1709259187E+000  +1.5064504226E-001 +7.9160433874E+001  +1.5008668876E-001 +7.8721614577E+001  +1.0133234284E+000 -9.0129738975E+000 
328074465.493 +1.0131925676E+000 -9.7686615430E+000  +1.5250600178E-001 +7.8509527833E+001  +1.5159782385E-001 +7.8125709793E+001  +1.0120274501E+000 -9.5805916767E+000 
332075263.853 +1.0091756913E+000 -1.0340830353E+001  +1.5380683842E-001 +7.7836788768E+001  +1.5272377405E-001 +7.7564426316E+001  +1.0082105982E+000 -1.0134685263E+001 
336076062.212 +1.0028719370E+000 -1.0838641151E+001  +1.5467306409E-001 +7.7259368842E+001  +1.5341147231E-001 +7.7063995041E+001  +1.0021318886E+000 -1.0626098173E+001 
340076860.572 +9.9472401665E-001 -1.1232423646E+001  +1.5512552155E-001 +7.6791421230E+001  +1.5385195274E-001 +7.6722254193E+001  +9.9451569110E-001 -1.1010907164E+001 
344077658.932 +9.8563363162E-001 -1.1493975987E+001  +1.5550743910E-001 +7.6471640937E+001  +1.5413952749E-001 +7.6506396136E+001  +9.8597023253E-001 -1.1265982367E+001 
348078457.291 +9.7640741667E-001 -1.1584807831E+001  +1.5560519102E-001 +7.6352277925E+001  +1.5436422029E-001 +7.6496500142E+001  +9.7696062385E-001 -1.1364318861E+001 
352079255.651 +9.6758448200E-001 -1.1542483119E+001  +1.5588018794E-001 +7.6370519935E+001  +1.5475228928E-001 +7.6621775860E+001  +9.6854941837E-001 -1.1336336147E+001 
356080054.011 +9.6016960373E-001 -1.1372737099E+001  +1.5627833081E-001 +7.6540514460E+001  +1.5543128072E-001 +7.6888353674E+001  +9.6131188306E-001 -1.1172866239E+001 
360080852.370 +9.5447951306E-001 -1.1105961610E+001  +1.5702122845E-001 +7.6794797680E+001  +1.5641426743E-001 +7.7222120022E+001  +9.5584606335E-001 -1.0928190764E+001 
364081650.730 +9.5080083244E-001 -1.0757533484E+001  +1.5807430102E-001 +7.7130547690E+001  +1.5779035217E-001 +7.7582777202E+001  +9.5216004126E-001 -1.0613772296E+001 
368082449.090 +9.4903446898E-001 -1.0409318438E+001  +1.5947906031E-001 +7.7462716392E+001  +1.5952235922E-001 +7.7921420798E+001  +9.5031373805E-001 -1.0269567414E+001 
372083247.449 +9.4914169964E-001 -1.0052136143E+001  +1.6113435456E-001 +7.7773194096E+001  +1.6146872269E-001 +7.8219435436E+001  +9.5044897157E-001 -9.9400391527E+000 
376084045.809 +9.5132616556E-001 -9.7228195558E+000  +1.6308270068E-001 +7.8076848109E+001  +1.6376189882E-001 +7.8468948555E+001  +9.5236206746E-001 -9.6230879303E+000 
380084844.169 +9.5476945543E-001 -9.4328210665E+000  +1.6525842554E-001 +7.8337002765E+001  +1.6625874529E-001 +7.8655303521E+001  +9.5570338413E-001 -9.3545489711E+000 
384085642.529 +9.5967022896E-001 -9.2144771770E+000  +1.6761796591E-001 +7.8535533957E+001  +1.6882514801E-001 +7.8762408328E+001  +9.6036801672E-001 -9.1531581865E+000 
388086440.888 +9.6571799487E-001 -9.0781992320E+000  +1.7020439279E-001 +7.8690410609E+001  +1.7156335745E-001 +7.8779683282E+001  +9.6603463462E-001 -9.0273274980E+000 
392087239.248 +9.7280429304E-001 -9.0374175155E+000  +1.7301137613E-001 +7.8758690914E+001  +1.7439455024E-001 +7.8732667583E+001  +9.7259024382E-001 -8.9773655052E+000 
396088037.608 +9.8004089334E-001 -9.1005522145E+000  +1.7596028001E-001 +7.8762327982E+001  +1.7724570695E-001 +7.8623554679E+001  +9.7982844898E-001 -9.0396103962E+000 
400088835.967 +9.8793663598E-001 -9.2731832329E+000  +1.7906662995E-001 +7.8663818872E+001  +1.8021680469E-001 +7.8428515756E+001  +9.8693925954E-001 -9.2116412229E+000 
404089634.327 +9.9504542319E-001 -9.5599002550E+000  +1.8228211008E-001 +7.8469982324E+001  +1.8312224508E-001 +7.8137794341E+001  +9.9386125450E-001 -9.4766951091E+000 
408090432.687 +1.0015370099E+000 -9.9602437162E+000  +1.8540678640E-001 +7.8118545541E+001  +1.8602857632E-001 +7.7745117436E+001  +1.0000370745E+000 -9.8599300976E+000 
412091231.046 +1.0067294761E+000 -1.0462579682E+001  +1.8844001818E-001 +7.7660843287E+001  +1.8871132315E-001 +7.7265123791E+001  +1.0050291874E+000 -1.0334622411E+001 
416092029.406 +1.0098777187E+000 -1.1063676367E+001  +1.9114755329E-001 +7.7061474011E+001  +1.9110457027E-001 +7.6660310421E+001  +1.0080939977E+000 -1.0900434656E+001 
420092827.766 +1.0107371722E+000 -1.1721884569E+001  +1.9343642951E-001 +7.6386896853E+001  +1.9303088437E-001 +7.6009478546E+001  +1.0090196457E+000 -1.1531010313E+001 
424093626.125 +1.0087023297E+000 -1.2389791330E+001  +1.9512249787E-001 +7.5662700192E+001  +1.9440063380E-001 +7.5341375833E+001  +1.0073184697E+000 -1.2164786444E+001 
428094424.485 +1.0039426342E+000 -1.3033198325E+001  +1.9619109281E-001 +7.4938830387E+001  +1.9520214301E-001 +7.4679599912E+001  +1.0029903445E+000 -1.2792870918E+001 
432095222.845 +9.9698213353E-001 -1.3585977612E+001  +1.9660078600E-001 +7.4325582552E+001  +1.9546313184E-001 +7.4143142332E+001  +9.9628877981E-001 -1.3320728395E+001 
436096021.204 +9.8788734928E-001 -1.4017034857E+001  +1.9647960266E-001 +7.3809699732E+001  +1.9526062248E-001 +7.3727559686E+001  +9.8755922780E-001 -1.3750374191E+001 
440096819.564 +9.7758302347E-001 -1.4297592419E+001  +1.9610586327E-001 +7.3490725052E+001  +1.9478101861E-001 +7.3503261370E+001  +9.7788325253E-001 -1.4021918745E+001 
444097617.924 +9.6703217533E-001 -1.4406821865E+001  +1.9561529874E-001 +7.3366419496E+001  +1.9437026360E-001 +7.3451436754E+001  +9.6782883429E-001 -1.4136960923E+001 
448098416.283 +9.5722348374E-001 -1.4356510395E+001  +1.9517578131E-001 +7.3413081168E+001  +1.9415070021E-001 +7.3605526412E+001  +9.5835766716E-001 -1.4098955087E+001 
452099214.643 +9.4876604836E-001 -1.4146528251E+001  +1.9510964544E-001 +7.3634260724E+001  +1.9420380664E-001 +7.3898263679E+001  +9.5017743559E-001 -1.3905277181E+001 
456100013.003 +9.4207354735E-001 -1.3843639470E+001  +1.9539006026E-001 +7.3943129503E+001  +1.9474245988E-001 +7.4244415913E+001  +9.4358678029E-001 -1.3625505113E+001 
