!  2-Port S-parameters saved by WinCal
! VAR MeasName=S-Parameters (CALIBRATED_DATA) read from VNA (P5004A)
! VAR MeasDate=24/04/2024 16:11:10
! VAR NAME=Wafer2_r1_c3_pristine 11
! VAR FILENAME=Wafer2_r1_c3_pristine 11.S2P
! VAR DATE=24/04/2024 16:11:10
! VAR PHYS_PORTS=1,2
! VAR ObjTypeName=DATASET
! VAR IndexType=Frequency
!
# Hz S MA R 50
9000.000 +7.9039509512E-001 +1.7584704225E+001  +1.3107314371E-005 -4.4733062906E+001  +2.2230839953E-005 +1.6487469797E+002  +7.9341430736E-001 +1.7497844693E+001 
4009798.360 +9.8752629221E-001 -3.1269045278E+000  +1.8842149584E-003 +8.6205056831E+001  +1.9044282493E-003 +8.6216072919E+001  +9.8715452399E-001 -3.0391049897E+000 
8010596.719 +9.7636790723E-001 -6.1813329838E-001  +3.7072406902E-003 +8.8570774819E+001  +3.7400980347E-003 +8.8374050106E+001  +9.7680140425E-001 -6.0186118841E-001 
12011395.079 +9.8393095812E-001 +9.2147210133E-003  +5.6323384859E-003 +8.9128615004E+001  +5.6685733105E-003 +8.8780888105E+001  +9.8392642437E-001 -7.7162092452E-003 
16012193.439 +9.8998635956E-001 +1.8965454538E-001  +7.5362768192E-003 +8.9273992334E+001  +7.5840488823E-003 +8.8789124456E+001  +9.8972783635E-001 +1.7751154205E-001 
20012991.798 +9.9519707500E-001 +1.9357386523E-001  +9.4511268632E-003 +8.9375291227E+001  +9.4587185949E-003 +8.8657035112E+001  +9.9463202841E-001 +2.0839829902E-001 
24013790.158 +9.9952335434E-001 +1.4021306209E-001  +1.1382678018E-002 +8.9212146086E+001  +1.1377281509E-002 +8.8576901351E+001  +9.9960176725E-001 +1.1832644517E-001 
28014588.518 +1.0036275981E+000 -1.9708732865E-002  +1.3309202713E-002 +8.9025347438E+001  +1.3270837403E-002 +8.8402520416E+001  +1.0035050738E+000 -2.3199384866E-002 
32015386.877 +1.0078868012E+000 -2.1456232942E-001  +1.5278010123E-002 +8.8748944274E+001  +1.5195293433E-002 +8.8323500324E+001  +1.0076156579E+000 -2.3112261077E-001 
36016185.237 +1.0109308725E+000 -4.8737590126E-001  +1.7227458743E-002 +8.8493126230E+001  +1.7157156760E-002 +8.8111622737E+001  +1.0106456826E+000 -5.0204419959E-001 
40016983.597 +1.0129951736E+000 -8.2008023079E-001  +1.9191406647E-002 +8.8147145742E+001  +1.9037126462E-002 +8.7787607567E+001  +1.0126086846E+000 -8.2955832585E-001 
44017781.956 +1.0141455276E+000 -1.1895026551E+000  +2.1128626095E-002 +8.7638335075E+001  +2.0925698206E-002 +8.7404652919E+001  +1.0137021378E+000 -1.1811574535E+000 
48018580.316 +1.0145613591E+000 -1.5595408541E+000  +2.3059145687E-002 +8.7143736785E+001  +2.2824524682E-002 +8.7079590704E+001  +1.0144429729E+000 -1.5471899640E+000 
52019378.676 +1.0129751319E+000 -1.9536503166E+000  +2.4881474136E-002 +8.6642788454E+001  +2.4651046396E-002 +8.6770573620E+001  +1.0125054857E+000 -1.9262726652E+000 
56020177.035 +1.0102909764E+000 -2.2926633574E+000  +2.6735127645E-002 +8.6240319197E+001  +2.6427041860E-002 +8.6433115608E+001  +1.0100743115E+000 -2.2567044984E+000 
60020975.395 +1.0065809003E+000 -2.6149567543E+000  +2.8438743686E-002 +8.5866528909E+001  +2.8203776632E-002 +8.6157553014E+001  +1.0062527248E+000 -2.5620421564E+000 
64021773.755 +1.0016251624E+000 -2.8252542994E+000  +3.0131058474E-002 +8.5592586141E+001  +2.9917831879E-002 +8.6003405781E+001  +1.0013870205E+000 -2.7780534082E+000 
68022572.114 +9.9641619880E-001 -2.9507820378E+000  +3.1759524952E-002 +8.5420806598E+001  +3.1623397961E-002 +8.5956514508E+001  +9.9628491743E-001 -2.9208242223E+000 
72023370.474 +9.9169849011E-001 -2.9973706330E+000  +3.3413473860E-002 +8.5367324179E+001  +3.3335067406E-002 +8.5900238054E+001  +9.9182223667E-001 -2.9640825043E+000 
76024168.834 +9.8744089874E-001 -2.9620544726E+000  +3.5055337688E-002 +8.5411821118E+001  +3.5042065486E-002 +8.5991278755E+001  +9.8763504737E-001 -2.9246752647E+000 
80024967.193 +9.8418611199E-001 -2.8609960973E+000  +3.6684871308E-002 +8.5521442358E+001  +3.6782373649E-002 +8.6085308468E+001  +9.8442972343E-001 -2.8296192115E+000 
84025765.553 +9.8237083337E-001 -2.7456059683E+000  +3.8426930275E-002 +8.5693871943E+001  +3.8573647179E-002 +8.6162463247E+001  +9.8228395409E-001 -2.7269681710E+000 
88026563.913 +9.8156369440E-001 -2.5641311454E+000  +4.0145083544E-002 +8.5893256809E+001  +4.0440152817E-002 +8.6269803320E+001  +9.8147269907E-001 -2.5623323212E+000 
92027362.272 +9.8209806144E-001 -2.4289963544E+000  +4.1950196214E-002 +8.6040392349E+001  +4.2311742270E-002 +8.6295899761E+001  +9.8167129259E-001 -2.4260756667E+000 
96028160.632 +9.8298228755E-001 -2.2960458345E+000  +4.3773300460E-002 +8.6183375257E+001  +4.4207045711E-002 +8.6330829564E+001  +9.8251333898E-001 -2.2959299963E+000 
100028958.992 +9.8585461271E-001 -2.2043719328E+000  +4.5691458333E-002 +8.6305572432E+001  +4.6161120765E-002 +8.6277046309E+001  +9.8505328179E-001 -2.2012914348E+000 
104029757.351 +9.8901137273E-001 -2.1411129834E+000  +4.7638069582E-002 +8.6435335337E+001  +4.8083267293E-002 +8.6217402718E+001  +9.8816868782E-001 -2.1254191241E+000 
108030555.711 +9.9290692884E-001 -2.1171308345E+000  +4.9640113038E-002 +8.6507314474E+001  +5.0013795224E-002 +8.6144154965E+001  +9.9187516057E-001 -2.1142038901E+000 
112031354.071 +9.9724633139E-001 -2.1772185441E+000  +5.1702424081E-002 +8.6509677243E+001  +5.1996821977E-002 +8.6052652280E+001  +9.9624694390E-001 -2.1671038824E+000 
116032152.430 +1.0018301663E+000 -2.2906844240E+000  +5.3815695951E-002 +8.6409999012E+001  +5.3986552278E-002 +8.5892605150E+001  +1.0005795391E+000 -2.2815910890E+000 
120032950.790 +1.0065175906E+000 -2.4855490782E+000  +5.5957306758E-002 +8.6281967705E+001  +5.6001170442E-002 +8.5722339049E+001  +1.0051790823E+000 -2.4537491164E+000 
124033749.150 +1.0108110001E+000 -2.7565226750E+000  +5.8145568207E-002 +8.6022057253E+001  +5.8050708370E-002 +8.5472547226E+001  +1.0094120818E+000 -2.7324425524E+000 
128034547.510 +1.0143574769E+000 -3.1035719771E+000  +6.0302798421E-002 +8.5711070272E+001  +6.0074486822E-002 +8.5144708262E+001  +1.0129217419E+000 -3.0492745046E+000 
132035345.869 +1.0163616084E+000 -3.5119423853E+000  +6.2394761810E-002 +8.5239269060E+001  +6.2035288623E-002 +8.4763152148E+001  +1.0152601753E+000 -3.4560206101E+000 
136036144.229 +1.0171785622E+000 -3.9683946586E+000  +6.4373664115E-002 +8.4756515720E+001  +6.3911577950E-002 +8.4326954828E+001  +1.0161144933E+000 -3.8970790165E+000 
140036942.589 +1.0159933656E+000 -4.4329438713E+000  +6.6269341414E-002 +8.4163664779E+001  +6.5635052022E-002 +8.3915976194E+001  +1.0151971607E+000 -4.3451996550E+000 
144037740.948 +1.0133253903E+000 -4.8659555933E+000  +6.7998164228E-002 +8.3633277903E+001  +6.7262807620E-002 +8.3523993074E+001  +1.0126181305E+000 -4.7671851890E+000 
148038539.308 +1.0086659872E+000 -5.2486520809E+000  +6.9472038127E-002 +8.3175608288E+001  +6.8753603840E-002 +8.3186769852E+001  +1.0082681134E+000 -5.1488750315E+000 
152039337.668 +1.0029637863E+000 -5.5726056720E+000  +7.0887205644E-002 +8.2769963224E+001  +7.0134698763E-002 +8.2881409859E+001  +1.0025218294E+000 -5.4624297135E+000 
156040136.027 +9.9625979669E-001 -5.7591715734E+000  +7.2169612437E-002 +8.2508453502E+001  +7.1483868920E-002 +8.2765123005E+001  +9.9617894586E-001 -5.6613330424E+000 
160040934.387 +9.8976906285E-001 -5.8390861855E+000  +7.3394094075E-002 +8.2388938760E+001  +7.2843448289E-002 +8.2762945921E+001  +9.8984075385E-001 -5.7339806077E+000 
164041732.747 +9.8395627571E-001 -5.8106191632E+000  +7.4701617604E-002 +8.2381058206E+001  +7.4267282027E-002 +8.2870728771E+001  +9.8416822377E-001 -5.7320672007E+000 
168042531.106 +9.7894700968E-001 -5.7199190196E+000  +7.5998909728E-002 +8.2488899061E+001  +7.5775203405E-002 +8.3041625224E+001  +9.7928533181E-001 -5.6342830667E+000 
172043329.466 +9.7542828321E-001 -5.5448546507E+000  +7.7423692654E-002 +8.2648838486E+001  +7.7405468971E-002 +8.3207851207E+001  +9.7582292011E-001 -5.4809193869E+000 
176044127.826 +9.7305336118E-001 -5.3339952081E+000  +7.8974410860E-002 +8.2870352818E+001  +7.9154745083E-002 +8.3420418733E+001  +9.7360799176E-001 -5.2840632338E+000 
180044926.185 +9.7239192686E-001 -5.1279828998E+000  +8.0635445267E-002 +8.3081951772E+001  +8.1016297091E-002 +8.3606016495E+001  +9.7294323728E-001 -5.0821629222E+000 
184045724.545 +9.7321381975E-001 -4.9148134809E+000  +8.2408348302E-002 +8.3301592129E+001  +8.2963795986E-002 +8.3723010484E+001  +9.7355160632E-001 -4.8779602422E+000 
188046522.905 +9.7504455070E-001 -4.7291314965E+000  +8.4268480804E-002 +8.3492591875E+001  +8.4983462012E-002 +8.3781636383E+001  +9.7516558659E-001 -4.7045041493E+000 
192047321.264 +9.7809923693E-001 -4.5740343047E+000  +8.6246338308E-002 +8.3676414133E+001  +8.7078085707E-002 +8.3807145907E+001  +9.7813879893E-001 -4.5581855613E+000 
196048119.624 +9.8196679636E-001 -4.4717706063E+000  +8.8281374495E-002 +8.3802386119E+001  +8.9194191078E-002 +8.3786087933E+001  +9.8175837081E-001 -4.4634128284E+000 
200048917.984 +9.8685570373E-001 -4.4318045337E+000  +9.0470587274E-002 +8.3894420641E+001  +9.1366516638E-002 +8.3717505078E+001  +9.8645073761E-001 -4.4223909763E+000 
204049716.343 +9.9205841550E-001 -4.4624392909E+000  +9.2709820312E-002 +8.3921409337E+001  +9.3467427873E-002 +8.3610643564E+001  +9.9124621081E-001 -4.4473041113E+000 
208050514.703 +9.9772745717E-001 -4.5792286511E+000  +9.5095150133E-002 +8.3891109831E+001  +9.5718779808E-002 +8.3454233159E+001  +9.9668611758E-001 -4.5534048792E+000 
212051313.063 +1.0033230204E+000 -4.7743638858E+000  +9.7498815640E-002 +8.3753646929E+001  +9.7989436720E-002 +8.3245610470E+001  +1.0021484270E+000 -4.7509267763E+000 
216052111.422 +1.0083447620E+000 -5.0857199860E+000  +9.9953842508E-002 +8.3495761708E+001  +1.0011974826E-001 +8.2943670780E+001  +1.0071590074E+000 -5.0203758338E+000 
220052909.782 +1.0127849366E+000 -5.4396922219E+000  +1.0242041323E-001 +8.3159687612E+001  +1.0234519931E-001 +8.2609536680E+001  +1.0113205840E+000 -5.3832202594E+000 
224053708.142 +1.0159227474E+000 -5.9006639765E+000  +1.0478598615E-001 +8.2711797981E+001  +1.0448466333E-001 +8.2159833029E+001  +1.0145376282E+000 -5.8171915510E+000 
228054506.501 +1.0172618341E+000 -6.4111249613E+000  +1.0696200840E-001 +8.2139918233E+001  +1.0638027161E-001 +8.1658507573E+001  +1.0160929655E+000 -6.3056420342E+000 
232055304.861 +1.0163943895E+000 -6.9443406816E+000  +1.0885316880E-001 +8.1560882050E+001  +1.0808952730E-001 +8.1159211134E+001  +1.0154644818E+000 -6.8183426811E+000 
236056103.221 +1.0134886300E+000 -7.4691698999E+000  +1.1053470773E-001 +8.0938757861E+001  +1.0952665463E-001 +8.0641496833E+001  +1.0127052748E+000 -7.3289422427E+000 
240056901.580 +1.0084742172E+000 -7.9493373999E+000  +1.1184672287E-001 +8.0319950493E+001  +1.1075130672E-001 +8.0182776062E+001  +1.0080343067E+000 -7.7923248939E+000 
244057699.940 +1.0018264229E+000 -8.3260117289E+000  +1.1288892889E-001 +7.9877632096E+001  +1.1176752151E-001 +7.9846991691E+001  +1.0018575575E+000 -8.1660080307E+000 
248058498.300 +9.9425488450E-001 -8.5823426884E+000  +1.1370160296E-001 +7.9540854396E+001  +1.1267065488E-001 +7.9683158762E+001  +9.9442291962E-001 -8.4131663839E+000 
252059296.659 +9.8600971413E-001 -8.7138902533E+000  +1.1446018335E-001 +7.9366869659E+001  +1.1344560179E-001 +7.9625056602E+001  +9.8656416828E-001 -8.5487821282E+000 
256060095.019 +9.7860677828E-001 -8.7186104104E+000  +1.1522719022E-001 +7.9329965474E+001  +1.1440721315E-001 +7.9707864071E+001  +9.7930536582E-001 -8.5604932360E+000 
260060893.379 +9.7168858607E-001 -8.6122422717E+000  +1.1609962035E-001 +7.9411356032E+001  +1.1545106909E-001 +7.9907361828E+001  +9.7294622614E-001 -8.4627860735E+000 
264061691.738 +9.6677729850E-001 -8.4003048815E+000  +1.1713278657E-001 +7.9622014532E+001  +1.1679364598E-001 +8.0149274202E+001  +9.6793436031E-001 -8.2794091682E+000 
268062490.098 +9.6327738970E-001 -8.1537950319E+000  +1.1838530986E-001 +7.9875026362E+001  +1.1834073428E-001 +8.0436611564E+001  +9.6445937597E-001 -8.0433508283E+000 
272063288.458 +9.6160732603E-001 -7.8621355423E+000  +1.1986291122E-001 +8.0148538177E+001  +1.2008180225E-001 +8.0691010387E+001  +9.6262375652E-001 -7.7682521711E+000 
276064086.817 +9.6174582829E-001 -7.5709904232E+000  +1.2153494758E-001 +8.0442091526E+001  +1.2204656215E-001 +8.0942466770E+001  +9.6253618988E-001 -7.5009075708E+000 
280064885.177 +9.6319822384E-001 -7.2866663626E+000  +1.2339112063E-001 +8.0702296096E+001  +1.2420076190E-001 +8.1111922153E+001  +9.6407030679E-001 -7.2400708172E+000 
284065683.537 +9.6611073263E-001 -7.0630262153E+000  +1.2538802894E-001 +8.0906382861E+001  +1.2640367480E-001 +8.1222781912E+001  +9.6657099665E-001 -7.0305496682E+000 
288066481.896 +9.7043981631E-001 -6.8796610429E+000  +1.2757358382E-001 +8.1112862573E+001  +1.2875016505E-001 +8.1270400788E+001  +9.7063329302E-001 -6.8444008278E+000 
292067280.256 +9.7551014838E-001 -6.7771821964E+000  +1.2984216238E-001 +8.1238365591E+001  +1.3113019322E-001 +8.1249502905E+001  +9.7533595701E-001 -6.7477432983E+000 
296068078.616 +9.8147649719E-001 -6.7389586546E+000  +1.3232339537E-001 +8.1318078245E+001  +1.3357411816E-001 +8.1190835897E+001  +9.8099611522E-001 -6.7174223851E+000 
300068876.975 +9.8799171877E-001 -6.7974740109E+000  +1.3492777258E-001 +8.1326586608E+001  +1.3603607756E-001 +8.1079030703E+001  +9.8723394279E-001 -6.7623408898E+000 
304069675.335 +9.9464619591E-001 -6.9460031482E+000  +1.3763920438E-001 +8.1261909595E+001  +1.3858906423E-001 +8.0901360098E+001  +9.9371649727E-001 -6.9081822647E+000 
308070473.695 +1.0010991618E+000 -7.2143326284E+000  +1.4046429157E-001 +8.1062834907E+001  +1.4112987130E-001 +8.0621306833E+001  +9.9980056657E-001 -7.1514371369E+000 
312071272.054 +1.0067461746E+000 -7.5808936243E+000  +1.4328079452E-001 +8.0765691311E+001  +1.4361841591E-001 +8.0269324220E+001  +1.0052926409E+000 -7.4945510004E+000 
316072070.414 +1.0113448499E+000 -8.0383889182E+000  +1.4595304311E-001 +8.0335962010E+001  +1.4600914569E-001 +7.9834118907E+001  +1.0097245779E+000 -7.9372223039E+000 
320072868.774 +1.0139029633E+000 -8.5815953504E+000  +1.4845707810E-001 +7.9791102515E+001  +1.4813666321E-001 +7.9312949953E+001  +1.0125646807E+000 -8.4456040702E+000 
324073667.133 +1.0149139703E+000 -9.1680924601E+000  +1.5062943617E-001 +7.9161929535E+001  +1.5008606561E-001 +7.8725687692E+001  +1.0132781181E+000 -9.0126986417E+000 
328074465.493 +1.0132093180E+000 -9.7662565570E+000  +1.5248419346E-001 +7.8501946955E+001  +1.5161327633E-001 +7.8139625741E+001  +1.0120076694E+000 -9.5798772156E+000 
332075263.853 +1.0091982731E+000 -1.0337166922E+001  +1.5378984286E-001 +7.7837103608E+001  +1.5272907147E-001 +7.7565382606E+001  +1.0081751688E+000 -1.0134239963E+001 
336076062.212 +1.0028436053E+000 -1.0836706015E+001  +1.5465601953E-001 +7.7257133143E+001  +1.5341326222E-001 +7.7063620402E+001  +1.0021404516E+000 -1.0624882065E+001 
340076860.572 +9.9475395586E-001 -1.1234074524E+001  +1.5514430569E-001 +7.6783037033E+001  +1.5387181255E-001 +7.6725415945E+001  +9.9453438842E-001 -1.1014087406E+001 
344077658.932 +9.8569791768E-001 -1.1492270389E+001  +1.5546961468E-001 +7.6489727286E+001  +1.5413993900E-001 +7.6508393746E+001  +9.8603766365E-001 -1.1266381369E+001 
348078457.291 +9.7635282234E-001 -1.1584471977E+001  +1.5561777961E-001 +7.6346025634E+001  +1.5437006381E-001 +7.6502320644E+001  +9.7696877193E-001 -1.1361764412E+001 
352079255.651 +9.6759542007E-001 -1.1540980167E+001  +1.5586491664E-001 +7.6372077004E+001  +1.5476503953E-001 +7.6626820978E+001  +9.6854586597E-001 -1.1333314363E+001 
356080054.011 +9.6018163702E-001 -1.1373944085E+001  +1.5626348966E-001 +7.6536280880E+001  +1.5539741944E-001 +7.6885451315E+001  +9.6128212482E-001 -1.1170192811E+001 
360080852.370 +9.5444188919E-001 -1.1102851577E+001  +1.5699658321E-001 +7.6802803109E+001  +1.5642383543E-001 +7.7216958508E+001  +9.5581989016E-001 -1.0926642387E+001 
364081650.730 +9.5080220455E-001 -1.0758969232E+001  +1.5804854443E-001 +7.7123105859E+001  +1.5776546185E-001 +7.7586207647E+001  +9.5220816067E-001 -1.0612691498E+001 
368082449.090 +9.4907239154E-001 -1.0409373484E+001  +1.5947016038E-001 +7.7465010856E+001  +1.5949859036E-001 +7.7922847989E+001  +9.5030984185E-001 -1.0268452239E+001 
372083247.449 +9.4907935988E-001 -1.0053582580E+001  +1.6109413748E-001 +7.7775639338E+001  +1.6147528991E-001 +7.8223153954E+001  +9.5045083446E-001 -9.9414084094E+000 
376084045.809 +9.5132355746E-001 -9.7263447737E+000  +1.6307427262E-001 +7.8059612998E+001  +1.6375897735E-001 +7.8469994440E+001  +9.5233775073E-001 -9.6211736752E+000 
380084844.169 +9.5483397593E-001 -9.4352832335E+000  +1.6522923267E-001 +7.8325880219E+001  +1.6624486751E-001 +7.8655019615E+001  +9.5569320377E-001 -9.3523606800E+000 
384085642.529 +9.5969201853E-001 -9.2154738358E+000  +1.6761276835E-001 +7.8533069961E+001  +1.6881043349E-001 +7.8758659889E+001  +9.6040929562E-001 -9.1544037917E+000 
388086440.888 +9.6575787858E-001 -9.0780592918E+000  +1.7016224023E-001 +7.8686902998E+001  +1.7156872526E-001 +7.8786914313E+001  +9.6602354072E-001 -9.0246274708E+000 
392087239.248 +9.7276519884E-001 -9.0360596665E+000  +1.7297550136E-001 +7.8754775341E+001  +1.7438363661E-001 +7.8733902634E+001  +9.7258195625E-001 -8.9791578873E+000 
396088037.608 +9.8004559589E-001 -9.0983907523E+000  +1.7595238804E-001 +7.8767220859E+001  +1.7722822616E-001 +7.8624777493E+001  +9.7975910259E-001 -9.0376137602E+000 
400088835.967 +9.8793327668E-001 -9.2699944341E+000  +1.7904189011E-001 +7.8664252447E+001  +1.8021643395E-001 +7.8428996960E+001  +9.8693808406E-001 -9.2080854610E+000 
404089634.327 +9.9504720059E-001 -9.5628013691E+000  +1.8223504438E-001 +7.8466485444E+001  +1.8312339413E-001 +7.8141776325E+001  +9.9386958544E-001 -9.4800934342E+000 
408090432.687 +1.0015673164E+000 -9.9586427666E+000  +1.8539216546E-001 +7.8124679740E+001  +1.8602422008E-001 +7.7751577288E+001  +9.9996767544E-001 -9.8569555143E+000 
412091231.046 +1.0067023801E+000 -1.0463456951E+001  +1.8839071992E-001 +7.7662644465E+001  +1.8869064483E-001 +7.7262528791E+001  +1.0049681052E+000 -1.0335206504E+001 
416092029.406 +1.0099035587E+000 -1.1059807131E+001  +1.9116189045E-001 +7.7062636521E+001  +1.9112271114E-001 +7.6672231331E+001  +1.0081130214E+000 -1.0898220357E+001 
420092827.766 +1.0106804944E+000 -1.1723263876E+001  +1.9345089378E-001 +7.6387057892E+001  +1.9303084033E-001 +7.6009896923E+001  +1.0089346977E+000 -1.1531951318E+001 
424093626.125 +1.0087192074E+000 -1.2386486213E+001  +1.9513970839E-001 +7.5669433239E+001  +1.9436877473E-001 +7.5345463012E+001  +1.0072743429E+000 -1.2163648855E+001 
428094424.485 +1.0039309578E+000 -1.3029896722E+001  +1.9614684042E-001 +7.4937653080E+001  +1.9519564666E-001 +7.4684309839E+001  +1.0029798558E+000 -1.2791677537E+001 
432095222.845 +9.9694892813E-001 -1.3582542866E+001  +1.9659412943E-001 +7.4321758962E+001  +1.9545567271E-001 +7.4161369759E+001  +9.9628704979E-001 -1.3318611985E+001 
436096021.204 +9.8789301832E-001 -1.4015468775E+001  +1.9646453089E-001 +7.3808988056E+001  +1.9524794122E-001 +7.3726294638E+001  +9.8751060636E-001 -1.3751183786E+001 
440096819.564 +9.7749456210E-001 -1.4296161152E+001  +1.9604719523E-001 +7.3498064781E+001  +1.9477342284E-001 +7.3503813404E+001  +9.7793501217E-001 -1.4023986958E+001 
444097617.924 +9.6699444621E-001 -1.4407175527E+001  +1.9559693265E-001 +7.3375478941E+001  +1.9434957512E-001 +7.3454396309E+001  +9.6776063994E-001 -1.4138514589E+001 
448098416.283 +9.5720941693E-001 -1.4352687780E+001  +1.9519405660E-001 +7.3417549662E+001  +1.9415848368E-001 +7.3601645975E+001  +9.5832472397E-001 -1.4097096399E+001 
452099214.643 +9.4880226774E-001 -1.4147518363E+001  +1.9506561860E-001 +7.3635423909E+001  +1.9418751932E-001 +7.3905004744E+001  +9.5016894657E-001 -1.3905647365E+001 
456100013.003 +9.4205761983E-001 -1.3844299154E+001  +1.9535586025E-001 +7.3941969539E+001  +1.9476133375E-001 +7.4251633703E+001  +9.4359496726E-001 -1.3625558713E+001 
