!  2-Port S-parameters saved by WinCal
! VAR MeasName=S-Parameters (CALIBRATED_DATA) read from VNA (P5004A)
! VAR MeasDate=24/04/2024 16:17:29
! VAR NAME=Wafer2_r1_c3_pristine 15
! VAR FILENAME=Wafer2_r1_c3_pristine 15.S2P
! VAR DATE=24/04/2024 16:17:29
! VAR PHYS_PORTS=1,2
! VAR ObjTypeName=DATASET
! VAR IndexType=Frequency
!
# Hz S MA R 50
9000.000 +7.8689774270E-001 +1.8096862140E+001  +2.2216406570E-005 -1.6306738283E+002  +3.9707844298E-006 +8.8395567385E+001  +7.9229738444E-001 +1.8006944114E+001 
4009798.360 +9.8794618914E-001 -3.1177157007E+000  +1.9060470535E-003 +8.5966719563E+001  +1.9249459523E-003 +8.5826803965E+001  +9.8757409176E-001 -3.0410141079E+000 
8010596.719 +9.7673992953E-001 -5.8964869479E-001  +3.7379335373E-003 +8.8465109664E+001  +3.7720948636E-003 +8.8236873884E+001  +9.7680946225E-001 -5.9758016982E-001 
12011395.079 +9.7596934567E-001 +8.3819878277E-002  +5.6120541214E-003 +8.9112601386E+001  +5.6499564134E-003 +8.8730104830E+001  +9.7301653594E-001 +3.8025188764E-002 
16012193.439 +9.8800093262E-001 +2.6407252878E-001  +7.5291053549E-003 +8.9261065363E+001  +7.5659104870E-003 +8.8736086882E+001  +9.8570477993E-001 +2.3237111034E-001 
20012991.798 +9.9581372246E-001 +2.5688390423E-001  +9.4593991754E-003 +8.9192573984E+001  +9.4821598304E-003 +8.8605922302E+001  +9.9454805967E-001 +2.7098399761E-001 
24013790.158 +1.0006542228E+000 +2.6534924806E-001  +1.1389234086E-002 +8.9140802635E+001  +1.1381365550E-002 +8.8518835860E+001  +1.0002459970E+000 +1.5211888211E-001 
28014588.518 +1.0044776453E+000 +1.1239131321E-001  +1.3343902534E-002 +8.8980252166E+001  +1.3288147006E-002 +8.8375549071E+001  +1.0034675601E+000 -1.2558152870E-003 
32015386.877 +1.0097318335E+000 -2.2880168767E-001  +1.5292702095E-002 +8.8842994507E+001  +1.5231912364E-002 +8.8341747026E+001  +1.0095162554E+000 -2.7583613085E-001 
36016185.237 +1.0122258041E+000 -4.9546398248E-001  +1.7257878531E-002 +8.8548500033E+001  +1.7152559907E-002 +8.8082686878E+001  +1.0124454799E+000 -5.4573433632E-001 
40016983.597 +1.0137254353E+000 -8.1925695097E-001  +1.9212089159E-002 +8.8152990585E+001  +1.9065956313E-002 +8.7784221396E+001  +1.0140145223E+000 -8.6988495615E-001 
44017781.956 +1.0146601729E+000 -1.2114244302E+000  +2.1158187940E-002 +8.7701934344E+001  +2.0960882734E-002 +8.7468035682E+001  +1.0147672347E+000 -1.2312865523E+000 
48018580.316 +1.0148824100E+000 -1.5731251340E+000  +2.3075002319E-002 +8.7197292221E+001  +2.2856054119E-002 +8.7093531028E+001  +1.0154867370E+000 -1.5805927011E+000 
52019378.676 +1.0223215731E+000 -2.1426556005E+000  +2.5012022198E-002 +8.6854629275E+001  +2.4750058321E-002 +8.6857059702E+001  +1.0224862690E+000 -2.1045470799E+000 
56020177.035 +1.0216163190E+000 -2.4928078755E+000  +2.6795497521E-002 +8.6314479437E+001  +2.6546673133E-002 +8.6454235027E+001  +1.0218770813E+000 -2.4152820631E+000 
60020975.395 +1.0195935659E+000 -2.7962498076E+000  +2.8507626494E-002 +8.5906034560E+001  +2.8287723077E-002 +8.6191532941E+001  +1.0213414489E+000 -2.6286291843E+000 
64021773.755 +1.0116920523E+000 -2.8806702040E+000  +3.0143321011E-002 +8.5565811012E+001  +2.9987604027E-002 +8.6043767045E+001  +1.0152073767E+000 -2.6953830322E+000 
68022572.114 +9.8886957084E-001 -2.6937523639E+000  +3.1489118257E-002 +8.4853866067E+001  +3.1503701270E-002 +8.5673793079E+001  +9.9996818035E-001 -2.6196306858E+000 
72023370.474 +9.4970105987E-001 -2.4612674147E+000  +3.2528431846E-002 +8.4013964319E+001  +3.2743823132E-002 +8.5066937341E+001  +9.6890163684E-001 -2.4968009947E+000 
76024168.834 +9.0008612961E-001 -2.3925883674E+000  +3.3384070004E-002 +8.3512638353E+001  +3.3609805966E-002 +8.4372480941E+001  +9.1282384781E-001 -2.3514725199E+000 
80024967.193 +8.5224976674E-001 -2.5000491059E+000  +3.4180174125E-002 +8.3369502361E+001  +3.4114614591E-002 +8.3724442373E+001  +8.4365861879E-001 -2.3857674228E+000 
84025765.553 +8.0338095838E-001 -2.0613185849E+000  +3.4818627162E-002 +8.3741711017E+001  +3.5200759789E-002 +8.4380827247E+001  +8.1326203811E-001 -2.1499771126E+000 
88026563.913 +7.7616139083E-001 -2.0539589558E+000  +3.5990487654E-002 +8.4682517234E+001  +3.6796214275E-002 +8.5351990465E+001  +8.0099382296E-001 -2.1679039075E+000 
92027362.272 +7.5738232825E-001 -2.8002566985E+000  +3.7340932671E-002 +8.5210257031E+001  +3.8322295084E-002 +8.5691239886E+001  +7.8596949352E-001 -2.7484009867E+000 
96028160.632 +7.4490737853E-001 -3.6095582545E+000  +3.8747404136E-002 +8.5687222657E+001  +3.9981240547E-002 +8.5964114748E+001  +7.8031226521E-001 -3.3164852141E+000 
100028958.992 +7.4594923468E-001 -4.6068027280E+000  +4.0434699967E-002 +8.6220123010E+001  +4.1746611189E-002 +8.6259696307E+001  +7.8071638567E-001 -4.0463098673E+000 
104029757.351 +7.6342886564E-001 -5.1093066860E+000  +4.2402847508E-002 +8.6815111327E+001  +4.3767920588E-002 +8.6592385643E+001  +7.9681465559E-001 -4.3902576802E+000 
108030555.711 +7.9099689742E-001 -5.0775542756E+000  +4.4626860135E-002 +8.7478406075E+001  +4.5956022193E-002 +8.6976362405E+001  +8.2107011681E-001 -4.3848243135E+000 
112031354.071 +8.1037080670E-001 -4.4631560132E+000  +4.6908641399E-002 +8.8465866719E+001  +4.8132530447E-002 +8.7700667631E+001  +8.3707257431E-001 -3.8214095493E+000 
116032152.430 +8.4355500910E-001 -3.1615120892E+000  +4.9863512316E-002 +8.9251660058E+001  +5.0856237755E-002 +8.8189193045E+001  +8.6607644088E-001 -2.9477220360E+000 
120032950.790 +9.0907152437E-001 -2.8752691358E+000  +5.3464981734E-002 +8.8619156662E+001  +5.4078508024E-002 +8.7692505600E+001  +9.2108885287E-001 -2.8534184907E+000 
124033749.150 +9.6908496622E-001 -2.9483150072E+000  +5.6957893585E-002 +8.7507235259E+001  +5.7272030008E-002 +8.6769696293E+001  +9.7448325723E-001 -2.9884065596E+000 
128034547.510 +1.0112387200E+000 -3.0869782718E+000  +6.0071636494E-002 +8.6328313482E+001  +6.0169949505E-002 +8.5779371132E+001  +1.0121981975E+000 -3.1045961269E+000 
132035345.869 +1.0286610983E+000 -3.2460609881E+000  +6.2603881553E-002 +8.5392769357E+001  +6.2483154545E-002 +8.5095408892E+001  +1.0247081009E+000 -3.3074066410E+000 
136036144.229 +1.0287191427E+000 -3.5334285192E+000  +6.4662942512E-002 +8.4823340622E+001  +6.4431536164E-002 +8.4654490040E+001  +1.0232089251E+000 -3.6765173871E+000 
140036942.589 +1.0250834924E+000 -3.9735298337E+000  +6.6572073520E-002 +8.4267666480E+001  +6.6192760901E-002 +8.4231806918E+001  +1.0189961924E+000 -4.1717044678E+000 
144037740.948 +1.0210318843E+000 -4.4705814943E+000  +6.8252302058E-002 +8.3705176013E+001  +6.7808038510E-002 +8.3780296192E+001  +1.0153440393E+000 -4.6792383011E+000 
148038539.308 +1.0167276614E+000 -4.9454899424E+000  +6.9793370162E-002 +8.3196389251E+001  +6.9331109717E-002 +8.3415202757E+001  +1.0109343371E+000 -5.1362612043E+000 
152039337.668 +1.0123061646E+000 -5.2979115230E+000  +7.1200299820E-002 +8.2767264480E+001  +7.0786414508E-002 +8.3103125901E+001  +1.0058646616E+000 -5.4430548537E+000 
156040136.027 +1.0063131612E+000 -5.4118629198E+000  +7.2495133472E-002 +8.2501016175E+001  +7.2174274316E-002 +8.2967838506E+001  +9.9951228565E-001 -5.5466876709E+000 
160040934.387 +9.9844713369E-001 -5.3800813785E+000  +7.3712359694E-002 +8.2362986078E+001  +7.3479828366E-002 +8.2947540549E+001  +9.9010186464E-001 -5.6194937130E+000 
164041732.747 +9.8591378834E-001 -5.2298735616E+000  +7.4872333174E-002 +8.2240616243E+001  +7.4849589762E-002 +8.2991232614E+001  +9.7993780523E-001 -5.6086959796E+000 
168042531.106 +9.5267252824E-001 -5.0827261686E+000  +7.5372660676E-002 +8.1688805615E+001  +7.5882037473E-002 +8.2836938715E+001  +9.5993427121E-001 -5.5679635630E+000 
172043329.466 +8.9876016258E-001 -4.9439866598E+000  +7.5092305898E-002 +8.0892886326E+001  +7.6215789035E-002 +8.2321533707E+001  +9.2060982309E-001 -5.4986024228E+000 
176044127.826 +8.3585091338E-001 -4.8073088565E+000  +7.4302650619E-002 +8.0203415855E+001  +7.6030250838E-002 +8.1763863528E+001  +8.6788617832E-001 -5.2942216507E+000 
180044926.185 +7.8193002256E-001 -4.1993178679E+000  +7.3659050287E-002 +8.0228992602E+001  +7.5913353540E-002 +8.1621062546E+001  +8.1738035402E-001 -4.7416792244E+000 
184045724.545 +7.6802033430E-001 -2.8952189776E+000  +7.4399463292E-002 +8.1490287697E+001  +7.6665152397E-002 +8.2342618764E+001  +7.9527094822E-001 -3.5009249189E+000 
188046522.905 +7.5092196164E-001 -2.9469856902E+000  +7.5549404948E-002 +8.2165024146E+001  +7.8199075088E-002 +8.2997768846E+001  +7.8472741454E-001 -3.0702271650E+000 
192047321.264 +7.3539898946E-001 -3.3916725788E+000  +7.6849386171E-002 +8.2727469106E+001  +7.9708073428E-002 +8.3260112478E+001  +7.7006215746E-001 -3.4236678718E+000 
196048119.624 +7.3115425592E-001 -4.3984033620E+000  +7.8450479127E-002 +8.3212291991E+001  +8.1479150400E-002 +8.3447881986E+001  +7.6677572249E-001 -4.2393073410E+000 
200048917.984 +7.4324331472E-001 -5.5252679395E+000  +8.0569630829E-002 +8.3659890754E+001  +8.3580043268E-002 +8.3613370139E+001  +7.7785523911E-001 -5.1554249956E+000 
204049716.343 +7.6951876226E-001 -6.2158086726E+000  +8.3238376674E-002 +8.4241214824E+001  +8.5787540147E-002 +8.3895991176E+001  +7.9659173796E-001 -5.8170467969E+000 
208050514.703 +8.0400718868E-001 -6.5384224806E+000  +8.6302464319E-002 +8.4764680345E+001  +8.8342569514E-002 +8.4228048999E+001  +8.2377162561E-001 -6.0453532524E+000 
212051313.063 +8.3146077575E-001 -5.8800460622E+000  +8.9594667645E-002 +8.5635699121E+001  +9.1370603063E-002 +8.4798410145E+001  +8.5264095361E-001 -5.3984936796E+000 
216052111.422 +8.8509074934E-001 -5.6386024237E+000  +9.4236216957E-002 +8.5587521031E+001  +9.5479611304E-002 +8.4556145187E+001  +9.0601030411E-001 -5.2087293791E+000 
220052909.782 +9.4848594085E-001 -5.8244424681E+000  +9.9223010578E-002 +8.4601528692E+001  +9.9894576435E-002 +8.3672765274E+001  +9.6602967502E-001 -5.3568536904E+000 
224053708.142 +9.9496410916E-001 -5.9791540025E+000  +1.0364879473E-001 +8.3355325478E+001  +1.0379484887E-001 +8.2561434171E+001  +1.0088342961E+000 -5.5632670605E+000 
228054506.501 +1.0172332640E+000 -6.1962854550E+000  +1.0701322619E-001 +8.2172634177E+001  +1.0656106530E-001 +8.1647744716E+001  +1.0252984915E+000 -5.9191501930E+000 
232055304.861 +1.0185613624E+000 -6.6473702508E+000  +1.0921933097E-001 +8.1385340464E+001  +1.0841007120E-001 +8.1044765061E+001  +1.0247332125E+000 -6.4337987608E+000 
236056103.221 +1.0139112901E+000 -7.2397450895E+000  +1.1087640005E-001 +8.0748900386E+001  +1.0983298909E-001 +8.0514706254E+001  +1.0206210746E+000 -6.9981501101E+000 
240056901.580 +1.0081102286E+000 -7.8205078594E+000  +1.1218098289E-001 +8.0148888092E+001  +1.1100988685E-001 +8.0042608891E+001  +1.0153109576E+000 -7.5359460557E+000 
244057699.940 +1.0015607388E+000 -8.2844073859E+000  +1.1320616662E-001 +7.9673601316E+001  +1.1200083159E-001 +7.9695374695E+001  +1.0093134847E+000 -7.9763089483E+000 
248058498.300 +9.9439079277E-001 -8.5718795954E+000  +1.1403614406E-001 +7.9329065838E+001  +1.1285506200E-001 +7.9490672130E+001  +1.0027801380E+000 -8.2714837670E+000 
252059296.659 +9.8595587917E-001 -8.6855453735E+000  +1.1476522235E-001 +7.9122961313E+001  +1.1365289018E-001 +7.9425604120E+001  +9.9681380909E-001 -8.4437349502E+000 
256060095.019 +9.7728391022E-001 -8.6606106659E+000  +1.1552030724E-001 +7.9062127646E+001  +1.1457923671E-001 +7.9505064496E+001  +9.9109814975E-001 -8.4860237307E+000 
260060893.379 +9.6799479960E-001 -8.5586029340E+000  +1.1632207209E-001 +7.9108583031E+001  +1.1561430268E-001 +7.9682023185E+001  +9.8707379322E-001 -8.4270349356E+000 
264061691.738 +9.5333319347E-001 -8.3785313356E+000  +1.1689993567E-001 +7.8995647437E+001  +1.1673834628E-001 +7.9820944295E+001  +9.8019393365E-001 -8.2695272755E+000 
268062490.098 +9.2063291950E-001 -8.1301986189E+000  +1.1648856442E-001 +7.8445743324E+001  +1.1727128172E-001 +7.9634683849E+001  +9.5741582874E-001 -7.9910082678E+000 
272063288.458 +8.7173852591E-001 -7.7761931520E+000  +1.1531711567E-001 +7.7855681752E+001  +1.1695680707E-001 +7.9155389196E+001  +9.1219226928E-001 -7.6557028152E+000 
276064086.817 +8.1854564146E-001 -7.3758209215E+000  +1.1401898570E-001 +7.7595633672E+001  +1.1634929903E-001 +7.8802311625E+001  +8.5796154241E-001 -7.3687232880E+000 
280064885.177 +7.8018024257E-001 -6.5114682497E+000  +1.1338237690E-001 +7.8122015064E+001  +1.1601364595E-001 +7.8938014533E+001  +8.1259723325E-001 -6.8021377125E+000 
284065683.537 +7.7023548728E-001 -5.3913731543E+000  +1.1431903465E-001 +7.9291695056E+001  +1.1693223688E-001 +7.9740263044E+001  +7.9493766925E-001 -5.8551233957E+000 
288066481.896 +7.5901385738E-001 -5.5530257052E+000  +1.1577333318E-001 +7.9986802226E+001  +1.1855081650E-001 +8.0257706053E+001  +7.8263324724E-001 -5.8523858258E+000 
292067280.256 +7.5403312742E-001 -6.1719640720E+000  +1.1754361422E-001 +8.0562331303E+001  +1.2033069387E-001 +8.0579606943E+001  +7.7521031212E-001 -6.4220234835E+000 
296068078.616 +7.6186929001E-001 -7.1575800247E+000  +1.1997932016E-001 +8.1027772970E+001  +1.2264255817E-001 +8.0836470802E+001  +7.8071062569E-001 -7.2978648397E+000 
300068876.975 +7.7810291093E-001 -8.1104420392E+000  +1.2271765523E-001 +8.1425778229E+001  +1.2532313183E-001 +8.1062628617E+001  +7.9628375964E-001 -8.0972734918E+000 
304069675.335 +8.0744518980E-001 -8.6441418739E+000  +1.2614802164E-001 +8.1810656401E+001  +1.2853517290E-001 +8.1274154058E+001  +8.2386802237E-001 -8.5242156922E+000 
308070473.695 +8.3884865664E-001 -8.5621700057E+000  +1.3001551905E-001 +8.2237010403E+001  +1.3213682162E-001 +8.1537870278E+001  +8.5351007264E-001 -8.3692609970E+000 
312071272.054 +8.8220239329E-001 -8.2160823233E+000  +1.3510242438E-001 +8.2362663522E+001  +1.3685853740E-001 +8.1477616528E+001  +8.9645851221E-001 -8.1042201146E+000 
316072070.414 +9.4102539744E-001 -8.4008505553E+000  +1.4115586569E-001 +8.1572855750E+001  +1.4236782020E-001 +8.0717705710E+001  +9.5050258888E-001 -8.2997816902E+000 
320072868.774 +9.8884521970E-001 -8.7106018924E+000  +1.4666878182E-001 +8.0382093706E+001  +1.4723697353E-001 +7.9646800568E+001  +9.9295968727E-001 -8.6070486865E+000 
324073667.133 +1.0130457534E+000 -9.1086365896E+000  +1.5067131748E-001 +7.9238151270E+001  +1.5061161660E-001 +7.8698305135E+001  +1.0120120825E+000 -9.0134243724E+000 
328074465.493 +1.0161852748E+000 -9.6295308778E+000  +1.5305106343E-001 +7.8407223697E+001  +1.5252262082E-001 +7.8013173559E+001  +1.0138975694E+000 -9.5034159901E+000 
332075263.853 +1.0118209096E+000 -1.0202113440E+001  +1.5447256357E-001 +7.7731674432E+001  +1.5371029491E-001 +7.7442365794E+001  +1.0096310985E+000 -1.0021221695E+001 
336076062.212 +1.0049948612E+000 -1.0728148019E+001  +1.5540179629E-001 +7.7140579216E+001  +1.5443998136E-001 +7.6952591629E+001  +1.0030052276E+000 -1.0501906403E+001 
340076860.572 +9.9676098519E-001 -1.1171154620E+001  +1.5588709875E-001 +7.6659127215E+001  +1.5487705612E-001 +7.6604353012E+001  +9.9497889642E-001 -1.0905627054E+001 
344077658.932 +9.8794448616E-001 -1.1481517304E+001  +1.5621512068E-001 +7.6326244429E+001  +1.5517110609E-001 +7.6373734595E+001  +9.8635146427E-001 -1.1193849709E+001 
348078457.291 +9.7904043644E-001 -1.1613378593E+001  +1.5633742963E-001 +7.6178314446E+001  +1.5538365781E-001 +7.6341688067E+001  +9.7767758224E-001 -1.1321796975E+001 
352079255.651 +9.7084437645E-001 -1.1595820425E+001  +1.5655175730E-001 +7.6183684532E+001  +1.5576042985E-001 +7.6445986882E+001  +9.6971185280E-001 -1.1305621112E+001 
356080054.011 +9.6372719348E-001 -1.1441762287E+001  +1.5695457413E-001 +7.6325912692E+001  +1.5639019953E-001 +7.6675617762E+001  +9.6300492804E-001 -1.1139182045E+001 
360080852.370 +9.5707045931E-001 -1.1178856860E+001  +1.5763739597E-001 +7.6534527656E+001  +1.5735517026E-001 +7.6975746069E+001  +9.5730383493E-001 -1.0872573498E+001 
364081650.730 +9.4340344473E-001 -1.0800397579E+001  +1.5803918224E-001 +7.6529443029E+001  +1.5836980567E-001 +7.7172200942E+001  +9.4808062854E-001 -1.0524373076E+001 
368082449.090 +9.0893820150E-001 -1.0381219048E+001  +1.5721235274E-001 +7.6049400895E+001  +1.5851162661E-001 +7.6934368640E+001  +9.2189005291E-001 -1.0152697801E+001 
372083247.449 +8.5953124830E-001 -9.9883466108E+000  +1.5542957014E-001 +7.5514191947E+001  +1.5764322339E-001 +7.6480018504E+001  +8.7952067109E-001 -9.8736286836E+000 
376084045.809 +8.0988201295E-001 -9.5773610719E+000  +1.5358772356E-001 +7.5353586387E+001  +1.5647642406E-001 +7.6206442101E+001  +8.3384915493E-001 -9.6137822207E+000 
380084844.169 +7.7910820064E-001 -8.6862271170E+000  +1.5268996223E-001 +7.5988709697E+001  +1.5589794213E-001 +7.6540804678E+001  +8.0261235885E-001 -9.0171201262E+000 
384085642.529 +7.6910178038E-001 -7.8132887972E+000  +1.5350945536E-001 +7.7016636431E+001  +1.5685466357E-001 +7.7301866467E+001  +7.9237004615E-001 -8.3297359791E+000 
388086440.888 +7.5835938168E-001 -8.0216580937E+000  +1.5480419622E-001 +7.7657372780E+001  +1.5843771947E-001 +7.7756671286E+001  +7.8388038138E-001 -8.4614031742E+000 
392087239.248 +7.5739531286E-001 -8.6775174044E+000  +1.5687380673E-001 +7.8209536934E+001  +1.6050168854E-001 +7.8095398252E+001  +7.8331604666E-001 -8.9872092426E+000 
396088037.608 +7.6889601793E-001 -9.6740331895E+000  +1.5976890341E-001 +7.8636856318E+001  +1.6325757693E-001 +7.8339625813E+001  +7.9488643143E-001 -9.7816921661E+000 
400088835.967 +7.9299860076E-001 -1.0551203273E+001  +1.6352019539E-001 +7.8973772494E+001  +1.6677177514E-001 +7.8518415725E+001  +8.1700975004E-001 -1.0479533333E+001 
404089634.327 +8.2415337536E-001 -1.1033897764E+001  +1.6800187769E-001 +7.9241648131E+001  +1.7092707493E-001 +7.8643675760E+001  +8.4630472355E-001 -1.0835416523E+001 
408090432.687 +8.5699697208E-001 -1.0956360391E+001  +1.7307347226E-001 +7.9493348065E+001  +1.7580258574E-001 +7.8706835922E+001  +8.7924296536E-001 -1.0779708056E+001 
412091231.046 +9.0619219868E-001 -1.1039339226E+001  +1.7980121871E-001 +7.9117296386E+001  +1.8200615397E-001 +7.8199249022E+001  +9.2701715459E-001 -1.0929011488E+001 
416092029.406 +9.5945636397E-001 -1.1449373669E+001  +1.8680481873E-001 +7.7996047455E+001  +1.8824718756E-001 +7.7158829012E+001  +9.7490887857E-001 -1.1318920226E+001 
420092827.766 +9.9465176058E-001 -1.1898507851E+001  +1.9225832911E-001 +7.6725901234E+001  +1.9279397940E-001 +7.6064294181E+001  +1.0035656811E+000 -1.1745989159E+001 
424093626.125 +1.0076188779E+000 -1.2375519753E+001  +1.9554199194E-001 +7.5625386094E+001  +1.9509221231E-001 +7.5227492094E+001  +1.0101909140E+000 -1.2215850055E+001 
428094424.485 +1.0047246231E+000 -1.2922187942E+001  +1.9694275018E-001 +7.4823760012E+001  +1.9608039773E-001 +7.4566606643E+001  +1.0057026516E+000 -1.2743017163E+001 
432095222.845 +9.9699749231E-001 -1.3435290259E+001  +1.9744549294E-001 +7.4214614007E+001  +1.9637373484E-001 +7.4057631019E+001  +9.9776222194E-001 -1.3222312198E+001 
436096021.204 +9.8716629218E-001 -1.3874001982E+001  +1.9737514692E-001 +7.3711007989E+001  +1.9618325939E-001 +7.3649268028E+001  +9.8801318513E-001 -1.3651369510E+001 
440096819.564 +9.7665079052E-001 -1.4193279175E+001  +1.9699601630E-001 +7.3386127193E+001  +1.9572868589E-001 +7.3412702448E+001  +9.7797737739E-001 -1.3963763701E+001 
444097617.924 +9.6636372987E-001 -1.4350495787E+001  +1.9647951513E-001 +7.3238762981E+001  +1.9531138065E-001 +7.3343576119E+001  +9.6804941552E-001 -1.4126711593E+001 
448098416.283 +9.5716077128E-001 -1.4324829583E+001  +1.9604150678E-001 +7.3248935753E+001  +1.9508698192E-001 +7.3466533972E+001  +9.5917671951E-001 -1.4116768078E+001 
452099214.643 +9.4915028844E-001 -1.4108244623E+001  +1.9589827433E-001 +7.3439894375E+001  +1.9510151377E-001 +7.3736352392E+001  +9.5155961999E-001 -1.3925701869E+001 
456100013.003 +9.4211398678E-001 -1.3766997205E+001  +1.9604859729E-001 +7.3719779262E+001  +1.9562869131E-001 +7.4068311732E+001  +9.4505362703E-001 -1.3621684958E+001 
