!  2-Port S-parameters saved by WinCal
! VAR MeasName=S-Parameters (CALIBRATED_DATA) read from VNA (P5004A)
! VAR MeasDate=24/04/2024 17:18:31
! VAR NAME=Wafer2_r1_c1_HRS 2
! VAR FILENAME=Wafer2_r1_c1_HRS 2.S2P
! VAR DATE=24/04/2024 17:18:31
! VAR PHYS_PORTS=1,2
! VAR ObjTypeName=DATASET
! VAR IndexType=Frequency
!
# Hz S MA R 50
9000.000 +7.9996404782E-001 +1.7307673532E+001  +1.9861893937E-005 +2.3863883497E+000  +5.5129042570E-005 -1.6540052082E+001  +7.9908036010E-001 +1.7292374582E+001 
4009798.360 +9.8723797144E-001 -3.1449883612E+000  +1.9106393255E-003 +8.5809720064E+001  +1.9346607461E-003 +8.5449892172E+001  +9.8705545662E-001 -3.0609058556E+000 
8010596.719 +9.7585284720E-001 -6.2945770995E-001  +3.7677159166E-003 +8.8389202074E+001  +3.7928202054E-003 +8.8215678616E+001  +9.7666601765E-001 -6.0110012593E-001 
12011395.079 +9.8326654315E-001 -8.4655236694E-003  +5.6822918740E-003 +8.9092120499E+001  +5.7201854765E-003 +8.8796066748E+001  +9.8394018656E-001 -4.0352801923E-003 
16012193.439 +9.8946086727E-001 +1.7072376898E-001  +7.5956829210E-003 +8.9260155056E+001  +7.6408372799E-003 +8.8747230802E+001  +9.8977820795E-001 +1.7195774823E-001 
20012991.798 +9.9452311473E-001 +1.9345951991E-001  +9.5318906603E-003 +8.9283318699E+001  +9.5551712458E-003 +8.8737404338E+001  +9.9481301017E-001 +1.9407942961E-001 
24013790.158 +9.9935643758E-001 +1.2328580453E-001  +1.1498133621E-002 +8.9265311954E+001  +1.1483031334E-002 +8.8621575718E+001  +9.9948144368E-001 +1.2208814654E-001 
28014588.518 +1.0033645841E+000 -4.9779983199E-002  +1.3453052351E-002 +8.9163906234E+001  +1.3392625993E-002 +8.8521011954E+001  +1.0033756889E+000 -3.2220229123E-002 
32015386.877 +1.0076358090E+000 -2.3781174470E-001  +1.5424504521E-002 +8.8929321998E+001  +1.5575384677E-002 +8.8439564022E+001  +1.0076532319E+000 -2.2289522325E-001 
36016185.237 +1.0106128984E+000 -5.2022457654E-001  +1.7426161598E-002 +8.8549638208E+001  +1.7494893183E-002 +8.7890333912E+001  +1.0107918206E+000 -5.0423538467E-001 
40016983.597 +1.0124528285E+000 -8.4968639193E-001  +1.9413115583E-002 +8.7842669030E+001  +1.9405870728E-002 +8.7735858620E+001  +1.0127356692E+000 -8.3795301491E-001 
44017781.956 +1.0136570575E+000 -1.2143336283E+000  +2.1382045632E-002 +8.7666848083E+001  +2.1355976374E-002 +8.7429951259E+001  +1.0138147163E+000 -1.1805613140E+000 
48018580.316 +1.0142136811E+000 -1.5970837652E+000  +2.3488813346E-002 +8.7355011534E+001  +2.3220771040E-002 +8.7093891012E+001  +1.0145978202E+000 -1.5547707125E+000 
52019378.676 +1.0124981520E+000 -1.9901403449E+000  +2.5418940744E-002 +8.6724070275E+001  +2.5164869175E-002 +8.6765425953E+001  +1.0124731990E+000 -1.9401334142E+000 
56020177.035 +1.0099428903E+000 -2.3287903609E+000  +2.7151849813E-002 +8.6211981771E+001  +2.6887791999E-002 +8.6447616627E+001  +1.0100632416E+000 -2.2690713217E+000 
60020975.395 +1.0063365959E+000 -2.6514118704E+000  +2.8897680647E-002 +8.5715424140E+001  +2.8696073672E-002 +8.5999798012E+001  +1.0062849297E+000 -2.5771641894E+000 
64021773.755 +1.0013408289E+000 -2.8624754804E+000  +3.0631994632E-002 +8.5486515131E+001  +3.0446195379E-002 +8.5984280853E+001  +1.0014430094E+000 -2.7933662535E+000 
68022572.114 +9.9629309503E-001 -2.9781822237E+000  +3.2338621621E-002 +8.5237554860E+001  +3.2205778081E-002 +8.5827972132E+001  +9.9629138221E-001 -2.9297789479E+000 
72023370.474 +9.9149356873E-001 -3.0340793782E+000  +3.3893921804E-002 +8.5188181767E+001  +3.3894505865E-002 +8.5741851815E+001  +9.9174056845E-001 -2.9899192767E+000 
76024168.834 +9.8721248496E-001 -2.9979188050E+000  +3.5623421049E-002 +8.5316482811E+001  +3.5609117885E-002 +8.5822603922E+001  +9.8755309391E-001 -2.9443213038E+000 
80024967.193 +9.8411279800E-001 -2.8901545858E+000  +3.7282559476E-002 +8.5456021230E+001  +3.7424125261E-002 +8.6034762645E+001  +9.8436347209E-001 -2.8589031360E+000 
84025765.553 +9.8230789869E-001 -2.7841892992E+000  +3.9048066031E-002 +8.5584800426E+001  +3.9292640478E-002 +8.6083923407E+001  +9.8232277246E-001 -2.7536934767E+000 
88026563.913 +9.8133096235E-001 -2.6018391748E+000  +4.0807241547E-002 +8.5781757995E+001  +4.1152633861E-002 +8.6214801330E+001  +9.8151151249E-001 -2.5898550237E+000 
92027362.272 +9.8173387957E-001 -2.4610044112E+000  +4.2660978879E-002 +8.6033455265E+001  +4.3050041095E-002 +8.6422576673E+001  +9.8173677388E-001 -2.4538254571E+000 
96028160.632 +9.8262913686E-001 -2.3337223743E+000  +4.4555323916E-002 +8.6080879301E+001  +4.4958737780E-002 +8.6213257328E+001  +9.8273219245E-001 -2.3170684673E+000 
100028958.992 +9.8562646933E-001 -2.2379173351E+000  +4.6498512538E-002 +8.6291014268E+001  +4.6917402783E-002 +8.6241727532E+001  +9.8523500165E-001 -2.2361654074E+000 
104029757.351 +9.8870392558E-001 -2.1777343138E+000  +4.8475696528E-002 +8.6310831407E+001  +4.8971890231E-002 +8.6184887969E+001  +9.8841783869E-001 -2.1544903244E+000 
108030555.711 +9.9252078948E-001 -2.1626600735E+000  +5.0464135322E-002 +8.6425246000E+001  +5.0941236393E-002 +8.6117420690E+001  +9.9200007395E-001 -2.1462741895E+000 
112031354.071 +9.9684501681E-001 -2.2325100086E+000  +5.2614300408E-002 +8.6380211016E+001  +5.2863059616E-002 +8.6012835215E+001  +9.9647189220E-001 -2.2041557207E+000 
116032152.430 +1.0015020395E+000 -2.3410924994E+000  +5.4766739514E-002 +8.6389589413E+001  +5.4930189638E-002 +8.5839933446E+001  +1.0006917740E+000 -2.3198882176E+000 
120032950.790 +1.0059846924E+000 -2.5406627655E+000  +5.7033949135E-002 +8.6232337588E+001  +5.6973937937E-002 +8.5644647539E+001  +1.0055001782E+000 -2.5012188450E+000 
124033749.150 +1.0104809086E+000 -2.8159258689E+000  +5.9185962912E-002 +8.5920981170E+001  +5.9049685489E-002 +8.5358667778E+001  +1.0096557360E+000 -2.7792389597E+000 
128034547.510 +1.0139132632E+000 -3.1653113847E+000  +6.1351469641E-002 +8.5569911496E+001  +6.1118829823E-002 +8.5100605202E+001  +1.0132533133E+000 -3.0964907216E+000 
132035345.869 +1.0159327441E+000 -3.5815157373E+000  +6.3496962173E-002 +8.5094880050E+001  +6.3195039971E-002 +8.4644779208E+001  +1.0154668286E+000 -3.4987565726E+000 
136036144.229 +1.0165072795E+000 -4.0510691088E+000  +6.5600983164E-002 +8.4693686420E+001  +6.5064768044E-002 +8.4257064557E+001  +1.0163347949E+000 -3.9421803646E+000 
140036942.589 +1.0155331421E+000 -4.5062949892E+000  +6.7452686944E-002 +8.4103069473E+001  +6.6731085443E-002 +8.3744519995E+001  +1.0153252608E+000 -4.3986326068E+000 
144037740.948 +1.0127857489E+000 -4.9389883742E+000  +6.9164755462E-002 +8.3519220163E+001  +6.8448240640E-002 +8.3388335501E+001  +1.0127636877E+000 -4.8174605744E+000 
148038539.308 +1.0082545748E+000 -5.3300219447E+000  +7.0673436977E-002 +8.3073705061E+001  +6.9991564185E-002 +8.3012800385E+001  +1.0084394345E+000 -5.2064658941E+000 
152039337.668 +1.0024780130E+000 -5.6544338459E+000  +7.2205800346E-002 +8.2715039600E+001  +7.1365351113E-002 +8.2769519818E+001  +1.0026634782E+000 -5.5264839997E+000 
156040136.027 +9.9577661712E-001 -5.8492274447E+000  +7.3501898208E-002 +8.2375893458E+001  +7.2759651466E-002 +8.2630916622E+001  +9.9636351693E-001 -5.7189433540E+000 
160040934.387 +9.8918561209E-001 -5.9237915812E+000  +7.4670524687E-002 +8.2268072202E+001  +7.4129353152E-002 +8.2608374293E+001  +9.8994929572E-001 -5.7964807346E+000 
164041732.747 +9.8341760413E-001 -5.8916594840E+000  +7.5998115167E-002 +8.2246134859E+001  +7.5570739769E-002 +8.2720528923E+001  +9.8421527481E-001 -5.7997428888E+000 
168042531.106 +9.7850745906E-001 -5.8111612255E+000  +7.7361939153E-002 +8.2360024277E+001  +7.7104105336E-002 +8.2934121088E+001  +9.7925190310E-001 -5.6922718993E+000 
172043329.466 +9.7498054473E-001 -5.6415414138E+000  +7.8820292302E-002 +8.2539978747E+001  +7.8753299808E-002 +8.3122622446E+001  +9.7590824001E-001 -5.5420892385E+000 
176044127.826 +9.7269115180E-001 -5.4334378279E+000  +8.0387834235E-002 +8.2801768870E+001  +8.0586615099E-002 +8.3326974127E+001  +9.7343588625E-001 -5.3470338853E+000 
180044926.185 +9.7212523948E-001 -5.2187458318E+000  +8.2050417197E-002 +8.2980594883E+001  +8.2458560681E-002 +8.3444950597E+001  +9.7291352172E-001 -5.1502367717E+000 
184045724.545 +9.7268022295E-001 -5.0108644710E+000  +8.3845809260E-002 +8.3192405952E+001  +8.4432253613E-002 +8.3617831816E+001  +9.7348473590E-001 -4.9441061384E+000 
188046522.905 +9.7473096895E-001 -4.8263806338E+000  +8.5737585005E-002 +8.3375658623E+001  +8.6505889748E-002 +8.3680472380E+001  +9.7491621559E-001 -4.7716090016E+000 
192047321.264 +9.7787329155E-001 -4.6695304111E+000  +8.7781051823E-002 +8.3521842580E+001  +8.8646087910E-002 +8.3710202184E+001  +9.7791644214E-001 -4.6205661063E+000 
196048119.624 +9.8152863462E-001 -4.5723106589E+000  +8.9868273476E-002 +8.3677097266E+001  +9.0731463783E-002 +8.3623931496E+001  +9.8144464178E-001 -4.5316367784E+000 
200048917.984 +9.8642152032E-001 -4.5372919895E+000  +9.2094925248E-002 +8.3723513813E+001  +9.2951957876E-002 +8.3576008468E+001  +9.8617523780E-001 -4.4895015337E+000 
204049716.343 +9.9170896379E-001 -4.5757661532E+000  +9.4314515235E-002 +8.3766317184E+001  +9.5100996888E-002 +8.3504428383E+001  +9.9087176128E-001 -4.5153096837E+000 
208050514.703 +9.9728508879E-001 -4.6815427949E+000  +9.6697103693E-002 +8.3719621534E+001  +9.7335386871E-002 +8.3287721795E+001  +9.9634181378E-001 -4.6289741874E+000 
212051313.063 +1.0028530850E+000 -4.8851518905E+000  +9.9168916676E-002 +8.3577322311E+001  +9.9641989715E-002 +8.3088698194E+001  +1.0017602479E+000 -4.8137275056E+000 
216052111.422 +1.0077757247E+000 -5.2034304938E+000  +1.0168178279E-001 +8.3347909586E+001  +1.0190790217E-001 +8.2771540378E+001  +1.0068624413E+000 -5.0954557916E+000 
220052909.782 +1.0121539080E+000 -5.5571909102E+000  +1.0428744392E-001 +8.2985685916E+001  +1.0415626687E-001 +8.2436153554E+001  +1.0109984503E+000 -5.4565815860E+000 
224053708.142 +1.0151583262E+000 -6.0196002916E+000  +1.0663419290E-001 +8.2526353496E+001  +1.0630201518E-001 +8.2011679856E+001  +1.0142951057E+000 -5.8908759570E+000 
228054506.501 +1.0165754447E+000 -6.5361003326E+000  +1.0879987147E-001 +8.1950830305E+001  +1.0827327698E-001 +8.1469442210E+001  +1.0157014765E+000 -6.3896273635E+000 
232055304.861 +1.0156598478E+000 -7.0687913291E+000  +1.1070963012E-001 +8.1363617691E+001  +1.1002400576E-001 +8.0955028556E+001  +1.0151302616E+000 -6.9158742273E+000 
236056103.221 +1.0126757484E+000 -7.6037946335E+000  +1.1247398149E-001 +8.0720287525E+001  +1.1143798662E-001 +8.0436067020E+001  +1.0122977718E+000 -7.4194426681E+000 
240056901.580 +1.0075771992E+000 -8.0858630579E+000  +1.1374383311E-001 +8.0159787604E+001  +1.1266772455E-001 +7.9994660934E+001  +1.0077108254E+000 -7.8925412961E+000 
244057699.940 +1.0011636820E+000 -8.4620605229E+000  +1.1492073597E-001 +7.9635496815E+001  +1.1370898754E-001 +7.9654950004E+001  +1.0014544589E+000 -8.2637801851E+000 
248058498.300 +9.9342492960E-001 -8.7265805305E+000  +1.1568826408E-001 +7.9360115032E+001  +1.1460038958E-001 +7.9465513698E+001  +9.9405511691E-001 -8.5083104533E+000 
252059296.659 +9.8528061864E-001 -8.8533039624E+000  +1.1630192526E-001 +7.9150201185E+001  +1.1541148399E-001 +7.9469776001E+001  +9.8625258986E-001 -8.6446087672E+000 
256060095.019 +9.7776565568E-001 -8.8620825096E+000  +1.1721999655E-001 +7.9115861210E+001  +1.1637157708E-001 +7.9528987265E+001  +9.7875662647E-001 -8.6607577645E+000 
260060893.379 +9.7093321990E-001 -8.7522083118E+000  +1.1807614128E-001 +7.9224060503E+001  +1.1737987158E-001 +7.9701034197E+001  +9.7249608019E-001 -8.5638159907E+000 
264061691.738 +9.6604441074E-001 -8.5428940048E+000  +1.1914725392E-001 +7.9416034089E+001  +1.1883006441E-001 +7.9968550032E+001  +9.6753650273E-001 -8.3788146769E+000 
268062490.098 +9.6260670200E-001 -8.3032070103E+000  +1.2039709809E-001 +7.9687822680E+001  +1.2034242851E-001 +8.0251371229E+001  +9.6411074347E-001 -8.1459745742E+000 
272063288.458 +9.6106016777E-001 -8.0113336707E+000  +1.2192673023E-001 +7.9973929018E+001  +1.2216089457E-001 +8.0492269240E+001  +9.6213583164E-001 -7.8686071785E+000 
276064086.817 +9.6108211785E-001 -7.7199403665E+000  +1.2361466281E-001 +8.0249740352E+001  +1.2406617169E-001 +8.0759750098E+001  +9.6210835589E-001 -7.6024244366E+000 
280064885.177 +9.6250829739E-001 -7.4362698262E+000  +1.2554835125E-001 +8.0493993038E+001  +1.2635460237E-001 +8.0923633678E+001  +9.6367251662E-001 -7.3452488368E+000 
284065683.537 +9.6544459241E-001 -7.2105071280E+000  +1.2758373234E-001 +8.0690356844E+001  +1.2853510807E-001 +8.1030341443E+001  +9.6609915737E-001 -7.1264286103E+000 
288066481.896 +9.6989314354E-001 -7.0260114548E+000  +1.2977825665E-001 +8.0921121567E+001  +1.3092519308E-001 +8.1066617742E+001  +9.7014854999E-001 -6.9468829874E+000 
292067280.256 +9.7488531576E-001 -6.9280410913E+000  +1.3209555110E-001 +8.1017402926E+001  +1.3339322042E-001 +8.1065282894E+001  +9.7488259777E-001 -6.8489097381E+000 
296068078.616 +9.8071905237E-001 -6.8931443490E+000  +1.3462346020E-001 +8.1121803157E+001  +1.3594050053E-001 +8.0990746600E+001  +9.8043977266E-001 -6.8193630502E+000 
300068876.975 +9.8735526083E-001 -6.9589525090E+000  +1.3728020475E-001 +8.1102684819E+001  +1.3833321878E-001 +8.0859983441E+001  +9.8678535932E-001 -6.8667691935E+000 
304069675.335 +9.9403035077E-001 -7.0974467421E+000  +1.4003381084E-001 +8.1022358788E+001  +1.4099306268E-001 +8.0657731495E+001  +9.9305148142E-001 -7.0204942855E+000 
308070473.695 +1.0003669392E+000 -7.3820401239E+000  +1.4282213562E-001 +8.0843544331E+001  +1.4356411752E-001 +8.0404040779E+001  +9.9925805748E-001 -7.2599619240E+000 
312071272.054 +1.0060059927E+000 -7.7376459174E+000  +1.4569770095E-001 +8.0506243794E+001  +1.4607303404E-001 +8.0041996681E+001  +1.0047404443E+000 -7.6101457424E+000 
316072070.414 +1.0105653894E+000 -8.2063283730E+000  +1.4852356663E-001 +8.0073261302E+001  +1.4846203020E-001 +7.9612022809E+001  +1.0090080381E+000 -8.0582604436E+000 
320072868.774 +1.0130316219E+000 -8.7441988399E+000  +1.5096030664E-001 +7.9518421737E+001  +1.5068572453E-001 +7.9034692830E+001  +1.0119687559E+000 -8.5680760413E+000 
324073667.133 +1.0137473952E+000 -9.3450212773E+000  +1.5328225911E-001 +7.8923243563E+001  +1.5267935647E-001 +7.8485090107E+001  +1.0127057372E+000 -9.1351705283E+000 
328074465.493 +1.0121275920E+000 -9.9405700008E+000  +1.5505997246E-001 +7.8246082418E+001  +1.5420339526E-001 +7.7909660367E+001  +1.0113756575E+000 -9.7087210613E+000 
332075263.853 +1.0081507352E+000 -1.0523595619E+001  +1.5631770161E-001 +7.7603243355E+001  +1.5519334525E-001 +7.7309936539E+001  +1.0074888369E+000 -1.0265456842E+001 
336076062.212 +1.0016631051E+000 -1.1016139760E+001  +1.5725290216E-001 +7.6988003161E+001  +1.5599875972E-001 +7.6817753787E+001  +1.0012840608E+000 -1.0758434219E+001 
340076860.572 +9.9366370510E-001 -1.1425031250E+001  +1.5775347081E-001 +7.6544838888E+001  +1.5640774450E-001 +7.6435190694E+001  +9.9371448468E-001 -1.1152826872E+001 
344077658.932 +9.8436756387E-001 -1.1679710376E+001  +1.5805961917E-001 +7.6209990494E+001  +1.5675845857E-001 +7.6275365550E+001  +9.8518927996E-001 -1.1401610836E+001 
348078457.291 +9.7531267569E-001 -1.1778077264E+001  +1.5825082792E-001 +7.6091303562E+001  +1.5694175298E-001 +7.6258535147E+001  +9.7618460565E-001 -1.1500589986E+001 
352079255.651 +9.6641669697E-001 -1.1729497935E+001  +1.5843993528E-001 +7.6107999060E+001  +1.5739929590E-001 +7.6384757367E+001  +9.6784198765E-001 -1.1472243177E+001 
356080054.011 +9.5914494089E-001 -1.1565405950E+001  +1.5884720479E-001 +7.6266645466E+001  +1.5795179697E-001 +7.6631502584E+001  +9.6038445744E-001 -1.1308919177E+001 
360080852.370 +9.5347174462E-001 -1.1293176684E+001  +1.5958758935E-001 +7.6536284032E+001  +1.5900095388E-001 +7.6997937522E+001  +9.5511240283E-001 -1.1066750004E+001 
364081650.730 +9.4978503967E-001 -1.0949449580E+001  +1.6074543741E-001 +7.6860690982E+001  +1.6043670888E-001 +7.7362276088E+001  +9.5139428218E-001 -1.0751925347E+001 
368082449.090 +9.4815098721E-001 -1.0595021770E+001  +1.6207085762E-001 +7.7198863478E+001  +1.6215963743E-001 +7.7664141168E+001  +9.4944431554E-001 -1.0408580194E+001 
372083247.449 +9.4823570251E-001 -1.0241466778E+001  +1.6376860863E-001 +7.7508994914E+001  +1.6418010788E-001 +7.7973139641E+001  +9.4964526384E-001 -1.0073843543E+001 
376084045.809 +9.5046849746E-001 -9.9184445841E+000  +1.6583563996E-001 +7.7813675638E+001  +1.6648917720E-001 +7.8212369059E+001  +9.5156455454E-001 -9.7678547662E+000 
380084844.169 +9.5386723978E-001 -9.6205446168E+000  +1.6791952114E-001 +7.8073880249E+001  +1.6901350760E-001 +7.8402694481E+001  +9.5485760308E-001 -9.4889771499E+000 
384085642.529 +9.5888307368E-001 -9.3998603004E+000  +1.7039600468E-001 +7.8248534702E+001  +1.7158958641E-001 +7.8512072227E+001  +9.5952496850E-001 -9.2900377871E+000 
388086440.888 +9.6476307510E-001 -9.2689895665E+000  +1.7309806399E-001 +7.8450243628E+001  +1.7441614554E-001 +7.8518068159E+001  +9.6514766301E-001 -9.1637419875E+000 
392087239.248 +9.7190228001E-001 -9.2224298965E+000  +1.7590593115E-001 +7.8493418628E+001  +1.7724597068E-001 +7.8462210854E+001  +9.7156934531E-001 -9.1261864665E+000 
396088037.608 +9.7898689065E-001 -9.2920301705E+000  +1.7887250457E-001 +7.8502271497E+001  +1.8017147031E-001 +7.8363717988E+001  +9.7881053724E-001 -9.1794248110E+000 
400088835.967 +9.8697296113E-001 -9.4683648013E+000  +1.8208070520E-001 +7.8397631610E+001  +1.8316176692E-001 +7.8150281259E+001  +9.8597095597E-001 -9.3530890368E+000 
404089634.327 +9.9392562353E-001 -9.7609451154E+000  +1.8532734153E-001 +7.8157030962E+001  +1.8617159219E-001 +7.7879909539E+001  +9.9277168723E-001 -9.6269798216E+000 
408090432.687 +1.0004019304E+000 -1.0168626618E+001  +1.8845574327E-001 +7.7823679136E+001  +1.8904328880E-001 +7.7458957301E+001  +9.9891455780E-001 -1.0012776478E+001 
412091231.046 +1.0055387385E+000 -1.0664987475E+001  +1.9153673652E-001 +7.7382941622E+001  +1.9191305680E-001 +7.6961815795E+001  +1.0038567941E+000 -1.0481777865E+001 
416092029.406 +1.0085900538E+000 -1.1273571534E+001  +1.9430275235E-001 +7.6728708042E+001  +1.9422975897E-001 +7.6361729455E+001  +1.0069512390E+000 -1.1062215221E+001 
420092827.766 +1.0093958213E+000 -1.1939715997E+001  +1.9662716552E-001 +7.6084333789E+001  +1.9625494096E-001 +7.5711073781E+001  +1.0077521789E+000 -1.1690141366E+001 
424093626.125 +1.0072253638E+000 -1.2611099038E+001  +1.9833073956E-001 +7.5357609158E+001  +1.9757972544E-001 +7.5033720615E+001  +1.0060258022E+000 -1.2325457705E+001 
428094424.485 +1.0025075455E+000 -1.3251705796E+001  +1.9943008293E-001 +7.4629477455E+001  +1.9832407152E-001 +7.4365338365E+001  +1.0018290044E+000 -1.2957306120E+001 
432095222.845 +9.9530894048E-001 -1.3798798505E+001  +1.9977316916E-001 +7.3992986907E+001  +1.9865719552E-001 +7.3858676247E+001  +9.9506919008E-001 -1.3485608865E+001 
436096021.204 +9.8623333907E-001 -1.4241426181E+001  +1.9974531369E-001 +7.3488614756E+001  +1.9847075035E-001 +7.3408828211E+001  +9.8623781376E-001 -1.3919967521E+001 
440096819.564 +9.7603474656E-001 -1.4522394549E+001  +1.9927852412E-001 +7.3187629484E+001  +1.9804013039E-001 +7.3186466201E+001  +9.7665013495E-001 -1.4191615331E+001 
444097617.924 +9.6549385645E-001 -1.4638014099E+001  +1.9874760170E-001 +7.3066868509E+001  +1.9747102421E-001 +7.3128380990E+001  +9.6661314942E-001 -1.4306325369E+001 
448098416.283 +9.5573993310E-001 -1.4584838201E+001  +1.9829186658E-001 +7.3109716748E+001  +1.9723037915E-001 +7.3297105406E+001  +9.5718589636E-001 -1.4262522776E+001 
452099214.643 +9.4740347344E-001 -1.4373822032E+001  +1.9827297648E-001 +7.3314771882E+001  +1.9726886271E-001 +7.3591237741E+001  +9.4900728502E-001 -1.4071868928E+001 
456100013.003 +9.4068092075E-001 -1.4077135391E+001  +1.9851994997E-001 +7.3613152811E+001  +1.9783379258E-001 +7.3932550684E+001  +9.4237111645E-001 -1.3793028491E+001 
