!  2-Port S-parameters saved by WinCal
! VAR MeasName=S-Parameters (CALIBRATED_DATA) read from VNA (P5004A)
! VAR MeasDate=24/04/2024 15:58:14
! VAR NAME=Wafer2_r1_c3_pristine 6
! VAR FILENAME=Wafer2_r1_c3_pristine 6.S2P
! VAR DATE=24/04/2024 15:58:14
! VAR PHYS_PORTS=1,2
! VAR ObjTypeName=DATASET
! VAR IndexType=Frequency
!
# Hz S MA R 50
9000.000 +7.9967150894E-001 +1.7291362376E+001  +6.9884315346E-005 +1.2891344866E+002  +7.9085818772E-005 -4.9360424531E+001  +7.9931164392E-001 +1.7288779514E+001 
4009798.360 +9.8720168851E-001 -3.1323007632E+000  +1.8683209614E-003 +8.6025625946E+001  +1.9091953962E-003 +8.6275932424E+001  +9.8707777446E-001 -3.0556464060E+000 
8010596.719 +9.7584924796E-001 -6.3124494226E-001  +3.7087787690E-003 +8.8557862350E+001  +3.7375374852E-003 +8.8440183400E+001  +9.7662661969E-001 -6.0244799784E-001 
12011395.079 +9.8350627439E-001 -8.9812768971E-003  +5.5938567847E-003 +8.9139429125E+001  +5.6349912849E-003 +8.8730847581E+001  +9.8382355484E-001 -1.0656728419E-002 
16012193.439 +9.8952559441E-001 +1.8077820293E-001  +7.4731209624E-003 +8.9296104200E+001  +7.5123975582E-003 +8.8809579977E+001  +9.8971702437E-001 +1.7369022421E-001 
20012991.798 +9.9465391237E-001 +2.0568985429E-001  +9.3688652338E-003 +8.9368279364E+001  +9.3940633583E-003 +8.8754084260E+001  +9.9479789863E-001 +1.9556542213E-001 
24013790.158 +9.9948315032E-001 +1.2778044135E-001  +1.1299705902E-002 +8.9297939571E+001  +1.1286309050E-002 +8.8662031482E+001  +9.9942218139E-001 +1.3097893284E-001 
28014588.518 +1.0035603248E+000 -3.0196334444E-002  +1.3241432120E-002 +8.9202724829E+001  +1.3186856906E-002 +8.8601143670E+001  +1.0035208911E+000 -1.7114253500E-002 
32015386.877 +1.0078072881E+000 -2.3027554975E-001  +1.5201939152E-002 +8.8962914464E+001  +1.5253620480E-002 +8.8011564045E+001  +1.0076118710E+000 -2.1588847926E-001 
36016185.237 +1.0106419262E+000 -4.9465561979E-001  +1.7215872497E-002 +8.8789950878E+001  +1.7134092484E-002 +8.8013753919E+001  +1.0109608103E+000 -4.9847065659E-001 
40016983.597 +1.0128551845E+000 -8.3029133680E-001  +1.9200653673E-002 +8.8200187891E+001  +1.9054411528E-002 +8.7795029299E+001  +1.0126806392E+000 -8.1855418866E-001 
44017781.956 +1.0138609741E+000 -1.2028970226E+000  +2.1093828365E-002 +8.7606143218E+001  +2.0822446861E-002 +8.7329099763E+001  +1.0138212109E+000 -1.1705352960E+000 
48018580.316 +1.0142450156E+000 -1.5645561853E+000  +2.3020183737E-002 +8.7133757709E+001  +2.2828991383E-002 +8.7511470611E+001  +1.0144494820E+000 -1.5209291390E+000 
52019378.676 +1.0127414778E+000 -1.9570316272E+000  +2.4907733574E-002 +8.6647200774E+001  +2.4664856755E-002 +8.6959216166E+001  +1.0126684974E+000 -1.9098832697E+000 
56020177.035 +1.0099597852E+000 -2.2906321394E+000  +2.6718418848E-002 +8.6300816512E+001  +2.6471822035E-002 +8.6389536855E+001  +1.0102947022E+000 -2.2372778861E+000 
60020975.395 +1.0062812046E+000 -2.6087886004E+000  +2.8435927972E-002 +8.6009839306E+001  +2.8203833835E-002 +8.6267036732E+001  +1.0064528520E+000 -2.5533907630E+000 
64021773.755 +1.0015122275E+000 -2.8041145158E+000  +3.0100099625E-002 +8.5697349581E+001  +2.9871646234E-002 +8.5994211626E+001  +1.0015796310E+000 -2.7627924864E+000 
68022572.114 +9.9632840042E-001 -2.9383671391E+000  +3.1819886367E-002 +8.5306417794E+001  +3.1614378072E-002 +8.5762050809E+001  +9.9641092995E-001 -2.9014147569E+000 
72023370.474 +9.9179741313E-001 -2.9845274462E+000  +3.3451742493E-002 +8.5207638118E+001  +3.3332534020E-002 +8.5973285830E+001  +9.9181035011E-001 -2.9519280520E+000 
76024168.834 +9.8745597884E-001 -2.9604252605E+000  +3.5079814708E-002 +8.5386452359E+001  +3.5056242101E-002 +8.5879592663E+001  +9.8774322185E-001 -2.9098997118E+000 
80024967.193 +9.8411859765E-001 -2.8404618938E+000  +3.6766725678E-002 +8.5429633604E+001  +3.6795362164E-002 +8.6051177491E+001  +9.8441145714E-001 -2.8227180152E+000 
84025765.553 +9.8215058408E-001 -2.7309817362E+000  +3.8417369360E-002 +8.5529639985E+001  +3.8589207020E-002 +8.6238803766E+001  +9.8220048836E-001 -2.7188632911E+000 
88026563.913 +9.8152352975E-001 -2.5532059439E+000  +4.0221124571E-002 +8.5810597590E+001  +4.0466512690E-002 +8.6298211730E+001  +9.8155064207E-001 -2.5536290516E+000 
92027362.272 +9.8189002617E-001 -2.4195307028E+000  +4.2022462078E-002 +8.6050304239E+001  +4.2365298396E-002 +8.6324448595E+001  +9.8171412724E-001 -2.4167716641E+000 
96028160.632 +9.8265174324E-001 -2.2807129666E+000  +4.3724497786E-002 +8.6181785199E+001  +4.4132992119E-002 +8.6324778264E+001  +9.8267934778E-001 -2.2918429927E+000 
100028958.992 +9.8556447647E-001 -2.1877262206E+000  +4.5743942716E-002 +8.6282443728E+001  +4.6210426273E-002 +8.6340366683E+001  +9.8526130851E-001 -2.1947422704E+000 
104029757.351 +9.8868682654E-001 -2.1276480994E+000  +4.7578792053E-002 +8.6349171720E+001  +4.8131120025E-002 +8.6202148259E+001  +9.8826495459E-001 -2.1173886621E+000 
108030555.711 +9.9244125930E-001 -2.1088893532E+000  +4.9693154706E-002 +8.6523156264E+001  +5.0059659445E-002 +8.6115682213E+001  +9.9199237825E-001 -2.1075910399E+000 
112031354.071 +9.9699233529E-001 -2.1696974378E+000  +5.1758622701E-002 +8.6513355981E+001  +5.2009516894E-002 +8.6032334891E+001  +9.9634116373E-001 -2.1618960748E+000 
116032152.430 +1.0014725325E+000 -2.2844217614E+000  +5.3825271127E-002 +8.6414798006E+001  +5.4077745638E-002 +8.5895049421E+001  +1.0008809890E+000 -2.2708077423E+000 
120032950.790 +1.0061694109E+000 -2.4800651882E+000  +5.5969536705E-002 +8.6292035243E+001  +5.5960034015E-002 +8.5748637779E+001  +1.0053046604E+000 -2.4536634300E+000 
124033749.150 +1.0104398436E+000 -2.7492205052E+000  +5.8149295477E-002 +8.6124590201E+001  +5.8098696159E-002 +8.5421940046E+001  +1.0098464342E+000 -2.7245526810E+000 
128034547.510 +1.0140714324E+000 -3.0952262105E+000  +6.0286634636E-002 +8.5713569793E+001  +6.0124844253E-002 +8.5200254776E+001  +1.0132675336E+000 -3.0444050752E+000 
132035345.869 +1.0160378507E+000 -3.5020764028E+000  +6.2460551318E-002 +8.5193239664E+001  +6.2031107812E-002 +8.4776952821E+001  +1.0155552648E+000 -3.4521010747E+000 
136036144.229 +1.0168783692E+000 -3.9583695059E+000  +6.4344245587E-002 +8.4699974562E+001  +6.3890064909E-002 +8.4389092723E+001  +1.0164541683E+000 -3.8899353071E+000 
140036942.589 +1.0156878165E+000 -4.4308149255E+000  +6.6377637572E-002 +8.4101138311E+001  +6.5664537224E-002 +8.3897226531E+001  +1.0155388740E+000 -4.3390933275E+000 
144037740.948 +1.0131407714E+000 -4.8608573951E+000  +6.7939567656E-002 +8.3666009874E+001  +6.7253023366E-002 +8.3480346021E+001  +1.0129810479E+000 -4.7549868601E+000 
148038539.308 +1.0084855145E+000 -5.2362313800E+000  +6.9554806955E-002 +8.3204472441E+001  +6.8835023419E-002 +8.3138700023E+001  +1.0085947454E+000 -5.1371604336E+000 
152039337.668 +1.0027043639E+000 -5.5629936979E+000  +7.0946611496E-002 +8.2751583465E+001  +7.0252789804E-002 +8.2822578855E+001  +1.0027901916E+000 -5.4635002049E+000 
156040136.027 +9.9617578632E-001 -5.7522888140E+000  +7.2227142206E-002 +8.2529034765E+001  +7.1440874070E-002 +8.2833710182E+001  +9.9655752951E-001 -5.6497741696E+000 
160040934.387 +9.8950269855E-001 -5.8244237568E+000  +7.3423839151E-002 +8.2446168044E+001  +7.2920581469E-002 +8.2734229572E+001  +9.9015498085E-001 -5.7202756517E+000 
164041732.747 +9.8385939921E-001 -5.7914229197E+000  +7.4746351914E-002 +8.2368312761E+001  +7.4305268034E-002 +8.2887924189E+001  +9.8435171261E-001 -5.7195149169E+000 
168042531.106 +9.7881228781E-001 -5.7104941939E+000  +7.5970541198E-002 +8.2431041201E+001  +7.5856882678E-002 +8.2967506890E+001  +9.7950213869E-001 -5.6185946940E+000 
172043329.466 +9.7534009271E-001 -5.5334038740E+000  +7.7539306180E-002 +8.2663791120E+001  +7.7462762615E-002 +8.3234469933E+001  +9.7595977310E-001 -5.4776034180E+000 
176044127.826 +9.7305767241E-001 -5.3252297760E+000  +7.9004618047E-002 +8.2864565412E+001  +7.9157507323E-002 +8.3411233295E+001  +9.7377423697E-001 -5.2731331751E+000 
180044926.185 +9.7222589517E-001 -5.1219507370E+000  +8.0637102968E-002 +8.3068038682E+001  +8.1075064738E-002 +8.3614125620E+001  +9.7298033231E-001 -5.0695038300E+000 
184045724.545 +9.7312547345E-001 -4.8962737550E+000  +8.2469674669E-002 +8.3316657313E+001  +8.2984432988E-002 +8.3732274495E+001  +9.7371162491E-001 -4.8774629057E+000 
188046522.905 +9.7487143805E-001 -4.7223085638E+000  +8.4318067625E-002 +8.3492165222E+001  +8.5038724244E-002 +8.3832659899E+001  +9.7517581367E-001 -4.6954434443E+000 
192047321.264 +9.7797476930E-001 -4.5757168052E+000  +8.6284609302E-002 +8.3638017826E+001  +8.7159629291E-002 +8.3745939862E+001  +9.7805659434E-001 -4.5505428713E+000 
196048119.624 +9.8183657511E-001 -4.4731935190E+000  +8.8313288734E-002 +8.3820437601E+001  +8.9271289600E-002 +8.3725845918E+001  +9.8174991504E-001 -4.4565044630E+000 
200048917.984 +9.8678703054E-001 -4.4278301200E+000  +9.0497791733E-002 +8.3868547901E+001  +9.1421367575E-002 +8.3704471859E+001  +9.8638630828E-001 -4.4139539022E+000 
204049716.343 +9.9197951166E-001 -4.4595722910E+000  +9.2794120647E-002 +8.3872083566E+001  +9.3503665323E-002 +8.3618299412E+001  +9.9118354354E-001 -4.4406689492E+000 
208050514.703 +9.9735185582E-001 -4.5762928252E+000  +9.5035858014E-002 +8.3893383788E+001  +9.5746336413E-002 +8.3394567443E+001  +9.9649188858E-001 -4.5450943139E+000 
212051313.063 +1.0031728061E+000 -4.7736507974E+000  +9.7548144821E-002 +8.3776592858E+001  +9.7944224807E-002 +8.3249915084E+001  +1.0023081026E+000 -4.7395882446E+000 
216052111.422 +1.0081355221E+000 -5.0820255341E+000  +9.9989386908E-002 +8.3524204360E+001  +1.0020005233E-001 +8.2968594681E+001  +1.0072184123E+000 -5.0239710913E+000 
220052909.782 +1.0125282995E+000 -5.4461543484E+000  +1.0247053705E-001 +8.3135747856E+001  +1.0236648106E-001 +8.2582429333E+001  +1.0112653109E+000 -5.3823837015E+000 
224053708.142 +1.0157094132E+000 -5.8989568220E+000  +1.0481362988E-001 +8.2755258570E+001  +1.0458039373E-001 +8.2149019656E+001  +1.0146697570E+000 -5.8165718317E+000 
228054506.501 +1.0170763992E+000 -6.4094520407E+000  +1.0696684603E-001 +8.2141371756E+001  +1.0638723430E-001 +8.1694857463E+001  +1.0162065211E+000 -6.3003041846E+000 
232055304.861 +1.0163486873E+000 -6.9485878668E+000  +1.0885445545E-001 +8.1509841330E+001  +1.0819898587E-001 +8.1197189495E+001  +1.0155572394E+000 -6.8094203980E+000 
236056103.221 +1.0133156160E+000 -7.4699460039E+000  +1.1058274877E-001 +8.0955797279E+001  +1.0964546839E-001 +8.0637579165E+001  +1.0127097257E+000 -7.3224379793E+000 
240056901.580 +1.0083663097E+000 -7.9437031768E+000  +1.1184429964E-001 +8.0321916696E+001  +1.1080693614E-001 +8.0172069242E+001  +1.0081116869E+000 -7.7821050081E+000 
244057699.940 +1.0019111750E+000 -8.3255625179E+000  +1.1298305502E-001 +7.9869707666E+001  +1.1174901698E-001 +7.9907212275E+001  +1.0019051228E+000 -8.1513067237E+000 
248058498.300 +9.9410693185E-001 -8.5772205615E+000  +1.1382758499E-001 +7.9561055905E+001  +1.1282759253E-001 +7.9671181454E+001  +9.9453244931E-001 -8.4068701190E+000 
252059296.659 +9.8582721718E-001 -8.7073378952E+000  +1.1455861503E-001 +7.9354529101E+001  +1.1352863299E-001 +7.9608240074E+001  +9.8682099105E-001 -8.5429343496E+000 
256060095.019 +9.7843786225E-001 -8.7129396758E+000  +1.1528429264E-001 +7.9319937717E+001  +1.1435876716E-001 +7.9684108501E+001  +9.7923421830E-001 -8.5587040209E+000 
260060893.379 +9.7161530296E-001 -8.6065690149E+000  +1.1619971361E-001 +7.9456463347E+001  +1.1555866447E-001 +7.9891274650E+001  +9.7301168660E-001 -8.4552532186E+000 
264061691.738 +9.6680404645E-001 -8.3985139915E+000  +1.1726777969E-001 +7.9587111603E+001  +1.1684794366E-001 +8.0158519263E+001  +9.6793517985E-001 -8.2705743112E+000 
268062490.098 +9.6324183031E-001 -8.1543810378E+000  +1.1843144465E-001 +7.9844568495E+001  +1.1835787226E-001 +8.0439276668E+001  +9.6444832005E-001 -8.0316085020E+000 
272063288.458 +9.6146494089E-001 -7.8582559224E+000  +1.1991236327E-001 +8.0146780724E+001  +1.2017135042E-001 +8.0684585430E+001  +9.6270321358E-001 -7.7508544973E+000 
276064086.817 +9.6157766353E-001 -7.5666023334E+000  +1.2160480339E-001 +8.0418194456E+001  +1.2212850011E-001 +8.0924003415E+001  +9.6253517065E-001 -7.4918527380E+000 
280064885.177 +9.6302355332E-001 -7.2765710710E+000  +1.2348087436E-001 +8.0692815759E+001  +1.2426536159E-001 +8.1124931678E+001  +9.6403936833E-001 -7.2245121271E+000 
284065683.537 +9.6596317951E-001 -7.0562447385E+000  +1.2551416112E-001 +8.0925999445E+001  +1.2645948009E-001 +8.1217400228E+001  +9.6658115283E-001 -7.0220611466E+000 
288066481.896 +9.7016755809E-001 -6.8768144138E+000  +1.2765141174E-001 +8.1121081682E+001  +1.2881178582E-001 +8.1256594196E+001  +9.7070971905E-001 -6.8333533398E+000 
292067280.256 +9.7530998437E-001 -6.7768341462E+000  +1.2997942478E-001 +8.1230691855E+001  +1.3111738934E-001 +8.1251268738E+001  +9.7528056794E-001 -6.7323828450E+000 
296068078.616 +9.8136960207E-001 -6.7390176070E+000  +1.3241191010E-001 +8.1322647495E+001  +1.3363134534E-001 +8.1167788960E+001  +9.8097692433E-001 -6.7044707302E+000 
300068876.975 +9.8782880274E-001 -6.7942291669E+000  +1.3497096808E-001 +8.1334742703E+001  +1.3609721910E-001 +8.1087995519E+001  +9.8722293229E-001 -6.7518024652E+000 
304069675.335 +9.9444408726E-001 -6.9442441875E+000  +1.3774037449E-001 +8.1275849830E+001  +1.3860812803E-001 +8.0911132339E+001  +9.9362906329E-001 -6.8989105629E+000 
308070473.695 +1.0009092294E+000 -7.2212220211E+000  +1.4053269267E-001 +8.1059722946E+001  +1.4118922352E-001 +8.0617640637E+001  +9.9966978626E-001 -7.1420719163E+000 
312071272.054 +1.0064746798E+000 -7.5918138296E+000  +1.4330679255E-001 +8.0764982702E+001  +1.4366253124E-001 +8.0289847074E+001  +1.0051268814E+000 -7.4862046700E+000 
316072070.414 +1.0111396555E+000 -8.0422822360E+000  +1.4605005408E-001 +8.0334781290E+001  +1.4607443232E-001 +7.9792064929E+001  +1.0097227300E+000 -7.9372539983E+000 
320072868.774 +1.0136116312E+000 -8.5761515447E+000  +1.4850432646E-001 +7.9813359719E+001  +1.4814135765E-001 +7.9308519949E+001  +1.0125203542E+000 -8.4429946082E+000 
324073667.133 +1.0146757715E+000 -9.1744430631E+000  +1.5072304103E-001 +7.9181327115E+001  +1.5017244223E-001 +7.8693432108E+001  +1.0132850559E+000 -9.0117295619E+000 
328074465.493 +1.0130908588E+000 -9.7728398664E+000  +1.5249527901E-001 +7.8497537889E+001  +1.5162788637E-001 +7.8130655883E+001  +1.0120344389E+000 -9.5791645643E+000 
332075263.853 +1.0088627492E+000 -1.0339302373E+001  +1.5382716585E-001 +7.7859845766E+001  +1.5274492395E-001 +7.7558741889E+001  +1.0081553695E+000 -1.0134528842E+001 
336076062.212 +1.0026717524E+000 -1.0837216913E+001  +1.5472535883E-001 +7.7260468982E+001  +1.5349281078E-001 +7.7072495472E+001  +1.0021929028E+000 -1.0619870466E+001 
340076860.572 +9.9460703695E-001 -1.1234591591E+001  +1.5522243858E-001 +7.6815058190E+001  +1.5384634448E-001 +7.6747196414E+001  +9.9460447379E-001 -1.1006485728E+001 
344077658.932 +9.8562440083E-001 -1.1498847883E+001  +1.5548032821E-001 +7.6463659739E+001  +1.5416691286E-001 +7.6545658854E+001  +9.8614799866E-001 -1.1269278118E+001 
348078457.291 +9.7628523563E-001 -1.1572275162E+001  +1.5557721325E-001 +7.6352290561E+001  +1.5438673671E-001 +7.6486739580E+001  +9.7686833946E-001 -1.1360824621E+001 
352079255.651 +9.6752843779E-001 -1.1540273465E+001  +1.5587370221E-001 +7.6373913867E+001  +1.5486643984E-001 +7.6642863576E+001  +9.6856583919E-001 -1.1334400905E+001 
356080054.011 +9.6006282966E-001 -1.1369648411E+001  +1.5634541666E-001 +7.6531264287E+001  +1.5549109047E-001 +7.6870837930E+001  +9.6129039188E-001 -1.1171276030E+001 
360080852.370 +9.5421155277E-001 -1.1102181112E+001  +1.5710980117E-001 +7.6797584938E+001  +1.5640036814E-001 +7.7225147973E+001  +9.5585062219E-001 -1.0920255512E+001 
364081650.730 +9.5066377133E-001 -1.0756396140E+001  +1.5817813180E-001 +7.7123257109E+001  +1.5780159828E-001 +7.7592063687E+001  +9.5206839488E-001 -1.0607319021E+001 
368082449.090 +9.4907994005E-001 -1.0402611190E+001  +1.5951632264E-001 +7.7450763566E+001  +1.5952409172E-001 +7.7911023369E+001  +9.5023266870E-001 -1.0278245732E+001 
372083247.449 +9.4897817741E-001 -1.0048396756E+001  +1.6121242776E-001 +7.7760133546E+001  +1.6153945313E-001 +7.8215303009E+001  +9.5041167385E-001 -9.9388034388E+000 
376084045.809 +9.5124720649E-001 -9.7191478857E+000  +1.6313546645E-001 +7.8050136021E+001  +1.6373176939E-001 +7.8467204644E+001  +9.5235787126E-001 -9.6210839535E+000 
380084844.169 +9.5479929198E-001 -9.4281890027E+000  +1.6534749470E-001 +7.8322913833E+001  +1.6627072765E-001 +7.8666757917E+001  +9.5563066583E-001 -9.3462833673E+000 
384085642.529 +9.5951867375E-001 -9.2021807168E+000  +1.6771099109E-001 +7.8535399280E+001  +1.6881723615E-001 +7.8754645647E+001  +9.6029695678E-001 -9.1490882984E+000 
388086440.888 +9.6570061207E-001 -9.0689159108E+000  +1.7028570052E-001 +7.8678719719E+001  +1.7158771034E-001 +7.8787048751E+001  +9.6571393714E-001 -9.0273327481E+000 
392087239.248 +9.7276568521E-001 -9.0254370118E+000  +1.7311391712E-001 +7.8739899297E+001  +1.7440206671E-001 +7.8730420375E+001  +9.7247252998E-001 -8.9769892586E+000 
396088037.608 +9.7983785252E-001 -9.0909046674E+000  +1.7600955199E-001 +7.8769743161E+001  +1.7728430691E-001 +7.8619612323E+001  +9.7955670094E-001 -9.0396203696E+000 
400088835.967 +9.8784486825E-001 -9.2595181643E+000  +1.7915656640E-001 +7.8669425832E+001  +1.8021226787E-001 +7.8413274690E+001  +9.8680714339E-001 -9.2062143027E+000 
404089634.327 +9.9507102954E-001 -9.5594587809E+000  +1.8226870369E-001 +7.8486762611E+001  +1.8313345036E-001 +7.8157702920E+001  +9.9369838234E-001 -9.4769195093E+000 
408090432.687 +1.0014245133E+000 -9.9502044048E+000  +1.8543598597E-001 +7.8134353438E+001  +1.8604280456E-001 +7.7745439945E+001  +1.0000046476E+000 -9.8608076225E+000 
412091231.046 +1.0066600401E+000 -1.0464941277E+001  +1.8844594741E-001 +7.7677206010E+001  +1.8866997862E-001 +7.7268805647E+001  +1.0048230646E+000 -1.0334052839E+001 
416092029.406 +1.0098815332E+000 -1.1056480827E+001  +1.9127198611E-001 +7.7072193060E+001  +1.9115886950E-001 +7.6669786591E+001  +1.0080456446E+000 -1.0904651229E+001 
420092827.766 +1.0106488025E+000 -1.1719611027E+001  +1.9353716302E-001 +7.6391635856E+001  +1.9307365635E-001 +7.6022814550E+001  +1.0088600603E+000 -1.1528413008E+001 
424093626.125 +1.0085305172E+000 -1.2394424019E+001  +1.9523619323E-001 +7.5644198862E+001  +1.9444406299E-001 +7.5346172087E+001  +1.0072784084E+000 -1.2168421699E+001 
428094424.485 +1.0038334264E+000 -1.3024128664E+001  +1.9631847615E-001 +7.4923542696E+001  +1.9528231518E-001 +7.4686285221E+001  +1.0030540671E+000 -1.2798060097E+001 
432095222.845 +9.9685518431E-001 -1.3579817985E+001  +1.9669827997E-001 +7.4322298987E+001  +1.9546140881E-001 +7.4155892011E+001  +9.9618464177E-001 -1.3316023692E+001 
436096021.204 +9.8777486988E-001 -1.4017478770E+001  +1.9650230029E-001 +7.3803284037E+001  +1.9521369498E-001 +7.3742754949E+001  +9.8759632748E-001 -1.3744416773E+001 
440096819.564 +9.7745917070E-001 -1.4295759578E+001  +1.9613366064E-001 +7.3489812952E+001  +1.9479210609E-001 +7.3520767171E+001  +9.7789382344E-001 -1.4024802109E+001 
444097617.924 +9.6705008074E-001 -1.4406963182E+001  +1.9579599444E-001 +7.3394946892E+001  +1.9444004807E-001 +7.3455720293E+001  +9.6793313329E-001 -1.4140685305E+001 
448098416.283 +9.5729832758E-001 -1.4354286775E+001  +1.9528284451E-001 +7.3415471851E+001  +1.9420226750E-001 +7.3580422291E+001  +9.5834419267E-001 -1.4093084016E+001 
452099214.643 +9.4874361400E-001 -1.4139560571E+001  +1.9512242444E-001 +7.3640522623E+001  +1.9418074566E-001 +7.3902669642E+001  +9.5013719248E-001 -1.3907499832E+001 
456100013.003 +9.4215791428E-001 -1.3853094260E+001  +1.9550136280E-001 +7.3928420909E+001  +1.9478592388E-001 +7.4260901693E+001  +9.4346970356E-001 -1.3619696655E+001 
