!  2-Port S-parameters saved by WinCal
! VAR MeasName=S-Parameters (CALIBRATED_DATA) read from VNA (P5004A)
! VAR MeasDate=24/04/2024 17:13:58
! VAR NAME=Wafer2_r1_c1_LRS 2
! VAR FILENAME=Wafer2_r1_c1_LRS 2.S2P
! VAR DATE=24/04/2024 17:13:58
! VAR PHYS_PORTS=1,2
! VAR ObjTypeName=DATASET
! VAR IndexType=Frequency
!
# Hz S MA R 50
9000.000 +7.9978565571E-001 +1.7295003991E+001  +5.9581586042E-006 -2.2072330853E+001  +6.3100695957E-005 +8.5138809007E+001  +7.9912996471E-001 +1.7290126043E+001 
4009798.360 +9.8726991173E-001 -3.1432894491E+000  +1.9177889985E-003 +8.5709480603E+001  +1.9360217872E-003 +8.5943406502E+001  +9.8685167487E-001 -3.0574682540E+000 
8010596.719 +9.7583896640E-001 -6.3172582475E-001  +3.7604255400E-003 +8.8441614918E+001  +3.8032235247E-003 +8.8293733733E+001  +9.7667135032E-001 -6.0424576670E-001 
12011395.079 +9.8347610860E-001 -6.4588004589E-003  +5.6751456569E-003 +8.9153048670E+001  +5.7187848253E-003 +8.8684690922E+001  +9.8390203792E-001 +2.2821628614E-003 
16012193.439 +9.8947650547E-001 +1.7229664902E-001  +7.6007232221E-003 +8.9266143203E+001  +7.6298203819E-003 +8.8788694799E+001  +9.8971761863E-001 +1.6549496908E-001 
20012991.798 +9.9470486669E-001 +1.9272034574E-001  +9.5273245296E-003 +8.9328376000E+001  +9.5435382028E-003 +8.8708267885E+001  +9.9469184886E-001 +1.8817369492E-001 
24013790.158 +9.9948002072E-001 +1.2545223799E-001  +1.1481317813E-002 +8.9269438133E+001  +1.1471629171E-002 +8.8631752680E+001  +9.9939580544E-001 +1.2085048808E-001 
28014588.518 +1.0034384877E+000 -4.0713080985E-002  +1.3458883821E-002 +8.9160428270E+001  +1.3397983934E-002 +8.8556760768E+001  +1.0034050956E+000 -2.8099341081E-002 
32015386.877 +1.0077751569E+000 -2.5654591470E-001  +1.5619292426E-002 +8.8895412667E+001  +1.5370483884E-002 +8.8357692571E+001  +1.0076243383E+000 -2.2570793843E-001 
36016185.237 +1.0107124098E+000 -5.1327674338E-001  +1.7580054117E-002 +8.8603661760E+001  +1.7496377006E-002 +8.8053904330E+001  +1.0106976723E+000 -5.1053703379E-001 
40016983.597 +1.0125077545E+000 -8.4453146905E-001  +1.9477211723E-002 +8.8035890454E+001  +1.9395784831E-002 +8.8222476964E+001  +1.0127781885E+000 -8.3176916929E-001 
44017781.956 +1.0139578407E+000 -1.2195942657E+000  +2.1446972402E-002 +8.7793700845E+001  +2.1374156717E-002 +8.7510070894E+001  +1.0137643266E+000 -1.1839540673E+000 
48018580.316 +1.0141029839E+000 -1.5946084982E+000  +2.3476130695E-002 +8.7286996748E+001  +2.3153462737E-002 +8.7099114002E+001  +1.0146004554E+000 -1.5493269852E+000 
52019378.676 +1.0128112030E+000 -1.9863458797E+000  +2.5274954592E-002 +8.6826047411E+001  +2.5097173690E-002 +8.6726458858E+001  +1.0124758229E+000 -1.9289421555E+000 
56020177.035 +1.0100138165E+000 -2.3235388562E+000  +2.7147005413E-002 +8.6031403533E+001  +2.6844124472E-002 +8.6078327310E+001  +1.0102171686E+000 -2.2757591061E+000 
60020975.395 +1.0061797166E+000 -2.6345429848E+000  +2.8946967407E-002 +8.5805003728E+001  +2.8695679655E-002 +8.6057039231E+001  +1.0062812006E+000 -2.5790880777E+000 
64021773.755 +1.0014122395E+000 -2.8555409390E+000  +3.0652041425E-002 +8.5690979567E+001  +3.0454369504E-002 +8.5997579677E+001  +1.0015434163E+000 -2.7967608327E+000 
68022572.114 +9.9641973953E-001 -2.9881182799E+000  +3.2361850126E-002 +8.5400666705E+001  +3.2221745335E-002 +8.5903702171E+001  +9.9621187891E-001 -2.9343294272E+000 
72023370.474 +9.9162825198E-001 -3.0297456708E+000  +3.3987500182E-002 +8.5248283099E+001  +3.3829500261E-002 +8.5743521129E+001  +9.9175001938E-001 -2.9767756182E+000 
76024168.834 +9.8735551209E-001 -2.9984024124E+000  +3.5699369589E-002 +8.5289743706E+001  +3.5572341137E-002 +8.5862243527E+001  +9.8743278376E-001 -2.9433916429E+000 
80024967.193 +9.8419215558E-001 -2.8882067504E+000  +3.7344302260E-002 +8.5533744636E+001  +3.7366455466E-002 +8.5898535613E+001  +9.8433198043E-001 -2.8501469986E+000 
84025765.553 +9.8223859471E-001 -2.7787902720E+000  +3.9069385238E-002 +8.5624016161E+001  +3.9282313618E-002 +8.6027885604E+001  +9.8220530567E-001 -2.7522825664E+000 
88026563.913 +9.8138824589E-001 -2.6075873111E+000  +4.0826013280E-002 +8.5793762284E+001  +4.1074007299E-002 +8.6245873310E+001  +9.8136783072E-001 -2.5840634703E+000 
92027362.272 +9.8185493468E-001 -2.4680492231E+000  +4.2686011789E-002 +8.5989200708E+001  +4.3067341768E-002 +8.6264808487E+001  +9.8165000348E-001 -2.4406729314E+000 
96028160.632 +9.8267819257E-001 -2.3366509571E+000  +4.4603364894E-002 +8.6183982313E+001  +4.4957034576E-002 +8.6260800494E+001  +9.8250006567E-001 -2.3188511632E+000 
100028958.992 +9.8556482032E-001 -2.2356525033E+000  +4.6506196361E-002 +8.6290142387E+001  +4.6975654023E-002 +8.6163578933E+001  +9.8518307403E-001 -2.2296226778E+000 
104029757.351 +9.8862223176E-001 -2.1851211347E+000  +4.8449497026E-002 +8.6372021517E+001  +4.8933575667E-002 +8.6195075533E+001  +9.8831060953E-001 -2.1579128403E+000 
108030555.711 +9.9243900766E-001 -2.1586355055E+000  +5.0566187947E-002 +8.6457532199E+001  +5.0939966833E-002 +8.6081081371E+001  +9.9200967847E-001 -2.1489405168E+000 
112031354.071 +9.9680019577E-001 -2.2316829918E+000  +5.2599347448E-002 +8.6463363801E+001  +5.2928108831E-002 +8.5970188485E+001  +9.9639329116E-001 -2.2080083563E+000 
116032152.430 +1.0015081695E+000 -2.3434918674E+000  +5.4787264276E-002 +8.6324738476E+001  +5.4903213073E-002 +8.5809358916E+001  +1.0007424330E+000 -2.3207496453E+000 
120032950.790 +1.0060663059E+000 -2.5389699732E+000  +5.7012303409E-002 +8.6246088983E+001  +5.7002836705E-002 +8.5653529161E+001  +1.0054141569E+000 -2.5023220662E+000 
124033749.150 +1.0102512231E+000 -2.8190322319E+000  +5.9157416142E-002 +8.6037926242E+001  +5.9045617235E-002 +8.5394251546E+001  +1.0096888990E+000 -2.7758696645E+000 
128034547.510 +1.0140185202E+000 -3.1648981592E+000  +6.1309787806E-002 +8.5576381789E+001  +6.1154134668E-002 +8.5054947136E+001  +1.0130234101E+000 -3.0991417497E+000 
132035345.869 +1.0159545834E+000 -3.5764371194E+000  +6.3486360651E-002 +8.5140124639E+001  +6.3085507754E-002 +8.4710874215E+001  +1.0154685702E+000 -3.5002532968E+000 
136036144.229 +1.0167402675E+000 -4.0294795924E+000  +6.5447066244E-002 +8.4620405958E+001  +6.4992056471E-002 +8.4228725210E+001  +1.0163492864E+000 -3.9462129835E+000 
140036942.589 +1.0155961289E+000 -4.5037895497E+000  +6.7442931023E-002 +8.4095834203E+001  +6.6823074455E-002 +8.3870903126E+001  +1.0153758256E+000 -4.3927451372E+000 
144037740.948 +1.0129354096E+000 -4.9466408521E+000  +6.9101927169E-002 +8.3595680772E+001  +6.8445649355E-002 +8.3352652474E+001  +1.0126800667E+000 -4.8238021520E+000 
148038539.308 +1.0080670376E+000 -5.3200656014E+000  +7.0636062771E-002 +8.3095221176E+001  +6.9959343604E-002 +8.3073529508E+001  +1.0085443362E+000 -5.2095508694E+000 
152039337.668 +1.0023892969E+000 -5.6506923646E+000  +7.2017722976E-002 +8.2612936739E+001  +7.1369548014E-002 +8.2736668848E+001  +1.0027791935E+000 -5.5279108967E+000 
156040136.027 +9.9588394543E-001 -5.8375158232E+000  +7.3295352136E-002 +8.2353672280E+001  +7.2700459758E-002 +8.2678864944E+001  +9.9629878150E-001 -5.7187137548E+000 
160040934.387 +9.8925314613E-001 -5.9198091592E+000  +7.4672888580E-002 +8.2275069824E+001  +7.4040031170E-002 +8.2691115794E+001  +9.8988126759E-001 -5.7950633625E+000 
164041732.747 +9.8371842769E-001 -5.8926172907E+000  +7.5988702958E-002 +8.2261712153E+001  +7.5494387160E-002 +8.2749113156E+001  +9.8419368454E-001 -5.7982190852E+000 
168042531.106 +9.7855741598E-001 -5.8034293543E+000  +7.7267135575E-002 +8.2328479972E+001  +7.7025266674E-002 +8.2930615962E+001  +9.7927295752E-001 -5.7041960627E+000 
172043329.466 +9.7502292082E-001 -5.6320740835E+000  +7.8757565432E-002 +8.2558905761E+001  +7.8676260290E-002 +8.3141119457E+001  +9.7572380829E-001 -5.5412271102E+000 
176044127.826 +9.7273929502E-001 -5.4163585830E+000  +8.0326931867E-002 +8.2699336692E+001  +8.0488329354E-002 +8.3260453753E+001  +9.7362630193E-001 -5.3478522547E+000 
180044926.185 +9.7219684931E-001 -5.2141261994E+000  +8.2061280112E-002 +8.2951323339E+001  +8.2400264705E-002 +8.3428144717E+001  +9.7280304932E-001 -5.1459356536E+000 
184045724.545 +9.7272186733E-001 -5.0029399638E+000  +8.3794880375E-002 +8.3207480658E+001  +8.4409759974E-002 +8.3562264383E+001  +9.7344120810E-001 -4.9446939894E+000 
188046522.905 +9.7477397033E-001 -4.8222100391E+000  +8.5693599911E-002 +8.3344732312E+001  +8.6444859739E-002 +8.3680541230E+001  +9.7504412588E-001 -4.7726001038E+000 
192047321.264 +9.7761937917E-001 -4.6727989065E+000  +8.7695396713E-002 +8.3544448054E+001  +8.8627788471E-002 +8.3679953444E+001  +9.7785995006E-001 -4.6227896240E+000 
196048119.624 +9.8154561709E-001 -4.5701720422E+000  +8.9771420602E-002 +8.3656848747E+001  +9.0743645852E-002 +8.3642345228E+001  +9.8151264202E-001 -4.5278606394E+000 
200048917.984 +9.8645398029E-001 -4.5436279949E+000  +9.2053602340E-002 +8.3749996609E+001  +9.2970731450E-002 +8.3575231840E+001  +9.8626253788E-001 -4.4960065778E+000 
204049716.343 +9.9175157221E-001 -4.5728115911E+000  +9.4252065360E-002 +8.3745176772E+001  +9.5068370946E-002 +8.3494626421E+001  +9.9115481359E-001 -4.5261112020E+000 
208050514.703 +9.9729068250E-001 -4.6945117858E+000  +9.6741006144E-002 +8.3731446537E+001  +9.7452989614E-002 +8.3318892923E+001  +9.9640263717E-001 -4.6268977567E+000 
212051313.063 +1.0028718451E+000 -4.8910105789E+000  +9.9154454424E-002 +8.3566128686E+001  +9.9607863084E-002 +8.3056048685E+001  +1.0017602873E+000 -4.8343880201E+000 
216052111.422 +1.0077097352E+000 -5.2010923279E+000  +1.0162552801E-001 +8.3359870742E+001  +1.0185023776E-001 +8.2763086950E+001  +1.0067333487E+000 -5.0984625568E+000 
220052909.782 +1.0121225466E+000 -5.5606851308E+000  +1.0424832958E-001 +8.3032739754E+001  +1.0410757953E-001 +8.2404161542E+001  +1.0111364822E+000 -5.4682651290E+000 
224053708.142 +1.0153119474E+000 -6.0204702659E+000  +1.0650941214E-001 +8.2523627401E+001  +1.0619823245E-001 +8.2008305519E+001  +1.0142482478E+000 -5.8982203787E+000 
228054506.501 +1.0166798590E+000 -6.5365841466E+000  +1.0880008376E-001 +8.1982240799E+001  +1.0821823745E-001 +8.1506313798E+001  +1.0157876240E+000 -6.3869180778E+000 
232055304.861 +1.0157494820E+000 -7.0802673320E+000  +1.1077977391E-001 +8.1372326801E+001  +1.0994794857E-001 +8.0998681125E+001  +1.0151908673E+000 -6.9083102000E+000 
236056103.221 +1.0127369247E+000 -7.5936283436E+000  +1.1233841118E-001 +8.0765306674E+001  +1.1138324459E-001 +8.0430238026E+001  +1.0122822349E+000 -7.4181759168E+000 
240056901.580 +1.0077655378E+000 -8.0819201832E+000  +1.1366244442E-001 +8.0143562610E+001  +1.1255145744E-001 +8.0012004311E+001  +1.0077335364E+000 -7.8838844108E+000 
244057699.940 +1.0011779209E+000 -8.4629480138E+000  +1.1477667579E-001 +7.9666322985E+001  +1.1372257282E-001 +7.9660579899E+001  +1.0013874879E+000 -8.2636397330E+000 
248058498.300 +9.9353736691E-001 -8.7122855682E+000  +1.1565173891E-001 +7.9374819629E+001  +1.1456841539E-001 +7.9466312028E+001  +9.9408774219E-001 -8.5140516032E+000 
252059296.659 +9.8551006165E-001 -8.8540143428E+000  +1.1637465636E-001 +7.9145792059E+001  +1.1542369987E-001 +7.9468683733E+001  +9.8623880338E-001 -8.6514099320E+000 
256060095.019 +9.7787971830E-001 -8.8591079902E+000  +1.1717845333E-001 +7.9114173812E+001  +1.1636444830E-001 +7.9558942500E+001  +9.7893039267E-001 -8.6600643531E+000 
260060893.379 +9.7105090063E-001 -8.7490959483E+000  +1.1804435902E-001 +7.9242635248E+001  +1.1736253708E-001 +7.9680467832E+001  +9.7251227030E-001 -8.5651505470E+000 
264061691.738 +9.6622502151E-001 -8.5450952172E+000  +1.1907877085E-001 +7.9443770551E+001  +1.1872944166E-001 +7.9986066638E+001  +9.6748105834E-001 -8.3834336025E+000 
268062490.098 +9.6264782048E-001 -8.2940787915E+000  +1.2034798744E-001 +7.9688992767E+001  +1.2031808968E-001 +8.0229050183E+001  +9.6397591403E-001 -8.1413168447E+000 
272063288.458 +9.6100198973E-001 -8.0032583867E+000  +1.2186881871E-001 +7.9972541874E+001  +1.2206126264E-001 +8.0535020636E+001  +9.6216720882E-001 -7.8635879182E+000 
276064086.817 +9.6116256580E-001 -7.7116691990E+000  +1.2365385158E-001 +8.0251680140E+001  +1.2409622792E-001 +8.0724859063E+001  +9.6212772017E-001 -7.6029347979E+000 
280064885.177 +9.6257473523E-001 -7.4232721190E+000  +1.2544635659E-001 +8.0481422133E+001  +1.2622643159E-001 +8.0942634783E+001  +9.6366609257E-001 -7.3289903803E+000 
284065683.537 +9.6548156739E-001 -7.2103783757E+000  +1.2754979396E-001 +8.0700606189E+001  +1.2851471213E-001 +8.1051287653E+001  +9.6612158132E-001 -7.1238154504E+000 
288066481.896 +9.6977631417E-001 -7.0229201407E+000  +1.2976795857E-001 +8.0903519604E+001  +1.3092368632E-001 +8.1065857266E+001  +9.7013659182E-001 -6.9488574233E+000 
292067280.256 +9.7490856627E-001 -6.9276121630E+000  +1.3204736920E-001 +8.1056819796E+001  +1.3333280506E-001 +8.1029616086E+001  +9.7488278333E-001 -6.8523484938E+000 
296068078.616 +9.8083805440E-001 -6.8896648388E+000  +1.3460801731E-001 +8.1116336392E+001  +1.3582073812E-001 +8.0983602705E+001  +9.8044332588E-001 -6.8210698744E+000 
300068876.975 +9.8719414234E-001 -6.9545195405E+000  +1.3723862031E-001 +8.1114844677E+001  +1.3829752526E-001 +8.0866745857E+001  +9.8655928717E-001 -6.8661711613E+000 
304069675.335 +9.9392493849E-001 -7.1015619902E+000  +1.3992206331E-001 +8.1034738199E+001  +1.4091598461E-001 +8.0676262502E+001  +9.9317434286E-001 -7.0202641093E+000 
308070473.695 +1.0003590910E+000 -7.3792342931E+000  +1.4273507836E-001 +8.0832232092E+001  +1.4348681862E-001 +8.0418395389E+001  +9.9923409101E-001 -7.2617502719E+000 
312071272.054 +1.0059528301E+000 -7.7421883611E+000  +1.4564693815E-001 +8.0514278264E+001  +1.4600877413E-001 +8.0043499569E+001  +1.0047455216E+000 -7.6135439560E+000 
316072070.414 +1.0104280045E+000 -8.2098951723E+000  +1.4847746039E-001 +8.0103119803E+001  +1.4840007384E-001 +7.9588364178E+001  +1.0090574863E+000 -8.0603223231E+000 
320072868.774 +1.0129936306E+000 -8.7530209790E+000  +1.5097198554E-001 +7.9535636341E+001  +1.5057818987E-001 +7.9068181466E+001  +1.0120086757E+000 -8.5704827191E+000 
324073667.133 +1.0138435636E+000 -9.3477182032E+000  +1.5314662663E-001 +7.8929181324E+001  +1.5258806929E-001 +7.8447978820E+001  +1.0126153356E+000 -9.1375822989E+000 
328074465.493 +1.0120890045E+000 -9.9401854858E+000  +1.5502188561E-001 +7.8270855982E+001  +1.5410129482E-001 +7.7879275202E+001  +1.0113684285E+000 -9.7121535405E+000 
332075263.853 +1.0080937371E+000 -1.0520772466E+001  +1.5636937340E-001 +7.7600629487E+001  +1.5520905813E-001 +7.7325829056E+001  +1.0073673795E+000 -1.0275209305E+001 
336076062.212 +1.0017614727E+000 -1.1021970767E+001  +1.5718022369E-001 +7.7037603301E+001  +1.5592542845E-001 +7.6826460428E+001  +1.0013357431E+000 -1.0757335099E+001 
340076860.572 +9.9367888093E-001 -1.1414574141E+001  +1.5767315895E-001 +7.6516377678E+001  +1.5633176149E-001 +7.6495300112E+001  +9.9375201894E-001 -1.1147403651E+001 
344077658.932 +9.8452802199E-001 -1.1683535953E+001  +1.5804958915E-001 +7.6218824903E+001  +1.5663949367E-001 +7.6290091077E+001  +9.8520488064E-001 -1.1405600572E+001 
348078457.291 +9.7534575435E-001 -1.1770532155E+001  +1.5807344683E-001 +7.6100020426E+001  +1.5687161733E-001 +7.6251113803E+001  +9.7606969189E-001 -1.1500638679E+001 
352079255.651 +9.6653360954E-001 -1.1725508549E+001  +1.5838944039E-001 +7.6106439613E+001  +1.5720530814E-001 +7.6381676883E+001  +9.6770831861E-001 -1.1475990172E+001 
356080054.011 +9.5917603812E-001 -1.1561660538E+001  +1.5888530174E-001 +7.6274172319E+001  +1.5792116849E-001 +7.6621329096E+001  +9.6059920513E-001 -1.1316909968E+001 
360080852.370 +9.5351881700E-001 -1.1289563117E+001  +1.5957798477E-001 +7.6523555842E+001  +1.5893172540E-001 +7.6962878706E+001  +9.5505527205E-001 -1.1069214832E+001 
364081650.730 +9.4979923733E-001 -1.0944656649E+001  +1.6067066819E-001 +7.6876977957E+001  +1.6020767589E-001 +7.7332685318E+001  +9.5135546481E-001 -1.0753160336E+001 
368082449.090 +9.4820188453E-001 -1.0592462370E+001  +1.6209776682E-001 +7.7197319341E+001  +1.6205087848E-001 +7.7688978815E+001  +9.4935491128E-001 -1.0411043475E+001 
372083247.449 +9.4820427241E-001 -1.0232490873E+001  +1.6374609859E-001 +7.7509208653E+001  +1.6411328355E-001 +7.7974040230E+001  +9.4964844871E-001 -1.0088689025E+001 
376084045.809 +9.5045339203E-001 -9.9051552329E+000  +1.6579175775E-001 +7.7801496734E+001  +1.6647776824E-001 +7.8210850240E+001  +9.5152711064E-001 -9.7595353237E+000 
380084844.169 +9.5389470628E-001 -9.6146801918E+000  +1.6800415854E-001 +7.8073060934E+001  +1.6894986345E-001 +7.8421081532E+001  +9.5490225975E-001 -9.4893451382E+000 
384085642.529 +9.5882446870E-001 -9.3976132454E+000  +1.7027645561E-001 +7.8281536336E+001  +1.7156527518E-001 +7.8479879329E+001  +9.5958090327E-001 -9.3016735529E+000 
388086440.888 +9.6489226123E-001 -9.2629026211E+000  +1.7303546374E-001 +7.8407269424E+001  +1.7436489209E-001 +7.8508742470E+001  +9.6513564099E-001 -9.1628060503E+000 
392087239.248 +9.7183145976E-001 -9.2282646810E+000  +1.7583896070E-001 +7.8489013448E+001  +1.7721525073E-001 +7.8477248873E+001  +9.7154598445E-001 -9.1299982433E+000 
396088037.608 +9.7896466189E-001 -9.2891553404E+000  +1.7874367098E-001 +7.8472914862E+001  +1.8014526014E-001 +7.8356008330E+001  +9.7881722058E-001 -9.1806427645E+000 
400088835.967 +9.8703854501E-001 -9.4633224617E+000  +1.8198922359E-001 +7.8385340042E+001  +1.8320675172E-001 +7.8153991325E+001  +9.8593755880E-001 -9.3558835987E+000 
404089634.327 +9.9419576803E-001 -9.7618499796E+000  +1.8527081817E-001 +7.8195882599E+001  +1.8604320688E-001 +7.7868325213E+001  +9.9273620398E-001 -9.6367063559E+000 
408090432.687 +1.0004541928E+000 -1.0157987614E+001  +1.8837510062E-001 +7.7833784591E+001  +1.8902133959E-001 +7.7475939341E+001  +9.9896700283E-001 -1.0011743767E+001 
412091231.046 +1.0055148414E+000 -1.0665739855E+001  +1.9151522467E-001 +7.7353989054E+001  +1.9178721975E-001 +7.6919872951E+001  +1.0037686109E+000 -1.0495406797E+001 
416092029.406 +1.0085120057E+000 -1.1276357120E+001  +1.9418423794E-001 +7.6773945008E+001  +1.9417152783E-001 +7.6372971958E+001  +1.0067544174E+000 -1.1065648637E+001 
420092827.766 +1.0094027528E+000 -1.1928504881E+001  +1.9649923706E-001 +7.6085908687E+001  +1.9607828554E-001 +7.5699723585E+001  +1.0078238000E+000 -1.1695152123E+001 
424093626.125 +1.0071586882E+000 -1.2613433954E+001  +1.9819935872E-001 +7.5372040597E+001  +1.9746543796E-001 +7.5017648771E+001  +1.0060264967E+000 -1.2331950357E+001 
428094424.485 +1.0025043405E+000 -1.3243911362E+001  +1.9923350282E-001 +7.4640643372E+001  +1.9824908911E-001 +7.4361180974E+001  +1.0017882763E+000 -1.2961533445E+001 
432095222.845 +9.9562699316E-001 -1.3812468873E+001  +1.9980694136E-001 +7.4008807164E+001  +1.9853412979E-001 +7.3808128118E+001  +9.9496687323E-001 -1.3491344012E+001 
436096021.204 +9.8620489638E-001 -1.4239307219E+001  +1.9956072059E-001 +7.3497875116E+001  +1.9835081425E-001 +7.3416678921E+001  +9.8624835083E-001 -1.3921890301E+001 
440096819.564 +9.7609152896E-001 -1.4529344314E+001  +1.9920297522E-001 +7.3175072691E+001  +1.9777386211E-001 +7.3205162559E+001  +9.7667787683E-001 -1.4189336411E+001 
444097617.924 +9.6559321312E-001 -1.4636136122E+001  +1.9870332304E-001 +7.3027445325E+001  +1.9740097065E-001 +7.3123044725E+001  +9.6653781838E-001 -1.4315107199E+001 
448098416.283 +9.5589753788E-001 -1.4581815389E+001  +1.9827160216E-001 +7.3099586006E+001  +1.9712449238E-001 +7.3286004604E+001  +9.5700716386E-001 -1.4273104220E+001 
452099214.643 +9.4740183724E-001 -1.4376455953E+001  +1.9815532418E-001 +7.3320611718E+001  +1.9719775255E-001 +7.3586223031E+001  +9.4897130032E-001 -1.4081773308E+001 
456100013.003 +9.4073549630E-001 -1.4078316361E+001  +1.9846861866E-001 +7.3606732374E+001  +1.9772850209E-001 +7.3931191966E+001  +9.4230357952E-001 -1.3802914805E+001 
