!  2-Port S-parameters saved by WinCal
! VAR MeasName=S-Parameters (CALIBRATED_DATA) read from VNA (P5004A)
! VAR MeasDate=24/04/2024 16:32:09
! VAR NAME=Wafer2_r1_c1_overformed 4
! VAR FILENAME=Wafer2_r1_c1_overformed 4.S2P
! VAR DATE=24/04/2024 16:32:09
! VAR PHYS_PORTS=1,2
! VAR ObjTypeName=DATASET
! VAR IndexType=Frequency
!
# Hz S MA R 50
9000.000 +7.9974210324E-001 +1.7291949228E+001  +2.2939668258E-005 -1.5149672074E+002  +2.4400700198E-005 -7.1659539640E+001  +7.9913187878E-001 +1.7282254278E+001 
4009798.360 +9.8728693336E-001 -3.1177089534E+000  +1.9096994943E-003 +8.6110015918E+001  +1.9363073188E-003 +8.5974075667E+001  +9.8704404352E-001 -3.0383904485E+000 
8010596.719 +9.7603655516E-001 -6.1980404822E-001  +3.7447115076E-003 +8.8519716375E+001  +3.7836398148E-003 +8.8397300472E+001  +9.7671732304E-001 -5.9699140518E-001 
12011395.079 +9.8364986970E-001 -1.1497064293E-002  +5.6615679782E-003 +8.9206598758E+001  +5.7072169507E-003 +8.8766949117E+001  +9.8394376205E-001 -3.3189744421E-003 
16012193.439 +9.8961262323E-001 +1.6725008375E-001  +7.5724751038E-003 +8.9345968793E+001  +7.6067097592E-003 +8.8809040386E+001  +9.8975479757E-001 +1.6639622331E-001 
20012991.798 +9.9469252497E-001 +1.9367892111E-001  +9.4825013014E-003 +8.9321340531E+001  +9.5122919344E-003 +8.8687751773E+001  +9.9483541448E-001 +1.9089109686E-001 
24013790.158 +9.9963084481E-001 +1.2451601605E-001  +1.1441574633E-002 +8.9314909344E+001  +1.1429593181E-002 +8.8679294407E+001  +9.9945988714E-001 +1.1265060863E-001 
28014588.518 +1.0034595111E+000 -4.4001538420E-002  +1.3400722226E-002 +8.9193933474E+001  +1.3347122099E-002 +8.8558850335E+001  +1.0034963450E+000 -3.3832873392E-002 
32015386.877 +1.0077390282E+000 -2.4402973646E-001  +1.5454586658E-002 +8.8676641085E+001  +1.5311946698E-002 +8.8385902598E+001  +1.0076173532E+000 -2.2811251955E-001 
36016185.237 +1.0107258756E+000 -5.1399638754E-001  +1.7451246509E-002 +8.8430120450E+001  +1.7239064781E-002 +8.8149164814E+001  +1.0107638884E+000 -5.0859115238E-001 
40016983.597 +1.0126548849E+000 -8.5049832175E-001  +1.9344670719E-002 +8.8096645272E+001  +1.9229862621E-002 +8.8012632973E+001  +1.0127408788E+000 -8.2807068934E-001 
44017781.956 +1.0138489321E+000 -1.2128066345E+000  +2.1409496989E-002 +8.7677449378E+001  +2.1115683913E-002 +8.7375994758E+001  +1.0137222805E+000 -1.1860283028E+000 
48018580.316 +1.0142262951E+000 -1.5773346845E+000  +2.3303358094E-002 +8.7087073127E+001  +2.3200554162E-002 +8.7099330394E+001  +1.0145480103E+000 -1.5573288125E+000 
52019378.676 +1.0127247474E+000 -1.9680084916E+000  +2.5233206409E-002 +8.6726322380E+001  +2.4999637579E-002 +8.6493064697E+001  +1.0125770130E+000 -1.9328186536E+000 
56020177.035 +1.0099636134E+000 -2.2989230003E+000  +2.7113576563E-002 +8.6323416870E+001  +2.6782002154E-002 +8.6548628964E+001  +1.0102955966E+000 -2.2623347372E+000 
60020975.395 +1.0063731855E+000 -2.6197685975E+000  +2.8855925093E-002 +8.5729341998E+001  +2.8537047774E-002 +8.6196796451E+001  +1.0063424863E+000 -2.5734379508E+000 
64021773.755 +1.0014844028E+000 -2.8305982365E+000  +3.0616356574E-002 +8.5584430717E+001  +3.0324152282E-002 +8.5964905246E+001  +1.0014816426E+000 -2.7905230811E+000 
68022572.114 +9.9635907948E-001 -2.9546391748E+000  +3.2089279738E-002 +8.5453891467E+001  +3.2017737208E-002 +8.5851319395E+001  +9.9628483150E-001 -2.9381662459E+000 
72023370.474 +9.9160832115E-001 -3.0151854657E+000  +3.3868845519E-002 +8.5380173930E+001  +3.3714661737E-002 +8.6001385264E+001  +9.9166395968E-001 -2.9742616295E+000 
76024168.834 +9.8733028947E-001 -2.9725958869E+000  +3.5544667803E-002 +8.5384456387E+001  +3.5560409196E-002 +8.6002076463E+001  +9.8767471332E-001 -2.9343917543E+000 
80024967.193 +9.8405986782E-001 -2.8785757191E+000  +3.7176723510E-002 +8.5463696932E+001  +3.7199659426E-002 +8.6061098972E+001  +9.8439563108E-001 -2.8491393316E+000 
84025765.553 +9.8220726674E-001 -2.7516209034E+000  +3.8917245871E-002 +8.5600612989E+001  +3.9094135747E-002 +8.6232414217E+001  +9.8230726701E-001 -2.7474022568E+000 
88026563.913 +9.8142709855E-001 -2.5763599729E+000  +4.0691070482E-002 +8.5893408169E+001  +4.0991031364E-002 +8.6254463227E+001  +9.8145084399E-001 -2.5843193396E+000 
92027362.272 +9.8172930758E-001 -2.4388992660E+000  +4.2454266632E-002 +8.6019378624E+001  +4.2909157591E-002 +8.6208126053E+001  +9.8165040512E-001 -2.4480740061E+000 
96028160.632 +9.8260105287E-001 -2.3188422875E+000  +4.4372817966E-002 +8.6162127592E+001  +4.4762201572E-002 +8.6334180548E+001  +9.8272040159E-001 -2.3170980221E+000 
100028958.992 +9.8552431902E-001 -2.2198754185E+000  +4.6237191191E-002 +8.6348185665E+001  +4.6745268025E-002 +8.6203310571E+001  +9.8525157124E-001 -2.2269769643E+000 
104029757.351 +9.8859638717E-001 -2.1630583896E+000  +4.8292223090E-002 +8.6339844921E+001  +4.8686401638E-002 +8.6189201725E+001  +9.8829270450E-001 -2.1538542271E+000 
108030555.711 +9.9252508984E-001 -2.1492237388E+000  +5.0355489999E-002 +8.6526860766E+001  +5.0665975202E-002 +8.6166525374E+001  +9.9206766557E-001 -2.1471199986E+000 
112031354.071 +9.9673337036E-001 -2.2115046669E+000  +5.2369294259E-002 +8.6491611354E+001  +5.2695513283E-002 +8.5935154233E+001  +9.9641450470E-001 -2.2046823155E+000 
116032152.430 +1.0013484742E+000 -2.3246496337E+000  +5.4504787906E-002 +8.6436568794E+001  +5.4688431575E-002 +8.5778485684E+001  +1.0008058889E+000 -2.3203063677E+000 
120032950.790 +1.0060758713E+000 -2.5172934821E+000  +5.6700291099E-002 +8.6230451587E+001  +5.6732954528E-002 +8.5638493226E+001  +1.0054346463E+000 -2.4960458799E+000 
124033749.150 +1.0103712710E+000 -2.8021876373E+000  +5.8927156820E-002 +8.5969633523E+001  +5.8837538167E-002 +8.5380197176E+001  +1.0097064390E+000 -2.7757248983E+000 
128034547.510 +1.0139187373E+000 -3.1410443213E+000  +6.1125028328E-002 +8.5601545858E+001  +6.0992196158E-002 +8.5147655155E+001  +1.0132585476E+000 -3.0973447033E+000 
132035345.869 +1.0160038754E+000 -3.5496846206E+000  +6.3217724972E-002 +8.5190685293E+001  +6.2893896669E-002 +8.4669223093E+001  +1.0154724715E+000 -3.5035198961E+000 
136036144.229 +1.0168105230E+000 -4.0110732300E+000  +6.5241672700E-002 +8.4673571665E+001  +6.4764562416E-002 +8.4270166727E+001  +1.0164806651E+000 -3.9350147851E+000 
140036942.589 +1.0156399391E+000 -4.4724533755E+000  +6.7158607933E-002 +8.4083165639E+001  +6.6603798412E-002 +8.3858878967E+001  +1.0154662598E+000 -4.3991851813E+000 
144037740.948 +1.0129598445E+000 -4.9042495848E+000  +6.8910510238E-002 +8.3546288083E+001  +6.8141771410E-002 +8.3431187367E+001  +1.0127044604E+000 -4.8180966359E+000 
148038539.308 +1.0082203666E+000 -5.2913966687E+000  +7.0370021100E-002 +8.3060065422E+001  +6.9704301306E-002 +8.3079238354E+001  +1.0085440819E+000 -5.1888401587E+000 
152039337.668 +1.0027181222E+000 -5.6161343378E+000  +7.1827009571E-002 +8.2659244866E+001  +7.1136742215E-002 +8.2745404153E+001  +1.0025791648E+000 -5.5254238969E+000 
156040136.027 +9.9573477908E-001 -5.8075411382E+000  +7.3143207175E-002 +8.2440882854E+001  +7.2533378161E-002 +8.2713701171E+001  +9.9646934888E-001 -5.7127743779E+000 
160040934.387 +9.8943100523E-001 -5.8900860998E+000  +7.4367509511E-002 +8.2297535732E+001  +7.3826514174E-002 +8.2675901303E+001  +9.8993718754E-001 -5.7866313320E+000 
164041732.747 +9.8359037967E-001 -5.8524745258E+000  +7.5679978311E-002 +8.2340912877E+001  +7.5280565404E-002 +8.2744404691E+001  +9.8420014267E-001 -5.7919919074E+000 
168042531.106 +9.7855795283E-001 -5.7692970296E+000  +7.6963718007E-002 +8.2383794661E+001  +7.6757494327E-002 +8.2910425874E+001  +9.7930981225E-001 -5.6932479490E+000 
172043329.466 +9.7512988637E-001 -5.5862433823E+000  +7.8432260063E-002 +8.2600165821E+001  +7.8482601354E-002 +8.3125262428E+001  +9.7589773557E-001 -5.5352580063E+000 
176044127.826 +9.7286000423E-001 -5.3901560626E+000  +8.0029851820E-002 +8.2781105350E+001  +8.0180777761E-002 +8.3321366338E+001  +9.7359811339E-001 -5.3457492772E+000 
180044926.185 +9.7210195517E-001 -5.1855782521E+000  +8.1751493085E-002 +8.3006287900E+001  +8.2067997021E-002 +8.3540366408E+001  +9.7290544171E-001 -5.1395108516E+000 
184045724.545 +9.7277294612E-001 -4.9642931718E+000  +8.3499946097E-002 +8.3239870759E+001  +8.4178087531E-002 +8.3649808883E+001  +9.7353020112E-001 -4.9379945412E+000 
188046522.905 +9.7480918160E-001 -4.7793726606E+000  +8.5394683946E-002 +8.3424290014E+001  +8.6164775198E-002 +8.3718276459E+001  +9.7497065532E-001 -4.7650431936E+000 
192047321.264 +9.7780530263E-001 -4.6297245946E+000  +8.7486719590E-002 +8.3593176376E+001  +8.8259290362E-002 +8.3720876662E+001  +9.7798618915E-001 -4.6224885231E+000 
196048119.624 +9.8170836201E-001 -4.5310493786E+000  +8.9482648718E-002 +8.3683764602E+001  +9.0361941797E-002 +8.3675467972E+001  +9.8157295739E-001 -4.5356003749E+000 
200048917.984 +9.8661228503E-001 -4.5042443212E+000  +9.1748412023E-002 +8.3749248168E+001  +9.2557988562E-002 +8.3604086193E+001  +9.8631571957E-001 -4.4870530169E+000 
204049716.343 +9.9161546378E-001 -4.5261254474E+000  +9.3978814321E-002 +8.3812234305E+001  +9.4779381550E-002 +8.3489411028E+001  +9.9109175790E-001 -4.5192680293E+000 
208050514.703 +9.9733135094E-001 -4.6524856714E+000  +9.6408089253E-002 +8.3752617822E+001  +9.6955094852E-002 +8.3272711057E+001  +9.9635495721E-001 -4.6324042461E+000 
212051313.063 +1.0028606549E+000 -4.8519104190E+000  +9.8757243437E-002 +8.3654373386E+001  +9.9326988621E-002 +8.3080292826E+001  +1.0018135769E+000 -4.8324812925E+000 
216052111.422 +1.0077804612E+000 -5.1593452814E+000  +1.0129566516E-001 +8.3405747470E+001  +1.0148108582E-001 +8.2823613742E+001  +1.0069749918E+000 -5.0979304450E+000 
220052909.782 +1.0124220854E+000 -5.5192375102E+000  +1.0383225722E-001 +8.3048344993E+001  +1.0370803512E-001 +8.2505269377E+001  +1.0111100542E+000 -5.4653094078E+000 
224053708.142 +1.0155522061E+000 -5.9778259051E+000  +1.0617775417E-001 +8.2585430468E+001  +1.0583141398E-001 +8.2085689486E+001  +1.0142752943E+000 -5.9021955766E+000 
228054506.501 +1.0167742896E+000 -6.4908691134E+000  +1.0834420902E-001 +8.1982138176E+001  +1.0783160663E-001 +8.1538095857E+001  +1.0159585895E+000 -6.3856646188E+000 
232055304.861 +1.0160308654E+000 -7.0209775740E+000  +1.1035358103E-001 +8.1376771980E+001  +1.0954521670E-001 +8.1005260764E+001  +1.0152001535E+000 -6.9024531411E+000 
236056103.221 +1.0130188402E+000 -7.5469091403E+000  +1.1197093352E-001 +8.0784421318E+001  +1.1102656327E-001 +8.0518543528E+001  +1.0126041820E+000 -7.4131632283E+000 
240056901.580 +1.0079774370E+000 -8.0304205074E+000  +1.1329390590E-001 +8.0175139931E+001  +1.1223196444E-001 +8.0065826720E+001  +1.0078705831E+000 -7.8815997597E+000 
244057699.940 +1.0013780742E+000 -8.4083030967E+000  +1.1431312839E-001 +7.9731041250E+001  +1.1331010129E-001 +7.9737924086E+001  +1.0017188624E+000 -8.2550443264E+000 
248058498.300 +9.9389483367E-001 -8.6629238051E+000  +1.1519083207E-001 +7.9412817722E+001  +1.1413011198E-001 +7.9506257007E+001  +9.9417457468E-001 -8.5038541166E+000 
252059296.659 +9.8557202341E-001 -8.7992567462E+000  +1.1591410256E-001 +7.9211653878E+001  +1.1499928514E-001 +7.9460652852E+001  +9.8630713927E-001 -8.6397649257E+000 
256060095.019 +9.7810602607E-001 -8.8073466009E+000  +1.1678460557E-001 +7.9163469026E+001  +1.1584218730E-001 +7.9578115176E+001  +9.7890320662E-001 -8.6560340804E+000 
260060893.379 +9.7125794140E-001 -8.6953057007E+000  +1.1766187366E-001 +7.9229875031E+001  +1.1698012600E-001 +7.9762644372E+001  +9.7273914851E-001 -8.5538501502E+000 
264061691.738 +9.6641245194E-001 -8.4869086538E+000  +1.1867480903E-001 +7.9464194961E+001  +1.1829541414E-001 +8.0014074186E+001  +9.6753975884E-001 -8.3666471985E+000 
268062490.098 +9.6280830810E-001 -8.2488452577E+000  +1.1995941807E-001 +7.9712153734E+001  +1.1986509100E-001 +8.0311075756E+001  +9.6411517606E-001 -8.1385369917E+000 
272063288.458 +9.6121668134E-001 -7.9487673546E+000  +1.2145682196E-001 +8.0032277062E+001  +1.2171074259E-001 +8.0543012309E+001  +9.6225807500E-001 -7.8651739180E+000 
276064086.817 +9.6112113144E-001 -7.6580516986E+000  +1.2315268963E-001 +8.0265643389E+001  +1.2364119020E-001 +8.0799351788E+001  +9.6215842572E-001 -7.5888544004E+000 
280064885.177 +9.6273923220E-001 -7.3722954516E+000  +1.2502229640E-001 +8.0578144088E+001  +1.2581803826E-001 +8.0925713621E+001  +9.6379410167E-001 -7.3417036862E+000 
284065683.537 +9.6555769423E-001 -7.1508465787E+000  +1.2707680572E-001 +8.0753831660E+001  +1.2803508391E-001 +8.1075176733E+001  +9.6611043426E-001 -7.1247396875E+000 
288066481.896 +9.6981302062E-001 -6.9789541704E+000  +1.2920647529E-001 +8.0977614383E+001  +1.3048852685E-001 +8.1089597840E+001  +9.7017391685E-001 -6.9395001192E+000 
292067280.256 +9.7496765480E-001 -6.8771917939E+000  +1.3156726076E-001 +8.1074906200E+001  +1.3275980613E-001 +8.1104619924E+001  +9.7487528922E-001 -6.8501803545E+000 
296068078.616 +9.8090942461E-001 -6.8383574883E+000  +1.3414241451E-001 +8.1178465989E+001  +1.3531210904E-001 +8.1038716609E+001  +9.8049463691E-001 -6.8165452171E+000 
300068876.975 +9.8738749720E-001 -6.9040939484E+000  +1.3675127605E-001 +8.1124456200E+001  +1.3790478671E-001 +8.0889594610E+001  +9.8676737941E-001 -6.8669576617E+000 
304069675.335 +9.9388478137E-001 -7.0540835722E+000  +1.3947321578E-001 +8.1085066076E+001  +1.4045396370E-001 +8.0745859176E+001  +9.9328777206E-001 -7.0194133561E+000 
308070473.695 +1.0004497818E+000 -7.3253496961E+000  +1.4230745300E-001 +8.0882975568E+001  +1.4303255179E-001 +8.0415026733E+001  +9.9937907534E-001 -7.2582599129E+000 
312071272.054 +1.0060154563E+000 -7.6951797164E+000  +1.4513219132E-001 +8.0611029618E+001  +1.4549845388E-001 +8.0069231434E+001  +1.0048016611E+000 -7.6180975664E+000 
316072070.414 +1.0105689964E+000 -8.1496897505E+000  +1.4787198087E-001 +8.0155674747E+001  +1.4787004829E-001 +7.9637962387E+001  +1.0091769971E+000 -8.0554275777E+000 
320072868.774 +1.0131190547E+000 -8.6974180660E+000  +1.5031705433E-001 +7.9614161520E+001  +1.5010947510E-001 +7.9094639539E+001  +1.0119814967E+000 -8.5668838125E+000 
324073667.133 +1.0140787465E+000 -9.2842945371E+000  +1.5255722576E-001 +7.8973918593E+001  +1.5205900044E-001 +7.8525760992E+001  +1.0127813455E+000 -9.1374514811E+000 
328074465.493 +1.0123516401E+000 -9.8951395705E+000  +1.5449754226E-001 +7.8289092643E+001  +1.5357190101E-001 +7.7950839597E+001  +1.0115187387E+000 -9.7009926643E+000 
332075263.853 +1.0082951305E+000 -1.0454268887E+001  +1.5577869425E-001 +7.7653504014E+001  +1.5474127366E-001 +7.7375276587E+001  +1.0075705321E+000 -1.0258201771E+001 
336076062.212 +1.0021627204E+000 -1.0949057006E+001  +1.5667320668E-001 +7.7062583664E+001  +1.5535755591E-001 +7.6861190702E+001  +1.0015042788E+000 -1.0755907622E+001 
340076860.572 +9.9399869731E-001 -1.1348948461E+001  +1.5726744974E-001 +7.6587556709E+001  +1.5581667761E-001 +7.6495909037E+001  +9.9399440064E-001 -1.1143755888E+001 
344077658.932 +9.8488809824E-001 -1.1611053948E+001  +1.5736983801E-001 +7.6297461130E+001  +1.5617965951E-001 +7.6327384782E+001  +9.8547328769E-001 -1.1397960974E+001 
348078457.291 +9.7555028014E-001 -1.1696756575E+001  +1.5759239440E-001 +7.6144393851E+001  +1.5632649685E-001 +7.6297937184E+001  +9.7642959904E-001 -1.1498709010E+001 
352079255.651 +9.6671895787E-001 -1.1655452029E+001  +1.5789631302E-001 +7.6177869543E+001  +1.5674338322E-001 +7.6435120497E+001  +9.6773865003E-001 -1.1465959072E+001 
356080054.011 +9.5933860817E-001 -1.1488344151E+001  +1.5828454286E-001 +7.6330318811E+001  +1.5744150803E-001 +7.6696318283E+001  +9.6070572385E-001 -1.1309414144E+001 
360080852.370 +9.5357377702E-001 -1.1218733380E+001  +1.5902840326E-001 +7.6591320296E+001  +1.5836688068E-001 +7.6993361193E+001  +9.5517034475E-001 -1.1057750358E+001 
364081650.730 +9.4997371126E-001 -1.0868084563E+001  +1.6006286873E-001 +7.6909073784E+001  +1.5985554915E-001 +7.7377520158E+001  +9.5166973938E-001 -1.0748179005E+001 
368082449.090 +9.4827218337E-001 -1.0523499432E+001  +1.6153236649E-001 +7.7251434253E+001  +1.6157998452E-001 +7.7712009227E+001  +9.4960714355E-001 -1.0408119312E+001 
372083247.449 +9.4838229183E-001 -1.0160913499E+001  +1.6314491313E-001 +7.7582345370E+001  +1.6353053179E-001 +7.8009787732E+001  +9.4978623239E-001 -1.0071347667E+001 
376084045.809 +9.5062998948E-001 -9.8394602231E+000  +1.6522633028E-001 +7.7869212676E+001  +1.6589092797E-001 +7.8232772075E+001  +9.5163916905E-001 -9.7538350687E+000 
380084844.169 +9.5402457432E-001 -9.5456412704E+000  +1.6729147663E-001 +7.8145702916E+001  +1.6843167357E-001 +7.8446095500E+001  +9.5499825652E-001 -9.4875993149E+000 
384085642.529 +9.5895614761E-001 -9.3258822858E+000  +1.6976054394E-001 +7.8327997652E+001  +1.7093877855E-001 +7.8551210432E+001  +9.5958485098E-001 -9.2946549279E+000 
388086440.888 +9.6502794062E-001 -9.1985641344E+000  +1.7242859029E-001 +7.8459963901E+001  +1.7373231735E-001 +7.8557797783E+001  +9.6519306040E-001 -9.1723121452E+000 
392087239.248 +9.7201045833E-001 -9.1626634162E+000  +1.7521338606E-001 +7.8548530539E+001  +1.7663136567E-001 +7.8507514089E+001  +9.7175384453E-001 -9.1236202888E+000 
396088037.608 +9.7933181156E-001 -9.2301426741E+000  +1.7818415788E-001 +7.8529783751E+001  +1.7949030238E-001 +7.8383376957E+001  +9.7889635734E-001 -9.1872590522E+000 
400088835.967 +9.8722516171E-001 -9.3942578047E+000  +1.8134233138E-001 +7.8423596571E+001  +1.8248447108E-001 +7.8224305539E+001  +9.8596784784E-001 -9.3577244171E+000 
404089634.327 +9.9418641422E-001 -9.6923038182E+000  +1.8457350325E-001 +7.8215263254E+001  +1.8546639257E-001 +7.7918497681E+001  +9.9291067664E-001 -9.6304964839E+000 
408090432.687 +1.0007395136E+000 -1.0090016504E+001  +1.8777677077E-001 +7.7898057841E+001  +1.8839171811E-001 +7.7502419998E+001  +9.9921054245E-001 -1.0018066172E+001 
412091231.046 +1.0058153266E+000 -1.0605531226E+001  +1.9083386089E-001 +7.7427919256E+001  +1.9108981304E-001 +7.7007597465E+001  +1.0040624034E+000 -1.0500177507E+001 
416092029.406 +1.0089742845E+000 -1.1200985891E+001  +1.9365472475E-001 +7.6820957233E+001  +1.9364201470E-001 +7.6412134066E+001  +1.0072239542E+000 -1.1062469479E+001 
420092827.766 +1.0096728512E+000 -1.1851999116E+001  +1.9592930046E-001 +7.6126931192E+001  +1.9544441879E-001 +7.5785378089E+001  +1.0080191036E+000 -1.1692805759E+001 
424093626.125 +1.0077802740E+000 -1.2525591933E+001  +1.9766556496E-001 +7.5411141047E+001  +1.9681150173E-001 +7.5090615863E+001  +1.0063272311E+000 -1.2331649560E+001 
428094424.485 +1.0028902806E+000 -1.3169532686E+001  +1.9861805616E-001 +7.4698813931E+001  +1.9765983419E-001 +7.4436286203E+001  +1.0019979295E+000 -1.2955116013E+001 
432095222.845 +9.9593064103E-001 -1.3724249743E+001  +1.9913051011E-001 +7.4094847470E+001  +1.9781361547E-001 +7.3910875692E+001  +9.9526357187E-001 -1.3475220742E+001 
436096021.204 +9.8668114592E-001 -1.4156424406E+001  +1.9897717750E-001 +7.3583481677E+001  +1.9760021353E-001 +7.3471322711E+001  +9.8641796812E-001 -1.3915098411E+001 
440096819.564 +9.7643036922E-001 -1.4441827799E+001  +1.9852687506E-001 +7.3238096313E+001  +1.9720644909E-001 +7.3217966395E+001  +9.7680329497E-001 -1.4185698532E+001 
444097617.924 +9.6598409309E-001 -1.4549531312E+001  +1.9805159973E-001 +7.3141222739E+001  +1.9674755203E-001 +7.3178476292E+001  +9.6676802242E-001 -1.4307251102E+001 
448098416.283 +9.5610541809E-001 -1.4489185374E+001  +1.9763322299E-001 +7.3174324757E+001  +1.9655083037E-001 +7.3350397401E+001  +9.5736119648E-001 -1.4258690995E+001 
452099214.643 +9.4780405877E-001 -1.4289984347E+001  +1.9754501947E-001 +7.3385659977E+001  +1.9657017213E-001 +7.3643172668E+001  +9.4912398241E-001 -1.4067296936E+001 
456100013.003 +9.4099908078E-001 -1.3975319332E+001  +1.9792799840E-001 +7.3692702117E+001  +1.9713446133E-001 +7.3980253025E+001  +9.4255390384E-001 -1.3787438336E+001 
