!  2-Port S-parameters saved by WinCal
! VAR MeasName=S-Parameters (CALIBRATED_DATA) read from VNA (P5004A)
! VAR MeasDate=24/04/2024 15:29:49
! VAR NAME=Wafer2_r1_c4_pristine
! VAR FILENAME=Wafer2_r1_c4_pristine.S2P
! VAR DATE=24/04/2024 15:29:49
! VAR PHYS_PORTS=1,2
! VAR ObjTypeName=DATASET
! VAR IndexType=Frequency
!
# Hz S MA R 50
9000.000 +7.9983253590E-001 +1.7315328688E+001  +3.1021403223E-005 -1.2503567963E+002  +5.9133248792E-005 -1.5701465386E+001  +7.9917335720E-001 +1.7288862291E+001 
4009798.360 +9.8722487335E-001 -3.1286518085E+000  +1.8569933466E-003 +8.6421640162E+001  +1.8825579436E-003 +8.6025081781E+001  +9.8702294587E-001 -3.0569077576E+000 
8010596.719 +9.7599988446E-001 -6.2777595150E-001  +3.6572391764E-003 +8.8563198399E+001  +3.6981049743E-003 +8.8401514170E+001  +9.7663762579E-001 -6.0663758738E-001 
12011395.079 +9.8353828024E-001 -8.2674364572E-003  +5.5161486721E-003 +8.9137845564E+001  +5.5478561732E-003 +8.8795303600E+001  +9.8383277846E-001 +3.5749170134E-003 
16012193.439 +9.8954634980E-001 +1.6973923728E-001  +7.3592221645E-003 +8.9339132693E+001  +7.4000736253E-003 +8.8726366300E+001  +9.8988601170E-001 +1.7496467418E-001 
20012991.798 +9.9476108133E-001 +2.0181403763E-001  +9.2191751531E-003 +8.9324506901E+001  +9.2472310991E-003 +8.8703790345E+001  +9.9487364139E-001 +2.0028081060E-001 
24013790.158 +9.9940255406E-001 +1.3496760519E-001  +1.1112830534E-002 +8.9295137531E+001  +1.1109763115E-002 +8.8646502844E+001  +9.9954612525E-001 +1.2552594093E-001 
28014588.518 +1.0036078475E+000 -2.5265922520E-002  +1.3024435861E-002 +8.9185365928E+001  +1.2970169045E-002 +8.8574513453E+001  +1.0036134992E+000 -1.3352581729E-002 
32015386.877 +1.0079628906E+000 -2.1864916945E-001  +1.4948036493E-002 +8.8905576352E+001  +1.4924650720E-002 +8.7703683328E+001  +1.0077487188E+000 -2.1759764746E-001 
36016185.237 +1.0109356747E+000 -4.8759993045E-001  +1.7043288884E-002 +8.8463006572E+001  +1.6846819098E-002 +8.8359715836E+001  +1.0107088750E+000 -4.8002543293E-001 
40016983.597 +1.0127384113E+000 -8.2165401854E-001  +1.8874213709E-002 +8.7992792185E+001  +1.8759417653E-002 +8.7494536496E+001  +1.0128698275E+000 -8.1185446435E-001 
44017781.956 +1.0140141462E+000 -1.1800983460E+000  +2.0908507871E-002 +8.7660824531E+001  +2.0569110659E-002 +8.7522373070E+001  +1.0139751718E+000 -1.1509992059E+000 
48018580.316 +1.0143919098E+000 -1.5386394007E+000  +2.2597145571E-002 +8.6940666027E+001  +2.2371649593E-002 +8.7092982149E+001  +1.0146282963E+000 -1.5065245468E+000 
52019378.676 +1.0128055439E+000 -1.9338111835E+000  +2.4440581640E-002 +8.6833029030E+001  +2.4249888925E-002 +8.6702524344E+001  +1.0127754786E+000 -1.8874776061E+000 
56020177.035 +1.0102151258E+000 -2.2516025740E+000  +2.6268353452E-002 +8.6313912290E+001  +2.5975150495E-002 +8.6447432998E+001  +1.0104331502E+000 -2.2159648751E+000 
60020975.395 +1.0065137941E+000 -2.5765472220E+000  +2.7999222261E-002 +8.5727538888E+001  +2.7692632582E-002 +8.6243716208E+001  +1.0066103756E+000 -2.5210634593E+000 
64021773.755 +1.0016213125E+000 -2.7798922166E+000  +2.9638667729E-002 +8.5601194224E+001  +2.9452006298E-002 +8.5987892716E+001  +1.0016572470E+000 -2.7326845974E+000 
68022572.114 +9.9655906653E-001 -2.9041982154E+000  +3.1317790791E-002 +8.5308481964E+001  +3.1115897457E-002 +8.5969476081E+001  +9.9648472511E-001 -2.8669843363E+000 
72023370.474 +9.9170806613E-001 -2.9520776111E+000  +3.2901382048E-002 +8.5257105983E+001  +3.2809473976E-002 +8.5892681423E+001  +9.9194167359E-001 -2.9156930162E+000 
76024168.834 +9.8758625742E-001 -2.9077852158E+000  +3.4515248390E-002 +8.5504165222E+001  +3.4468889686E-002 +8.5953305480E+001  +9.8780811067E-001 -2.8674521171E+000 
80024967.193 +9.8420829564E-001 -2.8123873003E+000  +3.6187581282E-002 +8.5553560014E+001  +3.6243154679E-002 +8.6045380144E+001  +9.8437890742E-001 -2.7766616363E+000 
84025765.553 +9.8235371764E-001 -2.6958167677E+000  +3.7843019052E-002 +8.5560715690E+001  +3.7923223846E-002 +8.6097353824E+001  +9.8242370449E-001 -2.6747357937E+000 
88026563.913 +9.8140653865E-001 -2.5152065937E+000  +3.9527762022E-002 +8.5872835992E+001  +3.9772706120E-002 +8.6290465270E+001  +9.8148327369E-001 -2.5068007020E+000 
92027362.272 +9.8181588589E-001 -2.3785842956E+000  +4.1306485922E-002 +8.6044899825E+001  +4.1641110582E-002 +8.6278031966E+001  +9.8164256562E-001 -2.3772992144E+000 
96028160.632 +9.8269973250E-001 -2.2511347174E+000  +4.3058968880E-002 +8.6155081103E+001  +4.3477731960E-002 +8.6241125238E+001  +9.8270479943E-001 -2.2491824470E+000 
100028958.992 +9.8551714993E-001 -2.1546672983E+000  +4.4996489603E-002 +8.6257195778E+001  +4.5371883298E-002 +8.6292017643E+001  +9.8510609948E-001 -2.1547220445E+000 
104029757.351 +9.8863209183E-001 -2.1002409826E+000  +4.6880482506E-002 +8.6440301999E+001  +4.7292504950E-002 +8.6245848506E+001  +9.8842937282E-001 -2.0700651916E+000 
108030555.711 +9.9255724544E-001 -2.0675886025E+000  +4.8880490635E-002 +8.6466329041E+001  +4.9159677053E-002 +8.6131173949E+001  +9.9216971428E-001 -2.0586526629E+000 
112031354.071 +9.9696065936E-001 -2.1447579050E+000  +5.0851346056E-002 +8.6483421270E+001  +5.1116585723E-002 +8.6055023781E+001  +9.9648274113E-001 -2.1165949402E+000 
116032152.430 +1.0015497953E+000 -2.2418714998E+000  +5.2988700196E-002 +8.6436429914E+001  +5.3134614063E-002 +8.5909354443E+001  +1.0008802264E+000 -2.2358532922E+000 
120032950.790 +1.0062384171E+000 -2.4440900154E+000  +5.5049358736E-002 +8.6285644493E+001  +5.5107763130E-002 +8.5732014779E+001  +1.0055375658E+000 -2.4054257790E+000 
124033749.150 +1.0104988191E+000 -2.7154960159E+000  +5.7242125518E-002 +8.5981137076E+001  +5.7093559203E-002 +8.5462898162E+001  +1.0098267967E+000 -2.6752230499E+000 
128034547.510 +1.0141051085E+000 -3.0532910632E+000  +5.9362590989E-002 +8.5727941972E+001  +5.9126737473E-002 +8.5077049045E+001  +1.0134956328E+000 -2.9904724257E+000 
132035345.869 +1.0163592379E+000 -3.4665770215E+000  +6.1417908191E-002 +8.5182263061E+001  +6.1056442993E-002 +8.4770514951E+001  +1.0157511752E+000 -3.4015267672E+000 
136036144.229 +1.0170702939E+000 -3.9128859968E+000  +6.3342827987E-002 +8.4727724386E+001  +6.2846936935E-002 +8.4356498189E+001  +1.0167585490E+000 -3.8324197688E+000 
140036942.589 +1.0158722366E+000 -4.3771771031E+000  +6.5250394681E-002 +8.4231014752E+001  +6.4574799431E-002 +8.3918606903E+001  +1.0158122061E+000 -4.2821366737E+000 
144037740.948 +1.0133146277E+000 -4.8073606079E+000  +6.6818126041E-002 +8.3710030868E+001  +6.6219053343E-002 +8.3432242081E+001  +1.0131223464E+000 -4.6992944719E+000 
148038539.308 +1.0085287286E+000 -5.1802014467E+000  +6.8382609781E-002 +8.3177532736E+001  +6.7683902811E-002 +8.3207586156E+001  +1.0089412249E+000 -5.0751547719E+000 
152039337.668 +1.0027683159E+000 -5.5045405350E+000  +6.9753799441E-002 +8.2669351923E+001  +6.9046903477E-002 +8.2882906772E+001  +1.0031069380E+000 -5.3935044351E+000 
156040136.027 +9.9627595622E-001 -5.6888089871E+000  +7.0958802349E-002 +8.2511868441E+001  +7.0305253345E-002 +8.2742383451E+001  +9.9675483488E-001 -5.5799533921E+000 
160040934.387 +9.8972484451E-001 -5.7645710515E+000  +7.2254102229E-002 +8.2409088562E+001  +7.1783659717E-002 +8.2768482130E+001  +9.9020912562E-001 -5.6558612431E+000 
164041732.747 +9.8387145664E-001 -5.7346025884E+000  +7.3508075690E-002 +8.2344320324E+001  +7.3100231528E-002 +8.2859719091E+001  +9.8468652251E-001 -5.6470972723E+000 
168042531.106 +9.7896585787E-001 -5.6437625516E+000  +7.4851677967E-002 +8.2483780207E+001  +7.4552352741E-002 +8.3041121373E+001  +9.7965425034E-001 -5.5451148532E+000 
172043329.466 +9.7544929637E-001 -5.4658811054E+000  +7.6192073094E-002 +8.2678431766E+001  +7.6165013498E-002 +8.3190227420E+001  +9.7616030653E-001 -5.3992002210E+000 
176044127.826 +9.7292187641E-001 -5.2566951312E+000  +7.7660931201E-002 +8.2815738428E+001  +7.7909555740E-002 +8.3409512220E+001  +9.7366339174E-001 -5.1985756522E+000 
180044926.185 +9.7234390953E-001 -5.0482488754E+000  +7.9374080038E-002 +8.3084720475E+001  +7.9805141462E-002 +8.3512618453E+001  +9.7315675164E-001 -4.9962696495E+000 
184045724.545 +9.7301039755E-001 -4.8387941591E+000  +8.1199806945E-002 +8.3332782795E+001  +8.1669462147E-002 +8.3696203242E+001  +9.7363280984E-001 -4.7871705306E+000 
188046522.905 +9.7494495889E-001 -4.6523218936E+000  +8.2993479859E-002 +8.3507867893E+001  +8.3657853179E-002 +8.3796652894E+001  +9.7525043583E-001 -4.6075592186E+000 
192047321.264 +9.7802634880E-001 -4.4968477347E+000  +8.4841483992E-002 +8.3672720476E+001  +8.5727403299E-002 +8.3845328006E+001  +9.7816763429E-001 -4.4665583666E+000 
196048119.624 +9.8187036896E-001 -4.3893830867E+000  +8.6877950831E-002 +8.3802587882E+001  +8.7762908355E-002 +8.3775574697E+001  +9.8178395683E-001 -4.3750201309E+000 
200048917.984 +9.8665571368E-001 -4.3644513168E+000  +8.9026857410E-002 +8.3859220907E+001  +8.9846473884E-002 +8.3703082790E+001  +9.8639406877E-001 -4.3334985958E+000 
204049716.343 +9.9181570938E-001 -4.3852299112E+000  +9.1265058106E-002 +8.3927350766E+001  +9.2038064355E-002 +8.3631821724E+001  +9.9116223339E-001 -4.3580448562E+000 
208050514.703 +9.9751138298E-001 -4.5043215535E+000  +9.3601893797E-002 +8.3928740068E+001  +9.4209287744E-002 +8.3417680820E+001  +9.9671500449E-001 -4.4632657422E+000 
212051313.063 +1.0031268872E+000 -4.6981619216E+000  +9.5967824996E-002 +8.3709451426E+001  +9.6332535176E-002 +8.3234771104E+001  +1.0021472707E+000 -4.6575034283E+000 
216052111.422 +1.0082836402E+000 -5.0070369163E+000  +9.8411568338E-002 +8.3530285447E+001  +9.8631035827E-002 +8.2981583445E+001  +1.0072903640E+000 -4.9233328715E+000 
220052909.782 +1.0126659215E+000 -5.3653421125E+000  +1.0078607764E-001 +8.3135845920E+001  +1.0065461552E-001 +8.2553411039E+001  +1.0115854825E+000 -5.2882726475E+000 
224053708.142 +1.0159195168E+000 -5.8178831122E+000  +1.0308158313E-001 +8.2673535894E+001  +1.0280098166E-001 +8.2183264421E+001  +1.0147723708E+000 -5.7217820761E+000 
228054506.501 +1.0173435784E+000 -6.3250771859E+000  +1.0532822944E-001 +8.2112786339E+001  +1.0480315678E-001 +8.1673245221E+001  +1.0162754937E+000 -6.2083894882E+000 
232055304.861 +1.0165067210E+000 -6.8628587040E+000  +1.0718237199E-001 +8.1557149942E+001  +1.0639484963E-001 +8.1150846245E+001  +1.0157392935E+000 -6.7221723796E+000 
236056103.221 +1.0134791265E+000 -7.3747362128E+000  +1.0879259270E-001 +8.0943636178E+001  +1.0768303752E-001 +8.0642073166E+001  +1.0130304494E+000 -7.2160525419E+000 
240056901.580 +1.0086171810E+000 -7.8592346114E+000  +1.1013027232E-001 +8.0298856849E+001  +1.0910019010E-001 +8.0177293641E+001  +1.0084206421E+000 -7.6895358617E+000 
244057699.940 +1.0018795949E+000 -8.2327385472E+000  +1.1108123828E-001 +7.9901923622E+001  +1.1009602975E-001 +7.9816938913E+001  +1.0022486925E+000 -8.0585214033E+000 
248058498.300 +9.9444929069E-001 -8.4824224226E+000  +1.1201674887E-001 +7.9573168180E+001  +1.1084209251E-001 +7.9663211913E+001  +9.9481918220E-001 -8.3011560574E+000 
252059296.659 +9.8623539677E-001 -8.6198495615E+000  +1.1273572487E-001 +7.9358327496E+001  +1.1165567289E-001 +7.9667567000E+001  +9.8701719503E-001 -8.4260596083E+000 
256060095.019 +9.7872821716E-001 -8.6166382134E+000  +1.1346491370E-001 +7.9295944944E+001  +1.1261599130E-001 +7.9683417056E+001  +9.7965745866E-001 -8.4465640767E+000 
260060893.379 +9.7184293625E-001 -8.5093262954E+000  +1.1430630964E-001 +7.9414455810E+001  +1.1367283748E-001 +7.9873322503E+001  +9.7321289153E-001 -8.3438601976E+000 
264061691.738 +9.6685343557E-001 -8.2971027361E+000  +1.1532266235E-001 +7.9587206618E+001  +1.1498653461E-001 +8.0147266645E+001  +9.6810869289E-001 -8.1573116139E+000 
268062490.098 +9.6331421400E-001 -8.0454123250E+000  +1.1662298160E-001 +7.9880984008E+001  +1.1645701106E-001 +8.0410090788E+001  +9.6462407047E-001 -7.9191238800E+000 
272063288.458 +9.6175204190E-001 -7.7498481689E+000  +1.1796987050E-001 +8.0148308163E+001  +1.1826093132E-001 +8.0691402845E+001  +9.6273230594E-001 -7.6439554693E+000 
276064086.817 +9.6170914875E-001 -7.4618876772E+000  +1.1970004306E-001 +8.0437023465E+001  +1.2014794286E-001 +8.0954342600E+001  +9.6251488384E-001 -7.3791269741E+000 
280064885.177 +9.6313103251E-001 -7.1755016318E+000  +1.2141783767E-001 +8.0709327901E+001  +1.2225625571E-001 +8.1120904938E+001  +9.6414382891E-001 -7.1191572636E+000 
284065683.537 +9.6599639911E-001 -6.9632579526E+000  +1.2344777624E-001 +8.0887197954E+001  +1.2437710312E-001 +8.1196335785E+001  +9.6664559954E-001 -6.9062412400E+000 
288066481.896 +9.7037133367E-001 -6.7768068891E+000  +1.2566124185E-001 +8.1091684432E+001  +1.2681262258E-001 +8.1240287592E+001  +9.7064221023E-001 -6.7213253068E+000 
292067280.256 +9.7528559513E-001 -6.6779438794E+000  +1.2785388142E-001 +8.1228253927E+001  +1.2903617340E-001 +8.1265591421E+001  +9.7522777330E-001 -6.6262353229E+000 
296068078.616 +9.8131860190E-001 -6.6372204281E+000  +1.3027060218E-001 +8.1300645959E+001  +1.3143908692E-001 +8.1172674678E+001  +9.8100441109E-001 -6.5944674771E+000 
300068876.975 +9.8791422975E-001 -6.7036935073E+000  +1.3285194919E-001 +8.1295279409E+001  +1.3392512697E-001 +8.1074050287E+001  +9.8710343549E-001 -6.6485834432E+000 
304069675.335 +9.9450365977E-001 -6.8416707095E+000  +1.3553262998E-001 +8.1261617305E+001  +1.3635911371E-001 +8.0892752027E+001  +9.9363236820E-001 -6.7902158880E+000 
308070473.695 +1.0008503727E+000 -7.1119643450E+000  +1.3820282276E-001 +8.1066656231E+001  +1.3892204568E-001 +8.0606991427E+001  +9.9984691999E-001 -7.0349764478E+000 
312071272.054 +1.0066900593E+000 -7.4743281055E+000  +1.4108866153E-001 +8.0783508759E+001  +1.4132679618E-001 +8.0243354537E+001  +1.0054127736E+000 -7.3823676229E+000 
316072070.414 +1.0111580010E+000 -7.9314103526E+000  +1.4358844360E-001 +8.0328267719E+001  +1.4367238310E-001 +7.9824917524E+001  +1.0097203988E+000 -7.8253017044E+000 
320072868.774 +1.0139424164E+000 -8.4684123625E+000  +1.4620241145E-001 +7.9772326635E+001  +1.4578677656E-001 +7.9316421324E+001  +1.0128835167E+000 -8.3265247199E+000 
324073667.133 +1.0150395645E+000 -9.0657069757E+000  +1.4837613811E-001 +7.9181929204E+001  +1.4782984620E-001 +7.8706839455E+001  +1.0135262935E+000 -8.8954535690E+000 
328074465.493 +1.0132816367E+000 -9.6593735952E+000  +1.5007835134E-001 +7.8512974069E+001  +1.4919937268E-001 +7.8124460474E+001  +1.0124158317E+000 -9.4562637181E+000 
332075263.853 +1.0092575074E+000 -1.0217103696E+001  +1.5138785498E-001 +7.7818307660E+001  +1.5041422791E-001 +7.7571643758E+001  +1.0086209554E+000 -1.0008199380E+001 
336076062.212 +1.0030829933E+000 -1.0725821663E+001  +1.5224941037E-001 +7.7293001672E+001  +1.5094285109E-001 +7.7060758048E+001  +1.0025912077E+000 -1.0498976672E+001 
340076860.572 +9.9490727093E-001 -1.1118555139E+001  +1.5273041049E-001 +7.6815612456E+001  +1.5149695752E-001 +7.6746281234E+001  +9.9501004981E-001 -1.0879385552E+001 
344077658.932 +9.8586003948E-001 -1.1366834427E+001  +1.5314206805E-001 +7.6480082048E+001  +1.5170888087E-001 +7.6521701075E+001  +9.8648246686E-001 -1.1132840419E+001 
348078457.291 +9.7666541728E-001 -1.1452185025E+001  +1.5327767448E-001 +7.6372304936E+001  +1.5194771652E-001 +7.6488892815E+001  +9.7724439088E-001 -1.1226248722E+001 
352079255.651 +9.6782723358E-001 -1.1407706029E+001  +1.5356667014E-001 +7.6382333063E+001  +1.5240419935E-001 +7.6654030055E+001  +9.6899030279E-001 -1.1199117058E+001 
356080054.011 +9.6037902719E-001 -1.1240416993E+001  +1.5388575050E-001 +7.6524230395E+001  +1.5299930878E-001 +7.6867093803E+001  +9.6144156780E-001 -1.1025355142E+001 
360080852.370 +9.5464624289E-001 -1.0966720159E+001  +1.5468871965E-001 +7.6799776275E+001  +1.5395024203E-001 +7.7191735799E+001  +9.5604716610E-001 -1.0778431179E+001 
364081650.730 +9.5091429619E-001 -1.0621148851E+001  +1.5570230468E-001 +7.7131590144E+001  +1.5524479634E-001 +7.7582349230E+001  +9.5240666368E-001 -1.0465785868E+001 
368082449.090 +9.4923039798E-001 -1.0266776950E+001  +1.5706365050E-001 +7.7453260191E+001  +1.5701743678E-001 +7.7919003613E+001  +9.5051824000E-001 -1.0119266221E+001 
372083247.449 +9.4917617170E-001 -9.9117251648E+000  +1.5868455573E-001 +7.7766566301E+001  +1.5895506610E-001 +7.8230582075E+001  +9.5061192253E-001 -9.7920956695E+000 
376084045.809 +9.5132371421E-001 -9.5875134483E+000  +1.6060383158E-001 +7.8071988401E+001  +1.6124508223E-001 +7.8442376996E+001  +9.5233295395E-001 -9.4664581238E+000 
380084844.169 +9.5482936519E-001 -9.2947365593E+000  +1.6276752877E-001 +7.8345204147E+001  +1.6366351775E-001 +7.8644644869E+001  +9.5573545205E-001 -9.2036317436E+000 
384085642.529 +9.5969562510E-001 -9.0709797627E+000  +1.6506894153E-001 +7.8515647099E+001  +1.6619577449E-001 +7.8729588924E+001  +9.6035668190E-001 -9.0024697306E+000 
388086440.888 +9.6577573103E-001 -8.9403516318E+000  +1.6759183057E-001 +7.8686166092E+001  +1.6895297809E-001 +7.8776080472E+001  +9.6598936393E-001 -8.8703683679E+000 
392087239.248 +9.7274067256E-001 -8.8989748027E+000  +1.7043676213E-001 +7.8761893754E+001  +1.7174008978E-001 +7.8734587125E+001  +9.7245741492E-001 -8.8253667748E+000 
396088037.608 +9.8004677075E-001 -8.9574757318E+000  +1.7331825113E-001 +7.8771966737E+001  +1.7448838643E-001 +7.8607170664E+001  +9.7964249552E-001 -8.8935765673E+000 
400088835.967 +9.8781347898E-001 -9.1303156403E+000  +1.7633687509E-001 +7.8674485112E+001  +1.7748220369E-001 +7.8407503727E+001  +9.8691776288E-001 -9.0641940865E+000 
404089634.327 +9.9498308609E-001 -9.4200404010E+000  +1.7948917733E-001 +7.8453412372E+001  +1.8030822927E-001 +7.8142138892E+001  +9.9373617637E-001 -9.3332711808E+000 
408090432.687 +1.0016105751E+000 -9.8227067466E+000  +1.8261719584E-001 +7.8146564914E+001  +1.8312741068E-001 +7.7748707902E+001  +1.0000942142E+000 -9.7125183526E+000 
412091231.046 +1.0067119265E+000 -1.0324134955E+001  +1.8552205113E-001 +7.7657310542E+001  +1.8579985954E-001 +7.7295523705E+001  +1.0050459061E+000 -1.0188530887E+001 
416092029.406 +1.0099133831E+000 -1.0922916125E+001  +1.8824396294E-001 +7.7094866231E+001  +1.8824422700E-001 +7.6659746651E+001  +1.0082914457E+000 -1.0758161546E+001 
420092827.766 +1.0108284902E+000 -1.1579127957E+001  +1.9044869690E-001 +7.6379558901E+001  +1.9007832795E-001 +7.5989222248E+001  +1.0092679673E+000 -1.1384861450E+001 
424093626.125 +1.0088998144E+000 -1.2246421860E+001  +1.9228544534E-001 +7.5676846720E+001  +1.9142554639E-001 +7.5335897759E+001  +1.0075413113E+000 -1.2003243355E+001 
428094424.485 +1.0041865157E+000 -1.2889415465E+001  +1.9323890306E-001 +7.4940233821E+001  +1.9223630563E-001 +7.4681078989E+001  +1.0033889244E+000 -1.2629948700E+001 
432095222.845 +9.9735474956E-001 -1.3441047619E+001  +1.9367583871E-001 +7.4347843258E+001  +1.9251092952E-001 +7.4143158356E+001  +9.9680705093E-001 -1.3167645231E+001 
436096021.204 +9.8813704307E-001 -1.3864880493E+001  +1.9354962611E-001 +7.3811761753E+001  +1.9233275562E-001 +7.3746147032E+001  +9.8797817912E-001 -1.3592577702E+001 
440096819.564 +9.7791136488E-001 -1.4147492414E+001  +1.9314524376E-001 +7.3489057960E+001  +1.9178609853E-001 +7.3508408795E+001  +9.7825726484E-001 -1.3874351606E+001 
444097617.924 +9.6745553833E-001 -1.4253469346E+001  +1.9269816825E-001 +7.3357142969E+001  +1.9139724280E-001 +7.3464516158E+001  +9.6817747079E-001 -1.3971619350E+001 
448098416.283 +9.5759624848E-001 -1.4202285676E+001  +1.9231337296E-001 +7.3427278734E+001  +1.9129180717E-001 +7.3611083807E+001  +9.5885084964E-001 -1.3924683482E+001 
452099214.643 +9.4913157383E-001 -1.3986220064E+001  +1.9223342527E-001 +7.3629015991E+001  +1.9130488312E-001 +7.3875054525E+001  +9.5055124188E-001 -1.3738601212E+001 
456100013.003 +9.4235978752E-001 -1.3681079873E+001  +1.9254524934E-001 +7.3936864004E+001  +1.9177626613E-001 +7.4244252691E+001  +9.4385932374E-001 -1.3452276771E+001 
