!  2-Port S-parameters saved by WinCal
! VAR MeasName=S-Parameters (CALIBRATED_DATA) read from VNA (P5004A)
! VAR MeasDate=24/04/2024 15:08:49
! VAR NAME=Wafer2_r1_c1_overformed
! VAR FILENAME=Wafer2_r1_c1_overformed.S2P
! VAR DATE=24/04/2024 15:08:49
! VAR PHYS_PORTS=1,2
! VAR ObjTypeName=DATASET
! VAR IndexType=Frequency
!
# Hz S MA R 50
9000.000 +7.8400053659E-001 +1.6670339533E+001  +1.7516097345E-002 +2.3648752036E+000  +1.7869831489E-002 +1.4029018319E+000  +7.8323685512E-001 +1.6644846705E+001 
4009798.360 +9.6469511676E-001 -3.0648117381E+000  +2.3064730642E-002 +1.6806775266E+000  +2.3339371553E-002 +1.7648321138E+000  +9.6422845034E-001 -2.9878532346E+000 
8010596.719 +9.5360589040E-001 -6.2636116328E-001  +2.3201755499E-002 +8.8120262567E+000  +2.3356113211E-002 +8.5662488256E+000  +9.5411604447E-001 -5.9700876426E-001 
12011395.079 +9.6089014117E-001 -2.4306898836E-002  +2.3737437569E-002 +1.3580607073E+001  +2.3973472751E-002 +1.3355511534E+001  +9.6098590910E-001 -8.3184182018E-003 
16012193.439 +9.6662093358E-001 +1.5739816653E-001  +2.4494847830E-002 +1.8037839463E+001  +2.4575614080E-002 +1.7613497725E+001  +9.6662247199E-001 +1.5843662726E-001 
20012991.798 +9.7157344443E-001 +1.7327113826E-001  +2.5263328913E-002 +2.1960298490E+001  +2.5281373936E-002 +2.1439824234E+001  +9.7159319082E-001 +1.7705147045E-001 
24013790.158 +9.7605724770E-001 +1.0263494748E-001  +2.6293106747E-002 +2.5783372118E+001  +2.6129739571E-002 +2.5247055659E+001  +9.7605766773E-001 +1.1205998904E-001 
28014588.518 +9.7998098146E-001 -5.5097356254E-002  +2.7243841465E-002 +2.9096115579E+001  +2.7063962709E-002 +2.8518974006E+001  +9.8004867019E-001 -2.9842264204E-002 
32015386.877 +9.8408134713E-001 -2.4772909240E-001  +2.8296827638E-002 +3.2205659315E+001  +2.8289365010E-002 +3.1472167938E+001  +9.8373496062E-001 -2.1841717527E-001 
36016185.237 +9.8673082210E-001 -5.1245229670E-001  +2.9427476965E-002 +3.4786006961E+001  +2.9417566328E-002 +3.4477313025E+001  +9.8684655513E-001 -4.9577541771E-001 
40016983.597 +9.8842120877E-001 -8.3194746178E-001  +3.0870271861E-002 +3.7373350263E+001  +3.0692886152E-002 +3.6471984744E+001  +9.8877938171E-001 -8.1840005774E-001 
44017781.956 +9.9010374240E-001 -1.1791055951E+000  +3.1982074856E-002 +3.9575104590E+001  +3.1888014695E-002 +3.8964337482E+001  +9.8978889530E-001 -1.1598097576E+000 
48018580.316 +9.9044376413E-001 -1.5396218259E+000  +3.3318399996E-002 +4.1431209946E+001  +3.3119101670E-002 +4.1109603218E+001  +9.9050383774E-001 -1.5173250834E+000 
52019378.676 +9.8901039303E-001 -1.9229315402E+000  +3.4586125929E-002 +4.3152356811E+001  +3.4350952565E-002 +4.2930442656E+001  +9.8870242568E-001 -1.8862522899E+000 
56020177.035 +9.8639372073E-001 -2.2418615351E+000  +3.5911751147E-002 +4.4890771061E+001  +3.5724435926E-002 +4.4819602312E+001  +9.8643377767E-001 -2.2156467450E+000 
60020975.395 +9.8277827829E-001 -2.5586052218E+000  +3.7054654210E-002 +4.6421969194E+001  +3.6912571098E-002 +4.6357535664E+001  +9.8283643371E-001 -2.5194428198E+000 
64021773.755 +9.7815634670E-001 -2.7566489545E+000  +3.8425741915E-002 +4.7922231666E+001  +3.8179420402E-002 +4.8077701709E+001  +9.7803895388E-001 -2.7289023963E+000 
68022572.114 +9.7320783600E-001 -2.8825453505E+000  +3.9547834471E-002 +4.9316893738E+001  +3.9458220890E-002 +4.9491426096E+001  +9.7318525339E-001 -2.8740618885E+000 
72023370.474 +9.6870990739E-001 -2.9329827593E+000  +4.0850183503E-002 +5.0757167679E+001  +4.0816274443E-002 +5.1125968448E+001  +9.6869925143E-001 -2.9054632098E+000 
76024168.834 +9.6468934541E-001 -2.8955583356E+000  +4.2101674468E-002 +5.2128303374E+001  +4.2177710129E-002 +5.2609452231E+001  +9.6467955387E-001 -2.8731112882E+000 
80024967.193 +9.6144323782E-001 -2.7939189691E+000  +4.3332266158E-002 +5.3524320198E+001  +4.3574706510E-002 +5.3898257414E+001  +9.6171577099E-001 -2.7836216256E+000 
84025765.553 +9.5980906753E-001 -2.6921168557E+000  +4.4830882198E-002 +5.4841726138E+001  +4.5120697520E-002 +5.5242808464E+001  +9.5952426200E-001 -2.6913612302E+000 
88026563.913 +9.5890971051E-001 -2.5154883011E+000  +4.6280744385E-002 +5.6141966081E+001  +4.6748989943E-002 +5.6423953322E+001  +9.5852874623E-001 -2.5306746035E+000 
92027362.272 +9.5929002178E-001 -2.3938319823E+000  +4.7872254275E-002 +5.7399449356E+001  +4.8377232359E-002 +5.7508869612E+001  +9.5890431174E-001 -2.4000915067E+000 
96028160.632 +9.6010711157E-001 -2.2658688850E+000  +4.9454199310E-002 +5.8516637399E+001  +4.9934494498E-002 +5.8544927214E+001  +9.5966206842E-001 -2.2751435953E+000 
100028958.992 +9.6282917201E-001 -2.1832531450E+000  +5.1180723973E-002 +5.9653523509E+001  +5.1725165132E-002 +5.9262553613E+001  +9.6214453736E-001 -2.1893078844E+000 
104029757.351 +9.6565184838E-001 -2.1237031403E+000  +5.2954570615E-002 +6.0443459244E+001  +5.3474576744E-002 +6.0217254443E+001  +9.6513313773E-001 -2.1098560283E+000 
108030555.711 +9.6948028845E-001 -2.1165091981E+000  +5.4759381709E-002 +6.1445188183E+001  +5.5236441233E-002 +6.1064522094E+001  +9.6877210427E-001 -2.1070140203E+000 
112031354.071 +9.7363977233E-001 -2.1818824816E+000  +5.6696633716E-002 +6.2191937572E+001  +5.7021508793E-002 +6.1715518704E+001  +9.7308625351E-001 -2.1605046954E+000 
116032152.430 +9.7808361687E-001 -2.2910662244E+000  +5.8582793807E-002 +6.2940589292E+001  +5.8844545263E-002 +6.2295081523E+001  +9.7725694324E-001 -2.2797444191E+000 
120032950.790 +9.8243379325E-001 -2.4882786783E+000  +6.0668469153E-002 +6.3356646200E+001  +6.0671400939E-002 +6.2848473895E+001  +9.8172305030E-001 -2.4375186080E+000 
124033749.150 +9.8660796468E-001 -2.7483984534E+000  +6.2621535957E-002 +6.3783667967E+001  +6.2593420926E-002 +6.3113736967E+001  +9.8605173814E-001 -2.7134926211E+000 
128034547.510 +9.8986483780E-001 -3.0806359687E+000  +6.4638204142E-002 +6.4128135364E+001  +6.4460890040E-002 +6.3552508022E+001  +9.8931248367E-001 -3.0241996733E+000 
132035345.869 +9.9177606689E-001 -3.4859699878E+000  +6.6698439738E-002 +6.4351299510E+001  +6.6242224237E-002 +6.3692706452E+001  +9.9165602636E-001 -3.4226277587E+000 
136036144.229 +9.9274265237E-001 -3.9340680289E+000  +6.8608127667E-002 +6.4228732901E+001  +6.7989783304E-002 +6.3885645026E+001  +9.9258121288E-001 -3.8512998791E+000 
140036942.589 +9.9170473457E-001 -4.3813370395E+000  +7.0289711639E-002 +6.4323501257E+001  +6.9630416961E-002 +6.4053736724E+001  +9.9175192278E-001 -4.2957784324E+000 
144037740.948 +9.8918004706E-001 -4.8058099076E+000  +7.1808545836E-002 +6.4282867086E+001  +7.1166316386E-002 +6.4078143934E+001  +9.8913039376E-001 -4.7141028152E+000 
148038539.308 +9.8467416395E-001 -5.1722601610E+000  +7.3265302237E-002 +6.4167637511E+001  +7.2418716154E-002 +6.4183421733E+001  +9.8497978712E-001 -5.0813765025E+000 
152039337.668 +9.7927094171E-001 -5.4865657474E+000  +7.4442978191E-002 +6.4312488426E+001  +7.3759572851E-002 +6.4408389144E+001  +9.7943051547E-001 -5.3929555871E+000 
156040136.027 +9.7277511996E-001 -5.6591676086E+000  +7.5644892413E-002 +6.4502397217E+001  +7.4934060127E-002 +6.4731337421E+001  +9.7332884608E-001 -5.5855246828E+000 
160040934.387 +9.6660375255E-001 -5.7467126281E+000  +7.6729243194E-002 +6.4849394942E+001  +7.6240202127E-002 +6.5222565038E+001  +9.6732555848E-001 -5.6621435159E+000 
164041732.747 +9.6120844262E-001 -5.7223783648E+000  +7.7976764828E-002 +6.5172295089E+001  +7.7521083334E-002 +6.5652965977E+001  +9.6177778010E-001 -5.6613821185E+000 
168042531.106 +9.5616694688E-001 -5.6178773106E+000  +7.9207507099E-002 +6.5637639294E+001  +7.8879752198E-002 +6.6166335404E+001  +9.5704757665E-001 -5.5708611288E+000 
172043329.466 +9.5301503433E-001 -5.4506206964E+000  +8.0541962029E-002 +6.6157971518E+001  +8.0424640174E-002 +6.6746863075E+001  +9.5361333599E-001 -5.4233489065E+000 
176044127.826 +9.5079973218E-001 -5.2629238061E+000  +8.1868120646E-002 +6.6727177779E+001  +8.2098721099E-002 +6.7276876613E+001  +9.5135865108E-001 -5.2366604062E+000 
180044926.185 +9.5008707157E-001 -5.0513806009E+000  +8.3520905631E-002 +6.7287973735E+001  +8.3906178817E-002 +6.7670531803E+001  +9.5069000888E-001 -5.0325917844E+000 
184045724.545 +9.5082198743E-001 -4.8479824777E+000  +8.5285404407E-002 +6.7843974331E+001  +8.5776845880E-002 +6.8106558740E+001  +9.5122294801E-001 -4.8327901033E+000 
188046522.905 +9.5252703392E-001 -4.6776624391E+000  +8.6920967153E-002 +6.8256599355E+001  +8.7754362749E-002 +6.8506464837E+001  +9.5260257800E-001 -4.6677694830E+000 
192047321.264 +9.5535471629E-001 -4.5339909886E+000  +8.8890406630E-002 +6.8709638499E+001  +8.9756494288E-002 +6.8937753089E+001  +9.5552614102E-001 -4.5275676490E+000 
196048119.624 +9.5904559748E-001 -4.4409148519E+000  +9.0907169871E-002 +6.9193365082E+001  +9.1656753297E-002 +6.9142953774E+001  +9.5907710035E-001 -4.4427973230E+000 
200048917.984 +9.6379960901E-001 -4.4103149667E+000  +9.2936264865E-002 +6.9511235959E+001  +9.3812136887E-002 +6.9301256432E+001  +9.6324765918E-001 -4.4088964891E+000 
204049716.343 +9.6883817477E-001 -4.4388171811E+000  +9.5126434676E-002 +6.9808668510E+001  +9.5848575083E-002 +6.9506952261E+001  +9.6776859808E-001 -4.4280575328E+000 
208050514.703 +9.7412093084E-001 -4.5626637467E+000  +9.7369664129E-002 +7.0040970606E+001  +9.8043098072E-002 +6.9478160538E+001  +9.7280134231E-001 -4.5348712367E+000 
212051313.063 +9.7947492306E-001 -4.7518407407E+000  +9.9727707211E-002 +7.0120642670E+001  +1.0024354241E-001 +6.9570070933E+001  +9.7821216546E-001 -4.7207751148E+000 
216052111.422 +9.8436500218E-001 -5.0544012023E+000  +1.0213648475E-001 +7.0123342173E+001  +1.0234367350E-001 +6.9453204059E+001  +9.8300972745E-001 -4.9872623456E+000 
220052909.782 +9.8851221672E-001 -5.4092599236E+000  +1.0446563827E-001 +7.0098726818E+001  +1.0447061791E-001 +6.9357326978E+001  +9.8716443441E-001 -5.3385465539E+000 
224053708.142 +9.9155874515E-001 -5.8592320555E+000  +1.0684560443E-001 +6.9784860495E+001  +1.0649957043E-001 +6.9122095097E+001  +9.9014037455E-001 -5.7554357908E+000 
228054506.501 +9.9285310049E-001 -6.3489814483E+000  +1.0892773224E-001 +6.9479072029E+001  +1.0833688928E-001 +6.8935113710E+001  +9.9191028493E-001 -6.2387216559E+000 
232055304.861 +9.9198972156E-001 -6.8753269562E+000  +1.1081171863E-001 +6.9105993896E+001  +1.0998339914E-001 +6.8638731827E+001  +9.9134515700E-001 -6.7526467854E+000 
236056103.221 +9.8921048340E-001 -7.3894021793E+000  +1.1229274673E-001 +6.8737816550E+001  +1.1142862101E-001 +6.8311228072E+001  +9.8886411696E-001 -7.2456997334E+000 
240056901.580 +9.8444983986E-001 -7.8526811632E+000  +1.1364923636E-001 +6.8301373488E+001  +1.1255352613E-001 +6.8133366438E+001  +9.8432362517E-001 -7.7063088971E+000 
244057699.940 +9.7800939704E-001 -8.2173517172E+000  +1.1458791262E-001 +6.8064176772E+001  +1.1349357401E-001 +6.7900146689E+001  +9.7841559862E-001 -8.0661225333E+000 
248058498.300 +9.7085267231E-001 -8.4684117028E+000  +1.1543766139E-001 +6.7883557997E+001  +1.1432065262E-001 +6.7931245961E+001  +9.7142059851E-001 -8.3143637939E+000 
252059296.659 +9.6291011846E-001 -8.5923341749E+000  +1.1622495527E-001 +6.7862634016E+001  +1.1510864841E-001 +6.8074314909E+001  +9.6387818729E-001 -8.4498494866E+000 
256060095.019 +9.5586417709E-001 -8.6004963434E+000  +1.1691819629E-001 +6.8008513368E+001  +1.1596014084E-001 +6.8375008990E+001  +9.5701269454E-001 -8.4662134018E+000 
260060893.379 +9.4928609390E-001 -8.4921429815E+000  +1.1771045348E-001 +6.8248523380E+001  +1.1704295290E-001 +6.8622206484E+001  +9.5065683277E-001 -8.3741259492E+000 
264061691.738 +9.4462895101E-001 -8.2922352383E+000  +1.1872675364E-001 +6.8611686658E+001  +1.1831718378E-001 +6.8950027158E+001  +9.4568838038E-001 -8.1992839341E+000 
268062490.098 +9.4135097113E-001 -8.0426313796E+000  +1.1991026197E-001 +6.9017532664E+001  +1.1983847239E-001 +6.9426193059E+001  +9.4223808141E-001 -7.9628859301E+000 
272063288.458 +9.3955432196E-001 -7.7574082836E+000  +1.2130356295E-001 +6.9397297074E+001  +1.2150551723E-001 +6.9879944647E+001  +9.4064729720E-001 -7.7000207633E+000 
276064086.817 +9.3984607501E-001 -7.4773101086E+000  +1.2295747274E-001 +6.9840755189E+001  +1.2344365074E-001 +7.0225051324E+001  +9.4040291703E-001 -7.4440790976E+000 
280064885.177 +9.4117406137E-001 -7.2035150674E+000  +1.2481195005E-001 +7.0251322310E+001  +1.2547654014E-001 +7.0575720498E+001  +9.4181009601E-001 -7.1913787403E+000 
284065683.537 +9.4395212674E-001 -6.9978312790E+000  +1.2665178981E-001 +7.0610005359E+001  +1.2762090801E-001 +7.0805973261E+001  +9.4415677080E-001 -6.9849576017E+000 
288066481.896 +9.4811061344E-001 -6.8219079569E+000  +1.2883467456E-001 +7.0935193650E+001  +1.2985703031E-001 +7.0958457688E+001  +9.4800159603E-001 -6.8125285241E+000 
292067280.256 +9.5268504073E-001 -6.7290782762E+000  +1.3101053969E-001 +7.1159840834E+001  +1.3225335130E-001 +7.1083292821E+001  +9.5249334919E-001 -6.7232651559E+000 
296068078.616 +9.5853635179E-001 -6.6966318182E+000  +1.3342089104E-001 +7.1370787782E+001  +1.3462906219E-001 +7.1187272664E+001  +9.5771716122E-001 -6.6956541251E+000 
300068876.975 +9.6487016307E-001 -6.7633710087E+000  +1.3605627556E-001 +7.1527271614E+001  +1.3703579298E-001 +7.1190874919E+001  +9.6377059000E-001 -6.7394267758E+000 
304069675.335 +9.7105467524E-001 -6.9073026439E+000  +1.3865582328E-001 +7.1598901815E+001  +1.3952006694E-001 +7.1165766161E+001  +9.7014513198E-001 -6.8890474055E+000 
308070473.695 +9.7729526860E-001 -7.1756506658E+000  +1.4136938616E-001 +7.1522734353E+001  +1.4204663673E-001 +7.0979971365E+001  +9.7577161684E-001 -7.1231362268E+000 
312071272.054 +9.8263846070E-001 -7.5378534718E+000  +1.4412201523E-001 +7.1282184035E+001  +1.4437820881E-001 +7.0788261150E+001  +9.8122247031E-001 -7.4515568369E+000 
316072070.414 +9.8704503369E-001 -7.9864206026E+000  +1.4679122295E-001 +7.1011970806E+001  +1.4664203485E-001 +7.0527953667E+001  +9.8530738781E-001 -7.8912324206E+000 
320072868.774 +9.8956238242E-001 -8.5173555092E+000  +1.4916290220E-001 +7.0612237642E+001  +1.4884453446E-001 +7.0093523136E+001  +9.8826495863E-001 -8.3918436368E+000 
324073667.133 +9.9040484390E-001 -9.0894599555E+000  +1.5131831112E-001 +7.0140189476E+001  +1.5075614840E-001 +6.9659284949E+001  +9.8916954806E-001 -8.9476734961E+000 
328074465.493 +9.8877459471E-001 -9.6743312050E+000  +1.5306843422E-001 +6.9564861670E+001  +1.5223743313E-001 +6.9192879448E+001  +9.8809127353E-001 -9.4966775700E+000 
332075263.853 +9.8513611241E-001 -1.0231388697E+001  +1.5447759828E-001 +6.9062121823E+001  +1.5327959269E-001 +6.8695819426E+001  +9.8417241071E-001 -1.0036775771E+001 
336076062.212 +9.7902848471E-001 -1.0707720251E+001  +1.5525114876E-001 +6.8545529023E+001  +1.5404735146E-001 +6.8324545765E+001  +9.7863086643E-001 -1.0526369369E+001 
340076860.572 +9.7134737549E-001 -1.1093634627E+001  +1.5568165546E-001 +6.8211326270E+001  +1.5441226519E-001 +6.8134390541E+001  +9.7149892847E-001 -1.0898467526E+001 
344077658.932 +9.6258223108E-001 -1.1348573874E+001  +1.5603792033E-001 +6.7967096639E+001  +1.5471259295E-001 +6.7981410038E+001  +9.6320500678E-001 -1.1148382483E+001 
348078457.291 +9.5388622650E-001 -1.1446870688E+001  +1.5621964539E-001 +6.7936468851E+001  +1.5499216189E-001 +6.8025455399E+001  +9.5464100701E-001 -1.1251452778E+001 
352079255.651 +9.4540117214E-001 -1.1390965229E+001  +1.5642094003E-001 +6.8079974682E+001  +1.5532144869E-001 +6.8284051447E+001  +9.4657699062E-001 -1.1225323387E+001 
356080054.011 +9.3841286269E-001 -1.1222594254E+001  +1.5684101719E-001 +6.8304198238E+001  +1.5584249350E-001 +6.8658769010E+001  +9.3971849932E-001 -1.1065421391E+001 
360080852.370 +9.3284204612E-001 -1.0956455025E+001  +1.5756646257E-001 +6.8633792213E+001  +1.5699421039E-001 +6.9053158593E+001  +9.3436958269E-001 -1.0826595112E+001 
364081650.730 +9.2937852327E-001 -1.0618454624E+001  +1.5867799884E-001 +6.9050036849E+001  +1.5820200930E-001 +6.9459645970E+001  +9.3078064197E-001 -1.0523792614E+001 
368082449.090 +9.2774095605E-001 -1.0278989269E+001  +1.6002935804E-001 +6.9455692134E+001  +1.5995412600E-001 +6.9846318174E+001  +9.2881929313E-001 -1.0186163267E+001 
372083247.449 +9.2758166624E-001 -9.9378904444E+000  +1.6151316958E-001 +6.9798035404E+001  +1.6186643556E-001 +7.0234398085E+001  +9.2882278189E-001 -9.8716060132E+000 
376084045.809 +9.2978823447E-001 -9.6240123591E+000  +1.6350312773E-001 +7.0192033995E+001  +1.6410924845E-001 +7.0556523120E+001  +9.3067560376E-001 -9.5567485146E+000 
380084844.169 +9.3313798997E-001 -9.3395899211E+000  +1.6559229874E-001 +7.0553953737E+001  +1.6649286753E-001 +7.0817499799E+001  +9.3367331729E-001 -9.3013373347E+000 
384085642.529 +9.3775652534E-001 -9.1295160419E+000  +1.6803098515E-001 +7.0803322347E+001  +1.6907873303E-001 +7.0980864987E+001  +9.3818177900E-001 -9.1081367175E+000 
388086440.888 +9.4350631507E-001 -9.0068451049E+000  +1.7045221245E-001 +7.0990997723E+001  +1.7169745723E-001 +7.1040847115E+001  +9.4340211970E-001 -8.9849314233E+000 
392087239.248 +9.5017439065E-001 -8.9642569378E+000  +1.7322788273E-001 +7.1120690460E+001  +1.7445515662E-001 +7.1120764207E+001  +9.4976620490E-001 -8.9401891251E+000 
396088037.608 +9.5694312341E-001 -9.0288978952E+000  +1.7604513398E-001 +7.1235679972E+001  +1.7731658773E-001 +7.1097715384E+001  +9.5671265650E-001 -9.0068373452E+000 
400088835.967 +9.6466116827E-001 -9.2055975655E+000  +1.7910066550E-001 +7.1203169641E+001  +1.8018258136E-001 +7.0975691638E+001  +9.6352370945E-001 -9.1752479056E+000 
404089634.327 +9.7137542135E-001 -9.4968266153E+000  +1.8224825096E-001 +7.1091172310E+001  +1.8309324857E-001 +7.0769277964E+001  +9.6994384202E-001 -9.4420455942E+000 
408090432.687 +9.7771564085E-001 -9.8799402720E+000  +1.8531511734E-001 +7.0828745331E+001  +1.8581876143E-001 +7.0432797054E+001  +9.7597314245E-001 -9.8162996331E+000 
412091231.046 +9.8248614783E-001 -1.0374409053E+001  +1.8826559163E-001 +7.0467774224E+001  +1.8841641182E-001 +7.0012324304E+001  +9.8077026593E-001 -1.0277920548E+001 
416092029.406 +9.8560675375E-001 -1.0961714741E+001  +1.9091743169E-001 +6.9969940782E+001  +1.9088107402E-001 +6.9525563030E+001  +9.8395598231E-001 -1.0833811370E+001 
420092827.766 +9.8628923061E-001 -1.1602536010E+001  +1.9314850074E-001 +6.9335750623E+001  +1.9270248606E-001 +6.8926771545E+001  +9.8479035099E-001 -1.1441488603E+001 
424093626.125 +9.8453864904E-001 -1.2263025085E+001  +1.9481063657E-001 +6.8685823708E+001  +1.9402612729E-001 +6.8307198732E+001  +9.8316454989E-001 -1.2059811899E+001 
428094424.485 +9.8001634208E-001 -1.2889112448E+001  +1.9577205709E-001 +6.8019777262E+001  +1.9481392372E-001 +6.7767958987E+001  +9.7928082099E-001 -1.2670414860E+001 
432095222.845 +9.7326693037E-001 -1.3421464285E+001  +1.9627394354E-001 +6.7485763934E+001  +1.9508063335E-001 +6.7304828644E+001  +9.7299347489E-001 -1.3196748575E+001 
436096021.204 +9.6465386923E-001 -1.3840941368E+001  +1.9617582239E-001 +6.7050518783E+001  +1.9487786082E-001 +6.6959222951E+001  +9.6469836424E-001 -1.3614354264E+001 
440096819.564 +9.5477959248E-001 -1.4108234781E+001  +1.9579179051E-001 +6.6791938768E+001  +1.9446658330E-001 +6.6792614717E+001  +9.5550401939E-001 -1.3888898131E+001 
444097617.924 +9.4471265706E-001 -1.4218215273E+001  +1.9534171666E-001 +6.6707369005E+001  +1.9414377925E-001 +6.6818811155E+001  +9.4575282588E-001 -1.4000160864E+001 
448098416.283 +9.3539409870E-001 -1.4166791368E+001  +1.9492208967E-001 +6.6811506220E+001  +1.9397602945E-001 +6.6989469448E+001  +9.3652573379E-001 -1.3962300628E+001 
452099214.643 +9.2719483042E-001 -1.3968857611E+001  +1.9486423627E-001 +6.7099900737E+001  +1.9393419222E-001 +6.7308482775E+001  +9.2869462154E-001 -1.3778895728E+001 
456100013.003 +9.2070174210E-001 -1.3669781486E+001  +1.9514951632E-001 +6.7427654992E+001  +1.9447146824E-001 +6.7693506200E+001  +9.2241997901E-001 -1.3501698233E+001 
