!  2-Port S-parameters saved by WinCal
! VAR MeasName=S-Parameters (CALIBRATED_DATA) read from VNA (P5004A)
! VAR MeasDate=24/04/2024 17:32:14
! VAR NAME=Wafer2_r1_c1_LRS 3
! VAR FILENAME=Wafer2_r1_c1_LRS 3.S2P
! VAR DATE=24/04/2024 17:32:14
! VAR PHYS_PORTS=1,2
! VAR ObjTypeName=DATASET
! VAR IndexType=Frequency
!
# Hz S MA R 50
9000.000 +7.7638475134E-001 +1.6357427070E+001  +2.6430029156E-002 +2.6368347996E+000  +2.6908094631E-002 +1.8795574146E+000  +7.7508078891E-001 +1.6292635298E+001 
4009798.360 +9.5337842533E-001 -3.0378257422E+000  +3.4361709214E-002 +1.7511641426E-001  +3.4732116642E-002 +1.0801809478E-001  +9.5280609500E-001 -2.9470863227E+000 
8010596.719 +9.4272336043E-001 -6.1713180021E-001  +3.4189640849E-002 +5.7339224042E+000  +3.4583188525E-002 +5.5135229902E+000  +9.4306104472E-001 -5.7503922875E-001 
12011395.079 +9.4968012365E-001 -1.5262973174E-002  +3.4750827307E-002 +9.3026845160E+000  +3.5075553664E-002 +8.8742032583E+000  +9.4988406008E-001 +4.5817288123E-003 
16012193.439 +9.5533695633E-001 +1.6747388759E-001  +3.5393427406E-002 +1.2357708351E+001  +3.5571564818E-002 +1.1883216379E+001  +9.5531503189E-001 +1.7948208552E-001 
20012991.798 +9.5996489920E-001 +1.8335312877E-001  +3.6094454064E-002 +1.5248100522E+001  +3.6228811826E-002 +1.4622284491E+001  +9.6000903970E-001 +2.0091102450E-001 
24013790.158 +9.6438739596E-001 +1.1857737284E-001  +3.6857796711E-002 +1.7870497941E+001  +3.6829458439E-002 +1.7259059744E+001  +9.6455812189E-001 +1.3354280834E-001 
28014588.518 +9.6810466612E-001 -3.5366044741E-002  +3.7620383233E-002 +2.0338904342E+001  +3.7515802204E-002 +1.9702859073E+001  +9.6818530674E-001 -2.7830515604E-003 
32015386.877 +9.7209513541E-001 -2.3489717521E-001  +3.8475683018E-002 +2.2705210531E+001  +3.8422333414E-002 +2.2231544704E+001  +9.7217433503E-001 -1.9328570138E-001 
36016185.237 +9.7483710441E-001 -4.9431332454E-001  +3.9398232290E-002 +2.4887951849E+001  +3.9264387628E-002 +2.4408929624E+001  +9.7513173423E-001 -4.6064423809E-001 
40016983.597 +9.7658303818E-001 -8.0012354762E-001  +4.0414257675E-002 +2.6772226469E+001  +4.0253830483E-002 +2.6345878831E+001  +9.7690501482E-001 -7.8453700212E-001 
44017781.956 +9.7773260905E-001 -1.1688378632E+000  +4.1393738971E-002 +2.8553703301E+001  +4.1107576230E-002 +2.8451553917E+001  +9.7799583121E-001 -1.1346516385E+000 
48018580.316 +9.7802630859E-001 -1.5222227363E+000  +4.2447040237E-002 +3.0291704784E+001  +4.2087891496E-002 +3.0280799202E+001  +9.7872913637E-001 -1.4713722104E+000 
52019378.676 +9.7658949917E-001 -1.8971564208E+000  +4.3402724932E-002 +3.1935467082E+001  +4.3041121654E-002 +3.1989365850E+001  +9.7696345542E-001 -1.8513591039E+000 
56020177.035 +9.7432046087E-001 -2.2174775166E+000  +4.4397343330E-002 +3.3338033529E+001  +4.4033256987E-002 +3.3469682629E+001  +9.7468226336E-001 -2.1827489698E+000 
60020975.395 +9.7072855064E-001 -2.5303666980E+000  +4.5322961753E-002 +3.4805209272E+001  +4.4996969858E-002 +3.5068905361E+001  +9.7123441318E-001 -2.4840426739E+000 
64021773.755 +9.6616951403E-001 -2.7354772950E+000  +4.6209947129E-002 +3.6374626445E+001  +4.5903814077E-002 +3.6680442257E+001  +9.6657284342E-001 -2.6854203208E+000 
68022572.114 +9.6155560953E-001 -2.8496179111E+000  +4.7126386677E-002 +3.7849494306E+001  +4.6859788650E-002 +3.8286766102E+001  +9.6158950191E-001 -2.8238493638E+000 
72023370.474 +9.5717587257E-001 -2.8963196832E+000  +4.8065490079E-002 +3.9332122015E+001  +4.8038751883E-002 +3.9845920554E+001  +9.5753482667E-001 -2.8706229882E+000 
76024168.834 +9.5332900465E-001 -2.8633577296E+000  +4.9063981396E-002 +4.0905629757E+001  +4.9071310131E-002 +4.1444769696E+001  +9.5346366889E-001 -2.8345663418E+000 
80024967.193 +9.5022256283E-001 -2.7636042643E+000  +5.0134666193E-002 +4.2361575082E+001  +5.0300807479E-002 +4.2925160851E+001  +9.5046822457E-001 -2.7470652335E+000 
84025765.553 +9.4842400619E-001 -2.6587280835E+000  +5.1235456105E-002 +4.3915798934E+001  +5.1499721016E-002 +4.4322988188E+001  +9.4859644564E-001 -2.6394837686E+000 
88026563.913 +9.4784723695E-001 -2.4757149625E+000  +5.2435993989E-002 +4.5333146637E+001  +5.2877884614E-002 +4.5802967008E+001  +9.4775950951E-001 -2.4821757581E+000 
92027362.272 +9.4841303973E-001 -2.3464450004E+000  +5.3862828055E-002 +4.6773467959E+001  +5.4340745911E-002 +4.6978907962E+001  +9.4784949932E-001 -2.3500756842E+000 
96028160.632 +9.4907692762E-001 -2.2337792968E+000  +5.5303533395E-002 +4.8035248847E+001  +5.5857638332E-002 +4.8121688384E+001  +9.4877173075E-001 -2.2186322805E+000 
100028958.992 +9.5167929057E-001 -2.1377360614E+000  +5.6877447080E-002 +4.9327745876E+001  +5.7322141188E-002 +4.9186027221E+001  +9.5119496650E-001 -2.1246101079E+000 
104029757.351 +9.5474617025E-001 -2.0838260992E+000  +5.8390608046E-002 +5.0441979823E+001  +5.8983954500E-002 +5.0230788190E+001  +9.5408664245E-001 -2.0520113477E+000 
108030555.711 +9.5821438387E-001 -2.0655631522E+000  +6.0058575723E-002 +5.1490859579E+001  +6.0588929263E-002 +5.1149605072E+001  +9.5757587746E-001 -2.0399350135E+000 
112031354.071 +9.6218912304E-001 -2.1298252965E+000  +6.1846512901E-002 +5.2423832354E+001  +6.2249762186E-002 +5.1915632743E+001  +9.6163696451E-001 -2.0891803369E+000 
116032152.430 +9.6635267958E-001 -2.2325800153E+000  +6.3572240737E-002 +5.3308404371E+001  +6.3862126174E-002 +5.2681110125E+001  +9.6571019360E-001 -2.2030688121E+000 
120032950.790 +9.7050389615E-001 -2.4294909043E+000  +6.5534448856E-002 +5.3952846522E+001  +6.5641089844E-002 +5.3438522502E+001  +9.7012268999E-001 -2.3706617137E+000 
124033749.150 +9.7474578052E-001 -2.6859849120E+000  +6.7430930630E-002 +5.4603961313E+001  +6.7408691853E-002 +5.3976671031E+001  +9.7407305313E-001 -2.6241425828E+000 
128034547.510 +9.7798634522E-001 -3.0224493570E+000  +6.9254537506E-002 +5.4988377361E+001  +6.9090011373E-002 +5.4424491815E+001  +9.7750826981E-001 -2.9415504916E+000 
132035345.869 +9.7984059607E-001 -3.4178109616E+000  +7.1134723157E-002 +5.5310992410E+001  +7.0675648076E-002 +5.4851564100E+001  +9.7967108718E-001 -3.3366931110E+000 
136036144.229 +9.8055000456E-001 -3.8690267119E+000  +7.2828978435E-002 +5.5545538732E+001  +7.2330152432E-002 +5.5175134203E+001  +9.8053989089E-001 -3.7659032360E+000 
140036942.589 +9.7943756877E-001 -4.3065567138E+000  +7.4492200883E-002 +5.5691505008E+001  +7.3786843302E-002 +5.5449275686E+001  +9.7974330008E-001 -4.2081332000E+000 
144037740.948 +9.7685440841E-001 -4.7315479630E+000  +7.5887971818E-002 +5.5828067820E+001  +7.5080024489E-002 +5.5638712372E+001  +9.7734793367E-001 -4.6138382863E+000 
148038539.308 +9.7270978940E-001 -5.0986156758E+000  +7.7114643555E-002 +5.5994742723E+001  +7.6363247365E-002 +5.6013877342E+001  +9.7312100856E-001 -4.9890760260E+000 
152039337.668 +9.6740900631E-001 -5.4171769283E+000  +7.8180741947E-002 +5.6197008715E+001  +7.7433773063E-002 +5.6271000025E+001  +9.6787213647E-001 -5.2994150810E+000 
156040136.027 +9.6108488328E-001 -5.5933581759E+000  +7.9286718158E-002 +5.6546239888E+001  +7.8552915098E-002 +5.6725902994E+001  +9.6198282384E-001 -5.4986685390E+000 
160040934.387 +9.5510574957E-001 -5.6771960819E+000  +8.0258865436E-002 +5.6889714297E+001  +7.9702954636E-002 +5.7305044290E+001  +9.5585688629E-001 -5.5600627704E+000 
164041732.747 +9.4979311817E-001 -5.6387936135E+000  +8.1276003543E-002 +5.7481843320E+001  +8.0845126127E-002 +5.7920722036E+001  +9.5055931215E-001 -5.5606416525E+000 
168042531.106 +9.4522575767E-001 -5.5598171909E+000  +8.2331226954E-002 +5.8131652370E+001  +8.2067845761E-002 +5.8607082004E+001  +9.4598679491E-001 -5.4748476439E+000 
172043329.466 +9.4204852800E-001 -5.3899250778E+000  +8.3532003942E-002 +5.8762712773E+001  +8.3501491029E-002 +5.9259934463E+001  +9.4267757288E-001 -5.3204803726E+000 
176044127.826 +9.3990485730E-001 -5.1877158854E+000  +8.4933346717E-002 +5.9433141657E+001  +8.5147603467E-002 +5.9968183552E+001  +9.4051487081E-001 -5.1353834444E+000 
180044926.185 +9.3923706667E-001 -4.9913158265E+000  +8.6424774244E-002 +6.0108253490E+001  +8.6748032094E-002 +6.0510283894E+001  +9.3994034803E-001 -4.9440863145E+000 
184045724.545 +9.4007343232E-001 -4.7806441810E+000  +8.7980943338E-002 +6.0769027908E+001  +8.8623261617E-002 +6.1146174087E+001  +9.4036396979E-001 -4.7316959436E+000 
188046522.905 +9.4197729534E-001 -4.5979530925E+000  +8.9599909268E-002 +6.1369597048E+001  +9.0521404683E-002 +6.1610191354E+001  +9.4187749010E-001 -4.5685013428E+000 
192047321.264 +9.4467483999E-001 -4.4579026715E+000  +9.1525861222E-002 +6.1936360884E+001  +9.2345060309E-002 +6.2062893001E+001  +9.4448085586E-001 -4.4223751089E+000 
196048119.624 +9.4836675491E-001 -4.3602223973E+000  +9.3455889269E-002 +6.2480433211E+001  +9.4300913902E-002 +6.2388094645E+001  +9.4788277018E-001 -4.3336787793E+000 
200048917.984 +9.5274132125E-001 -4.3254125919E+000  +9.5417068954E-002 +6.2880819179E+001  +9.6326963667E-002 +6.2780682490E+001  +9.5214507048E-001 -4.2795667203E+000 
204049716.343 +9.5755167170E-001 -4.3595346504E+000  +9.7487468499E-002 +6.3311877483E+001  +9.8258641641E-002 +6.2987446860E+001  +9.5669714585E-001 -4.3102734091E+000 
208050514.703 +9.6287411008E-001 -4.4764527667E+000  +9.9740314968E-002 +6.3655958968E+001  +1.0041596671E-001 +6.3197970816E+001  +9.6169657989E-001 -4.4167062473E+000 
212051313.063 +9.6795512855E-001 -4.6593844299E+000  +1.0200222588E-001 +6.3842992030E+001  +1.0254791522E-001 +6.3352868103E+001  +9.6694739600E-001 -4.5948041611E+000 
216052111.422 +9.7254602378E-001 -4.9591839293E+000  +1.0434902167E-001 +6.3974695388E+001  +1.0458635794E-001 +6.3412372553E+001  +9.7158593934E-001 -4.8516835451E+000 
220052909.782 +9.7676158266E-001 -5.3141084311E+000  +1.0652709392E-001 +6.3946559971E+001  +1.0659414788E-001 +6.3418729572E+001  +9.7550677745E-001 -5.2018845531E+000 
224053708.142 +9.7954021144E-001 -5.7397792230E+000  +1.0878379806E-001 +6.3811885666E+001  +1.0854758890E-001 +6.3291621719E+001  +9.7850564300E-001 -5.6236507261E+000 
228054506.501 +9.8088703668E-001 -6.2441927121E+000  +1.1088755010E-001 +6.3578532892E+001  +1.1039806115E-001 +6.3105537445E+001  +9.8026321339E-001 -6.1020978992E+000 
232055304.861 +9.8018052670E-001 -6.7638370197E+000  +1.1277386827E-001 +6.3248741427E+001  +1.1191109977E-001 +6.2908977119E+001  +9.7980404376E-001 -6.6068819167E+000 
236056103.221 +9.7742628154E-001 -7.2609301110E+000  +1.1416838148E-001 +6.3000503385E+001  +1.1319458322E-001 +6.2643847220E+001  +9.7709193472E-001 -7.0955533602E+000 
240056901.580 +9.7259785948E-001 -7.7399894098E+000  +1.1536888012E-001 +6.2692989654E+001  +1.1424378059E-001 +6.2494637807E+001  +9.7283132584E-001 -7.5549725164E+000 
244057699.940 +9.6642425223E-001 -8.0969128012E+000  +1.1628192778E-001 +6.2471825860E+001  +1.1524552855E-001 +6.2497157444E+001  +9.6712421161E-001 -7.9161860550E+000 
248058498.300 +9.5929828143E-001 -8.3502272327E+000  +1.1697860163E-001 +6.2423317927E+001  +1.1591566578E-001 +6.2548300228E+001  +9.6022946339E-001 -8.1710846637E+000 
252059296.659 +9.5190250831E-001 -8.4842649883E+000  +1.1769539392E-001 +6.2479676917E+001  +1.1657387661E-001 +6.2748337422E+001  +9.5293098609E-001 -8.3063092654E+000 
256060095.019 +9.4475968900E-001 -8.4766619712E+000  +1.1828716356E-001 +6.2691161579E+001  +1.1742857475E-001 +6.3024435123E+001  +9.4593305265E-001 -8.3174167667E+000 
260060893.379 +9.3846312114E-001 -8.3743163480E+000  +1.1907379696E-001 +6.3038585609E+001  +1.1848375481E-001 +6.3507717122E+001  +9.4002832292E-001 -8.2275031826E+000 
264061691.738 +9.3404405092E-001 -8.1775545036E+000  +1.1998772413E-001 +6.3455858744E+001  +1.1958889440E-001 +6.3954420328E+001  +9.3519175671E-001 -8.0492035573E+000 
268062490.098 +9.3077929300E-001 -7.9410605721E+000  +1.2116406555E-001 +6.3922298263E+001  +1.2115030298E-001 +6.4489168563E+001  +9.3203638958E-001 -7.8166682823E+000 
272063288.458 +9.2921247943E-001 -7.6602114081E+000  +1.2244896280E-001 +6.4418614720E+001  +1.2276962591E-001 +6.4972212836E+001  +9.3016540388E-001 -7.5568846312E+000 
276064086.817 +9.2924286248E-001 -7.3708873785E+000  +1.2400714796E-001 +6.4934147963E+001  +1.2457278718E-001 +6.5398111479E+001  +9.3016999322E-001 -7.2952105100E+000 
280064885.177 +9.3066181500E-001 -7.0989854322E+000  +1.2580827551E-001 +6.5381633916E+001  +1.2662927258E-001 +6.5768939588E+001  +9.3163184312E-001 -7.0353924592E+000 
284065683.537 +9.3358787722E-001 -6.8917031385E+000  +1.2771016203E-001 +6.5793310034E+001  +1.2876569304E-001 +6.6082994752E+001  +9.3373199026E-001 -6.8326955824E+000 
288066481.896 +9.3755004779E-001 -6.7094075873E+000  +1.2978035667E-001 +6.6179484236E+001  +1.3093029407E-001 +6.6331343850E+001  +9.3750425867E-001 -6.6539002849E+000 
292067280.256 +9.4214433915E-001 -6.6095901581E+000  +1.3192375237E-001 +6.6468330968E+001  +1.3315297927E-001 +6.6504934915E+001  +9.4188602935E-001 -6.5462266234E+000 
296068078.616 +9.4778458152E-001 -6.5826017669E+000  +1.3439744329E-001 +6.6751278222E+001  +1.3557630787E-001 +6.6641880693E+001  +9.4708324512E-001 -6.5147215666E+000 
300068876.975 +9.5376322683E-001 -6.6309572819E+000  +1.3681070192E-001 +6.6940896074E+001  +1.3791446790E-001 +6.6674589495E+001  +9.5300685363E-001 -6.5608276118E+000 
304069675.335 +9.6001970369E-001 -6.7819855197E+000  +1.3937005164E-001 +6.7067251190E+001  +1.4030952619E-001 +6.6704584981E+001  +9.5888232245E-001 -6.7032812346E+000 
308070473.695 +9.6587096884E-001 -7.0383388540E+000  +1.4210100267E-001 +6.7043581460E+001  +1.4279979187E-001 +6.6617732140E+001  +9.6457270148E-001 -6.9284325960E+000 
312071272.054 +9.7106520450E-001 -7.3827548569E+000  +1.4479061836E-001 +6.6909970470E+001  +1.4513281887E-001 +6.6445051063E+001  +9.6976354248E-001 -7.2586870071E+000 
316072070.414 +9.7535953009E-001 -7.8261392735E+000  +1.4743003344E-001 +6.6660036886E+001  +1.4748601389E-001 +6.6163216804E+001  +9.7399098401E-001 -7.6909631551E+000 
320072868.774 +9.7779356364E-001 -8.3525313699E+000  +1.4974882990E-001 +6.6279536097E+001  +1.4951810896E-001 +6.5824799763E+001  +9.7683306046E-001 -8.1904989232E+000 
324073667.133 +9.7864659951E-001 -8.9243461437E+000  +1.5188625675E-001 +6.5858124546E+001  +1.5127862165E-001 +6.5433317763E+001  +9.7764272374E-001 -8.7308329048E+000 
328074465.493 +9.7704580823E-001 -9.5054762166E+000  +1.5368809619E-001 +6.5376791665E+001  +1.5267355336E-001 +6.5018771684E+001  +9.7651780103E-001 -9.2836251521E+000 
332075263.853 +9.7341012224E-001 -1.0062631968E+001  +1.5491404423E-001 +6.4900535340E+001  +1.5379522678E-001 +6.4598650210E+001  +9.7299653652E-001 -9.8268135347E+000 
336076062.212 +9.6734619157E-001 -1.0544243979E+001  +1.5564972957E-001 +6.4466938680E+001  +1.5451360435E-001 +6.4286814228E+001  +9.6749647352E-001 -1.0305307258E+001 
340076860.572 +9.5994205191E-001 -1.0936052718E+001  +1.5611094251E-001 +6.4144868534E+001  +1.5488159583E-001 +6.4081432850E+001  +9.6036572701E-001 -1.0696629385E+001 
344077658.932 +9.5144899080E-001 -1.1190104549E+001  +1.5636486221E-001 +6.3962436893E+001  +1.5502857528E-001 +6.4034155132E+001  +9.5245877690E-001 -1.0945961239E+001 
348078457.291 +9.4290937693E-001 -1.1281184927E+001  +1.5640584971E-001 +6.3985359325E+001  +1.5525513697E-001 +6.4163615215E+001  +9.4393934828E-001 -1.1042524511E+001 
352079255.651 +9.3457359752E-001 -1.1225869742E+001  +1.5665211314E-001 +6.4150905934E+001  +1.5552948071E-001 +6.4415479604E+001  +9.3592374293E-001 -1.1017947127E+001 
356080054.011 +9.2782062659E-001 -1.1080291364E+001  +1.5707568547E-001 +6.4436974627E+001  +1.5614025985E-001 +6.4799297769E+001  +9.2916340827E-001 -1.0871285802E+001 
360080852.370 +9.2236723383E-001 -1.0820468712E+001  +1.5769363874E-001 +6.4837845630E+001  +1.5715171727E-001 +6.5262083563E+001  +9.2392720314E-001 -1.0633932174E+001 
364081650.730 +9.1912250108E-001 -1.0477386972E+001  +1.5871826261E-001 +6.5273609637E+001  +1.5838579748E-001 +6.5743928297E+001  +9.2059301661E-001 -1.0319494484E+001 
368082449.090 +9.1764639506E-001 -1.0139854769E+001  +1.6004999348E-001 +6.5724123152E+001  +1.6000778304E-001 +6.6140113843E+001  +9.1873966236E-001 -9.9998733177E+000 
372083247.449 +9.1757390526E-001 -9.7965859856E+000  +1.6154628173E-001 +6.6138726993E+001  +1.6193493981E-001 +6.6554822571E+001  +9.1893200343E-001 -9.6748971137E+000 
376084045.809 +9.1960789910E-001 -9.4791939007E+000  +1.6350932683E-001 +6.6551337847E+001  +1.6412268818E-001 +6.6929397994E+001  +9.2069314098E-001 -9.3576711272E+000 
380084844.169 +9.2300092661E-001 -9.1990745998E+000  +1.6557391578E-001 +6.6904025009E+001  +1.6651825318E-001 +6.7231097215E+001  +9.2373634966E-001 -9.1010498044E+000 
384085642.529 +9.2749607463E-001 -8.9813318720E+000  +1.6780867362E-001 +6.7246295002E+001  +1.6904527047E-001 +6.7451175112E+001  +9.2814744883E-001 -8.8979426974E+000 
388086440.888 +9.3320801850E-001 -8.8554563671E+000  +1.7028102007E-001 +6.7495881234E+001  +1.7154692716E-001 +6.7582476350E+001  +9.3329988473E-001 -8.7813171168E+000 
392087239.248 +9.3967979943E-001 -8.8128406534E+000  +1.7310307114E-001 +6.7673233903E+001  +1.7433009245E-001 +6.7680082136E+001  +9.3931931496E-001 -8.7248259658E+000 
396088037.608 +9.4641025473E-001 -8.8795322088E+000  +1.7585257987E-001 +6.7774240015E+001  +1.7709422689E-001 +6.7645338093E+001  +9.4603614383E-001 -8.7801884354E+000 
400088835.967 +9.5388437479E-001 -9.0291846604E+000  +1.7876468780E-001 +6.7825267055E+001  +1.7986902643E-001 +6.7568322534E+001  +9.5266792386E-001 -8.9279856176E+000 
404089634.327 +9.6047398684E-001 -9.3086100815E+000  +1.8193134576E-001 +6.7690306196E+001  +1.8270371208E-001 +6.7383977692E+001  +9.5895500314E-001 -9.1996168204E+000 
408090432.687 +9.6633889123E-001 -9.6968141990E+000  +1.8493662578E-001 +6.7481858831E+001  +1.8548070790E-001 +6.7115360978E+001  +9.6490057370E-001 -9.5621568192E+000 
412091231.046 +9.7109396605E-001 -1.0177476339E+001  +1.8788832251E-001 +6.7121813410E+001  +1.8803715424E-001 +6.6744291442E+001  +9.6953922273E-001 -1.0021161157E+001 
416092029.406 +9.7413954100E-001 -1.0769889873E+001  +1.9047735410E-001 +6.6643452026E+001  +1.9036381100E-001 +6.6287066954E+001  +9.7257426854E-001 -1.0564151759E+001 
420092827.766 +9.7500831890E-001 -1.1408582837E+001  +1.9273312051E-001 +6.6102243884E+001  +1.9230663016E-001 +6.5728515924E+001  +9.7361443694E-001 -1.1168369887E+001 
424093626.125 +9.7305596777E-001 -1.2048385019E+001  +1.9431380497E-001 +6.5476758042E+001  +1.9347535567E-001 +6.5180330998E+001  +9.7207078439E-001 -1.1793613155E+001 
428094424.485 +9.6869399204E-001 -1.2688096344E+001  +1.9532300294E-001 +6.4878507163E+001  +1.9435440188E-001 +6.4621713001E+001  +9.6820352972E-001 -1.2418873230E+001 
432095222.845 +9.6216611908E-001 -1.3216436128E+001  +1.9568030924E-001 +6.4340966672E+001  +1.9461700935E-001 +6.4196975353E+001  +9.6186037675E-001 -1.2925232927E+001 
436096021.204 +9.5384962509E-001 -1.3648634555E+001  +1.9557401033E-001 +6.3960037077E+001  +1.9436306697E-001 +6.3902307768E+001  +9.5383059059E-001 -1.3346013248E+001 
440096819.564 +9.4417735866E-001 -1.3925392875E+001  +1.9532975134E-001 +6.3722809185E+001  +1.9388308110E-001 +6.3763081847E+001  +9.4487858355E-001 -1.3620255526E+001 
444097617.924 +9.3423385566E-001 -1.4034350599E+001  +1.9468751716E-001 +6.3730158231E+001  +1.9351350182E-001 +6.3797721246E+001  +9.3544105784E-001 -1.3745028035E+001 
448098416.283 +9.2501431494E-001 -1.3978610243E+001  +1.9435585510E-001 +6.3839522949E+001  +1.9334453648E-001 +6.4021851600E+001  +9.2644062067E-001 -1.3709750682E+001 
452099214.643 +9.1734103392E-001 -1.3791317668E+001  +1.9424055159E-001 +6.4095431705E+001  +1.9341123396E-001 +6.4363614953E+001  +9.1887198150E-001 -1.3530093225E+001 
456100013.003 +9.1104924019E-001 -1.3494406347E+001  +1.9450355705E-001 +6.4491222906E+001  +1.9383651069E-001 +6.4786583596E+001  +9.1265700832E-001 -1.3258472610E+001 
