!  2-Port S-parameters saved by WinCal
! VAR MeasName=S-Parameters (CALIBRATED_DATA) read from VNA (P5004A)
! VAR MeasDate=24/04/2024 15:56:41
! VAR NAME=Wafer2_r1_c2_pristine 2
! VAR FILENAME=Wafer2_r1_c2_pristine 2.S2P
! VAR DATE=24/04/2024 15:56:41
! VAR PHYS_PORTS=1,2
! VAR ObjTypeName=DATASET
! VAR IndexType=Frequency
!
# Hz S MA R 50
9000.000 +7.9975193116E-001 +1.7305856417E+001  +4.2425237874E-006 +9.1627277951E+001  +3.1389178079E-005 +6.6664851281E+000  +7.9893643745E-001 +1.7296393727E+001 
4009798.360 +9.8732826466E-001 -3.1368819181E+000  +1.8905490647E-003 +8.6195034809E+001  +1.8887352005E-003 +8.6472939478E+001  +9.8702065608E-001 -3.0566896354E+000 
8010596.719 +9.7584315377E-001 -6.2830376406E-001  +3.6959304351E-003 +8.8597221570E+001  +3.7388555409E-003 +8.8514861460E+001  +9.7656068837E-001 -6.0639860728E-001 
12011395.079 +9.8333860272E-001 -7.4369074572E-003  +5.5720755103E-003 +8.9186515291E+001  +5.6093587460E-003 +8.8832627427E+001  +9.8386824273E-001 -3.0801579187E-003 
16012193.439 +9.8948587520E-001 +1.7926856937E-001  +7.4430401911E-003 +8.9284266590E+001  +7.4876132593E-003 +8.8834432875E+001  +9.8974406154E-001 +1.7094405868E-001 
20012991.798 +9.9461679571E-001 +2.0308112690E-001  +9.3268679778E-003 +8.9321478734E+001  +9.3477812726E-003 +8.8738239380E+001  +9.9476625017E-001 +1.9050098216E-001 
24013790.158 +9.9947157763E-001 +1.3057353541E-001  +1.1257356341E-002 +8.9294882944E+001  +1.1243776385E-002 +8.8666846867E+001  +9.9954276929E-001 +1.2814438206E-001 
28014588.518 +1.0035122753E+000 -2.9301052296E-002  +1.3192795914E-002 +8.9202920369E+001  +1.3127863547E-002 +8.8621734957E+001  +1.0034679805E+000 -2.0310847288E-002 
32015386.877 +1.0077263379E+000 -2.3186651512E-001  +1.5256373610E-002 +8.8676470416E+001  +1.5101916208E-002 +8.8021071133E+001  +1.0076107291E+000 -2.1664454311E-001 
36016185.237 +1.0107290628E+000 -4.9145701772E-001  +1.7154966433E-002 +8.8494914162E+001  +1.7065081015E-002 +8.8146473886E+001  +1.0107775816E+000 -4.8430753078E-001 
40016983.597 +1.0127333835E+000 -8.1732865042E-001  +1.9105735213E-002 +8.8240262673E+001  +1.8943533508E-002 +8.7568976622E+001  +1.0128222138E+000 -8.0738147695E-001 
44017781.956 +1.0139079802E+000 -1.1877936877E+000  +2.1072177788E-002 +8.7830469349E+001  +2.0861176993E-002 +8.7437972417E+001  +1.0138432548E+000 -1.1671928985E+000 
48018580.316 +1.0142373964E+000 -1.5606319571E+000  +2.2943163233E-002 +8.7329589750E+001  +2.2792692227E-002 +8.7135704559E+001  +1.0145863628E+000 -1.5292344694E+000 
52019378.676 +1.0128019302E+000 -1.9587716786E+000  +2.4765777805E-002 +8.6624617567E+001  +2.4587771847E-002 +8.6644464770E+001  +1.0125782328E+000 -1.9050655906E+000 
56020177.035 +1.0101695542E+000 -2.2719924620E+000  +2.6568442427E-002 +8.6421204076E+001  +2.6389724739E-002 +8.6400546091E+001  +1.0102056078E+000 -2.2442281303E+000 
60020975.395 +1.0063751613E+000 -2.5988312428E+000  +2.8377229515E-002 +8.5920954364E+001  +2.8091787438E-002 +8.6093045800E+001  +1.0065400619E+000 -2.5408460531E+000 
64021773.755 +1.0014628792E+000 -2.8117066528E+000  +2.9992077723E-002 +8.5763949810E+001  +2.9815876549E-002 +8.6115532072E+001  +1.0015648726E+000 -2.7577429460E+000 
68022572.114 +9.9645267491E-001 -2.9399204265E+000  +3.1665553559E-002 +8.5451364686E+001  +3.1455710447E-002 +8.6030540242E+001  +9.9618846212E-001 -2.8954075319E+000 
72023370.474 +9.9177456686E-001 -2.9761312179E+000  +3.3287204018E-002 +8.5355317264E+001  +3.3265850963E-002 +8.5767111604E+001  +9.9189160217E-001 -2.9369390765E+000 
76024168.834 +9.8755259196E-001 -2.9359335513E+000  +3.4954526726E-002 +8.5417818599E+001  +3.4914906159E-002 +8.5917415143E+001  +9.8765836763E-001 -2.9004998591E+000 
80024967.193 +9.8418188556E-001 -2.8404962286E+000  +3.6585884721E-002 +8.5511544595E+001  +3.6645482208E-002 +8.6065461514E+001  +9.8434490807E-001 -2.8078735238E+000 
84025765.553 +9.8227662531E-001 -2.7219346315E+000  +3.8243654852E-002 +8.5661565563E+001  +3.8532695892E-002 +8.6258099117E+001  +9.8241086105E-001 -2.7087676737E+000 
88026563.913 +9.8142580880E-001 -2.5493083848E+000  +4.0040029276E-002 +8.5804072256E+001  +4.0361106315E-002 +8.6290174832E+001  +9.8143443352E-001 -2.5399468202E+000 
92027362.272 +9.8177878267E-001 -2.4005302511E+000  +4.1816522459E-002 +8.6049059290E+001  +4.2186669381E-002 +8.6296828828E+001  +9.8177119908E-001 -2.4015166783E+000 
96028160.632 +9.8272431611E-001 -2.2819008256E+000  +4.3589213237E-002 +8.6225163487E+001  +4.3964173673E-002 +8.6349526654E+001  +9.8256423931E-001 -2.2741610489E+000 
100028958.992 +9.8557392992E-001 -2.1824084618E+000  +4.5532570837E-002 +8.6301966034E+001  +4.5960576235E-002 +8.6290205016E+001  +9.8524748835E-001 -2.1864272224E+000 
104029757.351 +9.8866635969E-001 -2.1244692960E+000  +4.7484813927E-002 +8.6372532141E+001  +4.7906732907E-002 +8.6297734461E+001  +9.8829277817E-001 -2.1062749883E+000 
108030555.711 +9.9245201716E-001 -2.0974843664E+000  +4.9468410100E-002 +8.6495262837E+001  +4.9890752922E-002 +8.6123986159E+001  +9.9206886849E-001 -2.0959920173E+000 
112031354.071 +9.9683246875E-001 -2.1634270470E+000  +5.1458030904E-002 +8.6471870902E+001  +5.1818330432E-002 +8.5957976684E+001  +9.9649276009E-001 -2.1497385417E+000 
116032152.430 +1.0015817661E+000 -2.2747504209E+000  +5.3604873244E-002 +8.6489880795E+001  +5.3871654984E-002 +8.5856163383E+001  +1.0008438009E+000 -2.2613648439E+000 
120032950.790 +1.0062092030E+000 -2.4746453423E+000  +5.5768391421E-002 +8.6276001881E+001  +5.5805569693E-002 +8.5647356340E+001  +1.0054315979E+000 -2.4346838005E+000 
124033749.150 +1.0104407013E+000 -2.7488239686E+000  +5.7950690187E-002 +8.6034028668E+001  +5.7873153571E-002 +8.5489083509E+001  +1.0098291151E+000 -2.7168411801E+000 
128034547.510 +1.0141018983E+000 -3.0863814672E+000  +5.9997429817E-002 +8.5755357795E+001  +5.9887598621E-002 +8.5104425263E+001  +1.0132589229E+000 -3.0220955914E+000 
132035345.869 +1.0159948998E+000 -3.5016773986E+000  +6.2163583498E-002 +8.5243547049E+001  +6.1776611058E-002 +8.4799328839E+001  +1.0155550646E+000 -3.4325353908E+000 
136036144.229 +1.0168924823E+000 -3.9554597847E+000  +6.4118217483E-002 +8.4730716119E+001  +6.3647991738E-002 +8.4322523818E+001  +1.0164696027E+000 -3.8761603590E+000 
140036942.589 +1.0157191523E+000 -4.4208004959E+000  +6.6065373828E-002 +8.4095382235E+001  +6.5428205881E-002 +8.3865218727E+001  +1.0154783518E+000 -4.3192909846E+000 
144037740.948 +1.0131653950E+000 -4.8444260591E+000  +6.7709790837E-002 +8.3622661197E+001  +6.7004731171E-002 +8.3498702943E+001  +1.0129451544E+000 -4.7415414540E+000 
148038539.308 +1.0083949169E+000 -5.2199660334E+000  +6.9333662162E-002 +8.3179076705E+001  +6.8491159707E-002 +8.3144758398E+001  +1.0085865695E+000 -5.1278259507E+000 
152039337.668 +1.0027345729E+000 -5.5486916008E+000  +7.0658523902E-002 +8.2701975248E+001  +6.9930779097E-002 +8.2831861867E+001  +1.0028985252E+000 -5.4360456015E+000 
156040136.027 +9.9595750638E-001 -5.7313581979E+000  +7.1975920091E-002 +8.2541279522E+001  +7.1266589945E-002 +8.2745577095E+001  +9.9656353154E-001 -5.6357359454E+000 
160040934.387 +9.8966755624E-001 -5.8092236878E+000  +7.3108959129E-002 +8.2372820544E+001  +7.2559979693E-002 +8.2766141530E+001  +9.9015040294E-001 -5.7061250825E+000 
164041732.747 +9.8389946833E-001 -5.7922765050E+000  +7.4394103234E-002 +8.2354509091E+001  +7.3882975570E-002 +8.2799432871E+001  +9.8431008912E-001 -5.7065197539E+000 
168042531.106 +9.7871691612E-001 -5.7009079634E+000  +7.5765385108E-002 +8.2405660822E+001  +7.5562774915E-002 +8.3061690297E+001  +9.7953328796E-001 -5.6068341545E+000 
172043329.466 +9.7528958672E-001 -5.5247397945E+000  +7.7207956749E-002 +8.2658117075E+001  +7.7104668505E-002 +8.3208198003E+001  +9.7587168347E-001 -5.4508067281E+000 
176044127.826 +9.7303649158E-001 -5.3146373433E+000  +7.8699345831E-002 +8.2861143515E+001  +7.8874416103E-002 +8.3416230726E+001  +9.7374114065E-001 -5.2512244763E+000 
180044926.185 +9.7240991207E-001 -5.1040583982E+000  +8.0360326925E-002 +8.3071415619E+001  +8.0795700110E-002 +8.3547634644E+001  +9.7305102103E-001 -5.0628395175E+000 
184045724.545 +9.7316851591E-001 -4.8966642314E+000  +8.2150379427E-002 +8.3286357774E+001  +8.2668283944E-002 +8.3684080038E+001  +9.7357189807E-001 -4.8483426856E+000 
188046522.905 +9.7492311847E-001 -4.6997509180E+000  +8.3950344947E-002 +8.3428980717E+001  +8.4674432658E-002 +8.3734441689E+001  +9.7512128027E-001 -4.6738374628E+000 
192047321.264 +9.7792766282E-001 -4.5564243363E+000  +8.5998113728E-002 +8.3623116971E+001  +8.6693951216E-002 +8.3794140850E+001  +9.7805080908E-001 -4.5272566127E+000 
196048119.624 +9.8179947391E-001 -4.4515750918E+000  +8.7983642471E-002 +8.3819909687E+001  +8.8854893327E-002 +8.3745527824E+001  +9.8175178449E-001 -4.4348410470E+000 
200048917.984 +9.8683733013E-001 -4.4159970328E+000  +9.0128810188E-002 +8.3837918416E+001  +9.1025021151E-002 +8.3690626610E+001  +9.8624922315E-001 -4.3978132795E+000 
204049716.343 +9.9189659920E-001 -4.4472087372E+000  +9.2390569946E-002 +8.3840273166E+001  +9.3132795742E-002 +8.3545264041E+001  +9.9121069413E-001 -4.4215890652E+000 
208050514.703 +9.9756330474E-001 -4.5667236802E+000  +9.4728147239E-002 +8.3840569189E+001  +9.5349418391E-002 +8.3457756066E+001  +9.9654398120E-001 -4.5233860928E+000 
212051313.063 +1.0031338824E+000 -4.7648568305E+000  +9.7148297353E-002 +8.3735075314E+001  +9.7569924769E-002 +8.3238365848E+001  +1.0020430650E+000 -4.7186965348E+000 
216052111.422 +1.0081977397E+000 -5.0614007698E+000  +9.9628664666E-002 +8.3449915532E+001  +9.9786203734E-002 +8.2898387283E+001  +1.0071025339E+000 -4.9891303345E+000 
220052909.782 +1.0126023676E+000 -5.4192612679E+000  +1.0195426458E-001 +8.3133374219E+001  +1.0187653795E-001 +8.2609344625E+001  +1.0112279110E+000 -5.3528270145E+000 
224053708.142 +1.0156928072E+000 -5.8788638615E+000  +1.0437212569E-001 +8.2662814867E+001  +1.0412964432E-001 +8.2196627012E+001  +1.0143403996E+000 -5.7866204265E+000 
228054506.501 +1.0169987373E+000 -6.3868273894E+000  +1.0659987231E-001 +8.2112306849E+001  +1.0592752712E-001 +8.1658965632E+001  +1.0162185888E+000 -6.2689674949E+000 
232055304.861 +1.0162226368E+000 -6.9252918325E+000  +1.0845894361E-001 +8.1520003350E+001  +1.0770108388E-001 +8.1156956804E+001  +1.0155724206E+000 -6.7900761760E+000 
236056103.221 +1.0132996452E+000 -7.4450781954E+000  +1.1005827650E-001 +8.0895183557E+001  +1.0904758441E-001 +8.0635550045E+001  +1.0126604230E+000 -7.2894899975E+000 
240056901.580 +1.0083015276E+000 -7.9326563848E+000  +1.1138079065E-001 +8.0319471297E+001  +1.1035347932E-001 +8.0144385984E+001  +1.0080264479E+000 -7.7617896525E+000 
244057699.940 +1.0018078905E+000 -8.2936114902E+000  +1.1249982260E-001 +7.9846095127E+001  +1.1135988402E-001 +7.9832723231E+001  +1.0018296094E+000 -8.1290110336E+000 
248058498.300 +9.9408926225E-001 -8.5612860849E+000  +1.1323786300E-001 +7.9504615608E+001  +1.1225075925E-001 +7.9629852759E+001  +9.9446294352E-001 -8.3863728073E+000 
252059296.659 +9.8609144701E-001 -8.6889473418E+000  +1.1406144987E-001 +7.9356209157E+001  +1.1308232080E-001 +7.9612163727E+001  +9.8657870851E-001 -8.5135998652E+000 
256060095.019 +9.7861926566E-001 -8.6859987851E+000  +1.1487163893E-001 +7.9268485786E+001  +1.1395356836E-001 +7.9660971228E+001  +9.7917771676E-001 -8.5250935157E+000 
260060893.379 +9.7165127670E-001 -8.5833977617E+000  +1.1568875750E-001 +7.9361052635E+001  +1.1505637044E-001 +7.9867989502E+001  +9.7303412179E-001 -8.4273828461E+000 
264061691.738 +9.6680878996E-001 -8.3820943636E+000  +1.1661041455E-001 +7.9615322932E+001  +1.1635135643E-001 +8.0132280179E+001  +9.6790104876E-001 -8.2493137518E+000 
268062490.098 +9.6324254885E-001 -8.1297215428E+000  +1.1804014876E-001 +7.9843379669E+001  +1.1784312681E-001 +8.0451898618E+001  +9.6453007852E-001 -8.0032835973E+000 
272063288.458 +9.6156630530E-001 -7.8381932269E+000  +1.1944243075E-001 +8.0119310677E+001  +1.1960902927E-001 +8.0686705403E+001  +9.6263739661E-001 -7.7243693797E+000 
276064086.817 +9.6153298077E-001 -7.5427988528E+000  +1.2104372679E-001 +8.0424803333E+001  +1.2155352433E-001 +8.0897542649E+001  +9.6242003502E-001 -7.4611687788E+000 
280064885.177 +9.6300748151E-001 -7.2561745002E+000  +1.2296499664E-001 +8.0684800055E+001  +1.2368243924E-001 +8.1110084243E+001  +9.6393231340E-001 -7.1963748207E+000 
284065683.537 +9.6596515988E-001 -7.0343085766E+000  +1.2492314985E-001 +8.0911114766E+001  +1.2597525729E-001 +8.1211659447E+001  +9.6644827255E-001 -6.9847435390E+000 
288066481.896 +9.7013673543E-001 -6.8548647961E+000  +1.2712173844E-001 +8.1058545606E+001  +1.2824609281E-001 +8.1245776734E+001  +9.7044107641E-001 -6.7963993459E+000 
292067280.256 +9.7524815649E-001 -6.7502806870E+000  +1.2937562077E-001 +8.1212959172E+001  +1.3056515785E-001 +8.1211267164E+001  +9.7503787778E-001 -6.7100701765E+000 
296068078.616 +9.8131337694E-001 -6.7126374697E+000  +1.3185562171E-001 +8.1298927325E+001  +1.3299831498E-001 +8.1175410131E+001  +9.8088774006E-001 -6.6777860983E+000 
300068876.975 +9.8785882077E-001 -6.7697875206E+000  +1.3437511668E-001 +8.1274328770E+001  +1.3552682985E-001 +8.1016428447E+001  +9.8717476896E-001 -6.7275291931E+000 
304069675.335 +9.9435830397E-001 -6.9194394530E+000  +1.3712989505E-001 +8.1222672238E+001  +1.3797794424E-001 +8.0866231870E+001  +9.9358871302E-001 -6.8694302197E+000 
308070473.695 +1.0008945661E+000 -7.1975392050E+000  +1.3990810721E-001 +8.1028715027E+001  +1.4058799602E-001 +8.0585730079E+001  +9.9955213173E-001 -7.1139429736E+000 
312071272.054 +1.0064062150E+000 -7.5582319529E+000  +1.4271512103E-001 +8.0720162291E+001  +1.4295521419E-001 +8.0256237608E+001  +1.0052097390E+000 -7.4574731585E+000 
316072070.414 +1.0110805959E+000 -8.0142980008E+000  +1.4542040272E-001 +8.0280220419E+001  +1.4538544377E-001 +7.9832349856E+001  +1.0096702010E+000 -7.8958776479E+000 
320072868.774 +1.0136199172E+000 -8.5536069942E+000  +1.4786611789E-001 +7.9750518904E+001  +1.4756956208E-001 +7.9265333592E+001  +1.0125324227E+000 -8.4075508055E+000 
324073667.133 +1.0146924623E+000 -9.1455724324E+000  +1.5006930467E-001 +7.9134771338E+001  +1.4950853678E-001 +7.8707720250E+001  +1.0132947213E+000 -8.9712345484E+000 
328074465.493 +1.0129245644E+000 -9.7387071896E+000  +1.5189807831E-001 +7.8486565770E+001  +1.5102010850E-001 +7.8107458346E+001  +1.0120062745E+000 -9.5453834919E+000 
332075263.853 +1.0089397814E+000 -1.0314215637E+001  +1.5322651065E-001 +7.7840594125E+001  +1.5210999038E-001 +7.7528194515E+001  +1.0082235713E+000 -1.0095577022E+001 
336076062.212 +1.0025867706E+000 -1.0806569068E+001  +1.5411389256E-001 +7.7213191152E+001  +1.5286957755E-001 +7.7008452681E+001  +1.0021551784E+000 -1.0594450959E+001 
340076860.572 +9.9446834386E-001 -1.1199950665E+001  +1.5450706892E-001 +7.6757574926E+001  +1.5319424067E-001 +7.6704513313E+001  +9.9466127152E-001 -1.0968572650E+001 
344077658.932 +9.8552921798E-001 -1.1462446094E+001  +1.5482420579E-001 +7.6454156721E+001  +1.5360541017E-001 +7.6465190274E+001  +9.8590426040E-001 -1.1227130510E+001 
348078457.291 +9.7632384483E-001 -1.1548232713E+001  +1.5502986965E-001 +7.6316124883E+001  +1.5369217624E-001 +7.6463646058E+001  +9.7702150911E-001 -1.1322386595E+001 
352079255.651 +9.6745793408E-001 -1.1506276397E+001  +1.5523487852E-001 +7.6330630378E+001  +1.5414218756E-001 +7.6593394915E+001  +9.6854857642E-001 -1.1298085629E+001 
356080054.011 +9.5999207525E-001 -1.1343692251E+001  +1.5565517214E-001 +7.6470840931E+001  +1.5470899864E-001 +7.6825104071E+001  +9.6136310320E-001 -1.1128009405E+001 
360080852.370 +9.5419480928E-001 -1.1074179801E+001  +1.5633454508E-001 +7.6765449352E+001  +1.5581188522E-001 +7.7225391919E+001  +9.5584191612E-001 -1.0892621060E+001 
364081650.730 +9.5070187379E-001 -1.0724920306E+001  +1.5748508291E-001 +7.7098032412E+001  +1.5717920791E-001 +7.7528502017E+001  +9.5209683259E-001 -1.0573671511E+001 
368082449.090 +9.4886751228E-001 -1.0368843483E+001  +1.5882456749E-001 +7.7432193088E+001  +1.5881392526E-001 +7.7866761199E+001  +9.5015221510E-001 -1.0232233182E+001 
372083247.449 +9.4892949061E-001 -1.0012147177E+001  +1.6050930877E-001 +7.7743107362E+001  +1.6081493815E-001 +7.8178538759E+001  +9.5034201421E-001 -9.9013575305E+000 
376084045.809 +9.5111583720E-001 -9.6857544135E+000  +1.6238650270E-001 +7.8014584890E+001  +1.6314175549E-001 +7.8441208212E+001  +9.5215984704E-001 -9.5764823436E+000 
380084844.169 +9.5455768322E-001 -9.3940402708E+000  +1.6456295938E-001 +7.8293769340E+001  +1.6557687236E-001 +7.8611862868E+001  +9.5552172058E-001 -9.3139529866E+000 
384085642.529 +9.5947047947E-001 -9.1754298983E+000  +1.6691295858E-001 +7.8490899403E+001  +1.6808267659E-001 +7.8716655034E+001  +9.6014813206E-001 -9.1123717701E+000 
388086440.888 +9.6548971110E-001 -9.0364290829E+000  +1.6947775224E-001 +7.8643321514E+001  +1.7090806230E-001 +7.8752977809E+001  +9.6589389451E-001 -8.9849558569E+000 
392087239.248 +9.7260303450E-001 -8.9893277892E+000  +1.7229840545E-001 +7.8742249299E+001  +1.7358352142E-001 +7.8701927292E+001  +9.7234355114E-001 -8.9320083455E+000 
396088037.608 +9.7983382392E-001 -9.0568539570E+000  +1.7522653951E-001 +7.8715505625E+001  +1.7645531771E-001 +7.8599736297E+001  +9.7962915300E-001 -8.9905962587E+000 
400088835.967 +9.8758332352E-001 -9.2319515646E+000  +1.7826621678E-001 +7.8615601358E+001  +1.7941214764E-001 +7.8381567891E+001  +9.8656072930E-001 -9.1637984422E+000 
404089634.327 +9.9485703001E-001 -9.5229797912E+000  +1.8149878455E-001 +7.8428594901E+001  +1.8239503197E-001 +7.8123485402E+001  +9.9359256408E-001 -9.4297900836E+000 
408090432.687 +1.0013446139E+000 -9.9149835214E+000  +1.8471967739E-001 +7.8072192019E+001  +1.8526412296E-001 +7.7698625072E+001  +9.9988140577E-001 -9.8169118710E+000 
412091231.046 +1.0064824449E+000 -1.0424213242E+001  +1.8757266828E-001 +7.7624861749E+001  +1.8795492523E-001 +7.7215132947E+001  +1.0048697840E+000 -1.0295752979E+001 
416092029.406 +1.0097770522E+000 -1.1024031434E+001  +1.9042474044E-001 +7.7019142781E+001  +1.9031636599E-001 +7.6640440784E+001  +1.0079076116E+000 -1.0856275376E+001 
420092827.766 +1.0106744386E+000 -1.1688347510E+001  +1.9267549186E-001 +7.6327439123E+001  +1.9225368745E-001 +7.5963769457E+001  +1.0088538393E+000 -1.1485085483E+001 
424093626.125 +1.0085445538E+000 -1.2350284452E+001  +1.9434517645E-001 +7.5629270165E+001  +1.9355326703E-001 +7.5287921362E+001  +1.0070956678E+000 -1.2117334681E+001 
428094424.485 +1.0038231888E+000 -1.2990734076E+001  +1.9541883334E-001 +7.4896270682E+001  +1.9428118925E-001 +7.4649820611E+001  +1.0029738108E+000 -1.2744642576E+001 
432095222.845 +9.9680388942E-001 -1.3544922165E+001  +1.9581103810E-001 +7.4277370854E+001  +1.9465847885E-001 +7.4115564484E+001  +9.9628020158E-001 -1.3271109134E+001 
436096021.204 +9.8775661174E-001 -1.3978941228E+001  +1.9573836857E-001 +7.3792822875E+001  +1.9445418012E-001 +7.3691127766E+001  +9.8741038648E-001 -1.3697489926E+001 
440096819.564 +9.7745031221E-001 -1.4252653108E+001  +1.9540543165E-001 +7.3483166997E+001  +1.9389062729E-001 +7.3454321555E+001  +9.7785437902E-001 -1.3974866067E+001 
444097617.924 +9.6696103205E-001 -1.4363021264E+001  +1.9487305772E-001 +7.3339925040E+001  +1.9358169218E-001 +7.3419400286E+001  +9.6776631666E-001 -1.4086084204E+001 
448098416.283 +9.5712197899E-001 -1.4317363368E+001  +1.9439612847E-001 +7.3391500494E+001  +1.9337616497E-001 +7.3551221761E+001  +9.5820640001E-001 -1.4048104886E+001 
452099214.643 +9.4859157824E-001 -1.4100091448E+001  +1.9431197549E-001 +7.3584664457E+001  +1.9341043795E-001 +7.3862687836E+001  +9.5004514593E-001 -1.3847144845E+001 
456100013.003 +9.4203164480E-001 -1.3797571900E+001  +1.9462096063E-001 +7.3900833913E+001  +1.9392178930E-001 +7.4233216896E+001  +9.4349242590E-001 -1.3571631157E+001 
