!  2-Port S-parameters saved by WinCal
! VAR MeasName=S-Parameters (CALIBRATED_DATA) read from VNA (P5004A)
! VAR MeasDate=24/04/2024 16:16:25
! VAR NAME=Wafer2_r1_c3_pristine 14
! VAR FILENAME=Wafer2_r1_c3_pristine 14.S2P
! VAR DATE=24/04/2024 16:16:25
! VAR PHYS_PORTS=1,2
! VAR ObjTypeName=DATASET
! VAR IndexType=Frequency
!
# Hz S MA R 50
9000.000 +7.8686616566E-001 +1.8097622657E+001  +1.2168071233E-005 +1.4259064297E+002  +6.1712327605E-006 +1.2069831932E+002  +7.9233970532E-001 +1.8004354058E+001 
4009798.360 +9.8795342766E-001 -3.1179230490E+000  +1.9041636986E-003 +8.5894886926E+001  +1.9260653290E-003 +8.6049405950E+001  +9.8756693308E-001 -3.0420612107E+000 
8010596.719 +9.7669528973E-001 -5.9036450866E-001  +3.7381884885E-003 +8.8478945991E+001  +3.7757941905E-003 +8.8117905298E+001  +9.7685813453E-001 -5.9742627942E-001 
12011395.079 +9.7600596338E-001 +8.2232536550E-002  +5.6167064404E-003 +8.9132270878E+001  +5.6614641757E-003 +8.8721065214E+001  +9.7300835825E-001 +3.6958519594E-002 
16012193.439 +9.8798798097E-001 +2.6385476482E-001  +7.5353715770E-003 +8.9259011743E+001  +7.5723653987E-003 +8.8712593267E+001  +9.8574961117E-001 +2.3163299867E-001 
20012991.798 +9.9582285953E-001 +2.5480501284E-001  +9.4688609722E-003 +8.9180460397E+001  +9.4912273797E-003 +8.8608159842E+001  +9.9460083388E-001 +2.6981590525E-001 
24013790.158 +1.0006397171E+000 +2.6434286218E-001  +1.1403656255E-002 +8.9132744414E+001  +1.1393492815E-002 +8.8502402335E+001  +1.0002498962E+000 +1.5136800694E-001 
28014588.518 +1.0044563770E+000 +1.1095721426E-001  +1.3356046411E-002 +8.8963259843E+001  +1.3299935641E-002 +8.8378685115E+001  +1.0035202507E+000 -1.6028670559E-003 
32015386.877 +1.0097101122E+000 -2.3013584569E-001  +1.5307077652E-002 +8.8829522353E+001  +1.5239031407E-002 +8.8290176788E+001  +1.0095229678E+000 -2.7626731038E-001 
36016185.237 +1.0122277678E+000 -4.9738955622E-001  +1.7273134715E-002 +8.8542421379E+001  +1.7169176959E-002 +8.8067841041E+001  +1.0124808377E+000 -5.4685877552E-001 
40016983.597 +1.0137072697E+000 -8.2096637137E-001  +1.9225521886E-002 +8.8132625944E+001  +1.9081146387E-002 +8.7775124755E+001  +1.0140522467E+000 -8.7095734852E-001 
44017781.956 +1.0146633087E+000 -1.2127925324E+000  +2.1175013914E-002 +8.7692137377E+001  +2.0979576753E-002 +8.7451682265E+001  +1.0147919104E+000 -1.2318961653E+000 
48018580.316 +1.0149057527E+000 -1.5745313631E+000  +2.3098056428E-002 +8.7176836047E+001  +2.2879557938E-002 +8.7101057904E+001  +1.0154926291E+000 -1.5819107340E+000 
52019378.676 +1.0223350415E+000 -2.1440672808E+000  +2.5037203499E-002 +8.6839536962E+001  +2.4772401128E-002 +8.6843091593E+001  +1.0225216886E+000 -2.1058055680E+000 
56020177.035 +1.0216278870E+000 -2.4947972488E+000  +2.6821569836E-002 +8.6303260427E+001  +2.6569606827E-002 +8.6435458944E+001  +1.0218800812E+000 -2.4167316921E+000 
60020975.395 +1.0195746804E+000 -2.7989626660E+000  +2.8536188299E-002 +8.5896256827E+001  +2.8318834554E-002 +8.6178451207E+001  +1.0213524524E+000 -2.6301171366E+000 
64021773.755 +1.0116279812E+000 -2.8824446268E+000  +3.0175064170E-002 +8.5555257807E+001  +3.0014101374E-002 +8.6026706290E+001  +1.0152184427E+000 -2.6966310143E+000 
68022572.114 +9.8867954482E-001 -2.6939298750E+000  +3.1520398096E-002 +8.4836473270E+001  +3.1533491951E-002 +8.5658110601E+001  +9.9997100261E-001 -2.6200267016E+000 
72023370.474 +9.4940796408E-001 -2.4607819727E+000  +3.2555162257E-002 +8.3989729097E+001  +3.2771827096E-002 +8.5051856909E+001  +9.6884882679E-001 -2.4975158096E+000 
76024168.834 +8.9972800221E-001 -2.3925753685E+000  +3.3407753561E-002 +8.3492267732E+001  +3.3633118439E-002 +8.4355567588E+001  +9.1269271687E-001 -2.3518227282E+000 
80024967.193 +8.5196282838E-001 -2.5012026046E+000  +3.4204912252E-002 +8.3350335198E+001  +3.4140983429E-002 +8.3701554235E+001  +8.4346690051E-001 -2.3868651944E+000 
84025765.553 +8.0301471442E-001 -2.0600674985E+000  +3.4841408030E-002 +8.3723543311E+001  +3.5226060118E-002 +8.4364521982E+001  +8.1305960365E-001 -2.1501007429E+000 
88026563.913 +7.7582205494E-001 -2.0534118655E+000  +3.6017260391E-002 +8.4670584014E+001  +3.6824875542E-002 +8.5337821068E+001  +8.0076100206E-001 -2.1668561876E+000 
92027362.272 +7.5677530031E-001 -2.8004342291E+000  +3.7363644850E-002 +8.5195947989E+001  +3.8352856116E-002 +8.5675381792E+001  +7.8569696041E-001 -2.7473957499E+000 
96028160.632 +7.4421955032E-001 -3.6134229023E+000  +3.8764972553E-002 +8.5672046858E+001  +4.0006676311E-002 +8.5951329444E+001  +7.8002008466E-001 -3.3175622445E+000 
100028958.992 +7.4527157377E-001 -4.6162334808E+000  +4.0455588842E-002 +8.6204938003E+001  +4.1777507370E-002 +8.6245862223E+001  +7.8044842855E-001 -4.0495723844E+000 
104029757.351 +7.6274770460E-001 -5.1221321546E+000  +4.2424091555E-002 +8.6801299824E+001  +4.3799635701E-002 +8.6578687955E+001  +7.9657256460E-001 -4.3940815034E+000 
108030555.711 +7.9034074865E-001 -5.0912964721E+000  +4.4648040153E-002 +8.7466702053E+001  +4.5992925852E-002 +8.6960526919E+001  +8.2084583444E-001 -4.3903267821E+000 
112031354.071 +8.0968824450E-001 -4.4777248532E+000  +4.6928864788E-002 +8.8458624866E+001  +4.8167203627E-002 +8.7692176682E+001  +8.3686393168E-001 -3.8259587485E+000 
116032152.430 +8.4286315696E-001 -3.1698259772E+000  +4.9888414504E-002 +8.9251312845E+001  +5.0893523305E-002 +8.8176131800E+001  +8.6591144199E-001 -2.9503622183E+000 
120032950.790 +9.0856924438E-001 -2.8800420410E+000  +5.3496718858E-002 +8.8617353923E+001  +5.4117288781E-002 +8.7680518174E+001  +9.2098650258E-001 -2.8553527334E+000 
124033749.150 +9.6880418962E-001 -2.9526011457E+000  +5.6998588573E-002 +8.7495241216E+001  +5.7314746430E-002 +8.6756611939E+001  +9.7445174165E-001 -2.9902193981E+000 
128034547.510 +1.0111116473E+000 -3.0915638430E+000  +6.0115871224E-002 +8.6319187939E+001  +6.0218103374E-002 +8.5768013189E+001  +1.0122038142E+000 -3.1065948084E+000 
132035345.869 +1.0286079230E+000 -3.2493016971E+000  +6.2653591626E-002 +8.5378294452E+001  +6.2535389170E-002 +8.5085586649E+001  +1.0247399495E+000 -3.3095687082E+000 
136036144.229 +1.0286899328E+000 -3.5368135794E+000  +6.4713892970E-002 +8.4807604631E+001  +6.4485450256E-002 +8.4641164933E+001  +1.0232273561E+000 -3.6793574078E+000 
140036942.589 +1.0250605328E+000 -3.9771690124E+000  +6.6628487660E-002 +8.4254281081E+001  +6.6247496699E-002 +8.4219809542E+001  +1.0190178945E+000 -4.1744280088E+000 
144037740.948 +1.0210362851E+000 -4.4739104254E+000  +6.8308460079E-002 +8.3689580493E+001  +6.7863832815E-002 +8.3766637581E+001  +1.0153504155E+000 -4.6826434721E+000 
148038539.308 +1.0167164413E+000 -4.9487796142E+000  +6.9851127304E-002 +8.3185026617E+001  +6.9387471518E-002 +8.3399831173E+001  +1.0109460359E+000 -5.1398629969E+000 
152039337.668 +1.0122821135E+000 -5.3014987459E+000  +7.1254280398E-002 +8.2757919890E+001  +7.0837450212E-002 +8.3089222203E+001  +1.0058806144E+000 -5.4469347010E+000 
156040136.027 +1.0063049504E+000 -5.4149155643E+000  +7.2557939604E-002 +8.2484732710E+001  +7.2229328197E-002 +8.2954159830E+001  +9.9954386016E-001 -5.5502656043E+000 
160040934.387 +9.9844894438E-001 -5.3827891068E+000  +7.3772379337E-002 +8.2348489710E+001  +7.3535367396E-002 +8.2933798400E+001  +9.9009969872E-001 -5.6233965312E+000 
164041732.747 +9.8591498928E-001 -5.2323455124E+000  +7.4937236122E-002 +8.2223952435E+001  +7.4906227198E-002 +8.2978076829E+001  +9.7990856225E-001 -5.6123938014E+000 
168042531.106 +9.5253558821E-001 -5.0849741630E+000  +7.5429020448E-002 +8.1671047918E+001  +7.5935998585E-002 +8.2823200705E+001  +9.5991742810E-001 -5.5719131730E+000 
172043329.466 +8.9849520070E-001 -4.9459804561E+000  +7.5143022124E-002 +8.0870473763E+001  +7.6269407740E-002 +8.2306047694E+001  +9.2056768676E-001 -5.5021755770E+000 
176044127.826 +8.3549466448E-001 -4.8090722463E+000  +7.4348942136E-002 +8.0182902108E+001  +7.6084849546E-002 +8.1746705652E+001  +8.6778034281E-001 -5.2980567237E+000 
180044926.185 +7.8156378656E-001 -4.1989046357E+000  +7.3697461840E-002 +8.0213109668E+001  +7.5964892363E-002 +8.1602434036E+001  +8.1719203139E-001 -4.7442206577E+000 
184045724.545 +7.6772326869E-001 -2.8931422299E+000  +7.4442489510E-002 +8.1472739073E+001  +7.6713554128E-002 +8.2325913895E+001  +7.9508139661E-001 -3.5023867306E+000 
188046522.905 +7.5059253924E-001 -2.9469430606E+000  +7.5591604713E-002 +8.2147764761E+001  +7.8245462642E-002 +8.2983257251E+001  +7.8450864813E-001 -3.0716879232E+000 
192047321.264 +7.3505532652E-001 -3.3933520757E+000  +7.6895132422E-002 +8.2712330141E+001  +7.9750883490E-002 +8.3245116436E+001  +7.6977756651E-001 -3.4256640130E+000 
196048119.624 +7.3077400813E-001 -4.4019538271E+000  +7.8497624185E-002 +8.3198302511E+001  +8.1528826314E-002 +8.3435007674E+001  +7.6645422352E-001 -4.2429765337E+000 
200048917.984 +7.4282731279E-001 -5.5326674673E+000  +8.0612405260E-002 +8.3645043632E+001  +8.3633512054E-002 +8.3601042187E+001  +7.7756044252E-001 -5.1613427801E+000 
204049716.343 +7.6909114776E-001 -6.2255205692E+000  +8.3283394857E-002 +8.4227553768E+001  +8.5840722131E-002 +8.3880740573E+001  +7.9633914182E-001 -5.8236422642E+000 
208050514.703 +8.0367339223E-001 -6.5476428275E+000  +8.6362630706E-002 +8.4753440529E+001  +8.8399307670E-002 +8.4215785973E+001  +8.2356037005E-001 -6.0519814794E+000 
212051313.063 +8.3105708998E-001 -5.8893011452E+000  +8.9646757004E-002 +8.5624946612E+001  +9.1428323260E-002 +8.4787443197E+001  +8.5243507634E-001 -5.4035277435E+000 
216052111.422 +8.8466118164E-001 -5.6454708472E+000  +9.4288730781E-002 +8.5581675815E+001  +9.5540835359E-002 +8.4545497970E+001  +9.0582684626E-001 -5.2127477110E+000 
220052909.782 +9.4813204909E-001 -5.8305559859E+000  +9.9280656534E-002 +8.4593317960E+001  +9.9958594288E-002 +8.3657554593E+001  +9.6592253692E-001 -5.3617508729E+000 
224053708.142 +9.9475152784E-001 -5.9854417033E+000  +1.0371948309E-001 +8.3346229452E+001  +1.0386945654E-001 +8.2545882491E+001  +1.0087989685E+000 -5.5673893458E+000 
228054506.501 +1.0171175588E+000 -6.2014512213E+000  +1.0709193319E-001 +8.2161418801E+001  +1.0663533855E-001 +8.1633672148E+001  +1.0252560685E+000 -5.9232203606E+000 
232055304.861 +1.0184892074E+000 -6.6525120571E+000  +1.0930513308E-001 +8.1371708634E+001  +1.0847775160E-001 +8.1030387313E+001  +1.0246806336E+000 -6.4378255322E+000 
236056103.221 +1.0138465183E+000 -7.2439129321E+000  +1.1095366025E-001 +8.0733576665E+001  +1.0990238688E-001 +8.0499349233E+001  +1.0205480482E+000 -7.0019928133E+000 
240056901.580 +1.0080544238E+000 -7.8249000181E+000  +1.1226278955E-001 +8.0134451554E+001  +1.1108573028E-001 +8.0028169422E+001  +1.0152458328E+000 -7.5402749968E+000 
244057699.940 +1.0015132205E+000 -8.2890468575E+000  +1.1328937619E-001 +7.9662396826E+001  +1.1206803549E-001 +7.9680299220E+001  +1.0092601963E+000 -7.9803709104E+000 
248058498.300 +9.9432644181E-001 -8.5768653829E+000  +1.1412248187E-001 +7.9314920787E+001  +1.1292992850E-001 +7.9476840064E+001  +1.0027220594E+000 -8.2759507819E+000 
252059296.659 +9.8589731968E-001 -8.6902877662E+000  +1.1485072077E-001 +7.9108252636E+001  +1.1372924059E-001 +7.9409855007E+001  +9.9676944979E-001 -8.4477902135E+000 
256060095.019 +9.7720004936E-001 -8.6646269329E+000  +1.1560593370E-001 +7.9046865059E+001  +1.1465814112E-001 +7.9487986175E+001  +9.9106862432E-001 -8.4907876222E+000 
260060893.379 +9.6787122645E-001 -8.5628902777E+000  +1.1640684413E-001 +7.9092893519E+001  +1.1568731484E-001 +7.9666582106E+001  +9.8700454159E-001 -8.4319136230E+000 
264061691.738 +9.5320156177E-001 -8.3830827298E+000  +1.1697993196E-001 +7.8977815494E+001  +1.1681580893E-001 +7.9804224705E+001  +9.8011172572E-001 -8.2744949954E+000 
268062490.098 +9.2042673203E-001 -8.1349856709E+000  +1.1656858481E-001 +7.8424361821E+001  +1.1734500362E-001 +7.9616940366E+001  +9.5730768291E-001 -7.9951446493E+000 
272063288.458 +8.7142084941E-001 -7.7805737769E+000  +1.1538933879E-001 +7.7834514975E+001  +1.1702742345E-001 +7.9138250057E+001  +9.1200101919E-001 -7.6591862494E+000 
276064086.817 +8.1818894833E-001 -7.3797929859E+000  +1.1408776404E-001 +7.7573691478E+001  +1.1641494865E-001 +7.8783753649E+001  +8.5769652502E-001 -7.3728656454E+000 
280064885.177 +7.7984270341E-001 -6.5134591518E+000  +1.1344792964E-001 +7.8103182457E+001  +1.1607070372E-001 +7.8918903363E+001  +8.1232960421E-001 -6.8052085892E+000 
284065683.537 +7.6994253499E-001 -5.3924030856E+000  +1.1438662939E-001 +7.9275129116E+001  +1.1699331817E-001 +7.9722125947E+001  +7.9464018740E-001 -5.8575714012E+000 
288066481.896 +7.5873960057E-001 -5.5560635243E+000  +1.1584228586E-001 +7.9971031476E+001  +1.1861309770E-001 +8.0240818678E+001  +7.8234676639E-001 -5.8559251784E+000 
292067280.256 +7.5369621739E-001 -6.1759392109E+000  +1.1760937748E-001 +8.0547685965E+001  +1.2039264711E-001 +8.0563306629E+001  +7.7490887129E-001 -6.4274348602E+000 
296068078.616 +7.6154610823E-001 -7.1648164162E+000  +1.2005352365E-001 +8.1012383201E+001  +1.2270847317E-001 +8.0822084967E+001  +7.8041833912E-001 -7.3035456793E+000 
300068876.975 +7.7780634593E-001 -8.1194694604E+000  +1.2279006456E-001 +8.1410075940E+001  +1.2539211140E-001 +8.1046910994E+001  +7.9604182420E-001 -8.1047158979E+000 
304069675.335 +8.0715681336E-001 -8.6535899622E+000  +1.2621925015E-001 +8.1795933490E+001  +1.2860039551E-001 +8.1260539193E+001  +8.2359251094E-001 -8.5334072851E+000 
308070473.695 +8.3853203366E-001 -8.5730273129E+000  +1.3008565283E-001 +8.2224219489E+001  +1.3220880334E-001 +8.1524714281E+001  +8.5330015446E-001 -8.3781834616E+000 
312071272.054 +8.8194715259E-001 -8.2244703899E+000  +1.3517815379E-001 +8.2350600633E+001  +1.3693671366E-001 +8.1465618134E+001  +8.9627950705E-001 -8.1109145664E+000 
316072070.414 +9.4084243262E-001 -8.4078861833E+000  +1.4124360507E-001 +8.1561128652E+001  +1.4244793342E-001 +8.0704230392E+001  +9.5037052861E-001 -8.3069877823E+000 
320072868.774 +9.8870308388E-001 -8.7176891311E+000  +1.4676651974E-001 +8.0367241922E+001  +1.4732083989E-001 +7.9631476876E+001  +9.9287747435E-001 -8.6139921078E+000 
324073667.133 +1.0129407372E+000 -9.1149455481E+000  +1.5076688858E-001 +7.9223789899E+001  +1.5070269452E-001 +7.8680753563E+001  +1.0119468603E+000 -9.0198686018E+000 
328074465.493 +1.0160930382E+000 -9.6359650110E+000  +1.5315178534E-001 +7.8392850230E+001  +1.5261572144E-001 +7.7997355002E+001  +1.0138418843E+000 -9.5093425107E+000 
332075263.853 +1.0117479718E+000 -1.0207879591E+001  +1.5457001659E-001 +7.7718122913E+001  +1.5380652819E-001 +7.7424694992E+001  +1.0096017783E+000 -1.0026694071E+001 
336076062.212 +1.0049105273E+000 -1.0734478254E+001  +1.5550300265E-001 +7.7124492413E+001  +1.5453505299E-001 +7.6937539039E+001  +1.0029611793E+000 -1.0507983018E+001 
340076860.572 +9.9667188935E-001 -1.1178094995E+001  +1.5598933300E-001 +7.6643061985E+001  +1.5497329855E-001 +7.6588049779E+001  +9.9489499288E-001 -1.0911300080E+001 
344077658.932 +9.8787299757E-001 -1.1488368846E+001  +1.5632325726E-001 +7.6311598641E+001  +1.5526432155E-001 +7.6358256296E+001  +9.8627486407E-001 -1.1199846789E+001 
348078457.291 +9.7898746194E-001 -1.1620557962E+001  +1.5643846298E-001 +7.6163361435E+001  +1.5547575787E-001 +7.6324328237E+001  +9.7758438166E-001 -1.1327610429E+001 
352079255.651 +9.7079314568E-001 -1.1603851277E+001  +1.5665664148E-001 +7.6168311237E+001  +1.5586195228E-001 +7.6430048476E+001  +9.6963580790E-001 -1.1311816436E+001 
356080054.011 +9.6369350864E-001 -1.1448925289E+001  +1.5706606791E-001 +7.6308904137E+001  +1.5649120479E-001 +7.6658634125E+001  +9.6292348893E-001 -1.1145209468E+001 
360080852.370 +9.5700224965E-001 -1.1186462572E+001  +1.5774940825E-001 +7.6518444566E+001  +1.5745194058E-001 +7.6958936188E+001  +9.5720419063E-001 -1.0877835341E+001 
364081650.730 +9.4330295026E-001 -1.0806942213E+001  +1.5814763246E-001 +7.6513281924E+001  +1.5845679760E-001 +7.7155073418E+001  +9.4798336257E-001 -1.0530753532E+001 
368082449.090 +9.0876570496E-001 -1.0388210586E+001  +1.5730921117E-001 +7.6030495695E+001  +1.5860214539E-001 +7.6916608354E+001  +9.2174159024E-001 -1.0158522834E+001 
372083247.449 +8.5924981294E-001 -9.9944827891E+000  +1.5552042956E-001 +7.5496061108E+001  +1.5773089257E-001 +7.6460043899E+001  +8.7933636535E-001 -9.8806397025E+000 
376084045.809 +8.0951812396E-001 -9.5832684051E+000  +1.5367376130E-001 +7.5331339079E+001  +1.5656371419E-001 +7.6186648889E+001  +8.3357836081E-001 -9.6196099754E+000 
380084844.169 +7.7875953234E-001 -8.6893454908E+000  +1.5277297316E-001 +7.5971407840E+001  +1.5598689862E-001 +7.6523066071E+001  +8.0236416567E-001 -9.0221283766E+000 
384085642.529 +7.6876598236E-001 -7.8161490323E+000  +1.5358999081E-001 +7.7000156665E+001  +1.5694859927E-001 +7.7287502804E+001  +7.9213872552E-001 -8.3341399431E+000 
388086440.888 +7.5800098140E-001 -8.0268181528E+000  +1.5488176024E-001 +7.7641241678E+001  +1.5852825495E-001 +7.7739856480E+001  +7.8362598541E-001 -8.4673365511E+000 
392087239.248 +7.5702726702E-001 -8.6846277842E+000  +1.5695338571E-001 +7.8193660292E+001  +1.6058807822E-001 +7.8079434047E+001  +7.8306021293E-001 -8.9939494401E+000 
396088037.608 +7.6853136624E-001 -9.6829183731E+000  +1.5985182739E-001 +7.8622501992E+001  +1.6334608334E-001 +7.8324791166E+001  +7.9460423827E-001 -9.7891624401E+000 
400088835.967 +7.9262947382E-001 -1.0562133891E+001  +1.6360125511E-001 +7.8958682632E+001  +1.6686837608E-001 +7.8504131776E+001  +8.1676399001E-001 -1.0488302252E+001 
404089634.327 +8.2412586989E-001 -1.1043292038E+001  +1.6811783538E-001 +7.9225255138E+001  +1.7102544834E-001 +7.8629905724E+001  +8.4608088154E-001 -1.0844506074E+001 
408090432.687 +8.5660236776E-001 -1.0967457878E+001  +1.7315796020E-001 +7.9480732883E+001  +1.7590115382E-001 +7.8691808059E+001  +8.7903064359E-001 -1.0787695965E+001 
412091231.046 +9.0577719209E-001 -1.1049970495E+001  +1.7989172913E-001 +7.9107777841E+001  +1.8210999939E-001 +7.8184159240E+001  +9.2685045997E-001 -1.0937638019E+001 
416092029.406 +9.5917151300E-001 -1.1459433458E+001  +1.8690935872E-001 +7.7984124024E+001  +1.8835901385E-001 +7.7142322910E+001  +9.7480933431E-001 -1.1326600272E+001 
420092827.766 +9.9448567660E-001 -1.1906756906E+001  +1.9237756208E-001 +7.6711686636E+001  +1.9291139013E-001 +7.6047353801E+001  +1.0034928269E+000 -1.1753397738E+001 
424093626.125 +1.0075014187E+000 -1.2383538336E+001  +1.9566643930E-001 +7.5608539351E+001  +1.9520819063E-001 +7.5210864604E+001  +1.0101088828E+000 -1.2223308148E+001 
428094424.485 +1.0046107060E+000 -1.2929394258E+001  +1.9706405750E-001 +7.4808742222E+001  +1.9619822641E-001 +7.4549018069E+001  +1.0056417345E+000 -1.2750284206E+001 
432095222.845 +9.9689606244E-001 -1.3442378229E+001  +1.9757130959E-001 +7.4198435174E+001  +1.9648499696E-001 +7.4041937450E+001  +9.9770796536E-001 -1.3229401594E+001 
436096021.204 +9.8708892621E-001 -1.3881342468E+001  +1.9750488946E-001 +7.3693826658E+001  +1.9629842719E-001 +7.3631908342E+001  +9.8795114800E-001 -1.3659094693E+001 
440096819.564 +9.7660298372E-001 -1.4200171973E+001  +1.9713851913E-001 +7.3369610243E+001  +1.9584817747E-001 +7.3395344984E+001  +9.7789238178E-001 -1.3971173803E+001 
444097617.924 +9.6632026154E-001 -1.4358086395E+001  +1.9661831220E-001 +7.3222737612E+001  +1.9543576384E-001 +7.3325906073E+001  +9.6798953144E-001 -1.4133788478E+001 
448098416.283 +9.5708801267E-001 -1.4331797465E+001  +1.9616861313E-001 +7.3232649718E+001  +1.9521202490E-001 +7.3448446331E+001  +9.5913711077E-001 -1.4124730074E+001 
452099214.643 +9.4910047070E-001 -1.4115924698E+001  +1.9592671162E-001 +7.3428122491E+001  +1.9522836147E-001 +7.3719418955E+001  +9.5151564024E-001 -1.3933541603E+001 
456100013.003 +9.4207723850E-001 -1.3774781847E+001  +1.9619157677E-001 +7.3703077617E+001  +1.9575701380E-001 +7.4048989337E+001  +9.4502538054E-001 -1.3629959760E+001 
