!  2-Port S-parameters saved by WinCal
! VAR MeasName=S-Parameters (CALIBRATED_DATA) read from VNA (P5004A)
! VAR MeasDate=22/05/2024 16:18:16
! VAR NAME=ISS_thru_LRM+
! VAR FILENAME=ISS_thru_LRM+.S2P
! VAR DATE=22/05/2024 16:18:16
! VAR PHYS_PORTS=1,2
! VAR ObjTypeName=DATASET
! VAR IndexType=Frequency
!
# Hz S RI R 50
9000.000 +4.2949393392E-001 -5.7296216488E-001  +1.1692796648E-001 +2.3922222853E-001  -3.6822166294E-004 +2.7070917189E-002  +2.0826691389E-001 +1.1602821946E-001 
134145.181 +3.8761472702E-001 -4.3628767133E-002  +1.4105635881E-001 +1.9513483346E-001  +1.4743515849E-001 +2.2735507786E-001  +2.8846701980E-001 +2.3712761700E-001 
259290.363 +5.0327426195E-001 -1.2365359068E-001  +4.0656870604E-001 +1.3459482789E-001  +3.8331720233E-001 +1.3388095796E-001  +4.9758639932E-001 -9.1231487691E-002 
384435.544 +4.2501035333E-001 -4.7030627728E-002  +5.6833398342E-001 -8.8310763240E-002  +6.0823929310E-001 -9.2664837837E-002  +3.0149254203E-001 +9.4479195774E-002 
509580.726 +4.5033636689E-001 -1.9011722505E-001  +5.9290343523E-001 +1.8345670402E-001  +5.9992539883E-001 +2.0261630416E-001  +2.8190207481E-001 -2.4707965553E-001 
634725.907 +4.4996315241E-001 -1.6968318820E-001  +5.8764004707E-001 +1.0264648497E-001  +5.8207017183E-001 +7.5365573168E-002  +3.6704564095E-001 -7.1273595095E-002 
759871.089 -9.6091330051E-001 -7.5762635469E-001  +2.3660364151E+000 +5.6115990877E-001  +2.3925211430E+000 +5.8245038986E-001  -1.8423743248E+000 -4.0376529098E-001 
885016.270 -9.2693763971E-001 -1.5162733197E-001  +1.8793696165E+000 +7.9870566726E-002  +1.8818652630E+000 +7.4058495462E-002  -8.5620045662E-001 -9.3490578234E-002 
1010161.452 -7.6816707850E-002 +3.3096432686E-001  +1.2464985847E+000 -4.4541350007E-001  +1.2443932295E+000 -4.3890592456E-001  -4.8151376843E-001 +5.0391036272E-001 
1135306.633 -3.1663179398E-002 +5.6248200126E-003  +1.0281326771E+000 -1.0401195288E-001  +1.0006481409E+000 -1.1037622392E-001  -5.6878108531E-002 +2.0189844072E-001 
1260451.815 +1.1148268729E-001 -1.0066514835E-002  +9.4273555279E-001 -5.3856149316E-002  +9.4346481562E-001 -4.6175301075E-002  +5.8315694332E-005 +9.0147726238E-002 
1385596.996 +1.3799527287E-001 -1.2060634047E-001  +9.0113532543E-001 +7.5848937035E-002  +9.0313071012E-001 +7.7589944005E-002  +8.2423485816E-002 -4.8000030220E-002 
1510742.178 +1.7471230030E-001 +8.1717364490E-002  +9.6692985296E-001 -9.6989482641E-002  +9.7208577394E-001 -9.1276913881E-002  -6.5997160971E-002 +5.6038465351E-002 
1635887.359 -1.5965750813E-001 -2.7552634478E-001  +1.0921587944E+000 +2.2211840749E-001  +1.0835351944E+000 +2.3429870605E-001  -5.2670497447E-002 -2.0687006414E-001 
1761032.541 -2.4587652087E-001 -2.5225448608E-001  +1.1770219803E+000 +1.7022971809E-001  +1.1728786230E+000 +1.8254815042E-001  -1.3041403890E-001 -1.3936203718E-001 
1886177.722 -2.5263279676E-001 +5.7649631053E-003  +1.2169408798E+000 -2.5417730212E-002  +1.2122176886E+000 -1.9560158253E-002  -1.9649998844E-001 +1.5766542405E-002 
2011322.904 -8.3371706307E-002 -4.0754947811E-002  +1.0839442015E+000 +3.1062319875E-002  +1.0790235996E+000 +2.9152855277E-002  -7.5261272490E-002 -3.5485088825E-002 
2136468.085 -1.1105101556E-001 +2.8587352484E-002  +1.0852856636E+000 -3.3264130354E-002  +1.0851069689E+000 -3.2919734716E-002  -6.1153214425E-002 +2.4913849309E-002 
2261613.267 -8.3248354495E-002 +7.8853681684E-002  +1.0663070679E+000 -7.9579710960E-002  +1.0656025410E+000 -8.0927789211E-002  -5.3429152817E-002 +5.6155439466E-002 
2386758.448 -9.0082205832E-002 +7.7657781541E-002  +1.0358400345E+000 -8.2577392459E-002  +1.0361663103E+000 -8.2164004445E-002  +2.1982444450E-003 +7.3457263410E-002 
2511903.630 -5.9776272625E-002 +9.7241215408E-003  +1.0093145370E+000 -7.3748081923E-003  +1.0096102953E+000 -8.5327774286E-003  +3.6113783717E-002 +1.4518046752E-002 
2637048.811 -2.9281083494E-002 +2.3526191711E-002  +9.9907493591E-001 -3.5695802420E-002  +9.9914693832E-001 -3.8050282747E-002  +1.7758559436E-002 +4.5589819551E-002 
2762193.992 -3.3390279859E-002 +8.0085154623E-003  +9.9029821157E-001 -1.1810839176E-002  +9.8901689053E-001 -1.1352539063E-002  +4.2028605938E-002 +2.1110124886E-002 
2887339.174 -4.0212586522E-002 -3.8919690996E-004  +9.8131239414E-001 -1.3315916061E-002  +9.8067283630E-001 -1.2354701757E-002  +5.0370130688E-002 +3.2431516796E-002 
3012484.355 -6.0074150562E-002 +1.5122937039E-002  +9.8558521271E-001 -5.0278902054E-003  +9.8592072725E-001 -5.5880546570E-003  +6.5809614956E-002 +2.1159604192E-002 
3137629.537 -3.5962041467E-002 -2.2173970938E-002  +1.0075709820E+000 +1.4672160149E-002  +1.0049303770E+000 +1.4092385769E-002  +3.0382320285E-002 +1.1720850132E-002 
3262774.718 -5.0622045994E-002 -9.0136937797E-004  +1.0071092844E+000 -1.6229718924E-002  +1.0055768490E+000 -1.4708131552E-002  +2.5959007442E-002 +2.7581816539E-002 
3387919.900 -2.0839508623E-002 +2.5273822248E-002  +9.8661100864E-001 -2.0209699869E-002  +9.8692345619E-001 -2.1120756865E-002  +1.9367853180E-002 +1.0800626129E-002 
3513065.081 -1.5822051093E-002 +2.0367519930E-002  +9.9716353416E-001 -1.0688394308E-002  +9.9612301588E-001 -1.0748147964E-002  +1.4377076179E-002 -2.3983353749E-003 
3638210.263 -3.5178609192E-002 +5.2174953744E-003  +1.0050868988E+000 +1.6187429428E-003  +1.0041493177E+000 +2.8943717480E-003  +3.7318967283E-002 +8.3445757627E-004 
3763355.444 -2.8249848634E-002 -8.0756824464E-003  +1.0106672049E+000 -4.9194395542E-003  +1.0110019445E+000 -4.2002201080E-003  +1.5247263014E-002 +8.5953027010E-003 
3888500.626 -2.0809687674E-002 +7.4239629321E-003  +1.0086706877E+000 +4.5001506805E-003  +9.9788975716E-001 +4.7418475151E-003  +2.9226940125E-002 +3.1863274053E-003 
4013645.807 -1.3476083055E-002 +1.2152236886E-003  +9.9981373549E-001 +2.6685297489E-003  +9.9527525902E-001 +8.9108943939E-004  +2.1469686180E-002 +6.7833787762E-003 
4138790.989 -1.1705478653E-002 +7.8431051224E-003  +1.0013906956E+000 -4.4113397598E-004  +9.9967265129E-001 -2.2844374180E-003  +1.5859795734E-002 +2.3095346987E-003 
4263936.170 -9.0724118054E-003 +3.8554109633E-003  +9.9219310284E-001 -3.5603642464E-003  +9.9474823475E-001 -1.3356208801E-003  +1.2905050069E-002 +4.6336185187E-004 
4389081.352 -6.2536085024E-003 +1.0399575345E-002  +9.9712347984E-001 +9.7602605820E-004  +9.9624651670E-001 -7.8874826431E-004  +4.4588055462E-003 -6.3130352646E-003 
4514226.533 -1.3783784583E-002 -1.8671411090E-003  +1.0059823990E+000 -3.9985775948E-003  +1.0027351379E+000 +6.0629844666E-004  +1.1660215445E-002 -8.1151202321E-003 
4639371.715 -6.7617427558E-003 +3.6290411372E-003  +9.9999713898E-001 +2.1693408489E-003  +1.0027254820E+000 +2.6473999023E-003  +1.7077796161E-002 -8.2029504701E-003 
4764516.896 -1.5647046268E-002 -2.2017094307E-003  +1.0060250759E+000 -4.0294229984E-003  +1.0066335201E+000 +1.8381476402E-003  +7.6241600327E-003 -1.5688011423E-002 
4889662.078 -3.0296237674E-003 -9.3601681292E-003  +1.0062441826E+000 -2.0796060562E-004  +1.0067830086E+000 +1.8490254879E-003  +9.4309840351E-003 -2.7785296552E-003 
5014807.259 -7.5076976791E-003 -4.3964050710E-003  +1.0021591187E+000 -1.4388561249E-004  +1.0050637722E+000 +1.1423230171E-003  +5.3799338639E-003 +2.6707411744E-003 
5139952.441 -1.1124595068E-002 -6.5020909533E-003  +1.0009102821E+000 -1.8386840820E-003  +1.0024054050E+000 -1.2447535992E-003  +2.1115960553E-003 +4.7288965434E-003 
5265097.622 -2.5924032088E-003 -1.0991282761E-002  +1.0080435276E+000 -1.0915696621E-003  +1.0047838688E+000 -3.6052763462E-003  +5.1237726584E-003 -6.8136807531E-003 
5390242.804 +2.2263530991E-004 +6.9831515430E-004  +1.0031344891E+000 -1.1783838272E-004  +1.0007053614E+000 +5.9436559677E-003  -2.0211427473E-003 -6.3039981760E-003 
5515387.985 +2.1853251383E-003 -8.0265570432E-003  +1.0057241917E+000 -3.4739971161E-003  +1.0060867071E+000 -6.9415569305E-004  +4.2047770694E-004 -9.9017731845E-003 
5640533.166 -9.0525933774E-004 -1.3465774246E-003  +1.0090899467E+000 -2.3176670074E-003  +1.0019522905E+000 +1.0308027267E-003  -1.0013759602E-003 -1.0183249600E-002 
5765678.348 -2.5205058046E-003 -3.8543632254E-003  +1.0076593161E+000 +2.1010637283E-005  +1.0021018982E+000 -1.7091631889E-003  -6.2109390274E-003 -6.6278968006E-003 
5890823.529 +4.1019879282E-003 -5.5162077770E-003  +1.0037378073E+000 +7.2202086449E-004  +1.0019651651E+000 -1.5532076359E-003  +2.6897981297E-003 -8.0497926101E-003 
6015968.711 +2.9769605026E-003 -8.8358845096E-004  +1.0031468868E+000 -8.0373883247E-004  +1.0009628534E+000 -7.5846910477E-005  +1.7264136113E-004 -9.3326121569E-003 
6141113.892 -6.7190160044E-003 -1.9858493470E-003  +1.0036939383E+000 -1.6241669655E-003  +9.9828952551E-001 +2.3672580719E-003  -4.7617591918E-005 -7.7184322290E-003 
6266259.074 -1.8811665941E-003 -5.4856343195E-003  +1.0043100119E+000 -1.6593933105E-004  +1.0014947653E+000 -1.0955035686E-003  +3.3102317248E-003 -5.2642864175E-003 
6391404.255 -2.8587733395E-003 -9.0669402853E-003  +1.0036975145E+000 -1.6934573650E-003  +1.0055059195E+000 -5.2963197231E-003  -9.9707138725E-004 -1.0272097774E-002 
6516549.437 -1.3393443078E-004 -5.2165733650E-003  +1.0017586946E+000 -8.6215138435E-004  +1.0020133257E+000 -2.1055340767E-004  -1.4160047285E-003 -6.8153757602E-003 
6641694.618 +5.2900048904E-003 +2.1221791394E-003  +1.0029964447E+000 -1.8550902605E-003  +1.0047404766E+000 +4.0782988071E-004  -1.9827990327E-003 -7.8928917646E-003 
6766839.800 +6.5575018525E-003 +4.2104348540E-003  +1.0024960041E+000 +3.0571967363E-003  +1.0017498732E+000 -1.0098814964E-003  +8.2318438217E-004 -1.1600333266E-002 
6891984.981 +2.0969342440E-003 -1.4022151008E-003  +9.9980592728E-001 -9.7680091858E-004  +1.0019396544E+000 -8.8609755039E-004  -1.4955524821E-003 -5.5708051659E-003 
7017130.163 +2.5387310889E-003 -1.6678355169E-003  +1.0029164553E+000 -1.4956295490E-004  +1.0023498535E+000 -1.8749237061E-003  -2.8139713686E-003 -3.5907125566E-003 
7142275.344 +1.8298885552E-003 -2.0202524029E-003  +1.0005706549E+000 -9.9839270115E-004  +1.0019094944E+000 -1.2083202600E-003  -2.0336005837E-003 -6.7566437647E-003 
7267420.526 +1.3190140016E-003 -2.0966086595E-004  +9.9890834093E-001 -1.0942518711E-003  +1.0012673140E+000 -3.0589103699E-004  -2.7862596326E-003 -7.2923889384E-003 
7392565.707 +2.5733793154E-003 -2.1317144856E-003  +1.0019364357E+000 -1.0079145432E-003  +1.0018891096E+000 -5.8439373970E-004  -6.9313962013E-004 -2.9778517783E-003 
7517710.889 +2.0408264827E-003 -6.4441742143E-004  +1.0001442432E+000 +1.7563998699E-004  +1.0009489059E+000 +1.1824816465E-003  +3.1059975736E-003 -2.2668524180E-003 
7642856.070 -1.3056528987E-003 -8.6736347293E-004  +9.9837762117E-001 -1.4205649495E-003  +9.9823647738E-001 +6.1161071062E-004  -3.4352685325E-003 -3.7447887007E-003 
7768001.252 +2.2675213404E-003 -1.9980018260E-004  +1.0004017353E+000 -1.8325038254E-003  +1.0002549887E+000 -5.6173652411E-005  +9.9138543010E-004 -1.0684827575E-003 
7893146.433 +5.7847579010E-003 +1.2687009294E-003  +1.0011476278E+000 +1.4165379107E-003  +1.0009348392E+000 +1.4613717794E-003  -1.6693801153E-003 +2.9800992925E-003 
8018291.615 +2.5660702959E-003 -1.0484410450E-003  +1.0010336637E+000 +2.9304996133E-004  +1.0016620159E+000 -1.8640421331E-005  -1.4748984249E-003 -5.8788404567E-004 
8143436.796 +1.2553239940E-003 +7.3889124906E-004  +1.0023362637E+000 -1.7763422802E-003  +9.9948394299E-001 -8.1770773977E-004  -3.4534090664E-003 -1.1784476228E-003 
8268581.977 +1.0756348493E-003 -4.1038856580E-005  +1.0003774166E+000 -9.7882375121E-004  +1.0014723539E+000 -8.5410848260E-004  -3.9401189424E-003 -1.0651720222E-003 
8393727.159 +1.8126502400E-003 -2.6843373198E-003  +1.0020084381E+000 -1.7304681242E-003  +1.0018056631E+000 -6.2345340848E-004  -3.9479429834E-003 -1.3924621744E-003 
8518872.340 -1.1068269378E-003 -5.7024792768E-003  +1.0010502338E+000 -4.9397349358E-005  +1.0007740259E+000 -5.0436705351E-004  -1.2171507115E-004 -3.6441115662E-003 
8644017.522 -2.3067074362E-003 -3.7410256919E-003  +1.0000839233E+000 +8.6167454720E-004  +1.0004400015E+000 -7.5988471508E-005  -8.9486558863E-005 -9.9980435334E-004 
8769162.703 -4.7958502546E-003 -5.0152153708E-003  +1.0007647276E+000 +1.1444985867E-003  +9.9915897846E-001 -1.0597705841E-003  +1.9344205502E-003 +3.7521115155E-004 
8894307.885 -3.0099118594E-003 -5.0998101942E-003  +1.0005604029E+000 -9.3516707420E-004  +1.0018409491E+000 -8.3155930042E-004  -2.1665524691E-003 -3.3678361215E-003 
9019453.066 -1.2728531146E-003 -7.3464084417E-003  +1.0008059740E+000 -2.3658871651E-003  +1.0016999245E+000 +6.9057941437E-004  +7.1391038364E-004 -1.7637987621E-003 
9144598.248 -1.0612254264E-003 -4.4885235839E-003  +1.0004991293E+000 -1.2113153934E-004  +1.0010960102E+000 -7.0199370384E-005  -6.2254094519E-004 -3.0602596235E-003 
9269743.429 +1.3518927153E-003 -2.7918266132E-003  +1.0007596016E+000 +8.9602172375E-004  +9.9877154827E-001 +1.3105869293E-003  -2.2147188429E-003 -5.2527664229E-003 
9394888.611 +3.1842682511E-003 -1.1765055824E-003  +1.0011637211E+000 +3.9348006248E-004  +1.0006185770E+000 -9.3290209770E-004  -1.9482218195E-003 -3.7170764990E-003 
9520033.792 -2.1733189933E-003 -4.1367844678E-003  +1.0018737316E+000 -6.3294172287E-004  +1.0012576580E+000 -8.9693069458E-004  -4.8810272710E-004 -3.0473924708E-003 
9645178.974 +1.0103229433E-003 -2.8435918503E-003  +1.0013595819E+000 -1.0389387608E-003  +1.0011781454E+000 +1.6956329346E-003  -3.9364872500E-003 -3.3952402882E-003 
9770324.155 +1.2854497181E-003 -7.3960970622E-004  +9.9993115664E-001 -7.7852606773E-004  +1.0003348589E+000 -9.7629427910E-004  -5.8134319261E-003 -2.4021468125E-003 
9895469.337 +1.5241769142E-004 -3.4905099310E-003  +1.0005067587E+000 -7.3301792145E-004  +1.0004194975E+000 +7.6204538345E-004  -2.8945892118E-003 -7.8319455497E-004 
10020614.518 +9.9263130687E-004 -3.8647935726E-003  +1.0006994009E+000 -8.6989998817E-004  +1.0019690990E+000 -6.9367885590E-004  -3.6738265771E-003 -1.7493289197E-003 
10145759.700 -8.6300575640E-004 -3.9703035727E-003  +1.0012496710E+000 -3.0994415283E-005  +1.0007891655E+000 -5.0970911980E-004  -2.8004201595E-003 -2.3983425926E-003 
10270904.881 +3.5485631088E-004 -2.9500466771E-003  +1.0009679794E+000 -1.5920400620E-004  +1.0012325048E+000 -1.3926625252E-004  -2.6802569628E-003 -4.2859567329E-003 
10396050.063 -1.3573153410E-004 -2.7668597177E-003  +1.0005438328E+000 +2.1576881409E-004  +1.0003888607E+000 -1.1768639088E-003  -4.3446719646E-003 -4.2504006997E-003 
10521195.244 +2.8833001852E-003 -1.7955908552E-003  +1.0008777380E+000 -1.2195110321E-004  +1.0002241135E+000 -4.9227476120E-004  -2.2581955418E-003 -3.9138165303E-003 
10646340.426 -2.0231546368E-003 -2.0346115343E-003  +1.0003510714E+000 -1.3431310654E-003  +1.0006794930E+000 -7.9658627510E-004  -2.0355447195E-003 -1.3018071186E-003 
10771485.607 +1.8624230288E-003 -1.2432255317E-003  +9.9997693300E-001 -6.9358944893E-004  +9.9982291460E-001 +9.7960233688E-005  -2.9508750886E-003 -2.8786768671E-003 
10896630.788 +9.6157222288E-004 +6.9131294731E-004  +1.0002769232E+000 -3.8716197014E-004  +1.0007779598E+000 -3.9532780647E-004  -2.3185554892E-003 -1.6262294957E-003 
11021775.970 +8.7083451217E-004 +5.4899789393E-004  +1.0001233816E+000 +6.3237547874E-004  +1.0005347729E+000 -8.1932544708E-004  -1.5984417405E-003 -1.9597178325E-003 
11146921.151 -3.7032808177E-004 -2.5274464861E-003  +1.0000654459E+000 -6.3425302505E-004  +1.0004212856E+000 -3.2898783684E-004  -1.4493562048E-003 -6.1672873562E-004 
11272066.333 -3.7257850636E-004 -3.5865642130E-003  +1.0004107952E+000 -4.6712160110E-004  +1.0004611015E+000 -3.8579106331E-004  -3.1176633202E-003 -1.9024303183E-003 
11397211.514 -1.5149373212E-004 -1.1062489357E-003  +1.0004218817E+000 -6.7853927612E-004  +1.0005569458E+000 +2.5966763496E-004  -1.5278587816E-003 -7.2527898010E-004 
11522356.696 +8.5775915068E-004 -1.9603902474E-003  +1.0005691051E+000 -7.3352456093E-004  +1.0011187792E+000 +2.5337934494E-004  -1.1811656877E-003 -2.1102882456E-003 
11647501.877 +2.0777031314E-003 -1.4263637131E-003  +1.0002889633E+000 -1.1578202248E-004  +1.0003912449E+000 +3.4272670746E-006  -3.1601674855E-003 -1.6024475917E-003 
11772647.059 +4.0055657155E-004 -1.3242232380E-003  +1.0005774498E+000 +6.1473250389E-004  +1.0006718636E+000 -2.6145577431E-004  -2.7736146003E-003 -2.5249219034E-003 
11897792.240 -9.9498778582E-004 -1.3230901677E-003  +1.0005230904E+000 -5.6520104408E-004  +1.0006103516E+000 +5.2779912949E-005  -2.1691732109E-003 -2.4062502198E-003 
12022937.422 +9.2223542742E-004 -1.4034436317E-003  +9.9990713596E-001 -3.8996338844E-004  +1.0007293224E+000 -6.0623884201E-004  -1.7881146632E-003 -2.3703931365E-003 
12148082.603 +3.5812950227E-004 -2.4392746855E-003  +1.0005166531E+000 -4.6989321709E-004  +1.0004590750E+000 +2.2089481354E-004  -2.1228587721E-003 -1.8967642682E-003 
12273227.785 +8.7422708748E-004 -1.9935714081E-003  +1.0002558231E+000 -2.2462010384E-004  +1.0008611679E+000 -4.3714046478E-004  -1.5407013707E-003 -1.1616162956E-003 
12398372.966 +7.0378766395E-005 -2.2158925422E-003  +1.0006649494E+000 +2.5749206543E-005  +1.0006589890E+000 -1.0070204735E-004  -6.8193185143E-004 -1.8981590401E-003 
12523518.148 +5.1191775128E-005 -1.3109359425E-003  +1.0009024143E+000 -7.5241923332E-004  +1.0007840395E+000 -9.2267990112E-005  -2.1194617730E-003 -1.5032999218E-003 
12648663.329 +2.9622338479E-004 +1.8069210637E-004  +1.0007382631E+000 -7.3850154877E-004  +1.0002074242E+000 -5.1638484001E-004  -1.6715952661E-003 -1.4675052371E-003 
12773808.511 -1.7605983885E-004 -2.0326527301E-003  +1.0010535717E+000 -1.9538402557E-004  +1.0000207424E+000 -6.6131353378E-005  -1.6110506840E-003 -1.9521341892E-003 
12898953.692 +3.4964032238E-005 +6.3956063241E-004  +1.0000486374E+000 -1.0255277157E-003  +1.0006378889E+000 -6.8682432175E-004  -1.5747621655E-003 -2.3180923890E-003 
13024098.874 +1.0928396368E-003 +1.0048772674E-004  +9.9985426664E-001 -4.2980909348E-004  +1.0007389784E+000 -3.6349892616E-004  -1.6890997067E-003 -7.1141362423E-004 
13149244.055 +1.1015065247E-003 +3.2357004238E-004  +9.9999958277E-001 -1.6543269157E-004  +1.0001450777E+000 +1.8925964832E-004  -9.6075062174E-004 +7.4843570474E-005 
13274389.237 +8.6730264593E-004 -2.0541034173E-003  +1.0004615784E+000 -6.9457292557E-004  +1.0001381636E+000 -3.4728646278E-004  -8.1852957373E-004 +1.1821738735E-004 
13399534.418 -6.3445640262E-004 -7.2993524373E-004  +1.0006124973E+000 -5.3092837334E-005  +1.0008790493E+000 +2.2068619728E-005  -1.5686185798E-003 -1.0978886858E-003 
13524679.599 +6.7330605816E-004 -2.5539044873E-004  +1.0002297163E+000 -9.3340873718E-005  +1.0008682013E+000 +5.9619545937E-005  -5.9679744300E-004 +7.9111522064E-004 
13649824.781 -4.5283383224E-004 -1.3531956356E-003  +1.0004452467E+000 -4.0620565414E-004  +1.0001615286E+000 -6.5996497869E-004  -1.6158194921E-004 -8.9366367320E-004 
13774969.962 +8.8013993809E-004 -1.4335283777E-003  +1.0001736879E+000 +1.0041520000E-004  +1.0006982088E+000 -4.2261183262E-004  -1.4685629867E-003 -9.2403346207E-004 
13900115.144 +9.1745780082E-004 -2.5777812698E-004  +1.0001513958E+000 -8.7679363787E-005  +1.0004179478E+000 -5.3688045591E-004  -3.4811170190E-004 -2.0578145632E-004 
14025260.325 +1.4165295579E-004 -7.9473049846E-004  +1.0006084442E+000 -2.5193393230E-004  +1.0005435944E+000 +1.8606334925E-004  -6.7886424949E-004 -7.3599413736E-004 
14150405.507 +2.6005457039E-004 -5.6896533351E-004  +1.0007737875E+000 -6.2044709921E-004  +1.0010205507E+000 -7.3112547398E-004  -1.2350836769E-003 -5.1920418628E-004 
14275550.688 +5.7803123491E-004 -6.3550937921E-004  +1.0003961325E+000 -7.0296227932E-004  +1.0005536079E+000 -1.6109645367E-004  -1.5089910012E-003 -7.0341964602E-005 
14400695.870 +8.8775932090E-004 -4.9722078256E-004  +1.0000226498E+000 +1.2713670731E-004  +1.0001391172E+000 -8.7630748749E-004  -2.5166498963E-003 -6.8808242213E-004 
