!  2-Port S-parameters saved by WinCal
! VAR MeasName=S-Parameters (CALIBRATED_DATA) read from VNA (P5004A)
! VAR MeasDate=22/05/2024 19:22:12
! VAR NAME=Wafer2_r2_c1_set3
! VAR FILENAME=Wafer2_r2_c1_set3.S2P
! VAR DATE=22/05/2024 19:22:13
! VAR PHYS_PORTS=1,2
! VAR ObjTypeName=DATASET
! VAR IndexType=Frequency
!
# Hz S RI R 50
9000.000 +2.1485202014E-001 -5.8723634481E-001  +7.8259268776E-004 +1.0077418759E-002  +2.3593709338E-003 +2.6401202194E-004  +4.5725703239E-002 +1.0237105191E-001 
134145.181 +7.4658197165E-001 +1.3327442110E-002  -3.3889615443E-003 -3.1555183232E-003  -1.0794003494E-002 -8.8027883321E-003  +4.1138711572E-001 +8.6310774088E-002 
259290.363 +9.3969380856E-001 -7.3408350348E-002  -7.2607886977E-003 +1.7554513179E-003  +5.9416405857E-003 -2.8794324026E-003  +9.6287912130E-001 -3.4038871527E-002 
384435.544 +9.4520616531E-001 -2.4843990803E-001  -7.1051376872E-003 -6.1413911171E-003  -1.0624410352E-003 -6.6246478818E-003  +1.0139725208E+000 -5.0102517009E-002 
509580.726 +9.7583919764E-001 -1.2852644920E-001  +5.4165063193E-004 -1.4448573347E-004  -1.9252464408E-003 -2.0978208631E-003  +1.0050860643E+000 -3.3149808645E-002 
634725.907 +1.0842928886E+000 -1.8009707332E-001  -1.5382829588E-005 -1.4797227923E-003  +2.1619285690E-005 -9.7210292006E-004  +1.0816417933E+000 -5.3883045912E-002 
759871.089 +1.2444217205E+000 -9.3367516994E-002  +7.8706355998E-004 +7.9889246263E-004  +1.7005602131E-003 +8.1337825395E-004  +1.1663022041E+000 -7.2149217129E-002 
885016.270 +5.4719173908E-001 -8.9657300711E-001  +1.0707022622E-002 +2.4849232286E-002  +8.9253364131E-003 -2.0880964585E-003  +1.4060349464E+000 -3.1282082200E-001 
1010161.452 +1.0002976656E+000 +3.1516745687E-002  -2.0437720232E-003 -4.7461288050E-003  -3.6241048947E-003 -3.1122586224E-003  +6.6542333364E-001 +3.1647601724E-001 
1135306.633 +1.0224845409E+000 +1.2954877317E-001  +4.1108526057E-004 -1.2373941718E-003  +4.2280815542E-003 -3.0912160873E-003  +8.6774295568E-001 +2.9101264477E-001 
1260451.815 +1.3527537584E+000 +1.1834253371E-001  -1.6021254123E-004 -1.8443679437E-003  +1.0647660820E-003 -6.3074758509E-004  +9.3258744478E-001 +2.7541351318E-001 
1385596.996 +1.2518260479E+000 -5.3001105785E-002  +2.2259554826E-003 -2.8122845106E-004  +6.8498385372E-004 +2.8500379995E-004  +9.8834931850E-001 +1.5855380893E-001 
1510742.178 +1.3521596193E+000 -1.1552381516E-001  +1.3643144630E-003 +9.3070033472E-005  +2.6356237940E-003 -6.0624140315E-004  +9.0113031864E-001 +1.9074481726E-001 
1635887.359 +9.8291534185E-001 -2.2730757296E-001  +2.4296755437E-003 -1.3259042753E-003  +9.9699175917E-004 -2.0378951449E-003  +1.1045780182E+000 +1.5627908707E-001 
1761032.541 +1.0214093924E+000 -1.8319076300E-001  +1.0557594942E-003 -6.9058674853E-004  +1.1289675022E-003 -6.2216038350E-004  +1.0584907532E+000 +1.9828283787E-001 
1886177.722 +1.0076949596E+000 -9.1565191746E-002  +1.3037071330E-003 -1.3595592463E-004  +1.0816911235E-003 +1.4872626634E-003  +1.0565469265E+000 +1.3467323780E-001 
2011322.904 +1.0070303679E+000 -6.1147928238E-002  +1.9720147830E-003 +4.0987099055E-004  +1.3441782212E-003 +6.2741874717E-004  +1.0510643721E+000 +1.3354668021E-001 
2136468.085 +1.0068397522E+000 -3.4595608711E-002  +1.6687058378E-003 +7.9055334209E-004  +1.5755216591E-003 +1.3468321413E-003  +1.0393043756E+000 +1.2579780817E-001 
2261613.267 +1.0067142248E+000 -2.4343639612E-002  +2.2286244202E-003 +5.1280180924E-004  +1.1830520816E-003 +6.1507336795E-004  +1.0231440067E+000 +1.5153852105E-001 
2386758.448 +1.0035749674E+000 -6.2048137188E-003  +1.8954449333E-003 +1.2462042505E-003  +1.6899540788E-003 +1.2297093635E-003  +1.0332584381E+000 +1.5440279245E-001 
2511903.630 +1.0046584606E+000 +2.1248519421E-002  +1.8251929432E-003 +1.5706373379E-003  +1.8967795186E-003 +1.5758774243E-003  +1.0430562496E+000 +1.7615947127E-001 
2637048.811 +1.0065734386E+000 +2.2537142038E-002  +2.1241800860E-003 +1.5776327346E-003  +1.8567845691E-003 +1.7594043165E-003  +1.0334932804E+000 +2.0607912540E-001 
2762193.992 +9.9560034275E-001 +4.7236457467E-002  +2.0676925778E-003 +1.8826201558E-003  +1.5742192045E-003 +1.6771241790E-003  +1.0289119482E+000 +2.0689885318E-001 
2887339.174 +9.8662275076E-001 +7.1718022227E-002  +1.8230266869E-003 +1.9638240337E-003  +1.8890606007E-003 +2.0533134229E-003  +1.0231647491E+000 +2.3921588063E-001 
3012484.355 +1.0031470060E+000 +8.6987838149E-002  +1.9259597175E-003 +1.8010697095E-003  +2.1748899017E-003 +2.4474130478E-003  +1.0518678427E+000 +2.8147706389E-001 
3137629.537 +1.0042731762E+000 +1.0180582106E-001  +1.8487966154E-003 +2.8061182238E-003  +1.5662675723E-003 +1.7597356346E-003  +1.0965588093E+000 +3.0255967379E-001 
3262774.718 +1.0074661970E+000 +1.2440736592E-001  +2.0053547341E-003 +1.9476675661E-003  +1.6887017991E-003 +2.1022767760E-003  +1.1207422018E+000 +3.0470210314E-001 
3387919.900 +1.0092185736E+000 +1.3978277147E-001  +1.8714709440E-003 +2.2670682520E-003  +2.0212263335E-003 +2.5962153450E-003  +1.1482212543E+000 +3.0687916279E-001 
3513065.081 +1.0251727104E+000 +1.5509580076E-001  +2.6613019872E-003 +2.4990278762E-003  +1.8921229057E-003 +2.9375385493E-003  +1.1814672947E+000 +3.4096556902E-001 
3638210.263 +1.0482506752E+000 +1.7021252215E-001  +1.6092011938E-003 +3.5539986566E-003  +1.5646053944E-003 +2.8269507457E-003  +1.2101304531E+000 +3.3219668269E-001 
3763355.444 +1.0653997660E+000 +1.8453775346E-001  +1.7692665569E-003 +2.6822444052E-003  +1.6649758909E-003 +2.3015302140E-003  +1.2469440699E+000 +3.0836194754E-001 
3888500.626 +1.0863022804E+000 +1.9844457507E-001  +2.1504904144E-003 +3.7067928351E-003  +2.4657403119E-003 +3.4324105363E-003  +1.2828865051E+000 +3.1921708584E-001 
4013645.807 +1.0548371077E+000 +9.8055049777E-002  +2.9095150530E-003 +3.3165912610E-003  +2.9385476373E-003 +3.1940871850E-003  +1.2580735683E+000 +1.4012724161E-001 
4138790.989 +9.8176252842E-001 +3.5883337259E-003  +4.6607810073E-003 +2.9447162524E-003  +4.1608978063E-003 +2.5068328250E-003  +1.1682112217E+000 +1.8688254058E-003 
4263936.170 +9.7284162045E-001 +1.3926718384E-002  +5.0566946156E-003 +3.4710078035E-003  +3.9562084712E-003 +2.9979078099E-003  +1.1530116796E+000 -3.3587768674E-002 
4389081.352 +9.9396973848E-001 +9.8752249032E-003  +4.5237136073E-003 +2.8215984348E-003  +4.5217112638E-003 +2.3568049073E-003  +1.1445246935E+000 -4.8408597708E-002 
4514226.533 +9.9591785669E-001 +4.2632371187E-003  +5.1538594998E-003 +3.2725527417E-003  +4.3817353435E-003 +3.0356233474E-003  +1.1419570446E+000 -7.1673318744E-002 
4639371.715 +1.0004129410E+000 -3.7642903626E-003  +4.8233959824E-003 +3.2773220446E-003  +4.5823059045E-003 +3.0179778114E-003  +1.1287485361E+000 -6.5451554954E-002 
4764516.896 +9.9791806936E-001 +3.9468333125E-004  +4.5830411837E-003 +2.7960750740E-003  +4.7865067609E-003 +2.5491395500E-003  +1.1230801344E+000 -8.6556114256E-002 
4889662.078 +1.0059673786E+000 +3.4265071154E-003  +4.5327055268E-003 +3.3086852636E-003  +4.7562858090E-003 +3.1330406200E-003  +1.1190890074E+000 -9.4583354890E-002 
5014807.259 +1.0031306744E+000 +4.4297575951E-003  +4.4969408773E-003 +2.4024159648E-003  +4.4867671095E-003 +3.0847603921E-003  +1.0929262638E+000 -8.6354203522E-002 
5139952.441 +1.0064543486E+000 -4.0303915739E-004  +4.7427979298E-003 +3.2119946554E-003  +5.0722588785E-003 +2.9515952338E-003  +1.0943185091E+000 -1.0254466534E-001 
5265097.622 +1.0113487244E+000 +1.9823685288E-003  +4.4972402975E-003 +3.0993921682E-003  +5.2919336595E-003 +3.6980442237E-003  +1.0770013332E+000 -1.0730159283E-001 
5390242.804 +1.0129135847E+000 -6.0993954539E-003  +4.4162953272E-003 +2.8543735389E-003  +5.2586845122E-003 +3.2477863133E-003  +1.0629812479E+000 -9.5752090216E-002 
5515387.985 +1.0140806437E+000 -9.3878731132E-003  +4.8702610657E-003 +3.2859526109E-003  +4.8562674783E-003 +3.2089846209E-003  +1.0651725531E+000 -1.0446596146E-001 
5640533.166 +1.0201169252E+000 -1.6658045352E-002  +5.1109506749E-003 +2.9169581831E-003  +4.8786536790E-003 +3.3316053450E-003  +1.0566725731E+000 -1.0467613488E-001 
5765678.348 +1.0055665970E+000 -1.5594929457E-002  +4.9707908183E-003 +3.3905331511E-003  +5.2932412364E-003 +3.3127022907E-003  +1.0461350679E+000 -1.0965537280E-001 
5890823.529 +1.0036102533E+000 -2.2726722062E-002  +4.9603432417E-003 +3.3001708798E-003  +5.2578286268E-003 +3.2187204342E-003  +1.0346610546E+000 -1.1192060262E-001 
6015968.711 +1.0068290234E+000 -2.7241595089E-002  +5.0108297728E-003 +3.5946806893E-003  +5.3947586566E-003 +3.4442543983E-003  +1.0313512087E+000 -1.0567548871E-001 
6141113.892 +1.0058287382E+000 -2.8913334012E-002  +5.1825516857E-003 +3.3389518503E-003  +5.3033251315E-003 +3.1964448281E-003  +1.0244352818E+000 -1.0194346309E-001 
6266259.074 +1.0041064024E+000 -2.5877185166E-002  +4.7698440030E-003 +3.1150658615E-003  +4.9819080159E-003 +3.6407846492E-003  +1.0110580921E+000 -9.5781207085E-002 
6391404.255 +9.9330031872E-001 -3.7293799222E-002  +5.1465188153E-003 +3.1275299843E-003  +5.4929326288E-003 +3.3521761652E-003  +1.0100290775E+000 -1.0051693022E-001 
6516549.437 +9.9463689327E-001 -3.1933762133E-002  +5.0697717816E-003 +3.2545635477E-003  +5.2129002288E-003 +3.1724418513E-003  +1.0074205399E+000 -9.6529081464E-002 
6641694.618 +1.0019388199E+000 -2.7720257640E-002  +4.8785661347E-003 +3.5679107532E-003  +5.2313609049E-003 +3.7497668527E-003  +1.0046567917E+000 -8.6402580142E-002 
6766839.800 +1.0032035112E+000 -3.1931698322E-002  +4.9507007934E-003 +3.6518564448E-003  +5.3947488777E-003 +3.1858240254E-003  +9.9983239174E-001 -9.2105448246E-002 
6891984.981 +1.0004163980E+000 -3.3407032490E-002  +5.0497776829E-003 +3.8171624765E-003  +4.8730135895E-003 +3.5914084874E-003  +9.8671257496E-001 -8.5457280278E-002 
7017130.163 +9.9451529980E-001 -3.4654363990E-002  +5.2267713472E-003 +3.4100797493E-003  +5.4216748103E-003 +3.5328601953E-003  +9.9346691370E-001 -7.9147070646E-002 
7142275.344 +9.9474871159E-001 -3.0412361026E-002  +5.2072727121E-003 +3.7838998251E-003  +5.3826170042E-003 +3.5208207555E-003  +9.8907196522E-001 -7.2785392404E-002 
7267420.526 +9.9485504627E-001 -2.6440456510E-002  +5.1284870133E-003 +3.8635171950E-003  +5.3266896866E-003 +3.7488220260E-003  +9.8550730944E-001 -7.2527006269E-002 
7392565.707 +9.9573075771E-001 -2.3543179035E-002  +5.1684495993E-003 +3.8066380657E-003  +5.4201469757E-003 +4.0526269004E-003  +9.8534727097E-001 -7.1930348873E-002 
7517710.889 +9.9530589581E-001 -2.3212954402E-002  +4.9692029133E-003 +3.8790674880E-003  +5.1644463092E-003 +3.8841380738E-003  +9.8249942064E-001 -7.1188092232E-002 
7642856.070 +9.8925089836E-001 -3.1556263566E-002  +5.2052615210E-003 +3.7466241047E-003  +5.4197912104E-003 +3.8172395434E-003  +9.7331988811E-001 -6.9493219256E-002 
7768001.252 +9.9089396000E-001 -2.4735718966E-002  +5.3881271742E-003 +3.8464854006E-003  +5.3511103615E-003 +3.9745308459E-003  +9.6920037270E-001 -6.7317888141E-002 
7893146.433 +9.9095624685E-001 -2.2523060441E-002  +5.3496276960E-003 +4.0562646464E-003  +5.2577694878E-003 +4.0447725914E-003  +9.7273802757E-001 -5.7917073369E-002 
8018291.615 +9.8617273569E-001 -2.6235803962E-002  +5.0697135739E-003 +3.9843325503E-003  +5.2704936825E-003 +4.0117967874E-003  +9.6684974432E-001 -5.5442169309E-002 
8143436.796 +9.8432564735E-001 -2.5745928288E-002  +5.0023351796E-003 +3.7934987340E-003  +5.4384395480E-003 +3.9766561240E-003  +9.6716755629E-001 -5.3372651339E-002 
8268581.977 +9.8373419046E-001 -2.6116371155E-002  +5.1359911449E-003 +4.0886038914E-003  +5.2032470703E-003 +4.2104385793E-003  +9.6682345867E-001 -4.4715523720E-002 
8393727.159 +9.8310893774E-001 -2.4160742760E-002  +5.0658648834E-003 +4.0838923305E-003  +5.3089950234E-003 +4.0124859661E-003  +9.6803909540E-001 -4.2904675007E-002 
8518872.340 +9.8497223854E-001 -2.2678345442E-002  +5.2535021678E-003 +4.1341474280E-003  +5.2713928744E-003 +4.1023865342E-003  +9.6934336424E-001 -3.9924472570E-002 
8644017.522 +9.8505377769E-001 -2.2180050611E-002  +5.0656194799E-003 +4.2361202650E-003  +5.4457522929E-003 +4.0561510250E-003  +9.7004961967E-001 -3.8312494755E-002 
8769162.703 +9.8764407635E-001 -2.0122915506E-002  +5.0980849192E-003 +4.2461045086E-003  +5.1346700639E-003 +4.2569702491E-003  +9.6951538324E-001 -3.8596928120E-002 
8894307.885 +9.8312509060E-001 -1.8812298775E-002  +5.1775430329E-003 +4.2710872367E-003  +5.1670866087E-003 +4.6473350376E-003  +9.6545290947E-001 -4.1861772537E-002 
9019453.066 +9.8324364424E-001 -2.1726131439E-002  +5.0922269002E-003 +4.3450668454E-003  +5.1541738212E-003 +4.5818178914E-003  +9.6242392063E-001 -3.8408488035E-002 
9144598.248 +9.8299628496E-001 -2.0762711763E-002  +5.3467079997E-003 +4.5129735954E-003  +5.4236492142E-003 +4.3955445290E-003  +9.6420902014E-001 -3.6210834980E-002 
9269743.429 +9.8396641016E-001 -1.9481480122E-002  +4.9573313445E-003 +4.6550580300E-003  +5.4726456292E-003 +4.5602684841E-003  +9.6578788757E-001 -3.1503885984E-002 
9394888.611 +9.8270541430E-001 -1.4184892178E-002  +5.0323288888E-003 +4.5669702813E-003  +5.2772993222E-003 +4.5961709693E-003  +9.6417677402E-001 -3.0921250582E-002 
9520033.792 +9.8411810398E-001 -1.9061326981E-002  +5.0818878226E-003 +4.5419894159E-003  +5.4248259403E-003 +4.6290033497E-003  +9.6481353045E-001 -2.8593063354E-002 
9645178.974 +9.8518168926E-001 -1.5230923891E-002  +5.1155821420E-003 +4.7023063526E-003  +5.3990650922E-003 +4.7282259911E-003  +9.6383380890E-001 -2.7279734612E-002 
9770324.155 +9.8253619671E-001 -1.3932764530E-002  +4.9430667423E-003 +4.7204699367E-003  +5.1275542937E-003 +4.7840038314E-003  +9.6248912811E-001 -2.4122685194E-002 
9895469.337 +9.8365676403E-001 -1.2456446886E-002  +5.1529840566E-003 +4.8181447200E-003  +5.3843571804E-003 +4.8349676654E-003  +9.6354496479E-001 -2.4167329073E-002 
10020614.518 +9.8093962669E-001 -1.1075139046E-002  +4.9586473033E-003 +4.7953072935E-003  +5.1451092586E-003 +4.8946253955E-003  +9.6499329805E-001 -1.9996285439E-002 
10145759.700 +9.8447668552E-001 -1.1866480112E-002  +5.0686560571E-003 +5.0380690955E-003  +5.2890069783E-003 +4.9248770811E-003  +9.6624338627E-001 -2.1422326565E-002 
10270904.881 +9.8451948166E-001 -1.3325273991E-002  +5.1488867030E-003 +5.0124772824E-003  +5.3165396675E-003 +4.9738455564E-003  +9.6934044361E-001 -1.9232749939E-002 
10396050.063 +9.8568737507E-001 -1.0503679514E-002  +5.1567046903E-003 +5.1525295712E-003  +5.4116067477E-003 +5.1004993729E-003  +9.6656394005E-001 -1.5476882458E-002 
10521195.244 +9.8471212387E-001 -9.2262625694E-003  +5.2037942223E-003 +5.1255500875E-003  +5.3505860269E-003 +5.0858356990E-003  +9.6833038330E-001 -1.5088081360E-002 
10646340.426 +9.8422151804E-001 -1.1420816183E-002  +5.2293334156E-003 +5.2455090918E-003  +5.2735456266E-003 +5.2323276177E-003  +9.6905970573E-001 -1.3136714697E-002 
10771485.607 +9.8362743855E-001 -1.1343538761E-002  +5.1612672396E-003 +5.2891052328E-003  +5.4428526200E-003 +5.1663806662E-003  +9.6978402138E-001 -1.2608200312E-002 
10896630.788 +9.8327076435E-001 -8.5385739803E-003  +5.1638958976E-003 +5.3349984810E-003  +5.3516509943E-003 +5.4157660343E-003  +9.6823036671E-001 -1.1410087347E-002 
11021775.970 +9.8367977142E-001 -7.9822242260E-003  +5.0168917514E-003 +5.3282864392E-003  +5.3421342745E-003 +5.3375326097E-003  +9.7062212229E-001 -1.0430306196E-002 
11146921.151 +9.8359882832E-001 -9.2919468880E-003  +5.1589622162E-003 +5.4980483837E-003  +5.3359209560E-003 +5.4385834374E-003  +9.7033804655E-001 -9.0660452843E-003 
11272066.333 +9.8284780979E-001 -8.6968541145E-003  +5.2743651904E-003 +5.3924019448E-003  +5.3861686029E-003 +5.4826284759E-003  +9.7018700838E-001 -9.1591179371E-003 
11397211.514 +9.8487401009E-001 -7.7143013477E-003  +5.1826904528E-003 +5.5449642241E-003  +5.2395011298E-003 +5.5842758156E-003  +9.7069573402E-001 -9.8745822906E-003 
11522356.696 +9.8466408253E-001 -7.7888369560E-003  +5.2051637322E-003 +5.6079160422E-003  +5.2032577805E-003 +5.6076329201E-003  +9.7286331654E-001 -9.5961391926E-003 
11647501.877 +9.8346686363E-001 -7.1733891964E-003  +5.1754107699E-003 +5.6275418028E-003  +5.1132901572E-003 +5.6176604703E-003  +9.7148454189E-001 -7.8501701355E-003 
11772647.059 +9.8597478867E-001 -6.1866641045E-003  +5.2114552818E-003 +5.6243306026E-003  +5.3568151779E-003 +5.7099731639E-003  +9.7181141376E-001 -8.0406963825E-003 
11897792.240 +9.8489719629E-001 -5.2786767483E-003  +5.2048629150E-003 +5.7437238283E-003  +5.4182121530E-003 +5.6786537170E-003  +9.7334384918E-001 -8.6393058300E-003 
12022937.422 +9.8581588268E-001 -4.1537284851E-003  +5.2333856001E-003 +5.7962522842E-003  +5.2069234662E-003 +5.8541558683E-003  +9.7382479906E-001 -7.1783363819E-003 
12148082.603 +9.8629438877E-001 -5.9557855129E-003  +5.1211831160E-003 +5.8591314591E-003  +5.1787234843E-003 +5.8746398427E-003  +9.7482001781E-001 -6.0622394085E-003 
12273227.785 +9.8659807444E-001 -4.4122934341E-003  +5.1653380506E-003 +5.8934055269E-003  +5.3978804499E-003 +5.8747893199E-003  +9.7555166483E-001 -6.1996579170E-003 
12398372.966 +9.8599356413E-001 -5.1148235798E-003  +5.1115890965E-003 +5.9449607506E-003  +5.4207341745E-003 +5.9981755912E-003  +9.7719520330E-001 -4.7583580017E-003 
12523518.148 +9.8543727398E-001 -5.2174627781E-003  +5.1562651061E-003 +6.0458881781E-003  +5.4087182507E-003 +6.0719810426E-003  +9.7478920221E-001 -5.1930844784E-003 
12648663.329 +9.8606938124E-001 -4.0530562401E-003  +5.2206302062E-003 +6.0986867175E-003  +5.3463783115E-003 +6.1420598067E-003  +9.7724628448E-001 -5.8247745037E-003 
12773808.511 +9.8747158051E-001 -5.3198039532E-003  +5.1829232834E-003 +6.0938829556E-003  +5.3730197251E-003 +6.1219474301E-003  +9.7737419605E-001 -4.6487003565E-003 
12898953.692 +9.8719066381E-001 -4.3561682105E-003  +5.2313278429E-003 +6.1670639552E-003  +5.3569003940E-003 +6.2027531676E-003  +9.7759538889E-001 -5.1655769348E-003 
13024098.874 +9.8746174574E-001 -3.9375200868E-003  +5.1969476044E-003 +6.2569798902E-003  +5.4191593081E-003 +6.2592248432E-003  +9.7766375542E-001 -3.7683099508E-003 
13149244.055 +9.8749214411E-001 -3.4679379314E-003  +5.2212048322E-003 +6.3304970972E-003  +5.3232498467E-003 +6.3013448380E-003  +9.7907245159E-001 -3.1700693071E-003 
13274389.237 +9.8744130135E-001 -4.2548105121E-003  +5.2072559483E-003 +6.3628735952E-003  +5.4134945385E-003 +6.3604242168E-003  +9.8027992249E-001 -2.7620792389E-003 
13399534.418 +9.8739695549E-001 -2.5015026331E-003  +5.2016503178E-003 +6.4365053549E-003  +5.3829299286E-003 +6.4157214947E-003  +9.7986000776E-001 -1.7491430044E-003 
13524679.599 +9.8791557550E-001 -1.4734268188E-003  +5.2774082869E-003 +6.4924024045E-003  +5.4077166133E-003 +6.5106856637E-003  +9.7952342033E-001 -1.3948827982E-003 
13649824.781 +9.8858892918E-001 -3.1671822071E-003  +5.2749910392E-003 +6.5557388589E-003  +5.4312041029E-003 +6.5633128397E-003  +9.8113226891E-001 -2.3718178272E-003 
13774969.962 +9.8880666494E-001 -2.9046237469E-003  +5.2480730228E-003 +6.5839574672E-003  +5.3534177132E-003 +6.5878359601E-003  +9.8086255789E-001 -1.0582804680E-003 
13900115.144 +9.8939341307E-001 -1.7826557159E-003  +5.2409926429E-003 +6.6763535142E-003  +5.3762574680E-003 +6.6462354735E-003  +9.8060244322E-001 -1.5483498573E-003 
14025260.325 +9.8812597990E-001 -2.0323097706E-003  +5.1342546940E-003 +6.7166201770E-003  +5.3958450444E-003 +6.7063076422E-003  +9.8133569956E-001 -2.1068751812E-003 
14150405.507 +9.8832947016E-001 -2.1720528603E-003  +5.2773854695E-003 +6.7658582702E-003  +5.3423256613E-003 +6.7747915164E-003  +9.8160886765E-001 -1.9685924053E-003 
14275550.688 +9.8886013031E-001 -3.0440092087E-003  +5.2712513134E-003 +6.7708920687E-003  +5.3540184163E-003 +6.8412553519E-003  +9.8188114166E-001 -3.1073093414E-003 
14400695.870 +9.8826891184E-001 -2.9061734676E-003  +5.1681501791E-003 +6.8831555545E-003  +5.4149860516E-003 +6.8968096748E-003  +9.8189961910E-001 -1.5802681446E-003 
