!  2-Port S-parameters saved by WinCal
! VAR NAME=Wafer2_r2_c1_formed_neg0dc_repeat5
! VAR DATE=22/05/2024 19:11:00
! VAR FILENAME=Wafer2_r2_c1_formed_neg0dc_repeat5.S2P
! VAR MeasName=S-Parameters (CALIBRATED_DATA) read from VNA (P5004A)
! VAR MeasDate=22/05/2024 19:04:06
! VAR PHYS_PORTS=1,2
! VAR ObjTypeName=DATASET
! VAR IndexType=Frequency
!
# Hz S RI R 50
9000.000 +2.1356977522E-001 -5.9767603874E-001  +1.9604247063E-002 +1.1354796588E-002  +4.5785217662E-004 -6.5341126174E-004  +5.3184196353E-002 +1.1022476852E-001 
134145.181 +6.8747162819E-001 +5.8209508657E-002  -5.2797235548E-002 +9.4423294067E-003  +5.3935991600E-003 -5.3922306746E-002  +7.4488019943E-001 +2.7958655357E-001 
259290.363 +9.0821295977E-001 -7.6933115721E-002  -1.3914667070E-002 -3.6184536293E-003  -7.4133770540E-003 -5.9021054767E-003  +1.0566970110E+000 -1.3574182987E-002 
384435.544 +9.3431842327E-001 -2.2131678462E-001  -1.6874638386E-003 -4.3429182842E-003  -4.1935206391E-003 -4.4204788283E-003  +1.0283771753E+000 -7.9628974199E-002 
509580.726 +9.9012571573E-001 -1.3173422217E-001  -1.6388075892E-003 -2.0980986301E-003  -2.5168852881E-003 -2.8852068353E-003  +1.0393674374E+000 -2.4162165821E-002 
634725.907 +1.0896985531E+000 -1.6872885823E-001  -1.7413962632E-004 -1.4422571985E-003  -4.9993902212E-004 -5.8962666662E-004  +1.0852078199E+000 -3.7094235420E-002 
759871.089 +1.2374367714E+000 -9.1510146856E-002  +2.7019681875E-003 +1.8620574847E-003  -9.0601219563E-004 -9.0170520707E-005  +1.1415688992E+000 -7.7926829457E-002 
885016.270 +6.0620468855E-001 -6.6171091795E-001  +1.2262437493E-002 -3.8275220431E-003  +1.6563050449E-002 +1.6445931979E-003  +1.3544180393E+000 -3.5626530647E-001 
1010161.452 +1.0417008400E+000 +1.4291912317E-002  -1.7091060290E-003 -1.6235889634E-003  -8.6689036107E-004 -2.5586355478E-003  +6.9002008438E-001 +3.0031099916E-001 
1135306.633 +1.0596375465E+000 +1.1453282833E-001  -4.1231547948E-004 -5.5687325075E-003  -5.5515265558E-004 -1.9323045854E-003  +8.8039410114E-001 +3.0707556009E-001 
1260451.815 +1.3325829506E+000 +1.0697887838E-001  +3.9859075332E-004 -2.7010440826E-003  +3.0091411900E-003 -2.1480722353E-003  +9.5140343904E-001 +2.8221297264E-001 
1385596.996 +1.2460144758E+000 -7.1074604988E-002  +4.6013263636E-004 +1.1217636347E-004  +9.7392749740E-004 -8.8279484771E-006  +9.8198962212E-001 +1.5974071622E-001 
1510742.178 +1.3508672714E+000 -1.2926065922E-001  +1.3206423027E-003 +2.1061563166E-004  +1.6187115107E-003 -1.4400517102E-003  +8.9251708984E-001 +1.8800005317E-001 
1635887.359 +9.9085479975E-001 -2.2595259547E-001  +1.9716972020E-004 -2.2228490561E-003  +1.4240983874E-003 -1.7854559701E-004  +1.1185255051E+000 +1.5827545524E-001 
1761032.541 +1.0275312662E+000 -2.1682682633E-001  +5.8210559655E-004 +1.4154186647E-004  +2.4131168611E-003 -5.8643089142E-004  +1.0449223518E+000 +1.9231733680E-001 
1886177.722 +1.0040962696E+000 -1.1274969578E-001  +1.6457567690E-003 +5.5594398873E-004  +1.5027225018E-003 +1.3032578863E-005  +1.0520534515E+000 +1.3915589452E-001 
2011322.904 +1.0035767555E+000 -6.9987654686E-002  +1.7391067231E-003 +1.0262903525E-003  +1.4862288954E-003 +6.3920806861E-004  +1.0581296682E+000 +1.3278561831E-001 
2136468.085 +1.0051828623E+000 -5.0701588392E-002  +1.6877399758E-003 +9.7650580574E-004  +1.6414638376E-003 +1.0814216221E-003  +1.0388265848E+000 +1.2250703573E-001 
2261613.267 +1.0081976652E+000 -3.7778705359E-002  +1.7076641088E-003 +1.5763501870E-003  +1.7215763219E-003 +1.1035187636E-003  +1.0233150721E+000 +1.4622333646E-001 
2386758.448 +1.0103044510E+000 -1.4669328928E-002  +1.8754932098E-003 +1.5764669515E-003  +1.1634211987E-003 +1.5556897270E-003  +1.0317904949E+000 +1.5366718173E-001 
2511903.630 +1.0038747787E+000 +4.8193335533E-003  +1.8598816823E-003 +1.8935926491E-003  +2.1221626084E-003 +1.7085014842E-003  +1.0449382067E+000 +1.6874879599E-001 
2637048.811 +1.0058259964E+000 +1.0375469923E-002  +2.0256976131E-003 +1.7842785455E-003  +1.8602524651E-003 +1.3378007570E-003  +1.0324991941E+000 +1.9397079945E-001 
2762193.992 +1.0035254955E+000 +3.4552454948E-002  +2.3074457422E-003 +2.2092894651E-003  +2.2091839928E-003 +1.9494512817E-003  +1.0276796818E+000 +2.1150016785E-001 
2887339.174 +1.0019719601E+000 +5.2379027009E-002  +2.5301370770E-003 +2.1955422126E-003  +1.8811757909E-003 +1.5704121906E-003  +1.0220913887E+000 +2.5003328919E-001 
3012484.355 +1.0121246576E+000 +6.7580819130E-002  +2.2207717411E-003 +2.3094518110E-003  +2.2971855942E-003 +1.8688174896E-003  +1.0484318733E+000 +2.8262063861E-001 
3137629.537 +1.0089654922E+000 +8.1918820739E-002  +2.5661254767E-003 +2.4045449682E-003  +1.6247406602E-003 +2.1217796020E-003  +1.0911060572E+000 +3.0475980043E-001 
3262774.718 +1.0195124149E+000 +9.8326951265E-002  +2.3080443498E-003 +2.4866801687E-003  +2.3699353915E-003 +2.6880560908E-003  +1.1161254644E+000 +3.0979686975E-001 
3387919.900 +1.0116600990E+000 +1.1645115912E-001  +2.2649038583E-003 +1.9207359292E-003  +1.9068408292E-003 +2.1541244350E-003  +1.1497665644E+000 +3.1375932693E-001 
3513065.081 +1.0292705297E+000 +1.3598351181E-001  +1.9734820817E-003 +3.2104402781E-003  +2.5710533373E-003 +2.7733296156E-003  +1.1703078747E+000 +3.3026480675E-001 
3638210.263 +1.0411306620E+000 +1.6196620464E-001  +2.8654756024E-003 +3.1806149054E-003  +1.9061649218E-003 +3.4116338938E-003  +1.2116020918E+000 +3.1353071332E-001 
3763355.444 +1.0638813972E+000 +1.7455339432E-001  +2.1445334423E-003 +3.1728814356E-003  +2.5858632289E-003 +2.8268741444E-003  +1.2471199036E+000 +3.0059915781E-001 
3888500.626 +1.0858014822E+000 +1.8459793925E-001  +2.0591232460E-003 +4.0590916760E-003  +2.7369302697E-003 +3.4046475776E-003  +1.2753483057E+000 +3.1275981665E-001 
4013645.807 +1.0474101305E+000 +9.0151637793E-002  +3.9206449874E-003 +3.4545820672E-003  +3.5711028613E-003 +3.4620186780E-003  +1.2505291700E+000 +1.3438861072E-001 
4138790.989 +9.7617554665E-001 +8.6428970098E-004  +5.4654879496E-003 +3.5982641857E-003  +4.4003333896E-003 +2.5316628162E-003  +1.1632527113E+000 +4.2982511222E-003 
4263936.170 +9.6654289961E-001 +4.4102668762E-003  +5.1698354073E-003 +3.0025108717E-003  +5.3208628669E-003 +2.4952613749E-003  +1.1491521597E+000 -2.0126618445E-002 
4389081.352 +9.8105889559E-001 -1.8614158034E-004  +4.9876561388E-003 +2.9239009600E-003  +4.6153757721E-003 +2.8710067272E-003  +1.1437273026E+000 -5.4978519678E-002 
4514226.533 +9.9276721478E-001 -1.2692123652E-002  +5.2421586588E-003 +2.8015347198E-003  +5.1931114867E-003 +2.4678371847E-003  +1.1423745155E+000 -6.9241017103E-002 
4639371.715 +9.9576896429E-001 -1.0350488126E-002  +5.7429308072E-003 +3.2566639129E-003  +5.9230579063E-003 +2.4823483545E-003  +1.1297349930E+000 -7.2680197656E-002 
4764516.896 +9.8663151264E-001 -1.8097799271E-002  +5.5906227790E-003 +2.9800338671E-003  +4.7593861818E-003 +3.4164220560E-003  +1.1116032600E+000 -8.2175642252E-002 
4889662.078 +9.9769312143E-001 -2.9991418123E-003  +6.0611427762E-003 +2.8027424123E-003  +5.2201640792E-003 +3.3396049403E-003  +1.1128989458E+000 -8.6294598877E-002 
5014807.259 +9.8895543814E-001 -5.5175460875E-003  +5.9200185351E-003 +3.2074067276E-003  +5.1678488962E-003 +3.2095990609E-003  +1.0884227753E+000 -8.0619856715E-002 
5139952.441 +9.9131780863E-001 -1.1730406433E-002  +5.3645926528E-003 +3.2372213900E-003  +4.9542561173E-003 +3.3285727259E-003  +1.0900741816E+000 -9.1484062374E-002 
5265097.622 +9.9897992611E-001 -6.6615864635E-003  +6.1376914382E-003 +2.9331678525E-003  +5.1228171214E-003 +3.5360828042E-003  +1.0738779306E+000 -9.4757594168E-002 
5390242.804 +9.9985849857E-001 -2.0268984139E-002  +6.2344959006E-003 +3.7748154718E-003  +5.6953695603E-003 +3.3497111872E-003  +1.0613539219E+000 -9.3929708004E-002 
5515387.985 +1.0090718269E+000 -2.3844286799E-002  +5.7956618257E-003 +3.3797752112E-003  +5.1098628901E-003 +3.3289585263E-003  +1.0555478334E+000 -1.0341205448E-001 
5640533.166 +1.0099585056E+000 -1.7101682723E-002  +5.6989178993E-003 +3.3590369858E-003  +5.8853211813E-003 +3.2927938737E-003  +1.0535390377E+000 -1.1268043518E-001 
5765678.348 +9.9880242348E-001 -1.6244679689E-002  +5.7176505215E-003 +3.3696584869E-003  +5.7182572782E-003 +3.3303094096E-003  +1.0493304729E+000 -1.0956333578E-001 
5890823.529 +9.9797397852E-001 -2.3100532591E-002  +5.8121592738E-003 +3.4703395795E-003  +4.9534337595E-003 +3.5206258763E-003  +1.0341361761E+000 -1.0768906772E-001 
6015968.711 +9.9697303772E-001 -2.6355072856E-002  +5.8496189304E-003 +3.3871147316E-003  +5.2231755108E-003 +3.4037232399E-003  +1.0256264210E+000 -1.0560096055E-001 
6141113.892 +9.9595391750E-001 -2.5417044759E-002  +6.2143141404E-003 +3.6160186864E-003  +4.7735120170E-003 +3.4570125863E-003  +1.0171563625E+000 -1.0181722790E-001 
6266259.074 +9.9827820063E-001 -2.0916953683E-002  +5.9797139838E-003 +3.5421089269E-003  +5.9962510131E-003 +3.2893042080E-003  +1.0159714222E+000 -1.0245540738E-001 
6391404.255 +9.9555051327E-001 -3.5526134074E-002  +5.9605264105E-003 +3.5058297217E-003  +5.0841621123E-003 +3.7173475139E-003  +1.0082050562E+000 -1.0075012594E-001 
6516549.437 +9.9166017771E-001 -2.5674626231E-002  +5.9221982956E-003 +3.4016664140E-003  +5.5110859685E-003 +3.5595025402E-003  +1.0014618635E+000 -9.5452554524E-002 
6641694.618 +9.9831497669E-001 -2.2953212261E-002  +5.7913945056E-003 +3.6817479413E-003  +5.3375586867E-003 +3.6644996144E-003  +9.9992918968E-001 -9.2579409480E-002 
6766839.800 +1.0010384321E+000 -2.5354251266E-002  +5.9850239195E-003 +3.5469685681E-003  +5.4090693593E-003 +3.6431625485E-003  +9.9689763784E-001 -9.0165376663E-002 
6891984.981 +9.9619203806E-001 -2.8385445476E-002  +5.9175551869E-003 +3.6655953154E-003  +5.2938647568E-003 +3.6333811004E-003  +9.8228037357E-001 -9.0503156185E-002 
7017130.163 +9.8875397444E-001 -2.6258379221E-002  +6.1199846677E-003 +3.4034063574E-003  +5.5058975704E-003 +3.5326676443E-003  +9.8837262392E-001 -7.7874258161E-002 
7142275.344 +9.8866069317E-001 -2.4781137705E-002  +6.1457105912E-003 +3.6138019059E-003  +5.7242820039E-003 +3.9550461806E-003  +9.8502498865E-001 -7.5662657619E-002 
7267420.526 +9.9098670483E-001 -2.5730252266E-002  +6.0562836006E-003 +3.5984949209E-003  +5.5389101617E-003 +3.6177639849E-003  +9.8306727409E-001 -7.1519821882E-002 
7392565.707 +9.9301064014E-001 -2.1097153425E-002  +5.8216326870E-003 +3.4485338256E-003  +5.3849830292E-003 +3.6959582940E-003  +9.8587906361E-001 -6.9568336010E-002 
7517710.889 +9.9452996254E-001 -2.4421274662E-002  +6.0845669359E-003 +3.9951382205E-003  +5.5940821767E-003 +3.7813775707E-003  +9.7663772106E-001 -7.1001097560E-002 
7642856.070 +9.8699504137E-001 -2.1811500192E-002  +5.9520690702E-003 +3.9963731542E-003  +5.4096281528E-003 +3.8479317445E-003  +9.7133612633E-001 -7.1718290448E-002 
7768001.252 +9.9089372158E-001 -2.3179188371E-002  +6.0552409850E-003 +3.9010625333E-003  +5.5271671154E-003 +3.8664648309E-003  +9.7026240826E-001 -6.5970659256E-002 
7893146.433 +9.9141901731E-001 -2.0869523287E-002  +6.2270024791E-003 +3.8978240918E-003  +5.5505814962E-003 +4.2272321880E-003  +9.7052109241E-001 -5.8309763670E-002 
8018291.615 +9.8450648785E-001 -2.2666946054E-002  +6.1742425896E-003 +4.0678125806E-003  +5.8313235641E-003 +3.8755368441E-003  +9.6569460630E-001 -5.9342592955E-002 
8143436.796 +9.8353385925E-001 -2.4720475078E-002  +6.3120899722E-003 +4.0200161748E-003  +5.6235985830E-003 +3.9695720188E-003  +9.6557867527E-001 -4.8198655248E-002 
8268581.977 +9.7992008924E-001 -2.4495065212E-002  +6.0667195357E-003 +4.0149944834E-003  +5.4837916978E-003 +4.1585024446E-003  +9.6579384804E-001 -4.4794082642E-002 
8393727.159 +9.8089879751E-001 -2.5781035423E-002  +6.1169136316E-003 +3.9275866002E-003  +5.4285200313E-003 +4.1400049813E-003  +9.6555632353E-001 -4.4972807169E-002 
8518872.340 +9.8226875067E-001 -2.5652289391E-002  +6.0915690847E-003 +4.2725335807E-003  +5.4677478038E-003 +4.2076017708E-003  +9.6449214220E-001 -4.2162001133E-002 
8644017.522 +9.7978222370E-001 -1.9862145185E-002  +5.8815758675E-003 +4.3000867590E-003  +5.6240810081E-003 +4.2364820838E-003  +9.6587377787E-001 -4.1574180126E-002 
8769162.703 +9.8577934504E-001 -2.0549297333E-002  +6.0991453938E-003 +4.5376629569E-003  +5.4186740890E-003 +4.2693340220E-003  +9.6816527843E-001 -4.3052405119E-002 
8894307.885 +9.7978270054E-001 -2.2223979235E-002  +6.0035660863E-003 +4.4715777040E-003  +5.4471730255E-003 +4.3383259326E-003  +9.6484792233E-001 -3.9580196142E-002 
9019453.066 +9.8117756844E-001 -2.3952692747E-002  +6.0339365155E-003 +4.5132180676E-003  +5.5723683909E-003 +4.3746801093E-003  +9.6235686541E-001 -3.9461672306E-002 
9144598.248 +9.7955071926E-001 -2.3688644171E-002  +6.1689815484E-003 +4.5731933787E-003  +5.5684843101E-003 +4.4224285521E-003  +9.6264827251E-001 -3.5400152206E-002 
9269743.429 +9.8087245226E-001 -2.0942956209E-002  +5.9650880285E-003 +4.5875562355E-003  +5.5341203697E-003 +4.4072782621E-003  +9.6562784910E-001 -3.0839830637E-002 
9394888.611 +9.8142600060E-001 -1.7020881176E-002  +6.1200754717E-003 +4.5239664614E-003  +5.3804283962E-003 +4.6360166743E-003  +9.6565884352E-001 -3.4512579441E-002 
9520033.792 +9.8175543547E-001 -2.1397441626E-002  +5.9722131118E-003 +4.6671060845E-003  +5.5741788819E-003 +4.7059482895E-003  +9.6462655067E-001 -2.8848528862E-002 
9645178.974 +9.8408740759E-001 -1.5653342009E-002  +5.9535745531E-003 +4.6860049479E-003  +5.5574881844E-003 +4.6974620782E-003  +9.6601575613E-001 -2.8948754072E-002 
9770324.155 +9.8166233301E-001 -1.1521250010E-002  +6.1415270902E-003 +4.8077129759E-003  +5.5836467072E-003 +4.7790147364E-003  +9.5982313156E-001 -2.3555397987E-002 
9895469.337 +9.8149698973E-001 -9.9976062775E-003  +6.0992161743E-003 +4.8438906670E-003  +5.5703958496E-003 +4.9100434408E-003  +9.6336770058E-001 -2.0534276962E-002 
10020614.518 +9.8219561577E-001 -8.8054239750E-003  +6.1329146847E-003 +4.9752225168E-003  +5.6554069743E-003 +4.9022343010E-003  +9.6433728933E-001 -2.1045416594E-002 
10145759.700 +9.8438453674E-001 -1.0567605495E-002  +6.2113660388E-003 +4.9377242103E-003  +5.6125288829E-003 +4.9778441899E-003  +9.6491158009E-001 -1.9612312317E-002 
10270904.881 +9.8420369625E-001 -1.2768834829E-002  +6.3113924116E-003 +5.0701312721E-003  +5.6179687381E-003 +4.9276961945E-003  +9.6786129475E-001 -1.8932700157E-002 
10396050.063 +9.8358988762E-001 -1.0777294636E-002  +6.1379545368E-003 +5.0396285951E-003  +5.6886412203E-003 +5.0395862199E-003  +9.6768164635E-001 -1.5755385160E-002 
10521195.244 +9.8488533497E-001 -7.5888931751E-003  +6.2323305756E-003 +5.2090771496E-003  +5.7382918894E-003 +5.1600900479E-003  +9.6893465519E-001 -1.4425635338E-002 
10646340.426 +9.8181390762E-001 -9.8766684532E-003  +6.1898878776E-003 +5.2382075228E-003  +5.5697355419E-003 +5.1197567955E-003  +9.6764481068E-001 -1.0645955801E-002 
10771485.607 +9.8388552666E-001 -9.1995894909E-003  +5.8528040536E-003 +4.6834917739E-003  +5.6103817187E-003 +5.3432225250E-003  +9.6949088573E-001 -1.1191129684E-002 
10896630.788 +9.8334217072E-001 -7.5794756413E-003  +6.3216546550E-003 +5.2001513541E-003  +5.5611194111E-003 +5.3552994505E-003  +9.6901452541E-001 -1.1208236217E-002 
11021775.970 +9.8279762268E-001 -6.5380334854E-003  +6.2377555296E-003 +5.3937928751E-003  +5.5628009140E-003 +5.3912443109E-003  +9.7021383047E-001 -8.5516273975E-003 
11146921.151 +9.8242044449E-001 -1.0315388441E-002  +6.3266353682E-003 +5.3478316404E-003  +5.6898598559E-003 +5.3912624717E-003  +9.7127246857E-001 -8.4990859032E-003 
11272066.333 +9.8224055767E-001 -8.7223947048E-003  +6.2802908942E-003 +5.4032206535E-003  +5.5278437212E-003 +5.4542757571E-003  +9.6986073256E-001 -9.8456740379E-003 
11397211.514 +9.8282325268E-001 -7.3314905167E-003  +6.1907898635E-003 +5.5362717248E-003  +5.5592502467E-003 +5.5108135566E-003  +9.7133332491E-001 -7.5371563435E-003 
11522356.696 +9.8367196321E-001 -6.6158473492E-003  +6.2743294984E-003 +5.5334391072E-003  +5.5532120168E-003 +5.5761709809E-003  +9.7271013260E-001 -8.3146095276E-003 
11647501.877 +9.8151659966E-001 -6.2512457371E-003  +6.2809055671E-003 +5.6142676622E-003  +5.6534027681E-003 +5.6599574164E-003  +9.7228646278E-001 -5.8111548424E-003 
11772647.059 +9.8360794783E-001 -5.5327713490E-003  +6.1935968697E-003 +5.6815855205E-003  +5.6331707165E-003 +5.6542670354E-003  +9.7248250246E-001 -5.7826042175E-003 
11897792.240 +9.8352289200E-001 -5.3126215935E-003  +6.3075646758E-003 +5.7821478695E-003  +5.5784536526E-003 +5.7252896950E-003  +9.7415482998E-001 -4.7943890095E-003 
12022937.422 +9.8452848196E-001 -5.1118135452E-003  +6.2603866681E-003 +5.7926406153E-003  +5.5922707543E-003 +5.7592205703E-003  +9.7401028872E-001 -5.7261288166E-003 
12148082.603 +9.8447740078E-001 -5.4939091206E-003  +6.2793092802E-003 +5.8444365859E-003  +5.6429607794E-003 +5.8260932565E-003  +9.7516947985E-001 -3.0002892017E-003 
12273227.785 +9.8650175333E-001 -3.5870075226E-003  +6.3006537966E-003 +5.9194238856E-003  +5.6245811284E-003 +5.8583882637E-003  +9.7613763809E-001 -3.9297044277E-003 
12398372.966 +9.8559093475E-001 -4.8505961895E-003  +6.1870543286E-003 +5.9924144298E-003  +5.6572211906E-003 +6.0144406743E-003  +9.7725480795E-001 -3.6137700081E-003 
12523518.148 +9.8408031464E-001 -4.7500282526E-003  +6.3190804794E-003 +6.0306428932E-003  +5.6240577251E-003 +6.0315476730E-003  +9.7657722235E-001 -4.4958293438E-003 
12648663.329 +9.8619270325E-001 -2.7058571577E-003  +6.2934514135E-003 +6.0903914273E-003  +5.6933430023E-003 +6.0429265723E-003  +9.7722214460E-001 -2.6406645775E-003 
12773808.511 +9.8537707329E-001 -4.6845674515E-003  +6.2158415094E-003 +6.1241369694E-003  +5.5987155065E-003 +6.1386590824E-003  +9.7830575705E-001 -3.1782239676E-003 
12898953.692 +9.8573589325E-001 -4.9878507853E-003  +6.1864815652E-003 +6.1865379103E-003  +5.5147800595E-003 +6.2237810344E-003  +9.7827082872E-001 -4.6744048595E-003 
13024098.874 +9.8602861166E-001 -3.4817904234E-003  +6.2046712264E-003 +6.2264068983E-003  +5.5411336944E-003 +6.2386170030E-003  +9.7864818573E-001 -1.9970908761E-003 
13149244.055 +9.8636066914E-001 -3.3074412495E-003  +6.2384135090E-003 +6.3005266711E-003  +5.5480287410E-003 +6.3257552683E-003  +9.7896701097E-001 -1.4062020928E-003 
13274389.237 +9.8626899719E-001 -3.3041909337E-003  +6.1504724436E-003 +6.4094634727E-003  +5.5504534394E-003 +6.4007448964E-003  +9.8101377487E-001 -1.8088240176E-003 
13399534.418 +9.8710960150E-001 -3.3843815327E-003  +6.1639188789E-003 +6.3852341846E-003  +5.5999690667E-003 +6.3892365433E-003  +9.7998762131E-001 -7.3198974133E-004 
13524679.599 +9.8658150434E-001 -2.6350170374E-003  +6.2062782235E-003 +6.4864992164E-003  +5.5904737674E-003 +6.4893877134E-003  +9.8084360361E-001 -3.0373036861E-004 
13649824.781 +9.8763799667E-001 -3.1214207411E-003  +6.1409627087E-003 +6.5617579967E-003  +5.5987513624E-003 +6.5066413954E-003  +9.8188894987E-001 -1.7634034157E-003 
13774969.962 +9.8780906200E-001 -2.8814673424E-003  +6.2241712585E-003 +6.5341582522E-003  +5.5929627270E-003 +6.5660458058E-003  +9.8070335388E-001 -2.0383000374E-003 
13900115.144 +9.8796761036E-001 -2.1524429321E-003  +6.0352478176E-003 +6.6311527044E-003  +5.5677024648E-003 +6.6502047703E-003  +9.8117458820E-001 -1.7274618149E-003 
14025260.325 +9.8705232143E-001 -3.2282471657E-003  +6.1792032793E-003 +6.6876229830E-003  +5.5767437443E-003 +6.7219575867E-003  +9.8180335760E-001 -1.4594197273E-003 
14150405.507 +9.8747289181E-001 -2.7405917645E-003  +6.2115481123E-003 +6.7669972777E-003  +5.5958968587E-003 +6.7399460822E-003  +9.8174297810E-001 -1.3683140278E-003 
14275550.688 +9.8794776201E-001 -4.2375326157E-003  +6.2100226060E-003 +6.8411799148E-003  +5.6051379070E-003 +6.7969230004E-003  +9.8252809048E-001 -1.8469095230E-003 
