!  2-Port S-parameters saved by WinCal
! VAR MeasName=S-Parameters (CALIBRATED_DATA) read from VNA (P5004A)
! VAR MeasDate=22/05/2024 17:11:33
! VAR NAME=Wafer2_r10_c15_thrunotaper
! VAR FILENAME=Wafer2_r10_c15_thrunotaper.S2P
! VAR DATE=22/05/2024 17:11:33
! VAR PHYS_PORTS=1,2
! VAR ObjTypeName=DATASET
! VAR IndexType=Frequency
!
# Hz S RI R 50
9000.000 +2.4023030698E-001 -5.6769734621E-001  -1.7878010869E-002 -1.0266900063E-002  -7.8108767048E-004 -2.2135179024E-003  +6.5741598606E-002 +9.3355782330E-002 
134145.181 +4.1477188468E-001 +1.4400109649E-001  +3.3184501529E-001 -2.1153883636E-001  +5.1049566269E-001 -1.3592457771E-001  +5.5253851414E-001 +4.5343035460E-001 
259290.363 +4.1296416521E-001 +1.1511447281E-001  +5.2914482355E-001 -1.9912962615E-001  +5.1710474491E-001 -2.5868546963E-001  +4.6186199784E-001 +3.4807926416E-001 
384435.544 +5.5220222473E-001 -6.4196377993E-002  +4.6699130535E-001 -7.8351676464E-002  +4.9553751945E-001 -1.1834415793E-001  +3.5251682997E-001 +8.5618585348E-002 
509580.726 +6.0024863482E-001 +1.3517467678E-001  +4.4970619678E-001 -2.6538091898E-001  +4.6914276481E-001 -2.6640507579E-001  +4.5132482052E-001 +3.2568514347E-001 
634725.907 +8.7435209751E-001 -1.3485461473E-001  +1.9998130202E-001 -1.6887955368E-002  +2.0242625475E-001 -2.4718463421E-002  +8.0270028114E-001 +3.0041068792E-002 
759871.089 +1.4335751534E+000 -3.3154422045E-001  -3.0567571521E-001 +3.2222330570E-001  -3.1982502341E-001 +3.2775774598E-001  +1.4111702442E+000 -5.7123947144E-001 
885016.270 +2.2016534805E+000 +3.3416962624E-001  -1.3231751919E+000 -8.8693797588E-001  -1.3276418447E+000 -8.8857728243E-001  +2.2976164818E+000 +9.6985071898E-001 
1010161.452 +4.6419200301E-001 +3.0904185772E-001  +4.8840650916E-001 -6.8413138390E-001  +4.8177236319E-001 -6.9089370966E-001  +4.8817893863E-001 +1.0773925781E+000 
1135306.633 +2.5332492590E-001 +2.1628306806E-001  +6.6510260105E-001 -4.0168887377E-001  +6.5987968445E-001 -3.9964610338E-001  +3.1951904297E-001 +6.7993909121E-001 
1260451.815 +5.3746300936E-001 -9.7058713436E-004  +5.8742034435E-001 -6.8605311215E-002  +5.9599763155E-001 -7.3193386197E-002  +3.8375470042E-001 +2.4890369177E-001 
1385596.996 +6.2930482626E-001 -3.4061288834E-001  +5.4188996553E-001 +2.2064010799E-001  +5.5332022905E-001 +2.1627843380E-001  +3.9679321647E-001 -1.3606670499E-001 
1510742.178 +5.1159316301E-001 -6.1505210400E-001  +7.7196305990E-001 +3.2259720564E-001  +7.6943397522E-001 +3.1844502687E-001  +9.1460533440E-002 -1.7865352333E-001 
1635887.359 +3.6125892401E-001 -8.6579966545E-001  +6.0869246721E-001 +5.4528921843E-001  +6.0772925615E-001 +5.4209029675E-001  +3.5087931156E-001 -3.4931805730E-001 
1761032.541 -4.6824640036E-001 -1.2594224215E+000  +1.3139557838E+000 +8.1129014492E-001  +1.2918529510E+000 +8.1944614649E-001  -2.0337717235E-001 -5.2046775818E-001 
1886177.722 -1.2731957436E+000 -1.7535026371E-001  +2.0429596901E+000 +6.9439023733E-002  +2.0309643745E+000 +7.8626856208E-002  -8.5859143734E-001 -5.3895704448E-002 
2011322.904 -4.7986915708E-001 +2.4617925286E-001  +1.3292543888E+000 -2.6373922825E-001  +1.3242892027E+000 -2.6901733875E-001  -2.2937715054E-001 +2.5299304724E-001 
2136468.085 -4.3116444349E-001 +3.0791085958E-001  +1.2882128954E+000 -3.5131958127E-001  +1.2868702412E+000 -3.4864521027E-001  -1.8896225095E-001 +3.3201408386E-001 
2261613.267 -1.5503117442E-001 +2.5257614255E-001  +1.0301754475E+000 -2.6748257875E-001  +1.0264047384E+000 -2.6744729280E-001  +3.7137933075E-002 +2.4703134596E-001 
2386758.448 -1.6140404344E-001 +2.1278992295E-001  +1.0389178991E+000 -2.2350728512E-001  +1.0394052267E+000 -2.1893547475E-001  +2.9531471431E-002 +1.9254462421E-001 
2511903.630 -4.5670323074E-002 +1.2174243480E-001  +9.5005297661E-001 -1.0760768503E-001  +9.4944757223E-001 -1.0631687939E-001  +9.6658945084E-002 +9.6699073911E-002 
2637048.811 -2.8529286385E-002 +1.3372664154E-001  +9.3853670359E-001 -1.2456630915E-001  +9.3784624338E-001 -1.2479968369E-001  +9.3627959490E-002 +1.0477982461E-001 
2762193.992 -2.7119841427E-002 +9.0712480247E-002  +9.3339896202E-001 -8.0715939403E-002  +9.3399953842E-001 -7.8857019544E-002  +1.0529369861E-001 +5.5728480220E-002 
2887339.174 -3.7703424692E-002 +5.6071557105E-002  +9.3451911211E-001 -5.8074742556E-002  +9.3528068066E-001 -5.9736460447E-002  +9.1210059822E-002 +5.1463551819E-002 
3012484.355 -5.6158155203E-002 +6.5938822925E-002  +9.4909358025E-001 -4.8794955015E-002  +9.4593530893E-001 -5.0151467323E-002  +9.0713270009E-002 +4.0001478046E-002 
3137629.537 -2.0401477814E-002 +6.7262902856E-002  +9.4599771500E-001 -2.9745310545E-002  +9.4217646122E-001 -3.0033171177E-002  +7.7726028860E-002 +1.5089465305E-002 
3262774.718 -1.9727207720E-002 +4.9800354987E-002  +9.4341522455E-001 -1.7551630735E-002  +9.4220715761E-001 -1.5274435282E-002  +7.7136591077E-002 +2.2984568030E-002 
3387919.900 -9.9215973169E-003 +6.2296696007E-002  +9.3713110685E-001 -1.6044616699E-002  +9.3714457750E-001 -1.6658604145E-002  +7.3843114078E-002 +1.0405022651E-002 
3513065.081 -1.4910608530E-002 +5.3383983672E-002  +9.4319599867E-001 -9.7399055958E-003  +9.4356292486E-001 -9.9716484547E-003  +6.7989371717E-002 +1.3931274414E-002 
3638210.263 -2.5354735553E-003 +4.7955188900E-002  +9.4843256474E-001 +1.7142593861E-003  +9.4779312611E-001 +2.2018849850E-003  +6.0362156481E-002 +8.5602141917E-004 
3763355.444 +4.9412744120E-003 +2.8131181374E-002  +9.5823788643E-001 +8.2215070724E-003  +9.5895159245E-001 +7.6938569546E-003  +4.7580260783E-002 +5.5869910866E-003 
3888500.626 +6.8272389472E-003 +4.2053446174E-002  +9.7080504894E-001 +1.4283984900E-002  +9.6651279926E-001 +1.7115265131E-002  +5.2703898400E-002 -1.6991246492E-002 
4013645.807 +1.6275089234E-002 +3.6493752152E-002  +9.6591997147E-001 +1.5971034765E-002  +9.5978188515E-001 +1.7801612616E-002  +4.4646613300E-002 -3.4890249372E-003 
4138790.989 +1.6809934750E-002 +4.4006049633E-002  +9.8303514719E-001 +1.6258418560E-002  +9.7685241699E-001 +8.5501074791E-003  +3.3678792417E-002 -1.3204533607E-002 
4263936.170 +1.4280619100E-002 +3.0388452113E-002  +9.7295570374E-001 +7.3489844799E-003  +9.6844536066E-001 +1.3710677624E-002  +3.5612866282E-002 -2.0025558770E-003 
4389081.352 +1.7925232649E-002 +2.4374857545E-002  +9.8285675049E-001 +1.1557489634E-002  +9.8059070110E-001 +1.1417657137E-002  +2.5244656950E-002 -8.3177573979E-003 
4514226.533 +1.0927464813E-002 +2.1528309211E-002  +9.9075371027E-001 +3.1550228596E-003  +9.9075168371E-001 +5.5857896805E-003  +2.5169394910E-002 -1.0302402079E-002 
4639371.715 +2.4889850989E-002 +1.2344833463E-002  +9.8449027538E-001 +9.5136463642E-003  +9.9267244339E-001 +1.2368619442E-002  +2.5124782696E-002 -1.2126581743E-002 
4764516.896 +2.2044781595E-002 +1.9784798846E-002  +9.9342292547E-001 +8.3564221859E-003  +9.9259489775E-001 +1.2791901827E-002  +1.6791773960E-002 -2.3372596130E-002 
4889662.078 +2.6187103242E-002 +1.2795620598E-002  +9.9777555466E-001 +8.9856684208E-003  +9.9120390415E-001 +8.9202821255E-003  +1.3603402302E-002 -1.5672303736E-002 
5014807.259 +1.4221028425E-002 +8.7882690132E-003  +9.9166005850E-001 +5.4396986961E-003  +9.9457186460E-001 +1.1630415916E-002  +1.7871590331E-002 -6.7520430312E-003 
5139952.441 +2.6972975582E-002 +2.6374533772E-003  +9.8999571800E-001 +8.2113742828E-003  +9.9445605278E-001 +6.2620341778E-003  +9.8858820274E-003 -8.4993802011E-003 
5265097.622 +2.0383344963E-002 -2.5620134547E-003  +9.9855321646E-001 +9.4774067402E-003  +9.9296343327E-001 +7.4235796928E-003  +1.0890897363E-002 -1.6308661550E-002 
5390242.804 +1.7051253468E-002 +2.3554586805E-003  +9.9528086185E-001 +5.2804350853E-003  +9.9486207962E-001 +8.3488821983E-003  +1.0085353628E-002 -9.2413723469E-003 
5515387.985 +2.3801742122E-002 -6.8465340883E-003  +9.9745428562E-001 +6.6518485546E-003  +9.9974679947E-001 +8.7051391602E-003  +1.7054531723E-002 -8.1630041823E-003 
5640533.166 +2.0182536915E-002 -1.8977406435E-003  +1.0009802580E+000 +3.7446618080E-003  +9.9492025375E-001 +7.4086189270E-003  +1.3949961402E-002 -1.4233877882E-002 
5765678.348 +2.0140323788E-002 +1.0800650343E-003  +9.9737894535E-001 +3.7777125835E-003  +9.9739575386E-001 +5.5161714554E-003  +6.9904020056E-003 -7.0288898423E-003 
5890823.529 +2.0422598347E-002 -1.4783926308E-003  +1.0015559196E+000 +5.2983164787E-003  +9.9617034197E-001 +2.3159086704E-003  +8.1480992958E-003 -1.1881753802E-002 
6015968.711 +2.4532049894E-002 -3.5873982124E-003  +1.0010744333E+000 +1.4423429966E-003  +9.9621212482E-001 +1.9688010216E-003  +6.2699811533E-003 -1.5673883259E-002 
6141113.892 +1.4989826828E-002 -4.2731259018E-003  +1.0008152723E+000 +2.8222501278E-003  +9.9854993820E-001 +2.7203261852E-003  +6.3191596419E-003 -1.2514628470E-002 
6266259.074 +1.7787715420E-002 -7.3442636058E-003  +9.9684453011E-001 +2.3357570171E-003  +9.9609017372E-001 +1.6674399376E-003  +4.6839769930E-003 -1.0246148333E-002 
6391404.255 +1.4861621894E-002 -6.0642189346E-003  +9.9996668100E-001 +1.1116266251E-005  +9.9970376492E-001 +1.6318261623E-003  +6.7836605012E-003 -1.1776158586E-002 
6516549.437 +1.8212758005E-002 -6.3746902160E-003  +9.9599748850E-001 +3.6609172821E-004  +9.9567180872E-001 +7.1534514427E-004  +7.1245380677E-003 -1.0383686051E-002 
6641694.618 +2.0139697939E-002 +2.5148731656E-003  +9.9526524544E-001 +1.4056116343E-003  +9.9582016468E-001 +2.2060722113E-003  +1.8582958728E-003 -9.9486522377E-003 
6766839.800 +1.7134001479E-002 -2.2416515276E-003  +9.9947929382E-001 +1.2521147728E-003  +9.9896180630E-001 -2.8031021357E-003  +6.4593325369E-003 -1.8146317452E-002 
6891984.981 +1.2586462311E-002 -7.5883045793E-003  +9.9568909407E-001 -4.5458972454E-004  +9.9760049582E-001 -2.5652647018E-003  +1.7470433377E-003 -1.0786025785E-002 
7017130.163 +1.9578034058E-002 -5.2529964596E-003  +9.9593549967E-001 -6.8888068199E-004  +9.9830275774E-001 +5.5567920208E-004  +6.1193220317E-003 -8.1351790577E-003 
7142275.344 +1.5563944355E-002 -3.7595578469E-003  +9.9768638611E-001 -1.4359205961E-003  +9.9676895142E-001 +2.2977441549E-003  +4.8556160182E-003 -9.5985559747E-003 
7267420.526 +1.5351491049E-002 -4.0175272152E-003  +9.9462980032E-001 -1.4169961214E-003  +9.9702566862E-001 +2.3999661207E-003  +6.5270168707E-003 -8.0620106310E-003 
7392565.707 +1.5491727740E-002 -4.2532822117E-003  +9.9723762274E-001 +3.6315619946E-004  +9.9467277527E-001 +9.2767179012E-005  +5.9542646632E-003 -7.3896474205E-003 
7517710.889 +1.4413468540E-002 -4.8296046443E-003  +9.9501073360E-001 +4.5896321535E-004  +9.9611067772E-001 -6.3964724541E-004  +5.8600637130E-003 -7.8149884939E-003 
7642856.070 +1.1915849522E-002 -8.0071706325E-003  +9.9380260706E-001 -1.0690763593E-003  +9.9519026279E-001 +2.1147727966E-004  +2.3936841171E-003 -7.4377218261E-003 
7768001.252 +1.2941420078E-002 -6.5392162651E-003  +9.9353146553E-001 -2.4700090289E-003  +9.9381947517E-001 +3.7086382508E-004  +1.7680585152E-003 -5.0330096856E-003 
7893146.433 +1.6609149054E-002 -3.8616696838E-003  +9.9552798271E-001 -6.4721703529E-004  +9.9650800228E-001 +1.9697062671E-003  +8.5134955589E-004 -4.2270971462E-003 
8018291.615 +1.5020555817E-002 -4.3220701627E-003  +9.9584472179E-001 +2.0550470799E-004  +9.9436575174E-001 -1.9259783439E-003  +5.6863907957E-004 -8.0003039911E-003 
8143436.796 +1.4311790466E-002 -1.6183505068E-003  +9.9551153183E-001 -1.0871449485E-003  +9.9326807261E-001 -4.5425444841E-004  -5.8849551715E-004 -5.5499314331E-003 
8268581.977 +1.1857818812E-002 -5.5865752511E-003  +9.9441540241E-001 -9.8670274019E-004  +9.9450206757E-001 -4.6041980386E-004  +2.3328211682E-004 -6.0719074681E-003 
8393727.159 +1.3503988273E-002 -4.9191955477E-003  +9.9644136429E-001 -9.6077471972E-004  +9.9504166842E-001 -7.9980120063E-004  +6.4616691088E-004 -6.3825785182E-003 
8518872.340 +1.3658074662E-002 -5.4683806375E-003  +9.9513351917E-001 -5.0738453865E-004  +9.9412059784E-001 -1.1213272810E-003  +4.3031102978E-003 -6.6659417935E-003 
8644017.522 +1.0543588549E-002 -5.4452326149E-003  +9.9343574047E-001 +1.4582648873E-003  +9.9480468035E-001 -8.8402628899E-004  +3.6085047759E-003 -2.7098667342E-003 
8769162.703 +1.0065329261E-002 -6.0393884778E-003  +9.9474811554E-001 -1.0721385479E-004  +9.9386417866E-001 -6.7022442818E-004  +4.7282269225E-003 -4.9072680995E-003 
8894307.885 +9.7419656813E-003 -6.5187485889E-003  +9.9561208487E-001 -5.8278441429E-005  +9.9559843540E-001 -1.7178803682E-003  +1.8778268714E-003 -6.4878934063E-003 
9019453.066 +1.0993091390E-002 -8.9793782681E-003  +9.9408090115E-001 -2.9339492321E-003  +9.9582642317E-001 -3.3390522003E-004  +2.5199449155E-003 -5.3925709799E-003 
9144598.248 +1.2638296001E-002 -7.6000755653E-003  +9.9464011192E-001 -6.8144500256E-004  +9.9382185936E-001 +1.1268258095E-004  +4.4542405521E-004 -4.1324282065E-003 
9269743.429 +1.0376194492E-002 -8.0020930618E-003  +9.9393922091E-001 -3.5578012466E-004  +9.9408084154E-001 -1.0677874088E-003  -4.8687495291E-004 -6.3379057683E-003 
9394888.611 +9.5406221226E-003 -8.5155600682E-003  +9.9398702383E-001 -3.3426284790E-004  +9.9441838264E-001 -7.5128674507E-004  +4.5859196689E-004 -6.5619456582E-003 
9520033.792 +6.5144225955E-003 -1.0678828694E-002  +9.9703681469E-001 -1.0928511620E-003  +9.9467468262E-001 -1.4300942421E-003  +2.9505884741E-003 -5.6230416521E-003 
9645178.974 +1.1277389713E-002 -3.6252387799E-003  +9.9443060160E-001 -9.7548961639E-004  +9.9399870634E-001 -9.4115734100E-005  -1.2121923501E-003 -5.9802005999E-003 
9770324.155 +7.7018132433E-003 -4.3036518618E-003  +9.9408650398E-001 -1.0170638561E-003  +9.9354749918E-001 -1.1078119278E-003  -1.7542025307E-003 -4.9100727774E-003 
9895469.337 +9.7964135930E-003 -5.1448950544E-003  +9.9467176199E-001 -1.3881921768E-003  +9.9449801445E-001 +1.1125206947E-004  -3.2695885748E-003 -5.3295614198E-003 
10020614.518 +1.0059406981E-002 -4.4399481267E-003  +9.9270886183E-001 -1.2305974960E-003  +9.9351400137E-001 -4.6658515930E-004  +5.6265405146E-004 +8.5009547183E-004 
10145759.700 +9.6661932766E-003 -6.2278108671E-003  +9.9407696724E-001 -9.6660852432E-004  +9.9442934990E-001 -1.0971128941E-003  +1.5842090361E-003 -3.7365341559E-003 
10270904.881 +1.0089453310E-002 -2.8062697966E-003  +9.9450290203E-001 +2.3123621941E-004  +9.9409580231E-001 -2.1719634533E-003  +2.3875408806E-004 -5.6516667828E-003 
10396050.063 +1.0724879801E-002 -6.5461192280E-003  +9.9436587095E-001 -2.8112530708E-004  +9.9449950457E-001 -1.3020634651E-004  +6.6847185371E-004 -2.8223721310E-003 
10521195.244 +1.0249264538E-002 -5.2826893516E-003  +9.9516159296E-001 -5.9130787849E-004  +9.9319207668E-001 -1.1008977890E-003  +1.8916666741E-003 -2.8470992111E-003 
10646340.426 +8.1146759912E-003 -5.2996277809E-003  +9.9422454834E-001 -1.0472536087E-003  +9.9361228943E-001 -2.0590424538E-004  +1.8755643396E-004 -2.2106526885E-003 
10771485.607 +9.2014782131E-003 -3.8898831699E-003  +9.9315321445E-001 -1.2491941452E-003  +9.9395918846E-001 -2.0954012871E-004  -1.0450906120E-004 -2.8929049149E-003 
10896630.788 +6.9409073330E-003 -2.9068160802E-003  +9.9430155754E-001 -2.1257996559E-004  +9.9463510513E-001 -1.3014972210E-003  -1.5129637904E-004 -1.4030169696E-003 
11021775.970 +9.4442814589E-003 -2.9625743628E-003  +9.9383521080E-001 -2.0325183868E-004  +9.9411237240E-001 -4.0006637573E-004  +1.8775841454E-004 -1.7181830481E-003 
11146921.151 +7.8185563907E-003 -5.6214649230E-003  +9.9350762367E-001 -4.0778517723E-004  +9.9433684349E-001 -3.1167268753E-004  +3.7237856304E-004 -1.8802899867E-003 
11272066.333 +6.6374810413E-003 -5.1065767184E-003  +9.9432289600E-001 -5.6284666061E-004  +9.9387782812E-001 -2.6130676270E-004  -1.9262894057E-004 -2.7971491218E-003 
11397211.514 +7.8264689073E-003 -3.7581305951E-003  +9.9398589134E-001 +4.6074390411E-005  +9.9458861351E-001 -1.3175606728E-004  +1.1222844478E-003 -1.8067031633E-003 
11522356.696 +8.6786616594E-003 -2.8443988413E-003  +9.9424946308E-001 +2.5987625122E-004  +9.9403190613E-001 -7.2538852692E-005  +1.1881754035E-003 -1.8074202817E-003 
11647501.877 +9.1515313834E-003 -4.3074036948E-003  +9.9421149492E-001 -1.5467405319E-004  +9.9395430088E-001 -1.4728307724E-004  -1.0440316983E-003 -8.7815604638E-004 
11772647.059 +7.6033035293E-003 -5.6703235023E-003  +9.9416971207E-001 +3.7103891373E-004  +9.9509513378E-001 -5.4293870926E-004  -3.1972440775E-004 -9.8399189301E-004 
11897792.240 +6.3930563629E-003 -4.3790806085E-003  +9.9380445480E-001 -3.9744377136E-004  +9.9427533150E-001 +2.9692053795E-004  +1.0295573156E-003 -7.7446218347E-004 
12022937.422 +8.4616066888E-003 -3.8056452759E-003  +9.9362403154E-001 -3.4829974174E-004  +9.9407052994E-001 -6.4599514008E-004  +1.7628492787E-003 +3.0553707620E-004 
12148082.603 +9.4368569553E-003 -3.3402347472E-003  +9.9366974831E-001 -2.7960538864E-004  +9.9381637573E-001 +8.1092119217E-004  +1.5348054003E-003 -1.0381278116E-005 
12273227.785 +8.3930129185E-003 -3.4994825255E-003  +9.9411648512E-001 -2.8371810913E-004  +9.9445956945E-001 -6.3273310661E-004  +1.4919930836E-003 -1.3090473367E-003 
12398372.966 +7.9218409956E-003 -3.2762200572E-003  +9.9401766062E-001 -3.4728646278E-004  +9.9445432425E-001 -5.2076578140E-004  +2.9713099357E-003 -6.6883978434E-004 
12523518.148 +6.4126895741E-003 -2.1070062649E-003  +9.9442327023E-001 -4.2453408241E-004  +9.9402457476E-001 -2.9006600380E-004  +8.6656108033E-004 -8.7219791021E-004 
12648663.329 +9.0457685292E-003 -2.5874462444E-003  +9.9401599169E-001 +1.3357400894E-004  +9.9428039789E-001 +8.5961818695E-004  +1.3983274112E-003 -9.2101952760E-004 
12773808.511 +7.3492396623E-003 -4.2097959667E-003  +9.9469727278E-001 -1.2186169624E-004  +9.9423980713E-001 -1.6033649445E-004  +1.8479453865E-003 -1.2928935466E-003 
12898953.692 +8.2860747352E-003 -2.4428721517E-003  +9.9415087700E-001 -6.6572427750E-004  +9.9430072308E-001 -7.0780515671E-005  +2.0595001988E-003 -1.6280773561E-003 
13024098.874 +6.9979676045E-003 -1.6749942442E-003  +9.9399697781E-001 +1.9797682762E-004  +9.9491059780E-001 +3.1331181526E-004  +2.1640937775E-003 -2.5910823024E-004 
13149244.055 +8.0720921978E-003 -1.9202148542E-003  +9.9428099394E-001 -4.3882429600E-004  +9.9422365427E-001 -1.4990568161E-005  +1.6852789558E-003 +5.5725447601E-004 
13274389.237 +8.2056568936E-003 -3.7455754355E-003  +9.9458658695E-001 -8.2090497017E-005  +9.9457120895E-001 +1.0848045349E-005  +2.4467236362E-003 -1.1703752680E-003 
13399534.418 +8.1744072959E-003 -2.8356676921E-003  +9.9465525150E-001 +1.8346309662E-004  +9.9426931143E-001 +1.7420947552E-004  +2.3246684577E-003 -1.3132574968E-003 
13524679.599 +8.1993816420E-003 -2.6522944681E-003  +9.9470859766E-001 -4.2868405581E-004  +9.9493026733E-001 +2.8958171606E-004  +2.5231535546E-003 +3.1805128674E-004 
13649824.781 +7.7276015654E-003 -1.4691115357E-003  +9.9403738976E-001 -1.3709813356E-004  +9.9424517155E-001 -4.9099326134E-005  +3.3146999776E-003 -7.9223781358E-004 
13774969.962 +8.4223998711E-003 -1.8467211630E-003  +9.9429184198E-001 +1.2810342014E-004  +9.9464184046E-001 -3.3171847463E-004  +2.0695040002E-003 -9.0598140378E-004 
13900115.144 +8.4671536461E-003 -1.6682617133E-003  +9.9432665110E-001 -2.8547085822E-004  +9.9480539560E-001 -3.7007778883E-004  +2.2828187793E-003 -7.9974037362E-004 
14025260.325 +7.4009117670E-003 -9.8123645876E-004  +9.9423712492E-001 -1.1229515076E-004  +9.9408000708E-001 -7.0817768574E-005  +3.3741828520E-003 +1.9306462491E-005 
14150405.507 +8.3118760958E-003 -1.9131755689E-003  +9.9432170391E-001 -1.2391060591E-004  +9.9484586716E-001 -7.7339261770E-004  +2.5184762198E-003 +6.2794802943E-004 
14275550.688 +8.8434796780E-003 -1.2804070720E-003  +9.9416136742E-001 -5.3629279137E-005  +9.9468010664E-001 +6.2718987465E-005  +2.8785753530E-003 -4.8021145631E-004 
14400695.870 +9.0477112681E-003 -2.1370938048E-003  +9.9439203739E-001 -1.7538666725E-005  +9.9463969469E-001 -6.4961612225E-004  +1.6877917806E-003 +2.9270304367E-006 
