!  2-Port S-parameters saved by WinCal
! VAR MeasName=S-Parameters (CALIBRATED_DATA) read from VNA (P5004A)
! VAR MeasDate=22/05/2024 18:01:36
! VAR NAME=Wafer2_r2_c1_pristine_pos1.4dc
! VAR FILENAME=Wafer2_r2_c1_pristine_pos1.4dc.S2P
! VAR DATE=22/05/2024 18:01:36
! VAR PHYS_PORTS=1,2
! VAR ObjTypeName=DATASET
! VAR IndexType=Frequency
!
# Hz S RI R 50
9000.000 +2.4017082155E-001 -5.8782231808E-001  -5.4001659155E-003 +1.3036944903E-002  -1.3652720954E-003 +5.6417472661E-004  +6.2591731548E-002 +1.0409057885E-001 
134145.181 +6.5108358860E-001 -7.0272587240E-002  -1.9426211715E-002 +2.2773365490E-003  +4.6765217558E-003 +7.1293860674E-003  -3.4600383043E-001 -2.5898128748E-001 
259290.363 +8.2498860359E-001 -1.6115932167E-001  -5.6779361330E-004 +5.4983720183E-003  -1.8138415180E-003 -4.8068054020E-003  +1.4645189047E+000 -7.7396345139E-001 
384435.544 +8.9741611481E-001 -3.2877153158E-001  +8.6914002895E-003 -4.1737146676E-003  -1.1599870399E-002 +1.5812462196E-002  +4.3273038864E+000 -8.7975025177E-002 
509580.726 +9.6107035875E-001 -1.8128034472E-001  +2.8625875711E-003 +1.4861157397E-003  -1.0936310282E-003 +3.8623102591E-004  +1.7575609684E+000 -2.8004306555E-001 
634725.907 +1.1034198999E+000 -2.0736458898E-001  +9.9851749837E-006 -5.2520129830E-003  -3.7354077213E-003 -5.6103523821E-004  +2.7460446358E+000 +3.1345713139E-001 
759871.089 +1.2600837946E+000 -1.8911898136E-002  +5.5073562544E-004 +1.0871095583E-003  +3.0111218803E-004 -4.3865514454E-004  +1.4428277016E+000 +4.3530648947E-001 
885016.270 +1.2236865759E+000 -1.4096617699E-001  -8.5739640053E-004 -8.2766986452E-004  -3.1381816370E-004 +1.5077586286E-003  +1.1927074194E+000 +5.0604289770E-001 
1010161.452 +1.3284866810E+000 -7.8905254602E-002  -5.2002194570E-004 -5.2728946321E-004  -3.6791682942E-004 +7.4625783600E-004  +1.1808121204E+000 +5.0062000751E-001 
1135306.633 +1.4684426785E+000 -1.6590212286E-001  +5.9204257559E-004 -8.3007052308E-004  -4.7534314217E-004 -2.3310165852E-004  +1.3020043373E+000 +6.1778116226E-001 
1260451.815 +1.6837484837E+000 -1.1986654997E-001  +2.5658428058E-005 -1.3680604752E-004  +2.0943883283E-004 +3.1297007808E-004  +1.0991303921E+000 +7.1428084373E-001 
1385596.996 +1.4328057766E+000 -1.1658942699E-001  -2.0562569262E-005 +3.9293174632E-004  +1.5938538127E-004 +3.1006909558E-004  +9.8468858004E-001 +4.8707169294E-001 
1510742.178 +1.6981447935E+000 -1.1549618840E-001  +7.3114708357E-005 +1.1514776998E-004  +8.3875980636E-005 +6.5998159698E-005  +6.7817151546E-001 +5.7475334406E-001 
1635887.359 +1.1885092258E+000 -3.8557621837E-001  +2.2080997587E-004 +7.5141688285E-005  +3.2086865394E-004 +4.1147075535E-005  +1.5204945803E+000 +6.3135981560E-001 
1761032.541 +1.3786656857E+000 -2.8143692017E-001  -4.3022802856E-005 +2.1322129760E-004  +1.3467378449E-004 +1.2717900972E-004  +1.1040266752E+000 +8.2626909018E-001 
1886177.722 +1.2992022038E+000 -1.9586479664E-001  -1.9917319878E-004 -5.2454553952E-005  -1.9410414097E-004 +1.5972013352E-004  +1.1443924904E+000 +5.5814170837E-001 
2011322.904 +1.2931364775E+000 -1.9154548645E-001  -3.5771520925E-004 +2.2027746309E-004  -3.7887241342E-004 +1.9855282153E-004  +1.1581292152E+000 +5.2517616749E-001 
2136468.085 +1.2987205982E+000 -1.2040847540E-001  -2.7378331288E-004 +2.7313717874E-004  -3.2955099596E-004 +2.3490011517E-004  +1.0972263813E+000 +4.7663512826E-001 
2261613.267 +1.3382508755E+000 -9.9355444312E-002  -2.5071884738E-004 +3.1332799699E-004  -2.7500677970E-004 +3.5263391328E-004  +1.0549447536E+000 +5.1415807009E-001 
2386758.448 +1.3636765480E+000 -1.0258311033E-001  -3.2385176746E-004 +4.3976356392E-004  -4.3801113497E-004 +2.6548770256E-004  +1.0740877390E+000 +5.4385417700E-001 
2511903.630 +1.4172260761E+000 -1.1389869452E-001  -2.0969091565E-004 +8.6529267719E-004  -3.1399368891E-004 +1.6386268544E-004  +1.1175656319E+000 +5.7834792137E-001 
2637048.811 +1.4318429232E+000 -1.6288894415E-001  -7.3881662684E-004 +8.0145685934E-004  -2.8083019424E-004 +5.3160649259E-004  +1.1274830103E+000 +6.0580235720E-001 
2762193.992 +1.3763068914E+000 -1.4064949751E-001  -6.3170515932E-004 +7.2940840619E-004  -6.9644924952E-004 +6.9777877070E-004  +1.1437413692E+000 +5.0469130278E-001 
2887339.174 +1.4096889496E+000 -6.7204058170E-002  -4.7737674322E-004 +4.8311232240E-004  -5.2505149506E-004 +7.0874637458E-004  +9.9966144562E-001 +4.9880820513E-001 
3012484.355 +1.4835112095E+000 -7.8072726727E-002  -4.5709326514E-004 +1.8276434275E-005  -5.7982665021E-004 +1.8820964033E-004  +9.4911396503E-001 +6.0945820808E-001 
3137629.537 +1.5096857548E+000 -7.2896182537E-002  -8.5379346274E-004 +6.7976664286E-004  -1.2106958311E-003 +5.7561998256E-004  +9.7406649590E-001 +7.1918308735E-001 
3262774.718 +1.5368015766E+000 -1.0284209251E-001  -7.3641829658E-004 +4.0437857388E-004  -1.0938871419E-003 +5.4147420451E-004  +1.0227892399E+000 +7.8376960754E-001 
3387919.900 +1.5842289925E+000 -1.4352661371E-001  -1.4599085553E-003 +9.3542959075E-004  -8.6453394033E-004 +1.2343062554E-003  +1.0625419617E+000 +8.5165745020E-001 
3513065.081 +1.6682709455E+000 -1.8990600109E-001  -1.0254067602E-003 +1.2492683018E-003  -9.5632509328E-004 +1.3487003744E-003  +1.0978090763E+000 +9.2203778028E-001 
3638210.263 +1.7101912498E+000 -2.3785293102E-001  -1.2477441924E-003 +1.5945909545E-003  -8.5114664398E-004 +8.5940532153E-004  +1.1946263313E+000 +9.6654617786E-001 
3763355.444 +1.7324345112E+000 -3.1074815989E-001  -1.1239544256E-003 +8.9760532137E-004  -1.1922596022E-003 +7.7441072790E-004  +1.2908980846E+000 +9.9766892195E-001 
3888500.626 +1.7805449963E+000 -4.3916305900E-001  -1.2640769593E-002 -6.9832699373E-003  -1.7605776666E-003 +1.2394199148E-003  +1.3756079674E+000 +1.0616008043E+000 
4013645.807 +1.4420738220E+000 -7.2649133205E-001  -4.5253965072E-004 +2.1555745043E-003  -1.6695878003E-003 +2.5832031388E-003  +1.6510492563E+000 +8.4945237637E-001 
4138790.989 +1.0637409687E+000 -7.9009664059E-001  +9.9290884100E-004 +2.3573115468E-003  +6.6122855060E-005 +3.2454375178E-003  +1.7829246521E+000 +5.2575111389E-001 
4263936.170 +1.0101399422E+000 -8.0326807499E-001  +8.5720187053E-004 +3.0030985363E-003  +5.8392062783E-005 +2.0703361370E-003  +1.8267782927E+000 +4.3102788925E-001 
4389081.352 +9.2235946655E-001 -8.0244344473E-001  +5.1914947107E-004 +3.2461180817E-003  +1.2778537348E-004 +3.8072278257E-003  +1.8766981363E+000 +3.0153816938E-001 
4514226.533 +8.6596083641E-001 -8.1649088860E-001  +2.0752574783E-003 +2.9375718441E-003  -2.6889130822E-004 +2.4493231904E-003  +1.8955774307E+000 +2.0083484054E-001 
4639371.715 +8.0145293474E-001 -8.1262820959E-001  +8.5646600928E-004 +3.5034259781E-003  +1.9403905026E-004 +3.2184389420E-003  +1.9011098146E+000 +1.2213860452E-001 
4764516.896 +7.3300552368E-001 -7.8017860651E-001  +9.3103630934E-004 +3.3989085350E-003  -5.1829533186E-004 +2.7374099009E-003  +1.9040803909E+000 +3.9264559746E-002 
4889662.078 +6.8135660887E-001 -7.6475828886E-001  +1.3642050326E-003 +2.6383912191E-003  +4.6513925190E-004 +3.6874534562E-003  +1.9016554356E+000 -4.2593657970E-002 
5014807.259 +6.2377274036E-001 -7.3616170883E-001  +5.9628125746E-004 +2.9619187117E-003  +7.2408217238E-004 +3.1435939018E-003  +1.8528821468E+000 -1.1569331586E-001 
5139952.441 +5.8420157433E-001 -7.0817738771E-001  +1.3787827920E-003 +2.0537206437E-003  +1.5770461177E-003 +2.1257558838E-003  +1.8355748653E+000 -2.0481181145E-001 
5265097.622 +5.5063110590E-001 -6.6988223791E-001  +1.5812725760E-003 +2.3142846767E-003  +8.2250253763E-004 +3.2014374156E-003  +1.7815014124E+000 -2.6419624686E-001 
5390242.804 +5.0868839025E-001 -6.2953382730E-001  +8.2214159193E-004 +1.9748324994E-003  +7.8801641939E-004 +3.3101516310E-003  +1.7260055542E+000 -3.1653732061E-001 
5515387.985 +4.7707387805E-001 -5.8681416512E-001  +1.4298522146E-003 +3.1848431099E-003  +5.3520104848E-004 +3.0453773215E-003  +1.6942583323E+000 -3.7897789478E-001 
5640533.166 +4.4585916400E-001 -5.5204814672E-001  +1.3658639509E-003 +2.5349149946E-003  +1.2673841557E-003 +3.3760787919E-003  +1.6620240211E+000 -4.2309337854E-001 
5765678.348 +4.1588330269E-001 -5.1184767485E-001  +1.3800008455E-003 +1.8623954384E-003  +7.6500832802E-004 +3.3749626018E-003  +1.6042355299E+000 -4.5290991664E-001 
5890823.529 +3.8675716519E-001 -4.6847569942E-001  +5.1317858743E-004 +1.8599877367E-003  +6.2831764808E-004 +2.5531104766E-003  +1.5337640047E+000 -4.8291727901E-001 
6015968.711 +3.6649334431E-001 -4.2872017622E-001  +1.1388104176E-003 +2.4740956724E-003  +5.3829804529E-004 +2.9693513643E-003  +1.5049315691E+000 -4.9952656031E-001 
6141113.892 +3.4392020106E-001 -3.9520469308E-001  +6.4207066316E-004 +2.3814975284E-003  +1.0143846739E-003 +2.5084896479E-003  +1.4392389059E+000 -5.1288431883E-001 
6266259.074 +3.3164003491E-001 -3.5114938021E-001  +7.1557448246E-004 +2.4446896277E-003  +4.8415854690E-004 +3.1586189289E-003  +1.3885524273E+000 -5.3113543987E-001 
6391404.255 +3.1504237652E-001 -3.1193956733E-001  +6.2043295475E-004 +2.3968436290E-003  +5.6393083651E-004 +2.9190569185E-003  +1.3327550888E+000 -5.3729957342E-001 
6516549.437 +3.0527490377E-001 -2.7371218801E-001  +9.6805067733E-004 +2.1616416052E-003  +7.9423846910E-004 +3.1154984608E-003  +1.2937583923E+000 -5.4228383303E-001 
6641694.618 +2.9571411014E-001 -2.3386508226E-001  +4.6198064229E-004 +2.4834224023E-003  +5.1899882965E-004 +3.1010864768E-003  +1.2590610981E+000 -5.4147863388E-001 
6766839.800 +2.9193776846E-001 -1.8984492123E-001  +6.5831944812E-004 +2.3946713191E-003  +5.5498699658E-004 +3.0796006322E-003  +1.2163131237E+000 -5.5052936077E-001 
6891984.981 +2.8500330448E-001 -1.6049474478E-001  +3.3459244878E-004 +2.5198804215E-003  +3.4352109651E-004 +2.8918033931E-003  +1.1681725979E+000 -5.3758293390E-001 
7017130.163 +2.8057646751E-001 -1.1962763220E-001  +1.5402668214E-004 +2.2144862451E-003  +3.0150776729E-004 +3.0269334093E-003  +1.1378135681E+000 -5.3087598085E-001 
7142275.344 +2.7321022749E-001 -8.0196753144E-002  +4.7672094661E-004 +2.3140974808E-003  +4.3420383008E-004 +3.2529176679E-003  +1.1087630987E+000 -5.2113533020E-001 
7267420.526 +2.7505555749E-001 -3.5973045975E-002  +2.9525850550E-004 +2.2953527514E-003  +4.3163666851E-004 +2.9672074597E-003  +1.0769040585E+000 -5.1405870914E-001 
7392565.707 +2.7549859881E-001 +3.5087522119E-003  +3.6184859346E-004 +2.4254603777E-003  +4.6977004968E-004 +3.0163908377E-003  +1.0470598936E+000 -5.1027232409E-001 
7517710.889 +2.7813762426E-001 +3.9324566722E-002  +2.5714436197E-004 +2.5825994089E-003  +3.5816256423E-004 +3.2634809613E-003  +1.0192105770E+000 -4.9609839916E-001 
7642856.070 +2.7940374613E-001 +7.5204774737E-002  +6.0198435676E-005 +2.5195423514E-003  +4.4536433415E-004 +3.1429245137E-003  +9.8388719559E-001 -4.8252487183E-001 
7768001.252 +2.8404602408E-001 +1.1645281315E-001  +1.9317376427E-005 +2.6256202254E-003  +3.9212501724E-004 +3.3500315621E-003  +9.5968842506E-001 -4.7129473090E-001 
7893146.433 +2.9172968864E-001 +1.5763284266E-001  -8.9695327915E-005 +2.5598190259E-003  +2.5460156030E-004 +3.5101361573E-003  +9.3999314308E-001 -4.5335194468E-001 
8018291.615 +2.9911133647E-001 +1.9517886639E-001  -1.0332616512E-004 +2.5826126803E-003  +4.0438148426E-004 +3.1471608672E-003  +9.1083407402E-001 -4.4057583809E-001 
8143436.796 +3.0778837204E-001 +2.2929374874E-001  -1.4808290871E-004 +2.7857769746E-003  +3.9204402128E-004 +3.3923159353E-003  +8.9395505190E-001 -4.2156955600E-001 
8268581.977 +3.1881880760E-001 +2.7160218358E-001  -1.5521925525E-004 +2.7394988574E-003  +3.1790375942E-004 +3.4213280305E-003  +8.7620490789E-001 -4.0562123060E-001 
8393727.159 +3.3111137152E-001 +3.0937218666E-001  -4.1045137914E-004 +2.6867918205E-003  +6.3680345193E-005 +3.5182384308E-003  +8.5910540819E-001 -3.8721713424E-001 
8518872.340 +3.4890156984E-001 +3.4956434369E-001  -5.8958242880E-004 +2.7360403910E-003  +2.3864710238E-004 +3.6191996187E-003  +8.4131717682E-001 -3.7433502078E-001 
8644017.522 +3.6502969265E-001 +3.8603147864E-001  -4.8570026411E-004 +2.8684444260E-003  +9.6437288448E-005 +3.7937341258E-003  +8.3143889904E-001 -3.6061918736E-001 
8769162.703 +3.8784748316E-001 +4.2618066072E-001  -7.8510137973E-004 +2.8892520349E-003  +2.3706001230E-005 +3.7595452741E-003  +8.1562769413E-001 -3.4352740645E-001 
8894307.885 +4.0909028053E-001 +4.6235588193E-001  -7.6817884110E-004 +3.0650414992E-003  -3.1496048905E-005 +3.7536981981E-003  +8.0203545094E-001 -3.2983225584E-001 
9019453.066 +4.3593207002E-001 +4.9851506948E-001  -9.7357860068E-004 +3.1896990258E-003  +6.8655819632E-005 +4.1089444421E-003  +7.8865092993E-001 -3.1366893649E-001 
9144598.248 +4.6352532506E-001 +5.3881162405E-001  -9.7961747088E-004 +3.3426417504E-003  -3.3085932955E-005 +3.9548855275E-003  +7.7783024311E-001 -2.9434335232E-001 
9269743.429 +4.9707135558E-001 +5.7521116734E-001  -1.0133676697E-003 +3.4869099036E-003  -1.1790881399E-004 +3.9464766160E-003  +7.6711559296E-001 -2.7607122064E-001 
9394888.611 +5.3003334999E-001 +6.1151301861E-001  -1.1931395857E-003 +3.5631000064E-003  +4.6010129154E-005 +4.1564167477E-003  +7.5670725107E-001 -2.6205989718E-001 
9520033.792 +5.7056736946E-001 +6.4347469807E-001  -1.3061582576E-003 +3.6934649106E-003  -9.8848948255E-005 +4.0932940319E-003  +7.5015139580E-001 -2.4348263443E-001 
9645178.974 +6.1160558462E-001 +6.7577993870E-001  -1.3523441739E-003 +3.8630748168E-003  -2.9547605664E-005 +4.2677605525E-003  +7.4422389269E-001 -2.2724904120E-001 
9770324.155 +6.5734231472E-001 +7.0410680771E-001  -1.3624000130E-003 +4.0278327651E-003  -1.0436528828E-004 +4.3658534996E-003  +7.3668318987E-001 -2.1015968919E-001 
9895469.337 +7.0437836647E-001 +7.3333966732E-001  -1.3624071144E-003 +4.0641226806E-003  -1.0239041876E-004 +4.5018834062E-003  +7.3018622398E-001 -1.9399330020E-001 
10020614.518 +7.5368416309E-001 +7.5480365753E-001  -1.5062351013E-003 +4.3165436946E-003  -4.2414409108E-005 +4.4958391227E-003  +7.2811681032E-001 -1.7381718755E-001 
10145759.700 +8.0996227264E-001 +7.7071762085E-001  -1.6397817526E-003 +4.3518338352E-003  -9.8380260170E-006 +4.6050520614E-003  +7.2331029177E-001 -1.6009855270E-001 
10270904.881 +8.6893993616E-001 +7.8921419382E-001  -1.5726550482E-003 +4.7301119193E-003  -1.8255528994E-004 +4.6216947958E-003  +7.1967613697E-001 -1.4552310109E-001 
10396050.063 +9.2783528566E-001 +7.9571348429E-001  -1.5303912805E-003 +4.8343152739E-003  -7.5271353126E-005 +4.8663951457E-003  +7.1722257137E-001 -1.2812212110E-001 
10521195.244 +9.8584455252E-001 +8.0292862654E-001  -1.7107643653E-003 +5.0649456680E-003  -1.7316685989E-004 +4.8179696314E-003  +7.1499955654E-001 -1.1327186227E-001 
10646340.426 +1.0429147482E+000 +8.0219805241E-001  -1.6814619303E-003 +5.2342331037E-003  -2.1223351359E-004 +4.8144878820E-003  +7.1402752399E-001 -9.6601039171E-002 
10771485.607 +1.1058762074E+000 +7.9354405403E-001  -1.6560953809E-003 +5.4510375485E-003  -8.7164808065E-005 +4.9840901047E-003  +7.1532523632E-001 -8.0705165863E-002 
10896630.788 +1.1646029949E+000 +7.8053396940E-001  -1.7046182184E-003 +5.6221778505E-003  -4.6017812565E-005 +5.0030024722E-003  +7.1529442072E-001 -6.4181178808E-002 
11021775.970 +1.2237108946E+000 +7.5948178768E-001  -1.6419407912E-003 +5.7744681835E-003  -9.9925091490E-005 +5.0927111879E-003  +7.1589958668E-001 -5.1967799664E-002 
11146921.151 +1.2843246460E+000 +7.3451375961E-001  -1.5751279425E-003 +6.0459170491E-003  -1.0516820475E-004 +5.1349019632E-003  +7.1712720394E-001 -3.5479933023E-002 
11272066.333 +1.3383390903E+000 +7.0143866539E-001  -1.5125325881E-003 +6.1705261469E-003  -1.3056816533E-004 +5.2096275613E-003  +7.1897697449E-001 -2.1819561720E-002 
11397211.514 +1.3883318901E+000 +6.7003715038E-001  -1.4729371760E-003 +6.4394362271E-003  -1.2080627494E-004 +5.2297729999E-003  +7.2211277485E-001 -8.6236596107E-003 
11522356.696 +1.4360201359E+000 +6.2795531750E-001  -1.3790284283E-003 +6.6414996982E-003  -2.2012530826E-004 +5.2834036760E-003  +7.2668099403E-001 +6.6391527653E-003 
11647501.877 +1.4737304449E+000 +5.8389461040E-001  -1.3085019309E-003 +6.8085640669E-003  -1.1673243716E-004 +5.4242387414E-003  +7.3137003183E-001 +2.0744949579E-002 
11772647.059 +1.5135353804E+000 +5.3519803286E-001  -1.1392335873E-003 +6.9058276713E-003  -1.7092237249E-004 +5.4764198139E-003  +7.3471671343E-001 +3.3747881651E-002 
11897792.240 +1.5449357033E+000 +4.8548054695E-001  -1.0163169354E-003 +7.1502854116E-003  -1.4912267216E-004 +5.5137258023E-003  +7.4088788033E-001 +4.6124070883E-002 
12022937.422 +1.5723239183E+000 +4.3635684252E-001  -9.3745393679E-004 +7.1964040399E-003  -2.4173408747E-004 +5.5927075446E-003  +7.4598705769E-001 +5.9186130762E-002 
12148082.603 +1.5911465883E+000 +3.7852612138E-001  -8.3980849013E-004 +7.3518864810E-003  -2.2053648718E-004 +5.6907325052E-003  +7.5372821093E-001 +7.2953671217E-002 
12273227.785 +1.6042287350E+000 +3.2805818319E-001  -6.9772219285E-004 +7.4657923542E-003  -2.2658787202E-004 +5.7787680998E-003  +7.6108425856E-001 +8.3597078919E-002 
12398372.966 +1.6145005226E+000 +2.7645298839E-001  -5.7195557747E-004 +7.6056439430E-003  -3.0788313597E-004 +5.8391564526E-003  +7.6914566755E-001 +9.4584375620E-002 
12523518.148 +1.6142216921E+000 +2.2249653935E-001  -4.8296176828E-004 +7.6308115385E-003  -2.7407635935E-004 +5.9525654651E-003  +7.7598345280E-001 +1.0495564342E-001 
12648663.329 +1.6168448925E+000 +1.7464625835E-001  -3.4784106538E-004 +7.7612372115E-003  -2.8750335332E-004 +6.0077109374E-003  +7.8506690264E-001 +1.1734710634E-001 
12773808.511 +1.6101837158E+000 +1.2606182694E-001  -2.5372323580E-004 +7.8234802932E-003  -2.9256113339E-004 +6.0619409196E-003  +7.9397088289E-001 +1.2610255182E-001 
12898953.692 +1.6026716232E+000 +7.9754725099E-002  -1.1806731345E-004 +7.8383199871E-003  -3.9970377111E-004 +6.2120966613E-003  +8.0326926708E-001 +1.3534522057E-001 
13024098.874 +1.5892856121E+000 +3.8062069565E-002  +1.3097262126E-005 +7.9227956012E-003  -3.4765855526E-004 +6.2926774845E-003  +8.1389975548E-001 +1.4491407573E-001 
13149244.055 +1.5743596554E+000 +4.4837594032E-005  +7.8582437709E-005 +7.9815573990E-003  -3.8438261254E-004 +6.4213327132E-003  +8.2444447279E-001 +1.5270033479E-001 
13274389.237 +1.5562579632E+000 -3.8944214582E-002  +1.8924364122E-004 +7.9920385033E-003  -3.3909810008E-004 +6.4799175598E-003  +8.3557796478E-001 +1.6052864492E-001 
13399534.418 +1.5376598835E+000 -7.3650926352E-002  +3.3156340942E-004 +8.0476095900E-003  -3.6934233503E-004 +6.5704658628E-003  +8.4579205513E-001 +1.6855369508E-001 
13524679.599 +1.5166568756E+000 -1.0184228420E-001  +4.0493521374E-004 +8.0454358831E-003  -3.9278529584E-004 +6.6343382932E-003  +8.5813862085E-001 +1.7610360682E-001 
13649824.781 +1.4958666563E+000 -1.3292482495E-001  +5.2944733761E-004 +8.0871758983E-003  -3.8111605681E-004 +6.7799845710E-003  +8.7036508322E-001 +1.8076600134E-001 
13774969.962 +1.4721674919E+000 -1.5828660131E-001  +6.3872965984E-004 +8.0981813371E-003  -3.8448139094E-004 +6.8888496608E-003  +8.8248443604E-001 +1.8583181500E-001 
13900115.144 +1.4500769377E+000 -1.8036574125E-001  +7.1310903877E-004 +8.1279920414E-003  -3.2912637107E-004 +7.0004584268E-003  +8.9322578907E-001 +1.9052524865E-001 
14025260.325 +1.4261896610E+000 -2.0044991374E-001  +7.2140432894E-004 +8.1271547824E-003  -3.4883082844E-004 +7.1055884473E-003  +9.0565216541E-001 +1.9385462999E-001 
14150405.507 +1.4029755592E+000 -2.1778118610E-001  +7.9941190779E-004 +8.0944430083E-003  -2.9578292742E-004 +7.1811098605E-003  +9.1845452785E-001 +1.9723515213E-001 
14275550.688 +1.3792119026E+000 -2.3434531689E-001  +9.0285972692E-004 +8.1384303048E-003  -2.5188201107E-004 +7.2293891571E-003  +9.3160492182E-001 +1.9797611237E-001 
14400695.870 +1.3533016443E+000 -2.4893289804E-001  +9.5400190912E-004 +8.0803651363E-003  -2.3152912036E-004 +7.3651596904E-003  +9.4306933880E-001 +2.0055770874E-001 
