!  2-Port S-parameters saved by WinCal
! VAR MeasName=S-Parameters (CALIBRATED_DATA) read from VNA (P5004A)
! VAR MeasDate=22/05/2024 18:08:41
! VAR NAME=Wafer2_r2_c1_pristine_neg0.4dc
! VAR FILENAME=Wafer2_r2_c1_pristine_neg0.4dc.S2P
! VAR DATE=22/05/2024 18:08:42
! VAR PHYS_PORTS=1,2
! VAR ObjTypeName=DATASET
! VAR IndexType=Frequency
!
# Hz S RI R 50
9000.000 +2.2665511072E-001 -5.8080422878E-001  +4.2621805333E-003 -3.7983385846E-003  -2.8951053973E-003 +2.2183787078E-003  +5.9563718736E-002 +9.9703744054E-002 
134145.181 +6.3489586115E-001 -5.9170402586E-002  -1.4493598137E-003 +6.1067291535E-003  +1.0425535962E-002 +1.8941119313E-002  -4.3635886908E-001 -2.2113975883E-001 
259290.363 +8.2553035021E-001 -1.4649233222E-001  -2.0013260655E-003 -1.4295540750E-002  +8.7754623964E-003 -5.2041141316E-004  +1.0447549820E+000 -7.9514622688E-001 
384435.544 +8.8254666328E-001 -3.0681979656E-001  +1.8886350095E-002 -8.7119881064E-003  -1.0281281546E-002 +1.9433338195E-002  +2.6673963070E+000 -2.7481927872E+000 
509580.726 +9.5418238640E-001 -1.6627839208E-001  +3.2201188151E-003 -6.7711966112E-003  +1.5309428563E-003 -2.1392134950E-003  +1.7487695217E+000 -4.9501407146E-001 
634725.907 +1.0970655680E+000 -2.0294821262E-001  -8.6539490148E-003 +8.1267403439E-003  -7.4192360044E-003 +1.3565246481E-003  +3.4080376625E+000 +6.6869914532E-001 
759871.089 +1.2617423534E+000 -2.4327814579E-002  +7.5475509220E-005 +7.9830984760E-005  -3.1647004653E-004 -5.6045522797E-005  +1.4528098106E+000 +4.4330024719E-001 
885016.270 +1.1743755341E+000 -1.5645565093E-001  -1.0415236466E-004 -1.3250557240E-003  +3.1072291313E-004 +8.4916135529E-004  +1.2172125578E+000 +5.0084602833E-001 
1010161.452 +1.3143016100E+000 -5.5591493845E-002  +8.3552542492E-005 -5.1610113587E-004  +7.8048009891E-004 +7.4918993050E-004  +1.1897886992E+000 +5.0119358301E-001 
1135306.633 +1.4552215338E+000 -1.2323892117E-001  -5.3682882572E-004 -8.0485246144E-004  +1.9872059056E-004 +2.0378163026E-004  +1.2996752262E+000 +6.1661565304E-001 
1260451.815 +1.6618673801E+000 -1.0628485680E-001  +4.2987309280E-004 -2.1714427567E-004  +3.0942261219E-004 -2.1695476607E-004  +1.0971499681E+000 +7.1102988720E-001 
1385596.996 +1.4302468300E+000 -1.0919570923E-001  +6.3108018367E-006 +1.7893547192E-004  +2.5683484273E-004 +2.0768762624E-004  +9.8557263613E-001 +4.8508763313E-001 
1510742.178 +1.6873362064E+000 -1.0896161199E-001  -2.8938680771E-004 -2.7448404580E-004  +4.7589586757E-005 +3.2540083339E-005  +6.7786300182E-001 +5.7406753302E-001 
1635887.359 +1.1831872463E+000 -3.7933206558E-001  +1.7462785763E-004 +5.1617607824E-006  +2.6051601162E-004 +1.1616003758E-004  +1.5203144550E+000 +6.3112825155E-001 
1761032.541 +1.3612184525E+000 -2.7388241887E-001  -2.6446231641E-004 +1.7603074957E-004  -1.1204559996E-004 +1.6506230168E-004  +1.1041744947E+000 +8.2644647360E-001 
1886177.722 +1.2874598503E+000 -1.9337514043E-001  -1.8409523182E-004 +1.3833290723E-004  -9.7405994893E-005 +2.3239005532E-004  +1.1442438364E+000 +5.5765986443E-001 
2011322.904 +1.2855427265E+000 -1.8341913819E-001  -2.9637050466E-004 +4.7119046212E-004  -2.7625710936E-004 +2.1002351423E-004  +1.1580479145E+000 +5.2521157265E-001 
2136468.085 +1.2846971750E+000 -1.1858683825E-001  -2.4420555565E-004 +2.9179494595E-004  -3.3614333370E-004 +1.0205207946E-004  +1.0967252254E+000 +4.7654914856E-001 
2261613.267 +1.3193343878E+000 -9.9671989679E-002  -1.7946716980E-004 +4.5772106387E-004  -3.2244756585E-004 +5.6662259158E-004  +1.0544658899E+000 +5.1434272528E-001 
2386758.448 +1.3399169445E+000 -9.5456063747E-002  -5.3647643654E-004 +3.7148030242E-004  -3.8848916302E-004 +5.4200517479E-004  +1.0734095573E+000 +5.4377728701E-001 
2511903.630 +1.3989089727E+000 -1.0989138484E-001  -4.4878147310E-004 +5.3330441006E-004  -2.6908813743E-004 +5.2663579118E-004  +1.1187077761E+000 +5.7885938883E-001 
2637048.811 +1.4018614292E+000 -1.4458125830E-001  -7.8418984776E-004 +2.6048484142E-004  -6.6374952439E-004 +5.0275982358E-004  +1.1274334192E+000 +6.0748952627E-001 
2762193.992 +1.3575826883E+000 -1.0489714146E-001  -4.7175487271E-004 +8.6132675642E-004  -6.6884135595E-004 +5.5101385806E-004  +1.1430736780E+000 +5.0498455763E-001 
2887339.174 +1.3966233730E+000 -4.6186208725E-002  -5.2288651932E-004 +1.0118926875E-003  -1.0656942613E-003 +1.8740468659E-004  +9.9797284603E-001 +5.0112563372E-001 
3012484.355 +1.4645159245E+000 -4.8289120197E-002  -6.9838145282E-004 +4.6815804671E-004  -4.3216935592E-004 +5.7545892196E-004  +9.5089399815E-001 +6.1327987909E-001 
3137629.537 +1.4961655140E+000 -4.4049680233E-002  -7.5383129297E-004 +6.4889399800E-004  -7.9925608588E-004 +4.7112384345E-004  +9.7404724360E-001 +7.1911507845E-001 
3262774.718 +1.5331878662E+000 -7.7322661877E-002  -9.9624949507E-004 +8.9195329929E-004  -5.0376326544E-004 +8.9052121621E-004  +1.0236196518E+000 +7.8566825390E-001 
3387919.900 +1.5769120455E+000 -1.1165219545E-001  -9.0531172464E-004 +1.3795419363E-003  -1.0163935367E-003 +4.8068049364E-004  +1.0628042221E+000 +8.5366648436E-001 
3513065.081 +1.6492834091E+000 -1.4174777269E-001  -1.0815626010E-003 +1.1235922575E-003  -7.9641724005E-004 +7.4910931289E-004  +1.1015297174E+000 +9.2991209030E-001 
3638210.263 +1.7239248753E+000 -1.8750637770E-001  -7.4482953642E-004 +1.9123712555E-003  -1.1591400253E-003 +7.5894617476E-004  +1.1981847286E+000 +9.6637612581E-001 
3763355.444 +1.7580093145E+000 -2.4833434820E-001  -1.7296444857E-003 +9.1251695994E-004  -1.7403902020E-003 +1.0832593543E-003  +1.2989678383E+000 +1.0009377003E+000 
3888500.626 +1.8351762295E+000 -3.9610320330E-001  -8.8969497010E-003 +7.5613474473E-004  -1.6502785729E-003 +1.5547722578E-003  +1.3690598011E+000 +1.0579868555E+000 
4013645.807 +1.4876956940E+000 -6.8227767944E-001  -1.1609137291E-003 +3.0257722829E-003  -8.9507986559E-004 +2.2948344704E-003  +1.6546846628E+000 +8.5661768913E-001 
4138790.989 +1.0964094400E+000 -7.9171383381E-001  -2.6676774723E-004 +3.1584652606E-003  +5.1291100681E-004 +1.8924430478E-003  +1.7789835930E+000 +5.2566260099E-001 
4263936.170 +1.0428056717E+000 -7.9661566019E-001  +4.4399814215E-004 +2.4295323528E-003  +7.4283510912E-004 +3.2492347527E-003  +1.8334321976E+000 +4.3206834793E-001 
4389081.352 +9.5496213436E-001 -8.0403900146E-001  +6.3392694574E-004 +2.4129285011E-003  +1.7392099835E-005 +2.4763571564E-003  +1.8795448542E+000 +2.9417568445E-001 
4514226.533 +8.9935183525E-001 -8.2017582655E-001  +3.1323696021E-004 +3.4061872866E-003  +6.2534358585E-004 +2.7679090854E-003  +1.9127767086E+000 +2.0085950196E-001 
4639371.715 +8.3524358273E-001 -7.9563844204E-001  +1.4471305767E-003 +2.8691228945E-003  +7.3965208139E-004 +2.6009436697E-003  +1.9002211094E+000 +1.2933744490E-001 
4764516.896 +7.6053816080E-001 -7.7497255802E-001  +1.3958555646E-003 +2.2004947532E-003  +8.9748320170E-004 +3.5630282946E-003  +1.9013292789E+000 +4.1038423777E-002 
4889662.078 +7.0777177811E-001 -7.7816557884E-001  +7.5906096026E-004 +3.0828001909E-003  +1.7583575100E-003 +2.5986479595E-003  +1.8976992369E+000 -4.0945529938E-002 
5014807.259 +6.4232873917E-001 -7.4678325653E-001  +9.4327476108E-004 +2.6849932037E-003  +9.4710430130E-004 +3.1138381455E-003  +1.8558933735E+000 -1.1329707503E-001 
5139952.441 +6.0131043196E-001 -7.3886936903E-001  +9.2029361986E-004 +2.0936080255E-003  +1.7686610809E-003 +2.2375565022E-003  +1.8325122595E+000 -1.9775977731E-001 
5265097.622 +5.5796790123E-001 -6.9004499912E-001  +1.4131327625E-003 +2.8063161299E-003  +1.2689764844E-003 +3.0264430679E-003  +1.7778991461E+000 -2.6169860363E-001 
5390242.804 +5.2671623230E-001 -6.5120667219E-001  +9.6128357109E-004 +1.6431144904E-003  +1.1472711340E-003 +2.7176279109E-003  +1.7389413118E+000 -3.0623731017E-001 
5515387.985 +4.8362812400E-001 -6.1615240574E-001  +1.6208478482E-003 +2.0837185439E-003  +1.3337937417E-003 +2.4149452802E-003  +1.6913640499E+000 -3.7426787615E-001 
5640533.166 +4.4554346800E-001 -5.7665759325E-001  +1.1673190165E-003 +2.4492007215E-003  +1.2605384691E-003 +2.5550103746E-003  +1.6611361504E+000 -4.1869592667E-001 
5765678.348 +4.2153650522E-001 -5.3435546160E-001  +1.1306562228E-003 +2.7602347545E-003  +3.3629327663E-004 +2.5250192266E-003  +1.6111724377E+000 -4.4373238087E-001 
5890823.529 +3.9512619376E-001 -4.9171704054E-001  +9.4092614017E-004 +2.0364453085E-003  +8.0947775859E-004 +1.8975320272E-003  +1.5469732285E+000 -4.7837650776E-001 
6015968.711 +3.6765617132E-001 -4.4348445535E-001  +1.0651793564E-003 +2.3907937575E-003  +8.7151257321E-004 +2.4495692924E-003  +1.5071369410E+000 -5.0466877222E-001 
6141113.892 +3.5237610340E-001 -4.0551617742E-001  +8.3001627354E-004 +2.0984404255E-003  +1.0589079466E-003 +1.9276236417E-003  +1.4432935715E+000 -5.1195240021E-001 
6266259.074 +3.3696106076E-001 -3.6700129509E-001  +1.1395120528E-003 +2.3134993389E-003  +8.8618061272E-004 +2.4245628156E-003  +1.3928974867E+000 -5.2079641819E-001 
6391404.255 +3.2284140587E-001 -3.1876146793E-001  +9.3057320919E-004 +2.1118931472E-003  +1.1238477891E-003 +2.0060215611E-003  +1.3364452124E+000 -5.4464656115E-001 
6516549.437 +3.1257769465E-001 -2.8335249424E-001  +6.0432963073E-004 +2.1802170668E-003  +5.4515094962E-004 +2.2184096742E-003  +1.2965197563E+000 -5.3890305758E-001 
6641694.618 +3.0367547274E-001 -2.4372376502E-001  +5.9871264966E-004 +2.3109270260E-003  +7.0864730515E-004 +1.8177932361E-003  +1.2626932859E+000 -5.4126614332E-001 
6766839.800 +2.9563230276E-001 -2.0087826252E-001  +8.0964545486E-004 +1.8409470795E-003  +4.7428489779E-004 +2.4372595362E-003  +1.2192904949E+000 -5.4317277670E-001 
6891984.981 +2.9033327103E-001 -1.6670431197E-001  +3.8176940870E-004 +1.9336928381E-003  +5.5566272931E-004 +2.1506173071E-003  +1.1673394442E+000 -5.4239177704E-001 
7017130.163 +2.8503298759E-001 -1.2115946412E-001  +6.4998894231E-004 +2.3091402836E-003  +5.5043824250E-004 +2.1721113008E-003  +1.1422518492E+000 -5.2853608131E-001 
7142275.344 +2.8016310930E-001 -8.3258010447E-002  +4.5881641563E-004 +2.1997555159E-003  +3.4566828981E-004 +2.2536199540E-003  +1.1091557741E+000 -5.1995134354E-001 
7267420.526 +2.8191253543E-001 -4.5184887946E-002  +1.8016219838E-004 +2.3828125559E-003  +1.4783027291E-004 +2.2913177963E-003  +1.0782355070E+000 -5.0707042217E-001 
7392565.707 +2.7953743935E-001 -3.0754320323E-003  +2.4139032757E-004 +2.3008962162E-003  +4.0753024223E-005 +2.4063088931E-003  +1.0495215654E+000 -5.0660961866E-001 
7517710.889 +2.7872779965E-001 +3.1181190163E-002  +2.6036694180E-005 +2.4433014914E-003  -3.2029565773E-005 +2.2613343317E-003  +1.0191419125E+000 -4.9220922589E-001 
7642856.070 +2.7800202370E-001 +6.8649545312E-002  +7.9244797234E-005 +2.5194105692E-003  -8.5058578406E-005 +2.4670572020E-003  +9.8614400625E-001 -4.8278129101E-001 
7768001.252 +2.8646308184E-001 +1.0867574811E-001  +1.8801877741E-004 +2.7302193921E-003  +1.1470381287E-004 +2.4952103850E-003  +9.6230173111E-001 -4.6928995848E-001 
7893146.433 +2.9274401069E-001 +1.4960101247E-001  -2.1465167811E-004 +2.5675527286E-003  +1.9561205409E-004 +2.4730970617E-003  +9.4132107496E-001 -4.5218771696E-001 
8018291.615 +2.9642087221E-001 +1.8979114294E-001  -8.2325888798E-005 +2.4877975229E-003  -8.2508253399E-005 +2.7153552510E-003  +9.1174626350E-001 -4.3510019779E-001 
8143436.796 +3.1186789274E-001 +2.2680290043E-001  -9.6219853731E-005 +2.6654002722E-003  -1.9361419254E-004 +2.6778264437E-003  +8.9947712421E-001 -4.2088699341E-001 
8268581.977 +3.1998327374E-001 +2.6779302955E-001  -1.5094460105E-004 +2.6850530412E-003  -4.4063269161E-004 +2.7914452367E-003  +8.7808710337E-001 -4.0421891212E-001 
8393727.159 +3.3419364691E-001 +3.0470341444E-001  -4.8642163165E-004 +2.6950666215E-003  -3.9854052011E-004 +2.8426053468E-003  +8.6080807447E-001 -3.9204049110E-001 
8518872.340 +3.4985771775E-001 +3.4563636780E-001  -4.2856083019E-004 +2.7951279189E-003  -6.2164553674E-004 +2.8681354597E-003  +8.4259653091E-001 -3.7169772387E-001 
8644017.522 +3.6610013247E-001 +3.7930753827E-001  -6.1184976948E-004 +3.0889252666E-003  -6.7906943150E-004 +2.8979764320E-003  +8.3291023970E-001 -3.5872268677E-001 
8769162.703 +3.8706436753E-001 +4.1958546638E-001  -5.6802533800E-004 +2.8697494417E-003  -5.7824567193E-004 +2.9186441097E-003  +8.1875252724E-001 -3.4146100283E-001 
8894307.885 +4.0848049521E-001 +4.5676416159E-001  -7.6074886601E-004 +2.9520611279E-003  -7.2073854972E-004 +3.2043154351E-003  +8.0228799582E-001 -3.2642838359E-001 
9019453.066 +4.3405193090E-001 +4.9439403415E-001  -8.4634823725E-004 +3.1965621747E-003  -9.1980624711E-004 +3.2033319585E-003  +7.8961491585E-001 -3.1255549192E-001 
9144598.248 +4.6448737383E-001 +5.3217768669E-001  -1.0263072327E-003 +3.3207491506E-003  -9.9540874362E-004 +3.2369787805E-003  +7.7734339237E-001 -2.9444208741E-001 
9269743.429 +4.9788853526E-001 +5.7072347403E-001  -1.0170234600E-003 +3.3565424383E-003  -9.7599945730E-004 +3.2469243743E-003  +7.7055639029E-001 -2.7838039398E-001 
9394888.611 +5.2949124575E-001 +6.0825335979E-001  -1.1777788168E-003 +3.5886475816E-003  -1.0490597924E-003 +3.5659435671E-003  +7.5942778587E-001 -2.6228487492E-001 
9520033.792 +5.7103425264E-001 +6.4029467106E-001  -1.2407056056E-003 +3.5779934842E-003  -1.2711551972E-003 +3.7512858398E-003  +7.5255584717E-001 -2.4146421254E-001 
9645178.974 +6.1437493563E-001 +6.7521011829E-001  -1.2851371430E-003 +3.9147152565E-003  -1.3960710494E-003 +3.7346582394E-003  +7.4428939819E-001 -2.2770749032E-001 
9770324.155 +6.5638422966E-001 +7.0138597488E-001  -1.3304797467E-003 +3.8735405542E-003  -1.3708577026E-003 +3.9340229705E-003  +7.3648422956E-001 -2.0979404449E-001 
9895469.337 +7.0452994108E-001 +7.2942984104E-001  -1.3026172528E-003 +4.1122203693E-003  -1.3586464338E-003 +4.2214980349E-003  +7.2966504097E-001 -1.9446659088E-001 
10020614.518 +7.5358265638E-001 +7.5168806314E-001  -1.4627360506E-003 +4.3902881444E-003  -1.5189417172E-003 +4.2067510076E-003  +7.2689843178E-001 -1.7613255978E-001 
10145759.700 +8.0907607079E-001 +7.6909863949E-001  -1.5284605324E-003 +4.3278522789E-003  -1.5159542672E-003 +4.3993587606E-003  +7.2566223145E-001 -1.6028535366E-001 
10270904.881 +8.6864537001E-001 +7.8636252880E-001  -1.5361040132E-003 +4.7029918060E-003  -1.5325334389E-003 +4.6311379410E-003  +7.2137677670E-001 -1.4534777403E-001 
10396050.063 +9.2862778902E-001 +7.9485481977E-001  -1.6428903909E-003 +4.8798914067E-003  -1.6457717866E-003 +4.7036539763E-003  +7.1835136414E-001 -1.2815672159E-001 
10521195.244 +9.8443818092E-001 +7.9992347956E-001  -1.6616870416E-003 +5.0241369754E-003  -1.6208303859E-003 +5.0706504844E-003  +7.1700739861E-001 -1.1288571358E-001 
10646340.426 +1.0406751633E+000 +7.9883438349E-001  -1.6683895374E-003 +5.2023748867E-003  -1.6500829952E-003 +5.2845682949E-003  +7.1483230591E-001 -9.6057742834E-002 
10771485.607 +1.1048704386E+000 +7.9078376293E-001  -1.6387521755E-003 +5.4231337272E-003  -1.6666525044E-003 +5.4240263999E-003  +7.1622949839E-001 -8.0072522163E-002 
10896630.788 +1.1650297642E+000 +7.7688419819E-001  -1.7245985800E-003 +5.5987117812E-003  -1.6606312711E-003 +5.6333304383E-003  +7.1660780907E-001 -6.5349221230E-002 
11021775.970 +1.2228528261E+000 +7.5833523273E-001  -1.6429692041E-003 +5.7981992140E-003  -1.6662369017E-003 +5.7856724598E-003  +7.1639692783E-001 -5.1040649414E-002 
11146921.151 +1.2832462788E+000 +7.3102909327E-001  -1.5980610624E-003 +6.0213198885E-003  -1.5615648590E-003 +5.9382971376E-003  +7.1928894520E-001 -3.6053448915E-002 
11272066.333 +1.3374359608E+000 +6.9922566414E-001  -1.4998633415E-003 +6.2130107544E-003  -1.4905517455E-003 +6.2104961835E-003  +7.2086930275E-001 -2.0131915808E-002 
11397211.514 +1.3879594803E+000 +6.6807460785E-001  -1.4717660379E-003 +6.3647287898E-003  -1.4514164068E-003 +6.4347269945E-003  +7.2416847944E-001 -6.1680972576E-003 
11522356.696 +1.4367084503E+000 +6.2635397911E-001  -1.4025762212E-003 +6.6326409578E-003  -1.3568501454E-003 +6.6195060499E-003  +7.2679257393E-001 +6.3552260399E-003 
11647501.877 +1.4739375114E+000 +5.8206695318E-001  -1.2895304244E-003 +6.7106476054E-003  -1.2340717949E-003 +6.6991322674E-003  +7.3080003262E-001 +2.0015627146E-002 
11772647.059 +1.5124242306E+000 +5.3336304426E-001  -1.1753353756E-003 +6.9075440988E-003  -1.2169915717E-003 +6.9060791284E-003  +7.3581296206E-001 +3.2791763544E-002 
11897792.240 +1.5452156067E+000 +4.8310834169E-001  -1.0956781916E-003 +7.0792054757E-003  -1.1455018539E-003 +7.0672216825E-003  +7.4090945721E-001 +4.6655297279E-002 
12022937.422 +1.5721155405E+000 +4.3370008469E-001  -9.4369659200E-004 +7.1503566578E-003  -9.3484786339E-004 +7.2337556630E-003  +7.4688333273E-001 +5.9048563242E-002 
12148082.603 +1.5908679962E+000 +3.7693613768E-001  -8.2281767391E-004 +7.3697841726E-003  -8.3534815349E-004 +7.3842187412E-003  +7.5394099951E-001 +7.2754219174E-002 
12273227.785 +1.6042578220E+000 +3.2642796636E-001  -6.8933004513E-004 +7.4311960489E-003  -7.6286774129E-004 +7.3754242621E-003  +7.6048213243E-001 +8.3023905754E-002 
12398372.966 +1.6139173508E+000 +2.7544292808E-001  -5.3808011580E-004 +7.6159322634E-003  -5.5853929371E-004 +7.6058185659E-003  +7.6894181967E-001 +9.5314115286E-002 
12523518.148 +1.6144155264E+000 +2.2163945436E-001  -4.4426263776E-004 +7.6611884870E-003  -4.5901315752E-004 +7.5769443065E-003  +7.7622938156E-001 +1.0616001487E-001 
12648663.329 +1.6171748638E+000 +1.7346382141E-001  -3.3188937232E-004 +7.7142058872E-003  -3.6810978781E-004 +7.7759898268E-003  +7.8421795368E-001 +1.1661110818E-001 
12773808.511 +1.6109671593E+000 +1.2333397567E-001  -2.2771046497E-004 +7.7599296346E-003  -2.5473203277E-004 +7.7836033888E-003  +7.9464805126E-001 +1.2666162848E-001 
12898953.692 +1.6023942232E+000 +7.8011728823E-002  -1.0414031567E-004 +7.8808479011E-003  -1.5055504628E-004 +7.8305127099E-003  +8.0409306288E-001 +1.3588584960E-001 
13024098.874 +1.5888248682E+000 +3.6475233734E-002  +2.4162029149E-005 +7.9025449231E-003  -9.8773307400E-005 +7.8870737925E-003  +8.1407433748E-001 +1.4635244012E-001 
13149244.055 +1.5749871731E+000 -1.3870149851E-003  +9.4162940513E-005 +7.9265804961E-003  +4.7107052524E-005 +7.9520195723E-003  +8.2453763485E-001 +1.5402108431E-001 
13274389.237 +1.5569195747E+000 -4.0381774306E-002  +2.3503211560E-004 +7.9882666469E-003  +2.0069401944E-004 +7.9944431782E-003  +8.3572828770E-001 +1.6048756242E-001 
13399534.418 +1.5369912386E+000 -7.3403492570E-002  +2.6662833989E-004 +8.0289924517E-003  +2.2330926731E-004 +8.0688083544E-003  +8.4584772587E-001 +1.6836339235E-001 
13524679.599 +1.5175369978E+000 -1.0333788395E-001  +4.7118961811E-004 +8.0205686390E-003  +4.2683875654E-004 +8.0366311595E-003  +8.5794258118E-001 +1.7456646264E-001 
13649824.781 +1.4963546991E+000 -1.3473770022E-001  +4.9888947979E-004 +8.0903870985E-003  +4.7349685337E-004 +8.1161679700E-003  +8.7099391222E-001 +1.7998906970E-001 
13774969.962 +1.4718353748E+000 -1.5912199020E-001  +5.9986789711E-004 +8.0592818558E-003  +5.8155483566E-004 +8.0907363445E-003  +8.8145810366E-001 +1.8501338363E-001 
13900115.144 +1.4500412941E+000 -1.8167933822E-001  +6.7526963539E-004 +8.1192823127E-003  +6.5773702227E-004 +8.1361196935E-003  +8.9341694117E-001 +1.8892914057E-001 
14025260.325 +1.4260921478E+000 -2.0032504201E-001  +7.8965863213E-004 +8.0959647894E-003  +7.1816914715E-004 +8.1093078479E-003  +9.0601766109E-001 +1.9273786247E-001 
14150405.507 +1.4041924477E+000 -2.1768957376E-001  +8.1097497605E-004 +8.0895349383E-003  +7.9801632091E-004 +8.1144478172E-003  +9.1847616434E-001 +1.9644445181E-001 
14275550.688 +1.3795995712E+000 -2.3486483097E-001  +8.6912652478E-004 +8.0761983991E-003  +9.0782344341E-004 +8.0704139546E-003  +9.3150138855E-001 +1.9732704759E-001 
14400695.870 +1.3538177013E+000 -2.4839639664E-001  +9.4717927277E-004 +8.0825518817E-003  +9.6467044204E-004 +8.1016402692E-003  +9.4395601749E-001 +1.9984921813E-001 
