!  2-Port S-parameters saved by WinCal
! VAR MeasName=S-Parameters (CALIBRATED_DATA) read from VNA (P5004A)
! VAR MeasDate=22/05/2024 17:32:00
! VAR NAME=Wafer2_r1_c2_formedpreviously
! VAR FILENAME=Wafer2_r1_c2_formedpreviously.S2P
! VAR DATE=22/05/2024 17:32:27
! VAR PHYS_PORTS=1,2
! VAR ObjTypeName=DATASET
! VAR IndexType=Frequency
!
# Hz S RI R 50
9000.000 +2.1434094012E-001 -5.8348917961E-001  +6.6250073723E-003 +1.0436736047E-002  +2.7962389868E-004 -9.9181081168E-004  +6.3844546676E-002 +8.8550634682E-002 
134145.181 +6.8800723553E-001 +3.0195415020E-001  +6.5376266837E-002 -2.0539772511E-001  -1.6038045287E-003 -1.7011713982E-001  +6.6294741631E-001 +5.1421999931E-001 
259290.363 +9.4669669867E-001 -8.7581098080E-002  -4.0207847953E-002 -1.3372845016E-002  -3.0137538910E-002 -2.0714938641E-002  +1.0345805883E+000 +4.6780824661E-002 
384435.544 +9.6343141794E-001 -2.1138867736E-001  -1.7349334434E-002 -2.2950403392E-002  -1.5670396388E-002 -3.1609691679E-002  +1.0529801846E+000 -8.5659623146E-003 
509580.726 +9.8377758265E-001 -1.2039490044E-001  -8.9306533337E-003 -6.9012925960E-003  -1.0241069831E-002 -1.0235331953E-002  +1.0283657312E+000 -2.4039551616E-002 
634725.907 +1.0792275667E+000 -1.5196502209E-001  -6.1912531964E-004 -7.7108480036E-003  -7.5831927825E-004 -7.1583315730E-003  +1.0647072792E+000 -2.7393937111E-002 
759871.089 +1.1856904030E+000 -7.2613418102E-002  +1.0905519128E-002 +1.6259981785E-003  +1.1552870274E-002 +3.3690361306E-005  +1.0890702009E+000 -7.1813344955E-002 
885016.270 +9.2303013802E-001 -1.9503822923E-001  +2.8509186581E-002 -2.0858789794E-003  +3.0105890706E-002 -9.7923409194E-003  +1.0747952461E+000 -1.9306603074E-001 
1010161.452 +1.1204037666E+000 -1.0011464357E-002  +4.7177169472E-003 -1.8118521199E-002  +4.1776746511E-003 -1.9042033702E-002  +7.8630977869E-001 +5.0389677286E-002 
1135306.633 +1.1446990967E+000 -2.3352861404E-002  +3.9104400203E-003 -1.4714759775E-002  +3.6858217791E-003 -1.5961412340E-002  +9.0922814608E-001 +1.6619127989E-001 
1260451.815 +1.3153378963E+000 -2.4147987366E-002  +5.3908559494E-003 -8.1069776788E-003  +5.1213158295E-003 -7.8426217660E-003  +9.7059625387E-001 +1.7796108127E-001 
1385596.996 +1.2440660000E+000 -1.0313856602E-001  +5.5050519295E-003 -2.3810085841E-003  +6.1608823016E-003 -3.4551825374E-003  +9.9492001534E-001 +1.1135300994E-001 
1510742.178 +1.3665482998E+000 -1.7239034176E-001  +1.0208335705E-002 +7.4702361599E-004  +7.6535707340E-003 -2.0325500518E-003  +9.4069010019E-001 +1.4170423150E-001 
1635887.359 +9.7104233503E-001 -2.5021499395E-001  +7.3942984454E-003 -3.0771035235E-003  +4.3521346524E-003 -3.7420501467E-003  +1.0764368773E+000 +9.7555577755E-002 
1761032.541 +1.0201735497E+000 -2.3252272606E-001  +9.4160828739E-003 +2.1157879382E-004  +1.0500987060E-002 +8.4492517635E-004  +1.0467319489E+000 +1.3580825925E-001 
1886177.722 +9.9409866333E-001 -1.3741952181E-001  +8.6503122002E-003 +1.3557488564E-003  +8.5674170405E-003 +2.0139729604E-003  +1.0514223576E+000 +1.0151737928E-001 
2011322.904 +9.9823606014E-001 -9.3804240227E-002  +9.0803224593E-003 +2.1718090866E-003  +8.3756223321E-003 +1.6929570120E-003  +1.0370209217E+000 +1.0548663139E-001 
2136468.085 +1.0015084743E+000 -8.8049918413E-002  +9.5592569560E-003 +4.6632220037E-003  +9.7192907706E-003 +4.5592263341E-003  +1.0295118093E+000 +8.9356750250E-002 
2261613.267 +1.0075412989E+000 -6.8814545870E-002  +1.0104462504E-002 +5.0468770787E-003  +9.8536182195E-003 +4.6152384020E-003  +1.0199654102E+000 +1.1145061255E-001 
2386758.448 +9.9991714954E-001 -5.9550017118E-002  +1.0888716206E-002 +5.4077049717E-003  +1.0375261307E-002 +5.7508591563E-003  +1.0284206867E+000 +1.1564660072E-001 
2511903.630 +9.9987840652E-001 -4.1294187307E-002  +1.1451104656E-002 +6.6083753482E-003  +1.1579684913E-002 +6.4860451967E-003  +1.0412433147E+000 +1.2890437245E-001 
2637048.811 +1.0011739731E+000 -3.3867627382E-002  +1.1518584564E-002 +7.6144253835E-003  +1.1584712192E-002 +7.2213737294E-003  +1.0307555199E+000 +1.5337041020E-001 
2762193.992 +9.9849629402E-001 -1.8382616341E-002  +1.3012621552E-002 +8.2146096975E-003  +1.3126797974E-002 +8.5560353473E-003  +1.0284399986E+000 +1.6242599487E-001 
2887339.174 +9.8252940178E-001 +3.3995658159E-003  +1.3428181410E-002 +8.3383265883E-003  +1.3752535917E-002 +8.6225718260E-003  +1.0317002535E+000 +1.9558566809E-001 
3012484.355 +9.9378061295E-001 -9.4166547060E-003  +1.4041056857E-002 +8.6032645777E-003  +1.3519290835E-002 +8.3409063518E-003  +1.0578806400E+000 +2.2731876373E-001 
3137629.537 +9.8509901762E-001 +2.9285863042E-002  +1.4225399122E-002 +9.4513976946E-003  +1.3513224199E-002 +8.9652137831E-003  +1.0890650749E+000 +2.2972814739E-001 
3262774.718 +9.9133980274E-001 +3.5208374262E-002  +1.4017308131E-002 +9.1886073351E-003  +1.4238544740E-002 +9.0091675520E-003  +1.1095494032E+000 +2.4246108532E-001 
3387919.900 +9.7454178333E-001 +5.0763741136E-002  +1.4885915443E-002 +1.0034701787E-002  +1.4403248206E-002 +9.7969658673E-003  +1.1229000092E+000 +2.2854174674E-001 
3513065.081 +9.8994851112E-001 +6.8734630942E-002  +1.5541357920E-002 +1.1114159599E-002  +1.4500372112E-002 +1.0449526832E-002  +1.1453126669E+000 +2.6465651393E-001 
3638210.263 +9.9945878983E-001 +9.9715545774E-002  +1.5350394882E-002 +1.1504760012E-002  +1.5755414963E-002 +1.1001221836E-002  +1.1750472784E+000 +2.4317081273E-001 
3763355.444 +1.0134044886E+000 +1.0208708048E-001  +1.5474364161E-002 +1.1785026640E-002  +1.5262609348E-002 +1.1575741693E-002  +1.1996902227E+000 +2.2853292525E-001 
3888500.626 +1.0309474468E+000 +1.2039370835E-001  +1.6922211275E-002 +1.2757329270E-002  +1.6605433077E-002 +1.2536952272E-002  +1.2306977510E+000 +2.3625087738E-001 
4013645.807 +9.7724586725E-001 +4.1977733374E-002  +2.1141227335E-002 +9.2923082411E-003  +2.0998356864E-002 +8.4005547687E-003  +1.1789793968E+000 +9.8933823407E-002 
4138790.989 +9.0274268389E-001 -2.1328870207E-002  +2.4377206340E-002 +5.4457690567E-003  +2.4065988138E-002 +5.2204234526E-003  +1.0865939856E+000 -2.1632175893E-002 
4263936.170 +8.9989680052E-001 -1.8146693707E-002  +2.5048440322E-002 +5.2508530207E-003  +2.4919619784E-002 +5.1315911114E-003  +1.0825173855E+000 -4.1348025203E-002 
4389081.352 +9.1247111559E-001 -2.5241410360E-002  +2.5306403637E-002 +4.7901952639E-003  +2.5127319619E-002 +4.6835672110E-003  +1.0657285452E+000 -4.8716288060E-002 
4514226.533 +9.1911584139E-001 -1.2853786349E-002  +2.5614161044E-002 +4.9866009504E-003  +2.5125086308E-002 +4.4290632941E-003  +1.0613436699E+000 -7.3193237185E-002 
4639371.715 +9.2420721054E-001 -1.1471745558E-002  +2.6181744412E-002 +4.6508032829E-003  +2.5298776105E-002 +4.4843130745E-003  +1.0654373169E+000 -6.4612835646E-002 
4764516.896 +9.2103797197E-001 -1.4177628793E-002  +2.5362784043E-002 +4.5604356565E-003  +2.5524843484E-002 +4.9298959784E-003  +1.0522341728E+000 -8.2379400730E-002 
4889662.078 +9.2205739021E-001 -6.7272055894E-003  +2.5989126414E-002 +4.9062469043E-003  +2.5872992352E-002 +4.5674243011E-003  +1.0444592237E+000 -7.6962634921E-002 
5014807.259 +9.2385065556E-001 -9.2020072043E-003  +2.6003820822E-002 +5.2238344215E-003  +2.5243975222E-002 +5.2052312531E-003  +1.0262317657E+000 -8.0674804747E-002 
5139952.441 +9.3400388956E-001 -3.8888305426E-003  +2.6259662583E-002 +5.0374874845E-003  +2.5886539370E-002 +4.2927656323E-003  +1.0237909555E+000 -7.8017078340E-002 
5265097.622 +9.3637889624E-001 +4.9909204245E-004  +2.6404472068E-002 +5.1534730010E-003  +2.6396529749E-002 +4.6706115827E-003  +1.0167882442E+000 -8.3826854825E-002 
5390242.804 +9.4256275892E-001 -3.0065998435E-003  +2.6293069124E-002 +4.5126457699E-003  +2.5896817446E-002 +4.0897019207E-003  +1.0040501356E+000 -8.0260671675E-002 
5515387.985 +9.4928312302E-001 -7.6179727912E-003  +2.6306353509E-002 +4.2376136407E-003  +2.6337418705E-002 +4.4596516527E-003  +1.0059840679E+000 -8.7649457157E-002 
5640533.166 +9.4538307190E-001 -9.9406018853E-003  +2.6787867770E-002 +4.7169635072E-003  +2.6900907978E-002 +5.0563286059E-003  +9.9875479937E-001 -8.4685184062E-002 
5765678.348 +9.4486480951E-001 -4.0826126933E-003  +2.6573013514E-002 +4.6781226993E-003  +2.6348799467E-002 +5.1178568974E-003  +9.9221819639E-001 -8.1517085433E-002 
5890823.529 +9.5102620125E-001 -6.5345913172E-003  +2.6835165918E-002 +4.6048667282E-003  +2.6356844231E-002 +4.3388977647E-003  +9.8375040293E-001 -8.5612185299E-002 
6015968.711 +9.4896870852E-001 -8.2517713308E-003  +2.6512561366E-002 +4.2281784117E-003  +2.6608839631E-002 +4.2204568163E-003  +9.8384398222E-001 -7.9890258610E-002 
6141113.892 +9.5215702057E-001 -7.7018365264E-003  +2.6788474992E-002 +4.1470685974E-003  +2.6326274499E-002 +4.8030996695E-003  +9.6929198503E-001 -8.0621957779E-002 
6266259.074 +9.5136982203E-001 -5.2027329803E-003  +2.6486428455E-002 +4.3980358168E-003  +2.6837920770E-002 +4.2010159232E-003  +9.7321695089E-001 -7.5819656253E-002 
6391404.255 +9.5084089041E-001 -1.4853432775E-002  +2.6857754216E-002 +3.8128930610E-003  +2.7032550424E-002 +3.9376053028E-003  +9.6576821804E-001 -8.2070089877E-002 
6516549.437 +9.5225244761E-001 -1.3396881521E-002  +2.6797376573E-002 +4.1205827147E-003  +2.6834528893E-002 +4.0259044617E-003  +9.6429210901E-001 -7.4823312461E-002 
6641694.618 +9.5384228230E-001 -1.1786602437E-002  +2.6913164183E-002 +4.3177572079E-003  +2.6998639107E-002 +4.2796437629E-003  +9.6562802792E-001 -6.6524103284E-002 
6766839.800 +9.6272110939E-001 -3.8063675165E-003  +2.6888538152E-002 +3.9019251708E-003  +2.7063472196E-002 +3.8116679061E-003  +9.6036791801E-001 -7.1788296103E-002 
6891984.981 +9.5517456532E-001 -8.9378058910E-003  +2.6640526950E-002 +4.2541110888E-003  +2.6839669794E-002 +3.7880716845E-003  +9.5417565107E-001 -6.2488675117E-002 
7017130.163 +9.5787924528E-001 -9.2666745186E-003  +2.6808885857E-002 +3.7685837597E-003  +2.6950830594E-002 +4.0044817142E-003  +9.5867574215E-001 -6.0403645039E-002 
7142275.344 +9.5786607265E-001 -5.7321786880E-003  +2.6849865913E-002 +4.2830761522E-003  +2.7166463435E-002 +4.3044053018E-003  +9.5570260286E-001 -5.6078344584E-002 
7267420.526 +9.5785629749E-001 -1.3743340969E-004  +2.6974702254E-002 +4.4403192587E-003  +2.6757726446E-002 +4.1935192421E-003  +9.5427656174E-001 -5.3694829345E-002 
7392565.707 +9.5792746544E-001 +5.7374686003E-003  +2.6810796931E-002 +4.3476503342E-003  +2.6835717261E-002 +4.3465746567E-003  +9.5423871279E-001 -5.5108055472E-002 
7517710.889 +9.6005570889E-001 +1.7178058624E-003  +2.6838839054E-002 +4.4258153066E-003  +2.6877485216E-002 +4.5191319659E-003  +9.4888800383E-001 -5.2364736795E-002 
7642856.070 +9.5516800880E-001 -3.9332956076E-003  +2.6960596442E-002 +4.1651520878E-003  +2.6989173144E-002 +4.2789024301E-003  +9.4366812706E-001 -5.3380876780E-002 
7768001.252 +9.5888382196E-001 -9.7115337849E-004  +2.6974286884E-002 +4.4952044263E-003  +2.6910344139E-002 +4.6470616944E-003  +9.4475835562E-001 -4.4991135597E-002 
7893146.433 +9.6067529917E-001 -2.6094466448E-003  +2.6826165617E-002 +4.3408880010E-003  +2.6858365163E-002 +4.5247962698E-003  +9.4436305761E-001 -4.1938319802E-002 
8018291.615 +9.5831257105E-001 -7.4010938406E-003  +2.6959657669E-002 +4.2235888541E-003  +2.7020789683E-002 +4.2673414573E-003  +9.3949019909E-001 -4.2564854026E-002 
8143436.796 +9.5722573996E-001 -5.4955780506E-003  +2.6841562241E-002 +4.3935691938E-003  +2.6777798310E-002 +4.3767755851E-003  +9.4395786524E-001 -3.4912422299E-002 
8268581.977 +9.5667254925E-001 -3.8719028234E-003  +2.6871692389E-002 +4.4416901655E-003  +2.6941845194E-002 +4.4693993405E-003  +9.4398283958E-001 -3.0762895942E-002 
8393727.159 +9.5913946629E-001 -4.5876801014E-003  +2.6902908459E-002 +4.3368828483E-003  +2.6908274740E-002 +4.3169963174E-003  +9.4261360168E-001 -3.2258734107E-002 
8518872.340 +9.5989531279E-001 -7.7550709248E-003  +2.6898698881E-002 +4.2100604624E-003  +2.6845874265E-002 +4.2049451731E-003  +9.4271260500E-001 -3.0522763729E-002 
8644017.522 +9.5679116249E-001 -1.6885697842E-003  +2.6728043333E-002 +4.4275461696E-003  +2.6719518006E-002 +4.5732925646E-003  +9.4527250528E-001 -2.6801347733E-002 
8769162.703 +9.6260821819E-001 -2.7320086956E-003  +2.6684090495E-002 +4.6063256450E-003  +2.6831941679E-002 +4.9399896525E-003  +9.4497269392E-001 -2.5418579578E-002 
8894307.885 +9.5724809170E-001 -7.4367225170E-003  +2.6878235862E-002 +4.5256516896E-003  +2.6847627014E-002 +4.4021783397E-003  +9.4302278757E-001 -3.0888020992E-002 
9019453.066 +9.5825958252E-001 -7.2381198406E-003  +2.6797676459E-002 +4.4967611320E-003  +2.6995213702E-002 +4.5673656277E-003  +9.4330883026E-001 -2.6329755783E-002 
9144598.248 +9.6022939682E-001 -6.3452124596E-003  +2.6735354215E-002 +4.6493513510E-003  +2.6974972337E-002 +4.7120340168E-003  +9.4216656685E-001 -2.2392451763E-002 
9269743.429 +9.5982813835E-001 -3.2036602497E-003  +2.6995543391E-002 +4.6954248101E-003  +2.7000591159E-002 +4.7575021163E-003  +9.4466930628E-001 -2.3109197617E-002 
9394888.611 +9.5862329006E-001 +9.7736716270E-004  +2.7034891769E-002 +4.8045217991E-003  +2.6715405285E-002 +4.7687022015E-003  +9.4457691908E-001 -2.2949784994E-002 
9520033.792 +9.6175086498E-001 -7.3595345020E-003  +2.6881594211E-002 +4.6771150082E-003  +2.6805594563E-002 +4.7104656696E-003  +9.4476157427E-001 -1.9583284855E-002 
9645178.974 +9.6169537306E-001 -2.0782053471E-003  +2.6932373643E-002 +4.8992261291E-003  +2.6759603992E-002 +4.9058226869E-003  +9.4434350729E-001 -1.4711529016E-002 
9770324.155 +9.5857739449E-001 +3.5429000854E-004  +2.6785369962E-002 +4.9785408191E-003  +2.6771411300E-002 +4.7864709049E-003  +9.4167476892E-001 -1.6067624092E-002 
9895469.337 +9.6123683453E-001 -1.2545585632E-003  +2.6990504935E-002 +4.9918117002E-003  +2.7005530894E-002 +4.8831580207E-003  +9.4349896908E-001 -1.5844613314E-002 
10020614.518 +9.6044176817E-001 -5.8665871620E-004  +2.6863176376E-002 +4.8069301993E-003  +2.6786705479E-002 +5.0663538277E-003  +9.4509148598E-001 -1.0900795460E-002 
10145759.700 +9.6150469780E-001 -4.0551424026E-003  +2.6804851368E-002 +5.0719575956E-003  +2.6875618845E-002 +5.0335861742E-003  +9.4689142704E-001 -1.2604534626E-002 
10270904.881 +9.6214801073E-001 -4.5639276505E-003  +2.6953354478E-002 +5.0294203684E-003  +2.6887461543E-002 +4.9628512934E-003  +9.4906818867E-001 -1.1289834976E-002 
10396050.063 +9.6230196953E-001 -2.3132562637E-003  +2.6922434568E-002 +4.9989214167E-003  +2.6944296435E-002 +5.0654886290E-003  +9.4844985008E-001 -9.6248686314E-003 
10521195.244 +9.6215212345E-001 -3.7496089935E-003  +2.6940513402E-002 +5.0775092095E-003  +2.6915989816E-002 +5.0810100511E-003  +9.4946157932E-001 -1.0070621967E-002 
10646340.426 +9.6141517162E-001 -4.2206943035E-003  +2.6934858412E-002 +5.2660051733E-003  +2.6994872838E-002 +5.4309787229E-003  +9.4763743877E-001 -8.9908540249E-003 
10771485.607 +9.6199345589E-001 -2.6247799397E-003  +2.6975449175E-002 +5.3074760363E-003  +2.7008846402E-002 +5.3311660886E-003  +9.4922435284E-001 -7.5072646141E-003 
10896630.788 +9.6102058887E-001 -4.6077370644E-004  +2.6960195974E-002 +5.4449876770E-003  +2.6961464435E-002 +5.3023444489E-003  +9.4881975651E-001 -5.6450963020E-003 
11021775.970 +9.6054422855E-001 -1.2213289738E-003  +2.6950098574E-002 +5.4050981998E-003  +2.6989117265E-002 +5.4089762270E-003  +9.4921654463E-001 -5.5409669876E-003 
11146921.151 +9.6111226082E-001 -1.6407072544E-003  +2.6984181255E-002 +5.3497804329E-003  +2.7056101710E-002 +5.3985333070E-003  +9.5099854469E-001 -4.6215355396E-003 
11272066.333 +9.5955210924E-001 -1.5445053577E-003  +2.6987494901E-002 +5.2686762065E-003  +2.6903077960E-002 +5.4479530081E-003  +9.4875872135E-001 -6.5895617008E-003 
11397211.514 +9.6253788471E-001 -1.8893778324E-003  +2.6912072673E-002 +5.6127812713E-003  +2.7001321316E-002 +5.5216383189E-003  +9.5142418146E-001 -4.0903389454E-003 
11522356.696 +9.6218413115E-001 -2.2026598454E-003  +2.6972042397E-002 +5.5514378473E-003  +2.7021229267E-002 +5.5721746758E-003  +9.5070284605E-001 -5.2257180214E-003 
11647501.877 +9.6074211597E-001 -2.0522177219E-003  +2.6991959661E-002 +5.5309338495E-003  +2.6941146702E-002 +5.6057637557E-003  +9.5150482655E-001 -2.0460784435E-003 
11772647.059 +9.6240508556E-001 -1.4086067677E-003  +2.7001125738E-002 +5.6328745559E-003  +2.6949994266E-002 +5.6219454855E-003  +9.5171976089E-001 -5.2758157253E-003 
11897792.240 +9.6254527569E-001 -1.1078119278E-003  +2.7041267604E-002 +5.6441957131E-003  +2.6977356523E-002 +5.6569548324E-003  +9.5258432627E-001 -5.4527521133E-003 
12022937.422 +9.6369874477E-001 +4.6551227570E-004  +2.6983164251E-002 +5.7380842045E-003  +2.6962891221E-002 +5.7167625055E-003  +9.5119071007E-001 -4.7388076782E-003 
12148082.603 +9.6332299709E-001 -1.1756718159E-003  +2.6988336816E-002 +5.7128313929E-003  +2.6925183833E-002 +5.7794936001E-003  +9.5345765352E-001 -1.4781057835E-003 
12273227.785 +9.6317178011E-001 +2.9993057251E-004  +2.6998851448E-002 +5.8571752161E-003  +2.7033835649E-002 +5.7719619945E-003  +9.5414167643E-001 -1.5873014927E-003 
12398372.966 +9.6445101500E-001 -3.7568807602E-004  +2.7040565386E-002 +5.8867451735E-003  +2.7047444135E-002 +5.8747534640E-003  +9.5688074827E-001 -1.9033849239E-003 
12523518.148 +9.6164137125E-001 +5.4106116295E-004  +2.6973810047E-002 +5.8598485775E-003  +2.6907151565E-002 +5.9329252690E-003  +9.5544719696E-001 -2.1094381809E-003 
12648663.329 +9.6374881268E-001 +2.1691024303E-003  +2.7015533298E-002 +5.9372866526E-003  +2.7036171407E-002 +5.9617878869E-003  +9.5564699173E-001 -1.2582689524E-003 
12773808.511 +9.6447998285E-001 -1.0314881802E-003  +2.6992274448E-002 +6.0003804974E-003  +2.6926390827E-002 +5.9570721351E-003  +9.5615720749E-001 -1.1524111032E-003 
12898953.692 +9.6474933624E-001 -8.0864131451E-004  +2.6979574934E-002 +5.9757037088E-003  +2.6944402605E-002 +5.9985360131E-003  +9.5661318302E-001 -1.6801282763E-003 
13024098.874 +9.6432763338E-001 +2.6851147413E-004  +2.6932751760E-002 +6.0648834333E-003  +2.6956634596E-002 +6.0951579362E-003  +9.5697331429E-001 +2.4407356977E-004 
13149244.055 +9.6432203054E-001 +3.7116371095E-004  +2.6924720034E-002 +6.1574196443E-003  +2.6984794065E-002 +6.2033450231E-003  +9.5755463839E-001 +2.2686459124E-004 
13274389.237 +9.6527284384E-001 -2.5985389948E-004  +2.6900950819E-002 +6.1638145708E-003  +2.6936620474E-002 +6.1786794104E-003  +9.5822817087E-001 -4.5830383897E-005 
13399534.418 +9.6459490061E-001 +8.8310986757E-004  +2.6933332905E-002 +6.1965091154E-003  +2.6925139129E-002 +6.1992118135E-003  +9.5765894651E-001 +1.6645342112E-004 
13524679.599 +9.6384352446E-001 +1.1907219887E-003  +2.6930714026E-002 +6.2330812216E-003  +2.6906194165E-002 +6.2987105921E-003  +9.5823049545E-001 +1.0560080409E-003 
13649824.781 +9.6584105492E-001 +5.7023763657E-004  +2.6935746893E-002 +6.2989704311E-003  +2.6901559904E-002 +6.3569643535E-003  +9.5954036713E-001 +2.5939941406E-004 
13774969.962 +9.6525090933E-001 +1.1058151722E-003  +2.6904262602E-002 +6.3315052539E-003  +2.6928199455E-002 +6.3520837575E-003  +9.5878094435E-001 -8.3024799824E-004 
13900115.144 +9.6619534492E-001 +6.6146254539E-004  +2.6939187199E-002 +6.4204726368E-003  +2.6934115216E-002 +6.4394744113E-003  +9.5917338133E-001 -7.5432658195E-004 
14025260.325 +9.6501803398E-001 +1.3291239738E-003  +2.6904355735E-002 +6.5223583952E-003  +2.6899324730E-002 +6.5340008587E-003  +9.5887255669E-001 -4.4131278992E-004 
14150405.507 +9.6604287624E-001 +1.2386441231E-003  +2.6907483116E-002 +6.5588778816E-003  +2.6901477948E-002 +6.5677044913E-003  +9.6030324697E-001 +3.1751394272E-004 
14275550.688 +9.6526455879E-001 +1.3095140457E-004  +2.6895200834E-002 +6.6095059738E-003  +2.6874050498E-002 +6.6409236751E-003  +9.6060407162E-001 -2.0951032639E-005 
14400695.870 +9.6526694298E-001 +5.8770179749E-005  +2.6846438646E-002 +6.6395178437E-003  +2.6792772114E-002 +6.6552376375E-003  +9.6040320396E-001 +7.9199671745E-004 
