!  2-Port S-parameters saved by WinCal
! VAR MeasName=S-Parameters (CALIBRATED_DATA) read from VNA (P5004A)
! VAR MeasDate=22/05/2024 16:44:21
! VAR NAME=Wafer2_r10_c4_thru
! VAR FILENAME=Wafer2_r10_c4_thru.S2P
! VAR DATE=22/05/2024 16:44:22
! VAR PHYS_PORTS=1,2
! VAR ObjTypeName=DATASET
! VAR IndexType=Frequency
!
# Hz S RI R 50
9000.000 +2.6209235191E-001 -5.0847041607E-001  -1.2573102489E-002 -2.3104561493E-002  -2.8763771988E-003 +4.6223066747E-003  +1.1958225816E-001 +1.3291087747E-001 
134145.181 +2.5626152754E-001 +8.7609931827E-002  +5.7214975357E-001 +9.0721800923E-002  +6.2476480007E-001 +1.7330266535E-001  +5.9258639812E-001 +2.1915823221E-002 
259290.363 +4.5830100775E-001 +1.6967263818E-001  +5.6345897913E-001 -1.8285940588E-001  +5.2307647467E-001 -2.6587876678E-001  +4.1811355948E-001 +2.7908381820E-001 
384435.544 +4.9566733837E-001 +1.9265638292E-001  +5.9597307444E-001 -2.8465357423E-001  +6.0653656721E-001 -3.6453771591E-001  +2.5730726123E-001 +3.1330987811E-001 
509580.726 +5.7322502136E-001 +2.0020674169E-001  +4.9319866300E-001 -3.0135440826E-001  +5.2320647240E-001 -3.0582329631E-001  +3.8723215461E-001 +3.3008691669E-001 
634725.907 +7.9887545109E-001 -4.3145626783E-002  +3.2237243652E-001 -4.7869041562E-002  +3.1729370356E-001 -5.2933767438E-002  +6.1543112993E-001 +1.4488339424E-002 
759871.089 +1.5700153112E+000 -7.3021185398E-001  -5.7530206442E-001 +8.2308423519E-001  -5.7719653845E-001 +8.3641767502E-001  +1.7033081055E+000 -1.1636589766E+000 
885016.270 +1.2202931643E+000 +3.3484308720E+000  +1.5488365293E-001 -3.6301698685E+000  +1.3444547355E-001 -3.6594159603E+000  +3.0180841684E-001 +3.7157149315E+000 
1010161.452 +3.1717190146E-001 +4.0855854750E-001  +6.6711860895E-001 -6.4311522245E-001  +6.5870565176E-001 -6.3519430161E-001  +2.6008623838E-001 +8.8859355450E-001 
1135306.633 +8.5350379348E-002 +2.0033356547E-001  +8.6471748352E-001 -3.7983387709E-001  +8.5132730007E-001 -3.9301744103E-001  +8.8767647743E-002 +5.9988087416E-001 
1260451.815 +3.9250937104E-001 -6.0074094683E-002  +6.5908104181E-001 -4.4876150787E-002  +6.7497551441E-001 -5.2908949554E-002  +3.2661190629E-001 +2.1278381348E-001 
1385596.996 +4.7174081206E-001 -3.8666552305E-001  +6.6041392088E-001 +1.9415701926E-001  +6.6389900446E-001 +1.8949910998E-001  +2.6391866803E-001 -5.5705085397E-002 
1510742.178 +2.8071004152E-001 -3.2412451506E-001  +8.8377374411E-001 +1.6997513175E-001  +8.9223152399E-001 +1.8204668164E-001  +3.5854697227E-002 -1.1723010242E-001 
1635887.359 +1.0907310992E-001 -6.2232774496E-001  +8.1952512264E-001 +4.0901464224E-001  +8.0469387770E-001 +4.0583932400E-001  +2.1229298413E-001 -2.6204457879E-001 
1761032.541 -4.3337976933E-001 -7.2402000427E-001  +1.2923064232E+000 +4.5305848122E-001  +1.2897708416E+000 +4.5796665549E-001  -2.1471436322E-001 -2.8305116296E-001 
1886177.722 -4.2550566792E-001 -1.3490577042E-001  +1.3304258585E+000 +8.6047977209E-002  +1.3253525496E+000 +8.2905538380E-002  -2.4907104671E-001 -6.7910261452E-002 
2011322.904 -2.7283537388E-001 +8.6489342153E-002  +1.1753602028E+000 -9.1906845570E-002  +1.1728888750E+000 -8.9883282781E-002  -9.8682150245E-002 +8.4416061640E-002 
2136468.085 -1.5715029836E-001 +1.3361959159E-001  +1.0739827156E+000 -1.4234420657E-001  +1.0740898848E+000 -1.3977840543E-001  -1.8200565130E-002 +1.3773494959E-001 
2261613.267 -8.7300486863E-002 +1.5679137409E-001  +1.0005458593E+000 -1.4565502107E-001  +9.9840056896E-001 -1.4944246411E-001  +5.2250638604E-002 +1.3080671430E-001 
2386758.448 -9.6040636301E-002 +1.0473707318E-001  +1.0143712759E+000 -1.0829614103E-001  +1.0136269331E+000 -1.0418845713E-001  +4.2358949780E-002 +9.6900224686E-002 
2511903.630 -6.6677756608E-002 +6.4541593194E-002  +9.9175894260E-001 -5.2558831871E-002  +9.9269008636E-001 -5.2678801119E-002  +6.4521446824E-002 +4.3845508248E-002 
2637048.811 -3.2495774329E-002 +7.7877514064E-002  +9.6990525723E-001 -6.3027098775E-002  +9.6660679579E-001 -6.5655529499E-002  +7.2033509612E-002 +5.0959452987E-002 
2762193.992 -7.1758199483E-003 +5.8811668307E-002  +9.4507467747E-001 -3.5020574927E-002  +9.4736194611E-001 -3.2919958234E-002  +8.6602978408E-002 +1.2586413883E-002 
2887339.174 -2.3307668045E-002 +4.1855543852E-002  +9.5085644722E-001 -3.0962467194E-002  +9.5170044899E-001 -3.1578421593E-002  +7.2953730822E-002 +1.9785556942E-002 
3012484.355 -4.0507435799E-002 +2.6842940599E-002  +9.7062611580E-001 -1.7136394978E-002  +9.6855580807E-001 -1.8353760242E-002  +6.5703906119E-002 +1.9859408960E-002 
3137629.537 -5.3947987035E-003 +4.3554086238E-002  +9.6425938606E-001 -7.6362490654E-003  +9.6043890715E-001 -6.5024197102E-003  +5.8701679111E-002 -7.2115827352E-003 
3262774.718 -1.9534695894E-002 +4.5416794717E-002  +9.6286970377E-001 -7.4464678764E-003  +9.6119600534E-001 -6.7538619041E-003  +6.7482300103E-002 -1.3455469161E-003 
3387919.900 +2.9034912586E-004 +4.9588110298E-002  +9.5309531689E-001 +3.3518671989E-003  +9.5252406597E-001 +1.3045072556E-003  +6.5963834524E-002 -1.3840692118E-002 
3513065.081 +6.9251786917E-003 +4.7938898206E-002  +9.6355861425E-001 +8.4915459156E-003  +9.6367853880E-001 +8.6524784565E-003  +5.4613381624E-002 -2.8735904023E-002 
3638210.263 +1.6849562526E-003 +3.8250274956E-002  +9.7044229507E-001 +1.0178953409E-002  +9.6910810471E-001 +1.1901825666E-002  +5.3310960531E-002 -2.3581394926E-002 
3763355.444 +1.3098010793E-002 +2.6319336146E-002  +9.7795379162E-001 +2.0063132048E-002  +9.7867453098E-001 +1.8677473068E-002  +4.2069341987E-002 -2.7778243646E-002 
3888500.626 +1.7036776990E-003 +2.1492060274E-002  +9.9123984575E-001 +1.8977820873E-002  +9.9107015133E-001 +1.8260896206E-002  +4.2796112597E-002 -3.0868312344E-002 
4013645.807 +6.8400194868E-003 +1.4802906662E-002  +9.8973023891E-001 +2.0918875933E-002  +9.8728072643E-001 +1.6804516315E-002  +3.9653435349E-002 -1.2450695969E-002 
4138790.989 +1.4550493099E-002 +2.5357149541E-002  +9.9529421329E-001 +1.5508592129E-002  +9.8688960075E-001 +1.6543090343E-002  +3.3900063485E-002 -1.9506338984E-002 
4263936.170 +4.2614080012E-003 +9.1299498454E-003  +9.8722732067E-001 +7.7110230923E-003  +9.8661702871E-001 +8.4733068943E-003  +3.8221493363E-002 -1.0563326068E-002 
4389081.352 +1.1359743774E-002 +2.1934290417E-003  +9.9187350273E-001 +1.0165452957E-002  +9.9055230618E-001 +9.5387995243E-003  +2.7129203081E-002 -1.7017476261E-002 
4514226.533 +3.4278626554E-003 -6.1082104221E-003  +1.0000855923E+000 +1.4134645462E-003  +9.9883711338E-001 +5.8546066284E-003  +1.8027110025E-002 -1.5523297712E-002 
4639371.715 +1.0940675624E-002 +3.0453745276E-003  +9.9250698090E-001 +7.1765780449E-003  +9.9974417686E-001 +1.0541737080E-002  +2.9481617734E-002 -1.3906577602E-002 
4764516.896 +9.2303687707E-003 -1.9312105142E-003  +1.0015633106E+000 +6.1694979668E-003  +1.0025117397E+000 +4.3827593327E-003  +2.0571414381E-002 -1.8897950649E-002 
4889662.078 +1.5984619036E-002 -6.8252906203E-004  +9.9828392267E-001 +6.4935386181E-003  +9.9419665337E-001 +9.0692043304E-003  +2.0250026137E-002 -1.9571442157E-002 
5014807.259 +4.4792462140E-003 -6.5519972704E-003  +9.9789369106E-001 +4.4676363468E-003  +9.9872255325E-001 +6.6300034523E-003  +1.9123787060E-002 -7.2413533926E-003 
5139952.441 +7.7821309678E-003 -1.6915846616E-002  +1.0034435987E+000 +4.3220818043E-003  +9.9926221371E-001 +2.7952194214E-003  +2.1310495213E-002 -4.8817163333E-003 
5265097.622 -1.4050514437E-003 -1.6014279798E-002  +1.0022257566E+000 +7.7107548714E-004  +9.9812531471E-001 +1.9369125366E-003  +1.5904538333E-002 -1.1526629329E-002 
5390242.804 +6.2786932103E-003 -5.9170396999E-003  +9.9862170219E-001 +3.2390058041E-003  +9.9774217606E-001 +3.1864047050E-003  +1.3327033259E-002 -1.6430478543E-002 
5515387.985 +1.5462578274E-002 -8.7108779699E-003  +1.0012784004E+000 +2.5940835476E-003  +9.9898260832E-001 +4.5827925205E-003  +1.5690632164E-002 -1.2109660544E-002 
5640533.166 +1.7261987552E-002 -3.2339519821E-003  +9.9939996004E-001 +2.8131008148E-003  +9.9861162901E-001 +1.9482374191E-003  +6.9915289059E-003 -1.9753847271E-002 
5765678.348 +1.3628565706E-002 -6.9897533394E-003  +9.9798727036E-001 +3.0081570148E-003  +9.9901282787E-001 +3.5364925861E-003  +8.9348368347E-003 -8.9053642005E-003 
5890823.529 +1.5917958692E-002 -8.6736949161E-003  +9.9769794941E-001 +1.5110671520E-003  +9.9553799629E-001 -9.3039870262E-004  +9.3774944544E-003 -1.5270333737E-002 
6015968.711 +1.8456799909E-002 -2.8227635194E-003  +9.9777531624E-001 +2.9461085796E-003  +9.9331074953E-001 +1.1560022831E-003  +8.4334183484E-003 -1.7148494720E-002 
6141113.892 +1.1217161082E-002 -5.8999019675E-003  +9.9739664793E-001 -5.6186318398E-004  +9.9476832151E-001 +3.2115578651E-003  +7.1918433532E-003 -1.7057608813E-002 
6266259.074 +1.0316919535E-002 -6.6855251789E-003  +9.9581408501E-001 +3.9881467819E-004  +9.9866116047E-001 +3.6686658859E-004  +7.3893233202E-003 -1.4862811193E-002 
6391404.255 +7.8100324608E-003 -9.8868049681E-003  +9.9832522869E-001 -3.1453371048E-004  +9.9958455563E-001 +9.6589326859E-005  +1.0725006461E-002 -1.9545113668E-002 
6516549.437 +1.1395090260E-002 -9.8358262330E-003  +9.9544429779E-001 -3.0714273453E-004  +9.9472188950E-001 -6.5547227859E-004  +4.8071024939E-003 -1.4420498163E-002 
6641694.618 +1.3336566277E-002 -6.7290253937E-003  +9.9800276756E-001 -1.1384487152E-004  +9.9876314402E-001 +1.3478696346E-003  +6.7049013451E-003 -1.3917654753E-002 
6766839.800 +8.5847629234E-003 -8.0993501469E-003  +1.0006482601E+000 +1.9762217999E-003  +9.9831217527E-001 -3.1651258469E-003  +5.2303839475E-003 -2.0330009982E-002 
6891984.981 +1.0340006091E-002 -1.2946262956E-002  +9.9492090940E-001 -2.8903186321E-003  +9.9793118238E-001 -1.7283856869E-003  +6.2419157475E-003 -1.4011502266E-002 
7017130.163 +1.5259135514E-002 -8.5462108254E-003  +9.9582624435E-001 -2.7185678482E-003  +9.9699741602E-001 -1.0236501694E-003  +9.4357486814E-003 -9.7170174122E-003 
7142275.344 +9.8344832659E-003 -6.8096644245E-003  +9.9776750803E-001 -3.7260353565E-004  +9.9732679129E-001 -2.9444694519E-005  +7.1572861634E-003 -1.0806931183E-002 
7267420.526 +1.2577689253E-002 -4.2624091730E-003  +9.9449372292E-001 -3.0072033405E-004  +9.9672049284E-001 +3.4034252167E-005  +5.1867524162E-003 -7.8123323619E-003 
7392565.707 +1.6633152962E-002 -3.9384355769E-003  +9.9582564831E-001 -4.4415891171E-004  +9.9441307783E-001 +4.6972930431E-004  +4.4985022396E-003 -1.2704225257E-002 
7517710.889 +1.3125961646E-002 -7.3005328886E-003  +9.9420166016E-001 -2.2083520889E-004  +9.9600237608E-001 -1.9756257534E-003  +5.7682348415E-003 -1.0037061758E-002 
7642856.070 +8.0617582425E-003 -5.3593590856E-003  +9.9429517984E-001 -1.2045130134E-003  +9.9345302582E-001 -7.4169784784E-004  +5.8979089372E-003 -8.0915009603E-003 
7768001.252 +1.1647016741E-002 -1.0936741717E-002  +9.9467676878E-001 -3.4011043608E-003  +9.9665099382E-001 +1.0300166905E-003  +1.6746674664E-003 -8.7446030229E-003 
7893146.433 +1.4318543486E-002 -8.2977311686E-003  +9.9601167440E-001 -8.2802772522E-004  +9.9754297733E-001 +8.3534792066E-004  +4.9687637947E-003 -5.5944323540E-003 
8018291.615 +7.1117607877E-003 -7.8785791993E-003  +9.9542230368E-001 -7.3633342981E-004  +9.9486082792E-001 -3.4286058508E-003  +2.7704625390E-003 -9.8766442388E-003 
8143436.796 +9.6299741417E-003 -9.2841396108E-003  +9.9650382996E-001 -2.2389832884E-003  +9.9429941177E-001 -2.1925987676E-003  +2.0340364426E-003 -8.5244532675E-003 
8268581.977 +5.9743397869E-003 -1.0734624229E-002  +9.9395543337E-001 -1.3883970678E-003  +9.9489039183E-001 -3.9440020919E-004  +3.4202202223E-003 -4.8493426293E-003 
8393727.159 +1.0829447769E-002 -9.3540307134E-003  +9.9603408575E-001 -2.0963139832E-003  +9.9530273676E-001 -7.3807686567E-004  +4.0354784578E-003 -8.8656116277E-003 
8518872.340 +1.2730226852E-002 -7.6808659360E-003  +9.9385213852E-001 -4.8309564590E-005  +9.9363613129E-001 -9.1059505939E-004  +5.9062982909E-003 -7.2621069849E-003 
8644017.522 +7.5114942156E-003 -6.7003760487E-003  +9.9332803488E-001 +3.2590329647E-004  +9.9330967665E-001 -1.6235858202E-003  +5.8436030522E-003 -6.3387192786E-003 
8769162.703 +8.3748940378E-003 -7.7503640205E-003  +9.9432015419E-001 -1.1914968491E-004  +9.9331444502E-001 -1.5658885241E-003  +7.0181456394E-003 -6.0849944130E-003 
8894307.885 +8.1810560077E-003 -6.9363918155E-003  +9.9321746826E-001 -9.4383955002E-005  +9.9406582117E-001 -1.2243390083E-003  +5.4121972062E-003 -7.8063844703E-003 
9019453.066 +9.4031877816E-003 -1.2239359319E-002  +9.9425005913E-001 -3.9815604687E-003  +9.9465477467E-001 -9.2069804668E-004  +4.6337563545E-003 -6.1357589439E-003 
9144598.248 +8.4193535149E-003 -8.5116829723E-003  +9.9374490976E-001 -7.9613924026E-004  +9.9361717701E-001 -2.2673606873E-004  +4.1594188660E-003 -6.2327664346E-003 
9269743.429 +1.0094114579E-002 -9.0513601899E-003  +9.9419021606E-001 -2.7932226658E-004  +9.9311816692E-001 +5.2832067013E-004  +4.2261891067E-003 -5.4901884869E-003 
9394888.611 +1.0328020900E-002 -5.7699042372E-003  +9.9381399155E-001 +1.2129545212E-004  +9.9324351549E-001 -1.1366903782E-003  +4.6581784263E-003 -5.6052217260E-003 
9520033.792 +7.3439767584E-003 -8.1156482920E-003  +9.9494755268E-001 -6.7746639252E-004  +9.9455785751E-001 -5.5071711540E-004  +6.0288649984E-003 -4.3776626699E-003 
9645178.974 +1.0653274134E-002 -6.8999603391E-003  +9.9411362410E-001 -1.4745295048E-003  +9.9362057447E-001 -3.6388635635E-004  +2.4383196142E-003 -6.8328040652E-003 
9770324.155 +9.8725520074E-003 -3.8587714080E-003  +9.9326109886E-001 -6.8548321724E-004  +9.9303758144E-001 -1.3755261898E-003  +8.4288173821E-004 -5.3754569963E-003 
9895469.337 +8.6761629209E-003 -6.1268047430E-003  +9.9345529079E-001 -9.2709064484E-004  +9.9381858110E-001 -1.0483562946E-003  +2.3105470464E-003 -4.0964595973E-003 
10020614.518 +7.8148264438E-003 -7.2981687263E-003  +9.9240893126E-001 -8.6995959282E-004  +9.9429798126E-001 -9.7650289536E-004  +4.2794765905E-003 -3.6028127652E-003 
10145759.700 +9.7729004920E-003 -3.4631951712E-003  +9.9350166321E-001 -2.3397803307E-004  +9.9347287416E-001 -7.1790814400E-004  +3.9419964887E-003 -4.2811781168E-003 
10270904.881 +1.0724294931E-002 -4.4472403824E-003  +9.9341571331E-001 +7.4863433838E-005  +9.9275147915E-001 -6.9069862366E-004  +4.4275298715E-003 -3.0802213587E-003 
10396050.063 +9.9624525756E-003 -4.5834961347E-003  +9.9246799946E-001 +3.6635994911E-004  +9.9295443296E-001 -1.3112723827E-003  +3.9918604307E-003 -4.8702545464E-003 
10521195.244 +1.1049710214E-002 -4.2951763608E-003  +9.9353879690E-001 +3.1006336212E-004  +9.9386143684E-001 -1.1658072472E-003  +5.9161847457E-003 -2.8138891794E-003 
10646340.426 +8.9315995574E-003 -3.9953701198E-003  +9.9354082346E-001 -1.6280412674E-003  +9.9284994602E-001 -1.3414025307E-004  +4.8475358635E-003 -2.1219919436E-003 
10771485.607 +1.0722463951E-002 -5.5989744142E-003  +9.9252784252E-001 -1.0755956173E-003  +9.9332791567E-001 -4.5737624168E-004  +3.2928274013E-003 -3.6895151716E-003 
10896630.788 +9.2321205884E-003 -4.6761720441E-003  +9.9406027794E-001 -2.4768710136E-004  +9.9361395836E-001 -3.0142068863E-004  +4.7655836679E-003 -6.5647787414E-004 
11021775.970 +9.3058198690E-003 -2.9677373823E-003  +9.9261343479E-001 -3.5220384598E-004  +9.9406373501E-001 -4.3275952339E-004  +4.4064372778E-003 -3.5187141038E-003 
11146921.151 +9.5613999292E-003 -6.1601623893E-003  +9.9226152897E-001 -3.1810998917E-004  +9.9344158173E-001 -3.4797191620E-004  +5.6367986836E-003 +6.4601190388E-006 
11272066.333 +7.4493619613E-003 -6.2266238965E-003  +9.9335563183E-001 -7.2506070137E-004  +9.9316012859E-001 -8.0138444901E-004  +3.2829418778E-003 -2.8037747834E-003 
11397211.514 +7.8243473545E-003 -4.8524932936E-003  +9.9301552773E-001 -9.9456310272E-004  +9.9362051487E-001 -4.4393539429E-004  +4.2338822968E-003 -1.5475265682E-003 
11522356.696 +7.2525935248E-003 -5.6452630088E-003  +9.9338704348E-001 -4.5987963676E-004  +9.9330443144E-001 -1.3327598572E-004  +5.1569361240E-003 -2.8424086049E-003 
11647501.877 +9.9228164181E-003 -4.4669909403E-003  +9.9304139614E-001 -4.3717026711E-004  +9.9334990978E-001 +4.1827559471E-004  +3.8020769134E-003 -3.9022706915E-004 
11772647.059 +8.7334830314E-003 -4.7844173387E-003  +9.9319803715E-001 +5.4749846458E-004  +9.9309623241E-001 -8.8813900948E-004  +4.6617863700E-003 -1.7745123478E-003 
11897792.240 +6.8759424612E-003 -4.5290151611E-003  +9.9280345440E-001 -4.6518445015E-004  +9.9285322428E-001 -3.9693713188E-004  +4.6279742382E-003 -6.2838033773E-004 
12022937.422 +8.7705655023E-003 -2.2483975627E-003  +9.9262058735E-001 -7.6103210449E-004  +9.9272584915E-001 -6.6742300987E-004  +5.7427706197E-003 -1.2283100514E-003 
12148082.603 +9.1823413968E-003 -2.8050183319E-003  +9.9290770292E-001 -9.7662210464E-004  +9.9266552925E-001 -5.9360265732E-004  +5.2054249682E-003 -9.9464494269E-004 
12273227.785 +1.0257566348E-002 -3.6890802439E-003  +9.9262905121E-001 -2.9125809669E-004  +9.9330949783E-001 -1.0485649109E-003  +5.2821631543E-003 +5.1867286675E-004 
12398372.966 +8.5860248655E-003 -2.6300156023E-003  +9.9241590500E-001 -8.0773234367E-004  +9.9299490452E-001 -4.6393275261E-004  +6.5174135379E-003 -3.1663174741E-004 
12523518.148 +8.3312988281E-003 -3.0606421642E-003  +9.9335134029E-001 -9.8600983620E-004  +9.9321436882E-001 +2.2757053375E-004  +4.6020997688E-003 -5.1368877757E-004 
12648663.329 +9.1455513611E-003 -3.4190453589E-003  +9.9365234375E-001 -9.4607472420E-004  +9.9280673265E-001 -7.9810619354E-005  +4.5907050371E-003 -1.2520810124E-003 
12773808.511 +9.0413317084E-003 -3.4991754219E-003  +9.9317276478E-001 -5.8326125145E-004  +9.9286890030E-001 -4.7293305397E-004  +4.8791868612E-003 -7.0885871537E-004 
12898953.692 +9.3323783949E-003 -2.4762456305E-003  +9.9264228344E-001 -9.4604492188E-004  +9.9315285683E-001 -2.7638673782E-004  +4.9676322378E-003 -1.7845677212E-003 
13024098.874 +9.4030089676E-003 -2.7896871325E-003  +9.9282896519E-001 -1.7914175987E-004  +9.9387282133E-001 -4.0239095688E-004  +4.9024638720E-003 -1.1635591509E-003 
13149244.055 +8.6545757949E-003 -7.1878510062E-004  +9.9286901951E-001 -6.6100060940E-004  +9.9311578274E-001 -1.8794834614E-004  +5.4658032022E-003 -8.8162365137E-004 
13274389.237 +9.7395014018E-003 -2.6352014393E-003  +9.9298000336E-001 -3.9087235928E-004  +9.9314099550E-001 -4.9817562103E-004  +5.2380654961E-003 -1.7693244154E-003 
13399534.418 +9.2409271747E-003 -1.3965168037E-003  +9.9325412512E-001 +1.9447505474E-004  +9.9333274364E-001 -8.5532665253E-005  +5.6065050885E-003 -1.4418216888E-003 
13524679.599 +8.6254319176E-003 -1.4371941797E-003  +9.9277222157E-001 -6.0684233904E-004  +9.9343746901E-001 -2.7410686016E-005  +5.6097512133E-003 -5.5275700288E-004 
13649824.781 +8.9536281303E-003 -9.6305855550E-004  +9.9312603474E-001 -8.7067484856E-005  +9.9329817295E-001 -5.1441788673E-004  +7.0554856211E-003 -1.4443686232E-003 
13774969.962 +8.6536984891E-003 -2.5006241631E-003  +9.9254804850E-001 -5.8850646019E-004  +9.9353742599E-001 -9.5067173243E-004  +4.6351077035E-003 -1.5235746978E-003 
13900115.144 +9.3051493168E-003 -1.7146329628E-003  +9.9315845966E-001 -7.9773925245E-004  +9.9321722984E-001 -6.2986463308E-004  +5.6011052802E-003 -1.2332469923E-003 
14025260.325 +8.0560632050E-003 -9.5511128893E-004  +9.9273794889E-001 -4.3071806431E-004  +9.9342107773E-001 -3.6083161831E-004  +5.9203198180E-003 -1.1195843108E-003 
14150405.507 +9.6906712279E-003 -7.2697957512E-004  +9.9303364754E-001 -5.6707113981E-004  +9.9317628145E-001 -6.2817335129E-004  +5.6290035136E-003 -7.8670075163E-004 
14275550.688 +9.6471030265E-003 -1.4720050385E-003  +9.9267935753E-001 -5.8272480965E-004  +9.9348294735E-001 -3.3973157406E-004  +5.7877679355E-003 -1.2578761671E-003 
14400695.870 +8.7621249259E-003 -1.2362678535E-003  +9.9297338724E-001 -4.2442977428E-004  +9.9263805151E-001 -1.0222643614E-003  +5.2036135457E-003 -1.0449396214E-003 
