!  2-Port S-parameters saved by WinCal
! VAR MeasName=S-Parameters (CALIBRATED_DATA) read from VNA (P5004A)
! VAR MeasDate=22/05/2024 18:45:51
! VAR NAME=Wafer2_r2_c1_formed_pos1.4dc
! VAR FILENAME=Wafer2_r2_c1_formed_pos1.4dc.S2P
! VAR DATE=22/05/2024 18:45:51
! VAR PHYS_PORTS=1,2
! VAR ObjTypeName=DATASET
! VAR IndexType=Frequency
!
# Hz S RI R 50
9000.000 +2.1517197788E-001 -5.9522891045E-001  -8.0322381109E-003 +3.3083977178E-003  -7.9259654740E-004 +2.2033553105E-003  +8.3942614496E-002 +1.0370928794E-001 
134145.181 +6.1649203300E-001 -6.5870299935E-002  -6.6783614457E-003 -3.6038956605E-003  -1.8243236467E-002 -1.2874665670E-002  -1.1150063276E+000 -6.0850703716E-001 
259290.363 +8.1004410982E-001 -1.5482828021E-001  -3.8419882767E-003 -9.6138548106E-003  -7.6951337978E-003 -1.7218915746E-003  +1.6843103170E+000 -5.8507055044E-001 
384435.544 +8.6700314283E-001 -3.0760848522E-001  +4.6278927475E-003 +2.3248998448E-002  -2.0304903388E-002 +3.6281906068E-003  +4.1824340820E+000 -3.8656139374E-001 
509580.726 +9.4468569756E-001 -1.6806973517E-001  +1.4833518071E-003 -3.1074945582E-004  +3.4177086782E-003 +8.2882033894E-004  +1.7303364277E+000 -7.6115787029E-002 
634725.907 +1.0901708603E+000 -2.0536389947E-001  -6.9873838220E-004 +2.5187672582E-003  -1.5494166873E-003 +1.0111160373E-004  +1.9508042336E+000 +8.7136626244E-001 
759871.089 +1.2782398462E+000 -4.9601197243E-002  -1.3467732351E-003 -1.8101115711E-004  +2.0664155018E-003 -1.1375304312E-003  +1.4281262159E+000 +4.2701524496E-001 
885016.270 +1.1489118338E+000 -4.4168391824E-001  -1.2602090137E-003 -1.3274190133E-004  -9.4094913220E-004 -4.0780211566E-004  +1.1991304159E+000 +4.9364602566E-001 
1010161.452 +1.2352755070E+000 -1.0644581914E-001  -5.9667916503E-004 +3.3720181091E-004  +4.4427983812E-004 +1.5404082660E-004  +1.1824508905E+000 +4.8040556908E-001 
1135306.633 +1.2993414402E+000 -1.2750791013E-001  +1.3112496817E-003 +6.8482023198E-004  -4.6224636026E-004 +1.2759506935E-003  +1.3002289534E+000 +5.9906578064E-001 
1260451.815 +1.5372676849E+000 -1.0016220808E-001  -6.7817146191E-004 -7.7575666364E-004  +2.3918750230E-004 +8.2676031161E-004  +1.1025589705E+000 +7.0273452997E-001 
1385596.996 +1.3829061985E+000 -1.2094777822E-001  -4.5486274757E-005 +3.6547266063E-004  -1.0036291496E-004 +7.6036601968E-005  +9.8611313105E-001 +4.8297816515E-001 
1510742.178 +1.6268609762E+000 -1.6370487213E-001  -1.1505030852E-004 +3.4584282548E-004  -6.5740532591E-005 +1.5808254830E-006  +6.7915189266E-001 +5.7424509525E-001 
1635887.359 +1.1267918348E+000 -3.8292813301E-001  -1.1277662998E-004 +1.4058731904E-004  -9.8662218079E-005 +1.1729916150E-004  +1.5230799913E+000 +6.3013333082E-001 
1761032.541 +1.2939639091E+000 -3.2863104343E-001  -2.2178865038E-004 +1.5741701645E-004  -2.2014370188E-004 +8.1956372014E-005  +1.1056071520E+000 +8.2738369703E-001 
1886177.722 +1.2208595276E+000 -2.4410164356E-001  -1.1120937415E-004 +9.6606418083E-006  -3.2202579314E-004 +3.2371742418E-004  +1.1451377869E+000 +5.5882418156E-001 
2011322.904 +1.2113428116E+000 -2.4004900455E-001  -2.1813917556E-004 +2.1646346431E-004  -1.8531155365E-004 +1.4902457769E-004  +1.1584298611E+000 +5.2680629492E-001 
2136468.085 +1.2149763107E+000 -1.9814649224E-001  -1.5922501916E-004 +3.6242563510E-004  -3.2314268174E-004 +3.8762489567E-004  +1.0965199471E+000 +4.7739911079E-001 
2261613.267 +1.2359672785E+000 -1.9756662846E-001  -1.8900785653E-004 +2.5910194381E-004  -2.1861186542E-004 +2.0617010887E-004  +1.0529651642E+000 +5.1515662670E-001 
2386758.448 +1.2336049080E+000 -2.0594675839E-001  -3.8862621295E-004 +4.2660813779E-004  -2.2870363318E-004 +3.2798832399E-004  +1.0714184046E+000 +5.4542422295E-001 
2511903.630 +1.2374963760E+000 -2.1814627945E-001  -4.5816460624E-004 +6.0292240232E-004  -4.6206943807E-004 +6.5434887074E-004  +1.1148968935E+000 +5.8083713055E-001 
2637048.811 +1.2087669373E+000 -2.6160883904E-001  -4.7574564815E-004 +8.5036893142E-004  -5.8479886502E-004 +4.7136601643E-004  +1.1208854914E+000 +6.0929614305E-001 
2762193.992 +1.1432533264E+000 -1.7016249895E-001  -1.0908589320E-004 +4.5024359133E-004  -1.4517302043E-004 +1.2160700280E-003  +1.1343209743E+000 +5.1721096039E-001 
2887339.174 +1.1958806515E+000 -1.4588636160E-001  +3.0066428008E-004 -6.8720418494E-004  -6.7380914697E-004 +7.8134040814E-004  +1.0013955832E+000 +5.0578206778E-001 
3012484.355 +1.2331658602E+000 -1.3326415420E-001  -1.8241741054E-004 +5.6455389131E-004  -2.0613352535E-004 +7.5600040145E-004  +9.4621002674E-001 +6.1436766386E-001 
3137629.537 +1.2436699867E+000 -1.2972599268E-001  -7.0511392551E-004 +2.7664203662E-004  -3.8786878577E-004 +3.0817190418E-004  +9.7098559141E-001 +7.2078502178E-001 
3262774.718 +1.2605195045E+000 -1.6149848700E-001  -7.4786122423E-004 +8.5610453971E-004  -1.1606129119E-003 +8.7551772594E-004  +1.0137997866E+000 +7.9016733170E-001 
3387919.900 +1.2566449642E+000 -1.7179644108E-001  -5.6153215701E-004 +1.1678689625E-003  -8.1091787433E-004 +8.1941188546E-004  +1.0587704182E+000 +8.5535341501E-001 
3513065.081 +1.2774784565E+000 -1.8794059753E-001  -5.4963678122E-004 +1.3242710847E-003  -1.1571646901E-003 +1.0527056875E-003  +1.0939587355E+000 +9.3650758266E-001 
3638210.263 +1.2889909744E+000 -2.2019892931E-001  -1.6943893861E-003 +1.4009735314E-003  -1.4567417093E-003 +1.3906774111E-003  +1.1815786362E+000 +9.7883170843E-001 
3763355.444 +1.2882913351E+000 -2.4463492632E-001  -1.3471853454E-003 +1.6026515514E-003  -1.2094802223E-003 +1.1105592130E-003  +1.2819225788E+000 +1.0113908052E+000 
3888500.626 +1.2982425690E+000 -2.8888040781E-001  -1.2375463266E-003 +1.8707739655E-003  -5.0473748706E-004 +9.7112916410E-004  +1.3686618805E+000 +1.0810184479E+000 
4013645.807 +1.0962145329E+000 -4.1516441107E-001  -2.3421924561E-004 +1.6015090514E-003  -6.7399820546E-004 +2.5675971992E-003  +1.6526775360E+000 +8.7022733688E-001 
4138790.989 +8.7783455849E-001 -4.3083101511E-001  -1.5646059182E-004 +1.3568799477E-003  -1.4289253158E-004 +3.1410644297E-003  +1.7886941433E+000 +5.4154109955E-001 
4263936.170 +8.4331721067E-001 -4.3588060141E-001  -5.9898657491E-004 +2.1007091273E-003  -3.0543195317E-004 +3.1332988292E-003  +1.8332334757E+000 +4.5499354601E-001 
4389081.352 +8.0139672756E-001 -4.1609653831E-001  -5.2961061010E-004 +2.1539169829E-003  -2.8921206831E-004 +2.5674288627E-003  +1.8894044161E+000 +3.1899964809E-001 
4514226.533 +7.7565312386E-001 -4.1404062510E-001  -9.2153321020E-005 +2.6804865338E-003  +6.5941014327E-005 +2.8425413184E-003  +1.9209461212E+000 +2.2503316402E-001 
4639371.715 +7.5799816847E-001 -4.1011425853E-001  +5.4382055532E-004 +2.4943996686E-003  -1.9643150154E-004 +2.6019399520E-003  +1.9129003286E+000 +1.4573255181E-001 
4764516.896 +7.0430326462E-001 -3.7962687016E-001  +6.1388331233E-004 +2.8431250248E-003  +3.7916470319E-004 +3.2655240502E-003  +1.9175431728E+000 +5.3409829736E-002 
4889662.078 +6.9027143717E-001 -3.5130345821E-001  +7.0098543074E-004 +2.7309751604E-003  -4.7314338735E-004 +2.7924792375E-003  +1.9177049398E+000 -3.4380733967E-002 
5014807.259 +6.5587323904E-001 -3.3424904943E-001  +4.4649932534E-004 +2.7505424805E-003  +7.5325125363E-004 +3.0855378136E-003  +1.8749004602E+000 -1.0022394359E-001 
5139952.441 +6.3960516453E-001 -3.0940914154E-001  +6.3817517366E-004 +2.2739619017E-003  +6.8287499016E-004 +2.9212052468E-003  +1.8491163254E+000 -1.8654341996E-001 
5265097.622 +6.2360626459E-001 -2.7988553047E-001  +7.0857605897E-004 +2.3056960199E-003  +8.1470794976E-004 +3.2229057979E-003  +1.7931176424E+000 -2.4999067187E-001 
5390242.804 +6.0453581810E-001 -2.4953565001E-001  +1.0460183257E-003 +2.2867501248E-003  +2.7907508775E-004 +3.0118299183E-003  +1.7564585209E+000 -3.1498372555E-001 
5515387.985 +6.0220050812E-001 -2.1639764309E-001  +3.1051511178E-004 +2.9211468063E-003  +3.4401845187E-004 +3.1753678340E-003  +1.7087404728E+000 -3.7486010790E-001 
5640533.166 +5.8643692732E-001 -1.9463521242E-001  +3.7510937545E-004 +2.5067855604E-003  +2.6628869819E-004 +2.6201026049E-003  +1.6761165857E+000 -4.0842646360E-001 
5765678.348 +5.7555264235E-001 -1.6486525536E-001  +1.3323492021E-004 +2.9927976429E-003  +7.3779991362E-004 +2.6789112017E-003  +1.6198456287E+000 -4.5157426596E-001 
5890823.529 +5.7594138384E-001 -1.3104034960E-001  +2.2508810798E-004 +2.8749997728E-003  +7.6763780089E-004 +3.2031794544E-003  +1.5574018955E+000 -4.8648732901E-001 
6015968.711 +5.6720715761E-001 -9.7830213606E-002  +5.5905559566E-004 +2.9766315129E-003  +8.8638765737E-004 +2.5163567625E-003  +1.5181976557E+000 -5.1093506813E-001 
6141113.892 +5.6158649921E-001 -7.0008650422E-002  +4.5854487689E-004 +2.5914560538E-003  +2.0379149646E-004 +2.8329053894E-003  +1.4521014690E+000 -5.1889008284E-001 
6266259.074 +5.6421875954E-001 -4.3251711875E-002  +4.2892631609E-004 +3.1249627937E-003  +5.1743857330E-004 +2.7073442470E-003  +1.4011025429E+000 -5.3371495008E-001 
6391404.255 +5.6639951468E-001 -8.1547126174E-003  +6.9475686178E-004 +3.1428444199E-003  +6.8881706102E-004 +2.9132342897E-003  +1.3426680565E+000 -5.4954701662E-001 
6516549.437 +5.6977874041E-001 +2.0997453481E-002  +3.3653521677E-004 +3.1304149888E-003  +6.5587373683E-004 +3.0754720792E-003  +1.3016500473E+000 -5.5138009787E-001 
6641694.618 +5.8046352863E-001 +5.2961345762E-002  +2.8670448228E-004 +2.8451543767E-003  +1.0301636066E-003 +3.1936839223E-003  +1.2674630880E+000 -5.5097186565E-001 
6766839.800 +5.8941906691E-001 +7.8994363546E-002  +2.0168197807E-005 +3.2449776772E-003  +6.9544155849E-004 +3.1325486489E-003  +1.2238923311E+000 -5.5938977003E-001 
6891984.981 +5.9707581997E-001 +9.9811911583E-002  +3.0700961361E-004 +2.8295931406E-003  +1.9057124155E-004 +2.8312599752E-003  +1.1695588827E+000 -5.5207431316E-001 
7017130.163 +6.0605722666E-001 +1.2889710069E-001  +4.4041711953E-004 +3.1819727737E-003  +1.7654246767E-004 +3.1864948105E-003  +1.1462004185E+000 -5.4120129347E-001 
7142275.344 +6.1636251211E-001 +1.5413802862E-001  -1.5844998416E-006 +2.8499478940E-003  +3.0293723103E-004 +3.1086548697E-003  +1.1163392067E+000 -5.3487384319E-001 
7267420.526 +6.2846189737E-001 +1.7908841372E-001  +1.3998406939E-004 +3.3698072657E-003  -2.3517059162E-006 +3.1326969620E-003  +1.0846652985E+000 -5.1660358906E-001 
7392565.707 +6.4731281996E-001 +2.0886272192E-001  +2.6996489032E-004 +3.1603090465E-003  +6.5809581429E-007 +3.2002406660E-003  +1.0504765511E+000 -5.1522159576E-001 
7517710.889 +6.6644096375E-001 +2.2603881359E-001  +2.0542854327E-004 +3.1604059041E-003  +1.2794800568E-005 +3.4720215481E-003  +1.0244493484E+000 -5.0112724304E-001 
7642856.070 +6.7999821901E-001 +2.4768197536E-001  +2.6199826971E-004 +3.4818192944E-003  +1.0661990382E-004 +3.3256805036E-003  +9.8698514700E-001 -4.8654559255E-001 
7768001.252 +7.0397138596E-001 +2.7110058069E-001  +1.3609352754E-004 +3.1479387544E-003  +1.6202451661E-005 +3.2934623305E-003  +9.6322369576E-001 -4.7867232561E-001 
7893146.433 +7.2850006819E-001 +2.9109901190E-001  +2.4290522560E-004 +3.3444541041E-003  +1.7927988665E-004 +3.4199431539E-003  +9.4105625153E-001 -4.5961403847E-001 
8018291.615 +7.4879252911E-001 +3.0892601609E-001  -2.0172249060E-004 +3.5386974923E-003  +4.8376154155E-005 +3.5409580451E-003  +9.1567438841E-001 -4.4209843874E-001 
8143436.796 +7.7258455753E-001 +3.1381753087E-001  +6.9192436058E-005 +3.4988212865E-003  -9.9327822682E-005 +3.6439495161E-003  +8.9761334658E-001 -4.2796677351E-001 
8268581.977 +7.9685878754E-001 +3.3276459575E-001  -1.1874578195E-004 +3.4375786781E-003  +9.2560949270E-005 +3.5882438533E-003  +8.7946432829E-001 -4.0879040956E-001 
8393727.159 +8.2280129194E-001 +3.4092658758E-001  -1.5496375272E-004 +3.6193937995E-003  +1.2472289382E-004 +3.7217964418E-003  +8.6256414652E-001 -3.9406961203E-001 
8518872.340 +8.5533148050E-001 +3.4937649965E-001  -6.6801731009E-005 +3.6308835261E-003  -2.2472586716E-004 +3.7519831676E-003  +8.4211194515E-001 -3.7361037731E-001 
8644017.522 +8.7446665764E-001 +3.5779130459E-001  -7.8587094322E-005 +3.9100530557E-003  -1.2744264677E-004 +3.7478010636E-003  +8.3385014534E-001 -3.6356449127E-001 
8769162.703 +9.0886342525E-001 +3.6297261715E-001  -8.6124986410E-005 +3.8321646862E-003  -9.5522031188E-005 +3.8906366099E-003  +8.1882387400E-001 -3.4514328837E-001 
8894307.885 +9.3543916941E-001 +3.5989713669E-001  +1.9697472453E-005 +4.0168892592E-003  -1.1676747818E-004 +4.1354764253E-003  +8.0210441351E-001 -3.3190613985E-001 
9019453.066 +9.6240162849E-001 +3.5925495625E-001  -8.0701080151E-005 +4.0986812674E-003  -3.8468616549E-004 +4.1375486180E-003  +7.9220867157E-001 -3.1431278586E-001 
9144598.248 +9.9168950319E-001 +3.5807788372E-001  -1.0766182095E-004 +4.1606966406E-003  -3.9406830911E-004 +4.2746919207E-003  +7.7983915806E-001 -2.9559120536E-001 
9269743.429 +1.0190992355E+000 +3.5331702232E-001  -6.6371168941E-005 +4.1803498752E-003  -2.3489224259E-004 +4.2790449224E-003  +7.6982313395E-001 -2.7950668335E-001 
9394888.611 +1.0456678867E+000 +3.4889543056E-001  -1.4974642545E-004 +4.3290294707E-003  -2.4442363065E-004 +4.3293926865E-003  +7.6029598713E-001 -2.6609772444E-001 
9520033.792 +1.0720838308E+000 +3.3618146181E-001  -2.1114211995E-004 +4.4229528867E-003  -2.4033884984E-004 +4.4168336317E-003  +7.5320613384E-001 -2.4453392625E-001 
9645178.974 +1.0964760780E+000 +3.2744374871E-001  -2.9929587618E-004 +4.4171269983E-003  -1.6855995636E-004 +4.4454634190E-003  +7.4466639757E-001 -2.2796291113E-001 
9770324.155 +1.1173374653E+000 +3.1544578075E-001  -2.0931253675E-004 +4.5393281616E-003  -1.9859336317E-004 +4.4586928561E-003  +7.3776519299E-001 -2.1038204432E-001 
9895469.337 +1.1409454346E+000 +3.0246683955E-001  -9.5632858574E-005 +4.6942005865E-003  -2.5410577655E-004 +4.7659454867E-003  +7.3055815697E-001 -1.9419908524E-001 
10020614.518 +1.1589081287E+000 +2.8607675433E-001  -1.4932616614E-004 +4.7781406902E-003  -1.1726049706E-004 +4.7304057516E-003  +7.2829383612E-001 -1.7520192266E-001 
10145759.700 +1.1761575937E+000 +2.6635769010E-001  -2.0560063422E-004 +4.8609497026E-003  -1.9449251704E-004 +4.8406412825E-003  +7.2418564558E-001 -1.6093629599E-001 
10270904.881 +1.1963540316E+000 +2.4517625570E-001  -2.3287441581E-004 +5.0122058019E-003  -2.1608290263E-004 +4.9071186222E-003  +7.2253191471E-001 -1.4467078447E-001 
10396050.063 +1.2076339722E+000 +2.2594591975E-001  -1.9232532941E-004 +4.9847094342E-003  -1.6591744497E-004 +5.0304289907E-003  +7.1769654751E-001 -1.2763440609E-001 
10521195.244 +1.2207951546E+000 +2.0724669099E-001  -1.1082319543E-004 +5.1096370444E-003  -1.6021216288E-004 +5.0677666441E-003  +7.1757912636E-001 -1.1197021604E-001 
10646340.426 +1.2282847166E+000 +1.8626683950E-001  -1.6896240413E-004 +5.1705692895E-003  -1.4143320732E-004 +5.1519139670E-003  +7.1554696560E-001 -9.8882287741E-002 
10771485.607 +1.2358598709E+000 +1.6434502602E-001  -8.1623438746E-005 +5.2210269496E-003  -1.5614088625E-004 +5.2822371945E-003  +7.1635234356E-001 -8.1726104021E-002 
10896630.788 +1.2406935692E+000 +1.4511090517E-001  -1.4383206144E-004 +5.3023323417E-003  -9.6138101071E-005 +5.3731193766E-003  +7.1586918831E-001 -6.7261815071E-002 
11021775.970 +1.2448955774E+000 +1.2519276142E-001  -1.9917287864E-004 +5.4023228586E-003  -7.2415219620E-005 +5.4272413254E-003  +7.1707701683E-001 -5.0555855036E-002 
11146921.151 +1.2484514713E+000 +1.0082620382E-001  -8.1869540736E-005 +5.5190781131E-003  -1.3340939768E-004 +5.4421918467E-003  +7.1948486567E-001 -3.4998685122E-002 
11272066.333 +1.2467262745E+000 +8.0054283142E-002  -9.5906900242E-005 +5.4595591500E-003  -6.6308770329E-005 +5.5141644552E-003  +7.2047770023E-001 -2.0105391741E-002 
11397211.514 +1.2483693361E+000 +6.3004255295E-002  -1.4353403822E-004 +5.5719842203E-003  -1.8808292225E-004 +5.5690733716E-003  +7.2273123264E-001 -8.4927678108E-003 
11522356.696 +1.2451281548E+000 +4.4701337814E-002  -6.7581655458E-005 +5.6078145280E-003  -6.4595136791E-005 +5.6631518528E-003  +7.2776645422E-001 +6.0476958752E-003 
11647501.877 +1.2399255037E+000 +2.8656661510E-002  -1.1416850612E-004 +5.7798796333E-003  -2.0198989660E-005 +5.7021151297E-003  +7.3136979342E-001 +1.9776910543E-002 
11772647.059 +1.2377951145E+000 +1.1726081371E-002  -5.7670520619E-005 +5.7472195476E-003  -6.1776489019E-005 +5.7738465257E-003  +7.3675692081E-001 +3.3100754023E-002 
11897792.240 +1.2323997021E+000 -4.1698217392E-003  -1.6159377992E-005 +5.8227563277E-003  -9.4934133813E-005 +5.7648867369E-003  +7.4061918259E-001 +4.7725319862E-002 
12022937.422 +1.2293535471E+000 -1.8733680248E-002  -6.1534810811E-005 +5.8733923361E-003  -3.0077761039E-005 +5.9186806902E-003  +7.4783277512E-001 +5.9651911259E-002 
12148082.603 +1.2202305794E+000 -3.1759858131E-002  -4.5176362619E-005 +5.9702559374E-003  -2.2942898795E-005 +5.9692636132E-003  +7.5421094894E-001 +7.3500216007E-002 
12273227.785 +1.2121851444E+000 -4.3025612831E-002  -4.7277193516E-005 +6.0203219764E-003  -9.7709707916E-005 +6.0830553994E-003  +7.6143628359E-001 +8.4797695279E-002 
12398372.966 +1.2043265104E+000 -5.7000488043E-002  -8.2552782260E-005 +6.1059282161E-003  -9.1771828011E-005 +6.1426339671E-003  +7.6980286837E-001 +9.5837563276E-002 
12523518.148 +1.1940485239E+000 -6.6974043846E-002  -1.2944219634E-005 +6.1690416187E-003  -5.6900549680E-005 +6.1840261333E-003  +7.7675521374E-001 +1.0647509992E-001 
12648663.329 +1.1866043806E+000 -7.6092302799E-002  -1.6987323761E-006 +6.2458030879E-003  -8.4747327492E-005 +6.1925626360E-003  +7.8582000732E-001 +1.1612990499E-001 
12773808.511 +1.1770404577E+000 -8.7753571570E-002  +9.5885479823E-006 +6.3282814808E-003  -3.7153717130E-005 +6.3398391940E-003  +7.9466092587E-001 +1.2641438842E-001 
12898953.692 +1.1673451662E+000 -9.5196828246E-002  +1.3465818483E-005 +6.3198236749E-003  +1.1775933672E-005 +6.3767852262E-003  +8.0345976353E-001 +1.3311401010E-001 
13024098.874 +1.1577496529E+000 -1.0291140527E-001  +4.6629371354E-005 +6.4197825268E-003  -4.6390836360E-005 +6.4524100162E-003  +8.1365156174E-001 +1.4370299876E-001 
13149244.055 +1.1480903625E+000 -1.0833983868E-001  -5.2620700444E-005 +6.5318327397E-003  -7.5001385994E-005 +6.4919097349E-003  +8.2418918610E-001 +1.5158112347E-001 
13274389.237 +1.1383005381E+000 -1.1455650628E-001  +4.3393811211E-008 +6.5484056249E-003  -2.9355753213E-005 +6.5894033760E-003  +8.3611524105E-001 +1.5976159275E-001 
13399534.418 +1.1282898188E+000 -1.2089203298E-001  +4.0222075768E-006 +6.6064400598E-003  -2.5766668841E-005 +6.6402410157E-003  +8.4562683105E-001 +1.6612273455E-001 
13524679.599 +1.1184378862E+000 -1.2346994877E-001  -3.1107920222E-006 +6.7158965394E-003  -2.1115993150E-005 +6.7344075069E-003  +8.5780286789E-001 +1.7345358431E-001 
13649824.781 +1.1097471714E+000 -1.2788623571E-001  +5.1162438467E-005 +6.8074348383E-003  +6.8416120484E-006 +6.8250866607E-003  +8.7023621798E-001 +1.7876730859E-001 
13774969.962 +1.0991237164E+000 -1.3129055500E-001  +4.8620975576E-005 +6.8506258540E-003  +4.5213266276E-005 +6.8782358430E-003  +8.8170874119E-001 +1.8332967162E-001 
13900115.144 +1.0902141333E+000 -1.3390770555E-001  +4.2746192776E-005 +6.9807837717E-003  +3.2441574149E-005 +6.9424537942E-003  +8.9385819435E-001 +1.8822792172E-001 
14025260.325 +1.0798492432E+000 -1.3525965810E-001  +5.5123819038E-005 +6.9948136806E-003  +4.0901824832E-005 +7.0057441480E-003  +9.0567362309E-001 +1.9178968668E-001 
14150405.507 +1.0717190504E+000 -1.3583973050E-001  +6.4916675910E-005 +7.0987115614E-003  +6.0632126406E-005 +7.1342242882E-003  +9.1846251488E-001 +1.9561025500E-001 
14275550.688 +1.0629940033E+000 -1.3754451275E-001  +4.8389192671E-005 +7.1224593557E-003  +7.0627545938E-005 +7.1971630678E-003  +9.3159055710E-001 +1.9682712853E-001 
14400695.870 +1.0532784462E+000 -1.3846203685E-001  +1.1392612942E-004 +7.2093806230E-003  +4.9083260819E-005 +7.2037186474E-003  +9.4387620687E-001 +1.9870629907E-001 
