!  2-Port S-parameters saved by WinCal
! VAR MeasName=S-Parameters (CALIBRATED_DATA) read from VNA (P5004A)
! VAR MeasDate=22/05/2024 17:02:39
! VAR NAME=Wafer2_r10_c12_short
! VAR FILENAME=Wafer2_r10_c12_short.S2P
! VAR DATE=22/05/2024 17:02:39
! VAR PHYS_PORTS=1,2
! VAR ObjTypeName=DATASET
! VAR IndexType=Frequency
!
# Hz S RI R 50
9000.000 +2.3938941956E-001 -5.9190434217E-001  +1.0111047886E-002 +3.8821713533E-003  -2.0152709913E-003 +3.3122661989E-003  +1.2036921829E-001 +4.6820960939E-002 
134145.181 +2.0680372417E-001 -2.3523686826E-001  +8.7091587484E-003 -3.0352268368E-002  -1.7673110589E-002 +2.3688446730E-002  -1.1137157679E-002 -2.2872787714E-001 
259290.363 +4.3354564905E-001 +7.1172490716E-002  +9.9009610713E-003 +5.3018517792E-002  -4.4752791524E-002 +8.7689496577E-003  +1.9127531350E-001 -5.0355327129E-001 
384435.544 +3.5689601302E-001 -9.1877818108E-002  -4.9175888300E-002 -2.3319514468E-002  +1.6956210136E-002 +2.6576351374E-002  +1.3823829591E-002 -2.8447797894E-001 
509580.726 +6.0779631138E-001 -1.4921188354E-001  +7.3375226930E-004 +2.5343992747E-003  +2.6369881816E-003 -1.2215731665E-002  +4.4314143062E-001 -3.6795020103E-001 
634725.907 +7.7967631817E-001 -2.0290070772E-001  +3.1188316643E-003 -6.3492869958E-003  -6.8850419484E-003 -2.1975103300E-003  +7.4194127321E-001 -4.8630583286E-001 
759871.089 +1.4485199451E+000 -6.1418664455E-001  +2.1606364753E-003 +3.5865907557E-003  -1.1471918784E-002 -1.2147002853E-002  +1.6883755922E+000 -1.9043320417E-001 
885016.270 +1.4461684227E+000 -3.3290390968E+000  -3.5340676550E-003 -1.2732858770E-002  +9.0310601518E-003 -6.7215738818E-003  +1.8823153973E+000 +5.4178088903E-001 
1010161.452 +4.2827183008E-001 -1.3100867271E+000  -5.6250770576E-003 -1.7333630472E-002  -6.4530787058E-003 +5.1835915074E-003  +1.6101813316E+000 +1.4558620453E+000 
1135306.633 -1.6576752067E-001 -1.0489287376E+000  -2.1998062730E-003 +1.1001389474E-002  +1.2077781372E-002 +5.9033101425E-003  +3.1084556580E+000 +2.8609414101E+000 
1260451.815 +1.0872900486E-001 -1.1183307171E+000  -1.5355745330E-002 -1.0216063820E-003  +1.4212735929E-002 +1.8158433959E-002  -1.1461772919E+000 +4.7239031792E+000 
1385596.996 +1.2323720455E+000 -9.4490480423E-001  -1.4848205261E-002 -2.9286351055E-003  -3.2231276855E-003 -5.7911640033E-004  +9.2649662495E-001 +1.9647126198E+000 
1510742.178 +2.1528918743E+000 -1.4866834879E+000  +7.9475864768E-003 +7.3262206279E-003  +3.8274945691E-003 -3.3041669521E-003  +5.9112876654E-002 +9.7494947910E-001 
1635887.359 +1.2457640171E+000 -1.1494174004E+000  -2.7713233605E-002 +3.0798599124E-002  -7.7141076326E-004 +1.8572103232E-002  -2.4248750210E+000 +1.0178043365E+001 
1761032.541 +2.5939881802E+000 -5.8424878120E-001  +4.7979895025E-003 +3.7144073285E-003  -4.5446036384E-003 +1.0004166514E-002  -8.1631612778E-001 +1.1904563904E+000 
1886177.722 +2.7753503323E+000 +4.0405321121E-001  -2.9621941503E-003 -9.4833923504E-004  -7.5870932778E-004 +3.8624610170E-004  -2.6199576259E-001 +1.6514562368E+000 
2011322.904 +2.5762667656E+000 +1.7483444214E+000  -1.6399646178E-002 -6.4139179885E-003  -1.3420294970E-002 +6.1415773816E-003  -3.6268883944E-001 +1.8487383127E+000 
2136468.085 +1.5544822216E+000 +2.0596616268E+000  -7.0802965201E-003 +4.4160131365E-003  -7.1839448065E-003 -1.1197535787E-003  -2.3223519325E-001 +1.5929737091E+000 
2261613.267 +5.3462070227E-001 +2.1720540524E+000  -7.7545377426E-003 -6.5607461147E-003  -4.7897351906E-003 +3.2658479176E-003  -3.3248361945E-001 +1.2905353308E+000 
2386758.448 +3.2141590118E-001 +2.1845905781E+000  -3.7803882733E-003 -4.7018583864E-003  -2.8741890565E-003 -1.1719002388E-002  -4.4642201066E-001 +1.0735638142E+000 
2511903.630 -2.3065131903E-001 +1.8437256813E+000  -7.0675369352E-004 -3.9517143741E-003  -2.0848475397E-003 -3.6422654521E-003  -6.3512682915E-001 +1.0237398148E+000 
2637048.811 -3.6266011000E-001 +1.6065831184E+000  +9.6649001352E-004 -3.5035703331E-003  +8.8714621961E-004 -3.3652160782E-003  -5.7813858986E-001 +7.8534299135E-001 
2762193.992 -5.9020292759E-001 +1.2786767483E+000  -1.5169488033E-003 -3.6605712958E-003  +8.0407690257E-004 -3.0337236822E-003  -5.9173589945E-001 +6.5029072762E-001 
2887339.174 -8.2963418961E-001 +1.0871409178E+000  +1.9943874795E-003 -2.4069151841E-003  +3.2231415389E-004 -4.8131681979E-003  -6.3760459423E-001 +6.1376327276E-001 
3012484.355 -8.5967540741E-001 +1.0973976851E+000  +2.7366057038E-003 -3.8307632785E-003  +1.7260983586E-003 -2.6660205331E-003  -6.9202762842E-001 +5.3642743826E-001 
3137629.537 -9.1614580154E-001 +1.0709209442E+000  +2.3597236723E-003 -3.5372497514E-003  +2.5926586241E-003 -1.8953314284E-003  -7.3248946667E-001 +4.7469800711E-001 
3262774.718 -9.0186917782E-001 +1.0227236748E+000  +2.1725210827E-003 -3.0539806467E-003  +1.7932628980E-003 -3.0972850509E-003  -7.3085331917E-001 +4.2568069696E-001 
3387919.900 -8.7951290607E-001 +9.1674017906E-001  +2.5665503927E-003 -2.7144711930E-003  +3.0465386808E-003 -2.4683084339E-003  -7.6433587074E-001 +3.8688814640E-001 
3513065.081 -9.2389965057E-001 +8.3665645123E-001  +2.8039538302E-003 -2.5531433057E-003  +2.5194929913E-003 -4.0101874620E-003  -7.8135049343E-001 +3.4224602580E-001 
3638210.263 -9.3495464325E-001 +7.3775672913E-001  +3.2809711993E-003 -2.7252719738E-003  +2.2003005724E-003 -2.7680243365E-003  -8.3708083630E-001 +3.3509048820E-001 
3763355.444 -9.4262325764E-001 +7.1543622017E-001  +2.9993148055E-003 -2.4590454996E-003  +2.9332763515E-003 -3.3235114533E-003  -8.4794974327E-001 +2.9925191402E-001 
3888500.626 -9.6738409996E-001 +6.4365893602E-001  +3.3882772550E-003 -3.0808898155E-003  +2.5197137147E-003 -1.7288039671E-003  -8.6777478456E-001 +2.8492802382E-001 
4013645.807 -9.9120569229E-001 +4.2934048176E-001  +3.5202794243E-003 -2.0288410597E-003  +3.5193902440E-003 -1.7480532406E-003  -8.9249366522E-001 +1.4205473661E-001 
4138790.989 -9.5295792818E-001 +2.3583154380E-001  +4.2433263734E-003 -4.9862300511E-004  +4.4969241135E-003 -9.0693961829E-004  -8.6386001110E-001 +3.1864762306E-002 
4263936.170 -9.5713710785E-001 +2.0598396659E-001  +4.0736850351E-003 -9.5467246138E-004  +5.1664793864E-003 -3.4031592077E-004  -8.6711502075E-001 +3.2610714436E-002 
4389081.352 -9.5063179731E-001 +2.0449393988E-001  +4.0316171944E-003 -6.2271393836E-004  +4.3978975154E-003 -3.4776108805E-004  -8.8397192955E-001 +3.6709010601E-003 
4514226.533 -9.5525133610E-001 +1.9317166507E-001  +5.1676859148E-003 -1.1479640380E-003  +4.3341410346E-003 +2.3881031666E-005  -8.9694190025E-001 -2.0010173321E-003 
4639371.715 -9.1997230053E-001 +1.7752705514E-001  +5.1865507849E-003 -2.7422979474E-004  +4.0535465814E-003 -5.0444289809E-004  -9.0963107347E-001 -2.1968185902E-003 
4764516.896 -9.4021791220E-001 +1.5400204062E-001  +4.2056650855E-003 -1.3918359764E-004  +4.7360034660E-003 -3.3537624404E-005  -9.0140461922E-001 -1.1242076755E-002 
4889662.078 -9.4431221485E-001 +1.4762359858E-001  +4.7341892496E-003 -1.0432885028E-004  +4.3804273009E-003 -5.7892908808E-004  -8.9363664389E-001 -1.2182384729E-002 
5014807.259 -9.3549507856E-001 +1.5265834332E-001  +4.5348443091E-003 +1.3128062710E-004  +4.5303897932E-003 -5.1745073870E-004  -9.0333098173E-001 -3.2176256180E-002 
5139952.441 -9.3363261223E-001 +1.4524707198E-001  +4.5141978189E-003 -4.3128442485E-004  +4.0633957833E-003 -3.8859597407E-004  -9.0127080679E-001 -3.1669855118E-002 
5265097.622 -9.3854641914E-001 +1.2032082677E-001  +4.1836299933E-003 +8.6608342826E-005  +4.5963446610E-003 -6.9962267298E-004  -9.0588963032E-001 -1.8199771643E-002 
5390242.804 -9.4903826714E-001 +9.5958322287E-002  +4.5467307791E-003 -5.6787207723E-004  +4.2917113751E-003 -4.9958121963E-005  -9.0878987312E-001 -1.3442695141E-002 
5515387.985 -9.4739902020E-001 +9.0442627668E-002  +4.6531865373E-003 -2.4869339541E-005  +4.2365351692E-003 -1.6314000823E-004  -9.1007608175E-001 -1.2264043093E-002 
5640533.166 -9.3954080343E-001 +9.0619117022E-002  +4.5237001032E-003 -3.0801701359E-004  +4.2278217152E-003 -2.2395222913E-004  -9.1588532925E-001 -1.1531323195E-002 
5765678.348 -9.3324011564E-001 +9.0536952019E-002  +4.3642427772E-003 -5.2418094128E-005  +4.0677688085E-003 -2.3730727844E-004  -9.2548030615E-001 -1.0158389807E-002 
5890823.529 -9.2822539806E-001 +8.3759814501E-002  +4.7908453271E-003 -2.7345935814E-004  +4.1670100763E-003 -2.3748097010E-004  -9.2968308926E-001 -1.8793433905E-002 
6015968.711 -9.3885195255E-001 +7.3689132929E-002  +4.7706654295E-003 +1.0560546070E-004  +4.3016341515E-003 -9.3994196504E-005  -9.2150515318E-001 -1.5917390585E-002 
6141113.892 -9.3506354094E-001 +8.5191249847E-002  +4.3995529413E-003 -1.9060494378E-004  +4.2052851059E-003 -5.4952048231E-004  -9.4288408756E-001 -2.7384221554E-002 
6266259.074 -9.2650675774E-001 +7.7369153500E-002  +4.4488348067E-003 -1.9591744058E-004  +4.1368165985E-003 -2.3218267597E-004  -9.3942701817E-001 -2.7918785810E-002 
6391404.255 -9.2598092556E-001 +6.1348646879E-002  +4.6093892306E-003 +1.5590875410E-004  +4.3121636845E-003 +2.5359913707E-005  -9.4895064831E-001 -1.8185913563E-002 
6516549.437 -9.3407618999E-001 +6.9113940001E-002  +4.4401581399E-003 -1.3690348715E-004  +4.3589565903E-003 -3.5460351501E-004  -9.3731522560E-001 -2.4430394173E-002 
6641694.618 -9.3965291977E-001 +5.0834953785E-002  +4.2994832620E-003 -1.9376468845E-004  +4.1956189089E-003 -9.2032947578E-005  -9.4319319725E-001 -1.1696070433E-002 
6766839.800 -9.3417489529E-001 +4.6145945787E-002  +4.4993073680E-003 -1.0152813047E-004  +4.5296759345E-003 -2.0488258451E-004  -9.4513440132E-001 -1.2159734964E-002 
6891984.981 -9.3762999773E-001 +4.0272802114E-002  +4.5118466951E-003 -1.5462690499E-004  +4.4816862792E-003 -1.3989361469E-004  -9.4410967827E-001 -1.2018352747E-002 
7017130.163 -9.2980372906E-001 +5.6392490864E-002  +4.3984679505E-003 -6.0985214077E-005  +4.5260982588E-003 -8.4400409833E-005  -9.4972586632E-001 -2.6194006205E-002 
7142275.344 -9.5060408115E-001 +4.3526232243E-002  +4.5674210414E-003 -1.8275354523E-004  +4.4128079899E-003 -1.6651197802E-004  -9.4627827406E-001 -1.8154174089E-002 
7267420.526 -9.2893606424E-001 +4.4685065746E-002  +4.3651270680E-003 +7.1394606493E-005  +4.4005461968E-003 -8.8514992967E-005  -9.5535773039E-001 -2.4273306131E-002 
7392565.707 -9.2845523357E-001 +4.5833945274E-002  +4.3726405129E-003 +7.1310321800E-005  +4.2516309768E-003 +1.3246014714E-004  -9.5761650801E-001 -2.4528563023E-002 
7517710.889 -9.3008881807E-001 +4.7733724117E-002  +4.3842289597E-003 +8.8864821009E-005  +4.2973393574E-003 -1.2251967564E-004  -9.6051955223E-001 -2.8634876013E-002 
7642856.070 -9.2759490013E-001 +3.1026452780E-002  +4.4218418188E-003 -9.0120360255E-005  +4.3487846851E-003 -3.3628661186E-005  -9.6632599831E-001 -1.3042241335E-002 
7768001.252 -9.3536436558E-001 +3.9639860392E-002  +4.3282750994E-003 -2.3961381521E-004  +4.1981679387E-003 -1.9172555767E-004  -9.6055102348E-001 -2.1748781204E-002 
7893146.433 -9.3125265837E-001 +3.6139458418E-002  +4.4169044122E-003 -2.6731437538E-004  +4.4762338512E-003 +4.0981685743E-005  -9.5952039957E-001 -1.9966661930E-002 
8018291.615 -9.3804609776E-001 +2.6415541768E-002  +4.4988021255E-003 +4.7817942686E-005  +4.4714789838E-003 +7.1596121415E-005  -9.6121954918E-001 -1.1070862412E-002 
8143436.796 -9.3148958683E-001 +2.9639795423E-002  +4.4497759081E-003 -1.4119874686E-004  +4.3676695786E-003 -2.4605117505E-004  -9.6720409393E-001 -2.0799994469E-002 
8268581.977 -9.3715995550E-001 +2.2064760327E-002  +4.4669243507E-003 -1.2323027477E-004  +4.2443508282E-003 -2.7336063795E-006  -9.6130603552E-001 -1.5142992139E-002 
8393727.159 -9.3559026718E-001 +2.4057477713E-002  +4.4545652345E-003 -4.9647002015E-005  +4.3304748833E-003 -1.2820627308E-004  -9.6512711048E-001 -1.8264755607E-002 
8518872.340 -9.4720840454E-001 +2.0113632083E-002  +4.3139746413E-003 +1.5729008010E-004  +4.3895249255E-003 -9.7516807728E-005  -9.5210611820E-001 -1.7232082784E-002 
8644017.522 -9.3694728613E-001 +1.7359048128E-002  +4.3392889202E-003 -8.1722479081E-005  +4.3292469345E-003 +2.2531137802E-005  -9.6557861567E-001 -1.4788337052E-002 
8769162.703 -9.4065958261E-001 +1.1862967163E-002  +4.3515851721E-003 +5.5874261307E-005  +4.4495938346E-003 +5.2089017117E-005  -9.6504598856E-001 -1.2166969478E-002 
8894307.885 -9.4299405813E-001 +1.0799542069E-002  +4.3978984468E-003 +2.8836773708E-005  +4.2073498480E-003 -3.1491124537E-004  -9.6548515558E-001 -1.4384627342E-002 
9019453.066 -9.4563180208E-001 +1.2648675591E-002  +4.4347150251E-003 -5.5797230743E-005  +4.4476604089E-003 +2.9909788282E-006  -9.6018052101E-001 -1.8121857196E-002 
9144598.248 -9.4313287735E-001 +9.7302887589E-003  +4.4417148456E-003 -7.2551803896E-005  +4.4095725752E-003 -8.3228478616E-005  -9.6226257086E-001 -1.4000703581E-002 
9269743.429 -9.3995201588E-001 +1.7592154443E-002  +4.4323187321E-003 +7.4447598308E-008  +4.3534282595E-003 +5.7195429690E-006  -9.6919929981E-001 -2.3772671819E-002 
9394888.611 -9.4642722607E-001 +4.0075927973E-003  +4.3759634718E-003 -7.6490658103E-005  +4.4331508689E-003 +3.2500101952E-005  -9.6469837427E-001 -1.1595383286E-002 
9520033.792 -9.4426685572E-001 +1.1942602694E-002  +4.3467846699E-003 +4.4720683945E-005  +4.4732675888E-003 -8.0489320680E-005  -9.7067379951E-001 -2.2605888546E-002 
9645178.974 -9.5008385181E-001 +7.0095062256E-003  +4.4349944219E-003 -3.5072851460E-005  +4.4180252589E-003 -9.2260539532E-005  -9.6130502224E-001 -1.6441471875E-002 
9770324.155 -9.5044404268E-001 +2.8573870659E-003  +4.3623759411E-003 +3.8681377191E-005  +4.4718608260E-003 -3.4794560634E-005  -9.6652585268E-001 -1.1859968305E-002 
9895469.337 -9.5424276590E-001 +1.4707311988E-002  +4.4363681227E-003 -3.7477293517E-005  +4.3789842166E-003 -8.9654931799E-006  -9.6472126245E-001 -2.4601563811E-002 
10020614.518 -9.5058214664E-001 +1.0400578380E-002  +4.4224634767E-003 +1.1357601034E-004  +4.5067514293E-003 +1.7989659682E-006  -9.6868258715E-001 -2.2572338581E-002 
10145759.700 -9.5233219862E-001 +6.5508484840E-003  +4.4865822420E-003 +2.2706342861E-005  +4.3036597781E-003 -5.7231052779E-005  -9.6740043163E-001 -1.9878089428E-002 
10270904.881 -9.5072346926E-001 +3.6243796349E-003  +4.3637203053E-003 +1.2552947737E-005  +4.3655713089E-003 -2.2790045477E-005  -9.6703940630E-001 -1.5446901321E-002 
10396050.063 -9.5407694578E-001 +3.8875937462E-003  +4.3986486271E-003 +2.3981323466E-005  +4.3413676322E-003 +7.7520497143E-005  -9.6557009220E-001 -1.6707360744E-002 
10521195.244 -9.5092451572E-001 -1.7789304256E-003  +4.4076843187E-003 +4.2136176489E-005  +4.4460049830E-003 -6.5693748184E-005  -9.6494835615E-001 -1.3461142778E-002 
10646340.426 -9.5092391968E-001 +5.3748488426E-004  +4.3933517300E-003 -1.6288715415E-005  +4.3527032249E-003 +1.3819779269E-005  -9.7152388096E-001 -1.3359844685E-002 
10771485.607 -9.5206409693E-001 -6.5711140633E-004  +4.4561419636E-003 -3.0564144254E-005  +4.4992244802E-003 +5.6623364799E-005  -9.6777904034E-001 -1.5165776014E-002 
10896630.788 -9.4857752323E-001 -1.6223490238E-003  +4.3714134954E-003 -1.7859507352E-005  +4.4137267396E-003 +1.0614283383E-005  -9.7413861752E-001 -1.5402078629E-002 
11021775.970 -9.5495074987E-001 +1.1810660362E-004  +4.3972390704E-003 -1.6967998818E-005  +4.4088996947E-003 -5.6657590903E-005  -9.6619009972E-001 -1.6599327326E-002 
11146921.151 -9.5516771078E-001 -8.8742375374E-004  +4.3583889492E-003 -3.7977471948E-005  +4.3106107041E-003 -4.5019784011E-005  -9.7000396252E-001 -1.8334060907E-002 
11272066.333 -9.5446944237E-001 -1.2365281582E-003  +4.3861693703E-003 +2.3506814614E-005  +4.4349208474E-003 +5.1451846957E-005  -9.7207975388E-001 -2.0183801651E-002 
11397211.514 -9.5343524218E-001 -9.4231963158E-004  +4.3759802356E-003 +3.9112288505E-005  +4.4593699276E-003 -1.9798753783E-005  -9.7060143948E-001 -1.7893999815E-002 
11522356.696 -9.5410704613E-001 -2.1973550320E-003  +4.3804366142E-003 +5.7262368500E-006  +4.4795740396E-003 +1.8296996132E-005  -9.7124743462E-001 -1.8151521683E-002 
11647501.877 -9.5462787151E-001 -3.5853385925E-003  +4.3702120893E-003 +6.9489004090E-005  +4.4085811824E-003 -1.3641547412E-006  -9.7310137749E-001 -1.6663014889E-002 
11772647.059 -9.5769262314E-001 -6.0895681381E-003  +4.3852650560E-003 -4.0800310671E-005  +4.4461721554E-003 +5.3831608966E-005  -9.7124248743E-001 -1.8080502748E-002 
11897792.240 -9.5783579350E-001 -4.5194923878E-003  +4.4658523984E-003 -4.0479470044E-005  +4.3658628128E-003 +1.8559163436E-005  -9.7287768126E-001 -1.8304765224E-002 
12022937.422 -9.6043038368E-001 -7.4408054352E-003  +4.4292742386E-003 +3.1363451853E-005  +4.4361641631E-003 +5.6940829381E-005  -9.7041225433E-001 -1.6786962748E-002 
12148082.603 -9.6178674698E-001 -1.0268718004E-002  +4.3554459698E-003 +6.9317640737E-005  +4.4680004939E-003 -5.9748999774E-006  -9.7004848719E-001 -1.5528827906E-002 
12273227.785 -9.6359264851E-001 -9.4772875309E-003  +4.4873235747E-003 +5.7928264141E-006  +4.4136568904E-003 +4.7427834943E-005  -9.6875077486E-001 -1.7288863659E-002 
12398372.966 -9.5809984207E-001 -8.5056424141E-003  +4.4158948585E-003 +9.0701505542E-006  +4.4511780143E-003 +8.0660684034E-005  -9.7627753019E-001 -1.7285972834E-002 
12523518.148 -9.6026599407E-001 -4.9571394920E-003  +4.4258544222E-003 +3.3577205613E-005  +4.4264374301E-003 +6.2239123508E-005  -9.7511428595E-001 -1.9647300243E-002 
12648663.329 -9.6008598804E-001 -1.1014521122E-002  +4.4248923659E-003 +3.9316480979E-005  +4.4305706397E-003 +3.8899248466E-005  -9.7465163469E-001 -1.5230536461E-002 
12773808.511 -9.6608334780E-001 -9.1028511524E-003  +4.4183153659E-003 +7.8157987446E-005  +4.4634365477E-003 -9.5861032605E-006  -9.7045749426E-001 -1.9307911396E-002 
12898953.692 -9.6025013924E-001 -8.7913274765E-003  +4.4178036042E-003 +5.5541750044E-005  +4.4663380831E-003 +4.0486687794E-005  -9.7886765003E-001 -1.7853796482E-002 
13024098.874 -9.6685278416E-001 -1.1488139629E-002  +4.4198064134E-003 +7.6575670391E-005  +4.4039115310E-003 +3.2359501347E-005  -9.7276818752E-001 -1.5263468027E-002 
13149244.055 -9.6637046337E-001 -1.1228203773E-002  +4.4961255044E-003 +7.3862029240E-005  +4.4690142386E-003 +4.4931075536E-005  -9.7289085388E-001 -1.4455288649E-002 
13274389.237 -9.6562713385E-001 -9.3225538731E-003  +4.4758282602E-003 +7.3111732490E-005  +4.4725332409E-003 -1.7171259969E-006  -9.7419357300E-001 -1.8958836794E-002 
13399534.418 -9.6759808064E-001 -9.5472335815E-003  +4.4497200288E-003 -1.2366799638E-006  +4.4613284990E-003 +5.4107746109E-005  -9.7418963909E-001 -1.7579406500E-002 
13524679.599 -9.6583265066E-001 -1.2013316154E-002  +4.4522644021E-003 +6.9777946919E-005  +4.4719437137E-003 +1.9683386199E-005  -9.7717201710E-001 -1.5278905630E-002 
13649824.781 -9.7032636404E-001 -9.7503364086E-003  +4.4727870263E-003 +9.6790026873E-006  +4.4264351018E-003 +2.0534032956E-005  -9.7485589981E-001 -1.7985850573E-002 
13774969.962 -9.6910560131E-001 -1.0038614273E-002  +4.4619995169E-003 +6.7036366090E-005  +4.4784052297E-003 +2.8628390282E-005  -9.7660696507E-001 -1.9004255533E-002 
13900115.144 -9.6639966965E-001 -1.0342910886E-002  +4.4609019533E-003 +1.0292860679E-005  +4.4122696854E-003 +1.8695252948E-005  -9.7942399979E-001 -1.7041712999E-002 
14025260.325 -9.6826815605E-001 -1.0292217135E-002  +4.4385292567E-003 +5.2316405345E-005  +4.4738920406E-003 +2.5567132980E-006  -9.8039770126E-001 -1.8092945218E-002 
14150405.507 -9.7112113237E-001 -1.1050418019E-002  +4.4067725539E-003 +1.5861704014E-005  +4.4571901672E-003 +6.2820035964E-006  -9.7757792473E-001 -1.6597062349E-002 
14275550.688 -9.7215360403E-001 -1.1350706220E-002  +4.4268127531E-003 -8.9162494987E-007  +4.4548348524E-003 +2.6742927730E-006  -9.7808361053E-001 -1.6848191619E-002 
14400695.870 -9.7229057550E-001 -1.1462680995E-002  +4.4529144652E-003 +5.0635368098E-005  +4.4907899573E-003 +2.2566266125E-005  -9.8086774349E-001 -1.6578152776E-002 
