!  2-Port S-parameters saved by WinCal
! VAR MeasName=S-Parameters (CALIBRATED_DATA) read from VNA (P5004A)
! VAR MeasDate=22/05/2024 19:31:38
! VAR NAME=Wafer2_r2_c1_set5
! VAR FILENAME=Wafer2_r2_c1_set5.S2P
! VAR DATE=22/05/2024 19:31:38
! VAR PHYS_PORTS=1,2
! VAR ObjTypeName=DATASET
! VAR IndexType=Frequency
!
# Hz S RI R 50
9000.000 +2.1488392353E-001 -5.9111493826E-001  +6.8855555728E-003 +3.1339423731E-003  +1.0800729506E-003 -3.5210436909E-004  +4.2604267597E-002 +9.5111154020E-002 
134145.181 +6.9872266054E-001 +1.8833093345E-001  +6.2077902257E-003 -1.1931700259E-001  -7.9716317356E-002 +3.3281702548E-002  +2.3033566773E-001 +3.9694228768E-001 
259290.363 +9.2248523235E-001 -7.8354090452E-002  +5.0817006268E-003 -5.1873940974E-003  +5.3481291980E-003 -5.7312990539E-003  +9.2447757721E-001 -9.5654800534E-003 
384435.544 +9.2720907927E-001 -2.4376678467E-001  -4.1620568372E-003 -3.8708732463E-003  +3.1711130869E-003 +1.3915984891E-004  +1.0671387911E+000 -6.1585277319E-002 
509580.726 +9.7547405958E-001 -1.3102780282E-001  -1.3887120876E-003 -4.5000365935E-004  +2.9784528306E-004 -4.8696176964E-004  +1.0317043066E+000 -1.8535703421E-002 
634725.907 +1.0873368979E+000 -1.8100813031E-001  -4.5236627921E-004 -8.6971739074E-004  +1.3063834049E-003 +4.5065511949E-004  +1.0805325508E+000 -4.8202991486E-002 
759871.089 +1.2699640989E+000 -9.5793962479E-002  +1.9401670434E-003 +2.3574511579E-004  +2.4397107773E-003 -1.7870642478E-004  +1.1592696905E+000 -7.5209707022E-002 
885016.270 +5.3690272570E-001 -1.0889954567E+000  +4.6586776152E-003 +3.2004266977E-002  +1.3655715156E-003 +4.5912573114E-003  +1.4733000994E+000 -3.6828356981E-001 
1010161.452 +1.0163962841E+000 +2.3975536227E-002  -4.0718270466E-003 -1.7094862415E-003  +4.8252652050E-005 -1.0503628291E-003  +6.7780894041E-001 +3.3451020718E-001 
1135306.633 +1.0324242115E+000 +9.9537387490E-002  +1.6447800444E-003 -2.2266250744E-004  -1.6393751139E-003 +9.0813700808E-004  +8.6785984039E-001 +2.9847684503E-001 
1260451.815 +1.3433310986E+000 +1.2441629171E-001  +3.5764736822E-004 -6.0949637555E-004  +8.2199563622E-005 -1.0695197852E-003  +9.4203674793E-001 +2.6770025492E-001 
1385596.996 +1.2487980127E+000 -4.4311404228E-002  +5.9345300542E-004 -1.9842071924E-004  +8.1848958507E-004 +4.8309314298E-004  +9.9432766438E-001 +1.5571501851E-001 
1510742.178 +1.3652336597E+000 -1.0837829113E-001  +1.3068338158E-003 -2.5139288045E-003  +8.3359039854E-004 +2.7915250976E-003  +9.0736269951E-001 +1.8976432085E-001 
1635887.359 +9.9091321230E-001 -2.2665408254E-001  +1.9231050974E-003 +1.4045754215E-003  +6.2205386348E-004 -1.4054353815E-003  +1.1069364548E+000 +1.6034400463E-001 
1761032.541 +1.0308749676E+000 -1.7573910952E-001  -1.0386244685E-004 -5.2849738859E-004  +2.4852997740E-004 +4.3991056737E-004  +1.0566513538E+000 +1.9360208511E-001 
1886177.722 +1.0068689585E+000 -8.9989095926E-002  -1.6150764714E-004 -1.2904628238E-004  +1.5620769700E-003 +1.0247549508E-003  +1.0545010567E+000 +1.3813453913E-001 
2011322.904 +1.0091700554E+000 -5.3753346205E-002  -2.6571494527E-004 +1.8404130242E-004  -1.8521134916E-004 +2.0061161194E-005  +1.0529637337E+000 +1.3477236032E-001 
2136468.085 +1.0056698322E+000 -3.6933213472E-002  -6.0747028328E-005 +8.2196760923E-004  +2.4259973725E-004 +1.3805805065E-004  +1.0358636379E+000 +1.2592986226E-001 
2261613.267 +1.0099151134E+000 -2.1593391895E-002  +2.4821941042E-004 +5.8158271713E-005  +3.3182324842E-004 +1.2368687894E-003  +1.0264527798E+000 +1.4606097341E-001 
2386758.448 +1.0034774542E+000 -1.3934284449E-002  +3.3873494249E-004 +6.3162104925E-004  +7.3642004281E-004 +1.0235244408E-003  +1.0377342701E+000 +1.5048778057E-001 
2511903.630 +1.0073534250E+000 +5.9121847153E-003  +2.7426291490E-004 +8.5633061826E-004  -2.4232512806E-004 +5.6049320847E-004  +1.0480713844E+000 +1.7063385248E-001 
2637048.811 +1.0122934580E+000 +1.6380548477E-002  +6.6399463685E-004 +7.6862296555E-004  +2.3699719168E-004 +8.4046542179E-004  +1.0417252779E+000 +1.9539549947E-001 
2762193.992 +1.0055103302E+000 +4.6841137111E-002  +3.6381345126E-004 +9.7989011556E-004  +5.2625470562E-004 +6.3834956381E-004  +1.0278298855E+000 +2.0233723521E-001 
2887339.174 +1.0026913881E+000 +5.6497544050E-002  +5.5444572354E-004 +9.3390699476E-004  +5.3696689429E-004 +1.0058187181E-003  +1.0357637405E+000 +2.4857424200E-001 
3012484.355 +1.0111312866E+000 +7.2240784764E-002  -5.2851100918E-007 +4.5291066635E-004  +2.0994132501E-004 +1.2495476985E-003  +1.0581952333E+000 +2.8241461515E-001 
3137629.537 +1.0191872120E+000 +9.7537696362E-002  +8.1446656259E-004 +1.0930403369E-003  -1.9878926105E-004 +7.4692483759E-004  +1.0988961458E+000 +3.0625334382E-001 
3262774.718 +1.0187925100E+000 +1.0752168298E-001  -3.2941962127E-004 +1.7372420989E-003  +2.7569767553E-006 +1.3874297729E-003  +1.1317299604E+000 +3.1543421745E-001 
3387919.900 +1.0245342255E+000 +1.3312764466E-001  -3.8534036139E-004 +2.0160069689E-003  -4.7875760356E-004 +1.0207865853E-003  +1.1514368057E+000 +3.1962180138E-001 
3513065.081 +1.0353938341E+000 +1.4666023850E-001  +3.3054742380E-004 +1.2376217637E-003  +9.0885965619E-005 +1.0955287144E-003  +1.1806426048E+000 +3.4137457609E-001 
3638210.263 +1.0483416319E+000 +1.7777124047E-001  +7.0379406679E-005 +2.0952250343E-003  +9.9172262708E-005 +1.3420332689E-003  +1.2134808302E+000 +3.2912796736E-001 
3763355.444 +1.0803884268E+000 +1.7622596025E-001  +1.0459875921E-004 +1.5170888510E-003  +1.9425753271E-004 +1.6899416223E-003  +1.2588703632E+000 +3.1788921356E-001 
3888500.626 +1.0931454897E+000 +1.9869470596E-001  -4.0514577995E-004 +2.1694828756E-003  -6.9989741314E-004 +1.2736497447E-003  +1.2921103239E+000 +3.0729576945E-001 
4013645.807 +1.0635391474E+000 +1.0093494505E-001  +1.1490040924E-003 +1.7932914197E-003  +2.4480099091E-004 +1.3773723040E-003  +1.2547202110E+000 +1.3968318701E-001 
4138790.989 +9.9440687895E-001 +1.0000895709E-002  +9.2769920593E-004 +1.7382134683E-003  +3.2877858030E-004 +2.0457711071E-003  +1.1689797640E+000 +3.8226954639E-003 
4263936.170 +9.8943221569E-001 +1.2118056417E-002  +5.7908747112E-004 +1.7776632449E-003  +1.1593023082E-003 +2.6682945900E-003  +1.1667326689E+000 -3.1323418021E-002 
4389081.352 +9.9847543240E-001 -2.9446184635E-003  +8.4361119661E-004 +2.2887205705E-003  +8.9032383403E-004 +2.6848951820E-003  +1.1442935467E+000 -5.2506346256E-002 
4514226.533 +1.0075052977E+000 +7.4424259365E-003  +6.1593821738E-004 +1.9866533112E-003  +1.0676637758E-003 +2.4225469679E-003  +1.1502572298E+000 -6.5497055650E-002 
4639371.715 +1.0146560669E+000 -8.7679587305E-003  +5.9170898749E-004 +2.1448209882E-003  +9.1021513799E-004 +2.2162757814E-003  +1.1427122355E+000 -7.3619879782E-002 
4764516.896 +1.0113657713E+000 -1.6111016273E-002  +1.0741032893E-003 +2.6475552004E-003  +1.1107634054E-003 +2.5701806881E-003  +1.1327304840E+000 -9.6436418593E-002 
4889662.078 +1.0159200430E+000 -6.6796913743E-003  +8.4536400391E-004 +2.6515696663E-003  +1.0115249315E-003 +2.2381835151E-003  +1.1166850328E+000 -9.8493210971E-002 
5014807.259 +1.0059518814E+000 -1.5154078603E-002  +1.4914001804E-003 +2.0612722728E-003  +5.7748996187E-004 +2.9333005659E-003  +1.1028188467E+000 -1.0385951400E-001 
5139952.441 +1.0166083574E+000 -1.3225689530E-002  +1.1933002388E-003 +2.3892477620E-003  +1.5712672612E-003 +2.1507872734E-003  +1.1051592827E+000 -9.7763620317E-002 
5265097.622 +1.0213900805E+000 -1.1089310050E-002  +7.6046993490E-004 +2.9046044219E-003  +7.9371343600E-004 +2.3216174450E-003  +1.0839912891E+000 -1.0912740231E-001 
5390242.804 +1.0164465904E+000 -1.7046459019E-002  +1.3518673368E-003 +2.9154827353E-003  +1.1940975673E-003 +2.5669899769E-003  +1.0662921667E+000 -1.0639655590E-001 
5515387.985 +1.0170313120E+000 -2.1911211312E-002  +8.5831817705E-004 +2.8264657594E-003  +1.3316767290E-003 +2.8656695504E-003  +1.0654911995E+000 -1.1524903029E-001 
5640533.166 +1.0225375891E+000 -2.3579545319E-002  +1.0648429161E-003 +2.6570253540E-003  +1.0858644964E-003 +3.3012819476E-003  +1.0621871948E+000 -1.0947620869E-001 
5765678.348 +1.0110102892E+000 -2.7331434190E-002  +1.4338177862E-003 +3.1723883003E-003  +6.8133347668E-004 +2.8796447441E-003  +1.0545461178E+000 -1.1024637520E-001 
5890823.529 +1.0075232983E+000 -2.5129258633E-002  +8.3821068984E-004 +3.0665176455E-003  +1.1871410534E-003 +2.9593203217E-003  +1.0386362076E+000 -1.0892665386E-001 
6015968.711 +1.0103116035E+000 -3.5862796009E-002  +1.1347350664E-003 +2.8411690146E-003  +1.0684039444E-003 +3.2451171428E-003  +1.0387775898E+000 -1.0724202543E-001 
6141113.892 +1.0051606894E+000 -3.8642510772E-002  +1.5262087109E-003 +3.0448846519E-003  +1.1297008023E-003 +3.3534802496E-003  +1.0262397528E+000 -1.0340677947E-001 
6266259.074 +1.0065859556E+000 -3.7283942103E-002  +1.2256128248E-003 +3.0975132249E-003  +1.2667188421E-003 +3.2751040999E-003  +1.0229853392E+000 -9.7233891487E-002 
6391404.255 +1.0025128126E+000 -4.3803967535E-002  +1.1761621572E-003 +3.2083208207E-003  +1.1372284498E-003 +3.2928090077E-003  +1.0126688480E+000 -1.0436202586E-001 
6516549.437 +9.9887484312E-001 -3.8176089525E-002  +1.2331439648E-003 +3.2458575442E-003  +1.4355677413E-003 +3.4738942049E-003  +1.0074665546E+000 -1.0221774876E-001 
6641694.618 +1.0047761202E+000 -3.6526128650E-002  +1.0021158960E-003 +3.3331704326E-003  +1.3654356590E-003 +3.5770172253E-003  +1.0060825348E+000 -9.5438450575E-002 
6766839.800 +1.0094604492E+000 -3.6016479135E-002  +1.2645674869E-003 +3.2108493615E-003  +1.2004876044E-003 +3.6149604712E-003  +1.0042988062E+000 -9.5148861408E-002 
6891984.981 +1.0019699335E+000 -3.8199007511E-002  +1.3167459983E-003 +3.4613076132E-003  +1.3883836800E-003 +3.4389104694E-003  +9.9100255966E-001 -8.6789533496E-002 
7017130.163 +9.9952399731E-001 -3.5955965519E-002  +1.5990106622E-003 +3.6710146815E-003  +1.1543172877E-003 +3.5648420453E-003  +9.9177926779E-001 -8.3379730582E-002 
7142275.344 +9.9793863297E-001 -3.5775274038E-002  +1.3163799886E-003 +3.3611492254E-003  +1.3001423795E-003 +3.5885381512E-003  +9.9178719521E-001 -7.4494451284E-002 
7267420.526 +9.9874383211E-001 -2.8799816966E-002  +1.2472124072E-003 +3.7039690651E-003  +1.4925671276E-003 +3.6967997439E-003  +9.8903143406E-001 -7.1742430329E-002 
7392565.707 +1.0022025108E+000 -2.9107391834E-002  +1.2914023828E-003 +3.7341909483E-003  +1.3388418593E-003 +3.6077825353E-003  +9.9299430847E-001 -7.4882179499E-002 
7517710.889 +9.9895429611E-001 -3.2031431794E-002  +1.1906719301E-003 +3.9345235564E-003  +1.2629055418E-003 +3.7781738210E-003  +9.8405140638E-001 -6.8165227771E-002 
7642856.070 +9.9506789446E-001 -2.6570484042E-002  +1.3030950213E-003 +3.9101685397E-003  +1.4590080827E-003 +3.9437166415E-003  +9.7575712204E-001 -7.1263119578E-002 
7768001.252 +9.9771541357E-001 -2.6788517833E-002  +1.3572957832E-003 +3.8372827694E-003  +1.3654007344E-003 +3.7895441055E-003  +9.7314518690E-001 -6.8407610059E-002 
7893146.433 +9.9876058102E-001 -2.8478994966E-002  +1.2645935640E-003 +3.9303489029E-003  +1.2615438318E-003 +3.8330804091E-003  +9.7444868088E-001 -5.9389233589E-002 
8018291.615 +9.9033248425E-001 -2.7484148741E-002  +1.4992933720E-003 +3.8988701999E-003  +1.4024064876E-003 +3.8432434667E-003  +9.7078508139E-001 -6.0719788074E-002 
8143436.796 +9.8516702652E-001 -3.1762495637E-002  +1.3578191865E-003 +3.9483136497E-003  +1.3262818102E-003 +3.9476579987E-003  +9.7204607725E-001 -5.2385747433E-002 
8268581.977 +9.8515295982E-001 -2.8067916632E-002  +1.1265331414E-003 +3.9899391122E-003  +1.3063612860E-003 +3.9609493688E-003  +9.6961212158E-001 -5.1036208868E-002 
8393727.159 +9.8619723320E-001 -2.8242796659E-002  +1.3162606629E-003 +4.2640026659E-003  +1.5952168033E-003 +4.0988135152E-003  +9.6960061789E-001 -4.5566171408E-002 
8518872.340 +9.9013006687E-001 -2.7584433556E-002  +1.4342791401E-003 +4.1776383296E-003  +1.4610416256E-003 +4.0138415061E-003  +9.6802914143E-001 -4.4911444187E-002 
8644017.522 +9.8811215162E-001 -2.3648262024E-002  +1.3176029315E-003 +4.2049703188E-003  +1.3065378880E-003 +4.2651961558E-003  +9.7102206945E-001 -4.4636458158E-002 
8769162.703 +9.9364393950E-001 -2.2376775742E-002  +1.4310794650E-003 +4.2792726308E-003  +1.3809093507E-003 +4.2798835784E-003  +9.7181403637E-001 -4.4632673264E-002 
8894307.885 +9.8881494999E-001 -2.3676663637E-002  +1.3389540836E-003 +4.3111154810E-003  +1.3460337650E-003 +4.1246060282E-003  +9.6736449003E-001 -4.5098125935E-002 
9019453.066 +9.8884379864E-001 -2.4245411158E-002  +1.4384507667E-003 +4.4115725905E-003  +1.3336816337E-003 +4.4032162987E-003  +9.6900922060E-001 -4.4530928135E-002 
9144598.248 +9.8773837090E-001 -2.4241358042E-002  +1.3288835762E-003 +4.6034324914E-003  +1.3292341027E-003 +4.4693211094E-003  +9.6716701984E-001 -3.8011312485E-002 
9269743.429 +9.8854416609E-001 -2.1634668112E-002  +1.3310643844E-003 +4.5160595328E-003  +1.4099015389E-003 +4.4690892100E-003  +9.6968048811E-001 -3.3932447433E-002 
9394888.611 +9.8751330376E-001 -1.6973018646E-002  +1.4405432157E-003 +4.5873536728E-003  +1.2928320793E-003 +4.5724939555E-003  +9.6679645777E-001 -3.7242084742E-002 
9520033.792 +9.8715347052E-001 -2.0438075066E-002  +1.2810766930E-003 +4.6248985454E-003  +1.5314972261E-003 +4.6163159423E-003  +9.6715182066E-001 -3.2612740993E-002 
9645178.974 +9.8754680157E-001 -1.7051607370E-002  +1.3719038107E-003 +4.6566762030E-003  +1.3512758305E-003 +4.6672248282E-003  +9.6678793430E-001 -2.9235273600E-002 
9770324.155 +9.8723506927E-001 -1.4645814896E-002  +1.3093561865E-003 +4.6700444072E-003  +1.3995325426E-003 +4.7023841180E-003  +9.6545571089E-001 -2.7344077826E-002 
9895469.337 +9.8732370138E-001 -1.3280123472E-002  +1.3921249192E-003 +4.9162181094E-003  +1.4039061498E-003 +4.7608073801E-003  +9.6702373028E-001 -2.5965869427E-002 
10020614.518 +9.8851966858E-001 -1.1828184128E-002  +1.3335385593E-003 +4.9333767965E-003  +1.3887336245E-003 +4.7887489200E-003  +9.6740281582E-001 -2.2136807442E-002 
10145759.700 +9.8737013340E-001 -1.3051569462E-002  +1.4605795732E-003 +4.9071293324E-003  +1.3991034357E-003 +5.0539309159E-003  +9.6915519238E-001 -2.3961722851E-002 
10270904.881 +9.8931407928E-001 -1.2089043856E-002  +1.3704571174E-003 +5.0704404712E-003  +1.4591889922E-003 +5.0243530422E-003  +9.7217082977E-001 -2.2056698799E-002 
10396050.063 +9.8727053404E-001 -1.1372268200E-002  +1.5157621820E-003 +5.0635649823E-003  +1.4089053730E-003 +5.0101922825E-003  +9.7116428614E-001 -1.8267571926E-002 
10521195.244 +9.8986780643E-001 -1.0120600462E-002  +1.4530648477E-003 +5.1565752365E-003  +1.3253467623E-003 +5.1572239026E-003  +9.7170871496E-001 -1.7684191465E-002 
10646340.426 +9.8842537403E-001 -1.1178165674E-002  +1.3812470715E-003 +5.2110943943E-003  +1.3922639191E-003 +5.2136285231E-003  +9.7283720970E-001 -1.5474498272E-002 
10771485.607 +9.8736250401E-001 -1.2762308121E-002  +1.3905465603E-003 +5.2970666438E-003  +1.4561223798E-003 +5.2568102255E-003  +9.7302174568E-001 -1.4573961496E-002 
10896630.788 +9.8836743832E-001 -1.0196417570E-002  +1.2241688091E-003 +5.3501510993E-003  +1.3948562555E-003 +5.3654387593E-003  +9.7158026695E-001 -1.2842625380E-002 
11021775.970 +9.8890626431E-001 -9.3474686146E-003  +1.3493008446E-003 +5.3429687396E-003  +1.4073890634E-003 +5.4007130675E-003  +9.7369813919E-001 -1.1103242636E-002 
11146921.151 +9.8802137375E-001 -1.1331230402E-002  +1.4298800379E-003 +5.4238839075E-003  +1.4992016368E-003 +5.4531884380E-003  +9.7578907013E-001 -8.9407265186E-003 
11272066.333 +9.8771286011E-001 -1.0649621487E-002  +1.4411540469E-003 +5.4806526750E-003  +1.3559571235E-003 +5.5433725938E-003  +9.7450757027E-001 -9.2340707779E-003 
11397211.514 +9.8892188072E-001 -8.8057518005E-003  +1.4240674209E-003 +5.5798194371E-003  +1.4106846647E-003 +5.6062927470E-003  +9.7614783049E-001 -8.6309015751E-003 
11522356.696 +9.8929715157E-001 -9.2645883560E-003  +1.3820094755E-003 +5.6237289682E-003  +1.4901165850E-003 +5.6335334666E-003  +9.7596943378E-001 -9.4185769558E-003 
11647501.877 +9.8702788353E-001 -7.5383186340E-003  +1.4467567671E-003 +5.6457011960E-003  +1.4194222167E-003 +5.7009300217E-003  +9.7491830587E-001 -9.1263055801E-003 
11772647.059 +9.8804342747E-001 -7.8388452530E-003  +1.4340806520E-003 +5.7758954354E-003  +1.4674240956E-003 +5.7525062002E-003  +9.7551375628E-001 -8.9661180973E-003 
11897792.240 +9.8802280426E-001 -7.4644684792E-003  +1.3940470526E-003 +5.8165122755E-003  +1.4709717361E-003 +5.7700835168E-003  +9.7665756941E-001 -8.3552598953E-003 
12022937.422 +9.9031841755E-001 -6.1131715775E-003  +1.4701796463E-003 +5.8366283774E-003  +1.4196428237E-003 +5.8228741400E-003  +9.7713196278E-001 -8.6956620216E-003 
12148082.603 +9.9091708660E-001 -6.6453814507E-003  +1.4729709364E-003 +5.8653359301E-003  +1.3865358196E-003 +5.8993659914E-003  +9.7932714224E-001 -5.5250227451E-003 
12273227.785 +9.9061369896E-001 -4.9634277821E-003  +1.3991668820E-003 +5.9465966187E-003  +1.4758850448E-003 +5.9634903446E-003  +9.7899353504E-001 -6.4752995968E-003 
12398372.966 +9.9045526981E-001 -5.4732859135E-003  +1.4408248244E-003 +6.0400459915E-003  +1.4658768196E-003 +6.0498518869E-003  +9.8084855080E-001 -6.6905915737E-003 
12523518.148 +9.8920840025E-001 -4.3091773987E-003  +1.4233485563E-003 +6.0786250979E-003  +1.5107960207E-003 +6.0739503242E-003  +9.7891938686E-001 -7.3568522930E-003 
12648663.329 +9.9125963449E-001 -4.6161711216E-003  +1.4670134988E-003 +6.1241923831E-003  +1.4207266504E-003 +6.1433226801E-003  +9.8053961992E-001 -5.4994225502E-003 
12773808.511 +9.9159419537E-001 -5.7678818703E-003  +1.4121248387E-003 +6.1713205650E-003  +1.4623324387E-003 +6.1817909591E-003  +9.8152619600E-001 -5.6299269199E-003 
12898953.692 +9.9162775278E-001 -5.0285607576E-003  +1.4400789514E-003 +6.2273228541E-003  +1.4739684993E-003 +6.2649264000E-003  +9.8188751936E-001 -5.8575347066E-003 
13024098.874 +9.9108392000E-001 -4.5200958848E-003  +1.4096947853E-003 +6.3108569011E-003  +1.4523089631E-003 +6.3006728888E-003  +9.8147875071E-001 -4.7608539462E-003 
13149244.055 +9.9182927608E-001 -3.5386849195E-003  +1.4297887683E-003 +6.3898293301E-003  +1.4450285817E-003 +6.3493507914E-003  +9.8289227486E-001 -3.5678222775E-003 
13274389.237 +9.9205380678E-001 -4.2983870953E-003  +1.4005202102E-003 +6.4150067046E-003  +1.4674090780E-003 +6.4482330345E-003  +9.8393893242E-001 -4.4500548393E-003 
13399534.418 +9.9274587631E-001 -3.9674341679E-003  +1.4561747666E-003 +6.4632296562E-003  +1.5003213193E-003 +6.5058590844E-003  +9.8287135363E-001 -3.1484737992E-003 
13524679.599 +9.9145436287E-001 -3.9435178041E-003  +1.5371595509E-003 +6.5593933687E-003  +1.4620043803E-003 +6.5246871673E-003  +9.8369020224E-001 -3.4402161837E-003 
13649824.781 +9.9318253994E-001 -4.2975991964E-003  +1.4832516899E-003 +6.6017992795E-003  +1.4696317958E-003 +6.6060777754E-003  +9.8522436619E-001 -4.3450891972E-003 
13774969.962 +9.9208593369E-001 -3.6146193743E-003  +1.4686437789E-003 +6.6823889501E-003  +1.4160586288E-003 +6.6591249779E-003  +9.8455119133E-001 -3.7343949080E-003 
13900115.144 +9.9307239056E-001 -3.7117302418E-003  +1.4601853909E-003 +6.7072501406E-003  +1.2562355259E-003 +6.6783111542E-003  +9.8475617170E-001 -3.6308467388E-003 
14025260.325 +9.9257797003E-001 -2.9923319817E-003  +1.4762696810E-003 +6.7289359868E-003  +1.3550200965E-003 +6.7513091490E-003  +9.8534947634E-001 -3.2986700535E-003 
14150405.507 +9.9229514599E-001 -3.2242238522E-003  +1.4956831001E-003 +6.8590654992E-003  +1.5006712638E-003 +6.8122884259E-003  +9.8560059071E-001 -1.8022060394E-003 
14275550.688 +9.9304127693E-001 -2.5322735310E-003  +1.5857652761E-003 +6.9056442007E-003  +1.5563210472E-003 +6.8523338996E-003  +9.8609477282E-001 -3.3433139324E-003 
14400695.870 +9.9136829376E-001 -2.9090940952E-003  +1.5181193594E-003 +6.9100251421E-003  +1.5216320753E-003 +6.9385915995E-003  +9.8572975397E-001 -1.8941462040E-003 
