!  2-Port S-parameters saved by WinCal
! VAR MeasName=S-Parameters (CALIBRATED_DATA) read from VNA (P5004A)
! VAR MeasDate=22/05/2024 19:38:18
! VAR NAME=Wafer2_r2_c1_reset3
! VAR FILENAME=Wafer2_r2_c1_reset3.S2P
! VAR DATE=22/05/2024 19:38:18
! VAR PHYS_PORTS=1,2
! VAR ObjTypeName=DATASET
! VAR IndexType=Frequency
!
# Hz S RI R 50
9000.000 +2.0952770114E-001 -5.9746414423E-001  +9.7374366596E-003 +8.2148686051E-003  +3.4570563585E-003 +8.8862003759E-004  +5.0344202667E-002 +1.0141368210E-001 
134145.181 +6.8505489826E-001 +9.2459589243E-002  -4.9039479345E-003 -4.2043045163E-002  -2.1734766662E-002 -2.3957373574E-002  +1.0093729496E+000 +1.6805490851E-001 
259290.363 +8.5439914465E-001 -6.6833063960E-002  +5.0779343583E-003 -6.2285996974E-003  +8.3034960553E-003 -1.4956249855E-002  +1.0782223940E+000 -3.3062666655E-002 
384435.544 +9.1885805130E-001 -2.3494204879E-001  +2.2918577306E-003 +2.8207467403E-004  -3.6673760042E-003 +6.4613725990E-003  +1.0756450891E+000 -2.3339927197E-002 
509580.726 +9.6271181107E-001 -1.3141973317E-001  -1.1371290311E-003 +1.0867475066E-003  +8.1120268442E-004 +1.3214686187E-003  +1.0475773811E+000 -2.3579731584E-002 
634725.907 +1.0852730274E+000 -1.8463188410E-001  +1.0107639246E-003 +3.3895793604E-004  -2.6698704460E-005 -4.8724462977E-004  +1.0845289230E+000 -4.7602146864E-002 
759871.089 +1.2644667625E+000 -9.3641266227E-002  +1.0454448638E-003 +3.6225334043E-004  -1.8245485262E-004 -7.9226592788E-004  +1.1507877111E+000 -8.7870955467E-002 
885016.270 +7.6686030626E-001 -1.1166684628E+000  -3.6658733152E-003 -1.4376847073E-002  +3.2520808745E-003 +1.1091686320E-003  +1.5971336365E+000 -4.0069383383E-001 
1010161.452 +1.0066744089E+000 +6.0630440712E-003  +1.8365394499E-004 +1.9224147545E-003  +3.6094668321E-003 +1.1015622877E-003  +6.9053822756E-001 +3.4621363878E-001 
1135306.633 +9.9587589502E-001 +1.3868041337E-001  +1.3161408424E-004 -1.0562714888E-003  +2.1859065164E-003 -1.5125707723E-003  +8.7673938274E-001 +3.1003224850E-001 
1260451.815 +1.3436633348E+000 +7.6917767525E-002  -2.6253418764E-004 +3.0764762778E-004  +1.6477226745E-004 -1.2718030484E-003  +9.4974976778E-001 +2.9298231006E-001 
1385596.996 +1.2541303635E+000 -9.9259853363E-002  -1.5185501252E-004 +1.9301754946E-004  -7.6605632785E-005 -4.2083588778E-004  +9.8486578465E-001 +1.5843957663E-001 
1510742.178 +1.3672496080E+000 -1.7369693518E-001  -1.1010412709E-004 -2.9842343793E-005  +1.0748882778E-003 -5.0085975090E-004  +8.9139133692E-001 +1.8815836310E-001 
1635887.359 +9.8788958788E-001 -2.4424494803E-001  +3.9229221875E-004 -1.2364831055E-003  -3.2290761010E-004 +1.2364231225E-005  +1.1082459688E+000 +1.5753623843E-001 
1761032.541 +1.0168324709E+000 -2.2523209453E-001  -1.7305140500E-004 +1.5986680228E-004  +1.7082853010E-003 +2.2562141530E-003  +1.0573109388E+000 +2.0057308674E-001 
1886177.722 +1.0010457039E+000 -1.1412122846E-001  -1.1305059888E-004 -6.7626812961E-004  +3.2191362698E-004 +1.5399203403E-004  +1.0562127829E+000 +1.5179148316E-001 
2011322.904 +1.0144275427E+000 -7.3193103075E-002  +5.9383292682E-004 +1.0657111416E-003  -9.1507728212E-004 +5.5916642305E-004  +1.0528470278E+000 +1.4745604992E-001 
2136468.085 +1.0034409761E+000 -4.5974344015E-002  +5.3327140631E-004 +2.5025341893E-004  -2.0874691836E-004 -6.6897919169E-005  +1.0380997658E+000 +1.3042223454E-001 
2261613.267 +1.0082263947E+000 -3.6799162626E-002  -1.1354365852E-003 -5.0700560678E-005  +8.8729088020E-005 +1.2714874174E-004  +1.0220793486E+000 +1.5731456876E-001 
2386758.448 +1.0097817183E+000 -1.6642153263E-002  -1.8651696155E-004 +1.3700287673E-004  -3.4342939034E-004 +1.3554948964E-005  +1.0328034163E+000 +1.5615299344E-001 
2511903.630 +1.0099714994E+000 +5.6902170181E-003  -4.0221188101E-004 +2.1083863976E-004  -3.3686100505E-004 +5.5598653853E-004  +1.0493297577E+000 +1.8080428243E-001 
2637048.811 +1.0170798302E+000 +1.6278952360E-002  +1.8486744375E-004 +4.8246770166E-004  -1.3086956460E-004 +1.2049206998E-003  +1.0338300467E+000 +2.0437368751E-001 
2762193.992 +1.0078072548E+000 +3.9233580232E-002  -1.3731788204E-004 +6.6856876947E-004  -3.6764107062E-004 +4.1681696894E-004  +1.0253301859E+000 +2.1222163737E-001 
2887339.174 +1.0054267645E+000 +5.7773053646E-002  -3.4603301901E-004 +4.6412053052E-004  +4.2484904407E-004 +9.0470979922E-004  +1.0219067335E+000 +2.5269839168E-001 
3012484.355 +1.0135614872E+000 +8.1272751093E-002  -6.6141248681E-004 +8.0800178694E-004  -1.2200616766E-006 +1.1518131942E-003  +1.0579650402E+000 +2.9070371389E-001 
3137629.537 +1.0220203400E+000 +9.5235407352E-002  -4.2229320388E-004 +1.1539418483E-003  -5.2944122581E-004 +4.0139711928E-004  +1.0919640064E+000 +3.0729123950E-001 
3262774.718 +1.0229073763E+000 +1.0794082284E-001  -7.6844403520E-004 +5.2422034787E-004  +4.6658977226E-005 +2.7661820059E-004  +1.1183562279E+000 +3.1666654348E-001 
3387919.900 +1.0240576267E+000 +1.2468762696E-001  -4.1782174958E-004 +1.2589809485E-003  -5.8444851311E-004 +4.6823750017E-004  +1.1481845379E+000 +3.2424378395E-001 
3513065.081 +1.0405280590E+000 +1.4079155028E-001  -7.8449724242E-004 +8.9118944015E-004  -5.4858159274E-004 +1.2578249443E-003  +1.1712263823E+000 +3.4897357225E-001 
3638210.263 +1.0576279163E+000 +1.7493812740E-001  -3.1413577381E-004 +1.2121455511E-003  -8.2890829071E-004 +8.2246429520E-004  +1.2216974497E+000 +3.2375454903E-001 
3763355.444 +1.0794295073E+000 +1.8817114830E-001  -1.3302643783E-003 +1.0905566160E-003  -7.6784112025E-004 +1.0752497474E-003  +1.2558398247E+000 +3.1141948700E-001 
3888500.626 +1.0988084078E+000 +1.9980251789E-001  -9.4295688905E-004 +1.3560929801E-003  -8.8745728135E-004 +8.5951038636E-004  +1.2934237719E+000 +3.2049530745E-001 
4013645.807 +1.0618821383E+000 +9.6246331930E-002  -8.1862160005E-004 +1.8281126395E-003  -4.4945141417E-004 +1.8883447628E-003  +1.2627917528E+000 +1.4962892234E-001 
4138790.989 +1.0016446114E+000 +3.2301135361E-003  -7.9246814130E-004 +1.5359760728E-003  -6.2007876113E-004 +2.0163494628E-003  +1.1780372858E+000 +2.3138239980E-002 
4263936.170 +9.9444031715E-001 +8.1210359931E-003  +4.2232408305E-005 +2.1042693406E-003  -5.1714465371E-005 +2.7536088601E-003  +1.1693198681E+000 -1.1282511055E-002 
4389081.352 +1.0049238205E+000 -7.9210922122E-003  -9.0305670165E-004 +2.4479420390E-003  -4.9401645083E-004 +1.6631355975E-003  +1.1533058882E+000 -3.7619933486E-002 
4514226.533 +1.0117343664E+000 -1.3949081302E-002  +1.2346437143E-004 +2.5503481738E-003  -9.6930458676E-004 +2.4146868382E-003  +1.1519361734E+000 -5.2909135818E-002 
4639371.715 +1.0260719061E+000 -2.1230451763E-002  +1.1183808965E-004 +2.3642478045E-003  -1.0594661580E-003 +2.1039673593E-003  +1.1473035812E+000 -5.6086461991E-002 
4764516.896 +1.0141893625E+000 -1.9239187241E-002  +1.8134275160E-004 +2.0514042117E-003  -2.5190159795E-004 +2.2000467870E-003  +1.1417376995E+000 -7.2382658720E-002 
4889662.078 +1.0191916227E+000 -1.9563309848E-002  -1.5719633666E-004 +2.0085161086E-003  -2.4518358987E-004 +2.8402209282E-003  +1.1253964901E+000 -7.7576108277E-002 
5014807.259 +1.0103653669E+000 -2.5133952498E-002  -6.9914141204E-004 +2.4278396741E-003  -3.9262807695E-004 +3.0522998422E-003  +1.1131582260E+000 -8.1172056496E-002 
5139952.441 +1.0205644369E+000 -2.5454789400E-002  -1.0513212328E-004 +2.4955545086E-003  -5.5329321185E-004 +2.4350022431E-003  +1.1005260944E+000 -9.4453349710E-002 
5265097.622 +1.0176929235E+000 -2.9308669269E-002  -1.6010861145E-005 +2.7349046431E-003  -2.0423582464E-004 +2.7735093608E-003  +1.0884093046E+000 -9.9143400788E-002 
5390242.804 +1.0252631903E+000 -2.5724731386E-002  +4.6258763177E-005 +2.6681444142E-003  -5.7500565890E-004 +2.6085460559E-003  +1.0752935410E+000 -9.7882039845E-002 
5515387.985 +1.0214668512E+000 -2.9645860195E-002  +7.3882983997E-005 +2.9190650675E-003  -2.0272185793E-005 +3.3790306188E-003  +1.0655010939E+000 -1.0375089198E-001 
5640533.166 +1.0236905813E+000 -2.8925456107E-002  -1.9470052212E-004 +2.8811136726E-003  +2.1900632419E-005 +2.4569041561E-003  +1.0646947622E+000 -1.0817443579E-001 
5765678.348 +1.0137864351E+000 -2.9501684010E-002  -1.7382766237E-004 +2.8157103807E-003  -3.9137669955E-004 +2.6880328078E-003  +1.0526725054E+000 -1.0416997224E-001 
5890823.529 +1.0152802467E+000 -3.8786128163E-002  +6.3855433837E-004 +2.8849553782E-003  -2.2381689632E-005 +3.0485161114E-003  +1.0416725874E+000 -1.1313131452E-001 
6015968.711 +1.0131785870E+000 -3.9610482752E-002  -1.9510679704E-004 +3.1299130060E-003  -3.7950483966E-004 +2.8244368732E-003  +1.0384261608E+000 -1.0385303944E-001 
6141113.892 +1.0108772516E+000 -3.6255389452E-002  -5.0386221847E-004 +2.6639874559E-003  -1.1662917677E-004 +3.0360887758E-003  +1.0303035975E+000 -1.0211712122E-001 
6266259.074 +1.0095839500E+000 -3.6243431270E-002  -1.6951590078E-004 +3.3529507928E-003  +8.2033482613E-005 +2.9227081686E-003  +1.0243041515E+000 -9.7605742514E-002 
6391404.255 +1.0056024790E+000 -4.4556304812E-002  -8.3970953710E-006 +3.0550665688E-003  -7.8280834714E-005 +3.2527374569E-003  +1.0156656504E+000 -1.0165267438E-001 
6516549.437 +1.0035786629E+000 -4.4691935182E-002  +1.1583781452E-004 +3.5619961563E-003  -1.6854557907E-004 +3.2037287019E-003  +1.0164507627E+000 -9.2498742044E-002 
6641694.618 +1.0093866587E+000 -3.5257861018E-002  -1.3984407997E-004 +3.4382464364E-003  +1.6272399807E-004 +3.4161689691E-003  +1.0137405396E+000 -9.1094896197E-002 
6766839.800 +1.0123077631E+000 -3.5848334432E-002  +2.4648557883E-004 +3.8114045747E-003  -1.6394120757E-004 +3.0955437105E-003  +1.0082917213E+000 -8.8163614273E-002 
6891984.981 +1.0062333345E+000 -3.9074629545E-002  +8.8049011538E-005 +3.2613845542E-003  -1.1190949590E-004 +3.7554600276E-003  +9.9413263798E-001 -9.2710942030E-002 
7017130.163 +1.0014582872E+000 -4.0900632739E-002  +2.3797497852E-004 +3.4369910136E-003  -5.8975536376E-005 +3.5067601129E-003  +9.9635130167E-001 -8.4293976426E-002 
7142275.344 +1.0026284456E+000 -3.6245003343E-002  +1.3037188910E-004 +3.8341972977E-003  -1.8378594541E-004 +3.3930898644E-003  +9.9703186750E-001 -7.4161559343E-002 
7267420.526 +1.0002107620E+000 -2.6756748557E-002  -1.2923398754E-004 +3.6447460297E-003  +1.3185257558E-005 +3.6594837438E-003  +9.9170029163E-001 -7.2204425931E-002 
7392565.707 +1.0040743351E+000 -3.0836999416E-002  +7.2988332249E-006 +3.8106765132E-003  +2.1003274014E-004 +3.4610847943E-003  +9.9156641960E-001 -7.5723141432E-002 
7517710.889 +1.0021392107E+000 -3.4486904740E-002  -3.3101241570E-005 +3.8751089014E-003  -1.8422649009E-004 +3.9818547666E-003  +9.8548913002E-001 -7.2737812996E-002 
7642856.070 +9.9616158009E-001 -3.1717240810E-002  +1.6260135453E-005 +3.6970437504E-003  +1.1327024549E-004 +3.6288448609E-003  +9.7841894627E-001 -7.4713930488E-002 
7768001.252 +1.0011813641E+000 -3.1625390053E-002  +2.7066882467E-004 +3.8304207847E-003  +2.0062969998E-004 +3.8787752856E-003  +9.7670894861E-001 -6.8196728826E-002 
7893146.433 +9.9995887280E-001 -2.7679800987E-002  +4.1788793169E-005 +4.0093315765E-003  -1.7258804291E-005 +3.9675831795E-003  +9.7509551048E-001 -6.2209039927E-002 
8018291.615 +9.9422997236E-001 -3.2810151577E-002  +9.2878472060E-005 +3.9580054581E-003  +1.3468216639E-004 +3.7450366654E-003  +9.7084927559E-001 -6.1449572444E-002 
8143436.796 +9.9181991816E-001 -3.3434465528E-002  -1.1433270993E-004 +4.0669585578E-003  +1.2556661386E-004 +4.0328935720E-003  +9.7315078974E-001 -5.3940221667E-002 
8268581.977 +9.8817324638E-001 -3.0474901199E-002  +7.0961425081E-005 +3.8868535776E-003  +5.5092386901E-005 +3.8544433191E-003  +9.7182077169E-001 -4.5351207256E-002 
8393727.159 +9.8576027155E-001 -3.6050826311E-002  +6.5450323746E-005 +4.1498159990E-003  -1.7221900634E-005 +4.1642379947E-003  +9.7365945578E-001 -4.6347409487E-002 
8518872.340 +9.9228644371E-001 -3.1736880541E-002  +1.6876496375E-005 +4.2034592479E-003  +7.0598674938E-005 +4.0574795566E-003  +9.7116959095E-001 -4.5569479465E-002 
8644017.522 +9.8901712894E-001 -2.6159912348E-002  -8.1402016804E-005 +4.1281809099E-003  +1.0595226195E-004 +4.1895015165E-003  +9.7393405437E-001 -4.6056896448E-002 
8769162.703 +9.9227285385E-001 -2.6791363955E-002  -8.0302706920E-005 +4.2477371171E-003  +4.7172768973E-005 +4.2225867510E-003  +9.7324788570E-001 -4.3412089348E-002 
8894307.885 +9.8961699009E-001 -2.8394252062E-002  +5.1161507145E-005 +4.3244641274E-003  -1.3503967784E-004 +4.5865708962E-003  +9.7089016438E-001 -4.6396225691E-002 
9019453.066 +9.8973160982E-001 -2.9991865158E-002  +4.7021312639E-006 +4.3314490467E-003  +1.6428378876E-004 +4.4306656346E-003  +9.7049969435E-001 -4.1880786419E-002 
9144598.248 +9.8815196753E-001 -2.9608875513E-002  +1.0982423555E-004 +4.3895705603E-003  +1.5129987150E-004 +4.4052172452E-003  +9.7045940161E-001 -3.8111686707E-002 
9269743.429 +9.8836910725E-001 -2.6504069567E-002  +1.5217077453E-004 +4.6061822213E-003  +9.8600285128E-005 +4.5940084383E-003  +9.7179877758E-001 -3.4267842770E-002 
9394888.611 +9.8964762688E-001 -2.2821754217E-002  -1.0523165110E-004 +4.6411901712E-003  +6.2620965764E-006 +4.5425235294E-003  +9.6815240383E-001 -3.5838633776E-002 
9520033.792 +9.8872536421E-001 -2.5697857141E-002  +3.8056634367E-005 +4.6891914681E-003  +1.1548306793E-004 +4.4868644327E-003  +9.6972751617E-001 -3.0679285526E-002 
9645178.974 +9.8966485262E-001 -2.1138727665E-002  +1.0227668099E-004 +4.6687540598E-003  +5.6450488046E-005 +4.6592340805E-003  +9.6835494041E-001 -3.1415730715E-002 
9770324.155 +9.8636633158E-001 -1.8878430128E-002  -1.6671139747E-005 +4.7953883186E-003  +1.6396143474E-004 +4.7148237936E-003  +9.6560913324E-001 -2.8903186321E-002 
9895469.337 +9.8858666420E-001 -1.8410265446E-002  -3.1409552321E-005 +4.8628868535E-003  +5.1307957619E-005 +4.7473465092E-003  +9.6806943417E-001 -2.5292396545E-002 
10020614.518 +9.8900711536E-001 -1.5682488680E-002  +1.0870536789E-004 +4.9647130072E-003  +5.7743862271E-005 +4.9694664776E-003  +9.6838665009E-001 -2.3336529732E-002 
10145759.700 +9.8885691166E-001 -1.7701655626E-002  +2.9596034437E-005 +4.8993066885E-003  +1.0619778186E-004 +4.9496726133E-003  +9.7041511536E-001 -2.3432016373E-002 
10270904.881 +9.9154752493E-001 -1.6854822636E-002  +3.1676609069E-006 +4.9247490242E-003  +4.4780550525E-005 +5.0200577825E-003  +9.7170460224E-001 -2.2846430540E-002 
10396050.063 +9.8790371418E-001 -1.6471177340E-002  +1.4643068425E-004 +5.0957272761E-003  +4.9302587286E-005 +4.9868188798E-003  +9.7032165527E-001 -1.9932717085E-002 
10521195.244 +9.9090743065E-001 -1.4165610075E-002  +1.9091134891E-004 +5.2140597254E-003  -1.1797761545E-005 +5.2181771025E-003  +9.7429025173E-001 -1.7975568771E-002 
10646340.426 +9.9027502537E-001 -1.4679431915E-002  +1.2427894399E-004 +5.2056135610E-003  +3.3194199204E-005 +5.2582342178E-003  +9.7269159555E-001 -1.6133010387E-002 
10771485.607 +9.8986893892E-001 -1.2532621622E-002  +6.0641439632E-005 +5.3162742406E-003  +8.2199228927E-005 +5.2462853491E-003  +9.7591102123E-001 -1.4483600855E-002 
10896630.788 +9.8995649815E-001 -1.1623382568E-002  +3.7018209696E-005 +5.2715106867E-003  +4.3360749260E-005 +5.3582740948E-003  +9.7360628843E-001 -1.2731373310E-002 
11021775.970 +9.8997920752E-001 -9.8193585873E-003  +9.7078271210E-005 +5.4046045989E-003  +7.0152804255E-005 +5.4360916838E-003  +9.7540283203E-001 -1.2699723244E-002 
11146921.151 +9.9002671242E-001 -1.1578083038E-002  +1.1787470430E-004 +5.4707759991E-003  +9.8176067695E-005 +5.4497667588E-003  +9.7640752792E-001 -1.0878235102E-002 
11272066.333 +9.8731064796E-001 -1.0512173176E-002  +2.0917435177E-004 +5.4870299064E-003  +5.9524783865E-005 +5.4769823328E-003  +9.7497844696E-001 -1.1331290007E-002 
11397211.514 +9.9089270830E-001 -1.0489732027E-002  +1.2389267795E-004 +5.6101856753E-003  +9.1335736215E-005 +5.5650658906E-003  +9.7536015511E-001 -1.2685537338E-002 
11522356.696 +9.9034285545E-001 -1.0082572699E-002  +1.3104872778E-004 +5.6724813767E-003  +1.4528492466E-004 +5.5983192287E-003  +9.7784835100E-001 -1.2192726135E-002 
11647501.877 +9.8963415623E-001 -9.5024406910E-003  +1.5672389418E-004 +5.6865094230E-003  +1.0646088049E-004 +5.6981802918E-003  +9.7656798363E-001 -9.9551081657E-003 
11772647.059 +9.9023878574E-001 -7.9517066479E-003  +8.6004380137E-005 +5.7532987557E-003  +1.0725716129E-004 +5.7398178615E-003  +9.7792339325E-001 -9.2264413834E-003 
11897792.240 +9.9053663015E-001 -8.2460939884E-003  +1.1686445214E-004 +5.7816677727E-003  +1.8102978356E-004 +5.8110035025E-003  +9.7844606638E-001 -8.7678134441E-003 
12022937.422 +9.9194252491E-001 -7.1271359921E-003  +1.4712964185E-004 +5.8535696007E-003  +2.2323918529E-004 +5.8981524780E-003  +9.7966760397E-001 -8.1597268581E-003 
12148082.603 +9.9192881584E-001 -7.6673626900E-003  +1.6315211542E-004 +5.9564928524E-003  +1.2227264233E-004 +5.9827486984E-003  +9.8061156273E-001 -7.4481964111E-003 
12273227.785 +9.9243015051E-001 -6.1641633511E-003  +1.7524114810E-004 +5.9365285560E-003  +1.4432158787E-004 +5.9257708490E-003  +9.8031544685E-001 -6.9568753242E-003 
12398372.966 +9.9232161045E-001 -7.5753331184E-003  +1.6690278426E-004 +5.9868083335E-003  +1.4858378563E-004 +6.0514593497E-003  +9.8182892799E-001 -6.0522556305E-003 
12523518.148 +9.9158167839E-001 -6.0615092516E-003  +1.4826562256E-004 +6.0898382217E-003  +1.6797799617E-004 +6.1366790906E-003  +9.8114675283E-001 -6.8895071745E-003 
12648663.329 +9.9300783873E-001 -6.1168670654E-003  +1.7225090414E-004 +6.1547337100E-003  +1.6772968229E-004 +6.1616189778E-003  +9.8204296827E-001 -5.3098797798E-003 
12773808.511 +9.9188083410E-001 -7.1637332439E-003  +1.4620821457E-004 +6.2325461768E-003  +1.5348807210E-004 +6.1774645001E-003  +9.8253494501E-001 -4.7819614410E-003 
12898953.692 +9.9335396290E-001 -6.5344348550E-003  +1.7260503955E-004 +6.3280873001E-003  +1.8300308147E-004 +6.2658516690E-003  +9.8281943798E-001 -5.5371224880E-003 
13024098.874 +9.9330580235E-001 -6.0983225703E-003  +1.7066684086E-004 +6.3223680481E-003  +2.3503339617E-004 +6.3406610861E-003  +9.8347771168E-001 -3.6548599601E-003 
13149244.055 +9.9387466908E-001 -5.4407473654E-003  +1.3531664445E-004 +6.3925059512E-003  +1.2913026148E-004 +6.4027360640E-003  +9.8402702808E-001 -3.3244974911E-003 
13274389.237 +9.9372941256E-001 -6.5655447543E-003  +1.9481763593E-004 +6.4402418211E-003  +1.7180382565E-004 +6.4350278117E-003  +9.8528778553E-001 -3.6579202861E-003 
13399534.418 +9.9378573895E-001 -5.7989135385E-003  +1.7696939176E-004 +6.4869821072E-003  +1.6749056522E-004 +6.5305661410E-003  +9.8524105549E-001 -2.9203668237E-003 
13524679.599 +9.9355638027E-001 -4.5633018017E-003  +1.8491008086E-004 +6.5945540555E-003  +1.7741997726E-004 +6.6183498129E-003  +9.8589783907E-001 -3.0479431152E-003 
13649824.781 +9.9510389566E-001 -5.5784285069E-003  +1.9345444161E-004 +6.6568218172E-003  +1.8378824461E-004 +6.6275079735E-003  +9.8634403944E-001 -3.6364048719E-003 
13774969.962 +9.9434345961E-001 -5.8738738298E-003  +2.3386930116E-004 +6.6163404845E-003  +2.1802342962E-004 +6.6721937619E-003  +9.8651582003E-001 -3.3910721540E-003 
13900115.144 +9.9500632286E-001 -5.1485598087E-003  +1.9524910022E-004 +6.7266537808E-003  +2.4863658473E-004 +6.7338831723E-003  +9.8563718796E-001 -2.2673308849E-003 
14025260.325 +9.9416774511E-001 -4.3641626835E-003  +2.3842556402E-004 +6.7968862131E-003  +1.9191345200E-004 +6.7850309424E-003  +9.8716396093E-001 -2.9905140400E-003 
14150405.507 +9.9461126328E-001 -3.4952461720E-003  +1.8208101392E-004 +6.8816542625E-003  +1.5091663226E-004 +6.8272463977E-003  +9.8680394888E-001 -1.6189813614E-003 
14275550.688 +9.9519342184E-001 -4.3243467808E-003  +2.5221263058E-004 +6.9202603772E-003  +2.0872685127E-004 +6.9207502529E-003  +9.8761600256E-001 -2.5860071182E-003 
14400695.870 +9.9386250973E-001 -4.5955181122E-003  +2.1018297412E-004 +6.9714635611E-003  +2.0143715665E-004 +6.9577824324E-003  +9.8725521564E-001 -2.3663341999E-003 
