!  2-Port S-parameters saved by WinCal
! VAR MeasName=S-Parameters (CALIBRATED_DATA) read from VNA (P5004A)
! VAR MeasDate=22/05/2024 18:19:10
! VAR NAME=Wafer2_r2_c1_pristine_neg1.6dc
! VAR FILENAME=Wafer2_r2_c1_pristine_neg1.6dc.S2P
! VAR DATE=22/05/2024 18:19:10
! VAR PHYS_PORTS=1,2
! VAR ObjTypeName=DATASET
! VAR IndexType=Frequency
!
# Hz S RI R 50
9000.000 +2.1863862872E-001 -5.9336048365E-001  -6.1134421267E-003 +8.2378415391E-004  -1.2793459464E-003 -2.1232350264E-004  +5.4692905396E-002 +1.1903922260E-001 
134145.181 +6.2525635958E-001 -6.4199894667E-002  +7.5311055407E-003 -7.5738178566E-005  -8.9129861444E-003 -9.1762114316E-003  -2.2066634893E-001 -7.9042744637E-001 
259290.363 +8.2257688046E-001 -1.3082584739E-001  -9.1947782785E-003 -1.3561953790E-002  -1.2019522488E-002 -3.6832680926E-003  +1.5280574560E+000 -5.9558308125E-001 
384435.544 +8.7164711952E-001 -3.1014454365E-001  +3.8327395450E-003 -5.2872742526E-004  -4.4711511582E-003 +2.9753804207E-002  +4.0522136688E+000 -2.9617834091E-001 
509580.726 +9.4749909639E-001 -1.6644158959E-001  -7.2855302133E-003 +4.4531724416E-003  +4.3591675349E-003 +3.7930207327E-003  +1.8449797630E+000 -2.0547044277E-001 
634725.907 +1.0887895823E+000 -2.0178496838E-001  -3.8352916017E-003 +3.0970966327E-004  +4.0608918061E-004 -5.7290014811E-003  +1.9436231852E+000 +9.4398915768E-001 
759871.089 +1.2657303810E+000 -4.6751916409E-002  +1.5272368910E-004 +8.8718748884E-004  -1.1706165969E-003 -1.8003393780E-004  +1.4287383556E+000 +4.4558668137E-001 
885016.270 +1.1190702915E+000 -2.9701903462E-001  +9.0138096130E-004 +1.1118520051E-003  -3.8515406777E-004 -1.1021483224E-003  +1.1921768188E+000 +5.0539541245E-001 
1010161.452 +1.2437210083E+000 -8.1244677305E-002  +1.0424307548E-003 -3.2445590477E-004  -2.9182134313E-004 +4.8298464390E-004  +1.1832363605E+000 +4.9541330338E-001 
1135306.633 +1.3273653984E+000 -1.0482199490E-001  -6.8447150989E-004 -1.5638476179E-004  -1.2572461856E-004 +4.2055844096E-004  +1.2980682850E+000 +6.0893785954E-001 
1260451.815 +1.5510897636E+000 -1.1584323645E-001  -3.8215401582E-004 -2.8183800168E-004  +5.3165433928E-004 -5.2083533956E-004  +1.1000177860E+000 +7.0380014181E-001 
1385596.996 +1.3815720081E+000 -1.2468129396E-001  -1.0646341252E-005 +1.6182720719E-004  -4.5211781980E-005 +1.4947861200E-004  +9.8694956303E-001 +4.8224115372E-001 
1510742.178 +1.6160781384E+000 -1.5489771962E-001  +6.3686849899E-005 +2.2994686151E-004  -6.7526285420E-005 +1.5059841098E-004  +6.8032193184E-001 +5.7388836145E-001 
1635887.359 +1.1314719915E+000 -3.7868681550E-001  -3.7688361772E-005 -1.4324177755E-004  +1.3799143198E-004 +1.4138416736E-004  +1.5222862959E+000 +6.2927961349E-001 
1761032.541 +1.2857168913E+000 -3.2491353154E-001  -2.6032273308E-004 +1.0177145305E-004  -3.7766626338E-004 +2.6859997888E-005  +1.1049170494E+000 +8.2719194889E-001 
1886177.722 +1.2201185226E+000 -2.4461248517E-001  -4.7990967869E-004 +3.0637744931E-004  -5.7646706409E-005 +2.6958732633E-004  +1.1453254223E+000 +5.5853724480E-001 
2011322.904 +1.2050261497E+000 -2.3971447349E-001  -2.2596071358E-004 +3.6515248939E-004  -1.8669647397E-004 +3.0861856067E-004  +1.1581795216E+000 +5.2602022886E-001 
2136468.085 +1.2029120922E+000 -1.9645035267E-001  -3.4308110480E-004 +5.0255318638E-004  -1.7088369350E-004 +2.6404048549E-004  +1.0971050262E+000 +4.7774747014E-001 
2261613.267 +1.2200224400E+000 -1.9230827689E-001  -3.2844740781E-004 +4.6228640713E-004  -4.2313398444E-004 +2.0943126583E-004  +1.0539977551E+000 +5.1583153009E-001 
2386758.448 +1.2371903658E+000 -2.0680215955E-001  -7.2342838394E-004 +4.2413175106E-004  -5.2776391385E-004 +5.0361000467E-004  +1.0729551315E+000 +5.4522550106E-001 
2511903.630 +1.2384439707E+000 -2.2622215748E-001  -1.0819474119E-004 +5.8561732294E-004  -3.8331467658E-004 +6.3092692290E-004  +1.1156045198E+000 +5.7996225357E-001 
2637048.811 +1.2004503012E+000 -2.5572726130E-001  -2.7863684227E-004 +9.7420858219E-004  -3.1922216294E-004 +6.8425963400E-004  +1.1245592833E+000 +6.0800492764E-001 
2762193.992 +1.1483089924E+000 -1.7037835717E-001  -4.4002075447E-004 +7.6565227937E-004  -6.0986483004E-004 +6.3749501714E-004  +1.1398246288E+000 +5.0954818726E-001 
2887339.174 +1.1765723228E+000 -1.2964317203E-001  -7.0370244794E-004 +9.3573046615E-004  -4.5490649063E-004 +1.1668566149E-003  +9.9235874414E-001 +5.0429183245E-001 
3012484.355 +1.2335298061E+000 -1.3469761610E-001  -1.0979142971E-003 +4.9102306366E-004  -1.5101791359E-004 +8.5867632879E-004  +9.4878381491E-001 +6.1366319656E-001 
3137629.537 +1.2346134186E+000 -1.4099073410E-001  -5.9693207731E-004 +9.2524301726E-004  -8.4638339467E-004 +3.8665061584E-004  +9.6864295006E-001 +7.2139382362E-001 
3262774.718 +1.2435885668E+000 -1.5406483412E-001  -1.0899592889E-003 +1.0007176315E-003  -8.5804105038E-004 +8.0528541002E-004  +1.0148741007E+000 +7.8763788939E-001 
3387919.900 +1.2390049696E+000 -1.7741721869E-001  -1.4658859000E-003 +2.1358462982E-004  -8.6701364489E-004 +5.4625427583E-004  +1.0594155788E+000 +8.5658127069E-001 
3513065.081 +1.2512342930E+000 -1.9836372137E-001  -6.8569625728E-004 +1.2072038371E-003  -5.8966915822E-004 +8.0383359455E-004  +1.0911380053E+000 +9.3077069521E-001 
3638210.263 +1.2692788839E+000 -2.0491468906E-001  -6.3287094235E-004 -7.6834548963E-005  -6.1934348196E-004 +1.1932018679E-003  +1.1923124790E+000 +9.7422218323E-001 
3763355.444 +1.2833144665E+000 -2.3745584488E-001  -6.9713650737E-004 +1.1043329723E-003  -6.2067754334E-004 +1.5618628822E-003  +1.2821497917E+000 +1.0033140182E+000 
3888500.626 +1.2725389004E+000 -2.8340625763E-001  -5.9700076235E-004 +1.6550607979E-003  -1.4599505812E-003 +1.0514039313E-003  +1.3700330257E+000 +1.0671143532E+000 
4013645.807 +1.0619856119E+000 -3.9410012960E-001  -1.1362816440E-003 +1.2819732074E-003  -8.6616742192E-004 +2.5268888567E-003  +1.6485512257E+000 +8.6263537407E-001 
4138790.989 +8.6880946159E-001 -4.1987481713E-001  +3.2145855948E-004 +3.0679015908E-003  -2.9340776382E-004 +1.9416240975E-003  +1.7861003876E+000 +5.3861618042E-001 
4263936.170 +8.3172279596E-001 -4.1116064787E-001  -8.3233573241E-004 +2.8830906376E-003  -3.7880579475E-004 +2.2639895324E-003  +1.8328831196E+000 +4.3505474925E-001 
4389081.352 +7.9356402159E-001 -4.0100622177E-001  +5.3832854610E-004 +2.1857509855E-003  +6.7584915087E-007 +3.3354919869E-003  +1.8850837946E+000 +3.0765205622E-001 
4514226.533 +7.6264828444E-001 -4.0348458290E-001  +6.9508765591E-004 +1.9524438540E-003  -1.5031080693E-005 +3.0059763230E-003  +1.9154763222E+000 +2.1396723390E-001 
4639371.715 +7.4032908678E-001 -3.8198676705E-001  +5.5426772451E-004 +2.4000403937E-003  +1.6881359625E-004 +2.8840920422E-003  +1.9048739672E+000 +1.3757500052E-001 
4764516.896 +7.0755594969E-001 -3.6934581399E-001  +5.2562693600E-004 +2.5209893938E-003  +6.1809178442E-004 +2.3219340947E-003  +1.9063779116E+000 +4.5876428485E-002 
4889662.078 +6.8322020769E-001 -3.4294274449E-001  +6.1637203908E-004 +2.8097706381E-003  +1.3040677877E-003 +2.2708850447E-003  +1.9137320518E+000 -3.5804584622E-002 
5014807.259 +6.5488600731E-001 -3.2237523794E-001  -2.4132714316E-004 +2.8006394859E-003  +9.5245341072E-006 +2.4233791046E-003  +1.8638958931E+000 -9.6925780177E-002 
5139952.441 +6.3516581059E-001 -2.9888981581E-001  -1.7048059090E-004 +2.7350967284E-003  +7.7994517051E-004 +3.2944446430E-003  +1.8385803699E+000 -1.9609934092E-001 
5265097.622 +6.1606967449E-001 -2.6776137948E-001  +4.8659177264E-004 +3.0041781720E-003  +7.7919574687E-004 +2.9539209791E-003  +1.7866761684E+000 -2.5228720903E-001 
5390242.804 +6.0332280397E-001 -2.3812597990E-001  +1.2663990492E-004 +2.7428141329E-003  +1.4136602113E-004 +2.9020328075E-003  +1.7338331938E+000 -3.0704328418E-001 
5515387.985 +5.9768986702E-001 -2.0982697606E-001  +2.0021990349E-004 +2.1954653785E-003  +3.8795080036E-004 +3.3909869380E-003  +1.6986479759E+000 -3.8526368141E-001 
5640533.166 +5.8686912060E-001 -1.7423805594E-001  +7.3984725168E-004 +2.4666257668E-003  +6.8583741086E-004 +3.0745572876E-003  +1.6636288166E+000 -4.1835519671E-001 
5765678.348 +5.7495468855E-001 -1.4597980678E-001  +1.5918322606E-004 +2.6478599757E-003  +4.8149883514E-004 +2.3475561757E-003  +1.6086454391E+000 -4.5618951321E-001 
5890823.529 +5.6880480051E-001 -1.1715670675E-001  +7.1302813012E-004 +2.9224259779E-003  +8.2625856157E-004 +2.3762905039E-003  +1.5460870266E+000 -4.8268732429E-001 
6015968.711 +5.6520408392E-001 -9.2985801399E-002  +5.8569730027E-004 +2.7659970801E-003  +6.1623170041E-004 +2.4468032643E-003  +1.5106453896E+000 -5.0301671028E-001 
6141113.892 +5.6345939636E-001 -6.2176212668E-002  +2.3654138204E-004 +2.4542976171E-003  +4.0603874368E-004 +2.6552057825E-003  +1.4503740072E+000 -5.1486343145E-001 
6266259.074 +5.6640440226E-001 -3.1635973603E-002  +4.0396433906E-004 +2.8988264967E-003  +5.5174226873E-004 +2.5611456949E-003  +1.3910934925E+000 -5.3347784281E-001 
6391404.255 +5.6655454636E-001 -5.1591601223E-003  +6.6984177101E-004 +2.5327899493E-003  +5.0637323875E-004 +2.8439615853E-003  +1.3364130259E+000 -5.4974520206E-001 
6516549.437 +5.6820178032E-001 +2.4684170261E-002  +5.3262000438E-004 +2.7478919365E-003  +1.4782839571E-004 +2.7909660712E-003  +1.2968876362E+000 -5.5285549164E-001 
6641694.618 +5.8050227165E-001 +6.0060475022E-002  +2.6565871667E-004 +3.1461778563E-003  +3.9301835932E-004 +2.6686203200E-003  +1.2689774036E+000 -5.4738116264E-001 
6766839.800 +5.8680719137E-001 +8.8634870946E-002  +4.7767395154E-004 +2.8624664992E-003  +4.6995352022E-005 +2.8316788375E-003  +1.2235430479E+000 -5.5218857527E-001 
6891984.981 +5.9744083881E-001 +1.0896772146E-001  +3.8106963621E-004 +3.1279749237E-003  +4.2663121712E-004 +3.0178823508E-003  +1.1680196524E+000 -5.4273605347E-001 
7017130.163 +6.0701608658E-001 +1.3578948379E-001  +3.1696521910E-004 +3.0464192387E-003  +4.0282096597E-004 +3.1569085550E-003  +1.1468769312E+000 -5.2398860455E-001 
7142275.344 +6.1657947302E-001 +1.6407188773E-001  +3.1263061101E-004 +3.3767924178E-003  +1.6492200666E-004 +3.2545442227E-003  +1.1115947962E+000 -5.2428662777E-001 
7267420.526 +6.3218402863E-001 +1.9057381153E-001  +6.1129860114E-005 +3.1532729045E-003  +4.7696338152E-004 +3.1636294443E-003  +1.0818116665E+000 -5.1223057508E-001 
7392565.707 +6.4883792400E-001 +2.1499164402E-001  +3.6147749051E-004 +3.1861627940E-003  +3.2560862019E-004 +3.2419334166E-003  +1.0499409437E+000 -5.0639384985E-001 
7517710.889 +6.6556823254E-001 +2.3879028857E-001  +2.0473869517E-004 +3.1259199604E-003  -1.2087082723E-005 +3.3524460159E-003  +1.0208694935E+000 -4.9035489559E-001 
7642856.070 +6.8130272627E-001 +2.5854521990E-001  +1.1729839025E-004 +3.3863121644E-003  +1.1699995957E-004 +3.2269426156E-003  +9.8904484510E-001 -4.8437696695E-001 
7768001.252 +7.0712131262E-001 +2.7899473906E-001  +7.9341873061E-005 +3.3217004966E-003  -1.5500292648E-005 +3.1327097677E-003  +9.6203958988E-001 -4.7116672993E-001 
7893146.433 +7.2682619095E-001 +2.9684600234E-001  +3.6061741412E-005 +3.5738518927E-003  -8.8267028332E-005 +3.2640381251E-003  +9.4188362360E-001 -4.5067375898E-001 
8018291.615 +7.5196915865E-001 +3.1349280477E-001  -9.3450711574E-005 +3.3156436402E-003  +1.8643162912E-004 +3.4894626588E-003  +9.1320729256E-001 -4.3969112635E-001 
8143436.796 +7.7363574505E-001 +3.2267573476E-001  +3.6420708057E-005 +3.5143038258E-003  +3.8598722313E-005 +3.3927862532E-003  +8.9851784706E-001 -4.2324680090E-001 
8268581.977 +7.9765188694E-001 +3.3873525262E-001  +7.2337687016E-005 +3.6384696141E-003  +6.1912694946E-005 +3.6111383233E-003  +8.7930244207E-001 -4.0397357941E-001 
8393727.159 +8.2458782196E-001 +3.4585979581E-001  +2.0994164515E-005 +3.6359771620E-003  -2.8785876930E-004 +3.5257227719E-003  +8.6588913202E-001 -3.8606187701E-001 
8518872.340 +8.5549342632E-001 +3.5410729051E-001  -1.0086956900E-004 +3.6381853279E-003  +1.5071709640E-005 +3.8076378405E-003  +8.4578734636E-001 -3.7018704414E-001 
8644017.522 +8.7672209740E-001 +3.5949823260E-001  -1.1880189413E-004 +3.7086035591E-003  -2.4205457885E-004 +3.7412778474E-003  +8.3218145370E-001 -3.5756322742E-001 
8769162.703 +9.0757203102E-001 +3.6803108454E-001  -1.6985542607E-004 +3.9371717721E-003  -2.6799301850E-004 +3.7520001642E-003  +8.2013165951E-001 -3.4277740121E-001 
8894307.885 +9.3671369553E-001 +3.6644887924E-001  -1.5561375767E-004 +4.0708361194E-003  -2.0877958741E-004 +3.9094914682E-003  +8.0083757639E-001 -3.2964599133E-001 
9019453.066 +9.6305078268E-001 +3.6595863104E-001  -1.8951122183E-004 +4.0625887923E-003  -2.0404055249E-004 +4.0706386790E-003  +7.9058802128E-001 -3.1279736757E-001 
9144598.248 +9.9275028706E-001 +3.6071333289E-001  -2.3446592968E-004 +4.2271260172E-003  -1.8990214448E-004 +4.2815082707E-003  +7.7952831984E-001 -2.9416185617E-001 
9269743.429 +1.0184969902E+000 +3.5721659660E-001  -2.7299381327E-004 +4.2357789353E-003  -2.9356579762E-004 +4.2153885588E-003  +7.7041089535E-001 -2.7862918377E-001 
9394888.611 +1.0434901714E+000 +3.5388383269E-001  -2.8692407068E-004 +4.2550773360E-003  -2.4863437284E-004 +4.2686490342E-003  +7.6060271263E-001 -2.6295572519E-001 
9520033.792 +1.0727380514E+000 +3.3908057213E-001  -1.5131803229E-004 +4.3748416938E-003  -2.6830891147E-004 +4.3702591211E-003  +7.5406146049E-001 -2.4316489697E-001 
9645178.974 +1.0965200663E+000 +3.2936680317E-001  -1.7742998898E-004 +4.5465091243E-003  -3.4417817369E-004 +4.5745507814E-003  +7.4429541826E-001 -2.2661533952E-001 
9770324.155 +1.1190837622E+000 +3.1843313575E-001  -1.4734140132E-004 +4.5980135910E-003  -2.7155620046E-004 +4.6280287206E-003  +7.3852831125E-001 -2.1021842957E-001 
9895469.337 +1.1388782263E+000 +3.0635720491E-001  -1.5919329599E-004 +4.6060150489E-003  -3.4079607576E-004 +4.6615200117E-003  +7.3209184408E-001 -1.9199445844E-001 
10020614.518 +1.1607873440E+000 +2.9089078307E-001  -1.8075248227E-004 +4.7003449872E-003  -2.4784193374E-004 +4.7612376511E-003  +7.2678756714E-001 -1.7660465837E-001 
10145759.700 +1.1779499054E+000 +2.6995912194E-001  -3.1239190139E-004 +4.7452608123E-003  -2.0197313279E-004 +4.8538153060E-003  +7.2353279591E-001 -1.6011628509E-001 
10270904.881 +1.1977422237E+000 +2.4720749259E-001  -1.7488934100E-004 +4.9350368790E-003  -2.3064459674E-004 +4.9166511744E-003  +7.2239077091E-001 -1.4488592744E-001 
10396050.063 +1.2087256908E+000 +2.2772049904E-001  -1.7237523571E-004 +4.9620624632E-003  -1.6279984266E-004 +5.0273318775E-003  +7.1879661083E-001 -1.2756276131E-001 
10521195.244 +1.2214753628E+000 +2.1017521620E-001  -2.4008681066E-004 +5.0851013511E-003  -1.5899795108E-004 +5.0524724647E-003  +7.1737992764E-001 -1.1281830072E-001 
10646340.426 +1.2297635078E+000 +1.8906825781E-001  -1.4747329988E-004 +5.1200697199E-003  -2.0913989283E-004 +5.1975352690E-003  +7.1716499329E-001 -9.5313191414E-002 
10771485.607 +1.2370234728E+000 +1.6721683741E-001  -1.5357276425E-004 +5.2515137941E-003  -1.5446566977E-004 +5.2231284790E-003  +7.1742439270E-001 -7.9590499401E-002 
10896630.788 +1.2409152985E+000 +1.4672464132E-001  -1.8838839605E-004 +5.2826981992E-003  -1.7306068912E-004 +5.2177533507E-003  +7.1692174673E-001 -6.4223527908E-002 
11021775.970 +1.2452762127E+000 +1.2686723471E-001  -2.0741950721E-005 +5.3519257344E-003  -1.5742494725E-004 +5.3222700953E-003  +7.1754938364E-001 -4.9545258284E-002 
11146921.151 +1.2486855984E+000 +1.0358393192E-001  -1.6200519167E-004 +5.4248040542E-003  -1.5450734645E-004 +5.5032456294E-003  +7.1817743778E-001 -3.4803092480E-002 
11272066.333 +1.2476644516E+000 +8.2703709602E-002  -2.1458626725E-004 +5.4750423878E-003  -1.2352643535E-004 +5.5066845380E-003  +7.1932440996E-001 -2.1488308907E-002 
11397211.514 +1.2477999926E+000 +6.5424263477E-002  -1.1247582734E-004 +5.6036161259E-003  -1.4276010916E-004 +5.5802036077E-003  +7.2479182482E-001 -7.6249837875E-003 
11522356.696 +1.2468490601E+000 +4.7318637371E-002  -1.6613514163E-004 +5.6180898100E-003  -7.4435723945E-005 +5.6597464718E-003  +7.2800940275E-001 +8.2614123821E-003 
11647501.877 +1.2420160770E+000 +3.1432151794E-002  -1.0262266733E-004 +5.6761968881E-003  -1.2787338346E-004 +5.7457918301E-003  +7.3134458065E-001 +2.1725803614E-002 
11772647.059 +1.2372183800E+000 +1.3828277588E-002  -1.1767819524E-004 +5.7408940047E-003  -1.0442873463E-004 +5.7717566378E-003  +7.3548942804E-001 +3.5101175308E-002 
11897792.240 +1.2310216427E+000 -2.5092363358E-003  -9.1006048024E-005 +5.8772391640E-003  -8.9270528406E-005 +5.8138123713E-003  +7.4199360609E-001 +4.7479003668E-002 
12022937.422 +1.2264549732E+000 -1.5292912722E-002  -6.5488275141E-005 +5.8799185790E-003  -1.0352022946E-004 +5.9418552555E-003  +7.4668383598E-001 +5.9241056442E-002 
12148082.603 +1.2197579145E+000 -3.0330628157E-002  -5.7271681726E-005 +5.9577934444E-003  -9.3688024208E-005 +5.9163989499E-003  +7.5433897972E-001 +7.2807759047E-002 
12273227.785 +1.2123014927E+000 -4.1554272175E-002  -9.7155105323E-005 +6.0424325056E-003  -5.1514478400E-005 +5.9958323836E-003  +7.6090061665E-001 +8.3477213979E-002 
12398372.966 +1.2037858963E+000 -5.4944843054E-002  -6.1797560193E-005 +6.0834358446E-003  -5.3740921430E-005 +6.1008203775E-003  +7.6922684908E-001 +9.5028027892E-002 
12523518.148 +1.1937599182E+000 -6.4493834972E-002  -1.1924933642E-004 +6.1289323494E-003  -8.9029315859E-005 +6.0682883486E-003  +7.7647519112E-001 +1.0549429059E-001 
12648663.329 +1.1851242781E+000 -7.5419902802E-002  -5.0251954235E-005 +6.2594995834E-003  +1.2946780771E-005 +6.2020760961E-003  +7.8553479910E-001 +1.1606833339E-001 
12773808.511 +1.1753534079E+000 -8.4537893534E-002  -1.9842060283E-005 +6.2728105113E-003  -3.1234580092E-005 +6.2349610962E-003  +7.9544073343E-001 +1.2628874183E-001 
12898953.692 +1.1678397655E+000 -9.3371689320E-002  -2.3192318622E-005 +6.3692950644E-003  -8.1455800682E-007 +6.3486373983E-003  +8.0376887321E-001 +1.3569100201E-001 
13024098.874 +1.1570128202E+000 -9.9229387939E-002  -6.8006804213E-005 +6.4470954239E-003  -4.7155161155E-005 +6.4818253741E-003  +8.1430697441E-001 +1.4475648105E-001 
13149244.055 +1.1471848488E+000 -1.0606846958E-001  -5.9947895352E-005 +6.4732236788E-003  -8.3574792370E-005 +6.5405913629E-003  +8.2397186756E-001 +1.5259581804E-001 
13274389.237 +1.1372693777E+000 -1.1251579970E-001  -1.3706012396E-005 +6.5122633241E-003  -2.7472968213E-005 +6.5477378666E-003  +8.3610051870E-001 +1.6083431244E-001 
13399534.418 +1.1273524761E+000 -1.1758229136E-001  -2.1659827325E-005 +6.6216913983E-003  -4.2270170525E-005 +6.6453157924E-003  +8.4629601240E-001 +1.6836722195E-001 
13524679.599 +1.1178762913E+000 -1.2085445225E-001  -2.6564812288E-005 +6.7525585182E-003  +3.5363365896E-005 +6.7035770044E-003  +8.5858678818E-001 +1.7480705678E-001 
13649824.781 +1.1088415384E+000 -1.2593090534E-001  +2.6274472475E-005 +6.7655006424E-003  +4.8941001296E-007 +6.7558176816E-003  +8.7097060680E-001 +1.8087893724E-001 
13774969.962 +1.0989611149E+000 -1.2868650258E-001  -1.2508244254E-005 +6.8583120592E-003  -5.4839299992E-005 +6.8714539520E-003  +8.8260322809E-001 +1.8463875353E-001 
13900115.144 +1.0893561840E+000 -1.3114529848E-001  +2.4819979444E-005 +6.9061736576E-003  +2.4800538085E-005 +6.8926638924E-003  +8.9382541180E-001 +1.8981990218E-001 
14025260.325 +1.0798928738E+000 -1.3363271952E-001  -9.7719021142E-007 +6.9533642381E-003  -6.1029568315E-006 +6.9821327925E-003  +9.0637618303E-001 +1.9316458702E-001 
14150405.507 +1.0712531805E+000 -1.3367661834E-001  +1.3151904568E-005 +7.0596672595E-003  +1.7935642973E-005 +7.0704380050E-003  +9.1924279928E-001 +1.9596263766E-001 
14275550.688 +1.0619585514E+000 -1.3553920388E-001  +4.6996399760E-005 +7.1362964809E-003  +5.2050454542E-005 +7.1611227468E-003  +9.3193995953E-001 +1.9774937630E-001 
14400695.870 +1.0533096790E+000 -1.3641032577E-001  +5.8820005506E-005 +7.1647353470E-003  +6.6770706326E-005 +7.2068432346E-003  +9.4484269619E-001 +1.9891518354E-001 
