!  2-Port S-parameters saved by WinCal
! VAR MeasName=S-Parameters (CALIBRATED_DATA) read from VNA (P5004A)
! VAR MeasDate=22/05/2024 18:07:01
! VAR NAME=Wafer2_r2_c1_pristine_neg0.2dc
! VAR FILENAME=Wafer2_r2_c1_pristine_neg0.2dc.S2P
! VAR DATE=22/05/2024 18:07:01
! VAR PHYS_PORTS=1,2
! VAR ObjTypeName=DATASET
! VAR IndexType=Frequency
!
# Hz S RI R 50
9000.000 +2.1453280747E-001 -5.8302259445E-001  -9.4580538571E-003 -1.4400381595E-002  -1.8811137415E-003 -2.3553892970E-003  +5.1089212298E-002 +8.3755068481E-002 
134145.181 +6.3787966967E-001 -6.2892623246E-002  +1.7229104415E-003 -2.4132927880E-002  -3.6765425466E-003 -5.8887200430E-003  -5.6823045015E-002 -3.3582666516E-001 
259290.363 +7.9648983479E-001 -1.3850381970E-001  -1.4456843957E-002 -1.8679343164E-002  -3.7367646582E-003 -8.3639416844E-003  +8.7256371975E-001 -1.0261005163E+000 
384435.544 +8.5909467936E-001 -3.1095498800E-001  +1.7701327801E-002 +1.2018097565E-002  +1.1930705979E-002 -4.1422449052E-002  +4.0587797165E+000 -3.5855722427E+000 
509580.726 +9.4677245617E-001 -1.7584255338E-001  -3.0248546973E-003 +1.2057458516E-003  +6.9312192500E-004 -1.6216843505E-004  +1.7864868641E+000 -4.1728240252E-001 
634725.907 +1.1031454802E+000 -2.0955955982E-001  +1.8757784273E-003 -8.8859314565E-004  +3.2991520129E-003 -3.0844304711E-003  +2.6907415390E+000 +3.4942853451E-001 
759871.089 +1.2617864609E+000 -2.2742211819E-002  -8.8784628315E-004 -4.3197197374E-004  +1.1846311390E-003 -1.2247670675E-003  +1.4530901909E+000 +4.1653317213E-001 
885016.270 +1.1977602243E+000 -1.3099227846E-001  -1.2003789889E-003 +7.8404392116E-004  -2.2545803222E-004 -6.1495011323E-006  +1.2083592415E+000 +5.0587272644E-001 
1010161.452 +1.3255729675E+000 -5.9963062406E-002  -9.3028217088E-004 +2.3084439454E-004  +4.3616910261E-005 -2.2018958407E-004  +1.1901513338E+000 +4.9760538340E-001 
1135306.633 +1.4664460421E+000 -1.2243010104E-001  -1.3737949484E-004 +1.3298915292E-004  -1.3030128321E-003 -1.7402289086E-004  +1.3057632446E+000 +6.2126362324E-001 
1260451.815 +1.6618889570E+000 -1.0982269049E-001  -1.5477830311E-004 +2.8609298170E-004  -7.1499886690E-004 -6.8375334376E-004  +1.0993069410E+000 +7.1419978142E-001 
1385596.996 +1.4304738045E+000 -1.1197638512E-001  +1.7080134421E-004 +2.0727544324E-004  -1.1708066450E-004 +7.2014561738E-005  +9.8517489433E-001 +4.8572599888E-001 
1510742.178 +1.6883776188E+000 -1.1025744677E-001  +1.6713087098E-004 +2.8851526440E-004  -1.1078076204E-004 +2.7119345032E-004  +6.7863142490E-001 +5.7438766956E-001 
1635887.359 +1.1838462353E+000 -3.7854075432E-001  +1.6942247748E-004 +2.7048660559E-004  -9.1892972705E-005 +2.1968332294E-004  +1.5207129717E+000 +6.3099312782E-001 
1761032.541 +1.3638718128E+000 -2.7428135276E-001  +4.8002046242E-005 +1.2188009714E-004  -2.6535181678E-004 +2.7774579939E-004  +1.1024167538E+000 +8.2587885857E-001 
1886177.722 +1.2891482115E+000 -1.9709569216E-001  -1.5528681979E-004 +1.7522873532E-004  -5.5736432842E-005 +1.9785319455E-004  +1.1446722746E+000 +5.5804193020E-001 
2011322.904 +1.2968666553E+000 -1.8729308248E-001  -1.3544388639E-004 +2.0894187037E-004  -8.3676815848E-005 +2.2984275711E-004  +1.1578291655E+000 +5.2466350794E-001 
2136468.085 +1.2987884283E+000 -1.1345306039E-001  -2.1946625202E-004 +2.7700598002E-004  -4.9511865654E-005 +3.5873547313E-004  +1.0972433090E+000 +4.7697344422E-001 
2261613.267 +1.3325797319E+000 -1.0519553721E-001  -3.6694310256E-004 +3.9584448677E-004  -1.7523729184E-004 +2.3666514608E-004  +1.0547195673E+000 +5.1477062702E-001 
2386758.448 +1.3552924395E+000 -1.0486921668E-001  -3.6658585304E-004 +5.2536558360E-004  -4.0666252607E-004 +5.2822584985E-004  +1.0741916895E+000 +5.4395306110E-001 
2511903.630 +1.4042726755E+000 -1.0743781924E-001  -2.3211812368E-004 +4.7538685612E-004  -5.7193997782E-004 +3.4438463626E-004  +1.1192818880E+000 +5.7907342911E-001 
2637048.811 +1.4178595543E+000 -1.4562320709E-001  -3.4207524732E-004 +7.8278753790E-005  -6.1739515513E-004 +7.3232495924E-004  +1.1292577982E+000 +6.0464823246E-001 
2762193.992 +1.3551427126E+000 -1.1093878746E-001  -6.5752549563E-004 +6.3038716326E-004  -3.4045593929E-004 +6.2824191991E-004  +1.1439861059E+000 +5.0468683243E-001 
2887339.174 +1.3965626955E+000 -5.3017735481E-002  -5.2795797819E-004 +7.1742344880E-004  -5.1624700427E-004 +9.8572310526E-004  +9.9978619814E-001 +4.9973517656E-001 
3012484.355 +1.4730170965E+000 -6.0975492001E-002  -3.5422516521E-004 +1.4485997381E-003  -6.0150830541E-004 +8.6102413479E-004  +9.4979637861E-001 +6.1134862900E-001 
3137629.537 +1.4984923601E+000 -5.0537884235E-002  -8.7329000235E-004 +7.8043417307E-004  -9.4602326863E-004 +5.7993549854E-004  +9.7240406275E-001 +7.2156715393E-001 
3262774.718 +1.5435228348E+000 -9.0220034122E-002  -8.6597446352E-004 +9.7680138424E-004  -1.0281489231E-003 +5.2701804088E-004  +1.0234036446E+000 +7.8612309694E-001 
3387919.900 +1.5968482494E+000 -1.2850946188E-001  -2.8239790117E-004 +7.9896621173E-004  -9.1562932357E-004 +6.8644824205E-004  +1.0644565821E+000 +8.5058152676E-001 
3513065.081 +1.6573355198E+000 -1.7477899790E-001  -8.3685945719E-004 +1.0425997898E-003  -7.8137376113E-004 +1.9109165296E-003  +1.1000267267E+000 +9.2919075489E-001 
3638210.263 +1.7364375591E+000 -2.2045749426E-001  -7.0678058546E-004 +2.4810456671E-003  -1.1470647296E-003 +1.6576580238E-003  +1.1951287985E+000 +9.6419751644E-001 
3763355.444 +1.7684679031E+000 -2.7846693993E-001  -1.9692576025E-003 +1.4996144455E-003  -2.0458379295E-003 +1.2405993184E-003  +1.2871304750E+000 +1.0008691549E+000 
3888500.626 +1.8230190277E+000 -4.0758413076E-001  -9.1514165979E-004 +3.1165364198E-003  -1.7816859763E-003 +2.2645387799E-003  +1.3811962605E+000 +1.0644178391E+000 
4013645.807 +1.4886776209E+000 -6.9533640146E-001  -6.4956303686E-004 +2.0213073585E-003  -1.7033451004E-003 +2.5010309182E-003  +1.6556506157E+000 +8.5568267107E-001 
4138790.989 +1.0881295204E+000 -7.9785567522E-001  -2.6397083420E-003 +8.1590022892E-003  +1.3268348994E-004 +2.8919498436E-003  +1.7923222780E+000 +5.2845710516E-001 
4263936.170 +1.0269184113E+000 -8.0037581921E-001  +5.5891752709E-004 +2.6998710819E-003  +6.2998477370E-004 +3.4364478197E-003  +1.8303982019E+000 +4.2840549350E-001 
4389081.352 +9.4851642847E-001 -8.0597561598E-001  +9.4702566275E-004 +3.0905546155E-003  -1.9354117103E-004 +2.7501874138E-003  +1.8888883591E+000 +3.0394071341E-001 
4514226.533 +8.9006608725E-001 -8.2830947638E-001  +1.1197363492E-003 +3.0835503712E-003  -2.0000617951E-005 +2.6610333007E-003  +1.9075279236E+000 +2.0385695994E-001 
4639371.715 +8.2465076447E-001 -8.0197960138E-001  +1.2624899391E-003 +2.2175121121E-003  +9.8791532218E-004 +2.6719875168E-003  +1.9077100754E+000 +1.2339049578E-001 
4764516.896 +7.5113618374E-001 -7.7193045616E-001  +1.4712585835E-003 +2.8255428188E-003  +4.7027473920E-004 +2.7460106649E-003  +1.9091830254E+000 +3.3336356282E-002 
4889662.078 +7.0001870394E-001 -7.6758581400E-001  +6.1888701748E-004 +2.6132643688E-003  +9.1856683139E-004 +2.9458208010E-003  +1.9115079641E+000 -4.5884847641E-002 
5014807.259 +6.3892585039E-001 -7.4199259281E-001  +9.6466485411E-004 +2.5136710610E-003  +1.0518860072E-003 +2.2682037670E-003  +1.8582028151E+000 -1.2832473218E-001 
5139952.441 +5.8888399601E-001 -7.2539508343E-001  +9.3207939062E-004 +2.4618431926E-003  +2.0017013885E-003 +2.3952976335E-003  +1.8353445530E+000 -2.1440894902E-001 
5265097.622 +5.5001068115E-001 -6.8599432707E-001  +1.3786733616E-003 +2.4125948548E-003  +1.4977626270E-003 +2.7004701551E-003  +1.7896863222E+000 -2.7343136072E-001 
5390242.804 +5.0848567486E-001 -6.5152013302E-001  +7.7843654435E-004 +2.3234696127E-003  +1.4181084698E-003 +2.0739983302E-003  +1.7381974459E+000 -3.2419806719E-001 
5515387.985 +4.8588779569E-001 -6.0564726591E-001  +6.2601128593E-004 +2.4545046035E-003  +1.3379789889E-003 +2.5220613461E-003  +1.6958588362E+000 -3.8323500752E-001 
5640533.166 +4.4046223164E-001 -5.7372272015E-001  +9.6557341749E-004 +2.2587482817E-003  +1.4852216700E-003 +2.2801817395E-003  +1.6692935228E+000 -4.1911509633E-001 
5765678.348 +4.1463238001E-001 -5.3308802843E-001  +1.1953854701E-003 +2.3941488471E-003  +7.6307199197E-004 +2.4696129840E-003  +1.6085793972E+000 -4.5122009516E-001 
5890823.529 +3.8725620508E-001 -4.8599597812E-001  +7.0820102701E-004 +2.5242802221E-003  +8.5693004075E-004 +1.7349345144E-003  +1.5433390141E+000 -4.8670002818E-001 
6015968.711 +3.6927753687E-001 -4.3954879045E-001  +9.8890403751E-004 +2.6194143575E-003  +9.8333496135E-004 +2.2876712028E-003  +1.5079698563E+000 -5.0531619787E-001 
6141113.892 +3.4648525715E-001 -4.0410986543E-001  +1.1157256085E-003 +1.9425087376E-003  +9.6724194009E-004 +2.0798246842E-003  +1.4473037720E+000 -5.0934708118E-001 
6266259.074 +3.2862439752E-001 -3.6328101158E-001  +1.0224098805E-003 +2.4595872965E-003  +5.0410907716E-004 +1.9542947412E-003  +1.3929281235E+000 -5.3275948763E-001 
6391404.255 +3.2072421908E-001 -3.2157516479E-001  +8.8399933884E-004 +2.2890572436E-003  +7.4975262396E-004 +2.4737108033E-003  +1.3333444595E+000 -5.4231238365E-001 
6516549.437 +3.0379822850E-001 -2.8047120571E-001  +5.6622788543E-004 +1.7306075897E-003  +8.2733365707E-004 +2.0754302386E-003  +1.2934672832E+000 -5.4926073551E-001 
6641694.618 +3.0117586255E-001 -2.3557090759E-001  +7.6941854786E-004 +2.2927648388E-003  +6.9757975871E-004 +2.0383454394E-003  +1.2594224215E+000 -5.4977262020E-001 
6766839.800 +2.9484176636E-001 -2.0173688233E-001  +3.0525046168E-004 +2.3897404317E-003  +5.1415432245E-004 +2.2426811047E-003  +1.2153234482E+000 -5.4966533184E-001 
6891984.981 +2.8700256348E-001 -1.6196851432E-001  +5.0032773288E-004 +2.0427966956E-003  +5.0927617121E-004 +2.2222925909E-003  +1.1695004702E+000 -5.4101920128E-001 
7017130.163 +2.8227123618E-001 -1.2008582056E-001  +1.5004399756E-004 +2.4148919620E-003  +6.6163489828E-004 +2.4698735215E-003  +1.1363482475E+000 -5.3434813023E-001 
7142275.344 +2.7585265040E-001 -8.3309903741E-002  +3.4284516005E-005 +2.2451535333E-003  +5.5506650824E-004 +2.3914808407E-003  +1.1065286398E+000 -5.2941358089E-001 
7267420.526 +2.7681034803E-001 -4.0171448141E-002  +5.5313756457E-004 +2.1629575640E-003  +4.2043326539E-004 +2.4224186782E-003  +1.0748591423E+000 -5.1772516966E-001 
7392565.707 +2.7771213651E-001 -4.9968091771E-003  +1.0299946734E-004 +2.5172135793E-003  +3.5232570372E-004 +2.4292587768E-003  +1.0470525026E+000 -5.0990366936E-001 
7517710.889 +2.7389252186E-001 +3.1986854970E-002  +5.3741852753E-005 +2.2138189524E-003  +1.2272266031E-004 +2.4888948537E-003  +1.0168081522E+000 -4.9945646524E-001 
7642856.070 +2.7835983038E-001 +6.9634772837E-002  +2.4435800151E-004 +2.2913762368E-003  +3.1579445931E-004 +2.4223334622E-003  +9.8731648922E-001 -4.8832705617E-001 
7768001.252 +2.8699538112E-001 +1.0738866776E-001  +2.2217573132E-004 +2.4184749927E-003  +6.0384831158E-005 +2.5201833341E-003  +9.6022677422E-001 -4.7176826000E-001 
7893146.433 +2.9157003760E-001 +1.5072154999E-001  +9.7032898339E-005 +2.5812622625E-003  -1.4675626880E-004 +2.7294829488E-003  +9.3734836578E-001 -4.5521113276E-001 
8018291.615 +2.9776713252E-001 +1.9225522876E-001  -1.2408578186E-004 +2.6245084591E-003  -3.6252284190E-005 +2.7277751360E-003  +9.1003823280E-001 -4.3828064203E-001 
8143436.796 +3.0658945441E-001 +2.2411780059E-001  -6.8484514486E-005 +2.7757384814E-003  -3.2822749927E-004 +2.6890831068E-003  +8.9338684082E-001 -4.2388400435E-001 
8268581.977 +3.1725198030E-001 +2.6414150000E-001  -3.4058021265E-004 +2.6461028028E-003  -4.0550733684E-004 +2.5958281476E-003  +8.7588214874E-001 -4.0596735477E-001 
8393727.159 +3.3128359914E-001 +3.0450284481E-001  -4.9464922631E-004 +2.6896579657E-003  -2.6875303593E-004 +2.8312602080E-003  +8.6166864634E-001 -3.8784557581E-001 
8518872.340 +3.4962213039E-001 +3.4811699390E-001  -3.6957542761E-004 +2.8041342739E-003  -2.7361203684E-004 +2.8632129543E-003  +8.4376186132E-001 -3.7247818708E-001 
8644017.522 +3.6649587750E-001 +3.8294452429E-001  -5.7509966427E-004 +2.8841833118E-003  -4.5832022442E-004 +2.8294301592E-003  +8.3085948229E-001 -3.6071425676E-001 
8769162.703 +3.8607361913E-001 +4.2212289572E-001  -5.5322103435E-004 +2.9985858127E-003  -6.7000783747E-004 +3.0071185902E-003  +8.1549888849E-001 -3.4303578734E-001 
8894307.885 +4.0974190831E-001 +4.5862597227E-001  -8.9149572887E-004 +3.1930834521E-003  -7.8129506437E-004 +3.0287425034E-003  +8.0130743980E-001 -3.3080077171E-001 
9019453.066 +4.3489319086E-001 +4.9716418982E-001  -8.2470796769E-004 +3.2890106086E-003  -7.3737971252E-004 +3.1075719744E-003  +7.8938645124E-001 -3.1519949436E-001 
9144598.248 +4.6475726366E-001 +5.3474217653E-001  -8.2915817620E-004 +3.4012824763E-003  -9.7722257487E-004 +3.3735018224E-003  +7.7714586258E-001 -2.9426324368E-001 
9269743.429 +4.9621704221E-001 +5.7138824463E-001  -1.0689413175E-003 +3.3970854711E-003  -9.9803437479E-004 +3.5412330180E-003  +7.6966708899E-001 -2.7759432793E-001 
9394888.611 +5.2813124657E-001 +6.0777592659E-001  -1.1497678934E-003 +3.5855709575E-003  -1.1961043347E-003 +3.4402569290E-003  +7.5776737928E-001 -2.6452326775E-001 
9520033.792 +5.7103294134E-001 +6.3970363140E-001  -1.1657610303E-003 +3.6203376949E-003  -1.1931094341E-003 +3.7134697195E-003  +7.5027477741E-001 -2.4405062199E-001 
9645178.974 +6.1295735836E-001 +6.7414927483E-001  -1.2509252410E-003 +3.8523094263E-003  -1.3238512911E-003 +3.8096325006E-003  +7.4457097054E-001 -2.2996312380E-001 
9770324.155 +6.5777522326E-001 +7.0086681843E-001  -1.3610629831E-003 +3.9378223009E-003  -1.4068903401E-003 +3.9717950858E-003  +7.3614192009E-001 -2.1268433332E-001 
9895469.337 +7.0240235329E-001 +7.2858291864E-001  -1.5011578798E-003 +3.9971084334E-003  -1.4625915792E-003 +4.1860695928E-003  +7.2827208042E-001 -1.9605612755E-001 
10020614.518 +7.5179827213E-001 +7.4959582090E-001  -1.4611048391E-003 +4.3754908256E-003  -1.3975352049E-003 +4.1931690648E-003  +7.2594547272E-001 -1.7613244057E-001 
10145759.700 +8.0735152960E-001 +7.6933008432E-001  -1.5126457438E-003 +4.5341001824E-003  -1.5075239353E-003 +4.5426674187E-003  +7.2127568722E-001 -1.6359651089E-001 
10270904.881 +8.6791437864E-001 +7.8605937958E-001  -1.6211709008E-003 +4.7067664564E-003  -1.5934779076E-003 +4.6235020272E-003  +7.1829968691E-001 -1.4651268721E-001 
10396050.063 +9.2844712734E-001 +7.9426097870E-001  -1.5513255494E-003 +4.8611825332E-003  -1.6655616928E-003 +4.8565096222E-003  +7.1836853027E-001 -1.2768664956E-001 
10521195.244 +9.8410153389E-001 +7.9995530844E-001  -1.5840490814E-003 +4.9230079167E-003  -1.5926810447E-003 +5.0079589710E-003  +7.1561807394E-001 -1.1402308941E-001 
10646340.426 +1.0418064594E+000 +7.9973423481E-001  -1.6862882767E-003 +5.2891047671E-003  -1.6849045642E-003 +5.1973322406E-003  +7.1429961920E-001 -9.8329246044E-002 
10771485.607 +1.1049485207E+000 +7.9109215736E-001  -1.6788920620E-003 +5.4582566954E-003  -1.6580934171E-003 +5.3736856207E-003  +7.1438175440E-001 -8.1818461418E-002 
10896630.788 +1.1639919281E+000 +7.7731305361E-001  -1.6256149393E-003 +5.6373472326E-003  -1.7013768665E-003 +5.6639597751E-003  +7.1429789066E-001 -6.7130357027E-002 
11021775.970 +1.2230813503E+000 +7.5744622946E-001  -1.5937797725E-003 +5.8585330844E-003  -1.5970433597E-003 +5.7951523922E-003  +7.1520680189E-001 -5.3293764591E-002 
11146921.151 +1.2812368870E+000 +7.3219329119E-001  -1.6877886374E-003 +6.0546197928E-003  -1.5620451886E-003 +6.0285241343E-003  +7.1841871738E-001 -3.5901188850E-002 
11272066.333 +1.3371925354E+000 +7.0051825047E-001  -1.4354703017E-003 +6.1843171716E-003  -1.4533845242E-003 +6.1772502959E-003  +7.1840763092E-001 -2.3066073656E-002 
11397211.514 +1.3881647587E+000 +6.6855561733E-001  -1.3938602060E-003 +6.3848486170E-003  -1.4924390707E-003 +6.3552684151E-003  +7.2190976143E-001 -1.0260105133E-002 
11522356.696 +1.4349099398E+000 +6.2653380632E-001  -1.3830731623E-003 +6.6598542035E-003  -1.4880832750E-003 +6.6545028239E-003  +7.2587382793E-001 +3.7845671177E-003 
11647501.877 +1.4734421968E+000 +5.8226883411E-001  -1.3103228994E-003 +6.8090250716E-003  -1.3053575531E-003 +6.7898165435E-003  +7.3029828072E-001 +1.8080055714E-002 
11772647.059 +1.5129845142E+000 +5.3395467997E-001  -1.2094848789E-003 +6.8875928409E-003  -1.1427025311E-003 +6.9220513105E-003  +7.3509263992E-001 +3.1570553780E-002 
11897792.240 +1.5449762344E+000 +4.8355334997E-001  -1.1426073033E-003 +7.0793982595E-003  -1.1029674206E-003 +7.0704086684E-003  +7.4042779207E-001 +4.6785652637E-002 
12022937.422 +1.5717003345E+000 +4.3492168188E-001  -9.3108392321E-004 +7.1586822160E-003  -9.9617126398E-004 +7.2391894646E-003  +7.4555587769E-001 +5.8673769236E-002 
12148082.603 +1.5913243294E+000 +3.7814474106E-001  -7.7732419595E-004 +7.3222992942E-003  -8.6145289242E-004 +7.3276357725E-003  +7.5286775827E-001 +7.2613164783E-002 
12273227.785 +1.6045893431E+000 +3.2580548525E-001  -7.2913919576E-004 +7.4772313237E-003  -6.7078741267E-004 +7.4832257815E-003  +7.6006877422E-001 +8.1799790263E-002 
12398372.966 +1.6133202314E+000 +2.7527138591E-001  -5.8703904506E-004 +7.5698597357E-003  -5.2884663455E-004 +7.5696134008E-003  +7.6819205284E-001 +9.4475120306E-002 
12523518.148 +1.6137766838E+000 +2.2259828448E-001  -4.7967501450E-004 +7.6218442991E-003  -4.9590249546E-004 +7.6639046893E-003  +7.7502906322E-001 +1.0436362028E-001 
12648663.329 +1.6170192957E+000 +1.7467963696E-001  -3.4948275425E-004 +7.7584651299E-003  -3.5757478327E-004 +7.7629368752E-003  +7.8450298309E-001 +1.1544981599E-001 
12773808.511 +1.6104295254E+000 +1.2431219220E-001  -1.8601940246E-004 +7.8398920596E-003  -2.0599510754E-004 +7.7916001901E-003  +7.9418063164E-001 +1.2528176606E-001 
12898953.692 +1.6028261185E+000 +7.8671902418E-002  -8.6250016466E-005 +7.8594051301E-003  -8.4322236944E-005 +7.8214174137E-003  +8.0335319042E-001 +1.3483209908E-001 
13024098.874 +1.5885858536E+000 +3.8176681846E-002  +1.9440107280E-005 +7.9273525625E-003  -2.5616289349E-005 +7.8945774585E-003  +8.1353801489E-001 +1.4482638240E-001 
13149244.055 +1.5743654966E+000 -3.4973025322E-004  +1.4375758474E-004 +7.9730274156E-003  +9.9704077002E-005 +7.9398369417E-003  +8.2363277674E-001 +1.5308560431E-001 
13274389.237 +1.5568199158E+000 -3.8895517588E-002  +2.5633862242E-004 +7.9711228609E-003  +1.7760792980E-004 +8.0015063286E-003  +8.3629846573E-001 +1.6184039414E-001 
13399534.418 +1.5365685225E+000 -7.2887405753E-002  +3.0568498187E-004 +8.0192917958E-003  +2.6561482809E-004 +8.0592548475E-003  +8.4585660696E-001 +1.6927351058E-001 
13524679.599 +1.5179212093E+000 -1.0316270590E-001  +3.9994902909E-004 +8.0071706325E-003  +4.1181431152E-004 +8.0302432179E-003  +8.5850608349E-001 +1.7614810169E-001 
13649824.781 +1.4965348244E+000 -1.3416725397E-001  +5.1154906396E-004 +8.0733709037E-003  +5.0615135115E-004 +8.0700879917E-003  +8.7051266432E-001 +1.8068292737E-001 
13774969.962 +1.4720071554E+000 -1.5868234634E-001  +6.2246387824E-004 +8.0495262519E-003  +5.5297487415E-004 +8.0709150061E-003  +8.8162022829E-001 +1.8601515889E-001 
13900115.144 +1.4498649836E+000 -1.8160435557E-001  +6.8171368912E-004 +8.0894716084E-003  +6.6819274798E-004 +8.1296768039E-003  +8.9347910881E-001 +1.9008763134E-001 
14025260.325 +1.4261033535E+000 -2.0083642006E-001  +7.1744201705E-004 +8.0948397517E-003  +7.9656555317E-004 +8.1213433295E-003  +9.0633088350E-001 +1.9331526756E-001 
14150405.507 +1.4031786919E+000 -2.1793133020E-001  +8.1003853120E-004 +8.1220427528E-003  +8.0225081183E-004 +8.0860964954E-003  +9.1842663288E-001 +1.9731113315E-001 
14275550.688 +1.3794612885E+000 -2.3488235474E-001  +9.2551461421E-004 +8.1286709756E-003  +8.4687746130E-004 +8.1458510831E-003  +9.3178564310E-001 +1.9832152128E-001 
14400695.870 +1.3534824848E+000 -2.4885547161E-001  +9.4499159604E-004 +8.1020910293E-003  +9.5507642254E-004 +8.1277787685E-003  +9.4378429651E-001 +2.0018222928E-001 
