!  2-Port S-parameters saved by WinCal
! VAR MeasName=S-Parameters (CALIBRATED_DATA) read from VNA (P5004A)
! VAR MeasDate=22/05/2024 17:53:13
! VAR NAME=Wafer2_r2_c1_pristine_pos0.6dc
! VAR FILENAME=Wafer2_r2_c1_pristine_pos0.6dc.S2P
! VAR DATE=22/05/2024 17:53:13
! VAR PHYS_PORTS=1,2
! VAR ObjTypeName=DATASET
! VAR IndexType=Frequency
!
# Hz S RI R 50
9000.000 +2.1497832239E-001 -5.7969838381E-001  +7.8063998371E-003 +1.3314513490E-003  +7.1949027479E-003 +8.3534605801E-004  +8.4910199046E-002 +9.8961688578E-002 
134145.181 +6.3500416279E-001 -6.2280297279E-002  +5.2278921939E-003 -1.4607200399E-002  +9.0910159051E-003 -1.3572903117E-003  -2.1710291505E-002 -5.1299482584E-001 
259290.363 +8.1553220749E-001 -1.4824330807E-001  -1.1952582747E-002 +1.5563317575E-002  +5.7729310356E-003 -6.4704590477E-003  +1.2634325027E+000 -9.9363344908E-001 
384435.544 +8.8829928637E-001 -3.0042663217E-001  +5.5680109654E-004 +2.8736672830E-003  +2.0128712058E-002 +3.2193029765E-003  +3.2155382633E+000 -2.4201014042E+000 
509580.726 +9.5137917995E-001 -1.6134941578E-001  -2.1615419537E-003 -2.6911385357E-003  +5.8674430475E-003 +2.5430440437E-003  +1.6847054958E+000 -6.3909840584E-001 
634725.907 +1.0880264044E+000 -1.9532921910E-001  -2.5795276742E-003 +4.9516709987E-004  -2.6406173129E-003 +8.0740568228E-004  +2.6447284222E+000 +4.2631816864E-001 
759871.089 +1.2508307695E+000 -4.3820440769E-002  -9.6533738542E-004 -1.4400798827E-003  -1.8366350560E-005 -1.0350191733E-003  +1.4414987564E+000 +4.7123265266E-001 
885016.270 +1.1261396408E+000 -1.9504936039E-001  +6.6219520522E-004 -1.4032193576E-006  +9.9428836256E-004 +6.9808919216E-004  +1.1991865635E+000 +5.0881052017E-001 
1010161.452 +1.2667388916E+000 -8.2982540131E-002  -1.0797776049E-003 -9.7240990726E-006  -5.2162574138E-004 +7.2576059029E-004  +1.1833348274E+000 +5.0218421221E-001 
1135306.633 +1.4747112989E+000 -1.3361631334E-001  -3.1800102443E-004 -1.2397253886E-004  +4.7729699872E-004 -6.5762578743E-004  +1.2993333340E+000 +6.1770552397E-001 
1260451.815 +1.6699839830E+000 -1.2751162052E-001  +1.6877234157E-004 -7.7899203461E-005  +2.0920389215E-004 +8.2431791816E-004  +1.0987985134E+000 +7.1247816086E-001 
1385596.996 +1.4276906252E+000 -1.1195659637E-001  -5.1783092204E-005 +1.8967036158E-004  -9.8462260212E-005 +2.6546276786E-005  +9.8566299677E-001 +4.8484557867E-001 
1510742.178 +1.6863464117E+000 -1.0939645767E-001  -1.4961664419E-005 +1.8464971799E-004  -2.5253021158E-004 -2.3075990612E-005  +6.7820489407E-001 +5.7412481308E-001 
1635887.359 +1.1837984324E+000 -3.7654101849E-001  +1.7270792159E-004 +3.8294022670E-004  +3.6829180317E-004 +2.3670523660E-004  +1.5204354525E+000 +6.3308048248E-001 
1761032.541 +1.3654410839E+000 -2.7168691158E-001  +2.4055705580E-005 -7.6266464021E-005  +6.5798318246E-005 +2.1019564883E-004  +1.1030092239E+000 +8.2567167282E-001 
1886177.722 +1.2904226780E+000 -1.9056308270E-001  -2.5594458566E-004 +2.8103985824E-004  -1.8520762387E-004 -7.9503384768E-005  +1.1444129944E+000 +5.5798745155E-001 
2011322.904 +1.2937451601E+000 -1.8851581216E-001  -2.4550012313E-005 +3.8884466630E-004  -1.0116091289E-004 +1.1892638577E-004  +1.1575787067E+000 +5.2570509911E-001 
2136468.085 +1.3004165888E+000 -1.1300127208E-001  -2.2523272492E-004 +2.4648537510E-004  -2.3261939350E-004 +4.2735715397E-004  +1.0967395306E+000 +4.7711104155E-001 
2261613.267 +1.3330295086E+000 -9.1854840517E-002  -3.9267179091E-004 +4.9206329277E-004  -3.6077341065E-004 +3.1364947790E-004  +1.0538263321E+000 +5.1463747025E-001 
2386758.448 +1.3555793762E+000 -9.7774058580E-002  -3.0790013261E-004 +5.0311506493E-004  -3.6394342897E-004 +5.7951384224E-004  +1.0725975037E+000 +5.4377096891E-001 
2511903.630 +1.4083038568E+000 -1.0928079486E-001  -5.3341535386E-004 +2.8144579846E-004  -6.1031134101E-004 +3.4419028088E-004  +1.1172250509E+000 +5.7844150066E-001 
2637048.811 +1.4192208052E+000 -1.4274680614E-001  -8.2503649173E-004 +3.9024834405E-004  -5.0846661907E-004 +1.1140684364E-003  +1.1272672415E+000 +6.0672140121E-001 
2762193.992 +1.3644778728E+000 -1.0953682661E-001  -3.8642456639E-004 +5.8990309481E-004  -3.7299108226E-004 +7.2017859202E-004  +1.1463227272E+000 +5.0684666634E-001 
2887339.174 +1.4216310978E+000 -4.7157466412E-002  -4.6792795183E-004 +4.9130746629E-004  -6.9267587969E-004 +5.5474706460E-004  +1.0022947788E+000 +5.0074350834E-001 
3012484.355 +1.4984855652E+000 -6.2365770340E-002  -4.0190012078E-004 +1.0322039016E-003  -7.3503010208E-004 +3.6854241625E-004  +9.5374834538E-001 +6.0568332672E-001 
3137629.537 +1.5180181265E+000 -6.7193388939E-002  -1.0721950093E-003 +6.4301444218E-004  -9.9553231848E-005 +8.6869148072E-004  +9.7743904591E-001 +7.1366804838E-001 
3262774.718 +1.5531439781E+000 -9.8048925400E-002  -1.1239538435E-003 +8.5118424613E-004  -1.1901367689E-003 +1.0533086024E-003  +1.0213254690E+000 +7.8067868948E-001 
3387919.900 +1.6075687408E+000 -1.1845749617E-001  -7.8686792403E-004 +4.5893751667E-004  -8.5604726337E-004 +1.3879257021E-003  +1.0619679689E+000 +8.4688711166E-001 
3513065.081 +1.6634780169E+000 -1.7281454802E-001  -8.4702519234E-004 +9.7501999699E-004  -1.1467039585E-003 +1.6711028293E-003  +1.1023991108E+000 +9.2170554399E-001 
3638210.263 +1.7413114309E+000 -2.1341782808E-001  -9.0104127303E-003 -1.2023895048E-002  -1.1964635924E-003 +1.2182070641E-003  +1.1929005384E+000 +9.5938444138E-001 
3763355.444 +1.7519351244E+000 -2.9528135061E-001  -1.1389750289E-003 +1.3445597142E-003  -1.6139821382E-003 +1.2862824369E-003  +1.2924133539E+000 +9.9627649784E-001 
3888500.626 +1.8301956654E+000 -4.0016764402E-001  -1.8904922763E-003 +1.8074603286E-003  -9.1893487843E-004 +2.1447241306E-003  +1.3787031174E+000 +1.0577260256E+000 
4013645.807 +1.4778984785E+000 -6.8930006027E-001  +2.8441607719E-004 +1.5906526241E-003  -8.7259965949E-004 +2.4138130248E-003  +1.6529600620E+000 +8.4943151474E-001 
4138790.989 +1.0888451338E+000 -7.8188782930E-001  +4.0890765376E-004 +4.1976692155E-003  +3.7649297155E-004 +2.7426581364E-003  +1.7770724297E+000 +5.1733851433E-001 
4263936.170 +1.0285954475E+000 -8.1462270021E-001  +1.6273069195E-004 +3.8389042020E-003  +1.6140338266E-004 +2.9197749682E-003  +1.8280445337E+000 +4.2229861021E-001 
4389081.352 +9.2669498920E-001 -8.1879258156E-001  +1.0706025641E-003 +2.6624931488E-003  +1.4134962112E-004 +2.7843490243E-003  +1.8721570969E+000 +2.9450553656E-001 
4514226.533 +8.7871158123E-001 -8.4123134613E-001  +1.0746399639E-003 +2.6502553374E-003  +9.0602866840E-004 +2.4579290766E-003  +1.8921270370E+000 +2.0420205593E-001 
4639371.715 +8.0495923758E-001 -8.2556641102E-001  +1.7540474655E-003 +2.1053310484E-003  +1.7408496933E-003 +3.0238181353E-003  +1.8981177807E+000 +1.2675791979E-001 
4764516.896 +7.3962533474E-001 -7.9851984978E-001  +1.1921331752E-003 +2.3634617683E-003  +1.2027834309E-003 +2.7540421579E-003  +1.8960130215E+000 +3.7890896201E-002 
4889662.078 +6.9967538118E-001 -7.7585077286E-001  +9.8470284138E-004 +2.7515531983E-003  +1.0443233186E-003 +3.6499984562E-003  +1.8894319534E+000 -3.9221391082E-002 
5014807.259 +6.3698220253E-001 -7.4111074209E-001  +1.8595887814E-003 +2.8071403503E-003  +1.4371749712E-003 +3.3007366583E-003  +1.8424851894E+000 -1.1148928106E-001 
5139952.441 +5.9856122732E-001 -7.2888344526E-001  +1.6022353666E-003 +2.6917937212E-003  +1.9850861281E-003 +2.5739299599E-003  +1.8300620317E+000 -1.9733050466E-001 
5265097.622 +5.5421066284E-001 -6.8123722076E-001  +1.0638001841E-003 +2.6044216938E-003  +9.2141458299E-004 +2.5769791100E-003  +1.7794195414E+000 -2.5969487429E-001 
5390242.804 +5.0618195534E-001 -6.4808505774E-001  +8.7826640811E-004 +2.2126361728E-003  +1.6652452759E-003 +2.3356387392E-003  +1.7292623520E+000 -3.0439209938E-001 
5515387.985 +4.7592186928E-001 -6.0513556004E-001  +1.6711337958E-003 +2.2321506403E-003  +1.2840642594E-003 +2.5803002063E-003  +1.6876889467E+000 -3.7535178661E-001 
5640533.166 +4.4346073270E-001 -5.6880599260E-001  +1.4342952054E-003 +1.9061192870E-003  +1.1712125270E-003 +2.5198166259E-003  +1.6520351171E+000 -4.0803802013E-001 
5765678.348 +4.0834912658E-001 -5.3542435169E-001  +1.3820687309E-003 +2.7202996425E-003  +8.2841125550E-004 +2.7905546594E-003  +1.6083885431E+000 -4.4136953354E-001 
5890823.529 +3.8786718249E-001 -4.8424851894E-001  +8.9828314958E-004 +2.6323879138E-003  +1.2076911516E-003 +2.2791188676E-003  +1.5410846472E+000 -4.7539374232E-001 
6015968.711 +3.6306059361E-001 -4.5175155997E-001  +5.0683639711E-004 +2.4414469954E-003  +1.2956920546E-003 +2.3234118707E-003  +1.5020737648E+000 -4.9108108878E-001 
6141113.892 +3.4792190790E-001 -4.0420383215E-001  +9.8996562883E-004 +2.6670107618E-003  +7.8350573312E-004 +2.4029347114E-003  +1.4455734491E+000 -5.1139986515E-001 
6266259.074 +3.3347016573E-001 -3.6260911822E-001  +9.7140704747E-004 +2.2264765576E-003  +8.9299981482E-004 +1.9174739718E-003  +1.3927127123E+000 -5.1887047291E-001 
6391404.255 +3.2030481100E-001 -3.1985995173E-001  +1.2049601646E-003 +1.9911690615E-003  +9.6094573382E-004 +2.2576823831E-003  +1.3364770412E+000 -5.2900213003E-001 
6516549.437 +3.0372074246E-001 -2.8309765458E-001  +7.3426729068E-004 +2.3278107401E-003  +5.1071669441E-004 +2.0134779625E-003  +1.2891705036E+000 -5.3626084328E-001 
6641694.618 +2.9957130551E-001 -2.4022518098E-001  +8.9308968745E-004 +2.5569712743E-003  +6.8854115671E-004 +2.5902823545E-003  +1.2549526691E+000 -5.3921806812E-001 
6766839.800 +2.9515060782E-001 -1.9691084325E-001  +6.0072273482E-004 +2.1697420161E-003  +5.4576992989E-004 +2.3908056319E-003  +1.2180429697E+000 -5.4794901609E-001 
6891984.981 +2.8546726704E-001 -1.6383184493E-001  +8.3768961485E-004 +2.1786305588E-003  +7.9560239101E-004 +2.3044978734E-003  +1.1630531549E+000 -5.3943431377E-001 
7017130.163 +2.8328499198E-001 -1.2276420742E-001  +6.4091978129E-004 +2.3890074808E-003  +2.7959779254E-004 +2.3585222661E-003  +1.1399555206E+000 -5.2756547928E-001 
7142275.344 +2.7241763473E-001 -8.2440413535E-002  +5.9641181724E-004 +2.2746934555E-003  +3.1635595951E-004 +2.1495355759E-003  +1.1087713242E+000 -5.1915240288E-001 
7267420.526 +2.7505359054E-001 -4.1917931288E-002  +3.2259267755E-004 +2.4005689193E-003  +2.8324715095E-004 +2.2746645845E-003  +1.0785298347E+000 -5.0605022907E-001 
7392565.707 +2.7414414287E-001 -5.3451946005E-003  +4.0340874693E-004 +2.5357108098E-003  +3.6757477210E-004 +2.3281860631E-003  +1.0487110615E+000 -4.9828374386E-001 
7517710.889 +2.7475371957E-001 +2.7834977955E-002  +8.0755999079E-005 +2.3211108055E-003  -4.7914887546E-005 +2.3437889758E-003  +1.0186785460E+000 -4.8761159182E-001 
7642856.070 +2.7655673027E-001 +7.0287533104E-002  +1.3104938262E-004 +2.6206788607E-003  +8.2928047050E-005 +2.5313342921E-003  +9.8484933376E-001 -4.8356634378E-001 
7768001.252 +2.8458124399E-001 +1.0973447561E-001  -3.6836136132E-005 +2.1876953542E-003  +9.1355759650E-005 +2.6165309828E-003  +9.5781379938E-001 -4.6470114589E-001 
7893146.433 +2.9199102521E-001 +1.4828819036E-001  -8.6004292825E-005 +2.5138712954E-003  -5.2058574511E-005 +2.7557231952E-003  +9.4019192457E-001 -4.4944068789E-001 
8018291.615 +2.9597535729E-001 +1.8864756823E-001  +4.1300721932E-005 +2.4828186724E-003  -1.1093246576E-004 +2.6142692659E-003  +9.1097044945E-001 -4.3475544453E-001 
8143436.796 +3.0615356565E-001 +2.2672083974E-001  -2.0488734299E-004 +2.7260840870E-003  -1.8579074822E-004 +2.5603268296E-003  +8.9767456055E-001 -4.1713225842E-001 
8268581.977 +3.1580111384E-001 +2.6675364375E-001  -2.6441330556E-004 +2.5353273377E-003  -2.6693841210E-004 +2.6901324745E-003  +8.7729513645E-001 -4.0393674374E-001 
8393727.159 +3.3292230964E-001 +3.0231258273E-001  -4.2670796392E-004 +2.7580463793E-003  -3.7946586963E-004 +2.8419683222E-003  +8.6013126373E-001 -3.8797476888E-001 
8518872.340 +3.4767830372E-001 +3.4552752972E-001  -4.9642566592E-004 +2.9120061081E-003  -3.8516422501E-004 +2.8978516348E-003  +8.4175527096E-001 -3.7207311392E-001 
8644017.522 +3.6441165209E-001 +3.8058364391E-001  -5.6718569249E-004 +2.8183942195E-003  -5.7680514874E-004 +2.8246326838E-003  +8.3180797100E-001 -3.5709807277E-001 
8769162.703 +3.8764262199E-001 +4.2252165079E-001  -5.5443518795E-004 +2.9149504844E-003  -7.0355721982E-004 +2.8310781345E-003  +8.1705445051E-001 -3.4160542488E-001 
8894307.885 +4.0936940908E-001 +4.6110871434E-001  -6.2020536279E-004 +3.1482446939E-003  -8.6272554472E-004 +3.2388812397E-003  +8.0248725414E-001 -3.2975444198E-001 
9019453.066 +4.3444555998E-001 +4.9771201611E-001  -9.1162236640E-004 +3.1626559794E-003  -9.1078894911E-004 +3.1613856554E-003  +7.8890657425E-001 -3.1142646074E-001 
9144598.248 +4.6658116579E-001 +5.3580117226E-001  -8.4386439994E-004 +3.4037870355E-003  -9.3843659852E-004 +3.3680645283E-003  +7.7677834034E-001 -2.9417836666E-001 
9269743.429 +4.9697026610E-001 +5.7096439600E-001  -9.4187579816E-004 +3.4670890309E-003  -1.0298773414E-003 +3.4659639932E-003  +7.6886284351E-001 -2.7750089765E-001 
9394888.611 +5.2782875299E-001 +6.0767388344E-001  -1.1667525396E-003 +3.5687864292E-003  -1.1749127880E-003 +3.5117275547E-003  +7.5915300846E-001 -2.6185986400E-001 
9520033.792 +5.7005655766E-001 +6.3862174749E-001  -1.1198201682E-003 +3.7794292439E-003  -1.3692410430E-003 +3.6027755123E-003  +7.5242376328E-001 -2.4226959050E-001 
9645178.974 +6.1275434494E-001 +6.7428272963E-001  -1.2585867662E-003 +3.7097425666E-003  -1.2589383405E-003 +3.8384827785E-003  +7.4344080687E-001 -2.2902984917E-001 
9770324.155 +6.5779364109E-001 +7.0261836052E-001  -1.2902840972E-003 +3.9453506470E-003  -1.3792985119E-003 +4.0061087348E-003  +7.3673224449E-001 -2.0871496201E-001 
9895469.337 +7.0433497429E-001 +7.2935557365E-001  -1.4806552790E-003 +4.0631075390E-003  -1.3727191836E-003 +4.0287720039E-003  +7.3045372963E-001 -1.9238793850E-001 
10020614.518 +7.5344550610E-001 +7.4990230799E-001  -1.5006345930E-003 +4.4367592782E-003  -1.4714893186E-003 +4.2684953660E-003  +7.2702378035E-001 -1.7504230142E-001 
10145759.700 +8.0697882175E-001 +7.6793766022E-001  -1.4998740517E-003 +4.5052645728E-003  -1.5226022806E-003 +4.4478727505E-003  +7.2293853760E-001 -1.6137924790E-001 
10270904.881 +8.6793315411E-001 +7.8596651554E-001  -1.6475652810E-003 +4.6571907587E-003  -1.6238327371E-003 +4.5933518559E-003  +7.2109627724E-001 -1.4383080602E-001 
10396050.063 +9.2749953270E-001 +7.9333889484E-001  -1.5411234926E-003 +4.8687211238E-003  -1.5581351472E-003 +4.8525198363E-003  +7.1761739254E-001 -1.2646993995E-001 
10521195.244 +9.8448765278E-001 +7.9837757349E-001  -1.6079513589E-003 +5.1526287571E-003  -1.7260020832E-003 +5.0836661831E-003  +7.1704339981E-001 -1.1294642091E-001 
10646340.426 +1.0421546698E+000 +7.9824948311E-001  -1.6285785241E-003 +5.2591213025E-003  -1.7187194899E-003 +5.3403442726E-003  +7.1550905704E-001 -9.6170723438E-002 
10771485.607 +1.1042629480E+000 +7.9072582722E-001  -1.7129936023E-003 +5.4263402708E-003  -1.7802435905E-003 +5.5703935213E-003  +7.1615254879E-001 -7.8807711601E-002 
10896630.788 +1.1634159088E+000 +7.7616959810E-001  -1.6570955049E-003 +5.6032417342E-003  -1.6973543679E-003 +5.6363847107E-003  +7.1655464172E-001 -6.3518494368E-002 
11021775.970 +1.2228237391E+000 +7.5712561607E-001  -1.6363430768E-003 +5.9182867408E-003  -1.5396985691E-003 +5.8525083587E-003  +7.1672618389E-001 -4.8946201801E-002 
11146921.151 +1.2835326195E+000 +7.2975230217E-001  -1.5299541410E-003 +6.0594445094E-003  -1.5639103949E-003 +5.9978766367E-003  +7.1941328049E-001 -3.4752607346E-002 
11272066.333 +1.3377771378E+000 +6.9840335846E-001  -1.5151142143E-003 +6.2131257728E-003  -1.5684240498E-003 +6.2651298940E-003  +7.2070068121E-001 -2.0010948181E-002 
11397211.514 +1.3875036240E+000 +6.6618603468E-001  -1.4943026472E-003 +6.4105819911E-003  -1.3929668348E-003 +6.4544482157E-003  +7.2344744205E-001 -6.1727166176E-003 
11522356.696 +1.4360485077E+000 +6.2540656328E-001  -1.3635728974E-003 +6.5947300754E-003  -1.4037457295E-003 +6.6230921075E-003  +7.2763895988E-001 +7.9297423363E-003 
11647501.877 +1.4731252193E+000 +5.8004248142E-001  -1.3110602740E-003 +6.8234372884E-003  -1.2668343261E-003 +6.7760841921E-003  +7.3072135448E-001 +2.1017134190E-002 
11772647.059 +1.5137251616E+000 +5.3291487694E-001  -1.2211748399E-003 +6.9449488074E-003  -1.2379097752E-003 +6.9374293089E-003  +7.3580294847E-001 +3.4343540668E-002 
11897792.240 +1.5451468229E+000 +4.8341178894E-001  -1.0513064917E-003 +7.0653581060E-003  -1.1020905804E-003 +7.1340408176E-003  +7.4172383547E-001 +4.7340810299E-002 
12022937.422 +1.5726999044E+000 +4.3386244774E-001  -9.4970269129E-004 +7.2291973047E-003  -9.6539501101E-004 +7.1921437047E-003  +7.4691450596E-001 +5.9153646231E-002 
12148082.603 +1.5915709734E+000 +3.7652099133E-001  -8.4092421457E-004 +7.3335757479E-003  -8.3294999786E-004 +7.3635084555E-003  +7.5396460295E-001 +7.3068097234E-002 
12273227.785 +1.6044664383E+000 +3.2609733939E-001  -6.6504417919E-004 +7.4216281064E-003  -7.1961339563E-004 +7.4084918015E-003  +7.6112371683E-001 +8.4647640586E-002 
12398372.966 +1.6147073507E+000 +2.7539107203E-001  -5.7356758043E-004 +7.5999042019E-003  -6.4042326994E-004 +7.5884638354E-003  +7.6947724819E-001 +9.5374822617E-002 
12523518.148 +1.6146688461E+000 +2.2210693359E-001  -4.9918924924E-004 +7.6358979568E-003  -5.2223436069E-004 +7.6432591304E-003  +7.7708542347E-001 +1.0542999208E-001 
12648663.329 +1.6168060303E+000 +1.7390063405E-001  -3.5236496478E-004 +7.7598257922E-003  -3.4428725485E-004 +7.7287424356E-003  +7.8535908461E-001 +1.1708933115E-001 
12773808.511 +1.6109017134E+000 +1.2351560593E-001  -2.2982031805E-004 +7.7896649018E-003  -2.6355055161E-004 +7.8107966110E-003  +7.9391312599E-001 +1.2629130483E-001 
12898953.692 +1.6027154922E+000 +7.8360378742E-002  -9.6449803095E-005 +7.9177301377E-003  -1.2817163952E-004 +7.9239998013E-003  +8.0418986082E-001 +1.3623927534E-001 
13024098.874 +1.5898882151E+000 +3.7062056363E-002  -1.0942356312E-005 +7.8796045855E-003  +1.0023359209E-005 +7.8981928527E-003  +8.1395035982E-001 +1.4554357529E-001 
13149244.055 +1.5760635138E+000 -1.7665512860E-003  +8.1727630459E-005 +7.9397177324E-003  +6.7188317189E-005 +7.9476190731E-003  +8.2380104065E-001 +1.5356248617E-001 
13274389.237 +1.5576752424E+000 -4.0739953518E-002  +2.3527891608E-004 +8.0404533073E-003  +1.8997566076E-004 +7.9737678170E-003  +8.3587151766E-001 +1.6160956025E-001 
13399534.418 +1.5378133059E+000 -7.4250638485E-002  +3.3872690983E-004 +8.0027412623E-003  +2.7240975760E-004 +8.0510778353E-003  +8.4687215090E-001 +1.6883118451E-001 
13524679.599 +1.5181030035E+000 -1.0491883755E-001  +4.5908126049E-004 +8.0792605877E-003  +3.9933691733E-004 +8.0636786297E-003  +8.5794699192E-001 +1.7565581203E-001 
13649824.781 +1.4969024658E+000 -1.3451662660E-001  +5.4617610294E-004 +8.0851716921E-003  +4.9002643209E-004 +8.0618560314E-003  +8.7019741535E-001 +1.8129661679E-001 
13774969.962 +1.4721659422E+000 -1.5909552574E-001  +6.0988054611E-004 +8.1272870302E-003  +5.8889063075E-004 +8.1004044041E-003  +8.8264477253E-001 +1.8461179733E-001 
13900115.144 +1.4506512880E+000 -1.8161588907E-001  +7.2575709783E-004 +8.1096636131E-003  +6.4688827842E-004 +8.0833872780E-003  +8.9393275976E-001 +1.8987593055E-001 
14025260.325 +1.4270451069E+000 -1.9965070486E-001  +7.1015488356E-004 +8.1074051559E-003  +7.3657301255E-004 +8.1180781126E-003  +9.0653645992E-001 +1.9326773286E-001 
14150405.507 +1.4036331177E+000 -2.1781986952E-001  +8.1636151299E-004 +8.1201791763E-003  +8.0378609709E-004 +8.1360517070E-003  +9.1841304302E-001 +1.9744050503E-001 
14275550.688 +1.3796148300E+000 -2.3525744677E-001  +8.9922244661E-004 +8.1008849666E-003  +8.8561628945E-004 +8.1407204270E-003  +9.3144124746E-001 +1.9762524962E-001 
14400695.870 +1.3528923988E+000 -2.4870330095E-001  +9.4688893296E-004 +8.1294812262E-003  +9.6503691748E-004 +8.1170629710E-003  +9.4383680820E-001 +1.9937136769E-001 
