!  2-Port S-parameters saved by WinCal
! VAR MeasName=S-Parameters (CALIBRATED_DATA) read from VNA (P5004A)
! VAR MeasDate=22/05/2024 17:42:26
! VAR NAME=Wafer2_r2_c1_pristine
! VAR FILENAME=Wafer2_r2_c1_pristine.S2P
! VAR DATE=22/05/2024 17:42:26
! VAR PHYS_PORTS=1,2
! VAR ObjTypeName=DATASET
! VAR IndexType=Frequency
!
# Hz S RI R 50
9000.000 +2.2250044346E-001 -5.8306789398E-001  +4.1498858482E-003 -4.9996806774E-004  -1.2079247972E-004 -1.3160873204E-003  +6.0522802174E-002 +8.8536500931E-002 
134145.181 +5.5899578333E-001 +1.4045351744E-001  +1.2324420363E-001 -4.4176891446E-002  -2.1546212956E-002 -1.4067564905E-001  +1.1435146332E+000 +7.0217746496E-001 
259290.363 +9.0731197596E-001 -8.4867283702E-002  +3.1939463224E-003 +6.6414605826E-003  -1.4657039428E-003 -2.9703371692E-003  +1.0301573277E+000 -3.1504511833E-002 
384435.544 +9.3737781048E-001 -2.3912298679E-001  +2.6372240391E-003 +1.9466385711E-003  -5.7871518657E-003 -1.6223227140E-003  +1.0457482338E+000 -5.8596864343E-002 
509580.726 +9.6847349405E-001 -1.2759315968E-001  -6.1633094447E-004 -6.4133678097E-004  -4.6755798394E-004 +1.5487537021E-003  +1.0116320848E+000 -3.7691682577E-002 
634725.907 +1.0739305019E+000 -1.6823610663E-001  +5.7743547950E-004 +3.9304213715E-004  +6.1568903038E-004 +2.1756728529E-004  +1.0670359135E+000 -3.8144141436E-002 
759871.089 +1.2116949558E+000 -7.5673133135E-002  +2.7078161947E-003 -1.0668579489E-003  +3.9387418656E-004 +8.7052391609E-004  +1.0949201584E+000 -6.3681662083E-002 
885016.270 +9.5094609261E-001 -2.7836900949E-001  -1.5264317626E-003 -2.4852536153E-003  -5.2228750428E-004 -3.4016084392E-003  +1.1304481030E+000 -1.8381540477E-001 
1010161.452 +1.1128451824E+000 -7.6412290335E-002  -2.8053331189E-003 -2.2431665566E-003  -4.1718641296E-004 -1.3298101258E-003  +7.6885223389E-001 +5.7846367359E-002 
1135306.633 +1.1433990002E+000 -3.4675717354E-002  +2.7306084521E-003 +2.1091171075E-003  -5.4046860896E-004 -4.7815931030E-003  +9.1565710306E-001 +1.8065845966E-001 
1260451.815 +1.3385978937E+000 -3.1841337681E-002  -1.2627285905E-003 -1.4736783924E-003  +5.2978756139E-004 -9.4688043464E-004  +9.6866869926E-001 +1.6405838728E-001 
1385596.996 +1.2575697899E+000 -9.2427968979E-002  +1.0592490435E-004 -3.9605816710E-004  +1.0034199804E-003 -3.1871144893E-004  +9.9998152256E-001 +1.0132005811E-001 
1510742.178 +1.3888690472E+000 -1.6831970215E-001  -8.2867621677E-004 +1.6382964095E-003  +6.6231208621E-004 -6.7016005050E-004  +9.4272089005E-001 +1.3279157877E-001 
1635887.359 +9.7275328636E-001 -2.7291557193E-001  +2.2025140934E-003 -3.4944427898E-004  -1.5645301901E-003 +4.4462934602E-004  +1.0847977400E+000 +8.8938832283E-002 
1761032.541 +1.0226324797E+000 -2.4926993251E-001  +3.6875164369E-004 -8.8973676611E-005  -1.2326280121E-003 -4.4591535698E-004  +1.0643321276E+000 +1.5820273757E-001 
1886177.722 +1.0135858059E+000 -1.3972583413E-001  +1.7956868396E-004 +4.0473428089E-004  -4.5294460142E-004 -6.5808897489E-005  +1.0509879589E+000 +1.1216127872E-001 
2011322.904 +1.0158977509E+000 -9.3464553356E-002  -2.2552600421E-004 +7.8230333747E-004  +7.7580678044E-004 +4.7453885782E-004  +1.0474836826E+000 +1.1669370532E-001 
2136468.085 +1.0146751404E+000 -7.9788684845E-002  -7.1397225838E-005 +7.2089169407E-004  -1.9180309027E-004 +2.1262938390E-004  +1.0400810242E+000 +1.0703533888E-001 
2261613.267 +1.0153795481E+000 -5.6864738464E-002  -6.0617947020E-004 +1.0046214447E-004  -1.4859656221E-004 +1.0987988207E-003  +1.0287368298E+000 +1.2578597665E-001 
2386758.448 +1.0155900717E+000 -5.7149261236E-002  +7.4017414590E-005 +8.7189942133E-004  -6.8872031989E-004 +5.7250511600E-004  +1.0394517183E+000 +1.3511329889E-001 
2511903.630 +1.0182453394E+000 -4.0442585945E-002  -5.8173423167E-004 +1.0230895132E-003  -4.8912985949E-004 +2.5493802968E-004  +1.0488505363E+000 +1.4869904518E-001 
2637048.811 +1.0264041424E+000 -2.5341093540E-002  +1.1956364324E-004 +8.0131657887E-004  -4.0275781066E-004 +4.2753346497E-004  +1.0458890200E+000 +1.6516798735E-001 
2762193.992 +1.0269038677E+000 -9.2944987118E-003  -3.6070405622E-004 +9.7122933948E-004  -1.6090879217E-004 +7.9418544192E-004  +1.0447690487E+000 +1.7813917994E-001 
2887339.174 +1.0168359280E+000 -5.0747990608E-003  -3.7374830572E-004 +5.8602262288E-004  -3.8436683826E-004 +2.5755149545E-004  +1.0303788185E+000 +2.1301621199E-001 
3012484.355 +1.0225309134E+000 +1.1620908976E-002  -5.9938651975E-004 +5.1672186237E-004  -4.8271205742E-005 +4.5417080401E-004  +1.0662018061E+000 +2.3513141274E-001 
3137629.537 +1.0201421976E+000 +3.5105466843E-002  -7.1805279003E-004 +9.3532766914E-004  -1.0760901496E-003 +6.8343058228E-004  +1.1036522388E+000 +2.5196743011E-001 
3262774.718 +1.0147361755E+000 +4.2831704021E-002  -8.3167041885E-004 +5.9896369930E-004  -3.4321518615E-004 +1.1391050648E-003  +1.1263557673E+000 +2.5319436193E-001 
3387919.900 +1.0027891397E+000 +7.2776749730E-002  -8.9106219821E-004 +1.0725127067E-003  -7.1034941357E-004 +1.3486839598E-003  +1.1522817612E+000 +2.5508132577E-001 
3513065.081 +1.0275213718E+000 +7.8041329980E-002  -9.0019218624E-004 +1.2576418230E-003  -1.3003952336E-003 +1.1072597699E-003  +1.1701251268E+000 +2.8153324127E-001 
3638210.263 +1.0358225107E+000 +1.0553723574E-001  -1.1760690250E-003 +7.1522174403E-004  -9.4120472204E-004 +8.6734059732E-004  +1.1955842972E+000 +2.6729139686E-001 
3763355.444 +1.0551849604E+000 +1.1577835679E-001  -5.4281711346E-004 +1.3701905264E-003  -4.7055658069E-004 +1.1629939545E-003  +1.2273271084E+000 +2.4998231232E-001 
3888500.626 +1.0734896660E+000 +1.2335391343E-001  -5.3811777616E-004 +1.3791242382E-003  -1.2661833316E-003 +1.4950234909E-003  +1.2574237585E+000 +2.5642600656E-001 
4013645.807 +1.0227888823E+000 +4.6032048762E-002  -7.4736704119E-004 +1.7418029020E-003  -1.9227010489E-004 +2.1349717863E-003  +1.2153725624E+000 +1.0279569030E-001 
4138790.989 +9.4551944733E-001 -2.4382822216E-002  -3.4179582144E-004 +1.4312608400E-003  +5.3602532716E-005 +2.2135737818E-003  +1.1272902489E+000 -4.7747204080E-003 
4263936.170 +9.4069093466E-001 -2.3467700928E-002  +2.0674825646E-004 +2.1528434008E-003  +3.7518070894E-004 +1.8057817360E-003  +1.1104731560E+000 -4.1520096362E-002 
4389081.352 +9.4252896309E-001 -1.5704298392E-002  -3.7247838918E-004 +2.4497176055E-003  -4.5165696065E-004 +2.1903910674E-003  +1.0984392166E+000 -4.8574805260E-002 
4514226.533 +9.5125365257E-001 -1.7076944932E-002  -2.3323351343E-004 +1.8081580056E-003  -8.0043813796E-005 +2.0380555652E-003  +1.0947358608E+000 -6.8897381425E-002 
4639371.715 +9.6718245745E-001 -1.8489539623E-002  -3.5529717570E-004 +1.9472428830E-003  -1.9210157916E-004 +2.3191671353E-003  +1.0938601494E+000 -6.4360663295E-002 
4764516.896 +9.5730102062E-001 -1.8279809505E-002  -6.2298978446E-004 +2.2949143313E-003  -1.7075451615E-004 +2.3620983120E-003  +1.0830116272E+000 -8.2272060215E-002 
4889662.078 +9.5930105448E-001 -1.1602703482E-002  -9.3960191589E-004 +2.2672188934E-003  -1.6458854952E-004 +2.5448424276E-003  +1.0828565359E+000 -7.4809327722E-002 
5014807.259 +9.5739316940E-001 -1.5662655234E-002  -4.4650127529E-004 +2.9764922801E-003  +5.7509314502E-006 +2.5044193026E-003  +1.0571143627E+000 -7.4271321297E-002 
5139952.441 +9.6850544214E-001 -1.4867633581E-002  +2.3393725860E-004 +2.8173355386E-003  -4.1820303886E-004 +2.1609840915E-003  +1.0651896000E+000 -7.4201405048E-002 
5265097.622 +9.7158479691E-001 -1.4118991792E-002  -3.1748233596E-004 +2.0827390254E-003  -4.2890841723E-004 +2.2798753344E-003  +1.0449233055E+000 -8.6246751249E-002 
5390242.804 +9.7802197933E-001 -7.5419619679E-003  -2.6312802220E-004 +3.0833161436E-003  -2.8177650529E-004 +2.3182942532E-003  +1.0365582705E+000 -7.8635744750E-002 
5515387.985 +9.8435568810E-001 -1.2016497552E-002  +1.7620513972E-004 +2.5024008937E-003  -2.0963132556E-004 +2.8644585982E-003  +1.0347849131E+000 -9.3906402588E-002 
5640533.166 +9.8535907269E-001 -1.2213759124E-002  -3.6280287895E-004 +3.1196074560E-003  -2.9740037280E-004 +3.2417806797E-003  +1.0319986343E+000 -8.2398153841E-002 
5765678.348 +9.8201811314E-001 -8.2785263658E-003  -3.0557255377E-004 +2.8633018956E-003  -2.0593039517E-004 +2.6289005764E-003  +1.0322381258E+000 -8.5122391582E-002 
5890823.529 +9.8106521368E-001 -2.2424593568E-002  -1.7221088638E-004 +2.7253881563E-003  +1.7589781783E-004 +2.7680869680E-003  +1.0174150467E+000 -8.2100547850E-002 
6015968.711 +9.8627090454E-001 -2.0312115550E-002  +1.6546616098E-004 +2.4246948306E-003  -2.6778739993E-004 +3.0284272507E-003  +1.0191591978E+000 -8.2467883825E-002 
6141113.892 +9.8632287979E-001 -1.5345223248E-002  -3.2349512912E-004 +3.4410257358E-003  -1.7335431767E-004 +3.0977667775E-003  +1.0094615221E+000 -8.0889083445E-002 
6266259.074 +9.8706620932E-001 -1.6423963010E-002  -4.4119835366E-005 +3.2709420193E-003  -3.0864076689E-004 +3.2824713271E-003  +1.0020961761E+000 -7.3732666671E-002 
6391404.255 +9.8150932789E-001 -2.9020041227E-002  -2.0752051205E-004 +3.2124689315E-003  -3.6026741145E-004 +3.1574496534E-003  +1.0005570650E+000 -8.0769106746E-002 
6516549.437 +9.7919362783E-001 -2.2185757756E-002  -2.4726480478E-004 +3.3171158284E-003  -2.0764334477E-004 +3.1849464867E-003  +9.9438142776E-001 -7.2920456529E-002 
6641694.618 +9.8678708076E-001 -1.5428930521E-002  +1.6245973529E-004 +3.0102366582E-003  +2.6453673490E-004 +3.3943087328E-003  +9.9485909939E-001 -6.8329483271E-002 
6766839.800 +9.9042975903E-001 -1.9906684756E-002  +3.0035505188E-004 +3.2518294174E-003  +2.1033838857E-004 +3.2832026482E-003  +9.9073755741E-001 -6.9179996848E-002 
6891984.981 +9.8692619801E-001 -1.9526213408E-002  -4.3617299525E-005 +3.3866760787E-003  -7.1955844760E-005 +3.2012877055E-003  +9.8450380564E-001 -6.7885756493E-002 
7017130.163 +9.8206931353E-001 -1.7977058887E-002  +1.6376870917E-005 +3.3405353315E-003  -2.8300136910E-004 +3.6044833250E-003  +9.8580408096E-001 -6.2698796391E-002 
7142275.344 +9.8694735765E-001 -1.1794850230E-002  -5.7346886024E-005 +3.3092051744E-003  -2.1052255761E-005 +3.4982492216E-003  +9.8707288504E-001 -5.3105473518E-002 
7267420.526 +9.8622071743E-001 -1.2696698308E-002  -5.4010306485E-006 +3.6805670243E-003  -2.0368341939E-004 +3.6867160816E-003  +9.8131841421E-001 -5.6814983487E-002 
7392565.707 +9.8674029112E-001 -1.0641887784E-002  -1.6172369942E-004 +3.4837145358E-003  -1.2039986905E-004 +3.7379835267E-003  +9.8095571995E-001 -5.9008985758E-002 
7517710.889 +9.8753929138E-001 -1.2110278010E-002  -7.2120281402E-005 +3.7285618018E-003  +7.7332253568E-005 +3.5646716133E-003  +9.7968930006E-001 -5.5090308189E-002 
7642856.070 +9.8330658674E-001 -1.1773854494E-002  -1.2007483747E-005 +3.7421807647E-003  +1.5286845155E-005 +3.6906395108E-003  +9.7285091877E-001 -5.4039061069E-002 
7768001.252 +9.8722809553E-001 -1.0453745723E-002  +4.8207410146E-005 +3.9790733717E-003  +1.1006032582E-004 +3.7845443003E-003  +9.7017824650E-001 -4.8492372036E-002 
7893146.433 +9.8851501942E-001 -4.7492980957E-003  +3.9038714021E-006 +3.7307580933E-003  +2.1396437660E-004 +3.8312140387E-003  +9.7197699547E-001 -4.3995350599E-002 
8018291.615 +9.8565262556E-001 -8.5915923119E-003  +1.0724150343E-004 +4.0353643708E-003  +9.0369023383E-005 +3.7499363534E-003  +9.6756601334E-001 -4.6273514628E-002 
8143436.796 +9.8078995943E-001 -1.2256592512E-002  -3.0010705814E-005 +3.8810651749E-003  +3.0028983019E-005 +4.1108326986E-003  +9.7178804874E-001 -4.0724113584E-002 
8268581.977 +9.8318761587E-001 -1.4477550983E-002  +4.2719533667E-005 +3.9589283988E-003  -7.4268085882E-005 +4.0935636498E-003  +9.6880030632E-001 -3.4920632839E-002 
8393727.159 +9.8392969370E-001 -1.7320424318E-002  +5.6527787820E-006 +4.2043258436E-003  +5.7648867369E-007 +4.1966773570E-003  +9.6920293570E-001 -3.4669667482E-002 
8518872.340 +9.8411333561E-001 -1.6329020262E-002  +9.1945403256E-005 +4.2338091880E-003  +4.9827503972E-005 +4.1520511732E-003  +9.6585023403E-001 -3.1928479671E-002 
8644017.522 +9.8556500673E-001 -1.1421471834E-002  +6.7609478720E-005 +4.1277855635E-003  +6.8633118644E-005 +4.1760304011E-003  +9.7264653444E-001 -3.0117690563E-002 
8769162.703 +9.8844349384E-001 -1.0539680719E-002  +7.8098964877E-005 +4.0580267087E-003  +7.9431221820E-005 +4.2386027053E-003  +9.6885031462E-001 -3.0818969011E-002 
8894307.885 +9.8269516230E-001 -9.2242956161E-003  -4.3793115765E-005 +4.2537488043E-003  +1.3598881196E-004 +4.3305619620E-003  +9.6745461226E-001 -3.0965894461E-002 
9019453.066 +9.8525297642E-001 -1.2218058109E-002  +1.9084895030E-005 +4.2820656672E-003  -1.2191827409E-005 +4.3002404273E-003  +9.6997046471E-001 -2.8820872307E-002 
9144598.248 +9.8447895050E-001 -1.2967795134E-002  +5.1134265959E-006 +4.3699280359E-003  +2.4729524739E-005 +4.4889007695E-003  +9.7020792961E-001 -2.4611353874E-002 
9269743.429 +9.8395943642E-001 -1.1969655752E-002  -1.2360361870E-004 +4.5930827037E-003  -1.0665389709E-005 +4.6189636923E-003  +9.7163295746E-001 -2.3262351751E-002 
9394888.611 +9.8634946346E-001 -6.9478750229E-003  +1.4825654216E-004 +4.6298354864E-003  +5.5340351537E-005 +4.6133003198E-003  +9.6908301115E-001 -2.3926794529E-002 
9520033.792 +9.8703891039E-001 -1.0008245707E-002  +1.2526055798E-004 +4.6593304724E-003  +1.1520611588E-004 +4.6875304542E-003  +9.6977472305E-001 -2.0171284676E-002 
9645178.974 +9.8716866970E-001 -7.4253380299E-003  -3.6116805859E-005 +4.7188960016E-003  +7.8574055806E-005 +4.5605991036E-003  +9.7076272964E-001 -2.0086735487E-002 
9770324.155 +9.8764711618E-001 -4.6925842762E-003  -1.0454095900E-007 +4.7686379403E-003  +2.5427434593E-005 +4.6828738414E-003  +9.6860289574E-001 -1.6821205616E-002 
9895469.337 +9.8767638206E-001 -2.2846758366E-003  +1.6067642719E-006 +4.8496359959E-003  +3.3245421946E-005 +4.8952968791E-003  +9.6877884865E-001 -1.7228573561E-002 
10020614.518 +9.8718249798E-001 -3.2487511635E-003  +1.2006983161E-004 +4.7915223986E-003  -1.2064352632E-005 +4.9395789392E-003  +9.7004318237E-001 -1.3325154781E-002 
10145759.700 +9.8785185814E-001 -6.0068964958E-003  +8.2803424448E-005 +5.0381934270E-003  +8.2259997725E-005 +4.9764770083E-003  +9.7238767147E-001 -1.5102982521E-002 
10270904.881 +9.8964345455E-001 -4.7948956490E-003  +3.6153709516E-005 +4.9320356920E-003  +1.4333776198E-004 +5.0277514383E-003  +9.7255635262E-001 -1.4762490988E-002 
10396050.063 +9.8633235693E-001 -4.4354498386E-003  +1.6472372226E-004 +5.0858384930E-003  +8.9444452897E-005 +5.1505211741E-003  +9.7166848183E-001 -1.2147456408E-002 
10521195.244 +9.8913305998E-001 -5.8480203152E-003  +1.7377012409E-004 +5.1365541294E-003  +1.4464859851E-004 +5.2022477612E-003  +9.7429072857E-001 -1.4114290476E-002 
10646340.426 +9.8736846447E-001 -6.3968002796E-003  +8.0596189946E-005 +5.1693832502E-003  +3.0418857932E-005 +5.2299364470E-003  +9.7394359112E-001 -1.0090261698E-002 
10771485.607 +9.8834353685E-001 -5.4683089256E-003  +1.2670969591E-004 +5.2676806226E-003  +5.4720323533E-005 +5.1844599657E-003  +9.7491770983E-001 -9.0800821781E-003 
10896630.788 +9.8860239983E-001 -3.8762092590E-003  +9.7383977845E-005 +5.3148800507E-003  +1.1954479851E-004 +5.2610430866E-003  +9.7445678711E-001 -7.1808099747E-003 
11021775.970 +9.8825883865E-001 -3.5695433617E-003  +1.1060433462E-004 +5.3413733840E-003  +7.4465293437E-005 +5.3687971085E-003  +9.7562664747E-001 -7.6972544193E-003 
11146921.151 +9.8686009645E-001 -6.3806474209E-003  +1.9130948931E-004 +5.4052658379E-003  +1.2273550965E-004 +5.4461034015E-003  +9.7674334049E-001 -6.9601535797E-003 
11272066.333 +9.8627942801E-001 -6.6660344601E-003  +2.0839646459E-004 +5.5881063454E-003  +1.2688618153E-004 +5.5681932718E-003  +9.7457516193E-001 -7.9291462898E-003 
11397211.514 +9.8832952976E-001 -4.3204724789E-003  +8.8351778686E-005 +5.5968151428E-003  +8.7049091235E-005 +5.5468128994E-003  +9.7636854649E-001 -6.2483847141E-003 
11522356.696 +9.8824107647E-001 -4.5227408409E-003  +9.7475480288E-005 +5.6072380394E-003  +5.4139876738E-005 +5.6007783860E-003  +9.7712826729E-001 -6.0673058033E-003 
11647501.877 +9.8822140694E-001 -2.8838515282E-003  +1.8930458464E-004 +5.7260887697E-003  +9.9484343082E-005 +5.7276617736E-003  +9.7763055563E-001 -5.3798258305E-003 
11772647.059 +9.8910665512E-001 -4.1060447693E-003  +1.4068698511E-004 +5.8117397130E-003  +1.2430804782E-004 +5.7286731899E-003  +9.7702050209E-001 -5.5232048035E-003 
11897792.240 +9.8855972290E-001 -3.4877061844E-003  +9.2866830528E-005 +5.8068935759E-003  +1.6259751283E-004 +5.8171977289E-003  +9.7907829285E-001 -4.7166347504E-003 
12022937.422 +9.8913937807E-001 -2.2019445896E-003  +1.4628027566E-004 +5.8385636657E-003  +1.2371153571E-004 +5.8684768155E-003  +9.7791707516E-001 -5.0709843636E-003 
12148082.603 +9.9020814896E-001 -3.7851631641E-003  +1.7733057030E-004 +5.8958362788E-003  +1.6149668954E-004 +5.9177926742E-003  +9.7957110405E-001 -3.4535229206E-003 
12273227.785 +9.8930168152E-001 -1.3788342476E-003  +1.1395616457E-004 +6.0064843856E-003  +1.6049086116E-004 +5.9886509553E-003  +9.8013269901E-001 -4.3000578880E-003 
12398372.966 +9.9070292711E-001 -2.5787949562E-003  +1.9421090838E-004 +6.0367533006E-003  +2.3821997456E-004 +6.0617495328E-003  +9.8184692860E-001 -3.3907592297E-003 
12523518.148 +9.9018949270E-001 -2.2923648357E-003  +1.5230034478E-004 +6.0799187049E-003  +1.3919896446E-004 +6.0667898506E-003  +9.8012310266E-001 -3.0310600996E-003 
12648663.329 +9.8988848925E-001 -1.3305097818E-003  +1.8165889196E-004 +6.1386423185E-003  +1.7612800002E-004 +6.1934674159E-003  +9.8133635521E-001 -2.2755712271E-003 
12773808.511 +9.9020260572E-001 -2.8888285160E-003  +1.1868559523E-004 +6.2179928645E-003  +1.6683817375E-004 +6.1362693086E-003  +9.8202461004E-001 -2.5506615639E-003 
12898953.692 +9.9141490459E-001 -3.1616613269E-003  +2.0896847127E-004 +6.2852790579E-003  +1.4766218374E-004 +6.2692523934E-003  +9.8244273663E-001 -2.2829696536E-003 
13024098.874 +9.9076342583E-001 -1.4585852623E-003  +1.5283978428E-004 +6.3467463478E-003  +2.0435737679E-004 +6.3279643655E-003  +9.8346823454E-001 -4.0019303560E-004 
13149244.055 +9.9111223221E-001 -6.4880214632E-004  +2.0620724536E-004 +6.3641155139E-003  +1.7776878667E-004 +6.3854795881E-003  +9.8318475485E-001 -6.5457262099E-004 
13274389.237 +9.9163287878E-001 -1.8621608615E-003  +1.9595235062E-004 +6.5002012998E-003  +1.8683221424E-004 +6.4755459316E-003  +9.8535531759E-001 -6.6997297108E-004 
13399534.418 +9.9180006981E-001 -1.1512935162E-003  +1.8713442842E-004 +6.5031545237E-003  +1.3241945999E-004 +6.5363985486E-003  +9.8437237740E-001 +4.5853853226E-004 
13524679.599 +9.9194282293E-001 -7.4309110641E-004  +1.6682368005E-004 +6.5565868281E-003  +1.7574994126E-004 +6.5806438215E-003  +9.8505288363E-001 +7.9891085625E-004 
13649824.781 +9.9273645878E-001 -2.1950453520E-003  +1.9551790319E-004 +6.5976521000E-003  +1.7758668400E-004 +6.6316779703E-003  +9.8562252522E-001 +5.6943297386E-004 
13774969.962 +9.9265712500E-001 -1.1907368898E-003  +1.7887202557E-004 +6.6811647266E-003  +1.7647235654E-004 +6.6945292056E-003  +9.8616725206E-001 +6.6159665585E-004 
13900115.144 +9.9292147160E-001 -8.5762143135E-004  +2.3858912755E-004 +6.7514181137E-003  +1.7922953703E-004 +6.7551895045E-003  +9.8526972532E-001 +1.1198222637E-003 
14025260.325 +9.9195605516E-001 -4.3901801109E-004  +1.9435654394E-004 +6.8137855269E-003  +1.9722059369E-004 +6.7643206567E-003  +9.8591399193E-001 +5.1781535149E-004 
14150405.507 +9.9274671078E-001 -1.0639429092E-005  +2.0611309446E-004 +6.8787429482E-003  +2.2267247550E-004 +6.8530826829E-003  +9.8650342226E-001 +4.0102005005E-004 
14275550.688 +9.9288040400E-001 -9.5087289810E-004  +2.1525379270E-004 +6.8826628849E-003  +1.9336724654E-004 +6.9032297470E-003  +9.8633992672E-001 -2.8514862061E-004 
14400695.870 +9.9213737249E-001 -1.5382170677E-003  +2.0445836708E-004 +6.9476747885E-003  +1.9211182371E-004 +6.9630700164E-003  +9.8711985350E-001 +7.2461366653E-004 
