!  2-Port S-parameters saved by WinCal
! VAR MeasName=S-Parameters (CALIBRATED_DATA) read from VNA (P5004A)
! VAR MeasDate=22/05/2024 19:28:53
! VAR NAME=Wafer2_r2_c1_set4
! VAR FILENAME=Wafer2_r2_c1_set4.S2P
! VAR DATE=22/05/2024 19:28:53
! VAR PHYS_PORTS=1,2
! VAR ObjTypeName=DATASET
! VAR IndexType=Frequency
!
# Hz S RI R 50
9000.000 +2.1610480547E-001 -5.9171861410E-001  +1.0771819390E-002 -4.4220909476E-003  +2.6050512679E-003 -2.0606380422E-003  +4.8075389117E-002 +9.8827593029E-002 
134145.181 +9.3098533154E-001 +5.2519142628E-005  +3.1183965504E-002 +3.4228116274E-002  -5.8503422886E-002 -4.6943042427E-002  +9.4580405951E-001 +1.1073091626E-001 
259290.363 +9.2659783363E-001 -1.0838738084E-001  -5.6221312843E-003 -1.3063421939E-003  +1.3725634199E-003 -1.4920857502E-003  +1.0139136314E+000 -1.0329663754E-002 
384435.544 +9.7021031380E-001 -2.4595808983E-001  +1.3910301495E-003 -3.8031890290E-004  -3.1295283698E-003 -1.7189144855E-003  +1.0487056971E+000 -4.3980568647E-002 
509580.726 +9.9006325006E-001 -1.3101245463E-001  -5.5801332928E-004 +6.9129615440E-005  -2.2031054832E-003 +8.5454573855E-004  +1.0308185816E+000 -2.1631039679E-002 
634725.907 +1.0892558098E+000 -1.7603996396E-001  -2.2159746732E-004 -1.0629770113E-003  +6.5829037339E-005 -4.3932339759E-004  +1.0806266069E+000 -4.6491980553E-002 
759871.089 +1.2517671585E+000 -9.4988077879E-002  +1.7932930496E-004 +1.2622254435E-003  +3.6694924347E-004 +1.4780794736E-003  +1.1601482630E+000 -8.5474133492E-002 
885016.270 +5.5046242476E-001 -9.4764024019E-001  +5.4816352203E-003 -2.9018595815E-003  +1.1737759225E-002 +3.9882995188E-003  +1.4513870478E+000 -3.0448049307E-001 
1010161.452 +1.0071290731E+000 +4.4798448682E-002  -8.8473269716E-004 +1.0156478675E-004  -1.1730786646E-003 -1.5990194515E-004  +7.0219564438E-001 +3.3727997541E-001 
1135306.633 +1.0578438044E+000 +1.9496288896E-001  +1.8578250892E-003 -1.6104619135E-005  +9.7675481811E-005 -3.9901970886E-003  +8.9455902576E-001 +3.1950163841E-001 
1260451.815 +1.3527745008E+000 +1.2011632323E-001  -1.5546213835E-003 -2.1798168309E-003  -7.5237266719E-004 -8.8309939019E-004  +9.5493716002E-001 +2.9515680671E-001 
1385596.996 +1.2434713840E+000 -5.5591702461E-002  +4.1384468204E-004 -6.4473249950E-005  -9.7413430922E-005 -1.5140309697E-003  +9.8526972532E-001 +1.6176486015E-001 
1510742.178 +1.3573920727E+000 -1.2573105097E-001  +1.0710351635E-003 +1.5821536072E-003  +1.0812247638E-003 +1.8334380584E-003  +8.9837920666E-001 +1.9431248307E-001 
1635887.359 +9.9470674992E-001 -2.1647000313E-001  +9.2127750395E-004 -1.2852101354E-003  +9.2422764283E-004 +1.4150064671E-003  +1.1066884995E+000 +1.6247358918E-001 
1761032.541 +1.0212744474E+000 -1.7824220657E-001  +1.3585776323E-003 -8.6535123410E-004  +1.1543503497E-003 -1.3851298718E-004  +1.0543916225E+000 +2.0576256514E-001 
1886177.722 +1.0071544647E+000 -7.9339921474E-002  +1.9222384435E-004 +8.5723673692E-004  +6.1741448008E-004 -4.7726527555E-005  +1.0587558746E+000 +1.5443611145E-001 
2011322.904 +1.0143746138E+000 -6.0999333858E-002  +1.2866883771E-003 +1.3452675194E-003  +9.9902669899E-004 +1.4836710761E-004  +1.0503225327E+000 +1.4528015256E-001 
2136468.085 +1.0113136768E+000 -3.5692453384E-002  +6.6668284126E-004 -3.1169562135E-005  +6.4258865314E-004 +4.2664338253E-004  +1.0347696543E+000 +1.3413149118E-001 
2261613.267 +1.0055909157E+000 -2.5410860777E-002  +9.3482941156E-004 +1.0254355147E-003  +5.7532993378E-004 +3.2312481198E-004  +1.0230530500E+000 +1.5280297399E-001 
2386758.448 +1.0065989494E+000 -1.2086749077E-002  +7.9369748710E-004 +1.0140638333E-003  +1.6879601171E-003 +9.7887206357E-004  +1.0315691233E+000 +1.5874248743E-001 
2511903.630 +1.0074076653E+000 +2.1768569946E-002  +1.2065572664E-003 +1.1936932569E-003  +9.6003321232E-004 +1.3132907916E-003  +1.0454277992E+000 +1.7507895827E-001 
2637048.811 +1.0072745085E+000 +2.0695924759E-002  +1.2854428496E-003 +1.2665354880E-003  +9.5486093778E-004 +1.1053718626E-003  +1.0339533091E+000 +1.9828045368E-001 
2762193.992 +1.0011463165E+000 +4.9450807273E-002  +9.2491204850E-004 +1.3112447923E-003  +1.3672038913E-003 +1.1456628563E-003  +1.0270867348E+000 +2.0844540000E-001 
2887339.174 +9.8900717497E-001 +7.4798256159E-002  +1.1117602699E-003 +1.8368328456E-003  +1.3634584611E-003 +2.2162403911E-003  +1.0212211609E+000 +2.5418436527E-001 
3012484.355 +1.0036557913E+000 +8.7194740772E-002  +8.3113997243E-004 +1.4353444567E-003  +9.1835699277E-004 +1.3133592438E-003  +1.0475705862E+000 +2.8709954023E-001 
3137629.537 +1.0139939785E+000 +1.0441893339E-001  +1.0625470895E-003 +1.7391789006E-003  +1.0067925323E-003 +1.3773428509E-003  +1.0950801373E+000 +3.0923816562E-001 
3262774.718 +1.0175321102E+000 +1.1225064099E-001  +9.2897255672E-004 +1.5042248415E-003  +9.6197950188E-004 +1.7981721321E-003  +1.1192188263E+000 +3.1344643235E-001 
3387919.900 +1.0154775381E+000 +1.3154460490E-001  +7.1837077849E-004 +1.9203755073E-003  +9.1612804681E-004 +2.0510484464E-003  +1.1415737867E+000 +3.1937882304E-001 
3513065.081 +1.0326441526E+000 +1.5967947245E-001  +1.3296927791E-003 +1.9925676752E-003  +1.1152222287E-003 +1.8573334673E-003  +1.1698061228E+000 +3.3957505226E-001 
3638210.263 +1.0497535467E+000 +1.7508751154E-001  +1.5884377062E-003 +2.2917985916E-003  +7.7840458835E-004 +2.5530904531E-003  +1.2207579613E+000 +3.3108076453E-001 
3763355.444 +1.0721223354E+000 +1.8862584233E-001  +1.2597758323E-003 +2.0934510976E-003  +1.2159536127E-003 +3.0259329360E-003  +1.2519466877E+000 +3.1040322781E-001 
3888500.626 +1.0876891613E+000 +2.0008774102E-001  +1.1043418199E-003 +2.6000491343E-003  +5.5952952243E-004 +3.0169726815E-003  +1.2925932407E+000 +3.0151957273E-001 
4013645.807 +1.0569932461E+000 +1.0546933115E-001  +2.0350897685E-003 +3.4820144065E-003  +2.1766689606E-003 +3.2654283568E-003  +1.2568784952E+000 +1.4225026965E-001 
4138790.989 +9.9036139250E-001 +7.8600943089E-003  +2.3533154745E-003 +2.4153525010E-003  +3.3416957594E-003 +2.1691431757E-003  +1.1670128107E+000 +8.6182057858E-003 
4263936.170 +9.8722499609E-001 +1.7373289913E-002  +2.7232361026E-003 +2.2849440575E-003  +3.3003173303E-003 +2.9796219897E-003  +1.1632469893E+000 -2.3929238319E-002 
4389081.352 +9.9749177694E-001 -7.3641873896E-003  +2.6145782322E-003 +1.9004632486E-003  +2.6859608479E-003 +2.3371910211E-003  +1.1369775534E+000 -4.2463164777E-002 
4514226.533 +1.0038859844E+000 -8.3255507052E-003  +2.7019954287E-003 +2.9259813018E-003  +2.8605458792E-003 +2.4345652200E-003  +1.1439090967E+000 -5.9117577970E-002 
4639371.715 +1.0102339983E+000 -1.1680651456E-002  +3.0751083978E-003 +1.9363301108E-003  +2.8394521214E-003 +2.5183598045E-003  +1.1338015795E+000 -6.9484323263E-002 
4764516.896 +1.0044336319E+000 -1.7661251128E-002  +2.9218695126E-003 +2.6754592545E-003  +2.4683601223E-003 +2.0368446130E-003  +1.1271048784E+000 -9.3360066414E-002 
4889662.078 +1.0074620247E+000 -1.2904137373E-002  +2.8339412529E-003 +2.7298619971E-003  +2.8996227775E-003 +2.4826363660E-003  +1.1193455458E+000 -8.8322550058E-002 
5014807.259 +9.9966847897E-001 -1.3699151576E-002  +2.8825798072E-003 +2.7317220811E-003  +3.1212866306E-003 +2.9467572458E-003  +1.0974701643E+000 -9.1900870204E-002 
5139952.441 +1.0094535351E+000 -1.5929929912E-002  +3.1235846691E-003 +3.1654601917E-003  +2.7866908349E-003 +2.8302993160E-003  +1.0944782495E+000 -1.0681321472E-001 
5265097.622 +1.0125459433E+000 -7.2732716799E-003  +2.5834189728E-003 +2.9380437918E-003  +2.8702737764E-003 +3.0401844997E-003  +1.0808192492E+000 -1.0222005099E-001 
5390242.804 +1.0159424543E+000 -1.6139544547E-002  +2.6602828875E-003 +3.1944660004E-003  +2.8877365403E-003 +2.8025154024E-003  +1.0676845312E+000 -1.0364673287E-001 
5515387.985 +1.0207316875E+000 -1.8361277878E-002  +3.3611005638E-003 +3.2540587708E-003  +3.3246111125E-003 +2.9307089280E-003  +1.0620188713E+000 -1.0921731591E-001 
5640533.166 +1.0195701122E+000 -1.7863050103E-002  +2.6643893216E-003 +2.9286383651E-003  +3.1306496821E-003 +3.3641310874E-003  +1.0588350296E+000 -1.0141693056E-001 
5765678.348 +1.0077270269E+000 -2.3156054318E-002  +3.1660820823E-003 +2.7233762667E-003  +3.3797025681E-003 +2.8763355222E-003  +1.0500869751E+000 -1.1065176129E-001 
5890823.529 +1.0088369846E+000 -2.4806834757E-002  +3.1656767242E-003 +3.1625076663E-003  +3.3524478786E-003 +3.2679988071E-003  +1.0401520729E+000 -1.0866653174E-001 
6015968.711 +1.0082883835E+000 -2.8000347316E-002  +2.9621762224E-003 +3.0595280696E-003  +3.1636315398E-003 +3.0187508091E-003  +1.0366309881E+000 -9.8569579422E-002 
6141113.892 +1.0054026842E+000 -3.2040953636E-002  +3.0941525474E-003 +3.0179829337E-003  +3.3839116804E-003 +3.2632732764E-003  +1.0276973248E+000 -1.0391642153E-001 
6266259.074 +1.0037994385E+000 -3.2548986375E-002  +3.1433119439E-003 +3.2833300065E-003  +2.9592916835E-003 +3.0852272175E-003  +1.0189261436E+000 -9.9307648838E-002 
6391404.255 +1.0024120808E+000 -4.2654752731E-002  +3.1631533056E-003 +3.3230353147E-003  +3.1793254893E-003 +3.3132864628E-003  +1.0140602589E+000 -9.7634665668E-002 
6516549.437 +9.9644827843E-001 -3.7114873528E-002  +2.9233242385E-003 +3.4021139145E-003  +3.2101417892E-003 +3.3406319562E-003  +1.0091936588E+000 -9.4432011247E-002 
6641694.618 +1.0031113625E+000 -3.5785421729E-002  +3.3680675551E-003 +3.4282039851E-003  +3.1300790142E-003 +3.7463465706E-003  +1.0068479776E+000 -8.9318513870E-002 
6766839.800 +1.0061076880E+000 -4.2333528399E-002  +3.2734705601E-003 +3.3750927541E-003  +3.4217094071E-003 +3.2891780138E-003  +1.0013458729E+000 -9.2098131776E-002 
6891984.981 +9.9736267328E-001 -4.3796733022E-002  +3.2621813007E-003 +3.4940273035E-003  +3.1625418924E-003 +3.4352175426E-003  +9.8915660381E-001 -8.8336005807E-002 
7017130.163 +9.9505376816E-001 -4.0611341596E-002  +3.1462321058E-003 +3.2900853548E-003  +3.3982624300E-003 +3.6298045889E-003  +9.9248987436E-001 -8.0607518554E-002 
7142275.344 +9.9651378393E-001 -3.0102029443E-002  +3.3318933565E-003 +3.5530063324E-003  +3.4464977216E-003 +3.9615863934E-003  +9.8966354132E-001 -6.9569915533E-002 
7267420.526 +9.9584066868E-001 -2.4756699800E-002  +3.5048034042E-003 +3.6425832659E-003  +3.4022557084E-003 +3.6179851741E-003  +9.8754626513E-001 -7.2372674942E-002 
7392565.707 +1.0002514124E+000 -2.6008859277E-002  +3.3216311131E-003 +3.6397499498E-003  +3.3545680344E-003 +3.8432828151E-003  +9.8303699493E-001 -7.0801228285E-002 
7517710.889 +1.0013735294E+000 -2.3672774434E-002  +3.4096979070E-003 +3.9197234437E-003  +3.4930084366E-003 +3.8752190303E-003  +9.8122447729E-001 -6.6302046180E-002 
7642856.070 +9.9098122120E-001 -2.7581617236E-002  +3.3846090082E-003 +3.8373703137E-003  +3.1027467921E-003 +3.9124228060E-003  +9.7638177872E-001 -7.0786476135E-002 
7768001.252 +9.9457854033E-001 -2.3152038455E-002  +3.3467339817E-003 +3.9412439801E-003  +3.3105164766E-003 +3.7692612968E-003  +9.7409147024E-001 -6.9551497698E-002 
7893146.433 +9.9471205473E-001 -2.2896885872E-002  +3.1977819744E-003 +3.8749650121E-003  +3.2459599897E-003 +4.0122088976E-003  +9.7114872932E-001 -6.3253223896E-002 
8018291.615 +9.8958307505E-001 -3.0013889074E-002  +3.3727486152E-003 +3.9193257689E-003  +3.2675871626E-003 +4.0157870390E-003  +9.6619188786E-001 -6.4174026251E-002 
8143436.796 +9.8777598143E-001 -2.6231870055E-002  +3.4799678251E-003 +4.0337019600E-003  +3.2771835104E-003 +3.9208121598E-003  +9.6856409311E-001 -5.4959416389E-002 
8268581.977 +9.8513966799E-001 -2.3736417294E-002  +3.3015438821E-003 +3.9164111950E-003  +3.1089328695E-003 +4.0526906960E-003  +9.6628922224E-001 -5.1943659782E-002 
8393727.159 +9.8775553703E-001 -2.5680512190E-002  +3.3162946347E-003 +3.9464766160E-003  +3.2050460577E-003 +3.9449874312E-003  +9.6704459190E-001 -5.0421059132E-002 
8518872.340 +9.8559409380E-001 -2.4294704199E-002  +3.2062320970E-003 +4.2086467147E-003  +3.3024931327E-003 +4.0700878017E-003  +9.6788120270E-001 -4.4360548258E-002 
8644017.522 +9.8782265186E-001 -2.1967977285E-002  +3.2333196141E-003 +4.2852088809E-003  +3.3708447590E-003 +4.2892275378E-003  +9.7082722187E-001 -4.3930321932E-002 
8769162.703 +9.9109125137E-001 -2.2349566221E-002  +3.1965379603E-003 +4.4097620994E-003  +3.3029830083E-003 +4.3455846608E-003  +9.7131550312E-001 -4.4023633003E-002 
8894307.885 +9.8654842377E-001 -2.2161841393E-002  +3.3902293071E-003 +4.1461931542E-003  +3.3514201641E-003 +4.3303654529E-003  +9.6765547991E-001 -4.2993724346E-002 
9019453.066 +9.8507136106E-001 -2.0379930735E-002  +3.3544308972E-003 +4.4221323915E-003  +3.3439819235E-003 +4.3885628693E-003  +9.6676015854E-001 -3.8497865200E-002 
9144598.248 +9.8675972223E-001 -2.3489207029E-002  +3.2322965562E-003 +4.3495506980E-003  +3.2325768843E-003 +4.5095412061E-003  +9.6899610758E-001 -3.3523976803E-002 
9269743.429 +9.8557502031E-001 -2.2321045399E-002  +3.3930484205E-003 +4.4102622196E-003  +3.3264488447E-003 +4.5689176768E-003  +9.6884524822E-001 -3.3772051334E-002 
9394888.611 +9.8618292809E-001 -1.6160756350E-002  +3.1479396857E-003 +4.5510903001E-003  +3.3170883544E-003 +4.5412890613E-003  +9.6783846617E-001 -3.3191084862E-002 
9520033.792 +9.8530989885E-001 -1.9067436457E-002  +3.4221066162E-003 +4.7160657123E-003  +3.1556058675E-003 +4.6631158330E-003  +9.6581268311E-001 -3.1037151814E-002 
9645178.974 +9.8806715012E-001 -1.5313088894E-002  +3.2612164505E-003 +4.6993382275E-003  +3.1790931243E-003 +4.7130445018E-003  +9.6761274338E-001 -2.7756959200E-002 
9770324.155 +9.8710334301E-001 -1.2362211943E-002  +3.4011693206E-003 +4.7254627571E-003  +3.4055900760E-003 +4.8241964541E-003  +9.6496671438E-001 -2.5905668736E-002 
9895469.337 +9.8788088560E-001 -1.2326657772E-002  +3.4156301990E-003 +4.8295455053E-003  +3.3681807108E-003 +4.9270484596E-003  +9.6462583542E-001 -2.6181995869E-002 
10020614.518 +9.8486512899E-001 -1.1618345976E-002  +3.2639175188E-003 +4.9375984818E-003  +3.2466161065E-003 +4.8514194787E-003  +9.6699023247E-001 -2.0675480366E-002 
10145759.700 +9.8580110073E-001 -1.1538386345E-002  +3.5227448680E-003 +4.9191867001E-003  +3.2200412825E-003 +4.9840528518E-003  +9.6872353554E-001 -2.1545827389E-002 
10270904.881 +9.8669564724E-001 -1.3056159019E-002  +3.4337027464E-003 +5.0905821845E-003  +3.3018747345E-003 +5.0217704847E-003  +9.6811926365E-001 -2.2416055202E-002 
10396050.063 +9.8499011993E-001 -1.2248128653E-002  +3.4062713385E-003 +5.1336730830E-003  +3.2422598451E-003 +5.0370879471E-003  +9.6740090847E-001 -1.9551903009E-002 
10521195.244 +9.8701894283E-001 -1.0526061058E-002  +3.4514521249E-003 +5.1763639785E-003  +3.2854373567E-003 +5.1632341929E-003  +9.7089672089E-001 -1.7916887999E-002 
10646340.426 +9.8515307903E-001 -1.0428518057E-002  +3.3306670375E-003 +5.1739295013E-003  +3.2518333755E-003 +5.2547804080E-003  +9.6937954426E-001 -1.6745597124E-002 
10771485.607 +9.8507106304E-001 -1.0152816772E-002  +3.3463654108E-003 +5.2247443236E-003  +3.2449131832E-003 +5.3146444261E-003  +9.7092592716E-001 -1.4160573483E-002 
10896630.788 +9.8614096642E-001 -7.6247155666E-003  +3.3810967579E-003 +5.2243722603E-003  +3.2658618875E-003 +5.3098364733E-003  +9.7274327278E-001 -1.2922286987E-002 
11021775.970 +9.8620343208E-001 -9.1718733311E-003  +3.2748163212E-003 +5.3088460118E-003  +3.3096927218E-003 +5.4101943970E-003  +9.7240465879E-001 -1.2113392353E-002 
11146921.151 +9.8619335890E-001 -9.6038579941E-003  +3.3245231025E-003 +5.4923249409E-003  +3.2792536076E-003 +5.4799197242E-003  +9.7353971004E-001 -1.1002093554E-002 
11272066.333 +9.8402416706E-001 -8.4252357483E-003  +3.3895240631E-003 +5.4405815899E-003  +3.2705313060E-003 +5.4684327915E-003  +9.7182416916E-001 -1.1766523123E-002 
11397211.514 +9.8634076118E-001 -7.8454017639E-003  +3.4083898645E-003 +5.5200867355E-003  +3.2417140901E-003 +5.5333967321E-003  +9.7154760361E-001 -9.8405778408E-003 
11522356.696 +9.8773562908E-001 -7.2507560253E-003  +3.2892748713E-003 +5.5823344737E-003  +3.3558737487E-003 +5.6392457336E-003  +9.7435730696E-001 -1.0941535234E-002 
11647501.877 +9.8584854603E-001 -7.5483918190E-003  +3.4279604442E-003 +5.6543024257E-003  +3.2541172113E-003 +5.6678098626E-003  +9.7331380844E-001 -9.1300904751E-003 
11772647.059 +9.8758512735E-001 -6.1126351357E-003  +3.3846630249E-003 +5.7244892232E-003  +3.3126447815E-003 +5.6960848160E-003  +9.7378718853E-001 -8.7316930294E-003 
11897792.240 +9.8647123575E-001 -5.6208074093E-003  +3.4193170723E-003 +5.7629705407E-003  +3.3959608991E-003 +5.7520880364E-003  +9.7547155619E-001 -8.5037648678E-003 
12022937.422 +9.8952293396E-001 -5.2608847618E-003  +3.4266891889E-003 +5.7667279616E-003  +3.3750378061E-003 +5.7989442721E-003  +9.7571188211E-001 -7.6892077923E-003 
12148082.603 +9.8884373903E-001 -5.2587091923E-003  +3.3546129707E-003 +5.8279340155E-003  +3.3286986873E-003 +5.8825844899E-003  +9.7653174400E-001 -4.9514472485E-003 
12273227.785 +9.8903369904E-001 -4.1593611240E-003  +3.4271155018E-003 +5.9113614261E-003  +3.4561082721E-003 +5.9401472099E-003  +9.7755467892E-001 -6.8846642971E-003 
12398372.966 +9.8890751600E-001 -3.2577514648E-003  +3.4025628120E-003 +6.0251168907E-003  +3.4161047079E-003 +6.0340319760E-003  +9.7902929783E-001 -6.2881708145E-003 
12523518.148 +9.8798614740E-001 -4.1943490505E-003  +3.3526958432E-003 +6.0543990694E-003  +3.4291651100E-003 +6.0379952192E-003  +9.7706198692E-001 -5.9641748667E-003 
12648663.329 +9.9072623253E-001 -2.6845186949E-003  +3.4212809987E-003 +6.0899527743E-003  +3.4211424645E-003 +6.1053638346E-003  +9.7884869576E-001 -5.2317231894E-003 
12773808.511 +9.8940223455E-001 -4.1456520557E-003  +3.4404890612E-003 +6.1089340597E-003  +3.4631849267E-003 +6.1877346598E-003  +9.7895938158E-001 -5.2856951952E-003 
12898953.692 +9.8929959536E-001 -3.8041621447E-003  +3.3759898506E-003 +6.2436987646E-003  +3.4324035514E-003 +6.2180208042E-003  +9.7983342409E-001 -5.0564557314E-003 
13024098.874 +9.8944503069E-001 -3.5945102572E-003  +3.4727570601E-003 +6.2914672308E-003  +3.3691257704E-003 +6.3134329394E-003  +9.8000186682E-001 -4.2537674308E-003 
13149244.055 +9.8989850283E-001 -3.3635627478E-003  +3.4399537835E-003 +6.3305306248E-003  +3.3871291671E-003 +6.3650831580E-003  +9.8089808226E-001 -3.0721593648E-003 
13274389.237 +9.8953473568E-001 -4.8660673201E-003  +3.4526239615E-003 +6.4006522298E-003  +3.3847449813E-003 +6.3952622004E-003  +9.8268103600E-001 -4.0721688420E-003 
13399534.418 +9.9059015512E-001 -3.2949298620E-003  +3.4333278891E-003 +6.4370762557E-003  +3.3779558726E-003 +6.4515401609E-003  +9.8138016462E-001 -3.0093789101E-003 
13524679.599 +9.8989856243E-001 -3.5572797060E-003  +3.4251813777E-003 +6.5096337348E-003  +3.4766457975E-003 +6.5287277102E-003  +9.8192352057E-001 -3.0081719160E-003 
13649824.781 +9.9062073231E-001 -3.7151575089E-003  +3.4314498771E-003 +6.5993629396E-003  +3.4406683408E-003 +6.5745417960E-003  +9.8319858313E-001 -3.1028389931E-003 
13774969.962 +9.9055725336E-001 -3.8178265095E-003  +3.4502176568E-003 +6.6058598459E-003  +3.4316559322E-003 +6.5896799788E-003  +9.8276513815E-001 -3.2440423965E-003 
13900115.144 +9.9092948437E-001 -4.5117139816E-003  +3.3784515690E-003 +6.6521116532E-003  +3.4331483766E-003 +6.6876714118E-003  +9.8226529360E-001 -2.8470754623E-003 
14025260.325 +9.9014520645E-001 -3.1795203686E-003  +3.4084301442E-003 +6.7308316939E-003  +3.4520938061E-003 +6.7206458189E-003  +9.8328971863E-001 -2.8063654900E-003 
14150405.507 +9.9104118347E-001 -3.4241080284E-003  +3.4806260373E-003 +6.8011889234E-003  +3.4298761748E-003 +6.8185240962E-003  +9.8336130381E-001 -2.2681951523E-003 
14275550.688 +9.9062609673E-001 -4.0298700333E-003  +3.4260971006E-003 +6.8696574308E-003  +3.4134094603E-003 +6.8344343454E-003  +9.8378407955E-001 -2.2799074650E-003 
14400695.870 +9.9026870728E-001 -2.9812157154E-003  +3.4098690376E-003 +6.9198189303E-003  +3.3666915260E-003 +6.9025205448E-003  +9.8418903351E-001 -1.7535090446E-003 
