!  2-Port S-parameters saved by WinCal
! VAR MeasName=S-Parameters (CALIBRATED_DATA) read from VNA (P5004A)
! VAR MeasDate=22/05/2024 16:38:50
! VAR NAME=Wafer2_r10_c2_thru
! VAR FILENAME=Wafer2_r10_c2_thru.S2P
! VAR DATE=22/05/2024 16:38:50
! VAR PHYS_PORTS=1,2
! VAR ObjTypeName=DATASET
! VAR IndexType=Frequency
!
# Hz S RI R 50
9000.000 +2.9693475366E-001 -4.8305308819E-001  -2.5427661836E-002 -1.7239099741E-001  +1.2611346319E-003 +3.1004345044E-002  +1.6830641031E-001 -4.9834802747E-002 
134145.181 +7.0614194870E-001 +2.8173398972E-001  +3.0281659961E-001 -1.8663688004E-001  +4.1017439961E-001 -2.3551745713E-001  +1.4454558492E-001 +6.0866482556E-002 
259290.363 +3.3478987217E-001 -5.3113251925E-003  +7.8189975023E-001 +1.5169113874E-001  +8.1847441196E-001 +2.1351844072E-002  -8.5279718041E-003 -2.5307145715E-001 
384435.544 +5.4348248243E-001 +2.8955712914E-002  +5.1671284437E-001 -1.7121340334E-001  +5.2891331911E-001 -1.7417113483E-001  +3.5021471977E-001 +1.5065336227E-001 
509580.726 +6.6535484791E-001 -3.0130878091E-002  +3.7836977839E-001 -6.1665728688E-002  +4.0421035886E-001 -5.1247663796E-002  +4.6255487204E-001 +2.5431141257E-002 
634725.907 +8.0862438679E-001 -1.2847366929E-001  +2.6076743007E-001 +3.3773384988E-002  +2.6185172796E-001 +2.1104604006E-002  +7.2057479620E-001 -7.8382819891E-002 
759871.089 +1.2204171419E+000 -7.9245686531E-001  -1.1440430582E-001 +8.7224584818E-001  -1.2185394019E-001 +8.7158977985E-001  +1.1130353212E+000 -1.1131271124E+000 
885016.270 +7.1978318691E-001 +2.2486848831E+000  +4.2257574201E-001 -2.6542532444E+000  +4.3762344122E-001 -2.6777389050E+000  +2.6418823004E-001 +2.9243221283E+000 
1010161.452 +4.1825294495E-001 +3.6712321639E-001  +8.5133039951E-001 -6.5148645639E-001  +8.4777563810E-001 -6.5367639065E-001  -1.7907190323E-001 +9.5513868332E-001 
1135306.633 +2.4049831927E-001 +1.8440556526E-001  +8.1691902876E-001 -3.1029626727E-001  +8.2063180208E-001 -3.2271862030E-001  +9.2237874866E-002 +4.8408684134E-001 
1260451.815 +4.7188547254E-001 -9.2275023460E-002  +6.8157726526E-001 -2.7400441468E-002  +6.8901526928E-001 -1.5448160470E-002  +2.6851218939E-001 +1.5483401716E-001 
1385596.996 +4.9909758568E-001 -3.2909506559E-001  +6.6247069836E-001 +2.1329917014E-001  +6.7611402273E-001 +2.1010266244E-001  +2.5485756993E-001 -1.5655803680E-001 
1510742.178 +3.2219666243E-001 -3.1672933698E-001  +9.7254115343E-001 +1.4107373357E-001  +9.6917408705E-001 +1.3919973373E-001  -1.3307565451E-001 -1.2654879689E-001 
1635887.359 +2.9624173045E-001 -7.5945705175E-001  +6.9701915979E-001 +4.8591914773E-001  +6.9808375835E-001 +4.7946146131E-001  +2.2655899823E-001 -3.1267663836E-001 
1761032.541 -4.4864499569E-001 -1.3781293631E+000  +1.4000772238E+000 +9.5478266478E-001  +1.3928613663E+000 +9.6318715811E-001  -3.9169251919E-001 -7.3202037811E-001 
1886177.722 -1.1279218197E+000 -3.5038158298E-001  +1.9398549795E+000 +2.2673779726E-001  +1.9385516644E+000 +2.0339404047E-001  -7.9721498489E-001 -1.6850489378E-001 
2011322.904 -6.4178854227E-001 +1.8697294593E-001  +1.4596478939E+000 -2.1806675196E-001  +1.4585057497E+000 -2.2030749917E-001  -3.2570740581E-001 +2.0459370315E-001 
2136468.085 -5.9551930428E-001 +3.1959235668E-001  +1.3925946951E+000 -3.8129657507E-001  +1.3911956549E+000 -3.8139459491E-001  -2.4040353298E-001 +3.7262052298E-001 
2261613.267 -2.4037978053E-001 +2.3835799098E-001  +1.1247264147E+000 -2.6476007700E-001  +1.1184070110E+000 -2.6921045780E-001  -4.5083679259E-002 +2.4214267731E-001 
2386758.448 -2.4021807313E-001 +2.3475776613E-001  +1.0936768055E+000 -2.4387949705E-001  +1.0940434933E+000 -2.4039533734E-001  +7.0972740650E-003 +2.0474071801E-001 
2511903.630 -1.8639749289E-001 +1.8213777244E-001  +1.0439574718E+000 -1.6786642373E-001  +1.0435869694E+000 -1.6628548503E-001  +6.1147920787E-002 +1.2547577918E-001 
2637048.811 -1.2422937155E-001 +1.6902746260E-001  +1.0124167204E+000 -1.6482159495E-001  +1.0108056068E+000 -1.6766986251E-001  +6.4144305885E-002 +1.2221532315E-001 
2762193.992 -1.0782393068E-001 +1.1605229974E-001  +9.9828380346E-001 -1.2281155586E-001  +9.9979960918E-001 -1.2323597819E-001  +8.1349298358E-002 +7.6797544956E-002 
2887339.174 -6.7590892315E-002 +8.8520437479E-002  +9.5178800821E-001 -8.2986891270E-002  +9.5330458879E-001 -8.3000898361E-002  +9.3315973878E-002 +4.6878568828E-002 
3012484.355 -1.1267817765E-001 +9.2800796032E-002  +9.7728711367E-001 -8.0885380507E-002  +9.7395795584E-001 -8.0489188433E-002  +9.5951519907E-002 +4.5814126730E-002 
3137629.537 -7.4689276516E-002 +7.4681684375E-002  +9.7033143044E-001 -5.8286428452E-002  +9.6788066626E-001 -5.6966513395E-002  +8.1836350262E-002 +3.1656846404E-002 
3262774.718 -5.8904670179E-002 +8.1053473055E-002  +9.6877235174E-001 -4.9543499947E-002  +9.6696734428E-001 -4.8589617014E-002  +7.7010430396E-002 +1.3988573104E-002 
3387919.900 -5.0612762570E-002 +1.0618326068E-001  +9.4301116467E-001 -5.8736324310E-002  +9.4394010305E-001 -5.7861924171E-002  +8.5004851222E-002 +8.4660612047E-003 
3513065.081 -4.1581608355E-002 +8.9932523668E-002  +9.5339328051E-001 -4.1153132915E-002  +9.5340186357E-001 -4.0518343449E-002  +7.1678645909E-002 -4.3991785496E-003 
3638210.263 -3.8655217737E-002 +7.3571585119E-002  +9.5121634007E-001 -2.6685655117E-002  +9.4993907213E-001 -2.5974541903E-002  +7.5936473906E-002 -1.1379048228E-003 
3763355.444 -4.2882505804E-002 +6.2544494867E-002  +9.6511107683E-001 -2.6115626097E-002  +9.6606981754E-001 -2.5867581367E-002  +6.7468024790E-002 -4.3676346540E-003 
3888500.626 -2.9413286597E-002 +6.6872008145E-002  +9.7877562046E-001 -9.2830955982E-003  +9.6968549490E-001 -1.1216372252E-002  +6.0667533427E-002 -2.3929692805E-002 
4013645.807 -2.1104257554E-002 +4.9375958741E-002  +9.7052669525E-001 -5.9310793877E-003  +9.6632945538E-001 -6.7998468876E-003  +5.3376812488E-002 -3.8454607129E-003 
4138790.989 -9.2921424657E-003 +5.5523067713E-002  +9.7443330288E-001 -4.5704841614E-004  +9.7495567799E-001 -2.2909641266E-003  +3.7012495100E-002 -8.6494311690E-003 
4263936.170 -9.8591819406E-003 +4.4601246715E-002  +9.6868550777E-001 -5.9290528297E-003  +9.7058057785E-001 -6.3815414906E-003  +3.5538733006E-002 -7.3570068926E-003 
4389081.352 -1.0041730478E-002 +4.0492013097E-002  +9.7766661644E-001 -9.8466873169E-005  +9.7446405888E-001 -2.3272037506E-003  +3.3082704991E-002 -1.5586561523E-002 
4514226.533 -1.4697516337E-002 +3.3278238028E-002  +9.8419767618E-001 -1.2029200792E-002  +9.8263251781E-001 -9.6538960934E-003  +3.2415356487E-002 -1.0890796781E-002 
4639371.715 +1.2114830315E-003 +3.3955059946E-002  +9.8504209518E-001 -2.2072196007E-003  +9.8598313332E-001 +1.2084841728E-003  +2.4106727913E-002 -2.2802891210E-002 
4764516.896 -4.2265225202E-003 +3.4970864654E-002  +9.8648107052E-001 -3.2237768173E-003  +9.8942840099E-001 -5.0450563431E-003  +1.7998481169E-002 -2.4317098781E-002 
4889662.078 +3.2251151279E-003 +3.4497089684E-002  +9.8126196861E-001 +4.4628083706E-003  +9.7714656591E-001 +6.3717365265E-004  +2.1592631936E-002 -1.0513534769E-002 
5014807.259 +7.8762117773E-003 +2.6869151741E-002  +9.8514568806E-001 +3.5924911499E-003  +9.8525238037E-001 +6.1308741570E-003  +1.3845447451E-002 -1.1337385513E-002 
5139952.441 +1.2328970246E-002 +2.3146027699E-002  +9.8570799828E-001 -3.1721591949E-004  +9.8421967030E-001 +6.4393877983E-004  +9.1398376971E-003 -1.4450584538E-002 
5265097.622 +7.3862341233E-003 +2.4774519727E-002  +9.8992007971E-001 +2.2413432598E-003  +9.8098528385E-001 +2.6140511036E-003  +1.9565762952E-002 -1.0571138933E-002 
5390242.804 +1.1400091462E-002 +2.1229229867E-002  +9.8745876551E-001 -2.9365420341E-003  +9.8770618439E-001 +6.8874955177E-003  +1.2858114205E-002 -1.6299668700E-002 
5515387.985 +1.4703030698E-002 +2.3649543524E-002  +9.8886626959E-001 +2.1923184395E-003  +9.8559260368E-001 +4.1108727455E-003  +1.2201183476E-002 -1.7997521907E-002 
5640533.166 +1.4691201039E-002 +2.7210151777E-002  +9.9057734013E-001 +2.5890767574E-003  +9.8825907707E-001 +2.9348433018E-003  +6.0335202143E-003 -2.0507680252E-002 
5765678.348 +1.3093851507E-002 +2.6570014656E-002  +9.9039250612E-001 +1.1351704597E-003  +9.8758614063E-001 -1.6391277313E-005  +2.3598226253E-003 -1.1385701597E-002 
5890823.529 +1.7783848569E-002 +2.0244022831E-002  +9.9121916294E-001 +2.1798908710E-003  +9.9222266674E-001 +2.1329522133E-004  +1.0019520298E-002 -1.6081230715E-002 
6015968.711 +1.7225297168E-002 +1.9249169156E-002  +9.9281454086E-001 +1.0322034359E-003  +9.9055916071E-001 +2.2613704205E-003  +5.7847211137E-003 -1.8221281469E-002 
6141113.892 +6.4590116963E-003 +1.8340546638E-002  +9.9113345146E-001 +9.8884105682E-005  +9.8718756437E-001 +2.1429955959E-003  -5.3764181212E-004 -1.6918035224E-002 
6266259.074 +1.3459797949E-002 +1.2123748660E-002  +9.9175667763E-001 +8.2761049271E-005  +9.9288356304E-001 +2.2440850735E-003  +4.6480083838E-003 -1.3832859695E-002 
6391404.255 +1.1616040021E-002 +1.3076933101E-002  +9.9176126719E-001 -1.2061595917E-003  +9.9331617355E-001 +4.9373507500E-004  +6.0404827818E-003 -1.4030830935E-002 
6516549.437 +1.3535879552E-002 +1.2582147494E-002  +9.8909467459E-001 +5.7110190392E-004  +9.9107176065E-001 +1.6945600510E-003  +1.3043859508E-003 -1.2752997689E-002 
6641694.618 +1.7269939184E-002 +1.3690138236E-002  +9.9378186464E-001 +6.1503052711E-004  +9.9365222454E-001 +2.0104646683E-004  +3.1549881678E-003 -1.2032520026E-002 
6766839.800 +1.6020724550E-002 +1.5608284622E-002  +9.9329733849E-001 +1.4570802450E-003  +9.9440056086E-001 -9.3430280685E-005  +4.1897268966E-003 -1.8963858485E-002 
6891984.981 +1.2338556349E-002 +6.9461092353E-003  +9.9166280031E-001 +1.3263970613E-003  +9.9353063107E-001 -5.9588253498E-004  +1.1089206673E-003 -1.3668482192E-002 
7017130.163 +1.5415286645E-002 +4.0677571669E-003  +9.9348938465E-001 -1.3494342566E-003  +9.9255776405E-001 -1.0519921780E-003  +6.1624427326E-003 -1.1963993311E-002 
7142275.344 +1.4592418447E-002 +1.0557828471E-002  +9.9221169949E-001 -9.2054903507E-004  +9.9242675304E-001 +1.7407536507E-003  +2.0837550983E-003 -8.7873442098E-003 
7267420.526 +1.5472969972E-002 +7.3445765302E-003  +9.9132537842E-001 +5.7090818882E-004  +9.9391609430E-001 +1.1773705482E-003  +3.6781593226E-003 -6.9387825206E-003 
7392565.707 +1.6402609646E-002 +9.7282659262E-003  +9.9274015427E-001 +8.4085017443E-004  +9.9340486526E-001 +5.6713819504E-004  +6.1712744646E-003 -7.0184627548E-003 
7517710.889 +1.5316287056E-002 +5.1278723404E-003  +9.9232506752E-001 +2.1066367626E-003  +9.9298554659E-001 -2.0034611225E-005  +4.4200555421E-003 -6.0734683648E-003 
7642856.070 +1.0536039248E-002 +6.4885024913E-003  +9.9002128839E-001 -6.5584480762E-004  +9.9178212881E-001 +9.8154693842E-004  +4.4498671778E-003 -4.7026476823E-003 
7768001.252 +1.3137726113E-002 +3.3324544784E-003  +9.9123591185E-001 -2.2795870900E-003  +9.9306946993E-001 +1.5075206757E-003  +3.5301025491E-003 -6.9543705322E-003 
7893146.433 +1.6772637144E-002 +6.0318838805E-003  +9.9360191822E-001 -4.4740736485E-005  +9.9257087708E-001 +9.2534720898E-004  +5.1740170456E-003 -5.6164455600E-003 
8018291.615 +1.4476310462E-002 +5.9265210293E-003  +9.9194681644E-001 +1.5307292342E-003  +9.9291867018E-001 -2.0026583225E-003  +2.8553395532E-003 -5.1022507250E-003 
8143436.796 +1.4606106095E-002 +5.9943706729E-003  +9.9416679144E-001 -1.3928012922E-003  +9.9218982458E-001 -4.7761294991E-004  +3.5339986789E-004 -7.4515091255E-003 
8268581.977 +1.5830894932E-002 +4.1389442049E-003  +9.9278402328E-001 -6.0787051916E-004  +9.9344873428E-001 +1.1317953467E-003  +1.5751806786E-003 -5.2967276424E-003 
8393727.159 +1.6136644408E-002 +3.4771668725E-003  +9.9355560541E-001 +2.8607621789E-004  +9.9340957403E-001 -1.5299767256E-004  +3.2691790257E-003 -4.3602455407E-003 
8518872.340 +1.6623543575E-002 +2.1178221796E-003  +9.9424368143E-001 +8.8335573673E-004  +9.9265307188E-001 +3.5652518272E-004  +2.6598288678E-003 -8.8729988784E-003 
8644017.522 +1.1367565952E-002 +3.4487303346E-003  +9.9210321903E-001 -5.6232511997E-004  +9.9267721176E-001 -9.1106444597E-004  +5.7373517193E-003 -6.6714915447E-003 
8769162.703 +9.3711260706E-003 +1.5642328653E-003  +9.9209988117E-001 -3.9756298065E-005  +9.9160200357E-001 -2.3931264877E-004  +3.9956443943E-003 -7.1495054290E-003 
8894307.885 +1.2111727148E-002 +3.4817075357E-004  +9.9384880066E-001 -7.9636275768E-004  +9.9240750074E-001 -1.3500452042E-005  +3.3492168877E-003 -6.7032277584E-003 
9019453.066 +1.2292099185E-002 -1.5104282647E-003  +9.9255079031E-001 -3.2089799643E-003  +9.9408453703E-001 -1.2416392565E-003  +3.4502602648E-003 -7.1400729939E-003 
9144598.248 +1.5357319266E-002 +1.3860071776E-003  +9.9359506369E-001 -1.4325231314E-003  +9.9324506521E-001 -1.6735494137E-004  +1.1084128637E-003 -1.0518977419E-002 
9269743.429 +1.4044623822E-002 -9.1976067051E-004  +9.9335378408E-001 +1.1917501688E-003  +9.9176931381E-001 +5.1416456699E-004  +4.8555089161E-003 -5.9930519201E-003 
9394888.611 +1.1098122224E-002 -6.0783233494E-005  +9.9313926697E-001 -4.3860077858E-004  +9.9376326799E-001 -1.0129809380E-003  +1.5811283374E-003 -7.2605153546E-003 
9520033.792 +1.0214952752E-002 -2.4129231460E-003  +9.9461942911E-001 -5.5968761444E-005  +9.9362927675E-001 -6.5800547600E-004  +5.2209114656E-003 -5.7797678746E-003 
9645178.974 +1.3330046088E-002 -9.3923253007E-004  +9.9313145876E-001 -1.2844502926E-003  +9.9312889576E-001 +9.4476342201E-004  +1.9974887837E-003 -4.9871839583E-003 
9770324.155 +1.3367438689E-002 +1.3717601541E-003  +9.9257129431E-001 -6.5600872040E-004  +9.9226152897E-001 -6.2352418900E-004  -6.5667554736E-006 -3.7196502090E-003 
9895469.337 +1.2960769236E-002 -8.0924481153E-005  +9.9284911156E-001 -6.7743659019E-004  +9.9242460728E-001 +1.7538666725E-004  +1.1555559468E-004 -3.2149311155E-003 
10020614.518 +1.2584140524E-002 -1.0079811327E-003  +9.9177253246E-001 -1.0007917881E-003  +9.9385982752E-001 -3.5139918327E-004  +2.3008871358E-003 -1.6808577348E-003 
10145759.700 +1.1758044362E-002 +5.9134699404E-004  +9.9316602945E-001 -7.7977776527E-004  +9.9262255430E-001 -9.9718570709E-005  +3.7507030647E-003 -3.3759002108E-003 
10270904.881 +1.3269806281E-002 +8.6074415594E-004  +9.9272656441E-001 -8.9120864868E-004  +9.9274605513E-001 -1.3558566570E-003  +1.9935655873E-003 -5.3056841716E-003 
10396050.063 +1.2760153040E-002 +5.9763761237E-004  +9.9197250605E-001 -3.3754110336E-004  +9.9226534367E-001 -1.1152327061E-003  +9.7887369338E-004 -5.7282987982E-003 
10521195.244 +1.2326081283E-002 -3.1807832420E-004  +9.9336302280E-001 -7.2142481804E-004  +9.9294531345E-001 -1.1392235756E-003  +3.6478638649E-003 -4.9199033529E-003 
10646340.426 +1.1596858501E-002 -2.3622997105E-005  +9.9239456654E-001 -1.0834634304E-003  +9.9270719290E-001 -2.4348497391E-005  +2.3493028712E-003 -4.4413642026E-003 
10771485.607 +1.4202791266E-002 +1.7440994270E-003  +9.9200254679E-001 -9.8907947540E-004  +9.9230927229E-001 -3.0329823494E-004  +2.3554463405E-003 -4.4720987789E-003 
10896630.788 +1.0443686508E-002 +4.4513400644E-004  +9.9265694618E-001 -5.8022141457E-004  +9.9312591553E-001 -1.0168552399E-003  +3.2868622802E-003 -2.5633336045E-003 
11021775.970 +1.2330558151E-002 +2.7083801106E-003  +9.9193948507E-001 +3.2535195351E-004  +9.9346446991E-001 -6.6605210304E-004  +2.4322252721E-003 -3.8631791249E-003 
11146921.151 +1.0924445465E-002 -4.7371024266E-004  +9.9237895012E-001 -7.3570013046E-004  +9.9287402630E-001 -1.4007091522E-004  +3.9446284063E-003 -4.4395294972E-003 
11272066.333 +1.0727079585E-002 -7.0473179221E-006  +9.9249517918E-001 -8.4045529366E-004  +9.9266582727E-001 -4.1377544403E-004  +2.3482730612E-003 -5.2975779399E-003 
11397211.514 +1.0112715885E-002 +6.3471589237E-004  +9.9222224951E-001 -3.0273199081E-004  +9.9258542061E-001 -1.9162893295E-005  +4.0184315294E-003 -1.5515022678E-003 
11522356.696 +1.0695814155E-002 +2.1307170391E-004  +9.9292719364E-001 -3.4207105637E-004  +9.9262660742E-001 -3.2484531403E-006  +3.9690495469E-003 -3.4076499287E-003 
11647501.877 +1.1255608872E-002 +1.4508371241E-003  +9.9244332314E-001 -7.1519613266E-004  +9.9226868153E-001 -7.5042247772E-004  +2.9102358967E-003 -2.4077678099E-003 
11772647.059 +1.0721011087E-002 -6.4680352807E-004  +9.9265325069E-001 +1.6000866890E-004  +9.9344283342E-001 +1.5664100647E-004  +3.2008825801E-003 -1.9212861080E-003 
11897792.240 +9.0313619003E-003 -1.4434293844E-003  +9.9259567261E-001 -2.8303265572E-004  +9.9293184280E-001 -1.5410780907E-004  +3.5633714870E-003 -3.8767149672E-003 
12022937.422 +9.4745783135E-003 -4.5678997412E-004  +9.9254369736E-001 -1.1110305786E-003  +9.9281477928E-001 -3.9118528366E-004  +4.6738884412E-003 -2.7602952905E-003 
12148082.603 +1.1530334130E-002 -1.1742073111E-003  +9.9285310507E-001 -4.6026706696E-004  +9.9303108454E-001 -5.2750110626E-006  +3.6143537145E-003 -1.8740029773E-003 
12273227.785 +1.0921349749E-002 -7.2147417814E-004  +9.9244982004E-001 -8.0308318138E-004  +9.9254286289E-001 -8.3294510841E-004  +3.7422692403E-003 -1.4212417882E-003 
12398372.966 +1.0258905590E-002 -6.6099106334E-004  +9.9274480343E-001 -6.6292285919E-004  +9.9291110039E-001 -2.1249055862E-005  +5.0964956172E-003 -2.1125483327E-003 
12523518.148 +9.2137912288E-003 +9.9800061435E-005  +9.9260437489E-001 -1.1312365532E-003  +9.9242293835E-001 -7.5531005859E-004  +3.8802842610E-003 -1.8804620486E-003 
12648663.329 +1.0500027798E-002 -2.6271049865E-004  +9.9290966988E-001 -5.7238340378E-004  +9.9263441563E-001 +2.5498867035E-004  +3.9799483493E-003 -2.3759212345E-003 
12773808.511 +1.0762377642E-002 -1.7086723819E-003  +9.9298846722E-001 -9.6261501312E-005  +9.9283969402E-001 -3.1143426895E-005  +4.0493416600E-003 -3.5609975457E-003 
12898953.692 +1.0169404559E-002 -3.2047810964E-004  +9.9270963669E-001 -1.1601746082E-003  +9.9284613132E-001 -2.8547644615E-004  +4.6416539699E-003 -3.6511085927E-003 
13024098.874 +1.1420853436E-002 +2.2155093029E-004  +9.9219983816E-001 +9.1046094894E-005  +9.9356031418E-001 -5.4159760475E-004  +3.9077159017E-003 -1.4605206670E-003 
13149244.055 +9.9170599133E-003 +1.8397020176E-004  +9.9238771200E-001 -6.6579878330E-004  +9.9252367020E-001 +1.2341141701E-004  +5.7016089559E-003 -1.5502561582E-003 
13274389.237 +1.1002941988E-002 -1.5360098332E-003  +9.9266868830E-001 -7.9374015331E-004  +9.9255412817E-001 -7.0956349373E-004  +5.7719727047E-003 -1.8335529603E-004 
13399534.418 +9.9179744720E-003 +9.8628923297E-005  +9.9306458235E-001 -8.9913606644E-005  +9.9304902554E-001 -2.3329257965E-004  +4.8588830978E-003 -1.1516310042E-003 
13524679.599 +9.5427175984E-003 +2.7423759457E-004  +9.9233961105E-001 -3.5465508699E-004  +9.9313646555E-001 -2.4067610502E-004  +5.6533874013E-003 +3.0292256270E-004 
13649824.781 +1.0243681259E-002 -3.9672543062E-004  +9.9279928207E-001 -5.8469921350E-004  +9.9269229174E-001 +2.3141503334E-005  +5.4514058866E-003 -1.5014859382E-003 
13774969.962 +9.8038138822E-003 -1.0294471867E-003  +9.9284464121E-001 -2.6674941182E-004  +9.9332618713E-001 -4.9395859241E-004  +4.8484010622E-003 -2.5291494094E-003 
13900115.144 +1.0502231307E-002 +6.9339282345E-004  +9.9251282215E-001 -9.3123316765E-004  +9.9309778214E-001 -5.6445226073E-004  +5.3190980107E-003 -1.5710383886E-003 
14025260.325 +9.5258150250E-003 +7.8001822112E-004  +9.9224537611E-001 -3.4416466951E-004  +9.9283081293E-001 -5.1730126143E-004  +6.0741449706E-003 -1.4044118579E-003 
14150405.507 +9.6504613757E-003 +5.9323041933E-004  +9.9235045910E-001 -2.4011731148E-004  +9.9240785837E-001 -5.9666484594E-004  +6.0396576300E-003 -3.5911821760E-004 
14275550.688 +1.0529111139E-002 +5.0016283058E-004  +9.9229127169E-001 -5.2495300770E-004  +9.9289375544E-001 -4.0081143379E-004  +5.7170223445E-003 -1.1205975898E-003 
14400695.870 +9.3493377790E-003 -3.0872039497E-004  +9.9272078276E-001 -4.8620998859E-004  +9.9265247583E-001 -4.3107569218E-004  +4.7214310616E-003 -1.7351398710E-003 
