!  2-Port S-parameters saved by WinCal
! VAR MeasName=S-Parameters (CALIBRATED_DATA) read from VNA (P5004A)
! VAR MeasDate=22/05/2024 17:28:06
! VAR NAME=Wafer2_r10_c21_shortnotaper
! VAR FILENAME=Wafer2_r10_c21_shortnotaper.S2P
! VAR DATE=22/05/2024 17:28:06
! VAR PHYS_PORTS=1,2
! VAR ObjTypeName=DATASET
! VAR IndexType=Frequency
!
# Hz S RI R 50
9000.000 +2.3459896445E-001 -5.6793522835E-001  +7.0032067597E-003 -5.8767599985E-003  -5.3588964511E-004 +3.5511855967E-003  +5.3322806954E-002 +8.7669223547E-002 
134145.181 +2.2592926025E-001 +2.0709800720E+000  -3.9423245192E-001 -3.9735421538E-002  +1.4953833818E-001 -3.7248849869E-001  +4.4822702184E-003 +3.9092707448E-003 
259290.363 +4.8568192124E-001 +2.4290433526E-001  +1.0356031358E-001 +1.2163016945E-002  -8.4469228983E-002 -7.6489690691E-003  +9.7070443630E-001 -2.9140107632E+000 
384435.544 +4.2833298445E-001 -7.9018823802E-002  -4.5862859115E-003 +3.6347974092E-002  +2.4373257533E-002 -2.3978210986E-002  -3.4749907255E-001 +6.3448321819E-001 
509580.726 +4.9447822571E-001 -8.1852942705E-002  -3.6008274555E-001 +2.2365701199E-001  +9.6511274576E-002 +3.2486087084E-001  +9.9899511337E+000 +1.4116869926E+001 
634725.907 +8.1665253639E-001 -1.9742938876E-001  -2.0884317346E-003 -8.4269177169E-003  -1.3557548635E-002 +1.1346906424E-002  +1.0403509438E-001 -1.7529219389E-001 
759871.089 +1.4443813562E+000 -4.4173914194E-001  +7.2067668661E-003 +2.9558571987E-003  -1.2280205265E-003 -5.2932593971E-003  +1.9426106215E+000 -6.6509187222E-002 
885016.270 +2.5047485828E+000 -2.9084053040E+000  +1.2017979287E-002 +3.2761696726E-002  +2.7172258124E-003 -9.9815698341E-003  +1.5479025841E+000 +7.0703685284E-001 
1010161.452 +5.3126120567E-001 -1.3461611271E+000  -3.1001451425E-003 +1.0469753295E-002  +4.0158568881E-003 +6.5794335678E-003  +1.1417467594E+000 +9.8301714659E-001 
1135306.633 -2.0917916298E-001 -1.0245923996E+000  +1.5735832974E-002 -4.8982640728E-003  +3.8413940929E-003 -1.7268817173E-003  +1.0372788906E+000 +1.4948296547E+000 
1260451.815 +2.2512292862E-001 -9.7714287043E-001  +7.5302096084E-003 -8.7584136054E-004  +7.7152596787E-003 +4.5531606302E-003  +1.3845980167E-002 +1.3905889988E+000 
1385596.996 +1.2274941206E+000 -8.9281588793E-001  -9.0320681920E-004 +2.8920697514E-003  +5.2471889649E-004 +8.9997053146E-003  +1.7503559589E-001 +1.2409079075E+000 
1510742.178 +2.1610951424E+000 -1.3528794050E+000  +2.3762283381E-003 +6.0030426830E-003  -8.7337114383E-004 +8.0067720264E-003  -1.9941087812E-002 +6.8302077055E-001 
1635887.359 +1.2476353645E+000 -1.0821403265E+000  +1.1256096885E-002 -1.1853465810E-002  -1.1364605278E-002 -3.4819589928E-004  -1.7727975845E+000 +1.8847944736E+000 
1761032.541 +2.5745568275E+000 -6.4191114902E-001  -3.2112540212E-003 +1.4266013168E-003  +1.8933014944E-003 +1.1964136735E-002  -5.2074754238E-001 +6.9039124250E-001 
1886177.722 +2.6840288639E+000 +2.6061421633E-001  -6.2150722370E-003 -3.3885345329E-004  -1.4407534152E-002 +7.6131373644E-003  -4.4586193562E-001 +9.9621367455E-001 
2011322.904 +2.6150891781E+000 +1.5620968342E+000  -1.1718707159E-002 -3.8091642782E-003  -1.4992904849E-002 -3.3044815063E-003  -7.1196496487E-001 +1.1329087019E+000 
2136468.085 +1.5393662453E+000 +1.9900683165E+000  -7.8662321903E-004 -8.1937545910E-003  -1.3415220194E-002 -3.6009652540E-003  -5.5195403099E-001 +1.1198511124E+000 
2261613.267 +5.4878854752E-001 +2.1288290024E+000  -3.9071440697E-003 -6.4395880327E-003  -4.8904791474E-003 -2.9260367155E-003  -5.0959163904E-001 +8.9673566818E-001 
2386758.448 +3.9020445943E-001 +2.1456294060E+000  -7.3668174446E-003 -4.7234268859E-003  -4.9783410504E-003 -1.4440489933E-002  -5.2228909731E-001 +7.8854453564E-001 
2511903.630 -2.5734311342E-001 +1.7068147659E+000  -7.7595096081E-004 -5.0209364854E-003  -2.8377072886E-003 -7.6040653512E-003  -6.7197078466E-001 +6.6279888153E-001 
2637048.811 -4.2238080502E-001 +1.5494866371E+000  +1.6685617156E-003 -7.1937395260E-003  -1.0672935750E-003 -6.1366772279E-003  -5.9639453888E-001 +5.6900382042E-001 
2762193.992 -5.8576118946E-001 +1.2422126532E+000  +1.8918921705E-003 -5.9331464581E-003  +9.9945894908E-004 -5.7842829265E-003  -6.5184617043E-001 +4.6891015768E-001 
2887339.174 -8.2497644424E-001 +1.0839347839E+000  -1.0090065189E-004 -5.7911640033E-003  +3.1224228442E-003 -5.0613093190E-003  -6.7416316271E-001 +4.4375428557E-001 
3012484.355 -8.5260963440E-001 +1.0695351362E+000  +3.3015804365E-003 -4.9004126340E-003  +1.7621826846E-003 -4.6220985241E-003  -6.9878786802E-001 +3.9130988717E-001 
3137629.537 -8.9958596230E-001 +1.0274658203E+000  +4.4164964929E-003 -4.7921440564E-003  +4.0975948796E-003 -3.2558045350E-003  -7.1592164040E-001 +3.0096620321E-001 
3262774.718 -8.8758492470E-001 +9.8606288433E-001  +4.4918730855E-003 -4.5400173403E-003  +4.5081465505E-003 -3.6632912233E-003  -7.3564076424E-001 +2.8135389090E-001 
3387919.900 -8.6229932308E-001 +8.4299689531E-001  +4.4049071148E-003 -3.5387270618E-003  +3.6344320979E-003 -3.7275250070E-003  -7.8721201420E-001 +2.6023358107E-001 
3513065.081 -8.9758116007E-001 +7.9175835848E-001  +5.0543788821E-003 -3.2998546958E-003  +3.6062563304E-003 -3.8130606990E-003  -8.0021011829E-001 +2.2369858623E-001 
3638210.263 -9.0692496300E-001 +7.0095837116E-001  +4.2785843834E-003 -3.0607548542E-003  +4.1433386505E-003 -4.3336735107E-003  -8.5823535919E-001 +2.1230107546E-001 
3763355.444 -9.3016564846E-001 +7.0201838017E-001  +4.0902756155E-003 -2.7557637077E-003  +3.6457874812E-003 -4.6349992044E-003  -8.7344050407E-001 +1.9262927771E-001 
3888500.626 -9.7144001722E-001 +6.2626957893E-001  +3.7660186645E-003 -2.0707878284E-003  +4.6062041074E-003 -3.0973523390E-003  -8.8341712952E-001 +1.8507155776E-001 
4013645.807 -9.9028021097E-001 +4.0566080809E-001  +6.2669101171E-003 -2.1426773164E-003  +5.1219249144E-003 -1.7614567187E-003  -9.0836715698E-001 +4.1852176189E-002 
4138790.989 -9.5548492670E-001 +2.2052200139E-001  +6.4306361601E-003 -2.1017645486E-003  +6.2041785568E-003 -8.4049557336E-004  -8.5442548990E-001 -5.4496936500E-002 
4263936.170 -9.4323825836E-001 +1.9264875352E-001  +5.9539554641E-003 -8.4247544874E-004  +5.5630458519E-003 -1.1271217372E-003  -8.5738420486E-001 -5.0836130977E-002 
4389081.352 -9.2148965597E-001 +1.9067345560E-001  +6.2656891532E-003 -3.6544614704E-004  +5.5900705047E-003 -7.9588207882E-005  -8.7390512228E-001 -8.0572597682E-002 
4514226.533 -9.4089186192E-001 +1.8127293885E-001  +6.2957778573E-003 +5.2976305597E-005  +6.0103377327E-003 -7.9782039393E-004  -8.8523662090E-001 -7.6085910201E-002 
4639371.715 -9.1310346127E-001 +1.6257749498E-001  +6.6318414174E-003 -5.4134870879E-004  +5.9479535557E-003 +2.6457442436E-004  -9.0968525410E-001 -7.6257035136E-002 
4764516.896 -9.3435716629E-001 +1.4321660995E-001  +5.4809376597E-003 -2.1550036035E-004  +6.3286675140E-003 -4.3879006989E-004  -9.0962886810E-001 -8.0574855208E-002 
4889662.078 -9.3991243839E-001 +1.3264599442E-001  +5.6887017563E-003 -6.3682487234E-004  +6.1035742983E-003 -4.1167018935E-005  -9.0246075392E-001 -8.0055102706E-002 
5014807.259 -9.3283027411E-001 +1.4292725921E-001  +6.1535784043E-003 -8.0330437049E-004  +6.1606788076E-003 -4.6878680587E-004  -9.1888326406E-001 -9.6266329288E-002 
5139952.441 -9.2245942354E-001 +1.3094165921E-001  +6.2859449536E-003 +3.1608203426E-004  +6.2975944020E-003 -4.3031922542E-004  -9.1394567490E-001 -8.7862700224E-002 
5265097.622 -9.2637836933E-001 +1.1542877555E-001  +6.5772100352E-003 -1.8247822300E-004  +6.2102382071E-003 -6.7554996349E-004  -9.1580432653E-001 -7.1258753538E-002 
5390242.804 -9.3809306622E-001 +9.3451589346E-002  +6.3783721998E-003 +1.3995007612E-004  +6.0629765503E-003 -3.9754877798E-004  -9.2445999384E-001 -5.9948265553E-002 
5515387.985 -9.4106650352E-001 +8.5655391216E-002  +6.3719633035E-003 -4.7875242308E-004  +6.2758410349E-003 -5.0692260265E-004  -9.1957509518E-001 -5.6123346090E-002 
5640533.166 -9.3698263168E-001 +7.9410403967E-002  +5.8651641011E-003 -1.2920261361E-004  +5.9834714048E-003 -6.8609975278E-004  -9.2909717560E-001 -5.6614428759E-002 
5765678.348 -9.3344372511E-001 +8.4313184023E-002  +6.0885865241E-003 -2.9632565565E-004  +5.8152107522E-003 -3.6575063132E-004  -9.4381558895E-001 -5.4684162140E-002 
5890823.529 -9.3198001385E-001 +7.2152525187E-002  +6.3313366845E-003 -3.6528124474E-004  +5.9520695359E-003 -8.6817191914E-005  -9.4582498074E-001 -5.8141678572E-002 
6015968.711 -9.4007217884E-001 +6.5747022629E-002  +5.9930891730E-003 -4.3444870971E-004  +5.9506264515E-003 +2.6819529012E-005  -9.4135415554E-001 -4.7516793013E-002 
6141113.892 -9.3398278952E-001 +7.4844807386E-002  +6.0327155516E-003 -3.5827327520E-004  +6.1108372174E-003 -2.3518619128E-004  -9.5598179102E-001 -6.1061799526E-002 
6266259.074 -9.2692595720E-001 +7.0702999830E-002  +6.1766467988E-003 -2.6845815592E-004  +6.0384627432E-003 -3.3200043254E-004  -9.5557641983E-001 -6.0404926538E-002 
6391404.255 -9.2350411415E-001 +5.5889546871E-002  +6.1196163297E-003 -4.4842227362E-004  +6.0207881033E-003 -1.3958825730E-004  -9.5899504423E-001 -4.8665016890E-002 
6516549.437 -9.2931920290E-001 +6.1998635530E-002  +6.3177794218E-003 -6.1228638515E-005  +6.1703012325E-003 -2.4162861519E-004  -9.5732450485E-001 -5.6557893753E-002 
6641694.618 -9.3654894829E-001 +4.4125497341E-002  +6.4106965438E-003 -2.2409111261E-004  +5.8679590002E-003 -2.5780312717E-004  -9.5952665806E-001 -4.2810052633E-002 
6766839.800 -9.3283885717E-001 +4.2143255472E-002  +6.1180330813E-003 +2.5123590603E-004  +5.9625222348E-003 -1.5252642334E-004  -9.6354305744E-001 -3.5499364138E-002 
6891984.981 -9.3379044533E-001 +3.4496486187E-002  +6.2302155420E-003 -2.9280013405E-004  +6.2644612044E-003 -2.4096341804E-005  -9.6175336838E-001 -3.6050140858E-002 
7017130.163 -9.3213409185E-001 +4.8039555550E-002  +6.0689370148E-003 -1.7865933478E-004  +6.2284148298E-003 -3.9750919677E-004  -9.6491801739E-001 -5.2247941494E-002 
7142275.344 -9.4903147221E-001 +3.7445813417E-002  +6.0294414870E-003 -1.4591868967E-004  +6.1368951574E-003 -1.4972826466E-004  -9.5806217194E-001 -4.2231112719E-002 
7267420.526 -9.3385624886E-001 +4.1113525629E-002  +6.2410985120E-003 -1.5253783204E-004  +6.1953989789E-003 -1.0501686484E-004  -9.7729402781E-001 -4.7419607639E-002 
7392565.707 -9.2909365892E-001 +3.7705600262E-002  +5.9926118702E-003 -1.2160511687E-005  +6.2318500131E-003 +1.0824063793E-005  -9.7577059269E-001 -4.7721296549E-002 
7517710.889 -9.2941963673E-001 +4.1971951723E-002  +5.9255505912E-003 -2.7629500255E-004  +6.2748016790E-003 -3.0054361559E-004  -9.6966099739E-001 -4.9413800240E-002 
7642856.070 -9.3126058578E-001 +2.3816674948E-002  +6.0558179393E-003 -2.2063392680E-004  +5.9718950652E-003 -2.7300277725E-004  -9.7795569897E-001 -3.5140484571E-002 
7768001.252 -9.3842911720E-001 +3.4235328436E-002  +5.9428280219E-003 -5.4089119658E-005  +5.9370901436E-003 -1.1067802552E-004  -9.7532105446E-001 -4.2089909315E-002 
7893146.433 -9.3277215958E-001 +3.3366680145E-002  +6.2593473122E-003 -1.8488487694E-004  +6.0424008407E-003 -2.8199178632E-004  -9.7544449568E-001 -3.9045721292E-002 
8018291.615 -9.3763124943E-001 +2.1988958120E-002  +6.0958182439E-003 -1.0785774793E-004  +6.2179164961E-003 -1.7893000040E-004  -9.7439646721E-001 -3.2385721803E-002 
8143436.796 -9.3445450068E-001 +2.6052460074E-002  +6.1734942719E-003 -1.1120061390E-004  +6.1343335547E-003 -1.4659634326E-004  -9.8167729378E-001 -4.0101975203E-002 
8268581.977 -9.4220727682E-001 +1.6581460834E-002  +6.0270256363E-003 -1.9418075681E-005  +6.2362663448E-003 -4.7686975449E-005  -9.7738534212E-001 -2.8130218387E-002 
8393727.159 -9.3643909693E-001 +1.7881289124E-002  +6.1074085534E-003 -8.9387875050E-005  +6.1386208981E-003 -1.5743810218E-004  -9.7749161720E-001 -3.3634871244E-002 
8518872.340 -9.4828647375E-001 +1.3536408544E-002  +6.1186896637E-003 -7.5408315752E-005  +6.2427567318E-003 +7.2034483310E-005  -9.6591311693E-001 -3.1879842281E-002 
8644017.522 -9.3801546097E-001 +1.0163076222E-002  +6.1756740324E-003 +2.6982743293E-006  +6.0052219778E-003 -1.4025252312E-005  -9.7899264097E-001 -2.9239766300E-002 
8769162.703 -9.4410210848E-001 +7.3419474065E-003  +6.0908449814E-003 -7.7891541878E-005  +6.1717247590E-003 -6.7744345870E-005  -9.7675561905E-001 -2.4148069322E-002 
8894307.885 -9.4311279058E-001 +5.6547969580E-003  +6.0266102664E-003 -1.0037313041E-004  +6.0310992412E-003 -1.4314547298E-004  -9.7619318962E-001 -2.5513868779E-002 
9019453.066 -9.4748663902E-001 +6.9764559157E-003  +6.1611607671E-003 -2.9685549089E-004  +6.0770651326E-003 -1.0629893222E-004  -9.7345018387E-001 -3.0248548836E-002 
9144598.248 -9.4940602779E-001 +3.5596545786E-003  +6.1184866354E-003 +1.2634540326E-005  +6.0342317447E-003 -1.3137242058E-004  -9.7205048800E-001 -2.6178624481E-002 
9269743.429 -9.4579201937E-001 +1.2148041278E-002  +6.1021675356E-003 -1.3481441420E-004  +6.2088496052E-003 -3.7185032852E-005  -9.7893047333E-001 -3.4317586571E-002 
9394888.611 -9.4814836979E-001 -1.9208267331E-003  +6.1444281600E-003 -1.1773797451E-004  +6.0917530209E-003 +2.9585149605E-005  -9.7684204578E-001 -2.0941998810E-002 
9520033.792 -9.4872266054E-001 +5.5121108890E-003  +6.1502633616E-003 +6.8277877290E-005  +6.1122402549E-003 -3.9123580791E-005  -9.8042917252E-001 -3.1098164618E-002 
9645178.974 -9.5503079891E-001 +1.4782398939E-003  +6.1650159769E-003 +2.5459041353E-005  +6.1389612965E-003 -3.8765138015E-005  -9.7195118666E-001 -2.3687593639E-002 
9770324.155 -9.5640677214E-001 -2.2420287132E-003  +6.0546663590E-003 -2.8488342650E-005  +6.1311898753E-003 -1.3030099217E-004  -9.7549122572E-001 -2.0211592317E-002 
9895469.337 -9.5588290691E-001 +9.1519504786E-003  +6.0867848806E-003 -8.6477957666E-006  +6.1708032154E-003 +5.5244890973E-006  -9.7497892380E-001 -3.4568265080E-002 
10020614.518 -9.5253252983E-001 +3.7820786238E-003  +6.1202677898E-003 +1.5224446543E-005  +6.1812493950E-003 -3.6720652133E-005  -9.7661298513E-001 -3.0068755150E-002 
10145759.700 -9.5637071133E-001 -7.2449445724E-005  +6.0468339361E-003 -1.0734773241E-004  +6.1050867662E-003 +1.0277959518E-005  -9.7611367702E-001 -2.5759041309E-002 
10270904.881 -9.5626950264E-001 -4.8405528069E-003  +6.0183894821E-003 +1.2250500731E-005  +6.1654783785E-003 -9.0351095423E-006  -9.7399640083E-001 -2.2171795368E-002 
10396050.063 -9.5861786604E-001 -4.6645998955E-003  +6.1041363515E-003 +4.4252607040E-005  +6.1848401092E-003 +6.0812453739E-005  -9.7297197580E-001 -2.3241341114E-002 
10521195.244 -9.5462197065E-001 -8.4604918957E-003  +6.0739736073E-003 -2.8244219720E-005  +6.1370520853E-003 +5.0940318033E-005  -9.7437918186E-001 -1.9196927547E-002 
10646340.426 -9.5447301865E-001 -3.8350224495E-003  +6.1049917713E-003 -1.4181714505E-006  +6.0263806954E-003 -1.7804792151E-005  -9.8197591305E-001 -2.2346735001E-002 
10771485.607 -9.5631903410E-001 -7.8367888927E-003  +6.1104898341E-003 -9.3660783023E-006  +6.1269379221E-003 +3.5446137190E-005  -9.7659635544E-001 -2.2473692894E-002 
10896630.788 -9.5329540968E-001 -4.5724511147E-003  +6.1259008944E-003 -7.0666428655E-005  +6.1143292114E-003 +5.1469542086E-006  -9.8171162605E-001 -2.2206276655E-002 
11021775.970 -9.6035712957E-001 -5.5100619793E-003  +6.0881865211E-003 -4.5226654038E-005  +6.1980853789E-003 -3.6940909922E-006  -9.7647678852E-001 -2.3792266846E-002 
11146921.151 -9.6000480652E-001 -5.7282447815E-003  +6.1236419715E-003 +4.2368192226E-006  +6.1653750017E-003 +3.7993537262E-005  -9.7895109653E-001 -2.3959100246E-002 
11272066.333 -9.5905566216E-001 -7.9171061516E-003  +6.0666631907E-003 +8.1819714978E-005  +6.2144557014E-003 +8.9560169727E-005  -9.7859984636E-001 -2.4342536926E-002 
11397211.514 -9.5839548111E-001 -7.7993571758E-003  +6.1107138172E-003 +1.8114224076E-007  +6.1818775721E-003 -2.2295629606E-005  -9.7990548611E-001 -2.3619174957E-002 
11522356.696 -9.5796614885E-001 -7.3355436325E-003  +6.1005447060E-003 +1.9901432097E-005  +6.1415149830E-003 +4.0027778596E-005  -9.7932302952E-001 -2.4245351553E-002 
11647501.877 -9.5560717583E-001 -6.9755911827E-003  +6.1033209786E-003 -9.0131070465E-006  +6.0690902174E-003 -3.9143953472E-005  -9.8052728176E-001 -2.3211628199E-002 
11772647.059 -9.5949995518E-001 -9.9443495274E-003  +6.1353445053E-003 +5.4629053921E-005  +6.1301803216E-003 +3.2332725823E-005  -9.7958821058E-001 -2.3831546307E-002 
11897792.240 -9.6047675610E-001 -1.0119140148E-002  +6.1100497842E-003 +4.6547036618E-005  +6.1714714393E-003 +1.5987083316E-005  -9.7989493608E-001 -2.2670120001E-002 
12022937.422 -9.6217787266E-001 -1.0130167007E-002  +6.1729983427E-003 +1.8339371309E-005  +6.2015252188E-003 -1.3867393136E-006  -9.7850382328E-001 -2.0983010530E-002 
12148082.603 -9.6433341503E-001 -1.2773901224E-002  +6.1546391807E-003 +3.8513448089E-005  +6.2071587890E-003 +3.0881958082E-005  -9.7783690691E-001 -2.0624101162E-002 
12273227.785 -9.6579647064E-001 -1.1477857828E-002  +6.1685414985E-003 +4.6070199460E-005  +6.0684643686E-003 +6.7203771323E-005  -9.7479134798E-001 -2.0186334848E-002 
12398372.966 -9.6043986082E-001 -1.2079775333E-002  +6.1026704498E-003 +2.3677013814E-005  +6.1288783327E-003 +2.3391563445E-005  -9.8148059845E-001 -2.0849525928E-002 
12523518.148 -9.6330678463E-001 -9.5998346806E-003  +6.1181019992E-003 +6.3220271841E-005  +6.1792945489E-003 -1.9002240151E-005  -9.8128461838E-001 -2.2660911083E-002 
12648663.329 -9.6357041597E-001 -1.4689594507E-002  +6.1340443790E-003 -2.3776199669E-005  +6.1647160910E-003 +6.6682230681E-005  -9.8063677549E-001 -1.8801540136E-002 
12773808.511 -9.6861851215E-001 -1.2762993574E-002  +6.2280897982E-003 +2.3924279958E-005  +6.1529017985E-003 +4.9158697948E-005  -9.7707068920E-001 -2.3820400238E-002 
12898953.692 -9.6405398846E-001 -1.3489842415E-002  +6.1522047035E-003 +3.4727854654E-005  +6.1111240648E-003 +1.1321390048E-005  -9.8517763615E-001 -2.1786034107E-002 
13024098.874 -9.6954464912E-001 -1.5808403492E-002  +6.1494605616E-003 +6.6349050030E-005  +6.1824251898E-003 +8.8274478912E-005  -9.7915673256E-001 -1.9749790430E-002 
13149244.055 -9.6853172779E-001 -1.4382302761E-002  +6.1851106584E-003 +1.3608485460E-005  +6.1631547287E-003 +6.3396757469E-005  -9.7979116440E-001 -1.9016742706E-002 
13274389.237 -9.6855926514E-001 -1.3488739729E-002  +6.1075310223E-003 +6.0373218730E-005  +6.1246179976E-003 +5.7774130255E-005  -9.7845280170E-001 -2.1793216467E-002 
13399534.418 -9.7058856487E-001 -1.3029336929E-002  +6.1128954403E-003 +3.4636817873E-005  +6.1887158081E-003 +6.2406063080E-005  -9.7909152508E-001 -2.0958781242E-002 
13524679.599 -9.6763348579E-001 -1.4591127634E-002  +6.1804577708E-003 +5.8389268816E-005  +6.2291757204E-003 +4.5482534915E-005  -9.8326927423E-001 -1.7728418112E-002 
13649824.781 -9.7292459011E-001 -1.3779163361E-002  +6.1629503034E-003 +5.5029988289E-005  +6.1779418029E-003 +6.6625536419E-005  -9.7956228256E-001 -2.1038591862E-002 
13774969.962 -9.7125065327E-001 -1.2903749943E-002  +6.1811087653E-003 +4.7020148486E-005  +6.1727836728E-003 +6.8907393143E-005  -9.8169547319E-001 -2.1385669708E-002 
13900115.144 -9.6987915039E-001 -1.3366281986E-002  +6.1243390664E-003 +8.3459657617E-005  +6.1997137964E-003 +5.9259124100E-005  -9.8480457067E-001 -1.9802719355E-002 
14025260.325 -9.7128802538E-001 -1.2906447053E-002  +6.1325938441E-003 +9.1147376224E-005  +6.2222643755E-003 +4.8552406952E-005  -9.8526865244E-001 -2.0473301411E-002 
14150405.507 -9.7412633896E-001 -1.6180902719E-002  +6.1508137733E-003 +6.7780259997E-005  +6.1517660506E-003 +4.7025969252E-005  -9.8290455341E-001 -1.9244968891E-002 
14275550.688 -9.7454673052E-001 -1.4015659690E-002  +6.1787278391E-003 +5.3539406508E-007  +6.1261081137E-003 +3.8517115172E-005  -9.8320031166E-001 -1.8613219261E-002 
14400695.870 -9.7502952814E-001 -1.3984255493E-002  +6.1923526227E-003 +5.3945055697E-005  +6.2012961134E-003 +7.2772963904E-006  -9.8590958118E-001 -1.9224956632E-002 
