!  2-Port S-parameters saved by WinCal
! VAR MeasName=S-Parameters (CALIBRATED_DATA) read from VNA (P5004A)
! VAR MeasDate=22/05/2024 18:37:55
! VAR NAME=Wafer2_r2_c1_formed_pos0.0dc
! VAR FILENAME=Wafer2_r2_c1_formed_pos0.0dc.S2P
! VAR DATE=22/05/2024 18:37:55
! VAR PHYS_PORTS=1,2
! VAR ObjTypeName=DATASET
! VAR IndexType=Frequency
!
# Hz S RI R 50
9000.000 +2.1168795228E-001 -5.8926725388E-001  +5.4876361974E-003 +3.4516537562E-003  -5.6084746029E-004 -3.1224510167E-003  +6.1242759228E-002 +1.0598209500E-001 
134145.181 +7.7149772644E-001 +2.3170500994E-002  -4.9584335648E-003 -1.2695699930E-002  +2.7065344155E-002 +2.7699135244E-003  +9.8886895180E-001 +2.1175163984E-001 
259290.363 +9.7433614731E-001 -1.0723161697E-001  +1.4353751903E-003 -4.1521592066E-003  -4.0480429307E-003 +4.7692791559E-003  +1.0289200544E+000 -4.7593951225E-002 
384435.544 +9.9821168184E-001 -2.3512029648E-001  +3.4507762175E-003 +1.1017449433E-003  -4.8936735839E-003 -2.9880465008E-003  +1.0611011982E+000 -5.3833395243E-002 
509580.726 +9.9517375231E-001 -1.3192011416E-001  -6.1001137510E-005 +1.6404538183E-003  -6.7358673550E-004 -1.1116724927E-003  +1.0421154499E+000 -1.0529644787E-002 
634725.907 +1.0893490314E+000 -1.6100004315E-001  +1.6355126863E-003 +3.8007571129E-004  +8.0924323993E-004 -9.3917071354E-005  +1.0763785839E+000 -4.4173210859E-002 
759871.089 +1.2108021975E+000 -8.7341777980E-002  +9.1390532907E-004 +1.6757061239E-003  -1.6425002832E-004 +1.0673999786E-003  +1.1101822853E+000 -7.9135917127E-002 
885016.270 +5.9848254919E-001 -4.9695819616E-001  +1.1088933796E-002 -7.4220565148E-003  +1.2342202244E-003 +2.1711766021E-004  +1.1897695065E+000 -3.6274364591E-001 
1010161.452 +1.0367461443E+000 +1.5353754163E-002  +6.6434760811E-004 -2.9942959081E-003  +2.2681918927E-003 +4.5734033920E-003  +7.3529714346E-001 +2.5434911251E-001 
1135306.633 +1.0627746582E+000 +1.4060208201E-001  +1.8112043617E-003 -1.0707573965E-003  +2.6685111225E-003 -1.6859010793E-004  +8.8939952850E-001 +2.8635632992E-001 
1260451.815 +1.3142873049E+000 +8.1327080727E-002  +8.2653120626E-004 +9.1321807122E-004  -9.0079242364E-004 +7.6536484994E-004  +9.4849169254E-001 +2.5930070877E-001 
1385596.996 +1.2356345654E+000 -5.7642936707E-002  +7.3204544606E-005 +6.6120590782E-004  +9.4221980544E-004 -8.6932413979E-005  +9.8540699482E-001 +1.4904028177E-001 
1510742.178 +1.3360735178E+000 -1.1362981796E-001  +1.5348978341E-003 +2.8916152660E-003  -6.4216682222E-004 +8.9195388136E-004  +9.0768092871E-001 +1.7780780792E-001 
1635887.359 +9.7502034903E-001 -2.0419937372E-001  +1.5108615626E-003 +1.4057981316E-003  +7.6596834697E-004 -8.0238573719E-004  +1.1082590818E+000 +1.4622876048E-001 
1761032.541 +1.0329743624E+000 -1.7222204804E-001  -4.3818773702E-004 -1.9252403581E-004  -7.5549166650E-004 +7.8881293302E-004  +1.0567271709E+000 +2.0107823610E-001 
1886177.722 +1.0078812838E+000 -7.8684389591E-002  +1.0090280557E-003 +7.3052308289E-004  -6.4285652479E-004 -6.7654211307E-005  +1.0634706020E+000 +1.4455074072E-001 
2011322.904 +1.0095379353E+000 -5.5487513542E-002  +3.2014635508E-004 +3.5331459367E-004  +6.9417437771E-004 +2.0282712649E-004  +1.0566551685E+000 +1.3610410690E-001 
2136468.085 +1.0114043951E+000 -3.9542168379E-002  +1.2338915258E-004 +3.0422795680E-004  -4.2164290790E-005 +6.3249381492E-004  +1.0363980532E+000 +1.2247174978E-001 
2261613.267 +1.0088497400E+000 -2.5843679905E-002  -1.1818326311E-004 +4.4743122999E-004  -5.2782175771E-005 +1.4136149548E-004  +1.0250780582E+000 +1.4688074589E-001 
2386758.448 +1.0129274130E+000 -1.4511048794E-002  +6.7126587965E-005 +2.3990115733E-004  +1.8044802709E-004 +2.3358232283E-005  +1.0387725830E+000 +1.5431234241E-001 
2511903.630 +1.0085010529E+000 +3.4204125404E-003  -2.3107798188E-004 +1.1892744806E-003  -3.6640639883E-004 +2.7265399694E-004  +1.0422712564E+000 +1.7247352004E-001 
2637048.811 +1.0160455704E+000 +1.4710247517E-002  -2.1115182608E-004 +6.6055741627E-004  -4.2840666720E-004 +2.6294874260E-004  +1.0353982449E+000 +1.9803217053E-001 
2762193.992 +1.0037188530E+000 +2.6383083314E-002  +1.4473936062E-005 +4.0153111331E-004  -9.7211485263E-004 +1.0679619154E-003  +1.0324805975E+000 +2.0531906188E-001 
2887339.174 +9.9812978506E-001 +4.4540867209E-002  -8.2998210564E-004 +8.5853895871E-004  -5.7814852335E-004 +6.9603190059E-004  +1.0317591429E+000 +2.3977965117E-001 
3012484.355 +1.0100862980E+000 +6.1843007803E-002  -2.4182986817E-004 +1.1047704611E-003  -6.2598817749E-004 +4.1999318637E-004  +1.0560141802E+000 +2.7855736017E-001 
3137629.537 +1.0122441053E+000 +8.1348657608E-002  -9.9449721165E-004 +1.0377597064E-003  -1.9907267415E-005 +8.5639784811E-004  +1.1016314030E+000 +2.9425901175E-001 
3262774.718 +1.0151505470E+000 +9.3116164207E-002  -2.4581127218E-004 +6.5540545620E-004  -6.5085105598E-004 +1.1659578886E-003  +1.1209944487E+000 +3.0328753591E-001 
3387919.900 +1.0139733553E+000 +1.1654566228E-001  -4.4376018923E-004 +5.3437595489E-004  -7.9724087846E-004 +9.4391556922E-004  +1.1545226574E+000 +2.9970774055E-001 
3513065.081 +1.0237609148E+000 +1.3563026488E-001  -1.9352504751E-004 +1.4229837107E-003  -5.0502887461E-004 +1.4815361938E-003  +1.1723304987E+000 +3.2971277833E-001 
3638210.263 +1.0365800858E+000 +1.6177737713E-001  -6.2472320860E-004 +6.2723900191E-004  -1.5658144548E-004 +1.1185930343E-003  +1.2046260834E+000 +3.1749647856E-001 
3763355.444 +1.0554851294E+000 +1.7010191083E-001  -7.9891801579E-004 +1.1080915574E-003  -3.7964555668E-004 +8.6940667825E-004  +1.2392766476E+000 +2.9428127408E-001 
3888500.626 +1.0758682489E+000 +1.8766841292E-001  -7.2921148967E-004 +1.2607208919E-003  -5.9966952540E-004 +5.5472692475E-004  +1.2795001268E+000 +3.0597439408E-001 
4013645.807 +1.0461729765E+000 +9.4161815941E-002  -4.2681090417E-004 +1.9348749192E-003  -8.8892015629E-004 +1.5569834504E-003  +1.2446355820E+000 +1.4065039158E-001 
4138790.989 +9.7450429201E-001 +3.3072158694E-003  -5.0821626792E-004 +1.9038361497E-003  -4.8106099712E-004 +2.0885413978E-003  +1.1567577124E+000 +1.5602568164E-002 
4263936.170 +9.6608477831E-001 +2.3069344461E-003  -5.7822774397E-004 +1.9003648777E-003  -1.5687392442E-004 +3.0562854372E-003  +1.1481155157E+000 -1.1615864933E-002 
4389081.352 +9.7688037157E-001 -2.1222289652E-003  -3.0768016586E-004 +1.3240439584E-003  +4.7107119462E-004 +1.6818484291E-003  +1.1341257095E+000 -4.6020973474E-002 
4514226.533 +9.9141687155E-001 -3.0976533890E-004  -1.6440113541E-004 +3.2932718750E-003  -5.9550127480E-004 +2.4769580923E-003  +1.1318370104E+000 -5.8101508766E-002 
4639371.715 +9.9331420660E-001 -5.0127543509E-003  +5.2562996279E-004 +1.6915631713E-003  -4.8051751219E-004 +2.9385085218E-003  +1.1273880005E+000 -6.0990527272E-002 
4764516.896 +9.9271577597E-001 -6.8440288305E-003  +5.4688978707E-004 +2.0416404586E-003  -1.8572335830E-004 +2.3338759784E-003  +1.1127561331E+000 -8.8727101684E-002 
4889662.078 +9.9360430241E-001 +1.6334094107E-003  +1.2137649173E-004 +2.0782279316E-003  -4.2980755097E-004 +2.4268003181E-003  +1.1118049622E+000 -8.1193104386E-002 
5014807.259 +9.8582065105E-001 -2.0814202726E-003  -4.7010689741E-005 +2.0006091800E-003  -1.1929230823E-004 +2.8535784222E-003  +1.0891240835E+000 -8.1646665931E-002 
5139952.441 +9.9586701393E-001 -1.2837357819E-002  +1.8740072846E-005 +2.5789227802E-003  -3.6238861503E-004 +2.8176656924E-003  +1.0875239372E+000 -8.9893184602E-002 
5265097.622 +9.9937146902E-001 -7.0160180330E-003  -1.4236156130E-004 +2.7956760023E-003  -9.0018648189E-004 +2.6371292770E-003  +1.0747302771E+000 -9.2607334256E-002 
5390242.804 +9.9887114763E-001 -1.0884650052E-002  -4.1396310553E-004 +2.5713730138E-003  -7.2599225678E-004 +2.7603683993E-003  +1.0621001720E+000 -9.1576412320E-002 
5515387.985 +1.0051268339E+000 -8.0831870437E-003  -4.5843713451E-004 +2.5637240615E-003  +9.6369971288E-005 +2.7446714230E-003  +1.0645927191E+000 -9.5608912408E-002 
5640533.166 +1.0100790262E+000 -7.8064501286E-003  -4.5669381507E-004 +2.8530322015E-003  -2.4530329392E-004 +3.1460553873E-003  +1.0520973206E+000 -9.2476703227E-002 
5765678.348 +9.9931806326E-001 -1.4750055969E-002  +1.5264807735E-004 +3.0949439388E-003  -4.7919107601E-005 +2.6639141142E-003  +1.0467337370E+000 -9.3435317278E-002 
5890823.529 +1.0060544014E+000 -2.1532736719E-002  -2.3853228777E-004 +3.0707200058E-003  -3.8154245703E-004 +3.0626414809E-003  +1.0322812796E+000 -9.2390023172E-002 
6015968.711 +9.9837481976E-001 -2.0613662899E-002  -6.1431259383E-004 +3.1053500716E-003  -1.2307640282E-004 +3.1816817354E-003  +1.0336654186E+000 -9.0146973729E-002 
6141113.892 +9.9903708696E-001 -2.6211164892E-002  -1.9134808099E-004 +3.1429703813E-003  -2.8774776729E-004 +3.1477580778E-003  +1.0296673775E+000 -8.1761784852E-002 
6266259.074 +1.0023554564E+000 -1.9248470664E-002  -4.9812928773E-004 +3.0880731065E-003  -2.7498093550E-004 +3.2175472006E-003  +1.0174381733E+000 -8.2613058388E-002 
6391404.255 +9.9690419436E-001 -2.6783846319E-002  +1.5310704475E-004 +2.7878887486E-003  -4.1100312956E-004 +3.0678242911E-003  +1.0143851042E+000 -8.5896037519E-002 
6516549.437 +9.9148750305E-001 -2.1641708910E-002  +4.9834576203E-005 +3.2634427771E-003  -1.3018347090E-004 +3.2302099280E-003  +1.0046895742E+000 -8.5299074650E-002 
6641694.618 +1.0013738871E+000 -2.1886780858E-002  -1.6645935830E-004 +3.4187445417E-003  +8.9445384219E-006 +3.5783031490E-003  +1.0050543547E+000 -8.0074325204E-002 
6766839.800 +1.0003859997E+000 -2.6473954320E-002  -7.3971459642E-005 +3.3872090280E-003  -2.9884424293E-004 +3.6657392047E-003  +1.0004297495E+000 -7.7410057187E-002 
6891984.981 +9.9922949076E-001 -2.1304085851E-002  -5.0902971998E-004 +3.6134405527E-003  -8.7613414507E-005 +3.5835844465E-003  +9.8883914948E-001 -8.4532722831E-002 
7017130.163 +9.9335652590E-001 -2.2632107139E-002  -2.9186686152E-004 +3.6739362404E-003  +2.3526052246E-004 +3.4918072633E-003  +9.9468326569E-001 -7.1820542216E-002 
7142275.344 +9.9357104301E-001 -2.0248502493E-002  +2.0922534168E-004 +3.4692520276E-003  -2.4143696646E-004 +3.6828238517E-003  +9.9118852615E-001 -6.8823307753E-002 
7267420.526 +9.9334537983E-001 -1.8554851413E-002  -9.6188916359E-005 +3.7249496672E-003  -5.9059064370E-005 +3.7254961208E-003  +9.8936629295E-001 -6.2580466270E-002 
7392565.707 +9.9215936661E-001 -1.8719941378E-002  -8.5457868408E-005 +3.5096553620E-003  +1.5445874305E-004 +3.7788408808E-003  +9.8633313179E-001 -6.8029269576E-002 
7517710.889 +9.9889063835E-001 -1.5410959721E-002  -1.4437461505E-004 +3.6807104480E-003  -7.6785800047E-006 +3.6306544207E-003  +9.8150652647E-001 -6.5046235919E-002 
7642856.070 +9.9076879025E-001 -1.5903919935E-002  -2.0204915199E-004 +3.8701619487E-003  +1.4131329954E-004 +3.7445891649E-003  +9.7743791342E-001 -6.1013951898E-002 
7768001.252 +9.9718987942E-001 -1.3822719455E-002  +1.8756696954E-004 +3.8502512034E-003  +6.7493063398E-005 +3.7944565993E-003  +9.7258442640E-001 -6.2183544040E-002 
7893146.433 +9.9723231792E-001 -1.6284570098E-002  +8.0534780864E-005 +3.7020083982E-003  +4.9654219765E-005 +3.7366845645E-003  +9.7360682487E-001 -5.6398764253E-002 
8018291.615 +9.9023014307E-001 -1.3992369175E-002  +2.3681961466E-005 +3.6865719594E-003  -2.3991026683E-004 +3.8892347366E-003  +9.7307324409E-001 -5.2434816957E-002 
8143436.796 +9.9011743069E-001 -1.6825169325E-002  +4.1647232138E-005 +4.0199994110E-003  -2.4378998205E-004 +3.9750658907E-003  +9.7224867344E-001 -4.7783553600E-002 
8268581.977 +9.8757946491E-001 -1.8387347460E-002  +2.3811322171E-004 +3.9937095717E-003  +1.8444319721E-004 +3.9638285525E-003  +9.7123330832E-001 -3.8319528103E-002 
8393727.159 +9.8948085308E-001 -1.6987740993E-002  +1.0016839951E-004 +4.1205352172E-003  -3.3198622987E-005 +3.9585637860E-003  +9.7418552637E-001 -3.9222568274E-002 
8518872.340 +9.8860281706E-001 -1.5670299530E-002  +1.6007444356E-004 +3.9580715820E-003  +6.5229716711E-005 +4.0189013816E-003  +9.6899300814E-001 -3.6833971739E-002 
8644017.522 +9.8933619261E-001 -1.0773837566E-002  +7.1535469033E-005 +4.1185924783E-003  -3.8054306060E-005 +4.1858777404E-003  +9.7302281857E-001 -3.7186741829E-002 
8769162.703 +9.9127072096E-001 -1.1921107769E-002  -1.1109223124E-004 +4.0581598878E-003  +2.2166990675E-005 +4.1849901900E-003  +9.7285252810E-001 -3.8119196892E-002 
8894307.885 +9.8635101318E-001 -1.5122175217E-002  +6.2935170718E-005 +4.3932977132E-003  +1.2111908291E-004 +4.4189551845E-003  +9.6774476767E-001 -3.7217795849E-002 
9019453.066 +9.8792958260E-001 -1.7529904842E-002  +7.5517455116E-006 +4.3691103347E-003  -1.1080596596E-004 +4.2076776735E-003  +9.7075974941E-001 -3.4602075815E-002 
9144598.248 +9.8590397835E-001 -1.8854677677E-002  -1.5098042786E-004 +4.3744598515E-003  -1.1694186833E-004 +4.5435070060E-003  +9.6830040216E-001 -3.2811999321E-002 
9269743.429 +9.8670858145E-001 -1.7297357321E-002  +4.2464234866E-005 +4.4981259853E-003  +3.5713543184E-005 +4.5092036016E-003  +9.7077417374E-001 -3.0769377947E-002 
9394888.611 +9.8757952452E-001 -1.0285586119E-002  -3.4222146496E-005 +4.5864852145E-003  -7.1221962571E-005 +4.4178403914E-003  +9.6840870380E-001 -3.0559688807E-002 
9520033.792 +9.8820632696E-001 -1.1903762817E-002  -2.6376685128E-005 +4.6359663829E-003  +1.1378189083E-004 +4.5500793494E-003  +9.6829319000E-001 -2.7040988207E-002 
9645178.974 +9.8873782158E-001 -8.5951983929E-003  -3.4513999708E-005 +4.7536399215E-003  -2.8193579055E-005 +4.7099464573E-003  +9.6996790171E-001 -2.6484727859E-002 
9770324.155 +9.8732471466E-001 -8.4004402161E-003  +4.3807318434E-005 +4.6909442171E-003  -1.0886928067E-005 +4.7686998732E-003  +9.6735936403E-001 -2.4781197309E-002 
9895469.337 +9.8633015156E-001 -8.2988440990E-003  +4.0669925511E-005 +4.8509552144E-003  -3.2894313335E-006 +4.8501892015E-003  +9.6821081638E-001 -2.3380488157E-002 
10020614.518 +9.8795098066E-001 -6.4786672592E-003  +1.0351138189E-004 +4.8601264134E-003  +3.0676834285E-005 +4.8441668041E-003  +9.7039121389E-001 -1.8589645624E-002 
10145759.700 +9.8887562752E-001 -6.6779851913E-003  -6.6752545536E-007 +4.9230055884E-003  +5.6849559769E-005 +4.9710785970E-003  +9.7019982338E-001 -1.7230361700E-002 
10270904.881 +9.9005502462E-001 -6.8211257458E-003  +7.5541902333E-006 +5.1210569218E-003  +8.6915446445E-005 +5.2302838303E-003  +9.7309410572E-001 -1.7380177975E-002 
10396050.063 +9.8810607195E-001 -6.6819190979E-003  +1.6552465968E-004 +5.1233717240E-003  +6.4926454797E-005 +5.0047272816E-003  +9.7316694260E-001 -1.5736848116E-002 
10521195.244 +9.8937261105E-001 -4.0147304535E-003  +1.3608299196E-004 +5.1027610898E-003  +1.6372557729E-004 +5.1179258153E-003  +9.7255086899E-001 -1.2492060661E-002 
10646340.426 +9.8947900534E-001 -6.1045587063E-003  +1.7415848561E-004 +5.1609277725E-003  +4.0140002966E-005 +5.2037527785E-003  +9.7467184067E-001 -1.1083155870E-002 
10771485.607 +9.8797124624E-001 -6.0670077801E-003  +7.8883487731E-005 +5.3054331802E-003  +1.1215754785E-004 +5.3413622081E-003  +9.7553396225E-001 -9.7551643848E-003 
10896630.788 +9.8886263371E-001 -2.9583871365E-003  +4.2939092964E-005 +5.3996066563E-003  +3.9433827624E-005 +5.3425692022E-003  +9.7424322367E-001 -8.0530047417E-003 
11021775.970 +9.8808360100E-001 -3.0564665794E-003  +1.1819973588E-004 +5.3863287903E-003  +7.4271578342E-005 +5.3836014122E-003  +9.7475194931E-001 -7.9564452171E-003 
11146921.151 +9.8935657740E-001 -3.8160085678E-003  +1.9373674877E-004 +5.4329894483E-003  +5.3209252656E-005 +5.4254848510E-003  +9.7658360004E-001 -8.2879662514E-003 
11272066.333 +9.8738795519E-001 -5.5084526539E-003  +1.2633716688E-004 +5.4609291255E-003  +1.1701742187E-004 +5.4486915469E-003  +9.7482460737E-001 -7.2518289089E-003 
11397211.514 +9.8970282078E-001 -3.3863484859E-003  +1.7737201415E-004 +5.5890316144E-003  +6.5283384174E-005 +5.5731874891E-003  +9.7559314966E-001 -7.5146257877E-003 
11522356.696 +9.8964571953E-001 -4.3765604496E-003  +1.1032749899E-004 +5.6624412537E-003  +1.5255413018E-004 +5.6236963719E-003  +9.7714877129E-001 -7.5098872185E-003 
11647501.877 +9.8725104332E-001 -4.8717260361E-003  +1.1283159256E-004 +5.6482953951E-003  +1.6752397642E-004 +5.6584887207E-003  +9.7733998299E-001 -5.8334171772E-003 
11772647.059 +9.8909080029E-001 -4.9582719803E-003  +9.8793767393E-005 +5.6722480804E-003  +1.0077655315E-004 +5.7398951612E-003  +9.7744774818E-001 -6.9633126259E-003 
11897792.240 +9.8783469200E-001 -3.2454729080E-003  +1.2363959104E-004 +5.7623395696E-003  +1.3543805107E-004 +5.7892212644E-003  +9.7855585814E-001 -5.9539973736E-003 
12022937.422 +9.9077785015E-001 -9.5832347870E-004  +1.7042667605E-004 +5.8322902769E-003  +1.0603573173E-004 +5.8184294030E-003  +9.7847354412E-001 -6.4374804497E-003 
12148082.603 +9.9105072021E-001 -5.1799416542E-004  +1.6874400899E-004 +5.9598428197E-003  +1.0934681632E-004 +5.8460552245E-003  +9.8005324602E-001 -4.7053396702E-003 
12273227.785 +9.9191892147E-001 -6.3505768776E-004  +1.7531914636E-004 +5.9297634289E-003  +2.3961241823E-004 +6.0092019849E-003  +9.7982108593E-001 -4.8158168793E-003 
12398372.966 +9.9021536112E-001 -9.5605850220E-004  +1.4385080431E-004 +6.0580573045E-003  +1.2399291154E-004 +6.0486956500E-003  +9.8089945316E-001 -4.7995448112E-003 
12523518.148 +9.9121552706E-001 +2.3487210274E-004  +1.2750772294E-004 +6.0368222184E-003  +1.5075772535E-004 +6.1201737262E-003  +9.8033231497E-001 -4.0882229805E-003 
12648663.329 +9.9161428213E-001 -1.1397451162E-003  +2.0064739510E-004 +6.1652027071E-003  +1.4477642253E-004 +6.1781345867E-003  +9.8178213835E-001 -3.4752190113E-003 
12773808.511 +9.9099951982E-001 -1.2477785349E-003  +1.6138755018E-004 +6.1873081140E-003  +2.1254451713E-004 +6.2155881897E-003  +9.8260146379E-001 -3.8079023361E-003 
12898953.692 +9.9106448889E-001 -2.0998939872E-003  +2.1885416936E-004 +6.2844194472E-003  +1.9191781757E-004 +6.2673273496E-003  +9.8219400644E-001 -4.1235834360E-003 
13024098.874 +9.9193131924E-001 -5.3878873587E-004  +1.7330358969E-004 +6.3513484783E-003  +1.6568641877E-004 +6.3764071092E-003  +9.8318827152E-001 -1.5175491571E-003 
13149244.055 +9.9168556929E-001 -5.4651871324E-005  +1.9749075000E-004 +6.3837366179E-003  +1.4908279991E-004 +6.4096311107E-003  +9.8275148869E-001 -2.3284852505E-003 
13274389.237 +9.9237245321E-001 -1.7153676599E-003  +2.0930130268E-004 +6.4453068189E-003  +1.6832011170E-004 +6.3994363882E-003  +9.8495179415E-001 -1.6811415553E-003 
13399534.418 +9.9099308252E-001 -1.4345347881E-003  +2.0228192443E-004 +6.5257526003E-003  +2.0289758686E-004 +6.4991097897E-003  +9.8358142376E-001 -1.4752894640E-003 
13524679.599 +9.9172174931E-001 -6.8247318268E-005  +1.9281677669E-004 +6.5506654792E-003  +1.8104049377E-004 +6.5825763159E-003  +9.8510009050E-001 -3.7977099419E-004 
13649824.781 +9.9307125807E-001 -4.4173002243E-004  +1.9165291451E-004 +6.6162785515E-003  +2.1386228036E-004 +6.6633345559E-003  +9.8594790697E-001 -1.1735856533E-003 
13774969.962 +9.9231994152E-001 -1.1896491051E-003  +2.2597704083E-004 +6.6560721025E-003  +2.2855226416E-004 +6.6834171303E-003  +9.8575043678E-001 -1.3126134872E-003 
13900115.144 +9.9302130938E-001 -8.6373090744E-004  +2.3191282526E-004 +6.6939196549E-003  +2.4382385891E-004 +6.7484681495E-003  +9.8538643122E-001 -8.4447860718E-004 
14025260.325 +9.9222755432E-001 -3.8820505142E-004  +2.3742043413E-004 +6.8050362170E-003  +2.0123342983E-004 +6.8270605989E-003  +9.8620617390E-001 -1.1999309063E-003 
14150405.507 +9.9328047037E-001 -3.4540891647E-005  +2.0424858667E-004 +6.8349614739E-003  +2.1798908710E-004 +6.8398993462E-003  +9.8667287827E-001 -5.8606266975E-004 
14275550.688 +9.9305742979E-001 +2.8669834137E-005  +1.8072314560E-004 +6.8769771606E-003  +2.1326402202E-004 +6.9277128205E-003  +9.8645097017E-001 -2.7230381966E-004 
14400695.870 +9.9193501472E-001 -1.5556812286E-004  +2.2290460765E-004 +6.9474708289E-003  +2.3641763255E-004 +6.9753178395E-003  +9.8719322681E-001 -3.2809376717E-004 
