!  2-Port S-parameters saved by WinCal
! VAR MeasName=S-Parameters (CALIBRATED_DATA) read from VNA (P5004A)
! VAR MeasDate=22/05/2024 19:19:22
! VAR NAME=Wafer2_r2_c1_set2
! VAR FILENAME=Wafer2_r2_c1_set2.S2P
! VAR DATE=22/05/2024 19:19:22
! VAR PHYS_PORTS=1,2
! VAR ObjTypeName=DATASET
! VAR IndexType=Frequency
!
# Hz S RI R 50
9000.000 +2.1331976354E-001 -5.8233410120E-001  +4.7312714742E-004 +1.0713094380E-003  -1.0800053133E-003 -1.6380887246E-003  +6.0226198286E-002 +1.0183733702E-001 
134145.181 +7.8948974609E-001 +3.8651019335E-002  +2.8728354722E-002 +4.8942260444E-002  -9.6158482134E-002 -1.7862591892E-002  +1.0465998650E+000 +1.0741772652E+000 
259290.363 +9.6590632200E-001 -1.1086389422E-001  -3.3896430396E-003 +9.3714250252E-003  -1.0703993030E-002 -7.2274049744E-003  +1.0547736883E+000 -4.2339920998E-002 
384435.544 +9.4197583199E-001 -2.5337707996E-001  -1.4029339654E-003 -6.5034637228E-003  +1.8388009630E-003 -8.7111361790E-004  +1.0547937155E+000 -6.7592963576E-002 
509580.726 +9.7677916288E-001 -1.3214266300E-001  -1.6630358296E-003 -1.8891132204E-003  -1.6716874670E-003 -1.7098257085E-003  +1.0512712002E+000 -1.4152213931E-002 
634725.907 +1.0872814655E+000 -1.7396205664E-001  +1.6531863366E-004 -1.4903070405E-004  +1.0271596257E-003 -1.3776056585E-004  +1.0858522654E+000 -4.1769117117E-002 
759871.089 +1.2546058893E+000 -9.1757483780E-002  +1.1106336024E-003 -6.2705687014E-004  +2.2124340758E-003 +7.9490081407E-004  +1.1216143370E+000 -8.6597025394E-002 
885016.270 +6.6854751110E-001 -8.9483469725E-001  +7.3309168220E-003 +1.7323880456E-004  -1.7438818468E-003 +4.3061217293E-003  +1.3571718931E+000 -4.0981888771E-001 
1010161.452 +1.0503826141E+000 -1.3162687421E-002  +1.5198268229E-003 -4.6595102176E-003  +1.0876265587E-003 -1.4507722808E-003  +6.8575853109E-001 +3.1469863653E-001 
1135306.633 +1.0158576965E+000 +1.4660428464E-001  -5.9958326165E-004 -2.1281712689E-003  +7.2650233051E-004 -3.0324840918E-004  +8.8690739870E-001 +3.1996104121E-001 
1260451.815 +1.3269078732E+000 +1.0674904287E-001  -8.0756464740E-004 -3.8902717642E-004  -7.4269308243E-005 +1.2253363384E-003  +9.4878041744E-001 +2.9314517975E-001 
1385596.996 +1.2443332672E+000 -7.2416722775E-002  -7.2294619167E-004 -3.1293448410E-004  +3.2072191243E-004 -1.4437059872E-003  +9.8570877314E-001 +1.6557115316E-001 
1510742.178 +1.3566530943E+000 -1.4452672005E-001  +2.5825311895E-003 +3.3839239040E-004  +1.3150832383E-003 +1.4348014956E-003  +9.0154016018E-001 +2.0938789845E-001 
1635887.359 +9.9182367325E-001 -2.2330009937E-001  +1.9279664848E-003 -1.3457454043E-004  +1.8261966761E-003 -4.8485051957E-004  +1.1186668873E+000 +1.6800016165E-001 
1761032.541 +1.0280739069E+000 -1.6634425521E-001  +1.2791382615E-003 -5.7167967316E-004  +1.8010300118E-003 -1.6241549747E-004  +1.0662521124E+000 +2.0475062728E-001 
1886177.722 +1.0181117058E+000 -8.5774868727E-002  +1.2887730263E-003 +8.3655246999E-004  +5.8659829665E-004 -1.7269211821E-003  +1.0559864044E+000 +1.4968985319E-001 
2011322.904 +1.0022885799E+000 -7.1610331535E-002  +1.0144654661E-003 +3.7277175579E-004  +7.7635701746E-004 +4.0494976565E-004  +1.0521790981E+000 +1.4029893279E-001 
2136468.085 +1.0095616579E+000 -3.9612829685E-002  +8.1301195314E-004 +8.1897008931E-004  +9.7124266904E-004 +6.5988011193E-004  +1.0346521139E+000 +1.3148787618E-001 
2261613.267 +1.0063242912E+000 -3.0501514673E-002  +6.7181093618E-004 +8.7848555995E-004  +7.3636299931E-004 +9.3179155374E-004  +1.0223250389E+000 +1.5203407407E-001 
2386758.448 +1.0139704943E+000 -2.6341110468E-002  +9.0723804897E-004 +2.3477757350E-004  +1.1203219183E-003 +7.9529755749E-004  +1.0327414274E+000 +1.5926235914E-001 
2511903.630 +1.0055463314E+000 +1.4970004559E-003  +1.0443261126E-003 +1.2503403705E-003  +3.3089387580E-004 +1.2456621043E-003  +1.0423712730E+000 +1.7710569501E-001 
2637048.811 +1.0138483047E+000 +8.1194043159E-003  +9.7458413802E-004 +1.4923118288E-003  +7.9260638449E-004 +1.1718376772E-003  +1.0434961319E+000 +2.0268911123E-001 
2762193.992 +1.0097371340E+000 +3.3350501209E-002  +1.0437807068E-003 +1.4713455457E-003  +1.4343274524E-003 +7.8305747593E-004  +1.0294963121E+000 +2.0926916599E-001 
2887339.174 +9.9588328600E-001 +5.3020492196E-002  +9.7751873545E-004 +1.1795097962E-003  +7.3831394548E-004 +1.6225303989E-003  +1.0272710323E+000 +2.4495780468E-001 
3012484.355 +1.0165138245E+000 +6.9393306971E-002  +1.0260029230E-003 +1.5518703731E-003  +8.1018544734E-004 +1.5942478785E-003  +1.0497816801E+000 +2.8145265579E-001 
3137629.537 +1.0199404955E+000 +8.0112308264E-002  +1.1577631813E-003 +1.2480559526E-003  +4.0077365702E-004 +1.2347815791E-003  +1.0921506882E+000 +3.0332079530E-001 
3262774.718 +1.0175342560E+000 +1.0158687830E-001  +8.9933321578E-004 +1.6274002846E-003  +9.9024293013E-004 +2.2108075209E-003  +1.1274169683E+000 +3.0927935243E-001 
3387919.900 +1.0210070610E+000 +1.1749522388E-001  +1.2402243447E-003 +1.7946122680E-003  +4.1946253623E-004 +1.6133621102E-003  +1.1513935328E+000 +3.1678268313E-001 
3513065.081 +1.0329632759E+000 +1.3055631518E-001  +1.3639798854E-003 +2.2854816634E-003  +4.0881900350E-004 +1.8118384760E-003  +1.1725362539E+000 +3.4603160620E-001 
3638210.263 +1.0468586683E+000 +1.5515436232E-001  +1.1291186092E-003 +2.1276473999E-003  +1.0847377125E-003 +2.5528098922E-003  +1.1998044252E+000 +3.3007439971E-001 
3763355.444 +1.0675617456E+000 +1.6616879404E-001  +6.9007283309E-004 +2.3561208509E-003  +1.5396100935E-004 +2.1336574573E-003  +1.2477576733E+000 +3.1910645962E-001 
3888500.626 +1.0900065899E+000 +1.8114316463E-001  +6.2686257297E-004 +2.1867067553E-003  +9.9261850119E-004 +2.8147227131E-003  +1.2938930988E+000 +3.1278789043E-001 
4013645.807 +1.0512439013E+000 +8.2311779261E-002  +1.2972253608E-003 +2.2663038690E-003  +1.5664461534E-003 +2.5112561416E-003  +1.2616208792E+000 +1.5334913135E-001 
4138790.989 +9.8238056898E-001 -6.6964216530E-003  +2.7653507423E-003 +1.6205795109E-003  +2.2116014734E-003 +2.3006207775E-003  +1.1697721481E+000 +1.3432584703E-002 
4263936.170 +9.7398775816E-001 +7.4033625424E-003  +2.6168292388E-003 +2.8339843266E-003  +2.6936377399E-003 +3.0078864656E-003  +1.1593629122E+000 -1.8856599927E-002 
4389081.352 +9.8499816656E-001 -6.2090400606E-003  +2.3524013814E-003 +2.4727380369E-003  +2.4476924445E-003 +2.3019290529E-003  +1.1457331181E+000 -4.4592536986E-002 
4514226.533 +9.8963552713E-001 -6.1189197004E-003  +3.1599069480E-003 +3.2719573937E-003  +3.5328869708E-003 +2.1296483465E-003  +1.1471695900E+000 -6.4158432186E-002 
4639371.715 +1.0044035912E+000 -9.9822245538E-003  +2.7455755044E-003 +2.3692934774E-003  +1.7532770289E-003 +3.2978896052E-003  +1.1392793655E+000 -6.2559038401E-002 
4764516.896 +9.9520415068E-001 -1.0891709477E-002  +2.2915138397E-003 +3.2267032657E-003  +2.7486241888E-003 +2.2924514487E-003  +1.1256294250E+000 -8.0304205418E-002 
4889662.078 +1.0025866032E+000 -5.4485015571E-003  +2.5614260230E-003 +2.6796618477E-003  +3.2117485534E-003 +3.7535210140E-003  +1.1170103550E+000 -7.0104345679E-002 
5014807.259 +9.9562704563E-001 -1.7068121582E-002  +2.1736118942E-003 +3.0016789678E-003  +2.8359405696E-003 +2.5251763873E-003  +1.1030721664E+000 -8.7255366147E-002 
5139952.441 +1.0066220760E+000 -2.0598389208E-002  +3.0195196159E-003 +2.7775452472E-003  +2.8751108330E-003 +2.9617254622E-003  +1.0976507664E+000 -9.2396818101E-002 
5265097.622 +1.0070413351E+000 -1.9060581923E-002  +2.7020166162E-003 +3.1618843786E-003  +2.4819213431E-003 +3.2389583066E-003  +1.0811005831E+000 -9.6834801137E-002 
5390242.804 +1.0068905354E+000 -1.0619856417E-002  +3.0421833508E-003 +3.0928035267E-003  +2.8334748931E-003 +3.2566173468E-003  +1.0635933876E+000 -9.5121055841E-002 
5515387.985 +1.0101993084E+000 -2.1625906229E-002  +2.7900326531E-003 +3.4874605481E-003  +2.7859697584E-003 +2.6330335531E-003  +1.0633182526E+000 -1.0813096166E-001 
5640533.166 +1.0110796690E+000 -1.3905934989E-002  +3.0357553624E-003 +3.5190214403E-003  +2.7431428898E-003 +3.0111633241E-003  +1.0540862083E+000 -1.0939237475E-001 
5765678.348 +1.0055389404E+000 -1.7478145659E-002  +2.6201624423E-003 +3.2288080547E-003  +2.9349499382E-003 +3.1063945498E-003  +1.0575368404E+000 -1.0330072045E-001 
5890823.529 +1.0037505627E+000 -2.2586122155E-002  +3.4236474894E-003 +2.9727038927E-003  +2.7738541830E-003 +3.5143326968E-003  +1.0421869755E+000 -1.0380198061E-001 
6015968.711 +1.0091913939E+000 -2.5855012238E-002  +2.6445733383E-003 +3.2945226412E-003  +2.4692274164E-003 +3.3209652174E-003  +1.0355316401E+000 -9.2080861330E-002 
6141113.892 +1.0006366968E+000 -2.3881457746E-002  +3.1452174298E-003 +3.1182044186E-003  +2.3910715245E-003 +3.2813630532E-003  +1.0294553041E+000 -9.6946351230E-002 
6266259.074 +9.9939340353E-001 -2.5277793407E-002  +2.8473939747E-003 +3.7768650800E-003  +2.8352984227E-003 +2.9671788216E-003  +1.0250642300E+000 -9.6698455513E-002 
6391404.255 +1.0020524263E+000 -3.2888501883E-002  +3.0874370132E-003 +3.2814880833E-003  +2.9294462875E-003 +3.2700554002E-003  +1.0153919458E+000 -9.7642973065E-002 
6516549.437 +9.9888581038E-001 -2.7579799294E-002  +3.0693612061E-003 +3.4695086069E-003  +2.5440305471E-003 +3.5420183558E-003  +1.0076639652E+000 -8.8204510510E-002 
6641694.618 +1.0036386251E+000 -2.4982720613E-002  +2.8530887794E-003 +3.4980804194E-003  +2.8851160314E-003 +3.6078090779E-003  +1.0076671839E+000 -7.8059032559E-002 
6766839.800 +1.0055005550E+000 -2.6607796550E-002  +2.9876152985E-003 +3.1530596316E-003  +2.9183002189E-003 +3.4615581390E-003  +1.0034030676E+000 -8.8519319892E-002 
6891984.981 +9.9736016989E-001 -2.7688503265E-002  +2.9560297262E-003 +3.6817025393E-003  +2.9043029062E-003 +3.6069669295E-003  +9.8874324560E-001 -8.1867203116E-002 
7017130.163 +9.9424284697E-001 -2.7523741126E-002  +2.9985250439E-003 +3.6508021876E-003  +3.3460208215E-003 +3.4380289726E-003  +9.9341046810E-001 -8.0273449421E-002 
7142275.344 +9.9611711502E-001 -2.9468327761E-002  +3.0659805052E-003 +3.6996051203E-003  +2.9313131236E-003 +3.5431152210E-003  +9.9345201254E-001 -6.9105088711E-002 
7267420.526 +9.9387985468E-001 -2.3401975632E-002  +3.1973412260E-003 +3.9226259105E-003  +2.9577119276E-003 +3.8700641599E-003  +9.9020785093E-001 -6.5266788006E-002 
7392565.707 +9.9662292004E-001 -2.3728802800E-002  +2.8298660181E-003 +3.7691777106E-003  +2.8270606417E-003 +3.7289932370E-003  +9.8456144333E-001 -7.3800489306E-002 
7517710.889 +9.9675065279E-001 -2.4434462190E-002  +2.6706277858E-003 +3.9652981795E-003  +2.7691568248E-003 +3.5249856301E-003  +9.8241525888E-001 -6.9999873638E-002 
7642856.070 +9.8868477345E-001 -2.9194936156E-002  +2.9164957814E-003 +4.0034004487E-003  +2.9609433841E-003 +3.8614023943E-003  +9.7565591335E-001 -6.9049656391E-002 
7768001.252 +9.9395757914E-001 -2.3322656751E-002  +3.0466639437E-003 +3.9105117321E-003  +3.0415582005E-003 +3.7500294857E-003  +9.7435313463E-001 -6.6483274102E-002 
7893146.433 +9.9491423368E-001 -1.8651857972E-002  +2.9675955884E-003 +4.0138117038E-003  +3.0500318389E-003 +3.8906708360E-003  +9.7357434034E-001 -5.9136837721E-002 
8018291.615 +9.8948884010E-001 -2.1066516638E-002  +2.9910902958E-003 +3.8699868601E-003  +2.9637189582E-003 +3.8381086197E-003  +9.6807658672E-001 -6.1909496784E-002 
8143436.796 +9.8852872849E-001 -2.2904321551E-002  +2.9223659076E-003 +4.0219235234E-003  +2.9480389785E-003 +4.0583619848E-003  +9.6867918968E-001 -5.2274793386E-002 
8268581.977 +9.8530280590E-001 -2.2988736629E-002  +2.8270515613E-003 +4.0024435148E-003  +3.0327797867E-003 +4.0553924628E-003  +9.6917951107E-001 -4.5136004686E-002 
8393727.159 +9.8702257872E-001 -2.2273838520E-002  +2.9740803875E-003 +4.0030954406E-003  +3.0545613263E-003 +4.1999695823E-003  +9.7142934799E-001 -4.4157415628E-002 
8518872.340 +9.8937785625E-001 -2.3122161627E-002  +2.8643393889E-003 +3.9251861162E-003  +3.0106171034E-003 +4.2550908402E-003  +9.6729046106E-001 -4.1265130043E-002 
8644017.522 +9.8614436388E-001 -1.7580270767E-002  +3.0487009790E-003 +4.0804492310E-003  +2.8651296161E-003 +4.1976962239E-003  +9.7236579657E-001 -4.3296188116E-002 
8769162.703 +9.8965060711E-001 -1.9638895988E-002  +2.9776170850E-003 +4.1689244099E-003  +2.8911125846E-003 +4.4133304618E-003  +9.7183406353E-001 -4.2336374521E-002 
8894307.885 +9.8621368408E-001 -2.2995054722E-002  +3.0123279430E-003 +4.2987661436E-003  +2.9854518361E-003 +4.2849099264E-003  +9.6779304743E-001 -4.1107296944E-002 
9019453.066 +9.8644369841E-001 -2.2917568684E-002  +2.8278823011E-003 +4.3617817573E-003  +3.0451770872E-003 +4.5687002130E-003  +9.6693348885E-001 -4.3213367462E-002 
9144598.248 +9.8712801933E-001 -1.9535660744E-002  +3.0855149962E-003 +4.3588657863E-003  +2.9293028638E-003 +4.4115334749E-003  +9.6818572283E-001 -3.6378413439E-002 
9269743.429 +9.8624932766E-001 -1.7472028732E-002  +3.0488187913E-003 +4.5400243253E-003  +2.9242695309E-003 +4.5278714970E-003  +9.6813529730E-001 -3.4057438374E-002 
9394888.611 +9.8819482327E-001 -1.5059411526E-002  +2.9212399386E-003 +4.6185581014E-003  +2.8802047018E-003 +4.5249518007E-003  +9.6844172478E-001 -3.3910900354E-002 
9520033.792 +9.8650580645E-001 -1.9349813461E-002  +2.9963157140E-003 +4.6355961822E-003  +2.8954385780E-003 +4.6018166468E-003  +9.6855807304E-001 -2.9232949018E-002 
9645178.974 +9.8581624031E-001 -1.5847355127E-002  +2.8710174374E-003 +4.6345903538E-003  +2.9775630683E-003 +4.6767927706E-003  +9.6835684776E-001 -2.7701795101E-002 
9770324.155 +9.8531401157E-001 -1.4063924551E-002  +3.0552884564E-003 +4.7110514715E-003  +2.9430773575E-003 +4.8176953569E-003  +9.6317160130E-001 -2.5161236525E-002 
9895469.337 +9.8626154661E-001 -1.3573378325E-002  +3.0586565845E-003 +4.9016056582E-003  +2.9061357491E-003 +4.8098862171E-003  +9.6685296297E-001 -2.2424072027E-002 
10020614.518 +9.8465412855E-001 -1.0561525822E-002  +3.0483868904E-003 +4.7801034525E-003  +2.9372258577E-003 +4.8594363034E-003  +9.6653240919E-001 -2.1387189627E-002 
10145759.700 +9.8590290546E-001 -1.2603044510E-002  +2.9773046263E-003 +4.8816092312E-003  +2.9335604049E-003 +5.0234030932E-003  +9.6865653992E-001 -2.3278951645E-002 
10270904.881 +9.8726737499E-001 -1.3190269470E-002  +2.9723597690E-003 +5.1071140915E-003  +2.9836990871E-003 +5.0819404423E-003  +9.7119343281E-001 -1.9623488188E-002 
10396050.063 +9.8630738258E-001 -1.2687951326E-002  +3.0926279724E-003 +5.0288266502E-003  +3.0294640455E-003 +5.0219199620E-003  +9.6952205896E-001 -1.7529934645E-002 
10521195.244 +9.8725461960E-001 -1.1557668447E-002  +3.0922968872E-003 +5.1211249083E-003  +3.0093379319E-003 +5.1235253923E-003  +9.7124671936E-001 -1.5927761793E-002 
10646340.426 +9.8616701365E-001 -1.0493099689E-002  +3.0323578976E-003 +5.2163610235E-003  +3.0142469332E-003 +5.1785865799E-003  +9.7082042694E-001 -1.1457949877E-002 
10771485.607 +9.8631238937E-001 -9.0432167053E-003  +3.0125395861E-003 +5.2175447345E-003  +3.1155990437E-003 +5.3303074092E-003  +9.7170579433E-001 -1.1889368296E-002 
10896630.788 +9.8625981808E-001 -7.2291791439E-003  +3.0833110213E-003 +5.3384895436E-003  +3.0646272935E-003 +5.3543737158E-003  +9.7095119953E-001 -1.2168735266E-002 
11021775.970 +9.8606848717E-001 -7.8434348106E-003  +3.0907266773E-003 +5.3109605797E-003  +2.9923811089E-003 +5.4719746113E-003  +9.7310918570E-001 -9.5340311527E-003 
11146921.151 +9.8707866669E-001 -9.3926489353E-003  +3.1319148839E-003 +5.4443804547E-003  +3.0467314646E-003 +5.3892205469E-003  +9.7419786453E-001 -9.8849833012E-003 
11272066.333 +9.8496520519E-001 -1.0039180517E-002  +3.1367135234E-003 +5.4599726573E-003  +3.0842835549E-003 +5.4843956605E-003  +9.7246980667E-001 -9.3719065189E-003 
11397211.514 +9.8730194569E-001 -7.6362490654E-003  +3.0955509283E-003 +5.5299145170E-003  +3.0558714643E-003 +5.5570709519E-003  +9.7355139256E-001 -8.0572962761E-003 
11522356.696 +9.8654341698E-001 -8.8237822056E-003  +3.0898354016E-003 +5.6210611947E-003  +3.1161194202E-003 +5.6882472709E-003  +9.7515940666E-001 -7.9907476902E-003 
11647501.877 +9.8626792431E-001 -8.0307126045E-003  +3.1090867706E-003 +5.6520956568E-003  +3.0522400048E-003 +5.5838893168E-003  +9.7463095188E-001 -8.0480873585E-003 
11772647.059 +9.8703873158E-001 -7.0506930351E-003  +3.0848369934E-003 +5.6804101914E-003  +3.0783994589E-003 +5.7225776836E-003  +9.7423303127E-001 -8.9867413044E-003 
11897792.240 +9.8695075512E-001 -6.4283907413E-003  +3.0487128533E-003 +5.7531311177E-003  +3.0929620843E-003 +5.8142156340E-003  +9.7598063946E-001 -8.5082054138E-003 
12022937.422 +9.8900842667E-001 -6.2641203403E-003  +3.1393428799E-003 +5.8052563109E-003  +3.0986014754E-003 +5.8961482719E-003  +9.7613120079E-001 -7.8019201756E-003 
12148082.603 +9.8851358891E-001 -6.0638189316E-003  +3.1256214716E-003 +5.9059895575E-003  +3.1650920864E-003 +5.8471173979E-003  +9.7738230228E-001 -5.1978826523E-003 
12273227.785 +9.8822385073E-001 -6.1568319798E-003  +3.0747519340E-003 +5.9346659109E-003  +3.0990836676E-003 +5.9754662216E-003  +9.7753202915E-001 -6.1360597610E-003 
12398372.966 +9.8862624168E-001 -5.4460763931E-003  +3.1139440835E-003 +5.9743202291E-003  +3.0858516693E-003 +6.0034208000E-003  +9.7855871916E-001 -6.1129331589E-003 
12523518.148 +9.8826664686E-001 -4.3244361877E-003  +3.1042178161E-003 +6.0340538621E-003  +3.0789407901E-003 +6.0491561890E-003  +9.7750049829E-001 -6.0931593180E-003 
12648663.329 +9.8908561468E-001 -3.7403106689E-003  +3.1462430488E-003 +6.0836151242E-003  +3.1001819298E-003 +6.1354399659E-003  +9.7931206226E-001 -5.0404369831E-003 
12773808.511 +9.8906135559E-001 -5.4027289152E-003  +3.1239215750E-003 +6.1449692585E-003  +3.1107896939E-003 +6.1580059119E-003  +9.7905850410E-001 -4.8322826624E-003 
12898953.692 +9.8935097456E-001 -5.7967752218E-003  +3.1648741569E-003 +6.1967582442E-003  +3.0679965857E-003 +6.2170936726E-003  +9.7983044386E-001 -5.3612962365E-003 
13024098.874 +9.8925942183E-001 -3.6541819572E-003  +3.1778046396E-003 +6.3112801872E-003  +3.1249700114E-003 +6.3317324966E-003  +9.8046094179E-001 -3.2969191670E-003 
13149244.055 +9.8982483149E-001 -4.1473321617E-003  +3.1249844469E-003 +6.3594421372E-003  +3.0436906964E-003 +6.3122892752E-003  +9.8038959503E-001 -3.9817783982E-003 
13274389.237 +9.8953890800E-001 -4.0113069117E-003  +3.1975347083E-003 +6.4050625078E-003  +3.0888221227E-003 +6.4171720296E-003  +9.8264276981E-001 -3.6906544119E-003 
13399534.418 +9.9025410414E-001 -4.7317221761E-003  +3.1388697680E-003 +6.4892284572E-003  +3.1198409852E-003 +6.4518922009E-003  +9.8064500093E-001 -2.7347058058E-003 
13524679.599 +9.8980742693E-001 -3.2619535923E-003  +3.1739270780E-003 +6.5161306411E-003  +3.1173676252E-003 +6.5454514697E-003  +9.8148643970E-001 -2.4556815624E-003 
13649824.781 +9.9126565456E-001 -3.7515461445E-003  +3.1824703328E-003 +6.5788710490E-003  +3.1259742100E-003 +6.5223812126E-003  +9.8337543011E-001 -2.2042542696E-003 
13774969.962 +9.9094408751E-001 -3.3309459686E-003  +3.1803459860E-003 +6.6437292844E-003  +3.1364487950E-003 +6.6156918183E-003  +9.8297697306E-001 -3.1280368567E-003 
13900115.144 +9.9036931992E-001 -2.6568770409E-003  +3.1885602511E-003 +6.6943806596E-003  +3.1351863872E-003 +6.6697769798E-003  +9.8325121403E-001 -3.0929148197E-003 
14025260.325 +9.9081480503E-001 -3.1262338161E-003  +3.1884373166E-003 +6.7477445118E-003  +3.1290671322E-003 +6.7305974662E-003  +9.8342752457E-001 -3.1310021877E-003 
14150405.507 +9.9024605751E-001 -2.9043853283E-003  +3.1837997958E-003 +6.8067307584E-003  +3.1554771122E-003 +6.7921276204E-003  +9.8405414820E-001 -1.9918680191E-003 
14275550.688 +9.9144053459E-001 -3.2095015049E-003  +3.1507038511E-003 +6.8519469351E-003  +3.1812167726E-003 +6.8689957261E-003  +9.8467648029E-001 -1.5731453896E-003 
14400695.870 +9.9074137211E-001 -4.0250122547E-003  +3.1633593608E-003 +6.8961321376E-003  +3.0924095772E-003 +6.9125248119E-003  +9.8458510637E-001 -9.7364187241E-004 
