!  2-Port S-parameters saved by WinCal
! VAR MeasName=S-Parameters (CALIBRATED_DATA) read from VNA (P5004A)
! VAR MeasDate=22/05/2024 16:56:18
! VAR NAME=Wafer2_r10_c8_openverynarrow
! VAR FILENAME=Wafer2_r10_c8_openverynarrow.S2P
! VAR DATE=22/05/2024 16:56:18
! VAR PHYS_PORTS=1,2
! VAR ObjTypeName=DATASET
! VAR IndexType=Frequency
!
# Hz S RI R 50
9000.000 +2.7812269330E-001 -5.7417094707E-001  -3.7670008838E-002 +1.3981791213E-002  +1.8130324781E-002 +2.3265243508E-003  +1.1786865443E-001 +1.4408547431E-002 
134145.181 +8.0493962765E-001 +6.3648164272E-002  +3.5825740546E-002 -7.1839196607E-003  +3.7939913571E-002 -1.0826122947E-002  +1.2793508768E+000 -7.0029452443E-002 
259290.363 +9.3440943956E-001 -9.1653674841E-002  -4.3055443093E-003 -7.5338664465E-004  -6.3778911717E-003 -4.8898365349E-003  +1.0464200974E+000 -4.2637854815E-002 
384435.544 +9.6841090918E-001 -2.2712501884E-001  +7.9647981329E-004 -1.5238617780E-003  +5.5846692994E-003 -2.8700078838E-003  +1.1069726944E+000 -3.3692985773E-002 
509580.726 +9.7440081835E-001 -1.2025503814E-001  -1.1619509896E-003 -3.7374169915E-004  +2.0374825690E-003 +1.3055568561E-003  +1.0480986834E+000 -2.0478993654E-002 
634725.907 +1.0630786419E+000 -1.5003019571E-001  -9.6337625291E-004 -7.5592647772E-004  -4.5018328819E-004 +7.6818739763E-004  +1.0678962469E+000 -1.1366963387E-002 
759871.089 +1.1645174026E+000 -5.6155085564E-002  -5.2072247490E-004 -7.6419778634E-004  -1.4369424898E-003 -7.8769470565E-004  +1.0433590412E+000 -3.7543326616E-002 
885016.270 +9.7842013836E-001 -3.2618582249E-002  +2.5188662112E-003 +5.4552219808E-007  -2.1773613989E-003 +3.0182036571E-003  +1.0189177990E+000 -3.7888109684E-002 
1010161.452 +1.1662409306E+000 -2.2698223591E-002  -5.1685888320E-004 -2.1768114530E-003  +1.2007511687E-003 -1.3316120021E-003  +9.0494191647E-001 +3.8743168116E-002 
1135306.633 +1.1887798309E+000 -7.2673380375E-002  +1.7375207972E-003 +7.3409138713E-004  -1.2732158648E-003 +1.8680657959E-003  +9.8536717892E-001 +1.1123970151E-001 
1260451.815 +1.3258434534E+000 -8.7225258350E-002  +1.4006330166E-003 +6.2246143352E-004  -1.7429213040E-003 -1.9729593769E-003  +9.8722010851E-001 +1.6014719009E-001 
1385596.996 +1.2362096310E+000 -9.6503019333E-002  -5.4859777447E-004 -7.6237326721E-004  +3.9605164784E-004 -1.3007222151E-004  +1.0044007301E+000 +1.0043564439E-001 
1510742.178 +1.3528707027E+000 -1.4515179396E-001  +5.7474919595E-004 -1.3505930547E-003  -1.5267467825E-003 -1.5075933188E-003  +9.5953202248E-001 +1.3059803843E-001 
1635887.359 +9.7976773977E-001 -2.4943815172E-001  -3.3143535256E-004 +7.5300660683E-004  -3.8981117541E-004 +2.0968663739E-004  +1.0866038799E+000 +1.0726535320E-001 
1761032.541 +1.0421891212E+000 -2.2900840640E-001  -1.3470519334E-003 -2.2651243489E-003  +6.2234372308E-005 -1.3340931037E-004  +1.0641282797E+000 +1.5518763661E-001 
1886177.722 +1.0206539631E+000 -1.1475485563E-001  +3.1796048279E-004 +2.9173502116E-004  +3.2358145108E-004 -2.5350670330E-004  +1.0616576672E+000 +1.1554861069E-001 
2011322.904 +1.0198668242E+000 -9.3471109867E-002  -1.2437801342E-004 -2.8005239437E-004  -5.2852090448E-004 +1.7263428890E-004  +1.0558136702E+000 +1.0657843947E-001 
2136468.085 +1.0197547674E+000 -6.5428972244E-002  -2.5803246535E-004 -6.9976149825E-004  -8.0912068370E-006 +1.9819519366E-004  +1.0405868292E+000 +1.0220646858E-001 
2261613.267 +1.0233602524E+000 -5.8973491192E-002  +1.2143792264E-004 -2.5641772663E-004  -5.2054948173E-004 +1.4055139036E-004  +1.0290414095E+000 +1.1675518751E-001 
2386758.448 +1.0165901184E+000 -4.2488306761E-002  +3.9107144403E-005 -1.6225571017E-005  -4.9461820163E-004 +8.6053705309E-004  +1.0396485329E+000 +1.2600409985E-001 
2511903.630 +1.0176820755E+000 -2.7126312256E-002  -6.9131853525E-004 -1.4409027062E-004  -3.8938285434E-004 -1.3593808399E-004  +1.0529685020E+000 +1.3101065159E-001 
2637048.811 +1.0236603022E+000 -2.2576004267E-002  +1.1064170394E-005 -2.6096258080E-004  +7.4547179975E-004 +5.8643298689E-004  +1.0399662256E+000 +1.4772662520E-001 
2762193.992 +1.0346375704E+000 -5.8544538915E-003  -1.1104210716E-004 +2.9803946381E-004  +1.3872393174E-004 -1.2120782776E-004  +1.0316121578E+000 +1.7242842913E-001 
2887339.174 +1.0175969601E+000 -1.3968572021E-002  +7.8528610175E-006 +3.5847329855E-005  +1.1837448983E-004 +2.0258390578E-004  +1.0418645144E+000 +1.9484317303E-001 
3012484.355 +1.0170861483E+000 +9.5550715923E-004  +1.2377307576E-004 -1.4227299835E-004  -2.0144661539E-004 +4.8683147179E-004  +1.0606468916E+000 +2.2068488598E-001 
3137629.537 +1.0150736570E+000 +1.9118398428E-002  +2.8829951771E-004 +7.3721275839E-006  -1.4632874809E-005 -4.9085676437E-004  +1.0994815826E+000 +2.2673580050E-001 
3262774.718 +1.0107563734E+000 +3.1015604734E-002  -1.2959947344E-004 -3.2881292282E-004  +1.3956782641E-004 -1.8767450820E-004  +1.1197959185E+000 +2.2920304537E-001 
3387919.900 +9.9514198303E-001 +4.9845919013E-002  -2.1839523106E-004 +1.8898898270E-004  +7.2947249282E-004 +4.2052369099E-004  +1.1239874363E+000 +2.3839652538E-001 
3513065.081 +1.0130350590E+000 +6.1460927129E-002  +2.2073436412E-007 -1.7167754413E-004  -1.4820875367E-004 +2.6854424505E-004  +1.1423437595E+000 +2.5731453300E-001 
3638210.263 +1.0163344145E+000 +8.6902529001E-002  -2.5919894688E-004 -5.1528523909E-004  +1.7518355162E-004 -4.3512333650E-004  +1.1675854921E+000 +2.4220395088E-001 
3763355.444 +1.0332909822E+000 +1.0749325156E-001  +2.0458079234E-005 -4.1853735456E-004  +2.1770560124E-005 +2.4495352409E-004  +1.1925272942E+000 +2.1929305792E-001 
3888500.626 +1.0443384647E+000 +1.2300957739E-001  -2.8797215782E-004 +4.4655890088E-004  +2.6486566640E-004 -1.9164083642E-004  +1.2249329090E+000 +2.2886075079E-001 
4013645.807 +9.9933713675E-001 +4.0321245790E-002  +2.7797603980E-004 +9.7750242276E-005  -5.7481904514E-004 -2.1679198835E-004  +1.1678628922E+000 +8.8583342731E-002 
4138790.989 +9.1643017530E-001 -3.3542245626E-002  +2.3946810688E-004 +6.0198904248E-004  +3.0227628304E-004 +6.5946078394E-005  +1.0764327049E+000 -8.7260827422E-003 
4263936.170 +9.0798127651E-001 -2.2890187800E-002  -6.9456628989E-004 +3.1080626650E-004  +4.0539985639E-004 -4.5836876961E-004  +1.0696759224E+000 -2.4596905336E-002 
4389081.352 +9.1539752483E-001 -2.6574974880E-002  -7.1262323763E-004 -2.0722142654E-004  +1.2605127995E-004 +5.4730701959E-004  +1.0601996183E+000 -5.0335481763E-002 
4514226.533 +9.3046921492E-001 -1.8424928188E-002  -3.9273314178E-004 -5.6345310441E-005  -2.4494255194E-004 -1.9366425477E-005  +1.0578893423E+000 -5.6649632752E-002 
4639371.715 +9.3348371983E-001 -1.5188263729E-002  -4.5833028707E-005 +1.4185001783E-004  +4.2551153456E-004 -1.0622329137E-004  +1.0594801903E+000 -5.4027166218E-002 
4764516.896 +9.2892771959E-001 -1.4697670937E-002  -3.3493107185E-004 +1.2568116654E-004  +2.2595960763E-004 +4.4701338629E-004  +1.0514906645E+000 -5.6778427213E-002 
4889662.078 +9.3426918983E-001 -2.6605203748E-003  -2.4812979973E-005 +1.1103226279E-004  +3.3440077095E-004 +2.5173872928E-005  +1.0424189568E+000 -4.7203771770E-002 
5014807.259 +9.2450237274E-001 -7.4896886945E-003  -2.2351914959E-004 +4.3634363101E-004  -9.1770212748E-005 +2.5077184546E-004  +1.0334720612E+000 -4.2991440743E-002 
5139952.441 +9.4201576710E-001 -6.7579634488E-003  -8.5177889559E-005 -9.7890679172E-006  +1.3414844580E-004 +6.1993888812E-004  +1.0334168673E+000 -5.5281974375E-002 
5265097.622 +9.4312238693E-001 +8.4326043725E-004  -8.6911219114E-005 +2.4061107979E-005  +9.3783324701E-005 -7.4229144957E-005  +1.0248694420E+000 -5.9281650931E-002 
5390242.804 +9.5450133085E-001 +1.2804761529E-002  -4.3495712453E-004 +1.8265814288E-004  +2.1986167121E-004 -1.8412507416E-005  +1.0147174597E+000 -5.1283970475E-002 
5515387.985 +9.6258985996E-001 +4.1119679809E-003  +5.1484385040E-005 +1.3118481729E-004  -1.0954841855E-004 +5.3030531853E-004  +1.0166434050E+000 -5.5968530476E-002 
5640533.166 +9.6124738455E-001 +8.4091797471E-003  -9.7607997304E-005 +8.5081801444E-006  +6.9471378811E-004 -4.4969367445E-004  +1.0088866949E+000 -5.4436609149E-002 
5765678.348 +9.5609468222E-001 +4.9839168787E-003  -2.1628607647E-004 -9.5509196399E-005  -3.0027181492E-004 +2.7524039615E-004  +1.0108419657E+000 -5.5969454348E-002 
5890823.529 +9.6111780405E-001 -1.6320571303E-003  -1.5531359531E-004 +3.2132727210E-004  +1.1785290553E-004 +1.4025348355E-004  +1.0036941767E+000 -5.6030519307E-002 
6015968.711 +9.5889574289E-001 +2.7394518256E-003  +2.0942658011E-005 -7.9493423982E-005  -3.0585657805E-004 +1.4710694086E-004  +1.0020080805E+000 -4.9480840564E-002 
6141113.892 +9.6290850639E-001 +6.1117112637E-005  +6.6939093813E-005 +2.6888406137E-004  -4.1156320367E-004 +8.2213850692E-004  +9.9561846256E-001 -5.2303805947E-002 
6266259.074 +9.6845489740E-001 +5.2597373724E-003  +3.9919471601E-004 -3.0209448596E-006  +1.7814348394E-004 +3.1294338987E-004  +9.9318909645E-001 -5.2306734025E-002 
6391404.255 +9.6584427357E-001 -9.9550187588E-004  -2.5648565497E-004 -1.7134100199E-004  +2.1630739502E-004 -4.5580054575E-007  +9.9247348309E-001 -5.1310978830E-002 
6516549.437 +9.6871054173E-001 -4.9893185496E-003  +5.5274904298E-005 -1.8537620781E-004  +2.1792453481E-005 +2.5119900238E-004  +9.8795521259E-001 -4.5966260135E-002 
6641694.618 +9.6705555916E-001 +2.6640594006E-003  +1.3974118338E-004 +2.2809123038E-004  +9.5413299277E-005 +1.8344973796E-005  +9.8552238941E-001 -4.2555317283E-002 
6766839.800 +9.7660726309E-001 +3.2334625721E-003  -2.8709662729E-004 -1.6382473405E-006  +9.7959746199E-005 +2.5624094633E-006  +9.8539417982E-001 -4.3395340443E-002 
6891984.981 +9.7254884243E-001 -1.6318410635E-003  +2.2536993129E-005 +2.0591419889E-004  +1.3683180441E-004 +3.8018722989E-005  +9.7598910332E-001 -4.4505789876E-002 
7017130.163 +9.7561758757E-001 +2.7686208487E-003  -1.0522004595E-004 -8.6657622887E-005  +1.6935379244E-004 +1.1939142496E-005  +9.8347759247E-001 -3.6574482918E-002 
7142275.344 +9.7525686026E-001 +7.7004581690E-003  +4.7163943236E-005 +3.7058189628E-004  -6.9070083555E-005 -9.8470918601E-006  +9.8099315166E-001 -2.7270346880E-002 
7267420.526 +9.7799128294E-001 +1.0973930359E-002  +4.8512854846E-005 -2.3053689802E-007  -2.8845411725E-004 -1.3396597933E-004  +9.7901105881E-001 -2.8482854366E-002 
7392565.707 +9.7643232346E-001 +7.0366412401E-003  -6.3815961767E-005 -2.6956015063E-005  -9.0870773420E-005 +1.7350085545E-004  +9.7960358858E-001 -2.9982298613E-002 
7517710.889 +9.7867202759E-001 +9.1912448406E-003  +4.0409227950E-005 +6.9859197538E-005  +1.4417726561E-005 +3.0497798434E-005  +9.7525429726E-001 -3.0154272914E-002 
7642856.070 +9.7698926926E-001 +8.0485790968E-003  -8.6645297415E-005 +2.3123562278E-004  +1.5941000311E-004 +2.8654376365E-005  +9.7358632088E-001 -3.0415460467E-002 
7768001.252 +9.8170012236E-001 +1.0493323207E-002  -7.6694719610E-005 -1.5022480511E-004  +6.2259889091E-005 +1.2107763177E-004  +9.7118520737E-001 -2.8099343181E-002 
7893146.433 +9.8354047537E-001 +1.5289485455E-002  -1.1986579921E-004 -1.9496242749E-004  -5.6653880165E-007 +5.2388564654E-005  +9.7430241108E-001 -2.0584791899E-002 
8018291.615 +9.7888010740E-001 +8.8900923729E-003  -8.5913867224E-005 +9.1678353783E-005  +1.4926666336E-004 -6.9188070484E-005  +9.7050714493E-001 -2.5509178638E-002 
8143436.796 +9.8005706072E-001 +2.1754503250E-003  +1.3244785077E-004 -6.4227424446E-006  +9.9813238194E-005 -1.6795171541E-004  +9.7275251150E-001 -1.9608467817E-002 
8268581.977 +9.7802376747E-001 +6.1825811863E-003  -5.2855753893E-005 +5.5236960179E-006  +8.6482483312E-005 -5.8855170209E-005  +9.7405463457E-001 -1.5870004892E-002 
8393727.159 +9.7914636135E-001 +2.2432804108E-003  -1.4113321959E-004 -5.2016192058E-005  +9.8854601674E-005 -9.0113433544E-005  +9.7562670708E-001 -1.6849458218E-002 
8518872.340 +9.7787582874E-001 +4.4268369675E-004  +1.9282120775E-005 +1.1158849520E-004  +1.9158655050E-005 -3.0047549444E-005  +9.7390258312E-001 -1.1024445295E-002 
8644017.522 +9.8052203655E-001 +6.4294040203E-003  -1.8990436729E-005 -2.7329231671E-005  +1.3087676780E-004 +6.9251378591E-005  +9.7507727146E-001 -1.1131465435E-002 
8769162.703 +9.8491656780E-001 +9.5072984695E-003  +1.4000717783E-005 +1.9711244386E-004  -2.0951920305E-006 +5.8213281591E-005  +9.7320252657E-001 -1.0809898376E-002 
8894307.885 +9.8278379440E-001 +5.3819119930E-003  -8.2360085798E-005 +7.7211610915E-005  +8.2911981735E-005 -1.1598276615E-004  +9.7334635258E-001 -1.1484444141E-002 
9019453.066 +9.8205494881E-001 +5.1870942116E-003  -4.2589872464E-005 +5.8875997638E-005  +1.9241089831E-005 +7.9186458606E-005  +9.7405040264E-001 -1.1965423822E-002 
9144598.248 +9.8496860266E-001 +7.1213841438E-003  -4.7990983148E-005 -1.1615060794E-004  +2.2654021450E-005 -7.8482280514E-006  +9.7418719530E-001 -9.9081397057E-003 
9269743.429 +9.8433375359E-001 +6.1989724636E-003  -1.1450398597E-004 -1.0702824511E-004  -2.5324120543E-006 +2.0324547222E-005  +9.7475183010E-001 -8.6195468903E-003 
9394888.611 +9.8241668940E-001 +9.8196566105E-003  +5.7915734942E-005 +1.8464797904E-006  -8.0652043835E-006 -2.0099520043E-005  +9.7462385893E-001 -8.0793201923E-003 
9520033.792 +9.8445242643E-001 +3.7479996681E-003  -8.0170735600E-005 +1.4826668485E-004  -3.2861687941E-005 +7.2383365477E-005  +9.7382593155E-001 -5.7668685913E-003 
9645178.974 +9.8869252205E-001 +8.0388486385E-003  -3.5574721551E-005 -1.7613227101E-005  +1.4988988369E-005 +3.3585904021E-005  +9.7601455450E-001 -4.9975812435E-003 
9770324.155 +9.8698902130E-001 +6.5362155437E-003  -5.5753611377E-005 +7.6532567618E-005  -1.0615694919E-004 +6.2248800532E-005  +9.7388398647E-001 -3.8703083992E-003 
9895469.337 +9.8730278015E-001 +7.6740384102E-003  +3.7688016164E-005 +8.0049649114E-005  -7.5272597314E-005 -5.6861663325E-006  +9.7460687160E-001 -4.3194591999E-003 
10020614.518 +9.8710119724E-001 +6.6621899605E-003  -1.0304684838E-004 +5.2158906328E-005  +1.2627747492E-004 +7.2420676588E-005  +9.7623366117E-001 -8.4298849106E-004 
10145759.700 +9.8647165298E-001 +6.3124299049E-003  +1.1659429583E-004 -6.9118374086E-005  -2.6467785574E-005 +3.2899955841E-005  +9.7759187222E-001 -3.7553906441E-004 
10270904.881 +9.8807120323E-001 +3.3012032509E-003  -2.8215226848E-005 -3.5821558413E-005  -4.1216091631E-005 +6.7450455390E-005  +9.7896981239E-001 +6.8110227585E-004 
10396050.063 +9.8721969128E-001 +5.8670639992E-003  +2.3219785362E-005 +7.3803690611E-005  -5.1028560847E-005 +9.1571018856E-005  +9.7768902779E-001 +3.6928057671E-004 
10521195.244 +9.8880833387E-001 +7.5461864471E-003  +3.4805278119E-005 +8.4894840256E-005  -1.0153576295E-004 +2.7392132324E-005  +9.7894608974E-001 +1.8911361694E-003 
10646340.426 +9.8959875107E-001 +6.6825747490E-003  -2.1070391085E-005 -2.3635429898E-006  -8.6307234596E-005 +8.3974373410E-006  +9.7881865501E-001 +2.3119449615E-003 
10771485.607 +9.8797333241E-001 +6.7633986473E-003  +1.3423333257E-005 +2.8664357160E-005  -2.5648223527E-005 +4.9247038987E-005  +9.8109948635E-001 +3.9166510105E-003 
10896630.788 +9.8806482553E-001 +7.9155862331E-003  -2.9617671316E-005 +4.5428871090E-005  +6.0695703723E-005 +2.2815222110E-005  +9.8021399975E-001 +4.2998492718E-003 
11021775.970 +9.8787605762E-001 +8.2635283470E-003  -2.4500961445E-005 +1.0914519225E-004  +4.3347230530E-005 +2.6262012398E-005  +9.8239755630E-001 +5.4624974728E-003 
11146921.151 +9.8782920837E-001 +5.3257346153E-003  +3.1139534258E-006 +5.9728401538E-005  -6.6271262767E-005 +2.6841589715E-006  +9.8284971714E-001 +5.7757496834E-003 
11272066.333 +9.8680251837E-001 +6.7420005798E-003  +8.4279985458E-005 +1.2590660481E-004  -5.8729681768E-005 +1.2948703443E-005  +9.7988736629E-001 +4.5831799507E-003 
11397211.514 +9.8881417513E-001 +7.0273280144E-003  +4.5149685320E-005 +5.3263869631E-005  -5.1982926379E-005 +3.8822901843E-005  +9.8185646534E-001 +5.2232146263E-003 
11522356.696 +9.8900830746E-001 +6.6724121571E-003  -4.4586926379E-005 +1.8778766389E-005  -4.2354629841E-005 +8.0966114183E-005  +9.8210299015E-001 +4.2143762112E-003 
11647501.877 +9.8732346296E-001 +7.6417624950E-003  -1.9087427063E-005 +1.0795377602E-004  -6.3903880800E-006 +6.0059501266E-005  +9.8198360205E-001 +5.1569044590E-003 
11772647.059 +9.8930716515E-001 +7.7874362469E-003  +1.0502261830E-005 +4.3755961087E-005  +8.0474019342E-006 +6.1460719735E-005  +9.8245382309E-001 +5.2101314068E-003 
11897792.240 +9.8873680830E-001 +6.8360567093E-003  +1.1281895240E-005 +4.8988938943E-005  +4.3443549657E-005 +8.1159138063E-005  +9.8252218962E-001 +6.5325498581E-003 
12022937.422 +9.8936939240E-001 +8.3128213882E-003  +5.7029377786E-005 +1.5418960174E-005  +1.1013196854E-005 +6.0487091105E-005  +9.8257446289E-001 +4.4146478176E-003 
12148082.603 +9.9014121294E-001 +6.7970156670E-003  -3.6804671254E-005 +1.3691800996E-004  +6.7908011260E-005 +3.5617063986E-005  +9.8433077335E-001 +7.5578391552E-003 
12273227.785 +9.8949253559E-001 +8.8365077972E-003  -6.0577986005E-006 +1.3202265836E-004  -1.2617529137E-005 +8.0616533523E-005  +9.8329901695E-001 +6.8148672581E-003 
12398372.966 +9.8927247524E-001 +9.5102787018E-003  -1.2185133528E-005 +8.9752553322E-005  -8.3109716797E-006 +7.5210118666E-005  +9.8485493660E-001 +6.3760876656E-003 
12523518.148 +9.8905265331E-001 +9.4392597675E-003  -2.5526003810E-005 +7.6117736171E-005  -2.3396223696E-005 +1.1469148740E-004  +9.8348623514E-001 +6.9615542889E-003 
12648663.329 +9.8997414112E-001 +9.3831717968E-003  +1.3740263967E-005 +1.4245822967E-005  +2.7289901482E-005 +3.6944478779E-005  +9.8441731930E-001 +7.7943652868E-003 
12773808.511 +9.9063134193E-001 +8.1062316895E-003  +3.2526681025E-005 +1.9725417587E-005  +8.3343966253E-006 +5.4889900639E-005  +9.8479402065E-001 +7.9433172941E-003 
12898953.692 +9.9078410864E-001 +8.2553029060E-003  +8.4209723354E-006 +8.1514961494E-005  +1.5649786292E-005 +6.3967730966E-005  +9.8515212536E-001 +5.9714838862E-003 
13024098.874 +9.9074387550E-001 +8.9287012815E-003  +1.3283424778E-005 +2.3686987333E-005  +2.7865555239E-005 +3.9139693399E-005  +9.8521870375E-001 +7.2582736611E-003 
13149244.055 +9.9066185951E-001 +9.0892910957E-003  -4.6459454097E-006 +7.7134463936E-005  -7.9244887274E-007 +4.4951113523E-005  +9.8560571671E-001 +8.8522378355E-003 
13274389.237 +9.9099874496E-001 +8.2209482789E-003  -4.2407085857E-005 +7.3169059760E-005  -1.7593365556E-006 +4.2425584979E-005  +9.8717933893E-001 +8.0088116229E-003 
13399534.418 +9.9123311043E-001 +9.8975896835E-003  -3.6276083847E-005 +6.6702843469E-005  +9.2966456577E-006 +5.7199325965E-005  +9.8639154434E-001 +8.5464566946E-003 
13524679.599 +9.9120599031E-001 +9.4235092402E-003  -2.0241559469E-005 +3.3769654692E-005  +2.3250458980E-005 +3.1205774576E-005  +9.8709541559E-001 +7.9731494188E-003 
13649824.781 +9.9162077904E-001 +8.8507533073E-003  +9.4846991487E-006 +6.0727081291E-005  +3.2657673728E-005 +9.6008552646E-005  +9.8757666349E-001 +8.2078725100E-003 
13774969.962 +9.9148476124E-001 +8.9749395847E-003  +5.7187207858E-008 +8.0601661466E-005  -1.7387254047E-005 +5.1324343076E-005  +9.8772132397E-001 +6.8588852882E-003 
13900115.144 +9.9127334356E-001 +9.4663500786E-003  -1.6393441911E-006 +9.6378702438E-005  -2.3382672225E-006 +1.1164612079E-004  +9.8751229048E-001 +7.3013007641E-003 
14025260.325 +9.9074935913E-001 +9.4528496265E-003  -8.9611894509E-006 +6.5023989009E-005  -1.0513750567E-005 +3.1187704735E-005  +9.8789930344E-001 +7.5774192810E-003 
14150405.507 +9.9150687456E-001 +1.0871708393E-002  +2.9460374208E-005 +7.4098737969E-005  +5.0467133406E-005 +1.1749634723E-004  +9.8803323507E-001 +8.9066922665E-003 
14275550.688 +9.9219673872E-001 +1.0071247816E-002  +3.6351386370E-005 +1.0775557894E-004  +9.3661874416E-006 +8.1702950411E-005  +9.8832476139E-001 +7.6649487019E-003 
14400695.870 +9.9074876308E-001 +9.4062089920E-003  +3.5749351809E-005 +6.6654989496E-005  +2.9217168048E-005 +6.2759958382E-005  +9.8824679852E-001 +8.8270008564E-003 
