!  2-Port S-parameters saved by WinCal
! VAR MeasName=S-Parameters (CALIBRATED_DATA) read from VNA (P5004A)
! VAR MeasDate=22/05/2024 17:58:02
! VAR NAME=Wafer2_r2_c1_pristine_pos1.0dc
! VAR FILENAME=Wafer2_r2_c1_pristine_pos1.0dc.S2P
! VAR DATE=22/05/2024 17:58:02
! VAR PHYS_PORTS=1,2
! VAR ObjTypeName=DATASET
! VAR IndexType=Frequency
!
# Hz S RI R 50
9000.000 +2.2040909529E-001 -5.8565074205E-001  -3.1755827367E-003 -2.2727850825E-002  +1.1777307373E-003 +3.6912208889E-003  +6.8783752620E-002 +9.7816035151E-002 
134145.181 +6.3139694929E-001 -6.6654622555E-002  +1.3224926777E-002 +2.4150773883E-002  -9.6314717084E-003 -2.2661925759E-003  -9.4904214144E-002 -4.5578604937E-001 
259290.363 +8.3836370707E-001 -1.2484353781E-001  -5.7784519158E-003 -5.9850052930E-003  +5.6714378297E-003 -4.8176273704E-003  +1.6373759508E+000 -8.2805514336E-001 
384435.544 +8.9790970087E-001 -3.0872833729E-001  +9.6242642030E-004 -4.9293590710E-003  -1.6361070797E-002 -2.6879520155E-003  +3.5315408707E+000 -1.5995566845E+000 
509580.726 +9.5820772648E-001 -1.8175753951E-001  +3.1285868026E-003 -1.9962780643E-003  -3.2879570499E-003 -1.1955242371E-003  +1.8793563843E+000 -3.6373960972E-001 
634725.907 +1.1032556295E+000 -2.0648817718E-001  +2.8464789502E-003 +1.7034265911E-003  -4.5464639552E-003 +1.1297054589E-003  +2.1201939583E+000 +5.3913676739E-001 
759871.089 +1.2586106062E+000 -1.6998767853E-002  +1.5523089096E-003 +1.5678674681E-003  +9.1359153157E-004 +6.2955636531E-004  +1.4381393194E+000 +4.5084202290E-001 
885016.270 +1.2284353971E+000 -1.2678182125E-001  +6.9153896766E-004 -2.8655017377E-004  +1.7127655447E-003 +3.4425771446E-004  +1.2063031197E+000 +5.0835549831E-001 
1010161.452 +1.3286710978E+000 -6.8526521325E-002  +3.5302327888E-005 -1.7531031335E-004  -2.5275646476E-004 +3.0101876473E-004  +1.1875673532E+000 +5.0208413601E-001 
1135306.633 +1.4650806189E+000 -1.4350712299E-001  -1.3070857676E-004 +1.0363550391E-003  -1.4656980056E-004 +2.9282542528E-004  +1.3050460815E+000 +6.2536758184E-001 
1260451.815 +1.6722061634E+000 -1.2595063448E-001  -1.7005039263E-004 +6.4079591539E-004  +3.6994880065E-004 +1.1244414054E-004  +1.0966720581E+000 +7.1475678682E-001 
1385596.996 +1.4274849892E+000 -1.1480695009E-001  +7.0166046498E-005 +2.5791656299E-005  +3.2773186831E-005 +6.9369125413E-005  +9.8420965672E-001 +4.8621970415E-001 
1510742.178 +1.6908771992E+000 -1.1223286390E-001  -7.3572358815E-005 -8.1464546383E-005  -6.0876078351E-005 +2.0684167976E-004  +6.7748618126E-001 +5.7426619530E-001 
1635887.359 +1.1878612041E+000 -3.7843415141E-001  +2.4464627495E-004 +1.3589806622E-004  -3.1979230698E-005 +6.7971050157E-005  +1.5192918777E+000 +6.3251239061E-001 
1761032.541 +1.3674085140E+000 -2.7756428719E-001  -3.9388143341E-004 +3.4396012779E-005  -2.4394044885E-005 +2.8610453592E-004  +1.1025782824E+000 +8.2622420788E-001 
1886177.722 +1.2906761169E+000 -1.9854247570E-001  -1.9811136008E-004 +2.5927825482E-004  -1.2597264140E-004 +2.4287650012E-004  +1.1442832947E+000 +5.5780315399E-001 
2011322.904 +1.2926951647E+000 -1.8621900678E-001  -2.5453866692E-004 +2.6354342117E-004  -1.4322162315E-004 +2.6941148099E-004  +1.1571905613E+000 +5.2475273609E-001 
2136468.085 +1.2991093397E+000 -1.1781041324E-001  -3.7646130659E-004 +3.1368911732E-004  -1.9003025955E-004 +4.6250663581E-004  +1.0966515541E+000 +4.7691422701E-001 
2261613.267 +1.3429697752E+000 -9.9017456174E-002  -2.8388734790E-004 +3.2033619937E-004  -2.1814790671E-004 +2.1629295952E-004  +1.0538815260E+000 +5.1459795237E-001 
2386758.448 +1.3590878248E+000 -1.0240963101E-001  -4.3753397767E-004 +2.9047846328E-004  -1.9636898651E-004 +5.7006056886E-004  +1.0728857517E+000 +5.4475486279E-001 
2511903.630 +1.4222244024E+000 -1.1421161890E-001  -8.6073233979E-004 +4.3834562530E-004  -3.4093117574E-004 +3.2453433960E-004  +1.1173852682E+000 +5.7735228539E-001 
2637048.811 +1.4489040375E+000 -1.5333062410E-001  -1.0385257192E-003 +8.7189825717E-004  -4.7845096560E-004 +8.5372262402E-004  +1.1277394295E+000 +6.0652995110E-001 
2762193.992 +1.3708807230E+000 -1.1852204800E-001  -4.1773344856E-004 +5.9697835241E-004  -8.9395698160E-004 +8.7845092639E-004  +1.1454278231E+000 +5.0469410419E-001 
2887339.174 +1.4230713844E+000 -6.2046647072E-002  -4.3345923768E-004 +7.3863420403E-004  -6.2506523682E-004 +9.9807279184E-004  +1.0007230043E+000 +5.0353711843E-001 
3012484.355 +1.4903734922E+000 -6.2604546547E-002  -9.8372600041E-004 +8.9276814833E-004  -4.2657583253E-004 +9.3247869518E-004  +9.5226430893E-001 +6.0830897093E-001 
3137629.537 +1.5226221085E+000 -7.2518467903E-002  -4.8744142987E-004 +9.6379406750E-004  -1.0854409775E-003 +8.5056334501E-004  +9.7566246986E-001 +7.1654003859E-001 
3262774.718 +1.5651665926E+000 -1.0868066549E-001  -1.1141349096E-003 +1.0839622701E-003  -4.7420655028E-004 +9.4641413307E-004  +1.0256881714E+000 +7.8065443039E-001 
3387919.900 +1.6012109518E+000 -1.2819194794E-001  -1.5903024469E-003 +7.5113982894E-004  -1.1849183356E-003 +2.5795781403E-004  +1.0645776987E+000 +8.4778976440E-001 
3513065.081 +1.6733641624E+000 -1.7914515734E-001  -1.3151520398E-003 +8.5804116679E-004  -1.1357639451E-003 +1.5369949397E-003  +1.1035499573E+000 +9.2472541332E-001 
3638210.263 +1.7283761501E+000 -2.2056096792E-001  -1.9227659795E-003 +3.6037261598E-003  -1.5038460260E-003 +1.3747611083E-003  +1.1910670996E+000 +9.6589422226E-001 
3763355.444 +1.7766535282E+000 -3.0416011810E-001  -1.4650019584E-003 +1.6225856962E-003  -9.4422290567E-004 +1.5570924152E-003  +1.2933965921E+000 +9.9887198210E-001 
3888500.626 +1.8225464821E+000 -4.2872643471E-001  -1.7004186520E-004 +8.3997671027E-004  -1.9398404984E-003 +1.3034804724E-003  +1.3806184530E+000 +1.0592471361E+000 
4013645.807 +1.4869638681E+000 -7.0734429359E-001  -1.2741374085E-003 +1.7284584465E-003  -6.5978150815E-004 +2.7368220035E-003  +1.6512172222E+000 +8.5119605064E-001 
4138790.989 +1.0773704052E+000 -7.9070132971E-001  +5.5597885512E-004 +2.6932433248E-003  +1.4899339294E-004 +2.7724734973E-003  +1.7854156494E+000 +5.2424567938E-001 
4263936.170 +1.0322118998E+000 -8.0512702465E-001  +1.6461574705E-004 +2.9329222161E-003  +1.6628333833E-004 +3.1658879016E-003  +1.8299568892E+000 +4.2259079218E-001 
4389081.352 +9.3141269684E-001 -8.3453714848E-001  +2.8287910391E-004 +2.6830844581E-003  +7.5820821803E-004 +2.5452752598E-003  +1.8694629669E+000 +3.0266690254E-001 
4514226.533 +8.7778949738E-001 -8.2493543625E-001  +2.6228709612E-004 +2.2471647244E-003  +1.0291235521E-003 +2.9765046202E-003  +1.9013934135E+000 +2.0704403520E-001 
4639371.715 +8.1165736914E-001 -8.2767295837E-001  +1.6443509958E-004 +2.3968748283E-003  +7.4812432285E-004 +2.7332906611E-003  +1.9039547443E+000 +1.2280400097E-001 
4764516.896 +7.5357192755E-001 -7.9852300882E-001  +1.2904414325E-004 +2.6559568942E-003  +2.1904171444E-003 +3.0873415526E-003  +1.9011522532E+000 +3.3862605691E-002 
4889662.078 +6.8961483240E-001 -7.6640063524E-001  +1.8698651111E-003 +2.6486827992E-003  +7.0445169695E-004 +3.8658264093E-003  +1.9073174000E+000 -4.9299597740E-002 
5014807.259 +6.3206529617E-001 -7.4055641890E-001  +1.5474291285E-003 +3.0124790501E-003  +1.2785934377E-003 +3.0325453263E-003  +1.8575316668E+000 -1.2354189157E-001 
5139952.441 +5.9367322922E-001 -7.2992140055E-001  +1.1022462277E-003 +2.5144494139E-003  +1.3774689287E-003 +2.2834821139E-003  +1.8259141445E+000 -2.0630444586E-001 
5265097.622 +5.3761458397E-001 -6.8651634455E-001  +9.7014114726E-004 +2.4958222639E-003  +1.0841388721E-003 +2.7954895049E-003  +1.7770216465E+000 -2.6283931732E-001 
5390242.804 +5.0613725185E-001 -6.4261150360E-001  +1.1167874327E-003 +2.5945820380E-003  +1.8926508492E-003 +2.7370320167E-003  +1.7311756611E+000 -3.1548196077E-001 
5515387.985 +4.7060585022E-001 -6.0684710741E-001  +1.3576573692E-003 +2.5202459656E-003  +7.3503749445E-004 +2.3911658209E-003  +1.6938016415E+000 -3.8257780671E-001 
5640533.166 +4.4693937898E-001 -5.6418180466E-001  +1.0816546855E-003 +2.2144103423E-003  +8.2307989942E-004 +2.6317110751E-003  +1.6610189676E+000 -4.1895470023E-001 
5765678.348 +4.0863466263E-001 -5.3146028519E-001  +9.0276123956E-004 +2.4526920170E-003  +7.0874625817E-004 +2.4406318553E-003  +1.6048672199E+000 -4.5227369666E-001 
5890823.529 +3.8447362185E-001 -4.8707640171E-001  +8.8765623514E-004 +2.4801089894E-003  +1.0227506282E-003 +2.5702854618E-003  +1.5368481874E+000 -4.7802963853E-001 
6015968.711 +3.6754474044E-001 -4.4718194008E-001  +1.1672602268E-003 +2.6314128190E-003  +1.0336210253E-003 +2.3706252687E-003  +1.5005569458E+000 -5.0577414036E-001 
6141113.892 +3.4391853213E-001 -4.0462380648E-001  +1.2243515812E-003 +2.4066837505E-003  +9.4523269217E-004 +1.9131707959E-003  +1.4426890612E+000 -5.1722675562E-001 
6266259.074 +3.3049473166E-001 -3.6834093928E-001  +1.2240887154E-003 +2.2341648582E-003  +1.0593966581E-003 +2.1204922814E-003  +1.3870460987E+000 -5.3689074516E-001 
6391404.255 +3.1657934189E-001 -3.2395327091E-001  +6.9215876283E-004 +2.2540667560E-003  +8.2181813195E-004 +2.0357246976E-003  +1.3362932205E+000 -5.3789854050E-001 
6516549.437 +3.0673578382E-001 -2.8337013721E-001  +5.2575115114E-004 +2.1768850274E-003  +7.4483704520E-004 +2.0396045875E-003  +1.2926508188E+000 -5.4250210524E-001 
6641694.618 +2.9510936141E-001 -2.3937061429E-001  +1.0041046189E-003 +2.1232012659E-003  +6.8213522900E-004 +2.0062152762E-003  +1.2627546787E+000 -5.4751473665E-001 
6766839.800 +2.9105767608E-001 -1.9979012012E-001  +3.5910695442E-004 +2.3362003267E-003  +6.1813689535E-004 +2.1681769285E-003  +1.2202292681E+000 -5.4848617315E-001 
6891984.981 +2.8502908349E-001 -1.5996433794E-001  +2.8351161745E-004 +2.3906638380E-003  +2.9553155764E-004 +2.2450219840E-003  +1.1670970917E+000 -5.4236859083E-001 
7017130.163 +2.7933067083E-001 -1.2079702318E-001  +4.9156259047E-004 +2.0832105074E-003  +5.5714620976E-004 +2.2812404204E-003  +1.1393021345E+000 -5.2892494202E-001 
7142275.344 +2.7154934406E-001 -8.3260573447E-002  +2.7653531288E-004 +2.1960923914E-003  +7.1975169703E-004 +2.3296731524E-003  +1.1158427000E+000 -5.1553893089E-001 
7267420.526 +2.7592167258E-001 -4.6989090741E-002  +4.0355537203E-004 +2.2286165040E-003  +3.2144598663E-004 +2.1991559770E-003  +1.0770556927E+000 -5.0589466095E-001 
7392565.707 +2.7164569497E-001 -3.4715402871E-003  +2.0571704954E-004 +2.4765485432E-003  +2.0064930141E-004 +2.3789752740E-003  +1.0514299870E+000 -4.9938446283E-001 
7517710.889 +2.7730834484E-001 +3.1610645354E-002  +2.0679869340E-004 +2.4592417758E-003  +4.2604701594E-004 +2.5895040017E-003  +1.0193986893E+000 -4.9502256513E-001 
7642856.070 +2.7654844522E-001 +7.1620300412E-002  -7.0457695983E-005 +2.3625607137E-003  +6.5176223870E-005 +2.6754317805E-003  +9.8579931259E-001 -4.8165661097E-001 
7768001.252 +2.8377512097E-001 +1.0914769024E-001  -3.3530878136E-004 +2.5265521836E-003  +2.1373515483E-004 +2.5311138015E-003  +9.6050912142E-001 -4.6956074238E-001 
7893146.433 +2.9309120774E-001 +1.5098071098E-001  +9.4023707788E-005 +2.6826374233E-003  -9.1283654911E-005 +2.3448495194E-003  +9.3951642513E-001 -4.5041701198E-001 
8018291.615 +2.9600673914E-001 +1.9215917587E-001  -5.1186099881E-005 +2.5718444958E-003  -1.4088048192E-004 +2.5040647015E-003  +9.1278880835E-001 -4.3620720506E-001 
8143436.796 +3.0993539095E-001 +2.2999691963E-001  -1.6181409592E-004 +2.6267513167E-003  -1.4240428573E-004 +2.5688447058E-003  +8.9579361677E-001 -4.2122983932E-001 
8268581.977 +3.1793409586E-001 +2.6904702187E-001  -4.6048589866E-004 +2.8191702440E-003  -2.2105773678E-004 +2.6240951847E-003  +8.7642449141E-001 -4.0649729967E-001 
8393727.159 +3.3421680331E-001 +3.0516281724E-001  -3.7297565723E-004 +2.9044798575E-003  -4.7151293256E-004 +2.6477403007E-003  +8.5752290487E-001 -3.9078998566E-001 
8518872.340 +3.4853878617E-001 +3.4993994236E-001  -4.7100119991E-004 +2.7667654213E-003  -4.2441440746E-004 +2.7230239939E-003  +8.4137433767E-001 -3.7313717604E-001 
8644017.522 +3.6369737983E-001 +3.8445311785E-001  -6.8217737135E-004 +3.0875154771E-003  -5.3939834470E-004 +2.9402431101E-003  +8.3184987307E-001 -3.5918602347E-001 
8769162.703 +3.8948357105E-001 +4.2308688164E-001  -6.0149654746E-004 +2.9557829257E-003  -6.5467471723E-004 +3.0149230734E-003  +8.1705284119E-001 -3.4383225441E-001 
8894307.885 +4.0966913104E-001 +4.5930510759E-001  -9.1249076650E-004 +3.1566491816E-003  -8.1303057959E-004 +3.0928656925E-003  +8.0098176003E-001 -3.2861775160E-001 
9019453.066 +4.3512490392E-001 +4.9716600776E-001  -7.5307924999E-004 +3.2542212866E-003  -8.5716333706E-004 +3.2420365606E-003  +7.8981554508E-001 -3.1256207824E-001 
9144598.248 +4.6374922991E-001 +5.3541082144E-001  -9.7528839251E-004 +3.3098319545E-003  -9.3841919443E-004 +3.1534002628E-003  +7.7727651596E-001 -2.9385915399E-001 
9269743.429 +4.9705928564E-001 +5.7063502073E-001  -9.8365172744E-004 +3.4334247466E-003  -1.1700699106E-003 +3.4303213470E-003  +7.6935052872E-001 -2.7860605717E-001 
9394888.611 +5.2806472778E-001 +6.0888731480E-001  -1.0513577145E-003 +3.5524973646E-003  -1.2314417399E-003 +3.5139117390E-003  +7.5897026062E-001 -2.6183348894E-001 
9520033.792 +5.6881332397E-001 +6.3840222359E-001  -1.2362017296E-003 +3.7693833001E-003  -1.2294531334E-003 +3.7839498837E-003  +7.5137460232E-001 -2.4121937156E-001 
9645178.974 +6.1111861467E-001 +6.7326188087E-001  -1.1796007166E-003 +3.9071016945E-003  -1.2894894462E-003 +3.7955020089E-003  +7.4441385269E-001 -2.2516420484E-001 
9770324.155 +6.5491217375E-001 +7.0051097870E-001  -1.3995371992E-003 +3.9171134122E-003  -1.3372187968E-003 +4.0269675665E-003  +7.3538982868E-001 -2.1071481705E-001 
9895469.337 +7.0234268904E-001 +7.2851413488E-001  -1.3723103330E-003 +4.0265396237E-003  -1.4856213238E-003 +4.1194451042E-003  +7.3099470139E-001 -1.9192254543E-001 
10020614.518 +7.5235688686E-001 +7.5137817860E-001  -1.4372863807E-003 +4.2616501451E-003  -1.4432084281E-003 +4.2347777635E-003  +7.2581559420E-001 -1.7394948006E-001 
10145759.700 +8.0808800459E-001 +7.6726937294E-001  -1.4990627533E-003 +4.4785989448E-003  -1.5959171578E-003 +4.4347378425E-003  +7.2377455235E-001 -1.6027027369E-001 
10270904.881 +8.6833685637E-001 +7.8667759895E-001  -1.6220754478E-003 +4.5762164518E-003  -1.5943904873E-003 +4.6090688556E-003  +7.2045528889E-001 -1.4476317167E-001 
10396050.063 +9.2653608322E-001 +7.9445910454E-001  -1.6342219897E-003 +4.8709777184E-003  -1.6602781834E-003 +4.9008107744E-003  +7.1811497211E-001 -1.2801843882E-001 
10521195.244 +9.8417890072E-001 +7.9916530848E-001  -1.6713719815E-003 +5.0420323387E-003  -1.6112084268E-003 +5.0361310132E-003  +7.1690696478E-001 -1.1239901185E-001 
10646340.426 +1.0409487486E+000 +7.9982078075E-001  -1.6270361375E-003 +5.2787978202E-003  -1.6305851750E-003 +5.2369954064E-003  +7.1554410458E-001 -9.7243130207E-002 
10771485.607 +1.1046763659E+000 +7.9040819407E-001  -1.5921746381E-003 +5.4297382012E-003  -1.6815826530E-003 +5.5480813608E-003  +7.1525359154E-001 -8.0395758152E-002 
10896630.788 +1.1649839878E+000 +7.7920240164E-001  -1.6837106086E-003 +5.6240144186E-003  -1.6989274882E-003 +5.6611159816E-003  +7.1607959270E-001 -6.5288990736E-002 
11021775.970 +1.2230085135E+000 +7.5831991434E-001  -1.6124316026E-003 +5.8313068002E-003  -1.5921709128E-003 +5.9234695509E-003  +7.1600711346E-001 -4.9782067537E-002 
11146921.151 +1.2833240032E+000 +7.3366522789E-001  -1.5956906136E-003 +6.0834623873E-003  -1.5237785410E-003 +5.9750732034E-003  +7.1849906445E-001 -3.5241872072E-002 
11272066.333 +1.3373959064E+000 +7.0077055693E-001  -1.5550944954E-003 +6.2762508169E-003  -1.5237121843E-003 +6.2663313001E-003  +7.1984231472E-001 -2.1598607302E-002 
11397211.514 +1.3879363537E+000 +6.6880875826E-001  -1.4804764651E-003 +6.4778742380E-003  -1.4257843141E-003 +6.4298026264E-003  +7.2337961197E-001 -6.6198408604E-003 
11522356.696 +1.4365704060E+000 +6.2741076946E-001  -1.3065277599E-003 +6.6402661614E-003  -1.4547549654E-003 +6.5770894289E-003  +7.2702169418E-001 +5.6593418121E-003 
11647501.877 +1.4735574722E+000 +5.8302336931E-001  -1.3144039549E-003 +6.7600514740E-003  -1.3023621868E-003 +6.7967111245E-003  +7.2925752401E-001 +2.0789682865E-002 
11772647.059 +1.5131576061E+000 +5.3435587883E-001  -1.1832481250E-003 +6.9659808651E-003  -1.1963106226E-003 +7.0056212135E-003  +7.3539453745E-001 +3.3097833395E-002 
11897792.240 +1.5458534956E+000 +4.8454225063E-001  -1.1572157964E-003 +7.1916715242E-003  -1.1029562447E-003 +7.0444671437E-003  +7.4087131023E-001 +4.7151774168E-002 
12022937.422 +1.5720813274E+000 +4.3426197767E-001  -9.1995229013E-004 +7.2180172428E-003  -9.6210232005E-004 +7.2346702218E-003  +7.4705117941E-001 +5.8031052351E-002 
12148082.603 +1.5914988518E+000 +3.7814623117E-001  -8.3882058971E-004 +7.3477104306E-003  -7.9324259423E-004 +7.3811737821E-003  +7.5390207767E-001 +7.2067305446E-002 
12273227.785 +1.6041455269E+000 +3.2666108012E-001  -6.9368886761E-004 +7.4181277305E-003  -7.0245680399E-004 +7.4672158808E-003  +7.6078593731E-001 +8.3005592227E-002 
12398372.966 +1.6145908833E+000 +2.7589780092E-001  -5.8745150454E-004 +7.6344911940E-003  -6.6191446967E-004 +7.6116365381E-003  +7.6897364855E-001 +9.4580233097E-002 
12523518.148 +1.6149238348E+000 +2.2374573350E-001  -4.6823313460E-004 +7.6644197106E-003  -4.5293022413E-004 +7.6998746954E-003  +7.7581065893E-001 +1.0649737716E-001 
12648663.329 +1.6162109375E+000 +1.7405200005E-001  -2.9829738196E-004 +7.7895261347E-003  -3.7655001506E-004 +7.7431192622E-003  +7.8531664610E-001 +1.1729767919E-001 
12773808.511 +1.6103931665E+000 +1.2438093126E-001  -2.3048277944E-004 +7.7895941213E-003  -1.9334518583E-004 +7.8025180846E-003  +7.9436492920E-001 +1.2672466040E-001 
12898953.692 +1.6020321846E+000 +7.8398376703E-002  -1.0414648568E-004 +7.8940577805E-003  -8.4917992353E-005 +7.9039856791E-003  +8.0347633362E-001 +1.3480125368E-001 
13024098.874 +1.5888928175E+000 +3.7734612823E-002  -4.8354748287E-005 +7.9059526324E-003  -1.3253156794E-005 +7.8932084143E-003  +8.1460714340E-001 +1.4515370131E-001 
13149244.055 +1.5746902227E+000 -7.1417912841E-004  +8.3822087618E-005 +7.9681267962E-003  +4.8736284953E-005 +7.9871248454E-003  +8.2412433624E-001 +1.5394394100E-001 
13274389.237 +1.5570954084E+000 -4.0020614862E-002  +2.0342267817E-004 +7.9761622474E-003  +1.8447532784E-004 +8.0082546920E-003  +8.3586996794E-001 +1.6085818410E-001 
13399534.418 +1.5375856161E+000 -7.4318557978E-002  +3.2447685953E-004 +7.9982765019E-003  +3.0856207013E-004 +8.0018425360E-003  +8.4560376406E-001 +1.6760215163E-001 
13524679.599 +1.5178617239E+000 -1.0249620676E-001  +4.5273045544E-004 +8.0782789737E-003  +4.0472671390E-004 +8.0546448007E-003  +8.5824775696E-001 +1.7511478066E-001 
13649824.781 +1.4969017506E+000 -1.3447460532E-001  +5.1091343630E-004 +8.1200785935E-003  +5.1736668684E-004 +8.1302803010E-003  +8.7084800005E-001 +1.8028639257E-001 
13774969.962 +1.4720867872E+000 -1.5841630101E-001  +6.2058120966E-004 +8.0904569477E-003  +6.0157128610E-004 +8.1284157932E-003  +8.8158291578E-001 +1.8489898741E-001 
13900115.144 +1.4498791695E+000 -1.8096476793E-001  +6.9187604822E-004 +8.1301042810E-003  +7.1611348540E-004 +8.0932704732E-003  +8.9337843657E-001 +1.8932841718E-001 
14025260.325 +1.4262990952E+000 -2.0134443045E-001  +8.0519192852E-004 +8.1288488582E-003  +7.6608359814E-004 +8.1247193739E-003  +9.0674394369E-001 +1.9219245017E-001 
14150405.507 +1.4030835629E+000 -2.1808493137E-001  +8.0796214752E-004 +8.0715510994E-003  +7.7496888116E-004 +8.1364046782E-003  +9.1846722364E-001 +1.9614282250E-001 
14275550.688 +1.3783197403E+000 -2.3532563448E-001  +8.5454829969E-004 +8.1322630867E-003  +8.8773737662E-004 +8.1625217572E-003  +9.3145161867E-001 +1.9768008590E-001 
14400695.870 +1.3535737991E+000 -2.4994999170E-001  +9.2699192464E-004 +8.1043578684E-003  +9.6034887247E-004 +8.0916620791E-003  +9.4382554293E-001 +1.9942575693E-001 
