!  2-Port S-parameters saved by WinCal
! VAR MeasName=S-Parameters (CALIBRATED_DATA) read from VNA (P5004A)
! VAR MeasDate=22/05/2024 18:14:35
! VAR NAME=Wafer2_r2_c1_pristine_neg1.0dc
! VAR FILENAME=Wafer2_r2_c1_pristine_neg1.0dc.S2P
! VAR DATE=22/05/2024 18:14:35
! VAR PHYS_PORTS=1,2
! VAR ObjTypeName=DATASET
! VAR IndexType=Frequency
!
# Hz S RI R 50
9000.000 +2.2357612848E-001 -5.9456020594E-001  -3.0326670967E-003 -1.0848794132E-002  +3.0126799829E-003 -1.3332278468E-003  +5.6127041578E-002 +1.0106144100E-001 
134145.181 +6.2461566925E-001 -5.0063326955E-002  -2.2625995800E-002 -6.1834296212E-003  +2.8530055657E-002 -1.0530127212E-002  -2.8336736560E-001 -5.2653229237E-001 
259290.363 +7.9898786545E-001 -1.4825263619E-001  +9.6288789064E-003 -1.1776348576E-002  -1.8737943843E-002 -1.4605944045E-002  +1.1474097967E+000 -9.6739321947E-001 
384435.544 +8.9221352339E-001 -3.0433487892E-001  -1.1790670455E-002 +5.5477324873E-002  -1.7923664302E-002 +1.8927037716E-002  +8.0957679749E+000 -5.2323403358E+000 
509580.726 +9.4003969431E-001 -1.6413152218E-001  +4.6047568321E-003 -5.3883530200E-005  +5.3914161399E-003 +8.3011342213E-004  +1.8689168692E+000 -3.4544873238E-001 
634725.907 +1.0896507502E+000 -2.0303002000E-001  +1.9454832654E-003 +1.1359794997E-002  -3.4422292374E-003 -7.9236598685E-003  +2.6338887215E+000 +1.1070151329E+000 
759871.089 +1.2610702515E+000 -4.3225288391E-002  -9.8075519782E-004 +1.2799655087E-003  +9.7804039251E-004 -5.5416207761E-004  +1.4476687908E+000 +3.9802491665E-001 
885016.270 +1.1371399164E+000 -2.9921633005E-001  +2.7505515027E-004 -1.4990044292E-003  +7.8628509073E-004 -8.9307728922E-004  +1.2072438002E+000 +4.9826046824E-001 
1010161.452 +1.2571765184E+000 -8.8326364756E-002  +6.1567168450E-004 +6.9083290873E-004  +1.0003059288E-006 +5.2294472698E-004  +1.1900405884E+000 +5.0017482042E-001 
1135306.633 +1.3423435688E+000 -1.2683673203E-001  -4.5957721886E-004 -8.0378167331E-004  +6.9117068779E-004 -8.1232551020E-004  +1.3039573431E+000 +6.1338472366E-001 
1260451.815 +1.5602453947E+000 -1.0427802801E-001  -8.6067448137E-005 +5.9199321549E-004  +1.4145241585E-004 +8.8576844428E-004  +1.0979539156E+000 +7.1227627993E-001 
1385596.996 +1.3841140270E+000 -1.2133532763E-001  +8.5716128524E-005 +1.8081103917E-004  -5.9877755120E-005 +1.7492135521E-004  +9.8482745886E-001 +4.8633474112E-001 
1510742.178 +1.6185967922E+000 -1.5779441595E-001  +4.9202852097E-005 +2.8880030732E-004  -9.6287410997E-005 +1.7832178855E-004  +6.7701596022E-001 +5.7442295551E-001 
1635887.359 +1.1277011633E+000 -3.7588226795E-001  +1.3740733266E-005 +3.4499776666E-004  -1.7515197396E-004 +1.8006232858E-004  +1.5199234486E+000 +6.3214671612E-001 
1761032.541 +1.2919137478E+000 -3.2325908542E-001  +1.2368129683E-004 +2.5992037263E-004  -3.7962771603E-004 +4.8248935491E-004  +1.1027381420E+000 +8.2548892498E-001 
1886177.722 +1.2167255878E+000 -2.3841005564E-001  +6.4388761530E-005 +1.6347008932E-004  -9.4038165116E-005 +2.7452089125E-004  +1.1440360546E+000 +5.5778372288E-001 
2011322.904 +1.2148675919E+000 -2.4070805311E-001  -3.0282553053E-004 +2.5958995684E-004  -4.5211825636E-005 +1.4835223556E-004  +1.1573902369E+000 +5.2475857735E-001 
2136468.085 +1.2157243490E+000 -1.8869584799E-001  -1.0783642938E-004 +2.4683109950E-004  -1.5263703244E-004 +3.5512086470E-004  +1.0967196226E+000 +4.7596412897E-001 
2261613.267 +1.2260881662E+000 -1.9037526846E-001  -3.2691500382E-004 +3.9126770571E-004  -4.2664873763E-004 +2.0693786792E-004  +1.0541247129E+000 +5.1483887434E-001 
2386758.448 +1.2301979065E+000 -1.8909415603E-001  -4.1515630437E-004 +3.3586050267E-004  -3.3174193231E-004 +4.6315326472E-004  +1.0743532181E+000 +5.4392814636E-001 
2511903.630 +1.2489318848E+000 -2.2285063565E-001  -5.0588173326E-004 +6.4486212796E-004  -1.9234349020E-004 +5.3973746253E-004  +1.1183874607E+000 +5.7962691784E-001 
2637048.811 +1.2053092718E+000 -2.4325603247E-001  -6.1831506900E-004 +5.0725403707E-004  -7.0516380947E-004 +6.4667919651E-004  +1.1271845102E+000 +6.0657811165E-001 
2762193.992 +1.1456952095E+000 -1.5639334917E-001  -5.8388343314E-004 +8.0920557957E-004  +4.5152177336E-005 +1.0114511242E-003  +1.1441155672E+000 +5.0684642792E-001 
2887339.174 +1.1781708002E+000 -1.2700074911E-001  -7.2258897126E-004 +1.0747521883E-003  -5.9576635249E-004 +5.0140975509E-004  +9.9982625246E-001 +4.9930864573E-001 
3012484.355 +1.2219328880E+000 -1.2895005941E-001  -6.3804665115E-004 +5.0516327610E-004  -5.6731398217E-004 +7.5738906162E-004  +9.5320069790E-001 +6.1086368561E-001 
3137629.537 +1.2390922308E+000 -1.4179223776E-001  -3.5902211675E-004 +6.7475083051E-004  -9.8176894244E-004 +4.1787783266E-004  +9.8002803326E-001 +7.1838945150E-001 
3262774.718 +1.2403624058E+000 -1.5528470278E-001  -7.3009810876E-004 +1.0976750636E-003  -6.0975411907E-004 +7.0000434062E-004  +1.0250918865E+000 +7.8383499384E-001 
3387919.900 +1.2425377369E+000 -1.6724979877E-001  -9.3128497247E-004 +7.2599004488E-004  -1.4770642156E-003 +1.1851416202E-003  +1.0689210892E+000 +8.5228204727E-001 
3513065.081 +1.2640185356E+000 -2.0186275244E-001  -1.0374273406E-003 +1.7556091188E-004  -6.5690587508E-004 +1.0164665291E-003  +1.1055355072E+000 +9.2941147089E-001 
3638210.263 +1.2719960213E+000 -2.2272008657E-001  -1.5580463223E-003 +2.0782204811E-003  -1.3067903928E-003 +5.1987235202E-004  +1.1967746019E+000 +9.6741211414E-001 
3763355.444 +1.2905938625E+000 -2.5175917149E-001  -1.0731597431E-003 +3.5936638596E-004  -9.1083941516E-004 +1.3598323567E-003  +1.2907115221E+000 +1.0047881603E+000 
3888500.626 +1.2688481808E+000 -2.7936172485E-001  -1.1358219199E-003 +1.9072783180E-003  -1.2685086112E-003 +1.0503225494E-003  +1.3774486780E+000 +1.0672913790E+000 
4013645.807 +1.0943599939E+000 -3.9657071233E-001  -1.7220017035E-003 +2.5020299945E-003  -1.0130535811E-003 +3.3463621512E-003  +1.6549972296E+000 +8.5130822659E-001 
4138790.989 +8.6611247063E-001 -4.3904346228E-001  +3.9340666262E-004 +2.8494303115E-003  +3.3155438723E-004 +2.0212687086E-003  +1.7873539925E+000 +5.2800893784E-001 
4263936.170 +8.2903492451E-001 -4.2474228144E-001  +7.7168224379E-005 +2.1627736278E-003  +5.5214384338E-004 +2.4607733358E-003  +1.8368742466E+000 +4.3284392357E-001 
4389081.352 +7.9184252024E-001 -4.1652494669E-001  -3.3748103306E-005 +1.9820295274E-003  +8.6044485215E-004 +2.4151992984E-003  +1.8816584349E+000 +2.9418632388E-001 
4514226.533 +7.6009953022E-001 -4.1402235627E-001  +4.9535511062E-004 +2.7454514056E-003  +7.8616110841E-004 +3.6002104171E-003  +1.9056631327E+000 +2.1263048053E-001 
4639371.715 +7.4415594339E-001 -3.9448049664E-001  +4.8896495719E-004 +3.1153771561E-003  +4.7206299496E-004 +2.8215278871E-003  +1.9033567905E+000 +1.3880853355E-001 
4764516.896 +6.9655972719E-001 -3.7717187405E-001  -4.9921713071E-005 +2.4071102962E-003  +3.5692675738E-004 +3.2682144083E-003  +1.9105073214E+000 +3.9124861360E-002 
4889662.078 +6.7450070381E-001 -3.4187191725E-001  +9.1260659974E-004 +2.5333026424E-003  -1.9024300855E-006 +2.8083291836E-003  +1.9100062847E+000 -4.0626794100E-002 
5014807.259 +6.4946407080E-001 -3.1768321991E-001  +4.9403076991E-004 +2.9537593946E-003  +1.8678176275E-004 +2.5510662235E-003  +1.8649116755E+000 -1.1620602012E-001 
5139952.441 +6.3736301661E-001 -2.9018875957E-001  +5.3794286214E-004 +3.2562229317E-003  -7.3148112278E-006 +2.4434053339E-003  +1.8410861492E+000 -1.9960632920E-001 
5265097.622 +6.2001097202E-001 -2.6710334420E-001  -2.6131741470E-004 +2.7648971882E-003  +8.2197715528E-004 +2.3726862855E-003  +1.7843463421E+000 -2.6309120655E-001 
5390242.804 +6.0651391745E-001 -2.4357947707E-001  +5.7470100001E-004 +3.0094587710E-003  +3.3861660631E-004 +2.4413026404E-003  +1.7426494360E+000 -3.1754660606E-001 
5515387.985 +5.9550845623E-001 -2.0877505839E-001  +5.6879874319E-004 +2.7987947688E-003  +3.4308264730E-004 +2.9324558564E-003  +1.6952877045E+000 -3.8081479073E-001 
5640533.166 +5.8507502079E-001 -1.8083062768E-001  -6.7540131568E-005 +2.6767537929E-003  +3.9216096047E-004 +2.8852811083E-003  +1.6661146879E+000 -4.1641288996E-001 
5765678.348 +5.6872606277E-001 -1.4926375449E-001  +5.4462009575E-004 +3.2312453259E-003  +7.4072374264E-004 +3.0719705392E-003  +1.6135582924E+000 -4.4585806131E-001 
5890823.529 +5.6416088343E-001 -1.1514470726E-001  +2.1822829149E-004 +2.9776406009E-003  +3.9017928066E-004 +3.0533806421E-003  +1.5484045744E+000 -4.8793011904E-001 
6015968.711 +5.6526142359E-001 -8.5196487606E-002  +1.5507759235E-004 +2.6973281056E-003  +7.6165952487E-004 +3.4329579212E-003  +1.5034686327E+000 -4.9940645695E-001 
6141113.892 +5.6390148401E-001 -6.4305141568E-002  +3.9834075142E-004 +2.7836915106E-003  +6.6322222119E-004 +2.3897280917E-003  +1.4485905170E+000 -5.2044087648E-001 
6266259.074 +5.6804543734E-001 -2.9639611021E-002  +3.5079906229E-004 +2.8887572698E-003  +6.1513634864E-004 +2.8887474909E-003  +1.3985623121E+000 -5.3691387177E-001 
6391404.255 +5.6798386574E-001 +3.6632828414E-004  +9.3414675212E-004 +2.7474192902E-003  +7.2951882612E-004 +2.7876305394E-003  +1.3369103670E+000 -5.5032163858E-001 
6516549.437 +5.6981939077E-001 +2.7332421392E-002  -1.2094544945E-004 +2.4178680032E-003  +4.1852056165E-004 +2.7660124470E-003  +1.2939060926E+000 -5.4934090376E-001 
6641694.618 +5.7804226875E-001 +5.7544071227E-002  +4.7799811000E-004 +3.0568777584E-003  +4.4866790995E-004 +3.0667539686E-003  +1.2629579306E+000 -5.4599773884E-001 
6766839.800 +5.9437656403E-001 +8.5608467460E-002  +1.1544235167E-004 +2.5853340048E-003  +3.0767428689E-004 +2.8087990358E-003  +1.2161685228E+000 -5.5527710915E-001 
6891984.981 +5.9791183472E-001 +1.1000421643E-001  +5.2002223674E-004 +3.0522227753E-003  +1.4061617549E-004 +2.8714223299E-003  +1.1691019535E+000 -5.4224032164E-001 
7017130.163 +6.0942298174E-001 +1.3648594916E-001  +2.1640048362E-004 +2.9660097789E-003  +2.9622248258E-004 +3.2128980383E-003  +1.1397720575E+000 -5.3138411045E-001 
7142275.344 +6.1888313293E-001 +1.6370472312E-001  +2.0768359536E-004 +3.1541823409E-003  +9.7306037787E-005 +3.1454591081E-003  +1.1143696308E+000 -5.1913219690E-001 
7267420.526 +6.2938886881E-001 +1.9072902203E-001  -1.8541089958E-005 +3.2173774671E-003  +1.6251229681E-004 +3.0106869526E-003  +1.0776569843E+000 -5.1644158363E-001 
7392565.707 +6.4926189184E-001 +2.1433702111E-001  +3.9032855420E-004 +3.3295319881E-003  +1.0683754226E-004 +3.2176014502E-003  +1.0508590937E+000 -5.0653904676E-001 
7517710.889 +6.6534012556E-001 +2.3265805840E-001  +9.0621528216E-005 +3.2606543973E-003  +2.2551792790E-004 +3.0970126390E-003  +1.0200743675E+000 -4.9508902431E-001 
7642856.070 +6.7913818359E-001 +2.5276237726E-001  -6.4420746639E-006 +3.4705766011E-003  -1.1526746675E-005 +3.3195156138E-003  +9.8459899426E-001 -4.8832285404E-001 
7768001.252 +7.0292663574E-001 +2.7414101362E-001  +3.7997961044E-006 +3.4816700500E-003  +1.2135063298E-004 +3.2084933482E-003  +9.5826089382E-001 -4.7391799092E-001 
7893146.433 +7.2986322641E-001 +2.9416036606E-001  -2.1347543225E-005 +3.3640251495E-003  +2.7308292920E-004 +3.4237038344E-003  +9.3708014488E-001 -4.5816802979E-001 
8018291.615 +7.4982863665E-001 +3.0834811926E-001  +3.5267090425E-005 +3.4018766601E-003  +5.7445780840E-005 +3.7075781729E-003  +9.0962350368E-001 -4.4291478395E-001 
8143436.796 +7.7464705706E-001 +3.1796318293E-001  -6.1361934058E-005 +3.3959907014E-003  +2.6392348809E-004 +3.5779261962E-003  +8.9716947079E-001 -4.2540520430E-001 
8268581.977 +7.9620116949E-001 +3.3372470737E-001  -2.0809879061E-005 +3.6497132387E-003  +7.0422131103E-005 +3.6006628070E-003  +8.7579071522E-001 -4.0932068229E-001 
8393727.159 +8.2664632797E-001 +3.4170514345E-001  -6.5294094384E-005 +3.8272475358E-003  -5.0894566812E-005 +3.6978698336E-003  +8.6075389385E-001 -3.9569795132E-001 
8518872.340 +8.5663300753E-001 +3.5232526064E-001  -1.3617402874E-004 +3.7920156028E-003  +1.2619153131E-004 +4.0295450017E-003  +8.4170579910E-001 -3.7514942884E-001 
8644017.522 +8.7674379349E-001 +3.6040011048E-001  -1.1441169772E-004 +3.7207873538E-003  -2.4143629707E-004 +3.7609229330E-003  +8.3147835732E-001 -3.6302548647E-001 
8769162.703 +9.0927153826E-001 +3.6660072207E-001  -8.3294697106E-005 +3.8729170337E-003  -1.7610494979E-005 +3.8366941735E-003  +8.1609725952E-001 -3.4799158573E-001 
8894307.885 +9.3405735493E-001 +3.6201342940E-001  -1.2405298185E-004 +3.9506303146E-003  -2.1610921249E-004 +3.9999876171E-003  +7.9732185602E-001 -3.3326321840E-001 
9019453.066 +9.6478468180E-001 +3.6448121071E-001  -2.1061499137E-004 +3.9756703191E-003  -1.6590871383E-004 +4.0788333863E-003  +7.8583765030E-001 -3.1625556946E-001 
9144598.248 +9.9267196655E-001 +3.6028382182E-001  -3.6016560625E-004 +4.1384063661E-003  -1.5361001715E-004 +4.4662081636E-003  +7.7589040995E-001 -2.9781869054E-001 
9269743.429 +1.0201588869E+000 +3.5724449158E-001  -1.1079909746E-004 +4.3642572127E-003  -1.2556579895E-004 +4.3385634199E-003  +7.6991766691E-001 -2.8017261624E-001 
9394888.611 +1.0445069075E+000 +3.5146155953E-001  -2.3062329274E-004 +4.3700076640E-003  -1.1298654135E-004 +4.3938499875E-003  +7.5825214386E-001 -2.6472184062E-001 
9520033.792 +1.0737218857E+000 +3.3831465244E-001  -1.0266073514E-004 +4.4920202345E-003  -1.9606621936E-004 +4.4162236154E-003  +7.4943941832E-001 -2.4545836449E-001 
9645178.974 +1.0982978344E+000 +3.2918444276E-001  -1.7547584139E-004 +4.5507596806E-003  -2.3947516456E-004 +4.4337217696E-003  +7.4411565065E-001 -2.2927409410E-001 
9770324.155 +1.1173903942E+000 +3.1656736135E-001  -2.3142981809E-004 +4.5471386984E-003  -2.5083112996E-004 +4.4782157056E-003  +7.3571139574E-001 -2.1365931630E-001 
9895469.337 +1.1401885748E+000 +3.0316266418E-001  -2.1988770459E-004 +4.6745054424E-003  -1.7674500123E-004 +4.5771263540E-003  +7.3031181097E-001 -1.9551250339E-001 
10020614.518 +1.1582834721E+000 +2.8757628798E-001  -1.9215885550E-004 +4.7913817689E-003  -1.3952748850E-004 +4.6742539853E-003  +7.2686821222E-001 -1.7653521895E-001 
10145759.700 +1.1784169674E+000 +2.6632601023E-001  -1.8723239191E-004 +4.8770019785E-003  -2.6955013163E-004 +4.8416107893E-003  +7.2222018242E-001 -1.6270342469E-001 
10270904.881 +1.1959029436E+000 +2.4767452478E-001  -3.1060026959E-004 +4.7339615412E-003  -1.5766103752E-004 +4.8937723041E-003  +7.2115826607E-001 -1.4646404982E-001 
10396050.063 +1.2077096701E+000 +2.2762414813E-001  -2.2815424018E-004 +4.9905269407E-003  -1.0979548097E-004 +4.9795927480E-003  +7.1579992771E-001 -1.3084477186E-001 
10521195.244 +1.2198106050E+000 +2.0849040151E-001  -1.7993804067E-004 +5.1032667980E-003  -1.6431068070E-004 +5.0221704878E-003  +7.1507465839E-001 -1.1548605561E-001 
10646340.426 +1.2292684317E+000 +1.8833619356E-001  -1.2240628712E-004 +5.0818920135E-003  -1.5518139116E-004 +5.1401560195E-003  +7.1454656124E-001 -9.7863882780E-002 
10771485.607 +1.2365951538E+000 +1.6637229919E-001  -2.1977839060E-004 +5.1734345034E-003  -9.6338568255E-005 +5.1990319043E-003  +7.1493434906E-001 -8.2901567221E-002 
10896630.788 +1.2428383827E+000 +1.4722895622E-001  -1.2270594016E-004 +5.3078709170E-003  -1.8088868819E-004 +5.2659180947E-003  +7.1485650539E-001 -6.6926956177E-002 
11021775.970 +1.2451071739E+000 +1.2695783377E-001  -1.4156894758E-004 +5.2775247023E-003  -1.6406318173E-004 +5.3070653230E-003  +7.1569901705E-001 -5.3083717823E-002 
11146921.151 +1.2494091988E+000 +1.0460484028E-001  -1.5012896620E-004 +5.3496640176E-003  -7.7154021710E-005 +5.4500913247E-003  +7.1812582016E-001 -3.7023246288E-002 
11272066.333 +1.2470996380E+000 +8.3213210106E-002  -1.0098516941E-004 +5.5132298730E-003  -1.1120969430E-004 +5.5308304727E-003  +7.1986389160E-001 -2.1761149168E-002 
11397211.514 +1.2487601042E+000 +6.5751850605E-002  -1.3735424727E-004 +5.5178198963E-003  -1.5491573140E-004 +5.5917142890E-003  +7.2202360630E-001 -7.6067447662E-003 
11522356.696 +1.2460373640E+000 +4.7721505165E-002  -1.1228164658E-004 +5.6243329309E-003  -1.7107115127E-004 +5.6421849877E-003  +7.2572648525E-001 +6.0914158821E-003 
11647501.877 +1.2408872843E+000 +3.0836999416E-002  -1.2471247464E-004 +5.7600638829E-003  -1.9031041302E-004 +5.6659886613E-003  +7.3048365116E-001 +1.8331199884E-002 
11772647.059 +1.2378237247E+000 +1.4750838280E-002  -1.5000533313E-004 +5.7833171450E-003  -6.7282002419E-005 +5.7405219413E-003  +7.3493051529E-001 +3.1972318888E-002 
11897792.240 +1.2321248055E+000 -2.9169321060E-003  -1.3519101776E-004 +5.8747800067E-003  -1.0492396541E-004 +5.8184573427E-003  +7.4091291428E-001 +4.5448869467E-002 
12022937.422 +1.2271203995E+000 -1.5708684921E-002  -1.0363990441E-004 +5.9178913943E-003  -6.9201923907E-005 +5.9113134630E-003  +7.4588102102E-001 +5.7599633932E-002 
12148082.603 +1.2194209099E+000 -3.0213177204E-002  -1.3680616394E-004 +5.9456545860E-003  -4.0939776227E-005 +5.9128566645E-003  +7.5410532951E-001 +7.2121113539E-002 
12273227.785 +1.2127592564E+000 -4.3684720993E-002  -5.7639088482E-005 +5.9701888822E-003  -7.6501397416E-005 +5.9947273694E-003  +7.6100993156E-001 +8.2574307919E-002 
12398372.966 +1.2044621706E+000 -5.4704517126E-002  -5.4159550928E-005 +6.0823606327E-003  -7.9155550338E-005 +6.0692108236E-003  +7.6912879944E-001 +9.3690261245E-002 
12523518.148 +1.1937085390E+000 -6.4304396510E-002  -6.9110188633E-005 +6.1384397559E-003  -7.1974471211E-005 +6.1514326371E-003  +7.7567279339E-001 +1.0414560139E-001 
12648663.329 +1.1860833168E+000 -7.5831443071E-002  -1.1298432946E-004 +6.2720342539E-003  -1.2268044520E-004 +6.2066297978E-003  +7.8516966105E-001 +1.1587280035E-001 
12773808.511 +1.1761767864E+000 -8.6569681764E-002  -4.5434688218E-005 +6.2703927979E-003  -6.6719134338E-005 +6.3358987682E-003  +7.9440063238E-001 +1.2516465783E-001 
12898953.692 +1.1672943830E+000 -9.4782426953E-002  -5.5316137150E-005 +6.3553042710E-003  +9.1492547654E-006 +6.3724769279E-003  +8.0424547195E-001 +1.3452716172E-001 
13024098.874 +1.1575543880E+000 -1.0099468380E-001  -8.0545083620E-005 +6.3506755978E-003  -5.2714574849E-005 +6.3880775124E-003  +8.1459581852E-001 +1.4372155070E-001 
13149244.055 +1.1481181383E+000 -1.0655830055E-001  -4.2445390136E-005 +6.4840107225E-003  -4.5306369429E-005 +6.4775431529E-003  +8.2374793291E-001 +1.5251843631E-001 
13274389.237 +1.1368588209E+000 -1.1377514154E-001  -1.2700591469E-005 +6.5813851543E-003  -8.9658882644E-005 +6.5660867840E-003  +8.3547192812E-001 +1.6040563583E-001 
13399534.418 +1.1276060343E+000 -1.1800283194E-001  -1.5318044461E-005 +6.6433507018E-003  +1.5889352653E-005 +6.6853831522E-003  +8.4621959925E-001 +1.6707223654E-001 
13524679.599 +1.1172569990E+000 -1.2228748202E-001  -3.4573546145E-005 +6.7312470637E-003  +8.3211343735E-006 +6.7237284966E-003  +8.5758835077E-001 +1.7369352281E-001 
13649824.781 +1.1087465286E+000 -1.2758775055E-001  -1.0632444173E-005 +6.7786755972E-003  -2.3709260859E-005 +6.7991716787E-003  +8.7069153786E-001 +1.7891973257E-001 
13774969.962 +1.0985884666E+000 -1.2988217175E-001  +1.9580940716E-005 +6.8685207516E-003  -3.4868600778E-005 +6.8398094736E-003  +8.8167822361E-001 +1.8297237158E-001 
13900115.144 +1.0896296501E+000 -1.3233393431E-001  -4.4943299145E-006 +6.9654732943E-003  +3.0714552850E-005 +6.9710440002E-003  +8.9359301329E-001 +1.8782904744E-001 
14025260.325 +1.0792715549E+000 -1.3433441520E-001  +1.2608477846E-005 +7.0122028701E-003  +1.4305347577E-005 +7.0066815242E-003  +9.0647029877E-001 +1.9197817147E-001 
14150405.507 +1.0716593266E+000 -1.3479724526E-001  +6.3748564571E-005 +7.0668798871E-003  +4.8759393394E-005 +7.0783928968E-003  +9.1946792603E-001 +1.9548813999E-001 
14275550.688 +1.0624812841E+000 -1.3557118177E-001  +3.7202378735E-005 +7.1200057864E-003  +5.5710552260E-005 +7.1333181113E-003  +9.3145710230E-001 +1.9642905891E-001 
14400695.870 +1.0532742739E+000 -1.3577529788E-001  +5.6659802794E-005 +7.1992827579E-003  +8.7351538241E-005 +7.1374163963E-003  +9.4427096844E-001 +1.9835743308E-001 
