!  2-Port S-parameters saved by WinCal
! VAR MeasName=S-Parameters (CALIBRATED_DATA) read from VNA (P5004A)
! VAR MeasDate=22/05/2024 18:10:21
! VAR NAME=Wafer2_r2_c1_pristine_neg0.6dc
! VAR FILENAME=Wafer2_r2_c1_pristine_neg0.6dc.S2P
! VAR DATE=22/05/2024 18:10:21
! VAR PHYS_PORTS=1,2
! VAR ObjTypeName=DATASET
! VAR IndexType=Frequency
!
# Hz S RI R 50
9000.000 +2.1675808728E-001 -5.7567858696E-001  +5.9475619346E-003 -1.0052211583E-002  +6.3273997512E-004 +5.6551997550E-003  +5.8759301901E-002 +1.0586044192E-001 
134145.181 +6.3001787663E-001 -5.5241182446E-002  +2.2799344733E-002 -2.8731129132E-003  -3.9297780022E-003 -2.8124185279E-002  -4.3139779568E-001 -1.7526993752E+000 
259290.363 +8.3417159319E-001 -1.4134150743E-001  -7.6748612337E-003 -1.6410466284E-002  +4.4071194716E-003 +1.5909438953E-002  +1.5979607105E+000 -7.0313167572E-001 
384435.544 +8.9005720615E-001 -2.9367700219E-001  +6.0403211974E-003 +5.8416356333E-003  +4.2259328067E-002 -2.1174587309E-002  +4.7294807434E+000 -5.5227828026E-001 
509580.726 +9.4656312466E-001 -1.6477444768E-001  -5.8715901105E-004 -2.2586942650E-003  +2.4941347074E-003 +2.4739028886E-003  +1.7854268551E+000 -4.3374919891E-001 
634725.907 +1.0945274830E+000 -2.0089268684E-001  -5.6102243252E-003 +7.1327676997E-003  +8.4046283737E-003 -2.2544013336E-004  +3.1534695625E+000 -2.5286340714E-001 
759871.089 +1.2471473217E+000 -4.4002115726E-002  -3.9302255027E-004 -1.9665865693E-003  +2.7034041705E-004 +3.2137506059E-004  +1.4305422306E+000 +4.3953156471E-001 
885016.270 +1.0555938482E+000 -2.2224707901E-001  -6.3392927404E-004 -1.4506956795E-003  +8.4799272008E-004 +1.5498745488E-003  +1.2093927860E+000 +5.0671446323E-001 
1010161.452 +1.2366287708E+000 -5.1586657763E-002  +7.3847346357E-005 +2.4406959710E-004  +7.0736551424E-004 +9.6483796369E-004  +1.1823592186E+000 +4.9661111832E-001 
1135306.633 +1.4393042326E+000 -9.1373324394E-002  -9.2661462259E-004 -7.6390156755E-004  -5.6324090110E-004 +6.5844366327E-004  +1.2971234322E+000 +6.1212658882E-001 
1260451.815 +1.6586990356E+000 -9.7728788853E-002  +7.9183955677E-005 -2.4669273989E-004  +3.1328192563E-004 +9.2214799952E-004  +1.0997689962E+000 +7.1097278595E-001 
1385596.996 +1.4227027893E+000 -1.0479021072E-001  -1.9181922835E-004 +2.6710877137E-005  -1.1489015742E-004 -8.3291561168E-005  +9.8539686203E-001 +4.8495942354E-001 
1510742.178 +1.6832312346E+000 -1.0478296876E-001  +3.3412803896E-004 +2.6963601704E-004  -1.4089141041E-004 +2.3698579753E-004  +6.7805528641E-001 +5.7410144806E-001 
1635887.359 +1.1816906929E+000 -3.7286028266E-001  +1.5448743943E-004 +1.7161724827E-005  +2.3071026953E-004 +3.0506306211E-004  +1.5215244293E+000 +6.3225924969E-001 
1761032.541 +1.3534432650E+000 -2.7292475104E-001  -2.7554153348E-004 +1.6220749239E-004  -2.4743008544E-004 +1.2026149489E-004  +1.1048716307E+000 +8.2586544752E-001 
1886177.722 +1.2824385166E+000 -1.9334354997E-001  -1.3738250709E-004 +3.6042410647E-004  -1.0615320934E-004 +3.0636542942E-004  +1.1446890831E+000 +5.5891799927E-001 
2011322.904 +1.2837660313E+000 -1.7842483521E-001  -2.2301373247E-004 +4.6567096433E-005  -2.5545680546E-004 +3.1871828833E-004  +1.1580786705E+000 +5.2507472038E-001 
2136468.085 +1.2862973213E+000 -1.1813545227E-001  -3.4855765989E-004 +3.0315044569E-004  -1.3647078595E-004 +2.7205867809E-004  +1.0976785421E+000 +4.7718098760E-001 
2261613.267 +1.3146326542E+000 -9.4839781523E-002  -2.2714652005E-004 +2.9975065263E-004  -1.7453187320E-004 +3.2169322367E-004  +1.0542351007E+000 +5.1487815380E-001 
2386758.448 +1.3287742138E+000 -9.9289789796E-002  -2.8678996023E-004 +3.5656429827E-004  -3.7447497016E-004 +4.4120012899E-004  +1.0737252235E+000 +5.4434359074E-001 
2511903.630 +1.3894004822E+000 -1.0154011846E-001  -9.6064242825E-005 +5.9512059670E-004  -4.9819523701E-004 +8.1914791372E-004  +1.1175276041E+000 +5.8023697138E-001 
2637048.811 +1.3899574280E+000 -1.4805543423E-001  -7.6164427446E-004 +1.6891447012E-004  -5.7818379719E-004 +7.9103861935E-004  +1.1282595396E+000 +6.0724455118E-001 
2762193.992 +1.3273935318E+000 -1.0605216026E-001  -3.8727361243E-004 +9.7848870791E-004  -8.7462988449E-004 +4.4881878421E-004  +1.1432125568E+000 +5.0690042973E-001 
2887339.174 +1.3912125826E+000 -3.7238657475E-002  -6.9478806108E-004 +1.5120969620E-003  -5.7550589554E-004 +5.3252070211E-004  +1.0013970137E+000 +4.9986809492E-001 
3012484.355 +1.4603672028E+000 -4.7883689404E-002  -8.9543987997E-004 +6.4206565730E-004  -4.4776592404E-004 +6.2736571999E-004  +9.5285797119E-001 +6.0925930738E-001 
3137629.537 +1.4727087021E+000 -4.4561326504E-002  -1.2506623752E-003 +6.4385955920E-004  -1.2160737533E-003 +9.6499087522E-004  +9.7398710251E-001 +7.1937978268E-001 
3262774.718 +1.5288689137E+000 -7.5010478497E-002  -4.8798293574E-004 +7.3089916259E-004  -7.0965377381E-004 +6.1842153082E-004  +1.0198831558E+000 +7.8386497498E-001 
3387919.900 +1.5678212643E+000 -9.9175035954E-002  -8.0949318362E-004 +1.1268823873E-003  -1.0137176141E-003 +1.2177154422E-003  +1.0622007847E+000 +8.5241460800E-001 
3513065.081 +1.6150105000E+000 -1.4192914963E-001  -1.3088650303E-003 +1.2392484350E-003  -9.8969344981E-004 +7.3520455044E-004  +1.1003129482E+000 +9.2895305157E-001 
3638210.263 +1.6981896162E+000 -1.9313466549E-001  -1.4605042525E-003 +8.8445201982E-004  -1.4615268447E-003 +1.3183485717E-003  +1.1906508207E+000 +9.7024506330E-001 
3763355.444 +1.7414798737E+000 -2.4150288105E-001  -1.3392838882E-003 +1.2626610696E-003  -1.9257530803E-003 +1.2034206884E-003  +1.2887473106E+000 +9.9945253134E-001 
3888500.626 +1.8158330917E+000 -3.7881493568E-001  +4.4146329165E-003 +1.7293628305E-002  -5.9169414453E-004 +1.7461898969E-003  +1.3780481815E+000 +1.0750845671E+000 
4013645.807 +1.5021271706E+000 -7.0524442196E-001  -3.5652425140E-005 +2.3766595405E-003  -6.2654208159E-004 +2.5009268429E-003  +1.6593637466E+000 +8.5860645771E-001 
4138790.989 +1.1045489311E+000 -7.7813041210E-001  -3.7573510781E-005 +3.5054755863E-003  +7.4836192653E-005 +2.9745711945E-003  +1.7927256823E+000 +5.3531539440E-001 
4263936.170 +1.0314447880E+000 -7.8877139091E-001  +3.1609437428E-004 +3.3395944629E-003  -1.5110126697E-005 +3.7171663716E-003  +1.8351041079E+000 +4.2250466347E-001 
4389081.352 +9.5158529282E-001 -8.1453132629E-001  +7.5796502642E-005 +3.4668722656E-003  +4.9244507682E-004 +2.6053476613E-003  +1.8829096556E+000 +2.8679937124E-001 
4514226.533 +8.8977921009E-001 -8.4346884489E-001  +8.4542168770E-004 +2.8992616571E-003  +1.0197609663E-004 +3.6581470631E-003  +1.9072204828E+000 +2.0465458930E-001 
4639371.715 +8.3244705200E-001 -8.1956559420E-001  +3.3325928962E-004 +2.3143577855E-003  +7.5841532089E-004 +3.4369553905E-003  +1.9120062590E+000 +1.2368883193E-001 
4764516.896 +7.5615376234E-001 -7.9290091991E-001  +3.3495880780E-004 +2.7715857141E-003  +9.8492344841E-004 +2.3682219908E-003  +1.9133578539E+000 +2.4796634912E-002 
4889662.078 +7.1869212389E-001 -7.6091152430E-001  +1.3487949036E-003 +3.0166069046E-003  +1.4581205323E-003 +2.8507893439E-003  +1.9195744991E+000 -6.7790240049E-002 
5014807.259 +6.4867693186E-001 -7.3314756155E-001  +1.1976815294E-003 +2.5487968232E-003  +1.5528519871E-003 +2.4719757494E-003  +1.8578047752E+000 -1.2584555149E-001 
5139952.441 +6.0658043623E-001 -7.2243010998E-001  +1.4714904828E-003 +2.3818754125E-003  +8.7679841090E-004 +2.1609673277E-003  +1.8408759832E+000 -2.1163018048E-001 
5265097.622 +5.6608432531E-001 -6.7613470554E-001  +6.5118912607E-004 +2.1921610460E-003  +9.5305987634E-004 +2.0371032879E-003  +1.7900010347E+000 -2.6998060942E-001 
5390242.804 +5.2788472176E-001 -6.4040797949E-001  +1.4643555041E-003 +2.9060735833E-003  +1.5181736089E-003 +1.9379374571E-003  +1.7416977882E+000 -3.1652185321E-001 
5515387.985 +4.8953855038E-001 -6.0738188028E-001  +1.3712730724E-003 +2.3962927517E-003  +1.0485340608E-003 +2.6167009491E-003  +1.6917926073E+000 -3.8309264183E-001 
5640533.166 +4.5294648409E-001 -5.6620311737E-001  +1.1206869967E-003 +2.5425187778E-003  +1.2645915849E-003 +1.8301305827E-003  +1.6608862877E+000 -4.1198122501E-001 
5765678.348 +4.1594862938E-001 -5.3249466419E-001  +8.3672482288E-004 +2.8632062022E-003  +1.1850994779E-003 +2.3022666574E-003  +1.6074743271E+000 -4.5070421696E-001 
5890823.529 +3.9143663645E-001 -4.9226829410E-001  +9.1081112623E-004 +2.5361541193E-003  +1.3164288830E-003 +1.9289389020E-003  +1.5436125994E+000 -4.8323690891E-001 
6015968.711 +3.7122911215E-001 -4.4819250703E-001  +9.3097466743E-004 +1.9968093839E-003  +7.5878587086E-004 +1.9522882067E-003  +1.5065822601E+000 -4.9724224210E-001 
6141113.892 +3.5321870446E-001 -4.0832236409E-001  +8.9802948060E-004 +2.3956024088E-003  +1.0411837138E-003 +2.2674829233E-003  +1.4508708715E+000 -5.1100087166E-001 
6266259.074 +3.3084732294E-001 -3.6769217253E-001  +1.0093988385E-003 +2.2544539534E-003  +7.6796568464E-004 +2.5563461240E-003  +1.3900908232E+000 -5.2851843834E-001 
6391404.255 +3.1758439541E-001 -3.2719132304E-001  +9.5468678046E-004 +2.3132693022E-003  +2.7495337417E-004 +1.8063429743E-003  +1.3369752169E+000 -5.4531913996E-001 
6516549.437 +3.0379852653E-001 -2.8739374876E-001  +6.4859742997E-004 +2.0524128340E-003  +7.1783387102E-004 +2.4190049153E-003  +1.2972427607E+000 -5.4505062103E-001 
6641694.618 +3.0184087157E-001 -2.4470509589E-001  +7.3107628850E-004 +2.0571153145E-003  +6.2253343640E-004 +1.9412596012E-003  +1.2637979984E+000 -5.4892444611E-001 
6766839.800 +2.9614904523E-001 -2.0003557205E-001  +6.3134654192E-004 +2.2570795845E-003  +7.9499679850E-004 +2.4518941063E-003  +1.2191469669E+000 -5.4868090153E-001 
6891984.981 +2.8772139549E-001 -1.6603383422E-001  +4.6282561379E-004 +2.2432615515E-003  +4.5177782886E-004 +2.1642989013E-003  +1.1694675684E+000 -5.3731119633E-001 
7017130.163 +2.8382009268E-001 -1.2425366789E-001  +3.9676233428E-004 +2.0965645090E-003  +2.5621629902E-004 +2.1511570085E-003  +1.1397126913E+000 -5.2871096134E-001 
7142275.344 +2.7567452192E-001 -8.7004899979E-002  +5.8962113690E-004 +2.4390083272E-003  +3.9641562034E-004 +2.3930575699E-003  +1.1117531061E+000 -5.2396404743E-001 
7267420.526 +2.7815812826E-001 -4.5777469873E-002  +2.0058194059E-004 +2.3798984475E-003  +3.6580560845E-004 +2.4447951000E-003  +1.0825948715E+000 -5.1086920500E-001 
7392565.707 +2.7394333482E-001 -6.4562987536E-003  +4.9446482444E-004 +2.3388096597E-003  +3.0523067107E-004 +2.1944548935E-003  +1.0521115065E+000 -5.0421524048E-001 
7517710.889 +2.7905115485E-001 +2.8821049258E-002  +3.0281840009E-004 +2.3157850374E-003  +1.1592739611E-005 +2.3601099383E-003  +1.0207505226E+000 -4.9122595787E-001 
7642856.070 +2.7573502064E-001 +6.7281581461E-002  +1.2123027409E-004 +2.5145646650E-003  +2.0568491891E-004 +2.4117089342E-003  +9.8689508438E-001 -4.8184430599E-001 
7768001.252 +2.8448861837E-001 +1.0683615506E-001  +1.1263339547E-004 +2.4648858234E-003  +1.2116917060E-004 +2.5073266588E-003  +9.6443808079E-001 -4.7158977389E-001 
7893146.433 +2.9455226660E-001 +1.5186876059E-001  -5.3767784266E-005 +2.5625985581E-003  +1.4684037887E-004 +2.2965450771E-003  +9.4087839127E-001 -4.5121833682E-001 
8018291.615 +2.9695272446E-001 +1.9086849689E-001  -8.3198334323E-005 +2.4564836640E-003  -5.9711019276E-005 +2.5848690420E-003  +9.1045612097E-001 -4.3408814073E-001 
8143436.796 +3.0737596750E-001 +2.2358331084E-001  -1.7125911836E-004 +2.5713467039E-003  -8.2314887550E-005 +2.6210006326E-003  +8.9803951979E-001 -4.2223858833E-001 
8268581.977 +3.1910008192E-001 +2.6721823215E-001  -4.5612151735E-004 +2.7583423071E-003  -6.3145707827E-005 +2.6845838875E-003  +8.7926429510E-001 -4.0667328238E-001 
8393727.159 +3.3455920219E-001 +3.0648308992E-001  -6.0038338415E-004 +2.6086422149E-003  -1.7071081675E-004 +2.7292759623E-003  +8.6442571878E-001 -3.8690173626E-001 
8518872.340 +3.4928849339E-001 +3.4666815400E-001  -3.4491615952E-004 +2.9829638079E-003  -4.6467530774E-004 +2.8600890655E-003  +8.4195351601E-001 -3.7406438589E-001 
8644017.522 +3.6639565229E-001 +3.8131037354E-001  -5.0817686133E-004 +3.0345995910E-003  -6.6892412724E-004 +2.9337203596E-003  +8.3044064045E-001 -3.5781660676E-001 
8769162.703 +3.8655662537E-001 +4.2321360111E-001  -6.8861606997E-004 +2.8760584537E-003  -6.0104520526E-004 +2.9555372894E-003  +8.1510806084E-001 -3.4365320206E-001 
8894307.885 +4.1077154875E-001 +4.5991969109E-001  -7.4544339441E-004 +3.2209753990E-003  -8.8142999448E-004 +3.1362655573E-003  +8.0377715826E-001 -3.2710754871E-001 
9019453.066 +4.3519601226E-001 +4.9833691120E-001  -8.0394902034E-004 +3.1852428801E-003  -8.9399557328E-004 +3.2663333695E-003  +7.9100131989E-001 -3.1333148479E-001 
9144598.248 +4.6481794119E-001 +5.3555679321E-001  -9.0681633446E-004 +3.4365833271E-003  -9.3904283131E-004 +3.2638981938E-003  +7.7736425400E-001 -2.9871299863E-001 
9269743.429 +4.9767497182E-001 +5.7059621811E-001  -1.0593167972E-003 +3.3888625912E-003  -1.1230794480E-003 +3.3758769277E-003  +7.6868140697E-001 -2.7791172266E-001 
9394888.611 +5.2834546566E-001 +6.0957503319E-001  -1.2131473050E-003 +3.5348669626E-003  -1.1556461686E-003 +3.4305569716E-003  +7.5829863548E-001 -2.6311045885E-001 
9520033.792 +5.7036018372E-001 +6.3967448473E-001  -1.2409336632E-003 +3.6700135097E-003  -1.2852734653E-003 +3.5901039373E-003  +7.5176227093E-001 -2.4144522846E-001 
9645178.974 +6.1342382431E-001 +6.7406344414E-001  -1.2831481872E-003 +3.8917865604E-003  -1.2206933461E-003 +3.7208884023E-003  +7.4328869581E-001 -2.2728843987E-001 
9770324.155 +6.5668714046E-001 +7.0122158527E-001  -1.3369651278E-003 +3.9140833542E-003  -1.4308490790E-003 +4.0219631046E-003  +7.3649340868E-001 -2.0969560742E-001 
9895469.337 +7.0271027088E-001 +7.2998225689E-001  -1.4131800272E-003 +4.0524657816E-003  -1.4044031268E-003 +4.1469093412E-003  +7.3047417402E-001 -1.9349566102E-001 
10020614.518 +7.5278049707E-001 +7.5067865849E-001  -1.5057190321E-003 +4.3469434604E-003  -1.5016625402E-003 +4.2503722943E-003  +7.2793066502E-001 -1.7573019862E-001 
10145759.700 +8.0866140127E-001 +7.7039963007E-001  -1.5248181298E-003 +4.5064222068E-003  -1.5534905251E-003 +4.3291379698E-003  +7.2339361906E-001 -1.6244509816E-001 
10270904.881 +8.6784273386E-001 +7.8538966179E-001  -1.5965783969E-003 +4.6415450051E-003  -1.6129672294E-003 +4.6423012391E-003  +7.2128129005E-001 -1.4406526089E-001 
10396050.063 +9.2785650492E-001 +7.9628777504E-001  -1.6301249852E-003 +4.7998749651E-003  -1.6812498216E-003 +4.8351823352E-003  +7.1809023619E-001 -1.2737020850E-001 
10521195.244 +9.8363757133E-001 +7.9919642210E-001  -1.6258573160E-003 +5.1025487483E-003  -1.7430089647E-003 +5.0043403171E-003  +7.1873599291E-001 -1.1182853580E-001 
10646340.426 +1.0405240059E+000 +7.9977077246E-001  -1.5884337481E-003 +5.1834988408E-003  -1.7190544168E-003 +5.1600462757E-003  +7.1540725231E-001 -9.6018075943E-002 
10771485.607 +1.1043819189E+000 +7.9050916433E-001  -1.6402009642E-003 +5.4061864503E-003  -1.7328606918E-003 +5.4152095690E-003  +7.1669912338E-001 -8.1769257784E-002 
10896630.788 +1.1642832756E+000 +7.7813583612E-001  -1.6722221626E-003 +5.5739041418E-003  -1.6526849940E-003 +5.6327562779E-003  +7.1625208855E-001 -6.4806520939E-002 
11021775.970 +1.2231810093E+000 +7.5959038734E-001  -1.7008266877E-003 +5.8842189610E-003  -1.5830914490E-003 +5.7410877198E-003  +7.1674275398E-001 -5.0020247698E-002 
11146921.151 +1.2835593224E+000 +7.3283201456E-001  -1.6365472693E-003 +6.1102211475E-003  -1.6545122489E-003 +5.9862476774E-003  +7.1960526705E-001 -3.5400271416E-002 
11272066.333 +1.3382915258E+000 +7.0106399059E-001  -1.5622586943E-003 +6.2933778390E-003  -1.5183170326E-003 +6.2463060021E-003  +7.2042119503E-001 -2.1299272776E-002 
11397211.514 +1.3876597881E+000 +6.6782796383E-001  -1.4357520267E-003 +6.3817743212E-003  -1.4700533357E-003 +6.4431913197E-003  +7.2322249413E-001 -7.3869228363E-003 
11522356.696 +1.4345028400E+000 +6.2670606375E-001  -1.3256184757E-003 +6.5902126953E-003  -1.3768223580E-003 +6.5942453220E-003  +7.2741389275E-001 +7.0718526840E-003 
11647501.877 +1.4723560810E+000 +5.8169573545E-001  -1.2827403843E-003 +6.7597348243E-003  -1.3156726491E-003 +6.7586330697E-003  +7.3011785746E-001 +1.9964873791E-002 
11772647.059 +1.5123138428E+000 +5.3345930576E-001  -1.1164036114E-003 +6.8713640794E-003  -1.1896186043E-003 +6.8793627433E-003  +7.3523443937E-001 +3.2705068588E-002 
11897792.240 +1.5456111431E+000 +4.8388379812E-001  -1.0675322264E-003 +7.0799775422E-003  -1.1215277482E-003 +7.1172257885E-003  +7.4197572470E-001 +4.7503411770E-002 
12022937.422 +1.5721117258E+000 +4.3385291100E-001  -9.4556133263E-004 +7.2279712185E-003  -1.0766102932E-003 +7.1899332106E-003  +7.4613755941E-001 +5.8854550123E-002 
12148082.603 +1.5905165672E+000 +3.7845951319E-001  -8.0735143274E-004 +7.3566450737E-003  -8.5743702948E-004 +7.3079364374E-003  +7.5448626280E-001 +7.2216570377E-002 
12273227.785 +1.6039667130E+000 +3.2710510492E-001  -7.7158492059E-004 +7.4392920360E-003  -7.7040609904E-004 +7.4539864436E-003  +7.6172381639E-001 +8.3428263664E-002 
12398372.966 +1.6140060425E+000 +2.7537968755E-001  -5.9186690487E-004 +7.5328093953E-003  -6.4734369516E-004 +7.5406008400E-003  +7.6927715540E-001 +9.5711812377E-002 
12523518.148 +1.6140959263E+000 +2.2207564116E-001  -4.7747395001E-004 +7.5974254869E-003  -4.4640328269E-004 +7.6126023196E-003  +7.7555620670E-001 +1.0664759576E-001 
12648663.329 +1.6161346436E+000 +1.7342799902E-001  -3.8849120028E-004 +7.7855489217E-003  -3.6258692853E-004 +7.7274870127E-003  +7.8475505114E-001 +1.1630901694E-001 
12773808.511 +1.6095181704E+000 +1.2397569418E-001  -2.4888716871E-004 +7.7612739988E-003  -2.3854780011E-004 +7.8385910019E-003  +7.9450392723E-001 +1.2684960663E-001 
12898953.692 +1.6027746201E+000 +7.8474462032E-002  -1.2709031580E-004 +7.8673744574E-003  -1.3844703790E-004 +7.8836325556E-003  +8.0430686474E-001 +1.3573679328E-001 
13024098.874 +1.5886170864E+000 +3.7405245006E-002  -2.6325607905E-005 +7.9285036772E-003  -4.0410115616E-005 +7.8864702955E-003  +8.1397962570E-001 +1.4553920925E-001 
13149244.055 +1.5746250153E+000 +7.4623525143E-004  +1.2689124560E-004 +7.8968452290E-003  +8.3022605395E-005 +7.9596396536E-003  +8.2435274124E-001 +1.5412101150E-001 
13274389.237 +1.5568619967E+000 -3.9867669344E-002  +1.7129472690E-004 +7.9531725496E-003  +2.7654896257E-004 +7.9708825797E-003  +8.3610016108E-001 +1.6255229712E-001 
13399534.418 +1.5374777317E+000 -7.4018433690E-002  +3.1942094211E-004 +8.0006234348E-003  +3.3048214391E-004 +8.0264341086E-003  +8.4635365009E-001 +1.6919705272E-001 
13524679.599 +1.5177236795E+000 -1.0291495919E-001  +4.0183332749E-004 +8.0447858199E-003  +3.9661140181E-004 +8.0742090940E-003  +8.5837543011E-001 +1.7571233213E-001 
13649824.781 +1.4970474243E+000 -1.3375106454E-001  +5.2099768072E-004 +8.0711068586E-003  +5.4860301316E-004 +8.0482000485E-003  +8.7021416426E-001 +1.8128694594E-001 
13774969.962 +1.4735674858E+000 -1.5940517187E-001  +5.7406560518E-004 +8.0490792170E-003  +6.3362647779E-004 +8.1103118137E-003  +8.8239860535E-001 +1.8495389819E-001 
13900115.144 +1.4508594275E+000 -1.8214291334E-001  +6.9747166708E-004 +8.0866310745E-003  +6.9466512650E-004 +8.1399548799E-003  +8.9390027523E-001 +1.8982259929E-001 
14025260.325 +1.4265873432E+000 -1.9990581274E-001  +7.4709625915E-004 +8.1070987508E-003  +7.5889145955E-004 +8.0640101805E-003  +9.0582925081E-001 +1.9320426881E-001 
14150405.507 +1.4030846357E+000 -2.1863156557E-001  +7.7350344509E-004 +8.0989087000E-003  +8.1781554036E-004 +8.1365518272E-003  +9.1869813204E-001 +1.9609265029E-001 
14275550.688 +1.3791625500E+000 -2.3578745127E-001  +8.7181082927E-004 +8.0558676273E-003  +8.6254999042E-004 +8.1233065575E-003  +9.3153166771E-001 +1.9781613350E-001 
14400695.870 +1.3534626961E+000 -2.4891799688E-001  +9.4999885187E-004 +8.0781411380E-003  +9.1715320013E-004 +8.1132501364E-003  +9.4395607710E-001 +1.9953024387E-001 
