!  2-Port S-parameters saved by WinCal
! VAR MeasName=S-Parameters (CALIBRATED_DATA) read from VNA (P5004A)
! VAR MeasDate=22/05/2024 17:00:47
! VAR NAME=Wafer2_r10_c10_opensig
! VAR FILENAME=Wafer2_r10_c10_opensig.S2P
! VAR DATE=22/05/2024 17:00:47
! VAR PHYS_PORTS=1,2
! VAR ObjTypeName=DATASET
! VAR IndexType=Frequency
!
# Hz S RI R 50
9000.000 +2.7720606327E-001 -5.6467992067E-001  +5.4900642484E-002 -6.7744761705E-002  -3.1785122119E-003 +1.2141607003E-003  +8.8582582772E-002 +9.3578547239E-002 
134145.181 +7.3175567389E-001 +1.8867194653E-002  +9.6750203520E-003 -3.1465440989E-002  -1.2623853981E-002 -7.2213299572E-003  +1.0059046745E+000 -1.0211586952E-002 
259290.363 +8.8233000040E-001 -7.3905199766E-002  -4.3020313606E-003 -2.7763294056E-003  +1.0195194744E-002 +3.4553091973E-004  +1.0317510366E+000 -1.3474762440E-002 
384435.544 +9.3938744068E-001 -2.3740786314E-001  -4.1326609789E-004 -1.4921966940E-003  +2.1811639890E-003 +4.7720572911E-003  +1.0430016518E+000 -6.2333039939E-002 
509580.726 +9.7584390640E-001 -1.3374729455E-001  -2.7645581868E-003 -1.3024178334E-003  -1.1927346932E-003 -5.0757656572E-004  +1.0266311169E+000 -2.6755869389E-002 
634725.907 +1.0721926689E+000 -1.5347927809E-001  -2.0612147637E-003 -1.2967222137E-003  +8.7541673565E-005 +9.5372874057E-004  +1.0575889349E+000 -2.3621022701E-002 
759871.089 +1.1713229418E+000 -4.3738424778E-002  +1.1128756450E-003 +7.2881038068E-004  -2.8832315002E-004 -9.3801517505E-004  +1.0560767651E+000 -3.4688919783E-002 
885016.270 +1.0511190891E+000 -6.3621968031E-002  +1.2460387079E-003 +1.9100430654E-003  +7.0880248677E-004 +5.2277096547E-003  +1.0306097269E+000 -7.3325932026E-002 
1010161.452 +1.1937677860E+000 -4.8766136169E-002  +3.9560545702E-004 -4.2106912588E-005  +1.5551665565E-003 -2.5097613689E-003  +8.8483792543E-001 +2.3418605328E-002 
1135306.633 +1.2228002548E+000 -1.0206654668E-001  +7.5728865340E-004 +1.2585169170E-003  +6.9195328979E-004 +1.7049664166E-005  +9.4828987122E-001 +1.0477563739E-001 
1260451.815 +1.3618303537E+000 -1.0249245167E-001  -3.9107789053E-004 +7.9869799083E-004  -8.3227228606E-004 -1.0488403495E-003  +9.7605299950E-001 +1.5141841769E-001 
1385596.996 +1.2564320564E+000 -1.3073456287E-001  +6.2054937007E-004 +5.5202015210E-004  +5.1165756304E-004 -1.0468562832E-003  +9.9823284149E-001 +1.0241952538E-001 
1510742.178 +1.4088108540E+000 -1.9803690910E-001  +1.1070581386E-003 -4.5272978605E-004  -1.6548525309E-004 +8.4589829203E-004  +9.2537462711E-001 +1.5335252881E-001 
1635887.359 +9.8233658075E-001 -2.9097813368E-001  +4.5742557268E-004 -5.3452223074E-004  -1.7833872698E-003 -1.9505299861E-003  +1.0965243578E+000 +1.2029495835E-001 
1761032.541 +1.0361136198E+000 -2.7828446031E-001  +1.1610679794E-003 +3.7853792310E-004  +2.9853874003E-004 -1.1419164366E-005  +1.0636605024E+000 +1.6149741411E-001 
1886177.722 +1.0239664316E+000 -1.5539503098E-001  +2.2866479412E-004 +2.6847497793E-004  +5.4411543533E-004 -3.1066886731E-004  +1.0607137680E+000 +1.2264835835E-001 
2011322.904 +1.0131273270E+000 -1.1853432655E-001  +4.1777786100E-004 +2.2050016560E-004  -5.4772075964E-004 +1.1700084433E-003  +1.0581152439E+000 +1.2133201957E-001 
2136468.085 +1.0147924423E+000 -1.0510629416E-001  +6.0297088930E-004 -2.1341064712E-004  -6.2639522366E-004 +8.3952501882E-005  +1.0418685675E+000 +1.0508617759E-001 
2261613.267 +1.0124254227E+000 -9.1048538685E-002  -1.6371611855E-004 -8.2058104454E-005  -5.1926984452E-004 +1.6699198750E-004  +1.0279114246E+000 +1.2237870693E-001 
2386758.448 +1.0093998909E+000 -8.5252523422E-002  -3.8918788050E-005 +1.2321038230E-004  -3.8377041346E-004 +1.0586597637E-004  +1.0389579535E+000 +1.3154891133E-001 
2511903.630 +1.0163762569E+000 -6.3103973866E-002  -2.5298740366E-004 -2.1428760374E-004  +1.8980400637E-004 -2.5034137070E-004  +1.0535774231E+000 +1.3799357414E-001 
2637048.811 +1.0185695887E+000 -6.2298014760E-002  -6.4983301854E-005 +4.1738100117E-004  -1.2634680024E-004 -1.3900405611E-004  +1.0414154530E+000 +1.6234061122E-001 
2762193.992 +1.0294402838E+000 -4.2728915811E-002  -3.7772537326E-004 +8.9235320047E-005  +9.4166702183E-005 +2.4034916351E-005  +1.0383619070E+000 +1.6399307549E-001 
2887339.174 +9.9799180031E-001 -4.9617543817E-002  +2.8571952134E-004 +3.9884675061E-004  -5.0641647249E-005 +2.2178213112E-004  +1.0491404533E+000 +2.0373515785E-001 
3012484.355 +9.9299257994E-001 -4.8286855221E-002  -1.5833295765E-004 +1.0870263941E-004  -6.6399236675E-004 +1.9438769959E-004  +1.0630731583E+000 +2.2492840886E-001 
3137629.537 +9.9186241627E-001 -2.1075427532E-002  +1.5619551414E-004 +6.3764695369E-005  +8.7466818513E-005 -3.0322569728E-005  +1.1025069952E+000 +2.3026353121E-001 
3262774.718 +9.7640049458E-001 +3.8542449474E-003  +3.9377572830E-004 -2.4230226700E-004  -2.5580773945E-004 -2.3132239585E-004  +1.1110606194E+000 +2.2661110759E-001 
3387919.900 +9.6774619818E-001 +2.2539660335E-002  -1.2078465079E-004 +5.8151659323E-004  +5.5797372625E-005 +1.8263065431E-004  +1.1350400448E+000 +2.2916792333E-001 
3513065.081 +9.7236764431E-001 +3.4195959568E-002  -1.8665251264E-004 +6.3767110987E-005  -4.9635742471E-005 +1.9922670617E-004  +1.1594679356E+000 +2.5083133578E-001 
3638210.263 +9.8035556078E-001 +6.8074598908E-002  -3.8195837988E-004 -2.1066894988E-005  -3.7579075433E-004 +5.0457182806E-004  +1.1750333309E+000 +2.4989971519E-001 
3763355.444 +9.8359525204E-001 +8.2148671150E-002  +1.5326027642E-004 -4.8400691594E-004  -2.8710044717E-005 -1.8940464361E-004  +1.2075970173E+000 +2.3439820111E-001 
3888500.626 +1.0079610348E+000 +1.0345035791E-001  -9.4823721156E-005 -4.3749285396E-005  +7.4767653132E-005 +7.9267472029E-004  +1.2311025858E+000 +2.3291555047E-001 
4013645.807 +9.4725781679E-001 +2.8322592378E-002  -7.0538328146E-005 -7.6127321336E-006  -3.3718705527E-004 -1.8612230633E-005  +1.1836963892E+000 +9.5864482224E-002 
4138790.989 +8.7536311150E-001 -2.9355516657E-002  +3.2141906559E-004 +2.5368921342E-004  -4.8244307982E-004 +3.7571796565E-004  +1.0990146399E+000 -1.1617552489E-002 
4263936.170 +8.6860442162E-001 -3.4246423747E-003  -5.1797356718E-005 +9.9082928500E-005  +6.3133938238E-004 +1.5902279119E-004  +1.0797935724E+000 -3.7657052279E-002 
4389081.352 +8.8656270504E-001 -3.9909183979E-003  +1.6827456420E-004 -1.8390413607E-004  -9.6428550023E-005 -3.5591091728E-004  +1.0706405640E+000 -4.1898529977E-002 
4514226.533 +8.9336442947E-001 +4.1807740927E-003  -1.4056203327E-005 +2.2548793640E-004  +7.2342192288E-004 +5.3501884395E-005  +1.0670971870E+000 -5.5436532944E-002 
4639371.715 +9.0549623966E-001 +2.1499600261E-003  +5.4344249656E-004 +6.3073290221E-005  +1.0152775212E-004 +4.5916443923E-004  +1.0652356148E+000 -4.9343682826E-002 
4764516.896 +9.0687859058E-001 +1.1604920961E-002  -6.3408503775E-004 +2.6750145480E-004  -1.4962583373E-004 +8.7923125830E-004  +1.0569764376E+000 -6.3575021923E-002 
4889662.078 +9.0910059214E-001 +1.7498733476E-002  -3.4139113268E-004 +2.4855282390E-005  -9.7863754490E-005 +2.7955634869E-004  +1.0553892851E+000 -5.6833580136E-002 
5014807.259 +9.0484929085E-001 +1.8453801051E-002  +3.4571671858E-004 +1.7718331947E-004  -3.1843391480E-004 +8.6528263637E-005  +1.0398405790E+000 -5.5562347174E-002 
5139952.441 +9.2085105181E-001 +1.6392044723E-002  -1.1761060159E-004 -1.8636271125E-004  -1.6945324023E-004 +2.1059147548E-004  +1.0392823219E+000 -6.1972033232E-002 
5265097.622 +9.2880547047E-001 +2.5714211166E-002  -1.3036833843E-004 -3.9372131141E-005  +1.7425356782E-004 +3.7994893501E-004  +1.0281285048E+000 -6.7867405713E-002 
5390242.804 +9.3273735046E-001 +2.1653495729E-002  -4.9952440895E-004 +2.6575566153E-004  -3.9456895320E-004 +5.3299547289E-005  +1.0193378925E+000 -6.1970740557E-002 
5515387.985 +9.4348531961E-001 +2.4489499629E-002  -2.6233194512E-004 -1.8711607845E-004  -2.4986200151E-004 -8.6886720965E-005  +1.0150203705E+000 -6.6508360207E-002 
5640533.166 +9.4682800770E-001 +2.4616487324E-002  +9.6893309092E-005 -1.6931495338E-004  +4.2761741497E-005 +5.1911018090E-005  +1.0144172907E+000 -5.8965384960E-002 
5765678.348 +9.4444721937E-001 +2.8762958944E-002  +3.1122643850E-004 +1.8238216580E-004  -2.1263938106E-004 +3.1266445876E-004  +1.0143438578E+000 -6.5667845309E-002 
5890823.529 +9.5118707418E-001 +1.9660115242E-002  -1.4329004625E-004 -3.9040960473E-006  -7.7869888628E-005 +2.0587898325E-004  +1.0083498955E+000 -6.8007446826E-002 
6015968.711 +9.5434421301E-001 +1.7081685364E-002  +6.8031084083E-005 -2.7277271147E-004  +2.3033760954E-004 -7.6376352808E-005  +1.0049244165E+000 -6.4083099365E-002 
6141113.892 +9.5628231764E-001 +2.6309035718E-002  +5.9475911257E-005 -2.4768563890E-005  +4.9531186232E-004 +4.2800483061E-004  +9.9720001221E-001 -6.2543928623E-002 
6266259.074 +9.5661509037E-001 +2.7676522732E-002  +9.8798002000E-005 +4.9507441872E-005  +3.4568049159E-005 +1.7623748863E-004  +9.9607723951E-001 -5.6627534330E-002 
6391404.255 +9.5751178265E-001 +1.5723302960E-002  -1.5598714526E-005 +2.6757534943E-004  +1.8974747218E-004 -9.9461882201E-005  +9.9459630251E-001 -5.9301733971E-002 
6516549.437 +9.5977938175E-001 +1.7730727792E-002  -7.9648802057E-005 +3.5732812830E-004  -4.0852880920E-004 +2.6709205122E-004  +9.8588991165E-001 -5.2952803671E-002 
6641694.618 +9.7011983395E-001 +1.9826322794E-002  -1.4098765678E-004 -3.5379527253E-004  +1.3458676403E-004 +2.5070290576E-005  +9.8804563284E-001 -4.5269012451E-002 
6766839.800 +9.7188836336E-001 +2.3610174656E-002  +3.6409906897E-005 -1.6757723643E-004  +3.9254207513E-004 +2.5838593137E-004  +9.8529225588E-001 -5.0439998507E-002 
6891984.981 +9.7127097845E-001 +2.0027257502E-002  +1.9447224622E-004 +1.5748037549E-004  +2.8257071972E-004 -2.8429480153E-004  +9.7525644302E-001 -4.9169659615E-002 
7017130.163 +9.6789312363E-001 +2.0906962454E-002  -1.7223926261E-004 -1.5808010357E-004  +2.9832238215E-004 +2.7196030715E-004  +9.8725819588E-001 -4.1334524751E-002 
7142275.344 +9.7386610508E-001 +2.4244070053E-002  +1.7357875186E-004 +2.3648248316E-005  +1.4208091307E-004 +8.1526719441E-005  +9.8302388191E-001 -3.3898770809E-002 
7267420.526 +9.7311204672E-001 +2.4920746684E-002  +3.3518292184E-005 +8.5528452473E-005  +3.4437602153E-005 +1.2635599705E-004  +9.7981637716E-001 -3.3469617367E-002 
7392565.707 +9.7594273090E-001 +2.6911094785E-002  -1.5507831995E-004 +9.5761744888E-005  +2.1041842047E-006 +6.6922904807E-005  +9.7990345955E-001 -3.3592611551E-002 
7517710.889 +9.7875386477E-001 +2.9565677047E-002  -1.6800333105E-004 +8.3303719293E-005  -2.2673462809E-005 -5.0304337492E-005  +9.7773706913E-001 -3.3093810081E-002 
7642856.070 +9.7530907393E-001 +2.4862334132E-002  +1.2847266044E-004 -3.6839392124E-006  +1.4454577467E-004 -2.5566114346E-004  +9.7406196594E-001 -3.2307475805E-002 
7768001.252 +9.8246586323E-001 +2.8302758932E-002  +3.1834116089E-004 +5.4794065363E-005  +1.3202548143E-004 -2.5397221907E-004  +9.7257280350E-001 -3.0218169093E-002 
7893146.433 +9.8666304350E-001 +2.5413855910E-002  -2.1211322746E-004 +5.1568011258E-005  -4.2064777517E-005 +6.1976410507E-005  +9.7547119856E-001 -2.3054167628E-002 
8018291.615 +9.8260504007E-001 +2.3165553808E-002  +1.5086281928E-004 -3.0544347828E-004  +1.7540016415E-005 -7.0486938057E-005  +9.7096270323E-001 -2.4917826056E-002 
8143436.796 +9.8057413101E-001 +1.9085049629E-002  +1.3989937725E-004 -1.3257759565E-004  +9.0910405561E-005 +1.1833303142E-004  +9.7576433420E-001 -2.1218612790E-002 
8268581.977 +9.8383814096E-001 +1.7314523458E-002  +5.2547038649E-005 -9.3300048320E-005  +6.0912643676E-006 -2.4914421374E-004  +9.7379910946E-001 -1.7550110817E-002 
8393727.159 +9.8562175035E-001 +1.4389723539E-002  +5.2264047554E-005 -1.0162720719E-004  -2.8998372727E-005 +5.9817481088E-005  +9.7384881973E-001 -1.8267512321E-002 
8518872.340 +9.8265218735E-001 +1.4913499355E-002  -2.1979490703E-004 +1.3116661285E-004  +2.6983208954E-005 -2.4948516511E-004  +9.7557163239E-001 -1.6221672297E-002 
8644017.522 +9.8181045055E-001 +2.0050972700E-002  -2.0270294044E-004 -1.1247018847E-005  +4.3559772166E-005 +1.1790633289E-004  +9.7448164225E-001 -1.4322459698E-002 
8769162.703 +9.8656523228E-001 +1.8387734890E-002  -1.2206735846E-004 +1.9242966664E-004  -5.0467897381E-005 -2.8304156149E-004  +9.7497147322E-001 -1.4120340347E-002 
8894307.885 +9.8442047834E-001 +1.6122817993E-002  -1.2358477397E-004 +2.0422168745E-005  +1.2572623382E-004 -3.9461156121E-006  +9.7250288725E-001 -1.2823700905E-002 
9019453.066 +9.8606699705E-001 +1.4358431101E-002  +6.3565028540E-005 -3.3275355236E-006  -3.8504116674E-005 +3.6985184124E-006  +9.7463220358E-001 -1.1840999126E-002 
9144598.248 +9.8623508215E-001 +1.3836652040E-002  -1.8435919628E-005 +2.6989232538E-006  +9.5682713436E-005 -1.1505864677E-005  +9.7541213036E-001 -8.5910260677E-003 
9269743.429 +9.8729777336E-001 +1.6075491905E-002  -8.3204628027E-005 +1.6974372556E-004  -5.2961229812E-005 -6.1363780333E-006  +9.7798341513E-001 -7.7409148216E-003 
9394888.611 +9.8954486847E-001 +1.7468512058E-002  -5.1088463806E-005 +6.9176894613E-005  -7.8241209849E-006 -8.2868486061E-005  +9.7734683752E-001 -9.8133683205E-003 
9520033.792 +9.8846095800E-001 +1.3737916946E-002  -5.0133287004E-005 -3.5630164348E-006  -7.1514528827E-005 +8.8705652161E-005  +9.7513169050E-001 -7.8757405281E-003 
9645178.974 +9.8962724209E-001 +1.3731062412E-002  +1.6638789020E-005 -4.1392839194E-005  -3.1336083339E-005 +2.4775696147E-005  +9.7443348169E-001 -6.8270862103E-003 
9770324.155 +9.8864620924E-001 +1.5400767326E-002  -2.0577714167E-005 -3.1681709515E-005  -1.6441903426E-005 -3.8069316361E-005  +9.7340762615E-001 -6.6713094711E-003 
9895469.337 +9.9046826363E-001 +1.6971021891E-002  -1.2819730910E-004 -2.6316411095E-006  +2.6888650609E-005 +4.6419976570E-005  +9.7391128540E-001 -6.5927207470E-003 
10020614.518 +9.8999094963E-001 +1.7818361521E-002  -7.7434451669E-006 -5.8173514844E-005  -4.3204476242E-005 -3.4968397813E-006  +9.7663414478E-001 -1.8387436867E-003 
10145759.700 +9.8990511894E-001 +1.5707463026E-002  -9.1186477221E-005 -3.3494048694E-005  +5.2096973377E-005 +2.1418563847E-006  +9.7788155079E-001 -4.7782063484E-003 
10270904.881 +9.9185657501E-001 +1.3245344162E-002  +7.4862741712E-006 +3.1069048418E-006  -7.2712275141E-005 +6.9720495958E-005  +9.7743934393E-001 -3.4409165382E-003 
10396050.063 +9.8874753714E-001 +1.2818753719E-002  -7.8596051026E-005 +9.8497126601E-005  -1.0348658543E-004 +5.8725745475E-005  +9.7731423378E-001 -2.3573040962E-003 
10521195.244 +9.8945808411E-001 +1.2145549059E-002  -4.5343942475E-005 +7.8906832641E-006  +1.8440738131E-005 +1.3994587789E-005  +9.7974866629E-001 +2.3853778839E-004 
10646340.426 +9.9021172523E-001 +1.0300427675E-002  +2.7549220249E-005 +1.1467695003E-004  +3.0249189876E-005 +3.2529220334E-005  +9.8001247644E-001 +7.9074501991E-004 
10771485.607 +9.8980665207E-001 +1.1667668819E-002  +3.2689677028E-005 +8.9927132649E-005  +3.9551181544E-005 +2.4334422051E-005  +9.8036646843E-001 +2.9885768890E-003 
10896630.788 +9.8969006538E-001 +1.1614769697E-002  -2.1074225515E-005 +3.5994391510E-005  +2.7726959161E-005 +1.4222504433E-005  +9.8089915514E-001 +3.0966997147E-003 
11021775.970 +9.8902249336E-001 +1.2497901917E-002  -4.7493944294E-005 +4.6707562433E-005  -1.5120615899E-005 +1.0439498510E-007  +9.8093116283E-001 +3.5757124424E-003 
11146921.151 +9.9074846506E-001 +1.0299354792E-002  +8.6784893938E-006 -7.5370026025E-006  -4.0834011088E-006 +8.8780780061E-006  +9.8202824593E-001 +4.1586756706E-003 
11272066.333 +9.8857307434E-001 +9.4864368439E-003  +3.6789551814E-005 +1.8076239940E-005  -6.2040635385E-005 +5.1950795751E-005  +9.7952854633E-001 +2.6234686375E-003 
11397211.514 +9.9002325535E-001 +9.5753371716E-003  +3.6721965444E-005 -7.7967761172E-006  -7.6594733400E-005 +8.7349835667E-005  +9.7989177704E-001 +3.2064616680E-003 
11522356.696 +9.8983138800E-001 +9.6602737904E-003  -4.9933432820E-006 +7.3028525094E-007  -6.4790492615E-006 +4.9024813052E-005  +9.8218417168E-001 +2.3853778839E-003 
11647501.877 +9.8914718628E-001 +1.0199189186E-002  +1.1754232219E-005 +4.7377932788E-005  -4.8712041462E-005 -3.6233723222E-007  +9.8147714138E-001 +4.3393373489E-003 
11772647.059 +9.8978787661E-001 +1.0726511478E-002  +9.1691463240E-006 -2.8569662391E-005  -3.0820920074E-005 -1.4853698303E-005  +9.8225879669E-001 +2.7667880058E-003 
11897792.240 +9.8942005634E-001 +1.1371642351E-002  +1.4163762899E-005 -8.9651848612E-006  -8.1032834714E-005 +1.1440231901E-005  +9.8268431425E-001 +4.1037499905E-003 
12022937.422 +9.9147748947E-001 +1.1245369911E-002  -2.4197750463E-005 +8.1813370343E-005  +5.3386494983E-005 +6.1438477132E-005  +9.8271054029E-001 +3.9795637131E-003 
12148082.603 +9.9184691906E-001 +9.9619030952E-003  +3.5033208405E-005 +5.8756922954E-005  -2.0487084839E-005 +2.7930847864E-005  +9.8413276672E-001 +6.5661966801E-003 
12273227.785 +9.9058401585E-001 +1.2274295092E-002  -5.7083725551E-005 +2.2360756702E-005  -8.0994304881E-006 +1.8501963496E-005  +9.8366266489E-001 +4.8597157001E-003 
12398372.966 +9.9088412523E-001 +1.1452674866E-002  +5.5196514950E-006 +6.5530339270E-006  +2.6012396120E-005 +9.5934065030E-006  +9.8462331295E-001 +4.6657621861E-003 
12523518.148 +9.8938500881E-001 +1.1278927326E-002  +9.8621339930E-006 +6.4058884163E-005  +1.0027824828E-006 +4.8243869969E-005  +9.8308068514E-001 +4.8490464687E-003 
12648663.329 +9.9073487520E-001 +1.1881396174E-002  -2.0182866137E-005 +1.8110951714E-005  -5.4860451201E-005 +2.7572488762E-005  +9.8525476456E-001 +4.6894550323E-003 
12773808.511 +9.9024415016E-001 +8.6274296045E-003  +2.2683334464E-005 +4.7485391406E-005  -5.0573294175E-006 +1.3083185877E-005  +9.8461866379E-001 +5.3694844246E-003 
12898953.692 +9.9182540178E-001 +9.6630305052E-003  -7.2883703979E-005 +1.8184236978E-006  -1.5471236111E-005 +8.2034002844E-006  +9.8515886068E-001 +5.5928379297E-003 
13024098.874 +9.9107110500E-001 +1.0356940329E-002  -2.4924394893E-005 +2.2890719265E-005  -5.3767096688E-005 +3.3693169826E-005  +9.8559117317E-001 +7.9669952393E-003 
13149244.055 +9.9127227068E-001 +1.0568561032E-002  +1.2319924281E-006 +4.1849631089E-005  +1.2114840047E-006 +2.7925845643E-005  +9.8599821329E-001 +7.4024759233E-003 
13274389.237 +9.9086725712E-001 +1.0799716227E-002  -2.4127086363E-005 +6.1877020926E-005  +6.7862570177E-006 +4.3850130169E-005  +9.8717236519E-001 +6.7528877407E-003 
13399534.418 +9.9065434933E-001 +1.0935433209E-002  +1.9897650418E-005 +3.3628086385E-005  +1.2435633835E-005 +4.0883056499E-005  +9.8556405306E-001 +7.7719986439E-003 
13524679.599 +9.9066704512E-001 +1.1424712837E-002  +4.6637160267E-007 +9.9866207165E-005  +1.4332166757E-005 +7.2864568210E-005  +9.8664492369E-001 +7.4048787355E-003 
13649824.781 +9.9175226688E-001 +1.0520488024E-002  -2.3436294214E-005 +6.3365667302E-005  -1.2082067769E-005 +6.4256797486E-005  +9.8799473047E-001 +6.7296624184E-003 
13774969.962 +9.9196875095E-001 +1.1201262474E-002  -2.1196698071E-005 +3.8482961827E-005  -9.1513666121E-006 +2.3334694561E-005  +9.8763036728E-001 +7.2048455477E-003 
13900115.144 +9.9180680513E-001 +1.2526243925E-002  +3.9004349674E-005 +4.4910611905E-005  -1.9477638489E-005 +4.3531879783E-005  +9.8683679104E-001 +7.8868865967E-003 
14025260.325 +9.9085819721E-001 +1.2029349804E-002  -1.6470257833E-006 +3.5304827179E-005  +9.4813949545E-006 +7.2544542491E-005  +9.8748213053E-001 +8.5413753986E-003 
14150405.507 +9.9180990458E-001 +1.2781769037E-002  -4.3124207878E-005 +3.4801669244E-005  -6.2765193434E-006 +3.7190911826E-005  +9.8796224594E-001 +8.4962248802E-003 
14275550.688 +9.9143117666E-001 +1.1916697025E-002  -2.5467890737E-005 +5.1403927500E-005  +1.4622728486E-005 +1.1851180898E-004  +9.8801815510E-001 +7.5739324093E-003 
14400695.870 +9.9057459831E-001 +1.0940879583E-002  -6.8668596214E-006 +4.0960690967E-005  -2.9334622013E-005 +9.7014410130E-005  +9.8804229498E-001 +8.0112516880E-003 
