!  2-Port S-parameters saved by WinCal
! VAR MeasName=S-Parameters (CALIBRATED_DATA) read from VNA (P5004A)
! VAR MeasDate=22/05/2024 17:50:57
! VAR NAME=Wafer2_r2_c1_pristine_pos0.4dc
! VAR FILENAME=Wafer2_r2_c1_pristine_pos0.4dc.S2P
! VAR DATE=22/05/2024 17:50:57
! VAR PHYS_PORTS=1,2
! VAR ObjTypeName=DATASET
! VAR IndexType=Frequency
!
# Hz S RI R 50
9000.000 +2.2605554760E-001 -5.8025836945E-001  -9.6188522875E-003 +6.2366286293E-003  -4.1840611957E-003 -1.6144244000E-003  +7.1716874838E-002 +1.1816552281E-001 
134145.181 +6.4790141582E-001 -6.8276233971E-002  -1.0756568518E-003 -2.1167883649E-002  -9.1729881242E-003 -1.2453827076E-002  -1.2728044391E-001 -3.5500961542E-001 
259290.363 +8.1418681145E-001 -1.5318182111E-001  +2.8123538941E-003 -4.0031792596E-003  -1.2439107522E-002 -9.3625402078E-003  +1.0118601322E+000 -1.0072782040E+000 
384435.544 +8.7941145897E-001 -3.0051791668E-001  +9.6940740943E-002 +6.7060906440E-003  +4.0852513164E-002 +1.8828744069E-002  +5.3266396523E+000 -3.3248937130E+000 
509580.726 +9.5395839214E-001 -1.7704448104E-001  +4.1618705727E-003 -1.9807950594E-005  -3.6610485986E-003 -4.7353201080E-004  +1.7194974422E+000 -5.7454341650E-001 
634725.907 +1.1004644632E+000 -2.0683184266E-001  +2.5755586103E-003 -3.6046532914E-003  +5.3856419399E-003 -3.3291198779E-003  +3.1182770729E+000 +2.6969122887E-001 
759871.089 +1.2586365938E+000 -2.0671427250E-002  +1.6851569526E-003 -3.5708816722E-004  +7.0347305154E-005 +7.1568787098E-004  +1.4322463274E+000 +4.2840564251E-001 
885016.270 +1.2294512987E+000 -1.1677582562E-001  -1.0537466733E-003 -7.8484765254E-005  -2.6669987710E-004 +1.4506412845E-004  +1.1959153414E+000 +5.1073193550E-001 
1010161.452 +1.3315336704E+000 -7.8488051891E-002  -5.1873066695E-005 -7.3149363743E-004  -6.3020922244E-004 -2.3882894311E-004  +1.1875427961E+000 +5.1148498058E-001 
1135306.633 +1.4786112309E+000 -1.4408530295E-001  +7.1044210927E-005 +9.8152777355E-005  +3.3235285082E-004 -4.6381016728E-004  +1.3065580130E+000 +6.3182747364E-001 
1260451.815 +1.6673974991E+000 -1.1969852448E-001  +3.2831492717E-004 -9.2993577709E-006  -8.2471859059E-005 +2.4196504091E-004  +1.0980541706E+000 +7.1672195196E-001 
1385596.996 +1.4290333986E+000 -1.0844647884E-001  -7.5501986430E-005 +3.7974529550E-004  +1.5769584570E-004 +1.9775709370E-004  +9.8569834232E-001 +4.8625728488E-001 
1510742.178 +1.6851996183E+000 -1.0313105583E-001  -2.9404885936E-005 +3.1888623198E-005  +1.5301680833E-005 -1.6104488168E-005  +6.7655622959E-001 +5.7371300459E-001 
1635887.359 +1.1833277941E+000 -3.7733426690E-001  +2.5199275115E-005 -3.7204430555E-005  +3.6027887836E-004 +2.2760831052E-004  +1.5201939344E+000 +6.3354593515E-001 
1761032.541 +1.3714904785E+000 -2.7039077878E-001  -2.9870154685E-004 +9.0922192612E-005  +8.3469138190E-005 +2.8740084963E-004  +1.1023559570E+000 +8.2537335157E-001 
1886177.722 +1.2980308533E+000 -1.9436842203E-001  -1.8929164798E-004 +8.9066961664E-005  -1.3171044702E-004 +8.0891702964E-005  +1.1429541111E+000 +5.5691248178E-001 
2011322.904 +1.3012348413E+000 -1.8544045091E-001  -1.6587815480E-005 +4.5794260222E-004  -1.0463834042E-004 +3.6913319491E-004  +1.1571651697E+000 +5.2467858791E-001 
2136468.085 +1.3030985594E+000 -1.1189620197E-001  -1.5984167112E-004 +1.8564031052E-004  -1.6825701459E-004 +3.3410161268E-004  +1.0967967510E+000 +4.7575902939E-001 
2261613.267 +1.3324956894E+000 -9.3896888196E-002  -4.8724320368E-004 +2.3036237690E-004  -1.4688151714E-004 +2.5283629657E-004  +1.0537091494E+000 +5.1390033960E-001 
2386758.448 +1.3600713015E+000 -1.0013470054E-001  -2.4487869814E-004 +2.6487983996E-004  -3.6636221921E-004 +7.6423923019E-004  +1.0729156733E+000 +5.4428845644E-001 
2511903.630 +1.4222900867E+000 -1.1096352339E-001  -5.1459856331E-004 +3.4441630123E-004  -6.2979606446E-004 +3.5799760371E-004  +1.1171125174E+000 +5.7835090160E-001 
2637048.811 +1.4367694855E+000 -1.4495569468E-001  -1.0589766316E-003 +2.9392787837E-004  -4.8029795289E-004 -6.3266721554E-005  +1.1274282932E+000 +6.0790878534E-001 
2762193.992 +1.3820676804E+000 -1.0765075684E-001  -4.6212447342E-004 +3.0324602267E-004  -8.6294231005E-004 +6.2543910462E-004  +1.1431727409E+000 +5.0499075651E-001 
2887339.174 +1.4281392097E+000 -6.0588002205E-002  -7.5192603981E-004 +4.5375892660E-004  -1.9692804199E-004 +9.2563161161E-004  +1.0031465292E+000 +5.0085377693E-001 
3012484.355 +1.4998173714E+000 -4.7294795513E-002  -5.2354688523E-004 +1.1954847723E-003  -6.5075891325E-004 +1.8638427719E-004  +9.5160251856E-001 +6.0621345043E-001 
3137629.537 +1.5408060551E+000 -6.4527869225E-002  -1.0737931589E-003 +5.8507209178E-004  -6.7253754241E-004 +1.0484512895E-003  +9.7410631180E-001 +7.1606826782E-001 
3262774.718 +1.5709214211E+000 -9.3535840511E-002  -9.6987164579E-004 +7.7066058293E-004  -1.0467597749E-003 +1.2069867225E-003  +1.0226452351E+000 +7.7993780375E-001 
3387919.900 +1.6177382469E+000 -1.2635159492E-001  +1.1727651581E-003 +7.3897547554E-004  -9.4424153212E-004 +1.3064353261E-003  +1.0640926361E+000 +8.4842163324E-001 
3513065.081 +1.6829978228E+000 -1.6408067942E-001  -8.2283111988E-004 +2.0613023080E-003  -1.5091559617E-003 +6.1442540027E-004  +1.1037875414E+000 +9.2222231627E-001 
3638210.263 +1.7558153868E+000 -2.3288005590E-001  +2.2623740369E-004 +2.1486091428E-003  -1.6474004369E-003 +8.4853504086E-004  +1.1869337559E+000 +9.5309406519E-001 
3763355.444 +1.8091242313E+000 -3.0244344473E-001  -1.7042543041E-003 +1.6495315358E-003  -1.6388761578E-003 +1.3139985967E-003  +1.2952756882E+000 +9.8953390121E-001 
3888500.626 +1.8489737511E+000 -4.4438841939E-001  -2.4582499173E-003 +2.3669868242E-003  -1.8861817662E-003 +2.1626099478E-003  +1.3827648163E+000 +1.0544776917E+000 
4013645.807 +1.5019892454E+000 -7.3925876617E-001  -9.4900839031E-005 +2.7694562450E-003  -9.9310872611E-004 +3.2477574423E-003  +1.6495282650E+000 +8.3785367012E-001 
4138790.989 +1.0810654163E+000 -8.2942968607E-001  +9.6111273160E-004 +3.2354991417E-003  +4.4610421173E-004 +2.3520190734E-003  +1.7764250040E+000 +5.2010148764E-001 
4263936.170 +1.0254386663E+000 -8.3824813366E-001  +8.5598963778E-005 +2.8355789836E-003  +9.1897579841E-004 +3.4610677976E-003  +1.8298401833E+000 +4.2238292098E-001 
4389081.352 +9.3418699503E-001 -8.4830546379E-001  +1.0078928899E-003 +3.4717288800E-003  -1.7288222443E-004 +3.4690215252E-003  +1.8657866716E+000 +2.9201453924E-001 
4514226.533 +8.8029211760E-001 -8.4709781408E-001  +1.3046105159E-003 +2.1391964983E-003  +1.0920839850E-003 +3.9119515568E-003  +1.8964723349E+000 +2.0174778998E-001 
4639371.715 +8.1280839443E-001 -8.3655494452E-001  +7.8106718138E-004 +2.2221426480E-003  +1.3651417103E-003 +3.6828180309E-003  +1.8940438032E+000 +1.2755148113E-001 
4764516.896 +7.4268096685E-001 -8.0685430765E-001  +1.3893671567E-003 +2.5333366357E-003  +1.9912817515E-003 +2.9037466738E-003  +1.9035593271E+000 +2.6735767722E-002 
4889662.078 +6.9329941273E-001 -7.7934783697E-001  +1.1593441013E-003 +2.3480730597E-003  +7.8988214955E-004 +2.5318711996E-003  +1.8958067894E+000 -4.3430939317E-002 
5014807.259 +6.2539011240E-001 -7.6591998339E-001  +1.4795167372E-003 +2.7431386989E-003  +1.1606602930E-003 +2.6555838995E-003  +1.8436627388E+000 -1.1065597832E-001 
5139952.441 +5.8427083492E-001 -7.4178135395E-001  +1.5788441524E-003 +1.8642052310E-003  +1.5738343354E-003 +2.8225320857E-003  +1.8202768564E+000 -2.0030218363E-001 
5265097.622 +5.5593836308E-001 -6.9027537107E-001  +1.2543657795E-003 +1.8970271340E-003  +1.2400905835E-003 +3.0068727210E-003  +1.7739374638E+000 -2.6989859343E-001 
5390242.804 +5.0911831856E-001 -6.5534693003E-001  +1.3604632113E-003 +2.4795604404E-003  +1.7480243696E-003 +2.4019598495E-003  +1.7264710665E+000 -3.0958116055E-001 
5515387.985 +4.6922174096E-001 -6.1934280396E-001  +1.6217629891E-003 +2.2967432160E-003  +1.0063431691E-003 +2.3058280349E-003  +1.6897605658E+000 -3.8460943103E-001 
5640533.166 +4.3737179041E-001 -5.7943779230E-001  +1.2734357733E-003 +2.2294649389E-003  +9.8851765506E-004 +2.6952987537E-003  +1.6548124552E+000 -4.0872490406E-001 
5765678.348 +4.0790891647E-001 -5.3482103348E-001  +9.4853923656E-004 +1.9622885156E-003  +9.1236567823E-004 +2.5270085316E-003  +1.6020115614E+000 -4.4227421284E-001 
5890823.529 +3.8872179389E-001 -4.9036782980E-001  +7.9025019659E-004 +2.7244926896E-003  +7.9739332432E-004 +2.6888148859E-003  +1.5370674133E+000 -4.7395032644E-001 
6015968.711 +3.6741790175E-001 -4.4774058461E-001  +6.3298584428E-004 +2.4577127770E-003  +1.2031642254E-003 +2.3759531323E-003  +1.5025411844E+000 -4.9036985636E-001 
6141113.892 +3.4659245610E-001 -4.1561746597E-001  +9.5310818870E-004 +1.8132862169E-003  +1.1867637513E-003 +1.8973792903E-003  +1.4368073940E+000 -5.0526595116E-001 
6266259.074 +3.3085903525E-001 -3.6456310749E-001  +8.6078088498E-004 +2.5631897151E-003  +1.0806957725E-003 +2.0346823148E-003  +1.3896044493E+000 -5.1892226934E-001 
6391404.255 +3.2210093737E-001 -3.2215249538E-001  +7.8035792103E-004 +2.0496884827E-003  +9.6239434788E-004 +2.2416291758E-003  +1.3336381912E+000 -5.3807973862E-001 
6516549.437 +3.0414101481E-001 -2.8853899240E-001  +6.7485729232E-004 +2.0747415256E-003  +7.6048943447E-004 +2.3511601612E-003  +1.2950880527E+000 -5.4132044315E-001 
6641694.618 +2.9784682393E-001 -2.4027107656E-001  +8.3396211267E-004 +2.1702093072E-003  +8.2532415399E-004 +2.0832305308E-003  +1.2589544058E+000 -5.3861755133E-001 
6766839.800 +2.8993186355E-001 -2.0188549161E-001  +7.5676769484E-004 +2.4083824828E-003  +6.3881825190E-004 +2.3889457807E-003  +1.2141234875E+000 -5.4070258141E-001 
6891984.981 +2.9000213742E-001 -1.6468419135E-001  +3.4636823693E-004 +2.2446520161E-003  +2.7561726165E-004 +2.1674218588E-003  +1.1675205231E+000 -5.3794693947E-001 
7017130.163 +2.8092870116E-001 -1.2882609665E-001  +4.6765009756E-004 +2.1167306695E-003  +5.3287716582E-004 +2.0691470709E-003  +1.1394151449E+000 -5.2640503645E-001 
7142275.344 +2.7396753430E-001 -8.8849417865E-002  +4.0331354830E-004 +2.3143200669E-003  +1.6882101772E-004 +2.3228391074E-003  +1.1083163023E+000 -5.2329093218E-001 
7267420.526 +2.7626326680E-001 -4.8595748842E-002  +2.5045094662E-004 +2.3522158153E-003  +2.3954466451E-004 +2.3506258149E-003  +1.0774263144E+000 -5.0728267431E-001 
7392565.707 +2.7590641379E-001 -4.8361625522E-003  +1.6395855346E-004 +2.5336400140E-003  +2.0383522497E-004 +2.4477504194E-003  +1.0470592976E+000 -4.9994593859E-001 
7517710.889 +2.7871420979E-001 +2.9506444931E-002  +3.6948593333E-005 +2.5937657338E-003  +3.6700547207E-004 +2.2146080155E-003  +1.0194634199E+000 -4.8872011900E-001 
7642856.070 +2.7550601959E-001 +6.7953422666E-002  +1.6986683477E-004 +2.4943919852E-003  +2.0374485757E-005 +2.4022541475E-003  +9.8491603136E-001 -4.7893404961E-001 
7768001.252 +2.8458020091E-001 +1.0478562117E-001  -7.6133073890E-005 +2.4300834630E-003  -1.1061766418E-004 +2.5283289142E-003  +9.5966291428E-001 -4.6489191055E-001 
7893146.433 +2.9021239281E-001 +1.4766663313E-001  +1.4602730516E-005 +2.5111210998E-003  -5.9245881857E-005 +2.4363182019E-003  +9.3832695484E-001 -4.4603937864E-001 
8018291.615 +3.0062901974E-001 +1.9210147858E-001  -9.6338073490E-005 +2.6718366425E-003  -1.0854827997E-004 +2.4701477960E-003  +9.0805232525E-001 -4.3812647462E-001 
8143436.796 +3.0604428053E-001 +2.2665017843E-001  -2.7676636819E-004 +2.8246273287E-003  -3.6730655120E-004 +2.7087845374E-003  +8.9766508341E-001 -4.1966187954E-001 
8268581.977 +3.1559354067E-001 +2.6284930110E-001  -4.1595983203E-004 +2.8066346422E-003  -4.7344723134E-004 +2.7185899671E-003  +8.7598252296E-001 -4.0130048990E-001 
8393727.159 +3.3182123303E-001 +2.9986554384E-001  -5.2333553322E-004 +2.9190052301E-003  -2.9899409856E-004 +2.7795976494E-003  +8.6233144999E-001 -3.8530790806E-001 
8518872.340 +3.4827351570E-001 +3.4636163712E-001  -4.8687824165E-004 +2.6800921187E-003  -3.6594062112E-004 +2.6649045758E-003  +8.4164166451E-001 -3.6880463362E-001 
8644017.522 +3.6272025108E-001 +3.8069450855E-001  -6.8652367918E-004 +3.0145423952E-003  -5.2557827439E-004 +3.0075819232E-003  +8.3402550220E-001 -3.5652559996E-001 
8769162.703 +3.8730165362E-001 +4.2051631212E-001  -6.7774479976E-004 +3.1167005654E-003  -7.3305232218E-004 +3.0917867552E-003  +8.1680184603E-001 -3.4011662006E-001 
8894307.885 +4.1151985526E-001 +4.5802778006E-001  -6.6131935455E-004 +2.9762927443E-003  -7.3211034760E-004 +3.0171126127E-003  +8.0235236883E-001 -3.2881969213E-001 
9019453.066 +4.3582469225E-001 +4.9449199438E-001  -9.0437685139E-004 +3.1365700997E-003  -8.9095660951E-004 +3.2917573117E-003  +7.8888779879E-001 -3.1128764153E-001 
9144598.248 +4.6476173401E-001 +5.3370285034E-001  -9.2267204309E-004 +3.3935531974E-003  -9.6363271587E-004 +3.2901435625E-003  +7.7831631899E-001 -2.9157829285E-001 
9269743.429 +4.9614247680E-001 +5.6931269169E-001  -1.0552693857E-003 +3.3842613921E-003  -9.9960644729E-004 +3.5431117285E-003  +7.6784318686E-001 -2.7774584293E-001 
9394888.611 +5.2971237898E-001 +6.0691452026E-001  -1.2762786355E-003 +3.5690781660E-003  -1.2014902895E-003 +3.6584166810E-003  +7.5904440880E-001 -2.6427668333E-001 
9520033.792 +5.7081276178E-001 +6.3997662067E-001  -1.1065554572E-003 +3.5930951126E-003  -1.2485231273E-003 +3.5929409787E-003  +7.5192940235E-001 -2.4159185588E-001 
9645178.974 +6.1339056492E-001 +6.7243844271E-001  -1.3362966711E-003 +3.9016145747E-003  -1.2840654235E-003 +3.7900428288E-003  +7.4384385347E-001 -2.2643208504E-001 
9770324.155 +6.5506708622E-001 +6.9888103008E-001  -1.3424472418E-003 +4.1094939224E-003  -1.4031806495E-003 +3.9321128279E-003  +7.3657184839E-001 -2.0904013515E-001 
9895469.337 +7.0437091589E-001 +7.2770845890E-001  -1.4977829996E-003 +4.1040265933E-003  -1.3463622890E-003 +4.0873819962E-003  +7.3051917553E-001 -1.9120255113E-001 
10020614.518 +7.5406098366E-001 +7.4960374832E-001  -1.5443651937E-003 +4.3225004338E-003  -1.4977552928E-003 +4.3107024394E-003  +7.2844505310E-001 -1.7494633794E-001 
10145759.700 +8.0820828676E-001 +7.6708531380E-001  -1.5921182930E-003 +4.4408491813E-003  -1.4621011214E-003 +4.5263096690E-003  +7.2376382351E-001 -1.6013458371E-001 
10270904.881 +8.6793076992E-001 +7.8518831730E-001  -1.4630919322E-003 +4.6736751683E-003  -1.4762980863E-003 +4.7342241742E-003  +7.2178208828E-001 -1.4464214444E-001 
10396050.063 +9.2696696520E-001 +7.9215717316E-001  -1.5755001223E-003 +4.8350496218E-003  -1.5872862423E-003 +4.8674275167E-003  +7.1761119366E-001 -1.2721526623E-001 
10521195.244 +9.8472201824E-001 +7.9813379049E-001  -1.6049065161E-003 +5.0531304441E-003  -1.6757223057E-003 +5.0314585678E-003  +7.1819877625E-001 -1.1110836267E-001 
10646340.426 +1.0421986580E+000 +7.9747694731E-001  -1.7213398824E-003 +5.2397907712E-003  -1.6614024062E-003 +5.2022160962E-003  +7.1398955584E-001 -9.7511798143E-002 
10771485.607 +1.1063926220E+000 +7.8906393051E-001  -1.6813053517E-003 +5.4736882448E-003  -1.6185019631E-003 +5.4704658687E-003  +7.1579706669E-001 -8.0573618412E-002 
10896630.788 +1.1642599106E+000 +7.7725780010E-001  -1.6872681445E-003 +5.6133694015E-003  -1.7131656641E-003 +5.6364685297E-003  +7.1545684338E-001 -6.4511388540E-002 
11021775.970 +1.2228288651E+000 +7.5699377060E-001  -1.6427726950E-003 +5.8596525341E-003  -1.5991507098E-003 +5.8435490355E-003  +7.1639645100E-001 -5.1401883364E-002 
11146921.151 +1.2841396332E+000 +7.3173898458E-001  -1.5777810477E-003 +5.9714894742E-003  -1.6723615117E-003 +6.0221012682E-003  +7.1868431568E-001 -3.5591095686E-002 
11272066.333 +1.3379683495E+000 +6.9853436947E-001  -1.4545074664E-003 +6.2054698355E-003  -1.4380230568E-003 +6.2655862421E-003  +7.1980214119E-001 -2.1294504404E-002 
11397211.514 +1.3886568546E+000 +6.6677308083E-001  -1.5122767072E-003 +6.3669662923E-003  -1.4609806240E-003 +6.4542111941E-003  +7.2364914417E-001 -7.5696408749E-003 
11522356.696 +1.4366230965E+000 +6.2631034851E-001  -1.3876869343E-003 +6.5679103136E-003  -1.3597060461E-003 +6.6038789228E-003  +7.2840464115E-001 +7.4089467525E-003 
11647501.877 +1.4737758636E+000 +5.8080017567E-001  -1.2901711743E-003 +6.7878765985E-003  -1.3039859477E-003 +6.7353267223E-003  +7.3139584064E-001 +2.1209478378E-002 
11772647.059 +1.5129032135E+000 +5.3399646282E-001  -1.2447678018E-003 +6.9845421240E-003  -1.2467275374E-003 +6.9101611152E-003  +7.3558676243E-001 +3.4488558769E-002 
11897792.240 +1.5450167656E+000 +4.8382097483E-001  -1.0878259782E-003 +7.1165282279E-003  -1.1180797592E-003 +7.0789703168E-003  +7.4165320396E-001 +4.6250820160E-002 
12022937.422 +1.5727174282E+000 +4.3398904800E-001  -9.6423644572E-004 +7.2487271391E-003  -9.4313663431E-004 +7.2790272534E-003  +7.4650406837E-001 +5.9057086706E-002 
12148082.603 +1.5912929773E+000 +3.7692570686E-001  -8.4580294788E-004 +7.3727266863E-003  -8.6447573267E-004 +7.3696975596E-003  +7.5471097231E-001 +7.2088316083E-002 
12273227.785 +1.6054524183E+000 +3.2569935918E-001  -7.5587700121E-004 +7.4746543542E-003  -7.4332952499E-004 +7.5116590597E-003  +7.6124483347E-001 +8.5086986423E-002 
12398372.966 +1.6141662598E+000 +2.7377188206E-001  -5.2690866869E-004 +7.5835580938E-003  -5.8752100449E-004 +7.6295472682E-003  +7.6974296570E-001 +9.6069961786E-002 
12523518.148 +1.6147826910E+000 +2.2143751383E-001  -4.4945045374E-004 +7.6464931481E-003  -4.8809172586E-004 +7.6249768026E-003  +7.7664601803E-001 +1.0633175075E-001 
12648663.329 +1.6174379587E+000 +1.7250356078E-001  -3.5167101305E-004 +7.7259233221E-003  -3.7162750959E-004 +7.7811861411E-003  +7.8561496735E-001 +1.1747169495E-001 
12773808.511 +1.6097921133E+000 +1.2250427902E-001  -2.3231201340E-004 +7.7854804695E-003  -2.5615654886E-004 +7.8304875642E-003  +7.9570889473E-001 +1.2674587965E-001 
12898953.692 +1.6032844782E+000 +7.7278211713E-002  -5.5986980442E-005 +7.8831771389E-003  -1.0625395225E-004 +7.8412033617E-003  +8.0401885509E-001 +1.3529342413E-001 
13024098.874 +1.5893502235E+000 +3.6018230021E-002  +4.0771483327E-005 +7.9408716410E-003  -3.7204983528E-005 +7.8853275627E-003  +8.1385517120E-001 +1.4479057491E-001 
13149244.055 +1.5757069588E+000 -2.9491297901E-003  +7.2664901381E-005 +7.9917339608E-003  +1.0970063158E-004 +7.9229027033E-003  +8.2477927208E-001 +1.5338861942E-001 
13274389.237 +1.5577979088E+000 -4.1119813919E-002  +2.1613069111E-004 +7.9844407737E-003  +2.4289556313E-004 +8.0105494708E-003  +8.3649075031E-001 +1.6236406565E-001 
13399534.418 +1.5381335020E+000 -7.5223028660E-002  +3.0775368214E-004 +8.0772014335E-003  +3.2313691918E-004 +8.0606117845E-003  +8.4621250629E-001 +1.6848693788E-001 
13524679.599 +1.5180034637E+000 -1.0493925214E-001  +4.2948115151E-004 +8.1344516948E-003  +4.1737547144E-004 +8.0425245687E-003  +8.5826843977E-001 +1.7496478558E-001 
13649824.781 +1.4965140820E+000 -1.3571965694E-001  +5.2678445354E-004 +8.0988658592E-003  +5.5473984685E-004 +8.0551132560E-003  +8.7064522505E-001 +1.8040125072E-001 
13774969.962 +1.4734539986E+000 -1.6103512049E-001  +6.2141986564E-004 +8.1183919683E-003  +6.3224695623E-004 +8.1289187074E-003  +8.8171476126E-001 +1.8557265401E-001 
13900115.144 +1.4510561228E+000 -1.8371185660E-001  +7.2307512164E-004 +8.1331450492E-003  +7.0973765105E-004 +8.1175733358E-003  +8.9349412918E-001 +1.8883708119E-001 
14025260.325 +1.4269914627E+000 -2.0233544707E-001  +7.4239796959E-004 +8.1016840413E-003  +7.7789346687E-004 +8.1300195307E-003  +9.0562218428E-001 +1.9236893952E-001 
14150405.507 +1.4039782286E+000 -2.1926438808E-001  +7.6571246609E-004 +8.1187430769E-003  +8.2556996495E-004 +8.1426100805E-003  +9.1886234283E-001 +1.9599609077E-001 
14275550.688 +1.3794854879E+000 -2.3608243465E-001  +8.8760606013E-004 +8.1292930990E-003  +8.8018621318E-004 +8.1379879266E-003  +9.3141651154E-001 +1.9753873348E-001 
14400695.870 +1.3548809290E+000 -2.4984800816E-001  +9.8647177219E-004 +8.1342551857E-003  +9.4809825532E-004 +8.1284595653E-003  +9.4354379177E-001 +1.9946220517E-001 
