!  2-Port S-parameters saved by WinCal
! VAR NAME=Wafer2_r10_c5_open
! VAR DATE=22/05/2024 16:47:30
! VAR FILENAME=Wafer2_r10_c5_open.S2P
! VAR MeasName=S-Parameters (CALIBRATED_DATA) read from VNA (P5004A)
! VAR MeasDate=22/05/2024 16:46:33
! VAR PHYS_PORTS=1,2
! VAR ObjTypeName=DATASET
! VAR IndexType=Frequency
!
# Hz S RI R 50
9000.000 +2.5187677145E-001 -5.0300633907E-001  -2.6579424739E-003 -2.2483994067E-001  -4.3318077922E-002 +2.9429368675E-002  +3.0174660683E-001 -2.0067699254E-002 
134145.181 +6.8715626001E-001 +8.0528289080E-002  -4.2239017785E-004 -3.3669687808E-002  +4.6065975912E-003 -2.9682298191E-003  +9.5211946964E-001 -1.5938630700E-001 
259290.363 +8.5132384300E-001 -5.9110198170E-002  -2.1085320623E-004 -8.2089733332E-003  +3.9772267337E-004 -4.8711090349E-003  +1.0198912621E+000 -9.4112336636E-002 
384435.544 +9.2285263538E-001 -2.1992732584E-001  -5.2161328495E-003 -2.6111758780E-004  -3.2895768527E-003 -6.4839529805E-003  +1.0945625305E+000 -1.0941712558E-001 
509580.726 +9.7749614716E-001 -1.2317648530E-001  +1.2632684084E-003 -4.6092463890E-005  -9.9205563311E-004 +8.1673599198E-005  +1.0501197577E+000 -5.7994365692E-002 
634725.907 +1.0699938536E+000 -1.3193818927E-001  +1.1347080581E-003 +1.5344918938E-004  -1.0630100733E-003 +1.8868935294E-003  +1.0739395618E+000 -4.2160421610E-002 
759871.089 +1.1481714249E+000 -5.0866007805E-002  -1.1926178122E-003 +7.2435545735E-004  -1.0933552403E-003 +7.5313553680E-004  +1.0828411579E+000 -2.9678940773E-003 
885016.270 +1.0618093014E+000 -6.7365944386E-002  -1.7137853429E-003 -3.4427241189E-004  -6.8486481905E-004 +3.1245886348E-003  +1.0871456861E+000 +1.4845997095E-002 
1010161.452 +1.1589472294E+000 -4.9318373203E-002  +3.1709596515E-003 +8.7512738537E-004  +1.4752428979E-003 -3.7781373248E-004  +1.0307269096E+000 -1.7675161362E-003 
1135306.633 +1.1783908606E+000 -6.6758394241E-002  +9.2471740209E-004 +1.6032798449E-003  -7.8708631918E-004 -3.8419268094E-003  +1.0816864967E+000 +3.6153733730E-002 
1260451.815 +1.3244738579E+000 -6.3814043999E-002  +1.2220900971E-003 -5.0058594206E-004  +5.7752372231E-004 +3.4143138328E-004  +1.1151378155E+000 +5.7107508183E-002 
1385596.996 +1.2413661480E+000 -1.1086615920E-001  -7.3533051182E-004 -1.7791727441E-004  -6.0938991373E-004 +1.6785805346E-003  +1.1143238544E+000 +4.8274904490E-002 
1510742.178 +1.3436909914E+000 -1.3038450480E-001  +3.6949501373E-004 +1.3523601228E-004  -6.0330476845E-004 -2.0581006538E-005  +1.1853377819E+000 +5.0310373306E-002 
1635887.359 +9.8327475786E-001 -2.3372338712E-001  +1.7258693697E-004 -1.4431406744E-003  -6.7685951944E-004 -8.3931389963E-004  +1.0633573532E+000 -8.2365885377E-002 
1761032.541 +1.0502409935E+000 -2.1922186017E-001  -2.5018316228E-004 +6.3139974372E-004  +2.0427186973E-004 -9.9618293461E-005  +1.0567609072E+000 -4.6131134033E-002 
1886177.722 +1.0151822567E+000 -1.2002032995E-001  -6.1777583323E-004 -2.3719744058E-004  +3.3846131992E-003 -1.9881189801E-003  +1.0428950787E+000 -1.7211019993E-002 
2011322.904 +1.0258381367E+000 -7.6644361019E-002  -8.6950900732E-004 -4.3066451326E-004  +8.1986881560E-004 +2.3723367485E-004  +1.0456209183E+000 +1.1551827192E-002 
2136468.085 +1.0228805542E+000 -7.0924997330E-002  +3.9905338781E-005 -6.6740502371E-004  +1.7433619360E-004 +1.5281404194E-004  +1.0298743248E+000 +1.8015980721E-002 
2261613.267 +1.0296686888E+000 -5.3149044514E-002  -6.6673615947E-004 -2.1027526236E-004  -6.7064102041E-006 +2.2702306160E-004  +1.0282449722E+000 +3.4148305655E-002 
2386758.448 +1.0234647989E+000 -4.5381635427E-002  +7.1082540671E-005 +4.1652700747E-004  +1.5002959117E-004 +3.4086030792E-004  +1.0284174681E+000 +3.9987295866E-002 
2511903.630 +1.0202180147E+000 -2.5810629129E-002  +1.0010771075E-004 +3.3898677793E-004  -2.8493019636E-004 -4.3111454579E-004  +1.0255931616E+000 +5.2264034748E-002 
2637048.811 +1.0284541845E+000 -2.3690521717E-002  -5.2443047753E-004 +1.1202394671E-004  -1.2698721548E-005 +1.9856542349E-004  +1.0237834454E+000 +7.0453852415E-002 
2762193.992 +1.0405386686E+000 -6.3416101038E-003  -6.2480903580E-005 +3.4687467269E-004  -4.6214026952E-005 +2.8369453503E-004  +1.0282366276E+000 +7.8541710973E-002 
2887339.174 +1.0218102932E+000 -7.7943801880E-003  -3.9839011151E-005 +2.2182340035E-004  +1.8948844809E-004 +4.5378771028E-004  +1.0342844725E+000 +9.0674772859E-002 
3012484.355 +1.0324331522E+000 -3.1233876944E-003  +1.2956043065E-004 -4.8186353524E-004  -5.5061979219E-004 -2.9693983379E-004  +1.0350607634E+000 +1.0683570802E-001 
3137629.537 +1.0315643549E+000 +1.3693571091E-002  +6.8121904042E-004 +5.1734066801E-004  +1.9444419013E-004 -1.0588231817E-005  +1.0487089157E+000 +1.1655096710E-001 
3262774.718 +1.0100736618E+000 +2.4918004870E-002  +2.6028021239E-004 -1.8826447194E-004  -1.7066721921E-004 +5.7544268202E-004  +1.0484099388E+000 +1.1407049000E-001 
3387919.900 +1.0120985508E+000 +5.4571472108E-002  -1.6741939180E-004 -3.5072246101E-004  -8.7216081738E-005 +3.2372521673E-005  +1.0531684160E+000 +1.3662320375E-001 
3513065.081 +1.0067054033E+000 +7.0136964321E-002  -3.8476011832E-004 +2.2663697018E-004  -3.5471562296E-004 +3.5512988688E-005  +1.0685313940E+000 +1.5005333722E-001 
3638210.263 +1.0171375275E+000 +8.5819147527E-002  -7.4665396824E-005 +1.7310114345E-004  -1.2214540038E-004 -1.2635882013E-004  +1.0780715942E+000 +1.6186296940E-001 
3763355.444 +1.0308388472E+000 +1.0707630962E-001  -3.6607310903E-005 +3.9261733036E-005  -3.9963200106E-004 -7.3298477218E-005  +1.0825419426E+000 +1.5707623959E-001 
3888500.626 +1.0478376150E+000 +1.1555317044E-001  +1.4610775906E-005 +1.1925207946E-004  -1.6912211140E-004 +6.8791647209E-004  +1.1141458750E+000 +1.6350957751E-001 
4013645.807 +9.8946660757E-001 +4.0804050863E-002  +1.4565663878E-004 -1.0025381926E-004  -5.6264989325E-006 -1.1307769455E-004  +1.0593260527E+000 +7.8047178686E-002 
4138790.989 +9.1408342123E-001 -3.3344306052E-002  +3.5128236050E-004 -4.3496099534E-004  +1.6989183496E-004 +2.6335570146E-004  +9.8084908724E-001 -2.2070147097E-003 
4263936.170 +9.0262329578E-001 -1.5452638268E-002  -2.3122109997E-004 +5.5817526300E-004  -2.4456123356E-004 -1.5969982996E-005  +9.7132474184E-001 -8.6503615603E-003 
4389081.352 +9.1526895761E-001 -1.3683713973E-002  +5.3050644055E-005 +5.5461243028E-004  +3.3060259739E-005 +1.8123176415E-004  +9.6533375978E-001 -2.0300760865E-002 
4514226.533 +9.2384731770E-001 -1.9008908421E-002  +6.4527912764E-004 -1.1734588770E-004  +1.5688099666E-004 +3.5742661566E-005  +9.7508025169E-001 -2.9488567263E-002 
4639371.715 +9.2958402634E-001 -2.1789172664E-002  +3.8850467536E-004 +7.4767049227E-005  -1.3717294496E-004 -1.6048918769E-004  +9.8184323311E-001 -1.4302663505E-002 
4764516.896 +9.3119925261E-001 -1.2618368492E-002  -2.1889280470E-004 +2.8923353966E-005  +5.7594341342E-005 -5.5904030887E-005  +9.7992807627E-001 -2.7775064111E-002 
4889662.078 +9.3460136652E-001 -6.5322914161E-003  +1.2342000264E-004 -1.8948657089E-004  -2.7336884523E-004 -7.0871269600E-006  +9.7548800707E-001 -1.1615459807E-002 
5014807.259 +9.3198734522E-001 -9.4432225451E-003  +6.4824562287E-005 -4.5851719915E-004  -2.4567625587E-006 -3.0426072772E-004  +9.6911007166E-001 -5.7683466002E-003 
5139952.441 +9.4205057621E-001 -6.7751277238E-003  +5.2187213441E-004 -1.9848022202E-004  -4.2245996883E-004 +1.7647040659E-004  +9.7867059708E-001 -1.1461641639E-002 
5265097.622 +9.4337755442E-001 +1.2470893562E-003  -1.5923504543E-004 -1.3745293836E-004  +1.2790449546E-004 +2.6259216247E-004  +9.7127628326E-001 -1.5239719301E-002 
5390242.804 +9.4730365276E-001 +4.6769604087E-003  -4.1098392103E-004 -1.5035292017E-004  -7.5710777310E-005 +3.6738420022E-006  +9.6529924870E-001 -1.5534825623E-002 
5515387.985 +9.6047431231E-001 +1.6029477119E-003  +2.8094247682E-005 -1.4146612375E-004  +2.4301180383E-004 +9.3627793831E-005  +9.8071002960E-001 -1.4147073030E-002 
5640533.166 +9.5744168758E-001 -5.2775368094E-003  +1.4366609321E-005 +3.3407948649E-005  -1.0980541992E-004 -1.4654277766E-004  +9.7682076693E-001 -1.4942996204E-002 
5765678.348 +9.5489180088E-001 +4.6672523022E-003  +1.0665618902E-004 +2.7681235224E-004  -1.6127355048E-004 -3.0451166094E-004  +9.7495740652E-001 -1.5434242785E-002 
5890823.529 +9.5552694798E-001 +1.7068982124E-003  +7.7292395872E-005 +2.3197446717E-004  -2.1996507712E-005 +2.9094089405E-004  +9.7824895382E-001 -2.0506307483E-002 
6015968.711 +9.6262794733E-001 -2.9022991657E-004  +1.1780804925E-005 -5.5929733207E-004  +3.3131262171E-004 +1.3990368461E-004  +9.7962623835E-001 -8.9159086347E-003 
6141113.892 +9.6617311239E-001 +4.9525573850E-003  -6.4310675953E-005 -3.8204962038E-005  +2.1930625371E-004 +2.4695569300E-004  +9.7267985344E-001 -1.0717682540E-002 
6266259.074 +9.6664565802E-001 +4.9877986312E-003  +3.4187122947E-004 -4.3805379391E-005  -4.6532462875E-005 -1.0545951955E-004  +9.7514784336E-001 -8.8128298521E-003 
6391404.255 +9.6659374237E-001 -5.7207122445E-003  -3.8754180423E-004 -2.7982488973E-004  +1.2434709060E-004 -8.4078266809E-005  +9.7299200296E-001 -1.6825571656E-002 
6516549.437 +9.6515542269E-001 -1.9246265292E-003  -2.1007613395E-004 +4.1802471969E-004  -3.0917205731E-004 +1.3327884517E-005  +9.7377246618E-001 -1.2593954802E-002 
6641694.618 +9.7196251154E-001 +9.1915354133E-003  +2.4304297403E-004 -5.9899342887E-005  -2.5590023142E-005 -5.1675786381E-005  +9.7724932432E-001 -3.1768679619E-003 
6766839.800 +9.7538721561E-001 +6.5711140633E-003  +3.3120793523E-004 -8.8590917585E-005  -9.7867719887E-005 +1.9578164211E-004  +9.7986817360E-001 -7.2372555733E-003 
6891984.981 +9.7478657961E-001 +6.7125558853E-003  +8.8279157353E-006 -1.6256741219E-005  -6.6533408244E-005 +3.2391236164E-004  +9.6914273500E-001 -7.7967941761E-003 
7017130.163 +9.7638970613E-001 +8.5554718971E-003  -7.5650139479E-005 -9.9364391644E-005  +3.1796499388E-004 -2.6483812690E-005  +9.7471785545E-001 -9.6048861742E-003 
7142275.344 +9.7453904152E-001 +8.2608759403E-003  -6.6222193709E-005 -5.0341972383E-005  +4.4329535740E-006 +1.8023702432E-004  +9.7535568476E-001 -1.2622773647E-003 
7267420.526 +9.7734755278E-001 +7.7382922173E-003  +1.3939302880E-004 +2.1448019834E-004  +2.5748991175E-004 +7.8749515524E-005  +9.7387498617E-001 +1.4037340879E-003 
7392565.707 +9.7619634867E-001 +1.2430965900E-002  -4.5017437515E-005 +2.8124579694E-004  +1.0182273400E-004 +6.4242121880E-005  +9.7785401344E-001 -1.8408149481E-003 
7517710.889 +9.7561299801E-001 +1.1935681105E-002  +2.9079812521E-005 +3.0435124063E-004  +3.5614426452E-005 -2.2252368581E-005  +9.7460383177E-001 -1.3771951199E-003 
7642856.070 +9.7388362885E-001 +9.1522186995E-003  -1.7718557501E-004 -2.5889271637E-004  -2.4864787702E-004 +7.2709590313E-005  +9.7794908285E-001 -7.4829906225E-003 
7768001.252 +9.8093509674E-001 +9.8269581795E-003  +2.6604613595E-005 -1.0548016871E-004  +1.9226988661E-004 +9.8079188319E-005  +9.7211933136E-001 -4.8180669546E-003 
7893146.433 +9.8321592808E-001 +1.1503592134E-002  -1.9941173377E-005 -1.1223612091E-004  -1.6084275558E-004 +9.8061704193E-005  +9.7454434633E-001 +2.7776062489E-003 
8018291.615 +9.7576510906E-001 +9.0896487236E-003  +2.1370995091E-004 -5.5490600062E-005  +8.4904815594E-005 -1.0502822261E-004  +9.7122561932E-001 -1.2697726488E-003 
8143436.796 +9.7636193037E-001 +2.8437674046E-003  +1.7449667212E-004 +3.9603182813E-005  -1.3143024989E-004 -2.0606740145E-004  +9.7252660990E-001 +3.7246495485E-003 
8268581.977 +9.8040986061E-001 +4.7224462032E-003  -1.7451946042E-004 +1.9953891751E-005  +1.2167868408E-004 +2.7827116355E-005  +9.7445452213E-001 +4.1116476059E-003 
8393727.159 +9.7906434536E-001 +2.7253627777E-003  +8.7782143964E-005 -2.0428746939E-004  -4.0405040636E-005 -2.9700313462E-005  +9.7391104698E-001 +3.3625662327E-003 
8518872.340 +9.8021316528E-001 +3.9659142494E-003  -3.9833706978E-005 +9.1580632215E-006  +1.4932411432E-005 +2.2236400400E-004  +9.7793936729E-001 +3.3195316792E-003 
8644017.522 +9.7502619028E-001 +4.1209161282E-003  -2.1714338800E-005 +2.9715914934E-005  +7.9175733845E-005 +2.7546563069E-004  +9.7553867102E-001 +2.0662248135E-003 
8769162.703 +9.8456102610E-001 +4.5328438282E-003  -5.4667041695E-005 +7.1877017035E-005  -9.7263698990E-005 +1.3995922927E-005  +9.7594773769E-001 +1.9194781780E-003 
8894307.885 +9.8150891066E-001 +5.9719979763E-003  +3.6168414226E-005 +1.2215299648E-004  +1.0464037041E-004 -2.9405055102E-007  +9.7695487738E-001 +2.5766193867E-003 
9019453.066 +9.8440098763E-001 +3.4229159355E-003  -1.0777179705E-004 -6.5838379669E-005  -1.6212351329E-004 -4.4482316298E-005  +9.7572219372E-001 +9.7540020943E-004 
9144598.248 +9.8543667793E-001 +4.2793452740E-003  +3.0249851989E-005 +4.3252763135E-005  +8.5591906100E-005 +6.4616397140E-006  +9.7892606258E-001 +3.0971169472E-003 
9269743.429 +9.8532259464E-001 +7.5089037418E-003  -6.8268338509E-005 -5.5607488321E-005  -4.5700071496E-006 +1.2522467296E-004  +9.8270016909E-001 +7.8301727772E-003 
9394888.611 +9.8284798861E-001 +9.4058811665E-003  -4.9523692724E-005 -4.7545694542E-005  -8.4999963292E-005 +3.2370800909E-005  +9.8102998734E-001 +3.9288699627E-003 
9520033.792 +9.8612493277E-001 +6.5943598747E-003  +4.6300017857E-005 -5.2101942856E-005  +9.4762006484E-005 -2.5505029043E-005  +9.8150879145E-001 +3.8552582264E-003 
9645178.974 +9.8853027821E-001 +8.2307457924E-003  -1.1799274944E-005 -6.1918603024E-005  +4.5698216127E-006 +1.1629712390E-004  +9.7961807251E-001 +5.2194595337E-003 
9770324.155 +9.8623681068E-001 +1.0979622602E-002  -3.6965757317E-005 +4.6844248573E-005  +5.0609225582E-005 -1.3232311176E-006  +9.7641968727E-001 +4.9081444740E-003 
9895469.337 +9.8552656174E-001 +9.1796815395E-003  +7.8523858974E-005 +1.2599422917E-005  -4.4479278586E-005 +8.2082486188E-005  +9.7870618105E-001 +6.3810348511E-003 
10020614.518 +9.8678743839E-001 +1.1572092772E-002  -2.6662888558E-005 -2.0253661205E-005  -1.4806342733E-005 +7.7057447925E-005  +9.7967284918E-001 +7.5771212578E-003 
10145759.700 +9.8703002930E-001 +9.0639889240E-003  -1.5229344717E-004 +9.1772322776E-005  +9.7807380371E-005 -7.7677104855E-006  +9.8010003567E-001 +5.5372416973E-003 
10270904.881 +9.8883914948E-001 +7.4972212315E-003  +7.7156189946E-005 +8.7136868387E-005  -4.1602554120E-005 +1.3456716260E-004  +9.8263537884E-001 +6.0870945454E-003 
10396050.063 +9.8628389835E-001 +7.2329640388E-003  -4.1088263970E-005 -6.1356418882E-005  -9.2452355602E-005 +1.5077170247E-005  +9.8133802414E-001 +7.0213079453E-003 
10521195.244 +9.8876261711E-001 +1.0078042746E-002  -8.9715240392E-006 -1.4738892787E-005  +8.3166669356E-006 +8.2545244368E-005  +9.8256736994E-001 +7.1205496788E-003 
10646340.426 +9.8785638809E-001 +7.6804161072E-003  +6.7535940616E-005 -7.6823471318E-006  -9.8796437669E-005 +2.3026972485E-005  +9.8001050949E-001 +8.3765387535E-003 
10771485.607 +9.8827195168E-001 +8.6622238159E-003  -1.6979021893E-005 -7.3453440564E-005  -5.5288124713E-005 +4.2711781134E-006  +9.8350811005E-001 +9.4305574894E-003 
10896630.788 +9.8701602221E-001 +9.0337097645E-003  +4.0589937271E-005 -1.6925361706E-005  +7.4089894042E-006 +3.3518059354E-005  +9.8182666302E-001 +9.5362365246E-003 
11021775.970 +9.8758494854E-001 +9.2860460281E-003  -4.2444116843E-006 +3.6616300349E-005  -4.4714681280E-005 -7.7591266745E-006  +9.8293203115E-001 +1.0421752930E-002 
11146921.151 +9.8774057627E-001 +6.0058534145E-003  -7.5566953456E-005 +2.2184782210E-005  -4.3730484322E-005 +2.0713985577E-005  +9.8396599293E-001 +1.0117650032E-002 
11272066.333 +9.8634600639E-001 +6.1725974083E-003  +1.0238697723E-004 +5.2908289945E-005  +5.4702566558E-005 -1.4603536329E-005  +9.8244941235E-001 +1.0080754757E-002 
11397211.514 +9.8952323198E-001 +8.0899894238E-003  +3.5318698792E-006 +5.5388649344E-005  -4.0454739064E-005 +3.6086315959E-005  +9.8367214203E-001 +1.0041266680E-002 
11522356.696 +9.8837864399E-001 +7.7705383301E-003  +4.3069539970E-006 +4.8499179684E-005  -8.5345454863E-006 +8.1221616711E-005  +9.8441123962E-001 +1.0064184666E-002 
11647501.877 +9.8832970858E-001 +7.7051222324E-003  +4.0535815060E-005 +7.8903685790E-005  +6.0932638007E-005 +8.3775645180E-005  +9.8398464918E-001 +1.1362493038E-002 
11772647.059 +9.8840534687E-001 +8.6311995983E-003  -2.4167060474E-005 +7.8419689089E-005  -6.0218477302E-005 +3.6247904063E-005  +9.8394328356E-001 +9.8179280758E-003 
11897792.240 +9.8796391487E-001 +8.2767605782E-003  +6.4505249611E-005 +1.2963833797E-005  +2.1519774236E-005 +5.4839183576E-005  +9.8494893312E-001 +1.0053157806E-002 
12022937.422 +9.8905897141E-001 +9.5796287060E-003  +5.4623473261E-005 +3.7540612539E-006  +1.6226322259E-005 +6.0154561652E-005  +9.8420739174E-001 +1.0808467865E-002 
12148082.603 +9.9039447308E-001 +8.8348984718E-003  -5.1207665820E-005 +7.4360425060E-005  -1.3272236174E-005 +7.1840535384E-005  +9.8645567894E-001 +1.1476159096E-002 
12273227.785 +9.8961454630E-001 +1.0516613722E-002  +1.4285938050E-005 +6.9085821451E-005  +4.4757223804E-005 +1.7771477360E-005  +9.8537951708E-001 +1.0430365801E-002 
12398372.966 +9.9059820175E-001 +9.1826617718E-003  -1.1090443877E-005 +2.9376025850E-005  -5.7174429458E-006 +4.2269493861E-005  +9.8615360260E-001 +1.0083466768E-002 
12523518.148 +9.8772889376E-001 +9.5967352390E-003  +3.7859128497E-005 +3.0811959732E-005  +3.4763277654E-005 +1.1024526611E-004  +9.8453104496E-001 +9.4601511955E-003 
12648663.329 +9.9009692669E-001 +8.7523609400E-003  +5.0700287829E-005 +2.8930833651E-005  -7.2274169725E-006 +4.1060760850E-005  +9.8604589701E-001 +1.0396644473E-002 
12773808.511 +9.9018561840E-001 +7.6594054699E-003  +3.4251759644E-005 +4.8081266868E-005  +2.9601285860E-005 +7.5672171079E-005  +9.8723489046E-001 +1.0072454810E-002 
12898953.692 +9.9011802673E-001 +8.7116286159E-003  +7.3948489444E-005 +5.9168974985E-005  -9.4162578534E-006 -6.8074623414E-006  +9.8618173599E-001 +9.1681927443E-003 
13024098.874 +9.8987644911E-001 +8.9178904891E-003  +2.2244530555E-005 +7.2251197707E-005  -6.4189753175E-006 +2.5325312890E-005  +9.8639047146E-001 +1.0664217174E-002 
13149244.055 +9.9099653959E-001 +9.2839188874E-003  +1.5372013422E-006 +1.8758912120E-005  +2.7973899705E-005 -4.1418202272E-006  +9.8686355352E-001 +1.1283395812E-002 
13274389.237 +9.9068301916E-001 +8.2428976893E-003  -3.2161686249E-005 +2.1674317395E-005  -3.0201903428E-005 +6.1323524278E-005  +9.8794275522E-001 +1.0006375611E-002 
13399534.418 +9.9082303047E-001 +9.1995522380E-003  -3.7749829062E-005 +1.0865077456E-005  -7.7068007158E-006 +2.2422671464E-005  +9.8714059591E-001 +1.1103399098E-002 
13524679.599 +9.8996311426E-001 +1.0229982436E-002  -2.9419166822E-005 +4.8132402299E-005  -3.9534957068E-006 +4.1199273255E-005  +9.8714542389E-001 +1.1713370681E-002 
13649824.781 +9.9205225706E-001 +9.1001242399E-003  +1.4755329175E-005 +9.2042719189E-005  -8.7121170509E-006 +8.4879640781E-005  +9.8884910345E-001 +1.1022835970E-002 
13774969.962 +9.9130004644E-001 +8.9390426874E-003  -2.1936471967E-005 +7.5744232163E-005  -9.2213222160E-006 +5.0973059842E-005  +9.8774266243E-001 +1.0053336620E-002 
13900115.144 +9.9192613363E-001 +8.8136792183E-003  -3.4585227695E-006 +6.9911868195E-005  +2.9469905712E-005 +5.6484121160E-005  +9.8761188984E-001 +1.1262536049E-002 
14025260.325 +9.9057829380E-001 +8.8244676590E-003  +1.1609608919E-005 +8.4031744336E-006  +2.5531704523E-005 +5.0962269597E-005  +9.8765128851E-001 +1.0621666908E-002 
14150405.507 +9.9134778976E-001 +9.0283751488E-003  -2.6389763661E-005 +3.2722331525E-005  +2.1473471861E-005 +5.6954268075E-005  +9.8848676682E-001 +1.1009424925E-002 
14275550.688 +9.9206840992E-001 +9.1464519501E-003  +4.7357098083E-006 +6.2735016400E-005  -2.3896755010E-005 +5.1579663705E-005  +9.8871773481E-001 +1.0878533125E-002 
14400695.870 +9.9022275209E-001 +8.8860094547E-003  +4.1011913709E-005 +4.7601213737E-005  +3.1823285099E-005 +7.9005039879E-005  +9.8902916908E-001 +1.1721432209E-002 
