!  2-Port S-parameters saved by WinCal
! VAR MeasName=S-Parameters (CALIBRATED_DATA) read from VNA (P5004A)
! VAR MeasDate=22/05/2024 16:48:48
! VAR NAME=Wafer2_r10_c6_open
! VAR FILENAME=Wafer2_r10_c6_open.S2P
! VAR DATE=22/05/2024 16:48:48
! VAR PHYS_PORTS=1,2
! VAR ObjTypeName=DATASET
! VAR IndexType=Frequency
!
# Hz S RI R 50
9000.000 +2.6057195663E-001 -5.7665908337E-001  +3.7083838135E-002 +5.8647869155E-003  -1.1185056064E-003 -4.7195311636E-003  +1.5162210166E-001 +9.5753237605E-002 
134145.181 +6.7848563194E-001 +4.2379587889E-002  +3.1897488981E-002 +2.3983037099E-003  +1.4955652878E-002 +1.8278032541E-002  +9.3546986580E-001 -2.4309724569E-001 
259290.363 +9.0547287464E-001 -1.2601523101E-001  +3.9880626719E-004 -1.1499772081E-003  +4.1855772724E-004 +4.7199921682E-003  +1.0101352930E+000 -1.0214318335E-001 
384435.544 +9.4021427631E-001 -2.3897181451E-001  -2.9704575427E-003 +1.7183852615E-003  +4.0027522482E-003 +5.6039551273E-003  +1.0705829859E+000 -1.2713000178E-001 
509580.726 +9.7649645805E-001 -1.3827127218E-001  +4.4112579781E-004 +8.1827165559E-004  +8.0923875794E-004 +1.5033094678E-003  +1.0351116657E+000 -6.9052606821E-002 
634725.907 +1.0714644194E+000 -1.4282935858E-001  +1.6831647372E-005 -8.8488083566E-004  -5.3995667258E-004 +1.5589479590E-003  +1.0814808607E+000 -5.1304936409E-002 
759871.089 +1.1568760872E+000 -3.6574810743E-002  +6.6197174601E-004 +2.4524593027E-004  +1.9327460323E-003 +2.3384299129E-004  +1.0974615812E+000 -8.4801912308E-003 
885016.270 +1.1230405569E+000 -7.3729395866E-002  +1.4068220044E-003 +5.4656428983E-004  +8.2475779345E-004 +2.6852856390E-003  +1.1125938892E+000 +1.7635285854E-002 
1010161.452 +1.2075506449E+000 -7.0046007633E-002  -8.3031895338E-004 +1.1629707296E-004  -6.8436452420E-004 +1.2276002672E-003  +1.0445899963E+000 -1.9958019257E-002 
1135306.633 +1.2341341972E+000 -1.3993412256E-001  +3.7701996043E-003 +1.8465972971E-004  -1.5265271068E-003 +1.8529681256E-003  +1.1142336130E+000 -2.9087066650E-005 
1260451.815 +1.3820242882E+000 -1.5562456846E-001  +4.1088648140E-004 +1.7182307784E-003  +2.0131736528E-003 -1.3153792825E-003  +1.1469748020E+000 +4.9294680357E-002 
1385596.996 +1.2620120049E+000 -1.3846275210E-001  -8.6454534903E-004 +2.1635495068E-004  -1.9983337261E-003 +1.8707363051E-004  +1.1478285789E+000 +2.0622730255E-002 
1510742.178 +1.4032070637E+000 -2.2604167461E-001  -1.1326191016E-003 +1.4128664043E-003  -1.0834197747E-003 -1.0361082386E-003  +1.3116580248E+000 +7.0175826550E-002 
1635887.359 +9.6970725060E-001 -3.1416526437E-001  +7.2958573583E-005 +4.7317345161E-004  +5.2021270676E-005 -6.8737368565E-004  +1.0679991245E+000 -1.4828051627E-001 
1761032.541 +1.0459293127E+000 -3.1136122346E-001  +9.8459434230E-004 -2.8403929900E-004  +1.1899285018E-003 -1.0756402044E-003  +1.0769536495E+000 -1.1961376667E-001 
1886177.722 +1.0061523914E+000 -1.5980997682E-001  +1.1414040346E-003 -2.9172902578E-004  +4.5828736620E-004 +3.4666797728E-004  +1.0437617302E+000 -4.2106866837E-002 
2011322.904 +1.0057994127E+000 -1.2862667441E-001  -2.2226244619E-004 -6.2223221175E-004  +4.3528852984E-004 +4.7677403199E-004  +1.0394597054E+000 -1.9486904144E-002 
2136468.085 +1.0171107054E+000 -1.0066652298E-001  -5.4521299899E-004 +1.6497411707E-004  +1.0919461492E-003 +4.9221643712E-004  +1.0352094173E+000 -1.7416477203E-003 
2261613.267 +1.0189515352E+000 -9.7764283419E-002  -9.4129494391E-004 -8.4649346536E-004  -5.7960499544E-004 +5.6531775044E-004  +1.0271131992E+000 +1.5499025583E-002 
2386758.448 +1.0143094063E+000 -9.7425788641E-002  -2.7486210456E-004 +1.1138945410E-005  +9.5924246125E-005 -4.1084439727E-004  +1.0317652225E+000 +1.1295467615E-002 
2511903.630 +1.0046113729E+000 -7.8452944756E-002  +4.3525389628E-004 +3.9277959149E-004  +3.9153234684E-004 +4.0497275768E-004  +1.0319281816E+000 +3.1812101603E-002 
2637048.811 +1.0195386410E+000 -6.0361355543E-002  -4.3605883548E-005 -2.8357465635E-004  -2.1711553563E-004 +2.8959440533E-004  +1.0278760195E+000 +5.4688632488E-002 
2762193.992 +1.0175015926E+000 -4.6173840761E-002  -1.7530194600E-004 +1.6766632598E-006  -8.5903727449E-004 -9.2876274721E-005  +1.0239126682E+000 +7.0629052818E-002 
2887339.174 +9.9941009283E-001 -6.6035047174E-002  -9.9462093203E-005 +3.1441191095E-004  +1.0430574184E-003 +1.7890791059E-004  +1.0301386118E+000 +7.1776472032E-002 
3012484.355 +1.0011472702E+000 -6.5502129495E-002  +2.7926653274E-006 +8.9182308875E-004  +2.0577237592E-004 +4.4081819942E-004  +1.0302793980E+000 +7.7786907554E-002 
3137629.537 +9.7693586349E-001 -2.5694146752E-002  +4.1093771870E-005 +1.0356463026E-003  +4.1415778105E-004 +1.9505777163E-004  +1.0602387190E+000 +8.5058838129E-002 
3262774.718 +9.5883119106E-001 -3.6036968231E-004  +9.7471784102E-005 -3.7022138713E-004  -8.0783024896E-004 +1.3945926912E-004  +1.0423011780E+000 +1.0731726885E-001 
3387919.900 +9.5636355877E-001 +1.7915938050E-002  -1.9502789655E-005 -1.5629424888E-004  +3.2198580448E-004 +2.4940463481E-004  +1.0425636768E+000 +1.0534317046E-001 
3513065.081 +9.5575267076E-001 +3.3572047949E-002  +5.6090013823E-004 -6.1321989051E-006  -2.1136560827E-004 +5.2283215337E-004  +1.0502008200E+000 +1.3247361779E-001 
3638210.263 +9.7351747751E-001 +6.3435181975E-002  +6.6077214433E-004 -8.9094413852E-005  -2.6407465339E-004 +3.6434849608E-004  +1.0698145628E+000 +1.4379145205E-001 
3763355.444 +9.7941529751E-001 +7.8286945820E-002  +2.1885766182E-004 -4.8361430527E-004  -3.8874597521E-004 +4.6653582831E-004  +1.0845161676E+000 +1.4435413480E-001 
3888500.626 +9.9360370636E-001 +9.4216629863E-002  -4.0468049701E-004 +3.2947160071E-004  -3.4495859290E-004 +3.3060761052E-004  +1.1026332378E+000 +1.6538158059E-001 
4013645.807 +9.2887300253E-001 +2.8643388301E-002  +1.1823927707E-005 -2.6071953471E-004  -3.5431797733E-004 +4.2739779019E-005  +1.0446470976E+000 +5.7975739241E-002 
4138790.989 +8.6941343546E-001 -1.3592191041E-002  +5.9163845435E-005 -7.4970436981E-004  -1.9530647478E-005 -1.8571107648E-004  +9.6772158146E-001 -1.5854530036E-002 
4263936.170 +8.6244565248E-001 -6.8136304617E-004  +3.6136954441E-004 -3.6550295772E-004  -6.6372398578E-005 +5.9178903030E-005  +9.5933383703E-001 -1.8031505868E-002 
4389081.352 +8.7655293941E-001 +2.0262151957E-003  -2.8654560083E-005 -3.0745609547E-004  -2.6104040444E-004 -4.3747754535E-004  +9.5658749342E-001 -1.8394090235E-002 
4514226.533 +8.8017570972E-001 +1.9092895091E-003  -5.2431911172E-005 +5.7936069788E-004  +6.4634448790E-005 +4.4487646664E-004  +9.5332783461E-001 -1.7280196771E-002 
4639371.715 +8.9686411619E-001 +1.9269883633E-003  +3.2670027576E-004 -2.5305978488E-004  -2.9528935556E-004 +8.7348383386E-004  +9.7280114889E-001 -1.3452436775E-002 
4764516.896 +8.9424264431E-001 +2.9211714864E-003  -1.0311850929E-006 +2.2050767438E-004  -3.0498887645E-004 -5.4432111938E-005  +9.6469289064E-001 -2.1237764508E-002 
4889662.078 +9.0041065216E-001 +1.1035915464E-002  +1.7442874378E-004 -3.2870253199E-004  -1.1517821986E-004 +9.6475225291E-005  +9.6790158749E-001 -1.7002318054E-002 
5014807.259 +8.8923400640E-001 +7.0543410257E-003  -2.7937488630E-004 -2.7509999200E-005  +2.8220374952E-004 +1.3297740952E-004  +9.6510660648E-001 -8.5314089665E-004 
5139952.441 +9.0926158428E-001 +1.8917497247E-002  -1.7365494568E-004 -4.5374526962E-006  -6.9623941090E-004 +4.0582352085E-005  +9.6916931868E-001 -1.7669443041E-002 
5265097.622 +9.1727250814E-001 +2.6613015682E-002  -2.4843542633E-005 -2.9648447526E-004  -1.9040552434E-004 +2.0881269302E-004  +9.6161597967E-001 -1.4121025801E-002 
5390242.804 +9.2244148254E-001 +2.3658301681E-002  -1.8628251564E-004 +2.3814925225E-004  +1.4879184891E-004 +7.6262738730E-005  +9.6148389578E-001 -7.2628632188E-003 
5515387.985 +9.4163912535E-001 +3.0602391809E-002  -5.9899693588E-004 -3.6064360756E-004  +4.6236178605E-005 +2.6937344956E-005  +9.6605998278E-001 -1.3220414519E-002 
5640533.166 +9.3980598450E-001 +3.1052052975E-002  -4.0946231456E-004 +1.9301518478E-005  +2.6157385946E-005 -9.0484165412E-005  +9.6839118004E-001 -1.4031454921E-002 
5765678.348 +9.3515789509E-001 +3.3608969301E-002  -1.5181874915E-005 +3.6791359889E-004  -8.8562548626E-005 +1.5602253552E-004  +9.6506619453E-001 -1.1349871755E-002 
5890823.529 +9.4185334444E-001 +2.8149846941E-002  +9.7311576610E-006 -6.1211925640E-005  +3.1273881905E-004 +1.4674001432E-004  +9.7473895550E-001 -1.1357218027E-002 
6015968.711 +9.4822514057E-001 +2.3124046624E-002  +3.5393299186E-004 +2.2042977798E-004  -1.4393025776E-004 +4.7112525863E-006  +9.7450321913E-001 -1.1611521244E-002 
6141113.892 +9.4635838270E-001 +2.6656776667E-002  +6.3808707637E-005 +1.9411098037E-004  +9.8708842415E-005 -5.1224476920E-005  +9.7039860487E-001 -6.7006647587E-003 
6266259.074 +9.5704287291E-001 +3.7213556468E-002  -3.8290832890E-005 +5.7350698626E-005  +1.1567141337E-004 -3.1856837450E-004  +9.7433304787E-001 -5.1775053144E-003 
6391404.255 +9.5679277182E-001 +2.0025543869E-002  -2.3125727603E-004 -8.5161809693E-007  -1.9365102344E-004 -1.4129257761E-004  +9.7178024054E-001 -1.0114334524E-002 
6516549.437 +9.5672428608E-001 +2.7400910854E-002  +1.0502350051E-004 +3.3553567482E-004  +5.2919906011E-005 +9.1287976829E-005  +9.7291612625E-001 -8.0701112747E-003 
6641694.618 +9.6270358562E-001 +2.8783239424E-002  +2.9900646041E-005 +6.7385117291E-005  +2.0146489260E-004 +3.7867395440E-004  +9.7364729643E-001 +2.3391842842E-004 
6766839.800 +9.7006934881E-001 +2.6816844940E-002  +5.5055050325E-005 -1.0805382772E-004  +1.3963188394E-004 -2.9417048790E-004  +9.7195273638E-001 -5.1871091127E-003 
6891984.981 +9.6825289726E-001 +3.1563594937E-002  -3.8331374526E-005 +7.1766393376E-005  -8.8745451649E-005 +2.9778608587E-004  +9.7063916922E-001 -3.5000145435E-003 
7017130.163 +9.6622693539E-001 +3.1092740595E-002  -3.3566113416E-005 -4.5949356718E-005  +1.5162157069E-005 -1.2414183584E-004  +9.7388678789E-001 -1.1809170246E-004 
7142275.344 +9.7357970476E-001 +2.9898479581E-002  +9.8273354524E-005 +5.4280644690E-005  +1.7565296730E-004 +8.3440419985E-005  +9.7666352987E-001 +6.4202398062E-003 
7267420.526 +9.7182077169E-001 +2.9861584306E-002  -3.3997417631E-005 -5.2905816119E-005  +1.7472056788E-004 -3.7202436943E-005  +9.7514665127E-001 +6.1006098986E-003 
7392565.707 +9.7362774611E-001 +2.5926709175E-002  -2.5891695259E-005 -2.3501603573E-004  -5.6856042647E-006 +2.1678327175E-004  +9.7977828979E-001 +8.7830722332E-003 
7517710.889 +9.7557157278E-001 +2.7274191380E-002  +5.7597550040E-005 -1.9993723981E-005  +1.2975285063E-004 +1.1758161418E-004  +9.7570198774E-001 +4.7398954630E-003 
7642856.070 +9.7721165419E-001 +2.7850270271E-002  +8.9200053480E-005 -1.1658039875E-004  -7.8035427578E-006 +6.3469131419E-005  +9.7189193964E-001 -2.3401677608E-003 
7768001.252 +9.8002243042E-001 +2.8638124466E-002  -3.4543179936E-005 +3.4291305928E-004  +1.1877666111E-004 -1.0504365491E-004  +9.7065067291E-001 -2.5325119495E-003 
7893146.433 +9.8414158821E-001 +2.7868151665E-002  -1.2324734416E-004 -1.9228928068E-005  -1.2305881683E-005 -1.2525895727E-004  +9.7279489040E-001 +4.2255520821E-003 
8018291.615 +9.8129624128E-001 +2.4723321199E-002  +1.4207149798E-004 +4.6962031774E-005  +7.0226080425E-005 -1.9078140031E-004  +9.7411960363E-001 +3.1755864620E-004 
8143436.796 +9.8045134544E-001 +2.2438198328E-002  -9.0572619229E-005 +7.3714749306E-005  -1.3948768901E-004 +1.2199052435E-006  +9.7530633211E-001 +7.7307671309E-003 
8268581.977 +9.8326683044E-001 +2.0214453340E-002  -2.7169744135E-004 +1.0246112652E-005  +2.5926645321E-005 +8.9783883595E-005  +9.7586148977E-001 +7.5668990612E-003 
8393727.159 +9.8155879974E-001 +1.9123077393E-002  -2.0996048988E-007 +6.9495370553E-005  +1.0770396329E-005 +2.8662823752E-005  +9.7387695313E-001 +6.5608620644E-003 
8518872.340 +9.8422199488E-001 +1.5796273947E-002  +4.5448807214E-005 +2.3517462978E-005  +9.1663394414E-005 +1.1288681708E-004  +9.7377204895E-001 +6.4981579781E-003 
8644017.522 +9.7820204496E-001 +1.8343359232E-002  +5.8095596614E-005 +4.0389222704E-005  -5.2643812523E-005 +2.3444999533E-004  +9.7833901644E-001 +7.7178180218E-003 
8769162.703 +9.8546981812E-001 +1.9058644772E-002  -1.0830854990E-005 -6.1519249357E-006  +1.3450291590E-005 +1.3110670261E-004  +9.7861152887E-001 +9.7962915897E-003 
8894307.885 +9.8446494341E-001 +1.7739772797E-002  -5.9932375734E-005 -7.3780538514E-005  +1.9862700719E-004 +2.7170704561E-004  +9.7412532568E-001 +5.1188468933E-003 
9019453.066 +9.8417925835E-001 +1.7628282309E-002  +1.0696926438E-005 -4.4551052270E-005  -1.1904032726E-004 -3.2218129491E-005  +9.7789371014E-001 +6.1013996601E-003 
9144598.248 +9.8507928848E-001 +1.6211628914E-002  -5.0798676966E-005 +1.4569010818E-004  -6.8771158112E-005 +5.2015144320E-005  +9.7973930836E-001 +6.3384771347E-003 
9269743.429 +9.8735529184E-001 +1.4311760664E-002  -1.6066721582E-004 +2.0042814867E-005  +2.7207785024E-005 +6.9578352850E-005  +9.7821664810E-001 +6.7082643509E-003 
9394888.611 +9.8738873005E-001 +1.7978757620E-002  +4.5245287765E-005 -5.0298895076E-006  +3.0936309486E-005 -1.6818630684E-004  +9.7929912806E-001 +2.1533370018E-003 
9520033.792 +9.8846215010E-001 +1.2511670589E-002  -1.0576797649E-004 +4.8652360420E-005  -3.9211106923E-005 -9.6905365353E-005  +9.7804921865E-001 +6.7250430584E-003 
9645178.974 +9.9044615030E-001 +1.6152530909E-002  +5.2955074352E-005 -4.1933002649E-005  -3.2570511394E-005 -4.5151255108E-006  +9.7878718376E-001 +6.1588287354E-003 
9770324.155 +9.8703831434E-001 +1.6127854586E-002  -5.1661554608E-005 -1.0898037726E-004  -1.4030383318E-004 -8.5532876255E-005  +9.7460126877E-001 +8.6866319180E-003 
9895469.337 +9.8852479458E-001 +1.6496300697E-002  +3.9635197027E-006 +9.9808989035E-005  +6.8102664954E-005 +1.6096630134E-005  +9.7860878706E-001 +8.0555081367E-003 
10020614.518 +9.8790740967E-001 +1.7275929451E-002  -2.1369358365E-005 -6.0853242758E-005  +4.6496978030E-005 +9.1546069598E-005  +9.7845715284E-001 +8.9425146580E-003 
10145759.700 +9.8990631104E-001 +1.5530645847E-002  -4.4053667807E-005 +1.2710558076E-004  -3.2673313399E-005 +4.8378667998E-005  +9.8085582256E-001 +8.8702142239E-003 
10270904.881 +9.8994231224E-001 +1.2841731310E-002  +2.2178217478E-005 +1.1168143828E-004  -1.6463344218E-004 +2.4795524951E-005  +9.8285162449E-001 +8.8456869125E-003 
10396050.063 +9.8951184750E-001 +1.3993412256E-002  -7.9729063145E-005 +2.7182977647E-007  -1.4209934307E-005 -1.2680049622E-005  +9.8186296225E-001 +1.0132014751E-002 
10521195.244 +9.8907268047E-001 +1.3463020325E-002  +1.5640405763E-005 -2.3534963475E-005  -6.5229083702E-005 +7.1198141086E-005  +9.8142564297E-001 +1.0403275490E-002 
10646340.426 +9.8895323277E-001 +1.1806577444E-002  +7.1988244599E-005 -2.1847548851E-005  +7.3402225098E-006 +4.7440335038E-005  +9.8167616129E-001 +1.2543410063E-002 
10771485.607 +9.9124580622E-001 +1.1323839426E-002  -8.8510991191E-005 +3.8161204429E-005  -2.1215619199E-005 +5.0615650252E-005  +9.8362636566E-001 +1.2316614389E-002 
10896630.788 +9.8843562603E-001 +1.2104749680E-002  +8.5258579929E-005 +6.6786575189E-005  +3.3167365473E-005 +7.3945033364E-005  +9.8338788748E-001 +1.2388944626E-002 
11021775.970 +9.8930943012E-001 +1.3600081205E-002  +2.0071096515E-005 +2.5074614314E-006  -1.1584161257E-005 -4.5448912715E-005  +9.8226195574E-001 +1.1025696993E-002 
11146921.151 +9.8949480057E-001 +1.2094020844E-002  +1.2432228687E-005 +9.5409974165E-005  +6.1387232563E-005 +3.3807518776E-005  +9.8418515921E-001 +1.0041028261E-002 
11272066.333 +9.8808330297E-001 +1.1589825153E-002  +8.2604172349E-005 +3.2392563298E-005  -8.3334860392E-005 +3.9711187128E-005  +9.8185515404E-001 +1.0396093130E-002 
11397211.514 +9.9107742310E-001 +1.2859612703E-002  -4.4363710913E-005 +4.5715034503E-005  -2.7918375054E-005 +6.1684855609E-005  +9.8315310478E-001 +1.1111050844E-002 
11522356.696 +9.9124330282E-001 +1.2082666159E-002  +4.5577478886E-005 +8.3828970673E-005  +2.6844603781E-005 +8.4128141680E-006  +9.8416364193E-001 +9.4122588634E-003 
11647501.877 +9.8963749409E-001 +1.2586981058E-002  +5.3052477597E-005 +4.9881469749E-005  -4.6762917918E-005 +3.7652527681E-005  +9.8281091452E-001 +9.6654891968E-003 
11772647.059 +9.9055886269E-001 +1.0936230421E-002  +8.2910264609E-007 +2.1132851543E-005  +3.9860602556E-005 +2.6816360332E-005  +9.8431622982E-001 +9.5340013504E-003 
11897792.240 +9.8977565765E-001 +1.0974019766E-002  +1.2849735867E-005 +2.9138547688E-005  +6.9696019636E-005 -9.7559768619E-006  +9.8448830843E-001 +1.0618895292E-002 
12022937.422 +9.9140286446E-001 +1.2621253729E-002  -2.1684607418E-005 +1.2298011825E-005  +4.2525254685E-005 +2.1493611712E-005  +9.8442327976E-001 +1.0416567326E-002 
12148082.603 +9.9111014605E-001 +1.0398626328E-002  +5.4169845498E-006 +1.6063564544E-005  -3.1808653148E-005 +5.2319974202E-005  +9.8525518179E-001 +1.1959731579E-002 
12273227.785 +9.9219834805E-001 +1.3658404350E-002  +4.8527781473E-005 +2.4734283215E-005  -1.3059976482E-005 +3.5819404729E-005  +9.8572045565E-001 +1.0802686214E-002 
12398372.966 +9.9069404602E-001 +1.0775774717E-002  -5.7755049056E-005 +4.0974111471E-005  -5.3424526413E-005 +5.8466306655E-005  +9.8609447479E-001 +1.1088043451E-002 
12523518.148 +9.8991245031E-001 +1.2115418911E-002  +2.9959799576E-005 +4.4427124521E-005  -2.5638984880E-005 +6.2499522755E-005  +9.8476201296E-001 +1.0357379913E-002 
12648663.329 +9.9168777466E-001 +1.3009443879E-002  +1.9943730877E-005 +3.3144417102E-005  +3.2181691495E-005 +6.7892571678E-005  +9.8598212004E-001 +1.0038957000E-002 
12773808.511 +9.9077844620E-001 +1.0984763503E-002  +8.0703557614E-008 +3.2850060961E-005  -1.6042145944E-005 +2.0929683160E-005  +9.8623114824E-001 +1.0291010141E-002 
12898953.692 +9.9108481407E-001 +1.0620936751E-002  +2.4993563784E-005 +6.3954321377E-005  +1.4651624952E-005 +3.5294055124E-005  +9.8631507158E-001 +1.0094814003E-002 
13024098.874 +9.9142545462E-001 +1.1925555766E-002  +2.2820160666E-005 +7.1180373197E-005  +4.0713512135E-005 +2.1805954020E-005  +9.8649036884E-001 +1.1093534529E-002 
13149244.055 +9.9142003059E-001 +1.2974526733E-002  -2.3565220545E-005 +7.5590789493E-005  -5.3606772781E-006 +4.1084149416E-005  +9.8606961966E-001 +1.1386219412E-002 
13274389.237 +9.9097436666E-001 +1.0704451241E-002  +2.6610665373E-005 +5.8290897869E-005  -6.8872221163E-005 +5.8115194406E-005  +9.8807525635E-001 +1.1305301450E-002 
13399534.418 +9.9119859934E-001 +1.1341623962E-002  +4.5576889534E-006 +3.0452214560E-005  +2.1572122932E-005 +5.7581335568E-005  +9.8679518700E-001 +1.1970050633E-002 
13524679.599 +9.9062567949E-001 +1.2747354805E-002  -2.6784384318E-005 +4.8259946198E-005  +1.7104355720E-005 +5.2463474276E-005  +9.8723101616E-001 +1.2153387070E-002 
13649824.781 +9.9232655764E-001 +1.1451289058E-002  -2.3103648346E-005 +1.7575655875E-005  -1.9268687538E-005 +6.4444844611E-005  +9.8798751831E-001 +1.2003064156E-002 
13774969.962 +9.9194628000E-001 +1.1873021722E-002  +1.6320109353E-005 +7.2668677603E-005  -4.1263545427E-005 +7.7799377323E-005  +9.8712253571E-001 +1.1207789183E-002 
13900115.144 +9.9186158180E-001 +1.1747598648E-002  -7.6414444266E-006 +2.4796154321E-005  +1.3063312508E-005 +6.7879620474E-005  +9.8710221052E-001 +1.2212097645E-002 
14025260.325 +9.9154168367E-001 +1.2122064829E-002  +5.3249634220E-005 +4.3947478844E-005  +6.3265775680E-005 +2.9505501516E-005  +9.8813992739E-001 +1.1431515217E-002 
14150405.507 +9.9161565304E-001 +1.1751890182E-002  +1.4462289982E-005 +2.1583928174E-005  +3.4059743484E-005 +8.4910490841E-005  +9.8832839727E-001 +1.1341094971E-002 
14275550.688 +9.9214327335E-001 +1.1233925819E-002  +2.1173149435E-005 +5.7890632888E-005  +9.4614151749E-005 +2.9282684409E-005  +9.8828375340E-001 +1.0881602764E-002 
14400695.870 +9.9112623930E-001 +1.1116862297E-002  +4.7703673772E-005 +7.0767418947E-005  +9.4894530775E-006 +8.7325199274E-005  +9.8823332787E-001 +1.1931210756E-002 
