!  2-Port S-parameters saved by WinCal
! VAR MeasName=S-Parameters (CALIBRATED_DATA) read from VNA (P5004A)
! VAR MeasDate=22/05/2024 19:42:06
! VAR NAME=Wafer2_r2_c1_set7
! VAR FILENAME=Wafer2_r2_c1_set7.S2P
! VAR DATE=22/05/2024 19:42:06
! VAR PHYS_PORTS=1,2
! VAR ObjTypeName=DATASET
! VAR IndexType=Frequency
!
# Hz S RI R 50
9000.000 +2.1187549829E-001 -6.0216689110E-001  +1.1265130015E-003 -3.2495110645E-004  +9.0283458121E-005 +1.3507391559E-003  +3.7711407989E-002 +1.0587501526E-001 
134145.181 +4.5652961731E-001 +1.2375984341E-001  +3.6674525589E-002 +1.7756938934E-002  +8.2884795964E-002 +9.5087867230E-003  +2.4548010528E-001 -2.4287557602E-001 
259290.363 +9.5172965527E-001 -3.5849146545E-002  -4.0147338063E-002 -5.3744856268E-002  -3.2786965370E-002 -6.2490154058E-002  +9.2593473196E-001 +2.3846462369E-002 
384435.544 +9.6563524008E-001 -1.9519712031E-001  -1.8756389618E-002 -3.8223225623E-002  -2.2988628596E-002 -4.3276585639E-002  +1.0305809975E+000 -4.1997089982E-002 
509580.726 +9.9983662367E-001 -1.1481140554E-001  -1.1853880249E-002 -1.6763143241E-002  -1.2557183392E-002 -1.4847503044E-002  +1.0203452110E+000 -1.6125097871E-002 
634725.907 +1.0863082409E+000 -1.7627722025E-001  +5.2921986207E-004 -7.8730601817E-003  +4.3527106754E-004 -8.6653856561E-003  +1.0828511715E+000 -4.7278612852E-002 
759871.089 +1.2638963461E+000 -9.5005035400E-002  +1.0272897780E-002 +6.0655330308E-003  +1.2449147180E-002 +8.0968700349E-003  +1.1703338623E+000 -8.1178814173E-002 
885016.270 +4.2958238721E-001 -1.2455613613E+000  +9.3930177391E-002 +1.0327753425E-001  +6.3867166638E-002 +1.1536873132E-001  +1.5408070087E+000 -3.0625683069E-001 
1010161.452 +9.9549001455E-001 +1.8670737743E-002  -1.5006141737E-002 -3.2005030662E-002  -1.1234890670E-002 -3.0371706933E-002  +6.5878236294E-001 +4.0300190449E-001 
1135306.633 +9.5828062296E-001 +1.3317498565E-001  -2.8610308655E-003 -2.5688363239E-002  -4.6225627884E-003 -2.4087583646E-002  +8.6020886898E-001 +3.3182764053E-001 
1260451.815 +1.3045108318E+000 +8.4984332323E-002  +4.2852680199E-003 -1.1948171072E-002  +6.8682874553E-003 -1.1568081565E-002  +9.4633287191E-001 +2.9286018014E-001 
1385596.996 +1.2373305559E+000 -5.0630748272E-002  +6.2320102006E-003 -5.5796978995E-003  +4.9993088469E-003 -4.5590512455E-003  +9.8027914762E-001 +1.5529459715E-001 
1510742.178 +1.3267699480E+000 -1.2875753641E-001  +1.1234325357E-002 -1.1084745638E-003  +1.3417099603E-002 -1.0553919710E-003  +8.8448488712E-001 +1.8528908491E-001 
1635887.359 +9.7308421135E-001 -2.2826491296E-001  +7.8839724883E-003 -5.6021069176E-003  +7.9513071105E-003 -5.5026747286E-003  +1.0975532532E+000 +1.4546924829E-001 
1761032.541 +9.9242830276E-001 -2.0222082734E-001  +1.3013608754E-002 +6.1370572075E-004  +1.2009277940E-002 +9.9905068055E-004  +1.0350208282E+000 +1.7568388581E-001 
1886177.722 +9.9685454369E-001 -9.0005815029E-002  +1.0352723300E-002 +2.0418523345E-003  +1.1229025200E-002 +1.6050485428E-003  +1.0355768204E+000 +1.2920057774E-001 
2011322.904 +9.9638497829E-001 -6.3657194376E-002  +1.2450152077E-002 +2.0989018958E-003  +1.2183737941E-002 +2.2249643225E-003  +1.0424469709E+000 +1.2733471394E-001 
2136468.085 +9.8995780945E-001 -5.1779150963E-002  +1.2939933687E-002 +3.9059147239E-003  +1.2574959546E-002 +3.5581104457E-003  +1.0233108997E+000 +1.1453530192E-001 
2261613.267 +9.9231731892E-001 -4.0253281593E-002  +1.3272875920E-002 +5.9439172037E-003  +1.3308826834E-002 +5.9738396667E-003  +1.0096635818E+000 +1.3893368840E-001 
2386758.448 +9.8966455460E-001 -1.7763555050E-002  +1.4302646741E-002 +6.1602611095E-003  +1.4394732192E-002 +6.2031392008E-003  +1.0182043314E+000 +1.3833719492E-001 
2511903.630 +9.8701030016E-001 +1.8335282803E-003  +1.5437164344E-002 +7.4333958328E-003  +1.5256539918E-002 +7.0120799355E-003  +1.0294568539E+000 +1.5676924586E-001 
2637048.811 +9.8641628027E-001 +1.0295689106E-002  +1.6021380201E-002 +9.6119986847E-003  +1.5541201457E-002 +9.7390394658E-003  +1.0323444605E+000 +1.7380258441E-001 
2762193.992 +9.8496419191E-001 +3.1827203929E-002  +1.7582638189E-002 +1.0755373165E-002  +1.7380900681E-002 +1.0503823869E-002  +1.0140484571E+000 +1.8562835455E-001 
2887339.174 +9.6837496758E-001 +6.1690054834E-002  +1.8059361726E-002 +1.0261679068E-002  +1.7438899726E-002 +1.0174240917E-002  +1.0153464079E+000 +2.3456619680E-001 
3012484.355 +9.9295097589E-001 +6.6245540977E-002  +1.8606020138E-002 +1.1354561895E-002  +1.7740229145E-002 +1.0553951375E-002  +1.0440593958E+000 +2.6172253489E-001 
3137629.537 +1.0015918016E+000 +8.4624022245E-002  +1.7913630232E-002 +1.2429499067E-002  +1.7980230972E-002 +1.1908499524E-002  +1.0871205330E+000 +2.8877946734E-001 
3262774.718 +9.9653017521E-001 +9.4333685935E-002  +1.8475836143E-002 +1.2523853220E-002  +1.8460862339E-002 +1.2029486708E-002  +1.1065050364E+000 +2.9188105464E-001 
3387919.900 +9.8724263906E-001 +1.2528568506E-001  +1.8571380526E-002 +1.3785059564E-002  +1.8606195226E-002 +1.3983661309E-002  +1.1410672665E+000 +2.8861895204E-001 
3513065.081 +1.0073318481E+000 +1.4300274849E-001  +1.9190954044E-002 +1.5626572073E-002  +1.8980579451E-002 +1.5451151878E-002  +1.1671073437E+000 +3.1220254302E-001 
3638210.263 +1.0317155123E+000 +1.6524219513E-001  +1.9832361490E-002 +1.6760487109E-002  +1.9853182137E-002 +1.6146264970E-002  +1.1978706121E+000 +3.0507364869E-001 
3763355.444 +1.0509921312E+000 +1.7251580954E-001  +2.0214870572E-002 +1.7092401162E-002  +2.0166084170E-002 +1.6471929848E-002  +1.2272095680E+000 +2.9530319571E-001 
3888500.626 +1.0759053230E+000 +1.7972776294E-001  +2.2192854434E-002 +1.9004546106E-002  +2.1629128605E-002 +1.9013293087E-002  +1.2714294195E+000 +2.8623205423E-001 
4013645.807 +1.0330785513E+000 +8.2350663841E-002  +2.9733885080E-002 +1.5096132644E-002  +2.9053395614E-002 +1.3979843818E-002  +1.2337613106E+000 +1.2781450152E-001 
4138790.989 +9.6690499783E-001 -1.1353399605E-002  +3.4968733788E-002 +9.2068314552E-003  +3.4815348685E-002 +8.8473036885E-003  +1.1418209076E+000 -1.8349029124E-003 
4263936.170 +9.5475244522E-001 -3.2382458448E-004  +3.5814583302E-002 +8.6221881211E-003  +3.4341044724E-002 +9.3341916800E-003  +1.1366072893E+000 -3.9295695722E-002 
4389081.352 +9.7317665815E-001 -7.8046936542E-003  +3.6843314767E-002 +7.6619917527E-003  +3.5614434630E-002 +8.1397909671E-003  +1.1225339174E+000 -5.9770211577E-002 
4514226.533 +9.7780197859E-001 -4.0839407593E-003  +3.6596916616E-002 +7.8394450247E-003  +3.6718554795E-002 +7.1685034782E-003  +1.1181738377E+000 -8.1205323339E-002 
4639371.715 +9.8661410809E-001 -1.9260732457E-002  +3.6999613047E-002 +7.2881015949E-003  +3.7037134171E-002 +7.5319190510E-003  +1.1050375700E+000 -7.8097872436E-002 
4764516.896 +9.8434811831E-001 -1.6219951212E-002  +3.7544541061E-002 +7.0065036416E-003  +3.6644395441E-002 +7.5849690475E-003  +1.0998871326E+000 -9.4611540437E-002 
4889662.078 +9.7901809216E-001 -1.4008771628E-002  +3.8296476007E-002 +7.7517670579E-003  +3.7893757224E-002 +6.7785279825E-003  +1.0880405903E+000 -1.0172334313E-001 
5014807.259 +9.7978335619E-001 -2.4957057089E-002  +3.7868402898E-002 +6.4417701215E-003  +3.8326431066E-002 +6.8934573792E-003  +1.0659976006E+000 -1.0022454709E-001 
5139952.441 +9.8639136553E-001 -2.7337055653E-002  +3.8835935295E-002 +7.2158221155E-003  +3.8110088557E-002 +7.5627681799E-003  +1.0647852421E+000 -1.0951048881E-001 
5265097.622 +9.8517215252E-001 -2.8224572539E-002  +3.8372170180E-002 +6.2116044573E-003  +3.7805717438E-002 +7.0494804531E-003  +1.0519371033E+000 -1.1267767847E-001 
5390242.804 +9.8091566563E-001 -2.6122927666E-002  +3.8682997227E-002 +6.3066696748E-003  +3.8111180067E-002 +6.2362207100E-003  +1.0356858969E+000 -1.1067219824E-001 
5515387.985 +9.8890250921E-001 -3.4360714257E-002  +3.9132278413E-002 +6.0580167919E-003  +3.8307417184E-002 +5.9216273949E-003  +1.0302264690E+000 -1.2032113224E-001 
5640533.166 +9.8327547312E-001 -3.7535533309E-002  +4.0452010930E-002 +5.7907151058E-003  +3.8854889572E-002 +6.0939379036E-003  +1.0292484760E+000 -1.2275004387E-001 
5765678.348 +9.8227071762E-001 -3.5574480891E-002  +3.9655208588E-002 +5.6738327257E-003  +3.8441497833E-002 +6.0092187487E-003  +1.0130894184E+000 -1.1675552279E-001 
5890823.529 +9.7581464052E-001 -4.4103458524E-002  +3.9246588945E-002 +4.8198560253E-003  +3.8767330348E-002 +5.0398521125E-003  +1.0077823400E+000 -1.1844095588E-001 
6015968.711 +9.7154241800E-001 -5.2445195615E-002  +3.9706062526E-002 +5.3849397227E-003  +3.8533691317E-002 +5.0547448918E-003  +1.0024646521E+000 -1.1400008202E-001 
6141113.892 +9.7272789478E-001 -4.3897978961E-002  +3.9355132729E-002 +5.1426263526E-003  +3.8419008255E-002 +5.2217338234E-003  +9.9258756638E-001 -1.0719252378E-001 
6266259.074 +9.7277319431E-001 -4.6946302056E-002  +3.9247751236E-002 +4.7565312125E-003  +3.8487173617E-002 +4.8201051541E-003  +9.9060189724E-001 -1.0511974990E-001 
6391404.255 +9.6299678087E-001 -5.4053157568E-002  +3.8975428790E-002 +4.0621282533E-003  +3.8675703108E-002 +3.7987146061E-003  +9.7174537182E-001 -1.0843601078E-001 
6516549.437 +9.6520572901E-001 -4.6036839485E-002  +3.9145492017E-002 +4.5055565424E-003  +3.8715805858E-002 +4.3830210343E-003  +9.7549182177E-001 -9.7897358239E-002 
6641694.618 +9.7219806910E-001 -4.1766941547E-002  +3.9459094405E-002 +4.5652883127E-003  +3.8710918278E-002 +5.2329301834E-003  +9.7431570292E-001 -9.0123660862E-002 
6766839.800 +9.6958684921E-001 -4.4860035181E-002  +3.9291433990E-002 +4.1891280562E-003  +3.9091072977E-002 +4.1040135548E-003  +9.6620649099E-001 -9.0698413551E-002 
6891984.981 +9.6594071388E-001 -4.7368407249E-002  +3.9209611714E-002 +4.3486123905E-003  +3.8675490767E-002 +4.3093683198E-003  +9.5568698645E-001 -8.8558688760E-002 
7017130.163 +9.6378290653E-001 -4.6838775277E-002  +3.9275977761E-002 +4.4170850888E-003  +3.8640204817E-002 +4.2776763439E-003  +9.5671731234E-001 -8.5653051734E-002 
7142275.344 +9.6170616150E-001 -4.2963996530E-002  +3.9168480784E-002 +4.5658117160E-003  +3.8768544793E-002 +4.2632827535E-003  +9.5906245708E-001 -7.7343389392E-002 
7267420.526 +9.6130460501E-001 -3.4361183643E-002  +3.9095036685E-002 +4.6977465972E-003  +3.9074771106E-002 +4.5414688066E-003  +9.5491367579E-001 -7.5221136212E-002 
7392565.707 +9.6193617582E-001 -3.7019431591E-002  +3.9198432118E-002 +4.4236266986E-003  +3.8831446320E-002 +4.7674793750E-003  +9.5319497585E-001 -7.8949585557E-002 
7517710.889 +9.6574282646E-001 -3.9190188050E-002  +3.8734748960E-002 +4.7593405470E-003  +3.9022028446E-002 +4.7721303999E-003  +9.4560045004E-001 -7.5765401125E-002 
7642856.070 +9.5317405462E-001 -3.8899645209E-002  +3.8816452026E-002 +4.6841208823E-003  +3.8617603481E-002 +4.5372834429E-003  +9.4120913744E-001 -7.3760211468E-002 
7768001.252 +9.6171575785E-001 -3.0511230230E-002  +3.8655567914E-002 +4.7825183719E-003  +3.8635458797E-002 +4.7377492301E-003  +9.3506336212E-001 -7.3087409139E-002 
7893146.433 +9.6355813742E-001 -2.5976508856E-002  +3.8748748600E-002 +4.3629850261E-003  +3.8793072104E-002 +4.7016763128E-003  +9.3576741219E-001 -6.4230769873E-002 
8018291.615 +9.5452135801E-001 -2.7821436524E-002  +3.8820441812E-002 +4.3368646875E-003  +3.8452647626E-002 +4.1053155437E-003  +9.3243736029E-001 -6.1234831810E-002 
8143436.796 +9.5296138525E-001 -3.0221104622E-002  +3.8949415088E-002 +4.6230750158E-003  +3.8317810744E-002 +4.3857526034E-003  +9.3499785662E-001 -5.6191161275E-002 
8268581.977 +9.5267808437E-001 -2.7350306511E-002  +3.8844596595E-002 +4.5070969500E-003  +3.8749206811E-002 +4.5866426080E-003  +9.3396061659E-001 -5.2405387163E-002 
8393727.159 +9.5219749212E-001 -2.9337152839E-002  +3.8679435849E-002 +4.4078174978E-003  +3.8711931556E-002 +4.3925466016E-003  +9.3210881948E-001 -4.8752546310E-002 
8518872.340 +9.5191854239E-001 -2.8436899185E-002  +3.9011441171E-002 +4.2077358812E-003  +3.8805570453E-002 +4.1954140179E-003  +9.3441557884E-001 -4.6126365662E-002 
8644017.522 +9.5203423500E-001 -2.7725696564E-002  +3.8615666330E-002 +4.7399289906E-003  +3.8714580238E-002 +4.5893648639E-003  +9.3630111217E-001 -4.4649213552E-002 
8769162.703 +9.5697718859E-001 -2.7361959219E-002  +3.8792729378E-002 +4.7857593745E-003  +3.8850970566E-002 +4.5967446640E-003  +9.3564683199E-001 -4.7763943672E-002 
8894307.885 +9.4920474291E-001 -2.6844471693E-002  +3.8970727473E-002 +4.6493662521E-003  +3.8415916264E-002 +4.4585969299E-003  +9.3503671885E-001 -4.4717311859E-002 
9019453.066 +9.5156019926E-001 -2.8212547302E-002  +3.8851831108E-002 +4.5213717967E-003  +3.8592144847E-002 +4.7763595358E-003  +9.3242734671E-001 -4.3428897858E-002 
9144598.248 +9.5159101486E-001 -2.8830766678E-002  +3.8731679320E-002 +4.4715879485E-003  +3.8662932813E-002 +4.5524239540E-003  +9.3024271727E-001 -4.0078759193E-002 
9269743.429 +9.4686293602E-001 -2.5340408087E-002  +3.8742721081E-002 +4.7518955544E-003  +3.8711771369E-002 +4.7193542123E-003  +9.3287545443E-001 -3.8920819759E-002 
9394888.611 +9.4981813431E-001 -2.1810680628E-002  +3.8797084242E-002 +4.7189584002E-003  +3.8664430380E-002 +4.7907354310E-003  +9.3181455135E-001 -3.9491862059E-002 
9520033.792 +9.5035278797E-001 -2.5550246239E-002  +3.8609426469E-002 +4.6131899580E-003  +3.8550626487E-002 +4.6801008284E-003  +9.3362551928E-001 -3.2919049263E-002 
9645178.974 +9.5452904701E-001 -1.9455373287E-002  +3.8539309055E-002 +4.8761991784E-003  +3.8613744080E-002 +4.7582807019E-003  +9.3132603168E-001 -3.1103700399E-002 
9770324.155 +9.5329558849E-001 -1.8301129341E-002  +3.8292113692E-002 +4.8187486827E-003  +3.8372814655E-002 +4.7981441021E-003  +9.3063712120E-001 -2.6253312826E-002 
9895469.337 +9.5142048597E-001 -1.5502691269E-002  +3.8552824408E-002 +4.9097621813E-003  +3.8464725018E-002 +4.8590712249E-003  +9.3189442158E-001 -2.6481181383E-002 
10020614.518 +9.5177793503E-001 -1.4346867800E-002  +3.8510747254E-002 +4.9259243533E-003  +3.8559228182E-002 +4.7893999144E-003  +9.3140059710E-001 -2.2888302803E-002 
10145759.700 +9.5228683949E-001 -1.4078736305E-002  +3.8533147424E-002 +4.8645297065E-003  +3.8408752531E-002 +4.8307236284E-003  +9.3383169174E-001 -2.4649381638E-002 
10270904.881 +9.5424568653E-001 -1.5535086393E-002  +3.8600057364E-002 +4.9128327519E-003  +3.8865074515E-002 +4.9724252895E-003  +9.3427741528E-001 -2.3253649473E-002 
10396050.063 +9.5182621479E-001 -1.3770908117E-002  +3.8497317582E-002 +4.8300838098E-003  +3.8741983473E-002 +4.9372250214E-003  +9.3315196037E-001 -1.9820511341E-002 
10521195.244 +9.5254838467E-001 -1.2814462185E-002  +3.8627855480E-002 +5.0154011697E-003  +3.8719873875E-002 +4.9769002944E-003  +9.3581211567E-001 -1.9400686026E-002 
10646340.426 +9.5068967342E-001 -1.4509826899E-002  +3.8732860237E-002 +5.1438491791E-003  +3.8607314229E-002 +5.1561612636E-003  +9.3602705002E-001 -1.6402572393E-002 
10771485.607 +9.5178776979E-001 -1.4207959175E-002  +3.8634471595E-002 +5.0780605525E-003  +3.8638912141E-002 +5.0910897553E-003  +9.3676519394E-001 -1.5177041292E-002 
10896630.788 +9.5130932331E-001 -1.2106090784E-002  +3.8701038808E-002 +5.2383411676E-003  +3.8513764739E-002 +5.2142068744E-003  +9.3649065495E-001 -1.3914525509E-002 
11021775.970 +9.5008659363E-001 -1.1055052280E-002  +3.8829229772E-002 +5.2552334964E-003  +3.8637228310E-002 +5.2777603269E-003  +9.3816721439E-001 -1.0910689831E-002 
11146921.151 +9.5095300674E-001 -1.1622279882E-002  +3.8892291486E-002 +5.2896179259E-003  +3.8695380092E-002 +5.2282586694E-003  +9.3913012743E-001 -1.1315435171E-002 
11272066.333 +9.4960832596E-001 -9.2625916004E-003  +3.8973238319E-002 +5.1513314247E-003  +3.8677532226E-002 +5.2447803319E-003  +9.3768393993E-001 -1.0301977396E-002 
11397211.514 +9.5126366615E-001 -1.0422468185E-002  +3.8955643773E-002 +5.2786841989E-003  +3.8654357195E-002 +5.3662732244E-003  +9.3860810995E-001 -1.1289864779E-002 
11522356.696 +9.5175427198E-001 -9.9702179432E-003  +3.8988851011E-002 +5.3707044572E-003  +3.8488227874E-002 +5.3524803370E-003  +9.4032728672E-001 -1.1379718781E-002 
11647501.877 +9.5076388121E-001 -8.8978707790E-003  +3.8965787739E-002 +5.4249335080E-003  +3.8501802832E-002 +5.4183471948E-003  +9.3910312653E-001 -9.7504556179E-003 
11772647.059 +9.5174509287E-001 -8.2604587078E-003  +3.8843326271E-002 +5.4261833429E-003  +3.8459878415E-002 +5.4034087807E-003  +9.3971157074E-001 -1.0761648417E-002 
11897792.240 +9.5178484917E-001 -7.5618624687E-003  +3.8839854300E-002 +5.3997682407E-003  +3.8690995425E-002 +5.4168822244E-003  +9.4067585468E-001 -8.8691115379E-003 
12022937.422 +9.5278918743E-001 -6.4223110676E-003  +3.8825556636E-002 +5.4972544312E-003  +3.8771141320E-002 +5.5660381913E-003  +9.4166260958E-001 -8.9150667191E-003 
12148082.603 +9.5305156708E-001 -6.3023865223E-003  +3.8838200271E-002 +5.5134044960E-003  +3.8705553859E-002 +5.5523375049E-003  +9.4266098738E-001 -6.6892504692E-003 
12273227.785 +9.5411527157E-001 -6.9757103920E-003  +3.8864620030E-002 +5.5287685245E-003  +3.8562610745E-002 +5.5603878573E-003  +9.4345796108E-001 -6.0830712318E-003 
12398372.966 +9.5332932472E-001 -6.8187713623E-003  +3.9081670344E-002 +5.6530218571E-003  +3.8681380451E-002 +5.6398697197E-003  +9.4392669201E-001 -5.2961409092E-003 
12523518.148 +9.5212352276E-001 -6.1978250742E-003  +3.9033837616E-002 +5.6008687243E-003  +3.8470145315E-002 +5.6281676516E-003  +9.4294840097E-001 -6.3407421112E-003 
12648663.329 +9.5422989130E-001 -3.7975907326E-003  +3.8945242763E-002 +5.6452397257E-003  +3.8513503969E-002 +5.7352604344E-003  +9.4460576773E-001 -5.9625059366E-003 
12773808.511 +9.5472395420E-001 -6.1928033829E-003  +3.8949742913E-002 +5.7460209355E-003  +3.8497623056E-002 +5.7544363663E-003  +9.4469112158E-001 -4.2692571878E-003 
12898953.692 +9.5476555824E-001 -6.3991174102E-003  +3.8915041834E-002 +5.7113133371E-003  +3.8525737822E-002 +5.7311803102E-003  +9.4542473555E-001 -4.9454346299E-003 
13024098.874 +9.5405495167E-001 -3.7494972348E-003  +3.8922499865E-002 +5.8078132570E-003  +3.8560081273E-002 +5.8003300801E-003  +9.4624745846E-001 -3.7223696709E-003 
13149244.055 +9.5532155037E-001 -4.7647487372E-003  +3.8726586848E-002 +5.9494851157E-003  +3.8440067321E-002 +5.9410850517E-003  +9.4648498297E-001 -3.2601170242E-003 
13274389.237 +9.5499134064E-001 -4.9097537994E-003  +3.8604199886E-002 +5.8600446209E-003  +3.8493853062E-002 +5.8495979756E-003  +9.4741475582E-001 -3.6040078849E-003 
13399534.418 +9.5575976372E-001 -3.7085935473E-003  +3.8512047380E-002 +5.9393895790E-003  +3.8672026247E-002 +5.9844222851E-003  +9.4682180882E-001 -3.7204548717E-003 
13524679.599 +9.5518016815E-001 -3.7163570523E-003  +3.8591451943E-002 +5.9440694749E-003  +3.8626685739E-002 +6.0395416804E-003  +9.4786292315E-001 -2.6313588023E-003 
13649824.781 +9.5677739382E-001 -4.3323189020E-003  +3.8701865822E-002 +5.9947492555E-003  +3.8463767618E-002 +6.0009304434E-003  +9.4837367535E-001 -3.3058822155E-003 
13774969.962 +9.5559340715E-001 -4.8020631075E-003  +3.8695778698E-002 +5.9848334640E-003  +3.8479175419E-002 +6.0147894546E-003  +9.4794732332E-001 -3.6113411188E-003 
13900115.144 +9.5589220524E-001 -4.7278106213E-003  +3.8711376488E-002 +6.0750371777E-003  +3.8407288492E-002 +6.1241164804E-003  +9.4821918011E-001 -2.5393664837E-003 
14025260.325 +9.5552408695E-001 -4.2094290257E-003  +3.8568645716E-002 +6.1765788123E-003  +3.8481816649E-002 +6.1968914233E-003  +9.4840925932E-001 -2.8612911701E-003 
14150405.507 +9.5662295818E-001 -3.5282671452E-003  +3.8481831551E-002 +6.2488969415E-003  +3.8555361331E-002 +6.3228374347E-003  +9.4927966595E-001 -2.7431845665E-003 
14275550.688 +9.5599520206E-001 -4.3610930443E-003  +3.8389813155E-002 +6.2553985044E-003  +3.8330715150E-002 +6.3165165484E-003  +9.4993710518E-001 -3.4838020802E-003 
14400695.870 +9.5562487841E-001 -4.5741796494E-003  +3.8249604404E-002 +6.3165770844E-003  +3.8596466184E-002 +6.3424715772E-003  +9.4899797440E-001 -1.9034147263E-003 
