!  2-Port S-parameters saved by WinCal
! VAR MeasName=S-Parameters (CALIBRATED_DATA) read from VNA (P5004A)
! VAR MeasDate=22/05/2024 18:56:45
! VAR NAME=Wafer2_r2_c1_formed_neg1.2dc_repeat
! VAR FILENAME=Wafer2_r2_c1_formed_neg1.2dc_repeat.S2P
! VAR DATE=22/05/2024 18:56:45
! VAR PHYS_PORTS=1,2
! VAR ObjTypeName=DATASET
! VAR IndexType=Frequency
!
# Hz S RI R 50
9000.000 +2.1204429865E-001 -5.9669822454E-001  -4.4122356921E-003 -7.3562692851E-003  +1.0074208258E-003 -3.5914424807E-003  +5.1053665578E-002 +1.0618236661E-001 
134145.181 +6.7598170042E-001 +4.2454183102E-002  +5.6065104902E-002 -3.0090101063E-002  +1.7299816012E-002 +3.2100219280E-002  -4.4678443670E-001 -1.0595892370E-001 
259290.363 +8.5935765505E-001 -1.0099335015E-001  +1.7047381029E-002 -1.1596269906E-002  -1.3197371736E-002 -1.0095771402E-002  +1.0974870920E+000 -1.0278718472E+000 
384435.544 +9.0678811073E-001 -2.4949382246E-001  +1.6187872738E-002 -2.2140432149E-002  +5.0272092223E-002 +6.7619243637E-003  +2.5685224533E+000 -2.7409629822E+000 
509580.726 +9.6557950974E-001 -1.3184142113E-001  +2.2917001043E-003 -1.3577024220E-003  +4.9106013030E-003 +2.2501614876E-003  +1.7955422401E+000 -4.5615720749E-001 
634725.907 +1.0828001499E+000 -1.8135717511E-001  +9.9691301584E-003 +6.4935986884E-003  -9.7711207345E-003 -9.8207732663E-004  +5.2099323273E+000 +4.7773337364E-001 
759871.089 +1.2665154934E+000 -8.6356580257E-002  -8.7361282203E-004 -1.7312153941E-003  +4.7337647993E-004 +1.8192084972E-003  +1.4495532513E+000 +3.7276005745E-001 
885016.270 +7.8659564257E-001 -8.0907928944E-001  -1.2868194608E-003 +7.5459247455E-004  +6.1286368873E-004 -3.8696357515E-003  +1.2201858759E+000 +4.8581209779E-001 
1010161.452 +1.0423215628E+000 -5.8034516871E-002  -1.9682649872E-004 -1.9814402913E-004  -5.6094606407E-004 +1.3989412400E-004  +1.1975771189E+000 +4.8853963614E-001 
1135306.633 +9.9335849285E-001 +2.1768923849E-002  +6.0620886507E-004 +5.8657542104E-004  -5.0389813259E-004 +7.8372991993E-005  +1.3069738150E+000 +6.0420650244E-001 
1260451.815 +1.3172219992E+000 +4.4885903597E-002  +3.0109455111E-004 +6.3930725446E-005  +3.9616605500E-004 -7.4808479985E-004  +1.1004132032E+000 +7.0351713896E-001 
1385596.996 +1.2470409870E+000 -8.0790340900E-002  +1.0345301416E-004 -5.2959279856E-005  +6.0550350463E-004 +1.7375304014E-004  +9.8727983236E-001 +4.8181641102E-001 
1510742.178 +1.3648923635E+000 -1.9274091721E-001  +3.5389856203E-004 +8.1509264419E-005  -4.0695228381E-004 +2.1992498660E-004  +6.7970240116E-001 +5.7450556755E-001 
1635887.359 +9.5102024078E-001 -2.6912206411E-001  +3.9938191185E-004 -9.3884591479E-006  +2.9491362511E-004 -3.8460435462E-004  +1.5224095583E+000 +6.2991309166E-001 
1761032.541 +9.9849081039E-001 -2.5360718369E-001  -2.8209688026E-004 +2.3256508575E-004  -2.6615656679E-004 +6.8540139182E-005  +1.1059112549E+000 +8.2724255323E-001 
1886177.722 +9.8245501518E-001 -1.2833563983E-001  +5.6259796111E-005 -1.4781969185E-005  -3.8009075070E-005 +1.7114328512E-004  +1.1458433867E+000 +5.5911332369E-001 
2011322.904 +9.8441410065E-001 -8.9386284351E-002  -2.1672350704E-004 +2.7894906816E-004  -1.7105630832E-004 +4.7807514784E-004  +1.1586097479E+000 +5.2630752325E-001 
2136468.085 +9.9579787254E-001 -6.8024843931E-002  -1.3199803652E-004 +2.4788934388E-004  -1.5798676759E-004 +2.6584291481E-004  +1.0965633392E+000 +4.7737294436E-001 
2261613.267 +9.9830770493E-001 -5.2136451006E-002  -2.5373106473E-004 +1.6019293980E-004  -1.7947060405E-004 +3.7253927439E-004  +1.0528926849E+000 +5.1516634226E-001 
2386758.448 +9.9116855860E-001 -4.3322294950E-002  -2.8138671769E-004 +5.2366137970E-004  -4.9057329306E-004 +3.9279903285E-004  +1.0711545944E+000 +5.4497259855E-001 
2511903.630 +9.9134206772E-001 -3.3561885357E-003  -1.1881390674E-004 +5.3059909260E-004  -3.6733419984E-004 +3.9116811240E-004  +1.1142487526E+000 +5.8090150356E-001 
2637048.811 +9.9850499630E-001 +3.6110952497E-003  -7.2900811210E-004 +4.0207686834E-004  -2.6491770404E-004 +4.4637956307E-004  +1.1211003065E+000 +6.1009800434E-001 
2762193.992 +9.9691218138E-001 +2.9571443796E-002  -6.2296027318E-004 +5.8725528652E-004  -6.9459585939E-004 +4.0082892519E-004  +1.1359610558E+000 +5.1594799757E-001 
2887339.174 +9.8202800751E-001 +4.2709976435E-002  +9.7164884210E-005 +1.8639075570E-003  -4.2539465358E-004 +7.1323470911E-004  +9.9643105268E-001 +5.0692701340E-001 
3012484.355 +1.0075173378E+000 +4.8704743385E-002  -5.9657386737E-004 +5.0750235096E-004  -4.1098915972E-004 +8.3693640772E-004  +9.4800233841E-001 +6.1629164219E-001 
3137629.537 +1.0034370422E+000 +6.8018108606E-002  -4.8598693684E-004 +6.5017212182E-004  -5.2558653988E-004 +4.7853201977E-004  +9.7138845921E-001 +7.2432965040E-001 
3262774.718 +9.9852895737E-001 +8.4658473730E-002  -6.1212154105E-004 +8.5956306430E-004  -3.1465827487E-004 +7.9990719678E-004  +1.0184998512E+000 +7.8991472721E-001 
3387919.900 +1.0055416822E+000 +1.0281601548E-001  -4.5270752162E-004 +3.7166662514E-004  -1.7178861890E-004 +1.0920490604E-003  +1.0553789139E+000 +8.6166071892E-001 
3513065.081 +1.0196417570E+000 +1.1393195391E-001  -9.2537666205E-004 +9.4506755704E-004  -9.6554635093E-004 +9.2057173606E-004  +1.0922709703E+000 +9.3953400850E-001 
3638210.263 +1.0337402821E+000 +1.3939446211E-001  -1.2576631270E-003 +1.1400658404E-003  -1.1521897977E-003 +1.1607361957E-003  +1.1829901934E+000 +9.7454601526E-001 
3763355.444 +1.0403029919E+000 +1.5795958042E-001  -1.1702147312E-003 +1.3118132483E-003  -9.8975910805E-004 +1.1149088386E-003  +1.2777448893E+000 +1.0125522614E+000 
3888500.626 +1.0728893280E+000 +1.7535781860E-001  -1.3515604660E-003 +1.1111386120E-003  -5.9095455799E-004 +8.8179094018E-004  +1.3692802191E+000 +1.0784053802E+000 
4013645.807 +1.0307154655E+000 +8.4727764130E-002  -9.3936151825E-004 +1.6431142576E-003  -1.3159804512E-003 +1.7460992094E-003  +1.6522948742E+000 +8.7265181541E-001 
4138790.989 +9.6104663610E-001 +2.2431910038E-003  -8.4560480900E-004 +1.9012847915E-003  -1.1731947307E-003 +2.8904390056E-003  +1.7897319794E+000 +5.5340987444E-001 
4263936.170 +9.5312720537E-001 +7.3134899139E-003  -1.0099656647E-003 +2.6137209497E-003  -8.4253004752E-004 +2.2142902017E-003  +1.8449354172E+000 +4.5072257519E-001 
4389081.352 +9.6215707064E-001 -1.1914968491E-004  -2.7310621226E-004 +2.5346805342E-003  -4.6813953668E-004 +3.5755273420E-003  +1.8892936707E+000 +3.1701910496E-001 
4514226.533 +9.7223496437E-001 -1.2391507626E-003  -2.1176517475E-004 +2.7437489480E-003  -5.6301779114E-004 +3.1966031529E-003  +1.9286990166E+000 +2.1731987596E-001 
4639371.715 +9.8154354095E-001 -2.4894177914E-003  -6.0478464002E-004 +2.7583620977E-003  -3.1145947287E-004 +3.5291658714E-003  +1.9234523773E+000 +1.4560613036E-001 
4764516.896 +9.7927761078E-001 -1.0428741574E-002  -3.0406081351E-004 +2.7551965322E-003  -1.2232962763E-004 +2.9369858094E-003  +1.9326404333E+000 +4.2395025492E-002 
4889662.078 +9.8050981760E-001 -4.2256712914E-003  -1.4718971215E-005 +3.1226621941E-003  -8.1221805885E-006 +3.3641725313E-003  +1.9317774773E+000 -4.4006764889E-002 
5014807.259 +9.7895163298E-001 -1.0941043496E-002  +2.6818015613E-005 +3.1082872301E-003  -2.0543386927E-004 +3.2344961073E-003  +1.8755371571E+000 -1.1259219050E-001 
5139952.441 +9.8603653908E-001 -1.9670680165E-002  -2.8350303182E-004 +3.5275190603E-003  -4.2367627611E-004 +3.1823008321E-003  +1.8548107147E+000 -2.1371757984E-001 
5265097.622 +9.8877340555E-001 -1.0436043143E-002  +1.9460712792E-004 +3.0787654687E-003  +4.7746114433E-004 +3.3811030444E-003  +1.8104947805E+000 -2.7124810219E-001 
5390242.804 +9.8776447773E-001 -8.3420872688E-003  -1.4192610979E-004 +3.5471727606E-003  +3.9640121395E-004 +3.4568738192E-003  +1.7555582523E+000 -3.1333860755E-001 
5515387.985 +9.9896883965E-001 -3.7281662226E-003  +7.6587131480E-004 +3.9208452217E-003  +4.7488434939E-004 +4.1402149945E-003  +1.7080267668E+000 -3.8449013233E-001 
5640533.166 +1.0004028082E+000 -8.1634074450E-003  +6.7504617618E-004 +3.5245537292E-003  +9.3889381969E-004 +3.5151401535E-003  +1.6816892624E+000 -4.1856265068E-001 
5765678.348 +9.9611145258E-001 -1.0052531958E-002  +7.0323958062E-004 +3.5648993216E-003  +8.1189739285E-004 +3.8317693397E-003  +1.6196368933E+000 -4.5432832837E-001 
5890823.529 +9.9616515636E-001 -1.2022554874E-002  +2.7451600181E-004 +3.6802415270E-003  +4.0722137783E-004 +3.3396440558E-003  +1.5580060482E+000 -4.7946065664E-001 
6015968.711 +9.9500882626E-001 -1.9680052996E-002  +5.8538326994E-004 +3.4326051828E-003  +1.2596920133E-003 +3.5471161827E-003  +1.5161184072E+000 -5.0826716423E-001 
6141113.892 +9.9384534359E-001 -2.0806461573E-002  +3.4337109537E-004 +3.1666459981E-003  +6.3713802956E-004 +3.0915511306E-003  +1.4554580450E+000 -5.2356266975E-001 
6266259.074 +9.9165844917E-001 -1.5566036105E-002  +7.8049022704E-004 +3.3690133132E-003  +8.2250020932E-004 +3.3069171477E-003  +1.4044584036E+000 -5.3001213074E-001 
6391404.255 +9.9310868979E-001 -2.7153268456E-002  +1.0440939805E-003 +3.5908990540E-003  +8.7325571803E-004 +3.6773397587E-003  +1.3434493542E+000 -5.4188847542E-001 
6516549.437 +9.9274480343E-001 -2.4177730083E-002  +7.3359109228E-004 +3.7117782049E-003  +6.0474197380E-004 +3.7960540503E-003  +1.3053226471E+000 -5.4413688183E-001 
6641694.618 +9.9736940861E-001 -1.6337618232E-002  +8.3731883205E-004 +3.4009166993E-003  +8.8050786871E-004 +3.3998414874E-003  +1.2647868395E+000 -5.5179512501E-001 
6766839.800 +1.0017733574E+000 -2.1484166384E-002  +6.1967677902E-004 +3.6036453675E-003  +9.2223467072E-004 +3.3819181845E-003  +1.2250797749E+000 -5.5614089966E-001 
6891984.981 +9.9586677551E-001 -2.5111570954E-002  +9.6899829805E-004 +3.5701119341E-003  +1.0164250853E-003 +3.3117881976E-003  +1.1717557907E+000 -5.4826629162E-001 
7017130.163 +9.9242824316E-001 -1.9631057978E-002  +9.2889345251E-004 +3.8904079702E-003  +8.0049241660E-004 +3.7228984293E-003  +1.1431723833E+000 -5.3475034237E-001 
7142275.344 +9.9922704697E-001 -1.6388043761E-002  +8.5017422680E-004 +3.4359772690E-003  +8.3691393957E-004 +3.4927711822E-003  +1.1144361496E+000 -5.2780789137E-001 
7267420.526 +9.9545913935E-001 -1.3882175088E-002  +8.2585884957E-004 +3.3502662554E-003  +9.2536123702E-004 +3.7375066895E-003  +1.0852332115E+000 -5.1916229725E-001 
7392565.707 +9.9794346094E-001 -1.3376116753E-002  +9.4063219149E-004 +3.6006905138E-003  +8.2084402675E-004 +3.6399706732E-003  +1.0518102646E+000 -5.1573908329E-001 
7517710.889 +9.9936729670E-001 -1.2412220240E-002  +7.6325994451E-004 +3.8713051472E-003  +6.9625856122E-004 +3.5776402801E-003  +1.0242878199E+000 -4.9827706814E-001 
7642856.070 +9.9376201630E-001 -1.3189032674E-002  +8.0680544488E-004 +3.8217119873E-003  +1.0058542248E-003 +3.6077431869E-003  +9.8733466864E-001 -4.8865726590E-001 
7768001.252 +9.9647176266E-001 -1.1883109808E-002  +7.6672009891E-004 +3.4767056350E-003  +1.0175902862E-003 +3.5008355044E-003  +9.6160626411E-001 -4.7777923942E-001 
7893146.433 +9.9829012156E-001 -1.0250419378E-002  +8.9758879039E-004 +3.7132636644E-003  +8.8095536921E-004 +3.6110198125E-003  +9.4061887264E-001 -4.5801210403E-001 
8018291.615 +9.9394875765E-001 -1.5449419618E-002  +8.9717906667E-004 +3.6676116288E-003  +7.0698832860E-004 +3.6173542030E-003  +9.1443210840E-001 -4.4445520639E-001 
8143436.796 +9.9299991131E-001 -1.5424311161E-002  +9.4853254268E-004 +3.3579459414E-003  +9.8191888537E-004 +3.6283135414E-003  +8.9769572020E-001 -4.2499792576E-001 
8268581.977 +9.9055624008E-001 -1.5451222658E-002  +8.4929884179E-004 +3.3750173170E-003  +9.8641484510E-004 +3.7443188485E-003  +8.7976521254E-001 -4.1107192636E-001 
8393727.159 +9.9240994453E-001 -2.0163714886E-002  +6.8811158417E-004 +3.6851326004E-003  +9.0552621987E-004 +3.7357681431E-003  +8.6231976748E-001 -3.9406278729E-001 
8518872.340 +9.9577349424E-001 -1.9504189491E-002  +7.1193347685E-004 +3.7845773622E-003  +7.6403911225E-004 +3.4907720983E-003  +8.4249812365E-001 -3.7562116981E-001 
8644017.522 +9.9061334133E-001 -1.3668119907E-002  +8.3053158596E-004 +3.5867062397E-003  +5.0502864178E-004 +3.7470625248E-003  +8.3600825071E-001 -3.6394435167E-001 
8769162.703 +9.9470460415E-001 -1.0736167431E-002  +5.9435889125E-004 +3.6546713673E-003  +5.4365827236E-004 +3.8124911953E-003  +8.1758356094E-001 -3.4916025400E-001 
8894307.885 +9.9176943302E-001 -1.5228122473E-002  +5.6599441450E-004 +3.7710382603E-003  +7.0862052962E-004 +3.7821317092E-003  +8.0301231146E-001 -3.3596324921E-001 
9019453.066 +9.9209761620E-001 -1.5296578407E-002  +5.3182756528E-004 +3.6737127230E-003  +4.0925783105E-004 +3.8597220555E-003  +7.9152911901E-001 -3.1630992889E-001 
9144598.248 +9.9182695150E-001 -1.7213135958E-002  +5.6348263752E-004 +3.6863519344E-003  +5.6080799550E-004 +3.8664743770E-003  +7.7903771400E-001 -2.9847884178E-001 
9269743.429 +9.9292898178E-001 -1.2810260057E-002  +5.6883879006E-004 +3.8141375408E-003  +5.1321787760E-004 +3.8392413408E-003  +7.7107095718E-001 -2.7976471186E-001 
9394888.611 +9.9266356230E-001 -9.3133449554E-003  +4.5374175534E-004 +3.9113936946E-003  +5.9935578611E-004 +3.8660801947E-003  +7.5884783268E-001 -2.7031588554E-001 
9520033.792 +9.9305737019E-001 -1.6444027424E-002  +4.1691772640E-004 +3.8937658537E-003  +4.6527839731E-004 +3.9526186883E-003  +7.5230765343E-001 -2.4680419266E-001 
9645178.974 +9.9396628141E-001 -1.2075006962E-002  +4.0864374023E-004 +4.0751136839E-003  +4.2744853999E-004 +3.9733969606E-003  +7.4477910995E-001 -2.3081061244E-001 
9770324.155 +9.9121892452E-001 -9.8581314087E-003  +2.7007085737E-004 +4.0374519303E-003  +3.1851255335E-004 +3.9417487569E-003  +7.3841202259E-001 -2.1186098456E-001 
9895469.337 +9.9292850494E-001 -1.0837286711E-002  +2.7254736051E-004 +4.0060756728E-003  +3.8033630699E-004 +4.1561853141E-003  +7.3078018427E-001 -1.9597345591E-001 
10020614.518 +9.9178707600E-001 -9.9313855171E-003  +2.7802435216E-004 +4.1595548391E-003  +4.1143142153E-004 +4.1673667729E-003  +7.2800880671E-001 -1.7704030871E-001 
10145759.700 +9.9215543270E-001 -1.1104851961E-002  +3.4232425969E-004 +4.1678058915E-003  +2.6527652517E-004 +4.2717419565E-003  +7.2436511517E-001 -1.6320419312E-001 
10270904.881 +9.9390298128E-001 -1.5049457550E-002  +2.7284712996E-004 +4.1706697084E-003  +2.2356316913E-004 +4.3250299059E-003  +7.2135621309E-001 -1.4706981182E-001 
10396050.063 +9.9061852694E-001 -1.2736886740E-002  +1.7959461547E-004 +4.2943106964E-003  +2.3052445613E-004 +4.4173090719E-003  +7.1690058708E-001 -1.2995278835E-001 
10521195.244 +9.9277114868E-001 -1.1128216982E-002  +4.3640844524E-005 +4.3819444254E-003  +2.1442305297E-004 +4.4435122982E-003  +7.1784400940E-001 -1.1450701952E-001 
10646340.426 +9.9176955223E-001 -1.1599749327E-002  +6.2924344093E-005 +4.5218449086E-003  +1.7988984473E-004 +4.4724247418E-003  +7.1564173698E-001 -9.8314404488E-002 
10771485.607 +9.8974525928E-001 -1.0241866112E-002  +5.7398574427E-005 +4.4941315427E-003  +2.0126765594E-004 +4.5255073346E-003  +7.1557247639E-001 -8.2304358482E-002 
10896630.788 +9.9192208052E-001 -9.8230838776E-003  +7.2056893259E-005 +4.6413764358E-003  +8.4440689534E-006 +4.6053896658E-003  +7.1709978580E-001 -6.7108899355E-002 
11021775.970 +9.9125760794E-001 -8.6613595486E-003  -5.7968776673E-005 +4.6318075620E-003  +5.7568307966E-005 +4.6858596615E-003  +7.1752160788E-001 -5.1210016012E-002 
11146921.151 +9.9048948288E-001 -1.0594129562E-002  -9.1305235401E-005 +4.6794805676E-003  +8.0650206655E-006 +4.7819176689E-003  +7.1921205521E-001 -3.6240875721E-002 
11272066.333 +9.9013125896E-001 -1.0065138340E-002  -4.3016392738E-005 +4.8004426062E-003  +6.7870132625E-007 +4.7955438495E-003  +7.1907818317E-001 -2.2177904844E-002 
11397211.514 +9.9162077904E-001 -1.0450899601E-002  -7.3082279414E-005 +4.9462262541E-003  -5.5915676057E-005 +4.8811519518E-003  +7.2462987900E-001 -7.5186789036E-003 
11522356.696 +9.9019443989E-001 -1.0124802589E-002  -1.3692188077E-004 +4.9545620568E-003  -1.7365440726E-005 +5.0008669496E-003  +7.2753119469E-001 +6.2502324581E-003 
11647501.877 +9.8975747824E-001 -8.9683532715E-003  -1.5463470481E-004 +5.0607081503E-003  -8.8379718363E-005 +5.0300378352E-003  +7.3006200790E-001 +1.9481211901E-002 
11772647.059 +9.9013793468E-001 -8.4118545055E-003  -2.9057031497E-004 +5.0854794681E-003  -1.6210507601E-004 +5.1358919591E-003  +7.3539400101E-001 +3.3169925213E-002 
11897792.240 +9.8932325840E-001 -8.5547268391E-003  -2.7553434484E-004 +5.1956861280E-003  -2.2320006974E-004 +5.2095693536E-003  +7.4102765322E-001 +4.6109139919E-002 
12022937.422 +9.9210870266E-001 -6.5342783928E-003  -2.6461179368E-004 +5.2120732144E-003  -2.5541195646E-004 +5.3190658800E-003  +7.4679350853E-001 +5.7643204927E-002 
12148082.603 +9.9184536934E-001 -8.1080198288E-003  -3.0828313902E-004 +5.3933933377E-003  -2.2565107793E-004 +5.4406179115E-003  +7.5398516655E-001 +7.1704864502E-002 
12273227.785 +9.9146527052E-001 -6.8733096123E-003  -3.3864891157E-004 +5.4497122765E-003  -3.6733096931E-004 +5.4126018658E-003  +7.6045125723E-001 +8.3718150854E-002 
12398372.966 +9.9143087864E-001 -7.7849328518E-003  -3.5477173515E-004 +5.5493516847E-003  -3.3547345083E-004 +5.5340975523E-003  +7.6904165745E-001 +9.3964010477E-002 
12523518.148 +9.8975408077E-001 -6.5439939499E-003  -4.0099176113E-004 +5.6111766025E-003  -3.2750132959E-004 +5.6760385633E-003  +7.7675664425E-001 +1.0395786166E-001 
12648663.329 +9.9115240574E-001 -4.8436969519E-003  -4.1113095358E-004 +5.6914528832E-003  -3.2498384826E-004 +5.7332846336E-003  +7.8551334143E-001 +1.1513245106E-001 
12773808.511 +9.9117571115E-001 -5.7483017445E-003  -4.7572236508E-004 +5.7330485433E-003  -3.3552502282E-004 +5.7862969115E-003  +7.9455041885E-001 +1.2514795363E-001 
12898953.692 +9.9114489555E-001 -5.6037902832E-003  -4.5672908891E-004 +5.9120594524E-003  -4.0174444439E-004 +5.8653918095E-003  +8.0391758680E-001 +1.3374656439E-001 
13024098.874 +9.9167764187E-001 -5.7121366262E-003  -4.7788530355E-004 +6.0098757967E-003  -4.4643710135E-004 +6.0522826388E-003  +8.1413316727E-001 +1.4389619231E-001 
13149244.055 +9.9114185572E-001 -5.3559318185E-003  -5.3137645591E-004 +6.1526093632E-003  -4.3697422370E-004 +6.1573521234E-003  +8.2445198298E-001 +1.5211711824E-001 
13274389.237 +9.9102938175E-001 -5.2046226338E-003  -4.8646054347E-004 +6.1964420602E-003  -4.4697144767E-004 +6.2434491701E-003  +8.3606934547E-001 +1.6053906083E-001 
13399534.418 +9.9110454321E-001 -4.3198205531E-003  -5.0684373127E-004 +6.3268505037E-003  -4.6314191422E-004 +6.3235871494E-003  +8.4671121836E-001 +1.6784065962E-001 
13524679.599 +9.9034571648E-001 -3.7277266383E-003  -4.9716106150E-004 +6.4294710755E-003  -4.5049539767E-004 +6.4026135951E-003  +8.5750192404E-001 +1.7425774038E-001 
13649824.781 +9.9209547043E-001 -4.9464851618E-003  -4.7513045138E-004 +6.5073850565E-003  -4.4025655370E-004 +6.5441713668E-003  +8.7016361952E-001 +1.7925006151E-001 
13774969.962 +9.9115717411E-001 -4.7679990530E-003  -4.5351567678E-004 +6.6290362738E-003  -4.2102672160E-004 +6.6503062844E-003  +8.8170784712E-001 +1.8422773480E-001 
13900115.144 +9.9171549082E-001 -4.4899880886E-003  -4.8314582091E-004 +6.7723901011E-003  -4.2596703861E-004 +6.7472988740E-003  +8.9311420918E-001 +1.8854077160E-001 
14025260.325 +9.9083358049E-001 -2.6850700378E-003  -4.8410356976E-004 +6.8528046831E-003  -4.4951750897E-004 +6.8294438533E-003  +9.0556669235E-001 +1.9186481833E-001 
14150405.507 +9.9075341225E-001 -3.0899643898E-003  -5.0051696599E-004 +6.9688493386E-003  -4.3115112931E-004 +6.9901170209E-003  +9.1822504997E-001 +1.9449725747E-001 
14275550.688 +9.9183928967E-001 -3.1918287277E-003  -4.5498181134E-004 +7.0824902505E-003  -4.0406826884E-004 +7.0921140723E-003  +9.3140619993E-001 +1.9628064334E-001 
