!  2-Port S-parameters saved by WinCal
! VAR MeasName=S-Parameters (CALIBRATED_DATA) read from VNA (P5004A)
! VAR MeasDate=22/05/2024 18:16:09
! VAR NAME=Wafer2_r2_c1_pristine_neg1.2dc
! VAR FILENAME=Wafer2_r2_c1_pristine_neg1.2dc.S2P
! VAR DATE=22/05/2024 18:16:09
! VAR PHYS_PORTS=1,2
! VAR ObjTypeName=DATASET
! VAR IndexType=Frequency
!
# Hz S RI R 50
9000.000 +2.1979530156E-001 -5.9648489952E-001  -1.2487410568E-003 -1.3105619699E-002  +2.4966115598E-003 -1.8140531611E-003  +5.3069982678E-002 +1.0523751378E-001 
134145.181 +6.0884881020E-001 -7.1436151862E-002  -3.9693103172E-003 -1.8017477123E-003  -1.3119782321E-002 -2.4488931522E-003  +4.3804593384E-002 -2.1284063160E-001 
259290.363 +8.0046480894E-001 -1.5050671995E-001  -2.4153138511E-003 +1.2689091265E-002  +1.0546820238E-002 +2.7246591635E-003  +1.5017855167E+000 -9.2985951900E-001 
384435.544 +8.7389558554E-001 -2.9684993625E-001  +1.1022724211E-002 -1.2391446158E-002  +1.5711378306E-002 +2.1081557497E-002  +3.3235373497E+000 -3.1750442982E+000 
509580.726 +9.4415414333E-001 -1.6514858603E-001  +1.0261021089E-003 +8.9301000116E-005  +3.5886135884E-003 +1.6089926939E-003  +1.6874878407E+000 -6.6415470839E-001 
634725.907 +1.0879936218E+000 -2.0724290609E-001  +4.1185482405E-003 +6.2466273084E-004  -4.4083795510E-003 +5.1946495660E-003  +3.3222169876E+000 +7.2431278229E-001 
759871.089 +1.2690145969E+000 -5.0506293774E-002  -2.1487798076E-003 -2.5285489392E-004  +1.9157947972E-003 +7.6620740583E-004  +1.4495964050E+000 +4.2900264263E-001 
885016.270 +1.1489117146E+000 -3.1610041857E-001  -2.4802808184E-004 -5.5306732975E-005  -3.9344921242E-004 -1.3411743566E-003  +1.2077155113E+000 +4.9569737911E-001 
1010161.452 +1.2523746490E+000 -9.8961383104E-002  +9.8633940797E-004 +9.6039962955E-005  -5.0959555665E-005 -8.9634704636E-005  +1.1839841604E+000 +4.9717104435E-001 
1135306.633 +1.3131811619E+000 -1.4759261906E-001  +3.3601274481E-004 +6.0392561863E-005  +6.2552600866E-004 -3.9184608613E-004  +1.2991592884E+000 +6.1033582687E-001 
1260451.815 +1.5591006279E+000 -1.3863658905E-001  -4.0691430331E-004 -7.1065151133E-004  -6.7867265898E-005 +6.1318953522E-004  +1.1006133556E+000 +7.0236384869E-001 
1385596.996 +1.3838646412E+000 -1.2500673532E-001  +1.3826396025E-004 +1.1831566371E-004  -2.6482262183E-004 +4.1693143430E-005  +9.8625671864E-001 +4.8232543468E-001 
1510742.178 +1.6216392517E+000 -1.5070199966E-001  -1.5116189024E-004 +3.2245449256E-004  -8.6172454758E-005 +1.5486218035E-004  +6.7907214165E-001 +5.7422506809E-001 
1635887.359 +1.1268750429E+000 -3.7940773368E-001  +2.3942462576E-004 +2.4910963839E-004  +1.4179215941E-004 +1.6405558563E-004  +1.5221335888E+000 +6.3026905060E-001 
1761032.541 +1.2931835651E+000 -3.2006293535E-001  +4.4958560466E-005 +1.6702996800E-004  +1.8452771474E-004 +2.1944163018E-004  +1.1048343182E+000 +8.2670557499E-001 
1886177.722 +1.2236173153E+000 -2.4702537060E-001  -3.3315845940E-006 -7.8900426161E-005  -8.1884682004E-005 +2.1469904459E-004  +1.1453431845E+000 +5.5846101046E-001 
2011322.904 +1.2157067060E+000 -2.4521014094E-001  -1.9377176068E-004 +1.7602236767E-004  -1.5266789705E-004 +3.6130449735E-004  +1.1580587626E+000 +5.2599662542E-001 
2136468.085 +1.2177935839E+000 -1.8874949217E-001  -1.7045783170E-004 +5.4915668443E-004  -2.5867376826E-004 +3.6317773629E-004  +1.0966057777E+000 +4.7680351138E-001 
2261613.267 +1.2350374460E+000 -1.9326552749E-001  -1.5996865113E-004 +4.0683490806E-004  -5.1105231978E-004 +4.9242418027E-004  +1.0545835495E+000 +5.1449370384E-001 
2386758.448 +1.2332429886E+000 -2.0277607441E-001  -3.2452787855E-004 +3.6762401578E-004  -4.9824517919E-004 +1.7488827871E-004  +1.0733504295E+000 +5.4350316525E-001 
2511903.630 +1.2540034056E+000 -2.2993750870E-001  -3.6949990317E-004 +5.3901236970E-004  -6.0164259048E-004 +5.6993559701E-004  +1.1168498993E+000 +5.7915693521E-001 
2637048.811 +1.2002266645E+000 -2.5999954343E-001  -6.4462813316E-004 +6.4763368573E-004  -2.7898733970E-004 +5.2705779672E-004  +1.1250066757E+000 +6.0559350252E-001 
2762193.992 +1.1470971107E+000 -1.7577707767E-001  -5.6024163496E-004 +4.4909829739E-004  -3.4714071080E-004 +4.2440608377E-004  +1.1411166191E+000 +5.0688707829E-001 
2887339.174 +1.1982413530E+000 -1.3589805365E-001  -8.8738423074E-004 +5.2243249957E-004  -5.9258460533E-004 +2.0693610713E-004  +9.9556118250E-001 +5.0448119640E-001 
3012484.355 +1.2317169905E+000 -1.5419611335E-001  -4.7618692042E-004 +4.8595684348E-004  -5.4414034821E-004 +7.2468118742E-004  +9.4936609268E-001 +6.1150664091E-001 
3137629.537 +1.2533981800E+000 -1.5395957232E-001  -2.1917853155E-004 +3.3895007800E-004  -8.3925918443E-004 +7.7170599252E-004  +9.7003710270E-001 +7.2210836411E-001 
3262774.718 +1.2500597239E+000 -1.6467827559E-001  -6.7834788933E-004 +8.5268705152E-004  -8.6120312335E-004 +6.9143855944E-004  +1.0180613995E+000 +7.8681099415E-001 
3387919.900 +1.2549501657E+000 -1.7995458841E-001  -1.2962355977E-003 +1.1970391497E-003  -7.9042458674E-004 +1.3173581101E-003  +1.0613342524E+000 +8.5330289602E-001 
3513065.081 +1.2776587009E+000 -2.1356862783E-001  -1.1708862148E-003 +1.0961786611E-003  -1.2263837270E-003 +9.7241078038E-004  +1.0984584093E+000 +9.2903256416E-001 
3638210.263 +1.3122380972E+000 -2.4115258455E-001  -3.2387785614E-003 +2.3710075766E-004  -9.5077935839E-004 +9.2446245253E-004  +1.1789926291E+000 +9.6486622095E-001 
3763355.444 +1.2876869440E+000 -2.5123703480E-001  -8.8177958969E-004 +1.6954977764E-003  -1.3704374433E-003 +1.5791847836E-003  +1.2841312885E+000 +1.0055762529E+000 
3888500.626 +1.2868908644E+000 -3.1196305156E-001  -1.4285575598E-003 +1.4200323494E-003  -7.0571049582E-004 +1.6576115740E-003  +1.3736207485E+000 +1.0684205294E+000 
4013645.807 +1.0765277147E+000 -4.1670593619E-001  +1.0428344831E-004 +2.1572499536E-003  +3.8569164462E-004 +2.1171001717E-003  +1.6599866152E+000 +8.5454833508E-001 
4138790.989 +8.6765915155E-001 -4.5237374306E-001  -4.2725511594E-004 +2.3695679847E-003  -1.7338123871E-004 +1.9286845345E-003  +1.7843775749E+000 +5.3385549784E-001 
4263936.170 +8.3101141453E-001 -4.5211201906E-001  +1.2975756545E-004 +2.2739465348E-003  +8.8536017574E-004 +2.4175306316E-003  +1.8404822350E+000 +4.3294155598E-001 
4389081.352 +7.8657966852E-001 -4.3641245365E-001  +4.3886731146E-004 +1.8822605489E-003  -1.3670450426E-004 +2.4558485020E-003  +1.8737554550E+000 +2.9626482725E-001 
4514226.533 +7.6746416092E-001 -4.3138462305E-001  +4.0818011621E-004 +3.5217381082E-003  +3.2533932244E-004 +2.8907463420E-003  +1.9076620340E+000 +2.1310485899E-001 
4639371.715 +7.3780077696E-001 -4.1503435373E-001  +1.0713259690E-004 +2.2937145550E-003  +4.3688592268E-004 +2.6848232374E-003  +1.9047991037E+000 +1.3660684228E-001 
4764516.896 +7.0004093647E-001 -3.7796095014E-001  +1.6181400861E-004 +2.4067054037E-003  +2.3353038705E-004 +2.6090790052E-003  +1.9092921019E+000 +4.0907710791E-002 
4889662.078 +6.7994844913E-001 -3.5696405172E-001  -3.3788281144E-004 +2.8158470523E-003  +4.0493963752E-004 +3.5117543302E-003  +1.9115389585E+000 -3.3525392413E-002 
5014807.259 +6.5323954821E-001 -3.3217871189E-001  +5.4357957561E-004 +2.9892260209E-003  +7.7118957415E-004 +2.1609447431E-003  +1.8602496386E+000 -1.0938279331E-001 
5139952.441 +6.3522183895E-001 -3.1765967607E-001  +4.9554125872E-004 +2.9237947892E-003  +6.4476905391E-004 +3.3277615439E-003  +1.8459582329E+000 -1.9746401906E-001 
5265097.622 +6.1859279871E-001 -2.7542075515E-001  +1.9220255490E-004 +2.2487766109E-003  +6.0957064852E-004 +2.6851361617E-003  +1.7835446596E+000 -2.5797820091E-001 
5390242.804 +6.0321134329E-001 -2.4477362633E-001  +1.6460390179E-004 +3.0975735281E-003  +1.0931423167E-003 +2.3090261966E-003  +1.7381519079E+000 -3.1259837747E-001 
5515387.985 +5.9279268980E-001 -2.1895080805E-001  +1.0550065199E-003 +2.3101381958E-003  +5.5110023823E-004 +2.9799069744E-003  +1.6990329027E+000 -3.7855252624E-001 
5640533.166 +5.8269119263E-001 -1.8655991554E-001  -1.1376867042E-004 +2.7205152437E-003  +1.0497997282E-003 +3.2581691630E-003  +1.6689070463E+000 -4.1593518853E-001 
5765678.348 +5.6770384312E-001 -1.6230022907E-001  +7.8982167179E-004 +3.0531210359E-003  +1.4909105084E-004 +2.9404025991E-003  +1.6085178852E+000 -4.5129922032E-001 
5890823.529 +5.6218546629E-001 -1.2824597955E-001  +3.3123628236E-004 +2.7819694951E-003  +5.3669279441E-004 +2.5060491171E-003  +1.5437850952E+000 -4.8458892107E-001 
6015968.711 +5.6228619814E-001 -1.0076564550E-001  +7.5804186054E-004 +2.3607469629E-003  +6.3670496456E-004 +2.6381721254E-003  +1.5010553598E+000 -5.0542175770E-001 
6141113.892 +5.5759173632E-001 -6.7671142519E-002  +5.7499384275E-004 +2.7659663465E-003  +3.6500149872E-004 +2.8869726229E-003  +1.4466263056E+000 -5.1025009155E-001 
6266259.074 +5.6042593718E-001 -3.1920559704E-002  +3.2961403485E-004 +2.6837976184E-003  +3.0321109807E-004 +2.9155490920E-003  +1.4005298615E+000 -5.2681726217E-001 
6391404.255 +5.6058543921E-001 -1.0356970131E-002  +6.4266927075E-004 +2.8716567904E-003  +2.4829644826E-004 +2.8833302204E-003  +1.3341348171E+000 -5.4712164402E-001 
6516549.437 +5.6547594070E-001 +2.1337337792E-002  +4.2134319665E-004 +2.8812002856E-003  +3.4885414061E-004 +2.6608922053E-003  +1.2992506027E+000 -5.4785645008E-001 
6641694.618 +5.7161486149E-001 +5.1750056446E-002  +2.1586909133E-004 +3.0036007520E-003  +2.9799283948E-004 +3.0717160553E-003  +1.2622956038E+000 -5.4781359434E-001 
6766839.800 +5.8680021763E-001 +7.8464537859E-002  +2.7807062725E-004 +3.0876386445E-003  +3.4017305006E-004 +2.9545573052E-003  +1.2198661566E+000 -5.4996544123E-001 
6891984.981 +5.9198361635E-001 +1.0130178928E-001  +5.3144735284E-004 +2.9010509606E-003  +4.5931281056E-004 +2.6857880875E-003  +1.1708011627E+000 -5.3716778755E-001 
7017130.163 +6.0731279850E-001 +1.3479387760E-001  +2.5734497467E-004 +2.8089764528E-003  +7.0970482193E-004 +3.1972506549E-003  +1.1433957815E+000 -5.2974444628E-001 
7142275.344 +6.1494821310E-001 +1.6103236377E-001  +2.3126730230E-004 +3.0691507272E-003  +4.0362036088E-005 +2.9621103313E-003  +1.1119792461E+000 -5.2379369736E-001 
7267420.526 +6.2944978476E-001 +1.8773305416E-001  +1.3228820171E-004 +3.0084070750E-003  +2.1290438599E-004 +3.0281096697E-003  +1.0791339874E+000 -5.1535540819E-001 
7392565.707 +6.4523452520E-001 +2.0938478410E-001  +2.8350518551E-004 +3.2351545524E-003  +6.3594139647E-005 +3.4089442343E-003  +1.0447583199E+000 -5.0554525852E-001 
7517710.889 +6.6490155458E-001 +2.2862923145E-001  -3.8204336306E-005 +3.3379145898E-003  +2.0717404550E-004 +3.5200768616E-003  +1.0214822292E+000 -4.9428474903E-001 
7642856.070 +6.8058079481E-001 +2.4681621790E-001  -3.0848430470E-005 +3.2447492704E-003  +1.3575295452E-004 +3.3226518426E-003  +9.8530006409E-001 -4.8822274804E-001 
7768001.252 +7.0391678810E-001 +2.7040433884E-001  +5.6696648244E-005 +3.3761626109E-003  +2.6285817148E-004 +3.4078822937E-003  +9.6263670921E-001 -4.6882688999E-001 
7893146.433 +7.2896808386E-001 +2.9226040840E-001  -5.7904340792E-005 +3.3977469429E-003  -4.8403569963E-005 +3.4762371797E-003  +9.3834155798E-001 -4.5425218344E-001 
8018291.615 +7.5105112791E-001 +3.0841800570E-001  +6.9341098424E-005 +3.7387942430E-003  +2.2393476684E-005 +3.5083694384E-003  +9.1206997633E-001 -4.4070416689E-001 
8143436.796 +7.7432221174E-001 +3.1665182114E-001  +4.1529478040E-005 +3.4618065692E-003  +7.9029821791E-005 +3.6164503545E-003  +8.9897888899E-001 -4.2419233918E-001 
8268581.977 +7.9716920853E-001 +3.3050942421E-001  -4.9819471315E-005 +3.4938529134E-003  +4.0505314246E-005 +3.4648212604E-003  +8.7696617842E-001 -4.0588295460E-001 
8393727.159 +8.2424223423E-001 +3.3826541901E-001  -4.0536629967E-005 +3.7044696510E-003  -1.3897393364E-004 +3.6878711544E-003  +8.5919708014E-001 -3.9268988371E-001 
8518872.340 +8.5396093130E-001 +3.5090282559E-001  -1.9162497483E-004 +3.6214638967E-003  +7.8610610217E-006 +3.7213172764E-003  +8.4247076511E-001 -3.6832359433E-001 
8644017.522 +8.7745738029E-001 +3.5636472702E-001  -1.9151897868E-004 +3.8909253199E-003  -2.0958419191E-004 +3.9135850966E-003  +8.3244591951E-001 -3.5728910565E-001 
8769162.703 +9.0649521351E-001 +3.6127799749E-001  -1.0176247451E-004 +3.8701239973E-003  -1.7361971550E-004 +3.8246635813E-003  +8.1695634127E-001 -3.4311100841E-001 
8894307.885 +9.3353772163E-001 +3.6148771644E-001  -1.3412919361E-004 +3.7725956645E-003  -2.7756521013E-004 +4.0033780970E-003  +8.0400341749E-001 -3.2894158363E-001 
9019453.066 +9.6138370037E-001 +3.5984706879E-001  -3.6101078149E-004 +4.2641717009E-003  -2.5422929320E-004 +4.0566879325E-003  +7.8878939152E-001 -3.1349879503E-001 
9144598.248 +9.9261325598E-001 +3.5886460543E-001  -1.1877377983E-004 +4.1159423999E-003  -2.0756199956E-004 +4.1585792787E-003  +7.7855789661E-001 -2.9525917768E-001 
9269743.429 +1.0196799040E+000 +3.5672366619E-001  -3.5877316259E-004 +4.2045842856E-003  -3.7678144872E-004 +4.1807009839E-003  +7.7069741488E-001 -2.7445083857E-001 
9394888.611 +1.0452986956E+000 +3.5165810585E-001  -2.0135298837E-004 +4.3383692391E-003  -1.2469373178E-004 +4.2897742242E-003  +7.5963830948E-001 -2.6134267449E-001 
9520033.792 +1.0707012415E+000 +3.3836275339E-001  -1.5645509120E-004 +4.3409690261E-003  -3.0160986353E-004 +4.3624732643E-003  +7.5233542919E-001 -2.4130567908E-001 
9645178.974 +1.0968928337E+000 +3.2694983482E-001  -2.8031063266E-004 +4.5613413677E-003  -2.1962297615E-004 +4.4623520225E-003  +7.4506175518E-001 -2.2781711817E-001 
9770324.155 +1.1175688505E+000 +3.1502670050E-001  -1.8164282665E-004 +4.6764956787E-003  -2.6113598142E-004 +4.6481965110E-003  +7.3734098673E-001 -2.0892450213E-001 
9895469.337 +1.1407177448E+000 +3.0266991258E-001  -2.4068693165E-004 +4.6263476834E-003  -2.6380748022E-004 +4.5064566657E-003  +7.3241317272E-001 -1.9291669130E-001 
10020614.518 +1.1580979824E+000 +2.8560596704E-001  -2.4154759012E-004 +4.7502983361E-003  -2.9674358666E-004 +4.6920063905E-003  +7.2785156965E-001 -1.7456960678E-001 
10145759.700 +1.1788690090E+000 +2.6648947597E-001  -3.1832279637E-004 +4.7811814584E-003  -2.4156365544E-004 +4.7418740578E-003  +7.2433912754E-001 -1.5960413218E-001 
10270904.881 +1.1961125135E+000 +2.4430590868E-001  -2.4031428620E-004 +4.9646943808E-003  -7.4989860877E-005 +4.9066478387E-003  +7.2173511982E-001 -1.4380735159E-001 
10396050.063 +1.2074291706E+000 +2.2555622458E-001  -2.0793383010E-004 +4.8903399147E-003  -1.7375731841E-004 +4.9952478148E-003  +7.1802765131E-001 -1.2509363890E-001 
10521195.244 +1.2202527523E+000 +2.0814239979E-001  -1.7665256746E-004 +5.0395764410E-003  -1.9870582037E-004 +5.1856050268E-003  +7.1845924854E-001 -1.1145913601E-001 
10646340.426 +1.2289823294E+000 +1.8681502342E-001  -1.2767617591E-004 +5.0772642717E-003  -2.2687437013E-004 +5.1273149438E-003  +7.1536886692E-001 -9.4022870064E-002 
10771485.607 +1.2356836796E+000 +1.6536813974E-001  -1.3232068159E-004 +5.2050040103E-003  -1.1172471568E-004 +5.1721138880E-003  +7.1875089407E-001 -7.8983187675E-002 
10896630.788 +1.2427515984E+000 +1.4576119184E-001  -1.1625303887E-004 +5.3216069937E-003  -2.1851388738E-004 +5.3380839527E-003  +7.1693587303E-001 -6.4714819193E-002 
11021775.970 +1.2442348003E+000 +1.2577790022E-001  -1.2964173220E-004 +5.3576473147E-003  -2.1519768052E-004 +5.3177205846E-003  +7.1785473824E-001 -5.0418525934E-002 
11146921.151 +1.2494418621E+000 +1.0216188431E-001  -9.9871307611E-005 +5.4086716846E-003  -9.3196053058E-005 +5.5154920556E-003  +7.1947097778E-001 -3.4743487835E-002 
11272066.333 +1.2481465340E+000 +8.2784652710E-002  -1.9014347345E-004 +5.4192226380E-003  -1.5000370331E-004 +5.5749393068E-003  +7.2030341625E-001 -2.0551949739E-002 
11397211.514 +1.2470988035E+000 +6.4411222935E-002  -6.2630744651E-005 +5.6269345805E-003  -1.8126773648E-004 +5.5189924315E-003  +7.2370994091E-001 -7.3649585247E-003 
11522356.696 +1.2465045452E+000 +4.5486807823E-002  -1.3994937763E-004 +5.6185973808E-003  -7.1372371167E-005 +5.6021772325E-003  +7.2764760256E-001 +7.5080096722E-003 
11647501.877 +1.2402713299E+000 +3.0612766743E-002  -1.1419667862E-004 +5.6490516290E-003  -1.2306473218E-004 +5.6690545753E-003  +7.3024630547E-001 +2.1405726671E-002 
11772647.059 +1.2374925613E+000 +1.2746214867E-002  -9.9735334516E-005 +5.7287779637E-003  -1.3656052761E-004 +5.7377647609E-003  +7.3567485809E-001 +3.4245938063E-002 
11897792.240 +1.2319254875E+000 -2.6381611824E-003  -3.6198645830E-005 +5.8131059632E-003  -8.9874025434E-005 +5.8418195695E-003  +7.4144482613E-001 +4.6482115984E-002 
12022937.422 +1.2282902002E+000 -1.7709672451E-002  -1.1544488370E-004 +5.9137502685E-003  -1.3133743778E-004 +5.9733530506E-003  +7.4764758348E-001 +5.9684664011E-002 
12148082.603 +1.2203760147E+000 -3.1755864620E-002  -7.7524688095E-005 +5.9322472662E-003  -2.1427404135E-005 +5.9999129735E-003  +7.5401949883E-001 +7.2275608778E-002 
12273227.785 +1.2121717930E+000 -4.2763411999E-002  -7.9262303188E-005 +6.0647041537E-003  -6.9249421358E-005 +6.0229217634E-003  +7.6101469994E-001 +8.4208011627E-002 
12398372.966 +1.2042781115E+000 -5.6298971176E-002  -4.5992434025E-005 +6.1005754396E-003  -5.2950810641E-005 +6.1663640663E-003  +7.6974415779E-001 +9.6058622003E-002 
12523518.148 +1.1933321953E+000 -6.6579833627E-002  -5.2474206313E-005 +6.1720102094E-003  -1.8946011551E-005 +6.1780991964E-003  +7.7624708414E-001 +1.0544706881E-001 
12648663.329 +1.1861481667E+000 -7.5920462608E-002  -1.0015419684E-004 +6.2775635161E-003  -5.8413948864E-005 +6.2624313869E-003  +7.8506803513E-001 +1.1662538350E-001 
12773808.511 +1.1768474579E+000 -8.5451669991E-002  -7.7714095823E-005 +6.2441225164E-003  -9.5066498034E-005 +6.3264509663E-003  +7.9475694895E-001 +1.2725304067E-001 
12898953.692 +1.1673828363E+000 -9.4700872898E-002  -2.2616819479E-005 +6.3670044765E-003  -4.5482418500E-005 +6.3990717754E-003  +8.0456966162E-001 +1.3584527373E-001 
13024098.874 +1.1568548679E+000 -1.0054848343E-001  -5.5540906033E-005 +6.4012384973E-003  -7.2485156124E-005 +6.4184856601E-003  +8.1370222569E-001 +1.4530269802E-001 
13149244.055 +1.1475825310E+000 -1.0824466497E-001  -2.3073662305E-005 +6.4960345626E-003  -3.9480612031E-005 +6.4763766713E-003  +8.2461267710E-001 +1.5475879610E-001 
13274389.237 +1.1374262571E+000 -1.1342026293E-001  -5.2337200032E-005 +6.6217323765E-003  -3.2204407034E-005 +6.5829255618E-003  +8.3614414930E-001 +1.6091355681E-001 
13399534.418 +1.1270836592E+000 -1.1840277165E-001  -2.6322493795E-005 +6.6134068184E-003  -1.2171571143E-005 +6.6217128187E-003  +8.4570598602E-001 +1.6878697276E-001 
13524679.599 +1.1177308559E+000 -1.2250262499E-001  -5.8862729929E-005 +6.7017083056E-003  -1.8045480829E-005 +6.7477705888E-003  +8.5853785276E-001 +1.7579035461E-001 
13649824.781 +1.1095814705E+000 -1.2604498863E-001  -2.7218484320E-005 +6.7591653205E-003  +6.5983505920E-005 +6.8181324750E-003  +8.7095737457E-001 +1.8036267161E-001 
13774969.962 +1.0991399288E+000 -1.2933439016E-001  +2.0235427655E-005 +6.8502658978E-003  +3.1886156648E-006 +6.8409102969E-003  +8.8165378571E-001 +1.8507072330E-001 
13900115.144 +1.0894912481E+000 -1.3205608726E-001  +5.5494834669E-005 +6.9238785654E-003  +5.3216936067E-005 +6.9243637845E-003  +8.9408290386E-001 +1.8960756063E-001 
14025260.325 +1.0804715157E+000 -1.3196027279E-001  +1.2713717297E-005 +6.9525614381E-003  +6.6237291321E-005 +7.0144953206E-003  +9.0650409460E-001 +1.9366377592E-001 
14150405.507 +1.0717114210E+000 -1.3351187110E-001  +2.4334760383E-005 +7.0467046462E-003  +3.7525547668E-005 +7.0704324171E-003  +9.1884410381E-001 +1.9714464247E-001 
14275550.688 +1.0627452135E+000 -1.3551065326E-001  +1.1960277334E-005 +7.1218339726E-003  +2.2469786927E-005 +7.0992438123E-003  +9.3180358410E-001 +1.9843257964E-001 
14400695.870 +1.0526965857E+000 -1.3540285826E-001  +4.6941218898E-005 +7.1656121872E-003  +7.9011078924E-005 +7.1877283044E-003  +9.4434469938E-001 +2.0085543394E-001 
