!  2-Port S-parameters saved by WinCal
! VAR MeasName=S-Parameters (CALIBRATED_DATA) read from VNA (P5004A)
! VAR MeasDate=22/05/2024 18:51:13
! VAR NAME=Wafer2_r2_c1_formed_neg0.8dc
! VAR FILENAME=Wafer2_r2_c1_formed_neg0.8dc.S2P
! VAR DATE=22/05/2024 18:51:13
! VAR PHYS_PORTS=1,2
! VAR ObjTypeName=DATASET
! VAR IndexType=Frequency
!
# Hz S RI R 50
9000.000 +2.1832138300E-001 -6.0463041067E-001  +4.8903743736E-003 -5.6213089265E-003  -1.5424860176E-003 -2.4569802918E-005  +5.4570853710E-002 +1.0960963368E-001 
134145.181 +6.1285293102E-001 -7.6463788748E-002  -6.0064615682E-003 -2.2591687739E-003  +1.1417823844E-003 +1.4146951959E-002  -1.0130551457E-001 -5.9516108036E-001 
259290.363 +8.0058050156E-001 -1.5056167543E-001  -4.3746242300E-003 +1.7429964617E-002  -9.3020601198E-003 +3.5386779346E-003  +8.4383761883E-001 -1.0502184629E+000 
384435.544 +8.7074029446E-001 -3.1362837553E-001  +3.3698000014E-002 -2.5551244617E-002  -2.3504827172E-002 -2.2807482630E-002  +5.6825590134E+000 -3.3168141842E+000 
509580.726 +9.4321399927E-001 -1.7041885853E-001  -1.0727058398E-003 -2.8155571781E-003  -3.8977740332E-003 +2.3984343279E-003  +1.8028305769E+000 -3.9286130667E-001 
634725.907 +1.0944567919E+000 -2.0566773415E-001  +6.0754450969E-003 -6.8871099502E-003  -1.0840723291E-002 +2.5660207029E-003  +3.2149720192E+000 +8.2573652267E-001 
759871.089 +1.2792545557E+000 -5.1518201828E-002  +5.0544535043E-004 -2.1316241473E-003  +3.5379489418E-004 -1.7397257034E-003  +1.4564989805E+000 +3.7403988838E-001 
885016.270 +1.0716639757E+000 -4.1005274653E-001  -1.8827549648E-003 -1.6037843889E-003  +2.1208510734E-003 +2.5572967716E-003  +1.2151082754E+000 +4.8817569017E-001 
1010161.452 +1.2377529144E+000 -7.3304265738E-002  -4.7740983428E-004 -6.1252576415E-006  +2.1377127268E-004 -8.3782791626E-004  +1.1924730539E+000 +4.8722302914E-001 
1135306.633 +1.3040902615E+000 -7.0638656616E-002  +2.8427981306E-005 +8.6302455748E-004  +1.1689421081E-004 -2.0532832423E-004  +1.3029756546E+000 +6.0399150848E-001 
1260451.815 +1.5403155088E+000 -8.6147129536E-002  -3.6801095121E-004 +7.1407223004E-005  +1.0300255381E-003 +5.4488313617E-004  +1.1030534506E+000 +7.0211547613E-001 
1385596.996 +1.3760526180E+000 -1.1235314608E-001  -1.7380897771E-004 +8.0452431575E-005  -1.0726707114E-004 +8.9029686933E-005  +9.8561143875E-001 +4.8277178407E-001 
1510742.178 +1.6171230078E+000 -1.5058192611E-001  +3.6577988067E-004 -3.1027593650E-006  -1.7141256831E-004 -3.6333913158E-006  +6.7800951004E-001 +5.7451909781E-001 
1635887.359 +1.1252866983E+000 -3.8314166665E-001  +5.0670460041E-005 +8.2654660218E-005  -1.8123617338E-004 +1.0625363211E-004  +1.5205261707E+000 +6.2992310524E-001 
1761032.541 +1.2821694613E+000 -3.1970199943E-001  +2.2013939451E-004 +1.9840640016E-004  -1.5629752306E-004 +3.5636950633E-004  +1.1044292450E+000 +8.2682406902E-001 
1886177.722 +1.2204686403E+000 -2.3803919554E-001  -4.1467137635E-004 +3.7163370871E-004  +4.3618798372E-005 +3.5094487248E-004  +1.1452831030E+000 +5.5950105190E-001 
2011322.904 +1.1985487938E+000 -2.3429057002E-001  -4.4517419883E-004 +2.3357852479E-004  -1.5282130335E-005 +3.5224124440E-004  +1.1576492786E+000 +5.2563762665E-001 
2136468.085 +1.2143347263E+000 -1.8783706427E-001  -1.4052947517E-004 +2.8083295911E-004  -4.3590954738E-004 +3.5637849942E-004  +1.0965577364E+000 +4.7756651044E-001 
2261613.267 +1.2191752195E+000 -1.8250906467E-001  -3.6502815783E-004 +5.2761507686E-004  -5.4589402862E-004 +6.0944887809E-004  +1.0528044701E+000 +5.1550084352E-001 
2386758.448 +1.2300239801E+000 -1.8684205413E-001  -2.0187863265E-004 +3.9882934652E-004  -2.9458102654E-004 +6.5374770202E-004  +1.0712686777E+000 +5.4547655582E-001 
2511903.630 +1.2332648039E+000 -2.1473376453E-001  -2.4565082276E-004 +4.7689810162E-004  -3.5716313869E-004 +2.5185878621E-004  +1.1136205196E+000 +5.8168101311E-001 
2637048.811 +1.1940014362E+000 -2.3776882887E-001  -2.2700996487E-004 +7.5494515477E-004  -6.9323572097E-004 +5.5078527657E-004  +1.1223092079E+000 +6.0844296217E-001 
2762193.992 +1.1311452389E+000 -1.5467971563E-001  -2.7247832622E-004 +6.8795587867E-004  -6.3928391319E-004 +7.1147998096E-004  +1.1374533176E+000 +5.1506531239E-001 
2887339.174 +1.1924241781E+000 -1.2501960993E-001  -1.6340956092E-002 -2.0462693647E-003  -2.9225219623E-004 +5.3153210320E-004  +1.0017124414E+000 +5.1062721014E-001 
3012484.355 +1.2402839661E+000 -1.3764792681E-001  -5.5462738965E-004 +5.9456401505E-004  -3.7723191781E-005 +1.0086502880E-003  +9.5293039083E-001 +6.1377191544E-001 
3137629.537 +1.2324795723E+000 -1.2782353163E-001  -6.4800388645E-004 +6.8260752596E-004  -8.0886692740E-004 +8.1108720042E-004  +9.6862101555E-001 +7.2058510780E-001 
3262774.718 +1.2479938269E+000 -1.5829098225E-001  -4.8690423137E-004 +7.1907963138E-004  -5.1095080562E-004 +9.5093157142E-004  +1.0192487240E+000 +7.8803414106E-001 
3387919.900 +1.2556328773E+000 -1.5980428457E-001  -6.6526030423E-004 +8.8548968779E-004  -1.1236853898E-003 +1.0193421040E-003  +1.0584659576E+000 +8.5503149033E-001 
3513065.081 +1.2648541927E+000 -1.8152958155E-001  -9.5129449619E-004 +8.3317357348E-004  -1.0282108560E-003 +1.3562380336E-003  +1.0976523161E+000 +9.3440645933E-001 
3638210.263 +1.2972887754E+000 -2.0019847155E-001  -7.5150153134E-004 +4.7855993034E-004  -1.0051125428E-003 +1.3355088886E-003  +1.1843308210E+000 +9.7707366943E-001 
3763355.444 +1.3103060722E+000 -2.3132878542E-001  -1.0251766071E-003 +8.7061186787E-004  -1.1042406550E-003 +1.0524791433E-003  +1.2849358320E+000 +1.0121735334E+000 
3888500.626 +1.2980976105E+000 -2.7045309544E-001  -5.2769738249E-004 +1.3833858538E-003  -1.2096655555E-003 +9.1127923224E-004  +1.3713355064E+000 +1.0759856701E+000 
4013645.807 +1.0965870619E+000 -3.8804158568E-001  -2.8061569901E-004 +1.9192979671E-003  -1.1690523243E-003 +2.0563092548E-003  +1.6523240805E+000 +8.6707973480E-001 
4138790.989 +8.8191372156E-001 -4.2506194115E-001  +2.3001659429E-004 +2.5797805283E-003  -1.7218256835E-004 +1.9039183389E-003  +1.7965686321E+000 +5.4209351540E-001 
4263936.170 +8.4683251381E-001 -4.2426353693E-001  -5.1348120905E-005 +2.7496949770E-003  -3.5377871245E-004 +2.7620454784E-003  +1.8495322466E+000 +4.4515055418E-001 
4389081.352 +8.1384956837E-001 -4.1687804461E-001  +2.6274845004E-004 +2.6026952546E-003  -7.8605185263E-004 +2.7918939013E-003  +1.8881834745E+000 +3.1715500355E-001 
4514226.533 +7.8548014164E-001 -4.2132550478E-001  +1.5009491472E-004 +2.8398681898E-003  +2.3881543893E-004 +2.7868202887E-003  +1.9196020365E+000 +2.1786326170E-001 
4639371.715 +7.5689315796E-001 -3.9846572280E-001  -4.7836103477E-005 +2.8844228946E-003  +5.6961952941E-004 +3.2114426140E-003  +1.9233266115E+000 +1.3311585784E-001 
4764516.896 +7.1338945627E-001 -3.8927400112E-001  +1.0407168884E-003 +2.5459346361E-003  +3.2935722265E-004 +3.5573320929E-003  +1.9275816679E+000 +4.2745485902E-002 
4889662.078 +6.9174617529E-001 -3.6177214980E-001  +4.8886868171E-005 +3.3013601787E-003  +5.7192461099E-004 +2.3835327011E-003  +1.9294087887E+000 -3.9071157575E-002 
5014807.259 +6.6326683760E-001 -3.3896747231E-001  +2.1274336905E-004 +2.3263962939E-003  +6.6910195164E-004 +2.9400833882E-003  +1.8740901947E+000 -1.0136558115E-001 
5139952.441 +6.4102691412E-001 -3.1468236446E-001  +2.9901455855E-004 +2.4488891941E-003  +9.8246103153E-004 +3.3198802266E-003  +1.8538668156E+000 -2.0507866144E-001 
5265097.622 +6.2807267904E-001 -2.8598314524E-001  +9.3656918034E-004 +2.6859024074E-003  +7.8237941489E-004 +2.9512229376E-003  +1.8042504787E+000 -2.7536755800E-001 
5390242.804 +6.1510407925E-001 -2.5908920169E-001  -5.2565039368E-005 +2.4363687262E-003  -1.1620586156E-004 +2.9442887753E-003  +1.7578272820E+000 -3.0757278204E-001 
5515387.985 +6.0292267799E-001 -2.2991624475E-001  +3.4983159276E-004 +2.6696147397E-003  +6.8194360938E-004 +2.7667405084E-003  +1.7104370594E+000 -3.8723346591E-001 
5640533.166 +5.8927947283E-001 -1.9851200283E-001  +4.0547351819E-004 +3.1775296666E-003  +1.2199444463E-003 +2.5409478694E-003  +1.6729867458E+000 -4.2137199640E-001 
5765678.348 +5.8038878441E-001 -1.5972617269E-001  -2.4741762900E-005 +3.0290954746E-003  +6.7269813735E-004 +2.8075571172E-003  +1.6254432201E+000 -4.6496784687E-001 
5890823.529 +5.7343339920E-001 -1.3526432216E-001  +7.1577471681E-004 +2.8714672662E-003  +3.2682827441E-004 +2.2170257289E-003  +1.5549372435E+000 -4.8757740855E-001 
6015968.711 +5.6556433439E-001 -1.0710122436E-001  +4.5472366037E-004 +2.8074185830E-003  +7.3324609548E-004 +2.7158618905E-003  +1.5164879560E+000 -5.1064461470E-001 
6141113.892 +5.6414413452E-001 -7.8609973192E-002  +2.7427510940E-004 +2.5372512173E-003  +1.6363555915E-004 +2.7206195518E-003  +1.4570116997E+000 -5.1515555382E-001 
6266259.074 +5.6434637308E-001 -4.8513602465E-002  +2.8043246130E-004 +3.0350580346E-003  +1.4311462292E-004 +2.6345620863E-003  +1.3997336626E+000 -5.4417955875E-001 
6391404.255 +5.6965541840E-001 -1.3004746288E-002  +1.2131929543E-004 +2.9316362925E-003  +6.9362868089E-004 +2.9316586442E-003  +1.3415857553E+000 -5.5338537693E-001 
6516549.437 +5.7508152723E-001 +1.3867331669E-002  +4.5040145051E-004 +2.5617061183E-003  +2.1497972193E-004 +2.6559073012E-003  +1.3033162355E+000 -5.5005270243E-001 
6641694.618 +5.8145672083E-001 +4.4168490916E-002  +7.7590870205E-004 +3.1889462844E-003  +2.8997578193E-004 +2.9271009844E-003  +1.2707210779E+000 -5.5845308304E-001 
6766839.800 +5.9122627974E-001 +7.1404725313E-002  +3.6147635547E-004 +3.0943509191E-003  +4.9123261124E-004 +3.1456802972E-003  +1.2281407118E+000 -5.5709642172E-001 
6891984.981 +5.9613251686E-001 +9.8846405745E-002  +3.0442187563E-004 +2.6408617850E-003  +4.3663580436E-004 +2.8917500749E-003  +1.1735575199E+000 -5.4628580809E-001 
7017130.163 +6.0789889097E-001 +1.2163449824E-001  +1.7896416830E-004 +2.7432928327E-003  +2.6619911660E-004 +2.9643755406E-003  +1.1408315897E+000 -5.3999745846E-001 
7142275.344 +6.1944288015E-001 +1.5215176344E-001  +1.5449803323E-004 +2.9712396208E-003  +2.3113872157E-004 +2.9065066483E-003  +1.1173267365E+000 -5.2797967196E-001 
7267420.526 +6.3063782454E-001 +1.7576786876E-001  +3.3052466461E-004 +3.0010554474E-003  +3.4246849827E-004 +3.0264789239E-003  +1.0867704153E+000 -5.1730608940E-001 
7392565.707 +6.5029054880E-001 +2.0537364483E-001  +9.6050673164E-005 +2.8680788819E-003  +4.7242623987E-004 +3.4424846526E-003  +1.0548310280E+000 -5.1349455118E-001 
7517710.889 +6.6692644358E-001 +2.2625267506E-001  +3.0345484265E-004 +3.0805424321E-003  +1.4165116590E-004 +3.2707732171E-003  +1.0219733715E+000 -5.0170111656E-001 
7642856.070 +6.8036049604E-001 +2.4233874679E-001  +1.7846032279E-004 +3.2821679488E-003  +4.5526301255E-004 +3.2193749212E-003  +9.8811471462E-001 -4.8929542303E-001 
7768001.252 +7.0488923788E-001 +2.6548007131E-001  +3.5385717638E-004 +3.1549457926E-003  +1.9069918199E-004 +3.1895872671E-003  +9.6093434095E-001 -4.7830206156E-001 
7893146.433 +7.2959095240E-001 +2.8594520688E-001  +1.3145315461E-004 +3.4385302570E-003  -4.9452064559E-006 +3.2641463913E-003  +9.4287186861E-001 -4.5856332779E-001 
8018291.615 +7.4852800369E-001 +3.0463367701E-001  +7.7347096521E-005 +3.4387209453E-003  +9.7322743386E-005 +3.6556897685E-003  +9.1771787405E-001 -4.4149979949E-001 
8143436.796 +7.7390378714E-001 +3.1263011694E-001  +1.3528019190E-004 +3.5376953892E-003  +9.6627045423E-006 +3.4626019187E-003  +8.9794629812E-001 -4.2677080631E-001 
8268581.977 +7.9970866442E-001 +3.2866394520E-001  -1.5218427870E-004 +3.4817811102E-003  +6.0390389990E-005 +3.5409741104E-003  +8.8062250614E-001 -4.0982973576E-001 
8393727.159 +8.2759368420E-001 +3.3706331253E-001  +1.2696837075E-005 +3.6795111373E-003  +3.9430626202E-005 +3.5722425673E-003  +8.6167085171E-001 -3.9449107647E-001 
8518872.340 +8.5665023327E-001 +3.4917342663E-001  -9.1708032414E-005 +3.7316347007E-003  -2.7301249793E-004 +3.5549453460E-003  +8.4581840038E-001 -3.7251549959E-001 
8644017.522 +8.7837630510E-001 +3.5480722785E-001  -2.1113571711E-004 +3.7108431570E-003  -2.7496990515E-004 +3.8380632177E-003  +8.3407586813E-001 -3.6428600550E-001 
8769162.703 +9.0956747532E-001 +3.6345225573E-001  -1.8798490055E-004 +4.0009124205E-003  -2.5597447529E-004 +4.0461239405E-003  +8.1950438023E-001 -3.5124021769E-001 
8894307.885 +9.3603265285E-001 +3.5868698359E-001  -2.4048599880E-004 +3.9599193260E-003  -4.6236673370E-005 +3.9166663773E-003  +8.0268788338E-001 -3.3641493320E-001 
9019453.066 +9.6557712555E-001 +3.5961508751E-001  -3.3023091964E-004 +3.9653345011E-003  -2.1373061463E-004 +4.0637701750E-003  +7.8932541609E-001 -3.1790220737E-001 
9144598.248 +9.9278527498E-001 +3.5862746835E-001  -9.4471266493E-005 +4.1744373739E-003  -8.0128316768E-005 +4.0767136961E-003  +7.7681976557E-001 -2.9990202188E-001 
9269743.429 +1.0191164017E+000 +3.5330057144E-001  -1.3887847308E-004 +4.1379788890E-003  -2.1677615587E-004 +4.2034084909E-003  +7.6960778236E-001 -2.8099757433E-001 
9394888.611 +1.0463706255E+000 +3.4970587492E-001  -2.0298920572E-004 +4.3867905624E-003  -1.3858103193E-004 +4.3819434941E-003  +7.5908535719E-001 -2.6547431946E-001 
9520033.792 +1.0712805986E+000 +3.3454656601E-001  -2.7106970083E-004 +4.5220726170E-003  -2.4266587570E-004 +4.3267980218E-003  +7.5172972679E-001 -2.4631828070E-001 
9645178.974 +1.0962804556E+000 +3.2541462779E-001  -1.5177158639E-004 +4.5392238535E-003  -3.8150360342E-004 +4.4087660499E-003  +7.4404025078E-001 -2.3230093718E-001 
9770324.155 +1.1192049980E+000 +3.1415310502E-001  -1.8974149134E-004 +4.6204654500E-003  -2.0853744354E-004 +4.5955865644E-003  +7.3580288887E-001 -2.1203780174E-001 
9895469.337 +1.1411263943E+000 +3.0156657100E-001  -1.8694216851E-004 +4.5591029339E-003  -1.9111286383E-004 +4.5869974419E-003  +7.3168087006E-001 -1.9580397010E-001 
10020614.518 +1.1583385468E+000 +2.8445056081E-001  -3.3900095150E-004 +4.8066172749E-003  -2.7080893051E-004 +4.7247926705E-003  +7.2815430164E-001 -1.7901355028E-001 
10145759.700 +1.1792200804E+000 +2.6466512680E-001  -1.9986368716E-004 +4.8548849300E-003  -2.1545239724E-004 +4.8651481047E-003  +7.2522133589E-001 -1.6317769885E-001 
10270904.881 +1.1975663900E+000 +2.4605533481E-001  -2.3128790781E-004 +4.9813976511E-003  -1.8594251014E-004 +4.8522287980E-003  +7.2074317932E-001 -1.4969041944E-001 
10396050.063 +1.2094546556E+000 +2.2358748317E-001  -1.7863814719E-004 +4.9827070907E-003  -1.8605776131E-004 +5.0235833041E-003  +7.1816354990E-001 -1.3116693497E-001 
10521195.244 +1.2187253237E+000 +2.0404097438E-001  -1.8901866861E-004 +4.9746837467E-003  -1.8003536388E-004 +5.1110470667E-003  +7.1752560139E-001 -1.1405926943E-001 
10646340.426 +1.2284173965E+000 +1.8365526199E-001  -2.0138011314E-004 +5.1803356037E-003  -1.7073680647E-004 +5.1417294890E-003  +7.1677047014E-001 -9.6006125212E-002 
10771485.607 +1.2364474535E+000 +1.6127151251E-001  -1.0482640937E-004 +5.2270940505E-003  -1.7522089183E-004 +5.1496410742E-003  +7.1680986881E-001 -8.1191420555E-002 
10896630.788 +1.2428505421E+000 +1.4242082834E-001  -2.2154999897E-004 +5.2575995214E-003  -2.6559364051E-004 +5.2358768880E-003  +7.1550726891E-001 -6.7310661077E-002 
11021775.970 +1.2449228764E+000 +1.2150526047E-001  -8.8874716312E-005 +5.3051221184E-003  -1.3136188500E-004 +5.3717019036E-003  +7.1780306101E-001 -5.2413254976E-002 
11146921.151 +1.2478618622E+000 +9.9068045616E-002  -1.1397385970E-004 +5.4176752456E-003  -7.4240146205E-005 +5.4127564654E-003  +7.1817779541E-001 -3.6994516850E-002 
11272066.333 +1.2460857630E+000 +7.8606963158E-002  -1.0166689754E-004 +5.4653319530E-003  -1.3630208559E-004 +5.4835323244E-003  +7.2072952986E-001 -2.2970527411E-002 
11397211.514 +1.2476656437E+000 +6.2280416489E-002  -8.7784370407E-005 +5.5456729606E-003  -1.6542873345E-004 +5.5699404329E-003  +7.2276890278E-001 -8.4142386913E-003 
11522356.696 +1.2475628853E+000 +4.3661773205E-002  -8.5633946583E-005 +5.7176947594E-003  -1.5873135999E-004 +5.6693674996E-003  +7.2860682011E-001 +5.3536295891E-003 
11647501.877 +1.2419161797E+000 +2.8888404369E-002  -8.6291925982E-005 +5.6565240957E-003  -1.4256942086E-004 +5.6686629541E-003  +7.3062920570E-001 +1.9271790981E-002 
11772647.059 +1.2389924526E+000 +1.0305285454E-002  -1.0890653357E-004 +5.8138500899E-003  -6.7741144449E-005 +5.7478044182E-003  +7.3528826237E-001 +3.2071858644E-002 
11897792.240 +1.2324513197E+000 -2.7338862419E-003  -6.9736503065E-005 +5.7853315957E-003  -1.0959897190E-004 +5.8300863020E-003  +7.4161779881E-001 +4.5173823833E-002 
12022937.422 +1.2289178371E+000 -1.6841173172E-002  -1.1940114200E-004 +5.8424212039E-003  -1.6502034850E-004 +5.9352591634E-003  +7.4701440334E-001 +5.7083249092E-002 
12148082.603 +1.2198591232E+000 -3.2940983772E-002  -6.1189057305E-005 +5.9109302238E-003  -8.1235542893E-005 +5.9880763292E-003  +7.5460159779E-001 +7.1900188923E-002 
12273227.785 +1.2126288414E+000 -4.5032799244E-002  -6.4583029598E-005 +5.9883720241E-003  -4.1343504563E-005 +5.9951310977E-003  +7.6086944342E-001 +8.3911731839E-002 
12398372.966 +1.2051123381E+000 -5.8159142733E-002  -7.3183211498E-005 +6.1286552809E-003  -6.5424013883E-005 +6.0650939122E-003  +7.6957207918E-001 +9.4015851617E-002 
12523518.148 +1.1937315464E+000 -6.8635806441E-002  -4.7145294957E-005 +6.1265472323E-003  +8.8734086603E-006 +6.1269034632E-003  +7.7626055479E-001 +1.0449092090E-001 
12648663.329 +1.1861382723E+000 -7.8212842345E-002  -5.3920666687E-005 +6.2086377293E-003  -1.1705153156E-004 +6.1820573173E-003  +7.8579711914E-001 +1.1560285091E-001 
12773808.511 +1.1771179438E+000 -8.8409401476E-002  -7.3731294833E-005 +6.2886308879E-003  -6.8970606662E-005 +6.3073043711E-003  +7.9477882385E-001 +1.2573339045E-001 
12898953.692 +1.1676076651E+000 -9.6943035722E-002  -8.7942404207E-005 +6.3279606402E-003  -3.1563511584E-005 +6.3944132999E-003  +8.0431550741E-001 +1.3435494900E-001 
13024098.874 +1.1575101614E+000 -1.0280022025E-001  -5.6702614529E-005 +6.4403857104E-003  -3.2671843655E-005 +6.4215981402E-003  +8.1421625614E-001 +1.4352560043E-001 
13149244.055 +1.1483442783E+000 -1.0864603519E-001  -2.9831033316E-005 +6.4697167836E-003  -5.3513547755E-005 +6.5108388662E-003  +8.2393598557E-001 +1.5263305604E-001 
13274389.237 +1.1384485960E+000 -1.1507312208E-001  -1.6683945432E-005 +6.5321512520E-003  -3.5081771784E-005 +6.5422509797E-003  +8.3670556545E-001 +1.6098983586E-001 
13399534.418 +1.1282405853E+000 -1.1992045492E-001  -4.2265339289E-005 +6.6307182424E-003  -3.3759482903E-005 +6.6180694848E-003  +8.4613037109E-001 +1.6801965237E-001 
13524679.599 +1.1182936430E+000 -1.2345449626E-001  +1.1671567336E-005 +6.6811614670E-003  -1.4843011741E-005 +6.7201755010E-003  +8.5838508606E-001 +1.7531172931E-001 
13649824.781 +1.1096599102E+000 -1.2843486667E-001  -4.0223356336E-005 +6.7167365924E-003  +1.8866150640E-005 +6.7969737574E-003  +8.7120693922E-001 +1.8022570014E-001 
13774969.962 +1.0991033316E+000 -1.3133206964E-001  +3.7495279685E-005 +6.8550985307E-003  +1.9077560864E-005 +6.8145366386E-003  +8.8212645054E-001 +1.8388183415E-001 
13900115.144 +1.0903261900E+000 -1.3320267200E-001  +5.4543022998E-005 +6.9418256171E-003  +4.9334485084E-006 +6.9489721209E-003  +8.9331328869E-001 +1.8879267573E-001 
14025260.325 +1.0804190636E+000 -1.3535526395E-001  +2.5224639103E-005 +6.9858515635E-003  +1.5311874449E-005 +6.9881253876E-003  +9.0611410141E-001 +1.9212198257E-001 
14150405.507 +1.0722483397E+000 -1.3494369388E-001  +4.3392181396E-005 +7.0632481948E-003  +1.2665987015E-005 +7.0381150581E-003  +9.1867995262E-001 +1.9569258392E-001 
14275550.688 +1.0632569790E+000 -1.3704356551E-001  +3.3927848563E-005 +7.1181328967E-003  +6.6973734647E-005 +7.1703433059E-003  +9.3110555410E-001 +1.9719499350E-001 
14400695.870 +1.0535213947E+000 -1.3731819391E-001  +1.0141637176E-004 +7.1806460619E-003  +9.2236790806E-005 +7.1934084408E-003  +9.4366574287E-001 +1.9855871797E-001 
