!  2-Port S-parameters saved by WinCal
! VAR MeasName=S-Parameters (CALIBRATED_DATA) read from VNA (P5004A)
! VAR MeasDate=22/05/2024 18:32:42
! VAR NAME=Wafer2_r2_c1_formed_0dc
! VAR FILENAME=Wafer2_r2_c1_formed_0dc.S2P
! VAR DATE=22/05/2024 18:32:42
! VAR PHYS_PORTS=1,2
! VAR ObjTypeName=DATASET
! VAR IndexType=Frequency
!
# Hz S RI R 50
9000.000 +2.2342389822E-001 -5.9800565243E-001  +8.1144999713E-003 -3.6515742540E-003  +9.6715847030E-004 -1.0057458421E-003  +6.5449051559E-002 +1.1781538278E-001 
134145.181 +6.9090223312E-001 +8.8333889842E-002  +2.3800998926E-002 -2.1289656870E-003  +4.3973349966E-004 -9.8043736070E-003  +1.1794568300E+000 -2.4398827553E-001 
259290.363 +8.7423133850E-001 -8.5740506649E-002  +2.4973480031E-003 -1.2505217455E-005  -4.0496056899E-003 +2.7434083167E-003  +1.0951842070E+000 -4.4812142849E-002 
384435.544 +9.4299310446E-001 -2.3328071833E-001  +2.2694682702E-003 -3.3060850110E-003  -4.0796762332E-003 -6.3524083234E-003  +1.0843062401E+000 -4.4813796878E-002 
509580.726 +9.7727966309E-001 -1.2811487913E-001  +5.8707286371E-004 -1.4771845890E-003  -1.3123769313E-003 +1.1315983720E-003  +1.0508724451E+000 -1.7248280346E-002 
634725.907 +1.0844920874E+000 -1.6574794054E-001  +9.1713613074E-005 +3.1385707553E-004  -3.2977788942E-004 -5.9177179355E-004  +1.0819313526E+000 -2.7645885944E-002 
759871.089 +1.2268296480E+000 -9.1011658311E-002  -2.8687660233E-004 -4.9376959214E-004  +1.3827289222E-003 +1.3935042080E-003  +1.0969562531E+000 -7.8275136650E-002 
885016.270 +6.9136410952E-001 -5.0134444237E-001  -3.0969742220E-003 +7.3551195674E-003  -2.5799365249E-003 +3.9467792958E-003  +1.1065596342E+000 -3.6877581477E-001 
1010161.452 +1.0482541323E+000 -1.0526321828E-002  +3.4705344588E-003 +1.0698445840E-003  -9.3331601238E-004 -1.2166479137E-003  +7.4136048555E-001 +2.2202096879E-001 
1135306.633 +1.0573052168E+000 +9.2198207974E-002  -9.8252086900E-004 -5.1598396385E-004  -3.0936565599E-004 -1.2435759709E-004  +9.1811549664E-001 +2.7389973402E-001 
1260451.815 +1.3238595724E+000 +5.4826349020E-002  -1.2668955605E-003 -1.0472406575E-004  -1.6399752349E-003 -6.0804327950E-004  +9.4691091776E-001 +2.7267521620E-001 
1385596.996 +1.2363876104E+000 -7.1083068848E-002  +7.5368297985E-004 +3.5641575232E-004  -9.2557421885E-004 -5.0582143012E-004  +9.7871160507E-001 +1.5487092733E-001 
1510742.178 +1.3535919189E+000 -1.3236361742E-001  +7.9979829025E-004 +1.1922495905E-003  -3.3303629607E-004 +1.3540796936E-003  +8.8858336210E-001 +2.0895142853E-001 
1635887.359 +9.8665922880E-001 -2.3504523933E-001  -1.6637071967E-003 +7.9561898019E-005  -1.2502239551E-003 +5.3210562328E-004  +1.1142284870E+000 +1.5582811832E-001 
1761032.541 +1.0356818438E+000 -2.0088800788E-001  -1.1439432856E-003 +6.1964808265E-004  +1.4265426435E-003 +2.3899180815E-003  +1.0565180779E+000 +2.0701968670E-001 
1886177.722 +1.0059800148E+000 -8.6782634258E-002  +1.8409802578E-005 +1.1911963811E-003  -2.2687157616E-004 -1.0062437505E-002  +1.0527945757E+000 +1.5104222298E-001 
2011322.904 +1.0099972486E+000 -6.6425412893E-002  +3.1026732177E-004 +9.2527375091E-004  -4.1133089690E-004 +4.5927395695E-004  +1.0539832115E+000 +1.4307704568E-001 
2136468.085 +1.0084319115E+000 -4.2362183332E-002  -4.5285123633E-004 -1.0134725017E-005  +3.7938292371E-004 +9.7840020317E-005  +1.0340890884E+000 +1.2940084934E-001 
2261613.267 +1.0126667023E+000 -2.6337206364E-002  -1.2194677402E-004 +1.8382309645E-004  -3.3794663614E-004 +7.9432490747E-004  +1.0240926743E+000 +1.5268206596E-001 
2386758.448 +1.0116288662E+000 -2.1671861410E-002  -3.7633941974E-004 +1.1538343970E-003  -1.4050559548E-004 +2.5907362578E-004  +1.0357074738E+000 +1.5718755126E-001 
2511903.630 +1.0098149776E+000 +9.1758966446E-003  -1.0933793965E-004 +9.3639746774E-004  -7.6001160778E-006 +1.5763385454E-004  +1.0482386351E+000 +1.7156708241E-001 
2637048.811 +1.0154402256E+000 +8.3653330803E-003  -1.7319484323E-004 +1.2464045722E-004  -2.9313220875E-004 +2.9866187833E-004  +1.0386993885E+000 +1.9829526544E-001 
2762193.992 +1.0050089359E+000 +3.0839283019E-002  -6.4511434175E-004 +6.9956696825E-004  -5.1236024592E-004 +5.0166493747E-004  +1.0394511223E+000 +2.0053835213E-001 
2887339.174 +9.9594306946E-001 +5.0686627626E-002  +6.0582926380E-005 +6.5437715966E-004  -5.8578548487E-004 +7.5883464888E-004  +1.0339231491E+000 +2.3514656723E-001 
3012484.355 +1.0079605579E+000 +6.3317909837E-002  -1.1942451965E-004 +9.7621988971E-004  -5.8216246543E-004 +5.1298487233E-004  +1.0545959473E+000 +2.7285972238E-001 
3137629.537 +1.0151203871E+000 +8.6747169495E-002  -6.9416861515E-004 +7.7564636013E-004  -8.7940157391E-004 +3.0105694896E-004  +1.1044939756E+000 +2.9413747787E-001 
3262774.718 +1.0109447241E+000 +9.8298370838E-002  -5.7770317653E-004 +6.0740060871E-004  -5.9562662500E-005 +6.2823522603E-004  +1.1210311651E+000 +3.0297183990E-001 
3387919.900 +1.0138406754E+000 +1.1381775141E-001  -6.3978915568E-004 +9.4309932319E-004  -1.0119951330E-003 +1.8911625375E-004  +1.1462335587E+000 +3.1071284413E-001 
3513065.081 +1.0222209692E+000 +1.3304275274E-001  -4.6445644693E-004 +1.5665955143E-003  -9.0306939092E-004 +5.9462111676E-004  +1.1710895300E+000 +3.3081784844E-001 
3638210.263 +1.0478134155E+000 +1.6494023800E-001  -8.2774530165E-004 +8.9368340559E-004  -6.8529648706E-004 +6.0389615828E-004  +1.2009896040E+000 +3.2214725018E-001 
3763355.444 +1.0654983521E+000 +1.7798492312E-001  -7.2680687299E-004 +6.8004644709E-004  -1.1214549886E-003 +1.0411114199E-003  +1.2410175800E+000 +3.0341815948E-001 
3888500.626 +1.0825057030E+000 +1.7867486179E-001  -7.3134788545E-004 +1.3028008398E-003  -1.4186452609E-003 +1.3245535083E-003  +1.2802491188E+000 +3.0381703377E-001 
4013645.807 +1.0447583199E+000 +8.9454464614E-002  -5.7394278701E-004 +1.1236694409E-003  -1.1163894087E-003 +2.1935959812E-003  +1.2384408712E+000 +1.4155176282E-001 
4138790.989 +9.7495287657E-001 -3.2938495278E-003  -4.6557962196E-004 +2.1209469996E-003  -6.5942032961E-004 +1.0739167919E-003  +1.1555172205E+000 +1.0433098301E-002 
4263936.170 +9.6569406986E-001 +1.0858587921E-002  -4.9991498236E-004 +2.3712040856E-003  -5.8970978716E-004 +1.3345621992E-003  +1.1410425901E+000 -1.3722315431E-002 
4389081.352 +9.7836285830E-001 +8.9959986508E-004  -1.4102342539E-004 +1.7069808673E-003  -7.9012545757E-004 +1.8668640405E-003  +1.1339602470E+000 -4.5099597424E-002 
4514226.533 +9.8936957121E-001 -6.9785565138E-003  +1.4403244131E-004 +1.9002164481E-003  +4.3650674343E-005 +2.2912563290E-003  +1.1253583431E+000 -6.7859761417E-002 
4639371.715 +9.9592828751E-001 -1.2716695666E-002  +5.2790172049E-005 +2.7284270618E-003  +1.1895217904E-004 +2.0732062403E-003  +1.1209645271E+000 -6.7990645766E-002 
4764516.896 +9.8750889301E-001 -1.2294664979E-002  -2.7126882924E-004 +2.5113292504E-003  +5.5201258510E-004 +2.5493633002E-003  +1.1161057949E+000 -7.3345959187E-002 
4889662.078 +9.9467760324E-001 -2.0232386887E-003  -2.9915128835E-004 +2.2069071420E-003  -1.8892715161E-004 +2.2918749601E-003  +1.1091277599E+000 -7.9925186932E-002 
5014807.259 +9.9053335190E-001 -9.6406079829E-003  +1.2583039643E-004 +2.1586662624E-003  -2.4820884573E-004 +2.3640340660E-003  +1.0865714550E+000 -8.2931488752E-002 
5139952.441 +9.9952548742E-001 -1.2599870563E-002  +6.8053544965E-005 +2.9276655987E-003  -5.4072740022E-004 +2.7443503495E-003  +1.0870361328E+000 -9.2713981867E-002 
5265097.622 +1.0034116507E+000 -4.3549537659E-003  -9.8861462902E-005 +2.7493012603E-003  -7.2432449088E-006 +2.7887267061E-003  +1.0696355104E+000 -9.1925382614E-002 
5390242.804 +1.0006173849E+000 -8.2301348448E-003  +3.1045352807E-004 +2.2409139201E-003  -7.4713345384E-005 +2.7246312238E-003  +1.0571534634E+000 -9.4437606633E-002 
5515387.985 +1.0071082115E+000 -1.6382396221E-002  +6.8225548603E-005 +2.8507097159E-003  -1.5106500359E-004 +3.1487920787E-003  +1.0581239462E+000 -1.0708518326E-001 
5640533.166 +1.0122193098E+000 -8.1360936165E-003  -5.3263502195E-005 +2.9762256891E-003  +3.8265500916E-004 +2.7599481400E-003  +1.0460230112E+000 -9.7870439291E-002 
5765678.348 +9.9790060520E-001 -1.4689207077E-002  +2.2651680047E-004 +2.9052516911E-003  +1.2830019114E-004 +3.0397733208E-003  +1.0472729206E+000 -9.8633885384E-002 
5890823.529 +1.0025761127E+000 -1.6386471689E-002  -2.1620075859E-004 +2.4030730128E-003  +1.7154117813E-004 +3.3481335267E-003  +1.0327631235E+000 -1.0236037523E-001 
6015968.711 +9.9854892492E-001 -2.0472429693E-002  -4.2852625484E-004 +2.7245841920E-003  +7.7718024841E-005 +2.9188883491E-003  +1.0308158398E+000 -9.6845753491E-002 
6141113.892 +9.9729692936E-001 -2.0506389439E-002  +1.0816767463E-004 +3.1477287412E-003  -1.0866063531E-004 +3.5018734634E-003  +1.0203951597E+000 -9.4718813896E-002 
6266259.074 +9.9954456091E-001 -1.9871257246E-002  -1.3335930998E-004 +3.1746379100E-003  -1.0259478586E-004 +2.9844981618E-003  +1.0155603886E+000 -8.9747935534E-002 
6391404.255 +9.9560940266E-001 -3.1428225338E-002  -1.4220002049E-004 +3.1494235154E-003  +1.2500662706E-004 +3.2666064799E-003  +1.0105360746E+000 -8.8916815817E-002 
6516549.437 +9.9104094505E-001 -2.4677775800E-002  +1.7638667487E-006 +3.2556066290E-003  -6.3611078076E-006 +3.1252901535E-003  +1.0036638975E+000 -8.7552122772E-002 
6641694.618 +9.9828541279E-001 -2.6759997010E-002  -1.0513875168E-004 +3.5763354972E-003  -2.6795890881E-004 +3.3332596067E-003  +1.0015975237E+000 -7.9291805625E-002 
6766839.800 +9.9697363377E-001 -2.4086132646E-002  +6.1352417106E-005 +3.3068817575E-003  +9.5599301858E-005 +3.2389361877E-003  +1.0000187159E+000 -8.3286643028E-002 
6891984.981 +9.9639588594E-001 -2.4229198694E-002  -3.1305805896E-004 +3.2236468978E-003  -6.6002219683E-005 +3.2829714473E-003  +9.9027961493E-001 -8.2919001579E-002 
7017130.163 +9.9115186930E-001 -3.0470713973E-002  -2.5197601644E-004 +3.4723123536E-003  -2.5278422982E-006 +3.2381799538E-003  +9.9357229471E-001 -6.9769710302E-002 
7142275.344 +9.9654793739E-001 -2.1759584546E-002  -3.4717144445E-004 +3.5873209126E-003  +1.1674093548E-004 +3.5999340471E-003  +9.9341291189E-001 -5.7583928108E-002 
7267420.526 +9.9077033997E-001 -2.1303474903E-002  +7.3531467933E-005 +3.7822879385E-003  +6.0174730606E-005 +3.6621657200E-003  +9.8781663179E-001 -5.8709964156E-002 
7392565.707 +9.9221253395E-001 -1.5768438578E-002  +8.3295744844E-005 +3.8619218394E-003  -5.3021823987E-005 +3.6538334098E-003  +9.8794251680E-001 -6.1467647552E-002 
7517710.889 +9.9240231514E-001 -2.0393446088E-002  -4.8361078370E-005 +3.8758872543E-003  +1.2915453408E-004 +3.6869072355E-003  +9.8367762566E-001 -6.2940925360E-002 
7642856.070 +9.8943352699E-001 -1.9931346178E-002  +2.7710339054E-006 +3.9161313325E-003  -1.1280766921E-004 +3.8678618148E-003  +9.7743135691E-001 -6.3847944140E-002 
7768001.252 +9.9435108900E-001 -1.8189311028E-002  -9.7557844128E-005 +3.8046839181E-003  +1.3708288316E-004 +3.7537328899E-003  +9.7515642643E-001 -5.7519808412E-002 
7893146.433 +9.9606460333E-001 -1.7926692963E-002  +2.0447449060E-004 +3.9443280548E-003  +9.8675838672E-005 +3.6578245927E-003  +9.7449183464E-001 -5.2411437035E-002 
8018291.615 +9.9109321833E-001 -1.6454428434E-002  +6.6501786932E-005 +3.8346904330E-003  +2.3052969482E-005 +3.8820311893E-003  +9.7108149529E-001 -4.9197837710E-002 
8143436.796 +9.8746418953E-001 -1.7344042659E-002  +1.2186123058E-004 +3.6755260080E-003  +8.9854409453E-005 +3.8987265434E-003  +9.7173058987E-001 -4.3601199985E-002 
8268581.977 +9.9072611332E-001 -1.2772291899E-002  +5.2426708862E-005 +4.0493980050E-003  -1.9865413196E-004 +3.9591174573E-003  +9.7063672543E-001 -4.1400283575E-002 
8393727.159 +9.8883575201E-001 -1.6986757517E-002  +1.7542869318E-004 +4.2005144060E-003  +1.1935562361E-004 +4.0472568944E-003  +9.7602862120E-001 -3.5887956619E-002 
8518872.340 +9.9028939009E-001 -1.8065422773E-002  +8.8880420662E-005 +3.9904341102E-003  -5.4273754358E-005 +4.0463940240E-003  +9.7356146574E-001 -3.4506052732E-002 
8644017.522 +9.8629975319E-001 -1.3653278351E-002  +1.2296985369E-004 +4.2049787007E-003  +1.5170720872E-004 +4.2398441583E-003  +9.7447079420E-001 -3.6148816347E-002 
8769162.703 +9.9023455381E-001 -1.2780636549E-002  -1.2507964857E-004 +4.1564204730E-003  +1.2378441170E-004 +4.2560892180E-003  +9.7286677361E-001 -3.5401135683E-002 
8894307.885 +9.8729324341E-001 -1.3690084219E-002  +2.1050567739E-005 +4.2705326341E-003  +4.2570638470E-005 +4.2098429985E-003  +9.7206145525E-001 -3.3905804157E-002 
9019453.066 +9.8788845539E-001 -1.5977591276E-002  +8.0261263065E-005 +4.2733205482E-003  +7.3808478191E-006 +4.5394096524E-003  +9.7003817558E-001 -3.3076286316E-002 
9144598.248 +9.8653912544E-001 -1.5084534883E-002  -1.0140682571E-004 +4.4120112434E-003  -5.7488330640E-005 +4.3958695605E-003  +9.7108304501E-001 -3.0797392130E-002 
9269743.429 +9.8804265261E-001 -1.2438535690E-002  +1.5845149755E-004 +4.4719893485E-003  +4.1460152715E-005 +4.3909559026E-003  +9.7234165668E-001 -2.7536362410E-002 
9394888.611 +9.8797249794E-001 -7.8961253166E-003  +4.7643552534E-005 +4.7140819952E-003  +2.1563493647E-005 +4.5857522637E-003  +9.6977293491E-001 -2.9662698507E-002 
9520033.792 +9.8671120405E-001 -1.2582570314E-002  +1.4206161723E-006 +4.6165222302E-003  +1.3764447067E-004 +4.6819942072E-003  +9.6936053038E-001 -2.5636523962E-002 
9645178.974 +9.8975914717E-001 -1.0694950819E-002  -5.1615177654E-005 +4.7520441003E-003  +2.5752815418E-005 +4.7029312700E-003  +9.7046548128E-001 -2.1382659674E-002 
9770324.155 +9.8770987988E-001 -9.2670917511E-003  +1.5002838336E-004 +4.7466685064E-003  +5.0757313147E-005 +4.7530336305E-003  +9.6820616722E-001 -2.0506262779E-002 
9895469.337 +9.9162811041E-001 -7.1805417538E-003  +5.9506390244E-005 +4.8491731286E-003  +1.1404743418E-005 +4.7722486779E-003  +9.7053956985E-001 -1.9666701555E-002 
10020614.518 +9.8861777782E-001 -5.7405829430E-003  +1.3269274496E-004 +4.8181498423E-003  -6.6761160269E-005 +4.8663625494E-003  +9.7089844942E-001 -1.8567770720E-002 
10145759.700 +9.8896646500E-001 -7.6302587986E-003  +5.9742713347E-005 +4.9180062488E-003  +5.4632313550E-005 +5.0531430170E-003  +9.7225272655E-001 -1.9451349974E-002 
10270904.881 +9.9050885439E-001 -9.5106065273E-003  +6.3076382503E-005 +4.9606757239E-003  +8.3805294707E-005 +5.0800484605E-003  +9.7214275599E-001 -1.8006831408E-002 
10396050.063 +9.8891222477E-001 -6.6775679588E-003  +6.6724605858E-006 +5.1972456276E-003  +1.0922597721E-004 +5.0784628838E-003  +9.7289574146E-001 -1.4199763536E-002 
10521195.244 +9.8968291283E-001 -6.0196816921E-003  +1.0081427172E-004 +5.1566986367E-003  +1.5261746012E-004 +5.1699923351E-003  +9.7333347797E-001 -1.3157486916E-002 
10646340.426 +9.8939341307E-001 -5.7551860809E-003  +9.7464304417E-005 +5.3259907290E-003  +8.5351988673E-005 +5.2545107901E-003  +9.7339785099E-001 -1.0064393282E-002 
10771485.607 +9.8837429285E-001 -6.4470767975E-003  +4.8466492444E-005 +5.1827467978E-003  +1.0870140977E-004 +5.3217513487E-003  +9.7544980049E-001 -8.7249279022E-003 
10896630.788 +9.8794692755E-001 -5.2787363529E-003  -4.3399631977E-007 +5.2978773601E-003  +1.0276120156E-004 +5.3036622703E-003  +9.7542607784E-001 -7.7021718025E-003 
11021775.970 +9.8827171326E-001 -3.3752620220E-003  +1.8258905038E-004 +5.3581283428E-003  +3.5826582462E-005 +5.3019560874E-003  +9.7557985783E-001 -7.3869228363E-003 
11146921.151 +9.8769187927E-001 -4.6613514423E-003  +6.7256158218E-005 +5.4076476954E-003  +1.0237260722E-004 +5.4384460673E-003  +9.7745156288E-001 -7.1884989738E-003 
11272066.333 +9.8709225655E-001 -5.7229697704E-003  +1.2519885786E-004 +5.5368198082E-003  +9.4064977020E-005 +5.4957368411E-003  +9.7550141811E-001 -8.0693662167E-003 
11397211.514 +9.8856502771E-001 -3.2466650009E-003  +1.0415771976E-004 +5.6140702218E-003  +7.7488133684E-005 +5.5919652805E-003  +9.7605788708E-001 -7.2613358498E-003 
11522356.696 +9.8842996359E-001 -5.3453445435E-003  +8.4083527327E-005 +5.6059802882E-003  +7.7620148659E-005 +5.6272232905E-003  +9.7693109512E-001 -6.7948698997E-003 
11647501.877 +9.8773854971E-001 -5.2428245544E-003  +1.7691496760E-004 +5.6839869358E-003  +1.0385061614E-004 +5.7170242071E-003  +9.7693413496E-001 -5.3387582302E-003 
11772647.059 +9.8861205578E-001 -3.4664869308E-003  +1.2731086463E-004 +5.7229693048E-003  +1.7345743254E-004 +5.7751527056E-003  +9.7764086723E-001 -5.8867335320E-003 
11897792.240 +9.8883134127E-001 -2.6646852493E-003  +8.2317506894E-005 +5.7772556320E-003  +1.2643891387E-004 +5.8756042272E-003  +9.7871154547E-001 -5.7916045189E-003 
12022937.422 +9.9021631479E-001 -1.8554925919E-003  +1.3379170559E-004 +5.8222739026E-003  +1.6025593504E-004 +5.8944122866E-003  +9.7831493616E-001 -5.5905282497E-003 
12148082.603 +9.9091869593E-001 -3.6278963089E-003  +1.8578511663E-004 +5.9134569019E-003  +1.3546552509E-004 +5.8682784438E-003  +9.7915709019E-001 -4.6095848083E-003 
12273227.785 +9.9050420523E-001 -2.0040869713E-003  +1.1981837451E-004 +5.9969155118E-003  +1.4392647427E-004 +5.9865964577E-003  +9.8041176796E-001 -4.8493444920E-003 
12398372.966 +9.9112612009E-001 -2.5762915611E-003  +1.2261327356E-004 +6.0342070647E-003  +1.4015845954E-004 +6.0333060101E-003  +9.8137569427E-001 -3.4495294094E-003 
12523518.148 +9.8905164003E-001 -2.3916959763E-003  +1.6279402189E-004 +6.0543818399E-003  +1.6306678299E-004 +6.1060413718E-003  +9.8030239344E-001 -5.3799748421E-003 
12648663.329 +9.9066489935E-001 -2.2143572569E-003  +1.9859033637E-004 +6.1748265289E-003  +2.1158659365E-004 +6.2029501423E-003  +9.8173427582E-001 -3.1887888908E-003 
12773808.511 +9.8989349604E-001 -3.6007910967E-003  +1.9985041581E-004 +6.2036868185E-003  +1.3944128295E-004 +6.2218597159E-003  +9.8287999630E-001 -2.3113489151E-003 
12898953.692 +9.9141532183E-001 -2.1404922009E-003  +2.0928389858E-004 +6.2436233275E-003  +1.5306868590E-004 +6.2608309090E-003  +9.8244470358E-001 -3.7837028503E-003 
13024098.874 +9.9082612991E-001 -1.5319064260E-003  +1.9393116236E-004 +6.3398196362E-003  +1.7612893134E-004 +6.3241343014E-003  +9.8353421688E-001 -2.4979561567E-003 
13149244.055 +9.9178224802E-001 -1.2333728373E-003  +1.8226039538E-004 +6.3801696524E-003  +1.1923044804E-004 +6.4265811816E-003  +9.8318988085E-001 -1.2643933296E-003 
13274389.237 +9.9177896976E-001 -2.2718701512E-003  +1.9017470186E-004 +6.5129101276E-003  +1.7274377751E-004 +6.4561869949E-003  +9.8474752903E-001 -1.3848580420E-003 
13399534.418 +9.9219286442E-001 -1.8974468112E-003  +1.8816196825E-004 +6.5534543246E-003  +1.7938693054E-004 +6.5321647562E-003  +9.8432201147E-001 -1.7854571342E-003 
13524679.599 +9.9227696657E-001 -4.9084424973E-004  +1.7466000281E-004 +6.5928632393E-003  +1.6020750627E-004 +6.5861889161E-003  +9.8529374599E-001 -5.2194297314E-004 
13649824.781 +9.9280697107E-001 -1.8557310104E-003  +1.6026257072E-004 +6.5856622532E-003  +2.2743048612E-004 +6.6185835749E-003  +9.8583716154E-001 -1.0169744492E-003 
13774969.962 +9.9196738005E-001 -1.2944489717E-003  +1.8967920914E-004 +6.6951480694E-003  +1.8547335640E-004 +6.6977152601E-003  +9.8583614826E-001 -1.0373145342E-003 
13900115.144 +9.9304074049E-001 -7.9202651978E-004  +1.3995252084E-004 +6.7299390212E-003  +2.2099423222E-004 +6.7599834874E-003  +9.8585939407E-001 -3.1629204750E-004 
14025260.325 +9.9268561602E-001 -7.6317787170E-004  +1.9486295059E-004 +6.7693954334E-003  +1.9609276205E-004 +6.8053058349E-003  +9.8584228754E-001 +7.4267387390E-004 
14150405.507 +9.9238550663E-001 -2.4962425232E-004  +1.8753251061E-004 +6.8951551802E-003  +2.3736641742E-004 +6.8269884214E-003  +9.8643976450E-001 +5.7965517044E-004 
14275550.688 +9.9273979664E-001 -1.1742413044E-003  +2.1674623713E-004 +6.8861702457E-003  +2.1335878409E-004 +6.9549102336E-003  +9.8674488068E-001 -1.0594725609E-004 
14400695.870 +9.9238985777E-001 -3.8656592369E-004  +2.1578650922E-004 +6.9348523393E-003  +2.2187363356E-004 +6.9915433414E-003  +9.8728048801E-001 +4.7314167023E-004 
