!  2-Port S-parameters saved by WinCal
! VAR MeasName=S-Parameters (CALIBRATED_DATA) read from VNA (P5004A)
! VAR MeasDate=22/05/2024 18:03:46
! VAR NAME=Wafer2_r2_c1_pristine_pos1.6dc
! VAR FILENAME=Wafer2_r2_c1_pristine_pos1.6dc.S2P
! VAR DATE=22/05/2024 18:03:46
! VAR PHYS_PORTS=1,2
! VAR ObjTypeName=DATASET
! VAR IndexType=Frequency
!
# Hz S RI R 50
9000.000 +2.2412225604E-001 -5.9359329939E-001  -1.0980257764E-002 +1.2348592281E-002  -1.7897060607E-003 +1.0167300934E-003  +4.5654382557E-002 +9.6343338490E-002 
134145.181 +6.4063721895E-001 -4.9699984491E-002  -1.6345975921E-002 +3.5890750587E-003  -1.9792214036E-002 +3.7868339568E-002  -5.1403141022E-001 -4.0273675323E-001 
259290.363 +8.1872397661E-001 -1.5108896792E-001  -1.2834937312E-002 -3.8206577301E-004  -9.1882068664E-003 +6.2127201818E-003  +1.3692860603E+000 -6.3714277744E-001 
384435.544 +8.9440864325E-001 -3.1290295720E-001  +5.4330714047E-003 -2.7519501746E-002  -3.1454104930E-002 +4.7257680446E-002  +9.8186035156E+000 +5.0010204315E-002 
509580.726 +9.4964009523E-001 -1.6130426526E-001  +5.8327609440E-004 +2.6762783527E-003  +4.3721906841E-003 +3.3183344640E-003  +1.8299345970E+000 -3.5313856602E-001 
634725.907 +1.0887713432E+000 -2.0207604766E-001  +8.8925343007E-003 -1.5651144087E-002  -5.2033271641E-003 +4.8015587963E-003  +3.5097494125E+000 +6.2913405895E-001 
759871.089 +1.2609233856E+000 -4.0743649006E-002  +6.4587034285E-004 +3.8712675450E-004  -1.7486977158E-003 -1.0223905556E-003  +1.4690124989E+000 +4.6291589737E-001 
885016.270 +1.1312787533E+000 -2.7871108055E-001  +7.5775373261E-004 +1.6722617147E-004  -2.5265698787E-004 +1.7097695672E-004  +1.2032556534E+000 +5.0717860460E-001 
1010161.452 +1.2528337240E+000 -7.8377559781E-002  +9.4182389148E-005 -1.7075477808E-004  -3.8752541877E-004 -1.5168616665E-004  +1.1835898161E+000 +5.0012600422E-001 
1135306.633 +1.3435937166E+000 -1.4448018372E-001  +2.5791284861E-004 -6.0019246303E-004  +2.2365766927E-004 +2.7694870369E-004  +1.2988053560E+000 +6.2085497379E-001 
1260451.815 +1.5484006405E+000 -1.0856795311E-001  -4.0568888653E-004 +3.5001165816E-004  -1.0277925321E-004 -3.4114407754E-005  +1.0987386703E+000 +7.1305167675E-001 
1385596.996 +1.3757436275E+000 -1.1456692219E-001  +2.2158201318E-007 +2.1726246632E-004  +5.1658731536E-005 +9.0977940999E-005  +9.8484897614E-001 +4.8551905155E-001 
1510742.178 +1.6154780388E+000 -1.5074920654E-001  -1.0310015932E-004 +1.5279932995E-004  -1.1082633137E-004 +1.4449805894E-004  +6.7755359411E-001 +5.7462424040E-001 
1635887.359 +1.1253728867E+000 -3.7598189712E-001  -2.5096567697E-005 +2.6863326639E-005  +6.1744329287E-005 +2.8301985003E-004  +1.5202960968E+000 +6.3237881660E-001 
1761032.541 +1.2889513969E+000 -3.2249626517E-001  +1.3265546295E-004 +4.1244120803E-004  +2.3735134164E-005 +3.4962565405E-004  +1.1041041613E+000 +8.2639813423E-001 
1886177.722 +1.2171292305E+000 -2.3877638578E-001  -1.2397627870E-005 -8.2724385720E-005  -1.5863233421E-004 +1.6250199405E-004  +1.1444621086E+000 +5.5812114477E-001 
2011322.904 +1.2111395597E+000 -2.2977155447E-001  -3.0484859599E-004 +4.2403885163E-004  -3.4656777279E-004 +3.0259994674E-004  +1.1579036713E+000 +5.2538537979E-001 
2136468.085 +1.2148594856E+000 -1.9011470675E-001  -1.3266716269E-004 +2.8544259840E-004  -3.4564401722E-004 +5.1246111980E-004  +1.0971637964E+000 +4.7607406974E-001 
2261613.267 +1.2329840660E+000 -1.8813365698E-001  -6.2559620710E-004 +2.5468485546E-004  -3.1014357228E-004 +4.7080157674E-004  +1.0543718338E+000 +5.1437854767E-001 
2386758.448 +1.2369844913E+000 -2.0506536961E-001  -4.5084994053E-004 +5.1264354261E-004  -1.3759089052E-004 +4.7884063679E-004  +1.0737836361E+000 +5.4418683052E-001 
2511903.630 +1.2356897593E+000 -2.2425633669E-001  -4.1070417501E-004 +5.3454982117E-004  -3.5798456520E-004 +4.2238718015E-004  +1.1178389788E+000 +5.7837450504E-001 
2637048.811 +1.2059966326E+000 -2.5642955303E-001  -5.8587110834E-004 +5.5938935839E-004  -4.6621108777E-004 +8.4396405146E-004  +1.1280765533E+000 +6.0612714291E-001 
2762193.992 +1.1468105316E+000 -1.7397812009E-001  -8.0368976342E-004 +6.4207176911E-004  -2.1629808180E-004 +4.9587211106E-004  +1.1402721405E+000 +5.0684452057E-001 
2887339.174 +1.2020553350E+000 -1.5473613143E-001  -2.4709937861E-004 +3.2105681021E-004  -5.6786794448E-004 +8.5645401850E-004  +9.9639743567E-001 +5.0081700087E-001 
3012484.355 +1.2313100100E+000 -1.6274788976E-001  -2.7464347659E-004 +7.4582698289E-004  -4.6868555364E-004 +7.2280771565E-004  +9.5419484377E-001 +6.1009126902E-001 
3137629.537 +1.2362895012E+000 -1.6213268042E-001  -6.5613159677E-004 +1.0816062568E-003  -7.5009156717E-004 +8.6729618488E-004  +9.7129523754E-001 +7.2146350145E-001 
3262774.718 +1.2373049259E+000 -1.6548156738E-001  -1.0085493559E-003 +6.0399819631E-004  -8.2427600864E-004 +8.0138474004E-004  +1.0240081549E+000 +7.8620201349E-001 
3387919.900 +1.2347276211E+000 -1.8084818125E-001  -8.7480491493E-004 +1.0620350949E-003  -9.4886368606E-004 +1.2934686383E-003  +1.0621567965E+000 +8.5270917416E-001 
3513065.081 +1.2490376234E+000 -2.1225446463E-001  -1.0905277450E-003 +9.4390893355E-004  -8.1867841072E-004 +7.0272322046E-004  +1.1036896706E+000 +9.2554986477E-001 
3638210.263 +1.2765280008E+000 -2.3767155409E-001  -9.9559372757E-004 +1.4999243431E-003  -1.6552634770E-003 +1.2226330582E-003  +1.1926201582E+000 +9.6429014206E-001 
3763355.444 +1.2716298103E+000 -2.6478099823E-001  -1.2646896066E-003 +1.6876473092E-003  -1.2222547084E-003 +5.2774179494E-004  +1.2907518148E+000 +9.9947011471E-001 
3888500.626 +1.2566730976E+000 -3.0048760772E-001  -4.8513542861E-003 +1.0819569230E-002  -8.8500336278E-004 +1.1660266900E-003  +1.3752079010E+000 +1.0631295443E+000 
4013645.807 +1.0590304136E+000 -4.2129984498E-001  -3.4602335654E-004 +2.3619234562E-003  -8.9820573339E-004 +1.9468913088E-003  +1.6514395475E+000 +8.4804958105E-001 
4138790.989 +8.5155665874E-001 -4.3307498097E-001  -6.9470866583E-004 +2.7016405948E-003  -1.8574751448E-004 +2.9792608693E-003  +1.7813086510E+000 +5.2887153625E-001 
4263936.170 +8.1577044725E-001 -4.2355316877E-001  +5.5239268113E-004 +2.3926449940E-003  -4.0648074355E-004 +1.8304170808E-003  +1.8376433849E+000 +4.2902970314E-001 
4389081.352 +7.6972740889E-001 -4.1266673803E-001  -1.5675014583E-004 +2.5183989201E-003  +3.0092886300E-004 +2.4961526506E-003  +1.8766165972E+000 +2.9675650597E-001 
4514226.533 +7.3996496201E-001 -4.1210925579E-001  -2.3170068744E-004 +2.6341499761E-003  -6.3964398578E-007 +2.1480643190E-003  +1.9130874872E+000 +2.0117191970E-001 
4639371.715 +7.1922731400E-001 -3.9169171453E-001  +1.8163755885E-004 +2.5432163384E-003  +4.9552356359E-004 +2.7607358061E-003  +1.8979283571E+000 +1.3164633512E-001 
4764516.896 +6.8759393692E-001 -3.6797142029E-001  +1.2056264095E-003 +1.9851822872E-003  +3.9746679249E-004 +2.5627466384E-003  +1.8992458582E+000 +3.5865560174E-002 
4889662.078 +6.6687905788E-001 -3.3567589521E-001  +3.1222225516E-004 +2.6817531325E-003  +9.5923349727E-004 +2.3263234179E-003  +1.9037315845E+000 -4.8750057817E-002 
5014807.259 +6.4204698801E-001 -3.2217815518E-001  +5.4738495965E-004 +2.5277375244E-003  +5.9716214309E-005 +2.6999847032E-003  +1.8604004383E+000 -1.1430054903E-001 
5139952.441 +6.2880420685E-001 -2.9318505526E-001  +9.5763721038E-004 +2.8205944691E-003  +4.4555112254E-004 +2.2732282523E-003  +1.8378329277E+000 -2.0081830025E-001 
5265097.622 +6.0995137691E-001 -2.5584003329E-001  +7.2158541298E-004 +2.7768325526E-003  +7.4805069016E-004 +2.4880450219E-003  +1.7851091623E+000 -2.5674459338E-001 
5390242.804 +5.9589129686E-001 -2.3262986541E-001  +3.4587661503E-004 +2.7871916536E-003  +4.2671948904E-004 +3.0313949101E-003  +1.7345956564E+000 -3.1562855840E-001 
5515387.985 +5.8633428812E-001 -2.0404760540E-001  +3.9593252586E-004 +3.0218616594E-003  +9.2840089928E-004 +2.9727481306E-003  +1.6930869818E+000 -3.8722196221E-001 
5640533.166 +5.7376486063E-001 -1.7006553710E-001  +5.4657051805E-004 +2.7971428353E-003  +7.5148715405E-004 +3.0436653178E-003  +1.6654638052E+000 -4.2697224021E-001 
5765678.348 +5.6056791544E-001 -1.4950522780E-001  +1.8548879598E-004 +3.0056815594E-003  -1.4761911007E-004 +2.4318187498E-003  +1.6056902409E+000 -4.4313454628E-001 
5890823.529 +5.6412220001E-001 -1.0701861978E-001  -2.0986988966E-004 +2.8633475304E-003  +5.5295706261E-004 +2.3564235307E-003  +1.5485461950E+000 -4.6754392982E-001 
6015968.711 +5.6095492840E-001 -8.1644147635E-002  +8.3423487376E-004 +2.9686712660E-003  +5.2680907538E-004 +2.3310396355E-003  +1.5004141331E+000 -4.9605241418E-001 
6141113.892 +5.5567997694E-001 -5.3242728114E-002  +4.8105040332E-004 +3.2973806374E-003  +6.4187170938E-004 +2.8985533863E-003  +1.4459619522E+000 -5.0961226225E-001 
6266259.074 +5.6056278944E-001 -2.5488134474E-002  +2.4945382029E-004 +2.2996333428E-003  +1.3071885041E-004 +2.9769418761E-003  +1.3947166204E+000 -5.2416396141E-001 
6391404.255 +5.6041705608E-001 +2.0288117230E-004  +6.2618817901E-004 +2.7301397640E-003  +3.4640546073E-004 +2.9268923681E-003  +1.3351414204E+000 -5.4313123226E-001 
6516549.437 +5.6468135118E-001 +3.2765831798E-002  +6.8720447598E-004 +2.8731047641E-003  +4.2889415636E-004 +3.0066547915E-003  +1.2931666374E+000 -5.4291957617E-001 
6641694.618 +5.7298934460E-001 +6.3685506582E-002  +4.6778231626E-004 +2.9456168413E-003  +5.4503639694E-004 +2.9573496431E-003  +1.2606468201E+000 -5.5232334137E-001 
6766839.800 +5.8592128754E-001 +9.1051429510E-002  +3.1544454396E-004 +2.9713490512E-003  +2.8554169694E-004 +2.7828225866E-003  +1.2168022394E+000 -5.4678857327E-001 
6891984.981 +5.9112447500E-001 +1.1364552379E-001  +2.3963097192E-004 +3.0573436525E-003  +2.6918985532E-004 +2.8838510625E-003  +1.1721117496E+000 -5.4288941622E-001 
7017130.163 +6.0233145952E-001 +1.3717767596E-001  +4.8750097631E-004 +3.0283783562E-003  +4.1214097291E-004 +3.1133610755E-003  +1.1379091740E+000 -5.3237736225E-001 
7142275.344 +6.1328339577E-001 +1.6615906358E-001  +1.0841156472E-004 +3.1039835885E-003  +3.1696612132E-004 +3.2115085050E-003  +1.1123759747E+000 -5.2320480347E-001 
7267420.526 +6.2554657459E-001 +1.9157515466E-001  +4.8783264356E-004 +2.8551954310E-003  +2.8303821455E-004 +3.0205841176E-003  +1.0772467852E+000 -5.1886826754E-001 
7392565.707 +6.4517855644E-001 +2.1796245873E-001  -7.8743993072E-005 +3.3706645481E-003  +4.6782218851E-004 +3.5603218712E-003  +1.0454280376E+000 -5.0826764107E-001 
7517710.889 +6.6142088175E-001 +2.3599149287E-001  -1.2695544865E-004 +3.2404861413E-003  +3.7583187805E-004 +3.2802375499E-003  +1.0174951553E+000 -4.9594020844E-001 
7642856.070 +6.8073517084E-001 +2.5611785054E-001  +7.8071141616E-005 +3.2856895123E-003  +3.2375182491E-004 +3.1239772215E-003  +9.8698002100E-001 -4.8250189424E-001 
7768001.252 +7.0009368658E-001 +2.8004449606E-001  +2.4284888059E-004 +3.4129468258E-003  -6.2534934841E-005 +3.2756342553E-003  +9.6095442772E-001 -4.6880161762E-001 
7893146.433 +7.2506248951E-001 +2.9694765806E-001  +1.2714491459E-004 +3.3037634566E-003  +1.3793003745E-005 +3.4179566428E-003  +9.3906980753E-001 -4.5229154825E-001 
8018291.615 +7.4968194962E-001 +3.1509897113E-001  +8.5206644144E-005 +3.3679888584E-003  +1.9377691206E-004 +3.4502903000E-003  +9.1292172670E-001 -4.3488496542E-001 
8143436.796 +7.7171152830E-001 +3.2378169894E-001  +2.5170773733E-004 +3.4472309053E-003  +3.4077384043E-005 +3.4501345363E-003  +8.9835512638E-001 -4.1900750995E-001 
8268581.977 +7.9540705681E-001 +3.3568814397E-001  +1.5658035409E-004 +3.5820512567E-003  +1.3354304247E-004 +3.6349107977E-003  +8.7648677826E-001 -4.0794312954E-001 
8393727.159 +8.2352644205E-001 +3.4644299746E-001  -3.6180310417E-005 +3.6973056849E-003  +8.2477636170E-005 +3.3151754178E-003  +8.6416214705E-001 -3.8994491100E-001 
8518872.340 +8.5482221842E-001 +3.5925671458E-001  -9.0006506070E-006 +3.5996960942E-003  -8.4088067524E-005 +3.6633994896E-003  +8.4141123295E-001 -3.7488532066E-001 
8644017.522 +8.7659287453E-001 +3.6634540558E-001  -1.6133510508E-004 +3.8724294864E-003  +3.1042378396E-005 +3.7743074354E-003  +8.3169871569E-001 -3.5997039080E-001 
8769162.703 +9.0789556503E-001 +3.6987474561E-001  -2.3898342624E-004 +3.7648912985E-003  -1.6382243484E-004 +3.7841070443E-003  +8.1586515903E-001 -3.4495115280E-001 
8894307.885 +9.3570655584E-001 +3.6689653993E-001  -1.4228012878E-004 +3.9508063346E-003  -2.2451789118E-004 +4.0495698340E-003  +7.9962694645E-001 -3.3028739691E-001 
9019453.066 +9.6326696873E-001 +3.6884289980E-001  -7.7340519056E-006 +3.9248359390E-003  -4.1184481233E-005 +4.0318872780E-003  +7.8572696447E-001 -3.1634137034E-001 
9144598.248 +9.9329012632E-001 +3.6557182670E-001  -1.2164143845E-004 +4.1490290314E-003  -2.3100909311E-004 +4.0346821770E-003  +7.7634048462E-001 -2.9537099600E-001 
9269743.429 +1.0193850994E+000 +3.6086159945E-001  -7.7477889135E-005 +4.1608288884E-003  -1.5514914412E-004 +4.1382377967E-003  +7.6890045404E-001 -2.7793899179E-001 
9394888.611 +1.0437772274E+000 +3.5732290149E-001  -1.6331207007E-005 +4.3261242099E-003  -2.5387085043E-004 +4.2743477970E-003  +7.5650548935E-001 -2.6427349448E-001 
9520033.792 +1.0717417002E+000 +3.4392377734E-001  -7.8897573985E-005 +4.3869861402E-003  -1.4475639910E-004 +4.3459236622E-003  +7.5214004517E-001 -2.4211347103E-001 
9645178.974 +1.0989537239E+000 +3.3369666338E-001  -7.8425509855E-005 +4.5012165792E-003  -1.7856352497E-004 +4.4124638662E-003  +7.4321496487E-001 -2.2679188848E-001 
9770324.155 +1.1191068888E+000 +3.2062876225E-001  -1.0494352318E-004 +4.6021542512E-003  -1.0321603622E-004 +4.5738709159E-003  +7.3533070087E-001 -2.0958635211E-001 
9895469.337 +1.1397036314E+000 +3.1027084589E-001  -1.8602213822E-004 +4.6501602046E-003  -2.1100533195E-004 +4.6397438273E-003  +7.3009622097E-001 -1.9285219908E-001 
10020614.518 +1.1593877077E+000 +2.9051667452E-001  -2.0237429999E-004 +4.7855912708E-003  -1.7199059948E-004 +4.8420727253E-003  +7.2716891766E-001 -1.7529821396E-001 
10145759.700 +1.1769013405E+000 +2.7090749145E-001  -2.0049512386E-004 +4.7949133441E-003  -1.5257415362E-004 +4.8051667400E-003  +7.2392106056E-001 -1.6318506002E-001 
10270904.881 +1.1968190670E+000 +2.4994260073E-001  -1.2024468742E-004 +4.9607190304E-003  -1.7780740745E-004 +5.0395657308E-003  +7.2073340416E-001 -1.4541012049E-001 
10396050.063 +1.2079319954E+000 +2.2959411144E-001  -9.2511996627E-005 +4.9756607041E-003  -9.1006979346E-005 +4.9392096698E-003  +7.1714913845E-001 -1.2932911515E-001 
10521195.244 +1.2205843925E+000 +2.1068495512E-001  -1.4192750677E-004 +5.0870897248E-003  -1.9550905563E-004 +5.0843143836E-003  +7.1791720390E-001 -1.1374208331E-001 
10646340.426 +1.2279305458E+000 +1.8995019794E-001  -1.8029077910E-004 +5.1201898605E-003  -1.0487344116E-004 +5.0645149313E-003  +7.1496582031E-001 -9.6755892038E-002 
10771485.607 +1.2367957830E+000 +1.6809439659E-001  -1.1542951688E-004 +5.1335748285E-003  -1.9774539396E-005 +5.2670035511E-003  +7.1547448635E-001 -8.1043154001E-002 
10896630.788 +1.2426688671E+000 +1.4879691601E-001  -1.3545597903E-004 +5.3648962639E-003  -1.5126937069E-004 +5.3394576535E-003  +7.1546471119E-001 -6.4598351717E-002 
11021775.970 +1.2454547882E+000 +1.2789505720E-001  -2.8977403417E-005 +5.4094977677E-003  -1.4290912077E-004 +5.3175538778E-003  +7.1661210060E-001 -4.9954473972E-002 
11146921.151 +1.2477982044E+000 +1.0449707508E-001  -1.1907145381E-004 +5.5002449080E-003  -6.5630534664E-005 +5.5119730532E-003  +7.1836805344E-001 -3.4670889378E-002 
11272066.333 +1.2469413280E+000 +8.3813190460E-002  -2.7711037546E-005 +5.4525546730E-003  -5.1355920732E-005 +5.5077262223E-003  +7.1897912025E-001 -2.2062689066E-002 
11397211.514 +1.2474910021E+000 +6.6144645214E-002  -9.2445639893E-005 +5.6057376787E-003  -8.1975944340E-005 +5.6079095230E-003  +7.2291088104E-001 -5.8614909649E-003 
11522356.696 +1.2456153631E+000 +4.7496557236E-002  -4.5713502914E-005 +5.6391004473E-003  -6.7323679104E-005 +5.6395335123E-003  +7.2703713179E-001 +6.1088800430E-003 
11647501.877 +1.2407313585E+000 +3.1710147858E-002  -5.0081405789E-005 +5.7036429644E-003  -1.0914099403E-004 +5.7261320762E-003  +7.2986429930E-001 +2.1152317524E-002 
11772647.059 +1.2372065783E+000 +1.4233350754E-002  +5.8768317103E-005 +5.7792812586E-003  -3.5611446947E-005 +5.8418447152E-003  +7.3485064507E-001 +3.3539801836E-002 
11897792.240 +1.2318718433E+000 -1.9496679306E-003  +2.4169916287E-005 +5.8447010815E-003  +2.6363180950E-005 +5.8423327282E-003  +7.4169373512E-001 +4.6174556017E-002 
12022937.422 +1.2274328470E+000 -1.5091270208E-002  -1.1840602383E-005 +5.9568472207E-003  -1.0774424300E-004 +5.9983022511E-003  +7.4724638462E-001 +5.9372037649E-002 
12148082.603 +1.2192826271E+000 -3.0821055174E-002  -2.8033740819E-005 +5.9966356494E-003  +1.4433404431E-005 +5.9685250744E-003  +7.5379252434E-001 +7.3677420616E-002 
12273227.785 +1.2121657133E+000 -4.1311830282E-002  -3.8161873817E-005 +6.0020172969E-003  -1.4086952433E-005 +6.0592950322E-003  +7.6091015339E-001 +8.3185687661E-002 
12398372.966 +1.2032147646E+000 -5.5610597134E-002  +1.6589416191E-005 +6.1464998871E-003  +1.8954044208E-005 +6.1030299403E-003  +7.6904374361E-001 +9.4991222024E-002 
12523518.148 +1.1921938658E+000 -6.6102951765E-002  -2.1973624825E-005 +6.1455378309E-003  -4.2177271098E-006 +6.1889747158E-003  +7.7516436577E-001 +1.0515722632E-001 
12648663.329 +1.1855955124E+000 -7.5239077210E-002  +2.1171988919E-005 +6.2308269553E-003  +3.3338787034E-005 +6.2441825867E-003  +7.8490519524E-001 +1.1571207643E-001 
12773808.511 +1.1750489473E+000 -8.5628703237E-002  -1.0735937394E-005 +6.2986714765E-003  +1.9159168005E-005 +6.2798834406E-003  +7.9434263706E-001 +1.2616480887E-001 
12898953.692 +1.1664068699E+000 -9.3619987369E-002  +1.6532721929E-006 +6.3432869501E-003  +7.0732960012E-005 +6.3480325043E-003  +8.0364519358E-001 +1.3453787565E-001 
13024098.874 +1.1566669941E+000 -1.0043944418E-001  -1.0144460248E-005 +6.4290128648E-003  +2.8989074053E-005 +6.4518754371E-003  +8.1446051598E-001 +1.4490678906E-001 
13149244.055 +1.1466722488E+000 -1.0587043315E-001  +2.3512315238E-005 +6.5156319179E-003  +2.1229003323E-005 +6.5312413499E-003  +8.2380735874E-001 +1.5290246904E-001 
13274389.237 +1.1376267672E+000 -1.1269506067E-001  +9.5012219390E-006 +6.5800431184E-003  +5.5599884945E-005 +6.5991901793E-003  +8.3581787348E-001 +1.6061593592E-001 
13399534.418 +1.1269297600E+000 -1.1783080548E-001  +3.2293377444E-005 +6.6432990134E-003  +7.3138333391E-005 +6.6183740273E-003  +8.4657138586E-001 +1.6771233082E-001 
13524679.599 +1.1176804304E+000 -1.2192355096E-001  +5.0996139180E-005 +6.7271189764E-003  +5.2511808462E-005 +6.7239925265E-003  +8.5846942663E-001 +1.7463260889E-001 
13649824.781 +1.1074926853E+000 -1.2577086687E-001  +6.6397595219E-005 +6.8262461573E-003  +1.2745615095E-004 +6.8492987193E-003  +8.7123960257E-001 +1.7949901521E-001 
13774969.962 +1.0984909534E+000 -1.2859492004E-001  +8.7351654656E-005 +6.8396991119E-003  +8.5724750534E-005 +6.8748183548E-003  +8.8237446547E-001 +1.8502527475E-001 
13900115.144 +1.0891861916E+000 -1.3080251217E-001  +1.1883664411E-004 +6.9517958909E-003  +1.2036447879E-004 +6.9464202970E-003  +8.9381450415E-001 +1.8944513798E-001 
14025260.325 +1.0794388056E+000 -1.3260623813E-001  +8.7706604972E-005 +7.0312512107E-003  +1.3437145390E-004 +7.0043727756E-003  +9.0654689074E-001 +1.9253635406E-001 
14150405.507 +1.0707926750E+000 -1.3326877356E-001  +1.1378014460E-004 +7.0823067799E-003  +1.0205432773E-004 +7.0701278746E-003  +9.1875565052E-001 +1.9610072672E-001 
14275550.688 +1.0619840622E+000 -1.3518962264E-001  +1.1626514606E-004 +7.1622580290E-003  +1.7547979951E-004 +7.1287089959E-003  +9.3144488335E-001 +1.9766116142E-001 
14400695.870 +1.0521552563E+000 -1.3586625457E-001  +1.3152183965E-004 +7.2167818435E-003  +1.3893470168E-004 +7.2447177954E-003  +9.4333922863E-001 +1.9921439886E-001 
