!  2-Port S-parameters saved by WinCal
! VAR MeasName=S-Parameters (CALIBRATED_DATA) read from VNA (P5004A)
! VAR MeasDate=22/05/2024 19:11:54
! VAR NAME=Wafer2_r2_c1_reset
! VAR FILENAME=Wafer2_r2_c1_reset.S2P
! VAR DATE=22/05/2024 19:11:54
! VAR PHYS_PORTS=1,2
! VAR ObjTypeName=DATASET
! VAR IndexType=Frequency
!
# Hz S RI R 50
9000.000 +2.1298144758E-001 -6.0439330339E-001  -3.2643484883E-003 +3.8491620217E-003  +1.7588244518E-003 +7.0783583215E-004  +4.5070838183E-002 +1.0158644617E-001 
134145.181 +7.8324311972E-001 +6.2383972108E-002  -8.6091188714E-003 +1.2558248825E-002  +3.7247762084E-002 +6.2238471583E-003  +1.5813456476E-001 +1.7234547436E-001 
259290.363 +8.9345836639E-001 -6.5800055861E-002  +8.1094598863E-004 -6.3097905368E-003  +6.4125424251E-004 +6.6570201889E-003  +1.0347555876E+000 -2.8012692928E-002 
384435.544 +9.3168389797E-001 -2.4403244257E-001  +3.2382665668E-003 -2.9910160229E-003  -3.0446199235E-003 +4.8896409571E-003  +1.0654342175E+000 -4.9043700099E-002 
509580.726 +9.6705389023E-001 -1.1888293922E-001  +1.6887689708E-003 -6.9813802838E-005  +2.7137061115E-003 +4.9602438230E-004  +1.0283027887E+000 -2.6124984026E-002 
634725.907 +1.0833828449E+000 -1.7987623811E-001  -7.2780216578E-004 +3.5406521056E-004  -3.7455401616E-004 +5.9201562544E-004  +1.0853995085E+000 -4.4183105230E-002 
759871.089 +1.2505019903E+000 -9.1912701726E-002  -4.6417681733E-004 +1.4201144222E-003  -2.2978938650E-003 +2.1530776285E-003  +1.1395624876E+000 -8.3468571305E-002 
885016.270 +6.2175124884E-001 -8.3494770527E-001  +9.3059744686E-003 -7.7257761732E-003  +6.3060736284E-003 -8.7989205495E-003  +1.4261190891E+000 -3.1313151121E-001 
1010161.452 +1.0366457701E+000 +2.0597159863E-002  +1.2673084857E-003 +8.6657941574E-004  -4.8073532525E-004 -1.7909109592E-003  +6.3707715273E-001 +2.8454217315E-001 
1135306.633 +1.0167747736E+000 +1.3101175427E-001  -1.6722457949E-003 -5.0782825565E-004  +1.6825440107E-003 -1.8949705409E-003  +8.5536414385E-001 +2.8589951992E-001 
1260451.815 +1.3369860649E+000 +7.7151924372E-002  +2.6044077240E-003 -1.0428833775E-004  +3.5726313945E-004 +4.3444786570E-005  +9.3741405010E-001 +2.6105007529E-001 
1385596.996 +1.2470417023E+000 -6.8387091160E-002  -7.5618780102E-005 -4.2488091276E-004  +1.2148966780E-003 +2.3388615227E-004  +9.9245643616E-001 +1.4565905929E-001 
1510742.178 +1.3548562527E+000 -1.4008700848E-001  -4.4908499694E-004 -4.9136846792E-004  -3.8091084571E-004 +3.7401233567E-004  +9.0049970150E-001 +1.8831050396E-001 
1635887.359 +9.7177702188E-001 -2.3105813563E-001  -7.7642122051E-004 +1.1940004770E-003  +1.8840412667E-004 -1.1334625742E-004  +1.1156767607E+000 +1.7095592618E-001 
1761032.541 +1.0330594778E+000 -1.8567317724E-001  +6.4682622906E-004 +9.0450490825E-004  -8.4505509585E-004 +1.1335706222E-004  +1.0520759821E+000 +2.1522322297E-001 
1886177.722 +1.0021044016E+000 -9.8771840334E-002  -7.7534886077E-004 -1.1690682732E-004  +1.8370209727E-004 -1.2226856779E-004  +1.0592069626E+000 +1.5355476737E-001 
2011322.904 +1.0108762980E+000 -5.4764300585E-002  +7.4887479423E-004 +2.2094638553E-005  -2.7843163116E-004 +3.3514818642E-004  +1.0467343330E+000 +1.4795190096E-001 
2136468.085 +1.0092263222E+000 -3.6795765162E-002  +7.0976238931E-006 +2.7746881824E-004  -6.5031519625E-004 -3.5217800178E-004  +1.0393146276E+000 +1.3639596105E-001 
2261613.267 +1.0116608143E+000 -3.2190710306E-002  -1.9323834567E-004 -5.5697411881E-005  -1.6100815265E-004 +1.1884185369E-006  +1.0225656033E+000 +1.5638956428E-001 
2386758.448 +1.0041644573E+000 -1.3004660606E-002  -3.8282515015E-004 +4.5215556747E-004  -2.8690948966E-005 -1.9898274331E-004  +1.0353189707E+000 +1.6544473171E-001 
2511903.630 +1.0129585266E+000 +1.4456897974E-002  +4.5065215090E-005 +6.6880718805E-004  -5.4075382650E-004 +5.7642778847E-004  +1.0399409533E+000 +1.8273034692E-001 
2637048.811 +1.0147354603E+000 +1.3039112091E-002  -2.8012011899E-004 +4.5129022328E-004  -2.6972949854E-005 -4.6763452701E-005  +1.0335292816E+000 +2.0476421714E-001 
2762193.992 +1.0060809851E+000 +3.7343803793E-002  -5.4473384807E-005 +5.6964188116E-004  -3.7111275014E-004 +5.7578674750E-004  +1.0304950476E+000 +2.1212390065E-001 
2887339.174 +9.9948239326E-001 +6.1165347695E-002  +3.2217845728E-005 +4.0759283002E-004  -2.6557629462E-004 +8.5858930834E-004  +1.0228687525E+000 +2.4730950594E-001 
3012484.355 +1.0186712742E+000 +6.5898582339E-002  -2.2318429546E-004 +8.1526295980E-004  -8.1575592048E-004 +4.4947548304E-004  +1.0534424782E+000 +2.8380852938E-001 
3137629.537 +1.0069040060E+000 +9.4004720449E-002  +1.3170762395E-004 +5.5560650071E-004  -2.7241912903E-004 +6.5229780739E-004  +1.0941143036E+000 +3.0220252275E-001 
3262774.718 +1.0145819187E+000 +1.0472705960E-001  -6.2591803726E-004 +6.7277101334E-004  -3.9153025136E-004 +6.0794106685E-004  +1.1180914640E+000 +3.1904828548E-001 
3387919.900 +1.0234491825E+000 +1.1435005069E-001  -7.2043330874E-004 +6.8635551725E-004  -5.6680745911E-004 +6.0883793049E-004  +1.1490705013E+000 +3.2070004940E-001 
3513065.081 +1.0407500267E+000 +1.3406321406E-001  -6.6155684181E-004 +6.2217161758E-004  -5.5077829165E-004 +2.9121132684E-004  +1.1741635799E+000 +3.4450849891E-001 
3638210.263 +1.0553574562E+000 +1.6732044518E-001  -5.5477500428E-004 +1.2442416046E-003  -1.4801030047E-003 +1.3624293497E-003  +1.2083197832E+000 +3.3530074358E-001 
3763355.444 +1.0712660551E+000 +1.7268693447E-001  -9.3784841010E-004 +1.1428254656E-003  -5.6198728271E-004 +6.8505038507E-004  +1.2480598688E+000 +3.1233447790E-001 
3888500.626 +1.0942971706E+000 +1.9516730309E-001  -7.1459123865E-004 +1.2675035978E-003  -8.7590748444E-004 +2.0304536447E-003  +1.2799527645E+000 +3.1455537677E-001 
4013645.807 +1.0581579208E+000 +9.7874045372E-002  -1.1872425675E-003 +1.0715243407E-003  -6.7341700196E-004 +1.4552106149E-003  +1.2582856417E+000 +1.5280809999E-001 
4138790.989 +9.8428100348E-001 -9.1643556952E-003  -5.9213525674E-005 +2.2189666051E-003  -5.5487116333E-004 +1.4741970226E-003  +1.1639087200E+000 +2.2531749681E-002 
4263936.170 +9.8085868359E-001 +8.1494897604E-003  -3.7730438635E-005 +2.6386745740E-003  -4.6740256948E-004 +2.2911063861E-003  +1.1565810442E+000 -1.4679990709E-002 
4389081.352 +9.8974078894E-001 -1.8436741084E-003  +1.2602486822E-004 +2.0426854026E-003  -6.3351553399E-004 +1.9974990282E-003  +1.1420658827E+000 -3.9360973984E-002 
4514226.533 +1.0039654970E+000 -4.1889622808E-003  +1.8487585476E-004 +1.8119607121E-003  +4.1216751561E-004 +1.7019945662E-003  +1.1457287073E+000 -5.1687352359E-002 
4639371.715 +1.0137002468E+000 -1.1454340070E-002  -7.8272441169E-004 +2.1645529196E-003  -5.8136449661E-004 +2.2817424033E-003  +1.1365740299E+000 -5.5951438844E-002 
4764516.896 +1.0091246367E+000 -1.5355885029E-002  -4.8345544201E-005 +2.4461080320E-003  -6.1140873004E-004 +2.9073175974E-003  +1.1275308132E+000 -8.3207726479E-002 
4889662.078 +1.0105501413E+000 -6.0602724552E-003  -1.9070919370E-004 +2.2227335721E-003  -1.2145539949E-004 +2.8647510335E-003  +1.1212042570E+000 -7.7401995659E-002 
5014807.259 +1.0045213699E+000 -9.1907307506E-003  +1.1415405606E-004 +1.5456305118E-003  -2.6395052555E-004 +2.3602549918E-003  +1.0984388590E+000 -7.8570239246E-002 
5139952.441 +1.0108801126E+000 -1.6417585313E-002  -2.8867536457E-004 +2.7373859193E-003  +6.9482601248E-005 +2.0089338068E-003  +1.0934854746E+000 -9.1824837029E-002 
5265097.622 +1.0107889175E+000 -1.3394244015E-002  +1.6673238133E-004 +2.7166316286E-003  -6.8413757253E-004 +2.0987878088E-003  +1.0808681250E+000 -9.2971660197E-002 
5390242.804 +1.0112084150E+000 -1.8267162144E-002  -1.1692373664E-004 +3.3848639578E-003  -1.0355956620E-003 +2.2516567260E-003  +1.0677670240E+000 -9.3879528344E-002 
5515387.985 +1.0187406540E+000 -2.1787188947E-002  -1.2672590674E-004 +2.5069669355E-003  +3.5700088483E-004 +2.4153641425E-003  +1.0613371134E+000 -9.7196176648E-002 
5640533.166 +1.0159369707E+000 -1.8461599946E-002  -1.8631707644E-004 +3.3524471801E-003  -2.4214216683E-004 +2.3424138781E-003  +1.0617154837E+000 -9.4705842435E-002 
5765678.348 +1.0108065605E+000 -2.7001403272E-002  +2.7166013024E-004 +3.0200160109E-003  +1.8984195776E-005 +2.7335025370E-003  +1.0572313070E+000 -9.6588872373E-002 
5890823.529 +1.0107736588E+000 -2.9786340892E-002  -2.5008624652E-004 +2.9869473074E-003  -1.4212260430E-004 +3.0762697570E-003  +1.0425726175E+000 -9.4330504537E-002 
6015968.711 +1.0064806938E+000 -3.5133123398E-002  +1.1241930770E-004 +3.2566008158E-003  -2.4040849530E-004 +2.9606029857E-003  +1.0379983187E+000 -9.7034245729E-002 
6141113.892 +1.0083113909E+000 -3.3714026213E-002  -8.2264275989E-005 +2.9641899746E-003  +9.7456882941E-005 +2.9569817707E-003  +1.0293811560E+000 -9.7535602748E-002 
6266259.074 +1.0024112463E+000 -4.1306443512E-002  -2.5220791576E-004 +2.8664695565E-003  -3.5148649476E-004 +3.1042341143E-003  +1.0227712393E+000 -9.2387735844E-002 
6391404.255 +1.0015903711E+000 -3.8704723120E-002  +1.5892321244E-005 +2.9570795596E-003  +1.4832825400E-005 +3.6381785758E-003  +1.0149307251E+000 -9.6495918930E-002 
6516549.437 +9.9797850847E-001 -3.9832286537E-002  -2.8366839979E-004 +3.2985759899E-003  +2.2048855317E-004 +3.3650915138E-003  +1.0069768429E+000 -9.2495091259E-002 
6641694.618 +1.0023475885E+000 -4.1120782495E-002  -2.1406071028E-005 +3.1698797829E-003  -1.8337368965E-004 +3.4486337099E-003  +1.0082007647E+000 -8.8292926550E-002 
6766839.800 +1.0068633556E+000 -3.9291992784E-002  -2.2856031137E-004 +3.3260637429E-003  -1.9606607384E-004 +3.7824292667E-003  +1.0019475222E+000 -8.4309965372E-002 
6891984.981 +1.0029556751E+000 -3.9224684238E-002  +1.1334975716E-004 +3.5116602667E-003  +1.0773423128E-005 +3.3918321133E-003  +9.9110424519E-001 -8.5174620152E-002 
7017130.163 +9.9504786730E-001 -3.6775246263E-002  +2.1508085774E-004 +3.0154758133E-003  +1.0479943012E-004 +3.0669011176E-003  +9.9629378319E-001 -7.2795674205E-002 
7142275.344 +9.9460953474E-001 -3.1890705228E-002  +3.0708598206E-004 +3.7507505622E-003  +2.4034734815E-004 +3.3680745400E-003  +9.9359506369E-001 -6.6632330418E-002 
7267420.526 +9.9142771959E-001 -2.6724785566E-002  +6.4300489612E-005 +3.4888319205E-003  +9.4516784884E-005 +3.9230748080E-003  +9.8769259453E-001 -6.7882314324E-002 
7392565.707 +9.9808907509E-001 -2.7522668242E-002  +1.5257275663E-005 +3.8303832989E-003  +2.4952343665E-005 +3.5494773183E-003  +9.9350476265E-001 -6.9887667894E-002 
7517710.889 +1.0000393391E+000 -3.0763998628E-002  +5.3802446928E-005 +3.6082090810E-003  +2.0157149993E-004 +3.8180628326E-003  +9.8549395800E-001 -6.6390037537E-002 
7642856.070 +9.9311053753E-001 -2.8348818421E-002  -9.1751455329E-005 +3.6899719853E-003  +1.2467021588E-004 +3.6904411390E-003  +9.8058992624E-001 -6.6799655557E-002 
7768001.252 +9.9593758583E-001 -2.5040715933E-002  +7.2905851994E-005 +4.1270703077E-003  -9.0307905339E-005 +3.6324393004E-003  +9.7738343477E-001 -6.2161594629E-002 
7893146.433 +9.9628436565E-001 -2.5360256433E-002  +2.2815365810E-004 +3.8266512565E-003  -6.5567437559E-005 +3.7474315614E-003  +9.7603178024E-001 -5.5003568530E-002 
8018291.615 +9.9268525839E-001 -2.6513144374E-002  +2.1317403298E-004 +4.0157423355E-003  +1.0094937170E-004 +3.7115740124E-003  +9.6896964312E-001 -5.7718157768E-002 
8143436.796 +9.8646050692E-001 -2.7365893126E-002  +2.1824403666E-004 +3.9522075094E-003  +2.4609512184E-004 +3.6486166064E-003  +9.7249460220E-001 -5.2081003785E-002 
8268581.977 +9.8756062984E-001 -2.7643978596E-002  +9.8981312476E-005 +4.1487179697E-003  +8.0064637586E-006 +3.9376877248E-003  +9.7124707699E-001 -4.5888096094E-002 
8393727.159 +9.8850291967E-001 -2.4859368801E-002  +8.3904596977E-005 +3.9146426134E-003  +1.7174053937E-005 +3.8805333897E-003  +9.7244030237E-001 -4.4964671135E-002 
8518872.340 +9.9288606644E-001 -2.2543847561E-002  +2.6632566005E-005 +4.1807144880E-003  -8.0979545601E-005 +4.1315103881E-003  +9.7173738480E-001 -4.1250109673E-002 
8644017.522 +9.8888832331E-001 -1.9978523254E-002  +3.2022327650E-004 +4.2405929416E-003  +1.5998643357E-004 +4.0372861549E-003  +9.7290533781E-001 -4.0864884853E-002 
8769162.703 +9.9298655987E-001 -2.4144023657E-002  +4.7667766921E-005 +4.2663491331E-003  +5.3396797739E-005 +4.1755368002E-003  +9.7327756882E-001 -4.0147840977E-002 
8894307.885 +9.8909515142E-001 -2.3244649172E-002  +2.2418983281E-004 +4.2341663502E-003  +3.6023301072E-004 +4.3197385967E-003  +9.6950417757E-001 -4.0526539087E-002 
9019453.066 +9.8771822453E-001 -2.3142606020E-002  +5.9365993366E-006 +4.4338842854E-003  +3.6248704419E-005 +4.4356067665E-003  +9.6728748083E-001 -3.8225233555E-002 
9144598.248 +9.8643022776E-001 -2.2219747305E-002  +1.7408863641E-005 +4.4313897379E-003  -3.5988166928E-005 +4.5779393986E-003  +9.7004032135E-001 -3.5037904978E-002 
9269743.429 +9.8678970337E-001 -2.2459656000E-002  +2.3515743669E-004 +4.4454354793E-003  -1.2395286467E-004 +4.5712185092E-003  +9.7297340631E-001 -3.0590057373E-002 
9394888.611 +9.8791760206E-001 -1.7406910658E-002  +9.6854055300E-006 +4.5058475807E-003  +2.1599698812E-006 +4.5673544519E-003  +9.7221136093E-001 -3.3554106951E-002 
9520033.792 +9.8867082596E-001 -1.9503921270E-002  +2.4404260330E-005 +4.7356733121E-003  +6.9688539952E-006 +4.7441264614E-003  +9.7000050545E-001 -2.9358625412E-002 
9645178.974 +9.8954808712E-001 -1.5601962805E-002  -6.0141435824E-005 +4.7496240586E-003  -2.0296429284E-005 +4.7409413382E-003  +9.7054505348E-001 -2.7769088745E-002 
9770324.155 +9.8840397596E-001 -1.4760285616E-002  -3.4937402233E-005 +4.7299945727E-003  +3.2014446333E-005 +4.7450531274E-003  +9.6838223934E-001 -2.3899316788E-002 
9895469.337 +9.8934864998E-001 -1.2938380241E-002  -2.8142239898E-006 +4.8527931795E-003  -4.1917199269E-005 +4.7665913589E-003  +9.6830368042E-001 -2.0731359720E-002 
10020614.518 +9.8838728666E-001 -9.5701813698E-003  +3.5873847082E-005 +4.9546048976E-003  +2.1381769329E-004 +5.0288350321E-003  +9.7078156471E-001 -1.6729772091E-002 
10145759.700 +9.8961275816E-001 -1.2875795364E-002  +1.5318952501E-004 +4.9331584014E-003  +1.5093665570E-004 +4.9803000875E-003  +9.7190320492E-001 -1.9218116999E-002 
10270904.881 +9.9036705494E-001 -1.2890636921E-002  +3.1692208722E-005 +4.9969675019E-003  +6.1448663473E-005 +5.1178848371E-003  +9.7262549400E-001 -1.7922282219E-002 
10396050.063 +9.8846280575E-001 -1.1616140604E-002  +1.1869845912E-004 +5.0302874297E-003  +1.2560933828E-004 +4.9204514362E-003  +9.7272717953E-001 -1.6331762075E-002 
10521195.244 +9.8830878735E-001 -1.0834068060E-002  +6.3428422436E-005 +5.2530337125E-003  +1.5832483768E-008 +5.0370972604E-003  +9.7304069996E-001 -1.4615833759E-002 
10646340.426 +9.9015188217E-001 -1.1511802673E-002  +1.9447179511E-005 +5.2098892629E-003  +1.1151889339E-004 +5.2836546674E-003  +9.7319209576E-001 -1.2587904930E-002 
10771485.607 +9.8967778683E-001 -9.8936259747E-003  +6.8675028160E-005 +5.2843326703E-003  -8.7595777586E-005 +5.2208248526E-003  +9.7497582436E-001 -1.1515468359E-002 
10896630.788 +9.9041354656E-001 -8.9901387691E-003  +7.7378004789E-005 +5.3569767624E-003  +1.3680709526E-004 +5.2713742480E-003  +9.7389960289E-001 -1.1684417725E-002 
11021775.970 +9.8848998547E-001 -9.3201398849E-003  +5.0734262913E-005 +5.3444826044E-003  +1.3647275046E-004 +5.4343305528E-003  +9.7429490089E-001 -1.1412650347E-002 
11146921.151 +9.8822981119E-001 -1.0917663574E-002  +1.6379542649E-004 +5.5017508566E-003  +9.4152521342E-005 +5.4158079438E-003  +9.7596406937E-001 -1.0532587767E-002 
11272066.333 +9.8794949055E-001 -9.5629096031E-003  +1.9551441073E-004 +5.4906927980E-003  +1.4832383022E-004 +5.5055161938E-003  +9.7602593899E-001 -9.4774961472E-003 
11397211.514 +9.8919165134E-001 -8.8588297367E-003  +1.8275971524E-004 +5.5543212220E-003  +1.4523975551E-004 +5.6298146956E-003  +9.7657173872E-001 -8.9750289917E-003 
11522356.696 +9.9042063951E-001 -7.3956847191E-003  +1.6366457567E-004 +5.6088860147E-003  +1.0458217002E-004 +5.5894958787E-003  +9.7708880901E-001 -8.1858336926E-003 
11647501.877 +9.8880875111E-001 -8.2311034203E-003  +1.1353078298E-004 +5.6527517736E-003  +8.3819730207E-005 +5.7723438367E-003  +9.7708106041E-001 -7.5970292091E-003 
11772647.059 +9.9013733864E-001 -6.8002939224E-003  +8.9041423053E-005 +5.7081198320E-003  +1.0614143685E-004 +5.8020097204E-003  +9.7760480642E-001 -8.3366930485E-003 
11897792.240 +9.8909032345E-001 -7.6117813587E-003  +1.0138214566E-004 +5.8266399428E-003  +1.3573328033E-004 +5.8103180490E-003  +9.7855013609E-001 -6.9446563721E-003 
12022937.422 +9.9169945717E-001 -5.7212710381E-003  +1.9100820646E-004 +5.8256168850E-003  +1.0895682499E-004 +5.8185169473E-003  +9.7862851620E-001 -6.7700445652E-003 
12148082.603 +9.9224436283E-001 -6.0039162636E-003  +1.8946803175E-004 +5.9114829637E-003  +1.6483315267E-004 +5.9138787910E-003  +9.7963321209E-001 -5.9461891651E-003 
12273227.785 +9.9237000942E-001 -5.1565766335E-003  +1.1853268370E-004 +5.9971883893E-003  +1.5014829114E-004 +5.8874953538E-003  +9.8055464029E-001 -6.1432123184E-003 
12398372.966 +9.9218833447E-001 -5.1974058151E-003  +1.1451262981E-004 +6.0052350163E-003  +1.4778284822E-004 +6.0612764210E-003  +9.8184251785E-001 -5.0617158413E-003 
12523518.148 +9.9072372913E-001 -4.2012333870E-003  +1.4358072076E-004 +6.1097252183E-003  +1.0872527491E-004 +6.0669453815E-003  +9.8071289063E-001 -4.3527036905E-003 
12648663.329 +9.9259746075E-001 -2.9112994671E-003  +2.0799355116E-004 +6.1659305356E-003  +1.3436644804E-004 +6.1624175869E-003  +9.8169124126E-001 -3.5473108292E-003 
12773808.511 +9.9151051044E-001 -4.4067502022E-003  +1.7071660841E-004 +6.1666923575E-003  +1.5065621119E-004 +6.2417755835E-003  +9.8258644342E-001 -4.0320754051E-003 
12898953.692 +9.9283200502E-001 -4.2905583978E-003  +2.1603872301E-004 +6.2588858418E-003  +9.6173840575E-005 +6.3012372702E-003  +9.8204702139E-001 -3.9015263319E-003 
13024098.874 +9.9238115549E-001 -2.7419701219E-003  +1.6954861348E-004 +6.3078189269E-003  +1.5144367353E-004 +6.3559012488E-003  +9.8367089033E-001 -3.5902932286E-003 
13149244.055 +9.9276310205E-001 -2.6245526969E-003  +1.0121549712E-004 +6.3628205098E-003  +1.4144400484E-004 +6.3699106686E-003  +9.8372966051E-001 -3.0214022845E-003 
13274389.237 +9.9277865887E-001 -3.2328180969E-003  +1.7827052216E-004 +6.4103654586E-003  +1.7328438116E-004 +6.4738793299E-003  +9.8494392633E-001 -2.6471614838E-003 
13399534.418 +9.9336767197E-001 -3.9765685797E-003  +2.0603486337E-004 +6.5009314567E-003  +1.6434350982E-004 +6.4993281849E-003  +9.8403161764E-001 -2.0907893777E-003 
13524679.599 +9.9349272251E-001 -2.8336495161E-003  +2.0716362633E-004 +6.5417145379E-003  +1.7936929362E-004 +6.5516033210E-003  +9.8514086008E-001 -1.0147839785E-003 
13649824.781 +9.9410229921E-001 -3.6659687757E-003  +2.1059962455E-004 +6.6578239202E-003  +2.1316076163E-004 +6.6108275205E-003  +9.8642075062E-001 -2.0779669285E-003 
13774969.962 +9.9333959818E-001 -3.2331496477E-003  +1.8539617304E-004 +6.6768839024E-003  +2.0805327222E-004 +6.6657606512E-003  +9.8574376106E-001 -1.9370317459E-003 
13900115.144 +9.9335598946E-001 -2.1093487740E-003  +1.9523734227E-004 +6.7322305404E-003  +1.9439333118E-004 +6.7362310365E-003  +9.8484611511E-001 -6.7403912544E-004 
14025260.325 +9.9324488640E-001 -2.4269223213E-003  +2.2297282703E-004 +6.7179449834E-003  +2.3858365603E-004 +6.7948964424E-003  +9.8648488522E-001 -1.1646747589E-003 
14150405.507 +9.9360162020E-001 -6.1067938805E-004  +2.1393457428E-004 +6.8590003066E-003  +1.6515539028E-004 +6.8519804627E-003  +9.8614382744E-001 -4.4444203377E-004 
14275550.688 +9.9421632290E-001 -1.9365847111E-003  +2.1852599457E-004 +6.8927900866E-003  +2.1205539815E-004 +6.9005866535E-003  +9.8703658581E-001 -1.3378560543E-003 
14400695.870 +9.9308657646E-001 -2.4325251579E-003  +2.2540194914E-004 +6.9460337982E-003  +2.4079880677E-004 +6.9111324847E-003  +9.8659455776E-001 +5.2821636200E-004 
