!  2-Port S-parameters saved by WinCal
! VAR MeasName=S-Parameters (CALIBRATED_DATA) read from VNA (P5004A)
! VAR MeasDate=22/05/2024 19:49:38
! VAR NAME=Wafer2_r2_c1_reset4
! VAR FILENAME=Wafer2_r2_c1_reset4.S2P
! VAR DATE=22/05/2024 19:49:38
! VAR PHYS_PORTS=1,2
! VAR ObjTypeName=DATASET
! VAR IndexType=Frequency
!
# Hz S RI R 50
9000.000 +2.0557910204E-001 -5.8142423630E-001  +7.8223766759E-003 -2.0390087739E-003  -1.0762935271E-003 -4.7371949768E-004  +4.5646402985E-002 +1.1363386363E-001 
134145.181 +8.2669603825E-001 +2.8943717480E-003  -3.3262133598E-002 +5.4284758866E-002  -3.3777963370E-002 +6.5493509173E-003  +4.7512334585E-001 +4.0923583508E-001 
259290.363 +9.8668223619E-001 -1.1991977692E-001  +5.3212046623E-003 -6.5207574517E-004  -1.6265236773E-003 +1.0400081053E-002  +1.0397540331E+000 -3.5214871168E-002 
384435.544 +9.7135323286E-001 -2.6414009929E-001  +1.7109733308E-003 +1.5036950354E-003  +1.2782210251E-003 -2.1550193196E-004  +1.0332913399E+000 -7.0705398917E-002 
509580.726 +9.9123007059E-001 -1.3253283501E-001  +3.2418589108E-003 -4.4198034448E-004  -5.3937500343E-004 +1.7523576389E-004  +1.0324801207E+000 -2.6679866016E-002 
634725.907 +1.0983673334E+000 -1.7526113987E-001  -1.9299733685E-004 -6.2439014437E-004  +9.3943584943E-004 +6.7417183891E-004  +1.0889980793E+000 -4.2157322168E-002 
759871.089 +1.2596769333E+000 -9.7099423409E-002  -1.8500561418E-004 +2.1462514997E-003  +9.7010139143E-004 +1.5187565004E-003  +1.1473163366E+000 -7.5237289071E-002 
885016.270 +1.4136677980E-001 -1.0586090088E+000  -2.1491006017E-002 +1.2490886264E-002  -2.2364719771E-003 -5.7188086212E-003  +1.5591344833E+000 -3.5324031115E-001 
1010161.452 +9.9696350098E-001 +9.5063507557E-002  -4.0779123083E-004 -7.3789473390E-004  -4.3566216482E-004 -3.6946055479E-004  +7.3505294323E-001 +3.8252425194E-001 
1135306.633 +1.0236735344E+000 +2.6795470715E-001  -3.7550457637E-004 -2.9396135360E-003  +2.5842973264E-004 +1.6345863696E-003  +8.8357907534E-001 +3.4088981152E-001 
1260451.815 +1.3715966940E+000 +1.9720819592E-001  -7.2429981083E-004 +1.1633335089E-004  -2.1815965010E-004 -1.9452250854E-004  +9.4944083691E-001 +3.0314731598E-001 
1385596.996 +1.2654485703E+000 -3.1387388706E-002  +7.5577304233E-004 -3.5676127300E-004  +8.7079091463E-004 -1.0524602840E-003  +9.9093776941E-001 +1.6065505147E-001 
1510742.178 +1.3469681740E+000 -9.1147303581E-002  +2.4329972803E-004 +1.0769254732E-004  +1.3717139373E-003 +9.8966085352E-004  +8.9574265480E-001 +1.9780518115E-001 
1635887.359 +1.0055019855E+000 -1.9719162583E-001  -6.7095790291E-004 +2.5361496955E-004  +1.4568483457E-003 +4.2283337098E-004  +1.1188216209E+000 +1.5053892136E-001 
1761032.541 +1.0181696415E+000 -1.5140673518E-001  +2.5406514760E-004 +5.3453695728E-004  +4.2973869131E-004 -3.4097611206E-006  +1.0475964546E+000 +1.8947288394E-001 
1886177.722 +1.0121052265E+000 -7.9121768475E-002  +5.7185906917E-004 +5.1646580687E-004  -7.5476325583E-004 +4.4932129094E-004  +1.0563396215E+000 +1.4629018307E-001 
2011322.904 +1.0083745718E+000 -5.2824199200E-002  -3.6608602386E-004 +2.5738921249E-004  -6.5050902776E-004 -9.2784830485E-005  +1.0495412350E+000 +1.4416110516E-001 
2136468.085 +1.0103132725E+000 -3.6104083061E-002  -5.9281382710E-004 +7.9921365250E-004  +3.2381189521E-004 +3.9468577597E-005  +1.0360617638E+000 +1.3471701741E-001 
2261613.267 +1.0046995878E+000 -1.3867139816E-002  +2.7754186885E-004 +3.3128639916E-004  +7.8129596659E-005 +2.9914110200E-004  +1.0243353844E+000 +1.5389212966E-001 
2386758.448 +1.0076897144E+000 -8.3077549934E-003  +7.9709083366E-005 -2.2890577384E-005  -8.4215571405E-006 +2.7072834200E-004  +1.0298473835E+000 +1.6839420795E-001 
2511903.630 +1.0050017834E+000 +2.3311018944E-002  -1.1713239655E-004 -1.6394202248E-004  -9.6731331723E-005 -3.8072266761E-005  +1.0430343151E+000 +1.8391826749E-001 
2637048.811 +1.0065197945E+000 +2.9321789742E-002  +2.1692538576E-004 +6.1044283211E-004  -2.6728530065E-004 +9.4313884620E-004  +1.0376309156E+000 +1.9153204560E-001 
2762193.992 +1.0002521276E+000 +4.9259036779E-002  -2.3466263883E-005 +5.4682674818E-004  -5.9554964537E-004 +7.3760340456E-004  +1.0321837664E+000 +2.1174071729E-001 
2887339.174 +9.8918050528E-001 +7.3238968849E-002  -3.5767233931E-004 +5.6325440528E-004  -6.7257310729E-004 +1.0556021007E-003  +1.0341279507E+000 +2.5177007914E-001 
3012484.355 +1.0056036711E+000 +8.5742697120E-002  +4.2091414798E-006 +9.5428992063E-004  -4.2140751611E-004 +1.0347263888E-003  +1.0661816597E+000 +2.8534018993E-001 
3137629.537 +1.0162023306E+000 +1.0935112834E-001  -4.3940448086E-004 +9.0204365551E-004  +1.4588830527E-004 +9.7191019449E-004  +1.1039158106E+000 +3.0357137322E-001 
3262774.718 +1.0145596266E+000 +1.1585694551E-001  -2.3611876532E-004 +9.9718035199E-004  -1.3512169244E-004 +5.1325472305E-004  +1.1329432726E+000 +3.0425655842E-001 
3387919.900 +1.0202587843E+000 +1.4858096838E-001  -9.4343471574E-004 +1.1323053623E-003  -2.7229569969E-004 +1.0891560232E-003  +1.1625970602E+000 +3.1215223670E-001 
3513065.081 +1.0282195807E+000 +1.6200250387E-001  -5.9364188928E-004 +9.3620119151E-004  -9.5250434242E-004 +4.0552447899E-004  +1.1945010424E+000 +3.3381193876E-001 
3638210.263 +1.0435450077E+000 +1.9004319608E-001  -8.0928346142E-004 +4.7843839275E-004  -1.0227935854E-003 +1.2096513528E-003  +1.2240178585E+000 +3.3595395088E-001 
3763355.444 +1.0682874918E+000 +2.0015116036E-001  -9.3813135754E-004 +9.3643163564E-004  -1.0819439776E-003 +9.0231187642E-004  +1.2652491331E+000 +3.1975281239E-001 
3888500.626 +1.0939531326E+000 +2.0980574191E-001  -3.3246562816E-004 +1.3237848179E-003  -1.0743559105E-003 +1.3844344066E-003  +1.2962114811E+000 +3.2948493958E-001 
4013645.807 +1.0597559214E+000 +1.1009422690E-001  -4.8963405425E-004 +1.4886597637E-003  -9.5035665436E-004 +1.8417972606E-003  +1.2847963572E+000 +1.4744229615E-001 
4138790.989 +9.9805998802E-001 +4.5518726110E-003  -2.3852245067E-004 +1.8005258171E-003  -9.8314939532E-004 +2.0617153496E-003  +1.1849279404E+000 +1.9988156855E-003 
4263936.170 +9.8574912548E-001 +1.7470121384E-002  -5.5148120737E-004 +1.6500846250E-003  +1.4653748076E-004 +2.6065539569E-003  +1.1712841988E+000 -1.7754539847E-002 
4389081.352 +1.0027074814E+000 +1.0278144851E-002  -6.2520348001E-004 +2.1359766833E-003  -1.2739123486E-004 +1.9262806745E-003  +1.1633973122E+000 -4.1485793889E-002 
4514226.533 +1.0093549490E+000 +1.5660848469E-002  +2.2941261705E-005 +1.8677234184E-003  -2.0153596415E-004 +2.5721555576E-003  +1.1568843126E+000 -5.5027492344E-002 
4639371.715 +1.0253579617E+000 +5.1787011325E-003  -3.7971712300E-004 +2.0423817914E-003  -1.9665234140E-004 +1.9367388450E-003  +1.1519418955E+000 -5.6666705757E-002 
4764516.896 +1.0105078220E+000 -9.8299235106E-005  -2.8781726724E-004 +2.6676338166E-003  -5.7358731283E-004 +2.1002495196E-003  +1.1397467852E+000 -8.0141641200E-002 
4889662.078 +1.0185199976E+000 +1.9467324018E-003  -5.4978812113E-004 +2.0439384971E-003  -7.4185669655E-004 +2.6923415717E-003  +1.1373574734E+000 -9.0668208897E-002 
5014807.259 +1.0109716654E+000 -4.1924193501E-003  -1.4364891103E-004 +2.7039661072E-003  +1.2999415048E-004 +2.0134483930E-003  +1.1161223650E+000 -8.3352945745E-002 
5139952.441 +1.0205971003E+000 -8.8692680001E-003  -5.3047272377E-004 +2.5692589115E-003  -1.7423089594E-004 +2.2718112450E-003  +1.1069774628E+000 -9.9963262677E-002 
5265097.622 +1.0204553604E+000 -1.3433597982E-002  +1.6718002735E-004 +2.4164950009E-003  -3.5964639392E-004 +2.6835903991E-003  +1.0931502581E+000 -9.5743022859E-002 
5390242.804 +1.0223047733E+000 -1.0480225086E-002  -5.0948630087E-004 +2.8251248877E-003  -5.0809461391E-004 +2.4644811638E-003  +1.0795370340E+000 -1.0072759539E-001 
5515387.985 +1.0278722048E+000 -1.0228745639E-002  -2.5280358386E-005 +2.4483436719E-003  -1.7555459635E-004 +2.5812296662E-003  +1.0745079517E+000 -1.1228751391E-001 
5640533.166 +1.0260803699E+000 -1.7576470971E-002  -1.3674289221E-004 +2.3337630555E-003  -3.9841770194E-004 +2.9884800315E-003  +1.0650906563E+000 -1.1040609330E-001 
5765678.348 +1.0169849396E+000 -2.1619103849E-002  -1.6391463578E-004 +2.6162080467E-003  -3.3795076888E-006 +2.6737658773E-003  +1.0597275496E+000 -1.0503010452E-001 
5890823.529 +1.0154680014E+000 -2.5471709669E-002  +4.3008330977E-005 +2.9050123412E-003  -3.7138303742E-004 +2.6833782904E-003  +1.0456657410E+000 -1.0743536055E-001 
6015968.711 +1.0100839138E+000 -2.5527656078E-002  -2.8618393117E-004 +2.9183698352E-003  -4.5218618470E-004 +2.7907975018E-003  +1.0474511385E+000 -1.0137627274E-001 
6141113.892 +1.0112895966E+000 -3.1149059534E-002  +6.5680942498E-006 +2.9407534748E-003  +7.5169780757E-005 +3.0052638613E-003  +1.0313133001E+000 -1.0147152841E-001 
6266259.074 +1.0133712292E+000 -3.6926224828E-002  +1.7147860490E-005 +3.0041602440E-003  -1.2093117402E-004 +2.9916954227E-003  +1.0249159336E+000 -9.7211219370E-002 
6391404.255 +1.0041488409E+000 -4.3966032565E-002  -3.9510213537E-004 +2.6869559661E-003  -1.8027087208E-004 +3.1577532645E-003  +1.0193006992E+000 -1.0299780220E-001 
6516549.437 +1.0002208948E+000 -3.6594532430E-002  +1.2537490693E-004 +3.0712084845E-003  +8.5214705905E-005 +3.2122649718E-003  +1.0140361786E+000 -9.7234249115E-002 
6641694.618 +1.0120654106E+000 -2.8581574559E-002  -8.8869797764E-005 +3.5019535571E-003  -1.9849510863E-005 +3.0468984041E-003  +1.0126167536E+000 -8.8897824287E-002 
6766839.800 +1.0139788389E+000 -3.3505082130E-002  -7.7168253483E-005 +3.2346618827E-003  +4.1252636584E-004 +3.3380680252E-003  +1.0110894442E+000 -9.0674266219E-002 
6891984.981 +1.0050728321E+000 -3.6079332232E-002  +2.1824403666E-004 +3.3046244644E-003  -6.0753547587E-005 +3.3848988824E-003  +9.9468946457E-001 -9.1797873378E-002 
7017130.163 +1.0043514967E+000 -3.4830719233E-002  +1.2747093569E-004 +3.3901515417E-003  -8.9402135927E-005 +3.7268381566E-003  +9.9716341496E-001 -8.3138227463E-002 
7142275.344 +1.0003454685E+000 -2.5843769312E-002  +1.4441966778E-004 +3.4699973185E-003  -1.9795162370E-004 +3.5387333483E-003  +9.9714064598E-001 -7.8200012445E-002 
7267420.526 +9.9612712860E-001 -2.5695964694E-002  -6.7128508817E-005 +3.8578351960E-003  -4.9330119509E-005 +3.7501526531E-003  +9.9263870716E-001 -7.8798815608E-002 
7392565.707 +1.0053993464E+000 -2.1714657545E-002  +1.4612684026E-005 +3.6225314252E-003  -2.6380876079E-005 +3.6940844730E-003  +9.9090939760E-001 -8.0748900771E-002 
7517710.889 +1.0041829348E+000 -2.2880554199E-002  +1.5475740656E-004 +3.2434258610E-003  +5.8852543589E-005 +3.3944221213E-003  +9.8651307821E-001 -7.3117703199E-002 
7642856.070 +9.9778491259E-001 -2.0231768489E-002  -3.6317971535E-005 +3.5598233808E-003  -6.9814384915E-005 +3.7501333281E-003  +9.8130565882E-001 -7.1300238371E-002 
7768001.252 +9.9993455410E-001 -1.9653707743E-002  +1.6436749138E-004 +3.6265985109E-003  -2.2438296583E-004 +3.8228305057E-003  +9.7376632690E-001 -7.3267474771E-002 
7893146.433 +9.9987643957E-001 -2.0161569118E-002  -5.6393619161E-005 +3.7715565413E-003  -7.4951560237E-005 +3.7400443107E-003  +9.7647637129E-001 -6.5780848265E-002 
8018291.615 +9.9560129642E-001 -2.0580321550E-002  +1.4469743473E-004 +3.5970855970E-003  +8.1480422523E-005 +3.7891087122E-003  +9.7390776873E-001 -6.2082648277E-002 
8143436.796 +9.9258738756E-001 -2.5950431824E-002  +2.5048409589E-004 +4.0522948839E-003  +4.4498941861E-005 +4.0348009206E-003  +9.7054004669E-001 -5.9828177094E-002 
8268581.977 +9.9121302366E-001 -2.1858930588E-002  +1.2633856386E-005 +3.8086255081E-003  -2.4417531677E-005 +3.6993781105E-003  +9.7034305334E-001 -5.2640974522E-002 
8393727.159 +9.9179148674E-001 -2.3593276739E-002  +1.0521279182E-004 +4.1924808174E-003  +4.3135485612E-005 +3.9504272863E-003  +9.7327244282E-001 -4.7950685024E-002 
8518872.340 +9.9189776182E-001 -2.4732768536E-002  -1.3401731849E-006 +4.0801982395E-003  +1.8485903274E-004 +4.1347471997E-003  +9.7373855114E-001 -4.4837713242E-002 
8644017.522 +9.9063652754E-001 -1.8428653479E-002  +1.1531263590E-004 +4.1450373828E-003  -1.5060638543E-004 +4.1552912444E-003  +9.7475105524E-001 -4.1895240545E-002 
8769162.703 +9.9342018366E-001 -2.4913996458E-002  -1.3834214769E-005 +4.2309700511E-003  +9.5111900009E-005 +4.0846564807E-003  +9.7520703077E-001 -4.4976383448E-002 
8894307.885 +9.8836141825E-001 -2.3941725492E-002  -8.5615320131E-006 +4.1012829170E-003  +9.8204123788E-005 +4.2272843421E-003  +9.6876108646E-001 -4.9149394035E-002 
9019453.066 +9.9085187912E-001 -2.1939575672E-002  +6.7154294811E-005 +4.1978596710E-003  -4.1259452701E-005 +4.2867278680E-003  +9.6956038475E-001 -4.3815553188E-002 
9144598.248 +9.9172425270E-001 -2.3319453001E-002  +1.7944141291E-005 +4.2880512774E-003  +2.0157895051E-005 +4.4220406562E-003  +9.7018873692E-001 -4.0024548769E-002 
9269743.429 +9.9077141285E-001 -1.7298072577E-002  -7.1172136813E-005 +4.4505940750E-003  +1.9908417016E-005 +4.4935937040E-003  +9.7056996822E-001 -3.8793414831E-002 
9394888.611 +9.8999899626E-001 -1.3500303030E-002  -3.1343312003E-005 +4.5656906441E-003  -3.5408069380E-005 +4.4757365249E-003  +9.6805304289E-001 -3.8864850998E-002 
9520033.792 +9.8960715532E-001 -1.8944680691E-002  -1.9198167138E-005 +4.5867231674E-003  +1.7452985048E-004 +4.6283793636E-003  +9.6765565872E-001 -3.4403234720E-002 
9645178.974 +9.8990410566E-001 -1.6574412584E-002  +2.9286486097E-005 +4.6435119584E-003  +9.6826232038E-005 +4.5500895940E-003  +9.6931046247E-001 -3.2720744610E-002 
9770324.155 +9.8918938637E-001 -1.4788389206E-002  +4.4777523726E-005 +4.6871779487E-003  +6.1946921051E-005 +4.7328625806E-003  +9.6656638384E-001 -2.8061836958E-002 
9895469.337 +9.8896932602E-001 -1.4563888311E-002  +2.0913314074E-005 +4.6887169592E-003  +1.1718366295E-005 +4.7598965466E-003  +9.6852898598E-001 -2.6165962219E-002 
10020614.518 +9.8829722404E-001 -1.0688513517E-002  +6.0073798522E-005 +4.8926975578E-003  -1.3798475266E-005 +4.8025087453E-003  +9.7162127495E-001 -2.4505853653E-002 
10145759.700 +9.9023044109E-001 -1.3277262449E-002  +6.1728525907E-005 +4.8741693608E-003  +4.6946108341E-005 +4.9853888340E-003  +9.7147667408E-001 -2.3470789194E-002 
10270904.881 +9.8957657814E-001 -1.3196498156E-002  +1.5759980306E-004 +4.9663940445E-003  -1.4647142962E-005 +5.0358502194E-003  +9.7263813019E-001 -2.3661702871E-002 
10396050.063 +9.8997855186E-001 -1.2805193663E-002  +9.9494587630E-005 +5.0184177235E-003  +7.9153571278E-005 +4.9200151116E-003  +9.7166347504E-001 -2.1026909351E-002 
10521195.244 +9.8946380615E-001 -1.0877758265E-002  +8.1129139289E-005 +4.9688834697E-003  -1.0412652045E-005 +5.0981789827E-003  +9.7330123186E-001 -1.9648432732E-002 
10646340.426 +9.8913776875E-001 -1.0591477156E-002  +5.0447881222E-005 +5.1047559828E-003  -1.1745141819E-005 +5.0414018333E-003  +9.7369480133E-001 -1.5824824572E-002 
10771485.607 +9.8915487528E-001 -1.1293351650E-002  +7.5810123235E-005 +5.1373150200E-003  +1.9147759303E-005 +5.1725180820E-003  +9.7431755066E-001 -1.5293806791E-002 
10896630.788 +9.8832345009E-001 -9.9849700928E-003  +1.1758576147E-004 +5.1916139200E-003  +3.8270605728E-005 +5.2256770432E-003  +9.7495013475E-001 -1.4140665531E-002 
11021775.970 +9.8831117153E-001 -8.7172389030E-003  +1.9664969295E-004 +5.2821147256E-003  +6.1168568209E-005 +5.2549061365E-003  +9.7614425421E-001 -1.3008207083E-002 
11146921.151 +9.8989146948E-001 -9.9790692329E-003  +7.5407093391E-005 +5.3584743291E-003  +8.3571532741E-005 +5.4160263389E-003  +9.7631883621E-001 -1.2325555086E-002 
11272066.333 +9.8834586143E-001 -8.1729888916E-003  +1.5737931244E-004 +5.3252107464E-003  +1.5025003813E-004 +5.4101995192E-003  +9.7435998917E-001 -1.1886060238E-002 
11397211.514 +9.9069631100E-001 -8.2806348801E-003  +5.8432575315E-005 +5.5293184705E-003  +1.6887043603E-004 +5.4759974591E-003  +9.7630405426E-001 -1.0725796223E-002 
11522356.696 +9.9056684971E-001 -6.4907073975E-003  +1.1432822794E-004 +5.4610259831E-003  +1.4477013610E-004 +5.5707306601E-003  +9.7781682014E-001 -1.0165512562E-002 
11647501.877 +9.8878735304E-001 -7.3984861374E-003  +1.4578062110E-004 +5.5856686085E-003  +1.6688229516E-004 +5.5176140741E-003  +9.7722637653E-001 -8.2882344723E-003 
11772647.059 +9.9056649208E-001 -7.5997412205E-003  +1.7509120516E-004 +5.6047048420E-003  +1.7479993403E-004 +5.6937611662E-003  +9.7775685787E-001 -1.0464221239E-002 
11897792.240 +9.9090588093E-001 -6.1504840851E-003  +2.1269847639E-004 +5.6743305176E-003  +1.3074022718E-004 +5.6976866908E-003  +9.7800070047E-001 -9.7402036190E-003 
12022937.422 +9.9221932888E-001 -5.1709413528E-003  +9.7103416920E-005 +5.7459580712E-003  +1.0542827658E-004 +5.7667023502E-003  +9.7937309742E-001 -9.0625286102E-003 
12148082.603 +9.9164897203E-001 -6.2988400459E-003  +1.7661624588E-004 +5.8580185287E-003  +1.8160603940E-004 +5.7834368199E-003  +9.8029047251E-001 -6.8562626839E-003 
12273227.785 +9.9201023579E-001 -4.9823522568E-003  +9.2974514700E-005 +5.9057036415E-003  +1.4272355475E-004 +5.9164743870E-003  +9.8045492172E-001 -7.2327256203E-003 
12398372.966 +9.9183320999E-001 -4.4327080250E-003  +1.8853938673E-004 +5.9487312101E-003  +1.0169274174E-004 +5.9030004777E-003  +9.8215210438E-001 -6.5911114216E-003 
12523518.148 +9.9190831184E-001 -3.3786594868E-003  +1.5774602070E-004 +5.9687290341E-003  +1.7537467647E-004 +5.9426473454E-003  +9.8146516085E-001 -6.7089498043E-003 
12648663.329 +9.9227255583E-001 -3.8152635098E-003  +2.1001545247E-004 +6.0448339209E-003  +1.2871180661E-004 +6.0289744288E-003  +9.8185634613E-001 -6.5104961395E-003 
12773808.511 +9.9303346872E-001 -5.5013597012E-003  +1.2299406808E-004 +6.0781976208E-003  +1.4492264017E-004 +6.0569294728E-003  +9.8319786787E-001 -5.7971775532E-003 
12898953.692 +9.9336677790E-001 -4.8426017165E-003  +1.6539264470E-004 +6.1413864605E-003  +1.6616913490E-004 +6.1426246539E-003  +9.8265016079E-001 -6.5615251660E-003 
13024098.874 +9.9369126558E-001 -3.1665489078E-003  +1.7567240866E-004 +6.1872447841E-003  +1.2239214266E-004 +6.1993086711E-003  +9.8352181911E-001 -4.1589066386E-003 
13149244.055 +9.9419879913E-001 -2.7468949556E-003  +1.6531006258E-004 +6.2428750098E-003  +1.4395431208E-004 +6.3006342389E-003  +9.8448359966E-001 -4.2378082871E-003 
13274389.237 +9.9361467361E-001 -3.7280935794E-003  +1.4820878278E-004 +6.3222609460E-003  +1.4293342247E-004 +6.2735234387E-003  +9.8578500748E-001 -5.0527658314E-003 
13399534.418 +9.9304878712E-001 -2.8339996934E-003  +1.7245160416E-004 +6.3539864495E-003  +2.2054300644E-004 +6.3653052785E-003  +9.8481476307E-001 -4.2046532035E-003 
13524679.599 +9.9387693405E-001 -3.0085593462E-003  +1.9061268540E-004 +6.4044212922E-003  +1.4948844910E-004 +6.4566321671E-003  +9.8586821556E-001 -3.5832673311E-003 
13649824.781 +9.9415308237E-001 -3.6561638117E-003  +1.9210320897E-004 +6.4830812626E-003  +2.1374179050E-004 +6.4752916805E-003  +9.8676192760E-001 -2.8667598963E-003 
13774969.962 +9.9413025379E-001 -3.4700334072E-003  +2.3137277458E-004 +6.5411860123E-003  +2.0853255410E-004 +6.4963316545E-003  +9.8595768213E-001 -3.2950639725E-003 
13900115.144 +9.9486160278E-001 -3.3223330975E-003  +2.2482837085E-004 +6.6106868908E-003  +1.9264291041E-004 +6.6113504581E-003  +9.8608326912E-001 -2.7793943882E-003 
14025260.325 +9.9387991428E-001 -3.7070214748E-003  +2.5159236975E-004 +6.6602826118E-003  +1.8129497766E-004 +6.6559854895E-003  +9.8661744595E-001 -3.3117830753E-003 
14150405.507 +9.9460601807E-001 -2.5976896286E-003  +2.3079547100E-004 +6.7659262568E-003  +2.0299549215E-004 +6.7004496232E-003  +9.8725140095E-001 -3.1934380531E-003 
14275550.688 +9.9388277531E-001 -3.9970278740E-003  +2.4061533622E-004 +6.7513911054E-003  +1.9326247275E-004 +6.7654922605E-003  +9.8746961355E-001 -3.5828053951E-003 
14400695.870 +9.9396681786E-001 -3.6667585373E-003  +2.0119547844E-004 +6.8264612928E-003  +2.2596330382E-004 +6.8373377435E-003  +9.8752176762E-001 -3.3290982246E-003 
