!  2-Port S-parameters saved by WinCal
! VAR MeasName=S-Parameters (CALIBRATED_DATA) read from VNA (P5004A)
! VAR MeasDate=22/05/2024 16:32:14
! VAR NAME=Wafer2_r10_c1_thru
! VAR FILENAME=Wafer2_r10_c1_thru.S2P
! VAR DATE=22/05/2024 16:32:14
! VAR PHYS_PORTS=1,2
! VAR ObjTypeName=DATASET
! VAR IndexType=Frequency
!
# Hz S RI R 50
9000.000 +2.9703664780E-001 -5.6667184830E-001  -3.9751902223E-002 -5.2274320275E-002  -2.1183386445E-002 +8.9720543474E-003  +1.4169703424E-001 +8.7680652738E-002 
134145.181 +4.4546663761E-001 -2.9498286545E-002  +1.7990483344E-001 -2.3288552463E-001  +1.2420936674E-001 -1.6982756555E-001  +1.6234904528E+000 +8.7800532579E-002 
259290.363 +6.6736352444E-001 +1.6983252764E-001  +9.3179658055E-002 -3.4459972382E-001  +5.2989080548E-002 -3.9427739382E-001  +1.2672805786E+000 +4.7047096491E-001 
384435.544 +6.3567090034E-001 +4.1521191597E-002  +3.1528052688E-001 -3.3931797743E-001  +3.1752488017E-001 -3.1504422426E-001  +7.9822725058E-001 +4.9684903026E-001 
509580.726 +6.7309242487E-001 +8.8478624821E-002  +3.5918006301E-001 -2.5637492537E-001  +3.6869135499E-001 -2.4761211872E-001  +5.5600482225E-001 +3.5686919093E-001 
634725.907 +7.9571586847E-001 -8.2307130098E-002  +2.7955272794E-001 -8.1458374858E-002  +2.8225365281E-001 -9.3273565173E-002  +6.9464403391E-001 +1.6443121433E-001 
759871.089 +1.2158014774E+000 -7.2382318974E-001  +4.1631191969E-002 +8.1260406971E-001  +3.4307360649E-002 +8.3547067642E-001  +7.4937844276E-001 -1.0653246641E+000 
885016.270 -1.8627889156E+000 -6.8320609629E-002  +3.0710113049E+000 -1.6783262789E-001  +3.0392310619E+000 -1.4889463782E-001  -2.2561862469E+000 +2.2132375836E-001 
1010161.452 +4.1125825047E-001 -9.9377833307E-002  +7.5638073683E-001 -1.9447489083E-001  +7.5957757235E-001 -1.9629406929E-001  +9.5044270158E-002 +4.5718872547E-001 
1135306.633 +2.5831231475E-001 -1.1636991799E-001  +7.8038293123E-001 -1.4039528370E-001  +7.8020006418E-001 -1.4705304801E-001  +1.8257015944E-001 +3.6022239923E-001 
1260451.815 +4.6456789970E-001 -2.8654485941E-001  +6.8814957142E-001 +8.1432029605E-002  +6.8717968464E-001 +7.9936265945E-002  +2.9099214077E-001 +6.6260032356E-002 
1385596.996 +6.8051826954E-001 -4.8999375105E-001  +5.6034451723E-001 +3.3602318168E-001  +5.7795745134E-001 +3.3195057511E-001  +3.1574335694E-001 -2.8709629178E-001 
1510742.178 +5.1828747988E-001 -7.1840941906E-001  +8.3315944672E-001 +3.7336853147E-001  +8.3608329296E-001 +3.8408929110E-001  -1.7316576093E-002 -2.3797759414E-001 
1635887.359 +5.1175838709E-001 -9.3686276674E-001  +4.8158013821E-001 +5.8278560638E-001  +4.8895069957E-001 +5.7537037134E-001  +4.5107832551E-001 -3.8152247667E-001 
1761032.541 -1.8310916424E-001 -1.8412313461E+000  +1.1801915169E+000 +1.2509502172E+000  +1.1732723713E+000 +1.2667601109E+000  -2.0414817333E-001 -9.0184068680E-001 
1886177.722 -1.7393313646E+000 -9.5126175880E-001  +2.4014682770E+000 +6.7350387573E-001  +2.3778645992E+000 +6.5092742443E-001  -1.1109567881E+000 -4.9921751022E-001 
2011322.904 -1.0087125301E+000 +2.5233834982E-002  +1.7472963333E+000 -1.2446334958E-001  +1.7477600574E+000 -1.2765365839E-001  -5.4194408655E-001 +1.5347439051E-001 
2136468.085 -8.6664223671E-001 +4.8832577467E-001  +1.6064593792E+000 -5.5952870846E-001  +1.5998126268E+000 -5.5130153894E-001  -3.9727506042E-001 +5.2555286884E-001 
2261613.267 -4.1829508543E-001 +3.5980308056E-001  +1.2154926062E+000 -4.0300726891E-001  +1.2123329639E+000 -4.0351298451E-001  -7.0727631450E-002 +3.6645859480E-001 
2386758.448 -3.0644378066E-001 +2.7538841963E-001  +1.1608535051E+000 -3.1122767925E-001  +1.1646244526E+000 -3.0834689736E-001  -6.2041185796E-002 +2.6449787617E-001 
2511903.630 -2.4747198820E-001 +1.9078472257E-001  +1.1082001925E+000 -2.0874720812E-001  +1.1093930006E+000 -2.0707729459E-001  -1.8532276154E-003 +1.6486237943E-001 
2637048.811 -1.7954669893E-001 +1.6643811762E-001  +1.0752817392E+000 -2.0139944553E-001  +1.0735955238E+000 -2.0105195045E-001  +7.9197250307E-003 +1.6044247150E-001 
2762193.992 -1.1791025847E-001 +1.2076276541E-001  +1.0101617575E+000 -1.4658960700E-001  +1.0099252462E+000 -1.4494013786E-001  +6.6244572401E-002 +1.0011595488E-001 
2887339.174 -9.9602490664E-002 +9.2447765172E-002  +9.7684144974E-001 -1.1532989144E-001  +9.7947764397E-001 -1.1671429873E-001  +8.0014832318E-002 +7.2167776525E-002 
3012484.355 -1.2879072130E-001 +8.6834117770E-002  +9.9107301235E-001 -9.8153024912E-002  +9.8858326674E-001 -9.8390519619E-002  +8.2798294723E-002 +6.3516430557E-002 
3137629.537 -7.9716302454E-002 +9.0958647430E-002  +9.7661733627E-001 -8.6764097214E-002  +9.7562307119E-001 -8.5604429245E-002  +6.7432507873E-002 +3.9746865630E-002 
3262774.718 -7.7450335026E-002 +8.8596314192E-002  +9.6832007170E-001 -7.8533440828E-002  +9.6791124344E-001 -7.6209247112E-002  +7.1466565132E-002 +3.5880867392E-002 
3387919.900 -6.1047952622E-002 +7.8214406967E-002  +9.5195364952E-001 -5.9546530247E-002  +9.5313394070E-001 -5.9300452471E-002  +7.4047714472E-002 +3.1937025487E-002 
3513065.081 -5.9234432876E-002 +8.9284308255E-002  +9.5119237900E-001 -6.3972294331E-002  +9.5064532757E-001 -6.3607007265E-002  +6.5885059536E-002 +2.1060781553E-002 
3638210.263 -5.8657735586E-002 +5.9672094882E-002  +9.6219027042E-001 -3.8335472345E-002  +9.6196728945E-001 -3.8779169321E-002  +6.8156808615E-002 +1.6643095762E-002 
3763355.444 -4.6489547938E-002 +7.6053462923E-002  +9.5916855335E-001 -4.3941497803E-002  +9.5945000648E-001 -4.3144971132E-002  +5.7306606323E-002 +2.4274457246E-003 
3888500.626 -3.2050549984E-002 +6.1937663704E-002  +9.7230064869E-001 -2.5869697332E-002  +9.6948844194E-001 -2.1775245667E-002  +5.0877735019E-002 -1.3581274077E-002 
4013645.807 -3.2506216317E-002 +4.9670580775E-002  +9.7675764561E-001 -1.2661635876E-002  +9.6762073040E-001 -1.5319526196E-002  +4.1896030307E-002 -3.3582057804E-003 
4138790.989 -2.5896854699E-002 +4.8717409372E-002  +9.7468411922E-001 -1.4958232641E-002  +9.7252464294E-001 -1.6989171505E-002  +2.5423884392E-002 +5.5418629199E-004 
4263936.170 -1.7564985901E-002 +4.4376980513E-002  +9.7047334909E-001 -1.4202237129E-002  +9.6839833260E-001 -1.3420313597E-002  +2.7090804651E-002 +3.3674733713E-003 
4389081.352 -3.1343232840E-003 +4.4780641794E-002  +9.7163212299E-001 -7.5325965881E-003  +9.7143548727E-001 -8.8371336460E-003  +2.8422182426E-002 -5.6621208787E-003 
4514226.533 -1.6570243984E-002 +3.8193009794E-002  +9.8466241360E-001 -1.5086561441E-002  +9.8396682739E-001 -1.0962486267E-002  +1.4896082692E-002 -9.2328852043E-003 
4639371.715 -1.1182787828E-002 +3.4308809787E-002  +9.8241055012E-001 -9.8980069160E-003  +9.8623108864E-001 -7.9879164696E-003  +2.1802883595E-002 -1.2503651902E-002 
4764516.896 -4.5832768083E-003 +3.7902064621E-002  +9.8404633999E-001 -8.8190436363E-003  +9.8701047897E-001 -3.4270882607E-003  +1.0080750100E-002 -1.8246684223E-002 
4889662.078 +4.5039085671E-003 +3.7892207503E-002  +9.8479199409E-001 -5.4602026939E-003  +9.7949039936E-001 -5.7071745396E-003  +8.4604397416E-003 -1.2888943776E-002 
5014807.259 -2.8926357627E-003 +3.4481838346E-002  +9.8213362694E-001 -7.8946650028E-003  +9.8417729139E-001 -3.6075413227E-003  +8.4551256150E-003 -7.4686775915E-003 
5139952.441 +1.8896982074E-003 +2.4298483506E-002  +9.8603045940E-001 -2.3477375507E-003  +9.8574876785E-001 -1.6407668591E-003  +5.1821009256E-003 -7.2646411136E-003 
5265097.622 +2.9441369697E-003 +2.4482551962E-002  +9.8532944918E-001 -2.0836293697E-003  +9.8473423719E-001 -5.6159496307E-004  +9.2506855726E-003 -1.3409502804E-002 
5390242.804 +1.7826147377E-003 +2.7365336195E-002  +9.8804330826E-001 -1.8678605556E-003  +9.8575538397E-001 +4.4197738171E-003  +2.2914288566E-003 -1.1359684169E-002 
5515387.985 +8.0792279914E-003 +2.5559592992E-002  +9.8604661226E-001 -6.8047642708E-004  +9.8718416691E-001 +2.4123191833E-003  +7.9217907041E-003 -1.0662375018E-002 
5640533.166 +1.0570242070E-002 +2.6943353936E-002  +9.8632836342E-001 -2.8300583363E-003  +9.8278307915E-001 +4.0848851204E-003  +8.3491709083E-003 -1.1841992848E-002 
5765678.348 +3.0567776412E-004 +2.3493185639E-002  +9.8911362886E-001 -4.4316053391E-005  +9.9135363102E-001 -9.0509653091E-005  +4.9387346953E-003 -7.0316344500E-003 
5890823.529 +1.1692292057E-002 +1.6879957169E-002  +9.8980069160E-001 +2.2163689137E-003  +9.8787146807E-001 -8.8375806808E-004  +8.5172979161E-003 -6.6201519221E-003 
6015968.711 +1.3296240009E-002 +2.2663686424E-002  +9.8864477873E-001 +1.6422569752E-003  +9.8739635944E-001 +8.7437033653E-004  +9.8972069100E-003 -8.1091243774E-003 
6141113.892 +7.1945469826E-003 +2.2643672302E-002  +9.8838496208E-001 +3.3152103424E-003  +9.8649644852E-001 +3.9674639702E-003  +2.8799527790E-003 -7.5882677920E-003 
6266259.074 +1.1480223387E-002 +1.4561017975E-002  +9.9061989784E-001 +2.9280185699E-003  +9.8856472969E-001 -3.2931566238E-005  +3.9760977961E-003 -2.4317610078E-003 
6391404.255 +9.2766573653E-003 +7.5921360403E-003  +9.8990267515E-001 -1.5563666821E-003  +9.9260807037E-001 +9.1555714607E-004  +7.1794530377E-003 -8.8989390060E-003 
6516549.437 +8.4859710187E-003 +1.2016052380E-002  +9.9023520947E-001 -1.0028481483E-003  +9.8996567726E-001 -2.4838745594E-003  +4.9190828577E-003 -6.7840488628E-003 
6641694.618 +9.7204912454E-003 +1.6608759761E-002  +9.8930794001E-001 +4.4587254524E-004  +9.9197894335E-001 +1.9587129354E-003  +4.7510019504E-003 -3.3737388439E-003 
6766839.800 +1.1234380305E-002 +1.5526650473E-002  +9.9296903610E-001 +2.5919526815E-003  +9.9005621672E-001 -1.8519163132E-004  +8.8554294780E-003 -1.0748286732E-002 
6891984.981 +1.3237346895E-002 +1.0842357762E-002  +9.8997163773E-001 -6.5232813358E-004  +9.9258929491E-001 +6.1541795731E-005  +3.2727725338E-003 -5.2226949483E-003 
7017130.163 +1.5178742819E-002 +8.5808420554E-003  +9.8972052336E-001 -4.6080350876E-004  +9.9254757166E-001 +1.9147247076E-003  +6.4275381155E-003 -4.7085834667E-003 
7142275.344 +1.3815546408E-002 +1.4669959433E-002  +9.9019938707E-001 -6.1690807343E-006  +9.9216103554E-001 +2.2598057985E-003  +1.1371577857E-003 -5.8719511144E-003 
7267420.526 +1.0656790808E-002 +8.3337156102E-003  +9.9268996716E-001 +1.0438710451E-003  +9.9235039949E-001 +1.2964010239E-004  +4.8275566660E-003 -2.0930415485E-003 
7392565.707 +1.6835257411E-002 +1.1508526281E-002  +9.9097532034E-001 +1.2282729149E-003  +9.9165552855E-001 +1.1694878340E-003  +5.2641057409E-003 -2.5260988623E-003 
7517710.889 +1.4628182165E-002 +9.5222340897E-003  +9.9126291275E-001 +2.3754239082E-003  +9.9254661798E-001 +2.4140402675E-003  +6.9535956718E-003 +1.3375305571E-003 
7642856.070 +1.0314793326E-002 +7.5663793832E-003  +9.9146646261E-001 +4.9772858620E-004  +9.9204796553E-001 +8.8412314653E-004  +7.5549897738E-003 -1.1154480744E-003 
7768001.252 +1.6205966473E-002 +9.3586593866E-003  +9.9085086584E-001 -1.5181675553E-004  +9.9217605591E-001 +4.1179880500E-003  +7.7097704634E-003 +6.1923085013E-005 
7893146.433 +1.8519220874E-002 +9.6649676561E-003  +9.9240529537E-001 +7.3846243322E-004  +9.9308949709E-001 +2.9706712812E-003  +5.1941471174E-003 -1.2847530888E-004 
8018291.615 +9.3243401498E-003 +5.1241088659E-003  +9.9200004339E-001 +6.6574476659E-004  +9.9238932133E-001 -2.2186562419E-003  +6.0261324979E-003 -3.2445732504E-003 
8143436.796 +1.1861979961E-002 +4.6209637076E-003  +9.9357807636E-001 -3.2340828329E-004  +9.9151629210E-001 +2.8620194644E-004  +7.9981153831E-003 -4.9104995560E-004 
8268581.977 +1.4604749158E-002 +5.3264661692E-003  +9.9276876450E-001 -2.0368397236E-004  +9.9344021082E-001 +2.7781799436E-003  +5.3181331605E-003 -6.9050944876E-004 
8393727.159 +1.3715431094E-002 +2.5251389015E-003  +9.9509030581E-001 -1.1368840933E-004  +9.9326616526E-001 -3.9174407721E-004  +5.4942769930E-003 -1.6366037307E-003 
8518872.340 +1.1133664288E-002 +3.3078645356E-003  +9.9394088984E-001 +6.7368149757E-004  +9.9246871471E-001 +1.1154785752E-003  +7.0275301114E-003 -2.2576146293E-003 
8644017.522 +1.0343801230E-002 +4.8111137003E-003  +9.9261897802E-001 +1.9323006272E-003  +9.9251210690E-001 +1.5348866582E-003  +6.1629293486E-003 -1.8823524006E-003 
8769162.703 +7.7525940724E-003 +3.8030268624E-003  +9.9251681566E-001 +1.0459125042E-003  +9.9160087109E-001 -8.1129372120E-004  +6.7448550835E-003 -7.2831945727E-004 
8894307.885 +9.5433937386E-003 +3.7482720800E-003  +9.9300670624E-001 -6.9290399551E-005  +9.9328809977E-001 -4.9890577793E-004  +3.7678235676E-003 -3.4111719579E-003 
9019453.066 +1.0912634432E-002 +9.3798607122E-004  +9.9256271124E-001 -2.3790597916E-003  +9.9290925264E-001 +5.2711367607E-004  +5.0240205601E-003 -1.3753495878E-003 
9144598.248 +1.1901556514E-002 +3.9046863094E-004  +9.9295288324E-001 +1.6918778419E-004  +9.9362057447E-001 -1.2379884720E-004  +4.9185846001E-003 -3.4527259413E-003 
9269743.429 +1.1602306738E-002 +1.4066300355E-004  +9.9323815107E-001 +4.7618150711E-004  +9.9257671833E-001 +2.1815299988E-004  +4.6894964762E-003 -1.9598999061E-003 
9394888.611 +1.1951874942E-002 +2.6687025093E-004  +9.9385595322E-001 +1.0552108288E-003  +9.9379456043E-001 +1.2058019638E-004  +6.2621128745E-003 -1.9452736015E-003 
9520033.792 +8.2828477025E-003 -3.8140034303E-003  +9.9533188343E-001 -4.7525763512E-004  +9.9321413040E-001 -6.0403347015E-004  +6.2022488564E-003 -2.5375992991E-003 
9645178.974 +1.1698778719E-002 +1.1576060206E-004  +9.9341374636E-001 -5.8141350746E-004  +9.9405688047E-001 +5.3343176842E-004  +3.4750453196E-003 -2.5486203376E-003 
9770324.155 +1.0717768222E-002 +1.5901243314E-003  +9.9234414101E-001 +2.0486116409E-004  +9.9420595169E-001 -1.0450184345E-003  +1.7782434588E-003 -1.3261226704E-003 
9895469.337 +8.6682932451E-003 +6.0983235016E-005  +9.9363958836E-001 -3.4746527672E-004  +9.9304622412E-001 +2.2491812706E-004  +3.2164524309E-003 -2.9311585240E-004 
10020614.518 +8.5048871115E-003 +6.3780928031E-004  +9.9194008112E-001 -6.7040324211E-004  +9.9369496107E-001 -2.4226307869E-004  +5.9839733876E-003 +1.2065353803E-003 
10145759.700 +1.0487603024E-002 -1.6867129598E-003  +9.9435323477E-001 -7.5066089630E-004  +9.9337780476E-001 -4.7379732132E-004  +5.3690858185E-003 -2.3209364153E-003 
10270904.881 +1.2831361964E-002 +3.9265444502E-004  +9.9392211437E-001 -9.2491507530E-004  +9.9342572689E-001 -1.2842416763E-003  +4.0946034715E-003 -3.5975296050E-003 
10396050.063 +1.3123792596E-002 +1.5168092214E-003  +9.9299013615E-001 -6.4045190811E-005  +9.9341213703E-001 -1.3619661331E-005  +2.7013686486E-003 -6.3225096092E-003 
10521195.244 +1.2054980733E-002 +2.1427595057E-003  +9.9323773384E-001 -6.9719552994E-004  +9.9272465706E-001 -3.8263201714E-004  +5.2024531178E-003 -2.8057596646E-003 
10646340.426 +9.6520483494E-003 +2.6662377641E-003  +9.9313986301E-001 -5.0491094589E-004  +9.9297130108E-001 -7.7179074287E-004  +4.5195156708E-003 -2.7238093317E-003 
10771485.607 +1.1839921586E-002 +1.9890898839E-003  +9.9301385880E-001 -8.6861848831E-004  +9.9322175980E-001 -3.4189224243E-004  +3.2815609593E-003 -4.6212915331E-003 
10896630.788 +1.1093674228E-002 +1.9842735492E-003  +9.9304997921E-001 +3.5971403122E-005  +9.9406892061E-001 -7.7486038208E-006  +3.4831548110E-003 -2.8000201564E-003 
11021775.970 +1.0503394529E-002 +3.0154436827E-003  +9.9250197411E-001 -8.7621808052E-004  +9.9387943745E-001 -7.8812241554E-004  +3.2346975058E-003 -3.3530867659E-003 
11146921.151 +1.0761335492E-002 -1.2122234330E-004  +9.9225926399E-001 -8.4546208382E-004  +9.9351531267E-001 -5.5918097496E-004  +3.7648379803E-003 -1.5231078723E-003 
11272066.333 +1.0416774079E-002 -3.6162789911E-005  +9.9349057674E-001 -5.4734945297E-004  +9.9328017235E-001 -1.6993284225E-004  +3.2065811101E-003 -2.4361931719E-003 
11397211.514 +1.0069658980E-002 -2.4051405489E-006  +9.9318265915E-001 -8.7723135948E-004  +9.9335014820E-001 -2.0563602448E-005  +4.0030116215E-003 -5.2805151790E-004 
11522356.696 +9.0053221211E-003 +1.2878524140E-003  +9.9314802885E-001 -1.6143023968E-003  +9.9324476719E-001 -4.7326087952E-004  +5.5646961555E-003 -8.0265360884E-004 
11647501.877 +1.0466665030E-002 +2.2167759016E-004  +9.9327409267E-001 -5.1179528236E-004  +9.9265545607E-001 +2.2417306900E-004  +4.4530285522E-003 -1.0505528189E-004 
11772647.059 +1.0188439861E-002 +3.0842050910E-004  +9.9317395687E-001 +1.1774897575E-004  +9.9370670319E-001 +2.1159648895E-006  +4.0162461810E-003 -1.4016695786E-003 
11897792.240 +8.4270071238E-003 -8.4792356938E-004  +9.9276357889E-001 -6.9802999496E-004  +9.9258184433E-001 +8.9049339294E-005  +5.2123013884E-003 -1.8830618355E-003 
12022937.422 +9.8672639579E-003 +4.2081763968E-004  +9.9289339781E-001 -6.4098834991E-004  +9.9279671907E-001 -8.0445408821E-004  +3.9186384529E-003 -1.8069422804E-003 
12148082.603 +1.0113148950E-002 -8.5254292935E-004  +9.9336463213E-001 -5.7497620583E-004  +9.9274325371E-001 -1.0567903519E-004  +5.4639317095E-003 -3.4998008050E-004 
12273227.785 +9.9877230823E-003 -8.0148689449E-005  +9.9343955517E-001 -5.1549077034E-004  +9.9334889650E-001 -4.7838687897E-004  +5.1451567560E-003 -2.6999833062E-004 
12398372.966 +9.8346993327E-003 -1.5812646598E-004  +9.9344646931E-001 -3.5288929939E-004  +9.9269932508E-001 -2.9873847961E-004  +6.4735468477E-003 -6.2556727789E-004 
12523518.148 +8.9700389653E-003 +3.5775313154E-004  +9.9334967136E-001 -1.0863244534E-003  +9.9322026968E-001 -6.6107511520E-004  +2.9952912591E-003 -1.4562343713E-003 
12648663.329 +9.9738314748E-003 +1.4143688604E-003  +9.9341928959E-001 -1.0407567024E-003  +9.9262911081E-001 +1.7940998077E-004  +5.4668080993E-003 -9.1440777760E-004 
12773808.511 +9.1334376484E-003 -1.0223232675E-003  +9.9333566427E-001 -9.6681714058E-004  +9.9313795567E-001 -4.2745471001E-004  +4.6984688379E-003 -1.3792990940E-003 
12898953.692 +9.2792203650E-003 +1.2962520123E-004  +9.9319905043E-001 -8.8748335838E-004  +9.9387484789E-001 -5.9431791306E-004  +4.8664147034E-003 -2.2296402603E-003 
13024098.874 +9.6715176478E-003 +3.8968189619E-004  +9.9263238907E-001 -4.9328804016E-004  +9.9313598871E-001 -1.3533234596E-004  +5.0444118679E-003 -4.8432347830E-004 
13149244.055 +9.1533018276E-003 +4.7764438204E-004  +9.9283218384E-001 -8.6696445942E-004  +9.9320048094E-001 +2.4020671844E-004  +5.9525938705E-003 +6.3828937709E-004 
13274389.237 +9.2773800716E-003 -7.1475293953E-004  +9.9319082499E-001 -1.7894804478E-004  +9.9255406857E-001 -1.0630488396E-004  +6.0513215140E-003 -3.5828817636E-004 
13399534.418 +9.2741511762E-003 +1.2747858418E-003  +9.9331408739E-001 -2.7516484261E-004  +9.9332785606E-001 -1.4442205429E-004  +5.0175953656E-003 -6.8615149939E-004 
13524679.599 +8.9995274320E-003 +7.2237011045E-004  +9.9288302660E-001 -8.4640830755E-004  +9.9382197857E-001 -1.4472752810E-004  +5.6909853593E-003 +1.0070460849E-003 
13649824.781 +1.0004713200E-002 +1.4382300433E-003  +9.9301522970E-001 -5.7321041822E-004  +9.9257040024E-001 -7.8240036964E-004  +5.7438756339E-003 -4.7195304069E-004 
13774969.962 +1.0002109222E-002 -1.8269641441E-004  +9.9258673191E-001 -4.3702870607E-004  +9.9323779345E-001 -6.9017335773E-004  +5.8769821189E-003 +4.9840356223E-004 
13900115.144 +9.1417366639E-003 +4.4118938968E-004  +9.9299061298E-001 -3.6773271859E-004  +9.9336022139E-001 -1.3611279428E-004  +5.3583788686E-003 +8.7220896967E-004 
14025260.325 +7.7320532873E-003 +1.0489637498E-003  +9.9260437489E-001 -7.9321861267E-004  +9.9304836988E-001 -7.2874128819E-005  +6.6178725101E-003 +3.4750229679E-004 
14150405.507 +1.0119796731E-002 +7.8569247853E-004  +9.9290221930E-001 -3.4382939339E-004  +9.9274295568E-001 -6.4447522163E-004  +5.9866765514E-003 +6.7595992004E-004 
14275550.688 +1.0090730153E-002 +4.8057583626E-004  +9.9261838198E-001 -1.3387203217E-004  +9.9340021610E-001 +1.2318789959E-004  +5.8758016676E-003 +5.7770940475E-004 
14400695.870 +9.1236261651E-003 +3.2590352930E-004  +9.9294066429E-001 -5.2954256535E-004  +9.9285525084E-001 -3.3956766129E-004  +4.6336762607E-003 +1.4844676480E-004 
