!  2-Port S-parameters saved by WinCal
! VAR MeasName=S-Parameters (CALIBRATED_DATA) read from VNA (P5004A)
! VAR MeasDate=22/05/2024 18:12:18
! VAR NAME=Wafer2_r2_c1_pristine_neg0.8dc
! VAR FILENAME=Wafer2_r2_c1_pristine_neg0.8dc.S2P
! VAR DATE=22/05/2024 18:12:18
! VAR PHYS_PORTS=1,2
! VAR ObjTypeName=DATASET
! VAR IndexType=Frequency
!
# Hz S RI R 50
9000.000 +2.1783462167E-001 -5.9329628944E-001  -1.5720900148E-002 -7.5365286320E-003  +3.2277544960E-003 +2.7684768429E-004  +7.4843674898E-002 +1.2322956324E-001 
134145.181 +6.1435985565E-001 -7.9288303852E-002  -1.3185540214E-002 -5.8037512936E-003  -9.5136240125E-003 +1.3321666978E-002  -1.0753431320E+000 -9.1406363249E-001 
259290.363 +8.0823737383E-001 -1.6309541464E-001  +7.7174934559E-003 +1.4885920100E-002  +3.3096559346E-003 +2.1954666823E-002  +1.7560586929E+000 -1.0193195343E+000 
384435.544 +8.8703089952E-001 -3.0013352633E-001  -7.6857707463E-003 +3.3923842013E-002  -4.4718869030E-003 -4.0129162371E-002  +6.0651664734E+000 +2.2184329033E+000 
509580.726 +9.4426155090E-001 -1.6739955544E-001  -3.6150696687E-003 -2.2449244279E-003  -3.8176570088E-003 +3.1439559534E-003  +1.7505221367E+000 -2.4568217993E-001 
634725.907 +1.0924521685E+000 -2.0455524325E-001  -9.9855533335E-004 -2.1209171973E-003  -2.2071148269E-003 -1.0890256381E-003  +2.2910170555E+000 +6.1637192965E-001 
759871.089 +1.2693200111E+000 -4.4031739235E-002  -4.0628528222E-004 +2.4977678549E-005  +2.7442276478E-003 +4.4064118993E-004  +1.4380877018E+000 +4.3549716473E-001 
885016.270 +1.1603424549E+000 -2.8690546751E-001  -1.8432654542E-005 -5.5025325855E-004  -5.2765308646E-004 +2.1401592530E-003  +1.1992599964E+000 +5.0492495298E-001 
1010161.452 +1.2624682188E+000 -9.7386837006E-002  -5.3914987802E-005 -2.4630766711E-004  +8.1106723519E-004 +3.0594007694E-004  +1.1863160133E+000 +4.9880427122E-001 
1135306.633 +1.3451235294E+000 -1.4388848841E-001  -2.0216335543E-004 +5.7286012452E-004  +4.8197607975E-004 +4.2422447586E-004  +1.3016207218E+000 +6.1070311069E-001 
1260451.815 +1.5637453794E+000 -1.2871909142E-001  -5.7759997435E-004 +5.3613039199E-004  -1.9750505453E-004 -2.2826369968E-004  +1.0994058847E+000 +7.0441907644E-001 
1385596.996 +1.3804267645E+000 -1.2787151337E-001  +1.5954762057E-004 -6.9304660428E-006  -4.3733169150E-005 -4.2136525735E-007  +9.8646128178E-001 +4.8425027728E-001 
1510742.178 +1.6214411259E+000 -1.6215091944E-001  +4.8001369578E-005 +3.4429077641E-004  +4.9184978707E-005 +4.2595340346E-005  +6.7952728271E-001 +5.7416898012E-001 
1635887.359 +1.1328176260E+000 -3.8436228037E-001  +3.5407407267E-005 -3.4577067709E-005  +2.3223507742E-004 +6.5712010837E-005  +1.5218228102E+000 +6.2888956070E-001 
1761032.541 +1.3009135723E+000 -3.3035427332E-001  -2.4417994427E-004 +1.1119931878E-004  -1.8864365120E-004 +6.2418950256E-004  +1.1054382324E+000 +8.2728183270E-001 
1886177.722 +1.2209771872E+000 -2.4496945739E-001  -3.9439060492E-004 +1.0671850760E-005  +8.5991618107E-005 +3.6056645331E-004  +1.1447656155E+000 +5.5862295628E-001 
2011322.904 +1.2212810516E+000 -2.5234338641E-001  +1.5858837287E-005 +2.9963010456E-004  -5.5788474856E-004 +2.8822803870E-004  +1.1582524776E+000 +5.2591645718E-001 
2136468.085 +1.2262777090E+000 -1.9075250626E-001  -1.1154655658E-004 +1.3945819228E-004  -1.0005306831E-004 +3.1768367626E-004  +1.0969390869E+000 +4.7730976343E-001 
2261613.267 +1.2505137920E+000 -1.9416609406E-001  -3.2014533645E-004 +6.2168645673E-004  -2.3389093985E-004 +4.3871876551E-004  +1.0537127256E+000 +5.1568675041E-001 
2386758.448 +1.2509644032E+000 -2.1503001451E-001  -3.6026429734E-004 +5.1157054259E-004  -4.0316177183E-004 +4.5904912986E-004  +1.0722569227E+000 +5.4521399736E-001 
2511903.630 +1.2567684650E+000 -2.4657323956E-001  -6.4851925708E-004 +6.0219509760E-004  -3.5511405440E-004 +6.9108768366E-004  +1.1161252260E+000 +5.7935220003E-001 
2637048.811 +1.2392987013E+000 -2.8637632728E-001  -8.5164513439E-004 +2.2795196855E-004  -2.6397756301E-006 +3.9123182069E-004  +1.1263378859E+000 +6.0761499405E-001 
2762193.992 +1.1606831551E+000 -1.9572284818E-001  -1.0137167992E-003 +6.2116817571E-004  -4.2105474859E-004 +6.4169510733E-004  +1.1414029598E+000 +5.0689405203E-001 
2887339.174 +1.2070515156E+000 -1.6432297230E-001  -1.1181165464E-003 +7.5806421228E-004  -4.5325933024E-004 +8.7144179270E-004  +9.9551260471E-001 +5.0322395563E-001 
3012484.355 +1.2509343624E+000 -1.7150741816E-001  -5.7791318977E-004 +7.7493709978E-004  -4.1179000982E-004 +5.9211702319E-004  +9.5042657852E-001 +6.1341869831E-001 
3137629.537 +1.2611403465E+000 -1.6249483824E-001  -9.0462900698E-004 -2.1116953576E-005  -1.1288519017E-003 +9.1922882712E-004  +9.7319978476E-001 +7.1979880333E-001 
3262774.718 +1.2519685030E+000 -1.9184118509E-001  -9.1212213738E-004 +8.8554236572E-004  -4.3289334280E-004 +8.5277762264E-004  +1.0199360847E+000 +7.8706139326E-001 
3387919.900 +1.2420165539E+000 -2.0856666565E-001  -1.0816009017E-003 +6.2236376107E-004  -1.0429562535E-003 +8.8747323025E-004  +1.0607097149E+000 +8.5326004028E-001 
3513065.081 +1.2505199909E+000 -2.4419766665E-001  -3.5707614734E-004 +1.1576963589E-003  -1.2446958572E-003 +9.3999144156E-004  +1.1016482115E+000 +9.2651122808E-001 
3638210.263 +1.2905122042E+000 -2.6168888807E-001  -1.0628396412E-003 +9.5190887805E-004  -1.2504709885E-003 +5.7205662597E-004  +1.1925873756E+000 +9.6773236990E-001 
3763355.444 +1.2739382982E+000 -2.8192305565E-001  -8.9465396013E-004 +5.5049970979E-004  -3.4615705954E-004 +1.5121819451E-003  +1.2923877239E+000 +1.0012776852E+000 
3888500.626 +1.2663162947E+000 -3.2260045409E-001  -1.9192644395E-003 +2.0925584249E-003  -1.2159271864E-003 +1.8066461198E-003  +1.3880543709E+000 +1.0629920959E+000 
4013645.807 +1.0548827648E+000 -4.4386506081E-001  -7.7033648267E-004 +2.2383141331E-003  -9.5962348860E-004 +2.1620804910E-003  +1.6556328535E+000 +8.5787230730E-001 
4138790.989 +8.4862077236E-001 -4.4602227211E-001  +1.5912402887E-004 +2.0317607559E-003  -3.7928996608E-004 +2.5530871935E-003  +1.7883641720E+000 +5.2448421717E-001 
4263936.170 +8.1204199791E-001 -4.2702358961E-001  -1.2074745027E-003 +3.1325607561E-003  -3.5469140857E-004 +2.1203469951E-003  +1.8347854614E+000 +4.2956680059E-001 
4389081.352 +7.7395826578E-001 -4.1787418723E-001  -2.7581513859E-004 +2.8780307621E-003  +7.5709278462E-005 +2.1622458007E-003  +1.8833167553E+000 +2.9965701699E-001 
4514226.533 +7.4510455132E-001 -4.1743874550E-001  -1.8169754185E-005 +2.7355554048E-003  +5.7754811132E-004 +2.7332655154E-003  +1.9164576530E+000 +2.0330762863E-001 
4639371.715 +7.2638863325E-001 -3.9708161354E-001  +4.7193196951E-004 +3.2322790939E-003  +2.8525386006E-004 +2.5387324858E-003  +1.9044572115E+000 +1.2986896932E-001 
4764516.896 +6.9104552269E-001 -3.7914422154E-001  -3.5138084786E-004 +2.1737215575E-003  +1.0892949067E-003 +2.8533448931E-003  +1.9098069668E+000 +3.0255943537E-002 
4889662.078 +6.6744786501E-001 -3.4557095170E-001  +5.2851985674E-004 +2.3432064336E-003  +1.0896103922E-003 +2.5429155212E-003  +1.9064267874E+000 -3.9619341493E-002 
5014807.259 +6.3872498274E-001 -3.2951536775E-001  +5.6504859822E-004 +2.0731415134E-003  +2.2933301807E-004 +2.1373629570E-003  +1.8621762991E+000 -1.0511605442E-001 
5139952.441 +6.2622272968E-001 -3.0725660920E-001  +1.1769391131E-003 +2.9779814649E-003  +4.9991731066E-004 +3.0109658837E-003  +1.8402106762E+000 -2.1234938502E-001 
5265097.622 +6.0710477829E-001 -2.7032172680E-001  -1.4727388043E-004 +3.0851166230E-003  +6.2821054598E-004 +3.1204812694E-003  +1.7822823524E+000 -2.5944748521E-001 
5390242.804 +6.0000771284E-001 -2.4084547162E-001  +4.1371060070E-004 +2.9894532636E-003  +4.5608446817E-004 +2.6942957193E-003  +1.7319113016E+000 -3.1431478262E-001 
5515387.985 +5.8818393946E-001 -2.0551006496E-001  +5.7499494869E-004 +2.9184487648E-003  +4.3171987636E-004 +2.4183809292E-003  +1.6901099682E+000 -3.7814480066E-001 
5640533.166 +5.7239645720E-001 -1.7671428621E-001  +6.0993054649E-004 +2.6627718471E-003  +6.2600348610E-004 +2.9816846363E-003  +1.6629279852E+000 -4.2148315907E-001 
5765678.348 +5.6185257435E-001 -1.5042276680E-001  +4.7919162898E-004 +2.2614856716E-003  +3.7387167686E-004 +2.1440198179E-003  +1.6092327833E+000 -4.5127230883E-001 
5890823.529 +5.5933469534E-001 -1.1883305013E-001  +6.3644960755E-004 +2.6625357568E-003  +3.1054310966E-004 +2.6918437798E-003  +1.5450786352E+000 -4.7317954898E-001 
6015968.711 +5.6293421984E-001 -8.8281571865E-002  +2.7737388154E-004 +2.8144149110E-003  +5.5389321642E-004 +2.4744942784E-003  +1.5113548040E+000 -5.0093764067E-001 
6141113.892 +5.5813872814E-001 -6.1269726604E-002  +3.8479809882E-004 +2.9841263313E-003  +6.1448349152E-004 +3.0638095923E-003  +1.4462605715E+000 -5.1515763998E-001 
6266259.074 +5.5984842777E-001 -3.1181124970E-002  +3.4548708936E-004 +2.6483435649E-003  +2.9225845356E-004 +2.9508292209E-003  +1.3950448036E+000 -5.3304588795E-001 
6391404.255 +5.5925524235E-001 -2.7201846242E-003  +6.7598558962E-004 +3.2501274254E-003  +6.0118280817E-004 +2.7508223429E-003  +1.3314309120E+000 -5.4432111979E-001 
6516549.437 +5.6702142954E-001 +2.6802167296E-002  +3.7648191210E-004 +3.0533242971E-003  +4.7406624071E-004 +2.8236857615E-003  +1.2968964577E+000 -5.4876601696E-001 
6641694.618 +5.7445883751E-001 +6.2014065683E-002  +3.1388620846E-004 +2.9318702873E-003  +5.1333871670E-004 +2.9777947348E-003  +1.2628458738E+000 -5.4604011774E-001 
6766839.800 +5.8474636078E-001 +8.5801333189E-002  +5.1553314552E-004 +2.8664644342E-003  +3.0497831176E-004 +2.9370090924E-003  +1.2181493044E+000 -5.5070245266E-001 
6891984.981 +5.9291380644E-001 +1.0879644752E-001  +4.2637312436E-004 +3.1421941239E-003  +6.5545854159E-004 +3.0243755318E-003  +1.1658015251E+000 -5.4267001152E-001 
7017130.163 +6.0034203529E-001 +1.3268920779E-001  +2.3966624576E-004 +2.8574923053E-003  +2.7965800837E-004 +2.7890030760E-003  +1.1368030310E+000 -5.3277677298E-001 
7142275.344 +6.1365121603E-001 +1.6157512367E-001  +2.4943842436E-004 +3.0486600008E-003  -6.4698542701E-005 +3.1573863234E-003  +1.1086997986E+000 -5.2479285002E-001 
7267420.526 +6.2924462557E-001 +1.8995605409E-001  +1.6972623416E-004 +3.2012541778E-003  +4.1307852371E-005 +3.0684794765E-003  +1.0782705545E+000 -5.1114666462E-001 
7392565.707 +6.4809805155E-001 +2.1613228321E-001  +2.1781431860E-004 +3.4356543329E-003  +1.5081514721E-004 +3.1954268925E-003  +1.0496197939E+000 -5.0947296619E-001 
7517710.889 +6.6308832169E-001 +2.3447808623E-001  +4.3869667570E-004 +3.3112901729E-003  +1.1137258844E-004 +3.2950364985E-003  +1.0157686472E+000 -4.9633878469E-001 
7642856.070 +6.7892646790E-001 +2.5412467122E-001  +7.0869689807E-005 +3.3363061957E-003  -4.6965142246E-005 +3.4436201677E-003  +9.8805695772E-001 -4.8425930738E-001 
7768001.252 +7.0415848494E-001 +2.7352547646E-001  -1.6159028746E-006 +3.4998620395E-003  -9.1300636996E-005 +3.4611162264E-003  +9.6128559113E-001 -4.6845948696E-001 
7893146.433 +7.3054057360E-001 +2.9533201456E-001  +1.5282869572E-004 +3.1873451080E-003  +1.4645687770E-004 +3.1850938685E-003  +9.3525099754E-001 -4.5188832283E-001 
8018291.615 +7.4916756153E-001 +3.0805107951E-001  +4.6824279707E-005 +3.3147099894E-003  -2.0478037186E-006 +3.4745191224E-003  +9.1045880318E-001 -4.4362676144E-001 
8143436.796 +7.7152812481E-001 +3.1866642833E-001  +2.7582864277E-006 +3.5498864017E-003  -1.8377712695E-004 +3.4196511842E-003  +8.9575093985E-001 -4.2322790623E-001 
8268581.977 +7.9794818163E-001 +3.3548706770E-001  +3.1633651815E-005 +3.4380240832E-003  +2.2005103528E-004 +3.6817512009E-003  +8.7458276749E-001 -4.0918689966E-001 
8393727.159 +8.2454252243E-001 +3.4621647000E-001  -1.3848935487E-004 +3.5989123862E-003  -1.2026226614E-005 +3.7694505882E-003  +8.6154365540E-001 -3.9304512739E-001 
8518872.340 +8.5663539171E-001 +3.5381415486E-001  +6.5738102421E-005 +3.7970682606E-003  -1.0291166836E-004 +3.7583694793E-003  +8.4113430977E-001 -3.7608012557E-001 
8644017.522 +8.7709456682E-001 +3.6362695694E-001  -1.5573354904E-004 +3.7916011643E-003  -1.4487153385E-004 +3.7685793359E-003  +8.3264720440E-001 -3.6350476742E-001 
8769162.703 +9.0966838598E-001 +3.6841404438E-001  -9.4068935141E-005 +3.8594722282E-003  -2.5246560108E-004 +3.7996470928E-003  +8.1671893597E-001 -3.4480375051E-001 
8894307.885 +9.3417006731E-001 +3.6426833272E-001  -3.2921880484E-004 +4.0139085613E-003  -5.6403921917E-005 +3.8208235055E-003  +8.0004870892E-001 -3.3013617992E-001 
9019453.066 +9.6391749382E-001 +3.6381569505E-001  -2.6979192626E-004 +3.9609209634E-003  -2.5010760874E-004 +3.9838817902E-003  +7.8623390198E-001 -3.1241750717E-001 
9144598.248 +9.9338078499E-001 +3.6454883218E-001  -1.3511651196E-004 +4.1630133055E-003  +2.0394800231E-006 +4.0630507283E-003  +7.7631396055E-001 -2.9730767012E-001 
9269743.429 +1.0204279423E+000 +3.5814824700E-001  -3.0702073127E-004 +4.2247269303E-003  -2.7782307006E-004 +4.3108225800E-003  +7.6915311813E-001 -2.7989590168E-001 
9394888.611 +1.0450662374E+000 +3.5469877720E-001  -3.5645475145E-004 +4.3348548934E-003  -3.6388123408E-004 +4.2985919863E-003  +7.5705814362E-001 -2.6432514191E-001 
9520033.792 +1.0740557909E+000 +3.4081020951E-001  -1.1551415082E-004 +4.4088605791E-003  -1.3342767488E-004 +4.3033300899E-003  +7.5169104338E-001 -2.4209132791E-001 
9645178.974 +1.0998272896E+000 +3.3093091846E-001  -1.6694504302E-004 +4.3755173683E-003  -2.6217487175E-004 +4.3923924677E-003  +7.4301904440E-001 -2.2690290213E-001 
9770324.155 +1.1185628176E+000 +3.1868681312E-001  -2.7265597600E-004 +4.5132986270E-003  -1.5249743592E-004 +4.6340636909E-003  +7.3680484295E-001 -2.0966151357E-001 
9895469.337 +1.1412420273E+000 +3.0517494678E-001  -1.7822242808E-004 +4.6213143505E-003  -2.2304349113E-004 +4.6345065348E-003  +7.2901010513E-001 -1.9271799922E-001 
10020614.518 +1.1584608555E+000 +2.8757077456E-001  -2.0684907213E-004 +4.7320253216E-003  -1.6646180302E-004 +4.6556694433E-003  +7.2751331329E-001 -1.7518913746E-001 
10145759.700 +1.1783528328E+000 +2.6827171445E-001  -2.0771939307E-004 +4.7547593713E-003  -2.5840825401E-004 +4.8281727359E-003  +7.2324550152E-001 -1.6261231899E-001 
10270904.881 +1.1972150803E+000 +2.4787104130E-001  -1.3072881848E-004 +4.8386799172E-003  -1.7685117200E-004 +4.9168132246E-003  +7.1998918056E-001 -1.4624008536E-001 
10396050.063 +1.2084364891E+000 +2.2811317444E-001  -1.1066766456E-004 +5.0490116701E-003  -2.5848858058E-004 +4.9751270562E-003  +7.1842771769E-001 -1.2811866403E-001 
10521195.244 +1.2202820778E+000 +2.0803412795E-001  -1.1526164599E-004 +5.1460005343E-003  -2.1194713190E-004 +5.1028919406E-003  +7.1606236696E-001 -1.1286807060E-001 
10646340.426 +1.2289223671E+000 +1.8889981508E-001  -1.1301785707E-004 +5.1323403604E-003  -2.7186283842E-004 +5.1358556375E-003  +7.1452569962E-001 -9.7438216209E-002 
10771485.607 +1.2371139526E+000 +1.6590398550E-001  -1.3320986181E-004 +5.2200406790E-003  -2.1704169922E-004 +5.1830662414E-003  +7.1556568146E-001 -7.9713314772E-002 
10896630.788 +1.2424401045E+000 +1.4789724350E-001  -1.7444835976E-004 +5.2130082622E-003  -2.1479814313E-004 +5.2850297652E-003  +7.1586525440E-001 -6.5288901329E-002 
11021775.970 +1.2456903458E+000 +1.2574553490E-001  -1.5885313042E-004 +5.3401058540E-003  -1.4640809968E-004 +5.3236028180E-003  +7.1668028831E-001 -5.0000339746E-002 
11146921.151 +1.2489948273E+000 +1.0242849588E-001  -1.4607259072E-004 +5.4087853059E-003  -2.1038134582E-004 +5.4292250425E-003  +7.1806669235E-001 -3.6713898182E-002 
11272066.333 +1.2468535900E+000 +8.2831501961E-002  -9.6143456176E-005 +5.4571544752E-003  -1.6424013302E-004 +5.5176420137E-003  +7.1942889690E-001 -2.1382004023E-002 
11397211.514 +1.2482972145E+000 +6.5384030342E-002  -1.1878903024E-004 +5.6704650633E-003  -8.1634381786E-005 +5.5341627449E-003  +7.2355175018E-001 -7.1232616901E-003 
11522356.696 +1.2460937500E+000 +4.5944929123E-002  -1.1627841741E-004 +5.7054525241E-003  -1.4922046103E-004 +5.6218272075E-003  +7.2722154856E-001 +6.9262087345E-003 
11647501.877 +1.2415165901E+000 +2.8089940548E-002  -1.7907074653E-004 +5.7381130755E-003  -1.4112121426E-004 +5.7037454098E-003  +7.3041373491E-001 +2.1254032850E-002 
11772647.059 +1.2382754087E+000 +1.3770222664E-002  -9.2894770205E-005 +5.7840715162E-003  -1.1037336662E-005 +5.7451836765E-003  +7.3628592491E-001 +3.4047514200E-002 
11897792.240 +1.2319853306E+000 -2.2115111351E-003  -2.4249777198E-005 +5.7340655476E-003  -2.7418136597E-005 +5.8388207108E-003  +7.4200099707E-001 +4.8416554928E-002 
12022937.422 +1.2287272215E+000 -1.5123307705E-002  -6.6912267357E-005 +5.8610904962E-003  -5.5938260630E-005 +5.8822352439E-003  +7.4753302336E-001 +5.9655904770E-002 
12148082.603 +1.2200267315E+000 -3.0583322048E-002  -4.3236650527E-005 +5.9322868474E-003  -1.5113316476E-004 +5.9493803419E-003  +7.5378739834E-001 +7.3356688023E-002 
12273227.785 +1.2117851973E+000 -4.2277514935E-002  -1.0029808618E-004 +5.9873815626E-003  -7.0987734944E-005 +6.0676988214E-003  +7.6101273298E-001 +8.4272190928E-002 
12398372.966 +1.2045128345E+000 -5.5777519941E-002  -2.8504058719E-005 +6.0552107170E-003  -9.6807023510E-005 +6.0969134793E-003  +7.6954847574E-001 +9.5910817385E-002 
12523518.148 +1.1935197115E+000 -6.5408840775E-002  -6.3710613176E-005 +6.1399289407E-003  -9.2234229669E-005 +6.1500002630E-003  +7.7575469017E-001 +1.0628138483E-001 
12648663.329 +1.1857676506E+000 -7.6145485044E-002  -9.9447555840E-005 +6.2783965841E-003  -1.1421914678E-004 +6.2962905504E-003  +7.8495240211E-001 +1.1774592102E-001 
12773808.511 +1.1754072905E+000 -8.6203016341E-002  -5.0050672144E-005 +6.2816482969E-003  -9.1196154244E-005 +6.2624071725E-003  +7.9432964325E-001 +1.2792542577E-001 
12898953.692 +1.1667385101E+000 -9.4649881124E-002  -1.0653288336E-004 +6.3660661690E-003  -5.5523880292E-005 +6.3070128672E-003  +8.0387812853E-001 +1.3646240532E-001 
13024098.874 +1.1571849585E+000 -1.0062395781E-001  -3.5294069676E-005 +6.4362729900E-003  -5.0324102631E-005 +6.4745880663E-003  +8.1393122673E-001 +1.4637929201E-001 
13149244.055 +1.1475931406E+000 -1.0687474906E-001  -1.0506837862E-004 +6.4982669428E-003  -9.6643183497E-005 +6.4597474411E-003  +8.2395458221E-001 +1.5359316766E-001 
13274389.237 +1.1370775700E+000 -1.1281577498E-001  -2.8921742341E-005 +6.5744556487E-003  -2.6874142350E-005 +6.5556233749E-003  +8.3566206694E-001 +1.6133962572E-001 
13399534.418 +1.1277428865E+000 -1.1824685335E-001  -2.9151298804E-005 +6.5842233598E-003  -4.9956608564E-005 +6.6528460011E-003  +8.4630745649E-001 +1.6975328326E-001 
13524679.599 +1.1178580523E+000 -1.2157484889E-001  +4.9605732784E-006 +6.7343660630E-003  -2.4094071705E-005 +6.6962423734E-003  +8.5784846544E-001 +1.7580348253E-001 
13649824.781 +1.1081305742E+000 -1.2745670974E-001  +4.5978231356E-006 +6.7363376729E-003  -4.9256253988E-005 +6.8096397445E-003  +8.7052989006E-001 +1.8062359095E-001 
13774969.962 +1.0992484093E+000 -1.2916034460E-001  +2.1160813048E-006 +6.8481150083E-003  +1.3600802049E-006 +6.8606627174E-003  +8.8154196739E-001 +1.8545146286E-001 
13900115.144 +1.0903620720E+000 -1.3154140115E-001  +2.1265004762E-005 +6.9018099457E-003  +1.8001417629E-005 +6.9083450362E-003  +8.9376085997E-001 +1.8998891115E-001 
14025260.325 +1.0791618824E+000 -1.3302654028E-001  +2.2963620722E-005 +6.9637442939E-003  +1.5763565898E-005 +6.9893985055E-003  +9.0630257130E-001 +1.9360151887E-001 
14150405.507 +1.0719301701E+000 -1.3457688689E-001  +3.8056867197E-005 +7.0509053767E-003  +6.4645893872E-005 +7.0987925865E-003  +9.1824638844E-001 +1.9696021080E-001 
14275550.688 +1.0626989603E+000 -1.3535562158E-001  +6.8023102358E-005 +7.1349102072E-003  +4.3867388740E-005 +7.1376282722E-003  +9.3113487959E-001 +1.9748273492E-001 
14400695.870 +1.0529271364E+000 -1.3543739915E-001  +7.3442934081E-005 +7.1437647566E-003  +5.2055809647E-005 +7.1865585633E-003  +9.4427144527E-001 +2.0043066144E-001 
