!  2-Port S-parameters saved by WinCal
! VAR MeasName=S-Parameters (CALIBRATED_DATA) read from VNA (P5004A)
! VAR MeasDate=22/05/2024 17:24:39
! VAR NAME=Wafer2_r10_c19_opensignotaper
! VAR FILENAME=Wafer2_r10_c19_opensignotaper.S2P
! VAR DATE=22/05/2024 17:24:39
! VAR PHYS_PORTS=1,2
! VAR ObjTypeName=DATASET
! VAR IndexType=Frequency
!
# Hz S RI R 50
9000.000 +2.3139788210E-001 -5.6791365147E-001  +8.7489532307E-003 -6.8961689249E-004  +2.0323046483E-003 +2.6481288951E-003  +7.4001163244E-002 +1.0299648345E-001 
134145.181 +8.1859636307E-001 +1.0525774956E-001  -2.3340858519E-002 -4.0580902249E-002  -1.3451805338E-002 +1.5023490414E-004  +8.1139111519E-001 +7.2057276964E-002 
259290.363 +8.9441442490E-001 -9.7083538771E-002  +4.7661056742E-003 -1.6275412636E-003  +4.0441327728E-003 -8.0059515312E-003  +1.0460214615E+000 -4.6815752983E-002 
384435.544 +9.6534383297E-001 -2.3240768909E-001  +2.3523007985E-003 +4.5209558448E-004  -7.7177481726E-003 +1.4707866358E-003  +1.0643268824E+000 -3.4432679415E-002 
509580.726 +9.8120975494E-001 -1.2751929462E-001  -1.9587959105E-004 +3.3587048529E-004  -7.0332904579E-004 -4.1553264600E-004  +1.0346895456E+000 -3.1908914447E-002 
634725.907 +1.0813844204E+000 -1.5351039171E-001  +4.6365038725E-004 +7.3768279981E-004  +1.1596566765E-004 +1.2475091498E-003  +1.0666366816E+000 -4.2340487242E-002 
759871.089 +1.1880517006E+000 -6.9754272699E-002  -9.6703437157E-004 -2.5908539537E-003  -2.1222015494E-004 +2.5134289172E-004  +1.0916401148E+000 -5.9530794621E-002 
885016.270 +9.6809035540E-001 -1.3805395365E-001  -1.7358621117E-003 +2.5244266726E-004  +9.7806216218E-004 -1.6265955055E-003  +1.0933309793E+000 -1.5944977105E-001 
1010161.452 +1.1551771164E+000 -9.5758438110E-003  +1.5830262564E-003 +4.3100700714E-003  -1.0240462143E-003 -3.1320046401E-004  +8.4122610092E-001 -1.7516911030E-003 
1135306.633 +1.1761956215E+000 -3.3230364323E-002  +1.8942477182E-003 +6.8137014750E-005  -3.5849484266E-004 +1.7320396146E-003  +9.0982168913E-001 +1.0970619321E-001 
1260451.815 +1.3411079645E+000 -4.7592520714E-002  +1.0635575745E-003 -2.3073694319E-004  +2.9700752348E-003 -1.5376859810E-003  +9.7040855885E-001 +1.7056384683E-001 
1385596.996 +1.2543697357E+000 -1.0853987932E-001  +1.4841540251E-003 +1.4934176579E-004  +9.0276217088E-004 +1.1308642570E-003  +1.0060708523E+000 +1.0125696659E-001 
1510742.178 +1.3645925522E+000 -1.6070038080E-001  +9.0914580505E-004 -1.3812407851E-003  -4.1892795707E-004 +5.3250853671E-004  +9.5969331264E-001 +1.2189456820E-001 
1635887.359 +9.7213023901E-001 -2.5449040532E-001  -6.1002647271E-004 +7.3850969784E-006  +1.1755309533E-003 +2.7723956737E-004  +1.0759708881E+000 +9.1537773609E-002 
1761032.541 +1.0283706188E+000 -2.3230913281E-001  -4.6451159869E-004 -5.3031364223E-004  +3.2593071228E-004 -1.5231241705E-003  +1.0672627687E+000 +1.4802539349E-001 
1886177.722 +1.0131727457E+000 -1.2304240465E-001  -5.7745175582E-005 +1.4222711616E-004  -7.0209556725E-005 +5.2624527598E-004  +1.0563316345E+000 +1.1139219999E-001 
2011322.904 +1.0138850212E+000 -8.9908808470E-002  -2.0384203526E-004 -4.0826894110E-004  -6.4003386069E-004 -7.6149124652E-004  +1.0527573824E+000 +1.0114017129E-001 
2136468.085 +1.0156202316E+000 -7.3684960604E-002  -2.3231809610E-004 -4.7996698413E-004  +2.0999772823E-004 -9.1859477106E-004  +1.0401329994E+000 +9.1142266989E-002 
2261613.267 +1.0138019323E+000 -6.5676480532E-002  -2.1045842732E-004 +2.7139708982E-004  -4.5270621195E-004 +1.6720994608E-005  +1.0330687761E+000 +1.1828035116E-001 
2386758.448 +1.0149148703E+000 -6.1451911926E-002  -3.0397053342E-004 +6.3803204102E-004  -1.2249134306E-004 +1.5072485257E-004  +1.0402143002E+000 +1.2782490253E-001 
2511903.630 +1.0089355707E+000 -2.6944816113E-002  -2.6005689870E-004 +6.9856192567E-005  +3.1724362634E-004 -9.2868722277E-006  +1.0472363234E+000 +1.4325189590E-001 
2637048.811 +1.0155084133E+000 -2.3128807545E-002  +1.6591986059E-004 +1.4865846606E-004  +3.6400806857E-004 -2.2207402799E-004  +1.0442061424E+000 +1.5403041244E-001 
2762193.992 +1.0243682861E+000 -1.2848988175E-002  -3.4857483115E-004 -3.6092745722E-004  -3.9373440086E-004 +9.7767020634E-005  +1.0326986313E+000 +1.7280125618E-001 
2887339.174 +1.0065354109E+000 -7.3642879725E-003  -2.1390509210E-004 +2.2021065524E-004  -4.3373793596E-004 +1.9698822871E-004  +1.0384273529E+000 +2.0286571980E-001 
3012484.355 +1.0059692860E+000 +9.3230605125E-004  -2.0586809842E-004 +5.4228228691E-005  -1.4443165855E-004 +7.9031517089E-005  +1.0617471933E+000 +2.3059849441E-001 
3137629.537 +9.9852639437E-001 +1.5160247684E-002  +2.2195000201E-004 -3.6487606121E-004  -3.2591109630E-004 -1.4544333681E-004  +1.0973367691E+000 +2.3781345785E-001 
3262774.718 +9.9308276176E-001 +4.5333355665E-002  +1.5146125224E-004 +6.3159212004E-004  +7.1209511952E-004 +6.4104655758E-004  +1.1141043901E+000 +2.4813373387E-001 
3387919.900 +9.8630762100E-001 +6.3348710537E-002  -3.0126763158E-004 +2.6217443519E-005  -4.3786093011E-004 +7.5133302016E-004  +1.1300081015E+000 +2.5425887108E-001 
3513065.081 +9.8915755749E-001 +7.7261209488E-002  -3.6191646359E-004 +5.3625204600E-004  -4.0116050513E-004 -6.1430429923E-005  +1.1416423321E+000 +2.6765549183E-001 
3638210.263 +1.0025535822E+000 +1.0481829941E-001  +1.0937872867E-004 -3.9686437231E-004  -2.5283746072E-004 +6.5720721614E-004  +1.1771974564E+000 +2.6361072063E-001 
3763355.444 +1.0165034533E+000 +1.2204922736E-001  -6.5154960612E-004 -2.0710099488E-004  +1.1449691374E-004 -2.3469088774E-004  +1.1979370117E+000 +2.4867758155E-001 
3888500.626 +1.0353440046E+000 +1.2916408479E-001  +3.9881860721E-004 +7.6807031292E-005  +4.3532013660E-004 +7.3941191658E-006  +1.2259050608E+000 +2.6069581509E-001 
4013645.807 +9.8728626966E-001 +4.2877405882E-002  -2.0625856996E-004 -2.7865864104E-004  +3.2467840356E-004 +7.1413931437E-004  +1.1947669983E+000 +1.0793377459E-001 
4138790.989 +9.0865039825E-001 -1.4911307953E-002  -1.9276938110E-004 -1.6059464542E-005  +2.0200468134E-004 -1.7498504894E-004  +1.0990881920E+000 -3.6472510546E-003 
4263936.170 +9.0865910053E-001 +9.7095873207E-004  -1.6194795899E-004 +2.7415211662E-004  -2.9545353027E-004 +1.7205903714E-004  +1.0852777958E+000 -3.4708652645E-002 
4389081.352 +9.2067611217E-001 -4.5854905620E-003  +6.3307059463E-004 -3.7591703585E-004  +4.0109304246E-004 -1.8304260448E-004  +1.0784047842E+000 -4.3698366731E-002 
4514226.533 +9.2284953594E-001 -4.6350574121E-003  -4.2569052312E-004 +5.7643448235E-004  -1.0284071323E-004 +9.8000535218E-005  +1.0735194683E+000 -5.3807824850E-002 
4639371.715 +9.3483847380E-001 +7.3866690509E-003  -7.1936176391E-004 -4.9410935026E-004  -5.8851257199E-004 +3.3105839975E-005  +1.0715081692E+000 -5.2886981517E-002 
4764516.896 +9.3273562193E-001 +2.5858990848E-003  +1.3229274191E-004 +2.2931191779E-004  +3.7004580372E-004 +1.3977236813E-004  +1.0625182390E+000 -6.3458636403E-002 
4889662.078 +9.3879759312E-001 +9.2757046223E-003  -1.1529437324E-004 +1.7008699069E-004  +2.9027878190E-004 +8.5244602815E-005  +1.0614626408E+000 -5.5979888886E-002 
5014807.259 +9.3256992102E-001 -2.3853573948E-003  +3.2248359639E-004 -4.0145736421E-004  +7.1950860729E-005 +3.0019111000E-004  +1.0437299013E+000 -5.7293012738E-002 
5139952.441 +9.4633775949E-001 +6.9755334407E-003  +4.2150347144E-004 +1.5844676818E-004  -2.0714094717E-005 -3.0113934190E-004  +1.0438228846E+000 -6.9046720862E-002 
5265097.622 +9.4555795193E-001 +1.5437714756E-002  +9.6923213277E-005 -1.6527614207E-004  -1.0915844177E-004 -9.6854737421E-006  +1.0340849161E+000 -6.6260799766E-002 
5390242.804 +9.5572185516E-001 +1.4133512974E-002  -4.8178037105E-005 +4.9341466365E-005  +6.2773360696E-005 -4.2689434486E-004  +1.0206116438E+000 -6.1290852726E-002 
5515387.985 +9.6763712168E-001 +1.6284041107E-002  -1.0179764649E-004 -2.1647026006E-004  -1.1265801731E-004 +4.0246424032E-004  +1.0245145559E+000 -6.9186769426E-002 
5640533.166 +9.6152013540E-001 +2.0008847117E-002  -3.7443317706E-004 +4.0124531370E-004  -6.4059931901E-005 +2.0467147988E-004  +1.0205006599E+000 -6.5117888153E-002 
5765678.348 +9.6777451038E-001 +1.9172132015E-002  +3.2949747401E-004 -4.2827142170E-004  +3.9949262282E-004 -7.4115305324E-005  +1.0108239651E+000 -6.6799752414E-002 
5890823.529 +9.7127383947E-001 +6.5465271473E-003  +2.8408685466E-004 -4.4777576113E-004  +4.8935748055E-005 -2.0543167193E-004  +1.0108065605E+000 -6.7346446216E-002 
6015968.711 +9.7045487165E-001 +8.0479010940E-003  +1.9921972125E-004 +1.4021758398E-004  -3.0583637999E-004 -7.6103970059E-005  +1.0071734190E+000 -6.1986759305E-002 
6141113.892 +9.7099739313E-001 +1.3466268778E-002  -3.4248895827E-004 +3.6701717181E-004  -1.8672097212E-005 -1.5497296408E-004  +1.0014506578E+000 -6.1857424676E-002 
6266259.074 +9.7054255009E-001 +1.0153882205E-002  +7.6000877016E-005 +3.5502867831E-005  +4.5459013199E-004 +2.2490707124E-005  +1.0023630857E+000 -5.7811453938E-002 
6391404.255 +9.7019475698E-001 +1.0991096497E-004  +1.5377580712E-004 -2.8068423489E-005  +1.5723082470E-004 -1.8900979194E-004  +9.9686563015E-001 -6.0943678021E-002 
6516549.437 +9.7160857916E-001 +7.3187798262E-004  -1.9414295093E-004 -2.8074349393E-004  +2.0731944824E-004 -1.4837572235E-004  +9.8813223839E-001 -5.5610731244E-002 
6641694.618 +9.7594475746E-001 +4.3130517006E-003  +2.9894354157E-005 -1.1721905321E-004  +2.2035047004E-004 +5.0383439520E-004  +9.8863041401E-001 -5.2049785852E-002 
6766839.800 +9.8437416553E-001 +4.4416487217E-003  +3.7880381569E-004 +2.0405004034E-004  -9.4391412858E-005 -2.2984341194E-004  +9.8911345005E-001 -5.6457668543E-002 
6891984.981 +9.7806590796E-001 +2.0321160555E-003  -1.7531278900E-006 +5.7087672758E-005  -5.6357836002E-005 -1.1258938321E-004  +9.7521799803E-001 -5.1853135228E-002 
7017130.163 +9.7502660751E-001 +1.9388347864E-003  -7.4639065133E-005 +1.5761277609E-005  +3.0290603172E-004 -2.1346056019E-004  +9.8378962278E-001 -4.4790148735E-002 
7142275.344 +9.8077416420E-001 +5.4404288530E-003  +1.3361538004E-004 +3.3836430521E-004  +5.5268665164E-005 -2.5112493313E-004  +9.8248922825E-001 -3.9367556572E-002 
7267420.526 +9.7991025448E-001 +7.4417442083E-003  -6.7722139647E-005 -2.7342470275E-005  +7.2503084084E-005 +9.1132147645E-005  +9.7813671827E-001 -4.0882959962E-002 
7392565.707 +9.8031377792E-001 +1.0692164302E-002  +1.8718888168E-004 +2.4585742722E-005  -2.1677000041E-004 +7.9059078416E-005  +9.7965079546E-001 -3.9574280381E-002 
7517710.889 +9.8293012381E-001 +1.2692645192E-002  -1.7520193069E-004 -6.3886182033E-005  -1.1600850848E-004 +1.0059478882E-005  +9.7585046291E-001 -3.7394061685E-002 
7642856.070 +9.7954976559E-001 +1.2579366565E-002  -3.6412435293E-005 +1.0328548342E-005  -1.3869714167E-005 +5.6032786233E-005  +9.7097456455E-001 -4.0212944150E-002 
7768001.252 +9.8947095871E-001 +1.6789779067E-002  +1.0257431131E-004 -6.8981433287E-005  +9.8985779914E-005 +3.7298657844E-005  +9.6846485138E-001 -3.7196800113E-002 
7893146.433 +9.9048763514E-001 +1.4842987061E-002  +7.4435585702E-005 +6.5126230766E-005  -2.0854895411E-004 +1.2328047887E-005  +9.6950387955E-001 -3.3612936735E-002 
8018291.615 +9.8246061802E-001 +1.1775180697E-002  +9.2662397947E-005 -2.0363049771E-005  -6.6982129283E-006 -3.5753368138E-005  +9.6511411667E-001 -3.1663134694E-002 
8143436.796 +9.8254168034E-001 +4.6993792057E-003  +4.6390388889E-005 -1.5524718037E-005  -2.8718104659E-006 -1.7425116312E-005  +9.7058093548E-001 -2.5367900729E-002 
8268581.977 +9.8044931889E-001 +2.4342238903E-003  +7.4142910307E-005 -2.0259121811E-005  -1.0888827092E-005 -1.7228497018E-004  +9.6637147665E-001 -2.3134648800E-002 
8393727.159 +9.8309379816E-001 +3.3790171146E-003  +1.0339561413E-005 -1.5655585230E-005  +3.4065938962E-005 +6.0725619733E-006  +9.6938157082E-001 -1.9641071558E-002 
8518872.340 +9.8285490274E-001 -5.7786703110E-004  +3.4633725591E-005 -9.7040865512E-005  +1.0942574590E-004 -5.1995993999E-005  +9.6976828575E-001 -1.7413169146E-002 
8644017.522 +9.8008221388E-001 +5.3769350052E-003  -1.1773496226E-004 +2.7211965062E-005  -1.5755525965E-004 -8.4112078184E-005  +9.7093296051E-001 -1.5019118786E-002 
8769162.703 +9.8486793041E-001 +4.8393309116E-003  -1.4915921201E-004 +1.4290974650E-004  +5.1013084885E-006 +1.0890537669E-004  +9.6945285797E-001 -1.7695426941E-002 
8894307.885 +9.8455286026E-001 +5.6866705418E-003  +2.2959506168E-005 -1.0403299530E-004  -4.7415531299E-005 -1.6440961917E-004  +9.6974670887E-001 -1.8211096525E-002 
9019453.066 +9.8587399721E-001 +1.2912750244E-003  -1.3160411618E-004 +3.9591901441E-005  +1.1584769527E-004 -1.0683205619E-004  +9.6918773651E-001 -1.6789734364E-002 
9144598.248 +9.8640501499E-001 +1.2660026550E-003  -1.2732257892E-004 -1.3726175530E-004  +7.6492673543E-005 +1.4596083201E-004  +9.7147190571E-001 -1.1212557554E-002 
9269743.429 +9.8624104261E-001 +5.7589411736E-003  -2.2373920365E-004 +1.3400099124E-004  +5.1790411817E-005 +1.4515368093E-005  +9.7324866056E-001 -1.0723173618E-002 
9394888.611 +9.8481631279E-001 +7.5649023056E-003  -8.6375992396E-005 +2.5988229027E-006  -1.5648614499E-004 +1.7961137928E-005  +9.7180169821E-001 -1.1497944593E-002 
9520033.792 +9.8732972145E-001 +3.5565495491E-003  +7.8093762568E-006 +1.0070022108E-004  +1.2802327547E-005 -1.0469178960E-004  +9.7122800350E-001 -8.7627172470E-003 
9645178.974 +9.8785412312E-001 +6.0604512691E-003  -4.5019256504E-005 -5.0280119467E-005  +1.0838954040E-005 +5.2740935644E-005  +9.7134143114E-001 -8.3867311478E-003 
9770324.155 +9.8640221357E-001 +8.0141425133E-003  +3.5238710552E-005 -6.5201696998E-005  -3.7668411096E-005 +1.3457334717E-004  +9.6759223938E-001 -6.3543319702E-003 
9895469.337 +9.8864895105E-001 +1.0292232037E-002  -2.3663034881E-005 +2.0944968128E-005  +3.3090796933E-005 +4.7526496928E-005  +9.6956419945E-001 -3.5691857338E-003 
10020614.518 +9.8708009720E-001 +9.7993910313E-003  +1.9116967451E-005 +1.0359159205E-004  +5.3410178225E-005 +1.3164739357E-004  +9.7287988663E-001 -2.5027692318E-003 
10145759.700 +9.8941808939E-001 +7.3861181736E-003  -1.4429642761E-004 +6.5175096097E-005  +2.2878663003E-005 +7.1600821684E-005  +9.7243368626E-001 -4.9251019955E-003 
10270904.881 +9.8949241638E-001 +6.0831308365E-003  -7.9203680798E-005 +5.7109034969E-005  -5.3756270063E-005 +7.1052199928E-005  +9.7434139252E-001 -2.1064281464E-003 
10396050.063 +9.8791980743E-001 +6.7794919014E-003  +7.3270261055E-005 +4.5978424168E-005  -1.5249883290E-005 +1.4908894082E-004  +9.7304236889E-001 -2.9002428055E-003 
10521195.244 +9.8997503519E-001 +8.8877975941E-003  -7.1591435699E-005 +2.5945604648E-005  -1.0690760973E-004 +1.2332144252E-004  +9.7606444359E-001 -2.4798214436E-003 
10646340.426 +9.8862904310E-001 +6.4595639706E-003  -1.9479932962E-004 +1.2261353550E-004  +1.1278276361E-005 +9.2649788712E-005  +9.7315239906E-001 +6.4677000046E-004 
10771485.607 +9.8879069090E-001 +7.6480805874E-003  -1.2673794117E-004 +7.2759699833E-005  -6.0693564592E-005 +1.6518044868E-004  +9.7619664669E-001 +4.4551491737E-004 
10896630.788 +9.8780751228E-001 +8.2242488861E-003  -4.5391803724E-005 +2.6637120754E-005  -1.0385944915E-004 +2.0440772641E-004  +9.7546356916E-001 +3.4966468811E-003 
11021775.970 +9.8824203014E-001 +7.8991651535E-003  +1.4462399122E-005 +1.4371011639E-004  +9.0323046606E-006 +2.5764271413E-005  +9.7644317150E-001 +2.6921629906E-003 
11146921.151 +9.8817634583E-001 +4.8408508301E-003  +4.7297227866E-005 +1.4715574798E-004  -1.2173503819E-005 +3.2018466300E-005  +9.7743380070E-001 +2.6733577251E-003 
11272066.333 +9.8623126745E-001 +6.3907504082E-003  -6.7555229180E-005 +1.2541770411E-004  -4.5527809561E-005 +5.9553323808E-005  +9.7533333302E-001 +2.9750764370E-003 
11397211.514 +9.8919111490E-001 +7.3120296001E-003  +4.4277105189E-005 +1.1824793546E-005  +1.4078723325E-005 +5.4854874179E-005  +9.7767269611E-001 +4.3367445469E-003 
11522356.696 +9.8908579350E-001 +6.6018402576E-003  -8.7553184130E-005 +1.1171753431E-004  -1.0151758943E-005 -2.3460481316E-005  +9.7836065292E-001 +3.4733414650E-003 
11647501.877 +9.8785960674E-001 +6.8626105785E-003  -4.3479114538E-005 +7.0840600529E-005  -5.0267866754E-005 -2.7428581234E-005  +9.7726923227E-001 +5.2371621132E-003 
11772647.059 +9.8958122730E-001 +7.2203278542E-003  -2.9830620406E-005 +4.4208587497E-005  +6.2204046117E-005 +9.7672404081E-005  +9.7844779491E-001 +3.2573640347E-003 
11897792.240 +9.8838531971E-001 +6.9248080254E-003  +6.3668863731E-005 +2.4090533771E-005  +2.1178155293E-005 +4.6925404604E-005  +9.7831463814E-001 +4.4032633305E-003 
12022937.422 +9.8908942938E-001 +7.2963535786E-003  -4.0358972910E-006 +6.9842964876E-005  -3.4490894905E-006 +6.9545116276E-005  +9.7911226749E-001 +4.1694939137E-003 
12148082.603 +9.8989355564E-001 +7.3233246803E-003  +1.0999292499E-005 +9.4385926786E-005  +4.2470390326E-005 +6.2212755438E-005  +9.8038965464E-001 +5.1490068436E-003 
12273227.785 +9.8977094889E-001 +8.6673796177E-003  -3.1856972782E-005 +1.2349353347E-004  -3.7671408791E-005 +7.3012357461E-005  +9.8128455877E-001 +5.3271949291E-003 
12398372.966 +9.8942136765E-001 +7.7081620693E-003  +7.7915028669E-006 +3.3057272958E-005  +5.4422489484E-005 +1.2714544937E-005  +9.8156684637E-001 +5.4219663143E-003 
12523518.148 +9.8922431469E-001 +8.6334049702E-003  +2.0098283130E-005 +8.1831378338E-005  -2.9753309718E-006 +5.5629825511E-005  +9.7957319021E-001 +5.0277411938E-003 
12648663.329 +9.8905724287E-001 +9.3461871147E-003  -5.6935623434E-006 +8.6131432909E-005  +2.6315130526E-005 +6.1036575062E-005  +9.8184478283E-001 +6.2562823296E-003 
12773808.511 +9.8974508047E-001 +7.2991251945E-003  -3.7981990317E-006 +9.8593562143E-005  -2.5613413527E-005 +9.2436428531E-005  +9.8236221075E-001 +5.7510882616E-003 
12898953.692 +9.8991709948E-001 +7.5961798429E-003  +1.7346608729E-005 +1.2649380369E-004  +1.6484609660E-005 +1.5692126908E-005  +9.8340648413E-001 +5.9513896704E-003 
13024098.874 +9.9107336998E-001 +8.6787119508E-003  -7.0659434641E-006 +9.2456109996E-005  -2.4526954803E-005 +1.1005191482E-004  +9.8352164030E-001 +6.8127065897E-003 
13149244.055 +9.9047809839E-001 +8.4743518382E-003  -2.7899936867E-006 +8.8251515990E-005  +6.4136438596E-006 +1.1816786719E-004  +9.8326784372E-001 +7.4569135904E-003 
13274389.237 +9.9093145132E-001 +7.7548865229E-003  -3.1293100164E-006 +8.7365973741E-005  -1.6711093849E-005 +5.7574594393E-005  +9.8463457823E-001 +7.7148471028E-003 
13399534.418 +9.9079388380E-001 +7.9819038510E-003  -6.2715203967E-005 +5.6575510825E-005  -9.9700837382E-006 +8.7403997895E-005  +9.8408812284E-001 +9.0618133545E-003 
13524679.599 +9.9095636606E-001 +8.7078139186E-003  -2.8715705412E-005 +1.2633878214E-004  -5.5316129874E-005 +8.6336993263E-005  +9.8483622074E-001 +9.1820955276E-003 
13649824.781 +9.9238330126E-001 +8.2577019930E-003  +2.2863214326E-005 +7.9076911788E-005  +6.5863096097E-006 +1.1375774193E-004  +9.8544919491E-001 +7.5706839561E-003 
13774969.962 +9.9128359556E-001 +7.8288763762E-003  -2.5320863642E-005 +1.3194642088E-004  +1.4030318198E-005 +1.1352576257E-004  +9.8536998034E-001 +7.1237981319E-003 
13900115.144 +9.9227148294E-001 +7.6876282692E-003  +2.1725754777E-005 +9.8094176792E-005  -1.8406051822E-005 +1.1410865409E-004  +9.8474454880E-001 +8.3648562431E-003 
14025260.325 +9.9125206470E-001 +8.2212388515E-003  -7.1909817052E-006 +1.3452344865E-004  +1.8612854547E-005 +7.7346499893E-005  +9.8624759912E-001 +7.8009665012E-003 
14150405.507 +9.9156880379E-001 +8.9904367924E-003  -2.0586641767E-005 +1.2781075202E-004  +8.6241561803E-007 +1.0383555491E-004  +9.8572242260E-001 +8.4950327873E-003 
14275550.688 +9.9217754602E-001 +7.8772306442E-003  +1.5381698176E-005 +9.1908703325E-005  +1.6709444026E-005 +7.6683689258E-005  +9.8628127575E-001 +7.9551637173E-003 
14400695.870 +9.9104356766E-001 +7.7031254768E-003  -7.3013397923E-006 +9.7548356280E-005  +4.1259409045E-007 +1.1936747615E-004  +9.8705244064E-001 +9.0005695820E-003 
