!  2-Port S-parameters saved by WinCal
! VAR MeasName=S-Parameters (CALIBRATED_DATA) read from VNA (P5004A)
! VAR MeasDate=22/05/2024 18:53:29
! VAR NAME=Wafer2_r2_c1_formed_neg1.2dc
! VAR FILENAME=Wafer2_r2_c1_formed_neg1.2dc.S2P
! VAR DATE=22/05/2024 18:53:29
! VAR PHYS_PORTS=1,2
! VAR ObjTypeName=DATASET
! VAR IndexType=Frequency
!
# Hz S RI R 50
9000.000 +2.1907472610E-001 -6.0169374943E-001  -3.7677614018E-003 -1.1191601865E-002  -1.5011813957E-004 +3.7747115130E-004  +4.2926646769E-002 +9.7962424159E-002 
134145.181 +6.1007797718E-001 -7.6746910810E-002  +9.1256108135E-003 +2.1824524738E-003  +2.8103091754E-003 +1.1028485373E-002  +1.8997618556E-001 -3.7208163738E-001 
259290.363 +8.1641119719E-001 -1.4681489766E-001  -1.0781790130E-002 -2.1266438067E-002  -5.8798585087E-005 -2.1765786223E-003  +9.6941107512E-001 -9.6740895510E-001 
384435.544 +8.8987290859E-001 -3.1183284521E-001  -9.0862484649E-003 +1.0877340101E-002  -1.1155000888E-002 -1.0018336587E-002  +6.5148568153E-001 -3.1797149181E+000 
509580.726 +9.4945430756E-001 -1.6365444660E-001  -1.7646203050E-003 +3.2432537992E-003  -1.9935523160E-003 +1.4435923658E-003  +1.8119707108E+000 -4.3468528986E-001 
634725.907 +1.0922607183E+000 -2.1060611308E-001  -6.6768117249E-003 +8.6476784199E-003  +9.8660886288E-003 +7.6523344032E-003  +3.4161350727E+000 +1.1479171515E+000 
759871.089 +1.2776260376E+000 -4.6291649342E-002  +9.9601317197E-004 +7.2228908539E-004  +8.8890563347E-005 -4.3592353904E-005  +1.4580343962E+000 +3.6618131399E-001 
885016.270 +1.1304636002E+000 -4.2780199647E-001  -1.2146148365E-003 -4.2399798986E-005  +4.2239949107E-004 -1.4823883539E-003  +1.2186648846E+000 +4.8084184527E-001 
1010161.452 +1.2179292440E+000 -9.1583192348E-002  -6.0065166326E-004 -1.7362997460E-004  +1.0128901340E-004 -9.5902803878E-005  +1.1915156841E+000 +4.8750180006E-001 
1135306.633 +1.3218119144E+000 -1.1519181728E-001  -1.5349080786E-003 -1.9715027884E-004  +2.0828504057E-004 -1.1569049093E-004  +1.3025271893E+000 +6.0636836290E-001 
1260451.815 +1.5437867641E+000 -8.5711359978E-002  +8.0865295604E-004 -2.7735368349E-005  -8.1608770415E-004 +3.7668299046E-004  +1.1013920307E+000 +7.0346313715E-001 
1385596.996 +1.3817574978E+000 -1.1890250444E-001  -7.2396062023E-005 +1.9426119979E-004  +1.4797896438E-004 +3.1651239260E-004  +9.8535621166E-001 +4.8383074999E-001 
1510742.178 +1.6152615547E+000 -1.5590447187E-001  -1.3740548457E-004 +1.3207894517E-004  -2.0618726558E-004 +3.6273457226E-004  +6.7839479446E-001 +5.7377701998E-001 
1635887.359 +1.1282134056E+000 -3.7293392420E-001  +2.0019416115E-004 +2.7665920788E-004  -7.1877417213E-005 +3.1981206848E-004  +1.5212446451E+000 +6.3031959534E-001 
1761032.541 +1.2900695801E+000 -3.2132196426E-001  -2.3888162104E-005 +3.6039151018E-004  +1.5432204236E-004 +1.2125595822E-004  +1.1047623158E+000 +8.2767921686E-001 
1886177.722 +1.2210705280E+000 -2.4543341994E-001  -2.8142510564E-004 +1.7589278286E-004  +1.1064817954E-004 +4.1683120071E-004  +1.1452447176E+000 +5.5929404497E-001 
2011322.904 +1.2026726007E+000 -2.4205708504E-001  -1.5593360877E-004 +3.7522363709E-004  -3.3393298509E-004 +3.1354994280E-004  +1.1581960917E+000 +5.2660071850E-001 
2136468.085 +1.2037888765E+000 -1.8913486600E-001  -3.5557692172E-004 +4.8269436229E-004  -1.5501071175E-004 +1.9328118651E-004  +1.0964684486E+000 +4.7720801830E-001 
2261613.267 +1.2248713970E+000 -1.8492829800E-001  -2.5628443109E-004 +4.7073126188E-004  -2.7534391847E-004 +3.8366306399E-005  +1.0533070564E+000 +5.1615470648E-001 
2386758.448 +1.2263923883E+000 -1.9824936986E-001  -1.7752822896E-004 +7.0490676444E-004  -3.7904959754E-004 +5.8461172739E-004  +1.0717228651E+000 +5.4464715719E-001 
2511903.630 +1.2408257723E+000 -2.2703048587E-001  -4.0534633445E-004 +6.2737712869E-004  -4.9373897491E-004 +6.2896817690E-004  +1.1138188839E+000 +5.8091098070E-001 
2637048.811 +1.2019910812E+000 -2.5195845962E-001  -8.5153838154E-004 +3.8336607395E-004  -2.5748857297E-004 +4.9651146401E-004  +1.1211798191E+000 +6.1048150063E-001 
2762193.992 +1.1415712833E+000 -1.6691735387E-001  -6.6795473685E-004 +1.2785912259E-003  -7.8164570732E-004 +9.7849010490E-004  +1.1363620758E+000 +5.1712459326E-001 
2887339.174 +1.1888340712E+000 -1.3277372718E-001  -8.1560091348E-004 -4.3221423402E-004  -3.9405527059E-004 +6.4237380866E-004  +1.0006067753E+000 +5.0763320923E-001 
3012484.355 +1.2268134356E+000 -1.2931025028E-001  -8.7676802650E-004 +1.0306424228E-003  -4.0981944767E-004 +6.5092800651E-004  +9.4740915298E-001 +6.1531132460E-001 
3137629.537 +1.2321103811E+000 -1.2231433392E-001  -9.9846557714E-004 +1.2317942455E-003  -5.2394857630E-004 +4.5545658213E-004  +9.6957069635E-001 +7.2376859188E-001 
3262774.718 +1.2419414520E+000 -1.4252001047E-001  -7.3236384196E-004 +1.0229676263E-003  -5.1860371605E-004 +1.0927519761E-003  +1.0178941488E+000 +7.8750419617E-001 
3387919.900 +1.2471611500E+000 -1.6442364454E-001  -1.1014027987E-003 +1.6005054349E-003  -7.1176694473E-004 +1.1990139028E-003  +1.0605117083E+000 +8.5621112585E-001 
3513065.081 +1.2662640810E+000 -1.8793421984E-001  -1.0125844274E-003 +1.7761494964E-003  -1.3004252687E-003 +1.5010291245E-003  +1.0926936865E+000 +9.3549412489E-001 
3638210.263 +1.2817959785E+000 -1.8922376633E-001  -1.3755852124E-003 +1.0385743808E-003  -1.2508954387E-003 +1.4474268537E-003  +1.1876424551E+000 +9.7460860014E-001 
3763355.444 +1.2869488001E+000 -2.2530567646E-001  -4.8380385851E-004 +1.6608845908E-003  -9.9229393527E-004 +8.6394598475E-004  +1.2855215073E+000 +1.0116655827E+000 
3888500.626 +1.2956947088E+000 -2.7576714754E-001  -1.4312893618E-003 +1.4086591545E-003  -8.6006580386E-004 +1.0145768756E-003  +1.3709701300E+000 +1.0799261332E+000 
4013645.807 +1.1011741161E+000 -4.0329521894E-001  -6.2885868829E-004 +1.9949972630E-003  -1.3700133422E-003 +2.5932500139E-003  +1.6558682919E+000 +8.6861151457E-001 
4138790.989 +8.8280355930E-001 -4.2330420017E-001  -2.0520310500E-004 +2.3620836437E-003  -5.8884982718E-004 +2.0785278175E-003  +1.8018218279E+000 +5.4457771778E-001 
4263936.170 +8.5569649935E-001 -4.2784047127E-001  -3.0327285640E-004 +1.5127678635E-003  +1.8779974198E-004 +2.4395529181E-003  +1.8474348783E+000 +4.3988901377E-001 
4389081.352 +8.1290626526E-001 -4.2474508286E-001  -1.1935483781E-004 +2.2706626914E-003  -4.0959945181E-005 +2.1166137885E-003  +1.9028111696E+000 +3.0588144064E-001 
4514226.533 +7.7918934822E-001 -4.2905086279E-001  +7.6433341019E-004 +2.9334726278E-003  +9.7322952934E-004 +2.1070530638E-003  +1.9227064848E+000 +2.1489065886E-001 
4639371.715 +7.5737166405E-001 -4.0939214826E-001  -1.7675315030E-004 +3.2515765633E-003  +3.1764924643E-004 +2.3800393101E-003  +1.9229816198E+000 +1.3281819224E-001 
4764516.896 +7.1707791090E-001 -3.7860995531E-001  +5.7828682475E-004 +3.1503301580E-003  -7.0131383836E-005 +3.4158702474E-003  +1.9254590273E+000 +3.3578604460E-002 
4889662.078 +6.9535648823E-001 -3.6102405190E-001  +1.1572053190E-003 +3.2474116888E-003  +6.5667042509E-004 +3.2704344485E-003  +1.9305013418E+000 -4.1134104133E-002 
5014807.259 +6.6083604097E-001 -3.3838975430E-001  +6.2510115094E-004 +2.7225459926E-003  +4.1864876403E-004 +2.9851491563E-003  +1.8798121214E+000 -1.0976201296E-001 
5139952.441 +6.5198147297E-001 -3.1093668938E-001  +5.0032895524E-004 +2.5533444714E-003  +1.0634119099E-004 +3.0723863747E-003  +1.8601487875E+000 -2.0464594662E-001 
5265097.622 +6.2924128771E-001 -2.7854445577E-001  +9.5041387249E-004 +2.8794680256E-003  +7.2716816794E-004 +2.7860407718E-003  +1.8009116650E+000 -2.6381975412E-001 
5390242.804 +6.1393195391E-001 -2.5237131119E-001  +1.5262098168E-004 +3.2572469208E-003  +4.6593352454E-004 +3.1594405882E-003  +1.7540729046E+000 -3.1755784154E-001 
5515387.985 +5.9440904856E-001 -2.2621509433E-001  +4.9300689716E-004 +2.5824559852E-003  +4.2649279931E-004 +2.4595574941E-003  +1.7094554901E+000 -3.8676860929E-001 
5640533.166 +5.8814507723E-001 -1.9705179334E-001  +5.9708394110E-004 +3.0208199751E-003  +4.6812751680E-004 +2.8921957128E-003  +1.6863219738E+000 -4.3695566058E-001 
5765678.348 +5.7441323996E-001 -1.6884532571E-001  +5.0350930542E-004 +2.7331884485E-003  +6.0654291883E-004 +2.6845564134E-003  +1.6216034889E+000 -4.6880212426E-001 
5890823.529 +5.7095944881E-001 -1.4043900371E-001  +4.1365920333E-004 +2.7535194531E-003  +7.2895659832E-004 +2.8590632137E-003  +1.5476135015E+000 -4.9838179350E-001 
6015968.711 +5.5945330858E-001 -1.0857345909E-001  +2.5400085724E-004 +3.1299511902E-003  +5.0727016060E-004 +2.8752840590E-003  +1.5095698833E+000 -5.1089018583E-001 
6141113.892 +5.6491291523E-001 -7.3043815792E-002  +7.0681946818E-004 +2.5142545346E-003  +5.9084926033E-004 +2.8744088486E-003  +1.4595557451E+000 -5.2951818705E-001 
6266259.074 +5.6208407879E-001 -4.6950280666E-002  +4.5635260176E-004 +2.8512352146E-003  +5.6123564718E-004 +2.8850333765E-003  +1.3973194361E+000 -5.3324693441E-001 
6391404.255 +5.6705707312E-001 -1.6311932355E-002  +5.3446443053E-004 +2.9568921309E-003  +5.6174490601E-004 +2.6147114113E-003  +1.3454983234E+000 -5.5351877213E-001 
6516549.437 +5.7173305750E-001 +1.9602099434E-002  +3.6119745346E-004 +3.0252225697E-003  +7.6822718256E-005 +2.9878744390E-003  +1.3036165237E+000 -5.5314254761E-001 
6641694.618 +5.8124715090E-001 +4.5781921595E-002  +6.0737197055E-004 +2.9449306894E-003  +4.9519143067E-004 +2.6334829163E-003  +1.2661957741E+000 -5.5951547623E-001 
6766839.800 +5.9101873636E-001 +7.5948223472E-002  +3.7187719136E-004 +2.8966022655E-003  +3.4421091550E-004 +3.2853141893E-003  +1.2238907814E+000 -5.6063550711E-001 
6891984.981 +5.9719401598E-001 +1.0055217892E-001  +2.8092385037E-004 +2.9832269065E-003  +1.1617703422E-004 +2.7382734697E-003  +1.1691030264E+000 -5.4872512817E-001 
7017130.163 +6.0818779469E-001 +1.2425662577E-001  +3.6704834201E-004 +2.9045722913E-003  +3.7566508399E-004 +3.1221092213E-003  +1.1415622234E+000 -5.3929919004E-001 
7142275.344 +6.1537712812E-001 +1.5210005641E-001  +1.3953793678E-004 +3.3125374466E-003  +4.0552689461E-004 +3.1247588340E-003  +1.1130228043E+000 -5.2885621786E-001 
7267420.526 +6.3110393286E-001 +1.8040232360E-001  +2.0578806289E-004 +3.2825658564E-003  -1.6693216457E-004 +3.3568658400E-003  +1.0815339088E+000 -5.2217388153E-001 
7392565.707 +6.4833992720E-001 +2.0493099093E-001  +2.4053212837E-004 +2.7500682045E-003  +3.0875767698E-004 +3.0150068924E-003  +1.0529279709E+000 -5.1532763243E-001 
7517710.889 +6.6683769226E-001 +2.1845236421E-001  +2.2419347079E-004 +3.1988336705E-003  +3.1278634560E-004 +3.2929249573E-003  +1.0187845230E+000 -5.0482302904E-001 
7642856.070 +6.8167567253E-001 +2.4511018395E-001  +2.0645587938E-004 +3.4935453441E-003  +2.9814010486E-004 +3.1950860284E-003  +9.8889249563E-001 -4.9156069756E-001 
7768001.252 +7.0436477661E-001 +2.6568555832E-001  +2.0623049932E-004 +3.3169349190E-003  +1.7143413424E-004 +3.5234754905E-003  +9.6366739273E-001 -4.7752648592E-001 
7893146.433 +7.2687894106E-001 +2.8263545036E-001  +1.1851137970E-004 +3.4350866918E-003  +6.2379986048E-006 +3.2098996453E-003  +9.4024372101E-001 -4.6249440312E-001 
8018291.615 +7.4992722273E-001 +2.9815930128E-001  +5.9038808104E-005 +3.3389022574E-003  +1.0312499944E-004 +3.3887203317E-003  +9.1567146778E-001 -4.4488394260E-001 
8143436.796 +7.7278453112E-001 +3.1128379703E-001  +1.0631664190E-004 +3.3634458669E-003  -4.7230103519E-005 +3.6225570366E-003  +8.9978945255E-001 -4.2702576518E-001 
8268581.977 +7.9555207491E-001 +3.2758793235E-001  +2.3604021408E-005 +3.6253160797E-003  +3.1469296664E-004 +3.3499200363E-003  +8.7827539444E-001 -4.1013291478E-001 
8393727.159 +8.2359224558E-001 +3.3587801456E-001  -7.4276700616E-005 +3.5657223780E-003  -6.1788770836E-005 +3.7469104864E-003  +8.6042833328E-001 -3.9528805017E-001 
8518872.340 +8.5452008247E-001 +3.4722924232E-001  -3.5728386138E-005 +3.7650447339E-003  +8.7566324510E-005 +3.9109108038E-003  +8.4313017130E-001 -3.7850105762E-001 
8644017.522 +8.7759143114E-001 +3.5551857948E-001  -1.3683608267E-004 +3.6434445065E-003  -5.0104339607E-005 +3.8662096485E-003  +8.3213818073E-001 -3.6682191491E-001 
8769162.703 +9.0910112858E-001 +3.6185061932E-001  -2.6767747477E-004 +3.8605602458E-003  -7.0392503403E-005 +3.9189411327E-003  +8.1980055571E-001 -3.4665408731E-001 
8894307.885 +9.3538278341E-001 +3.5826790333E-001  -4.4347188668E-004 +3.8439552300E-003  -1.6492290888E-004 +4.1144224815E-003  +8.0164164305E-001 -3.3400094509E-001 
9019453.066 +9.6201235056E-001 +3.5554292798E-001  -2.0535080694E-004 +4.1098995134E-003  -9.8833930679E-005 +4.0843989700E-003  +7.8842675686E-001 -3.1892627478E-001 
9144598.248 +9.9158120155E-001 +3.5402765870E-001  -2.3046403658E-004 +4.1114222258E-003  -7.1016489528E-005 +4.1754902340E-003  +7.7705180645E-001 -3.0050927401E-001 
9269743.429 +1.0194102526E+000 +3.5080373287E-001  -1.9035732839E-004 +4.3207718991E-003  -4.3855630793E-005 +4.3171537109E-003  +7.7079057693E-001 -2.8472009301E-001 
9394888.611 +1.0445481539E+000 +3.4848651290E-001  -1.9746483304E-004 +4.3426053599E-003  -1.9219564274E-004 +4.3236101046E-003  +7.5795102119E-001 -2.6886761189E-001 
9520033.792 +1.0727858543E+000 +3.3615362644E-001  -1.2808223255E-004 +4.4202730060E-003  -2.8071284760E-004 +4.2871264741E-003  +7.5147128105E-001 -2.4668461084E-001 
9645178.974 +1.0976488590E+000 +3.2801273465E-001  -2.3716909345E-004 +4.4465074316E-003  -2.3657991551E-004 +4.5534372330E-003  +7.4359393120E-001 -2.3314505816E-001 
9770324.155 +1.1175847054E+000 +3.1254771352E-001  -2.2340356372E-004 +4.6364334412E-003  -2.3550423793E-004 +4.4845831580E-003  +7.3477470875E-001 -2.1431881189E-001 
9895469.337 +1.1404608488E+000 +3.0084243417E-001  -3.2483111136E-004 +4.6693026088E-003  -2.3432914168E-004 +4.6482537873E-003  +7.2793453932E-001 -1.9800978899E-001 
10020614.518 +1.1578267813E+000 +2.8486037254E-001  -2.1789385937E-004 +4.7004413791E-003  -1.3242452405E-004 +4.6956106089E-003  +7.2515082359E-001 -1.8041968346E-001 
10145759.700 +1.1770844460E+000 +2.6587593555E-001  -1.4500529505E-004 +4.7980602831E-003  -1.4274823479E-004 +4.8391399905E-003  +7.2355419397E-001 -1.6547909379E-001 
10270904.881 +1.1970397234E+000 +2.4193885922E-001  -1.2782658450E-004 +4.9211173318E-003  -2.0439201035E-004 +5.0006080419E-003  +7.2040915489E-001 -1.4913856983E-001 
10396050.063 +1.2076514959E+000 +2.2528454661E-001  -1.3518799096E-004 +4.9352431670E-003  -3.5280827433E-005 +5.0363596529E-003  +7.1659839153E-001 -1.3233718276E-001 
10521195.244 +1.2202374935E+000 +2.0563212037E-001  -9.9120428786E-005 +5.1339161582E-003  -4.6872999519E-005 +5.1050987095E-003  +7.1638190746E-001 -1.1664706469E-001 
10646340.426 +1.2293722630E+000 +1.8578726053E-001  -2.0960252732E-004 +5.0778128207E-003  -5.7913362980E-005 +5.1415865310E-003  +7.1594858170E-001 -9.8769307137E-002 
10771485.607 +1.2372348309E+000 +1.6362619400E-001  -2.2290879861E-004 +5.2747400478E-003  -1.6656448133E-004 +5.2249729633E-003  +7.1452879906E-001 -8.2759976387E-002 
10896630.788 +1.2437677383E+000 +1.4475601912E-001  -8.9091714472E-005 +5.2903620526E-003  -7.8965909779E-005 +5.3392862901E-003  +7.1631717682E-001 -6.6285640001E-002 
11021775.970 +1.2449004650E+000 +1.2318605185E-001  -1.6395864077E-004 +5.3049400449E-003  -1.3764156029E-004 +5.3447941318E-003  +7.1683734655E-001 -5.2724570036E-002 
11146921.151 +1.2484591007E+000 +1.0103154182E-001  -1.2102234177E-004 +5.3854221478E-003  -8.0551253632E-005 +5.4357363842E-003  +7.1814846992E-001 -3.8597851992E-002 
11272066.333 +1.2475221157E+000 +8.0054759979E-002  -1.5663518570E-004 +5.4482631385E-003  -6.1082653701E-005 +5.4482580163E-003  +7.2042608261E-001 -2.3278653622E-002 
11397211.514 +1.2491302490E+000 +6.3532292843E-002  -1.8365867436E-004 +5.5836318061E-003  -1.2848363258E-004 +5.5830031633E-003  +7.2288531065E-001 -9.7166299820E-003 
11522356.696 +1.2460445166E+000 +4.3863654137E-002  -3.0650524423E-005 +5.5913934484E-003  -6.0700811446E-005 +5.6390143000E-003  +7.2685992718E-001 +5.1843822002E-003 
11647501.877 +1.2405273914E+000 +2.8024613857E-002  -1.0520778596E-004 +5.6658983231E-003  -1.1767726392E-004 +5.6840092875E-003  +7.2920531034E-001 +1.8218815327E-002 
11772647.059 +1.2382607460E+000 +1.1915385723E-002  -1.0364688933E-004 +5.7921279222E-003  +3.7816353142E-006 +5.7474439964E-003  +7.3522424698E-001 +3.0405849218E-002 
11897792.240 +1.2325991392E+000 -5.3537487984E-003  -9.8262680694E-005 +5.8398842812E-003  -1.1726748198E-004 +5.8332793415E-003  +7.4069422483E-001 +4.3720334768E-002 
12022937.422 +1.2281236649E+000 -1.8407911062E-002  -7.6741212979E-005 +5.8739273809E-003  -4.1973078623E-005 +5.9234532528E-003  +7.4617165327E-001 +5.6970447302E-002 
12148082.603 +1.2203011513E+000 -3.2568961382E-002  -5.4103089496E-005 +5.9883468784E-003  -8.8403467089E-006 +5.9331976809E-003  +7.5413846970E-001 +6.9952577353E-002 
12273227.785 +1.2128096819E+000 -4.4764369726E-002  -7.2845257819E-005 +6.0189520009E-003  -4.0121376514E-005 +5.9781284072E-003  +7.6087558270E-001 +8.2146123052E-002 
12398372.966 +1.2043839693E+000 -5.6011438370E-002  -5.4778880440E-005 +6.1047011986E-003  -1.9281986170E-005 +6.1220475473E-003  +7.6907986403E-001 +9.4210609794E-002 
12523518.148 +1.1942609549E+000 -6.7392811179E-002  -1.6140553635E-004 +6.1526144855E-003  -5.2516930737E-005 +6.1918674037E-003  +7.7597135305E-001 +1.0400663316E-001 
12648663.329 +1.1873769760E+000 -7.5736820698E-002  -6.9076195359E-005 +6.2442375347E-003  -3.4770928323E-006 +6.2547484413E-003  +7.8470319510E-001 +1.1553895473E-001 
12773808.511 +1.1776441336E+000 -8.7896533310E-002  -5.3289113566E-006 +6.2770838849E-003  -3.2259849831E-006 +6.3445898704E-003  +7.9430150986E-001 +1.2535160780E-001 
12898953.692 +1.1685845852E+000 -9.6603363752E-002  -5.2614021115E-005 +6.3611390069E-003  +1.2424890883E-005 +6.3359462656E-003  +8.0371087790E-001 +1.3359883428E-001 
13024098.874 +1.1577411890E+000 -1.0353410244E-001  -7.5892603491E-006 +6.3986796886E-003  -1.9164173864E-005 +6.3762166537E-003  +8.1336683035E-001 +1.4361743629E-001 
13149244.055 +1.1484919786E+000 -1.0907461494E-001  -3.0796814826E-005 +6.4765913412E-003  +1.6465375666E-005 +6.4840433188E-003  +8.2409965992E-001 +1.5174163878E-001 
13274389.237 +1.1376162767E+000 -1.1652528495E-001  +2.3265049094E-005 +6.5405745991E-003  +2.5547749829E-005 +6.5465401858E-003  +8.3628934622E-001 +1.6015565395E-001 
13399534.418 +1.1286388636E+000 -1.2088039517E-001  -8.0305617303E-006 +6.5985098481E-003  +4.9851892982E-005 +6.5833870322E-003  +8.4566617012E-001 +1.6763319075E-001 
13524679.599 +1.1180717945E+000 -1.2450997531E-001  -3.2695825212E-005 +6.6844155081E-003  +1.4724151697E-005 +6.7328345031E-003  +8.5773503780E-001 +1.7410942912E-001 
13649824.781 +1.1090916395E+000 -1.2927420437E-001  +3.6316923797E-006 +6.7727314308E-003  +7.2821858339E-005 +6.7949658260E-003  +8.6973726749E-001 +1.7891719937E-001 
13774969.962 +1.0994079113E+000 -1.3188728690E-001  +5.8949575759E-005 +6.7933504470E-003  +9.8247081041E-005 +6.8483045325E-003  +8.8105291128E-001 +1.8397565186E-001 
13900115.144 +1.0906064510E+000 -1.3421332836E-001  +2.3919856176E-005 +6.9244154729E-003  +1.0597473010E-004 +6.9362767972E-003  +8.9374959469E-001 +1.8928673863E-001 
14025260.325 +1.0811353922E+000 -1.3590648770E-001  +3.0108261853E-005 +6.9917454384E-003  +5.4600648582E-005 +6.9894609042E-003  +9.0608525276E-001 +1.9258660078E-001 
14150405.507 +1.0728449821E+000 -1.3636279106E-001  +3.2979296520E-005 +7.0568411611E-003  +8.0163357779E-005 +7.0380987599E-003  +9.1845840216E-001 +1.9499625266E-001 
14275550.688 +1.0638918877E+000 -1.3801568747E-001  +6.6314591095E-005 +7.1469862014E-003  +7.9598510638E-005 +7.1380599402E-003  +9.3111628294E-001 +1.9678531587E-001 
14400695.870 +1.0539857149E+000 -1.3844430447E-001  +8.9294277132E-005 +7.1604815312E-003  +1.4414498582E-004 +7.1743894368E-003  +9.4285154343E-001 +1.9870996475E-001 
