!  2-Port S-parameters saved by WinCal
! VAR NAME=Wafer2_r2_c1_pristine_pos0.2dc
! VAR DATE=22/05/2024 17:49:56
! VAR FILENAME=Wafer2_r2_c1_pristine_pos0.2dc.S2P
! VAR MeasName=S-Parameters (CALIBRATED_DATA) read from VNA (P5004A)
! VAR MeasDate=22/05/2024 17:47:23
! VAR PHYS_PORTS=1,2
! VAR ObjTypeName=DATASET
! VAR IndexType=Frequency
!
# Hz S RI R 50
9000.000 +2.2773130238E-001 -5.7258379459E-001  -2.4686870165E-003 -1.6362734139E-002  -2.2038114257E-003 -1.4056120999E-003  +5.6394010782E-002 +1.0130723566E-001 
134145.181 +6.5489268303E-001 -3.7109464407E-002  +4.2459797114E-003 -3.4565175883E-003  -1.6164552420E-002 +1.4906798489E-002  -4.7583207488E-001 -1.5078988671E-001 
259290.363 +8.3053171635E-001 -1.5392595530E-001  -2.2490888368E-003 -1.0927030817E-002  +4.4942968525E-003 +1.9702931866E-002  +1.2054429054E+000 -1.1381417513E+000 
384435.544 +8.8831013441E-001 -3.0834871531E-001  -8.9136660099E-003 +4.2694839649E-003  -1.7189988866E-003 +1.2104470283E-002  +3.7434985638E+000 -3.4354424477E-001 
509580.726 +9.5890915394E-001 -1.6605231166E-001  -8.6420791922E-004 -3.1447014771E-003  +2.1157565061E-004 +1.3372703688E-003  +1.7089235783E+000 -2.6379096508E-001 
634725.907 +1.0936262608E+000 -1.9675281644E-001  -4.7713653184E-003 -4.6643288806E-004  +2.8942329809E-003 +6.0229110532E-003  +2.2508656979E+000 +6.9081175327E-001 
759871.089 +1.2379076481E+000 -4.1496753693E-002  -2.9662379529E-004 +2.4735806510E-003  -5.6604796555E-004 -2.0041642711E-004  +1.4206857681E+000 +4.7537517548E-001 
885016.270 +1.1267187595E+000 -1.7447485030E-001  +1.5544297639E-005 -1.1617110576E-003  +6.0134247178E-005 +2.8170391452E-003  +1.1926453114E+000 +5.1053828001E-001 
1010161.452 +1.2626501322E+000 -7.0183888078E-002  +4.4179981342E-004 +1.1242227629E-003  -2.5095825549E-005 -9.5926615177E-004  +1.1810659170E+000 +5.0963127613E-001 
1135306.633 +1.3591541052E+000 -1.4128558338E-001  -9.7595003899E-004 +2.8213529731E-005  -5.9547153069E-004 +7.3603622150E-004  +1.3006497622E+000 +6.2062001228E-001 
1260451.815 +1.6733565331E+000 -1.4251011610E-001  +1.6087385302E-004 +1.0393187404E-004  +3.8344276254E-004 -3.4232935286E-004  +1.0942405462E+000 +7.1551769972E-001 
1385596.996 +1.4282238483E+000 -1.1335927248E-001  -5.6002107158E-005 +9.2266709544E-005  +2.3909815354E-006 -1.7165223835E-004  +9.8528504372E-001 +4.8584318161E-001 
1510742.178 +1.6936043501E+000 -1.0984325409E-001  -1.4898406516E-004 +7.0667563705E-005  -1.9107782282E-004 +2.7999683516E-004  +6.7741656303E-001 +5.7446730137E-001 
1635887.359 +1.1877225637E+000 -3.7940657139E-001  +9.7258001915E-005 +1.3766170014E-004  +2.9204085877E-005 +1.0348342039E-004  +1.5203733444E+000 +6.3164508343E-001 
1761032.541 +1.3641028404E+000 -2.7298930287E-001  -2.0328236860E-004 +1.2720905943E-004  +7.2003487730E-005 +1.9595095364E-004  +1.1035385132E+000 +8.2547205687E-001 
1886177.722 +1.3072786331E+000 -1.9226622581E-001  -2.1928918432E-004 +8.0661557149E-005  -2.6909649023E-004 +9.8268894362E-005  +1.1443597078E+000 +5.5819964409E-001 
2011322.904 +1.3039102554E+000 -1.8876165152E-001  -1.8982107576E-004 +1.9271069323E-004  -2.2641822579E-004 +2.5350524811E-004  +1.1573429108E+000 +5.2479767799E-001 
2136468.085 +1.3042185307E+000 -1.1199443042E-001  -6.1232611188E-005 +2.6349350810E-004  -8.5417843366E-005 +3.7741026608E-004  +1.0972006321E+000 +4.7564715147E-001 
2261613.267 +1.3403820992E+000 -9.2522844672E-002  -3.2144930447E-004 +3.9427445154E-004  -2.5349776843E-004 +3.6976378760E-004  +1.0540161133E+000 +5.1446455717E-001 
2386758.448 +1.3628432751E+000 -1.0263776779E-001  -2.0223901083E-004 +3.8635154488E-004  -2.5610456942E-004 +3.6747820559E-004  +1.0730452538E+000 +5.4302299023E-001 
2511903.630 +1.4233981371E+000 -1.1070007086E-001  -3.7017147406E-004 +4.7669222113E-004  -6.7737384234E-004 +3.0016474193E-004  +1.1181274652E+000 +5.7853025198E-001 
2637048.811 +1.4191881418E+000 -1.4441907406E-001  -7.8711687820E-004 +8.9572154684E-004  -4.8173902906E-004 +3.7725956645E-004  +1.1268544197E+000 +6.0652285814E-001 
2762193.992 +1.3687669039E+000 -1.0135143995E-001  -1.1540097184E-003 +9.5042272005E-004  -7.4016355211E-004 +7.6368357986E-004  +1.1436953545E+000 +5.0733661652E-001 
2887339.174 +1.4333817959E+000 -6.9338679314E-002  -3.8504370605E-004 +1.0984239634E-003  -4.6017571003E-004 +1.1191820959E-003  +1.0061064959E+000 +4.9604845047E-001 
3012484.355 +1.4914932251E+000 -5.2932679653E-002  -1.0008532554E-003 +1.2899307767E-003  -8.9475442655E-004 +7.1215524804E-004  +9.5258474350E-001 +6.0168391466E-001 
3137629.537 +1.5214025974E+000 -6.1937391758E-002  -2.3858604254E-004 +1.5698164934E-003  +2.2532243747E-005 +9.3888700940E-004  +9.7465813160E-001 +7.1327006817E-001 
3262774.718 +1.5526728630E+000 -8.6607813835E-002  -9.7681314219E-004 +1.2551270192E-003  -9.3871081481E-004 +5.4598838324E-004  +1.0211904049E+000 +7.7769058943E-001 
3387919.900 +1.5927709341E+000 -1.2166923285E-001  -1.4369444689E-003 +8.8296097238E-004  -7.7955145389E-004 +1.2025356991E-003  +1.0617175102E+000 +8.4686672688E-001 
3513065.081 +1.6657340527E+000 -1.7731583118E-001  -1.1171164224E-003 +1.2172063580E-003  -8.4124447312E-004 +8.9088786626E-004  +1.1009292603E+000 +9.2092293501E-001 
3638210.263 +1.7259883881E+000 -2.2551858425E-001  -7.6900812564E-004 +9.6731673693E-004  -1.0977617931E-003 +1.7234950792E-003  +1.1983649731E+000 +9.5729637146E-001 
3763355.444 +1.7531458139E+000 -2.9661393166E-001  -1.2716685887E-003 +1.0189433815E-003  -1.6135724727E-003 +1.8947462086E-003  +1.2951020002E+000 +9.9253064394E-001 
3888500.626 +1.8335981369E+000 -4.1475534439E-001  -6.4055208350E-004 +1.6700978158E-003  -1.4734166907E-003 +1.6383060720E-003  +1.3824083805E+000 +1.0507154465E+000 
4013645.807 +1.4867558479E+000 -7.0933711529E-001  -1.5771110775E-003 +3.0955742113E-003  -8.9513964485E-004 +2.9332907870E-003  +1.6508395672E+000 +8.4420669079E-001 
4138790.989 +1.0820044279E+000 -8.1795036793E-001  +4.5242533088E-004 +2.3680112790E-003  +9.7025453579E-004 +3.2147762831E-003  +1.7718199492E+000 +5.1874816418E-001 
4263936.170 +1.0237971544E+000 -8.3391797543E-001  +1.7159834970E-003 +2.9221498407E-003  +7.7777350089E-004 +2.9290702660E-003  +1.8299125433E+000 +4.1949075460E-001 
4389081.352 +9.2734134197E-001 -8.4376263618E-001  +1.6243881546E-003 +2.2462815978E-003  +1.0522805387E-003 +2.7191347908E-003  +1.8688505888E+000 +2.9381549358E-001 
4514226.533 +8.7443220615E-001 -8.4056496620E-001  +1.0165849235E-003 +3.3770883456E-003  +8.6584850214E-004 +2.7905402239E-003  +1.8906415701E+000 +2.0282167196E-001 
4639371.715 +8.1944531202E-001 -8.1843996048E-001  +8.0659618834E-004 +3.2716034912E-003  +4.8753514420E-005 +3.3108277712E-003  +1.8970413208E+000 +1.2493713200E-001 
4764516.896 +7.4037778378E-001 -8.0802381039E-001  +1.3323094463E-003 +2.8473539278E-003  +1.0254575172E-003 +2.6330640540E-003  +1.8953099251E+000 +3.2112032175E-002 
4889662.078 +6.9198948145E-001 -7.7672374249E-001  +9.6734019462E-004 +2.2770487703E-003  +1.1188441422E-003 +2.7632119600E-003  +1.8971377611E+000 -4.0636092424E-002 
5014807.259 +6.3503700495E-001 -7.4801820517E-001  +7.5887708226E-004 +2.6772001293E-003  +1.4426953858E-003 +2.6814974844E-003  +1.8389509916E+000 -1.1848297715E-001 
5139952.441 +5.8546644449E-001 -7.2330522537E-001  +9.8598725162E-004 +2.3677933495E-003  +6.7642121576E-004 +2.9532455374E-003  +1.8250225782E+000 -2.0946580172E-001 
5265097.622 +5.4364573956E-001 -6.7845940590E-001  +9.2746625887E-004 +1.9399616867E-003  +1.1543735163E-003 +2.8370167129E-003  +1.7659155130E+000 -2.6068094373E-001 
5390242.804 +5.1020944118E-001 -6.4797341824E-001  +1.0254363297E-003 +2.8680074029E-003  +1.0834459681E-003 +2.0975652151E-003  +1.7260639668E+000 -3.1259918213E-001 
5515387.985 +4.7198164463E-001 -6.1205005646E-001  +1.3727644691E-003 +2.7670483105E-003  +1.1069813045E-003 +2.6264090557E-003  +1.6827144623E+000 -3.8049960136E-001 
5640533.166 +4.3265911937E-001 -5.7490885258E-001  +1.7610919895E-003 +1.7867498100E-003  +9.8924792837E-004 +2.2602325771E-003  +1.6502571106E+000 -4.2182919383E-001 
5765678.348 +4.1242599487E-001 -5.3141140938E-001  +1.3865738874E-003 +2.1036583930E-003  +9.3827926321E-004 +1.9147745334E-003  +1.5938593149E+000 -4.4977223873E-001 
5890823.529 +3.9044725895E-001 -4.8532143235E-001  +6.2368030194E-004 +2.0011083689E-003  +7.9495378304E-004 +1.4905078569E-003  +1.5325275660E+000 -4.7443610430E-001 
6015968.711 +3.6596611142E-001 -4.4763156772E-001  +7.9833494965E-004 +1.4850505395E-003  +8.3617557539E-004 +2.0457420032E-003  +1.5008120537E+000 -4.9238145351E-001 
6141113.892 +3.4672605991E-001 -4.0723752975E-001  +8.0104911467E-004 +2.5775977410E-003  +8.8177766884E-004 +2.1746929269E-003  +1.4436930418E+000 -5.0694769621E-001 
6266259.074 +3.3249980211E-001 -3.6709526181E-001  +8.7788724340E-004 +2.1405154839E-003  +7.9624360660E-004 +2.4747303687E-003  +1.3918122053E+000 -5.1772040129E-001 
6391404.255 +3.1711360812E-001 -3.2076212764E-001  +7.7503302600E-004 +2.5633557234E-003  +7.8928354196E-004 +2.4091319647E-003  +1.3310153484E+000 -5.2976161242E-001 
6516549.437 +3.0325502157E-001 -2.8023847938E-001  +5.1136466209E-004 +1.9367192872E-003  +2.1501560695E-004 +2.2586626001E-003  +1.2932553291E+000 -5.3121203184E-001 
6641694.618 +2.9706096649E-001 -2.4406908453E-001  +9.5522636548E-004 +2.1921019070E-003  +4.4700747821E-004 +2.3163000587E-003  +1.2579627037E+000 -5.2657806873E-001 
6766839.800 +2.9035773873E-001 -2.0471812785E-001  +3.4164072713E-004 +1.9439044409E-003  +3.4813440288E-004 +2.0068283193E-003  +1.2160100937E+000 -5.3643071651E-001 
6891984.981 +2.8567725420E-001 -1.5824382007E-001  +6.9670670200E-004 +2.1703387611E-003  +6.9794693263E-004 +2.0010361914E-003  +1.1699084044E+000 -5.2549052238E-001 
7017130.163 +2.8474178910E-001 -1.2324026227E-001  +6.5158528741E-004 +2.4531981908E-003  +4.7810203978E-004 +2.0888820291E-003  +1.1407645941E+000 -5.1675027609E-001 
7142275.344 +2.7537471056E-001 -8.5035137832E-002  +3.2849548734E-004 +2.3063749541E-003  +4.4562091352E-004 +2.5248546153E-003  +1.1107963324E+000 -5.0890845060E-001 
7267420.526 +2.7643349767E-001 -4.3470092118E-002  +5.0543516409E-005 +2.4875742383E-003  +3.3061802969E-004 +2.2706931923E-003  +1.0793975592E+000 -5.0290364027E-001 
7392565.707 +2.7640530467E-001 -1.8190490082E-003  +3.0287221307E-004 +2.3849613499E-003  +5.3544389084E-004 +2.0954690408E-003  +1.0492064953E+000 -4.9521604180E-001 
7517710.889 +2.7510413527E-001 +3.3661440015E-002  +1.8928009376E-004 +2.3375097662E-003  +4.0479225572E-004 +2.3558463436E-003  +1.0194292068E+000 -4.8115751147E-001 
7642856.070 +2.7801710367E-001 +6.8404458463E-002  +1.4448014554E-006 +2.4352520704E-003  +1.2819618860E-004 +2.4681303184E-003  +9.8738336563E-001 -4.7762548923E-001 
7768001.252 +2.8315985203E-001 +1.1088778824E-001  +5.1707756938E-005 +2.6938554365E-003  -1.9822311879E-004 +2.4886934552E-003  +9.5945948362E-001 -4.6295529604E-001 
7893146.433 +2.9116120934E-001 +1.5105608106E-001  +1.4357888722E-004 +2.4998344015E-003  -1.2205522216E-004 +2.5196287315E-003  +9.3921899796E-001 -4.4517657161E-001 
8018291.615 +2.9983139038E-001 +1.9274446368E-001  -2.2456749866E-004 +2.6833531447E-003  -9.7422394902E-005 +2.4619353935E-003  +9.1417378187E-001 -4.3244785070E-001 
8143436.796 +3.1117248535E-001 +2.2863167524E-001  -1.9459436589E-004 +2.6098904200E-003  -2.0861365192E-004 +2.6756839361E-003  +8.9630520344E-001 -4.1985321045E-001 
8268581.977 +3.1862705946E-001 +2.6584789157E-001  -3.9968651254E-004 +2.7182889171E-003  -2.6664443430E-004 +2.5539137423E-003  +8.7781959772E-001 -4.0069395304E-001 
8393727.159 +3.3547270298E-001 +3.0612030625E-001  -4.7819095198E-004 +2.7238130569E-003  -4.8886646982E-004 +2.6841296349E-003  +8.6293822527E-001 -3.8589060307E-001 
8518872.340 +3.5119912028E-001 +3.4882888198E-001  -4.1021790821E-004 +2.9135674704E-003  -5.1524321316E-004 +2.8854489792E-003  +8.4255796671E-001 -3.7181028724E-001 
8644017.522 +3.6601653695E-001 +3.8244190812E-001  -4.4332604739E-004 +2.9238341376E-003  -5.6402891641E-004 +2.9046130367E-003  +8.3290958405E-001 -3.5665035248E-001 
8769162.703 +3.8684040308E-001 +4.1925537586E-001  -7.8162533464E-004 +3.0165391508E-003  -8.0752739450E-004 +2.8999338392E-003  +8.1733912230E-001 -3.3869832754E-001 
8894307.885 +4.1087740660E-001 +4.5785027742E-001  -8.1830477575E-004 +3.0917814001E-003  -6.1751826433E-004 +3.1420332380E-003  +8.0013018847E-001 -3.2605341077E-001 
9019453.066 +4.3519181013E-001 +4.9679261446E-001  -9.0065778932E-004 +3.3111155499E-003  -8.3624664694E-004 +3.2067482825E-003  +7.9000401497E-001 -3.1061702967E-001 
9144598.248 +4.6584638953E-001 +5.3532880545E-001  -8.2699232735E-004 +3.4008999355E-003  -9.0029311832E-004 +3.3350922167E-003  +7.7862811089E-001 -2.9253786802E-001 
9269743.429 +4.9895629287E-001 +5.7150042057E-001  -1.1095613008E-003 +3.4249743912E-003  -9.6739188302E-004 +3.4616403282E-003  +7.7110064030E-001 -2.7451637387E-001 
9394888.611 +5.2933305502E-001 +6.0943949223E-001  -1.1895620264E-003 +3.6126335617E-003  -1.1229084339E-003 +3.5220663995E-003  +7.6015645266E-001 -2.5973010063E-001 
9520033.792 +5.7298964262E-001 +6.4138662815E-001  -1.2805211591E-003 +3.7638805807E-003  -1.1091034394E-003 +3.5945465788E-003  +7.5263684988E-001 -2.4048459530E-001 
9645178.974 +6.1287099123E-001 +6.7520183325E-001  -1.2073135003E-003 +3.8823289797E-003  -1.3096958864E-003 +3.9080274291E-003  +7.4476051331E-001 -2.2434902191E-001 
9770324.155 +6.5673220158E-001 +7.0376116037E-001  -1.3110041618E-003 +3.9067026228E-003  -1.4119119151E-003 +3.9346595295E-003  +7.3716461658E-001 -2.0815089345E-001 
9895469.337 +7.0493966341E-001 +7.3070049286E-001  -1.3706963509E-003 +4.2479177937E-003  -1.4712512493E-003 +4.1845352389E-003  +7.2984093428E-001 -1.9165876508E-001 
10020614.518 +7.5333279371E-001 +7.5233560801E-001  -1.4554018853E-003 +4.2337356135E-003  -1.5123526100E-003 +4.2875045910E-003  +7.2863769531E-001 -1.7406404018E-001 
10145759.700 +8.0880898237E-001 +7.6863002777E-001  -1.5989525709E-003 +4.4707125053E-003  -1.4833572786E-003 +4.5365975238E-003  +7.2521853447E-001 -1.5888559818E-001 
10270904.881 +8.6912423372E-001 +7.8587734699E-001  -1.6222021077E-003 +4.6024732292E-003  -1.6885147197E-003 +4.6655284241E-003  +7.2287690639E-001 -1.4336049557E-001 
10396050.063 +9.2712187767E-001 +7.9323691130E-001  -1.5865163878E-003 +4.9413209781E-003  -1.6739703715E-003 +4.8187817447E-003  +7.1877151728E-001 -1.2704125047E-001 
10521195.244 +9.8505020142E-001 +7.9819095135E-001  -1.6843250487E-003 +5.0998395309E-003  -1.6459772596E-003 +5.0283204764E-003  +7.1846354008E-001 -1.1215221882E-001 
10646340.426 +1.0421227217E+000 +7.9817140102E-001  -1.7961838748E-003 +5.1682256162E-003  -1.6205584398E-003 +5.2354787476E-003  +7.1690130234E-001 -9.3178182840E-002 
10771485.607 +1.1054564714E+000 +7.9021626711E-001  -1.7273979029E-003 +5.4430109449E-003  -1.6935714521E-003 +5.5714519694E-003  +7.1723729372E-001 -7.8297764063E-002 
10896630.788 +1.1664888859E+000 +7.8050577641E-001  -1.7099684337E-003 +5.6350044906E-003  -1.6707606846E-003 +5.6062834337E-003  +7.1665084362E-001 -6.3693016768E-002 
11021775.970 +1.2239947319E+000 +7.5799232721E-001  -1.6536386684E-003 +5.8854077943E-003  -1.6549448483E-003 +5.9389220551E-003  +7.1750926971E-001 -4.9633443356E-002 
11146921.151 +1.2840331793E+000 +7.3287141323E-001  -1.5449454077E-003 +6.0680569150E-003  -1.6504332889E-003 +6.0178535059E-003  +7.1992939711E-001 -3.6227911711E-002 
11272066.333 +1.3378616571E+000 +7.0077919960E-001  -1.4734470751E-003 +6.2176631764E-003  -1.4960118569E-003 +6.1959954910E-003  +7.2021257877E-001 -2.1428495646E-002 
11397211.514 +1.3897120953E+000 +6.6822814941E-001  -1.4506203588E-003 +6.4735105261E-003  -1.4716491569E-003 +6.4446232282E-003  +7.2397118807E-001 -7.4606239796E-003 
11522356.696 +1.4361512661E+000 +6.2680327892E-001  -1.3950315770E-003 +6.6234609112E-003  -1.3883078936E-003 +6.5590571612E-003  +7.2818064690E-001 +6.8761110306E-003 
11647501.877 +1.4738461971E+000 +5.8201164007E-001  -1.2768839952E-003 +6.7701879889E-003  -1.3408525847E-003 +6.7117316648E-003  +7.3075193167E-001 +2.2328019142E-002 
11772647.059 +1.5132780075E+000 +5.3486722708E-001  -1.1893042829E-003 +6.9362013601E-003  -1.1701460462E-003 +6.9304639474E-003  +7.3758828640E-001 +3.4464001656E-002 
11897792.240 +1.5460431576E+000 +4.8398101330E-001  -1.1064475402E-003 +7.1229869500E-003  -1.1097160168E-003 +7.0854998194E-003  +7.4176251888E-001 +4.8284560442E-002 
12022937.422 +1.5735425949E+000 +4.3457275629E-001  -9.8898098804E-004 +7.2169899940E-003  -9.4154686667E-004 +7.2666686028E-003  +7.4771827459E-001 +5.9985429049E-002 
12148082.603 +1.5923357010E+000 +3.7855428457E-001  -8.3537749015E-004 +7.2981766425E-003  -7.9756695777E-004 +7.3023429140E-003  +7.5462758541E-001 +7.3450297117E-002 
12273227.785 +1.6046575308E+000 +3.2744190097E-001  -6.7795137875E-004 +7.4319168925E-003  -6.8193930201E-004 +7.5080436654E-003  +7.6156890392E-001 +8.5467904806E-002 
12398372.966 +1.6146253347E+000 +2.7607518435E-001  -6.1352993362E-004 +7.6103950851E-003  -6.1257299967E-004 +7.5762667693E-003  +7.6996713877E-001 +9.6086338162E-002 
12523518.148 +1.6142143011E+000 +2.2259896994E-001  -4.7423981596E-004 +7.7013266273E-003  -4.3431436643E-004 +7.6167718507E-003  +7.7723336220E-001 +1.0653942823E-001 
12648663.329 +1.6168998480E+000 +1.7448437214E-001  -3.2076356001E-004 +7.7232657932E-003  -3.4395710099E-004 +7.7289524488E-003  +7.8586733341E-001 +1.1723212898E-001 
12773808.511 +1.6105720997E+000 +1.2470790744E-001  -2.4881988065E-004 +7.7793565579E-003  -2.2739201086E-004 +7.8399004415E-003  +7.9518264532E-001 +1.2749610841E-001 
12898953.692 +1.6036627293E+000 +7.9062432051E-002  -1.0561419185E-004 +7.8257173300E-003  -8.3579681814E-005 +7.7944062650E-003  +8.0429518223E-001 +1.3607394695E-001 
13024098.874 +1.5898939371E+000 +3.7297207862E-002  +4.6404471505E-005 +7.9027479514E-003  +2.8203066904E-006 +7.8851869330E-003  +8.1472986937E-001 +1.4501839876E-001 
13149244.055 +1.5763832331E+000 -9.0588629246E-004  +8.9459703304E-005 +7.9472959042E-003  +9.1639143648E-005 +7.9104388133E-003  +8.2467204332E-001 +1.5367451310E-001 
13274389.237 +1.5571982861E+000 -3.9345145226E-002  +2.4259591009E-004 +7.9835560173E-003  +2.2349727806E-004 +8.0350888893E-003  +8.3598291874E-001 +1.6209450364E-001 
13399534.418 +1.5371900797E+000 -7.4547395110E-002  +2.8177443892E-004 +8.0594122410E-003  +3.3567170613E-004 +7.9958550632E-003  +8.4650379419E-001 +1.6985370219E-001 
13524679.599 +1.5182952881E+000 -1.0414406657E-001  +4.1559606325E-004 +8.0447550863E-003  +3.6580499727E-004 +8.1243198365E-003  +8.5860145092E-001 +1.7578613758E-001 
13649824.781 +1.4964079857E+000 -1.3481339812E-001  +5.3904403467E-004 +8.0881007016E-003  +5.0053640734E-004 +8.0677904189E-003  +8.7076812983E-001 +1.8073387444E-001 
13774969.962 +1.4729208946E+000 -1.5862697363E-001  +5.9802690521E-004 +8.0747716129E-003  +6.3621718436E-004 +8.0859316513E-003  +8.8253045082E-001 +1.8530097604E-001 
13900115.144 +1.4516427517E+000 -1.8115028739E-001  +6.6530541517E-004 +8.1085404381E-003  +7.2583160363E-004 +8.1051532179E-003  +8.9385426044E-001 +1.8950705230E-001 
14025260.325 +1.4266481400E+000 -2.0155462623E-001  +7.3740957305E-004 +8.0709047616E-003  +7.1362499148E-004 +8.1081669778E-003  +9.0608280897E-001 +1.9331789017E-001 
14150405.507 +1.4045591354E+000 -2.1970123053E-001  +7.7709322795E-004 +8.1520406529E-003  +7.8792404383E-004 +8.1403022632E-003  +9.1841632128E-001 +1.9670411944E-001 
14275550.688 +1.3790609837E+000 -2.3625051975E-001  +8.7745161727E-004 +8.1217288971E-003  +8.9092832059E-004 +8.1179663539E-003  +9.3148481846E-001 +1.9804269075E-001 
14400695.870 +1.3546812534E+000 -2.4931019545E-001  +9.3837012537E-004 +8.1148073077E-003  +9.5163215883E-004 +8.1494711339E-003  +9.4397830963E-001 +2.0002257824E-001 
