!  2-Port S-parameters saved by WinCal
! VAR NAME=Wafer2_r10_c16_opennotaper
! VAR DATE=22/05/2024 17:14:02
! VAR FILENAME=Wafer2_r10_c16_opennotaper.S2P
! VAR MeasName=S-Parameters (CALIBRATED_DATA) read from VNA (P5004A)
! VAR MeasDate=22/05/2024 17:13:15
! VAR PHYS_PORTS=1,2
! VAR ObjTypeName=DATASET
! VAR IndexType=Frequency
!
# Hz S RI R 50
9000.000 +2.4106334150E-001 -5.8002024889E-001  +1.4254659414E-002 +2.7219677344E-002  -3.1080991030E-003 -8.8433397468E-004  +1.0767465830E-001 +6.4477592707E-002 
134145.181 +7.2342151403E-001 +1.9962400198E-001  +4.3652765453E-004 +2.5654293597E-002  -5.4353782907E-003 -2.0730341785E-003  +1.0491734743E+000 -3.1936773658E-001 
259290.363 +8.7692433596E-001 -3.1676769257E-002  +1.5783426352E-003 -2.0013321191E-003  +5.3280154243E-003 +8.6934026331E-003  +1.0357791185E+000 -4.7895774245E-002 
384435.544 +9.4030338526E-001 -2.1534337103E-001  -3.0189875979E-003 -1.9232938066E-003  -2.5711639319E-003 -1.6693148063E-004  +1.0711708069E+000 -6.2351360917E-002 
509580.726 +9.6085947752E-001 -1.2511833012E-001  -6.5850312239E-005 +7.8627694165E-004  -2.3331835400E-003 +6.5450253896E-004  +1.0388377905E+000 -1.9088417292E-002 
634725.907 +1.0711539984E+000 -1.4785745740E-001  -9.9602551199E-004 -9.5784274163E-004  -1.0679126717E-004 +1.0700304992E-003  +1.0680589676E+000 -2.8807640076E-002 
759871.089 +1.1658527851E+000 -7.4880331755E-002  -6.2677171081E-004 -1.3438438764E-003  -4.3096154695E-004 +9.1130391229E-004  +1.0506151915E+000 -5.8710247278E-002 
885016.270 +9.8197799921E-001 -1.5142497420E-001  +3.2560273539E-003 -3.2741557807E-003  +1.5838374384E-003 -1.2352990452E-003  +1.0081663132E+000 -7.7492922544E-002 
1010161.452 +1.1215989590E+000 -4.6473562717E-002  -2.5380919687E-003 +1.3322012965E-003  -3.1741603743E-003 -3.2637133263E-003  +8.7008237839E-001 +7.5165271759E-002 
1135306.633 +1.1471980810E+000 -6.0823708773E-002  +2.5974558666E-003 +8.6195417680E-004  -9.4883271959E-004 -2.0111745107E-004  +9.6244341135E-001 +1.4772367477E-001 
1260451.815 +1.3048834801E+000 -4.4986963272E-002  -2.9295531567E-004 -1.2502392055E-003  -1.0280748829E-003 -5.1180744777E-005  +9.7732859850E-001 +1.7432990670E-001 
1385596.996 +1.2315807343E+000 -8.0695629120E-002  +3.1292779022E-004 -1.0240080301E-003  +2.9421114596E-004 +1.3886154629E-003  +9.9729073048E-001 +1.0296991467E-001 
1510742.178 +1.3488860130E+000 -1.3890749216E-001  -4.8108391638E-005 -2.6355581940E-004  +1.5459465794E-003 -9.2410482466E-007  +9.3940734863E-001 +1.3413217664E-001 
1635887.359 +9.8411613703E-001 -2.3474177718E-001  +1.5009269118E-003 -5.9299520217E-004  +8.3576311590E-004 +1.5078514116E-004  +1.0997782946E+000 +1.2192356586E-001 
1761032.541 +1.0555982590E+000 -2.1689596772E-001  -5.0353875849E-004 +1.4296767768E-003  -1.7191749066E-003 -1.4193932293E-004  +1.0615507364E+000 +1.5772092342E-001 
1886177.722 +1.0147845745E+000 -1.1409753561E-001  -6.2813720433E-005 -7.1135081816E-004  +6.5016502049E-004 +6.8464619108E-004  +1.0579905510E+000 +1.1663097143E-001 
2011322.904 +1.0202615261E+000 -8.6336076260E-002  -2.3739848984E-005 -3.7555533345E-004  +3.1895612483E-004 +3.6493156222E-004  +1.0542171001E+000 +1.1672139168E-001 
2136468.085 +1.0220109224E+000 -5.2742362022E-002  -3.5424239468E-004 +1.2651734869E-004  -7.5065654528E-005 +7.9137083958E-005  +1.0378630161E+000 +9.9533975124E-002 
2261613.267 +1.0202836990E+000 -4.6571522951E-002  +2.3046604474E-004 +3.0698487535E-004  -2.5966914109E-005 -7.7410120866E-005  +1.0332138538E+000 +1.3000699878E-001 
2386758.448 +1.0224040747E+000 -4.6716839075E-002  +3.4548262192E-005 +2.5107621332E-004  +1.3502385991E-004 -4.8313455773E-004  +1.0395845175E+000 +1.2895324826E-001 
2511903.630 +1.0158159733E+000 -1.2489378452E-002  -7.9168530647E-006 +2.9474802432E-004  -3.1784543535E-004 -1.9524677191E-004  +1.0504322052E+000 +1.4162269235E-001 
2637048.811 +1.0251566172E+000 -7.5671076775E-003  +1.3381037570E-004 +5.6601889810E-005  +2.0871256129E-004 -2.1271829610E-004  +1.0415812731E+000 +1.5591481328E-001 
2762193.992 +1.0310109854E+000 +1.2140050530E-002  -2.1170475520E-004 -2.0952078557E-005  +7.6797339716E-005 +1.7929873138E-004  +1.0398623943E+000 +1.7149721086E-001 
2887339.174 +1.0209881067E+000 +1.3760104775E-002  -2.6937088114E-004 +6.5911939600E-005  +3.1242030673E-004 +3.0715507455E-004  +1.0367845297E+000 +2.0489567518E-001 
3012484.355 +1.0229595900E+000 +2.7988776565E-002  -4.8174362746E-004 +2.2401130991E-005  -1.9101578800E-004 +2.6405057724E-005  +1.0589520931E+000 +2.2796507180E-001 
3137629.537 +1.0254458189E+000 +4.3429076672E-002  -5.8090151288E-004 +5.0672580255E-004  -2.3984839208E-004 +1.1768940021E-004  +1.0899393559E+000 +2.4516937137E-001 
3262774.718 +1.0192316771E+000 +5.3618758917E-002  +5.8603298385E-005 -9.2757050879E-004  +1.1575779354E-005 -4.1982703260E-004  +1.1141332388E+000 +2.4135017395E-001 
3387919.900 +1.0097392797E+000 +7.2093755007E-002  -5.7250913233E-004 +8.1963936100E-004  -1.1976593669E-004 -5.6291557848E-004  +1.1358039379E+000 +2.3834389448E-001 
3513065.081 +1.0181682110E+000 +7.9681187868E-002  +2.7038255212E-005 -2.8015638236E-004  +4.4396068552E-004 +3.1935225707E-004  +1.1460322142E+000 +2.5888288021E-001 
3638210.263 +1.0388522148E+000 +1.1672267318E-001  +7.3677714681E-004 -6.5789604560E-004  -3.6212452687E-004 -7.7310093911E-004  +1.1792591810E+000 +2.5523918867E-001 
3763355.444 +1.0465852022E+000 +1.2990650535E-001  +5.3072755691E-005 -8.5870531620E-004  -1.5447498299E-004 -3.1123845838E-004  +1.2066527605E+000 +2.4413041770E-001 
3888500.626 +1.0728385448E+000 +1.3016283512E-001  -3.5659383866E-004 +1.5298259677E-004  +1.8149983953E-004 -5.5204145610E-007  +1.2344232798E+000 +2.3849573731E-001 
4013645.807 +1.0236718655E+000 +4.5206330717E-002  -8.6992818979E-005 +1.2521756616E-005  +2.3810676066E-004 +7.4972771108E-004  +1.1818422079E+000 +1.0825014859E-001 
4138790.989 +9.3752193451E-001 -3.2309301198E-002  +3.6223203642E-004 -1.3469843543E-004  +9.0239373094E-005 -2.6479689404E-004  +1.0931086540E+000 -1.2736922130E-002 
4263936.170 +9.3581497669E-001 -1.8471680582E-002  +7.6471398643E-005 +2.9106059810E-004  -3.7633071770E-005 +1.6969392163E-005  +1.0834989548E+000 -3.0304064974E-002 
4389081.352 +9.4707608223E-001 -2.2387582809E-002  -5.3728490457E-005 -3.6390111200E-004  -2.0609085914E-004 +3.8779584429E-005  +1.0737730265E+000 -4.4398404658E-002 
4514226.533 +9.5408463478E-001 -2.2701770067E-002  -4.1439878987E-004 -4.4647432514E-004  +2.0618749841E-004 +3.8637832040E-004  +1.0694756508E+000 -6.2022920698E-002 
4639371.715 +9.6664357185E-001 -2.4057110772E-002  -3.2249858486E-004 +1.5921952581E-005  +3.3008813625E-004 +9.9478638731E-005  +1.0720105171E+000 -5.0243146718E-002 
4764516.896 +9.5602738857E-001 -1.8038881943E-002  -7.2897272184E-004 -4.1881453944E-004  -4.5376669732E-004 +1.3175857021E-004  +1.0602715015E+000 -6.2554836273E-002 
4889662.078 +9.6786135435E-001 -1.1927813292E-002  +3.9646832738E-004 +1.4199267025E-004  -6.9899036316E-004 -3.7312548375E-004  +1.0570052862E+000 -5.5937197059E-002 
5014807.259 +9.5732486248E-001 -7.6653659344E-003  +1.7070925969E-004 +1.6817775031E-004  +6.0602687881E-005 +2.5305856252E-004  +1.0396028757E+000 -6.3560187817E-002 
5139952.441 +9.6342009306E-001 -1.0881833732E-002  -1.6513890296E-004 -2.7842132840E-004  -8.3627630374E-005 +2.4585530628E-004  +1.0363136530E+000 -7.1079947054E-002 
5265097.622 +9.6787339449E-001 -8.7107345462E-003  -1.2012262596E-004 -1.6792932001E-005  -1.7636596749E-004 +2.3881142261E-004  +1.0255078077E+000 -6.3656859100E-002 
5390242.804 +9.6927797794E-001 -6.1093717813E-003  -7.6499301940E-005 +2.3216435511E-004  -7.7998869529E-005 +8.8559347205E-005  +1.0192124844E+000 -6.3551262021E-002 
5515387.985 +9.8106628656E-001 -7.9553052783E-003  -3.1167181442E-004 -1.0962230590E-006  -2.6101496769E-004 -2.4789900635E-004  +1.0209383965E+000 -7.3889672756E-002 
5640533.166 +9.7530370951E-001 -3.6259517074E-003  -4.0960192564E-004 +2.0561997371E-004  -4.6058569569E-004 -5.3597002989E-004  +1.0189391375E+000 -7.0565707982E-002 
5765678.348 +9.7747790813E-001 -4.9480348825E-003  -1.2409528426E-004 +1.6889935068E-004  +8.0640029410E-006 -2.0556183881E-004  +1.0107927322E+000 -6.8793594837E-002 
5890823.529 +9.7846865654E-001 -1.0556720197E-002  -3.2862857915E-004 -2.3021233210E-004  +2.8470522375E-004 +1.8394368817E-004  +1.0047256947E+000 -7.1988433599E-002 
6015968.711 +9.7521543503E-001 -1.0698355734E-002  +3.7296887604E-004 -1.2858901755E-004  +6.7318316724E-005 -1.0780295270E-004  +1.0101506710E+000 -5.6603446603E-002 
6141113.892 +9.7480273247E-001 -1.6485840082E-002  +3.1519279582E-004 -2.2341118893E-004  -2.1513327374E-004 +3.0867868190E-006  +1.0024746656E+000 -5.9457212687E-002 
6266259.074 +9.7896206379E-001 -6.9179162383E-003  -7.0628862886E-005 -2.0398892957E-005  -4.3878204451E-005 +1.7232600658E-004  +1.0001691580E+000 -5.3018793464E-002 
6391404.255 +9.7561573982E-001 -1.9058920443E-002  +1.9285929739E-005 -1.7780234339E-004  -1.5356272343E-005 -3.6692156573E-004  +9.9499273300E-001 -5.8158710599E-002 
6516549.437 +9.7410815954E-001 -1.4331556857E-002  +5.6387303630E-005 +2.0449087606E-004  +1.0267683683E-004 +4.2837371439E-005  +9.9188554287E-001 -5.4534271359E-002 
6641694.618 +9.7852659225E-001 -1.0347381234E-002  -1.2295285705E-004 +2.0401868096E-004  +1.0719993588E-004 -3.7031745887E-004  +9.8817545176E-001 -5.0079241395E-002 
6766839.800 +9.8584961891E-001 -7.4010938406E-003  +5.1463015552E-005 +2.9495958006E-004  +1.3317802222E-004 -1.0670567281E-004  +9.8685729504E-001 -5.3616926074E-002 
6891984.981 +9.8347008228E-001 -8.7004899979E-003  -1.9633746706E-004 -3.3135384001E-005  +8.6332249339E-005 +7.5568212196E-005  +9.7540038824E-001 -5.1898658276E-002 
7017130.163 +9.8265880346E-001 -1.0460957885E-002  -2.2153754253E-004 +1.2695374608E-005  -1.4899311645E-004 +2.3266603239E-004  +9.8275732994E-001 -4.3230295181E-002 
7142275.344 +9.7959196568E-001 -5.9488415718E-003  +1.6183333355E-004 +2.8848735383E-004  -1.3265875168E-004 -4.0203700337E-005  +9.8396170139E-001 -3.4053996205E-002 
7267420.526 +9.7942346334E-001 -3.9603263140E-003  +8.0695981524E-006 -1.9474038709E-005  +2.4854310323E-004 +1.3441934425E-004  +9.8050016165E-001 -3.3887088299E-002 
7392565.707 +9.8144334555E-001 -7.1375668049E-003  -1.7558355466E-004 +2.1935306722E-004  +3.1922996277E-004 -3.6989142245E-005  +9.8360902071E-001 -3.7303656340E-002 
7517710.889 +9.8362427950E-001 -3.3940076828E-003  +2.4617454619E-004 -4.0356393583E-005  +3.7090248952E-006 -4.6789791668E-005  +9.7626042366E-001 -3.3779636025E-002 
7642856.070 +9.7867929935E-001 -6.2994509935E-003  +1.2609149053E-005 +7.4674298958E-006  +6.6630760557E-005 +5.7158715208E-005  +9.7291880846E-001 -4.0332734585E-002 
7768001.252 +9.8439157009E-001 -2.6959329844E-003  +1.2475093536E-004 +3.0156565117E-005  +1.0323125753E-004 +1.9003953639E-005  +9.7067648172E-001 -3.6102965474E-002 
7893146.433 +9.8814243078E-001 -7.6799094677E-004  -4.1989285819E-005 +1.3936917821E-004  +2.0826668333E-005 +1.5555814025E-004  +9.7087281942E-001 -3.3508554101E-002 
8018291.615 +9.8084115982E-001 -2.6533752680E-003  +5.4914817156E-005 +1.5642814105E-005  -1.3171355931E-005 +6.3405401306E-005  +9.6788764000E-001 -3.0949383974E-002 
8143436.796 +9.8268765211E-001 -1.1324286461E-003  +7.5622017903E-005 +1.0206863953E-004  +7.1162667155E-006 +9.2840680736E-005  +9.7289764881E-001 -2.4477049708E-002 
8268581.977 +9.7833108902E-001 -4.1216015816E-003  +1.5606616216E-005 +3.6545766307E-006  +1.3607814617E-004 +2.2204036941E-004  +9.7182458639E-001 -1.9452929497E-002 
8393727.159 +9.8196947575E-001 -6.7787766457E-003  +1.3429549290E-004 +8.9153531007E-005  +3.8998332457E-005 -2.2155974875E-005  +9.7344350815E-001 -1.8697202206E-002 
8518872.340 +9.8033690453E-001 -8.8721215725E-003  -1.1003584950E-004 -1.0499685595E-004  +1.3010110706E-004 -6.9089765020E-006  +9.6921217442E-001 -1.9156306982E-002 
8644017.522 +9.7819900513E-001 -1.7388463020E-003  -9.9467062682E-005 +1.4833962268E-005  -9.4107206678E-005 +1.4524423750E-004  +9.7229433060E-001 -1.8231570721E-002 
8769162.703 +9.8027956486E-001 -4.3172836304E-003  +5.6738215790E-005 +9.5342174973E-006  -1.4710631149E-006 -1.2607238205E-005  +9.7251766920E-001 -1.5231549740E-002 
8894307.885 +9.8031806946E-001 -1.3699531555E-003  -1.2548474479E-004 +1.7873699107E-005  +3.1961113564E-004 +2.4087585916E-004  +9.6999651194E-001 -1.6551941633E-002 
9019453.066 +9.8098433018E-001 +2.5764107704E-004  -1.1217049905E-004 +2.2989170247E-005  +3.7690106183E-006 -6.0687548284E-006  +9.7242355347E-001 -1.6027510166E-002 
9144598.248 +9.8127973080E-001 -2.7175545692E-003  +8.7840395281E-005 +1.2587578385E-004  -1.6550600412E-004 +5.0862570788E-005  +9.7271031141E-001 -1.2826949358E-002 
9269743.429 +9.8563349247E-001 -3.8456916809E-004  +1.5101695681E-006 +2.9071787139E-005  -4.7219839416E-007 +1.3318820038E-006  +9.7281253338E-001 -1.1546701193E-002 
9394888.611 +9.8440498114E-001 +2.3306608200E-003  +6.5699670813E-005 +9.0899862698E-005  -1.4501092664E-006 +1.0042876238E-004  +9.7302055359E-001 -1.3194799423E-002 
9520033.792 +9.8379921913E-001 -1.0174214840E-003  -6.0087604652E-005 +4.3392748921E-005  +7.5444477261E-005 +2.9927858122E-005  +9.7228461504E-001 -8.5528790951E-003 
9645178.974 +9.8777258396E-001 +2.3627877235E-003  -1.5581717889E-006 +6.5895306761E-005  +4.2766172555E-005 +6.9923233241E-005  +9.7327739000E-001 -6.7654848099E-003 
9770324.155 +9.8589503765E-001 +4.5772194862E-003  +3.1457297155E-005 +8.1761565525E-005  -6.0740021581E-005 +1.6331017832E-005  +9.7060239315E-001 -4.7183334827E-003 
9895469.337 +9.8582506180E-001 +3.4538805485E-003  -4.4933283789E-005 +2.0314284484E-005  -5.5015996622E-005 +7.3249320849E-005  +9.7231471539E-001 -4.3597817421E-003 
10020614.518 +9.8485648632E-001 +6.2469840050E-003  +8.1548416347E-005 +7.0613656135E-005  -5.1438717492E-005 -3.0900650017E-005  +9.7387933731E-001 -2.3169517517E-003 
10145759.700 +9.8604321480E-001 +2.6507079601E-003  -7.4944910011E-005 -8.0527024693E-007  +1.4082848793E-005 +5.9812580730E-005  +9.7568929195E-001 -5.1010847092E-003 
10270904.881 +9.8789972067E-001 +1.6462504864E-003  +1.4038956579E-005 +8.3192098828E-005  -1.1933541828E-005 +5.4107376855E-006  +9.7727465630E-001 -4.3760240078E-003 
10396050.063 +9.8544955254E-001 +2.0126402378E-003  +1.1672533583E-004 +1.0153297626E-004  -6.1993370764E-005 +1.1897804507E-004  +9.7364723682E-001 -2.6636421680E-003 
10521195.244 +9.8611497879E-001 +2.3013949394E-003  -8.5778607172E-005 +1.9242288545E-005  -3.2739117160E-006 +1.3782757742E-004  +9.7543239594E-001 -1.5248358250E-003 
10646340.426 +9.8544538021E-001 +1.3778805733E-003  +6.9054258347E-005 +4.6004061005E-005  +1.3912063878E-005 +1.2783704733E-004  +9.7451639175E-001 -1.7255544662E-005 
10771485.607 +9.8663544655E-001 +3.7370324135E-003  +1.8234930394E-005 +7.5435200415E-005  +4.6446646593E-005 +6.5684791480E-005  +9.7698152065E-001 +1.9460916519E-004 
10896630.788 +9.8745536804E-001 +6.1106979847E-003  +1.7178948838E-005 +6.6386477556E-005  +6.2187835283E-005 +6.8661371188E-005  +9.7606313229E-001 +2.1968781948E-003 
11021775.970 +9.8736494780E-001 +7.7073574066E-003  +9.8644886748E-006 -1.7174606910E-005  -6.1086931964E-005 +1.3656231749E-004  +9.7654050589E-001 +2.3959279060E-003 
11146921.151 +9.8660838604E-001 +4.2561590672E-003  -3.5674951505E-005 +5.9386817156E-005  +2.8049711545E-005 +6.0926977312E-005  +9.7916162014E-001 +2.1739900112E-003 
11272066.333 +9.8537409306E-001 +4.3328702450E-003  +4.9242666137E-005 +9.9277887784E-005  -6.3133593358E-005 +7.5804855442E-005  +9.7757971287E-001 +3.1403601170E-003 
11397211.514 +9.8726332188E-001 +5.2872300148E-003  +1.3207554730E-005 +1.1607701163E-004  -1.6625490389E-005 +2.3924445486E-005  +9.7835242748E-001 +1.8683671951E-003 
11522356.696 +9.8716449738E-001 +5.1300525665E-003  +2.4927852792E-005 +6.1367121816E-005  +1.1904779967E-005 +9.8116361187E-005  +9.7946238518E-001 +3.4968554974E-003 
11647501.877 +9.8732340336E-001 +6.1562061310E-003  +2.9348237149E-005 +5.0158632803E-005  -1.1021729733E-005 -1.1281235857E-005  +9.7805094719E-001 +2.2967159748E-003 
11772647.059 +9.8735427856E-001 +5.7913362980E-003  +1.8878208721E-005 +7.9365025158E-005  -8.3727616584E-005 +1.0115873010E-004  +9.7895491123E-001 +2.4427771568E-003 
11897792.240 +9.8662781715E-001 +6.2712132931E-003  +3.3992393583E-005 +7.9852419731E-005  +2.4753353500E-006 +9.3144924904E-005  +9.7984111309E-001 +4.3711662292E-003 
12022937.422 +9.8950362206E-001 +7.0897936821E-003  +1.1892479961E-006 +1.4675404236E-004  +3.3146712667E-005 +5.2580660849E-005  +9.7925084829E-001 +2.9531419277E-003 
12148082.603 +9.8930436373E-001 +6.8434178829E-003  +2.0862069505E-005 +9.1003566922E-005  +8.3900085883E-006 +1.2880923168E-004  +9.8125457764E-001 +5.8860480785E-003 
12273227.785 +9.8879992962E-001 +7.8167915344E-003  -8.5357496573E-006 +9.8453114333E-005  -2.2367989004E-005 +4.4727301429E-005  +9.8193180561E-001 +5.0750374794E-003 
12398372.966 +9.8889708519E-001 +6.4736902714E-003  -1.4366452888E-005 +7.3517534474E-005  +1.1119176634E-005 +2.8471127735E-005  +9.8282974958E-001 +5.9145987034E-003 
12523518.148 +9.8799425364E-001 +6.8225562572E-003  -2.5503346478E-005 +7.6668897236E-005  +3.7322352000E-005 +2.7489062632E-005  +9.8223429918E-001 +5.3699016571E-003 
12648663.329 +9.8810386658E-001 +7.8194737434E-003  -4.3198404455E-005 +3.8526613935E-005  -4.9811751524E-007 +6.0855087213E-005  +9.8311644793E-001 +5.9592872858E-003 
12773808.511 +9.8941701651E-001 +5.8587044477E-003  +2.0860841687E-005 +2.4739538276E-005  +7.3379615060E-006 +1.1936890951E-004  +9.8341381550E-001 +6.1246752739E-003 
12898953.692 +9.8991739750E-001 +6.5740272403E-003  -5.8584109865E-006 +7.8967117588E-005  -4.5352411689E-005 +1.0905363160E-004  +9.8267960548E-001 +4.9950852990E-003 
13024098.874 +9.9105912447E-001 +6.5111741424E-003  +2.0750323529E-005 +3.4120253986E-005  +2.0473558834E-005 +8.4026862169E-005  +9.8352533579E-001 +7.8305825591E-003 
13149244.055 +9.8981028795E-001 +7.1767754853E-003  -6.9079010245E-006 +7.5677300629E-005  -3.6861497392E-006 +1.2467807392E-004  +9.8413020372E-001 +7.1019474417E-003 
13274389.237 +9.8979693651E-001 +5.6110266596E-003  +7.7461672845E-006 +1.0306298645E-004  -3.6443667341E-005 +5.5295153288E-005  +9.8509782553E-001 +7.3250699788E-003 
13399534.418 +9.9014681578E-001 +6.7030936480E-003  -3.2857769838E-005 +9.0305191407E-005  +1.7124046281E-005 +9.1450499895E-005  +9.8490673304E-001 +8.1464350224E-003 
13524679.599 +9.8983377218E-001 +7.0639774203E-003  -5.1688759413E-005 +6.0730046243E-005  +3.6664820072E-005 +8.2653525169E-005  +9.8439699411E-001 +9.3457847834E-003 
13649824.781 +9.9114739895E-001 +6.8024992943E-003  +2.3100647013E-005 +8.5358900833E-005  -8.0658855950E-006 +1.2009136844E-004  +9.8602759838E-001 +7.5464248657E-003 
13774969.962 +9.9019014835E-001 +6.7209303379E-003  +8.3374161477E-006 +9.4022543635E-005  +1.2082855392E-006 +7.1776383265E-005  +9.8632413149E-001 +7.2378218174E-003 
13900115.144 +9.9116015434E-001 +8.3205401897E-003  +2.6593261282E-006 +1.0439926700E-004  +2.9997569072E-005 +8.4922372480E-005  +9.8575681448E-001 +8.4109306335E-003 
14025260.325 +9.9050104618E-001 +9.0998113155E-003  +5.1235583669E-006 +6.2397710280E-005  +4.6360266424E-005 +1.1866935529E-004  +9.8673796654E-001 +8.3237290382E-003 
14150405.507 +9.9125021696E-001 +8.9761316776E-003  -9.5266095741E-006 +9.2823138402E-005  -1.1759439076E-005 +9.2525406217E-005  +9.8672354221E-001 +8.8480710983E-003 
14275550.688 +9.9132376909E-001 +8.3566009998E-003  -1.4472603652E-005 +1.0637876403E-004  -9.3192829809E-006 +9.9030832644E-005  +9.8709398508E-001 +8.3886682987E-003 
14400695.870 +9.9110680819E-001 +7.7460110188E-003  +1.4301695046E-006 +9.4281713245E-005  +3.6747678678E-006 +7.1988164564E-005  +9.8715776205E-001 +8.7871849537E-003 
