!  2-Port S-parameters saved by WinCal
! VAR MeasName=S-Parameters (CALIBRATED_DATA) read from VNA (P5004A)
! VAR MeasDate=22/05/2024 17:14:59
! VAR NAME=Wafer2_r10_c17_opennotaper
! VAR FILENAME=Wafer2_r10_c17_opennotaper.S2P
! VAR DATE=22/05/2024 17:15:00
! VAR PHYS_PORTS=1,2
! VAR ObjTypeName=DATASET
! VAR IndexType=Frequency
!
# Hz S RI R 50
9000.000 +2.3024690151E-001 -5.9389638901E-001  -3.5201297142E-003 -4.5335171744E-003  -7.1490480332E-004 -2.6686922647E-003  +8.3972856402E-002 +9.9318325520E-002 
134145.181 +7.4222689867E-001 +1.9233681262E-001  +1.2079662643E-002 -4.0120407939E-002  +3.5753129050E-003 -1.7484406009E-002  +1.0140824318E+000 -1.8032187223E-001 
259290.363 +8.9029300213E-001 -9.6392363310E-002  -1.5446711332E-003 -2.6260211598E-003  -2.7608708479E-003 +2.8869751841E-003  +1.0582003593E+000 -7.2217613459E-002 
384435.544 +9.4713097811E-001 -2.1999499202E-001  +2.3475596681E-003 +8.3476286381E-003  -5.7293558493E-003 +9.0608571190E-004  +1.0721713305E+000 -6.6796004772E-002 
509580.726 +9.8157680035E-001 -1.2428992987E-001  +6.6820107168E-004 +3.4669332672E-004  +1.5887885820E-003 -1.5670378925E-003  +1.0417275429E+000 -2.6356548071E-002 
634725.907 +1.0732810497E+000 -1.4129427075E-001  -6.6810788121E-004 -8.4788550157E-004  +4.2710104026E-005 +1.1668179650E-003  +1.0717484951E+000 -2.2450536489E-002 
759871.089 +1.1625025272E+000 -6.0858696699E-002  +6.7221501376E-004 +1.2786149746E-003  +4.0417106356E-004 -5.4589787032E-004  +1.0494382381E+000 -4.0947794914E-002 
885016.270 +9.6310043335E-001 -1.3251742721E-001  -3.6656802986E-003 -4.0252339095E-003  -1.2098774314E-003 +2.8084055521E-003  +1.0088795424E+000 -5.8962136507E-002 
1010161.452 +1.1304109097E+000 -1.8648326397E-002  -2.2128811106E-003 -2.3223166354E-003  -2.3452811874E-003 +1.3657882810E-003  +8.6452937126E-001 +5.8167785406E-002 
1135306.633 +1.1445875168E+000 -3.5896748304E-002  -2.7686236426E-003 -8.0336339306E-004  +1.6455094737E-004 +4.6305899741E-004  +9.5245182514E-001 +1.5591861308E-001 
1260451.815 +1.3157743216E+000 -2.9007494450E-002  +1.4491333859E-003 +1.9731174689E-005  +8.4902503295E-004 +3.1463196501E-004  +9.8796927929E-001 +1.5252354741E-001 
1385596.996 +1.2321135998E+000 -8.6908817291E-002  -1.4489554451E-004 +5.5517104920E-004  -1.0178855155E-003 +2.4403235875E-004  +9.9958997965E-001 +1.0545685887E-001 
1510742.178 +1.3684204817E+000 -1.4199203253E-001  -1.7078988021E-003 +1.3528295094E-003  +9.5918623265E-004 +1.3548803981E-003  +9.4454729557E-001 +1.3080880046E-001 
1635887.359 +9.8498612642E-001 -2.4561351538E-001  +1.1099778931E-004 -7.5378760812E-005  +2.9775925213E-004 +2.6975024957E-004  +1.0923084021E+000 +9.8529726267E-002 
1761032.541 +1.0253045559E+000 -2.0081552863E-001  +1.2204820523E-003 -8.4894790780E-004  +1.8545702915E-004 -6.6992786014E-004  +1.0556943417E+000 +1.1861154437E-001 
1886177.722 +1.0171077251E+000 -1.0661378503E-001  +2.2810397786E-004 -4.4044136303E-004  -6.6235329723E-004 -5.1305739908E-004  +1.0545094013E+000 +9.8527818918E-002 
2011322.904 +1.0231037140E+000 -7.6716065407E-002  -3.4033437259E-004 -3.6959917634E-004  +8.6795611423E-005 +1.4031238970E-004  +1.0459623337E+000 +9.7319155931E-002 
2136468.085 +1.0160945654E+000 -5.1403969526E-002  +3.6960112629E-004 +2.2084199009E-004  -3.5958641092E-004 +1.0409324022E-004  +1.0382697582E+000 +8.6246639490E-002 
2261613.267 +1.0215669870E+000 -4.6457916498E-002  -2.1476118127E-004 -1.9353500102E-004  +2.1504487086E-004 -3.3310556319E-004  +1.0375945568E+000 +1.0907626152E-001 
2386758.448 +1.0179467201E+000 -5.0096035004E-002  -2.2331529181E-004 +1.3565232803E-004  -1.1993247608E-004 +9.3251583166E-005  +1.0440835953E+000 +1.1643448472E-001 
2511903.630 +1.0271394253E+000 -2.6424318552E-002  +4.1487329872E-004 -1.4992577781E-004  -6.5833752160E-005 +3.5131527693E-004  +1.0547120571E+000 +1.2787246704E-001 
2637048.811 +1.0210812092E+000 -1.5327900648E-002  -7.0953443355E-005 +1.0262627620E-004  +1.9811850507E-006 -3.6275916500E-004  +1.0497514009E+000 +1.4709496498E-001 
2762193.992 +1.0224453211E+000 +8.8178701699E-003  -3.5183291766E-004 +1.9603206601E-004  +1.2130677351E-004 -3.9656617446E-004  +1.0389642715E+000 +1.5399426222E-001 
2887339.174 +1.0138252974E+000 +2.7585253119E-002  -1.8510033260E-004 -4.2586488416E-004  +7.5203779852E-004 +6.8776169792E-004  +1.0417808294E+000 +1.9003108144E-001 
3012484.355 +1.0236908197E+000 +3.3084169030E-002  +3.9327610284E-004 +7.2411712608E-006  -5.4682214977E-004 -5.1919480029E-005  +1.0623992682E+000 +2.0450323820E-001 
3137629.537 +1.0168212652E+000 +4.6927332878E-002  -3.2026448753E-004 -2.6213467936E-004  +8.8946071628E-005 +4.4410128612E-004  +1.0965982676E+000 +2.0917817950E-001 
3262774.718 +1.0148712397E+000 +6.2978178263E-002  -7.1961723734E-005 +1.8824706785E-005  -2.5082551292E-004 +3.6112785892E-005  +1.1107877493E+000 +2.1739783883E-001 
3387919.900 +1.0097891092E+000 +8.0196365714E-002  +4.5825453708E-004 +8.4652670193E-004  -1.2571254047E-004 +1.7629451759E-004  +1.1224982738E+000 +2.2712476552E-001 
3513065.081 +1.0104789734E+000 +9.1943368316E-002  -1.0185228894E-004 -5.2115449216E-004  +8.7751614046E-005 +9.8319789686E-005  +1.1453729868E+000 +2.4566589296E-001 
3638210.263 +1.0319373608E+000 +1.1483956873E-001  +4.5764137758E-004 +1.2591044651E-005  -4.4385984074E-004 +9.0196721430E-005  +1.1611465216E+000 +2.4910342693E-001 
3763355.444 +1.0464558601E+000 +1.2844051421E-001  -2.2652597181E-005 -1.0634581849E-004  -6.8322355219E-005 -2.1683739033E-004  +1.1890224218E+000 +2.2415748239E-001 
3888500.626 +1.0638579130E+000 +1.4506416023E-001  -4.5282937208E-005 +1.4623465540E-004  -4.9736432265E-004 +4.4889093260E-004  +1.2076007128E+000 +2.3031336069E-001 
4013645.807 +1.0110095739E+000 +4.8293910921E-002  -2.6660173899E-004 -5.6420845794E-005  +6.1776133953E-004 -1.8017906405E-004  +1.1668297052E+000 +9.3269534409E-002 
4138790.989 +9.2970454693E-001 -2.3174084723E-002  -1.1255579011E-006 +9.7134179669E-006  +5.1972130314E-004 +1.1025331914E-003  +1.0792887211E+000 -5.5122859776E-003 
4263936.170 +9.2991882563E-001 -1.7006704584E-002  -6.5837515285E-004 +6.0630036751E-004  -6.1344675487E-005 +2.9881155933E-004  +1.0674217939E+000 -2.6142690331E-002 
4389081.352 +9.4069075584E-001 -1.9455876201E-002  -8.4336345026E-005 -1.7313173885E-005  -6.3997280085E-004 +1.1646743951E-004  +1.0594989061E+000 -3.6361739039E-002 
4514226.533 +9.5304208994E-001 -2.3020926863E-002  +1.8319772789E-004 +4.1455429164E-004  +2.1008560725E-004 -3.5045898403E-004  +1.0605300665E+000 -4.4135551900E-002 
4639371.715 +9.6666359901E-001 -2.4396695197E-002  -9.2259731900E-005 +8.3523809735E-005  +7.1257447416E-005 +1.4303589705E-004  +1.0514427423E+000 -4.5927036554E-002 
4764516.896 +9.4847851992E-001 -1.1918927543E-002  +5.3432664572E-005 +7.7371136285E-005  -2.0858310745E-004 -2.8965552701E-005  +1.0507156849E+000 -5.3771711886E-002 
4889662.078 +9.5501863956E-001 -8.0059319735E-003  -4.1559353122E-005 -2.1825206204E-005  +2.0359060727E-005 +1.8328242004E-004  +1.0422425270E+000 -5.0443820655E-002 
5014807.259 +9.5084929466E-001 -1.5078254044E-002  -1.7122548888E-004 +3.6456514499E-004  -3.9692714927E-004 +3.3850192267E-005  +1.0320179462E+000 -5.1418621093E-002 
5139952.441 +9.6157574654E-001 -1.7339978367E-002  +3.3847469604E-004 +1.0011524864E-004  +3.1996478356E-005 -3.1190767913E-005  +1.0296505690E+000 -6.0648258775E-002 
5265097.622 +9.6157222986E-001 -4.6932063997E-003  -8.5992607637E-005 +2.9845937388E-004  +1.1362609803E-004 -1.9919230544E-004  +1.0209163427E+000 -6.2643289566E-002 
5390242.804 +9.6839803457E-001 -1.0136693716E-002  +1.9889215764E-004 -2.0772013522E-004  +1.8489501963E-004 +2.9616756365E-004  +1.0121936798E+000 -5.4068379104E-002 
5515387.985 +9.7088271379E-001 -6.3644498587E-003  -3.0554925615E-005 -1.7761206254E-004  -2.1088494395E-004 -3.3945497125E-004  +1.0182813406E+000 -5.2627496421E-002 
5640533.166 +9.6774244308E-001 -9.4257965684E-003  +1.9297545805E-005 +3.8971740287E-004  -2.0766482339E-004 +4.7391999396E-004  +1.0107721090E+000 -5.1052056253E-002 
5765678.348 +9.6921795607E-001 +1.5812590718E-003  -8.9797686087E-005 -9.9421711639E-005  +1.1600951984E-004 +7.9417994129E-005  +1.0070070028E+000 -5.7496182621E-002 
5890823.529 +9.7468286753E-001 -6.9582462311E-003  +3.0176423024E-004 -1.1040598474E-004  +1.7771136481E-004 -2.3758463794E-004  +9.9841427803E-001 -5.1636621356E-002 
6015968.711 +9.6892404556E-001 -1.1984445155E-002  -4.8001072719E-004 -1.9537110347E-004  -1.9805012562E-004 -1.8395639199E-004  +1.0065274239E+000 -5.2561782300E-002 
6141113.892 +9.7467380762E-001 -7.1888789535E-003  -2.9691925738E-004 -5.8295277995E-005  +1.8068469217E-005 -2.7039868291E-004  +9.9781918526E-001 -4.9869842827E-002 
6266259.074 +9.7442460060E-001 -1.0516755283E-002  +1.7640474834E-004 +5.0891183491E-005  -6.5759995778E-005 +1.3046644744E-004  +9.9509054422E-001 -4.6854265034E-002 
6391404.255 +9.7511214018E-001 -1.7125099897E-002  -6.6082400735E-005 -6.0043050325E-005  +4.7723310672E-006 +7.0734218752E-005  +9.9133509398E-001 -5.1183603704E-002 
6516549.437 +9.7183561325E-001 -1.3798534870E-002  +6.9314228313E-005 -1.9274542865E-004  -7.1639537055E-005 +1.8167842063E-004  +9.8970997334E-001 -4.8847198486E-002 
6641694.618 +9.7812843323E-001 -1.0707765818E-002  -1.0370434757E-004 -3.5776565710E-006  -8.6037747678E-005 -5.2175695600E-005  +9.8725801706E-001 -3.9382889867E-002 
6766839.800 +9.8227429390E-001 -1.2886539102E-002  +1.7203488824E-005 +6.2476501625E-005  +8.4617240645E-006 +3.6925517634E-005  +9.8759460449E-001 -4.6524628997E-002 
6891984.981 +9.7906732559E-001 -7.1698874235E-003  -2.6829494163E-004 +9.7357398772E-005  +8.9364904852E-005 -1.2610854174E-004  +9.7733217478E-001 -4.6152025461E-002 
7017130.163 +9.7608816624E-001 -5.3301006556E-003  -1.1108456965E-004 +9.6576201031E-005  -1.1547724716E-004 -8.8863227575E-005  +9.8321944475E-001 -3.7150651217E-002 
7142275.344 +9.8049914837E-001 -5.0878226757E-003  +1.0834341811E-004 +2.8672430199E-004  -2.9506938517E-005 +3.3850531327E-004  +9.8207426071E-001 -2.8855353594E-002 
7267420.526 +9.8061555624E-001 -5.9830248356E-003  -3.3702417568E-007 -1.0105530237E-004  +2.3063072877E-004 +8.2976956037E-005  +9.7651088238E-001 -2.9770180583E-002 
7392565.707 +9.7800552845E-001 -3.1482428312E-003  +5.2713432524E-005 -8.4305274868E-006  +9.0016430477E-005 -3.1710238545E-005  +9.8086172342E-001 -2.8647661209E-002 
7517710.889 +9.8326581717E-001 +1.6987323761E-004  -4.4821925258E-005 +3.4618427890E-005  +2.8401351301E-004 -2.2724569135E-004  +9.7715431452E-001 -2.7061328292E-002 
7642856.070 +9.8091524839E-001 -1.7499029636E-003  +1.7105169536E-004 +2.9571425330E-005  +4.4372756383E-004 +4.5380038500E-005  +9.7072076797E-001 -2.8964340687E-002 
7768001.252 +9.8487472534E-001 +6.3940882683E-004  -3.1628223951E-006 +2.3357337341E-004  +5.3276566177E-005 +7.3348837759E-007  +9.7059035301E-001 -3.2308205962E-002 
7893146.433 +9.8441398144E-001 +4.0373206139E-004  -1.9548428827E-004 +2.4644780206E-004  +1.1535487283E-004 -1.4649766672E-004  +9.7311580181E-001 -2.4236977100E-002 
8018291.615 +9.8327970505E-001 -1.5807449818E-003  +7.0039168349E-005 -5.9545152908E-005  +2.4333006877E-005 +3.2811399433E-004  +9.6954834461E-001 -2.2116586566E-002 
8143436.796 +9.8136734962E-001 +1.0614544153E-003  +2.3225689802E-005 -5.7358553022E-005  -4.8856407375E-005 -1.7876463244E-004  +9.7116202116E-001 -1.7162844539E-002 
8268581.977 +9.8355168104E-001 -7.6359510422E-004  -1.7763578217E-004 -1.5027846530E-005  +1.1283137428E-004 +3.5930108425E-005  +9.7278845310E-001 -1.5250205994E-002 
8393727.159 +9.8097461462E-001 -4.9024224281E-003  -5.9924288507E-005 -7.1867492807E-005  -1.2726450223E-005 -5.7520312112E-005  +9.6936529875E-001 -1.6757935286E-002 
8518872.340 +9.8182731867E-001 -5.6809782982E-003  +5.5974531278E-005 -4.7571738833E-006  +4.1378974856E-005 +3.1494037103E-005  +9.6903204918E-001 -1.2379616499E-002 
8644017.522 +9.7792708874E-001 +1.3439953327E-003  -8.5409134044E-005 +2.7857307941E-005  +1.5553622507E-004 +2.2910832195E-004  +9.7325325012E-001 -1.0647654533E-002 
8769162.703 +9.8441070318E-001 +8.8843703270E-004  +3.0357638025E-005 -5.6318465795E-005  +3.8177546230E-005 +1.2581812371E-005  +9.7366452217E-001 -1.3372868299E-002 
8894307.885 +9.8104459047E-001 +9.2083215714E-004  -1.3274444791E-004 -7.5152871432E-005  +8.4109575255E-005 +9.1744623205E-006  +9.7261071205E-001 -1.4595091343E-002 
9019453.066 +9.8084539175E-001 -2.7631223202E-003  +9.5838287962E-005 +1.9263950526E-004  +1.1531526980E-005 +7.6973781688E-005  +9.7223079205E-001 -1.0557621717E-002 
9144598.248 +9.8216760159E-001 -5.2600204945E-003  -1.5069224173E-004 -5.5857854022E-005  +5.2682291425E-005 -7.5821313658E-005  +9.7211945057E-001 -8.1827342510E-003 
9269743.429 +9.8296785355E-001 +6.5100193024E-004  -9.1634574346E-005 +1.2956743012E-004  +6.9388028351E-005 +2.9453080060E-005  +9.7322469950E-001 -5.7723522186E-003 
9394888.611 +9.8298048973E-001 +5.2400529385E-003  +5.3449715779E-005 -6.2751380028E-005  -5.0566603022E-005 +4.2568135541E-005  +9.7204601765E-001 -8.7712407112E-003 
9520033.792 +9.8401641846E-001 +7.6293945313E-006  -1.9016250008E-005 +1.5484902542E-004  +5.2691368182E-005 +3.0104054531E-005  +9.7164964676E-001 -6.4632594585E-003 
9645178.974 +9.8696637154E-001 +1.8451511860E-003  -1.1401248048E-004 +7.4971030699E-005  -3.0280971259E-005 +9.2865579063E-005  +9.7457432747E-001 -4.2570531368E-003 
9770324.155 +9.8542720079E-001 +6.2629878521E-003  +4.7517234634E-005 +1.6187923029E-004  -3.7737627281E-006 +1.3532440062E-004  +9.7211730480E-001 -2.2588372231E-003 
9895469.337 +9.8623973131E-001 +4.2013823986E-003  -6.7955741542E-005 +3.7312012864E-005  -1.1340826313E-004 -3.9014605136E-005  +9.7196578979E-001 -2.8271973133E-003 
10020614.518 +9.8580253124E-001 +6.7724883556E-003  -6.1312515754E-005 +1.0851733532E-004  -4.7580972023E-005 -1.0720886166E-005  +9.7239255905E-001 -1.0683238506E-003 
10145759.700 +9.8716855049E-001 +6.0558915138E-003  -9.2816786491E-005 +1.1732047278E-004  -8.1144251453E-005 +5.5890228396E-005  +9.7485625744E-001 -1.2405514717E-003 
10270904.881 +9.8873478174E-001 +3.6838054657E-003  +1.1279651517E-005 -8.7851396529E-005  +2.4885612220E-005 +1.3669556938E-004  +9.7760355473E-001 -4.5925378799E-005 
10396050.063 +9.8637008667E-001 +3.9485394955E-003  -4.6153736548E-006 +2.8359667340E-005  +1.7530808691E-005 +3.1428116927E-005  +9.7544765472E-001 +1.2721419334E-003 
10521195.244 +9.8887717724E-001 +5.2140653133E-003  +1.2665184840E-005 +3.5020890209E-005  -4.8574311222E-005 +2.8355243558E-005  +9.7812771797E-001 +2.7174353600E-003 
10646340.426 +9.8608577251E-001 +4.6210587025E-003  +5.0012946303E-005 +1.0402147018E-004  -1.6900419723E-005 +1.6872427659E-004  +9.7690665722E-001 +4.3618083000E-003 
10771485.607 +9.8671221733E-001 +4.4027566910E-003  +3.0081590012E-005 +3.1526855309E-005  -9.2354948720E-006 +7.7095455708E-006  +9.7689652443E-001 +6.2543451786E-003 
10896630.788 +9.8761129379E-001 +6.1136484146E-003  -5.6608558225E-005 +7.6705342508E-005  -6.1520979216E-005 +6.5055850428E-005  +9.7819757462E-001 +7.0540010929E-003 
11021775.970 +9.8586869240E-001 +7.1739852428E-003  +1.0936194485E-005 +1.6818468794E-005  +3.7352438085E-006 +6.7338878580E-005  +9.7770977020E-001 +6.3862502575E-003 
11146921.151 +9.8642599583E-001 +3.0255019665E-003  +4.4147367589E-005 +7.0743364631E-005  +6.4402680437E-005 +3.4686083382E-005  +9.7923743725E-001 +5.9167444706E-003 
11272066.333 +9.8587214947E-001 +5.4909288883E-003  +6.8823701440E-006 +4.7626614105E-005  +7.0375739597E-005 +1.1825982074E-004  +9.7680258751E-001 +5.0002634525E-003 
11397211.514 +9.8705446720E-001 +3.4801959991E-003  +4.5739790949E-005 +3.4940243495E-005  +2.2492269636E-005 +9.6817413578E-005  +9.7898977995E-001 +5.5521726608E-003 
11522356.696 +9.8718553782E-001 +5.0724148750E-003  -3.4794011299E-005 +7.0567344665E-005  -3.7088204408E-005 +5.9664453147E-005  +9.7996538877E-001 +6.0945451260E-003 
11647501.877 +9.8600918055E-001 +6.9565773010E-003  -1.4768898836E-005 +7.8688128269E-005  +2.8614156690E-005 +8.2016427768E-005  +9.7912067175E-001 +6.9754123688E-003 
11772647.059 +9.8801219463E-001 +7.0389807224E-003  +2.7123662221E-005 +8.6499370809E-005  +8.6540618213E-005 +4.4164138671E-005  +9.7932469845E-001 +4.5608878136E-003 
11897792.240 +9.8692244291E-001 +5.4830610752E-003  +2.8471586120E-005 +9.6241717984E-005  +1.5639190678E-005 +7.7895187133E-005  +9.8004269600E-001 +4.6254694462E-003 
12022937.422 +9.8901396990E-001 +6.4000189304E-003  -3.5815599404E-005 +2.9218710552E-005  +2.3987036911E-005 +3.3258962503E-005  +9.8021930456E-001 +5.2413940430E-003 
12148082.603 +9.8816812038E-001 +6.3363611698E-003  -1.3963363017E-006 +1.0929169366E-004  +1.3745860088E-005 +4.1873605369E-005  +9.8194366693E-001 +7.7556967735E-003 
12273227.785 +9.8857861757E-001 +7.5429081917E-003  -2.0911102183E-007 +7.8665085312E-005  +5.2579012845E-005 +5.5470602092E-005  +9.8164629936E-001 +6.2419176102E-003 
12398372.966 +9.8882377148E-001 +7.2486400604E-003  +3.8463316741E-005 +6.2785047703E-006  +1.5529898519E-005 +2.5170789741E-005  +9.8330795765E-001 +5.4862499237E-003 
12523518.148 +9.8828744888E-001 +6.1306357384E-003  -1.3053029761E-005 +2.5030403776E-005  -8.1979531387E-005 +5.1847273426E-005  +9.8250794411E-001 +6.2528550625E-003 
12648663.329 +9.8902833462E-001 +7.4332654476E-003  -1.8971368263E-005 +1.3656605006E-005  +4.5923145080E-005 +5.7687717344E-005  +9.8259413242E-001 +7.0644170046E-003 
12773808.511 +9.8909813166E-001 +6.4472258091E-003  +1.1288657333E-005 +8.5962186859E-005  -2.2826608983E-005 +2.7570187740E-005  +9.8210185766E-001 +7.1938484907E-003 
12898953.692 +9.8965203762E-001 +7.8183263540E-003  +2.4491679142E-005 +1.3008396490E-004  +1.8101229216E-005 +6.1675149482E-005  +9.8382788897E-001 +7.1820616722E-003 
13024098.874 +9.8907494545E-001 +8.5144713521E-003  +1.4995946913E-005 +6.3530031184E-005  +2.8904285500E-005 +3.2677497074E-005  +9.8405975103E-001 +7.0596784353E-003 
13149244.055 +9.9036532640E-001 +8.9241322130E-003  -4.9255709200E-006 +3.9779370127E-005  +6.0326360654E-006 +5.1551793149E-005  +9.8409098387E-001 +8.3484090865E-003 
13274389.237 +9.8992413282E-001 +8.1036407501E-003  +4.2479634430E-005 +6.9600238930E-005  -2.3311693440E-005 +7.5296033174E-005  +9.8588925600E-001 +8.2567259669E-003 
13399534.418 +9.8987048864E-001 +8.3164349198E-003  +3.3746502595E-005 +9.7394746263E-005  -1.5543886548E-005 +1.0157722863E-004  +9.8484152555E-001 +8.9284554124E-003 
13524679.599 +9.9048793316E-001 +8.6290165782E-003  +1.0063171430E-005 +8.0224876001E-005  +4.3414620450E-006 +1.1472775077E-004  +9.8564022779E-001 +9.5693022013E-003 
13649824.781 +9.9204260111E-001 +7.8013539314E-003  -1.2564214558E-006 +9.2681293609E-005  -4.5173255785E-006 +8.4066261479E-005  +9.8609513044E-001 +8.8908523321E-003 
13774969.962 +9.9068462849E-001 +8.8160187006E-003  +2.7625956136E-006 +4.9577447498E-005  -6.5931799327E-006 +9.9799668533E-005  +9.8506510258E-001 +7.9956948757E-003 
13900115.144 +9.9111860991E-001 +7.9214274883E-003  +1.0570148333E-005 +5.0912756706E-005  +5.7490498875E-005 +7.7641481766E-005  +9.8586767912E-001 +9.1120600700E-003 
14025260.325 +9.9064981937E-001 +8.9207291603E-003  +8.6280670075E-007 +6.1764891143E-005  -2.6965381039E-006 +5.0132308388E-005  +9.8621886969E-001 +9.3725621700E-003 
14150405.507 +9.9106884003E-001 +9.4440579414E-003  +2.0581328499E-005 +7.3981944297E-005  -1.6845140635E-005 +6.0097165260E-005  +9.8692488670E-001 +9.5349252224E-003 
14275550.688 +9.9166053534E-001 +8.9513957500E-003  +1.8388429453E-005 +9.6049552667E-005  -3.8786056393E-006 +7.7110729762E-005  +9.8699235916E-001 +9.7352862358E-003 
14400695.870 +9.9038189650E-001 +7.9377293587E-003  -1.2376214727E-005 +1.0475267482E-004  +2.7879270419E-005 +7.2850620199E-005  +9.8631542921E-001 +9.9759995937E-003 
