!  2-Port S-parameters saved by WinCal
! VAR MeasName=S-Parameters (CALIBRATED_DATA) read from VNA (P5004A)
! VAR MeasDate=22/05/2024 17:05:20
! VAR NAME=Wafer2_r10_c13_short
! VAR FILENAME=Wafer2_r10_c13_short.S2P
! VAR DATE=22/05/2024 17:05:20
! VAR PHYS_PORTS=1,2
! VAR ObjTypeName=DATASET
! VAR IndexType=Frequency
!
# Hz S RI R 50
9000.000 +2.3184615374E-001 -5.9163773060E-001  +1.6697548330E-002 -1.7449241132E-003  -4.8879962415E-003 -7.0571280085E-003  +9.7924470901E-002 +9.7787074745E-002 
134145.181 +4.3819600344E-001 -1.7399063706E-001  +1.5631841496E-002 +1.1815672740E-002  +1.5511414036E-002 -5.5099185556E-002  +8.6932465434E-002 +1.2751835585E-001 
259290.363 +5.5403280258E-001 +4.2618066072E-003  +7.1694497019E-003 -1.5071009286E-002  +3.6905580200E-003 +5.7939905673E-003  +1.1587440223E-001 -4.0933018923E-001 
384435.544 +4.9835696816E-001 -1.5921059251E-001  -1.6584185883E-002 -1.8628776073E-002  +9.4823138788E-003 +5.7229679078E-003  +6.0289531946E-002 -1.7767740786E-001 
509580.726 +6.8551254272E-001 -1.0477584600E-001  -1.1495247483E-002 -3.9784489200E-003  -1.2087926269E-002 -1.0539073497E-002  +4.3363028765E-001 -2.1799632907E-001 
634725.907 +8.0194950104E-001 -2.2300979495E-001  +2.2783642635E-004 -1.0975619778E-002  -8.0044968054E-003 -3.2851255964E-003  +6.6708844900E-001 -3.7870353460E-001 
759871.089 +1.4284628630E+000 -4.5766299963E-001  -1.5757782385E-003 -8.1369774416E-003  +1.6722953878E-003 -1.0272142245E-003  +1.7954514027E+000 -3.1290015578E-001 
885016.270 +1.4004445076E+000 -2.0854203701E+000  +1.0478182696E-002 -6.5281861462E-003  +8.1126969308E-003 -5.7632140815E-003  +1.7606530190E+000 +5.3538835049E-001 
1010161.452 +8.7400257587E-001 -9.7295683622E-001  -6.2116456684E-004 +3.9533837698E-003  +1.2532451190E-002 +9.6155647188E-003  +1.2913756371E+000 +1.5632200241E+000 
1135306.633 +3.2130697370E-001 -9.9994462729E-001  +3.3922787756E-002 -3.3074140549E-002  -1.0590690188E-002 -2.4809364229E-002  +3.3380546570E+000 +2.6878614426E+000 
1260451.815 +6.1611801386E-001 -1.1694585085E+000  +5.9850504622E-003 -1.0105444118E-002  +1.9588638097E-002 +1.9170908257E-002  -5.0181472301E-001 +3.7187659740E+000 
1385596.996 +1.3149571419E+000 -7.8545141220E-001  +1.4292625710E-002 -1.6498449259E-003  +2.0498917438E-003 +3.2648595516E-004  +7.2111833096E-001 +1.8897833824E+000 
1510742.178 +2.1473751068E+000 -1.1325769424E+000  +3.6143681500E-003 -5.6261959253E-004  -1.9053417491E-003 -1.6169023002E-003  +5.9338331223E-002 +1.0066967010E+000 
1635887.359 +1.2512743473E+000 -9.7108697891E-001  +7.1169165894E-003 +3.3784955740E-003  -9.3457065523E-003 -1.2719174847E-002  -3.0531458855E+000 +7.1488199234E+000 
1761032.541 +2.3588309288E+000 -4.9242281914E-001  -2.1214270964E-003 +2.2266479209E-003  -1.0107702576E-002 +3.1812363304E-003  -8.1110256910E-001 +1.1566905975E+000 
1886177.722 +2.4342293739E+000 +1.6134354472E-001  +1.6474756412E-003 +4.7229827032E-005  +4.0470150998E-004 +4.6353437938E-003  -2.4273933470E-001 +1.6755168438E+000 
2011322.904 +2.5123875141E+000 +1.2054833174E+000  -5.9964740649E-003 +8.5997646675E-003  -1.3884918764E-002 -3.1658834778E-003  -4.8193562031E-001 +1.7722239494E+000 
2136468.085 +1.7074571848E+000 +1.7161877155E+000  -5.6038852781E-003 +9.4379414804E-004  -7.3159080930E-003 +3.9626909420E-003  -2.5513732433E-001 +1.5597233772E+000 
2261613.267 +9.4908756018E-001 +2.0080151558E+000  -4.0450859815E-003 -3.5923996475E-003  -4.9729561433E-003 +1.4183938038E-003  -3.3890235424E-001 +1.3295024633E+000 
2386758.448 +6.5717840195E-001 +2.0868897438E+000  -7.6396660879E-003 -6.5581994131E-003  -2.3755675647E-003 -4.3042018078E-003  -4.3681734800E-001 +1.0749036074E+000 
2511903.630 +2.4028122425E-002 +1.9337198734E+000  -3.3391779289E-003 -4.7353534028E-003  -2.4988250807E-003 -1.7204545438E-003  -6.1396777630E-001 +1.0156782866E+000 
2637048.811 -2.0878821611E-001 +1.6626737118E+000  -2.7082627639E-004 -4.4519361109E-003  -6.7658838816E-005 -3.2883323729E-003  -5.5069166422E-001 +7.8831911087E-001 
2762193.992 -4.4338184595E-001 +1.4076664448E+000  +9.3502464006E-004 -2.5765637401E-003  +5.4051243933E-004 -1.0877819732E-003  -6.1754894257E-001 +6.6588115692E-001 
2887339.174 -7.1008557081E-001 +1.2088769674E+000  +1.4053033665E-003 -3.3072361257E-003  +1.4811448054E-003 -5.1823107060E-004  -6.3526463509E-001 +6.2579262257E-001 
3012484.355 -7.8777658939E-001 +1.2184422016E+000  +2.9181130230E-003 -1.4931363985E-003  +3.5264177131E-004 -2.9382724315E-003  -6.7806231976E-001 +5.5744004250E-001 
3137629.537 -8.3486044407E-001 +1.1915980577E+000  +2.1456000395E-003 -3.7965935189E-003  +2.7839811519E-003 -2.4905907921E-003  -6.9921827316E-001 +4.6870020032E-001 
3262774.718 -8.4695726633E-001 +1.1509449482E+000  +1.2575478759E-003 -3.1877080910E-003  +1.9441985060E-003 -3.3429048490E-003  -7.2653359175E-001 +4.2565903068E-001 
3387919.900 -8.2733571529E-001 +9.9501729012E-001  +2.1852729842E-003 -2.5320400018E-003  +1.7449656734E-003 -2.5587771088E-003  -7.6385498047E-001 +3.9369422197E-001 
3513065.081 -8.8282883167E-001 +9.3314576149E-001  +2.3639434949E-003 -2.9012490995E-003  +3.1039330643E-003 -2.0995810628E-003  -7.7685445547E-001 +3.4829562902E-001 
3638210.263 -8.8868844509E-001 +8.2795125246E-001  +2.5891633704E-003 -3.4049237147E-003  +2.9292530380E-003 -3.5001824144E-003  -8.2459175587E-001 +3.3914655447E-001 
3763355.444 -8.9115709066E-001 +8.1225454807E-001  +2.8759115376E-003 -1.7505870201E-003  +2.8358369600E-003 -2.3242312018E-003  -8.4263068438E-001 +2.9920446873E-001 
3888500.626 -9.5376956463E-001 +7.1669745445E-001  +2.9104631394E-003 -3.0911592767E-003  +2.5430258829E-003 -2.0098930690E-003  -8.5505652428E-001 +2.9415407777E-001 
4013645.807 -9.7691857815E-001 +4.8414045572E-001  +3.4209392034E-003 -1.8303669058E-003  +3.2250334043E-003 -1.5501552261E-003  -8.8975834846E-001 +1.5540203452E-001 
4138790.989 -9.3622314930E-001 +2.8446871042E-001  +4.0367981419E-003 -2.8182155802E-004  +4.1252188385E-003 -4.5550276991E-004  -8.6593109369E-001 +4.0954668075E-002 
4263936.170 -9.3417477608E-001 +2.5160858035E-001  +3.7804595195E-003 -6.3172576483E-004  +4.7651566565E-003 -8.3536043530E-004  -8.6831486225E-001 +4.1245050728E-002 
4389081.352 -9.2454451323E-001 +2.4730187654E-001  +4.1853077710E-003 -2.5778636336E-004  +3.7576493341E-003 -4.2424630374E-004  -8.7657141685E-001 +2.6376694441E-003 
4514226.533 -9.3009603024E-001 +2.3281419277E-001  +3.9495490491E-003 -6.4186868258E-004  +4.5314044692E-003 -2.2443942726E-004  -8.8871955872E-001 +3.8401484489E-003 
4639371.715 -9.0522497892E-001 +2.0961754024E-001  +4.6665621921E-003 -4.2923947331E-004  +4.5574284159E-003 -2.3432821035E-004  -8.9901512861E-001 -1.0980933905E-002 
4764516.896 -9.2514592409E-001 +1.8839827180E-001  +4.3249083683E-003 -5.0620082766E-004  +4.6064192429E-003 -3.6770512816E-004  -8.9419597387E-001 +3.5965591669E-003 
4889662.078 -9.2918753624E-001 +1.7271506786E-001  +3.9786729030E-003 +1.2050836813E-004  +4.2390357703E-003 -4.4209673069E-004  -8.8090419769E-001 -9.5773637295E-003 
5014807.259 -9.1695290804E-001 +1.8146842718E-001  +4.4118817896E-003 -1.1363928206E-004  +4.5870463364E-003 -3.9763317909E-004  -9.0078216791E-001 -2.8377234936E-002 
5139952.441 -9.1766512394E-001 +1.6310694814E-001  +4.2795175686E-003 -1.9830872770E-004  +4.2310375720E-003 -2.9083993286E-004  -8.9829778671E-001 -2.9013216496E-002 
5265097.622 -9.2618936300E-001 +1.4187678695E-001  +4.1374531575E-003 -1.0012695566E-004  +4.2554661632E-003 -3.6232429557E-004  -8.9922052622E-001 -1.9403666258E-002 
5390242.804 -9.3640589714E-001 +1.1799937487E-001  +4.0873866528E-003 -5.6455214508E-004  +4.1092317551E-003 -2.9654032551E-004  -9.0579140186E-001 -3.4373402596E-003 
5515387.985 -9.3969261646E-001 +1.1521789432E-001  +4.1019949131E-003 -1.9622105174E-004  +4.5246463269E-003 -1.0409462266E-004  -9.0345275402E-001 -4.5623779297E-003 
5640533.166 -9.3263161182E-001 +1.1060065031E-001  +4.1577937081E-003 -3.0735891778E-004  +4.1683190502E-003 +4.5525375754E-006  -9.1178929806E-001 -1.3011634350E-002 
5765678.348 -9.2802846432E-001 +1.1112385988E-001  +4.1766385548E-003 -6.6031073220E-004  +4.4631487690E-003 -8.1615988165E-005  -9.2129647732E-001 -4.2187869549E-003 
5890823.529 -9.2327201366E-001 +9.9554479122E-002  +4.4189537875E-003 -1.0205595754E-004  +4.7096279450E-003 -3.4819566645E-004  -9.2435014248E-001 -1.8610566854E-002 
6015968.711 -9.3286967278E-001 +8.9812695980E-002  +4.1922228411E-003 -3.9724574890E-004  +4.2710592970E-003 -1.7991010100E-004  -9.1356360912E-001 -8.2320868969E-003 
6141113.892 -9.2496585846E-001 +9.4003885984E-002  +4.2338133790E-003 -1.8503470346E-004  +4.2296685278E-003 -2.9466277920E-004  -9.3729203939E-001 -2.1328240633E-002 
6266259.074 -9.2219436169E-001 +9.0151131153E-002  +4.2319395579E-003 -2.6231072843E-004  +4.3264101259E-003 -3.6781583913E-004  -9.3521332741E-001 -2.6001244783E-002 
6391404.255 -9.2137748003E-001 +7.1958810091E-002  +4.3083899654E-003 +1.1083646677E-004  +4.1155880317E-003 -2.3576617241E-004  -9.4029974937E-001 -1.4340370893E-002 
6516549.437 -9.2708003521E-001 +7.9514056444E-002  +4.5926016755E-003 -3.5641808063E-004  +4.4568302110E-003 -5.7983910665E-005  -9.3863403797E-001 -2.1012812853E-002 
6641694.618 -9.3106687069E-001 +6.5584093332E-002  +4.6137431636E-003 -3.0697253533E-004  +4.2293830775E-003 -4.9677677453E-005  -9.3924319744E-001 -1.0841995478E-002 
6766839.800 -9.2361700535E-001 +5.8335155249E-002  +4.4436058961E-003 +1.3782852329E-004  +4.2580249719E-003 -1.2969144154E-004  -9.4360899925E-001 -8.8655650616E-003 
6891984.981 -9.2621374130E-001 +5.3477615118E-002  +4.1670938954E-003 -9.1988709755E-005  +4.2910696939E-003 -1.6903178766E-004  -9.4456833601E-001 -9.7589790821E-003 
7017130.163 -9.2495727539E-001 +6.5851122141E-002  +4.4536106288E-003 -9.4313058071E-005  +4.3123206124E-003 -3.8661528379E-007  -9.4862288237E-001 -2.9298573732E-002 
7142275.344 -9.4451332092E-001 +5.3328037262E-002  +4.4000442140E-003 -1.3333337847E-004  +4.2336722836E-003 -7.5270771049E-005  -9.4431555271E-001 -1.8271535635E-002 
7267420.526 -9.2419576645E-001 +5.2372395992E-002  +4.4490620494E-003 -1.8220976926E-004  +4.4156657532E-003 -1.0265421588E-004  -9.5656722784E-001 -2.2056460381E-002 
7392565.707 -9.2142975330E-001 +5.2467674017E-002  +4.4662477449E-003 -2.0546000451E-004  +4.4288281351E-003 -2.5908043608E-004  -9.5663464069E-001 -2.1825879812E-002 
7517710.889 -9.2626535892E-001 +5.4813981056E-002  +4.4118589722E-003 +5.2646384574E-005  +4.3956185691E-003 -9.5445546322E-005  -9.5714437962E-001 -2.8235137463E-002 
7642856.070 -9.2094260454E-001 +3.9739906788E-002  +4.3825190514E-003 -1.1453172192E-004  +4.3714311905E-003 -6.4975349233E-005  -9.6132421494E-001 -1.5566378832E-002 
7768001.252 -9.3058198690E-001 +4.7598063946E-002  +4.0766848251E-003 -1.3143976685E-004  +4.3007838540E-003 -4.6722008847E-005  -9.5847928524E-001 -2.4203836918E-002 
7893146.433 -9.2910319567E-001 +4.2655214667E-002  +4.3351086788E-003 -6.1368104070E-005  +4.3677003123E-003 +2.0239618607E-005  -9.5720249414E-001 -2.1525770426E-002 
8018291.615 -9.3334072828E-001 +3.3228829503E-002  +4.3866639026E-003 -6.9587607868E-005  +4.4432044961E-003 -4.8440415412E-005  -9.5794552565E-001 -1.4818698168E-002 
8143436.796 -9.2648059130E-001 +3.7306338549E-002  +4.2916252278E-003 -9.6076808404E-005  +4.4728848152E-003 +1.4873454347E-005  -9.6599328518E-001 -2.1923273802E-002 
8268581.977 -9.3472772837E-001 +2.7077049017E-002  +4.3485360220E-003 +2.8268317692E-005  +4.4476469047E-003 -1.0876136366E-004  -9.5924431086E-001 -1.2623906136E-002 
8393727.159 -9.3110054731E-001 +2.9210433364E-002  +4.2609106749E-003 -7.7615608461E-005  +4.2999736033E-003 -1.0106485570E-004  -9.6653169394E-001 -2.1599918604E-002 
8518872.340 -9.4473284483E-001 +2.5633372366E-002  +4.3667932041E-003 -1.4369862038E-004  +4.1903313249E-003 -9.3663111329E-006  -9.5081722736E-001 -1.8620431423E-002 
8644017.522 -9.3357217312E-001 +1.9171819091E-002  +4.2627109215E-003 -1.7341054627E-004  +4.2443177663E-003 -1.1250612442E-004  -9.6627855301E-001 -1.6615867615E-002 
8769162.703 -9.3892538548E-001 +1.5844747424E-002  +4.4776387513E-003 -7.9785793787E-005  +4.2919828556E-003 -1.1176241969E-004  -9.6590769291E-001 -1.0767310858E-002 
8894307.885 -9.3934565783E-001 +1.5703776851E-002  +4.4202539138E-003 -1.5449104831E-004  +4.2969901115E-003 +1.0443125211E-004  -9.6444869041E-001 -1.4077894390E-002 
9019453.066 -9.4292068481E-001 +1.7105164006E-002  +4.4515696354E-003 -6.8497713073E-005  +4.4654924423E-003 -6.2479084590E-005  -9.5996397734E-001 -1.6786865890E-002 
9144598.248 -9.4313502312E-001 +1.2287946418E-002  +4.4223163277E-003 -5.9229147155E-005  +4.2699594051E-003 +8.5026236775E-005  -9.6225374937E-001 -1.6005031765E-002 
9269743.429 -9.3900555372E-001 +2.0372763276E-002  +4.2611039244E-003 -3.1252289773E-005  +4.3961107731E-003 +1.4635908883E-005  -9.6554660797E-001 -2.4218698964E-002 
9394888.611 -9.4001924992E-001 +7.5118616223E-003  +4.4750915840E-003 -7.1612041211E-005  +4.3719299138E-003 -1.3959498028E-004  -9.6447169781E-001 -1.3732299209E-002 
9520033.792 -9.3951457739E-001 +1.5238136053E-002  +4.3376088142E-003 -2.3935805075E-005  +4.3530608527E-003 -2.6612193324E-005  -9.7001481056E-001 -2.1998859942E-002 
9645178.974 -9.4714796543E-001 +1.0834038258E-002  +4.3407687917E-003 -3.5360280890E-005  +4.3326490559E-003 +2.4908804335E-006  -9.6260219812E-001 -1.6797579825E-002 
9770324.155 -9.4907277822E-001 +7.4367821217E-003  +4.3318881653E-003 -3.3489137422E-005  +4.4040656649E-003 +6.5424421337E-005  -9.6514743567E-001 -1.2147516012E-002 
9895469.337 -9.5018357038E-001 +1.7980590463E-002  +4.3697427027E-003 -9.9831377156E-006  +4.3480447493E-003 -3.8333819248E-005  -9.6318131685E-001 -2.7237325907E-002 
10020614.518 -9.4803076982E-001 +1.1815369129E-002  +4.4390121475E-003 -3.9645703509E-005  +4.3893232942E-003 -4.2619882151E-005  -9.6538966894E-001 -2.2698760033E-002 
10145759.700 -9.4902068377E-001 +7.0539861917E-003  +4.3835067190E-003 -5.0143571571E-005  +4.3342499994E-003 +1.5404657461E-005  -9.6484529972E-001 -1.7852634192E-002 
10270904.881 -9.4913303852E-001 +3.8771927357E-003  +4.2584775947E-003 +7.5015705079E-005  +4.3990537524E-003 +4.5734108426E-005  -9.6422696114E-001 -1.4234900475E-002 
10396050.063 -9.5108288527E-001 +4.8960447311E-003  +4.3888599612E-003 +4.4203246944E-005  +4.3486561626E-003 +6.4407126047E-005  -9.6224582195E-001 -1.6650646925E-002 
10521195.244 -9.4768792391E-001 -1.8182396889E-004  +4.2453417554E-003 +1.4878204092E-004  +4.2925975285E-003 +2.1125073545E-005  -9.6298712492E-001 -1.1256277561E-002 
10646340.426 -9.4824326038E-001 +2.9154121876E-003  +4.4030738063E-003 +6.3609331846E-006  +4.4317049906E-003 -2.9559130780E-005  -9.6843075752E-001 -1.2129545212E-002 
10771485.607 -9.4902217388E-001 +1.3179183006E-003  +4.2912177742E-003 +3.2021664083E-005  +4.4079371728E-003 +5.4086558521E-007  -9.6528786421E-001 -1.5711814165E-002 
10896630.788 -9.4756042957E-001 +8.4349513054E-004  +4.3531348929E-003 +4.4440384954E-005  +4.2484714650E-003 -2.9189395718E-005  -9.7061407566E-001 -1.5553772449E-002 
11021775.970 -9.5388400555E-001 +1.9951760769E-003  +4.3847202323E-003 +1.7479760572E-005  +4.3647531420E-003 -2.7706031688E-005  -9.6656966209E-001 -1.7575740814E-002 
11146921.151 -9.5331072807E-001 +2.0359754562E-003  +4.3242583051E-003 +1.3356562704E-005  +4.3247588910E-003 +3.8954662159E-005  -9.6915245056E-001 -1.9873380661E-002 
11272066.333 -9.5381438732E-001 +2.5719404221E-005  +4.3958975002E-003 +3.1478703022E-005  +4.2658695020E-003 +2.2345106117E-005  -9.6931260824E-001 -1.9661664963E-002 
11397211.514 -9.5323061943E-001 -1.0457932949E-003  +4.3728183955E-003 +2.0490726456E-005  +4.2770947330E-003 +4.5201391913E-005  -9.6980094910E-001 -1.8883883953E-002 
11522356.696 -9.5179712772E-001 -1.7701089382E-003  +4.3145953678E-003 -5.2879564464E-005  +4.4102752581E-003 +4.4658547267E-005  -9.6924108267E-001 -1.7562299967E-002 
11647501.877 -9.5249700546E-001 -2.4495422840E-003  +4.3844361790E-003 -2.0270003006E-005  +4.4272230007E-003 -1.1647585779E-005  -9.7107493877E-001 -1.6970187426E-002 
11772647.059 -9.5660114288E-001 -5.4859817028E-003  +4.3390314095E-003 +3.0503841117E-005  +4.3576173484E-003 +7.3810340837E-005  -9.6900212765E-001 -1.7649084330E-002 
11897792.240 -9.5686316490E-001 -5.2768886089E-003  +4.3756780215E-003 +7.5932592154E-005  +4.4383872300E-003 +7.4797309935E-005  -9.7133803368E-001 -1.6359120607E-002 
12022937.422 -9.5989704132E-001 -7.6183378696E-003  +4.3271011673E-003 +7.6396623626E-005  +4.3618204072E-003 +1.0885298252E-004  -9.6843779087E-001 -1.6470968723E-002 
12148082.603 -9.6021139622E-001 -8.1281363964E-003  +4.4247908518E-003 +9.6133677289E-005  +4.3478147127E-003 +6.6813314334E-005  -9.6788322926E-001 -1.6029447317E-002 
12273227.785 -9.6097075939E-001 -7.6017081738E-003  +4.4103092514E-003 +2.3530097678E-005  +4.3448666111E-003 -2.6517082006E-006  -9.6712070704E-001 -1.6137182713E-002 
12398372.966 -9.5669406652E-001 -7.6408088207E-003  +4.3209898286E-003 +4.7167995945E-005  +4.3388148770E-003 +6.6973967478E-005  -9.7292435169E-001 -1.6586899757E-002 
12523518.148 -9.6012079716E-001 -5.7739019394E-003  +4.3966881931E-003 +4.8838555813E-006  +4.3518617749E-003 +6.3943909481E-005  -9.7280120850E-001 -1.7793208361E-002 
12648663.329 -9.5999634266E-001 -1.0259002447E-002  +4.4283443131E-003 +3.5454053432E-005  +4.3363617733E-003 +1.9080238417E-005  -9.7251367569E-001 -1.5948683023E-002 
12773808.511 -9.6704196930E-001 -9.8996162415E-003  +4.3384740129E-003 +2.6218360290E-005  +4.3484964408E-003 +2.0152889192E-005  -9.6911066771E-001 -1.9404709339E-002 
12898953.692 -9.6002197266E-001 -8.1834793091E-003  +4.3845796026E-003 +5.4609030485E-005  +4.3308883905E-003 +4.3654348701E-005  -9.7598719597E-001 -1.7505973577E-002 
13024098.874 -9.6601086855E-001 -1.1785149574E-002  +4.4005569071E-003 +1.4221295714E-005  +4.4227531180E-003 +2.0932755433E-005  -9.7059011459E-001 -1.5521436930E-002 
13149244.055 -9.6525573730E-001 -1.0745793581E-002  +4.4025983661E-003 +5.4854201153E-005  +4.3894001283E-003 +9.1359252110E-006  -9.7168433666E-001 -1.5319854021E-002 
13274389.237 -9.6491122246E-001 -8.9171826839E-003  +4.3942555785E-003 +3.4975819290E-005  +4.3482114561E-003 +4.8058456741E-005  -9.7183859348E-001 -1.9339472055E-002 
13399534.418 -9.6864330769E-001 -1.1267423630E-002  +4.4276174158E-003 +6.2168808654E-005  +4.3966551311E-003 +2.6040710509E-005  -9.7250735760E-001 -1.8367707729E-002 
13524679.599 -9.6490263939E-001 -1.2428373098E-002  +4.3837875128E-003 +5.5921729654E-005  +4.3703634292E-003 +4.4344458729E-005  -9.7550851107E-001 -1.4095753431E-002 
13649824.781 -9.6910208464E-001 -9.9563300610E-003  +4.3600276113E-003 +5.1448587328E-006  +4.3745650910E-003 +8.4430677816E-005  -9.7128051519E-001 -1.7677724361E-002 
13774969.962 -9.6882021427E-001 -1.0208696127E-002  +4.3839951977E-003 +5.8162841015E-005  +4.3593328446E-003 +3.6166980863E-005  -9.7510230541E-001 -1.8790453672E-002 
13900115.144 -9.6670484543E-001 -1.1172175407E-002  +4.3920609169E-003 +5.9026526287E-005  +4.3921135366E-003 +3.0593946576E-007  -9.7853302956E-001 -1.7331391573E-002 
14025260.325 -9.6932762861E-001 -1.0753765702E-002  +4.3939677998E-003 +3.7560355850E-005  +4.4378302991E-003 +6.3161423896E-005  -9.7775751352E-001 -1.7686322331E-002 
14150405.507 -9.7091442347E-001 -1.2075707316E-002  +4.4023855589E-003 +2.1138810553E-005  +4.4220639393E-003 +6.2063278165E-005  -9.7632783651E-001 -1.5911102295E-002 
14275550.688 -9.7144424915E-001 -1.1870428920E-002  +4.3774205260E-003 -3.5827921238E-005  +4.3683545664E-003 -2.5706423912E-005  -9.7551584244E-001 -1.5052527189E-002 
14400695.870 -9.7200542688E-001 -1.1159248650E-002  +4.4008865952E-003 +4.1922030505E-006  +4.4315378182E-003 +3.6941346480E-005  -9.7861182690E-001 -1.6437135637E-002 
