!  2-Port S-parameters saved by WinCal
! VAR MeasName=S-Parameters (CALIBRATED_DATA) read from VNA (P5004A)
! VAR MeasDate=22/05/2024 19:15:10
! VAR NAME=Wafer2_r2_c1_set
! VAR FILENAME=Wafer2_r2_c1_set.S2P
! VAR DATE=22/05/2024 19:15:10
! VAR PHYS_PORTS=1,2
! VAR ObjTypeName=DATASET
! VAR IndexType=Frequency
!
# Hz S RI R 50
9000.000 +2.0911285281E-001 -6.0144543648E-001  -1.1232704856E-003 +7.0977129508E-004  -1.6840075841E-004 -7.9345729318E-005  +5.0865985453E-002 +1.0046148300E-001 
134145.181 +7.3642331362E-001 +6.3079178333E-002  -7.6656661928E-002 +7.0808529854E-003  +3.4256808460E-002 +2.0187329501E-003  +7.5474584103E-001 +4.6144425869E-001 
259290.363 +8.9361321926E-001 -7.2808213532E-002  +7.1894577704E-003 +2.9958542436E-003  -4.1022538207E-003 +1.4849579893E-003  +9.1916090250E-001 -5.0597753376E-002 
384435.544 +9.1804325581E-001 -2.4199393392E-001  +2.6857497869E-004 +2.3662578315E-003  -3.1203820836E-003 -3.8296564016E-003  +1.0351557732E+000 -9.0891398489E-002 
509580.726 +9.6555423737E-001 -1.3136830926E-001  +1.8266842235E-003 -1.4377577463E-003  +1.1277928716E-003 +1.0418314487E-003  +1.0089770555E+000 -4.2817294598E-002 
634725.907 +1.0895972252E+000 -1.7541924119E-001  +5.3452712018E-004 +3.3639764297E-004  +1.0102940723E-004 +6.6824216628E-004  +1.0808956623E+000 -5.8183848858E-002 
759871.089 +1.2552452087E+000 -8.8876292109E-002  +5.5869907374E-004 -7.5271433161E-005  +1.5321254032E-003 +2.6586439344E-004  +1.1696079969E+000 -6.6699266434E-002 
885016.270 +6.1528390646E-001 -8.0518990755E-001  +1.7647566274E-003 -1.6864970326E-002  +3.0919024721E-003 +2.8651445173E-003  +1.4462065697E+000 -2.9390108585E-001 
1010161.452 +1.0439219475E+000 +8.8265687227E-003  -6.9271872053E-004 +3.9325989783E-003  -3.0570995295E-004 +1.3268811163E-003  +6.6406351328E-001 +2.9776036739E-001 
1135306.633 +1.0481052399E+000 +1.0400170088E-001  -1.0139705846E-003 +1.4309202088E-003  +2.0245691121E-004 +1.0546823032E-003  +8.7547469139E-001 +2.8972259164E-001 
1260451.815 +1.3349759579E+000 +5.7699084282E-002  +1.0117258644E-003 +9.0598815586E-004  -1.3197727967E-003 +3.5733034019E-004  +9.4362097979E-001 +2.4523608387E-001 
1385596.996 +1.2540998459E+000 -7.7364206314E-002  +3.1271524495E-004 -9.6070370637E-004  +1.0991954478E-003 -8.3842198364E-004  +9.8385632038E-001 +1.5014228225E-001 
1510742.178 +1.3568100929E+000 -1.4105135202E-001  +2.2126659751E-003 -1.6035775188E-003  +1.4446813148E-003 +1.2261085212E-003  +9.0233802795E-001 +1.8719506264E-001 
1635887.359 +9.9029862881E-001 -2.0991235971E-001  -9.3720888253E-004 +3.1756033422E-004  +1.4864790719E-003 -5.7419616496E-004  +1.0996831656E+000 +1.5873494744E-001 
1761032.541 +1.0336178541E+000 -1.7180243134E-001  +1.3386793435E-003 +6.8911863491E-004  -5.9267284814E-004 +3.1717715319E-004  +1.0579504967E+000 +1.9173783064E-001 
1886177.722 +1.0096833706E+000 -1.0099524260E-001  -5.5720593082E-004 +4.5761972433E-004  +4.0998891927E-004 +3.4820334986E-003  +1.0521552563E+000 +1.2956407666E-001 
2011322.904 +1.0180978775E+000 -6.2149167061E-002  -5.3384702187E-004 +2.5674031349E-004  -6.0677091824E-004 +5.3312041564E-004  +1.0532232523E+000 +1.2855020165E-001 
2136468.085 +1.0079457760E+000 -3.8054406643E-002  +4.5523300651E-004 +2.6204783353E-004  -9.7467665910E-005 +1.1586516484E-004  +1.0360984802E+000 +1.2653794885E-001 
2261613.267 +1.0169836283E+000 -2.9689937830E-002  -9.8995362350E-005 -8.1794511061E-005  -4.4706457993E-004 +7.7821349259E-004  +1.0306726694E+000 +1.4703416824E-001 
2386758.448 +1.0080287457E+000 -2.0087927580E-002  -3.1095606391E-004 +3.0380225508E-004  +2.7076018159E-004 +2.9879782232E-004  +1.0334476233E+000 +1.6489759088E-001 
2511903.630 +1.0142738819E+000 +6.7810714245E-003  -1.8868471670E-004 +1.2879860878E-004  -7.4672454502E-005 +5.2999661420E-005  +1.0409101248E+000 +1.7360347509E-001 
2637048.811 +1.0113842487E+000 +8.7194144726E-003  +6.5939893830E-005 +5.8959214948E-004  -2.6815262390E-004 +4.1555473581E-004  +1.0372781754E+000 +1.9496810436E-001 
2762193.992 +1.0081115961E+000 +3.2672669739E-002  -7.3545379564E-004 +5.2001263248E-004  -3.3487071050E-004 +7.5281556929E-004  +1.0333932638E+000 +2.0564408600E-001 
2887339.174 +9.9643164873E-001 +4.7342076898E-002  -1.3504705566E-004 +4.8886123113E-004  -7.0736859925E-004 +7.8345491784E-004  +1.0350623131E+000 +2.3921063542E-001 
3012484.355 +1.0156772137E+000 +6.1530545354E-002  -1.6457148013E-004 +9.4062613789E-004  -6.5289874328E-004 +5.2339420654E-004  +1.0640051365E+000 +2.7402827144E-001 
3137629.537 +1.0137091875E+000 +8.4255009890E-002  -5.4026395082E-004 +8.5630099056E-004  -7.7050039545E-004 +3.5178748658E-004  +1.1027539968E+000 +3.0128937960E-001 
3262774.718 +1.0111317635E+000 +9.7539186478E-002  -1.2513062684E-003 +5.6395761203E-004  -4.1516355122E-004 +1.1544839945E-003  +1.1244634390E+000 +3.0393615365E-001 
3387919.900 +1.0162878036E+000 +1.1979955435E-001  -7.7578052878E-004 +1.3839581516E-003  -7.8392005526E-004 +1.0027508251E-003  +1.1552013159E+000 +3.1507089734E-001 
3513065.081 +1.0375190973E+000 +1.3867546618E-001  -6.6166452598E-004 +9.7627274226E-004  -1.1349988927E-004 +8.7434321176E-004  +1.1764010191E+000 +3.3303487301E-001 
3638210.263 +1.0479112864E+000 +1.6675239801E-001  -9.1345317196E-004 +8.9981663041E-004  -8.8158529252E-004 +9.2193321325E-004  +1.2180199623E+000 +3.2248428464E-001 
3763355.444 +1.0701118708E+000 +1.7793461680E-001  -7.6939223800E-004 +1.1201725574E-003  -6.2219245592E-004 +4.9463403411E-004  +1.2604711056E+000 +3.1128707528E-001 
3888500.626 +1.0959432125E+000 +1.9126549363E-001  -8.5400306853E-004 +1.2757392833E-003  -6.9346238161E-004 +9.8211469594E-004  +1.3068691492E+000 +2.9009890556E-001 
4013645.807 +1.0573143959E+000 +8.7467357516E-002  -9.8464824259E-004 +2.0717924926E-003  -1.0548167629E-003 +1.8889607163E-003  +1.2583336830E+000 +1.3309805095E-001 
4138790.989 +9.8369878531E-001 -2.9665119946E-003  +2.3909175070E-005 +2.1932900418E-003  -2.7866725577E-004 +2.1512657404E-003  +1.1736402512E+000 +3.2530874014E-003 
4263936.170 +9.7914499044E-001 -7.4534118176E-004  -9.2996598687E-004 +2.1347193979E-003  -6.2053033616E-004 +1.3869345421E-003  +1.1627192497E+000 -2.4864643812E-002 
4389081.352 +9.9151921272E-001 -6.1891414225E-003  -2.8596410993E-004 +1.4766475651E-003  +5.8908626670E-006 +2.1647268441E-003  +1.1464340687E+000 -4.4796586037E-002 
4514226.533 +1.0005818605E+000 -1.2498360127E-002  -1.2587616220E-004 +2.1695618052E-003  -2.1849948098E-004 +2.0664911717E-003  +1.1449356079E+000 -6.7321643233E-002 
4639371.715 +1.0038542747E+000 -1.1717375368E-002  -3.8370251423E-004 +2.4557036813E-003  -2.3055702331E-004 +2.4039952550E-003  +1.1403722763E+000 -6.7300945520E-002 
4764516.896 +9.9771624804E-001 -1.1109966785E-002  -1.4584779274E-004 +2.0347530954E-003  -5.8581511257E-004 +1.9245506264E-003  +1.1266012192E+000 -8.6868792772E-002 
4889662.078 +1.0022609234E+000 -7.7219903469E-003  -4.3502092012E-005 +2.9869494028E-003  -2.1034141537E-004 +2.5912907440E-003  +1.1191326380E+000 -9.0864926577E-002 
5014807.259 +1.0007959604E+000 -1.7264761031E-002  -2.3533034255E-004 +2.1166328806E-003  +3.4167896956E-004 +2.7060180437E-003  +1.1056655645E+000 -9.5320202410E-002 
5139952.441 +1.0052843094E+000 -2.4116367102E-002  +4.0740866098E-005 +2.8617808130E-003  -1.0410953546E-003 +2.4654050358E-003  +1.0962617397E+000 -1.0020855814E-001 
5265097.622 +1.0098609924E+000 -1.2435548007E-002  +3.9152917452E-005 +2.7202193160E-003  -5.8021774748E-004 +2.0766097587E-003  +1.0814237595E+000 -1.0669898242E-001 
5390242.804 +1.0115234852E+000 -1.6031436622E-002  +4.6532601118E-005 +2.8641724493E-003  -6.0340669006E-004 +2.9287375510E-003  +1.0753035545E+000 -1.0487319529E-001 
5515387.985 +1.0125247240E+000 -1.3815172017E-002  -1.6886548838E-004 +2.5038199965E-003  -1.5137514856E-004 +3.0354217160E-003  +1.0673983097E+000 -1.1897458881E-001 
5640533.166 +1.0082043409E+000 -1.4454849064E-002  -1.7089166795E-004 +2.6502807159E-003  -6.0272926930E-005 +2.5215053465E-003  +1.0629937649E+000 -1.1676351726E-001 
5765678.348 +1.0038423538E+000 -2.1737299860E-002  -5.9615279315E-004 +2.9444952961E-003  -4.6872979146E-004 +2.9545433354E-003  +1.0474519730E+000 -1.1721191555E-001 
5890823.529 +1.0045334101E+000 -2.4756930768E-002  +5.2728108130E-005 +3.0659744516E-003  +1.5211061691E-004 +2.9900837690E-003  +1.0361385345E+000 -1.2043566257E-001 
6015968.711 +1.0038782358E+000 -3.7553697824E-002  -3.1999524799E-004 +3.0314128380E-003  -5.5456964765E-004 +3.0337835196E-003  +1.0363947153E+000 -1.0922408104E-001 
6141113.892 +1.0013917685E+000 -3.4945726395E-002  +1.6484357184E-004 +3.0116790440E-003  -4.1600776603E-004 +3.0524162576E-003  +1.0250400305E+000 -1.0558260977E-001 
6266259.074 +9.9910849333E-001 -3.4121014178E-002  -3.4708878957E-005 +3.3048088662E-003  -4.2486179154E-005 +2.6840171777E-003  +1.0212588310E+000 -1.0682930797E-001 
6391404.255 +1.0008003712E+000 -3.9651393890E-002  -5.6168821175E-005 +2.9415367171E-003  -3.1839881558E-006 +3.2924774569E-003  +1.0123786926E+000 -1.0345876962E-001 
6516549.437 +9.9718230963E-001 -3.4817159176E-002  -2.4610199034E-006 +3.0757093336E-003  -3.7874962436E-004 +3.6399823148E-003  +1.0027621984E+000 -1.0025686771E-001 
6641694.618 +1.0051085949E+000 -2.4173125625E-002  +3.5071698949E-004 +3.3288591076E-003  +2.3421703372E-004 +3.1271607149E-003  +1.0042610168E+000 -9.4993859529E-002 
6766839.800 +1.0078672171E+000 -2.9692322016E-002  -7.7558797784E-007 +3.2797246240E-003  +6.0259306338E-005 +3.2205628231E-003  +1.0031415224E+000 -9.5003381371E-002 
6891984.981 +1.0006442070E+000 -3.5857096314E-002  +2.6436880580E-004 +3.3371809404E-003  -6.3218176365E-005 +3.4776942339E-003  +9.9031430483E-001 -9.1701045632E-002 
7017130.163 +1.0000731945E+000 -3.1236857176E-002  +4.1058601346E-004 +3.6935533863E-003  -4.8555084504E-006 +3.5010129213E-003  +9.9532961845E-001 -8.1569105387E-002 
7142275.344 +9.9768954515E-001 -2.9245689511E-002  +9.0907909907E-005 +3.3973420504E-003  +2.4651631247E-004 +3.4210288431E-003  +9.9502211809E-001 -8.1658005714E-002 
7267420.526 +9.9732697010E-001 -2.7323365211E-002  -8.9135719463E-005 +3.4387921914E-003  +1.4431186719E-004 +3.4990650602E-003  +9.8914337158E-001 -7.2965145111E-002 
7392565.707 +9.9877119064E-001 -2.4140357971E-002  +4.0236511268E-005 +3.6505316384E-003  +5.7214696426E-005 +3.9135497063E-003  +9.8819100857E-001 -7.6152950525E-002 
7517710.889 +1.0001258850E+000 -2.2564381361E-002  +1.2741785031E-004 +3.6609461531E-003  +9.1960886493E-005 +3.7950994447E-003  +9.8124974966E-001 -7.6080992818E-002 
7642856.070 +9.9182027578E-001 -1.9581139088E-002  -1.2428092305E-005 +3.6837356165E-003  -2.3473403417E-006 +3.6934630480E-003  +9.7815293074E-001 -7.4458613992E-002 
7768001.252 +9.9645066261E-001 -2.2086620331E-002  +4.3025065679E-005 +3.8915378973E-003  -1.6196671641E-004 +3.9133164100E-003  +9.7437286377E-001 -7.0395559072E-002 
7893146.433 +9.9741959572E-001 -1.9150659442E-002  +5.5048207287E-005 +3.8261795416E-003  +1.7923477571E-004 +3.8732937537E-003  +9.7154629230E-001 -6.5187290311E-002 
8018291.615 +9.9368399382E-001 -2.3028969765E-002  +1.1744553922E-004 +3.9460696280E-003  +1.5836814418E-004 +4.0350430645E-003  +9.6893012524E-001 -6.3802376390E-002 
8143436.796 +9.8880004883E-001 -2.5192737579E-002  +9.5016614068E-005 +3.8114441559E-003  +1.1892057955E-005 +4.0814573877E-003  +9.6904313564E-001 -5.5090516806E-002 
8268581.977 +9.9059450626E-001 -2.0217031240E-002  +2.2252358031E-004 +4.0025524795E-003  +2.4898094125E-004 +4.0481910110E-003  +9.7272974253E-001 -4.9995630980E-002 
8393727.159 +9.9060094357E-001 -2.6227921247E-002  -7.5624557212E-005 +4.2421328835E-003  +1.6424979549E-004 +4.0483460762E-003  +9.6962249279E-001 -4.7609150410E-002 
8518872.340 +9.9125552177E-001 -2.5345087051E-002  -3.0900700949E-005 +4.1760895401E-003  +1.2865406461E-004 +3.9746994153E-003  +9.7180068493E-001 -4.0522962809E-002 
8644017.522 +9.8868727684E-001 -1.8175810575E-002  +8.6941407062E-005 +4.2081484571E-003  +7.9427496530E-005 +4.1209217161E-003  +9.7391659021E-001 -4.2211115360E-002 
8769162.703 +9.9059480429E-001 -2.2218793631E-002  +1.2087053619E-004 +4.1963900439E-003  +3.6752433516E-005 +4.0757642128E-003  +9.7215223312E-001 -4.2045325041E-002 
8894307.885 +9.8889279366E-001 -2.2034138441E-002  -1.4523125719E-004 +4.3915035203E-003  +1.3005000073E-004 +4.2971190996E-003  +9.6934014559E-001 -4.1697949171E-002 
9019453.066 +9.9004244804E-001 -2.2786140442E-002  -6.8069086410E-005 +4.3583121151E-003  -8.7153981440E-005 +4.4881501235E-003  +9.7052967548E-001 -3.7460029125E-002 
9144598.248 +9.8729944229E-001 -2.1576851606E-002  +2.2262870334E-004 +4.3889638036E-003  +1.1223484762E-004 +4.4520474039E-003  +9.7112590075E-001 -3.4086555243E-002 
9269743.429 +9.8724806309E-001 -2.1582454443E-002  -3.7895049900E-005 +4.4664642774E-003  -5.2117509767E-005 +4.5814085752E-003  +9.6901947260E-001 -3.1642168760E-002 
9394888.611 +9.8799824715E-001 -1.7206281424E-002  +1.2395554222E-004 +4.5313928276E-003  +7.9648336396E-005 +4.6854699031E-003  +9.7162985802E-001 -3.1796157360E-002 
9520033.792 +9.8800212145E-001 -1.9901424646E-002  +7.1397516876E-005 +4.6577481553E-003  +6.8903551437E-005 +4.5851012692E-003  +9.6855080128E-001 -2.9546111822E-002 
9645178.974 +9.8905211687E-001 -1.8463224173E-002  +2.3070652969E-004 +4.7170147300E-003  +1.3334653340E-004 +4.6367188916E-003  +9.6989297867E-001 -2.8534859419E-002 
9770324.155 +9.8779684305E-001 -1.4277487993E-002  +1.4171097428E-004 +4.8130135983E-003  -4.1193328798E-005 +4.7025536187E-003  +9.6697276831E-001 -2.5957912207E-002 
9895469.337 +9.8846930265E-001 -1.1697918177E-002  +3.7565827370E-005 +4.8547564074E-003  +1.4795921743E-004 +4.9541848712E-003  +9.6707379818E-001 -2.4560213089E-002 
10020614.518 +9.8991835117E-001 -1.1832445860E-002  -1.4840625226E-005 +4.9614240415E-003  +1.4283624478E-004 +4.8206867650E-003  +9.6957159042E-001 -2.2637844086E-002 
10145759.700 +9.8960089684E-001 -1.1848181486E-002  +1.7913733609E-004 +4.9665523693E-003  +1.3396260329E-004 +4.8933909275E-003  +9.6913778782E-001 -2.4114847183E-002 
10270904.881 +9.9074983597E-001 -1.3649880886E-002  +1.3934867457E-004 +5.0641209818E-003  +6.3342275098E-005 +5.0300802104E-003  +9.7220933437E-001 -2.0191550255E-002 
10396050.063 +9.8814386129E-001 -1.1405795813E-002  +1.2653484009E-004 +5.1047569141E-003  +2.2781733423E-004 +5.0346301869E-003  +9.7093904018E-001 -1.7179787159E-002 
10521195.244 +9.8948997259E-001 -1.0176658630E-002  +1.8329359591E-004 +5.1777842455E-003  +8.8994856924E-005 +5.1811691374E-003  +9.7419357300E-001 -1.6066759825E-002 
10646340.426 +9.8954153061E-001 -9.7466409206E-003  +1.8044258468E-004 +5.2475887351E-003  +1.6334140673E-004 +5.2264793776E-003  +9.7294902802E-001 -1.4106124640E-002 
10771485.607 +9.8967057467E-001 -1.0333597660E-002  +1.7525046133E-004 +5.3163743578E-003  +2.0257174037E-004 +5.3445957601E-003  +9.7498488426E-001 -1.3531297445E-002 
10896630.788 +9.8868399858E-001 -8.2876384258E-003  +2.1068751812E-004 +5.2529582754E-003  +3.4570926800E-005 +5.3751124069E-003  +9.7401177883E-001 -1.3019829988E-002 
11021775.970 +9.8861575127E-001 -7.0588588715E-003  +9.9860131741E-005 +5.3826542571E-003  +1.6944832169E-004 +5.3705759346E-003  +9.7455328703E-001 -1.0607600212E-002 
11146921.151 +9.8852068186E-001 -1.0293692350E-002  +1.0457821190E-004 +5.4111331701E-003  +1.4692917466E-004 +5.4847602732E-003  +9.7611445189E-001 -1.0460346937E-002 
11272066.333 +9.8811364174E-001 -1.0385990143E-002  +1.3382290490E-004 +5.4512270726E-003  +1.7111771740E-004 +5.5441651493E-003  +9.7432595491E-001 -1.0250627995E-002 
11397211.514 +9.8873144388E-001 -8.3214938641E-003  +2.1973438561E-004 +5.5357161909E-003  +1.5113479458E-004 +5.6401295587E-003  +9.7542792559E-001 -8.6148679256E-003 
11522356.696 +9.9002617598E-001 -7.1306824684E-003  +2.4809408933E-004 +5.5623571388E-003  +1.5247589909E-004 +5.6662429124E-003  +9.7774446011E-001 -8.5652768612E-003 
11647501.877 +9.8853945732E-001 -6.7073106766E-003  +1.2775091454E-004 +5.6365998462E-003  +1.6921642236E-004 +5.7050436735E-003  +9.7613120079E-001 -6.4742863178E-003 
11772647.059 +9.9009931087E-001 -6.3528418541E-003  +1.9189389423E-004 +5.7352748699E-003  +1.1702044867E-004 +5.7633407414E-003  +9.7778862715E-001 -6.6981911659E-003 
11897792.240 +9.9036824703E-001 -7.0870220661E-003  +1.9871047698E-004 +5.8170096017E-003  +1.1829123832E-004 +5.8067701757E-003  +9.7843056917E-001 -6.4369738102E-003 
12022937.422 +9.9123120308E-001 -5.4711699486E-003  +1.9619241357E-004 +5.8633252047E-003  +1.6373605467E-004 +5.8510317467E-003  +9.7901445627E-001 -7.6869130135E-003 
12148082.603 +9.9204236269E-001 -5.9340000153E-003  +2.3649341892E-004 +5.8790375479E-003  +1.5762192197E-004 +5.9041278437E-003  +9.8003304005E-001 -6.4136087894E-003 
12273227.785 +9.9193918705E-001 -4.6845078468E-003  +2.3718760349E-004 +5.9548565187E-003  +1.4428491704E-004 +6.0263564810E-003  +9.8058855534E-001 -5.6050121784E-003 
12398372.966 +9.9182277918E-001 -5.6107640266E-003  +2.0350236446E-004 +6.0542924330E-003  +1.4794897288E-004 +6.0269539244E-003  +9.8121219873E-001 -4.4566690922E-003 
12523518.148 +9.9127292633E-001 -3.7766396999E-003  +1.8143036868E-004 +6.0632936656E-003  +1.4656758867E-004 +6.0568060726E-003  +9.8124587536E-001 -4.6146661043E-003 
12648663.329 +9.9152582884E-001 -3.2320469618E-003  +2.0591530483E-004 +6.1452630907E-003  +2.0449748263E-004 +6.1398628168E-003  +9.8140269518E-001 -5.3660720587E-003 
12773808.511 +9.9161314964E-001 -4.7827661037E-003  +2.0759535255E-004 +6.1734993942E-003  +1.8344627460E-004 +6.2048356049E-003  +9.8267424107E-001 -5.0992071629E-003 
12898953.692 +9.9231123924E-001 -5.1294937730E-003  +2.6918220101E-004 +6.1780703254E-003  +2.6038079523E-004 +6.2376214191E-003  +9.8221707344E-001 -4.6463683248E-003 
13024098.874 +9.9269711971E-001 -4.8425570130E-003  +2.2387823265E-004 +6.3026286662E-003  +1.8750471645E-004 +6.3150958158E-003  +9.8350715637E-001 -2.9842555523E-003 
13149244.055 +9.9274134636E-001 -3.1088665128E-003  +2.0022441458E-004 +6.3233338296E-003  +1.9730953500E-004 +6.3784639351E-003  +9.8438596725E-001 -3.0823722482E-003 
13274389.237 +9.9252122641E-001 -3.6447048187E-003  +1.9817588327E-004 +6.3884439878E-003  +2.4345987185E-004 +6.4196307212E-003  +9.8477089405E-001 -3.7326235324E-003 
13399534.418 +9.9306362867E-001 -3.6692544818E-003  +2.6656565024E-004 +6.4729098231E-003  +2.4745677365E-004 +6.4759789966E-003  +9.8374801874E-001 -2.8615370393E-003 
13524679.599 +9.9321806431E-001 -2.6511102915E-003  +2.5682878913E-004 +6.5483772196E-003  +2.3565627635E-004 +6.5662749112E-003  +9.8478817940E-001 -2.5132596493E-003 
13649824.781 +9.9348729849E-001 -2.6542395353E-003  +2.3306324147E-004 +6.5876906738E-003  +2.3738888558E-004 +6.6169458441E-003  +9.8616695404E-001 -2.7051717043E-003 
13774969.962 +9.9266779423E-001 -2.6987642050E-003  +2.4756568018E-004 +6.6388039850E-003  +2.6850204449E-004 +6.6560157575E-003  +9.8583960533E-001 -2.8325468302E-003 
13900115.144 +9.9394571781E-001 -2.6509761810E-003  +2.5093730073E-004 +6.7335050553E-003  +2.7156318538E-004 +6.6702309996E-003  +9.8552411795E-001 -2.4537146091E-003 
14025260.325 +9.9306380749E-001 -2.2557675838E-003  +2.6869331487E-004 +6.7295525223E-003  +2.3430376314E-004 +6.8006170914E-003  +9.8600298166E-001 -1.6673505306E-003 
14150405.507 +9.9325251579E-001 -1.3915598392E-003  +2.3697409779E-004 +6.8468162790E-003  +2.3181270808E-004 +6.8406523205E-003  +9.8667722940E-001 -1.0428726673E-003 
14275550.688 +9.9399256706E-001 -2.5965571404E-003  +2.3936340585E-004 +6.9311838597E-003  +2.6721321046E-004 +6.9353505969E-003  +9.8746919632E-001 -1.6505420208E-003 
14400695.870 +9.9308645725E-001 -3.0874013901E-003  +2.4475809187E-004 +6.9537544623E-003  +2.5715050288E-004 +6.9230319932E-003  +9.8683321476E-001 -1.2746453285E-003 
