!  2-Port S-parameters saved by WinCal
! VAR MeasName=S-Parameters (CALIBRATED_DATA) read from VNA (P5004A)
! VAR MeasDate=22/05/2024 16:42:32
! VAR NAME=Wafer2_r10_c3_thru
! VAR FILENAME=Wafer2_r10_c3_thru.S2P
! VAR DATE=22/05/2024 16:42:32
! VAR PHYS_PORTS=1,2
! VAR ObjTypeName=DATASET
! VAR IndexType=Frequency
!
# Hz S RI R 50
9000.000 +2.9995530844E-001 -5.4222232103E-001  -9.4976620749E-003 -3.9577134885E-004  -8.0081280321E-003 +1.9173538312E-002  +1.0536563396E-001 +3.4078728408E-002 
134145.181 +6.7157119513E-001 +8.9928597212E-002  +2.8817629814E-001 +6.0245394707E-002  +3.0164900422E-001 +5.2838519216E-002  -1.1947624385E-001 -3.6566898227E-002 
259290.363 +3.2412707806E-001 -2.8949730098E-002  +8.0581676960E-001 +7.2496920824E-002  +8.4910005331E-001 +6.2586963177E-003  -1.7894878983E-001 -7.7544406056E-002 
384435.544 +5.1181137562E-001 +4.1142076254E-002  +6.0972428322E-001 -7.8348606825E-002  +6.3375490904E-001 -7.5587064028E-002  +1.7735204101E-001 -7.1608334780E-002 
509580.726 +6.2051963806E-001 -3.7397205830E-002  +4.4694203138E-001 -3.7233389914E-002  +4.6218672395E-001 -2.0446851850E-002  +3.7583255768E-001 -7.1800351143E-003 
634725.907 +8.0631113052E-001 -1.2675681710E-001  +2.7823603153E-001 +7.2635263205E-003  +2.8601410985E-001 +1.0946318507E-002  +6.6656064987E-001 -3.7727028131E-002 
759871.089 +1.4910708666E+000 -5.9246659279E-001  -4.9661779404E-001 +7.3034220934E-001  -4.8513734341E-001 +7.2362703085E-001  +1.6457748413E+000 -1.1210557222E+000 
885016.270 -7.2295069695E-003 +2.1839649677E+000  +1.1410665512E+000 -2.6306271553E+000  +1.1371372938E+000 -2.6363785267E+000  -3.5821223259E-001 +2.9220151901E+000 
1010161.452 +5.3634488583E-001 +2.1483284235E-001  +6.0514360666E-001 -5.1268017292E-001  +6.1863607168E-001 -5.2190250158E-001  +2.2103732824E-001 +8.5473126173E-001 
1135306.633 +2.9003068805E-001 +1.0217063129E-001  +7.4159413576E-001 -3.4852010012E-001  +7.4395030737E-001 -3.4731715918E-001  +1.7627874017E-001 +6.2060219049E-001 
1260451.815 +5.6646752357E-001 -1.5411345661E-001  +6.0813611746E-001 -3.8479797542E-002  +6.1624699831E-001 -4.7496736050E-002  +3.2488399744E-001 +2.4635389447E-001 
1385596.996 +6.1900258064E-001 -3.1158888340E-001  +5.6951659918E-001 +1.6967663169E-001  +5.7967537642E-001 +1.6528099775E-001  +3.3131480217E-001 -6.8972691894E-002 
1510742.178 +3.5713252425E-001 -5.4430675507E-001  +9.1178148985E-001 +2.2052966058E-001  +9.2297887802E-001 +2.4102993309E-001  -8.0910757184E-002 -1.1553799361E-001 
1635887.359 +3.5828995705E-001 -7.5015926361E-001  +6.2607020140E-001 +4.5169004798E-001  +6.2403655052E-001 +4.4460484385E-001  +3.4561449289E-001 -2.5086581707E-001 
1761032.541 -2.9048269987E-001 -1.4838517904E+000  +1.1532539129E+000 +9.7104942799E-001  +1.1443063021E+000 +9.8925578594E-001  -5.1250606775E-002 -6.3960641623E-001 
1886177.722 -1.0424222946E+000 -4.8116913438E-001  +1.7951474190E+000 +2.9793712497E-001  +1.7907849550E+000 +2.9761707783E-001  -6.0002028942E-001 -1.8666315079E-001 
2011322.904 -1.0465210676E+000 -5.6965291500E-002  +1.7857462168E+000 -7.5209051371E-002  +1.7837585211E+000 -7.6420605183E-002  -5.7629704475E-001 +1.2520484626E-001 
2136468.085 -5.2686470747E-001 +2.6645606756E-001  +1.3134655952E+000 -3.1488367915E-001  +1.3102854490E+000 -3.1590348482E-001  -1.5324597061E-001 +3.1530842185E-001 
2261613.267 -2.7820912004E-001 +2.7194744349E-001  +1.1173217297E+000 -2.9332149029E-001  +1.1156070232E+000 -2.9234436154E-001  -9.9498108029E-003 +2.6657730341E-001 
2386758.448 -3.5222753882E-001 +2.5631847978E-001  +1.1470506191E+000 -2.6810500026E-001  +1.1462050676E+000 -2.6609700918E-001  +4.6973302960E-003 +2.3272310197E-001 
2511903.630 -1.9535334408E-001 +1.4416159689E-001  +1.0355442762E+000 -1.4662390947E-001  +1.0345804691E+000 -1.4790210128E-001  +7.8527152538E-002 +1.3343130052E-001 
2637048.811 -1.1109119654E-001 +1.4684391022E-001  +9.8895066977E-001 -1.4659692347E-001  +9.8721599579E-001 -1.4712238312E-001  +8.7901875377E-002 +1.2394788861E-001 
2762193.992 -1.0750259459E-001 +6.5974913538E-002  +9.8531866074E-001 -8.6746171117E-002  +9.8578780890E-001 -8.5976406932E-002  +9.9817305803E-002 +7.9832337797E-002 
2887339.174 -8.9437931776E-002 +7.6867848635E-002  +9.6780270338E-001 -7.9385548830E-002  +9.6697443724E-001 -7.7993065119E-002  +9.3430966139E-002 +5.0540700555E-002 
3012484.355 -1.0267623514E-001 +8.2950577140E-002  +9.7547912598E-001 -6.1339855194E-002  +9.7372800112E-001 -6.2509089708E-002  +9.9921777844E-002 +3.4538317472E-002 
3137629.537 -3.8546845317E-002 +8.4961064160E-002  +9.5761328936E-001 -4.0265411139E-002  +9.5543622971E-001 -3.9014279842E-002  +8.1374682486E-002 +3.8126949221E-003 
3262774.718 -4.0369044989E-002 +8.6361825466E-002  +9.5899957418E-001 -3.0915886164E-002  +9.5714426041E-001 -2.8348445892E-002  +9.0477973223E-002 -5.8364979923E-003 
3387919.900 -4.0054582059E-002 +9.6199326217E-002  +9.4716936350E-001 -3.5690367222E-002  +9.4806420803E-001 -3.4871101379E-002  +8.9885383844E-002 -7.4260495603E-003 
3513065.081 -2.6398520917E-002 +7.9777516425E-002  +9.6142464876E-001 -2.4357229471E-002  +9.6133148670E-001 -2.4338513613E-002  +6.5952703357E-002 -1.9782353193E-002 
3638210.263 -3.8627874106E-002 +7.5561717153E-002  +9.6186339855E-001 -1.3365864754E-002  +9.6150529385E-001 -1.3224363327E-002  +8.6111597717E-002 -2.1094731987E-002 
3763355.444 -2.3027785122E-002 +5.5173859000E-002  +9.7391080856E-001 -1.3556808233E-002  +9.7242021561E-001 -1.3405293226E-002  +5.3718052804E-002 -2.1517397836E-002 
3888500.626 -2.7195546776E-002 +6.4522922039E-002  +9.7671806812E-001 -5.9255063534E-003  +9.7523474693E-001 -6.0174167156E-003  +6.2993556261E-002 -3.4417293966E-002 
4013645.807 -1.4772197232E-002 +4.9502149224E-002  +9.8009741306E-001 -3.9019584656E-003  +9.7392207384E-001 -4.0860176086E-003  +4.0693297982E-002 -2.8218049556E-002 
4138790.989 -7.0108566433E-003 +5.3666386753E-002  +9.8323523998E-001 +3.2629072666E-003  +9.7902154922E-001 -2.7167499065E-003  +4.1483085603E-002 -3.0684752390E-002 
4263936.170 +1.2119039893E-003 +5.1805138588E-002  +9.7472751141E-001 -2.2966265678E-003  +9.7151380777E-001 +3.7439465523E-003  +3.4646924585E-002 -2.5290606543E-002 
4389081.352 -9.9254352972E-003 +3.6897748709E-002  +9.8736155033E-001 -8.7097287178E-004  +9.8504781723E-001 -5.1407814026E-003  +2.6108257473E-002 -3.3803720027E-002 
4514226.533 -1.2593476102E-002 +2.3455750197E-002  +9.9716579914E-001 -1.0537922382E-002  +9.9268335104E-001 -2.8496682644E-003  +2.4201307446E-002 -2.9698494822E-002 
4639371.715 +1.2097787112E-003 +2.2250991315E-002  +9.9215543270E-001 +2.4261772633E-003  +9.9603748322E-001 +1.0230839252E-003  +3.2644905150E-002 -3.0719410628E-002 
4764516.896 +1.6719661653E-004 +3.3011369407E-002  +9.9004042149E-001 -2.5262236595E-003  +9.8886299133E-001 -3.3886432648E-003  +1.8268588930E-002 -3.6439787596E-002 
4889662.078 +8.0841472372E-003 +2.8184184805E-002  +9.9324893951E-001 +3.7283897400E-003  +9.8864746094E-001 +6.3214600086E-003  +1.7647225410E-002 -2.9681768268E-002 
5014807.259 +7.9557988793E-003 +2.9292304069E-002  +9.8974549770E-001 -1.8366873264E-003  +9.9068140984E-001 +9.0900063515E-004  +1.5149487182E-002 -2.2900601849E-002 
5139952.441 +7.7597438358E-003 +1.3118137605E-002  +9.9477905035E-001 +2.5444030762E-003  +9.9155986309E-001 +2.0394325256E-003  +1.7232038081E-002 -2.1275892854E-002 
5265097.622 +8.0847041681E-004 +1.3380330056E-002  +9.9340283871E-001 +1.6485452652E-003  +9.9264144897E-001 +3.0023455620E-003  +1.8685679883E-002 -2.1009065211E-002 
5390242.804 +1.0120534338E-002 +1.8822878599E-002  +9.9218541384E-001 +3.2501816750E-003  +9.9180096388E-001 +6.2183439732E-003  +1.2671114877E-002 -2.3807501420E-002 
5515387.985 +1.3352622278E-002 +1.7853429541E-002  +9.9262905121E-001 +5.1885843277E-004  +9.9320101738E-001 +2.7855038643E-003  +1.6351681203E-002 -2.2648826241E-002 
5640533.166 +1.7042832449E-002 +2.1415010095E-002  +9.9304378033E-001 +1.4358460903E-003  +9.9211287498E-001 +4.4976770878E-003  +9.7511867061E-003 -2.8338972479E-002 
5765678.348 +8.1210862845E-003 +1.3214922510E-002  +9.9675530195E-001 +3.6772191525E-003  +9.9354904890E-001 +3.3798515797E-003  +9.9940886721E-003 -1.7365396023E-002 
5890823.529 +1.3514975086E-002 +8.0312360078E-003  +9.9776804447E-001 -4.5982003212E-004  +9.9172288179E-001 +1.2378394604E-003  +9.1346884146E-003 -2.3748312145E-002 
6015968.711 +1.8220882863E-002 +1.5404561535E-002  +9.9503016472E-001 +1.4801919460E-003  +9.9281489849E-001 -3.3542513847E-004  +6.0390564613E-003 -2.3739159107E-002 
6141113.892 +1.1792859063E-002 +9.3939444050E-003  +9.9414533377E-001 +5.6296586990E-005  +9.9148899317E-001 -5.7837367058E-004  +4.6263812110E-003 -1.7447285354E-002 
6266259.074 +1.4092620462E-002 +8.5378624499E-003  +9.9125134945E-001 +1.3824999332E-003  +9.9558299780E-001 -1.5705823898E-005  +5.9498324990E-003 -1.3119889423E-002 
6391404.255 +9.2507638037E-003 +4.0262741968E-003  +9.9416798353E-001 -2.0312070847E-003  +9.9733304977E-001 -9.8976492882E-004  +3.4340866841E-003 -1.7980802804E-002 
6516549.437 +1.6128912568E-002 +3.0885995366E-003  +9.9343442917E-001 +1.4258623123E-003  +9.9197733402E-001 -5.5477023125E-004  +3.2025505789E-003 -1.5717113391E-002 
6641694.618 +1.5362807550E-002 +1.0191419162E-002  +9.9343025684E-001 +1.7720013857E-003  +9.9597173929E-001 +7.0624053478E-004  +8.5003627464E-003 -1.6650771722E-002 
6766839.800 +1.5773801133E-002 +9.1089867055E-003  +9.9458563328E-001 +2.2825300694E-003  +9.9536550045E-001 -1.2320280075E-003  +9.5833186060E-003 -1.8129374832E-002 
6891984.981 +1.5859225765E-002 +4.2588906363E-003  +9.9314892292E-001 +1.2283474207E-003  +9.9508833885E-001 -4.5301020145E-004  +4.4540329836E-003 -1.5221485868E-002 
7017130.163 +1.8676117063E-002 +6.7396238446E-003  +9.9407595396E-001 +9.2869997025E-004  +9.9555838108E-001 +6.3525140285E-004  +6.8281777203E-003 -1.1107761413E-002 
7142275.344 +1.5119934455E-002 +6.3526039012E-003  +9.9461513758E-001 -1.1261552572E-003  +9.9242812395E-001 +8.9971721172E-004  +1.7413897440E-003 -1.3341234997E-002 
7267420.526 +1.5542314388E-002 +7.0832977071E-003  +9.9247759581E-001 +1.0692924261E-003  +9.9624073505E-001 +1.9087642431E-003  +5.4694386199E-003 -1.4276138507E-002 
7392565.707 +1.7863471061E-002 +5.1474496722E-003  +9.9379748106E-001 +1.0036602616E-003  +9.9550288916E-001 +1.7513483763E-003  +8.6208488792E-003 -1.1524425820E-002 
7517710.889 +1.5648413450E-002 +3.1432607211E-003  +9.9521827698E-001 +6.1649829149E-004  +9.9427819252E-001 -4.3826550245E-004  +8.2603543997E-003 -1.2174166739E-002 
7642856.070 +1.4546901919E-002 +4.5754713938E-003  +9.9262434244E-001 +4.7162175179E-006  +9.9254065752E-001 +9.3387812376E-004  +4.0949555114E-003 -9.5694633201E-003 
7768001.252 +1.5348816290E-002 +2.8082909994E-003  +9.9248510599E-001 -1.9883997738E-003  +9.9419957399E-001 +1.7617903650E-003  +2.3807408288E-003 -9.7606200725E-003 
7893146.433 +1.5744691715E-002 +3.4906440414E-003  +9.9318248034E-001 +2.0694360137E-004  +9.9380820990E-001 +5.9245899320E-004  +4.1424459778E-003 -7.2334250435E-003 
8018291.615 +1.4651339501E-002 +4.3617910706E-003  +9.9350911379E-001 +2.2012740374E-004  +9.9396109581E-001 -1.7258315347E-003  +2.3603599984E-003 -1.1600293219E-002 
8143436.796 +1.4499277808E-002 +2.8094057925E-003  +9.9745595455E-001 -1.2005241588E-003  +9.9353259802E-001 -1.4121644199E-004  +1.8515146803E-003 -1.1068081483E-002 
8268581.977 +1.4583655633E-002 +5.1715318114E-003  +9.9261009693E-001 -4.2520835996E-004  +9.9429190159E-001 +1.2765489519E-003  +1.3891457347E-003 -8.5702473298E-003 
8393727.159 +1.3910361566E-002 +1.2370970799E-003  +9.9380385876E-001 -6.2380731106E-004  +9.9390590191E-001 -1.2286156416E-003  +2.7384362184E-003 -8.9973071590E-003 
8518872.340 +1.6052620485E-002 -1.3506571995E-003  +9.9420219660E-001 -1.0263100266E-003  +9.9323666096E-001 +1.2995302677E-004  +3.4456178546E-003 -1.1337537318E-002 
8644017.522 +1.1583570391E-002 -2.8604024556E-004  +9.9312829971E-001 +9.4837695360E-004  +9.9303948879E-001 -3.5629421473E-004  +5.4200226441E-003 -8.4389876574E-003 
8769162.703 +1.0866331868E-002 +6.5945292590E-004  +9.9264317751E-001 -6.7800283432E-005  +9.9276638031E-001 +5.2091479301E-004  +7.0902495645E-003 -9.0295132250E-003 
8894307.885 +1.3309035450E-002 -1.0305584874E-003  +9.9368727207E-001 -8.4148347378E-004  +9.9493223429E-001 -3.5423040390E-004  +1.4269883977E-003 -9.4438046217E-003 
9019453.066 +1.3369079679E-002 -2.2599983495E-003  +9.9372500181E-001 -1.9485652447E-003  +9.9521058798E-001 -8.4242224693E-004  +4.1503543034E-003 -9.9867833778E-003 
9144598.248 +1.3169992715E-002 +1.9875098951E-004  +9.9410986900E-001 -1.3426989317E-003  +9.9270319939E-001 -1.1062622070E-004  +1.4335701708E-003 -9.9497437477E-003 
9269743.429 +1.2897418812E-002 -1.6690124758E-003  +9.9351096153E-001 +4.4950842857E-004  +9.9227207899E-001 -1.4314055443E-004  +1.2715577614E-003 -8.5341194645E-003 
9394888.611 +1.2105671689E-002 -3.7394557148E-004  +9.9357324839E-001 -2.3674964905E-004  +9.9548470974E-001 -1.4022588730E-003  +2.6763831265E-003 -1.0039522313E-002 
9520033.792 +1.0380795226E-002 -3.7564667873E-003  +9.9513143301E-001 +1.1381506920E-004  +9.9452376366E-001 -1.3824701309E-003  +1.5589480754E-003 -8.6915045977E-003 
9645178.974 +1.4153820463E-002 -3.0265608802E-004  +9.9346232414E-001 -1.8370747566E-003  +9.9317991734E-001 +7.2044134140E-004  +1.0012115818E-003 -8.5187498480E-003 
9770324.155 +1.2789256871E-002 +3.8505811244E-004  +9.9269187450E-001 -1.0692775249E-003  +9.9365234375E-001 -7.3003768921E-004  -2.0470041782E-003 -8.5080275312E-003 
9895469.337 +1.0944143869E-002 +9.3092606403E-004  +9.9269676208E-001 -1.1712908745E-003  +9.9273824692E-001 +5.8695673943E-004  +5.9233664069E-004 -5.2401646972E-003 
10020614.518 +1.2574701570E-002 -4.2509939522E-004  +9.9235153198E-001 -1.5093982220E-003  +9.9339944124E-001 -3.0517578125E-004  +3.7268500309E-003 -2.8133937158E-003 
10145759.700 +1.2360027991E-002 -7.9597020522E-004  +9.9351364374E-001 +1.4415383339E-004  +9.9369215965E-001 -2.5337934494E-004  +4.4422447681E-003 -5.5719101802E-003 
10270904.881 +1.2865486555E-002 +5.3506344557E-005  +9.9375385046E-001 -3.7282705307E-004  +9.9354743958E-001 -8.9830160141E-004  +2.3783552460E-003 -6.2319468707E-003 
10396050.063 +1.2314047664E-002 +2.3655239493E-003  +9.9264210463E-001 +3.3080577850E-005  +9.9352276325E-001 -1.3237297535E-003  +1.0448351968E-003 -7.3806964792E-003 
10521195.244 +1.3434661552E-002 +1.2203166261E-003  +9.9321216345E-001 -1.4123320580E-004  +9.9368751049E-001 -9.8520517349E-004  +3.3751931041E-003 -6.9647962227E-003 
10646340.426 +1.0591488332E-002 +9.7516318783E-004  +9.9263536930E-001 -1.0458230972E-003  +9.9274897575E-001 -8.0272555351E-004  +3.6107411142E-003 -7.3604844511E-003 
10771485.607 +1.3415832072E-002 +5.1406119019E-004  +9.9275314808E-001 -1.1874735355E-003  +9.9259316921E-001 +1.5366077423E-004  +2.7425414883E-003 -5.9957606718E-003 
10896630.788 +1.1322502047E-002 +1.7150593922E-003  +9.9284046888E-001 -7.7414512634E-004  +9.9328076839E-001 -7.5533986092E-004  +2.6828818955E-003 -4.7222850844E-003 
11021775.970 +1.1749330908E-002 +7.6900236309E-004  +9.9252313375E-001 -4.9141049385E-004  +9.9354255199E-001 -6.9242715836E-004  +2.0871362649E-003 -5.1103602163E-003 
11146921.151 +1.1640683748E-002 -2.0174914971E-004  +9.9251425266E-001 -1.4554560184E-003  +9.9322974682E-001 -1.2138783932E-003  +2.3484132253E-003 -5.6449235417E-003 
11272066.333 +1.0756569915E-002 -9.0284040198E-004  +9.9350881577E-001 -3.9675831795E-004  +9.9235236645E-001 -4.4238567352E-004  +2.2351476364E-003 -6.2481593341E-003 
11397211.514 +1.0493712500E-002 -1.6132974997E-003  +9.9244618416E-001 +6.6906213760E-005  +9.9313336611E-001 -1.2609362602E-004  +2.4463827722E-003 -3.7444848567E-003 
11522356.696 +1.1153385974E-002 -1.6296552494E-003  +9.9262714386E-001 -6.1973929405E-004  +9.9336135387E-001 +7.7784061432E-005  +3.2574781217E-003 -3.4418092109E-003 
11647501.877 +1.2165265158E-002 -1.4889347367E-003  +9.9319720268E-001 -6.5347552299E-004  +9.9349784851E-001 -7.5304508209E-004  +1.7886906862E-003 -4.1277208366E-003 
11772647.059 +1.1175418273E-002 -1.4093080536E-003  +9.9288272858E-001 +4.5457482338E-004  +9.9325549603E-001 +7.9870223999E-005  +3.3119674772E-003 -3.8403554354E-003 
11897792.240 +9.7929695621E-003 -1.5316717327E-004  +9.9258053303E-001 -1.1317431927E-003  +9.9285233021E-001 +2.7629733086E-004  +3.7665225100E-003 -3.2814375591E-003 
12022937.422 +9.1595258564E-003 -8.2373898476E-004  +9.9258053303E-001 -6.0054659843E-004  +9.9307405949E-001 -7.7930092812E-004  +3.4861410968E-003 -3.8359889295E-003 
12148082.603 +1.1185370386E-002 -8.4736570716E-004  +9.9284243584E-001 -4.1425228119E-004  +9.9326694012E-001 -1.3917684555E-004  +3.5984294955E-003 -3.2399189658E-003 
12273227.785 +1.1256209575E-002 -2.1914159879E-004  +9.9306917191E-001 -6.0734152794E-004  +9.9284207821E-001 -4.4226646423E-004  +3.7217615172E-003 -2.9383208603E-003 
12398372.966 +9.9729355425E-003 -6.4823799767E-004  +9.9259036779E-001 -1.4492869377E-004  +9.9317443371E-001 +1.3872981071E-004  +4.5602186583E-003 -2.6955294888E-003 
12523518.148 +9.5483250916E-003 -1.6661640257E-004  +9.9289768934E-001 -7.0476531982E-004  +9.9301332235E-001 -7.6723098755E-004  +2.8101969510E-003 -3.7451481912E-003 
12648663.329 +1.1000776663E-002 +9.7134010866E-004  +9.9323654175E-001 -8.0195069313E-004  +9.9285787344E-001 -2.9414892197E-005  +3.7587941624E-003 -2.6828953996E-003 
12773808.511 +1.1126583442E-002 -1.4551230706E-003  +9.9313336611E-001 -6.2593817711E-004  +9.9227696657E-001 -7.4326992035E-005  +3.8506120909E-003 -3.0330929440E-003 
12898953.692 +1.0138029233E-002 -7.6494109817E-004  +9.9332261086E-001 -8.3827972412E-004  +9.9286121130E-001 -4.3472647667E-004  +4.0960088372E-003 -2.9682081658E-003 
13024098.874 +1.0419186205E-002 +1.0272311047E-003  +9.9279570580E-001 -4.3052434921E-004  +9.9349260330E-001 -3.4481287003E-004  +3.9444151334E-003 -2.4285565596E-003 
13149244.055 +1.1140469462E-002 +7.8597757965E-004  +9.9247580767E-001 -5.3255259991E-004  +9.9301654100E-001 +6.1990320683E-004  +4.9634771422E-003 -2.1141162142E-003 
13274389.237 +1.0760616511E-002 -5.9517798945E-004  +9.9233114719E-001 -7.4453651905E-004  +9.9262410402E-001 -6.4639747143E-004  +6.0235345736E-003 -1.3844578061E-003 
13399534.418 +1.0027170181E-002 +5.2863894962E-004  +9.9295717478E-001 +9.8720192909E-005  +9.9291235209E-001 -1.7106533051E-004  +5.3923698142E-003 -1.9513955340E-003 
13524679.599 +9.9596213549E-003 +1.0600810638E-003  +9.9260580540E-001 -4.5880675316E-005  +9.9301224947E-001 -6.3180923462E-006  +5.9545794502E-003 -1.9301800057E-004 
13649824.781 +1.0499443859E-002 +5.4053921485E-004  +9.9250781536E-001 -4.0610879660E-004  +9.9304866791E-001 -4.3278932571E-004  +5.5477092974E-003 -1.5609459952E-003 
13774969.962 +1.0478359647E-002 -7.1839429438E-005  +9.9234938622E-001 -3.6139227450E-004  +9.9286931753E-001 -1.4062970877E-004  +5.5034798570E-003 -1.5326044522E-003 
13900115.144 +1.0614507832E-002 +1.0722612496E-003  +9.9238467216E-001 -5.4769217968E-004  +9.9272787571E-001 -5.4649636149E-004  +5.3711025976E-003 -5.8952666586E-004 
14025260.325 +9.1145224869E-003 +9.2518579913E-004  +9.9256151915E-001 -4.9462169409E-004  +9.9258631468E-001 +1.0919570923E-004  +6.2074456364E-003 -1.0975910118E-003 
14150405.507 +1.0627656244E-002 +5.7283026399E-004  +9.9269396067E-001 -4.3375790119E-004  +9.9305284023E-001 -3.2715499401E-005  +5.2484329790E-003 -3.0294508906E-004 
14275550.688 +1.0663864203E-002 +1.0448020184E-003  +9.9243551493E-001 -3.7108361721E-004  +9.9302721024E-001 -2.0465254784E-004  +5.7807262056E-003 -1.3174415799E-003 
14400695.870 +9.8901810125E-003 +4.7300814185E-004  +9.9287140369E-001 -1.8633902073E-004  +9.9230694771E-001 -8.5793435574E-004  +4.6517853625E-003 -9.8805339076E-004 
