!  2-Port S-parameters saved by WinCal
! VAR MeasName=S-Parameters (CALIBRATED_DATA) read from VNA (P5004A)
! VAR MeasDate=22/05/2024 17:09:55
! VAR NAME=Wafer2_r10_c14_thrunotaper
! VAR FILENAME=Wafer2_r10_c14_thrunotaper.S2P
! VAR DATE=22/05/2024 17:09:55
! VAR PHYS_PORTS=1,2
! VAR ObjTypeName=DATASET
! VAR IndexType=Frequency
!
# Hz S RI R 50
9000.000 +2.3959718645E-001 -5.6278562546E-001  -3.9021775592E-003 +8.9077465236E-003  +1.3050418347E-002 +1.2141898274E-002  +7.9049229622E-002 +7.6540037990E-002 
134145.181 +6.5161705017E-001 +3.2039409876E-001  +3.3473035693E-001 -2.8829163313E-001  +5.5823898315E-001 -1.8048740923E-001  +1.6189046204E-002 +1.9694381952E-001 
259290.363 +5.1763677597E-001 +5.6213319302E-002  +4.9080988765E-001 -5.3628012538E-002  +4.6743294597E-001 -9.5225244761E-002  +3.7243384123E-001 +6.5106749535E-002 
384435.544 +6.6232430935E-001 +8.7987884879E-002  +3.2198774815E-001 -3.6513200402E-001  +3.3906641603E-001 -3.9204338193E-001  +6.8879449368E-001 +5.6441307068E-001 
509580.726 +6.9730806351E-001 +1.6255506873E-001  +2.9964983463E-001 -3.5855755210E-001  +3.0766245723E-001 -3.6603781581E-001  +7.0212990046E-001 +5.2481639385E-001 
634725.907 +8.8507354259E-001 -1.0469329357E-001  +1.9350162148E-001 -3.3079259098E-002  +1.9543728232E-001 -3.8447231054E-002  +8.2199692726E-001 +3.3318042755E-002 
759871.089 +1.4736101627E+000 -3.7568575144E-001  -3.9405015111E-001 +4.3098443747E-001  -4.0176644921E-001 +4.3563482165E-001  +1.5090039968E+000 -7.6878428459E-001 
885016.270 +1.6652958393E+000 +6.6458398104E-001  -8.7876254320E-001 -1.1945713758E+000  -8.7750720978E-001 -1.1914010048E+000  +1.8908653259E+000 +1.3846273422E+000 
1010161.452 +4.8881536722E-001 +2.9301708937E-001  +5.1293504238E-001 -7.0432943106E-001  +5.2768230438E-001 -7.2472190857E-001  +4.2102083564E-001 +1.1474678516E+000 
1135306.633 +1.8364217877E-001 +2.8782272339E-001  +7.0003265142E-001 -4.4541785121E-001  +6.9709151983E-001 -4.5408108830E-001  +2.9632386565E-001 +7.0611065626E-001 
1260451.815 +5.6048971415E-001 -3.4989733249E-002  +5.6331324577E-001 -7.7827736735E-002  +5.6663000584E-001 -8.4196850657E-002  +4.0948209167E-001 +2.9541039467E-001 
1385596.996 +6.5543949604E-001 -3.5851961374E-001  +5.3121680021E-001 +2.2039015591E-001  +5.3781193495E-001 +2.1408456564E-001  +3.9606502652E-001 -1.2077355385E-001 
1510742.178 +3.9440634847E-001 -4.7334900498E-001  +9.4138187170E-001 +2.3751798272E-001  +9.4908046722E-001 +2.4755442142E-001  -1.2965305150E-001 -2.0404285192E-001 
1635887.359 +3.2802903652E-001 -8.6937201023E-001  +6.5445089340E-001 +5.5849087238E-001  +6.4450663328E-001 +5.5085724592E-001  +2.9217785597E-001 -3.5281497240E-001 
1761032.541 -3.8213872910E-001 -1.1582298279E+000  +1.2963587046E+000 +7.8709298372E-001  +1.2862725258E+000 +8.1042087078E-001  -2.4229848385E-001 -5.8790481091E-001 
1886177.722 -7.9728806019E-001 +6.6520422697E-002  +1.6447987556E+000 -1.0725013912E-001  +1.6500535011E+000 -1.1515654624E-001  -5.4733479023E-001 +1.0439465940E-001 
2011322.904 -5.6907683611E-001 +1.7248810828E-001  +1.4095075130E+000 -2.1378603578E-001  +1.4081600904E+000 -2.1663066745E-001  -2.9854798317E-001 +2.1339944005E-001 
2136468.085 -5.7495802641E-001 +3.5304498672E-001  +1.3552794456E+000 -3.9087113738E-001  +1.3603852987E+000 -3.8746783137E-001  -1.9725358486E-001 +3.6782532930E-001 
2261613.267 -1.8705663085E-001 +2.6986658573E-001  +1.0703406334E+000 -2.8200197220E-001  +1.0647530556E+000 -2.8162816167E-001  -1.0005459189E-003 +2.4830105901E-001 
2386758.448 -2.0880708098E-001 +2.1022634208E-001  +1.0743238926E+000 -2.1526101232E-001  +1.0704095364E+000 -2.1195797622E-001  +1.9747857004E-002 +1.8149755895E-001 
2511903.630 -1.1441405118E-001 +1.6927501559E-001  +9.8569983244E-001 -1.5982219577E-001  +9.8305946589E-001 -1.6114673018E-001  +8.7357245386E-002 +1.3544717431E-001 
2637048.811 -5.5243216455E-002 +1.3625684381E-001  +9.6972531080E-001 -1.2668953836E-001  +9.6820610762E-001 -1.2953847647E-001  +7.5175538659E-002 +9.9720090628E-002 
2762193.992 -5.6663762778E-002 +1.0234373808E-001  +9.6975409985E-001 -1.0631462932E-001  +9.6903383732E-001 -1.0890593380E-001  +7.6401956379E-002 +7.1687355638E-002 
2887339.174 -5.2918314934E-002 +8.5743762553E-002  +9.4503068924E-001 -8.0431401730E-002  +9.4642233849E-001 -8.1457287073E-002  +8.9412525296E-002 +4.8078365624E-002 
3012484.355 -5.0922170281E-002 +7.2744764388E-002  +9.4528579712E-001 -5.3631305695E-002  +9.4381076097E-001 -5.2852302790E-002  +8.7700448930E-002 +3.7074051797E-002 
3137629.537 -5.1101848483E-002 +7.6278612018E-002  +9.6321904659E-001 -5.9448033571E-002  +9.5991504192E-001 -5.9283792973E-002  +6.8541668355E-002 +3.0225437135E-002 
3262774.718 -2.6579301804E-002 +7.9770281911E-002  +9.5259922743E-001 -3.7334889174E-002  +9.4977676868E-001 -3.7496924400E-002  +7.3245309293E-002 +5.8990884572E-003 
3387919.900 -2.5839518756E-002 +8.2930877805E-002  +9.5098447800E-001 -4.4329613447E-002  +9.5016944408E-001 -4.5488566160E-002  +6.1321038753E-002 +3.5126879811E-003 
3513065.081 -1.2934563681E-002 +7.2059623897E-002  +9.4827115536E-001 -1.4694571495E-002  +9.4890230894E-001 -1.5283375978E-002  +6.6038638353E-002 -8.1843324006E-003 
3638210.263 -1.7103504390E-002 +5.6871969253E-002  +9.5601737499E-001 -1.3820201159E-002  +9.5574742556E-001 -1.3886630535E-002  +5.9058152139E-002 -3.9514340460E-003 
3763355.444 -1.2709127739E-002 +5.8312613517E-002  +9.6060299873E-001 -1.0298758745E-002  +9.6022629738E-001 -1.0347992182E-002  +5.5486530066E-002 -1.1775450781E-002 
3888500.626 +1.6306720674E-002 +5.5042758584E-002  +9.6710717678E-001 +4.8885941505E-003  +9.7111916542E-001 -4.8072636127E-003  +3.5885494202E-002 -2.6434360072E-002 
4013645.807 +3.5832151771E-003 +4.3421547860E-002  +9.7497236729E-001 +3.2567083836E-003  +9.7001743317E-001 +4.3451488018E-003  +3.7737458944E-002 -8.3126267418E-003 
4138790.989 +1.5011035837E-002 +3.9263885468E-002  +9.8593437672E-001 +9.1644227505E-003  +9.7882175446E-001 +1.2479811907E-002  +2.8798801824E-002 -2.2175967693E-002 
4263936.170 +1.6274990514E-002 +3.5082884133E-002  +9.7596991062E-001 +2.8955340385E-003  +9.7251880169E-001 +5.1652789116E-003  +3.4067798406E-002 -9.4698099419E-003 
4389081.352 +1.0303048417E-002 +2.6837209240E-002  +9.8293757439E-001 +4.8930644989E-003  +9.7541069984E-001 +3.1695067883E-003  +2.5579441339E-002 -1.8139984459E-002 
4514226.533 +7.3168617673E-003 +2.2793950513E-002  +9.8965102434E-001 -5.2216649055E-004  +9.9001681805E-001 +5.5888593197E-003  +3.0214698985E-002 -1.6138086095E-002 
4639371.715 +1.8996223807E-002 +2.6081049815E-002  +9.8405396938E-001 +8.2441270351E-003  +9.9190449715E-001 +1.1474758387E-002  +2.9166152701E-002 -1.4132271521E-002 
4764516.896 +1.1528140865E-002 +2.2883500904E-002  +9.9240744114E-001 +6.9943964481E-003  +9.8760724068E-001 +6.6818296909E-003  +1.9307835028E-002 -1.3904309832E-002 
4889662.078 +2.0814180374E-002 +2.1448556334E-002  +9.9105501175E-001 +4.3720901012E-003  +9.8608636856E-001 +1.0402679443E-002  +1.6394600272E-002 -1.0902175680E-002 
5014807.259 +6.9383829832E-003 +1.3841579668E-002  +9.9192398787E-001 +2.8773248196E-003  +9.9328410625E-001 +4.5193135738E-003  +2.0766092464E-002 -4.3182452209E-003 
5139952.441 +2.2221485153E-002 -3.4938137978E-003  +9.9595057964E-001 +7.7478885651E-003  +9.9616968632E-001 +8.0577135086E-003  +1.8580753356E-002 -3.8057034835E-003 
5265097.622 +1.8917754292E-002 +1.0317796841E-002  +9.9345654249E-001 +4.9696564674E-003  +9.8622387648E-001 +4.9410462379E-003  +1.5001444146E-002 -6.6191824153E-003 
5390242.804 +1.5874182805E-002 +8.8596660644E-003  +9.9366194010E-001 +6.1529874802E-003  +9.9133569002E-001 +9.8734796047E-003  +1.4086697251E-002 -1.0340826586E-002 
5515387.985 +1.9635247067E-002 +6.8724025041E-003  +9.9529957771E-001 +4.9339532852E-003  +9.9342244864E-001 +3.7933290005E-003  +1.3819852844E-002 -8.9832646772E-003 
5640533.166 +2.1165998653E-002 +1.2719959952E-002  +9.9421596527E-001 +5.8185160160E-003  +9.9342131615E-001 +5.3576827049E-003  +8.1763379276E-003 -1.4852475375E-002 
5765678.348 +1.9265547395E-002 +1.2455159798E-002  +9.9057883024E-001 +6.1680674553E-003  +9.9021983147E-001 +4.2698085308E-003  +1.1129540391E-002 -6.6801765934E-003 
5890823.529 +1.8724180758E-002 +5.2306372672E-003  +9.9682235718E-001 +3.9730966091E-003  +9.9465608597E-001 +4.7277212143E-003  +1.5646615997E-002 -9.3960985541E-003 
6015968.711 +1.6666961834E-002 +4.4228062034E-003  +9.9456393719E-001 +2.1767616272E-003  +9.9195474386E-001 +4.0132105350E-003  +1.4632298611E-002 -1.1056095362E-002 
6141113.892 +1.5309935436E-002 -2.8597991914E-003  +9.9653357267E-001 +1.5738904476E-003  +9.9462699890E-001 +2.9670000076E-003  +9.8535269499E-003 -7.5624976307E-003 
6266259.074 +1.7670350149E-002 -3.0434788205E-003  +9.9868619442E-001 +2.6165843010E-003  +9.9350225925E-001 +3.3792853355E-004  +8.4509002045E-003 -5.9012537822E-003 
6391404.255 +1.6365349293E-002 -1.8599368632E-003  +9.9543660879E-001 -1.6163587570E-003  +9.9610000849E-001 -3.2615661621E-004  +1.0343654081E-002 -1.0042970069E-002 
6516549.437 +1.3914254494E-002 +2.5078658946E-003  +9.9281215668E-001 +7.0428848267E-004  +9.9162322283E-001 +4.3952465057E-004  +7.0064305328E-003 -8.7787397206E-003 
6641694.618 +1.7876360565E-002 +1.6584973782E-003  +9.9653327465E-001 -1.0859519243E-003  +9.9627977610E-001 +2.5098025799E-003  +4.4105974957E-003 -1.2554444373E-002 
6766839.800 +1.9341738895E-002 +2.5530741550E-003  +9.9713695049E-001 +7.9849362373E-004  +9.9508279562E-001 -8.0806016922E-004  +1.1798832566E-002 -1.6804672778E-002 
6891984.981 +1.5267418697E-002 -2.2789072245E-003  +9.9361521006E-001 -5.0528347492E-004  +9.9590855837E-001 -1.2847632170E-003  +3.9283572696E-003 -1.0423246771E-002 
7017130.163 +2.0436149091E-002 -5.0164423883E-003  +9.9502640963E-001 -1.3963878155E-003  +9.9523007870E-001 +3.3333897591E-005  +2.8668297455E-003 -7.0721101947E-003 
7142275.344 +1.7433883622E-002 +1.2288154103E-003  +9.9459820986E-001 +9.1940164566E-005  +9.9579375982E-001 +3.0052512884E-003  +7.5956061482E-003 -4.9819634296E-003 
7267420.526 +1.6787854955E-002 +2.9001943767E-004  +9.9460262060E-001 +2.5247037411E-004  +9.9642336369E-001 +8.1150233746E-004  +5.3531881422E-003 -1.0584717616E-002 
7392565.707 +1.9121801481E-002 -2.9209093191E-004  +9.9513906240E-001 +3.3000856638E-004  +9.9616867304E-001 +6.5609812737E-005  +6.0378038324E-003 -8.4293019027E-003 
7517710.889 +1.7764655873E-002 -2.3585974704E-003  +9.9251836538E-001 +8.7407231331E-004  +9.9620038271E-001 -8.3319842815E-004  +5.6312354282E-003 -7.1319285780E-003 
7642856.070 +1.1277594604E-002 -9.6518918872E-004  +9.9286961555E-001 -1.3080537319E-003  +9.9478513002E-001 -9.3795359135E-004  +2.4016019888E-003 -9.4933388755E-003 
7768001.252 +1.4194787480E-002 -4.9154376611E-003  +9.9226546288E-001 -3.3844374120E-003  +9.9414551258E-001 -1.1338554323E-003  +1.4394962927E-003 -5.0161867402E-003 
7893146.433 +1.6527386382E-002 +4.7371577239E-004  +9.9346005917E-001 -4.2193382978E-004  +9.9436569214E-001 +2.2918656468E-003  +1.5957236756E-003 -3.3285799436E-003 
8018291.615 +1.3109373860E-002 -1.6708645853E-004  +9.9476647377E-001 +5.6835357100E-004  +9.9434947968E-001 -2.4349219166E-003  +2.3226276971E-003 -7.0979557931E-003 
8143436.796 +1.2349555269E-002 -2.4777618237E-003  +9.9520039558E-001 -2.2953953594E-003  +9.9308621883E-001 -2.7611227706E-003  -2.2049343679E-003 -6.0197040439E-003 
8268581.977 +1.4299607836E-002 -7.5304665370E-004  +9.9403274059E-001 -9.2858448625E-004  +9.9352324009E-001 -1.1587813497E-003  -4.9567560200E-004 -5.8807604946E-003 
8393727.159 +1.3833946548E-002 -2.8249574825E-003  +9.9425691366E-001 -7.4883550406E-004  +9.9407601357E-001 -8.6158886552E-004  +3.7633418106E-004 -9.0964911506E-003 
8518872.340 +1.2518131174E-002 -6.3569387421E-003  +9.9509292841E-001 -7.0757418871E-004  +9.9442541599E-001 +6.3337385654E-005  +3.4064329229E-003 -7.1406713687E-003 
8644017.522 +9.3445638195E-003 -3.9071347564E-003  +9.9253010750E-001 -1.8872320652E-004  +9.9177026749E-001 -1.2840777636E-003  +1.0794040281E-003 -4.2042322457E-003 
8769162.703 +9.6099358052E-003 -5.1111215726E-003  +9.9269258976E-001 -3.1594932079E-004  +9.9341052771E-001 -8.4759294987E-004  +2.6368913241E-003 -6.4041474834E-003 
8894307.885 +8.2252696157E-003 -4.0561002679E-003  +9.9337947369E-001 -8.9485943317E-004  +9.9416357279E-001 -2.9074698687E-003  -4.9776129890E-004 -7.2942962870E-003 
9019453.066 +1.1971807107E-002 -5.8994470164E-003  +9.9360781908E-001 -3.1543374062E-003  +9.9511575699E-001 -5.8922171593E-004  -9.9947559647E-005 -6.7929462530E-003 
9144598.248 +9.9424934015E-003 -6.0068415478E-003  +9.9365013838E-001 -1.4275759459E-003  +9.9378824234E-001 -4.6063959599E-004  -3.2391271088E-004 -5.2387444302E-003 
9269743.429 +1.0508372448E-002 -4.7315368429E-003  +9.9399685860E-001 -3.1317770481E-004  +9.9329686165E-001 -5.9059262276E-004  -2.7423363645E-004 -6.9896099158E-003 
9394888.611 +1.1331720278E-002 -3.5850696731E-003  +9.9273765087E-001 -8.0910325050E-004  +9.9386578798E-001 -9.8583102226E-004  +9.0223271400E-005 -3.9260666817E-003 
9520033.792 +9.7030568868E-003 -6.2335422263E-003  +9.9402242899E-001 -9.2333555222E-004  +9.9309372902E-001 -6.0424208641E-004  +2.0332662389E-003 -2.2105798125E-003 
9645178.974 +1.0874333791E-002 -4.7127078287E-003  +9.9347484112E-001 -1.5665292740E-003  +9.9339979887E-001 -2.9683113098E-004  -4.0298537351E-004 -4.0658591315E-003 
9770324.155 +1.0328214616E-002 -1.9817911088E-003  +9.9325549603E-001 +1.0536611080E-003  +9.9312263727E-001 -1.5299916267E-003  -5.7218078291E-004 -3.0277222395E-003 
9895469.337 +1.2183346786E-002 -4.1056950577E-003  +9.9323803186E-001 -1.1670589447E-003  +9.9427396059E-001 -5.1087141037E-004  -8.5345073603E-004 -1.7282214249E-003 
10020614.518 +1.0543243960E-002 -3.6271028221E-003  +9.9203133583E-001 -9.5665454865E-004  +9.9284893274E-001 -5.9691071510E-004  +1.7616979312E-003 -1.8573228735E-003 
10145759.700 +1.0870807804E-002 -3.1456416473E-003  +9.9402910471E-001 -9.5847249031E-004  +9.9426782131E-001 -6.7639350891E-004  +6.3649367075E-004 -3.3345008269E-003 
10270904.881 +1.2502742000E-002 -2.8036739677E-003  +9.9364602566E-001 -3.1003355980E-004  +9.9318772554E-001 -1.0195970535E-003  +1.3589079026E-004 -4.1830595583E-003 
10396050.063 +1.2678762898E-002 -2.3751542903E-003  +9.9274957180E-001 -3.5476684570E-004  +9.9264204502E-001 -4.8497319221E-004  -6.1124935746E-004 -4.3004425243E-003 
10521195.244 +1.2614939362E-002 -1.1490569450E-003  +9.9258321524E-001 -4.5001506805E-004  +9.9327909946E-001 -1.1157393456E-003  +2.7379679959E-003 -2.0315125585E-003 
10646340.426 +7.5021791272E-003 -3.0696401373E-003  +9.9307942390E-001 -1.5109777451E-003  +9.9335968494E-001 -1.4364719391E-004  -1.9957200857E-004 -2.1821921691E-003 
10771485.607 +1.1339394376E-002 -1.9020256586E-003  +9.9170076847E-001 -7.6806545258E-004  +9.9298918247E-001 -3.4952163696E-004  +1.0031523416E-003 -1.8668363336E-003 
10896630.788 +1.0718218051E-002 -8.5926661268E-004  +9.9252688885E-001 -3.4958124161E-005  +9.9377536774E-001 -5.1981210709E-004  +1.1005060514E-003 -1.2819730910E-003 
11021775.970 +1.1554168537E-002 +1.6139489599E-003  +9.9239063263E-001 +2.9471516609E-004  +9.9413192272E-001 -4.3824315071E-004  +1.5298109502E-003 -2.2982014343E-003 
11146921.151 +9.3700150028E-003 -3.0618743040E-003  +9.9225926399E-001 -4.5943260193E-004  +9.9367570877E-001 -2.5820732117E-004  +1.2400846463E-003 -9.7430835012E-004 
11272066.333 +8.7738512084E-003 -3.6369757727E-003  +9.9281054735E-001 -5.8972835541E-004  +9.9323689938E-001 -2.4732947350E-004  +1.9463928184E-003 -1.3125370024E-003 
11397211.514 +9.5940679312E-003 -1.7032953911E-003  +9.9250495434E-001 -9.6011161804E-004  +9.9368238449E-001 -3.5864114761E-004  +2.6461922098E-003 -8.2245684462E-004 
11522356.696 +9.1755585745E-003 -1.6750493087E-003  +9.9329602718E-001 -4.5984983444E-004  +9.9316060543E-001 +7.6442956924E-005  +1.9731218927E-003 -1.5871287324E-003 
11647501.877 +9.7975665703E-003 -3.5119592212E-003  +9.9279427528E-001 -5.7309865952E-004  +9.9307870865E-001 +6.8694353104E-005  +7.3900551070E-004 -1.6381900059E-004 
11772647.059 +8.3801923320E-003 -3.9726607502E-003  +9.9400848150E-001 +6.5863132477E-005  +9.9370479584E-001 -7.1346759796E-005  +1.9758099224E-003 -1.7632591771E-003 
11897792.240 +8.8008763269E-003 -4.1433116421E-003  +9.9374908209E-001 +1.4770030975E-004  +9.9311590195E-001 +3.3003091812E-004  +1.9606612623E-003 -1.1438718066E-003 
12022937.422 +7.8509273008E-003 -3.2772840932E-003  +9.9333739281E-001 -5.7458877563E-004  +9.9335384369E-001 -5.5804848671E-004  +2.3714993149E-003 -1.0113106109E-003 
12148082.603 +9.8612699658E-003 -3.2101455145E-003  +9.9316489697E-001 +2.6503205299E-004  +9.9313503504E-001 +3.0046701431E-004  +1.1406322010E-003 -1.6084676608E-003 
12273227.785 +8.9718569070E-003 -2.5040367618E-003  +9.9322235584E-001 +1.6212463379E-005  +9.9347019196E-001 -3.3357739449E-004  +1.7852548044E-003 -9.1161759337E-004 
12398372.966 +8.9455079287E-003 -3.8336168509E-003  +9.9348926544E-001 -1.4331936836E-004  +9.9407571554E-001 +1.2010335922E-005  +2.0176228136E-003 -1.2337953085E-003 
12523518.148 +7.7427853830E-003 -1.8587276572E-003  +9.9347221851E-001 -8.7016820908E-004  +9.9357891083E-001 +5.5006146431E-004  +1.0828154627E-003 -7.8045798000E-004 
12648663.329 +9.1920644045E-003 -1.5604675282E-003  +9.9336230755E-001 -2.1260976791E-004  +9.9354952574E-001 +8.0913305283E-005  +2.2988754790E-003 +9.6578209195E-005 
12773808.511 +8.8012553751E-003 -2.5528951082E-003  +9.9313926697E-001 -3.2126903534E-005  +9.9354887009E-001 -3.8444995880E-005  +2.7952773962E-003 -1.7566480674E-003 
12898953.692 +8.7435003370E-003 -7.8400876373E-004  +9.9324494600E-001 -5.4588913918E-004  +9.9357056618E-001 -7.0652365685E-004  +2.1562904585E-003 -1.1403582757E-003 
13024098.874 +9.0244710445E-003 -9.5860811416E-004  +9.9300330877E-001 -2.0936131477E-004  +9.9360930920E-001 -2.8550624847E-005  +3.2031531446E-003 +5.2796734963E-005 
13149244.055 +8.9708324522E-003 -1.9715237431E-004  +9.9305427074E-001 -6.1772763729E-004  +9.9296742678E-001 +2.3815035820E-004  +2.7491280343E-003 +4.2948703049E-004 
13274389.237 +9.4208922237E-003 -1.4525027946E-003  +9.9325132370E-001 -2.3156404495E-005  +9.9334698915E-001 -5.2985548973E-004  +2.7087815106E-003 -2.2014731076E-004 
13399534.418 +8.3759585395E-003 -7.7391002560E-004  +9.9394083023E-001 +4.6595931053E-005  +9.9391740561E-001 -2.1754205227E-004  +2.1088775247E-003 -8.6288677994E-004 
13524679.599 +8.0761080608E-003 +8.4895873442E-005  +9.9359488487E-001 -2.3651868105E-004  +9.9358206987E-001 -2.5545060635E-004  +3.4260938410E-003 +3.6156264832E-004 
13649824.781 +8.9971451089E-003 -8.5123651661E-004  +9.9380153418E-001 -5.0459802151E-004  +9.9370026588E-001 -9.3147158623E-005  +2.8408253565E-003 -3.7707496085E-004 
13774969.962 +8.6973812431E-003 -1.3567252317E-003  +9.9378502369E-001 -5.3920038044E-004  +9.9373894930E-001 -4.8754177988E-004  +2.5249510072E-003 -4.7240022104E-004 
13900115.144 +9.4853453338E-003 -8.0143043306E-004  +9.9342495203E-001 +3.3617019653E-005  +9.9381178617E-001 -1.9868649542E-004  +2.9936011415E-003 +4.2020605179E-004 
14025260.325 +8.0547975376E-003 -9.1569655342E-004  +9.9341720343E-001 +2.1445006132E-004  +9.9404430389E-001 +3.4577399492E-004  +4.2588305660E-003 -1.4763910440E-004 
14150405.507 +8.8714379817E-003 -5.0178403035E-004  +9.9402004480E-001 -2.6006996632E-004  +9.9388992786E-001 -3.6680698395E-004  +2.5354551617E-003 -2.4693028536E-005 
14275550.688 +9.2325629666E-003 -8.9851650409E-004  +9.9316197634E-001 -2.6497244835E-004  +9.9398636818E-001 -2.1992623806E-004  +2.6548167225E-003 -6.8895256845E-004 
14400695.870 +8.3236321807E-003 -1.1469266610E-003  +9.9340319633E-001 +4.8279762268E-006  +9.9339091778E-001 -4.8035383224E-004  +2.6585261803E-003 -1.5696225455E-004 
