!  2-Port S-parameters saved by WinCal
! VAR NAME=Wafer2_r10_c7_opennarrow
! VAR DATE=22/05/2024 16:54:51
! VAR FILENAME=Wafer2_r10_c7_opennarrow.S2P
! VAR MeasName=S-Parameters (CALIBRATED_DATA) read from VNA (P5004A)
! VAR MeasDate=22/05/2024 16:52:05
! VAR PHYS_PORTS=1,2
! VAR ObjTypeName=DATASET
! VAR IndexType=Frequency
!
# Hz S RI R 50
9000.000 +2.5654688478E-001 -5.5943906307E-001  -1.0337876156E-002 -2.6477174833E-002  +8.6353830993E-003 -2.8231597971E-003  +7.5025379658E-002 +9.8012737930E-002 
134145.181 +7.3148697615E-001 +3.8485631347E-002  -5.9508960694E-003 -7.7482033521E-003  -7.2903586552E-003 +2.1270701662E-002  +9.6389687061E-001 -2.1188262105E-001 
259290.363 +9.3200600147E-001 -8.6692959070E-002  +3.6022462882E-003 +5.5964854546E-003  +1.9131405279E-003 -9.2439064756E-003  +1.0341033936E+000 -4.2162209749E-002 
384435.544 +9.5427417755E-001 -2.4808523059E-001  +2.3942226544E-003 +1.1154614622E-003  -1.0703811422E-003 +1.4462554827E-003  +1.0626643896E+000 -8.7725326419E-002 
509580.726 +9.6597301960E-001 -1.2869799137E-001  +1.5082534810E-004 +1.9600521773E-004  +8.5059966659E-004 -4.6472752001E-004  +1.0239685774E+000 -3.0337303877E-002 
634725.907 +1.0738770962E+000 -1.5190380812E-001  +7.9177506268E-004 -1.2868930353E-003  +8.1900251098E-004 +1.1534491205E-004  +1.0610351563E+000 -4.3748527765E-002 
759871.089 +1.1708896160E+000 -4.8446238041E-002  -1.9521823851E-003 +8.2900316920E-004  +7.0693035377E-004 -1.0501074139E-003  +1.0528064966E+000 -3.1416356564E-002 
885016.270 +1.0996062756E+000 -9.2888504267E-002  -1.8042135052E-003 +1.1383674573E-003  -5.1915872609E-004 -3.3060321584E-003  +1.0665490627E+000 -2.8820812702E-002 
1010161.452 +1.1852920055E+000 -5.2748203278E-002  -2.4219956249E-003 -1.3513071463E-004  -1.3079029741E-003 +3.0592326075E-003  +9.3263411522E-001 -1.6987830400E-002 
1135306.633 +1.2193177938E+000 -7.2750329971E-002  -2.5030372199E-003 -1.5344031854E-003  -3.7250321475E-004 -1.1533482466E-003  +9.8676466942E-001 +5.1408410072E-002 
1260451.815 +1.3560855389E+000 -1.1326819658E-001  -3.0953294481E-004 +7.4586052506E-005  +6.6771288402E-005 -2.6231338270E-003  +1.0193500519E+000 +8.8737517595E-002 
1385596.996 +1.2525525093E+000 -1.1452436447E-001  -2.6712281397E-005 -4.0715644718E-004  +7.0630543632E-004 -5.9312995290E-004  +1.0313420296E+000 +5.7484090328E-002 
1510742.178 +1.3870949745E+000 -1.8171048164E-001  -1.8880551215E-003 +5.4391229060E-004  +2.2525188979E-004 +2.7338387445E-003  +1.0215346813E+000 +5.3197860718E-002 
1635887.359 +9.8946887255E-001 -2.6996502280E-001  +1.5908502974E-003 +4.7055855975E-004  +3.6383941188E-004 +1.8477271078E-004  +1.0634843111E+000 +2.7680248022E-002 
1761032.541 +1.0429993868E+000 -2.4743419886E-001  +1.6688684700E-003 -1.2177019380E-003  -1.0675510857E-003 -2.1282039233E-004  +1.0518463850E+000 +1.0296595097E-001 
1886177.722 +1.0038862228E+000 -1.3527169824E-001  +7.8429584391E-004 -3.0691301799E-004  -1.0094663594E-006 -6.0152343940E-004  +1.0510864258E+000 +7.2070628405E-002 
2011322.904 +1.0131072998E+000 -1.1857590079E-001  -4.6868954087E-005 +7.0753321052E-004  -9.3182381534E-005 +7.2487935540E-005  +1.0482615232E+000 +8.3340764046E-002 
2136468.085 +1.0188564062E+000 -9.4327211380E-002  +1.2014112144E-004 +2.7290213620E-004  +9.3049556017E-004 +3.2974791247E-004  +1.0391634703E+000 +7.9440742731E-002 
2261613.267 +1.0227642059E+000 -9.6943616867E-002  -4.6274706256E-004 +9.2902089818E-005  +2.2373170941E-004 +1.0161020327E-004  +1.0329589844E+000 +9.6526384354E-002 
2386758.448 +1.0154907703E+000 -7.5524985790E-002  -1.7990145716E-004 -2.8187467251E-004  +1.9516784232E-004 -7.8525168647E-005  +1.0470529795E+000 +1.0473898053E-001 
2511903.630 +1.0081363916E+000 -5.8632910252E-002  -3.2939924859E-004 +4.5148655772E-005  +2.1046451002E-004 -3.8746069185E-004  +1.0532913208E+000 +1.1830687523E-001 
2637048.811 +1.0145227909E+000 -4.8260241747E-002  +5.8437080588E-004 -2.8647630825E-004  +7.2828086559E-005 +2.8007291257E-004  +1.0450594425E+000 +1.3187947869E-001 
2762193.992 +1.0218586922E+000 -3.3639390022E-002  -1.6916730965E-004 -3.3428685856E-004  +2.0257608412E-005 +4.9604661763E-004  +1.0448663235E+000 +1.4538933337E-001 
2887339.174 +9.9856883287E-001 -4.7219619155E-002  -2.1915858088E-004 -1.8628728867E-004  -3.3947711927E-005 -6.4358755480E-005  +1.0451508760E+000 +1.7045803368E-001 
3012484.355 +1.0016744137E+000 -3.4063547850E-002  -5.1421503304E-004 +2.7773645706E-004  -4.0850063669E-004 -3.4165382385E-004  +1.0777404308E+000 +1.9221790135E-001 
3137629.537 +9.8335152864E-001 -8.8576227427E-003  +3.0253062141E-004 -3.5964211565E-004  +1.6679082182E-004 +3.8474504254E-004  +1.0935695171E+000 +2.0034851134E-001 
3262774.718 +9.7222220898E-001 +1.1766210198E-002  +6.6328223329E-004 +7.1466225199E-004  +3.4738762770E-004 +2.3808065453E-004  +1.1066973209E+000 +2.0201656222E-001 
3387919.900 +9.6418780088E-001 +3.6162950099E-002  -8.8116910774E-004 +4.4782069745E-004  +1.0704113811E-004 +3.5539982491E-004  +1.1163729429E+000 +2.0693591237E-001 
3513065.081 +9.6753454208E-001 +5.3128004074E-002  +2.6708244695E-004 +4.2885274161E-004  +2.1937402198E-004 +4.4172344496E-004  +1.1256648302E+000 +2.3707517982E-001 
3638210.263 +9.7901606560E-001 +7.9144909978E-002  -3.2299180748E-004 -5.8893550886E-004  +3.0184618663E-004 -4.2527270853E-004  +1.1450498104E+000 +2.2946004570E-001 
3763355.444 +9.9230498075E-001 +9.0307399631E-002  +3.4604471875E-004 +5.7447981089E-004  +2.3929869349E-004 -2.5406628265E-004  +1.1787872314E+000 +2.1493743360E-001 
3888500.626 +1.0067987442E+000 +1.1175720394E-001  -5.3734169342E-004 -3.5049451981E-004  -4.9621192738E-004 -3.7345723831E-004  +1.1975960732E+000 +2.1995800734E-001 
4013645.807 +9.5215338469E-001 +3.1759683043E-002  +4.0328290197E-004 +6.4072213718E-005  +3.6259294575E-005 -1.7259523156E-004  +1.1527619362E+000 +7.9973623157E-002 
4138790.989 +8.8057321310E-001 -2.4412008002E-002  +5.5930617964E-004 -1.1317105964E-004  +2.4205498630E-004 -3.5562127596E-004  +1.0683009624E+000 -1.5357721597E-002 
4263936.170 +8.7384736538E-001 -4.5868731104E-003  +4.7536473721E-004 +3.9341204683E-004  +4.2041319830E-005 +4.0215617628E-004  +1.0510033369E+000 -2.6882525533E-002 
4389081.352 +8.8037288189E-001 -3.2096020877E-003  -9.8605849780E-004 +1.7689709784E-004  -3.4684318234E-004 +3.4746300662E-004  +1.0475575924E+000 -4.4417850673E-002 
4514226.533 +8.9428466558E-001 +1.7496999353E-003  +6.2363746110E-004 +5.5550737306E-004  +4.1537519428E-004 +4.3524731882E-004  +1.0451757908E+000 -5.5941097438E-002 
4639371.715 +9.0930831432E-001 +8.2347672433E-003  -3.5799256875E-004 +1.6712072829E-004  +5.3405843209E-004 -2.5717163226E-004  +1.0473712683E+000 -4.4574417174E-002 
4764516.896 +9.0446048975E-001 +1.4049216174E-002  +6.0367659898E-004 +9.7382078820E-005  -3.1582772499E-004 +6.9909445301E-005  +1.0310159922E+000 -6.3220858574E-002 
4889662.078 +9.1323006153E-001 +2.0519081503E-002  -3.4959314507E-004 -5.2406667965E-004  +1.7316250887E-004 +1.9084243104E-004  +1.0330590010E+000 -5.3404476494E-002 
5014807.259 +9.0737843513E-001 +2.3685038090E-002  -3.3450516639E-005 -1.4437262143E-004  +5.2133161807E-004 +6.1815994559E-004  +1.0189111233E+000 -4.6422086656E-002 
5139952.441 +9.1950851679E-001 +2.0168498158E-002  -2.7311765007E-004 +3.5565104918E-004  +4.3867048225E-004 +5.4229883972E-005  +1.0190641880E+000 -5.0292875618E-002 
5265097.622 +9.2505210638E-001 +2.4410616606E-002  +3.9498586557E-004 -5.1023656852E-005  -5.0805509090E-005 -4.2808623402E-004  +1.0182645321E+000 -5.5042412132E-002 
5390242.804 +9.3570172787E-001 +2.8699740767E-002  -1.4027112047E-004 -7.1771681542E-004  -1.6129358846E-004 +3.0545136542E-004  +1.0046459436E+000 -5.2698969841E-002 
5515387.985 +9.4383352995E-001 +2.4828244001E-002  +4.7290071961E-004 +5.0106675189E-005  -1.9721934223E-004 +2.7527299608E-005  +1.0065737963E+000 -6.0264185071E-002 
5640533.166 +9.4511258602E-001 +2.8089571744E-002  +5.9093598975E-004 -1.6632460756E-004  +8.7990592874E-005 +1.5343779523E-004  +1.0043731928E+000 -5.6363008916E-002 
5765678.348 +9.4506454468E-001 +2.2044673562E-002  +4.5318572666E-004 +2.5997965713E-004  -1.9994258764E-004 +1.6438048624E-004  +1.0064758062E+000 -5.1094390452E-002 
5890823.529 +9.5121687651E-001 +2.0571231842E-002  -1.6984566173E-005 +3.4711181070E-004  +1.4873970940E-004 -8.0346697359E-005  +9.9158143997E-001 -5.3293675184E-002 
6015968.711 +9.5311659575E-001 +1.5452757478E-002  +1.9155800692E-004 -1.1773015285E-004  -1.5095997696E-005 -5.6428411881E-006  +9.9799019098E-001 -4.7970041633E-002 
6141113.892 +9.5666164160E-001 +1.7924316227E-002  +1.6283824516E-004 +7.0101879828E-005  +3.2903009560E-004 -2.5161675876E-004  +9.9339145422E-001 -4.7090739012E-002 
6266259.074 +9.5672339201E-001 +1.9755631685E-002  -2.7720972867E-005 -4.1327919462E-005  -2.7248382685E-004 -3.3632686245E-004  +9.8766195774E-001 -4.9045123160E-002 
6391404.255 +9.5818710327E-001 +1.1708639562E-002  +2.2621397511E-004 +1.0254887457E-004  +1.5482337039E-004 +6.5505460952E-005  +9.9067038298E-001 -5.2060380578E-002 
6516549.437 +9.6331983805E-001 +1.8211185932E-002  -4.3277730583E-005 -2.4744195980E-004  -2.4898812990E-004 +1.4432014723E-004  +9.8447906971E-001 -4.2350359261E-002 
6641694.618 +9.6812474728E-001 +2.5060199201E-002  +1.6983896785E-004 -5.6513930758E-005  +2.0105715521E-005 +4.1497667553E-004  +9.8412901163E-001 -3.3072918653E-002 
6766839.800 +9.7246319056E-001 +2.3282274604E-002  +2.2451502446E-004 -1.7402697267E-005  +1.5978324882E-005 -9.7375457699E-005  +9.8652297258E-001 -3.5145223141E-002 
6891984.981 +9.6833157539E-001 +2.3361250758E-002  +6.0277856392E-005 -2.6326131774E-004  +1.2982456246E-004 -4.1467199480E-005  +9.7560864687E-001 -4.0767103434E-002 
7017130.163 +9.6988874674E-001 +2.1456301212E-002  +2.6727397926E-004 +1.6046919336E-004  -1.0416471014E-005 -1.3447144738E-005  +9.7975295782E-001 -3.0647292733E-002 
7142275.344 +9.7174394131E-001 +2.6219144464E-002  -2.0634364046E-004 -1.1816453480E-004  -1.2600654736E-004 -1.4334591106E-004  +9.7936224937E-001 -2.4594247341E-002 
7267420.526 +9.7569340467E-001 +3.1163200736E-002  -4.1855200834E-005 -3.6144723708E-005  -7.6880387496E-005 +6.0381815274E-005  +9.7901123762E-001 -2.5380000472E-002 
7392565.707 +9.7681307793E-001 +2.7025267482E-002  +1.7256908177E-004 -4.5491797209E-006  -1.6644924472E-004 -1.7339461192E-004  +9.8159497976E-001 -2.7183189988E-002 
7517710.889 +9.7848665714E-001 +2.4318009615E-002  -2.7723663152E-005 +7.0063237217E-005  +5.6677472458E-006 +1.0958026542E-004  +9.7573858500E-001 -2.6564627886E-002 
7642856.070 +9.7379279137E-001 +2.8712570667E-002  -1.0823256889E-004 -1.1945767255E-005  +7.6447475294E-005 -9.8962555057E-005  +9.7324693203E-001 -2.4450749159E-002 
7768001.252 +9.8256540298E-001 +2.5876849890E-002  +5.6754543039E-006 +1.8214325246E-004  -4.1858787881E-005 -9.4858674856E-005  +9.7092491388E-001 -2.4292811751E-002 
7893146.433 +9.8703736067E-001 +2.8117090464E-002  +2.1521278541E-004 +6.2631967012E-005  +1.7502612900E-004 -6.7847635364E-005  +9.7300875187E-001 -1.8564149737E-002 
8018291.615 +9.8386406898E-001 +2.4228557944E-002  +6.4529420342E-005 -4.3992466090E-005  -2.0758874598E-005 -8.0222107499E-006  +9.7085785866E-001 -1.9249767065E-002 
8143436.796 +9.8005825281E-001 +2.0393326879E-002  +6.7635919550E-005 -3.7222434912E-005  +1.2854643865E-004 +1.3249235053E-004  +9.7434204817E-001 -1.5445932746E-002 
8268581.977 +9.8388689756E-001 +1.9383221865E-002  -1.2855656678E-005 -5.6910605053E-005  +1.1995345631E-005 -4.6069377277E-005  +9.7274202108E-001 -1.2393742800E-002 
8393727.159 +9.8315507174E-001 +1.5126466751E-002  +1.5723425895E-004 -1.9171465829E-004  +7.4044452049E-005 -1.2573480490E-004  +9.7669047117E-001 -1.2178868055E-002 
8518872.340 +9.8270428181E-001 +1.2076050043E-002  -7.9552293755E-005 +1.8256736803E-004  -1.9217659428E-004 -1.9798440917E-005  +9.7334748507E-001 -8.9460313320E-003 
8644017.522 +9.8037111759E-001 +1.8169909716E-002  -1.1434164480E-004 -9.6885203675E-005  -8.6174812168E-005 +3.5567609302E-006  +9.7739511728E-001 -1.2165337801E-002 
8769162.703 +9.8353254795E-001 +2.0602852106E-002  -4.5196582505E-005 -5.3056679462E-005  -5.1955714298E-005 +7.0886366302E-005  +9.7444975376E-001 -1.0950356722E-002 
8894307.885 +9.8358392715E-001 +1.9300311804E-002  -1.7991453933E-004 -1.3757609850E-005  +1.2132818483E-005 -7.4170093285E-005  +9.7340083122E-001 -1.3343393803E-002 
9019453.066 +9.8536390066E-001 +1.6454517841E-002  -2.7967598726E-005 +1.7030670278E-006  -1.0280387505E-004 -1.9644183340E-005  +9.7562021017E-001 -9.4130635262E-003 
9144598.248 +9.8550814390E-001 +1.4733850956E-002  -1.7708367523E-005 -2.7148730624E-006  -7.0876623795E-005 -4.9887039495E-005  +9.7381752729E-001 -7.9574584961E-003 
9269743.429 +9.8861026764E-001 +1.7951250076E-002  -6.0171645600E-005 -6.8576031481E-005  -9.0484682005E-005 +7.2872899182E-006  +9.7698378563E-001 -6.1463117599E-003 
9394888.611 +9.8999965191E-001 +1.9767493010E-002  +1.7166257021E-004 +1.3326834596E-004  -1.4803043450E-004 +1.2493655959E-004  +9.7461515665E-001 -7.1347951889E-003 
9520033.792 +9.9069082737E-001 +1.6884863377E-002  -3.0181943657E-005 -5.3933390518E-006  -1.4043813280E-005 +1.4166838082E-004  +9.7651195526E-001 -4.2281448841E-003 
9645178.974 +9.9287140369E-001 +1.8932998180E-002  +7.2896589700E-005 +2.8019228921E-005  +1.5544394500E-006 +6.8054732765E-006  +9.7622126341E-001 -3.7662088871E-003 
9770324.155 +9.8920434713E-001 +1.8152505159E-002  +3.1900090107E-005 +1.0401873442E-004  -1.4371387806E-005 +6.2482242356E-005  +9.7449034452E-001 -2.7028918266E-003 
9895469.337 +9.8850500584E-001 +1.7994612455E-002  +7.4991758083E-006 -3.1682197005E-005  -8.6374711827E-006 +1.1272895063E-004  +9.7507786751E-001 -9.6336007118E-004 
10020614.518 +9.9016672373E-001 +1.7547696829E-002  -5.4106480093E-005 +6.5644053393E-005  -1.2990306459E-005 +4.1957358917E-005  +9.7598528862E-001 -1.2275874615E-003 
10145759.700 +9.8931896687E-001 +1.3704478741E-002  +6.4948872023E-006 +1.1729270773E-004  +4.5176311687E-006 +6.3179169956E-005  +9.7603273392E-001 -1.1250674725E-003 
10270904.881 +9.9138396978E-001 +1.4136552811E-002  -4.8761135986E-005 +7.8335673606E-005  +3.2756561268E-006 +4.6220164222E-005  +9.7863018513E-001 -1.4870762825E-003 
10396050.063 +9.8774087429E-001 +1.3155609369E-002  -1.2620040798E-004 -3.0889095797E-006  +3.8509548176E-005 +5.4691023252E-005  +9.7846579552E-001 -1.2341141701E-004 
10521195.244 +9.8976540565E-001 +1.5186578035E-002  +3.1164610846E-005 +9.7351337899E-005  +8.2569829829E-005 +1.5101031750E-006  +9.7967636585E-001 +1.3165771961E-003 
10646340.426 +9.8862206936E-001 +1.3275802135E-002  +1.2797099771E-005 +1.0940150241E-004  -2.3268967198E-006 +5.7163881138E-005  +9.7755682468E-001 +2.8877854347E-003 
10771485.607 +9.8997092247E-001 +1.3287335634E-002  +2.9302296753E-005 +2.8473014027E-005  -7.7256241639E-005 +2.6899027944E-005  +9.7995728254E-001 +3.3072531223E-003 
10896630.788 +9.9092525244E-001 +1.3240814209E-002  -9.5511204563E-006 +5.6335047702E-005  +9.5115483418E-006 +4.9874448450E-005  +9.7914159298E-001 +3.6588311195E-003 
11021775.970 +9.8756617308E-001 +1.2784332037E-002  +1.4656819985E-005 +1.1395774345E-004  +5.6879947806E-005 +5.7606484916E-006  +9.8035740852E-001 +3.3357739449E-003 
11146921.151 +9.8899805546E-001 +1.2420386076E-002  -2.6758931199E-005 +4.2908468458E-005  -9.0869609267E-005 +9.5793671790E-005  +9.8107814789E-001 +3.5419166088E-003 
11272066.333 +9.8852330446E-001 +1.1495798826E-002  +3.9433572965E-005 +6.3361789216E-005  +2.1920741347E-005 +7.0614914875E-005  +9.7941040993E-001 +4.6403408051E-003 
11397211.514 +9.9035787582E-001 +1.2321501970E-002  -2.4741351808E-005 +6.0985921664E-006  -8.0937970779E-006 +1.0111574375E-004  +9.8174250126E-001 +5.1103234291E-003 
11522356.696 +9.8921859264E-001 +1.1438697577E-002  -6.9428635470E-005 +5.4292308050E-005  +7.7939130279E-006 -5.3392246627E-005  +9.8159098625E-001 +5.1603615284E-003 
11647501.877 +9.8757958412E-001 +1.0994434357E-002  -2.6097701266E-005 +7.7545424574E-005  -2.1477639166E-005 -2.3759957912E-006  +9.8225080967E-001 +6.8454444408E-003 
11772647.059 +9.9064767361E-001 +1.0476917028E-002  +2.2215894205E-005 +4.2084295274E-005  -1.8108075892E-006 +7.3833107308E-005  +9.8211616278E-001 +4.8294365406E-003 
11897792.240 +9.8922324181E-001 +1.0968565941E-002  -6.4789564931E-006 +4.3127718527E-005  -1.3534046957E-005 +4.2029612814E-005  +9.8365449905E-001 +5.3381025791E-003 
12022937.422 +9.9125659466E-001 +1.1564403772E-002  -4.1087303543E-005 +7.7646611317E-005  +5.9518119087E-005 +6.6279790190E-005  +9.8226940632E-001 +4.3834149837E-003 
12148082.603 +9.9029874802E-001 +1.1852949858E-002  +2.8933096473E-005 +7.6970980444E-005  +4.7187058954E-006 +1.0282718722E-004  +9.8306959867E-001 +6.5640211105E-003 
12273227.785 +9.9100005627E-001 +1.2549519539E-002  +7.3049479397E-005 -1.3982589735E-006  -4.5832752221E-005 +2.5680859835E-005  +9.8347669840E-001 +6.1685442924E-003 
12398372.966 +9.9011921883E-001 +1.2370765209E-002  +2.8787213523E-005 +2.5941657441E-005  +5.7917895901E-006 +7.6750417065E-005  +9.8469984531E-001 +6.1003267765E-003 
12523518.148 +9.9035900831E-001 +1.2560635805E-002  +1.0454913536E-005 +2.8197302527E-005  +2.6191839424E-005 +4.6555360314E-005  +9.8370248079E-001 +5.9964656830E-003 
12648663.329 +9.9083155394E-001 +1.2666776776E-002  -5.0608403399E-005 +4.8142814194E-005  +3.2534218917E-005 +8.1210746430E-005  +9.8431718349E-001 +7.0292353630E-003 
12773808.511 +9.9161767960E-001 +1.1991918087E-002  +4.5431319450E-005 +5.2529954701E-005  +8.1406933532E-006 +9.1975562100E-006  +9.8564046621E-001 +7.9616755247E-003 
12898953.692 +9.9138218164E-001 +1.2233987451E-002  -4.3579271733E-005 +3.0628127661E-006  +2.2236898076E-005 +6.0529961047E-005  +9.8523515463E-001 +6.1756223440E-003 
13024098.874 +9.9188113213E-001 +1.1878564954E-002  -3.6609590097E-006 +5.3953754104E-005  +9.2084528660E-006 +5.0268394261E-005  +9.8554354906E-001 +7.4340626597E-003 
13149244.055 +9.9103140831E-001 +1.2995211408E-002  +4.7086900850E-006 +2.4260469218E-005  -4.3272633775E-005 +1.1341325035E-007  +9.8570853472E-001 +7.6139420271E-003 
13274389.237 +9.9135124683E-001 +1.1914885603E-002  +2.5152035050E-006 +6.3299739850E-005  +3.0903684092E-005 +7.1721202403E-005  +9.8681348562E-001 +6.5597426146E-003 
13399534.418 +9.9197185040E-001 +1.2044750154E-002  -1.2125941794E-005 +4.2556068365E-005  +2.7401460102E-005 +5.9002195485E-005  +9.8581612110E-001 +8.8289231062E-003 
13524679.599 +9.9101948738E-001 +1.3264760375E-002  +1.1011341030E-006 +2.8356582334E-005  -1.9916060410E-005 +7.9069177445E-005  +9.8749727011E-001 +8.3163827658E-003 
13649824.781 +9.9208104610E-001 +1.1104539037E-002  -4.3609361455E-006 +7.9339457443E-005  -4.2643277993E-006 +7.4299641710E-005  +9.8746502399E-001 +8.6059272289E-003 
13774969.962 +9.9213552475E-001 +1.2182533741E-002  -7.0724436227E-006 +8.3915612777E-005  -1.3992033928E-005 +8.3662998804E-005  +9.8741334677E-001 +7.6289176941E-003 
13900115.144 +9.9175381660E-001 +1.1041939259E-002  +3.1172596209E-005 +6.3526807935E-005  +2.2051861379E-005 +6.3438143115E-005  +9.8793470860E-001 +8.7905526161E-003 
14025260.325 +9.9158704281E-001 +1.1532187462E-002  +1.3394219422E-005 +6.5964770329E-005  +2.5275552616E-005 +8.7203479779E-005  +9.8819267750E-001 +8.3221793175E-003 
14150405.507 +9.9174481630E-001 +1.1836439371E-002  +3.2525480492E-005 +5.6452197896E-005  +3.5469296563E-005 +7.3545452324E-005  +9.8799228668E-001 +9.1014206409E-003 
14275550.688 +9.9201291800E-001 +1.1469781399E-002  +1.6248286556E-006 +7.4359384598E-005  +2.9112014090E-005 +5.7551176724E-005  +9.8817849159E-001 +8.3823800087E-003 
14400695.870 +9.9124246836E-001 +1.0434061289E-002  +1.2571112165E-005 +4.4534652261E-005  -6.7941800808E-007 +8.7385022198E-005  +9.8797279596E-001 +8.8518261909E-003 
