!  2-Port S-parameters saved by WinCal
! VAR MeasName=S-Parameters (CALIBRATED_DATA) read from VNA (P5004A)
! VAR MeasDate=22/05/2024 18:39:22
! VAR NAME=Wafer2_r2_c1_formed_pos0.4dc
! VAR FILENAME=Wafer2_r2_c1_formed_pos0.4dc.S2P
! VAR DATE=22/05/2024 18:39:22
! VAR PHYS_PORTS=1,2
! VAR ObjTypeName=DATASET
! VAR IndexType=Frequency
!
# Hz S RI R 50
9000.000 +2.1430331469E-001 -5.9534454346E-001  +2.7889164630E-004 -3.3568129875E-003  +8.3293509670E-004 -1.6348798526E-003  +4.4579178095E-002 +1.0345548391E-001 
134145.181 +6.1803483963E-001 -6.6614411771E-002  -2.1606922150E-002 -2.7042295784E-002  -1.0507215746E-002 -6.1254901811E-003  -6.1059087515E-001 -7.2589918971E-002 
259290.363 +8.2823336124E-001 -1.4272941649E-001  -8.1087229773E-003 +5.5962982588E-003  +1.3911169954E-003 +1.8853520742E-003  +1.5293115377E+000 -1.0335900784E+000 
384435.544 +9.0143656731E-001 -3.0277711153E-001  +1.8185308203E-002 -7.4344165623E-003  +1.7394784838E-002 -9.6924547106E-003  +3.9940378666E+000 +5.4967188835E-001 
509580.726 +9.4960433245E-001 -1.6282655299E-001  -1.5570276882E-003 -1.7244906630E-003  +1.4992790530E-003 -4.8571364023E-003  +1.7077139616E+000 -1.7621812224E-001 
634725.907 +1.0940797329E+000 -2.0218507946E-001  +1.7605634639E-003 +8.6746076704E-005  +2.7828114107E-003 -3.8098578807E-003  +1.9364032745E+000 +8.0942493677E-001 
759871.089 +1.2689561844E+000 -4.4294238091E-002  -6.5124622779E-006 +4.6261888929E-004  +8.2936213585E-004 +4.3519833707E-004  +1.4480969906E+000 +4.2977839708E-001 
885016.270 +1.0880035162E+000 -3.6796560884E-001  +9.6592324553E-005 +2.4474933743E-003  +2.2952554282E-003 +1.0276385583E-003  +1.2031140327E+000 +4.9696755409E-001 
1010161.452 +1.2400004864E+000 -8.2829296589E-002  -8.8813234470E-005 +1.9955837342E-004  +5.9075345052E-004 +2.7386745205E-004  +1.1837197542E+000 +4.8738276958E-001 
1135306.633 +1.3078927994E+000 -8.0462113023E-002  -5.2639376372E-004 +9.6728769131E-004  +9.8589342088E-004 +2.4428710458E-004  +1.2995588779E+000 +6.0632425547E-001 
1260451.815 +1.5628263950E+000 -7.7655017376E-002  -4.4928051648E-004 -9.4073613582E-005  +1.1236899300E-003 +3.4523056820E-004  +1.1011362076E+000 +7.0197141171E-001 
1385596.996 +1.3766500950E+000 -1.1396604776E-001  +2.9662347515E-005 +1.6234564828E-004  +3.0632014386E-004 +1.4381099027E-004  +9.8565471172E-001 +4.8104992509E-001 
1510742.178 +1.6086705923E+000 -1.4778521657E-001  +4.4847463869E-005 +2.0530507027E-004  -1.3185516582E-004 -6.8176406785E-005  +6.7981284857E-001 +5.7371479273E-001 
1635887.359 +1.1234029531E+000 -3.6647227407E-001  +1.9867731316E-004 -3.5651732469E-004  -3.4466807847E-005 +4.4968671864E-004  +1.5220274925E+000 +6.2993276119E-001 
1761032.541 +1.2872351408E+000 -3.1768622994E-001  +6.1197017203E-005 +2.5466797524E-004  -7.4699964898E-005 +1.7747002130E-004  +1.1043245792E+000 +8.2664167881E-001 
1886177.722 +1.2078280449E+000 -2.3379874229E-001  -8.0061305198E-005 +4.9864367611E-005  -3.0759256333E-006 -3.6540752626E-004  +1.1449737549E+000 +5.5854707956E-001 
2011322.904 +1.1991078854E+000 -2.3064616323E-001  -1.8410585471E-004 +7.2761016781E-005  -1.7128260515E-004 +3.0992602115E-004  +1.1579360962E+000 +5.2588582039E-001 
2136468.085 +1.1997916698E+000 -1.7474168539E-001  -1.4828122221E-004 +1.9280432025E-004  -1.2536311988E-004 +2.8307689354E-004  +1.0963622332E+000 +4.7725012898E-001 
2261613.267 +1.2171127796E+000 -1.7810936272E-001  -2.6856729528E-004 +3.3470039489E-004  -2.4310793378E-004 +1.5264509420E-004  +1.0531182289E+000 +5.1510334015E-001 
2386758.448 +1.2219042778E+000 -1.7652623355E-001  -1.7027046852E-005 +2.9690490919E-004  -4.1173995123E-004 +5.0437939353E-004  +1.0714900494E+000 +5.4544609785E-001 
2511903.630 +1.2353793383E+000 -2.0954309404E-001  -2.5379183353E-004 +4.5451096958E-004  -5.7781592477E-004 +5.4760568310E-004  +1.1155962944E+000 +5.8045434952E-001 
2637048.811 +1.1915907860E+000 -2.3597034812E-001  -1.9112143200E-003 -2.5124447420E-003  -6.0560210841E-004 +3.9500935236E-004  +1.1209990978E+000 +6.0156393051E-001 
2762193.992 +1.1413347721E+000 -1.6124251485E-001  -1.2184126535E-004 +9.6509844298E-004  -2.4772793404E-004 +9.7224052297E-004  +1.1370375156E+000 +5.1695936918E-001 
2887339.174 +1.1850012541E+000 -1.0597619414E-001  -2.7496827533E-004 +5.4607237689E-004  -8.6596055189E-004 +5.4849666776E-004  +9.9897611141E-001 +5.0738781691E-001 
3012484.355 +1.2157710791E+000 -1.1007013917E-001  -7.2701403406E-004 +7.0285616675E-004  -9.0159522370E-004 +4.1392206913E-004  +9.5090758801E-001 +6.1454677582E-001 
3137629.537 +1.2250869274E+000 -1.1249977350E-001  -7.7793281525E-004 +8.2772318274E-004  -7.1774260141E-004 +1.2989696115E-003  +9.6992117167E-001 +7.2255855799E-001 
3262774.718 +1.2342159748E+000 -1.2735295296E-001  -3.7341681309E-004 +9.6780282911E-004  -5.6184682762E-004 +8.8789389702E-004  +1.0144710541E+000 +7.8871309757E-001 
3387919.900 +1.2448213100E+000 -1.2828534842E-001  -1.0329764336E-003 +1.1995290406E-003  -8.0428831279E-004 +8.9425529586E-004  +1.0561145544E+000 +8.5913658142E-001 
3513065.081 +1.2583234310E+000 -1.5658932924E-001  -1.0354033438E-003 +1.2460967992E-003  -1.1034101481E-003 +1.0270881467E-003  +1.0925066471E+000 +9.3317466974E-001 
3638210.263 +1.2749367952E+000 -1.7961919308E-001  -1.5413369983E-003 +1.1833952740E-003  -8.8263163343E-004 +1.3960696524E-003  +1.1909192801E+000 +9.7444760799E-001 
3763355.444 +1.2812559605E+000 -2.1453660727E-001  -5.2600284107E-004 +1.2512307148E-003  -8.4472447634E-004 +1.2554132845E-003  +1.2823809385E+000 +1.0093635321E+000 
3888500.626 +1.2832009792E+000 -2.4318921566E-001  -6.6812674049E-004 +1.1309934780E-003  -1.5787109733E-003 +1.4477601508E-003  +1.3709381819E+000 +1.0720562935E+000 
4013645.807 +1.0916326046E+000 -3.8221904635E-001  -3.5905640107E-004 +2.0898783114E-003  -7.6541304588E-004 +2.3768169340E-003  +1.6508226395E+000 +8.6800980568E-001 
4138790.989 +8.8316166401E-001 -4.1353940964E-001  -7.4241549009E-004 +2.1175616421E-003  -1.8245773390E-005 +2.9271584935E-003  +1.7910553217E+000 +5.4504126310E-001 
4263936.170 +8.5588085651E-001 -3.9517062902E-001  +3.9227248635E-004 +3.0587487854E-003  -4.1255631368E-004 +2.5683010463E-003  +1.8426076174E+000 +4.4521689415E-001 
4389081.352 +8.1932234764E-001 -4.0818527341E-001  +2.6171334321E-004 +2.6424478274E-003  -1.0183688719E-003 +2.1772235632E-003  +1.8891208172E+000 +3.1331068277E-001 
4514226.533 +7.8395277262E-001 -3.8794326782E-001  +4.4796400471E-004 +2.5107865222E-003  +2.0195016987E-004 +2.2800627630E-003  +1.9095288515E+000 +2.1884293854E-001 
4639371.715 +7.6020228863E-001 -3.8511973619E-001  +3.7627099664E-004 +2.4938953575E-003  -5.4234359413E-004 +2.8746861499E-003  +1.9174363613E+000 +1.3735866547E-001 
4764516.896 +7.2929310799E-001 -3.7349575758E-001  +4.7894334421E-004 +3.6160571035E-003  +1.8558453303E-004 +2.4491408840E-003  +1.9217756987E+000 +4.7145456076E-002 
4889662.078 +7.0921039581E-001 -3.4733614326E-001  +2.4175737053E-004 +3.0336966738E-003  +4.7100099619E-004 +2.5370549411E-003  +1.9235385656E+000 -3.6508172750E-002 
5014807.259 +6.7059314251E-001 -3.2073101401E-001  +8.2286505494E-004 +2.9583745636E-003  +8.2592281979E-004 +3.1796665862E-003  +1.8704429865E+000 -1.0613954067E-001 
5139952.441 +6.5093261003E-001 -3.0815047026E-001  -2.1553106490E-004 +3.5693298560E-003  -5.9965503169E-005 +3.0516227707E-003  +1.8462550640E+000 -2.1198767424E-001 
5265097.622 +6.3399189711E-001 -2.7249017358E-001  +9.3094818294E-004 +2.9913752805E-003  +7.0761278039E-004 +2.3510260507E-003  +1.7947651148E+000 -2.6198059320E-001 
5390242.804 +6.1766409874E-001 -2.4386352301E-001  -2.3116997909E-005 +3.2478359062E-003  +1.3689682237E-004 +2.7105421759E-003  +1.7469067574E+000 -3.1509274244E-001 
5515387.985 +6.0959106684E-001 -2.1558609605E-001  +3.7324003642E-004 +2.8327037580E-003  +9.1411254834E-004 +2.8563195374E-003  +1.7070592642E+000 -3.8362014294E-001 
5640533.166 +5.8967483044E-001 -1.9106329978E-001  +9.8105601501E-004 +2.8547474649E-003  +8.4079371300E-004 +2.4665566161E-003  +1.6717883348E+000 -4.1512009501E-001 
5765678.348 +5.7507801056E-001 -1.6419947147E-001  +5.9325067559E-004 +3.3523286693E-003  +5.1131600048E-004 +3.0535433907E-003  +1.6145371199E+000 -4.5999300480E-001 
5890823.529 +5.7504081726E-001 -1.2833227217E-001  +2.5454966817E-004 +2.8677168302E-003  +3.9575895062E-004 +2.7978874277E-003  +1.5478559732E+000 -4.8585364223E-001 
6015968.711 +5.7614719868E-001 -1.0235241055E-001  +4.3929522508E-004 +2.8293926734E-003  +6.5300439019E-004 +2.8495190199E-003  +1.5093042850E+000 -4.9634271860E-001 
6141113.892 +5.6496936083E-001 -6.9361828268E-002  +6.8291759817E-004 +2.7034478262E-003  +3.7378969137E-004 +2.7330701705E-003  +1.4528343678E+000 -5.1427924633E-001 
6266259.074 +5.6831872463E-001 -3.7165559828E-002  +6.8376603303E-004 +2.9197472613E-003  +6.0341099743E-004 +2.6580910198E-003  +1.4021849632E+000 -5.2773070335E-001 
6391404.255 +5.7077455521E-001 -1.0795576498E-002  +1.7604576715E-004 +2.9072915204E-003  +3.4439092269E-004 +2.8486717492E-003  +1.3428298235E+000 -5.4532808065E-001 
6516549.437 +5.7574492693E-001 +2.1263005212E-002  +2.7708412381E-004 +2.9672691599E-003  +5.5581814377E-004 +2.8032835107E-003  +1.3047344685E+000 -5.4008907080E-001 
6641694.618 +5.8262252808E-001 +5.5207755417E-002  +5.4586312035E-004 +3.1333882362E-003  +5.5474363035E-004 +3.2229281496E-003  +1.2676389217E+000 -5.4815268517E-001 
6766839.800 +5.9714961052E-001 +7.6415710151E-002  +3.7109199911E-004 +3.1063586939E-003  +2.0068895537E-004 +3.0235426966E-003  +1.2249164581E+000 -5.4768151045E-001 
6891984.981 +6.0408765078E-001 +9.8463013768E-002  +1.2689243886E-004 +3.1894303393E-003  -1.0634194768E-004 +2.9186375905E-003  +1.1751902103E+000 -5.3922700882E-001 
7017130.163 +6.1025917530E-001 +1.2996311486E-001  +2.9627059121E-004 +3.2855337486E-003  +4.5898451935E-004 +2.9215568211E-003  +1.1453837156E+000 -5.3158217669E-001 
7142275.344 +6.2067145109E-001 +1.5740077198E-001  +3.6154672853E-004 +3.2165416051E-003  +5.3052877774E-004 +3.0412506312E-003  +1.1147977114E+000 -5.2536350489E-001 
7267420.526 +6.3577401638E-001 +1.8433880806E-001  +7.0629263064E-005 +2.7810044121E-003  +9.3009672128E-005 +3.1389631331E-003  +1.0847948790E+000 -5.1218676567E-001 
7392565.707 +6.5396076441E-001 +2.0835855603E-001  +6.5478554461E-005 +3.1989831477E-003  +1.3688570471E-004 +3.3380824607E-003  +1.0552182198E+000 -5.0733661652E-001 
7517710.889 +6.6822862625E-001 +2.2891844809E-001  +2.5953756995E-004 +3.3102040179E-003  +2.7630929253E-004 +3.3198460005E-003  +1.0216085911E+000 -4.9647837877E-001 
7642856.070 +6.8490713835E-001 +2.4928808212E-001  +7.3280476499E-005 +3.2523693517E-003  +3.0899193371E-004 +3.1626366545E-003  +9.8942607641E-001 -4.8315966129E-001 
7768001.252 +7.0728427172E-001 +2.7114140987E-001  +1.0786304483E-004 +3.3293587621E-003  -1.6686462914E-004 +3.3548360225E-003  +9.6458125114E-001 -4.7369369864E-001 
7893146.433 +7.3231983185E-001 +2.8795683384E-001  -1.2530770618E-005 +3.2779986504E-003  +1.4773855219E-004 +3.4394871909E-003  +9.4076937437E-001 -4.5859181881E-001 
8018291.615 +7.5231057405E-001 +3.0412399769E-001  +1.9328709459E-004 +3.4128958359E-003  +8.0291298218E-005 +3.3096671104E-003  +9.1384071112E-001 -4.4160681963E-001 
8143436.796 +7.7586156130E-001 +3.1377637386E-001  -1.2575241271E-005 +3.6245009396E-003  +4.0805083700E-005 +3.3924905583E-003  +8.9564824104E-001 -4.2256832123E-001 
8268581.977 +7.9945576191E-001 +3.2880130410E-001  -9.0217217803E-005 +3.5140065011E-003  +9.8126765806E-005 +3.5249800421E-003  +8.7917494774E-001 -4.0631872416E-001 
8393727.159 +8.2716232538E-001 +3.3901321888E-001  -2.7495564427E-004 +3.7776683457E-003  -2.2449495737E-004 +3.6693117581E-003  +8.6212617159E-001 -3.9550757408E-001 
8518872.340 +8.5607892275E-001 +3.4780842066E-001  -5.1269773394E-005 +3.7621851079E-003  -1.1492177146E-004 +3.6548888311E-003  +8.4399509430E-001 -3.7514764071E-001 
8644017.522 +8.7779653072E-001 +3.5445889831E-001  -2.8320914134E-004 +3.6846832372E-003  -2.9644696042E-005 +3.8026324473E-003  +8.3148729801E-001 -3.6220705509E-001 
8769162.703 +9.1000241041E-001 +3.5898995399E-001  -2.2826751228E-004 +3.9358711801E-003  -1.8541072495E-004 +3.9824852720E-003  +8.1828898191E-001 -3.4655290842E-001 
8894307.885 +9.3558359146E-001 +3.6053305864E-001  -1.7412821762E-004 +4.0426338091E-003  -1.1078640819E-004 +4.1207890026E-003  +8.0116736889E-001 -3.3438187838E-001 
9019453.066 +9.6390390396E-001 +3.6003381014E-001  -1.5878817067E-004 +3.9260857739E-003  -9.1611058451E-005 +4.1007534601E-003  +7.9107230902E-001 -3.1478497386E-001 
9144598.248 +9.9380618334E-001 +3.5997325182E-001  -9.3791517429E-005 +4.1809370741E-003  -2.0376348402E-004 +4.2786104605E-003  +7.7674138546E-001 -2.9895293713E-001 
9269743.429 +1.0200976133E+000 +3.5353848338E-001  -1.8719676882E-004 +4.3626660481E-003  -2.5517493486E-004 +4.1658007540E-003  +7.6935392618E-001 -2.8236991167E-001 
9394888.611 +1.0451296568E+000 +3.5092946887E-001  -1.9757309929E-004 +4.4367001392E-003  -1.8049427308E-004 +4.2647467926E-003  +7.6107740402E-001 -2.6511946321E-001 
9520033.792 +1.0741883516E+000 +3.3924013376E-001  -3.2891682349E-004 +4.6221334487E-003  -2.7532083914E-004 +4.4015208259E-003  +7.5200814009E-001 -2.4644614756E-001 
9645178.974 +1.0985699892E+000 +3.2856717706E-001  -2.6037776843E-004 +4.4536879286E-003  -3.0001625419E-004 +4.4689374045E-003  +7.4276423454E-001 -2.3214355111E-001 
9770324.155 +1.1180236340E+000 +3.1209450960E-001  -3.0283594970E-004 +4.6935891733E-003  -3.3626367804E-004 +4.6436800621E-003  +7.3652505875E-001 -2.1449300647E-001 
9895469.337 +1.1412471533E+000 +2.9995477200E-001  -1.9190146122E-004 +4.6524605714E-003  -2.6610342320E-004 +4.7387247905E-003  +7.2910130024E-001 -1.9685763121E-001 
10020614.518 +1.1597826481E+000 +2.8426158428E-001  -2.5973119773E-004 +4.7443034127E-003  -2.2613862529E-004 +4.6978038736E-003  +7.2758042812E-001 -1.7699345946E-001 
10145759.700 +1.1778688431E+000 +2.6346221566E-001  -2.3886887357E-004 +4.8382747918E-003  -1.8236855976E-004 +4.7848876566E-003  +7.2497165203E-001 -1.6361314058E-001 
10270904.881 +1.1972491741E+000 +2.4397751689E-001  -2.0975735970E-004 +4.9779433757E-003  -1.6289576888E-004 +4.9521159381E-003  +7.2205799818E-001 -1.4686360955E-001 
10396050.063 +1.2084674835E+000 +2.2117269039E-001  -2.5630625896E-004 +5.0412504934E-003  -1.6274768859E-004 +5.0334911793E-003  +7.1790742874E-001 -1.2790226936E-001 
10521195.244 +1.2210731506E+000 +2.0434984565E-001  -2.0903977565E-004 +5.0355074927E-003  -1.1795014143E-004 +5.0982451066E-003  +7.1799969673E-001 -1.1327853799E-001 
10646340.426 +1.2282826900E+000 +1.8453872204E-001  -2.3952033371E-004 +5.2371155471E-003  -1.8770084716E-004 +5.1328428090E-003  +7.1648299694E-001 -9.7379714251E-002 
10771485.607 +1.2361961603E+000 +1.6246157885E-001  -1.5025632456E-004 +5.2228309214E-003  -1.4139455743E-004 +5.2455738187E-003  +7.1534633636E-001 -8.1752747297E-002 
10896630.788 +1.2427314520E+000 +1.4509123564E-001  -1.9165873528E-004 +5.1885992289E-003  -1.6661477275E-004 +5.2448851056E-003  +7.1562659740E-001 -6.6802561283E-002 
11021775.970 +1.2453551292E+000 +1.2450069189E-001  -4.0641753003E-005 +5.3722765297E-003  -1.8553179689E-004 +5.4387315176E-003  +7.1782904863E-001 -5.1817327738E-002 
11146921.151 +1.2494618893E+000 +1.0221755505E-001  -1.6608415172E-004 +5.3969258443E-003  -1.4600926079E-004 +5.4804431275E-003  +7.1892142296E-001 -3.7321716547E-002 
11272066.333 +1.2472198009E+000 +8.1129431725E-002  -1.6122218221E-004 +5.5086729117E-003  -1.1170259677E-004 +5.5059483275E-003  +7.2002744675E-001 -2.2292196751E-002 
11397211.514 +1.2493153811E+000 +6.3577353954E-002  -1.0545644909E-004 +5.6345751509E-003  -1.1696200818E-004 +5.5575286970E-003  +7.2328937054E-001 -8.4314048290E-003 
11522356.696 +1.2471172810E+000 +4.4284582138E-002  -8.4633473307E-005 +5.6555625051E-003  -1.1948030442E-004 +5.6590214372E-003  +7.2778946161E-001 +6.0508251190E-003 
11647501.877 +1.2415289879E+000 +2.9586315155E-002  -1.3545434922E-004 +5.7333139703E-003  -1.7357734032E-004 +5.6594195776E-003  +7.3019862175E-001 +1.8949806690E-002 
11772647.059 +1.2384051085E+000 +1.2223601341E-002  -8.2847196609E-005 +5.7872836478E-003  -1.1454615742E-004 +5.7570151985E-003  +7.3557585478E-001 +3.1462907791E-002 
11897792.240 +1.2328536510E+000 -4.6891570091E-003  -7.6389405876E-005 +5.8772424236E-003  -4.4857617468E-005 +5.8692200109E-003  +7.4114549160E-001 +4.4935435057E-002 
12022937.422 +1.2292544842E+000 -1.9361346960E-002  -7.5683929026E-005 +5.9058489278E-003  -3.3898279071E-005 +5.9052160941E-003  +7.4683547020E-001 +5.7545453310E-002 
12148082.603 +1.2198828459E+000 -3.3898472786E-002  -7.0773065090E-005 +5.9399763122E-003  -9.2100584880E-005 +6.0018589720E-003  +7.5441217422E-001 +7.1908742189E-002 
12273227.785 +1.2134222984E+000 -4.3731689453E-002  -5.1806913689E-005 +6.0208477080E-003  -5.5807875469E-005 +6.0725272633E-003  +7.6124972105E-001 +8.2865312696E-002 
12398372.966 +1.2045056820E+000 -5.7365179062E-002  -1.2439931743E-004 +6.1023551971E-003  -5.8276928030E-005 +6.1756516807E-003  +7.6913923025E-001 +9.3605667353E-002 
12523518.148 +1.1945819855E+000 -6.7274481058E-002  -3.7078862078E-005 +6.1760111712E-003  -6.6261505708E-005 +6.2125204131E-003  +7.7663904428E-001 +1.0466618836E-001 
12648663.329 +1.1871577501E+000 -7.7915564179E-002  -4.5546446927E-005 +6.2465351075E-003  -9.5130992122E-005 +6.2713855878E-003  +7.8491473198E-001 +1.1565296352E-001 
12773808.511 +1.1770386696E+000 -8.7830178440E-002  -6.6861044616E-005 +6.2726563774E-003  -7.7084172517E-005 +6.3093383797E-003  +7.9400718212E-001 +1.2504231930E-001 
12898953.692 +1.1683073044E+000 -9.6730381250E-002  -6.2227307353E-005 +6.3829030842E-003  -4.6162924264E-005 +6.3997837715E-003  +8.0436348915E-001 +1.3476598263E-001 
13024098.874 +1.1575374603E+000 -1.0342288017E-001  -5.5223470554E-005 +6.4356233925E-003  -1.0072314763E-004 +6.4369970933E-003  +8.1397271156E-001 +1.4426830411E-001 
13149244.055 +1.1485513449E+000 -1.0967533290E-001  -4.3599808123E-005 +6.5243924037E-003  -3.2648866181E-005 +6.4735729247E-003  +8.2394349575E-001 +1.5277893841E-001 
13274389.237 +1.1383398771E+000 -1.1535296589E-001  -5.4156240367E-005 +6.6097518429E-003  -4.5680237236E-005 +6.6106123850E-003  +8.3597922325E-001 +1.6021747887E-001 
13399534.418 +1.1291821003E+000 -1.1971642077E-001  +1.6345875338E-006 +6.6338661127E-003  -2.0824256353E-005 +6.6727628000E-003  +8.4581845999E-001 +1.6836319864E-001 
13524679.599 +1.1191056967E+000 -1.2304641306E-001  +3.4346885514E-005 +6.7145335488E-003  +1.0137504432E-005 +6.7334403284E-003  +8.5788100958E-001 +1.7472086847E-001 
13649824.781 +1.1109139919E+000 -1.2825393677E-001  +3.8178754039E-005 +6.8332450464E-003  -1.3682642020E-005 +6.8067181855E-003  +8.7071168423E-001 +1.7948958278E-001 
13774969.962 +1.1000980139E+000 -1.3157285750E-001  +5.2768038586E-005 +6.8866587244E-003  +2.0646140911E-005 +6.9110868499E-003  +8.8184589148E-001 +1.8338178098E-001 
13900115.144 +1.0911599398E+000 -1.3396161795E-001  +1.4889286831E-005 +6.9143949077E-003  +6.8076420575E-005 +6.9491481408E-003  +8.9380007982E-001 +1.8802851439E-001 
14025260.325 +1.0808141232E+000 -1.3537117839E-001  +1.6275094822E-005 +7.0098591968E-003  +3.4517608583E-005 +6.9980579428E-003  +9.0586483479E-001 +1.9225822389E-001 
14150405.507 +1.0728355646E+000 -1.3592803478E-001  +4.8779882491E-005 +7.0757372305E-003  +8.7513588369E-005 +7.0810737088E-003  +9.1887170076E-001 +1.9548538327E-001 
14275550.688 +1.0639406443E+000 -1.3693583012E-001  +7.1597751230E-005 +7.1138250642E-003  +4.2079249397E-005 +7.1415044367E-003  +9.3133950233E-001 +1.9677014649E-001 
14400695.870 +1.0541614294E+000 -1.3765421510E-001  +6.8581430241E-005 +7.1775605902E-003  +9.7058014944E-005 +7.1692741476E-003  +9.4332408905E-001 +1.9866272807E-001 
