!  2-Port S-parameters saved by WinCal
! VAR MeasName=S-Parameters (CALIBRATED_DATA) read from VNA (P5004A)
! VAR MeasDate=22/05/2024 17:59:40
! VAR NAME=Wafer2_r2_c1_pristine_pos1.2dc
! VAR FILENAME=Wafer2_r2_c1_pristine_pos1.2dc.S2P
! VAR DATE=22/05/2024 17:59:40
! VAR PHYS_PORTS=1,2
! VAR ObjTypeName=DATASET
! VAR IndexType=Frequency
!
# Hz S RI R 50
9000.000 +2.2513402998E-001 -5.9466266632E-001  +8.1914402544E-003 +4.4064340182E-004  +4.1354971472E-005 -7.6467165491E-004  +5.3154848516E-002 +1.0383033752E-001 
134145.181 +6.2628293037E-001 -7.6388552785E-002  +2.2307374456E-004 -1.6143524554E-003  +3.5716309212E-003 -1.2069402263E-002  +1.1677640676E-001 -3.9479503036E-001 
259290.363 +8.1713342667E-001 -1.6603437066E-001  -4.6471934766E-003 -2.2475817241E-003  -9.1170268133E-003 +2.7259245981E-003  +1.2719979286E+000 -8.9378058910E-001 
384435.544 +8.9239209890E-001 -3.2121580839E-001  +2.5028634816E-002 -2.4964187294E-002  +1.6971692443E-002 -2.3868884891E-003  +2.7888782024E+000 -2.6376569271E+000 
509580.726 +9.5767050982E-001 -1.8066272140E-001  -3.1694052741E-003 +3.4454045817E-005  +8.9877756545E-004 +5.5574538419E-004  +1.7495460510E+000 -4.0649300814E-001 
634725.907 +1.1029850245E+000 -2.0711281896E-001  +5.3206505254E-004 -3.6493733060E-003  +1.0305519681E-003 -7.0317951031E-004  +2.8535952568E+000 -1.3652086258E-002 
759871.089 +1.2622345686E+000 -1.9888639450E-002  +3.0436975067E-004 -9.1751245782E-004  -1.1819588253E-003 +6.8308180198E-004  +1.4564139843E+000 +4.1823208332E-001 
885016.270 +1.2238974571E+000 -1.4747080207E-001  +6.6575128585E-004 +1.1353606824E-003  -1.2749440502E-003 +1.1660150485E-003  +1.2107062340E+000 +5.0401169062E-001 
1010161.452 +1.3306001425E+000 -6.8946510553E-002  -1.1897794902E-003 +1.6684761795E-004  +8.1597117241E-004 +1.3923478546E-003  +1.1899009943E+000 +5.0615054369E-001 
1135306.633 +1.4684664011E+000 -1.3235118985E-001  +3.4778568079E-004 +6.8357848795E-004  +7.0432870416E-004 -1.1194252875E-004  +1.3058087826E+000 +6.2170070410E-001 
1260451.815 +1.6597603559E+000 -1.1143738031E-001  +4.2795058107E-004 -6.1630416894E-005  -1.1386146070E-004 +2.9400730273E-004  +1.0978876352E+000 +7.1527570486E-001 
1385596.996 +1.4256129265E+000 -1.1181664467E-001  +2.8074100555E-006 +1.1260615429E-004  +2.8571009170E-004 +1.2210634304E-004  +9.8473441601E-001 +4.8745971918E-001 
1510742.178 +1.6873812675E+000 -1.1243751645E-001  -1.2231558503E-004 +3.3978038118E-004  +1.4043398551E-004 -2.1997041767E-004  +6.7606401443E-001 +5.7492238283E-001 
1635887.359 +1.1823523045E+000 -3.7696129084E-001  +1.3555944315E-004 +9.7379117506E-005  +2.2135346080E-004 +3.7980152410E-004  +1.5206191540E+000 +6.3396579027E-001 
1761032.541 +1.3687179089E+000 -2.7834281325E-001  -4.6279048547E-005 +2.8872484108E-004  -8.6092855781E-005 +1.7062740517E-004  +1.1031160355E+000 +8.2567262650E-001 
1886177.722 +1.2790026665E+000 -1.9096818566E-001  -1.2306935969E-004 +2.2749140044E-004  -9.9976023193E-005 +3.1761708669E-004  +1.1438616514E+000 +5.5775606632E-001 
2011322.904 +1.2834541798E+000 -1.8608790636E-001  -2.8089279658E-004 +4.4622656424E-004  -1.0590563761E-004 +3.4134276211E-004  +1.1573076248E+000 +5.2491664886E-001 
2136468.085 +1.2933956385E+000 -1.1533154547E-001  -3.2969180029E-004 +1.9764571334E-004  -9.4636845461E-005 +4.3401913717E-004  +1.0973658562E+000 +4.7597888112E-001 
2261613.267 +1.3353836536E+000 -9.7094468772E-002  -2.8225290589E-004 +4.6278626542E-004  -3.9127239143E-004 +3.8053124445E-004  +1.0549868345E+000 +5.1487642527E-001 
2386758.448 +1.3474314213E+000 -9.5953077078E-002  -2.3314055579E-004 +4.6990998089E-004  -2.2955573513E-004 +2.2873411945E-004  +1.0742933750E+000 +5.4323709011E-001 
2511903.630 +1.3967688084E+000 -1.0878399014E-001  -5.3774402477E-004 +4.9773085630E-004  -6.6300784238E-004 +7.3438766412E-004  +1.1192792654E+000 +5.7733637094E-001 
2637048.811 +1.4165247679E+000 -1.4545530081E-001  -8.2979234867E-004 +8.8120717555E-004  -1.0132064344E-003 +4.7551476746E-004  +1.1303007603E+000 +6.0634469986E-001 
2762193.992 +1.3572423458E+000 -1.0660451651E-001  -7.3895987589E-004 +1.0400214233E-003  -9.1198610608E-004 +7.0339458762E-004  +1.1471555233E+000 +5.0620412827E-001 
2887339.174 +1.4122135639E+000 -5.3441882133E-002  -8.5715780733E-004 +5.0970545271E-004  -4.1841631173E-004 +9.1632205294E-004  +1.0032478571E+000 +4.9750149250E-001 
3012484.355 +1.4780192375E+000 -6.1431288719E-002  -9.6551590832E-004 +8.1364868674E-004  -3.3584944322E-004 +8.6624792311E-004  +9.5921659470E-001 +6.0658651590E-001 
3137629.537 +1.5050525665E+000 -5.6541860104E-002  -4.9477862194E-004 +8.1678945571E-004  -5.2276154747E-004 +8.4930669982E-004  +9.7749102116E-001 +7.1418893337E-001 
3262774.718 +1.5319821835E+000 -8.1911325455E-002  -8.6087023374E-004 +1.0544108227E-003  -1.0445700027E-003 +4.8540157150E-004  +1.0282539129E+000 +7.8099578619E-001 
3387919.900 +1.5922585726E+000 -1.1328595877E-001  -9.4483850989E-004 +1.3179602101E-003  -8.9246465359E-004 +9.4452785561E-004  +1.0650868416E+000 +8.4992504120E-001 
3513065.081 +1.6523280144E+000 -1.7958998680E-001  -8.9302251581E-004 +1.3611624017E-003  -7.3223584332E-004 +1.1260295287E-003  +1.0999178886E+000 +9.2279338837E-001 
3638210.263 +1.7373061180E+000 -2.1193313599E-001  -5.7236745488E-004 +1.3993040193E-003  -1.7087417655E-003 +1.3035931624E-003  +1.1983109713E+000 +9.6661013365E-001 
3763355.444 +1.7491388321E+000 -2.8027755022E-001  -1.6441229964E-003 +1.7921470571E-003  -1.9120285287E-003 +1.2236323673E-003  +1.2918938398E+000 +9.9905902147E-001 
3888500.626 +1.8195135593E+000 -4.1098678112E-001  +1.7552194186E-003 +4.1242940351E-003  -1.9183526747E-003 +1.0872444836E-003  +1.3651859760E+000 +1.0610017776E+000 
4013645.807 +1.4764204025E+000 -7.1154224873E-001  -1.4754266012E-003 +3.4835136030E-003  -1.0521234944E-003 +2.5806939229E-003  +1.6505876780E+000 +8.4530901909E-001 
4138790.989 +1.0984094143E+000 -7.9220783710E-001  -1.1384964455E-004 +3.4568011761E-003  -7.1086105891E-005 +2.3583597504E-003  +1.7818909883E+000 +5.1658552885E-001 
4263936.170 +1.0407829285E+000 -8.1367349625E-001  +1.7361511709E-004 +2.7621199843E-003  -5.5012991652E-005 +2.9411627911E-003  +1.8281232119E+000 +4.2484921217E-001 
4389081.352 +9.4331848621E-001 -8.2775491476E-001  +1.5867548063E-003 +2.9500140809E-003  +1.1560751591E-004 +3.0806434806E-003  +1.8801491261E+000 +2.9478299618E-001 
4514226.533 +8.9164292812E-001 -8.4951078892E-001  +5.6851049885E-004 +3.4287462477E-003  +1.7060097307E-003 +2.5664723944E-003  +1.9068307877E+000 +1.9824883342E-001 
4639371.715 +8.1916612387E-001 -8.2991898060E-001  +6.2320992583E-004 +2.2987404373E-003  +2.7931010118E-004 +2.9549412429E-003  +1.9054712057E+000 +1.2042261660E-001 
4764516.896 +7.4895346165E-001 -8.0475109816E-001  +8.0058316234E-004 +2.4585032370E-003  +6.7889248021E-004 +2.9172757640E-003  +1.9026703835E+000 +2.1886974573E-002 
4889662.078 +6.9789320230E-001 -7.7996075153E-001  +1.1404441902E-003 +2.8088134713E-003  +8.8228128152E-004 +3.3299196512E-003  +1.9033101797E+000 -5.4379537702E-002 
5014807.259 +6.4192867279E-001 -7.4431103468E-001  +6.4698647475E-004 +2.4093643297E-003  +2.2583496757E-003 +2.5048782118E-003  +1.8616696596E+000 -1.2666875124E-001 
5139952.441 +5.9435528517E-001 -7.2532302141E-001  +8.8194402633E-004 +2.0014012698E-003  +5.8610329870E-004 +2.8486708179E-003  +1.8359253407E+000 -2.0841753483E-001 
5265097.622 +5.5160057545E-001 -6.8510067463E-001  +1.1237453436E-003 +2.6408585254E-003  +1.3100756332E-003 +2.5953094009E-003  +1.7830709219E+000 -2.7338334918E-001 
5390242.804 +5.1244252920E-001 -6.4628678560E-001  +9.5805490855E-004 +2.7872077189E-003  +9.1257708846E-004 +2.4897616822E-003  +1.7311011553E+000 -3.2179692388E-001 
5515387.985 +4.7942033410E-001 -6.1469078064E-001  +9.3827617820E-004 +2.2169984877E-003  +1.3518141350E-003 +1.7141235294E-003  +1.6887360811E+000 -3.8522642851E-001 
5640533.166 +4.4269365072E-001 -5.7451093197E-001  +1.1992597720E-003 +2.5396584533E-003  +1.3967008563E-003 +2.3478805088E-003  +1.6577727795E+000 -4.3405857682E-001 
5765678.348 +4.1534551978E-001 -5.3243058920E-001  +9.4519736012E-004 +2.4723703973E-003  +1.5636625467E-003 +2.2466548253E-003  +1.6000533104E+000 -4.5536506176E-001 
5890823.529 +3.9290085435E-001 -4.8280343413E-001  +1.1697290465E-003 +1.9708550535E-003  +8.7662442820E-004 +1.8641141942E-003  +1.5375816822E+000 -4.9419331551E-001 
6015968.711 +3.6963361502E-001 -4.4572067261E-001  +9.8396686371E-004 +2.4687659461E-003  +8.6354825180E-004 +2.2342342418E-003  +1.5002490282E+000 -5.0956636667E-001 
6141113.892 +3.4775483608E-001 -4.0821579099E-001  +7.1431580000E-004 +2.3749351967E-003  +1.1377012124E-003 +2.0834468305E-003  +1.4468921423E+000 -5.1574885845E-001 
6266259.074 +3.3290085196E-001 -3.6791583896E-001  +7.3222914943E-004 +1.8355132779E-003  +5.3583749104E-004 +2.2896467708E-003  +1.3899996281E+000 -5.2749919891E-001 
6391404.255 +3.2188418508E-001 -3.1288862228E-001  +7.0080440491E-004 +1.8289788859E-003  +1.1580797145E-003 +1.9908901304E-003  +1.3376020193E+000 -5.3690093756E-001 
6516549.437 +3.0329307914E-001 -2.8068140149E-001  +5.0794595154E-004 +2.3568307515E-003  +5.4438656662E-004 +1.9360460574E-003  +1.2951172590E+000 -5.4574072361E-001 
6641694.618 +3.0097129941E-001 -2.4114826322E-001  +8.7278604042E-004 +2.4795765057E-003  +5.8057717979E-004 +2.3490821477E-003  +1.2554886341E+000 -5.4462647438E-001 
6766839.800 +2.9562580585E-001 -2.0304931700E-001  +4.5515043894E-004 +2.4833723437E-003  +6.0758646578E-004 +2.3380559869E-003  +1.2143452168E+000 -5.4919904470E-001 
6891984.981 +2.8927600384E-001 -1.6109682620E-001  +3.4138033516E-004 +2.0733659621E-003  +4.7640287085E-004 +2.0496249199E-003  +1.1610733271E+000 -5.4266625643E-001 
7017130.163 +2.8152164817E-001 -1.1779440939E-001  +6.2140059890E-004 +2.5699515827E-003  +6.4153445419E-004 +2.2284674924E-003  +1.1379114389E+000 -5.3410440683E-001 
7142275.344 +2.7697673440E-001 -8.4963165224E-002  +7.5534277130E-004 +2.3278659210E-003  +2.4816076620E-004 +1.8903977470E-003  +1.1099977493E+000 -5.2470606565E-001 
7267420.526 +2.7868509293E-001 -3.8463220000E-002  +2.7347452124E-004 +2.2199996747E-003  +5.1318970509E-004 +2.4611090776E-003  +1.0771516562E+000 -5.1250272989E-001 
7392565.707 +2.7661982179E-001 +4.0645152330E-004  +1.0629311873E-004 +2.4612154812E-003  +2.7526082704E-004 +2.5826420169E-003  +1.0468530655E+000 -5.0568860769E-001 
7517710.889 +2.7748030424E-001 +3.2673142850E-002  +1.8833017384E-004 +2.3380171042E-003  +5.2285278798E-005 +2.4160130415E-003  +1.0173200369E+000 -4.9439400434E-001 
7642856.070 +2.7793967724E-001 +6.9917336106E-002  +4.8419460654E-005 +2.3069542367E-003  -1.1933566566E-004 +2.3002550006E-003  +9.8861372471E-001 -4.8583012819E-001 
7768001.252 +2.8263413906E-001 +1.0897206515E-001  -1.1525316222E-004 +2.5819144212E-003  +4.8408226576E-005 +2.6170196943E-003  +9.5968347788E-001 -4.7029322386E-001 
7893146.433 +2.9196441174E-001 +1.5100413561E-001  +2.5309922057E-004 +2.5663303677E-003  -1.0674052464E-004 +2.3743186612E-003  +9.3841606379E-001 -4.5242336392E-001 
8018291.615 +2.9857248068E-001 +1.9298423827E-001  -1.1068262393E-004 +2.5973867159E-003  -8.8327360572E-005 +2.4913700763E-003  +9.1216742992E-001 -4.3715927005E-001 
8143436.796 +3.0822682381E-001 +2.2764837742E-001  -1.6609553131E-004 +2.7336254716E-003  -9.2943897471E-005 +2.6337131858E-003  +8.9311420918E-001 -4.2247217894E-001 
8268581.977 +3.2014927268E-001 +2.7085894346E-001  -2.7615836007E-004 +2.6361411437E-003  -4.3080357136E-004 +2.7822756674E-003  +8.7450468540E-001 -4.0475481749E-001 
8393727.159 +3.3352449536E-001 +3.0769321322E-001  -5.0814804854E-004 +2.8991349973E-003  -5.3101475351E-004 +2.7852917556E-003  +8.5900866985E-001 -3.9284375310E-001 
8518872.340 +3.4905552864E-001 +3.4900391102E-001  -6.4141780604E-004 +2.8890080284E-003  -4.6681237291E-004 +2.6913944166E-003  +8.4180271626E-001 -3.7324005365E-001 
8644017.522 +3.6359947920E-001 +3.8196957111E-001  -6.0914404457E-004 +3.0008151662E-003  -5.0500663929E-004 +2.9429092538E-003  +8.3040761948E-001 -3.5616451502E-001 
8769162.703 +3.8481479883E-001 +4.1963979602E-001  -6.3582975417E-004 +3.0450420454E-003  -9.3825696968E-004 +2.9962025583E-003  +8.1833195686E-001 -3.4309697151E-001 
8894307.885 +4.0983080864E-001 +4.5936951041E-001  -6.7943584872E-004 +3.1414146069E-003  -7.5393158477E-004 +3.0908973422E-003  +8.0087035894E-001 -3.2811212540E-001 
9019453.066 +4.3287348747E-001 +4.9750381708E-001  -9.1283029178E-004 +3.2321722247E-003  -8.1943179248E-004 +3.3232562710E-003  +7.8895157576E-001 -3.1204029918E-001 
9144598.248 +4.6537446976E-001 +5.3709661961E-001  -9.0066890698E-004 +3.2756959554E-003  -1.0045989184E-003 +3.2979256939E-003  +7.7818477154E-001 -2.9320824146E-001 
9269743.429 +4.9887415767E-001 +5.7350122929E-001  -1.0626451112E-003 +3.3909315243E-003  -9.6636859234E-004 +3.3536450937E-003  +7.6976621151E-001 -2.7570921183E-001 
9394888.611 +5.2759611607E-001 +6.0879504681E-001  -1.1576113757E-003 +3.6412479822E-003  -1.1415509507E-003 +3.6432484630E-003  +7.5949311256E-001 -2.6195102930E-001 
9520033.792 +5.7001197338E-001 +6.4109992981E-001  -1.1210246012E-003 +3.7250965834E-003  -1.2777512893E-003 +3.7483731285E-003  +7.5106596947E-001 -2.3925304413E-001 
9645178.974 +6.1343604326E-001 +6.7581701279E-001  -1.1853275355E-003 +3.8169592153E-003  -1.2046969496E-003 +3.8633511867E-003  +7.4319154024E-001 -2.2557583451E-001 
9770324.155 +6.5825307369E-001 +7.0182073116E-001  -1.3242861023E-003 +3.9973352104E-003  -1.2946208008E-003 +4.0905405767E-003  +7.3688620329E-001 -2.0874258876E-001 
9895469.337 +7.0587277412E-001 +7.2918295860E-001  -1.4535721857E-003 +4.2294925079E-003  -1.4169141650E-003 +4.1294260882E-003  +7.2871506214E-001 -1.9310775399E-001 
10020614.518 +7.5224393606E-001 +7.5237923861E-001  -1.4664735645E-003 +4.3081301264E-003  -1.4479163801E-003 +4.3482724577E-003  +7.2639238834E-001 -1.7545735836E-001 
10145759.700 +8.0940419436E-001 +7.7002090216E-001  -1.5359106474E-003 +4.4884169474E-003  -1.5428725164E-003 +4.4705145992E-003  +7.2346204519E-001 -1.6301473975E-001 
10270904.881 +8.6838203669E-001 +7.8786689043E-001  -1.6372193350E-003 +4.6628913842E-003  -1.5592464479E-003 +4.6603563242E-003  +7.2185105085E-001 -1.4492133260E-001 
10396050.063 +9.2701917887E-001 +7.9488581419E-001  -1.5988905216E-003 +4.9138315953E-003  -1.5843920410E-003 +4.8667299561E-003  +7.1816945076E-001 -1.2611556053E-001 
10521195.244 +9.8600196838E-001 +8.0117946863E-001  -1.6212880146E-003 +5.0537558272E-003  -1.6603783006E-003 +5.0761494786E-003  +7.1751773357E-001 -1.1206090450E-001 
10646340.426 +1.0413408279E+000 +7.9959839582E-001  -1.7219737638E-003 +5.2598319016E-003  -1.6547766281E-003 +5.3906836547E-003  +7.1570670605E-001 -9.5383048058E-002 
10771485.607 +1.1044422388E+000 +7.9105037451E-001  -1.6760223079E-003 +5.4593533278E-003  -1.6420367174E-003 +5.4378351197E-003  +7.1612858772E-001 -8.0173492432E-002 
10896630.788 +1.1650129557E+000 +7.7856099606E-001  -1.6017034650E-003 +5.6538991630E-003  -1.6814165283E-003 +5.6439908221E-003  +7.1578645706E-001 -6.4761877060E-002 
11021775.970 +1.2220256329E+000 +7.5880372524E-001  -1.5810662881E-003 +5.8914851397E-003  -1.6611136962E-003 +5.8531593531E-003  +7.1613204479E-001 -5.0845116377E-002 
11146921.151 +1.2834415436E+000 +7.3258590698E-001  -1.5690131113E-003 +6.0626636259E-003  -1.5887387563E-003 +6.0451668687E-003  +7.1912217140E-001 -3.4577906132E-002 
11272066.333 +1.3371963501E+000 +7.0007026196E-001  -1.4891978353E-003 +6.2698684633E-003  -1.5083700418E-003 +6.2585454434E-003  +7.1919012070E-001 -2.0407110453E-002 
11397211.514 +1.3887820244E+000 +6.6799527407E-001  -1.4993031509E-003 +6.4196209423E-003  -1.4477670193E-003 +6.3296752051E-003  +7.2287738323E-001 -7.6524615288E-003 
11522356.696 +1.4366295338E+000 +6.2758862972E-001  -1.4059764799E-003 +6.6351890564E-003  -1.3709259219E-003 +6.6190636717E-003  +7.2803092003E-001 +7.6275765896E-003 
11647501.877 +1.4733501673E+000 +5.8380013704E-001  -1.3261851855E-003 +6.7966589704E-003  -1.3278671540E-003 +6.8280901760E-003  +7.2983837128E-001 +2.1024525166E-002 
11772647.059 +1.5135321617E+000 +5.3519165516E-001  -1.1915951036E-003 +6.9588245824E-003  -1.2153864373E-003 +6.9330791011E-003  +7.3529243469E-001 +3.3568471670E-002 
11897792.240 +1.5459425449E+000 +4.8533976078E-001  -1.0860215407E-003 +7.0593231358E-003  -1.1008998845E-003 +7.1254582144E-003  +7.4041813612E-001 +4.7412872314E-002 
12022937.422 +1.5728553534E+000 +4.3607378006E-001  -9.5494324341E-004 +7.2702723555E-003  -9.7864028066E-004 +7.1902298369E-003  +7.4700963497E-001 +5.9090405703E-002 
12148082.603 +1.5916295052E+000 +3.7825307250E-001  -7.8719714656E-004 +7.3705464602E-003  -8.6742150597E-004 +7.3324735276E-003  +7.5404351950E-001 +7.2717338800E-002 
12273227.785 +1.6050181389E+000 +3.2775115967E-001  -6.7673786543E-004 +7.4427891523E-003  -7.1205478162E-004 +7.5277006254E-003  +7.6092791557E-001 +8.3482459188E-002 
12398372.966 +1.6143662930E+000 +2.7509796619E-001  -5.5136345327E-004 +7.6265879907E-003  -6.2279647682E-004 +7.6497560367E-003  +7.6916694641E-001 +9.5268398523E-002 
12523518.148 +1.6142691374E+000 +2.2177356482E-001  -4.4281559531E-004 +7.6569681987E-003  -4.3897761498E-004 +7.6898587868E-003  +7.7559047937E-001 +1.0524366796E-001 
12648663.329 +1.6166745424E+000 +1.7349058390E-001  -3.3275817987E-004 +7.8108692542E-003  -3.3019389957E-004 +7.8087104484E-003  +7.8500771523E-001 +1.1617155373E-001 
12773808.511 +1.6102081537E+000 +1.2347580492E-001  -2.2305134917E-004 +7.8139277175E-003  -2.6054849150E-004 +7.8416783363E-003  +7.9484456778E-001 +1.2629599869E-001 
12898953.692 +1.6026557684E+000 +7.8565753996E-002  -9.2856818810E-005 +7.8803356737E-003  -1.2361438712E-004 +7.8890267760E-003  +8.0375230312E-001 +1.3589018583E-001 
13024098.874 +1.5896705389E+000 +3.8336690515E-002  -1.7336496967E-005 +7.9086963087E-003  -3.1251373002E-005 +7.9183643684E-003  +8.1430250406E-001 +1.4589504898E-001 
13149244.055 +1.5749536753E+000 +5.8922916651E-005  +6.6918641096E-005 +7.9491743818E-003  +6.9903209805E-005 +7.9754088074E-003  +8.2393425703E-001 +1.5393057466E-001 
13274389.237 +1.5562765598E+000 -3.8353368640E-002  +2.3263943149E-004 +8.0225579441E-003  +1.6682152636E-004 +8.0191753805E-003  +8.3588993549E-001 +1.6175441444E-001 
13399534.418 +1.5376787186E+000 -7.3734849691E-002  +3.0424445868E-004 +8.0125788227E-003  +2.7560221497E-004 +7.9820770770E-003  +8.4682166576E-001 +1.6829879582E-001 
13524679.599 +1.5170158148E+000 -1.0318329930E-001  +4.5917462558E-004 +8.0076111481E-003  +4.4188054744E-004 +8.0837933347E-003  +8.5812681913E-001 +1.7558112741E-001 
13649824.781 +1.4960614443E+000 -1.3339552283E-001  +5.3120707162E-004 +8.0830920488E-003  +5.2919832524E-004 +8.0830641091E-003  +8.7103873491E-001 +1.8143001199E-001 
13774969.962 +1.4724613428E+000 -1.5825316310E-001  +6.2349694781E-004 +8.1294691190E-003  +6.3285324723E-004 +8.1029981375E-003  +8.8161444664E-001 +1.8533253670E-001 
13900115.144 +1.4498989582E+000 -1.8108692765E-001  +6.5572420135E-004 +8.1158280373E-003  +6.4617255703E-004 +8.1525128335E-003  +8.9375495911E-001 +1.9011709094E-001 
14025260.325 +1.4254465103E+000 -1.9975724816E-001  +7.5920042582E-004 +8.1126671284E-003  +7.5630145147E-004 +8.1181852147E-003  +9.0658545494E-001 +1.9277691841E-001 
14150405.507 +1.4024791718E+000 -2.1715009212E-001  +8.2491128705E-004 +8.1242471933E-003  +7.9467822798E-004 +8.1457942724E-003  +9.1838830709E-001 +1.9605419040E-001 
14275550.688 +1.3786025047E+000 -2.3458462954E-001  +8.7846373208E-004 +8.1499479711E-003  +8.8335643522E-004 +8.1900190562E-003  +9.3183243275E-001 +1.9681268930E-001 
14400695.870 +1.3532433510E+000 -2.4902808666E-001  +9.3529629521E-004 +8.1344367936E-003  +9.4944867305E-004 +8.0904299393E-003  +9.4372689724E-001 +1.9931212068E-001 
