!  2-Port S-parameters saved by WinCal
! VAR MeasName=S-Parameters (CALIBRATED_DATA) read from VNA (P5004A)
! VAR MeasDate=22/05/2024 17:55:51
! VAR NAME=Wafer2_r2_c1_pristine_pos0.8dc
! VAR FILENAME=Wafer2_r2_c1_pristine_pos0.8dc.S2P
! VAR DATE=22/05/2024 17:55:51
! VAR PHYS_PORTS=1,2
! VAR ObjTypeName=DATASET
! VAR IndexType=Frequency
!
# Hz S RI R 50
9000.000 +2.2244554758E-001 -5.9276056290E-001  +6.0622841120E-003 -1.7385754734E-002  -1.6729631461E-003 -2.6190706994E-003  +6.2751859426E-002 +9.8699152470E-002 
134145.181 +6.3444799185E-001 -6.8474143744E-002  +2.5642830878E-003 +2.3893009871E-002  +9.8284315318E-003 -1.4996466227E-002  -2.8933092952E-001 -2.3613150418E-001 
259290.363 +8.0944019556E-001 -1.4384701848E-001  -3.0584777705E-003 +1.6183881089E-003  -1.2118227780E-002 +4.4126734138E-003  +1.4221758842E+000 -9.3433308601E-001 
384435.544 +8.8536924124E-001 -3.1068888307E-001  -1.8855741248E-002 -3.5592773929E-004  +8.8438866660E-003 +1.8553154543E-002  +4.5477161407E+000 +4.8957872391E-001 
509580.726 +9.5377004147E-001 -1.8145951629E-001  -1.7071181210E-003 -9.7559113055E-004  -6.8752112566E-004 -3.4221186070E-004  +1.7694840431E+000 -1.6048696637E-001 
634725.907 +1.1053004265E+000 -2.0646467805E-001  +9.9206191953E-004 +3.6890769843E-003  +1.7028140137E-003 +9.2283368576E-004  +2.0987989902E+000 +7.1151196957E-001 
759871.089 +1.2615364790E+000 -1.8782079220E-002  +7.5899902731E-004 +9.5481280005E-004  +1.3167047873E-003 +1.1266290676E-004  +1.4005026817E+000 +4.6682488918E-001 
885016.270 +1.2314019203E+000 -1.3800135255E-001  -1.1525984155E-003 -7.3381920811E-004  +9.6197170205E-004 +1.1173035018E-003  +1.2007657290E+000 +5.1195204258E-001 
1010161.452 +1.3307387829E+000 -6.3311755657E-002  +7.3478196282E-004 -7.1832299000E-005  +2.4522875901E-004 -4.8204982886E-004  +1.1880748272E+000 +5.0509428978E-001 
1135306.633 +1.4786312580E+000 -1.2885200977E-001  +3.8240631693E-004 -2.6258861180E-004  +3.3157863072E-004 -1.9149374566E-004  +1.2989439964E+000 +6.1763441563E-001 
1260451.815 +1.6649835110E+000 -1.1153084040E-001  +1.4716337319E-004 -2.7073005913E-004  +4.9925001804E-004 +3.3603797783E-004  +1.0965094566E+000 +7.1259808540E-001 
1385596.996 +1.4307073355E+000 -1.1372864246E-001  -8.2958140410E-006 +2.0663325267E-004  -2.3382599466E-004 +1.3762997696E-004  +9.8600077629E-001 +4.8590081930E-001 
1510742.178 +1.6827239990E+000 -1.0972630978E-001  -1.5936439740E-004 +2.7885107556E-006  -1.3234610378E-004 +5.0564925914E-005  +6.7790681124E-001 +5.7433104515E-001 
1635887.359 +1.1826511621E+000 -3.8320845366E-001  -4.0141734644E-005 +1.8086985801E-004  +3.2341893530E-005 +3.2964936690E-004  +1.5215282440E+000 +6.3099205494E-001 
1761032.541 +1.3686909676E+000 -2.7193236351E-001  -9.3214883236E-005 +4.1312837857E-004  +2.3722910555E-005 +2.7703304659E-004  +1.1047347784E+000 +8.2583773136E-001 
1886177.722 +1.2970844507E+000 -1.9478136301E-001  -1.0460751218E-004 +2.6382177020E-004  -1.3480192865E-004 +2.3858420900E-004  +1.1446610689E+000 +5.5852276087E-001 
2011322.904 +1.2989242077E+000 -1.8335548043E-001  -2.4013014627E-004 +2.6080504176E-004  -2.8379607829E-004 +8.1207705080E-005  +1.1582918167E+000 +5.2542304993E-001 
2136468.085 +1.3028775454E+000 -1.1988988519E-001  +1.5353121853E-005 +3.3134280238E-004  -1.6495934688E-004 +3.8141047116E-004  +1.0974138975E+000 +4.7686502337E-001 
2261613.267 +1.3389754295E+000 -9.6377715468E-002  -2.3976441298E-004 +3.3714182791E-004  -4.0309678297E-004 +4.0055176942E-004  +1.0532265902E+000 +5.1452285051E-001 
2386758.448 +1.3533160686E+000 -9.9612355232E-002  -2.3078548838E-004 +7.4210285675E-004  -2.2027321393E-004 +2.1320953965E-004  +1.0725414753E+000 +5.4402202368E-001 
2511903.630 +1.4115345478E+000 -1.1169618368E-001  -6.5405119676E-004 +6.7630194826E-004  -5.2921805764E-004 +3.5548958112E-004  +1.1162347794E+000 +5.7977157831E-001 
2637048.811 +1.4134850502E+000 -1.4844489098E-001  -5.0722807646E-004 +6.2144815456E-004  -3.0942462035E-004 +3.7391629303E-004  +1.1249322891E+000 +6.0647344589E-001 
2762193.992 +1.3597185612E+000 -1.0805433989E-001  -3.4090905683E-004 +7.1509496775E-004  -5.0857377937E-004 +8.2132039825E-004  +1.1401443481E+000 +5.0541806221E-001 
2887339.174 +1.4129133224E+000 -5.7352423668E-002  -6.5572065068E-004 +9.5067755319E-004  -9.7783294041E-004 +8.3341298159E-004  +1.0010926723E+000 +4.9851837754E-001 
3012484.355 +1.4831724167E+000 -5.9630692005E-002  -7.3987076757E-004 +5.9787323698E-004  -1.1026844149E-003 +7.5556384400E-004  +9.5098698139E-001 +6.0861057043E-001 
3137629.537 +1.5175709724E+000 -5.4452300072E-002  -7.9817255028E-004 +5.7649851078E-004  -6.0201052111E-004 +9.2078658054E-004  +9.7434443235E-001 +7.1630078554E-001 
3262774.718 +1.5564813614E+000 -8.6000144482E-002  -8.5345678963E-004 +6.3857343048E-004  -1.2543711346E-003 +1.3746696059E-003  +1.0181131363E+000 +7.8303778172E-001 
3387919.900 +1.6003882885E+000 -1.2611269951E-001  -9.0489204740E-004 +1.6846237704E-003  -1.2358449167E-003 +9.4443175476E-004  +1.0586186647E+000 +8.5185277462E-001 
3513065.081 +1.6614086628E+000 -1.7439764738E-001  -5.3519598441E-004 +1.3872256968E-003  -1.1861908715E-003 +7.4615678750E-004  +1.0999213457E+000 +9.2211359739E-001 
3638210.263 +1.7252078056E+000 -2.1489775181E-001  -8.8183220942E-004 +7.6594349230E-004  -1.1211326346E-003 +1.6611977480E-003  +1.1902387142E+000 +9.5928907394E-001 
3763355.444 +1.7607262135E+000 -2.8321146965E-001  -2.6124364231E-003 +1.1847491842E-003  -1.5555061400E-003 +1.1148480698E-003  +1.2896473408E+000 +9.9538552761E-001 
3888500.626 +1.7996337414E+000 -4.1624909639E-001  -2.1523274481E-003 +1.6063709045E-003  -2.0654106047E-003 +1.9570244476E-003  +1.3784720898E+000 +1.0585951805E+000 
4013645.807 +1.4765410423E+000 -6.9458985329E-001  -5.9261219576E-005 +2.4372178596E-003  -1.6731186770E-004 +1.4378206106E-003  +1.6505807638E+000 +8.5175657272E-001 
4138790.989 +1.0831383467E+000 -7.8588569164E-001  +2.2840901511E-004 +2.8109115083E-003  +4.1437998880E-004 +2.8007682413E-003  +1.7722958326E+000 +5.2718317509E-001 
4263936.170 +1.0302600861E+000 -7.9010361433E-001  -2.9881141381E-004 +2.4549809750E-003  -6.1321305111E-005 +3.1536438037E-003  +1.8287657499E+000 +4.3288975954E-001 
4389081.352 +9.4315087795E-001 -8.1976014376E-001  +5.4601189913E-004 +3.4124625381E-003  +1.1442364193E-003 +3.5792707931E-003  +1.8645166159E+000 +3.0294579268E-001 
4514226.533 +8.8079774380E-001 -8.2775425911E-001  +5.8022385929E-004 +3.2591498457E-003  +5.3742388263E-004 +2.6637320407E-003  +1.8895541430E+000 +2.1132826805E-001 
4639371.715 +8.1034266949E-001 -8.0702656507E-001  +1.0507003171E-003 +2.8524333611E-003  +6.7160982871E-004 +2.7699056081E-003  +1.8937923908E+000 +1.4252294600E-001 
4764516.896 +7.5038802624E-001 -7.9243808985E-001  +1.5401170822E-003 +3.0103474855E-003  +7.9005339649E-004 +2.5507737882E-003  +1.8962836266E+000 +4.0877431631E-002 
4889662.078 +6.9462895393E-001 -7.7158027887E-001  +4.5088300249E-004 +2.1728803404E-003  +1.1151884682E-003 +2.6596516836E-003  +1.8956573009E+000 -2.8390631080E-002 
5014807.259 +6.3305807114E-001 -7.5333619118E-001  +1.1915228097E-003 +2.2584821563E-003  +1.2179369805E-003 +2.5577086490E-003  +1.8512326479E+000 -9.8232835531E-002 
5139952.441 +6.0048699379E-001 -7.2930270433E-001  +1.3627499575E-003 +2.6591545902E-003  +1.0299610440E-003 +2.9493237380E-003  +1.8249640465E+000 -1.9415828586E-001 
5265097.622 +5.6095463037E-001 -6.8329209089E-001  +6.0338643380E-004 +2.0955731161E-003  +7.6987291686E-004 +2.2337110713E-003  +1.7726933956E+000 -2.5044777989E-001 
5390242.804 +5.1773703098E-001 -6.3766658306E-001  +1.1712560663E-003 +2.2213538177E-003  +8.5226632655E-004 +2.0112616476E-003  +1.7269169092E+000 -2.9341882467E-001 
5515387.985 +4.8342210054E-001 -6.0526859760E-001  +9.3629944604E-004 +2.9702200554E-003  +1.4353946317E-003 +2.6850653812E-003  +1.6969338655E+000 -3.6399787664E-001 
5640533.166 +4.4318196177E-001 -5.6913626194E-001  +1.2777013471E-003 +2.5683464482E-003  +1.2647577096E-003 +2.0408190321E-003  +1.6538008451E+000 -3.9535778761E-001 
5765678.348 +4.1512599587E-001 -5.3785604239E-001  +8.4816711023E-004 +2.4232247379E-003  +8.3007616922E-004 +2.1928062197E-003  +1.6030993462E+000 -4.3912023306E-001 
5890823.529 +3.8967666030E-001 -4.8571720719E-001  +1.3942566002E-003 +2.0264498889E-003  +9.6757709980E-004 +1.7239087028E-003  +1.5374057293E+000 -4.6754562855E-001 
6015968.711 +3.7052312493E-001 -4.5194882154E-001  +9.2837068951E-004 +2.5575361215E-003  +7.2751921834E-004 +2.3522048723E-003  +1.5005067587E+000 -4.9069607258E-001 
6141113.892 +3.4708988667E-001 -4.1191476583E-001  +1.0265384335E-003 +2.2670191247E-003  +1.3003646163E-003 +2.5419914164E-003  +1.4464441538E+000 -5.1116770506E-001 
6266259.074 +3.3538442850E-001 -3.6100515723E-001  +9.3658245169E-004 +2.0238310099E-003  +9.1662711930E-004 +2.4627556559E-003  +1.3881714344E+000 -5.2184808254E-001 
6391404.255 +3.1606349349E-001 -3.2091554999E-001  +9.2241307721E-004 +2.2580751684E-003  +7.6418824028E-004 +2.3282247130E-003  +1.3308122158E+000 -5.3395390511E-001 
6516549.437 +3.0202585459E-001 -2.7736765146E-001  +3.7521944614E-004 +1.9018275198E-003  +8.3889393136E-004 +2.3704844061E-003  +1.2889723778E+000 -5.4191935062E-001 
6641694.618 +2.9840347171E-001 -2.4376538396E-001  +9.1350788716E-004 +2.3331309203E-003  +4.1321979370E-004 +2.4882068392E-003  +1.2570922375E+000 -5.4228538275E-001 
6766839.800 +2.8955298662E-001 -2.0282243192E-001  +4.3237794307E-004 +2.1453627851E-003  +6.4288725844E-004 +2.2646933794E-003  +1.2122340202E+000 -5.4874086380E-001 
6891984.981 +2.8586438298E-001 -1.6635671258E-001  +4.6365312301E-004 +2.5276914239E-003  +2.7052417863E-004 +1.7646002816E-003  +1.1664991379E+000 -5.3689926863E-001 
7017130.163 +2.8087595105E-001 -1.2300667167E-001  +5.3335487610E-004 +2.1527968347E-003  +6.3841725932E-004 +2.5851440150E-003  +1.1375679970E+000 -5.2179336548E-001 
7142275.344 +2.7192142606E-001 -8.7550289929E-002  +3.1649530865E-004 +2.4314171169E-003  +1.3597711222E-004 +2.4657279719E-003  +1.1077854633E+000 -5.1532161236E-001 
7267420.526 +2.7538934350E-001 -4.8678599298E-002  +3.5526481224E-004 +2.5331338402E-003  +8.5684354417E-005 +2.2007122170E-003  +1.0760608912E+000 -5.0898742676E-001 
7392565.707 +2.7313575149E-001 -8.8464953005E-003  +2.7814254281E-004 +2.4867646862E-003  +1.9367317145E-004 +2.3283497430E-003  +1.0493417978E+000 -5.0256520510E-001 
7517710.889 +2.7265641093E-001 +2.9698561877E-002  +2.8601195663E-004 +2.4223488290E-003  +2.0214650431E-004 +2.4380651303E-003  +1.0183527470E+000 -4.8867684603E-001 
7642856.070 +2.7415299416E-001 +6.6165849566E-002  +1.8328677106E-004 +2.2728189360E-003  +3.7019388401E-005 +2.2613347974E-003  +9.8481017351E-001 -4.7776725888E-001 
7768001.252 +2.8437793255E-001 +1.0839304328E-001  +9.3987007858E-005 +2.4381212424E-003  +1.6597640933E-004 +2.4682451040E-003  +9.5977956057E-001 -4.6688261628E-001 
7893146.433 +2.9038071632E-001 +1.4870913327E-001  +2.0216172561E-004 +2.4994399864E-003  +1.3687263709E-004 +2.5065185037E-003  +9.4131350517E-001 -4.4911623001E-001 
8018291.615 +2.9393914342E-001 +1.8866664171E-001  +3.2644136809E-005 +2.7692625299E-003  -4.6440050937E-005 +2.7336371131E-003  +9.1417920589E-001 -4.3423813581E-001 
8143436.796 +3.0834469199E-001 +2.2600209713E-001  -7.0531357778E-005 +2.7988392394E-003  -4.5119522838E-005 +2.6047322899E-003  +8.9936578274E-001 -4.1741758585E-001 
8268581.977 +3.1688943505E-001 +2.6652288437E-001  -2.6580793201E-004 +2.7595027350E-003  -1.9290964701E-004 +2.6830814313E-003  +8.7982958555E-001 -3.9978420734E-001 
8393727.159 +3.3154314756E-001 +3.0416414142E-001  -3.4023137414E-004 +2.6598023251E-003  -5.4884538986E-004 +2.8628471773E-003  +8.5964977741E-001 -3.8365924358E-001 
8518872.340 +3.5071828961E-001 +3.4942877293E-001  -4.4377474114E-004 +2.7022715658E-003  -5.2849121857E-004 +2.8026455548E-003  +8.4230375290E-001 -3.6953115463E-001 
8644017.522 +3.6397558451E-001 +3.8096046448E-001  -6.2884169165E-004 +2.9633899685E-003  -4.5454670908E-004 +2.6694927365E-003  +8.3133494854E-001 -3.5854879022E-001 
8769162.703 +3.8382747769E-001 +4.1922214627E-001  -5.7340989588E-004 +3.0460290145E-003  -5.0517485943E-004 +3.1051589176E-003  +8.1702286005E-001 -3.4006375074E-001 
8894307.885 +4.0722566843E-001 +4.5624917746E-001  -8.1994937500E-004 +3.1024341006E-003  -7.4122485239E-004 +3.2090821769E-003  +8.0085134506E-001 -3.2657182217E-001 
9019453.066 +4.3357324600E-001 +4.9487039447E-001  -8.7353074923E-004 +3.2714083791E-003  -7.3341891402E-004 +3.2027387060E-003  +7.8946244717E-001 -3.0872225761E-001 
9144598.248 +4.6294495463E-001 +5.3242045641E-001  -9.5480121672E-004 +3.3223940991E-003  -1.0220109252E-003 +3.3311827574E-003  +7.8035497665E-001 -2.9226523638E-001 
9269743.429 +4.9591580033E-001 +5.6885337830E-001  -1.0166565189E-003 +3.2904902473E-003  -1.0640423279E-003 +3.4514507279E-003  +7.6918470860E-001 -2.7530807257E-001 
9394888.611 +5.2710992098E-001 +6.0780537128E-001  -1.0827298975E-003 +3.5603875294E-003  -1.0632290505E-003 +3.5338639282E-003  +7.5917106867E-001 -2.6113587618E-001 
9520033.792 +5.7031524181E-001 +6.3751012087E-001  -1.1288374662E-003 +3.7211587187E-003  -1.3107145205E-003 +3.6204769276E-003  +7.5245636702E-001 -2.4141599238E-001 
9645178.974 +6.1194980145E-001 +6.7223477364E-001  -1.2347057927E-003 +3.8193536457E-003  -1.2055346742E-003 +3.8014068268E-003  +7.4479377270E-001 -2.2422210872E-001 
9770324.155 +6.5456068516E-001 +6.9852423668E-001  -1.3446039520E-003 +3.9800400846E-003  -1.2483042665E-003 +3.9767911658E-003  +7.3822629452E-001 -2.0574298501E-001 
9895469.337 +7.0249664783E-001 +7.2634661198E-001  -1.3746826444E-003 +4.2250594124E-003  -1.2851178180E-003 +4.1750734672E-003  +7.3025560379E-001 -1.9122871757E-001 
10020614.518 +7.5198990107E-001 +7.4999070168E-001  -1.5642270446E-003 +4.3515460566E-003  -1.4821270015E-003 +4.3042856269E-003  +7.2566610575E-001 -1.7330515385E-001 
10145759.700 +8.0771666765E-001 +7.6630973816E-001  -1.4412207529E-003 +4.5003956184E-003  -1.4835011680E-003 +4.4233552180E-003  +7.2324538231E-001 -1.6095995903E-001 
10270904.881 +8.6664003134E-001 +7.8451287746E-001  -1.6075548483E-003 +4.7649033368E-003  -1.6564042307E-003 +4.7444589436E-003  +7.2063046694E-001 -1.4424476027E-001 
10396050.063 +9.2611062527E-001 +7.9257589579E-001  -1.5871587675E-003 +4.8938593827E-003  -1.6459248727E-003 +4.8122527078E-003  +7.1668910980E-001 -1.2708148360E-001 
10521195.244 +9.8397696018E-001 +7.9897940159E-001  -1.6342684394E-003 +5.1735839806E-003  -1.6815540148E-003 +5.0014816225E-003  +7.1800041199E-001 -1.1245563626E-001 
10646340.426 +1.0411341190E+000 +7.9792416096E-001  -1.6561597586E-003 +5.2273413166E-003  -1.7206093762E-003 +5.1842099056E-003  +7.1514225006E-001 -9.5106184483E-002 
10771485.607 +1.1042673588E+000 +7.9028654099E-001  -1.6898191534E-003 +5.4920651019E-003  -1.6021736665E-003 +5.4636760615E-003  +7.1476960182E-001 -8.0439150333E-002 
10896630.788 +1.1630592346E+000 +7.7655458450E-001  -1.6122993547E-003 +5.7281018235E-003  -1.5970901586E-003 +5.6732362136E-003  +7.1481829882E-001 -6.6494792700E-002 
11021775.970 +1.2234047651E+000 +7.5644803047E-001  -1.6269269399E-003 +5.7995812967E-003  -1.6343803145E-003 +5.8732372709E-003  +7.1584391594E-001 -5.1279097795E-002 
11146921.151 +1.2823774815E+000 +7.3100972176E-001  -1.5405444428E-003 +6.0471780598E-003  -1.6004415229E-003 +6.0685207136E-003  +7.1812832355E-001 -3.5040825605E-002 
11272066.333 +1.3367666006E+000 +6.9868052006E-001  -1.5109088272E-003 +6.2666106969E-003  -1.5307809226E-003 +6.2315016985E-003  +7.1898722649E-001 -2.0572096109E-002 
11397211.514 +1.3879084587E+000 +6.6739881039E-001  -1.4787665568E-003 +6.4148912206E-003  -1.4598607086E-003 +6.4546400681E-003  +7.2267162800E-001 -6.2658190727E-003 
11522356.696 +1.4357562065E+000 +6.2593388557E-001  -1.4448165894E-003 +6.6541312262E-003  -1.4473907650E-003 +6.6450806335E-003  +7.2671961784E-001 +7.8916847706E-003 
11647501.877 +1.4734930992E+000 +5.8054316044E-001  -1.2960964814E-003 +6.7987060174E-003  -1.3088108972E-003 +6.8222987466E-003  +7.2987997532E-001 +2.0441383123E-002 
11772647.059 +1.5127834082E+000 +5.3255939484E-001  -1.1986668687E-003 +6.9926539436E-003  -1.1895925272E-003 +6.9143837318E-003  +7.3544776440E-001 +3.2911747694E-002 
11897792.240 +1.5449142456E+000 +4.8281371593E-001  -1.0316320695E-003 +7.1027944796E-003  -1.1290237308E-003 +7.0706717670E-003  +7.4161446095E-001 +4.7795921564E-002 
12022937.422 +1.5726648569E+000 +4.3517369032E-001  -9.4783306122E-004 +7.2258487344E-003  -9.4347633421E-004 +7.2526205331E-003  +7.4686968327E-001 +5.9536635876E-002 
12148082.603 +1.5912605524E+000 +3.7700226903E-001  -8.1441295333E-004 +7.3802177794E-003  -8.1765232608E-004 +7.3074111715E-003  +7.5421309471E-001 +7.3484823108E-002 
12273227.785 +1.6041402817E+000 +3.2535648346E-001  -6.7677558400E-004 +7.4688801542E-003  -7.4500264600E-004 +7.5005237013E-003  +7.6101469994E-001 +8.4354281425E-002 
12398372.966 +1.6144672632E+000 +2.7424266934E-001  -6.3406082336E-004 +7.5703221373E-003  -5.6590163149E-004 +7.5638545677E-003  +7.6932573318E-001 +9.4758912921E-002 
12523518.148 +1.6149318218E+000 +2.2214472294E-001  -4.7814531717E-004 +7.6397955418E-003  -4.9488013610E-004 +7.6513024978E-003  +7.7575612068E-001 +1.0586276650E-001 
12648663.329 +1.6164755821E+000 +1.7255556583E-001  -3.2001093496E-004 +7.7920127660E-003  -2.8320122510E-004 +7.8625185415E-003  +7.8531527519E-001 +1.1711056530E-001 
12773808.511 +1.6097654104E+000 +1.2290491164E-001  -2.5271018967E-004 +7.8001143411E-003  -1.9123143284E-004 +7.8039853834E-003  +7.9398107529E-001 +1.2594696879E-001 
12898953.692 +1.6027315855E+000 +7.7703207731E-002  -6.6538807005E-005 +7.9116905108E-003  -1.1132587679E-004 +7.8869173303E-003  +8.0312383175E-001 +1.3546627760E-001 
13024098.874 +1.5890575647E+000 +3.6180693656E-002  -1.7776401364E-005 +7.9220309854E-003  -4.4535016059E-005 +7.9278657213E-003  +8.1362336874E-001 +1.4458757639E-001 
13149244.055 +1.5745234489E+000 -2.3449584842E-003  +6.8987254053E-005 +7.9678436741E-003  +1.0667619063E-004 +8.0258939415E-003  +8.2381755114E-001 +1.5388211608E-001 
13274389.237 +1.5566012859E+000 -4.0282025933E-002  +2.2552767769E-004 +7.9661058262E-003  +2.1568662487E-004 +7.9925749451E-003  +8.3540546894E-001 +1.6082425416E-001 
13399534.418 +1.5372691154E+000 -7.4982002378E-002  +2.9530120082E-004 +8.0058174208E-003  +3.3414061181E-004 +8.0808252096E-003  +8.4595006704E-001 +1.6815614700E-001 
13524679.599 +1.5179479122E+000 -1.0375255346E-001  +4.5129028149E-004 +8.0377254635E-003  +4.1306589264E-004 +8.0820927396E-003  +8.5816681385E-001 +1.7405349016E-001 
13649824.781 +1.4959914684E+000 -1.3384684920E-001  +5.2817037795E-004 +8.0905510113E-003  +4.8425036948E-004 +8.0744298175E-003  +8.7032002211E-001 +1.7999972403E-001 
13774969.962 +1.4721879959E+000 -1.6000324488E-001  +6.3308607787E-004 +8.0718956888E-003  +6.3061923720E-004 +8.1415846944E-003  +8.8147771358E-001 +1.8482631445E-001 
13900115.144 +1.4499009848E+000 -1.8256983161E-001  +7.2506908327E-004 +8.1267245114E-003  +7.0740678348E-004 +8.1540066749E-003  +8.9394086599E-001 +1.8961139023E-001 
14025260.325 +1.4261792898E+000 -2.0127353072E-001  +7.4351415969E-004 +8.1410398707E-003  +7.1962014772E-004 +8.1532830372E-003  +9.0614122152E-001 +1.9305984676E-001 
14150405.507 +1.4028015137E+000 -2.1918147802E-001  +7.9507869668E-004 +8.1504816189E-003  +8.1689609215E-004 +8.1637250260E-003  +9.1848766804E-001 +1.9653150439E-001 
14275550.688 +1.3791167736E+000 -2.3603636026E-001  +8.7767140940E-004 +8.1518879160E-003  +8.4078893997E-004 +8.1739826128E-003  +9.3132621050E-001 +1.9823047519E-001 
14400695.870 +1.3535957336E+000 -2.5039470196E-001  +9.5525244251E-004 +8.0954534933E-003  +1.0167369619E-003 +8.1663066521E-003  +9.4347560406E-001 +1.9955235720E-001 
