!  2-Port S-parameters saved by WinCal
! VAR MeasName=S-Parameters (CALIBRATED_DATA) read from VNA (P5004A)
! VAR MeasDate=22/05/2024 18:22:52
! VAR NAME=Wafer2_r2_c1_pristine_neg2.0dc
! VAR FILENAME=Wafer2_r2_c1_pristine_neg2.0dc.S2P
! VAR DATE=22/05/2024 18:22:52
! VAR PHYS_PORTS=1,2
! VAR ObjTypeName=DATASET
! VAR IndexType=Frequency
!
# Hz S RI R 50
9000.000 +2.1596091986E-001 -5.9979271889E-001  +3.1659035012E-003 +7.9629360698E-005  -1.3961864170E-003 +2.4021818535E-004  +5.7242166251E-002 +1.0545492917E-001 
134145.181 +6.2074720860E-001 -6.4156576991E-002  -1.0705102235E-002 -1.5712324530E-002  +2.0552486181E-002 -6.4761633985E-003  -3.5273209214E-001 -5.9531980753E-001 
259290.363 +8.2631796598E-001 -1.4655132592E-001  -8.1643005833E-003 -3.8932997268E-003  -4.6974872239E-003 -5.8769746684E-003  +1.2536484003E+000 -8.5017663240E-001 
384435.544 +8.8299900293E-001 -3.0139192939E-001  -5.8908960782E-003 +8.9595355093E-003  -2.4880984798E-002 -7.9509606585E-003  +2.7694423199E+000 -2.0976896286E+000 
509580.726 +9.5195531845E-001 -1.6416600347E-001  +3.6107492633E-005 -1.9471392734E-003  +2.9542511329E-003 -3.1131566502E-003  +1.7783119678E+000 -2.1440804005E-001 
634725.907 +1.0927627087E+000 -2.0046398044E-001  +4.2055072263E-003 -1.8473052187E-003  -1.2108472874E-003 +3.0431696214E-003  +1.9929076433E+000 +8.5542422533E-001 
759871.089 +1.2672193050E+000 -4.3111801147E-002  -1.0307853809E-003 +5.1557051484E-004  -1.3112510787E-003 +2.4149433011E-004  +1.4355385303E+000 +4.5473796129E-001 
885016.270 +1.1215840578E+000 -3.2412198186E-001  -1.7801988870E-003 +1.4325768279E-004  +1.9201850519E-003 +7.1344745811E-004  +1.2058236599E+000 +4.9856409431E-001 
1010161.452 +1.2400345802E+000 -7.3479905725E-002  +1.4320360788E-004 +9.1388222063E-004  +5.1017466467E-004 +1.0393748526E-003  +1.1864703894E+000 +4.9044424295E-001 
1135306.633 +1.3285107613E+000 -9.2772230506E-002  +9.7984331660E-005 +2.9029778671E-004  -4.2612195830E-004 -2.8444940108E-004  +1.2970813513E+000 +6.0763502121E-001 
1260451.815 +1.5451798439E+000 -8.2006335258E-002  -3.3128427458E-004 +4.5321034850E-004  +3.7995979073E-004 +3.5186071182E-004  +1.0994321108E+000 +7.0432573557E-001 
1385596.996 +1.3771412373E+000 -1.1596542597E-001  -3.9874605136E-005 +2.0336377202E-004  +1.4033021580E-004 -6.2183666159E-005  +9.8652988672E-001 +4.8223331571E-001 
1510742.178 +1.6176806688E+000 -1.5539774299E-001  -4.5795098413E-004 +1.2972571130E-004  +2.1053214732E-004 +9.2347661848E-005  +6.7988884449E-001 +5.7432103157E-001 
1635887.359 +1.1239140034E+000 -3.7602612376E-001  -5.0911548897E-006 +3.1854474219E-004  -1.5773600899E-004 +2.0413275342E-004  +1.5213974714E+000 +6.3076102734E-001 
1761032.541 +1.2862265110E+000 -3.2767835259E-001  -3.1252088957E-004 +1.4427491988E-004  -4.9285567366E-004 +2.9340968467E-005  +1.1050796509E+000 +8.2690483332E-001 
1886177.722 +1.2143809795E+000 -2.4197304249E-001  +6.3239334850E-005 +1.0996071796E-004  +9.1669440735E-005 +5.1767070545E-005  +1.1448245049E+000 +5.5806422234E-001 
2011322.904 +1.1979696751E+000 -2.3998388648E-001  -1.4501958503E-004 -2.8310823836E-006  -1.1225692288E-004 +4.3105962686E-004  +1.1582000256E+000 +5.2584981918E-001 
2136468.085 +1.2247877121E+000 -1.9611033797E-001  -2.6314769639E-004 +1.6431219410E-004  -3.1633084291E-005 +4.2329099961E-004  +1.0967667103E+000 +4.7734895349E-001 
2261613.267 +1.2263987064E+000 -1.8719489872E-001  -2.6588520268E-004 +3.7338907714E-004  -1.0445632506E-004 +3.6180182360E-004  +1.0534070730E+000 +5.1515704393E-001 
2386758.448 +1.2194691896E+000 -2.0044335723E-001  -1.5371612972E-004 +2.2293654911E-004  -4.4751228415E-004 +2.7476786636E-004  +1.0725342035E+000 +5.4420703650E-001 
2511903.630 +1.2301108837E+000 -2.2022353113E-001  -6.7125121132E-004 +5.0978758372E-004  -3.5744445631E-004 +2.2556624026E-004  +1.1168160439E+000 +5.7961213589E-001 
2637048.811 +1.1922073364E+000 -2.5558960438E-001  -6.3893967308E-004 +4.4151709881E-004  -7.1667868178E-004 +6.2027241802E-004  +1.1261546612E+000 +6.0784375668E-001 
2762193.992 +1.1473504305E+000 -1.9017845392E-001  -4.6566559467E-004 +5.5862986483E-004  -7.4856239371E-004 +7.8643229790E-004  +1.1414774656E+000 +5.1120966673E-001 
2887339.174 +1.1963958740E+000 -1.4796528220E-001  -6.7335664062E-004 +5.5442540906E-004  -1.4492191840E-003 +9.2919112649E-004  +9.9629151821E-001 +5.0369554758E-001 
3012484.355 +1.2283229828E+000 -1.4760592580E-001  -3.6713792360E-004 +1.2162383646E-003  -9.0567587176E-004 +5.5344391149E-004  +9.4798213243E-001 +6.1112999916E-001 
3137629.537 +1.2456084490E+000 -1.4892947674E-001  -5.7412346359E-004 +6.5377273131E-004  -4.1024870006E-004 +9.1148627689E-004  +9.7161197662E-001 +7.2133225203E-001 
3262774.718 +1.2437365055E+000 -1.7183655500E-001  -5.7860149536E-004 +4.8441730905E-004  -6.5897876630E-004 +7.6345185516E-004  +1.0197699070E+000 +7.8833299875E-001 
3387919.900 +1.2429150343E+000 -1.6761833429E-001  +8.6787883192E-003 -1.7937617376E-002  -8.1002188381E-004 +9.4441830879E-004  +1.0466039181E+000 +8.5587394238E-001 
3513065.081 +1.2790434361E+000 -2.0607197285E-001  -9.1685302323E-004 +9.4239792088E-004  -1.0526324622E-003 +1.1466433061E-003  +1.0975428820E+000 +9.2862868309E-001 
3638210.263 +1.2970604897E+000 -2.2701233625E-001  -3.9482756983E-004 +9.0074981563E-004  -2.1102395840E-004 +1.5647100518E-003  +1.1904017925E+000 +9.7313296795E-001 
3763355.444 +1.2839870453E+000 -2.5215667486E-001  -1.4074810315E-003 +1.4563199366E-003  -8.4860995412E-004 +1.6152362805E-003  +1.2904734612E+000 +1.0043811798E+000 
3888500.626 +1.2811465263E+000 -2.8605079651E-001  -1.2586656958E-003 +2.0635339897E-003  -1.0796872666E-003 +1.4159416314E-003  +1.3715244532E+000 +1.0704330206E+000 
4013645.807 +1.0826627016E+000 -4.0111657977E-001  -8.1041548401E-004 +1.7375748139E-003  -9.7898882814E-004 +2.1549237426E-003  +1.6564368010E+000 +8.5886311531E-001 
4138790.989 +8.7095814943E-001 -4.3837493658E-001  -5.8171345154E-004 +2.7939721476E-003  -4.6473240945E-004 +2.1327338181E-003  +1.7862757444E+000 +5.4181718826E-001 
4263936.170 +8.2685995102E-001 -4.2657530308E-001  +3.1618651701E-004 +3.0336363707E-003  +6.7764928099E-004 +1.7283207271E-003  +1.8332916498E+000 +4.3490982056E-001 
4389081.352 +7.8696483374E-001 -4.1751021147E-001  +3.8142682752E-004 +3.6667876411E-003  -4.6327547170E-004 +2.5183870457E-003  +1.8832062483E+000 +2.9856434464E-001 
4514226.533 +7.6683324575E-001 -4.1426342726E-001  +1.9005010836E-004 +2.7994010597E-003  +3.5979869426E-004 +2.2436918225E-003  +1.9116545916E+000 +2.1360467374E-001 
4639371.715 +7.4054342508E-001 -3.8723066449E-001  +5.3521897644E-004 +2.5022623595E-003  +9.2105212389E-004 +2.5816636626E-003  +1.9117320776E+000 +1.3812196255E-001 
4764516.896 +7.0145922899E-001 -3.6676102877E-001  +6.0697342269E-004 +2.8251032345E-003  +4.9906817731E-004 +2.5499726180E-003  +1.9170935154E+000 +3.2421916723E-002 
4889662.078 +6.8001198769E-001 -3.4766462445E-001  +1.5467029880E-004 +2.7099144645E-003  -5.6254939409E-005 +2.9512210749E-003  +1.9050741196E+000 -4.0527313948E-002 
5014807.259 +6.4820462465E-001 -3.2156124711E-001  +8.3272531629E-004 +2.2381285671E-003  -2.5907607051E-004 +2.7823904529E-003  +1.8688467741E+000 -1.1038637161E-001 
5139952.441 +6.4163202047E-001 -2.9664760828E-001  +4.3038581498E-004 +2.7632482816E-003  +9.7512727370E-004 +2.8144221287E-003  +1.8465472460E+000 -1.9953793287E-001 
5265097.622 +6.1750978231E-001 -2.6642903686E-001  +2.3178465199E-004 +3.0823729467E-003  +4.0881830500E-004 +2.5663652923E-003  +1.7924321890E+000 -2.5585880876E-001 
5390242.804 +6.0938578844E-001 -2.3242262006E-001  +6.8416877184E-004 +3.1227611471E-003  +3.3541599987E-004 +2.5599531364E-003  +1.7416394949E+000 -3.1202977896E-001 
5515387.985 +5.9495490789E-001 -2.0071613789E-001  +3.6872280180E-004 +2.4551826064E-003  +5.0988234580E-004 +3.3198902383E-003  +1.6938842535E+000 -3.7720730901E-001 
5640533.166 +5.9076201916E-001 -1.8078935146E-001  +5.1502505084E-004 +2.7929998469E-003  +4.1855499148E-004 +3.4346119501E-003  +1.6680178642E+000 -4.1127920151E-001 
5765678.348 +5.7270056009E-001 -1.4796467125E-001  -6.2310209614E-005 +3.0830574688E-003  +6.2490272103E-004 +3.3766911365E-003  +1.6128596067E+000 -4.4537487626E-001 
5890823.529 +5.6914389133E-001 -1.1565039307E-001  +5.5850628996E-004 +2.7760344092E-003  +1.2176017044E-003 +2.9328784440E-003  +1.5445803404E+000 -4.7334343195E-001 
6015968.711 +5.6247770786E-001 -8.6792558432E-002  +6.0912169283E-004 +3.2310083043E-003  +1.5131114924E-004 +2.5292504579E-003  +1.5060919523E+000 -4.9328392744E-001 
6141113.892 +5.6252419949E-001 -6.3674613833E-002  +7.1081239730E-004 +2.3221611045E-003  +2.9193531373E-004 +2.4531984236E-003  +1.4474449158E+000 -5.0876122713E-001 
6266259.074 +5.6162607670E-001 -3.0499476939E-002  +3.8040286745E-004 +2.8083857615E-003  +6.7823071731E-004 +3.0638324097E-003  +1.4010301828E+000 -5.2363646030E-001 
6391404.255 +5.6673860550E-001 -2.0417571068E-004  +3.3117306884E-004 +2.5676258374E-003  +2.8584472602E-004 +2.9694437981E-003  +1.3414655924E+000 -5.4098886251E-001 
6516549.437 +5.6993240118E-001 +2.8268419206E-002  +3.4211837919E-004 +2.8277612291E-003  +2.6211785735E-004 +3.1175145414E-003  +1.2996507883E+000 -5.3903114796E-001 
6641694.618 +5.7575589418E-001 +6.0138449073E-002  +1.1121781426E-005 +3.2677222043E-003  +3.7175379111E-004 +3.0361246318E-003  +1.2669962645E+000 -5.4494905472E-001 
6766839.800 +5.8956855536E-001 +9.1633379459E-002  +7.2818147601E-005 +2.6518548839E-003  +3.9417966036E-004 +3.2149818726E-003  +1.2200564146E+000 -5.5037963390E-001 
6891984.981 +5.9578692913E-001 +1.0957391560E-001  +3.6077649565E-004 +2.8933654539E-003  +3.4654379124E-004 +3.0838444363E-003  +1.1701039076E+000 -5.3731364012E-001 
7017130.163 +6.0589027405E-001 +1.3533562422E-001  +1.9588902069E-004 +2.8540305793E-003  +3.5734393168E-004 +2.9679303989E-003  +1.1437752247E+000 -5.2954345942E-001 
7142275.344 +6.1421126127E-001 +1.6415840387E-001  +1.7541326815E-004 +3.1797345728E-003  +3.5419643973E-004 +3.1166116241E-003  +1.1166024208E+000 -5.2129298449E-001 
7267420.526 +6.3082468510E-001 +1.9189298153E-001  +4.2368163122E-005 +2.9306681827E-003  +2.8578619822E-004 +3.1414402183E-003  +1.0796998739E+000 -5.0986111164E-001 
7392565.707 +6.4782285690E-001 +2.1053037047E-001  +1.5064462787E-005 +3.0350661837E-003  +2.4649305851E-004 +3.2042819075E-003  +1.0544749498E+000 -5.0173163414E-001 
7517710.889 +6.6560596228E-001 +2.3145192862E-001  +1.5328830341E-004 +3.4661281388E-003  +9.8661403172E-005 +3.4295921214E-003  +1.0267708302E+000 -4.9636006355E-001 
7642856.070 +6.7900550365E-001 +2.5617134571E-001  +1.9813131075E-005 +3.1160679646E-003  +4.9303343985E-005 +3.1464062631E-003  +9.8887395859E-001 -4.8316693306E-001 
7768001.252 +7.0142519474E-001 +2.7438020706E-001  +8.2318903878E-005 +3.1901749317E-003  +3.0393252382E-004 +3.4561590292E-003  +9.5984202623E-001 -4.7325050831E-001 
7893146.433 +7.2780352831E-001 +2.9259967804E-001  +3.9750593714E-005 +3.3399062231E-003  +1.7484102864E-004 +3.3979788423E-003  +9.4127744436E-001 -4.5146381855E-001 
8018291.615 +7.4862283468E-001 +3.1173107028E-001  +1.1753063882E-004 +3.4874430858E-003  -1.3090611901E-005 +3.4163848031E-003  +9.1349816322E-001 -4.3693459034E-001 
8143436.796 +7.7133488655E-001 +3.2305753231E-001  -8.0225872807E-006 +3.3355632331E-003  +4.1704566684E-005 +3.3088899218E-003  +8.9928090572E-001 -4.2030051351E-001 
8268581.977 +7.9504579306E-001 +3.3769637346E-001  +1.6857258743E-004 +3.7330072373E-003  +1.1589651695E-004 +3.6416621879E-003  +8.7972950935E-001 -4.0685504675E-001 
8393727.159 +8.2402485609E-001 +3.4635466337E-001  -4.7701178119E-007 +3.6388211884E-003  -7.0731330197E-005 +3.5408551339E-003  +8.6382114887E-001 -3.9228045940E-001 
8518872.340 +8.5431641340E-001 +3.5646137595E-001  -2.4245254463E-004 +3.7269380409E-003  +7.8444136307E-006 +3.7030384410E-003  +8.4414184093E-001 -3.7453052402E-001 
8644017.522 +8.7609750032E-001 +3.6558914185E-001  -4.5892084017E-005 +3.8151971530E-003  -1.5133770648E-004 +3.8373293355E-003  +8.3590233326E-001 -3.5929477215E-001 
8769162.703 +9.0820950270E-001 +3.6997070909E-001  -1.6605958808E-004 +4.0691769682E-003  -1.8679723144E-004 +3.9747157134E-003  +8.1814360619E-001 -3.4799063206E-001 
8894307.885 +9.3360400200E-001 +3.6701580882E-001  -1.4983804431E-004 +4.0026106872E-003  -1.3173592743E-004 +4.0381769650E-003  +8.0305773020E-001 -3.3136999607E-001 
9019453.066 +9.6060097218E-001 +3.6588302255E-001  -2.1643319633E-004 +3.9921510033E-003  -1.5687826090E-004 +4.0441206656E-003  +7.9152488708E-001 -3.1405293941E-001 
9144598.248 +9.9297398329E-001 +3.6214524508E-001  -2.3616035469E-004 +4.1308235377E-003  -4.9545662478E-005 +4.0177316405E-003  +7.7843588591E-001 -2.9548460245E-001 
9269743.429 +1.0182954073E+000 +3.6025699973E-001  -3.8095703349E-004 +4.2235339060E-003  -2.1135993302E-004 +4.2441068217E-003  +7.7117979527E-001 -2.8029090166E-001 
9394888.611 +1.0464838743E+000 +3.5673385859E-001  -3.1157641206E-004 +4.3340860866E-003  -2.1776289213E-004 +4.4240085408E-003  +7.6012986898E-001 -2.6483064890E-001 
9520033.792 +1.0723201036E+000 +3.4223860502E-001  -1.2557837181E-004 +4.4234553352E-003  -1.8151686527E-004 +4.3604113162E-003  +7.5041550398E-001 -2.4498155713E-001 
9645178.974 +1.0971825123E+000 +3.3554965258E-001  -2.6160257403E-004 +4.4463700615E-003  -3.8019020576E-004 +4.4689825736E-003  +7.4390107393E-001 -2.3285543919E-001 
9770324.155 +1.1184617281E+000 +3.1956273317E-001  -1.5016994439E-004 +4.5348578133E-003  -2.2604700644E-004 +4.6791122295E-003  +7.3599493504E-001 -2.1328261495E-001 
9895469.337 +1.1399083138E+000 +3.0654287338E-001  -2.9496685602E-004 +4.6842154115E-003  -1.9599031657E-004 +4.6851867810E-003  +7.2964179516E-001 -1.9552573562E-001 
10020614.518 +1.1581144333E+000 +2.9210972786E-001  -2.9479037039E-004 +4.8538758419E-003  -1.3432675041E-004 +4.8315213062E-003  +7.2666919231E-001 -1.7702004313E-001 
10145759.700 +1.1775155067E+000 +2.7020314336E-001  -1.9151205197E-004 +4.8961229622E-003  -1.3097724877E-004 +4.9389731139E-003  +7.2499567270E-001 -1.6126826406E-001 
10270904.881 +1.1970286369E+000 +2.4937406182E-001  -2.5233160704E-004 +4.8959446140E-003  -2.2370880470E-004 +4.9410639331E-003  +7.2124409676E-001 -1.4672121406E-001 
10396050.063 +1.2067466974E+000 +2.2689560056E-001  -1.2470479123E-004 +5.0458027981E-003  -1.2865290046E-004 +4.9752849154E-003  +7.1898710728E-001 -1.3052016497E-001 
10521195.244 +1.2190812826E+000 +2.0944952965E-001  -9.3680107966E-005 +5.0872452557E-003  -1.4395429753E-004 +5.0531667657E-003  +7.1740865707E-001 -1.1447370052E-001 
10646340.426 +1.2279223204E+000 +1.8839424849E-001  -1.2136553414E-004 +5.0625018775E-003  -1.7865491100E-004 +5.1983776502E-003  +7.1550947428E-001 -9.7539573908E-002 
10771485.607 +1.2371225357E+000 +1.6588830948E-001  -2.3645674810E-004 +5.2815126255E-003  -1.0470906273E-004 +5.2871038206E-003  +7.1617805958E-001 -8.2109391689E-002 
10896630.788 +1.2410688400E+000 +1.4800441265E-001  -1.2842891738E-004 +5.2478322759E-003  -1.9093044102E-004 +5.2307019942E-003  +7.1615386009E-001 -6.6072821617E-002 
11021775.970 +1.2452859879E+000 +1.2759184837E-001  -1.5603471547E-004 +5.3692730144E-003  -1.8526520580E-004 +5.2958754823E-003  +7.1801137924E-001 -5.2258819342E-002 
11146921.151 +1.2478759289E+000 +1.0447657108E-001  -8.7586697191E-005 +5.4529272020E-003  -1.8848734908E-004 +5.4846066050E-003  +7.1971082687E-001 -3.6439359188E-002 
11272066.333 +1.2466340065E+000 +8.3511948586E-002  -6.1882892624E-005 +5.4937331006E-003  -1.2135878205E-004 +5.5292574689E-003  +7.1994829178E-001 -2.1255522966E-002 
11397211.514 +1.2481855154E+000 +6.6688358784E-002  -1.2808898464E-004 +5.5263959803E-003  -1.5046563931E-004 +5.5932924151E-003  +7.2381627560E-001 -8.2528293133E-003 
11522356.696 +1.2466840744E+000 +4.7332584858E-002  -8.4549188614E-005 +5.6642084382E-003  -1.1799857020E-004 +5.6290393695E-003  +7.2825205326E-001 +6.8101286888E-003 
11647501.877 +1.2406876087E+000 +3.1264305115E-002  -1.2430991046E-004 +5.6459438056E-003  -8.2976650447E-005 +5.6898435578E-003  +7.3026615381E-001 +1.9923180342E-002 
11772647.059 +1.2374324799E+000 +1.4235258102E-002  -6.5353699028E-005 +5.7336627506E-003  -6.8516004831E-005 +5.7216072455E-003  +7.3563182354E-001 +3.3570975065E-002 
11897792.240 +1.2310004234E+000 -3.2985806465E-003  -7.1226153523E-005 +5.8272015303E-003  -6.9607514888E-005 +5.8512813412E-003  +7.4194943905E-001 +4.7294467688E-002 
12022937.422 +1.2279658318E+000 -1.5365421772E-002  -5.8803940192E-005 +5.9280269779E-003  -6.4976047724E-005 +5.8957873844E-003  +7.4744874239E-001 +5.9065848589E-002 
12148082.603 +1.2198446989E+000 -3.1855165958E-002  -6.5158586949E-005 +5.9717567638E-003  -5.7770172134E-005 +5.9607503936E-003  +7.5490176678E-001 +7.3844075203E-002 
12273227.785 +1.2114114761E+000 -4.1747480631E-002  -7.2989147156E-005 +6.0442234389E-003  -7.8757759184E-005 +5.9742582962E-003  +7.6262134314E-001 +8.3958819509E-002 
12398372.966 +1.2038567066E+000 -5.5038928986E-002  -6.3234707341E-005 +6.0839927755E-003  -4.1119521484E-005 +6.1467066407E-003  +7.6932668686E-001 +9.4794347882E-002 
12523518.148 +1.1925579309E+000 -6.5847873688E-002  -4.9080816098E-005 +6.1801034026E-003  -5.6561548263E-005 +6.1499821022E-003  +7.7649557590E-001 +1.0560040176E-001 
12648663.329 +1.1854823828E+000 -7.4853181839E-002  -9.1450056061E-006 +6.2050768174E-003  -7.4410345405E-005 +6.1981133185E-003  +7.8589749336E-001 +1.1656308174E-001 
12773808.511 +1.1764655113E+000 -8.5802197456E-002  -9.8400400020E-005 +6.2624779530E-003  -1.8018647097E-005 +6.2672896311E-003  +7.9526466131E-001 +1.2637148798E-001 
12898953.692 +1.1668075323E+000 -9.4410762191E-002  -6.5755099058E-005 +6.3637415878E-003  +5.6783901528E-006 +6.3796774484E-003  +8.0477815866E-001 +1.3494169712E-001 
13024098.874 +1.1564613581E+000 -9.9456138909E-002  -6.8880355684E-005 +6.4047826454E-003  -7.6564145274E-005 +6.4095249400E-003  +8.1372100115E-001 +1.4377510548E-001 
13149244.055 +1.1476492882E+000 -1.0673023015E-001  +1.0856936569E-005 +6.4635882154E-003  -4.9384470913E-005 +6.4860191196E-003  +8.2473117113E-001 +1.5283942223E-001 
13274389.237 +1.1368513107E+000 -1.1359886825E-001  -5.8454897953E-006 +6.5239276737E-003  -1.1946831364E-005 +6.5385191701E-003  +8.3679169416E-001 +1.6059623659E-001 
13399534.418 +1.1270494461E+000 -1.1805497110E-001  -3.4608528949E-005 +6.5940748900E-003  -9.5035065897E-006 +6.6314158030E-003  +8.4629696608E-001 +1.6827979684E-001 
13524679.599 +1.1170861721E+000 -1.2267611921E-001  -3.9309379645E-005 +6.6943368874E-003  +3.3815740608E-006 +6.6965310834E-003  +8.5919892788E-001 +1.7589691281E-001 
13649824.781 +1.1083059311E+000 -1.2781952322E-001  -6.7489454523E-006 +6.7635904998E-003  -1.8878257833E-005 +6.7947506905E-003  +8.7089163065E-001 +1.8140628934E-001 
13774969.962 +1.0979529619E+000 -1.2926916778E-001  +1.1146767065E-005 +6.8276678212E-003  -1.8769293092E-005 +6.8660154939E-003  +8.8252401352E-001 +1.8591177464E-001 
13900115.144 +1.0895922184E+000 -1.3123562932E-001  +7.4146431871E-005 +6.9018756039E-003  +3.1876144931E-005 +6.9321151823E-003  +8.9432102442E-001 +1.8991869688E-001 
14025260.325 +1.0795915127E+000 -1.3371044397E-001  +7.6622236520E-006 +6.9753951393E-003  -2.4856301025E-005 +7.0136841387E-003  +9.0680575371E-001 +1.9322648644E-001 
14150405.507 +1.0717322826E+000 -1.3494804502E-001  +3.9266888052E-005 +7.0440317504E-003  +8.2559650764E-005 +7.0426920429E-003  +9.1836714745E-001 +1.9597087801E-001 
14275550.688 +1.0627176762E+000 -1.3564726710E-001  +2.7203466743E-005 +7.1258004755E-003  +7.4090668932E-005 +7.1765705943E-003  +9.3166065216E-001 +1.9786716998E-001 
14400695.870 +1.0524988174E+000 -1.3622760773E-001  +7.1269227192E-005 +7.1283718571E-003  +7.6417345554E-005 +7.1843885817E-003  +9.4391214848E-001 +2.0066329837E-001 
