!  2-Port S-parameters saved by WinCal
! VAR MeasName=S-Parameters (CALIBRATED_DATA) read from VNA (P5004A)
! VAR MeasDate=22/05/2024 18:21:14
! VAR NAME=Wafer2_r2_c1_pristine_neg1.8dc
! VAR FILENAME=Wafer2_r2_c1_pristine_neg1.8dc.S2P
! VAR DATE=22/05/2024 18:21:14
! VAR PHYS_PORTS=1,2
! VAR ObjTypeName=DATASET
! VAR IndexType=Frequency
!
# Hz S RI R 50
9000.000 +2.0965141058E-001 -5.9570181370E-001  +1.3308422640E-002 +4.2490288615E-003  +3.8646903704E-004 +1.4481144026E-003  +6.8405762315E-002 +1.0770128667E-001 
134145.181 +6.2572479248E-001 -7.1047969162E-002  -1.4297054149E-002 +2.8689480387E-003  -2.3045757785E-002 +1.0923398659E-002  -2.4247796834E-001 -4.0635102987E-001 
259290.363 +8.0868482590E-001 -1.4222194254E-001  -1.3612490147E-002 +8.9241033420E-003  +2.1595363505E-003 +1.2098186417E-003  +1.1581447124E+000 -1.0392149687E+000 
384435.544 +8.7864267826E-001 -3.1621447206E-001  -1.9253888167E-003 +1.1325146072E-002  -9.9770575762E-003 -4.3480731547E-003  +2.9110119343E+000 -2.6981315613E+000 
509580.726 +9.4823622704E-001 -1.7208081484E-001  +4.5633404516E-003 -2.4815406650E-003  +2.7352694888E-003 -2.5128207635E-003  +1.8242473602E+000 -4.0254682302E-001 
634725.907 +1.0901821852E+000 -2.0070961118E-001  +4.3810023926E-003 -5.6069460697E-003  +1.5036136610E-003 -8.4651989164E-004  +2.7549443245E+000 +5.6160187721E-001 
759871.089 +1.2588429451E+000 -5.0826668739E-002  +1.7867658753E-003 -1.4266505605E-004  +1.6641046386E-005 +5.5744691053E-004  +1.4278507233E+000 +4.1782283783E-001 
885016.270 +1.0885907412E+000 -3.0283194780E-001  +1.2953783153E-003 +1.3858540915E-003  -1.5285215341E-005 +1.3030099217E-003  +1.2102766037E+000 +4.9347084761E-001 
1010161.452 +1.2471724749E+000 -8.5105851293E-002  +4.8380045337E-004 +2.5825407647E-005  +2.3333419813E-004 -4.3489778182E-004  +1.1849305630E+000 +4.9916037917E-001 
1135306.633 +1.3298203945E+000 -1.1545918882E-001  +6.6857371712E-004 +4.2759248754E-004  +4.7629536130E-004 -9.5927133225E-004  +1.2967665195E+000 +6.1109066010E-001 
1260451.815 +1.5508400202E+000 -9.4992935658E-002  +1.9541023357E-004 +5.0187809393E-004  +1.5051977243E-004 -2.6580464328E-004  +1.1015063524E+000 +7.0498222113E-001 
1385596.996 +1.3816453218E+000 -1.2035012245E-001  +1.3253770885E-004 +2.7318496723E-004  +2.1999154706E-004 +3.4027718357E-004  +9.8612236977E-001 +4.8389181495E-001 
1510742.178 +1.6125980616E+000 -1.6307958961E-001  +8.8922723080E-005 +1.4725944493E-004  -4.3152140279E-006 +1.0092975572E-004  +6.7833125591E-001 +5.7374936342E-001 
1635887.359 +1.1225107908E+000 -3.8440379500E-001  -2.3206209880E-004 +2.1736437338E-004  -6.7252913141E-006 +2.3205895559E-004  +1.5215560198E+000 +6.3061785698E-001 
1761032.541 +1.2947894335E+000 -3.2482036948E-001  +1.8470075156E-004 +3.0645035440E-004  -1.4377334446E-004 +3.7177809281E-004  +1.1033637524E+000 +8.2660591602E-001 
1886177.722 +1.2230665684E+000 -2.4262300134E-001  -3.2131705666E-004 +1.5710486332E-004  -3.4676358337E-004 +2.8653512709E-004  +1.1438571215E+000 +5.5795991421E-001 
2011322.904 +1.2118616104E+000 -2.4544662237E-001  -2.1932786331E-004 +2.8812050004E-004  +5.6033532019E-006 +1.8276792252E-004  +1.1582794189E+000 +5.2599585056E-001 
2136468.085 +1.2166686058E+000 -1.9467818737E-001  -4.2039240361E-004 +1.9864976639E-004  -3.7264110870E-004 +3.7022103788E-004  +1.0975619555E+000 +4.7679397464E-001 
2261613.267 +1.2241933346E+000 -1.9218969345E-001  -1.5848095063E-004 +1.3328970817E-004  -9.2161411885E-005 +1.6652746126E-004  +1.0541818142E+000 +5.1511645317E-001 
2386758.448 +1.2270376682E+000 -1.9557087123E-001  -5.3923000814E-004 +6.5501255449E-004  -3.3874335350E-004 +3.4859246807E-004  +1.0726184845E+000 +5.4434281588E-001 
2511903.630 +1.2297605276E+000 -2.2533397377E-001  -2.7880055131E-004 +4.9023737665E-004  -4.7043905943E-004 +1.8590023683E-004  +1.1177055836E+000 +5.7915246487E-001 
2637048.811 +1.1979386806E+000 -2.6456740499E-001  -7.0369243622E-004 +9.1601710301E-004  -5.8494484983E-004 +5.4754910525E-004  +1.1254981756E+000 +6.0790687799E-001 
2762193.992 +1.1280033588E+000 -1.7557030916E-001  -1.3779063011E-004 +7.0676958421E-004  -6.7753531039E-004 +8.5269793635E-004  +1.1398096085E+000 +5.0962334871E-001 
2887339.174 +1.1865744591E+000 -1.4044120908E-001  -1.1729997641E-004 +5.2918429719E-004  -4.2161668534E-004 +5.9331464581E-004  +1.0011947155E+000 +5.0296992064E-001 
3012484.355 +1.2417783737E+000 -1.5276911855E-001  -6.3269806560E-004 +9.8197464831E-004  -2.5052076671E-004 +1.2149229879E-003  +9.5009475946E-001 +6.1332029104E-001 
3137629.537 +1.2426735163E+000 -1.5318697691E-001  -6.0185784241E-004 +8.1816362217E-004  -8.1595923984E-004 +1.2498132419E-003  +9.7126495838E-001 +7.2176277637E-001 
3262774.718 +1.2466808558E+000 -1.8632137775E-001  -6.2029651599E-004 +1.0611121543E-003  -7.4177392526E-004 +9.8665303085E-004  +1.0189300776E+000 +7.8498983383E-001 
3387919.900 +1.2367608547E+000 -1.9548982382E-001  +2.6205168106E-003 -1.5963269398E-003  -7.9790846212E-004 +1.0125729023E-003  +1.0613136292E+000 +8.5752558708E-001 
3513065.081 +1.2460426092E+000 -2.0817542076E-001  -5.8523681946E-004 +1.2518740259E-003  -1.8610159168E-004 +8.6661544628E-004  +1.1041138172E+000 +9.2662477493E-001 
3638210.263 +1.2638831139E+000 -2.1367591619E-001  -1.1213594116E-003 +1.4722372871E-003  -3.6875647493E-004 +6.9218291901E-004  +1.1969770193E+000 +9.7195315361E-001 
3763355.444 +1.2750096321E+000 -2.6227456331E-001  -1.0612756014E-003 +1.2971824035E-003  -5.8254762553E-004 +1.3588645961E-003  +1.2844244242E+000 +1.0023466349E+000 
3888500.626 +1.2775650024E+000 -3.0212727189E-001  -9.4435986830E-004 +1.0814566631E-003  -1.6692861682E-003 +1.4475681819E-003  +1.3719941378E+000 +1.0706839561E+000 
4013645.807 +1.0709587336E+000 -4.2180055380E-001  -8.7326380890E-004 +1.9929769915E-003  -5.1512534264E-004 +1.9496364985E-003  +1.6477494240E+000 +8.6447715759E-001 
4138790.989 +8.5325622559E-001 -4.4115632772E-001  +2.5039876346E-004 +1.7074650386E-003  +1.9122962840E-005 +3.3487996552E-003  +1.7913942337E+000 +5.3429895639E-001 
4263936.170 +8.1488704681E-001 -4.2089250684E-001  -4.6445900807E-004 +2.4812838528E-003  -2.9984721914E-004 +1.4350013807E-003  +1.8357436657E+000 +4.4029346108E-001 
4389081.352 +7.7446985245E-001 -4.1318929195E-001  +7.9794711201E-004 +2.3523848504E-003  +3.1609102734E-004 +2.5044395588E-003  +1.8774827719E+000 +2.9946178198E-001 
4514226.533 +7.5582379103E-001 -4.0964406729E-001  +5.9035839513E-004 +2.4404400028E-003  +5.5306684226E-004 +2.2290293127E-003  +1.9179801941E+000 +2.1694248915E-001 
4639371.715 +7.2888326645E-001 -3.8686549664E-001  +6.4936181298E-004 +3.7225589622E-003  +2.4329306325E-004 +2.9432224110E-003  +1.9150521755E+000 +1.2636870146E-001 
4764516.896 +7.0025593042E-001 -3.5742324591E-001  -2.9578851536E-004 +3.0251471326E-003  +9.8795618396E-004 +3.1705305446E-003  +1.9198360443E+000 +3.1522750854E-002 
4889662.078 +6.8011933565E-001 -3.3407717943E-001  -3.4936537850E-004 +2.6351781562E-003  +7.5375620509E-004 +3.1722837593E-003  +1.9196451902E+000 -4.8523321748E-002 
5014807.259 +6.3976120949E-001 -3.2434746623E-001  +7.6958839782E-004 +3.0013602227E-003  +6.8828510121E-004 +2.6394543238E-003  +1.8636171818E+000 -1.0799559951E-001 
5139952.441 +6.3679730892E-001 -3.0141967535E-001  +1.1205811752E-003 +1.9347597845E-003  +4.6736473450E-004 +2.7948229108E-003  +1.8449248075E+000 -2.0409487188E-001 
5265097.622 +6.1367845535E-001 -2.6298439503E-001  +5.2044901531E-004 +2.6340796612E-003  +4.8854592023E-004 +2.8443788178E-003  +1.7860664129E+000 -2.6035207510E-001 
5390242.804 +6.0157370567E-001 -2.3605243862E-001  +1.7226113414E-004 +2.2138925269E-003  +2.6531182812E-004 +2.9311776161E-003  +1.7499455214E+000 -3.1617170572E-001 
5515387.985 +5.8817452192E-001 -2.0491284132E-001  +1.5951364185E-004 +2.7026105672E-003  +6.1923672911E-004 +2.5114519522E-003  +1.6890456676E+000 -3.7910467386E-001 
5640533.166 +5.7970333099E-001 -1.7071859539E-001  +6.2339956639E-004 +3.2355040312E-003  +4.2608682998E-004 +2.8909314424E-003  +1.6672922373E+000 -4.1936644912E-001 
5765678.348 +5.6389510632E-001 -1.5177825093E-001  +5.0451915013E-004 +2.7271353174E-003  +2.0991651400E-004 +2.5364765897E-003  +1.6138852835E+000 -4.4462704659E-001 
5890823.529 +5.6219780445E-001 -1.1558876932E-001  +3.5905544064E-004 +2.3373358417E-003  +4.0035918937E-004 +2.5805674959E-003  +1.5396912098E+000 -4.9011981487E-001 
6015968.711 +5.5872082710E-001 -8.6928047240E-002  +5.4463016568E-004 +2.7491997462E-003  +4.6886745258E-004 +2.9552155174E-003  +1.5073624849E+000 -5.0477313995E-001 
6141113.892 +5.5368387699E-001 -6.1606284231E-002  +4.0912258555E-004 +2.9618195258E-003  +4.5244695502E-004 +3.0132185202E-003  +1.4451290369E+000 -5.0553768873E-001 
6266259.074 +5.5869245529E-001 -3.0410181731E-002  +1.5564032947E-004 +2.5980146602E-003  +8.7553937919E-004 +2.8501825873E-003  +1.3979526758E+000 -5.2659547329E-001 
6391404.255 +5.5973136425E-001 +2.6159845293E-003  +5.2915012930E-004 +2.7944245376E-003  +3.9834849304E-004 +2.4835381191E-003  +1.3390933275E+000 -5.4446959496E-001 
6516549.437 +5.6365019083E-001 +3.0615905300E-002  +8.0834171968E-005 +2.6561415289E-003  +3.3741415245E-004 +2.8697687667E-003  +1.2996746302E+000 -5.4584211111E-001 
6641694.618 +5.7348471880E-001 +6.2213562429E-002  +3.8432335714E-004 +3.0689064879E-003  +3.1381315785E-004 +2.6562658604E-003  +1.2675960064E+000 -5.5195182562E-001 
6766839.800 +5.8564811945E-001 +8.7203726172E-002  +2.6340386830E-004 +2.9560495168E-003  +3.3695308957E-004 +2.9173900839E-003  +1.2230693102E+000 -5.5277228355E-001 
6891984.981 +5.9306538105E-001 +1.0868944973E-001  +4.0022796020E-004 +2.8647142462E-003  +6.1275524786E-005 +3.0033555813E-003  +1.1721479893E+000 -5.3911250830E-001 
7017130.163 +6.0466045141E-001 +1.3924404979E-001  +3.2184657175E-004 +3.0021078419E-003  +3.1941395719E-004 +3.0812395271E-003  +1.1432925463E+000 -5.3047281504E-001 
7142275.344 +6.1539667845E-001 +1.6794055700E-001  +3.5446751281E-004 +3.4200476948E-003  +7.4977579061E-006 +3.1193105970E-003  +1.1142528057E+000 -5.2248704433E-001 
7267420.526 +6.3031518459E-001 +1.9291332364E-001  +2.0409291028E-004 +3.0790599994E-003  -3.3255229937E-005 +3.1369028147E-003  +1.0799832344E+000 -5.1402610540E-001 
7392565.707 +6.4791548252E-001 +2.1657294035E-001  +1.1432069005E-004 +3.2429231796E-003  +2.6721178438E-004 +3.1241234392E-003  +1.0505504608E+000 -5.1029610634E-001 
7517710.889 +6.6371047497E-001 +2.3523139954E-001  +2.3172644433E-005 +3.1293409411E-003  +1.3951573055E-004 +3.3131602686E-003  +1.0195797682E+000 -4.9630093575E-001 
7642856.070 +6.7805087566E-001 +2.5772848725E-001  +1.4336255845E-004 +3.1324126758E-003  +2.3975386284E-004 +3.3508231863E-003  +9.8751085997E-001 -4.8189732432E-001 
7768001.252 +7.0127034187E-001 +2.7490606904E-001  +2.1598878084E-004 +3.4395409748E-003  +1.2404198060E-004 +3.4476232249E-003  +9.6263164282E-001 -4.6997767687E-001 
7893146.433 +7.2413223982E-001 +2.9565066099E-001  +1.6719725681E-004 +3.4364634193E-003  +1.2138334569E-004 +3.5133399069E-003  +9.4016790390E-001 -4.5618426800E-001 
8018291.615 +7.4900484085E-001 +3.0890518427E-001  +1.5375547810E-004 +3.4468742087E-003  -1.3670301996E-005 +3.4808581695E-003  +9.1553586721E-001 -4.3957653642E-001 
8143436.796 +7.7183979750E-001 +3.2301181555E-001  +2.7196947485E-006 +3.5468803253E-003  -1.0910781566E-004 +3.5239309072E-003  +8.9911097288E-001 -4.2204886675E-001 
8268581.977 +7.9559391737E-001 +3.3776497841E-001  -1.6595789930E-004 +3.4945008811E-003  -3.4852069803E-005 +3.3962782472E-003  +8.7869036198E-001 -4.0569710732E-001 
8393727.159 +8.2163381577E-001 +3.4582674503E-001  -1.8733728211E-005 +3.5510470625E-003  +3.3542921301E-005 +3.6455926020E-003  +8.6088162661E-001 -3.8979816437E-001 
8518872.340 +8.5433179140E-001 +3.5446974635E-001  -2.9658025596E-005 +3.7876509596E-003  -1.1683307821E-004 +3.6846520379E-003  +8.4349614382E-001 -3.7598586082E-001 
8644017.522 +8.7453591824E-001 +3.6132174730E-001  -2.6401522337E-004 +3.7955690641E-003  -2.8121867217E-005 +3.7864744663E-003  +8.3217018843E-001 -3.5906773806E-001 
8769162.703 +9.0768188238E-001 +3.6822307110E-001  -2.4573330302E-004 +3.9570964873E-003  -2.7216720628E-004 +3.8816533051E-003  +8.1646126509E-001 -3.4730982780E-001 
8894307.885 +9.3250358105E-001 +3.6354321241E-001  -2.7176167350E-004 +3.9727217518E-003  -1.1103029829E-004 +4.1086496785E-003  +8.0216932297E-001 -3.3327218890E-001 
9019453.066 +9.6065402031E-001 +3.6141049862E-001  -1.9339623395E-004 +4.0959687904E-003  -2.8042378835E-004 +3.9682658389E-003  +7.9049158096E-001 -3.1324884295E-001 
9144598.248 +9.8969525099E-001 +3.5935494304E-001  -2.9165996239E-004 +4.2204363272E-003  -1.7066427972E-004 +3.9785755798E-003  +7.7752292156E-001 -2.9721334577E-001 
9269743.429 +1.0181709528E+000 +3.5955169797E-001  -1.8799328245E-004 +4.2187054642E-003  -1.8524006009E-004 +4.1809482500E-003  +7.7021437883E-001 -2.7988636494E-001 
9394888.611 +1.0433889627E+000 +3.5312479734E-001  -2.3627409246E-004 +4.2178239673E-003  -2.6940868702E-004 +4.3172421865E-003  +7.5691348314E-001 -2.6654845476E-001 
9520033.792 +1.0713901520E+000 +3.4261083603E-001  -2.5173777249E-004 +4.4080023654E-003  -2.8092460707E-004 +4.3948683888E-003  +7.5305229425E-001 -2.4374142289E-001 
9645178.974 +1.0963537693E+000 +3.3258199692E-001  -2.4145585485E-004 +4.4567254372E-003  -1.4633405954E-004 +4.5239003375E-003  +7.4218702316E-001 -2.2976267338E-001 
9770324.155 +1.1166739464E+000 +3.1831896305E-001  -2.8219225351E-004 +4.5511899516E-003  -2.4613901041E-004 +4.4850008562E-003  +7.3539364338E-001 -2.1073114872E-001 
9895469.337 +1.1399409771E+000 +3.0612584949E-001  -1.6856682487E-004 +4.5942468569E-003  -3.5044737160E-004 +4.7995424829E-003  +7.3011040688E-001 -1.9326707721E-001 
10020614.518 +1.1570343971E+000 +2.8947174549E-001  -2.1537113935E-004 +4.6910429373E-003  -3.6302197259E-004 +4.6123708598E-003  +7.2725069523E-001 -1.7565128207E-001 
10145759.700 +1.1773853302E+000 +2.6808771491E-001  -2.3178709671E-004 +4.8309965059E-003  -2.7093966492E-004 +4.8916991800E-003  +7.2376036644E-001 -1.6197621822E-001 
10270904.881 +1.1970822811E+000 +2.5017973781E-001  -3.4666410647E-004 +4.8828897998E-003  -1.7503416166E-004 +4.9333944917E-003  +7.2229778767E-001 -1.4582765102E-001 
10396050.063 +1.2060225010E+000 +2.2782406211E-001  -1.4897785150E-004 +4.9448339269E-003  -1.0082987137E-004 +4.9988860264E-003  +7.1709918976E-001 -1.2824502587E-001 
10521195.244 +1.2192724943E+000 +2.0948705077E-001  -1.6252044588E-004 +5.0529432483E-003  -1.9219354726E-004 +5.1250960678E-003  +7.1737015247E-001 -1.1133825779E-001 
10646340.426 +1.2282415628E+000 +1.8894362450E-001  -2.3761810735E-004 +5.0643626601E-003  -2.0060478710E-004 +5.1835076883E-003  +7.1571278572E-001 -9.6040993929E-002 
10771485.607 +1.2356513739E+000 +1.6793614626E-001  -1.1809892021E-004 +5.2373134531E-003  -1.1101854034E-004 +5.2370214835E-003  +7.1498084068E-001 -7.8899711370E-002 
10896630.788 +1.2413169146E+000 +1.4772731066E-001  -1.2788572349E-004 +5.2734045312E-003  -1.6458542086E-004 +5.3386352956E-003  +7.1594941616E-001 -6.4133703709E-002 
11021775.970 +1.2442045212E+000 +1.2602216005E-001  -1.6907649115E-004 +5.3095277399E-003  -1.7643044703E-004 +5.3993025795E-003  +7.1770620346E-001 -4.9917370081E-002 
11146921.151 +1.2471396923E+000 +1.0512495041E-001  -2.2394256666E-004 +5.4535432719E-003  -2.2279331461E-004 +5.4038558155E-003  +7.1951508522E-001 -3.6370486021E-002 
11272066.333 +1.2457525730E+000 +8.2249760628E-002  -1.8102163449E-004 +5.4267444648E-003  -3.9829639718E-005 +5.4582022130E-003  +7.2016477585E-001 -2.0938754082E-002 
11397211.514 +1.2481772900E+000 +6.4841032028E-002  -9.0578570962E-005 +5.6065521203E-003  -1.1057779193E-004 +5.5620064959E-003  +7.2253382206E-001 -7.0023238659E-003 
11522356.696 +1.2446037531E+000 +4.6396911144E-002  -1.3876892626E-004 +5.6504621170E-003  -1.2530479580E-004 +5.6255883537E-003  +7.2699618340E-001 +4.4344663620E-003 
11647501.877 +1.2398587465E+000 +3.0379712582E-002  -1.2641050853E-004 +5.7267714292E-003  -1.2809899636E-004 +5.6976680644E-003  +7.3010587692E-001 +1.9826143980E-002 
11772647.059 +1.2372134924E+000 +1.3824462891E-002  -1.0911165737E-004 +5.7513578795E-003  -1.3064732775E-004 +5.7172956876E-003  +7.3555666208E-001 +3.2610267401E-002 
11897792.240 +1.2316133976E+000 -3.6171078682E-003  -4.8262067139E-005 +5.8690588921E-003  -6.1478698626E-005 +5.8194505982E-003  +7.4254626036E-001 +4.6176701784E-002 
12022937.422 +1.2271472216E+000 -1.5817046165E-002  -7.5539108366E-005 +5.8833095245E-003  -5.5508688092E-005 +5.8652102016E-003  +7.4684441090E-001 +5.8004379272E-002 
12148082.603 +1.2189824581E+000 -3.1065315008E-002  -7.4288574979E-005 +5.8819870465E-003  -9.7671290860E-005 +5.9874258004E-003  +7.5436675549E-001 +7.2026789188E-002 
12273227.785 +1.2116509676E+000 -4.2242586613E-002  -4.9432273954E-005 +5.9843473136E-003  -8.1628561020E-005 +6.0105435550E-003  +7.6122146845E-001 +8.3110988140E-002 
12398372.966 +1.2038350105E+000 -5.4898738861E-002  -4.5649125241E-005 +6.1063487083E-003  -1.1187081691E-004 +6.1283018440E-003  +7.6938962936E-001 +9.4893619418E-002 
12523518.148 +1.1933459044E+000 -6.5384879708E-002  -5.7036522776E-005 +6.1547248624E-003  -6.5910746343E-005 +6.1254873872E-003  +7.7628940344E-001 +1.0554318130E-001 
12648663.329 +1.1849452257E+000 -7.5580254197E-002  -7.2074355558E-005 +6.1892350204E-003  -7.2781345807E-005 +6.2292730436E-003  +7.8545367718E-001 +1.1654213071E-001 
12773808.511 +1.1754969358E+000 -8.5867717862E-002  -1.0439276230E-004 +6.2898676842E-003  -7.2760856710E-005 +6.3025127165E-003  +7.9551565647E-001 +1.2671242654E-001 
12898953.692 +1.1668272018E+000 -9.3812599778E-002  +1.2897304259E-005 +6.3677220605E-003  +4.1906023398E-006 +6.3547096215E-003  +8.0433535576E-001 +1.3578747213E-001 
13024098.874 +1.1569340229E+000 -1.0041459650E-001  -4.9418158596E-005 +6.3749118708E-003  -7.3560804594E-006 +6.4673949964E-003  +8.1339597702E-001 +1.4513778687E-001 
13149244.055 +1.1477242708E+000 -1.0673114657E-001  -7.6438052929E-005 +6.5048076212E-003  -8.8165485067E-005 +6.5124188550E-003  +8.2428038120E-001 +1.5347571671E-001 
13274389.237 +1.1368542910E+000 -1.1301673949E-001  -6.2862549385E-005 +6.5404060297E-003  -5.4842072132E-005 +6.5663550049E-003  +8.3585113287E-001 +1.6100952029E-001 
13399534.418 +1.1267515421E+000 -1.1828164756E-001  -3.7137768231E-005 +6.6010691226E-003  -6.5542291850E-005 +6.6420775838E-003  +8.4686928988E-001 +1.6885328293E-001 
13524679.599 +1.1167708635E+000 -1.2118345499E-001  -1.0123185348E-005 +6.7588360980E-003  +1.1731171981E-006 +6.7028333433E-003  +8.5798037052E-001 +1.7462193966E-001 
13649824.781 +1.1086398363E+000 -1.2642596662E-001  -9.2107802629E-007 +6.7518842407E-003  +3.6457437091E-005 +6.7452555522E-003  +8.7071710825E-001 +1.8061909080E-001 
13774969.962 +1.0979857445E+000 -1.2888559699E-001  +1.0367482901E-005 +6.8183415569E-003  +4.8344256356E-005 +6.8594291806E-003  +8.8212233782E-001 +1.8466800451E-001 
13900115.144 +1.0893098116E+000 -1.3163593411E-001  -3.6602257751E-005 +6.8588526919E-003  +4.9449619837E-005 +6.9632786326E-003  +8.9400392771E-001 +1.8965804577E-001 
14025260.325 +1.0792039633E+000 -1.3364648819E-001  +5.0673959777E-005 +6.9599160925E-003  +6.2581617385E-005 +6.9918688387E-003  +9.0621548891E-001 +1.9299276173E-001 
14150405.507 +1.0717902184E+000 -1.3373714685E-001  +6.8122288212E-005 +7.0671779104E-003  +7.9236458987E-005 +7.0483684540E-003  +9.1849678755E-001 +1.9690458477E-001 
14275550.688 +1.0619885921E+000 -1.3432306051E-001  +4.8809451982E-005 +7.1267178282E-003  +4.2075291276E-005 +7.1161426604E-003  +9.3166172504E-001 +1.9772307575E-001 
14400695.870 +1.0527566671E+000 -1.3549953699E-001  +1.0381033644E-004 +7.1961884387E-003  +7.8881392255E-005 +7.1511478163E-003  +9.4407570362E-001 +2.0036149025E-001 
