!  2-Port S-parameters saved by WinCal
! VAR MeasName=S-Parameters (CALIBRATED_DATA) read from VNA (P5004A)
! VAR MeasDate=22/05/2024 18:17:38
! VAR NAME=Wafer2_r2_c1_pristine_neg1.4dc
! VAR FILENAME=Wafer2_r2_c1_pristine_neg1.4dc.S2P
! VAR DATE=22/05/2024 18:17:38
! VAR PHYS_PORTS=1,2
! VAR ObjTypeName=DATASET
! VAR IndexType=Frequency
!
# Hz S RI R 50
9000.000 +2.2539643943E-001 -5.9115743637E-001  -1.1417062953E-002 -8.6933057755E-003  +2.2912006825E-003 +1.7393678427E-003  +6.5087035298E-002 +1.2221731991E-001 
134145.181 +6.2534171343E-001 -5.5420644581E-002  +9.9640088156E-003 -2.6000621729E-003  +6.8259397522E-003 +2.1467930637E-003  -6.8831141107E-003 -3.6102396250E-001 
259290.363 +8.2664161921E-001 -1.4651533961E-001  -1.4453294687E-002 -1.1456282809E-003  +2.2033087909E-002 +3.2307067886E-003  +1.1946233511E+000 -9.4015800953E-001 
384435.544 +8.8825690746E-001 -2.9632145166E-001  -4.8490017653E-003 +8.3962650970E-003  -4.1488045827E-003 +6.9815865718E-003  +4.9684753418E+000 -4.0112991333E+000 
509580.726 +9.5416074991E-001 -1.6260179877E-001  -3.5815921728E-004 -1.1582678417E-003  -8.0273172352E-004 +3.0191862024E-003  +1.7561100721E+000 -3.2317125797E-001 
634725.907 +1.0929483175E+000 -2.0124158263E-001  -6.7771086469E-004 +3.9677368477E-003  -5.2337723901E-005 -5.6046096142E-004  +2.4077796936E+000 +5.1316779852E-001 
759871.089 +1.2509415150E+000 -4.4430255890E-002  +1.5581761545E-004 -1.3407150982E-004  +6.7829008913E-004 +1.0367764626E-003  +1.4344763756E+000 +4.2987132072E-001 
885016.270 +1.0846290588E+000 -2.9975840449E-001  -6.5696984529E-004 +1.0059501510E-003  +2.5311965146E-004 -1.3464931399E-003  +1.2140412331E+000 +4.9717172980E-001 
1010161.452 +1.2397731543E+000 -6.1432838440E-002  +2.6249404982E-005 +3.3955737308E-005  -6.8590533920E-004 +7.6160946628E-004  +1.1875481606E+000 +4.9882149696E-001 
1135306.633 +1.3307406902E+000 -9.7761049867E-002  +6.9091469049E-004 -7.8954049968E-005  +8.9519040193E-004 -1.1070212349E-003  +1.3035948277E+000 +6.0979855061E-001 
1260451.815 +1.5494306087E+000 -9.6463799477E-002  +1.2188260735E-004 +1.0275236127E-004  -2.1871639183E-004 +8.3999923663E-004  +1.0965579748E+000 +7.0879048109E-001 
1385596.996 +1.3821400404E+000 -1.1911064386E-001  +1.2765414431E-004 +3.2172881765E-004  +1.1390058353E-004 -8.1791418779E-005  +9.8549318314E-001 +4.8362374306E-001 
1510742.178 +1.6056315899E+000 -1.4953449368E-001  -1.0896255844E-004 +1.2639466149E-004  +3.4916454752E-005 +2.8112513246E-004  +6.7864203453E-001 +5.7446682453E-001 
1635887.359 +1.1294735670E+000 -3.6960706115E-001  -1.6913142463E-004 +1.1508366151E-004  +2.1372252377E-006 +3.9337755879E-004  +1.5212680101E+000 +6.3115340471E-001 
1761032.541 +1.2788636684E+000 -3.1188032031E-001  -1.1364689271E-004 +3.4278002568E-004  -2.8534172452E-004 +2.4543178733E-004  +1.1040627956E+000 +8.2652908564E-001 
1886177.722 +1.2125812769E+000 -2.3258706927E-001  -3.5499190562E-004 +1.0689269402E-004  -1.8159903993E-004 -4.3419233407E-005  +1.1441712379E+000 +5.5754709244E-001 
2011322.904 +1.1946427822E+000 -2.2223708034E-001  -2.1543777257E-004 +3.8111288450E-004  -2.9061787063E-004 +2.0195759134E-004  +1.1577892303E+000 +5.2560472488E-001 
2136468.085 +1.1992344856E+000 -1.7243966460E-001  -1.0745839973E-004 +3.8500656956E-004  -1.4375051251E-005 +3.2495099003E-004  +1.0972328186E+000 +4.7668313980E-001 
2261613.267 +1.2122036219E+000 -1.7394109070E-001  -3.4853705438E-004 +4.0053244447E-004  -3.4977047471E-004 +2.8544125962E-004  +1.0540977716E+000 +5.1505994797E-001 
2386758.448 +1.2220549583E+000 -1.9502530992E-001  -4.0515366709E-004 +3.6243116483E-004  -3.4516077721E-004 +5.2199960919E-004  +1.0732165575E+000 +5.4400670528E-001 
2511903.630 +1.2253357172E+000 -1.9908985496E-001  -4.0887662908E-004 +2.4904223392E-004  -2.2750542848E-004 +6.2330870423E-004  +1.1167680025E+000 +5.7988107204E-001 
2637048.811 +1.1912257671E+000 -2.2668045759E-001  -4.6680128435E-004 +8.7240157882E-004  -3.5632232903E-004 +4.5775750186E-004  +1.1256645918E+000 +6.0646903515E-001 
2762193.992 +1.1358639002E+000 -1.6941198707E-001  -2.2072554566E-004 +5.7307758834E-004  -2.2726511816E-004 +9.2929205857E-004  +1.1419177055E+000 +5.0740182400E-001 
2887339.174 +1.1693539619E+000 -1.2109452486E-001  -5.5584427901E-004 +3.2350656693E-004  -2.6755576255E-004 +1.2871489162E-003  +1.0004829168E+000 +5.0040012598E-001 
3012484.355 +1.2301861048E+000 -1.2811666727E-001  -3.6469299812E-004 +8.0200948287E-004  -3.5937834764E-004 +6.6766887903E-004  +9.4834417105E-001 +6.1235243082E-001 
3137629.537 +1.2317552567E+000 -1.3186395168E-001  -3.5343784839E-004 +1.0614262428E-003  -5.6534563191E-004 +9.0181356063E-004  +9.7528254986E-001 +7.1975421906E-001 
3262774.718 +1.2406053543E+000 -1.4645874500E-001  -7.8830192797E-004 +4.7862346401E-004  -4.1636399692E-004 +7.5457803905E-004  +1.0248486996E+000 +7.8444850445E-001 
3387919.900 +1.2485179901E+000 -1.7221683264E-001  -2.1766894497E-003 -3.1017349102E-004  -6.8544759415E-004 +1.0563643882E-003  +1.0665831566E+000 +8.5265970230E-001 
3513065.081 +1.2494654655E+000 -1.9811600447E-001  -1.1580635328E-003 +1.3980552321E-003  -9.1016141232E-004 +1.2643195223E-003  +1.1048321724E+000 +9.3044489622E-001 
3638210.263 +1.2706085443E+000 -2.0732891560E-001  -1.0913732694E-003 +9.1306131799E-004  -5.3788279183E-004 +9.9905673414E-004  +1.1973041296E+000 +9.6919739246E-001 
3763355.444 +1.2583109140E+000 -2.2239971161E-001  -1.4035778586E-003 +1.3875333825E-003  -5.0982180983E-004 +1.7306944355E-003  +1.2913451195E+000 +1.0044666529E+000 
3888500.626 +1.2641012669E+000 -2.6230058074E-001  -1.8685988616E-003 +1.4326858800E-003  -1.3576073106E-003 +1.5568658710E-003  +1.3850301504E+000 +1.0641179085E+000 
4013645.807 +1.0691673756E+000 -3.7232533097E-001  -2.0791840507E-004 +1.5925224870E-003  -1.1121092830E-003 +2.3236651905E-003  +1.6521822214E+000 +8.5612010956E-001 
4138790.989 +8.7604397535E-001 -4.2008137703E-001  -6.9122458808E-004 +2.7431542985E-003  +1.8182775239E-004 +2.1838315297E-003  +1.7912588120E+000 +5.2946388721E-001 
4263936.170 +8.3031588793E-001 -4.1825288534E-001  -6.9035449997E-006 +2.2642633412E-003  +1.6206479631E-004 +2.9646828771E-003  +1.8481726646E+000 +4.3058457971E-001 
4389081.352 +8.0057936907E-001 -4.0876644850E-001  -2.4741902598E-004 +2.6477226056E-003  -3.9868970634E-004 +2.4589193054E-003  +1.8879972696E+000 +2.9506757855E-001 
4514226.533 +7.6065510511E-001 -4.0884757042E-001  -2.0438761567E-004 +3.1363917515E-003  +6.7695009056E-004 +2.6247473434E-003  +1.9053368568E+000 +2.1208328009E-001 
4639371.715 +7.4152612686E-001 -3.8416659832E-001  +2.5640852982E-005 +2.7284680400E-003  -2.8314156225E-005 +3.2031077426E-003  +1.9087501764E+000 +1.3526365161E-001 
4764516.896 +7.0538127422E-001 -3.5776153207E-001  +1.8257100601E-004 +2.5286921300E-003  +8.7382807396E-004 +2.1862091962E-003  +1.9101991653E+000 +3.1937360764E-002 
4889662.078 +6.8093818426E-001 -3.3439865708E-001  +4.9986335216E-004 +2.7773221955E-003  +1.0771864327E-003 +2.9061869718E-003  +1.9112098217E+000 -4.1504234076E-002 
5014807.259 +6.6089272499E-001 -3.1779181957E-001  +6.4570084214E-004 +2.9786715750E-003  +3.9128816570E-004 +2.9887412675E-003  +1.8634917736E+000 -1.1691831052E-001 
5139952.441 +6.3408106565E-001 -2.9142469168E-001  +2.9481580714E-004 +2.2408580408E-003  +5.3643208230E-004 +3.0008901376E-003  +1.8470784426E+000 -2.1443131566E-001 
5265097.622 +6.2044340372E-001 -2.6729008555E-001  +9.5418817364E-004 +2.5029536337E-003  +1.0265352903E-003 +2.4564235937E-003  +1.7799363136E+000 -2.7185624838E-001 
5390242.804 +6.0749602318E-001 -2.3461209238E-001  +6.6655623959E-004 +2.7078832500E-003  +6.8465340883E-004 +2.7911579236E-003  +1.7356979847E+000 -3.1008809805E-001 
5515387.985 +5.9828770161E-001 -2.0803384483E-001  +4.3815007666E-004 +2.5156622287E-003  +7.3967420030E-004 +2.7905509342E-003  +1.6957564354E+000 -3.8341921568E-001 
5640533.166 +5.8548271656E-001 -1.7699605227E-001  +7.7925896039E-004 +2.4565779604E-003  +6.7509833025E-004 +2.9673213139E-003  +1.6674432755E+000 -4.1879060864E-001 
5765678.348 +5.7079339027E-001 -1.5145257115E-001  +8.4397144383E-004 +2.7389850002E-003  +2.5531844585E-004 +3.5276846029E-003  +1.6114275455E+000 -4.5108053088E-001 
5890823.529 +5.6607908010E-001 -1.1946308613E-001  +8.5928702902E-005 +2.7179694735E-003  +7.0730282459E-004 +2.9138808604E-003  +1.5439444780E+000 -4.8923978209E-001 
6015968.711 +5.6194722652E-001 -8.9599862695E-002  +4.6140744234E-004 +2.6208094787E-003  +7.9547672067E-004 +2.9382228386E-003  +1.5088096857E+000 -5.0762528181E-001 
6141113.892 +5.6281018257E-001 -6.0330133885E-002  +4.2058562394E-004 +2.5990332942E-003  +3.7535617594E-004 +3.0154606793E-003  +1.4466624260E+000 -5.2002549171E-001 
6266259.074 +5.6466233730E-001 -3.0799308792E-002  +5.0794251729E-004 +2.6792641729E-003  +4.4720462756E-004 +2.8589449357E-003  +1.3896304369E+000 -5.3876417875E-001 
6391404.255 +5.6402891874E-001 +1.9735842943E-003  +7.4519589543E-004 +2.9392088763E-003  +5.5576959858E-004 +2.8544287197E-003  +1.3349183798E+000 -5.4228132963E-001 
6516549.437 +5.6837016344E-001 +3.2984003425E-002  +5.3491711151E-004 +2.9639627319E-003  +3.3737742342E-004 +2.8735483065E-003  +1.2954486609E+000 -5.4514312744E-001 
6641694.618 +5.7795393467E-001 +5.9759579599E-002  +8.5179717280E-004 +3.1179133803E-003  +3.4426769707E-004 +2.6049450971E-003  +1.2631672621E+000 -5.4961323738E-001 
6766839.800 +5.8911478519E-001 +9.0218134224E-002  +1.4954127255E-004 +2.8591444716E-003  +9.6249816124E-005 +3.0155135319E-003  +1.2200881243E+000 -5.5152893066E-001 
6891984.981 +5.9823423624E-001 +1.0943388939E-001  +2.9367650859E-004 +3.2100600656E-003  +1.8576947332E-004 +3.0592437834E-003  +1.1682182550E+000 -5.4060494900E-001 
7017130.163 +6.0797750950E-001 +1.3988269866E-001  +2.0864111139E-004 +2.9355704319E-003  +6.7451182986E-006 +2.8256247751E-003  +1.1406811476E+000 -5.3716611862E-001 
7142275.344 +6.1840474606E-001 +1.6690394282E-001  +4.3156728498E-004 +3.0757130589E-003  +2.2770915530E-004 +3.0113749672E-003  +1.1126401424E+000 -5.2574449778E-001 
7267420.526 +6.3057750463E-001 +1.9073790312E-001  +3.3269528649E-004 +3.2432395965E-003  +1.7599854618E-004 +3.0934158713E-003  +1.0787470341E+000 -5.1117879152E-001 
7392565.707 +6.4997833967E-001 +2.1996003389E-001  +2.8179507353E-004 +2.9666083865E-003  +4.5505585149E-006 +3.0721139628E-003  +1.0481227636E+000 -5.0815767050E-001 
7517710.889 +6.6581064463E-001 +2.3498895764E-001  +5.7632947573E-005 +3.1033409759E-003  +5.9017445892E-005 +3.0695407186E-003  +1.0190265179E+000 -4.9708300829E-001 
7642856.070 +6.8093675375E-001 +2.5700661540E-001  +1.0320934234E-004 +3.2414179295E-003  -4.8762653023E-005 +3.3990240190E-003  +9.8700898886E-001 -4.8255437613E-001 
7768001.252 +7.0589226484E-001 +2.7793967724E-001  +1.2881879229E-005 +3.1472905539E-003  +8.5042265709E-005 +3.4392229281E-003  +9.6020919085E-001 -4.7524482012E-001 
7893146.433 +7.3021245003E-001 +2.9544904828E-001  -1.3147440040E-004 +3.2278206199E-003  -4.8003508709E-005 +3.4061260521E-003  +9.3721383810E-001 -4.5559152961E-001 
8018291.615 +7.5081616640E-001 +3.1255489588E-001  -5.2214250900E-005 +3.4669153392E-003  -6.5974600147E-005 +3.4450097010E-003  +9.0981268883E-001 -4.3885117769E-001 
8143436.796 +7.7521258593E-001 +3.2345536351E-001  +2.4540175218E-005 +3.5928052384E-003  +7.3379604146E-005 +3.5403189249E-003  +8.9758694172E-001 -4.2317709327E-001 
8268581.977 +7.9957872629E-001 +3.3834660053E-001  +1.1446187273E-004 +3.6171977408E-003  -1.0535336332E-004 +3.4740006085E-003  +8.7547284365E-001 -4.0806388855E-001 
8393727.159 +8.2812082767E-001 +3.4870377183E-001  -5.4289237596E-005 +3.6104656756E-003  +8.9538632892E-005 +3.6387087312E-003  +8.5887950659E-001 -3.9546889067E-001 
8518872.340 +8.5489624739E-001 +3.5770702362E-001  +6.9507863373E-005 +3.7518097088E-003  +1.9570579752E-005 +3.7040412426E-003  +8.4413564205E-001 -3.7481135130E-001 
8644017.522 +8.7642240524E-001 +3.6271119118E-001  -2.3929355666E-004 +3.7339271512E-003  -3.3872824861E-004 +3.8566680159E-003  +8.3094894886E-001 -3.5952097178E-001 
8769162.703 +9.1027426720E-001 +3.6849221587E-001  -1.4130026102E-005 +3.9298967458E-003  -1.4565524179E-004 +3.8400595076E-003  +8.1939244270E-001 -3.4157347679E-001 
8894307.885 +9.3431121111E-001 +3.6783835292E-001  -2.0851788577E-004 +3.9498526603E-003  -3.2275554258E-004 +3.9508990012E-003  +8.0289733410E-001 -3.3046251535E-001 
9019453.066 +9.6311736107E-001 +3.6623999476E-001  -1.4400179498E-004 +3.8743808400E-003  -2.4270080030E-004 +4.0325596929E-003  +7.8945195675E-001 -3.1459975243E-001 
9144598.248 +9.9298000336E-001 +3.6239239573E-001  -1.3956753537E-004 +4.1575091891E-003  -2.1877547260E-004 +4.2033041827E-003  +7.7812981606E-001 -2.9555362463E-001 
9269743.429 +1.0209479332E+000 +3.5794186592E-001  -2.4216901511E-004 +4.1980189271E-003  -1.4457735233E-004 +4.1607804596E-003  +7.7055084705E-001 -2.7701145411E-001 
9394888.611 +1.0452336073E+000 +3.5536986589E-001  -2.9841018841E-004 +4.2894245125E-003  -1.5512912069E-004 +4.3867416680E-003  +7.5949877501E-001 -2.6411926746E-001 
9520033.792 +1.0733705759E+000 +3.4240883589E-001  -1.6652839258E-004 +4.3566781096E-003  -1.4260853641E-004 +4.3815542012E-003  +7.5038480759E-001 -2.4344630539E-001 
9645178.974 +1.0970559120E+000 +3.3098572493E-001  -1.6407039948E-004 +4.4983024709E-003  -1.8245459069E-004 +4.4349217787E-003  +7.4396944046E-001 -2.2688820958E-001 
9770324.155 +1.1195806265E+000 +3.2023561001E-001  -3.5612320062E-004 +4.5990678482E-003  -3.9790105075E-004 +4.5838612132E-003  +7.3597496748E-001 -2.0933461189E-001 
9895469.337 +1.1424150467E+000 +3.0648791790E-001  -2.4263875093E-004 +4.7008823603E-003  -2.7410360053E-004 +4.6346182935E-003  +7.3047232628E-001 -1.9286704063E-001 
10020614.518 +1.1604224443E+000 +2.9040819407E-001  -2.3431109730E-004 +4.6956059523E-003  -2.3097102530E-004 +4.7562285326E-003  +7.2700583935E-001 -1.7485812306E-001 
10145759.700 +1.1766703129E+000 +2.6831901073E-001  -1.9257375970E-004 +4.8136091791E-003  -2.0336103626E-004 +4.7936551273E-003  +7.2524392605E-001 -1.6210702062E-001 
10270904.881 +1.1967099905E+000 +2.5008463860E-001  -2.1333550103E-004 +4.9679782242E-003  -2.9945583083E-004 +4.9653081223E-003  +7.2219884396E-001 -1.4431530237E-001 
10396050.063 +1.2091215849E+000 +2.3068347573E-001  -2.3230374791E-004 +4.9357032403E-003  -1.7938576639E-004 +4.9680424854E-003  +7.1799272299E-001 -1.2563174963E-001 
10521195.244 +1.2197241783E+000 +2.1135705709E-001  -1.8455623649E-004 +5.1161893643E-003  -1.7655594274E-004 +5.1314132288E-003  +7.1626466513E-001 -1.1259326339E-001 
10646340.426 +1.2306559086E+000 +1.9253495336E-001  -2.4655810557E-004 +5.1575154066E-003  -2.7267984115E-004 +4.9966946244E-003  +7.1585577726E-001 -9.5311045647E-002 
10771485.607 +1.2383216619E+000 +1.6949808598E-001  -9.0853311121E-005 +5.1773455925E-003  -7.2161899880E-005 +5.2139433101E-003  +7.1512860060E-001 -7.9988777637E-002 
10896630.788 +1.2428524494E+000 +1.4942604303E-001  -2.0554778166E-004 +5.3043994121E-003  -2.8919987381E-004 +5.3017036989E-003  +7.1579420567E-001 -6.6054314375E-002 
11021775.970 +1.2453597784E+000 +1.2797671556E-001  -1.2560142204E-004 +5.3784763440E-003  -1.6138539650E-004 +5.4403147660E-003  +7.1629655361E-001 -5.0857216120E-002 
11146921.151 +1.2483229637E+000 +1.0445421934E-001  -9.5286639407E-005 +5.3834365681E-003  -1.2505985796E-004 +5.3709335625E-003  +7.1844971180E-001 -3.6061644554E-002 
11272066.333 +1.2465863228E+000 +8.6086750031E-002  -1.7210002989E-004 +5.4291058332E-003  -6.1956467107E-005 +5.4819779471E-003  +7.1926236153E-001 -2.2056877613E-002 
11397211.514 +1.2483280897E+000 +6.8456590176E-002  -9.7342999652E-005 +5.5537926964E-003  -1.5720422380E-004 +5.6028086692E-003  +7.2269380093E-001 -8.4200799465E-003 
11522356.696 +1.2465885878E+000 +4.7876596451E-002  -7.2004972026E-005 +5.6351800449E-003  -1.1105090380E-004 +5.6461640634E-003  +7.2655564547E-001 +6.3648521900E-003 
11647501.877 +1.2414243221E+000 +3.2331466675E-002  -7.6445750892E-005 +5.6487182155E-003  -1.1421134695E-004 +5.7133110240E-003  +7.3051148653E-001 +1.9514322281E-002 
11772647.059 +1.2374637127E+000 +1.4812290668E-002  -1.1294893920E-004 +5.7496437803E-003  -9.4263814390E-006 +5.7496540248E-003  +7.3561358452E-001 +3.2309293747E-002 
11897792.240 +1.2314493656E+000 -2.2247433662E-003  -3.4027965739E-005 +5.7996604592E-003  -1.0821991600E-004 +5.8409697376E-003  +7.4207770824E-001 +4.5720577240E-002 
12022937.422 +1.2275371552E+000 -1.4581412077E-002  -6.7490851507E-005 +5.8644078672E-003  -2.4989945814E-005 +5.8751287870E-003  +7.4680376053E-001 +5.7494312525E-002 
12148082.603 +1.2199267149E+000 -3.0740469694E-002  -1.1725490913E-004 +5.8703031391E-003  -9.8905060440E-005 +5.9679490514E-003  +7.5305604935E-001 +7.1741014719E-002 
12273227.785 +1.2112638950E+000 -4.1758507490E-002  -5.6273536757E-005 +5.9660365805E-003  -4.9496768042E-005 +6.0409014113E-003  +7.6037931442E-001 +8.2185089588E-002 
12398372.966 +1.2038857937E+000 -5.4541081190E-002  -6.5703410655E-005 +6.0662254691E-003  -1.0840152390E-004 +6.0736923479E-003  +7.6947659254E-001 +9.4610452652E-002 
12523518.148 +1.1936663389E+000 -6.4846947789E-002  -6.1930157244E-005 +6.1856131069E-003  -2.8967391700E-005 +6.1066262424E-003  +7.7640771866E-001 +1.0623824596E-001 
12648663.329 +1.1860855818E+000 -7.4247807264E-002  -3.2265554182E-005 +6.2019531615E-003  -4.2934319936E-005 +6.2106074765E-003  +7.8480041027E-001 +1.1570566893E-001 
12773808.511 +1.1764868498E+000 -8.5700891912E-002  -4.0472601540E-005 +6.3185524195E-003  -8.4762810729E-005 +6.3181160949E-003  +7.9401725531E-001 +1.2570321560E-001 
12898953.692 +1.1668086052E+000 -9.3272604048E-002  -2.5399553124E-005 +6.3497959636E-003  +2.8374488465E-006 +6.3913487829E-003  +8.0421006680E-001 +1.3476973772E-001 
13024098.874 +1.1569287777E+000 -9.8965302110E-002  -9.0316112619E-005 +6.4038345590E-003  -4.7669193009E-005 +6.3659176230E-003  +8.1379991770E-001 +1.4574737847E-001 
13149244.055 +1.1472274065E+000 -1.0523436964E-001  -7.1686794399E-005 +6.5200873651E-003  -4.4871980208E-005 +6.4354953356E-003  +8.2384043932E-001 +1.5310439467E-001 
13274389.237 +1.1369897127E+000 -1.1249646544E-001  +1.1219468433E-005 +6.5851188265E-003  -4.1542618419E-005 +6.5608685836E-003  +8.3682030439E-001 +1.6140313447E-001 
13399534.418 +1.1276328564E+000 -1.1678164452E-001  -4.1674764361E-005 +6.6391704604E-003  -4.3825886678E-005 +6.6441339441E-003  +8.4636449814E-001 +1.6857261956E-001 
13524679.599 +1.1176650524E+000 -1.2030845881E-001  -5.3441792261E-005 +6.7432061769E-003  -2.6946654543E-005 +6.7329723388E-003  +8.5848760605E-001 +1.7584864795E-001 
13649824.781 +1.1084096432E+000 -1.2693297863E-001  -6.0955062509E-007 +6.7294994369E-003  -3.9070146158E-005 +6.7769973539E-003  +8.7113863230E-001 +1.8054926395E-001 
13774969.962 +1.0979603529E+000 -1.2824094296E-001  +1.9264756702E-005 +6.8601905368E-003  +5.8677978814E-006 +6.8485559896E-003  +8.8304626942E-001 +1.8462872505E-001 
13900115.144 +1.0892920494E+000 -1.3058480620E-001  +2.8883107007E-005 +6.9437683560E-003  +2.1684565581E-005 +6.9513958879E-003  +8.9405274391E-001 +1.8977421522E-001 
14025260.325 +1.0793786049E+000 -1.3220059872E-001  -7.0570968091E-007 +6.9962348789E-003  -1.3666460291E-005 +6.9568511099E-003  +9.0603822470E-001 +1.9282273948E-001 
14150405.507 +1.0707739592E+000 -1.3335627317E-001  +6.4261257648E-005 +7.0597012527E-003  +7.1030575782E-005 +7.0893703960E-003  +9.1895258427E-001 +1.9557572901E-001 
14275550.688 +1.0623444319E+000 -1.3456705213E-001  +7.0254085585E-005 +7.1612056345E-003  +6.8567460403E-005 +7.1182618849E-003  +9.3137770891E-001 +1.9701574743E-001 
14400695.870 +1.0535337925E+000 -1.3583835959E-001  +7.1910442784E-005 +7.2018164210E-003  +1.1300016195E-004 +7.1975621395E-003  +9.4378566742E-001 +1.9910758734E-001 
