!  2-Port S-parameters saved by WinCal
! VAR MeasName=S-Parameters (CALIBRATED_DATA) read from VNA (P5004A)
! VAR MeasDate=22/05/2024 18:59:43
! VAR NAME=Wafer2_r2_c1_formed_neg1.2dc_repeat3
! VAR FILENAME=Wafer2_r2_c1_formed_neg1.2dc_repeat3.S2P
! VAR DATE=22/05/2024 18:59:44
! VAR PHYS_PORTS=1,2
! VAR ObjTypeName=DATASET
! VAR IndexType=Frequency
!
# Hz S RI R 50
9000.000 +2.1819499135E-001 -5.8967345953E-001  -6.0335798189E-003 -5.4364372045E-003  -2.6223473251E-003 +1.4984060545E-004  +4.0712065995E-002 +9.6730202436E-002 
134145.181 +6.0184395313E-001 -2.7819409966E-002  +9.8058795556E-003 -1.4742298052E-002  -1.1530142277E-002 +1.5419369563E-002  -4.9860220402E-002 -3.6475849152E-001 
259290.363 +8.0779582262E-001 -1.0515865684E-001  -3.3263457008E-003 +7.7546173707E-003  -6.3206488267E-003 -3.9117503911E-003  +1.0254313946E+000 -8.6511135101E-001 
384435.544 +8.5215145350E-001 -2.4874725938E-001  +5.1791716367E-002 -5.0437588245E-002  -2.1817961708E-002 +4.0017001331E-002  +6.5922350883E+000 -9.1176252365E+000 
509580.726 +9.3586182594E-001 -1.1036804318E-001  +9.5414579846E-004 -7.5073931366E-003  +1.5745364362E-003 +5.0794905983E-003  +1.8229439259E+000 -4.8094654083E-001 
634725.907 +1.0619431734E+000 -1.8052494526E-001  +6.0484513640E-002 -3.4595716745E-002  +4.9917351454E-002 +6.7309796810E-002  +5.9441637993E+000 +1.4443577766E+001 
759871.089 +1.2590939999E+000 -1.1159968376E-001  +2.1860697307E-003 -8.3151465515E-004  -7.3939852882E-004 +5.1919906400E-004  +1.4694203138E+000 +3.4407907724E-001 
885016.270 +6.7822051048E-001 -9.4650620222E-001  +3.2140058465E-003 -2.8925931547E-003  -2.8271530755E-004 -3.0216511805E-003  +1.2275173664E+000 +4.7967198491E-001 
1010161.452 +9.9809843302E-001 -3.8599364460E-002  +1.1950849876E-004 -1.0054915765E-004  -1.4971414930E-004 -1.0729939677E-003  +1.1959805489E+000 +4.9030500650E-001 
1135306.633 +1.0006093979E+000 +1.2970861793E-001  +7.4813293759E-004 +8.0932292622E-004  +2.6524838177E-004 +6.7692843731E-004  +1.3025894165E+000 +6.0550606251E-001 
1260451.815 +1.3198058605E+000 +5.9711098671E-002  +9.5651383162E-005 +1.1699712195E-004  -2.9864316457E-004 -1.7410321743E-004  +1.1029260159E+000 +7.0329308510E-001 
1385596.996 +1.2556095123E+000 -7.6354801655E-002  -3.8420719648E-005 +2.5643019399E-005  -4.6972761629E-004 -1.1959236872E-004  +9.8546594381E-001 +4.8304638267E-001 
1510742.178 +1.3543016911E+000 -1.4895009995E-001  +2.2792012896E-004 +1.1662741599E-004  +1.8043479940E-004 +2.6018443168E-004  +6.7890363932E-001 +5.7415556908E-001 
1635887.359 +9.7983521223E-001 -2.5221824646E-001  +9.9297310226E-004 +1.7194641987E-004  +1.5578296734E-004 -1.2920598965E-004  +1.5211938620E+000 +6.3015925884E-001 
1761032.541 +1.0191639662E+000 -2.3527577519E-001  -5.5030104704E-006 +1.0429108515E-003  -1.0900013149E-004 +1.4580151765E-004  +1.1044429541E+000 +8.2603222132E-001 
1886177.722 +1.0064338446E+000 -1.4131692052E-001  +3.5815133015E-004 +4.4506543782E-004  -1.5776304062E-003 +4.2066324386E-004  +1.1442437172E+000 +5.5825090408E-001 
2011322.904 +1.0030208826E+000 -1.0150972009E-001  +4.9374508671E-004 +5.6053011212E-004  +1.1490880570E-004 +6.7537778523E-004  +1.1582928896E+000 +5.2563416958E-001 
2136468.085 +1.0030276775E+000 -8.0344021320E-002  +5.8876600815E-004 +6.0547859175E-004  -1.2605414668E-004 +4.6403874876E-004  +1.0966358185E+000 +4.7699165344E-001 
2261613.267 +1.0003619194E+000 -7.0814311504E-002  +2.1600042237E-004 +6.8949570414E-004  -2.6430390426E-004 +3.6765093682E-004  +1.0536302328E+000 +5.1537376642E-001 
2386758.448 +9.9142807722E-001 -5.2024871111E-002  +4.0351547068E-004 +9.0774981072E-004  -1.6076916654E-004 +4.3682608521E-004  +1.0711314678E+000 +5.4533720016E-001 
2511903.630 +9.9569761753E-001 -1.4811411500E-002  +2.9970001196E-004 +1.0084804380E-003  -4.4662301661E-005 +5.5876147235E-004  +1.1136664152E+000 +5.8020389080E-001 
2637048.811 +9.9416363239E-001 -6.2806531787E-003  +5.1712166169E-005 +1.2596652377E-003  +6.1802944401E-005 +8.3987804828E-004  +1.1224350929E+000 +6.0927474499E-001 
2762193.992 +9.9638640881E-001 +1.2147754431E-002  +3.7590009742E-004 +1.4306643279E-003  -4.4285674812E-004 +9.6703920281E-004  +1.1369625330E+000 +5.1413905621E-001 
2887339.174 +9.8982912302E-001 +3.1891614199E-002  -5.2011781372E-004 +7.7584001701E-004  +2.2733662627E-004 +6.8456365261E-004  +1.0021543503E+000 +5.0614476204E-001 
3012484.355 +9.9683713913E-001 +3.9213418961E-002  -4.4883272494E-005 +8.2524365280E-004  -2.1571113029E-004 +1.1415740009E-003  +9.5720601082E-001 +6.0957145691E-001 
3137629.537 +1.0106923580E+000 +6.4059466124E-002  -2.0706068608E-004 +1.2351727346E-003  -2.2406686912E-004 +8.6212821770E-004  +9.7637343407E-001 +7.2035419941E-001 
3262774.718 +9.9948036671E-001 +7.3352485895E-002  +7.2509865277E-005 +1.4505871804E-003  -7.7185820555E-004 +1.0927050607E-003  +1.0258347988E+000 +7.8755784035E-001 
3387919.900 +1.0073021650E+000 +9.2400729656E-002  -2.9150038608E-004 +1.5361561673E-003  -9.8106072983E-005 +5.9108110145E-004  +1.0600979328E+000 +8.5853892565E-001 
3513065.081 +1.0203794241E+000 +1.1390677094E-001  +1.9114348106E-005 +2.1226466633E-003  -2.4760136148E-004 +4.1551928734E-004  +1.0968909264E+000 +9.3570876122E-001 
3638210.263 +1.0432834625E+000 +1.3590562344E-001  -2.0364951342E-004 +1.6453168355E-003  -1.0326474439E-003 +1.3889917172E-003  +1.1884108782E+000 +9.7524690628E-001 
3763355.444 +1.0535267591E+000 +1.5101233125E-001  -2.5365606416E-004 +2.3746001534E-003  -1.0402795160E-003 +9.4801443629E-004  +1.2896015644E+000 +1.0142310858E+000 
3888500.626 +1.0800318718E+000 +1.6966772079E-001  -1.4701113105E-004 +2.2246041335E-003  -7.6408509631E-004 +1.1474342318E-003  +1.3727133274E+000 +1.0776373148E+000 
4013645.807 +1.0410704613E+000 +7.2189122438E-002  +6.8205967546E-004 +3.6848331802E-003  -4.7373335110E-004 +2.3906817660E-003  +1.6547977924E+000 +8.6486136913E-001 
4138790.989 +9.6496206522E-001 -1.4987200499E-002  +2.1292411257E-003 +3.9745247923E-003  +1.5858915867E-004 +2.6074370835E-003  +1.7966251373E+000 +5.3852415085E-001 
4263936.170 +9.5567911863E-001 -1.1850714684E-002  +1.3230020413E-003 +3.5445312969E-003  -3.2307766378E-004 +2.7813967317E-003  +1.8456101418E+000 +4.4838824868E-001 
4389081.352 +9.6950882673E-001 -1.7515093088E-002  +1.2020266149E-003 +2.8644946869E-003  +1.1706259102E-004 +3.3379404340E-003  +1.8969739676E+000 +3.1193310022E-001 
4514226.533 +9.7650098801E-001 -9.8161101341E-003  +6.2845519278E-004 +3.2237742562E-003  +7.1915471926E-004 +3.3183463383E-003  +1.9255371094E+000 +2.2006395459E-001 
4639371.715 +9.9010920525E-001 -1.4732182026E-002  +1.0475795716E-003 +3.4252512269E-003  +4.8436777433E-004 +3.2447206322E-003  +1.9219969511E+000 +1.4223054051E-001 
4764516.896 +9.8729681969E-001 -1.4219447970E-002  +1.3018524041E-003 +2.9037231579E-003  +3.0929280911E-005 +2.9186864849E-003  +1.9269893169E+000 +4.2921841145E-002 
4889662.078 +9.8596918583E-001 -2.7658641338E-003  +1.7002616078E-003 +3.5646185279E-003  +5.6280056015E-004 +3.4926880617E-003  +1.9260042906E+000 -3.5637736320E-002 
5014807.259 +9.8272013664E-001 -2.1549180150E-002  +1.3895893935E-003 +3.3606293146E-003  +6.5444305073E-004 +3.3434880897E-003  +1.8700900078E+000 -1.0385772586E-001 
5139952.441 +9.9150276184E-001 -1.8855586648E-002  +1.8559606979E-003 +3.5161389969E-003  +1.2075854465E-003 +3.3638840541E-003  +1.8538912535E+000 -1.9372022152E-001 
5265097.622 +9.8795980215E-001 -1.5799418092E-002  +1.2682917295E-003 +3.4613348544E-003  +8.2301703515E-004 +3.2059249934E-003  +1.8006958961E+000 -2.5618305802E-001 
5390242.804 +9.9976044893E-001 -1.8864810467E-002  +2.0613870583E-003 +3.6659752950E-003  +1.0956149781E-003 +3.3667648677E-003  +1.7605543137E+000 -3.0919301510E-001 
5515387.985 +1.0029959679E+000 -2.3964852095E-002  +2.0740220789E-003 +3.3775232732E-003  +1.4047839213E-003 +3.8987831213E-003  +1.7063192129E+000 -3.7757039070E-001 
5640533.166 +1.0030316114E+000 -2.4154782295E-002  +2.5896960869E-003 +3.4931267146E-003  +1.1889575981E-003 +3.5853700247E-003  +1.6792731285E+000 -4.1143271327E-001 
5765678.348 +9.9621641636E-001 -2.1423414350E-002  +1.1267344235E-003 +3.5222405568E-003  +5.8600486955E-004 +3.7972216960E-003  +1.6228169203E+000 -4.5112773776E-001 
5890823.529 +1.0034232140E+000 -2.3351803422E-002  +2.2097730543E-003 +3.5359773319E-003  +1.6602652613E-003 +3.5095594358E-003  +1.5534776449E+000 -4.9862894416E-001 
6015968.711 +9.9635541439E-001 -3.1170785427E-002  +2.4691091385E-003 +3.6216583103E-003  +1.8236535834E-003 +3.2997261733E-003  +1.5106765032E+000 -5.1005196571E-001 
6141113.892 +9.9545949697E-001 -3.0848145485E-002  +2.4056148250E-003 +3.2296946738E-003  +1.1142448056E-003 +3.4151040018E-003  +1.4569901228E+000 -5.1776933670E-001 
6266259.074 +9.9852877855E-001 -2.6229798794E-002  +2.9114435893E-003 +3.4876819700E-003  +1.3688905165E-003 +3.3550378866E-003  +1.3997718096E+000 -5.3538769484E-001 
6391404.255 +9.9536043406E-001 -2.8548762202E-002  +2.7446977329E-003 +3.1458009034E-003  +1.4486660948E-003 +3.6047704052E-003  +1.3490182161E+000 -5.4668420553E-001 
6516549.437 +9.9396699667E-001 -3.1482353806E-002  +2.7363551781E-003 +3.3244513907E-003  +1.1573839001E-003 +3.4596370533E-003  +1.3029403687E+000 -5.5393087864E-001 
6641694.618 +9.9887806177E-001 -2.3801952600E-002  +2.7028443292E-003 +3.2362763304E-003  +1.2694246834E-003 +3.2023012172E-003  +1.2665584087E+000 -5.5535268784E-001 
6766839.800 +1.0047514439E+000 -2.7856856585E-002  +3.2103406265E-003 +3.2810743432E-003  +1.4972772915E-003 +3.6766726989E-003  +1.2213046551E+000 -5.5681085587E-001 
6891984.981 +9.9896001816E-001 -2.6582971215E-002  +2.8488594107E-003 +2.9703052714E-003  +1.1263135821E-003 +3.4428825602E-003  +1.1708339453E+000 -5.5045223236E-001 
7017130.163 +9.9552023411E-001 -2.3830160499E-002  +2.9539137613E-003 +3.0358384829E-003  +1.3608064037E-003 +3.3608959056E-003  +1.1453056335E+000 -5.3359925747E-001 
7142275.344 +9.9697750807E-001 -2.5763168931E-002  +3.0837198719E-003 +3.2412894070E-003  +1.4210881200E-003 +3.4517562017E-003  +1.1172424555E+000 -5.2606743574E-001 
7267420.526 +9.9591386318E-001 -2.0967155695E-002  +2.2672242485E-003 +3.2219365239E-003  +1.2662757654E-003 +3.5478991922E-003  +1.0828304291E+000 -5.1782369614E-001 
7392565.707 +9.9703645706E-001 -1.6032963991E-002  +2.0325111691E-003 +3.5221916623E-003  +1.4999856940E-003 +3.7791186478E-003  +1.0543369055E+000 -5.0934469700E-001 
7517710.889 +1.0004383326E+000 -1.9958734512E-002  +2.0249786321E-003 +3.4835089464E-003  +1.1257522274E-003 +3.6726256367E-003  +1.0215750933E+000 -5.0120019913E-001 
7642856.070 +9.9297469854E-001 -2.1020442247E-002  +2.4958061986E-003 +3.2627740875E-003  +1.5025454341E-003 +3.5214875825E-003  +9.9003541470E-001 -4.8539775610E-001 
7768001.252 +9.9708664417E-001 -1.6707792878E-002  +2.5898225140E-003 +3.3152338583E-003  +1.1961399578E-003 +3.4018796869E-003  +9.6280825138E-001 -4.7988188267E-001 
7893146.433 +9.9670350552E-001 -1.5790313482E-002  +3.3832364716E-003 +3.2125758007E-003  +1.3073065784E-003 +3.4605693072E-003  +9.3822914362E-001 -4.6294513345E-001 
8018291.615 +9.9014723301E-001 -1.8367990851E-002  +3.2903382089E-003 +3.1343833543E-003  +1.1166473851E-003 +3.5323584452E-003  +9.1109442711E-001 -4.4256073236E-001 
8143436.796 +9.8897492886E-001 -2.1679803729E-002  +3.4735607915E-003 +3.2907400746E-003  +1.2453871313E-003 +3.4294780344E-003  +9.0145796537E-001 -4.2723661661E-001 
8268581.977 +9.8807132244E-001 -1.9478559494E-002  +2.6207077317E-003 +3.3587245271E-003  +1.0742852464E-003 +3.4564880189E-003  +8.7919175625E-001 -4.0846711397E-001 
8393727.159 +9.8744547367E-001 -2.4989008904E-002  +3.1815627590E-003 +3.3099793363E-003  +1.2267850107E-003 +3.4142609220E-003  +8.6213433743E-001 -3.9313352108E-001 
8518872.340 +9.8977762461E-001 -2.4581164122E-002  +2.7404644061E-003 +3.2942872494E-003  +1.1167594930E-003 +3.6071897484E-003  +8.4345740080E-001 -3.7736344337E-001 
8644017.522 +9.8729538918E-001 -1.7798185349E-002  +2.0263856277E-003 +3.3373183105E-003  +1.1392524466E-003 +3.6625440698E-003  +8.3252251148E-001 -3.6600738764E-001 
8769162.703 +9.9322664738E-001 -1.7221122980E-002  +2.3813173175E-003 +3.4077619202E-003  +1.1001734529E-003 +3.6995173432E-003  +8.1832897663E-001 -3.4650599957E-001 
8894307.885 +9.8997098207E-001 -2.0088136196E-002  +2.2951944266E-003 +3.5617714748E-003  +7.4812897947E-004 +3.5379035398E-003  +8.0089688301E-001 -3.3281460404E-001 
9019453.066 +9.8956078291E-001 -2.0655453205E-002  +2.4497834966E-003 +3.6527863704E-003  +8.0385932233E-004 +3.6597074941E-003  +7.8899383545E-001 -3.1692624092E-001 
9144598.248 +9.8899382353E-001 -2.1670103073E-002  +2.8626522981E-003 +3.6085685715E-003  +9.9841249175E-004 +3.7683343980E-003  +7.7702730894E-001 -3.0270925164E-001 
9269743.429 +9.9069303274E-001 -1.8666774035E-002  +2.2344307508E-003 +3.6182673648E-003  +9.9591119215E-004 +3.9056357928E-003  +7.6773369312E-001 -2.8174385428E-001 
9394888.611 +9.9113655090E-001 -1.5364646912E-002  +1.8153158017E-003 +3.8092408795E-003  +7.8680098522E-004 +3.9093024097E-003  +7.5923299789E-001 -2.6683843136E-001 
9520033.792 +9.9069559574E-001 -1.8406927586E-002  +1.9464513753E-003 +3.9012969937E-003  +1.1946917512E-003 +3.9822994731E-003  +7.4991339445E-001 -2.4529573321E-001 
9645178.974 +9.8947477341E-001 -1.5195131302E-002  +2.2888975218E-003 +3.8098189980E-003  +8.4332458209E-004 +4.0491637774E-003  +7.4104332924E-001 -2.3211547732E-001 
9770324.155 +9.8879265785E-001 -1.3148486614E-002  +2.3047416471E-003 +3.7922970951E-003  +9.4880640972E-004 +4.1491668671E-003  +7.3565435410E-001 -2.1226587892E-001 
9895469.337 +9.9077033997E-001 -1.3325542212E-002  +2.2571403533E-003 +3.9267712273E-003  +8.4213213995E-004 +4.1274563409E-003  +7.3021411896E-001 -1.9733682275E-001 
10020614.518 +9.8846197128E-001 -1.0464400053E-002  +2.2712007631E-003 +3.9745625108E-003  +6.3085590955E-004 +4.0834150277E-003  +7.2752910852E-001 -1.7879533768E-001 
10145759.700 +9.9135279655E-001 -1.0862231255E-002  +1.9391929964E-003 +4.1970787570E-003  +6.1319768429E-004 +4.1036712937E-003  +7.2198569775E-001 -1.6401073337E-001 
10270904.881 +9.9152445793E-001 -1.2485653162E-002  +2.2048158571E-003 +4.2581087910E-003  +7.2498747613E-004 +4.2813094333E-003  +7.1963274479E-001 -1.4705967903E-001 
10396050.063 +9.8989927769E-001 -1.3326197863E-002  +1.8402738497E-003 +4.3166428804E-003  +6.5343535971E-004 +4.3090693653E-003  +7.1626436710E-001 -1.3109385967E-001 
10521195.244 +9.9170029163E-001 -1.1639893055E-002  +2.0665172487E-003 +4.5038182288E-003  +5.6930282153E-004 +4.3452181853E-003  +7.1544516087E-001 -1.1578094959E-001 
10646340.426 +9.8900055885E-001 -1.2355744839E-002  +1.5752408653E-003 +4.4552627951E-003  +6.0447456781E-004 +4.4557764195E-003  +7.1331620216E-001 -9.9829345942E-002 
10771485.607 +9.8980140686E-001 -1.2830406427E-002  +1.9421151374E-003 +4.4512529857E-003  +4.8544886522E-004 +4.5323604718E-003  +7.1507716179E-001 -8.3915650845E-002 
10896630.788 +9.9022769928E-001 -1.0598629713E-002  +2.1429373883E-003 +4.6099973843E-003  +5.7399901561E-004 +4.6791937202E-003  +7.1327590942E-001 -6.8326860666E-002 
11021775.970 +9.8794031143E-001 -1.1356294155E-002  +2.0418989006E-003 +4.8004314303E-003  +5.7131261565E-004 +4.6486975625E-003  +7.1506255865E-001 -5.4237127304E-002 
11146921.151 +9.8914641142E-001 -1.2034773827E-002  +1.9212310435E-003 +4.8197694123E-003  +4.5620650053E-004 +4.6918066218E-003  +7.1743047237E-001 -3.8667082787E-002 
11272066.333 +9.8827499151E-001 -1.2354373932E-002  +1.9585981499E-003 +4.8583215103E-003  +5.3295399994E-004 +4.9159387127E-003  +7.1924102306E-001 -2.4114727974E-002 
11397211.514 +9.8982167244E-001 -1.1030137539E-002  +1.7524587456E-003 +5.0223572180E-003  +3.7565734237E-004 +4.8729707487E-003  +7.2252768278E-001 -1.0365277529E-002 
11522356.696 +9.9054616690E-001 -1.0687142611E-002  +1.6178573715E-003 +5.0495425239E-003  +3.5689305514E-004 +5.0632660277E-003  +7.2618269920E-001 +3.9209127426E-003 
11647501.877 +9.8803460598E-001 -1.0340213776E-002  +1.5783841955E-003 +5.1855146885E-003  +3.6648614332E-004 +5.0942180678E-003  +7.2927594185E-001 +1.8072813749E-002 
11772647.059 +9.8885107040E-001 -1.0085642338E-002  +1.6207993031E-003 +5.3327372298E-003  +3.7134345621E-004 +5.1235030405E-003  +7.3440104723E-001 +3.2448410988E-002 
11897792.240 +9.8794192076E-001 -1.0765314102E-002  +1.5736049972E-003 +5.3153671324E-003  +4.7908199485E-004 +5.2060754970E-003  +7.3962926865E-001 +4.4178068638E-002 
12022937.422 +9.9137371778E-001 -9.0613067150E-003  +1.5158678871E-003 +5.3712548688E-003  +8.0418528523E-004 +5.3924215026E-003  +7.4574470520E-001 +5.6952446699E-002 
12148082.603 +9.9117660522E-001 -9.8105669022E-003  +1.4398051426E-003 +5.4566259496E-003  +8.8900723495E-004 +5.4477322847E-003  +7.5300300121E-001 +7.1167856455E-002 
12273227.785 +9.9042659998E-001 -8.1028342247E-003  +1.4202274615E-003 +5.5671180598E-003  +1.2410305208E-003 +5.6022228673E-003  +7.5962859392E-001 +8.2175761461E-002 
12398372.966 +9.8959469795E-001 -9.3686580658E-003  +1.5357064549E-003 +5.6943190284E-003  +1.3867921662E-003 +5.7207951322E-003  +7.6808589697E-001 +9.2577904463E-002 
12523518.148 +9.8863142729E-001 -8.5511207581E-003  +1.4919982059E-003 +5.8435732499E-003  +1.3878208119E-003 +5.7881684043E-003  +7.7412086725E-001 +1.0322588682E-001 
12648663.329 +9.8926222324E-001 -7.5534433126E-003  +1.5460004797E-003 +5.9368573129E-003  +1.3902629726E-003 +5.8428184129E-003  +7.8402596712E-001 +1.1525502801E-001 
12773808.511 +9.9006664753E-001 -9.2973560095E-003  +1.4262920013E-003 +5.9942854568E-003  +2.5012171827E-003 +6.1112730764E-003  +7.9145342112E-001 +1.2461727858E-001 
12898953.692 +9.9088907242E-001 -8.9240968227E-003  +1.4169072965E-003 +6.1186547391E-003  +3.3492399380E-003 +6.3504050486E-003  +8.0029857159E-001 +1.3416606188E-001 
13024098.874 +9.8958933353E-001 -7.5264498591E-003  +1.3902187347E-003 +6.2177116051E-003  +4.3646693230E-003 +6.5574538894E-003  +8.0864542723E-001 +1.4282053709E-001 
13149244.055 +9.8935812712E-001 -7.7996514738E-003  +1.4239718439E-003 +6.3328752294E-003  +3.4858989529E-003 +6.5369196236E-003  +8.1995469332E-001 +1.5037849545E-001 
13274389.237 +9.8997217417E-001 -8.2796812057E-003  +1.4098925749E-003 +6.4195231535E-003  +3.4189985599E-003 +6.6078887321E-003  +8.3169162273E-001 +1.5899764001E-001 
13399534.418 +9.9001401663E-001 -8.2715451717E-003  +1.4474738855E-003 +6.5571768209E-003  +3.3844993450E-003 +6.7333625630E-003  +8.4170514345E-001 +1.6523319483E-001 
13524679.599 +9.9006587267E-001 -7.2889775038E-003  +9.7526074387E-004 +6.5669780597E-003  +5.9578050859E-003 +7.1315141395E-003  +8.5194694996E-001 +1.7192469537E-001 
13649824.781 +9.9133431911E-001 -7.5134932995E-003  +1.0773808463E-003 +6.7058219574E-003  +1.7955838703E-003 +6.8133031018E-003  +8.6867421865E-001 +1.7853353918E-001 
13774969.962 +9.9100756645E-001 -7.5081735849E-003  +9.2513835989E-004 +6.7635178566E-003  +1.7964385916E-003 +6.8175522611E-003  +8.7984061241E-001 +1.8299376965E-001 
13900115.144 +9.9064373970E-001 -6.6676437855E-003  +9.5783453435E-004 +6.9224671461E-003  +1.7019504448E-003 +6.9593181834E-003  +8.9141201973E-001 +1.8765002489E-001 
14025260.325 +9.9012511969E-001 -5.8654248714E-003  +9.5014413819E-004 +6.9913240150E-003  +1.6712301876E-003 +7.0665413514E-003  +9.0413606167E-001 +1.9174280763E-001 
14150405.507 +9.9064397812E-001 -5.1544904709E-003  +8.8326283731E-004 +7.0534339175E-003  +1.7533663195E-003 +7.2271800600E-003  +9.1595995426E-001 +1.9468955696E-001 
14275550.688 +9.9075388908E-001 -4.9190819263E-003  +9.5658143982E-004 +7.1931541897E-003  +1.7662509345E-003 +7.2243809700E-003  +9.2919158936E-001 +1.9580973685E-001 
