!  2-Port S-parameters saved by WinCal
! VAR MeasName=S-Parameters (CALIBRATED_DATA) read from VNA (P5004A)
! VAR MeasDate=22/05/2024 19:26:12
! VAR NAME=Wafer2_r2_c1_reset2
! VAR FILENAME=Wafer2_r2_c1_reset2.S2P
! VAR DATE=22/05/2024 19:26:12
! VAR PHYS_PORTS=1,2
! VAR ObjTypeName=DATASET
! VAR IndexType=Frequency
!
# Hz S RI R 50
9000.000 +2.0981244743E-001 -5.9134078026E-001  -1.2605446391E-003 -2.9041273519E-003  -3.0626785010E-003 +1.1172812665E-003  +4.9259938300E-002 +1.0992710292E-001 
134145.181 +7.3620271683E-001 +1.0847827792E-001  -1.9569935277E-002 -2.2442070767E-003  -1.3876453973E-002 +9.3294540420E-003  +1.0084017515E+000 +1.7384397984E-001 
259290.363 +9.5194965601E-001 -9.5778360963E-002  +3.6583561450E-004 +9.6504081739E-006  +2.4945079349E-004 +3.1648892909E-003  +9.9113559723E-001 -4.7816604376E-002 
384435.544 +9.5185649395E-001 -2.2658987343E-001  -4.5643430203E-003 -6.2064116355E-004  +1.1084537255E-003 -6.3019567169E-003  +1.0546005964E+000 -4.8282250762E-002 
509580.726 +9.7493445873E-001 -1.2414659560E-001  -5.4662080947E-004 -6.5350148361E-004  -8.7136070943E-004 -1.5765284188E-003  +1.0243960619E+000 -2.2834777832E-002 
634725.907 +1.0882989168E+000 -1.7039370537E-001  +1.5638803598E-003 +9.4791559968E-004  +3.7393710227E-004 -1.0156657081E-003  +1.0872405767E+000 -5.0907641649E-002 
759871.089 +1.2534937859E+000 -9.7073048353E-002  +6.4581853803E-004 -6.9422915112E-004  -5.0268747145E-004 +1.0580498492E-003  +1.1451601982E+000 -7.4191637337E-002 
885016.270 +5.8217346668E-001 -9.9753642082E-001  +2.1531744860E-003 +5.4881297983E-003  +5.5885440670E-003 -1.7193851527E-003  +1.4243090153E+000 -2.4899429083E-001 
1010161.452 +1.0167803764E+000 +2.8718501329E-002  -1.7679341836E-003 -3.5010594875E-003  -2.2647439037E-003 +1.0629929602E-004  +6.3044327497E-001 +3.6079603434E-001 
1135306.633 +1.0351057053E+000 +1.6658043861E-001  -3.9241083869E-005 +3.2838270999E-004  +4.4864328811E-004 +5.9030222474E-004  +8.8974380493E-001 +3.2391217351E-001 
1260451.815 +1.3285903931E+000 +1.1966979504E-001  -1.4885219280E-003 +5.3629453760E-004  +8.6014560657E-004 -3.8316001883E-004  +9.5541578531E-001 +2.9108053446E-001 
1385596.996 +1.2492284775E+000 -6.6576480865E-002  +8.4323866758E-005 -1.3818762964E-003  +2.6836080360E-004 +2.3716936994E-005  +9.8686087132E-001 +1.4466285706E-001 
1510742.178 +1.3535782099E+000 -1.1224400997E-001  +8.0029526725E-004 -4.7095998889E-004  +4.6193873277E-004 +2.4274354801E-003  +9.1230142117E-001 +1.8006530404E-001 
1635887.359 +9.9222308397E-001 -2.1201354265E-001  -7.0218206383E-004 +2.3640009749E-004  -9.0376136359E-004 -9.1827369761E-004  +1.0994107723E+000 +1.5692225099E-001 
1761032.541 +1.0166165829E+000 -1.6537758708E-001  +1.0418244638E-003 -4.7006524983E-004  +1.1889981397E-004 +4.4810879626E-004  +1.0659441948E+000 +2.0089471340E-001 
1886177.722 +1.0128294230E+000 -8.3573400974E-002  +1.4721871412E-004 -7.8242446762E-005  -5.6952785235E-004 +7.3361187242E-004  +1.0538268089E+000 +1.3680338860E-001 
2011322.904 +1.0072414875E+000 -7.1678459644E-002  -6.0894679336E-005 +4.9251539167E-006  -7.8019598732E-005 -6.2825385248E-004  +1.0527356863E+000 +1.3882419467E-001 
2136468.085 +1.0067884922E+000 -4.4574737549E-002  +5.7547644246E-004 +5.1521614660E-004  +3.0095473630E-004 +8.7079341756E-004  +1.0357394218E+000 +1.3142761588E-001 
2261613.267 +1.0066313744E+000 -3.8449019194E-002  +4.8557022819E-004 +9.4421737595E-004  -2.7354399208E-005 +4.0768113104E-004  +1.0224999189E+000 +1.4994573593E-001 
2386758.448 +1.0082268715E+000 -2.1185427904E-002  +4.4455518946E-004 +7.3909602361E-004  +1.0609589663E-004 +1.5822821297E-004  +1.0374455452E+000 +1.6000753641E-001 
2511903.630 +1.0098233223E+000 +8.1398189068E-003  -5.8040342992E-005 +1.0002949275E-003  +3.0916227843E-004 +5.6399265304E-004  +1.0469470024E+000 +1.7839795351E-001 
2637048.811 +1.0062587261E+000 +1.1783152819E-002  -6.5087806433E-005 +1.1393057648E-003  +2.8419078444E-004 +8.6120777996E-004  +1.0335385799E+000 +1.9880002737E-001 
2762193.992 +1.0036299229E+000 +3.2684624195E-002  +2.0869851869E-004 +3.3892813371E-004  -2.0342410426E-004 +8.7667326443E-004  +1.0271542072E+000 +2.0498032868E-001 
2887339.174 +1.0050112009E+000 +5.4155513644E-002  +6.1027996708E-004 +1.1042491533E-003  +2.2046646336E-005 +1.3540480286E-003  +1.0232753754E+000 +2.5332185626E-001 
3012484.355 +1.0116692781E+000 +8.0679655075E-002  -3.9482014836E-004 +9.8423287272E-004  -4.9986538943E-004 +3.6793746403E-004  +1.0539023876E+000 +2.8657886386E-001 
3137629.537 +1.0226072073E+000 +9.0645566583E-002  -3.3384680864E-004 +1.0277803522E-003  -2.1766746067E-004 +8.5689127445E-004  +1.0881040096E+000 +3.0946519971E-001 
3262774.718 +1.0252270699E+000 +1.0305000842E-001  +2.6361094206E-004 +1.3356596464E-003  +3.0601237086E-005 +7.4715766823E-004  +1.1237349510E+000 +3.1282719970E-001 
3387919.900 +1.0148819685E+000 +1.2631261349E-001  -2.2927290411E-004 +1.0709691560E-003  -2.9268895742E-004 +8.7793136481E-004  +1.1488240957E+000 +3.1221118569E-001 
3513065.081 +1.0370295048E+000 +1.4059972763E-001  -7.5696952990E-005 +8.7300053565E-004  -4.1421374772E-004 +1.2110383250E-003  +1.1820825338E+000 +3.3729475737E-001 
3638210.263 +1.0544825792E+000 +1.6455455124E-001  -3.7933519343E-004 +1.4836600749E-003  +9.3712820671E-005 +1.5719420044E-003  +1.2055190802E+000 +3.2737135887E-001 
3763355.444 +1.0738192797E+000 +1.7635701597E-001  -3.8854160812E-004 +1.3373917900E-003  -1.8541864119E-004 +2.2270884365E-003  +1.2525308132E+000 +3.1474915147E-001 
3888500.626 +1.1075363159E+000 +1.9048774242E-001  -8.3808845375E-004 +1.8793379422E-003  -1.5821334091E-004 +1.1489798781E-003  +1.2995908260E+000 +3.0920103192E-001 
4013645.807 +1.0598288774E+000 +9.5213562250E-002  -6.8586552516E-005 +2.5408861693E-003  -1.0065367678E-004 +2.0155836828E-003  +1.2619224787E+000 +1.4774534106E-001 
4138790.989 +9.9346345663E-001 -1.4352653176E-002  +9.4516482204E-004 +1.9257784588E-003  +4.7031688155E-004 +1.3280689018E-003  +1.1705240011E+000 +9.0134441853E-003 
4263936.170 +9.8539960384E-001 +1.5959143639E-005  +2.7146565844E-004 +1.4377256157E-003  +3.2402880606E-004 +1.6569717554E-003  +1.1558248997E+000 -2.2588260472E-002 
4389081.352 +9.9837392569E-001 -4.9803145230E-003  +1.2766557047E-003 +1.8875455717E-003  -3.2255265978E-006 +2.2318861447E-003  +1.1548795700E+000 -4.3385520577E-002 
4514226.533 +1.0027853251E+000 -7.2075128555E-003  +1.3897144236E-003 +2.1788924932E-003  +1.0937385960E-003 +2.3370899726E-003  +1.1467112303E+000 -7.6983265579E-002 
4639371.715 +1.0158851147E+000 -2.0991787314E-002  +6.3074403442E-004 +2.3950885516E-003  +4.9238500651E-004 +1.8564710626E-003  +1.1415797472E+000 -6.7926540971E-002 
4764516.896 +1.0041241646E+000 -1.6259022057E-002  +7.8310212120E-004 +2.3770546541E-003  +8.4454170428E-004 +2.4136544671E-003  +1.1335262060E+000 -9.0563371778E-002 
4889662.078 +1.0104228258E+000 -8.4144473076E-003  +5.7822815143E-004 +2.3253667168E-003  +6.5109191928E-004 +2.0164339803E-003  +1.1194061041E+000 -8.6731694639E-002 
5014807.259 +1.0091730356E+000 -1.6589537263E-002  +1.0123598622E-004 +2.6141374838E-003  +5.5436900584E-004 +2.8986250982E-003  +1.1049730778E+000 -8.6136437953E-002 
5139952.441 +1.0180845261E+000 -2.9876969755E-002  +3.6071083741E-004 +2.6648812927E-003  +4.8509426415E-004 +3.2924308907E-003  +1.0972100496E+000 -1.0270108283E-001 
5265097.622 +1.0094553232E+000 -2.0841233432E-002  +9.2180608772E-004 +2.2674878128E-003  +5.5237906054E-004 +3.0535031110E-003  +1.0849490166E+000 -1.0080198199E-001 
5390242.804 +1.0128831863E+000 -2.1180815995E-002  +4.0551312850E-004 +2.8415713459E-003  +5.8932346292E-004 +2.9516054783E-003  +1.0658891201E+000 -1.0654420406E-001 
5515387.985 +1.0218399763E+000 -2.3338735104E-002  +8.0662837718E-004 +3.0078189448E-003  +8.0291746417E-004 +2.3895227350E-003  +1.0631970167E+000 -1.1513905972E-001 
5640533.166 +1.0168449879E+000 -1.8866106868E-002  +7.5276556890E-004 +2.5367739145E-003  +4.4098077342E-004 +2.3386275861E-003  +1.0605659485E+000 -1.1336773634E-001 
5765678.348 +1.0123959780E+000 -2.3600883782E-002  +8.7350641843E-004 +2.7373714838E-003  +1.0481225327E-003 +3.2426486723E-003  +1.0542360544E+000 -1.0739597678E-001 
5890823.529 +1.0074539185E+000 -2.8712689877E-002  +5.9962959494E-004 +2.7488975320E-003  +8.5937714903E-004 +3.0324307736E-003  +1.0466946363E+000 -1.0631823540E-001 
6015968.711 +1.0090999603E+000 -3.7764929235E-002  +7.0269859862E-004 +3.2814773731E-003  +5.6827376829E-004 +3.1656646170E-003  +1.0398156643E+000 -1.0199579597E-001 
6141113.892 +1.0071868896E+000 -3.7842758000E-002  +5.9928721748E-004 +2.8368609492E-003  +3.9538930287E-004 +2.9831286520E-003  +1.0270310640E+000 -1.0064087808E-001 
6266259.074 +1.0043399334E+000 -3.0936546624E-002  +7.4451515684E-004 +2.9022460803E-003  +6.7625555675E-004 +2.9946402647E-003  +1.0234776735E+000 -1.0243394226E-001 
6391404.255 +1.0002490282E+000 -4.1885353625E-002  +1.3190675527E-003 +3.1905767974E-003  +9.2433864484E-004 +3.3622388728E-003  +1.0197669268E+000 -1.0201428831E-001 
6516549.437 +9.9971228838E-001 -3.6012314260E-002  +8.9322146960E-004 +3.2179227564E-003  +5.6454597507E-004 +2.8524242807E-003  +1.0090925694E+000 -9.0542659163E-002 
6641694.618 +1.0075389147E+000 -2.9875099659E-002  +1.0131730232E-003 +3.2153059728E-003  +8.0508930841E-004 +3.2891961746E-003  +1.0045623779E+000 -9.0168774128E-002 
6766839.800 +1.0121972561E+000 -3.6468788981E-002  +8.8254979346E-004 +3.5934017505E-003  +1.0014510481E-003 +3.5719645675E-003  +1.0056812763E+000 -9.3439862132E-002 
6891984.981 +1.0030478239E+000 -3.8369774818E-002  +1.0882446077E-003 +3.4125735983E-003  +9.4261451159E-004 +3.2705992926E-003  +9.9408125877E-001 -8.8397681713E-002 
7017130.163 +9.9903708696E-001 -3.8365110755E-002  +7.9532258678E-004 +3.3168732189E-003  +8.8641647017E-004 +3.6774838809E-003  +9.9358713627E-001 -8.0437347293E-002 
7142275.344 +1.0001114607E+000 -3.1252861023E-002  +1.0288101621E-003 +3.4227587748E-003  +8.3591637667E-004 +3.6512126680E-003  +9.9388295412E-001 -7.3702514172E-002 
7267420.526 +9.9643266201E-001 -3.2609358430E-002  +9.4419816742E-004 +3.7499731407E-003  +7.9670065315E-004 +3.5238747951E-003  +9.8814451694E-001 -7.3754623532E-002 
7392565.707 +9.9601095915E-001 -2.8224483132E-002  +7.8577181557E-004 +3.7147069816E-003  +1.1539403349E-003 +3.8480772637E-003  +9.8995518684E-001 -7.2445392609E-002 
7517710.889 +9.9948722124E-001 -3.0294492841E-002  +7.0593017153E-004 +3.7713749334E-003  +8.9900370222E-004 +3.7984936498E-003  +9.8335635662E-001 -7.4088767171E-002 
7642856.070 +9.8944044113E-001 -3.7393450737E-002  +8.6588179693E-004 +3.7436645944E-003  +9.9322095048E-004 +4.0524806827E-003  +9.7609919310E-001 -7.1831524372E-002 
7768001.252 +9.9572962523E-001 -2.8779387474E-002  +8.7927200366E-004 +3.8503459655E-003  +1.2372236233E-003 +3.6004811991E-003  +9.7409188747E-001 -7.1367442608E-002 
7893146.433 +9.9743402004E-001 -2.9467403889E-002  +8.8011362823E-004 +3.9743836969E-003  +8.6280645337E-004 +3.8263469469E-003  +9.7503560781E-001 -6.0718864202E-002 
8018291.615 +9.9281972647E-001 -2.4695336819E-002  +8.8509480702E-004 +4.0006604977E-003  +1.0393260745E-003 +3.9497944526E-003  +9.7192507982E-001 -6.0032427311E-002 
8143436.796 +9.8585569859E-001 -3.2384842634E-002  +1.0185181163E-003 +3.7500290200E-003  +9.8501471803E-004 +3.9866706356E-003  +9.6794623137E-001 -5.5821493268E-002 
8268581.977 +9.8751133680E-001 -2.7504920959E-002  +8.3516549785E-004 +3.9733210579E-003  +1.0546359699E-003 +3.7534632720E-003  +9.7078758478E-001 -4.9751341343E-002 
8393727.159 +9.8738378286E-001 -2.7111709118E-002  +8.9444208425E-004 +4.0530054830E-003  +9.3945418485E-004 +3.9259688929E-003  +9.6905457973E-001 -4.6121001244E-002 
8518872.340 +9.8786914349E-001 -2.9085516930E-002  +9.4991060905E-004 +4.3715862557E-003  +1.0064585367E-003 +3.9972662926E-003  +9.6927309036E-001 -4.4367253780E-002 
8644017.522 +9.8769891262E-001 -2.5033026934E-002  +8.1530539319E-004 +4.2398660444E-003  +9.5800368581E-004 +4.1334675625E-003  +9.7333055735E-001 -4.3350785971E-002 
8769162.703 +9.9151712656E-001 -2.4172723293E-002  +9.3867420219E-004 +4.2516123503E-003  +1.1161180446E-003 +4.3244999833E-003  +9.7134226561E-001 -4.2624592781E-002 
8894307.885 +9.8632031679E-001 -2.5972902775E-002  +9.5638725907E-004 +4.2611551471E-003  +1.1174669489E-003 +4.2472016066E-003  +9.7092008591E-001 -4.3836832047E-002 
9019453.066 +9.8612213135E-001 -2.7520567179E-002  +9.6205796581E-004 +4.4274353422E-003  +9.7147678025E-004 +4.4754287228E-003  +9.6921789646E-001 -4.1121393442E-002 
9144598.248 +9.8484063148E-001 -2.6148378849E-002  +7.7492126729E-004 +4.4576027431E-003  +1.0020858608E-003 +4.5018480159E-003  +9.6949458122E-001 -3.7799477577E-002 
9269743.429 +9.8680818081E-001 -2.4586558342E-002  +9.8829704802E-004 +4.6473382972E-003  +8.4723054897E-004 +4.6331011690E-003  +9.6997529268E-001 -3.4687787294E-002 
9394888.611 +9.8747181892E-001 -1.9539058208E-002  +1.0356177809E-003 +4.6121794730E-003  +8.3182938397E-004 +4.5033176430E-003  +9.6840626001E-001 -3.6083698273E-002 
9520033.792 +9.8857468367E-001 -2.3345202208E-002  +9.2602183577E-004 +4.6647964045E-003  +1.0344794719E-003 +4.6287020668E-003  +9.6808981895E-001 -3.4908533096E-002 
9645178.974 +9.8885220289E-001 -1.8119066954E-002  +9.9015852902E-004 +4.6358872205E-003  +8.4045692347E-004 +4.6957479790E-003  +9.6910506487E-001 -3.0039548874E-002 
9770324.155 +9.8748296499E-001 -1.5771299601E-002  +9.3227450270E-004 +4.7361222096E-003  +9.6775183920E-004 +4.7098444775E-003  +9.6462416649E-001 -2.8168946505E-002 
9895469.337 +9.8786497116E-001 -1.4222294092E-002  +9.0139161330E-004 +4.8090564087E-003  +1.0242618155E-003 +4.7803800553E-003  +9.6569955349E-001 -2.5263905525E-002 
10020614.518 +9.8697209358E-001 -1.3825178146E-002  +9.0919714421E-004 +4.8893084750E-003  +9.8183134105E-004 +4.8526916653E-003  +9.6858489513E-001 -2.3056179285E-002 
10145759.700 +9.8900580406E-001 -1.3825416565E-002  +9.7366562113E-004 +4.9316398799E-003  +1.0049899574E-003 +4.9129412510E-003  +9.6914750338E-001 -2.3171365261E-002 
10270904.881 +9.8967909813E-001 -1.3687074184E-002  +9.8303263076E-004 +4.9625448883E-003  +9.5089408569E-004 +5.0732959062E-003  +9.7137892246E-001 -2.3149430752E-002 
10396050.063 +9.8660939932E-001 -1.3003945351E-002  +9.3205319718E-004 +5.0433492288E-003  +1.0422093328E-003 +5.0574578345E-003  +9.6945416927E-001 -1.9711256027E-002 
10521195.244 +9.8959845304E-001 -1.3867646456E-002  +8.9016277343E-004 +5.1099266857E-003  +9.9899619818E-004 +5.1306276582E-003  +9.7165900469E-001 -1.9399851561E-002 
10646340.426 +9.8879516125E-001 -1.3079494238E-002  +9.3381945044E-004 +5.1841624081E-003  +9.7393454053E-004 +5.2566267550E-003  +9.7194451094E-001 -1.6437649727E-002 
10771485.607 +9.8920089006E-001 -1.1522352695E-002  +8.5229729302E-004 +5.2049020305E-003  +9.8657002673E-004 +5.2583608776E-003  +9.7241353989E-001 -1.4146536589E-002 
10896630.788 +9.8867398500E-001 -9.4292461872E-003  +9.7923469730E-004 +5.3588422015E-003  +1.0126240086E-003 +5.3391018882E-003  +9.7354400158E-001 -1.1969715357E-002 
11021775.970 +9.8821413517E-001 -7.1555972099E-003  +9.3882810324E-004 +5.3973551840E-003  +1.0720572900E-003 +5.3085763939E-003  +9.7329509258E-001 -1.2111604214E-002 
11146921.151 +9.8795211315E-001 -1.0929673910E-002  +9.5996237360E-004 +5.4164822213E-003  +1.1229889933E-003 +5.4826810956E-003  +9.7629153728E-001 -1.1336356401E-002 
11272066.333 +9.8758977652E-001 -8.8407695293E-003  +9.2232460156E-004 +5.4298373871E-003  +1.0375771672E-003 +5.4658390582E-003  +9.7381836176E-001 -1.1227786541E-002 
11397211.514 +9.8940926790E-001 -9.0825557709E-003  +9.6571631730E-004 +5.5266595446E-003  +1.1182609014E-003 +5.5085779168E-003  +9.7495067120E-001 -9.7801089287E-003 
11522356.696 +9.8809510469E-001 -8.9948177338E-003  +1.0129727889E-003 +5.6400033645E-003  +1.0773086688E-003 +5.6015346199E-003  +9.7626119852E-001 -8.9074373245E-003 
11647501.877 +9.8762744665E-001 -8.8880062103E-003  +9.7242719494E-004 +5.6733316742E-003  +1.0645970469E-003 +5.6814309210E-003  +9.7585976124E-001 -7.8212916851E-003 
11772647.059 +9.8942756653E-001 -8.2449615002E-003  +9.6808176022E-004 +5.6987400167E-003  +1.0871698614E-003 +5.7009449229E-003  +9.7688913345E-001 -7.7782571316E-003 
11897792.240 +9.8844122887E-001 -7.1115195751E-003  +1.0851159459E-003 +5.8106523938E-003  +1.1017896468E-003 +5.8349585161E-003  +9.7665202618E-001 -7.6527297497E-003 
12022937.422 +9.9078303576E-001 -5.8359503746E-003  +9.8951498512E-004 +5.8224429376E-003  +1.0296609253E-003 +5.8198585175E-003  +9.7691774368E-001 -7.5780153275E-003 
12148082.603 +9.8967516422E-001 -6.0247182846E-003  +1.0323635070E-003 +5.9180101380E-003  +1.0543502867E-003 +5.8898925781E-003  +9.7951018810E-001 -5.0242543221E-003 
12273227.785 +9.9098449945E-001 -5.7221353054E-003  +1.0131988674E-003 +5.9890989214E-003  +1.0730319191E-003 +5.9563149698E-003  +9.7976666689E-001 -6.4045488834E-003 
12398372.966 +9.9103403091E-001 -6.0913264751E-003  +9.7208691295E-004 +6.0200137086E-003  +1.0655305814E-003 +6.0563287698E-003  +9.8062860966E-001 -6.7551136017E-003 
12523518.148 +9.8994243145E-001 -5.6620091200E-003  +1.0109788273E-003 +6.0718031600E-003  +1.0112421587E-003 +6.0247755609E-003  +9.7886955738E-001 -7.0062577724E-003 
12648663.329 +9.9099290371E-001 -5.0415992737E-003  +1.0133340256E-003 +6.1348164454E-003  +1.1014284100E-003 +6.1531090178E-003  +9.8032474518E-001 -5.9432685375E-003 
12773808.511 +9.9047088623E-001 -5.8740675449E-003  +1.0160167003E-003 +6.1692283489E-003  +1.1238723528E-003 +6.1764619313E-003  +9.8063534498E-001 -6.2139332294E-003 
12898953.692 +9.9171376228E-001 -5.1827505231E-003  +1.0795328999E-003 +6.2544192187E-003  +1.0875435546E-003 +6.2677706592E-003  +9.8219692707E-001 -6.2745139003E-003 
13024098.874 +9.9228066206E-001 -4.8565790057E-003  +1.0507367551E-003 +6.3401791267E-003  +1.1924317805E-003 +6.3038142398E-003  +9.8190402985E-001 -4.3565109372E-003 
13149244.055 +9.9198341370E-001 -3.8893781602E-003  +1.0331070516E-003 +6.3659516163E-003  +1.0964209214E-003 +6.4022731967E-003  +9.8256731033E-001 -3.8052406162E-003 
13274389.237 +9.9190098047E-001 -5.0624832511E-003  +1.0321183363E-003 +6.4117545262E-003  +1.0775276460E-003 +6.4825969748E-003  +9.8444110155E-001 -3.8197264075E-003 
13399534.418 +9.9235671759E-001 -4.2983815074E-003  +1.0445725638E-003 +6.4378464594E-003  +1.0906439275E-003 +6.5099340864E-003  +9.8379939795E-001 -2.7259588242E-003 
13524679.599 +9.9247759581E-001 -3.3933520317E-003  +1.0257146787E-003 +6.5105659887E-003  +1.1236282298E-003 +6.5688365139E-003  +9.8407495022E-001 -3.0268579721E-003 
13649824.781 +9.9357563257E-001 -3.5204887390E-003  +1.0504812235E-003 +6.6023860127E-003  +1.1197868735E-003 +6.6425376572E-003  +9.8530906439E-001 -3.1366795301E-003 
13774969.962 +9.9247795343E-001 -4.2520314455E-003  +1.0343956528E-003 +6.6445460543E-003  +1.1385356775E-003 +6.6599305719E-003  +9.8558181524E-001 -3.1340718269E-003 
13900115.144 +9.9337625504E-001 -3.6581456661E-003  +1.0607596487E-003 +6.7210253328E-003  +1.1098072864E-003 +6.7260386422E-003  +9.8528641462E-001 -2.6719868183E-003 
14025260.325 +9.9196910858E-001 -4.1627883911E-003  +1.0287154000E-003 +6.8016238511E-003  +1.0522471275E-003 +6.7389570177E-003  +9.8542392254E-001 -1.7333030701E-003 
14150405.507 +9.9341225624E-001 -2.9838681221E-003  +1.0465052910E-003 +6.8596526980E-003  +1.1571168434E-003 +6.8549932912E-003  +9.8649543524E-001 -2.2912919521E-003 
14275550.688 +9.9364542961E-001 -3.8189589977E-003  +1.0186834261E-003 +6.8775429390E-003  +1.1208648793E-003 +6.8826782517E-003  +9.8621129990E-001 -2.3582875729E-003 
14400695.870 +9.9228858948E-001 -3.9015710354E-003  +1.1149796192E-003 +6.9048735313E-003  +1.1847727001E-003 +6.9610476494E-003  +9.8647916317E-001 -1.2807846069E-003 
