!  2-Port S-parameters saved by WinCal
! VAR MeasName=S-Parameters (CALIBRATED_DATA) read from VNA (P5004A)
! VAR MeasDate=22/05/2024 17:26:30
! VAR NAME=Wafer2_r10_c20_shortnotaper
! VAR FILENAME=Wafer2_r10_c20_shortnotaper.S2P
! VAR DATE=22/05/2024 17:26:30
! VAR PHYS_PORTS=1,2
! VAR ObjTypeName=DATASET
! VAR IndexType=Frequency
!
# Hz S RI R 50
9000.000 +2.2826382518E-001 -5.5158454180E-001  +4.2018475942E-003 +1.8345765769E-002  +7.6730633155E-003 -5.5961026810E-003  +6.7846581340E-002 +8.7304055691E-002 
134145.181 +2.0195521414E-001 -1.2485817075E-001  +2.7379412204E-003 +5.4311510175E-002  -1.2486040592E-002 +5.0570763648E-002  -1.7818230391E-001 -2.7150431275E-001 
259290.363 +4.6752068400E-001 +2.1137213707E-001  +1.6165580601E-002 +8.3546668291E-002  +8.4919892251E-002 -2.6070162654E-002  +5.6217908859E-002 -1.0134648085E+000 
384435.544 +2.9346969724E-001 -6.7225068808E-002  +4.2359992862E-002 +7.3884846643E-003  -8.6273506284E-002 +5.0186864100E-003  -2.3825526237E+000 +7.4985104799E-001 
509580.726 +5.5401021242E-001 -4.5035481453E-002  +1.9709613174E-002 -9.3725085258E-002  +2.6613296941E-003 -3.3157639205E-002  -1.0985666513E+000 -4.6941444278E-001 
634725.907 +8.0694824457E-001 -1.7398074269E-001  +6.1506237835E-003 -5.3864005022E-003  +4.6339984983E-003 +1.8632384017E-002  +1.4769895375E-001 -5.4099363089E-001 
759871.089 +1.4538062811E+000 -4.6171909571E-001  -9.8330364563E-004 -5.4690977558E-003  +9.4443652779E-003 -5.0791436806E-003  +2.0985102654E+000 +5.4825663567E-002 
885016.270 +2.8941261768E+000 -3.3147416115E+000  -3.1427955255E-003 +1.1452010367E-003  -2.0588666201E-002 +1.8243629485E-002  +1.5033495426E+000 +8.2242292166E-001 
1010161.452 +7.4523597956E-001 -1.4567964077E+000  +4.1141775437E-003 +8.0631971359E-003  +5.5250083096E-003 +4.1668140329E-004  +1.0894012451E+000 +9.0576350689E-001 
1135306.633 -1.4145186543E-001 -1.0383547544E+000  +7.5948350132E-003 +2.3817282636E-003  -7.7589419670E-003 +9.6008125693E-003  +1.0131418705E+000 +1.4557582140E+000 
1260451.815 +8.4203541279E-002 -1.0000172853E+000  +4.8434659839E-003 +7.6040159911E-005  +1.1309633963E-002 -1.4683513436E-003  +7.8912228346E-002 +1.1646256447E+000 
1385596.996 +1.2014234066E+000 -9.4379311800E-001  +2.1305722476E-004 +2.1370844916E-003  +1.4459863305E-003 +1.3980322517E-002  +1.4736446738E-001 +9.9173831940E-001 
1510742.178 +2.2397911549E+000 -1.4590158463E+000  +2.8343980666E-003 +1.2179670157E-003  +7.1265234146E-004 -6.4952983521E-003  +1.3390146196E-002 +6.1539971828E-001 
1635887.359 +1.2477340698E+000 -1.1603599787E+000  -1.0107371956E-002 +1.7167381942E-002  -6.2826094218E-003 +1.8393867649E-003  -1.3051151037E+000 +1.5827823877E+000 
1761032.541 +2.6383149624E+000 -6.4170670509E-001  -7.4459682219E-004 +8.5819902597E-004  -1.0968136601E-002 -2.9207540210E-003  -4.6424984932E-001 +5.4127073288E-001 
1886177.722 +2.7987477779E+000 +3.7892860174E-001  -8.5390834138E-003 -3.0273469165E-003  -2.6735574938E-003 +5.3850719705E-003  -3.8337475061E-001 +8.2546103001E-001 
2011322.904 +2.6297562122E+000 +1.6865999699E+000  -2.2150967270E-002 +9.1063166037E-003  -1.5323949978E-002 -7.2282599285E-003  -6.7404985428E-001 +9.7043085098E-001 
2136468.085 +1.4531083107E+000 +2.0590770245E+000  -3.3730864525E-003 -7.7748689801E-003  -7.5581669807E-003 -3.9643230848E-003  -5.3248250484E-001 +9.2611527443E-001 
2261613.267 +5.4346460104E-001 +2.1142153740E+000  -1.7449147999E-003 -1.0657435283E-002  -7.5393202715E-003 -5.1423963159E-003  -5.3507369757E-001 +8.1581491232E-001 
2386758.448 +1.8505996466E-001 +2.0633635521E+000  -6.4625609666E-003 -6.0332617722E-003  -1.9025001675E-003 -8.2358038053E-003  -5.4002833366E-001 +6.9393032789E-001 
2511903.630 -3.2450991869E-001 +1.7215303183E+000  -7.5653009117E-004 -9.1865379363E-003  -5.8457965497E-004 -3.1374308746E-003  -6.6904020309E-001 +6.2371617556E-001 
2637048.811 -4.2441225052E-001 +1.5551128387E+000  -9.2677946668E-004 -4.7304392792E-003  +7.0647918619E-004 -5.6274803355E-003  -6.0732543468E-001 +4.9380970001E-001 
2762193.992 -5.8197015524E-001 +1.2520415783E+000  -1.7069838941E-004 -3.3985015471E-003  -2.7832644992E-004 -6.0829534195E-003  -6.3891381025E-001 +4.5334333181E-001 
2887339.174 -7.8705036640E-001 +1.0737534761E+000  +2.8827057686E-003 -5.4818862118E-003  +2.5410149246E-003 -1.9478133181E-003  -6.5488952398E-001 +3.9942067862E-001 
3012484.355 -8.5715985298E-001 +1.0894126892E+000  +2.6967604645E-003 -4.4268188067E-003  +2.4094888940E-003 -5.7590608485E-003  -6.9397741556E-001 +3.4197175503E-001 
3137629.537 -8.9746177197E-001 +1.0325059891E+000  +2.9384163208E-003 -3.0821971595E-003  +3.3387639560E-003 -4.1025965475E-003  -6.9731867313E-001 +2.7916747332E-001 
3262774.718 -9.0730094910E-001 +1.0054861307E+000  +2.6926007122E-003 -4.6277237125E-003  +4.1726343334E-003 -4.8791356385E-003  -7.2424858809E-001 +2.3924528062E-001 
3387919.900 -8.8021194935E-001 +8.9552235603E-001  +4.8656268045E-003 -3.0812327750E-003  +3.7487202790E-003 -3.8029935677E-003  -7.6685011387E-001 +2.2952881455E-001 
3513065.081 -9.3951565027E-001 +8.0989819765E-001  +3.6310725845E-003 -2.7633619029E-003  +3.7602896336E-003 -3.0796292704E-003  -8.0116236210E-001 +2.0665270090E-001 
3638210.263 -9.2732727528E-001 +7.2769802809E-001  +3.6728866398E-003 -2.6958829258E-003  +3.5689671058E-003 -3.1022941694E-003  -8.5218071938E-001 +1.9093897939E-001 
3763355.444 -9.3494701385E-001 +6.9785481691E-001  +4.3007838540E-003 -2.8337449767E-003  +4.3908553198E-003 -3.4493315034E-003  -8.6684918404E-001 +1.7336729169E-001 
3888500.626 -9.7185564041E-001 +6.2068134546E-001  +4.3828617781E-003 -3.0180721078E-003  +4.4836732559E-003 -2.2370074876E-003  -8.8360786438E-001 +1.6740652919E-001 
4013645.807 -9.8326265812E-001 +4.0856871009E-001  +5.4561058059E-003 -2.5993497111E-003  +4.2005078867E-003 -1.5661637299E-003  -8.8202708960E-001 +2.6773229241E-002 
4138790.989 -9.3593192101E-001 +2.2324490547E-001  +6.2969303690E-003 -3.3394625643E-004  +5.9592239559E-003 -4.5738153858E-005  -8.4439373016E-001 -6.7109189928E-002 
4263936.170 -9.2530035973E-001 +1.8573342264E-001  +6.2233447097E-003 -4.2311480502E-004  +5.3695966490E-003 -1.5514905099E-003  -8.4739577770E-001 -6.0613013804E-002 
4389081.352 -9.1497933865E-001 +1.8648231030E-001  +6.3737854362E-003 +1.8500327133E-004  +5.6375698186E-003 -1.1278165039E-003  -8.6398869753E-001 -8.3868101239E-002 
4514226.533 -9.3300157785E-001 +1.7534069717E-001  +6.2070959248E-003 -7.2203471791E-004  +6.2871687114E-003 -2.6258453727E-004  -8.7789189816E-001 -8.6723886430E-002 
4639371.715 -9.0258604288E-001 +1.5806339681E-001  +5.9617105871E-003 -1.4300458133E-006  +6.4649772830E-003 -5.0191476475E-004  -9.0010154247E-001 -9.8603181541E-002 
4764516.896 -9.2529666424E-001 +1.3753750920E-001  +6.2399320304E-003 -2.3586966563E-004  +6.0582887381E-003 -2.3813848384E-004  -9.0585404634E-001 -8.3380848169E-002 
4889662.078 -9.3581712246E-001 +1.3176593184E-001  +6.2547391281E-003 -8.1134843640E-004  +5.8093257248E-003 -5.8602285571E-004  -8.8839137554E-001 -8.5148960352E-002 
5014807.259 -9.2523372173E-001 +1.3925117254E-001  +6.0408697464E-003 -6.9519574754E-004  +5.5358363315E-003 -4.7832902055E-004  -9.1444957256E-001 -1.0115119815E-001 
5139952.441 -9.2676061392E-001 +1.3192334771E-001  +6.2478119507E-003 -5.0501455553E-004  +6.2457509339E-003 -5.5988715030E-004  -9.0859895945E-001 -9.5667421818E-002 
5265097.622 -9.3640553951E-001 +1.0597193241E-001  +6.1936313286E-003 -1.2906035408E-004  +6.4382045530E-003 -7.3315133341E-004  -9.1902226210E-001 -7.3103338480E-002 
5390242.804 -9.4380545616E-001 +8.2100719213E-002  +6.2456279993E-003 -5.5336230434E-004  +5.8227605186E-003 -2.0588049665E-005  -9.2318117619E-001 -6.4236313105E-002 
5515387.985 -9.4193226099E-001 +8.7465703487E-002  +6.1792111956E-003 +2.1578697488E-004  +6.0587162152E-003 +1.9419635646E-004  -9.1534960270E-001 -6.2492489815E-002 
5640533.166 -9.4245064259E-001 +7.5086146593E-002  +6.1850538477E-003 -2.6673520915E-004  +6.3725509681E-003 -3.4863268957E-004  -9.2953318357E-001 -6.1680525541E-002 
5765678.348 -9.3752431870E-001 +8.3064377308E-002  +6.0064420104E-003 -5.8762147091E-004  +5.9531326406E-003 -5.9845903888E-004  -9.3985521793E-001 -5.4421484470E-002 
5890823.529 -9.2860245705E-001 +6.7217856646E-002  +5.8301528916E-003 -4.1532586329E-004  +6.0641476884E-003 +4.3009407818E-004  -9.5070821047E-001 -6.2256932259E-002 
6015968.711 -9.4462811947E-001 +6.3051521778E-002  +5.9739835560E-003 -1.5610409901E-004  +5.8269132860E-003 -2.5388877839E-004  -9.4449108839E-001 -5.6847721338E-002 
6141113.892 -9.3736410141E-001 +7.3384732008E-002  +6.0108210891E-003 -3.4897960722E-004  +6.1539406888E-003 -2.5928649120E-004  -9.5706939697E-001 -6.9893002510E-002 
6266259.074 -9.2922401428E-001 +6.6758215427E-002  +6.0887285508E-003 -8.2232058048E-005  +6.0419761576E-003 -3.1408178620E-004  -9.5743560791E-001 -6.2119185925E-002 
6391404.255 -9.3102377653E-001 +5.2579641342E-002  +5.9497375041E-003 -2.9095844366E-004  +5.9201405384E-003 +2.0154844970E-004  -9.6092355251E-001 -5.1646083593E-002 
6516549.437 -9.3172228336E-001 +6.1776190996E-002  +5.7125953026E-003 -1.3069529086E-004  +6.1018364504E-003 -3.2728887163E-004  -9.5720165968E-001 -5.9463441372E-002 
6641694.618 -9.3366575241E-001 +4.7227621078E-002  +5.8465581387E-003 -1.7051445320E-004  +5.9434920549E-003 -2.3774872534E-004  -9.5936864614E-001 -4.5049220324E-002 
6766839.800 -9.3268227577E-001 +3.8603037596E-002  +5.9814630076E-003 -1.5377509408E-004  +5.9374175034E-003 -1.6213720664E-004  -9.6878057718E-001 -4.0174871683E-002 
6891984.981 -9.3164575100E-001 +3.7105947733E-002  +6.1323707923E-003 -1.6522593796E-004  +5.9873531573E-003 -1.5550060198E-005  -9.6313118935E-001 -4.1392922401E-002 
7017130.163 -9.2668336630E-001 +5.0707966089E-002  +5.9354989789E-003 -3.0156644061E-004  +6.0566728935E-003 -1.6096117906E-004  -9.6644961834E-001 -5.8411121368E-002 
7142275.344 -9.4475805759E-001 +4.2609721422E-002  +5.8297859505E-003 -1.8721190281E-004  +6.0167061165E-003 -4.3934676796E-005  -9.6270948648E-001 -4.7520667315E-002 
7267420.526 -9.2747306824E-001 +4.2044788599E-002  +6.0090585612E-003 -1.4226487838E-004  +5.8580087498E-003 -3.0072499067E-004  -9.7647148371E-001 -4.8848807812E-002 
7392565.707 -9.2348194122E-001 +4.2009860277E-002  +5.8324211277E-003 -2.0749727264E-004  +6.1915917322E-003 -4.6544941142E-005  -9.7510510683E-001 -4.8540592194E-002 
7517710.889 -9.2422604561E-001 +4.3752938509E-002  +5.9491535649E-003 -7.6690688729E-005  +6.0757738538E-003 -3.5590282641E-004  -9.7456145287E-001 -5.1511287689E-002 
7642856.070 -9.2301666737E-001 +2.7517318726E-002  +6.0077179223E-003 -8.1333913840E-005  +5.8249179274E-003 -1.7787702382E-004  -9.8001325130E-001 -3.7976533175E-002 
7768001.252 -9.3314349651E-001 +3.2192498446E-002  +5.9350887313E-003 -1.7142156139E-006  +6.0406606644E-003 -2.4631363340E-004  -9.7359895706E-001 -4.2119473219E-002 
7893146.433 -9.3255084753E-001 +2.9014959931E-002  +6.0043325648E-003 -2.7762423269E-004  +5.9580034576E-003 +1.1710938998E-004  -9.7523963451E-001 -4.0270656347E-002 
8018291.615 -9.3888515234E-001 +2.2804841399E-002  +6.1626359820E-003 +7.9721678048E-005  +6.0310424305E-003 -6.8687251769E-005  -9.7190701962E-001 -3.2802924514E-002 
8143436.796 -9.3113088608E-001 +2.7097016573E-002  +6.0500577092E-003 -2.0970287733E-004  +5.9878914617E-003 -8.6738378741E-005  -9.8047620058E-001 -4.1101202369E-002 
8268581.977 -9.3542653322E-001 +1.8335461617E-002  +6.0645346530E-003 -2.0506704459E-004  +6.0428599827E-003 -1.4071038458E-004  -9.7724163532E-001 -2.8836846352E-002 
8393727.159 -9.3249285221E-001 +2.0059421659E-002  +5.9712277725E-003 -4.8119050916E-005  +5.9181572869E-003 -9.8741846159E-005  -9.7944015265E-001 -3.6008879542E-002 
8518872.340 -9.4885116816E-001 +1.6534708440E-002  +6.0293059796E-003 +3.4792756196E-005  +5.9387623332E-003 -1.1112593347E-004  -9.6686887741E-001 -3.3871784806E-002 
8644017.522 -9.3576884270E-001 +1.3128340244E-002  +5.9711528011E-003 -7.7260192484E-005  +5.9672528878E-003 -1.0451622074E-004  -9.7790950537E-001 -2.9813349247E-002 
8769162.703 -9.4250190258E-001 +9.1991499066E-003  +5.9408927336E-003 -7.5332965935E-005  +5.9615671635E-003 +1.5850702766E-005  -9.7927552462E-001 -2.7266338468E-002 
8894307.885 -9.4069421291E-001 +4.2132213712E-003  +5.9836604632E-003 -1.5399373660E-004  +6.0324021615E-003 -1.6260650591E-004  -9.7866219282E-001 -2.9170490801E-002 
9019453.066 -9.4638955593E-001 +8.0206543207E-003  +5.9245745651E-003 -7.7851349488E-005  +5.9352093376E-003 -1.6641552793E-004  -9.7423839569E-001 -3.3493734896E-002 
9144598.248 -9.4568479061E-001 +5.5875610560E-003  +5.8782421984E-003 -2.1796778310E-004  +5.9265433811E-003 -5.9326426708E-005  -9.7499954700E-001 -2.8603330255E-002 
9269743.429 -9.4263523817E-001 +1.1228617281E-002  +5.8743981645E-003 -1.0517952614E-004  +5.8052530512E-003 -1.1405558325E-005  -9.8327255249E-001 -3.6227859557E-002 
9394888.611 -9.4658225775E-001 +6.6407024860E-005  +5.9513058513E-003 +1.0905505042E-004  +5.9852399863E-003 -1.1668488150E-004  -9.7954511642E-001 -2.4631004781E-002 
9520033.792 -9.4318062067E-001 +7.3891580105E-003  +6.0442043468E-003 -5.1754119340E-005  +5.9011066332E-003 +6.1488419306E-005  -9.8433792591E-001 -3.2969273627E-002 
9645178.974 -9.5183789730E-001 +4.0130615234E-003  +6.0573127121E-003 +4.2789964937E-005  +6.0174334794E-003 +7.1219401434E-005  -9.7575348616E-001 -2.8154991567E-002 
9770324.155 -9.5415782928E-001 -1.9897818565E-003  +5.8888006024E-003 -7.2492635809E-005  +6.0542444699E-003 +3.3052521758E-005  -9.7810864449E-001 -2.2114738822E-002 
9895469.337 -9.5240670443E-001 +1.1775061488E-002  +5.9466473758E-003 -2.2264430299E-006  +5.9908321127E-003 +8.4122177213E-005  -9.7681564093E-001 -3.4044757485E-002 
10020614.518 -9.5113116503E-001 +4.0559321642E-003  +6.0214200057E-003 -6.0585909523E-005  +6.0617038980E-003 -1.2154923752E-005  -9.7579473257E-001 -3.0991315842E-002 
10145759.700 -9.5023906231E-001 +2.6077032089E-005  +6.0487273149E-003 -3.6225072108E-005  +5.9206206352E-003 -5.2508199587E-005  -9.7743082047E-001 -2.6797056198E-002 
10270904.881 -9.5235341787E-001 -4.6212971210E-003  +5.9608914889E-003 +1.3543292880E-005  +5.9701208957E-003 -6.0220248997E-005  -9.7469943762E-001 -2.0886480808E-002 
10396050.063 -9.5688891411E-001 -5.4337084293E-003  +5.9582362883E-003 -1.0020798072E-005  +5.9723630548E-003 +4.2776810005E-005  -9.7602546215E-001 -2.4426192045E-002 
10521195.244 -9.5226877928E-001 -7.2803497314E-003  +5.9698857367E-003 -1.4701858163E-005  +6.0227415524E-003 -3.9809383452E-006  -9.7357589006E-001 -2.0860761404E-002 
10646340.426 -9.5096522570E-001 -3.1574964523E-003  +5.9910668060E-003 -5.0797360018E-005  +5.8618630283E-003 +1.7392449081E-005  -9.8026198149E-001 -1.9343316555E-002 
10771485.607 -9.5372718573E-001 -6.6814720631E-003  +5.9728883207E-003 -3.8185389712E-005  +5.9710191563E-003 -1.8644146621E-005  -9.7777307034E-001 -2.2997856140E-002 
10896630.788 -9.4982320070E-001 -5.4240822792E-003  +6.0675637797E-003 +3.8151629269E-005  +5.9665571898E-003 -6.2721082941E-005  -9.8308402300E-001 -2.2769510746E-002 
11021775.970 -9.5599180460E-001 -2.4598538876E-003  +5.9811966494E-003 -2.8767623007E-005  +6.0695647262E-003 +1.0286923498E-005  -9.7656637430E-001 -2.4351149797E-002 
11146921.151 -9.5642995834E-001 -5.8107674122E-003  +5.9671313502E-003 -8.2470942289E-006  +5.9650251642E-003 +9.2296395451E-006  -9.7859638929E-001 -2.5014013052E-002 
11272066.333 -9.5726060867E-001 -6.3654780388E-003  +6.0312049463E-003 +9.0466113761E-005  +5.9438459575E-003 +5.1822746173E-005  -9.8010075092E-001 -2.4589180946E-002 
11397211.514 -9.5592284203E-001 -6.4492523670E-003  +6.0329409316E-003 +2.1844869480E-005  +5.9717260301E-003 +5.2002258599E-005  -9.7985589504E-001 -2.4672925472E-002 
11522356.696 -9.5461833477E-001 -6.1958432198E-003  +5.9692952782E-003 +2.5006709620E-005  +5.9901643544E-003 -6.5473141149E-005  -9.8088490963E-001 -2.4569272995E-002 
11647501.877 -9.5451307297E-001 -7.9240202904E-003  +6.0371709988E-003 +1.5327241272E-006  +5.9892530553E-003 +5.1893061027E-005  -9.8155629635E-001 -2.3946911097E-002 
11772647.059 -9.5778638124E-001 -8.6348950863E-003  +6.0282722116E-003 -1.0649440810E-005  +6.0586258769E-003 +1.1742580682E-005  -9.7956097126E-001 -2.3674190044E-002 
11897792.240 -9.5800220966E-001 -8.9882314205E-003  +5.9883054346E-003 +2.5033485144E-005  +5.9998962097E-003 +7.5285322964E-005  -9.8156380653E-001 -2.3044317961E-002 
12022937.422 -9.5938229561E-001 -1.1219084263E-002  +6.0397833586E-003 +6.4404448494E-005  +5.9791253880E-003 +6.8079447374E-005  -9.7825038433E-001 -2.0640879869E-002 
12148082.603 -9.6129524708E-001 -1.2648612261E-002  +5.9857601300E-003 -5.6608114392E-005  +5.9313839301E-003 +9.8391901702E-005  -9.7752249241E-001 -2.0993918180E-002 
12273227.785 -9.6399569511E-001 -1.2238174677E-002  +5.9609124437E-003 +3.4020515159E-005  +6.0663833283E-003 +3.5902485251E-007  -9.7708356380E-001 -2.1371692419E-002 
12398372.966 -9.5769375563E-001 -1.1312752962E-002  +6.0086660087E-003 +4.1606836021E-006  +5.9427665547E-003 +3.1160656363E-005  -9.8326718807E-001 -2.1410375834E-002 
12523518.148 -9.6158623695E-001 -9.1987252235E-003  +6.0106073506E-003 +5.3053954616E-005  +6.0132700019E-003 +3.9379345253E-005  -9.8326313496E-001 -2.5415509939E-002 
12648663.329 -9.6053934097E-001 -1.4421343803E-002  +5.9515680186E-003 +7.6907919720E-005  +6.0782488436E-003 +3.9143953472E-005  -9.8207390308E-001 -1.9632786512E-002 
12773808.511 -9.6595680714E-001 -1.1415183544E-002  +5.9445938095E-003 -1.2481352314E-005  +5.9738587588E-003 +1.4982465655E-004  -9.7880572081E-001 -2.4968504906E-002 
12898953.692 -9.6014237404E-001 -1.1104404926E-002  +5.9530315921E-003 +4.8252055421E-005  +5.9737032279E-003 +3.5029370338E-005  -9.8609662056E-001 -2.3266702890E-002 
13024098.874 -9.6687489748E-001 -1.3227462769E-002  +5.9563769028E-003 +8.5807638243E-005  +6.0242507607E-003 +9.5040770248E-005  -9.8072493076E-001 -2.0572662354E-002 
13149244.055 -9.6521276236E-001 -1.3509362936E-002  +6.0572680086E-003 +4.5097898692E-005  +6.0237664729E-003 +6.0350634158E-005  -9.8024362326E-001 -1.8783897161E-002 
13274389.237 -9.6587419510E-001 -1.1579275131E-002  +6.0217264108E-003 +7.2325579822E-005  +5.9989131987E-003 +2.5211833417E-005  -9.8006558418E-001 -2.2774308920E-002 
13399534.418 -9.6842533350E-001 -1.2667089701E-002  +6.0280580074E-003 +3.8021709770E-005  +5.9783570468E-003 +4.2713945732E-005  -9.8095506430E-001 -2.1302491426E-002 
13524679.599 -9.6671742201E-001 -1.5251368284E-002  +6.0369893909E-003 +1.6540056095E-005  +6.0274531133E-003 +4.6459492296E-005  -9.8407423496E-001 -1.8211483955E-002 
13649824.781 -9.7051066160E-001 -1.2813061476E-002  +6.0271164402E-003 +4.8188841902E-005  +6.0443556868E-003 +5.3922296502E-005  -9.8083293438E-001 -2.0505130291E-002 
13774969.962 -9.6949994564E-001 -1.2452036142E-002  +6.0562160797E-003 +7.5351796113E-005  +6.0751913115E-003 +4.2345141992E-005  -9.8240953684E-001 -2.1745771170E-002 
13900115.144 -9.6656101942E-001 -1.3766586781E-002  +6.0150441714E-003 +2.3415195756E-005  +5.9994435869E-003 +5.2156043239E-005  -9.8576915264E-001 -2.0362198353E-002 
14025260.325 -9.6906566620E-001 -1.3394147158E-002  +6.0070506297E-003 +2.1938001737E-005  +6.0120825656E-003 -1.1874013580E-005  -9.8558479548E-001 -2.0147651434E-002 
14150405.507 -9.7059315443E-001 -1.4596119523E-002  +5.9677371755E-003 +6.9523113780E-005  +6.0218619183E-003 +7.9063000157E-005  -9.8454147577E-001 -1.9293367863E-002 
14275550.688 -9.7126793861E-001 -1.3205736876E-002  +5.9911422431E-003 -3.2740063034E-006  +6.0232728720E-003 +4.9750378821E-005  -9.8371148109E-001 -1.8319159746E-002 
14400695.870 -9.7160649300E-001 -1.2980572879E-002  +6.0462858528E-003 +4.1803286877E-005  +6.0010510497E-003 +6.7561923061E-005  -9.8730838299E-001 -1.9444607198E-002 
