!  2-Port S-parameters saved by WinCal
! VAR MeasName=S-Parameters (CALIBRATED_DATA) read from VNA (P5004A)
! VAR MeasDate=22/05/2024 19:34:17
! VAR NAME=Wafer2_r2_c1_set6
! VAR FILENAME=Wafer2_r2_c1_set6.S2P
! VAR DATE=22/05/2024 19:34:17
! VAR PHYS_PORTS=1,2
! VAR ObjTypeName=DATASET
! VAR IndexType=Frequency
!
# Hz S RI R 50
9000.000 +2.0887841284E-001 -6.0507351160E-001  -1.4292625710E-003 -4.7867617104E-004  -2.8169816360E-003 +3.4749973565E-005  +5.4363001138E-002 +1.1208741367E-001 
134145.181 +5.2318358421E-001 -7.1490913630E-002  +1.2149192393E-001 +1.0873033106E-001  +1.6694507003E-001 +1.9454157352E-001  +2.4144616723E-001 +3.4224462509E-001 
259290.363 +5.8262419701E-001 +2.8632640839E-002  +3.6001208425E-001 -1.0599637777E-001  +3.9149802923E-001 -1.0234104097E-001  +4.4840675592E-001 +1.4841678739E-001 
384435.544 +6.7652106285E-001 -5.4622501135E-002  +3.6093342304E-001 -1.7299714684E-001  +3.8039785624E-001 -1.6795234382E-001  +3.6056479812E-001 +1.1014084518E-001 
509580.726 +8.0130767822E-001 +8.2050859928E-002  +2.1396529675E-001 -2.5214275718E-001  +2.2449871898E-001 -2.5958076119E-001  +6.6873306036E-001 +3.2080948353E-001 
634725.907 +9.9610257149E-001 -1.6719794273E-001  +9.6613518894E-002 -2.4494290352E-002  +9.6622057259E-002 -3.0739221722E-002  +9.3120568991E-001 -1.3851523399E-002 
759871.089 +1.4082009792E+000 -2.2985804081E-001  -2.0211564004E-001 +1.6047456861E-001  -2.0749953389E-001 +1.6024585068E-001  +1.4582095146E+000 -3.3851191401E-001 
885016.270 +1.5994935036E+000 -1.0410370827E+000  -3.5026159883E-001 -9.2760729790E-001  -3.4577012062E-001 -9.0831780434E-001  +1.5066187382E+000 +4.8151504993E-001 
1010161.452 +6.7034196854E-001 +2.0833379030E-001  -4.9829393625E-002 -3.1440737844E-001  -4.7712489963E-002 -3.1428104639E-001  +1.0135363340E+000 +5.8961188793E-001 
1135306.633 +6.3560795784E-001 +5.6604886055E-001  +3.9103955030E-002 -3.3155187964E-001  +3.5106763244E-002 -3.2544937730E-001  +9.5327877998E-001 +6.0485726595E-001 
1260451.815 +1.0792108774E+000 +3.1044867635E-001  +1.1495074630E-001 -1.6670054197E-001  +1.2103003263E-001 -1.6482283175E-001  +8.4773200750E-001 +4.4683963060E-001 
1385596.996 +1.0552744865E+000 -2.7810409665E-002  +1.3340736926E-001 -4.6690978110E-002  +1.3486152887E-001 -4.8273757100E-002  +8.4979581833E-001 +1.9150696695E-001 
1510742.178 +1.0513211489E+000 -1.7274464667E-001  +2.0942577720E-001 +1.6482505947E-002  +2.1166130900E-001 +1.3571609743E-002  +6.8288683891E-001 +1.6325953603E-001 
1635887.359 +7.1674084663E-001 -1.4170956612E-001  +2.0350134373E-001 -8.4001168609E-002  +2.0028464496E-001 -8.1155523658E-002  +8.9014625549E-001 +2.5060561299E-001 
1761032.541 +6.7621368170E-001 -2.0311336219E-001  +2.6157221198E-001 +1.0485857725E-002  +2.6229858398E-001 +1.6128376126E-002  +7.9370665550E-001 +1.7046913505E-001 
1886177.722 +6.9559162855E-001 -1.0162295401E-001  +2.4359168112E-001 +1.6453642398E-002  +2.4282574654E-001 +1.6469046474E-002  +8.0830568075E-001 +8.3014599979E-002 
2011322.904 +6.8034285307E-001 -4.8485402018E-002  +2.4949015677E-001 +7.4458131567E-003  +2.4676619470E-001 +7.7065215446E-003  +8.0213445425E-001 +9.1444760561E-002 
2136468.085 +6.9439399242E-001 -6.8000130355E-002  +2.4507449567E-001 +3.0985208228E-002  +2.4349920452E-001 +3.1286425889E-002  +7.8437578678E-001 +6.5861932933E-002 
2261613.267 +6.7874336243E-001 -6.0187496245E-002  +2.6051756740E-001 +4.2678534985E-002  +2.5875934958E-001 +4.2551498860E-002  +7.5264143944E-001 +5.2435979247E-002 
2386758.448 +6.5951585770E-001 -6.3322976232E-002  +2.6886615157E-001 +4.8851542175E-002  +2.6797008514E-001 +4.8584640026E-002  +7.5323712826E-001 +6.1913102865E-002 
2511903.630 +6.5984183550E-001 -5.6647136807E-002  +2.7901962399E-001 +6.7269094288E-002  +2.7905181050E-001 +6.7372113466E-002  +7.5111764669E-001 +4.9371972680E-002 
2637048.811 +6.4194285870E-001 -5.7562738657E-002  +2.9106265306E-001 +8.1859782338E-002  +2.9136058688E-001 +7.9797357321E-002  +7.2554421425E-001 +4.2629629374E-002 
2762193.992 +6.1891901493E-001 -4.2254000902E-002  +3.0521875620E-001 +8.6678132415E-002  +3.0452027917E-001 +8.6541220546E-002  +6.9989883900E-001 +3.8631916046E-002 
2887339.174 +5.9398645163E-001 -3.3719390631E-002  +3.1293317676E-001 +8.9303389192E-002  +3.1290608644E-001 +9.0237900615E-002  +6.9051593542E-001 +6.5933197737E-002 
3012484.355 +6.0688042641E-001 -2.8432220221E-002  +3.1463506818E-001 +9.9767863750E-002  +3.1412747502E-001 +9.9148765206E-002  +7.0970952511E-001 +8.9540690184E-002 
3137629.537 +6.2706720829E-001 -2.2644907236E-002  +3.1791621447E-001 +1.1269453168E-001  +3.1715786457E-001 +1.1248644441E-001  +7.2815048695E-001 +9.2015981674E-002 
3262774.718 +6.3232117891E-001 -1.6425564885E-002  +3.2281559706E-001 +1.1847129464E-001  +3.2292509079E-001 +1.1865621805E-001  +7.4186259508E-001 +8.3031952381E-002 
3387919.900 +6.2925213575E-001 +4.0556788445E-003  +3.3156219125E-001 +1.2865868211E-001  +3.3089324832E-001 +1.2830218673E-001  +7.4901491404E-001 +6.8109616637E-002 
3513065.081 +6.3838523626E-001 +1.3386026025E-002  +3.3714401722E-001 +1.4413198829E-001  +3.3682343364E-001 +1.4428886771E-001  +7.6363790035E-001 +6.5731763840E-002 
3638210.263 +6.5002882481E-001 +8.2044452429E-003  +3.5038101673E-001 +1.5459838510E-001  +3.4959316254E-001 +1.5515792370E-001  +7.7025526762E-001 +5.7357266545E-002 
3763355.444 +6.5656620264E-001 +6.3685625792E-003  +3.6208930612E-001 +1.5992847085E-001  +3.6190363765E-001 +1.5931406617E-001  +7.8176438808E-001 +3.9704561234E-002 
3888500.626 +6.6014832258E-001 +1.0970085859E-002  +3.8267877698E-001 +1.6924075782E-001  +3.8152211905E-001 +1.6769485176E-001  +7.8165149689E-001 +2.3756161332E-002 
4013645.807 +6.1432391405E-001 -1.7087519169E-002  +4.3022689223E-001 +1.2052392960E-001  +4.2834812403E-001 +1.1935344338E-001  +7.2987395525E-001 -1.3774573803E-002 
4138790.989 +5.6381797791E-001 -3.5911977291E-002  +4.6507164836E-001 +6.5280035138E-002  +4.6257981658E-001 +6.4400970936E-002  +6.6337007284E-001 -4.2643830180E-002 
4263936.170 +5.5525726080E-001 -3.9348930120E-002  +4.6976006031E-001 +6.2953442335E-002  +4.6854200959E-001 +6.3988998532E-002  +6.5534996986E-001 -5.8693915606E-002 
4389081.352 +5.6113785505E-001 -3.6104723811E-002  +4.7545504570E-001 +5.3176641464E-002  +4.7447976470E-001 +5.3110793233E-002  +6.4193576574E-001 -7.2917975485E-002 
4514226.533 +5.5695539713E-001 -4.5850291848E-002  +4.8382735252E-001 +4.9087315798E-002  +4.8277887702E-001 +5.1309600472E-002  +6.3128095865E-001 -8.5309937596E-002 
4639371.715 +5.6554341316E-001 -4.6723537147E-002  +4.8405045271E-001 +4.9929872155E-002  +4.8431190848E-001 +5.0289481878E-002  +6.3408088684E-001 -8.3786003292E-002 
4764516.896 +5.5152875185E-001 -4.7562055290E-002  +4.8831456900E-001 +4.3071031570E-002  +4.8868843913E-001 +4.3994680047E-002  +6.1638551950E-001 -9.6401721239E-002 
4889662.078 +5.6073689461E-001 -4.4778637588E-002  +4.9241581559E-001 +4.4205188751E-002  +4.9012008309E-001 +4.4873341918E-002  +6.0926669836E-001 -8.8070176542E-002 
5014807.259 +5.5096477270E-001 -4.7170460224E-002  +4.9119043350E-001 +4.0769301355E-002  +4.9157175422E-001 +4.1287839413E-002  +5.9666186571E-001 -8.9676767588E-002 
5139952.441 +5.5327379704E-001 -6.0784034431E-002  +4.9682950974E-001 +3.9666675031E-002  +4.9643018842E-001 +3.9657883346E-002  +5.9329813719E-001 -9.4732195139E-002 
5265097.622 +5.4501551390E-001 -5.5369246751E-002  +4.9663215876E-001 +3.4097529948E-002  +4.9426382780E-001 +3.4109584987E-002  +5.8053547144E-001 -9.9607780576E-002 
5390242.804 +5.4808640480E-001 -4.5965660363E-002  +4.9552142620E-001 +3.0904762447E-002  +4.9437355995E-001 +3.2885789871E-002  +5.6655299664E-001 -9.5759384334E-002 
5515387.985 +5.5238991976E-001 -4.1657116264E-002  +4.9705111980E-001 +2.7492314577E-002  +4.9583423138E-001 +2.8418265283E-002  +5.6334632635E-001 -1.0204624385E-001 
5640533.166 +5.4765003920E-001 -4.1879020631E-002  +5.0052696466E-001 +2.7762420475E-002  +4.9848571420E-001 +2.9269583523E-002  +5.5649727583E-001 -9.6021026373E-002 
5765678.348 +5.3984493017E-001 -5.2617035806E-002  +5.0031679869E-001 +2.6783257723E-002  +4.9937820435E-001 +2.5794334710E-002  +5.4688775539E-001 -1.0055209696E-001 
5890823.529 +5.4310655594E-001 -4.5389048755E-002  +4.9846681952E-001 +2.1987747401E-002  +4.9585831165E-001 +2.0821001381E-002  +5.4329639673E-001 -9.1588273644E-002 
6015968.711 +5.3947520256E-001 -4.7838151455E-002  +4.9826255441E-001 +1.9770924002E-002  +4.9625706673E-001 +2.0298842341E-002  +5.4294985533E-001 -8.9858695865E-002 
6141113.892 +5.3269326687E-001 -4.8952423036E-002  +4.9677899480E-001 +1.9027877599E-002  +4.9495664239E-001 +2.0407617092E-002  +5.3588616848E-001 -8.9091643691E-002 
6266259.074 +5.3452563286E-001 -4.8340037465E-002  +4.9856173992E-001 +1.6726620495E-002  +4.9648717046E-001 +1.4887411147E-002  +5.3123056889E-001 -8.6048528552E-002 
6391404.255 +5.2759200335E-001 -4.6631593257E-002  +4.9568510056E-001 +1.2287896127E-002  +4.9738803506E-001 +7.5313523412E-003  +5.2796351910E-001 -8.4346204996E-002 
6516549.437 +5.2515298128E-001 -4.4302094728E-002  +4.9444937706E-001 +1.0805178434E-002  +4.9563279748E-001 +1.0291010141E-002  +5.2140408754E-001 -8.4020815790E-002 
6641694.618 +5.3092724085E-001 -4.4950693846E-002  +4.9830275774E-001 +1.0594133288E-002  +4.9640187621E-001 +1.3825684786E-002  +5.2093732357E-001 -8.1566162407E-002 
6766839.800 +5.2629828453E-001 -4.8375062644E-002  +4.9709108472E-001 +8.5252281278E-003  +4.9789312482E-001 +6.3111800700E-003  +5.1430618763E-001 -8.6179845035E-002 
6891984.981 +5.2231609821E-001 -4.6614903957E-002  +4.9476337433E-001 +8.5441479459E-003  +4.9569174647E-001 +8.6276931688E-003  +5.0823271275E-001 -7.6884657145E-002 
7017130.163 +5.1990103722E-001 -4.9095045775E-002  +4.9566158652E-001 +6.2982100062E-003  +4.9422201514E-001 +7.5035900809E-003  +5.1190161705E-001 -6.9148011506E-002 
7142275.344 +5.1952940226E-001 -4.5610405505E-002  +4.9624162912E-001 +7.3961415328E-003  +4.9548614025E-001 +8.9975195006E-003  +5.0782066584E-001 -7.0456102490E-002 
7267420.526 +5.1598316431E-001 -4.3046906590E-002  +4.9568390846E-001 +8.5150655359E-003  +4.9690979719E-001 +7.2492463514E-003  +5.0412887335E-001 -6.7467615008E-002 
7392565.707 +5.2006864548E-001 -4.0505826473E-002  +4.9516373873E-001 +7.2329835966E-003  +4.9489304423E-001 +8.1086494029E-003  +5.0658231974E-001 -6.4564146101E-002 
7517710.889 +5.2007609606E-001 -4.5170865953E-002  +4.9589258432E-001 +1.0532129556E-002  +4.9645209312E-001 +9.0353954583E-003  +5.0073790550E-001 -6.3643977046E-002 
7642856.070 +5.1515680552E-001 -3.7645343691E-002  +4.9250966311E-001 +7.1731843054E-003  +4.9320101738E-001 +8.3552841097E-003  +5.0077587366E-001 -5.9770878404E-002 
7768001.252 +5.1598334312E-001 -3.5666264594E-002  +4.9271428585E-001 +6.6867284477E-003  +4.9335709214E-001 +8.4616653621E-003  +4.9659988284E-001 -5.7092308998E-002 
7893146.433 +5.1790261269E-001 -3.3711016178E-002  +4.9242648482E-001 +6.6427737474E-003  +4.9350535870E-001 +7.2563923895E-003  +4.9448212981E-001 -5.5892847478E-002 
8018291.615 +5.1380217075E-001 -3.3518508077E-002  +4.9246519804E-001 +3.9789229631E-003  +4.9143826962E-001 +4.4810026884E-003  +4.9238634109E-001 -4.8989921808E-002 
8143436.796 +5.1170617342E-001 -3.3385731280E-002  +4.9228492379E-001 +4.7779083252E-003  +4.9101844430E-001 +5.3130239248E-003  +4.9236232042E-001 -4.9487382174E-002 
8268581.977 +5.1137310266E-001 -3.4010045230E-002  +4.9281620979E-001 +4.8829317093E-003  +4.9206310511E-001 +5.2479133010E-003  +4.8952785134E-001 -4.5109145343E-002 
8393727.159 +5.1183468103E-001 -3.1417556107E-002  +4.9259582162E-001 +4.8843622208E-003  +4.9177041650E-001 +4.9840137362E-003  +4.9005132914E-001 -4.3839655817E-002 
8518872.340 +5.1165890694E-001 -3.2613411546E-002  +4.9322479963E-001 +3.0836611986E-003  +4.9181610346E-001 +3.4368708730E-003  +4.9440252781E-001 -3.9492189884E-002 
8644017.522 +5.0951987505E-001 -3.0448861420E-002  +4.9172455072E-001 +5.7514458895E-003  +4.9187928438E-001 +5.5666044354E-003  +4.9518179893E-001 -3.8997083902E-002 
8769162.703 +5.1125830412E-001 -2.9100649059E-002  +4.9248206615E-001 +4.9152523279E-003  +4.9050545692E-001 +5.7605281472E-003  +4.9386700988E-001 -3.8559250534E-002 
8894307.885 +5.1004880667E-001 -2.8653174639E-002  +4.9080774188E-001 +4.8544928432E-003  +4.9046880007E-001 +4.0727853775E-003  +4.9269834161E-001 -3.9725542068E-002 
9019453.066 +5.0910127163E-001 -2.8538808227E-002  +4.9127399921E-001 +2.6585012674E-003  +4.9177539349E-001 +3.3618211746E-003  +4.8973035812E-001 -3.7747532129E-002 
9144598.248 +5.0737899542E-001 -2.5552660227E-002  +4.9045538902E-001 +3.4938305616E-003  +4.9102321267E-001 +4.1086524725E-003  +4.8984807730E-001 -3.4256964922E-002 
9269743.429 +5.0615388155E-001 -2.8621330857E-002  +4.9136856198E-001 +3.2321065664E-003  +4.9162650108E-001 +3.2240003347E-003  +4.9077090621E-001 -3.0900821090E-002 
9394888.611 +5.0781679153E-001 -2.3279264569E-002  +4.9178043008E-001 +3.9701014757E-003  +4.9099427462E-001 +3.7542134523E-003  +4.8823347688E-001 -3.0491754413E-002 
9520033.792 +5.0640225410E-001 -2.5139719248E-002  +4.9134275317E-001 +2.4186521769E-003  +4.9115943909E-001 +1.7895698547E-003  +4.9220380187E-001 -2.5982275605E-002 
9645178.974 +5.0863850117E-001 -2.2229015827E-002  +4.9158456922E-001 +1.9617080688E-003  +4.9097684026E-001 +3.2632797956E-003  +4.9048733711E-001 -2.6055082679E-002 
9770324.155 +5.0846350193E-001 -1.9404560328E-002  +4.8934388161E-001 +3.2980740070E-003  +4.8838481307E-001 +4.2328685522E-003  +4.8881790042E-001 -2.3048877716E-002 
9895469.337 +5.0897371769E-001 -1.8291339278E-002  +4.9150198698E-001 +3.2668113708E-003  +4.9059039354E-001 +4.4663846493E-003  +4.8858818412E-001 -1.9969791174E-002 
10020614.518 +5.0572156906E-001 -1.8182650208E-002  +4.8929494619E-001 +2.9332339764E-003  +4.9116978049E-001 +3.2643377781E-003  +4.9317866564E-001 -1.8038243055E-002 
10145759.700 +5.0793385506E-001 -1.8633902073E-002  +4.9089413881E-001 +2.2776275873E-003  +4.9123859406E-001 +3.2973438501E-003  +4.9265244603E-001 -1.9382968545E-002 
10270904.881 +5.0866740942E-001 -1.6780868173E-002  +4.9153995514E-001 +2.3042559624E-003  +4.9038833380E-001 +2.8565824032E-003  +4.9228534102E-001 -1.8385857344E-002 
10396050.063 +5.0727438927E-001 -1.4649838209E-002  +4.9031144381E-001 +2.5558620691E-003  +4.8951512575E-001 +2.3642182350E-004  +4.8950225115E-001 -1.7525479198E-002 
10521195.244 +5.0774139166E-001 -1.4163747430E-002  +4.9032425880E-001 +2.6221871376E-003  +4.9045109749E-001 +2.0040571690E-003  +4.9144813418E-001 -1.7313301563E-002 
10646340.426 +5.0490182638E-001 -1.6164660454E-002  +4.9091935158E-001 +2.6542097330E-003  +4.9034073949E-001 +2.9498040676E-003  +4.9261519313E-001 -1.4329224825E-002 
10771485.607 +5.0632017851E-001 -1.5701696277E-002  +4.9118980765E-001 +1.4820545912E-003  +4.9112555385E-001 +2.0038038492E-003  +4.9321144819E-001 -1.2710079551E-002 
10896630.788 +5.0602388382E-001 -1.4349028468E-002  +4.9071514606E-001 +2.3955404758E-003  +4.8967865109E-001 +2.3292899132E-003  +4.9349993467E-001 -1.1779412627E-002 
11021775.970 +5.0697535276E-001 -1.2106776237E-002  +4.9040353298E-001 +2.5389939547E-003  +4.8917764425E-001 +3.5558491945E-003  +4.9557572603E-001 -1.1703670025E-002 
11146921.151 +5.0575304031E-001 -1.2531161308E-002  +4.9155977368E-001 +1.8176734447E-003  +4.9067574739E-001 +1.9130706787E-003  +4.9427351356E-001 -9.7729563713E-003 
11272066.333 +5.0553500652E-001 -1.0879173875E-002  +4.9000686407E-001 +1.4994293451E-003  +4.8909991980E-001 +1.5058070421E-003  +4.9420011044E-001 -9.3145072460E-003 
11397211.514 +5.0592738390E-001 -1.2229740620E-002  +4.9032986164E-001 +1.9369274378E-003  +4.9063348770E-001 +2.3603886366E-003  +4.9623447657E-001 -1.0628685355E-002 
11522356.696 +5.0633227825E-001 -1.1176019907E-002  +4.9030882120E-001 +1.6564726830E-003  +4.9033910036E-001 +2.2192895412E-003  +4.9552518129E-001 -9.3009173870E-003 
11647501.877 +5.0801289082E-001 -9.1342777014E-003  +4.9049350619E-001 +2.2701770067E-003  +4.9022001028E-001 +2.5078952312E-003  +4.9509596825E-001 -8.4768980742E-003 
11772647.059 +5.0729703903E-001 -9.5678418875E-003  +4.9061232805E-001 +1.9844770432E-003  +4.8975914717E-001 +1.3262927532E-003  +4.9524742365E-001 -9.0581029654E-003 
11897792.240 +5.0662851334E-001 -8.0993473530E-003  +4.9047917128E-001 +1.5196800232E-003  +4.9008166790E-001 +2.1535158157E-003  +4.9597430229E-001 -6.4467638731E-003 
12022937.422 +5.0835567713E-001 -7.7298879623E-003  +4.9028509855E-001 +1.6199648380E-003  +4.8979336023E-001 +1.7157942057E-003  +4.9734365940E-001 -6.5381228924E-003 
12148082.603 +5.0866639614E-001 -6.5235644579E-003  +4.9013039470E-001 +5.6165456772E-004  +4.8940351605E-001 +1.6184449196E-003  +4.9725633860E-001 -5.7175308466E-003 
12273227.785 +5.0786513090E-001 -6.7765116692E-003  +4.9049478769E-001 +1.1012405157E-003  +4.8976814747E-001 +6.1291456223E-004  +4.9751585722E-001 -5.5737495422E-003 
12398372.966 +5.0863403082E-001 -6.7724734545E-003  +4.9028462172E-001 +1.3322383165E-003  +4.8978498578E-001 +1.2868642807E-003  +4.9874699116E-001 -6.0405284166E-003 
12523518.148 +5.0757795572E-001 -6.8173408508E-003  +4.8947075009E-001 +8.0616772175E-004  +4.8958170414E-001 +9.8374485970E-004  +4.9825367332E-001 -5.4594725370E-003 
12648663.329 +5.0846987963E-001 -5.4682642221E-003  +4.9059101939E-001 +7.9177320004E-004  +4.8956269026E-001 +6.5176188946E-004  +4.9966713786E-001 -5.5148601532E-003 
12773808.511 +5.0905376673E-001 -6.6607594490E-003  +4.8981612921E-001 +6.7900121212E-004  +4.8930782080E-001 +6.8278610706E-004  +4.9980935454E-001 -5.0380527973E-003 
12898953.692 +5.0875049829E-001 -4.9481764436E-003  +4.8976099491E-001 +1.1956989765E-003  +4.8930981755E-001 +4.7704577446E-004  +5.0003576279E-001 -5.4832622409E-003 
13024098.874 +5.0925141573E-001 -5.0293058157E-003  +4.8969036341E-001 +9.1055780649E-004  +4.8921746016E-001 +7.6801329851E-004  +5.0083708763E-001 -5.1852241158E-003 
13149244.055 +5.0928348303E-001 -5.6415572762E-003  +4.8973211646E-001 +8.6053460836E-004  +4.8939144611E-001 +1.1012479663E-003  +5.0067394972E-001 -4.6944916248E-003 
13274389.237 +5.0940912962E-001 -5.2491538227E-003  +4.8910713196E-001 +4.4859945774E-004  +4.8870953918E-001 +7.0846080780E-004  +5.0186926126E-001 -3.3490993083E-003 
13399534.418 +5.0974863768E-001 -4.8302058131E-003  +4.8902922869E-001 +1.0322406888E-004  +4.8878499866E-001 +6.4904429018E-004  +5.0093448162E-001 -2.9775183648E-003 
13524679.599 +5.0970375538E-001 -3.7909150124E-003  +4.8946240544E-001 +4.1863892693E-004  +4.8875951767E-001 +2.7356715873E-004  +5.0318080187E-001 -1.3683231082E-003 
13649824.781 +5.1026356220E-001 -4.3181721121E-003  +4.8922470212E-001 -8.2479789853E-005  +4.8894807696E-001 +5.1356852055E-005  +5.0280469656E-001 -3.1435005367E-003 
13774969.962 +5.1045674086E-001 -3.5359598696E-003  +4.8897376657E-001 +3.1684339046E-004  +4.8855563998E-001 -5.3804367781E-005  +5.0243484974E-001 -2.5737434626E-003 
13900115.144 +5.1051831245E-001 -3.1656697392E-003  +4.8886981606E-001 +1.1847913265E-004  +4.8852664232E-001 -5.8345496655E-005  +5.0309443474E-001 -1.2457445264E-003 
14025260.325 +5.0929892063E-001 -3.9221718907E-003  +4.8867243528E-001 +5.0056725740E-004  +4.8820134997E-001 +7.0066004992E-004  +5.0317811966E-001 -1.4034211636E-003 
14150405.507 +5.1047128439E-001 -3.8501471281E-003  +4.8879772425E-001 +1.0099858046E-003  +4.8844525218E-001 +4.7875940800E-004  +5.0307697058E-001 -7.4148178101E-004 
14275550.688 +5.1168471575E-001 -2.9467344284E-003  +4.8835110664E-001 +3.0009448528E-004  +4.8786431551E-001 +7.4976682663E-004  +5.0407713652E-001 -2.3067295551E-003 
14400695.870 +5.1141059399E-001 -3.3799558878E-003  +4.8813912272E-001 +3.3031404018E-004  +4.8743456602E-001 +5.2337348461E-004  +5.0359964371E-001 -9.0636312962E-004 
