!  2-Port S-parameters saved by WinCal
! VAR MeasName=S-Parameters (CALIBRATED_DATA) read from VNA (P5004A)
! VAR MeasDate=22/05/2024 19:52:19
! VAR NAME=Wafer2_r2_c1_set9
! VAR FILENAME=Wafer2_r2_c1_set9.S2P
! VAR DATE=22/05/2024 19:52:20
! VAR PHYS_PORTS=1,2
! VAR ObjTypeName=DATASET
! VAR IndexType=Frequency
!
# Hz S RI R 50
9000.000 +2.0832623541E-001 -5.8807045221E-001  +4.2964080349E-003 +3.9180964231E-003  +1.2684018584E-003 +1.4271149412E-003  +5.6615993381E-002 +1.0117252171E-001 
134145.181 +6.6998344660E-001 +1.2965533137E-001  +2.6875811815E-001 +9.1691389680E-003  +2.6459878683E-001 -1.0008665919E-001  -1.5979185700E-001 +6.6410407424E-002 
259290.363 +1.1880147457E+000 +4.2994579673E-001  -1.6870081425E-001 -6.9142431021E-001  -2.7057874203E-001 -7.4877434969E-001  +1.0632627010E+000 +1.0965015888E+000 
384435.544 +1.0965493917E+000 +1.3726651669E-002  -7.8403800726E-002 -2.9559922218E-001  -7.3170587420E-002 -3.1807020307E-001  +9.9822103977E-001 +3.8124656677E-001 
509580.726 +1.0745390654E+000 -6.0328811407E-002  -8.4077157080E-002 -9.8091013730E-002  -8.4338940680E-002 -9.9947780371E-002  +1.0988416672E+000 +1.6259551048E-001 
634725.907 +1.0757682323E+000 -1.1813158542E-001  +1.8213182688E-002 -4.7246236354E-002  +1.8104027957E-002 -4.8183817416E-002  +1.0552985668E+000 +1.4160051942E-002 
759871.089 +1.1948592663E+000 -2.0615066588E-001  +6.6488116980E-002 +1.3893797994E-001  +6.8711593747E-002 +1.3990795612E-001  +1.0840843916E+000 -3.1711709499E-001 
885016.270 +4.0987162590E+000 -1.6572177410E-001  -1.0144931078E+000 -2.9405937195E+000  -9.8658144474E-001 -2.8262484074E+000  +5.0011587143E-001 +1.5274616480E+000 
1010161.452 +8.9675348997E-001 +2.3566240072E-001  -5.9800900519E-002 -1.3785952330E-001  -5.9813272208E-002 -1.3903866708E-001  +8.8519638777E-001 +4.6622663736E-001 
1135306.633 +9.2971432209E-001 +5.1601642370E-001  -2.7842991054E-002 -1.3442689180E-001  -2.8837725520E-002 -1.3433399796E-001  +9.4925272465E-001 +4.4977098703E-001 
1260451.815 +1.2894297838E+000 +3.3045458794E-001  +2.2050362080E-002 -7.6318234205E-002  +2.1335957572E-002 -7.6562330127E-002  +9.2457789183E-001 +3.6536175013E-001 
1385596.996 +1.2022479773E+000 +1.2870818377E-002  +3.6156348884E-002 -2.8049837798E-002  +3.5714358091E-002 -2.9389167204E-002  +9.4701653719E-001 +1.8196681142E-001 
1510742.178 +1.2341164351E+000 -4.1183680296E-002  +6.7886643112E-002 -1.0335581377E-002  +6.8209894001E-002 -1.1708229780E-002  +8.1834888458E-001 +1.9575208426E-001 
1635887.359 +9.4443500042E-001 -1.5078550577E-001  +4.6352799982E-002 -4.0308747441E-002  +4.5051850379E-002 -3.7999417633E-002  +1.0611491203E+000 +2.0707815886E-001 
1761032.541 +9.1279268265E-001 -1.3888883591E-001  +7.7755965292E-002 -7.6379366219E-003  +7.6073542237E-002 -6.6532455385E-003  +9.6605402231E-001 +2.0788085461E-001 
1886177.722 +9.1965639591E-001 -6.0573846102E-002  +6.6263340414E-002 +4.3697655201E-005  +6.6525526345E-002 +1.9723679870E-003  +9.8138821125E-001 +1.3932298124E-001 
2011322.904 +9.0303331614E-001 -4.2806148529E-002  +7.6412543654E-002 +5.7057440281E-003  +7.6608732343E-002 +6.4329551533E-003  +9.6782964468E-001 +1.2294526398E-001 
2136468.085 +8.9702922106E-001 -3.6951065063E-002  +7.6500631869E-002 +1.5420594253E-002  +7.6276183128E-002 +1.5357533470E-002  +9.4571942091E-001 +1.0148362815E-001 
2261613.267 +8.9199644327E-001 -3.5922408104E-002  +8.2262381911E-002 +2.3773932829E-002  +8.2310512662E-002 +2.3153575137E-002  +9.2673039436E-001 +1.0966035724E-001 
2386758.448 +8.8651776314E-001 -2.9508143663E-002  +8.6101770401E-002 +2.5617510080E-002  +8.5661746562E-002 +2.6307186112E-002  +9.3188852072E-001 +1.2507060170E-001 
2511903.630 +8.8177466393E-001 -1.0157108307E-002  +9.1246135533E-002 +3.2560735941E-002  +9.1722220182E-002 +3.2161694020E-002  +9.3328320980E-001 +1.3292717934E-001 
2637048.811 +8.7142157555E-001 -2.5826632977E-002  +9.8631665111E-002 +4.3357439339E-002  +9.8734021187E-002 +4.3887365609E-002  +9.1997289658E-001 +1.3509002328E-001 
2762193.992 +8.5505855083E-001 +8.2274079323E-003  +1.0353098810E-001 +4.5629955828E-002  +1.0370042920E-001 +4.5544773340E-002  +8.9941304922E-001 +1.4755359292E-001 
2887339.174 +8.3996093273E-001 +3.1680427492E-002  +1.0708830506E-001 +4.6377331018E-002  +1.0665237159E-001 +4.6775177121E-002  +8.9542543888E-001 +1.8487817049E-001 
3012484.355 +8.5885721445E-001 +4.0244095027E-002  +1.0860261321E-001 +5.1014896482E-002  +1.0899738222E-001 +5.1040548831E-002  +9.2554116249E-001 +2.0262977481E-001 
3137629.537 +8.6415141821E-001 +5.7331226766E-002  +1.0910580307E-001 +5.6559529155E-002  +1.0959836096E-001 +5.5853947997E-002  +9.6309566498E-001 +2.1974074841E-001 
3262774.718 +8.7241834402E-001 +7.6648399234E-002  +1.1032753438E-001 +5.7810865343E-002  +1.0973016173E-001 +5.6892830878E-002  +9.8071175814E-001 +2.1689809859E-001 
3387919.900 +8.7263548374E-001 +7.9472981393E-002  +1.1457918584E-001 +6.4520150423E-002  +1.1390925199E-001 +6.4825147390E-002  +1.0031154156E+000 +2.2122214735E-001 
3513065.081 +8.8516622782E-001 +9.2992454767E-002  +1.1735009402E-001 +7.2155803442E-002  +1.1707117409E-001 +7.1465261281E-002  +1.0225846767E+000 +2.2679585218E-001 
3638210.263 +9.0134882927E-001 +1.0576803982E-001  +1.2218602002E-001 +7.8635871410E-002  +1.2174655497E-001 +7.7984452248E-002  +1.0517510176E+000 +2.1617114544E-001 
3763355.444 +9.2040348053E-001 +1.0719840229E-001  +1.2641374767E-001 +8.1666424870E-002  +1.2641818821E-001 +8.2376480103E-002  +1.0805897713E+000 +1.9123841822E-001 
3888500.626 +9.3486636877E-001 +1.2307645380E-001  +1.3480985165E-001 +8.8872812688E-002  +1.3476969302E-001 +8.8928580284E-002  +1.1019284725E+000 +1.9004206359E-001 
4013645.807 +8.8692885637E-001 +5.8069437742E-002  +1.6555005312E-001 +6.6705852747E-002  +1.6520720720E-001 +6.6087283194E-002  +1.0592604876E+000 +8.2698449492E-002 
4138790.989 +8.2279610634E-001 -7.8198015690E-003  +1.9165639579E-001 +3.6366097629E-002  +1.9036951661E-001 +3.5836108029E-002  +9.8136985302E-001 -1.7488390207E-002 
4263936.170 +8.1206661463E-001 +5.8481395245E-003  +1.9360816479E-001 +3.5425789654E-002  +1.9254326820E-001 +3.5973928869E-002  +9.7031825781E-001 -5.4342366755E-002 
4389081.352 +8.2085955143E-001 -8.8096186519E-003  +1.9802665710E-001 +2.9106406495E-002  +1.9757327437E-001 +2.8864083812E-002  +9.4549173117E-001 -6.7265108228E-002 
4514226.533 +8.2251328230E-001 -2.1324384958E-002  +2.0237013698E-001 +2.8254266828E-002  +2.0139461756E-001 +2.9492933303E-002  +9.4441676140E-001 -8.5238546133E-002 
4639371.715 +8.3468317986E-001 -3.0451044440E-002  +2.0199073851E-001 +2.9467659071E-002  +2.0242373645E-001 +2.9616083950E-002  +9.4469577074E-001 -7.6105818152E-002 
4764516.896 +8.2217216492E-001 -2.4845048785E-002  +2.0463927090E-001 +2.6016909629E-002  +2.0487391949E-001 +2.6488151401E-002  +9.2882370949E-001 -9.7433865070E-002 
4889662.078 +8.2567530870E-001 -3.0034242198E-002  +2.0872893929E-001 +2.5640308857E-002  +2.0732071996E-001 +2.5630621240E-002  +9.1462135315E-001 -9.8629117012E-002 
5014807.259 +8.1429886818E-001 -3.1903833151E-002  +2.0744308829E-001 +2.4496421218E-002  +2.0669782162E-001 +2.4769335985E-002  +9.0455996990E-001 -9.5389626920E-002 
5139952.441 +8.2390761375E-001 -3.9801836014E-002  +2.0960016549E-001 +2.3649223149E-002  +2.0983594656E-001 +2.3697108030E-002  +8.9003074169E-001 -9.9462002516E-002 
5265097.622 +8.2296901941E-001 -3.3502738923E-002  +2.0973372459E-001 +2.0688446239E-002  +2.0910042524E-001 +2.1223258227E-002  +8.7417960167E-001 -1.0349208862E-001 
5390242.804 +8.1882679462E-001 -3.5821884871E-002  +2.1043595672E-001 +1.9405599684E-002  +2.0978903770E-001 +1.9836368039E-002  +8.6698275805E-001 -1.0124627501E-001 
5515387.985 +8.2602703571E-001 -3.4851737320E-002  +2.1108572185E-001 +1.7740963027E-002  +2.1094478667E-001 +1.8551288173E-002  +8.6372780800E-001 -1.1186868697E-001 
5640533.166 +8.2035189867E-001 -4.1374694556E-002  +2.1446454525E-001 +1.7361186445E-002  +2.1380202472E-001 +1.7661793157E-002  +8.5307341814E-001 -1.1464441568E-001 
5765678.348 +8.1208497286E-001 -4.0463030338E-002  +2.1239699423E-001 +1.7048873007E-002  +2.1268966794E-001 +1.7158867791E-002  +8.4578114748E-001 -1.1070131510E-001 
5890823.529 +8.1062990427E-001 -4.2630799115E-002  +2.1275235713E-001 +1.4347277582E-002  +2.1179439127E-001 +1.3774350286E-002  +8.3965831995E-001 -1.0252861679E-001 
6015968.711 +8.0988758802E-001 -4.1884541512E-002  +2.1231094003E-001 +1.3254562393E-002  +2.1138352156E-001 +1.2733211741E-002  +8.3182042837E-001 -1.0033844411E-001 
6141113.892 +8.0300086737E-001 -4.9286745489E-002  +2.1249440312E-001 +1.2431086972E-002  +2.1159778535E-001 +1.3408345170E-002  +8.2414686680E-001 -1.0402281582E-001 
6266259.074 +8.0249518156E-001 -4.3753914535E-002  +2.1153615415E-001 +1.1501227506E-002  +2.1170908213E-001 +1.1624017730E-002  +8.1867742538E-001 -9.8708540201E-002 
6391404.255 +8.0059540272E-001 -4.7884047031E-002  +2.1130509675E-001 +8.2853240892E-003  +2.1088111401E-001 +8.3804102615E-003  +8.1263667345E-001 -9.7715750337E-002 
6516549.437 +8.0237925053E-001 -4.1613616049E-002  +2.1106930077E-001 +8.9462613687E-003  +2.1112364531E-001 +9.5213949680E-003  +8.0844324827E-001 -9.7066946328E-002 
6641694.618 +8.0428576469E-001 -3.8918621838E-002  +2.1209315956E-001 +9.7133256495E-003  +2.1265642345E-001 +9.8255388439E-003  +8.0691236258E-001 -8.7903141975E-002 
6766839.800 +8.0672365427E-001 -3.8227953017E-002  +2.1220725775E-001 +8.4356348962E-003  +2.1212276816E-001 +7.9566920176E-003  +8.0109983683E-001 -9.2179566622E-002 
6891984.981 +8.0416423082E-001 -3.8509801030E-002  +2.1053165197E-001 +7.8564034775E-003  +2.1060106158E-001 +7.2964215651E-003  +7.8679186106E-001 -9.0444028378E-002 
7017130.163 +7.9707485437E-001 -3.5579070449E-002  +2.1047936380E-001 +7.1542849764E-003  +2.1065157652E-001 +7.4821040034E-003  +7.9218298197E-001 -8.1447884440E-002 
7142275.344 +7.9626595974E-001 -3.7511393428E-002  +2.1117745340E-001 +8.1043383107E-003  +2.1098192036E-001 +8.3993738517E-003  +7.8664463758E-001 -7.5244367123E-002 
7267420.526 +7.9639238119E-001 -2.8835147619E-002  +2.1071122587E-001 +7.7475737780E-003  +2.1077646315E-001 +8.1406775862E-003  +7.8450810909E-001 -7.1816742420E-002 
7392565.707 +7.9787868261E-001 -3.2159365714E-002  +2.1133373678E-001 +7.5883995742E-003  +2.1141347289E-001 +7.4466876686E-003  +7.8565895557E-001 -7.5446113944E-002 
7517710.889 +7.9637891054E-001 -3.6765277386E-002  +2.1143759787E-001 +8.2655828446E-003  +2.1146750450E-001 +8.2175303251E-003  +7.8141802549E-001 -7.4813216925E-002 
7642856.070 +7.9036593437E-001 -2.9344394803E-002  +2.1016643941E-001 +7.1232747287E-003  +2.1008822322E-001 +7.4648484588E-003  +7.7481007576E-001 -7.1406625211E-002 
7768001.252 +7.9646182060E-001 -3.1598821282E-002  +2.1036997437E-001 +7.2901956737E-003  +2.1040579677E-001 +8.1708654761E-003  +7.7242052555E-001 -6.8102478981E-002 
7893146.433 +7.9336524010E-001 -2.7613550425E-002  +2.1043995023E-001 +6.5301358700E-003  +2.1024431288E-001 +7.1721170098E-003  +7.7299350500E-001 -6.0826465487E-002 
8018291.615 +7.8654587269E-001 -2.6861861348E-002  +2.0993860066E-001 +5.2269957960E-003  +2.0989431441E-001 +5.1663666964E-003  +7.6870018244E-001 -5.8552131057E-002 
8143436.796 +7.8537362814E-001 -3.0988708138E-002  +2.1032372117E-001 +5.8623030782E-003  +2.0962537825E-001 +5.9985406697E-003  +7.6926732063E-001 -5.2321314812E-002 
8268581.977 +7.8281360865E-001 -2.8733238578E-002  +2.0997393131E-001 +5.4704770446E-003  +2.0999559760E-001 +5.9525780380E-003  +7.6749104261E-001 -4.5820802450E-002 
8393727.159 +7.8468036652E-001 -2.5951921940E-002  +2.1004649997E-001 +5.4351463914E-003  +2.0986841619E-001 +5.5553354323E-003  +7.6940256357E-001 -4.2315393686E-002 
8518872.340 +7.8124302626E-001 -2.9618933797E-002  +2.1035915613E-001 +4.4011212885E-003  +2.0972381532E-001 +4.5073777437E-003  +7.7024745941E-001 -3.8407728076E-002 
8644017.522 +7.8419429064E-001 -2.3404195905E-002  +2.0974856615E-001 +5.9956721961E-003  +2.0949192345E-001 +5.9419013560E-003  +7.7208983898E-001 -4.3019890785E-002 
8769162.703 +7.8672975302E-001 -2.6782646775E-002  +2.0978380740E-001 +5.7509206235E-003  +2.0945835114E-001 +5.9839449823E-003  +7.7266407013E-001 -4.0134817362E-002 
8894307.885 +7.8436845541E-001 -2.5287672877E-002  +2.0952354372E-001 +5.4657272995E-003  +2.0943322778E-001 +5.6876428425E-003  +7.6826524734E-001 -4.1155770421E-002 
9019453.066 +7.8193521500E-001 -2.8535932302E-002  +2.0994013548E-001 +4.7570019960E-003  +2.1006770432E-001 +5.3812935948E-003  +7.6817601919E-001 -4.0008097887E-002 
9144598.248 +7.8007394075E-001 -2.7323484421E-002  +2.1000941098E-001 +4.8100799322E-003  +2.1005763113E-001 +4.9626603723E-003  +7.6594060659E-001 -3.5682260990E-002 
9269743.429 +7.8314465284E-001 -2.3697972298E-002  +2.0994365215E-001 +5.0933733582E-003  +2.0984569192E-001 +5.1707550883E-003  +7.6606541872E-001 -3.5215705633E-002 
9394888.611 +7.8311705589E-001 -2.1320730448E-002  +2.0985759795E-001 +5.0092190504E-003  +2.0971636474E-001 +5.1650702953E-003  +7.6534265280E-001 -3.4278273582E-002 
9520033.792 +7.8154367208E-001 -2.4695575237E-002  +2.0960399508E-001 +4.2845457792E-003  +2.0928105712E-001 +4.3219402432E-003  +7.6727437973E-001 -3.0167907476E-002 
9645178.974 +7.8223502636E-001 -1.9712120295E-002  +2.0951691270E-001 +4.5651569963E-003  +2.0948024094E-001 +4.8398077488E-003  +7.6532208920E-001 -3.0134797096E-002 
9770324.155 +7.8086799383E-001 -1.8909990788E-002  +2.0939993858E-001 +3.5990476608E-003  +2.0881107450E-001 +4.8269480467E-003  +7.6201975346E-001 -2.6982665062E-002 
9895469.337 +7.8273659945E-001 -1.6486972570E-002  +2.0968419313E-001 +4.4281259179E-003  +2.0998683572E-001 +5.2200928330E-003  +7.6411950588E-001 -2.3279070854E-002 
10020614.518 +7.8157925606E-001 -1.5861898661E-002  +2.0884364843E-001 +4.0805339813E-003  +2.1004684269E-001 +3.7724152207E-003  +7.6724952459E-001 -2.0436346531E-002 
10145759.700 +7.8220844269E-001 -1.4097720385E-002  +2.0941625535E-001 +3.6334693432E-003  +2.0882508159E-001 +3.7631839514E-003  +7.6655066013E-001 -2.2463887930E-002 
10270904.881 +7.8184223175E-001 -1.4012843370E-002  +2.1010200679E-001 +3.7334412336E-003  +2.0972773433E-001 +3.2764002681E-003  +7.6736271381E-001 -2.0629376173E-002 
10396050.063 +7.8184884787E-001 -1.3363361359E-002  +2.0968456566E-001 +2.8933808208E-003  +2.1000355482E-001 +3.7685111165E-003  +7.6669621468E-001 -1.8220663071E-002 
10521195.244 +7.8242695332E-001 -1.2769341469E-002  +2.0981276035E-001 +3.5811513662E-003  +2.1009466052E-001 +3.5414397717E-003  +7.6759445667E-001 -1.8153458834E-002 
10646340.426 +7.8118044138E-001 -1.3482689857E-002  +2.1002367139E-001 +4.2647495866E-003  +2.1016040444E-001 +4.2942315340E-003  +7.6709574461E-001 -1.5159279108E-002 
10771485.607 +7.8291928768E-001 -1.1629134417E-002  +2.0948040485E-001 +4.0584355593E-003  +2.1007657051E-001 +4.2697936296E-003  +7.6860332489E-001 -1.3363659382E-002 
10896630.788 +7.8285098076E-001 -1.0404139757E-002  +2.0912688971E-001 +4.1810423136E-003  +2.0996525884E-001 +4.1984692216E-003  +7.6877355576E-001 -1.3323009014E-002 
11021775.970 +7.8277796507E-001 -9.1575682163E-003  +2.0953691006E-001 +3.9720237255E-003  +2.0945101976E-001 +4.0332376957E-003  +7.7006989717E-001 -1.2345731258E-002 
11146921.151 +7.8364777565E-001 -9.8955035210E-003  +2.0941632986E-001 +3.0218809843E-003  +2.1062943339E-001 +3.6389678717E-003  +7.7020615339E-001 -1.2309491634E-002 
11272066.333 +7.8064489365E-001 -1.0276645422E-002  +2.0954871178E-001 +3.5204887390E-003  +2.0950445533E-001 +2.9235333204E-003  +7.6991724968E-001 -1.0919004679E-002 
11397211.514 +7.8273659945E-001 -8.4365010262E-003  +2.0964278281E-001 +3.2339170575E-003  +2.0957848430E-001 +3.8749426603E-003  +7.7192270756E-001 -9.6890032291E-003 
11522356.696 +7.8249096870E-001 -9.1252923012E-003  +2.1000558138E-001 +3.6968961358E-003  +2.0944328606E-001 +3.8184821606E-003  +7.7157413960E-001 -9.2979669571E-003 
11647501.877 +7.8112220764E-001 -8.6309611797E-003  +2.0915079117E-001 +3.1603500247E-003  +2.0930144191E-001 +3.9459615946E-003  +7.7051365376E-001 -8.5631906986E-003 
11772647.059 +7.8382706642E-001 -8.8388323784E-003  +2.0920123160E-001 +3.7134513259E-003  +2.0932932198E-001 +3.3554062247E-003  +7.7046197653E-001 -9.0401172638E-003 
11897792.240 +7.8163439035E-001 -8.9292526245E-003  +2.0971368253E-001 +2.9844939709E-003  +2.0925776660E-001 +3.3572986722E-003  +7.7228808403E-001 -7.9377889633E-003 
12022937.422 +7.8322339058E-001 -6.9290697575E-003  +2.0950727165E-001 +3.6124810576E-003  +2.0997489989E-001 +3.8152039051E-003  +7.7270770073E-001 -7.4819922447E-003 
12148082.603 +7.8530567884E-001 -7.1797072887E-003  +2.0978432894E-001 +3.2227188349E-003  +2.0965731144E-001 +3.4310594201E-003  +7.7502226830E-001 -6.6956281662E-003 
12273227.785 +7.8484493494E-001 -6.2103867531E-003  +2.0936423540E-001 +3.0801147223E-003  +2.0970687270E-001 +2.9491186142E-003  +7.7394789457E-001 -6.6751837730E-003 
12398372.966 +7.8444176912E-001 -6.1528980732E-003  +2.1020057797E-001 +3.2305419445E-003  +2.0996598899E-001 +3.0542984605E-003  +7.7435332537E-001 -6.6056102514E-003 
12523518.148 +7.8348577023E-001 -5.7429373264E-003  +2.0951613784E-001 +2.4775713682E-003  +2.0922273397E-001 +2.9287040234E-003  +7.7512371540E-001 -6.6438913345E-003 
12648663.329 +7.8467911482E-001 -4.5741796494E-003  +2.0960740745E-001 +3.0222833157E-003  +2.0968140662E-001 +2.7217864990E-003  +7.7531379461E-001 -6.0238838196E-003 
12773808.511 +7.8528153896E-001 -6.4718723297E-003  +2.0918031037E-001 +2.8109848499E-003  +2.0909267664E-001 +3.4795776010E-003  +7.7700644732E-001 -4.6624243259E-003 
12898953.692 +7.8547132015E-001 -5.3542107344E-003  +2.0897087455E-001 +2.8425194323E-003  +2.0906342566E-001 +3.3000670373E-003  +7.7723819017E-001 -5.6556165218E-003 
13024098.874 +7.8571826220E-001 -5.7984143496E-003  +2.0929025114E-001 +2.8315186501E-003  +2.0922285318E-001 +3.1659454107E-003  +7.7717989683E-001 -4.0194317698E-003 
13149244.055 +7.8622621298E-001 -5.3022019565E-003  +2.0922438800E-001 +3.5779299214E-003  +2.0878848433E-001 +3.7662228569E-003  +7.7743482590E-001 -3.7174299359E-003 
13274389.237 +7.8696054220E-001 -5.4234098643E-003  +2.0893783867E-001 +3.1204661354E-003  +2.0902821422E-001 +3.0016261153E-003  +7.7889519930E-001 -4.2533967644E-003 
13399534.418 +7.8573602438E-001 -4.3341349810E-003  +2.0879027247E-001 +2.8798454441E-003  +2.0869375765E-001 +3.4083945211E-003  +7.7870315313E-001 -2.2051762789E-003 
13524679.599 +7.8671497107E-001 -3.9965771139E-003  +2.0848245919E-001 +3.3872714266E-003  +2.0895479620E-001 +3.4697437659E-003  +7.7881503105E-001 -2.2005029023E-003 
13649824.781 +7.8717786074E-001 -4.7888606787E-003  +2.0872612298E-001 +2.8858538717E-003  +2.0853236318E-001 +3.3637247980E-003  +7.8048795462E-001 -1.8687620759E-003 
13774969.962 +7.8740251064E-001 -3.5954862833E-003  +2.0877018571E-001 +2.9750987887E-003  +2.0846867561E-001 +2.8778351843E-003  +7.7965307236E-001 -1.8906146288E-003 
13900115.144 +7.8745883703E-001 -2.9501318932E-003  +2.0884156227E-001 +3.1331144273E-003  +2.0887328684E-001 +2.8244927526E-003  +7.7974587679E-001 -2.0561218262E-003 
14025260.325 +7.8693836927E-001 -2.0205378532E-003  +2.0875781775E-001 +3.3251717687E-003  +2.0875236392E-001 +3.4002661705E-003  +7.8035742044E-001 -2.4529546499E-003 
14150405.507 +7.8760486841E-001 -2.3964047432E-003  +2.0850352943E-001 +3.4647509456E-003  +2.0859354734E-001 +3.2900050282E-003  +7.8019601107E-001 -1.8348395824E-003 
14275550.688 +7.8706872463E-001 -1.9002556801E-003  +2.0844346285E-001 +3.0563771725E-003  +2.0832486451E-001 +3.6264583468E-003  +7.8116142750E-001 -1.6657412052E-003 
14400695.870 +7.8691297770E-001 -2.6401281357E-003  +2.0815718174E-001 +3.2065212727E-003  +2.0815792680E-001 +3.3230558038E-003  +7.8114867210E-001 -1.0369122028E-003 
