!  2-Port S-parameters saved by WinCal
! VAR MeasName=S-Parameters (CALIBRATED_DATA) read from VNA (P5004A)
! VAR MeasDate=22/05/2024 19:01:59
! VAR NAME=Wafer2_r2_c1_formed_neg1.2dc_repeat4
! VAR FILENAME=Wafer2_r2_c1_formed_neg1.2dc_repeat4.S2P
! VAR DATE=22/05/2024 19:01:59
! VAR PHYS_PORTS=1,2
! VAR ObjTypeName=DATASET
! VAR IndexType=Frequency
!
# Hz S RI R 50
9000.000 +2.2327947617E-001 -5.9149491787E-001  +3.4402844030E-003 -8.7191769853E-003  -1.4353838051E-003 +1.2173834257E-003  +4.7634534538E-002 +1.0382099450E-001 
134145.181 +6.2339365482E-001 -5.8641240001E-002  +4.7777034342E-003 -5.8593275025E-003  -9.4259716570E-003 -2.1093466785E-004  -1.7227470875E-001 -3.9877873659E-001 
259290.363 +8.1207382679E-001 -1.1688765883E-001  +1.5855934471E-003 -1.2328362092E-002  -2.2706291638E-003 +1.2684880756E-002  +1.5732239485E+000 -1.1465219259E+000 
384435.544 +8.5520392656E-001 -2.7418527007E-001  -2.2032072768E-002 +5.0633288920E-003  +2.5510486215E-002 -3.3426254988E-002  +5.9302148819E+000 +2.4171063900E+000 
509580.726 +9.3998134136E-001 -1.3352504373E-001  -5.4842899553E-003 +2.8908955865E-003  +1.7779552145E-003 -5.2916519344E-003  +1.7956707478E+000 -3.0754292011E-001 
634725.907 +1.0745007992E+000 -1.9055759907E-001  +6.9398172200E-003 +2.6473549660E-003  +1.2866205070E-003 -2.4924252648E-003  +1.9932689667E+000 +1.2223466635E+000 
759871.089 +1.2662875652E+000 -8.6392819881E-002  +5.4958008695E-004 +1.0298102861E-003  +1.9317177357E-003 -1.6677882522E-003  +1.4482731819E+000 +3.8269686699E-001 
885016.270 +9.0765035152E-001 -7.7078002691E-001  +1.1665521888E-003 +5.4779089987E-004  +1.1804667301E-003 +3.1777383992E-004  +1.2204188108E+000 +4.8712188005E-001 
1010161.452 +1.0847787857E+000 -8.4283962846E-002  +1.0264941957E-003 +6.8228115560E-004  +1.3283709995E-003 +2.7287873672E-004  +1.1923726797E+000 +4.8595207930E-001 
1135306.633 +1.0540803671E+000 -2.9677227139E-002  +1.2988230446E-003 +2.6071301545E-004  -4.3432612438E-004 -7.2668527719E-004  +1.3035572767E+000 +6.0528683662E-001 
1260451.815 +1.3682003021E+000 -3.6161184311E-002  +1.4712258708E-003 -7.5573060894E-004  +8.5195084102E-004 -1.1536167585E-004  +1.1003417969E+000 +7.0096975565E-001 
1385596.996 +1.2727500200E+000 -1.1836016178E-001  +4.9732089974E-004 -2.2886195802E-004  +5.0590542742E-006 +1.4661203522E-006  +9.8630905151E-001 +4.8147827387E-001 
1510742.178 +1.4202595949E+000 -2.0725440979E-001  +4.8771387083E-004 +4.4572551269E-004  +6.4957462018E-004 +4.7711929074E-004  +6.7934787273E-001 +5.7283222675E-001 
1635887.359 +9.7776901722E-001 -2.9864060879E-001  +9.7399461083E-004 +1.8304929836E-004  +8.1729661906E-004 +2.0842794038E-004  +1.5198122263E+000 +6.3070344925E-001 
1761032.541 +1.0406854153E+000 -3.0499240756E-001  +6.7949114600E-004 +5.3688348271E-004  +6.2548939604E-004 +1.0478477925E-003  +1.1043369770E+000 +8.2600265741E-001 
1886177.722 +9.8807811737E-001 -1.8952566385E-001  +7.7138323104E-004 +9.1276870808E-004  +5.0433690194E-004 +1.2175960001E-003  +1.1448684931E+000 +5.5821323395E-001 
2011322.904 +9.9458688498E-001 -1.5624260902E-001  +9.3098153593E-004 +1.0652185883E-003  +5.3689221386E-004 +9.2606781982E-004  +1.1577702761E+000 +5.2570164204E-001 
2136468.085 +9.8676669598E-001 -1.3256463408E-001  +1.0156007484E-003 +9.4038108364E-004  +5.4567819461E-004 +1.0256854584E-003  +1.0960564613E+000 +4.7700688243E-001 
2261613.267 +9.8761677742E-001 -1.0849705338E-001  +5.6585180573E-004 +1.1329841800E-003  +6.8842864130E-004 +8.6140021449E-004  +1.0519578457E+000 +5.1575529575E-001 
2386758.448 +9.8010891676E-001 -8.8683485985E-002  +6.2721641734E-004 +1.0247185128E-003  +7.4181426316E-004 +1.0707087349E-003  +1.0693696737E+000 +5.4576867819E-001 
2511903.630 +9.7395706177E-001 -6.6001623869E-002  +7.5273960829E-004 +1.7032264732E-003  +8.5832749028E-004 +1.2760913232E-003  +1.1133550406E+000 +5.8036106825E-001 
2637048.811 +9.8134183884E-001 -4.1992522776E-002  +8.6123874644E-004 +1.4651913662E-003  +6.2712572981E-004 +1.5212378930E-003  +1.1171344519E+000 +6.0879850388E-001 
2762193.992 +9.9290573597E-001 -2.2170662880E-002  +9.6166762523E-004 +1.6553670866E-003  +1.1171095539E-003 +1.7193716485E-003  +1.1316444874E+000 +5.1576298475E-001 
2887339.174 +9.6381175518E-001 -1.3645201921E-002  +1.0962696979E-003 +2.7404536377E-004  +7.0029689232E-004 +1.4083113056E-003  +9.9131351709E-001 +5.0883245468E-001 
3012484.355 +9.7054350376E-001 +6.2707066536E-004  +6.5761996666E-004 +1.8413795624E-003  +9.7178132273E-004 +1.7438195646E-003  +9.4604361057E-001 +6.1631542444E-001 
3137629.537 +9.8189985752E-001 +3.5703599453E-002  +2.1933810785E-004 +3.1033102423E-003  +5.0546706188E-004 +1.9875823054E-003  +9.6549069881E-001 +7.2387880087E-001 
3262774.718 +9.6622133255E-001 +4.4973909855E-002  +8.1392517313E-004 +2.1397573873E-003  +3.4177949419E-004 +1.3049116824E-003  +1.0109227896E+000 +7.9083293676E-001 
3387919.900 +9.6696180105E-001 +8.3032250404E-002  +4.3363840086E-004 +2.0590811037E-003  +5.7422416285E-004 +2.0032604225E-003  +1.0548895597E+000 +8.5926878452E-001 
3513065.081 +9.8627525568E-001 +9.1927587986E-002  +3.5809422843E-004 +2.3255110718E-003  +4.8363499809E-004 +2.1943058819E-003  +1.0903046131E+000 +9.3410533667E-001 
3638210.263 +9.9921023846E-001 +1.2065801024E-001  +1.2365111616E-004 +2.8711352497E-003  +7.5326836668E-004 +2.7706946712E-003  +1.1850910187E+000 +9.7498983145E-001 
3763355.444 +1.0114786625E+000 +1.3492679596E-001  +2.1178869065E-004 +2.9250367079E-003  +4.7384307254E-004 +2.7625251096E-003  +1.2761473656E+000 +1.0117920637E+000 
3888500.626 +1.0378135443E+000 +1.5015390515E-001  +6.5498461481E-004 +2.5540231727E-003  -3.2163457945E-004 +3.0229680706E-003  +1.3588767052E+000 +1.0773142576E+000 
4013645.807 +9.9482738972E-001 +6.4996510744E-002  +1.6551825684E-003 +2.9542655684E-003  +1.5814000508E-003 +3.3893547952E-003  +1.6474062204E+000 +8.7329268456E-001 
4138790.989 +9.2516416311E-001 -1.1410593987E-002  +2.7495154645E-003 +3.6786356941E-003  +2.0029686857E-003 +3.5075028427E-003  +1.7829450369E+000 +5.5415153503E-001 
4263936.170 +9.2367064953E-001 +6.9258213043E-003  +3.4662550315E-003 +3.5544121638E-003  +3.5717352293E-003 +3.0626808293E-003  +1.8330678940E+000 +4.5972734690E-001 
4389081.352 +9.3587553501E-001 +7.3013156652E-003  +2.7152048424E-003 +3.6388312001E-003  +2.8920485638E-003 +3.3158971928E-003  +1.8887476921E+000 +3.1667959690E-001 
4514226.533 +9.4143509865E-001 +1.4578282833E-002  +2.4237898178E-003 +3.7086037919E-003  +3.2342802733E-003 +3.4833089449E-003  +1.9192644358E+000 +2.2539100051E-001 
4639371.715 +9.6039956808E-001 +1.1785030365E-003  +4.0669022128E-003 +3.2859873027E-003  +3.4812621307E-003 +3.5293414257E-003  +1.9179823399E+000 +1.4386817813E-001 
4764516.896 +9.5683181286E-001 +5.8281421661E-004  +3.8006796967E-003 +3.6100996658E-003  +3.7439567968E-003 +3.6105315667E-003  +1.9253985882E+000 +4.6929150820E-002 
4889662.078 +9.5907938480E-001 +7.0722401142E-003  +3.2660318539E-003 +3.4209950827E-003  +3.6517523695E-003 +3.3642048948E-003  +1.9249283075E+000 -3.2933622599E-002 
5014807.259 +9.5495027304E-001 +7.4535608292E-004  +3.5659705754E-003 +2.8903777711E-003  +3.4627956338E-003 +3.0701498035E-003  +1.8687118292E+000 -1.1177447438E-001 
5139952.441 +9.6975761652E-001 -1.1315643787E-003  +3.8382338826E-003 +3.4072035924E-003  +3.4913155250E-003 +2.7445869055E-003  +1.8604580164E+000 -1.9847518206E-001 
5265097.622 +9.7093641758E-001 +4.7098249197E-003  +3.4961851779E-003 +3.3468098845E-003  +3.9677638561E-003 +3.4881434403E-003  +1.7956970930E+000 -2.6115435362E-001 
5390242.804 +9.7756463289E-001 +3.3028572798E-003  +4.0586288087E-003 +3.4420290031E-003  +4.2510931380E-003 +3.2157052774E-003  +1.7541344166E+000 -3.0937737226E-001 
5515387.985 +9.8167139292E-001 +2.8222948313E-003  +3.7559496704E-003 +3.8687130436E-003  +4.1568037122E-003 +3.5722844768E-003  +1.7063900232E+000 -3.8039541245E-001 
5640533.166 +9.8897290230E-001 +4.5913904905E-003  +3.8054389879E-003 +3.3367755823E-003  +3.9981016889E-003 +3.3108224161E-003  +1.6847729683E+000 -4.2317339778E-001 
5765678.348 +9.8063206673E-001 +1.9834339619E-003  +3.8537322544E-003 +2.9335450381E-003  +3.6379047669E-003 +3.5230219364E-003  +1.6229517460E+000 -4.5110049844E-001 
5890823.529 +9.8476469517E-001 -7.4938982725E-003  +4.3519372120E-003 +3.3844572026E-003  +3.4643677063E-003 +3.2981871627E-003  +1.5540342331E+000 -4.8337140679E-001 
6015968.711 +9.9233680964E-001 -5.6161433458E-003  +3.5973961931E-003 +2.9434298631E-003  +4.6626371332E-003 +2.9187120963E-003  +1.5103472471E+000 -5.0468480587E-001 
6141113.892 +9.8740857840E-001 -5.7669579983E-003  +4.0993778966E-003 +3.3530415967E-003  +3.9742463268E-003 +2.8020001482E-003  +1.4562264681E+000 -5.2209669352E-001 
6266259.074 +9.9143290520E-001 -5.7176649570E-003  +3.7320377305E-003 +2.6562979911E-003  +3.7020423915E-003 +3.2095864881E-003  +1.3996930122E+000 -5.3211653233E-001 
6391404.255 +9.9002468586E-001 -1.2074068189E-002  +3.7978400942E-003 +3.1170067377E-003  +3.9134067483E-003 +3.0163209885E-003  +1.3457884789E+000 -5.4508709908E-001 
6516549.437 +9.8639416695E-001 -8.2645863295E-003  +3.9608003572E-003 +2.5143052917E-003  +3.6968418863E-003 +3.2949098386E-003  +1.2990155220E+000 -5.4933810234E-001 
6641694.618 +9.9535787106E-001 -3.5233795643E-003  +3.5097710788E-003 +3.2628346235E-003  +3.6122002639E-003 +2.9603336006E-003  +1.2681020498E+000 -5.5052018166E-001 
6766839.800 +1.0033489466E+000 -4.3456107378E-003  +3.7886286154E-003 +2.7835154906E-003  +3.9088600315E-003 +2.8038718738E-003  +1.2210699320E+000 -5.4819655418E-001 
6891984.981 +9.9997389317E-001 -5.6994557381E-003  +3.5838056356E-003 +2.7392876800E-003  +3.8675414398E-003 +3.0735675246E-003  +1.1694587469E+000 -5.4835760593E-001 
7017130.163 +9.9710947275E-001 -4.6178251505E-003  +3.1697328668E-003 +3.0667025130E-003  +3.4895204008E-003 +2.9018148780E-003  +1.1408762932E+000 -5.3221791983E-001 
7142275.344 +9.9799919128E-001 -3.8373172283E-003  +3.4855552949E-003 +3.0564223416E-003  +3.7995385937E-003 +2.9310034588E-003  +1.1152845621E+000 -5.2843654156E-001 
7267420.526 +9.9475222826E-001 -1.7632991076E-003  +3.3889827318E-003 +3.1140591018E-003  +3.5660280846E-003 +2.8984840028E-003  +1.0819752216E+000 -5.1403021812E-001 
7392565.707 +9.9537616968E-001 -7.0849657059E-003  +3.7348004989E-003 +3.2127331942E-003  +3.6586376373E-003 +3.1108742114E-003  +1.0536203384E+000 -5.0991177559E-001 
7517710.889 +9.9627470970E-001 -1.2048617005E-002  +3.4420541488E-003 +3.1027097721E-003  +3.6347853020E-003 +2.9879072681E-003  +1.0221000910E+000 -5.0027948618E-001 
7642856.070 +9.9135321379E-001 -1.0937571526E-002  +3.2172084320E-003 +3.3925164025E-003  +3.4316715319E-003 +2.9316246510E-003  +9.9141329527E-001 -4.8696249723E-001 
7768001.252 +9.9810153246E-001 -9.6305906773E-003  +3.1069859397E-003 +3.2703827601E-003  +3.5665573087E-003 +2.9495721683E-003  +9.6346747875E-001 -4.7480905056E-001 
7893146.433 +9.9604237080E-001 -8.4542632103E-003  +3.3361106180E-003 +3.0080431607E-003  +3.2553055789E-003 +3.1491080299E-003  +9.4197070599E-001 -4.5548963547E-001 
8018291.615 +9.9453777075E-001 -1.1878073215E-002  +3.1201601960E-003 +3.1138188206E-003  +3.3678051550E-003 +2.9720070306E-003  +9.1131037474E-001 -4.4249820709E-001 
8143436.796 +9.8953801394E-001 -1.6802608967E-002  +3.1540121417E-003 +3.3110659570E-003  +3.4578037448E-003 +3.2410479616E-003  +8.9715433121E-001 -4.2553788424E-001 
8268581.977 +9.8834502697E-001 -1.0746806860E-002  +2.9760482721E-003 +3.2304995693E-003  +3.0033339281E-003 +3.0857392121E-003  +8.7462782860E-001 -4.1046518087E-001 
8393727.159 +9.8691499233E-001 -1.3539195061E-002  +3.2227300107E-003 +3.2967864536E-003  +3.0463002622E-003 +3.3075448591E-003  +8.6042654514E-001 -3.9829754829E-001 
8518872.340 +9.9236851931E-001 -1.2542039156E-002  +3.2008264679E-003 +3.2692258246E-003  +3.2430761494E-003 +3.1975875609E-003  +8.4290945530E-001 -3.7655812502E-001 
8644017.522 +9.8981559277E-001 -1.1114001274E-002  +2.9133143835E-003 +3.2784612849E-003  +2.9695287813E-003 +3.3857759554E-003  +8.3178627491E-001 -3.6455315351E-001 
8769162.703 +9.9401074648E-001 -1.0271012783E-002  +2.9787758831E-003 +3.4270982724E-003  +3.1225564890E-003 +3.2506077550E-003  +8.1656140089E-001 -3.4946146607E-001 
8894307.885 +9.9317872524E-001 -9.9724531174E-003  +2.7693305165E-003 +3.4907474183E-003  +2.8169753496E-003 +3.4920212347E-003  +8.0061632395E-001 -3.3764642477E-001 
9019453.066 +9.9063384533E-001 -1.5075683594E-002  +2.8371717781E-003 +3.4331318457E-003  +3.0066231266E-003 +3.5603553988E-003  +7.8701794147E-001 -3.1900995970E-001 
9144598.248 +9.9218159914E-001 -1.5126228333E-002  +2.9146536253E-003 +3.5813862924E-003  +2.8792237863E-003 +3.6909664050E-003  +7.7486753464E-001 -3.0018961430E-001 
9269743.429 +9.9085968733E-001 -1.3225823641E-002  +2.7487627231E-003 +3.6395424977E-003  +2.8370632790E-003 +3.6618537270E-003  +7.6725149155E-001 -2.8267854452E-001 
9394888.611 +9.9110710621E-001 -8.6102783680E-003  +2.8333421797E-003 +3.6948197521E-003  +2.8503891081E-003 +3.7971711718E-003  +7.5677680969E-001 -2.6589319110E-001 
9520033.792 +9.9110597372E-001 -1.1057227850E-002  +2.8140910435E-003 +3.7714259233E-003  +2.9463628307E-003 +3.8121587131E-003  +7.5051319599E-001 -2.4680097401E-001 
9645178.974 +9.9287056923E-001 -9.8865032196E-003  +2.7383789420E-003 +3.7305750884E-003  +2.5859570596E-003 +3.8770248648E-003  +7.4072492123E-001 -2.2970023751E-001 
9770324.155 +9.9112689495E-001 -9.1538429260E-003  +2.6726126671E-003 +3.9490507916E-003  +2.5870352983E-003 +3.8483417593E-003  +7.3562026024E-001 -2.1167203784E-001 
9895469.337 +9.9202597141E-001 -9.0202093124E-003  +2.7075007092E-003 +3.9894282818E-003  +2.7471985668E-003 +3.9608674124E-003  +7.2978585958E-001 -1.9668287039E-001 
10020614.518 +9.9141520262E-001 -9.1524422169E-003  +2.5283137802E-003 +4.0204399265E-003  +2.4243551306E-003 +4.0887263604E-003  +7.2671496868E-001 -1.7779940367E-001 
10145759.700 +9.9103581905E-001 -1.1194765568E-002  +2.5662407279E-003 +4.1714305989E-003  +2.5856890716E-003 +4.2356653139E-003  +7.2113776207E-001 -1.6530716419E-001 
10270904.881 +9.9256807566E-001 -1.1147767305E-002  +2.5161954109E-003 +4.3434575200E-003  +2.3786555976E-003 +4.2227250524E-003  +7.1837925911E-001 -1.4969849586E-001 
10396050.063 +9.8955094814E-001 -9.0693235397E-003  +2.5824531913E-003 +4.2669540271E-003  +2.4531292729E-003 +4.3671443127E-003  +7.1505844593E-001 -1.3252764940E-001 
10521195.244 +9.9093109369E-001 -1.0318875313E-002  +2.6359579060E-003 +4.2541483417E-003  +2.3830619175E-003 +4.4192397036E-003  +7.1501839161E-001 -1.1669170856E-001 
10646340.426 +9.9082612991E-001 -1.0202765465E-002  +2.4820249528E-003 +4.4470867142E-003  +2.3742448539E-003 +4.4651054777E-003  +7.1430641413E-001 -9.9536478519E-002 
10771485.607 +9.8986411095E-001 -9.0013742447E-003  +2.4268636480E-003 +4.5368908904E-003  +2.2550299764E-003 +4.5327534899E-003  +7.1430605650E-001 -8.3739280701E-002 
10896630.788 +9.9006247520E-001 -8.4210932255E-003  +2.4146127980E-003 +4.5724837109E-003  +2.2911462002E-003 +4.7366833314E-003  +7.1428668499E-001 -6.7536175251E-002 
11021775.970 +9.9082070589E-001 -6.9612562656E-003  +2.2377478890E-003 +4.6882107854E-003  +2.1553956904E-003 +4.7051385045E-003  +7.1514976025E-001 -5.1551759243E-002 
11146921.151 +9.8946696520E-001 -1.0470122099E-002  +2.2463989444E-003 +4.8479000106E-003  +2.1721967496E-003 +4.8112655059E-003  +7.1682906151E-001 -3.6073714495E-002 
11272066.333 +9.8888993263E-001 -9.0869367123E-003  +2.1626926027E-003 +4.9024317414E-003  +2.3578540422E-003 +4.9102911726E-003  +7.1816992760E-001 -2.2833406925E-002 
11397211.514 +9.9077111483E-001 -8.4027647972E-003  +2.2241352126E-003 +5.0795515999E-003  +2.1596411243E-003 +5.0166803412E-003  +7.2125655413E-001 -9.0033113956E-003 
11522356.696 +9.9045461416E-001 -7.9638063908E-003  +2.1261731163E-003 +5.1448112354E-003  +2.1343959961E-003 +5.0790905952E-003  +7.2601652145E-001 +6.3469707966E-003 
11647501.877 +9.8859667778E-001 -6.7097246647E-003  +2.4341866374E-003 +5.2387216128E-003  +2.1800985560E-003 +5.1991469227E-003  +7.2896331549E-001 +1.9751787186E-002 
11772647.059 +9.8950237036E-001 -7.1769356728E-003  +2.1627538372E-003 +5.2725304849E-003  +2.2032163106E-003 +5.2967672236E-003  +7.3305499554E-001 +3.2477140427E-002 
11897792.240 +9.8859328032E-001 -7.3410570621E-003  +2.0866263658E-003 +5.3947465494E-003  +2.1375028882E-003 +5.3721726872E-003  +7.3926222324E-001 +4.4707894325E-002 
12022937.422 +9.9080091715E-001 -6.9541633129E-003  +2.0709079690E-003 +5.5315210484E-003  +2.0363701042E-003 +5.5005140603E-003  +7.4452733994E-001 +5.7025820017E-002 
12148082.603 +9.9042904377E-001 -6.5972208977E-003  +2.1025151946E-003 +5.5797952227E-003  +2.0721561741E-003 +5.5632498115E-003  +7.5165176392E-001 +7.0338636637E-002 
12273227.785 +9.9049907923E-001 -5.8834254742E-003  +2.0268920343E-003 +5.6100673974E-003  +2.0381545182E-003 +5.6607620791E-003  +7.5904923677E-001 +8.1671565771E-002 
12398372.966 +9.9016422033E-001 -5.6318342686E-003  +2.1254515741E-003 +5.7641649619E-003  +2.0872335881E-003 +5.8055771515E-003  +7.6745712757E-001 +9.4399198890E-002 
12523518.148 +9.8938041925E-001 -6.2787532806E-003  +1.9996215124E-003 +5.9062275104E-003  +2.0083894487E-003 +5.8380914852E-003  +7.7431875467E-001 +1.0481226444E-001 
12648663.329 +9.8986995220E-001 -5.2105933428E-003  +2.0293635316E-003 +5.9547536075E-003  +2.0141201094E-003 +5.9613026679E-003  +7.8261113167E-001 +1.1567036808E-001 
12773808.511 +9.8939728737E-001 -5.6785494089E-003  +2.1012548823E-003 +6.0795424506E-003  +2.0926254801E-003 +6.0713449493E-003  +7.9266142845E-001 +1.2490592897E-001 
12898953.692 +9.9041664600E-001 -6.5532922745E-003  +2.1317901555E-003 +6.1687380075E-003  +2.1544918418E-003 +6.1689624563E-003  +8.0196845531E-001 +1.3365560770E-001 
13024098.874 +9.9044454098E-001 -4.6514496207E-003  +2.0653381944E-003 +6.3180001453E-003  +2.1915049292E-003 +6.2913489528E-003  +8.1180518866E-001 +1.4323341846E-001 
13149244.055 +9.9007916451E-001 -4.5629069209E-003  +2.0685170311E-003 +6.3583827578E-003  +2.1086530760E-003 +6.4021535218E-003  +8.2214438915E-001 +1.5205165744E-001 
13274389.237 +9.8984551430E-001 -5.0677456893E-003  +2.0705589559E-003 +6.5576117486E-003  +2.1585950162E-003 +6.5384712070E-003  +8.3389693499E-001 +1.5883514285E-001 
13399534.418 +9.8946499825E-001 -4.6818740666E-003  +2.0762612112E-003 +6.5774680115E-003  +2.1595205180E-003 +6.5690674819E-003  +8.4397685528E-001 +1.6540025175E-001 
13524679.599 +9.8958969116E-001 -3.1535923481E-003  +2.0968685858E-003 +6.7012803629E-003  +2.1335461643E-003 +6.7112296820E-003  +8.5554814339E-001 +1.7276611924E-001 
13649824.781 +9.9003165960E-001 -3.6737769842E-003  +2.2938987240E-003 +6.7998641171E-003  +2.1692202426E-003 +6.8163713440E-003  +8.6812990904E-001 +1.7789384723E-001 
13774969.962 +9.8945504427E-001 -3.2436996698E-003  +2.3682201281E-003 +6.9227456115E-003  +2.2073637228E-003 +6.9207553752E-003  +8.7960863113E-001 +1.8299108744E-001 
13900115.144 +9.8973572254E-001 -3.7587881088E-003  +2.2688051686E-003 +7.0888157934E-003  +2.2881599143E-003 +7.0490604267E-003  +8.9100205898E-001 +1.8694120646E-001 
14025260.325 +9.8868024349E-001 -3.1933486462E-003  +2.2046375088E-003 +7.1414057165E-003  +2.1828035824E-003 +7.1242493577E-003  +9.0371757746E-001 +1.9013600051E-001 
14150405.507 +9.8960673809E-001 -2.5799870491E-003  +2.2066337988E-003 +7.2233807296E-003  +2.2070626728E-003 +7.2118574753E-003  +9.1591084003E-001 +1.9458711147E-001 
14275550.688 +9.8913085461E-001 -4.3219923973E-003  +2.2770175710E-003 +7.3142824695E-003  +2.3894468322E-003 +7.2876834311E-003  +9.2876207829E-001 +1.9548454881E-001 
