!  2-Port S-parameters saved by WinCal
! VAR MeasName=S-Parameters (CALIBRATED_DATA) read from VNA (P5004A)
! VAR MeasDate=22/05/2024 17:18:31
! VAR NAME=Wafer2_r10_c18_opensignotaper
! VAR FILENAME=Wafer2_r10_c18_opensignotaper.S2P
! VAR DATE=22/05/2024 17:18:31
! VAR PHYS_PORTS=1,2
! VAR ObjTypeName=DATASET
! VAR IndexType=Frequency
!
# Hz S RI R 50
9000.000 +2.5013095140E-001 -5.8185261488E-001  -2.9060548171E-002 +2.0260984078E-002  -8.0414731055E-003 +1.9066808745E-003  +7.1486949921E-002 +1.1341086030E-001 
134145.181 +6.3836205006E-001 +8.6626678705E-002  +1.3029768132E-002 +3.4303218126E-002  +2.6748385280E-003 -2.2521924227E-002  +1.0167769194E+000 -7.4326485395E-002 
259290.363 +9.1838115454E-001 -1.1444318295E-001  +1.1494640261E-002 +4.0857554413E-003  -8.0161402002E-003 +6.2335235998E-003  +1.0567555428E+000 -3.3959567547E-002 
384435.544 +9.2882275581E-001 -2.3895871639E-001  +1.0198892560E-003 -2.9977119993E-003  -4.5419479720E-003 -1.2431989890E-003  +1.1024028063E+000 -5.1335215569E-002 
509580.726 +9.7189277411E-001 -1.2824817002E-001  -9.2646473786E-004 -9.1235595755E-004  +1.6182324616E-003 +9.2413247330E-004  +1.0521275997E+000 -1.8510773778E-002 
634725.907 +1.0705649853E+000 -1.5964868665E-001  -5.7332229335E-004 +7.7630631858E-004  +2.0444220863E-003 +5.3343421314E-005  +1.0762219429E+000 -2.0382642746E-002 
759871.089 +1.1932823658E+000 -6.8205654621E-002  +1.9173687324E-003 -1.2173546711E-003  -1.0039546760E-003 -9.8718644585E-004  +1.0478435755E+000 -5.0521612167E-002 
885016.270 +1.0153808594E+000 -1.9249451160E-001  +2.2302395664E-003 +2.1103394683E-003  +4.1569732130E-003 +5.0963228568E-003  +1.0444729328E+000 -7.1341723204E-002 
1010161.452 +1.1615991592E+000 -7.5155705214E-002  -1.0628255550E-003 +1.0444315849E-003  +4.6188637498E-004 -5.4015143542E-004  +8.6057072878E-001 +7.4393153191E-002 
1135306.633 +1.1875022650E+000 -9.8092079163E-002  +2.0234682597E-003 -9.0706103947E-004  +1.1358351912E-005 +1.7106502783E-003  +9.5327019691E-001 +1.5414711833E-001 
1260451.815 +1.3260250092E+000 -7.6013505459E-002  -2.8315052623E-004 -1.9741060678E-003  +1.9923329819E-004 +7.7549490379E-004  +9.7409182787E-001 +1.8114089966E-001 
1385596.996 +1.2512820959E+000 -1.1830306053E-001  +7.9198984895E-004 -4.6458537690E-004  -2.4895288516E-004 +5.4003781406E-004  +1.0020818710E+000 +1.0363218188E-001 
1510742.178 +1.3802917004E+000 -1.7675858736E-001  +2.6735660504E-004 -1.1948478641E-003  -1.5878023114E-003 +1.1009057052E-003  +9.3390893936E-001 +1.5982568264E-001 
1635887.359 +9.8497641087E-001 -2.6492658257E-001  -3.2860040665E-004 -2.2701188573E-004  +1.0044751689E-003 +7.3285121471E-004  +1.0896973610E+000 +9.8625212908E-002 
1761032.541 +1.0352782011E+000 -2.5286024809E-001  +1.4982162975E-003 -1.8806959270E-003  +1.3091881992E-003 -1.4200357255E-003  +1.0811072588E+000 +1.5217033029E-001 
1886177.722 +1.0173664093E+000 -1.3603246212E-001  -1.4220913872E-003 -1.5833275393E-004  +2.6169698685E-005 -6.9341645576E-004  +1.0569642782E+000 +1.1138018966E-001 
2011322.904 +1.0048387051E+000 -9.9530845881E-002  -1.7083610874E-004 +4.5305205276E-004  -1.2239905482E-004 +4.3066538638E-004  +1.0534181595E+000 +1.1195906997E-001 
2136468.085 +1.0169441700E+000 -7.9598903656E-002  -5.4389151046E-005 -3.0744553078E-004  +8.3882559557E-004 -5.5443012388E-004  +1.0417679548E+000 +1.0362395644E-001 
2261613.267 +1.0231618881E+000 -6.4919352531E-002  -3.6771438317E-005 +3.9875297807E-004  +1.2601719936E-004 +3.6846622243E-004  +1.0222380161E+000 +1.1604556441E-001 
2386758.448 +1.0144579411E+000 -5.4665744305E-002  -1.4172360534E-004 +2.6905443519E-004  -3.2283354085E-004 +5.6220928673E-004  +1.0387020111E+000 +1.2409886718E-001 
2511903.630 +1.0084584951E+000 -3.0623048544E-002  +4.9406004837E-004 -2.2214178171E-004  +1.0303232557E-004 -1.8668669509E-004  +1.0452663898E+000 +1.4900788665E-001 
2637048.811 +1.0171949863E+000 -2.3184657097E-002  -4.0603164234E-004 -1.0757116979E-004  +1.7884306726E-004 +6.3275270804E-005  +1.0406031609E+000 +1.5671336651E-001 
2762193.992 +1.0221647024E+000 -1.8497630954E-003  +3.1758964178E-004 +2.3590841738E-004  +2.7512997622E-004 +2.2205626010E-004  +1.0317615271E+000 +1.7291413248E-001 
2887339.174 +1.0024442673E+000 -1.1790588498E-002  -8.9226727141E-005 -1.8740900850E-004  -2.9540463584E-004 +3.7925725337E-004  +1.0400357246E+000 +1.9841536880E-001 
3012484.355 +1.0162621737E+000 +1.9118785858E-003  +2.6205414906E-004 -7.4689378380E-005  +1.2782162521E-003 +4.6641213703E-004  +1.0649752617E+000 +2.2154411674E-001 
3137629.537 +1.0038179159E+000 +2.4231135845E-002  +6.3892360777E-004 -7.4666328146E-005  +6.6442979733E-004 -3.7635161425E-004  +1.0981386900E+000 +2.3258011043E-001 
3262774.718 +1.0043479204E+000 +3.5361781716E-002  -9.1342790984E-004 +1.4110177290E-004  +2.7209351538E-004 -1.3721182768E-004  +1.1121743917E+000 +2.3172678053E-001 
3387919.900 +9.9319887161E-001 +5.8715552092E-002  -9.0462825028E-005 +7.4464674981E-005  -4.8835133202E-004 +2.3024804250E-005  +1.1277130842E+000 +2.3238696158E-001 
3513065.081 +1.0024040937E+000 +7.4592426419E-002  -7.3512771633E-004 -3.0373991467E-004  -4.0911813267E-004 +1.0483189544E-004  +1.1464235783E+000 +2.6598027349E-001 
3638210.263 +1.0120770931E+000 +1.0271765292E-001  +4.0958763566E-004 -4.6953347919E-005  -1.5275536862E-004 +3.3918578993E-004  +1.1684910059E+000 +2.6264131069E-001 
3763355.444 +1.0228466988E+000 +1.1020724475E-001  -4.1830344708E-004 +1.1621601152E-004  +5.4858654039E-004 +1.8867710605E-004  +1.1930962801E+000 +2.3644943535E-001 
3888500.626 +1.0449551344E+000 +1.3123780489E-001  +4.4514489127E-004 +1.7095189833E-004  -5.2205898101E-004 -5.5434946262E-005  +1.2297315598E+000 +2.4844701588E-001 
4013645.807 +9.9215203524E-001 +6.0360476375E-002  -5.0725147594E-004 +3.3696342143E-004  +3.4739155672E-004 -3.7912785774E-004  +1.1753556728E+000 +1.0580065846E-001 
4138790.989 +9.1824108362E-001 -1.7323646694E-002  +2.6806094684E-004 +1.4793532318E-004  -7.5382640352E-004 +2.6923164114E-005  +1.0845938921E+000 -4.8244372010E-003 
4263936.170 +9.1203814745E-001 +3.0364561826E-004  -7.3368712037E-005 -7.1684575232E-005  +3.2469382859E-004 -1.3352968381E-004  +1.0838209391E+000 -2.9971661046E-002 
4389081.352 +9.2208427191E-001 -7.6012797654E-003  +2.0807264082E-004 +1.5756639186E-004  +4.6999030747E-004 +2.3450178560E-004  +1.0690960884E+000 -4.1732452810E-002 
4514226.533 +9.2863690853E-001 -5.6570149027E-003  +4.1293734103E-004 -9.8669517320E-004  -1.9567944400E-004 +1.0304855095E-004  +1.0665223598E+000 -5.7028315961E-002 
4639371.715 +9.3930596113E-001 -8.4860017523E-004  -1.1976630049E-004 -4.0992785944E-004  +1.8502345483E-004 -1.6589020379E-004  +1.0620664358E+000 -5.1468655467E-002 
4764516.896 +9.3418836594E-001 -4.0682004765E-003  +6.8690942135E-004 +3.3722689841E-004  +3.8559563109E-004 -3.1853596738E-005  +1.0545259714E+000 -6.3552401960E-002 
4889662.078 +9.4254863262E-001 +1.2176336721E-002  -4.5732267608E-005 +3.5190727795E-004  +2.9120614636E-004 -3.8968872104E-005  +1.0565993786E+000 -5.2797485143E-002 
5014807.259 +9.3051260710E-001 +3.7494339049E-003  -2.5371517404E-004 +6.3967323513E-005  +5.2321178373E-005 -6.0799950006E-005  +1.0374640226E+000 -5.1452368498E-002 
5139952.441 +9.4670003653E-001 +1.1082917452E-002  +3.4631992457E-004 +6.3909050368E-005  -9.8613883893E-005 -1.5865283785E-004  +1.0370573997E+000 -6.5186098218E-002 
5265097.622 +9.5430511236E-001 +9.5006451011E-003  +2.0243240579E-004 +1.4163831656E-004  +3.2252992969E-004 -3.0690018320E-005  +1.0292758942E+000 -6.5682023764E-002 
5390242.804 +9.5604497194E-001 +1.1751472950E-002  +1.6545581457E-004 +1.4088045282E-004  +1.9860715838E-004 -2.3046490242E-005  +1.0206456184E+000 -6.5300203860E-002 
5515387.985 +9.6208584309E-001 +2.6479363441E-004  -1.1660398741E-004 +2.9481382808E-004  +1.0380304047E-005 +1.5614494623E-004  +1.0193579197E+000 -6.4389795065E-002 
5640533.166 +9.6853792667E-001 +6.0343444347E-003  -2.0122737624E-004 +1.7757940805E-004  -2.3183075245E-004 -8.9287896117E-005  +1.0189462900E+000 -6.3240610063E-002 
5765678.348 +9.6347516775E-001 +4.5559331775E-003  +2.8189760633E-004 +1.0970555741E-004  +1.9437594165E-004 +3.5156961530E-005  +1.0098830462E+000 -6.5833859146E-002 
5890823.529 +9.6558296680E-001 -8.6031854153E-005  -7.7852317190E-005 -4.4481224904E-005  -1.0977853526E-004 +1.8024403835E-004  +1.0046361685E+000 -6.6571176052E-002 
6015968.711 +9.6792107821E-001 -4.6027824283E-003  -1.0737145203E-004 +1.2443658488E-004  -1.1109987099E-004 +4.9531045079E-005  +1.0048387051E+000 -6.2391050160E-002 
6141113.892 +9.6749329567E-001 +1.7418190837E-003  -1.9668992900E-004 -4.9250340089E-004  +1.2152415002E-004 -8.3888016889E-006  +1.0002975464E+000 -5.5029474199E-002 
6266259.074 +9.7318577766E-001 +2.5337636471E-003  +9.3202768767E-005 -7.8939665400E-005  -1.8680244102E-004 +7.5968520832E-005  +9.9460262060E-001 -5.9306725860E-002 
6391404.255 +9.6812218428E-001 -6.0257464647E-003  +7.6167110819E-005 +2.3669615621E-004  +1.5563329725E-005 -3.0210572731E-005  +9.9117255211E-001 -5.9460587800E-002 
6516549.437 +9.6919679642E-001 -3.1010359526E-003  +8.9350141934E-005 +1.6797809803E-004  +3.3262808574E-004 -1.6671247431E-004  +9.8670381308E-001 -5.8071821928E-002 
6641694.618 +9.7899717093E-001 +5.3443014622E-004  +7.8525248682E-005 +3.9995240513E-005  +4.4800341129E-005 +2.5324753369E-004  +9.8495256901E-001 -4.7298222780E-002 
6766839.800 +9.8198997974E-001 +6.7245364189E-003  +5.0384267524E-005 +1.0835000285E-004  -2.8506654780E-004 -1.5431870997E-004  +9.9133181572E-001 -5.0774946809E-002 
6891984.981 +9.7679883242E-001 +2.0417869091E-003  -2.1622577333E-004 +2.2013261332E-004  -2.0709328237E-004 +2.2998516215E-004  +9.7505116463E-001 -5.0709977746E-002 
7017130.163 +9.7851294279E-001 +2.2623986006E-003  +9.8237418570E-005 +3.7612518645E-004  +9.0991517936E-005 +1.9910234550E-004  +9.8383891582E-001 -4.1841924191E-002 
7142275.344 +9.8339545727E-001 +6.6822022200E-003  +1.4395742619E-004 +5.8846468164E-005  +8.7150976469E-005 +5.7985780586E-005  +9.8169034719E-001 -3.8539156318E-002 
7267420.526 +9.7888761759E-001 +7.3289126158E-003  +1.1155735410E-004 -3.8625788875E-005  +6.2398728915E-005 +8.4432213043E-007  +9.7922790051E-001 -3.4232452512E-002 
7392565.707 +9.8031175137E-001 +8.8440179825E-003  +1.0128398571E-004 +1.8857169198E-004  -4.1717430577E-005 +1.6527120897E-004  +9.8115640879E-001 -3.6753520370E-002 
7517710.889 +9.8450064659E-001 +7.0041865110E-003  +3.9311239379E-004 +2.9626316973E-006  -8.2406550064E-006 -1.6259371478E-004  +9.7628206015E-001 -3.5184547305E-002 
7642856.070 +9.7530609369E-001 +6.2529146671E-003  +1.2497648640E-005 -4.9722890253E-005  -1.6269781918E-004 -1.6511781723E-004  +9.7159218788E-001 -3.9002299309E-002 
7768001.252 +9.8196119070E-001 +7.8800320625E-003  +2.6455902844E-004 -1.3984061661E-004  +1.5461473959E-004 +2.8980668867E-004  +9.7089457512E-001 -3.8152366877E-002 
7893146.433 +9.8694181442E-001 +8.9918524027E-003  +7.6589982200E-005 -5.6832122937E-006  +2.1955440752E-004 -7.4025738286E-006  +9.7294390202E-001 -2.8876796365E-002 
8018291.615 +9.8132699728E-001 +5.2644759417E-003  +1.2965097267E-004 -5.1404371334E-005  +1.5352072660E-004 +7.1844100603E-005  +9.6990162134E-001 -2.8456881642E-002 
8143436.796 +9.7849637270E-001 +1.8728375435E-003  +8.0560976130E-006 +1.1530142729E-005  -7.7177632193E-005 -4.6525106882E-005  +9.6914798021E-001 -2.3807778955E-002 
8268581.977 +9.8024064302E-001 +3.8211047649E-003  -4.1018272896E-005 -1.6404310009E-004  -6.3434243202E-005 -1.4412727614E-004  +9.7230899334E-001 -1.9861459732E-002 
8393727.159 +9.8081910610E-001 -2.8121471405E-004  +8.4278980239E-007 -1.6939453644E-006  -1.7735208530E-005 +1.0566962737E-004  +9.7027301788E-001 -2.0557105541E-002 
8518872.340 +9.8050534725E-001 -2.2963881493E-003  +8.1749476522E-007 +4.3613144953E-005  -8.1922131358E-005 -1.0859734903E-004  +9.6934741735E-001 -1.9907355309E-002 
8644017.522 +9.7934728861E-001 +4.1301250458E-003  -7.7441574831E-005 -4.2084437155E-005  +9.2624482932E-005 -1.5769508900E-004  +9.7172510624E-001 -1.6952246428E-002 
8769162.703 +9.8412930965E-001 +6.0665309429E-003  -1.5884033928E-005 +3.2392633148E-004  +1.3748253696E-004 +4.2982850573E-005  +9.7187554836E-001 -1.4964431524E-002 
8894307.885 +9.8202848434E-001 +3.9287507534E-003  -5.3798859881E-005 +3.2428033592E-005  -8.5034560470E-005 +1.3110067812E-004  +9.6997630596E-001 -1.6868650913E-002 
9019453.066 +9.8545634747E-001 +2.2771358490E-003  +3.6885867303E-005 +7.3493887612E-005  -1.6472022253E-005 -6.5280764829E-005  +9.7056770325E-001 -1.6375094652E-002 
9144598.248 +9.8422873020E-001 +2.4352371693E-003  -1.2117660663E-004 +1.4226574422E-005  +5.4027048463E-005 +9.1469541076E-005  +9.7203534842E-001 -1.2278467417E-002 
9269743.429 +9.8451185226E-001 +2.9241144657E-003  +2.9970189644E-005 +1.1605642794E-004  -2.2191918106E-004 +6.7767134169E-005  +9.7385150194E-001 -8.5079967976E-003 
9394888.611 +9.8478770256E-001 +6.0702264309E-003  -8.6934349383E-005 +2.5696463126E-006  +5.7353976445E-005 -7.5642506999E-005  +9.7105193138E-001 -1.3709396124E-002 
9520033.792 +9.8577177525E-001 +3.9994418621E-003  +4.0746454033E-006 +3.4370776120E-005  +8.2669876065E-006 +8.4860603238E-006  +9.7429031134E-001 -1.0239422321E-002 
9645178.974 +9.8930442333E-001 +5.1136314869E-003  +6.7230110290E-005 +5.7017481595E-005  -2.5335719329E-005 +8.9061439212E-005  +9.7202301025E-001 -8.7467133999E-003 
9770324.155 +9.8818695545E-001 +8.2640051842E-003  -7.3439026892E-005 +6.6921871621E-005  +6.8555556936E-005 +8.7294552941E-005  +9.6945315599E-001 -6.3238739967E-003 
9895469.337 +9.8643505573E-001 +5.9179365635E-003  -9.8570104456E-005 +9.4058632385E-005  -5.6944438256E-005 +1.1023182014E-004  +9.7236800194E-001 -5.9285163879E-003 
10020614.518 +9.8621773720E-001 +6.9695115089E-003  +3.6290148273E-006 +1.9809340301E-005  -5.7268363889E-005 +4.7380999604E-005  +9.7289443016E-001 -2.8722286224E-003 
10145759.700 +9.8632371426E-001 +4.8790574074E-003  -1.0739998834E-004 +7.7803881140E-005  -1.1349617125E-005 +1.1328070832E-004  +9.7325032949E-001 -4.3818056583E-003 
10270904.881 +9.8826950788E-001 +3.8914978504E-003  +9.2769063485E-005 +7.1139853389E-005  -4.5126922487E-005 +1.1040806567E-004  +9.7626245022E-001 -3.4062862396E-003 
10396050.063 +9.8690843582E-001 +4.4144690037E-003  +5.4427964642E-005 +8.3734252257E-005  -4.8364428949E-005 +3.5758213926E-005  +9.7481596470E-001 -2.0141899586E-003 
10521195.244 +9.8797601461E-001 +5.4838955402E-003  +2.8119986382E-005 +1.5519639419E-005  -5.2681531088E-005 +7.0906004112E-005  +9.7454833984E-001 -1.5340149403E-003 
10646340.426 +9.8510968685E-001 +4.1882395744E-003  -1.5838759282E-005 -4.0435937990E-005  -8.7389926193E-005 +1.7422363453E-004  +9.7472900152E-001 +1.4167428017E-003 
10771485.607 +9.8732769489E-001 +6.3278973103E-003  -1.0418887541E-005 +7.6211777923E-005  -4.4378914026E-005 +1.2901377340E-004  +9.7706067562E-001 +4.3874979019E-004 
10896630.788 +9.8632478714E-001 +7.0615112782E-003  -2.1191655833E-005 +2.5696013836E-005  -1.4438122889E-005 +7.5660384027E-005  +9.7653484344E-001 +9.0187788010E-004 
11021775.970 +9.8774015903E-001 +6.8583190441E-003  -2.3369284463E-005 +2.2972615625E-005  -3.6150031519E-005 +1.0834860586E-004  +9.7579157352E-001 +2.0109713078E-003 
11146921.151 +9.8779481649E-001 +3.3364892006E-003  -1.9728737243E-005 +1.2775143841E-004  -4.4888853154E-005 +7.5986463344E-005  +9.7785246372E-001 +2.6183724403E-003 
11272066.333 +9.8557734489E-001 +5.0331354141E-003  -1.6487356334E-005 +7.6709606219E-005  -4.1884886741E-006 +1.1101338168E-004  +9.7662150860E-001 +1.7111897469E-003 
11397211.514 +9.8799210787E-001 +6.8072676659E-003  -2.1843374270E-005 +1.1380920478E-004  +5.1170856750E-005 +1.0914292216E-004  +9.7704786062E-001 +3.4381747246E-003 
11522356.696 +9.8830378056E-001 +5.7601332664E-003  +8.4035982582E-006 +7.1929731348E-005  +1.1910524336E-005 +9.8877724668E-005  +9.7843772173E-001 +3.6587417126E-003 
11647501.877 +9.8600608110E-001 +7.4414610863E-003  +1.5836785678E-005 +5.9994028561E-005  -4.6041423047E-005 +9.0657966211E-005  +9.7856390476E-001 +2.9538273811E-003 
11772647.059 +9.8746359348E-001 +6.4089000225E-003  -4.1890991270E-005 +1.1394006287E-004  -2.3934855562E-005 +1.2341064576E-004  +9.7881102562E-001 +3.4367740154E-003 
11897792.240 +9.8705750704E-001 +7.0791244507E-003  -3.7985522795E-005 +9.5047500508E-005  +1.7597856640E-005 +4.1663144657E-005  +9.7936004400E-001 +4.4121146202E-003 
12022937.422 +9.8923093081E-001 +8.0786943436E-003  +3.0963594327E-005 +1.0443585052E-004  -4.4918495405E-005 +7.8793498687E-005  +9.7970139980E-001 +3.4668743610E-003 
12148082.603 +9.8971450329E-001 +7.5991451740E-003  -3.6020155676E-005 +8.9932545961E-005  -1.1716765584E-005 +9.0128232841E-005  +9.8143196106E-001 +6.9894194603E-003 
12273227.785 +9.8910570145E-001 +8.5290968418E-003  +2.9213602829E-005 +9.3962087703E-005  +1.7292886696E-005 +3.9520571590E-005  +9.8077684641E-001 +5.2926838398E-003 
12398372.966 +9.8930758238E-001 +7.6935589314E-003  +6.1013279264E-006 +6.7598099122E-005  -3.6125129554E-008 +1.4976202510E-004  +9.8242777586E-001 +5.0657391548E-003 
12523518.148 +9.8799651861E-001 +8.0862641335E-003  -3.5533521441E-005 +1.0048576223E-004  -5.2722934925E-006 +1.3013504213E-004  +9.8153871298E-001 +5.7947337627E-003 
12648663.329 +9.9001336098E-001 +8.3426386118E-003  -1.8809123503E-006 +2.9019030990E-005  +3.6189230741E-005 +7.6530152000E-005  +9.8254662752E-001 +7.1332156658E-003 
12773808.511 +9.9018096924E-001 +7.7376514673E-003  +3.1239338568E-005 +8.1891826994E-005  +9.9479011624E-006 +5.1433988119E-005  +9.8277872801E-001 +7.2232633829E-003 
12898953.692 +9.9064308405E-001 +7.1372613311E-003  +3.1012477848E-006 +5.8710022131E-005  +2.9340364563E-005 +8.2787701103E-005  +9.8273414373E-001 +4.9823001027E-003 
13024098.874 +9.9015671015E-001 +7.5846761465E-003  -4.8111000069E-005 +4.4673957746E-005  -1.3355742340E-005 +8.4341518232E-005  +9.8303920031E-001 +6.9008171558E-003 
13149244.055 +9.9028867483E-001 +7.7675096691E-003  +3.1024119380E-005 +1.1497177911E-004  +1.6787409550E-005 +1.2457509001E-004  +9.8363071680E-001 +7.3456782848E-003 
13274389.237 +9.9037194252E-001 +6.5505672246E-003  -1.0299678252E-005 +1.0218772513E-004  -8.8641090770E-006 +6.4815503720E-005  +9.8498773575E-001 +6.8841278553E-003 
13399534.418 +9.9025559425E-001 +8.2008093596E-003  +1.9965056708E-005 +9.4967908808E-005  -3.1630082958E-005 +1.1169939535E-004  +9.8451989889E-001 +8.1827789545E-003 
13524679.599 +9.9033290148E-001 +8.8333934546E-003  +3.5049397411E-005 +1.2570187391E-004  -2.2609170628E-005 +9.0001871285E-005  +9.8499053717E-001 +8.8967084885E-003 
13649824.781 +9.9172383547E-001 +8.0532431602E-003  +1.3918435798E-005 +2.4515711630E-005  +2.8745032978E-005 +1.0771113011E-004  +9.8614811897E-001 +8.7117254734E-003 
13774969.962 +9.9115806818E-001 +7.9501271248E-003  +1.1355557945E-005 +7.6400669059E-005  +2.7677582693E-005 +1.4487568114E-004  +9.8569184542E-001 +7.6325982809E-003 
13900115.144 +9.9164474010E-001 +8.4339380264E-003  +1.2619455447E-005 +1.1072713824E-004  -1.9393059119E-005 +7.4197152571E-005  +9.8565381765E-001 +8.9840292931E-003 
14025260.325 +9.9133908749E-001 +8.9451372623E-003  +9.3847775133E-006 +8.7344866188E-005  +1.8080319933E-005 +9.5693161711E-005  +9.8546457291E-001 +8.2305967808E-003 
14150405.507 +9.9106156826E-001 +9.3508958817E-003  -1.3394479538E-005 +1.0518827185E-004  +3.8607064198E-005 +9.0208319307E-005  +9.8619705439E-001 +8.4726512432E-003 
14275550.688 +9.9193096161E-001 +8.6846947670E-003  +1.1001005987E-005 +7.2032751632E-005  -5.3152361943E-006 +7.0925147156E-005  +9.8732340336E-001 +7.2916746140E-003 
14400695.870 +9.9057382345E-001 +8.6393356323E-003  +1.8481430743E-005 +9.7090218333E-005  -2.5882909540E-005 +1.4255409769E-004  +9.8654139042E-001 +7.7740848064E-003 
