!  2-Port S-parameters saved by WinCal
! VAR MeasName=S-Parameters (CALIBRATED_DATA) read from VNA (P5004A)
! VAR MeasDate=22/05/2024 18:41:44
! VAR NAME=Wafer2_r2_c1_formed_pos0.8dc
! VAR FILENAME=Wafer2_r2_c1_formed_pos0.8dc.S2P
! VAR DATE=22/05/2024 18:41:44
! VAR PHYS_PORTS=1,2
! VAR ObjTypeName=DATASET
! VAR IndexType=Frequency
!
# Hz S RI R 50
9000.000 +2.2785460949E-001 -5.9307736158E-001  +4.7308197245E-003 -2.0192009397E-003  +7.3794799391E-004 +1.1054100469E-003  +4.8556789756E-002 +9.8415553570E-002 
134145.181 +6.2008780241E-001 -7.1310795844E-002  +1.1544064619E-002 +5.1010316238E-003  +1.5640601516E-002 +1.2848522514E-002  -3.7117391825E-002 -3.9143556356E-001 
259290.363 +8.0301630497E-001 -1.5075558424E-001  +5.8115823194E-003 -1.1871790513E-002  -1.8980560824E-002 -7.8657614067E-003  +1.1012604237E+000 -9.9580514431E-001 
384435.544 +8.8570755720E-001 -3.0573511124E-001  +1.5729093924E-002 +3.6320772022E-002  +2.8824340552E-003 +9.1682011262E-003  +3.0402390957E+000 -2.6466791630E+000 
509580.726 +9.4926631451E-001 -1.6832479835E-001  +8.0529303523E-004 -2.5488296524E-003  +1.8462983426E-003 +2.6368419640E-003  +1.7689522505E+000 -3.4517323971E-001 
634725.907 +1.0933696032E+000 -2.0290187001E-001  -5.4509723559E-003 -1.2476453558E-003  +1.0982111096E-002 +1.9136372954E-002  +3.6105761528E+000 +4.2457783222E-001 
759871.089 +1.2646954060E+000 -5.0625622272E-002  +6.6429539584E-004 +3.6756187910E-004  +1.7148061888E-003 -1.2000172865E-003  +1.4620225430E+000 +3.8102781773E-001 
885016.270 +1.0770419836E+000 -3.3122259378E-001  +1.4407695271E-003 -2.5991154835E-003  -6.1478535645E-004 -7.0590776158E-004  +1.2178283930E+000 +4.9330234528E-001 
1010161.452 +1.2121835947E+000 -7.5681030750E-002  +4.0913329576E-004 -5.4178526625E-005  -5.5429333588E-004 +4.6524198842E-004  +1.1933712959E+000 +4.9588853121E-001 
1135306.633 +1.3198213577E+000 -8.7618470192E-002  -9.2695752392E-004 -5.6399637833E-004  +7.9622591147E-004 -2.3565787706E-004  +1.3039356470E+000 +6.0647928715E-001 
1260451.815 +1.5506504774E+000 -8.5857391357E-002  +6.2347704079E-004 +7.7022094047E-005  +7.8464415856E-004 +2.9328980600E-004  +1.0988099575E+000 +7.0770132542E-001 
1385596.996 +1.3754992485E+000 -1.1819767952E-001  +1.8857562100E-004 +2.8261053376E-004  -2.0104518626E-004 +2.1459850541E-004  +9.8499190807E-001 +4.8500370979E-001 
1510742.178 +1.6120479107E+000 -1.6039505601E-001  +2.5608886062E-005 +1.0728740745E-004  +2.7175349533E-004 -1.5682910453E-004  +6.7831748724E-001 +5.7431888580E-001 
1635887.359 +1.1305094957E+000 -3.7635439634E-001  +6.8595240009E-005 +2.6549781978E-005  +2.5801529409E-004 +4.8083363799E-004  +1.5210185051E+000 +6.3086676598E-001 
1761032.541 +1.2874964476E+000 -3.1894424558E-001  -2.6769317628E-005 +2.6627830812E-004  -1.1161965085E-004 +5.6668854086E-004  +1.1039631367E+000 +8.2775723934E-001 
1886177.722 +1.2107820511E+000 -2.4368062615E-001  -3.5339902388E-004 +3.2958289376E-004  -1.3455706357E-004 +1.0369140364E-004  +1.1450135708E+000 +5.5886042118E-001 
2011322.904 +1.2010424137E+000 -2.3487663269E-001  -2.4363542616E-004 +2.7511559892E-004  -3.2181391725E-004 +3.3720827196E-004  +1.1583416462E+000 +5.2637040615E-001 
2136468.085 +1.2076537609E+000 -1.7651748657E-001  -1.1983218428E-004 +1.7877470236E-004  -2.6652804809E-004 +3.7074222928E-004  +1.0964970589E+000 +4.7784826159E-001 
2261613.267 +1.2154414654E+000 -1.7410267889E-001  -3.3995264675E-004 +3.1320709968E-004  -4.4952728786E-005 +7.0515851257E-004  +1.0534114838E+000 +5.1541566849E-001 
2386758.448 +1.2224771976E+000 -1.8381772935E-001  -2.3284732379E-005 +4.1485676775E-004  -3.7809956120E-004 +3.9584233309E-004  +1.0714622736E+000 +5.4491823912E-001 
2511903.630 +1.2338950634E+000 -2.1185694635E-001  -5.8994814754E-004 +1.1812072480E-003  -2.6317083393E-004 +6.0182862217E-004  +1.1136615276E+000 +5.8004856110E-001 
2637048.811 +1.1949467659E+000 -2.3791211843E-001  +6.1221816577E-004 +3.0763290124E-004  -4.5373805915E-004 +4.5594415860E-004  +1.1222816706E+000 +6.0896062851E-001 
2762193.992 +1.1344121695E+000 -1.5220046043E-001  -5.7368184207E-004 +8.6609739810E-004  -9.2094083084E-004 +5.4752099095E-004  +1.1414393187E+000 +5.1500606537E-001 
2887339.174 +1.1727695465E+000 -1.0983586311E-001  +1.8096456188E-005 +4.0429216460E-004  -5.7795253815E-004 +2.3067367147E-004  +1.0007306337E+000 +5.0697553158E-001 
3012484.355 +1.2260501385E+000 -1.1981213093E-001  -8.2952599041E-004 +3.3011872438E-004  -3.1076019513E-004 +8.4996118676E-004  +9.5365464687E-001 +6.1511904001E-001 
3137629.537 +1.2322058678E+000 -1.1166220903E-001  -3.5351869883E-005 +6.4478162676E-004  -7.3120789602E-004 +9.1656105360E-004  +9.7444099188E-001 +7.2019171715E-001 
3262774.718 +1.2376554012E+000 -1.3614171743E-001  -8.6159654893E-004 +8.6920394097E-004  -4.3237689533E-004 +1.1481824331E-003  +1.0215865374E+000 +7.8607881069E-001 
3387919.900 +1.2491085529E+000 -1.5207272768E-001  -9.5681083621E-004 +9.4174843980E-004  -1.2236846378E-003 +5.6623469573E-004  +1.0613555908E+000 +8.5904580355E-001 
3513065.081 +1.2620955706E+000 -1.7482948303E-001  -9.2890311498E-004 +1.2450946961E-003  -8.5955427494E-004 +7.8284542542E-004  +1.0975810289E+000 +9.3302947283E-001 
3638210.263 +1.2729070187E+000 -1.9052422047E-001  -3.7813253584E-004 +1.0658651590E-003  -7.5677770656E-004 +1.2749733869E-003  +1.1880848408E+000 +9.7843813896E-001 
3763355.444 +1.2849426270E+000 -2.4136674404E-001  -1.1628427310E-003 +1.3052212307E-003  -1.2753864285E-003 +1.5191466082E-003  +1.2889302969E+000 +1.0098720789E+000 
3888500.626 +1.3002345562E+000 -2.9346317053E-001  -1.4500562102E-003 +1.7950562760E-003  -1.0113605531E-003 +1.2179267360E-003  +1.3723006248E+000 +1.0725679398E+000 
4013645.807 +1.1002676487E+000 -4.1266718507E-001  -1.2451727525E-004 +1.3275184901E-003  -1.1489965254E-003 +2.3215035908E-003  +1.6519162655E+000 +8.6889743805E-001 
4138790.989 +8.8365375996E-001 -4.3752935529E-001  +5.0187169109E-005 +2.3703284096E-003  +3.0823447742E-004 +3.2660649158E-003  +1.7937990427E+000 +5.4376411438E-001 
4263936.170 +8.5265696049E-001 -4.3770545721E-001  +8.2214106806E-004 +2.9137232341E-003  +5.3571362514E-005 +2.3657118436E-003  +1.8428298235E+000 +4.4147551060E-001 
4389081.352 +8.0309617519E-001 -4.2840647697E-001  +1.7730065156E-004 +2.8160561342E-003  +5.0375849241E-004 +2.9304861091E-003  +1.8936399221E+000 +3.1112685800E-001 
4514226.533 +7.7527922392E-001 -4.1128602624E-001  +3.4521229099E-004 +2.7366343420E-003  -5.1084457664E-004 +2.7593255509E-003  +1.9139220715E+000 +2.2680534422E-001 
4639371.715 +7.5562691689E-001 -3.9612782001E-001  -3.8838916225E-004 +2.3975465447E-003  +9.7000232199E-004 +2.4961859453E-003  +1.9194579124E+000 +1.4182628691E-001 
4764516.896 +7.2312426567E-001 -3.7926012278E-001  +5.1247124793E-004 +2.9882879462E-003  +1.0766912601E-004 +2.5421942119E-003  +1.9205150604E+000 +2.9908671975E-002 
4889662.078 +6.9919979572E-001 -3.4979808331E-001  +1.7864230904E-004 +2.8163604438E-003  +1.1478462256E-003 +2.7747855056E-003  +1.9307203293E+000 -4.0436729789E-002 
5014807.259 +6.6838198900E-001 -3.3447062969E-001  +4.3234118493E-004 +2.2524585947E-003  +2.7325644623E-004 +2.8274580836E-003  +1.8743577003E+000 -1.0583846271E-001 
5139952.441 +6.4166951180E-001 -3.1000775099E-001  +2.0947080338E-004 +3.3069006167E-003  +2.1894047677E-004 +2.8199641965E-003  +1.8509130478E+000 -1.8833732605E-001 
5265097.622 +6.3949435949E-001 -2.8152728081E-001  +4.6973017743E-004 +2.5453981943E-003  +6.4732989995E-004 +2.7379025705E-003  +1.7941806316E+000 -2.5338813663E-001 
5390242.804 +6.1861026287E-001 -2.4439117312E-001  +7.2918564547E-004 +2.5587899145E-003  +4.6145473607E-004 +2.3937369697E-003  +1.7512133121E+000 -3.0482596159E-001 
5515387.985 +6.0304403305E-001 -2.1482615173E-001  +4.6929938253E-004 +3.3898313995E-003  +3.6231518607E-004 +2.5842241012E-003  +1.7120198011E+000 -3.8346329331E-001 
5640533.166 +5.8672177792E-001 -1.8494780362E-001  +6.0600647703E-004 +3.0662044883E-003  -1.1064604769E-004 +3.0331981834E-003  +1.6743094921E+000 -4.2059960961E-001 
5765678.348 +5.7802015543E-001 -1.6107277572E-001  +1.6456370940E-004 +2.3407598492E-003  +8.6925353389E-004 +2.8636930510E-003  +1.6164277792E+000 -4.5423030853E-001 
5890823.529 +5.7107204199E-001 -1.3294297457E-001  +2.1344108973E-004 +2.7887111064E-003  +6.7331799073E-004 +2.6389765553E-003  +1.5575561523E+000 -4.8990440369E-001 
6015968.711 +5.6800681353E-001 -1.0419078171E-001  +7.5075938366E-004 +2.6124687865E-003  +1.6462043277E-005 +2.6747905649E-003  +1.5089110136E+000 -5.0245273113E-001 
6141113.892 +5.6775975227E-001 -7.5033023953E-002  +3.9029706386E-005 +2.9765588697E-003  +1.7991643108E-004 +3.0227752868E-003  +1.4538375139E+000 -5.2048105001E-001 
6266259.074 +5.6629347801E-001 -4.2456287891E-002  +3.4907268127E-004 +2.9295398854E-003  +5.1388912834E-004 +2.6800544001E-003  +1.3999654055E+000 -5.3927886486E-001 
6391404.255 +5.7068276405E-001 -1.1687202379E-002  +6.7740184022E-004 +2.9862110969E-003  +1.4616113913E-004 +2.8855341952E-003  +1.3459944725E+000 -5.4884272814E-001 
6516549.437 +5.7175248861E-001 +1.5027863905E-002  +5.2653747844E-004 +2.9921580572E-003  +2.4515691621E-005 +2.8120356146E-003  +1.2969015837E+000 -5.5141180754E-001 
6641694.618 +5.8010745049E-001 +4.6394266188E-002  +3.6468417966E-004 +2.8022220358E-003  +4.6074466081E-004 +2.8288126923E-003  +1.2699673176E+000 -5.5068451166E-001 
6766839.800 +5.9368640184E-001 +7.7674955130E-002  +2.7968653012E-004 +2.9229051434E-003  +1.6570570006E-004 +2.6521040127E-003  +1.2245551348E+000 -5.6080394983E-001 
6891984.981 +5.9847950935E-001 +9.5767192543E-002  +2.9381172499E-004 +3.1079035252E-003  +1.8694595201E-004 +3.2929887529E-003  +1.1730197668E+000 -5.4627025127E-001 
7017130.163 +6.0825127363E-001 +1.2437206507E-001  +3.4537602914E-004 +3.1280389521E-003  +7.0957656135E-005 +2.9907349963E-003  +1.1453531981E+000 -5.3529244661E-001 
7142275.344 +6.2049251795E-001 +1.5184408426E-001  +1.7192057567E-004 +2.9312267434E-003  +1.0558994836E-004 +3.2222780865E-003  +1.1126953363E+000 -5.2605605125E-001 
7267420.526 +6.3366174698E-001 +1.8210867047E-001  +1.1102296412E-004 +3.5068397410E-003  +8.2778075011E-005 +3.0578419100E-003  +1.0776774883E+000 -5.1982605457E-001 
7392565.707 +6.5086376667E-001 +2.0506423712E-001  +2.0474698977E-004 +2.8650974855E-003  +5.9502752265E-005 +3.2597335521E-003  +1.0540711880E+000 -5.1259815693E-001 
7517710.889 +6.6834455729E-001 +2.2341293097E-001  +4.6352541540E-004 +3.0026056338E-003  +2.1778733935E-004 +3.5237050615E-003  +1.0216016769E+000 -4.9959546328E-001 
7642856.070 +6.8273419142E-001 +2.4637362361E-001  +2.6396784233E-004 +3.2003673259E-003  +1.3506622054E-005 +3.2350935508E-003  +9.9070519209E-001 -4.9032872915E-001 
7768001.252 +7.0500665903E-001 +2.6774638891E-001  -7.7078118920E-005 +3.1563562807E-003  +1.2818473624E-004 +3.1318969559E-003  +9.5843493938E-001 -4.7878891230E-001 
7893146.433 +7.3146790266E-001 +2.8665414453E-001  +6.5619999077E-005 +3.4642368555E-003  +8.8703935035E-005 +3.4930421971E-003  +9.4098407030E-001 -4.6065589786E-001 
8018291.615 +7.5054663420E-001 +3.0510252714E-001  +1.4658353757E-004 +3.5145997535E-003  +4.8931629863E-005 +3.4867459908E-003  +9.1354966164E-001 -4.4386762381E-001 
8143436.796 +7.7305185795E-001 +3.1221702695E-001  -1.5737488866E-005 +3.4715246875E-003  -3.0982133467E-005 +3.5026767291E-003  +8.9956402779E-001 -4.2550897598E-001 
8268581.977 +7.9909491539E-001 +3.2857266068E-001  +2.4891458452E-005 +3.4464884084E-003  +1.4570774511E-005 +3.5367275123E-003  +8.8010925055E-001 -4.1142857075E-001 
8393727.159 +8.2605791092E-001 +3.3438023925E-001  -2.6289955713E-005 +3.7313136272E-003  -1.1319544865E-004 +3.7275494542E-003  +8.6110770702E-001 -3.9661967754E-001 
8518872.340 +8.5674041510E-001 +3.4713190794E-001  -1.2026517652E-005 +3.6910737399E-003  -1.6707612667E-004 +3.6832764745E-003  +8.4333080053E-001 -3.7797927856E-001 
8644017.522 +8.7634217739E-001 +3.5253655910E-001  -9.9115422927E-005 +3.7807351910E-003  -1.8478702987E-004 +3.8315164857E-003  +8.3610272408E-001 -3.6189001799E-001 
8769162.703 +9.0901952982E-001 +3.5632222891E-001  -1.5581364278E-004 +4.0312153287E-003  -9.1212103143E-005 +3.9066947065E-003  +8.2042896748E-001 -3.4666228294E-001 
8894307.885 +9.3514806032E-001 +3.5748714209E-001  -2.0695501007E-004 +3.9718123153E-003  -1.2781261466E-004 +3.8508980069E-003  +8.0446767807E-001 -3.3132150769E-001 
9019453.066 +9.6374702454E-001 +3.5704317689E-001  -1.8017156981E-004 +4.1099642403E-003  -4.1169929318E-005 +4.0898756124E-003  +7.8922706842E-001 -3.1654089689E-001 
9144598.248 +9.9339276552E-001 +3.5247963667E-001  -8.0798985437E-005 +4.1654468514E-003  -1.9997230265E-004 +4.1349059902E-003  +7.7992129326E-001 -2.9838711023E-001 
9269743.429 +1.0190135241E+000 +3.5041660070E-001  -2.7340021916E-004 +4.3297507800E-003  -2.5579275098E-004 +4.0493481793E-003  +7.6947349310E-001 -2.7889877558E-001 
9394888.611 +1.0452588797E+000 +3.4649300575E-001  -2.2027781233E-004 +4.3977429159E-003  -3.7170120049E-004 +4.2779603973E-003  +7.5930440426E-001 -2.6700532436E-001 
9520033.792 +1.0736831427E+000 +3.3451235294E-001  -3.0035595410E-004 +4.5751510188E-003  -1.9603141118E-004 +4.5522954315E-003  +7.5039863586E-001 -2.4497491121E-001 
9645178.974 +1.0979110003E+000 +3.2511720061E-001  -1.9256037194E-004 +4.4978838414E-003  -2.1862215362E-004 +4.3950323015E-003  +7.4458259344E-001 -2.3098480701E-001 
9770324.155 +1.1171088219E+000 +3.1199264526E-001  -2.9196846299E-004 +4.5213149861E-003  -2.5426479988E-004 +4.4633010402E-003  +7.3867201805E-001 -2.0915931463E-001 
9895469.337 +1.1399093866E+000 +3.0055662990E-001  -2.9517523944E-004 +4.6093999408E-003  -1.0915310122E-004 +4.6938606538E-003  +7.3093199730E-001 -1.9391551614E-001 
10020614.518 +1.1596388817E+000 +2.8469139338E-001  -2.6466953568E-004 +4.7923102975E-003  -2.1534040570E-004 +4.7967415303E-003  +7.2816014290E-001 -1.7706501484E-001 
10145759.700 +1.1782512665E+000 +2.6237556338E-001  -1.6948254779E-004 +4.9312119372E-003  -3.4633558244E-004 +4.9174288288E-003  +7.2544360161E-001 -1.6086256504E-001 
10270904.881 +1.1958163977E+000 +2.4402862787E-001  -1.7506279983E-004 +4.8185288906E-003  -2.3088185117E-004 +4.9050822854E-003  +7.2185099125E-001 -1.4860963821E-001 
10396050.063 +1.2079169750E+000 +2.2377842665E-001  -1.1804443784E-004 +4.9758488312E-003  -5.9345969930E-005 +5.0149131566E-003  +7.1861928701E-001 -1.2749108672E-001 
10521195.244 +1.2214554548E+000 +2.0608174801E-001  -1.0906346142E-004 +5.1240962930E-003  -1.2762751430E-004 +5.1996046677E-003  +7.1744823456E-001 -1.1241707206E-001 
10646340.426 +1.2299437523E+000 +1.8563610315E-001  -1.9172276370E-004 +5.1701394841E-003  -2.1467567421E-004 +5.1741525531E-003  +7.1562349796E-001 -9.8194360733E-002 
10771485.607 +1.2377725840E+000 +1.6314488649E-001  -1.3880082406E-004 +5.2072666585E-003  -1.5033828095E-004 +5.3234612569E-003  +7.1774840355E-001 -8.0847501755E-002 
10896630.788 +1.2430858612E+000 +1.4548760653E-001  -1.3900734484E-004 +5.3060376085E-003  -1.4396966435E-004 +5.3120292723E-003  +7.1576344967E-001 -6.6375136375E-002 
11021775.970 +1.2460023165E+000 +1.2378394604E-001  -1.0061496869E-004 +5.2609015256E-003  -1.2945779599E-004 +5.4037272930E-003  +7.1688359976E-001 -5.2091926336E-002 
11146921.151 +1.2496268749E+000 +1.0125023127E-001  -1.5488849021E-004 +5.4855095223E-003  -2.1344772540E-004 +5.4234527051E-003  +7.1955192089E-001 -3.6142915487E-002 
11272066.333 +1.2486630678E+000 +8.1273198128E-002  -9.0716173872E-005 +5.5551268160E-003  -1.0955194011E-004 +5.5391932838E-003  +7.2141796350E-001 -2.1966606379E-002 
11397211.514 +1.2489633560E+000 +6.3796460629E-002  -5.7896832004E-005 +5.5519230664E-003  -1.6391300596E-004 +5.6368755177E-003  +7.2394722700E-001 -8.2794725895E-003 
11522356.696 +1.2470294237E+000 +4.4820964336E-002  -7.0501351729E-005 +5.6497175246E-003  -1.0320916772E-004 +5.6159687229E-003  +7.2815376520E-001 +6.5678060055E-003 
11647501.877 +1.2421503067E+000 +2.8588414192E-002  -1.2716115452E-004 +5.7075475343E-003  -1.1278572492E-004 +5.8210324496E-003  +7.3051667213E-001 +1.9875377417E-002 
11772647.059 +1.2390398979E+000 +1.1703968048E-002  -9.3082897365E-005 +5.7370704599E-003  -9.6342759207E-005 +5.7492395863E-003  +7.3582291603E-001 +3.2948672771E-002 
11897792.240 +1.2334016562E+000 -4.2577385902E-003  -6.9744419307E-005 +5.8367075399E-003  -4.0992395952E-005 +5.8559160680E-003  +7.4073469639E-001 +4.6156138182E-002 
12022937.422 +1.2292944193E+000 -1.8105119467E-002  -5.3314026445E-005 +5.9464448132E-003  -7.0704380050E-005 +5.9284223244E-003  +7.4656432867E-001 +5.7684570551E-002 
12148082.603 +1.2211091518E+000 -3.2981604338E-002  -5.1428563893E-005 +5.9641674161E-003  -6.6626816988E-005 +5.9860637411E-003  +7.5385248661E-001 +7.1238368750E-002 
12273227.785 +1.2136266232E+000 -4.5148581266E-002  -8.6417188868E-005 +6.0902568512E-003  -2.0375708118E-005 +6.0625025071E-003  +7.6149630547E-001 +8.2768961787E-002 
12398372.966 +1.2047228813E+000 -5.7215511799E-002  -2.4471664801E-005 +6.0662580654E-003  -8.6541404016E-005 +6.0803038068E-003  +7.6928603649E-001 +9.4161123037E-002 
12523518.148 +1.1948291063E+000 -6.7092418671E-002  -2.0026811399E-005 +6.1713154428E-003  -1.0465271771E-004 +6.1479746364E-003  +7.7543169260E-001 +1.0378126800E-001 
12648663.329 +1.1865464449E+000 -7.7048853040E-002  -1.7821672373E-005 +6.2999832444E-003  -6.5697589889E-005 +6.2695364468E-003  +7.8495925665E-001 +1.1509220302E-001 
12773808.511 +1.1778585911E+000 -8.7340250611E-002  -6.8490393460E-005 +6.2818676233E-003  -5.6912889704E-005 +6.3254223205E-003  +7.9485398531E-001 +1.2472398579E-001 
12898953.692 +1.1684807539E+000 -9.5676928759E-002  -3.0885799788E-005 +6.3945432194E-003  -2.0175531972E-005 +6.3763121143E-003  +8.0381923914E-001 +1.3396523893E-001 
13024098.874 +1.1591023207E+000 -1.0241363198E-001  -4.6620174544E-005 +6.4211767167E-003  -5.2030838560E-005 +6.4460379072E-003  +8.1427311897E-001 +1.4402277768E-001 
13149244.055 +1.1489574909E+000 -1.0787371546E-001  +1.5896599507E-005 +6.5270443447E-003  -6.4592066337E-005 +6.5424246714E-003  +8.2470053434E-001 +1.5312033892E-001 
13274389.237 +1.1386221647E+000 -1.1630893499E-001  +2.1980376914E-006 +6.5967021510E-003  -2.8135313187E-005 +6.5391580574E-003  +8.3605617285E-001 +1.6048546135E-001 
13399534.418 +1.1283180714E+000 -1.2014394999E-001  +1.0694609955E-005 +6.6690626554E-003  +1.4598248526E-005 +6.6309589893E-003  +8.4606367350E-001 +1.6757580638E-001 
13524679.599 +1.1186432838E+000 -1.2382660806E-001  +3.4317956306E-005 +6.7852749489E-003  -1.3818324078E-005 +6.7438315600E-003  +8.5802358389E-001 +1.7452129722E-001 
13649824.781 +1.1097998619E+000 -1.2804847956E-001  -5.1178620197E-005 +6.7783924751E-003  +4.2548868805E-005 +6.8372339010E-003  +8.7108266354E-001 +1.7973114550E-001 
13774969.962 +1.1001018286E+000 -1.3198554516E-001  +5.7971570641E-005 +6.8521448411E-003  +1.5511759557E-005 +6.8715857342E-003  +8.8199472427E-001 +1.8411481380E-001 
13900115.144 +1.0911023617E+000 -1.3445952535E-001  +5.4423930123E-005 +6.9450782612E-003  +3.5057426430E-005 +6.9003384560E-003  +8.9378917217E-001 +1.8912923336E-001 
14025260.325 +1.0808970928E+000 -1.3527032733E-001  +3.6281999201E-005 +7.0158084854E-003  -5.3306575865E-006 +7.0284092799E-003  +9.0577417612E-001 +1.9307991862E-001 
14150405.507 +1.0727897882E+000 -1.3655528426E-001  +7.1055488661E-005 +7.0758191869E-003  +4.8594316468E-005 +7.0627313107E-003  +9.1926419735E-001 +1.9637832046E-001 
14275550.688 +1.0640351772E+000 -1.3726678491E-001  +4.9843685701E-005 +7.1060149930E-003  +6.2535516918E-005 +7.1584954858E-003  +9.3158066273E-001 +1.9746349752E-001 
14400695.870 +1.0536339283E+000 -1.3830000162E-001  +9.5347641036E-005 +7.2198128328E-003  +1.0779150762E-004 +7.2173546068E-003  +9.4363862276E-001 +1.9920110703E-001 
