!  2-Port S-parameters saved by WinCal
! VAR MeasName=S-Parameters (CALIBRATED_DATA) read from VNA (P5004A)
! VAR MeasDate=22/05/2024 18:48:55
! VAR NAME=Wafer2_r2_c1_formed_neg0.4dc
! VAR FILENAME=Wafer2_r2_c1_formed_neg0.4dc.S2P
! VAR DATE=22/05/2024 18:48:55
! VAR PHYS_PORTS=1,2
! VAR ObjTypeName=DATASET
! VAR IndexType=Frequency
!
# Hz S RI R 50
9000.000 +2.1713411808E-001 -5.8915078640E-001  +9.0752094984E-003 -1.3869635761E-002  -4.7717802227E-003 -3.0478788540E-004  +5.7968221605E-002 +1.0424383730E-001 
134145.181 +6.3366925716E-001 -7.3307745159E-002  -8.1881595543E-004 +7.9816337675E-003  +8.6843688041E-003 -2.6962733828E-003  -1.5568704903E-001 -3.1887307763E-001 
259290.363 +8.3883970976E-001 -1.3102698326E-001  +1.0235055815E-003 -4.5922668651E-003  +1.2739110738E-002 -4.1752504185E-003  +1.4707281590E+000 -9.4683051109E-001 
384435.544 +8.9289754629E-001 -3.0634278059E-001  -1.9868121017E-003 -1.3162698597E-002  +1.2154560536E-003 +5.8836903423E-002  +4.8890991211E+000 -3.1870365143E+000 
509580.726 +9.5459055901E-001 -1.6372102499E-001  +5.7393913157E-003 -1.7763958313E-003  -8.5155782290E-004 -1.3908116380E-003  +1.7574790716E+000 -2.6478314400E-001 
634725.907 +1.0982513428E+000 -1.9913959503E-001  -8.6788302287E-003 -3.2943203114E-003  -4.3129548430E-006 -2.0020552911E-003  +2.7112064362E+000 +1.1304372549E+000 
759871.089 +1.2718377113E+000 -4.4850170612E-002  +1.3354682596E-004 +1.2275781482E-003  +4.5933664660E-004 +1.0345266201E-003  +1.4665634632E+000 +3.8883525133E-001 
885016.270 +1.1061137915E+000 -4.1716349125E-001  -6.5943131631E-005 +8.9333351934E-004  -1.4507379383E-003 +7.2938669473E-004  +1.2097656727E+000 +4.8702102900E-001 
1010161.452 +1.2198845148E+000 -7.8166037798E-002  -2.3168878397E-004 +9.6666940954E-004  -5.0525646657E-004 +1.9952032017E-004  +1.1877849102E+000 +4.8585367203E-001 
1135306.633 +1.3033783436E+000 -9.4722211361E-002  +6.4361818659E-005 -2.4760442102E-005  -6.2097801128E-004 +4.7312976676E-004  +1.3001343012E+000 +6.0370218754E-001 
1260451.815 +1.5488685369E+000 -7.9373180866E-002  +4.7782110050E-004 +2.4207109527E-004  +1.8098876171E-004 -4.0823989548E-004  +1.0986011028E+000 +7.0464849472E-001 
1385596.996 +1.3817006350E+000 -1.1463701725E-001  -1.3100361684E-007 +1.2711495219E-004  -7.3688293924E-005 +4.2384679546E-004  +9.8561489582E-001 +4.8245698214E-001 
1510742.178 +1.6189876795E+000 -1.5065521002E-001  -1.0033027502E-004 +8.2666792878E-006  +7.1757895057E-006 -1.2377015082E-004  +6.7834413052E-001 +5.7384395599E-001 
1635887.359 +1.1269838810E+000 -3.7158209085E-001  +2.6679388247E-004 +4.0053483099E-004  -5.7344150264E-006 +2.4427668541E-004  +1.5209832191E+000 +6.3109523058E-001 
1761032.541 +1.2788785696E+000 -3.1842079759E-001  -1.3918276818E-004 -1.0528347048E-004  -4.8748472182E-005 +2.4941709125E-004  +1.1041836739E+000 +8.2730424404E-001 
1886177.722 +1.2072843313E+000 -2.3550301790E-001  -2.4359601957E-004 +1.8574262504E-004  -1.8452790391E-004 +1.8281672965E-004  +1.1451125145E+000 +5.5880361795E-001 
2011322.904 +1.1874973774E+000 -2.2909832001E-001  -2.3369719565E-004 +3.9230528637E-004  -2.8952973662E-004 +2.4711678270E-004  +1.1580513716E+000 +5.2584123611E-001 
2136468.085 +1.1982090473E+000 -1.7900183797E-001  +6.0106205638E-005 +4.1856284952E-004  -8.6142790678E-005 +3.0256801983E-004  +1.0970009565E+000 +4.7693037987E-001 
2261613.267 +1.2127437592E+000 -1.7530575395E-001  -7.0840222179E-005 +4.0748793981E-004  -2.6241075830E-004 +2.1769391606E-004  +1.0533460379E+000 +5.1591259241E-001 
2386758.448 +1.2188019753E+000 -1.8377859890E-001  -3.7329521729E-004 +9.6143136034E-004  -5.1214481937E-004 +6.5953121521E-004  +1.0717909336E+000 +5.4530179501E-001 
2511903.630 +1.2292448282E+000 -2.0482590795E-001  -5.5668677669E-004 +5.8560719481E-004  -3.9533057134E-004 +5.8752961922E-004  +1.1144205332E+000 +5.8079957962E-001 
2637048.811 +1.1888016462E+000 -2.3667511344E-001  -3.7548912223E-004 +3.9403213304E-004  -5.0161127001E-004 +6.2326528132E-004  +1.1207592487E+000 +6.0882014036E-001 
2762193.992 +1.1332833767E+000 -1.6563168168E-001  -6.6242413595E-004 +6.7234563176E-004  -8.2679052139E-004 +1.2947008945E-003  +1.1356748343E+000 +5.1612567902E-001 
2887339.174 +1.1809481382E+000 -1.0749125481E-001  +5.4118840490E-004 +4.4445213862E-003  -5.2652927116E-004 +1.3817884028E-003  +9.9193495512E-001 +5.0233960152E-001 
3012484.355 +1.2290656567E+000 -1.3207381964E-001  -5.9741700534E-004 +6.7429401679E-004  -6.2588567380E-004 +2.6952044573E-004  +9.4763535261E-001 +6.1398959160E-001 
3137629.537 +1.2293344736E+000 -1.2524211407E-001  -5.1245797658E-004 +7.3289754800E-004  -3.6187106161E-004 +5.6942756055E-004  +9.6580326557E-001 +7.2429978848E-001 
3262774.718 +1.2459688187E+000 -1.3704645634E-001  -6.6693697590E-004 +5.3229852347E-004  -8.9002714958E-004 +9.3501160154E-004  +1.0157030821E+000 +7.8914964199E-001 
3387919.900 +1.2345590591E+000 -1.5946799517E-001  -7.7128747944E-004 +8.4471277660E-004  -9.4206666108E-004 +1.0119242361E-003  +1.0594274998E+000 +8.5823923349E-001 
3513065.081 +1.2580997944E+000 -1.7039275169E-001  -1.2875001412E-003 +8.3750358317E-004  -6.7206838867E-004 +1.2171831913E-003  +1.0898269415E+000 +9.3791574240E-001 
3638210.263 +1.2891691923E+000 -1.9375789165E-001  -6.9706549402E-004 +1.1099152034E-003  -5.7874521008E-004 +8.0848479411E-004  +1.1854809523E+000 +9.7555392981E-001 
3763355.444 +1.2857923508E+000 -2.2429585457E-001  -1.0794253321E-003 +2.0015451591E-003  -1.6907877289E-003 +6.3995691016E-004  +1.2777085304E+000 +1.0137064457E+000 
3888500.626 +1.2913979292E+000 -2.7722045779E-001  -7.6365284622E-004 +1.2366492301E-003  -1.2611248530E-003 +1.6641910188E-003  +1.3695577383E+000 +1.0833916664E+000 
4013645.807 +1.1147516966E+000 -4.0191861987E-001  -1.6802141909E-004 +2.1044015884E-003  -7.6870969497E-004 +2.6841112413E-003  +1.6458448172E+000 +8.7068116665E-001 
4138790.989 +8.9083015919E-001 -4.3913149834E-001  -5.2486237837E-004 +1.9970652647E-003  -4.8728386173E-004 +2.1534399129E-003  +1.7957781553E+000 +5.4407292604E-001 
4263936.170 +8.6192667484E-001 -4.3384522200E-001  -9.9464214873E-004 +2.8353775851E-003  -2.3836377659E-004 +2.0506987348E-003  +1.8400356770E+000 +4.4889959693E-001 
4389081.352 +8.0861997604E-001 -4.2790395021E-001  +2.6495003840E-004 +2.5571836159E-003  +2.8707139427E-004 +3.0541103333E-003  +1.8844014406E+000 +3.2015746832E-001 
4514226.533 +7.7879798412E-001 -4.3259233236E-001  +2.6433839230E-004 +3.9838594384E-003  +5.4778996855E-005 +2.7712222654E-003  +1.9230448008E+000 +2.1972174942E-001 
4639371.715 +7.6011687517E-001 -4.0981882811E-001  +5.5051990785E-005 +3.0127116479E-003  -3.8672945811E-004 +2.1411483176E-003  +1.9187120199E+000 +1.3827256858E-001 
4764516.896 +7.1868520975E-001 -3.8704714179E-001  +1.7111629131E-004 +2.2912526038E-003  +3.2659122371E-004 +2.5413460098E-003  +1.9230394363E+000 +4.4431492686E-002 
4889662.078 +6.9239217043E-001 -3.5653442144E-001  +5.3546100389E-004 +3.0503603630E-003  +5.8796285884E-005 +2.3595795501E-003  +1.9260054827E+000 -4.7124832869E-002 
5014807.259 +6.6569709778E-001 -3.3276972175E-001  +2.9682237073E-004 +2.9276153073E-003  +6.0316076269E-004 +3.6318593193E-003  +1.8763990402E+000 -1.0980106890E-001 
5139952.441 +6.5271806717E-001 -3.2039034367E-001  +4.0662824176E-004 +3.1443478074E-003  +5.7043938432E-004 +2.6116839144E-003  +1.8516274691E+000 -1.9435632229E-001 
5265097.622 +6.2544542551E-001 -2.8815177083E-001  +7.3819025420E-004 +2.1117036231E-003  +4.5668298844E-004 +2.8603351675E-003  +1.8031440973E+000 -2.6853585243E-001 
5390242.804 +6.2015002966E-001 -2.5288331509E-001  +6.7552539986E-004 +2.5596404448E-003  +3.8988637971E-004 +2.5935301092E-003  +1.7555211782E+000 -3.0469155312E-001 
5515387.985 +6.0867458582E-001 -2.2886407375E-001  +6.2521331711E-004 +2.7375360951E-003  +3.5783476778E-004 +3.1111536082E-003  +1.7082567215E+000 -3.8089400530E-001 
5640533.166 +5.8582019806E-001 -2.0355612040E-001  +3.8722791942E-005 +2.6713700499E-003  +6.7321833922E-004 +2.9375529848E-003  +1.6759926081E+000 -4.2102363706E-001 
5765678.348 +5.7889276743E-001 -1.6591922939E-001  +8.4864627570E-004 +2.9835298192E-003  +1.0717257101E-004 +2.9776305892E-003  +1.6241827011E+000 -4.5808380842E-001 
5890823.529 +5.7252931595E-001 -1.3660800457E-001  +7.4247305747E-004 +2.7490973007E-003  +3.8273417158E-004 +3.1573236920E-003  +1.5539522171E+000 -4.8632001877E-001 
6015968.711 +5.6923997402E-001 -1.0489118844E-001  +7.2247098433E-004 +2.9542462435E-003  +6.0504168505E-004 +2.9771584086E-003  +1.5126961470E+000 -5.1714873314E-001 
6141113.892 +5.6502503157E-001 -7.1074925363E-002  +8.0944970250E-004 +2.4536342826E-003  +9.4529142370E-004 +2.8325591702E-003  +1.4573724270E+000 -5.2066445351E-001 
6266259.074 +5.6905651093E-001 -4.2513914406E-002  +2.3784866789E-004 +2.6321019977E-003  +6.7715859041E-004 +2.9672905803E-003  +1.4023033381E+000 -5.4055500031E-001 
6391404.255 +5.6809616089E-001 -1.4947518706E-002  +6.8663945422E-004 +3.0955430120E-003  +6.2778429128E-004 +2.9662812594E-003  +1.3390502930E+000 -5.5143904686E-001 
6516549.437 +5.7299679518E-001 +1.2277984060E-002  +3.9250351256E-004 +2.6675038971E-003  +4.5224401401E-004 +2.9140026309E-003  +1.3049591780E+000 -5.4837667942E-001 
6641694.618 +5.8120846748E-001 +5.0560407341E-002  +3.4212705214E-004 +2.8202391695E-003  +6.5753230592E-004 +3.0076578259E-003  +1.2633577585E+000 -5.5492174625E-001 
6766839.800 +5.9125983715E-001 +7.7388778329E-002  +8.1598013639E-004 +2.7479412965E-003  +5.3138268413E-004 +3.0233177822E-003  +1.2196663618E+000 -5.5814212561E-001 
6891984.981 +5.9844005108E-001 +9.9158607423E-002  +3.8434320595E-004 +3.5681857262E-003  -1.4581906726E-005 +3.2555214129E-003  +1.1738505363E+000 -5.4881459475E-001 
7017130.163 +6.0962325335E-001 +1.2676751614E-001  +4.1171748308E-004 +3.1515501905E-003  +3.3516844269E-004 +2.8878152370E-003  +1.1432816982E+000 -5.3763175011E-001 
7142275.344 +6.1950737238E-001 +1.5337845683E-001  +2.6298730518E-004 +3.1345584430E-003  +2.2493358119E-004 +3.0862649437E-003  +1.1146194935E+000 -5.3264129162E-001 
7267420.526 +6.3546085358E-001 +1.8087022007E-001  +1.7797440523E-004 +3.0308377463E-003  +4.8068893375E-004 +2.9465164989E-003  +1.0776971579E+000 -5.2260005474E-001 
7392565.707 +6.5235221386E-001 +2.0748437941E-001  -3.7807883928E-005 +3.1624878757E-003  +1.8272027955E-004 +3.0289895367E-003  +1.0516753197E+000 -5.1793313026E-001 
7517710.889 +6.6678929329E-001 +2.2336536646E-001  -2.4944398319E-005 +3.2743783668E-003  +7.2752474807E-005 +3.2319498714E-003  +1.0257173777E+000 -5.0118553638E-001 
7642856.070 +6.8120211363E-001 +2.4369293451E-001  +3.8375728764E-006 +3.3506625332E-003  +1.3994739857E-004 +3.1577926129E-003  +9.8657363653E-001 -4.9590891600E-001 
7768001.252 +7.0556646585E-001 +2.6891458035E-001  -1.6800244339E-005 +3.2264506444E-003  +4.8156711273E-005 +3.3347276039E-003  +9.6230918169E-001 -4.7878837585E-001 
7893146.433 +7.3112899065E-001 +2.8498202562E-001  +1.8308783183E-004 +3.2931461465E-003  +2.3601111025E-004 +3.3532301895E-003  +9.3900251389E-001 -4.6065616608E-001 
8018291.615 +7.5115764141E-001 +3.0352759361E-001  +1.3419799507E-004 +3.6259111948E-003  +1.2565188808E-004 +3.5707573406E-003  +9.1084504128E-001 -4.4651138783E-001 
8143436.796 +7.7451252937E-001 +3.1157815456E-001  -3.5883684177E-005 +3.4665483981E-003  +4.4737767894E-005 +3.5213602241E-003  +8.9353102446E-001 -4.2895674706E-001 
8268581.977 +7.9737293720E-001 +3.2803705335E-001  -9.6420524642E-005 +3.5550047178E-003  -1.2221018551E-004 +3.5492475145E-003  +8.7603223324E-001 -4.1126304865E-001 
8393727.159 +8.2531052828E-001 +3.3422228694E-001  -7.0113514084E-005 +3.6837200169E-003  -2.3003650131E-004 +3.4670061432E-003  +8.6111229658E-001 -3.9702785015E-001 
8518872.340 +8.5395681858E-001 +3.4366077185E-001  +5.8599049225E-005 +3.6334490869E-003  -5.7416327763E-005 +3.4743514843E-003  +8.4181475639E-001 -3.7743231654E-001 
8644017.522 +8.7727534771E-001 +3.5221886635E-001  -3.3404317219E-004 +3.7147193216E-003  -1.9690254703E-005 +3.7045378704E-003  +8.3208107948E-001 -3.6572438478E-001 
8769162.703 +9.0894556046E-001 +3.5800573230E-001  -1.8393201753E-004 +3.8996932562E-003  -4.4569687452E-004 +3.8349770475E-003  +8.1808650494E-001 -3.4860688448E-001 
8894307.885 +9.3521648645E-001 +3.5619580746E-001  -8.9184381068E-005 +4.0659224615E-003  -1.1505803559E-004 +4.0016332641E-003  +8.0197924376E-001 -3.3338573575E-001 
9019453.066 +9.6164441109E-001 +3.5888263583E-001  -2.0303763449E-004 +3.9826976135E-003  -1.6577739734E-004 +4.1213543154E-003  +7.9064142704E-001 -3.1743672490E-001 
9144598.248 +9.9289149046E-001 +3.5632282495E-001  -3.8512004539E-004 +4.1539063677E-003  -7.1079586633E-005 +4.2473110370E-003  +7.8005194664E-001 -2.9641634226E-001 
9269743.429 +1.0196228027E+000 +3.5323080420E-001  -1.9624363631E-004 +4.1625499725E-003  -3.2715068664E-004 +4.3765772134E-003  +7.6905071735E-001 -2.8002160788E-001 
9394888.611 +1.0456503630E+000 +3.5284519196E-001  -2.2796343546E-004 +4.3159155175E-003  -1.2914568651E-004 +4.3307389133E-003  +7.5898796320E-001 -2.6769781113E-001 
9520033.792 +1.0708781481E+000 +3.3732160926E-001  -1.7903570551E-004 +4.4508725405E-003  -2.2437074222E-004 +4.4372151606E-003  +7.5143468380E-001 -2.4513940513E-001 
9645178.974 +1.0989496708E+000 +3.2794821262E-001  -2.5387050118E-004 +4.3918811716E-003  -2.6833324227E-004 +4.5034633949E-003  +7.4438434839E-001 -2.2877514362E-001 
9770324.155 +1.1183981895E+000 +3.1397339702E-001  -2.4830747861E-004 +4.5676389709E-003  -1.9318750128E-004 +4.5843869448E-003  +7.3551678658E-001 -2.1139681339E-001 
9895469.337 +1.1410794258E+000 +3.0142101645E-001  -2.1841179114E-004 +4.7248429619E-003  -2.0457420032E-004 +4.7100610100E-003  +7.2922158241E-001 -1.9405591488E-001 
10020614.518 +1.1562912464E+000 +2.8326532245E-001  -2.0591146313E-004 +4.7606001608E-003  -2.0423368551E-004 +4.7381734475E-003  +7.2733038664E-001 -1.7623510957E-001 
10145759.700 +1.1777160168E+000 +2.6466345787E-001  -3.0636135489E-004 +4.8233671114E-003  -3.0871131457E-004 +4.8440014943E-003  +7.2398030758E-001 -1.6484716535E-001 
10270904.881 +1.1975617409E+000 +2.4451479316E-001  -1.1842441745E-004 +4.9431635998E-003  -1.1136312969E-004 +4.8191291280E-003  +7.2130769491E-001 -1.4767685533E-001 
10396050.063 +1.2065258026E+000 +2.2536340356E-001  -2.3465347476E-004 +4.9273553304E-003  -1.9855191931E-004 +5.0439722836E-003  +7.1733129025E-001 -1.2883979082E-001 
10521195.244 +1.2187550068E+000 +2.0690065622E-001  -2.6324484497E-004 +5.0564492121E-003  -2.4383421987E-004 +4.9887960777E-003  +7.1727663279E-001 -1.1423879862E-001 
10646340.426 +1.2289220095E+000 +1.8670403957E-001  -2.0341901109E-004 +5.2043031901E-003  -2.2231903858E-004 +5.1385043189E-003  +7.1443080902E-001 -9.9022775888E-002 
10771485.607 +1.2377625704E+000 +1.6519492865E-001  -1.2728804722E-004 +5.2994759753E-003  -1.8684263341E-004 +5.2434452809E-003  +7.1567296982E-001 -8.1022113562E-002 
10896630.788 +1.2420814037E+000 +1.4472508430E-001  -1.4965608716E-004 +5.2946712822E-003  -1.9269366749E-004 +5.3358096629E-003  +7.1501362324E-001 -6.6125482321E-002 
11021775.970 +1.2444453239E+000 +1.2528407574E-001  -1.8952786922E-004 +5.2777240053E-003  -1.6550766304E-004 +5.3645456210E-003  +7.1684837341E-001 -5.0090700388E-002 
11146921.151 +1.2491816282E+000 +1.0224175453E-001  -7.8278128058E-005 +5.3986930288E-003  -1.7173821107E-004 +5.4931463674E-003  +7.1870207787E-001 -3.6967992783E-002 
11272066.333 +1.2471840382E+000 +8.1992805004E-002  -1.2102047913E-004 +5.5318502709E-003  -1.2947176583E-004 +5.5012581870E-003  +7.2009247541E-001 -2.2560030222E-002 
11397211.514 +1.2496979237E+000 +6.6077888012E-002  -1.6033230349E-004 +5.5718817748E-003  -1.3248738833E-004 +5.5458815768E-003  +7.2332340479E-001 -7.8028440475E-003 
11522356.696 +1.2473484278E+000 +4.5297801495E-002  -1.4585815370E-004 +5.6482884102E-003  -9.8088057712E-005 +5.5547440425E-003  +7.2720944881E-001 +6.1757266521E-003 
11647501.877 +1.2415477037E+000 +3.1392872334E-002  -1.5023234300E-004 +5.7452111505E-003  -2.0553567447E-004 +5.7025607675E-003  +7.3057383299E-001 +1.8568277359E-002 
11772647.059 +1.2388675213E+000 +1.2958347797E-002  -5.9368787333E-005 +5.7901591063E-003  -9.1974390671E-005 +5.7754353620E-003  +7.3512905836E-001 +3.2074034214E-002 
11897792.240 +1.2323570251E+000 -2.1905303001E-003  -2.0110281184E-005 +5.9011382982E-003  -1.0800152086E-004 +5.8040907606E-003  +7.4066507816E-001 +4.6098142862E-002 
12022937.422 +1.2279928923E+000 -1.6538351774E-002  -1.4294730499E-004 +5.9339334257E-003  -1.1233775876E-004 +5.9080407955E-003  +7.4635142088E-001 +5.7065755129E-002 
12148082.603 +1.2204147577E+000 -3.1972646713E-002  -8.3602033556E-005 +5.9628323652E-003  -5.3545925766E-005 +5.9819021262E-003  +7.5346404314E-001 +7.0360124111E-002 
12273227.785 +1.2126601934E+000 -4.2798608541E-002  -8.5710082203E-005 +6.0394057073E-003  -1.4771451242E-004 +6.0127764009E-003  +7.6081234217E-001 +8.1993162632E-002 
12398372.966 +1.2048316002E+000 -5.5745452642E-002  -9.2203379609E-005 +6.1437464319E-003  -1.1336826719E-004 +6.1375345103E-003  +7.6818406582E-001 +9.1984719038E-002 
12523518.148 +1.1946914196E+000 -6.6455498338E-002  -6.4354622737E-005 +6.1762095429E-003  -6.0691381805E-005 +6.1818738468E-003  +7.7515345812E-001 +1.0280528665E-001 
12648663.329 +1.1872752905E+000 -7.6965257525E-002  -5.1990500651E-005 +6.2138861977E-003  -5.3815310821E-006 +6.2109176069E-003  +7.8481692076E-001 +1.1347357929E-001 
12773808.511 +1.1773902178E+000 -8.6424067616E-002  -4.8474757932E-005 +6.2597487122E-003  -2.6780413464E-005 +6.2912250869E-003  +7.9415214062E-001 +1.2354768813E-001 
12898953.692 +1.1679865122E+000 -9.4531089067E-002  -6.4008869231E-005 +6.3202218153E-003  -6.3520739786E-005 +6.3413945027E-003  +8.0457520485E-001 +1.3263124228E-001 
13024098.874 +1.1584286690E+000 -1.0228045285E-001  -7.1506045060E-005 +6.4147994854E-003  -5.3340481827E-005 +6.3953585923E-003  +8.1372046471E-001 +1.4303892851E-001 
13149244.055 +1.1485826969E+000 -1.0683783889E-001  -2.6149180485E-005 +6.4960140735E-003  -8.9428256615E-005 +6.4861802384E-003  +8.2366704941E-001 +1.5085908771E-001 
13274389.237 +1.1384545565E+000 -1.1381328851E-001  -4.8709320254E-005 +6.5896464512E-003  -2.9269198421E-005 +6.5739755519E-003  +8.3593022823E-001 +1.5908579528E-001 
13399534.418 +1.1275516748E+000 -1.1866465211E-001  -1.2601958588E-006 +6.6394577734E-003  -1.6141741071E-005 +6.6737695597E-003  +8.4651952982E-001 +1.6665843129E-001 
13524679.599 +1.1185653210E+000 -1.2254022062E-001  -1.3648124877E-005 +6.7534619011E-003  -3.0609488022E-005 +6.7375293002E-003  +8.5825240612E-001 +1.7399698496E-001 
13649824.781 +1.1098319292E+000 -1.2728938460E-001  +1.7333426513E-005 +6.7623849027E-003  +8.0086756498E-006 +6.7873741500E-003  +8.7034636736E-001 +1.7806544900E-001 
13774969.962 +1.0986796618E+000 -1.3015744090E-001  +2.1266750991E-005 +6.7888335325E-003  +2.6343972422E-005 +6.8674315698E-003  +8.8217031956E-001 +1.8373242021E-001 
13900115.144 +1.0902855396E+000 -1.3249182701E-001  +3.4097931348E-005 +6.9106770679E-003  +4.3132691644E-005 +6.9380276836E-003  +8.9382112026E-001 +1.8852862716E-001 
14025260.325 +1.0810012817E+000 -1.3421079516E-001  -1.9774306566E-006 +6.9747269154E-003  +5.5459327996E-005 +7.0330123417E-003  +9.0597659349E-001 +1.9161459804E-001 
14150405.507 +1.0721858740E+000 -1.3570895791E-001  +4.8774061725E-005 +7.0599922910E-003  +5.1945913583E-005 +7.0569072850E-003  +9.1878962517E-001 +1.9494512677E-001 
14275550.688 +1.0632314682E+000 -1.3732647896E-001  +1.2123468332E-004 +7.1279495023E-003  +5.6891236454E-005 +7.1191154420E-003  +9.3158864975E-001 +1.9648644328E-001 
14400695.870 +1.0538653135E+000 -1.3791528344E-001  +1.0651466437E-004 +7.1995002218E-003  +7.7380798757E-005 +7.1567278355E-003  +9.4383049011E-001 +1.9810810685E-001 
