!  2-Port S-parameters saved by WinCal
! VAR MeasName=S-Parameters (CALIBRATED_DATA) read from VNA (P5004A)
! VAR MeasDate=22/05/2024 18:58:20
! VAR NAME=Wafer2_r2_c1_formed_neg1.2dc_repeat2
! VAR FILENAME=Wafer2_r2_c1_formed_neg1.2dc_repeat2.S2P
! VAR DATE=22/05/2024 18:58:20
! VAR PHYS_PORTS=1,2
! VAR ObjTypeName=DATASET
! VAR IndexType=Frequency
!
# Hz S RI R 50
9000.000 +2.2204443812E-001 -6.0225498676E-001  -1.0717012919E-002 -2.3172260262E-003  +1.0767460335E-003 -2.2570008878E-003  +5.0481498241E-002 +9.4607830048E-002 
134145.181 +5.9139442444E-001 +2.2606074810E-002  +5.2542537451E-003 +2.3146504536E-002  -2.5569321588E-002 -7.4659022503E-003  -6.9567449391E-002 -4.7490882874E-001 
259290.363 +8.4531313181E-001 -1.1424875259E-001  -1.4132620767E-002 -1.4525428414E-003  -9.2950295657E-003 +1.4457340352E-002  +1.5405040979E+000 -6.8818235397E-001 
384435.544 +8.9457148314E-001 -2.5992739201E-001  -4.2923059314E-002 +1.3950882480E-002  +1.6310557723E-002 +3.2391354442E-002  +5.7242369652E+000 -2.5354833603E+000 
509580.726 +9.4916760921E-001 -1.3906812668E-001  -4.1720364243E-003 -2.9415767640E-003  -2.5941208005E-003 +2.0988087635E-004  +1.8473223448E+000 -2.7177512646E-001 
634725.907 +1.0775241852E+000 -1.9368869066E-001  +5.0342092291E-003 -8.3579858765E-003  +3.5387342796E-003 -1.0812905617E-002  +3.8946318626E+000 +1.0556173325E+000 
759871.089 +1.2713503838E+000 -9.4307541847E-002  +4.0951449773E-004 +1.3587031281E-003  -7.3268054985E-004 +2.5322004221E-003  +1.4520263672E+000 +3.7271058559E-001 
885016.270 +9.7958153486E-001 -7.7431994677E-001  +1.6895259032E-003 +2.4950932711E-003  -1.2374151265E-003 -2.2829552181E-003  +1.2208424807E+000 +4.9013230205E-001 
1010161.452 +1.0466738939E+000 -7.4101567268E-002  -6.9199322024E-004 +1.6218234668E-004  -3.2068084693E-004 -3.4912483534E-004  +1.1927254200E+000 +4.8732703924E-001 
1135306.633 +1.0313318968E+000 +1.7105683684E-002  -5.7022366673E-004 -2.6675066329E-004  -7.0196652086E-004 -5.0513452152E-005  +1.3061660528E+000 +6.0652381182E-001 
1260451.815 +1.3031661510E+000 +2.5027990341E-004  +2.9572925996E-004 +6.0001958627E-004  +9.1556663392E-004 -3.4294583020E-004  +1.1007514000E+000 +7.0477932692E-001 
1385596.996 +1.2491157055E+000 -1.0874867439E-001  -1.8377695233E-004 -3.9063874283E-005  +1.4832508168E-004 +2.6033892937E-005  +9.8500263691E-001 +4.8303803802E-001 
1510742.178 +1.3792554140E+000 -1.9533997774E-001  +4.5355984184E-005 +2.9906095006E-004  +3.8129027234E-004 +9.1707217507E-005  +6.7900204659E-001 +5.7384896278E-001 
1635887.359 +9.5273721218E-001 -2.6593506336E-001  -2.6183249429E-004 +4.4930170407E-004  +2.3223219614E-004 +9.3782829936E-005  +1.5203155279E+000 +6.3163089752E-001 
1761032.541 +9.7647690773E-001 -2.5692376494E-001  -2.5617828942E-004 +4.5429344755E-004  +1.0706370813E-004 +2.6558263926E-004  +1.1048498154E+000 +8.2672476768E-001 
1886177.722 +9.7909712791E-001 -1.4581453800E-001  -3.5149336327E-004 +2.7170253452E-004  -4.5115998364E-004 +8.2707381807E-005  +1.1457371712E+000 +5.5933582783E-001 
2011322.904 +9.8355668783E-001 -1.0312852263E-001  -4.1673589294E-005 +2.8533310979E-004  +8.1584097643E-005 +7.7603181126E-006  +1.1581416130E+000 +5.2590042353E-001 
2136468.085 +9.9138921499E-001 -7.5890570879E-002  -4.5653694542E-005 +3.6481392453E-004  -2.2635559435E-004 +3.0195538420E-004  +1.0966387987E+000 +4.7770822048E-001 
2261613.267 +9.9183499813E-001 -6.1213821173E-002  -2.1918115090E-004 +4.0633027675E-004  -2.3334892467E-004 +2.6362342760E-004  +1.0529831648E+000 +5.1677191257E-001 
2386758.448 +9.8941308260E-001 -4.3471992016E-002  -1.2798089301E-004 +5.3032475989E-004  -1.2235400209E-004 +2.1923074382E-004  +1.0714541674E+000 +5.4477024078E-001 
2511903.630 +9.9188721180E-001 -1.4861434698E-002  -2.4416734232E-004 +5.8708846336E-004  -5.0453975564E-004 +4.5496009989E-004  +1.1145943403E+000 +5.8026468754E-001 
2637048.811 +1.0016132593E+000 -5.5320560932E-003  -2.0970139303E-004 +5.7942816056E-004  -3.7597448681E-004 +4.7719475697E-004  +1.1221194267E+000 +6.0834336281E-001 
2762193.992 +9.9242025614E-001 +2.3317366838E-002  -2.4469199707E-004 +5.0819746684E-004  -6.8629777525E-004 +9.2871967354E-005  +1.1384810209E+000 +5.1656645536E-001 
2887339.174 +9.8698455095E-001 +3.4276485443E-002  -2.4924841709E-003 +1.2650641147E-003  -6.4254956669E-005 +4.6045359340E-004  +1.0007150173E+000 +5.0456559658E-001 
3012484.355 +9.9486857653E-001 +5.0136774778E-002  -1.4980536071E-004 +2.9241011362E-004  -1.5371071640E-004 +5.4976582760E-004  +9.5051068068E-001 +6.1302304268E-001 
3137629.537 +1.0105682611E+000 +7.0748180151E-002  -7.6536426786E-004 +5.9920124477E-004  -4.7765852651E-004 +6.5423594788E-004  +9.7609496117E-001 +7.2327041626E-001 
3262774.718 +1.0068322420E+000 +8.7205439806E-002  -3.0313315801E-004 +8.4417860489E-004  -9.0191274649E-004 +2.6205988252E-004  +1.0182213783E+000 +7.9126787186E-001 
3387919.900 +1.0004042387E+000 +1.0102054477E-001  -6.2174367486E-004 +1.4174978714E-003  -6.3467386644E-004 +6.6415872425E-004  +1.0608656406E+000 +8.5871624947E-001 
3513065.081 +1.0226340294E+000 +1.1232373118E-001  -6.6165346652E-004 +8.5032201605E-004  -8.3145737881E-004 +1.1559808627E-003  +1.0982229710E+000 +9.3536293507E-001 
3638210.263 +1.0389424562E+000 +1.4849638939E-001  -8.9171889704E-004 +6.4230384305E-004  -7.8403687803E-004 +4.9593835138E-004  +1.1880223751E+000 +9.7547537088E-001 
3763355.444 +1.0543410778E+000 +1.5843608975E-001  -1.0159838712E-003 +1.1021632235E-003  -1.3896111632E-003 +9.9295214750E-004  +1.2787438631E+000 +1.0143952370E+000 
3888500.626 +1.0794422626E+000 +1.6097733378E-001  -1.1865996057E-003 +1.3862878550E-003  -1.8592985580E-003 +1.1930073379E-003  +1.3668236732E+000 +1.0832700729E+000 
4013645.807 +1.0373566151E+000 +7.6066970825E-002  -1.1252219556E-003 +1.8775189528E-003  -1.3878317550E-003 +2.1907994524E-003  +1.6503350735E+000 +8.7246608734E-001 
4138790.989 +9.6809077263E-001 -9.7093880177E-003  -6.7717884667E-004 +2.5368209463E-003  -1.2496591080E-004 +2.4584401399E-003  +1.7905052900E+000 +5.5096250772E-001 
4263936.170 +9.6006464958E-001 +5.2852332592E-003  -1.6669603065E-004 +2.7805897407E-003  -8.1490550656E-004 +3.0811594333E-003  +1.8415004015E+000 +4.4672989845E-001 
4389081.352 +9.6185106039E-001 -5.0437450409E-003  +3.8495345507E-004 +3.2029622234E-003  +3.2986485166E-004 +2.3370748386E-003  +1.8867769241E+000 +3.2093703747E-001 
4514226.533 +9.7065669298E-001 -8.9310705662E-003  +5.3487304831E-004 +3.2193888910E-003  -3.0143378535E-004 +2.4228666443E-003  +1.9136883020E+000 +2.1752104163E-001 
4639371.715 +9.9252915382E-001 -8.5130631924E-003  +2.7357152430E-004 +3.3630596008E-003  -5.9345201589E-004 +3.2396269962E-003  +1.9210991859E+000 +1.4452654123E-001 
4764516.896 +9.8261320591E-001 -1.3796538115E-002  -3.8372410927E-005 +2.3989335168E-003  -6.2325550243E-004 +3.0751386657E-003  +1.9231934547E+000 +4.7747373581E-002 
4889662.078 +9.8525464535E-001 -8.1185698509E-003  +1.2445432367E-004 +3.0888216570E-003  -6.7179498728E-005 +3.1649724115E-003  +1.9189950228E+000 -3.6146193743E-002 
5014807.259 +9.8021489382E-001 -8.7859481573E-003  +6.5548339626E-004 +3.1551949214E-003  -1.7747975653E-004 +2.6172760408E-003  +1.8730710745E+000 -9.8977446556E-002 
5139952.441 +9.8890054226E-001 -2.0274043083E-002  +8.5354212206E-004 +3.5322208423E-003  +5.2567909006E-004 +3.7961611524E-003  +1.8531864882E+000 -2.0852658153E-001 
5265097.622 +9.9225336313E-001 -1.2375548482E-002  +4.1448121192E-004 +3.1523746438E-003  -2.9699751758E-004 +3.5612746142E-003  +1.8037191629E+000 -2.6105281711E-001 
5390242.804 +9.9151957035E-001 -1.4843508601E-002  +1.2911685044E-003 +3.0998713337E-003  +3.4998625051E-004 +3.3226853702E-003  +1.7631996870E+000 -3.2184842229E-001 
5515387.985 +1.0053009987E+000 -1.1343598366E-002  +1.0327178752E-003 +3.6083012819E-003  -1.4076236403E-004 +3.2933438197E-003  +1.7062976360E+000 -3.8527479768E-001 
5640533.166 +1.0020925999E+000 -6.7698806524E-003  +4.4655997772E-004 +3.3142140601E-003  +2.2179173538E-004 +3.9900047705E-003  +1.6815917492E+000 -4.1992124915E-001 
5765678.348 +9.9438250065E-001 -1.5938028693E-002  +7.2750385152E-004 +3.5525320563E-003  +2.3889634758E-004 +3.4137510229E-003  +1.6228529215E+000 -4.5281988382E-001 
5890823.529 +9.9813133478E-001 -2.0705476403E-002  +1.1880695820E-003 +3.5709394142E-003  +2.6587466709E-004 +3.5196845420E-003  +1.5486919880E+000 -4.9069088697E-001 
6015968.711 +9.9561399221E-001 -2.5511756539E-002  +1.0459586047E-003 +3.6526024342E-003  +7.6469196938E-004 +3.6654036958E-003  +1.5118237734E+000 -5.1434355974E-001 
6141113.892 +9.9758577347E-001 -1.8642097712E-002  +1.1360861827E-003 +3.5009111743E-003  +6.3261127798E-004 +3.7190876901E-003  +1.4528243542E+000 -5.2079534531E-001 
6266259.074 +9.9701172113E-001 -2.6732578874E-002  +1.1176902335E-003 +3.5997834057E-003  +6.4850610215E-004 +3.7853114773E-003  +1.4036887884E+000 -5.3664022684E-001 
6391404.255 +9.9670410156E-001 -3.5352960229E-002  +9.8337582313E-004 +3.5250484943E-003  +4.4935478945E-004 +3.6593771074E-003  +1.3448531628E+000 -5.4334330559E-001 
6516549.437 +9.9410551786E-001 -2.4209305644E-002  +1.0460841004E-003 +3.7721742410E-003  +4.6913616825E-004 +3.7962370552E-003  +1.3020832539E+000 -5.5623817444E-001 
6641694.618 +9.9890112877E-001 -2.4145185947E-002  +1.1627962813E-003 +3.3916453831E-003  +1.1669937521E-003 +3.5314327106E-003  +1.2720108032E+000 -5.4394096136E-001 
6766839.800 +1.0039720535E+000 -2.9949724674E-002  +5.7510501938E-004 +3.6487851758E-003  +9.1459287796E-004 +3.5670318175E-003  +1.2278968096E+000 -5.5260562897E-001 
6891984.981 +9.9685996771E-001 -2.8880447149E-002  +1.2718862854E-003 +3.3505859319E-003  +6.3315650914E-004 +3.2684647013E-003  +1.1760644913E+000 -5.4779046774E-001 
7017130.163 +9.9838501215E-001 -2.6694938540E-002  +1.0827038204E-003 +3.4780534916E-003  +9.6472131554E-004 +3.7333830260E-003  +1.1432565451E+000 -5.3339833021E-001 
7142275.344 +1.0003987551E+000 -2.0002067089E-002  +9.6931122243E-004 +3.8606526796E-003  +5.8967556106E-004 +3.3254458103E-003  +1.1153116226E+000 -5.2594250441E-001 
7267420.526 +9.9509656429E-001 -1.4622643590E-002  +1.2920491863E-003 +3.6270893179E-003  +9.9047366530E-004 +3.2356928568E-003  +1.0840933323E+000 -5.1862651110E-001 
7392565.707 +9.9924969673E-001 -1.5750735998E-002  +9.3144655693E-004 +3.3955941908E-003  +1.1725488584E-003 +3.8175156806E-003  +1.0504821539E+000 -5.1534998417E-001 
7517710.889 +1.0003322363E+000 -1.4123082161E-002  +1.1624993058E-003 +3.4764427692E-003  +1.0591929313E-003 +3.5281644668E-003  +1.0226867199E+000 -5.0361472368E-001 
7642856.070 +9.9245709181E-001 -1.5517190099E-002  +1.2519578449E-003 +3.3381050453E-003  +1.0753364768E-003 +3.2361997291E-003  +9.8748147488E-001 -4.9160915613E-001 
7768001.252 +9.9919664860E-001 -1.2793093920E-002  +9.3924719840E-004 +3.4583616070E-003  +9.2725170543E-004 +3.4318272956E-003  +9.5967710018E-001 -4.8233860731E-001 
7893146.433 +9.9807286263E-001 -1.8128737807E-002  +1.0307040066E-003 +3.4217408393E-003  +7.3952059029E-004 +3.4644645639E-003  +9.3798387051E-001 -4.6072322130E-001 
8018291.615 +9.9191170931E-001 -1.7749607563E-002  +1.1033695191E-003 +3.6186992656E-003  +9.7602792084E-004 +3.6201351322E-003  +9.1495573521E-001 -4.4402867556E-001 
8143436.796 +9.9154800177E-001 -2.0199090242E-002  +1.1371498695E-003 +3.7156171165E-003  +7.4740266427E-004 +3.4358296543E-003  +8.9616930485E-001 -4.2667058110E-001 
8268581.977 +9.9115687609E-001 -1.4661490917E-002  +9.1726664687E-004 +3.6564324982E-003  +6.9097743835E-004 +3.6230429541E-003  +8.8019490242E-001 -4.0800321102E-001 
8393727.159 +9.9278914928E-001 -2.0507484674E-002  +9.0961146634E-004 +3.7251231261E-003  +7.0781732211E-004 +3.8282645401E-003  +8.6156159639E-001 -3.9485183358E-001 
8518872.340 +9.9613970518E-001 -1.9344598055E-002  +8.5064332234E-004 +3.5795909353E-003  +6.0925137950E-004 +3.5502591636E-003  +8.4595227242E-001 -3.7426516414E-001 
8644017.522 +9.8989492655E-001 -1.7911970615E-002  +5.3057482000E-004 +3.6744808313E-003  +5.7000422385E-004 +3.6567910574E-003  +8.3158069849E-001 -3.6184674501E-001 
8769162.703 +9.9580001831E-001 -1.8559992313E-002  +8.0249249004E-004 +3.8097170182E-003  +6.7640154157E-004 +3.6885889713E-003  +8.1884700060E-001 -3.4501731396E-001 
8894307.885 +9.9077975750E-001 -1.8488079309E-002  +6.9500843529E-004 +3.6965755280E-003  +5.0637975801E-004 +3.9316965267E-003  +8.0289793015E-001 -3.3012264967E-001 
9019453.066 +9.9122458696E-001 -2.0559877157E-002  +5.9433490969E-004 +3.7260865793E-003  +5.0338427536E-004 +3.8268528879E-003  +7.9140073061E-001 -3.1408047676E-001 
9144598.248 +9.9201011658E-001 -2.0419269800E-002  +6.4530165400E-004 +3.7354868837E-003  +3.6224548239E-004 +3.8778469898E-003  +7.7692306042E-001 -2.9782879353E-001 
9269743.429 +9.9084573984E-001 -1.6589671373E-002  +5.6066410616E-004 +3.9296234027E-003  +3.6882527638E-004 +3.9305360988E-003  +7.6995766163E-001 -2.8012195230E-001 
9394888.611 +9.9123018980E-001 -1.1615693569E-002  +5.4168584757E-004 +3.9491788484E-003  +3.5383307841E-004 +4.0037352592E-003  +7.5835657120E-001 -2.6679009199E-001 
9520033.792 +9.9243903160E-001 -1.6898661852E-002  +5.6235620286E-004 +3.9698383771E-003  +4.0330633055E-004 +4.0837195702E-003  +7.5351738930E-001 -2.4677518010E-001 
9645178.974 +9.9239301682E-001 -1.3165265322E-002  +6.0330808628E-004 +3.9812815376E-003  +3.9050809573E-004 +3.9802608080E-003  +7.4351233244E-001 -2.3077526689E-001 
9770324.155 +9.9148416519E-001 -1.2612700462E-002  +5.4744514637E-004 +4.0250746533E-003  +2.9965979047E-004 +4.0809581988E-003  +7.3674213886E-001 -2.1036830544E-001 
9895469.337 +9.9437117577E-001 -1.1986941099E-002  +4.9780798145E-004 +4.0437923744E-003  +2.7253641747E-004 +4.0370137431E-003  +7.2967398167E-001 -1.9598954916E-001 
10020614.518 +9.9096184969E-001 -9.9769532681E-003  +4.7764391638E-004 +4.1757482104E-003  +2.1924264729E-004 +4.2339945212E-003  +7.2556567192E-001 -1.7858776450E-001 
10145759.700 +9.9175620079E-001 -1.1985361576E-002  +3.2944383565E-004 +4.2573511600E-003  +2.3511971813E-004 +4.2083165608E-003  +7.2271132469E-001 -1.6434013844E-001 
10270904.881 +9.9219340086E-001 -1.3510942459E-002  +2.3325311486E-004 +4.3130386621E-003  +1.4509470202E-004 +4.2949952185E-003  +7.1977186203E-001 -1.4827710390E-001 
10396050.063 +9.9130851030E-001 -1.3627439737E-002  +3.9732654113E-004 +4.3057939038E-003  +1.9565084949E-004 +4.3429057114E-003  +7.1647191048E-001 -1.3190150261E-001 
10521195.244 +9.9274706841E-001 -1.3235628605E-002  +2.1516694687E-004 +4.4580646791E-003  +9.7318552434E-006 +4.4342605397E-003  +7.1754765511E-001 -1.1538180709E-001 
10646340.426 +9.8972582817E-001 -1.3229668140E-002  +1.8166680820E-004 +4.4750142843E-003  +6.0011167079E-005 +4.5390599407E-003  +7.1500480175E-001 -9.7858160734E-002 
10771485.607 +9.9176108837E-001 -1.2242168188E-002  +1.9671046175E-004 +4.5483168215E-003  +1.3157282956E-004 +4.4659459963E-003  +7.1406596899E-001 -8.1684559584E-002 
10896630.788 +9.9062192440E-001 -9.4513595104E-003  +9.0758549049E-005 +4.6122730710E-003  -1.3100891374E-004 +4.7068116255E-003  +7.1601474285E-001 -6.5737456083E-002 
11021775.970 +9.8965120316E-001 -1.0751217604E-002  +1.4036847278E-004 +4.6408884227E-003  -7.4566574767E-005 +4.6798801050E-003  +7.1739888191E-001 -5.2017599344E-002 
11146921.151 +9.8990261555E-001 -1.2828499079E-002  +9.8933465779E-005 +4.7243111767E-003  -1.3054464944E-004 +4.7087459825E-003  +7.1923720837E-001 -3.5418152809E-002 
11272066.333 +9.8898243904E-001 -1.2375712395E-002  +4.8158224672E-005 +4.7900583595E-003  -1.4187581837E-004 +4.8673897982E-003  +7.1858811378E-001 -2.1435588598E-002 
11397211.514 +9.9058622122E-001 -1.1261641979E-002  -9.2198606580E-006 +4.8352302983E-003  -1.4450005256E-004 +4.9176309258E-003  +7.2203361988E-001 -7.9370439053E-003 
11522356.696 +9.9002969265E-001 -1.2380570173E-002  +3.6873621866E-005 +5.0307009369E-003  -2.5590788573E-004 +4.9621257931E-003  +7.2753667831E-001 +6.2408745289E-003 
11647501.877 +9.8919022083E-001 -1.1680513620E-002  +4.4501153752E-005 +5.0780391321E-003  -1.7193215899E-004 +5.0568236038E-003  +7.2987598181E-001 +2.0101368427E-002 
11772647.059 +9.8998892307E-001 -9.7922980785E-003  -4.8253918067E-005 +5.1447381265E-003  -3.0472897924E-004 +5.0749178044E-003  +7.3533987999E-001 +3.2447487116E-002 
11897792.240 +9.8897004128E-001 -9.1334879398E-003  -4.1519058868E-005 +5.2594449371E-003  -3.1207571737E-004 +5.1496215165E-003  +7.4126398563E-001 +4.5944154263E-002 
12022937.422 +9.9157869816E-001 -7.8825354576E-003  -3.6461977288E-005 +5.2864970639E-003  -3.8091395982E-004 +5.2890675142E-003  +7.4604618549E-001 +5.8125138283E-002 
12148082.603 +9.9141657352E-001 -8.4526538849E-003  -9.8030082881E-005 +5.4115015082E-003  -3.7785782479E-004 +5.3382548504E-003  +7.5408774614E-001 +7.2067767382E-002 
12273227.785 +9.9049580097E-001 -6.8612694740E-003  -1.3969943393E-004 +5.4765664972E-003  -3.5408651456E-004 +5.4331864230E-003  +7.6010572910E-001 +8.2888245583E-002 
12398372.966 +9.9047738314E-001 -8.6387395859E-003  -1.6640766989E-004 +5.5567575619E-003  -4.1296659037E-004 +5.5436692201E-003  +7.6909804344E-001 +9.3684971333E-002 
12523518.148 +9.9006003141E-001 -7.2619020939E-003  -2.0989764016E-004 +5.6791668758E-003  -4.2900268454E-004 +5.6148017757E-003  +7.7527695894E-001 +1.0444445908E-001 
12648663.329 +9.9071437120E-001 -5.7346522808E-003  -2.0798505284E-004 +5.7706153020E-003  -4.0304812137E-004 +5.7898596860E-003  +7.8476983309E-001 +1.1682632565E-001 
12773808.511 +9.8990744352E-001 -8.1465095282E-003  -2.7311686426E-004 +5.8426856995E-003  -5.1640183665E-004 +5.8581414632E-003  +7.9402440786E-001 +1.2508794665E-001 
12898953.692 +9.9079066515E-001 -8.3454102278E-003  -2.8486136580E-004 +5.9290728532E-003  -5.3224369185E-004 +5.9241931885E-003  +8.0346620083E-001 +1.3470411301E-001 
13024098.874 +9.9067234993E-001 -7.2163194418E-003  -3.0257902108E-004 +6.0122958384E-003  -4.8410124145E-004 +6.0073495843E-003  +8.1384289265E-001 +1.4419819415E-001 
13149244.055 +9.9152457714E-001 -6.4749754965E-003  -3.2211455982E-004 +6.1341156252E-003  -5.2972091362E-004 +6.1243320815E-003  +8.2395184040E-001 +1.5276718140E-001 
13274389.237 +9.9145156145E-001 -6.9176931866E-003  -3.2225719769E-004 +6.2529197894E-003  -5.1609787624E-004 +6.2236287631E-003  +8.3605509996E-001 +1.5956306458E-001 
13399534.418 +9.9230074883E-001 -6.1174482107E-003  -3.2947369618E-004 +6.3707530499E-003  -5.9547484852E-004 +6.2945317477E-003  +8.4582775831E-001 +1.6646744311E-001 
13524679.599 +9.9056565762E-001 -4.7889649868E-003  -3.0570579111E-004 +6.4293197356E-003  -5.7126372121E-004 +6.4166625962E-003  +8.5786968470E-001 +1.7266353965E-001 
13649824.781 +9.9184769392E-001 -6.5157115459E-003  -3.1178392237E-004 +6.6023217514E-003  -5.5805622833E-004 +6.5306858160E-003  +8.7027126551E-001 +1.7917211354E-001 
13774969.962 +9.9135136604E-001 -6.0578584671E-003  -2.8337666299E-004 +6.6670328379E-003  -5.8099278249E-004 +6.6322823986E-003  +8.8105809689E-001 +1.8340110779E-001 
13900115.144 +9.9156707525E-001 -5.8487355709E-003  -2.7936021797E-004 +6.7702042870E-003  -5.1070644986E-004 +6.7440057173E-003  +8.9358592033E-001 +1.8799202144E-001 
14025260.325 +9.9073362350E-001 -4.9973726273E-003  -2.5855423883E-004 +6.8910042755E-003  -5.3016748279E-004 +6.8995645270E-003  +9.0603834391E-001 +1.9184184074E-001 
14150405.507 +9.9098914862E-001 -3.8405060768E-003  -2.3571401834E-004 +6.9475038908E-003  -5.3763086908E-004 +6.9904327393E-003  +9.1836702824E-001 +1.9534870982E-001 
14275550.688 +9.9173665047E-001 -4.3654143810E-003  -2.4818582460E-004 +7.0871105418E-003  -5.0366041251E-004 +7.0556662977E-003  +9.3110024929E-001 +1.9651310146E-001 
