!  2-Port S-parameters saved by WinCal
! VAR MeasName=S-Parameters (CALIBRATED_DATA) read from VNA (P5004A)
! VAR MeasDate=22/05/2024 16:58:37
! VAR NAME=Wafer2_r10_c9_opensig
! VAR FILENAME=Wafer2_r10_c9_opensig.S2P
! VAR DATE=22/05/2024 16:58:37
! VAR PHYS_PORTS=1,2
! VAR ObjTypeName=DATASET
! VAR IndexType=Frequency
!
# Hz S RI R 50
9000.000 +2.7003231645E-001 -5.2675962448E-001  -6.0041612014E-003 +4.3231017888E-002  -1.4804806560E-002 -4.0430347435E-003  +2.7477905154E-001 +1.4144684374E-001 
134145.181 +8.2254523039E-001 +2.4292892218E-001  -2.8943229467E-002 +6.4421340823E-002  -1.2537392974E-001 -7.7754706144E-002  +1.0789088011E+000 -1.1092224717E-001 
259290.363 +8.9685380459E-001 -8.0418676138E-002  -1.0536862537E-002 -5.8941459283E-003  -9.2389564961E-003 +1.0285035241E-003  +1.0504782200E+000 -5.4969996214E-002 
384435.544 +9.3139898777E-001 -2.2471353412E-001  +1.5261906665E-003 -2.8522377834E-003  +7.2095431387E-003 -4.8584500328E-003  +1.1020579338E+000 -2.1727800369E-002 
509580.726 +9.6922677755E-001 -1.2906171381E-001  +9.5684241387E-005 -7.7251717448E-004  -1.3619966339E-003 -6.2505496317E-005  +1.0398247242E+000 -1.8838912249E-002 
634725.907 +1.0707126856E+000 -1.4791479707E-001  -3.2242818270E-004 +8.1648329797E-005  -1.5518284636E-004 +2.2788431961E-003  +1.0672347546E+000 -1.4321058989E-002 
759871.089 +1.1742844582E+000 -5.7356595993E-002  -8.9723622659E-004 -9.9828210659E-004  +6.0757307801E-004 -4.9195403699E-004  +1.0239741802E+000 -3.4010261297E-002 
885016.270 +1.0657869577E+000 -1.2845149636E-001  +1.3388488442E-003 -5.7426569983E-003  -1.4963350259E-003 -1.1632425012E-003  +1.0043141842E+000 -3.6481499672E-002 
1010161.452 +1.1795873642E+000 -7.1584761143E-002  +6.6420456278E-005 +5.5092253024E-004  -7.1665865835E-004 +8.4671599325E-005  +9.0417528152E-001 +5.8001577854E-002 
1135306.633 +1.1868104935E+000 -1.0528066754E-001  -4.5564374886E-006 -1.3794007245E-003  +1.6827620566E-003 -6.4806151204E-004  +9.6658468246E-001 +1.0973909497E-001 
1260451.815 +1.3507671356E+000 -1.1610704660E-001  +1.4732644195E-003 -1.4978717081E-003  +5.2323768614E-004 +1.3281506253E-003  +9.8160600662E-001 +1.4739358425E-001 
1385596.996 +1.2502022982E+000 -1.3053667545E-001  +5.4084416479E-004 -9.9771982059E-004  +8.0116046593E-004 +3.8011383731E-004  +9.9609529972E-001 +9.2957049608E-002 
1510742.178 +1.3884330988E+000 -2.0639407635E-001  +2.5596978958E-004 -3.3467618050E-004  +4.3226746493E-004 +1.0128641734E-003  +9.4845086336E-001 +1.4134746790E-001 
1635887.359 +9.8809242249E-001 -2.8906038404E-001  +8.1793649588E-004 +4.9103226047E-004  +4.7355156858E-004 -7.4644340202E-004  +1.0955755711E+000 +1.0192775726E-001 
1761032.541 +1.0326474905E+000 -2.7404159307E-001  -1.1641929159E-003 +4.3411925435E-004  +2.0918346127E-004 -4.9778935499E-004  +1.0530221462E+000 +1.4204052091E-001 
1886177.722 +1.0058908463E+000 -1.4455774426E-001  +3.8993355702E-004 +3.7698273081E-004  +8.5227200761E-003 -6.3436334021E-003  +1.0563756227E+000 +1.0475122929E-001 
2011322.904 +1.0225448608E+000 -1.1652448773E-001  +1.5928766516E-005 -1.0126366396E-004  +2.7330685407E-004 -4.6802422730E-004  +1.0511677265E+000 +9.8364025354E-002 
2136468.085 +1.0226693153E+000 -8.5479706526E-002  +5.8142340276E-004 -3.5134924110E-004  +1.6019443865E-004 -4.8255187721E-005  +1.0384466648E+000 +1.0411822796E-001 
2261613.267 +1.0233466625E+000 -7.4777364731E-002  -2.5266254670E-004 +8.9431014203E-005  -1.6797300486E-004 +4.8277335009E-004  +1.0346817970E+000 +1.1284753680E-001 
2386758.448 +1.0263684988E+000 -6.2097877264E-002  -2.6814508601E-004 -1.8034226377E-004  +3.6650616676E-004 +2.4023145670E-005  +1.0416233540E+000 +1.1900407076E-001 
2511903.630 +1.0121351480E+000 -4.2712330818E-002  -5.5240414804E-004 +3.0936740222E-004  +3.9842253318E-004 +2.9771617847E-006  +1.0469663143E+000 +1.2994608283E-001 
2637048.811 +1.0177576542E+000 -3.1922191381E-002  +7.7469885582E-006 +4.9930840032E-004  -4.3032370741E-004 +4.3056509458E-004  +1.0440434217E+000 +1.5671947598E-001 
2762193.992 +1.0280281305E+000 -1.4013607055E-002  +2.2630138847E-004 +8.7081592937E-005  +3.1732139178E-005 -1.1675464339E-004  +1.0369492769E+000 +1.6029065847E-001 
2887339.174 +1.0033283234E+000 -1.7964780331E-002  -5.5307126604E-004 -3.5962008405E-004  -3.0881489511E-004 -5.5544212228E-004  +1.0419144630E+000 +1.9508054852E-001 
3012484.355 +1.0131249428E+000 -2.0183205605E-002  +4.1412335122E-004 +6.8489724072E-005  +4.7578819795E-004 +1.3856458827E-004  +1.0623978376E+000 +2.1109314263E-001 
3137629.537 +1.0063046217E+000 -2.7084648609E-003  +2.4246079556E-004 +2.3940535903E-004  +3.6255066516E-004 +1.6177096404E-004  +1.1004248857E+000 +2.2436635196E-001 
3262774.718 +9.9873036146E-001 +1.9287794828E-002  +4.2227967060E-004 -4.2648278759E-004  -1.7028652655E-004 -3.1051251426E-005  +1.1056021452E+000 +2.2585268319E-001 
3387919.900 +9.8492348194E-001 +3.8244247437E-002  +1.9665894797E-005 -5.2208063425E-004  -3.9249680412E-005 -1.0281872528E-004  +1.1254886389E+000 +2.3134267330E-001 
3513065.081 +1.0006339550E+000 +4.5578345656E-002  -1.2063820031E-004 +9.4636314316E-005  +5.0026003737E-004 +3.0258274637E-004  +1.1379797459E+000 +2.5973695517E-001 
3638210.263 +1.0081791878E+000 +7.3287516832E-002  +6.6550128395E-006 +3.9580644807E-004  +5.3851935081E-004 -2.6237900602E-004  +1.1732945442E+000 +2.4671360850E-001 
3763355.444 +1.0159252882E+000 +9.0440303087E-002  -1.8662385992E-004 -2.6353017893E-004  -4.5213507838E-004 +3.7538411561E-006  +1.1842626333E+000 +2.3070541024E-001 
3888500.626 +1.0281808376E+000 +1.1566627026E-001  +2.5024526985E-004 +6.4231629949E-004  -3.7052974221E-004 -4.3623783858E-004  +1.2267783880E+000 +2.3654553294E-001 
4013645.807 +9.7828453779E-001 +2.4298585951E-002  +6.5564346733E-004 +6.6572288051E-004  +3.2495093183E-004 -1.1433140025E-004  +1.1745550632E+000 +9.9590077996E-002 
4138790.989 +9.0409755707E-001 -4.1597861797E-002  +5.6080694776E-004 -1.1629754226E-005  +9.4680441543E-004 -2.2878641175E-005  +1.0792226791E+000 +8.9997798204E-004 
4263936.170 +8.9520001411E-001 -1.9407443702E-002  -8.2653888967E-005 -5.5654434254E-004  +4.2497779941E-004 -2.9288334190E-004  +1.0667775869E+000 -1.7932819203E-002 
4389081.352 +9.0535897017E-001 -1.8269177526E-002  -2.7801954275E-005 +3.5313959233E-004  +1.6376948042E-004 -3.5219301935E-004  +1.0667642355E+000 -3.1709827483E-002 
4514226.533 +9.1089314222E-001 -9.1009968892E-003  +7.1834720438E-004 +1.5497767890E-004  -2.6167571195E-004 -7.3127637734E-005  +1.0570906401E+000 -4.5404687524E-002 
4639371.715 +9.3001586199E-001 -7.2180316783E-003  -1.7714353453E-004 -4.0468588850E-005  -3.6418157833E-005 +4.7966419515E-005  +1.0562570095E+000 -4.3281275779E-002 
4764516.896 +9.1589510441E-001 -6.0765761882E-003  +3.8695655530E-004 -2.8777829721E-004  -1.5342667757E-004 +3.3653739956E-004  +1.0543503761E+000 -4.8252161592E-002 
4889662.078 +9.3076717854E-001 +1.7512887716E-003  -1.5244831957E-005 -2.4029194901E-004  -1.9084769883E-004 +5.0066778203E-004  +1.0483183861E+000 -5.6195661426E-002 
5014807.259 +9.2104208469E-001 -1.2990850955E-003  +1.6111730656E-004 -3.2679157448E-004  +1.5874307428E-004 -1.6016582958E-004  +1.0339422226E+000 -4.8829451203E-002 
5139952.441 +9.3607354164E-001 +3.9311163127E-003  -1.5617521058E-005 +1.3723932170E-005  +4.3127607205E-004 -5.0998016377E-005  +1.0378530025E+000 -5.9329576790E-002 
5265097.622 +9.3694728613E-001 +1.1274203658E-002  -4.0233644540E-004 -3.2357743476E-004  -1.5933992108E-004 -2.5926998933E-004  +1.0229724646E+000 -6.4620867372E-002 
5390242.804 +9.4076728821E-001 +6.0055106878E-003  -1.2405807502E-004 +5.7511258638E-004  +3.9948255289E-004 +1.1058013479E-004  +1.0092756748E+000 -5.9198327363E-002 
5515387.985 +9.4805741310E-001 +1.1229228228E-002  -1.0538395873E-004 +2.1138018928E-004  +2.1594730788E-004 -6.5964108217E-005  +1.0216530561E+000 -6.2234908342E-002 
5640533.166 +9.5480680466E-001 +8.7290182710E-003  -4.4468946726E-005 -6.8151290179E-005  -3.2457924681E-004 -1.2848910410E-004  +1.0164115429E+000 -6.1760656536E-002 
5765678.348 +9.5462477207E-001 +1.7587162554E-002  -1.3265287271E-004 -1.2594449800E-004  -3.6284638918E-004 -8.1662401499E-005  +1.0087263584E+000 -5.8682635427E-002 
5890823.529 +9.5669764280E-001 +1.1769980192E-002  -2.5633187033E-004 -1.8321182870E-004  +1.2687778508E-004 +5.3005096561E-005  +1.0077183247E+000 -6.1883449554E-002 
6015968.711 +9.5644778013E-001 +8.7566301227E-003  -1.1805459508E-004 +4.1021623474E-005  +2.3833999876E-004 +7.3240211350E-005  +1.0050534010E+000 -4.8955529928E-002 
6141113.892 +9.6643447876E-001 +7.8542158008E-003  -2.1073639800E-004 +7.1817099524E-005  +4.8657602747E-004 +1.1318631005E-004  +9.9929720163E-001 -4.9331769347E-002 
6266259.074 +9.6533638239E-001 +1.0440737009E-002  -3.0653088470E-004 -2.3409935238E-004  -8.9291948825E-005 +4.4122640247E-005  +9.9197280407E-001 -4.9675717950E-002 
6391404.255 +9.6652615070E-001 -2.9881298542E-004  +6.9202113082E-005 +1.5392589557E-004  -3.6169745727E-005 -2.2025847284E-004  +9.9089759588E-001 -5.6655406952E-002 
6516549.437 +9.6324461699E-001 +6.0253962874E-003  -1.9258305838E-004 -7.9532961536E-005  +3.0012105708E-004 +1.8570892280E-004  +9.9027347565E-001 -5.1672726870E-002 
6641694.618 +9.6934098005E-001 +6.0378909111E-003  -3.0873507058E-005 -1.8053290842E-004  -4.5915359806E-005 +3.2672847738E-004  +9.8858368397E-001 -3.9851099253E-002 
6766839.800 +9.7436368465E-001 +6.2713027000E-003  +7.4683754065E-005 +2.1892656150E-006  +2.4082020900E-005 +2.2097621695E-005  +9.8799747229E-001 -5.0514146686E-002 
6891984.981 +9.7394603491E-001 +5.5716186762E-003  +1.3302942534E-005 +2.1188016399E-004  +1.8456856196E-004 -2.9796999297E-004  +9.7727572918E-001 -5.0944492221E-002 
7017130.163 +9.7235429287E-001 +1.0983109474E-002  +3.1030667742E-005 +3.9849313907E-004  -1.3282804866E-004 +4.4433603762E-005  +9.8545652628E-001 -3.7427440286E-002 
7142275.344 +9.7606104612E-001 +1.1459663510E-002  -1.1439697118E-006 +1.4413149620E-004  +1.7206506163E-004 +4.7850622650E-005  +9.7905433178E-001 -3.1650349498E-002 
7267420.526 +9.7438615561E-001 +1.1895179749E-002  -9.4028946478E-005 -3.3949298086E-005  -1.3613102783E-004 +2.1127256332E-004  +9.7871541977E-001 -3.3415317535E-002 
7392565.707 +9.7731095552E-001 +1.3796404004E-002  -1.3927707187E-005 +3.4627894638E-004  +3.8789339669E-006 +5.3455605666E-005  +9.8338681459E-001 -3.0256062746E-002 
7517710.889 +9.7702038288E-001 +1.3834640384E-002  -5.2072497056E-005 +6.2808336224E-005  +1.8796641962E-004 -5.7618326537E-005  +9.7869175673E-001 -2.9572010040E-002 
7642856.070 +9.7779005766E-001 +1.3277187943E-002  +2.0994487568E-004 +4.5237862651E-005  -1.2440230057E-004 -1.3741150724E-005  +9.7338885069E-001 -3.3260017633E-002 
7768001.252 +9.8164319992E-001 +1.9876703620E-002  -1.2572429114E-005 -2.6365582016E-005  +2.1135789575E-004 +1.5787212760E-004  +9.7402191162E-001 -3.4571066499E-002 
7893146.433 +9.8545998335E-001 +1.6991496086E-002  -6.8745666795E-006 -1.3083062368E-004  +1.3524093083E-004 -1.2253221939E-004  +9.7297751904E-001 -3.0038565397E-002 
8018291.615 +9.8169720173E-001 +1.6397103667E-002  +1.1529713811E-004 -2.6853213785E-004  -5.9033056459E-005 +5.6320306612E-005  +9.6814781427E-001 -2.9175296426E-002 
8143436.796 +9.8168170452E-001 +1.4777556062E-002  -1.3847398805E-004 -2.9448088026E-004  -5.0888374972E-005 -1.2202443759E-004  +9.7348868847E-001 -2.3140102625E-002 
8268581.977 +9.8245263100E-001 +8.9804232121E-003  +2.3313896236E-005 -2.9225309845E-005  -1.5900666767E-005 -7.7827658970E-005  +9.7320991755E-001 -2.0951896906E-002 
8393727.159 +9.8114770651E-001 +6.7232847214E-003  -2.1910229407E-005 -1.6280611453E-004  +1.9899208564E-004 -7.5729149103E-006  +9.7387456894E-001 -2.0451068878E-002 
8518872.340 +9.8168134689E-001 +5.8161616325E-003  +1.2640097702E-004 +2.1703084712E-005  -3.5178825783E-005 -8.5244129878E-005  +9.7243994474E-001 -1.7070382833E-002 
8644017.522 +9.8071086407E-001 +1.0176509619E-002  +2.2796044505E-005 +2.7784419217E-005  -5.8849946072E-005 +6.0383579694E-005  +9.7522121668E-001 -1.5335142612E-002 
8769162.703 +9.8429381847E-001 +9.6194148064E-003  +4.0093691496E-005 +1.2350347242E-004  -1.3313254749E-004 +3.8099082303E-005  +9.7298520803E-001 -1.8100023270E-002 
8894307.885 +9.8322236538E-001 +6.5228641033E-003  -1.6816859716E-004 +1.8067681231E-004  -1.7958745957E-005 +6.6735439759E-005  +9.7172313929E-001 -1.2993395329E-002 
9019453.066 +9.8407614231E-001 +5.6389570236E-003  +1.6593132386E-005 +2.2865303890E-006  +3.3345877455E-005 -2.9258966606E-005  +9.7404867411E-001 -1.1559426785E-002 
9144598.248 +9.8246228695E-001 +3.5161077976E-003  +1.1961888958E-005 -3.8590180338E-005  -3.3192278352E-005 -1.9452124252E-004  +9.7436749935E-001 -8.7924599648E-003 
9269743.429 +9.8552393913E-001 +5.3581893444E-003  +7.2244249168E-005 -1.3608074369E-005  +7.5978845416E-005 +1.1265615467E-004  +9.7539812326E-001 -9.1115534306E-003 
9394888.611 +9.8415696621E-001 +1.2210756540E-002  +5.9044752561E-005 -3.3673994039E-005  -3.0136727219E-005 -1.2670704564E-005  +9.7732937336E-001 -8.6829662323E-003 
9520033.792 +9.8620223999E-001 +6.1777234077E-003  +9.3847502285E-006 -7.0097899879E-005  -1.7658032448E-005 -1.8500422811E-005  +9.7746729851E-001 -7.0120096207E-003 
9645178.974 +9.8978239298E-001 +9.2426836491E-003  -1.2734172924E-004 +7.8888355347E-005  -9.3617542007E-005 +2.6361558412E-006  +9.7481286526E-001 -6.7209303379E-003 
9770324.155 +9.8417407274E-001 +8.5746645927E-003  +2.3685210181E-005 +7.0858761319E-005  -6.8206121796E-005 +5.4439224186E-005  +9.7205358744E-001 -5.3700506687E-003 
9895469.337 +9.8966526985E-001 +1.1661052704E-002  -1.2977329607E-004 +7.4404648331E-005  -7.2212751547E-005 -1.5547349176E-004  +9.7352933884E-001 -4.5720338821E-003 
10020614.518 +9.8768866062E-001 +1.1394053698E-002  -2.5774021196E-005 +2.6849173082E-005  +3.7426376366E-005 +1.0144763655E-004  +9.7662931681E-001 -1.1304616928E-003 
10145759.700 +9.8744189739E-001 +1.0377019644E-002  +2.1405747248E-005 +5.1570190408E-005  +8.0337122199E-006 +1.0337894491E-004  +9.7612214088E-001 -3.7463605404E-003 
10270904.881 +9.9005472660E-001 +6.6514909267E-003  -4.5489119657E-005 -2.1157984520E-005  -4.8749225243E-006 -6.6964552389E-005  +9.7977823019E-001 -1.1175274849E-003 
10396050.063 +9.8869580030E-001 +8.2604289055E-003  -9.4411967439E-005 +6.3111059717E-005  -6.8524091148E-006 +1.3998245777E-005  +9.7770148516E-001 -1.2654066086E-004 
10521195.244 +9.8922240734E-001 +8.6807310581E-003  -8.1288257206E-005 -4.0200120566E-005  -3.3371739846E-005 -2.3526199584E-006  +9.7960519791E-001 -1.1339783669E-004 
10646340.426 +9.8903113604E-001 +7.4177682400E-003  +2.4386135919E-005 -2.4349801606E-006  -5.7959645346E-005 +7.9114441178E-005  +9.7866547108E-001 +2.2020936012E-003 
10771485.607 +9.8962587118E-001 +6.6168904305E-003  +1.9190383682E-005 -1.6119845895E-005  -2.9906088457E-005 +3.8362586565E-006  +9.7960996628E-001 +1.3081133366E-003 
10896630.788 +9.8884689808E-001 +1.0496497154E-002  +7.5110074249E-005 +2.0862362362E-005  +7.0773057814E-006 +3.8579681132E-005  +9.7889149189E-001 +2.4881064892E-003 
11021775.970 +9.8748362064E-001 +1.0661035776E-002  +6.2596474891E-005 +1.0637704690E-006  -2.2168644136E-005 -3.4468062950E-005  +9.7950696945E-001 +3.8197934628E-003 
11146921.151 +9.8850083351E-001 +5.8025121689E-003  -4.6524688514E-005 +5.0093487516E-005  +5.4650226957E-005 +8.1030466390E-006  +9.8100697994E-001 +3.2933354378E-003 
11272066.333 +9.8657298088E-001 +7.2016716003E-003  -3.4276945371E-006 +4.9883194151E-005  -1.6625299395E-006 -2.5680023100E-005  +9.8081117868E-001 +2.9015839100E-003 
11397211.514 +9.8944139481E-001 +9.0136229992E-003  +1.1312040442E-006 -2.0133644284E-005  -1.3418230083E-005 +7.5380885391E-005  +9.8060518503E-001 +2.4768114090E-003 
11522356.696 +9.8933100700E-001 +9.1057419777E-003  -3.8962771214E-006 +4.7519035434E-005  +3.4048098314E-005 -1.4271445252E-006  +9.8211044073E-001 +3.6047399044E-003 
11647501.877 +9.8891890049E-001 +9.6727311611E-003  -5.6454464357E-006 +5.0832746638E-005  +7.4502728239E-005 +1.1445286509E-004  +9.8081654310E-001 +4.9612820148E-003 
11772647.059 +9.8906421661E-001 +8.5113346577E-003  -3.9420290705E-005 +8.2427402958E-005  +1.5203460862E-005 +1.0340177141E-005  +9.8234128952E-001 +4.2577385902E-003 
11897792.240 +9.8938620090E-001 +9.1058015823E-003  +4.1040984797E-005 -1.1232375982E-005  -6.2364124460E-005 -2.8285365261E-005  +9.8249554634E-001 +5.4541230202E-003 
12022937.422 +9.9051129818E-001 +9.0723037720E-003  -7.0187688834E-006 -1.6147843780E-005  +4.8579659051E-005 +1.0680116975E-004  +9.8249369860E-001 +3.9578080177E-003 
12148082.603 +9.9060201645E-001 +8.6807310581E-003  -2.5664232453E-005 +2.1286499759E-005  +1.6399644664E-005 +3.1707506423E-005  +9.8385155201E-001 +7.2141289711E-003 
12273227.785 +9.9138677120E-001 +1.1351674795E-002  -4.0409599023E-005 +1.0697669495E-005  -3.0824041460E-005 +5.2851108194E-005  +9.8387372494E-001 +5.3022503853E-003 
12398372.966 +9.9067008495E-001 +1.0365694761E-002  -9.1900219559E-005 +1.8842449208E-005  -6.4719519287E-005 +2.2581731173E-005  +9.8514932394E-001 +5.6675374508E-003 
12523518.148 +9.9028128386E-001 +9.9822282791E-003  -1.1283518688E-005 +1.9401890313E-005  -8.6187228590E-006 +2.6106454243E-005  +9.8302555084E-001 +5.5215060711E-003 
12648663.329 +9.9071300030E-001 +1.0277122259E-002  -8.4039493231E-006 +3.6215591535E-005  -1.8954175175E-005 +1.5432846340E-005  +9.8502218723E-001 +6.5713971853E-003 
12773808.511 +9.9098455906E-001 +9.0016573668E-003  -5.8825007727E-005 +3.3569293009E-005  +2.9985832953E-005 +7.1222420956E-005  +9.8442268372E-001 +6.5703690052E-003 
12898953.692 +9.9139988422E-001 +8.4886252880E-003  +5.1539507695E-005 +4.9577531172E-005  -3.3329655707E-005 -4.1729258555E-006  +9.8475909233E-001 +5.9335008264E-003 
13024098.874 +9.9057489634E-001 +8.6849480867E-003  -5.0685202950E-006 -7.8003195085E-006  -6.6057014010E-006 -9.5829072961E-006  +9.8514145613E-001 +7.0209503174E-003 
13149244.055 +9.9160838127E-001 +1.0820284486E-002  -1.7551656128E-005 +1.9915507437E-005  -4.6012781240E-005 +1.4110019947E-005  +9.8555082083E-001 +7.8580137342E-003 
13274389.237 +9.9091094732E-001 +9.3711670488E-003  +6.9080592766E-006 +3.1326053431E-005  -7.3943228927E-006 +3.0412784326E-005  +9.8715960979E-001 +7.3995850980E-003 
13399534.418 +9.9131149054E-001 +8.0858469009E-003  +2.9164128136E-005 +4.4259606511E-005  +7.1846820902E-006 +6.8577755883E-005  +9.8592573404E-001 +8.8078603148E-003 
13524679.599 +9.9113410711E-001 +1.0395117104E-002  -1.4797608856E-005 +2.9545240977E-005  -3.7386562326E-005 +1.9485112716E-005  +9.8695248365E-001 +8.8159143925E-003 
13649824.781 +9.9214398861E-001 +9.1722905636E-003  +6.9646375778E-008 +8.0211175373E-005  +3.1984840462E-005 +3.6212786654E-005  +9.8785078526E-001 +8.2518756390E-003 
13774969.962 +9.9129855633E-001 +1.0055899620E-002  -2.8909524190E-005 +6.1886355979E-005  +9.1425135906E-007 +4.9816830142E-005  +9.8690849543E-001 +8.8354796171E-003 
13900115.144 +9.9186027050E-001 +9.8066031933E-003  +1.7396690964E-005 +7.6835458458E-005  -6.7841087912E-006 +3.2988991734E-005  +9.8702305555E-001 +7.7846050262E-003 
14025260.325 +9.9112939835E-001 +9.8155438900E-003  -9.1873907877E-006 +3.4568089177E-005  +3.6133496906E-006 +5.8333091147E-005  +9.8769283295E-001 +8.8780522346E-003 
14150405.507 +9.9138450623E-001 +1.0106295347E-002  -3.3734686440E-006 +6.1554623244E-005  -1.8177579477E-006 +8.4071827587E-005  +9.8813509941E-001 +9.2016458511E-003 
14275550.688 +9.9208116531E-001 +9.5333456993E-003  +3.0806462746E-005 +4.5129090722E-005  -3.2536820072E-005 +8.1464400864E-005  +9.8790490627E-001 +8.4286034107E-003 
14400695.870 +9.9110579491E-001 +8.8097751141E-003  -4.1823477659E-006 +4.5913639042E-005  +1.3593835320E-006 +6.4575549914E-005  +9.8829901218E-001 +9.4114840031E-003 
