!  2-Port S-parameters saved by WinCal
! VAR MeasName=S-Parameters (CALIBRATED_DATA) read from VNA (P5004A)
! VAR MeasDate=22/05/2024 19:47:14
! VAR NAME=Wafer2_r2_c1_set8
! VAR FILENAME=Wafer2_r2_c1_set8.S2P
! VAR DATE=22/05/2024 19:47:14
! VAR PHYS_PORTS=1,2
! VAR ObjTypeName=DATASET
! VAR IndexType=Frequency
!
# Hz S RI R 50
9000.000 +2.1499100327E-001 -5.9955638647E-001  -9.0432707220E-003 -2.7855336666E-003  -1.5134320129E-003 +2.3956224322E-004  +5.1208749413E-002 +1.1239600182E-001 
134145.181 +7.1463942528E-001 +1.9641996920E-001  +2.4395053089E-001 -1.9682511687E-002  +2.5900256634E-001 +2.1205782890E-002  -1.6662509739E-001 +1.3005770743E-002 
259290.363 +1.1045254469E+000 +3.2755398750E-001  -7.7662646770E-002 -4.7010910511E-001  -6.9695420563E-002 -4.1497829556E-001  +9.7585725784E-001 +5.0264072418E-001 
384435.544 +9.7041797638E-001 +1.2348830700E-002  +2.2608064115E-002 -3.1133598089E-001  +4.0143132210E-003 -3.4487289190E-001  +8.8222849369E-001 +4.7699272633E-001 
509580.726 +1.0404984951E+000 -1.8370598555E-002  -6.7518450320E-002 -1.1428587884E-001  -7.2126589715E-002 -1.2051925808E-001  +1.0902787447E+000 +1.5814962983E-001 
634725.907 +1.0623967648E+000 -1.3377194107E-001  +2.3646268994E-002 -4.5209452510E-002  +2.5232780725E-002 -4.7814268619E-002  +1.0392735004E+000 +7.0860981941E-003 
759871.089 +1.2270555496E+000 -1.9543085992E-001  +5.3172208369E-002 +1.2126114964E-001  +5.8965522796E-002 +1.2017020583E-001  +1.0864070654E+000 -2.6196235418E-001 
885016.270 +5.0173511505E+000 -2.0723781586E+000  -2.3569316864E+000 -2.7141451836E+000  -2.2837266922E+000 -2.7260670662E+000  +9.6618276834E-001 +2.3873858452E+000 
1010161.452 +8.5921478271E-001 +2.3810088634E-001  -6.2549576163E-002 -1.4836996794E-001  -6.8934157491E-002 -1.5123692155E-001  +8.5598033667E-001 +4.7127622366E-001 
1135306.633 +9.1799873114E-001 +4.1031813622E-001  -2.3450028151E-002 -1.3456492126E-001  -2.2235136479E-002 -1.3379228115E-001  +9.2488664389E-001 +4.5092749596E-001 
1260451.815 +1.2876458168E+000 +2.9672247171E-001  +2.3423619568E-002 -7.1929775178E-002  +2.2885030136E-002 -7.4453979731E-002  +9.1783833504E-001 +3.5649669170E-001 
1385596.996 +1.2104464769E+000 +7.4017941952E-003  +3.6194711924E-002 -2.7266880497E-002  +3.5218212754E-002 -2.6141144335E-002  +9.4906795025E-001 +1.6385149956E-001 
1510742.178 +1.2572431564E+000 -6.7812889814E-002  +7.0859804749E-002 -6.2641929835E-003  +7.0553816855E-002 -7.9546459019E-003  +8.4675490856E-001 +1.6595612466E-001 
1635887.359 +9.2457866669E-001 -1.5191522241E-001  +4.8140160739E-002 -4.0202688426E-002  +4.8418454826E-002 -3.7886358798E-002  +1.0410301685E+000 +1.9160407782E-001 
1761032.541 +9.3350237608E-001 -1.4871424437E-001  +7.6023966074E-002 -5.8234781027E-003  +7.4390485883E-002 -4.0097273886E-003  +9.6120464802E-001 +1.9013792276E-001 
1886177.722 +9.1657942533E-001 -7.9673796892E-002  +6.5832100809E-002 +1.9702613354E-003  +6.5648667514E-002 +2.0754542202E-003  +9.7486209869E-001 +1.3440358639E-001 
2011322.904 +9.0664696693E-001 -4.9858689308E-002  +7.4342839420E-002 +6.5075326711E-003  +7.4867188931E-002 +6.7239049822E-003  +9.6479010582E-001 +1.1817029119E-001 
2136468.085 +9.0183097124E-001 -4.6280950308E-002  +7.5110562146E-002 +1.6731921583E-002  +7.5375251472E-002 +1.7100881785E-002  +9.5072549582E-001 +9.9773555994E-002 
2261613.267 +8.9838743210E-001 -3.8377821445E-002  +8.0271057785E-002 +2.3561201990E-002  +7.9578593373E-002 +2.3393375799E-002  +9.3172305822E-001 +1.0901904106E-001 
2386758.448 +8.9480054379E-001 -2.6857316494E-002  +8.4229186177E-002 +2.7394145727E-002  +8.3677768707E-002 +2.7259027585E-002  +9.3830060959E-001 +1.1592644453E-001 
2511903.630 +8.7765181065E-001 -7.4616968632E-003  +8.9420557022E-002 +3.1856693327E-002  +8.9119836688E-002 +3.1692169607E-002  +9.4577556849E-001 +1.2854126096E-001 
2637048.811 +8.7363731861E-001 -1.6278624535E-002  +9.5274962485E-002 +4.2395234108E-002  +9.5212973654E-002 +4.1634298861E-002  +9.2562258244E-001 +1.3360777497E-001 
2762193.992 +8.5566651821E-001 -3.0126869678E-003  +1.0379371047E-001 +4.6016424894E-002  +1.0328883678E-001 +4.6150065958E-002  +9.0872740746E-001 +1.3599827886E-001 
2887339.174 +8.3990758657E-001 +3.1971000135E-002  +1.0558186471E-001 +4.5760147274E-002  +1.0482461005E-001 +4.5517772436E-002  +9.0535396338E-001 +1.7407597601E-001 
3012484.355 +8.5981321335E-001 +3.8580320776E-002  +1.0689875484E-001 +5.1221694797E-002  +1.0629963130E-001 +5.1322393119E-002  +9.3993574381E-001 +2.0160776377E-001 
3137629.537 +8.7144619226E-001 +6.2876045704E-002  +1.0579902679E-001 +5.4396118969E-002  +1.0528211296E-001 +5.3508657962E-002  +9.6400386095E-001 +2.2028502822E-001 
3262774.718 +8.7466895580E-001 +6.7789748311E-002  +1.0861779004E-001 +5.7759258896E-002  +1.0814843327E-001 +5.8099560440E-002  +9.9287617207E-001 +2.1624211967E-001 
3387919.900 +8.7358158827E-001 +8.1947743893E-002  +1.1241178960E-001 +6.3230417669E-002  +1.1194703728E-001 +6.3451327384E-002  +1.0090177059E+000 +2.1203508973E-001 
3513065.081 +8.8971477747E-001 +8.2830294967E-002  +1.1652479321E-001 +7.2034500539E-002  +1.1598300934E-001 +7.2201751173E-002  +1.0308390856E+000 +2.2044360638E-001 
3638210.263 +9.0341979265E-001 +1.0705500096E-001  +1.1883459985E-001 +7.6327621937E-002  +1.1931651086E-001 +7.6428741217E-002  +1.0620232821E+000 +2.1496847272E-001 
3763355.444 +9.1811913252E-001 +1.1631686985E-001  +1.2398752570E-001 +7.9421550035E-002  +1.2385480851E-001 +7.9594425857E-002  +1.0839591026E+000 +1.8552486598E-001 
3888500.626 +9.4030135870E-001 +1.1937894672E-001  +1.3082851470E-001 +8.7025508285E-002  +1.3025811315E-001 +8.6911126971E-002  +1.1120791435E+000 +1.9777621329E-001 
4013645.807 +8.9041173458E-001 +5.3771421313E-002  +1.6206435859E-001 +6.4920097589E-002  +1.6178999841E-001 +6.4285263419E-002  +1.0696752071E+000 +8.0031931400E-002 
4138790.989 +8.2221007347E-001 -1.5746183693E-002  +1.8693004549E-001 +3.4943163395E-002  +1.8528842926E-001 +3.4402206540E-002  +9.8306971788E-001 -1.4828950167E-002 
4263936.170 +8.1935769320E-001 -5.7786218822E-003  +1.8856625259E-001 +3.4662183374E-002  +1.8867854774E-001 +3.5427972674E-002  +9.7513622046E-001 -4.7901447862E-002 
4389081.352 +8.2634377480E-001 -1.0705403984E-002  +1.9165953994E-001 +2.7895165607E-002  +1.9174888730E-001 +2.8647867963E-002  +9.5138627291E-001 -5.8174863458E-002 
4514226.533 +8.3381998539E-001 -1.9478548318E-002  +1.9584232569E-001 +2.7748150751E-002  +1.9545692205E-001 +2.8976164758E-002  +9.4579046965E-001 -8.1653676927E-002 
4639371.715 +8.3887898922E-001 -1.7940856516E-002  +1.9598680735E-001 +2.7725879103E-002  +1.9590318203E-001 +2.8017418459E-002  +9.4627821445E-001 -7.7396832407E-002 
4764516.896 +8.2649362087E-001 -2.7192853391E-002  +1.9940288365E-001 +2.5557439774E-002  +1.9857807457E-001 +2.5445796549E-002  +9.2871958017E-001 -9.8979488015E-002 
4889662.078 +8.3181285858E-001 -2.7719270438E-002  +2.0294855535E-001 +2.5113960728E-002  +2.0182506740E-001 +2.4772960693E-002  +9.1960829496E-001 -1.0048776865E-001 
5014807.259 +8.2274991274E-001 -3.0549313873E-002  +2.0138755441E-001 +2.3693557829E-002  +2.0094281435E-001 +2.4362120777E-002  +9.1083753109E-001 -9.0959414840E-002 
5139952.441 +8.3125990629E-001 -2.9316397384E-002  +2.0297737420E-001 +2.3176733404E-002  +2.0336884260E-001 +2.2993927822E-002  +8.9395356178E-001 -1.0734696686E-001 
5265097.622 +8.3095335960E-001 -2.5986107066E-002  +2.0367576182E-001 +2.0776789635E-002  +2.0296341181E-001 +2.0764037967E-002  +8.8233542442E-001 -1.0821373761E-001 
5390242.804 +8.3043622971E-001 -2.7182783931E-002  +2.0490217209E-001 +1.9227663055E-002  +2.0409569144E-001 +2.0183427259E-002  +8.7355840206E-001 -1.1146988720E-001 
5515387.985 +8.3365166187E-001 -2.9446518049E-002  +2.0563787222E-001 +1.7054734752E-002  +2.0534960926E-001 +1.7600482330E-002  +8.6608558893E-001 -1.1504868418E-001 
5640533.166 +8.3438819647E-001 -3.6084264517E-002  +2.0880371332E-001 +1.7767123878E-002  +2.0774979889E-001 +1.8455013633E-002  +8.5692727566E-001 -1.2335181981E-001 
5765678.348 +8.1800043583E-001 -3.4596562386E-002  +2.0704890788E-001 +1.7003225163E-002  +2.0667783916E-001 +1.6639273614E-002  +8.5132354498E-001 -1.1672110111E-001 
5890823.529 +8.2232785225E-001 -4.2492400855E-002  +2.0728038251E-001 +1.4337828383E-002  +2.0648290217E-001 +1.3864547946E-002  +8.4271550179E-001 -1.1437916756E-001 
6015968.711 +8.1459742785E-001 -4.6262055635E-002  +2.0709267259E-001 +1.2951698154E-002  +2.0706099272E-001 +1.3042191975E-002  +8.3917307854E-001 -1.1097840220E-001 
6141113.892 +8.1135249138E-001 -4.4081445783E-002  +2.0642623305E-001 +1.2727281079E-002  +2.0551200211E-001 +1.3055590913E-002  +8.2937389612E-001 -1.0486306250E-001 
6266259.074 +8.1824594736E-001 -3.9914410561E-002  +2.0625983179E-001 +1.1945905164E-002  +2.0579782128E-001 +1.1505605653E-002  +8.2014662027E-001 -1.0498309135E-001 
6391404.255 +8.0630618334E-001 -4.8438105732E-002  +2.0533689857E-001 +7.7556227334E-003  +2.0554043353E-001 +8.4371101111E-003  +8.1607139111E-001 -1.0087963194E-001 
6516549.437 +8.0749171972E-001 -4.0724687278E-002  +2.0534414053E-001 +9.0866237879E-003  +2.0491120219E-001 +9.2738904059E-003  +8.1393110752E-001 -9.7670309246E-002 
6641694.618 +8.1250143051E-001 -3.8421902806E-002  +2.0652005076E-001 +9.2250909656E-003  +2.0643341541E-001 +9.7167547792E-003  +8.0807232857E-001 -9.2850685120E-002 
6766839.800 +8.1335341930E-001 -4.5048896223E-002  +2.0695008337E-001 +8.2183815539E-003  +2.0668207109E-001 +7.7352947555E-003  +8.0308753252E-001 -9.5050618052E-002 
6891984.981 +8.0463272333E-001 -4.2900994420E-002  +2.0489378273E-001 +7.2046574205E-003  +2.0495074987E-001 +7.3604360223E-003  +7.9689794779E-001 -9.0091533959E-002 
7017130.163 +8.0247366428E-001 -4.4862858951E-002  +2.0527295768E-001 +6.8013733253E-003  +2.0522500575E-001 +7.0532606915E-003  +7.9744285345E-001 -8.2785621285E-002 
7142275.344 +8.0375379324E-001 -4.1050642729E-002  +2.0516782999E-001 +8.1466268748E-003  +2.0559756458E-001 +8.3438912407E-003  +7.9633623362E-001 -7.4989199638E-002 
7267420.526 +7.9905807972E-001 -3.2935209572E-002  +2.0509035885E-001 +7.7416617423E-003  +2.0524278283E-001 +7.9289227724E-003  +7.9036891460E-001 -7.3845759034E-002 
7392565.707 +8.0425935984E-001 -2.8789237142E-002  +2.0548568666E-001 +7.6016504318E-003  +2.0538319647E-001 +7.2329565883E-003  +7.8807371855E-001 -7.6395124197E-002 
7517710.889 +8.0351078510E-001 -3.0830867589E-002  +2.0568156242E-001 +8.2911942154E-003  +2.0568546653E-001 +8.3456933498E-003  +7.8473520279E-001 -7.7094562352E-002 
7642856.070 +7.9351931810E-001 -3.1486541033E-002  +2.0459944010E-001 +6.7479759455E-003  +2.0441633463E-001 +7.1556605399E-003  +7.7965766191E-001 -7.5973942876E-002 
7768001.252 +7.9928630590E-001 -2.6199951768E-002  +2.0447225869E-001 +7.2017218918E-003  +2.0487187803E-001 +7.9040657729E-003  +7.7672821283E-001 -6.9659650326E-002 
7893146.433 +8.0160701275E-001 -2.7754306793E-002  +2.0492711663E-001 +6.7949853837E-003  +2.0472210646E-001 +7.2768665850E-003  +7.7594131231E-001 -6.3434734941E-002 
8018291.615 +7.9668933153E-001 -2.6949033141E-002  +2.0412577689E-001 +5.4670423269E-003  +2.0413652062E-001 +5.0009004772E-003  +7.7104997635E-001 -6.1671406031E-002 
8143436.796 +7.9470050335E-001 -2.8466686606E-002  +2.0466288924E-001 +5.6574791670E-003  +2.0406807959E-001 +5.9483125806E-003  +7.7072018385E-001 -5.8911383152E-002 
8268581.977 +7.9172128439E-001 -2.4438261986E-002  +2.0433236659E-001 +5.6129880250E-003  +2.0433636010E-001 +6.1677172780E-003  +7.7072191238E-001 -5.3276792169E-002 
8393727.159 +7.9261994362E-001 -2.5826007128E-002  +2.0455411077E-001 +5.6658759713E-003  +2.0422962308E-001 +5.7003907859E-003  +7.7263879776E-001 -5.0064519048E-002 
8518872.340 +7.9283052683E-001 -2.6797294617E-002  +2.0481212437E-001 +4.3976753950E-003  +2.0443658531E-001 +4.6288073063E-003  +7.7124255896E-001 -4.6435639262E-002 
8644017.522 +7.9216796160E-001 -2.2961661220E-002  +2.0401477814E-001 +5.9573985636E-003  +2.0376530290E-001 +5.9521421790E-003  +7.7802562714E-001 -4.4644147158E-002 
8769162.703 +7.9519039392E-001 -2.2354125977E-002  +2.0404750109E-001 +5.7898759842E-003  +2.0389983058E-001 +5.9050470591E-003  +7.7543735504E-001 -4.5217752457E-002 
8894307.885 +7.9292929173E-001 -2.2324159741E-002  +2.0374026895E-001 +5.4810866714E-003  +2.0380389690E-001 +5.6643448770E-003  +7.6941424608E-001 -4.6321853995E-002 
9019453.066 +7.8961777687E-001 -2.4136394262E-002  +2.0433484018E-001 +4.9098581076E-003  +2.0446169376E-001 +5.4147057235E-003  +7.7091044188E-001 -4.5235469937E-002 
9144598.248 +7.9089671373E-001 -2.1640986204E-002  +2.0454579592E-001 +4.8195272684E-003  +2.0425552130E-001 +4.9486234784E-003  +7.7013897896E-001 -4.0327444673E-002 
9269743.429 +7.9051315784E-001 -2.2720813751E-002  +2.0442511141E-001 +5.0460323691E-003  +2.0417599380E-001 +5.0405785441E-003  +7.6988762617E-001 -3.9929240942E-002 
9394888.611 +7.8838098049E-001 -1.8902122974E-002  +2.0429553092E-001 +4.8957467079E-003  +2.0411898196E-001 +4.9670562148E-003  +7.6835697889E-001 -3.8210242987E-002 
9520033.792 +7.8802001476E-001 -2.1919667721E-002  +2.0403888822E-001 +4.2502954602E-003  +2.0364974439E-001 +4.4325292110E-003  +7.6751506329E-001 -3.1927913427E-002 
9645178.974 +7.9017698765E-001 -1.6950160265E-002  +2.0384667814E-001 +4.5234560966E-003  +2.0374166965E-001 +4.8300400376E-003  +7.6931601763E-001 -3.1021296978E-002 
9770324.155 +7.8972256184E-001 -1.3368874788E-002  +2.0318663120E-001 +4.7946274281E-003  +2.0311510563E-001 +5.0631165504E-003  +7.6604199409E-001 -2.9874801636E-002 
9895469.337 +7.8855443001E-001 -1.3401269913E-002  +2.0508402586E-001 +3.5536885262E-003  +2.0420958102E-001 +4.6309232712E-003  +7.6763230562E-001 -2.6878744364E-002 
10020614.518 +7.8951483965E-001 -1.2658268213E-002  +2.0353181660E-001 +3.8587376475E-003  +2.0338685811E-001 +4.3172985315E-003  +7.6901614666E-001 -2.5012463331E-002 
10145759.700 +7.8829759359E-001 -1.2820005417E-002  +2.0381025970E-001 +4.0321052074E-003  +2.0332741737E-001 +3.7637576461E-003  +7.7004563808E-001 -2.5982350111E-002 
10270904.881 +7.8974151611E-001 -1.4108598232E-002  +2.0465928316E-001 +3.9294287562E-003  +2.0365396142E-001 +3.3387094736E-003  +7.7100330591E-001 -2.4329751730E-002 
10396050.063 +7.8921532631E-001 -1.1523544788E-002  +2.0433595777E-001 +3.5466626287E-003  +2.0464769006E-001 +3.1823813915E-003  +7.7123999596E-001 -2.1923154593E-002 
10521195.244 +7.9042470455E-001 -1.1983335018E-002  +2.0420888066E-001 +3.8829520345E-003  +2.0323488116E-001 +3.9305239916E-003  +7.7314126492E-001 -1.9722491503E-002 
10646340.426 +7.8837025166E-001 -1.1598169804E-002  +2.0436558127E-001 +4.1962563992E-003  +2.0393696427E-001 +4.8752054572E-003  +7.7170681953E-001 -1.8878787756E-002 
10771485.607 +7.8789043427E-001 -1.0919779539E-002  +2.0370429754E-001 +4.3009221554E-003  +2.0408409834E-001 +3.7005320191E-003  +7.7424728870E-001 -1.7069548368E-002 
10896630.788 +7.8782010078E-001 -9.4488859177E-003  +2.0350277424E-001 +3.8323551416E-003  +2.0358937979E-001 +3.9156004786E-003  +7.7241230011E-001 -1.5812516212E-002 
11021775.970 +7.8763425350E-001 -7.8213512897E-003  +2.0381332934E-001 +4.1982829571E-003  +2.0416080952E-001 +4.1064098477E-003  +7.7505338192E-001 -1.5031248331E-002 
11146921.151 +7.8896558285E-001 -9.4016790390E-003  +2.0443129539E-001 +3.3381804824E-003  +2.0452269912E-001 +3.9214417338E-003  +7.7473473549E-001 -1.3690292835E-002 
11272066.333 +7.8701782227E-001 -8.9239180088E-003  +2.0388421416E-001 +3.2576546073E-003  +2.0426273346E-001 +3.7266835570E-003  +7.7548283339E-001 -1.2340813875E-002 
11397211.514 +7.8939962387E-001 -7.8066587448E-003  +2.0358300209E-001 +3.6475211382E-003  +2.0422190428E-001 +4.0791630745E-003  +7.7568548918E-001 -1.1524140835E-002 
11522356.696 +7.8938686848E-001 -7.6166689396E-003  +2.0368346572E-001 +3.3300817013E-003  +2.0349550247E-001 +3.4003034234E-003  +7.7630746365E-001 -1.2912660837E-002 
11647501.877 +7.8919684887E-001 -6.4449608326E-003  +2.0375701785E-001 +3.7826821208E-003  +2.0337381959E-001 +4.3248832226E-003  +7.7650177479E-001 -1.0028690100E-002 
11772647.059 +7.9022705555E-001 -5.9381723404E-003  +2.0366486907E-001 +3.9408504963E-003  +2.0365935564E-001 +3.6862492561E-003  +7.7733135223E-001 -9.5284581184E-003 
11897792.240 +7.8938663006E-001 -7.7308714390E-003  +2.0417433977E-001 +3.4388452768E-003  +2.0380046964E-001 +3.5800114274E-003  +7.7804625034E-001 -8.4834396839E-003 
12022937.422 +7.8960186243E-001 -6.0392618179E-003  +2.0415455103E-001 +3.5323128104E-003  +2.0394262671E-001 +3.3377259970E-003  +7.7786165476E-001 -9.0371668339E-003 
12148082.603 +7.9030424356E-001 -5.5279433727E-003  +2.0406690240E-001 +3.1075552106E-003  +2.0329688489E-001 +3.3940151334E-003  +7.7946114540E-001 -5.6695342064E-003 
12273227.785 +7.9115247726E-001 -4.2234063148E-003  +2.0365431905E-001 +3.5419315100E-003  +2.0352506638E-001 +3.0834600329E-003  +7.7961277962E-001 -6.7972838879E-003 
12398372.966 +7.9054439068E-001 -5.1205158234E-003  +2.0407775044E-001 +3.3491849899E-003  +2.0411017537E-001 +3.4887567163E-003  +7.8096657991E-001 -7.4865370989E-003 
12523518.148 +7.9029464722E-001 -3.8855820894E-003  +2.0350289345E-001 +2.9890835285E-003  +2.0367887616E-001 +3.3160969615E-003  +7.7931129932E-001 -6.9279372692E-003 
12648663.329 +7.9143434763E-001 -3.4278631210E-003  +2.0352323353E-001 +3.2676458359E-003  +2.0369082689E-001 +3.1275711954E-003  +7.8133738041E-001 -5.2172690630E-003 
12773808.511 +7.9205715656E-001 -4.7960430384E-003  +2.0308671892E-001 +3.3820308745E-003  +2.0342697203E-001 +3.7113688886E-003  +7.8139531612E-001 -6.2707215548E-003 
12898953.692 +7.9144585133E-001 -4.1561275721E-003  +2.0414973795E-001 +3.1649805605E-003  +2.0324963331E-001 +3.5622678697E-003  +7.8242319822E-001 -6.3253194094E-003 
13024098.874 +7.9190182686E-001 -2.7906373143E-003  +2.0354686677E-001 +2.9422249645E-003  +2.0355944335E-001 +3.3304262906E-003  +7.8280991316E-001 -5.4068863392E-003 
13149244.055 +7.9180788994E-001 -3.5008192062E-003  +2.0362323523E-001 +3.4598559141E-003  +2.0354014635E-001 +4.1083227843E-003  +7.8333914280E-001 -4.9957595766E-003 
13274389.237 +7.9150795937E-001 -3.3535268158E-003  +2.0309932530E-001 +3.0904272571E-003  +2.0346650481E-001 +3.0915667303E-003  +7.8394341469E-001 -4.9459571019E-003 
13399534.418 +7.9193258286E-001 -2.6213433594E-003  +2.0336565375E-001 +2.9254641850E-003  +2.0309756696E-001 +3.1734644435E-003  +7.8372138739E-001 -3.1426474452E-003 
13524679.599 +7.9185777903E-001 -1.3002678752E-003  +2.0364609361E-001 +3.2759131864E-003  +2.0315201581E-001 +3.4075081348E-003  +7.8478807211E-001 -3.7605389953E-003 
13649824.781 +7.9305487871E-001 -2.4323761463E-003  +2.0313723385E-001 +2.9569249600E-003  +2.0275035501E-001 +2.9444806278E-003  +7.8597742319E-001 -4.1052028537E-003 
13774969.962 +7.9332965612E-001 -2.1332949400E-003  +2.0261731744E-001 +2.9380358756E-003  +2.0316743851E-001 +2.8437487781E-003  +7.8467893600E-001 -3.1410753727E-003 
13900115.144 +7.9380947351E-001 -2.1869987249E-003  +2.0294956863E-001 +2.8802156448E-003  +2.0283381641E-001 +3.2481402159E-003  +7.8498613834E-001 -2.9507279396E-003 
14025260.325 +7.9255890846E-001 -2.1481364965E-003  +2.0265081525E-001 +3.2496415079E-003  +2.0261062682E-001 +3.3118762076E-003  +7.8620594740E-001 -2.2921860218E-003 
14150405.507 +7.9323357344E-001 -2.1083652973E-003  +2.0309743285E-001 +3.4623853862E-003  +2.0303025842E-001 +3.5951845348E-003  +7.8588467836E-001 -2.1928548813E-003 
14275550.688 +7.9439336061E-001 -2.2422671318E-003  +2.0307286084E-001 +3.1926110387E-003  +2.0306190848E-001 +3.7871748209E-003  +7.8643363714E-001 -2.0228624344E-003 
14400695.870 +7.9338765144E-001 -3.0300319195E-003  +2.0285508037E-001 +3.3577829599E-003  +2.0238123834E-001 +3.3307746053E-003  +7.8650790453E-001 -1.4288425446E-003 
