!  2-Port S-parameters saved by WinCal
! VAR MeasName=S-Parameters (CALIBRATED_DATA) read from VNA (P5004A)
! VAR MeasDate=22/05/2024 18:43:22
! VAR NAME=Wafer2_r2_c1_formed_pos1.2dc
! VAR FILENAME=Wafer2_r2_c1_formed_pos1.2dc.S2P
! VAR DATE=22/05/2024 18:43:22
! VAR PHYS_PORTS=1,2
! VAR ObjTypeName=DATASET
! VAR IndexType=Frequency
!
# Hz S RI R 50
9000.000 +2.1784311533E-001 -5.9121465683E-001  +2.2926391102E-003 +7.3589431122E-003  +1.4039096422E-003 -1.2909820070E-003  +5.6116685271E-002 +1.1639401317E-001 
134145.181 +6.2169182301E-001 -6.9206371903E-002  -5.4160498083E-002 +4.1656037793E-003  -6.4616361633E-003 -1.2131672353E-002  -5.3998267651E-001 -1.7012131214E+000 
259290.363 +8.0976653099E-001 -1.4375510812E-001  +1.1845402420E-002 -5.7893246412E-004  +5.5018523708E-003 -1.5038830228E-002  +1.5915307999E+000 -8.0369943380E-001 
384435.544 +8.7641429901E-001 -3.0516511202E-001  +2.6674907655E-002 +2.5353103876E-002  +1.3084582984E-002 +1.1458900757E-002  +3.7940001488E+000 +2.6971340179E-001 
509580.726 +9.4027984142E-001 -1.6759490967E-001  +4.2600231245E-004 +7.3659536429E-004  +4.8845657147E-003 -3.6309245043E-003  +1.8015303612E+000 -1.6260185838E-001 
634725.907 +1.0903306007E+000 -2.0744651556E-001  +8.8148965733E-004 +3.2857358456E-003  +1.8305443227E-003 -1.4592050575E-003  +1.7679806948E+000 +1.2267780304E+000 
759871.089 +1.2828335762E+000 -5.0057649612E-002  +5.0408486277E-004 -1.2253640452E-003  +2.0385504467E-004 +4.5292108553E-005  +1.4456595182E+000 +4.0809327364E-001 
885016.270 +1.1190100908E+000 -4.0523040295E-001  -5.3272914374E-004 -2.5084061781E-004  +7.3514296673E-004 -7.3419773253E-004  +1.2081639767E+000 +4.9473530054E-001 
1010161.452 +1.2252696753E+000 -7.8743070364E-002  -1.0294797539E-004 +5.9736490948E-004  -1.6195842181E-004 +2.0762285567E-004  +1.1862801313E+000 +4.8860275745E-001 
1135306.633 +1.3162930012E+000 -9.3680232763E-002  +1.6128063435E-003 -2.3334956495E-004  -6.2685715966E-004 -4.0660970262E-004  +1.2993147373E+000 +6.0187095404E-001 
1260451.815 +1.5493351221E+000 -9.0936183929E-002  -2.9776562587E-004 -2.7647684328E-004  +5.0447863759E-004 +1.9041867927E-004  +1.0990213156E+000 +7.0274299383E-001 
1385596.996 +1.3746833801E+000 -1.1079847813E-001  -8.7669606728E-005 +2.3532321211E-004  +8.0419667938E-005 +2.1089089569E-004  +9.8607808352E-001 +4.8051369190E-001 
1510742.178 +1.6041717529E+000 -1.5086439252E-001  +2.0689974190E-004 +1.9439272000E-004  -1.5738893126E-004 -7.1868766099E-005  +6.7960250378E-001 +5.7375729084E-001 
1635887.359 +1.1225388050E+000 -3.6539515853E-001  +5.0641148846E-005 -8.0251731561E-005  +1.8911852385E-004 +3.2111117616E-004  +1.5222823620E+000 +6.2964612246E-001 
1761032.541 +1.2686346769E+000 -3.1201049685E-001  +1.4283524069E-004 +4.4692767551E-004  -2.1140262834E-004 +2.4723573006E-004  +1.1057842970E+000 +8.2673567533E-001 
1886177.722 +1.1980999708E+000 -2.3263469338E-001  -2.0440024673E-004 +2.4587771622E-004  -3.0367317959E-004 +2.7231717831E-004  +1.1451444626E+000 +5.5887484550E-001 
2011322.904 +1.1969095469E+000 -2.2232046723E-001  -2.5142269442E-004 +3.3558229916E-004  -8.2178055891E-005 +4.5878003584E-004  +1.1577322483E+000 +5.2626103163E-001 
2136468.085 +1.2012062073E+000 -1.7779269814E-001  -4.6547458624E-004 +3.0544464244E-004  -4.9037497956E-004 +1.7950136680E-004  +1.0970206261E+000 +4.7784638405E-001 
2261613.267 +1.2054018974E+000 -1.7501597106E-001  -1.4205503976E-004 +3.7095663720E-004  -8.3261766122E-006 +4.3035708950E-004  +1.0522677898E+000 +5.1612001657E-001 
2386758.448 +1.2072869539E+000 -1.7762149870E-001  -5.9580273228E-004 +2.5614723563E-004  -3.7967480603E-004 +2.0181991567E-004  +1.0707029104E+000 +5.4572749138E-001 
2511903.630 +1.2123632431E+000 -1.9424611330E-001  -4.3762521818E-004 +8.5185322678E-004  -2.3481730022E-004 +4.0054794226E-005  +1.1125104427E+000 +5.8086395264E-001 
2637048.811 +1.1672602892E+000 -2.4073535204E-001  -5.1687523955E-004 +5.6903250515E-004  -2.0863107056E-004 +7.9703587107E-004  +1.1209340096E+000 +6.0888314247E-001 
2762193.992 +1.1257302761E+000 -1.5117281675E-001  -1.2796191731E-004 +6.4029946225E-004  -1.8006199389E-004 +5.3642713465E-004  +1.1372375488E+000 +5.1771008968E-001 
2887339.174 +1.1643967628E+000 -1.0416024923E-001  +1.0388940573E-002 +1.4123562723E-003  -7.6996488497E-004 +6.0268689413E-004  +9.9860823154E-001 +5.1002442837E-001 
3012484.355 +1.2099931240E+000 -1.2495341897E-001  -8.5698236944E-004 +4.9857696285E-004  -2.3702386534E-004 +1.1400410440E-003  +9.5003354549E-001 +6.1355137825E-001 
3137629.537 +1.2171115875E+000 -1.1284327507E-001  -1.0019021574E-003 +2.8776316321E-004  -8.1477419008E-004 +7.8281119931E-004  +9.6853584051E-001 +7.2306352854E-001 
3262774.718 +1.2493743896E+000 -1.4623510838E-001  -7.4403593317E-004 +8.6698221276E-004  -7.5394904707E-004 +3.6411656765E-004  +1.0176178217E+000 +7.8764802217E-001 
3387919.900 +1.2501351833E+000 -1.5019345284E-001  -4.9860181753E-004 +5.0723040476E-004  -7.4173207395E-004 +7.8391324496E-004  +1.0590163469E+000 +8.5599398613E-001 
3513065.081 +1.2569580078E+000 -1.6944390535E-001  -8.4918952780E-004 +1.0484668892E-003  -3.2829889096E-004 +7.6943426393E-004  +1.0998848677E+000 +9.3495649099E-001 
3638210.263 +1.2897570133E+000 -1.9193434715E-001  -8.2732125884E-004 +8.1696489360E-004  -1.1713573476E-003 +1.6647997545E-003  +1.1841228008E+000 +9.7424840927E-001 
3763355.444 +1.2872900963E+000 -2.2346758842E-001  -7.6148856897E-004 +1.3821291504E-003  -3.6390690366E-004 +1.0412604315E-003  +1.2867499590E+000 +1.0114264488E+000 
3888500.626 +1.2917609215E+000 -2.6574194431E-001  -1.4468177687E-003 +1.8373162020E-003  -1.4105429873E-003 +1.9685211591E-003  +1.3688546419E+000 +1.0805718899E+000 
4013645.807 +1.0975278616E+000 -3.9803320169E-001  -1.2090503005E-003 +1.5595711302E-003  -6.9056119537E-004 +3.0258425977E-003  +1.6526564360E+000 +8.6502075195E-001 
4138790.989 +8.8475418091E-001 -4.4223469496E-001  +5.1633553812E-004 +3.4308421891E-003  -5.0845823716E-004 +2.6980480179E-003  +1.7954348326E+000 +5.4337203503E-001 
4263936.170 +8.5173362494E-001 -4.3511879444E-001  -2.1316576749E-005 +2.5501737837E-003  -8.0437224824E-005 +2.4515544064E-003  +1.8320444822E+000 +4.4713941216E-001 
4389081.352 +8.1634598970E-001 -4.2298677564E-001  +3.3073779196E-004 +2.9322465416E-003  -5.1628751680E-004 +2.6652251836E-003  +1.8895674944E+000 +3.2194864750E-001 
4514226.533 +7.7940511703E-001 -4.2530047894E-001  -2.9539462412E-004 +2.7935544495E-003  +2.7255056193E-004 +2.9825521633E-003  +1.9212927818E+000 +2.2012405097E-001 
4639371.715 +7.5288790464E-001 -4.0964195132E-001  +1.7556259991E-004 +2.5726601016E-003  -1.0266641038E-004 +3.7715735380E-003  +1.9212751389E+000 +1.3855564594E-001 
4764516.896 +7.2072815895E-001 -3.7173730135E-001  -6.4993859269E-005 +2.4566645734E-003  +1.2124073692E-003 +2.1255207248E-003  +1.9210926294E+000 +4.1446000338E-002 
4889662.078 +6.9672971964E-001 -3.5504141450E-001  +6.1809201725E-004 +3.0355202034E-003  +6.4141128678E-004 +2.1000117995E-003  +1.9181047678E+000 -3.9556488395E-002 
5014807.259 +6.6237467527E-001 -3.3954989910E-001  +2.6531706681E-004 +2.9151996132E-003  +4.0075671859E-004 +2.3817114998E-003  +1.8727144003E+000 -9.9952965975E-002 
5139952.441 +6.5511053801E-001 -3.1031906605E-001  +1.0165265994E-003 +3.2894650940E-003  +9.4556331169E-004 +2.4744232651E-003  +1.8545049429E+000 -1.9034323096E-001 
5265097.622 +6.2546026707E-001 -2.7544856071E-001  +8.6192379240E-004 +2.5535805617E-003  -8.4654777311E-005 +2.4468109477E-003  +1.7943769693E+000 -2.4501174688E-001 
5390242.804 +6.1399817467E-001 -2.5274550915E-001  +2.5985369575E-004 +3.4759112168E-003  +3.7634227192E-004 +3.0734536704E-003  +1.7444287539E+000 -2.9686731100E-001 
5515387.985 +6.0179924965E-001 -2.1642789245E-001  +6.0606806073E-004 +2.7506484184E-003  +3.6179731251E-004 +2.4704593234E-003  +1.7092344761E+000 -3.7484431267E-001 
5640533.166 +5.9030503035E-001 -1.8707209826E-001  +7.6941272710E-004 +2.6312507689E-003  +3.8376395241E-004 +2.7624838986E-003  +1.6796562672E+000 -4.2019048333E-001 
5765678.348 +5.7472980022E-001 -1.6096723080E-001  +6.0851301532E-004 +2.8885449283E-003  +1.3035441225E-004 +2.9611501377E-003  +1.6205384731E+000 -4.5153528452E-001 
5890823.529 +5.7059496641E-001 -1.3458266854E-001  +4.8133407836E-004 +2.9459577054E-003  +1.4802883379E-004 +2.7930126525E-003  +1.5537579060E+000 -4.7913798690E-001 
6015968.711 +5.6838005781E-001 -1.0406854749E-001  +5.1998411072E-004 +2.7250647545E-003  +6.2467821408E-004 +3.3558877185E-003  +1.5203390121E+000 -4.9680647254E-001 
6141113.892 +5.6930357218E-001 -7.2875969112E-002  +6.5813233959E-005 +2.9147472233E-003  +3.5423118970E-004 +2.8967082035E-003  +1.4474695921E+000 -5.1272076368E-001 
6266259.074 +5.6298154593E-001 -4.4113427401E-002  +1.6844304628E-004 +2.7077465784E-003  +5.3153326735E-004 +2.6866032276E-003  +1.4043506384E+000 -5.2342039347E-001 
6391404.255 +5.6521379948E-001 -1.6786675900E-002  +5.3307437338E-004 +2.8020378668E-003  +4.3206085684E-004 +2.9444554821E-003  +1.3472136259E+000 -5.3834027052E-001 
6516549.437 +5.7132440805E-001 +1.4992778189E-002  +5.6596728973E-004 +2.9783470090E-003  +4.3677215581E-004 +2.7734609321E-003  +1.3053272963E+000 -5.3562313318E-001 
6641694.618 +5.7868689299E-001 +4.8803076148E-002  +1.5361585247E-004 +2.9932651669E-003  +1.9861443434E-004 +2.9918204527E-003  +1.2717195749E+000 -5.3753471375E-001 
6766839.800 +5.9192383289E-001 +7.5984224677E-002  +3.0199502362E-004 +2.8432596009E-003  -1.4016259229E-004 +2.9851759318E-003  +1.2286263704E+000 -5.4522311687E-001 
6891984.981 +5.9999126196E-001 +9.9860176444E-002  +2.2573432943E-004 +2.9333089478E-003  +5.3829629906E-004 +3.1355263200E-003  +1.1779913902E+000 -5.3437209129E-001 
7017130.163 +6.0721600056E-001 +1.3000099361E-001  +3.7420541048E-004 +2.7066231705E-003  +4.3081675540E-004 +3.2202752773E-003  +1.1428911686E+000 -5.2724331617E-001 
7142275.344 +6.1899614334E-001 +1.5742832422E-001  +2.6910228189E-004 +3.3599918243E-003  +2.6647924096E-004 +3.0973171815E-003  +1.1167095900E+000 -5.2344799042E-001 
7267420.526 +6.3288819790E-001 +1.7968577147E-001  +3.0813689227E-004 +3.2718996517E-003  +2.0200008294E-005 +3.1692313496E-003  +1.0838499069E+000 -5.1204395294E-001 
7392565.707 +6.5048605204E-001 +2.0597475767E-001  +1.3434680295E-004 +3.3339695074E-003  +2.5752640795E-005 +3.1727165915E-003  +1.0533004999E+000 -5.1120340824E-001 
7517710.889 +6.6649258137E-001 +2.2553583980E-001  +2.7205879451E-004 +3.2834291924E-003  +1.2892787345E-004 +3.2882518135E-003  +1.0228028297E+000 -4.9970662594E-001 
7642856.070 +6.8550932407E-001 +2.4738249183E-001  +8.0073892605E-005 +3.3193218987E-003  +2.1191022824E-005 +3.3054309897E-003  +9.9091142416E-001 -4.8601314425E-001 
7768001.252 +7.0644420385E-001 +2.7126547694E-001  +1.7110205954E-004 +3.1331169885E-003  -1.2629310368E-004 +3.2679147553E-003  +9.5942020416E-001 -4.7492128611E-001 
7893146.433 +7.2888761759E-001 +2.8795161843E-001  +1.5577557497E-004 +3.2979201060E-003  -1.3798417058E-005 +3.3987187780E-003  +9.4165706635E-001 -4.5735937357E-001 
8018291.615 +7.5223505497E-001 +3.0411034822E-001  +1.1572986841E-004 +3.5439901985E-003  +1.3889919501E-004 +3.6312809680E-003  +9.1443318129E-001 -4.3915468454E-001 
8143436.796 +7.7379637957E-001 +3.1232321262E-001  +9.3743728939E-005 +3.6030265037E-003  +4.2764935642E-005 +3.3907138277E-003  +8.9886736870E-001 -4.2165994644E-001 
8268581.977 +7.9668515921E-001 +3.3510199189E-001  -2.2642954718E-005 +3.5824619699E-003  +3.1588133425E-006 +3.4032252152E-003  +8.7760478258E-001 -4.0406736732E-001 
8393727.159 +8.2602316141E-001 +3.4083190560E-001  +9.6889038105E-005 +3.5814836156E-003  -1.1210795492E-004 +3.6504769232E-003  +8.6203217506E-001 -3.9289146662E-001 
8518872.340 +8.5522437096E-001 +3.4804543853E-001  +3.2230629586E-005 +3.6629254464E-003  -1.2048543431E-004 +4.0158918127E-003  +8.4330618382E-001 -3.7679970264E-001 
8644017.522 +8.7654757500E-001 +3.5546234250E-001  +4.6687200665E-006 +3.7719355896E-003  -1.7319311155E-004 +3.7151821889E-003  +8.3272147179E-001 -3.6379700899E-001 
8769162.703 +9.0797936916E-001 +3.6195868254E-001  -3.9068516344E-005 +3.8924056571E-003  +1.7469748855E-005 +3.7939746398E-003  +8.1725609303E-001 -3.4499403834E-001 
8894307.885 +9.3649578094E-001 +3.6122781038E-001  -2.1391664632E-004 +3.9599025622E-003  -1.7576816026E-004 +3.9330716245E-003  +8.0224448442E-001 -3.3110275865E-001 
9019453.066 +9.6313679218E-001 +3.5981100798E-001  -1.8174864817E-004 +4.0160724893E-003  -2.7471967041E-004 +4.1278009303E-003  +7.8968870640E-001 -3.1512275338E-001 
9144598.248 +9.9202084541E-001 +3.5729390383E-001  -7.5952732004E-005 +4.1509745643E-003  -1.3220310211E-004 +4.2535196990E-003  +7.8054046631E-001 -2.9517769814E-001 
9269743.429 +1.0197601318E+000 +3.5569122434E-001  -1.4429481234E-004 +4.2920336127E-003  -1.6193476040E-004 +4.2201313190E-003  +7.6811206341E-001 -2.7786141634E-001 
9394888.611 +1.0447038412E+000 +3.5153809190E-001  -2.2114336025E-004 +4.3028681539E-003  -2.3702916224E-004 +4.2540812865E-003  +7.5959271193E-001 -2.6334035397E-001 
9520033.792 +1.0737245083E+000 +3.4001237154E-001  -3.6844133865E-004 +4.4340486638E-003  -2.6426452678E-004 +4.4208401814E-003  +7.5240218639E-001 -2.4569010735E-001 
9645178.974 +1.0976166725E+000 +3.2655400038E-001  -1.5911238734E-004 +4.4130277820E-003  -1.9884726498E-004 +4.5237378217E-003  +7.4202126265E-001 -2.2954159975E-001 
9770324.155 +1.1177082062E+000 +3.1316885352E-001  -1.2837792747E-004 +4.6440488659E-003  -2.1787628066E-004 +4.5098601840E-003  +7.3475730419E-001 -2.1203079820E-001 
9895469.337 +1.1415715218E+000 +3.0225154757E-001  -2.1757395007E-004 +4.5844088309E-003  -3.0314701144E-004 +4.7304057516E-003  +7.2891885042E-001 -1.9666615129E-001 
10020614.518 +1.1600592136E+000 +2.8546601534E-001  -2.2877776064E-004 +4.7203092836E-003  -2.2265524603E-004 +4.7365310602E-003  +7.2760921717E-001 -1.7633444071E-001 
10145759.700 +1.1769720316E+000 +2.6607042551E-001  -1.8433528021E-004 +4.8378808424E-003  -1.5177763999E-004 +4.8199333251E-003  +7.2269690037E-001 -1.6354849935E-001 
10270904.881 +1.1970492601E+000 +2.4626305699E-001  -1.5746708959E-004 +5.0301970914E-003  -2.5275815278E-004 +4.9611669965E-003  +7.1978741884E-001 -1.4675551653E-001 
10396050.063 +1.2087867260E+000 +2.2515487671E-001  -1.5807780437E-004 +5.0010620616E-003  -1.4343368821E-004 +4.9580461346E-003  +7.1572965384E-001 -1.2787660956E-001 
10521195.244 +1.2217706442E+000 +2.0694908500E-001  -1.4465674758E-004 +5.1539391279E-003  -2.0000711083E-004 +5.1023098640E-003  +7.1741408110E-001 -1.1493247747E-001 
10646340.426 +1.2302337885E+000 +1.8654227257E-001  -2.1565123461E-004 +5.2204933017E-003  -2.2603617981E-004 +5.1599359140E-003  +7.1512889862E-001 -9.8698645830E-002 
10771485.607 +1.2380634546E+000 +1.6494560242E-001  -1.4339899644E-004 +5.2108494565E-003  -1.2219278142E-004 +5.3040971979E-003  +7.1550834179E-001 -8.2418262959E-002 
10896630.788 +1.2426266670E+000 +1.4566296339E-001  -1.4090724289E-004 +5.3645232692E-003  -1.8295436166E-004 +5.3269336931E-003  +7.1470582485E-001 -6.7391276360E-002 
11021775.970 +1.2469029427E+000 +1.2509918213E-001  -8.0625293776E-005 +5.4036839865E-003  -1.6263290308E-004 +5.4505346343E-003  +7.1659922600E-001 -5.1691323519E-002 
11146921.151 +1.2489304543E+000 +1.0306668282E-001  -1.1126021855E-004 +5.5355327204E-003  -1.2492900714E-004 +5.4591321386E-003  +7.1873348951E-001 -3.5575777292E-002 
11272066.333 +1.2477502823E+000 +8.2317769527E-002  -1.1032260954E-004 +5.5109784007E-003  -9.7499461845E-005 +5.4692206904E-003  +7.1916693449E-001 -2.2323280573E-002 
11397211.514 +1.2497454882E+000 +6.4567089081E-002  -1.3428088278E-004 +5.5558066815E-003  -6.3925050199E-005 +5.5818492547E-003  +7.2253739834E-001 -8.6881220341E-003 
11522356.696 +1.2469317913E+000 +4.5190215111E-002  -5.6080054492E-005 +5.6530027650E-003  -9.1142021120E-005 +5.6657418609E-003  +7.2767907381E-001 +6.2080919743E-003 
11647501.877 +1.2426851988E+000 +2.8137385845E-002  -8.0963131040E-005 +5.6773568504E-003  -5.6913821027E-005 +5.7742232457E-003  +7.2967243195E-001 +1.9227355719E-002 
11772647.059 +1.2381124496E+000 +1.1773228645E-002  -2.8175301850E-005 +5.7872752659E-003  -1.8778257072E-005 +5.8009959757E-003  +7.3497241735E-001 +3.2147079706E-002 
11897792.240 +1.2324101925E+000 -4.5776963234E-003  -6.9444300607E-005 +5.8105890639E-003  -5.5516371503E-005 +5.8916080743E-003  +7.4051845074E-001 +4.4632971287E-002 
12022937.422 +1.2281646729E+000 -1.8088608980E-002  -4.7011068091E-005 +5.9176385403E-003  -6.3170911744E-005 +5.9165288694E-003  +7.4655199051E-001 +5.7662039995E-002 
12148082.603 +1.2215340137E+000 -3.2284110785E-002  -6.6004926339E-005 +5.9999404475E-003  -4.9258815125E-005 +5.9836367145E-003  +7.5455069542E-001 +7.1775943041E-002 
12273227.785 +1.2130846977E+000 -4.3432682753E-002  -4.6757049859E-005 +6.0599599965E-003  -4.0586339310E-005 +6.0833729804E-003  +7.6007997990E-001 +8.2091405988E-002 
12398372.966 +1.2049287558E+000 -5.6213408709E-002  -5.5498792790E-005 +6.1154980212E-003  +9.9001917988E-006 +6.0541066341E-003  +7.6851665974E-001 +9.3464314938E-002 
12523518.148 +1.1949335337E+000 -6.6614106297E-002  -6.8347435445E-006 +6.1301072128E-003  -4.1698105633E-005 +6.2013533898E-003  +7.7558356524E-001 +1.0356698930E-001 
12648663.329 +1.1875379086E+000 -7.6131522655E-002  -4.3606036343E-005 +6.2379338779E-003  -4.3295556679E-005 +6.2213009223E-003  +7.8482252359E-001 +1.1452426016E-001 
12773808.511 +1.1774343252E+000 -8.6279571056E-002  -3.4676515497E-005 +6.3103591092E-003  -3.7310412154E-005 +6.3018538058E-003  +7.9447364807E-001 +1.2512949109E-001 
12898953.692 +1.1676416397E+000 -9.4977632165E-002  +1.1576223187E-005 +6.4214230515E-003  -2.1229032427E-005 +6.3689984381E-003  +8.0332475901E-001 +1.3367861509E-001 
13024098.874 +1.1571015120E+000 -1.0204875469E-001  -1.1724740034E-005 +6.4143822528E-003  -5.0232541980E-005 +6.4498484135E-003  +8.1343561411E-001 +1.4404979348E-001 
13149244.055 +1.1483296156E+000 -1.0874670744E-001  -1.2614022125E-005 +6.5098907799E-003  -2.8741284041E-005 +6.5437452868E-003  +8.2375633717E-001 +1.5234406292E-001 
13274389.237 +1.1382621527E+000 -1.1474487185E-001  -4.0317099774E-006 +6.5862154588E-003  +1.2662567315E-005 +6.6144238226E-003  +8.3607578278E-001 +1.5939746797E-001 
13399534.418 +1.1279667616E+000 -1.1994159222E-001  +1.5991274267E-005 +6.6207614727E-003  -1.3802549802E-005 +6.6644181497E-003  +8.4598588943E-001 +1.6772663593E-001 
13524679.599 +1.1181446314E+000 -1.2392517924E-001  +2.3785221856E-005 +6.7876544781E-003  +4.2514642701E-005 +6.7392140627E-003  +8.5845237970E-001 +1.7434519529E-001 
13649824.781 +1.1098634005E+000 -1.2787777185E-001  +2.1168612875E-005 +6.7759035155E-003  +3.7489226088E-006 +6.7989691161E-003  +8.7013304234E-001 +1.7882779241E-001 
13774969.962 +1.0993145704E+000 -1.3062746823E-001  +5.3533236496E-005 +6.8673794158E-003  +1.9387458451E-005 +6.8836314604E-003  +8.8180345297E-001 +1.8373569846E-001 
13900115.144 +1.0910065174E+000 -1.3192468882E-001  +7.6837372035E-005 +6.9196540862E-003  +8.4476196207E-005 +6.9346604869E-003  +8.9354610443E-001 +1.8984121084E-001 
14025260.325 +1.0802878141E+000 -1.3507825136E-001  +5.9167155996E-005 +7.0213167928E-003  +2.8515001759E-005 +6.9794333540E-003  +9.0609717369E-001 +1.9248816371E-001 
14150405.507 +1.0718128681E+000 -1.3548466563E-001  +1.8446706235E-005 +7.0770927705E-003  +4.2397994548E-005 +7.0748766884E-003  +9.1852229834E-001 +1.9545701146E-001 
14275550.688 +1.0638171434E+000 -1.3724258542E-001  +1.1144904420E-004 +7.1491561830E-003  -3.2288953662E-006 +7.2068539448E-003  +9.3140912056E-001 +1.9597630203E-001 
14400695.870 +1.0545291901E+000 -1.3719564676E-001  +1.1944142170E-004 +7.1664168499E-003  +1.1445139535E-004 +7.2129853070E-003  +9.4350951910E-001 +1.9858062267E-001 
