!  2-Port S-parameters saved by WinCal
! VAR MeasName=S-Parameters (CALIBRATED_DATA) read from VNA (P5004A)
! VAR MeasDate=22/05/2024 21:58:15
! VAR NAME=Wafer3_r2_c5_pristine_pos10dc
! VAR FILENAME=Wafer3_r2_c5_pristine_pos10dc.S2P
! VAR DATE=22/05/2024 21:58:15
! VAR PHYS_PORTS=1,2
! VAR ObjTypeName=DATASET
! VAR IndexType=Frequency
!
# Hz S RI R 50
9000.000 +2.0569640398E-001 -6.0019463301E-001  +2.5968933478E-003 -3.9720986970E-003  -1.8808055902E-003 +2.5390484370E-004  +4.5969508588E-002 +1.0710678250E-001 
134145.181 +5.9699839354E-001 -1.5163108706E-002  +3.5427831113E-002 -4.3749399483E-002  -2.5064530782E-003 -1.6480773687E-002  +1.3214980066E-001 +2.8614081442E-002 
259290.363 +8.2628417015E-001 -1.2159048021E-001  -1.4589982107E-002 -2.6447875425E-003  +2.1979067475E-002 -4.2636459693E-003  +4.1069993377E-001 -2.2482830286E-001 
384435.544 +8.9310908318E-001 -2.8123581409E-001  +1.5981068835E-002 -1.0730229318E-002  -3.5951083992E-003 +1.1413891800E-002  +1.6633230448E-001 +7.6679751277E-002 
509580.726 +9.5255178213E-001 -1.5232485533E-001  -1.4146050438E-002 -1.5232027508E-003  +1.6163652763E-003 -1.5287834220E-002  -1.0838484764E+000 +4.6687394381E-002 
634725.907 +1.0956218243E+000 -2.0927542448E-001  +2.6399822673E-004 +5.1010953030E-004  +1.5428424813E-003 -8.3042052574E-004  +8.3444494009E-001 -1.9998022914E-001 
759871.089 +1.3260793686E+000 -6.1513602734E-002  -4.3580646161E-004 +2.0085339202E-004  -9.2754804064E-004 -3.5906748963E-004  +1.4915270805E+000 +1.3797187805E-001 
885016.270 +2.0075507164E+000 -1.3579770327E+000  -2.0368257537E-003 +1.5822901623E-003  -3.1090388075E-003 +4.3140404159E-004  +1.2926541567E+000 +4.4495067000E-001 
1010161.452 +9.7021913528E-001 -9.7190573812E-002  -4.1328120278E-004 -1.1906289728E-004  +5.8077042922E-005 -4.7401379561E-004  +1.2152664661E+000 +5.0162082911E-001 
1135306.633 +8.9943069220E-001 -1.7867274582E-002  -4.9327895977E-004 +5.0103373360E-004  -4.3853343232E-004 -1.5085545601E-003  +1.3119002581E+000 +6.4202368259E-001 
1260451.815 +1.3243432045E+000 +2.1077185869E-002  -1.5521864407E-004 -2.5557351182E-004  -3.3820577664E-004 -5.0120835658E-004  +1.0814678669E+000 +7.3268330097E-001 
1385596.996 +1.2652571201E+000 -1.4326232672E-001  +1.7848235439E-004 +4.0307041490E-004  -1.1027073197E-004 -2.1664795349E-004  +9.6752446890E-001 +4.9769151211E-001 
1510742.178 +1.3938430548E+000 -2.9155442119E-001  -4.0492325206E-004 -7.8776752343E-004  -1.9529338169E-004 -2.6934803464E-004  +6.6305661201E-001 +5.7110857964E-001 
1635887.359 +8.9349156618E-001 -3.9360132813E-001  +6.6977943061E-004 -2.1322381508E-004  +1.8724113761E-004 -5.5424071616E-004  +1.5053427219E+000 +6.4994132519E-001 
1761032.541 +8.4437346458E-001 -4.7660738230E-001  +1.3726911857E-004 -2.8964579542E-005  +2.3020344088E-004 -2.2166426061E-004  +1.0855507851E+000 +8.1866049767E-001 
1886177.722 +8.4701800346E-001 -2.1156132221E-001  +1.4734857541E-004 +2.5734174415E-005  +2.4156883592E-004 -5.9468606196E-005  +1.1327105761E+000 +5.5189126730E-001 
2011322.904 +8.5147249699E-001 -1.5180480480E-001  -2.4758902146E-004 +8.1284815678E-005  -2.7473326190E-004 -9.4868446467E-005  +1.1480245590E+000 +5.1561838388E-001 
2136468.085 +8.8425809145E-001 -1.3866156340E-001  +3.1612806488E-003 -3.6486422177E-003  -1.1737036402E-004 +1.2219621567E-004  +1.0913474560E+000 +4.6330907941E-001 
2261613.267 +8.8606435061E-001 -1.1931318045E-001  -1.4801684301E-004 -1.5660407371E-005  -1.2455225806E-004 -2.4650034902E-005  +1.0531544685E+000 +4.9823877215E-001 
2386758.448 +8.8516175747E-001 -9.4795078039E-002  +4.8504436563E-005 +3.0234467704E-004  -9.5752649941E-005 +1.0461725469E-004  +1.0768393278E+000 +5.2474462986E-001 
2511903.630 +8.8822674751E-001 -5.6714013219E-002  +9.2347516329E-005 +2.7103061439E-004  +8.8053580839E-005 +5.9715406678E-005  +1.1233493090E+000 +5.5586183071E-001 
2637048.811 +8.9555484056E-001 -5.8489762247E-002  +2.5672250194E-004 -6.1210172134E-005  +2.5111218565E-004 +9.2634923931E-005  +1.1450418234E+000 +5.8074718714E-001 
2762193.992 +8.9862561226E-001 -6.1409845948E-002  -2.0392694569E-004 +4.1652232176E-004  -2.1990781534E-006 +2.5518870098E-004  +1.1784392595E+000 +4.6588331461E-001 
2887339.174 +8.6024892330E-001 -3.3801123500E-002  -9.4976923720E-005 -2.1183503850E-004  +2.5774352252E-005 -3.3483459265E-004  +1.0224881172E+000 +4.2143198848E-001 
3012484.355 +8.5789340734E-001 -1.9303232431E-002  +3.8402114296E-004 -2.4418067187E-004  -6.7930544901E-005 +3.6873950739E-004  +9.5381575823E-001 +5.2974468470E-001 
3137629.537 +8.5784202814E-001 +1.8210113049E-002  +1.4910407481E-004 +5.1955867093E-004  +2.7265597600E-004 -2.5734433439E-004  +9.6937388182E-001 +6.4225286245E-001 
3262774.718 +8.6170077324E-001 +4.1560977697E-002  -1.5034165699E-004 +6.4435345121E-004  -3.4959407640E-004 -1.3664233848E-004  +1.0133800507E+000 +7.0801711082E-001 
3387919.900 +8.5695618391E-001 +6.9684550166E-002  -2.2438331507E-004 -9.9536911875E-005  +2.9231090593E-005 +1.4178699348E-004  +1.0548603535E+000 +7.7170443535E-001 
3513065.081 +8.7129008770E-001 +8.6687564850E-002  -5.0504988758E-004 +8.3259408711E-005  +4.4323207112E-004 +3.4008233342E-004  +1.0931016207E+000 +8.4560263157E-001 
3638210.263 +8.7882858515E-001 +1.1838129163E-001  +1.9135070033E-004 +1.2887356570E-004  -4.3207142880E-005 -7.7830991358E-005  +1.1758373976E+000 +8.7753081322E-001 
3763355.444 +9.0327298641E-001 +1.4598530531E-001  +2.8947985265E-004 +7.5895019108E-005  -1.2450861686E-004 +1.9410660025E-004  +1.2556779385E+000 +8.9937758446E-001 
3888500.626 +9.1224950552E-001 +1.5216124058E-001  +1.4248126536E-004 -3.7024158519E-004  -1.0140916856E-004 +1.9212276675E-004  +1.3495755196E+000 +9.5995628834E-001 
4013645.807 +8.7563896179E-001 +9.3057855964E-002  +1.6228659661E-004 -5.4860585806E-005  +5.9528561542E-004 -7.1971167927E-005  +1.5727015734E+000 +7.5766742229E-001 
4138790.989 +8.2866901159E-001 +4.4766977429E-002  +1.6011216212E-004 -7.4837257853E-004  -7.9192606790E-005 +8.9138920885E-005  +1.6579579115E+000 +4.6763521433E-001 
4263936.170 +8.3223819733E-001 +4.3983384967E-002  +3.3442885615E-004 +6.9539761171E-004  -4.4869715930E-004 -1.6630494792E-004  +1.7080163956E+000 +3.8318985701E-001 
4389081.352 +8.4391957521E-001 +4.8748269677E-002  -3.9553749957E-005 -3.1682994450E-004  +5.9672096540E-005 -3.6106246989E-004  +1.7391468287E+000 +2.7716884017E-001 
4514226.533 +8.5288393497E-001 +6.1541721225E-002  -2.6144992444E-004 -2.3007525306E-004  -3.4277202212E-004 +2.2058590548E-004  +1.7700773478E+000 +1.9174325466E-001 
4639371.715 +8.6793607473E-001 +6.0822397470E-002  +1.1797897605E-004 -5.1082775462E-004  +7.5370786362E-005 +2.9737240402E-004  +1.7697654963E+000 +1.3409501314E-001 
4764516.896 +8.7180763483E-001 +5.2736848593E-002  -1.5383359278E-004 +2.5416241260E-004  +3.5765464418E-004 -1.6018276801E-004  +1.7696744204E+000 +5.3423106670E-002 
4889662.078 +8.7753582001E-001 +6.1468675733E-002  +7.4263400165E-005 +2.6699711452E-004  -1.5432504006E-004 -4.2979136924E-004  +1.7830487490E+000 -1.4766335487E-002 
5014807.259 +8.7260937691E-001 +6.0132585466E-002  -6.3171581132E-004 +3.2713447581E-005  +3.1979917549E-004 -4.2791562737E-004  +1.7433693409E+000 -7.5977891684E-002 
5139952.441 +8.9153963327E-001 +5.9626005590E-002  -1.4402023226E-004 -1.0678650870E-004  -3.9553226088E-004 -1.6907644749E-004  +1.7270801067E+000 -1.5102440119E-001 
5265097.622 +8.9299511909E-001 +6.7668512464E-002  -1.9333879754E-004 +1.0478795593E-004  +1.3625483552E-004 +2.1473917877E-004  +1.6870129108E+000 -2.1087768674E-001 
5390242.804 +9.0547043085E-001 +7.3079146445E-002  -5.2973478887E-005 -1.2009176135E-004  -2.8028531233E-004 -4.5521712309E-005  +1.6505957842E+000 -2.5315791368E-001 
5515387.985 +9.0994447470E-001 +6.2171429396E-002  +5.0283753080E-004 -8.2278583432E-004  +1.8718380306E-004 +3.8854338345E-004  +1.6173145771E+000 -3.0521172285E-001 
5640533.166 +9.2002433538E-001 +7.2805091739E-002  -1.0027252574E-004 -6.1082188040E-005  -4.0465928032E-004 +1.7537723761E-004  +1.5970098972E+000 -3.3293908834E-001 
5765678.348 +9.1879677773E-001 +6.3746236265E-002  -1.1400469521E-004 +2.2335170070E-004  -1.0513937741E-004 +1.9534192688E-004  +1.5506273508E+000 -3.7698727846E-001 
5890823.529 +9.2577111721E-001 +5.7933367789E-002  -2.5552127045E-004 -6.1864499003E-005  +2.0493903139E-004 -3.5710021621E-005  +1.4872967005E+000 -4.0979969501E-001 
6015968.711 +9.2263782024E-001 +6.0248188674E-002  +7.8642988228E-005 -3.9717589971E-005  +1.1058771634E-004 +2.7702178340E-004  +1.4590497017E+000 -4.1873642802E-001 
6141113.892 +9.2820417881E-001 +5.4835408926E-002  -1.5082876780E-004 +1.4481641119E-004  +1.2864200107E-004 -9.7134921816E-005  +1.4084557295E+000 -4.3764626980E-001 
6266259.074 +9.3434077501E-001 +5.9384457767E-002  -2.7734256582E-004 -1.3492561993E-004  -3.2292623655E-004 -3.0365079874E-004  +1.3649839163E+000 -4.5887178183E-001 
6391404.255 +9.2960095406E-001 +5.4951578379E-002  -5.2388746553E-005 +5.1835145314E-006  -3.7602294469E-006 +1.8905305478E-004  +1.3150444031E+000 -4.7040265799E-001 
6516549.437 +9.3456888199E-001 +5.5679474026E-002  +1.5743583208E-004 -1.4568725601E-004  -2.0855276671E-004 +1.3002088235E-004  +1.2786562443E+000 -4.7684219480E-001 
6641694.618 +9.4249415398E-001 +6.0903228819E-002  -3.4120408236E-004 -1.0554779146E-004  -1.9214639906E-004 -1.3111349836E-004  +1.2481813431E+000 -4.7828722000E-001 
6766839.800 +9.5195788145E-001 +5.5184379220E-002  +1.2201343634E-004 +1.5914331016E-004  -1.6276957467E-004 +3.5332533298E-004  +1.2131433487E+000 -4.8969879746E-001 
6891984.981 +9.4927054644E-001 +5.4916568100E-002  +1.2601909111E-004 -8.6747306341E-005  +6.2758248532E-005 -1.8538409495E-004  +1.1562228203E+000 -4.8419260979E-001 
7017130.163 +9.4777017832E-001 +5.4998032749E-002  -9.8884484032E-005 +7.2783632277E-006  +6.0230941017E-006 +1.5765491116E-004  +1.1341106892E+000 -4.7479319572E-001 
7142275.344 +9.5186281204E-001 +5.4304435849E-002  +1.0982595268E-004 -1.3549486175E-004  -1.6531014990E-004 +2.2301459103E-004  +1.1123633385E+000 -4.7264772654E-001 
7267420.526 +9.5210599899E-001 +6.1127655208E-002  +8.6332991486E-005 -8.8462169515E-005  +2.0027716528E-004 -2.2965909011E-005  +1.0807342529E+000 -4.6065801382E-001 
7392565.707 +9.5274460316E-001 +5.9018649161E-002  -3.9174879930E-005 -3.5828790715E-005  -3.5574212234E-005 -2.0216636767E-004  +1.0506986380E+000 -4.6464091539E-001 
7517710.889 +9.5798522234E-001 +5.4939232767E-002  +6.1625018134E-005 +1.1198192078E-004  +1.7529954494E-004 -1.6063367366E-004  +1.0242173672E+000 -4.5142048597E-001 
7642856.070 +9.5234757662E-001 +5.4236829281E-002  +7.7806776972E-005 +6.3322382630E-005  -2.7551141102E-005 -2.1192865461E-005  +9.9027282000E-001 -4.4064146280E-001 
7768001.252 +9.5778000355E-001 +5.0913169980E-002  +1.1510682816E-004 +1.2487762433E-004  +8.0400524894E-005 +2.3867216441E-005  +9.6709370613E-001 -4.3404087424E-001 
7893146.433 +9.6359539032E-001 +5.6362777948E-002  +2.0495729405E-004 -2.1459496929E-004  +2.2720418201E-005 +2.5233926135E-004  +9.4405412674E-001 -4.1678988934E-001 
8018291.615 +9.5972228050E-001 +4.9629747868E-002  -2.5606192139E-005 -3.1765677704E-005  -7.1773545642E-005 +3.9985839976E-005  +9.1634869576E-001 -4.0582573414E-001 
8143436.796 +9.5892971754E-001 +4.8908978701E-002  +3.5419783671E-005 -3.2573082717E-004  -1.6303313896E-004 -3.2875286706E-006  +9.0303629637E-001 -3.9149698615E-001 
8268581.977 +9.6055841446E-001 +5.1117897034E-002  -4.0408092900E-005 +1.4954974176E-004  -8.8890221377E-005 -4.6272230975E-005  +8.8323086500E-001 -3.7835896015E-001 
8393727.159 +9.6440404654E-001 +4.8670619726E-002  -4.5714317821E-005 -9.9939425127E-005  +1.1062505655E-004 -2.2966842516E-004  +8.6889493465E-001 -3.6413252354E-001 
8518872.340 +9.6636414528E-001 +4.5829817653E-002  -7.5695992564E-005 +4.6364388254E-005  +2.9558756069E-005 +1.7157217371E-004  +8.5128301382E-001 -3.5126501322E-001 
8644017.522 +9.6581417322E-001 +5.0085455179E-002  -2.0312432753E-005 +5.4679971072E-005  -1.4942511916E-004 +2.6661142329E-005  +8.4131646156E-001 -3.3626168966E-001 
8769162.703 +9.7325992584E-001 +4.7961533070E-002  +7.5095624197E-005 -9.7484182334E-005  +9.1215952125E-005 -2.7797774237E-005  +8.2542920113E-001 -3.2484465837E-001 
8894307.885 +9.6925687790E-001 +4.4368445873E-002  +3.3271389839E-005 -5.1763003285E-005  +9.7025906143E-005 -3.4990225686E-005  +8.0929172039E-001 -3.0774998665E-001 
9019453.066 +9.7029924393E-001 +4.1994035244E-002  +5.7222547184E-005 -4.9540802138E-005  -3.8502148527E-005 +1.9873012207E-004  +7.9723489285E-001 -2.8888618946E-001 
9144598.248 +9.7197407484E-001 +4.2609959841E-002  +1.8115435523E-005 +1.3714557281E-004  -1.6808528017E-005 -3.9796355850E-005  +7.8646838665E-001 -2.7457338572E-001 
9269743.429 +9.7518706322E-001 +4.1398167610E-002  -1.5332561452E-004 +3.5479690268E-005  +7.8548619058E-005 -1.5791219994E-005  +7.7889269590E-001 -2.5604888797E-001 
9394888.611 +9.7524458170E-001 +4.4912546873E-002  -6.9148984039E-005 -5.0477428886E-005  +3.7112040445E-005 -5.7945562730E-006  +7.6860111952E-001 -2.4343010783E-001 
9520033.792 +9.7658741474E-001 +3.8734525442E-002  +5.2900868468E-006 +1.0637054220E-004  +3.7144418457E-005 -6.4109306550E-005  +7.6129674911E-001 -2.2361156344E-001 
9645178.974 +9.7790473700E-001 +4.0680855513E-002  +2.3461063847E-006 +9.5370378403E-006  +6.9100686233E-005 +6.5331456426E-005  +7.5161033869E-001 -2.1130487323E-001 
9770324.155 +9.7834897041E-001 +4.0179967880E-002  -9.8996744782E-005 -1.3533786841E-005  -4.6959572501E-005 +8.3003316831E-005  +7.4376744032E-001 -1.9379463792E-001 
9895469.337 +9.7879409790E-001 +4.0026843548E-002  +8.8424407295E-005 +2.8792530429E-005  -4.2916431994E-005 +1.5183830328E-005  +7.3871546984E-001 -1.7888292670E-001 
10020614.518 +9.7826319933E-001 +4.0991246700E-002  +1.1619707720E-006 +3.6029500734E-006  -4.7418048780E-005 +4.8790705478E-005  +7.3423087597E-001 -1.5967747569E-001 
10145759.700 +9.8007959127E-001 +3.7931829691E-002  +4.5853303163E-005 +4.1295465053E-005  -3.7681704271E-005 +6.0328926338E-005  +7.3004555702E-001 -1.4662033319E-001 
10270904.881 +9.8265028000E-001 +3.4998059273E-002  +7.2526017902E-005 -7.6526543126E-005  +9.6322444733E-005 -8.1609236076E-005  +7.2827976942E-001 -1.3080054522E-001 
10396050.063 +9.8001384735E-001 +3.5112977028E-002  +3.4229025914E-005 -7.2220063885E-005  -2.5947083486E-006 +1.6759386926E-004  +7.2498428822E-001 -1.1427715421E-001 
10521195.244 +9.8142349720E-001 +3.6328971386E-002  -5.3551153542E-005 +5.2656589105E-005  -4.9764024880E-005 +6.8386048952E-005  +7.2366511822E-001 -1.0002660751E-001 
10646340.426 +9.8141753674E-001 +3.5222500563E-002  +5.7165110775E-005 +8.3428793005E-005  -6.1368409661E-006 +1.5598257596E-004  +7.2199738026E-001 -8.4123283625E-002 
10771485.607 +9.8096966743E-001 +3.1228095293E-002  -3.6005010770E-005 +6.1744809500E-005  +8.2344340626E-005 +6.5747495682E-005  +7.2246575356E-001 -6.7099541426E-002 
10896630.788 +9.8207235336E-001 +3.2749921083E-002  -1.7905507775E-005 +5.4387251112E-006  +1.2837223949E-005 -1.7077918528E-005  +7.2086846828E-001 -5.1748484373E-002 
11021775.970 +9.8204696178E-001 +3.1780600548E-002  +6.6667671490E-006 +2.5571276637E-005  +2.1630210540E-005 +6.1483704485E-005  +7.2220361233E-001 -3.9034575224E-002 
11146921.151 +9.8223042488E-001 +2.7528673410E-002  +3.0181399779E-006 +8.0965939560E-005  +3.0400869946E-005 -8.2897522589E-006  +7.2530519962E-001 -2.4735331535E-002 
11272066.333 +9.8013937473E-001 +2.7860045433E-002  +1.7070866306E-005 -1.9172795874E-005  -1.0830614337E-004 +1.1385731341E-005  +7.2547781467E-001 -1.0004967451E-002 
11397211.514 +9.8347717524E-001 +2.8666675091E-002  -1.7232085156E-005 +5.6892764405E-005  -3.5236389522E-005 +5.3204723372E-005  +7.2775238752E-001 +3.3068358898E-003 
11522356.696 +9.8278534412E-001 +2.6234567165E-002  +8.4241255536E-005 +2.4859065888E-005  -2.1582562113E-005 +7.5598320109E-005  +7.3211002350E-001 +1.7610490322E-002 
11647501.877 +9.8179990053E-001 +2.5828868151E-002  +1.2413413060E-005 +6.9383735536E-005  +2.9928654840E-005 +8.1616875832E-005  +7.3452961445E-001 +3.0907452106E-002 
11772647.059 +9.8250401020E-001 +2.5122016668E-002  +3.2731997635E-005 +3.1544666854E-005  -1.0571495295E-005 -2.0071163817E-005  +7.4032413960E-001 +4.3005645275E-002 
11897792.240 +9.8235303164E-001 +2.2537916899E-002  +6.3596044129E-006 +2.1672782168E-005  +3.1150771974E-005 -1.3915445379E-005  +7.4516665936E-001 +5.6092828512E-002 
12022937.422 +9.8296624422E-001 +2.3350864649E-002  +3.5568456951E-005 +2.3413269446E-005  -4.0114497097E-005 +3.4991608118E-006  +7.5053757429E-001 +6.8511933088E-002 
12148082.603 +9.8325908184E-001 +2.2681981325E-002  +2.9517379517E-005 +6.6007894929E-005  +1.7217886125E-005 +8.5290805146E-005  +7.5781309605E-001 +8.1753164530E-002 
12273227.785 +9.8339265585E-001 +2.3602455854E-002  +6.5930740675E-005 +3.1068935641E-005  -5.3537951317E-007 +2.5083489163E-005  +7.6410222054E-001 +9.2578232288E-002 
12398372.966 +9.8319667578E-001 +2.2035241127E-002  +2.5696588636E-005 +1.5312969481E-005  -2.3815538952E-005 +8.3086168161E-005  +7.7240365744E-001 +1.0347424448E-001 
12523518.148 +9.8233366013E-001 +2.0840644836E-002  +6.6419888753E-005 -1.0394612218E-005  +3.3407315641E-005 +9.5134964795E-008  +7.7865964174E-001 +1.1393146217E-001 
12648663.329 +9.8341727257E-001 +2.1969094872E-002  +2.3146456442E-005 +5.5712858739E-005  -1.0686124369E-005 +1.1257752703E-005  +7.8766858578E-001 +1.2471260130E-001 
12773808.511 +9.8320871592E-001 +1.9846484065E-002  +2.8402246244E-005 +2.8882337574E-005  +4.1998824599E-005 +1.0834631212E-005  +7.9633879662E-001 +1.3485261798E-001 
12898953.692 +9.8347431421E-001 +1.8590182066E-002  -6.7508972279E-006 +6.4411891799E-005  +2.1211522835E-005 +3.0822684494E-005  +8.0574661493E-001 +1.4280493557E-001 
13024098.874 +9.8264336586E-001 +1.9118092954E-002  +5.4551433095E-006 -1.9569268261E-005  +2.6206544135E-005 +1.5758934751E-005  +8.1509774923E-001 +1.5250487626E-001 
13149244.055 +9.8277020454E-001 +1.8540900201E-002  +2.4733478767E-006 +3.7870163396E-006  +2.8563492378E-005 +3.6609442759E-005  +8.2587337494E-001 +1.6043040156E-001 
13274389.237 +9.8306047916E-001 +1.8515374511E-002  -2.8002037652E-005 -2.2581484700E-006  +1.9227361918E-005 +1.0883940377E-005  +8.3732002974E-001 +1.6969513893E-001 
13399534.418 +9.8133003712E-001 +1.8002349883E-002  -4.1398354369E-005 -9.8852688097E-006  +2.7668791517E-005 +9.5409441201E-006  +8.4761512280E-001 +1.7644971609E-001 
13524679.599 +9.8133194447E-001 +1.8012553453E-002  -5.8290306697E-006 +5.4728177929E-005  -5.0762155297E-006 -5.1697033996E-006  +8.5921025276E-001 +1.8369293213E-001 
13649824.781 +9.8323345184E-001 +1.5191853046E-002  -5.1983238336E-007 +2.3813230655E-005  -2.1703366656E-005 +4.3534801080E-005  +8.7115371227E-001 +1.8790253997E-001 
13774969.962 +9.8228275776E-001 +1.5882208943E-002  +3.4569429772E-006 +2.7410625989E-005  +5.4842053942E-005 +8.9125078375E-006  +8.8268667459E-001 +1.9335965812E-001 
13900115.144 +9.8168921471E-001 +1.6552194953E-002  +3.0630999390E-005 +3.6502933654E-005  +4.7184985306E-005 +1.8980304958E-005  +8.9392304420E-001 +1.9790822268E-001 
14025260.325 +9.8041403294E-001 +1.6385734081E-002  -6.1086730057E-006 +1.5106274986E-005  +1.5245749637E-005 +2.3243030228E-005  +9.0590792894E-001 +2.0151954889E-001 
14150405.507 +9.8147356510E-001 +1.5967577696E-002  +3.3346223063E-005 +4.3668245780E-005  -2.7365376809E-006 +4.6828004997E-005  +9.1890782118E-001 +2.0444963872E-001 
14275550.688 +9.8048567772E-001 +1.3882428408E-002  +1.3569444491E-005 +4.9864371249E-005  +3.0006089219E-005 -7.2432731031E-006  +9.3109995127E-001 +2.0553499460E-001 
14400695.870 +9.8009103537E-001 +1.3769894838E-002  +4.0500046453E-005 +3.2292380638E-005  +3.5651879443E-005 +4.0550457925E-006  +9.4400179386E-001 +2.0751921833E-001 
