!  2-Port S-parameters saved by WinCal
! VAR MeasName=S-Parameters (CALIBRATED_DATA) read from VNA (P5004A)
! VAR MeasDate=22/05/2024 21:22:28
! VAR NAME=Wafer3_r3_c6_pristine 3
! VAR FILENAME=Wafer3_r3_c6_pristine 3.S2P
! VAR DATE=22/05/2024 21:22:28
! VAR PHYS_PORTS=1,2
! VAR ObjTypeName=DATASET
! VAR IndexType=Frequency
!
# Hz S RI R 50
9000.000 +2.0769551396E-001 -5.9653472900E-001  -1.3515303144E-003 +3.3029476181E-003  -3.1739447149E-004 +1.9973597955E-004  +4.2894333601E-002 +1.0860734433E-001 
134145.181 +6.3308805227E-001 -3.3779367805E-003  +8.3014145494E-003 -2.0040364470E-003  +2.6384616271E-002 +9.9158715457E-003  +5.6186634302E-001 -9.3612886965E-002 
259290.363 +8.5290181637E-001 -1.2336236238E-001  -2.9616442043E-004 +2.6197135448E-003  +2.1200941410E-003 +6.6460011294E-004  +9.8239856958E-001 -1.3753065467E-001 
384435.544 +9.1601580381E-001 -2.9397010803E-001  +1.1469693854E-003 -2.9250590596E-003  -1.8950933591E-003 +2.6708249934E-003  +1.0828260183E+000 -2.3422226310E-001 
509580.726 +9.5781910419E-001 -1.6190516949E-001  +2.5640439708E-004 -5.7961134007E-004  +8.8960875291E-004 -5.7401577942E-004  +1.0457096100E+000 -1.0306403041E-001 
634725.907 +1.1071203947E+000 -2.0591738820E-001  -1.3442817726E-004 +2.9448585701E-004  -2.6373442961E-004 +1.5888825874E-004  +1.1302729845E+000 -8.0136418343E-002 
759871.089 +1.3035192490E+000 -5.1496058702E-002  +5.5430247448E-004 -4.4639338739E-004  +1.9675993826E-004 -4.3186682160E-004  +1.1935589314E+000 +2.7749031782E-002 
885016.270 +1.4893170595E+000 -1.1674414873E+000  -2.3452881724E-003 -4.7777983127E-004  +1.8777399964E-004 -8.7386532687E-004  +1.3242322206E+000 +8.7541699409E-002 
1010161.452 +1.1006340981E+000 -8.4156095982E-002  -7.9334550537E-004 -5.2546299994E-003  -5.2093155682E-003 -3.6580930464E-004  +6.5665334463E-001 -2.6870626211E-001 
1135306.633 +1.0834431648E+000 -5.5178940296E-002  -4.9579201732E-004 -1.4696207363E-003  +2.9205158353E-003 +2.2848637309E-003  +9.8247277737E-001 +6.2984824181E-003 
1260451.815 +1.4160764217E+000 -4.9836277962E-002  -1.8633626169E-003 +1.9834056729E-004  -1.3529063435E-003 -1.8480952131E-003  +1.1108396053E+000 +1.0831165314E-001 
1385596.996 +1.3289300203E+000 -1.4908878505E-001  -5.7400093647E-004 -4.0661302046E-004  +9.8507164512E-004 -1.4083154383E-004  +1.1914142370E+000 +1.2009267509E-001 
1510742.178 +1.5150165558E+000 -2.7420583367E-001  -5.8367842576E-004 -1.1749363039E-003  +2.5695102522E-004 -2.1858434193E-003  +1.4787313938E+000 +3.6729374528E-001 
1635887.359 +9.9972921610E-001 -4.0655258298E-001  +3.3021101262E-004 -1.1505146977E-003  -2.1006676834E-003 -2.6232312666E-004  +1.1428960562E+000 -3.5498893261E-001 
1761032.541 +1.0642050505E+000 -4.6625912189E-001  -2.1035005338E-003 -2.2992894519E-003  +1.0369708762E-003 +1.9074698212E-003  +1.0540112257E+000 -4.4512689114E-001 
1886177.722 +9.6451658010E-001 -2.7247223258E-001  +3.7509476533E-004 -7.2743400233E-004  +4.6715163626E-004 -7.1618036600E-004  +1.0241158009E+000 -2.4538499117E-001 
2011322.904 +9.4010370970E-001 -2.1100011468E-001  +1.2061652960E-003 +4.3724392890E-004  -4.1419974877E-004 +2.8912778362E-005  +9.9301981926E-001 -1.4071244001E-001 
2136468.085 +9.6485733986E-001 -1.9153642654E-001  +1.9585178234E-004 -1.9175455964E-004  -4.2480352568E-004 +1.2158280879E-004  +1.0122617483E+000 -1.0668441653E-001 
2261613.267 +9.6753305197E-001 -1.7715057731E-001  -6.8359740544E-004 -8.6123752408E-004  -5.4562371224E-004 -3.3063697629E-004  +9.9023205042E-001 -9.6503376961E-002 
2386758.448 +9.4868677855E-001 -1.2960296869E-001  -4.4173767674E-004 -3.3884777804E-004  -2.3330842669E-004 -5.9352570679E-004  +9.8833423853E-001 -6.9125652313E-002 
2511903.630 +9.4725942612E-001 -9.9870622158E-002  +3.9384161937E-004 +2.0675879205E-004  +4.1825405788E-004 +3.6816491047E-005  +9.8745954037E-001 -3.9279401302E-002 
2637048.811 +9.5913147926E-001 -8.6161822081E-002  -1.0496460600E-003 -2.5083369110E-005  -3.8445170503E-005 -1.0725585744E-003  +9.7576856613E-001 -2.4513691664E-002 
2762193.992 +9.6416431665E-001 -8.1677727401E-002  +6.2832835829E-004 +5.1708647516E-004  +9.0510206064E-005 +6.2910356792E-004  +9.9248564243E-001 -6.6806524992E-003 
2887339.174 +9.3304598331E-001 -8.2682266831E-002  -2.8622086393E-004 +1.6430551477E-004  -2.0319086616E-004 +4.9745099386E-004  +9.8565566540E-001 -4.4610239565E-003 
3012484.355 +9.1312026978E-001 -5.1621485502E-002  +2.4835277145E-005 -2.0483235130E-004  +7.8321836190E-004 +5.6342076277E-004  +9.7754973173E-001 +6.2052626163E-003 
3137629.537 +9.1446745396E-001 -2.5773040950E-002  +4.0575567982E-004 -7.8876415500E-004  -1.0163059924E-003 -2.6462806272E-004  +9.8085832596E-001 +3.0171900988E-002 
3262774.718 +9.0955275297E-001 +3.1933151186E-003  -6.5346952761E-004 +1.2219061318E-004  +1.4172340161E-004 -1.0610032041E-004  +9.6951621771E-001 +5.9182018042E-002 
3387919.900 +9.0950661898E-001 +3.1501278281E-002  +8.5556443082E-005 +1.0959443898E-004  +2.8485149960E-004 -2.6262868778E-004  +9.6278017759E-001 +8.0438815057E-002 
3513065.081 +9.2214441299E-001 +5.2902650088E-002  -6.5129526774E-005 -3.5516481148E-004  +1.4005662524E-004 +1.0168658628E-004  +9.8267209530E-001 +1.2157489359E-001 
3638210.263 +9.3949395418E-001 +8.2060441375E-002  +1.8086626369E-004 -3.5427678085E-005  -3.6000401451E-005 -2.8525412199E-004  +9.9571508169E-001 +1.4150151610E-001 
3763355.444 +9.5013201237E-001 +1.0489136726E-001  -1.7061061226E-004 -8.2374048361E-005  -6.3899773522E-005 +8.9553825092E-005  +1.0190252066E+000 +1.3895641267E-001 
3888500.626 +9.7314912081E-001 +1.2085253745E-001  +2.9626803007E-004 -3.1111569842E-004  -1.3964346726E-004 +3.4831312951E-004  +1.0415112972E+000 +1.5500368178E-001 
4013645.807 +9.3299937248E-001 +4.4832415879E-002  -1.4316286752E-006 +6.7874891101E-005  +1.4512843336E-004 -2.2017762240E-004  +9.9750012159E-001 +8.1954665482E-002 
4138790.989 +8.7644588947E-001 -2.6766806841E-003  -1.7728023522E-004 +2.1808448946E-004  +1.3477962057E-004 -1.3753137864E-005  +9.2699694633E-001 +1.4984197915E-002 
4263936.170 +8.7403482199E-001 +7.1138292551E-003  +4.8175238771E-004 -2.6715692366E-004  -2.9082255787E-004 -2.5783767342E-004  +9.3356096745E-001 +1.2649420649E-002 
4389081.352 +8.8194221258E-001 +1.4014363289E-002  +2.2114759486E-004 +2.5318558983E-005  -2.3178926494E-004 -1.0747399210E-004  +9.3105959892E-001 +1.1239998043E-002 
4514226.533 +8.9407348633E-001 +2.2633586079E-002  +1.2102286564E-004 +3.8024137029E-004  -7.8491010936E-004 -9.1599242296E-005  +9.4109898806E-001 -7.3586404324E-004 
4639371.715 +9.0672165155E-001 +2.4061914533E-002  +2.0171089272E-004 +1.8777845980E-005  -3.7633424654E-005 +2.5146944608E-005  +9.5106232166E-001 +1.1153999716E-002 
4764516.896 +9.1501587629E-001 +2.5592401624E-002  -2.6468100259E-004 -2.4815625511E-004  -2.2195023121E-005 +8.5708161350E-005  +9.5149838924E-001 +1.6013924032E-003 
4889662.078 +9.2497026920E-001 +3.8373690099E-002  +1.6268738545E-004 -4.7294227988E-004  -1.9984807295E-004 -5.2404566668E-004  +9.5741689205E-001 +9.9303945899E-003 
5014807.259 +9.2246079445E-001 +2.2423408926E-002  +3.3049940248E-004 -8.8683817012E-005  -1.3177827350E-004 +6.0814974859E-005  +9.5143711567E-001 +1.9409060478E-002 
5139952.441 +9.2976522446E-001 +2.5851119310E-002  -1.0482073412E-004 +4.5127343037E-004  +1.1246355280E-004 -3.9162707981E-004  +9.6563827991E-001 +5.0151180476E-003 
5265097.622 +9.4053244591E-001 +3.2963119447E-002  -8.0961632193E-005 -1.0352118261E-004  +9.4863185950E-005 +4.9692409812E-004  +9.6241819859E-001 +1.1735409498E-003 
5390242.804 +9.4426703453E-001 +3.6346130073E-002  +4.0626229747E-005 -4.1958039219E-005  +1.2772061746E-004 +2.3909506854E-004  +9.6634745598E-001 +7.4409246445E-003 
5515387.985 +9.5603066683E-001 +3.7986092269E-002  -9.9188335298E-005 +6.8267696770E-004  -2.1022521832E-004 -1.1502423877E-004  +9.6826028824E-001 +4.6794638038E-003 
5640533.166 +9.5866876841E-001 +3.4880124032E-002  -1.9804436306E-005 -4.9971131375E-005  +7.7570162830E-005 -1.1974624795E-004  +9.6988058090E-001 -2.0310133696E-003 
5765678.348 +9.5601421595E-001 +3.5111177713E-002  -3.6145921331E-004 -1.2627358956E-004  -5.9720779973E-005 -1.7431432207E-004  +9.7601610422E-001 -5.6035742164E-003 
5890823.529 +9.6149826050E-001 +2.7631156147E-002  -3.1938575557E-004 +1.9177891954E-004  +1.0022053903E-004 +6.5672749770E-005  +9.6968209743E-001 -9.0338289738E-003 
6015968.711 +9.6594017744E-001 +2.3041725159E-002  +4.7764362535E-005 -4.2655519792E-005  +6.5260610427E-006 -2.6879154029E-004  +9.7181254625E-001 +6.8546086550E-004 
6141113.892 +9.6974998713E-001 +2.7707986534E-002  +2.9747077406E-006 -5.6601224969E-006  +2.9705860652E-004 -1.1378039198E-004  +9.7486764193E-001 +2.2759735584E-003 
6266259.074 +9.6801930666E-001 +2.8939455748E-002  -8.3368708147E-005 +2.4210308766E-005  -1.7968605971E-004 +9.9204073194E-005  +9.7236758471E-001 +3.6175772548E-003 
6391404.255 +9.7078019381E-001 +1.8374904990E-002  -1.9885442453E-004 -3.7790497299E-004  -7.6057462138E-005 +1.0676604870E-004  +9.7357320786E-001 -8.1857517362E-003 
6516549.437 +9.6706247330E-001 +2.1628633142E-002  +1.5584214998E-004 +3.2199200359E-004  -5.7508725149E-005 -2.7168847737E-004  +9.7526705265E-001 -4.1320398450E-003 
6641694.618 +9.7711789608E-001 +2.4631015956E-002  +1.2565564248E-004 +1.1768822878E-004  -2.6980219991E-004 -3.3499080018E-005  +9.7812998295E-001 +1.4925748110E-003 
6766839.800 +9.8258501291E-001 +2.3896351457E-002  -3.0913512455E-004 -1.0898371693E-004  -1.5107411309E-004 -2.0497289370E-004  +9.8247522116E-001 -1.4597922564E-003 
6891984.981 +9.7940927744E-001 +1.9689530134E-002  -2.3369591509E-004 +1.4076838852E-005  -1.6744619643E-004 +1.0599142843E-004  +9.7125709057E-001 -5.0345212221E-003 
7017130.163 +9.8021495342E-001 +2.1913424134E-002  -1.9139824144E-004 -2.8542694054E-005  +1.3843982015E-004 -5.3856078011E-005  +9.8001062870E-001 -1.8341839314E-004 
7142275.344 +9.8730111122E-001 +2.5487735868E-002  +1.1287487723E-004 -1.4879078662E-004  -2.6829625131E-004 +3.5607135942E-005  +9.7440129519E-001 +5.0930827856E-003 
7267420.526 +9.8135441542E-001 +2.7295395732E-002  -9.4963303127E-005 -7.1529146226E-005  -5.0479349738E-005 +5.1472034102E-005  +9.7804224491E-001 +5.2207708359E-003 
7392565.707 +9.8741722107E-001 +2.4452731013E-002  -1.7673440743E-004 -2.5659793755E-004  -1.6589160077E-004 +2.8170400765E-004  +9.7794574499E-001 +1.0159462690E-003 
7517710.889 +9.8894649744E-001 +2.4887889624E-002  +1.9776538829E-004 -9.6937183116E-005  +1.2381910346E-004 -1.8942481256E-004  +9.7490429878E-001 -1.6253292561E-003 
7642856.070 +9.7989439964E-001 +1.9198939204E-002  -1.8478558923E-004 -6.8659821409E-005  +1.6949583369E-004 -4.4389187678E-005  +9.7611373663E-001 -3.5222768784E-003 
7768001.252 +9.8622989655E-001 +1.8675953150E-002  -3.9581434976E-005 -1.3724638848E-004  +8.9237611974E-005 +4.0938903112E-007  +9.7401481867E-001 -1.3080984354E-003 
7893146.433 +9.8834162951E-001 +1.5559196472E-002  +7.2892296885E-005 -1.9674755458E-004  -4.7908077249E-005 -2.1555747662E-004  +9.7457075119E-001 +3.4404098988E-003 
8018291.615 +9.8330706358E-001 +1.7221853137E-002  -1.8874547095E-004 +1.4125643065E-004  +1.1307311797E-004 -4.2739076889E-005  +9.7410696745E-001 +5.0604343414E-005 
8143436.796 +9.8324626684E-001 +1.4313653111E-002  +1.2828981562E-004 -3.0980672454E-004  -7.1105881943E-005 -9.8395961686E-005  +9.7591882944E-001 +4.5889467001E-003 
8268581.977 +9.8231542110E-001 +1.0834425688E-002  +4.5711025450E-005 -7.3683195296E-006  +2.7765045525E-004 +1.0026778909E-004  +9.7375786304E-001 +8.8496804237E-003 
8393727.159 +9.8607540131E-001 +7.9533755779E-003  -6.5289757913E-005 -1.6359420260E-004  -4.4172302296E-006 -3.3641424579E-006  +9.7737699747E-001 +6.0787200928E-003 
8518872.340 +9.8603004217E-001 +9.7001194954E-003  -6.1756232753E-005 -1.4029387967E-004  +1.7495396605E-004 -4.0364026063E-005  +9.7696495056E-001 +9.4564259052E-003 
8644017.522 +9.8362541199E-001 +1.3369500637E-002  +1.3747652702E-005 -2.0664893964E-004  -1.2082884496E-005 -1.4634571016E-005  +9.7748792171E-001 +8.0457925797E-003 
8769162.703 +9.8843973875E-001 +8.1000924110E-003  +2.4370705432E-005 -1.6035784211E-004  +6.4598534664E-005 -2.2694417567E-005  +9.7965866327E-001 +5.3450763226E-003 
8894307.885 +9.8608380556E-001 +7.0879161358E-003  -4.6515629947E-005 +2.8047097658E-006  -1.1021507817E-004 -2.6269230875E-004  +9.7778975964E-001 +2.8070211411E-003 
9019453.066 +9.8515737057E-001 +6.9422423840E-003  -7.0503869210E-005 -1.2137994054E-004  -9.3926617410E-005 -1.7600541469E-008  +9.7973680496E-001 +6.3127577305E-003 
9144598.248 +9.8822689056E-001 +7.9781115055E-003  -1.2813250942E-004 -7.7301810961E-005  +1.3895260054E-008 +5.0832128181E-005  +9.7900056839E-001 +5.3196847439E-003 
9269743.429 +9.8585230112E-001 +7.5022876263E-003  -6.8167515565E-005 +5.5350086768E-005  -1.2924331531E-004 -1.9478713511E-004  +9.7906386852E-001 +8.8123977184E-003 
9394888.611 +9.8705828190E-001 +1.1387169361E-002  +4.3580155761E-005 -6.1480081058E-005  +2.1866759198E-005 +3.9254300646E-005  +9.7968941927E-001 +2.3310482502E-003 
9520033.792 +9.8739588261E-001 +5.6945979595E-003  -7.6211632404E-005 -1.6008236344E-005  -1.1066810839E-004 -6.3558058173E-005  +9.7916448116E-001 +5.6823790073E-003 
9645178.974 +9.9022328854E-001 +1.0096997023E-002  -2.9524571801E-005 +2.5886556614E-006  -1.1673321569E-004 -2.1678621124E-005  +9.8002022505E-001 +6.8425834179E-003 
9770324.155 +9.8894095421E-001 +1.2639939785E-002  -4.4444964260E-006 +1.7632675736E-005  -1.0263922741E-004 +1.2583132047E-005  +9.7780436277E-001 +8.5590779781E-003 
9895469.337 +9.8924648762E-001 +1.3061076403E-002  -6.6314867581E-005 +1.2834533118E-004  -7.4604417023E-005 +2.7624191716E-006  +9.7815203667E-001 +8.2243680954E-003 
10020614.518 +9.8905873299E-001 +1.0384291410E-002  -2.4418754037E-005 -3.4686523577E-005  -1.2201868958E-004 -1.2121337932E-004  +9.8006951809E-001 +9.7734332085E-003 
10145759.700 +9.8756515980E-001 +7.9387128353E-003  +3.0763294490E-006 -4.5088032493E-005  -1.1075945804E-004 +9.8226119007E-006  +9.7990274429E-001 +7.9881250858E-003 
10270904.881 +9.9133896828E-001 +6.9321691990E-003  -5.7299948821E-006 -4.1684499593E-005  -1.8870963686E-005 -1.9538960260E-005  +9.8293101788E-001 +6.5811574459E-003 
10396050.063 +9.8988276720E-001 +7.7914893627E-003  +5.3313015087E-006 +7.1554277383E-005  +7.4834177212E-005 +7.2034104960E-005  +9.8056244850E-001 +1.0294556618E-002 
10521195.244 +9.9002325535E-001 +9.7476243973E-003  -8.0054647697E-005 +1.6345209588E-005  +3.8090860471E-005 -1.9428740416E-005  +9.8178195953E-001 +9.3635022640E-003 
10646340.426 +9.8965728283E-001 +8.0029368401E-003  -1.0899263725E-004 -1.9920640625E-005  -4.0541133785E-005 +4.1616058297E-006  +9.8015737534E-001 +1.1620253325E-002 
10771485.607 +9.9130654335E-001 +9.4289481640E-003  -9.6695957836E-006 -3.4652217437E-005  -1.6473690266E-005 -8.1482894529E-006  +9.8210144043E-001 +1.0454833508E-002 
10896630.788 +9.9129056931E-001 +1.1746972799E-002  +1.9119877834E-005 +6.8903435022E-005  +4.4047650590E-005 +7.3695133324E-005  +9.8076391220E-001 +1.0715842247E-002 
11021775.970 +9.9024534225E-001 +1.0878860950E-002  -4.7510591685E-005 -2.4775643396E-005  -1.6330486687E-006 +5.5556040024E-005  +9.8206257820E-001 +1.1532694101E-002 
11146921.151 +9.9158835411E-001 +7.1703493595E-003  -6.5201660618E-005 +2.9749622627E-005  +6.0088161263E-005 -1.7409500288E-005  +9.8253190517E-001 +1.1533856392E-002 
11272066.333 +9.8843979836E-001 +9.2102289200E-003  +6.8660956458E-005 +1.0058737826E-004  -3.6001649278E-005 -4.3945055950E-006  +9.8126327991E-001 +9.3114376068E-003 
11397211.514 +9.9086308479E-001 +7.8313052654E-003  -3.8307152863E-005 +7.5797936006E-005  -3.0071081710E-005 -1.0016726264E-005  +9.8262327909E-001 +1.1238634586E-002 
11522356.696 +9.9118602276E-001 +6.9325864315E-003  +5.9729602071E-005 +9.4128285127E-005  +3.1681702239E-005 -6.6398924901E-006  +9.8308098316E-001 +9.4115734100E-003 
11647501.877 +9.9056339264E-001 +8.9764893055E-003  +1.8638220354E-005 +5.2255247283E-005  -5.6203727581E-005 +1.8282840756E-005  +9.8329818249E-001 +1.0455012321E-002 
11772647.059 +9.9173247814E-001 +9.3850791454E-003  -5.2211842558E-005 -4.7893856390E-005  -5.2507577493E-005 +2.1177653252E-005  +9.8290991783E-001 +9.1005265713E-003 
11897792.240 +9.9014943838E-001 +8.8253617287E-003  -2.3013581085E-005 +1.6305219106E-005  -1.2658332707E-005 +1.0147834837E-004  +9.8344808817E-001 +9.9559426308E-003 
12022937.422 +9.9261939526E-001 +9.0806484222E-003  +1.8886737962E-005 -2.8554552046E-005  +2.4998184017E-005 +2.7067137125E-005  +9.8410964012E-001 +1.0514497757E-002 
12148082.603 +9.9238336086E-001 +8.9348852634E-003  +1.4377597836E-005 -1.7040794773E-005  +6.6614175012E-006 -3.0659179174E-005  +9.8537576199E-001 +1.2075215578E-002 
12273227.785 +9.9208849669E-001 +8.5894465446E-003  -1.2349059034E-005 -2.6030622394E-005  -6.6012420575E-005 +2.2960331989E-005  +9.8565316200E-001 +1.1107325554E-002 
12398372.966 +9.9253815413E-001 +8.2408785820E-003  -3.8418758777E-005 -4.0222679672E-005  -5.8344980062E-005 +1.1192041711E-005  +9.8597306013E-001 +1.1910229921E-002 
12523518.148 +9.9098622799E-001 +9.0033710003E-003  -3.7746503949E-005 -4.4289945436E-006  +1.5750983948E-005 +1.6935438907E-005  +9.8393058777E-001 +1.0273754597E-002 
12648663.329 +9.9183464050E-001 +8.9988857508E-003  -2.5645749702E-005 -7.8593566286E-006  -5.6993314502E-005 -1.1727900528E-005  +9.8599064350E-001 +1.1376887560E-002 
12773808.511 +9.9345356226E-001 +7.4043422937E-003  -2.5450983230E-005 +2.6931362299E-005  -4.5283210056E-005 -1.1334523151E-006  +9.8641794920E-001 +1.1380076408E-002 
12898953.692 +9.9316948652E-001 +7.7775120735E-003  -5.4246847867E-006 -2.4308212232E-005  -4.7624511353E-005 -1.9576445993E-006  +9.8606657982E-001 +1.0429427028E-002 
13024098.874 +9.9268823862E-001 +9.5907449722E-003  +3.2600870327E-005 +5.4904026911E-005  +1.1686959624E-005 +5.6352387219E-006  +9.8662686348E-001 +1.1386260390E-002 
13149244.055 +9.9287027121E-001 +8.9424066246E-003  +2.8420195122E-006 +1.6348782083E-005  -1.9904029614E-005 +2.6540486942E-005  +9.8653161526E-001 +1.1335216463E-002 
13274389.237 +9.9240314960E-001 +7.6007712632E-003  -2.6294255804E-005 -1.7758706235E-005  +3.0034630981E-005 -1.4382029804E-005  +9.8733329773E-001 +1.0170258582E-002 
13399534.418 +9.9311798811E-001 +8.3926469088E-003  +2.1917239792E-006 -2.4230681447E-005  -2.1865043891E-005 +1.4926239601E-005  +9.8653137684E-001 +1.1132441461E-002 
13524679.599 +9.9220335484E-001 +8.6640417576E-003  +2.3239776056E-005 +4.9726411817E-005  +3.9696107706E-005 -9.1867195806E-007  +9.8746585846E-001 +1.1856459081E-002 
13649824.781 +9.9387240410E-001 +7.4462741613E-003  +2.1615860533E-005 +5.6524961110E-005  +2.7682863220E-005 +4.6639997890E-006  +9.8865407705E-001 +1.0773450136E-002 
13774969.962 +9.9267458916E-001 +8.4833651781E-003  -1.3300719729E-005 +7.2182185249E-005  -1.1497752894E-005 -1.9774472548E-006  +9.8753410578E-001 +1.0537460446E-002 
13900115.144 +9.9262237549E-001 +7.8271329403E-003  -4.7360008466E-006 +2.9246988561E-005  -3.6762499803E-005 +3.8486719859E-005  +9.8730725050E-001 +1.0488748550E-002 
14025260.325 +9.9258500338E-001 +7.7661275864E-003  -1.9259139663E-005 +2.6965566576E-005  -2.6019843062E-005 +4.6037785069E-005  +9.8822319508E-001 +1.0651141405E-002 
14150405.507 +9.9307096004E-001 +8.1174075603E-003  +3.9184917114E-005 +6.4514542828E-006  +2.1074523829E-005 +6.0060283431E-006  +9.8830854893E-001 +1.0982960463E-002 
14275550.688 +9.9249184132E-001 +7.2771906853E-003  -2.7409969334E-006 +2.4189266696E-005  -4.3984720833E-005 +3.1124240195E-005  +9.8840558529E-001 +9.9824368954E-003 
14400695.870 +9.9177289009E-001 +6.4210593700E-003  -4.1608864194E-006 +3.4796015825E-005  +3.1410527299E-005 +6.1905368057E-005  +9.8839199543E-001 +1.1282384396E-002 
