!  2-Port S-parameters saved by WinCal
! VAR MeasName=S-Parameters (CALIBRATED_DATA) read from VNA (P5004A)
! VAR MeasDate=22/05/2024 21:46:13
! VAR NAME=Wafer3_r3_c6_pristine_pos31dc
! VAR FILENAME=Wafer3_r3_c6_pristine_pos31dc.S2P
! VAR DATE=22/05/2024 21:46:13
! VAR PHYS_PORTS=1,2
! VAR ObjTypeName=DATASET
! VAR IndexType=Frequency
!
# Hz S RI R 50
9000.000 +2.0993345976E-001 -5.9929847717E-001  +1.9689782057E-003 +2.2184487898E-003  +1.4181036386E-004 +4.4088059803E-004  +4.2400076985E-002 +1.0495543480E-001 
134145.181 +6.3657486439E-001 -1.7161190510E-002  -1.7717028037E-002 -9.2657804489E-003  -7.4747619219E-003 +2.2411838174E-002  +3.0556097627E-001 -2.5819659233E-002 
259290.363 +8.4423804283E-001 -1.2219643593E-001  +5.8757113293E-003 -6.9147562608E-003  +1.0292580351E-002 +9.4398520887E-003  +1.8569816649E-001 -1.3806705177E-001 
384435.544 +8.9305806160E-001 -2.8393018246E-001  +6.3552628271E-003 -1.3492367230E-002  +6.6066841828E-004 -1.4342973009E-003  +4.1159361601E-001 +6.4342021942E-003 
509580.726 +9.5010030270E-001 -1.5361098945E-001  -1.6289729392E-003 -3.4942182247E-003  -1.1273354292E-002 +6.5155024640E-004  +1.9707834721E-001 -1.6198162735E-001 
634725.907 +1.0954353809E+000 -2.1336719394E-001  -8.7015423924E-004 -2.3715972202E-004  +4.1030792636E-004 -8.9673348702E-004  +8.6515074968E-001 -1.4988952875E-001 
759871.089 +1.3295682669E+000 -6.2325656414E-002  -1.7757259775E-004 -7.5066834688E-004  -2.8940060292E-004 -2.6630170760E-004  +1.4929155111E+000 +1.1800557375E-001 
885016.270 +1.9320377111E+000 -1.3217105865E+000  -2.3975048680E-003 +6.9723313209E-004  -1.0981491068E-003 +1.8007736653E-003  +1.3120394945E+000 +4.4627246261E-001 
1010161.452 +9.6108967066E-001 -1.1107826233E-001  -1.0064790258E-003 -2.8691769694E-004  +2.8170004953E-004 -3.5702105379E-004  +1.2123903036E+000 +5.1203578711E-001 
1135306.633 +8.7429749966E-001 -5.4702572525E-002  -1.5147152590E-003 +9.8805793095E-004  -4.4761743629E-004 -1.3556816848E-003  +1.3130916357E+000 +6.4797675610E-001 
1260451.815 +1.3013470173E+000 -6.7216217518E-002  +7.8700337326E-004 -1.6074854648E-003  -9.3332736287E-004 +3.9037430543E-004  +1.0753525496E+000 +7.3823714256E-001 
1385596.996 +1.2783256769E+000 -1.8642908335E-001  -8.9070970716E-005 +2.3206358310E-004  -2.1096115233E-005 -2.6048292057E-004  +9.6467697620E-001 +5.0070804358E-001 
1510742.178 +1.4501832724E+000 -3.7449347973E-001  +3.1655552448E-004 -3.5117694642E-004  +5.9438880999E-004 +9.1095833341E-005  +6.5858054161E-001 +5.7187676430E-001 
1635887.359 +9.0170776844E-001 -4.7787132859E-001  -7.1857648436E-005 -2.3527594749E-004  +6.1747974542E-005 +2.6205740869E-004  +1.5005542040E+000 +6.5546625853E-001 
1761032.541 +8.1410276890E-001 -5.8541131020E-001  -6.7576882429E-004 -5.6921271607E-004  -1.3091514120E-004 +4.6591292630E-005  +1.0810652971E+000 +8.1724959612E-001 
1886177.722 +7.3609071970E-001 -3.0029046535E-001  -5.4274994181E-004 -2.0177238912E-004  +1.2243216042E-004 -3.8913494791E-005  +1.1305184364E+000 +5.4941391945E-001 
2011322.904 +7.8971159458E-001 -1.7823290825E-001  -1.8472682859E-004 +3.2257451676E-004  +4.0226813871E-004 +5.4231793911E-005  +1.1459984779E+000 +5.1358771324E-001 
2136468.085 +8.3862149715E-001 -1.7125201225E-001  +2.9121848638E-004 +1.6890303232E-004  -9.6064220998E-005 +2.9326791991E-004  +1.0904250145E+000 +4.6182519197E-001 
2261613.267 +8.3459883928E-001 -1.3229912519E-001  -1.8942230963E-004 -1.4714525605E-004  -1.4402237139E-004 +1.1777178588E-004  +1.0533275604E+000 +4.9590182304E-001 
2386758.448 +8.3792120218E-001 -1.2038382888E-001  +2.5125412503E-004 -7.9028657638E-004  -6.5719716076E-005 +7.3434370279E-005  +1.0773742199E+000 +5.1944339275E-001 
2511903.630 +8.3512890339E-001 -8.1973806024E-002  -1.7924467102E-006 +1.7999357078E-004  +1.0157986253E-004 +4.0103672654E-004  +1.1289823055E+000 +5.4904472828E-001 
2637048.811 +8.5590142012E-001 -7.3873780668E-002  -8.6476087745E-005 -3.4489174141E-005  -3.0601077015E-004 +3.0714401510E-004  +1.1536329985E+000 +5.7150745392E-001 
2762193.992 +8.5393220186E-001 -8.5299566388E-002  -2.3759408214E-004 +1.9909726689E-004  +9.0154004283E-005 +2.4592340924E-004  +1.1934255362E+000 +4.4751968980E-001 
2887339.174 +8.0950832367E-001 -9.2185661197E-002  -3.1680567190E-004 -1.1246633949E-004  +3.4802785376E-004 -8.3114537119E-005  +1.0280801058E+000 +3.9597240090E-001 
3012484.355 +8.0928045511E-001 -4.8556212336E-002  +1.3635720825E-004 -5.2818871336E-004  +1.6835551651E-004 -2.6589070330E-004  +9.4694197178E-001 +5.0907862186E-001 
3137629.537 +7.9836076498E-001 -1.5012726188E-002  -4.1906787374E-008 -8.9568020485E-005  +3.2139499672E-004 +6.3006649725E-005  +9.6741932631E-001 +6.1590152979E-001 
3262774.718 +7.9459673166E-001 +2.5869376957E-002  -1.1485626601E-005 -1.8416310922E-005  +1.8289548461E-004 -1.8394220388E-004  +1.0096222162E+000 +6.8583166599E-001 
3387919.900 +7.9647904634E-001 +4.7100305557E-002  -3.1423690962E-004 -1.0117841157E-004  +2.1511515661E-004 -9.0357003501E-005  +1.0471620560E+000 +7.4895185232E-001 
3513065.081 +7.9905027151E-001 +7.1213811636E-002  -7.4408671935E-005 -2.9845748941E-005  -2.4634649162E-004 +4.5297137694E-004  +1.0845309496E+000 +8.1753832102E-001 
3638210.263 +8.1800240278E-001 +1.0207627714E-001  +2.4495893740E-005 -2.9000380891E-004  -2.5608600117E-004 +7.4171577580E-005  +1.1692602634E+000 +8.5054355860E-001 
3763355.444 +8.3962148428E-001 +1.2156981230E-001  -5.9073267039E-005 -3.6875950173E-004  +9.2456823040E-005 +8.9093649876E-005  +1.2583085299E+000 +8.7699139118E-001 
3888500.626 +8.5424846411E-001 +1.3640236855E-001  -2.4108571233E-004 +4.1357532609E-005  +1.8925173208E-005 -4.1436412721E-004  +1.3354020119E+000 +9.3143939972E-001 
4013645.807 +8.1746745110E-001 +8.9017108083E-002  -2.5417792494E-004 -6.5321022703E-005  +5.5811193306E-004 +4.4102274114E-004  +1.5493679047E+000 +7.2476112843E-001 
4138790.989 +7.7481907606E-001 +5.1139488816E-002  -1.6965833493E-004 +1.2696602789E-004  +4.1418799083E-004 -4.5266133384E-004  +1.6242394447E+000 +4.4717729092E-001 
4263936.170 +7.7075201273E-001 +6.9453708827E-002  +3.9102643495E-004 +2.4025648599E-005  -2.4612116977E-004 +3.6871587508E-004  +1.6704574823E+000 +3.6771720648E-001 
4389081.352 +7.8359365463E-001 +6.7416191101E-002  +1.5204795636E-004 +1.9137089839E-004  -4.7969815205E-004 +3.5153323552E-004  +1.7077311277E+000 +2.5573527813E-001 
4514226.533 +7.9711794853E-001 +7.9969376326E-002  +6.8273505894E-004 +2.4303766259E-004  -4.4042614172E-004 -1.0068296251E-004  +1.7265462875E+000 +1.9112345576E-001 
4639371.715 +8.1454902887E-001 +7.3380142450E-002  -6.2373561377E-005 -2.1541705064E-004  +1.0761040176E-004 +1.2195637100E-004  +1.7278801203E+000 +1.2833891809E-001 
4764516.896 +8.1761282682E-001 +7.9695343971E-002  +3.9318238851E-004 -1.2537771545E-004  -3.6692039430E-005 +1.3666995801E-004  +1.7280977964E+000 +5.1023557782E-002 
4889662.078 +8.2486164570E-001 +8.6473748088E-002  +1.2102688197E-004 +1.6261717246E-004  -2.0017441420E-004 -2.4308983120E-004  +1.7416346073E+000 -2.6116073132E-003 
5014807.259 +8.2455575466E-001 +8.9097440243E-002  -1.0261076386E-004 +2.9880297370E-004  -6.0230039526E-004 -5.5608194089E-005  +1.7000015974E+000 -6.3027560711E-002 
5139952.441 +8.4287989140E-001 +7.7583290637E-002  -4.7479232308E-004 +5.8571007685E-005  +5.3271139041E-004 -1.8073608226E-004  +1.6900063753E+000 -1.3438849151E-001 
5265097.622 +8.4544032812E-001 +8.9390479028E-002  +5.5770451581E-005 +2.0788186521E-004  -3.4701646655E-004 -2.0241396851E-004  +1.6533558369E+000 -1.8139863014E-001 
5390242.804 +8.5693806410E-001 +9.1913051903E-002  -2.7942503948E-005 -2.0369031699E-004  -1.9619279192E-004 -1.1799941421E-004  +1.6163240671E+000 -2.3103928566E-001 
5515387.985 +8.6709737778E-001 +8.9684620500E-002  -1.9591377350E-004 +7.0282039815E-006  -3.0784285627E-004 -2.7005053198E-005  +1.5864410400E+000 -2.8386694193E-001 
5640533.166 +8.7285292149E-001 +9.1168120503E-002  -4.3651537271E-004 +5.0692913646E-005  -2.5375769474E-004 +1.6096429317E-004  +1.5674858093E+000 -3.1797778606E-001 
5765678.348 +8.7561911345E-001 +9.0141437948E-002  -4.8223984777E-005 -4.4390291441E-004  -1.0015141015E-004 +4.2512692744E-005  +1.5232927799E+000 -3.5380184650E-001 
5890823.529 +8.8195395470E-001 +8.7852999568E-002  -4.3048200314E-004 +2.1605075744E-004  +4.4140178943E-005 +7.7030308603E-005  +1.4728313684E+000 -3.8480824232E-001 
6015968.711 +8.8356506824E-001 +8.9060373604E-002  -2.9766254011E-004 +8.4120838437E-005  +1.3798127475E-004 +2.9225971957E-005  +1.4425470829E+000 -3.9767342806E-001 
6141113.892 +8.8800692558E-001 +8.7857507169E-002  +1.1913682101E-004 -2.3330714612E-004  +4.5057668467E-004 -1.1067496962E-004  +1.3973351717E+000 -4.2134669423E-001 
6266259.074 +8.9439880848E-001 +8.9576937258E-002  -5.3278043197E-005 -3.1487481465E-005  +4.2773454334E-004 +3.4066056833E-004  +1.3537608385E+000 -4.2965179682E-001 
6391404.255 +9.0091830492E-001 +8.3763733506E-002  -1.7007678980E-004 -2.7255146415E-004  +2.0078578018E-005 -1.4671076497E-004  +1.3055809736E+000 -4.4035083055E-001 
6516549.437 +9.0185952187E-001 +8.6155474186E-002  +4.2069974006E-004 -3.1422945904E-004  -2.8202257818E-004 +8.3273043856E-005  +1.2728179693E+000 -4.5075365901E-001 
6641694.618 +9.0655565262E-001 +8.4626033902E-002  +1.0107881099E-004 -8.1879634308E-006  +8.0133431766E-005 -7.8512137407E-005  +1.2394418716E+000 -4.5318418741E-001 
6766839.800 +9.1213530302E-001 +8.7546750903E-002  -3.3091964724E-006 +4.8464844440E-005  -9.9723067251E-005 -1.5974389680E-004  +1.2020815611E+000 -4.5910298824E-001 
6891984.981 +9.1601312160E-001 +8.5943624377E-002  +3.5315992136E-005 +1.7777763424E-004  -6.3520070398E-004 +1.6332793166E-005  +1.1600431204E+000 -4.5656526089E-001 
7017130.163 +9.1479885578E-001 +8.4464699030E-002  -3.3810760215E-005 -2.3211438383E-004  -1.5748283477E-004 -1.2922854512E-004  +1.1315544844E+000 -4.4637894630E-001 
7142275.344 +9.1973602772E-001 +8.4721043706E-002  +3.9080303395E-005 +9.3149086752E-005  +1.3926786778E-004 -3.4407220664E-004  +1.1102555990E+000 -4.4060650468E-001 
7267420.526 +9.2209625244E-001 +8.4733881056E-002  -8.0951998825E-005 +4.9647045671E-005  -4.0585982788E-005 -2.9738459853E-004  +1.0817711353E+000 -4.4149029255E-001 
7392565.707 +9.2982280254E-001 +8.5274919868E-002  -1.2396358943E-004 +1.3393897098E-004  +1.5614740551E-004 +7.7362346929E-005  +1.0515313148E+000 -4.3948084116E-001 
7517710.889 +9.2905557156E-001 +8.4243677557E-002  +9.2379057605E-005 -1.5029755014E-004  +1.1792901932E-004 +3.0850136682E-005  +1.0261389017E+000 -4.2808568478E-001 
7642856.070 +9.2460173368E-001 +8.5318259895E-002  -9.0727735369E-006 -4.6118984756E-005  +1.7717377341E-004 -2.8155307518E-005  +9.9432557821E-001 -4.2508819699E-001 
7768001.252 +9.3565207720E-001 +8.5083872080E-002  +1.0109687719E-004 -9.3874972663E-005  -6.7672968726E-005 +1.4023922267E-004  +9.6935200691E-001 -4.1640993953E-001 
7893146.433 +9.3488156796E-001 +8.7335862219E-002  +1.0543561075E-005 -7.2174800152E-005  -4.2411680624E-005 +4.8454472562E-005  +9.4742012024E-001 -4.0199661255E-001 
8018291.615 +9.3618160486E-001 +8.0965831876E-002  -6.8765180004E-006 -4.1896157654E-007  +1.3128201317E-005 -4.6273362386E-005  +9.2036694288E-001 -3.9051556587E-001 
8143436.796 +9.3602955341E-001 +7.7212765813E-002  +2.1450097847E-005 +4.1034556489E-005  +7.8435768955E-005 -5.7660348830E-005  +9.0606004000E-001 -3.7317523360E-001 
8268581.977 +9.3996936083E-001 +7.8761473298E-002  +4.6659293730E-005 -1.6442486958E-004  +1.0881030903E-004 -1.1168172932E-004  +8.8962846994E-001 -3.6072850227E-001 
8393727.159 +9.4326424599E-001 +7.6511964202E-002  +5.8162979258E-005 -1.2278641225E-004  -1.2716178026E-004 -1.4150008792E-004  +8.7310206890E-001 -3.4698235989E-001 
8518872.340 +9.4445008039E-001 +7.6514914632E-002  +2.8375616239E-006 -5.6309640058E-005  +5.8252757299E-005 -6.0431484599E-005  +8.5651361942E-001 -3.3094987273E-001 
8644017.522 +9.4392001629E-001 +7.5009033084E-002  -1.4730832481E-004 -1.2973032426E-004  +1.2851144129E-004 -9.9320423033E-006  +8.4310317039E-001 -3.1905281544E-001 
8769162.703 +9.5033633709E-001 +7.1804717183E-002  -1.6396419960E-004 -3.0449658880E-005  -3.3953263483E-005 -8.9188819402E-005  +8.3054608107E-001 -3.0685091019E-001 
8894307.885 +9.5129215717E-001 +6.7418530583E-002  -1.4532770729E-004 +1.9423935737E-004  +8.3233811893E-005 -1.0302771261E-004  +8.1444907188E-001 -2.9347777367E-001 
9019453.066 +9.4956988096E-001 +6.5634936094E-002  +2.0326988306E-006 -6.1014012317E-005  +3.8223428419E-005 -1.5040088329E-005  +8.0428117514E-001 -2.7594548464E-001 
9144598.248 +9.5512515306E-001 +6.4966410398E-002  -7.6644064393E-005 -1.5477690613E-004  +6.2862265622E-005 +5.4356569308E-005  +7.9136711359E-001 -2.5948977470E-001 
9269743.429 +9.5644044876E-001 +6.6220194101E-002  -4.1470993892E-005 +9.0385547082E-005  -1.1810396973E-004 +8.3897495642E-005  +7.8090143204E-001 -2.4658873677E-001 
9394888.611 +9.5861732960E-001 +6.6449373960E-002  -1.4000255032E-004 +3.9611186367E-005  -2.6681169402E-005 +1.5498928406E-005  +7.7114522457E-001 -2.3326441646E-001 
9520033.792 +9.6165519953E-001 +6.1634421349E-002  -3.4503249481E-005 -9.5827890618E-005  +2.0953634521E-004 -1.1337737669E-004  +7.6394104958E-001 -2.1489238739E-001 
9645178.974 +9.6401977539E-001 +6.3026666641E-002  -2.6440869988E-005 -9.3579321401E-005  +2.7109806979E-005 +5.9437520576E-006  +7.5775963068E-001 -1.9889122248E-001 
9770324.155 +9.6421080828E-001 +6.2918484211E-002  -1.0917554027E-004 +2.3741267796E-005  -6.8171349994E-005 +1.0704038868E-004  +7.4741142988E-001 -1.8426278234E-001 
9895469.337 +9.6495252848E-001 +6.3385099173E-002  +7.9028512118E-005 +5.9974241594E-005  -1.0981361993E-004 +3.9916521928E-006  +7.3898243904E-001 -1.7201113701E-001 
10020614.518 +9.6608924866E-001 +6.1435759068E-002  +1.7307882445E-005 -3.1601306546E-005  +2.6383626391E-005 -5.6639764807E-005  +7.3838770390E-001 -1.5394747257E-001 
10145759.700 +9.6715557575E-001 +5.7851374149E-002  -1.1843389075E-005 +1.6140002117E-005  +5.6487406255E-006 +6.5867079684E-006  +7.3523247242E-001 -1.3764208555E-001 
10270904.881 +9.6962749958E-001 +5.6566059589E-002  +1.1765964155E-004 +1.9098781195E-005  -2.9243392419E-005 +2.7867294193E-005  +7.3220229149E-001 -1.2584847212E-001 
10396050.063 +9.6849811077E-001 +5.3580790758E-002  +4.3532927521E-006 +8.9222070528E-005  +1.7085640138E-005 -5.7871649915E-005  +7.2847795486E-001 -1.0698986053E-001 
10521195.244 +9.7035980225E-001 +5.3304314613E-002  -2.5403463951E-005 -2.4492892408E-005  +5.6351596868E-005 +5.1217826694E-005  +7.2614705563E-001 -9.2679798603E-002 
10646340.426 +9.7154194117E-001 +5.1546245813E-002  -6.5217696829E-005 -1.2031254300E-005  -1.0978439605E-005 +6.5832042310E-005  +7.2468900681E-001 -7.7660918236E-002 
10771485.607 +9.7118145227E-001 +5.0072371960E-002  +5.3581657994E-005 +9.2737362138E-005  -3.9616366848E-005 +7.0254936873E-005  +7.2537732124E-001 -6.2342852354E-002 
10896630.788 +9.7267341614E-001 +5.0023615360E-002  -6.2974213506E-005 +1.8316504793E-005  +2.5640150852E-005 +2.5179360819E-005  +7.2396004200E-001 -4.6924799681E-002 
11021775.970 +9.7378766537E-001 +4.7168344259E-002  +1.2323111150E-005 +7.0257898187E-005  -4.2648214730E-005 -4.7629517212E-005  +7.2573268414E-001 -3.2325416803E-002 
11146921.151 +9.7288978100E-001 +4.4254601002E-002  +5.0034483138E-005 +2.1921083317E-005  -1.6567822968E-005 -3.8862188376E-005  +7.2713708878E-001 -1.8273890018E-002 
11272066.333 +9.7255909443E-001 +4.2607069016E-002  +3.6864030335E-006 +2.3807762773E-005  -2.3541966584E-005 -2.8252301490E-005  +7.2800427675E-001 -3.8339197636E-003 
11397211.514 +9.7431761026E-001 +4.2297899723E-002  +8.6009786173E-005 +3.4244036215E-005  +1.2407678878E-004 +1.1690019164E-005  +7.3040544987E-001 +7.7002942562E-003 
11522356.696 +9.7461378574E-001 +4.0654122829E-002  +3.9294063754E-006 +9.0551213361E-005  +2.5650922908E-005 -2.0818419216E-005  +7.3479729891E-001 +2.2064417601E-002 
11647501.877 +9.7341537476E-001 +4.0502518415E-002  +2.3560758564E-005 +6.0094465880E-005  -2.3046950446E-005 -2.2464531867E-005  +7.3756492138E-001 +3.5640150309E-002 
11772647.059 +9.7534757853E-001 +3.9955973625E-002  +7.3593386333E-005 -4.6213102905E-005  +3.4958666220E-006 +6.5236730734E-005  +7.4120032787E-001 +4.7029674053E-002 
11897792.240 +9.7411167622E-001 +3.8862466812E-002  -1.2058967513E-005 -3.6316254409E-005  +1.6565118131E-006 -4.3226245907E-005  +7.4726474285E-001 +6.1372816563E-002 
12022937.422 +9.7566157579E-001 +3.6951780319E-002  +1.5321002138E-005 +3.8352849515E-005  +1.0617389307E-005 -3.7284669816E-005  +7.5215876102E-001 +7.1866661310E-002 
12148082.603 +9.7660112381E-001 +3.5261571407E-002  +1.0039677727E-004 -2.3340700864E-005  +4.2924170884E-006 -3.4264307942E-006  +7.5894081593E-001 +8.5010856390E-002 
12273227.785 +9.7557067871E-001 +3.3805429935E-002  +6.8696957896E-005 +3.0401975891E-005  +1.5571455151E-005 +1.9894672732E-005  +7.6567184925E-001 +9.6332579851E-002 
12398372.966 +9.7574782372E-001 +3.2436937094E-002  +2.8282571293E-005 +2.5252506020E-005  +1.7570364435E-005 -1.0782334357E-005  +7.7346110344E-001 +1.0774597526E-001 
12523518.148 +9.7497147322E-001 +3.2087236643E-002  +2.7851041523E-005 +2.7796513677E-006  +6.3686900830E-005 -2.6635985705E-005  +7.8015291691E-001 +1.1678692698E-001 
12648663.329 +9.7519195080E-001 +3.1462982297E-002  +4.9491070968E-005 +3.5436838516E-005  +2.7131824027E-005 +5.6486886024E-005  +7.8803116083E-001 +1.2707152963E-001 
12773808.511 +9.7500401735E-001 +2.9293507338E-002  +7.8490484157E-006 -1.0283428310E-005  -3.1986222893E-005 -5.4480778999E-006  +7.9745918512E-001 +1.3732993603E-001 
12898953.692 +9.7503250837E-001 +2.7403920889E-002  +3.3965834518E-006 +7.4551508078E-006  +3.5654397834E-006 +1.6388943550E-005  +8.0626088381E-001 +1.4529287815E-001 
13024098.874 +9.7434973717E-001 +2.6976779103E-002  -5.7247634686E-006 +2.8226049835E-005  +1.5242954760E-005 +2.6552035706E-005  +8.1648671627E-001 +1.5511444211E-001 
13149244.055 +9.7475981712E-001 +2.6137817651E-002  +7.2400939644E-006 -8.0361742221E-006  -6.0395841501E-006 +2.8639804441E-005  +8.2570677996E-001 +1.6359469295E-001 
13274389.237 +9.7445744276E-001 +2.5617713109E-002  +6.8376343734E-006 +1.2774952665E-005  +2.9957142033E-005 +2.3478271032E-005  +8.3830451965E-001 +1.7119595408E-001 
13399534.418 +9.7368490696E-001 +2.4006517604E-002  +3.4073811548E-005 +4.6538800234E-005  +2.8124364690E-005 +1.3211189071E-005  +8.4810429811E-001 +1.7838495970E-001 
13524679.599 +9.7264969349E-001 +2.4568960071E-002  -1.1556655863E-006 +3.3327443816E-005  +2.2568723580E-005 +2.2313597583E-005  +8.5988599062E-001 +1.8453472853E-001 
13649824.781 +9.7403091192E-001 +2.3120582104E-002  -8.9909099188E-006 -1.4046739125E-005  +1.4472230760E-005 +3.3635042200E-005  +8.7156742811E-001 +1.9025871158E-001 
13774969.962 +9.7371441126E-001 +2.2319570184E-002  -1.4709626157E-006 +3.1133313314E-005  -2.1888590709E-005 +5.7545566960E-005  +8.8289052248E-001 +1.9502292573E-001 
13900115.144 +9.7346752882E-001 +2.2073939443E-002  +3.0231603887E-005 -2.5335491955E-005  +5.0123813708E-005 +2.2618560251E-005  +8.9389991760E-001 +2.0041745901E-001 
14025260.325 +9.7281688452E-001 +2.1022289991E-002  -3.9013311834E-006 +2.3998585675E-005  -1.6765447072E-005 +3.2928834116E-005  +9.0637171268E-001 +2.0296902955E-001 
14150405.507 +9.7206592560E-001 +2.0630866289E-002  +5.1702205383E-005 +5.2920477174E-006  +1.6270598280E-005 -6.8050439950E-007  +9.1905605793E-001 +2.0650984347E-001 
14275550.688 +9.7233915329E-001 +1.9351869822E-002  +3.7021130993E-005 +4.0285456635E-005  +9.4834103948E-006 +1.2658572359E-006  +9.3146312237E-001 +2.0714637637E-001 
14400695.870 +9.7052210569E-001 +1.8888294697E-002  +3.2809955883E-005 +5.6854369177E-005  +1.9843721020E-005 +9.3559256129E-006  +9.4380700588E-001 +2.0863193274E-001 
