!  2-Port S-parameters saved by WinCal
! VAR MeasName=S-Parameters (CALIBRATED_DATA) read from VNA (P5004A)
! VAR MeasDate=22/05/2024 22:00:22
! VAR NAME=Wafer3_r2_c5_pristine_pos15dc
! VAR FILENAME=Wafer3_r2_c5_pristine_pos15dc.S2P
! VAR DATE=22/05/2024 22:00:22
! VAR PHYS_PORTS=1,2
! VAR ObjTypeName=DATASET
! VAR IndexType=Frequency
!
# Hz S RI R 50
9000.000 +2.0623137057E-001 -6.0291695595E-001  +1.8326102290E-003 -5.1954208175E-004  +4.3233856559E-005 +9.9221663550E-004  +3.5581775010E-002 +1.0999868810E-001 
134145.181 +6.6087102890E-001 +1.4279305935E-002  +4.0939883329E-003 +5.7677445002E-003  -8.8552460074E-003 +1.3694792055E-002  +2.6572081447E-001 -2.5700944662E-001 
259290.363 +8.6349016428E-001 -1.1070130765E-001  +1.4621065930E-004 +1.0605400428E-002  +5.4687019438E-003 -6.8728206679E-003  +4.9691942334E-001 -3.2719051838E-001 
384435.544 +8.9578604698E-001 -2.7903923392E-001  +1.0873103514E-002 +1.2669004500E-002  -1.1901012622E-003 -1.1282928754E-003  +2.5397032499E-001 -3.1852224469E-001 
509580.726 +9.6173739433E-001 -1.4707586169E-001  +7.6109133661E-003 +6.8772248924E-003  -5.8191800490E-003 -9.7653446719E-003  -1.1449700594E-001 -4.1251170635E-001 
634725.907 +1.0978174210E+000 -2.1235418320E-001  -8.7506254204E-004 +1.2817042880E-003  -1.8222195795E-003 +4.8069009790E-004  +8.8629031181E-001 -2.7346977592E-001 
759871.089 +1.3221848011E+000 -6.0972034931E-002  -1.1312158313E-004 -8.1871112343E-004  -9.6788501833E-004 -1.2734596385E-003  +1.4542554617E+000 +1.4040622115E-001 
885016.270 +2.0349326134E+000 -1.2480581999E+000  -8.2525011385E-004 -2.5820466690E-003  -2.0448612049E-003 -5.5632251315E-003  +1.2961351871E+000 +4.3636116385E-001 
1010161.452 +9.7707140446E-001 -1.1491751671E-001  -2.0659010625E-004 -6.2881305348E-004  -7.0802221308E-004 +9.3267648481E-004  +1.2177575827E+000 +4.9841001630E-001 
1135306.633 +9.0062785149E-001 -9.2369802296E-003  -2.3725535721E-004 -9.1259760666E-005  +1.5266303672E-004 +3.5710600787E-004  +1.3183770180E+000 +6.4376819134E-001 
1260451.815 +1.3090782166E+000 +2.9760301113E-003  -6.0358119663E-004 -1.4408340212E-004  -4.4025262468E-004 -3.0516242259E-004  +1.0817725658E+000 +7.3338085413E-001 
1385596.996 +1.2763090134E+000 -1.5540486574E-001  +2.9365203227E-004 -2.0482328546E-004  +3.4627938294E-004 +4.0243260446E-004  +9.6738904715E-001 +4.9811351299E-001 
1510742.178 +1.4652981758E+000 -3.3634454012E-001  +5.2136555314E-004 -1.1686945800E-004  +3.2291194657E-004 -3.5852161818E-004  +6.6117024422E-001 +5.7227563858E-001 
1635887.359 +9.0027201176E-001 -4.2558082938E-001  +3.5246583866E-004 +1.6333867097E-004  -2.9687225469E-004 -1.0987132555E-006  +1.5028834343E+000 +6.5358436108E-001 
1761032.541 +9.1560167074E-001 -5.5691087246E-001  -4.4490079745E-004 +3.9038536488E-004  -5.0833378918E-004 +1.7736441805E-005  +1.0831205845E+000 +8.1781929731E-001 
1886177.722 +8.0294692516E-001 -2.9861781001E-001  -2.4505879264E-004 -8.4325263742E-005  +1.9217764202E-004 +1.1388001440E-004  +1.1315706968E+000 +5.5055332184E-001 
2011322.904 +8.2891035080E-001 -1.5390282869E-001  +1.0114072211E-004 +6.9759458711E-005  -1.8510234077E-004 -1.0387157818E-004  +1.1474221945E+000 +5.1513069868E-001 
2136468.085 +8.7291550636E-001 -1.4678433537E-001  -8.2933774684E-004 -2.9600050766E-005  -1.0752560047E-004 -5.6832006521E-005  +1.0911118984E+000 +4.6401673555E-001 
2261613.267 +8.7262034416E-001 -1.2513649464E-001  -2.0668038633E-004 +4.7199369874E-005  -1.1393183377E-004 +1.2088770018E-004  +1.0539518595E+000 +4.9840486050E-001 
2386758.448 +8.7035381794E-001 -1.1190375686E-001  -3.4853047691E-004 +3.3008441096E-004  -1.1349202396E-005 -1.2564857025E-004  +1.0766324997E+000 +5.2584379911E-001 
2511903.630 +8.5615140200E-001 -7.6936885715E-002  +1.3818293519E-004 +2.3103092099E-004  +2.1606247174E-006 -1.2718152720E-004  +1.1255353689E+000 +5.5684179068E-001 
2637048.811 +8.8076806068E-001 -8.3523586392E-002  +2.2798105783E-004 -2.3756425071E-004  -1.6010530817E-004 +2.5488270694E-005  +1.1437908411E+000 +5.8167451620E-001 
2762193.992 +8.8662755489E-001 -8.0832794309E-002  +2.1025458409E-004 -4.1092981701E-004  +5.2910158411E-004 +3.9906182792E-004  +1.1761974096E+000 +4.6899360418E-001 
2887339.174 +8.4158414602E-001 -8.5880666971E-002  -1.5689263819E-004 -2.7475666138E-004  +1.5438435366E-004 +1.1491878831E-004  +1.0273189545E+000 +4.2800495028E-001 
3012484.355 +8.3360856771E-001 -5.2283413708E-002  +4.9600144848E-005 +1.2766098371E-004  -8.4661973233E-005 -8.5704130470E-005  +9.5198708773E-001 +5.3287804127E-001 
3137629.537 +8.3129757643E-001 -7.7186524868E-004  +1.6782098101E-004 -8.0466264626E-004  -2.1851720521E-004 +1.0565733828E-004  +9.7109234333E-001 +6.4394563437E-001 
3262774.718 +8.2280296087E-001 +3.2899007201E-002  -2.3397486075E-005 +1.6126000264E-004  +1.0629299504E-004 -1.5149690444E-004  +1.0167610645E+000 +7.1438735723E-001 
3387919.900 +8.2175838947E-001 +6.2308937311E-002  -2.8054133873E-004 -1.1151039507E-004  -3.3132167300E-004 +2.5809992803E-004  +1.0593469143E+000 +7.7446985245E-001 
3513065.081 +8.3570975065E-001 +8.3841741085E-002  +2.0231690723E-004 -2.9552560591E-005  -1.4742323401E-005 +9.6632065834E-006  +1.0971418619E+000 +8.4771275520E-001 
3638210.263 +8.4768056870E-001 +1.1231324077E-001  -1.4620731235E-005 -8.0821504525E-005  +3.2561732951E-005 +1.3437945745E-004  +1.1867085695E+000 +8.8021361828E-001 
3763355.444 +8.7112051249E-001 +1.3263025880E-001  +4.0684134001E-004 -1.7254833074E-004  -1.2304564007E-004 -2.2528617410E-004  +1.2747051716E+000 +9.1253197193E-001 
3888500.626 +8.8391584158E-001 +1.4955347776E-001  +6.5440755861E-005 -6.0937451053E-005  +3.5406131065E-004 -3.0378883821E-004  +1.3552739620E+000 +9.6628874540E-001 
4013645.807 +8.5129666328E-001 +1.0485228896E-001  -8.9449808002E-005 -3.1364901224E-004  +2.2256030934E-004 +2.3736490402E-004  +1.5823050737E+000 +7.5727659464E-001 
4138790.989 +8.0071550608E-001 +4.9986302853E-002  -1.3924548693E-004 +5.5856240215E-004  -2.3172065266E-004 -1.8325958808E-004  +1.6809705496E+000 +4.7071218491E-001 
4263936.170 +7.9520767927E-001 +6.2174417078E-002  +5.2961427718E-004 +6.5961515065E-004  +4.3905887287E-004 +2.0068044250E-005  +1.7158665657E+000 +3.8098493218E-001 
4389081.352 +8.1894564629E-001 +7.4204556644E-002  +4.6946013754E-005 +2.5779617135E-004  -6.0605394538E-005 -1.3143904507E-003  +1.7575968504E+000 +2.6634865999E-001 
4514226.533 +8.2721543312E-001 +6.9181174040E-002  +2.0236728597E-004 +3.0395729118E-004  -1.3497143300E-005 -1.2175313168E-004  +1.7835410833E+000 +1.8854168057E-001 
4639371.715 +8.4684729576E-001 +7.3423437774E-002  -2.7511172812E-004 -7.9745613039E-004  +1.1339342745E-004 -4.6918066801E-004  +1.7801847458E+000 +1.2387655675E-001 
4764516.896 +8.4475690126E-001 +7.6302684844E-002  +2.7220533229E-004 +3.3503604936E-004  -7.4733907240E-006 -2.7243891964E-004  +1.7887209654E+000 +3.3589005470E-002 
4889662.078 +8.4917724133E-001 +7.8016549349E-002  +1.5029381757E-005 -2.6662158780E-004  +1.0540691437E-004 -1.8452410586E-004  +1.7924088240E+000 -1.8724381924E-002 
5014807.259 +8.5218453407E-001 +7.9642936587E-002  +2.7900741770E-005 -2.8360879514E-004  -2.5222782278E-004 -1.2696046906E-004  +1.7435339689E+000 -7.9941958189E-002 
5139952.441 +8.6741393805E-001 +8.0878555775E-002  -4.9647605920E-005 -2.4686532561E-004  -1.7100470723E-004 -2.0565038722E-004  +1.7349632978E+000 -1.5443891287E-001 
5265097.622 +8.7592160702E-001 +9.1693848372E-002  -4.8877624795E-004 +2.9242516030E-004  -2.9396702303E-004 +1.9092345610E-004  +1.6869529486E+000 -2.1286940575E-001 
5390242.804 +8.8540697098E-001 +9.2758774757E-002  -4.2934436351E-005 +4.9470976228E-004  +2.0691510872E-004 -5.0894933520E-004  +1.6574069262E+000 -2.5906461477E-001 
5515387.985 +8.9220768213E-001 +9.0045385063E-002  -9.4019429525E-005 +3.2492203172E-004  -4.9707147991E-004 +4.0766310121E-005  +1.6201517582E+000 -3.1369191408E-001 
5640533.166 +9.0200597048E-001 +9.3028575182E-002  +2.1246571850E-004 +4.1187158786E-005  -2.5653047487E-004 +5.4262112826E-004  +1.5980119705E+000 -3.5181307793E-001 
5765678.348 +9.0055799484E-001 +8.9502394199E-002  +4.7652029025E-005 +1.4032509353E-004  -3.0293894815E-004 +2.3800462077E-004  +1.5533174276E+000 -3.8217812777E-001 
5890823.529 +9.0530908108E-001 +8.7396077812E-002  -1.0791009117E-004 -1.7443895922E-004  -2.2890719993E-004 +4.3592246948E-004  +1.4976215363E+000 -4.0652573109E-001 
6015968.711 +9.1176670790E-001 +8.1823870540E-002  -1.5247135889E-004 +1.9240571419E-004  +3.4642344690E-004 +1.4135095989E-004  +1.4630100727E+000 -4.3514013290E-001 
6141113.892 +9.1460251808E-001 +7.5240179896E-002  -3.4260701796E-005 +4.5236945152E-004  +4.0064757923E-004 -5.1388429711E-004  +1.4157944918E+000 -4.4958847761E-001 
6266259.074 +9.1937470436E-001 +7.4034243822E-002  -2.8660177486E-004 +1.3878957543E-004  -3.8942685933E-005 +6.4037230914E-005  +1.3635439873E+000 -4.6395641565E-001 
6391404.255 +9.2185658216E-001 +7.3315531015E-002  -5.6241660786E-005 +3.9478734834E-005  -2.8931426641E-006 -2.0572537323E-004  +1.3172941208E+000 -4.7837394476E-001 
6516549.437 +9.2063444853E-001 +6.8087391555E-002  -7.4312527431E-005 -2.3366896494E-004  +4.3987260142E-005 +8.7599604740E-005  +1.2795691490E+000 -4.8375236988E-001 
6641694.618 +9.3061494827E-001 +7.3804929852E-002  +1.1789677228E-004 +4.3307656597E-005  +2.1591734549E-004 +2.7698662961E-005  +1.2440228462E+000 -4.8847621679E-001 
6766839.800 +9.3613094091E-001 +7.2573438287E-002  -5.6420052715E-005 -9.7793905297E-005  +1.6204210988E-004 +1.0520598880E-004  +1.2098623514E+000 -4.9531763792E-001 
6891984.981 +9.3404775858E-001 +6.3763514161E-002  -1.3237541134E-004 -6.7904169555E-005  -3.5829416447E-005 +1.1476544387E-005  +1.1618624926E+000 -4.8683476448E-001 
7017130.163 +9.3842279911E-001 +6.5676487982E-002  +1.2495933333E-004 +2.6492483448E-004  +2.8906876105E-004 +4.4647731556E-005  +1.1364374161E+000 -4.7860860825E-001 
7142275.344 +9.4134855270E-001 +7.4907705188E-002  +9.1668844107E-006 +2.4558336008E-005  +2.5789086067E-005 -1.6795875126E-005  +1.1138526201E+000 -4.7471284866E-001 
7267420.526 +9.3952983618E-001 +7.7940747142E-002  -7.4425952334E-006 -2.6459930814E-004  -1.6745769244E-004 +3.0710310966E-005  +1.0795159340E+000 -4.6704804897E-001 
7392565.707 +9.4571250677E-001 +7.5504347682E-002  +1.2721473468E-004 -1.4687974181E-004  -2.3102010891E-004 -4.6000706789E-005  +1.0531927347E+000 -4.6759796143E-001 
7517710.889 +9.4947409630E-001 +7.1589410305E-002  -6.5908599936E-005 +1.3242178829E-004  +3.1555397436E-004 -2.2576269112E-004  +1.0212278366E+000 -4.5624887943E-001 
7642856.070 +9.4414418936E-001 +7.3038034141E-002  +1.1207344505E-004 -5.1050050388E-005  -2.2860505851E-004 -1.2527492800E-005  +9.9106979370E-001 -4.5166349411E-001 
7768001.252 +9.5331072807E-001 +7.0521563292E-002  -1.2736309145E-005 +3.8823197247E-004  -1.5602058556E-004 +2.3650891671E-004  +9.6679282188E-001 -4.3896275759E-001 
7893146.433 +9.5723372698E-001 +7.1160957217E-002  +1.2430424977E-004 -3.8883768866E-005  +5.9423276980E-005 -1.4730145631E-004  +9.4179689884E-001 -4.2288234830E-001 
8018291.615 +9.5372319221E-001 +6.7413508892E-002  +5.6714350649E-005 -1.9834934210E-004  +1.5525182243E-004 +6.8097215262E-005  +9.1389250755E-001 -4.1084983945E-001 
8143436.796 +9.5404672623E-001 +6.4923748374E-002  -5.0177928642E-005 -8.7305692432E-005  +1.4500215184E-004 -2.7507863706E-004  +9.0086138248E-001 -3.9726775885E-001 
8268581.977 +9.5463281870E-001 +6.2395304441E-002  +2.0715220307E-004 -1.1993238877E-004  +1.1729972175E-004 -3.3646269003E-005  +8.8187199831E-001 -3.8101205230E-001 
8393727.159 +9.5800399780E-001 +6.0111254454E-002  -8.0144354797E-006 -2.6840614282E-006  +1.5689010979E-005 -5.2573370340E-005  +8.6894136667E-001 -3.6910188198E-001 
8518872.340 +9.6454328299E-001 +5.4865419865E-002  -7.7823773609E-005 -3.1478884921E-007  +5.1714148867E-005 -3.1255869544E-004  +8.5096973181E-001 -3.5057431459E-001 
8644017.522 +9.6287447214E-001 +6.1957865953E-002  +4.6012886742E-005 +1.3933722221E-004  +1.2739020167E-004 -7.3100774898E-005  +8.3946263790E-001 -3.3385181427E-001 
8769162.703 +9.6752369404E-001 +5.7516559958E-002  -6.8854766141E-005 +4.8122135922E-005  +1.2762179540E-004 -9.1595102276E-005  +8.2446241379E-001 -3.2342708111E-001 
8894307.885 +9.6249985695E-001 +5.3247451782E-002  -1.6968591808E-005 +4.6527453378E-005  -3.5612931242E-005 +1.1448707664E-004  +8.0672597885E-001 -3.1007301807E-001 
9019453.066 +9.6772933006E-001 +5.3935676813E-002  -1.2482052261E-004 -6.6539949330E-005  -4.7661542339E-006 +9.4526403700E-005  +7.9438626766E-001 -2.9717862606E-001 
9144598.248 +9.6582221985E-001 +4.9114257097E-002  -5.8389312471E-005 -6.8700246629E-005  -1.3008767564E-004 +2.2482333588E-004  +7.8406077623E-001 -2.7716138959E-001 
9269743.429 +9.6880131960E-001 +5.2611678839E-002  +1.2961270841E-005 -1.8542306498E-004  -1.0016047599E-004 -5.0967213610E-005  +7.7506083250E-001 -2.6286911964E-001 
9394888.611 +9.7086447477E-001 +5.5480837822E-002  -6.4503175963E-005 +1.6837437215E-005  -9.7391843155E-005 -9.4668845122E-005  +7.6488423347E-001 -2.4773602188E-001 
9520033.792 +9.7312176228E-001 +4.7933191061E-002  -4.9824702728E-005 +7.2087015724E-005  -9.2263871920E-005 +2.2973690648E-005  +7.5753933191E-001 -2.2770635784E-001 
9645178.974 +9.7574841976E-001 +5.1783561707E-002  -3.2268791983E-005 +9.7299562185E-006  -1.8136433209E-004 -1.2940856686E-004  +7.5051116943E-001 -2.1236547828E-001 
9770324.155 +9.7358703613E-001 +5.0267338753E-002  +1.5711022570E-005 +1.4181627193E-005  -9.8908363725E-005 +3.7543282815E-005  +7.4215739965E-001 -1.9583687186E-001 
9895469.337 +9.7750419378E-001 +4.9243211746E-002  -4.4681946747E-005 +1.1566641479E-004  +1.3666443920E-005 +5.3321578889E-005  +7.3592668772E-001 -1.8038305640E-001 
10020614.518 +9.7512739897E-001 +4.7815918922E-002  -1.6112389858E-004 +6.9443573011E-005  +6.4318912337E-005 +1.1428730068E-004  +7.3314261436E-001 -1.6227200627E-001 
10145759.700 +9.7654473782E-001 +4.5843690634E-002  -3.1968338590E-006 +1.2067220814E-004  +5.9431182308E-005 +3.6429133615E-005  +7.3045933247E-001 -1.4839035273E-001 
10270904.881 +9.7984081507E-001 +4.2508095503E-002  -1.9989023713E-005 +6.7272398155E-005  +1.9212950065E-005 +6.1712678871E-005  +7.2689902782E-001 -1.3346549869E-001 
10396050.063 +9.7687280178E-001 +4.2023986578E-002  -1.0504072634E-005 +4.0717604861E-005  +1.7694190319E-004 -1.6594960471E-005  +7.2340458632E-001 -1.1494481564E-001 
10521195.244 +9.7876715660E-001 +4.0880322456E-002  -6.6233624239E-006 +7.9345882114E-005  +3.1220533856E-006 +6.2384547164E-006  +7.2332966328E-001 -1.0194689035E-001 
10646340.426 +9.7985041142E-001 +3.9194643497E-002  -2.1939720682E-005 +6.5068634285E-005  +3.8080834202E-005 +1.5586985683E-005  +7.2074002028E-001 -8.7957620621E-002 
10771485.607 +9.7914296389E-001 +3.9522498846E-002  +4.2212104745E-005 +8.1875550677E-005  +8.4010040155E-005 +4.2030918848E-005  +7.2095036507E-001 -7.0781379938E-002 
10896630.788 +9.7932493687E-001 +3.8122832775E-002  -4.3085856305E-005 +8.8120301371E-005  -1.3537282939E-006 +1.2264715042E-004  +7.2055208683E-001 -5.5876672268E-002 
11021775.970 +9.7905790806E-001 +3.8313239813E-002  -2.4555040000E-005 +8.8350192527E-005  -3.2031359297E-005 +2.4965251214E-005  +7.2011280060E-001 -4.1954696178E-002 
11146921.151 +9.8018360138E-001 +3.4021139145E-002  -3.3560398151E-005 +2.6812635042E-005  +9.9809249150E-006 -7.8913417383E-006  +7.2288882732E-001 -2.7820646763E-002 
11272066.333 +9.7820901871E-001 +3.3254802227E-002  -5.8621208154E-005 -1.8971986719E-006  -2.4955676054E-005 -2.0831514121E-005  +7.2492623329E-001 -1.2518018484E-002 
11397211.514 +9.7970515490E-001 +3.1043022871E-002  -3.6339963117E-005 +1.6119773136E-005  +6.5236585215E-005 +5.5252363381E-005  +7.2698116302E-001 +5.0464272499E-004 
11522356.696 +9.8040533066E-001 +3.0586719513E-002  +5.6731249060E-005 +6.3955209043E-005  -6.5817461291E-005 +3.9620059397E-005  +7.3154777288E-001 +1.4508098364E-002 
11647501.877 +9.8025596142E-001 +3.1228810549E-002  +2.1812124032E-005 +4.1526647692E-005  +4.6859000577E-005 +2.9195725801E-006  +7.3469305038E-001 +2.9825389385E-002 
11772647.059 +9.7980964184E-001 +2.9637485743E-002  +5.0409063988E-005 +3.6696321331E-005  +6.2535007601E-005 +8.6050822574E-005  +7.3846554756E-001 +4.1660666466E-002 
11897792.240 +9.7967171669E-001 +2.9484689236E-002  -4.4374712161E-005 +4.4405005610E-005  +1.2106662325E-005 +9.0678091510E-005  +7.4380731583E-001 +5.4605007172E-002 
12022937.422 +9.8170244694E-001 +2.9721915722E-002  +3.7404279283E-005 +2.0835741452E-005  +2.9240853110E-005 +4.2502080760E-005  +7.4998438358E-001 +6.6585123539E-002 
12148082.603 +9.8203969002E-001 +2.8985291719E-002  +9.1634865385E-005 +6.7078872235E-005  +1.3698408111E-005 +2.6239340514E-005  +7.5699967146E-001 +8.0142229795E-002 
12273227.785 +9.8229807615E-001 +2.8150409460E-002  +2.6154850275E-005 +3.0703167795E-006  +6.0913051129E-005 +1.3148150174E-005  +7.6369690895E-001 +9.1268360615E-002 
12398372.966 +9.8121124506E-001 +2.7079492807E-002  +1.1928565073E-004 +8.1191872596E-005  +6.3576221692E-006 -5.7541974456E-006  +7.7086925507E-001 +1.0210731626E-001 
12523518.148 +9.7932189703E-001 +2.5441288948E-002  +6.5812244429E-005 +2.7468802728E-005  +3.6480174458E-005 +2.2733140213E-005  +7.7819073200E-001 +1.1236801744E-001 
12648663.329 +9.8121201992E-001 +2.5629431009E-002  +2.3113832867E-005 -3.4779961425E-005  +2.0017068891E-005 +5.4461197578E-005  +7.8703576326E-001 +1.2281902134E-001 
12773808.511 +9.8073315620E-001 +2.2962883115E-002  -5.2807627071E-007 +3.2266845665E-005  +2.7208596293E-005 +9.5076909929E-005  +7.9609400034E-001 +1.3374429941E-001 
12898953.692 +9.8129004240E-001 +2.2663220763E-002  +5.1358747442E-005 +2.5563842428E-005  -6.0851953094E-006 +3.2650103094E-005  +8.0520671606E-001 +1.4163190126E-001 
13024098.874 +9.8113584518E-001 +2.2277608514E-002  +2.1132998882E-005 +5.9858204622E-005  +3.6019649997E-005 +1.6721178326E-005  +8.1489187479E-001 +1.5096895397E-001 
13149244.055 +9.8141366243E-001 +2.2232007235E-002  +2.3829210477E-005 -6.1883433773E-006  -2.6180279747E-005 +3.0356093703E-005  +8.2511991262E-001 +1.6017368436E-001 
13274389.237 +9.7983157635E-001 +2.1495727822E-002  +4.3375002861E-005 +3.2934971387E-005  +5.0121947424E-005 +1.8768883820E-005  +8.3697330952E-001 +1.6836869717E-001 
13399534.418 +9.8065960407E-001 +2.0891219378E-002  +3.8115467760E-005 -2.9372895369E-005  +1.6134645193E-005 +1.0630948236E-004  +8.4708660841E-001 +1.7549473047E-001 
13524679.599 +9.7968107462E-001 +2.1493203938E-002  +1.3409444364E-005 +1.2835076632E-005  +1.3745019714E-005 +5.7917251979E-005  +8.5930001736E-001 +1.8281614780E-001 
13649824.781 +9.7961121798E-001 +1.8838897347E-002  +5.8450277720E-005 +2.6488181902E-005  -2.4019178454E-005 +1.4935291802E-005  +8.7166267633E-001 +1.8708753586E-001 
13774969.962 +9.7921502590E-001 +1.9626364112E-002  -2.2381509552E-006 +6.2343118771E-005  +4.0062888729E-005 +3.1635096093E-005  +8.8241171837E-001 +1.9082899392E-001 
13900115.144 +9.7960448265E-001 +1.9694477320E-002  +1.7931333787E-005 +3.7339003029E-005  +3.0622344639E-005 +3.7212441384E-005  +8.9337235689E-001 +1.9666087627E-001 
14025260.325 +9.7849971056E-001 +1.9209891558E-002  +2.0775798475E-005 +4.7839712352E-005  +2.3138993129E-005 +3.6683213693E-005  +9.0587365627E-001 +2.0084002614E-001 
14150405.507 +9.7867846489E-001 +1.8828451633E-002  +5.9688272813E-006 +1.3133641914E-005  +9.2614209279E-006 +1.9379609512E-005  +9.1838663816E-001 +2.0308697224E-001 
14275550.688 +9.7804331779E-001 +1.7875850201E-002  +5.3020435189E-006 -2.4862097234E-006  +1.8511673261E-005 +1.6273956135E-005  +9.3093144894E-001 +2.0450852811E-001 
14400695.870 +9.7725826502E-001 +1.6679406166E-002  -4.7247931434E-006 +4.2584801122E-005  +2.9165541491E-005 +2.4196233426E-005  +9.4301009178E-001 +2.0743054152E-001 
