!  2-Port S-parameters saved by WinCal
! VAR MeasName=S-Parameters (CALIBRATED_DATA) read from VNA (P5004A)
! VAR MeasDate=22/05/2024 22:06:53
! VAR NAME=Wafer3_r2_c5_pristine_pos35dc
! VAR FILENAME=Wafer3_r2_c5_pristine_pos35dc.S2P
! VAR DATE=22/05/2024 22:06:53
! VAR PHYS_PORTS=1,2
! VAR ObjTypeName=DATASET
! VAR IndexType=Frequency
!
# Hz S RI R 50
9000.000 +2.0896600187E-001 -5.9214484692E-001  +4.4938088395E-003 +5.5982246995E-003  -4.8907299060E-004 +1.3003363274E-003  +4.3090522289E-002 +1.1083950847E-001 
134145.181 +7.1380150318E-001 +2.1996289492E-002  +1.1391358450E-002 +7.4766264297E-003  -1.2570293620E-002 +1.1291455477E-002  +1.9720354676E-001 -1.6183014214E-001 
259290.363 +8.7375712395E-001 -8.5940748453E-002  -4.9759550020E-003 -8.0698132515E-003  +6.0354638845E-003 +1.4711955562E-002  +3.2649242878E-001 -1.4025585353E-001 
384435.544 +8.8370680809E-001 -2.6472628117E-001  +9.1428374872E-003 +1.2327180244E-002  +7.7287815511E-003 -5.5660707876E-003  +1.5349681675E-001 -4.1860085726E-001 
509580.726 +9.5101433992E-001 -1.3845866919E-001  +9.0598678216E-003 +1.3996807393E-003  -1.0335154831E-002 +1.1008007452E-002  -5.2490949631E-001 -1.9185987115E-001 
634725.907 +1.0896492004E+000 -2.0492410660E-001  +2.3701956961E-003 -1.3006795198E-003  -2.1374670323E-003 +1.4823123347E-003  +8.1740474701E-001 -2.2190733254E-001 
759871.089 +1.3280954361E+000 -7.5076133013E-002  +1.1621797457E-003 +3.3597007859E-004  -1.7532726633E-004 -3.1997883343E-004  +1.4704301357E+000 +1.5795692801E-001 
885016.270 +2.3062071800E+000 -1.3403371572E+000  +1.3015330769E-003 +2.9972088523E-003  -8.6783862207E-004 -2.4937940179E-004  +1.2901186943E+000 +4.3879574537E-001 
1010161.452 +8.5009503365E-001 -7.1370005608E-002  +3.4250717727E-004 -1.1405046098E-003  +3.5109062446E-004 -3.0569548835E-004  +1.2163708210E+000 +4.9800670147E-001 
1135306.633 +7.8936153650E-001 +3.7126027048E-002  +2.8430248494E-004 -2.0795618184E-003  +1.0987411952E-003 -6.1095179990E-004  +1.3113720417E+000 +6.3546025753E-001 
1260451.815 +1.2347080708E+000 +4.6946227551E-002  -7.3448766489E-004 -4.4682063162E-004  -8.1962911645E-004 -1.4995058882E-004  +1.0812841654E+000 +7.2910749912E-001 
1385596.996 +1.2359733582E+000 -1.6804176569E-001  +4.2886295705E-004 +4.7867215471E-006  +2.8149326681E-005 +4.0118809557E-004  +9.6773552895E-001 +4.9499443173E-001 
1510742.178 +1.3590266705E+000 -3.5996025801E-001  -3.3817341318E-005 -4.6922887122E-005  -1.0946995462E-004 -1.1788825941E-004  +6.6358590126E-001 +5.7147914171E-001 
1635887.359 +8.0790984631E-001 -4.0657383204E-001  -9.7460491816E-005 +2.5011421531E-004  +4.5919857803E-004 +1.9365306071E-004  +1.5052329302E+000 +6.5249496698E-001 
1761032.541 +7.3300004005E-001 -4.3737190962E-001  +6.0044229031E-004 -4.8906760640E-005  +6.9654350227E-005 +1.4140548592E-004  +1.0863296986E+000 +8.1860959530E-001 
1886177.722 +7.4824988842E-001 -1.5660580993E-001  +1.9798701396E-004 -2.2697026725E-004  -1.5462486772E-004 -1.3202750415E-004  +1.1331033707E+000 +5.5189013481E-001 
2011322.904 +8.2262355089E-001 -8.8803395629E-002  +7.0179434260E-005 +1.0203960119E-004  -2.1331524476E-004 -6.4203763031E-005  +1.1486047506E+000 +5.1656895876E-001 
2136468.085 +8.4903019667E-001 -8.4628134966E-002  +5.0809525419E-004 +3.4236599458E-004  +8.9639477665E-005 +6.0576727265E-005  +1.0915459394E+000 +4.6471250057E-001 
2261613.267 +8.4821999073E-001 -7.2407811880E-002  -3.1749060145E-004 +4.3355976231E-005  -5.2829545893E-005 -1.1003432155E-004  +1.0524932146E+000 +5.0082910061E-001 
2386758.448 +8.4809815884E-001 -6.6983073950E-002  +3.0962293386E-004 +3.4446420614E-004  -9.5749150205E-005 +1.9081699429E-004  +1.0750441551E+000 +5.2729225159E-001 
2511903.630 +8.4038925171E-001 -2.8033554554E-002  +1.2868338672E-005 +1.4160342107E-004  -2.5306950556E-004 +5.8581543271E-005  +1.1234208345E+000 +5.5694413185E-001 
2637048.811 +8.6387497187E-001 -3.0779879540E-002  +3.3199714380E-004 +3.1704205321E-004  +2.9904497205E-004 -7.0697395131E-005  +1.1426188946E+000 +5.8161646128E-001 
2762193.992 +8.5100513697E-001 -3.8414269686E-002  -2.4733383907E-004 -8.9134846348E-005  -1.6313446395E-004 -3.2677256968E-004  +1.1751211882E+000 +4.6937623620E-001 
2887339.174 +8.0900764465E-001 -3.6126203835E-002  +1.3008288806E-004 +3.4740421688E-004  +3.1063023926E-005 +2.4864799343E-004  +1.0207151175E+000 +4.2955803871E-001 
3012484.355 +8.0631393194E-001 -5.5403634906E-004  +5.6567223510E-005 +1.7252707039E-004  +1.9189756131E-006 -3.4619492362E-004  +9.4798719883E-001 +5.3509497643E-001 
3137629.537 +8.1544047594E-001 +3.2312117517E-002  -6.1737860960E-005 -1.3843199122E-004  +2.1538922738E-004 +2.3438957214E-005  +9.6557545662E-001 +6.4630424976E-001 
3262774.718 +8.1550019979E-001 +5.8925665915E-002  -1.2209486158E-004 -8.0768317275E-005  -1.8706638366E-004 +3.7366990000E-004  +1.0151336193E+000 +7.1619957685E-001 
3387919.900 +8.1112867594E-001 +8.6753875017E-002  +1.4528814063E-004 +4.9590424169E-004  +8.0078403698E-005 -1.0297432163E-004  +1.0571253300E+000 +7.7806162834E-001 
3513065.081 +8.2257908583E-001 +1.0474945605E-001  +2.1710920555E-004 +1.3544148533E-004  +4.2772802408E-004 +3.3696793253E-004  +1.0901700258E+000 +8.4714978933E-001 
3638210.263 +8.2879215479E-001 +1.1968569458E-001  -3.7077942397E-004 +9.7424621345E-005  -2.9345674557E-004 -9.3297705462E-005  +1.1715551615E+000 +8.8204151392E-001 
3763355.444 +8.5544574261E-001 +1.3807764649E-001  -1.3722451695E-004 -1.8705608090E-004  +1.3666898303E-004 -7.3012558278E-004  +1.2636175156E+000 +9.1484713554E-001 
3888500.626 +8.6673933268E-001 +1.5538701415E-001  -2.0030729502E-005 +1.3015678269E-004  -3.1624676194E-004 +3.2879717764E-005  +1.3401248455E+000 +9.6467679739E-001 
4013645.807 +8.3301305771E-001 +1.1224193871E-001  -7.4653442425E-005 +4.7352401452E-005  +4.4836011512E-005 +1.9463265198E-004  +1.5734983683E+000 +7.6009142399E-001 
4138790.989 +7.8317356110E-001 +6.2582567334E-002  -2.0949559985E-004 -2.6776807499E-004  -5.6662800489E-005 -4.5517337276E-004  +1.6712226868E+000 +4.7785013914E-001 
4263936.170 +7.8226840496E-001 +7.2175607085E-002  +2.2226094734E-004 -3.5117322113E-004  +5.4870173335E-004 +1.0112743621E-004  +1.7098987103E+000 +3.8815808296E-001 
4389081.352 +8.0370593071E-001 +8.3337172866E-002  +4.6388342162E-004 +2.8535694582E-004  +8.1813591532E-004 +1.2621894712E-004  +1.7520326376E+000 +2.7057376504E-001 
4514226.533 +8.0026584864E-001 +8.4437385201E-002  -2.2109079873E-004 +5.3414888680E-004  +3.0846640584E-004 -4.0512514533E-004  +1.7803544998E+000 +2.0310232043E-001 
4639371.715 +8.2613062859E-001 +8.8846907020E-002  +5.1517866086E-004 +1.8171680858E-004  -2.6213328238E-004 -4.6101422049E-004  +1.7854732275E+000 +1.3474728167E-001 
4764516.896 +8.2612085342E-001 +8.0611348152E-002  -7.4179566582E-005 -1.2251382032E-005  -1.1731324048E-004 +1.4228891814E-004  +1.7828572989E+000 +6.3170641661E-002 
4889662.078 +8.2796436548E-001 +9.0344309807E-002  +1.4641038433E-005 -4.0607256233E-004  +2.5805202313E-004 -4.6695818310E-004  +1.7933969498E+000 -2.0798236132E-002 
5014807.259 +8.2962578535E-001 +8.3880990744E-002  +4.8073958169E-005 +2.5670608738E-004  +1.9497913308E-004 -6.2053310103E-005  +1.7489017248E+000 -7.7550828457E-002 
5139952.441 +8.4294140339E-001 +8.5434854031E-002  +2.3676802812E-004 -6.9840876677E-005  -2.0889658481E-004 +4.6380559797E-004  +1.7386515141E+000 -1.4713424444E-001 
5265097.622 +8.5161685944E-001 +9.5398291945E-002  -1.5512540995E-004 +1.6820740711E-004  -6.4567822847E-005 -1.0036519234E-004  +1.6886965036E+000 -2.1303659678E-001 
5390242.804 +8.6118829250E-001 +9.5515698195E-002  -2.4159377790E-004 -6.6675253038E-005  +2.0391208818E-004 -2.4682897492E-004  +1.6536413431E+000 -2.4750426412E-001 
5515387.985 +8.6869710684E-001 +9.7560331225E-002  -2.2803446336E-004 -2.8031654074E-004  +1.7425045371E-004 -2.8460827889E-004  +1.6256333590E+000 -3.2021045685E-001 
5640533.166 +8.7147694826E-001 +9.5134258270E-002  -3.8875537575E-004 +3.7912226981E-004  +3.7503227941E-004 -7.4769013736E-006  +1.5948435068E+000 -3.4835481644E-001 
5765678.348 +8.7005037069E-001 +9.5860227942E-002  +1.5604414511E-004 -1.6150492593E-004  -1.5535052808E-004 -3.4265112481E-004  +1.5527950525E+000 -3.8193845749E-001 
5890823.529 +8.7227785587E-001 +8.9576460421E-002  -1.2490963854E-004 +4.7669454943E-005  -2.2232046467E-004 -1.6654780484E-004  +1.4998594522E+000 -4.1489315033E-001 
6015968.711 +8.8246428967E-001 +8.3668753505E-002  +1.5450210776E-004 +2.8521483182E-004  -1.3735772518E-004 +2.9173755320E-004  +1.4682034254E+000 -4.2835953832E-001 
6141113.892 +8.8186854124E-001 +8.3667993546E-002  +2.3571494967E-004 -1.3742002193E-004  -3.6402069964E-004 +8.8159518782E-005  +1.4122303724E+000 -4.5105642080E-001 
6266259.074 +8.8803887367E-001 +8.4886573255E-002  +1.7288807430E-004 +3.1033137930E-005  +9.6909934655E-005 +5.8901576267E-005  +1.3672329187E+000 -4.6698084474E-001 
6391404.255 +8.8973987103E-001 +7.7137723565E-002  +4.5495576342E-004 -2.0948165911E-005  +1.5737483045E-004 -3.9521208964E-004  +1.3175622225E+000 -4.7687998414E-001 
6516549.437 +8.9196187258E-001 +8.0751255155E-002  -3.2163701690E-005 +3.1409377698E-004  +3.0777277425E-004 +6.4418546390E-004  +1.2784518003E+000 -4.8083728552E-001 
6641694.618 +9.0047287941E-001 +8.9288368821E-002  +1.6791146481E-004 +1.1740069749E-004  +1.0573767941E-004 +1.1175648251E-004  +1.2485193014E+000 -4.8275578022E-001 
6766839.800 +9.1007584333E-001 +8.3969026804E-002  +2.6449031429E-004 +1.0524607205E-004  +2.6720273308E-004 +2.1054541867E-004  +1.2077203989E+000 -4.8915910721E-001 
6891984.981 +9.0663361549E-001 +8.3560965955E-002  -8.6903361080E-005 +1.6188666632E-004  -1.2639330816E-004 +1.9430162502E-004  +1.1619565487E+000 -4.9027529359E-001 
7017130.163 +9.0608930588E-001 +8.0922819674E-002  -8.0216141214E-006 -2.1625876252E-004  -2.1277814812E-004 -4.4317610445E-005  +1.1376352310E+000 -4.8048043251E-001 
7142275.344 +9.0975427628E-001 +8.8980093598E-002  -1.2358608728E-005 -3.4329899790E-005  +2.1922116866E-004 -4.5971046347E-005  +1.1073637009E+000 -4.7257900238E-001 
7267420.526 +9.1003423929E-001 +9.1689765453E-002  +2.8925320294E-005 +2.6191886718E-005  +2.6705651544E-004 +1.8912433006E-006  +1.0768510103E+000 -4.6504402161E-001 
7392565.707 +9.1587382555E-001 +9.3439906836E-002  -1.3667151507E-004 +1.5320978127E-004  -6.7473709350E-005 -4.0780807467E-005  +1.0529979467E+000 -4.6278172731E-001 
7517710.889 +9.2063808441E-001 +8.7225198746E-002  +2.9041216476E-004 +2.5458942400E-004  +1.5954225091E-004 -1.9723047444E-005  +1.0270932913E+000 -4.5550069213E-001 
7642856.070 +9.1492009163E-001 +8.5620433092E-002  +1.2390475604E-005 -3.3674772567E-005  -8.5717168986E-005 -1.2849594350E-004  +9.8814892769E-001 -4.4224071503E-001 
7768001.252 +9.2400318384E-001 +8.9108496904E-002  -5.2755101933E-005 -6.8983084930E-005  -9.3896604085E-005 +4.1757612053E-006  +9.6352356672E-001 -4.3662947416E-001 
7893146.433 +9.2659443617E-001 +8.7701074779E-002  -7.8451048466E-005 +1.5192132560E-004  +1.5011997311E-004 +2.5526273021E-005  +9.4461089373E-001 -4.1978579760E-001 
8018291.615 +9.2709177732E-001 +8.5358999670E-002  -5.3415376897E-005 -2.3618957493E-004  -2.3001579393E-004 +9.0435962193E-005  +9.2049729824E-001 -4.0925723314E-001 
8143436.796 +9.2560845613E-001 +8.2450047135E-002  +2.3494109337E-004 +1.6490314738E-004  +6.7369786848E-005 +5.0059796195E-005  +9.0145605803E-001 -3.9570260048E-001 
8268581.977 +9.2612183094E-001 +8.0088287592E-002  -3.0940464057E-005 -8.4808350948E-005  +1.7115783703E-004 +2.7330290322E-005  +8.8069289923E-001 -3.7910068035E-001 
8393727.159 +9.3011027575E-001 +7.9204618931E-002  -1.5630830603E-005 -5.9052068536E-005  -4.4373646233E-005 -4.1208502807E-005  +8.6799705029E-001 -3.6495387554E-001 
8518872.340 +9.3392568827E-001 +7.7851653099E-002  +3.1167299312E-005 -5.3863899666E-005  -6.3244951889E-005 -6.8882582127E-005  +8.4953808784E-001 -3.4750232100E-001 
8644017.522 +9.3546104431E-001 +7.9911544919E-002  -3.6292120058E-005 +6.5179985540E-005  -6.5819142037E-005 +8.2936952822E-005  +8.4267550707E-001 -3.3187276125E-001 
8769162.703 +9.4157713652E-001 +8.1423044205E-002  -6.2536913902E-005 -7.6157648436E-006  -5.7734941947E-005 -6.4485633629E-005  +8.2526957989E-001 -3.1930103898E-001 
8894307.885 +9.4067680836E-001 +7.7166020870E-002  -9.2027767096E-005 -1.2351165060E-004  -4.1390987462E-005 -7.3256844189E-005  +8.1000995636E-001 -3.0688127875E-001 
9019453.066 +9.4344431162E-001 +7.3610022664E-002  +2.0203660824E-005 -3.7251280446E-005  +1.1398104107E-004 +5.2288785810E-005  +7.9735779762E-001 -2.9184415936E-001 
9144598.248 +9.4777870178E-001 +7.1599662304E-002  +2.5783388992E-005 -2.5007126169E-005  -7.7052194683E-005 +4.3841904699E-005  +7.8436785936E-001 -2.7447247505E-001 
9269743.429 +9.4887113571E-001 +7.2573214769E-002  -7.5720563473E-005 -7.0051471994E-005  -1.5722800163E-004 -1.5271714074E-004  +7.7649861574E-001 -2.5475251675E-001 
9394888.611 +9.5013093948E-001 +7.2726815939E-002  +2.9451663067E-005 -8.1916419731E-005  +3.2957235817E-005 +9.6190124168E-005  +7.6747131348E-001 -2.4410192668E-001 
9520033.792 +9.5190864801E-001 +7.0025116205E-002  -7.8641060099E-006 -9.2753391073E-005  -4.0123337385E-005 +9.8710970633E-006  +7.5867134333E-001 -2.2401794791E-001 
9645178.974 +9.5545834303E-001 +6.9425225258E-002  -4.3762040150E-005 +9.8322685517E-005  -3.5146294977E-006 -1.1948158499E-004  +7.5158184767E-001 -2.0990899205E-001 
9770324.155 +9.5540463924E-001 +6.8712800741E-002  +2.8150014259E-005 -1.2970486750E-005  -8.4685976617E-005 +1.2183492072E-004  +7.4332761765E-001 -1.9540935755E-001 
9895469.337 +9.5866978168E-001 +6.8222761154E-002  +1.5031149815E-005 -3.0626048101E-005  +1.3082349324E-004 -5.4513766372E-006  +7.3828196526E-001 -1.7744797468E-001 
10020614.518 +9.5815426111E-001 +6.5974295139E-002  +8.0411104136E-005 +7.8562763520E-005  -1.0994955119E-005 +1.9357863493E-005  +7.3424136639E-001 -1.6061550379E-001 
10145759.700 +9.6020734310E-001 +6.2817573547E-002  -2.4595961804E-005 +2.0044735720E-006  +1.9264996808E-005 +4.7196124797E-005  +7.2979682684E-001 -1.4767634869E-001 
10270904.881 +9.6247184277E-001 +6.0192734003E-002  -2.4016595489E-005 +7.7895034337E-005  +9.0838555479E-005 +1.1224517948E-005  +7.2836112976E-001 -1.3181731105E-001 
10396050.063 +9.6131128073E-001 +5.9671163559E-002  +2.5778863346E-006 +7.6190597611E-005  -9.8185946626E-006 +4.3010531954E-005  +7.2354781628E-001 -1.1309134960E-001 
10521195.244 +9.6565037966E-001 +6.0308396816E-002  -3.3022151911E-006 +2.7984540793E-005  +7.4600602602E-006 +3.5616452806E-005  +7.2349983454E-001 -9.8906129599E-002 
10646340.426 +9.6485477686E-001 +5.7533800602E-002  +4.3285734137E-005 +7.3822113336E-005  +4.6857025154E-005 -3.3293086744E-005  +7.2183024883E-001 -8.3268165588E-002 
10771485.607 +9.6646273136E-001 +5.7327270508E-002  -6.1654485762E-005 +3.3399526728E-005  -5.2027229685E-005 +4.2112442316E-006  +7.2245204449E-001 -6.7729711533E-002 
10896630.788 +9.6703809500E-001 +5.6749910116E-002  +4.6271896281E-005 +3.8874401071E-005  +8.3050690591E-006 +5.5148029787E-005  +7.2109144926E-001 -5.4591834545E-002 
11021775.970 +9.6758246422E-001 +5.4057478905E-002  +1.2581200281E-005 -1.4767613720E-005  +1.1224665650E-004 +3.0437320675E-005  +7.2111833096E-001 -3.8822293282E-002 
11146921.151 +9.6800935268E-001 +4.9381256104E-002  -1.3003187632E-005 +1.2128334492E-004  +5.6060540373E-005 +7.6839467511E-005  +7.2313177586E-001 -2.4875849485E-002 
11272066.333 +9.6789920330E-001 +4.9528181553E-002  -4.1303625039E-005 +2.6827594411E-005  +1.4727251255E-005 +8.1345191575E-005  +7.2379386425E-001 -9.8959803581E-003 
11397211.514 +9.6969127655E-001 +4.8999547958E-002  +6.6963082645E-005 +1.0432850104E-004  +3.6440218537E-005 +1.6485288143E-005  +7.2715556622E-001 +2.8773248196E-003 
11522356.696 +9.7055315971E-001 +4.5258522034E-002  -7.0770474849E-006 +8.3785853349E-005  +9.0051493316E-005 +6.2794446421E-005  +7.3147976398E-001 +1.6500622034E-002 
11647501.877 +9.6841603518E-001 +4.5218437910E-002  -1.9905928639E-005 -1.7844295144E-005  +1.1062931662E-005 +6.4806175942E-005  +7.3450428247E-001 +3.0124157667E-002 
11772647.059 +9.7000324726E-001 +4.4867515564E-002  -2.0144305381E-005 +2.3284257622E-005  +4.6276898502E-005 +7.5575168012E-005  +7.3937773705E-001 +4.4295400381E-002 
11897792.240 +9.7008234262E-001 +4.1678816080E-002  +4.6036821004E-005 -5.6840399338E-005  +2.1688756533E-005 +6.7021479481E-005  +7.4432832003E-001 +5.6555807590E-002 
12022937.422 +9.7191959620E-001 +4.2048007250E-002  +4.1740786401E-005 -7.4595463957E-006  +2.5974357413E-005 +9.6858238976E-006  +7.4984478951E-001 +6.7580848932E-002 
12148082.603 +9.7208642960E-001 +4.0031999350E-002  +4.1170795157E-005 +2.1384297725E-005  -2.7164560379E-006 +3.2630334317E-005  +7.5730210543E-001 +8.2138180733E-002 
12273227.785 +9.7170460224E-001 +3.9458513260E-002  -2.0354646040E-006 +1.3096239854E-005  +1.0627163647E-005 +3.7862700992E-005  +7.6348477602E-001 +9.3839973211E-002 
12398372.966 +9.7155892849E-001 +3.7924349308E-002  -9.8237323982E-006 +2.4998909794E-005  +2.4388089514E-005 -4.0058657760E-005  +7.7206367254E-001 +1.0383751988E-001 
12523518.148 +9.7089105844E-001 +3.6394089460E-002  -2.0879691874E-005 +1.4789318811E-005  +5.0893031585E-005 +7.4038580351E-005  +7.7860999107E-001 +1.1429828405E-001 
12648663.329 +9.7070330381E-001 +3.5829558969E-002  +2.9299935704E-005 +1.3366770872E-005  +3.6813602492E-005 -3.3915239328E-005  +7.8803223372E-001 +1.2639690936E-001 
12773808.511 +9.7092604637E-001 +3.2697021961E-002  +1.6028323444E-005 +2.2259296202E-006  +3.7517384044E-007 +5.8239791542E-005  +7.9640537500E-001 +1.3518911600E-001 
12898953.692 +9.7131913900E-001 +3.1446173787E-002  -1.0725793800E-006 +7.8784705693E-006  -1.1448200894E-005 +1.1623660612E-005  +8.0557179451E-001 +1.4322270453E-001 
13024098.874 +9.7075021267E-001 +3.0022367835E-002  +3.4192697058E-005 -2.4872902941E-005  +1.6085570678E-005 +3.4995344322E-005  +8.1493175030E-001 +1.5261468291E-001 
13149244.055 +9.7105038166E-001 +2.9685292393E-002  -1.0798579751E-005 -2.2177646315E-005  +1.5685553763E-006 +3.4136293834E-005  +8.2516825199E-001 +1.6062723100E-001 
13274389.237 +9.6984773874E-001 +2.7007302269E-002  -4.2739025957E-005 +2.8783060770E-005  +4.2998433969E-007 -5.9145809246E-006  +8.3694982529E-001 +1.6905759275E-001 
13399534.418 +9.6945178509E-001 +2.6127552614E-002  +5.9470468841E-005 +5.5720447563E-005  +1.4977652427E-005 +1.3163675249E-005  +8.4626066685E-001 +1.7580991983E-001 
13524679.599 +9.6924120188E-001 +2.6672251523E-002  -9.6503408713E-006 +6.7697284976E-005  -2.4199376639E-005 +2.1102925530E-005  +8.5884338617E-001 +1.8253384531E-001 
13649824.781 +9.7014886141E-001 +2.4390518665E-002  -2.6830332445E-006 +3.4548967960E-005  +4.0966333472E-006 +3.9050923078E-005  +8.7098908424E-001 +1.8738690019E-001 
13774969.962 +9.6890932322E-001 +2.3973777890E-002  -4.3874806579E-006 +9.2576075986E-005  +1.4323481082E-005 +4.3097406888E-005  +8.8207244873E-001 +1.9278000295E-001 
13900115.144 +9.6964722872E-001 +2.3195892572E-002  +1.8139369331E-006 -5.3844546528E-006  +2.9047832868E-005 +1.5286459529E-005  +8.9348697662E-001 +1.9698265195E-001 
14025260.325 +9.6800589561E-001 +2.2701740265E-002  +3.8551472244E-005 +6.2651844928E-005  +6.2623221311E-006 +2.7332393074E-005  +9.0563464165E-001 +2.0086619258E-001 
14150405.507 +9.6763420105E-001 +2.2177338600E-002  +5.5696673371E-006 +2.4553304684E-005  +2.8642831239E-005 +4.4938002247E-005  +9.1834366322E-001 +2.0383313298E-001 
14275550.688 +9.6845430136E-001 +2.0389229059E-002  -2.5305311283E-005 +1.1662568795E-005  -8.7016378529E-006 +3.5065244447E-005  +9.3078565598E-001 +2.0525261760E-001 
14400695.870 +9.6682375669E-001 +1.8968462944E-002  -1.7901002138E-006 +8.3226826973E-005  -2.5708626708E-005 +4.9136371672E-005  +9.4297111034E-001 +2.0750595629E-001 
