!  2-Port S-parameters saved by WinCal
! VAR MeasName=S-Parameters (CALIBRATED_DATA) read from VNA (P5004A)
! VAR MeasDate=22/05/2024 21:42:23
! VAR NAME=Wafer3_r3_c6_pristine_pos29dc
! VAR FILENAME=Wafer3_r3_c6_pristine_pos29dc.S2P
! VAR DATE=22/05/2024 21:42:23
! VAR PHYS_PORTS=1,2
! VAR ObjTypeName=DATASET
! VAR IndexType=Frequency
!
# Hz S RI R 50
9000.000 +2.0966285467E-001 -6.0197478533E-001  +2.1870341152E-003 -1.4607266057E-003  -8.5190049140E-004 +2.2753531812E-004  +4.6537090093E-002 +1.0663124174E-001 
134145.181 +6.2781012058E-001 -2.4908185005E-003  -1.4003713150E-003 -1.1508357711E-003  +3.6598369479E-003 -1.3377458788E-002  +2.3484995961E-001 +7.9952910542E-002 
259290.363 +8.1976139545E-001 -1.1670550704E-001  -9.3116462231E-003 +5.8989585377E-003  -9.4609009102E-003 +4.8343539238E-003  +4.0014478564E-001 -1.3489365578E-001 
384435.544 +8.7281608582E-001 -2.8950807452E-001  +4.6125426888E-003 -7.8615238890E-003  -4.3735597283E-003 -6.4446879551E-003  +3.5613876581E-001 +9.4031944871E-002 
509580.726 +9.5305681229E-001 -1.4885476232E-001  -5.4760361090E-003 +5.3702085279E-003  +2.3822160438E-003 -3.2238978893E-003  +2.4292984605E-001 +4.6747624874E-003 
634725.907 +1.0904505253E+000 -2.0667764544E-001  +1.0818208102E-003 +3.6326033296E-005  +9.0011645807E-004 +5.9813482221E-004  +9.2081260681E-001 -2.3169091344E-001 
759871.089 +1.3220170736E+000 -7.1327984333E-002  -1.4447739813E-003 +5.1109859487E-004  +9.6852879506E-004 -2.2651701875E-004  +1.4687039852E+000 +1.0561826825E-001 
885016.270 +1.9773803949E+000 -1.3396785259E+000  +9.9935184699E-004 +1.4894112246E-004  -1.3985461555E-004 -2.0903234836E-003  +1.3163322210E+000 +4.4502678514E-001 
1010161.452 +9.7443920374E-001 -1.1537410319E-001  -1.4876128407E-003 -1.3174263295E-003  +1.3364127371E-003 -1.6784825129E-003  +1.2263950109E+000 +5.1403218508E-001 
1135306.633 +8.7295752764E-001 -4.6936888248E-002  +4.9108354142E-004 -4.0285944124E-005  +1.7392544542E-003 +1.6262894496E-003  +1.3233245611E+000 +6.6298252344E-001 
1260451.815 +1.2669981718E+000 -2.2560387850E-002  +1.1449417798E-003 -5.3741695592E-004  -3.5219534766E-004 -2.7838110691E-004  +1.0754399300E+000 +7.5034159422E-001 
1385596.996 +1.2657740116E+000 -1.6136676073E-001  +7.8247528290E-004 -1.9972998416E-004  +3.0986376805E-004 -7.5117859524E-006  +9.6397966146E-001 +5.0554984808E-001 
1510742.178 +1.4182953835E+000 -3.5267019272E-001  -3.0494821840E-004 -1.9633330521E-004  +1.8485999317E-004 +7.7671126928E-004  +6.5592825413E-001 +5.7273936272E-001 
1635887.359 +8.5503041744E-001 -4.1916632652E-001  +6.3240760937E-004 -4.6934041893E-004  +3.8511981256E-004 +3.4623581450E-004  +1.4988880157E+000 +6.5941828489E-001 
1761032.541 +7.9373139143E-001 -5.0770437717E-001  -5.7595461840E-006 -1.3182332623E-004  -1.4483449922E-004 -1.7121118435E-004  +1.0782109499E+000 +8.1568890810E-001 
1886177.722 +7.6490485668E-001 -2.2712405026E-001  +3.4490507096E-004 -1.5997896844E-004  +2.1787587320E-004 -2.2228382295E-004  +1.1289349794E+000 +5.4923021793E-001 
2011322.904 +8.1444603205E-001 -1.4072678983E-001  -2.4500486325E-004 -2.2320690914E-004  -7.7530028648E-005 -5.7592344092E-005  +1.1438945532E+000 +5.1201391220E-001 
2136468.085 +8.4150218964E-001 -1.3334596157E-001  -2.1769794694E-004 +2.6231784432E-005  -2.6312016416E-004 +1.1288750102E-004  +1.0897531509E+000 +4.5992776752E-001 
2261613.267 +8.3509981632E-001 -1.1235988140E-001  -7.3844348663E-005 +1.9682990387E-004  -3.4981952922E-005 -1.2481697013E-005  +1.0534209013E+000 +4.9219763279E-001 
2386758.448 +8.4715706110E-001 -9.6393972635E-002  -2.9086344875E-004 +1.0439962352E-004  +5.1910388720E-005 -1.5049075591E-004  +1.0779882669E+000 +5.1859140396E-001 
2511903.630 +8.4430718422E-001 -6.0951471329E-002  +1.8691024161E-004 +4.3213884055E-005  -9.8159645859E-005 -1.7834636674E-004  +1.1304283142E+000 +5.4724270105E-001 
2637048.811 +8.6082762480E-001 -5.9444062412E-002  +5.3688909247E-006 -2.3948331363E-004  -3.1216413481E-004 +1.0203442798E-004  +1.1570202112E+000 +5.6925189495E-001 
2762193.992 +8.5730880499E-001 -6.6101342440E-002  -2.8593070965E-005 -1.3436537120E-004  -9.4254457508E-005 +2.5716581149E-004  +1.1941866875E+000 +4.4319656491E-001 
2887339.174 +8.0191558599E-001 -5.8023244143E-002  +2.4141490576E-004 +1.8748563889E-004  +1.4049210586E-004 -5.2854325622E-004  +1.0384590626E+000 +3.8677436113E-001 
3012484.355 +8.0081307888E-001 -4.0794704109E-002  +5.0795613788E-004 -8.7617263489E-007  +6.1497790739E-005 -1.9931275165E-004  +9.5347875357E-001 +4.9690955877E-001 
3137629.537 +8.0818265676E-001 +1.6184970737E-003  -1.3243226567E-004 -1.0251889762E-005  +7.2524140705E-005 +2.1165923681E-004  +9.6727544069E-001 +6.0934591293E-001 
3262774.718 +8.0020833015E-001 +3.2555021346E-002  +2.2430196987E-004 +2.6494383928E-004  -2.1097189165E-004 +1.0662140267E-004  +1.0159958601E+000 +6.7698168755E-001 
3387919.900 +7.9355943203E-001 +5.3923279047E-002  -6.3380866777E-005 -5.3975521587E-004  +2.3682905885E-004 -2.2258629906E-004  +1.0577049255E+000 +7.3704844713E-001 
3513065.081 +8.1213444471E-001 +7.7378407121E-002  -8.9461122116E-005 -1.5521938622E-005  +1.5636454918E-005 +7.1946467506E-004  +1.0932284594E+000 +8.1173580885E-001 
3638210.263 +8.2486504316E-001 +1.1011181772E-001  +3.0041526770E-004 +1.7847341951E-004  -5.9155066992E-005 -1.8090879894E-004  +1.1759004593E+000 +8.4021466970E-001 
3763355.444 +8.3543819189E-001 +1.2570451200E-001  +1.0448347894E-005 +2.1183048375E-005  -1.2766709915E-005 +6.8706489401E-005  +1.2570019960E+000 +8.6453503370E-001 
3888500.626 +8.5726356506E-001 +1.5001323819E-001  -1.8618597824E-004 +2.1863765141E-004  -6.3095256337E-005 -1.8556373834E-004  +1.3412052393E+000 +9.1822040081E-001 
4013645.807 +8.1983786821E-001 +1.0097491741E-001  +5.8100390015E-004 -3.8766546641E-004  +1.6039890397E-005 -1.0097475024E-004  +1.5445541143E+000 +7.1306049824E-001 
4138790.989 +7.7559250593E-001 +5.4696403444E-002  +6.5523970989E-005 -3.3270026324E-004  +5.9330102522E-004 -1.5131979308E-004  +1.6195118427E+000 +4.3749958277E-001 
4263936.170 +7.6921582222E-001 +7.1038618684E-002  +1.2344565766E-004 -3.1374154787E-005  -1.5356169024E-004 -8.7949621957E-005  +1.6600449085E+000 +3.6056452990E-001 
4389081.352 +7.9319846630E-001 +7.3251716793E-002  +3.5577637027E-004 -1.0451323760E-004  +1.7709669191E-004 -1.2921873713E-004  +1.6929290295E+000 +2.5655949116E-001 
4514226.533 +7.9631972313E-001 +7.2848267853E-002  +2.9808911495E-004 +8.6407002527E-005  +1.9255425286E-005 -2.5382408057E-004  +1.7194436789E+000 +1.8402390182E-001 
4639371.715 +8.1764203310E-001 +8.1360667944E-002  +1.8467423797E-004 -8.5146741185E-005  -1.9419913588E-004 -4.6998218750E-005  +1.7220239639E+000 +1.2456603348E-001 
4764516.896 +8.1769579649E-001 +8.3965376019E-002  -4.2779577780E-004 -1.6768153000E-004  -4.2440718971E-004 +8.5524596216E-005  +1.7221857309E+000 +4.8702925444E-002 
4889662.078 +8.2606178522E-001 +8.8022321463E-002  +1.1350278510E-004 -1.6019195027E-004  +1.6342727758E-004 -5.0404120702E-004  +1.7309542894E+000 -1.9473135471E-002 
5014807.259 +8.2795631886E-001 +8.4286317229E-002  -1.8682690279E-004 -2.8397535789E-004  +6.5763364546E-005 -1.7242194735E-004  +1.6907702684E+000 -6.5294176340E-002 
5139952.441 +8.4524971247E-001 +8.6467012763E-002  -2.5448342785E-004 -3.2041355735E-004  +3.7174241152E-004 +1.3107881387E-005  +1.6771198511E+000 -1.2659898400E-001 
5265097.622 +8.5216128826E-001 +1.0242603719E-001  -9.1462927230E-005 +3.6457757233E-004  +2.6489273296E-004 -3.1973881414E-004  +1.6405576468E+000 -1.8448442221E-001 
5390242.804 +8.5992842913E-001 +9.5881812274E-002  +6.4136547735E-004 -3.3670876292E-005  -2.6254213299E-004 +4.7735197586E-004  +1.6066155434E+000 -2.2434112430E-001 
5515387.985 +8.7195861340E-001 +9.4122469425E-002  -1.3883342035E-004 +9.9695447716E-005  +1.6815897834E-004 -1.3735784160E-004  +1.5799987316E+000 -2.8825545311E-001 
5640533.166 +8.7416070700E-001 +9.5892488956E-002  +1.6760407016E-004 -1.2193805014E-004  -2.9332734994E-004 +4.2779149953E-004  +1.5532791615E+000 -3.1713533401E-001 
5765678.348 +8.7320357561E-001 +9.0453416109E-002  -2.5826232741E-004 -1.3780100562E-004  -1.0693061631E-004 +2.1364789063E-005  +1.5162550211E+000 -3.4782925248E-001 
5890823.529 +8.7906295061E-001 +9.4368048012E-002  -1.0349939112E-004 -2.2581285157E-004  -2.7901452268E-004 -6.1036349507E-005  +1.4686073065E+000 -3.7796235085E-001 
6015968.711 +8.8518249989E-001 +8.3491221070E-002  -1.5502580936E-005 -2.5211603497E-004  -1.7727731029E-004 -2.3449913715E-004  +1.4376506805E+000 -4.0359419584E-001 
6141113.892 +8.9139205217E-001 +9.0994983912E-002  -3.3871423511E-005 -2.7962453896E-004  +1.1775742314E-004 -2.1811222541E-004  +1.3871779442E+000 -4.1563674808E-001 
6266259.074 +8.9341223240E-001 +9.1212108731E-002  -5.3040799685E-004 -2.0406892872E-005  -1.5710663865E-004 +5.8082667238E-005  +1.3473529816E+000 -4.2325514555E-001 
6391404.255 +8.9672684669E-001 +8.0826431513E-002  -8.8958906417E-005 -2.6503008485E-005  -2.2845591593E-004 +1.6050269187E-004  +1.3020808697E+000 -4.4576334953E-001 
6516549.437 +9.0013706684E-001 +8.5511699319E-002  -3.8253470848E-005 +5.0621627452E-005  -1.6070975107E-004 -4.2235960791E-006  +1.2672514915E+000 -4.5637369156E-001 
6641694.618 +9.0591883659E-001 +8.7597548962E-002  +1.3441842748E-004 +1.3136168127E-004  -4.1779741878E-004 -1.1310933041E-004  +1.2396752834E+000 -4.5290115476E-001 
6766839.800 +9.1711771488E-001 +8.9812844992E-002  +3.6666409869E-005 +2.7514609974E-004  +7.9473036749E-005 -1.0916744941E-004  +1.1993638277E+000 -4.6437585354E-001 
6891984.981 +9.1185474396E-001 +8.3082512021E-002  +6.7033433879E-005 -2.8183718678E-004  +6.6536900704E-005 -1.0799976008E-004  +1.1530697346E+000 -4.6053123474E-001 
7017130.163 +9.1594964266E-001 +8.0575689673E-002  -1.1486709991E-004 +7.9466735770E-005  -1.4877578360E-004 +2.0986424352E-004  +1.1295478344E+000 -4.5518437028E-001 
7142275.344 +9.1542243958E-001 +8.7610661983E-002  -8.2003643911E-006 -1.0865764489E-004  -5.1012274344E-004 +2.6233232347E-004  +1.1036885977E+000 -4.4779139757E-001 
7267420.526 +9.2082148790E-001 +8.6431846023E-002  -4.5211327233E-005 +8.6004038167E-005  -1.7610596842E-005 +4.5723159565E-004  +1.0746537447E+000 -4.4771891832E-001 
7392565.707 +9.2196518183E-001 +8.8430091739E-002  -1.3809818483E-004 -1.9771847292E-004  -1.3292918084E-005 +2.0522315754E-004  +1.0432724953E+000 -4.3990844488E-001 
7517710.889 +9.2854666710E-001 +8.8040627539E-002  +7.4081108323E-005 -1.1799353524E-004  -6.0320584453E-005 -5.1825358241E-005  +1.0190473795E+000 -4.3309974670E-001 
7642856.070 +9.2902600765E-001 +8.5644192994E-002  -9.8961972981E-005 -3.3668748074E-005  +1.6161694657E-004 -4.3859632569E-005  +9.8544770479E-001 -4.2981365323E-001 
7768001.252 +9.3355894089E-001 +8.8312201202E-002  +4.0557595639E-005 +1.1339390039E-004  +2.2519726190E-004 +4.5603526814E-005  +9.6402227879E-001 -4.1893601418E-001 
7893146.433 +9.3595182896E-001 +8.6746402085E-002  +1.5118942247E-004 +1.8299160729E-005  +1.8560884928E-004 +7.3412389611E-005  +9.4395256042E-001 -4.0009891987E-001 
8018291.615 +9.3733185530E-001 +8.1521391869E-002  +9.2385795142E-005 -8.6307103629E-005  -2.2213445845E-005 +1.3676079107E-004  +9.2194920778E-001 -3.9009901881E-001 
8143436.796 +9.3737274408E-001 +7.7588692307E-002  -1.2322125258E-004 -1.8366365111E-004  -5.3685434978E-006 -1.8049971550E-004  +9.0663653612E-001 -3.7459439039E-001 
8268581.977 +9.4141387939E-001 +8.0028995872E-002  +1.2478957069E-004 -4.2337076593E-005  +1.8951232778E-004 -2.2919546609E-005  +8.8723069429E-001 -3.6428681016E-001 
8393727.159 +9.4012886286E-001 +7.2966441512E-002  -9.9045944808E-005 -1.0087466217E-004  -5.3694377129E-005 +1.4384296264E-005  +8.7102234364E-001 -3.5165816545E-001 
8518872.340 +9.4875812531E-001 +7.3013722897E-002  -7.9490469943E-005 +7.2872746387E-005  +8.9149536507E-005 -7.7995919128E-006  +8.5130143166E-001 -3.3532679081E-001 
8644017.522 +9.4569677114E-001 +7.6886042953E-002  -3.6483947042E-005 -9.4022267149E-005  +1.4967345123E-005 -1.0383161134E-004  +8.4089630842E-001 -3.2215836644E-001 
8769162.703 +9.5291608572E-001 +7.6485887170E-002  -9.1307454568E-005 -6.0602720623E-005  -5.0343056500E-005 -8.0488563981E-005  +8.2833719254E-001 -3.1028985977E-001 
8894307.885 +9.5031112432E-001 +7.1187764406E-002  +8.1986749137E-005 -2.2490009724E-004  -4.4913431339E-005 +6.7307344580E-005  +8.1009232998E-001 -2.9557979107E-001 
9019453.066 +9.5288223028E-001 +6.9766104221E-002  +3.4307515307E-005 -8.0223653640E-005  +1.8578557501E-005 -1.7651937378E-004  +7.9963755608E-001 -2.8321000934E-001 
9144598.248 +9.5406973362E-001 +6.5853476524E-002  -2.0474039047E-005 +8.8611428509E-005  -1.0426022345E-004 -1.4156468387E-004  +7.8855437040E-001 -2.6534771919E-001 
9269743.429 +9.5774513483E-001 +6.6560119390E-002  -5.3832420235E-005 -2.6475918276E-005  -5.4044641729E-005 +3.4512013372E-006  +7.7792918682E-001 -2.4914081395E-001 
9394888.611 +9.5976287127E-001 +6.8085283041E-002  -3.4598015191E-005 +1.0650238255E-004  -1.1446585995E-004 -1.4998717234E-004  +7.7162718773E-001 -2.3517493904E-001 
9520033.792 +9.5974498987E-001 +6.2649697065E-002  -5.7564990129E-005 -5.6452146964E-005  +3.1402443710E-005 +3.6362947867E-005  +7.6073265076E-001 -2.1797266603E-001 
9645178.974 +9.6296787262E-001 +6.5708696842E-002  -1.1242402979E-004 +1.2677464110E-004  -5.8458157582E-005 +4.0873626858E-005  +7.5369673967E-001 -2.0490470529E-001 
9770324.155 +9.6317857504E-001 +6.2252819538E-002  -5.7142911828E-005 -8.8388071163E-005  -2.1607871531E-005 +8.2630012912E-006  +7.4412786961E-001 -1.8767189980E-001 
9895469.337 +9.6525323391E-001 +6.3551574945E-002  -1.1489991448E-004 -6.7170214606E-005  +1.1028092558E-005 -9.7372954770E-005  +7.3944097757E-001 -1.7142000794E-001 
10020614.518 +9.6588706970E-001 +6.2024742365E-002  -2.2173831894E-005 -6.4580875915E-005  +3.3761472878E-005 -4.4310003432E-005  +7.3661446571E-001 -1.5544578433E-001 
10145759.700 +9.6824032068E-001 +5.9718042612E-002  -6.4523970650E-005 +1.1665184138E-004  +2.0869762011E-005 +7.1120361099E-005  +7.3233443499E-001 -1.4233458042E-001 
10270904.881 +9.6934431791E-001 +5.4894506931E-002  -6.5248736064E-005 -7.1949005360E-005  +4.2002462578E-005 +9.4860370154E-005  +7.3043358326E-001 -1.2605983019E-001 
10396050.063 +9.6953308582E-001 +5.5185794830E-002  -9.4158305728E-005 -1.1962420103E-005  +8.8717300969E-005 +2.1075036784E-005  +7.2671902180E-001 -1.0859969258E-001 
10521195.244 +9.7308206558E-001 +5.5277019739E-002  +2.1552028556E-005 +3.4805838368E-005  -6.3116633100E-005 +3.6927132896E-005  +7.2675943375E-001 -9.4433099031E-002 
10646340.426 +9.7153586149E-001 +5.1661014557E-002  +1.4011321582E-005 +3.7070956751E-005  +2.6294874260E-005 -4.1700928705E-005  +7.2303521633E-001 -7.8948974609E-002 
10771485.607 +9.7191751003E-001 +5.1819175482E-002  -6.2380613599E-006 +4.3901854951E-006  -2.9620494388E-005 +6.8032546551E-005  +7.2219622135E-001 -6.4431637526E-002 
10896630.788 +9.7235810757E-001 +4.9985051155E-002  -8.0618781794E-005 +1.1585651373E-004  +3.5883829696E-005 +3.8533329644E-005  +7.2313380241E-001 -4.9713939428E-002 
11021775.970 +9.7232800722E-001 +4.7933131456E-002  +9.9991273601E-005 +6.4753767219E-006  -5.5311094911E-005 +1.0203535203E-004  +7.2356539965E-001 -3.7355959415E-002 
11146921.151 +9.7243106365E-001 +4.4943660498E-002  +1.5011706637E-005 +6.3910527388E-005  -1.1530230950E-005 -6.5414046730E-006  +7.2569203377E-001 -2.1122217178E-002 
11272066.333 +9.7258651257E-001 +4.4111311436E-002  +9.3179914984E-006 +7.8239274444E-005  +2.1867788746E-005 +7.2242233728E-005  +7.2632706165E-001 -7.9010426998E-003 
11397211.514 +9.7412735224E-001 +4.3488204479E-002  -3.2662203012E-005 +4.7044341045E-005  -8.2666505477E-005 +1.0632085468E-004  +7.2930479050E-001 +6.9902837276E-003 
11522356.696 +9.7482466698E-001 +4.2348235846E-002  +5.8777568483E-005 +6.3182626036E-005  -4.5978827075E-006 -2.0708786906E-005  +7.3365950584E-001 +1.9764482975E-002 
11647501.877 +9.7259902954E-001 +4.0295153856E-002  -3.2890602597E-005 +7.2632565207E-006  +2.2886932129E-005 +3.7400632209E-006  +7.3585659266E-001 +3.3221513033E-002 
11772647.059 +9.7452235222E-001 +3.8574039936E-002  +6.5293628722E-005 +3.0892832001E-005  -2.2374864784E-005 +6.0182261223E-005  +7.4102646112E-001 +4.4851601124E-002 
11897792.240 +9.7373080254E-001 +3.7045270205E-002  -2.1353767806E-005 -1.1263666966E-004  +6.5810752858E-005 -2.6604677259E-005  +7.4543839693E-001 +5.8339118958E-002 
12022937.422 +9.7537875175E-001 +3.7285178900E-002  +1.4928366909E-005 -3.8750258682E-005  +2.4275286705E-006 +5.1820083172E-005  +7.5091063976E-001 +7.0224672556E-002 
12148082.603 +9.7585028410E-001 +3.5129547119E-002  -3.1042880437E-005 +1.3571706404E-005  +5.7680947066E-005 -7.6562901086E-007  +7.5813812017E-001 +8.3720386028E-002 
12273227.785 +9.7531157732E-001 +3.5433679819E-002  +1.2556321963E-005 -2.4988134101E-005  +5.0139999075E-005 +2.7674392186E-005  +7.6489460468E-001 +9.4396591187E-002 
12398372.966 +9.7559124231E-001 +3.3511251211E-002  +4.7442204959E-005 -2.8252121410E-005  +5.2752511692E-007 -3.7986548705E-005  +7.7319896221E-001 +1.0574617982E-001 
12523518.148 +9.7449707985E-001 +3.1998306513E-002  +2.3674943805E-005 +2.8929396649E-005  -2.1101066523E-005 -3.2794720028E-005  +7.7919483185E-001 +1.1546356976E-001 
12648663.329 +9.7503781319E-001 +3.0487880111E-002  +1.4454619304E-005 -1.9534858438E-005  -2.0495313947E-005 +8.4040766524E-006  +7.8811454773E-001 +1.2659864128E-001 
12773808.511 +9.7501862049E-001 +2.9019653797E-002  -6.0020765886E-006 +4.9685706472E-005  +7.6403121057E-006 +3.3083197195E-005  +7.9698014259E-001 +1.3587516546E-001 
12898953.692 +9.7468191385E-001 +2.8252542019E-002  +7.6610713222E-006 -1.3163144104E-005  -1.5772118786E-005 -5.5717915529E-005  +8.0562514067E-001 +1.4487443864E-001 
13024098.874 +9.7425699234E-001 +2.8402715921E-002  +5.3682097132E-006 -3.1983654480E-005  -3.7244943087E-005 +2.7084328394E-005  +8.1561362743E-001 +1.5404593945E-001 
13149244.055 +9.7420263290E-001 +2.7582366019E-002  -2.2557987904E-005 +7.2548650678E-006  -2.5418723453E-005 +2.1124084014E-005  +8.2595205307E-001 +1.6221778095E-001 
13274389.237 +9.7450882196E-001 +2.7201730758E-002  +3.1372779631E-005 +2.6039797376E-005  -4.8336383770E-005 -4.8694328143E-005  +8.3763337135E-001 +1.7012292147E-001 
13399534.418 +9.7369390726E-001 +2.4831969291E-002  +3.0312830859E-005 -3.0018281905E-005  +1.4997030121E-005 +8.3474706116E-006  +8.4686630964E-001 +1.7760944366E-001 
13524679.599 +9.7279298306E-001 +2.4439267814E-002  +6.6208354838E-005 +1.2861686628E-005  -1.2950593373E-005 +2.8902719350E-005  +8.5937881470E-001 +1.8475624919E-001 
13649824.781 +9.7390651703E-001 +2.3032352328E-002  +1.6990383301E-005 +8.2256847236E-006  +7.1234653660E-006 -5.1617630561E-006  +8.7156575918E-001 +1.8836744130E-001 
13774969.962 +9.7272533178E-001 +2.3313984275E-002  +3.0506125768E-005 +3.3824144339E-005  +2.5688768801E-007 -2.8011159884E-005  +8.8262629509E-001 +1.9399477541E-001 
13900115.144 +9.7300547361E-001 +2.2205263376E-002  +7.5826455941E-006 -3.0464127121E-005  +3.8409642002E-005 +8.4885650722E-006  +8.9422547817E-001 +1.9869939983E-001 
14025260.325 +9.7136664391E-001 +2.2067964077E-002  +1.6129260985E-005 +4.4575604988E-005  +1.4020279195E-005 +2.4160277462E-005  +9.0669411421E-001 +2.0171886683E-001 
14150405.507 +9.7175312042E-001 +2.1959841251E-002  -8.7141570475E-006 +5.4434967751E-005  +2.1309151634E-005 +1.2239588614E-005  +9.1830164194E-001 +2.0516528189E-001 
14275550.688 +9.7179466486E-001 +2.0588040352E-002  +6.8952445872E-005 +5.0433016440E-005  +1.8077493223E-005 +3.6573605030E-005  +9.3120920658E-001 +2.0713962615E-001 
14400695.870 +9.7056168318E-001 +1.9598186016E-002  +1.3978070456E-005 +1.6206886357E-005  +6.3681400206E-006 +3.9574915718E-005  +9.4325780869E-001 +2.0838338137E-001 
