!  2-Port S-parameters saved by WinCal
! VAR MeasName=S-Parameters (CALIBRATED_DATA) read from VNA (P5004A)
! VAR MeasDate=22/05/2024 20:05:16
! VAR NAME=Wafer3_r2_c1_thru
! VAR FILENAME=Wafer3_r2_c1_thru.S2P
! VAR DATE=22/05/2024 20:05:55
! VAR PHYS_PORTS=1,2
! VAR ObjTypeName=DATASET
! VAR IndexType=Frequency
!
# Hz S RI R 50
9000.000 +2.0880894363E-001 -5.9976851940E-001  -3.1210270245E-003 -1.4809714630E-003  +9.5896626590E-004 +7.6136150165E-004  +4.5720744878E-002 +1.0290910304E-001 
134145.181 +5.3226459026E-001 -6.2797144055E-002  +1.0103188455E-001 +7.4945345521E-002  +1.2660057843E-001 +4.9943055958E-002  +3.1398418546E-001 +5.2674300969E-002 
259290.363 +6.5639650822E-001 -1.1538492888E-001  +3.7933489680E-001 +9.7157835960E-002  +3.5987472534E-001 +7.1708962321E-002  +2.8623697162E-001 -2.4204139411E-001 
384435.544 +7.5220263004E-001 -1.6544055939E-001  +2.6212382317E-001 -7.3053739965E-002  +2.7119773626E-001 -8.4151640534E-002  +5.6598496437E-001 -4.6815231442E-002 
509580.726 +8.3597719669E-001 -1.6101121902E-002  +2.1122430265E-001 -1.0929618776E-001  +2.2545675933E-001 -1.1121067405E-001  +6.6975778341E-001 +4.2622715235E-002 
634725.907 +1.0221406221E+000 -1.9060462713E-001  +8.0662444234E-002 +8.2530751824E-003  +8.3124212921E-002 +2.8091967106E-003  +9.7230422497E-001 -7.8708499670E-002 
759871.089 +1.3783308268E+000 -1.2052726746E-001  -1.2871378660E-001 +3.3519789577E-002  -1.3055121899E-001 +3.8738392293E-002  +1.3887772560E+000 -1.0709476471E-001 
885016.270 +1.8999319077E+000 -1.0600235462E+000  -2.2729021311E-001 -5.0947833061E-001  -2.2483392060E-001 -5.0965070724E-001  +1.5034370422E+000 +3.1624311209E-001 
1010161.452 +6.9920527935E-001 -3.8797140121E-002  +6.4886301756E-002 -3.8747799397E-001  +7.1043297648E-002 -3.8910675049E-001  +1.0691334009E+000 +7.4954730272E-001 
1135306.633 +4.8243048787E-001 +3.4780427814E-001  +2.4256791174E-001 -4.6497133374E-001  +2.4311190844E-001 -4.8101031780E-001  +8.1544351578E-001 +8.0843615532E-001 
1260451.815 +8.6068320274E-001 +1.0146526992E-001  +3.1321695447E-001 -1.4622402191E-001  +3.1625762582E-001 -1.4947503805E-001  +6.8607920408E-001 +4.3209373951E-001 
1385596.996 +1.0001639128E+000 -2.4159839749E-001  +2.5888893008E-001 +9.0727284551E-002  +2.6257571578E-001 +9.7273096442E-002  +7.1550369263E-001 +3.7852436304E-002 
1510742.178 +9.8980545998E-001 -6.5177446604E-001  +4.8722207546E-001 +3.4086346626E-001  +4.9426597357E-001 +3.4611409903E-001  +3.5868257284E-001 -2.4789026380E-001 
1635887.359 +6.3430011272E-001 -7.4643301964E-001  +4.1006335616E-001 +3.2485067844E-001  +4.0869086981E-001 +3.2626080513E-001  +5.1050138474E-001 -1.3757291436E-001 
1761032.541 +3.1995207071E-001 -2.0814218521E+000  +7.9121518135E-001 +1.1601306200E+000  +7.9957175255E-001 +1.1693433523E+000  +1.4848148823E-001 -6.5860599279E-001 
1886177.722 -1.4985713959E+000 -1.0405795574E+000  +1.9474817514E+000 +4.2171183228E-001  +1.9369063377E+000 +4.2366781831E-001  -5.5621147156E-001 -1.1429846287E-001 
2011322.904 -5.4383999109E-001 +2.5084707141E-001  +1.1381155252E+000 -3.4873822331E-001  +1.1407046318E+000 -3.5229888558E-001  +8.2452319562E-002 +3.5009360313E-001 
2136468.085 -2.6162990928E-001 +2.8169360757E-001  +9.2901730537E-001 -3.4316748381E-001  +9.2637670040E-001 -3.4246012568E-001  +2.4929925799E-001 +3.1114709377E-001 
2261613.267 -3.6013625562E-002 +1.8546634912E-001  +8.0031341314E-001 -2.2317168117E-001  +7.9678922892E-001 -2.2376944125E-001  +3.1130969524E-001 +1.8951165676E-001 
2386758.448 +3.2743692398E-002 +1.5125444531E-001  +7.6097381115E-001 -1.8435636163E-001  +7.5834047794E-001 -1.8145753443E-001  +3.2186719775E-001 +1.5523903072E-001 
2511903.630 +9.7692139447E-002 +1.0170137882E-001  +7.1405792236E-001 -1.0871034861E-001  +7.1295613050E-001 -1.1147072166E-001  +3.5082155466E-001 +9.8291009665E-002 
2637048.811 +1.2475672364E-001 +3.4928906709E-002  +7.1122276783E-001 -5.3578242660E-002  +7.0833438635E-001 -5.4594017565E-002  +3.4483373165E-001 +6.9225303829E-002 
2762193.992 +1.2188830972E-001 +4.1389688849E-002  +7.0522028208E-001 -5.5573046207E-002  +7.0552772284E-001 -5.4800748825E-002  +3.3775323629E-001 +4.9981091172E-002 
2887339.174 +1.3115383685E-001 +2.7521736920E-002  +6.9181931019E-001 -2.7608543634E-002  +6.9213980436E-001 -2.6952356100E-002  +3.2931202650E-001 +3.8016930223E-002 
3012484.355 +1.3665212691E-001 +3.6916580051E-002  +6.9042623043E-001 -4.2569935322E-003  +6.9092506170E-001 -4.8074722290E-003  +3.3696624637E-001 +3.0237779021E-002 
3137629.537 +1.5742886066E-001 +3.5344161093E-002  +6.8956106901E-001 +1.1155933142E-002  +6.8733793497E-001 +1.0218948126E-002  +3.3194699883E-001 +2.5873914361E-002 
3262774.718 +1.7966607213E-001 +4.5600518584E-002  +6.8426549435E-001 +2.3127228022E-002  +6.8282473087E-001 +2.3088455200E-002  +3.2956975698E-001 +1.3940989971E-002 
3387919.900 +1.8452157080E-001 +6.1378318816E-002  +6.8550306559E-001 +3.5816162825E-002  +6.8542128801E-001 +3.4742265940E-002  +3.2736724615E-001 -7.6861083508E-003 
3513065.081 +1.9048228860E-001 +4.1599117219E-002  +7.0586812496E-001 +6.2769174576E-002  +7.0570206642E-001 +6.3129961491E-002  +3.2549068332E-001 -2.6807904243E-002 
3638210.263 +1.9492581487E-001 +2.5141045451E-002  +7.1279305220E-001 +7.8410774469E-002  +7.1359753609E-001 +7.8275501728E-002  +3.2365712523E-001 -1.8185824156E-002 
3763355.444 +2.1097835898E-001 +2.7195550501E-002  +7.2325885296E-001 +8.4849119186E-002  +7.2357535362E-001 +8.4422349930E-002  +3.1525632739E-001 -3.6685138941E-002 
3888500.626 +2.0489987731E-001 +1.8850579858E-002  +7.4965739250E-001 +9.5758795738E-002  +7.5013774633E-001 +9.5010012388E-002  +3.1038227677E-001 -5.2563980222E-002 
4013645.807 +2.0498085022E-001 +2.1604038775E-002  +7.6449924707E-001 +6.8542987108E-002  +7.6037663221E-001 +6.8081974983E-002  +2.8581351042E-001 -2.9889218509E-002 
4138790.989 +1.9449263811E-001 +2.6591815054E-002  +7.8805088997E-001 +3.7979841232E-002  +7.8351736069E-001 +3.7163048983E-002  +2.6243215799E-001 -2.6351124048E-002 
4263936.170 +2.0068034530E-001 +2.2714391351E-002  +7.8602635860E-001 +3.6579102278E-002  +7.8421151638E-001 +3.8961857557E-002  +2.5677120686E-001 -3.2677352428E-002 
4389081.352 +2.0291680098E-001 +2.3756504059E-002  +7.9196000099E-001 +3.1400889158E-002  +7.9379296303E-001 +3.2297044992E-002  +2.4638791382E-001 -3.5090297461E-002 
4514226.533 +1.9804462790E-001 +9.9798068404E-003  +8.0215346813E-001 +3.0284285545E-002  +8.0466228724E-001 +3.1434208155E-002  +2.4789115787E-001 -3.9403960109E-002 
4639371.715 +2.0935207605E-001 +1.2762993574E-002  +8.0264616013E-001 +3.2239854336E-002  +8.0588173866E-001 +3.1264364719E-002  +2.4390272796E-001 -4.5167252421E-002 
4764516.896 +2.0427544415E-001 -5.9597194195E-005  +8.1163930893E-001 +2.8091222048E-002  +8.1379133463E-001 +2.3451864719E-002  +2.2931271791E-001 -5.1569733769E-002 
4889662.078 +2.1129530668E-001 -2.1113231778E-003  +8.1880140305E-001 +2.9059439898E-002  +8.1581032276E-001 +2.7279525995E-002  +2.2809252143E-001 -4.6143390238E-002 
5014807.259 +2.0299854875E-001 -9.7224861383E-003  +8.1755757332E-001 +2.3231655359E-002  +8.1804215908E-001 +3.0127257109E-002  +2.2093930840E-001 -4.6933967620E-002 
5139952.441 +2.1185781062E-001 -1.7567932606E-002  +8.2129889727E-001 +2.8209984303E-002  +8.2102346420E-001 +2.5780707598E-002  +2.2376826406E-001 -4.3045748025E-002 
5265097.622 +2.0742484927E-001 -1.2984842062E-002  +8.2098352909E-001 +2.2451311350E-002  +8.1838297844E-001 +2.4499297142E-002  +2.1837626398E-001 -3.9718143642E-002 
5390242.804 +2.0528355241E-001 -1.2863241136E-002  +8.2223159075E-001 +2.0197093487E-002  +8.2343125343E-001 +2.7053654194E-002  +2.1441861987E-001 -4.5087572187E-002 
5515387.985 +2.1257758141E-001 -1.4990493655E-002  +8.2411527634E-001 +1.9684791565E-002  +8.2373130322E-001 +2.2398501635E-002  +2.0893445611E-001 -4.5990884304E-002 
5640533.166 +2.0840573311E-001 -1.5333630145E-002  +8.2969361544E-001 +1.6240030527E-002  +8.2713210583E-001 +1.9286736846E-002  +2.0448043942E-001 -5.3727447987E-002 
5765678.348 +2.0361632109E-001 -1.5808958560E-002  +8.2703524828E-001 +1.7416507006E-002  +8.2482987642E-001 +1.7283067107E-002  +1.9980433583E-001 -4.9799207598E-002 
5890823.529 +2.0539391041E-001 -1.6835376620E-002  +8.2539498806E-001 +1.3094499707E-002  +8.2349932194E-001 +1.4326706529E-002  +2.0102447271E-001 -4.6900682151E-002 
6015968.711 +2.0610034466E-001 -1.9794486463E-002  +8.2649213076E-001 +1.1409938335E-002  +8.2176852226E-001 +1.1820569634E-002  +1.9649010897E-001 -4.9521218985E-002 
6141113.892 +2.0152293146E-001 -1.9708698615E-002  +8.2498967648E-001 +1.0801970959E-002  +8.2571548223E-001 +1.4396667480E-002  +1.9356471300E-001 -4.5599304140E-002 
6266259.074 +2.0002871752E-001 -1.9462769851E-002  +8.2354533672E-001 +1.0509893298E-002  +8.2466822863E-001 +9.3164741993E-003  +1.9198086858E-001 -4.6076539904E-002 
6391404.255 +2.0152802765E-001 -2.1184165031E-002  +8.2478642464E-001 +6.1362236738E-003  +8.2297503948E-001 +5.5301040411E-003  +1.9215871394E-001 -4.4274214655E-002 
6516549.437 +2.0535367727E-001 -1.9390534610E-002  +8.2249909639E-001 +7.3630511761E-003  +8.2016754150E-001 +6.9136321545E-003  +1.8452140689E-001 -3.8519743830E-002 
6641694.618 +2.0546059310E-001 -1.7211640254E-002  +8.2476705313E-001 +7.7328532934E-003  +8.2591116428E-001 +8.2983672619E-003  +1.8537275493E-001 -3.8080658764E-002 
6766839.800 +2.0429933071E-001 -1.3517901301E-002  +8.2454049587E-001 +8.6717903614E-003  +8.2531875372E-001 +6.0313194990E-003  +1.9075234234E-001 -3.9051726460E-002 
6891984.981 +2.0082306862E-001 -2.5294635445E-002  +8.2227551937E-001 +4.2861104012E-003  +8.2455664873E-001 +2.1920204163E-003  +1.8225863576E-001 -3.7616390735E-002 
7017130.163 +2.0486685634E-001 -2.5435484946E-002  +8.2240635157E-001 +3.7802308798E-003  +8.2322871685E-001 +4.5893639326E-003  +1.8376156688E-001 -3.2695103437E-002 
7142275.344 +1.9943659008E-001 -1.7414370552E-002  +8.2326024771E-001 +3.9709284902E-003  +8.2230055332E-001 +6.7071691155E-003  +1.8391582370E-001 -3.3652346581E-002 
7267420.526 +1.9892193377E-001 -1.7915330827E-002  +8.2269084454E-001 +4.7891885042E-003  +8.2224214077E-001 +3.8417726755E-003  +1.7982177436E-001 -3.2977208495E-002 
7392565.707 +2.0144547522E-001 -2.0421674475E-002  +8.2320088148E-001 +3.6580413580E-003  +8.2508993149E-001 +4.3077655137E-003  +1.7950673401E-001 -3.3210743219E-002 
7517710.889 +1.9816842675E-001 -2.1057894453E-002  +8.2248848677E-001 +5.7477205992E-003  +8.2341140509E-001 +4.3982677162E-003  +1.7948737741E-001 -3.6454081535E-002 
7642856.070 +1.9359950721E-001 -2.4123234674E-002  +8.2149565220E-001 +3.5000257194E-003  +8.2014006376E-001 +4.4817458838E-003  +1.7623448372E-001 -3.3049814403E-002 
7768001.252 +1.9824576378E-001 -2.3932302371E-002  +8.2033079863E-001 +3.0890055932E-003  +8.2225358486E-001 +6.9584441371E-003  +1.7609228194E-001 -2.8561778367E-002 
7893146.433 +1.9782105088E-001 -1.7175428569E-002  +8.1930851936E-001 +2.5817807764E-003  +8.2191437483E-001 +3.4257527441E-003  +1.7622861266E-001 -2.7685135603E-002 
8018291.615 +1.9586043060E-001 -1.6906162724E-002  +8.2031774521E-001 +3.3992286772E-003  +8.2190310955E-001 +6.8230554461E-004  +1.7257572711E-001 -2.5674363598E-002 
8143436.796 +1.9416776299E-001 -1.6630250961E-002  +8.2140493393E-001 +7.8058242798E-004  +8.2070922852E-001 +2.0561628044E-003  +1.7260193825E-001 -2.2721640766E-002 
8268581.977 +1.9259671867E-001 -1.7145782709E-002  +8.2104355097E-001 +1.8515065312E-003  +8.2089149952E-001 +2.2670179605E-003  +1.7265751958E-001 -1.8484057859E-002 
8393727.159 +1.9380724430E-001 -1.6057245433E-002  +8.2043600082E-001 +2.5797560811E-003  +8.2008099556E-001 +2.0822137594E-003  +1.7058742046E-001 -2.0891727880E-002 
8518872.340 +1.9328528643E-001 -1.7086712644E-002  +8.1962156296E-001 +1.0880902410E-003  +8.1982940435E-001 +1.5516504645E-003  +1.7164766788E-001 -2.2168971598E-002 
8644017.522 +1.9117417932E-001 -1.5430135652E-002  +8.1951397657E-001 +2.6221051812E-003  +8.1979179382E-001 +3.0724704266E-003  +1.7496511340E-001 -1.7673455179E-002 
8769162.703 +1.9062849879E-001 -1.9304219633E-002  +8.2013732195E-001 +3.4122765064E-003  +8.1930899620E-001 +1.4245063066E-003  +1.7726626992E-001 -1.7562344670E-002 
8894307.885 +1.8928569555E-001 -2.0019482821E-002  +8.2006490231E-001 +2.0516216755E-003  +8.1934112310E-001 +1.2316554785E-003  +1.7163042724E-001 -2.2761903703E-002 
9019453.066 +1.9049403071E-001 -2.0286496729E-002  +8.1944686174E-001 +1.5667080879E-004  +8.2106858492E-001 +1.0600686073E-003  +1.7063570023E-001 -2.0177789032E-002 
9144598.248 +1.8918365240E-001 -1.9590076059E-002  +8.1926870346E-001 -2.0192563534E-004  +8.2030808926E-001 +1.4123618603E-003  +1.7135171592E-001 -1.7663542181E-002 
9269743.429 +1.8898598850E-001 -1.7690535635E-002  +8.2057213783E-001 +6.8350136280E-004  +8.1883090734E-001 +2.2614300251E-003  +1.7076885700E-001 -1.7223399132E-002 
9394888.611 +1.8802657723E-001 -1.5395946801E-002  +8.1981098652E-001 +1.2410581112E-003  +8.2058835030E-001 +2.0307600498E-003  +1.7110487819E-001 -1.7509531230E-002 
9520033.792 +1.8798032403E-001 -1.6869936138E-002  +8.2109498978E-001 +7.1163475513E-004  +8.1989669800E-001 +4.8443675041E-004  +1.7303246260E-001 -1.5144377947E-002 
9645178.974 +1.8652500212E-001 -1.5412356704E-002  +8.1912076473E-001 +3.0711293221E-004  +8.1971162558E-001 +1.4542937279E-003  +1.7079788446E-001 -1.5633244067E-002 
9770324.155 +1.8888819218E-001 -1.3504058123E-002  +8.1827539206E-001 +1.1626482010E-003  +8.1799679995E-001 +1.1366605759E-003  +1.6907307506E-001 -1.3344358653E-002 
9895469.337 +1.8743580580E-001 -1.0606750846E-002  +8.1831240654E-001 +1.1157095432E-003  +8.1906187534E-001 +2.3075044155E-003  +1.6857960820E-001 -1.2367643416E-002 
10020614.518 +1.8885868788E-001 -1.0738328099E-002  +8.1749224663E-001 +1.1005401611E-003  +8.1841087341E-001 +1.7296373844E-003  +1.7063102126E-001 -1.1363897473E-002 
10145759.700 +1.8647925556E-001 -1.1728249490E-002  +8.1957048178E-001 +8.7276101112E-004  +8.1844508648E-001 +1.6242265701E-003  +1.7075560987E-001 -1.2994229794E-002 
10270904.881 +1.8945439160E-001 -1.0163247585E-002  +8.1890583038E-001 +3.0991435051E-004  +8.1888824701E-001 -7.0297718048E-004  +1.6997516155E-001 -1.1742740870E-002 
10396050.063 +1.8689757586E-001 -8.5153579712E-003  +8.1880587339E-001 +5.4126977921E-004  +8.1890410185E-001 +1.1742115021E-005  +1.7106175423E-001 -1.0893665254E-002 
10521195.244 +1.8863846362E-001 -1.0638736188E-002  +8.1912964582E-001 +4.0566921234E-004  +8.1935262680E-001 +6.8929791451E-004  +1.7111228406E-001 -8.6210519075E-003 
10646340.426 +1.8635843694E-001 -9.9316313863E-003  +8.1949871778E-001 +6.8831443787E-004  +8.1921863556E-001 +1.6223490238E-003  +1.7213182151E-001 -8.5401162505E-003 
10771485.607 +1.8669000268E-001 -9.5766112208E-003  +8.1864213943E-001 +5.7530403137E-004  +8.1861388683E-001 +7.7986717224E-004  +1.7313989997E-001 -8.4425956011E-003 
10896630.788 +1.8675625324E-001 -8.5474252701E-003  +8.1826257706E-001 +1.2971758842E-003  +8.1905573606E-001 +6.8977475166E-004  +1.7094431818E-001 -7.9163238406E-003 
11021775.970 +1.8828457594E-001 -7.2388499975E-003  +8.1838321686E-001 +1.1427998543E-003  +8.1893414259E-001 +1.0681748390E-003  +1.7048683763E-001 -7.6567828655E-003 
11146921.151 +1.8578168750E-001 -9.1163590550E-003  +8.1848323345E-001 +1.6272068024E-004  +8.1911313534E-001 +8.3446502686E-004  +1.7158615589E-001 -5.9129297733E-003 
11272066.333 +1.8637064099E-001 -7.8713223338E-003  +8.1793904305E-001 +3.3453106880E-004  +8.1861847639E-001 +8.2451105118E-004  +1.7207655311E-001 -7.1403607726E-003 
11397211.514 +1.8495002389E-001 -8.1898868084E-003  +8.1844842434E-001 +1.4069676399E-004  +8.1914919615E-001 +6.0153007507E-004  +1.7228408158E-001 -6.4839944243E-003 
11522356.696 +1.8612556159E-001 -6.0350447893E-003  +8.1861984730E-001 +5.5569410324E-004  +8.1958442926E-001 +1.4525055885E-003  +1.7379584908E-001 -5.4561942816E-003 
11647501.877 +1.8740825355E-001 -6.6999420524E-003  +8.1836891174E-001 +7.8517198563E-004  +8.1867921352E-001 +1.7235577106E-003  +1.7241787910E-001 -5.3275451064E-003 
11772647.059 +1.8664377928E-001 -7.5574964285E-003  +8.1881296635E-001 +6.2915682793E-004  +8.1897431612E-001 +2.9143691063E-004  +1.7177182436E-001 -5.0416365266E-003 
11897792.240 +1.8508419394E-001 -6.3260868192E-003  +8.1860697269E-001 -7.0631504059E-005  +8.1871032715E-001 +4.1660666466E-004  +1.7323099077E-001 -5.7743340731E-003 
12022937.422 +1.8660756946E-001 -7.2657093406E-003  +8.1856697798E-001 +5.5551528931E-005  +8.1849229336E-001 +4.9114227295E-004  +1.7406025529E-001 -3.7942305207E-003 
12148082.603 +1.8677148223E-001 -6.1932727695E-003  +8.1798648834E-001 -1.1548399925E-004  +8.1807863712E-001 +1.3256072998E-004  +1.7446002364E-001 -1.7290860415E-003 
12273227.785 +1.8619382381E-001 -6.3848868012E-003  +8.1844890118E-001 +2.7117133141E-004  +8.1851357222E-001 -9.9539756775E-006  +1.7504051328E-001 -2.0670145750E-003 
12398372.966 +1.8589793146E-001 -6.3623040915E-003  +8.1849569082E-001 +4.8041343689E-004  +8.1914043427E-001 +1.9809603691E-004  +1.7647790909E-001 -3.2916218042E-003 
12523518.148 +1.8542306125E-001 -5.0206482410E-003  +8.1832265854E-001 -4.4608116150E-004  +8.1844884157E-001 +4.5859813690E-004  +1.7492613196E-001 -2.4087801576E-003 
12648663.329 +1.8734242022E-001 -3.9937719703E-003  +8.1838691235E-001 -2.5647878647E-004  +8.1815421581E-001 +3.6576390266E-004  +1.7517690361E-001 -2.6416890323E-003 
12773808.511 +1.8626444042E-001 -5.4625459015E-003  +8.1850260496E-001 -2.1490454674E-004  +8.1863409281E-001 -2.4184584618E-004  +1.7477372289E-001 -3.0512101948E-003 
12898953.692 +1.8624725938E-001 -4.7113932669E-003  +8.1862092018E-001 -4.4512748718E-004  +8.1813335419E-001 -4.3252110481E-004  +1.7495864630E-001 -4.5699253678E-003 
13024098.874 +1.8679280579E-001 -4.9752779305E-003  +8.1834650040E-001 +1.0241568089E-004  +8.1897872686E-001 +3.6367774010E-004  +1.7405717075E-001 -3.2608471811E-003 
13149244.055 +1.8693743646E-001 -4.0393173695E-003  +8.1825244427E-001 -2.8371810913E-004  +8.1858098507E-001 +3.6761164665E-005  +1.7572392523E-001 -2.5705955923E-003 
13274389.237 +1.8692412972E-001 -4.0403343737E-003  +8.1782269478E-001 -1.9383430481E-004  +8.1856864691E-001 -1.9700825214E-004  +1.7605398595E-001 -3.2111518085E-003 
13399534.418 +1.8695011735E-001 -2.9430240393E-003  +8.1823331118E-001 -1.5182793140E-004  +8.1844669580E-001 -6.9014728069E-005  +1.7554537952E-001 -3.2856743783E-003 
13524679.599 +1.8634451926E-001 -4.1486900300E-003  +8.1805771589E-001 -3.3884495497E-004  +8.1863653660E-001 -1.4819204807E-004  +1.7623822391E-001 -2.4115033448E-003 
13649824.781 +1.8688161671E-001 -2.3694385309E-003  +8.1774055958E-001 -9.4075873494E-004  +8.1826370955E-001 -6.3399411738E-004  +1.7716018856E-001 -2.2653713822E-003 
13774969.962 +1.8764784932E-001 -2.8051775880E-003  +8.1757980585E-001 -6.9085694849E-004  +8.1844907999E-001 -5.4414849728E-004  +1.7651027441E-001 -3.1010238454E-003 
13900115.144 +1.8713523448E-001 -2.2223433480E-003  +8.1804668903E-001 -6.0068815947E-004  +8.1801539660E-001 -5.7462975383E-004  +1.7645873129E-001 -2.3131491616E-003 
14025260.325 +1.8608127534E-001 -2.9087029397E-003  +8.1795525551E-001 -3.8208067417E-004  +8.1791496277E-001 +2.7905404568E-004  +1.7729134858E-001 -2.5269910693E-003 
14150405.507 +1.8751333654E-001 -2.7343109250E-003  +8.1773304939E-001 -2.8139352798E-004  +8.1816560030E-001 -1.3422966003E-004  +1.7728123069E-001 -1.2499634176E-003 
14275550.688 +1.8744294345E-001 -3.1200796366E-003  +8.1775307655E-001 -6.4909458160E-004  +8.1805819273E-001 -6.4907968044E-004  +1.7749764025E-001 -2.2927857935E-003 
14400695.870 +1.8699568510E-001 -3.2098628581E-003  +8.1757110357E-001 -1.5787780285E-004  +8.1773066521E-001 -7.6951086521E-004  +1.7649129033E-001 -1.4965198934E-003 
