!  2-Port S-parameters saved by WinCal
! VAR NAME=Wafer3_r2_c3_short
! VAR DATE=22/05/2024 20:16:58
! VAR FILENAME=Wafer3_r2_c3_short.S2P
! VAR MeasName=S-Parameters (CALIBRATED_DATA) read from VNA (P5004A)
! VAR MeasDate=22/05/2024 20:15:28
! VAR PHYS_PORTS=1,2
! VAR ObjTypeName=DATASET
! VAR IndexType=Frequency
!
# Hz S RI R 50
9000.000 +2.0720855892E-001 -6.0262471437E-001  -7.7481940389E-003 +1.0507907718E-003  +2.6014414616E-003 -2.1417706739E-004  +4.6317640692E-002 +1.0824760795E-001 
134145.181 +3.8127517700E-001 -9.2147588730E-002  +8.6565036327E-003 -1.6161322594E-002  +1.0763715021E-002 +8.8882986456E-003  +1.8710753322E-001 -2.4590216577E-001 
259290.363 +5.7542729378E-001 +3.2572150230E-002  +2.2841882892E-003 +1.5359615907E-002  -4.8206588253E-003 -5.4973610677E-003  +5.7899397612E-001 -5.6825506687E-001 
384435.544 +5.8912068605E-001 -1.8254938722E-001  -2.5983608793E-003 -1.0120688938E-002  +4.4768238440E-003 +3.9673969150E-003  +4.7969624400E-001 -5.9459602833E-001 
509580.726 +7.0604228973E-001 -2.9093801975E-002  +7.1995817125E-003 -1.5992403030E-002  +3.5284082405E-003 +6.2309857458E-003  +5.9012579918E-001 -5.7643985748E-001 
634725.907 +9.6368235350E-001 -2.0056471229E-001  -3.9361941162E-004 -8.5472987848E-005  -1.1721227784E-003 +3.0641844496E-003  +9.1835123301E-001 -2.4700832367E-001 
759871.089 +1.4578058720E+000 -1.8846291304E-001  -1.3305679895E-003 -2.5385040790E-003  -1.0558250360E-003 -1.7154777888E-003  +1.4582440853E+000 +4.3688237667E-002 
885016.270 +3.2189145088E+000 -3.8498485088E-001  +1.3160482049E-003 +3.5904948600E-003  +4.1741444729E-003 +1.2036488624E-003  +1.4149565697E+000 +4.3771815300E-001 
1010161.452 +7.7966403961E-001 -1.7767872810E+000  +1.2768911198E-002 -7.7458517626E-004  +1.2689404190E-002 +4.4653890654E-003  +1.2082291842E+000 +6.9887524843E-001 
1135306.633 -9.7232085466E-001 -1.2111743689E+000  +1.5040406026E-002 -9.7191194072E-004  +1.5613968484E-002 -6.1831404455E-003  +1.1317236423E+000 +1.1212291718E+000 
1260451.815 +6.5190121531E-002 -3.7915897369E-001  +1.5763705596E-002 -7.2134360671E-003  +3.1794879586E-002 +3.8346247748E-003  +4.0235736966E-001 +7.8929567337E-001 
1385596.996 +1.1054470539E+000 -7.4453866482E-001  +8.5071343929E-003 +2.9886169359E-002  +7.6131643727E-003 +3.0220421031E-002  -1.7165175080E-001 +2.9574736953E-001 
1510742.178 +1.9759805202E+000 -1.2160670757E+000  +1.4394744299E-002 +1.7130766064E-002  +1.4659901150E-002 +1.0188203305E-002  -1.5794946253E-001 +6.5974020958E-001 
1635887.359 +1.1633129120E+000 -1.0514941216E+000  +6.8697202951E-003 +3.5607866943E-002  +4.6241115779E-003 +4.7488190234E-002  -1.4592045546E+000 +1.2338286638E+000 
1761032.541 +2.4992766380E+000 -5.6690561771E-001  -2.7988970280E-002 +2.9298253357E-002  -1.6438243911E-002 +2.9507307336E-002  -5.4175305367E-001 +6.0325574875E-001 
1886177.722 +2.6871447563E+000 +2.9680478573E-001  -2.7633534744E-002 +3.4952398390E-002  -3.4654602408E-002 +3.3227082342E-002  -4.2650121450E-001 +9.5289862156E-001 
2011322.904 +2.2515242100E+000 +1.8079090118E+000  -5.6655466557E-002 -9.7738672048E-003  -6.5408684313E-002 -4.1667949408E-003  -5.9539520741E-001 +9.4613069296E-001 
2136468.085 +1.1694196463E+000 +1.9608811140E+000  -4.0484875441E-002 -1.9241634756E-002  -4.1353046894E-002 -1.9558686763E-002  -4.3035656214E-001 +8.5888743401E-001 
2261613.267 +3.4570205212E-001 +1.7378940582E+000  -1.7743537202E-002 -3.2826494426E-002  -2.1395042539E-002 -3.1045049429E-002  -4.0960854292E-001 +6.8320780993E-001 
2386758.448 +9.6818447113E-002 +1.7236187458E+000  -1.1735117994E-002 -3.4035652876E-002  -1.1815613136E-002 -3.4782998264E-002  -3.8678318262E-001 +5.6811165810E-001 
2511903.630 -2.7197110653E-001 +1.3144928217E+000  +4.4204918668E-003 -3.3223289996E-002  +3.6958483979E-003 -3.2246571034E-002  -4.5109707117E-001 +4.6714681387E-001 
2637048.811 -3.4078478813E-001 +1.1287218332E+000  +6.6622057930E-003 -2.5769289583E-002  +5.3025027737E-003 -2.8074398637E-002  -3.9191734791E-001 +3.7955564260E-001 
2762193.992 -4.1876789927E-001 +8.5931897163E-001  +1.1047493666E-002 -2.2517085075E-002  +1.0160563514E-002 -2.1362723783E-002  -4.2427733541E-001 +2.8933149576E-001 
2887339.174 -5.5212491751E-001 +7.1396678686E-001  +1.2920956127E-002 -2.0455338061E-002  +1.4516660944E-002 -2.0633073524E-002  -4.3570229411E-001 +2.8574854136E-001 
3012484.355 -5.7864075899E-001 +6.8421930075E-001  +1.5317731537E-002 -1.8520757556E-002  +1.5643639490E-002 -1.9286654890E-002  -4.3887096643E-001 +2.3821775615E-001 
3137629.537 -5.9362906218E-001 +6.3532757759E-001  +1.7932575196E-002 -1.6360385343E-002  +1.8320266157E-002 -1.6826789826E-002  -4.3558615446E-001 +1.9063371420E-001 
3262774.718 -5.7747095823E-001 +5.9644854069E-001  +1.9467107952E-002 -1.5524973162E-002  +2.0070469007E-002 -1.5599551611E-002  -4.4173848629E-001 +1.4882956445E-001 
3387919.900 -5.6560975313E-001 +5.1945579052E-001  +2.0186809823E-002 -1.4757661149E-002  +1.9143795595E-002 -1.4738613740E-002  -4.8420289159E-001 +1.2881907821E-001 
3513065.081 -5.8391004801E-001 +4.6141678095E-001  +2.1219119430E-002 -1.3701948337E-002  +2.1309556440E-002 -1.2583269738E-002  -4.9309259653E-001 +9.6054077148E-002 
3638210.263 -5.7675379515E-001 +4.0513586998E-001  +2.1543813869E-002 -1.3079420663E-002  +2.1648185328E-002 -1.1956975795E-002  -5.2544802427E-001 +8.3217233419E-002 
3763355.444 -5.8741545677E-001 +3.7425678968E-001  +2.3594211787E-002 -1.1582198553E-002  +2.2873960435E-002 -1.1328313500E-002  -5.2858191729E-001 +6.8504527211E-002 
3888500.626 -6.2339425087E-001 +3.3285629749E-001  +2.2528905421E-002 -1.0482005775E-002  +2.3439358920E-002 -1.1011552066E-002  -5.5261105299E-001 +7.0697918534E-002 
4013645.807 -5.9930020571E-001 +2.1824656427E-001  +2.6082344353E-002 -6.8526095711E-003  +2.6467125863E-002 -6.8542398512E-003  -5.3999483585E-001 -3.5425089300E-003 
4138790.989 -5.4513579607E-001 +1.2646864355E-001  +2.9858984053E-002 -3.4487964585E-003  +2.8972875327E-002 -3.5796994343E-003  -5.1239699125E-001 -4.7316744924E-002 
4263936.170 -5.5117630959E-001 +1.0490682721E-001  +2.9286293313E-002 -3.7326924503E-003  +2.8890708461E-002 -3.0498057604E-003  -5.1619547606E-001 -5.2294567227E-002 
4389081.352 -5.3829973936E-001 +1.1101290584E-001  +2.9295425862E-002 -2.1037263796E-003  +3.0489152297E-002 -2.5030057877E-003  -5.3196710348E-001 -7.3416009545E-002 
4514226.533 -5.6257867813E-001 +9.7245439887E-002  +3.0045360327E-002 -3.1974241138E-003  +2.9678232968E-002 -2.4335877970E-003  -5.4888355732E-001 -7.5860977173E-002 
4639371.715 -5.4934352636E-001 +8.5263162851E-002  +2.9850538820E-002 -2.9204878956E-003  +3.0493218452E-002 -2.3539848626E-003  -5.6363534927E-001 -8.3332464099E-002 
4764516.896 -5.5761003494E-001 +6.8775519729E-002  +3.0243875459E-002 -2.6413556188E-003  +3.0074823648E-002 -2.4608541280E-003  -5.6318914890E-001 -8.1660345197E-002 
4889662.078 -5.5725425482E-001 +6.3243776560E-002  +3.0678084120E-002 -2.0621428266E-003  +3.0066944659E-002 -1.9699186087E-003  -5.6551414728E-001 -7.8685939312E-002 
5014807.259 -5.5917215347E-001 +6.4072638750E-002  +2.9829071835E-002 -1.8593436107E-003  +3.0374646187E-002 -1.7067752779E-003  -5.6519806385E-001 -8.8051542640E-002 
5139952.441 -5.5860614777E-001 +5.3252726793E-002  +3.0058301985E-002 -2.5567784905E-003  +2.9681589454E-002 -1.9258875400E-003  -5.7538628578E-001 -8.6607664824E-002 
5265097.622 -5.6920480728E-001 +3.7123620510E-002  +3.0103601515E-002 -1.6785804182E-003  +3.0188661069E-002 -1.8451623619E-003  -5.7569253445E-001 -7.1495115757E-002 
5390242.804 -5.7345354557E-001 +2.9134154320E-002  +2.9967259616E-002 -2.0011346787E-003  +3.0051628128E-002 -1.4431187883E-003  -5.8747088909E-001 -6.5960288048E-002 
5515387.985 -5.7512950897E-001 +2.6908785105E-002  +3.0002191663E-002 -1.7864685506E-003  +3.0194068328E-002 -1.6994085163E-003  -5.8945798874E-001 -6.2862694263E-002 
5640533.166 -5.7680892944E-001 +2.2064596415E-002  +3.0284652486E-002 -1.6822367907E-003  +2.9892247170E-002 -1.6805436462E-003  -5.9943825006E-001 -6.4440041780E-002 
5765678.348 -5.6849354506E-001 +2.5931596756E-002  +3.0659999698E-002 -1.7045699060E-003  +2.9827557504E-002 -1.4420673251E-003  -6.0542631149E-001 -6.2780708075E-002 
5890823.529 -5.7046651840E-001 +1.9543975592E-002  +3.0471112579E-002 -1.3216258958E-003  +2.9940702021E-002 -1.2761997059E-003  -6.1003005505E-001 -5.7313680649E-002 
6015968.711 -5.7944613695E-001 +1.6598194838E-002  +3.0149322003E-002 -1.3679498807E-003  +3.0153524131E-002 -1.5783924609E-003  -5.9914207458E-001 -5.5307447910E-002 
6141113.892 -5.7441133261E-001 +2.1341145039E-002  +3.0543733388E-002 -1.5472946689E-003  +3.0187167227E-002 -1.5605567023E-003  -6.1700969934E-001 -6.3352823257E-002 
6266259.074 -5.7466351986E-001 +1.8243968487E-002  +3.0283391476E-002 -9.7145419568E-004  +3.0297800899E-002 -1.3772528619E-003  -6.1828243732E-001 -6.3341826200E-002 
6391404.255 -5.7221019268E-001 +1.5676259995E-002  +3.0535347760E-002 -1.3230415061E-003  +3.0063996091E-002 -9.5610320568E-004  -6.2365293503E-001 -5.3658843040E-002 
6516549.437 -5.7372105122E-001 +1.8478453159E-002  +3.0306849629E-002 -1.0693809018E-003  +3.0069619417E-002 -1.2775389478E-003  -6.1478203535E-001 -5.4067552090E-002 
6641694.618 -5.7394528389E-001 +5.7945698500E-003  +3.0253589153E-002 -1.0618707165E-003  +3.0235767365E-002 -8.4694847465E-004  -6.1955213547E-001 -4.7206789255E-002 
6766839.800 -5.7614809275E-001 +1.2593567371E-003  +3.0084449798E-002 -1.1465074494E-003  +3.0232017860E-002 -8.1486348063E-004  -6.2536215782E-001 -4.2282685637E-002 
6891984.981 -5.7757270336E-001 -2.4399310350E-003  +3.0288361013E-002 -8.0154370517E-004  +3.0616473407E-002 -8.7719690055E-004  -6.2529045343E-001 -4.6946451068E-002 
7017130.163 -5.7358765602E-001 +1.0131016374E-002  +3.0685007572E-002 -8.6080934852E-004  +3.0252255499E-002 -6.6702067852E-004  -6.2349581718E-001 -5.4598063231E-002 
7142275.344 -5.8944302797E-001 +5.4535865784E-003  +3.0289631337E-002 -6.5679568797E-004  +3.0135866255E-002 -7.3070358485E-004  -6.2093150616E-001 -4.6696603298E-002 
7267420.526 -5.7525378466E-001 +3.8578361273E-003  +2.9975593090E-002 -8.8164675981E-004  +3.0041307211E-002 -5.4226536304E-004  -6.3277286291E-001 -5.0591528416E-002 
7392565.707 -5.7558733225E-001 +2.3808777332E-003  +3.0077373609E-002 -7.3209125549E-004  +3.0015487224E-002 -7.3134526610E-004  -6.3613665104E-001 -4.9829244614E-002 
7517710.889 -5.7607150078E-001 +5.8376193047E-003  +3.0156996101E-002 -8.3028152585E-004  +3.0262961984E-002 -8.2801235840E-004  -6.3290411234E-001 -5.5327162147E-002 
7642856.070 -5.7542002201E-001 -3.6184638739E-003  +3.0015930533E-002 -5.9078680351E-004  +3.0213989317E-002 -7.0720817894E-004  -6.3749551773E-001 -4.0316641331E-002 
7768001.252 -5.8364307880E-001 -2.3425072432E-003  +3.0066553503E-002 -8.9878588915E-004  +3.0280936509E-002 -5.8256695047E-004  -6.3490545750E-001 -4.4419139624E-002 
7893146.433 -5.8188855648E-001 -6.9797039032E-004  +3.0125776306E-002 -6.4054271206E-004  +3.0150545761E-002 -6.5962970257E-004  -6.3526666164E-001 -4.2982421815E-002 
8018291.615 -5.8252632618E-001 -1.1114627123E-003  +3.0151015148E-002 -4.7148950398E-004  +3.0311416835E-002 -5.0397543237E-004  -6.3744914532E-001 -3.7447966635E-002 
8143436.796 -5.8019208908E-001 +1.7456710339E-004  +3.0236622319E-002 -6.2734959647E-004  +3.0428521335E-002 -5.4181599990E-004  -6.3998168707E-001 -3.9074905217E-002 
8268581.977 -5.8563053608E-001 -5.6615844369E-003  +2.9994364828E-002 -5.2558910102E-004  +3.0208611861E-002 -4.0618749335E-004  -6.3840919733E-001 -3.2767742872E-002 
8393727.159 -5.8394002914E-001 -3.1975917518E-003  +3.0014339834E-002 -3.4319306724E-004  +3.0121793970E-002 -1.9663944840E-004  -6.3847154379E-001 -3.5581063479E-002 
8518872.340 -5.9065091610E-001 -5.9068575501E-003  +3.0064970255E-002 -2.7505180333E-004  +2.9992539436E-002 -2.8132449370E-004  -6.2740164995E-001 -3.0763957649E-002 
8644017.522 -5.8503776789E-001 -1.0659839958E-002  +3.0060952529E-002 -3.3478494151E-004  +3.0026352033E-002 -5.2666733973E-004  -6.3570904732E-001 -3.2187983394E-002 
8769162.703 -5.8920544386E-001 -1.6227038577E-002  +2.9989682138E-002 -5.5952533148E-004  +3.0220814049E-002 -3.9181514876E-004  -6.3509196043E-001 -3.1993541867E-002 
8894307.885 -5.9169191122E-001 -1.6283199191E-002  +3.0039750040E-002 -2.9078149237E-004  +3.0064182356E-002 -3.1526130624E-004  -6.3836342096E-001 -3.3293269575E-002 
9019453.066 -5.9453964233E-001 -1.4452671632E-002  +3.0060980469E-002 -2.3914675694E-004  +3.0248468742E-002 -2.7363409754E-004  -6.3525849581E-001 -3.4455426037E-002 
9144598.248 -5.9410542250E-001 -1.4311257750E-002  +3.0023511499E-002 -1.4790380374E-004  +3.0056100339E-002 -1.3894191943E-004  -6.4034986496E-001 -3.1796474010E-002 
9269743.429 -5.9154295921E-001 -7.4291564524E-003  +3.0057569966E-002 -1.9565736875E-004  +3.0111745000E-002 -1.1605117470E-004  -6.4205402136E-001 -3.6070272326E-002 
9394888.611 -5.9213846922E-001 -1.6285821795E-002  +2.9926346615E-002 -1.7082132399E-004  +3.0137108639E-002 -1.9546970725E-004  -6.3945329189E-001 -2.5786399841E-002 
9520033.792 -5.9272724390E-001 -1.1768095195E-002  +3.0124841258E-002 -4.5029446483E-005  +3.0053297058E-002 -1.0688928887E-004  -6.4190554619E-001 -2.8752438724E-002 
9645178.974 -5.9861731529E-001 -1.1158838868E-002  +3.0089000240E-002 -1.2185238302E-004  +3.0271781608E-002 +2.5822315365E-005  -6.3679051399E-001 -2.6650138199E-002 
9770324.155 -5.9665650129E-001 -1.4730967581E-002  +3.0133347958E-002 -1.8280372024E-004  +3.0292693526E-002 -2.7939677238E-005  -6.3947981596E-001 -2.5040410459E-002 
9895469.337 -6.0124182701E-001 -5.8602690697E-003  +3.0065510422E-002 -6.9031026214E-005  +3.0130587518E-002 +8.7429769337E-005  -6.3876444101E-001 -3.2336130738E-002 
10020614.518 -5.9640091658E-001 -7.9452991486E-003  +3.0177157372E-002 +1.1552125216E-005  +3.0188769102E-002 +7.0505775511E-005  -6.3870960474E-001 -2.8572931886E-002 
10145759.700 -5.9847873449E-001 -1.1753693223E-002  +3.0109954998E-002 +1.0510347784E-004  +3.0156893656E-002 -2.0202249289E-005  -6.3831245899E-001 -2.3912593722E-002 
10270904.881 -5.9894984961E-001 -1.3171017170E-002  +3.0111430213E-002 +1.4283228666E-004  +3.0002672225E-002 +2.0218547434E-004  -6.3832271099E-001 -2.1413967013E-002 
10396050.063 -5.9963536263E-001 -1.0569736362E-002  +3.0164208263E-002 +2.4644844234E-004  +3.0118782073E-002 +1.2911204249E-004  -6.3493949175E-001 -2.2599026561E-002 
10521195.244 -5.9730941057E-001 -1.8036797643E-002  +3.0031474307E-002 +1.7092190683E-004  +3.0275471509E-002 +2.6482623070E-004  -6.3694834709E-001 -2.0131155849E-002 
10646340.426 -5.9934866428E-001 -1.3067558408E-002  +3.0197309330E-002 +1.5821494162E-004  +3.0138444155E-002 +1.2288894504E-004  -6.3951933384E-001 -2.0539626479E-002 
10771485.607 -5.9748607874E-001 -1.3208299875E-002  +3.0030857772E-002 +2.1572597325E-004  +3.0116587877E-002 +2.2358540446E-004  -6.3764357567E-001 -1.9185945392E-002 
10896630.788 -5.9596979618E-001 -1.1484205723E-002  +3.0227590352E-002 +2.7197226882E-004  +3.0227506533E-002 +2.0104181021E-004  -6.4148831367E-001 -1.9595384598E-002 
11021775.970 -5.9995734692E-001 -9.3593001366E-003  +3.0167978257E-002 +2.0572077483E-004  +3.0186176300E-002 +1.7168559134E-004  -6.3668978214E-001 -2.0721584558E-002 
11146921.151 -6.0145050287E-001 -1.0285228491E-002  +3.0182763934E-002 +4.0458049625E-004  +3.0305793509E-002 +2.2969208658E-004  -6.3820350170E-001 -2.1471291780E-002 
11272066.333 -6.0140717030E-001 -1.1715471745E-002  +3.0209666118E-002 +3.8939621300E-004  +3.0157543719E-002 +4.4738780707E-004  -6.3903605938E-001 -2.0550221205E-002 
11397211.514 -6.0137385130E-001 -1.2264102697E-002  +3.0165068805E-002 +3.6482699215E-004  +3.0158167705E-002 +4.0129199624E-004  -6.3836646080E-001 -2.0237654448E-002 
11522356.696 -5.9997034073E-001 -1.1400848627E-002  +3.0165605247E-002 +4.1313003749E-004  +3.0142705888E-002 +3.5607721657E-004  -6.4010393620E-001 -1.9499003887E-002 
11647501.877 -5.9999239445E-001 -1.2975156307E-002  +3.0159631744E-002 +4.1875056922E-004  +3.0227039009E-002 +4.2327120900E-004  -6.4121907949E-001 -1.8573790789E-002 
11772647.059 -6.0251545906E-001 -1.2506932020E-002  +3.0238516629E-002 +4.9799401313E-004  +3.0263798311E-002 +4.9240607768E-004  -6.3835012913E-001 -1.9432097673E-002 
11897792.240 -6.0363095999E-001 -1.2616187334E-002  +3.0184898525E-002 +4.6264845878E-004  +3.0129935592E-002 +5.1603373140E-004  -6.4034461975E-001 -1.8079221249E-002 
12022937.422 -6.0372680426E-001 -1.2352138758E-002  +3.0163360760E-002 +4.2762048542E-004  +3.0242118984E-002 +5.2956212312E-004  -6.3687622547E-001 -1.6733914614E-002 
12148082.603 -6.0341966152E-001 -1.3200253248E-002  +3.0192311853E-002 +5.3350348026E-004  +3.0241627246E-002 +6.1414297670E-004  -6.3660359383E-001 -1.5267550945E-002 
12273227.785 -6.0546594858E-001 -1.4315664768E-002  +3.0262697488E-002 +6.2912330031E-004  +3.0282400548E-002 +6.2946695834E-004  -6.3592386246E-001 -1.5066146851E-002 
12398372.966 -6.0244214535E-001 -1.2081950903E-002  +3.0212208629E-002 +5.8591738343E-004  +3.0247110873E-002 +6.2800571322E-004  -6.3965952396E-001 -1.6160964966E-002 
12523518.148 -6.0391557217E-001 -1.0636717081E-002  +3.0333247036E-002 +6.4638350159E-004  +3.0338359997E-002 +6.0790870339E-004  -6.3893187046E-001 -1.8434435129E-002 
12648663.329 -6.0512000322E-001 -1.4257520437E-002  +3.0323937535E-002 +6.2777753919E-004  +3.0280705541E-002 +7.0912111551E-004  -6.3959562778E-001 -1.5807241201E-002 
12773808.511 -6.0725080967E-001 -1.2277454138E-002  +3.0342623591E-002 +7.3490012437E-004  +3.0356764793E-002 +7.3241535574E-004  -6.3657236099E-001 -1.7920374870E-002 
12898953.692 -6.0345298052E-001 -1.1841952801E-002  +3.0308894813E-002 +7.2784442455E-004  +3.0336773023E-002 +7.5467862189E-004  -6.4112699032E-001 -1.6576588154E-002 
13024098.874 -6.0700440407E-001 -1.3935491443E-002  +3.0350966379E-002 +7.3219742626E-004  +3.0443983153E-002 +7.1483664215E-004  -6.3722616434E-001 -1.4719605446E-002 
13149244.055 -6.0709589720E-001 -1.2954324484E-002  +3.0332691967E-002 +7.2569213808E-004  +3.0428493395E-002 +7.1978569031E-004  -6.3725537062E-001 -1.3864383101E-002 
13274389.237 -6.0713630915E-001 -1.2630000710E-002  +3.0423803255E-002 +7.4725411832E-004  +3.0425373465E-002 +7.8730192035E-004  -6.3890403509E-001 -1.7191112041E-002 
13399534.418 -6.0759139061E-001 -1.1942058802E-002  +3.0427087098E-002 +7.3125306517E-004  +3.0480269343E-002 +7.8500062227E-004  -6.3824355602E-001 -1.5133351088E-002 
13524679.599 -6.0678374767E-001 -1.4658570290E-002  +3.0378298834E-002 +7.4804481119E-004  +3.0495272949E-002 +7.8379269689E-004  -6.4120411873E-001 -1.2990936637E-002 
13649824.781 -6.0901939869E-001 -1.2239709496E-002  +3.0437432230E-002 +8.4799714386E-004  +3.0499726534E-002 +8.6537096649E-004  -6.3757765293E-001 -1.5558198094E-002 
13774969.962 -6.0919153690E-001 -1.2122489512E-002  +3.0473610386E-002 +8.4400689229E-004  +3.0490167439E-002 +8.1559596583E-004  -6.3929367065E-001 -1.5587925911E-002 
13900115.144 -6.0740965605E-001 -1.2664668262E-002  +3.0458852649E-002 +8.2106562331E-004  +3.0466312543E-002 +7.6820701361E-004  -6.4137166739E-001 -1.4460034668E-002 
14025260.325 -6.0875940323E-001 -1.2378610671E-002  +3.0487816781E-002 +8.1309047528E-004  +3.0517928302E-002 +8.5097341798E-004  -6.4074593782E-001 -1.5445619822E-002 
14150405.507 -6.0952973366E-001 -1.3265099376E-002  +3.0440114439E-002 +8.4032514133E-004  +3.0473444611E-002 +8.2317506894E-004  -6.4075833559E-001 -1.4843154699E-002 
14275550.688 -6.0983306170E-001 -1.2480910867E-002  +3.0480308458E-002 +8.6233078036E-004  +3.0523281544E-002 +8.7028753478E-004  -6.3931465149E-001 -1.4805745333E-002 
14400695.870 -6.0899525881E-001 -1.2330330908E-002  +3.0463911593E-002 +8.7499798974E-004  +3.0520781875E-002 +8.7374600116E-004  -6.4104574919E-001 -1.4674918726E-002 
