!  2-Port S-parameters saved by WinCal
! VAR MeasName=S-Parameters (CALIBRATED_DATA) read from VNA (P5004A)
! VAR MeasDate=22/05/2024 20:13:20
! VAR NAME=Wafer3_r2_c2_opensignal
! VAR FILENAME=Wafer3_r2_c2_opensignal.S2P
! VAR DATE=22/05/2024 20:13:20
! VAR PHYS_PORTS=1,2
! VAR ObjTypeName=DATASET
! VAR IndexType=Frequency
!
# Hz S RI R 50
9000.000 +2.1342213452E-001 -6.0107946396E-001  +4.2248852551E-003 +1.8587058876E-003  -9.6640782431E-005 -9.1127154883E-004  +4.5209962875E-002 +1.0702989250E-001 
134145.181 +6.6154402494E-001 -6.2081515789E-003  -1.7586611211E-002 -1.0954457335E-002  +6.1561060138E-003 -1.6473237425E-002  +8.6916893721E-001 -8.8229119778E-002 
259290.363 +8.7425053120E-001 -1.2396512181E-001  +1.9571150187E-003 +4.1011723806E-004  +3.5263830796E-003 -1.5338319354E-003  +1.0062898397E+000 -1.1094583571E-001 
384435.544 +8.9338570833E-001 -2.7952593565E-001  -1.4046955621E-003 -2.4578231387E-004  -1.0569626465E-003 +6.4144062344E-004  +1.0651233196E+000 -1.6467756033E-001 
509580.726 +9.5508557558E-001 -1.5759325027E-001  +8.4322287876E-005 -2.1089277288E-004  +2.6830882416E-004 -2.0998924447E-004  +1.0458036661E+000 -8.6186230183E-002 
634725.907 +1.0963538885E+000 -2.0640346408E-001  +1.3766422635E-003 -2.1307973657E-004  -7.3148316005E-005 -6.2570394948E-004  +1.1178073883E+000 -6.9841980934E-002 
759871.089 +1.2924672365E+000 -5.7122260332E-002  -2.2899695614E-004 -6.7634118022E-004  -5.8397759858E-005 +5.8729678858E-004  +1.1764194965E+000 +6.1654746532E-003 
885016.270 +1.1517571211E+000 -9.2131948471E-001  +2.1009384654E-003 -2.0151867066E-003  +1.4417516068E-003 +1.6184608685E-003  +1.3465809822E+000 +3.7129461765E-002 
1010161.452 +1.1362694502E+000 -1.2215128541E-001  +3.4303292632E-003 +2.4889525957E-003  -2.6608631015E-003 +4.4635129161E-003  +6.5038037300E-001 -9.1719716787E-002 
1135306.633 +1.1061899662E+000 -1.0998752713E-001  -6.3243508339E-004 -1.2572610285E-003  -7.6641840860E-004 +9.3759398442E-004  +9.0860325098E-001 +5.4022967815E-002 
1260451.815 +1.4099426270E+000 -3.6513924599E-002  +3.7091114791E-004 +1.3032036368E-003  +9.0270361397E-004 +1.0303586023E-003  +1.0393857956E+000 +1.2826466560E-001 
1385596.996 +1.3166048527E+000 -1.3263154030E-001  -8.2445709268E-004 +1.7068885791E-004  -3.3439259278E-004 +8.4046844859E-004  +1.1230723858E+000 +1.0445058346E-001 
1510742.178 +1.4833624363E+000 -2.4582573771E-001  +1.4291532570E-003 +1.3694147347E-003  +8.8235328440E-004 +1.0867395904E-003  +1.3008877039E+000 +1.3504835963E-001 
1635887.359 +9.9434727430E-001 -3.7057399750E-001  +1.4253446716E-004 +4.0505954530E-004  -1.7902597319E-003 -4.0776681271E-004  +1.0866751671E+000 -1.5756815672E-001 
1761032.541 +1.0530598164E+000 -4.0745335817E-001  -1.4019888476E-004 -6.4947659848E-004  -6.8349334470E-005 +1.4024575648E-004  +1.0273938179E+000 -1.6352961957E-001 
1886177.722 +9.8362892866E-001 -2.6624396443E-001  +1.4252164692E-004 +4.5791018056E-004  -8.8970398065E-004 -6.0172262602E-004  +1.0350456238E+000 -6.9754898548E-002 
2011322.904 +9.8114711046E-001 -1.8803551793E-001  -8.2744976680E-005 -1.4719272440E-004  -5.2408198826E-004 +1.9013528072E-004  +1.0130259991E+000 -3.1840980053E-002 
2136468.085 +9.9321913719E-001 -1.6000708938E-001  -1.5646411339E-004 -4.7754868865E-004  -3.9167952491E-004 -1.0775554983E-004  +1.0127573013E+000 -5.9642195702E-003 
2261613.267 +9.8821306229E-001 -1.4531752467E-001  -1.9748951308E-004 +3.9687502431E-004  +2.9898594948E-004 +3.3809035085E-004  +1.0194261074E+000 +1.8786489964E-003 
2386758.448 +9.8342895508E-001 -1.1641502380E-001  -6.2611937756E-004 +5.1661289763E-004  -5.3758203285E-004 -1.8409133190E-005  +1.0140376091E+000 +2.4079531431E-002 
2511903.630 +9.8129707575E-001 -7.9926192760E-002  -4.1204402805E-004 -4.7407505917E-004  +4.5928233885E-004 -1.5230843564E-004  +1.0089147091E+000 +3.4896552563E-002 
2637048.811 +9.8652964830E-001 -7.8802704811E-002  -1.2907751079E-004 +1.1823351088E-004  -4.8169097863E-004 -9.2070535175E-005  +1.0078350306E+000 +4.9858629704E-002 
2762193.992 +9.9694222212E-001 -6.5720140934E-002  +2.5211210595E-004 +3.6053347867E-004  +2.6611684007E-004 +1.0717644727E-005  +1.0099588633E+000 +7.1952179074E-002 
2887339.174 +9.6536552906E-001 -6.5755248070E-002  +1.6240523109E-005 -5.3920655773E-005  -1.8706802803E-004 -2.9240624281E-004  +1.0188007355E+000 +9.1794587672E-002 
3012484.355 +9.6304088831E-001 -5.4332889616E-002  +9.0596720111E-004 +4.5982014854E-004  +1.1561947758E-004 +5.2329257596E-004  +1.0221412182E+000 +1.1502356827E-001 
3137629.537 +9.5781332254E-001 -1.3015836477E-002  +5.8162189089E-004 +6.8177345383E-005  -1.7694621056E-004 +9.1457026429E-005  +1.0317478180E+000 +1.2199746072E-001 
3262774.718 +9.5700651407E-001 +1.3057161123E-002  +3.5429638228E-004 +9.0807341621E-005  -2.2694244399E-004 -1.4559083502E-004  +1.0407381058E+000 +1.4224398136E-001 
3387919.900 +9.4370192289E-001 +4.9543134868E-002  +2.6260534651E-004 -1.1429064762E-004  +4.6256746282E-004 -1.8927079509E-005  +1.0378152132E+000 +1.5488152206E-001 
3513065.081 +9.5699477196E-001 +7.0822104812E-002  +1.8067821657E-005 +2.5216899303E-005  -8.2503422163E-005 +3.3538113348E-004  +1.0562993288E+000 +1.8168014288E-001 
3638210.263 +9.7188740969E-001 +1.1091949046E-001  +2.5906579685E-004 -2.0702171605E-004  +1.1747824465E-004 -2.6127083402E-005  +1.0864707232E+000 +1.7032118142E-001 
3763355.444 +9.8927211761E-001 +1.2342444062E-001  +7.6240023191E-005 +2.7999212034E-004  -3.5442551598E-004 +9.0086265118E-005  +1.1048382521E+000 +1.6659860313E-001 
3888500.626 +9.9836677313E-001 +1.5824465454E-001  -1.7870128795E-004 -7.8419325291E-006  +4.0531315608E-004 +6.3481228426E-004  +1.1410318613E+000 +1.8955329061E-001 
4013645.807 +9.6869152784E-001 +7.5320631266E-002  -9.1232141131E-005 +2.2804689070E-004  +5.9241046984E-005 +4.5876728109E-005  +1.0865762234E+000 +7.2760082781E-002 
4138790.989 +8.9813262224E-001 +1.1086687446E-002  +2.8399060830E-004 -8.3853519754E-005  -3.5998647218E-004 -6.0886575375E-004  +1.0033800602E+000 -1.1372741312E-002 
4263936.170 +9.0676939487E-001 +1.6875227913E-002  +1.7326438683E-004 +2.6603945298E-004  +2.7991927345E-004 +6.4276391640E-005  +1.0044640303E+000 -1.6438130289E-002 
4389081.352 +9.1468507051E-001 +9.9142491817E-003  -1.3300163846E-004 -1.1631236703E-004  -5.7467486477E-004 +2.2590035223E-004  +9.9741667509E-001 -2.7337532490E-002 
4514226.533 +9.2076408863E-001 +1.2396654114E-002  -1.2278639770E-004 +1.5011838696E-004  +8.6670770543E-004 -4.1097108624E-004  +1.0001310110E+000 -2.9020240530E-002 
4639371.715 +9.3788486719E-001 +9.0830717236E-003  +1.1409564468E-004 +2.3664500623E-004  +2.3806218815E-004 -4.2188345105E-004  +1.0095278025E+000 -1.6820043325E-002 
4764516.896 +9.3927961588E-001 +1.2783735059E-002  +2.9105730937E-004 -3.5722553730E-004  +7.6502095908E-005 -2.4844255677E-005  +1.0018011332E+000 -3.2750211656E-002 
4889662.078 +9.4268554449E-001 +2.1205903962E-002  -3.5324113560E-004 +1.0622736590E-004  +6.9549576438E-005 -4.6890595695E-004  +1.0153238773E+000 -2.4673234671E-002 
5014807.259 +9.4117468596E-001 +1.1738974601E-002  +4.3812507647E-004 +8.9953784482E-005  -1.5571016411E-004 +2.9174864176E-004  +9.9851775169E-001 -2.0444866270E-002 
5139952.441 +9.5515680313E-001 +1.1430842802E-002  +6.9033558248E-005 -1.7005532573E-004  -1.8496243865E-004 +3.0901128775E-004  +1.0060886145E+000 -3.0071951449E-002 
5265097.622 +9.6508115530E-001 +2.6437144727E-002  +3.1401464366E-004 -1.0833627312E-004  +4.9978320021E-004 +2.0998199761E-004  +1.0021381378E+000 -2.7395516634E-002 
5390242.804 +9.6970266104E-001 +2.3685883731E-002  +1.1505164002E-004 -1.7971728812E-004  +4.0475260903E-005 -8.1720165326E-005  +9.8989647627E-001 -3.2551966608E-002 
5515387.985 +9.7603207827E-001 +1.3165675104E-002  +3.3329581493E-004 -2.5269188336E-004  -1.8364145944E-004 -6.0978127294E-006  +9.9965375662E-001 -3.6570303142E-002 
5640533.166 +9.7825592756E-001 +1.6702204943E-002  -2.8841791209E-004 +4.2373724864E-004  +9.4122355222E-005 +3.6893342622E-004  +9.9893391132E-001 -2.9616795480E-002 
5765678.348 +9.7706997395E-001 +1.7699882388E-002  +2.6490160963E-004 +1.7516704975E-004  -8.0816542322E-005 -2.3192628578E-004  +9.9490576982E-001 -3.3307537436E-002 
5890823.529 +9.7944414616E-001 +1.1862419546E-002  -9.2939386377E-005 -2.3128069006E-004  -2.7526013582E-005 +5.5648910347E-004  +9.8982977867E-001 -3.8351863623E-002 
6015968.711 +9.7976022959E-001 +7.6422616839E-003  +3.2124720747E-004 +3.7581403740E-004  +7.6399592217E-005 +2.3881004017E-004  +9.9645406008E-001 -3.0417546630E-002 
6141113.892 +9.7999536991E-001 +1.1853195727E-002  -1.4282606571E-005 +8.3904677012E-005  -1.3272941578E-004 +2.1984240448E-005  +9.8937994242E-001 -2.6839405298E-002 
6266259.074 +9.8314648867E-001 +4.2727813125E-003  -1.2732925825E-004 +5.7705532527E-005  -1.6140732623E-004 +5.1408002037E-005  +9.8613107204E-001 -3.6264926195E-002 
6391404.255 +9.8445099592E-001 -1.0243654251E-003  +1.8008264306E-005 -2.5495127193E-004  +1.3095805480E-004 -2.3187993793E-004  +9.8691511154E-001 -3.5623989999E-002 
6516549.437 +9.8232704401E-001 +3.4425407648E-004  -2.6708330552E-006 +3.0399335083E-004  +2.1067763737E-004 -6.8604371336E-005  +9.8628848791E-001 -3.2181598246E-002 
6641694.618 +9.9097675085E-001 +6.4205080271E-003  -1.1455078493E-004 -4.9981927077E-006  +4.2467552703E-005 -9.8278047517E-005  +9.8562365770E-001 -3.0432805419E-002 
6766839.800 +9.9984580278E-001 -1.5167891979E-004  +7.7780307038E-005 +6.5181127866E-005  +1.5408433683E-004 +4.1410818085E-005  +9.8719334602E-001 -3.3523231745E-002 
6891984.981 +9.9120771885E-001 -4.7285556793E-003  -4.2115917313E-004 -3.0871182389E-005  -1.5649238776E-004 +1.2149829126E-004  +9.7126901150E-001 -3.4746408463E-002 
7017130.163 +9.9322134256E-001 -2.7030408382E-003  -5.5744330894E-005 -2.9747278313E-004  +8.9580367785E-005 +3.2592850039E-004  +9.7728085518E-001 -2.8552576900E-002 
7142275.344 +9.9328261614E-001 -1.4113932848E-003  +1.3075846073E-004 +2.8798528365E-004  +1.3873932767E-004 +3.0500718276E-004  +9.7903752327E-001 -2.2802039981E-002 
7267420.526 +9.8890650272E-001 +2.6028752327E-003  +1.5551150136E-004 -6.7434102675E-006  +3.3587505459E-004 +2.2473183344E-004  +9.7885864973E-001 -2.5166645646E-002 
7392565.707 +9.9235194921E-001 +3.2892078161E-003  +1.9059420447E-004 -1.9056526071E-004  -2.8482072594E-005 -8.1184925875E-006  +9.8118656874E-001 -2.6690259576E-002 
7517710.889 +9.9849784374E-001 +2.6405602694E-003  +7.9371973698E-005 -1.4242763427E-005  -4.7403183999E-005 -1.0587897850E-004  +9.7599124908E-001 -2.9329016805E-002 
7642856.070 +9.9103605747E-001 +6.1855167150E-003  +4.4029398850E-005 -5.9623507696E-005  -9.7047359304E-006 -1.1850761075E-004  +9.7059810162E-001 -3.2144919038E-002 
7768001.252 +9.9846678972E-001 +3.7949681282E-003  -2.0384254458E-004 -4.2044375732E-006  +1.4459023078E-004 -2.8623664548E-005  +9.7038704157E-001 -2.9513329268E-002 
7893146.433 +1.0002170801E+000 +5.2044093609E-003  +5.6226650486E-005 +2.2423283372E-004  -6.5965839894E-005 -2.0067805963E-005  +9.7074478865E-001 -2.5167852640E-002 
8018291.615 +9.9436932802E-001 +4.3169409037E-003  -3.3192551200E-005 -1.6020878684E-004  +1.5273531608E-004 +3.5246655898E-005  +9.6790111065E-001 -2.4517849088E-002 
8143436.796 +9.8944944143E-001 -9.3413889408E-004  -2.2062724838E-006 -5.5271270867E-006  +6.9592788350E-005 -1.0354467668E-004  +9.7071409225E-001 -2.0495787263E-002 
8268581.977 +9.9178868532E-001 +3.0800104141E-003  -1.4748471585E-005 -1.4075549552E-004  -1.9954802701E-004 -2.7338456130E-004  +9.7213882208E-001 -1.5994548798E-002 
8393727.159 +9.9461936951E-001 +9.8705291748E-005  +5.3800857131E-005 -1.4335218293E-004  -1.9895825972E-005 -5.3712356021E-006  +9.7085249424E-001 -1.3281136751E-002 
8518872.340 +9.9393963814E-001 -1.8647015095E-003  -1.0601695976E-004 -4.9847876653E-005  +7.2169626947E-005 +7.4328418123E-005  +9.7499471903E-001 -1.0517805815E-002 
8644017.522 +9.9364447594E-001 -1.0704100132E-003  -9.6041432698E-005 +9.6157036751E-006  -1.0247806495E-004 -9.2678790679E-005  +9.7412532568E-001 -9.9600553513E-003 
8769162.703 +9.9514895678E-001 -1.8799602985E-003  -7.9682271462E-005 -1.9022012566E-005  +3.1091865822E-005 +3.0219745895E-005  +9.7683721781E-001 -1.1412918568E-002 
8894307.885 +9.9436938763E-001 -4.2121410370E-003  -5.7115088566E-005 -5.8068049839E-005  -8.6583342636E-005 -5.1868206356E-005  +9.7422760725E-001 -1.4864206314E-002 
9019453.066 +9.9040353298E-001 -4.8724710941E-003  +9.2195368779E-006 +5.5217467889E-005  -1.2953041005E-004 -1.8537367578E-004  +9.7422933578E-001 -1.4779061079E-002 
9144598.248 +9.9169224501E-001 -4.8334300518E-003  -2.3410095309E-005 -1.1530284974E-004  -5.3207837482E-005 +8.4454168245E-006  +9.7476553917E-001 -8.6669325829E-003 
9269743.429 +9.9157303572E-001 -4.2212903500E-003  +5.0508559070E-005 +1.1973439541E-004  +7.3529154179E-005 -6.0451682657E-005  +9.7761082649E-001 -5.9393346310E-003 
9394888.611 +9.9323534966E-001 +3.4693479538E-003  -2.0377461624E-005 -2.5310300407E-004  -5.5362452258E-005 -3.6296696635E-006  +9.7532665730E-001 -7.2421133518E-003 
9520033.792 +9.9441218376E-001 +2.3517012596E-004  -1.3881083578E-004 -8.5114879766E-007  -5.0463302614E-005 -1.2819981202E-004  +9.7429299355E-001 -4.7325193882E-003 
9645178.974 +9.9326425791E-001 +9.2682242393E-004  +6.2554914621E-005 -3.7711070036E-006  -1.2106166105E-004 -8.6663458205E-005  +9.7477769852E-001 -3.5117864609E-003 
9770324.155 +9.9394440651E-001 +1.7036199570E-003  -5.4394622566E-005 -1.2588468962E-004  -1.9217270165E-005 -7.8610304627E-005  +9.7419285774E-001 -5.4597854614E-005 
9895469.337 +9.9411636591E-001 +5.0042867661E-003  +4.7976063797E-005 +9.8855205579E-005  -2.3235901608E-005 -2.6373574656E-005  +9.7339940071E-001 -1.5354156494E-003 
10020614.518 +9.9293887615E-001 +3.9693117142E-003  +5.7555425883E-006 +4.0192127926E-005  -4.1218765546E-005 -9.6433330327E-005  +9.7497659922E-001 +5.8966875076E-004 
10145759.700 +9.9497115612E-001 +1.9104480743E-003  -7.9571371316E-005 +2.0878731448E-005  -1.6403466361E-005 +3.2381762139E-005  +9.7538578510E-001 -3.0830204487E-003 
10270904.881 +9.9639046192E-001 +4.8616528511E-004  +8.6843865574E-006 -8.3597020421E-005  +5.1726889069E-005 +6.4057574491E-005  +9.7812044621E-001 -9.4994902611E-004 
10396050.063 +9.9385309219E-001 +1.6893446445E-003  -5.9561822127E-005 +5.0273585657E-005  -4.5365544793E-005 +1.1492220438E-005  +9.7563827038E-001 -3.6033987999E-004 
10521195.244 +9.9455881119E-001 +1.6159415245E-003  +1.1844082110E-005 -3.0568196962E-005  -6.6104659345E-004 -1.4088952448E-003  +9.7714364529E-001 +4.2799115181E-004 
10646340.426 +9.9426150322E-001 +1.3893544674E-003  +1.6695063096E-005 +8.5903695435E-005  -8.6593718152E-005 +6.5034357249E-005  +9.7638219595E-001 +2.6972591877E-003 
10771485.607 +9.9341899157E-001 +2.5775730610E-003  -8.5222753114E-005 +7.1015929279E-006  +5.4466596339E-005 -3.6717821786E-005  +9.7741639614E-001 +2.4335682392E-003 
10896630.788 +9.9501943588E-001 +3.9263963699E-003  -7.2870818258E-005 +6.9093788625E-005  +3.9633352571E-005 -2.7879494155E-005  +9.7935098410E-001 +3.7788450718E-003 
11021775.970 +9.9252247810E-001 +3.0347406864E-003  -6.8093468144E-005 +3.1918476452E-005  -6.6566295573E-005 +3.4622084058E-005  +9.7891747952E-001 +3.6563873291E-003 
11146921.151 +9.9199390411E-001 +7.0226192474E-004  -1.2041209629E-005 -1.7737900635E-005  +4.7410285333E-005 +6.3461324316E-005  +9.8017030954E-001 +3.7066936493E-003 
11272066.333 +9.9251544476E-001 +5.4350495338E-004  -7.7675540524E-006 +3.9242419007E-005  -6.1347796873E-005 +6.0688867961E-005  +9.7773945332E-001 +3.3394098282E-003 
11397211.514 +9.9325901270E-001 +2.6098191738E-003  -5.8223180531E-005 +9.0100736998E-005  -3.9855054638E-005 -4.0183222154E-005  +9.8035562038E-001 +4.3321847916E-003 
11522356.696 +9.9422895908E-001 +2.1890699863E-003  -3.2895430195E-005 +8.4508401414E-006  -5.8647587139E-005 +2.9095324862E-005  +9.8047220707E-001 +3.5942196846E-003 
11647501.877 +9.9105113745E-001 +1.9878447056E-003  +3.1165687687E-005 -2.2667736630E-005  +1.4603785530E-005 -2.9329936297E-005  +9.8010611534E-001 +5.0813853741E-003 
11772647.059 +9.9422454834E-001 +4.0122866631E-003  -9.8985483419E-006 +2.4869710614E-005  +1.0065435345E-004 -3.6110453948E-005  +9.8039126396E-001 +5.1170587540E-003 
11897792.240 +9.9276608229E-001 +2.0093917847E-003  +3.1630061130E-005 +2.5231029213E-006  +1.4570914573E-006 +2.2632106266E-005  +9.8231226206E-001 +4.9756765366E-003 
12022937.422 +9.9525922537E-001 +3.9093792439E-003  -7.3622959462E-006 -3.2694515539E-005  -3.1080959161E-005 +1.3080775716E-005  +9.8121976852E-001 +4.2481720448E-003 
12148082.603 +9.9559950829E-001 +4.2655169964E-003  +1.0288849808E-005 +4.0319930122E-005  -1.8142658519E-005 +2.9051081583E-005  +9.8322415352E-001 +6.8056881428E-003 
12273227.785 +9.9532508850E-001 +5.6501030922E-003  -6.9691617682E-005 -1.7019701772E-005  +3.1040504837E-005 +2.8145470424E-005  +9.8282241821E-001 +3.9176344872E-003 
12398372.966 +9.9451851845E-001 +4.4119954109E-003  -9.5471559689E-006 +2.9952670957E-006  -1.6280782802E-005 +2.3045926355E-005  +9.8347496986E-001 +4.0735900402E-003 
12523518.148 +9.9442356825E-001 +4.7329366207E-003  -3.1460218452E-005 +2.9609796911E-005  +5.7977035794E-006 +2.5167115382E-005  +9.8327332735E-001 +5.2385032177E-003 
12648663.329 +9.9459046125E-001 +6.6345483065E-003  -7.8201755969E-006 +2.8742071663E-005  -3.8350350223E-005 -2.0715115170E-006  +9.8352676630E-001 +4.8884451389E-003 
12773808.511 +9.9457532167E-001 +4.4104605913E-003  -1.0587571524E-005 +4.3743239075E-005  +2.2479634936E-006 +6.8302935688E-005  +9.8440486193E-001 +5.5279582739E-003 
12898953.692 +9.9534732103E-001 +4.9165561795E-003  +1.6757148842E-005 +6.1011705839E-006  +1.5167104721E-005 -1.8616561647E-005  +9.8442643881E-001 +5.5284500122E-003 
13024098.874 +9.9605566263E-001 +5.3728595376E-003  -1.0340292647E-005 +2.9232960514E-005  +1.6839905584E-005 +3.4756914829E-005  +9.8483073711E-001 +7.1277469397E-003 
13149244.055 +9.9509835243E-001 +5.8097951114E-003  +3.8928269532E-006 +5.5925127526E-005  -1.0507505067E-005 +5.7142882724E-005  +9.8540729284E-001 +7.2614718229E-003 
13274389.237 +9.9505937099E-001 +4.6852510422E-003  -6.8884828579E-006 +6.1738050135E-005  +9.1728052212E-006 +6.8308458140E-005  +9.8662239313E-001 +7.7167730778E-003 
13399534.418 +9.9532401562E-001 +5.2779614925E-003  +2.6610307032E-005 +6.5783133323E-005  +1.1456850189E-005 +1.3601013961E-005  +9.8590719700E-001 +7.5231567025E-003 
13524679.599 +9.9482494593E-001 +6.9352388382E-003  +2.1614865545E-005 +6.3477877120E-005  -4.5033284550E-005 +1.0911637219E-005  +9.8656511307E-001 +7.8072622418E-003 
13649824.781 +9.9621963501E-001 +5.3216814995E-003  -1.4143492081E-005 +8.4276158304E-005  -6.7480257712E-005 +3.6165627535E-005  +9.8729544878E-001 +7.4601918459E-003 
13774969.962 +9.9555927515E-001 +5.6845992804E-003  +1.5780195099E-005 +6.3686551584E-005  +1.1327760149E-005 +1.8356911824E-005  +9.8681408167E-001 +6.9738328457E-003 
13900115.144 +9.9584263563E-001 +4.9506127834E-003  +1.2940454326E-005 +5.9393049014E-005  -2.1500041839E-005 +8.7140833784E-005  +9.8676425219E-001 +7.2333216667E-003 
14025260.325 +9.9441480637E-001 +5.8714747429E-003  +1.7226375348E-005 +1.0615347492E-005  -8.7729722509E-006 +2.7641650377E-005  +9.8712682724E-001 +7.5916945934E-003 
14150405.507 +9.9492484331E-001 +7.4720382690E-003  +4.2501033022E-005 +5.4459749663E-005  +2.9477556382E-005 +3.7186175177E-005  +9.8771142960E-001 +7.6301097870E-003 
14275550.688 +9.9561411142E-001 +6.0008764267E-003  +3.3901200368E-005 +2.3575252271E-005  -5.6428922107E-005 +7.9479395936E-005  +9.8819088936E-001 +7.2718262672E-003 
14400695.870 +9.9487197399E-001 +4.6889185905E-003  +1.1577405530E-005 +3.4261116525E-005  +5.1636816352E-005 +3.4197895729E-005  +9.8760551214E-001 +7.7803134918E-003 
