!  2-Port S-parameters saved by WinCal
! VAR MeasName=S-Parameters (CALIBRATED_DATA) read from VNA (P5004A)
! VAR MeasDate=22/05/2024 20:36:47
! VAR NAME=Wafer3_r2_c4_pristine 4
! VAR FILENAME=Wafer3_r2_c4_pristine 4.S2P
! VAR DATE=22/05/2024 20:36:47
! VAR PHYS_PORTS=1,2
! VAR ObjTypeName=DATASET
! VAR IndexType=Frequency
!
# Hz S RI R 50
9000.000 +2.0710623264E-001 -6.0033106804E-001  -4.3133664876E-003 -6.3672685064E-004  +2.6150501799E-004 +3.7532550050E-004  +3.7102345377E-002 +1.0776911676E-001 
134145.181 +6.1383628845E-001 +2.6681005955E-002  -8.5496166721E-003 +9.7949635237E-003  +9.3408823013E-003 -1.2888487428E-002  +5.9012544155E-001 -1.1293232441E-001 
259290.363 +8.5117357969E-001 -9.2936322093E-002  -6.8896706216E-003 +2.5684891734E-003  +5.9495889582E-003 +3.5347314551E-003  +9.8632097244E-001 -1.1335077137E-001 
384435.544 +8.9549511671E-001 -2.8001970053E-001  +2.5833645486E-004 -2.7268682607E-003  -1.8303018296E-003 +1.8834907678E-004  +1.0583233833E+000 -1.9366864860E-001 
509580.726 +9.5957207680E-001 -1.5904110670E-001  +2.5154123432E-004 -4.7310692025E-004  +1.9406070933E-003 -1.1892539915E-003  +1.0376420021E+000 -9.3987941742E-002 
634725.907 +1.0939992666E+000 -2.0762094855E-001  +5.7894352358E-004 -2.8959490010E-004  +3.8197348476E-004 -3.6111354711E-004  +1.1203581095E+000 -8.6364328861E-002 
759871.089 +1.3043941259E+000 -6.7955553532E-002  -2.1753918554E-004 +1.9571227313E-005  -2.1092570387E-004 +5.7467207080E-004  +1.2106786966E+000 +1.3625502586E-002 
885016.270 +1.2918703556E+000 -1.2276418209E+000  -3.0789291486E-004 +6.9068744779E-003  +4.3001612648E-003 +5.5809980258E-003  +1.3700714111E+000 +6.9513380527E-002 
1010161.452 +1.0613619089E+000 -7.2980701923E-002  -4.3894853443E-003 +3.5790447146E-003  -3.7177088670E-003 +6.3963946886E-003  +4.4301605225E-001 -1.1804096401E-001 
1135306.633 +1.0334492922E+000 -3.4588783979E-002  -1.1183696333E-003 +1.6861695331E-003  -2.9583303258E-003 +7.5155950617E-004  +8.9999568462E-001 +7.1583688259E-002 
1260451.815 +1.3741185665E+000 +2.1950662136E-002  +2.8587644920E-005 -2.4478964042E-003  +6.5731862560E-004 +8.7987107690E-004  +1.0384880304E+000 +1.5188840032E-001 
1385596.996 +1.2805273533E+000 -1.1495593190E-001  +1.6745596658E-003 +7.1455194848E-004  +5.4265651852E-004 +1.1544976151E-003  +1.1230958700E+000 +9.6537053585E-002 
1510742.178 +1.4211550951E+000 -2.1399927139E-001  +4.8204709310E-004 -6.2721397262E-004  +1.4561216813E-003 +1.0009252583E-004  +1.2836871147E+000 +1.3651809096E-001 
1635887.359 +9.5191895962E-001 -3.2382681966E-001  +8.6298437964E-005 +2.1678649355E-003  -8.1021583173E-004 +1.2871093350E-003  +1.0767673254E+000 -1.5774203837E-001 
1761032.541 +1.0116924047E+000 -3.2448482513E-001  -8.6149934214E-004 +2.0125571173E-003  -9.5801812131E-004 +1.4826499391E-003  +1.0426702499E+000 -1.2102556229E-001 
1886177.722 +9.7294598818E-001 -1.8689671159E-001  -1.3516319450E-004 -2.8292991919E-004  +1.1368236737E-003 +6.7641952774E-004  +1.0308911800E+000 -4.1047006845E-002 
2011322.904 +9.7622931004E-001 -1.2399145961E-001  +4.2249099351E-005 -1.4751205454E-003  -1.4059286332E-003 -1.6891164705E-004  +1.0179122686E+000 -1.7774492502E-002 
2136468.085 +9.8246419430E-001 -1.1456054449E-001  -4.0765912854E-004 +1.9154690381E-004  -1.0013929568E-004 +3.8240359572E-005  +1.0229799747E+000 -5.2443146706E-003 
2261613.267 +9.8411178589E-001 -8.6970537901E-002  -3.6454526708E-004 +6.0221768217E-004  -2.3390926071E-004 -6.0709984973E-004  +1.0215903521E+000 -8.0883502960E-004 
2386758.448 +9.8348259926E-001 -6.8912386894E-002  +1.7984275473E-005 +1.2398259423E-004  +2.7188871172E-005 -3.4986680839E-004  +1.0203857422E+000 +1.4536857605E-002 
2511903.630 +9.7858309746E-001 -4.1787564754E-002  -5.7862547692E-005 -2.9665709008E-004  -4.4622601126E-004 +1.4223466860E-004  +1.0189751387E+000 +2.8926372528E-002 
2637048.811 +9.8741561174E-001 -3.4404665232E-002  +3.1801027944E-004 -4.8656616127E-004  +1.5862465079E-004 +4.0132261347E-004  +1.0159167051E+000 +5.3941547871E-002 
2762193.992 +9.9405038357E-001 -2.3091481999E-002  -1.1394408648E-004 +4.3849959184E-006  +5.6604668498E-004 +3.1780844438E-005  +1.0160096884E+000 +7.7706426382E-002 
2887339.174 +9.6726971865E-001 -7.6177418232E-003  -1.4992858632E-004 +7.2386683314E-005  +7.0824942668E-005 -3.8026418770E-004  +1.0260426998E+000 +9.6523508430E-002 
3012484.355 +9.6953576803E-001 +1.5257306397E-002  +4.1192380013E-004 +8.0131911091E-005  -2.5178078795E-004 +4.1692845116E-005  +1.0300863981E+000 +1.0793675482E-001 
3137629.537 +9.7277951241E-001 +4.6303801239E-002  +8.1631162902E-004 +2.0560671692E-004  -3.8029896677E-004 +6.0614638642E-005  +1.0478790998E+000 +1.2197752297E-001 
3262774.718 +9.6287190914E-001 +6.6931679845E-002  -2.0338349714E-005 +6.7073601531E-004  +3.2385889790E-004 -5.0785063650E-005  +1.0524030924E+000 +1.4723879099E-001 
3387919.900 +9.6476793289E-001 +8.4551811218E-002  -5.1958173572E-005 -1.9085207896E-004  +6.0748345277E-005 +4.6175939497E-004  +1.0626345873E+000 +1.4447994530E-001 
3513065.081 +9.7918194532E-001 +1.0665871203E-001  +3.1586212572E-004 +2.0437226340E-004  -1.7200747970E-004 +5.9179187519E-004  +1.0788439512E+000 +1.7039878666E-001 
3638210.263 +9.9699777365E-001 +1.3487480581E-001  +2.6596008684E-004 -9.2177142506E-006  -1.3826024951E-004 +1.0474347509E-003  +1.1009743214E+000 +1.8148246408E-001 
3763355.444 +1.0185554028E+000 +1.4475986362E-001  -3.3196917502E-004 -6.7553942790E-004  -1.8209368864E-004 +2.2317428375E-004  +1.1266123056E+000 +1.6573923826E-001 
3888500.626 +1.0372489691E+000 +1.6039565206E-001  +5.0934846513E-004 -4.7543548862E-004  +2.5402224855E-004 -3.5658036359E-004  +1.1389286518E+000 +1.9805067778E-001 
4013645.807 +9.9814641476E-001 +8.4795139730E-002  -4.3226470007E-004 -7.0956193667E-005  -6.6408602288E-004 +1.1341747449E-004  +1.1055138111E+000 +8.4627509117E-002 
4138790.989 +9.3524616957E-001 +2.6672333479E-003  +2.4530661176E-004 +7.6320586959E-004  -3.1425408088E-004 +1.0566203127E-004  +1.0216602087E+000 -2.1579116583E-003 
4263936.170 +9.3295872211E-001 +1.2557649054E-002  +2.9634073144E-004 +1.4226007625E-004  -1.1090280896E-004 +2.8530944837E-004  +1.0158809423E+000 -1.5652323142E-002 
4389081.352 +9.4242513180E-001 +5.0055962056E-003  +5.3761032177E-006 +1.2159658945E-004  -5.0105416449E-005 +1.8705445109E-004  +1.0100668669E+000 -2.7128737420E-002 
4514226.533 +9.5571684837E-001 +1.5219339170E-002  +5.7091281633E-005 -4.3512853154E-005  +3.2831658609E-004 -2.8327963082E-004  +1.0114612579E+000 -4.4069532305E-002 
4639371.715 +9.6435809135E-001 +7.7311340719E-003  +2.2546687978E-004 +2.3118371610E-004  -1.9919063197E-004 +2.1806250152E-004  +1.0248839855E+000 -3.4547731280E-002 
4764516.896 +9.5806014538E-001 +8.6523303762E-003  -1.7047647270E-004 +7.2425314102E-007  +2.1938976715E-004 +5.2620522911E-004  +1.0184603930E+000 -3.4045219421E-002 
4889662.078 +9.6581631899E-001 +1.0695938021E-002  -8.8146465714E-005 +1.8068040663E-004  -4.6164772357E-004 -4.9113499699E-005  +1.0208368301E+000 -3.3723525703E-002 
5014807.259 +9.6458441019E-001 +1.2919565663E-002  -3.1974817830E-005 -3.4407427302E-004  -2.1846086020E-004 +2.6937326766E-004  +1.0097960234E+000 -2.9459428042E-002 
5139952.441 +9.7369104624E-001 +2.7672573924E-003  +4.2173970724E-004 -7.9531077063E-005  -2.3532615160E-004 +3.0846822483E-005  +1.0083020926E+000 -3.7558626384E-002 
5265097.622 +9.7764199972E-001 +1.8441230059E-003  +1.4452274627E-005 -6.6198752029E-004  +5.6423625210E-005 +2.8355335235E-004  +1.0100356340E+000 -4.0100030601E-002 
5390242.804 +9.8651117086E-001 +1.0892659426E-002  -2.4883623701E-004 +2.9330415418E-004  +2.5217296206E-004 +2.4777340514E-005  +9.9848133326E-001 -4.5392327011E-002 
5515387.985 +9.9431174994E-001 +3.2001137733E-003  +6.9429275754E-005 -9.0074463515E-006  -1.9140398945E-004 +4.1642728320E-005  +1.0047626495E+000 -5.0140850246E-002 
5640533.166 +9.8984551430E-001 +2.9959529638E-003  -5.7802972151E-006 -2.0657034474E-004  +5.2950814279E-005 -1.7346882669E-004  +1.0009584427E+000 -5.6011624634E-002 
5765678.348 +9.8618042469E-001 -1.1484920979E-003  +4.2094121454E-005 -2.2362932214E-004  -8.1568105088E-005 +1.6132499150E-004  +1.0000575781E+000 -5.0214506686E-002 
5890823.529 +9.9054855108E-001 -1.1039458215E-002  -2.2574902687E-004 +3.9510989154E-005  -2.0556582604E-004 +1.4935132640E-004  +9.9470669031E-001 -5.0820142031E-002 
6015968.711 +9.8637926579E-001 -7.6953619719E-003  +1.0505125829E-004 -4.4126009016E-006  +1.9138121570E-004 -6.3406245317E-005  +9.9394953251E-001 -5.0219260156E-002 
6141113.892 +9.8611015081E-001 -6.9302171469E-003  -2.2867799271E-004 -2.1982750332E-004  -8.0318837718E-005 +1.3179072994E-004  +9.8894655704E-001 -5.1258228719E-002 
6266259.074 +9.9027544260E-001 -6.5166875720E-003  -1.6179091472E-004 -6.9271254688E-006  +2.8022774131E-005 -6.5543797973E-005  +9.8665171862E-001 -4.4762097299E-002 
6391404.255 +9.9022680521E-001 -8.2752183080E-003  +8.4385770606E-005 -3.4879853047E-005  -1.9562765374E-005 -1.5882539446E-004  +9.8977303505E-001 -4.8711255193E-002 
6516549.437 +9.8710227013E-001 -1.3944424689E-002  +1.0169426241E-004 +4.5172630053E-005  +1.3887173554E-004 -4.4676096877E-004  +9.8393058777E-001 -4.4171951711E-002 
6641694.618 +9.9387663603E-001 -6.6076517105E-003  -1.7715450667E-005 -2.4466795730E-004  +3.0306517147E-005 +9.6152165497E-005  +9.8664021492E-001 -3.6076232791E-002 
6766839.800 +9.9869781733E-001 -9.7998827696E-003  +9.9840166513E-005 +5.9273937950E-005  -2.3033382604E-004 +7.9212913988E-005  +9.8792695999E-001 -4.3983548880E-002 
6891984.981 +9.9392837286E-001 -8.1993341446E-003  +5.0114267651E-006 +1.0544610996E-004  +2.5972385629E-006 +4.8805301049E-005  +9.7607481480E-001 -4.1824862361E-002 
7017130.163 +9.9425828457E-001 -7.7206343412E-003  -1.3471813872E-004 +2.1352627664E-004  +3.0181214242E-005 -4.5667189988E-004  +9.8446494341E-001 -3.7292376161E-002 
7142275.344 +9.9342238903E-001 -3.8024336100E-003  +3.0277738915E-005 +1.5702136443E-004  +2.3674937256E-004 -2.0004980615E-004  +9.7959840298E-001 -3.0899137259E-002 
7267420.526 +9.9307286739E-001 -1.4848560095E-003  +1.1242168694E-004 +9.5796989626E-005  -2.9217097108E-005 +7.2676062700E-005  +9.7908121347E-001 -2.9757022858E-002 
7392565.707 +9.9670261145E-001 +2.4801790714E-003  +8.5800107627E-005 -2.0742771449E-004  -1.4914530038E-004 +1.4579172421E-004  +9.8201835155E-001 -3.3154159784E-002 
7517710.889 +9.9437850714E-001 -3.0541718006E-003  +1.9307426555E-005 +7.5000534707E-005  +2.1951932285E-004 +1.1284452921E-004  +9.7878056765E-001 -3.4059345722E-002 
7642856.070 +9.8826432228E-001 +3.1426548958E-005  +1.4717297745E-005 +6.8121305958E-005  +7.5887350249E-005 +1.5322778199E-004  +9.7112941742E-001 -3.2630950212E-002 
7768001.252 +9.9374330044E-001 +1.6437917948E-003  +1.7902742547E-004 -7.5975447544E-005  -5.0023692893E-005 -6.4752093749E-005  +9.6935343742E-001 -3.2681599259E-002 
7893146.433 +9.9611294270E-001 -1.0457485914E-003  +2.0384111849E-004 -1.2084719492E-004  +1.6850656539E-004 -6.2958068156E-005  +9.7285717726E-001 -2.6151522994E-002 
8018291.615 +9.9074411392E-001 -2.8639435768E-003  -2.4764747650E-005 -7.8608958574E-005  -4.4019347115E-005 +2.4751971068E-005  +9.6906995773E-001 -2.5610297918E-002 
8143436.796 +9.8782122135E-001 -6.0710757971E-003  +2.2549644200E-005 -6.9821013312E-005  -7.2754744906E-005 -2.1074370306E-004  +9.7047382593E-001 -1.8198534846E-002 
8268581.977 +9.8641175032E-001 -3.5609304905E-003  +2.4224648951E-004 -2.3382825020E-004  +9.8883472674E-005 +5.6000862969E-007  +9.6971940994E-001 -1.6687750816E-002 
8393727.159 +9.8756057024E-001 -7.5663924217E-003  +1.3676100934E-005 -1.0556793859E-004  -1.3998604845E-004 -8.4499624791E-005  +9.7303605080E-001 -1.7036795616E-002 
8518872.340 +9.9078238010E-001 -5.3776502609E-003  +1.2202985090E-004 -1.1146850011E-004  -2.0924824639E-005 -1.9423550111E-004  +9.7293764353E-001 -1.3091027737E-002 
8644017.522 +9.8654824495E-001 -4.1061937809E-003  +9.9484976090E-005 +1.4317320165E-006  +2.0796747413E-004 +1.4755452867E-005  +9.7495836020E-001 -1.1343091726E-002 
8769162.703 +9.9194604158E-001 -1.7646849155E-003  +1.2548870291E-004 +9.5830291684E-005  +1.1077534509E-005 -1.0745492546E-005  +9.7606927156E-001 -1.5739709139E-002 
8894307.885 +9.8682403564E-001 -5.9077441692E-003  -3.0190101825E-005 -1.8360264949E-004  +9.8884724139E-005 -2.2466683004E-004  +9.7186446190E-001 -1.4824122190E-002 
9019453.066 +9.8724699020E-001 -8.1515610218E-003  -4.1788793169E-005 +6.4244828536E-005  +1.1500920664E-005 -1.3322805171E-004  +9.7095304728E-001 -1.3219445944E-002 
9144598.248 +9.8761004210E-001 -7.2288811207E-003  +1.1019064914E-006 -3.3423395507E-005  -8.0508558312E-005 -1.7281599867E-004  +9.7243559361E-001 -1.1585801840E-002 
9269743.429 +9.8892819881E-001 -5.9686899185E-003  +9.7066058515E-006 -4.8043009883E-005  -3.1810704968E-006 -1.0311941878E-004  +9.7368228436E-001 -9.3626677990E-003 
9394888.611 +9.8962104321E-001 -1.1018514633E-003  +1.1657607683E-004 +1.4028840815E-004  +1.4319500769E-004 -6.1001010181E-005  +9.7386312485E-001 -1.0972589254E-002 
9520033.792 +9.9093109369E-001 -5.0199925900E-003  +3.4325035813E-005 -5.0609021855E-005  +4.3164662202E-005 +9.7793454188E-005  +9.7287577391E-001 -7.0665776730E-003 
9645178.974 +9.8937106133E-001 -1.6290247440E-003  -2.5770124921E-005 -1.4803854356E-006  -1.0155773634E-004 -2.3673383112E-005  +9.7184526920E-001 -8.7046921253E-003 
9770324.155 +9.8918616772E-001 +9.6637010574E-004  +3.1974523154E-005 +1.2307456927E-004  -3.1538645999E-005 +3.4699987737E-005  +9.7045791149E-001 -6.8274140358E-003 
9895469.337 +9.9057793617E-001 +2.5640726089E-003  -5.9960206272E-005 +8.3732214989E-005  -7.1088012191E-005 +4.6204258979E-006  +9.7213387489E-001 -7.0352554321E-003 
10020614.518 +9.9104440212E-001 +3.9241015911E-003  -9.5253955806E-005 +1.7201422452E-005  -6.4745763666E-005 -3.2980882679E-005  +9.7320187092E-001 -2.1641254425E-003 
10145759.700 +9.9136835337E-001 +3.4719407558E-003  -3.9090278733E-005 +1.5975287533E-004  -1.0457732969E-005 +3.9664650103E-005  +9.7483646870E-001 -3.9722323418E-003 
10270904.881 +9.9211829901E-001 +5.0783157349E-004  +1.3436821973E-005 +7.2831198850E-006  -4.2333031161E-005 +3.9924889279E-005  +9.7820371389E-001 -4.5493245125E-003 
10396050.063 +9.8896527290E-001 +1.1288523674E-003  -5.1463954151E-005 +4.9189286074E-005  +7.6288473792E-005 +1.8518525394E-005  +9.7457581758E-001 -2.2907555103E-003 
10521195.244 +9.9122726917E-001 +3.9272010326E-003  +1.6496967874E-005 -1.0775199917E-004  +3.2531906982E-006 +2.2289455956E-005  +9.7625660896E-001 -2.4934411049E-003 
10646340.426 +9.9037832022E-001 +1.5422403812E-003  +3.7812496885E-005 -3.8053389289E-005  -1.2201748177E-005 +9.8844655440E-005  +9.7631257772E-001 -1.1563301086E-004 
10771485.607 +9.9144566059E-001 +2.0529925823E-003  -7.7944168879E-005 -4.1950326704E-005  +1.7005020254E-006 +9.9265776043E-007  +9.7696423531E-001 +1.2556612492E-003 
10896630.788 +9.9031299353E-001 +2.7253329754E-003  -6.9064342824E-005 +1.8441922293E-005  -5.2766001318E-005 +9.4248840469E-005  +9.7712266445E-001 +2.6441216469E-003 
11021775.970 +9.8975121975E-001 +5.2311122417E-003  -4.6826942707E-005 -2.4651835702E-006  +4.3648407882E-005 +4.4763779442E-005  +9.7878956795E-001 +1.6939640045E-003 
11146921.151 +9.8998826742E-001 +1.8743574619E-003  +7.8950048191E-005 +6.3198065618E-005  +9.1006659204E-006 -4.3306599764E-006  +9.8020929098E-001 +3.1468272209E-003 
11272066.333 +9.9028003216E-001 +3.1376779079E-003  -1.3102023331E-005 +1.0014524378E-005  +2.9952765544E-005 -9.5953164418E-006  +9.7740501165E-001 +3.2799839973E-003 
11397211.514 +9.9149209261E-001 +3.7304162979E-003  +6.5485546656E-006 +8.0619152868E-005  -6.8122673838E-005 +2.8258957173E-005  +9.7881472111E-001 +2.7046203613E-003 
11522356.696 +9.9096560478E-001 +2.3583173752E-003  -3.0437038731E-005 +5.3290270444E-005  -1.4343429939E-005 -2.3441149096E-005  +9.7933530807E-001 +3.6060512066E-003 
11647501.877 +9.8995840549E-001 +2.7715265751E-003  +1.4484691746E-005 +1.8613063730E-005  -2.8014588679E-005 +3.7911731852E-006  +9.7973507643E-001 +3.9785504341E-003 
11772647.059 +9.9125087261E-001 +4.1933655739E-003  +1.7409181964E-005 +5.6287273765E-005  +1.8767386791E-006 +7.0166497608E-005  +9.7991871834E-001 +4.3990612030E-003 
11897792.240 +9.9031174183E-001 +4.3938457966E-003  -7.0075475378E-005 -6.8857625593E-006  -2.8589929570E-005 +5.5618380429E-005  +9.8103058338E-001 +4.6309828758E-003 
12022937.422 +9.9183100462E-001 +3.5201907158E-003  -3.0460776543E-005 +1.4415031728E-005  +2.4853325158E-005 +3.7045338104E-005  +9.8055124283E-001 +3.8053989410E-003 
12148082.603 +9.9275773764E-001 +3.3343434334E-003  -2.4591063266E-005 -2.7390371542E-005  +9.1460005933E-006 +7.6414558862E-005  +9.8198878765E-001 +4.8772096634E-003 
12273227.785 +9.9317502975E-001 +5.9758126736E-003  -1.8776505385E-005 +7.9930778156E-006  -2.0317984308E-005 +4.6982062486E-005  +9.8204135895E-001 +4.9517452717E-003 
12398372.966 +9.9287724495E-001 +3.9700567722E-003  -5.5748401792E-005 +3.7894009438E-005  +3.4952630813E-005 +1.8230046408E-005  +9.8391300440E-001 +4.8457086086E-003 
12523518.148 +9.9184322357E-001 +5.5274069309E-003  -1.3993856555E-005 -3.0631286791E-005  +2.5454930437E-005 +3.0796536521E-006  +9.8339992762E-001 +4.3856799603E-003 
12648663.329 +9.9345189333E-001 +7.1065872908E-003  +6.3877843786E-005 +3.2154963264E-005  +6.6113498178E-005 +5.0905771786E-005  +9.8401731253E-001 +4.6543180943E-003 
12773808.511 +9.9323898554E-001 +5.8507919312E-003  -3.2217565149E-006 +2.0133405997E-005  -1.6766640329E-005 +4.5546763431E-005  +9.8483407497E-001 +4.9354135990E-003 
12898953.692 +9.9379789829E-001 +6.4269378781E-003  +1.7532933271E-005 +1.1921891200E-005  +5.7898091654E-006 +7.8980679973E-005  +9.8446130753E-001 +4.2994618416E-003 
13024098.874 +9.9408864975E-001 +6.2097236514E-003  +8.0363723100E-005 +1.3602844774E-005  +2.4877231226E-006 +2.2342253942E-005  +9.8514193296E-001 +5.6376904249E-003 
13149244.055 +9.9338018894E-001 +6.0711409897E-003  -4.2720079364E-005 +3.4356224205E-005  +1.4345429008E-005 +2.7427577152E-005  +9.8456501961E-001 +5.8907903731E-003 
13274389.237 +9.9328017235E-001 +5.5856183171E-003  -3.5242021113E-005 +2.0609701096E-005  -1.8630738850E-005 +7.4344876339E-005  +9.8604470491E-001 +5.5061746389E-003 
13399534.418 +9.9343854189E-001 +6.3882991672E-003  +1.5462450392E-005 +8.0525882368E-005  -3.3772019378E-005 +4.0847273340E-005  +9.8569077253E-001 +6.1934739351E-003 
13524679.599 +9.9328595400E-001 +7.3044449091E-003  +1.5445879171E-006 +5.3879298321E-006  +2.1875828224E-006 -1.1987301605E-006  +9.8586696386E-001 +7.2380676866E-003 
13649824.781 +9.9414920807E-001 +5.8273673058E-003  -4.1021183279E-005 +6.7956512794E-005  +2.0111618142E-005 +2.4876544558E-005  +9.8721599579E-001 +5.9091001749E-003 
13774969.962 +9.9431359768E-001 +6.5070241690E-003  +2.1109776753E-006 +2.1989513698E-005  -3.8925845729E-006 +4.9754569773E-005  +9.8719817400E-001 +6.7083239555E-003 
13900115.144 +9.9393194914E-001 +5.7244300842E-003  +2.3153839720E-005 +4.3188400014E-005  -2.2728812837E-005 +5.3973439208E-005  +9.8620682955E-001 +6.6014230251E-003 
14025260.325 +9.9361771345E-001 +5.4655373096E-003  -1.7411433873E-005 +3.8358619349E-005  +5.2509440138E-006 +4.9647023843E-005  +9.8750174046E-001 +6.6927373409E-003 
14150405.507 +9.9431937933E-001 +6.3258707523E-003  +3.4950033296E-005 +7.4052033597E-005  +1.9965649699E-005 +7.8345648944E-005  +9.8823046684E-001 +7.4116289616E-003 
14275550.688 +9.9431347847E-001 +6.9757401943E-003  +1.5836512830E-006 +2.6281615646E-005  +2.8791395380E-005 +5.9411551774E-005  +9.8752558231E-001 +7.0391595364E-003 
14400695.870 +9.9327719212E-001 +5.4289996624E-003  -7.4049330578E-007 +1.0329798897E-005  +4.5511271310E-005 +4.3454045226E-005  +9.8748147488E-001 +7.9794228077E-003 
