!  2-Port S-parameters saved by WinCal
! VAR MeasName=S-Parameters (CALIBRATED_DATA) read from VNA (P5004A)
! VAR MeasDate=22/05/2024 21:18:33
! VAR NAME=Wafer3_r3_c6_pristine
! VAR FILENAME=Wafer3_r3_c6_pristine.S2P
! VAR DATE=22/05/2024 21:18:33
! VAR PHYS_PORTS=1,2
! VAR ObjTypeName=DATASET
! VAR IndexType=Frequency
!
# Hz S RI R 50
9000.000 +2.0803487301E-001 -6.0538911819E-001  -4.4035180472E-003 -2.7432541829E-003  +8.7751031970E-005 -3.1607577694E-004  +4.0767896920E-002 +1.0506819189E-001 
134145.181 +6.5154463053E-001 +3.6856800318E-002  -1.7305759713E-002 +2.4295789190E-003  -9.6535508055E-004 +5.3911926225E-003  +6.5500062704E-001 -1.8855564296E-001 
259290.363 +8.7337917089E-001 -1.1742375791E-001  +2.8712097555E-003 +3.4509715624E-004  +1.1345943203E-003 -2.7900792193E-003  +1.0219516754E+000 -1.3540033996E-001 
384435.544 +9.0714132786E-001 -2.8765416145E-001  +6.1472278321E-004 +1.2519677402E-003  -1.4221948804E-003 -1.6501969658E-003  +1.0993826389E+000 -1.9636493921E-001 
509580.726 +9.6443426609E-001 -1.6069552302E-001  -2.6514881756E-004 +3.0038639670E-004  -1.0887183016E-003 -9.8729098681E-004  +1.0492045879E+000 -1.0179194808E-001 
634725.907 +1.0996661186E+000 -2.0560270548E-001  +1.2573656568E-004 -1.9913495635E-004  -1.0621115507E-004 +2.0693363331E-004  +1.1307337284E+000 -8.3047330379E-002 
759871.089 +1.3100346327E+000 -6.1463415623E-002  +3.8241228322E-004 -5.9448136017E-004  +1.5716985217E-004 -9.4708806137E-004  +1.1942012310E+000 +2.7594119310E-002 
885016.270 +1.5827686787E+000 -1.1896018982E+000  +2.5581174996E-003 +1.4793054434E-003  +7.1785360342E-004 +2.0111466292E-003  +1.3489679098E+000 +9.6080444753E-002 
1010161.452 +1.0826774836E+000 -6.6471874714E-002  -3.6590942182E-003 +4.9960333854E-003  +6.1553996056E-004 -3.6169476807E-003  +6.3434499502E-001 -2.8353360295E-001 
1135306.633 +1.0641074181E+000 -2.0629286766E-002  +1.0521481745E-003 -1.4653761173E-004  +7.8492145985E-004 -3.1914948486E-003  +9.8095273972E-001 -4.4074654579E-004 
1260451.815 +1.3998303413E+000 -5.2267313004E-003  +5.6024914375E-004 -6.6377193434E-005  +2.4474991951E-003 +1.0273652151E-005  +1.1020846367E+000 +1.1265519261E-001 
1385596.996 +1.3022611141E+000 -1.3571292162E-001  +6.7917868728E-004 +5.5733288173E-004  -5.3006300004E-004 -1.8582880148E-004  +1.1874431372E+000 +1.2557211518E-001 
1510742.178 +1.4729541540E+000 -2.6022690535E-001  -1.1590149952E-003 -3.4332089126E-004  +8.1635027891E-004 -1.1234341655E-003  +1.5001269579E+000 +3.0152249336E-001 
1635887.359 +9.5751208067E-001 -3.6847770214E-001  +4.7965593694E-005 +6.5975946200E-005  -9.0047699632E-004 +8.3138816990E-004  +1.1290369034E+000 -3.2690104842E-001 
1761032.541 +1.0075480938E+000 -4.1966804862E-001  -3.6656525917E-003 +1.4509726316E-003  +7.7446212526E-004 -4.0754773654E-003  +1.0917618275E+000 -3.3251285553E-001 
1886177.722 +9.4142854214E-001 -2.4591517448E-001  +1.1086126324E-003 +4.3933535926E-004  +1.2615371961E-003 -2.9919063672E-004  +1.0213161707E+000 -1.7775830626E-001 
2011322.904 +9.4859850407E-001 -1.7188644409E-001  -4.3264566921E-004 +9.0171920601E-004  +1.3753912935E-004 -2.0542692801E-004  +9.9226886034E-001 -1.1010053754E-001 
2136468.085 +9.6015709639E-001 -1.4374554157E-001  +8.1585103180E-004 +2.6689941296E-004  +5.8036821429E-004 -9.7934593214E-005  +1.0038617849E+000 -9.1592878103E-002 
2261613.267 +9.5860475302E-001 -1.2453851104E-001  +1.1063079728E-004 +9.4291972346E-005  +1.3409956591E-004 +7.0391828194E-004  +1.0009642839E+000 -7.2608143091E-002 
2386758.448 +9.6001809835E-001 -1.1855876446E-001  -5.8394891676E-004 -1.0136733181E-004  +1.9309393247E-004 -5.5814767256E-004  +1.0013923645E+000 -5.4821789265E-002 
2511903.630 +9.5209228992E-001 -8.6875379086E-002  -6.3810002757E-004 +5.0291232765E-004  +7.1176327765E-004 -6.3036166830E-004  +9.9219572544E-001 -3.1324177980E-002 
2637048.811 +9.5809453726E-001 -6.0712695122E-002  -4.0239136433E-004 +1.5267627896E-004  -1.8621421186E-003 +2.2541318322E-004  +9.8210048676E-001 -1.0542273521E-002 
2762193.992 +9.7031325102E-001 -5.7779349387E-002  -2.0945823053E-005 +1.3989378931E-004  -4.4514250476E-005 -2.3119429534E-004  +9.8989796638E-001 +2.6434250176E-002 
2887339.174 +9.4301378727E-001 -6.8106472492E-002  -5.2608689293E-004 -5.6804349879E-004  +5.7614926482E-004 +1.4132841898E-004  +9.9678945541E-001 +1.6782561317E-002 
3012484.355 +9.2800229788E-001 -4.1882064193E-002  -1.9637022342E-004 +3.3544539474E-004  -5.1759782946E-004 +1.2276058260E-004  +9.8218750954E-001 +3.3869933337E-002 
3137629.537 +9.3253141642E-001 +3.0781272799E-003  -2.9012520099E-004 -3.4347621840E-004  -1.6832925030E-004 +3.2673435635E-004  +9.8218852282E-001 +5.4729785770E-002 
3262774.718 +9.2321604490E-001 +2.6316199452E-002  +3.0150366365E-004 -1.0298925190E-005  +1.7016846687E-004 +1.1229170013E-005  +9.8125064373E-001 +7.9393513501E-002 
3387919.900 +9.2154049873E-001 +5.2548073232E-002  -4.0119155892E-004 -3.2257917337E-004  +3.3051436185E-004 -6.6475983476E-004  +9.8359477520E-001 +1.0092029721E-001 
3513065.081 +9.3693059683E-001 +7.9527817667E-002  -3.1222228426E-004 -9.2768961622E-005  -5.6488416158E-004 -1.6398308799E-004  +9.9763107300E-001 +1.3569763303E-001 
3638210.263 +9.4722425938E-001 +1.0680406541E-001  +3.9178700536E-004 +3.5041180672E-004  +2.1673316951E-005 +3.9040556294E-004  +1.0107377768E+000 +1.2963959575E-001 
3763355.444 +9.6793919802E-001 +1.2200044841E-001  -1.7301413754E-004 -2.5774928508E-004  +9.8589778645E-005 +2.3490516469E-005  +1.0318837166E+000 +1.5794199705E-001 
3888500.626 +9.9335551262E-001 +1.4394032955E-001  +1.1917157099E-004 +2.1772489708E-004  -1.6676219821E-004 -2.3045548005E-005  +1.0502332449E+000 +1.7102852464E-001 
4013645.807 +9.4755631685E-001 +7.5762413442E-002  +2.2285443265E-004 -7.0456975664E-005  -3.1789136119E-004 -1.0163749539E-004  +1.0157240629E+000 +8.7087199092E-002 
4138790.989 +8.8475257158E-001 +1.2646012008E-002  +2.3217058333E-004 +9.1372367024E-006  -3.4087151289E-004 -2.1441865829E-004  +9.4193875790E-001 +1.8025271595E-002 
4263936.170 +8.8303071260E-001 +2.3994028568E-002  -2.7955875339E-005 -3.0341025195E-005  -5.0027803809E-005 -4.4664138113E-004  +9.4783842564E-001 +5.6848376989E-003 
4389081.352 +8.9997261763E-001 +2.1362677217E-002  +4.5409722952E-004 +3.3193768468E-004  -4.3640851800E-005 +5.3551170276E-004  +9.5300602913E-001 +4.8934556544E-003 
4514226.533 +9.1519069672E-001 +2.6051176712E-002  -3.2332438423E-005 +4.7512188758E-005  +1.6776585835E-004 +2.2712926148E-004  +9.5968103409E-001 -1.2780651450E-003 
4639371.715 +9.2815536261E-001 +3.1970515847E-002  -6.0319347540E-005 -2.2742600413E-004  +4.8883946147E-004 +3.4864287591E-004  +9.7275763750E-001 +4.3585989624E-003 
4764516.896 +9.1997009516E-001 +1.4716121368E-002  +6.4356683288E-004 -5.5602169596E-004  +4.7884466767E-005 +2.8055113944E-005  +9.6619313955E-001 -4.0150284767E-003 
4889662.078 +9.3064975739E-001 +3.5599559546E-002  -2.6878083008E-004 +2.7271601721E-004  -2.0594695525E-004 -1.3217705418E-004  +9.7008669376E-001 +4.8611350358E-003 
5014807.259 +9.3071097136E-001 +2.9443673790E-002  -3.3459288534E-004 +3.7840825826E-005  -2.7704376407E-005 -2.3275555577E-004  +9.6371603012E-001 +5.5408906192E-003 
5139952.441 +9.4033300877E-001 +2.7158565819E-002  +4.0425072075E-004 +6.9648958743E-005  +2.7193396818E-004 +2.8815193218E-004  +9.7317272425E-001 -3.9650332183E-003 
5265097.622 +9.4583868980E-001 +2.9406523332E-002  +9.6795731224E-005 +1.6960909124E-004  -8.1457590568E-005 -1.4066764561E-004  +9.7395128012E-001 -6.5936744213E-003 
5390242.804 +9.5340144634E-001 +3.0197467655E-002  +2.5466378429E-004 +2.9059825465E-004  -2.7147665969E-004 -3.4429953666E-004  +9.6964931488E-001 -7.2257742286E-003 
5515387.985 +9.6789956093E-001 +2.7586981654E-002  -6.0262042098E-005 -1.5310695744E-005  +1.8558492593E-004 -3.4182099625E-004  +9.7779262066E-001 -9.2300698161E-003 
5640533.166 +9.6491843462E-001 +2.1478362381E-002  -3.3750568400E-004 -2.5529827690E-004  +2.2219715174E-004 +1.8698978238E-004  +9.7598576546E-001 -1.0466538370E-002 
5765678.348 +9.5590788126E-001 +1.8707409501E-002  +5.4698990425E-004 -2.9820416239E-004  -4.1734136175E-005 -6.2333601818E-005  +9.7975349426E-001 -1.5610754490E-003 
5890823.529 +9.6474939585E-001 +1.6173698008E-002  +1.3867337839E-004 +2.4639748153E-004  -2.6850251743E-005 +3.3237054595E-004  +9.7940176725E-001 -7.2460323572E-003 
6015968.711 +9.6724742651E-001 +1.5968181193E-002  -2.2740522400E-004 -1.4718112652E-004  +1.7520453548E-004 +5.0614304200E-005  +9.7653830051E-001 -2.9016137123E-003 
6141113.892 +9.6678078175E-001 +1.5326417983E-002  -1.0170284077E-004 -1.0574978660E-004  -8.4411236458E-005 -1.5041277220E-004  +9.7608625889E-001 -7.4737742543E-003 
6266259.074 +9.7033727169E-001 +9.1717764735E-003  +7.9354816990E-005 +1.3932303409E-004  +5.5072618125E-005 +2.1462081349E-004  +9.7303128242E-001 -3.9082095027E-003 
6391404.255 +9.6858704090E-001 +9.6686333418E-003  -1.3588168076E-004 +4.9289205344E-004  -3.1927821692E-004 +1.5567611263E-004  +9.7967380285E-001 -1.2690164149E-002 
6516549.437 +9.6929818392E-001 +8.5111036897E-003  +2.5300076231E-005 -2.9871111110E-005  +1.3432113337E-004 -2.0202624728E-004  +9.7581380606E-001 -6.4999610186E-003 
6641694.618 +9.7468560934E-001 +1.2939199805E-002  +2.0167568437E-005 +6.6482716647E-005  -1.6845977370E-005 +1.0645629663E-004  +9.8329693079E-001 -5.3425878286E-003 
6766839.800 +9.8458099365E-001 +1.1245578527E-002  +1.7709484382E-004 -2.0938609669E-004  +2.1706569532E-004 +3.0830499600E-004  +9.8006409407E-001 -1.1138275266E-002 
6891984.981 +9.7973364592E-001 +8.2890838385E-003  +2.6350014377E-004 -2.3520973627E-005  -3.2236563857E-004 -4.6276665671E-005  +9.7167783976E-001 -1.2288957834E-002 
7017130.163 +9.7745913267E-001 +8.6774080992E-003  -4.5789227443E-005 +1.1101227756E-005  -2.3473617330E-004 -2.6141671697E-005  +9.7978603840E-001 -7.5627565384E-003 
7142275.344 +9.7972959280E-001 +1.3693571091E-002  +9.9093638710E-005 +2.7400211548E-004  -9.4836046628E-005 +5.2465966291E-006  +9.7865951061E-001 -1.3236999512E-003 
7267420.526 +9.8059856892E-001 +1.8216207623E-002  +2.5351988734E-004 -1.7780788767E-004  +1.7285672584E-005 -7.2431423177E-005  +9.7706735134E-001 -9.6733868122E-004 
7392565.707 +9.8310363293E-001 +2.0275950432E-002  -1.2701495143E-004 -5.0322982133E-005  +4.2148200009E-005 +1.9023330242E-004  +9.8132252693E-001 -6.1828196049E-003 
7517710.889 +9.8618471622E-001 +1.8261387944E-002  -5.0366936193E-005 +8.0784797319E-005  -1.0267081234E-004 -6.3038984081E-005  +9.7851014137E-001 -4.0538758039E-003 
7642856.070 +9.7778993845E-001 +1.3845130801E-002  +1.6015757865E-004 +1.4710302639E-004  +5.6234577642E-005 -1.9338760467E-004  +9.7652435303E-001 -8.1028938293E-003 
7768001.252 +9.8012131453E-001 +1.4955401421E-002  +2.8439204470E-005 -1.2375303777E-004  -2.9698960134E-005 +1.6595487978E-005  +9.7277641296E-001 -3.7323385477E-003 
7893146.433 +9.8709678650E-001 +1.6644984484E-002  +7.2068709414E-005 -1.3321934603E-005  +1.2444381719E-004 -2.4988785299E-006  +9.7761261463E-001 -1.0184645653E-003 
8018291.615 +9.8083907366E-001 +1.7765194178E-002  +1.3262723223E-004 +2.0497078367E-005  +2.4011512869E-004 -1.5907110355E-004  +9.7139424086E-001 -2.6306211948E-003 
8143436.796 +9.7884261608E-001 +1.0924890637E-002  +9.0130692115E-005 -1.8820504920E-005  -3.4105210943E-005 +1.1575447570E-004  +9.7399687767E-001 -7.5210630894E-004 
8268581.977 +9.8037862778E-001 +1.3474494219E-002  +8.6174870376E-005 +4.2030449549E-005  +2.4404545911E-005 +7.6791751781E-005  +9.7559088469E-001 +2.7790069580E-003 
8393727.159 +9.8238152266E-001 +1.0785251856E-002  -1.0186900909E-004 -1.2082206376E-004  +4.1286508349E-005 -7.8900113294E-005  +9.7723156214E-001 +7.1208178997E-003 
8518872.340 +9.8388218880E-001 +7.3053538799E-003  +5.6103061070E-005 -2.0174543897E-004  +1.1617878772E-004 -5.0314949476E-005  +9.7763705254E-001 +5.9919953346E-003 
8644017.522 +9.8155713081E-001 +1.0493069887E-002  -1.3754716201E-004 -7.1589478466E-005  +1.5141358017E-004 -1.3106031111E-004  +9.7716051340E-001 +6.7910552025E-004 
8769162.703 +9.8465645313E-001 +1.3118207455E-002  +1.6327553021E-004 -1.5249979333E-004  -3.9020254917E-005 -3.6851502955E-005  +9.7890406847E-001 +2.9245018959E-004 
8894307.885 +9.8373967409E-001 +8.9326202869E-003  -1.2200690253E-004 -2.7338683140E-005  +1.4386738258E-005 +1.1901758626E-005  +9.7657144070E-001 -1.5461444855E-004 
9019453.066 +9.8267954588E-001 +6.4025819302E-003  +1.9959661586E-005 +1.4336724416E-004  -4.1731771489E-005 +1.7011010641E-005  +9.7970503569E-001 -6.1985850334E-004 
9144598.248 +9.8298585415E-001 +6.5564215183E-003  -1.8768620066E-005 +8.4533312474E-005  -7.6330019510E-005 +2.3193302695E-005  +9.7772383690E-001 +2.9904544353E-003 
9269743.429 +9.8519062996E-001 +8.2336962223E-003  -2.8407434002E-005 -3.5258919524E-005  -1.1636700947E-004 -1.7233756080E-004  +9.7978264093E-001 +5.3000152111E-003 
9394888.611 +9.8333281279E-001 +1.4151066542E-002  -5.4255866416E-005 -5.3957548516E-005  +1.7329970433E-005 -3.0238197724E-007  +9.8009902239E-001 +3.5604834557E-004 
9520033.792 +9.8582291603E-001 +8.3947479725E-003  -9.5398601843E-005 +4.2850504542E-005  +2.2192594770E-005 +6.3935061917E-005  +9.7969871759E-001 +5.8868229389E-003 
9645178.974 +9.8950612545E-001 +1.2957990170E-002  -3.4906253859E-005 -3.0860668630E-005  +3.4614022297E-005 -8.2521335571E-005  +9.7834694386E-001 +3.5630762577E-003 
9770324.155 +9.8650693893E-001 +1.1423140764E-002  -5.4696636653E-005 +9.7098803963E-005  -2.7354279155E-005 -1.1328283290E-004  +9.7659552097E-001 +6.4821541309E-003 
9895469.337 +9.8884713650E-001 +1.3027876616E-002  +7.2087583249E-005 -2.7794327252E-005  +4.3920514145E-005 -9.0982517577E-005  +9.7844266891E-001 +6.7078769207E-003 
10020614.518 +9.8896175623E-001 +1.6004770994E-002  -2.2183296096E-005 +6.1556973378E-005  -1.6687044990E-007 -1.1081648699E-004  +9.7912693024E-001 +7.7874660492E-003 
10145759.700 +9.8809880018E-001 +1.2188524008E-002  -8.3494596765E-006 +6.5036292654E-005  +3.5039891372E-005 +2.9438459023E-005  +9.7998350859E-001 +5.7114958763E-003 
10270904.881 +9.9132835865E-001 +1.1388838291E-002  +8.3848135546E-005 -4.2387466237E-005  +1.2944310583E-005 -2.1892396035E-005  +9.8077309132E-001 +5.0206184387E-003 
10396050.063 +9.8867034912E-001 +1.1717647314E-002  -2.0916722860E-006 +2.7206255254E-005  -1.2775800133E-004 +6.5184038249E-005  +9.8032683134E-001 +5.6255459785E-003 
10521195.244 +9.8971116543E-001 +1.4593839645E-002  +1.8710759832E-005 -2.8771117286E-005  -2.5464096325E-005 +2.4471433790E-005  +9.8066306114E-001 +7.6110661030E-003 
10646340.426 +9.8873466253E-001 +1.1722683907E-002  +1.8080350856E-005 +3.6472770262E-006  -2.4614430004E-005 -7.3189075920E-005  +9.8046243191E-001 +1.0702520609E-002 
10771485.607 +9.8900622129E-001 +1.1398911476E-002  +3.5946584831E-005 +3.2763146010E-005  +1.3948820197E-005 +6.2472736317E-008  +9.8252993822E-001 +8.3459913731E-003 
10896630.788 +9.8832005262E-001 +1.3339519501E-002  -7.8361117630E-005 -1.9928569600E-005  -2.5393677788E-005 -4.4879616325E-005  +9.8240381479E-001 +9.4231069088E-003 
11021775.970 +9.8883467913E-001 +1.2873530388E-002  -5.4292435379E-005 -1.0262847354E-006  +2.1526830096E-005 +3.8106314605E-005  +9.8157668114E-001 +9.6769332886E-003 
11146921.151 +9.8870348930E-001 +9.6315741539E-003  -7.3557413998E-005 +4.3208274292E-008  -9.4380426162E-005 -1.2438456906E-005  +9.8240131140E-001 +9.3958675861E-003 
11272066.333 +9.8889911175E-001 +1.1005192995E-002  +4.9521463552E-006 +9.6917174233E-006  +1.3035310076E-005 -3.7405272451E-005  +9.8215198517E-001 +9.9718272686E-003 
11397211.514 +9.8996686935E-001 +1.1800169945E-002  +6.2599872763E-005 +5.2638293710E-005  -4.6762390411E-005 +2.8378870411E-005  +9.8269009590E-001 +9.0227127075E-003 
11522356.696 +9.9078226089E-001 +1.1715561152E-002  -4.4108455768E-005 +3.7112418795E-005  +4.7088273277E-005 -4.4398853788E-005  +9.8340106010E-001 +9.3445777893E-003 
11647501.877 +9.8811316490E-001 +1.0443866253E-002  -4.2836807552E-005 +4.1175742808E-005  +2.6615698516E-005 -1.1021675164E-005  +9.8223125935E-001 +9.9996924400E-003 
11772647.059 +9.9035543203E-001 +1.0084122419E-002  +2.9229879146E-005 +5.9028912801E-005  +7.9154451669E-005 +2.2165268092E-005  +9.8276567459E-001 +7.9942047596E-003 
11897792.240 +9.8960888386E-001 +8.9206397533E-003  +7.7264259744E-005 -1.3137359929E-005  -2.4128452424E-005 -1.1864069165E-005  +9.8367869854E-001 +1.0345309973E-002 
12022937.422 +9.9140655994E-001 +9.7110867500E-003  +7.6627926319E-005 -2.1094543627E-005  +2.8451067919E-005 -1.7186988771E-005  +9.8328983784E-001 +8.4908306599E-003 
12148082.603 +9.9157887697E-001 +1.1597216129E-002  -4.8950540076E-005 +7.1620388553E-006  -4.2492378270E-005 +6.4105828642E-005  +9.8576462269E-001 +1.0397642851E-002 
12273227.785 +9.9168282747E-001 +1.0747551918E-002  -3.3515752875E-005 +4.7305271437E-005  -2.2550706490E-005 +1.3453651263E-005  +9.8512732983E-001 +9.2273354530E-003 
12398372.966 +9.9214190245E-001 +1.0077834129E-002  +1.1243641893E-006 -2.1467509214E-005  +1.2946402421E-005 +5.4086049204E-006  +9.8608452082E-001 +1.0325878859E-002 
12523518.148 +9.8986184597E-001 +1.1672019958E-002  +9.4953640655E-005 -1.3347953427E-005  -3.0599698221E-005 -3.2211486541E-005  +9.8431789875E-001 +1.0111123323E-002 
12648663.329 +9.9222147465E-001 +1.2124374509E-002  +1.0217170711E-005 +5.0921000366E-005  -5.1641336540E-006 +4.6303150157E-005  +9.8596072197E-001 +1.0397225618E-002 
12773808.511 +9.9127757549E-001 +9.8021626472E-003  -2.3531720217E-006 +1.5766154320E-005  -5.6216031226E-005 +1.4751076378E-006  +9.8549699783E-001 +8.9774131775E-003 
12898953.692 +9.9134635925E-001 +9.8161324859E-003  -3.9862872654E-005 -4.7388175517E-007  -8.1842772488E-006 -7.2262732829E-006  +9.8622894287E-001 +9.4194710255E-003 
13024098.874 +9.9181735516E-001 +9.8868608475E-003  -3.8454149035E-005 +4.4270967919E-005  +6.1634193116E-005 +4.6295721404E-005  +9.8638623953E-001 +9.7255483270E-003 
13149244.055 +9.9189710617E-001 +1.1284811422E-002  -1.7914710043E-005 +1.9758912458E-005  -3.3543281006E-006 +5.8778136008E-005  +9.8713392019E-001 +9.8837893456E-003 
13274389.237 +9.9118316174E-001 +1.0521046817E-002  +2.8468675737E-005 -3.3613530832E-005  -1.0580443814E-005 -1.1593163435E-005  +9.8764288425E-001 +1.0277585126E-002 
13399534.418 +9.9207389355E-001 +9.2840492725E-003  +2.4720222427E-005 +2.8786873372E-005  -2.3079663151E-005 -1.4227077372E-005  +9.8668551445E-001 +1.1866763234E-002 
13524679.599 +9.9202370644E-001 +1.1021137238E-002  +2.4585009669E-005 -1.5128146515E-005  -1.9279877961E-006 +1.1931261724E-005  +9.8756450415E-001 +1.1208772659E-002 
13649824.781 +9.9307209253E-001 +9.9996775389E-003  -3.8423982915E-005 +3.9656410081E-005  -4.6014472900E-005 +4.3365846068E-005  +9.8797363043E-001 +9.7730755806E-003 
13774969.962 +9.9109989405E-001 +9.7548514605E-003  -1.3236937775E-005 +5.0884198572E-005  +3.3833886846E-005 +3.2991170883E-005  +9.8812419176E-001 +9.2043429613E-003 
13900115.144 +9.9186724424E-001 +9.6997916698E-003  -9.1808933576E-006 +2.4791950636E-005  +4.5198659791E-005 +1.1833169083E-005  +9.8726075888E-001 +1.0022848845E-002 
14025260.325 +9.9086612463E-001 +1.0691612959E-002  -2.1010528144E-005 +1.2745260392E-005  -2.1120731617E-005 +4.5521574066E-005  +9.8756057024E-001 +1.0933399200E-002 
14150405.507 +9.9201238155E-001 +1.0230034590E-002  -1.0507345905E-005 +5.6459986808E-005  -4.1541108658E-005 +7.5671387094E-006  +9.8836338520E-001 +1.0590404272E-002 
14275550.688 +9.9180543423E-001 +9.0713202953E-003  +1.3013945136E-005 +4.6805635066E-005  -3.7902769691E-005 +7.7746277384E-005  +9.8831999302E-001 +9.8339617252E-003 
14400695.870 +9.9085557461E-001 +8.7265372276E-003  -4.6743916755E-006 +4.5524370762E-006  +9.8190912468E-006 +3.1591239349E-006  +9.8810720444E-001 +1.0685682297E-002 
