!  2-Port S-parameters saved by WinCal
! VAR MeasName=S-Parameters (CALIBRATED_DATA) read from VNA (P5004A)
! VAR MeasDate=22/05/2024 20:42:02
! VAR NAME=Wafer3_r2_c4_pristine 5
! VAR FILENAME=Wafer3_r2_c4_pristine 5.S2P
! VAR DATE=22/05/2024 20:42:02
! VAR PHYS_PORTS=1,2
! VAR ObjTypeName=DATASET
! VAR IndexType=Frequency
!
# Hz S RI R 50
9000.000 +2.0964340866E-001 -5.9669029713E-001  -3.0427146703E-003 +6.8343020976E-003  -1.6472719144E-003 +1.4979526168E-003  +4.3039992452E-002 +1.1068460345E-001 
134145.181 +6.2762892246E-001 -1.1030763388E-002  -2.1386260632E-003 -6.0143610463E-003  -6.0532763600E-003 +9.6068775747E-004  +7.5421231985E-001 -1.8521794677E-001 
259290.363 +8.5044956207E-001 -9.6912801266E-002  -4.4713652460E-004 -1.0922632646E-003  +2.7804137208E-003 -1.1458726367E-003  +9.9093890190E-001 -1.3920141757E-001 
384435.544 +9.0002089739E-001 -2.8180772066E-001  +1.1227938812E-003 +1.4278306626E-003  -1.4256963041E-003 +1.1161805014E-004  +1.0922331810E+000 -1.7945590615E-001 
509580.726 +9.6319282055E-001 -1.4925473928E-001  -8.2936184481E-004 +4.2852514889E-004  +1.7476131325E-004 -5.6683429284E-004  +1.0426461697E+000 -8.8212102652E-002 
634725.907 +1.0988676548E+000 -2.0371821523E-001  -1.9126458210E-004 +8.9506967925E-005  +1.6220904945E-004 +2.3577928368E-004  +1.1249938011E+000 -7.9819023609E-002 
759871.089 +1.3027524948E+000 -6.7895203829E-002  -4.2588872020E-004 -2.2706489835E-004  +3.8893381134E-004 -8.3542533685E-004  +1.1970611811E+000 +1.7997503281E-002 
885016.270 +1.3246966600E+000 -1.1965022087E+000  +2.8906381340E-004 +2.2478057072E-003  +1.3551309239E-003 +3.8875145838E-003  +1.3311791420E+000 +7.8116565943E-002 
1010161.452 +1.0730458498E+000 -5.4892152548E-002  +4.8970463686E-003 +2.3900521919E-003  -1.7041049432E-003 +9.0034346795E-004  +6.5287649632E-001 -1.7818333209E-001 
1135306.633 +1.0532476902E+000 -1.7079412937E-002  +3.5807746463E-003 -7.7404198237E-004  +1.6176968347E-003 -2.7868268080E-003  +9.4705778360E-001 +2.2320985794E-002 
1260451.815 +1.3742382526E+000 -1.4304518700E-002  +6.3218286959E-004 +4.6399771236E-005  -1.4316325542E-003 +2.4786898866E-003  +1.0643017292E+000 +1.2734916806E-001 
1385596.996 +1.2953739166E+000 -1.3326668739E-001  -4.0755129885E-004 +5.9623282868E-004  -4.0943172644E-004 +1.8833447248E-003  +1.1677014828E+000 +1.0259002447E-001 
1510742.178 +1.4579213858E+000 -2.4799822271E-001  +1.5545100905E-003 +9.1903127031E-004  +5.4134323727E-004 +3.4236753709E-004  +1.4096850157E+000 +2.3874723911E-001 
1635887.359 +9.6071553230E-001 -3.3450186253E-001  +1.4787830878E-003 -5.8409548365E-004  +4.6889547957E-004 -1.7327517271E-003  +1.1176761389E+000 -2.6882082224E-001 
1761032.541 +1.0223404169E+000 -3.3631676435E-001  +1.0016919114E-003 -1.3388516381E-003  +6.2316848198E-004 +8.4870489081E-004  +1.0685924292E+000 -2.6211324334E-001 
1886177.722 +9.8130738735E-001 -1.8990868330E-001  -1.3395596761E-004 +2.2626537830E-003  -1.0553887114E-003 -1.1190489749E-004  +1.0123488903E+000 -1.5621641278E-001 
2011322.904 +9.6770572662E-001 -1.4871120453E-001  +5.0580711104E-005 -5.6305859471E-004  -1.4050351456E-003 +8.4950879682E-005  +1.0111246109E+000 -8.8596284389E-002 
2136468.085 +9.8272639513E-001 -1.2350180745E-001  +9.9610333564E-005 +5.5058457656E-004  -2.4826487061E-004 +2.9029935831E-004  +1.0169935226E+000 -6.9023460150E-002 
2261613.267 +9.8936772346E-001 -9.1204553843E-002  -3.7050162791E-004 -9.5024573966E-005  +2.1944088803E-004 -4.2336239130E-004  +9.9971389771E-001 -4.1733175516E-002 
2386758.448 +9.8714470863E-001 -8.6281716824E-002  -9.2570157722E-004 +2.1486889455E-004  -9.4235467259E-005 -3.9545126492E-004  +1.0125589371E+000 -3.5471767187E-002 
2511903.630 +9.8169910908E-001 -4.9061834812E-002  -1.8226222892E-005 -1.6660285473E-004  -2.0078431407E-004 -1.5774877102E-004  +1.0053142309E+000 -8.3172619343E-003 
2637048.811 +9.8724204302E-001 -4.7174870968E-002  +8.2246995589E-005 +1.6774452524E-004  -2.0730643882E-005 +3.6654600990E-004  +9.9140077829E-001 +1.5674859285E-002 
2762193.992 +9.8561388254E-001 -2.8160374612E-002  -1.7154139641E-004 -7.3438466643E-005  -1.9466699450E-004 -1.2828152103E-004  +9.9671602249E-001 +3.9088927209E-002 
2887339.174 +9.7074973583E-001 -2.0869478583E-002  -6.9248519139E-004 -2.8752075741E-004  -2.3022058303E-004 +2.4301026133E-004  +1.0039674044E+000 +3.6684770137E-002 
3012484.355 +9.7270780802E-001 -1.3691663742E-002  +3.1132629374E-004 +1.9818123837E-004  +1.7338206817E-006 -3.8430377026E-004  +1.0029404163E+000 +6.1430174857E-002 
3137629.537 +9.7729718685E-001 +2.5971399620E-002  +2.9741763137E-004 -1.3928033877E-004  -2.2269881447E-004 +6.3022557879E-004  +1.0049463511E+000 +6.9663077593E-002 
3262774.718 +9.6714758873E-001 +4.2253330350E-002  +1.4556810493E-004 +8.8457175298E-004  +3.9195240242E-004 -2.2833222829E-005  +9.9413549900E-001 +1.0761053115E-001 
3387919.900 +9.6481853724E-001 +7.1892634034E-002  -5.8648589766E-004 -4.9313312047E-005  -5.2779598627E-004 -3.1195719203E-005  +1.0115373135E+000 +1.1957612634E-001 
3513065.081 +9.8378145695E-001 +9.4701007009E-002  +1.7942885461E-004 +8.3274091594E-005  -6.5352558158E-004 +4.6260352246E-004  +1.0250588655E+000 +1.4728444815E-001 
3638210.263 +9.9348479509E-001 +1.1707335711E-001  -5.2304891142E-005 +5.4292532150E-004  +5.0293270033E-004 -1.1905390420E-004  +1.0348854065E+000 +1.5175972879E-001 
3763355.444 +1.0161145926E+000 +1.3202548027E-001  +1.8111146346E-004 -4.5580958249E-004  -4.0368080954E-004 +1.7431436572E-004  +1.0579855442E+000 +1.6708844900E-001 
3888500.626 +1.0322539806E+000 +1.4339393377E-001  -1.7303871573E-004 -4.2067159666E-004  +4.7971490858E-005 -4.2944692541E-004  +1.0789569616E+000 +1.7201182246E-001 
4013645.807 +9.9441224337E-001 +7.5433544815E-002  +3.4879249142E-005 +2.2212309705E-004  -5.0707289483E-004 +3.9823920815E-004  +1.0349347591E+000 +8.1466801465E-002 
4138790.989 +9.2918723822E-001 +4.3493136764E-004  +1.8265853578E-004 -1.6054813750E-004  -5.6745723123E-004 -5.9561956732E-005  +9.6241819859E-001 +1.0243449360E-002 
4263936.170 +9.2048996687E-001 +4.0090214461E-003  +5.4705573712E-004 +5.2085344214E-004  -3.4741326817E-004 +6.9573243309E-006  +9.6381151676E-001 -1.8149334937E-003 
4389081.352 +9.3613404036E-001 +4.3285563588E-003  -2.1763149562E-005 +3.0543236062E-004  +1.5535143029E-004 -7.0974120172E-004  +9.6031802893E-001 -3.5359449685E-003 
4514226.533 +9.4780093431E-001 +1.2130646966E-002  -2.3412896553E-004 +1.0442583152E-004  -5.4219122831E-005 -4.2661570478E-004  +9.7342187166E-001 -1.0046388954E-002 
4639371.715 +9.6150481701E-001 +9.1271335259E-003  -9.8843724118E-005 -2.0389770725E-005  +1.6781393788E-004 -2.1601725894E-004  +9.8282754421E-001 -2.3276191205E-003 
4764516.896 +9.5581579208E-001 +6.6083371639E-003  +1.6032657004E-004 -1.1384414393E-004  +2.4193330319E-004 +3.6948954221E-004  +9.8094934225E-001 -1.3364624232E-002 
4889662.078 +9.6274584532E-001 +1.3168242760E-002  +4.3807049224E-005 -7.3478637205E-005  -2.0504849090E-004 +1.5742436517E-004  +9.8497849703E-001 -5.2469838411E-003 
5014807.259 +9.6172475815E-001 +7.5902976096E-003  +1.6637172666E-004 -1.4615769032E-004  -2.5450121029E-004 -8.0928868556E-005  +9.7719955444E-001 -5.9806369245E-004 
5139952.441 +9.7349339724E-001 +2.9191300273E-003  +3.5177764948E-004 +5.8792490745E-004  -2.1373711934E-004 -5.3801915783E-005  +9.8360407352E-001 -1.0048095137E-002 
5265097.622 +9.7514015436E-001 +1.0821033269E-002  +2.1641135390E-004 +1.2042481831E-004  +2.7091379161E-004 -8.4248706116E-005  +9.8065131903E-001 -1.5579838306E-002 
5390242.804 +9.7979736328E-001 +1.2409165502E-002  +1.8742245447E-004 +2.9352545971E-004  -7.3920557043E-005 -1.2040464935E-004  +9.7673070431E-001 -5.4756477475E-003 
5515387.985 +9.8803633451E-001 +6.2999278307E-003  -3.1179524376E-004 -4.4336567953E-005  +1.8050480867E-004 -3.8062772364E-004  +9.8466885090E-001 -1.4979675412E-002 
5640533.166 +9.8937779665E-001 +5.4714381695E-003  +3.7630350562E-004 +2.8101939824E-004  +3.8843729999E-004 +1.4898512745E-004  +9.7891795635E-001 -1.3571836054E-002 
5765678.348 +9.8663932085E-001 -1.2329146266E-003  +1.1157718109E-004 +1.9301955035E-005  +2.3740330653E-004 -4.7219364205E-005  +9.8337996006E-001 -1.8589571118E-002 
5890823.529 +9.8343133926E-001 -1.0364383459E-002  +2.3721328762E-004 +1.1985409219E-004  +3.7812683149E-004 +1.0256565292E-004  +9.8107498884E-001 -1.3883695006E-002 
6015968.711 +9.8450547457E-001 -1.3426721096E-002  -1.6555390903E-004 +2.4578577722E-004  +2.1650693088E-004 +2.8162437957E-004  +9.8326069117E-001 -1.4829121530E-002 
6141113.892 +9.8629069328E-001 -7.7946782112E-003  +2.3688192596E-004 +2.9338949389E-005  -1.6593291366E-004 -1.2837776740E-004  +9.8176181316E-001 -1.8762037158E-002 
6266259.074 +9.8673045635E-001 -3.9078965783E-003  +1.1166508193E-004 +9.6645846497E-005  -2.9086839641E-004 -7.3672505096E-005  +9.7640192509E-001 -1.5712909400E-002 
6391404.255 +9.8899286985E-001 -1.7306655645E-002  -5.0947698765E-004 -5.4146010370E-005  -3.8921699161E-004 -8.0103563960E-005  +9.7885209322E-001 -2.5847993791E-002 
6516549.437 +9.8592263460E-001 -8.8840946555E-003  +1.0686830501E-004 +7.4673611380E-005  +1.2975129357E-004 +9.5562609204E-006  +9.7599083185E-001 -2.0359210670E-002 
6641694.618 +9.9155241251E-001 -7.2740763426E-003  +1.5517765132E-004 +2.3827186669E-004  -2.0705226052E-004 -2.7235570087E-005  +9.8203361034E-001 -1.1405438185E-002 
6766839.800 +9.9517321587E-001 -7.3284506798E-003  -2.7523396056E-005 +2.5509166335E-006  -1.7375404423E-004 +1.4506909065E-004  +9.8050308228E-001 -1.5199095011E-002 
6891984.981 +9.9221360683E-001 -1.3176247478E-002  +6.0456302890E-005 -7.4261537520E-005  +5.1305119996E-005 -1.3861256593E-004  +9.7473853827E-001 -1.9071832299E-002 
7017130.163 +9.8864912987E-001 -8.1110894680E-003  -1.1652196918E-005 -7.6627620729E-006  +2.2015614377E-004 +1.1643923062E-004  +9.7825133801E-001 -1.2658521533E-002 
7142275.344 +9.9263286591E-001 -5.5912584066E-003  -9.7000120149E-006 -7.6685355452E-005  -1.9337922276E-004 -4.0929691750E-005  +9.8064810038E-001 -8.6482316256E-003 
7267420.526 +9.9067425728E-001 -4.3150931597E-003  +2.1876582468E-004 -6.4821520937E-005  +8.3270242612E-005 -2.0070461323E-004  +9.7838711739E-001 -3.8730651140E-003 
7392565.707 +9.9185138941E-001 -6.0808360577E-003  +2.1230103812E-005 -1.8067363999E-004  +4.0011411329E-005 +3.1517818570E-005  +9.8277205229E-001 -1.2013643980E-002 
7517710.889 +9.9648523331E-001 -1.0086417198E-002  +3.8610105548E-005 -1.5055081167E-004  -2.9489700682E-004 -2.8972089058E-004  +9.7693735361E-001 -1.6081109643E-002 
7642856.070 +9.8545527458E-001 -1.0528400540E-002  -1.9728668121E-006 +1.1073339556E-004  +1.2871751096E-006 -2.0601248252E-004  +9.7190588713E-001 -1.7099767923E-002 
7768001.252 +9.9396550655E-001 -4.7933757305E-003  +1.1623592582E-004 +7.5102914707E-005  -1.0181443940E-005 -9.0633235232E-005  +9.7105383873E-001 -1.6810745001E-002 
7893146.433 +9.9230688810E-001 -6.1791241169E-003  -2.0710361423E-004 -1.3084038801E-004  +2.5342276786E-004 +1.1334459123E-004  +9.7113132477E-001 -1.0923027992E-002 
8018291.615 +9.8956555128E-001 -9.1560333967E-003  +1.1048721353E-004 +1.5193317086E-004  -1.7495753127E-005 +1.1245299538E-004  +9.7082769871E-001 -1.0533928871E-002 
8143436.796 +9.8554450274E-001 -1.2399852276E-002  +1.5134669957E-004 -1.8911571533E-004  +1.9895518199E-004 +9.5782481367E-005  +9.7189158201E-001 -4.7096759081E-003 
8268581.977 +9.8408746719E-001 -6.6725313663E-003  +8.3189886936E-005 -7.6838434325E-005  +2.0771229174E-004 -1.9701439305E-004  +9.7109794617E-001 -2.3579895496E-003 
8393727.159 +9.8841679096E-001 -9.1487765312E-003  +1.4695950995E-005 +3.9986069169E-005  +3.8607686292E-007 -2.0101963310E-004  +9.7474724054E-001 -3.1214654446E-003 
8518872.340 +9.8876476288E-001 -1.1443793774E-002  +8.8779008365E-005 -1.9231796614E-005  +1.4364243543E-004 -1.0453761206E-004  +9.7380876541E-001 -3.2124519348E-003 
8644017.522 +9.8728543520E-001 -2.6793181896E-003  -4.5952088840E-005 -6.3709434471E-005  +3.9435471990E-005 -2.8655637288E-004  +9.7468310595E-001 -2.8817057610E-003 
8769162.703 +9.9101126194E-001 -6.3280165195E-003  +3.8043031964E-005 +2.8071175620E-005  +1.3594879420E-005 -1.5079753939E-004  +9.7807335854E-001 -4.5334994793E-003 
8894307.885 +9.8738217354E-001 -8.9683234692E-003  -9.0692919912E-006 -6.4456733526E-005  -3.9919283154E-005 -6.9061083195E-005  +9.7279298306E-001 -4.4896304607E-003 
9019453.066 +9.9000614882E-001 -7.8491866589E-003  -9.4834322226E-006 +1.1630977497E-005  +9.3101269158E-005 -1.3434681750E-004  +9.7435218096E-001 -4.7709643841E-003 
9144598.248 +9.8651057482E-001 -8.4545910358E-003  +7.0900263381E-005 -6.5318374254E-005  -1.5790876932E-004 -3.8181751734E-005  +9.7255969048E-001 -3.4101009369E-003 
9269743.429 +9.8793017864E-001 -8.6836814880E-003  -1.3558783394E-004 -1.1476207874E-004  +4.7957779316E-005 -7.7020653407E-005  +9.7597670555E-001 +6.4402818680E-005 
9394888.611 +9.9127089977E-001 -2.2872090340E-003  +3.5818797187E-005 -5.2250406952E-006  +1.5283681932E-005 -1.4555840607E-005  +9.7397100925E-001 -5.0897598267E-003 
9520033.792 +9.8672699928E-001 -6.1262249947E-003  -1.1773081496E-004 -1.7682793259E-004  -6.0412457970E-005 -4.8749599955E-005  +9.7521948814E-001 -3.1170248985E-003 
9645178.974 +9.9132096767E-001 -1.4613568783E-003  +1.4011109670E-005 +2.3409869755E-005  -9.1359863291E-005 -3.8341404434E-005  +9.7586834431E-001 -1.5496313572E-003 
9770324.155 +9.8947513103E-001 -6.9111585617E-005  +3.4900054743E-005 -8.2745027612E-005  +9.9632481579E-005 +3.9710117562E-005  +9.7417932749E-001 +1.9486844540E-003 
9895469.337 +9.9092483521E-001 +1.3087987900E-003  -2.0222702005E-005 -7.8540353570E-005  -1.1526684102E-004 -6.0067104641E-006  +9.7424584627E-001 +2.4553239346E-003 
10020614.518 +9.8920780420E-001 +8.2057714462E-004  -1.7307533199E-005 +3.1305236917E-005  -5.0763890613E-005 +9.2584359663E-006  +9.7595828772E-001 +5.0311684608E-003 
10145759.700 +9.9278122187E-001 +5.2204728127E-004  +3.3030926716E-005 +5.9592046455E-005  -2.1096211640E-005 -5.4569845815E-005  +9.7659218311E-001 +1.2215971947E-003 
10270904.881 +9.9279600382E-001 +1.3132691383E-003  +2.7730528018E-005 -5.4379383073E-005  -4.2012279664E-006 +3.4754761145E-005  +9.7982633114E-001 +2.9702484608E-003 
10396050.063 +9.9060457945E-001 +3.9345026016E-004  +6.0645834310E-006 -9.2399481218E-005  -6.6012638854E-005 +1.2581900592E-005  +9.7862887383E-001 +4.3545961380E-003 
10521195.244 +9.9071025848E-001 +1.8425881863E-003  -6.3001425588E-007 +6.8873399869E-005  -7.4509789556E-006 +5.2044437325E-005  +9.7850191593E-001 +3.8500428200E-003 
10646340.426 +9.9136066437E-001 +1.0586082935E-003  -2.8874994314E-005 -1.2631265236E-005  +7.1414051490E-006 -5.1535658713E-005  +9.7882962227E-001 +4.6783685684E-003 
10771485.607 +9.8958253860E-001 +1.1638700962E-003  -8.1144480646E-006 +2.5535640816E-005  -3.4744007280E-006 +2.6817579055E-005  +9.7958743572E-001 +6.2922239304E-003 
10896630.788 +9.9124228954E-001 +3.4432709217E-003  +1.2439460988E-005 +7.0239657362E-005  -3.0609669921E-005 -5.7978468249E-007  +9.7871851921E-001 +7.2066187859E-003 
11021775.970 +9.9054002762E-001 +3.3321976662E-003  -1.2084687114E-005 +7.4027680057E-006  -2.8796142942E-005 +3.1160627259E-005  +9.7943907976E-001 +7.1046948433E-003 
11146921.151 +9.9151670933E-001 +5.6093931198E-004  +7.1723246947E-005 +3.0757451896E-005  +1.3576563106E-005 -1.4133943296E-005  +9.8066824675E-001 +5.9290230274E-003 
11272066.333 +9.8963922262E-001 +2.3617446423E-003  +1.6503483494E-005 +9.2130998382E-005  +2.0950665203E-006 -4.3386778998E-005  +9.8085558414E-001 +6.3134729862E-003 
11397211.514 +9.9213135242E-001 +3.6844909191E-003  -5.0424812798E-005 -3.2128067687E-005  -3.8881116780E-005 -2.1190338884E-005  +9.8154950142E-001 +6.3042938709E-003 
11522356.696 +9.9212443829E-001 +3.5457611084E-003  +8.5881234554E-005 +3.6765173718E-005  +1.8475816432E-006 +1.8651837308E-005  +9.8186576366E-001 +7.4664652348E-003 
11647501.877 +9.9079626799E-001 +3.2731592655E-003  -1.5193379113E-005 +3.2096955692E-005  -7.1093971201E-005 +5.6773365941E-005  +9.8120605946E-001 +8.8381171227E-003 
11772647.059 +9.9242854118E-001 +3.3095479012E-003  +2.6681871532E-005 +1.9847844669E-005  +6.9915804488E-006 +4.8626505304E-005  +9.8106610775E-001 +8.0607533455E-003 
11897792.240 +9.9086028337E-001 +3.1054615974E-003  +3.7212837924E-005 -1.3010660041E-005  +6.3167404733E-005 +3.7280231481E-005  +9.8243248463E-001 +8.1076920033E-003 
12022937.422 +9.9344098568E-001 +4.5648813248E-003  -4.2264073272E-005 -5.8312063629E-005  -4.3559382902E-005 -6.0872676841E-005  +9.8308432102E-001 +8.0312788486E-003 
12148082.603 +9.9225628376E-001 +3.0552446842E-003  +8.3789142082E-005 +1.0984269466E-005  -2.3413724193E-005 +1.4622688468E-005  +9.8330014944E-001 +9.5999240875E-003 
12273227.785 +9.9340772629E-001 +4.1268765926E-003  -2.1445710445E-005 -2.2549031200E-005  +2.7355345082E-005 +2.5453840863E-005  +9.8385262489E-001 +8.7591409683E-003 
12398372.966 +9.9253660440E-001 +3.6704838276E-003  +5.3359777667E-005 +9.1118790806E-006  +9.6484582173E-006 +8.0867168435E-005  +9.8501324654E-001 +9.7236037254E-003 
12523518.148 +9.9269568920E-001 +3.9728581905E-003  +2.1701918740E-005 +1.5046367480E-005  -3.3214677387E-005 +3.2073487091E-005  +9.8344016075E-001 +7.7807605267E-003 
12648663.329 +9.9281108379E-001 +5.5681467056E-003  +1.8328722945E-005 +3.6046545574E-005  +1.3620661775E-005 +9.4215547506E-006  +9.8476207256E-001 +7.3194354773E-003 
12773808.511 +9.9371784925E-001 +4.3944567442E-003  +3.7105055526E-005 +4.0146638639E-005  -3.2609481423E-005 +7.0928945206E-007  +9.8436146975E-001 +8.4757506847E-003 
12898953.692 +9.9391400814E-001 +3.2583549619E-003  +7.8735192801E-006 +6.0732754719E-006  -3.1025054341E-005 +4.5312706789E-005  +9.8521131277E-001 +7.1128383279E-003 
13024098.874 +9.9372178316E-001 +4.2385011911E-003  -4.6460147132E-005 -2.1016072424E-005  -1.7089269022E-005 +2.5922063287E-005  +9.8468059301E-001 +8.3529949188E-003 
13149244.055 +9.9475777149E-001 +6.2797497958E-003  -3.1126105569E-006 -2.6883662940E-005  -1.8800739781E-005 +1.0481675190E-006  +9.8527991772E-001 +9.2438589782E-003 
13274389.237 +9.9368083477E-001 +4.8649031669E-003  -4.5365384722E-005 +4.1309973312E-005  +1.3499103261E-005 +3.4785905882E-005  +9.8699951172E-001 +8.9005175978E-003 
13399534.418 +9.9398082495E-001 +5.0055831671E-003  -1.2694447832E-005 +1.8548536900E-005  -3.5346271034E-005 +7.6114793046E-006  +9.8525995016E-001 +9.2520937324E-003 
13524679.599 +9.9389016628E-001 +6.0504972935E-003  +4.3145023483E-006 +4.6666638809E-005  +4.7665484999E-006 +3.3302490920E-005  +9.8684042692E-001 +9.2953592539E-003 
13649824.781 +9.9519205093E-001 +4.4884681702E-003  +2.4719112844E-005 +1.3908274013E-005  +2.5841287425E-005 +3.8525147829E-005  +9.8772919178E-001 +9.3097537756E-003 
13774969.962 +9.9394470453E-001 +5.1806867123E-003  +4.1282481106E-005 -9.1184647317E-006  +1.1593226645E-006 -6.2527333284E-006  +9.8731803894E-001 +9.5832645893E-003 
13900115.144 +9.9454963207E-001 +5.4987370968E-003  +5.9657832026E-006 +5.5833996157E-005  -2.3836077162E-005 +5.2254057664E-005  +9.8698341846E-001 +8.8645815849E-003 
14025260.325 +9.9359118938E-001 +5.4683089256E-003  +2.0679722184E-006 +4.9599275371E-006  +2.8198619475E-005 +5.3465323617E-006  +9.8755055666E-001 +9.2788934708E-003 
14150405.507 +9.9382352829E-001 +6.7089498043E-003  +2.8124626624E-005 +1.0889654732E-005  +3.0977906135E-005 -5.6665685406E-006  +9.8765796423E-001 +9.6511244774E-003 
14275550.688 +9.9449884892E-001 +5.5285692215E-003  +2.2842023100E-005 +5.1621937018E-005  +2.1540019588E-005 +8.4679913925E-006  +9.8806488514E-001 +8.3874464035E-003 
14400695.870 +9.9321150780E-001 +5.6400299072E-003  -4.3568434194E-008 +7.0395188231E-005  -6.0365036916E-005 -1.6493226212E-005  +9.8842233419E-001 +9.8629295826E-003 
