!  2-Port S-parameters saved by WinCal
! VAR MeasName=S-Parameters (CALIBRATED_DATA) read from VNA (P5004A)
! VAR MeasDate=22/05/2024 20:44:23
! VAR NAME=Wafer3_r2_c5_pristine
! VAR FILENAME=Wafer3_r2_c5_pristine.S2P
! VAR DATE=22/05/2024 20:44:23
! VAR PHYS_PORTS=1,2
! VAR ObjTypeName=DATASET
! VAR IndexType=Frequency
!
# Hz S RI R 50
9000.000 +2.1123091877E-001 -6.0455060005E-001  +3.1097107567E-003 +2.7107035276E-003  +2.0728511736E-003 -8.9477089932E-004  +4.5979823917E-002 +1.0534235835E-001 
134145.181 +6.2010484934E-001 -7.6272785664E-003  +2.9817824252E-003 +4.1591855697E-003  +5.7282256894E-003 +7.6209697872E-003  +5.7126128674E-001 -1.0262832046E-001 
259290.363 +8.5630053282E-001 -1.2091069669E-001  -1.5697219642E-003 -1.8421821296E-003  +4.3481299654E-003 +2.6572695933E-003  +9.6899098158E-001 -1.2739706039E-001 
384435.544 +9.0452080965E-001 -2.9351344705E-001  -1.0727264453E-003 -5.3312280215E-004  -7.2319561150E-004 -1.8945807824E-003  +1.0742548704E+000 -1.9437627494E-001 
509580.726 +9.6213114262E-001 -1.5981593728E-001  -5.3408148233E-005 -3.3311865991E-004  +5.6254080846E-005 +3.4844732727E-004  +1.0408191681E+000 -9.0808153152E-002 
634725.907 +1.0984196663E+000 -2.0765349269E-001  +4.7009059926E-004 +4.5474222861E-004  -2.5544498931E-004 -1.8512415409E-005  +1.1201119423E+000 -7.1751236916E-002 
759871.089 +1.3015938997E+000 -6.3599228859E-002  +2.5083840592E-004 -2.8603640385E-004  -2.3096798395E-004 -5.0461757928E-004  +1.1907649040E+000 +9.7740292549E-003 
885016.270 +1.2032690048E+000 -1.1179277897E+000  -2.1784582641E-003 +1.5513706021E-003  +1.3728447957E-003 +7.1199215017E-004  +1.3674445152E+000 +6.1106294394E-002 
1010161.452 +1.0821498632E+000 -6.2070399523E-002  +3.1190100126E-003 +3.1436826102E-003  -1.3931352878E-003 -4.5223068446E-003  +5.0845980644E-001 -5.1555290818E-002 
1135306.633 +1.0960500240E+000 -5.4219543934E-002  -2.4317181669E-004 +1.9976003096E-003  +1.3833618141E-004 -1.3899200130E-003  +9.1281855106E-001 +8.3836406469E-002 
1260451.815 +1.4190671444E+000 -3.8419604301E-002  +7.3633325519E-004 -1.1589948554E-003  +1.3810567907E-004 -1.0774072725E-003  +1.0394159555E+000 +1.6536062956E-001 
1385596.996 +1.3094161749E+000 -1.3582131267E-001  +3.0542389140E-004 -1.1173277016E-004  +7.7607558342E-004 -1.1886339635E-003  +1.1325803995E+000 +1.0561853647E-001 
1510742.178 +1.4954922199E+000 -2.5629943609E-001  +6.9983716821E-004 -6.1118160374E-004  +1.5320463572E-003 +2.4160987232E-003  +1.2981323004E+000 +1.5968535841E-001 
1635887.359 +9.8932260275E-001 -3.5275483131E-001  +1.3499645283E-003 +8.2528364146E-005  -3.9705086965E-004 -7.6631532283E-004  +1.0824824572E+000 -1.3849028945E-001 
1761032.541 +1.0427954197E+000 -3.8271477818E-001  -9.6833280986E-004 -3.2827598043E-003  -3.6398705561E-006 +9.3327922514E-004  +1.0587328672E+000 -1.4896827936E-001 
1886177.722 +9.6581614017E-001 -2.4104979634E-001  +1.7317899619E-004 -1.5770905884E-004  -9.9625985604E-004 +1.1055466020E-003  +1.0257847309E+000 -5.8041542768E-002 
2011322.904 +9.7247129679E-001 -1.7401269078E-001  -9.8675524350E-004 +3.6645869841E-004  +9.5412528026E-005 -4.4359749882E-004  +1.0184838772E+000 -1.6901373863E-002 
2136468.085 +9.8784339428E-001 -1.4144724607E-001  +2.1382662817E-004 +7.7673241321E-005  -6.5741376602E-005 -1.4295312576E-004  +1.0156583786E+000 -9.2877745628E-003 
2261613.267 +9.9289715290E-001 -1.2647008896E-001  -3.8766092621E-004 +2.4011867936E-005  +1.2092300458E-003 -1.5128002269E-004  +1.0144810677E+000 +7.6923966408E-003 
2386758.448 +9.7913253307E-001 -1.0920584202E-001  -8.5244444199E-004 -3.6195295979E-004  -2.3021684319E-004 -1.7436686903E-004  +1.0102356672E+000 +6.3135027885E-003 
2511903.630 +9.7892135382E-001 -8.2685172558E-002  +2.5494361762E-004 +3.7660525413E-004  +6.9221656304E-005 +3.9099548303E-005  +1.0088468790E+000 +3.0418097973E-002 
2637048.811 +9.8527514935E-001 -6.6742002964E-002  -1.5008378250E-004 +6.2339665601E-004  +1.8204520165E-004 -6.5109867137E-004  +1.0026903152E+000 +5.7075977325E-002 
2762193.992 +9.9044042826E-001 -4.5237947255E-002  -3.8455738104E-004 +1.1102964345E-004  -3.5338147427E-004 -3.6518431443E-005  +1.0045613050E+000 +7.8470632434E-002 
2887339.174 +9.5400118828E-001 -4.3436273932E-002  -3.0940544093E-005 -3.4899695311E-004  -2.5957848993E-004 -3.8003214286E-004  +1.0207034349E+000 +8.1462383270E-002 
3012484.355 +9.5973467827E-001 -3.5008199513E-002  +6.7134649726E-005 -3.4467678051E-004  +2.2867838561E-004 -7.4076978490E-004  +1.0213418007E+000 +1.0337214172E-001 
3137629.537 +9.6066886187E-001 +1.5057623386E-003  -3.6054025259E-005 +1.5758670634E-004  +2.1220050985E-004 +8.3771170466E-005  +1.0345649719E+000 +1.2441927195E-001 
3262774.718 +9.5451444387E-001 +2.3304797709E-002  -4.7468380217E-005 -1.7899900558E-004  +2.1805455617E-004 +6.7776854848E-006  +1.0304253101E+000 +1.4919504523E-001 
3387919.900 +9.4926446676E-001 +5.6297112256E-002  -3.5755743738E-004 -1.2992595657E-005  -2.5701249251E-004 +3.7525291555E-004  +1.0439494848E+000 +1.4983561635E-001 
3513065.081 +9.5728212595E-001 +7.1996502578E-002  -1.5502299357E-004 +3.4571858123E-004  +3.2436574111E-004 -2.2069268744E-004  +1.0627323389E+000 +1.8580575287E-001 
3638210.263 +9.7302091122E-001 +1.1177306622E-001  -1.1799365748E-003 -3.9299120544E-005  +2.6822357540E-005 +1.6197474906E-004  +1.0798252821E+000 +1.7829556763E-001 
3763355.444 +9.9229180813E-001 +1.2722557783E-001  +8.4745224740E-005 +3.7220338709E-004  -5.2944588242E-004 +3.7532072747E-004  +1.1072614193E+000 +1.7742200196E-001 
3888500.626 +1.0119575262E+000 +1.5045982599E-001  -2.3282735492E-004 -2.8056930751E-004  -9.3301350717E-006 -3.1006202335E-004  +1.1240379810E+000 +1.9516867399E-001 
4013645.807 +9.7740972042E-001 +7.6179198921E-002  -9.4982504379E-005 -2.4811552066E-006  -9.1792506282E-005 -4.1836319724E-004  +1.0888227224E+000 +9.1251090169E-002 
4138790.989 +9.1046822071E-001 +5.3120069206E-003  +8.6388288764E-004 +1.2919172150E-005  -7.8772549750E-004 -5.4051558254E-004  +1.0132757425E+000 +2.3100178689E-002 
4263936.170 +9.0202504396E-001 +2.1562676877E-002  +3.8766470971E-004 -1.6990791482E-004  -6.1441387516E-004 +2.0680368470E-004  +1.0107390881E+000 +1.6136020422E-003 
4389081.352 +9.2313164473E-001 +1.2399606407E-002  +5.8029795764E-004 +1.0939953791E-004  -4.5025660074E-004 +2.7672044234E-004  +9.9912720919E-001 -3.9477534592E-003 
4514226.533 +9.3427658081E-001 +1.6430893913E-002  +6.6228742071E-005 +2.4348031729E-005  +4.8701165360E-004 +2.1578228916E-004  +1.0097067356E+000 -1.9663445652E-002 
4639371.715 +9.4682443142E-001 +1.6376120970E-002  +1.3853382552E-004 -3.7877410068E-004  +3.4801117727E-004 +5.7664816268E-004  +1.0121141672E+000 -1.8300261348E-002 
4764516.896 +9.4295072556E-001 +1.3834540732E-002  -2.4310515437E-004 +1.0690715862E-004  +5.7677406585E-004 +3.3936067484E-004  +1.0109448433E+000 -2.3516487330E-002 
4889662.078 +9.4928181171E-001 +2.4393584579E-002  -7.2753857239E-005 +1.0947867122E-004  -1.1161222210E-004 -2.4451845093E-004  +1.0129210949E+000 -1.8298920244E-002 
5014807.259 +9.4767409563E-001 +1.8189905211E-002  -2.7134121046E-004 -6.3937832601E-004  +3.1776380638E-005 +4.1958708607E-005  +1.0047471523E+000 -1.6499895602E-002 
5139952.441 +9.5925182104E-001 +1.0344969109E-002  -2.4549870432E-005 +1.4716140868E-004  +8.6166895926E-005 +2.0677610883E-004  +1.0027968884E+000 -2.5511767715E-002 
5265097.622 +9.6367728710E-001 +1.1129558086E-002  -4.7417680616E-004 -3.1942628993E-005  -9.1060619525E-006 -1.6111509467E-004  +1.0039174557E+000 -2.5842651725E-002 
5390242.804 +9.7527480125E-001 +1.5934929252E-002  -2.0006769046E-004 +3.2370191184E-004  -2.7093983954E-004 -1.3331855007E-004  +9.9770683050E-001 -1.9061133265E-002 
5515387.985 +9.8014950752E-001 +7.0569813251E-003  -2.9707822250E-005 +2.5072976132E-004  -2.5969481794E-004 -1.7394362658E-004  +1.0061426163E+000 -3.3021457493E-002 
5640533.166 +9.7838485241E-001 +1.7748713493E-002  +1.2277317001E-004 -2.1089891379E-004  -2.8831826057E-004 -5.2144478104E-006  +1.0031806231E+000 -3.3662088215E-002 
5765678.348 +9.7524881363E-001 +2.0044058561E-002  +2.9916517087E-004 -7.6493815868E-005  -1.6237165255E-004 +7.0838454121E-005  +9.9930244684E-001 -3.1677171588E-002 
5890823.529 +9.8653948307E-001 +1.3862147927E-002  +1.6185185814E-005 +5.7790649589E-004  +4.2988333007E-005 +8.6373671365E-005  +9.9273890257E-001 -3.3174663782E-002 
6015968.711 +9.8297375441E-001 -1.3871490955E-004  -5.7290395489E-005 +1.8031423679E-004  +2.3254440748E-004 -8.9771965577E-005  +1.0014359951E+000 -2.6611819863E-002 
6141113.892 +9.8309695721E-001 +2.6791170239E-003  +8.6714586359E-005 +1.4172556985E-004  -1.4893345360E-004 -1.4381234359E-004  +9.9040794373E-001 -2.8509348631E-002 
6266259.074 +9.8885411024E-001 +9.8328292370E-004  +1.9521221475E-005 -2.2829264708E-005  -2.0865609986E-004 -1.1310804257E-004  +9.9116039276E-001 -3.0311957002E-002 
6391404.255 +9.8594838381E-001 -2.5767534971E-003  +5.1668521337E-005 +9.3176422524E-005  -2.1823931093E-005 +1.8709150027E-005  +9.9148714542E-001 -3.3387340605E-002 
6516549.437 +9.8496222496E-001 -1.6453936696E-003  +3.7046429497E-005 +1.6198166122E-004  -7.9221892520E-005 -5.6762278291E-006  +9.8830765486E-001 -3.1651228666E-002 
6641694.618 +9.9056130648E-001 +4.8372149467E-003  -2.3382614017E-005 +1.5353532217E-004  +1.2608118413E-004 +2.9206858017E-005  +9.8726385832E-001 -2.6917874813E-002 
6766839.800 +1.0002520084E+000 -3.2420158386E-003  +9.6535542980E-005 -2.5760986318E-005  -2.2995499603E-004 +2.9867798730E-005  +9.8844867945E-001 -3.0824691057E-002 
6891984.981 +9.9526888132E-001 -2.2767484188E-004  +1.6254604270E-004 +8.6444415501E-005  -9.5985888038E-007 +2.1661299979E-004  +9.7996431589E-001 -3.3629462123E-002 
7017130.163 +9.9200481176E-001 -5.3194761276E-003  +1.0670547636E-004 +9.1159097792E-005  +2.9526246362E-004 -1.7160824791E-004  +9.8112690449E-001 -2.6264905930E-002 
7142275.344 +9.8933428526E-001 -6.2689185143E-004  +8.5542094894E-005 +3.1448600930E-004  +7.1562870289E-005 -1.2250426516E-004  +9.8320353031E-001 -2.3590922356E-002 
7267420.526 +9.9063897133E-001 +2.9464811087E-003  +3.3645483200E-005 -1.5278338105E-004  -2.8969940104E-005 -1.8871829525E-005  +9.8036730289E-001 -1.9693046808E-002 
7392565.707 +9.9367040396E-001 +5.2682161331E-003  -3.2729253689E-006 -6.4732289502E-006  +2.5031607947E-004 +8.2798324001E-006  +9.8359531164E-001 -2.5967925787E-002 
7517710.889 +9.9711281061E-001 +3.7036836147E-003  -9.1062371212E-005 +1.3128585124E-004  +1.0110309813E-004 +8.2970858784E-005  +9.8108351231E-001 -1.8163666129E-002 
7642856.070 +9.9082976580E-001 +3.6339908838E-003  -6.9820162025E-005 +2.2721772257E-004  -7.1309601481E-005 -2.1493593522E-005  +9.7612082958E-001 -2.3025691509E-002 
7768001.252 +9.9353373051E-001 +1.8109381199E-003  -2.2978401830E-005 -1.4344121155E-004  +8.6785992607E-005 -2.4975484848E-005  +9.7104507685E-001 -2.5204956532E-002 
7893146.433 +9.9548929930E-001 +3.3116489649E-003  +9.2329821200E-005 +7.9139979789E-005  +8.3033213741E-005 -2.8518530598E-005  +9.7293227911E-001 -1.7209380865E-002 
8018291.615 +9.8979878426E-001 -2.5245398283E-003  -1.3128641876E-004 -1.1185277253E-004  -3.5638986446E-006 -5.1599578001E-005  +9.7086668015E-001 -2.0653128624E-002 
8143436.796 +9.8786324263E-001 -3.9838105440E-003  +6.0480488173E-005 -4.1111430619E-005  +1.1558448023E-004 -1.1254484707E-004  +9.7223830223E-001 -1.4585062861E-002 
8268581.977 +9.8911732435E-001 -3.3221840858E-003  +1.1419909424E-004 -1.1814228492E-004  +2.8454762651E-004 +1.1567668116E-004  +9.7050964832E-001 -1.1168867350E-002 
8393727.159 +9.8807466030E-001 -6.3620209694E-003  +1.2812885689E-004 -3.4248230804E-005  +2.6881523809E-005 -8.8194383352E-007  +9.7206395864E-001 -1.0133564472E-002 
8518872.340 +9.9101918936E-001 -7.9388022423E-003  +2.0570788183E-004 -1.1026095308E-006  +1.4528533939E-005 +1.2637383770E-004  +9.7727072239E-001 -6.9741010666E-003 
8644017.522 +9.8850500584E-001 -3.8330554962E-003  +1.1717850430E-004 -3.6417950469E-006  +8.1065372797E-005 -1.0353761172E-004  +9.7813725471E-001 -7.4087083340E-003 
8769162.703 +9.9215418100E-001 -2.9754638672E-003  +3.4974822483E-005 +1.8538803488E-006  +6.5987245762E-005 -4.2368283175E-005  +9.7609788179E-001 -1.0662555695E-002 
8894307.885 +9.8841917515E-001 -2.9835700989E-003  -4.1800143663E-005 -1.5505868942E-004  -3.5119312088E-005 +1.1739205547E-005  +9.7541713715E-001 -8.7720453739E-003 
9019453.066 +9.9103516340E-001 -9.3603134155E-004  +1.4920871763E-005 +1.2225816317E-004  -7.8501878306E-005 +3.4963784856E-005  +9.7566169500E-001 -6.3142180443E-003 
9144598.248 +9.9131226540E-001 -2.5531053543E-003  -3.8629583287E-005 -7.9180113971E-005  +4.3539959734E-005 -2.0602958102E-005  +9.7686827183E-001 -7.3200464249E-003 
9269743.429 +9.9118113518E-001 -1.4296174049E-003  +1.4483655377E-006 +3.7592753870E-006  +4.7298690333E-005 -5.8519392041E-005  +9.7522109747E-001 -4.2775869370E-003 
9394888.611 +9.8926478624E-001 +4.6713352203E-003  +7.4432493420E-005 -6.6632572270E-005  +1.5886294932E-005 +8.0251074905E-006  +9.7625756264E-001 -8.2654953003E-003 
9520033.792 +9.9117630720E-001 -2.0394027233E-003  -9.3517723144E-005 -5.6164415582E-005  +1.0541622760E-004 -1.1697233276E-005  +9.7728514671E-001 +5.8382749557E-005 
9645178.974 +9.9228852987E-001 -9.6887350082E-004  +8.0913494457E-005 -7.1469403338E-005  -1.1763858492E-004 +8.8172339019E-005  +9.7446972132E-001 -2.0076036453E-003 
9770324.155 +9.9207746983E-001 -2.3198127747E-004  -2.9019232898E-005 -3.9330632717E-005  -6.3945873990E-005 -1.7567831674E-004  +9.7396034002E-001 -7.0980191231E-004 
9895469.337 +9.9268639088E-001 +1.2534856796E-003  +1.2093339319E-004 +7.9278433986E-005  -5.8887751948E-005 +2.5281955459E-005  +9.7371512651E-001 -7.9742074013E-004 
10020614.518 +9.8974698782E-001 +3.2785534859E-003  -5.6127464632E-006 +1.7312055570E-004  +3.3671440178E-005 +1.0697680409E-005  +9.7641539574E-001 +3.9114952087E-003 
10145759.700 +9.9365723133E-001 +2.1510422230E-003  +5.2476058045E-005 +5.6288830820E-005  -3.6009427276E-005 -3.8712802052E-005  +9.7544509172E-001 +8.6572766304E-004 
10270904.881 +9.9195891619E-001 -1.1596381664E-003  +3.2150306652E-005 +1.0659397958E-004  -1.7822712834E-006 +4.0819460992E-005  +9.7947019339E-001 +1.3185739517E-003 
10396050.063 +9.9142396450E-001 +1.3480782509E-003  +1.2056192645E-005 +4.7939058277E-005  -9.4882352641E-006 +4.4388856622E-005  +9.7616982460E-001 +1.2507438660E-003 
10521195.244 +9.9252271652E-001 +6.7073106766E-004  +6.3587453042E-005 +8.1318303273E-006  +1.8228536646E-005 +3.5332501284E-005  +9.7828090191E-001 +1.5797019005E-003 
10646340.426 +9.9082541466E-001 +2.5515556335E-003  +2.7501428121E-006 +5.0602673582E-005  +2.5785389880E-005 +1.2377020539E-005  +9.7828233242E-001 +2.5256574154E-003 
10771485.607 +9.9279224873E-001 +2.7821362019E-003  +3.1246239814E-005 +8.9313369244E-005  -2.9392913348E-007 +8.1239004430E-006  +9.7847139835E-001 +4.6294927597E-003 
10896630.788 +9.9252283573E-001 +4.7733187675E-003  +7.2488881415E-005 +9.2115275038E-005  +7.9179095337E-005 -3.1338622648E-005  +9.7948777676E-001 +4.5357048512E-003 
11021775.970 +9.9216556549E-001 +4.9012005329E-003  -5.1242495829E-005 +4.5799912186E-005  +5.9782032622E-006 +2.5771299988E-005  +9.7920417786E-001 +5.4892897606E-003 
11146921.151 +9.9296337366E-001 +3.2753646374E-003  -1.5900459402E-006 +2.5079138140E-005  -1.9666365915E-005 -3.7171033910E-005  +9.8090720177E-001 +5.7879090309E-003 
11272066.333 +9.9136054516E-001 +3.1112134457E-003  +4.6904751798E-005 +1.6252795831E-005  -6.0283797211E-005 +4.4031952712E-005  +9.7879910469E-001 +5.0304234028E-003 
11397211.514 +9.9347531796E-001 +4.0627121925E-003  +3.6256285966E-005 +1.1395540059E-004  +1.0192303307E-005 +6.9226247433E-005  +9.8041135073E-001 +4.9982964993E-003 
11522356.696 +9.9366450310E-001 +3.1288862228E-003  +6.4222738729E-005 +1.7085421860E-006  -2.1401137928E-007 +5.3847958043E-005  +9.8112857342E-001 +4.6903789043E-003 
11647501.877 +9.9216067791E-001 +4.0681958199E-003  -7.6253534644E-005 -3.1033428968E-005  +2.4386354198E-005 +3.6112025555E-005  +9.8049426079E-001 +6.5264999866E-003 
11772647.059 +9.9294853210E-001 +4.8319697380E-003  +5.4095733503E-005 +7.2596063546E-005  +5.1049442845E-005 -2.6532818083E-005  +9.8056256771E-001 +6.2350630760E-003 
11897792.240 +9.9266701937E-001 +4.6305656433E-003  +6.0292091803E-005 +2.7390900868E-005  +2.1092120733E-005 +1.9370354494E-005  +9.8174476624E-001 +5.9294402599E-003 
12022937.422 +9.9479544163E-001 +4.7617256641E-003  -2.8776770705E-005 +1.0905881936E-005  +3.1169645808E-005 +5.7040120737E-005  +9.8147726059E-001 +5.4831206799E-003 
12148082.603 +9.9354618788E-001 +3.7423968315E-003  +4.3074578571E-005 +2.2528252885E-005  -1.7167914848E-005 +8.2644830400E-005  +9.8205792904E-001 +8.0003738403E-003 
12273227.785 +9.9370110035E-001 +5.6860148907E-003  -9.6278654382E-006 +3.6961791920E-005  +2.4114349799E-005 +4.3021758756E-005  +9.8355245590E-001 +7.4748694897E-003 
12398372.966 +9.9448132515E-001 +4.9747228622E-003  +1.3809122720E-005 +2.2227575755E-005  +7.8795055742E-006 +1.1919150893E-005  +9.8450362682E-001 +7.2166919708E-003 
12523518.148 +9.9328124523E-001 +4.6526789665E-003  +2.3936501748E-005 -1.1734241525E-006  +2.8156067856E-005 +7.0340196544E-005  +9.8297148943E-001 +7.6396763325E-003 
12648663.329 +9.9479401112E-001 +5.9703886509E-003  +2.5745855964E-005 +2.7503421734E-005  +2.0217768906E-005 +4.3251486204E-005  +9.8430997133E-001 +8.1394612789E-003 
12773808.511 +9.9332767725E-001 +4.2255371809E-003  -9.8555228760E-006 +5.6149921875E-005  -3.1558483897E-006 -2.2642685508E-005  +9.8430037498E-001 +7.1355998516E-003 
12898953.692 +9.9538046122E-001 +5.0421506166E-003  -5.8670816543E-006 +2.7857431633E-006  -3.7107624848E-006 +5.1355997130E-005  +9.8442322016E-001 +7.8188851476E-003 
13024098.874 +9.9451500177E-001 +5.3758844733E-003  +7.6578453445E-006 +5.0306836783E-005  +6.8986235419E-005 +5.7668665249E-005  +9.8490679264E-001 +7.7606588602E-003 
13149244.055 +9.9395489693E-001 +6.3317678869E-003  +3.1815485272E-005 +2.7709951610E-005  -3.8021753426E-005 +3.4997505281E-005  +9.8596101999E-001 +7.9548750073E-003 
13274389.237 +9.9495387077E-001 +4.6632029116E-003  +1.0359330190E-005 -5.4687043303E-006  -1.5189562873E-005 +4.3573225412E-005  +9.8654693365E-001 +7.6736193150E-003 
13399534.418 +9.9464905262E-001 +4.7609955072E-003  +5.5458927818E-005 +3.2337640732E-005  +7.5994348663E-006 +4.1918552597E-005  +9.8605722189E-001 +8.4621310234E-003 
13524679.599 +9.9515813589E-001 +6.4849257469E-003  +1.3455082808E-005 +5.7875437051E-005  +4.6916538849E-005 +4.4443269871E-005  +9.8651665449E-001 +8.1307590008E-003 
13649824.781 +9.9661171436E-001 +5.2910149097E-003  +1.9358076315E-006 +3.7927187805E-005  +1.4509210814E-005 +2.1471161745E-005  +9.8726016283E-001 +7.9896152020E-003 
13774969.962 +9.9500477314E-001 +5.1125586033E-003  +4.7103776524E-006 +6.1842787545E-005  +6.0611455410E-005 +8.8471686468E-005  +9.8710143566E-001 +8.0389231443E-003 
13900115.144 +9.9503129721E-001 +5.4840147495E-003  -1.8314709450E-005 +9.0833083959E-005  +4.3754771468E-005 +9.5558316389E-005  +9.8666113615E-001 +8.0048441887E-003 
14025260.325 +9.9453639984E-001 +5.4472386837E-003  +4.8689489631E-006 +7.4661700637E-005  +4.9043668696E-005 +6.0560698330E-005  +9.8699378967E-001 +8.6600482464E-003 
14150405.507 +9.9513447285E-001 +6.2851905823E-003  +2.1525795091E-005 +6.1496430135E-005  +7.8006160038E-005 +2.7284793759E-005  +9.8731273413E-001 +9.1020762920E-003 
14275550.688 +9.9519860744E-001 +4.5824348927E-003  +5.1172162784E-005 +2.6816311220E-005  +4.3522315536E-005 +1.9679546313E-005  +9.8763895035E-001 +6.6315233707E-003 
14400695.870 +9.9400252104E-001 +5.0213336945E-003  +6.3215829869E-006 +3.9107195335E-005  +2.8982687581E-005 +9.4656788860E-006  +9.8734295368E-001 +8.1435143948E-003 
