!  2-Port S-parameters saved by WinCal
! VAR MeasName=S-Parameters (CALIBRATED_DATA) read from VNA (P5004A)
! VAR MeasDate=22/05/2024 20:28:29
! VAR NAME=Wafer3_r2_c4_pristine 2
! VAR FILENAME=Wafer3_r2_c4_pristine 2.S2P
! VAR DATE=22/05/2024 20:28:29
! VAR PHYS_PORTS=1,2
! VAR ObjTypeName=DATASET
! VAR IndexType=Frequency
!
# Hz S RI R 50
9000.000 +2.1089996397E-001 -5.9278327227E-001  +5.3700413555E-003 -1.2428786140E-003  +1.3044483494E-003 -8.8055781089E-004  +4.1221216321E-002 +1.0705512762E-001 
134145.181 +6.8889153004E-001 +4.4071622193E-002  +8.3791110665E-003 -1.5987120569E-002  -5.8289798908E-003 +1.2706984999E-003  +5.9030634165E-001 -1.6421191394E-001 
259290.363 +8.7650704384E-001 -1.2879818678E-001  +4.7784845810E-004 +6.1522671022E-003  -5.6432472775E-004 +4.6596145257E-003  +9.7336167097E-001 -1.0998155177E-001 
384435.544 +9.2628520727E-001 -2.8568315506E-001  -1.4959680266E-004 -3.0311130104E-005  -3.7220886443E-003 +2.0620270516E-004  +1.0528111458E+000 -1.8506687880E-001 
509580.726 +9.7182190418E-001 -1.5769368410E-001  -1.1223549955E-003 -1.1393702589E-003  -1.1392913293E-003 +1.1505782604E-003  +1.0405461788E+000 -9.6674203873E-002 
634725.907 +1.1022095680E+000 -2.0127603412E-001  -1.0872071289E-004 +3.3756688936E-004  +5.9450732078E-004 +1.0848107922E-004  +1.1179302931E+000 -7.9404890537E-002 
759871.089 +1.2939686775E+000 -5.2818149328E-002  +4.6136532910E-004 +3.8308295188E-004  +5.9604615672E-004 +6.5150595037E-004  +1.1885201931E+000 +4.7725141048E-003 
885016.270 +1.1330395937E+000 -9.3410062790E-001  -1.3327574125E-003 -3.8457859773E-003  +6.5746773034E-003 +3.4784465097E-003  +1.3515655994E+000 +3.5533308983E-002 
1010161.452 +1.1247566938E+000 -8.5171997547E-002  -8.4144540597E-004 -4.2457046220E-004  +1.8841957208E-003 +6.8730267230E-005  +5.8845603466E-001 -1.0879579186E-001 
1135306.633 +1.1221547127E+000 -6.4391702414E-002  +8.3721464034E-004 -4.2975859833E-004  +5.1882932894E-004 -3.5244986066E-005  +9.0636610985E-001 +6.6245794296E-002 
1260451.815 +1.4366838932E+000 -3.6100685596E-002  +3.1052692793E-003 -3.8695079274E-004  +1.1981485877E-003 +1.5205023810E-003  +1.0297775269E+000 +1.4611756802E-001 
1385596.996 +1.3196771145E+000 -1.3929578662E-001  -1.2956694700E-003 +3.6744598765E-004  +7.3573406553E-004 -2.3894812330E-005  +1.1272007227E+000 +9.7281962633E-002 
1510742.178 +1.4971418381E+000 -2.4564152956E-001  +4.5911228517E-004 +1.4587494661E-004  +1.1137952097E-003 +7.1086786920E-004  +1.2903370857E+000 +1.6088980436E-001 
1635887.359 +9.9152117968E-001 -3.7199348211E-001  +1.0650724871E-003 +4.1298000724E-005  +2.6928633451E-004 -7.2407093830E-004  +1.0922975540E+000 -1.9749647379E-001 
1761032.541 +1.0465806723E+000 -4.0727579594E-001  +3.3990273369E-004 +4.9561954802E-004  +8.6372724036E-004 -1.5640415950E-003  +1.0621070862E+000 -1.5239422023E-001 
1886177.722 +9.7942340374E-001 -2.4138593674E-001  -5.4244167404E-004 -1.1780660134E-003  -1.4420566149E-003 +1.3388902880E-003  +1.0288487673E+000 -6.9615423679E-002 
2011322.904 +9.6627479792E-001 -1.9657927752E-001  -1.2592904386E-004 -1.8600568001E-004  +3.6688218825E-004 -1.3806219795E-004  +1.0221365690E+000 -2.2181183100E-002 
2136468.085 +9.7604346275E-001 -1.6766750813E-001  -5.1185279153E-004 +1.0719057173E-005  -5.7772628497E-004 -2.3479844094E-004  +1.0196212530E+000 -1.8844902515E-002 
2261613.267 +9.8145997524E-001 -1.4917263389E-001  +9.9989539012E-004 -3.5308778752E-004  +2.3573842191E-004 -1.3482004579E-004  +1.0108021498E+000 +7.1732401848E-003 
2386758.448 +9.6926319599E-001 -1.2231388688E-001  +2.3937936930E-004 -2.8942269273E-004  -2.5878463930E-005 +2.3461878300E-004  +1.0134944916E+000 +1.9460022449E-002 
2511903.630 +9.5799320936E-001 -9.0669542551E-002  -2.1947597270E-004 -5.2579451585E-004  -4.0641831583E-004 +8.1995094661E-004  +1.0238733292E+000 +4.1571438313E-002 
2637048.811 +9.8057138920E-001 -8.9231044054E-002  -5.8189354604E-005 -9.0361217735E-004  -1.4334795997E-003 +5.0975382328E-004  +1.0071716309E+000 +6.1852753162E-002 
2762193.992 +9.8104268312E-001 -7.3418460786E-002  -9.9699296698E-005 +3.8639848935E-004  -1.6137099010E-004 +3.5806668166E-005  +1.0041054487E+000 +7.9483866692E-002 
2887339.174 +9.5407164097E-001 -8.7663203478E-002  -5.2305578720E-004 +4.1395291919E-004  +1.3815717830E-004 -6.1035429826E-004  +1.0209097862E+000 +9.9291108549E-002 
3012484.355 +9.4086885452E-001 -5.0880849361E-002  -2.3831923318E-004 +1.1291181181E-005  +3.4739539842E-004 +5.0085986732E-004  +1.0148581266E+000 +1.0787473619E-001 
3137629.537 +9.3600356579E-001 -1.6612198204E-002  -4.9845990725E-004 +1.1814675236E-004  +1.7556748935E-004 -3.6853866186E-004  +1.0395857096E+000 +1.2490760535E-001 
3262774.718 +9.2881035805E-001 +1.0461136699E-002  +2.3609824711E-004 +3.9188496885E-004  +9.6455769381E-006 -1.0499284690E-004  +1.0357675552E+000 +1.4142848551E-001 
3387919.900 +9.2553550005E-001 +3.7058874965E-002  +7.6917436672E-004 -3.3412579796E-004  +7.5909818406E-005 +4.9532491175E-007  +1.0472530127E+000 +1.5449318290E-001 
3513065.081 +9.3477195501E-001 +6.1742596328E-002  -8.6060812464E-005 +3.4395788680E-004  +5.1362707745E-004 +1.7955717340E-005  +1.0666959286E+000 +1.8349200487E-001 
3638210.263 +9.5355618000E-001 +9.5930248499E-002  +2.6044773404E-004 -2.1819039830E-004  +3.3911567880E-004 +2.5357599952E-004  +1.0819655657E+000 +1.8820340931E-001 
3763355.444 +9.7173833847E-001 +1.1824525148E-001  -1.1904037092E-004 -1.3257666433E-004  +5.8596208692E-004 +2.9832104337E-004  +1.1082460880E+000 +1.8693882227E-001 
3888500.626 +9.9041897058E-001 +1.2730143964E-001  +2.1873755031E-004 -8.6992818979E-005  +4.0683207772E-005 -3.8469085121E-004  +1.1282328367E+000 +1.9090920687E-001 
4013645.807 +9.4451457262E-001 +6.8974345922E-002  -4.9980403855E-004 +4.9276149366E-004  +9.1780158982E-005 -3.0252151191E-004  +1.0907675028E+000 +8.6211889982E-002 
4138790.989 +8.8772326708E-001 +7.9132355750E-003  +3.0328013963E-005 -1.7155782552E-004  -2.8365876642E-004 +6.3765485538E-004  +1.0116354227E+000 +8.1495046616E-003 
4263936.170 +8.7799531221E-001 +1.6488248482E-002  +3.4611040610E-004 +2.2368546342E-004  -3.2700892189E-004 -7.5312564149E-004  +1.0118217468E+000 +2.9211938381E-003 
4389081.352 +8.9789700508E-001 +1.8053479493E-002  +5.2154727746E-004 -7.3749915464E-004  +4.1270375368E-004 +2.2487073147E-004  +1.0049459934E+000 -9.5971003175E-003 
4514226.533 +9.1535890102E-001 +2.2730516270E-002  +2.3075127683E-004 +8.3682738477E-005  -2.1378246311E-004 -4.8959173728E-004  +1.0108804703E+000 -2.0500283688E-002 
4639371.715 +9.2626059055E-001 +2.5953330100E-002  +5.7080219449E-006 -3.6168564111E-004  +4.4247437472E-005 -5.2439922001E-005  +1.0117646456E+000 -1.7309935763E-002 
4764516.896 +9.1938024759E-001 +2.2763021290E-002  +2.9655400795E-005 -2.1152278350E-004  -2.4571453105E-004 +2.0870297158E-004  +1.0105211735E+000 -2.5684069842E-002 
4889662.078 +9.3041557074E-001 +2.9903337359E-002  -3.6843095586E-005 -3.0154726119E-004  +2.9993074713E-004 +1.1113115761E-004  +1.0075154305E+000 -3.1557630748E-002 
5014807.259 +9.3316406012E-001 +2.5190481916E-002  -1.4460725652E-004 +2.6872401577E-005  -2.1682262013E-004 -2.2729122429E-004  +1.0044800043E+000 -2.7463652194E-002 
5139952.441 +9.4935631752E-001 +2.5925112888E-002  -5.7770556305E-004 +1.3793683320E-004  -2.0214430697E-004 -3.3612427069E-004  +1.0077284575E+000 -3.6403071135E-002 
5265097.622 +9.5126545429E-001 +3.1861875206E-002  +2.7261336800E-004 -1.4640277368E-004  +4.7111677122E-004 -7.7371412772E-005  +1.0037715435E+000 -3.7678573281E-002 
5390242.804 +9.5782977343E-001 +2.8975445777E-002  +1.9817280190E-005 -3.0747690471E-004  -1.4141775318E-004 -1.4344215742E-005  +9.9480670691E-001 -3.7036158144E-002 
5515387.985 +9.7110813856E-001 +2.8012886643E-002  +2.3609181517E-004 -1.0379422747E-004  +3.0725955730E-004 +3.8122839760E-004  +9.9737483263E-001 -4.0686100721E-002 
5640533.166 +9.7322899103E-001 +2.2185549140E-002  -1.0113813187E-004 -2.3981386039E-004  -2.2963310766E-004 -2.2798975988E-004  +9.9522364140E-001 -3.4309946001E-002 
5765678.348 +9.6890288591E-001 +2.6868201792E-002  +3.0314986361E-004 +2.8734855005E-004  +1.0071211364E-005 -2.7592273545E-004  +9.9611228704E-001 -3.4162417054E-002 
5890823.529 +9.7590070963E-001 +1.9845537841E-002  +2.0670836966E-004 -2.3502344266E-004  +3.8226344623E-004 +1.3027546811E-004  +9.9410551786E-001 -3.6901310086E-002 
6015968.711 +9.7617405653E-001 +1.4563448727E-002  +3.3097585401E-005 +2.5765024475E-005  +4.5349585707E-004 +1.3522625522E-005  +9.9796164036E-001 -3.2425276935E-002 
6141113.892 +9.8273211718E-001 +1.9366651773E-002  +7.7044707723E-005 -2.5788566563E-004  -2.5960558560E-004 -2.0728859818E-004  +9.8839110136E-001 -3.6701276898E-002 
6266259.074 +9.8045021296E-001 +1.6484946012E-002  +1.9439581592E-005 +2.0961309201E-004  +1.6258428514E-004 -3.0366101419E-004  +9.9087387323E-001 -3.6551289260E-002 
6391404.255 +9.8039227724E-001 +3.3132508397E-003  +3.3646665543E-006 +1.1405313126E-004  +8.1855585449E-005 +4.2157099233E-004  +9.8668491840E-001 -3.9359249175E-002 
6516549.437 +9.7976368666E-001 +1.2730821967E-002  +5.5243017414E-005 +8.4987019363E-005  +2.9947445728E-004 -2.1253502928E-004  +9.8429030180E-001 -3.3811494708E-002 
6641694.618 +9.9070596695E-001 +1.6233533621E-002  -1.7951559857E-004 +2.2964243544E-004  -9.9608296296E-005 +9.3057708000E-005  +9.8968863487E-001 -3.1014710665E-002 
6766839.800 +9.9742794037E-001 +1.2694060802E-002  -9.6549665614E-005 +7.3877708928E-005  -6.3040155510E-005 -1.8754144548E-005  +9.8621374369E-001 -3.3510267735E-002 
6891984.981 +9.9457168579E-001 +1.5860423446E-002  +2.7322681854E-004 +4.2651383410E-005  +1.9239485846E-004 +1.2730390881E-004  +9.7545605898E-001 -3.0222103000E-002 
7017130.163 +9.9004459381E-001 +1.1131480336E-002  -2.7586620490E-005 +4.3656720663E-005  +2.1896335238E-004 -2.9632123187E-004  +9.8373883963E-001 -2.8445854783E-002 
7142275.344 +9.9124974012E-001 +1.6210198402E-002  +1.3137850328E-004 -1.5709127183E-004  +5.5429532040E-006 -6.4910495894E-006  +9.8324263096E-001 -2.4086132646E-002 
7267420.526 +9.9433463812E-001 +1.9513547421E-002  -1.1331700080E-004 -9.6836723969E-005  +1.5332019757E-005 +3.1786598811E-006  +9.7848081589E-001 -2.0623043180E-002 
7392565.707 +9.9365431070E-001 +1.3505578041E-002  +3.3514935058E-004 -7.7206495916E-005  +1.1814207392E-004 -5.7648765505E-005  +9.8227703571E-001 -2.6884108782E-002 
7517710.889 +9.9619734287E-001 +1.4562457800E-002  +4.8980029533E-005 +1.1961074051E-006  +2.7718493948E-004 -3.9838072553E-005  +9.7673350573E-001 -2.3991644382E-002 
7642856.070 +9.9220716953E-001 +1.0126888752E-002  -4.2290062993E-005 +2.6183776208E-004  +3.2817205647E-004 +1.6445849906E-004  +9.7730731964E-001 -3.0309125781E-002 
7768001.252 +9.9992293119E-001 +8.8655203581E-003  +1.4794676099E-004 -3.0661831261E-004  +4.6071069664E-004 -1.9623919798E-005  +9.6870744228E-001 -3.0711129308E-002 
7893146.433 +9.9780589342E-001 +1.0215103626E-002  +3.9082283365E-007 -1.8776307797E-006  +5.1862552937E-006 -1.6195367789E-004  +9.7527146339E-001 -1.9191488624E-002 
8018291.615 +9.9431967735E-001 +9.5297843218E-003  -5.8266869019E-005 -9.1321191576E-005  +1.9710429478E-004 -8.8560875156E-005  +9.6955990791E-001 -2.1726474166E-002 
8143436.796 +9.9291974306E-001 +4.2636245489E-003  +8.3761020505E-005 -9.6797281003E-005  +2.0521314582E-004 +1.5160345356E-005  +9.7238391638E-001 -1.5555575490E-002 
8268581.977 +9.8994565010E-001 +7.5352489948E-003  -1.6988290008E-004 +6.4802632551E-005  +8.8762499217E-005 -1.4629786892E-004  +9.7306954861E-001 -1.4119952917E-002 
8393727.159 +9.9340373278E-001 +2.9085278511E-003  +2.3718002922E-005 -1.5292991884E-004  +1.7020871746E-004 -6.1389117036E-005  +9.7514969110E-001 -1.2687236071E-002 
8518872.340 +9.9401754141E-001 +3.8786828518E-003  -1.1414740584E-004 -2.4250820570E-004  +7.6653406722E-005 -1.6522335500E-006  +9.7409868240E-001 -9.8745822906E-003 
8644017.522 +9.9414724112E-001 +5.3931474686E-003  +3.6034587538E-005 -1.0668703180E-004  -1.4867934806E-004 +3.1938849133E-005  +9.7898769379E-001 -9.0762078762E-003 
8769162.703 +9.9717968702E-001 +4.6414732933E-003  -1.1934405484E-004 -1.2947901268E-004  +4.8014750064E-005 -2.2135750623E-004  +9.7714173794E-001 -8.5043907166E-003 
8894307.885 +9.9140715599E-001 +1.8613636494E-003  +6.1758633819E-005 -1.7604822642E-004  -8.3827457274E-005 -7.6870674093E-007  +9.7611778975E-001 -1.0507315397E-002 
9019453.066 +9.9296855927E-001 +1.0043978691E-003  -7.6821292168E-005 -1.7931943876E-004  +3.2529875170E-005 +6.5269930928E-005  +9.7383600473E-001 -9.5907747746E-003 
9144598.248 +9.9398803711E-001 +2.6533007622E-003  +1.8738177459E-005 -1.7459790979E-004  -5.0460119382E-005 -8.1744161434E-005  +9.7662043571E-001 -4.9802958965E-003 
9269743.429 +9.9353778362E-001 +1.5736818314E-003  -5.0996713981E-005 +7.0222566137E-005  +6.2359817093E-005 +6.0325455706E-006  +9.7700530291E-001 -4.1003525257E-003 
9394888.611 +9.9451649189E-001 +6.5757930279E-003  -3.6023047869E-005 -5.4525782616E-005  +5.1888950111E-005 -8.2142105384E-007  +9.7607719898E-001 -7.6675713062E-003 
9520033.792 +9.9414336681E-001 -2.2915005684E-004  +4.8185538617E-006 +2.5548391932E-005  -8.3998056652E-005 +1.3119967480E-004  +9.7526860237E-001 -3.3979415894E-003 
9645178.974 +9.9433624744E-001 +3.6149919033E-003  +1.4987297618E-005 +5.3138865042E-005  +7.6957992860E-005 +1.2104828784E-006  +9.7552978992E-001 +1.9472837448E-004 
9770324.155 +9.9461388588E-001 +4.6525895596E-003  +2.8892904083E-005 -1.5297380742E-004  -1.1681417527E-004 +5.1584916946E-005  +9.7416645288E-001 -1.1821091175E-003 
9895469.337 +9.9481987953E-001 +5.7063698769E-003  -5.5491786043E-005 -2.6994566724E-006  -1.0344481780E-005 +8.2671678683E-005  +9.7447621822E-001 +1.2293457985E-004 
10020614.518 +9.9383211136E-001 +6.7165791988E-003  -2.3654141842E-005 +4.0515615183E-006  -7.7337783296E-005 -4.2311101424E-005  +9.7606813908E-001 +1.7292797565E-003 
10145759.700 +9.9424433708E-001 +5.0833225250E-003  -4.3395073590E-005 -9.6341827884E-005  +1.4896726498E-005 +8.5268111434E-005  +9.7702801228E-001 -3.2088160515E-004 
10270904.881 +9.9675285816E-001 +4.6634376049E-003  -1.1607341730E-004 -2.4479981221E-005  +1.0724593449E-004 +6.5733736847E-005  +9.7857201099E-001 +1.4878809452E-003 
10396050.063 +9.9364519119E-001 +4.8571825027E-003  -4.2836793000E-005 +5.6474946177E-006  -6.3372768636E-005 +6.7868695623E-006  +9.7756350040E-001 +2.7858018875E-003 
10521195.244 +9.9690777063E-001 +6.1269104481E-003  +2.2641532269E-005 +7.6321135566E-005  -7.7402335592E-005 +2.6519941457E-005  +9.7939836979E-001 +2.3837685585E-003 
10646340.426 +9.9404060841E-001 +4.2432844639E-003  -7.2268689109E-005 +5.4470350733E-005  -2.5224591809E-005 +5.6552824390E-005  +9.7802412510E-001 +4.3124556541E-003 
10771485.607 +9.9372351170E-001 +5.0354003906E-003  +3.6817553337E-005 -6.3680163294E-006  -7.5766030932E-005 +7.1721391578E-005  +9.8075306416E-001 +3.8110315800E-003 
10896630.788 +9.9370837212E-001 +5.1684975624E-003  -1.1875367818E-005 -3.3000149415E-005  -9.6139083325E-006 +1.1909607565E-005  +9.7936469316E-001 +6.3154101372E-003 
11021775.970 +9.9271297455E-001 +6.0525834560E-003  -4.8451194743E-005 +3.5262615711E-005  +1.7684315026E-005 +2.0294975911E-005  +9.8013961315E-001 +6.0424506664E-003 
11146921.151 +9.9459838867E-001 +2.9429197311E-003  +2.8489976103E-005 +9.8682212410E-006  +1.1495527360E-005 -1.6246136511E-005  +9.8156994581E-001 +6.3900053501E-003 
11272066.333 +9.9329203367E-001 +3.7055909634E-003  -7.3862145655E-005 +8.4630562924E-005  -4.8709716793E-006 +3.1714997021E-005  +9.8022317886E-001 +6.8950057030E-003 
11397211.514 +9.9401330948E-001 +4.8135817051E-003  -2.4008997570E-005 +1.0529384599E-004  +3.7545465602E-005 +4.6531207772E-005  +9.8096680641E-001 +6.4206719398E-003 
11522356.696 +9.9450027943E-001 +4.0948987007E-003  -1.4731951524E-005 -2.7961550586E-007  -3.9957601984E-005 +6.9362780778E-005  +9.8157227039E-001 +6.5478980541E-003 
11647501.877 +9.9352264404E-001 +5.2820444107E-003  +2.2074509616E-005 +9.3839487818E-005  -4.4631284254E-005 -1.7934475181E-005  +9.8051297665E-001 +6.9976449013E-003 
11772647.059 +9.9446570873E-001 +3.5892128944E-003  +2.6434947358E-005 +5.6825752836E-005  +2.3854372557E-005 +1.0392923286E-005  +9.8125934601E-001 +4.9770474434E-003 
11897792.240 +9.9387431145E-001 +5.9821009636E-003  -6.4900450525E-007 +1.7246671632E-005  +2.5203225960E-005 -4.5772241720E-005  +9.8210453987E-001 +5.5504739285E-003 
12022937.422 +9.9498683214E-001 +5.7419538498E-003  -1.5774588974E-005 +1.8419303160E-005  -2.9880562579E-005 +5.6656816014E-005  +9.8188531399E-001 +4.6886205673E-003 
12148082.603 +9.9504351616E-001 +5.3832232952E-003  +2.0375102395E-005 -8.6678082880E-006  +5.9925587266E-005 -7.4401403253E-005  +9.8282760382E-001 +6.7245364189E-003 
12273227.785 +9.9563986063E-001 +5.3330659866E-003  -1.9885956135E-005 +2.9120266845E-005  -1.5302006432E-005 -1.8224049199E-005  +9.8329842091E-001 +6.3140094280E-003 
12398372.966 +9.9581325054E-001 +5.3637623787E-003  +1.1727773199E-005 +4.9802594731E-005  +2.4108165235E-005 +3.4051015973E-005  +9.8488748074E-001 +6.4136087894E-003 
12523518.148 +9.9372410774E-001 +4.8571228981E-003  +3.3890068153E-005 -3.2567827475E-006  -2.5855279091E-006 +6.6189139034E-005  +9.8413938284E-001 +6.4324438572E-003 
12648663.329 +9.9496066570E-001 +6.8061202765E-003  +4.9489481171E-005 +4.2692739953E-005  -8.3039394667E-006 +2.9765473300E-005  +9.8470240831E-001 +6.8300962448E-003 
12773808.511 +9.9451863766E-001 +4.0480345488E-003  +1.8145463400E-005 +1.1990676285E-005  -3.7372819861E-006 -1.3156768546E-005  +9.8507565260E-001 +6.1357021332E-003 
12898953.692 +9.9587583542E-001 +5.8600604534E-003  -5.5938202422E-005 +3.6806784919E-005  +2.6273573894E-005 -2.5219404051E-005  +9.8458999395E-001 +6.3673183322E-003 
13024098.874 +9.9562233686E-001 +6.3863620162E-003  -6.2834083110E-006 +5.1386083214E-005  +1.8793374693E-005 +1.4307113815E-005  +9.8538130522E-001 +7.8584551811E-003 
13149244.055 +9.9426144361E-001 +6.9494526833E-003  -3.2079653465E-005 -7.0535370469E-006  +1.4701005057E-005 +2.0995847080E-005  +9.8617577553E-001 +7.4563734233E-003 
13274389.237 +9.9530643225E-001 +5.2822958678E-003  -3.4230702113E-006 +4.4312459067E-005  +1.0090655451E-005 +4.5928616601E-005  +9.8720383644E-001 +6.4038205892E-003 
13399534.418 +9.9531018734E-001 +6.0604587197E-003  -4.4158776291E-005 +4.2615003622E-005  +1.1324344996E-005 +4.6441378799E-005  +9.8674714565E-001 +8.0916285515E-003 
13524679.599 +9.9527877569E-001 +7.0073157549E-003  -2.3371769203E-005 +1.1277111298E-006  +2.1978154109E-005 -1.5797413653E-005  +9.8785132170E-001 +7.9911500216E-003 
13649824.781 +9.9672979116E-001 +5.2309036255E-003  -1.2469837202E-005 +2.2941503630E-005  -1.4032950276E-005 +4.8530564527E-005  +9.8806196451E-001 +7.8755766153E-003 
13774969.962 +9.9587464333E-001 +5.7524144650E-003  -2.7608301025E-005 +2.9001821531E-005  -9.6332878456E-006 +7.1008165833E-005  +9.8763465881E-001 +6.9394558668E-003 
13900115.144 +9.9566721916E-001 +6.7373514175E-003  -4.2907864554E-005 +3.3347409044E-005  +3.8103800762E-005 +2.4073073291E-005  +9.8725968599E-001 +7.1498751640E-003 
14025260.325 +9.9467563629E-001 +6.7093074322E-003  -2.3525215511E-005 +3.1584324461E-005  +5.7013130572E-006 +9.3056980404E-005  +9.8795449734E-001 +8.2082152367E-003 
14150405.507 +9.9602258205E-001 +5.9507489204E-003  +7.9387973528E-006 +4.9749127356E-005  +5.2403211157E-005 +6.5093801823E-005  +9.8762619495E-001 +8.5802674294E-003 
14275550.688 +9.9625581503E-001 +5.8450102806E-003  +7.4947965913E-006 +3.0068726119E-005  -4.8884248827E-007 +4.3864311010E-005  +9.8773193359E-001 +7.8700482845E-003 
14400695.870 +9.9471294880E-001 +6.1859190464E-003  -1.9901672204E-005 +2.1412266506E-005  +3.2586456655E-005 -4.5834358389E-006  +9.8790818453E-001 +8.6958706379E-003 
