!  2-Port S-parameters saved by WinCal
! VAR MeasName=S-Parameters (CALIBRATED_DATA) read from VNA (P5004A)
! VAR MeasDate=22/05/2024 21:54:46
! VAR NAME=Wafer3_r2_c5_pristine_pos0.0dc
! VAR FILENAME=Wafer3_r2_c5_pristine_pos0.0dc.S2P
! VAR DATE=22/05/2024 21:54:46
! VAR PHYS_PORTS=1,2
! VAR ObjTypeName=DATASET
! VAR IndexType=Frequency
!
# Hz S RI R 50
9000.000 +2.0974330604E-001 -6.0090738535E-001  +2.7809324674E-003 -2.7216291055E-003  -5.3705327446E-004 +5.7515542721E-004  +4.6265758574E-002 +1.0889453441E-001 
134145.181 +6.9559764862E-001 +2.9283553362E-002  -4.6426160261E-003 +2.2356777918E-003  -6.6209994256E-003 +1.1633602902E-002  +7.3239564896E-001 -1.3911753893E-001 
259290.363 +8.7217253447E-001 -1.2050876766E-001  -2.0957209636E-003 -1.2468611822E-003  +3.4385110484E-004 +2.7896955144E-003  +1.0132383108E+000 -1.1851486564E-001 
384435.544 +9.1032755375E-001 -2.9214537144E-001  +2.4293516763E-003 +9.2608353589E-004  -3.8896976039E-003 +2.3121849517E-004  +1.0739091635E+000 -1.9999629259E-001 
509580.726 +9.6504104137E-001 -1.5861925483E-001  -7.0263055386E-004 -7.2758423630E-004  +3.9902777644E-005 +4.9575901357E-004  +1.0466533899E+000 -9.1490447521E-002 
634725.907 +1.1042506695E+000 -2.1006742120E-001  +5.8785139117E-004 -6.3881539972E-005  +1.8825201550E-004 -4.3319209362E-004  +1.1284594536E+000 -7.7404320240E-002 
759871.089 +1.3137927055E+000 -5.6263029575E-002  +4.5764120296E-004 +3.4131290158E-004  -8.5234281141E-004 +3.8493101601E-004  +1.2029725313E+000 +1.8832653761E-002 
885016.270 +1.6912572384E+000 -1.3072928190E+000  -1.4185063774E-003 -2.4742789101E-003  -2.8703099815E-004 +3.5797124729E-003  +1.3785233498E+000 +9.2640258372E-002 
1010161.452 +1.0147217512E+000 -5.3070679307E-002  +2.5465267245E-003 -4.6308265883E-004  -1.3402379118E-003 -5.1253121346E-003  +3.2673320174E-001 +5.5282633752E-002 
1135306.633 +9.9944013357E-001 -8.1602036953E-003  +7.7525927918E-004 -1.7564682057E-003  +5.0558825023E-005 +2.8732651845E-003  +8.9926362038E-001 +1.1222417653E-001 
1260451.815 +1.3865616322E+000 -6.9734454155E-003  -8.2651420962E-004 +4.7545821872E-004  -7.3074270040E-004 -1.5182823408E-003  +1.0381600857E+000 +1.7482742667E-001 
1385596.996 +1.3030753136E+000 -1.3372960687E-001  -3.1639111694E-004 +1.1682520853E-003  -8.3038682351E-004 -1.3102556113E-004  +1.1203227043E+000 +1.2631362677E-001 
1510742.178 +1.4793204069E+000 -2.7671554685E-001  +3.3254912705E-004 +3.6925449967E-003  -9.7332434962E-005 -1.5247297415E-004  +1.2768946886E+000 +1.7443305254E-001 
1635887.359 +9.5263206959E-001 -3.7499704957E-001  -6.5598066431E-004 -3.8086352288E-004  -2.4891755311E-004 -5.0629850011E-004  +1.1228992939E+000 -1.6530761123E-001 
1761032.541 +9.8331320286E-001 -4.1237390041E-001  +1.6168318689E-003 +2.9345031362E-004  +4.4551779865E-004 +2.1966290660E-003  +1.0605770350E+000 -1.7552548647E-001 
1886177.722 +9.3882828951E-001 -2.4120101333E-001  -1.4617317356E-004 -2.2091954015E-003  -9.4888833701E-005 -3.8766436774E-005  +1.0250828266E+000 -7.4670225382E-002 
2011322.904 +9.3914830685E-001 -1.8289667368E-001  +9.1058015823E-004 -9.7169802757E-005  -1.1355320457E-003 -1.6823006445E-004  +1.0173718929E+000 -3.4045249224E-002 
2136468.085 +9.5241200924E-001 -1.3550132513E-001  +3.2443017699E-004 +7.2833558079E-004  -2.4946735357E-004 +9.5617980696E-004  +1.0094105005E+000 -1.7906486988E-002 
2261613.267 +9.5255476236E-001 -1.1410051584E-001  -1.0071736760E-003 +4.8980466090E-004  +4.3694771011E-004 +1.4102440036E-004  +1.0133836269E+000 -7.0055723190E-003 
2386758.448 +9.4448339939E-001 -1.1010637879E-001  -3.7151205470E-004 -2.3123870778E-004  -2.7167424560E-004 -4.4875830645E-004  +1.0073459148E+000 -2.8858780861E-003 
2511903.630 +9.4810974598E-001 -7.9313367605E-002  +5.1539886044E-004 +7.4614718324E-004  +2.7248042170E-004 -6.3092436176E-004  +1.0086123943E+000 +1.4637529850E-002 
2637048.811 +9.5177757740E-001 -7.2294801474E-002  +1.6135256737E-004 -3.1737040263E-004  -6.1479175929E-004 +5.2391074132E-004  +1.0067435503E+000 +3.5072505474E-002 
2762193.992 +9.5789283514E-001 -5.7742789388E-002  -2.2314855596E-004 -3.1463050982E-004  +1.7566180031E-004 +1.4842991368E-004  +1.0070840120E+000 +5.4296471179E-002 
2887339.174 +9.2304581404E-001 -4.7986440361E-002  -3.9338596252E-005 -3.3808426815E-004  +3.7850966328E-004 +6.4287007262E-005  +1.0094736814E+000 +7.3593541980E-002 
3012484.355 +9.1700530052E-001 -3.7104785442E-002  +1.5422240540E-004 -6.2909076223E-004  -5.5208709091E-004 -3.1473929994E-004  +1.0093040466E+000 +1.0143966973E-001 
3137629.537 +9.0933007002E-001 +7.8656757250E-003  -1.1002215615E-004 +6.9828325650E-005  +4.9890886294E-004 -4.2690878036E-004  +1.0255666971E+000 +1.1195871234E-001 
3262774.718 +9.1259163618E-001 +3.7428170443E-002  -8.7120381068E-005 +2.2247144079E-004  -6.4880651189E-004 +1.4523713617E-005  +1.0339798927E+000 +1.2546116114E-001 
3387919.900 +9.0068244934E-001 +6.3535347581E-002  -1.3377145478E-005 +2.8932154237E-005  -5.2668263379E-005 +4.2002586997E-004  +1.0299594402E+000 +1.4156816900E-001 
3513065.081 +9.2534434795E-001 +8.0670237541E-002  +1.8290829030E-004 +4.8206691281E-004  +1.8106729840E-006 +6.9160159910E-004  +1.0500698090E+000 +1.7105671763E-001 
3638210.263 +9.3083745241E-001 +1.0842283070E-001  +3.9204351197E-005 -4.4637458632E-004  -3.3566809725E-004 +7.4542709626E-005  +1.0699602365E+000 +1.8576943874E-001 
3763355.444 +9.5722931623E-001 +1.2498302758E-001  +2.8136590845E-004 +5.5700860685E-004  -5.8484114561E-005 -3.2187704164E-006  +1.0949389935E+000 +1.8978941441E-001 
3888500.626 +9.6745622158E-001 +1.4357611537E-001  -9.4693488791E-005 -4.6777699026E-005  +2.6289315429E-004 +3.9390192251E-004  +1.1126942635E+000 +1.8984889984E-001 
4013645.807 +9.3402588367E-001 +8.4325544536E-002  +4.3437158456E-004 +3.7244841224E-004  -2.3031746969E-004 +2.5256237132E-004  +1.0795326233E+000 +9.2845439911E-002 
4138790.989 +8.7459123135E-001 +2.0493075252E-002  -4.6940692118E-004 +2.1276576445E-004  -2.0144665541E-005 -1.7338020552E-004  +1.0091723204E+000 +2.2650435567E-003 
4263936.170 +8.7789636850E-001 +2.5669841096E-002  +1.6413981211E-004 +1.1870231538E-004  +1.8308988365E-004 -7.1255642979E-005  +9.9765032530E-001 -2.4123992771E-003 
4389081.352 +8.9358013868E-001 +2.2341210395E-002  +5.0928596465E-005 +4.2068626499E-005  -7.8245898476E-004 -8.4290863015E-004  +9.9663573503E-001 -1.0588288307E-002 
4514226.533 +9.0217721462E-001 +2.7622060850E-002  +5.9230264742E-004 +2.7689480339E-004  +7.6383276610E-004 +2.5733455550E-004  +1.0089025497E+000 -2.2248402238E-002 
4639371.715 +9.1919666529E-001 +2.6191402227E-002  +3.3796811476E-004 +4.3983283103E-004  -6.5975059988E-004 -5.0603895215E-004  +1.0109102726E+000 -1.0998734273E-002 
4764516.896 +9.1089403629E-001 +2.7789775282E-002  -5.5892643286E-004 -2.7951170341E-004  -7.2552822530E-005 +1.2848322513E-004  +1.0041437149E+000 -2.8893837705E-002 
4889662.078 +9.1760540009E-001 +2.8385616839E-002  +6.4194515289E-005 -3.0391331529E-004  +9.6282426966E-004 -3.2709780498E-005  +1.0088210106E+000 -1.8261665478E-002 
5014807.259 +9.1941130161E-001 +2.8103075922E-002  -2.7779958327E-004 +4.5938333642E-005  -3.5882191150E-004 -4.3790033669E-004  +1.0040959120E+000 -1.9449083135E-002 
5139952.441 +9.3184673786E-001 +3.1814780086E-002  +2.7088858769E-004 -3.3473613439E-004  -2.8745821328E-004 -8.9533423306E-005  +1.0048768520E+000 -3.3172219992E-002 
5265097.622 +9.4228684902E-001 +3.2028492540E-002  +5.1682221965E-005 -2.4966368801E-004  +4.3416701374E-005 +1.9314930250E-004  +1.0049084425E+000 -3.3009707928E-002 
5390242.804 +9.4686204195E-001 +3.4190949053E-002  +2.7004137519E-004 +1.9650187460E-004  -4.5549907372E-004 +1.2049729412E-004  +9.9638575315E-001 -2.7791112661E-002 
5515387.985 +9.5238947868E-001 +2.7881454676E-002  -4.6221070806E-004 -5.6999306253E-005  -2.1831950289E-004 -4.1986396536E-004  +9.9990117550E-001 -3.8475401700E-002 
5640533.166 +9.5580297709E-001 +2.5835312903E-002  -4.1345073259E-004 -2.3602184956E-004  -4.2029132601E-004 +1.2456432160E-004  +9.9843829870E-001 -3.2321304083E-002 
5765678.348 +9.5071715117E-001 +2.8393909335E-002  -1.9833167607E-004 +2.2330558568E-004  +3.2866353285E-004 -1.9710266497E-004  +9.9526429176E-001 -3.8612134755E-002 
5890823.529 +9.5462346077E-001 +2.3616079241E-002  +1.3542424131E-004 +5.8543311752E-005  +6.1981605540E-005 -8.7476924818E-005  +9.9034798145E-001 -4.1362591088E-002 
6015968.711 +9.6175748110E-001 +2.1756023169E-002  +2.1147895313E-004 +8.7240361609E-005  +1.9031271222E-005 +1.1012854520E-004  +9.9492388964E-001 -3.1333148479E-002 
6141113.892 +9.6071189642E-001 +2.2425629199E-002  -6.2593331677E-005 -1.0916226165E-004  -4.4191465713E-004 +4.2591610691E-004  +9.9340653419E-001 -3.6427497864E-002 
6266259.074 +9.6232104301E-001 +2.1978162229E-002  -3.2412551809E-004 -3.0309866997E-004  -4.9350965128E-005 +2.0114058862E-004  +9.9023008347E-001 -3.5349912941E-002 
6391404.255 +9.6338790655E-001 +1.8760479987E-002  +3.4783768933E-004 +3.3278675983E-004  +1.8460309366E-004 -7.8151009802E-005  +9.8870915174E-001 -4.1949950159E-002 
6516549.437 +9.6069437265E-001 +2.2407032549E-002  -2.0196686819E-005 +1.0255352208E-005  +2.7092493838E-004 -1.0749064677E-004  +9.8679512739E-001 -3.2620869577E-002 
6641694.618 +9.6971058846E-001 +2.4828933179E-002  +1.5615962911E-004 +6.4327992732E-005  +2.7799510281E-004 +1.6466306988E-005  +9.8585498333E-001 -3.0965581536E-002 
6766839.800 +9.7854912281E-001 +2.3676164448E-002  -2.4318876967E-004 +9.8457720014E-005  +8.3766084572E-005 +2.0433304599E-005  +9.8707062006E-001 -3.7825003266E-002 
6891984.981 +9.7207689285E-001 +1.9644722342E-002  -1.7738617316E-005 +1.5923129104E-004  -9.5446652267E-005 -3.4224078991E-004  +9.7850364447E-001 -3.2232552767E-002 
7017130.163 +9.7376132011E-001 +2.5294139981E-002  -5.5332471675E-005 +4.5702057832E-005  +8.4886996774E-005 -1.4844315592E-004  +9.8363125324E-001 -3.0393525958E-002 
7142275.344 +9.7703570127E-001 +2.6674807072E-002  +3.0208972748E-004 -1.1499001266E-004  +1.2536989743E-005 -4.5654222049E-005  +9.8408049345E-001 -2.3987203836E-002 
7267420.526 +9.7334390879E-001 +2.8930321336E-002  -3.7387289922E-005 +5.9605925344E-005  +8.5815328930E-005 +2.4300814403E-005  +9.8005324602E-001 -2.1105453372E-002 
7392565.707 +9.7715282440E-001 +2.8685510159E-002  -3.4130862332E-005 -1.6247062013E-004  +2.0937273803E-004 +1.4069379540E-004  +9.8240286112E-001 -2.3784935474E-002 
7517710.889 +9.7475612164E-001 +2.3778989911E-002  -1.5114177950E-004 +7.0556179708E-006  +2.2998245549E-004 -2.6701905881E-004  +9.7688925266E-001 -2.2898659110E-002 
7642856.070 +9.7028088570E-001 +2.2565916181E-002  -1.6326007608E-004 +1.3072697038E-004  +2.1601260232E-004 +7.2822003858E-005  +9.7420120239E-001 -2.3292750120E-002 
7768001.252 +9.7806698084E-001 +2.4899825454E-002  -2.1766027203E-006 +5.2372961363E-005  -1.3757191482E-004 +6.3739324105E-005  +9.7126787901E-001 -2.6687934995E-002 
7893146.433 +9.7920233011E-001 +2.3733675480E-002  +2.0753990975E-004 -2.4677126203E-004  -1.0870878214E-005 +5.3652169299E-005  +9.7712695599E-001 -1.6722530127E-002 
8018291.615 +9.7952008247E-001 +2.2874057293E-002  +1.1139324488E-004 -8.9301465778E-005  +1.5756889479E-004 +7.3986600910E-005  +9.7155624628E-001 -2.3250102997E-002 
8143436.796 +9.7496491671E-001 +1.8270179629E-002  -4.9831000069E-005 -1.6096161562E-004  -1.1315358279E-005 -6.0891838075E-005  +9.7425657511E-001 -1.4680847526E-002 
8268581.977 +9.7674137354E-001 +1.9893601537E-002  +6.6605171014E-005 +6.3941392000E-005  +1.0672703502E-004 -7.8601988207E-006  +9.7436553240E-001 -1.1317402124E-002 
8393727.159 +9.7752821445E-001 +1.7655849457E-002  +9.9808472442E-005 +1.0939290223E-004  +1.3079910423E-004 -2.7830272302E-005  +9.7724366188E-001 -9.7299218178E-003 
8518872.340 +9.8021399975E-001 +1.7214596272E-002  +4.9702859542E-005 -1.0723328160E-004  -1.7147584003E-005 +1.5147120575E-004  +9.7451484203E-001 -7.7220499516E-003 
8644017.522 +9.7635930777E-001 +1.9283086061E-002  -5.8089717641E-005 -1.6535895702E-004  -2.0634057000E-004 -4.5886277803E-005  +9.7609305382E-001 -1.0704457760E-002 
8769162.703 +9.8182189465E-001 +1.9008636475E-002  -2.4526673951E-004 -6.4417341491E-005  -4.6895613195E-005 +7.5932061009E-005  +9.7926127911E-001 -1.0296791792E-002 
8894307.885 +9.7856450081E-001 +1.5421032906E-002  -6.3341583882E-005 +8.9266599389E-005  -8.4772336777E-006 +1.4162092157E-005  +9.7427737713E-001 -1.4156520367E-002 
9019453.066 +9.8315554857E-001 +1.5950828791E-002  -1.0030594422E-004 +1.0215309885E-005  +1.5780693502E-005 +1.3530404249E-004  +9.7464525700E-001 -1.2666493654E-002 
9144598.248 +9.8095911741E-001 +1.4095962048E-002  -1.3505475363E-004 -1.1192333477E-004  -2.9928447475E-005 -4.7175279178E-005  +9.7383826971E-001 -9.8388195038E-003 
9269743.429 +9.8291832209E-001 +1.4699637890E-002  +1.7202875824E-005 +8.3512197307E-005  -3.2224961615E-005 -1.4901482791E-004  +9.7673016787E-001 -5.5370330811E-003 
9394888.611 +9.8175817728E-001 +1.8897354603E-002  -8.5995518020E-005 +1.1096287926E-004  +4.2357742132E-006 -4.3387626647E-005  +9.7560864687E-001 -7.3917210102E-003 
9520033.792 +9.8283898830E-001 +1.7579317093E-002  -8.0983423686E-005 -4.0006241761E-005  -8.0677011283E-005 +1.2333680934E-004  +9.7830837965E-001 -6.6840946674E-003 
9645178.974 +9.8511368036E-001 +1.6274034977E-002  -3.5177785321E-005 -3.0620147299E-005  +7.8585799201E-006 -3.1761468563E-005  +9.7596073151E-001 -5.3325593472E-003 
9770324.155 +9.8307675123E-001 +1.8431425095E-002  -1.1884079140E-004 -8.8560482254E-005  -4.9104535719E-005 +4.7198558605E-005  +9.7244697809E-001 -3.1903088093E-003 
9895469.337 +9.8577344418E-001 +1.9374191761E-002  -4.7003242798E-005 -8.8823391707E-005  -4.5569875510E-005 +7.0795631473E-006  +9.7542142868E-001 -2.1038055420E-003 
10020614.518 +9.8489099741E-001 +1.8782317638E-002  +8.1555990619E-006 +1.2982144835E-004  -5.5410335335E-005 +1.2295342458E-005  +9.7624659538E-001 +7.7748298645E-004 
10145759.700 +9.8709285259E-001 +1.7687708139E-002  +1.4797180484E-005 -1.5471514780E-004  +1.5856705431E-005 +3.1128482078E-005  +9.7656881809E-001 -1.6398727894E-003 
10270904.881 +9.8712229729E-001 +1.5477120876E-002  -3.8497291825E-005 +9.8752760096E-005  -1.1116002133E-004 +4.9615988246E-005  +9.7799819708E-001 -1.8313527107E-004 
10396050.063 +9.8449110985E-001 +1.5632867813E-002  +6.6139014962E-005 +2.6291752874E-005  -1.4003568504E-004 +1.0688469047E-005  +9.7857928276E-001 +8.4704160690E-004 
10521195.244 +9.8651385307E-001 +1.6223400831E-002  -1.3549844152E-004 +9.3562455731E-005  +3.8927944843E-005 +7.1563648817E-005  +9.7944849730E-001 +1.4369785786E-003 
10646340.426 +9.8706257343E-001 +1.5538245440E-002  -6.4971391112E-005 +2.9132521377E-005  -1.0287442274E-004 +7.5990952610E-005  +9.7802102566E-001 +1.9406676292E-003 
10771485.607 +9.8676162958E-001 +1.6332954168E-002  -2.3502665499E-005 -2.0990906705E-005  -1.1309054389E-004 +2.0441784727E-005  +9.7926580906E-001 +4.4007301331E-003 
10896630.788 +9.8651361465E-001 +1.7985999584E-002  -4.5651308028E-005 +9.4618935691E-006  -3.1154195312E-005 +2.5077695682E-005  +9.7919094563E-001 +3.5723745823E-003 
11021775.970 +9.8549085855E-001 +1.5264213085E-002  -7.6844080468E-005 +3.6731667933E-005  +2.1988706067E-005 +1.6887030142E-005  +9.7898972034E-001 +4.5748353004E-003 
11146921.151 +9.8676168919E-001 +1.3722330332E-002  +5.8618847106E-005 +1.2689948198E-004  -1.8406222807E-005 -1.5480365619E-005  +9.8056530952E-001 +5.0793886185E-003 
11272066.333 +9.8681145906E-001 +1.4338672161E-002  +2.6941464967E-005 -2.2287149477E-005  +4.4792988774E-005 +2.7413698263E-005  +9.7914826870E-001 +3.8154721260E-003 
11397211.514 +9.8766946793E-001 +1.4360934496E-002  +3.0326364140E-006 +1.8974571958E-006  -3.9827908040E-005 -3.1135528843E-005  +9.7970932722E-001 +3.5408139229E-003 
11522356.696 +9.8807728291E-001 +1.3661354780E-002  +5.5109747336E-005 +7.5495503552E-005  -9.3725633633E-005 +4.0433522372E-005  +9.8132497072E-001 +4.6556591988E-003 
11647501.877 +9.8565542698E-001 +1.3968735933E-002  +2.8394424589E-006 +1.0691241187E-004  +3.4876145946E-005 -5.9301295551E-005  +9.8160600662E-001 +6.9641172886E-003 
11772647.059 +9.8885476589E-001 +1.3774245977E-002  +2.5062721761E-005 +6.2039063778E-005  -5.0138143706E-005 +4.7059067583E-005  +9.8111337423E-001 +4.7082006931E-003 
11897792.240 +9.8795831203E-001 +1.2893617153E-002  -2.7971007512E-005 +4.0879687731E-005  +7.7816526755E-005 +4.7610163165E-005  +9.8233568668E-001 +5.1358938217E-003 
12022937.422 +9.8852950335E-001 +1.3646811247E-002  -2.0485163986E-005 +4.5936289098E-005  +3.9576807467E-006 +8.6989261035E-005  +9.8246639967E-001 +5.6061446667E-003 
12148082.603 +9.8900920153E-001 +1.2384176254E-002  +1.8952836399E-005 -2.0082818082E-005  -1.5568628442E-005 +1.9744118617E-005  +9.8448461294E-001 +7.9919695854E-003 
12273227.785 +9.8904085159E-001 +1.4340281487E-002  -5.3640520491E-005 +8.3017788711E-005  +2.3623822926E-005 +2.6922165489E-005  +9.8411464691E-001 +6.6122114658E-003 
12398372.966 +9.8961555958E-001 +1.3993501663E-002  -1.8557557269E-006 +4.5281012717E-005  +2.4290853617E-005 +4.4465181418E-005  +9.8457419872E-001 +7.5343549252E-003 
12523518.148 +9.8795139790E-001 +1.2983083725E-002  +1.0976649719E-005 -1.7241616206E-006  +3.5895187466E-005 +5.3427211242E-005  +9.8431634903E-001 +6.6893398762E-003 
12648663.329 +9.8912173510E-001 +1.4638826251E-002  +2.8744274459E-005 +6.6016735218E-005  +1.3615304852E-005 +6.4208365984E-006  +9.8576843739E-001 +7.4672400951E-003 
12773808.511 +9.8995220661E-001 +1.1702626944E-002  +3.8877798943E-005 +3.3302181691E-005  +3.5167046008E-005 +1.0480882338E-005  +9.8527514935E-001 +6.7045837641E-003 
12898953.692 +9.9076336622E-001 +1.1900022626E-002  -3.8210386265E-005 +6.0245754867E-005  -4.5289889385E-006 +2.3314178179E-005  +9.8541724682E-001 +5.2429661155E-003 
13024098.874 +9.8894774914E-001 +1.2825690210E-002  -1.2091999452E-005 +1.3762240087E-005  -1.2458212950E-005 +2.3922697437E-005  +9.8499327898E-001 +7.0427581668E-003 
13149244.055 +9.9015778303E-001 +1.1850619689E-002  +4.1056522605E-005 +6.4015708631E-005  +1.2502649952E-005 +1.9789817088E-005  +9.8653537035E-001 +7.9233646393E-003 
13274389.237 +9.9000060558E-001 +1.1098575778E-002  -5.3776071582E-005 +6.3550454797E-005  -3.2947395084E-005 +5.0843500503E-005  +9.8744839430E-001 +7.4652042240E-003 
13399534.418 +9.8958581686E-001 +1.0499678552E-002  -7.1962949733E-006 +1.6313379092E-005  -1.6548003259E-005 +3.6218727473E-005  +9.8641747236E-001 +8.1494674087E-003 
13524679.599 +9.9002176523E-001 +1.1473484337E-002  -3.2207288314E-005 +4.9019505241E-005  +5.8147215896E-006 +1.1023604020E-004  +9.8740184307E-001 +7.9298466444E-003 
13649824.781 +9.9119758606E-001 +1.0535553098E-002  +4.5100723582E-006 +3.9201695472E-005  +3.8577320083E-005 +6.7544424383E-006  +9.8873060942E-001 +8.1879049540E-003 
13774969.962 +9.9037086964E-001 +1.1129409075E-002  +1.1032841030E-005 +5.9216839873E-005  -1.0993845535E-005 +5.7325356465E-005  +9.8763269186E-001 +7.0959776640E-003 
13900115.144 +9.9006700516E-001 +1.0811567307E-002  +2.4310704248E-005 -1.1511609046E-005  +2.7124701774E-006 +2.2789326977E-005  +9.8736786842E-001 +7.1277022362E-003 
14025260.325 +9.8983353376E-001 +1.0643869638E-002  +1.4222454411E-005 +1.0831693544E-005  -4.6907043725E-006 +7.3359631642E-005  +9.8770499229E-001 +7.6727271080E-003 
14150405.507 +9.8995047808E-001 +1.0837465525E-002  +6.3118477556E-006 +5.5430838984E-005  +1.5358391465E-005 +4.8253110435E-005  +9.8842716217E-001 +8.4097385406E-003 
14275550.688 +9.9061989784E-001 +1.0214626789E-002  -2.2751008146E-005 +2.9577520763E-005  -3.4761167171E-006 +3.4010752188E-006  +9.8832094669E-001 +8.1958174706E-003 
14400695.870 +9.8903876543E-001 +1.0005056858E-002  +2.0995252271E-005 +2.8182646929E-005  +5.1578472267E-006 +1.3581450730E-005  +9.8785746098E-001 +8.7803006172E-003 
