!  2-Port S-parameters saved by WinCal
! VAR MeasName=S-Parameters (CALIBRATED_DATA) read from VNA (P5004A)
! VAR MeasDate=22/05/2024 20:59:03
! VAR NAME=Wafer3_r3_c5_pristine
! VAR FILENAME=Wafer3_r3_c5_pristine.S2P
! VAR DATE=22/05/2024 20:59:03
! VAR PHYS_PORTS=1,2
! VAR ObjTypeName=DATASET
! VAR IndexType=Frequency
!
# Hz S RI R 50
9000.000 +2.0826546848E-001 -6.0561197996E-001  -1.9719679840E-003 +3.3993460238E-003  -1.2408404145E-003 -9.0013066074E-004  +4.3163612485E-002 +1.0861852765E-001 
134145.181 +6.5999400616E-001 +9.4179958105E-003  -3.6849356256E-003 -5.8694323525E-003  -1.9809938967E-003 +2.3888382129E-003  +6.6428929567E-001 -2.1766752005E-001 
259290.363 +8.4199047089E-001 -1.2116578221E-001  -3.7787724286E-003 +3.8874620805E-004  +5.9984819964E-003 -9.4575453550E-003  +9.7241187096E-001 -1.3387940824E-001 
384435.544 +8.9919984341E-001 -2.9135465622E-001  -5.8460471337E-005 +1.2859947747E-003  +7.2876474587E-004 +3.7773256190E-003  +1.0676481724E+000 -2.1026626229E-001 
509580.726 +9.5999515057E-001 -1.5640527010E-001  +6.9519679528E-005 +3.6561756860E-004  -3.1861840398E-004 -6.3592771767E-005  +1.0459003448E+000 -1.0278731585E-001 
634725.907 +1.1008505821E+000 -2.0970985293E-001  +3.6948721390E-004 -9.4847026048E-005  +2.8829899384E-004 -4.9310748000E-004  +1.1246279478E+000 -7.8528702259E-002 
759871.089 +1.3076640368E+000 -5.2661061287E-002  -1.3574077457E-005 +9.4811373856E-005  +1.0747261113E-003 +2.6966328733E-004  +1.1966329813E+000 +2.5790423155E-002 
885016.270 +1.3941189051E+000 -1.1072386503E+000  +2.1746307611E-003 -2.0536305383E-003  +3.4728634637E-003 +3.3228404354E-003  +1.3366608620E+000 +8.3801090717E-002 
1010161.452 +1.0954182148E+000 -6.7611277103E-002  -5.9098140337E-003 +5.8164517395E-003  +3.9395191707E-003 +5.1402747631E-003  +6.0564672947E-001 -3.2240501046E-001 
1135306.633 +1.0881562233E+000 -4.3195545673E-002  +3.2937549986E-004 +2.2656610236E-003  -5.6353159016E-004 +9.4733905280E-004  +9.4721055031E-001 +4.9248635769E-003 
1260451.815 +1.4058614969E+000 -4.4008851051E-002  +9.3565927818E-004 +9.1669935500E-005  +4.5018648962E-004 +1.1754306033E-003  +1.0862214565E+000 +1.0119780898E-001 
1385596.996 +1.3177361488E+000 -1.4868226647E-001  -3.1015338027E-004 +2.4311139714E-004  -1.8715769693E-004 -3.2027182169E-004  +1.1693029404E+000 +1.1045055091E-001 
1510742.178 +1.5167146921E+000 -2.7489301562E-001  +2.5270434562E-003 -1.8249830464E-004  +2.1131436806E-003 +1.3492865255E-003  +1.4343091249E+000 +2.5726264715E-001 
1635887.359 +9.8503851891E-001 -3.9255666733E-001  -4.8934132792E-004 +1.6320674913E-003  +7.7324302401E-004 +2.4626147933E-005  +1.1100900173E+000 -2.8069657087E-001 
1761032.541 +1.0543876886E+000 -4.2244094610E-001  +5.6803412735E-004 +2.7901551221E-004  -2.1842143033E-003 -2.0308652893E-005  +1.0778247118E+000 -2.8809782863E-001 
1886177.722 +9.7356355190E-001 -2.5743824244E-001  -1.1423612013E-003 +7.5448420830E-005  +4.8356223851E-004 +3.6869005999E-004  +1.0308332443E+000 -1.5187200904E-001 
2011322.904 +9.5532870293E-001 -1.9122484326E-001  +2.5137513876E-004 +6.7114760168E-004  -7.8993529314E-004 +2.1816813387E-004  +1.0238149166E+000 -9.3499064445E-002 
2136468.085 +9.6849298477E-001 -1.5177607536E-001  +4.8500081175E-004 -2.9744423227E-004  -4.5262515778E-004 +3.5476952326E-004  +1.0166233778E+000 -7.1075767279E-002 
2261613.267 +9.8493278027E-001 -1.3798490167E-001  +4.8648857046E-004 -1.9064029038E-004  -6.7110592499E-004 -4.4890854042E-005  +1.0049529076E+000 -4.9330055714E-002 
2386758.448 +9.7811752558E-001 -1.2528595328E-001  -6.3768689870E-005 -3.7942201016E-004  +3.3195293508E-004 +2.9000299401E-004  +1.0012757778E+000 -3.5704106092E-002 
2511903.630 +9.7205018997E-001 -8.7321251631E-002  +4.0837124106E-004 +1.8418501713E-004  -6.4998882590E-004 -3.7762772990E-004  +9.9565303326E-001 -2.4252563715E-002 
2637048.811 +9.8090559244E-001 -7.0869594812E-002  +1.5209647245E-005 +1.4717094018E-004  +2.1290946752E-003 -4.3188440613E-003  +9.9948549271E-001 +2.3475289345E-004 
2762193.992 +9.9309056997E-001 -5.5061891675E-002  -1.0704770102E-004 +6.8262052082E-005  -1.3604987180E-004 -2.3780114134E-004  +9.9830132723E-001 +2.1558701992E-002 
2887339.174 +9.6413767338E-001 -6.6517777741E-002  -7.7952325228E-005 +6.6862726817E-004  +1.2272776803E-004 -5.6730309734E-004  +1.0013788939E+000 +3.9526853710E-002 
3012484.355 +9.5442479849E-001 -4.1405476630E-002  +4.2580792797E-004 -4.3917581934E-005  -4.2533315718E-004 -1.3701153512E-004  +9.9680578709E-001 +5.3998183459E-002 
3137629.537 +9.5137834549E-001 +3.7390328944E-003  +1.4406531591E-005 +5.6166911963E-004  +6.3313741703E-004 -2.5249912869E-004  +9.9457621574E-001 +6.9944396615E-002 
3262774.718 +9.4143694639E-001 +2.0673323423E-002  -2.5548177655E-004 +4.7012069263E-004  -3.0505456380E-004 +2.4407365709E-004  +9.9620068073E-001 +9.8205380142E-002 
3387919.900 +9.3974536657E-001 +5.8679074049E-002  -2.5571242440E-004 -4.2427654989E-005  -1.1982286378E-004 -4.8605262418E-004  +1.0041313171E+000 +9.8209112883E-002 
3513065.081 +9.6029609442E-001 +7.0717021823E-002  -3.7616718328E-004 -7.4907191447E-005  +1.2637647160E-004 +7.1500988270E-005  +1.0154788494E+000 +1.3211487234E-001 
3638210.263 +9.6894139051E-001 +1.0624617338E-001  +1.8479650316E-004 +1.0124639084E-004  -6.4058875432E-004 +1.7076697259E-004  +1.0409026146E+000 +1.4780764282E-001 
3763355.444 +9.8462617397E-001 +1.2140540779E-001  -1.7488981030E-005 +1.2386635353E-004  +3.9501907304E-004 +5.2687339485E-004  +1.0569193363E+000 +1.4618983865E-001 
3888500.626 +1.0076040030E+000 +1.4675170183E-001  +4.2308017146E-004 +1.0985064000E-004  -2.6046426501E-004 +1.7705577193E-004  +1.0821222067E+000 +1.6587282717E-001 
4013645.807 +9.6519941092E-001 +6.5548337996E-002  -1.0435378499E-004 -3.3313085441E-004  +6.6664972110E-005 -6.4042897429E-004  +1.0375145674E+000 +8.7562419474E-002 
4138790.989 +8.9944773912E-001 +4.2804032564E-003  +9.6884810773E-005 +2.4762668181E-004  +3.9958534762E-004 +1.0559857037E-004  +9.6153879166E-001 +8.3054602146E-003 
4263936.170 +8.9662420750E-001 +1.4408141375E-002  +8.6124655354E-006 -1.4797605400E-004  +1.3536938059E-004 +1.8188008107E-004  +9.6082001925E-001 -7.2023067623E-003 
4389081.352 +9.1480100155E-001 +1.2526262552E-002  +3.3090393117E-005 +4.3854347314E-004  +2.6560528204E-004 -6.0727144592E-004  +9.6254217625E-001 -1.6957595944E-003 
4514226.533 +9.2744910717E-001 +1.4981748536E-002  -4.2560197471E-005 +5.9642700944E-004  -6.3632964157E-004 +1.4756809105E-004  +9.6966999769E-001 -9.9350912496E-003 
4639371.715 +9.4259834290E-001 +1.6533376649E-002  -4.8630722449E-004 +8.3683262346E-005  +5.5800919654E-004 +5.0180306425E-004  +9.7531187534E-001 +2.3545678705E-003 
4764516.896 +9.3924760818E-001 +2.0639246330E-002  +1.1237271974E-004 +3.4982152283E-004  -2.5606510462E-004 +5.9480034906E-006  +9.8061013222E-001 -5.2915411070E-003 
4889662.078 +9.4362938404E-001 +1.7829746008E-002  -3.0731543666E-004 -4.9376534298E-004  -4.6887277858E-004 -2.5978876511E-004  +9.8254442215E-001 -6.8737929687E-003 
5014807.259 +9.4355815649E-001 +1.1689594947E-002  +1.0857403686E-004 -2.5986711989E-005  -2.5222689146E-004 +7.7593736933E-005  +9.7722291946E-001 -1.2268237770E-003 
5139952.441 +9.5615565777E-001 +1.4591909945E-002  -2.2901738703E-005 +2.0270788809E-005  +6.4321138780E-005 +3.9974058745E-004  +9.7710889578E-001 -1.3441916555E-002 
5265097.622 +9.6487569809E-001 +1.4897003770E-002  -3.7999267806E-004 +2.9822340002E-004  -7.0875394158E-004 -2.5620870292E-004  +9.7814697027E-001 -9.5498375595E-003 
5390242.804 +9.6367341280E-001 +1.1483110487E-002  -3.2351881964E-004 -6.7253473389E-005  +3.6974414252E-004 -2.1082123567E-006  +9.7097897530E-001 -3.6382749677E-003 
5515387.985 +9.7714322805E-001 +1.0521091521E-002  +3.0892214272E-004 -7.8619472333E-005  +1.5093135880E-004 +2.1516095148E-004  +9.8163741827E-001 -1.3186156750E-002 
5640533.166 +9.7481155396E-001 +1.9769079983E-002  +3.0780592351E-004 +4.9729656894E-004  -1.7565097369E-004 -1.5723623801E-004  +9.8049306870E-001 -9.5473527908E-003 
5765678.348 +9.7202134132E-001 +1.2412078679E-002  -1.5518708096E-004 -4.4463058657E-006  +1.5271117445E-004 -5.5836699903E-004  +9.8454415798E-001 -1.1886462569E-002 
5890823.529 +9.7689616680E-001 +3.3770576119E-003  +1.5569740208E-004 +1.0227167513E-004  -1.6953326121E-004 -1.3442814816E-004  +9.7978860140E-001 -1.6263097525E-002 
6015968.711 +9.7634965181E-001 +5.2712857723E-005  -2.6393061853E-004 -1.9416626310E-004  -3.4959276672E-004 +2.4585434585E-004  +9.8300427198E-001 -1.3974823058E-002 
6141113.892 +9.8512953520E-001 +4.9916729331E-003  +2.5154172909E-004 -1.5857385006E-004  -1.3742642477E-004 -5.6600495009E-004  +9.7886449099E-001 -1.4979384840E-002 
6266259.074 +9.8234325647E-001 +1.8341392279E-003  +2.5459081371E-005 -1.8317614376E-006  +3.7453733967E-004 +3.6782142706E-004  +9.8469835520E-001 -1.4086492360E-002 
6391404.255 +9.8153084517E-001 -6.2703490257E-003  -6.6828724812E-005 -1.8949831428E-004  -4.5052947826E-004 +2.7824746212E-004  +9.8492479324E-001 -1.5587754548E-002 
6516549.437 +9.7781997919E-001 -4.4431611896E-003  +2.1190263215E-004 +1.8668717530E-004  +2.0323994977E-004 -3.8876998588E-004  +9.7654634714E-001 -1.4715008438E-002 
6641694.618 +9.8757016659E-001 +1.6797930002E-003  -4.9339294492E-005 -8.2158840087E-005  +1.7435527116E-004 +2.1709679277E-004  +9.7992295027E-001 -6.4287483692E-003 
6766839.800 +9.9250471592E-001 +5.4210573435E-003  +3.1697118538E-004 +2.2680409893E-004  -1.0056067549E-004 -1.0060783825E-004  +9.8130875826E-001 -1.1882528663E-002 
6891984.981 +9.8845756054E-001 -3.4098476171E-003  +1.4386992552E-004 +4.5140484872E-005  +2.2739879569E-005 +1.2952985708E-004  +9.7544181347E-001 -1.0327398777E-002 
7017130.163 +9.8959290981E-001 -2.4324953556E-003  -3.4953634895E-005 +3.4080250771E-005  -1.5887209884E-005 -8.4044215328E-005  +9.7984570265E-001 -8.8498741388E-003 
7142275.344 +9.8680067062E-001 +3.3385157585E-003  +1.1350387649E-004 -6.5480526246E-005  +1.3180261885E-004 +3.2688843203E-004  +9.7857028246E-001 -4.1624158621E-003 
7267420.526 +9.8840254545E-001 +3.3105611801E-003  -5.2697188949E-005 +4.8492431233E-005  +1.1905835709E-004 +8.2145401393E-005  +9.7957873344E-001 -6.4660459757E-003 
7392565.707 +9.9351435900E-001 +2.1196156740E-003  +2.8428307269E-004 +5.8916015405E-005  +3.5895837937E-004 +2.3384479573E-004  +9.8021626472E-001 -7.6950639486E-003 
7517710.889 +9.9279874563E-001 +3.0121356249E-003  +1.4242534235E-004 -1.6040758055E-006  +1.0261751595E-004 -1.1119670671E-004  +9.7912156582E-001 -8.5610598326E-003 
7642856.070 +9.8228514194E-001 +4.2423605919E-004  +8.5289822891E-005 +1.5877612168E-004  -7.4978452176E-006 +8.4934683400E-005  +9.7488248348E-001 -1.0268047452E-002 
7768001.252 +9.9274522066E-001 -1.0002255440E-003  +5.5918040744E-005 +1.1821504449E-004  -5.9195957874E-005 -1.6058204346E-004  +9.7214323282E-001 -1.1310413480E-002 
7893146.433 +9.8978185654E-001 +3.1624138355E-003  +9.7629454103E-006 -2.1424326405E-004  +3.1252516783E-004 +7.9004923464E-005  +9.7275483608E-001 -4.9111843109E-003 
8018291.615 +9.8598164320E-001 -9.3084573746E-004  +1.2100506865E-004 -6.2985316617E-005  +1.5569424431E-004 -4.7880399507E-005  +9.7191685438E-001 -1.0112866759E-002 
8143436.796 +9.8569852114E-001 -4.6968758106E-003  +1.2417120161E-004 -1.3790481898E-004  -1.8997197913E-006 -1.3142872194E-004  +9.7277498245E-001 -5.9460699558E-003 
8268581.977 +9.8541253805E-001 -3.2353401184E-003  +2.9055947380E-005 -2.0026631319E-005  +2.2972650186E-005 -3.6662546336E-005  +9.7374618053E-001 -4.4296681881E-003 
8393727.159 +9.8696559668E-001 -6.4897239208E-003  -1.9401644749E-005 -1.0329315410E-004  +1.9889511168E-004 -2.5636149076E-005  +9.7257101536E-001 -3.8419961929E-003 
8518872.340 +9.8688471317E-001 -8.9645683765E-003  +3.7739038817E-005 -4.7342589824E-005  -6.7670123826E-005 -3.5413744627E-005  +9.7354537249E-001 -3.2456815243E-003 
8644017.522 +9.8515987396E-001 -2.3014545441E-003  +6.8615205237E-005 -2.1301138622E-004  -2.3333889840E-004 -1.0744039901E-004  +9.7868865728E-001 -1.6283988953E-003 
8769162.703 +9.9063843489E-001 -3.5322010517E-003  +4.5050652261E-005 +6.0510861658E-005  -1.1134755187E-004 +9.0224566520E-006  +9.7673475742E-001 -1.6923248768E-003 
8894307.885 +9.8736500740E-001 -5.8224201202E-003  +8.6267664301E-006 -9.7577547422E-005  +1.7946216758E-005 +1.0135353477E-005  +9.7686105967E-001 -4.0918588638E-003 
9019453.066 +9.8799085617E-001 -2.2524595261E-003  -1.3351660527E-005 -8.7001491920E-005  -7.1079964982E-005 -1.9254289509E-004  +9.7716128826E-001 -3.6471486092E-003 
9144598.248 +9.8678708076E-001 -4.2619705200E-003  +6.9140092819E-005 +3.3717635233E-005  +2.3101507395E-005 +2.6970134059E-005  +9.7723317146E-001 +1.1727511883E-003 
9269743.429 +9.8907554150E-001 -3.0019879341E-004  -1.1460633687E-004 -2.2320560674E-005  -7.8141485574E-005 -2.8409534934E-005  +9.7753906250E-001 +3.7480592728E-003 
9394888.611 +9.8880708218E-001 +6.9829821587E-004  -6.3685042733E-006 -6.7940077315E-006  +1.3954477618E-004 +8.8522552687E-005  +9.7612404823E-001 -1.0200738907E-003 
9520033.792 +9.8983001709E-001 -3.7207603455E-003  -4.8748846893E-005 -2.2389827791E-005  +4.0482864279E-005 -1.9443118072E-004  +9.7957044840E-001 +2.7121901512E-003 
9645178.974 +9.9230849743E-001 +3.2678246498E-004  -1.6759207938E-004 -1.5019482817E-005  +4.6016441047E-005 +9.8361575510E-005  +9.7854512930E-001 +2.6994049549E-003 
9770324.155 +9.9031424522E-001 +2.2052526474E-003  -1.1134206579E-004 +9.3293507234E-005  -1.0193948401E-004 -8.6961728812E-005  +9.7560226917E-001 +6.1016678810E-003 
9895469.337 +9.9170553684E-001 +4.2039155960E-004  -1.3594439224E-005 +6.7732406023E-005  -8.4457700723E-005 -5.5613149016E-005  +9.7682869434E-001 +4.7208964825E-003 
10020614.518 +9.8986065388E-001 +2.8954446316E-003  +1.0182126425E-004 +5.2643990784E-006  +2.8676831789E-005 +4.3381638534E-005  +9.7758460045E-001 +6.5821409225E-003 
10145759.700 +9.9003034830E-001 +2.7161836624E-004  -2.9430164432E-005 +7.9478028056E-005  -8.9120412667E-006 +5.7500792536E-006  +9.7778809071E-001 +3.6481916904E-003 
10270904.881 +9.9249327183E-001 +1.2855827808E-003  +8.7399384938E-005 +2.4133454644E-005  -1.8238388293E-005 -4.3795360398E-005  +9.7936999798E-001 +3.7718713284E-003 
10396050.063 +9.9051493406E-001 +9.3582272530E-004  -8.2924299932E-005 -7.9442943388E-005  -1.1649875523E-004 +1.7692440451E-005  +9.7920703888E-001 +4.9801468849E-003 
10521195.244 +9.9232661724E-001 +2.3878812790E-003  +6.5003550844E-005 -5.6613786001E-005  -2.6741989132E-005 +3.9942191506E-005  +9.7979283333E-001 +6.1076879501E-003 
10646340.426 +9.9109196663E-001 +7.0476531982E-004  -5.3387695516E-005 +1.4189639842E-005  +6.5955238824E-005 +6.7185486841E-005  +9.7961890697E-001 +8.9559853077E-003 
10771485.607 +9.9087512493E-001 +2.5413334370E-003  -2.0052479158E-005 -1.0625739378E-005  -6.4751002355E-005 +3.0662729841E-005  +9.8046976328E-001 +9.2156231403E-003 
10896630.788 +9.9160695076E-001 +4.3966472149E-003  +8.1521493485E-006 +1.3740939721E-005  -2.9834700399E-005 +6.9495603384E-005  +9.8048204184E-001 +9.9003016949E-003 
11021775.970 +9.9120259285E-001 +5.1913559437E-003  +3.8430021959E-005 -1.1900034224E-005  -5.1217455621E-005 +6.7597662564E-005  +9.8168796301E-001 +1.0043352842E-002 
11146921.151 +9.9176108837E-001 +2.3575425148E-003  -4.4202824938E-005 -7.0146088547E-006  -7.4496500019E-005 -2.8999225833E-005  +9.8293828964E-001 +1.0161429644E-002 
11272066.333 +9.9089920521E-001 +1.9909739494E-003  -2.8806261980E-006 +4.0449296648E-005  -1.0583281437E-005 +1.5101122699E-006  +9.8042559624E-001 +9.2834532261E-003 
11397211.514 +9.9204140902E-001 +2.9508173466E-003  +5.8101431932E-007 +2.8714202926E-005  -7.0450805651E-005 -2.8724789445E-006  +9.8193126917E-001 +8.7777674198E-003 
11522356.696 +9.9197578430E-001 +2.7757287025E-003  +1.5429237465E-005 +4.5151911763E-005  -3.0835712096E-005 +7.1406204370E-005  +9.8326343298E-001 +9.2751085758E-003 
11647501.877 +9.9131667614E-001 +3.1524896622E-003  -7.8636257967E-005 -3.4082826460E-005  -7.9721554357E-005 +2.8603391911E-005  +9.8170000315E-001 +9.7708702087E-003 
11772647.059 +9.9157309532E-001 +3.8019418716E-003  +3.6364945117E-005 +1.6080473870E-005  -4.4060616347E-005 +2.5386636480E-005  +9.8230671883E-001 +8.1839859486E-003 
11897792.240 +9.9150502682E-001 +2.9692947865E-003  -3.5937166558E-006 -8.5287647380E-006  +1.3025669432E-005 +3.3357624488E-005  +9.8259508610E-001 +8.8252127171E-003 
12022937.422 +9.9405342340E-001 +3.6314427853E-003  +7.3442342909E-006 +2.7339043299E-005  +6.6415967012E-005 -1.2383974536E-005  +9.8270022869E-001 +8.4364712238E-003 
12148082.603 +9.9327206612E-001 +3.8430392742E-003  -1.0433936040E-005 -1.9349798094E-005  -1.2091692042E-005 -1.4549726984E-005  +9.8473298550E-001 +9.0625584126E-003 
12273227.785 +9.9299919605E-001 +4.8522055149E-003  -1.2551061809E-004 -5.0465503591E-005  +7.2972720773E-006 +2.5089715564E-005  +9.8317474127E-001 +8.5100531578E-003 
12398372.966 +9.9292248487E-001 +4.2749941349E-003  +2.9665283364E-005 +7.3880473792E-005  -7.0461301220E-006 +4.8945435992E-005  +9.8484152555E-001 +8.0287158489E-003 
12523518.148 +9.9279940128E-001 +4.2582452297E-003  +1.1326242202E-006 -2.3390692149E-005  +4.0868180804E-006 +2.5562749215E-005  +9.8411738873E-001 +7.3529481888E-003 
12648663.329 +9.9425846338E-001 +5.9410482645E-003  +6.4878436206E-006 +1.6745238099E-005  +5.6106637203E-005 -2.1903852030E-006  +9.8542708158E-001 +8.2845240831E-003 
12773808.511 +9.9363458157E-001 +3.1898915768E-003  +6.0475258579E-006 +1.5676099792E-005  +2.2778709535E-005 -3.9279329940E-005  +9.8511117697E-001 +7.0984810591E-003 
12898953.692 +9.9464601278E-001 +4.3436735868E-003  +9.5144541774E-006 +3.3106207411E-005  -4.6405424655E-005 -6.0268816924E-006  +9.8591417074E-001 +8.5322186351E-003 
13024098.874 +9.9372923374E-001 +5.4527968168E-003  -7.4849558587E-006 -1.0512251720E-005  +1.0653446907E-006 +9.1788751888E-006  +9.8606252670E-001 +9.1282501817E-003 
13149244.055 +9.9458378553E-001 +4.9402993172E-003  -2.7637453968E-005 -1.6624528143E-005  -3.1640320231E-005 -7.2426728366E-006  +9.8697936535E-001 +1.0059172288E-002 
13274389.237 +9.9422508478E-001 +5.2645988762E-003  -4.0442005229E-006 +7.0832320489E-005  +1.7902495529E-005 -3.1704388675E-005  +9.8735111952E-001 +9.6019506454E-003 
13399534.418 +9.9429976940E-001 +4.1058585048E-003  -1.2537396287E-005 -2.3263773983E-005  -1.1546761016E-005 +2.5984118111E-005  +9.8648774624E-001 +1.0696426034E-002 
13524679.599 +9.9355918169E-001 +5.3830891848E-003  -3.4438497096E-005 +6.2070239437E-007  +1.6346592020E-005 +4.0732116759E-005  +9.8710227013E-001 +1.0987974703E-002 
13649824.781 +9.9515599012E-001 +4.5793503523E-003  +7.8312077676E-006 +1.1476185136E-005  +8.0879053712E-006 +3.4052707633E-005  +9.8817092180E-001 +9.5828026533E-003 
13774969.962 +9.9437600374E-001 +4.8610866070E-003  -2.2854141207E-005 +1.2590495317E-005  +1.6606427380E-005 +3.7640187657E-005  +9.8732882738E-001 +9.1957747936E-003 
13900115.144 +9.9420863390E-001 +4.8152804375E-003  +4.1833918658E-006 +4.5210854296E-005  -3.4031614632E-005 +6.4696454501E-005  +9.8757612705E-001 +1.0012239218E-002 
14025260.325 +9.9437355995E-001 +4.9149096012E-003  -5.1252322919E-006 -2.5349558200E-005  +3.9887592720E-005 +3.2406125683E-005  +9.8762893677E-001 +9.6873939037E-003 
14150405.507 +9.9497216940E-001 +5.0005912781E-003  -2.1889371055E-005 +3.6393561459E-005  +7.5074322012E-006 +4.3209995056E-005  +9.8750144243E-001 +1.0070204735E-002 
14275550.688 +9.9461418390E-001 +4.0961205959E-003  -4.3754071157E-006 +3.8178523027E-006  -2.2500202249E-005 -2.5536974135E-007  +9.8743426800E-001 +9.9076926708E-003 
14400695.870 +9.9301987886E-001 +5.0097107887E-003  -4.4056896513E-006 +3.7492660340E-005  +5.5474469264E-005 +4.9133239372E-005  +9.8768222332E-001 +1.0828018188E-002 
