!  2-Port S-parameters saved by WinCal
! VAR MeasName=S-Parameters (CALIBRATED_DATA) read from VNA (P5004A)
! VAR MeasDate=22/05/2024 21:37:16
! VAR NAME=Wafer3_r3_c6_pristine_pos25dc
! VAR FILENAME=Wafer3_r3_c6_pristine_pos25dc.S2P
! VAR DATE=22/05/2024 21:37:16
! VAR PHYS_PORTS=1,2
! VAR ObjTypeName=DATASET
! VAR IndexType=Frequency
!
# Hz S RI R 50
9000.000 +2.0980310440E-001 -6.0436069965E-001  -3.0582861509E-003 -2.8391063679E-003  +1.0338634020E-003 +8.0803915625E-004  +4.6393185854E-002 +1.1257606745E-001 
134145.181 +6.2220889330E-001 +1.3502657413E-002  +7.8709013760E-003 -7.4849557132E-003  +1.0895412415E-002 +1.4553233050E-003  +3.2524611801E-002 -2.5219485164E-002 
259290.363 +8.4613722563E-001 -1.1807876825E-001  +5.3812796250E-003 -1.9462538883E-002  +2.3103496060E-003 +1.8149686977E-002  -3.7179514766E-002 -4.1829946637E-001 
384435.544 +8.8976639509E-001 -2.6237860322E-001  +3.3864795696E-003 +1.9499543123E-003  +7.1387076750E-003 +1.4067130163E-002  +2.3943912983E-001 -2.4095009267E-001 
509580.726 +9.5216548443E-001 -1.4631238580E-001  +5.0408677198E-003 +3.1440486200E-003  -8.7604182772E-004 -7.5619840063E-003  +3.3284634352E-002 +1.2566635013E-001 
634725.907 +1.0905516148E+000 -2.1153441072E-001  -7.2973343777E-004 +5.5023643654E-004  +2.7022080030E-003 -6.5323477611E-004  +8.8917666674E-001 -2.2872588038E-001 
759871.089 +1.3249337673E+000 -6.8215072155E-002  -9.9204853177E-004 +4.0451431414E-004  -9.3957746867E-004 -2.5661394466E-004  +1.4786323309E+000 +1.1532898247E-001 
885016.270 +1.9990086555E+000 -1.4636194706E+000  +2.0091081969E-003 -1.0553337634E-003  -6.5701908898E-004 +2.1371126641E-003  +1.3155115843E+000 +4.4897386432E-001 
1010161.452 +9.6285039186E-001 -8.9443400502E-002  -1.2843225850E-003 +2.0071857143E-003  +9.6719578141E-004 +7.8827573452E-004  +1.2213627100E+000 +5.1801019907E-001 
1135306.633 +8.4009945393E-001 -7.2914753109E-003  +1.2418854749E-003 +2.3828898557E-003  +3.4670767491E-004 -2.9442403466E-003  +1.3261337280E+000 +6.6927915812E-001 
1260451.815 +1.2761375904E+000 +5.9994161129E-003  -1.1075463844E-003 +3.8967881119E-004  +8.2935846876E-004 -2.3296009749E-004  +1.0730280876E+000 +7.5441032648E-001 
1385596.996 +1.2498514652E+000 -1.6240376234E-001  +2.3827669793E-004 -1.2828312174E-004  -2.0814042364E-004 +2.7185212821E-004  +9.6272832155E-001 +5.0556969643E-001 
1510742.178 +1.3980751038E+000 -3.6961492896E-001  -5.2056493587E-005 +6.2495080056E-004  +1.4124657901E-004 -2.1418320102E-005  +6.5587711334E-001 +5.7258337736E-001 
1635887.359 +8.1962275505E-001 -3.8495320082E-001  -7.5027794810E-004 -2.3571781639E-004  -5.5931176757E-004 -9.8487173091E-005  +1.5001717806E+000 +6.5812915564E-001 
1761032.541 +7.4965769053E-001 -4.5263141394E-001  +4.7907890985E-004 +1.5397246170E-004  +8.6549465777E-005 +3.3663818613E-006  +1.0769944191E+000 +8.1645941734E-001 
1886177.722 +7.9163581133E-001 -1.8182040751E-001  -3.9242283674E-004 -4.1123904521E-004  -3.5346901859E-004 +3.0712876469E-004  +1.1285938025E+000 +5.4870694876E-001 
2011322.904 +8.1921648979E-001 -1.1809790134E-001  -4.7952617751E-004 +1.0422976629E-004  +1.9223024719E-004 +2.5825987905E-005  +1.1444622278E+000 +5.1164674759E-001 
2136468.085 +8.4697949886E-001 -1.1985054612E-001  +5.4443208501E-004 -1.6567442799E-003  -1.8740794621E-004 +1.2080682791E-004  +1.0896584988E+000 +4.5963907242E-001 
2261613.267 +8.3200860023E-001 -1.1852625012E-001  +3.5373098217E-004 +3.6659077159E-004  -8.7584019639E-005 -8.9385248430E-005  +1.0539969206E+000 +4.9255186319E-001 
2386758.448 +8.4227293730E-001 -8.8662236929E-002  -3.5213997762E-005 -1.7432258755E-004  +1.1127362814E-004 +3.3848158637E-005  +1.0783834457E+000 +5.1737773418E-001 
2511903.630 +8.4633165598E-001 -4.7082006931E-002  -3.9964588359E-004 +9.5004535979E-005  -2.3629596399E-004 +2.9638991691E-004  +1.1309144497E+000 +5.4535895586E-001 
2637048.811 +8.6469084024E-001 -4.9021713436E-002  -1.7452766770E-004 +1.9551139849E-004  +2.6318521122E-004 -1.1873995390E-004  +1.1579096317E+000 +5.6761389971E-001 
2762193.992 +8.5868287086E-001 -6.1759173870E-002  +1.9010776305E-004 -3.5000214120E-004  -4.5276865421E-005 +3.8601725828E-004  +1.1973342896E+000 +4.4374775887E-001 
2887339.174 +8.1152629852E-001 -5.8015078306E-002  +9.1035202786E-005 +9.8472264654E-005  -6.3838635106E-004 -7.9481818830E-005  +1.0349630117E+000 +3.8582670689E-001 
3012484.355 +8.0200344324E-001 -2.9231831431E-002  +2.7630776458E-005 +1.8514931435E-004  +1.0771195957E-004 +9.3077229394E-005  +9.4857132435E-001 +4.9521082640E-001 
3137629.537 +8.0260056257E-001 +9.5026344061E-003  +1.7072123592E-004 +6.4050764195E-005  -1.1891984468E-004 +1.6483027139E-004  +9.6319919825E-001 +6.1091363430E-001 
3262774.718 +8.1018406153E-001 +4.8790767789E-002  -1.0003861098E-004 -2.0051489992E-004  -2.9549247120E-004 +1.3726387988E-004  +1.0058478117E+000 +6.8219381571E-001 
3387919.900 +8.0544954538E-001 +7.4954204261E-002  -1.6172367032E-004 -1.7896440113E-004  -1.2694465113E-004 +1.3068599219E-004  +1.0450686216E+000 +7.4158227444E-001 
3513065.081 +8.0779010057E-001 +9.6595644951E-002  +1.1678836017E-004 +4.6926573850E-004  +8.9514069259E-005 +4.4507818529E-004  +1.0839864016E+000 +8.0606055260E-001 
3638210.263 +8.2566237450E-001 +1.1953108013E-001  -2.3316816078E-004 -1.3123801909E-004  -1.2953692931E-004 -2.2793568496E-004  +1.1695643663E+000 +8.4239530563E-001 
3763355.444 +8.5050910711E-001 +1.3421082497E-001  +1.3009874965E-004 -4.0064513450E-004  -2.0575134840E-005 -1.1276313307E-004  +1.2593296766E+000 +8.6135280132E-001 
3888500.626 +8.5860925913E-001 +1.5992313623E-001  -2.1104740154E-004 -3.6106616608E-004  +1.0251554340E-004 -1.3036883320E-004  +1.3363552094E+000 +9.1345429420E-001 
4013645.807 +8.2515132427E-001 +9.9907994270E-002  +1.3489075354E-004 +3.4518059692E-004  -1.3435160508E-004 +2.3042233806E-005  +1.5469796658E+000 +7.1362966299E-001 
4138790.989 +7.8217297792E-001 +6.3798159361E-002  +7.5537333032E-005 +2.6964765857E-004  +9.2990201665E-005 -5.7657412253E-004  +1.6223104000E+000 +4.4225072861E-001 
4263936.170 +7.7665013075E-001 +7.1075357497E-002  +3.1180260703E-004 -2.4382867559E-004  +2.2560157231E-004 -5.6500593928E-005  +1.6552746296E+000 +3.6925885081E-001 
4389081.352 +7.9323905706E-001 +7.8424736857E-002  +1.0060294699E-005 -1.9696923118E-005  -1.8726380949E-004 +9.2631910229E-004  +1.6845637560E+000 +2.7127864957E-001 
4514226.533 +8.0660277605E-001 +8.0399721861E-002  -1.9356491975E-004 +1.1636442650E-005  -1.3831169053E-004 -1.6828582739E-004  +1.7173883915E+000 +1.9488480687E-001 
4639371.715 +8.2141000032E-001 +8.6220517755E-002  +6.3506471633E-005 -4.3619529606E-006  -3.5772460978E-004 -4.7176884254E-004  +1.7129929066E+000 +1.3029885292E-001 
4764516.896 +8.1885713339E-001 +8.8343247771E-002  +1.5746989448E-005 +3.4215696360E-005  -3.8265594048E-004 -2.6824750239E-004  +1.7181477547E+000 +5.5727556348E-002 
4889662.078 +8.2907557487E-001 +9.1537505388E-002  -1.6069260892E-004 -4.2069572373E-004  +4.9179990310E-004 -8.5961190052E-005  +1.7262158394E+000 +2.7819275856E-003 
5014807.259 +8.3227515221E-001 +8.5655987263E-002  +5.7004239352E-005 +2.1315646882E-004  +1.2619780318E-004 -1.6448851966E-004  +1.6756283045E+000 -5.2887663245E-002 
5139952.441 +8.4484064579E-001 +7.9848475754E-002  -1.4749480761E-004 +9.2228117865E-005  -8.3688483573E-004 +3.4797794069E-004  +1.6775058508E+000 -1.2232874334E-001 
5265097.622 +8.5200244188E-001 +9.3765549362E-002  +4.8492387577E-005 +5.5778004025E-005  -1.5307293506E-004 -4.9242029490E-005  +1.6376718283E+000 -1.7437061667E-001 
5390242.804 +8.5702824593E-001 +9.5222957432E-002  -3.0517173582E-004 +2.9579520924E-004  +1.1508354510E-004 +5.1915209042E-005  +1.6031891108E+000 -2.1018034220E-001 
5515387.985 +8.7637507915E-001 +9.3479588628E-002  +1.0237359675E-004 -4.2994678370E-004  -1.4981698769E-004 +9.8152777355E-005  +1.5759608746E+000 -2.7784693241E-001 
5640533.166 +8.7587392330E-001 +8.9886792004E-002  -1.1483061098E-004 +5.9191392211E-005  -5.9720163699E-004 -5.2541578043E-005  +1.5546482801E+000 -3.0770927668E-001 
5765678.348 +8.7468767166E-001 +9.1801181436E-002  -1.7479574308E-004 +3.9479506086E-004  +5.7954806834E-005 -8.5634041170E-005  +1.5160825253E+000 -3.4311032295E-001 
5890823.529 +8.7995928526E-001 +8.9590087533E-002  -4.3453188846E-004 +5.4885493591E-004  +8.5748644779E-005 -1.8076476408E-004  +1.4635227919E+000 -3.6295360327E-001 
6015968.711 +8.8610333204E-001 +8.4210202098E-002  -3.8481611409E-004 -1.6277463874E-004  +8.3653547335E-005 +3.7193056778E-004  +1.4313473701E+000 -3.8373976946E-001 
6141113.892 +8.8867545128E-001 +8.4900587797E-002  -7.7682321717E-005 +4.0190665459E-005  -1.7550966004E-004 +3.4308483009E-004  +1.3895778656E+000 -4.0521717072E-001 
6266259.074 +8.9148116112E-001 +8.2852520049E-002  +1.7943012062E-004 -3.8033795136E-005  +9.6070150903E-005 +2.6309875466E-005  +1.3465900421E+000 -4.2677497864E-001 
6391404.255 +8.9675354958E-001 +7.8697293997E-002  +6.7264219979E-005 -2.9831053689E-004  +5.6583952392E-004 -5.3984927945E-004  +1.3013811111E+000 -4.3681961298E-001 
6516549.437 +9.0056115389E-001 +8.2996025681E-002  -5.5861728470E-005 -1.2860297284E-004  -2.5848508812E-004 -1.2603099458E-004  +1.2652919292E+000 -4.4631069899E-001 
6641694.618 +9.0915203094E-001 +8.6537890136E-002  +1.4608401398E-004 -2.2078346228E-004  +1.6261811834E-004 +1.0551667219E-004  +1.2380753756E+000 -4.4478666782E-001 
6766839.800 +9.1502696276E-001 +8.6052671075E-002  -4.6234523325E-005 -3.1454453710E-004  +6.8785215262E-005 +1.1720058683E-004  +1.2031134367E+000 -4.5458340645E-001 
6891984.981 +9.1368532181E-001 +8.8263139129E-002  +1.8053232634E-004 -7.1185284469E-005  -2.8677054797E-004 -8.3190738223E-005  +1.1547902822E+000 -4.5100781322E-001 
7017130.163 +9.1674822569E-001 +8.9592851698E-002  +2.2586958949E-004 -1.1924808496E-004  +8.8190805400E-005 +2.2210949101E-004  +1.1301655769E+000 -4.4871202111E-001 
7142275.344 +9.1980946064E-001 +9.3276761472E-002  -2.1850566554E-004 +2.1170411492E-004  -6.6438215072E-006 +9.3919567007E-005  +1.1085319519E+000 -4.4105494022E-001 
7267420.526 +9.1887021065E-001 +9.1341175139E-002  -2.0965325530E-004 +8.3224847913E-005  -9.2625828984E-005 -1.4868388826E-004  +1.0772522688E+000 -4.4027572870E-001 
7392565.707 +9.2476117611E-001 +8.6489759386E-002  +1.0582232790E-004 -5.5978725868E-005  +1.0235420632E-004 -2.4404633223E-005  +1.0462048054E+000 -4.3834227324E-001 
7517710.889 +9.2786991596E-001 +8.6514420807E-002  -7.0790323662E-005 -1.4680698223E-004  +1.1228929361E-004 -9.2668560683E-006  +1.0202263594E+000 -4.3399256468E-001 
7642856.070 +9.2654049397E-001 +8.6384765804E-002  +6.9827539846E-005 -4.1601633711E-005  +3.4627033165E-004 -4.1390696424E-005  +9.8826622963E-001 -4.2103910446E-001 
7768001.252 +9.3101829290E-001 +8.7907873094E-002  +1.4372949954E-004 -8.6537860625E-005  -6.9298548624E-005 +1.2731943571E-004  +9.6732687950E-001 -4.1011983156E-001 
7893146.433 +9.3641424179E-001 +8.3331704140E-002  +1.7490044411E-004 -1.3022505300E-005  +2.0816301912E-005 +8.4947050709E-006  +9.4803309441E-001 -3.9430624247E-001 
8018291.615 +9.3383741379E-001 +8.5364870727E-002  +2.6167221222E-005 +7.4241623224E-005  +7.6674528827E-005 -3.7203528336E-005  +9.1997659206E-001 -3.8558769226E-001 
8143436.796 +9.3628281355E-001 +8.0574795604E-002  -8.8657950982E-005 +6.7168904934E-005  +8.6123400251E-005 -1.1994512170E-004  +9.0495789051E-001 -3.7353324890E-001 
8268581.977 +9.3829405308E-001 +7.8724622726E-002  -7.1931557613E-005 -7.0675312600E-005  +1.2324378986E-005 +1.1057377378E-005  +8.8642680645E-001 -3.5943156481E-001 
8393727.159 +9.4221580029E-001 +7.3873877525E-002  +7.2604154411E-005 +1.3800771558E-004  +1.2028196579E-005 -1.1726120283E-004  +8.6914867163E-001 -3.4448409081E-001 
8518872.340 +9.4461005926E-001 +7.3892906308E-002  +7.3888954830E-006 -4.9437403504E-006  +1.6898226750E-004 -7.1980939538E-006  +8.5183966160E-001 -3.3260244131E-001 
8644017.522 +9.4651097059E-001 +7.6177954674E-002  +3.2938856748E-005 +1.1370080756E-005  -2.7705449611E-005 -2.9901886592E-004  +8.4062373638E-001 -3.2199606299E-001 
8769162.703 +9.5132428408E-001 +7.3087081313E-002  -4.2353334720E-005 -1.1085053120E-004  -6.4111016400E-005 -4.1024828533E-005  +8.2603299618E-001 -3.0825901031E-001 
8894307.885 +9.4991946220E-001 +7.0620790124E-002  -1.5732743486E-004 -4.7263281886E-005  +1.1560134226E-005 +3.2119921798E-006  +8.1253772974E-001 -2.9550477862E-001 
9019453.066 +9.5407855511E-001 +7.2250261903E-002  -4.8912272177E-005 -9.1956331744E-005  -4.0288658056E-005 +1.0309343634E-004  +8.0162441730E-001 -2.7843055129E-001 
9144598.248 +9.5462965965E-001 +6.8437844515E-002  -9.7634809208E-005 +8.3569480921E-005  -1.1723738135E-004 +1.5627447283E-006  +7.9096186161E-001 -2.6182809472E-001 
9269743.429 +9.5615887642E-001 +6.7302763462E-002  +8.7938569777E-005 -1.4968759206E-004  +1.0760926671E-004 +3.7651116145E-006  +7.8062051535E-001 -2.4793162942E-001 
9394888.611 +9.5889711380E-001 +7.0657163858E-002  +2.7531270462E-005 -6.7823180871E-005  +3.9525555621E-005 -1.9077528850E-004  +7.7092182636E-001 -2.3256736994E-001 
9520033.792 +9.5940673351E-001 +6.4385175705E-002  -6.7371387559E-005 +1.2192244321E-004  -7.7789867646E-005 -9.2656409834E-005  +7.6388275623E-001 -2.1311509609E-001 
9645178.974 +9.6230965853E-001 +6.3964039087E-002  -9.5608538686E-006 +1.1718482256E-006  -4.1235743993E-005 -5.1625238484E-006  +7.5656390190E-001 -1.9903612137E-001 
9770324.155 +9.6361428499E-001 +6.4667969942E-002  -9.5968047390E-005 +1.0616271175E-004  -2.4213377401E-005 -8.2785976701E-005  +7.4780720472E-001 -1.8439993262E-001 
9895469.337 +9.6509504318E-001 +6.3503772020E-002  +6.4057392592E-005 +8.9461973403E-005  +4.4078373321E-005 -1.0782117897E-005  +7.4120855331E-001 -1.6838914156E-001 
10020614.518 +9.6376436949E-001 +6.2532335520E-002  +2.9887851269E-006 +5.9055659221E-005  +7.5579737313E-006 +5.9889414842E-005  +7.3892450333E-001 -1.5232872963E-001 
10145759.700 +9.6747374535E-001 +5.8488041162E-002  -3.1180788937E-005 -2.8123598895E-005  -5.4806259868E-005 -6.4569794631E-005  +7.3372340202E-001 -1.3858169317E-001 
10270904.881 +9.6948772669E-001 +5.3867995739E-002  -1.0938134074E-004 -9.5493771369E-005  -1.0894016305E-004 -9.6614930953E-005  +7.3148477077E-001 -1.2393739820E-001 
10396050.063 +9.6809053421E-001 +5.5219382048E-002  +7.2310867836E-005 +5.1199349400E-006  -7.5527987065E-007 +2.4509048671E-005  +7.2764539719E-001 -1.0734975338E-001 
10521195.244 +9.7011482716E-001 +5.5057197809E-002  -1.3970315194E-005 +1.0659075633E-004  +1.0929338714E-006 +1.3261946151E-005  +7.2822600603E-001 -9.0955168009E-002 
10646340.426 +9.7016799450E-001 +5.0793290138E-002  +9.6423485957E-005 +7.9242810898E-005  +3.0898278055E-005 +1.5897385310E-006  +7.2448837757E-001 -7.7660709620E-002 
10771485.607 +9.7119241953E-001 +5.0448805094E-002  +1.2670366232E-005 +3.9597402065E-005  +8.9373565970E-007 +5.1588258430E-006  +7.2586214542E-001 -6.2439978123E-002 
10896630.788 +9.7170495987E-001 +5.1213204861E-002  +6.2573904870E-005 +4.4631629862E-005  +8.1565076471E-006 +2.0317300368E-005  +7.2330123186E-001 -5.0194621086E-002 
11021775.970 +9.7097826004E-001 +4.8821508884E-002  +3.6377674405E-005 -3.2448562706E-005  +1.8689670469E-005 -2.3123075152E-005  +7.2475934029E-001 -3.5459965467E-002 
11146921.151 +9.7169375420E-001 +4.3369680643E-002  -2.0932136977E-005 +8.7114938651E-005  +1.9483282813E-005 -4.4448708650E-005  +7.2608625889E-001 -1.9553810358E-002 
11272066.333 +9.7185629606E-001 +4.3580979109E-002  +1.6909059923E-005 -5.6381260947E-005  +3.9091482904E-005 -2.8159747671E-005  +7.2714245319E-001 -5.8177113533E-003 
11397211.514 +9.7209954262E-001 +4.3787389994E-002  -1.4016944988E-005 -7.8067660070E-007  -3.3817927033E-005 +3.0672064895E-005  +7.2945809364E-001 +8.0818235874E-003 
11522356.696 +9.7322559357E-001 +4.0714383125E-002  +9.1036155936E-005 +1.0765150364E-005  +6.3559775299E-005 +4.4055352191E-005  +7.3428666592E-001 +2.1092683077E-002 
11647501.877 +9.7270405293E-001 +4.1231155396E-002  +7.0725043770E-005 -2.3122265702E-006  -1.2486635569E-005 +1.4170961549E-005  +7.3731160164E-001 +3.5889446735E-002 
11772647.059 +9.7282844782E-001 +3.8344740868E-002  +6.4210478740E-005 -1.1163741874E-005  +1.0190613466E-005 +6.6648906795E-005  +7.4143987894E-001 +4.8471570015E-002 
11897792.240 +9.7325766087E-001 +3.8610219955E-002  -3.8814898289E-005 -2.9380986234E-005  +1.0947099327E-005 -6.4475761974E-007  +7.4580156803E-001 +6.0193479061E-002 
12022937.422 +9.7452569008E-001 +3.6955416203E-002  -2.8911499612E-005 -2.4929857318E-005  +6.5514286689E-005 +5.7953639043E-005  +7.5204879045E-001 +7.2272270918E-002 
12148082.603 +9.7474741936E-001 +3.5415112972E-002  +3.9515172830E-005 +1.4343081602E-005  +3.3302785596E-005 -1.6324407625E-005  +7.5898104906E-001 +8.4928333759E-002 
12273227.785 +9.7517615557E-001 +3.5549372435E-002  +4.8007434089E-005 +1.8249738787E-006  +3.9397287765E-005 +2.3534057618E-005  +7.6544106007E-001 +9.7352474928E-002 
12398372.966 +9.7438180447E-001 +3.4563273191E-002  +1.1542107131E-005 -5.7358897720E-006  +4.3421823648E-005 +3.5778502934E-005  +7.7267986536E-001 +1.0738235712E-001 
12523518.148 +9.7406464815E-001 +3.3078372478E-002  -1.1974097106E-005 -3.9542861487E-005  +4.5093045628E-005 +2.8034752177E-005  +7.8004646301E-001 +1.1754094064E-001 
12648663.329 +9.7468215227E-001 +3.3664032817E-002  +4.8812871682E-005 -2.3696884455E-008  -2.8031374768E-006 -2.2989797799E-005  +7.8927266598E-001 +1.2804184854E-001 
12773808.511 +9.7472643852E-001 +3.0902713537E-002  +3.1909337849E-005 -1.8857645046E-005  +3.9622125769E-005 -1.5590885596E-005  +7.9732221365E-001 +1.3717831671E-001 
12898953.692 +9.7435706854E-001 +2.9107227921E-002  +4.3653566536E-005 -8.1885764303E-006  +3.5154898796E-005 +3.3749558497E-005  +8.0677729845E-001 +1.4677941799E-001 
13024098.874 +9.7372591496E-001 +2.8648279607E-002  -7.9633682617E-006 +2.1641562853E-005  -2.0416740881E-005 +5.6036024034E-005  +8.1650257111E-001 +1.5574520826E-001 
13149244.055 +9.7352975607E-001 +2.7908805758E-002  -1.1364893908E-005 -2.2014733986E-005  +5.2697097999E-005 +1.3027131899E-005  +8.2669746876E-001 +1.6391918063E-001 
13274389.237 +9.7349482775E-001 +2.6775998995E-002  -4.8908794270E-005 +5.7071927586E-005  +2.8056610972E-005 -9.0200810519E-006  +8.3755928278E-001 +1.7189228535E-001 
13399534.418 +9.7309374809E-001 +2.6804534718E-002  -1.5613602500E-007 +2.9212666050E-005  +1.6690710254E-005 +3.6416379317E-006  +8.4754747152E-001 +1.7938743532E-001 
13524679.599 +9.7296571732E-001 +2.6450641453E-002  +5.2480008890E-005 -1.2690808944E-005  -4.0351405914E-006 +3.6239653127E-005  +8.5962265730E-001 +1.8531343341E-001 
13649824.781 +9.7371035814E-001 +2.4754226208E-002  +2.2425552743E-005 +1.1394080502E-005  +6.1447179178E-005 +1.3279201994E-005  +8.7214380503E-001 +1.9068418443E-001 
13774969.962 +9.7260272503E-001 +2.3566246033E-002  -2.9906500458E-006 +7.4797782190E-007  -7.9557376012E-006 -2.5369618015E-005  +8.8219791651E-001 +1.9497483969E-001 
13900115.144 +9.7252815962E-001 +2.3605376482E-002  -1.6833184418E-005 +4.6150533308E-005  +4.2227809899E-005 +2.4681436116E-005  +8.9392435551E-001 +2.0090675354E-001 
14025260.325 +9.7160363197E-001 +2.2266507149E-002  +2.2356267436E-005 +6.9926500146E-008  +1.4433424440E-005 -1.6529204004E-005  +9.0631312132E-001 +2.0380491018E-001 
14150405.507 +9.7160625458E-001 +2.3111283779E-002  -1.4588196791E-005 +6.9119137152E-006  +3.2838470361E-005 -7.7616659837E-006  +9.1799193621E-001 +2.0672059059E-001 
14275550.688 +9.7177308798E-001 +2.1726250648E-002  +2.1555619242E-005 +1.5686364350E-005  +1.0309611753E-005 -2.6091740438E-005  +9.3117409945E-001 +2.0816521347E-001 
14400695.870 +9.7044187784E-001 +2.0053207874E-002  +3.1356299587E-005 +2.2362741220E-005  +5.6003369536E-005 +2.7652680728E-005  +9.4313484430E-001 +2.0986893773E-001 
