!  2-Port S-parameters saved by WinCal
! VAR MeasName=S-Parameters (CALIBRATED_DATA) read from VNA (P5004A)
! VAR MeasDate=22/05/2024 21:15:35
! VAR NAME=Wafer3_r3_c5_pristine 2
! VAR FILENAME=Wafer3_r3_c5_pristine 2.S2P
! VAR DATE=22/05/2024 21:15:35
! VAR PHYS_PORTS=1,2
! VAR ObjTypeName=DATASET
! VAR IndexType=Frequency
!
# Hz S RI R 50
9000.000 +2.1089249849E-001 -6.0387504101E-001  +5.3676320240E-003 -4.1611073539E-004  -1.0206543375E-003 -2.0547100576E-004  +4.0664620697E-002 +1.0701509565E-001 
134145.181 +5.9117037058E-001 +3.4265577793E-002  -1.0637972504E-002 +3.4744264558E-003  -1.2999989092E-002 -1.4283200726E-002  +6.4205545187E-001 -7.7258460224E-002 
259290.363 +8.3863729239E-001 -1.1618185043E-001  -3.1450763345E-004 +6.1858789995E-003  +2.4840964470E-003 +1.8896546680E-003  +9.9664199352E-001 -1.1750792712E-001 
384435.544 +8.8874900341E-001 -2.9869604111E-001  +2.7339702938E-003 -1.3476880267E-003  -6.0537800891E-005 +1.8813600764E-003  +1.0811343193E+000 -2.1143712103E-001 
509580.726 +9.5406287909E-001 -1.6214707494E-001  -1.2298114598E-004 -7.4445514474E-004  +3.7992489524E-005 +5.0622806884E-004  +1.0443090200E+000 -9.0467900038E-002 
634725.907 +1.0984983444E+000 -2.1545076370E-001  -3.3839844400E-004 +6.8124398240E-005  +5.5792980129E-004 +3.5864516394E-004  +1.1260390282E+000 -7.6887488365E-002 
759871.089 +1.3119298220E+000 -4.9227982759E-002  +2.4081875745E-004 -6.2578701181E-004  +3.1893484993E-004 -8.9825288160E-004  +1.1920597553E+000 +1.4092266560E-002 
885016.270 +1.5248606205E+000 -1.1041656733E+000  -5.4866056889E-003 +1.4655617997E-003  +1.2058278080E-003 -1.6159781080E-004  +1.3515512943E+000 +8.1123456359E-002 
1010161.452 +1.1037206650E+000 -1.4265155792E-001  -1.1673059780E-003 -4.2150472291E-003  +6.2378536677E-004 +1.5793333296E-003  +5.0071722269E-001 -1.5412332118E-001 
1135306.633 +1.0713757277E+000 -1.2070244551E-001  +3.8427894469E-004 +8.3132053260E-004  -3.2555107027E-003 -1.7316252925E-003  +9.3600034714E-001 +3.8095831871E-002 
1260451.815 +1.3893611431E+000 -1.0111647844E-001  +5.3465692326E-004 +5.2371236961E-004  -2.8627217398E-004 -9.7049935721E-004  +1.0568734407E+000 +1.4136341214E-001 
1385596.996 +1.3143528700E+000 -1.7327630520E-001  -8.6019499577E-005 -9.3088205904E-004  -1.6943628434E-003 +2.4840331753E-004  +1.1514937878E+000 +1.1401426792E-001 
1510742.178 +1.5519890785E+000 -3.2143676281E-001  -6.8107177503E-004 -2.1593239217E-004  -5.0412182463E-004 -1.7767134705E-004  +1.3707976341E+000 +1.6997237504E-001 
1635887.359 +9.7023099661E-001 -4.4393333793E-001  -1.9772318192E-003 +1.0908228578E-003  +1.1233995901E-003 +9.6229586052E-004  +1.0886349678E+000 -2.3009151220E-001 
1761032.541 +1.0473319292E+000 -5.4298311472E-001  -2.3954121862E-003 -2.1983115003E-003  -8.6969911354E-004 -1.0372085962E-003  +1.0851304531E+000 -2.1987432241E-001 
1886177.722 +9.1492974758E-001 -3.4204587340E-001  -2.1489223000E-003 -1.3975638431E-003  -3.9283733349E-004 +1.6514745075E-003  +1.0237621069E+000 -1.0004961491E-001 
2011322.904 +8.9253294468E-001 -2.4072486162E-001  +6.5150100272E-004 +1.1482433183E-003  -1.9615091151E-004 +1.0183853010E-004  +1.0148792267E+000 -5.9037417173E-002 
2136468.085 +9.1895878315E-001 -2.0169311762E-001  +7.4022042099E-004 -2.1497157286E-004  -7.5805920642E-004 +1.3273772784E-003  +1.0145241022E+000 -3.5529673100E-002 
2261613.267 +9.1544204950E-001 -1.7207729816E-001  -2.8479349567E-004 -5.3537875647E-004  +9.8186435935E-005 +2.7485837927E-004  +1.0040628910E+000 -1.2493282557E-002 
2386758.448 +9.1981983185E-001 -1.4676007628E-001  -6.8110792199E-005 -5.6011171546E-004  +1.4425796689E-004 +3.0904173036E-004  +1.0042487383E+000 +2.2412538528E-003 
2511903.630 +9.0867865086E-001 -1.2339693308E-001  -1.3722330914E-004 -1.4885752171E-004  -4.9408420455E-004 +1.0077131446E-004  +1.0063011646E+000 +7.1501135826E-003 
2637048.811 +9.2150914669E-001 -1.2371376157E-001  +7.6132011600E-005 +3.4600027720E-004  +8.4875496104E-003 +7.0459372364E-004  +9.9651312828E-001 +2.8286635876E-002 
2762193.992 +9.2645758390E-001 -1.1157018691E-001  -5.6884624064E-004 -5.3484877571E-004  -1.3703937293E-004 +9.4660936156E-007  +1.0005836487E+000 +5.3693994880E-002 
2887339.174 +8.7727367878E-001 -1.1339486390E-001  +1.7710775137E-004 +2.6262926986E-004  +2.7286654222E-004 +3.4286425216E-004  +1.0022382736E+000 +6.6918268800E-002 
3012484.355 +8.6783176661E-001 -9.0016558766E-002  +5.1285358495E-005 +6.7540461896E-004  +2.6068699663E-004 -3.9146211930E-004  +9.9866813421E-001 +8.2737192512E-002 
3137629.537 +8.7393546104E-001 -3.5840883851E-002  +3.9275770541E-004 +8.8294793386E-005  +3.8537831279E-004 +7.0412497735E-004  +1.0093904734E+000 +1.1025429517E-001 
3262774.718 +8.6345350742E-001 -1.3413375244E-002  -1.3262461289E-004 +4.1886953113E-005  +9.9870805570E-005 +9.5759578471E-006  +1.0201582909E+000 +1.2254770845E-001 
3387919.900 +8.5987561941E-001 +2.6954805478E-002  -6.8238121457E-004 -4.4770943350E-004  +1.3290363131E-004 +2.4883018341E-004  +1.0212979317E+000 +1.3032175601E-001 
3513065.081 +8.7680774927E-001 +4.9130614847E-002  -3.3044459997E-005 +4.7509485739E-004  -2.7999500162E-005 +2.8400869269E-005  +1.0295194387E+000 +1.6615642607E-001 
3638210.263 +8.8832330704E-001 +8.3545491099E-002  +3.1556071917E-005 -1.3652657799E-005  +1.5716589405E-004 +2.5143861421E-004  +1.0573986769E+000 +1.7982317507E-001 
3763355.444 +9.1110306978E-001 +8.8140130043E-002  -2.1322036628E-004 -2.1499655850E-004  +1.6674897051E-004 +6.5701012500E-004  +1.0715286732E+000 +1.8454144895E-001 
3888500.626 +9.2340433598E-001 +1.2235753238E-001  +3.0426983722E-004 +3.0143139884E-004  -6.0664518969E-004 +8.3423590695E-005  +1.1013592482E+000 +1.9474676251E-001 
4013645.807 +8.7626200914E-001 +7.0954546332E-002  +7.3563423939E-004 +1.4830550936E-004  +3.4129605046E-004 +7.8838500485E-005  +1.0578560829E+000 +1.0246689618E-001 
4138790.989 +8.2842230797E-001 +1.7745397985E-002  +9.8327954765E-004 -1.6429253446E-004  -1.2224250531E-004 +2.2132463346E-004  +9.8466342688E-001 +1.3059027493E-002 
4263936.170 +8.2118374109E-001 +3.5422120243E-002  -1.0003607167E-004 -2.0576080715E-004  +3.6020085099E-004 +2.3894975311E-004  +9.9028331041E-001 +9.0385004878E-003 
4389081.352 +8.4370923042E-001 +4.0628045797E-002  +3.7422360037E-004 +3.7365430035E-004  +1.0588797886E-004 +2.3475993657E-004  +9.8157972097E-001 -1.0330505669E-002 
4514226.533 +8.5160177946E-001 +3.6017946899E-002  -2.8981885407E-004 -2.2653152701E-004  -6.5818068106E-004 +7.2365350206E-005  +9.9417144060E-001 -1.2773461640E-002 
4639371.715 +8.6956620216E-001 +4.2245186865E-002  +2.9901583912E-004 -1.9402020553E-004  -4.9529381795E-004 -3.2744137570E-004  +9.9753528833E-001 -4.4219456613E-003 
4764516.896 +8.7393677235E-001 +3.8544662297E-002  -1.8765733694E-004 +7.4154476169E-004  +2.0173018856E-004 -5.3554971237E-004  +1.0005813837E+000 -2.5247439742E-002 
4889662.078 +8.7415456772E-001 +5.4506778717E-002  +1.7144600406E-006 +1.8417510728E-004  -1.5623115178E-004 -2.5457478478E-004  +1.0000807047E+000 -1.6140276566E-002 
5014807.259 +8.7444859743E-001 +4.8878405243E-002  +1.8974105478E-004 -3.4178647911E-004  +1.5562263434E-004 -2.3249827791E-004  +9.9222040176E-001 -1.1465856805E-002 
5139952.441 +8.9443206787E-001 +5.4588966072E-002  -2.3055801284E-004 +2.7488748310E-004  -7.3544413317E-004 -1.3959326679E-005  +1.0028188229E+000 -2.1384458989E-002 
5265097.622 +9.0286165476E-001 +5.7800821960E-002  +3.7012167013E-005 +1.6400031745E-004  +5.8922014432E-004 -2.5204761187E-004  +9.9165338278E-001 -1.8292527646E-002 
5390242.804 +9.0671443939E-001 +5.7154174894E-002  +5.1971670473E-005 -3.6387445289E-004  +1.4928283053E-004 -3.3407712181E-005  +9.8605686426E-001 -1.9064880908E-002 
5515387.985 +9.2165392637E-001 +5.5464379489E-002  -6.1126952460E-006 +2.0030431187E-005  -7.7823067841E-005 -4.3104671931E-005  +9.9071860313E-001 -3.5618245602E-002 
5640533.166 +9.2424160242E-001 +5.3270295262E-002  -1.9341615553E-004 +2.3886406780E-005  +5.4944997828E-005 +1.9389713998E-004  +9.9059206247E-001 -3.1222581863E-002 
5765678.348 +9.2720216513E-001 +5.4415285587E-002  -1.5758775407E-004 -3.2148003811E-004  -3.0567188514E-004 -1.9155746850E-004  +9.9546027184E-001 -2.4661146104E-002 
5890823.529 +9.3099623919E-001 +4.6999730170E-002  -1.5860017447E-004 +2.3579175468E-004  +2.4216792372E-004 -3.8543483242E-005  +9.8742228746E-001 -3.0745953321E-002 
6015968.711 +9.3464219570E-001 +4.2339168489E-002  +1.0446524539E-004 +1.7133650545E-004  -4.3295411160E-004 -1.3075995957E-004  +9.9235099554E-001 -2.5359489024E-002 
6141113.892 +9.3643033504E-001 +4.9829542637E-002  -8.1196463725E-005 -3.7252146285E-004  +1.0218715033E-004 +1.2354507635E-004  +9.8830610514E-001 -2.3219525814E-002 
6266259.074 +9.3935537338E-001 +5.1393765956E-002  -2.3073753255E-005 +3.4739766852E-004  +1.4317549358E-004 -1.0987918358E-004  +9.9074357748E-001 -2.1411351860E-002 
6391404.255 +9.4478893280E-001 +4.1176069528E-002  -4.5733887237E-004 -3.3467080357E-005  +2.8499501059E-004 -1.0692380602E-004  +9.8760902882E-001 -2.8200820088E-002 
6516549.437 +9.4614112377E-001 +4.3067827821E-002  +2.4522896274E-004 +2.1581305191E-004  +2.1480472060E-004 -1.7979349650E-004  +9.8408502340E-001 -2.7936682105E-002 
6641694.618 +9.5365864038E-001 +4.2857699096E-002  -1.1814390746E-004 -1.1233189434E-004  -6.9704154157E-005 +2.2692339553E-004  +9.8678380251E-001 -1.7401054502E-002 
6766839.800 +9.5798927546E-001 +4.3459117413E-002  -3.1288767786E-005 -3.3729549614E-005  -9.3433496659E-005 +3.8417190081E-004  +9.8692870140E-001 -2.8041586280E-002 
6891984.981 +9.5739787817E-001 +4.0832653642E-002  +4.1914852773E-005 -2.7456789394E-004  -8.4071498350E-006 -8.7668850028E-005  +9.7765272856E-001 -2.2811725736E-002 
7017130.163 +9.5730203390E-001 +3.6322869360E-002  +1.3851560652E-004 -3.9822494728E-005  +1.2529877131E-004 +1.2340565445E-004  +9.7979837656E-001 -2.1009802818E-002 
7142275.344 +9.6172231436E-001 +4.3795756996E-002  -2.3644117755E-004 +2.0726025105E-004  -3.4675022471E-004 +7.5380841736E-005  +9.8219466209E-001 -1.4855071902E-002 
7267420.526 +9.6062606573E-001 +4.7008529305E-002  +7.9264100350E-007 -1.3227081217E-004  +3.2563679270E-005 +2.5243309210E-005  +9.7921907902E-001 -1.6694977880E-002 
7392565.707 +9.6384227276E-001 +4.9384593964E-002  +1.0920844215E-004 -1.5776186046E-005  +1.9850532408E-004 +1.0949773423E-004  +9.8117715120E-001 -2.2023767233E-002 
7517710.889 +9.6718966961E-001 +4.5810803771E-002  -8.2767975982E-005 +4.3922400801E-004  -3.0426576268E-004 +1.1458409426E-004  +9.7650408745E-001 -2.1875426173E-002 
7642856.070 +9.6231907606E-001 +4.1118770838E-002  -1.1460022506E-004 -8.4927742137E-005  +6.1344086134E-005 -1.4581797586E-004  +9.7515290976E-001 -2.0855501294E-002 
7768001.252 +9.6819317341E-001 +4.3241307139E-002  -2.5220710086E-004 +2.1749098960E-004  +1.4985707821E-004 +7.0482128649E-005  +9.7051620483E-001 -1.7643913627E-002 
7893146.433 +9.7477948666E-001 +4.3742060661E-002  -8.6456948338E-006 -6.7537970608E-005  +1.8042777810E-005 +1.1244037159E-004  +9.7720479965E-001 -1.4275982976E-002 
8018291.615 +9.7099703550E-001 +4.0522441268E-002  +6.5577041823E-005 -1.1711198022E-004  +3.1062372727E-004 -1.1707234080E-004  +9.7178930044E-001 -1.6106292605E-002 
8143436.796 +9.6509724855E-001 +3.4879341722E-002  +1.1091268243E-004 +1.2865624740E-004  +1.0198864766E-004 -4.8847945436E-005  +9.7485297918E-001 -1.1014223099E-002 
8268581.977 +9.6976041794E-001 +3.6502122879E-002  +1.6464935015E-006 -1.6431589756E-005  +3.8106270949E-005 -9.9388649687E-005  +9.7448158264E-001 -7.3781609535E-003 
8393727.159 +9.6678197384E-001 +2.9853746295E-002  +1.8693698803E-004 -4.4204371079E-005  +1.7169617058E-004 -1.4354354062E-004  +9.7449028492E-001 -7.5281262398E-003 
8518872.340 +9.7195774317E-001 +3.0093595386E-002  -1.0720218415E-004 -6.3159241108E-005  +2.0736055740E-004 +2.5610897865E-006  +9.7357910872E-001 -4.7708451748E-003 
8644017.522 +9.7189903259E-001 +3.1292527914E-002  -1.4942402777E-004 -1.4719052706E-004  -1.2566595979E-004 +9.3794522400E-005  +9.7884243727E-001 -3.3915340900E-003 
8769162.703 +9.7508627176E-001 +3.1765639782E-002  +5.2225768741E-005 -5.1850747695E-005  +2.0534434589E-004 -1.3592570031E-004  +9.7933006287E-001 -4.7907829285E-003 
8894307.885 +9.7602498531E-001 +3.2333016396E-002  -1.1011653260E-004 -6.7965847848E-006  -1.1665854254E-004 -1.4482209735E-005  +9.7518807650E-001 -6.4639449120E-003 
9019453.066 +9.7425526381E-001 +2.8140395880E-002  -7.4351075455E-005 -1.2793668429E-004  -4.7335903218E-005 -2.0557819516E-004  +9.7616922855E-001 -6.3588321209E-003 
9144598.248 +9.7674459219E-001 +2.7814537287E-002  -1.7598880731E-005 -6.7196990130E-005  -7.2758368333E-005 +3.0091741792E-006  +9.7750723362E-001 -2.1373331547E-003 
9269743.429 +9.7569823265E-001 +2.6932179928E-002  -3.7433786929E-005 -1.7922853658E-005  -1.3433823187E-004 -5.5135082221E-005  +9.7820842266E-001 -2.1171271801E-003 
9394888.611 +9.7829604149E-001 +3.2938241959E-002  +4.1555147618E-005 -3.4979373595E-005  -1.1422793614E-004 +9.3257018307E-005  +9.7733640671E-001 -2.2151470184E-003 
9520033.792 +9.8044741154E-001 +2.7340084314E-002  -1.0841438780E-004 -7.8559765825E-005  -9.1519832495E-005 -1.0156554708E-005  +9.7711634636E-001 +6.6754221916E-004 
9645178.974 +9.7934234142E-001 +2.6832908392E-002  +5.0155027566E-005 +7.1357444540E-006  +3.6320627260E-005 +1.1596433978E-005  +9.7811961174E-001 +9.4756484032E-004 
9770324.155 +9.7989678383E-001 +2.7437835932E-002  +9.6703988675E-005 +4.8359954235E-005  -9.6220122941E-005 -2.8777129046E-005  +9.7618371248E-001 +2.5118589401E-003 
9895469.337 +9.8107093573E-001 +2.8442174196E-002  +4.9034104450E-005 +1.6044625227E-005  +3.1852952816E-005 -7.7714685176E-005  +9.7519743443E-001 +1.3951063156E-003 
10020614.518 +9.8055505753E-001 +2.7675896883E-002  -6.7929729994E-005 +4.3302403355E-005  -2.6513647754E-005 +5.5298831285E-005  +9.7554379702E-001 +4.4619739056E-003 
10145759.700 +9.8175245523E-001 +2.5701105595E-002  -3.7515703298E-005 +9.1532783699E-005  -3.9419588575E-005 -3.3528405766E-005  +9.7753310204E-001 +1.9242167473E-003 
10270904.881 +9.8533499241E-001 +2.4510681629E-002  -2.1496989575E-005 -1.9896111553E-005  -1.1173691018E-004 +8.0998201156E-005  +9.8074549437E-001 +4.3578445911E-003 
10396050.063 +9.8347979784E-001 +2.4244278669E-002  +1.5670484572E-005 +9.1643873020E-005  -6.5441963670E-006 -5.1400609664E-005  +9.7997605801E-001 +4.9207508564E-003 
10521195.244 +9.8508977890E-001 +2.5368541479E-002  +1.0008336176E-005 -2.7764457627E-005  +6.1156853917E-005 +5.8991754486E-006  +9.8066562414E-001 +4.1099786758E-003 
10646340.426 +9.8553204536E-001 +2.4857461452E-002  +6.0261496401E-005 +1.6094903913E-005  +8.4511775640E-005 +5.8947200159E-005  +9.7871541977E-001 +7.3038041592E-003 
10771485.607 +9.8519718647E-001 +2.4405419827E-002  -9.0493895186E-006 +1.2663494090E-005  +5.4407348216E-005 -4.2118714191E-005  +9.8162901402E-001 +7.2129368782E-003 
10896630.788 +9.8499822617E-001 +2.5125235319E-002  +5.7196848502E-006 +7.6153133705E-005  -3.7461053580E-005 -1.3163023141E-005  +9.7968661785E-001 +7.3660910130E-003 
11021775.970 +9.8436403275E-001 +2.3332625628E-002  -3.3717315091E-005 +4.7703699238E-005  -3.0703184166E-005 +3.6661258491E-005  +9.8050391674E-001 +7.8668296337E-003 
11146921.151 +9.8330593109E-001 +2.1465212107E-002  -1.7332617062E-005 +2.4775783459E-005  +2.0837967895E-005 -4.6403947636E-005  +9.8261415958E-001 +7.3910951614E-003 
11272066.333 +9.8466235399E-001 +2.0822107792E-002  +2.4306898922E-005 +9.0838737378E-005  +3.9284896047E-005 -1.8119193555E-005  +9.8001629114E-001 +8.0033242702E-003 
11397211.514 +9.8595881462E-001 +2.2018104792E-002  +6.3235500420E-005 +9.0379078756E-005  +7.5627474416E-007 -9.3416520031E-007  +9.8113805056E-001 +7.0748925209E-003 
11522356.696 +9.8688542843E-001 +2.0893126726E-002  +1.4968611140E-005 -6.0762755311E-005  +6.6985005105E-005 -3.1742514693E-005  +9.8266810179E-001 +6.2379539013E-003 
11647501.877 +9.8489367962E-001 +2.1503001451E-002  +3.2384301448E-005 +4.8111578508E-005  +1.1012483810E-005 -2.3325315851E-005  +9.8229956627E-001 +7.8890919685E-003 
11772647.059 +9.8684251308E-001 +2.1249830723E-002  +1.9012759367E-006 +8.5402316472E-006  +1.9590026568E-005 -1.3770204532E-007  +9.8162871599E-001 +6.2333643436E-003 
11897792.240 +9.8538446426E-001 +1.9087642431E-002  -3.2157789974E-005 -2.2087388061E-005  -2.2082260330E-005 +2.4759632652E-005  +9.8313790560E-001 +7.4755251408E-003 
12022937.422 +9.8747932911E-001 +2.0795673132E-002  +1.8229340640E-005 -1.1135819659E-004  +1.1891200302E-005 -2.8589298381E-005  +9.8330211639E-001 +6.3021481037E-003 
12148082.603 +9.8737418652E-001 +1.9087523222E-002  +3.8985024730E-005 +1.4218118849E-005  -5.8682826420E-006 +4.4294611143E-005  +9.8340117931E-001 +7.7326595783E-003 
12273227.785 +9.8715716600E-001 +2.0412653685E-002  +2.6615554816E-005 +8.9267996373E-007  +1.2958347725E-005 +4.6492390538E-005  +9.8524278402E-001 +7.3151290417E-003 
12398372.966 +9.8644435406E-001 +1.9708633423E-002  -2.0566822059E-005 +1.0797133655E-005  -3.2817493775E-005 +2.9741506296E-005  +9.8533368111E-001 +7.5742900372E-003 
12523518.148 +9.8594844341E-001 +1.8936574459E-002  +2.4215043595E-005 -5.3327871683E-006  +3.0435514418E-005 -3.1421172025E-005  +9.8398208618E-001 +6.6042840481E-003 
12648663.329 +9.8755419254E-001 +1.8821716309E-002  -7.2731672844E-006 +1.6101619622E-005  -1.4058861780E-005 +2.5839208320E-005  +9.8515897989E-001 +6.6891759634E-003 
12773808.511 +9.8812913895E-001 +1.7045110464E-002  +8.3159138740E-005 -7.8790126281E-006  -7.7221293395E-006 -1.5451440049E-005  +9.8505502939E-001 +7.3448866606E-003 
12898953.692 +9.8836135864E-001 +1.7438203096E-002  -7.6604563219E-005 +1.4934243154E-005  +5.5082446124E-006 +1.9625951609E-005  +9.8549145460E-001 +6.6456943750E-003 
13024098.874 +9.8870587349E-001 +1.7020255327E-002  -3.2935029139E-006 -3.2896325138E-005  -3.3863660065E-005 -2.2703716240E-006  +9.8618358374E-001 +7.4058175087E-003 
13149244.055 +9.8827439547E-001 +1.6912180930E-002  -2.9204875318E-005 +3.2540597203E-006  -1.1847228961E-005 +3.4636814235E-005  +9.8631310463E-001 +7.9823564738E-003 
13274389.237 +9.8731637001E-001 +1.5651496127E-002  -1.7393858798E-005 -4.6399945859E-006  -3.1555657188E-005 +8.9788554760E-006  +9.8734235764E-001 +8.6132492870E-003 
13399534.418 +9.8795980215E-001 +1.5417922288E-002  -8.5075416791E-006 +4.0566963435E-005  -9.8028858702E-006 +4.0543549403E-005  +9.8698204756E-001 +9.6542313695E-003 
13524679.599 +9.8692893982E-001 +1.5962392092E-002  -1.1330240341E-005 +1.0865658624E-005  -1.7192105588E-005 +1.0210789696E-005  +9.8809731007E-001 +9.2963874340E-003 
13649824.781 +9.8846501112E-001 +1.4067307115E-002  +1.0100247891E-006 +5.1439492381E-005  -1.0773646864E-005 +1.8574974092E-005  +9.8846083879E-001 +8.8913589716E-003 
13774969.962 +9.8803782463E-001 +1.3303533196E-002  +9.6200965345E-006 +3.7223628169E-005  +4.8794958275E-005 +2.9289909435E-005  +9.8690390587E-001 +8.0910772085E-003 
13900115.144 +9.8820185661E-001 +1.3951241970E-002  +1.8823991923E-005 +7.9053907029E-006  -5.2411437537E-006 +4.3523999921E-005  +9.8785120249E-001 +8.6403191090E-003 
14025260.325 +9.8768931627E-001 +1.4732599258E-002  -2.3377189791E-005 +3.8729627704E-005  +5.0679395827E-006 +2.1858582841E-005  +9.8752200603E-001 +8.6051821709E-003 
14150405.507 +9.8702138662E-001 +1.4254629612E-002  -1.7904840206E-005 -4.7263747547E-006  +1.3341401427E-005 +5.1657869335E-005  +9.8845005035E-001 +8.3146691322E-003 
14275550.688 +9.8776483536E-001 +1.3076126575E-002  +3.4356762626E-006 +5.8146411902E-005  +9.7895735962E-007 +3.4428452636E-005  +9.8831945658E-001 +8.5183680058E-003 
14400695.870 +9.8680716753E-001 +1.2851208448E-002  +3.7196427002E-005 +7.4429135566E-006  -9.3486396509E-006 +4.0944441935E-006  +9.8889148235E-001 +8.9711546898E-003 
