!  2-Port S-parameters saved by WinCal
! VAR MeasName=S-Parameters (CALIBRATED_DATA) read from VNA (P5004A)
! VAR MeasDate=22/05/2024 22:05:06
! VAR NAME=Wafer3_r2_c5_pristine_pos30dc
! VAR FILENAME=Wafer3_r2_c5_pristine_pos30dc.S2P
! VAR DATE=22/05/2024 22:05:06
! VAR PHYS_PORTS=1,2
! VAR ObjTypeName=DATASET
! VAR IndexType=Frequency
!
# Hz S RI R 50
9000.000 +2.0679004490E-001 -5.9488809109E-001  +1.1306194356E-003 +6.9573189830E-004  +7.5394683518E-004 -1.5473284293E-003  +4.8176005483E-002 +1.0559470952E-001 
134145.181 +7.9113137722E-001 +6.2232349068E-002  +1.0135049000E-002 -7.7482694760E-003  -2.0053055137E-002 +1.5842534602E-002  +2.5186106563E-001 +5.5207535625E-002 
259290.363 +9.1216784716E-001 -1.1109535396E-001  +2.3037517443E-002 -2.2768091410E-002  +2.1360020619E-003 +4.5650918037E-003  +6.0525178909E-001 +6.4039242268E-001 
384435.544 +9.2227375507E-001 -2.6314356923E-001  +1.1191113852E-002 +7.9947127961E-004  +9.5177479088E-003 -1.1180010624E-002  -5.0807967782E-003 +1.2229353935E-001 
509580.726 +9.6340024471E-001 -1.3714751601E-001  +1.1825317051E-003 +8.2947788760E-003  -1.4391178265E-002 +9.8335957155E-003  -4.1773673892E-001 -6.1221367121E-001 
634725.907 +1.0945062637E+000 -2.0445027947E-001  +2.8295696247E-003 -9.1218668967E-004  -4.2143734754E-004 -3.1874835258E-005  +8.0001026392E-001 -2.6545113325E-001 
759871.089 +1.3209933043E+000 -7.9015582800E-002  +4.4312146201E-005 -7.9037163232E-006  +1.4613517560E-003 -2.2028610692E-004  +1.4667665958E+000 +1.4269891381E-001 
885016.270 +2.3279511929E+000 -1.5863227844E+000  -1.3394375565E-003 -4.7176360385E-004  -1.5069650253E-003 +1.3856653823E-004  +1.2964251041E+000 +4.4593989849E-001 
1010161.452 +8.6372125149E-001 -4.5425608754E-002  +9.5793639775E-004 -1.6808664441E-005  -8.9681503596E-004 -2.8157318593E-004  +1.2132536173E+000 +4.9780711532E-001 
1135306.633 +7.7616095543E-001 +9.3078419566E-002  +1.2446317123E-003 +1.6518837074E-003  -6.9836003240E-004 -8.6129311239E-004  +1.3116519451E+000 +6.3471299410E-001 
1260451.815 +1.2648432255E+000 +4.5465648174E-002  -3.4107382817E-005 +1.1753498984E-004  -4.9352739006E-004 +3.9181334432E-004  +1.0802267790E+000 +7.2901248932E-001 
1385596.996 +1.2373532057E+000 -1.3725477457E-001  -1.1092388013E-004 +1.7999079137E-004  -6.0153244704E-005 +1.1794718375E-005  +9.6753162146E-001 +4.9590972066E-001 
1510742.178 +1.3507574797E+000 -3.4123748541E-001  +5.7437556097E-004 -6.1573271523E-005  +7.5378105976E-005 -4.1217872058E-004  +6.6425168514E-001 +5.7125085592E-001 
1635887.359 +8.0273669958E-001 -3.5389319062E-001  -2.2555942996E-004 +1.3496818428E-004  -1.7547170864E-004 -2.4239980849E-004  +1.5056713820E+000 +6.4884865284E-001 
1761032.541 +7.3669582605E-001 -3.8517194986E-001  -2.6649385109E-004 +1.1875860946E-004  +1.1022122635E-004 -3.4308154136E-004  +1.0861223936E+000 +8.2005596161E-001 
1886177.722 +7.9546809196E-001 -1.2604141235E-001  -5.0521764206E-004 +9.9714961834E-006  -1.9075887394E-004 -2.7066253824E-004  +1.1328041553E+000 +5.5165547132E-001 
2011322.904 +8.2856214046E-001 -7.1861706674E-002  +1.9950201386E-004 +1.4248699881E-004  -4.2684408254E-004 -2.8744683368E-004  +1.1478898525E+000 +5.1569080353E-001 
2136468.085 +8.6200082302E-001 -7.9669445753E-002  +3.7563181832E-004 +4.6441433369E-004  +5.6527802371E-005 -8.4251776570E-005  +1.0910631418E+000 +4.6538880467E-001 
2261613.267 +8.5401397943E-001 -6.9274604321E-002  +1.8121235189E-004 -5.2108152886E-006  +2.9209841159E-006 +1.8916177214E-004  +1.0531498194E+000 +4.9995195866E-001 
2386758.448 +8.3704918623E-001 -6.3458412886E-002  +3.3600439201E-004 -2.0825631509E-004  +8.9548324468E-005 +6.1931386881E-006  +1.0760649443E+000 +5.2675867081E-001 
2511903.630 +8.5876727104E-001 -1.8691927195E-002  -1.0523873789E-004 -1.7313608259E-004  +8.9562432549E-005 +2.1561821632E-004  +1.1246044636E+000 +5.5540108681E-001 
2637048.811 +8.6752778292E-001 -2.7480632067E-002  -2.3640252766E-004 +2.3699263693E-004  +1.9332305237E-004 +1.5043091844E-004  +1.1454676390E+000 +5.8006584644E-001 
2762193.992 +8.6050134897E-001 -3.3774748445E-002  -3.4575135214E-004 +2.8291111812E-004  -4.1271513328E-004 +1.0845123325E-004  +1.1756125689E+000 +4.6699965000E-001 
2887339.174 +8.0928987265E-001 -2.9135458171E-002  -2.1043643937E-004 +3.0453089857E-004  -1.3295555254E-004 -1.0023775394E-004  +1.0238680840E+000 +4.2500591278E-001 
3012484.355 +8.1332987547E-001 +5.5377185345E-004  +9.4309623819E-005 +5.4249935783E-004  +1.0765583284E-004 +3.2168711186E-004  +9.4857126474E-001 +5.3665947914E-001 
3137629.537 +8.1449151039E-001 +3.0121229589E-002  -6.7326080170E-005 -3.1605985714E-004  -3.2937116339E-004 -2.8322101571E-004  +9.6503537893E-001 +6.4678668976E-001 
3262774.718 +8.2078093290E-001 +4.3760865927E-002  +2.5117664336E-005 -3.6292534787E-005  +4.2971856601E-005 -1.1036481010E-004  +1.0105096102E+000 +7.1270561218E-001 
3387919.900 +8.1993347406E-001 +8.4036156535E-002  +1.7276772996E-004 +4.2381547973E-004  +2.0423077513E-004 -2.0020530792E-004  +1.0459473133E+000 +7.7626293898E-001 
3513065.081 +8.2277041674E-001 +9.5433950424E-002  -2.0737589512E-004 -2.6556148077E-004  +7.2706933133E-004 -1.2019125279E-004  +1.0825526714E+000 +8.4491133690E-001 
3638210.263 +8.4352362156E-001 +1.3240711391E-001  -5.4330470448E-005 -2.3734815477E-004  +4.1075763875E-005 +3.5653688246E-004  +1.1628773212E+000 +8.8597142696E-001 
3763355.444 +8.5048437119E-001 +1.4763844013E-001  -1.5749945305E-004 -3.4691923065E-004  +2.9813748552E-004 -2.1348096197E-006  +1.2561219931E+000 +9.1122233868E-001 
3888500.626 +8.7188887596E-001 +1.5895202756E-001  -4.6189309796E-004 -3.8856538595E-005  -1.2765008432E-004 -2.4422063143E-004  +1.3386826515E+000 +9.6359252930E-001 
4013645.807 +8.3814644814E-001 +1.2012423575E-001  +2.1111060050E-004 -2.2574044124E-005  -3.8995203795E-005 +5.1886477740E-004  +1.5626012087E+000 +7.6401662827E-001 
4138790.989 +7.9206418991E-001 +7.2975814342E-002  +1.5523728507E-004 -6.2854611315E-005  +1.4545297017E-004 +2.4344403937E-004  +1.6625294685E+000 +4.7366529703E-001 
4263936.170 +7.9033863544E-001 +7.8172810376E-002  +6.0139084235E-004 -1.7887346621E-004  +1.6686451272E-004 +3.7520588376E-004  +1.7045967579E+000 +3.9091730118E-001 
4389081.352 +8.0576241016E-001 +7.7229231596E-002  +7.7571006841E-005 -5.7349745475E-005  +2.6574882213E-004 -1.8586564693E-004  +1.7385712862E+000 +2.9006609321E-001 
4514226.533 +8.1109142303E-001 +7.8768365085E-002  +1.7321080668E-004 -4.2292638682E-004  +1.4429423027E-004 -4.3307244778E-004  +1.7645415068E+000 +2.0588237047E-001 
4639371.715 +8.3245700598E-001 +8.4062010050E-002  +1.8698385975E-004 +3.0058581615E-004  +2.5355623802E-004 -3.8599449908E-004  +1.7714478970E+000 +1.4191216230E-001 
4764516.896 +8.2971560955E-001 +8.8069096208E-002  -2.7802053955E-004 +1.6422363842E-005  +4.6966633818E-005 -1.5122648620E-004  +1.7705377340E+000 +5.3614288568E-002 
4889662.078 +8.3992362022E-001 +9.2321261764E-002  +2.0771819982E-004 -3.5919522634E-004  +2.5785827893E-004 +2.9285985511E-004  +1.7834227085E+000 -1.2563765049E-003 
5014807.259 +8.3820378780E-001 +8.7140753865E-002  -1.9078834157E-004 +5.9946629335E-005  +5.9643271379E-004 -4.8982110457E-006  +1.7353883982E+000 -5.9679031372E-002 
5139952.441 +8.4925109148E-001 +8.3990052342E-002  -4.5744283125E-004 +3.7854842958E-005  +6.0715341533E-005 +8.4650455392E-005  +1.7283037901E+000 -1.4614880085E-001 
5265097.622 +8.5508310795E-001 +9.4338633120E-002  -1.1117492249E-005 +3.0638193130E-004  +6.0906688304E-005 -1.6913405489E-005  +1.6832853556E+000 -1.9245550036E-001 
5390242.804 +8.6029911041E-001 +8.9874714613E-002  +1.6560021322E-004 -8.6397869745E-004  -1.0015976295E-004 -4.3512896809E-005  +1.6471493244E+000 -2.4064877629E-001 
5515387.985 +8.7785333395E-001 +9.5193549991E-002  +2.5999110221E-005 -4.9688876607E-004  -2.1579441091E-004 -1.2977259757E-004  +1.6153937578E+000 -2.9937356710E-001 
5640533.166 +8.7992805243E-001 +8.8348269463E-002  +1.5741199604E-004 +5.7383273088E-005  -2.1946062043E-004 -1.2579717441E-004  +1.5940530300E+000 -3.3093792200E-001 
5765678.348 +8.7809443474E-001 +9.2154547572E-002  -1.6869189858E-004 +5.7250622194E-004  -5.5159721524E-004 -3.4092692658E-004  +1.5506285429E+000 -3.6702111363E-001 
5890823.529 +8.8793766499E-001 +8.8845774531E-002  +2.3533903004E-005 +2.0556460368E-004  -1.4601877774E-004 -1.9466348749E-004  +1.5008542538E+000 -4.0993601084E-001 
6015968.711 +8.8299101591E-001 +8.5999600589E-002  +1.9437551964E-004 -2.2957190595E-005  +5.2211813454E-005 -1.7050631868E-004  +1.4564495087E+000 -4.2974501848E-001 
6141113.892 +8.9109593630E-001 +8.1973895431E-002  -9.8219672509E-005 +8.7688138592E-005  -6.4837557147E-005 +1.7636279517E-004  +1.4097846746E+000 -4.3975514174E-001 
6266259.074 +8.9779907465E-001 +8.4724031389E-002  +1.7042242689E-004 +5.6926533580E-004  -4.6564821969E-004 -2.7161621256E-004  +1.3652886152E+000 -4.6053254604E-001 
6391404.255 +8.9535003901E-001 +7.3295950890E-002  +1.6529721324E-004 -5.3608638700E-004  -1.7033143376E-004 -7.9872384958E-005  +1.3130077124E+000 -4.7593405843E-001 
6516549.437 +9.0100789070E-001 +7.9785913229E-002  +2.3819202033E-004 -1.5346745204E-004  -3.7711244659E-004 +2.4319448858E-004  +1.2815601826E+000 -4.7835776210E-001 
6641694.618 +9.0484267473E-001 +8.1255048513E-002  -7.0921349106E-005 +6.4107451180E-005  -1.8435325183E-004 -1.7373959417E-004  +1.2473349571E+000 -4.7785758972E-001 
6766839.800 +9.1295492649E-001 +8.3097919822E-002  +5.5767435697E-005 -2.7012830833E-004  +4.8434558266E-005 +1.2002213043E-004  +1.2098902464E+000 -4.9027025700E-001 
6891984.981 +9.1081917286E-001 +7.9847946763E-002  +1.3251012206E-005 +1.7350219423E-004  -1.4998082770E-004 -3.6828940210E-005  +1.1581321955E+000 -4.8268496990E-001 
7017130.163 +9.1439217329E-001 +7.8546769917E-002  -1.8382217604E-005 +8.5150219093E-005  +3.7183694076E-004 +7.7821969171E-006  +1.1336752176E+000 -4.7642353177E-001 
7142275.344 +9.1493517160E-001 +8.3320274949E-002  -1.8118356820E-005 +2.9850218561E-004  +4.4062970119E-005 -4.7474797611E-005  +1.1110383272E+000 -4.7139614820E-001 
7267420.526 +9.1603666544E-001 +8.4286578000E-002  -7.2892900789E-005 +1.7998856492E-005  +1.7038955775E-005 +9.9044424132E-005  +1.0760567188E+000 -4.6639689803E-001 
7392565.707 +9.2333829403E-001 +8.1494644284E-002  -5.3899399063E-005 +3.0658082687E-004  +4.5368939027E-005 +2.1328566072E-004  +1.0517319441E+000 -4.5896100998E-001 
7517710.889 +9.2413824797E-001 +8.3832681179E-002  +2.3222521122E-004 -6.8656772783E-005  -1.2674006575E-004 +4.5866050641E-005  +1.0248652697E+000 -4.4935101271E-001 
7642856.070 +9.2000639439E-001 +8.1625543535E-002  +8.7257329142E-005 +1.7711116016E-005  -9.0426648967E-005 -1.8977996660E-004  +9.8802208900E-001 -4.4390743971E-001 
7768001.252 +9.3131041527E-001 +8.4813654423E-002  +3.2918766374E-004 -2.9711853131E-005  -8.4997715021E-005 -2.8723216019E-005  +9.6832174063E-001 -4.3278950453E-001 
7893146.433 +9.3589371443E-001 +8.6775034666E-002  -9.6257463156E-007 -8.3183898823E-005  -1.2601249909E-004 -1.7618555285E-004  +9.4540131092E-001 -4.1996878386E-001 
8018291.615 +9.3428701162E-001 +8.1519097090E-002  +1.0241778364E-004 +2.5463767088E-005  +3.6510438804E-005 +2.1629070943E-006  +9.1746371984E-001 -4.0766957402E-001 
8143436.796 +9.3419414759E-001 +8.2192689180E-002  -7.5494230259E-005 +5.2894589317E-005  +2.0754992875E-005 +1.4486777945E-004  +9.0309733152E-001 -3.9214995503E-001 
8268581.977 +9.3510943651E-001 +7.7824279666E-002  -1.5561406326E-004 +7.0436130045E-005  +8.1483674876E-005 +1.6423960915E-004  +8.8457089663E-001 -3.7700951099E-001 
8393727.159 +9.3989878893E-001 +7.7157303691E-002  +1.6429193784E-004 -7.5602038123E-006  -1.4061183902E-004 +1.1028537847E-004  +8.6840772629E-001 -3.6199569702E-001 
8518872.340 +9.4392722845E-001 +7.5544223189E-002  +7.0911613875E-005 -1.0098612984E-004  -1.4764240768E-004 +5.3604788263E-005  +8.5041403770E-001 -3.4684467316E-001 
8644017.522 +9.4162046909E-001 +7.5325310230E-002  +7.4329451309E-005 -6.2655744841E-005  -7.8678494901E-006 -2.6668280043E-005  +8.4080004692E-001 -3.3389207721E-001 
8769162.703 +9.4933336973E-001 +7.5179383159E-002  +1.0986905545E-004 +3.7760888517E-005  -5.1551029173E-005 -8.0529855040E-005  +8.2543438673E-001 -3.1872415543E-001 
8894307.885 +9.4674324989E-001 +7.0079654455E-002  -1.2498399883E-004 -4.8885347496E-005  -1.4048453886E-004 +6.7872475483E-005  +8.1115138531E-001 -3.0595794320E-001 
9019453.066 +9.4897103310E-001 +6.8057864904E-002  +8.8892666099E-005 -2.7602727641E-006  -1.0326474148E-004 +1.1923273996E-004  +7.9701673985E-001 -2.9105854034E-001 
9144598.248 +9.5127993822E-001 +6.6978245974E-002  -6.3498220698E-005 -1.7732192646E-005  +1.8239262863E-004 +2.8669164749E-006  +7.8698503971E-001 -2.7361351252E-001 
9269743.429 +9.5148855448E-001 +6.7399054766E-002  -8.3528357209E-005 +2.4781559478E-004  -4.3913569243E-005 +2.2198539227E-005  +7.7899718285E-001 -2.5897383690E-001 
9394888.611 +9.5617145300E-001 +7.0961505175E-002  +1.0459309124E-005 +8.1462640082E-005  -1.1081370758E-004 -1.9132127636E-004  +7.6534968615E-001 -2.4374778569E-001 
9520033.792 +9.5748484135E-001 +6.5132141113E-002  -4.4901193178E-005 +1.0195344657E-005  +1.0000877228E-004 +6.1624421505E-005  +7.5966066122E-001 -2.2651559114E-001 
9645178.974 +9.5940756798E-001 +6.7905336618E-002  -4.5086624596E-005 +7.9164346971E-006  +2.9986505979E-005 +3.7625217374E-005  +7.5218975544E-001 -2.0990619063E-001 
9770324.155 +9.6050894260E-001 +6.6309839487E-002  +4.9808433687E-005 +6.8214212661E-005  +7.6214229921E-005 -3.7777812395E-005  +7.4233782291E-001 -1.9550904632E-001 
9895469.337 +9.6272259951E-001 +6.5614908934E-002  +1.0434606520E-004 +1.3493194274E-005  -2.0356950699E-005 +5.2967614465E-005  +7.3770624399E-001 -1.8021821976E-001 
10020614.518 +9.6362572908E-001 +6.4628213644E-002  +1.7871588352E-004 +3.7558249460E-005  +3.0410659747E-005 -3.5672574086E-006  +7.3316425085E-001 -1.6082125902E-001 
10145759.700 +9.6518689394E-001 +6.2459945679E-002  +3.1218456570E-005 +9.5509400126E-005  -1.3507173207E-005 +2.7257667170E-005  +7.3065781593E-001 -1.4818635583E-001 
10270904.881 +9.6766275167E-001 +5.9192389250E-002  -6.9454436016E-005 +4.5072552894E-005  +1.2905475160E-006 +1.0273805674E-004  +7.2653865814E-001 -1.3184708357E-001 
10396050.063 +9.6696513891E-001 +5.8122605085E-002  +1.3598470105E-005 -1.5270174117E-005  -1.0230777661E-005 -4.7155849643E-006  +7.2323447466E-001 -1.1486780643E-001 
10521195.244 +9.7050595284E-001 +5.9726297855E-002  +8.4213541413E-005 +1.1243690824E-004  +2.2384117528E-006 -7.5485049820E-006  +7.2472822666E-001 -9.7655355930E-002 
10646340.426 +9.7098231316E-001 +5.5403470993E-002  -7.6838667155E-005 +4.3451254896E-006  -7.6901000284E-005 +5.1003833505E-005  +7.2139322758E-001 -8.4021925926E-002 
10771485.607 +9.6980273724E-001 +5.4245442152E-002  +1.7972142814E-006 +3.9892260247E-005  +5.4720487242E-005 +2.1624149667E-005  +7.2222280502E-001 -6.8627268076E-002 
10896630.788 +9.7056639194E-001 +5.4613977671E-002  +5.4833784816E-005 +5.5708966102E-005  -1.9738012270E-005 +3.0309889553E-005  +7.2245544195E-001 -5.3010404110E-002 
11021775.970 +9.7106802464E-001 +5.2717447281E-002  +1.1426811398E-004 +8.8260814664E-005  +2.9875773180E-006 +5.6228636822E-005  +7.2259086370E-001 -4.0183544159E-002 
11146921.151 +9.7166371346E-001 +4.6971261501E-002  +2.2581201847E-005 +1.2781385522E-005  +3.6459587136E-005 -4.2938736442E-005  +7.2387564182E-001 -2.6038855314E-002 
11272066.333 +9.7052371502E-001 +4.7796815634E-002  -1.8352446205E-005 +8.3438440925E-005  +5.4924246797E-005 -1.2751719623E-005  +7.2502768040E-001 -1.0626554489E-002 
11397211.514 +9.7266507149E-001 +4.5755863190E-002  -6.2460807385E-005 +4.9320260587E-007  +1.8243996237E-005 +7.3259601777E-005  +7.2742450237E-001 +3.2603442669E-003 
11522356.696 +9.7237122059E-001 +4.3491274118E-002  +4.2329775169E-005 +6.9507168519E-006  +4.8612051614E-005 -3.6155648559E-005  +7.3279905319E-001 +1.7195791006E-002 
11647501.877 +9.7171717882E-001 +4.3655693531E-002  +9.5313953352E-005 +6.6973778303E-005  -2.5619747248E-005 +7.2237351560E-005  +7.3414802551E-001 +2.9509842396E-002 
11772647.059 +9.7290384769E-001 +4.1599363089E-002  +2.8594087780E-005 +4.2283249059E-005  +7.5887601270E-006 +6.9883419201E-005  +7.3898535967E-001 +4.3020933867E-002 
11897792.240 +9.7278219461E-001 +3.9634883404E-002  -1.1356739378E-005 +3.2202988223E-006  -7.5328971434E-006 -5.3720759752E-005  +7.4505889416E-001 +5.5177122355E-002 
12022937.422 +9.7373211384E-001 +4.0328353643E-002  +5.2069524827E-005 +6.1243154050E-005  +2.0850791770E-005 -2.2176111088E-005  +7.4887716770E-001 +6.6542387009E-002 
12148082.603 +9.7434574366E-001 +3.7007123232E-002  +3.3778480429E-005 +6.9077032094E-005  +5.2026931371E-005 +7.6688556874E-005  +7.5661623478E-001 +8.0870419741E-002 
12273227.785 +9.7426688671E-001 +3.7282019854E-002  +2.3929802410E-005 +3.1037248846E-005  +7.5694908446E-005 +5.8169694967E-005  +7.6451206207E-001 +9.1416090727E-002 
12398372.966 +9.7441422939E-001 +3.6472201347E-002  +2.8817474231E-005 +1.0885280062E-005  -8.2048627519E-006 +1.6173900804E-005  +7.7198290825E-001 +1.0260806978E-001 
12523518.148 +9.7385084629E-001 +3.5505056381E-002  +3.6329336581E-005 +6.2364772020E-005  +2.7433037758E-005 +3.7021181925E-005  +7.7807664871E-001 +1.1321234703E-001 
12648663.329 +9.7285270691E-001 +3.4163028002E-002  +8.8458844402E-005 +8.6128638941E-006  -8.1706366473E-006 -4.7499024731E-006  +7.8717339039E-001 +1.2401233613E-001 
12773808.511 +9.7364842892E-001 +3.0805677176E-002  -3.6569337681E-005 -3.1647005017E-006  +6.9315494329E-005 +5.1305134548E-005  +7.9637342691E-001 +1.3359218836E-001 
12898953.692 +9.7383654118E-001 +3.0147060752E-002  -3.1460440368E-005 +3.9383015974E-005  +2.7506972401E-005 +2.8766989999E-005  +8.0530726910E-001 +1.4186784625E-001 
13024098.874 +9.7322881222E-001 +3.0012518167E-002  -1.2604248695E-005 +1.6068266632E-005  +3.6053901567E-005 +4.2930285417E-005  +8.1512391567E-001 +1.5257139504E-001 
13149244.055 +9.7328460217E-001 +2.9776342213E-002  +6.2543447712E-005 +2.7673513614E-005  +3.6508522498E-006 +4.3567277316E-005  +8.2505786419E-001 +1.5984925628E-001 
13274389.237 +9.7263133526E-001 +2.7969777584E-002  +6.2367507780E-005 +3.6854977225E-005  +2.8967791877E-005 +4.4097534555E-005  +8.3683371544E-001 +1.6886036098E-001 
13399534.418 +9.7278189659E-001 +2.7628101408E-002  +7.3155997597E-006 +4.7389312385E-005  -2.2696856831E-005 +6.2417449954E-005  +8.4656733274E-001 +1.7615467310E-001 
13524679.599 +9.7202157974E-001 +2.6360362768E-002  +1.2844850062E-005 +6.3684070483E-005  +2.8310518246E-005 -3.6858318708E-006  +8.5845208168E-001 +1.8299275637E-001 
13649824.781 +9.7143805027E-001 +2.4987161160E-002  -6.9743146014E-006 -3.7884024096E-007  +5.3029936680E-005 +3.3318439819E-005  +8.7175178528E-001 +1.8763652444E-001 
13774969.962 +9.7115349770E-001 +2.4322718382E-002  -7.9415913206E-006 +5.6298755226E-005  -9.1883357527E-006 +2.9639550121E-005  +8.8221728802E-001 +1.9260239601E-001 
13900115.144 +9.7181612253E-001 +2.3110866547E-002  +4.7154489948E-006 +4.4782711484E-005  +5.9288377088E-006 -1.8035460016E-005  +8.9360100031E-001 +1.9781336188E-001 
14025260.325 +9.7053015232E-001 +2.3085802794E-002  -1.0966186892E-007 +2.2916650778E-005  -4.7373523557E-006 -8.7630396592E-006  +9.0566927195E-001 +2.0045042038E-001 
14150405.507 +9.7000479698E-001 +2.2904127836E-002  +4.7311026719E-005 +4.6202258090E-005  +1.0529758583E-005 +8.0072350102E-005  +9.1850060225E-001 +2.0402726531E-001 
14275550.688 +9.6991443634E-001 +2.1945983171E-002  +3.1983214285E-005 +3.1752213545E-005  +2.1610443582E-005 +4.5406537538E-005  +9.3128162622E-001 +2.0513698459E-001 
14400695.870 +9.6870899200E-001 +1.9927948713E-002  +1.1284390894E-005 +2.8628983273E-005  +1.4130367163E-005 +1.4521963749E-005  +9.4332075119E-001 +2.0815438032E-001 
