!  2-Port S-parameters saved by WinCal
! VAR MeasName=S-Parameters (CALIBRATED_DATA) read from VNA (P5004A)
! VAR MeasDate=22/05/2024 20:54:12
! VAR NAME=Wafer3_r3_c3_opensignal
! VAR FILENAME=Wafer3_r3_c3_opensignal.S2P
! VAR DATE=22/05/2024 20:54:12
! VAR PHYS_PORTS=1,2
! VAR ObjTypeName=DATASET
! VAR IndexType=Frequency
!
# Hz S RI R 50
9000.000 +2.0547990501E-001 -6.0029923916E-001  -2.8754319064E-003 -1.4236242278E-003  -5.0444144290E-004 -5.7063298300E-004  +3.9288759232E-002 +1.1192417890E-001 
134145.181 +7.0842301846E-001 +7.7670216560E-003  +4.5852507465E-003 -1.2030195445E-002  +7.5904640835E-004 +3.2401783392E-004  +7.2005480528E-001 -1.6289311647E-001 
259290.363 +8.8151878119E-001 -1.2201812863E-001  +4.0207253769E-003 -2.4620902259E-003  +2.3486083373E-003 +2.7964988840E-004  +9.9511986971E-001 -1.3032017648E-001 
384435.544 +9.3353885412E-001 -2.7461659908E-001  -7.7359989518E-004 -5.1370449364E-003  +2.3670145310E-003 +1.2889016652E-003  +1.0762345791E+000 -1.9572101533E-001 
509580.726 +9.6129143238E-001 -1.5201765299E-001  -1.7757425667E-004 +6.7622016650E-004  -5.7403487153E-004 -6.3123699510E-004  +1.0438461304E+000 -9.6724003553E-002 
634725.907 +1.0968296528E+000 -2.0630422235E-001  +3.1904393836E-005 +1.3276847312E-004  +2.6134654763E-004 -1.8893042579E-004  +1.1285022497E+000 -7.7814221382E-002 
759871.089 +1.3027546406E+000 -6.3586950302E-002  -6.7228544503E-004 +5.4047210142E-005  -9.6096261404E-004 +6.7067978671E-004  +1.2004116774E+000 +2.2565156221E-002 
885016.270 +1.3226641417E+000 -1.2882654667E+000  +4.4523198158E-003 -2.3790001869E-003  +7.8198732808E-005 -8.6854450637E-004  +1.3492996693E+000 +9.5798492432E-002 
1010161.452 +1.0622906685E+000 -3.7250101566E-002  +1.1616104748E-003 +4.4558057562E-004  -3.1150130089E-003 -5.5211235303E-004  +5.7331919670E-001 -2.6347956061E-001 
1135306.633 +1.0247455835E+000 +1.9270926714E-002  +1.7579367850E-003 -1.9070950802E-003  -6.3171018846E-003 +1.1984019075E-003  +9.5685625076E-001 +2.3130536079E-002 
1260451.815 +1.3976395130E+000 -6.0325860977E-004  -1.5650882851E-003 -7.9768145224E-004  -1.2712170137E-003 +5.3257553373E-004  +1.0789488554E+000 +1.2005016208E-001 
1385596.996 +1.2908837795E+000 -1.1473783851E-001  +3.5155599471E-004 -4.0307152085E-004  -8.2889699843E-004 -2.9067572905E-004  +1.1619156599E+000 +1.0831746459E-001 
1510742.178 +1.4510394335E+000 -2.4317806959E-001  -1.9601221720E-004 +6.8924220977E-004  +2.3023467511E-003 +1.2390941847E-003  +1.4016913176E+000 +2.8312635422E-001 
1635887.359 +9.7306132317E-001 -3.2962507010E-001  -7.8234676039E-004 -6.8025779910E-004  +1.4414864127E-003 +6.8000482861E-004  +1.1100708246E+000 -2.3851951957E-001 
1761032.541 +1.0293034315E+000 -3.2686913013E-001  +3.6728240084E-003 -2.2451030090E-003  -6.1408209149E-004 -4.0686762077E-005  +1.0605683327E+000 -2.1093232930E-001 
1886177.722 +9.7140979767E-001 -1.9320103526E-001  -6.3417549245E-004 -5.0664698938E-004  -8.0577796325E-004 -1.4147945913E-003  +1.0250217915E+000 -1.2607350945E-001 
2011322.904 +9.7352284193E-001 -1.3861238956E-001  +3.8538849913E-004 +2.5011386606E-004  -2.6234705001E-004 +5.3958792705E-004  +1.0171120167E+000 -7.5992584229E-002 
2136468.085 +9.9217927456E-001 -1.0353451967E-001  -3.5119874519E-004 +1.2405231246E-004  +1.9450118998E-004 +5.0920716603E-006  +1.0161714554E+000 -5.7389020920E-002 
2261613.267 +9.7665339708E-001 -9.2337042093E-002  +3.6395603092E-004 +3.9020302938E-004  -2.3180656717E-004 +2.5439311867E-004  +1.0176568031E+000 -5.3800672293E-002 
2386758.448 +9.8066633940E-001 -7.5851440430E-002  -2.4863718863E-005 +9.9245000456E-005  +7.2177877882E-004 +2.9296739376E-004  +1.0107587576E+000 -2.3430734873E-002 
2511903.630 +9.7821003199E-001 -4.1919857264E-002  -3.8405807572E-004 +2.5327585172E-004  +1.0666016169E-004 +3.3078464912E-004  +1.0053789616E+000 -4.2265653610E-003 
2637048.811 +9.8528039455E-001 -4.5663684607E-002  +4.1160327964E-004 -8.5358558863E-005  +4.4216448441E-003 -5.0236517563E-003  +9.8864674568E-001 +1.9807279110E-002 
2762193.992 +9.9118757248E-001 -1.9365716726E-002  -1.3341235899E-005 +3.2281214953E-004  -7.4394905823E-005 -3.7101519410E-004  +9.9999451637E-001 +3.7323445082E-002 
2887339.174 +9.7243505716E-001 -2.1764390171E-002  +4.7122940305E-004 -3.8922196836E-004  +8.7019987404E-005 -5.0298293354E-004  +1.0181281567E+000 +5.2623711526E-002 
3012484.355 +9.6359527111E-001 -5.0538145006E-003  -8.1833350123E-005 -4.5435840730E-004  +6.4015790122E-004 +3.6005512811E-004  +1.0063668489E+000 +6.9622419775E-002 
3137629.537 +9.7314333916E-001 +2.4059455842E-002  +2.4838495301E-004 -3.0518864514E-004  +2.8516005841E-004 +5.2452791715E-004  +1.0167052746E+000 +8.3717882633E-002 
3262774.718 +9.7613549232E-001 +4.3824076653E-002  -9.5156356110E-005 -7.2110071778E-004  +2.0062876865E-004 +1.6448690076E-005  +1.0148876905E+000 +1.0391411930E-001 
3387919.900 +9.7086054087E-001 +7.2107188404E-002  -6.3923158450E-004 -3.3445219742E-004  +1.8219229241E-004 +2.1329412994E-004  +1.0155346394E+000 +1.2440279871E-001 
3513065.081 +9.7234004736E-001 +1.0697494447E-001  -4.8973725643E-004 -5.5390165653E-004  +2.8863604530E-004 +4.8670946853E-004  +1.0328612328E+000 +1.5275400877E-001 
3638210.263 +9.8794823885E-001 +1.3605315983E-001  +2.7793945628E-004 -2.3403884552E-004  -3.7447959767E-004 -2.3994495859E-004  +1.0393508673E+000 +1.5935973823E-001 
3763355.444 +1.0020365715E+000 +1.4776946604E-001  +6.8509325502E-006 -2.7021954884E-004  +1.2818336836E-004 +3.7257172517E-004  +1.0659389496E+000 +1.5502001345E-001 
3888500.626 +1.0286015272E+000 +1.6823458672E-001  -9.0858498879E-005 -1.8303608522E-004  +1.0872915300E-004 +9.4621267635E-005  +1.0783203840E+000 +1.8538878858E-001 
4013645.807 +9.8869490623E-001 +8.3608418703E-002  -2.2098913905E-004 -2.7348689036E-004  -5.1100325072E-004 -3.8752979890E-005  +1.0411219597E+000 +7.8365541995E-002 
4138790.989 +9.3181234598E-001 +5.1285885274E-003  +1.9164901460E-004 -2.8550511342E-004  +3.4341996070E-004 +2.4262411171E-004  +9.7220647335E-001 +1.1582043022E-002 
4263936.170 +9.2741429806E-001 +1.3427166268E-002  +1.2345418509E-004 -1.3791219681E-004  +5.4172088858E-004 -3.0363842961E-004  +9.7508692741E-001 -7.4974074960E-003 
4389081.352 +9.3938010931E-001 +7.4810348451E-003  -2.4172817939E-004 +5.3671479691E-004  +3.2284413464E-004 +1.3876231969E-004  +9.7442656755E-001 -8.2565043122E-003 
4514226.533 +9.5232468843E-001 +4.7851828858E-003  -1.0792135436E-004 -7.5045175618E-004  -6.4478244167E-004 -8.1510261225E-005  +9.8197495937E-001 -1.5371274203E-002 
4639371.715 +9.6732306480E-001 +5.9600118548E-003  +1.3366993517E-004 -2.9519991949E-004  -2.9689422809E-004 +2.1811366605E-004  +9.8562616110E-001 -5.0363782793E-003 
4764516.896 +9.5348435640E-001 +4.6401945874E-003  +1.2808541942E-004 +2.8365806793E-004  +3.1310127815E-004 +2.6088810409E-004  +9.8994034529E-001 -1.1543023400E-002 
4889662.078 +9.6645236015E-001 +1.1628909037E-002  -5.3162302356E-004 -3.5174033837E-004  -8.0337493273E-005 +7.6088297646E-004  +9.8819380999E-001 -3.5442207009E-003 
5014807.259 +9.6641302109E-001 +1.7747022212E-003  +2.2735618404E-004 -1.5549872478E-004  +1.8049175560E-004 +9.4530740171E-005  +9.8380357027E-001 -9.4229765236E-003 
5139952.441 +9.7437500954E-001 +8.8886581361E-003  +4.5743526425E-004 -8.6236308562E-005  -6.5041795096E-006 -3.2939316588E-004  +9.8559004068E-001 -1.6664482653E-002 
5265097.622 +9.8076450825E-001 +9.2752128839E-003  -4.2775805923E-005 -7.5586656749E-005  -1.4062714763E-004 +3.3323469688E-004  +9.8346632719E-001 -1.2330926955E-002 
5390242.804 +9.8193883896E-001 +4.1239187121E-003  +1.3056781609E-004 -3.1098854379E-005  +1.1268468370E-004 +2.3953677737E-004  +9.8167556524E-001 -1.0020159185E-002 
5515387.985 +9.9230843782E-001 -3.9042532444E-003  -4.9581605708E-005 +4.7121653915E-004  -1.0792540706E-004 +2.9120459658E-005  +9.8664838076E-001 -1.6005001962E-002 
5640533.166 +9.9331742525E-001 -2.6603564620E-003  +2.6218403946E-005 -1.6893923748E-004  +9.1406058345E-005 -7.8773246059E-007  +9.8459351063E-001 -2.1146319807E-002 
5765678.348 +9.8860704899E-001 -1.1287331581E-003  +3.5590279731E-004 +6.3234427944E-004  +8.8158536528E-005 -2.2557715056E-006  +9.8657768965E-001 -1.9443996251E-002 
5890823.529 +9.9248301983E-001 -5.4268240929E-003  +5.2196184697E-005 +1.7488878802E-004  -4.2039089021E-004 +2.2323163284E-004  +9.8336386681E-001 -2.2061645985E-002 
6015968.711 +9.9444216490E-001 -1.5391826630E-002  -3.7128276745E-005 -2.8621501406E-004  +8.2433594798E-005 -8.3925871877E-005  +9.8704308271E-001 -1.6214825213E-002 
6141113.892 +9.9027961493E-001 -9.2452988029E-003  +9.3906623079E-005 +1.6907769896E-004  +2.4420226691E-004 -1.9186195277E-004  +9.8456424475E-001 -1.8292553723E-002 
6266259.074 +9.8884701729E-001 -1.3130813837E-002  -2.0662456518E-004 +1.5792569320E-004  -8.7351611000E-005 +2.4914380629E-004  +9.8723602295E-001 -1.6156427562E-002 
6391404.255 +9.8938566446E-001 -1.5791140497E-002  -1.0220189870E-004 +2.6473807520E-004  +3.7447920477E-005 +1.6754712851E-004  +9.8122876883E-001 -1.7946906388E-002 
6516549.437 +9.9046754837E-001 -7.1041956544E-003  +1.3079193013E-004 -7.7644028352E-005  -3.5327463411E-004 +7.3141054600E-005  +9.8096626997E-001 -1.6912043095E-002 
6641694.618 +9.9823701382E-001 -8.4002017975E-003  +6.3422259700E-005 +2.0195620891E-004  +1.9554248138E-004 +6.8845358328E-005  +9.8414885998E-001 -1.3486266136E-002 
6766839.800 +1.0016903877E+000 -7.5020045042E-003  +2.1569276578E-004 +1.8178732716E-004  -1.9544101087E-004 -1.0813117115E-004  +9.8147130013E-001 -1.8180236220E-002 
6891984.981 +9.9633640051E-001 -1.0974243283E-002  -1.5970753157E-004 +1.8895269022E-004  +4.5246980153E-004 -3.6500947317E-005  +9.7561967373E-001 -2.1108910441E-002 
7017130.163 +9.9151992798E-001 -7.4949264526E-003  +1.1585132597E-005 +1.7196650151E-004  +2.7082950692E-004 +2.3275808417E-005  +9.8010051250E-001 -1.3602524996E-002 
7142275.344 +9.9102878571E-001 -4.1556656361E-003  +3.8942802348E-005 -3.5843586375E-005  +1.4385117538E-005 +1.1392128727E-005  +9.7910767794E-001 -1.1503845453E-002 
7267420.526 +9.9079179764E-001 -2.9092878103E-003  -4.2722436774E-005 +1.1376188195E-004  +7.0763002441E-005 -4.9932561524E-005  +9.7877985239E-001 -8.4789097309E-003 
7392565.707 +9.9735242128E-001 +9.4945728779E-004  +8.9230474259E-005 +2.2288346372E-005  +1.4468625523E-005 -7.2431343142E-005  +9.8075222969E-001 -1.4815881848E-002 
7517710.889 +9.9814528227E-001 -4.1935145855E-003  -1.0282024596E-004 +4.7135821660E-005  -1.3550769654E-004 +3.5678160202E-005  +9.8019772768E-001 -1.2811437249E-002 
7642856.070 +9.8899066448E-001 -4.6356767416E-003  +1.0628034215E-004 +6.9479647209E-005  +6.0357087932E-005 +2.1883206500E-004  +9.7654312849E-001 -1.7822936177E-002 
7768001.252 +9.9460381269E-001 -1.6368031502E-003  -2.6608334156E-004 -5.3072915762E-005  -7.5728908996E-005 +4.3502594053E-005  +9.7578096390E-001 -1.3513341546E-002 
7893146.433 +9.9616819620E-001 -2.6256889105E-003  -1.9178569346E-006 -1.1019510566E-004  +3.7393867387E-005 +1.1749705300E-004  +9.7407460213E-001 -1.0355383158E-002 
8018291.615 +9.8970484734E-001 -5.1458328962E-003  +3.4279836109E-004 -3.5592755012E-005  +2.2633175831E-004 -3.6840192479E-005  +9.7358781099E-001 -1.1764377356E-002 
8143436.796 +9.8665952682E-001 -5.7259202003E-003  +9.6738833236E-005 +8.2913968072E-005  -6.9771158451E-005 -2.1321520035E-004  +9.7424799204E-001 -8.0075860023E-003 
8268581.977 +9.8735171556E-001 -4.9807727337E-003  -4.9276051868E-005 +1.3083369413E-004  +1.2875706307E-004 -4.2266692617E-005  +9.7411942482E-001 -2.9667615891E-003 
8393727.159 +9.8814100027E-001 -7.4672996998E-003  +1.7418057541E-004 +1.5014801465E-004  +1.7774308799E-004 -1.1575935787E-004  +9.7574430704E-001 -4.4526755810E-003 
8518872.340 +9.8915928602E-001 -8.9012682438E-003  +2.1664064843E-004 -1.4046631986E-004  -1.2607591634E-004 -1.1489164899E-004  +9.7604131699E-001 -3.5141110420E-003 
8644017.522 +9.8524498940E-001 -6.6861212254E-003  -8.8474203949E-005 +2.1734975235E-005  -3.8131250767E-004 +7.2392162110E-005  +9.8056042194E-001 -3.1494796276E-003 
8769162.703 +9.9393415451E-001 -8.1124007702E-003  +6.0944174038E-005 +1.1811047443E-004  -8.7889158749E-005 +4.1271890950E-005  +9.8151457310E-001 -2.6119351387E-003 
8894307.885 +9.8711967468E-001 -8.7608695030E-003  +2.5417068173E-005 -1.1789215205E-004  -7.1170099545E-005 -1.2792200141E-004  +9.7702825069E-001 -4.3485164642E-003 
9019453.066 +9.8823565245E-001 -9.4737410545E-003  -3.8252655941E-006 -1.5017500846E-004  +9.2457514256E-005 -6.7769957241E-005  +9.7730380297E-001 -2.0978152752E-003 
9144598.248 +9.8807156086E-001 -1.0816961527E-002  -5.9508380218E-005 -1.5872030053E-004  +3.7666486605E-006 +4.3286338041E-005  +9.7745108604E-001 -1.6415715218E-003 
9269743.429 +9.8662453890E-001 -6.9805979729E-003  +1.1303123028E-004 -8.0292462371E-005  -4.0782455471E-005 +1.0630780889E-004  +9.8045939207E-001 +1.5307366848E-003 
9394888.611 +9.8807573318E-001 -3.5918056965E-003  +7.0465976023E-005 -1.0953262972E-004  +1.0823966295E-004 +1.2630224228E-004  +9.7792547941E-001 -2.2522211075E-003 
9520033.792 +9.9009495974E-001 -7.4568986893E-003  -5.2683513786E-005 +1.4005906996E-004  +8.9412715170E-005 -6.6455460910E-005  +9.7735893726E-001 +1.3345777988E-003 
9645178.974 +9.9113625288E-001 -1.1401474476E-003  -3.4738921386E-005 -1.2429291382E-004  -7.4240699178E-005 -1.4302130148E-004  +9.7730237246E-001 -1.1738240719E-003 
9770324.155 +9.8914402723E-001 +5.5432319641E-005  -4.4400461775E-005 +5.4636977438E-005  -2.7920503271E-005 -7.3725336733E-006  +9.7517138720E-001 +2.3424029350E-003 
9895469.337 +9.9099564552E-001 +1.2688040733E-003  -7.3800096288E-005 -2.8278369427E-005  -1.6660975234E-005 -9.7235897556E-005  +9.7541958094E-001 +1.2893676758E-003 
10020614.518 +9.9051380157E-001 -6.8792700768E-004  -9.5602954389E-006 -1.0888670658E-005  +3.8165184378E-005 +1.1155736865E-004  +9.7688668966E-001 +5.8312416077E-003 
10145759.700 +9.8929095268E-001 -5.3498148918E-004  +4.0281520342E-005 +6.7598652095E-005  -6.3047795265E-005 -8.7811313279E-006  +9.7859978676E-001 +2.2040903568E-003 
10270904.881 +9.9099457264E-001 -3.8033425808E-003  -1.1434774206E-004 +2.7917747502E-005  +3.7601694203E-005 +1.1624237231E-005  +9.7864580154E-001 +1.5940368176E-003 
10396050.063 +9.8893684149E-001 -1.8105804920E-003  -4.3042746256E-005 +1.0143603868E-004  -8.0852056271E-005 +8.0305399024E-005  +9.7819900513E-001 +2.2207498550E-003 
10521195.244 +9.9076503515E-001 -1.2170076370E-003  -3.4647298889E-005 -2.0142562789E-005  +8.0707955931E-005 +8.5755935288E-005  +9.7903251648E-001 +4.2004883289E-003 
10646340.426 +9.9031627178E-001 -1.7232298851E-003  -1.1979647388E-004 +1.8704700778E-005  -9.4018323580E-006 +1.3455233420E-004  +9.8003172874E-001 +6.8480372429E-003 
10771485.607 +9.9034047127E-001 -5.2425265312E-004  +1.9209677703E-005 +5.2553717978E-005  -4.7121713578E-005 +9.5763658464E-005  +9.8056185246E-001 +5.6568086147E-003 
10896630.788 +9.9012196064E-001 +1.7893910408E-003  -3.5018605558E-005 +7.8240118455E-006  -1.7686037609E-005 -2.4152643164E-005  +9.8070383072E-001 +6.1874091625E-003 
11021775.970 +9.9084341526E-001 +1.9600689411E-003  -7.2507042205E-005 +2.1043884772E-005  -5.4622505559E-005 +1.2399745174E-005  +9.8194962740E-001 +7.3394179344E-003 
11146921.151 +9.9051809311E-001 -1.9371509552E-003  -3.3477721445E-005 -2.1362375264E-005  +2.4633452995E-005 +1.6340058210E-005  +9.8252290487E-001 +8.2479715347E-003 
11272066.333 +9.8896259069E-001 -8.8688731194E-004  -2.9203190934E-005 +3.4051750845E-005  -4.3483243644E-005 +3.7250531022E-005  +9.8088705540E-001 +6.9350302219E-003 
11397211.514 +9.9182176590E-001 +1.4466941357E-003  -1.9010802134E-005 +7.7426448115E-005  +5.7445745369E-006 +2.2120530048E-005  +9.8116683960E-001 +7.3828995228E-003 
11522356.696 +9.9278473854E-001 +2.2366940975E-003  +1.4794124581E-005 -3.4195269109E-005  +1.8324977646E-005 +1.6123545720E-005  +9.8330289125E-001 +7.8883469105E-003 
11647501.877 +9.9125897884E-001 +2.6839971542E-003  +4.7991889005E-005 +3.4458364098E-005  -1.1294610886E-005 -5.7328805269E-005  +9.8227238655E-001 +8.8744163513E-003 
11772647.059 +9.9235308170E-001 +2.3329854012E-003  -2.2948443075E-005 -1.3663576283E-005  -1.8389910110E-006 +5.3265768656E-005  +9.8222029209E-001 +8.0868005753E-003 
11897792.240 +9.9096357822E-001 +2.0905435085E-003  -1.7311180272E-005 +2.4912424124E-005  -6.9913745392E-005 +2.8760405257E-005  +9.8384499550E-001 +9.0865790844E-003 
12022937.422 +9.9313706160E-001 +3.0403435230E-003  -6.7022068833E-005 +3.4034110286E-006  -1.9485249140E-005 +1.7650665541E-005  +9.8265278339E-001 +8.8685154915E-003 
12148082.603 +9.9387198687E-001 +2.1978020668E-003  -3.7950376282E-005 +1.1503603673E-005  +2.7793947083E-005 -3.4420707379E-005  +9.8492789268E-001 +8.7392926216E-003 
12273227.785 +9.9334067106E-001 +3.7102103233E-003  -2.4114393455E-005 -1.9813896870E-005  -5.4690619436E-005 -1.2440146747E-005  +9.8414802551E-001 +8.3916783333E-003 
12398372.966 +9.9428880215E-001 +2.8861761093E-003  -2.6626636100E-005 -7.2356124292E-005  +9.2145692179E-006 -2.3658671125E-005  +9.8439681530E-001 +9.1966092587E-003 
12523518.148 +9.9260550737E-001 +3.1239092350E-003  +4.3412997002E-006 +3.4021293686E-005  +2.4631572160E-005 -3.6136705603E-005  +9.8421835899E-001 +8.4678828716E-003 
12648663.329 +9.9306464195E-001 +4.6335458755E-003  -3.0944720493E-005 -9.7404517874E-007  +3.1259183743E-005 +1.2223928024E-005  +9.8455250263E-001 +9.2204511166E-003 
12773808.511 +9.9370998144E-001 +2.8046965599E-003  +2.5960231142E-005 +1.3857379599E-007  -1.2447392692E-005 -1.1679640011E-005  +9.8555362225E-001 +8.6185485125E-003 
12898953.692 +9.9387186766E-001 +1.6495734453E-003  +3.2955311326E-005 +6.8569233918E-006  -1.6155827325E-005 -7.0350879469E-006  +9.8532962799E-001 +7.3726475239E-003 
13024098.874 +9.9323934317E-001 +3.7068650126E-003  +7.9669798652E-006 +1.5799765606E-005  +8.2346978161E-006 +3.1302639400E-005  +9.8520946503E-001 +8.7094977498E-003 
13149244.055 +9.9416911602E-001 +3.8114581257E-003  +2.2669219106E-005 -8.6576756075E-006  -6.8311819632E-005 -5.8571571572E-005  +9.8642563820E-001 +9.3100462109E-003 
13274389.237 +9.9395000935E-001 +3.5375598818E-003  +3.8049072373E-006 -1.0262446267E-005  -5.0631624617E-006 +5.4019194067E-005  +9.8808425665E-001 +8.4220245481E-003 
13399534.418 +9.9430543184E-001 +4.5529529452E-003  -9.6187368399E-006 +4.0763989091E-005  -3.0942544981E-005 +4.8783235798E-006  +9.8616796732E-001 +9.3344748020E-003 
13524679.599 +9.9432754517E-001 +5.7025849819E-003  -2.0575365852E-005 +4.7133403314E-006  +3.5828466025E-006 +2.8601143640E-005  +9.8771852255E-001 +8.9087933302E-003 
13649824.781 +9.9584084749E-001 +4.0342211723E-003  -2.4558139557E-005 +2.8965676393E-005  -8.8895077965E-008 +1.2718862763E-006  +9.8798793554E-001 +8.6739659309E-003 
13774969.962 +9.9413347244E-001 +3.8135498762E-003  +2.4126467906E-005 +9.1550928119E-006  -4.5948213483E-006 +4.9151196436E-005  +9.8722869158E-001 +7.8176110983E-003 
13900115.144 +9.9455308914E-001 +4.9163103104E-003  -5.9038276959E-005 +4.4670003263E-005  -1.9861343389E-005 +1.5689474822E-005  +9.8657572269E-001 +8.8046789169E-003 
14025260.325 +9.9352538586E-001 +4.0563642979E-003  -8.5612527982E-006 +2.7409085305E-005  -5.8609512052E-006 -1.3098710951E-005  +9.8793101311E-001 +9.2392861843E-003 
14150405.507 +9.9526453018E-001 +5.3935050964E-003  +2.2597410862E-005 +1.6463340216E-005  +5.3371677495E-006 -1.0986645975E-005  +9.8772192001E-001 +9.7317397594E-003 
14275550.688 +9.9427121878E-001 +4.4824182987E-003  +4.7625599109E-006 +8.5596211647E-006  +3.5590910556E-006 -1.1249481759E-005  +9.8861134052E-001 +8.6851716042E-003 
14400695.870 +9.9360227585E-001 +4.3039023876E-003  +3.4007885006E-006 -1.5131726286E-005  +3.4851680539E-005 +2.0359146220E-005  +9.8756980896E-001 +9.6872746944E-003 
