!  2-Port S-parameters saved by WinCal
! VAR MeasName=S-Parameters (CALIBRATED_DATA) read from VNA (P5004A)
! VAR MeasDate=22/05/2024 21:40:26
! VAR NAME=Wafer3_r3_c6_pristine_pos27dc
! VAR FILENAME=Wafer3_r3_c6_pristine_pos27dc.S2P
! VAR DATE=22/05/2024 21:40:26
! VAR PHYS_PORTS=1,2
! VAR ObjTypeName=DATASET
! VAR IndexType=Frequency
!
# Hz S RI R 50
9000.000 +2.1008090675E-001 -6.0404503345E-001  +5.0009889528E-003 -1.8611468840E-003  +1.2802702840E-003 -2.7003041469E-003  +5.3723290563E-002 +1.0404317081E-001 
134145.181 +6.3323676586E-001 -2.4785697460E-003  -1.7220131122E-004 -5.1309806295E-003  -4.8084091395E-003 -9.4834109768E-003  +2.2295074165E-001 -2.6785531640E-001 
259290.363 +8.4069263935E-001 -1.1800979078E-001  -8.5495170206E-003 +3.4990047570E-003  -1.3566151028E-003 -6.4574144781E-003  +6.0352975130E-001 -3.2644456625E-001 
384435.544 +8.7186825275E-001 -2.9190328717E-001  +1.0546101257E-003 -5.6214531651E-004  -7.8116678633E-003 -4.7692679800E-003  +2.7692967653E-001 -8.2303360105E-003 
509580.726 +9.4976806641E-001 -1.5208414197E-001  +4.2787198909E-003 +2.4614098947E-004  +7.0844683796E-003 -6.9071538746E-005  +1.8874795735E-001 -2.7188420296E-001 
634725.907 +1.0919352770E+000 -2.1655765176E-001  +9.5606563264E-005 +6.9747690577E-004  -1.4031991595E-003 -6.9098023232E-005  +8.7136906385E-001 -2.2922660410E-001 
759871.089 +1.3272792101E+000 -6.0658752918E-002  -6.1864248710E-004 -9.7424257547E-004  +3.4578068880E-004 -1.1629366782E-003  +1.4919764996E+000 +1.2534710765E-001 
885016.270 +1.8590965271E+000 -1.2030296326E+000  +4.6142275096E-004 +1.0662558489E-003  -2.6333648711E-003 -1.6524657258E-004  +1.3044340611E+000 +4.4665923715E-001 
1010161.452 +9.8642992973E-001 -1.5771196783E-001  -3.0845659785E-004 +8.4335019346E-004  +1.2405159650E-003 -2.8364366153E-004  +1.2151618004E+000 +5.0952237844E-001 
1135306.633 +9.2821979523E-001 -1.0901328176E-001  -5.3298840066E-004 +4.1193453944E-004  +3.3705582609E-004 +1.2148838869E-004  +1.3158613443E+000 +6.5709298849E-001 
1260451.815 +1.3238217831E+000 -5.5955171585E-002  +1.1117049871E-004 -2.7740630321E-004  +7.4406387284E-004 -1.2799506658E-004  +1.0714725256E+000 +7.4189549685E-001 
1385596.996 +1.2739472389E+000 -1.7135053873E-001  -2.6333381538E-004 +3.2870701398E-004  +5.4335733876E-004 -2.1762643883E-004  +9.6336364746E-001 +5.0320571661E-001 
1510742.178 +1.4506363869E+000 -3.8077756763E-001  -3.2962881960E-005 +1.0867217497E-004  -2.2829741647E-004 -1.9024145149E-004  +6.5764850378E-001 +5.7287973166E-001 
1635887.359 +9.0011978149E-001 -4.8839327693E-001  +1.2804921425E-004 -2.8889699024E-006  +9.1034293291E-005 -2.7688005503E-005  +1.5008295774E+000 +6.5699279308E-001 
1761032.541 +8.7325346470E-001 -6.3199216127E-001  +7.0963229518E-004 -1.4713761630E-004  -2.0466372371E-004 +2.1437044779E-005  +1.0799497366E+000 +8.1575876474E-001 
1886177.722 +7.4641406536E-001 -3.2968765497E-001  -5.1776692999E-005 -1.7273082631E-004  +3.6345393164E-004 -2.0567043975E-004  +1.1301066875E+000 +5.4948437214E-001 
2011322.904 +7.8273618221E-001 -1.8605205417E-001  -3.3530764631E-004 -8.9013738034E-005  +9.9680226413E-005 +3.0304022948E-004  +1.1458432674E+000 +5.1352560520E-001 
2136468.085 +8.3251440525E-001 -1.6444513202E-001  +1.5817087842E-005 +2.2719633125E-004  +4.7556131904E-005 +1.7576447863E-004  +1.0902858973E+000 +4.6074804664E-001 
2261613.267 +8.3228421211E-001 -1.4765834808E-001  +4.8217305448E-005 +1.9755230460E-004  -1.5884339518E-004 +1.3966107508E-004  +1.0531704426E+000 +4.9467214942E-001 
2386758.448 +8.2787138224E-001 -1.2687721848E-001  -1.4621924493E-005 +2.9033879400E-004  -2.4293662864E-004 -4.5206506911E-005  +1.0772192478E+000 +5.1992881298E-001 
2511903.630 +8.1923216581E-001 -9.5475256443E-002  -3.5871620639E-005 -9.7215473943E-005  -1.4757725876E-004 -3.8491714804E-005  +1.1261830330E+000 +5.4938745499E-001 
2637048.811 +8.5142773390E-001 -8.6484506726E-002  -1.9892364799E-004 +5.2975682775E-004  +7.7401098679E-005 +8.6130261479E-005  +1.1557060480E+000 +5.6957811117E-001 
2762193.992 +8.5659712553E-001 -9.5990210772E-002  -4.3844807806E-005 -2.0984912408E-004  -2.0309122920E-004 -2.3022858659E-004  +1.1924307346E+000 +4.4963777065E-001 
2887339.174 +8.0216139555E-001 -7.9982578754E-002  -2.7412205236E-004 +4.3871699745E-005  +1.7849588767E-004 +3.3298836206E-004  +1.0329372883E+000 +3.9844444394E-001 
3012484.355 +7.9119908810E-001 -5.3062450141E-002  +2.1358103550E-004 +6.0132897488E-005  +1.8618370814E-004 +1.6380670422E-004  +9.5121812820E-001 +5.0315600634E-001 
3137629.537 +7.8951925039E-001 -2.3675188422E-003  -1.0659371037E-004 +6.4981088508E-004  -8.2919352280E-005 -1.1176690168E-004  +9.6633529663E-001 +6.1742979288E-001 
3262774.718 +7.8506845236E-001 +2.4584814906E-002  +3.0232044082E-005 -4.5900081750E-004  +1.7500756076E-004 +8.0155386968E-006  +1.0090526342E+000 +6.8174588680E-001 
3387919.900 +7.8687101603E-001 +5.7883009315E-002  -9.6342089819E-005 +5.4142536828E-004  +1.1218162399E-007 +4.1352031985E-005  +1.0503100157E+000 +7.4404156208E-001 
3513065.081 +7.9546999931E-001 +7.3820650578E-002  +7.0501744631E-005 +4.5923353173E-004  +5.1911891205E-004 +4.3502170593E-004  +1.0887235403E+000 +8.1632488966E-001 
3638210.263 +8.1454849243E-001 +1.0366539657E-001  -2.5819634902E-004 -2.4581822800E-004  +3.1875912100E-004 -8.2216909504E-005  +1.1691976786E+000 +8.5001546144E-001 
3763355.444 +8.2648903131E-001 +1.2562608719E-001  -3.9313556044E-005 -2.5557894332E-005  +2.0840877551E-004 -1.6127956042E-004  +1.2664085627E+000 +8.6747467518E-001 
3888500.626 +8.4086889029E-001 +1.4859724045E-001  -6.7597022280E-005 +1.1453947809E-004  +4.4343618356E-005 -8.1314392446E-005  +1.3415609598E+000 +9.2628443241E-001 
4013645.807 +7.9844409227E-001 +1.0431598127E-001  -7.4799660069E-005 +2.3043548572E-004  -7.4436669820E-005 -4.7670624917E-004  +1.5492715836E+000 +7.2284305096E-001 
4138790.989 +7.6378214359E-001 +6.7115575075E-002  -7.3023853474E-005 -8.3676190116E-004  +1.4055465726E-005 -3.0547362985E-004  +1.6278524399E+000 +4.4813770056E-001 
4263936.170 +7.6059579849E-001 +7.5909323990E-002  -1.4018186448E-005 -1.6440491891E-005  +6.8049767287E-004 -5.6083968957E-005  +1.6672928333E+000 +3.6836320162E-001 
4389081.352 +7.8082722425E-001 +8.2314342260E-002  -1.7368429690E-004 -5.2626150136E-005  +6.9983629510E-004 +3.1177519122E-004  +1.6999505758E+000 +2.6810088754E-001 
4514226.533 +7.9825991392E-001 +8.7128609419E-002  -4.4203200378E-004 -3.6824872950E-004  +5.0001800992E-004 +2.6928755688E-004  +1.7171448469E+000 +1.8855279684E-001 
4639371.715 +8.0832391977E-001 +8.4263175726E-002  -2.7500669239E-004 +6.1793468194E-004  +8.4853716544E-005 -1.0195111827E-004  +1.7258716822E+000 +1.3335295022E-001 
4764516.896 +8.0908185244E-001 +9.0965852141E-002  +1.5704954421E-005 +3.1730876071E-004  +1.2507496285E-004 +8.5942345322E-005  +1.7283858061E+000 +5.8952718973E-002 
4889662.078 +8.1979274750E-001 +9.2464447021E-002  -1.7856499471E-004 +1.8818986428E-004  -3.8703536120E-005 -2.5314965751E-004  +1.7394940853E+000 -8.3564519882E-003 
5014807.259 +8.2718253136E-001 +9.1608375311E-002  +3.0518672429E-004 +3.9485614980E-004  +1.6860762844E-004 +5.0660682609E-004  +1.6950886250E+000 -5.1730498672E-002 
5139952.441 +8.3953428268E-001 +8.7852388620E-002  +4.2742083315E-004 -4.5716189197E-004  +4.3980867486E-004 -6.4915031544E-005  +1.6892161369E+000 -1.2398882210E-001 
5265097.622 +8.5000908375E-001 +8.9586988091E-002  +2.3672502721E-004 -4.7544937843E-005  -7.8279754234E-006 -1.8820687546E-004  +1.6524640322E+000 -1.7751336098E-001 
5390242.804 +8.5604596138E-001 +9.8830953240E-002  +4.9540947657E-004 +1.8036807887E-004  +6.9558445830E-006 -2.0274866256E-004  +1.6126074791E+000 -2.1931904554E-001 
5515387.985 +8.6649280787E-001 +9.9984474480E-002  +1.5233873273E-004 -7.1076245513E-004  -1.1011548486E-004 +3.8687219785E-005  +1.5860761404E+000 -2.7823460102E-001 
5640533.166 +8.7125939131E-001 +1.0147777945E-001  -3.3459736733E-004 -2.2938419716E-004  -2.2544353851E-004 +2.4511912488E-004  +1.5658811331E+000 -3.1671833992E-001 
5765678.348 +8.7228322029E-001 +1.0047964752E-001  -3.0539897853E-004 +1.0617138469E-004  +2.5802047458E-004 +5.5675324984E-004  +1.5221918821E+000 -3.4649997950E-001 
5890823.529 +8.7782377005E-001 +9.2080123723E-002  +8.2568360085E-005 +5.4838492360E-005  +2.2668650490E-004 +3.7164162495E-004  +1.4686435461E+000 -3.7735992670E-001 
6015968.711 +8.8556122780E-001 +9.1651253402E-002  -2.0674047119E-004 -1.4881044626E-004  +6.0036585637E-005 -1.1213662219E-004  +1.4413866997E+000 -4.0799498558E-001 
6141113.892 +8.9587295055E-001 +9.5710441470E-002  -1.0917407053E-004 +1.5180525952E-004  -2.5016281143E-005 -3.7315170630E-004  +1.3863136768E+000 -4.1623157263E-001 
6266259.074 +8.9156651497E-001 +9.5199540257E-002  +4.8814472393E-004 -4.9442707677E-005  -2.1691925940E-004 -8.8985034381E-005  +1.3540763855E+000 -4.2780736089E-001 
6391404.255 +8.9672976732E-001 +8.8031083345E-002  -1.4840919903E-005 -1.0675387603E-004  +8.1860096543E-005 -3.4606226109E-005  +1.3057178259E+000 -4.5173674822E-001 
6516549.437 +8.9943289757E-001 +8.6337633431E-002  +1.2279074872E-004 +2.9539503157E-004  +1.6837966541E-006 -1.4465075219E-004  +1.2729115486E+000 -4.5329475403E-001 
6641694.618 +9.0944629908E-001 +9.2602908611E-002  +5.3524743998E-004 -2.9632414225E-005  -6.0545149609E-005 +3.0446648452E-005  +1.2386065722E+000 -4.5951485634E-001 
6766839.800 +9.1917884350E-001 +9.1869115829E-002  -1.3573854812E-004 -1.0828277482E-005  -2.8008021764E-004 -1.5037467165E-005  +1.2004557848E+000 -4.6441596746E-001 
6891984.981 +9.1896831989E-001 +8.9051723480E-002  -4.1744460759E-006 -1.6391499958E-004  -2.4115045380E-004 +1.1356364121E-004  +1.1586135626E+000 -4.6135669947E-001 
7017130.163 +9.1059726477E-001 +8.9925482869E-002  -2.0440254593E-004 -2.8823778848E-006  -2.2582303791E-004 +6.3857580244E-005  +1.1347321272E+000 -4.5696163177E-001 
7142275.344 +9.2216020823E-001 +9.0427309275E-002  +4.6536850277E-005 +1.3233492791E-004  -2.2643698321E-004 +3.3374657505E-004  +1.1106573343E+000 -4.4826778769E-001 
7267420.526 +9.2444479465E-001 +9.2899486423E-002  +1.2133402925E-004 -1.0211393237E-004  +5.7006807765E-004 +1.8077134155E-004  +1.0746473074E+000 -4.4408750534E-001 
7392565.707 +9.3109852076E-001 +9.2404887080E-002  +6.8110603024E-005 +1.6025487275E-004  -4.3260395614E-005 -6.6789525590E-006  +1.0498964787E+000 -4.4353920221E-001 
7517710.889 +9.2959892750E-001 +8.5439071059E-002  -7.7055039583E-005 -6.3807824517E-006  +2.3071834585E-004 -7.4440511526E-005  +1.0196472406E+000 -4.3433487415E-001 
7642856.070 +9.2567270994E-001 +8.2502856851E-002  +3.0622766644E-005 +1.7728871171E-005  +2.4200564076E-004 +1.9437739684E-004  +9.8961186409E-001 -4.3241745234E-001 
7768001.252 +9.3328332901E-001 +8.5803888738E-002  -2.7304404284E-005 +2.2349014762E-004  +5.5301516113E-005 -2.5663677661E-005  +9.6469813585E-001 -4.1887408495E-001 
7893146.433 +9.3785810471E-001 +8.4376752377E-002  -2.1064099201E-005 +7.1800721344E-005  +1.0660271073E-004 -2.1262766677E-004  +9.4967728853E-001 -3.9958801866E-001 
8018291.615 +9.3711721897E-001 +8.2583695650E-002  +2.1634537552E-004 +9.5453789982E-005  +1.0187100997E-004 +1.2460880680E-004  +9.2140424252E-001 -3.9261287451E-001 
8143436.796 +9.3997079134E-001 +7.4552655220E-002  +1.3602997933E-004 -2.2683489078E-005  +3.4748645703E-005 -7.9593715782E-005  +9.0387105942E-001 -3.8115707040E-001 
8268581.977 +9.4203084707E-001 +7.7115952969E-002  +1.6001042968E-004 -7.1321672294E-005  +1.3967737686E-006 +2.3257292924E-005  +8.8823652267E-001 -3.6375164986E-001 
8393727.159 +9.4489425421E-001 +7.2307303548E-002  +6.6655329647E-006 -8.2518010458E-005  -6.6902221079E-006 -7.7938093455E-006  +8.7155747414E-001 -3.5120999813E-001 
8518872.340 +9.4856685400E-001 +7.1262523532E-002  +2.0583411970E-004 -1.3379896700E-004  +4.1855120799E-005 -8.0832491221E-005  +8.5337471962E-001 -3.3428525925E-001 
8644017.522 +9.4643235207E-001 +7.5229480863E-002  -2.8080274205E-005 -5.6692086218E-005  -4.2668172682E-005 -9.0984671260E-005  +8.4350734949E-001 -3.2374066114E-001 
8769162.703 +9.5380842686E-001 +7.4501216412E-002  +9.2819362180E-005 -3.9162739995E-005  +1.2421005522E-004 +1.6285250240E-005  +8.3013522625E-001 -3.0918633938E-001 
8894307.885 +9.5192945004E-001 +6.8689838052E-002  +1.5322564286E-004 -4.3486856157E-005  -1.0921652574E-004 -6.7041430157E-005  +8.1362462044E-001 -2.9474872351E-001 
9019453.066 +9.5401835442E-001 +6.7267656326E-002  -2.0584931917E-005 +9.8556636658E-005  -1.8791372713E-004 +6.8532353907E-006  +8.0161732435E-001 -2.8106501698E-001 
9144598.248 +9.5570969582E-001 +6.7117899656E-002  +3.6775847548E-005 -1.1279015598E-004  -1.9143326426E-006 -3.2952895708E-005  +7.8939461708E-001 -2.6685625315E-001 
9269743.429 +9.5761620998E-001 +6.6259294748E-002  +6.6835273174E-005 -7.8775054135E-005  -6.7392480560E-005 +2.9607361284E-005  +7.8075790405E-001 -2.4868024886E-001 
9394888.611 +9.6034455299E-001 +6.7464292049E-002  +9.7339041531E-005 +1.5104529666E-005  -3.7743378925E-005 -9.9658485851E-005  +7.6979869604E-001 -2.3576368392E-001 
9520033.792 +9.6258878708E-001 +6.4037352800E-002  -4.0391358198E-005 -2.1739706426E-005  +1.2194411829E-004 +4.3915442802E-005  +7.6198768616E-001 -2.1504697204E-001 
9645178.974 +9.6453636885E-001 +6.4394950867E-002  +2.4345190468E-005 +1.1791732504E-005  -3.3738589991E-005 +7.6323878602E-005  +7.5409615040E-001 -2.0361000299E-001 
9770324.155 +9.6336781979E-001 +6.2574625015E-002  -2.7547266654E-005 +4.6932611440E-005  -9.1130590590E-005 -4.8919424444E-005  +7.4681329727E-001 -1.8514236808E-001 
9895469.337 +9.6692782640E-001 +6.2175482512E-002  -2.2112356964E-004 +1.6014961875E-004  -5.8853278460E-005 -1.2827149476E-005  +7.4012207985E-001 -1.7079412937E-001 
10020614.518 +9.6631819010E-001 +6.0522168875E-002  +6.7789442255E-005 +4.9099435273E-006  +5.4608717619E-006 -8.4982064436E-005  +7.3606044054E-001 -1.5389522910E-001 
10145759.700 +9.6744573116E-001 +5.7676732540E-002  -9.0443973022E-006 -2.7340422093E-005  +6.9470253948E-005 +8.3708910097E-005  +7.3455047607E-001 -1.4073127508E-001 
10270904.881 +9.7077667713E-001 +5.4178059101E-002  -1.6310434148E-004 -6.1544087657E-005  +3.4766086173E-005 +5.2977313317E-005  +7.3007774353E-001 -1.2543946505E-001 
10396050.063 +9.7099947929E-001 +5.3727507591E-002  -2.3632645025E-005 +7.6468468251E-006  -2.4459728593E-005 +7.8258904978E-005  +7.2564119101E-001 -1.1008417606E-001 
10521195.244 +9.7228360176E-001 +5.2754342556E-002  -1.2394395890E-004 +1.3338158169E-005  -9.4209011877E-005 -7.8291603131E-005  +7.2551095486E-001 -9.5459192991E-002 
10646340.426 +9.7210645676E-001 +4.9926072359E-002  -4.4807522499E-005 +2.4863558792E-005  +3.8477635826E-005 -4.0027080104E-006  +7.2388267517E-001 -7.9471111298E-002 
10771485.607 +9.7419166565E-001 +5.1217198372E-002  +2.0234248950E-005 +9.1273992439E-005  +1.0342631867E-005 +7.3735543992E-005  +7.2401160002E-001 -6.4749926329E-002 
10896630.788 +9.7349858284E-001 +4.7670364380E-002  +4.6188462875E-005 -5.8738987718E-007  -4.1642051656E-005 +4.5579137804E-005  +7.2293168306E-001 -4.9224227667E-002 
11021775.970 +9.7256827354E-001 +4.6666502953E-002  -3.6639168684E-005 -5.7978686527E-005  +1.8268759959E-005 -6.1568913225E-005  +7.2420853376E-001 -3.5957962275E-002 
11146921.151 +9.7397649288E-001 +4.3222069740E-002  -6.5994674515E-005 +5.7159766584E-005  +4.9461472372E-005 -5.1514034567E-006  +7.2449207306E-001 -2.0878404379E-002 
11272066.333 +9.7313284874E-001 +3.9992004633E-002  -5.1009465096E-005 +2.3989776309E-005  +3.8567904994E-005 +5.5328833696E-005  +7.2692584991E-001 -5.7971775532E-003 
11397211.514 +9.7559821606E-001 +4.2701601982E-002  +3.5334218410E-005 +4.7172885388E-005  -6.8354347604E-005 -2.4147135264E-005  +7.2882330418E-001 +6.2048435211E-003 
11522356.696 +9.7495740652E-001 +4.1436254978E-002  -1.6228539607E-005 -4.2297859181E-005  +1.3393371773E-005 +6.2093022279E-005  +7.3300492764E-001 +1.9484013319E-002 
11647501.877 +9.7400617599E-001 +4.0417522192E-002  +2.3760887416E-005 +2.4881512218E-005  +4.1787927330E-005 +8.8625620265E-006  +7.3700594902E-001 +3.3780634403E-002 
11772647.059 +9.7570025921E-001 +3.7476003170E-002  +9.4066626843E-006 +4.4911994337E-005  -2.0373059670E-005 +1.0893269064E-005  +7.4131041765E-001 +4.5930802822E-002 
11897792.240 +9.7495579720E-001 +3.7218600512E-002  -5.4898614508E-006 +2.4210962692E-006  +4.3356216338E-005 +3.1709994801E-005  +7.4689984322E-001 +5.8619379997E-002 
12022937.422 +9.7772938013E-001 +3.6027580500E-002  +2.8568359994E-005 +5.4859538068E-007  -1.5286041162E-005 -3.4574437450E-005  +7.5254583359E-001 +7.1170628071E-002 
12148082.603 +9.7586500645E-001 +3.3815562725E-002  +4.6538065362E-005 +3.4161083022E-005  +2.5427058063E-005 +2.6867914130E-005  +7.5826704502E-001 +8.4344834089E-002 
12273227.785 +9.7593098879E-001 +3.4725368023E-002  +9.7116299003E-007 -7.5065672718E-006  -4.7083208301E-006 -2.4210070478E-005  +7.6512163877E-001 +9.5435172319E-002 
12398372.966 +9.7608476877E-001 +3.3408194780E-002  -6.7068278440E-005 -1.6271660570E-006  +1.1256597645E-005 -1.5093715774E-005  +7.7277737856E-001 +1.0559122264E-001 
12523518.148 +9.7518539429E-001 +3.3059120178E-002  +6.4696047048E-005 +4.4203916332E-005  +3.1250023312E-005 +2.5088269467E-005  +7.7977782488E-001 +1.1715105176E-001 
12648663.329 +9.7618496418E-001 +3.2038182020E-002  -9.3842218121E-006 +4.5569549911E-006  +4.8865411372E-005 +2.6755500585E-005  +7.8876125813E-001 +1.2742370367E-001 
12773808.511 +9.7581708431E-001 +2.9081061482E-002  +3.8241472794E-005 -2.9393340810E-005  -3.7053003325E-005 +4.3418796849E-005  +7.9758250713E-001 +1.3637718558E-001 
12898953.692 +9.7620975971E-001 +2.8760224581E-002  -5.9142894315E-007 -3.8877067709E-005  +1.3139615476E-005 +4.3005482439E-005  +8.0663865805E-001 +1.4605456591E-001 
13024098.874 +9.7569936514E-001 +2.8853289783E-002  +1.4679397282E-005 +2.4188377211E-005  +5.3342584579E-005 -1.8586069928E-007  +8.1622517109E-001 +1.5536879003E-001 
13149244.055 +9.7496062517E-001 +2.6677273214E-002  +3.5041517549E-005 +2.3793772925E-005  +5.8341311160E-006 -8.8664110081E-006  +8.2621037960E-001 +1.6355432570E-001 
13274389.237 +9.7486567497E-001 +2.6015779004E-002  -7.6810092651E-006 -2.4213395591E-005  -1.7501819457E-005 +4.7156878281E-005  +8.3746892214E-001 +1.7010498047E-001 
13399534.418 +9.7456067801E-001 +2.5526419282E-002  +8.6031714090E-006 -9.2900620530E-009  -7.6195269685E-006 -3.4360029531E-005  +8.4787982702E-001 +1.7737801373E-001 
13524679.599 +9.7441339493E-001 +2.5115512311E-002  +1.6363625036E-005 +1.6656726075E-005  +3.7764781155E-005 +1.0876119632E-006  +8.5942685604E-001 +1.8337777257E-001 
13649824.781 +9.7557711601E-001 +2.3810118437E-002  -3.5709799704E-005 -2.0817435143E-005  -4.3797085709E-006 -4.5217075240E-005  +8.7130880356E-001 +1.8911108375E-001 
13774969.962 +9.7410726547E-001 +2.2602543235E-002  +4.5779042921E-006 +4.5192805374E-006  +4.0047503717E-005 +3.7982317735E-005  +8.8214397430E-001 +1.9379819930E-001 
13900115.144 +9.7386306524E-001 +2.2412121296E-002  +2.6808345865E-005 +1.7297152226E-006  -2.1566433134E-005 +1.9713172151E-005  +8.9447271824E-001 +1.9857697189E-001 
14025260.325 +9.7282719612E-001 +2.1552562714E-002  +2.6216086553E-005 +2.6492889447E-005  +1.2719287952E-006 +3.1537124414E-006  +9.0658038855E-001 +2.0225423574E-001 
14150405.507 +9.7291219234E-001 +2.1723270416E-002  +1.1623173123E-005 +8.9121394922E-006  +2.1661893697E-005 +2.5726691092E-005  +9.1911458969E-001 +2.0562897623E-001 
14275550.688 +9.7268700600E-001 +2.0241469145E-002  +3.1575516914E-005 +2.6733694540E-005  +2.0548457542E-005 +2.3341424821E-005  +9.3131792545E-001 +2.0634831488E-001 
14400695.870 +9.7105336189E-001 +1.9241094589E-002  +3.2752409425E-006 -9.1099946076E-006  +3.4573087760E-005 +4.9635058531E-005  +9.4349408150E-001 +2.0839269459E-001 
