!  2-Port S-parameters saved by WinCal
! VAR MeasName=S-Parameters (CALIBRATED_DATA) read from VNA (P5004A)
! VAR MeasDate=22/05/2024 21:20:34
! VAR NAME=Wafer3_r3_c6_pristine 2
! VAR FILENAME=Wafer3_r3_c6_pristine 2.S2P
! VAR DATE=22/05/2024 21:20:34
! VAR PHYS_PORTS=1,2
! VAR ObjTypeName=DATASET
! VAR IndexType=Frequency
!
# Hz S RI R 50
9000.000 +2.1064351499E-001 -6.0355520248E-001  -2.8077985626E-003 +6.9410400465E-004  +8.0153165618E-004 -3.2021629158E-004  +4.4632982463E-002 +1.0579013824E-001 
134145.181 +6.3640874624E-001 -9.7000319511E-004  -1.4643678442E-002 -1.9922588021E-002  -3.8519240916E-003 -5.2968924865E-003  +6.3633811474E-001 -1.5137765557E-002 
259290.363 +8.4813201427E-001 -1.1521282047E-001  +2.0105142612E-003 -5.2924565971E-003  +1.6233383212E-003 -6.2903212383E-003  +9.7883844376E-001 -1.2724137306E-001 
384435.544 +9.0146434307E-001 -3.1556373835E-001  +1.3196300715E-003 +7.5953284977E-006  +2.4144447525E-004 -2.3140707053E-003  +1.0528624058E+000 -1.9126881659E-001 
509580.726 +9.5863419771E-001 -1.6857692599E-001  -8.5275748279E-004 -1.4127548784E-003  +4.3902476318E-004 +4.7740119044E-004  +1.0404468775E+000 -8.3609700203E-002 
634725.907 +1.1029756069E+000 -2.1586814523E-001  +1.5551745309E-004 -9.0545436251E-005  -8.0257194350E-004 -3.7852179958E-005  +1.1225897074E+000 -7.2126150131E-002 
759871.089 +1.3165173531E+000 -3.9650797844E-002  -4.2851315811E-006 +2.0945185679E-004  -5.1199167501E-005 -3.7341917050E-004  +1.2004741430E+000 +1.2623727322E-002 
885016.270 +1.4859527349E+000 -9.9896073341E-001  +1.0624821298E-003 +4.3491413817E-003  +3.3978992724E-004 -8.5560447769E-004  +1.3888307810E+000 +7.6967880130E-002 
1010161.452 +1.1436177492E+000 -1.3863834739E-001  +4.9255411141E-003 +4.0649487637E-003  +2.5937077589E-004 +7.0061720908E-003  +3.6041367054E-001 -1.9802942872E-002 
1135306.633 +1.1195027828E+000 -1.2669920921E-001  +6.9904502016E-004 -3.2443989767E-004  -2.9992091004E-004 +2.3612841032E-003  +8.9327001572E-001 +6.7771583796E-002 
1260451.815 +1.4525604248E+000 -1.0590821505E-001  +1.7361351056E-003 +1.1384739773E-003  +1.8125700299E-003 -4.2917265091E-005  +1.0158215761E+000 +1.6675567627E-001 
1385596.996 +1.3394851685E+000 -1.6549251974E-001  +2.5270335027E-004 -6.3635190600E-005  -5.1533966325E-004 -3.3032341162E-004  +1.1135590076E+000 +1.2106406689E-001 
1510742.178 +1.5655558109E+000 -2.8411859274E-001  +2.5673427153E-003 -1.2910488294E-003  +1.0001311311E-003 +7.0752535248E-004  +1.2707083225E+000 +1.6489255428E-001 
1635887.359 +1.0018811226E+000 -4.3524006009E-001  -1.7044044216E-004 -4.0164397797E-004  +7.5818155892E-005 +2.2798504215E-003  +1.0963172913E+000 -1.8243741989E-001 
1761032.541 +1.1174608469E+000 -5.1814764738E-001  +8.6052005645E-004 +7.9938577255E-004  +1.9285803428E-003 +8.6129410192E-004  +1.1095813513E+000 -1.7588436604E-001 
1886177.722 +9.8734098673E-001 -3.7865078449E-001  -7.9061882570E-004 -1.9149357104E-004  -1.3440884650E-003 -2.3783079814E-004  +1.0275982618E+000 -8.3945035934E-002 
2011322.904 +9.3775379658E-001 -2.8793016076E-001  -1.0303695453E-003 -2.5992945302E-004  +2.1545417258E-004 +6.3233624678E-004  +1.0142922401E+000 -3.4829080105E-002 
2136468.085 +9.6819555759E-001 -2.5579953194E-001  -3.0151597457E-004 +1.2235045433E-003  +1.1009328300E-003 -2.9944404378E-004  +1.0162194967E+000 -1.9609123468E-002 
2261613.267 +9.4567608833E-001 -2.1449586749E-001  +6.5309175989E-004 -4.0897398139E-004  +1.9410156528E-004 +1.6821433383E-004  +1.0178408623E+000 +1.3746023178E-003 
2386758.448 +9.2856097221E-001 -2.0772638917E-001  -5.8493966935E-004 -5.6831340771E-005  +1.4580976858E-004 -2.5427257060E-004  +1.0158885717E+000 +1.3015747070E-002 
2511903.630 +9.1914266348E-001 -1.5310689807E-001  -1.1627319327E-004 +3.5159199615E-004  +1.9718939438E-004 +1.0613953054E-004  +1.0148704052E+000 +2.3223936558E-002 
2637048.811 +9.4628906250E-001 -1.2982860208E-001  -4.0462627658E-004 -5.4635939887E-004  +1.5012476069E-004 +2.8652793844E-004  +1.0046975613E+000 +5.1296621561E-002 
2762193.992 +9.5571565628E-001 -1.3668802381E-001  -1.0285714234E-004 +1.9561097724E-004  -2.6779703330E-004 +2.2601053934E-004  +1.0072025061E+000 +6.9716006517E-002 
2887339.174 +9.1370409727E-001 -1.2640561163E-001  +3.3530590008E-004 +1.0613742234E-005  +4.5076734386E-004 +4.3212264427E-004  +1.0261251926E+000 +8.4038749337E-002 
3012484.355 +8.8750600815E-001 -1.0604749620E-001  +8.4550301835E-005 +2.1657346224E-004  -3.7469848758E-004 +5.3970115914E-006  +1.0214214325E+000 +1.0198815912E-001 
3137629.537 +8.8604670763E-001 -4.8866026103E-002  +4.9114318244E-005 +5.7040510001E-005  +4.5081982535E-005 -1.1908168381E-004  +1.0342674255E+000 +1.0231981426E-001 
3262774.718 +8.7655156851E-001 -2.4328758940E-002  +4.6777695388E-005 -3.8518930523E-005  -3.3337104833E-004 -4.6292439220E-004  +1.0397677422E+000 +1.2915213406E-001 
3387919.900 +8.7491112947E-001 +1.2531669810E-002  +7.4822700117E-004 -2.7322501410E-004  +3.0189385870E-004 +1.2903555762E-004  +1.0451625586E+000 +1.2974627316E-001 
3513065.081 +8.8123846054E-001 +4.1662603617E-002  +1.8050193830E-005 -3.4933080315E-004  +1.0492335423E-004 +6.9666726631E-005  +1.0622098446E+000 +1.6121132672E-001 
3638210.263 +8.9530622959E-001 +7.0839941502E-002  +2.9150070623E-004 +2.1414186631E-004  -3.1222924008E-005 -3.4785637399E-004  +1.0807983875E+000 +1.7452228069E-001 
3763355.444 +9.1152721643E-001 +9.5750078559E-002  +1.5518619330E-004 +4.5081111602E-004  +4.2463891441E-004 +6.0439731897E-005  +1.1040871143E+000 +1.7260350287E-001 
3888500.626 +9.3611830473E-001 +1.3616669178E-001  -1.1499099492E-004 +3.4343652078E-004  +1.7439956719E-004 +1.1554824596E-004  +1.1233794689E+000 +1.9124177098E-001 
4013645.807 +8.8899558783E-001 +6.6910848022E-002  -1.0794584523E-004 +7.1791844675E-004  -3.0833514757E-004 -3.7969049299E-004  +1.0799242258E+000 +8.0158591270E-002 
4138790.989 +8.3646792173E-001 +1.6777269542E-002  -2.9392293072E-004 -3.6218788591E-004  -3.6387302680E-004 +6.5567105776E-004  +9.9886608124E-001 -2.1701455116E-003 
4263936.170 +8.3472293615E-001 +3.3525444567E-002  -6.2807746872E-005 -2.4492823286E-004  +1.2386357412E-004 -1.7958781973E-004  +1.0055689812E+000 -1.7634702846E-002 
4389081.352 +8.5261619091E-001 +3.7158612162E-002  +3.1539786141E-004 -8.1355710790E-006  -6.5652042395E-004 +1.6647677694E-004  +9.9595773220E-001 -2.3749370128E-002 
4514226.533 +8.6471307278E-001 +4.0020208806E-002  +1.8945761258E-004 -5.9566111304E-004  +5.7301198831E-004 -1.1230252858E-004  +1.0027885437E+000 -2.7564369142E-002 
4639371.715 +8.8099080324E-001 +4.1700597852E-002  -1.5073262330E-004 +4.0774187073E-004  -6.0985006712E-005 +5.1716389862E-005  +1.0067548752E+000 -2.1799005568E-002 
4764516.896 +8.8458311558E-001 +4.6351078898E-002  +1.8031780201E-005 +3.6619126331E-004  -3.9495789679E-004 -2.0972156199E-004  +1.0021981001E+000 -2.7420287952E-002 
4889662.078 +8.9650410414E-001 +4.7949302942E-002  +4.6477904107E-005 +4.6128512622E-005  +2.2940109193E-004 +2.3494186462E-004  +1.0066890717E+000 -2.4246873334E-002 
5014807.259 +8.9972126484E-001 +4.9306601286E-002  -1.6271611094E-004 +1.3587504509E-004  +4.5090442291E-004 -3.5104920971E-004  +9.9878323078E-001 -2.4992495775E-002 
5139952.441 +9.1041582823E-001 +4.6501517296E-002  +1.2593818246E-004 +3.9733422454E-004  -1.7898705846E-004 -1.9918251201E-004  +1.0007406473E+000 -3.1868688762E-002 
5265097.622 +9.2007899284E-001 +4.6421185136E-002  -1.2505866471E-004 -3.8773185224E-005  +3.9022616693E-004 -1.6573468747E-004  +9.9504482746E-001 -3.2800804824E-002 
5390242.804 +9.2588210106E-001 +5.0037801266E-002  +1.8520548474E-004 -1.5623410582E-004  +4.5719329501E-004 -3.5274092807E-004  +9.9318438768E-001 -2.3496337235E-002 
5515387.985 +9.4174486399E-001 +5.1163926721E-002  +1.7018083599E-004 -5.0621724222E-004  +1.9596336642E-004 -2.4704221869E-004  +9.9858671427E-001 -3.6464966834E-002 
5640533.166 +9.4307011366E-001 +5.0958558917E-002  -7.9189732787E-005 -1.8436618848E-004  -4.7546788119E-004 -4.0212812019E-004  +9.9436825514E-001 -3.2497242093E-002 
5765678.348 +9.4527453184E-001 +4.8795100302E-002  +2.6363361394E-004 -5.5714026530E-006  -1.0568171092E-005 +8.7633816293E-006  +9.9603199959E-001 -3.4906692803E-002 
5890823.529 +9.5352876186E-001 +4.3142847717E-002  -7.5353316788E-005 -1.0263630975E-004  -5.1049762988E-005 +2.6081444230E-004  +9.9550187588E-001 -3.8874268532E-002 
6015968.711 +9.5171046257E-001 +3.5026341677E-002  +5.1243063353E-005 -3.8438774936E-005  +2.3646662885E-004 -2.7073977981E-004  +9.9558264017E-001 -2.4924576283E-002 
6141113.892 +9.6083873510E-001 +3.7363544106E-002  +5.2284867706E-005 -5.4088006436E-005  +3.2956231735E-006 +5.5213115411E-004  +9.8878806829E-001 -3.0437707901E-002 
6266259.074 +9.6457755566E-001 +3.7459827960E-002  -1.2562316260E-004 -1.9761560543E-004  -1.0551842570E-004 +6.1009509955E-004  +9.8648202419E-001 -2.9279328883E-002 
6391404.255 +9.6186488867E-001 +3.0188895762E-002  -1.4380847279E-004 +2.2344075842E-004  -2.4043572193E-004 -2.5168369757E-004  +9.8678058386E-001 -3.7144847214E-002 
6516549.437 +9.6295160055E-001 +2.9566593468E-002  +2.1258981724E-004 -6.5151987656E-005  -2.7718735510E-004 +1.4805384126E-005  +9.8696351051E-001 -3.2987676561E-002 
6641694.618 +9.6855252981E-001 +3.7745550275E-002  -5.2381390560E-005 -8.9114291768E-005  -2.5466718944E-004 +5.0920054491E-005  +9.8600280285E-001 -2.7065828443E-002 
6766839.800 +9.7780305147E-001 +3.2336570323E-002  +2.6008332497E-004 +1.4929799363E-004  +2.4751998717E-004 -1.7823993403E-005  +9.8472374678E-001 -3.0130341649E-002 
6891984.981 +9.7440570593E-001 +2.6962965727E-002  -6.7878419941E-005 -4.7222889407E-005  +3.3449563489E-005 +2.3495376809E-004  +9.7827774286E-001 -2.8200328350E-002 
7017130.163 +9.7535234690E-001 +2.0501613617E-002  -3.6554996768E-005 +2.5366895716E-004  +4.7533510951E-005 -6.1396764067E-005  +9.8255580664E-001 -2.3068577051E-002 
7142275.344 +9.7792255878E-001 +2.4796217680E-002  +1.7143973673E-004 -3.3946867916E-005  +7.7485674410E-007 +6.5670617914E-005  +9.8347872496E-001 -1.9732773304E-002 
7267420.526 +9.7862750292E-001 +2.9479905963E-002  -1.5374897339E-004 +6.2293911469E-005  +2.6080707903E-004 -1.9191666797E-004  +9.8224329948E-001 -1.8973037601E-002 
7392565.707 +9.7835052013E-001 +2.6916056871E-002  -1.0935432510E-004 +9.3979448138E-005  +2.0803384541E-004 +2.4779292289E-005  +9.8110342026E-001 -2.0956024528E-002 
7517710.889 +9.8048228025E-001 +2.3750126362E-002  +1.9513722509E-004 +8.0521305790E-005  +1.2056018750E-004 +3.1300074625E-005  +9.7955304384E-001 -2.0300030708E-002 
7642856.070 +9.7918063402E-001 +2.4497032166E-002  -7.9370336607E-005 -2.7920599678E-004  -7.2145405284E-005 -1.4362137881E-004  +9.7362673283E-001 -2.4839997292E-002 
7768001.252 +9.8538142443E-001 +2.7326956391E-002  +2.6888705906E-004 -4.7581997933E-006  -7.3836112279E-005 -1.0948097952E-005  +9.7602093220E-001 -1.7623811960E-002 
7893146.433 +9.8784017563E-001 +2.4669542909E-002  +2.1526623459E-004 +1.0126642883E-004  +6.3852159656E-005 -2.3474234331E-004  +9.7649919987E-001 -1.4430940151E-002 
8018291.615 +9.8138529062E-001 +2.3358300328E-002  -2.1263571398E-005 +7.6718271885E-005  -1.1548467592E-004 +1.1953488865E-006  +9.7338557243E-001 -1.8128484488E-002 
8143436.796 +9.8232293129E-001 +2.2597089410E-002  +1.4700919564E-004 +1.5890302166E-005  -6.0595142713E-005 -5.1575523685E-005  +9.7584694624E-001 -1.0799825191E-002 
8268581.977 +9.8157626390E-001 +1.9298478961E-002  +9.0695670224E-005 +5.0306371122E-005  +1.1830070434E-004 +7.6946394984E-005  +9.7474247217E-001 -9.1150701046E-003 
8393727.159 +9.8310369253E-001 +1.2567251921E-002  +5.9140722442E-005 +3.0163075280E-005  -4.6581273637E-005 -7.6906930190E-005  +9.7426950932E-001 -9.1848075390E-003 
8518872.340 +9.8789060116E-001 +1.3635873795E-002  +8.0561447248E-005 +4.9964466598E-005  +1.3204367860E-005 -1.5594468277E-004  +9.7388887405E-001 -6.6522657871E-003 
8644017.522 +9.8299121857E-001 +1.5074908733E-002  +5.0702692533E-005 -1.9537527987E-004  +2.4494915851E-004 -1.2852855434E-004  +9.7803550959E-001 -9.4129741192E-003 
8769162.703 +9.8988282681E-001 +1.7696887255E-002  -3.4749453334E-005 -1.1696662841E-004  -2.3243424948E-005 -2.1823037241E-004  +9.7985577583E-001 -8.3157420158E-003 
8894307.885 +9.8630177975E-001 +1.6665220261E-002  -1.1077307863E-004 -8.2397396909E-005  -2.0453400793E-004 -8.1655445683E-005  +9.7594070435E-001 -1.2913256884E-002 
9019453.066 +9.8904597759E-001 +1.2903153896E-002  -1.4763328363E-004 +1.4902195835E-004  +1.9152830646E-005 -5.9158908698E-005  +9.7781968117E-001 -9.5140039921E-003 
9144598.248 +9.8576724529E-001 +1.0823160410E-002  -1.0861615010E-005 -1.2578330643E-004  -2.5187947904E-004 +1.7943035346E-005  +9.7626888752E-001 -5.5967867374E-003 
9269743.429 +9.8800301552E-001 +1.3381898403E-002  +6.6016960773E-005 -8.2405254943E-005  +1.0429677786E-005 +2.1207259124E-005  +9.7626453638E-001 -6.7341029644E-003 
9394888.611 +9.8902297020E-001 +1.7999976873E-002  +2.9267275750E-005 -2.5358061976E-005  -6.9619418355E-006 +2.5321796784E-005  +9.7614073753E-001 -9.6782147884E-003 
9520033.792 +9.8885637522E-001 +1.2517541647E-002  +6.2898579927E-005 +7.6624637586E-006  -1.6323063392E-005 -4.8584603064E-005  +9.7565025091E-001 -4.1062831879E-003 
9645178.974 +9.9155557156E-001 +1.5967160463E-002  -1.0171236681E-005 -2.6265402994E-005  -3.0608862289E-007 -3.3379179513E-005  +9.7489964962E-001 -3.7651956081E-003 
9770324.155 +9.8926514387E-001 +1.7098635435E-002  +1.9815719497E-005 +3.6962672311E-005  -1.2392591452E-004 +8.0058700405E-005  +9.7400838137E-001 -3.9040446281E-003 
9895469.337 +9.9176448584E-001 +1.7282694578E-002  +2.9267770515E-005 -9.6250965726E-005  -6.8054214353E-005 +2.4139102607E-005  +9.7433817387E-001 -3.0429065228E-003 
10020614.518 +9.9113023281E-001 +1.7310738564E-002  -5.4212287068E-005 -3.8239129935E-005  -4.1443141527E-005 +1.1158169218E-004  +9.7530782223E-001 -2.5714337826E-003 
10145759.700 +9.9101614952E-001 +1.5860289335E-002  +2.4825378205E-005 -5.7071720221E-006  -3.5339769966E-005 +3.3371834434E-006  +9.7638696432E-001 -2.6576519012E-003 
10270904.881 +9.9304723740E-001 +1.3415277004E-002  -1.9559243810E-005 -8.8601671450E-005  -1.1106314196E-004 +3.5640259739E-005  +9.7904956341E-001 -1.2878477573E-003 
10396050.063 +9.9044978619E-001 +1.3965666294E-002  -5.8701454691E-005 +7.9378965893E-005  -3.9347651182E-005 +2.0241241145E-005  +9.7806632519E-001 +9.1013312340E-004 
10521195.244 +9.9143433571E-001 +1.4929890633E-002  -6.0774793383E-005 +6.5339390858E-006  -3.2350912079E-005 +6.5795007686E-005  +9.7857356071E-001 +8.7022781372E-005 
10646340.426 +9.9307608604E-001 +1.3114213943E-002  -3.4983684600E-005 +8.0626005001E-006  -6.4640931669E-005 -4.8226127547E-005  +9.7952127457E-001 +3.6656260490E-003 
10771485.607 +9.9363613129E-001 +1.5256345272E-002  -5.6891494751E-005 -5.3747462516E-006  +4.3263389671E-005 +1.4583568372E-005  +9.8107486963E-001 +4.3022632599E-003 
10896630.788 +9.9162638187E-001 +1.3910561800E-002  -2.1507437850E-005 +2.1999241653E-005  +6.6893189796E-006 +7.9189048847E-005  +9.7993677855E-001 +5.2363276482E-003 
11021775.970 +9.9128520489E-001 +1.4526069164E-002  +3.3791009628E-005 -2.2173819161E-005  +6.3647257775E-006 +4.2515552195E-005  +9.8160254955E-001 +5.7346224785E-003 
11146921.151 +9.9240350723E-001 +1.1293709278E-002  -5.8022696976E-006 -3.2938463846E-005  -1.5741585230E-005 +4.1330262320E-005  +9.8362797499E-001 +6.3002705574E-003 
11272066.333 +9.9054014683E-001 +1.1729001999E-002  +7.7268829045E-005 +5.6503202359E-005  -1.5037313460E-005 +1.9447741579E-005  +9.8074245453E-001 +5.3943693638E-003 
11397211.514 +9.9250149727E-001 +1.1480897665E-002  +3.5644865420E-005 -5.3960968216E-005  -4.5401702664E-005 +4.9325259170E-005  +9.8124712706E-001 +5.3541660309E-003 
11522356.696 +9.9295216799E-001 +1.0382890701E-002  +2.5930585252E-005 +1.7083795683E-005  -4.1597882955E-005 +9.0393768915E-007  +9.8275423050E-001 +5.0315856934E-003 
11647501.877 +9.9086809158E-001 +1.0587245226E-002  +5.3891155403E-005 -1.8762064428E-005  -2.2250405891E-006 +4.9882306485E-005  +9.8230242729E-001 +6.3295066357E-003 
11772647.059 +9.9201291800E-001 +1.0628253222E-002  +7.2260590969E-006 +6.6917332333E-006  -1.5476060071E-005 +4.6283497795E-005  +9.8175239563E-001 +5.2551329136E-003 
11897792.240 +9.9153453112E-001 +1.0557591915E-002  -5.5889981013E-005 +1.1937629097E-005  +5.1748935221E-005 -1.8516911950E-005  +9.8306131363E-001 +6.6174864769E-003 
12022937.422 +9.9292284250E-001 +1.2101262808E-002  -1.6709815100E-005 +1.1798081687E-005  +4.4783879275E-005 +3.1663381378E-005  +9.8337078094E-001 +5.8670938015E-003 
12148082.603 +9.9323272705E-001 +1.2572050095E-002  +6.1564038333E-005 +3.0797746149E-006  +1.9652245101E-005 -1.3296903489E-005  +9.8427867889E-001 +6.4771175385E-003 
12273227.785 +9.9320638180E-001 +1.1446595192E-002  +8.1359066826E-005 +4.0189661377E-006  +3.7694804632E-005 +3.6757202906E-005  +9.8427915573E-001 +6.9175958633E-003 
12398372.966 +9.9179548025E-001 +1.0093599558E-002  -9.5001014415E-006 +1.5097004507E-005  -2.2570540750E-005 -2.2657772206E-005  +9.8581320047E-001 +6.1113238335E-003 
12523518.148 +9.9156761169E-001 +1.0473459959E-002  +1.5156839254E-005 -3.5041288356E-005  -4.7500534492E-006 +2.9888100471E-005  +9.8427808285E-001 +6.2126219273E-003 
12648663.329 +9.9283820391E-001 +1.2530773878E-002  +3.2773270505E-005 -2.3828713893E-005  -2.6542904379E-005 -1.4199044017E-005  +9.8527604342E-001 +6.2093287706E-003 
12773808.511 +9.9294799566E-001 +1.0398939252E-002  +2.2114121748E-005 -1.6886047888E-005  -2.2335811082E-005 +3.5892531741E-005  +9.8556667566E-001 +7.3496252298E-003 
12898953.692 +9.9258589745E-001 +9.9935531616E-003  +1.4982601897E-005 +1.1943365280E-005  -1.5509922378E-006 -3.1077408494E-005  +9.8580282927E-001 +6.7253336310E-003 
13024098.874 +9.9340230227E-001 +1.0477095842E-002  -2.6583667932E-005 +7.4262625276E-006  -4.9764603318E-005 +3.8122863771E-005  +9.8578023911E-001 +7.3615089059E-003 
13149244.055 +9.9332678318E-001 +1.1001808569E-002  -4.2304600356E-006 -5.3200219554E-006  +2.5589148208E-005 +2.6879895813E-005  +9.8636507988E-001 +8.1695672125E-003 
13274389.237 +9.9249416590E-001 +9.4671323895E-003  +4.5198748921E-006 +8.9667091743E-006  -6.3395791585E-006 -1.3037782082E-005  +9.8717433214E-001 +8.2892477512E-003 
13399534.418 +9.9318426847E-001 +9.3465000391E-003  -4.3997155444E-005 +2.0028044673E-005  -2.5436218493E-005 +1.0631537407E-005  +9.8705762625E-001 +8.6019560695E-003 
13524679.599 +9.9286478758E-001 +1.0806038976E-002  -2.0917152142E-005 +1.1531471500E-005  +2.2008527594E-005 -2.4269802452E-006  +9.8752158880E-001 +8.9780613780E-003 
13649824.781 +9.9392622709E-001 +9.7322762012E-003  +2.0867155399E-005 +3.1301897252E-005  -1.1457076653E-005 +6.8598841608E-005  +9.8796600103E-001 +7.5789690018E-003 
13774969.962 +9.9279963970E-001 +9.6054524183E-003  -4.3827578338E-005 +6.3164061430E-006  -3.6258868931E-005 +4.0815921238E-005  +9.8753446341E-001 +7.4902176857E-003 
13900115.144 +9.9370497465E-001 +8.8573098183E-003  +8.0096942838E-006 -9.6022877187E-006  -2.6953492124E-005 -1.6919939299E-006  +9.8782908916E-001 +8.3669722080E-003 
14025260.325 +9.9208009243E-001 +9.0906322002E-003  +4.0931547119E-005 +3.1891519029E-005  -3.5341850889E-005 +4.0058319428E-005  +9.8748886585E-001 +9.2404186726E-003 
14150405.507 +9.9235224724E-001 +9.8705291748E-003  -2.2153308237E-006 +8.6791362264E-005  -9.2415730251E-006 +1.7634525648E-005  +9.8845756054E-001 +8.2856714725E-003 
14275550.688 +9.9304693937E-001 +8.1351399422E-003  +3.5959648812E-005 +3.5029108403E-005  +2.5814992114E-005 +5.0525763072E-005  +9.8844015598E-001 +7.8106224537E-003 
14400695.870 +9.9263268709E-001 +8.1060528755E-003  +8.9527675300E-006 +1.1712772903E-005  +1.3512650185E-005 +4.8336245527E-005  +9.8821789026E-001 +9.0595483780E-003 
