!  2-Port S-parameters saved by WinCal
! VAR MeasName=S-Parameters (CALIBRATED_DATA) read from VNA (P5004A)
! VAR MeasDate=22/05/2024 20:09:42
! VAR NAME=Wafer3_r2_c2_open
! VAR FILENAME=Wafer3_r2_c2_open.S2P
! VAR DATE=22/05/2024 20:09:42
! VAR PHYS_PORTS=1,2
! VAR ObjTypeName=DATASET
! VAR IndexType=Frequency
!
# Hz S RI R 50
9000.000 +2.1156872809E-001 -5.9903603792E-001  +3.8881963119E-003 -1.1416301131E-003  -7.9336721683E-004 +9.1378611978E-004  +4.2936190963E-002 +1.0988337547E-001 
134145.181 +7.0171707869E-001 +3.2470539212E-002  +3.9170971140E-003 +1.6227213666E-002  +9.7363786772E-003 -2.0456090569E-002  +6.6433542967E-001 -9.9814921618E-002 
259290.363 +8.8054400682E-001 -1.2207119912E-001  +1.3880571350E-003 -2.8948119143E-004  -4.8366756528E-004 -2.1560839377E-003  +9.8756980896E-001 -1.4647978544E-001 
384435.544 +9.0413641930E-001 -2.7394753695E-001  -3.7013962865E-003 -3.5741000902E-003  +1.7741159536E-003 +8.0288876779E-004  +1.0561834574E+000 -2.1088005602E-001 
509580.726 +9.6086239815E-001 -1.5138050914E-001  -1.7410388682E-004 +3.4244882409E-004  -3.8153017522E-004 -7.6646986417E-004  +1.0463008881E+000 -1.0427048802E-001 
634725.907 +1.0951622725E+000 -2.0200684667E-001  -6.1589770485E-004 -2.3288352531E-004  +2.5729092886E-004 +2.2246294247E-004  +1.1250848770E+000 -8.4097921848E-002 
759871.089 +1.2969201803E+000 -6.1968296766E-002  +6.0450445744E-005 +3.4731870983E-004  -5.1129190251E-004 +8.9629378635E-004  +1.1824814081E+000 +1.8345952034E-002 
885016.270 +1.1586416960E+000 -1.0703942776E+000  -3.5110875033E-003 -3.1195965130E-004  +6.7774136551E-004 +1.4852019376E-004  +1.3186073303E+000 +7.3717415333E-002 
1010161.452 +1.1020859480E+000 -8.7652534246E-002  +3.3320304938E-003 -3.7450427189E-003  -2.2043827921E-003 -1.0255197994E-003  +8.4989112616E-001 -2.9593625665E-001 
1135306.633 +1.0737869740E+000 +9.2549324036E-003  +1.1935042858E-004 -3.9367580030E-005  +2.9835379682E-003 -2.3234670516E-004  +1.0313473940E+000 -2.2316694260E-002 
1260451.815 +1.3895006180E+000 -1.7064809799E-003  +9.8443566822E-004 +1.4980377164E-003  +1.5104451450E-003 -1.8288064748E-003  +1.1271276474E+000 +9.1599941254E-002 
1385596.996 +1.2910732031E+000 -1.1651337147E-001  +4.1514704935E-004 +6.1055336846E-004  -1.0082935914E-003 -4.0158949560E-004  +1.1984020472E+000 +9.8912596703E-002 
1510742.178 +1.4629204273E+000 -2.3036304116E-001  +1.1120716808E-003 +2.5160335936E-003  -4.8659357708E-004 -9.9458720069E-004  +1.5026159286E+000 +3.3813124895E-001 
1635887.359 +9.6975642443E-001 -3.3404976130E-001  +2.8147103149E-004 +1.3008191017E-003  +2.0231732633E-003 -1.1405886617E-003  +1.1229009628E+000 -3.5022088885E-001 
1761032.541 +1.0413100719E+000 -3.3485215902E-001  -1.3303387677E-003 +1.5936542768E-003  -2.4383483105E-004 -1.3585797278E-003  +1.0463883877E+000 -3.5835552216E-001 
1886177.722 +9.8913317919E-001 -1.9908949733E-001  +7.5605086749E-004 -9.6364645287E-004  +1.5855585225E-003 +9.9797849543E-004  +1.0085127354E+000 -1.9446063042E-001 
2011322.904 +9.7311973572E-001 -1.4297029376E-001  -9.0260012075E-004 +2.0355065353E-003  +6.5326038748E-004 -3.9408059092E-004  +1.0035768747E+000 -1.2508985400E-001 
2136468.085 +9.8158848286E-001 -1.1355489492E-001  +2.6201503351E-004 -1.0930930730E-003  +1.1630459921E-003 -4.6937051229E-004  +1.0249634981E+000 -7.9131245613E-002 
2261613.267 +9.8361933231E-001 -9.8856896162E-002  +4.1793787386E-004 +2.2804061882E-004  +5.3357484285E-004 -1.6863914789E-004  +1.0166614056E+000 -6.1482816935E-002 
2386758.448 +9.7992986441E-001 -8.9137107134E-002  +1.6590277664E-004 +1.2405887537E-004  +1.9871677796E-004 +4.5616825810E-004  +1.0141341686E+000 -5.5598706007E-002 
2511903.630 +9.8000288010E-001 -6.4034551382E-002  -3.2849906711E-004 -2.9532116605E-004  -1.9785412587E-004 -9.4851333415E-004  +1.0017038584E+000 -3.4356862307E-002 
2637048.811 +9.9183893204E-001 -4.6582907438E-002  +6.1375263613E-005 +4.7778690350E-004  -2.9453539173E-004 -9.2679535737E-004  +9.9373626709E-001 -1.2640416622E-002 
2762193.992 +9.9029779434E-001 -3.2440528274E-002  +9.2762180429E-005 +7.6697811892E-005  -4.5807682909E-006 -3.8564705756E-004  +9.9441552162E-001 +1.1407397687E-002 
2887339.174 +9.7660762072E-001 -2.6211857796E-002  +4.9287208822E-004 +5.2559637697E-004  -6.2628256273E-005 +8.1938713265E-005  +1.0143476725E+000 +1.6059748828E-002 
3012484.355 +9.7495299578E-001 -2.2443439811E-002  -6.4362579724E-004 -1.4473046758E-004  -3.9029310574E-004 -4.6841765288E-004  +1.0006774664E+000 +2.9360657558E-002 
3137629.537 +9.7164195776E-001 +2.5846052915E-002  +7.0279114880E-005 +5.6945119286E-004  -6.0580193531E-004 -8.3534233272E-004  +1.0111027956E+000 +3.3719066530E-002 
3262774.718 +9.6522307396E-001 +3.8794226944E-002  +2.6166439056E-004 -3.1051924452E-004  -1.5378897660E-004 -9.6048362320E-004  +9.9192541838E-001 +7.0513986051E-002 
3387919.900 +9.6154326200E-001 +6.6061139107E-002  +2.9797138995E-004 +8.1050064182E-005  -6.7090190714E-004 +1.9591378077E-005  +9.9562060833E-001 +8.9299172163E-002 
3513065.081 +9.7434639931E-001 +9.6508234739E-002  +9.3247339828E-004 +4.6558302711E-004  +6.3741701888E-004 +2.8109521372E-004  +9.9840527773E-001 +1.1439087987E-001 
3638210.263 +9.9174994230E-001 +1.1577655375E-001  +4.6450056834E-004 +5.4807640845E-004  -1.7877928622E-004 -1.9490299746E-004  +1.0215598345E+000 +1.3149695098E-001 
3763355.444 +1.0131666660E+000 +1.3382670283E-001  -6.1940646265E-004 -2.9643822927E-004  -2.0994298393E-004 -3.9096880937E-004  +1.0477521420E+000 +1.3463887572E-001 
3888500.626 +1.0317851305E+000 +1.4658746123E-001  +2.7274763852E-005 +4.8399803927E-004  +2.9495306080E-004 +4.2460946133E-004  +1.0650398731E+000 +1.6081193089E-001 
4013645.807 +9.8651039600E-001 +7.3807530105E-002  +1.8027011538E-004 -4.5554531971E-004  +1.6105845862E-004 +2.3925001733E-004  +1.0046266317E+000 +7.8556925058E-002 
4138790.989 +9.2975866795E-001 -1.0062541813E-002  +6.1501035816E-005 -3.9206672227E-004  -2.1661637584E-004 -5.4761627689E-004  +9.4667410851E-001 +6.4587891102E-003 
4263936.170 +9.2115461826E-001 +6.0246512294E-004  -3.6057892430E-005 +2.6256803540E-004  -1.8403299327E-004 +7.7484080975E-005  +9.4666904211E-001 +1.3102628291E-003 
4389081.352 +9.3450093269E-001 +1.1625587940E-003  -1.0073536032E-005 -5.3901446518E-004  -5.0931546139E-004 +2.9826833634E-004  +9.4367653131E-001 +6.5897405148E-004 
4514226.533 +9.4143950939E-001 +3.6574117839E-003  -6.5131939482E-004 +1.5190533304E-004  -1.3125179976E-004 +3.6030897172E-004  +9.5811223984E-001 -5.1278937608E-003 
4639371.715 +9.5776230097E-001 +8.0549791455E-003  +6.7571745603E-005 -1.0930578355E-005  +3.3675500890E-004 -3.2072426984E-004  +9.6414005756E-001 +3.4344159067E-003 
4764516.896 +9.5658868551E-001 +1.0082132183E-002  +5.0674605882E-004 -3.3023933065E-004  -1.5130569227E-004 +1.3272630167E-004  +9.6549707651E-001 +3.4873911645E-003 
4889662.078 +9.6178704500E-001 +1.8102645874E-002  -6.3741515623E-004 -1.7060132814E-004  +4.8225636419E-005 +2.4818407837E-004  +9.6618574858E-001 +4.7986321151E-003 
5014807.259 +9.6033036709E-001 +8.5332877934E-003  +2.2364672623E-004 +6.2289822381E-005  +2.9887194614E-005 +1.1015212658E-004  +9.6291542053E-001 +6.1506144702E-003 
5139952.441 +9.7292613983E-001 +5.0911959261E-003  +2.5439375895E-004 -4.3451282545E-004  +3.0795822386E-004 +5.0228333566E-004  +9.6734255552E-001 -6.4282119274E-004 
5265097.622 +9.7276574373E-001 +5.2886866033E-003  -2.8984568780E-004 -2.4591450347E-004  -2.2451147379E-004 +1.0446713532E-005  +9.7003877163E-001 -9.6720419824E-003 
5390242.804 +9.7892820835E-001 +4.1448473930E-003  +2.2933991568E-004 -1.1331815040E-004  +3.7446523493E-005 +2.8640354867E-004  +9.6491515636E-001 -3.4998282790E-003 
5515387.985 +9.8833626509E-001 +1.6475766897E-003  +3.5352905979E-004 +7.8063443652E-005  -5.0613662461E-004 -5.4166695918E-005  +9.6712452173E-001 -6.8477615714E-003 
5640533.166 +9.8747372627E-001 +4.0972903371E-003  +1.2232233712E-004 -1.0893415310E-004  -2.3915573547E-004 +2.2337073460E-004  +9.7347939014E-001 -1.0624386370E-002 
5765678.348 +9.8517727852E-001 -7.9710781574E-004  +1.4246364299E-004 -1.0396518519E-005  +3.2832467696E-004 +1.3540642976E-004  +9.7997659445E-001 -4.5721009374E-003 
5890823.529 +9.8811417818E-001 -1.6940087080E-003  +3.3481068385E-005 +2.6138310204E-004  -1.6677729491E-006 +4.6728710004E-005  +9.7281008959E-001 -7.0609748363E-003 
6015968.711 +9.8692411184E-001 -6.0855597258E-003  +1.0224569996E-004 -1.3151502935E-004  -1.5183151845E-005 -2.9933176120E-004  +9.7777271271E-001 -2.3776888847E-003 
6141113.892 +9.8887646198E-001 -6.0724616051E-003  +3.2410878339E-004 +1.8690715660E-004  +2.3655641417E-004 -1.3656253577E-004  +9.7342282534E-001 -7.2327330709E-003 
6266259.074 +9.8919487000E-001 -5.0106495619E-003  +1.8657196779E-004 -3.9557059063E-004  -1.4159560669E-004 -2.6020358200E-004  +9.7385799885E-001 -6.8985521793E-003 
6391404.255 +9.8826032877E-001 -1.4784216881E-002  +1.1554574303E-004 +4.2257524910E-005  +1.7103177379E-004 -2.8110455605E-004  +9.7560417652E-001 -1.2380644679E-002 
6516549.437 +9.8806023598E-001 -1.2701988220E-002  +1.7850157747E-004 +1.4897559595E-004  +1.0676783859E-004 +1.5315577912E-004  +9.7593760490E-001 -3.9184913039E-003 
6641694.618 +9.9154901505E-001 -8.1960856915E-003  +8.2266575191E-005 -3.5846082028E-004  -3.4751323983E-004 -2.8983631637E-004  +9.7730237246E-001 -4.3869614601E-003 
6766839.800 +1.0034235716E+000 -6.9655179977E-003  -4.4318989967E-004 -7.1205737186E-005  +3.0001837877E-004 -2.6151828934E-005  +9.7938615084E-001 -6.2669068575E-003 
6891984.981 +9.9425542355E-001 -1.4904215932E-002  +2.4389819009E-004 -1.4766678214E-004  -1.5627351240E-004 -2.5187034043E-004  +9.6974098682E-001 -6.3015520573E-003 
7017130.163 +9.9172681570E-001 -1.1725991964E-002  -9.2995942396E-005 +2.6151956990E-004  +1.7198876594E-004 -3.8775942812E-005  +9.7789686918E-001 -7.3249936104E-003 
7142275.344 +9.9486219883E-001 -5.2006691694E-003  +1.3497377222E-004 +1.1419638759E-004  +8.4809056716E-005 -9.5885785413E-005  +9.7685128450E-001 +1.4081746340E-003 
7267420.526 +9.9449497461E-001 -7.0456564426E-003  +8.0381832959E-005 -1.2066636555E-004  +1.5528031508E-004 +2.6777910534E-004  +9.8017001152E-001 +1.3862550259E-004 
7392565.707 +9.9422842264E-001 -5.5473744869E-003  +1.4903397823E-004 +1.6347100609E-004  -2.7623245842E-006 -8.4116909420E-005  +9.8263502121E-001 -4.6171993017E-003 
7517710.889 +9.9708718061E-001 -7.6216459274E-003  -1.6925872842E-005 -3.1203885555E-006  +1.4519142860E-004 -1.0710040806E-004  +9.7772496939E-001 -5.6122094393E-003 
7642856.070 +9.8992335796E-001 -4.8038363457E-003  +6.9689831435E-006 -1.7059540551E-004  +1.6921454517E-004 +5.2992789279E-005  +9.7701585293E-001 -8.1943422556E-003 
7768001.252 +9.9464488029E-001 -6.6351145506E-003  +2.6413940941E-004 -2.7353502810E-004  +9.8718053778E-005 -2.3399619386E-004  +9.7339248657E-001 -1.0038971901E-002 
7893146.433 +9.9635297060E-001 -4.8717856407E-003  -1.9170114683E-005 +1.3314539683E-004  -1.6128984498E-005 +4.5916047384E-005  +9.7333437204E-001 -2.6705563068E-003 
8018291.615 +9.9125361443E-001 -7.2659999132E-003  +4.5145960030E-005 +4.1420771595E-005  -8.2028644101E-005 +9.4621063909E-005  +9.7081124783E-001 -4.7698169947E-003 
8143436.796 +9.9090367556E-001 -6.3942968845E-003  +7.3853443610E-005 +5.9235979279E-005  -8.8258602773E-005 +5.2979703469E-005  +9.7246855497E-001 +2.7915984392E-003 
8268581.977 +9.8726773262E-001 -7.2433054447E-003  -1.8419974367E-004 +8.6849468062E-005  +3.4372678783E-005 -1.9295334641E-004  +9.7205650806E-001 +5.0613284111E-004 
8393727.159 +9.8980951309E-001 -1.2587755919E-002  +4.8650217650E-005 -6.1926366470E-006  +6.9387067924E-005 +1.6373755352E-004  +9.7507834435E-001 +1.8403530121E-003 
8518872.340 +9.8958688974E-001 -1.2208640575E-002  -8.1830345152E-005 +4.5954202506E-005  +4.3440817535E-005 -6.3827843405E-005  +9.7748976946E-001 +3.2429993153E-003 
8644017.522 +9.9162805080E-001 -6.9624483585E-003  -1.4732487034E-004 -8.3768660261E-005  -2.9641554647E-005 -6.2627965235E-005  +9.7835266590E-001 +3.4449398518E-003 
8769162.703 +9.9454128742E-001 -6.7302882671E-003  -1.0030016711E-004 -3.2167768950E-005  -7.8575074440E-005 +1.6353887622E-004  +9.7778981924E-001 +2.7505755424E-003 
8894307.885 +9.8774111271E-001 -7.1743726730E-003  -2.7262980439E-005 -1.3766561460E-004  -3.7368699850E-005 +6.6075459472E-005  +9.7450667620E-001 -1.9087493420E-003 
9019453.066 +9.9155968428E-001 -8.3737671375E-003  +4.2208765080E-005 +3.6564462789E-005  +8.0033041741E-006 -9.2170907010E-005  +9.7794246674E-001 +4.1010975838E-004 
9144598.248 +9.9076998234E-001 -8.3627104759E-003  -5.5715972849E-005 +7.6892814832E-005  +5.0350179663E-005 -3.8348101953E-005  +9.7653472424E-001 +3.8826465607E-004 
9269743.429 +9.8990589380E-001 -6.6810846329E-003  +8.0367492046E-005 -3.9344951801E-005  +5.3990039305E-005 +3.4458345908E-005  +9.7813570499E-001 +3.1167268753E-003 
9394888.611 +9.9151980877E-001 -2.9828846455E-003  -6.2818035076E-006 +9.2634581961E-005  +5.1859766245E-005 -3.5942062823E-005  +9.7770947218E-001 +7.8159570694E-004 
9520033.792 +9.9168682098E-001 -6.6140592098E-003  +5.3034742450E-005 +6.5412408730E-005  -8.4509927547E-005 +2.4128439691E-005  +9.7668772936E-001 +1.6720890999E-003 
9645178.974 +9.9370527267E-001 +1.7520785332E-004  -7.5141324487E-005 +7.7458753367E-006  -3.0035937016E-005 -5.9531044826E-005  +9.7729879618E-001 +3.4587085247E-003 
9770324.155 +9.8993021250E-001 -1.3176798820E-003  -2.7812839107E-005 +2.6331692425E-005  -8.7025771791E-005 +8.3425933553E-005  +9.7566437721E-001 +3.6985874176E-003 
9895469.337 +9.9104321003E-001 -1.3464391232E-003  -4.4083892135E-005 +1.3516983017E-004  -7.2357383033E-005 +1.4084631403E-005  +9.7664874792E-001 +4.8141479492E-003 
10020614.518 +9.9205178022E-001 +3.9204955101E-004  +5.8192832512E-005 -4.0073446144E-005  -8.2675527665E-005 +4.6391833166E-006  +9.7680723667E-001 +5.1816999912E-003 
10145759.700 +9.9226069450E-001 -8.9278817177E-004  -8.1103571574E-005 +5.0398979511E-005  +2.0677780412E-005 +9.8635886388E-005  +9.7668868303E-001 +3.0969083309E-003 
10270904.881 +9.9331480265E-001 -3.5400986671E-003  -3.4809043427E-005 -2.8097645554E-005  -4.6009045036E-005 +3.2706127968E-005  +9.8013007641E-001 +4.1828751564E-003 
10396050.063 +9.8963451385E-001 -1.0221600533E-003  -5.9344438341E-006 -2.5048742827E-005  +2.9125167202E-005 +8.4158309619E-005  +9.7820562124E-001 +4.2499899864E-003 
10521195.244 +9.9235272408E-001 -3.8707256317E-004  -4.0097744204E-005 +7.8839519119E-005  -8.2470040070E-005 +6.9664325565E-005  +9.8012161255E-001 +5.4239034653E-003 
10646340.426 +9.9082952738E-001 -9.3755125999E-004  +7.4780968134E-005 +1.7276042490E-004  -3.3463475120E-005 +1.1912988703E-004  +9.7868883610E-001 +7.5723528862E-003 
10771485.607 +9.9290168285E-001 -1.2191832066E-003  -1.7903432308E-005 +2.8478931199E-005  -5.2618215705E-005 +2.9432805604E-005  +9.8062443733E-001 +7.9277753830E-003 
10896630.788 +9.9168086052E-001 +2.6261806488E-004  +3.3895816159E-005 -4.5526237955E-005  -4.9311984185E-005 +3.8153695641E-005  +9.8010122776E-001 +8.2048177719E-003 
11021775.970 +9.9034869671E-001 +7.4827671051E-004  -2.2311591238E-005 -3.1830611988E-005  +6.6907596192E-006 +9.4017552328E-005  +9.8143684864E-001 +7.7918767929E-003 
11146921.151 +9.9147021770E-001 -5.2896142006E-004  +6.1660037318E-005 +3.4449993109E-005  +7.3977447755E-005 +3.9356818888E-005  +9.8035264015E-001 +8.5033476353E-003 
11272066.333 +9.9117851257E-001 -1.1566281319E-003  -4.0859580622E-005 +4.6087625378E-005  -2.7329646400E-005 +1.4039450434E-005  +9.8014569283E-001 +7.0567429066E-003 
11397211.514 +9.9330151081E-001 +8.8259577751E-004  -4.8555233661E-005 +3.0533519748E-005  +3.3931555663E-005 -6.1295686464E-006  +9.8163414001E-001 +8.1501305103E-003 
11522356.696 +9.9262917042E-001 +1.1516213417E-003  +6.5680087573E-006 +3.6203200580E-006  -1.5914938558E-005 -1.7536853193E-005  +9.8424851894E-001 +8.0417990685E-003 
11647501.877 +9.9178314209E-001 +1.1155009270E-003  +5.1020666433E-005 +7.1300746640E-005  -3.9898415707E-005 +8.6300960902E-006  +9.8090767860E-001 +8.1605613232E-003 
11772647.059 +9.9299693108E-001 +2.2469758987E-003  +4.9453014071E-005 +8.5366395069E-005  +2.2416802494E-006 -4.4789321691E-006  +9.8209732771E-001 +7.9885721207E-003 
11897792.240 +9.9247497320E-001 +2.2510290146E-003  +6.3180359575E-006 +1.5941639504E-005  -2.2698306566E-005 +3.6056244426E-005  +9.8350906372E-001 +8.9204609394E-003 
12022937.422 +9.9433952570E-001 +3.7742853165E-003  +1.6926604076E-005 +5.2698105719E-005  -1.9143726604E-006 +2.1805764845E-005  +9.8188030720E-001 +7.4361562729E-003 
12148082.603 +9.9459099770E-001 +2.9609799385E-003  +4.7982481192E-005 +5.5350421462E-005  -2.9347902455E-005 +4.4512660679E-005  +9.8420333862E-001 +9.5138847828E-003 
12273227.785 +9.9401807785E-001 +3.9857625961E-003  +5.7315875893E-005 -9.8242562672E-006  -4.1866271204E-005 -1.5776759028E-006  +9.8411929607E-001 +8.8460445404E-003 
12398372.966 +9.9383211136E-001 +3.4426450729E-003  +1.1922966223E-005 +1.5916750272E-005  +4.7053881644E-006 -1.8028295017E-005  +9.8581308126E-001 +8.7586343288E-003 
12523518.148 +9.9287700653E-001 +3.5993754864E-003  -3.9075111999E-005 +1.3272740034E-005  -1.0284695236E-005 +2.3743700694E-006  +9.8373019695E-001 +8.0693066120E-003 
12648663.329 +9.9414479733E-001 +4.8912316561E-003  -1.5192255887E-005 +6.8684603320E-005  +1.2142411833E-005 +5.7078843383E-005  +9.8528236151E-001 +8.6224377155E-003 
12773808.511 +9.9324446917E-001 +3.0950456858E-003  -1.8316031856E-006 +4.4329837692E-005  -3.9931226638E-005 +4.5271677664E-005  +9.8558944464E-001 +8.0328285694E-003 
12898953.692 +9.9520498514E-001 +3.0898749828E-003  -1.8456928956E-005 -1.7093274437E-005  +7.7052618508E-006 +3.2401367207E-006  +9.8508709669E-001 +7.7427029610E-003 
13024098.874 +9.9474936724E-001 +5.0068944693E-003  -1.3217148989E-005 +4.4036551117E-005  -4.3527511480E-006 +2.7341151508E-005  +9.8608303070E-001 +1.0313466191E-002 
13149244.055 +9.9481242895E-001 +4.8125013709E-003  +1.3833603134E-006 +3.9749520511E-005  -1.3266744645E-005 +9.0142610134E-005  +9.8584091663E-001 +1.0024119169E-002 
13274389.237 +9.9501144886E-001 +3.3215768635E-003  +1.8228296540E-005 +2.9327704397E-005  -1.6672331185E-005 -3.2055213524E-006  +9.8669153452E-001 +9.6794180572E-003 
13399534.418 +9.9472028017E-001 +3.5167410970E-003  +3.3237483876E-005 +3.0029175832E-005  -1.0194997230E-005 +5.6402448536E-005  +9.8625206947E-001 +1.0145507753E-002 
13524679.599 +9.9444311857E-001 +5.1139146090E-003  -5.1919305406E-006 +7.7657939983E-005  -1.0875422959E-005 +3.8546459109E-005  +9.8755866289E-001 +1.0739624500E-002 
13649824.781 +9.9552291632E-001 +4.1853785515E-003  -1.4420029402E-005 +5.0034373999E-005  -4.2490235501E-005 +5.3882220527E-005  +9.8803991079E-001 +1.0255441070E-002 
13774969.962 +9.9438214302E-001 +4.6675205231E-003  -2.3340056941E-005 +4.2165862396E-005  -3.4686079744E-005 +3.7683650589E-005  +9.8686194420E-001 +9.7719728947E-003 
13900115.144 +9.9530160427E-001 +5.0744414330E-003  -1.6841511751E-005 +2.9068927688E-005  +3.9035658119E-005 +4.3743537390E-005  +9.8703730106E-001 +1.0185033083E-002 
14025260.325 +9.9406015873E-001 +4.6209394932E-003  +4.2903171561E-005 +3.3985896152E-005  -1.0482715879E-005 +6.7007160396E-005  +9.8731571436E-001 +1.0266423225E-002 
14150405.507 +9.9522912502E-001 +4.7185122967E-003  +3.4328120819E-005 +5.4943127907E-005  +6.8716872192E-006 +7.6895346865E-005  +9.8744547367E-001 +1.0576546192E-002 
14275550.688 +9.9541819096E-001 +4.8246681690E-003  +5.6482713262E-006 +4.7320500016E-005  +2.9774038921E-005 +8.0998375779E-005  +9.8799657822E-001 +9.5391869545E-003 
14400695.870 +9.9412667751E-001 +3.9437711239E-003  -2.2622407414E-005 +6.5296735556E-005  +3.0759754736E-005 +7.3195158620E-005  +9.8795104027E-001 +1.0427653790E-002 
