!  2-Port S-parameters saved by WinCal
! VAR MeasName=S-Parameters (CALIBRATED_DATA) read from VNA (P5004A)
! VAR MeasDate=22/05/2024 20:30:20
! VAR NAME=Wafer3_r2_c4_pristine 3
! VAR FILENAME=Wafer3_r2_c4_pristine 3.S2P
! VAR DATE=22/05/2024 20:30:21
! VAR PHYS_PORTS=1,2
! VAR ObjTypeName=DATASET
! VAR IndexType=Frequency
!
# Hz S RI R 50
9000.000 +2.1456617117E-001 -6.0252606869E-001  +2.2750319913E-003 +4.0608923882E-003  -1.2515865965E-003 -1.3785685878E-003  +3.8400884718E-002 +1.0389587283E-001 
134145.181 +6.1459124088E-001 +2.1767906845E-002  -2.4853115901E-002 +2.2738216445E-002  -2.7037642896E-002 -3.4490325488E-003  +5.9659147263E-001 -5.1244363189E-002 
259290.363 +8.6740326881E-001 -1.1828055233E-001  -1.1230995879E-003 +5.7104736334E-004  -6.3282204792E-006 +7.0894593373E-003  +9.6991550922E-001 -1.2088751048E-001 
384435.544 +9.0336000919E-001 -2.9543194175E-001  +1.1348936241E-003 +1.0840469040E-003  +1.5367706073E-003 -1.7806529067E-003  +1.0644682646E+000 -1.8991760910E-001 
509580.726 +9.5384359360E-001 -1.4994618297E-001  -1.2465687178E-004 -4.3568902765E-004  -8.3725142758E-004 -9.4594317488E-005  +1.0396696329E+000 -8.2183957100E-002 
634725.907 +1.0968508720E+000 -2.0500445366E-001  +5.8278237702E-004 +2.7116492856E-004  +1.2564524077E-003 -6.0618913267E-004  +1.1177755594E+000 -7.3820888996E-002 
759871.089 +1.2947024107E+000 -6.3564926386E-002  -9.6476411272E-005 +8.2452308561E-005  -4.6123442007E-004 -6.9823676313E-005  +1.1855484247E+000 +6.5512061119E-003 
885016.270 +1.0827336311E+000 -1.1415027380E+000  -3.8074282929E-003 +1.4901729301E-003  -4.1617145762E-003 +6.6318572499E-004  +1.3518365622E+000 +4.1185438633E-002 
1010161.452 +1.0879427195E+000 -3.7833273411E-002  +2.9304572381E-003 -5.1698866300E-003  +5.4088463075E-003 +4.5866137370E-003  +5.4294282198E-001 -1.2130716443E-001 
1135306.633 +1.0990033150E+000 +3.0328035355E-003  -2.4120591115E-004 +9.6383492928E-004  +1.9431684632E-003 +8.0451415852E-004  +9.4580966234E-001 +4.9807518721E-002 
1260451.815 +1.4068794250E+000 -1.3608455658E-002  +4.0404978790E-004 -4.5706558740E-004  -1.3229419710E-004 +1.9600188825E-003  +1.0494779348E+000 +1.4182153344E-001 
1385596.996 +1.3045983315E+000 -1.2671127915E-001  +2.9851682484E-004 -1.4656372368E-003  -8.2465744345E-004 -2.4117296562E-005  +1.1530553102E+000 +9.8637342453E-002 
1510742.178 +1.4515402317E+000 -2.2047626972E-001  -3.1617155764E-004 +9.5546967350E-004  +2.1754226182E-003 -1.6010811087E-003  +1.3661917448E+000 +1.7647162080E-001 
1635887.359 +9.9217361212E-001 -3.3976048231E-001  +1.0355901904E-003 +5.3281080909E-004  -7.2537275264E-004 -2.6835018070E-004  +1.0836495161E+000 -1.9964404404E-001 
1761032.541 +1.0429524183E+000 -3.6840733886E-001  -2.5711725466E-003 +1.0030390695E-004  -4.1568558663E-004 -8.0642936518E-004  +1.0643248558E+000 -1.7712745070E-001 
1886177.722 +9.7923338413E-001 -2.0906457305E-001  +1.0305766482E-003 -7.8254763503E-004  -1.0218101088E-003 -2.8584405663E-004  +1.0165138245E+000 -8.4146916866E-002 
2011322.904 +9.7930777073E-001 -1.4663794637E-001  +6.5488496330E-004 +1.4100049157E-005  +3.5548757296E-004 +2.2596205235E-004  +1.0223169327E+000 -3.9143681526E-002 
2136468.085 +9.9331706762E-001 -1.2172827125E-001  +4.2900377593E-005 +1.4414585894E-004  +2.7528032660E-005 -5.2680447698E-004  +1.0161902905E+000 -1.7915278673E-002 
2261613.267 +9.8913621902E-001 -1.0195338726E-001  +2.9695342528E-004 +6.9922173861E-004  -4.6109675895E-004 -2.0581674471E-004  +1.0174331665E+000 -7.9660713673E-003 
2386758.448 +9.8892426491E-001 -8.3117663860E-002  -4.4552863983E-005 +2.2456628358E-005  +5.9220328694E-005 +6.5131527663E-005  +1.0134251118E+000 +1.4552503824E-002 
2511903.630 +9.7905504704E-001 -4.8259079456E-002  +5.2318867529E-004 -2.5716752862E-004  -1.7001823289E-004 -2.6171834907E-004  +1.0025558472E+000 +3.5007387400E-002 
2637048.811 +9.8577111959E-001 -4.8544913530E-002  -1.8479286518E-004 +1.2663076632E-006  +3.0121291638E-004 -9.8125892691E-006  +1.0131423473E+000 +4.5353978872E-002 
2762193.992 +9.9986553192E-001 -3.7302941084E-002  -6.8996945629E-005 +4.1211553616E-004  +1.5326929861E-004 +3.4639128717E-004  +1.0141482353E+000 +6.1050541699E-002 
2887339.174 +9.7874969244E-001 -3.4060150385E-002  -4.0191813605E-004 -2.5708516478E-004  +3.4577472252E-004 +5.2426289767E-004  +1.0215605497E+000 +7.4299931526E-002 
3012484.355 +9.7903269529E-001 -1.5977434814E-002  -3.0670818524E-004 +3.4894191776E-004  -3.4709885949E-004 -4.1341996985E-004  +1.0255106688E+000 +1.0064560175E-001 
3137629.537 +9.7479248047E-001 +1.9287347794E-002  +2.8948858380E-004 -6.4024375752E-004  +5.2658363711E-004 -2.2152179736E-004  +1.0265738964E+000 +1.0848397017E-001 
3262774.718 +9.6915113926E-001 +4.6080641448E-002  +2.9010791332E-004 +2.8802201268E-004  +2.3255751876E-004 +7.3034007801E-004  +1.0349721909E+000 +1.3156819344E-001 
3387919.900 +9.6335703135E-001 +7.0340409875E-002  -5.8425124735E-004 -1.6575277550E-004  -3.5619304981E-004 -3.7405223702E-004  +1.0385096073E+000 +1.4647066593E-001 
3513065.081 +9.7413319349E-001 +9.2843078077E-002  +5.1682442427E-004 +1.9417540170E-004  +2.7038701228E-004 -2.8783026210E-005  +1.0556644201E+000 +1.7666712403E-001 
3638210.263 +9.9665743113E-001 +1.2297134101E-001  -8.6987529357E-005 +4.4645162416E-004  +3.8659031270E-004 -4.2240254697E-004  +1.0775821209E+000 +1.9440656900E-001 
3763355.444 +1.0129158497E+000 +1.4202222228E-001  -4.1460711509E-004 -1.7227968783E-004  +3.0189770041E-004 +2.4179597676E-004  +1.0977078676E+000 +1.8050777912E-001 
3888500.626 +1.0301046371E+000 +1.5962029994E-001  -3.4041921026E-005 +8.7504100520E-005  +3.2182037830E-004 -3.6867699237E-004  +1.1232553720E+000 +2.0666724443E-001 
4013645.807 +9.8429858685E-001 +7.7603146434E-002  +5.9323578171E-005 -1.7210608348E-005  -4.0492293192E-004 -4.9720756942E-004  +1.0845417976E+000 +8.8307037950E-002 
4138790.989 +9.2665082216E-001 -8.7798014283E-003  +3.2846396789E-004 -3.5588859464E-004  -7.4206013232E-004 -4.9525179202E-004  +1.0034489632E+000 +1.2751109898E-003 
4263936.170 +9.2293792963E-001 +2.7659311891E-003  +4.8915022489E-005 -1.5861927750E-005  +2.1489024221E-004 -8.0449605593E-004  +1.0023655891E+000 -1.0329822078E-002 
4389081.352 +9.3468528986E-001 +4.2337588966E-003  +3.6043048021E-004 -1.1038599769E-004  -2.5695207296E-004 +1.0973812459E-004  +9.9782598019E-001 -9.3578062952E-003 
4514226.533 +9.4557440281E-001 +1.0661518201E-002  -3.1456403667E-004 +8.0019330198E-005  +2.2229208844E-004 +4.7663834994E-004  +1.0016825199E+000 -3.1733490527E-002 
4639371.715 +9.5563977957E-001 +5.3596077487E-003  -8.3067869127E-005 +2.6802072534E-004  -1.3623296400E-004 +5.7532836217E-004  +1.0124473572E+000 -2.4291675538E-002 
4764516.896 +9.5475280285E-001 +3.8326587528E-003  +3.7612317828E-004 +3.9803191612E-005  -4.7905099927E-004 -5.0642964197E-005  +1.0048905611E+000 -3.3692236990E-002 
4889662.078 +9.6669799089E-001 +1.8140722066E-002  -2.5457402808E-004 +1.8466729671E-004  -2.7358222724E-005 +1.3446129742E-004  +1.0068047047E+000 -2.8527678922E-002 
5014807.259 +9.5475977659E-001 +1.2113714591E-002  -6.3739338657E-004 +1.4496908989E-004  -3.0642197817E-004 +1.2251173030E-004  +9.9808496237E-001 -2.4611052126E-002 
5139952.441 +9.6564501524E-001 +6.5288804471E-003  -3.8700405275E-004 +9.4613773399E-005  +4.3952954002E-004 +1.2368160242E-005  +1.0041985512E+000 -3.3362504095E-002 
5265097.622 +9.7459077835E-001 +2.0997542888E-002  +2.7804728597E-004 +3.5743016633E-004  +4.7397176968E-004 -3.5046497942E-004  +9.9647569656E-001 -3.8066692650E-002 
5390242.804 +9.7693973780E-001 +1.2391969562E-002  +4.2882291018E-004 -1.4286543592E-004  -6.7766290158E-005 -1.7142509751E-004  +9.9276673794E-001 -3.0123621225E-002 
5515387.985 +9.8680686951E-001 +8.3323568106E-003  +1.3310204668E-004 -9.9357763247E-005  -5.8248158894E-005 +8.8440225227E-005  +9.9938309193E-001 -3.9135903120E-002 
5640533.166 +9.8491579294E-001 +8.2059949636E-004  -2.3406741093E-004 +2.0834148745E-004  -9.2904381745E-005 -3.1552546716E-005  +9.9522107840E-001 -3.5377651453E-002 
5765678.348 +9.8373067379E-001 +4.9446076155E-003  -2.2559327772E-004 +1.5462099691E-004  +1.6498634068E-004 -3.1705157016E-004  +9.9644154310E-001 -4.0349110961E-002 
5890823.529 +9.8745191097E-001 -1.8849074841E-003  -1.0141047824E-004 +2.9882151284E-004  -1.2900230649E-004 +2.9314422864E-004  +9.9079436064E-001 -3.9199791849E-002 
6015968.711 +9.9290752411E-001 -5.1119476557E-003  +1.4049174206E-004 -3.9536767872E-005  -2.0942041010E-004 -2.3934664569E-005  +1.0003632307E+000 -2.9873088002E-002 
6141113.892 +9.8852038383E-001 -7.5545161963E-004  -2.9153667856E-004 +4.4483583770E-004  +9.0123903647E-005 -3.6967969208E-005  +9.8918813467E-001 -3.1751066446E-002 
6266259.074 +9.8836272955E-001 -1.4670565724E-003  +2.5219563395E-004 +2.1810027829E-004  -1.3921527716E-004 -2.1071246010E-004  +9.8606812954E-001 -3.2980561256E-002 
6391404.255 +9.8998016119E-001 -1.2330777943E-002  -5.2501276514E-005 +1.2065131159E-004  -3.5549665336E-004 +2.3832509760E-004  +9.8746061325E-001 -3.4858107567E-002 
6516549.437 +9.8786371946E-001 -9.0338513255E-003  -3.3572697430E-004 -2.1768985607E-004  +4.8364620307E-004 +1.4209462097E-004  +9.8558354378E-001 -2.4254530668E-002 
6641694.618 +9.9655300379E-001 -7.0402622223E-003  +3.1733066862E-005 +9.7774835012E-005  +1.9915835583E-004 +4.3733324856E-004  +9.8437273502E-001 -2.4001657963E-002 
6766839.800 +1.0010244846E+000 -8.4153711796E-003  +2.5137732155E-004 -1.3676348317E-005  +4.8480869737E-005 +1.4691423530E-005  +9.8725527525E-001 -3.7254825234E-002 
6891984.981 +9.9549514055E-001 -9.7637623549E-003  +7.1691130870E-005 +3.1512754504E-004  -6.6779051849E-005 -8.0698846432E-006  +9.7777885199E-001 -2.7611866593E-002 
7017130.163 +9.9408698082E-001 -9.0317726135E-003  +1.7040492094E-004 +5.7464902056E-005  +1.7083455168E-004 -2.3351646087E-004  +9.8509764671E-001 -2.3696586490E-002 
7142275.344 +9.9867790937E-001 -1.6169399023E-003  +2.8364383616E-004 -1.1535032536E-004  -1.5333131887E-004 +1.2356869411E-004  +9.8269569874E-001 -2.0370617509E-002 
7267420.526 +9.9407798052E-001 -1.8548965454E-003  +9.4732662546E-005 -6.5748346969E-005  -6.9338129833E-005 -1.0380393360E-004  +9.8007065058E-001 -1.5417098999E-002 
7392565.707 +9.9605631828E-001 +1.0230690241E-003  +3.5006023245E-004 +3.8334506826E-005  +1.2083481124E-004 -1.0554571418E-005  +9.7980630398E-001 -2.2241309285E-002 
7517710.889 +9.9917870760E-001 -6.6101551056E-003  +1.0181029211E-006 +2.3558101384E-004  -5.0491398724E-006 -6.5549756982E-005  +9.7908765078E-001 -2.4985522032E-002 
7642856.070 +9.9332767725E-001 -3.0331909657E-003  +1.1266905494E-004 +9.2616188340E-005  -2.2588497086E-004 +1.8400601402E-004  +9.7436296940E-001 -2.3124486208E-002 
7768001.252 +9.9860584736E-001 -1.2511759996E-003  -7.3117029388E-005 -1.1905242900E-005  +2.3087166483E-004 +5.2808936744E-005  +9.7440999746E-001 -2.2788017988E-002 
7893146.433 +9.9954223633E-001 -2.9177963734E-003  +3.8850645069E-005 +1.6133821919E-004  -1.8926210032E-005 -1.2860023708E-004  +9.7660911083E-001 -1.4260053635E-002 
8018291.615 +9.9186742306E-001 -5.6772977114E-003  -6.0531292547E-005 +1.9011608674E-004  -7.1457856393E-005 -9.3081680461E-006  +9.7331851721E-001 -1.7842844129E-002 
8143436.796 +9.9181777239E-001 -7.7344626188E-003  -7.8810502600E-005 -9.4166225608E-006  +1.7546732124E-005 -5.1635608543E-005  +9.7366774082E-001 -9.6264928579E-003 
8268581.977 +9.9028533697E-001 -6.3018202782E-003  +7.9743927927E-005 +2.2788450224E-005  -1.0206035950E-004 -1.2997051817E-004  +9.7548639774E-001 -1.0729134083E-002 
8393727.159 +9.9230206013E-001 -8.4781348705E-003  -2.4564238265E-004 +5.5748387240E-007  +2.4897703042E-005 -6.8749272032E-005  +9.7587454319E-001 -9.2895925045E-003 
8518872.340 +9.9238049984E-001 -8.6634755135E-003  -2.0998166292E-005 -1.2842840988E-005  +1.7263463815E-004 -1.7847973504E-004  +9.7615516186E-001 -6.8566501141E-003 
8644017.522 +9.9138522148E-001 -2.8053224087E-003  -7.9197219748E-005 -5.5942706240E-005  +2.5870735408E-004 -3.1918971217E-005  +9.7604644299E-001 -5.5801272392E-003 
8769162.703 +9.9702787399E-001 -2.2087395191E-003  +1.2499478180E-004 -1.9798957510E-004  +3.2220734283E-005 -5.8221263316E-005  +9.7800374031E-001 -8.9830756187E-003 
8894307.885 +9.9131888151E-001 -4.3260157108E-003  -1.9178618095E-004 -1.9060775230E-005  -2.0331509586E-004 -7.1229987952E-005  +9.7513902187E-001 -1.0101288557E-002 
9019453.066 +9.9255341291E-001 -8.2867145538E-003  +8.3497907326E-005 -8.0622812675E-005  -2.5952638680E-005 +5.4368723795E-005  +9.7776138783E-001 -8.5745453835E-003 
9144598.248 +9.9170279503E-001 -7.2662532330E-003  -1.1973043001E-005 -4.9246402341E-005  +7.5933145126E-005 +1.4532060595E-004  +9.7487825155E-001 -6.9881677628E-003 
9269743.429 +9.9191665649E-001 -7.2738230228E-003  +6.9150046329E-006 -4.1730676458E-005  +1.4250405911E-005 +2.0795632736E-005  +9.7878485918E-001 -1.9125640392E-003 
9394888.611 +9.9271154404E-001 -2.1638870239E-003  -9.2203772510E-005 +3.3915901440E-005  -4.7688412451E-005 -4.6934601414E-005  +9.7585606575E-001 -5.3189396858E-003 
9520033.792 +9.9296009541E-001 -8.8428854942E-003  -6.4622792706E-005 +9.6909083368E-005  -1.2648338452E-004 +6.2310136855E-006  +9.7652536631E-001 -2.3779571056E-003 
9645178.974 +9.9389857054E-001 -6.1246454716E-003  -4.8856629292E-005 -1.0942011431E-004  -1.5714576875E-006 +1.4402845409E-004  +9.7602254152E-001 -2.9529929161E-003 
9770324.155 +9.9364918470E-001 -7.9661607742E-004  -6.7786597356E-005 +1.0762537568E-004  -4.5595501433E-005 +3.7246918509E-005  +9.7424721718E-001 -1.1426508427E-003 
9895469.337 +9.9434667826E-001 -8.6122751236E-004  +3.7501282350E-005 +2.4227392714E-005  -7.0612535637E-005 -5.5690918089E-005  +9.7366690636E-001 +5.9136748314E-004 
10020614.518 +9.9363470078E-001 +1.4603137970E-003  +2.6736106520E-005 +4.0663191612E-005  -6.3448736910E-005 +4.1954481276E-006  +9.7656852007E-001 +1.4182925224E-003 
10145759.700 +9.9361443520E-001 -1.6884803772E-003  +1.7956666852E-005 +1.0838425078E-004  -5.0939808716E-005 +1.6941943613E-005  +9.7714304924E-001 -5.6663155556E-004 
10270904.881 +9.9478971958E-001 -1.6391873360E-003  +2.2993801394E-005 -4.5495900849E-005  +5.1320334933E-006 +5.8420682763E-006  +9.7943758965E-001 +4.3469667435E-004 
10396050.063 +9.9381637573E-001 -1.7542839050E-003  -2.4464179660E-005 +3.0197164961E-005  -6.1079830630E-005 -8.3076247392E-006  +9.7676491737E-001 +1.5602409840E-003 
10521195.244 +9.9417412281E-001 +1.2536644936E-003  -3.9183192712E-005 -6.0230762756E-005  -3.2156760426E-005 +8.4758685261E-005  +9.7967720032E-001 +1.4760196209E-003 
10646340.426 +9.9235379696E-001 -1.6087591648E-003  -1.1033599731E-004 +1.0823756747E-004  -1.9937568140E-005 -2.0877450879E-007  +9.7696650028E-001 +5.1327347755E-003 
10771485.607 +9.9142926931E-001 -2.0063817501E-003  -1.6586087440E-005 +5.6496835896E-005  +1.2619428162E-005 -5.9945987232E-006  +9.7925794125E-001 +5.9463977814E-003 
10896630.788 +9.9261379242E-001 +9.2950463295E-004  -4.4729695219E-005 +5.9250825871E-005  -8.3515406004E-006 +1.0447355453E-004  +9.7954893112E-001 +4.9035549164E-003 
11021775.970 +9.9257588387E-001 +1.8079578876E-003  -4.3539657781E-005 +8.4109407908E-005  -7.2600181738E-005 +8.6504296632E-005  +9.7989135981E-001 +6.2253177166E-003 
11146921.151 +9.9420458078E-001 -3.4585595131E-004  -1.9448867533E-005 +3.4576092730E-005  +2.2443220587E-005 +5.9138943470E-005  +9.8050653934E-001 +6.4685046673E-003 
11272066.333 +9.9084019661E-001 +6.0051679611E-005  -4.4952663302E-005 +1.1011066090E-004  -6.7830580520E-005 -2.2060416086E-005  +9.8034262657E-001 +6.3474178314E-003 
11397211.514 +9.9372470379E-001 +1.0404884815E-003  -6.1471197114E-005 +1.0286712495E-005  +4.4510634325E-006 +1.8720831577E-005  +9.8057478666E-001 +5.3391158581E-003 
11522356.696 +9.9369180202E-001 +2.2649765015E-005  -2.2812477255E-005 -1.0814612324E-005  +5.5009008065E-005 +7.9908917542E-005  +9.8131632805E-001 +5.3904056549E-003 
11647501.877 +9.9227225780E-001 -6.3717365265E-005  +4.8029480240E-005 +1.1314969743E-004  +7.2397640906E-005 +2.6092156986E-005  +9.8132073879E-001 +6.3373744488E-003 
11772647.059 +9.9372971058E-001 +2.0089745522E-003  -1.8014165107E-005 -1.2715738194E-005  -5.2167983085E-005 -2.9747854569E-005  +9.8215943575E-001 +6.2950849533E-003 
11897792.240 +9.9305772781E-001 +2.7767717838E-003  +5.6062290241E-006 +4.8618192523E-005  -1.9443909878E-006 -5.7184661273E-006  +9.8214656115E-001 +5.9669613838E-003 
12022937.422 +9.9458539486E-001 +4.4138729572E-003  +1.4751327399E-005 +2.8410500818E-005  -9.9845983641E-006 -3.7847842123E-006  +9.8181301355E-001 +5.1471590996E-003 
12148082.603 +9.9402904510E-001 +3.1906068325E-003  -1.5853351215E-005 -2.3101194529E-005  +2.0288158339E-005 -5.6828663219E-005  +9.8287987709E-001 +7.3609352112E-003 
12273227.785 +9.9503183365E-001 +4.5727789402E-003  -1.0602698239E-006 +3.5947639844E-005  -8.0309411032E-007 -1.9089225134E-006  +9.8339033127E-001 +8.0331265926E-003 
12398372.966 +9.9465340376E-001 +4.8198997974E-003  +3.9097889385E-005 +4.2742511141E-005  +1.1597462617E-005 +1.1424866898E-005  +9.8514753580E-001 +7.0001184940E-003 
12523518.148 +9.9441593885E-001 +4.0425956249E-003  -1.6372718164E-005 -1.7580492568E-005  +4.3554305194E-006 +2.6855208489E-005  +9.8311388493E-001 +7.2475075722E-003 
12648663.329 +9.9449324608E-001 +5.5572092533E-003  -1.8331138563E-005 +7.3380913818E-005  +8.3511777120E-006 +5.9077163314E-005  +9.8374068737E-001 +7.8470110893E-003 
12773808.511 +9.9452209473E-001 +3.4153759480E-003  -1.9717494069E-005 +2.3052332836E-005  +3.6808269215E-005 +7.0132780820E-005  +9.8477673531E-001 +7.7151358128E-003 
12898953.692 +9.9461740255E-001 +3.5101324320E-003  -6.8326025939E-006 +8.2883598225E-006  +5.1534465456E-005 +2.1746751372E-005  +9.8512297869E-001 +5.6677982211E-003 
13024098.874 +9.9458384514E-001 +4.5067965984E-003  -1.5028232156E-005 -2.2753256417E-006  +2.2133004677E-005 +5.9690944909E-005  +9.8527741432E-001 +7.7552869916E-003 
13149244.055 +9.9504882097E-001 +5.6057851762E-003  -3.9366055717E-005 +3.4201068047E-005  -3.6499266571E-005 +8.2098489429E-007  +9.8560625315E-001 +7.7246073633E-003 
13274389.237 +9.9470800161E-001 +3.3186376095E-003  -1.0032715181E-005 +2.2920923584E-005  -2.5349407224E-005 +3.6276807805E-005  +9.8673522472E-001 +7.9175531864E-003 
13399534.418 +9.9568039179E-001 +4.6776533127E-003  +2.0617517293E-006 +1.0702847248E-006  -7.3721148510E-006 +1.1592071132E-005  +9.8634070158E-001 +8.3407610655E-003 
13524679.599 +9.9446660280E-001 +6.1605572701E-003  +2.2268432076E-007 +3.9581591409E-005  -2.9402013752E-005 +3.0475757740E-005  +9.8699545860E-001 +9.0887472034E-003 
13649824.781 +9.9562293291E-001 +4.8519074917E-003  -1.3533436686E-005 -1.9259721739E-005  -1.1060887118E-005 +3.2111827750E-005  +9.8851317167E-001 +8.2577168941E-003 
13774969.962 +9.9533683062E-001 +5.6230425835E-003  -3.1779156416E-005 +5.4555999668E-005  -3.2496081985E-005 +7.1414782724E-005  +9.8767399788E-001 +7.3566436768E-003 
13900115.144 +9.9624460936E-001 +5.9095919132E-003  -3.2566586015E-005 +1.7900332750E-005  +1.5519875888E-005 -1.7402922822E-005  +9.8641854525E-001 +7.5229406357E-003 
14025260.325 +9.9499905109E-001 +6.0833096504E-003  -1.6614751075E-005 +3.9405163989E-005  +4.8095236707E-005 +2.0526318622E-005  +9.8781168461E-001 +8.3810985088E-003 
14150405.507 +9.9512857199E-001 +6.4609646797E-003  +5.1688475651E-005 +4.0547340177E-005  +4.9273206969E-005 +6.3770392444E-005  +9.8713445663E-001 +8.4233283997E-003 
14275550.688 +9.9569749832E-001 +4.7557950020E-003  +6.7101445893E-006 +2.3349990443E-005  -3.2318148442E-006 +4.7570374591E-005  +9.8813682795E-001 +8.8025629520E-003 
14400695.870 +9.9475830793E-001 +5.0865411758E-003  -7.8855300671E-006 +5.4542611906E-005  +4.5913784561E-006 +7.1441696491E-005  +9.8752599955E-001 +9.5178782940E-003 
