!  2-Port S-parameters saved by WinCal
! VAR MeasName=S-Parameters (CALIBRATED_DATA) read from VNA (P5004A)
! VAR MeasDate=22/05/2024 20:56:53
! VAR NAME=Wafer3_r3_c4_short
! VAR FILENAME=Wafer3_r3_c4_short.S2P
! VAR DATE=22/05/2024 20:56:53
! VAR PHYS_PORTS=1,2
! VAR ObjTypeName=DATASET
! VAR IndexType=Frequency
!
# Hz S RI R 50
9000.000 +2.0214298368E-001 -6.0086119175E-001  -1.2995181605E-003 +3.6604183260E-003  +1.2842868455E-003 -3.4309132025E-004  +3.9962932467E-002 +1.0463769734E-001 
134145.181 +4.4488674402E-001 -8.1323400140E-002  -1.4187963679E-002 +9.5172859728E-003  +7.8478930518E-003 -2.5534247980E-003  +3.1650507450E-001 -2.3061740398E-001 
259290.363 +5.8614224195E-001 +5.2588328719E-002  -7.9406518489E-004 +1.6863051802E-002  -3.2766324002E-003 +4.1277892888E-004  +6.9088518620E-001 -3.1097090244E-001 
384435.544 +6.4579033852E-001 -1.5486900508E-001  +8.2621257752E-003 +3.5370662808E-003  +2.8455890715E-002 +1.2124945410E-002  +5.3090214729E-001 -2.9593521357E-001 
509580.726 +7.5414884090E-001 -4.8608034849E-002  +2.1620800253E-003 -7.4828262441E-003  +2.3440099321E-003 -4.0108576650E-004  +7.3771435022E-001 -2.1344181895E-001 
634725.907 +9.8409676552E-001 -2.0408095419E-001  +1.4185215114E-003 +2.2648051381E-003  +3.9364671102E-004 -1.3656672090E-003  +9.8988014460E-001 -1.9674569368E-001 
759871.089 +1.4420402050E+000 -1.5901333094E-001  -1.0959170759E-003 +5.3085369291E-004  -1.4176722616E-003 +2.2354733665E-004  +1.3994692564E+000 +2.4970203638E-002 
885016.270 +2.8854880333E+000 -2.2134792805E-001  -6.5530743450E-004 -2.9338493478E-003  +1.7381701036E-004 -8.6274754722E-004  +1.4088571072E+000 +3.7107229233E-001 
1010161.452 +9.5999920368E-001 -1.5797846317E+000  -1.0419732425E-003 +4.2863343842E-003  +1.5406279126E-003 -3.6682295613E-003  +1.2798826694E+000 +7.4977844954E-001 
1135306.633 -4.2502754927E-001 -1.3672895432E+000  +6.0224756598E-003 -6.1309966259E-003  +9.0615199879E-003 -1.2129912153E-002  +1.2267119884E+000 +1.4759806395E+000 
1260451.815 +3.0982702971E-001 -5.7050198317E-001  +5.3164265119E-003 -7.0115933195E-003  +1.0133362375E-002 +3.8261415903E-003  -9.6443682909E-002 +8.1523686647E-001 
1385596.996 +1.2016751766E+000 -6.3253706694E-001  +1.5324595384E-002 -1.1006116867E-002  -2.3337038234E-002 -7.2864571121E-004  -6.4629163742E+000 +2.0241532326E+000 
1510742.178 +2.0098567009E+000 -9.7831958532E-001  +6.8094939925E-003 +9.1386423446E-004  +2.9309613165E-003 +3.3070307691E-003  -1.5268543363E-001 +1.0673061609E+000 
1635887.359 +1.2547024488E+000 -9.3726521730E-001  +5.4305754602E-002 +2.3194596171E-002  +2.4782281369E-002 +3.2795555890E-002  -7.7897543907E+000 +6.1281661987E+000 
1761032.541 +2.2711501122E+000 -4.6085149050E-001  -5.1343920641E-003 +5.2391886711E-003  +5.2457884885E-003 +8.2924300805E-003  -8.2475209236E-001 +1.1606012583E+000 
1886177.722 +2.3424696922E+000 +2.4813646078E-001  +3.4469456878E-003 +9.6588702872E-003  -5.2868966013E-003 +5.2460134029E-003  -3.0197948217E-001 +1.5278235674E+000 
2011322.904 +2.1707525253E+000 +1.3257226944E+000  -5.7247215882E-003 +8.7734004483E-003  -9.2478115112E-003 +3.4374515526E-003  -4.4611370564E-001 +1.5049402714E+000 
2136468.085 +1.3935348988E+000 +1.6637194157E+000  -4.4600027613E-003 +2.4745911360E-003  -7.7964947559E-003 +1.9525110256E-003  -2.4294835329E-001 +1.3077507019E+000 
2261613.267 +5.8803939819E-001 +1.7640450001E+000  -2.4556033313E-003 +6.3329609111E-004  -7.1440716274E-003 -4.5434921049E-003  -2.7420008183E-001 +1.0682344437E+000 
2386758.448 +3.4275710583E-001 +1.7595367432E+000  -2.8726253659E-003 -1.1116670212E-003  -5.7827290148E-003 -3.1208540313E-003  -3.4553954005E-001 +8.4742337465E-001 
2511903.630 -1.1197692156E-001 +1.4568889141E+000  -4.5803193934E-003 -3.3101653680E-003  -3.0715081375E-003 -2.7609488461E-003  -4.6241647005E-001 +7.8580844402E-001 
2637048.811 -2.1493721008E-001 +1.2677940130E+000  -1.8068384379E-003 -3.4163210075E-003  -2.1301712841E-003 -3.3448534086E-003  -4.1989725828E-001 +5.9326714277E-001 
2762193.992 -3.7622687221E-001 +1.0259662867E+000  -1.4824167592E-003 -2.8963198420E-003  +7.3782517575E-004 -1.6160720261E-003  -4.5694494247E-001 +5.0829148293E-001 
2887339.174 -5.4494720697E-001 +8.6264520884E-001  +4.8058462562E-004 -2.7253834996E-003  -4.1873991722E-004 -4.5784460381E-003  -4.6936839819E-001 +4.6351641417E-001 
3012484.355 -5.8517587185E-001 +8.4484934807E-001  -1.5075048432E-003 -2.7338564396E-003  +6.3985947054E-004 -3.3579315059E-003  -4.9447444081E-001 +4.1191330552E-001 
3137629.537 -6.0404586792E-001 +7.6789039373E-001  -9.4087910838E-005 -2.6501384564E-003  +1.1574459495E-003 -2.7781748213E-003  -5.0929832458E-001 +3.4297192097E-001 
3262774.718 -6.0137331486E-001 +7.4324274063E-001  -8.5236039013E-005 -2.2163381800E-003  +7.9549907241E-004 -2.9195311945E-003  -5.2194404602E-001 +2.9981794953E-001 
3387919.900 -6.0949432850E-001 +6.5481740236E-001  +1.0671976488E-003 -2.7402639389E-003  +1.8134699203E-003 -2.4473720696E-003  -5.4178231955E-001 +2.8616371751E-001 
3513065.081 -6.4301681519E-001 +5.9250098467E-001  +2.0411550067E-003 -1.9666980952E-003  +1.1129367631E-003 -1.8692871090E-003  -5.4729509354E-001 +2.2883720696E-001 
3638210.263 -6.3744461536E-001 +5.1548582315E-001  +1.5427016187E-003 -2.5391597301E-003  +8.5495982785E-004 -2.7920517605E-003  -5.8663421869E-001 +2.2011250257E-001 
3763355.444 -6.5716332197E-001 +4.9187484384E-001  +1.4364721719E-003 -2.1552164108E-003  +9.5289497403E-004 -2.3343160283E-003  -5.9428805113E-001 +1.8818593025E-001 
3888500.626 -6.8946731091E-001 +4.3601238728E-001  +1.4999387786E-003 -1.9546553958E-003  +2.1558776498E-003 -2.1232431754E-003  -6.0397863388E-001 +1.7934380472E-001 
4013645.807 -6.6828155518E-001 +2.9502525926E-001  +2.2274516523E-003 -1.2812924106E-003  +2.3766816594E-003 -2.0365263335E-003  -6.1381423473E-001 +8.9925959706E-002 
4138790.989 -6.2938439846E-001 +1.8937629461E-001  +2.5200964883E-003 -1.2691753218E-003  +2.9163388535E-003 -2.2837081924E-003  -5.8565753698E-001 +2.9418356717E-002 
4263936.170 -6.3840526342E-001 +1.5582896769E-001  +3.9126691408E-003 -1.4888232108E-003  +2.5557684712E-003 -1.8024945166E-003  -5.8326065540E-001 +2.7275413275E-002 
4389081.352 -6.3467508554E-001 +1.4892040193E-001  +3.3645550720E-003 -1.6102928203E-003  +3.5606992897E-003 -8.6288398597E-004  -5.9969836473E-001 +5.5315494537E-003 
4514226.533 -6.4618235826E-001 +1.4174938202E-001  +2.6627376210E-003 -1.6273037763E-003  +3.1481920741E-003 -1.0057300096E-003  -6.0299432278E-001 -6.4652264118E-003 
4639371.715 -6.1949670315E-001 +1.2929446995E-001  +3.2357031014E-003 -8.1206124742E-004  +3.3191670664E-003 -1.6038599424E-003  -6.1121678352E-001 -1.0830819607E-002 
4764516.896 -6.3853907585E-001 +1.0965943336E-001  +3.2700425945E-003 -1.0012574494E-003  +3.5120584071E-003 -1.4079763787E-003  -6.1842924356E-001 -1.0946303606E-002 
4889662.078 -6.4641988277E-001 +9.3112498522E-002  +3.7384417374E-003 -1.3876713347E-003  +2.9510331806E-003 -1.0186512955E-003  -6.1289203167E-001 -1.9923329353E-002 
5014807.259 -6.4278787374E-001 +9.5525860786E-002  +3.3808825538E-003 -1.1362056248E-003  +3.2604453154E-003 -9.9110894371E-004  -6.2129390240E-001 -3.3078879118E-002 
5139952.441 -6.5007734299E-001 +8.3730041981E-002  +3.5183527507E-003 -6.6333590075E-004  +3.1050322577E-003 -1.2732398463E-003  -6.2765812874E-001 -3.7556290627E-002 
5265097.622 -6.5699636936E-001 +6.8816751242E-002  +3.4660524689E-003 -1.0565094417E-003  +3.3545561600E-003 -1.2171597918E-003  -6.2414324284E-001 -2.2560089827E-002 
5390242.804 -6.6765666008E-001 +5.4822891951E-002  +2.9370633420E-003 -7.7900197357E-004  +3.3308952115E-003 -1.0496781906E-003  -6.2893468142E-001 -1.6167432070E-002 
5515387.985 -6.6685068607E-001 +5.0751209259E-002  +2.9166580644E-003 -1.0127089918E-003  +3.3368174918E-003 -6.2477786560E-004  -6.3186562061E-001 -1.3876348734E-002 
5640533.166 -6.6976982355E-001 +4.6361804008E-002  +3.0080485158E-003 -3.8146285806E-004  +2.8873102274E-003 -5.0230184570E-004  -6.3410264254E-001 -2.8403341770E-002 
5765678.348 -6.6355073452E-001 +4.7260254622E-002  +2.8721266426E-003 -8.6711591575E-004  +3.4218677320E-003 -7.6508836355E-004  -6.4336431026E-001 -2.2937476635E-002 
5890823.529 -6.5698921680E-001 +4.2226791382E-002  +3.1383691821E-003 -3.1618180219E-004  +3.4095956944E-003 -9.3952752650E-004  -6.4881873131E-001 -2.3355484009E-002 
6015968.711 -6.6950529814E-001 +4.4424444437E-002  +3.1804093160E-003 -5.7345896494E-004  +3.4456136636E-003 -6.0342031065E-004  -6.4029693604E-001 -2.3081541061E-002 
6141113.892 -6.6319054365E-001 +4.5312821865E-002  +3.1066304073E-003 -4.8579636496E-004  +3.2279482111E-003 -5.6471384596E-004  -6.5630769730E-001 -3.4491956234E-002 
6266259.074 -6.5900391340E-001 +4.0107548237E-002  +3.1618536450E-003 -5.3791934624E-004  +3.4986727405E-003 -8.6460902821E-004  -6.5572774410E-001 -3.1084001064E-002 
6391404.255 -6.5856266022E-001 +3.3103287220E-002  +3.3042915165E-003 -3.0429277103E-004  +3.4359013662E-003 -3.6545773037E-004  -6.5710765123E-001 -2.1926313639E-002 
6516549.437 -6.6222703457E-001 +3.4048438072E-002  +3.1098872423E-003 -7.3448772309E-004  +3.2211965881E-003 -1.5422713477E-004  -6.5627157688E-001 -2.5073558092E-002 
6641694.618 -6.6355562210E-001 +2.2750735283E-002  +3.1565479003E-003 -5.2797101671E-004  +3.0625134241E-003 -6.0642574681E-004  -6.5875816345E-001 -2.1614611149E-002 
6766839.800 -6.6277396679E-001 +1.8400698900E-002  +3.2173930667E-003 -4.6508247033E-004  +3.3994186670E-003 -4.4982798863E-004  -6.6366302967E-001 -1.7943054438E-002 
6891984.981 -6.6463494301E-001 +1.1064767838E-002  +3.2427499536E-003 -1.9758788403E-004  +3.2549784519E-003 -6.2396505382E-004  -6.6143190861E-001 -1.8688112497E-002 
7017130.163 -6.6113322973E-001 +2.7289703488E-002  +3.2823607326E-003 -4.1380937910E-004  +3.4373335075E-003 -1.4615664259E-004  -6.6549015045E-001 -3.1800836325E-002 
7142275.344 -6.7426264286E-001 +1.8835857511E-002  +3.1774109229E-003 -4.2202882469E-004  +3.1412162352E-003 -3.5572936758E-004  -6.6034579277E-001 -2.6429608464E-002 
7267420.526 -6.6284745932E-001 +1.7164468765E-002  +3.3335397020E-003 -2.1415547235E-004  +3.4087265376E-003 -4.4082605746E-004  -6.7144596577E-001 -2.7860268950E-002 
7392565.707 -6.6221874952E-001 +1.8225699663E-002  +3.3752303571E-003 -3.0463823350E-004  +3.3586334903E-003 -2.1762255346E-004  -6.7364895344E-001 -2.7411356568E-002 
7517710.889 -6.6542965174E-001 +1.5918388963E-002  +3.3175526187E-003 -5.5663776584E-004  +3.0875860248E-003 -1.2578425230E-004  -6.7252385616E-001 -3.5177797079E-002 
7642856.070 -6.6228944063E-001 +5.9931278229E-003  +3.4336063545E-003 -1.6780139413E-004  +3.4398024436E-003 -2.2305990569E-004  -6.7882293463E-001 -2.0004123449E-002 
7768001.252 -6.7384600639E-001 +1.2344405055E-002  +3.4393414389E-003 -4.0537607856E-004  +3.2935808413E-003 -3.7615606561E-004  -6.7330563068E-001 -2.6631668210E-002 
7893146.433 -6.6929572821E-001 +1.3541996479E-002  +3.1225201674E-003 -1.0288337944E-004  +3.3215021249E-003 -1.6433530254E-004  -6.7299842834E-001 -2.3770242929E-002 
8018291.615 -6.7404294014E-001 +6.2616318464E-003  +3.4072939306E-003 -1.7168704653E-004  +3.2407662366E-003 -5.1037233789E-005  -6.7235249281E-001 -1.7289124429E-002 
8143436.796 -6.7094212770E-001 +8.9420452714E-003  +3.5697764251E-003 -1.3366050553E-004  +3.2911396120E-003 +2.6904745027E-006  -6.7940968275E-001 -2.2247865796E-002 
8268581.977 -6.7637604475E-001 +3.4199580550E-003  +3.4051190596E-003 +3.6476732930E-005  +3.6188359372E-003 -1.3275511446E-004  -6.7599618435E-001 -1.6533553600E-002 
8393727.159 -6.7340034246E-001 +5.8950446546E-003  +3.3154408447E-003 -1.0749979992E-004  +3.5870173015E-003 -1.1552282376E-004  -6.7841249704E-001 -2.3867115378E-002 
8518872.340 -6.8156647682E-001 +6.1578415334E-003  +3.2818829641E-003 -2.2613137844E-005  +3.3739318606E-003 -1.6874207358E-004  -6.6841423512E-001 -2.2509630769E-002 
8644017.522 -6.7235344648E-001 -3.0287746340E-003  +3.4396718256E-003 -2.2009687382E-004  +3.3481766004E-003 -4.0963830543E-005  -6.7782044411E-001 -1.8735677004E-002 
8769162.703 -6.7689204216E-001 -5.8328690939E-003  +3.3814501949E-003 +3.6758348870E-005  +3.5118327942E-003 -9.2628899438E-005  -6.7674303055E-001 -1.5252591111E-002 
8894307.885 -6.8124365807E-001 -5.4218675941E-003  +3.4236460924E-003 -9.2634298198E-005  +3.3563300967E-003 -4.6301174734E-005  -6.7760437727E-001 -1.8768981099E-002 
9019453.066 -6.8405151367E-001 -5.5243726820E-003  +3.3116396517E-003 +2.5239351089E-005  +3.3363818657E-003 +4.4383923523E-005  -6.7750078440E-001 -2.0323753357E-002 
9144598.248 -6.8438738585E-001 -4.4935271144E-003  +3.4363556188E-003 -7.5096235378E-005  +3.3103376627E-003 +5.0009301049E-005  -6.7938482761E-001 -1.9107647240E-002 
9269743.429 -6.8006873131E-001 +3.0772387981E-004  +3.3465775196E-003 +1.6920171038E-004  +3.3883491997E-003 -1.1616657139E-004  -6.8080818653E-001 -2.5409020483E-002 
9394888.611 -6.8426489830E-001 -1.1927530169E-002  +3.3351581078E-003 -7.2075199569E-005  +3.3034475055E-003 +4.4409913244E-005  -6.7834705114E-001 -1.6777135432E-002 
9520033.792 -6.8282252550E-001 -2.9893442988E-003  +3.3658754546E-003 +4.6890461817E-005  +3.3466173336E-003 +3.7102494389E-005  -6.8359249830E-001 -2.2365160286E-002 
9645178.974 -6.8758851290E-001 -5.8015882969E-003  +3.3928069752E-003 +8.6920801550E-005  +3.3199626487E-003 +8.4512343165E-005  -6.7953675985E-001 -1.6853868961E-002 
9770324.155 -6.8923521042E-001 -9.5034092665E-003  +3.2881291118E-003 +1.5344994608E-004  +3.4346717875E-003 +1.7172831576E-005  -6.7911225557E-001 -1.6628667712E-002 
9895469.337 -6.9127106667E-001 +1.2563169003E-004  +3.3413437195E-003 +8.0496247392E-005  +3.3463947475E-003 +1.9129482098E-004  -6.8192994595E-001 -2.5957062840E-002 
10020614.518 -6.8711125851E-001 -3.4350603819E-003  +3.4126397222E-003 +7.8662531450E-005  +3.3058703411E-003 +5.6891760323E-005  -6.8209546804E-001 -2.1954834461E-002 
10145759.700 -6.8758583069E-001 -4.2979568243E-003  +3.3540823497E-003 +2.2192497272E-004  +3.5070402082E-003 +3.1590228900E-005  -6.8095743656E-001 -1.9415095448E-002 
10270904.881 -6.8947529793E-001 -8.0589354038E-003  +3.4351877403E-003 +2.6521924883E-004  +3.3401760738E-003 +8.6999381892E-005  -6.7955780029E-001 -1.4056593180E-002 
10396050.063 -6.9144439697E-001 -6.3485652208E-003  +3.2953717746E-003 +2.6851997245E-004  +3.3994829282E-003 +2.0772265270E-004  -6.7868340015E-001 -1.5217378736E-002 
10521195.244 -6.8751597404E-001 -1.1110424995E-002  +3.4767696634E-003 +1.8664484378E-004  +3.4042329062E-003 +1.4867389109E-004  -6.8030673265E-001 -1.2403309345E-002 
10646340.426 -6.8827307224E-001 -6.6658556461E-003  +3.3194092102E-003 +2.3510516621E-004  +3.4649539739E-003 +1.9295606762E-004  -6.8552672863E-001 -1.3710021973E-002 
10771485.607 -6.9008398056E-001 -8.6664259434E-003  +3.3878046088E-003 +2.3011781741E-004  +3.3653727733E-003 +2.1115376148E-004  -6.8204963207E-001 -1.5570491552E-002 
10896630.788 -6.8562853336E-001 -6.5205991268E-003  +3.3025725279E-003 +2.4472805671E-004  +3.4849774092E-003 +2.3897038773E-004  -6.8557679653E-001 -1.5999734402E-002 
11021775.970 -6.9224381447E-001 -6.2783658504E-003  +3.3803239930E-003 +2.6874488685E-004  +3.3066894393E-003 +2.9161863495E-004  -6.8132793903E-001 -1.6735345125E-002 
11146921.151 -6.9293379784E-001 -6.8472623825E-003  +3.4224898554E-003 +3.3939059358E-004  +3.4896568395E-003 +3.3048016485E-004  -6.8402051926E-001 -1.5632629395E-002 
11272066.333 -6.9331169128E-001 -7.2817802429E-003  +3.3672363497E-003 +3.3017352689E-004  +3.3749639988E-003 +3.3433642238E-004  -6.8364864588E-001 -1.7089545727E-002 
11397211.514 -6.9224369526E-001 -7.5772702694E-003  +3.4614214674E-003 +3.5754032433E-004  +3.4198798239E-003 +3.2630853821E-004  -6.8468248844E-001 -1.6374051571E-002 
11522356.696 -6.9078993797E-001 -7.2382092476E-003  +3.3654500730E-003 +3.9185094647E-004  +3.4537883475E-003 +3.5936839413E-004  -6.8374395370E-001 -1.5765011311E-002 
11647501.877 -6.9097483158E-001 -8.7198615074E-003  +3.4271827899E-003 +4.1518721264E-004  +3.4412913956E-003 +3.3252220601E-004  -6.8461155891E-001 -1.6929090023E-002 
11772647.059 -6.9362282753E-001 -8.8283419609E-003  +3.4549362026E-003 +3.9320858195E-004  +3.4578531049E-003 +4.3259491213E-004  -6.8284022808E-001 -1.6412198544E-002 
11897792.240 -6.9431054592E-001 -8.7102949619E-003  +3.4092969727E-003 +4.5111682266E-004  +3.4253573976E-003 +4.4632586651E-004  -6.8563735485E-001 -1.5261054039E-002 
12022937.422 -6.9705718756E-001 -1.1108130217E-002  +3.4164481331E-003 +4.5232265256E-004  +3.4230616875E-003 +3.9501697756E-004  -6.8235933781E-001 -1.4388829470E-002 
12148082.603 -6.9796627760E-001 -1.2778878212E-002  +3.4439456649E-003 +5.2482995670E-004  +3.4724932630E-003 +4.7969736625E-004  -6.8182575703E-001 -1.5114784241E-002 
12273227.785 -6.9880783558E-001 -1.1640906334E-002  +3.3583543263E-003 +5.1838438958E-004  +3.4376243129E-003 +4.8197386786E-004  -6.8154221773E-001 -1.4161705971E-002 
12398372.966 -6.9470643997E-001 -1.0574519634E-002  +3.4474846907E-003 +4.5853783377E-004  +3.4033190459E-003 +4.9527885858E-004  -6.8539816141E-001 -1.4838784933E-002 
12523518.148 -6.9660735130E-001 -1.0214686394E-002  +3.4473282285E-003 +5.7011703029E-004  +3.4161552321E-003 +4.9039092846E-004  -6.8559426069E-001 -1.5741914511E-002 
12648663.329 -6.9608533382E-001 -1.2136220932E-002  +3.4067970701E-003 +5.4592301603E-004  +3.4865785856E-003 +5.2512821276E-004  -6.8534594774E-001 -1.2255340815E-002 
12773808.511 -7.0079976320E-001 -1.1288851500E-002  +3.4282607958E-003 +5.1465001889E-004  +3.5303768236E-003 +5.6369358208E-004  -6.8317216635E-001 -1.6237884760E-002 
12898953.692 -6.9546258450E-001 -9.4678997993E-003  +3.4957299940E-003 +5.9564341791E-004  +3.5115350038E-003 +6.1594753060E-004  -6.8736344576E-001 -1.5220403671E-002 
13024098.874 -7.0026612282E-001 -1.1567264795E-002  +3.5162409768E-003 +6.3899264205E-004  +3.5368544050E-003 +5.7927554008E-004  -6.8335449696E-001 -1.3615936041E-002 
13149244.055 -6.9964993000E-001 -1.0497689247E-002  +3.4517825115E-003 +6.3952093478E-004  +3.4698098898E-003 +6.0907320585E-004  -6.8404060602E-001 -1.3021558523E-002 
13274389.237 -6.9993424416E-001 -1.0690882802E-002  +3.4662217367E-003 +6.6435593180E-004  +3.5305460915E-003 +5.7925551664E-004  -6.8432301283E-001 -1.4104798436E-002 
13399534.418 -7.0055449009E-001 -1.0978713632E-002  +3.5474963952E-003 +6.8747519981E-004  +3.5317062866E-003 +7.1305502206E-004  -6.8395340443E-001 -1.4082923532E-002 
13524679.599 -6.9961708784E-001 -1.2449145317E-002  +3.5218168050E-003 +6.6109967884E-004  +3.5554603674E-003 +6.6783430520E-004  -6.8718010187E-001 -1.1362805963E-002 
13649824.781 -7.0250636339E-001 -1.1170372367E-002  +3.5273972899E-003 +6.4434169326E-004  +3.5312373657E-003 +7.1287265746E-004  -6.8446612358E-001 -1.3410106301E-002 
13774969.962 -7.0174437761E-001 -1.0051473975E-002  +3.5240028519E-003 +6.8729015766E-004  +3.5823390353E-003 +7.2756089503E-004  -6.8581002951E-001 -1.4613404870E-002 
13900115.144 -7.0082199574E-001 -1.1132672429E-002  +3.5489497241E-003 +6.7564559868E-004  +3.5953838378E-003 +6.7910476355E-004  -6.8808776140E-001 -1.3453043997E-002 
14025260.325 -7.0231014490E-001 -1.1117070913E-002  +3.5405969247E-003 +6.9346028613E-004  +3.6171730608E-003 +7.1325770114E-004  -6.8771690130E-001 -1.3863280416E-002 
14150405.507 -7.0391714573E-001 -1.2450762093E-002  +3.5184628796E-003 +7.2982395068E-004  +3.5810736008E-003 +7.5166684110E-004  -6.8688356876E-001 -1.2870714068E-002 
14275550.688 -7.0392900705E-001 -1.1477466673E-002  +3.5126525909E-003 +7.5754529098E-004  +3.5418262705E-003 +7.5183797162E-004  -6.8654286861E-001 -1.2797541916E-002 
14400695.870 -7.0360946655E-001 -1.0938568972E-002  +3.5415757447E-003 +7.8809581464E-004  +3.5896776244E-003 +7.5573939830E-004  -6.8867743015E-001 -1.3259257190E-002 
