!  2-Port S-parameters saved by WinCal
! VAR MeasName=S-Parameters (CALIBRATED_DATA) read from VNA (P5004A)
! VAR MeasDate=22/05/2024 21:56:30
! VAR NAME=Wafer3_r2_c5_pristine_pos1.0dc
! VAR FILENAME=Wafer3_r2_c5_pristine_pos1.0dc.S2P
! VAR DATE=22/05/2024 21:56:30
! VAR PHYS_PORTS=1,2
! VAR ObjTypeName=DATASET
! VAR IndexType=Frequency
!
# Hz S RI R 50
9000.000 +2.1013844013E-001 -5.9943455458E-001  +3.9218636230E-003 +1.6804561019E-003  +1.7312376294E-003 +1.0405733483E-003  +4.6766627580E-002 +1.0470114648E-001 
134145.181 +6.4860832691E-001 +1.4637410641E-003  -6.2649175525E-003 -9.4487937167E-003  +3.3620193601E-002 +2.0383961499E-002  +4.4133660197E-001 +3.1750008464E-001 
259290.363 +8.4759145975E-001 -1.1334583163E-001  -2.0855218172E-003 +1.3659343123E-002  -4.3983906507E-003 -1.1350792833E-002  +3.4052446485E-001 -4.0852254629E-001 
384435.544 +9.0204310417E-001 -2.9678258300E-001  -3.9876382798E-003 +5.7199867442E-003  -5.1254299469E-003 +4.4377865270E-003  +1.7481964827E-001 -8.9984185994E-002 
509580.726 +9.6235370636E-001 -1.5162646770E-001  -1.4419349842E-002 -1.3616406359E-003  +6.8254268263E-004 -7.9317502677E-003  +5.2754357457E-003 -5.0855982304E-001 
634725.907 +1.1021530628E+000 -2.1046561003E-001  +1.1591287330E-003 -2.0507851150E-004  +7.2197365807E-004 +8.4943789989E-004  +8.4779852629E-001 -2.5864964724E-001 
759871.089 +1.3240897655E+000 -5.3420692682E-002  -4.4722255552E-004 -1.4100507833E-003  -2.7333945036E-004 -8.7812019046E-005  +1.4552007914E+000 +1.5029308200E-001 
885016.270 +1.8656338453E+000 -1.3213564157E+000  +5.1899545360E-004 -4.4196583331E-003  +2.5342346635E-004 +1.5029275091E-003  +1.2962567806E+000 +4.4254866242E-001 
1010161.452 +1.0393444300E+000 -7.0402041078E-002  -8.7551947217E-004 +1.1439785594E-003  -5.5867008632E-004 +3.9406347787E-004  +1.2186088562E+000 +5.0097852945E-001 
1135306.633 +1.0019475222E+000 -8.3940774202E-003  +7.8850024147E-004 +1.6116170445E-003  +4.3208920397E-004 +6.0291553382E-004  +1.3131881952E+000 +6.3853251934E-001 
1260451.815 +1.3784281015E+000 +1.9877195358E-002  +4.8500299454E-004 -5.4068426834E-005  +4.9673544709E-005 -1.2778377277E-004  +1.0818680525E+000 +7.3057210445E-001 
1385596.996 +1.2957261801E+000 -1.4327186346E-001  +3.6577344872E-004 +1.7374457093E-004  +5.4195011035E-004 +2.8236772050E-004  +9.6933567524E-001 +4.9649310112E-001 
1510742.178 +1.4667860270E+000 -2.7227747440E-001  -1.7124724400E-004 +9.2827773187E-005  +3.5251394729E-004 +1.3735704124E-004  +6.6182720661E-001 +5.7240456343E-001 
1635887.359 +9.5346081257E-001 -3.8405337930E-001  -1.5015427198E-004 -1.2750874157E-004  +3.0305585824E-004 +1.2545884238E-004  +1.5046753883E+000 +6.5229177475E-001 
1761032.541 +9.6657270193E-001 -4.3607449532E-001  -3.2287699287E-004 -7.0575966674E-005  +6.4553250559E-004 -1.1481231195E-004  +1.0852280855E+000 +8.1790548563E-001 
1886177.722 +9.0651214123E-001 -2.2752396762E-001  +1.0267070320E-004 +1.4849475701E-004  +1.7218958237E-004 +2.2427701333E-004  +1.1330389977E+000 +5.5162465572E-001 
2011322.904 +9.0543764830E-001 -1.5665829182E-001  -8.8068845798E-005 -1.4815712348E-004  +1.6345892800E-004 -4.2281139031E-005  +1.1477965117E+000 +5.1471030712E-001 
2136468.085 +9.3459105492E-001 -1.3633140922E-001  +1.8111143727E-003 -2.1453952650E-004  -1.1383528181E-004 -2.8264828870E-005  +1.0911903381E+000 +4.6490532160E-001 
2261613.267 +9.3427747488E-001 -1.1098286510E-001  +1.8375979562E-004 +9.7073294455E-005  +8.1587633758E-005 -1.2099226296E-004  +1.0528273582E+000 +4.9834737182E-001 
2386758.448 +9.2430800200E-001 -9.7838640213E-002  +2.4406701414E-005 +1.5513315157E-004  +9.0958157671E-005 -6.4902546001E-005  +1.0750577450E+000 +5.2530580759E-001 
2511903.630 +9.1798889637E-001 -6.0605213046E-002  +1.7524045688E-005 +1.1750407430E-004  -9.5351431810E-005 +1.4081901463E-004  +1.1238352060E+000 +5.5575633049E-001 
2637048.811 +9.3247437477E-001 -5.1693376154E-002  -3.8623934961E-004 -2.1064392058E-004  +2.4151171965E-004 -2.0976871019E-004  +1.1447707415E+000 +5.7936948538E-001 
2762193.992 +9.2495495081E-001 -4.0327489376E-002  +6.6602238803E-005 +8.4129947936E-005  -1.2292432075E-004 +1.0945390386E-004  +1.1752097607E+000 +4.6887660027E-001 
2887339.174 +9.0265744925E-001 -3.6899670959E-002  +2.0425140974E-006 +4.1265806067E-004  +1.2831181812E-004 -3.5032935557E-004  +1.0231273174E+000 +4.2609983683E-001 
3012484.355 +9.0761947632E-001 -8.0219805241E-003  -6.3806786784E-005 +3.7529280235E-005  -2.7485244209E-004 +6.6894281190E-005  +9.4970804453E-001 +5.3084993362E-001 
3137629.537 +9.0406024456E-001 +9.3178898096E-003  -4.4318853179E-004 +3.7367761252E-005  -3.7202848034E-005 -2.4481196306E-004  +9.6552336216E-001 +6.4519095421E-001 
3262774.718 +9.0714907646E-001 +4.2169064283E-002  +1.4520699915E-004 -5.5451313528E-005  +2.5029270910E-004 -1.1227091454E-004  +1.0111666918E+000 +7.1030384302E-001 
3387919.900 +9.0557694435E-001 +7.1794524789E-002  +1.3503365335E-004 +2.4729386496E-005  -2.9076280771E-004 -6.8075372837E-005  +1.0532222986E+000 +7.7130246162E-001 
3513065.081 +9.1486108303E-001 +9.0581715107E-002  -3.4374592360E-005 -4.0684646228E-004  +3.2203057344E-005 -3.0267283364E-006  +1.0899876356E+000 +8.4108376503E-001 
3638210.263 +9.2842203379E-001 +1.2071266770E-001  -3.0134865665E-004 +1.1575334793E-004  +3.4248057636E-004 +1.1447763245E-004  +1.1751846075E+000 +8.7459689379E-001 
3763355.444 +9.4790363312E-001 +1.3334661722E-001  -2.5396613637E-004 +7.5422576629E-006  -2.4957250571E-004 -9.3896465842E-005  +1.2666594982E+000 +9.0572953224E-001 
3888500.626 +9.6529299021E-001 +1.6497069597E-001  +3.9086185279E-004 -1.7406132247E-004  -5.9259822592E-004 -4.6971792472E-004  +1.3495749235E+000 +9.5820087194E-001 
4013645.807 +9.2041528225E-001 +1.0001313686E-001  -1.6369172954E-004 -2.4123990443E-004  -2.0100441179E-004 +1.0956139886E-004  +1.5786094666E+000 +7.4695599079E-001 
4138790.989 +8.7472146749E-001 +3.1089216471E-002  +5.0926581025E-004 +1.1294388241E-004  +7.8711993410E-005 -4.6294415370E-004  +1.6690288782E+000 +4.6618324518E-001 
4263936.170 +8.6845624447E-001 +4.2507290840E-002  -4.9236768973E-007 -1.3545763795E-004  +2.9461269150E-004 +2.7514674002E-005  +1.7134464979E+000 +3.7630581856E-001 
4389081.352 +8.8414782286E-001 +4.4053956866E-002  +2.2120797075E-004 -5.9575872729E-004  +4.5294873416E-004 +2.2482470376E-004  +1.7492784262E+000 +2.6455760002E-001 
4514226.533 +8.9733606577E-001 +4.3088093400E-002  -7.2573707439E-004 +1.1592931696E-004  -7.8272452811E-005 -3.3190060640E-004  +1.7754595280E+000 +1.9011859596E-001 
4639371.715 +9.1320866346E-001 +4.4270202518E-002  +7.0990796667E-004 -8.2547223428E-005  -9.8772143247E-006 -3.3101582085E-004  +1.7734978199E+000 +1.2456089258E-001 
4764516.896 +9.0956097841E-001 +4.8551395535E-002  +9.9863529613E-005 -3.5586825106E-004  +6.2380300369E-004 +4.5811710879E-004  +1.7695428133E+000 +6.0752153397E-002 
4889662.078 +9.1792613268E-001 +4.9071982503E-002  +1.1994843953E-004 +6.7674746970E-004  -3.5452761222E-004 -3.9257580647E-004  +1.7835352421E+000 -8.3590745926E-003 
5014807.259 +9.2094242573E-001 +5.1600351930E-002  -1.4020853996E-005 -2.3620943830E-004  +1.7132464563E-004 +4.6709046728E-005  +1.7334215641E+000 -6.4055591822E-002 
5139952.441 +9.3244731426E-001 +4.7465011477E-002  -1.5813576465E-004 +2.4152496189E-004  +5.0274812384E-004 -2.9098962841E-005  +1.7245223522E+000 -1.3978996873E-001 
5265097.622 +9.3672579527E-001 +5.6177675724E-002  +2.9395709862E-004 -2.0072126063E-004  +1.6546077677E-004 +5.0210527843E-004  +1.6831654310E+000 -1.9296005368E-001 
5390242.804 +9.4536256790E-001 +5.2045822144E-002  -5.5899308063E-004 -6.9744397479E-005  -8.4713443357E-005 -2.2559928766E-004  +1.6483632326E+000 -2.4693185091E-001 
5515387.985 +9.5435404778E-001 +4.4391483068E-002  +3.5090593155E-004 +1.1624473700E-004  -7.0508744102E-005 -9.0747998911E-005  +1.6106033325E+000 -2.9885351658E-001 
5640533.166 +9.6191948652E-001 +5.4538995028E-002  -2.5583847309E-004 -5.0933437888E-004  +1.1566736066E-004 +8.3313367213E-005  +1.5888205767E+000 -3.2986077666E-001 
5765678.348 +9.5413768291E-001 +4.8978768289E-002  +1.0042868962E-004 -2.3109361064E-004  +3.7424106267E-004 -3.4437674913E-004  +1.5460069180E+000 -3.7228164077E-001 
5890823.529 +9.5907348394E-001 +4.0759213269E-002  +2.9110189644E-004 +2.5617508800E-004  -6.4939005824E-005 -2.2233008349E-004  +1.4949557781E+000 -4.0119898319E-001 
6015968.711 +9.6242654324E-001 +4.2241051793E-002  +3.6882862332E-005 -5.2079674788E-005  -2.1386389562E-004 +1.1960498523E-004  +1.4601206779E+000 -4.2680633068E-001 
6141113.892 +9.6837359667E-001 +3.7878841162E-002  +1.4196266420E-004 +2.8799768188E-005  +1.2991548283E-004 +3.4059001337E-005  +1.4096821547E+000 -4.3075174093E-001 
6266259.074 +9.6470022202E-001 +4.2357690632E-002  +7.8593759099E-005 +7.3770097515E-005  +4.3179472414E-005 +2.5051430566E-004  +1.3637261391E+000 -4.5245641470E-001 
6391404.255 +9.6763288975E-001 +3.1222276390E-002  -3.4513429273E-004 +1.7547255266E-004  -1.0786784696E-004 -2.4562649196E-004  +1.3151643276E+000 -4.7100687027E-001 
6516549.437 +9.7178763151E-001 +3.6351293325E-002  +3.0884923035E-005 -3.2161504350E-005  +1.9966339460E-004 +1.2537468865E-004  +1.2773507833E+000 -4.7493261099E-001 
6641694.618 +9.7399026155E-001 +3.3642925322E-002  +6.1382284912E-005 +4.3294039642E-007  +2.2967417317E-004 +1.1493890634E-004  +1.2449740171E+000 -4.8075073957E-001 
6766839.800 +9.8433560133E-001 +3.3155798912E-002  +5.2056071581E-005 -3.7005302147E-004  -1.8669907877E-004 -7.5606782048E-005  +1.2109655142E+000 -4.8464703560E-001 
6891984.981 +9.7561216354E-001 +3.1419940293E-002  -2.3567321477E-004 -2.7530838270E-004  +1.8419216212E-004 -9.9801618489E-005  +1.1615617275E+000 -4.8465383053E-001 
7017130.163 +9.7805517912E-001 +3.1527772546E-002  -1.9271048586E-005 -2.3773201974E-005  -1.0737551202E-004 +2.8660931275E-004  +1.1356579065E+000 -4.7508651018E-001 
7142275.344 +9.8046821356E-001 +3.8553394377E-002  +6.0044225393E-005 +4.3940613978E-005  -3.2801715861E-005 -5.2442278502E-006  +1.1105591059E+000 -4.6916830540E-001 
7267420.526 +9.8189228773E-001 +4.0967479348E-002  -1.8340699171E-005 +1.9147069906E-005  -9.7360505606E-005 -1.0454207222E-004  +1.0805028677E+000 -4.6060624719E-001 
7392565.707 +9.8288917542E-001 +4.1535854340E-002  -3.9819078665E-005 -9.3436530733E-005  +1.3520779612E-004 +3.3540094591E-005  +1.0514501333E+000 -4.5911023021E-001 
7517710.889 +9.8541557789E-001 +3.3543661237E-002  -7.2107177402E-006 +1.9984300889E-004  +1.2946764764E-004 -3.5335985012E-004  +1.0233081579E+000 -4.4671410322E-001 
7642856.070 +9.7854292393E-001 +3.0350655317E-002  -1.0753538663E-004 +3.4303433495E-005  -1.9338715356E-004 +5.9746969782E-005  +9.9560588598E-001 -4.3846336007E-001 
7768001.252 +9.8469007015E-001 +3.0473396182E-002  +1.4365825336E-004 -3.8233403757E-005  +1.5463183809E-004 +4.5969245548E-005  +9.6741306782E-001 -4.2786186934E-001 
7893146.433 +9.8605573177E-001 +2.8150290251E-002  +3.8205515011E-005 -8.1368700194E-005  +3.8256061089E-005 -1.0030846170E-004  +9.4875377417E-001 -4.1279834509E-001 
8018291.615 +9.8077023029E-001 +2.2505849600E-002  +4.0456150600E-005 +7.3410687037E-005  +9.3013288279E-005 -1.0568320431E-004  +9.2096334696E-001 -3.9957645535E-001 
8143436.796 +9.8295098543E-001 +2.2360056639E-002  +2.6070285458E-005 -6.5874014581E-006  +2.1010657292E-005 -1.8185406225E-004  +9.0305691957E-001 -3.8642424345E-001 
8268581.977 +9.8468309641E-001 +2.2318825126E-002  +4.1459807107E-005 -3.4982753277E-005  +2.6604739105E-005 +1.1705991346E-004  +8.8563770056E-001 -3.7126082182E-001 
8393727.159 +9.8435556889E-001 +2.0992249250E-002  +1.5020897990E-005 +1.8649327103E-005  +1.9650464310E-005 -1.5653575247E-004  +8.7017816305E-001 -3.5985314846E-001 
8518872.340 +9.8537230492E-001 +1.9561558962E-002  +2.9890692531E-005 -1.2329971651E-004  +2.2661501134E-005 +1.8014985835E-004  +8.5280358791E-001 -3.4571373463E-001 
8644017.522 +9.8425328732E-001 +2.2231072187E-002  -1.0612465303E-005 -5.1247698138E-005  +1.4022295363E-004 -2.6132824132E-005  +8.4189438820E-001 -3.3006697893E-001 
8769162.703 +9.8968064785E-001 +1.9281834364E-002  -7.8259108705E-005 -7.3415663792E-005  -1.9777598936E-005 +6.0299818870E-005  +8.2918632030E-001 -3.1801944971E-001 
8894307.885 +9.8359024525E-001 +2.0256638527E-002  -2.2346933838E-004 -5.5236396292E-005  -1.1902161532E-005 +2.4786428185E-005  +8.1147170067E-001 -3.0476465821E-001 
9019453.066 +9.8629599810E-001 +1.4964163303E-002  +9.6240819403E-007 -1.5679109993E-006  -3.1978306652E-005 -4.2809620936E-005  +7.9679530859E-001 -2.8872001171E-001 
9144598.248 +9.8717141151E-001 +1.5240967274E-002  -2.1286703486E-005 -7.0969625085E-005  -4.3528030801E-005 -2.0956351364E-004  +7.8769373894E-001 -2.7190566063E-001 
9269743.429 +9.8751932383E-001 +1.6794353724E-002  +7.2046306741E-005 -5.2265328122E-005  -5.8087069192E-005 +3.4138498449E-005  +7.7968174219E-001 -2.5441467762E-001 
9394888.611 +9.8810881376E-001 +1.8445044756E-002  -9.1578978754E-005 +1.2696205522E-004  -5.9865527874E-005 +2.1696529075E-005  +7.6778912544E-001 -2.4170947075E-001 
9520033.792 +9.9030888081E-001 +1.6684740782E-002  -1.5528627046E-005 +4.9067792133E-005  +1.5909419744E-005 +1.1109877960E-004  +7.6113057137E-001 -2.2426798940E-001 
9645178.974 +9.9214273691E-001 +1.7078876495E-002  -4.4233012886E-005 +6.8398207077E-005  +3.0583403714E-005 -4.4278964197E-005  +7.5204116106E-001 -2.0926350355E-001 
9770324.155 +9.9007475376E-001 +1.7271637917E-002  -3.1015079003E-006 +6.9494315539E-005  -6.1261853261E-005 -2.2991054720E-005  +7.4476122856E-001 -1.8905085325E-001 
9895469.337 +9.9097621441E-001 +1.6477078199E-002  -5.1800096116E-005 +6.8569315772E-006  +7.0973932452E-005 +3.7328136386E-006  +7.4017345905E-001 -1.7485126853E-001 
10020614.518 +9.9109101295E-001 +1.7904073000E-002  -1.1408414866E-004 -5.3051753639E-005  +6.7359811510E-005 +5.8246780100E-005  +7.3544478416E-001 -1.5667656064E-001 
10145759.700 +9.9116611481E-001 +1.5772521496E-002  +7.0009111369E-005 -4.6500790631E-005  +4.9829541240E-006 +1.4016729256E-004  +7.3183053732E-001 -1.4555418491E-001 
10270904.881 +9.9228411913E-001 +1.2620687485E-002  +8.9811386715E-005 +3.4672033507E-005  -9.9883036455E-005 +2.9115391953E-005  +7.2846126556E-001 -1.2977761030E-001 
10396050.063 +9.8967343569E-001 +1.2885093689E-002  +1.1926294974E-006 -2.0461968234E-005  +2.3350392439E-005 -3.3448381146E-005  +7.2518110275E-001 -1.1286908388E-001 
10521195.244 +9.9127423763E-001 +1.3935863972E-002  +9.8717129731E-005 -6.9268971856E-006  -5.2373539802E-005 +5.3607109294E-005  +7.2411066294E-001 -9.8961770535E-002 
10646340.426 +9.9038982391E-001 +1.3124406338E-002  -8.8150736701E-006 +9.2687580036E-005  +7.4953626608E-005 +3.3926218748E-005  +7.2275269032E-001 -8.1952720881E-002 
10771485.607 +9.9273324013E-001 +1.3267129660E-002  +8.1006901382E-006 -2.1245543394E-005  -1.5028621419E-005 -6.2654493377E-005  +7.2182476521E-001 -6.7586869001E-002 
10896630.788 +9.9112093449E-001 +1.4492213726E-002  -7.7511584095E-005 -2.7307125492E-005  -7.4122319347E-005 +4.5613713155E-005  +7.2275018692E-001 -5.1451355219E-002 
11021775.970 +9.9129843712E-001 +1.3879269361E-002  +5.2227747801E-005 +7.3870251072E-005  +2.1668322006E-005 +4.6099612518E-005  +7.2241592407E-001 -3.8705080748E-002 
11146921.151 +9.9127221107E-001 +1.2278944254E-002  +9.2291957117E-006 +7.5961048424E-005  +4.4986434659E-005 +2.4202547138E-005  +7.2401964664E-001 -2.5134056807E-002 
11272066.333 +9.8865973949E-001 +1.0058760643E-002  +1.4671046301E-005 -5.7229684899E-005  +1.7002937966E-005 +1.7348857000E-006  +7.2458904982E-001 -1.0822117329E-002 
11397211.514 +9.9203425646E-001 +9.9220573902E-003  +4.0287422962E-006 +3.2491363527E-005  +1.7179261704E-005 +5.0728427595E-005  +7.2953593731E-001 +4.0544271469E-003 
11522356.696 +9.9095052481E-001 +1.0854691267E-002  -2.9687153074E-005 +4.7217159590E-005  +5.6330831285E-005 +7.3289520515E-005  +7.3249787092E-001 +1.7769753933E-002 
11647501.877 +9.9011003971E-001 +1.1087864637E-002  -2.1301435481E-005 +1.1585665925E-004  -7.7484028225E-006 +3.1301289710E-005  +7.3406481743E-001 +3.0047357082E-002 
11772647.059 +9.9132353067E-001 +1.1692374945E-002  +8.3776496467E-005 +4.5109743951E-005  -5.0757855206E-005 +5.2030591178E-006  +7.3911589384E-001 +4.2502433062E-002 
11897792.240 +9.8957616091E-001 +1.1790305376E-002  -2.5892220947E-005 -4.8296342356E-006  +3.0135686757E-005 -3.5684774048E-005  +7.4524700642E-001 +5.6261330843E-002 
12022937.422 +9.9203562737E-001 +1.1303395033E-002  +3.2535550417E-005 +1.0968903553E-005  +2.5238091439E-006 +1.9714381779E-005  +7.5034618378E-001 +6.8719685078E-002 
12148082.603 +9.9172937870E-001 +9.9306702614E-003  -1.3284010492E-005 +4.0423728933E-005  +5.1350370995E-006 +4.6509423555E-005  +7.5816941261E-001 +8.1454575062E-002 
12273227.785 +9.9074602127E-001 +1.1288195848E-002  +2.1544270567E-005 +7.7251635958E-005  +9.2196860351E-005 +4.4628344767E-005  +7.6401054859E-001 +9.3333333731E-002 
12398372.966 +9.9069774151E-001 +1.0663717985E-002  +6.1437895056E-005 -4.5677970775E-006  +2.4114893677E-005 +2.4977307476E-005  +7.7228349447E-001 +1.0468895733E-001 
12523518.148 +9.8924255371E-001 +1.0707020760E-002  +3.4938941099E-005 +2.9790080589E-006  -3.6310666474E-008 -8.6523123173E-006  +7.7997159958E-001 +1.1518096924E-001 
12648663.329 +9.9039715528E-001 +1.0592281818E-002  +5.8278881625E-005 -6.2797780629E-006  +5.4910888139E-005 +5.5964446801E-005  +7.8765499592E-001 +1.2557213008E-001 
12773808.511 +9.9051529169E-001 +8.9580714703E-003  -1.4794049093E-005 -1.3213190869E-005  +4.1948303988E-005 -1.5119350792E-005  +7.9660767317E-001 +1.3511578739E-001 
12898953.692 +9.9077510834E-001 +8.1079155207E-003  -1.8789753085E-005 +1.0783203834E-005  +4.3472369725E-005 +2.3659320505E-005  +8.0561137199E-001 +1.4337089658E-001 
13024098.874 +9.9036318064E-001 +8.7067261338E-003  +3.5050779843E-005 -2.9880843613E-006  +5.3439041949E-005 +6.4765154093E-005  +8.1462967396E-001 +1.5308693051E-001 
13149244.055 +9.9031817913E-001 +9.1201737523E-003  +5.3899995692E-005 +7.2288871706E-006  +3.9341866795E-005 +5.2603245422E-005  +8.2559454441E-001 +1.6148331761E-001 
13274389.237 +9.9014878273E-001 +8.6417607963E-003  +3.8445341488E-005 +3.5079592635E-005  -1.7999323973E-005 +5.1738727052E-005  +8.3706820011E-001 +1.6902628541E-001 
13399534.418 +9.9021196365E-001 +8.6156725883E-003  +6.6492884798E-006 +3.2061903767E-005  +3.6754747725E-006 +3.4172648157E-005  +8.4728771448E-001 +1.7739124596E-001 
13524679.599 +9.8953670263E-001 +8.8393762708E-003  +3.3535179682E-005 +5.8925306803E-006  +1.4446617570E-005 +4.4863452786E-005  +8.5865205526E-001 +1.8398173153E-001 
13649824.781 +9.9017196894E-001 +8.0281347036E-003  +3.5218788980E-005 -1.1209687727E-005  +2.2158999855E-005 +3.8988473534E-005  +8.7131720781E-001 +1.8851847947E-001 
13774969.962 +9.8955708742E-001 +8.3709061146E-003  -9.2145164672E-006 +1.7052794647E-005  +5.3837138694E-006 +7.1152535384E-005  +8.8179445267E-001 +1.9308978319E-001 
13900115.144 +9.8925358057E-001 +8.7074935436E-003  +1.9840214009E-005 +2.0168008632E-005  -1.7175434550E-006 +3.7716908992E-005  +8.9343047142E-001 +1.9769653678E-001 
14025260.325 +9.8835808039E-001 +8.7776482105E-003  +5.1171587984E-005 +1.8541302779E-005  -1.8622296921E-005 +7.3052928201E-005  +9.0634298325E-001 +2.0116814971E-001 
14150405.507 +9.8872041702E-001 +8.7623000145E-003  +1.8121325411E-005 +3.0515671824E-005  +1.3914158444E-005 +4.3853553507E-005  +9.1864556074E-001 +2.0457094908E-001 
14275550.688 +9.8887991905E-001 +8.4419250488E-003  +8.5699730334E-006 +4.2211235268E-005  +1.4792027287E-005 +6.4929947257E-005  +9.3124842644E-001 +2.0591105521E-001 
14400695.870 +9.8777580261E-001 +7.6037049294E-003  +2.4218030376E-005 +5.7607354393E-005  -2.9954871934E-006 +3.3302061638E-005  +9.4323790073E-001 +2.0773726702E-001 
