!  2-Port S-parameters saved by WinCal
! VAR MeasName=S-Parameters (CALIBRATED_DATA) read from VNA (P5004A)
! VAR MeasDate=22/05/2024 21:31:59
! VAR NAME=Wafer3_r3_c6_pristine_pos0.0dc
! VAR FILENAME=Wafer3_r3_c6_pristine_pos0.0dc.S2P
! VAR DATE=22/05/2024 21:31:59
! VAR PHYS_PORTS=1,2
! VAR ObjTypeName=DATASET
! VAR IndexType=Frequency
!
# Hz S RI R 50
9000.000 +2.1683430672E-001 -5.9873241186E-001  +1.3052660506E-003 -1.4644745970E-003  -2.7924613096E-003 -7.2484218981E-004  +4.5889917761E-002 +1.0985478759E-001 
134145.181 +6.3353967667E-001 -4.7884951346E-003  -1.2279439252E-003 -1.0707535781E-002  -1.5318078222E-003 -8.6779519916E-003  +6.2800329924E-001 -1.5992864966E-001 
259290.363 +8.2385003567E-001 -1.2918947637E-001  +2.6497151703E-004 -1.2529619271E-003  +1.6151781892E-003 +1.3213956263E-003  +9.8405927420E-001 -1.4943249524E-001 
384435.544 +8.9921218157E-001 -3.0544918776E-001  -2.2441670299E-003 -1.0998031939E-004  +1.6972604208E-003 -2.0259085577E-003  +1.0756605864E+000 -2.1831998229E-001 
509580.726 +9.5848798752E-001 -1.6546365619E-001  +1.0499320342E-004 -7.5061351527E-004  -1.0236824164E-003 -4.2343375389E-004  +1.0557951927E+000 -9.6180349588E-002 
634725.907 +1.1041841507E+000 -2.0957961679E-001  +1.8583929341E-004 +1.9863249327E-004  -3.8103840780E-004 +2.4171297264E-004  +1.1309936047E+000 -8.0398201942E-002 
759871.089 +1.3067700863E+000 -5.2506327629E-002  +3.3221737249E-004 +1.1679579038E-003  -9.9546415731E-004 -7.6620141044E-005  +1.2060828209E+000 +2.7690619230E-002 
885016.270 +1.4722813368E+000 -1.2038302422E+000  +5.2905212215E-005 -5.6089953432E-005  -1.3345879270E-003 +1.7621138832E-003  +1.3435449600E+000 +1.0880745947E-001 
1010161.452 +1.0971425772E+000 -6.8070948124E-002  -6.2161590904E-004 +3.5159706604E-003  +3.6192257539E-004 -1.4583496377E-003  +5.2228218317E-001 -2.9726004601E-001 
1135306.633 +1.0700515509E+000 -5.5744081736E-002  -1.1816470651E-003 -5.5912445532E-004  -1.0835888097E-003 -1.2403944856E-004  +9.6254205704E-001 +7.4082911015E-003 
1260451.815 +1.4162471294E+000 -1.8758714199E-002  +8.4322760813E-004 +5.3309212672E-004  -7.3023853474E-005 +3.2352030394E-004  +1.0884438753E+000 +1.1226972938E-001 
1385596.996 +1.3172267675E+000 -1.4552089572E-001  -2.3684848566E-004 -8.5631752154E-004  +2.9181197533E-005 +1.8638058464E-005  +1.1911621094E+000 +1.2025916576E-001 
1510742.178 +1.5148298740E+000 -2.7592211962E-001  -4.3795902457E-005 +2.0538934041E-004  +1.0314295068E-003 -2.7556938585E-004  +1.5198910236E+000 +3.2982763648E-001 
1635887.359 +9.8021405935E-001 -4.0306243300E-001  +1.0160934180E-003 +1.1953118956E-003  -1.4461856335E-003 +1.7366327811E-003  +1.1459188461E+000 -2.9709535837E-001 
1761032.541 +1.0569896698E+000 -4.6110385656E-001  +9.3524769181E-004 -8.4442138905E-004  +1.0968450224E-003 -1.9096779579E-004  +1.0771234035E+000 -3.9083665609E-001 
1886177.722 +9.5869886875E-001 -2.8594481945E-001  +3.5453028977E-004 +2.7187904343E-003  +1.3249549083E-003 +2.4699370842E-003  +1.0005105734E+000 -1.9190305471E-001 
2011322.904 +9.3129301071E-001 -2.2518071532E-001  +1.1723241769E-003 -5.3021142958E-004  +9.7314937739E-004 +2.9469071887E-004  +1.0076379776E+000 -1.0597619414E-001 
2136468.085 +9.5787668228E-001 -1.8377065659E-001  -6.4495683182E-004 +4.5933556976E-004  +8.6627545534E-004 +1.0523688979E-003  +1.0080424547E+000 -9.2102736235E-002 
2261613.267 +9.4909167290E-001 -1.6089785099E-001  +1.8288653519E-004 +2.0451641467E-004  -4.1377672460E-004 -1.4278314484E-004  +9.9719417095E-001 -6.1038941145E-002 
2386758.448 +9.4445419312E-001 -1.4294704795E-001  +6.0444028350E-004 -6.6182081355E-005  -5.5994125432E-005 -2.8388900682E-004  +1.0009869337E+000 -5.2209049463E-002 
2511903.630 +9.4559490681E-001 -1.0203728080E-001  +3.8300515735E-004 +3.5381931229E-004  -3.5604735604E-004 -5.3834053688E-005  +1.0076153278E+000 -3.0580133200E-002 
2637048.811 +9.5761501789E-001 -9.7797721624E-002  +7.3349852755E-005 -1.0568135622E-005  +2.9981875559E-004 +4.1622263961E-004  +9.8963880539E-001 -9.6085369587E-003 
2762193.992 +9.5464134216E-001 -8.1594243646E-002  -4.8754899763E-004 +3.6024375004E-004  +1.3585211127E-004 +3.1749517075E-004  +9.9374222755E-001 +1.3962432742E-002 
2887339.174 +9.2166537046E-001 -8.8270515203E-002  -8.6254399503E-004 +1.2969514355E-003  +1.1737160094E-004 -9.0070796432E-005  +9.9247372150E-001 +2.7685858309E-002 
3012484.355 +9.1269689798E-001 -6.1415504664E-002  +1.7545267474E-004 +4.3393811211E-004  +5.1624578191E-004 -1.1960506527E-004  +9.8359227180E-001 +3.9603583515E-002 
3137629.537 +9.0862673521E-001 -1.1393553577E-002  +4.2193700210E-004 +1.4033680782E-004  -2.1608114184E-004 -7.6514546527E-004  +9.8627084494E-001 +6.2481354922E-002 
3262774.718 +8.9377671480E-001 +1.8867073581E-002  +5.6908361148E-004 -1.3016531011E-003  +4.9799081171E-004 +2.9131054180E-004  +9.9292200804E-001 +8.9753255248E-002 
3387919.900 +8.9675194025E-001 +5.0734408200E-002  -2.0815970493E-004 +7.2104361607E-004  +4.1745102499E-004 +4.1800193139E-004  +9.9681490660E-001 +9.4770006835E-002 
3513065.081 +9.0747374296E-001 +6.5753422678E-002  +3.3064695890E-004 -1.5540384993E-005  +3.3515068935E-004 +1.5200360212E-004  +1.0109096766E+000 +1.2845598161E-001 
3638210.263 +9.1635930538E-001 +9.6855193377E-002  -2.2684089345E-005 -3.7509779213E-004  +9.0746965725E-005 -3.3980817534E-004  +1.0282312632E+000 +1.2858393788E-001 
3763355.444 +9.4740450382E-001 +1.1280167103E-001  +8.1535174104E-005 -1.7746959202E-005  +1.1155234097E-004 +8.0715763033E-005  +1.0488054752E+000 +1.3159136474E-001 
3888500.626 +9.6430188417E-001 +1.3813178241E-001  -1.1602838640E-004 -2.0527763991E-004  +1.4316906163E-004 +2.1759977244E-005  +1.0739002228E+000 +1.5978144109E-001 
4013645.807 +9.1627287865E-001 +7.5955979526E-002  -3.5991467303E-004 +4.5388882427E-005  -3.6846863804E-004 +5.8183388319E-005  +1.0255156755E+000 +6.7378610373E-002 
4138790.989 +8.5873347521E-001 +1.3471342623E-002  -1.0316020052E-004 -3.2487491262E-004  -5.5740190874E-005 +1.4787138207E-004  +9.5371621847E-001 +9.3320533633E-003 
4263936.170 +8.5602313280E-001 +3.0831113458E-002  -1.1845066183E-004 -1.1983473087E-004  -1.6335837427E-004 -7.0648110704E-004  +9.5941519737E-001 -1.0126177222E-002 
4389081.352 +8.8013648987E-001 +2.9100589454E-002  -8.7540836830E-005 -6.7949263212E-006  +2.3228286591E-004 +3.4460845200E-005  +9.5945698023E-001 -7.2909630835E-003 
4514226.533 +8.9626598358E-001 +3.8080215454E-002  -6.5147678833E-004 -3.3423717832E-004  -5.1031517796E-004 +4.6240308438E-004  +9.5986062288E-001 -1.2432130054E-002 
4639371.715 +9.0823537111E-001 +3.7818826735E-002  +5.3376483265E-004 +3.1576110632E-004  -1.9207641890E-004 -2.7682847576E-004  +9.7356420755E-001 -1.0326081887E-002 
4764516.896 +9.0495121479E-001 +3.5769920796E-002  +1.3815122657E-004 +1.6023819626E-004  +9.6308642242E-005 -4.8016500659E-004  +9.7150719166E-001 -1.4452348463E-002 
4889662.078 +9.1986644268E-001 +3.5054475069E-002  +7.8954028140E-005 +2.3674486147E-004  +8.7261440058E-005 -1.9120411889E-004  +9.7185480595E-001 -1.0903354734E-002 
5014807.259 +9.1317909956E-001 +3.6812879145E-002  -3.8953701733E-004 +6.9356508902E-005  -9.7654381534E-005 -4.9158040201E-004  +9.7156333923E-001 -5.2855806425E-003 
5139952.441 +9.3086618185E-001 +2.2590162233E-002  -1.5449701459E-004 +1.9068064285E-004  -1.6374955521E-005 -1.6787907225E-004  +9.7439563274E-001 -1.6862129793E-002 
5265097.622 +9.3469709158E-001 +4.2360596359E-002  +2.2926076781E-004 +4.5572924137E-005  +1.7379135534E-004 +2.1300445951E-004  +9.7188025713E-001 -1.7737098038E-002 
5390242.804 +9.3730783463E-001 +3.8741864264E-002  +2.1061192092E-004 -2.5216702488E-004  +1.5253707534E-004 +1.4199988800E-004  +9.6930122375E-001 -9.5128044486E-003 
5515387.985 +9.4531089067E-001 +3.3395491540E-002  +1.7187425692E-004 -4.3964297220E-005  -5.7530167396E-005 -1.0072233272E-004  +9.7549712658E-001 -2.3245610297E-002 
5640533.166 +9.5408457518E-001 +4.0507409722E-002  -2.6365066878E-004 -2.8105001547E-004  -2.6810484997E-006 +4.9579550978E-004  +9.7216641903E-001 -1.3028427958E-002 
5765678.348 +9.4806861877E-001 +3.5573039204E-002  +2.3395006428E-004 +7.0433037763E-005  -7.4103460065E-005 -3.3858860843E-004  +9.7733741999E-001 -1.6390733421E-002 
5890823.529 +9.5742785931E-001 +3.4882828593E-002  +2.2580279619E-004 -2.0850551664E-004  +1.4944754366E-004 -1.3647625747E-004  +9.7744411230E-001 -1.6081266105E-002 
6015968.711 +9.5583903790E-001 +3.0952639878E-002  -6.2005656218E-006 +9.1930713097E-005  -2.2339679708E-004 -3.3526984043E-004  +9.8247337341E-001 -1.2262046337E-002 
6141113.892 +9.6387904882E-001 +3.0491232872E-002  -2.1423265935E-005 -2.3296487052E-004  -3.5738854785E-004 -1.2096414139E-005  +9.7793316841E-001 -1.0804511607E-002 
6266259.074 +9.6119391918E-001 +2.6454582810E-002  +1.3832323020E-004 +4.1302165482E-004  +1.8955906853E-004 -9.3150752946E-005  +9.7714227438E-001 -1.0025918484E-002 
6391404.255 +9.7027570009E-001 +2.8380185366E-002  +1.9533874001E-004 +4.3948832899E-004  -1.7115214723E-004 -8.9482142357E-005  +9.7509062290E-001 -1.8398769200E-002 
6516549.437 +9.6978038549E-001 +2.8881475329E-002  +8.7029857241E-006 +1.4119544358E-004  -4.5625602070E-006 -2.4523041793E-004  +9.8126369715E-001 -1.5517733991E-002 
6641694.618 +9.7757482529E-001 +2.9777258635E-002  +3.6207132507E-004 -4.4149433961E-005  +5.6940145441E-005 -1.0761353769E-004  +9.8335248232E-001 -8.6954683065E-003 
6766839.800 +9.8336708546E-001 +2.5146082044E-002  -3.8333470002E-005 -1.5943056496E-004  -8.3277656813E-005 -1.2174607400E-004  +9.8045271635E-001 -1.4330461621E-002 
6891984.981 +9.7865402699E-001 +2.7216158807E-002  +1.7338458565E-004 -1.0370888776E-004  -2.4402719282E-004 -1.3264411245E-004  +9.6945708990E-001 -1.9212216139E-002 
7017130.163 +9.7910028696E-001 +2.5133542717E-002  -5.3166360885E-005 +2.5061215274E-004  -1.1399315554E-004 +1.8186328816E-005  +9.7839576006E-001 -1.5253543854E-002 
7142275.344 +9.7881203890E-001 +2.3973882198E-002  +3.3455737866E-004 +1.4743165229E-004  +1.3283250155E-004 -2.7827651138E-005  +9.7749996185E-001 -2.9487609863E-003 
7267420.526 +9.8036843538E-001 +2.7563378215E-002  -1.7174806999E-005 +3.9404985728E-005  -7.4907933595E-005 -2.4105360353E-005  +9.7486847639E-001 -8.0848932266E-003 
7392565.707 +9.8254191875E-001 +2.7999550104E-002  +1.1774820450E-004 +1.9681616686E-004  -9.5123126812E-005 +1.4223833205E-005  +9.8174631596E-001 -7.5847059488E-003 
7517710.889 +9.8471343517E-001 +2.6458278298E-002  +2.3616911494E-004 +6.7143999331E-005  +1.8677077605E-004 +8.9971887064E-005  +9.7806191444E-001 -1.0851174593E-002 
7642856.070 +9.7752195597E-001 +2.5631517172E-002  -5.6822857005E-005 +6.0821588704E-005  +5.5351916671E-005 -1.8966311472E-006  +9.7354358435E-001 -1.2707129121E-002 
7768001.252 +9.8630052805E-001 +1.9506156445E-002  +3.0560896266E-004 +1.8752078176E-004  -2.6775065635E-005 +2.0248717192E-005  +9.7266370058E-001 -1.2327998877E-002 
7893146.433 +9.8646008968E-001 +2.4359464645E-002  +3.1234137714E-004 +1.3952156587E-004  -5.2512750699E-005 -2.6924736449E-004  +9.7325009108E-001 -8.1304013729E-003 
8018291.615 +9.8211300373E-001 +2.0169645548E-002  -1.7548554752E-006 +9.0874993475E-005  -8.8397733634E-005 -2.1760375603E-005  +9.7216504812E-001 -9.0815126896E-003 
8143436.796 +9.8240405321E-001 +1.7790839076E-002  -1.4186071348E-004 -6.7565393692E-005  +5.8496705606E-005 +6.3888131990E-005  +9.7351449728E-001 -1.8880367279E-003 
8268581.977 +9.8055166006E-001 +1.8026635051E-002  +1.9142673409E-004 +9.4835908385E-005  +1.0293311061E-004 -1.2956754654E-004  +9.7312772274E-001 -1.8808245659E-003 
8393727.159 +9.8379731178E-001 +1.5480428934E-002  -2.6313704439E-005 -2.8177868808E-004  +3.8700785808E-005 -1.1892960174E-004  +9.7618913651E-001 -2.2291839123E-003 
8518872.340 +9.8565649986E-001 +1.4533340931E-002  +3.5710552766E-005 +2.9987500056E-006  -2.4547754947E-005 +1.4791087597E-004  +9.7604352236E-001 +3.8027763367E-004 
8644017.522 +9.8283773661E-001 +1.9820928574E-002  +7.2125752922E-005 -6.6644592152E-005  -1.6926840544E-005 +1.2911741214E-004  +9.7580552101E-001 -2.7659535408E-004 
8769162.703 +9.8813706636E-001 +1.7604082823E-002  -1.3721275900E-004 +4.1669009079E-006  -1.5883165179E-004 +7.6619442552E-005  +9.7557079792E-001 -2.1705031395E-003 
8894307.885 +9.8586553335E-001 +1.6813904047E-002  -2.6868848363E-004 -9.0813126008E-005  +1.2030729704E-004 +1.3275195670E-005  +9.7319090366E-001 -2.7399361134E-003 
9019453.066 +9.8585754633E-001 +1.2570202351E-002  +6.6819055064E-005 +7.0979498560E-005  -3.8217935071E-005 -4.9766837037E-005  +9.7567337751E-001 -1.9698739052E-003 
9144598.248 +9.8636484146E-001 +1.2801051140E-002  +9.3534661573E-005 +3.9981445298E-005  +1.0885727534E-004 +2.1741516321E-005  +9.7411549091E-001 -1.1507272720E-003 
9269743.429 +9.8793047667E-001 +1.6418188810E-002  +6.1827931859E-006 +8.2704782471E-006  +1.0927892436E-004 -4.7082983656E-005  +9.7698783875E-001 +1.7702579498E-004 
9394888.611 +9.8771071434E-001 +1.8541991711E-002  -1.7327698879E-004 +5.4385152907E-005  +7.0609632530E-005 +7.5910211308E-005  +9.7627204657E-001 -2.9401183128E-003 
9520033.792 +9.8587411642E-001 +1.0621160269E-002  -7.0705746111E-006 -9.1714910013E-006  +4.6708126320E-005 -5.1363203966E-005  +9.7749304771E-001 +2.1663904190E-003 
9645178.974 +9.8898488283E-001 +1.2980759144E-002  -1.1720596376E-004 -1.0753454990E-004  -2.6590871130E-005 -2.7005573429E-005  +9.7701901197E-001 +2.2225379944E-003 
9770324.155 +9.8841685057E-001 +1.3352900743E-002  +2.8809929063E-005 +1.2175183656E-005  -3.0802100810E-005 -1.4168395865E-005  +9.7348779440E-001 -3.1799077988E-004 
9895469.337 +9.8787081242E-001 +1.5319287777E-002  +7.4627391768E-006 -2.4233582735E-005  -1.1830659787E-005 -2.2210133466E-007  +9.7446072102E-001 -1.2227892876E-004 
10020614.518 +9.8761868477E-001 +1.5707582235E-002  -5.0810667744E-005 -1.0767135791E-005  -4.5875480282E-005 -7.5940610259E-005  +9.7633540630E-001 +2.4358332157E-003 
10145759.700 +9.8900175095E-001 +1.3502985239E-002  +3.1519033655E-005 +5.9971876908E-005  -6.0678452428E-005 +2.5877601729E-005  +9.7700011730E-001 +4.9829483032E-005 
10270904.881 +9.9084949493E-001 +9.9520683289E-003  -6.1010148784E-005 +1.0400180327E-004  -1.3365670384E-006 -2.7018966648E-005  +9.7840499878E-001 +2.3251473904E-003 
10396050.063 +9.8808807135E-001 +1.0616451502E-002  -4.1187064198E-005 +1.6244302969E-006  +1.1158595589E-004 +1.3729695638E-006  +9.7828006744E-001 +3.6231875420E-003 
10521195.244 +9.9015301466E-001 +1.4702409506E-002  +8.7948528744E-006 +1.1814302525E-005  -5.9758556745E-005 -5.8058885770E-006  +9.7996389866E-001 +3.4098625183E-003 
10646340.426 +9.9049580097E-001 +1.0747045279E-002  -2.6664205507E-005 -5.0665330491E-005  -5.6777618738E-005 +5.4489719332E-005  +9.7882157564E-001 +5.2567720413E-003 
10771485.607 +9.9045604467E-001 +1.1503398418E-002  -1.3725046301E-005 +6.2922030338E-005  -6.3503130150E-006 -3.2882522646E-005  +9.7980839014E-001 +7.6313614845E-003 
10896630.788 +9.8909157515E-001 +1.2647449970E-002  -9.4256793091E-005 -1.2417636754E-005  -2.8132230000E-005 -2.3106613298E-006  +9.7911322117E-001 +5.3894519806E-003 
11021775.970 +9.8966526985E-001 +1.3332724571E-002  +4.3874686526E-005 -1.7999822376E-005  -3.3621869079E-005 -9.0146613729E-006  +9.8113375902E-001 +7.3176920414E-003 
11146921.151 +9.9007880688E-001 +1.0460495949E-002  -3.0744151445E-005 +2.4630018743E-005  +3.7673366023E-005 +4.4344931666E-005  +9.8096209764E-001 +7.5129866600E-003 
11272066.333 +9.8826581240E-001 +1.0520815849E-002  -2.1664574888E-005 +6.7587214289E-005  -3.9056092646E-005 +3.4793039958E-005  +9.7894805670E-001 +7.7177882195E-003 
11397211.514 +9.9099636078E-001 +1.1012732983E-002  -8.9349996415E-006 +1.0150577145E-004  -2.1779625968E-005 +5.9396807046E-005  +9.8196244240E-001 +7.1901679039E-003 
11522356.696 +9.9055290222E-001 +1.4067411423E-002  +5.1012750191E-005 -4.8176047130E-005  -1.9531655198E-005 -1.8159169485E-005  +9.8215818405E-001 +6.7073404789E-003 
11647501.877 +9.8880201578E-001 +1.2481898069E-002  +5.8682462623E-006 -1.6743959350E-005  -2.3884658731E-006 +2.3096758014E-005  +9.8146927357E-001 +7.3136985302E-003 
11772647.059 +9.9114483595E-001 +1.2086719275E-002  +4.7799003369E-005 +3.9056041715E-005  -7.7202043030E-005 -2.3507282094E-005  +9.8199158907E-001 +6.9358944893E-003 
11897792.240 +9.9142831564E-001 +1.2587636709E-002  -9.1335095931E-005 -4.7840276238E-005  +4.7302411986E-005 +1.4689576346E-006  +9.8267090321E-001 +7.5940489769E-003 
12022937.422 +9.9255371094E-001 +1.3887554407E-002  -3.2095897041E-005 -1.8440112399E-005  +6.1693845055E-006 +7.9779274529E-006  +9.8172807693E-001 +6.3460767269E-003 
12148082.603 +9.9158823490E-001 +1.2178808451E-002  +1.7461663447E-005 +3.5411383578E-005  -1.0249776096E-004 +7.5705334893E-005  +9.8473215103E-001 +8.9190900326E-003 
12273227.785 +9.9281078577E-001 +1.1436462402E-002  +4.1192011849E-005 +9.3544213087E-006  -2.5788744097E-005 +5.9290359786E-006  +9.8403650522E-001 +7.4093043804E-003 
12398372.966 +9.9257349968E-001 +1.2357950211E-002  -2.3991593480E-005 +5.9117672208E-005  +4.7687331971E-005 +3.1792671507E-005  +9.8533886671E-001 +8.4583461285E-003 
12523518.148 +9.9094420671E-001 +1.1880040169E-002  -1.6306354155E-005 -3.1893567211E-005  +6.4458319684E-005 +4.1205596062E-005  +9.8322343826E-001 +8.7115466595E-003 
12648663.329 +9.9196434021E-001 +1.2606322765E-002  +8.0298441389E-006 -1.7378053599E-005  +1.5663012164E-005 +7.9138885667E-007  +9.8575186729E-001 +7.9147219658E-003 
12773808.511 +9.9255234003E-001 +1.1142477393E-002  -1.9626202629E-005 +4.9159439186E-006  -3.3700198401E-005 -4.7073408496E-006  +9.8558032513E-001 +8.4068924189E-003 
12898953.692 +9.9255323410E-001 +1.0318979621E-002  +1.9906479793E-005 -5.8237717894E-005  -1.1579176316E-005 +3.1494753785E-005  +9.8496347666E-001 +7.5086280704E-003 
13024098.874 +9.9251514673E-001 +1.1076733470E-002  +3.0351500754E-005 +3.8729558582E-005  -8.4957864601E-006 +2.2333556444E-006  +9.8562693596E-001 +9.8331421614E-003 
13149244.055 +9.9228084087E-001 +9.7022354603E-003  -3.1689990010E-006 -2.0574663722E-005  +1.9337030608E-005 +3.1708397728E-005  +9.8614299297E-001 +9.3844253570E-003 
13274389.237 +9.9226909876E-001 +1.0171607137E-002  +1.3323041458E-005 -6.9741108746E-005  -7.6276262462E-007 +2.4030496206E-005  +9.8672705889E-001 +9.0492777526E-003 
13399534.418 +9.9296045303E-001 +1.0363563895E-002  -5.6504686654E-006 +3.2027863199E-005  -2.6676376365E-005 -7.3244746090E-006  +9.8630523682E-001 +8.4209963679E-003 
13524679.599 +9.9222326279E-001 +1.2413010001E-002  -5.3047074289E-006 +7.0609290560E-005  -1.9315157260E-005 +5.1346723922E-005  +9.8737543821E-001 +9.0631023049E-003 
13649824.781 +9.9332064390E-001 +1.1047691107E-002  -8.3648556028E-006 +1.5087777683E-005  +1.9270659323E-005 +1.7588257833E-005  +9.8809278011E-001 +8.0894231796E-003 
13774969.962 +9.9238240719E-001 +9.0585500002E-003  -7.7355580288E-006 +2.1699235731E-005  -6.4942696554E-007 +2.4414257496E-005  +9.8754179478E-001 +8.1980675459E-003 
13900115.144 +9.9302411079E-001 +9.7923874855E-003  -3.5067412682E-005 -2.9568966056E-005  +3.0306475310E-005 +2.8919323086E-005  +9.8695904016E-001 +7.8618228436E-003 
14025260.325 +9.9182796478E-001 +9.9655985832E-003  -8.9751547421E-006 +1.4266954167E-005  +1.8395934603E-005 +1.2507078281E-005  +9.8780673742E-001 +8.7827742100E-003 
14150405.507 +9.9235320091E-001 +1.0268479586E-002  +1.9482880816E-005 +1.9250578589E-006  +5.5550190154E-005 +1.7844671675E-005  +9.8760837317E-001 +9.7996890545E-003 
14275550.688 +9.9220937490E-001 +9.8939836025E-003  -8.5824140115E-006 -5.5873892961E-006  -7.4177874012E-006 +2.3636655897E-005  +9.8826748133E-001 +9.0470314026E-003 
14400695.870 +9.9073785543E-001 +8.6749494076E-003  -5.7401011873E-005 +5.6016513554E-005  +1.7212883904E-005 +2.3805843739E-005  +9.8790037632E-001 +9.2723667622E-003 
