!  2-Port S-parameters saved by WinCal
! VAR MeasName=S-Parameters (CALIBRATED_DATA) read from VNA (P5004A)
! VAR MeasDate=22/05/2024 22:08:33
! VAR NAME=Wafer3_r2_c5_pristine_pos40dc
! VAR FILENAME=Wafer3_r2_c5_pristine_pos40dc.S2P
! VAR DATE=22/05/2024 22:08:33
! VAR PHYS_PORTS=1,2
! VAR ObjTypeName=DATASET
! VAR IndexType=Frequency
!
# Hz S RI R 50
9000.000 +2.0630848408E-001 -6.0231959820E-001  +4.1460352950E-003 +3.9279614575E-003  -2.4897034746E-004 -2.3325458169E-003  +4.1981365532E-002 +1.1109954119E-001 
134145.181 +7.0059621334E-001 +1.2311458588E-002  -8.4139518440E-003 -4.8034186475E-003  +1.9732935354E-002 -1.4253880829E-002  +2.6659440994E-001 -1.3367573917E-001 
259290.363 +8.7819766998E-001 -1.1259144545E-001  +1.2938362546E-002 -4.2116194963E-002  -2.7151741087E-002 -1.4190261252E-002  -4.4129109383E-001 -3.3599033952E-001 
384435.544 +8.7827450037E-001 -2.6905924082E-001  -6.8083922379E-003 +2.6197291445E-003  +2.0755431615E-004 +3.4466539510E-003  +3.2336119562E-002 -1.0126465559E-001 
509580.726 +9.6386444569E-001 -1.3204091787E-001  -1.6580907628E-002 +6.9136526436E-003  +5.0901528448E-003 +3.8670608774E-005  -4.0178188682E-001 +1.7042160034E-001 
634725.907 +1.0917418003E+000 -2.0394214988E-001  +7.7596167102E-004 -1.3153280597E-003  +7.7213137411E-004 -1.0635522194E-003  +8.3803510666E-001 -2.1902732551E-001 
759871.089 +1.3275350332E+000 -7.7556490898E-002  +1.2210426212E-004 +6.3528300961E-004  +4.3247736176E-004 -1.9832066027E-004  +1.4787747860E+000 +1.5292158723E-001 
885016.270 +2.5029997826E+000 -1.5772923231E+000  +2.9517910443E-003 -4.0503423661E-003  +1.4652208192E-003 -4.8639662564E-003  +1.2976683378E+000 +4.4218945503E-001 
1010161.452 +8.4952598810E-001 -2.8780281544E-002  -1.3842452317E-003 -1.4435316552E-004  +3.5972002661E-004 +7.1501504863E-005  +1.2125761509E+000 +4.9539190531E-001 
1135306.633 +7.4766373634E-001 +1.0371325910E-001  +1.8426557072E-003 -8.0693993368E-005  +8.7855872698E-004 +2.9716320569E-004  +1.3087095022E+000 +6.3868695498E-001 
1260451.815 +1.2375572920E+000 +7.0044815540E-002  -7.5609728810E-005 -6.5805448685E-004  +9.8328659078E-005 -1.0723312153E-003  +1.0784552097E+000 +7.2920012474E-001 
1385596.996 +1.2229254246E+000 -1.4191782475E-001  -7.9850049224E-004 +1.2387486640E-004  -2.1271397418E-004 +2.8823225875E-004  +9.6711891890E-001 +4.9762251973E-001 
1510742.178 +1.3283277750E+000 -3.3472102880E-001  +1.3298506383E-004 +1.1284087668E-004  +2.4466656032E-004 -1.0245534941E-004  +6.6250050068E-001 +5.7267940044E-001 
1635887.359 +7.7177006006E-001 -3.7636059523E-001  -2.0831642905E-004 -4.5439874521E-004  +5.3276610561E-004 -2.7732475428E-004  +1.5044366121E+000 +6.4958649874E-001 
1761032.541 +6.7083895206E-001 -3.8889306784E-001  -2.7276293258E-004 -2.6493493351E-005  +8.9613988530E-004 -1.9686750602E-004  +1.0850579739E+000 +8.1914049387E-001 
1886177.722 +7.2217702866E-001 -1.2248915434E-001  -1.8411415112E-006 +3.1395760016E-004  +1.7092555936E-005 -2.1381683473E-004  +1.1330468655E+000 +5.5219399929E-001 
2011322.904 +7.9296195507E-001 -5.7877764106E-002  +1.4318211470E-004 +3.4884279012E-004  +3.5174464574E-004 -2.8613593895E-004  +1.1476223469E+000 +5.1602131128E-001 
2136468.085 +8.2701921463E-001 -7.5072020292E-002  +7.1264883445E-005 +1.3198635133E-004  -1.1408806313E-004 -1.3419517200E-004  +1.0908989906E+000 +4.6452417970E-001 
2261613.267 +8.3602660894E-001 -6.8237423897E-002  +2.8907755041E-004 -1.0651885532E-005  -1.0090680007E-004 +1.0409693641E-004  +1.0529803038E+000 +4.9947208166E-001 
2386758.448 +8.2684046030E-001 -5.1704257727E-002  -1.1718244059E-004 +6.7728367867E-005  +1.5206115495E-004 -2.8570479481E-004  +1.0764732361E+000 +5.2413034439E-001 
2511903.630 +8.3616983891E-001 -2.7479350567E-002  +1.5443853044E-004 -2.5874800485E-005  -1.0692181240E-004 -1.7265076167E-005  +1.1238865852E+000 +5.5625796318E-001 
2637048.811 +8.5090184212E-001 -2.6484288275E-002  -2.4975364795E-004 -2.3577378306E-004  +1.1868357251E-004 -5.1930710470E-005  +1.1460264921E+000 +5.7870048285E-001 
2762193.992 +8.4664976597E-001 -4.5650392771E-002  -1.0973919416E-004 +3.1993520679E-004  +5.2361923736E-005 +5.6675311498E-005  +1.1788511276E+000 +4.6109282970E-001 
2887339.174 +7.9892104864E-001 -3.4685328603E-002  +5.3506984841E-004 +1.4860645751E-004  -5.3396768635E-004 -1.9333497039E-004  +1.0222203732E+000 +4.2350500822E-001 
3012484.355 +7.8964263201E-001 +1.1102482677E-004  -5.2451144438E-004 +3.4595042234E-004  -5.0335645210E-004 -1.1858795915E-004  +9.4545614719E-001 +5.2958273888E-001 
3137629.537 +7.9041838646E-001 +2.8160620481E-002  +1.9821638125E-004 -6.1706468841E-006  -1.4229732915E-004 +5.6049803970E-004  +9.6711158752E-001 +6.4046341181E-001 
3262774.718 +7.9596287012E-001 +5.7314001024E-002  -4.0465290658E-004 +1.7116936215E-004  +1.2207691907E-004 +1.3078475604E-004  +1.0104566813E+000 +7.0985281467E-001 
3387919.900 +7.9119700193E-001 +8.0406121910E-002  +2.4676072644E-004 +3.1321018469E-004  -4.7610908950E-005 -9.0459780040E-006  +1.0465623140E+000 +7.7014899254E-001 
3513065.081 +8.0152124166E-001 +9.2877894640E-002  -2.5110883871E-004 +1.9822805189E-004  +2.7756189229E-004 +2.5654459023E-005  +1.0861586332E+000 +8.4434831142E-001 
3638210.263 +8.2288438082E-001 +1.2879164517E-001  +1.5216962311E-005 +4.5712777137E-006  +1.3917073375E-004 +2.4306710111E-004  +1.1702467203E+000 +8.7660086155E-001 
3763355.444 +8.2789218426E-001 +1.4322087169E-001  +1.7085135914E-004 -2.1797658701E-004  -6.6906890424E-005 -1.7916393699E-004  +1.2561029196E+000 +9.0655148029E-001 
3888500.626 +8.4687453508E-001 +1.6644507647E-001  -9.0559697128E-005 -6.0249942180E-005  +6.3465395942E-004 -2.0570649940E-004  +1.3399003744E+000 +9.5960873365E-001 
4013645.807 +8.1664466858E-001 +1.1188250780E-001  -2.4726556148E-004 +4.6401510190E-005  -3.2883894164E-004 -2.4153490085E-004  +1.5692967176E+000 +7.5595670938E-001 
4138790.989 +7.6920491457E-001 +7.0043005049E-002  +6.7752793257E-005 -5.4770600400E-005  +1.8556995201E-004 -6.1262981035E-004  +1.6651110649E+000 +4.7087183595E-001 
4263936.170 +7.6759451628E-001 +7.8472860157E-002  +7.8461773228E-004 +5.8250513393E-004  -7.9228644609E-005 -5.4546224419E-004  +1.7064366341E+000 +3.8647219539E-001 
4389081.352 +7.9406094551E-001 +7.9956509173E-002  +3.3609161619E-004 -4.4002910727E-004  +5.0725131587E-005 +6.9318135502E-005  +1.7421150208E+000 +2.8290000558E-001 
4514226.533 +7.9372030497E-001 +7.9485937953E-002  -2.3994862204E-006 +7.2766299127E-005  +5.0581927644E-004 +2.6466854615E-004  +1.7682421207E+000 +1.9829618931E-001 
4639371.715 +8.1602615118E-001 +8.5776783526E-002  -9.5845716714E-005 +1.8821116828E-004  +2.1616791491E-004 -3.8958125515E-004  +1.7688814402E+000 +1.3681864738E-001 
4764516.896 +8.0756717920E-001 +8.5486799479E-002  -3.4837663407E-004 -3.8492592284E-004  -2.3120576225E-004 -3.6161672324E-004  +1.7689510584E+000 +6.3543647528E-002 
4889662.078 +8.1565135717E-001 +8.7462373078E-002  -9.9585959106E-005 -2.4190482509E-004  +6.3137884717E-004 +1.2131921540E-004  +1.7759801149E+000 -5.6376159191E-003 
5014807.259 +8.1937211752E-001 +8.6092501879E-002  +1.5208756668E-004 -4.4787657680E-004  +1.6286414757E-004 -1.0299414862E-004  +1.7358627319E+000 -6.9455474615E-002 
5139952.441 +8.2940149307E-001 +8.4767967463E-002  -1.2968888041E-004 -9.9601937109E-005  +1.1237840226E-004 -8.3960453048E-004  +1.7289170027E+000 -1.3966958225E-001 
5265097.622 +8.3368909359E-001 +8.6023747921E-002  -6.0386914993E-004 -8.3280756371E-006  -2.6156759122E-004 +8.6547865067E-005  +1.6868437529E+000 -1.9680613279E-001 
5390242.804 +8.4186881781E-001 +9.6479840577E-002  -1.9800045993E-004 -1.2586134835E-004  +1.8112588441E-004 -4.1812981362E-004  +1.6482384205E+000 -2.4386757612E-001 
5515387.985 +8.5345959663E-001 +9.1056421399E-002  +1.5193389845E-004 +4.7812896082E-004  -3.6253791768E-004 +1.2177978351E-004  +1.6134804487E+000 -3.0787408352E-001 
5640533.166 +8.6026483774E-001 +1.0124105215E-001  +5.3782039322E-004 +1.2587827223E-004  +2.3083810811E-004 -1.7475165077E-004  +1.5933952332E+000 -3.2939612865E-001 
5765678.348 +8.5837072134E-001 +1.0063062608E-001  -6.9490080932E-005 +1.7391590518E-004  -5.4459407693E-004 +6.5414780693E-005  +1.5448426008E+000 -3.7105768919E-001 
5890823.529 +8.6387902498E-001 +9.9423401058E-002  -4.1463418165E-004 -2.2847823857E-005  +3.0741051887E-005 +4.8327947297E-005  +1.4913431406E+000 -3.9967191219E-001 
6015968.711 +8.6726492643E-001 +9.3101300299E-002  -2.8834430850E-004 -1.6218790552E-004  -7.0700974902E-004 -1.1554814409E-004  +1.4614914656E+000 -4.1793733835E-001 
6141113.892 +8.6864453554E-001 +8.7183728814E-002  +9.0498549980E-005 +3.5578361712E-004  +2.0082114497E-004 -8.6176958575E-005  +1.4062955379E+000 -4.3697342277E-001 
6266259.074 +8.7397229671E-001 +8.9624710381E-002  -1.7847903655E-004 -1.7850669974E-004  +2.0444029360E-004 +1.7346352979E-004  +1.3665440083E+000 -4.5586305857E-001 
6391404.255 +8.7970072031E-001 +7.9361975193E-002  -1.5008748960E-005 -2.0942699848E-005  +1.0264574667E-004 +4.6398676932E-004  +1.3147952557E+000 -4.6890410781E-001 
6516549.437 +8.8307762146E-001 +8.5243247449E-002  -2.0066212528E-005 +1.0581794049E-004  -4.9931626563E-005 -1.2698778846E-005  +1.2754170895E+000 -4.7556877136E-001 
6641694.618 +8.9010918140E-001 +9.0199910104E-002  -1.8185772933E-004 +1.2793447240E-005  -4.6512672270E-005 +9.8064701888E-006  +1.2449505329E+000 -4.7929680347E-001 
6766839.800 +8.9625883102E-001 +9.6986562014E-002  +2.9873676249E-004 +1.5362173144E-004  -1.4851331071E-004 -4.0691105823E-005  +1.2065922022E+000 -4.9160647392E-001 
6891984.981 +8.9530611038E-001 +8.8061638176E-002  +1.3985455735E-004 +1.4780073252E-004  +1.2314615014E-004 +1.7390823632E-004  +1.1599869728E+000 -4.8243892193E-001 
7017130.163 +8.9384454489E-001 +8.9023552835E-002  -3.8561405381E-004 +1.1127891048E-004  +7.8818156908E-005 +1.6292503278E-004  +1.1331704855E+000 -4.7512331605E-001 
7142275.344 +9.0185666084E-001 +9.1912463307E-002  +2.7225896702E-005 -1.4708838717E-004  -9.4572373200E-005 +8.2008322352E-005  +1.1129626036E+000 -4.6706870198E-001 
7267420.526 +9.0162068605E-001 +9.8422728479E-002  -2.0575420058E-004 -2.1746194761E-005  -2.8340087738E-004 +2.4849499459E-004  +1.0787245035E+000 -4.6247321367E-001 
7392565.707 +9.0487968922E-001 +9.7714595497E-002  +6.3647254137E-005 +6.2833860284E-004  -1.2694876932E-004 +1.1282676132E-004  +1.0490651131E+000 -4.5817652345E-001 
7517710.889 +9.0886348486E-001 +9.5050729811E-002  -7.5904295954E-005 -2.3032538593E-004  +1.8409083714E-004 +2.3905155831E-004  +1.0221108198E+000 -4.5187202096E-001 
7642856.070 +9.0180385113E-001 +9.2116564512E-002  -2.3414118914E-004 -1.0095925973E-004  +5.7126042520E-005 -5.6139786466E-005  +9.8880082369E-001 -4.4128826261E-001 
7768001.252 +9.1373163462E-001 +9.8403342068E-002  +1.4755476150E-004 -8.5485426098E-006  -7.3031609645E-005 -5.4060023103E-005  +9.6749663353E-001 -4.3080174923E-001 
7893146.433 +9.1599917412E-001 +9.9541239440E-002  +4.4270753278E-005 -1.8531244132E-004  +6.6290769610E-005 -6.7581684561E-005  +9.4752186537E-001 -4.0994587541E-001 
8018291.615 +9.1651296616E-001 +9.6280246973E-002  +4.6464643674E-005 +3.2178340916E-005  -1.3154672342E-004 +2.2599009753E-005  +9.2061388493E-001 -4.0000116825E-001 
8143436.796 +9.1678023338E-001 +9.0498268604E-002  -1.2349880126E-004 +7.2057264333E-007  -3.9376755012E-005 -1.1614455434E-004  +8.9924252033E-001 -3.9146140218E-001 
8268581.977 +9.2023241520E-001 +9.1843888164E-002  +5.6014778238E-006 +1.2288254220E-004  +3.9791495510E-005 -6.7814464273E-005  +8.8611227274E-001 -3.7478226423E-001 
8393727.159 +9.2388659716E-001 +8.8255718350E-002  -1.3092989320E-005 -8.5824831331E-005  +2.2650729079E-006 +7.7528347902E-005  +8.6893182993E-001 -3.5867261887E-001 
8518872.340 +9.2754620314E-001 +8.7269440293E-002  +4.4029497076E-005 -2.8285110602E-005  -2.4491193471E-004 +7.7216856880E-005  +8.5193967819E-001 -3.4319418669E-001 
8644017.522 +9.2636334896E-001 +9.2466980219E-002  -1.0042470240E-004 -1.7817072148E-005  +4.5855864300E-005 +7.5528529123E-005  +8.4093225002E-001 -3.3208510280E-001 
8769162.703 +9.3676042557E-001 +8.9093118906E-002  -1.0337455024E-004 -1.2961187167E-004  +5.4370484577E-005 -9.0572921181E-006  +8.2754182816E-001 -3.1834399700E-001 
8894307.885 +9.3326228857E-001 +8.5547775030E-002  -5.0939699577E-005 +8.9608904091E-005  -7.1863923949E-006 -3.1292842323E-005  +8.1172078848E-001 -3.0422788858E-001 
9019453.066 +9.3497639894E-001 +8.3115845919E-002  +8.6487067165E-005 -1.0430815018E-004  +9.1043053544E-005 -6.8096225732E-005  +7.9978919029E-001 -2.9179549217E-001 
9144598.248 +9.3871575594E-001 +8.0739244819E-002  +3.3527612686E-005 -2.9719170925E-005  -8.5307343397E-005 -4.7395780712E-005  +7.8536099195E-001 -2.7403354645E-001 
9269743.429 +9.4144952297E-001 +8.0359011889E-002  +2.2055284717E-005 +1.3723903066E-005  -1.1133922089E-004 +1.8026512407E-004  +7.7885955572E-001 -2.5565499067E-001 
9394888.611 +9.4302153587E-001 +8.4312826395E-002  -6.8743545853E-005 -9.7113181255E-005  +4.6885063057E-005 +4.7794997954E-005  +7.6762199402E-001 -2.4212750793E-001 
9520033.792 +9.4635099173E-001 +7.9060226679E-002  -5.5146225350E-005 +9.0697903943E-006  +1.0436800949E-005 -1.9329966744E-004  +7.6142948866E-001 -2.2269445658E-001 
9645178.974 +9.4839423895E-001 +8.0299109221E-002  -5.7845976698E-005 +9.2693662737E-006  -1.8344442651E-005 +9.4152594102E-005  +7.5219643116E-001 -2.0966234803E-001 
9770324.155 +9.5116090775E-001 +7.8887343407E-002  +3.1189723813E-005 +6.8047404056E-005  -7.0614660217E-005 -1.4017356079E-005  +7.4610441923E-001 -1.9181695580E-001 
9895469.337 +9.5295369625E-001 +7.8243583441E-002  -8.8664091891E-005 -1.0208732419E-004  +9.6775736893E-005 +2.8714955988E-005  +7.3860394955E-001 -1.7634591460E-001 
10020614.518 +9.5254242420E-001 +7.7755570412E-002  -2.0484179913E-005 +3.6335000914E-005  -7.2111783084E-005 -2.8569793358E-006  +7.3544585705E-001 -1.5683263540E-001 
10145759.700 +9.5690155029E-001 +7.2860121727E-002  +7.6644100773E-005 +2.0716117433E-005  -5.1233837439E-005 +1.2418393453E-005  +7.3133575916E-001 -1.4613851905E-001 
10270904.881 +9.5971190929E-001 +7.0481568575E-002  +2.5765220926E-005 +2.5434088457E-005  -1.8071570958E-004 +5.6904900703E-005  +7.2988516092E-001 -1.2866780162E-001 
10396050.063 +9.5841246843E-001 +6.8813949823E-002  +3.2673844544E-005 +5.3792082326E-005  -1.4429791008E-005 +4.1058938223E-005  +7.2566223145E-001 -1.1202895641E-001 
10521195.244 +9.6028500795E-001 +6.7564785480E-002  +3.5397482861E-005 +4.0160361095E-005  -6.3401748776E-005 +4.7055960749E-005  +7.2296345234E-001 -9.8256319761E-002 
10646340.426 +9.6090221405E-001 +6.5457135439E-002  +1.0303140698E-005 +1.6913327272E-006  -3.0160410461E-005 +7.9845151049E-005  +7.2381669283E-001 -8.2718998194E-002 
10771485.607 +9.6261954308E-001 +6.4127087593E-002  +6.8542634835E-005 +6.7172652052E-005  +1.9850165700E-005 +2.1447613108E-007  +7.2314655781E-001 -6.6203445196E-002 
10896630.788 +9.6429896355E-001 +6.2430173159E-002  +5.7870667661E-005 +1.0751351510E-005  +2.1083214961E-005 +8.1978196249E-006  +7.2275698185E-001 -5.1448196173E-002 
11021775.970 +9.6275782585E-001 +5.9426009655E-002  -2.8486556403E-006 -5.1815928600E-005  -4.4280834118E-005 +2.0132960344E-005  +7.2387504578E-001 -3.7734985352E-002 
11146921.151 +9.6602404118E-001 +5.7421594858E-002  +5.8913628891E-005 +5.6986173149E-005  +4.5790693548E-007 +3.6605531932E-005  +7.2620368004E-001 -2.1557688713E-002 
11272066.333 +9.6367108822E-001 +5.3902924061E-002  -1.3137683709E-005 +1.6570520529E-005  +2.8212973120E-005 +5.3173935157E-006  +7.2615265846E-001 -8.3551406860E-003 
11397211.514 +9.6604180336E-001 +5.2226245403E-002  +1.1368272681E-005 +9.7957381513E-005  +7.3076676927E-005 +8.8441447588E-005  +7.2849869728E-001 +5.6849718094E-003 
11522356.696 +9.6770715714E-001 +5.0601691008E-002  +6.7769491579E-005 +1.5332516341E-005  +2.9993716453E-005 +4.3695225031E-005  +7.3284697533E-001 +1.8384039402E-002 
11647501.877 +9.6567940712E-001 +4.9171358347E-002  +3.0568771763E-006 +9.2163754744E-005  -1.1110272681E-005 +6.8998844654E-005  +7.3472803831E-001 +3.1125307083E-002 
11772647.059 +9.6689450741E-001 +4.7846496105E-002  +3.8610916818E-005 -4.3945186917E-005  +8.3702689153E-006 +1.8118946173E-005  +7.3943567276E-001 +4.3902873993E-002 
11897792.240 +9.6698248386E-001 +4.5687317848E-002  +1.6151112504E-005 +1.5437110051E-005  +5.2623057854E-005 +2.5300543712E-005  +7.4536585808E-001 +5.6407302618E-002 
12022937.422 +9.6862459183E-001 +4.4255286455E-002  +3.4597036574E-005 +1.3050679991E-004  +8.9957451564E-005 +5.9043937654E-005  +7.5192493200E-001 +6.9505870342E-002 
12148082.603 +9.6853154898E-001 +4.2343765497E-002  -8.5245837909E-006 +3.0446990422E-005  -6.3145980675E-006 +8.3111968706E-005  +7.5789022446E-001 +8.3765774965E-002 
12273227.785 +9.6881020069E-001 +4.2546987534E-002  +5.5822380091E-005 +8.3104005171E-006  +2.5530913263E-005 +3.1037012377E-005  +7.6385051012E-001 +9.4687461853E-002 
12398372.966 +9.6864527464E-001 +4.0162026882E-002  +3.7504618376E-005 +2.4120505259E-005  +3.4076871088E-005 +5.8705620177E-005  +7.7231144905E-001 +1.0422010720E-001 
12523518.148 +9.6812176704E-001 +3.8111865520E-002  +7.3383889685E-005 +2.7945327020E-005  -6.0944184952E-006 -1.2384475667E-005  +7.7906101942E-001 +1.1493897438E-001 
12648663.329 +9.6817761660E-001 +3.8021519780E-002  +3.2894782635E-005 +4.7399294999E-005  +4.1214851080E-005 +1.7118847609E-005  +7.8790128231E-001 +1.2587819993E-001 
12773808.511 +9.6823382378E-001 +3.4280255437E-002  +6.1817350797E-005 +2.1025185561E-005  +6.1933329562E-005 +4.6174529416E-005  +7.9614698887E-001 +1.3596791029E-001 
12898953.692 +9.6826571226E-001 +3.4209325910E-002  +6.8107059633E-005 -2.5552346415E-005  +3.5301905882E-005 +7.9631048720E-005  +8.0614560843E-001 +1.4408454299E-001 
13024098.874 +9.6782982349E-001 +3.3473573625E-002  +8.0343388618E-006 +3.1552488053E-006  -1.3892458810E-005 +9.1654674179E-006  +8.1532114744E-001 +1.5277948976E-001 
13149244.055 +9.6783554554E-001 +3.2292224467E-002  +4.0777824324E-005 +2.5816241759E-005  +3.6290643038E-005 +3.9016926166E-005  +8.2576823235E-001 +1.6149885952E-001 
13274389.237 +9.6749943495E-001 +2.9946433380E-002  +8.5965275503E-006 -2.3672257157E-005  +7.5150883276E-006 +5.1779719797E-005  +8.3785849810E-001 +1.6951192915E-001 
13399534.418 +9.6698850393E-001 +2.9629575089E-002  +9.0136190920E-006 +3.3840518881E-005  +1.1259244275E-005 +1.4947319869E-005  +8.4758722782E-001 +1.7749246955E-001 
13524679.599 +9.6617716551E-001 +2.9485985637E-002  +7.6521964729E-006 +2.5704714062E-005  +3.9413938794E-005 +3.1890314858E-005  +8.5839164257E-001 +1.8380260468E-001 
13649824.781 +9.6726846695E-001 +2.7888834476E-002  +2.1367530280E-005 +2.8859658414E-005  +2.2608663130E-005 +5.6944096286E-005  +8.7121701241E-001 +1.8912988901E-001 
13774969.962 +9.6649646759E-001 +2.6314333081E-002  +4.8926599447E-006 -1.6348987629E-005  +1.8260165234E-005 +2.1447332983E-005  +8.8223373890E-001 +1.9312271476E-001 
13900115.144 +9.6562105417E-001 +2.5332361460E-002  +8.6959025793E-006 +5.8125820942E-005  +8.9064633357E-006 +1.2261918528E-005  +8.9428019524E-001 +1.9795587659E-001 
14025260.325 +9.6410799026E-001 +2.4635016918E-002  +5.3311605370E-006 +2.6295647331E-005  +6.1344275309E-005 +2.0066869183E-005  +9.0609490871E-001 +2.0146462321E-001 
14150405.507 +9.6468675137E-001 +2.5099247694E-002  +2.0497461719E-006 -6.4736190097E-007  +3.2248361094E-005 +5.6492943258E-005  +9.1890507936E-001 +2.0538531244E-001 
14275550.688 +9.6477568150E-001 +2.2886991501E-002  +1.2378721294E-005 -5.3531375670E-006  +2.8401473173E-006 +2.9221777368E-005  +9.3054604530E-001 +2.0588836074E-001 
14400695.870 +9.6367073059E-001 +2.2136241198E-002  +2.0934352506E-005 +4.6537184971E-005  +3.3600430470E-005 +4.4294840336E-005  +9.4289332628E-001 +2.0740756392E-001 
