!  2-Port S-parameters saved by WinCal
! VAR MeasName=S-Parameters (CALIBRATED_DATA) read from VNA (P5004A)
! VAR MeasDate=22/05/2024 20:17:59
! VAR NAME=Wafer3_r2_c4_pristine
! VAR FILENAME=Wafer3_r2_c4_pristine.S2P
! VAR DATE=22/05/2024 20:17:59
! VAR PHYS_PORTS=1,2
! VAR ObjTypeName=DATASET
! VAR IndexType=Frequency
!
# Hz S RI R 50
9000.000 +2.1477268636E-001 -5.9858155251E-001  +3.1329118647E-003 -1.6143871471E-004  -4.8274698202E-005 -1.4179516584E-003  +3.7406962365E-002 +1.0630889237E-001 
134145.181 +6.1468553543E-001 -3.0529230833E-002  +4.8266188242E-003 -6.1810563784E-004  +6.2045911327E-003 -1.2127405498E-003  +5.4818129539E-001 -2.0800085366E-001 
259290.363 +8.7070065737E-001 -1.5598209202E-001  +3.5894571920E-004 -2.6177484542E-003  -3.7029650994E-003 +1.6309439670E-003  +9.4280320406E-001 -1.4267465472E-001 
384435.544 +9.0354424715E-001 -3.1707134843E-001  +6.8938039476E-005 +3.1866780482E-003  -7.5919786468E-004 -2.3231967352E-003  +1.0661165714E+000 -1.8191656470E-001 
509580.726 +9.5974850655E-001 -1.6965451837E-001  -2.1137096337E-004 -1.2202973012E-003  -2.0616812981E-004 +5.4989045020E-004  +1.0390675068E+000 -9.2884421349E-002 
634725.907 +1.1039993763E+000 -2.1041837335E-001  -1.0148690490E-004 -3.5393121652E-004  -3.0337480712E-004 -1.5925674234E-005  +1.1170108318E+000 -8.0980777740E-002 
759871.089 +1.3000452518E+000 -4.0633678436E-002  +8.4472238086E-004 -7.9492892837E-004  -3.5697303247E-004 +4.6126494999E-004  +1.2010867596E+000 +1.0062694550E-002 
885016.270 +1.2248525620E+000 -7.4708199501E-001  +6.3211168163E-004 -2.8933267458E-005  -1.0010306723E-003 +2.2608288564E-003  +1.3536788225E+000 +8.3597064018E-002 
1010161.452 +1.1729489565E+000 -1.1613106728E-001  +4.9266801216E-004 +5.1000891253E-003  -1.3936727773E-003 +2.1575365681E-003  +5.7088309526E-001 -4.0206354856E-001 
1135306.633 +1.1604255438E+000 -1.4448890090E-001  -1.1827334529E-003 +1.2154852739E-003  -4.5816567726E-003 -6.1718747020E-004  +9.3088155985E-001 +5.1650553942E-002 
1260451.815 +1.4527401924E+000 -8.6117029190E-002  -1.3305314351E-003 +1.3326883782E-003  +2.5051960256E-004 +2.7524630423E-004  +1.0592203140E+000 +1.1354231834E-001 
1385596.996 +1.3316935301E+000 -1.5675108135E-001  -6.8571703741E-004 +2.0182105072E-004  -5.5192055879E-004 +1.5101063764E-004  +1.1579347849E+000 +1.0200399160E-001 
1510742.178 +1.5522576571E+000 -2.7495947480E-001  -1.6981676454E-003 +1.7385759857E-003  +2.8846806381E-003 +1.0528410785E-003  +1.4143645763E+000 +1.8930909038E-001 
1635887.359 +1.0101033449E+000 -4.1828024387E-001  +8.0074172001E-004 +3.8312934339E-004  -1.4494932257E-003 -1.4023466501E-003  +1.0857450962E+000 -2.2822499275E-001 
1761032.541 +1.0995682478E+000 -4.5412960649E-001  -8.2794911577E-005 +2.6064657141E-004  -7.4323371518E-004 -1.6512981383E-003  +1.0628886223E+000 -1.9910879433E-001 
1886177.722 +9.6690887213E-001 -3.2418331504E-001  +2.7420734987E-003 +5.7959218975E-004  -4.6937895240E-004 -2.3525714641E-004  +1.0143711567E+000 -8.4331870079E-002 
2011322.904 +9.6300393343E-001 -2.4101409316E-001  +3.5951181781E-004 +3.5454556928E-004  -8.0881814938E-004 +3.0797382351E-004  +1.0255043507E+000 -4.5830786228E-002 
2136468.085 +9.8024570942E-001 -2.0909720659E-001  +3.8200427662E-004 +4.5549304923E-004  -1.0468187975E-004 +1.2860158458E-003  +1.0173809528E+000 -4.6240389347E-002 
2261613.267 +9.7714716196E-001 -1.6784384847E-001  -2.1485159232E-004 +9.8080927273E-006  +1.4610219514E-003 -1.2524455087E-004  +1.0230408907E+000 -1.8828660250E-002 
2386758.448 +9.6645706892E-001 -1.6182747483E-001  -5.5834552040E-004 +8.5465580923E-004  -4.8797155614E-005 +3.1223235419E-004  +1.0193959475E+000 -7.5576305389E-003 
2511903.630 +9.5847052336E-001 -1.2509566545E-001  +3.8796133595E-005 -5.5760389660E-004  -4.4186852756E-004 -7.6318252832E-004  +1.0255148411E+000 +1.6226172447E-002 
2637048.811 +9.6878695488E-001 -1.0819816589E-001  +5.3497403860E-004 -7.3723879177E-004  -7.2139041731E-004 -2.8385035694E-004  +1.0150547028E+000 +4.1588485241E-002 
2762193.992 +9.8330950737E-001 -1.0167573392E-001  +3.5448162816E-004 -6.2833692937E-005  +8.3265629655E-005 +3.7414225517E-005  +1.0127907991E+000 +6.5553084016E-002 
2887339.174 +9.5168840885E-001 -1.1127906293E-001  +5.6886015227E-004 +8.8454940123E-004  -1.2591797858E-003 +3.2875093166E-004  +1.0350004435E+000 +7.5362503529E-002 
3012484.355 +9.2818498611E-001 -7.4821472168E-002  +2.6518513914E-004 +3.5942540853E-004  -2.0708833472E-004 -3.2845957321E-004  +1.0313816071E+000 +9.1559529305E-002 
3137629.537 +9.2712169886E-001 -4.0483072400E-002  -2.5223245757E-005 -1.1968417675E-004  -1.4747268870E-004 -2.0653338288E-004  +1.0506953001E+000 +9.4936996698E-002 
3262774.718 +9.2619699240E-001 -9.9855549634E-003  -6.6688359948E-004 -1.1162126611E-004  -5.3684925660E-004 -8.5984735051E-005  +1.0487470627E+000 +1.1355355382E-001 
3387919.900 +9.1983014345E-001 +2.2396061569E-002  -3.0589164817E-004 -9.8029128276E-004  +5.0862744683E-004 +2.1105886844E-004  +1.0574585199E+000 +1.1864246428E-001 
3513065.081 +9.3116396666E-001 +4.1041538119E-002  +2.7278106427E-004 -5.8355438523E-004  +5.2873237291E-004 -2.8195296181E-004  +1.0792688131E+000 +1.5029774606E-001 
3638210.263 +9.4183546305E-001 +7.6980687678E-002  +3.2347530941E-004 -2.7395208599E-004  -1.3454564032E-004 -2.3015074839E-004  +1.0936268568E+000 +1.5778274834E-001 
3763355.444 +9.5832663774E-001 +9.1770462692E-002  -1.4985025337E-004 +6.3339172630E-004  -5.6769826915E-004 +1.5947790234E-004  +1.1083636284E+000 +1.6334778070E-001 
3888500.626 +9.7368389368E-001 +1.1898140609E-001  +7.7582873928E-005 -4.0087700472E-004  -2.1537787688E-005 -5.7040149113E-004  +1.1359161139E+000 +1.6266421974E-001 
4013645.807 +9.3337297440E-001 +5.0906144083E-002  +2.0407900593E-005 +4.1191722266E-004  +2.2845539206E-004 -2.3703073384E-004  +1.0838738680E+000 +7.0573985577E-002 
4138790.989 +8.7424278259E-001 -3.2351687551E-003  -3.6768449354E-004 -2.4095483241E-004  -4.1891797446E-004 -7.0107681677E-004  +1.0040898323E+000 -1.3116281480E-002 
4263936.170 +8.7429857254E-001 +1.7013013363E-002  -4.1999584937E-005 +3.5010589636E-004  -1.2874498498E-004 -2.9746131622E-004  +9.9987345934E-001 -1.9790183753E-002 
4389081.352 +8.8789749146E-001 +2.0107530057E-002  +2.1938941791E-004 +1.7361347273E-004  -5.2000128198E-004 -3.3677043393E-004  +9.9405747652E-001 -2.1141666919E-002 
4514226.533 +9.0051114559E-001 +1.4651261270E-002  +3.5916909110E-004 -2.7989019873E-004  +2.3863016395E-004 -1.1249740783E-004  +1.0062541962E+000 -3.7776820362E-002 
4639371.715 +9.2373490334E-001 +1.9382297993E-002  -1.2029304344E-004 -1.4231949172E-004  -3.6291801371E-004 -1.4578999253E-004  +1.0071171522E+000 -2.6555070654E-002 
4764516.896 +9.1327720881E-001 +2.4235159159E-002  -4.2012651102E-004 -3.7486775545E-004  -6.3530297484E-004 -6.8105087848E-004  +1.0084527731E+000 -3.2137732953E-002 
4889662.078 +9.2544156313E-001 +3.0817057937E-002  +1.5608848480E-004 -3.6810524762E-005  -6.8635294156E-005 -6.1089660448E-005  +1.0049213171E+000 -2.9281398281E-002 
5014807.259 +9.2917835712E-001 +2.3984078318E-002  +7.1445620051E-006 +3.5652741644E-005  +5.6361826137E-004 +2.4689201382E-004  +9.9958658218E-001 -3.4021362662E-002 
5139952.441 +9.4457483292E-001 +3.0356865376E-002  +3.4880603198E-004 -2.8811133234E-004  +3.8463377859E-004 -1.5885905304E-004  +1.0048794746E+000 -4.1851811111E-002 
5265097.622 +9.5051240921E-001 +2.9135465622E-002  +3.4705171129E-004 -2.7762673562E-004  +2.4257866608E-004 +1.3201223919E-004  +9.9574923515E-001 -3.1636893749E-002 
5390242.804 +9.5473933220E-001 +2.7070891112E-002  +4.1581841651E-004 -2.9829764389E-004  +7.3796531069E-005 +3.4792433144E-004  +9.8956012726E-001 -3.6685667932E-002 
5515387.985 +9.6466183662E-001 +2.4249680340E-002  +2.1440697310E-004 +1.6949206474E-004  -2.9729012749E-004 +3.7832817179E-004  +9.9449795485E-001 -4.1825369000E-002 
5640533.166 +9.6552717686E-001 +2.9144711792E-002  -9.5122217317E-005 +2.0974059589E-004  +5.5531905673E-005 -4.5905078878E-004  +9.9589401484E-001 -4.2214877903E-002 
5765678.348 +9.6389162540E-001 +2.1304719150E-002  -2.2961672585E-005 -1.8957834982E-004  -1.6683111608E-004 +4.7702688607E-004  +9.9114018679E-001 -4.1371822357E-002 
5890823.529 +9.7317630053E-001 +1.6800388694E-002  +1.0769660730E-004 +2.0614956156E-004  +9.3086367997E-005 -4.4733542018E-004  +9.8764985800E-001 -3.8272388279E-002 
6015968.711 +9.7445887327E-001 +1.1394523084E-002  -3.4139497438E-004 -1.1678151350E-004  +1.1250566604E-004 -2.9655871913E-004  +9.9539518356E-001 -3.3889912069E-002 
6141113.892 +9.7724503279E-001 +1.8755145371E-002  +3.8951117313E-004 +6.5680760599E-005  +2.3284980853E-004 -1.3350238441E-004  +9.8922026157E-001 -4.2433850467E-002 
6266259.074 +9.8127436638E-001 +1.8816992640E-002  -1.0211831250E-004 -1.1381886725E-004  +1.3511619181E-004 +1.7626251793E-004  +9.8793935776E-001 -3.3283472061E-002 
6391404.255 +9.7507464886E-001 +5.4616779089E-003  +1.8768130394E-004 +1.5221390640E-004  +1.8748783623E-004 -8.5188665253E-005  +9.8678463697E-001 -4.0924422443E-002 
6516549.437 +9.8071539402E-001 +7.1768909693E-003  +1.0201492842E-005 +3.0558323488E-005  -1.0362063767E-004 -3.9865888539E-005  +9.8006367683E-001 -3.8433745503E-002 
6641694.618 +9.8972153664E-001 +1.3357467949E-002  -5.1729388360E-005 +2.4533633223E-006  +2.2087150137E-004 -1.8074979016E-004  +9.8323959112E-001 -3.4739851952E-002 
6766839.800 +9.9407225847E-001 +1.0286927223E-002  -1.8924025062E-004 -1.3881465748E-005  +2.6910114684E-004 +2.7247623075E-004  +9.8581701517E-001 -3.5939395428E-002 
6891984.981 +9.8997211456E-001 +7.8903883696E-003  -7.7274802607E-005 -1.2234863243E-004  -1.8139751774E-005 -1.5204180090E-004  +9.7650563717E-001 -3.8553014398E-002 
7017130.163 +9.8716598749E-001 +5.9893280268E-003  +9.4440416433E-005 -5.6261073041E-005  -1.4553476649E-004 -5.4306707170E-005  +9.8371088505E-001 -2.7440264821E-002 
7142275.344 +9.9124634266E-001 +8.2046985626E-003  +3.5459268838E-004 +1.2369360775E-004  -6.6250089731E-005 -1.1304503278E-004  +9.8212349415E-001 -2.4228811264E-002 
7267420.526 +9.8627161980E-001 +1.1040240526E-002  +1.9465189325E-005 -3.6603396438E-005  -2.9123836430E-004 +1.5148919192E-004  +9.8295980692E-001 -2.4232581258E-002 
7392565.707 +9.9364984035E-001 +1.2457907200E-002  +1.2385997979E-004 +2.8966760146E-004  +1.4207241475E-004 -8.1777259766E-005  +9.7797960043E-001 -2.4195447564E-002 
7517710.889 +9.9467921257E-001 +1.0633900762E-002  -3.3277756302E-005 +1.6447134840E-004  -9.6217067039E-005 +1.4152486983E-004  +9.7419637442E-001 -2.5182202458E-002 
7642856.070 +9.9108374119E-001 +5.7329535484E-003  -1.0702062355E-005 +4.8779420467E-005  -2.2768330382E-005 +3.5529454181E-005  +9.7492194176E-001 -2.3326367140E-002 
7768001.252 +9.9541115761E-001 +8.3659291267E-003  -9.7934884252E-005 +5.1713832363E-005  -1.7248753284E-004 +1.5714965411E-004  +9.7233849764E-001 -2.5262057781E-002 
7893146.433 +9.9588739872E-001 +7.0949345827E-003  -9.6433293947E-005 -2.7123434847E-005  +9.2998176115E-005 -1.5991648252E-004  +9.7407323122E-001 -2.0012155175E-002 
8018291.615 +9.9253833294E-001 +2.1031796932E-003  +1.5440920833E-004 -1.5095341951E-004  +1.3670712360E-004 +2.5550302234E-004  +9.7174489498E-001 -2.1951645613E-002 
8143436.796 +9.9092262983E-001 +1.8263459206E-003  +3.3464533772E-005 +1.5381393314E-004  +1.2607318058E-004 -7.7941585914E-005  +9.7283649445E-001 -1.6435593367E-002 
8268581.977 +9.8957055807E-001 +1.2415647507E-003  +2.1672857110E-004 -1.0094369645E-004  +1.3025620137E-004 +1.3630831381E-004  +9.7271299362E-001 -1.2259006500E-002 
8393727.159 +9.8905974627E-001 -3.8093328476E-004  +7.5467687566E-005 +9.3955321063E-005  -3.7093032006E-005 +2.4594030037E-005  +9.7339928150E-001 -1.2749940157E-002 
8518872.340 +9.9402487278E-001 -4.0406882763E-003  +1.1092353816E-004 +3.5756736906E-005  +5.5176227761E-005 +5.3672934882E-005  +9.7265982628E-001 -1.1463493109E-002 
8644017.522 +9.9168980122E-001 +2.0406842232E-003  +6.7643923103E-005 +2.6203269954E-006  -3.1967370887E-005 -2.9313325649E-004  +9.7636544704E-001 -1.1641532183E-002 
8769162.703 +9.9705898762E-001 -6.9952011108E-004  -2.8543789085E-005 +1.3853424207E-005  +8.0641839304E-005 -8.3231789176E-005  +9.7791093588E-001 -1.2303769588E-002 
8894307.885 +9.9206596613E-001 -1.2466907501E-003  +4.2942661821E-005 +2.4482525987E-005  -2.5169132277E-004 -2.4987224606E-005  +9.7367340326E-001 -1.4182031155E-002 
9019453.066 +9.9278366566E-001 -4.0708780289E-003  -2.3710241294E-005 +8.6624109827E-005  +3.0740528018E-005 +5.1249015087E-005  +9.7556531429E-001 -1.2851685286E-002 
9144598.248 +9.9061250687E-001 -4.6941041946E-003  -6.9143163273E-005 +2.6825899113E-005  -7.0039008278E-005 -1.4907031982E-005  +9.7501182556E-001 -9.6988677979E-003 
9269743.429 +9.9233847857E-001 -3.4740567207E-004  +7.1110298450E-005 +8.6853433459E-006  +1.9381912352E-005 -9.6918214695E-005  +9.7536563873E-001 -7.8217089176E-003 
9394888.611 +9.9141538143E-001 +2.8643608093E-003  -6.9122179411E-005 -1.0832431144E-004  -7.7661548858E-005 +3.2305590139E-005  +9.7400164604E-001 -9.6503794193E-003 
9520033.792 +9.9383461475E-001 -2.9563307762E-003  -8.0990448623E-006 +3.5138498788E-005  -7.1308364568E-005 -5.4818963690E-005  +9.7460770607E-001 -6.1961114407E-003 
9645178.974 +9.9223852158E-001 +2.8277039528E-003  +1.2877181871E-004 +4.0783037548E-005  -1.4973484213E-004 -8.2443235442E-005  +9.7437828779E-001 -5.1312148571E-003 
9770324.155 +9.9245923758E-001 +2.2663176060E-003  -3.5506134736E-005 -1.3833072444E-004  -1.2823186989E-004 -1.9490067643E-005  +9.7058629990E-001 -5.5085718632E-003 
9895469.337 +9.9565970898E-001 +3.6001503468E-003  -1.7095553630E-004 +1.5990684915E-005  +2.0216586563E-005 -1.2398202671E-004  +9.7320628166E-001 -2.3595690727E-003 
10020614.518 +9.9439883232E-001 +5.0103366375E-003  +1.7744350771E-006 -2.3688533474E-005  -6.2254563090E-005 -8.9577923063E-005  +9.7465461493E-001 +4.0361285210E-004 
10145759.700 +9.9221724272E-001 +2.0063519478E-003  -6.7900102295E-005 -3.4355009120E-005  -1.5764329873E-005 +5.6369135564E-005  +9.7573345900E-001 -2.7726590633E-003 
10270904.881 +9.9531745911E-001 +2.1152496338E-003  +1.1762123904E-004 -6.6665808845E-005  -6.9472116593E-006 -8.7148815510E-005  +9.7918510437E-001 -2.8890371323E-003 
10396050.063 +9.9283015728E-001 +2.9919147491E-003  -4.9630809372E-005 +8.0156110926E-005  +6.2923434598E-005 -7.9898254626E-006  +9.7618591785E-001 +5.1325559616E-004 
10521195.244 +9.9336719513E-001 +3.9539635181E-003  +4.4607710151E-005 -2.4454780942E-005  +2.1251367798E-005 +7.8102406405E-005  +9.7808694839E-001 -1.3062357903E-003 
10646340.426 +9.9202227592E-001 +2.1297335625E-003  +2.8746158932E-005 +2.7090345611E-005  +9.8550699477E-005 +1.3108099665E-005  +9.7817403078E-001 +2.3635625839E-003 
10771485.607 +9.9416834116E-001 +1.5122592449E-003  +2.0770525225E-005 +1.3414115529E-005  +3.9726051909E-005 +9.1326808615E-005  +9.7840797901E-001 +2.9234588146E-003 
10896630.788 +9.9418950081E-001 +3.6295652390E-003  -2.9431072107E-005 -1.7100292098E-005  +5.2674269682E-005 -2.1890307835E-005  +9.7859674692E-001 +3.0040442944E-003 
11021775.970 +9.9195575714E-001 +3.6204457283E-003  -2.5848512450E-006 +5.4850945162E-005  -1.0302865121E-006 +9.5273106126E-005  +9.7951292992E-001 +5.2484273911E-003 
11146921.151 +9.9429714680E-001 +1.7099976540E-003  +3.7516787415E-005 +5.3092189773E-006  -2.3969445465E-005 +5.2871353546E-005  +9.8042130470E-001 +5.3101778030E-003 
11272066.333 +9.9158948660E-001 +4.3105483055E-003  -4.5471049816E-005 +4.6112720156E-005  -6.6147076723E-006 +5.6551125454E-005  +9.7995799780E-001 +4.9191117287E-003 
11397211.514 +9.9402832985E-001 +4.5918226242E-003  +3.4254771890E-005 -1.3584006410E-005  -7.0709727879E-005 -4.3501499022E-005  +9.8030054569E-001 +5.2189826965E-003 
11522356.696 +9.9481725693E-001 +4.3492913246E-003  -5.0916078180E-005 -2.2976702894E-005  -8.9872082754E-006 +5.4288881074E-005  +9.8159778118E-001 +4.0427148342E-003 
11647501.877 +9.9334138632E-001 +5.6360661983E-003  +7.8497405411E-006 -2.1248128178E-005  -4.2329011194E-005 +9.0575622380E-006  +9.8090428114E-001 +6.0735344887E-003 
11772647.059 +9.9332666397E-001 +5.0069093704E-003  -3.3193973650E-005 -2.2126272597E-005  -5.3310039220E-005 -8.4727998910E-006  +9.8081576824E-001 +5.0820410252E-003 
11897792.240 +9.9363720417E-001 +4.5049488544E-003  +9.8198925116E-006 +5.8026453189E-005  -2.0595151000E-005 +7.1494985605E-005  +9.8217660189E-001 +5.4388344288E-003 
12022937.422 +9.9550437927E-001 +4.5341849327E-003  +3.3930169593E-005 +4.3031006498E-005  -1.4524450307E-005 +8.9408022177E-006  +9.8239946365E-001 +6.3417553902E-003 
12148082.603 +9.9512308836E-001 +4.2419731617E-003  -7.3489254646E-006 +2.5451725378E-005  +3.0169012462E-005 +1.5161976080E-005  +9.8305088282E-001 +6.9169402122E-003 
12273227.785 +9.9515181780E-001 +4.6712458134E-003  -1.0634386854E-005 +2.3972419513E-005  +1.1968133549E-005 +1.1728764548E-005  +9.8334598541E-001 +6.0576796532E-003 
12398372.966 +9.9407976866E-001 +5.1906406879E-003  -7.2759953582E-006 +2.6865005566E-005  +8.7842454377E-006 +7.1766298788E-006  +9.8460155725E-001 +6.5535008907E-003 
12523518.148 +9.9418503046E-001 +5.5543482304E-003  -1.1306543456E-005 -1.5820362478E-006  +2.8738795663E-005 +3.6280231143E-005  +9.8346507549E-001 +6.1813592911E-003 
12648663.329 +9.9481248856E-001 +6.5723061562E-003  -7.8213397501E-006 +1.3055958334E-005  -4.3490836106E-006 +2.8728212783E-005  +9.8465245962E-001 +6.7530125380E-003 
12773808.511 +9.9572604895E-001 +4.3808370829E-003  -1.5217354303E-005 +3.6126334635E-006  -5.5786778830E-005 -1.2528253137E-006  +9.8532623053E-001 +6.6402107477E-003 
12898953.692 +9.9545502663E-001 +5.3927600384E-003  +3.0445429729E-005 +1.7398950149E-005  +1.8669745714E-006 +3.8805206714E-005  +9.8385655880E-001 +6.4978823066E-003 
13024098.874 +9.9504452944E-001 +6.2986463308E-003  -9.0911207735E-006 +2.9878929126E-005  +1.8363749405E-005 +1.9481953132E-005  +9.8487508297E-001 +8.1107541919E-003 
13149244.055 +9.9587738514E-001 +6.9913640618E-003  +1.9861132387E-005 +1.8017497496E-005  +9.2282080004E-006 +1.4062022728E-006  +9.8534381390E-001 +8.2011781633E-003 
13274389.237 +9.9487614632E-001 +5.3067058325E-003  -5.6082317315E-005 +1.1690777683E-005  -2.9596660170E-005 +4.1158520617E-005  +9.8665285110E-001 +8.6371917278E-003 
13399534.418 +9.9510049820E-001 +5.7487934828E-003  -2.2700467525E-005 +6.1047649069E-005  +1.8642223949E-005 +3.1896488508E-005  +9.8562812805E-001 +9.2163980007E-003 
13524679.599 +9.9497109652E-001 +7.0218443871E-003  -2.3613687517E-005 +7.3402436101E-005  -1.7447186110E-005 +4.5425978897E-005  +9.8717188835E-001 +9.0841352940E-003 
13649824.781 +9.9598449469E-001 +5.4117143154E-003  -3.9504620872E-006 +4.4464693929E-005  +4.2080682761E-005 +4.8120844440E-005  +9.8691391945E-001 +8.1416815519E-003 
13774969.962 +9.9492120743E-001 +6.1501413584E-003  +2.6296374926E-005 -1.2913715182E-005  -1.7092819689E-005 +2.2722075300E-005  +9.8732370138E-001 +7.4994117022E-003 
13900115.144 +9.9538964033E-001 +5.7519972324E-003  +3.1516061426E-005 +3.4783504816E-005  -1.9321112632E-005 +2.4750337616E-005  +9.8699343204E-001 +7.3335468769E-003 
14025260.325 +9.9412530661E-001 +6.5833926201E-003  +5.6551130001E-007 +1.1113896107E-005  -1.8267708583E-005 +1.1907864973E-004  +9.8757028580E-001 +8.2895159721E-003 
14150405.507 +9.9497020245E-001 +6.3026249409E-003  -6.4156624831E-006 +3.3935037209E-005  +1.9696581148E-006 +5.7350101997E-005  +9.8793363571E-001 +8.0715119839E-003 
14275550.688 +9.9557721615E-001 +6.3288509846E-003  -7.9454548541E-006 +6.8993562309E-005  +2.4349941668E-005 +4.7980953241E-005  +9.8781239986E-001 +7.1789920330E-003 
14400695.870 +9.9466836452E-001 +5.4724216461E-003  +1.1330902453E-005 +1.5187981262E-005  +1.7565293092E-005 +6.3677383878E-005  +9.8765116930E-001 +8.2890987396E-003 
