!  2-Port S-parameters saved by WinCal
! VAR MeasName=S-Parameters (CALIBRATED_DATA) read from VNA (P5004A)
! VAR MeasDate=22/05/2024 21:33:55
! VAR NAME=Wafer3_r3_c6_pristine_pos10dc
! VAR FILENAME=Wafer3_r3_c6_pristine_pos10dc.S2P
! VAR DATE=22/05/2024 21:33:55
! VAR PHYS_PORTS=1,2
! VAR ObjTypeName=DATASET
! VAR IndexType=Frequency
!
# Hz S RI R 50
9000.000 +2.0896178484E-001 -6.0638886690E-001  -5.5733146146E-003 -2.9775532894E-003  -1.1431740131E-003 -9.0539205121E-004  +4.2172018439E-002 +1.0809683800E-001 
134145.181 +6.4188343287E-001 -1.4794409275E-002  +1.4185633510E-002 -1.9449390471E-002  +1.5915751457E-002 -1.4661684632E-002  +3.8878944516E-001 -2.8700962663E-002 
259290.363 +8.3516985178E-001 -1.1412176490E-001  -5.4073459469E-003 +2.9879836366E-003  -2.7736835182E-003 +3.2145665027E-003  +5.4491418600E-001 -2.2028313577E-001 
384435.544 +8.9352440834E-001 -3.0103904009E-001  -2.0389547572E-003 +4.0333028883E-003  +5.5741099641E-003 +1.3338671066E-002  +2.7967944741E-001 -3.7158462405E-001 
509580.726 +9.5226824284E-001 -1.5297046304E-001  +1.8952440587E-004 +4.4327694923E-003  -2.9090454336E-003 -2.6147519238E-003  +5.8971476555E-001 -5.0390762091E-001 
634725.907 +1.0953736305E+000 -2.1155112982E-001  +1.5138961608E-003 -1.8713877071E-003  -9.9742168095E-004 -2.3204616737E-003  +8.7925648689E-001 -2.3284162581E-001 
759871.089 +1.3250710964E+000 -5.7748258114E-002  +7.9707050463E-004 +5.6335597765E-004  +2.6964565041E-004 +2.0581032004E-005  +1.4803504944E+000 +1.1994676292E-001 
885016.270 +1.7871007919E+000 -1.1786540747E+000  +6.3001579838E-004 +1.4381003566E-003  -5.7281716727E-004 +1.2732620235E-004  +1.3103449345E+000 +4.4770148396E-001 
1010161.452 +1.0522291660E+000 -1.3483592868E-001  -1.3308610069E-003 +7.0524564944E-004  +1.0279690614E-003 -4.7933621681E-004  +1.2168676853E+000 +5.1413214207E-001 
1135306.633 +9.9501097202E-001 -6.3305586576E-002  -9.7505529993E-005 -9.6536974888E-004  +1.6098680208E-003 +6.4427545294E-004  +1.3212392330E+000 +6.5623664856E-001 
1260451.815 +1.3286863565E+000 -4.4894158840E-002  +9.4193057157E-004 +2.7646028320E-004  -3.8191719796E-004 +5.4657226428E-004  +1.0726121664E+000 +7.4420070648E-001 
1385596.996 +1.2875561714E+000 -1.6432154179E-001  -2.6432305458E-004 +2.7831047191E-004  -2.6256931596E-004 +5.9475627495E-005  +9.6318453550E-001 +5.0420105457E-001 
1510742.178 +1.4725342989E+000 -3.4072780609E-001  +4.3913780246E-004 +1.9862517365E-004  -5.0223083235E-004 +3.2014722819E-005  +6.5805578232E-001 +5.7289010286E-001 
1635887.359 +9.1111648083E-001 -4.1036123037E-001  +4.6389157069E-004 +3.6146672210E-004  -9.3910653959E-005 +6.0774583835E-004  +1.5009731054E+000 +6.5891838074E-001 
1761032.541 +9.3394517899E-001 -5.4712373018E-001  -1.4897913206E-004 -6.8069936242E-004  +4.0859356523E-004 -9.5260707894E-005  +1.0788828135E+000 +8.1636965275E-001 
1886177.722 +8.3393871784E-001 -2.6707690954E-001  -3.7274585338E-004 +9.9686294561E-005  +2.4962780299E-004 +3.7522859202E-005  +1.1297910213E+000 +5.4980707169E-001 
2011322.904 +8.5349649191E-001 -1.7422096431E-001  -6.8773144449E-005 +2.0353547006E-004  +1.0549819308E-005 -5.8612786233E-005  +1.1456669569E+000 +5.1322960854E-001 
2136468.085 +8.7597072124E-001 -1.6163146496E-001  -1.9244931173E-004 +2.8481699992E-003  +2.0278432203E-005 -1.4541501878E-004  +1.0862413645E+000 +4.6565914154E-001 
2261613.267 +8.8135230541E-001 -1.4203572273E-001  +9.7222844488E-005 +2.1113372350E-004  -7.1351678343E-005 -1.3484869851E-004  +1.0532815456E+000 +4.9485880136E-001 
2386758.448 +8.7634789944E-001 -1.1939260364E-001  -1.0920461500E-004 -3.8247573684E-005  +1.0879168258E-004 +2.9760354664E-005  +1.0773808956E+000 +5.1982188225E-001 
2511903.630 +8.7372249365E-001 -8.7890371680E-002  +2.1337677026E-004 +3.1733390642E-005  -1.7047216534E-004 -1.0316383850E-004  +1.1280522346E+000 +5.4957658052E-001 
2637048.811 +8.9762300253E-001 -8.7148346007E-002  -2.9725229251E-004 -2.0696951833E-004  -1.2878298003E-004 -3.4892746044E-005  +1.1535409689E+000 +5.7296174765E-001 
2762193.992 +9.0089690685E-001 -9.1467171907E-002  -2.7721931110E-004 +2.8759604902E-004  +1.0803542682E-004 -4.0546728997E-007  +1.1922389269E+000 +4.4919401407E-001 
2887339.174 +8.5157448053E-001 -8.4228619933E-002  +4.5712330029E-004 -3.4049196984E-005  -8.5082712758E-005 -9.0107532742E-005  +1.0328482389E+000 +3.9534217119E-001 
3012484.355 +8.4754216671E-001 -5.0598174334E-002  -1.3970664440E-005 -3.3047018223E-004  +2.7812071494E-004 -2.0079518436E-004  +9.5011693239E-001 +5.0558757782E-001 
3137629.537 +8.5337531567E-001 -1.3721451163E-002  +2.9641625588E-004 -4.4864689698E-004  +4.5950329513E-004 +2.7168524684E-004  +9.6619492769E-001 +6.2176144123E-001 
3262774.718 +8.4218233824E-001 +8.8621675968E-004  +2.6092719054E-004 -1.1033176270E-004  +4.2792485328E-004 -2.9811155400E-004  +1.0087573528E+000 +6.8594110012E-001 
3387919.900 +8.4057897329E-001 +4.5095011592E-002  +1.5324545529E-005 +2.0516003133E-004  -1.9355144468E-004 -1.1787335097E-005  +1.0479412079E+000 +7.5125408173E-001 
3513065.081 +8.4807717800E-001 +6.4226731658E-002  +1.1143562915E-005 +3.1748746551E-005  -7.4243267591E-005 +3.7638982758E-004  +1.0856598616E+000 +8.1730616093E-001 
3638210.263 +8.6921733618E-001 +1.0187667608E-001  -2.6843766682E-004 -2.0191923250E-004  +2.9930425808E-004 +2.9365858063E-004  +1.1652469635E+000 +8.4830445051E-001 
3763355.444 +8.8439202309E-001 +1.2456685305E-001  -1.3565030531E-004 -2.0080039394E-004  +1.8677611661E-004 +1.8963984621E-004  +1.2526297569E+000 +8.7663155794E-001 
3888500.626 +9.0471851826E-001 +1.4208692312E-001  -3.6294313031E-004 -5.4577190895E-005  -8.5675259470E-005 -3.5446760012E-004  +1.3348373175E+000 +9.2804044485E-001 
4013645.807 +8.6283916235E-001 +9.6607118845E-002  -1.2293757754E-004 +5.5492510000E-005  -5.3064379608E-004 +2.8647971340E-004  +1.5523288250E+000 +7.2206431627E-001 
4138790.989 +8.0763477087E-001 +3.4779235721E-002  +1.6519169731E-004 -2.5143806124E-004  -2.2159045329E-004 +9.0307112259E-006  +1.6244916916E+000 +4.5172309875E-001 
4263936.170 +8.0766034126E-001 +6.0923039913E-002  +3.1225066050E-004 +5.9028832766E-005  -6.9692055695E-004 +2.3265450727E-004  +1.6656562090E+000 +3.7172126770E-001 
4389081.352 +8.2929867506E-001 +5.7066246867E-002  +9.5588591648E-005 +3.9761853986E-004  +2.1121311875E-004 -1.1038406956E-004  +1.6993606091E+000 +2.6614144444E-001 
4514226.533 +8.4027630091E-001 +5.7328753173E-002  -3.0740461079E-004 -6.4164522337E-004  +1.7116502568E-004 -4.9360358389E-004  +1.7251737118E+000 +1.9685205817E-001 
4639371.715 +8.5706585646E-001 +5.6232601404E-002  +9.5050882010E-006 -4.8892932682E-005  -4.2627446237E-004 +4.2900873814E-004  +1.7277771235E+000 +1.2655204535E-001 
4764516.896 +8.5355776548E-001 +5.3659483790E-002  -2.2606954735E-004 -5.8257515775E-005  -2.4146024953E-004 +3.2416239264E-004  +1.7260040045E+000 +6.8298846483E-002 
4889662.078 +8.6642032862E-001 +6.6680476069E-002  +3.9197871229E-004 -4.4020297355E-004  -1.9556620828E-005 -3.6178744631E-004  +1.7331529856E+000 +1.0522007942E-002 
5014807.259 +8.6834037304E-001 +7.0851065218E-002  +9.7811262094E-006 -2.1771904721E-004  +3.4506915836E-004 +4.2647885857E-004  +1.7021368742E+000 -5.8228850365E-002 
5139952.441 +8.8544499874E-001 +6.7755132914E-002  -5.3295283578E-004 +3.0527065974E-004  -2.3680832237E-004 -2.2882716439E-004  +1.6955370903E+000 -1.3354384899E-001 
5265097.622 +8.9118796587E-001 +7.1068227291E-002  -3.6103363527E-005 -2.3723146296E-004  -1.8988960073E-004 -9.2530877737E-005  +1.6514128447E+000 -1.8921074271E-001 
5390242.804 +8.9020359516E-001 +7.3097750545E-002  +2.8133543674E-004 -3.0616548611E-004  -2.1649840346E-004 +1.9594498735E-004  +1.6131762266E+000 -2.2342821956E-001 
5515387.985 +9.0645724535E-001 +7.3483906686E-002  -2.4122059403E-004 -3.6245468073E-004  -3.4130780841E-004 +6.8016655860E-005  +1.5840127468E+000 -2.7878487110E-001 
5640533.166 +9.1150140762E-001 +7.9231120646E-002  -3.4631747985E-004 +4.1678445996E-005  +1.7322036729E-004 +4.5027954911E-006  +1.5568990707E+000 -3.1538009644E-001 
5765678.348 +9.0815460682E-001 +7.8640110791E-002  -3.6426604493E-004 -3.0160931055E-004  -2.5587581331E-004 -4.8158993013E-004  +1.5168246031E+000 -3.4666949511E-001 
5890823.529 +9.1601419449E-001 +6.9243505597E-002  -2.4435210435E-005 +3.5493143514E-005  +1.1816059123E-004 +5.3798037698E-005  +1.4690994024E+000 -3.6942496896E-001 
6015968.711 +9.2057883739E-001 +6.3988208771E-002  +3.1772025977E-004 -4.4369715033E-004  +3.5904493416E-004 -1.3980452786E-004  +1.4457244873E+000 -3.9064937830E-001 
6141113.892 +9.2574876547E-001 +6.6294670105E-002  +1.0181961989E-004 -2.7809957828E-005  -2.1920299332E-005 -2.2939097107E-005  +1.3898942471E+000 -4.1036117077E-001 
6266259.074 +9.2733579874E-001 +6.8065345287E-002  +6.8474706495E-005 -7.0121546742E-005  -1.5223716036E-004 +1.0651664343E-004  +1.3462386131E+000 -4.2822194099E-001 
6391404.255 +9.2999356985E-001 +5.4064791650E-002  +6.0197209677E-005 -4.9924296036E-005  +2.1757585637E-004 -6.0796650359E-005  +1.3036531210E+000 -4.4548782706E-001 
6516549.437 +9.3304163218E-001 +5.7157717645E-002  -4.0545541560E-004 -1.5270138101E-004  +5.0465136155E-005 +7.1638212830E-005  +1.2686082125E+000 -4.5240238309E-001 
6641694.618 +9.4272494316E-001 +6.3177272677E-002  +1.6348531062E-005 -1.0181059770E-004  +1.4440681844E-004 -2.9994167562E-005  +1.2352733612E+000 -4.6421140432E-001 
6766839.800 +9.4888287783E-001 +6.2282256782E-002  -2.0000481163E-004 -5.6396267610E-005  +1.5681925288E-004 +7.9845856817E-005  +1.2041965723E+000 -4.6729612350E-001 
6891984.981 +9.4816851616E-001 +5.4643787444E-002  -9.3248774647E-005 +1.9016940496E-004  +2.1264884708E-005 -8.2589326666E-007  +1.1561286449E+000 -4.5994007587E-001 
7017130.163 +9.4696885347E-001 +5.9023551643E-002  -2.6097998489E-004 +1.8874157104E-004  +1.5308034563E-005 +1.3960998331E-004  +1.1330639124E+000 -4.5212221146E-001 
7142275.344 +9.4989037514E-001 +6.1002686620E-002  -1.2909567158E-004 +8.8480686827E-005  -1.2416786922E-004 +2.2868959059E-004  +1.1108870506E+000 -4.3974530697E-001 
7267420.526 +9.5373904705E-001 +6.1867699027E-002  +1.9488055841E-004 -1.0899683548E-004  +6.8291003117E-005 -1.4364828530E-004  +1.0798400640E+000 -4.3960058689E-001 
7392565.707 +9.5727097988E-001 +6.5396256745E-002  -2.4776902865E-004 -7.2918446676E-006  +4.1036204493E-005 -6.3597741246E-005  +1.0539956093E+000 -4.3691086769E-001 
7517710.889 +9.6135592461E-001 +6.5018348396E-002  +6.2796359998E-005 -1.4730583644E-005  -1.3490788115E-004 -2.1391858172E-004  +1.0244747400E+000 -4.2202755809E-001 
7642856.070 +9.5702934265E-001 +5.9361740947E-002  +1.2776858057E-004 -4.4403153879E-005  +8.6420775915E-005 +5.4994245147E-005  +9.9130493402E-001 -4.2590376735E-001 
7768001.252 +9.5985859632E-001 +5.8149829507E-002  +1.6793938994E-004 -2.1884159651E-004  +2.2612631437E-004 -4.5637043513E-005  +9.6971267462E-001 -4.1054087877E-001 
7893146.433 +9.6589237452E-001 +5.6900158525E-002  +1.5809436445E-004 -1.7450034647E-005  -1.9242488634E-005 -8.9878645667E-005  +9.4728767872E-001 -3.9383238554E-001 
8018291.615 +9.6552091837E-001 +5.5584073067E-002  -1.2912024977E-004 +3.7882979086E-005  +1.0542741802E-004 +8.9825134637E-006  +9.2229974270E-001 -3.8250297308E-001 
8143436.796 +9.6298927069E-001 +5.3038418293E-002  -1.6088062694E-005 +4.2999421566E-005  -5.3640142141E-005 -1.3901430066E-004  +9.0681535006E-001 -3.7265235186E-001 
8268581.977 +9.6586179733E-001 +5.4793328047E-002  -1.2545197023E-005 -1.3604945707E-005  +5.0783390179E-005 -1.5938562865E-004  +8.8729214668E-001 -3.6161053181E-001 
8393727.159 +9.6390682459E-001 +4.7042310238E-002  +8.1168596807E-005 -1.2840640920E-005  +2.3821343348E-005 -8.5556115664E-005  +8.7229758501E-001 -3.4763318300E-001 
8518872.340 +9.7259372473E-001 +4.8411577940E-002  -3.1234605558E-005 -1.1136790272E-004  +7.4868963566E-005 -3.1444607885E-005  +8.5428333282E-001 -3.3264416456E-001 
8644017.522 +9.6951603889E-001 +5.0518423319E-002  -1.3719346316E-004 -1.8110587916E-005  +1.1362037912E-004 -1.0096798360E-004  +8.4245193005E-001 -3.2105189562E-001 
8769162.703 +9.7312724590E-001 +4.7328412533E-002  -7.1696762461E-005 -1.6741856234E-004  +1.3325129112E-004 -1.3274591765E-004  +8.2802355289E-001 -3.0853575468E-001 
8894307.885 +9.7340226173E-001 +4.5928537846E-002  +1.1907100270E-004 -5.6778204453E-005  -3.5018947528E-005 -2.2659027309E-005  +8.1208103895E-001 -2.9667443037E-001 
9019453.066 +9.7289979458E-001 +4.1837364435E-002  -1.3707295875E-004 +8.5916501121E-005  -2.0812998991E-004 +3.0266994145E-005  +8.0123680830E-001 -2.7815395594E-001 
9144598.248 +9.7360825539E-001 +3.9085209370E-002  +8.6538988398E-005 -6.0249047237E-005  +1.0227044550E-004 +8.0123470980E-005  +7.8978830576E-001 -2.6470342278E-001 
9269743.429 +9.7465598583E-001 +3.9236098528E-002  +9.3485396064E-005 +7.9615838331E-006  +1.4066905351E-005 -9.2482630862E-005  +7.8050547838E-001 -2.4892358482E-001 
9394888.611 +9.7665643692E-001 +4.5172214508E-002  -8.6230553279E-005 +1.0103569366E-005  +1.9620903913E-005 +7.4647825386E-005  +7.7038496733E-001 -2.3557756841E-001 
9520033.792 +9.7875940800E-001 +3.9716154337E-002  -3.7264129787E-005 +3.4896333091E-005  +9.4535098469E-006 +7.3143732152E-005  +7.6112389565E-001 -2.1756663918E-001 
9645178.974 +9.8161453009E-001 +4.1769772768E-002  -1.6419027816E-005 -9.8292461189E-005  -4.2963398300E-005 -5.9014118960E-006  +7.5413709879E-001 -2.0166051388E-001 
9770324.155 +9.7961568832E-001 +4.0662705898E-002  -4.3341227865E-005 +1.5442560834E-004  +3.5130462493E-005 -1.4100834960E-005  +7.4509847164E-001 -1.8653720617E-001 
9895469.337 +9.8133623600E-001 +4.0179133415E-002  +3.5888489947E-005 +1.1168829224E-004  +6.8240005930E-006 -5.6224405853E-005  +7.4050605297E-001 -1.7197918892E-001 
10020614.518 +9.7975766659E-001 +3.9405316114E-002  -3.0757808418E-005 +9.9210192275E-005  -5.6695680541E-005 +1.0514073438E-005  +7.3714947701E-001 -1.5367817879E-001 
10145759.700 +9.8144769669E-001 +3.5941034555E-002  +5.1051203627E-005 +5.7075703808E-007  +2.4925770049E-005 +3.5510220187E-005  +7.3234093189E-001 -1.3977822661E-001 
10270904.881 +9.8312991858E-001 +3.3234477043E-002  +7.6036885730E-005 +3.0547926144E-006  -3.5490651499E-005 +3.5471995943E-005  +7.3206591606E-001 -1.2430569530E-001 
10396050.063 +9.8336493969E-001 +3.5914957523E-002  -3.5990720789E-005 +7.7452405094E-006  -3.0387760489E-005 -2.9043721952E-006  +7.2604155540E-001 -1.0788324475E-001 
10521195.244 +9.8344963789E-001 +3.2790154219E-002  -4.4892265578E-005 +2.6156141757E-005  +4.8278496251E-005 -2.8245063731E-005  +7.2471123934E-001 -9.2747598886E-002 
10646340.426 +9.8285520077E-001 +3.3226251602E-002  +5.9815225541E-005 +2.5052977435E-006  -1.4225499399E-005 +1.2901313312E-005  +7.2459316254E-001 -7.7128320932E-002 
10771485.607 +9.8315954208E-001 +3.2171607018E-002  +8.8408574811E-005 +4.3772924982E-005  +1.8603834178E-005 +8.8728324044E-005  +7.2325778008E-001 -6.3927918673E-002 
10896630.788 +9.8394632339E-001 +3.0329018831E-002  +5.8485158661E-005 -4.1689290811E-006  -2.3015101760E-005 +1.1177899069E-006  +7.2217571735E-001 -4.9978166819E-002 
11021775.970 +9.8233705759E-001 +2.8975486755E-002  -2.1125310013E-005 -2.2067444661E-005  -4.2600022425E-005 +1.0412167467E-004  +7.2271788120E-001 -3.5037368536E-002 
11146921.151 +9.8298251629E-001 +2.6073664427E-002  +5.7403394749E-006 +6.1171551351E-005  +3.5399167245E-005 +1.3328097339E-005  +7.2528982162E-001 -2.1136224270E-002 
11272066.333 +9.8333811760E-001 +2.5844931602E-002  +1.1551244825E-005 -3.6989269574E-005  +2.8830101655E-005 -3.2411309803E-005  +7.2627973557E-001 -5.0129294395E-003 
11397211.514 +9.8484492302E-001 +2.5397032499E-002  +1.2247218365E-005 -5.0407443268E-006  +1.7717413357E-005 +7.8258934082E-005  +7.2913348675E-001 +5.0095915794E-003 
11522356.696 +9.8419928551E-001 +2.4643003941E-002  -1.5665835235E-005 -2.8892740374E-005  +5.6931505242E-005 +4.6440407459E-005  +7.3308539391E-001 +1.9829481840E-002 
11647501.877 +9.8274636269E-001 +2.3953109980E-002  +6.4389845647E-005 +9.2206952104E-005  -3.9821079554E-006 -2.8166168704E-005  +7.3657572269E-001 +3.3313006163E-002 
11772647.059 +9.8354780674E-001 +2.4701505899E-002  +5.3845848015E-005 +9.1726560640E-006  +1.5681011064E-005 +4.7075496695E-005  +7.4020183086E-001 +4.5836418867E-002 
11897792.240 +9.8297673464E-001 +2.4145454168E-002  -4.8263049393E-005 -1.4282886696E-006  +8.1316047726E-006 +1.9073104340E-005  +7.4544191360E-001 +5.9248387814E-002 
12022937.422 +9.8584884405E-001 +2.2869288921E-002  +5.9598813095E-005 -8.1221442088E-006  +3.3076830732E-005 +3.8410844354E-006  +7.5087779760E-001 +7.0900678635E-002 
12148082.603 +9.8516511917E-001 +2.2224843502E-002  +5.6813001720E-005 +6.8134853791E-005  -8.2905855379E-005 -3.4545519156E-007  +7.5818181038E-001 +8.4840863943E-002 
12273227.785 +9.8504585028E-001 +2.2018253803E-002  +1.1890278984E-005 +2.1842593014E-006  +3.1964889786E-005 -5.0751659728E-005  +7.6480585337E-001 +9.4494253397E-002 
12398372.966 +9.8509889841E-001 +2.0618945360E-002  -2.8576043405E-005 -2.0615647372E-005  +6.6940847319E-005 +3.4774129745E-005  +7.7308040857E-001 +1.0667790473E-001 
12523518.148 +9.8321324587E-001 +2.0211249590E-002  +2.9275046472E-005 +3.1313909858E-005  +2.4196742743E-005 +7.0744361437E-005  +7.7930444479E-001 +1.1735831201E-001 
12648663.329 +9.8384702206E-001 +2.1084442735E-002  +3.7499365135E-005 +2.5672312404E-005  -3.6325841393E-006 -1.5538509615E-005  +7.8857278824E-001 +1.2790706754E-001 
12773808.511 +9.8313879967E-001 +1.8667668104E-002  -2.1387033485E-005 -3.4968761611E-005  +3.9404392737E-005 -3.8202010728E-006  +7.9629254341E-001 +1.3731352985E-001 
12898953.692 +9.8374146223E-001 +1.8556922674E-002  +1.5877290934E-005 +1.1156334949E-005  +8.8237475211E-006 -4.6883422328E-005  +8.0568087101E-001 +1.4518484473E-001 
13024098.874 +9.8369473219E-001 +1.8195480108E-002  -6.0646838392E-005 +9.7134427051E-005  +3.5160817788E-005 +5.6312950619E-005  +8.1524670124E-001 +1.5498745441E-001 
13149244.055 +9.8324340582E-001 +1.7260648310E-002  +6.9983775575E-006 +1.9055472876E-005  +4.2144827603E-005 +1.8980758796E-006  +8.2540065050E-001 +1.6350220144E-001 
13274389.237 +9.8298478127E-001 +1.6981003806E-002  +2.4111073799E-005 +4.0986389649E-005  -1.4245983039E-005 +1.6667370801E-005  +8.3766907454E-001 +1.7121195793E-001 
13399534.418 +9.8315751553E-001 +1.5991739929E-002  +2.1004367227E-005 +2.6486042771E-005  -2.7354388294E-005 +5.3674644732E-005  +8.4722113609E-001 +1.7886278033E-001 
13524679.599 +9.8271453381E-001 +1.6141071916E-002  +1.8751812604E-005 +2.3458933356E-005  +3.7707202864E-005 +2.2647188871E-006  +8.5902106762E-001 +1.8497018516E-001 
13649824.781 +9.8400533199E-001 +1.5757769346E-002  +5.7121040300E-005 +3.8834936277E-005  +3.6032462958E-005 -8.8864271675E-006  +8.7148904800E-001 +1.9017043710E-001 
13774969.962 +9.8291265965E-001 +1.5666097403E-002  +7.0445357778E-006 +1.3920346646E-005  -2.0454004698E-005 +3.0712912121E-005  +8.8248807192E-001 +1.9482819736E-001 
13900115.144 +9.8289179802E-001 +1.5368819237E-002  +1.7714026399E-005 +1.3178606423E-005  +7.4205971032E-005 +5.6219210819E-005  +8.9400291443E-001 +1.9938735664E-001 
14025260.325 +9.8198121786E-001 +1.5803724527E-002  +1.1747984900E-005 +2.2569229259E-005  +1.7428088540E-005 +6.3479478740E-006  +9.0563917160E-001 +2.0238670707E-001 
14150405.507 +9.8181664944E-001 +1.5494614840E-002  +6.6040488491E-006 +2.7560629405E-006  +3.6220764741E-005 -9.7812207969E-006  +9.1774898767E-001 +2.0541512966E-001 
14275550.688 +9.8184967041E-001 +1.4159470797E-002  +2.4136093998E-005 -1.5031388102E-005  +2.5818048016E-005 +3.5927387216E-005  +9.3066745996E-001 +2.0727981627E-001 
14400695.870 +9.8024225235E-001 +1.4178335667E-002  +3.5844459489E-005 +2.7147394576E-005  -3.2258465126E-006 -1.4398762005E-006  +9.4327998161E-001 +2.0926484466E-001 
