!  2-Port S-parameters saved by WinCal
! VAR MeasName=S-Parameters (CALIBRATED_DATA) read from VNA (P5004A)
! VAR MeasDate=22/05/2024 20:50:18
! VAR NAME=Wafer3_r3_c1_thru
! VAR FILENAME=Wafer3_r3_c1_thru.S2P
! VAR DATE=22/05/2024 20:50:18
! VAR PHYS_PORTS=1,2
! VAR ObjTypeName=DATASET
! VAR IndexType=Frequency
!
# Hz S RI R 50
9000.000 +2.0292983949E-001 -5.9190446138E-001  +1.7864138354E-003 +8.8152596727E-003  +2.4154621642E-003 -1.8992989790E-003  +5.5689528584E-002 +1.0718654096E-001 
134145.181 +5.3640294075E-001 -2.9823690653E-002  +1.7518346012E-001 +5.6753262877E-002  +1.9801521301E-001 +4.5908145607E-002  +4.7665211558E-001 +1.7508043349E-001 
259290.363 +7.0651280880E-001 -3.5818159580E-002  +2.4624943733E-001 -6.9935575128E-002  +2.2432065010E-001 -8.0590344965E-002  +6.1316454411E-001 +3.7434101105E-002 
384435.544 +7.4326145649E-001 -1.7110067606E-001  +2.4344289303E-001 -6.5332613885E-002  +2.7391594648E-001 -8.1384591758E-002  +5.4565405846E-001 -7.2180777788E-002 
509580.726 +8.3005428314E-001 -1.3113945723E-002  +1.8354091048E-001 -1.3303516805E-001  +2.0119225979E-001 -1.4100050926E-001  +7.2956228256E-001 +1.2620776892E-001 
634725.907 +1.0339441299E+000 -1.9477593899E-001  +7.2462961078E-002 +5.2627176046E-004  +7.1989774704E-002 -1.8146224320E-003  +9.9311494827E-001 -6.7557036877E-002 
759871.089 +1.3808493614E+000 -1.1080837250E-001  -1.0411620885E-001 +2.5442324579E-002  -1.0831727833E-001 +2.6117876172E-002  +1.3726178408E+000 -6.3163369894E-002 
885016.270 +2.1988077164E+000 -1.1381605864E+000  -1.4539545774E-001 -5.0417613983E-001  -1.3637700677E-001 -5.0912737846E-001  +1.4899393320E+000 +3.0009427667E-001 
1010161.452 +6.8751299381E-001 +1.3817369938E-002  +1.6055226326E-002 -3.7465575337E-001  +2.3342013359E-002 -3.7397730350E-001  +1.0883277655E+000 +7.0605373383E-001 
1135306.633 +4.5521050692E-001 +4.2405390739E-001  +1.8863603473E-001 -4.7453552485E-001  +1.8098130822E-001 -4.7406119108E-001  +8.6825644970E-001 +7.7713406086E-001 
1260451.815 +9.3105471134E-001 +1.8943122029E-001  +2.6778444648E-001 -1.6785773635E-001  +2.7037915587E-001 -1.6729322076E-001  +7.1943032742E-001 +4.3050700426E-001 
1385596.996 +1.0155241489E+000 -1.8082946539E-001  +2.3854377866E-001 +6.1074871570E-002  +2.4055051804E-001 +5.6361217052E-002  +7.5304901600E-001 +5.8841407299E-002 
1510742.178 +1.0133930445E+000 -5.4248511791E-001  +4.5601803064E-001 +2.8492990136E-001  +4.5571890473E-001 +2.8831028938E-001  +4.5390987396E-001 -2.4459394813E-001 
1635887.359 +5.7227176428E-001 -7.3624789715E-001  +4.3871161342E-001 +2.6827767491E-001  +4.3110865355E-001 +2.7264118195E-001  +5.0242871046E-001 -6.2755115330E-002 
1761032.541 +3.1812024117E-001 -1.5442470312E+000  +7.5080609322E-001 +7.3792821169E-001  +7.3477327824E-001 +7.5616049767E-001  +2.2481879592E-001 -3.5846981406E-001 
1886177.722 -6.6710209846E-001 -5.2126830816E-001  +1.3024922609E+000 +1.2457369268E-001  +1.2924329042E+000 +1.2897247076E-001  -7.9671189189E-002 +1.1164015159E-002 
2011322.904 -2.7910438180E-001 +1.2861171365E-001  +9.5401668549E-001 -2.3952275515E-001  +9.5046365261E-001 -2.4334448576E-001  +2.0612536371E-001 +2.2191466391E-001 
2136468.085 -5.9884466231E-002 +1.5841221809E-001  +7.9248940945E-001 -2.3209515214E-001  +7.9147899151E-001 -2.2709703445E-001  +3.3546802402E-001 +1.8727964163E-001 
2261613.267 +1.2194976211E-001 +7.0739686489E-002  +6.7736935616E-001 -1.3318914175E-001  +6.7568880320E-001 -1.3595145941E-001  +3.9663159847E-001 +1.1821278930E-001 
2386758.448 +1.5892142057E-001 +9.1253057122E-002  +6.4003384113E-001 -1.2769791484E-001  +6.3977199793E-001 -1.2787504494E-001  +4.2015078664E-001 +1.0583224893E-001 
2511903.630 +1.8896405399E-001 +5.6415054947E-002  +6.2022328377E-001 -7.9539090395E-002  +6.1935198307E-001 -7.9373970628E-002  +4.3491369486E-001 +7.4837438762E-002 
2637048.811 +2.2281515598E-001 +2.2861896083E-002  +6.1536228657E-001 -3.9961658418E-002  +6.1502414942E-001 -3.9813641459E-002  +4.2123654485E-001 +4.4534143060E-002 
2762193.992 +2.3053751886E-001 +2.6609674096E-003  +6.0995656252E-001 -1.9207879901E-002  +6.1029195786E-001 -1.9856289029E-002  +4.1190230846E-001 +2.7154147625E-002 
2887339.174 +2.1229758859E-001 +5.2753090858E-003  +6.0019564629E-001 -1.2353330851E-002  +6.0042977333E-001 -1.2613266706E-002  +4.0772086382E-001 +3.3625617623E-002 
3012484.355 +2.1195928752E-001 +1.0757602751E-002  +6.0587847233E-001 +8.6031854153E-003  +6.0481542349E-001 +8.8111758232E-003  +4.1915661097E-001 +2.6568487287E-002 
3137629.537 +2.5602379441E-001 +1.5083178878E-002  +5.9706878662E-001 +3.4045249224E-002  +5.9436768293E-001 +3.5269200802E-002  +4.1924238205E-001 +1.9571006298E-002 
3262774.718 +2.6279914379E-001 +3.9399534464E-002  +5.8508908749E-001 +4.1911482811E-002  +5.8406281471E-001 +4.2674452066E-002  +4.3769627810E-001 +2.1029904485E-002 
3387919.900 +2.7673652768E-001 +4.8980198801E-002  +5.8503687382E-001 +5.5644363165E-002  +5.8516377211E-001 +5.5877447128E-002  +4.2715951800E-001 +4.2622834444E-003 
3513065.081 +2.8371727467E-001 +3.8783520460E-002  +5.9967219830E-001 +7.7716618776E-002  +6.0019004345E-001 +7.7198505402E-002  +4.2406359315E-001 -8.1779509783E-003 
3638210.263 +2.8621494770E-001 +3.1039252877E-002  +6.1007136106E-001 +9.0665698051E-002  +6.1036407948E-001 +9.1053217649E-002  +4.2521452904E-001 -1.1122182012E-002 
3763355.444 +2.8898423910E-001 +2.7517572045E-002  +6.2303411961E-001 +9.4583928585E-002  +6.2344837189E-001 +9.4949781895E-002  +4.2321747541E-001 -2.1439164877E-002 
3888500.626 +2.8960204124E-001 +2.9667042196E-002  +6.4349824190E-001 +1.0780194402E-001  +6.4253038168E-001 +1.0837417841E-001  +4.2669004202E-001 -3.7238255143E-002 
4013645.807 +2.8898105025E-001 +1.9320532680E-002  +6.7024588585E-001 +7.8106313944E-002  +6.6799408197E-001 +7.6095998287E-002  +3.9038059115E-001 -1.9031256437E-002 
4138790.989 +2.6826137304E-001 +3.1314760447E-002  +6.9696700573E-001 +3.7235409021E-002  +6.9218355417E-001 +3.6499649286E-002  +3.5755667090E-001 -2.2339418530E-002 
4263936.170 +2.6898145676E-001 +2.9009297490E-002  +6.9533240795E-001 +3.5322606564E-002  +6.9399368763E-001 +3.7541359663E-002  +3.4904509783E-001 -3.1044423580E-002 
4389081.352 +2.7716034651E-001 +2.6279024780E-002  +7.0528638363E-001 +3.2944411039E-002  +7.0308923721E-001 +3.3870905638E-002  +3.4771925211E-001 -3.9224550128E-002 
4514226.533 +2.7522370219E-001 +1.8997989595E-002  +7.1455103159E-001 +3.0348837376E-002  +7.1167212725E-001 +3.3353567123E-002  +3.4026321769E-001 -4.8050291836E-002 
4639371.715 +2.8483122587E-001 +1.8934294581E-002  +7.1239668131E-001 +3.2708853483E-002  +7.1496641636E-001 +3.4917742014E-002  +3.3750766516E-001 -4.9207419157E-002 
4764516.896 +2.8269496560E-001 +1.6165323555E-002  +7.2175228596E-001 +3.0054539442E-002  +7.2093522549E-001 +3.0415654182E-002  +3.2717716694E-001 -5.9245258570E-002 
4889662.078 +2.8925985098E-001 +1.2410029769E-002  +7.2951877117E-001 +3.1341403723E-002  +7.2496932745E-001 +3.5131126642E-002  +3.2311439514E-001 -5.4393418133E-002 
5014807.259 +2.8468543291E-001 +7.8692287207E-003  +7.2901338339E-001 +2.9221981764E-002  +7.2525310516E-001 +2.8749078512E-002  +3.1337827444E-001 -5.5760256946E-002 
5139952.441 +2.8648424149E-001 -4.7195032239E-003  +7.3018431664E-001 +2.8301954269E-002  +7.3247671127E-001 +2.6433646679E-002  +3.1247049570E-001 -5.0523281097E-002 
5265097.622 +2.8464746475E-001 +4.4657737017E-003  +7.2965049744E-001 +2.2682741284E-002  +7.3190659285E-001 +2.6004657149E-002  +3.0543327332E-001 -5.1629297435E-002 
5390242.804 +2.8409904242E-001 +2.8141438961E-003  +7.3205363750E-001 +2.0434916019E-002  +7.3090332747E-001 +2.3846641183E-002  +3.0060499907E-001 -5.5338505656E-002 
5515387.985 +2.8905814886E-001 -2.0185187459E-003  +7.3523098230E-001 +1.6818568110E-002  +7.3506331444E-001 +1.9454300404E-002  +3.0171695352E-001 -5.5860579014E-002 
5640533.166 +2.8548040986E-001 -1.0700449347E-003  +7.3962986469E-001 +1.9180104136E-002  +7.3743283749E-001 +2.1528080106E-002  +2.9347187281E-001 -6.3295461237E-002 
5765678.348 +2.8503492475E-001 -3.8316622376E-003  +7.3740893602E-001 +1.9533514977E-002  +7.3713320494E-001 +2.0884141326E-002  +2.8933531046E-001 -5.9363648295E-002 
5890823.529 +2.8641903400E-001 -8.0511160195E-003  +7.3984473944E-001 +1.4442086220E-002  +7.3768186569E-001 +1.2262925506E-002  +2.8835794330E-001 -5.4601527750E-002 
6015968.711 +2.8315806389E-001 -8.5486844182E-003  +7.3737055063E-001 +1.4377325773E-002  +7.3431289196E-001 +1.3088464737E-002  +2.8671172261E-001 -5.1672413945E-002 
6141113.892 +2.8299266100E-001 -5.7636983693E-003  +7.3622393608E-001 +1.4910548925E-002  +7.3559731245E-001 +1.6634881496E-002  +2.8223997355E-001 -4.9079593271E-002 
6266259.074 +2.8144210577E-001 -9.4770379364E-003  +7.3462945223E-001 +1.1864840984E-002  +7.3812305927E-001 +1.2835681438E-002  +2.8135481477E-001 -5.4326169193E-002 
6391404.255 +2.7630758286E-001 -1.7205502838E-002  +7.3630291224E-001 +8.0047547817E-003  +7.3840397596E-001 +4.5502334833E-003  +2.7918520570E-001 -4.9186300486E-002 
6516549.437 +2.7746465802E-001 -1.1236093938E-002  +7.3554354906E-001 +8.6907446384E-003  +7.3494762182E-001 +8.1820413470E-003  +2.7674341202E-001 -4.5391492546E-002 
6641694.618 +2.8176024556E-001 -1.4909202233E-002  +7.3871511221E-001 +6.7859515548E-003  +7.4264025688E-001 +9.5779225230E-003  +2.7330455184E-001 -4.5395031571E-002 
6766839.800 +2.8068512678E-001 -1.6032924876E-002  +7.3902314901E-001 +8.0979391932E-003  +7.3958218098E-001 +4.7227367759E-003  +2.7397140861E-001 -4.9190364778E-002 
6891984.981 +2.7645930648E-001 -1.8764466047E-002  +7.3622214794E-001 +6.9189518690E-003  +7.3722326756E-001 +3.4401044250E-003  +2.6256746054E-001 -4.3411180377E-002 
7017130.163 +2.7988082170E-001 -1.8014518544E-002  +7.3680025339E-001 +2.7970224619E-003  +7.3601061106E-001 +4.8875436187E-003  +2.6788705587E-001 -4.1563488543E-002 
7142275.344 +2.7768778801E-001 -1.4703768305E-002  +7.3707854748E-001 +6.1528757215E-003  +7.3711633682E-001 +8.0549083650E-003  +2.6627597213E-001 -4.0081985295E-002 
7267420.526 +2.7541613579E-001 -1.0856643319E-002  +7.3809254169E-001 +6.5455250442E-003  +7.3684728146E-001 +3.5970844328E-003  +2.6293227077E-001 -4.0774073452E-002 
7392565.707 +2.7818846703E-001 -1.1867020279E-002  +7.3833316565E-001 +5.2562244236E-003  +7.3645079136E-001 +5.5435635149E-003  +2.6266255975E-001 -3.6709394306E-002 
7517710.889 +2.7450385690E-001 -1.3776136562E-002  +7.3730820417E-001 +6.8186223507E-003  +7.3542320728E-001 +6.3481302932E-003  +2.5864619017E-001 -4.2408682406E-002 
7642856.070 +2.7096554637E-001 -1.5868697315E-002  +7.3597282171E-001 +3.2615242526E-003  +7.3693567514E-001 +5.4053878412E-003  +2.5811767578E-001 -4.1106142104E-002 
7768001.252 +2.7594563365E-001 -1.5224554576E-002  +7.3649567366E-001 +4.2159417644E-003  +7.3760855198E-001 +6.2021669000E-003  +2.5415036082E-001 -3.8365237415E-002 
7893146.433 +2.7602443099E-001 -1.3687415980E-002  +7.3708987236E-001 +3.7972163409E-003  +7.3740965128E-001 +5.0833038986E-003  +2.5487431884E-001 -3.2340064645E-002 
8018291.615 +2.6859462261E-001 -1.3579435647E-002  +7.3519998789E-001 +3.5718157887E-003  +7.3515146971E-001 +1.0582990944E-003  +2.5491043925E-001 -3.2957136631E-002 
8143436.796 +2.7006769180E-001 -1.6312362626E-002  +7.3690670729E-001 +9.3795359135E-004  +7.3437333107E-001 +2.5644116104E-003  +2.5395739079E-001 -2.8468612581E-002 
8268581.977 +2.7105644345E-001 -1.2445900589E-002  +7.3409318924E-001 +2.4391934276E-003  +7.3547154665E-001 +3.6166310310E-003  +2.5143045187E-001 -2.7478924021E-002 
8393727.159 +2.7091702819E-001 -1.2225687504E-002  +7.3702967167E-001 +3.5542026162E-003  +7.3700743914E-001 +3.2348111272E-003  +2.5288903713E-001 -2.7930710465E-002 
8518872.340 +2.7145722508E-001 -9.0718157589E-003  +7.3577260971E-001 +1.5944391489E-003  +7.3517113924E-001 +2.9399096966E-003  +2.5408175588E-001 -2.4448744953E-002 
8644017.522 +2.7200603485E-001 -1.1981721967E-002  +7.3434931040E-001 +3.8558691740E-003  +7.3635613918E-001 +3.3865869045E-003  +2.5544673204E-001 -2.6653766632E-002 
8769162.703 +2.7178326249E-001 -1.1882424355E-002  +7.3538321257E-001 +3.7111938000E-003  +7.3527705669E-001 +2.1881461143E-003  +2.5470903516E-001 -2.7221873403E-002 
8894307.885 +2.7058467269E-001 -1.3433277607E-002  +7.3516702652E-001 +2.0484924316E-003  +7.3524582386E-001 +2.0440220833E-003  +2.5320106745E-001 -2.4527419358E-002 
9019453.066 +2.6937544346E-001 -1.2451253831E-002  +7.3484635353E-001 +3.4594535828E-004  +7.3614966869E-001 +2.3778975010E-003  +2.5120785832E-001 -2.3811411113E-002 
9144598.248 +2.6951855421E-001 -9.0804696083E-003  +7.3547828197E-001 +1.2448430061E-004  +7.3697501421E-001 +1.4781355858E-003  +2.5077438354E-001 -2.6544377208E-002 
9269743.429 +2.6889467239E-001 -1.1994637549E-002  +7.3493009806E-001 +1.9636005163E-003  +7.3427045345E-001 +1.9961595535E-003  +2.5178834796E-001 -2.3117616773E-002 
9394888.611 +2.6828441024E-001 -9.8438262939E-003  +7.3563271761E-001 +3.0069947243E-003  +7.3560351133E-001 +1.9713938236E-003  +2.5117835402E-001 -2.2134654224E-002 
9520033.792 +2.6727283001E-001 -1.1886373162E-002  +7.3545008898E-001 +8.2585215569E-004  +7.3444068432E-001 +1.0021030903E-004  +2.5188401341E-001 -1.8981248140E-002 
9645178.974 +2.6857984066E-001 -8.3869174123E-003  +7.3435312510E-001 +1.1277347803E-003  +7.3567467928E-001 +1.7266124487E-003  +2.5264015794E-001 -1.8369778991E-002 
9770324.155 +2.6901721954E-001 -8.4133222699E-003  +7.3425364494E-001 +1.8184483051E-003  +7.3455703259E-001 +1.7091929913E-003  +2.4979428947E-001 -1.8537797034E-002 
9895469.337 +2.6736643910E-001 -8.6030811071E-003  +7.3496502638E-001 +1.7744898796E-003  +7.3523527384E-001 +2.5484263897E-003  +2.5031396747E-001 -1.6544580460E-002 
10020614.518 +2.6947572827E-001 -7.9687908292E-003  +7.3433619738E-001 +1.3992488384E-003  +7.3479110003E-001 +1.9751191139E-003  +2.5187891722E-001 -1.2533575296E-002 
10145759.700 +2.6653438807E-001 -7.4741616845E-003  +7.3476195335E-001 +1.7886161804E-003  +7.3456370831E-001 +1.0381340981E-003  +2.5401026011E-001 -1.3697542250E-002 
10270904.881 +2.6920256019E-001 -6.6596269608E-003  +7.3494827747E-001 +1.1322796345E-003  +7.3477774858E-001 +6.6739320755E-004  +2.5339579582E-001 -1.2620858848E-002 
10396050.063 +2.6949149370E-001 -5.0567835569E-003  +7.3414552212E-001 +3.3316016197E-004  +7.3482906818E-001 +3.0773878098E-004  +2.5262129307E-001 -1.1192090809E-002 
10521195.244 +2.6972937584E-001 -2.9460862279E-003  +7.3441851139E-001 +7.0416927338E-004  +7.3533892632E-001 +5.0789117813E-004  +2.5293824077E-001 -1.3204649091E-002 
10646340.426 +2.6628729701E-001 -4.4268295169E-003  +7.3466402292E-001 +1.3952255249E-003  +7.3478156328E-001 +1.5768706799E-003  +2.5374463201E-001 -9.6346288919E-003 
10771485.607 +2.6821845770E-001 -4.6634078026E-003  +7.3445308208E-001 +6.7576766014E-004  +7.3506140709E-001 +7.6085329056E-004  +2.5426444411E-001 -9.5202103257E-003 
10896630.788 +2.6898694038E-001 -3.8070380688E-003  +7.3441195488E-001 +1.2573003769E-003  +7.3538070917E-001 +7.7089667320E-004  +2.5488904119E-001 -8.0997571349E-003 
11021775.970 +2.6784583926E-001 -2.5869905949E-003  +7.3486500978E-001 +1.3230741024E-003  +7.3514962196E-001 +7.5796246529E-004  +2.5369843841E-001 -1.0108448565E-002 
11146921.151 +2.6828122139E-001 -4.3196380138E-003  +7.3466593027E-001 -3.2395124435E-005  +7.3514640331E-001 +6.3946843147E-004  +2.5369283557E-001 -9.1475024819E-003 
11272066.333 +2.6656594872E-001 -4.9968808889E-003  +7.3451471329E-001 +6.6399574280E-005  +7.3419380188E-001 -3.6856532097E-004  +2.5361108780E-001 -9.3609541655E-003 
11397211.514 +2.6842385530E-001 -3.6409944296E-003  +7.3441278934E-001 +8.6486339569E-005  +7.3554080725E-001 +8.9380145073E-004  +2.5481745601E-001 -6.7014768720E-003 
11522356.696 +2.6890853047E-001 -4.6335905790E-003  +7.3539531231E-001 +1.7872452736E-004  +7.3492962122E-001 +4.3523311615E-004  +2.5548735261E-001 -6.0177743435E-003 
11647501.877 +2.6811236143E-001 -4.6456158161E-003  +7.3473608494E-001 +4.7203898430E-004  +7.3451793194E-001 +5.8749318123E-004  +2.5414425135E-001 -5.0906836987E-003 
11772647.059 +2.6752072573E-001 -3.3620744944E-003  +7.3501169682E-001 +6.1777234077E-004  +7.3485743999E-001 +2.6413798332E-004  +2.5468543172E-001 -6.1607137322E-003 
11897792.240 +2.6636350155E-001 -2.9952749610E-003  +7.3476743698E-001 +4.9859285355E-005  +7.3474937677E-001 +7.0095062256E-004  +2.5560992956E-001 -5.4943263531E-003 
12022937.422 +2.6904842257E-001 -2.9663071036E-003  +7.3490196466E-001 +1.3181567192E-004  +7.3497933149E-001 -3.6907196045E-004  +2.5690746307E-001 -6.7053511739E-003 
12148082.603 +2.6864069700E-001 -1.9684135914E-003  +7.3441672325E-001 -9.1940164566E-005  +7.3452270031E-001 -6.2319636345E-004  +2.5720450282E-001 -4.2526572943E-003 
12273227.785 +2.6926368475E-001 -1.7208084464E-003  +7.3452675343E-001 +1.5249848366E-004  +7.3454803228E-001 -6.7061185837E-004  +2.5710830092E-001 -4.7744661570E-003 
12398372.966 +2.6811909676E-001 -2.6232078671E-003  +7.3465669155E-001 +1.4990568161E-004  +7.3519515991E-001 +1.0541081429E-004  +2.5855746865E-001 -4.9248114228E-003 
12523518.148 +2.6750412583E-001 -1.9692704082E-003  +7.3431789875E-001 -3.4588575363E-004  +7.3457229137E-001 -5.4484605789E-004  +2.5710278749E-001 -4.9219727516E-003 
12648663.329 +2.6933917403E-001 -5.0449371338E-004  +7.3497551680E-001 -7.3051452637E-004  +7.3428702354E-001 +2.1699070930E-004  +2.5776377320E-001 -3.9864555001E-003 
12773808.511 +2.6817899942E-001 -2.2370815277E-003  +7.3451882601E-001 -7.1021914482E-004  +7.3383486271E-001 -5.5868923664E-004  +2.5870189071E-001 -4.1271671653E-003 
12898953.692 +2.6806420088E-001 -1.8553584814E-003  +7.3475825787E-001 -8.4179639816E-004  +7.3442804813E-001 -9.1750919819E-004  +2.5806319714E-001 -5.3155869246E-003 
13024098.874 +2.6821050048E-001 -1.1673569679E-003  +7.3387503624E-001 -8.3650648594E-004  +7.3450267315E-001 -7.6122581959E-004  +2.5857225060E-001 -3.3475607634E-003 
13149244.055 +2.6865848899E-001 -1.7043128610E-003  +7.3405766487E-001 -1.8763542175E-004  +7.3407059908E-001 +1.4248490334E-004  +2.5992175937E-001 -2.4211294949E-003 
13274389.237 +2.6884567738E-001 -3.6978758872E-003  +7.3418992758E-001 -1.0106712580E-003  +7.3407047987E-001 -7.4459612370E-004  +2.5959840417E-001 -3.0070990324E-003 
13399534.418 +2.6861354709E-001 -1.6073342413E-003  +7.3397696018E-001 -1.3951510191E-003  +7.3437958956E-001 -7.6393783092E-004  +2.5864964724E-001 -2.4177543819E-003 
13524679.599 +2.6772505045E-001 -2.3426963016E-003  +7.3414522409E-001 -7.4838474393E-004  +7.3456746340E-001 -7.0392340422E-004  +2.6023194194E-001 -1.7636734992E-003 
13649824.781 +2.6991936564E-001 -1.6574213514E-003  +7.3404127359E-001 -1.0568187572E-003  +7.3411273956E-001 -1.3098693453E-003  +2.6104137301E-001 -2.7948585339E-003 
13774969.962 +2.6911729574E-001 -1.3372274116E-003  +7.3327630758E-001 -1.7669629306E-003  +7.3385006189E-001 -1.2789387256E-003  +2.6059344411E-001 -2.1216310561E-003 
13900115.144 +2.6951938868E-001 -1.6755796969E-003  +7.3353761435E-001 -1.5057474375E-003  +7.3368656635E-001 -1.1926293373E-003  +2.6070520282E-001 -1.6656965017E-003 
14025260.325 +2.6864552498E-001 -1.4277547598E-003  +7.3336988688E-001 -1.0666921735E-003  +7.3368865252E-001 -5.2286684513E-004  +2.6155862212E-001 -1.5634670854E-003 
14150405.507 +2.6873299479E-001 -3.0868500471E-004  +7.3346805573E-001 -9.5632672310E-004  +7.3379719257E-001 -9.1315805912E-004  +2.6033952832E-001 -2.2989213467E-003 
14275550.688 +2.6971471310E-001 -1.6764178872E-003  +7.3277544975E-001 -1.1369138956E-003  +7.3323851824E-001 -9.7568333149E-004  +2.6082178950E-001 -1.6684979200E-003 
14400695.870 +2.6895391941E-001 -1.8072724342E-003  +7.3279953003E-001 -1.2073814869E-003  +7.3270481825E-001 -1.2301653624E-003  +2.6065441966E-001 -1.6481131315E-003 
