!  2-Port S-parameters saved by WinCal
! VAR MeasName=S-Parameters (CALIBRATED_DATA) read from VNA (P5004A)
! VAR MeasDate=22/05/2024 22:03:25
! VAR NAME=Wafer3_r2_c5_pristine_pos25dc
! VAR FILENAME=Wafer3_r2_c5_pristine_pos25dc.S2P
! VAR DATE=22/05/2024 22:03:25
! VAR PHYS_PORTS=1,2
! VAR ObjTypeName=DATASET
! VAR IndexType=Frequency
!
# Hz S RI R 50
9000.000 +2.1018077433E-001 -6.0289317369E-001  +6.0537569225E-003 +2.0804484375E-003  -4.3983111391E-004 +1.7123727594E-003  +4.1918147355E-002 +1.1126036942E-001 
134145.181 +6.5563762188E-001 +2.6457011700E-003  -1.0218543932E-002 +1.5214706771E-002  +2.6355546433E-003 +2.6513407938E-003  +1.5961793065E-001 +7.3618836701E-002 
259290.363 +8.4661376476E-001 -1.0127247870E-001  -2.1842425689E-002 -3.1089587137E-003  -2.8882054612E-003 -6.3259499148E-003  +1.8895566463E-003 -2.5382247567E-001 
384435.544 +8.9241325855E-001 -2.6609599590E-001  -1.5987029299E-002 +1.3290501200E-002  -1.7353694886E-002 +5.9398957528E-003  -2.5617890060E-002 +4.7147995234E-001 
509580.726 +9.5290094614E-001 -1.4509600401E-001  +1.2798491865E-002 -2.0500816405E-002  -1.7463434488E-003 +2.3586291820E-002  -9.0252554417E-001 -2.3935765028E-001 
634725.907 +1.0934642553E+000 -2.0775967836E-001  +2.5743068545E-004 -3.9405148709E-004  -2.7558575384E-003 +3.0569836963E-004  +8.2106536627E-001 -2.1141205728E-001 
759871.089 +1.3257398605E+000 -6.8844079971E-002  +2.8780815774E-004 +2.2166132112E-005  +1.7304656794E-003 +8.9484965429E-005  +1.4732911587E+000 +1.3714635372E-001 
885016.270 +2.2269644737E+000 -1.4559388161E+000  -8.1591750495E-004 -1.7936185468E-003  +1.7065259162E-003 +3.5283691250E-003  +1.2965853214E+000 +4.4686710835E-001 
1010161.452 +9.2639183998E-001 -6.1286997050E-002  +6.8954646122E-004 +1.8918002024E-003  -1.6875549045E-004 -6.9259339944E-004  +1.2153966427E+000 +4.9968194962E-001 
1135306.633 +8.1012177467E-001 +9.9077284336E-002  +8.5481838323E-004 +1.9962177612E-003  +9.7386137350E-004 +2.0320917247E-004  +1.3071312904E+000 +6.3174539804E-001 
1260451.815 +1.2896846533E+000 +4.2301237583E-002  +9.3766697682E-004 +2.8306676541E-005  -7.8797707101E-004 +2.1946887136E-004  +1.0810139179E+000 +7.3019647598E-001 
1385596.996 +1.2494378090E+000 -1.4965552092E-001  +8.4460050857E-005 -1.0576231580E-004  -7.5745178037E-005 -1.7160161224E-004  +9.6797823906E-001 +4.9511358142E-001 
1510742.178 +1.3947184086E+000 -3.5816264153E-001  -4.4913249440E-005 -1.5931764210E-004  -1.5305617126E-005 -7.2796398308E-004  +6.6299402714E-001 +5.7175689936E-001 
1635887.359 +8.3796131611E-001 -3.9896056056E-001  -2.0204421890E-004 -5.1757640904E-004  +2.2555782925E-004 -3.8382393541E-004  +1.5059612989E+000 +6.5000581741E-001 
1761032.541 +7.6514476538E-001 -4.3574160337E-001  +1.5393830836E-004 -1.1741246562E-003  +1.7197302077E-004 -1.2572202832E-004  +1.0855282545E+000 +8.1873708963E-001 
1886177.722 +7.9871875048E-001 -1.3793785870E-001  -4.0602561057E-005 +5.5806925957E-005  -2.2348418133E-004 +5.6289281929E-006  +1.1334761381E+000 +5.5242145061E-001 
2011322.904 +8.2818257809E-001 -1.0554124415E-001  -2.8425118217E-005 -4.4254014938E-005  -1.8862924480E-004 -1.4350072888E-004  +1.1480120420E+000 +5.1588147879E-001 
2136468.085 +8.4966260195E-001 -9.9816352129E-002  -3.1196902273E-004 -2.0082356059E-004  -1.2891230290E-004 -1.0618376837E-004  +1.0913085938E+000 +4.6489241719E-001 
2261613.267 +8.5317742825E-001 -9.4464600086E-002  +3.2980824471E-005 -5.4196148994E-005  +3.9074351662E-005 -1.0457330791E-004  +1.0530343056E+000 +4.9988588691E-001 
2386758.448 +8.6470484734E-001 -6.5860033035E-002  +3.4250321914E-004 -9.9740085716E-005  +4.7869274567E-005 +2.6809406700E-004  +1.0752898455E+000 +5.2568852901E-001 
2511903.630 +8.5755896568E-001 -3.6489725113E-002  +1.2662375229E-004 +4.2729916458E-005  +6.7508299253E-005 +2.9402997461E-004  +1.1232802868E+000 +5.5627334118E-001 
2637048.811 +8.6825680733E-001 -4.0346369147E-002  -1.7348262190E-004 -2.1443425794E-005  -3.2004158129E-005 -5.6288175983E-005  +1.1464504004E+000 +5.7771801949E-001 
2762193.992 +8.6607205868E-001 -4.6812489629E-002  +6.1515595007E-005 -2.1425048180E-004  -3.5124045098E-004 -3.0950363725E-004  +1.1734411716E+000 +4.6620917320E-001 
2887339.174 +8.3019191027E-001 -5.2967220545E-002  -2.8576035402E-004 -2.5900626497E-006  -3.9774106699E-004 +2.5027699303E-004  +1.0285717249E+000 +4.2191058397E-001 
3012484.355 +8.2489180565E-001 -2.1297186613E-002  -5.3233758081E-004 +7.8040015069E-005  -4.0419778088E-004 +2.3268125369E-004  +9.5070368052E-001 +5.2902227640E-001 
3137629.537 +8.2442241907E-001 +2.9475353658E-002  +2.6781312772E-004 -1.7095434305E-004  +4.2484456208E-004 +2.5367815397E-005  +9.6713596582E-001 +6.4427620173E-001 
3262774.718 +8.3610469103E-001 +5.3474836051E-002  +1.2074696133E-004 +2.3907562718E-004  +2.0376282919E-005 -4.6864562319E-004  +1.0060294867E+000 +7.0853704214E-001 
3387919.900 +8.1677800417E-001 +7.9672589898E-002  -1.8927062047E-004 -2.3903830152E-004  +2.1151760302E-004 -3.8100918755E-004  +1.0508803129E+000 +7.7522909641E-001 
3513065.081 +8.3451151848E-001 +9.9293008447E-002  -6.2452105340E-005 +1.0381193715E-004  +6.5290444763E-004 -1.5895751130E-004  +1.0884463787E+000 +8.4529763460E-001 
3638210.263 +8.4951436520E-001 +1.1142797768E-001  -1.0741251754E-004 +3.1530397246E-004  -5.8971479302E-004 -1.0696487152E-005  +1.1744970083E+000 +8.7827426195E-001 
3763355.444 +8.6295086145E-001 +1.4415180683E-001  -4.1519320803E-005 -3.9560272853E-005  +2.8463182389E-004 -1.4877533249E-004  +1.2592694759E+000 +9.0267592669E-001 
3888500.626 +8.7346351147E-001 +1.5677294135E-001  +3.6376857315E-004 +1.5969303786E-004  -2.1219928749E-004 -5.7793320593E-005  +1.3459939957E+000 +9.6375668049E-001 
4013645.807 +8.4164893627E-001 +1.0151103139E-001  -3.9233738789E-005 +1.5209215053E-004  -2.8662211844E-004 -1.4599775022E-004  +1.5681780577E+000 +7.6158398390E-001 
4138790.989 +7.9595893621E-001 +5.3575590253E-002  +3.0250226700E-005 -1.0064275557E-004  +1.7458036018E-004 +2.5432865368E-004  +1.6613024473E+000 +4.6966642141E-001 
4263936.170 +7.9482918978E-001 +7.1900941432E-002  -2.1875528910E-004 -3.8009032141E-004  -1.3034229050E-004 +5.7422737882E-005  +1.7010653019E+000 +3.9041125774E-001 
4389081.352 +8.1933796406E-001 +7.6038450003E-002  -5.9743906604E-006 +4.4333326514E-004  -6.9646129850E-004 -5.3250892961E-005  +1.7392086983E+000 +2.7531445026E-001 
4514226.533 +8.2313913107E-001 +7.0695124567E-002  +1.1045297142E-003 -3.2191048376E-005  -2.8430888779E-004 +6.8316090619E-005  +1.7714018822E+000 +2.0137675107E-001 
4639371.715 +8.3163839579E-001 +7.0327252150E-002  -4.1887449333E-004 +1.9340532890E-004  -3.5467819544E-004 -3.4783710726E-004  +1.7733649015E+000 +1.3167285919E-001 
4764516.896 +8.3615893126E-001 +6.9318100810E-002  +4.9962836783E-006 -3.9116869448E-004  +5.1209359663E-004 -1.6140034131E-004  +1.7712095976E+000 +6.0895591974E-002 
4889662.078 +8.4406632185E-001 +8.1854976714E-002  -6.7052879604E-004 -2.6681495365E-004  -6.0719037720E-005 +4.8963051086E-005  +1.7832974195E+000 -6.1179399490E-003 
5014807.259 +8.4453278780E-001 +7.6245173812E-002  +1.7569116608E-004 +1.1006703062E-005  +3.2905093394E-004 -4.5390415471E-004  +1.7386234999E+000 -6.8735122681E-002 
5139952.441 +8.6059862375E-001 +8.1505775452E-002  +5.1306778914E-005 +4.1287465137E-004  +3.4702770790E-005 +2.6786711533E-004  +1.7257446051E+000 -1.5345123410E-001 
5265097.622 +8.6454677582E-001 +8.3778247237E-002  -1.5906189219E-004 +1.7304581706E-004  -4.2412299081E-005 +1.5549226373E-004  +1.6820774078E+000 -1.9806742668E-001 
5390242.804 +8.7373512983E-001 +8.7228260934E-002  -2.3363399669E-004 +4.5419982052E-004  -3.9823920815E-005 -1.7771439161E-004  +1.6468881369E+000 -2.3765680194E-001 
5515387.985 +8.8494169712E-001 +9.1348856688E-002  -2.6197670377E-004 -9.0198656835E-005  +4.5950830099E-004 -1.7867991119E-004  +1.6141936779E+000 -3.0214264989E-001 
5640533.166 +8.8490742445E-001 +9.2411763966E-002  +7.2969141183E-004 +2.6518444065E-004  +2.0233573741E-004 -1.5520826855E-004  +1.5938333273E+000 -3.3363947272E-001 
5765678.348 +8.8163244724E-001 +8.0753654242E-002  +3.1787418993E-004 +3.2411463326E-004  -8.0823367171E-005 +5.2557272284E-005  +1.5513559580E+000 -3.6563989520E-001 
5890823.529 +8.9099723101E-001 +8.0899894238E-002  +4.7318043653E-004 -1.7540869885E-004  -2.1709036082E-004 -6.7779736128E-005  +1.4955058098E+000 -4.0630134940E-001 
6015968.711 +8.9631664753E-001 +7.8360706568E-002  -3.3517085831E-004 -1.6817300639E-004  -3.0133326072E-004 -4.1459419299E-004  +1.4612686634E+000 -4.2510354519E-001 
6141113.892 +9.0026551485E-001 +7.7349521220E-002  -8.6177169578E-005 +1.6366993077E-004  -5.1245500799E-005 +3.5485558328E-004  +1.4150981903E+000 -4.3542337418E-001 
6266259.074 +8.9829444885E-001 +7.4221760035E-002  +3.4954419243E-004 +1.4669579105E-004  -2.3327191593E-004 +8.7158434326E-005  +1.3647018671E+000 -4.5061123371E-001 
6391404.255 +9.0803760290E-001 +7.0394426584E-002  -2.9662379529E-004 +1.0563894466E-004  +1.4169044152E-004 -2.5070617994E-005  +1.3138585091E+000 -4.7061550617E-001 
6516549.437 +9.0678942204E-001 +7.1823179722E-002  -2.1580472821E-004 +2.7368925657E-005  -1.3671829947E-004 +1.9225150754E-004  +1.2840847969E+000 -4.7323477268E-001 
6641694.618 +9.1520684958E-001 +7.9930156469E-002  +8.6550207925E-005 +1.8392893253E-004  -1.7520520487E-005 -8.1316997239E-005  +1.2479766607E+000 -4.8086905479E-001 
6766839.800 +9.1956639290E-001 +7.3914393783E-002  +6.7272172600E-005 +5.4880147218E-005  -9.5116498414E-005 -1.0575349734E-004  +1.2111490965E+000 -4.8506277800E-001 
6891984.981 +9.2125052214E-001 +6.9670796394E-002  +1.3205678260E-004 -4.0635459300E-006  +2.7082642191E-005 +1.3977350318E-004  +1.1626359224E+000 -4.8324787617E-001 
7017130.163 +9.1835421324E-001 +7.5748406351E-002  +1.3935947209E-005 +2.6202914887E-004  -5.4932188505E-005 +3.9653191379E-006  +1.1387706995E+000 -4.7277551889E-001 
7142275.344 +9.2439055443E-001 +7.7042460442E-002  -9.7850715974E-005 -3.1490708352E-004  +1.7271617253E-005 -6.1862374423E-005  +1.1098210812E+000 -4.6320769191E-001 
7267420.526 +9.2349392176E-001 +7.8743256629E-002  +4.8396068451E-005 -9.3985610874E-005  +1.4382341760E-004 +2.5345700124E-005  +1.0801827908E+000 -4.6174317598E-001 
7392565.707 +9.2603379488E-001 +7.8867360950E-002  -7.6785334386E-005 +4.2988045607E-005  +6.6610511567E-005 +2.8035728974E-005  +1.0548648834E+000 -4.5672321320E-001 
7517710.889 +9.2864400148E-001 +7.7266827226E-002  -4.9260379456E-006 -2.4246975954E-004  -1.0230953922E-004 +7.5248215580E-005  +1.0273083448E+000 -4.4744706154E-001 
7642856.070 +9.3138992786E-001 +7.3113054037E-002  -2.3352034987E-005 +7.9613884736E-005  +4.2310421122E-005 +1.6164706904E-004  +9.9163156748E-001 -4.4046735764E-001 
7768001.252 +9.3371814489E-001 +7.7675662935E-002  +2.1720302175E-004 -7.0046451583E-005  +2.6046164567E-004 -3.7612913729E-005  +9.6892440319E-001 -4.2880755663E-001 
7893146.433 +9.4068521261E-001 +7.6516002417E-002  -2.2144575269E-005 +3.3652762795E-005  +7.0767346187E-005 +1.3739188034E-005  +9.4672387838E-001 -4.1250526905E-001 
8018291.615 +9.3687927723E-001 +7.7812179923E-002  +1.4789738998E-005 +8.2207559899E-005  +1.7719247262E-004 -2.0376621978E-004  +9.2115026712E-001 -4.0039891005E-001 
8143436.796 +9.3933594227E-001 +7.3457092047E-002  +5.7370212744E-005 -8.1214195234E-005  -1.5478013665E-004 -1.3928065891E-004  +9.0186381340E-001 -3.8908964396E-001 
8268581.977 +9.4036865234E-001 +7.3678240180E-002  +1.0534132889E-004 -1.6219564714E-006  -6.4771622419E-005 -2.3402013539E-005  +8.8623088598E-001 -3.6917555332E-001 
8393727.159 +9.4188582897E-001 +6.5223097801E-002  -1.6561667508E-005 +1.0787846986E-004  -1.0643194400E-004 +4.6029934310E-005  +8.7062323093E-001 -3.5914349556E-001 
8518872.340 +9.4984281063E-001 +6.9429069757E-002  +1.0516609473E-004 -6.7646229581E-005  +5.4282128986E-005 -8.7511187303E-005  +8.5306900740E-001 -3.4610944986E-001 
8644017.522 +9.4705623388E-001 +7.0439457893E-002  -1.3621291146E-004 +2.5363060558E-005  -1.6850090105E-005 -7.8323064372E-005  +8.4109103680E-001 -3.3063262701E-001 
8769162.703 +9.5289564133E-001 +6.9400325418E-002  -1.2301446986E-004 -6.0142410803E-005  -1.2519999291E-004 -8.2945734903E-005  +8.2738775015E-001 -3.1606644392E-001 
8894307.885 +9.5261937380E-001 +6.7682325840E-002  +8.0897843873E-005 -1.9696883101E-005  -6.9432848250E-005 +1.9535526008E-005  +8.1284016371E-001 -3.0144864321E-001 
9019453.066 +9.5425820351E-001 +6.2683582306E-002  +6.3328654505E-005 -1.3771686645E-004  -1.3062673679E-004 +4.1614028305E-005  +7.9913735390E-001 -2.8894650936E-001 
9144598.248 +9.5614492893E-001 +6.1354815960E-002  +9.4026123406E-005 +2.0110015612E-005  +7.2337046731E-005 -7.5941552495E-006  +7.8741693497E-001 -2.7148392797E-001 
9269743.429 +9.5692896843E-001 +6.3073843718E-002  +1.5303257896E-005 +2.7748965294E-005  -2.6619194614E-005 -8.4469989815E-005  +7.7873766422E-001 -2.5602293015E-001 
9394888.611 +9.5979374647E-001 +6.4502358437E-002  +4.0396742406E-005 -1.3805832714E-004  -2.5446566724E-005 +1.9013035853E-005  +7.7013325691E-001 -2.4042391777E-001 
9520033.792 +9.6004569530E-001 +5.9368699789E-002  -4.9681235396E-005 +7.1109519922E-005  +1.6649100871E-005 +1.0758554708E-004  +7.6319515705E-001 -2.2120946646E-001 
9645178.974 +9.6290254593E-001 +5.9441566467E-002  -1.2592258827E-005 +4.2979114369E-005  +3.2135794754E-005 +3.1853647670E-005  +7.5282609463E-001 -2.0582327247E-001 
9770324.155 +9.6306884289E-001 +5.8453291655E-002  -5.0761707826E-005 +4.4457348849E-005  -8.1655380200E-005 +7.9401841504E-005  +7.4566686153E-001 -1.9036021829E-001 
9895469.337 +9.6446692944E-001 +5.9060931206E-002  -2.6165604140E-005 -1.3639976714E-005  -1.9102267106E-004 +2.9116577934E-005  +7.3814278841E-001 -1.7633053660E-001 
10020614.518 +9.6577608585E-001 +5.7946205139E-002  +7.8550576291E-005 +4.4795804570E-005  +4.2448886234E-005 +6.2443315983E-005  +7.3455733061E-001 -1.5803095698E-001 
10145759.700 +9.6896111965E-001 +5.7119578123E-002  -7.2502902185E-005 -5.6548742577E-006  -5.1052669733E-005 -2.9674474717E-005  +7.3203492165E-001 -1.4352387190E-001 
10270904.881 +9.7258019447E-001 +5.3485602140E-002  +1.8135688151E-005 -3.2640400605E-005  +5.6305900216E-005 +1.8320963136E-005  +7.2821497917E-001 -1.3037502766E-001 
10396050.063 +9.7022634745E-001 +5.2794069052E-002  -1.3954089809E-005 +3.8952031900E-005  +4.6738779929E-005 +1.2689250070E-005  +7.2559654713E-001 -1.1283236742E-001 
10521195.244 +9.7112429142E-001 +5.1203608513E-002  -1.9493340005E-005 +1.2854579836E-005  -2.3947497539E-005 +5.1292834542E-005  +7.2464865446E-001 -9.7507894039E-002 
10646340.426 +9.7007399797E-001 +4.9629926682E-002  -2.7816249712E-005 +9.5271607279E-005  +4.1070350562E-005 +5.4837819334E-005  +7.2143769264E-001 -8.1010043621E-002 
10771485.607 +9.7156178951E-001 +4.8446029425E-002  +5.2175550081E-005 -2.2552059818E-005  +2.6735986467E-005 +5.3827603551E-005  +7.2203350067E-001 -6.7084223032E-002 
10896630.788 +9.7323715687E-001 +4.6235710382E-002  +3.7718578824E-005 +1.2901202354E-005  -5.3148385632E-005 +6.6120453994E-005  +7.2248363495E-001 -5.1840841770E-002 
11021775.970 +9.7116208076E-001 +4.5180559158E-002  +2.1619704057E-005 +3.2558173189E-006  -2.5413106414E-005 -3.2160918636E-005  +7.2302901745E-001 -3.8521021605E-002 
11146921.151 +9.7387635708E-001 +4.0711164474E-002  +5.0324662880E-005 +4.5954580855E-005  +1.9612418328E-005 -1.5954008632E-005  +7.2454547882E-001 -2.3535847664E-002 
11272066.333 +9.7244048119E-001 +4.1139364243E-002  +3.3594329580E-005 +7.9147386714E-005  +5.8781333792E-005 +5.2570285334E-006  +7.2513341904E-001 -1.0331660509E-002 
11397211.514 +9.7408556938E-001 +4.1434437037E-002  -5.5133888964E-005 +1.3790813682E-005  +5.4949123296E-007 +1.1466642172E-004  +7.2708594799E-001 +2.9805600643E-003 
11522356.696 +9.7407305241E-001 +3.8725465536E-002  -3.5195349483E-005 +1.2120029169E-005  +8.0093232100E-005 +4.2125873733E-005  +7.3257839680E-001 +1.7986834049E-002 
11647501.877 +9.7393906116E-001 +3.9233922958E-002  -1.9270275516E-005 +4.2184954509E-005  -2.2921183700E-005 +4.3361607823E-005  +7.3493659496E-001 +3.1686633825E-002 
11772647.059 +9.7522270679E-001 +3.6862850189E-002  +3.1547224353E-005 +6.2144761614E-005  +7.3850492299E-006 -1.2733115000E-005  +7.3939299583E-001 +4.3262541294E-002 
11897792.240 +9.7552829981E-001 +3.6767214537E-002  -5.6863259488E-006 +3.1035772281E-006  +8.2571990788E-005 +8.8190565293E-005  +7.4476742744E-001 +5.6562364101E-002 
12022937.422 +9.7572046518E-001 +3.5663634539E-002  -1.7836518964E-005 -3.5316887079E-005  +4.0538325266E-005 +4.6079330787E-006  +7.5052249432E-001 +6.9776147604E-002 
12148082.603 +9.7598737478E-001 +3.3564835787E-002  +2.2699676265E-005 +3.2722444303E-005  +4.8161804443E-005 +4.2419625970E-005  +7.5716930628E-001 +8.2465648651E-002 
12273227.785 +9.7639650106E-001 +3.3537954092E-002  -3.3794403862E-006 +2.8692880733E-005  -2.7510614018E-005 +6.8995781476E-005  +7.6439189911E-001 +9.2859119177E-002 
12398372.966 +9.7572988272E-001 +3.1195789576E-002  +2.0038767616E-005 +5.7409965848E-006  -1.2942342437E-005 +5.1293449360E-005  +7.7249205112E-001 +1.0416573286E-001 
12523518.148 +9.7442334890E-001 +2.9893577099E-002  +6.2212537159E-005 +1.4341312635E-005  -2.5305525924E-005 +1.3260862033E-005  +7.7808791399E-001 +1.1364246905E-001 
12648663.329 +9.7502815723E-001 +3.0620411038E-002  -7.3980554589E-006 +7.4365707405E-005  +3.0890955713E-006 +1.3885686712E-005  +7.8740781546E-001 +1.2470762432E-001 
12773808.511 +9.7510159016E-001 +2.8076842427E-002  +1.4826729966E-005 +3.3107109630E-005  +2.7030986530E-005 +2.2561933292E-005  +7.9540568590E-001 +1.3349334896E-001 
12898953.692 +9.7633707523E-001 +2.7004748583E-002  +1.4213077520E-005 +6.9239308687E-007  -8.8149417934E-006 +4.7431622079E-005  +8.0510377884E-001 +1.4303134382E-001 
13024098.874 +9.7517412901E-001 +2.7619302273E-002  +7.9632281995E-006 -3.8941652747E-005  +6.7619206675E-005 +3.7607511331E-005  +8.1610012054E-001 +1.5322655439E-001 
13149244.055 +9.7517353296E-001 +2.5726743042E-002  +1.0506470971E-005 +1.0935877981E-005  +6.6018721554E-005 +2.0833806047E-005  +8.2547527552E-001 +1.6084225476E-001 
13274389.237 +9.7422903776E-001 +2.4640638381E-002  -6.4072177338E-005 -3.2864193145E-006  +6.8814741098E-005 -9.5108016467E-006  +8.3784419298E-001 +1.6908548772E-001 
13399534.418 +9.7480487823E-001 +2.3628570139E-002  +1.8514985641E-005 +3.6607678339E-005  +2.5264984288E-005 +1.0363794900E-005  +8.4734129906E-001 +1.7629867792E-001 
13524679.599 +9.7372502089E-001 +2.4214230478E-002  -1.9966568289E-005 +7.9029014159E-006  -4.0221406380E-005 +5.5729164160E-005  +8.5913008451E-001 +1.8296478689E-001 
13649824.781 +9.7476190329E-001 +2.2868081927E-002  +1.0018366993E-005 +3.8618993131E-005  +6.2813611294E-005 +8.3608960267E-005  +8.7133497000E-001 +1.8810921907E-001 
13774969.962 +9.7422325611E-001 +2.1690055728E-002  +1.8403967260E-005 +3.5380642657E-005  -1.8504659238E-005 +4.0169921704E-005  +8.8226205111E-001 +1.9240923226E-001 
13900115.144 +9.7377109528E-001 +2.1016553044E-002  +3.9842383558E-005 +9.1978490673E-006  +1.0267724065E-005 +7.5315700087E-005  +8.9426130056E-001 +1.9710096717E-001 
14025260.325 +9.7284108400E-001 +2.1261930466E-002  +1.4332438695E-005 +3.0526884075E-005  +3.3623084164E-005 +1.6572641471E-005  +9.0630954504E-001 +2.0114639401E-001 
14150405.507 +9.7241830826E-001 +2.0978778601E-002  +4.4531163439E-005 +2.5245393772E-005  -6.1700484366E-007 +2.9637594707E-005  +9.1906249523E-001 +2.0459079742E-001 
14275550.688 +9.7302168608E-001 +2.0439416170E-002  +7.8209101048E-005 +2.4452700018E-005  +3.4855711419E-005 +3.2158539398E-005  +9.3150484562E-001 +2.0500485599E-001 
14400695.870 +9.7076797485E-001 +1.9052237272E-002  +3.5704379115E-006 +7.0827685704E-005  +2.5493678550E-005 +4.5489876356E-005  +9.4310569763E-001 +2.0812872052E-001 
