!  2-Port S-parameters saved by WinCal
! VAR MeasName=S-Parameters (CALIBRATED_DATA) read from VNA (P5004A)
! VAR MeasDate=22/05/2024 22:01:51
! VAR NAME=Wafer3_r2_c5_pristine_pos20dc
! VAR FILENAME=Wafer3_r2_c5_pristine_pos20dc.S2P
! VAR DATE=22/05/2024 22:01:51
! VAR PHYS_PORTS=1,2
! VAR ObjTypeName=DATASET
! VAR IndexType=Frequency
!
# Hz S RI R 50
9000.000 +2.0897425711E-001 -5.9672677517E-001  -6.2708915211E-003 -2.9252946842E-003  +1.2972501281E-004 -5.5016484112E-004  +5.0052773207E-002 +1.1440344155E-001 
134145.181 +7.6211774349E-001 +1.7016321421E-002  -6.3785728998E-003 -1.4726102352E-002  -3.0375620350E-002 -6.6554760560E-003  +1.0929574817E-001 -1.4281888306E-001 
259290.363 +9.3566960096E-001 -1.1816304177E-001  +4.5275408775E-003 +6.1849243939E-003  -7.1530928835E-005 -1.2236524373E-002  +3.5815602541E-001 -6.9628965855E-001 
384435.544 +9.2228901386E-001 -2.7731564641E-001  -2.7914214879E-003 +2.0242263563E-003  -1.3391510583E-004 +5.1230313256E-003  -1.0247975588E-003 -4.9427986145E-001 
509580.726 +9.6468514204E-001 -1.4088866115E-001  +9.3157449737E-004 +1.0060868226E-002  +5.6728734635E-003 +1.3265357120E-003  -5.1770114899E-001 -5.1520246267E-001 
634725.907 +1.0953384638E+000 -2.0573151112E-001  +1.3267328031E-003 -8.2028040197E-005  +3.8143542042E-005 +5.8514982811E-005  +8.1211525202E-001 -2.6794484258E-001 
759871.089 +1.3175724745E+000 -7.3216855526E-002  -1.3000195613E-003 -1.0454576113E-004  -8.7889545830E-004 -7.2859576903E-004  +1.4855315685E+000 +1.4830729365E-001 
885016.270 +2.0799551010E+000 -1.5895085335E+000  +3.4913376439E-003 -3.4912754782E-003  -1.8497732235E-003 -2.0216861740E-003  +1.2967100143E+000 +4.4214963913E-001 
1010161.452 +9.1019970179E-001 -3.9902217686E-002  -3.8882976514E-004 +9.5564220101E-004  +1.3170033926E-003 -7.9561758321E-004  +1.2130404711E+000 +4.9553996325E-001 
1135306.633 +8.2885342836E-001 +2.3667354137E-002  -3.6279967753E-004 -4.0687006549E-004  -6.4891064540E-006 +1.3215776999E-003  +1.3130093813E+000 +6.3917374611E-001 
1260451.815 +1.2812175751E+000 +3.9907127619E-002  +1.0244450823E-004 -1.8844792066E-005  +7.6003547292E-005 +1.0507089319E-003  +1.0800888538E+000 +7.2816985846E-001 
1385596.996 +1.2440624237E+000 -1.4822071791E-001  +5.9016712476E-004 -2.2174367041E-004  +8.0202196841E-005 -2.6575420634E-004  +9.6886569262E-001 +4.9419093132E-001 
1510742.178 +1.3694764376E+000 -3.3136251569E-001  +3.7828547647E-005 -1.7335767916E-004  +5.2164681256E-004 +1.0345477494E-004  +6.6365575790E-001 +5.7246810198E-001 
1635887.359 +8.5746914148E-001 -3.7861514091E-001  +3.4810564830E-004 +9.4821225503E-005  +3.9750675205E-004 -5.4186180932E-005  +1.5042877197E+000 +6.5088009834E-001 
1761032.541 +8.0740004778E-001 -4.2408508062E-001  +3.6816048669E-004 -3.6331819138E-004  +1.7618117272E-004 -1.3095006580E-004  +1.0859770775E+000 +8.1897228956E-001 
1886177.722 +8.2376432419E-001 -1.7219568789E-001  +5.3925113752E-004 +2.3422337836E-004  +6.0490347096E-005 +1.3634907373E-004  +1.1327908039E+000 +5.5099737644E-001 
2011322.904 +8.3246177435E-001 -1.3038074970E-001  +2.3023004178E-004 +1.6730760399E-004  -5.3532996390E-005 -9.2928967206E-005  +1.1487555504E+000 +5.1593327522E-001 
2136468.085 +8.6910223961E-001 -1.1300653219E-001  -1.3724394375E-004 -1.3814664271E-005  +1.6853280249E-004 -3.6544806790E-004  +1.0913852453E+000 +4.6429124475E-001 
2261613.267 +8.6879765987E-001 -9.2930972576E-002  +1.6033669817E-004 -1.8601056945E-004  -4.0691236791E-005 -2.0785798552E-004  +1.0532078743E+000 +4.9847728014E-001 
2386758.448 +8.6529642344E-001 -7.8877091408E-002  -7.8583572758E-005 +3.2978868694E-004  -8.6477237346E-005 +1.9515960594E-004  +1.0756447315E+000 +5.2551686764E-001 
2511903.630 +8.5947763920E-001 -4.5198887587E-002  +2.4117875728E-004 -4.5219121967E-004  -1.1168811034E-004 -1.8684493261E-004  +1.1239511967E+000 +5.5696535110E-001 
2637048.811 +8.7561964989E-001 -4.6619188040E-002  -4.0827482735E-005 +1.7228194338E-004  +2.4993038096E-005 +1.7894766643E-004  +1.1447724104E+000 +5.8114260435E-001 
2762193.992 +8.7268090248E-001 -4.9301952124E-002  +2.7009326732E-004 -1.6400367895E-004  +1.1037141667E-004 -4.7879395424E-005  +1.1754571199E+000 +4.6742135286E-001 
2887339.174 +8.3653098345E-001 -4.8473954201E-002  -8.8701250206E-005 +3.5301150638E-004  +4.7950085718E-004 -7.5277712313E-005  +1.0257189274E+000 +4.2728024721E-001 
3012484.355 +8.2576137781E-001 -1.3315849006E-002  -3.3261373756E-004 +2.4580903118E-004  +2.4636369199E-004 -1.1811458535E-004  +9.5490497351E-001 +5.3322803974E-001 
3137629.537 +8.2627987862E-001 +2.6029184461E-002  -8.7591412012E-005 +1.8718409410E-004  -6.9125869777E-004 +1.1566990725E-004  +9.7206443548E-001 +6.4457380772E-001 
3262774.718 +8.2544738054E-001 +5.2158758044E-002  +2.5834966800E-004 +1.9859118038E-004  +2.0614615642E-004 -2.4647782993E-005  +1.0170317888E+000 +7.1230697632E-001 
3387919.900 +8.3024865389E-001 +8.1416681409E-002  +2.0939654496E-004 -5.7546749304E-006  +3.6499026464E-004 -9.6976931673E-005  +1.0518754721E+000 +7.7496242523E-001 
3513065.081 +8.3481228352E-001 +1.0149519145E-001  -1.2639924535E-004 +1.5049325884E-004  +2.3595857783E-004 -2.7132450487E-004  +1.0905976295E+000 +8.4565377235E-001 
3638210.263 +8.4745651484E-001 +1.3404281437E-001  -3.8136434159E-004 +2.0141567802E-004  +8.8880246039E-005 +2.7394917561E-004  +1.1712367535E+000 +8.8200306892E-001 
3763355.444 +8.6999118328E-001 +1.3161137700E-001  -2.0718394080E-004 +2.8195380582E-004  -9.1855043138E-005 -6.3743173087E-005  +1.2659913301E+000 +9.1113907099E-001 
3888500.626 +8.8893020153E-001 +1.5674376488E-001  -1.6826408682E-004 -7.1614340413E-006  -8.1756501459E-005 +7.4067531386E-004  +1.3512386084E+000 +9.6500968933E-001 
4013645.807 +8.5280871391E-001 +1.0192002356E-001  +4.0821224684E-004 -6.6373310983E-004  +2.8364636819E-004 +1.2115773279E-004  +1.5720771551E+000 +7.6037251949E-001 
4138790.989 +8.0240583420E-001 +5.8140039444E-002  -5.4487650050E-004 -6.8136292975E-004  +5.4369732970E-004 +6.4381374978E-004  +1.6639931202E+000 +4.7562730312E-001 
4263936.170 +8.0053102970E-001 +7.4971646070E-002  -4.2244003271E-004 -6.1227346305E-004  -5.2491261158E-005 -6.0493062483E-004  +1.7148462534E+000 +3.8232326508E-001 
4389081.352 +8.2002681494E-001 +7.0474617183E-002  +3.0838596285E-004 -4.4190706103E-004  -3.5706805647E-004 +3.2136921072E-004  +1.7434597015E+000 +2.7780902386E-001 
4514226.533 +8.3389383554E-001 +7.5832366943E-002  +1.0682885477E-004 -2.0673655672E-004  -4.5949860942E-004 -4.3132313294E-004  +1.7780985832E+000 +1.9007445872E-001 
4639371.715 +8.4758371115E-001 +7.3250174522E-002  -4.6325389121E-005 +2.4413365463E-004  -7.0635578595E-004 +4.4542487012E-004  +1.7844351530E+000 +1.2981148064E-001 
4764516.896 +8.4429585934E-001 +7.6263226569E-002  +4.7338908189E-004 -1.4891425963E-005  +6.8953289883E-004 -3.0806005816E-004  +1.7845004797E+000 +5.7803422213E-002 
4889662.078 +8.5574364662E-001 +8.2507275045E-002  +5.2675357438E-005 +3.0032770155E-006  +1.4780042693E-004 +1.9266309391E-004  +1.7852712870E+000 -7.3892772198E-003 
5014807.259 +8.4990984201E-001 +7.8294925392E-002  -3.0734529719E-004 -5.2835495444E-004  +3.3842821722E-004 -3.2447051490E-004  +1.7521793842E+000 -6.9304406643E-002 
5139952.441 +8.6540448666E-001 +7.5780212879E-002  +2.0510035392E-004 -1.0887879762E-004  +8.2358586951E-005 -1.9147132116E-004  +1.7341001034E+000 -1.5147987008E-001 
5265097.622 +8.7151038647E-001 +8.9734047651E-002  -2.0757435414E-004 -1.6774864343E-004  +1.3155897614E-004 +3.2665816252E-004  +1.6913605928E+000 -1.9453048706E-001 
5390242.804 +8.8474905491E-001 +8.8309288025E-002  +4.4550577877E-004 -4.1467958363E-004  +2.3779938056E-004 +1.0099713836E-004  +1.6566293240E+000 -2.3984584212E-001 
5515387.985 +8.9288944006E-001 +9.1229155660E-002  +7.6120137237E-005 +1.2011762738E-004  -2.0769193361E-004 -2.2293093207E-004  +1.6278578043E+000 -3.0741029978E-001 
5640533.166 +8.9007031918E-001 +8.4961265326E-002  -4.8456652439E-004 -5.9065794630E-005  -7.1686226875E-005 -3.1670185854E-004  +1.5972167253E+000 -3.3915179968E-001 
5765678.348 +8.9143437147E-001 +8.8937148452E-002  -1.4335771266E-004 +9.0844674560E-005  -5.0272542285E-004 -3.3865467412E-004  +1.5520374775E+000 -3.7317982316E-001 
5890823.529 +8.9973211288E-001 +8.3301849663E-002  +1.8961723254E-004 +1.2960200547E-004  -3.5139222746E-004 -8.3303166321E-005  +1.5000039339E+000 -4.1283118725E-001 
6015968.711 +9.0007400513E-001 +8.1902280450E-002  -1.4120596461E-004 -1.5662951046E-004  +2.0364750526E-006 -2.4697300978E-004  +1.4613987207E+000 -4.2990067601E-001 
6141113.892 +9.0277361870E-001 +8.0524668097E-002  -1.7122017744E-004 -1.0822877084E-004  -1.7024462068E-005 +1.4642604219E-004  +1.4126074314E+000 -4.4158554077E-001 
6266259.074 +9.0760719776E-001 +8.1949159503E-002  -9.2598027550E-005 -2.8452565311E-004  -2.2132071899E-004 -1.4118606487E-005  +1.3664592505E+000 -4.6380180120E-001 
6391404.255 +9.1669619083E-001 +7.8356102109E-002  +1.8725804694E-004 -2.5013435516E-004  -2.1179177566E-005 +6.2326558691E-005  +1.3154577017E+000 -4.7928839922E-001 
6516549.437 +9.1585487127E-001 +8.0591097474E-002  -1.9889227406E-004 +2.0388944540E-004  -4.4211861677E-004 +1.3889846741E-004  +1.2845103741E+000 -4.8358273506E-001 
6641694.618 +9.2390733957E-001 +7.6963812113E-002  -8.0030011304E-005 +1.6149315343E-004  -1.1155463289E-004 +1.3568269787E-004  +1.2516809702E+000 -4.8635864258E-001 
6766839.800 +9.2911350727E-001 +7.9073220491E-002  -2.8046679290E-005 -7.3383940617E-005  +5.1106031606E-005 +4.0976086893E-005  +1.2099379301E+000 -4.8903620243E-001 
6891984.981 +9.2759901285E-001 +7.2147123516E-002  -3.7314032670E-004 +1.6844594211E-004  -2.8414226836E-004 +2.9352706042E-004  +1.1617630720E+000 -4.8539468646E-001 
7017130.163 +9.2676055431E-001 +7.2659172118E-002  -7.1061709605E-005 -5.6520897488E-005  -2.7961887099E-005 -3.2319262391E-004  +1.1386545897E+000 -4.8102176189E-001 
7142275.344 +9.2986690998E-001 +7.4020378292E-002  +2.3270757083E-005 +1.8216307217E-004  -1.5228634584E-004 +2.5899073808E-004  +1.1102676392E+000 -4.7216659784E-001 
7267420.526 +9.3556219339E-001 +7.8829586506E-002  +1.2176406744E-004 -1.1051223555E-004  +2.4336206843E-004 -3.4627555578E-005  +1.0784969330E+000 -4.6156013012E-001 
7392565.707 +9.3750190735E-001 +7.2900585830E-002  -1.1923146303E-005 -1.3998123177E-004  -2.4768596631E-004 -5.3955242038E-005  +1.0519899130E+000 -4.6329879761E-001 
7517710.889 +9.3838745356E-001 +7.2338618338E-002  +6.9916510256E-005 -1.2938797590E-004  +1.8093578547E-005 -2.3581069399E-005  +1.0240848064E+000 -4.5468187332E-001 
7642856.070 +9.3720948696E-001 +7.1896791458E-002  +1.9747090846E-005 -4.3207161070E-005  -1.5588928363E-005 +2.6278151199E-004  +9.8933541775E-001 -4.4849544764E-001 
7768001.252 +9.4288241863E-001 +7.4806585908E-002  +2.2174857440E-004 -5.1945069572E-005  +5.1959563280E-005 +1.7448897779E-005  +9.6700227261E-001 -4.3751889467E-001 
7893146.433 +9.4991892576E-001 +7.4689492583E-002  +7.4640855019E-005 -1.4006099082E-004  +1.5578888997E-004 +3.8811220293E-005  +9.4554352760E-001 -4.1744756699E-001 
8018291.615 +9.4767600298E-001 +7.0830941200E-002  +5.3663916333E-005 +1.2378240353E-004  +8.7134409114E-005 +2.9049831937E-005  +9.1768586636E-001 -4.0716916323E-001 
8143436.796 +9.4475650787E-001 +6.7244932055E-002  -7.1247101005E-005 -2.2159694345E-004  -3.9173210098E-005 +1.2988375966E-004  +9.0604686737E-001 -3.9206361771E-001 
8268581.977 +9.4865775108E-001 +7.0573747158E-002  +2.8114318411E-005 +9.0136622021E-005  +2.1847449534E-004 +7.5085299613E-005  +8.8591504097E-001 -3.7586849928E-001 
8393727.159 +9.5005029440E-001 +6.5327614546E-002  -1.9642150437E-004 +5.9836129367E-006  -1.3235794904E-004 -3.0086806873E-005  +8.6833226681E-001 -3.5994529724E-001 
8518872.340 +9.5483577251E-001 +6.1057135463E-002  -2.2174618789E-004 +7.4596915510E-005  -2.0209725335E-005 -1.4637441200E-004  +8.5021913052E-001 -3.4601789713E-001 
8644017.522 +9.5176231861E-001 +6.4344584942E-002  -1.2102864275E-006 -1.1371838627E-004  +2.0876690542E-005 -2.1454150556E-004  +8.3819949627E-001 -3.3542245626E-001 
8769162.703 +9.5989274979E-001 +6.2589257956E-002  +7.1973656304E-005 -1.1095544323E-004  +3.0477121982E-005 +2.6469126169E-005  +8.2528406382E-001 -3.1926059723E-001 
8894307.885 +9.5837295055E-001 +6.0954779387E-002  -3.2279662264E-005 +5.7923032728E-005  -4.4003649236E-005 +5.2288694860E-005  +8.0866217613E-001 -3.0569261312E-001 
9019453.066 +9.5904183388E-001 +5.6796342134E-002  -9.6983858384E-005 -5.0434464356E-005  -7.3681410868E-005 +2.2332022127E-005  +7.9858362675E-001 -2.9062244296E-001 
9144598.248 +9.6079939604E-001 +5.6716412306E-002  -1.2233442249E-005 -2.1065310648E-005  -7.1358233981E-005 -2.9806426028E-005  +7.8793060780E-001 -2.7625665069E-001 
9269743.429 +9.6304678917E-001 +5.6532770395E-002  -3.4458797018E-005 -1.0757070413E-004  -1.0051171557E-004 +1.8755399651E-005  +7.7552324533E-001 -2.5887537003E-001 
9394888.611 +9.6409505606E-001 +6.0713708401E-002  -1.8050470317E-005 +4.9338112149E-005  +5.6802069594E-005 +2.7691652576E-005  +7.6782870293E-001 -2.4334071577E-001 
9520033.792 +9.6624755859E-001 +5.4171085358E-002  -3.1103954825E-006 +1.2615215383E-004  -5.5884982430E-005 -2.8286100132E-005  +7.5998020172E-001 -2.2586992383E-001 
9645178.974 +9.6888452768E-001 +5.4535418749E-002  +3.8487276470E-005 +1.4721881598E-006  -3.4678472730E-005 -6.0254002165E-005  +7.5192010403E-001 -2.1213942766E-001 
9770324.155 +9.6769946814E-001 +5.2760750055E-002  +1.7014386685E-005 -2.1193849534E-005  -1.4088877833E-005 +5.1623192121E-005  +7.4251651764E-001 -1.9461846352E-001 
9895469.337 +9.6773242950E-001 +5.4078787565E-002  -1.5083909602E-005 -5.3726747865E-005  +5.0571394240E-005 +1.5393226931E-005  +7.3506867886E-001 -1.7931553721E-001 
10020614.518 +9.7080272436E-001 +5.4013311863E-002  -6.0412217863E-005 +2.6001251172E-005  +4.4859963964E-005 +3.4661570680E-007  +7.3579686880E-001 -1.6212654114E-001 
10145759.700 +9.7053039074E-001 +4.9496710300E-002  +2.4359032977E-005 +1.1354594608E-004  -2.4752749596E-005 +4.9506073992E-005  +7.3018193245E-001 -1.4649912715E-001 
10270904.881 +9.7375595570E-001 +4.5670449734E-002  +9.0296358394E-005 -2.4824454158E-005  -1.4324209587E-005 +2.0930718165E-005  +7.2799420357E-001 -1.3286292553E-001 
10396050.063 +9.7132885456E-001 +4.6343833208E-002  -1.4442757674E-005 -6.8856032158E-005  +8.4457220510E-005 +1.0038150504E-004  +7.2498512268E-001 -1.1372512579E-001 
10521195.244 +9.7423911095E-001 +4.7468304634E-002  -3.7970439735E-005 +3.1434068660E-005  -4.7449466365E-005 +5.2405197493E-005  +7.2222393751E-001 -1.0100018978E-001 
10646340.426 +9.7262775898E-001 +4.4414103031E-002  +9.2751688499E-006 +7.4082905485E-005  +8.5314532043E-005 +3.2411862776E-005  +7.2097039223E-001 -8.5212081671E-002 
10771485.607 +9.7440922260E-001 +4.3414294720E-002  -1.4717224985E-006 +4.4066568080E-005  +1.2663654343E-004 +9.0843168437E-006  +7.2123748064E-001 -6.8294674158E-002 
10896630.788 +9.7580122948E-001 +4.2101621628E-002  +5.8308767620E-005 +3.4047818190E-005  +4.8456367949E-006 +2.9872146115E-005  +7.2184079885E-001 -5.2076876163E-002 
11021775.970 +9.7492980957E-001 +4.0468245745E-002  +1.1888841982E-005 +8.9213222964E-005  +6.2713697844E-006 +6.7885819590E-005  +7.2214591503E-001 -3.9094775915E-002 
11146921.151 +9.7653388977E-001 +3.8438916206E-002  -2.0102870621E-006 +1.9165232516E-005  +4.4148109737E-006 +5.8028439526E-005  +7.2426843643E-001 -2.5619864464E-002 
11272066.333 +9.7491890192E-001 +3.5826534033E-002  +3.4121621866E-005 +9.4068534963E-005  -3.4835189581E-005 -3.1033050618E-007  +7.2456902266E-001 -1.1193066835E-002 
11397211.514 +9.7626972198E-001 +3.6754876375E-002  +8.3051952515E-007 +5.1526484413E-008  +1.8458822524E-006 +2.4727356504E-005  +7.2711795568E-001 +3.3770203590E-003 
11522356.696 +9.7908973694E-001 +3.5471022129E-002  +1.2251935550E-004 +3.4214746847E-005  +3.1742176361E-005 +7.2838905908E-005  +7.3132848740E-001 +1.7128556967E-002 
11647501.877 +9.7682243586E-001 +3.5648971796E-002  +2.9364538932E-005 +1.8459246348E-005  -6.7519431468E-007 +1.9575456463E-005  +7.3472309113E-001 +2.9330998659E-002 
11772647.059 +9.7741556168E-001 +3.4936815500E-002  +2.9939770684E-005 -1.6549996872E-005  +3.7849240471E-006 +1.3649984612E-004  +7.4066543579E-001 +4.2802125216E-002 
11897792.240 +9.7614210844E-001 +3.3068925142E-002  +5.6272663642E-005 -2.1596104489E-005  +5.9405843785E-005 +8.9067623776E-005  +7.4496841431E-001 +5.5165201426E-002 
12022937.422 +9.7832965851E-001 +3.2807528973E-002  +4.0701568651E-005 +2.1319912776E-005  +6.5963329689E-005 -2.0771294658E-006  +7.5041544437E-001 +6.8269014359E-002 
12148082.603 +9.7796726227E-001 +2.9822349548E-002  +6.3289335230E-006 +1.9062072170E-005  +1.4872775864E-005 -7.0999602030E-005  +7.5718867779E-001 +8.2274198532E-002 
12273227.785 +9.7814458609E-001 +3.0619710684E-002  +4.1405528464E-006 +5.4261956393E-005  -4.2506489990E-006 +7.7556047472E-005  +7.6362967491E-001 +9.2748463154E-002 
12398372.966 +9.7853630781E-001 +2.8511345387E-002  -2.1558920707E-005 -5.8696450651E-006  +6.0251990362E-005 -4.6412587835E-006  +7.7163159847E-001 +1.0373875499E-001 
12523518.148 +9.7735130787E-001 +2.9244869947E-002  +3.4980294004E-005 +1.2686268747E-005  +1.8521972379E-005 -1.2597984096E-005  +7.7931445837E-001 +1.1526145041E-001 
12648663.329 +9.7775268555E-001 +2.8362244368E-002  -1.3085776118E-005 +9.0525491032E-006  -3.3237476600E-005 +5.1595754485E-005  +7.8754973412E-001 +1.2466810644E-001 
12773808.511 +9.7743612528E-001 +2.6241794229E-002  +2.8999471397E-005 +4.8147699999E-005  +3.0210298064E-005 -3.7853627873E-005  +7.9610872269E-001 +1.3413289189E-001 
12898953.692 +9.7794157267E-001 +2.5553062558E-002  -6.1228256527E-006 -1.1598993297E-005  -3.3815747884E-005 -2.9597506000E-005  +8.0512446165E-001 +1.4264051616E-001 
13024098.874 +9.7796195745E-001 +2.4956598878E-002  -3.3826033814E-006 +1.7023003238E-005  +3.8436508476E-005 +1.0843392374E-005  +8.1491172314E-001 +1.5377508104E-001 
13149244.055 +9.7661626339E-001 +2.3097176105E-002  -4.3825107241E-006 +1.6275313101E-005  +2.9414270102E-005 +2.8067772291E-005  +8.2566845417E-001 +1.6204911470E-001 
13274389.237 +9.7719198465E-001 +2.2236261517E-002  +1.0715167264E-005 +3.0868206522E-005  +3.3131833334E-005 +2.6768733733E-005  +8.3736324310E-001 +1.6931882501E-001 
13399534.418 +9.7681289911E-001 +2.2581521422E-002  +2.4157156076E-005 +3.8668371417E-005  +3.2834741432E-005 +5.1855913625E-005  +8.4678816795E-001 +1.7691212893E-001 
13524679.599 +9.7632557154E-001 +2.2151470184E-002  +9.8864575193E-006 +5.0335089327E-005  -2.5356965125E-005 +7.0223730290E-005  +8.5870188475E-001 +1.8381443620E-001 
13649824.781 +9.7694736719E-001 +2.1718561649E-002  +6.9154681114E-005 +4.8089310440E-005  -1.7437370843E-005 +2.1826521333E-005  +8.7054038048E-001 +1.8872399628E-001 
13774969.962 +9.7657001019E-001 +2.0685508847E-002  +9.6564099294E-006 +2.2760215870E-005  +4.0299433749E-005 +3.9332589949E-005  +8.8251066208E-001 +1.9372011721E-001 
13900115.144 +9.7604107857E-001 +2.0171254873E-002  +2.5819859729E-005 +5.0601112889E-005  -8.1218295236E-006 +6.2365761551E-005  +8.9405632019E-001 +1.9750043750E-001 
14025260.325 +9.7543245554E-001 +1.8997073174E-002  +7.3270693974E-006 +7.1763723099E-005  +2.2757531042E-006 +2.9601338611E-005  +9.0627926588E-001 +2.0156107843E-001 
14150405.507 +9.7574454546E-001 +1.9280910492E-002  +3.6090015783E-005 +2.8190439480E-005  +3.7409317883E-006 +3.2381303754E-005  +9.1848409176E-001 +2.0506115258E-001 
14275550.688 +9.7485053539E-001 +1.9244611263E-002  +3.4450724343E-005 +1.7944052161E-005  +2.9415357858E-005 +2.6721365430E-005  +9.3125629425E-001 +2.0614685118E-001 
14400695.870 +9.7336339951E-001 +1.7585098743E-002  +1.5828867618E-005 +2.1299290893E-005  +2.3092163246E-005 +4.3388325139E-005  +9.4330269098E-001 +2.0870746672E-001 
