!  2-Port S-parameters saved by WinCal
! VAR MeasName=S-Parameters (CALIBRATED_DATA) read from VNA (P5004A)
! VAR MeasDate=22/05/2024 21:35:36
! VAR NAME=Wafer3_r3_c6_pristine_pos20dc
! VAR FILENAME=Wafer3_r3_c6_pristine_pos20dc.S2P
! VAR DATE=22/05/2024 21:35:36
! VAR PHYS_PORTS=1,2
! VAR ObjTypeName=DATASET
! VAR IndexType=Frequency
!
# Hz S RI R 50
9000.000 +2.0491844416E-001 -6.0363805294E-001  +5.9656030498E-003 +8.1649050117E-005  -1.6487775429E-004 -1.1666921637E-005  +3.7384051830E-002 +1.0151190311E-001 
134145.181 +6.1772263050E-001 -1.9992530346E-002  +8.5768299177E-003 +1.5618521720E-002  -3.0836691149E-003 -6.8567749113E-003  +3.0747854710E-001 -1.3275885582E-001 
259290.363 +8.5720527172E-001 -9.3952000141E-002  +2.4965725839E-002 +8.2040503621E-003  -3.8895555772E-003 -1.6609877348E-003  +5.3583961725E-001 -4.7860011458E-002 
384435.544 +9.0427947044E-001 -2.7973163128E-001  -1.4748539543E-003 -4.7906534746E-003  -4.5712892897E-003 +1.0385324713E-003  +4.7621876001E-001 -3.8179078698E-001 
509580.726 +9.5446252823E-001 -1.4128080010E-001  -4.8074941151E-003 +2.8423001058E-003  +1.7488729209E-003 +2.3212502711E-003  +1.6953215003E-001 -1.4822009206E-001 
634725.907 +1.0948020220E+000 -2.0864132047E-001  -1.1489660246E-003 -1.5102465404E-003  -2.2547976114E-003 -5.6159740780E-004  +9.1026222706E-001 -2.6768460870E-001 
759871.089 +1.3228194714E+000 -6.8035334349E-002  -4.9307831796E-004 +9.7047834424E-004  -1.0540501680E-003 +2.7618405875E-004  +1.4638730288E+000 +1.1097009480E-001 
885016.270 +1.9977991581E+000 -1.4574856758E+000  -7.6285190880E-004 +1.9798642024E-003  -1.7589168856E-003 +9.9516974296E-004  +1.3121577501E+000 +4.3567094207E-001 
1010161.452 +9.4894671440E-001 -1.1075988412E-001  -4.4057844207E-004 -6.9285964128E-004  +9.9391785625E-005 -1.3941113139E-004  +1.2210882902E+000 +5.1508730650E-001 
1135306.633 +9.0069788694E-001 -2.4299900979E-002  +1.9928012043E-003 -3.2851795550E-004  -1.2932026293E-003 +1.9575264305E-003  +1.3253607750E+000 +6.6496151686E-001 
1260451.815 +1.2906413078E+000 +3.7297606468E-003  +4.1623436846E-004 +3.3344747499E-004  +1.5791540500E-004 +5.3519388894E-004  +1.0728588104E+000 +7.4990850687E-001 
1385596.996 +1.2535829544E+000 -1.6313177347E-001  +1.2982838962E-004 -1.2383257854E-004  +3.5436108010E-004 +5.4056887166E-005  +9.6368372440E-001 +5.0409644842E-001 
1510742.178 +1.4112024307E+000 -3.5258746147E-001  -3.9664431824E-004 +2.3907805735E-004  -1.1311256094E-004 -2.3230339866E-004  +6.5796625614E-001 +5.7225865126E-001 
1635887.359 +8.6129468679E-001 -4.2565831542E-001  +4.0249215090E-004 -3.1015282730E-005  -3.0631371192E-004 +1.2298737420E-004  +1.4985307455E+000 +6.5780854225E-001 
1761032.541 +8.1392943859E-001 -5.5272924900E-001  -6.1722552346E-005 -8.6628024292E-005  +9.7484647995E-004 -5.1391473971E-004  +1.0790846348E+000 +8.1519627571E-001 
1886177.722 +7.8647202253E-001 -2.2454819083E-001  -2.2401243768E-005 -1.1929182801E-004  -1.8640472263E-005 +5.4807034758E-005  +1.1293411255E+000 +5.4920274019E-001 
2011322.904 +8.1200301647E-001 -1.4685255289E-001  -1.6288651386E-004 -4.2714957090E-005  -3.1049412792E-004 +1.7805432435E-005  +1.1455097198E+000 +5.1223176718E-001 
2136468.085 +8.5276550055E-001 -1.2985596061E-001  -2.4220948108E-003 -2.7754236944E-003  +1.3321646838E-004 +2.3682907340E-004  +1.0902057886E+000 +4.6153366566E-001 
2261613.267 +8.5170996189E-001 -1.0664722323E-001  -2.9582486604E-005 +1.8220522907E-004  +1.6968234559E-004 +3.3395460923E-004  +1.0531047583E+000 +4.9420607090E-001 
2386758.448 +8.5674124956E-001 -9.8138272762E-002  +3.1533566653E-004 -1.8977558648E-004  -5.6659053371E-005 +3.1376366678E-006  +1.0793303251E+000 +5.1894682646E-001 
2511903.630 +8.4550154209E-001 -5.8533266187E-002  +1.5103930491E-004 +9.2574890004E-005  +2.0310192485E-004 +1.1821579392E-004  +1.1285862923E+000 +5.4781877995E-001 
2637048.811 +8.6627078056E-001 -6.2934756279E-002  +2.9969425668E-005 -1.3478331675E-004  +1.3408674567E-004 -2.3524624703E-004  +1.1552520990E+000 +5.7017934322E-001 
2762193.992 +8.6637568474E-001 -5.9770539403E-002  -2.2277308744E-005 +1.4495773939E-004  +2.0266752108E-004 -2.2687186720E-004  +1.1926348209E+000 +4.4894933701E-001 
2887339.174 +8.2577234507E-001 -5.3096637130E-002  -3.0826640432E-004 -1.8242480292E-004  -5.3677457618E-004 +5.5060037994E-005  +1.0394904613E+000 +3.9500844479E-001 
3012484.355 +8.0466425419E-001 -2.8302457184E-002  +3.2732827822E-004 -3.2705775811E-004  +1.0558392387E-004 -2.7418567333E-004  +9.5073020458E-001 +5.0238895416E-001 
3137629.537 +8.1721997261E-001 +1.1079818010E-002  +1.6138746287E-004 +5.4836261552E-004  +2.1290333825E-004 -8.3082210040E-005  +9.6947580576E-001 +6.1121630669E-001 
3262774.718 +8.1504237652E-001 +3.8146354258E-002  +4.2998907156E-004 +6.5731146606E-006  +4.1298353608E-005 -1.5187113604E-004  +1.0121268034E+000 +6.8228572607E-001 
3387919.900 +8.0542773008E-001 +7.2274655104E-002  +1.7964634753E-004 +3.5890896106E-004  -2.6885382249E-004 -3.3243652433E-004  +1.0518119335E+000 +7.4628722668E-001 
3513065.081 +8.2894045115E-001 +9.1646373272E-002  +9.6100571682E-005 +5.3198495880E-004  +3.0749378493E-004 +1.5606301895E-004  +1.0871024132E+000 +8.1448066235E-001 
3638210.263 +8.2902890444E-001 +1.1876688898E-001  +6.0458525695E-005 +1.3314594980E-004  +3.1343457522E-004 -2.1853504586E-004  +1.1747184992E+000 +8.5054802895E-001 
3763355.444 +8.5119926929E-001 +1.3642625511E-001  +2.0315480651E-004 +3.7392525701E-004  +4.3063683552E-004 -1.4597075642E-004  +1.2563798428E+000 +8.7502050400E-001 
3888500.626 +8.6605620384E-001 +1.5426596999E-001  +2.2686326702E-004 -3.0662358040E-004  +2.2258961690E-004 -1.7255867715E-004  +1.3308612108E+000 +9.2634135485E-001 
4013645.807 +8.3555132151E-001 +9.7471281886E-002  +3.1593005406E-004 -3.4940414480E-004  +6.6029591835E-005 -7.7158195199E-004  +1.5429387093E+000 +7.2100681067E-001 
4138790.989 +7.8935438395E-001 +4.9687869847E-002  +3.9638526505E-004 -4.5859676902E-004  +1.7191865481E-004 -2.4141560425E-004  +1.6278222799E+000 +4.3613061309E-001 
4263936.170 +7.8099858761E-001 +6.0692302883E-002  +8.3181296941E-004 +3.6021234700E-004  +3.8044565008E-004 +2.2614524642E-004  +1.6643635035E+000 +3.6417409778E-001 
4389081.352 +8.0976986885E-001 +7.4054181576E-002  -2.1056090191E-004 +3.3043138683E-004  +2.9712094693E-004 +1.3912131544E-004  +1.6997716427E+000 +2.5567752123E-001 
4514226.533 +8.1486648321E-001 +7.1842141449E-002  +3.3935639658E-004 +4.9553447752E-005  +1.3708919869E-004 -6.4328720327E-004  +1.7201713324E+000 +1.8826113641E-001 
4639371.715 +8.3215719461E-001 +6.9021999836E-002  +4.6759054385E-005 -2.9089808231E-004  +3.6163444747E-004 -9.7427444416E-005  +1.7259070873E+000 +1.2763163447E-001 
4764516.896 +8.2755422592E-001 +7.6147705317E-002  +7.9066558101E-006 +1.3554558973E-004  +6.6015159246E-004 +2.7994258562E-004  +1.7271414995E+000 +5.3120225668E-002 
4889662.078 +8.3480167389E-001 +9.1052457690E-002  -1.2132885604E-004 -6.5671600169E-005  +3.2621741411E-004 +2.2834065021E-004  +1.7318155766E+000 -4.5224428177E-003 
5014807.259 +8.4220659733E-001 +7.9315841198E-002  +5.7529460173E-004 -4.0865642950E-004  +3.1752884388E-004 +2.6250269730E-004  +1.6944559813E+000 -6.0106188059E-002 
5139952.441 +8.4829676151E-001 +8.7460555136E-002  -2.2557275952E-004 -1.1664064368E-004  +2.4439662229E-004 +3.7587192492E-004  +1.6846854687E+000 -1.2640467286E-001 
5265097.622 +8.5574769974E-001 +8.9771121740E-002  +2.1082091553E-004 -3.7078923197E-004  -2.2191583412E-005 -4.2284213123E-004  +1.6452386379E+000 -1.8647187948E-001 
5390242.804 +8.6286759377E-001 +8.6491771042E-002  +1.0700045095E-005 +1.1620790610E-004  +1.7410251894E-004 +4.1872050497E-004  +1.6074641943E+000 -2.2042968869E-001 
5515387.985 +8.7975353003E-001 +8.7314985693E-002  -1.2393022189E-004 +5.2565732040E-004  -3.3458042890E-004 +9.6279327408E-006  +1.5790830851E+000 -2.8293377161E-001 
5640533.166 +8.8228201866E-001 +9.4343692064E-002  +2.5792734232E-004 -3.6367931170E-004  +3.6714758608E-004 -2.7267212863E-004  +1.5629338026E+000 -3.1797853112E-001 
5765678.348 +8.7734615803E-001 +9.5640599728E-002  -2.3909453375E-005 -1.5310454182E-004  -1.1086707673E-005 -2.1631523850E-004  +1.5211628675E+000 -3.4369277954E-001 
5890823.529 +8.8778585196E-001 +8.5001945496E-002  +7.9691511928E-005 +1.6180729290E-005  -1.8885219106E-005 +1.3966159895E-004  +1.4730006456E+000 -3.7987852097E-001 
6015968.711 +8.9204096794E-001 +7.5254768133E-002  +2.1163666679E-004 -8.7763110059E-005  -3.4750533814E-005 +1.3556447811E-004  +1.4397315979E+000 -3.9865660667E-001 
6141113.892 +8.9906710386E-001 +7.9132214189E-002  +1.0494193702E-004 -2.5292421924E-004  +1.2186965614E-004 -4.7478228225E-005  +1.3911641836E+000 -4.1786959767E-001 
6266259.074 +8.9477604628E-001 +8.2088433206E-002  -4.4046019320E-004 +1.3744682656E-004  -4.7267709306E-005 -9.0176050435E-005  +1.3444905281E+000 -4.3507531285E-001 
6391404.255 +9.0337884426E-001 +7.4453756213E-002  +3.0495974352E-004 +1.1057528900E-004  +1.0522406228E-004 -1.8439222185E-004  +1.3029460907E+000 -4.5261323452E-001 
6516549.437 +9.0517920256E-001 +7.6148040593E-002  +3.5944271076E-005 -2.6639678254E-005  -2.2430879471E-004 +1.9639822131E-004  +1.2706621885E+000 -4.5903342962E-001 
6641694.618 +9.1404217482E-001 +8.4512352943E-002  -3.4353777301E-004 +5.4902688134E-004  +2.2079935297E-004 +1.4007471691E-005  +1.2383184433E+000 -4.5586425066E-001 
6766839.800 +9.2172300816E-001 +7.9540029168E-002  -3.2106027356E-004 -2.0490864699E-004  +7.5517265941E-005 -1.8855996314E-004  +1.2024471760E+000 -4.6674984694E-001 
6891984.981 +9.2167764902E-001 +7.5307548046E-002  -3.9121310692E-004 -1.9824417541E-004  +3.1450856477E-004 +9.2264017439E-005  +1.1517148018E+000 -4.6266102791E-001 
7017130.163 +9.2119926214E-001 +7.2516530752E-002  -1.1238014849E-004 -2.9554907815E-004  -6.7673274316E-005 -6.4171123086E-005  +1.1310560703E+000 -4.5338338614E-001 
7142275.344 +9.2381018400E-001 +7.9849235713E-002  -9.2668647994E-005 -1.7683852639E-004  -2.8500234475E-004 +1.0412566189E-004  +1.1070284843E+000 -4.4783228636E-001 
7267420.526 +9.2721134424E-001 +8.0697111785E-002  +1.7698452575E-004 -1.0667365132E-004  -9.1022549896E-005 -3.7313107896E-005  +1.0771523714E+000 -4.4003167748E-001 
7392565.707 +9.2989271879E-001 +8.4422603250E-002  -2.2579994402E-004 -1.0091793229E-004  +3.1490391848E-005 +5.5542073824E-005  +1.0502851009E+000 -4.3962788582E-001 
7517710.889 +9.3462395668E-001 +8.0005407333E-002  +9.5790441264E-005 +4.5237837185E-005  -8.6950793047E-005 -1.1531421478E-004  +1.0218845606E+000 -4.3351030350E-001 
7642856.070 +9.3035990000E-001 +7.5559012592E-002  +2.2644648561E-004 +1.9591634555E-005  +1.8987343356E-004 -1.7846330593E-004  +9.8892152309E-001 -4.2560550570E-001 
7768001.252 +9.3829929829E-001 +7.7590122819E-002  +9.6917327028E-005 +9.6410331025E-005  +8.4884508396E-005 +3.1759031117E-005  +9.6514099836E-001 -4.2058038712E-001 
7893146.433 +9.4280320406E-001 +7.9947583377E-002  +1.0587257566E-004 +1.1178215209E-004  +1.3206036238E-004 -1.0719524289E-004  +9.4427853823E-001 -4.0311360359E-001 
8018291.615 +9.4118261337E-001 +7.5984790921E-002  +1.0658746032E-004 +4.0996194002E-005  +2.4634278816E-005 -1.7730894615E-004  +9.1862112284E-001 -3.9327967167E-001 
8143436.796 +9.4282948971E-001 +7.1364268661E-002  -4.4029893616E-005 +3.7097061067E-006  +1.9851836259E-004 +1.3802280591E-005  +9.0443730354E-001 -3.7779384851E-001 
8268581.977 +9.4600927830E-001 +7.2623535991E-002  +1.7752734129E-004 +3.4636283090E-005  +2.5478366297E-005 +1.0448246940E-005  +8.8451695442E-001 -3.6571651697E-001 
8393727.159 +9.4480377436E-001 +6.6980883479E-002  +8.6220155936E-005 -9.7058189567E-005  +1.1461184477E-004 -2.4045031751E-004  +8.7027674913E-001 -3.5330367088E-001 
8518872.340 +9.5177263021E-001 +6.5671324730E-002  +1.2019826681E-004 +1.3515754836E-004  +7.9286081018E-005 -2.4702072551E-005  +8.4801578522E-001 -3.3729749918E-001 
8644017.522 +9.5029282570E-001 +6.8320661783E-002  +9.5138791949E-005 -2.1841208218E-004  -1.6227361630E-004 +6.5835418354E-005  +8.4169483185E-001 -3.2420003414E-001 
8769162.703 +9.5697212219E-001 +7.0440098643E-002  -2.6922438337E-005 -1.3800554370E-005  -5.4805430409E-005 -4.9460086302E-006  +8.2773947716E-001 -3.1094884872E-001 
8894307.885 +9.5539200306E-001 +6.7256152630E-002  -2.4895831302E-005 -2.3336457161E-005  -8.7543267000E-005 -2.4387507437E-005  +8.1186765432E-001 -2.9509565234E-001 
9019453.066 +9.5766198635E-001 +6.1702787876E-002  +3.6361867387E-005 +6.0265534557E-005  -1.8974333943E-004 +9.9753888207E-006  +7.9967617989E-001 -2.7966111898E-001 
9144598.248 +9.5969343185E-001 +6.0926973820E-002  -1.3071169087E-004 -6.5839754825E-005  -3.0508006603E-005 -3.8290883822E-005  +7.9039692879E-001 -2.6333770156E-001 
9269743.429 +9.6177315712E-001 +5.9866130352E-002  -3.3798412915E-005 -1.5280045773E-005  -2.0551815396E-006 -3.8268579374E-005  +7.8007447720E-001 -2.4896664917E-001 
9394888.611 +9.6151185036E-001 +6.3406050205E-002  -1.1652661487E-004 -1.5516037820E-004  +3.9957398258E-005 -3.5725999624E-005  +7.6875090599E-001 -2.3786090314E-001 
9520033.792 +9.6363180876E-001 +5.6700140238E-002  -5.3601594118E-005 -5.8718535001E-005  +5.7408251450E-005 +4.1301307647E-005  +7.6173502207E-001 -2.1883466840E-001 
9645178.974 +9.6797418594E-001 +6.0538738966E-002  +8.0831669038E-005 -1.9148545107E-005  +1.8142291810E-004 +1.4663886395E-004  +7.5433903933E-001 -2.0275220275E-001 
9770324.155 +9.6488255262E-001 +6.0242831707E-002  +1.5751000319E-005 +8.7963380793E-005  +2.2179530788E-005 -1.3477005268E-005  +7.4609881639E-001 -1.9077751040E-001 
9895469.337 +9.6889746189E-001 +5.7173758745E-002  +9.6565554486E-007 +1.0114092220E-005  +5.4624732002E-005 +1.1437090143E-004  +7.3985373974E-001 -1.7131286860E-001 
10020614.518 +9.6839308739E-001 +5.8673113585E-002  +1.9781751689E-005 -6.9549954787E-005  +1.2644236267E-004 +1.2713686738E-004  +7.3621094227E-001 -1.5596055984E-001 
10145759.700 +9.6981406212E-001 +5.3840160370E-002  +9.9383032648E-007 +1.1994296801E-004  -8.2601818576E-006 +1.4692184777E-005  +7.3259788752E-001 -1.4201095700E-001 
10270904.881 +9.7218418121E-001 +5.3125023842E-002  +1.9437389710E-005 +8.2669292169E-005  -8.9644508989E-006 +5.3264397138E-005  +7.3062944412E-001 -1.2424564362E-001 
10396050.063 +9.7180509567E-001 +5.1465064287E-002  +5.2794068324E-005 +2.8579008358E-005  +5.3284431488E-005 +5.9709069319E-005  +7.2661662102E-001 -1.0744935274E-001 
10521195.244 +9.7275161743E-001 +4.9816250801E-002  +5.7024233683E-005 +9.2351328931E-005  -2.3180915377E-005 +3.3269192500E-005  +7.2714585066E-001 -9.3822211027E-002 
10646340.426 +9.7222626209E-001 +4.8955529928E-002  +1.4027162251E-005 +2.9464508771E-006  +3.9403650590E-005 +4.9952519475E-005  +7.2385716438E-001 -8.0441504717E-002 
10771485.607 +9.7329401970E-001 +4.8820436001E-002  +7.5535936048E-005 +2.9602233553E-006  +2.2350919608E-005 -5.5984291976E-006  +7.2368413210E-001 -6.4552813768E-002 
10896630.788 +9.7373163700E-001 +4.7690004110E-002  +1.3361888705E-004 +8.2758779172E-006  +8.5183877673E-005 -2.7688636692E-005  +7.2331714630E-001 -4.9994289875E-002 
11021775.970 +9.7356307507E-001 +4.7066748142E-002  -4.7165780416E-005 +7.1706301242E-005  +3.5356730223E-005 -5.4623360484E-006  +7.2303807735E-001 -3.7013798952E-002 
11146921.151 +9.7541761398E-001 +4.2885601521E-002  -6.8878889579E-006 +1.2761479411E-005  -4.9847320042E-005 +9.9845929071E-006  +7.2599196434E-001 -2.0160794258E-002 
11272066.333 +9.7370475531E-001 +4.0490090847E-002  -4.3026233470E-005 +4.7590459872E-005  -4.5972319640E-005 -1.1885593267E-005  +7.2630113363E-001 -6.5067708492E-003 
11397211.514 +9.7509568930E-001 +4.1121065617E-002  +8.5343090177E-006 +7.7116012108E-005  +4.9791291531E-005 +2.4653065338E-005  +7.2884219885E-001 +4.9881935120E-003 
11522356.696 +9.7478562593E-001 +3.9007931948E-002  +3.7819772842E-005 +2.6199802960E-005  -3.5197479065E-006 +8.6293839558E-006  +7.3295527697E-001 +1.9054681063E-002 
11647501.877 +9.7417831421E-001 +3.7945389748E-002  -3.2692289096E-005 +5.1258379244E-005  -1.8212638679E-005 +8.1250982475E-005  +7.3530423641E-001 +3.2317638397E-002 
11772647.059 +9.7538822889E-001 +3.6488950253E-002  +3.6698882468E-005 +4.4002248615E-005  -3.8521189708E-005 +1.2883027921E-005  +7.4070787430E-001 +4.4511377811E-002 
11897792.240 +9.7421550751E-001 +3.5031378269E-002  -4.5033616516E-006 +4.4305893425E-006  +1.0103758541E-007 -2.7292024242E-005  +7.4585974216E-001 +5.7892620564E-002 
12022937.422 +9.7630929947E-001 +3.4649908543E-002  +1.7904738343E-005 -1.0428430869E-005  +3.5116168874E-005 +6.6626766056E-005  +7.5165498257E-001 +6.9875270128E-002 
12148082.603 +9.7637122869E-001 +3.4213334322E-002  +3.7027810322E-005 +3.7989135308E-005  +8.2511134678E-005 -1.7476251742E-005  +7.5782138109E-001 +8.3261668682E-002 
12273227.785 +9.7633141279E-001 +3.4043818712E-002  +4.2819727241E-005 +2.0509556634E-005  +7.8021810623E-005 -2.2602829631E-005  +7.6489627361E-001 +9.3690842390E-002 
12398372.966 +9.7680699825E-001 +3.1781703234E-002  +7.2697762334E-006 -1.3775694242E-005  +8.1227590272E-006 -4.2821888201E-005  +7.7307468653E-001 +1.0509617627E-001 
12523518.148 +9.7486573458E-001 +3.1173408031E-002  +3.2476862543E-005 +2.2421467293E-005  -4.7097175411E-005 -7.6142441685E-007  +7.7851229906E-001 +1.1524719000E-001 
12648663.329 +9.7618979216E-001 +3.0368328094E-002  +3.2531672332E-005 -3.0891289498E-005  +3.5422697692E-005 +3.7682893890E-006  +7.8892993927E-001 +1.2684004009E-001 
12773808.511 +9.7661793232E-001 +2.9153585434E-002  +3.6819878346E-007 +2.2966958113E-006  +4.1795632569E-005 +6.3895386120E-006  +7.9661625624E-001 +1.3542982936E-001 
12898953.692 +9.7618395090E-001 +2.8191223741E-002  +5.9672456700E-005 +2.5563142117E-005  +6.6654080001E-005 +2.2633732442E-005  +8.0560696125E-001 +1.4416198432E-001 
13024098.874 +9.7521954775E-001 +2.7604795992E-002  +4.3993353756E-005 +5.0772097893E-005  +8.0151090515E-005 +1.8670460122E-005  +8.1548637152E-001 +1.5509578586E-001 
13149244.055 +9.7532117367E-001 +2.7099922299E-002  +6.0626010963E-005 -1.5475339751E-005  +2.9552884371E-005 +2.3482434699E-006  +8.2577478886E-001 +1.6274845600E-001 
13274389.237 +9.7491049767E-001 +2.4171745405E-002  -2.9993780117E-005 -5.0206293963E-005  +4.2584968469E-005 +2.3579003027E-005  +8.3714467287E-001 +1.6950595379E-001 
13399534.418 +9.7514081001E-001 +2.4426074699E-002  +9.7188494692E-006 -2.9143033316E-005  +3.2123266465E-006 +1.9210943719E-005  +8.4762418270E-001 +1.7701315880E-001 
13524679.599 +9.7513556480E-001 +2.4646043777E-002  +2.5935651138E-005 -6.1998293859E-006  +9.7915399238E-006 +1.2607259123E-005  +8.5891199112E-001 +1.8348911405E-001 
13649824.781 +9.7564208508E-001 +2.3044571280E-002  -8.8166399337E-007 +6.5907697717E-006  +2.1841520720E-005 +4.0239985537E-005  +8.7168890238E-001 +1.8913459778E-001 
13774969.962 +9.7423136234E-001 +2.2945806384E-002  +4.5768436394E-005 -3.0104110920E-005  +1.8468796043E-005 +3.1593266613E-005  +8.8239878416E-001 +1.9401396811E-001 
13900115.144 +9.7477602959E-001 +2.1504268050E-002  -4.4874832383E-007 +2.4155271603E-005  +2.0792183932E-005 +1.9438539312E-007  +8.9356559515E-001 +1.9913034141E-001 
14025260.325 +9.7372090816E-001 +2.1688669920E-002  +2.7148154913E-005 +4.5072702051E-005  +2.5325971365E-005 +3.4729720937E-005  +9.0560048819E-001 +2.0189043880E-001 
14150405.507 +9.7341239452E-001 +2.0852416754E-002  +1.2839285773E-005 +5.7707853557E-005  +3.1995092286E-005 +3.7168952986E-005  +9.1870301962E-001 +2.0498833060E-001 
14275550.688 +9.7390496731E-001 +1.9800007343E-002  +4.1165189032E-005 +3.3943588278E-006  +7.8183657024E-006 +5.5418975535E-005  +9.3116277456E-001 +2.0622272789E-001 
14400695.870 +9.7288465500E-001 +1.9303470850E-002  -2.5487102903E-005 -4.9587056310E-006  -6.1816717789E-007 +3.3360927773E-005  +9.4346427917E-001 +2.0780260861E-001 
