!  2-Port S-parameters saved by WinCal
! VAR MeasName=S-Parameters (CALIBRATED_DATA) read from VNA (P5004A)
! VAR MeasDate=22/05/2024 20:52:32
! VAR NAME=Wafer3_r3_c2_open
! VAR FILENAME=Wafer3_r3_c2_open.S2P
! VAR DATE=22/05/2024 20:52:32
! VAR PHYS_PORTS=1,2
! VAR ObjTypeName=DATASET
! VAR IndexType=Frequency
!
# Hz S RI R 50
9000.000 +2.1176582575E-001 -6.0435384512E-001  +6.3636172563E-003 +1.1741649359E-002  -6.1514263507E-004 -1.1354829185E-003  +4.3562911451E-002 +1.0591286421E-001 
134145.181 +6.5718251467E-001 +1.6361452639E-002  -9.6660070121E-003 -6.9307507947E-003  -2.8659556992E-003 -1.9508094992E-003  +5.3108352423E-001 -1.7182816565E-001 
259290.363 +9.0492379665E-001 -1.0926608741E-001  -7.7335629612E-004 -3.1050750986E-003  -3.5150013864E-003 -5.6992503232E-005  +9.7153925896E-001 -1.4728379250E-001 
384435.544 +9.1140824556E-001 -2.7875176072E-001  -4.4550301391E-004 +1.4645678457E-003  +2.8169408324E-004 -5.6992372265E-004  +1.0871441364E+000 -2.1761021018E-001 
509580.726 +9.7032427788E-001 -1.5136200190E-001  +1.0999267688E-003 +3.2841335633E-004  -5.0473160809E-004 -4.5164008043E-004  +1.0489896536E+000 -9.7559124231E-002 
634725.907 +1.1004773378E+000 -2.0372092724E-001  -1.3386970386E-004 +1.6947915719E-004  -1.4901599206E-004 -1.4050808386E-004  +1.1257246733E+000 -8.1350386143E-002 
759871.089 +1.3001198769E+000 -6.8611800671E-002  -6.9711910328E-005 -7.0040224819E-004  +1.4247237414E-004 -6.4298941288E-004  +1.1976207495E+000 +2.4209946394E-002 
885016.270 +1.2153360844E+000 -1.2463726997E+000  -1.9127515843E-003 +2.5373597164E-003  +2.9339552857E-003 +2.4139448069E-003  +1.3423471451E+000 +9.5884710550E-002 
1010161.452 +1.0660289526E+000 -3.9563536644E-002  +5.1121562719E-003 -8.9656179771E-003  -2.9021776281E-003 +1.9295694074E-003  +6.4885169268E-001 -3.1816998124E-001 
1135306.633 +1.0372748375E+000 +1.2979775667E-002  -1.0682122083E-003 +1.0007926030E-003  -7.4142083758E-004 -1.6455224250E-003  +9.6694964170E-001 -4.9221158028E-002 
1260451.815 +1.3919134140E+000 +2.5112032890E-002  -8.2391768228E-004 -7.5034640031E-004  +1.3940220233E-003 -2.4137590080E-003  +1.0928957462E+000 +1.0517308116E-001 
1385596.996 +1.2938885689E+000 -1.0861849785E-001  -3.9496758836E-004 +1.2793866917E-003  -3.1692525954E-004 -9.3113945331E-004  +1.1734194756E+000 +1.1605271697E-001 
1510742.178 +1.4417291880E+000 -1.9943463802E-001  -3.1497466844E-003 +1.2632110156E-004  +5.7563833252E-005 -5.2545598010E-004  +1.4421561956E+000 +2.7962672710E-001 
1635887.359 +9.7220289707E-001 -3.1455734372E-001  -1.2438136619E-003 +1.7032900359E-003  +1.1905032443E-004 -6.0385972029E-004  +1.1000881195E+000 -2.9402726889E-001 
1761032.541 +1.0128937960E+000 -3.1351321936E-001  +6.0048914747E-004 -1.4634941181E-004  -2.3358664475E-004 +2.7614047285E-003  +1.0501649380E+000 -3.1660282612E-001 
1886177.722 +9.6619963646E-001 -1.8080586195E-001  +1.1565104069E-004 -5.5963860359E-004  -1.2640629429E-003 -1.0308314813E-003  +1.0259923935E+000 -1.8229243159E-001 
2011322.904 +9.7063267231E-001 -1.2074965239E-001  +1.6062335635E-004 +1.9228806195E-004  -4.4881468057E-004 -3.1942912028E-004  +1.0130077600E+000 -1.0216891766E-001 
2136468.085 +9.8446065187E-001 -1.0246679187E-001  +2.8432041290E-004 +1.1764076044E-004  -5.2363547729E-004 +3.2804731745E-004  +1.0151894093E+000 -8.4849625826E-002 
2261613.267 +9.7703558207E-001 -7.9978942871E-002  +9.7673269920E-004 -3.4537396277E-004  +9.8945231002E-005 -2.8770757490E-004  +1.0144014359E+000 -5.3420215845E-002 
2386758.448 +9.7442877293E-001 -6.8820208311E-002  -1.6422095359E-004 +6.4933556132E-004  -5.4849042499E-005 +8.9792360086E-005  +1.0076017380E+000 -3.7984997034E-002 
2511903.630 +9.7794270515E-001 -3.4872382879E-002  +6.8066641688E-004 +3.9787334390E-004  -5.0128134899E-004 +3.4060442704E-004  +1.0046889782E+000 -1.4570266008E-002 
2637048.811 +9.8096179962E-001 -3.0578821898E-002  +5.7770108106E-004 +2.6703911135E-004  -1.4970923075E-004 +7.4079791375E-005  +9.8977094889E-001 +4.7598779202E-003 
2762193.992 +9.7319567204E-001 -2.0359940827E-002  -3.5099301022E-004 +6.1397405807E-004  +6.7772143666E-006 -1.8507779168E-004  +9.9580121040E-001 +3.2512284815E-002 
2887339.174 +9.5114594698E-001 -1.5346482396E-002  +4.6818415285E-004 -6.1588775134E-004  +5.0360686146E-006 +5.7579309214E-004  +1.0024672747E+000 +4.2313635349E-002 
3012484.355 +9.6519225836E-001 +1.4789327979E-003  +3.4772034269E-004 -8.6702598492E-004  -1.4675295097E-004 +4.6480222954E-004  +9.9722248316E-001 +4.9607701600E-002 
3137629.537 +9.5920032263E-001 +3.0523493886E-002  -9.5309055177E-004 +4.9511058023E-004  -1.2937044085E-004 +4.2731473513E-005  +9.9548947811E-001 +6.9276653230E-002 
3262774.718 +9.5676755905E-001 +5.7560987771E-002  +3.9718119660E-004 +1.7462899268E-004  +2.0753954595E-004 +3.9248270332E-004  +1.0091602802E+000 +9.4957709312E-002 
3387919.900 +9.5093220472E-001 +8.1300973892E-002  +2.6107957819E-004 -4.3181254296E-004  +2.4668106926E-004 -1.3764899923E-003  +1.0088260174E+000 +1.1415427923E-001 
3513065.081 +9.7223883867E-001 +9.4415113330E-002  +2.0530873735E-004 -5.5693781178E-006  -2.0345994562E-004 -1.7361411301E-004  +1.0310882330E+000 +1.3638992608E-001 
3638210.263 +9.8215132952E-001 +1.3102272153E-001  +1.9747040642E-004 -2.0268471417E-005  +1.8100738816E-004 -2.3948808666E-004  +1.0441817045E+000 +1.4196386933E-001 
3763355.444 +1.0121338367E+000 +1.3925795257E-001  -1.2340537796E-004 -4.3926027138E-004  +8.5367832799E-004 -3.1822308665E-004  +1.0642658472E+000 +1.4614874125E-001 
3888500.626 +1.0207718611E+000 +1.6950225830E-001  +1.5106492356E-005 +1.7283923808E-004  -3.9040049887E-004 +1.4062927221E-004  +1.0834876299E+000 +1.7625482380E-001 
4013645.807 +9.8010081053E-001 +8.5153095424E-002  +3.0700152274E-004 -3.2532680780E-004  -1.7398573618E-005 +2.9764330247E-004  +1.0416885614E+000 +7.1751438081E-002 
4138790.989 +9.1723662615E-001 +1.2554407120E-002  +3.7443591282E-004 +5.2375391533E-005  -6.4134233980E-005 -4.3873663526E-004  +9.7312879562E-001 +4.3686889112E-003 
4263936.170 +9.1400712729E-001 +1.7046438530E-002  +7.4798427522E-004 +1.7590780044E-004  +2.6970476029E-004 -4.1311190580E-004  +9.6493661404E-001 -5.1778908819E-003 
4389081.352 +9.2849659920E-001 +1.5847012401E-002  -1.3724796008E-004 +4.4276990229E-004  +5.1167437050E-005 +1.6828160733E-004  +9.7114986181E-001 -7.6280571520E-003 
4514226.533 +9.4115990400E-001 +1.3539263979E-002  +4.1830042028E-004 +5.9734480601E-005  -2.8579568607E-004 +3.7787707697E-005  +9.7600561380E-001 -1.2672064826E-002 
4639371.715 +9.5798432827E-001 +1.6595624387E-002  -9.9317730928E-006 +2.8095741072E-005  +8.7666179752E-004 +1.2854553643E-004  +9.8057949543E-001 -2.1220082417E-003 
4764516.896 +9.5154911280E-001 +1.6143921763E-002  -2.3464493279E-004 -1.9230461476E-005  -1.6348347708E-004 +1.4771630231E-004  +9.8254048824E-001 -1.6804765910E-002 
4889662.078 +9.5761281252E-001 +1.9830793142E-002  +6.2066939427E-004 +9.2152666184E-005  -1.2518213225E-005 +1.1830253061E-004  +9.8651599884E-001 -1.2855866924E-002 
5014807.259 +9.5286017656E-001 +1.3295181096E-002  -8.4839310148E-005 +7.7802120359E-005  +1.5166668163E-004 -4.7051458387E-004  +9.7519272566E-001 -7.3819234967E-003 
5139952.441 +9.6503770351E-001 +1.6965109855E-002  -4.6172155999E-004 +3.0890441849E-006  -1.1272126721E-004 +5.1831238670E-004  +9.8538976908E-001 -1.1755272746E-002 
5265097.622 +9.6945923567E-001 +1.7673954368E-002  -3.9215723518E-004 -2.8701245901E-004  +5.9138715733E-004 +4.1589516331E-004  +9.8278397322E-001 -9.8487511277E-003 
5390242.804 +9.7435384989E-001 +1.3978898525E-002  +1.3644897263E-004 -2.6493131372E-005  +1.1303804058E-004 +2.1633332653E-004  +9.7323399782E-001 -1.4729373157E-002 
5515387.985 +9.8415726423E-001 +1.4656156301E-002  -2.6706745848E-004 +3.9593712427E-004  +6.3806030084E-005 +4.3185671529E-005  +9.7797870636E-001 -2.2504046559E-002 
5640533.166 +9.8710620403E-001 +1.3321518898E-002  -2.1826643206E-004 -4.5124144526E-004  -2.1348918381E-004 +3.1155988108E-004  +9.8168498278E-001 -2.2931769490E-002 
5765678.348 +9.8319476843E-001 +1.0951541364E-002  +2.7835307992E-004 +4.3650175212E-004  +2.9316972359E-004 +1.1264265049E-004  +9.8128950596E-001 -2.0341835916E-002 
5890823.529 +9.8701912165E-001 +5.2672773600E-003  -2.8794188984E-004 -2.1851125348E-004  +1.4402942907E-004 +1.1308411194E-004  +9.8153632879E-001 -2.2030405700E-002 
6015968.711 +9.8423880339E-001 +3.6371350288E-003  -1.7532237689E-004 +2.6693045584E-005  -1.2489614892E-004 -4.9596379540E-005  +9.8217016459E-001 -1.5697009861E-002 
6141113.892 +9.8846286535E-001 +3.1396746635E-004  -5.3624851716E-005 -1.0861127521E-004  -2.0985980518E-004 +1.3073327136E-004  +9.7951221466E-001 -2.1721675992E-002 
6266259.074 +9.8536121845E-001 +1.8135830760E-003  +3.5940544331E-004 -7.1122500231E-005  +5.1672386689E-006 +4.1080224946E-006  +9.8290884495E-001 -1.4509126544E-002 
6391404.255 +9.8892766237E-001 -4.2144209146E-004  +3.9364356780E-004 -1.2335008068E-004  +2.9524817364E-004 +1.7578178085E-004  +9.8366463184E-001 -1.8922112882E-002 
6516549.437 +9.8697817326E-001 -1.8992945552E-003  -1.3229573960E-004 -3.3104344038E-004  -2.2592094319E-004 -1.8752577307E-004  +9.8024022579E-001 -1.6933619976E-002 
6641694.618 +9.8937910795E-001 -2.1726936102E-003  +1.1262430053E-004 +3.5473576281E-004  +6.3924111600E-005 -2.2746271861E-004  +9.8531180620E-001 -1.4051288366E-002 
6766839.800 +9.9930489063E-001 -4.3175667524E-003  +1.6146787675E-004 -9.4829345471E-005  -2.0206188492E-004 +4.4154503848E-004  +9.8102420568E-001 -1.4694377780E-002 
6891984.981 +9.9411475658E-001 -8.1005990505E-003  +1.3693625806E-004 +2.2559285571E-004  +2.3728157976E-004 +2.7424495784E-004  +9.7617423534E-001 -1.5654265881E-002 
7017130.163 +9.9181914330E-001 -5.7788491249E-003  +3.0912048533E-004 -1.1154600361E-004  +2.1245796233E-004 +2.0552249043E-004  +9.8146635294E-001 -1.3156458735E-002 
7142275.344 +9.8944836855E-001 -3.6412477493E-004  +1.6301224241E-004 +2.4622312048E-004  +3.1203508843E-004 +1.5586742666E-004  +9.8205798864E-001 -1.0449796915E-002 
7267420.526 +9.9219882488E-001 +1.9915997982E-003  +1.7550300981E-004 +4.9246395065E-005  -1.2718769722E-004 -1.4661984460E-004  +9.7921919823E-001 -1.0749846697E-002 
7392565.707 +9.9614226818E-001 +3.4184604883E-003  +1.8679743516E-004 -5.1340703067E-005  -1.2071439414E-004 +1.4139308769E-004  +9.8237568140E-001 -1.3115033507E-002 
7517710.889 +9.9605149031E-001 +4.9044489861E-003  +3.8209614104E-006 -1.9014991267E-005  -3.7302423152E-005 +3.6702587386E-004  +9.7890102863E-001 -1.3091176748E-002 
7642856.070 +9.8651945591E-001 +2.6106387377E-003  -9.2466965725E-005 +5.1208353398E-006  +1.0212446796E-004 +9.3379385362E-005  +9.7555905581E-001 -1.0651305318E-002 
7768001.252 +9.9415063858E-001 +3.6024004221E-003  +2.9118612292E-004 -1.7679318262E-004  +4.2611976824E-005 +6.0222289903E-005  +9.7175729275E-001 -1.1993288994E-002 
7893146.433 +9.9744647741E-001 +6.8758428097E-004  +1.6215455253E-004 +8.9644847321E-005  +1.7884209228E-004 -7.9521370935E-005  +9.7303700447E-001 -9.8066180944E-003 
8018291.615 +9.8969769478E-001 -1.6765296459E-003  +4.9613205192E-005 +3.9526650653E-005  +1.4647124044E-004 -2.0340659830E-004  +9.7133833170E-001 -1.2397870421E-002 
8143436.796 +9.8890715837E-001 -1.6868412495E-003  +2.1145566279E-005 -1.6815014533E-004  -1.1114367226E-004 -6.7125060013E-005  +9.7341024876E-001 -8.7363868952E-003 
8268581.977 +9.9048912525E-001 -3.3849477768E-004  -5.2047871577E-005 -8.9589229901E-005  -2.2053785506E-004 -1.8358601665E-004  +9.7228646278E-001 -1.8905401230E-003 
8393727.159 +9.8814964294E-001 -6.3967108727E-003  -1.3606285211E-004 -1.4222314348E-004  +1.5510928279E-005 -4.8699130275E-005  +9.7533541918E-001 -3.9957165718E-003 
8518872.340 +9.8909783363E-001 -7.9508125782E-003  -1.0421514162E-005 +2.3608325137E-005  -9.1537091066E-005 +1.0552704043E-004  +9.7675102949E-001 -2.1530985832E-003 
8644017.522 +9.8607897758E-001 -4.6366453171E-003  +5.6892207795E-005 +3.5184799344E-005  -8.1778111053E-005 +1.7492235202E-005  +9.7732776403E-001 -2.9589533806E-003 
8769162.703 +9.9127125740E-001 -6.9462954998E-003  +3.1739582482E-005 -8.5322266386E-005  +6.9710396929E-005 +3.8769023377E-005  +9.7795021534E-001 -1.3712048531E-004 
8894307.885 +9.8721712828E-001 -5.1304399967E-003  +7.1974005550E-005 -7.8524404671E-005  +1.0395966092E-004 -1.5467786579E-004  +9.7492110729E-001 -5.4487287998E-003 
9019453.066 +9.8916685581E-001 -7.1324110031E-003  -4.3523837121E-006 +3.2155523513E-005  -1.3374176342E-004 -6.9969682954E-006  +9.7401189804E-001 -5.1895678043E-003 
9144598.248 +9.8901396990E-001 -6.6994726658E-003  -5.8212754084E-007 -8.3293860371E-005  +1.4935855688E-005 -4.3791311327E-005  +9.7593826056E-001 -1.6170144081E-003 
9269743.429 +9.8944425583E-001 -2.0809769630E-003  +6.8330555223E-005 -1.7816973559E-004  +4.0287875890E-005 +4.3791667849E-005  +9.7735071182E-001 -2.4458765984E-004 
9394888.611 +9.9066650867E-001 +2.8381943703E-003  +6.6156899265E-006 -3.5017736081E-005  +6.1759652453E-005 -1.5471649021E-005  +9.7833651304E-001 -3.3580362797E-003 
9520033.792 +9.9069935083E-001 -3.7717819214E-003  -4.7153938795E-005 -5.9957379563E-005  -6.3048595621E-005 -1.5824429283E-005  +9.7570633888E-001 +3.8424134254E-004 
9645178.974 +9.9165582657E-001 +3.8328766823E-004  +4.7381156037E-005 -3.9519545680E-006  -7.9213939898E-005 -6.3543502620E-006  +9.7611910105E-001 +6.8876147270E-004 
9770324.155 +9.9125218391E-001 +4.1022896767E-004  -8.5484840383E-005 -6.9584515586E-005  -8.0713398347E-005 -3.3589927625E-005  +9.7429132462E-001 +5.8907270432E-004 
9895469.337 +9.9115812778E-001 +6.0536861420E-003  +3.3487955079E-005 +1.9197135771E-005  -4.6947658120E-005 +9.1060661362E-005  +9.7529798746E-001 -8.1360340118E-005 
10020614.518 +9.9049961567E-001 +3.0943155289E-003  -5.5978929595E-005 -3.0818282539E-006  -7.6557153079E-005 +1.0193962225E-005  +9.7713482380E-001 +3.5562813282E-003 
10145759.700 +9.8945820332E-001 +1.5549659729E-003  +3.1416850106E-005 +1.0866137018E-005  +1.2049998622E-004 -7.1446353104E-005  +9.7805655003E-001 +3.4231841564E-003 
10270904.881 +9.9228286743E-001 -2.8049945831E-004  -5.1023198466E-005 -2.9197017284E-005  -2.4117251087E-005 +7.8292752733E-005  +9.7970378399E-001 +4.7401487827E-003 
10396050.063 +9.9185419083E-001 +1.1822581291E-003  -5.9949936258E-005 -5.5281961977E-005  +9.7320902569E-005 -3.5374057916E-005  +9.7823756933E-001 +5.2590370178E-003 
10521195.244 +9.9216437340E-001 +1.3334155083E-003  +1.0424852007E-005 -9.3734297479E-006  +1.2830546439E-005 +3.1893450796E-005  +9.8096930981E-001 +5.1841437817E-003 
10646340.426 +9.9163985252E-001 +1.6250610352E-003  +5.6539589423E-005 +6.1277372879E-005  +8.3777435066E-005 -6.5134372562E-007  +9.7958946228E-001 +5.9767961502E-003 
10771485.607 +9.9185299873E-001 +3.6688148975E-003  +4.5986518671E-005 -3.7906680518E-005  -6.5488238761E-005 -4.1792322008E-005  +9.8067259789E-001 +6.8766474724E-003 
10896630.788 +9.9135667086E-001 +4.8023760319E-003  +2.5419772101E-006 +6.1779669522E-006  +8.5072806542E-006 +4.0442610043E-006  +9.7939741611E-001 +8.6439549923E-003 
11021775.970 +9.9202597141E-001 +5.9635043144E-003  +5.7161640143E-005 -3.3619744499E-006  +8.5638312157E-005 +4.4485990657E-005  +9.7926944494E-001 +6.8884789944E-003 
11146921.151 +9.9266958237E-001 +3.0407607555E-003  -6.1613078287E-005 +7.8889068391E-005  -3.2562675187E-005 +1.7969006876E-005  +9.8239016533E-001 +6.9298744202E-003 
11272066.333 +9.9101233482E-001 +3.3740699291E-003  +7.4353898526E-005 +6.6341803176E-005  +2.7448424589E-005 +9.3598819149E-006  +9.7946918011E-001 +7.1846842766E-003 
11397211.514 +9.9203228951E-001 +5.0212144852E-003  -2.8456259315E-005 +2.9484339393E-005  -4.7789540076E-006 +1.7675654817E-005  +9.8125642538E-001 +7.8488588333E-003 
11522356.696 +9.9172347784E-001 +4.9243569374E-003  +1.3641845726E-005 +3.5878088966E-005  +6.4348350861E-006 +4.9081885663E-005  +9.8180484772E-001 +7.4152648449E-003 
11647501.877 +9.9080598354E-001 +4.1544139385E-003  +4.9216039770E-005 +6.1124392232E-006  +2.5394721888E-005 +5.6690543715E-005  +9.8135876656E-001 +7.1921944618E-003 
11772647.059 +9.9337005615E-001 +3.8917362690E-003  -1.9636790967E-005 +2.4073182431E-005  -1.2367780073E-005 -3.6981797166E-005  +9.8106151819E-001 +6.9044232368E-003 
11897792.240 +9.9210172892E-001 +4.2153298855E-003  +3.7363090087E-005 -1.5737365175E-005  -6.9379748311E-005 +2.6346018785E-005  +9.8245501518E-001 +7.5476467609E-003 
12022937.422 +9.9377822876E-001 +6.6125988960E-003  -2.5484380330E-006 -4.2221518015E-006  +3.6545035982E-005 -8.2235237642E-007  +9.8246920109E-001 +7.5358450413E-003 
12148082.603 +9.9364215136E-001 +6.5569579601E-003  -1.8442711735E-005 +3.7200359657E-005  -2.8543834560E-005 +1.9702749341E-005  +9.8412656784E-001 +9.8852515221E-003 
12273227.785 +9.9351537228E-001 +6.5553486347E-003  +1.5994828573E-005 +2.3778129616E-005  -3.1619376387E-005 -4.6726778237E-005  +9.8362129927E-001 +7.3657035828E-003 
12398372.966 +9.9388283491E-001 +6.3309669495E-003  +2.8277476304E-005 +1.4739105609E-005  +6.9969348260E-005 +4.2583385948E-005  +9.8534226418E-001 +7.5808465481E-003 
12523518.148 +9.9262237549E-001 +6.2403976917E-003  -1.9258754037E-005 -1.7596492398E-005  -4.2370167648E-005 -2.4994706109E-005  +9.8380488157E-001 +8.9418292046E-003 
12648663.329 +9.9431967735E-001 +6.7505836487E-003  +3.7117699776E-006 +2.6375386369E-005  +5.7901615946E-007 +7.3602306657E-005  +9.8422312737E-001 +8.2524120808E-003 
12773808.511 +9.9406290054E-001 +5.2311867476E-003  -3.3453346987E-005 -1.9846293071E-006  +7.8700886661E-006 +5.0408165407E-005  +9.8478299379E-001 +7.9107284546E-003 
12898953.692 +9.9453073740E-001 +5.6005492806E-003  +2.5126728360E-005 +4.2861258407E-005  +3.6387929867E-005 +2.7443322324E-005  +9.8492294550E-001 +7.5559690595E-003 
13024098.874 +9.9388360977E-001 +5.4594650865E-003  -3.6223176721E-005 +1.6873826098E-005  -3.1608655263E-005 +3.0930244975E-005  +9.8579424620E-001 +9.1991573572E-003 
13149244.055 +9.9440002441E-001 +6.5742358565E-003  +1.1791138604E-005 +8.8500109996E-006  -2.8225604183E-006 +5.2349361795E-005  +9.8566550016E-001 +8.8918432593E-003 
13274389.237 +9.9430000782E-001 +6.1571858823E-003  -6.7660380410E-006 -7.6368896771E-006  +5.2835216593E-006 +3.5564084101E-005  +9.8679286242E-001 +8.2454625517E-003 
13399534.418 +9.9480682611E-001 +6.7876204848E-003  -8.3413942775E-005 -5.7655533965E-006  +2.4978287456E-006 -1.7642897774E-006  +9.8588204384E-001 +9.1145113111E-003 
13524679.599 +9.9374735355E-001 +7.8816935420E-003  +3.6969577195E-005 +5.1783692470E-005  +3.6421100958E-005 -2.0482343643E-006  +9.8692584038E-001 +8.5743442178E-003 
13649824.781 +9.9513512850E-001 +6.8246871233E-003  +1.3177667824E-005 +2.9927306969E-005  -4.6770878726E-006 +6.7025001044E-005  +9.8721653223E-001 +8.4538459778E-003 
13774969.962 +9.9499809742E-001 +7.0946365595E-003  +2.6410671126E-005 +5.7324843510E-005  +2.3097414669E-005 +7.9011544585E-005  +9.8737215996E-001 +7.6055526733E-003 
13900115.144 +9.9428540468E-001 +6.4694583416E-003  -1.8691043806E-005 +7.5773227763E-006  -2.3598140615E-005 -4.1621615310E-006  +9.8665988445E-001 +9.1375410557E-003 
14025260.325 +9.9414801598E-001 +6.2441229820E-003  -1.3604665583E-005 +4.5176151616E-005  +3.7017540308E-005 +5.4750416894E-005  +9.8760247231E-001 +9.3767642975E-003 
14150405.507 +9.9432814121E-001 +6.2665045261E-003  +6.4183723225E-006 +8.7464104581E-006  +2.3710281312E-005 +5.6195662182E-005  +9.8746383190E-001 +9.6389353275E-003 
14275550.688 +9.9420648813E-001 +6.3040852547E-003  +1.9520479327E-005 +3.8765734644E-005  +1.3204281458E-005 +3.4886354115E-005  +9.8832863569E-001 +9.6264183521E-003 
14400695.870 +9.9308949709E-001 +6.5624713898E-003  +2.4350791136E-005 +1.7075930373E-005  +1.8512755560E-006 +1.5829211407E-005  +9.8746472597E-001 +9.9867582321E-003 
