!Keysight Technologies,N5227A,US51270248,A.10.65.08
!Date: Tuesday, June 11, 2024 06:04:39
!Correction: S11(Full 2 Port(1,4)) 
!S41(Full 2 Port(1,4)) 
!S14(Full 2 Port(1,4)) 
!S44(Full 2 Port(1,4)) 
!S2P File: Measurements: S11, S41, S14, S44:
# Hz S  dB   R 50
10000000 -54.880241 -173.68433 0.018523311 -0.018194897 0.010440547 -0.031547286 -57.286049 153.46782
30934375 -54.75042 -166.59831 0.017123783 -0.048566524 0.0079338057 -0.037149791 -62.15947 -141.42068
51868750 -54.369774 -157.90132 0.016122071 -0.072557688 0.0088002533 -0.058414292 -58.464687 -132.26738
72803125 -54.434502 -151.87732 0.014856866 -0.095431536 0.0094691254 -0.088524483 -57.28421 -135.2115
93737500 -54.2295 -146.46056 0.014340939 -0.12039086 0.0094367508 -0.12098892 -57.081932 -132.63469
114671875 -53.905128 -142.1817 0.014283085 -0.14681017 0.0094566364 -0.14782211 -56.347923 -126.42532
135606250 -53.269341 -137.33585 0.014273594 -0.17546655 0.0089638978 -0.17589299 -55.237305 -118.60602
156540625 -52.601826 -132.37444 0.013769747 -0.20353404 0.0086676823 -0.20203166 -53.81464 -115.67199
177475000 -52.039402 -129.9135 0.014110353 -0.22964644 0.008658913 -0.23348995 -53.224499 -114.48406
198409375 -51.822384 -126.04442 0.013409215 -0.25814822 0.0081819938 -0.26034698 -52.880001 -110.29317
219343750 -51.22694 -122.4453 0.013476109 -0.28368258 0.0081735803 -0.28864399 -52.351025 -108.19724
240278125 -50.300457 -126.33765 0.016125375 -0.31241608 0.0070383889 -0.31421819 -51.631813 -104.48744
261212500 -49.892841 -121.06301 0.015113038 -0.34175771 0.0076294034 -0.33617342 -50.404926 -105.50236
282146875 -49.328743 -118.02596 0.014626798 -0.36455294 0.0082797548 -0.370114 -49.885864 -106.3382
303081250 -48.8563 -117.22009 0.014564167 -0.39481676 0.0073454543 -0.3965176 -49.377018 -103.68174
324015625 -48.491936 -114.8933 0.014530737 -0.41850945 0.0071617216 -0.42175975 -48.784706 -102.65439
344950000 -48.0853 -113.79801 0.015061773 -0.44451231 0.0068906085 -0.4504188 -48.372932 -100.59072
365884375 -47.572323 -114.23548 0.01571491 -0.47582203 0.0069358875 -0.47473326 -47.858669 -99.830978
386818750 -47.196602 -111.66741 0.014315763 -0.50097984 0.0069646365 -0.49787977 -47.234188 -99.660378
407753125 -46.693127 -111.08862 0.014004126 -0.52723694 0.0076332008 -0.52479661 -46.653473 -100.33597
428687500 -46.290154 -109.627 0.013640082 -0.55318165 0.0067269043 -0.5538252 -46.310963 -99.814201
449621875 -45.863823 -108.35855 0.013722051 -0.57891864 0.0061842455 -0.5824253 -45.989822 -98.286514
470556250 -45.569172 -106.91462 0.013373851 -0.60738349 0.0061738831 -0.60675162 -45.546661 -97.316902
491490625 -45.176529 -105.41043 0.013193536 -0.63296419 0.0063668266 -0.6347627 -45.148495 -97.475601
512425000 -45.043552 -104.34179 0.01208973 -0.66281384 0.0059940345 -0.66469747 -44.937672 -97.020515
533359375 -44.652599 -103.58224 0.011925528 -0.68725067 0.0059556612 -0.68721324 -44.505711 -96.736671
554293750 -44.195148 -103.13282 0.011936255 -0.71258605 0.0064836498 -0.71632755 -44.124523 -97.326492
575228125 -43.924328 -102.87534 0.011746352 -0.74180144 0.0057969461 -0.74647582 -43.824703 -96.522865
596162500 -43.591274 -101.80006 0.011640242 -0.7673834 0.0052339034 -0.77067184 -43.39431 -96.088455
617096875 -43.257828 -101.49281 0.011749541 -0.79376543 0.0053876843 -0.79887742 -43.175045 -95.953491
638031250 -42.956795 -101.62297 0.011483542 -0.82220072 0.0048169415 -0.82608718 -42.900986 -95.818085
658965625 -42.748936 -101.05705 0.011221328 -0.84953457 0.0046454533 -0.85233164 -42.625248 -95.272026
679900000 -42.455837 -99.676758 0.010509149 -0.87733555 0.0040462231 -0.87589568 -42.200066 -95.006516
700834375 -42.109016 -99.428635 0.0091465497 -0.89746928 0.0043585827 -0.90046144 -41.906704 -95.98394
721768750 -41.848961 -99.995216 0.0093636755 -0.92488188 0.0039787367 -0.93374151 -41.773849 -96.509941
742703125 -41.722912 -99.442467 0.0085858069 -0.951994 0.0034170342 -0.95583731 -41.534069 -95.137436
763637500 -41.478477 -99.169479 0.009137094 -0.97987568 0.0030668224 -0.98036504 -41.191311 -94.447899
784571875 -41.252182 -99.51815 0.0095365783 -1.0082575 0.0032983732 -1.0062313 -40.883598 -95.011452
805506250 -40.967438 -99.831383 0.0093103843 -1.0302526 0.0031760384 -1.0349146 -40.718784 -95.311256
826440625 -40.768223 -99.611031 0.0089842258 -1.0571197 0.0023562158 -1.0614592 -40.533279 -95.337532
847375000 -40.621067 -99.628326 0.0085745687 -1.0830722 0.0017663289 -1.0830858 -40.300045 -95.175797
868309375 -40.368259 -99.112183 0.0078018187 -1.10244 0.0018640374 -1.1060948 -40.087986 -95.656776
889243750 -40.173424 -99.14267 0.0086614257 -1.1300476 0.0024402635 -1.1345707 -39.946518 -95.608437
910178125 -40.025429 -98.738403 0.0085469978 -1.1578684 0.0012221528 -1.1594962 -39.774384 -94.939934
931112500 -39.846905 -97.714714 0.0077758832 -1.1805196 0.0014890468 -1.1799845 -39.53643 -94.70002
952046875 -39.645557 -97.584633 0.0079654874 -1.2055079 0.0018328303 -1.2076832 -39.377121 -94.773155
972981250 -39.413555 -97.492859 0.0079232268 -1.2274162 0.0013222683 -1.2363213 -39.229168 -94.873642
993915625 -39.305824 -97.342949 0.0072740577 -1.2568964 0.00076568546 -1.2601568 -39.066715 -94.68988
1014850000 -39.092762 -96.702522 0.0070001879 -1.2831765 0.0010337704 -1.2865474 -38.851028 -94.277054
1035784375 -38.795296 -96.92865 0.0064395661 -1.302321 0.0011515572 -1.3095322 -38.599407 -94.711411
1056718750 -38.682377 -97.216248 0.0073041478 -1.3300809 0.00079082733 -1.3384011 -38.500782 -94.552231
1077653125 -38.556961 -96.374619 0.0070218584 -1.3560593 0.00029720776 -1.3622756 -38.361385 -93.610748
1098587500 -38.374722 -96.022301 0.0069384356 -1.3847076 0.00057403231 -1.384442 -38.138832 -93.380547
1119521875 -38.21307 -95.949768 0.0070799971 -1.4095591 0.00094878755 -1.4100287 -37.980671 -93.693535
1140456250 -38.028015 -95.694801 0.0069638481 -1.4320657 0.0010218413 -1.4361637 -37.830231 -93.7136
1161390625 -37.852875 -95.805122 0.0069580856 -1.4578935 0.00066994707 -1.4648234 -37.708744 -93.332039
1182325000 -37.740562 -95.594749 0.006784122 -1.4841893 0.00019081333 -1.4891733 -37.500095 -92.890427
1203259375 -37.583961 -95.387604 0.0071842312 -1.5130491 0.00068384939 -1.5127761 -37.285244 -92.618248
1224193750 -37.418972 -94.838837 0.0066379481 -1.5425327 0.00081717665 -1.5391227 -37.128311 -92.629669
1245128125 -37.248451 -94.888397 0.0067124376 -1.5659263 0.00086207991 -1.5659319 -36.998775 -92.545967
1266062500 -37.133457 -94.859482 0.0064968336 -1.5970107 0.00028291819 -1.5932691 -36.848312 -92.56517
1286996875 -36.938705 -94.583321 0.0051982594 -1.6192701 0.00057081273 -1.6193262 -36.709587 -92.974884
1307931250 -36.755203 -94.964813 0.0067652455 -1.6434335 0.00035800348 -1.6466594 -36.54644 -92.960762
1328865625 -36.645039 -94.568596 0.0055910228 -1.6742344 0.00050708401 -1.6710606 -36.389595 -92.774101
1349800000 -36.482132 -94.607124 0.0058512441 -1.6982126 0.00016432036 -1.6965355 -36.224545 -92.413994
1370734375 -36.354446 -94.4105 0.0056234756 -1.7283436 0.0011921488 -1.7240604 -36.044479 -92.593124
1391668750 -36.21537 -94.323891 0.0053122723 -1.750471 0.00084286538 -1.7526042 -35.969723 -92.801834
1412603125 -36.073002 -94.475388 0.0057231411 -1.7779353 0.00060795061 -1.7779263 -35.85228 -92.711678
1433537500 -35.919289 -94.407639 0.0047736065 -1.8034621 0.00017714841 -1.8064533 -35.700001 -92.732506
1454471875 -35.742641 -94.711624 0.0048701321 -1.8274293 -0.000164536 -1.8293138 -35.560505 -92.682335
1475406250 -35.61248 -94.749977 0.005083892 -1.8551447 5.693857e-005 -1.8549771 -35.377468 -92.570831
1496340625 -35.491669 -94.36631 0.0039439122 -1.8825773 -6.6671841e-005 -1.8824542 -35.271385 -92.487679
1517275000 -35.353546 -94.469543 0.0039367639 -1.9048069 -0.00071105821 -1.908687 -35.160385 -92.228706
1538209375 -35.268326 -94.470978 0.0040783696 -1.9350157 -0.00087785453 -1.934258 -35.057655 -92.397537
1559143750 -35.122688 -94.520264 0.0041337847 -1.9561325 -0.0012180798 -1.9616188 -34.965427 -92.325005
1580078125 -34.992378 -94.644836 0.0041394471 -1.9818573 -0.0012185107 -1.986326 -34.813213 -92.240273
1601012500 -34.889179 -94.657822 0.0036912523 -2.0096385 -0.0015744623 -2.0142148 -34.68544 -92.258438
1621946875 -34.765606 -94.82888 0.0038431524 -2.037514 -0.0016855358 -2.0390983 -34.552036 -91.896477
1642881250 -34.681007 -94.643372 0.003773483 -2.06758 -0.0011288754 -2.0642242 -34.414444 -91.98745
1663815625 -34.571472 -94.648819 0.0033067719 -2.0925744 -0.0015180141 -2.0915401 -34.333176 -91.89444
1684750000 -34.464867 -94.516518 0.0033182232 -2.1188776 -0.0022345274 -2.1179776 -34.214493 -92.005608
1705684375 -34.306244 -94.67907 0.0030050816 -2.1425083 -0.0023756465 -2.1458638 -34.103867 -92.177177
1726618750 -34.205635 -94.937401 0.003825417 -2.1697311 -0.0029735737 -2.1712818 -33.987324 -92.095451
1747553125 -34.121948 -94.694756 0.0028433879 -2.2016697 -0.0028551042 -2.1971493 -33.869919 -92.127953
1768487500 -34.011288 -94.642212 0.0018800946 -2.2269628 -0.0032539153 -2.2213008 -33.761303 -91.931168
1789421875 -33.897911 -94.757286 0.0015065378 -2.2508986 -0.003440182 -2.2508643 -33.663967 -92.058121
1810356250 -33.820812 -94.832237 0.0013625079 -2.2760544 -0.0039360924 -2.2770939 -33.567467 -92.132774
1831290625 -33.730179 -94.857979 0.0014205676 -2.3020499 -0.0040681511 -2.3028529 -33.500809 -92.194252
1852225000 -33.636162 -94.686394 0.0006224885 -2.3311565 -0.0045133661 -2.3273125 -33.397545 -91.995651
1873159375 -33.507732 -94.659508 -0.00036195095 -2.3580425 -0.0049513937 -2.3543422 -33.280609 -92.144989
1894093750 -33.385208 -94.76712 -0.00046845121 -2.3794832 -0.0051794234 -2.3778639 -33.193127 -92.029625
1915028125 -33.297195 -94.818451 -0.00060001732 -2.4094119 -0.0048766397 -2.4024444 -33.052681 -91.910202
1935962500 -33.203876 -94.935524 -0.00054332975 -2.4313598 -0.005703426 -2.432292 -32.982544 -92.169479
1956896875 -33.15667 -94.890686 -0.00023425354 -2.4643388 -0.0064234002 -2.4577322 -32.934044 -92.00692
1977831250 -33.02713 -94.452156 -0.0022724904 -2.4861104 -0.0064884564 -2.4805439 -32.823406 -91.957626
1998765625 -32.90202 -94.75193 -0.0015332022 -2.5037115 -0.006769761 -2.5047143 -32.722301 -91.841698
2019700000 -32.823341 -94.780396 -0.00098864408 -2.5342281 -0.0068143005 -2.5321026 -32.602928 -92.007019
2040634375 -32.745029 -94.815765 -0.0013485176 -2.5646865 -0.0068329158 -2.5593507 -32.534939 -92.215012
2061568750 -32.670433 -94.695702 -0.0015057531 -2.5890467 -0.0068527819 -2.5822632 -32.445442 -92.224388
2082503125 -32.582153 -94.631104 -0.0026916685 -2.6147258 -0.0071272249 -2.6099463 -32.344326 -92.200676
2103437500 -32.50351 -94.621292 -0.0031737406 -2.639185 -0.0070866919 -2.6344612 -32.258747 -92.107819
2124371875 -32.423691 -94.714989 -0.0028816138 -2.6643245 -0.0077776746 -2.6620469 -32.149265 -92.101501
2145306250 -32.346218 -94.612656 -0.0039051336 -2.6910863 -0.0083408728 -2.6881459 -32.070225 -92.302124
2166240625 -32.253788 -94.858696 -0.0033869715 -2.7153053 -0.0085134394 -2.712697 -32.007751 -92.336548
2187175000 -32.19389 -94.922737 -0.0034997137 -2.743042 -0.0081139943 -2.7389288 -31.917032 -92.323029
2208109375 -32.115036 -94.994209 -0.0032385222 -2.7681787 -0.0087196091 -2.7669499 -31.813509 -92.413963
2229043750 -32.056736 -95.024063 -0.0036616439 -2.7973831 -0.0090267323 -2.7946482 -31.734484 -92.728477
2249978125 -31.971195 -95.070511 -0.0048915516 -2.8210442 -0.010061431 -2.8195717 -31.67568 -92.742973
2270912500 -31.900528 -95.191589 -0.005117286 -2.8450179 -0.010522982 -2.843977 -31.614071 -92.741119
2291846875 -31.81362 -95.023575 -0.0062231864 -2.8703077 -0.01072221 -2.8663638 -31.54328 -92.685692
2312781250 -31.73707 -95.272408 -0.0058214995 -2.8939846 -0.010476737 -2.8902621 -31.459833 -92.942497
2333715625 -31.670959 -95.085098 -0.0066889971 -2.9242697 -0.011833909 -2.9170799 -31.408638 -93.067818
2354650000 -31.588463 -95.164726 -0.0080657424 -2.9491875 -0.012058693 -2.9433696 -31.324259 -93.143494
2375584375 -31.518002 -95.171585 -0.0086193066 -2.9688029 -0.01262496 -2.9662075 -31.274576 -93.253639
2396518750 -31.44622 -95.119408 -0.0091670165 -2.9915922 -0.0131449 -2.9869909 -31.202997 -93.044334
2417453125 -31.382692 -95.013618 -0.0094476789 -3.013926 -0.01354348 -3.0123744 -31.131483 -93.113068
2438387500 -31.314756 -95.10112 -0.0089252293 -3.0390923 -0.013772767 -3.0362604 -31.099287 -93.129379
2459321875 -31.265013 -95.17852 -0.0081314873 -3.0642939 -0.01375572 -3.0565233 -31.019079 -92.985359
2480256250 -31.18553 -95.337608 -0.0072093792 -3.087415 -0.013576059 -3.0839193 -30.926615 -93.119247
2501190625 -31.133341 -95.233673 -0.0077458452 -3.1169865 -0.013797739 -3.1085603 -30.852766 -93.168732
2522125000 -31.051899 -95.045853 -0.0090820771 -3.1369359 -0.014254441 -3.1343527 -30.799021 -93.230927
2543059375 -30.985523 -95.155266 -0.0081767216 -3.1566997 -0.013908365 -3.1545806 -30.751387 -93.077942
2563993750 -30.941267 -95.051796 -0.0081411777 -3.1828792 -0.013747328 -3.1792898 -30.673014 -93.014191
2584928125 -30.887491 -94.964783 -0.0080198841 -3.2071481 -0.014117613 -3.2048461 -30.6252 -93.032082
2605862500 -30.825623 -94.712479 -0.0090279235 -3.2330673 -0.014010004 -3.2283282 -30.557684 -92.989769
2626796875 -30.752831 -94.686577 -0.0084975241 -3.2606397 -0.012909328 -3.2574911 -30.464245 -93.274399
2647731250 -30.683249 -94.613838 -0.0092190308 -3.2887714 -0.014081518 -3.2852459 -30.400517 -93.370003
2668665625 -30.598913 -94.546379 -0.010031326 -3.3136685 -0.014541425 -3.3103161 -30.359343 -93.396088
2689600000 -30.529234 -94.585381 -0.0099298246 -3.3312192 -0.01531996 -3.3313005 -30.30554 -93.070526
2710534375 -30.471416 -94.762207 -0.0088555608 -3.3545086 -0.014608554 -3.3557847 -30.219738 -93.166641
2731468750 -30.436754 -94.651299 -0.00907858 -3.3927584 -0.014883025 -3.384222 -30.160469 -93.37468
2752403125 -30.357647 -94.309349 -0.011110655 -3.4198866 -0.015741728 -3.4106162 -30.100874 -93.482216
2773337500 -30.258104 -94.374977 -0.011090001 -3.438966 -0.016035045 -3.4336281 -30.04529 -93.347473
2794271875 -30.184019 -94.42305 -0.010977367 -3.4628191 -0.015236306 -3.4606125 -29.963865 -93.428024
2815206250 -30.115479 -94.448807 -0.010993816 -3.4887819 -0.015922925 -3.4890375 -29.909075 -93.61235
2836140625 -30.056351 -94.360954 -0.012266652 -3.5129371 -0.016533526 -3.5084915 -29.867989 -93.529305
2857075000 -30.007259 -94.339035 -0.011737747 -3.5381444 -0.016366933 -3.5328164 -29.800386 -93.515465
2878009375 -29.960718 -94.191864 -0.012785023 -3.5683217 -0.01628671 -3.5578458 -29.736507 -93.570602
2898943750 -29.872875 -94.061676 -0.013426477 -3.5892131 -0.016437411 -3.5867863 -29.642941 -93.585709
2919878125 -29.797024 -94.098755 -0.013465816 -3.6116145 -0.017078266 -3.6127262 -29.592085 -93.729988
2940812500 -29.73056 -94.150627 -0.013458979 -3.633925 -0.017655717 -3.6352518 -29.549368 -93.627357
2961746875 -29.675714 -94.203217 -0.012881417 -3.6614847 -0.017332949 -3.6583278 -29.484091 -93.646301
2982681250 -29.617691 -94.148926 -0.013202132 -3.6826706 -0.017428039 -3.6815872 -29.427279 -93.613403
3003615625 -29.577639 -93.879204 -0.014590273 -3.7120354 -0.01716941 -3.7117076 -29.349411 -93.758507
3024550000 -29.504025 -93.793938 -0.014948139 -3.7317131 -0.017774036 -3.7370441 -29.300388 -93.864037
3045484375 -29.431553 -93.701469 -0.013617198 -3.7543015 -0.017638043 -3.7589571 -29.249016 -93.753448
3066418750 -29.370045 -93.814529 -0.013363282 -3.7874634 -0.017708315 -3.7889476 -29.169071 -93.761734
3087353125 -29.29966 -93.748055 -0.014204653 -3.8117745 -0.018098712 -3.8147602 -29.121897 -93.836571
3108287500 -29.224844 -93.701523 -0.015564108 -3.8310471 -0.01854752 -3.8373706 -29.074165 -93.971489
3129221875 -29.157419 -93.874695 -0.014167464 -3.8487744 -0.019209463 -3.8622506 -29.020199 -94.033737
3150156250 -29.121758 -93.853912 -0.013337263 -3.8839986 -0.018844308 -3.8888941 -28.946623 -94.045494
3171090625 -29.067299 -93.726463 -0.014624814 -3.9186773 -0.01930161 -3.9168861 -28.882601 -94.064194
3192025000 -28.983984 -93.606026 -0.01619927 -3.9393172 -0.019712687 -3.9406464 -28.830667 -94.081329
3212959375 -28.905519 -93.720467 -0.015320102 -3.9570096 -0.020095997 -3.9641886 -28.782898 -94.086113
3233893750 -28.843313 -93.839104 -0.01512084 -3.9835567 -0.020499535 -3.9938972 -28.718435 -94.076332
3254828125 -28.780466 -93.899536 -0.015293855 -4.0052743 -0.02146811 -4.0187502 -28.672276 -94.401062
3275762500 -28.750633 -93.870094 -0.014425102 -4.0415998 -0.022030042 -4.0378056 -28.631807 -94.310196
3296696875 -28.674587 -93.716873 -0.016439704 -4.0682735 -0.020730654 -4.0656857 -28.541021 -94.334961
3317631250 -28.603788 -93.735527 -0.016517479 -4.0894122 -0.020293498 -4.0903435 -28.478676 -94.362427
3338565625 -28.534271 -93.626144 -0.017877661 -4.1142716 -0.020583574 -4.1232033 -28.406466 -94.286324
3359500000 -28.470678 -93.768288 -0.016354458 -4.138701 -0.022104297 -4.1490951 -28.371946 -94.528061
3380434375 -28.427649 -93.70652 -0.016918231 -4.1741071 -0.022111123 -4.1658077 -28.34 -94.543259
3401368750 -28.359182 -93.695015 -0.019011794 -4.195786 -0.022271901 -4.1953526 -28.265699 -94.697319
3422303125 -28.294939 -93.730209 -0.019008821 -4.2104359 -0.02337933 -4.2173076 -28.219883 -94.695267
3443237500 -28.253477 -93.819565 -0.018446261 -4.2371235 -0.022281954 -4.2412333 -28.144136 -94.579399
3464171875 -28.205692 -93.833321 -0.019094426 -4.2736621 -0.022342499 -4.2743301 -28.073889 -94.74691
3485106250 -28.153826 -93.719742 -0.020728009 -4.29637 -0.023532202 -4.303473 -28.04295 -94.859222
3506040625 -28.077589 -93.643311 -0.021861032 -4.3133373 -0.026114104 -4.3239746 -28.014685 -94.897079
3526975000 -28.013668 -93.875862 -0.020692343 -4.3273101 -0.025924517 -4.3366342 -27.985188 -94.956291
3547909375 -27.979639 -93.9645 -0.020180305 -4.362412 -0.024000175 -4.3648334 -27.906767 -94.992287
3568843750 -27.91968 -93.991997 -0.020941272 -4.3820748 -0.025513891 -4.3985 -27.826311 -95.1381
3589778125 -27.88451 -94.172531 -0.019627923 -4.4079576 -0.027662935 -4.4184632 -27.801079 -95.068001
3610712500 -27.840754 -93.930359 -0.02207307 -4.4444399 -0.02641809 -4.4389086 -27.752649 -94.932106
3631646875 -27.774366 -93.947929 -0.023230808 -4.4556189 -0.027418345 -4.471971 -27.709723 -95.047981
3652581250 -27.717638 -93.977402 -0.022900276 -4.4715381 -0.02852389 -4.4849129 -27.687946 -95.195869
3673515625 -27.672586 -94.13311 -0.020824119 -4.4980655 -0.027604252 -4.5048108 -27.655272 -95.069496
3694450000 -27.632372 -94.234535 -0.019648664 -4.5391741 -0.026610559 -4.5356922 -27.569799 -95.069695
3715384375 -27.583849 -94.224495 -0.022178236 -4.5685859 -0.026684996 -4.5635085 -27.497425 -95.093506
3736318750 -27.516315 -94.339775 -0.022255668 -4.5789461 -0.028261738 -4.5978594 -27.434874 -95.097015
3757253125 -27.471367 -94.249306 -0.022294544 -4.6071372 -0.030334447 -4.6104445 -27.427979 -95.13456
3778187500 -27.416014 -94.221703 -0.023501119 -4.632565 -0.029333532 -4.6284609 -27.386377 -94.878838
3799121875 -27.367628 -94.337212 -0.022879362 -4.6492743 -0.029128287 -4.6577883 -27.331059 -95.106926
3820056250 -27.337372 -94.28537 -0.022544041 -4.6904001 -0.029348878 -4.6765599 -27.285402 -94.991531
3840990625 -27.273335 -94.29921 -0.025475759 -4.7052374 -0.028126163 -4.7145672 -27.199362 -95.162949
3861925000 -27.225773 -94.438263 -0.02401457 -4.7252278 -0.031257682 -4.7346392 -27.159662 -95.287216
3882859375 -27.192972 -94.418587 -0.024436017 -4.7574615 -0.029972617 -4.7491889 -27.121904 -95.081398
3903793750 -27.148336 -94.377563 -0.025547218 -4.7792253 -0.030237561 -4.7813563 -27.070162 -94.96212
3924728125 -27.098185 -94.204521 -0.026867054 -4.8010163 -0.031294111 -4.8078671 -27.030825 -94.914124
3945662500 -27.030027 -94.326439 -0.026101196 -4.8137937 -0.031345963 -4.8328514 -26.980461 -95.088814
3966596875 -27.002342 -94.451881 -0.024541393 -4.8481755 -0.031949461 -4.8560548 -26.935499 -95.174858
