!Keysight Technologies,N5227A,US51270248,A.10.65.08
!Date: Tuesday, June 11, 2024 08:09:41
!Correction: S11(Full 2 Port(1,4)) 
!S41(Full 2 Port(1,4)) 
!S14(Full 2 Port(1,4)) 
!S44(Full 2 Port(1,4)) 
!S2P File: Measurements: S11, S41, S14, S44:
# Hz S  dB   R 50
10000000 -0.48980248 179.55496 -58.631973 0.71393716 -69.067505 15.22597 -0.15131503 -0.33793989
30934375 -0.51739734 179.64412 -59.364517 20.351341 -69.468414 92.538292 -0.0044849603 -0.97850442
51868750 -0.51184285 179.48799 -58.722431 31.980497 -65.214539 92.14257 -0.0044699349 -1.5865444
72803125 -0.50699359 179.27284 -57.769257 42.37394 -62.184834 93.859276 -0.0024114735 -2.2672262
93737500 -0.50726712 179.05505 -56.768635 50.927105 -59.861168 95.236015 -0.0086724516 -2.918047
114671875 -0.50678778 178.84627 -55.806442 57.829533 -57.993896 96.423378 -0.016217969 -3.5570889
135606250 -0.51059705 178.67775 -54.876293 63.782177 -56.461609 97.926605 -0.021454316 -4.1900616
156540625 -0.52061516 178.53256 -53.806164 68.397636 -55.277805 99.20755 -0.023720535 -4.8374858
177475000 -0.51514399 178.33966 -52.878559 72.363014 -53.869267 100.17088 -0.027604867 -5.4711366
198409375 -0.51787049 178.11395 -51.954338 76.097832 -52.22086 99.92099 -0.031113544 -6.0836363
219343750 -0.52188337 177.90887 -51.12318 79.196297 -50.933689 100.10544 -0.035499103 -6.7090325
240278125 -0.52315933 177.73509 -50.404919 81.842438 -50.185661 101.31409 -0.043359015 -7.3480873
261212500 -0.5229274 177.56606 -49.618237 84.207283 -49.426094 102.27547 -0.051247369 -7.9829116
282146875 -0.5244714 177.3876 -48.976067 86.824577 -48.69228 103.08035 -0.056175333 -8.6188555
303081250 -0.52891171 177.21297 -48.320724 88.679268 -48.009468 103.99881 -0.061236102 -9.2519341
324015625 -0.53029382 177.04509 -47.740753 90.540619 -47.436314 104.48859 -0.06757348 -9.8642817
344950000 -0.53279179 176.84474 -47.13176 92.453423 -46.802177 105.63054 -0.07326328 -10.46339
365884375 -0.53940922 176.65981 -46.612099 94.177132 -46.209362 106.44276 -0.07900098 -11.07653
386818750 -0.53763026 176.49327 -45.946568 95.404671 -45.640602 107.11826 -0.087761015 -11.708091
407753125 -0.53328723 176.32651 -45.445686 96.894714 -45.105534 107.77714 -0.098141223 -12.323566
428687500 -0.53354055 176.14154 -44.98597 98.365364 -44.57119 108.41196 -0.10114496 -12.936335
449621875 -0.53590137 175.95108 -44.514629 99.545311 -44.079575 109.02056 -0.10758723 -13.563415
470556250 -0.54171664 175.77107 -44.054085 100.68923 -43.554844 109.38042 -0.11581608 -14.163559
491490625 -0.54183489 175.58353 -43.554752 101.84893 -43.113274 110.25246 -0.1231906 -14.757324
512425000 -0.5408867 175.39432 -43.123123 102.77423 -42.66927 110.93737 -0.13082409 -15.362618
533359375 -0.54188544 175.21542 -42.709145 103.69984 -42.230183 111.35416 -0.13950579 -15.982056
554293750 -0.54241008 175.04996 -42.265846 104.8962 -41.798443 111.95358 -0.1497037 -16.592442
575228125 -0.54434884 174.87392 -41.835167 105.56207 -41.339275 112.23837 -0.15675753 -17.190908
596162500 -0.5462628 174.68433 -41.457539 106.37024 -40.955223 112.7302 -0.16315013 -17.789366
617096875 -0.54875058 174.49521 -41.047318 107.1871 -40.580265 113.22581 -0.1716239 -18.392967
638031250 -0.54942489 174.31784 -40.666096 107.80559 -40.218102 113.72488 -0.18326926 -18.990669
658965625 -0.54981458 174.14403 -40.254295 108.27813 -39.838589 114.22458 -0.19301142 -19.582062
679900000 -0.55840218 173.96837 -39.834248 108.48933 -39.464867 114.49959 -0.20146874 -20.183197
700834375 -0.55697805 173.79675 -39.528828 109.78297 -39.13607 115.02761 -0.21139398 -20.782631
721768750 -0.55647314 173.61749 -39.155293 110.35398 -38.764816 115.48455 -0.22221576 -21.367464
742703125 -0.55584359 173.42838 -38.812626 110.92549 -38.397293 115.7975 -0.23131561 -21.936041
763637500 -0.55648893 173.24657 -38.475121 111.27686 -38.067612 116.01638 -0.23827536 -22.525953
784571875 -0.55789274 173.07391 -38.154552 111.66292 -37.761753 116.26182 -0.24843597 -23.117268
805506250 -0.55777282 172.90353 -37.829876 112.45009 -37.470749 116.92098 -0.25799099 -23.696903
826440625 -0.55910987 172.72742 -37.37746 112.44838 -37.085705 117.3121 -0.26708588 -24.285566
847375000 -0.56144583 172.54132 -37.123791 113.1421 -36.742912 117.36441 -0.2788665 -24.865244
868309375 -0.56015188 172.35683 -36.798409 113.66864 -36.454807 117.55491 -0.29151085 -25.427341
889243750 -0.56044608 172.16499 -36.475922 113.77251 -36.145023 117.71223 -0.30110815 -25.990503
910178125 -0.56300151 171.98364 -36.152889 113.64536 -35.848244 117.94669 -0.30981827 -26.571606
931112500 -0.56548953 171.82083 -35.871769 114.11184 -35.567177 117.99514 -0.31974101 -27.143871
952046875 -0.56747222 171.64609 -35.616409 114.77879 -35.285202 118.32206 -0.32896894 -27.710922
972981250 -0.56822968 171.45325 -35.29166 115.06261 -34.992935 118.5144 -0.34004688 -28.279404
993915625 -0.57118809 171.26401 -35.043953 115.29115 -34.702358 118.6289 -0.35239506 -28.845997
1014850000 -0.57114476 171.08995 -34.799122 115.78172 -34.429623 118.69011 -0.3637526 -29.409611
1035784375 -0.57123476 170.91399 -34.476997 115.93388 -34.176319 118.77575 -0.37487295 -29.974949
1056718750 -0.5718624 170.73366 -34.20966 115.97669 -33.899307 118.94974 -0.38491428 -30.540434
1077653125 -0.57826865 170.55902 -33.9506 116.2377 -33.628834 119.07931 -0.39487267 -31.098879
1098587500 -0.58122993 170.3877 -33.713387 116.54423 -33.369129 118.97343 -0.40431222 -31.639206
1119521875 -0.58110732 170.20155 -33.44614 116.54931 -33.12495 119.07136 -0.41597906 -32.188366
1140456250 -0.58201092 170.00478 -33.17141 116.61312 -32.887493 119.20532 -0.42866272 -32.739033
1161390625 -0.58176535 169.82944 -32.936581 116.83477 -32.62759 119.20786 -0.4404496 -33.287521
1182325000 -0.58271307 169.66005 -32.703968 117.02553 -32.36327 119.08793 -0.44969049 -33.840664
1203259375 -0.58318752 169.48422 -32.470566 117.14504 -32.130543 118.95383 -0.45873347 -34.394131
1224193750 -0.58624732 169.30269 -32.237801 117.10008 -31.908781 118.945 -0.46835291 -34.941685
1245128125 -0.58912045 169.11607 -32.001587 117.26318 -31.689903 118.97699 -0.48121801 -35.46851
1266062500 -0.58932561 168.9305 -31.808008 117.27789 -31.478106 119.07248 -0.4936195 -36.005836
1286996875 -0.58936 168.74194 -31.565699 117.51855 -31.259829 119.0901 -0.50625277 -36.552113
1307931250 -0.58739543 168.56055 -31.334641 117.47464 -31.039072 119.0265 -0.51842588 -37.097271
1328865625 -0.58978766 168.39056 -31.140369 117.51644 -30.825527 118.99119 -0.5292846 -37.636673
1349800000 -0.59364426 168.2233 -30.917049 117.6125 -30.621401 118.9125 -0.53832483 -38.164398
1370734375 -0.59477502 168.03389 -30.728111 117.61277 -30.431591 118.90168 -0.54977661 -38.690632
1391668750 -0.59648687 167.83687 -30.502934 117.58968 -30.228031 119.02038 -0.56272882 -39.213089
1412603125 -0.59665704 167.64806 -30.306114 117.7338 -30.008339 118.8438 -0.57595414 -39.732758
1433537500 -0.60013419 167.4718 -30.100521 117.80037 -29.809343 118.78278 -0.58798087 -40.268272
1454471875 -0.59986824 167.29866 -29.881639 117.82805 -29.586903 118.48597 -0.59954953 -40.802502
1475406250 -0.60315526 167.13016 -29.688734 117.64358 -29.420626 118.49597 -0.61065423 -41.323391
1496340625 -0.60770547 166.9552 -29.507744 117.70435 -29.234026 118.50792 -0.62109059 -41.830635
1517275000 -0.60831809 166.765 -29.305029 117.76559 -29.046045 118.55267 -0.63284868 -42.327675
1538209375 -0.61086267 166.56119 -29.108328 117.36537 -28.857042 118.48372 -0.64539719 -42.840206
1559143750 -0.61162913 166.37219 -28.919668 117.66511 -28.664217 118.38633 -0.65793979 -43.35355
1580078125 -0.61451936 166.19981 -28.725195 117.47504 -28.49575 118.29111 -0.66851097 -43.87719
1601012500 -0.61838818 166.03346 -28.551792 117.42315 -28.309927 118.20615 -0.67848921 -44.401516
1621946875 -0.6209988 165.85744 -28.372099 117.27337 -28.135933 118.07281 -0.69123799 -44.9058
1642881250 -0.62300992 165.66855 -28.21102 117.1227 -27.972118 117.94665 -0.70378041 -45.385086
1663815625 -0.62437057 165.4771 -28.033812 117.23211 -27.795795 117.84232 -0.71528387 -45.871372
1684750000 -0.62689972 165.28352 -27.852781 117.02292 -27.625935 117.73476 -0.72729689 -46.375618
1705684375 -0.62947696 165.1076 -27.676481 117.01662 -27.460644 117.62974 -0.73991901 -46.890396
1726618750 -0.63068318 164.94649 -27.506908 116.66877 -27.302269 117.53873 -0.75206727 -47.391254
1747553125 -0.63350195 164.7827 -27.365076 116.58608 -27.137091 117.36993 -0.76371413 -47.880024
1768487500 -0.63685143 164.60312 -27.196383 116.60458 -26.982767 117.24422 -0.77568859 -48.360321
1789421875 -0.63877046 164.41687 -27.025631 116.47374 -26.828304 117.16154 -0.78862661 -48.830063
1810356250 -0.64122111 164.2403 -26.875917 116.4657 -26.670603 117.05835 -0.80107421 -49.316212
1831290625 -0.64220577 164.0683 -26.719017 116.39233 -26.508776 117.00778 -0.81269336 -49.807144
1852225000 -0.64460337 163.90813 -26.573137 116.25263 -26.346584 116.76127 -0.82435513 -50.300343
1873159375 -0.64727747 163.74997 -26.417196 116.3288 -26.198374 116.69975 -0.83577031 -50.776539
1894093750 -0.64875168 163.58018 -26.243919 116.09987 -26.03492 116.50183 -0.84773594 -51.245491
1915028125 -0.65357584 163.39165 -26.100651 116.00993 -25.902863 116.12442 -0.86087066 -51.716324
1935962500 -0.65571904 163.20523 -25.947805 115.78233 -25.765167 116.31926 -0.87313324 -52.182545
1956896875 -0.65881819 163.0356 -25.827002 115.63529 -25.601458 116.05526 -0.88373554 -52.654148
1977831250 -0.66011131 162.8822 -25.670891 115.77027 -25.461966 115.85161 -0.89275187 -53.134518
1998765625 -0.66422623 162.72458 -25.515732 115.53045 -25.333954 115.64277 -0.90359336 -53.610779
2019700000 -0.66436237 162.55547 -25.389751 115.40376 -25.213009 115.54234 -0.9154433 -54.068356
2040634375 -0.6655032 162.37726 -25.255663 115.20352 -25.067867 115.5062 -0.92671442 -54.521141
2061568750 -0.66587889 162.19255 -25.124144 115.21846 -24.929647 115.31269 -0.93857718 -54.978798
2082503125 -0.66568285 162.01198 -24.988192 115.11419 -24.804096 115.17588 -0.95021182 -55.448776
2103437500 -0.66962403 161.84753 -24.8465 115.01569 -24.671606 115.00124 -0.96014726 -55.910149
2124371875 -0.66652995 161.68558 -24.70562 114.67903 -24.55089 114.96165 -0.96906298 -56.372612
2145306250 -0.66582561 161.50932 -24.573298 114.56679 -24.411943 114.85268 -0.98078722 -56.820763
2166240625 -0.66515505 161.31392 -24.444847 114.49364 -24.279682 114.64845 -0.99422222 -57.257584
2187175000 -0.66696954 161.12262 -24.322027 114.42729 -24.157043 114.51099 -1.0057302 -57.697117
2208109375 -0.66347027 160.9422 -24.178083 114.19942 -24.039051 114.37737 -1.0172089 -58.150818
2229043750 -0.66163856 160.75526 -24.059843 114.23724 -23.902107 114.11575 -1.029392 -58.613148
2249978125 -0.66412312 160.56941 -23.924494 114.09656 -23.758738 113.7176 -1.0410066 -59.055798
2270912500 -0.66784561 160.38896 -23.800493 113.9125 -23.635384 113.68606 -1.0506686 -59.489151
2291846875 -0.67133844 160.20738 -23.673674 113.65253 -23.516815 113.45014 -1.0616879 -59.923347
2312781250 -0.67086786 160.01546 -23.559717 113.58653 -23.414442 113.3628 -1.0750368 -60.355793
2333715625 -0.67314786 159.82233 -23.457077 113.51902 -23.29542 113.33537 -1.0866858 -60.800678
2354650000 -0.67527896 159.65511 -23.333174 113.46906 -23.181295 113.1551 -1.0976307 -61.247993
2375584375 -0.67678869 159.49028 -23.204302 113.39824 -23.055819 113.10837 -1.1078372 -61.692337
2396518750 -0.6790055 159.31104 -23.076996 113.25458 -22.933235 112.89858 -1.1170239 -62.115776
2417453125 -0.68192059 159.12709 -22.957306 113.17205 -22.823196 112.83049 -1.1267663 -62.52916
2438387500 -0.6848129 158.9334 -22.83378 112.97581 -22.687149 112.7339 -1.13752 -62.948746
2459321875 -0.68574178 158.73006 -22.717266 112.75745 -22.577032 112.42181 -1.1486499 -63.375763
2480256250 -0.68768507 158.54706 -22.601589 112.65781 -22.47562 112.30998 -1.1589797 -63.812012
2501190625 -0.68931371 158.37967 -22.493816 112.49297 -22.369719 112.16744 -1.1678827 -64.24968
2522125000 -0.69116592 158.20441 -22.367613 112.42112 -22.246799 112.05511 -1.1778357 -64.667587
2543059375 -0.69446701 158.01183 -22.247425 112.0995 -22.121313 111.82851 -1.1861898 -65.069885
2563993750 -0.69742465 157.81995 -22.142612 111.99686 -22.023874 111.59972 -1.196082 -65.471565
2584928125 -0.69813359 157.62672 -22.031923 111.85003 -21.911432 111.48615 -1.2073406 -65.891914
2605862500 -0.69893521 157.43239 -21.923231 111.58467 -21.810865 111.21873 -1.2191801 -66.318741
2626796875 -0.69871873 157.24768 -21.816925 111.43873 -21.71661 111.10278 -1.2293812 -66.744125
2647731250 -0.70281416 157.07405 -21.717594 111.26411 -21.608961 111.00774 -1.2376164 -67.167099
2668665625 -0.70541883 156.8967 -21.60536 111.19344 -21.493526 110.84242 -1.2474763 -67.57151
2689600000 -0.70906836 156.69975 -21.49613 110.99078 -21.38505 110.52139 -1.2578706 -67.960663
2710534375 -0.71171182 156.50099 -21.393665 110.67754 -21.3064 110.35427 -1.2687869 -68.357452
2731468750 -0.71434516 156.31775 -21.308147 110.57318 -21.208595 110.23427 -1.2794788 -68.77523
2752403125 -0.71667141 156.14244 -21.202335 110.43962 -21.100784 110.17708 -1.28942 -69.193985
2773337500 -0.71990603 155.96843 -21.09379 110.35362 -20.991045 109.85738 -1.2987435 -69.60965
2794271875 -0.72389746 155.79979 -20.989914 110.11604 -20.91378 109.71696 -1.3075433 -70.017929
2815206250 -0.72790605 155.62787 -20.892719 109.96803 -20.807272 109.67481 -1.3184042 -70.404816
2836140625 -0.73034805 155.43166 -20.790417 109.79995 -20.69265 109.43605 -1.3285267 -70.782715
2857075000 -0.73533672 155.2382 -20.689875 109.56541 -20.604158 109.24995 -1.3381191 -71.180122
2878009375 -0.73624712 155.06953 -20.59894 109.48503 -20.504282 109.02251 -1.3473368 -71.601479
2898943750 -0.73697102 154.90681 -20.494104 109.29385 -20.428797 108.84472 -1.3573347 -72.008636
2919878125 -0.73927236 154.72418 -20.393715 109.12829 -20.321348 108.73901 -1.3668996 -72.394577
2940812500 -0.74628925 154.52966 -20.298923 108.97204 -20.212538 108.41122 -1.3757511 -72.769005
2961746875 -0.74943662 154.34239 -20.200981 108.64923 -20.120255 108.25688 -1.3847988 -73.145538
2982681250 -0.74966484 154.14993 -20.107038 108.58572 -20.027483 107.90169 -1.3965046 -73.52243
3003615625 -0.75163072 153.95425 -20.016558 108.37455 -19.956917 107.6554 -1.4073156 -73.908669
3024550000 -0.75109601 153.76823 -19.916754 108.14867 -19.848137 107.65742 -1.4146754 -74.315147
3045484375 -0.75438273 153.59731 -19.824253 107.89738 -19.756943 107.32953 -1.4226604 -74.709091
3066418750 -0.75605303 153.41772 -19.742537 107.76319 -19.68845 107.20405 -1.4319149 -75.084251
3087353125 -0.75955451 153.22 -19.652649 107.65083 -19.590635 107.07938 -1.4418402 -75.437218
3108287500 -0.76079315 153.0155 -19.555912 107.46109 -19.498533 106.91023 -1.4520674 -75.804939
3129221875 -0.76253468 152.8159 -19.462959 107.19482 -19.409512 106.63382 -1.4628915 -76.189438
3150156250 -0.76308006 152.62943 -19.384445 106.95747 -19.335403 106.44913 -1.4705662 -76.577866
3171090625 -0.76948816 152.45978 -19.311081 106.80428 -19.255842 106.29095 -1.4779384 -76.963501
3192025000 -0.77356148 152.29601 -19.224184 106.67396 -19.165892 106.08075 -1.4865451 -77.33017
3212959375 -0.77687192 152.11139 -19.132065 106.41425 -19.086031 105.83 -1.4965214 -77.683632
3233893750 -0.7781446 151.90063 -19.049938 106.24241 -19.023163 105.67097 -1.5071431 -78.038017
3254828125 -0.78052974 151.69391 -18.966003 106.04626 -18.926655 105.6646 -1.516618 -78.403168
3275762500 -0.78542179 151.50702 -18.890282 105.84217 -18.827202 105.14503 -1.526453 -78.785225
3296696875 -0.78838724 151.34227 -18.814135 105.68814 -18.770691 105.01218 -1.5326251 -79.165749
3317631250 -0.79274714 151.16898 -18.730581 105.48731 -18.690796 104.83593 -1.5399264 -79.528419
3338565625 -0.799115 150.98032 -18.650373 105.34391 -18.639645 104.65489 -1.548504 -79.878227
3359500000 -0.80344766 150.76906 -18.569433 105.08844 -18.545797 104.69228 -1.558148 -80.22348
3380434375 -0.80753714 150.55612 -18.497549 104.87455 -18.451284 104.33533 -1.5677882 -80.577179
3401368750 -0.81109732 150.36757 -18.421175 104.79436 -18.397738 104.20601 -1.5766401 -80.947411
3422303125 -0.81687123 150.20145 -18.33679 104.6173 -18.303688 104.00208 -1.5851548 -81.311897
3443237500 -0.81902313 150.03154 -18.260376 104.4146 -18.248386 103.67284 -1.5908034 -81.667572
3464171875 -0.82359761 149.84642 -18.189793 104.15354 -18.191475 103.6761 -1.5978054 -82.014389
3485106250 -0.82940269 149.64821 -18.116383 104.07338 -18.111919 103.56728 -1.6071677 -82.346611
3506040625 -0.83603531 149.44669 -18.03475 103.88675 -18.020687 103.53144 -1.6169431 -82.688477
3526975000 -0.83657116 149.26064 -17.954279 103.6808 -17.917603 103.20327 -1.6269127 -83.032814
3547909375 -0.83755004 149.09201 -17.88327 103.51811 -17.878565 102.842 -1.6336325 -83.406151
3568843750 -0.83897877 148.94257 -17.806654 103.38425 -17.815969 102.86967 -1.6393095 -83.756622
3589778125 -0.84276116 148.77754 -17.72855 103.17786 -17.71854 102.64136 -1.6475824 -84.088715
3610712500 -0.84881353 148.58582 -17.663834 102.97292 -17.652254 102.39812 -1.6538211 -84.415024
3631646875 -0.84943575 148.38438 -17.585447 102.7722 -17.590759 102.24981 -1.6652973 -84.736397
3652581250 -0.85209775 148.17955 -17.506466 102.61324 -17.48633 102.03005 -1.6771796 -85.075684
3673515625 -0.85542345 147.99684 -17.432318 102.40681 -17.407312 101.69105 -1.6835897 -85.440399
3694450000 -0.85843295 147.84225 -17.367403 102.17114 -17.362215 101.48557 -1.6908935 -85.795036
3715384375 -0.86054349 147.68913 -17.302732 102.00349 -17.302324 101.35541 -1.6957556 -86.127174
3736318750 -0.86406529 147.50343 -17.223734 101.90805 -17.239832 101.29911 -1.70392 -86.434616
3757253125 -0.87188089 147.29965 -17.153442 101.6977 -17.132223 101.22825 -1.7114608 -86.755516
3778187500 -0.87571937 147.10074 -17.088448 101.42449 -17.062479 100.78936 -1.7191533 -87.095123
3799121875 -0.87950772 146.92073 -17.011911 101.35242 -17.011669 100.73706 -1.7279922 -87.432938
3820056250 -0.88004458 146.75096 -16.949312 101.10744 -16.93854 100.40545 -1.7343969 -87.774666
3840990625 -0.88120371 146.58418 -16.882822 101.0423 -16.910437 100.3537 -1.7401928 -88.106743
3861925000 -0.88679564 146.40155 -16.806112 100.8056 -16.808529 100.40355 -1.7462648 -88.410622
3882859375 -0.89080536 146.1933 -16.742224 100.57977 -16.717976 99.782776 -1.7553762 -88.710976
3903793750 -0.89482081 145.98511 -16.674011 100.45149 -16.685425 99.685181 -1.7614118 -89.040359
3924728125 -0.89572799 145.78537 -16.610437 100.28152 -16.617599 99.588409 -1.7706467 -89.377151
3945662500 -0.90202177 145.60471 -16.537251 100.11023 -16.55155 99.408798 -1.7801181 -89.715096
3966596875 -0.90289271 145.4265 -16.467922 99.844193 -16.475683 99.317238 -1.7844012 -90.035538
3987531250 -0.91659367 145.24942 -16.413202 99.512764 -16.408375 99.083496 -1.7881179 -90.343307
4008465625 -0.91990727 145.0658 -16.341478 99.146049 -16.354717 98.881813 -1.7945065 -90.63485
4029400000 -0.92487657 144.86093 -16.269718 98.740402 -16.283199 98.772141 -1.8010749 -90.938881
4050334375 -0.92347634 144.65306 -16.208046 98.594612 -16.213993 98.494736 -1.8095073 -91.268761
4071268750 -0.92379832 144.4599 -16.144463 98.409966 -16.169762 98.345833 -1.8178371 -91.597633
4092203125 -0.9270736 144.28735 -16.086622 98.33297 -16.086784 98.042305 -1.8294723 -91.896477
4113137500 -0.93126506 144.12509 -16.019699 98.262703 -16.015451 97.606659 -1.8337893 -92.184639
4134071875 -0.93338293 143.94974 -15.950654 97.985085 -15.973187 97.489296 -1.8390669 -92.485817
4155006250 -0.93856716 143.75264 -15.889119 97.917984 -15.891661 97.284027 -1.8447345 -92.782784
4175940625 -0.9467718 143.55034 -15.824903 97.67141 -15.869716 97.071686 -1.8525958 -93.094612
4196875000 -0.95029652 143.36911 -15.776587 97.502136 -15.789364 97.110146 -1.8615804 -93.405815
4217809375 -0.95029843 143.18439 -15.713828 97.387611 -15.708527 96.681168 -1.8662552 -93.711136
