!Keysight Technologies,N5227A,US51270248,A.10.65.08
!Date: Tuesday, June 11, 2024 06:36:54
!Correction: S11(Full 2 Port(1,4)) 
!S41(Full 2 Port(1,4)) 
!S14(Full 2 Port(1,4)) 
!S44(Full 2 Port(1,4)) 
!S2P File: Measurements: S11, S41, S14, S44:
# Hz S  dB   R 50
10000000 -2.0746918 -0.24862073 -13.440534 0.81609839 -13.454264 0.80462092 -2.0721753 -0.22916232
30934375 -2.0751998 -0.73947561 -13.420189 2.3229179 -13.429777 2.3159084 -2.0748158 -0.71466488
51868750 -2.0775921 -1.2161754 -13.404264 3.8426268 -13.400183 3.8297989 -2.079308 -1.1795431
72803125 -2.0811331 -1.6769892 -13.369247 5.3523107 -13.363257 5.3184142 -2.0836442 -1.6357089
93737500 -2.0843422 -2.12954 -13.323063 6.8483057 -13.315119 6.8052878 -2.0889704 -2.0816934
114671875 -2.0886688 -2.590086 -13.266634 8.3010588 -13.256244 8.2482939 -2.0947206 -2.533793
135606250 -2.0937445 -3.0624094 -13.201323 9.7120352 -13.190315 9.6528864 -2.1002507 -2.9944773
156540625 -2.0995085 -3.5348518 -13.130643 11.08453 -13.118132 11.012361 -2.1055946 -3.4557822
177475000 -2.105706 -3.991519 -13.051702 12.430576 -13.042247 12.356866 -2.1111348 -3.9056807
198409375 -2.11146 -4.4386964 -12.963561 13.742977 -12.953538 13.665295 -2.1169868 -4.3447032
219343750 -2.1175385 -4.8903823 -12.868178 14.998143 -12.85298 14.915254 -2.1239872 -4.793395
240278125 -2.1251881 -5.3515353 -12.768353 16.208214 -12.746959 16.113592 -2.1347349 -5.2450509
261212500 -2.1345804 -5.8090038 -12.66284 17.363514 -12.644347 17.276831 -2.1453004 -5.6962667
282146875 -2.1439936 -6.2636695 -12.553959 18.495962 -12.534694 18.401537 -2.1540716 -6.1484003
303081250 -2.1528721 -6.7128901 -12.440794 19.574999 -12.419893 19.472067 -2.1637218 -6.5965633
324015625 -2.1624539 -7.1595955 -12.321968 20.617275 -12.303204 20.510197 -2.1726184 -7.0330782
344950000 -2.1727679 -7.5993891 -12.201532 21.606228 -12.180902 21.493923 -2.1819324 -7.4682417
365884375 -2.1825125 -8.0431719 -12.076854 22.546679 -12.057545 22.441238 -2.1924388 -7.9021454
386818750 -2.1952374 -8.4917431 -11.951362 23.446898 -11.931982 23.334715 -2.2044349 -8.3427658
407753125 -2.2077386 -8.9398251 -11.824076 24.29933 -11.804237 24.189075 -2.2173245 -8.7831345
428687500 -2.2207017 -9.3775921 -11.695809 25.12075 -11.674256 25.009262 -2.229068 -9.2178097
449621875 -2.231046 -9.8131895 -11.563797 25.897808 -11.542469 25.777081 -2.2410927 -9.6580057
470556250 -2.2432089 -10.254221 -11.431752 26.627504 -11.410509 26.507549 -2.2539122 -10.085669
491490625 -2.256783 -10.688963 -11.299018 27.316637 -11.278367 27.200594 -2.2663786 -10.508656
512425000 -2.269763 -11.117518 -11.166341 27.972281 -11.146178 27.859812 -2.2803869 -10.931507
533359375 -2.2841604 -11.547239 -11.032668 28.595928 -11.013985 28.479843 -2.2954879 -11.357914
554293750 -2.2988923 -11.980648 -10.900995 29.175142 -10.880933 29.061537 -2.3103027 -11.788183
575228125 -2.3135121 -12.410391 -10.770857 29.724365 -10.74789 29.606798 -2.3258107 -12.216854
596162500 -2.3287098 -12.835821 -10.638373 30.241516 -10.617885 30.117815 -2.3403077 -12.638011
617096875 -2.3444979 -13.257497 -10.50773 30.72393 -10.487425 30.608465 -2.3549013 -13.056281
638031250 -2.3603632 -13.676179 -10.378437 31.179291 -10.358459 31.059708 -2.3717875 -13.470016
658965625 -2.3763187 -14.092763 -10.249344 31.605591 -10.228907 31.483295 -2.3887494 -13.88152
679900000 -2.393666 -14.515819 -10.121922 32.003658 -10.10333 31.878983 -2.4055772 -14.29813
700834375 -2.4122763 -14.926359 -9.9961176 32.374287 -9.9797335 32.264641 -2.4242823 -14.710684
721768750 -2.4309306 -15.3393 -9.8723145 32.728653 -9.8528309 32.621609 -2.4427762 -15.121417
742703125 -2.4484742 -15.74015 -9.7474174 33.062878 -9.7275276 32.939651 -2.459878 -15.518258
763637500 -2.4660804 -16.149923 -9.6253176 33.358509 -9.6060638 33.233833 -2.4768491 -15.921467
784571875 -2.4840794 -16.559937 -9.5024195 33.648438 -9.4869614 33.514347 -2.4955618 -16.320257
805506250 -2.5034485 -16.964272 -9.3839188 33.90786 -9.3682671 33.792744 -2.5141788 -16.717869
826440625 -2.5237653 -17.367208 -9.2672358 34.147446 -9.2483053 34.029804 -2.5344679 -17.114817
847375000 -2.5441699 -17.759928 -9.150876 34.3895 -9.1317444 34.25634 -2.5552392 -17.50729
868309375 -2.5658636 -18.155231 -9.0352831 34.593018 -9.0185642 34.472878 -2.5761297 -17.89488
889243750 -2.5850153 -18.544182 -8.9196301 34.781284 -8.9022589 34.659218 -2.5951278 -18.277245
910178125 -2.6049554 -18.93885 -8.8066969 34.95945 -8.7900581 34.820114 -2.6145558 -18.668447
931112500 -2.6247871 -19.330603 -8.6938677 35.107883 -8.6801052 34.975555 -2.6353133 -19.046198
952046875 -2.6459141 -19.714352 -8.5842161 35.245525 -8.5693684 35.117756 -2.6559269 -19.42482
972981250 -2.6668363 -20.097546 -8.477478 35.361546 -8.4617596 35.228176 -2.6780963 -19.808907
993915625 -2.6884785 -20.480116 -8.3725014 35.481304 -8.3560905 35.338779 -2.700381 -20.191027
1014850000 -2.7111633 -20.86149 -8.2660465 35.564198 -8.2528305 35.424931 -2.7217052 -20.573282
1035784375 -2.7334893 -21.242701 -8.1656971 35.638283 -8.1518297 35.513954 -2.7443185 -20.949423
1056718750 -2.7546105 -21.61709 -8.0642357 35.724102 -8.0494776 35.588818 -2.7652812 -21.31748
1077653125 -2.7755497 -21.988932 -7.9635582 35.780266 -7.9487929 35.635555 -2.7873659 -21.684813
1098587500 -2.7975874 -22.358452 -7.8658371 35.824421 -7.8512025 35.684032 -2.8097146 -22.040825
1119521875 -2.821439 -22.721273 -7.7690935 35.863903 -7.7559319 35.722832 -2.8331771 -22.404474
1140456250 -2.8453906 -23.078266 -7.6748972 35.887764 -7.6612144 35.751167 -2.8571746 -22.762621
1161390625 -2.868819 -23.444511 -7.582375 35.90559 -7.5672522 35.770538 -2.8800244 -23.12538
1182325000 -2.8922188 -23.809616 -7.4902916 35.915916 -7.4755163 35.77153 -2.9024031 -23.483038
1203259375 -2.9149692 -24.172306 -7.4001527 35.914803 -7.3855476 35.764706 -2.9250016 -23.837517
1224193750 -2.9380114 -24.529886 -7.3095198 35.9039 -7.2970848 35.753498 -2.9473801 -24.188259
1245128125 -2.9618063 -24.878941 -7.2239361 35.88308 -7.210855 35.740269 -2.9726946 -24.531174
1266062500 -2.9872546 -25.233515 -7.1383858 35.863995 -7.125833 35.714264 -2.9974411 -24.876661
1286996875 -3.0138595 -25.576206 -7.0542498 35.827049 -7.04176 35.685341 -3.0228803 -25.229506
1307931250 -3.0378659 -25.926964 -6.9724083 35.792686 -6.9602208 35.64909 -3.0483322 -25.578825
1328865625 -3.0617683 -26.281248 -6.8901258 35.755535 -6.879024 35.605465 -3.0723639 -25.925158
1349800000 -3.0861809 -26.626987 -6.811286 35.702381 -6.7996001 35.554134 -3.0962687 -26.260065
1370734375 -3.1109946 -26.97216 -6.7320085 35.658031 -6.7221394 35.503204 -3.1213489 -26.588299
1391668750 -3.1369541 -27.303816 -6.6540809 35.596256 -6.6438704 35.452198 -3.1462266 -26.922447
1412603125 -3.1627769 -27.636932 -6.5786815 35.531887 -6.5682764 35.382862 -3.1730757 -27.256689
1433537500 -3.18924 -27.973305 -6.5031328 35.46109 -6.4942369 35.316837 -3.1987646 -27.593214
1454471875 -3.2150714 -28.308502 -6.4317927 35.38023 -6.421123 35.239986 -3.2239902 -27.929762
1475406250 -3.2402763 -28.647562 -6.3597403 35.311008 -6.3507752 35.163666 -3.2498846 -28.255623
1496340625 -3.2651668 -28.976519 -6.2882032 35.233345 -6.2793159 35.091629 -3.2743268 -28.570242
1517275000 -3.2900784 -29.294674 -6.2192688 35.148823 -6.2098598 35.007973 -3.3004131 -28.880495
1538209375 -3.3163323 -29.612282 -6.1502342 35.071865 -6.1413565 34.926609 -3.3262522 -29.195398
1559143750 -3.3433948 -29.929605 -6.0814266 34.968658 -6.0730844 34.83205 -3.3535566 -29.511591
1580078125 -3.369523 -30.251503 -6.0171051 34.873123 -6.0071425 34.736069 -3.3805959 -29.82826
1601012500 -3.3958154 -30.573441 -5.9521728 34.777847 -5.9418435 34.637199 -3.4053388 -30.146297
1621946875 -3.4215407 -30.889555 -5.8891563 34.676632 -5.8786159 34.527973 -3.4320364 -30.452389
1642881250 -3.4474757 -31.204424 -5.8247986 34.583889 -5.8161869 34.434288 -3.4577804 -30.748077
1663815625 -3.4747992 -31.510529 -5.7619009 34.476978 -5.7536998 34.330879 -3.4844623 -31.047169
1684750000 -3.5023909 -31.811739 -5.7007184 34.365467 -5.6931176 34.222599 -3.5119057 -31.344841
1705684375 -3.530062 -32.116413 -5.6412783 34.244881 -5.6331754 34.109772 -3.5393028 -31.649786
1726618750 -3.5567322 -32.427746 -5.5841579 34.139332 -5.5748024 33.997982 -3.5661261 -31.950478
1747553125 -3.5842652 -32.738914 -5.5255303 34.038376 -5.5181918 33.881779 -3.5934665 -32.247494
1768487500 -3.6122243 -33.03677 -5.4669333 33.920074 -5.4610786 33.771454 -3.6205628 -32.53735
1789421875 -3.6391912 -33.328751 -5.4116716 33.799335 -5.4059229 33.657867 -3.648066 -32.817371
1810356250 -3.6669979 -33.62532 -5.3561292 33.682701 -5.3504963 33.544571 -3.6750836 -33.104828
1831290625 -3.6943243 -33.917889 -5.3009391 33.568626 -5.2943301 33.422565 -3.702549 -33.391891
1852225000 -3.7221465 -34.212734 -5.2478476 33.452793 -5.240818 33.292049 -3.7306399 -33.679695
1873159375 -3.7504103 -34.507816 -5.1936736 33.31385 -5.1891956 33.171265 -3.7576373 -33.963928
1894093750 -3.7770255 -34.792995 -5.1443424 33.186031 -5.1378012 33.039703 -3.7856925 -34.246952
1915028125 -3.8045037 -35.079571 -5.0923157 33.069645 -5.0887017 32.919987 -3.814317 -34.515144
1935962500 -3.8310304 -35.358376 -5.0420918 32.939693 -5.0362868 32.807076 -3.8397441 -34.789486
1956896875 -3.8581381 -35.645966 -4.9909768 32.825581 -4.985302 32.666164 -3.8675344 -35.070641
1977831250 -3.8872168 -35.917255 -4.9404631 32.672832 -4.9377837 32.532879 -3.8952985 -35.341236
1998765625 -3.9128649 -36.190048 -4.8957009 32.535332 -4.8906555 32.398533 -3.9223404 -35.613052
2019700000 -3.9392958 -36.472939 -4.8495536 32.41642 -4.8443556 32.277401 -3.9496801 -35.870483
2040634375 -3.9663801 -36.744968 -4.8030567 32.288048 -4.7968359 32.148491 -3.9762735 -36.136604
2061568750 -3.995429 -37.011272 -4.7563839 32.154991 -4.7517557 32.012558 -4.0049124 -36.401157
2082503125 -4.0228286 -37.276867 -4.7109332 32.017849 -4.7071004 31.879519 -4.0328879 -36.663563
2103437500 -4.0503802 -37.544903 -4.6666908 31.880278 -4.6629958 31.74564 -4.060358 -36.92123
2124371875 -4.0777698 -37.81377 -4.6242814 31.749485 -4.6198215 31.614958 -4.0871773 -37.170345
2145306250 -4.1062746 -38.076561 -4.5816226 31.616276 -4.5767255 31.482512 -4.1132488 -37.424297
2166240625 -4.1332955 -38.335396 -4.5402012 31.485256 -4.5352898 31.347639 -4.1423016 -37.675709
2187175000 -4.1624227 -38.598217 -4.4977341 31.357498 -4.493896 31.212086 -4.1706328 -37.920898
2208109375 -4.1911917 -38.856171 -4.4563808 31.219675 -4.4545879 31.079226 -4.1999035 -38.168041
2229043750 -4.2200031 -39.114677 -4.4150434 31.092756 -4.4135599 30.948017 -4.2268858 -38.421474
2249978125 -4.2486444 -39.369968 -4.3746672 30.950924 -4.3732405 30.813559 -4.2538733 -38.675198
2270912500 -4.276123 -39.629417 -4.3364491 30.816505 -4.3337131 30.675169 -4.2814908 -38.918499
2291846875 -4.3046193 -39.877926 -4.2982683 30.676043 -4.2949839 30.539408 -4.3094788 -39.154011
2312781250 -4.3319755 -40.129936 -4.2611566 30.549183 -4.2579112 30.412674 -4.3382878 -39.386127
2333715625 -4.3607426 -40.376236 -4.2207646 30.421146 -4.2198853 30.274961 -4.3667727 -39.633148
2354650000 -4.3890061 -40.622513 -4.1831903 30.277304 -4.1834593 30.137814 -4.3962479 -39.877163
2375584375 -4.4167299 -40.867599 -4.1469784 30.138777 -4.1457767 30.001976 -4.423214 -40.121159
2396518750 -4.4436297 -41.10759 -4.1120691 30.002262 -4.1109972 29.862413 -4.4506707 -40.351223
2417453125 -4.4703941 -41.346203 -4.0761585 29.865931 -4.0750852 29.739634 -4.4765091 -40.569889
2438387500 -4.496696 -41.579082 -4.0412655 29.731766 -4.0388131 29.596695 -4.5038142 -40.798805
2459321875 -4.5249557 -41.80999 -4.0051527 29.599974 -4.0049286 29.458858 -4.532897 -41.016571
2480256250 -4.5519147 -42.042328 -3.9705286 29.46088 -3.9704509 29.323381 -4.560051 -41.242619
2501190625 -4.5798349 -42.283981 -3.9354742 29.32538 -3.937243 29.188551 -4.5868535 -41.470425
2522125000 -4.6075501 -42.503483 -3.9027641 29.171045 -3.9025154 29.049713 -4.6118879 -41.694702
2543059375 -4.6335087 -42.730618 -3.8723004 29.041292 -3.8698277 28.905724 -4.6385851 -41.918301
2563993750 -4.6608629 -42.957653 -3.8396049 28.910027 -3.8382335 28.777493 -4.6656981 -42.120533
2584928125 -4.6887527 -43.180817 -3.8073719 28.777145 -3.8064659 28.639383 -4.6930962 -42.332348
2605862500 -4.7175951 -43.393303 -3.7753549 28.637596 -3.7758591 28.501959 -4.7224617 -42.5424
2626796875 -4.7453046 -43.612625 -3.7437682 28.499346 -3.7437272 28.367188 -4.7491946 -42.763531
2647731250 -4.7733645 -43.840996 -3.7120028 28.359049 -3.7138216 28.229666 -4.7746239 -42.986893
2668665625 -4.800324 -44.054989 -3.6833212 28.208981 -3.6825159 28.086948 -4.80127 -43.207214
2689600000 -4.82621 -44.268211 -3.6559141 28.076458 -3.6544447 27.94702 -4.828599 -43.410233
2710534375 -4.8519268 -44.486298 -3.628329 27.956495 -3.6261778 27.819288 -4.8561029 -43.607159
2731468750 -4.879703 -44.715527 -3.5960033 27.833393 -3.5960443 27.689062 -4.8832626 -43.812645
2752403125 -4.9085522 -44.918858 -3.5645473 27.676794 -3.5674822 27.549393 -4.9101362 -44.034374
2773337500 -4.9344406 -45.125664 -3.5390379 27.537008 -3.5392594 27.403028 -4.9380984 -44.256794
2794271875 -4.9604712 -45.343491 -3.5123405 27.402647 -3.5122519 27.266914 -4.9648356 -44.45583
2815206250 -4.9858565 -45.560711 -3.4844897 27.271231 -3.4842567 27.134516 -4.9892464 -44.662022
2836140625 -5.0120549 -45.760635 -3.457916 27.137222 -3.4578602 26.99485 -5.0169406 -44.867687
2857075000 -5.0373354 -45.966324 -3.4313695 27.011742 -3.431421 26.865286 -5.0447745 -45.057648
2878009375 -5.0649905 -46.173168 -3.4020503 26.870188 -3.4054871 26.727062 -5.0724907 -45.260853
2898943750 -5.0919347 -46.368179 -3.3766301 26.718655 -3.3801079 26.589235 -5.0981698 -45.457169
2919878125 -5.1176472 -46.570045 -3.3531091 26.584948 -3.353472 26.452385 -5.121788 -45.665653
2940812500 -5.1424546 -46.770473 -3.3285592 26.462097 -3.3286788 26.31312 -5.1489735 -45.865841
2961746875 -5.1687031 -46.973377 -3.3024747 26.328434 -3.3040867 26.183878 -5.1744962 -46.048
2982681250 -5.1937227 -47.161144 -3.279094 26.193226 -3.2807584 26.052608 -5.2018943 -46.235329
3003615625 -5.2213206 -47.357178 -3.2538352 26.061346 -3.256916 25.930664 -5.2280045 -46.413559
3024550000 -5.247128 -47.538319 -3.2306361 25.913252 -3.2322097 25.78857 -5.2523251 -46.620087
3045484375 -5.2711992 -47.736382 -3.2081244 25.796526 -3.2092669 25.648737 -5.2792792 -46.819523
3066418750 -5.2984161 -47.94001 -3.1834126 25.669741 -3.1864185 25.517946 -5.3046026 -46.998016
3087353125 -5.3250928 -48.125889 -3.1599712 25.527958 -3.1636274 25.387234 -5.3294425 -47.181465
3108287500 -5.3506737 -48.296349 -3.1404858 25.384838 -3.1416926 25.264509 -5.3566694 -47.367928
3129221875 -5.3738632 -48.485432 -3.1204576 25.269592 -3.1198173 25.132179 -5.3833542 -47.554344
3150156250 -5.3995891 -48.691441 -3.0967629 25.15971 -3.0977716 25.001625 -5.4095635 -47.739506
3171090625 -5.4269342 -48.882908 -3.0714171 25.024284 -3.0761213 24.872076 -5.4343295 -47.929787
3192025000 -5.4520912 -49.056049 -3.0506799 24.87179 -3.0542498 24.735376 -5.4589653 -48.119556
3212959375 -5.4756937 -49.236298 -3.0328074 24.749594 -3.0344546 24.607164 -5.4856644 -48.298695
3233893750 -5.5002418 -49.423145 -3.011709 24.630558 -3.0141976 24.488373 -5.5113735 -48.463398
3254828125 -5.5245633 -49.603897 -2.992543 24.50897 -2.9927356 24.363329 -5.536026 -48.649628
3275762500 -5.5502257 -49.797684 -2.9691188 24.395111 -2.9731796 24.227766 -5.5640955 -48.841782
3296696875 -5.5761094 -49.973602 -2.9476845 24.244169 -2.9536598 24.103865 -5.5888996 -49.014286
3317631250 -5.5996399 -50.151546 -2.9301021 24.120592 -2.9342451 23.974186 -5.6138239 -49.200226
3338565625 -5.623848 -50.324337 -2.9110751 23.991774 -2.9154925 23.850166 -5.6376991 -49.356865
3359500000 -5.6463542 -50.500591 -2.8926225 23.874985 -2.8946369 23.72813 -5.6597333 -49.537659
3380434375 -5.6724029 -50.677525 -2.8715596 23.755289 -2.8769457 23.600006 -5.6885662 -49.714817
3401368750 -5.6980033 -50.836575 -2.8522289 23.608294 -2.8593106 23.482822 -5.7140102 -49.879288
3422303125 -5.7209191 -51.007744 -2.8373818 23.49 -2.8407283 23.351345 -5.7395997 -50.068226
3443237500 -5.7447748 -51.196602 -2.8198371 23.38991 -2.8236084 23.231487 -5.7654161 -50.235363
3464171875 -5.7713833 -51.369675 -2.79791 23.264357 -2.8049688 23.116814 -5.7866645 -50.390934
3485106250 -5.7966571 -51.525692 -2.7796042 23.128618 -2.7864835 22.997513 -5.8095202 -50.559052
3506040625 -5.8207464 -51.67028 -2.7646258 22.993303 -2.7687869 22.870039 -5.8344479 -50.729839
3526975000 -5.8423791 -51.831299 -2.7510397 22.89039 -2.7527435 22.749573 -5.8625269 -50.898735
3547909375 -5.8678765 -52.016102 -2.7311327 22.78229 -2.737112 22.638023 -5.8903913 -51.053551
3568843750 -5.8919668 -52.178291 -2.7145383 22.648783 -2.7184894 22.522022 -5.9100885 -51.218109
3589778125 -5.9144549 -52.357063 -2.6978478 22.557087 -2.7016263 22.394487 -5.9321356 -51.398926
3610712500 -5.9408817 -52.517097 -2.6768792 22.423109 -2.6859257 22.275455 -5.9574795 -51.544418
3631646875 -5.9636426 -52.652523 -2.6645408 22.285545 -2.6687071 22.163515 -5.9797025 -51.686699
3652581250 -5.9846315 -52.806114 -2.6506476 22.184193 -2.6518004 22.040524 -6.0046329 -51.862663
3673515625 -6.0064611 -52.980854 -2.6341026 22.087425 -2.6367135 21.920246 -6.0333323 -52.022655
3694450000 -6.0308666 -53.170979 -2.6135859 21.978729 -2.6216247 21.805235 -6.0577526 -52.17149
3715384375 -6.0572004 -53.334293 -2.5953226 21.835615 -2.6065061 21.691319 -6.0797906 -52.335789
3736318750 -6.0777993 -53.480377 -2.5838115 21.713112 -2.5896797 21.577581 -6.0991044 -52.485851
3757253125 -6.0987444 -53.637615 -2.5681787 21.619328 -2.5742748 21.452839 -6.1215758 -52.660233
3778187500 -6.1232076 -53.77771 -2.5525765 21.487324 -2.5605714 21.340481 -6.1493325 -52.795334
3799121875 -6.1446576 -53.93309 -2.540189 21.385582 -2.5450327 21.231464 -6.1721168 -52.940041
3820056250 -6.1705399 -54.105324 -2.519484 21.277288 -2.5318573 21.116196 -6.1990824 -53.094505
3840990625 -6.1940932 -54.240871 -2.5076144 21.130964 -2.5159166 21.012167 -6.2192302 -53.234428
3861925000 -6.2136149 -54.402153 -2.4945655 21.039469 -2.5008941 20.891901 -6.2373338 -53.410782
3882859375 -6.2373085 -54.554878 -2.4771791 20.926271 -2.4873409 20.775328 -6.2631497 -53.560146
3903793750 -6.2593875 -54.687244 -2.4639685 20.805565 -2.4732285 20.669264 -6.2850056 -53.679062
3924728125 -6.2826867 -54.815758 -2.4504528 20.677641 -2.4588051 20.551918 -6.3072557 -53.820747
3945662500 -6.3026547 -54.955273 -2.4407344 20.573719 -2.4452791 20.439829 -6.330039 -53.971027
3966596875 -6.3247256 -55.137821 -2.4244287 20.485008 -2.4319394 20.327221 -6.3522391 -54.13279
3987531250 -6.3508515 -55.284428 -2.4071887 20.348734 -2.4189224 20.217419 -6.3746319 -54.282307
4008465625 -6.3713484 -55.4114 -2.4001501 20.228304 -2.4052486 20.112677 -6.3942394 -54.415287
4029400000 -6.3902826 -55.562855 -2.3875093 20.144503 -2.3917408 20.004879 -6.4140387 -54.552071
4050334375 -6.4139562 -55.702374 -2.3726587 20.032795 -2.3781893 19.894932 -6.4368367 -54.691677
4071268750 -6.4358258 -55.843422 -2.3604069 19.92745 -2.3647816 19.786797 -6.4584241 -54.818287
4092203125 -6.4582763 -55.999676 -2.3456814 19.811508 -2.3529563 19.671547 -6.4804173 -54.976074
4113137500 -6.4786701 -56.144436 -2.3365793 19.701763 -2.3417525 19.567785 -6.5045233 -55.108616
4134071875 -6.4990926 -56.312901 -2.3232574 19.617298 -2.3286579 19.463839 -6.5238438 -55.239193
4155006250 -6.5196772 -56.454453 -2.3102798 19.507835 -2.3167813 19.355021 -6.5451813 -55.377934
4175940625 -6.5412421 -56.603485 -2.2970824 19.418592 -2.3044655 19.252737 -6.5664392 -55.481178
4196875000 -6.5657849 -56.731041 -2.2799478 19.28406 -2.2915511 19.141895 -6.5843821 -55.628838
4217809375 -6.5848708 -56.844311 -2.2734928 19.170261 -2.2808125 19.035898 -6.6085672 -55.756603
4238743750 -6.6042514 -57.011555 -2.2618997 19.093372 -2.2691836 18.93272 -6.630372 -55.86993
