!Keysight Technologies,N5227A,US51270248,A.10.65.08
!Date: Tuesday, June 11, 2024 06:39:25
!Correction: S11(Full 2 Port(1,4)) 
!S41(Full 2 Port(1,4)) 
!S14(Full 2 Port(1,4)) 
!S44(Full 2 Port(1,4)) 
!S2P File: Measurements: S11, S41, S14, S44:
# Hz S  dB   R 50
10000000 -2.0661564 -0.28976017 -13.432583 0.89928782 -13.453025 0.9073348 -2.0638463 -0.26843026
30934375 -2.0687437 -0.81338769 -13.406114 2.2386088 -13.417261 2.2477138 -2.0679953 -0.77659327
51868750 -2.0780344 -1.2968171 -13.404388 3.7331223 -13.399277 3.7185407 -2.0787392 -1.2674203
72803125 -2.0853083 -1.7156765 -13.375975 5.3091602 -13.370129 5.2790713 -2.0870562 -1.6747404
93737500 -2.0867517 -2.140815 -13.326231 6.8493466 -13.318138 6.8101864 -2.0910771 -2.0924759
114671875 -2.0885122 -2.5964932 -13.266241 8.3066177 -13.25411 8.2534981 -2.094032 -2.5391765
135606250 -2.0925658 -3.0759385 -13.198786 9.7001028 -13.187378 9.6360884 -2.0991423 -3.0116429
156540625 -2.0997458 -3.5535512 -13.129406 11.058939 -13.118248 10.988706 -2.105952 -3.4768903
177475000 -2.1067681 -4.0045052 -13.05336 12.416578 -13.043775 12.341391 -2.112397 -3.9220138
198409375 -2.1127176 -4.4438109 -12.964329 13.743914 -12.955003 13.666379 -2.1176629 -4.3509235
219343750 -2.1176803 -4.8921642 -12.86694 15.003762 -12.851172 14.918419 -2.1237738 -4.7972822
240278125 -2.1249669 -5.3578992 -12.765651 16.201288 -12.74437 16.108763 -2.1341522 -5.2545295
261212500 -2.1351008 -5.819169 -12.661386 17.346079 -12.642278 17.262226 -2.1451745 -5.7103057
282146875 -2.1449537 -6.2723641 -12.553963 18.487192 -12.533342 18.388422 -2.1548495 -6.1611767
303081250 -2.153362 -6.7174292 -12.440767 19.573524 -12.419632 19.475307 -2.1645007 -6.6002259
324015625 -2.1625063 -7.1616206 -12.321853 20.618837 -12.301653 20.512344 -2.1721442 -7.0377674
344950000 -2.1713715 -7.6063175 -12.199391 21.606012 -12.178825 21.492561 -2.1812861 -7.4747877
365884375 -2.1819427 -8.050127 -12.075712 22.541029 -12.056226 22.432474 -2.1923718 -7.914073
386818750 -2.1951284 -8.5004215 -11.950956 23.442472 -11.931375 23.326752 -2.2053602 -8.3551998
407753125 -2.207778 -8.9447269 -11.824082 24.301674 -11.804142 24.194353 -2.2177889 -8.7903004
428687500 -2.2203772 -9.3809757 -11.695073 25.128571 -11.673618 25.011648 -2.2290783 -9.2246656
449621875 -2.2305231 -9.8155966 -11.562513 25.90107 -11.541133 25.781422 -2.2402403 -9.6655035
470556250 -2.2428679 -10.2591 -11.430645 26.626049 -11.409382 26.509199 -2.2534332 -10.095293
491490625 -2.2567251 -10.694449 -11.298898 27.317068 -11.278231 27.200951 -2.2660162 -10.519593
512425000 -2.2695045 -11.12051 -11.166314 27.978317 -11.146475 27.86363 -2.2802973 -10.939715
533359375 -2.2841198 -11.549415 -11.032273 28.600037 -11.01353 28.488186 -2.2950895 -11.362574
554293750 -2.2982953 -11.980772 -10.900239 29.176821 -10.880819 29.07015 -2.3101363 -11.793143
575228125 -2.3130147 -12.413812 -10.769218 29.725437 -10.74778 29.609468 -2.3249276 -12.22399
596162500 -2.3280554 -12.840823 -10.638007 30.2407 -10.617672 30.119331 -2.3396757 -12.646259
617096875 -2.3437419 -13.262764 -10.507042 30.724878 -10.487563 30.612068 -2.3550167 -13.061644
638031250 -2.3594899 -13.679062 -10.377748 31.186548 -10.35837 31.069677 -2.3716455 -13.475274
658965625 -2.375572 -14.095142 -10.24823 31.611567 -10.228609 31.494091 -2.3881481 -13.885609
679900000 -2.3924232 -14.519685 -10.120621 32.005436 -10.103062 31.886883 -2.4054735 -14.304151
700834375 -2.411422 -14.93117 -9.9956093 32.380653 -9.9790459 32.267773 -2.4237645 -14.715982
721768750 -2.4299951 -15.344171 -9.8713293 32.732014 -9.8525505 32.625881 -2.4426825 -15.124725
742703125 -2.4480569 -15.743808 -9.7465124 33.065083 -9.7275963 32.949368 -2.4598403 -15.521504
763637500 -2.4656281 -16.15214 -9.6241331 33.361526 -9.6049852 33.242935 -2.4761286 -15.924876
784571875 -2.4838614 -16.564373 -9.5016813 33.647274 -9.4857197 33.525074 -2.4944854 -16.32596
805506250 -2.5030766 -16.970158 -9.383357 33.909306 -9.3669043 33.797829 -2.5137596 -16.724232
826440625 -2.523684 -17.372227 -9.2662516 34.156776 -9.2473135 34.033295 -2.5341947 -17.119331
847375000 -2.5435576 -17.766155 -9.1496525 34.393349 -9.1313715 34.262024 -2.5553305 -17.5119
868309375 -2.5652068 -18.158726 -9.0339022 34.598804 -9.0171175 34.476421 -2.5764191 -17.897415
889243750 -2.5845511 -18.548325 -8.9188309 34.786259 -8.9006968 34.660202 -2.5950053 -18.281761
910178125 -2.60427 -18.943676 -8.8047848 34.959473 -8.7887821 34.819668 -2.6145618 -18.673491
931112500 -2.6246774 -19.33674 -8.6933193 35.110912 -8.6789684 34.974449 -2.6357698 -19.050219
952046875 -2.6452432 -19.720713 -8.5834522 35.249866 -8.5687447 35.119423 -2.655731 -19.430187
972981250 -2.6667979 -20.103413 -8.4768734 35.369228 -8.460618 35.235165 -2.6773615 -19.813889
993915625 -2.688194 -20.4841 -8.3707676 35.485703 -8.3544645 35.341732 -2.6998353 -20.19602
1014850000 -2.7103496 -20.868259 -8.2645426 35.567604 -8.2512455 35.427563 -2.7214518 -20.579145
1035784375 -2.7325869 -21.249077 -8.1647587 35.642639 -8.1504889 35.513855 -2.7444422 -20.954874
1056718750 -2.7540545 -21.623848 -8.0632515 35.728428 -8.048624 35.589783 -2.7657208 -21.323818
1077653125 -2.7752326 -21.992992 -7.9621572 35.78598 -7.9478288 35.641209 -2.7874804 -21.6908
1098587500 -2.7970748 -22.364491 -7.8646026 35.833851 -7.8499284 35.687611 -2.8096709 -22.047859
1119521875 -2.8208277 -22.727329 -7.7676291 35.869755 -7.7545466 35.723568 -2.8334358 -22.409943
1140456250 -2.8443272 -23.084703 -7.6738105 35.893227 -7.6597676 35.753242 -2.8568406 -22.769381
1161390625 -2.8678236 -23.448462 -7.5811167 35.912643 -7.5663991 35.773483 -2.8800581 -23.130383
1182325000 -2.8911617 -23.81493 -7.4890933 35.921425 -7.4749131 35.77309 -2.9020669 -23.490557
1203259375 -2.9140699 -24.175398 -7.3986468 35.920441 -7.3845568 35.768757 -2.9246738 -23.84428
1224193750 -2.9369619 -24.534752 -7.3086052 35.911438 -7.2959428 35.757809 -2.9472344 -24.194923
1245128125 -2.9608841 -24.885902 -7.2226658 35.889294 -7.2094626 35.741386 -2.9724636 -24.537197
1266062500 -2.98615 -25.238684 -7.1372151 35.872387 -7.1249928 35.71801 -2.9974241 -24.882208
1286996875 -3.0129664 -25.581711 -7.0530229 35.83482 -7.0405884 35.690506 -3.022635 -25.234663
1307931250 -3.0368428 -25.930031 -6.970942 35.801964 -6.9584746 35.654446 -3.047509 -25.584957
1328865625 -3.0607662 -26.286875 -6.8884678 35.763901 -6.8773775 35.611439 -3.07196 -25.933386
1349800000 -3.0849531 -26.633825 -6.8097639 35.708847 -6.798255 35.558464 -3.0959117 -26.268528
1370734375 -3.1101182 -26.979824 -6.7306437 35.666901 -6.7205553 35.505554 -3.120888 -26.596285
1391668750 -3.1361675 -27.30986 -6.6524539 35.604664 -6.6428027 35.454361 -3.1461363 -26.930555
1412603125 -3.1618142 -27.643881 -6.5768108 35.54512 -6.5665116 35.390068 -3.1726501 -27.265469
1433537500 -3.1887867 -27.980028 -6.5017672 35.472248 -6.492506 35.322884 -3.1983595 -27.600754
1454471875 -3.214443 -28.316666 -6.4300537 35.389671 -6.4195929 35.245785 -3.2242756 -27.939165
1475406250 -3.2391331 -28.655584 -6.358521 35.32214 -6.3495336 35.169373 -3.249826 -28.262966
1496340625 -3.2642486 -28.984188 -6.2864494 35.244267 -6.2781105 35.099106 -3.2739201 -28.578083
1517275000 -3.2892349 -29.301184 -6.2178645 35.158474 -6.2081323 35.015076 -3.2994981 -28.889246
1538209375 -3.3159244 -29.619972 -6.1489611 35.081112 -6.1395626 34.930912 -3.3259473 -29.20343
1559143750 -3.342582 -29.937403 -6.0795259 34.979916 -6.0713906 34.835499 -3.353251 -29.520546
1580078125 -3.3685806 -30.259893 -6.0156789 34.881008 -6.0057898 34.742611 -3.3802676 -29.836462
1601012500 -3.3951559 -30.582548 -5.9502521 34.789772 -5.9403391 34.644119 -3.4049931 -30.153708
1621946875 -3.420929 -30.898283 -5.8876028 34.68684 -5.877367 34.536102 -3.4319708 -30.459925
1642881250 -3.4471195 -31.212595 -5.8230252 34.595505 -5.8144774 34.438595 -3.4574571 -30.757965
1663815625 -3.4741092 -31.518799 -5.760211 34.48407 -5.7519808 34.335358 -3.4842241 -31.055079
1684750000 -3.5018585 -31.820206 -5.6994214 34.374672 -5.6913042 34.228218 -3.5113621 -31.353901
1705684375 -3.5291326 -32.12566 -5.6395979 34.254162 -5.6317511 34.11784 -3.5386052 -31.657429
1726618750 -3.5560663 -32.437469 -5.5826402 34.151752 -5.5733814 34.005054 -3.5653362 -31.957315
1747553125 -3.5836744 -32.747417 -5.5237737 34.046867 -5.5163889 33.888836 -3.5928645 -32.257656
1768487500 -3.6116269 -33.04427 -5.465703 33.928432 -5.4595175 33.777367 -3.6197598 -32.546558
1789421875 -3.6383128 -33.33762 -5.4101725 33.808224 -5.4042306 33.663452 -3.6472373 -32.826817
1810356250 -3.6659052 -33.634449 -5.3544359 33.692078 -5.3493924 33.549416 -3.6745477 -33.111034
1831290625 -3.6936605 -33.928051 -5.2995543 33.576004 -5.2928791 33.428822 -3.7015955 -33.401363
1852225000 -3.7216158 -34.221947 -5.2458658 33.460503 -5.2395177 33.297188 -3.7300014 -33.690563
1873159375 -3.7494626 -34.517391 -5.1925707 33.32338 -5.1877074 33.17786 -3.7569773 -33.973469
1894093750 -3.7760544 -34.805195 -5.1431246 33.195709 -5.1360898 33.045677 -3.7851894 -34.255699
1915028125 -3.8038313 -35.091705 -5.0912042 33.079086 -5.0872912 32.926598 -3.8137851 -34.524483
1935962500 -3.830158 -35.36911 -5.0408959 32.95195 -5.0351133 32.814636 -3.8395205 -34.798489
1956896875 -3.857403 -35.656933 -4.9894533 32.836487 -4.9831214 32.674438 -3.8668497 -35.079247
1977831250 -3.8860142 -35.927681 -4.9383001 32.685333 -4.9355636 32.540539 -3.8944883 -35.351589
1998765625 -3.9114931 -36.201778 -4.8938961 32.54863 -4.8886423 32.40535 -3.9216406 -35.621769
2019700000 -3.9381793 -36.485653 -4.8478727 32.425308 -4.8419766 32.286392 -3.9486575 -35.880718
2040634375 -3.9659529 -36.759064 -4.8018079 32.2981 -4.7948542 32.15659 -3.9759183 -36.145561
2061568750 -3.9942195 -37.022678 -4.7548795 32.168446 -4.749773 32.018692 -4.0041771 -36.410873
2082503125 -4.0215964 -37.288052 -4.709476 32.029839 -4.7051988 31.885834 -4.0322542 -36.673668
2103437500 -4.0493054 -37.55687 -4.6653981 31.890051 -4.6612921 31.753492 -4.0599728 -36.927769
2124371875 -4.0771422 -37.827003 -4.623023 31.760063 -4.6185117 31.622591 -4.0859256 -37.178326
2145306250 -4.1057005 -38.092926 -4.5797887 31.628407 -4.5749073 31.489614 -4.1123724 -37.434444
2166240625 -4.132462 -38.350204 -4.5381813 31.495584 -4.5333085 31.353817 -4.1410675 -37.686676
2187175000 -4.1613631 -38.612728 -4.4953179 31.366013 -4.4925957 31.218149 -4.1699996 -37.932705
2208109375 -4.1904006 -38.870033 -4.4544301 31.228401 -4.4533033 31.087162 -4.1989756 -38.178318
2229043750 -4.2194076 -39.13092 -4.4132824 31.102499 -4.4120302 30.956036 -4.2261453 -38.432201
2249978125 -4.2478929 -39.385784 -4.3732052 30.960886 -4.3712974 30.820843 -4.2529378 -38.683392
2270912500 -4.2754741 -39.643749 -4.3345098 30.827782 -4.331768 30.683249 -4.2800188 -38.925385
2291846875 -4.30337 -39.892998 -4.2962623 30.687239 -4.2932763 30.544518 -4.3084841 -39.163555
2312781250 -4.3312583 -40.143929 -4.2595253 30.559599 -4.2562242 30.417871 -4.3376627 -39.396675
2333715625 -4.3602247 -40.392311 -4.2197266 30.434334 -4.2186637 30.282436 -4.3666043 -39.644157
2354650000 -4.3887563 -40.638012 -4.1817536 30.288593 -4.1820583 30.143965 -4.3956947 -39.885281
2375584375 -4.4159322 -40.883701 -4.1450253 30.14924 -4.1440029 30.010401 -4.4223275 -40.131424
2396518750 -4.4425788 -41.123493 -4.1099524 30.013323 -4.1092839 29.870132 -4.4498534 -40.361851
2417453125 -4.4695983 -41.36203 -4.0743327 29.878424 -4.0735493 29.748096 -4.47539 -40.579418
2438387500 -4.4961872 -41.595226 -4.0395632 29.742985 -4.0369668 29.606972 -4.5030899 -40.80946
2459321875 -4.5240893 -41.82626 -4.0030131 29.61134 -4.0034385 29.465611 -4.5322971 -41.028275
2480256250 -4.5509939 -42.059547 -3.9684823 29.472349 -3.9693439 29.329607 -4.5598907 -41.253231
2501190625 -4.5791259 -42.295883 -3.9332283 29.33695 -3.9354949 29.196774 -4.5860329 -41.481098
2522125000 -4.6063428 -42.518822 -3.9003167 29.180649 -3.900979 29.057268 -4.6116977 -41.707321
2543059375 -4.6321115 -42.746731 -3.8703475 29.05056 -3.8682926 28.913881 -4.6379595 -41.927032
2563993750 -4.659565 -42.975803 -3.8377228 28.920118 -3.8369939 28.784327 -4.665143 -42.128326
2584928125 -4.6871409 -43.196129 -3.8051209 28.785406 -3.8042984 28.647848 -4.691998 -42.341824
2605862500 -4.7162762 -43.409126 -3.7729797 28.646248 -3.7738781 28.510319 -4.721355 -42.555199
2626796875 -4.7445202 -43.627682 -3.7420399 28.509943 -3.7417898 28.375128 -4.7481823 -42.775883
2647731250 -4.7721381 -43.855125 -3.7099769 28.367559 -3.7116134 28.237585 -4.773829 -43.000202
2668665625 -4.7992091 -44.071873 -3.6810021 28.222038 -3.6806157 28.096373 -4.7999864 -43.221283
2689600000 -4.8252559 -44.285473 -3.6535218 28.086742 -3.6525118 27.951855 -4.8277225 -43.425064
2710534375 -4.8508511 -44.505852 -3.6256487 27.96652 -3.6245682 27.827509 -4.8557658 -43.623886
2731468750 -4.8789549 -44.731598 -3.5932751 27.84297 -3.5946021 27.696136 -4.8827467 -43.826378
2752403125 -4.907578 -44.937729 -3.5623653 27.685572 -3.5659451 27.556971 -4.9094934 -44.048141
2773337500 -4.9333191 -45.144238 -3.5364249 27.546385 -3.5378263 27.409018 -4.9375267 -44.267574
2794271875 -4.9593029 -45.362633 -3.5099216 27.412836 -3.5103276 27.271082 -4.9641581 -44.470623
2815206250 -4.984766 -45.580677 -3.4817853 27.278234 -3.4824705 27.142063 -4.9880571 -44.677517
2836140625 -5.0110207 -45.78022 -3.4557722 27.144478 -3.4559352 27.004126 -5.0156713 -44.880875
2857075000 -5.0367837 -45.984409 -3.4291053 27.01836 -3.4296176 26.873949 -5.0436134 -45.071537
2878009375 -5.0642395 -46.192101 -3.3995397 26.876785 -3.4031348 26.735603 -5.0707169 -45.2738
2898943750 -5.0910702 -46.388454 -3.3739903 26.727768 -3.3779647 26.598566 -5.096467 -45.468086
2919878125 -5.1161337 -46.589191 -3.35041 26.594255 -3.3513014 26.462868 -5.1205659 -45.682014
2940812500 -5.1410203 -46.788822 -3.3268507 26.46834 -3.3263741 26.323473 -5.1475701 -45.882885
2961746875 -5.1669092 -46.99387 -3.3002882 26.334913 -3.3024809 26.192703 -5.1733513 -46.062622
2982681250 -5.1922016 -47.180744 -3.2769327 26.200844 -3.2788525 26.059233 -5.2004237 -46.251541
3003615625 -5.2198792 -47.375954 -3.2516303 26.070166 -3.2548835 25.940338 -5.2265997 -46.429489
3024550000 -5.2458329 -47.554783 -3.2285593 25.924387 -3.2303414 25.797846 -5.2511592 -46.63578
3045484375 -5.2700925 -47.755398 -3.2064023 25.80479 -3.2074068 25.658308 -5.2783298 -46.833569
3066418750 -5.2974029 -47.957458 -3.1814439 25.677923 -3.1840901 25.529243 -5.3032608 -47.013638
3087353125 -5.3241363 -48.144066 -3.1577032 25.535488 -3.1617243 25.399822 -5.3279552 -47.199474
3108287500 -5.3489981 -48.316822 -3.1377017 25.393259 -3.1395907 25.274691 -5.3550315 -47.385765
3129221875 -5.3720722 -48.50811 -3.1175249 25.277557 -3.1176393 25.143375 -5.3818197 -47.572731
3150156250 -5.3982992 -48.711292 -3.0940566 25.16651 -3.0960019 25.011652 -5.4081316 -47.755764
3171090625 -5.426158 -48.90519 -3.0691371 25.033232 -3.0742855 24.881142 -5.4326344 -47.949471
3192025000 -5.4513421 -49.077896 -3.0486133 24.878471 -3.0529661 24.744312 -5.4579344 -48.139309
3212959375 -5.4749193 -49.257401 -3.0306959 24.757519 -3.0330064 24.614586 -5.4845648 -48.317551
3233893750 -5.4996376 -49.445812 -3.0099099 24.638674 -3.0127518 24.496975 -5.5102987 -48.479042
3254828125 -5.5241823 -49.624992 -2.9904552 24.518358 -2.9907863 24.373158 -5.5343852 -48.666958
3275762500 -5.5495191 -49.821255 -2.9670041 24.40299 -2.9712694 24.237215 -5.5631876 -48.860462
3296696875 -5.5754156 -49.995132 -2.945343 24.251272 -2.9519882 24.111437 -5.5879931 -49.030849
3317631250 -5.5986576 -50.17289 -2.9278295 24.127211 -2.9324861 23.981606 -5.6126904 -49.218658
3338565625 -5.6230903 -50.348492 -2.9091086 23.997622 -2.9138701 23.859037 -5.6365275 -49.374962
3359500000 -5.6456294 -50.521965 -2.8903587 23.883121 -2.8929489 23.736181 -5.6584921 -49.554008
3380434375 -5.6717873 -50.698776 -2.8688955 23.764847 -2.8754148 23.6063 -5.6875343 -49.732422
3401368750 -5.6980057 -50.858898 -2.8502464 23.613962 -2.8574214 23.489855 -5.7129912 -49.897724
3422303125 -5.7204752 -51.029198 -2.8350358 23.496605 -2.8391216 23.360668 -5.7384601 -50.08844
3443237500 -5.7444267 -51.217789 -2.8173463 23.396536 -2.8221097 23.241394 -5.763783 -50.252289
3464171875 -5.7707191 -51.394371 -2.7956126 23.271053 -2.803401 23.126141 -5.7850084 -50.409542
3485106250 -5.7960181 -51.548862 -2.7768922 23.133902 -2.7846131 23.003958 -5.8077555 -50.579872
3506040625 -5.8199062 -51.691277 -2.7622328 22.999905 -2.7665703 22.878017 -5.8324208 -50.749695
3526975000 -5.8413615 -51.852886 -2.7484305 22.898003 -2.750797 22.755859 -5.8606472 -50.919716
3547909375 -5.8670602 -52.038349 -2.7287035 22.791096 -2.7348318 22.643585 -5.8887534 -51.072598
3568843750 -5.891376 -52.203838 -2.7119765 22.658421 -2.716603 22.531836 -5.9084072 -51.235874
3589778125 -5.9138241 -52.379284 -2.6948512 22.563341 -2.6992278 22.403082 -5.9304142 -51.416443
3610712500 -5.9397187 -52.540253 -2.6741345 22.431553 -2.684083 22.284569 -5.9556665 -51.565563
3631646875 -5.9627304 -52.67461 -2.661752 22.291721 -2.6666422 22.171806 -5.977962 -51.708702
3652581250 -5.9832115 -52.831863 -2.6476097 22.19277 -2.6496277 22.051645 -6.0030799 -51.882904
3673515625 -6.0054617 -53.003098 -2.6313984 22.094658 -2.6346247 21.93 -6.0321589 -52.043087
3694450000 -6.0305614 -53.19479 -2.6114156 21.984062 -2.6195247 21.81336 -6.0562263 -52.192257
3715384375 -6.056303 -53.358288 -2.5927629 21.840382 -2.6042879 21.697807 -6.0782671 -52.354866
3736318750 -6.076828 -53.50642 -2.581049 21.722073 -2.5874732 21.585461 -6.0971498 -52.508377
3757253125 -6.0974069 -53.663429 -2.5654197 21.625364 -2.5722187 21.461496 -6.1204381 -52.683815
3778187500 -6.1220403 -53.802574 -2.5495079 21.497046 -2.5583303 21.347273 -6.1477633 -52.81498
3799121875 -6.144392 -53.958488 -2.5371211 21.390291 -2.542963 21.239405 -6.1706553 -52.95874
3820056250 -6.1698618 -54.130379 -2.5162785 21.28219 -2.5297482 21.124424 -6.1979823 -53.115311
3840990625 -6.1931343 -54.265465 -2.5043077 21.137236 -2.5140917 21.02018 -6.2181587 -53.25412
3861925000 -6.2126093 -54.430767 -2.4916172 21.046131 -2.4990668 20.897758 -6.2360344 -53.433094
3882859375 -6.2365723 -54.579178 -2.4747798 20.933249 -2.4854774 20.784193 -6.2617927 -53.58234
3903793750 -6.2585115 -54.712818 -2.4608495 20.810394 -2.4710426 20.676462 -6.2838364 -53.698849
3924728125 -6.281734 -54.841434 -2.4475076 20.68421 -2.4570808 20.558903 -6.305594 -53.841568
3945662500 -6.3022499 -54.981205 -2.4375184 20.579649 -2.4431903 20.44776 -6.3287506 -53.993256
3966596875 -6.3240161 -55.162807 -2.4210281 20.489668 -2.4301171 20.333912 -6.3510561 -54.152908
3987531250 -6.3500299 -55.30965 -2.4043417 20.354805 -2.4168804 20.225769 -6.3729396 -54.304943
4008465625 -6.3709698 -55.43787 -2.3971107 20.234669 -2.4034681 20.120672 -6.3925562 -54.437191
4029400000 -6.3895373 -55.589844 -2.38432 20.150524 -2.3899486 20.012882 -6.4120002 -54.575054
4050334375 -6.4131818 -55.728218 -2.3698428 20.040577 -2.3767028 19.903152 -6.4352088 -54.712814
4071268750 -6.4348803 -55.868904 -2.3572359 19.934803 -2.3632572 19.794073 -6.456677 -54.838947
4092203125 -6.4580898 -56.027576 -2.3430634 19.817844 -2.351192 19.679775 -6.4788132 -54.997864
4113137500 -6.4782295 -56.171795 -2.3335555 19.707829 -2.3400168 19.576069 -6.5032134 -55.131931
4134071875 -6.4981422 -56.343422 -2.3198237 19.623064 -2.326705 19.470661 -6.5219741 -55.262897
4155006250 -6.5188322 -56.481285 -2.3072391 19.513969 -2.3150401 19.363417 -6.543541 -55.402626
4175940625 -6.5402546 -56.626778 -2.2940776 19.425634 -2.3026674 19.263983 -6.564817 -55.507179
4196875000 -6.5653853 -56.756142 -2.2770822 19.291367 -2.2896748 19.150692 -6.5826974 -55.652802
4217809375 -6.584662 -56.869499 -2.2707469 19.175306 -2.2791333 19.046772 -6.6070061 -55.783379
4238743750 -6.6042056 -57.037384 -2.2594106 19.100199 -2.2670639 18.941368 -6.627862 -55.899376
