!Keysight Technologies,N5227A,US51270248,A.10.65.08
!Date: Tuesday, June 11, 2024 08:26:07
!Correction: S11(Full 2 Port(1,4)) 
!S41(Full 2 Port(1,4)) 
!S14(Full 2 Port(1,4)) 
!S44(Full 2 Port(1,4)) 
!S2P File: Measurements: S11, S41, S14, S44:
# Hz S  dB   R 50
10000000 -0.62668806 179.54732 -86.246948 78.423203 -80.10183 79.104652 -0.0019301552 -0.31545439
30934375 -0.65035206 179.64926 -66.290489 88.285744 -67.22747 90.442657 0.0014193632 -1.0035397
51868750 -0.64696103 179.48332 -61.903931 91.079659 -62.642769 90.388504 -0.0013626082 -1.6542634
72803125 -0.64088255 179.26933 -58.910213 91.850761 -59.707954 92.478821 -0.0050719935 -2.2990754
93737500 -0.64091522 179.05099 -56.824821 92.497917 -57.58342 93.185883 -0.011078428 -2.9217415
114671875 -0.64000046 178.84149 -55.043423 93.217659 -55.745399 94.004616 -0.016780172 -3.551527
135606250 -0.64959151 178.67516 -53.612846 94.095833 -54.34124 94.890701 -0.020447727 -4.1956058
156540625 -0.65064007 178.53712 -52.405289 95.071198 -53.138088 95.898575 -0.024262089 -4.8502841
177475000 -0.64852417 178.33878 -51.172554 95.688408 -52.057354 96.764938 -0.029420746 -5.4766312
198409375 -0.64896899 178.11171 -50.254459 96.457649 -50.992641 97.609604 -0.032874279 -6.0768933
219343750 -0.65327775 177.90305 -49.37756 96.993713 -50.041 98.396851 -0.036224745 -6.6972136
240278125 -0.65341496 177.73012 -48.553772 97.81501 -49.200352 99.104393 -0.043704581 -7.3413844
261212500 -0.65408218 177.56258 -47.768143 98.374306 -48.411728 99.680443 -0.052140202 -7.9798265
282146875 -0.65724421 177.38647 -47.063667 99.087242 -47.675713 100.38972 -0.058302663 -8.6141062
303081250 -0.66247809 177.21606 -46.393566 99.698814 -47.000683 101.08607 -0.063012689 -9.2408266
324015625 -0.66185385 177.04842 -45.781883 100.01727 -46.323662 101.12955 -0.068804659 -9.8495712
344950000 -0.66466689 176.84737 -45.204472 100.70332 -45.355953 101.10831 -0.074530534 -10.451004
365884375 -0.66291767 176.65863 -44.650829 101.49655 -44.369328 100.67793 -0.081551768 -11.065245
386818750 -0.66154373 176.49054 -44.090424 102.05343 -43.907738 101.48056 -0.091272555 -11.697227
407753125 -0.65961748 176.32877 -43.531311 102.46409 -43.287083 101.64065 -0.1016852 -12.306149
428687500 -0.66337931 176.14146 -43.065296 102.92388 -42.855259 102.29722 -0.10401076 -12.914523
449621875 -0.66616225 175.95119 -42.599293 103.37048 -42.478111 102.90639 -0.11070654 -13.544998
470556250 -0.66837019 175.76997 -42.142868 103.8413 -42.080959 103.52898 -0.11914518 -14.14474
491490625 -0.66780287 175.58211 -41.70509 104.3672 -41.637505 104.05309 -0.12789279 -14.736427
512425000 -0.66814941 175.39294 -41.248058 104.66944 -41.232201 104.74349 -0.1355392 -15.33912
533359375 -0.67011291 175.21329 -40.750664 104.7953 -40.796932 104.91949 -0.14480604 -15.955431
554293750 -0.67222911 175.04828 -40.381004 105.37405 -40.476585 105.71314 -0.15441939 -16.566835
575228125 -0.67257965 174.87109 -40.016384 105.88529 -40.081047 106.13815 -0.16187344 -17.165787
596162500 -0.67816299 174.68105 -39.687729 106.34228 -39.73077 106.51324 -0.16842581 -17.762808
617096875 -0.67837739 174.49098 -39.307983 106.71376 -39.369175 106.88645 -0.17843108 -18.362949
638031250 -0.67954332 174.31224 -38.966225 107.04945 -39.031078 107.36115 -0.18980528 -18.955286
658965625 -0.6798771 174.13858 -38.608498 107.38319 -38.68507 107.82544 -0.19963628 -19.547087
679900000 -0.68271506 173.96381 -38.27816 107.77147 -38.336472 108.02629 -0.20769398 -20.152861
700834375 -0.68674785 173.79207 -37.940369 108.02585 -38.041145 108.48837 -0.21913083 -20.750509
721768750 -0.68495625 173.61418 -37.635349 108.57681 -37.683319 108.84856 -0.2306473 -21.330372
742703125 -0.68656087 173.42595 -37.315804 108.90964 -37.350327 109.17458 -0.23998007 -21.894102
763637500 -0.68720102 173.24055 -37.028324 109.28962 -37.0751 109.50911 -0.24677804 -22.482437
784571875 -0.68952364 173.07146 -36.7477 109.61782 -36.789696 109.73071 -0.25762424 -23.076492
805506250 -0.68843782 172.90363 -36.451099 110.04906 -36.511219 110.28469 -0.26726609 -23.655979
826440625 -0.68924791 172.72578 -36.132256 110.56045 -36.145027 110.61014 -0.27717969 -24.240879
847375000 -0.69222218 172.53992 -35.81522 110.63667 -35.859932 110.88416 -0.2893137 -24.819109
868309375 -0.69271433 172.35594 -35.532761 110.79061 -35.591377 111.02599 -0.30191961 -25.378937
889243750 -0.69026148 172.16109 -35.26347 110.99765 -35.294857 111.16181 -0.31228453 -25.941011
910178125 -0.69408864 171.97945 -34.994343 111.15747 -35.011051 111.2975 -0.32194433 -26.52253
931112500 -0.69624841 171.81917 -34.747108 111.48914 -34.736237 111.33831 -0.33277613 -27.095436
952046875 -0.6975823 171.64624 -34.454147 111.56846 -34.49361 111.73918 -0.34262913 -27.658428
972981250 -0.69957805 171.45345 -34.211742 111.88168 -34.170845 111.56812 -0.3535538 -28.222574
993915625 -0.70152158 171.26009 -33.938412 111.95678 -33.909107 111.66138 -0.36651251 -28.786314
1014850000 -0.7061708 171.08644 -33.675964 112.0383 -33.693558 112.13219 -0.37852818 -29.349901
1035784375 -0.70275974 170.91208 -33.43784 112.1945 -33.466053 112.30037 -0.39016926 -29.915447
1056718750 -0.70584863 170.73174 -33.196892 112.39741 -33.200947 112.47842 -0.40076736 -30.479887
1077653125 -0.70915061 170.55745 -32.95224 112.52646 -32.956902 112.64248 -0.41036338 -31.036507
1098587500 -0.71581882 170.38809 -32.666298 112.21529 -32.722557 112.63088 -0.42050901 -31.575245
1119521875 -0.71394795 170.20132 -32.412018 112.11462 -32.431065 112.18851 -0.43354374 -32.122002
1140456250 -0.71330148 170.00351 -32.219353 112.43375 -32.239883 112.60152 -0.44687846 -32.669704
1161390625 -0.71432346 169.82718 -31.995096 112.5729 -32.024494 112.902 -0.45902237 -33.216534
1182325000 -0.71657532 169.65932 -31.786102 112.79972 -31.803217 113.05183 -0.46790916 -33.769588
1203259375 -0.72018516 169.48586 -31.51235 112.41743 -31.560911 112.72579 -0.47791296 -34.323391
1224193750 -0.72145814 169.30412 -31.288906 112.32119 -31.3787 113.00513 -0.48779255 -34.869827
1245128125 -0.72602612 169.11688 -31.113852 112.62486 -31.178301 113.10017 -0.50118285 -35.39518
1266062500 -0.72454941 168.93004 -30.855476 112.21268 -30.971941 113.13664 -0.51524949 -35.927158
1286996875 -0.7230286 168.74017 -30.694435 112.67462 -30.729366 112.84885 -0.52879077 -36.468895
1307931250 -0.72008455 168.55981 -30.488058 112.5977 -30.535721 112.968 -0.54177833 -37.014191
1328865625 -0.72412509 168.39487 -30.309929 112.83778 -30.361145 113.19971 -0.55208749 -37.55423
1349800000 -0.72657478 168.22589 -30.118814 112.84478 -30.163137 113.14379 -0.56181175 -38.081123
1370734375 -0.72830588 168.03732 -29.910746 112.72403 -29.982071 113.12356 -0.57419741 -38.602306
1391668750 -0.7294634 167.83926 -29.736986 112.9121 -29.783861 113.24065 -0.58797443 -39.122707
1412603125 -0.73109442 167.65034 -29.513847 112.55278 -29.597038 113.29935 -0.60135329 -39.641224
1433537500 -0.73098636 167.47374 -29.347626 112.82422 -29.407534 113.29916 -0.61387599 -40.177013
1454471875 -0.73717463 167.30324 -29.158772 112.72933 -29.207224 113.20844 -0.62525702 -40.711937
1475406250 -0.7372281 167.13425 -28.980001 112.69493 -29.04228 113.09414 -0.63726741 -41.231522
1496340625 -0.74145365 166.96266 -28.789307 112.53738 -28.871838 113.22549 -0.64859152 -41.734787
1517275000 -0.7436735 166.77185 -28.585289 112.19602 -28.687294 113.20622 -0.66079456 -42.228497
1538209375 -0.75001031 166.5667 -28.420103 112.35757 -28.510454 113.18475 -0.67424244 -42.738888
1559143750 -0.74667203 166.37529 -28.233641 112.13971 -28.319895 113.02137 -0.68849522 -43.250267
1580078125 -0.74885881 166.20633 -28.086216 112.33984 -28.162811 113.04886 -0.6987704 -43.772591
1601012500 -0.75322533 166.04097 -27.924101 112.35633 -27.987455 113.00938 -0.70920908 -44.296856
1621946875 -0.75484639 165.86632 -27.767118 112.41074 -27.820753 112.8578 -0.72255927 -44.800804
1642881250 -0.7567994 165.67783 -27.612202 112.49223 -27.661772 112.77431 -0.73610044 -45.276463
1663815625 -0.75827169 165.48485 -27.445677 112.38213 -27.502262 112.7858 -0.74833572 -45.760571
1684750000 -0.7597152 165.29105 -27.282452 112.3061 -27.337446 112.70113 -0.76083875 -46.265549
1705684375 -0.76216048 165.11584 -27.124865 112.13909 -27.175528 112.57622 -0.77460712 -46.779121
1726618750 -0.76581258 164.95799 -26.97261 112.04259 -27.023285 112.51286 -0.78708947 -47.28035
1747553125 -0.76852876 164.79709 -26.82682 112.17516 -26.869001 112.44472 -0.79904044 -47.768917
1768487500 -0.77350748 164.61795 -26.662687 112.02862 -26.720308 112.33048 -0.81172436 -48.244312
1789421875 -0.77779746 164.43042 -26.514528 111.96339 -26.572687 112.28973 -0.82534176 -48.711723
1810356250 -0.7764585 164.25294 -26.370066 111.90923 -26.419611 112.21545 -0.83885014 -49.193474
1831290625 -0.77793926 164.08263 -26.220394 111.83882 -26.264339 112.16962 -0.85127103 -49.685322
1852225000 -0.77969927 163.9248 -26.07271 111.76971 -26.113039 112.00852 -0.86298257 -50.175877
1873159375 -0.78169483 163.7692 -25.911688 111.42525 -25.940441 111.4835 -0.87784916 -50.644611
1894093750 -0.7846449 163.6004 -25.772429 111.43067 -25.798134 111.48892 -0.88942641 -51.11541
1915028125 -0.78570437 163.40993 -25.631035 111.3773 -25.669144 111.22147 -0.9029839 -51.580845
1935962500 -0.79578781 163.22078 -25.490259 111.15041 -25.539589 111.42842 -0.9158805 -52.046551
1956896875 -0.79358006 163.05148 -25.355091 111.03385 -25.374643 111.11113 -0.92787844 -52.516487
1977831250 -0.79551524 162.90306 -25.217907 110.81938 -25.249727 111.03508 -0.93763787 -52.995918
1998765625 -0.79710555 162.74747 -25.106865 110.90878 -25.130226 110.92941 -0.94880712 -53.471375
2019700000 -0.83442056 162.5869 -24.970205 110.72079 -25.00802 110.78524 -0.96128845 -53.925869
2040634375 -0.83059329 162.40669 -24.838556 110.64106 -24.87417 110.89452 -0.97393483 -54.374718
2061568750 -0.8266415 162.21896 -24.712397 110.60812 -24.735445 110.6514 -0.98593307 -54.833851
2082503125 -0.84030145 162.03993 -24.584616 110.4468 -24.614382 110.48437 -0.99856597 -55.299404
2103437500 -0.83044982 161.87462 -24.467943 110.49727 -24.484751 110.26587 -1.0094442 -55.758743
2124371875 -0.82628787 161.71442 -24.318647 110.04691 -24.374462 110.31997 -1.0195187 -56.220783
2145306250 -0.82203293 161.53799 -24.204874 110.1953 -24.242905 110.32518 -1.0315605 -56.667557
2166240625 -0.82395232 161.34105 -24.083099 110.0948 -24.121307 110.21378 -1.0443581 -57.104721
2187175000 -0.82150352 161.14903 -23.96059 110.05659 -24.00247 110.0717 -1.0570641 -57.539494
2208109375 -0.82247573 160.96693 -23.833366 109.96609 -23.891777 110.01671 -1.0692188 -57.99379
2229043750 -0.81627476 160.77988 -23.706575 109.82606 -23.767822 109.95373 -1.0818233 -58.454098
2249978125 -0.81690079 160.59518 -23.588196 109.75146 -23.638783 109.88341 -1.0923414 -58.899475
2270912500 -0.82043368 160.4165 -23.464457 109.52052 -23.512224 109.72697 -1.1027906 -59.331928
2291846875 -0.83322626 160.23874 -23.351227 109.42259 -23.395428 109.48612 -1.1153327 -59.763638
2312781250 -0.8248831 160.04086 -23.236361 109.30322 -23.292667 109.36069 -1.1298071 -60.192402
2333715625 -0.82708359 159.85265 -23.117117 109.0332 -23.173712 109.27713 -1.1423485 -60.633625
2354650000 -0.83007485 159.6841 -23.008806 109.01124 -23.069506 109.20303 -1.1542909 -61.080154
2375584375 -0.83358318 159.52173 -22.894693 108.92133 -22.947681 109.18179 -1.1645491 -61.525875
2396518750 -0.83330482 159.34694 -22.78253 108.87112 -22.828487 108.9687 -1.1743758 -61.948627
2417453125 -0.8338992 159.15793 -22.666231 108.75542 -22.722992 108.92048 -1.186723 -62.355099
2438387500 -0.84365815 158.96414 -22.552902 108.62031 -22.589153 108.83871 -1.1975884 -62.77248
2459321875 -0.83946955 158.76111 -22.433697 108.41804 -22.477381 108.50852 -1.2096598 -63.198483
2480256250 -0.83953053 158.57784 -22.329397 108.32661 -22.38023 108.40193 -1.2213178 -63.635452
2501190625 -0.84201574 158.41191 -22.218298 108.1973 -22.278402 108.25964 -1.2302935 -64.071152
2522125000 -0.84407604 158.239 -22.110037 108.04376 -22.16309 108.24745 -1.2402648 -64.485954
2543059375 -0.84888083 158.04672 -22.004131 107.89365 -22.037479 107.96156 -1.2499295 -64.882683
2563993750 -0.85053754 157.84996 -21.897776 107.82738 -21.941748 107.73216 -1.2611419 -65.280022
2584928125 -0.84889585 157.65814 -21.79125 107.68488 -21.827385 107.54592 -1.2739264 -65.698891
2605862500 -0.8480376 157.46606 -21.685669 107.54154 -21.737888 107.45544 -1.2855117 -66.127647
2626796875 -0.84762019 157.28052 -21.580605 107.34077 -21.642395 107.25612 -1.297428 -66.55204
2647731250 -0.85112774 157.11076 -21.478354 107.13119 -21.541466 107.26051 -1.304664 -66.973228
2668665625 -0.85420376 156.93655 -21.38167 106.98088 -21.428297 107.10982 -1.3157148 -67.374268
2689600000 -0.85945016 156.73532 -21.280235 106.75517 -21.323612 106.84499 -1.3260912 -67.760246
2710534375 -0.86150914 156.53947 -21.18574 106.72353 -21.247864 106.68916 -1.338374 -68.154068
2731468750 -0.86306512 156.35548 -21.076618 106.55774 -21.152365 106.65603 -1.3496475 -68.57576
2752403125 -0.86759907 156.18231 -20.984432 106.42687 -21.045834 106.53967 -1.3605117 -68.990059
2773337500 -0.86707526 156.0123 -20.889772 106.27245 -20.939924 106.3168 -1.3691781 -69.406685
2794271875 -0.87293267 155.84448 -20.79015 106.00874 -20.859848 105.98225 -1.3814062 -69.804649
2815206250 -0.87624669 155.67102 -20.696148 106.00775 -20.761435 106.06446 -1.3915466 -70.188011
2836140625 -0.87986797 155.47511 -20.597975 105.81077 -20.647783 105.78625 -1.4035581 -70.560417
2857075000 -0.88306391 155.27943 -20.499958 105.67723 -20.560011 105.66701 -1.4127672 -70.960869
2878009375 -0.88727391 155.11432 -20.404133 105.44449 -20.461754 105.41678 -1.4234217 -71.377869
2898943750 -0.88356119 154.95236 -20.313103 105.25479 -20.390072 105.29619 -1.4341902 -71.788162
2919878125 -0.88552678 154.7699 -20.22559 105.23478 -20.286743 105.31493 -1.4427317 -72.172394
2940812500 -0.89301252 154.57524 -20.123737 104.77491 -20.181198 105.03281 -1.4521505 -72.542534
2961746875 -0.89541608 154.38867 -20.033951 104.73052 -20.094126 104.87831 -1.4638249 -72.914894
2982681250 -0.89514869 154.19241 -19.943283 104.51368 -20.002489 104.6118 -1.4749095 -73.296928
3003615625 -0.89630383 153.99715 -19.855307 104.39385 -19.934492 104.53673 -1.4843086 -73.687889
3024550000 -0.90232325 153.81673 -19.771603 104.25556 -19.827946 104.46484 -1.4926816 -74.089882
3045484375 -0.90548807 153.64571 -19.67922 104.00005 -19.735826 104.07152 -1.5021452 -74.480309
3066418750 -0.90440983 153.47006 -19.592438 103.96423 -19.668398 103.94447 -1.5124282 -74.849342
3087353125 -0.90548623 153.27165 -19.506413 103.68182 -19.575134 103.83414 -1.5247134 -75.196266
3108287500 -0.90801263 153.06036 -19.430195 103.58819 -19.483801 103.6625 -1.534685 -75.564674
3129221875 -0.90728301 152.86238 -19.34305 103.42278 -19.396212 103.41758 -1.5457144 -75.950539
3150156250 -0.90933585 152.67885 -19.253969 103.22968 -19.325016 103.22454 -1.5550833 -76.339943
3171090625 -0.91390914 152.51161 -19.1733 103.07624 -19.244547 103.04276 -1.5620085 -76.728264
3192025000 -0.92858738 152.35721 -19.099167 102.81265 -19.16054 102.90372 -1.5713239 -77.089111
3212959375 -0.92936873 152.1723 -19.019417 102.71593 -19.080145 102.62434 -1.5822331 -77.437057
3233893750 -0.93162251 151.95728 -18.937006 102.56827 -19.019829 102.52032 -1.5933126 -77.789917
3254828125 -0.93023163 151.74924 -18.857517 102.39336 -18.923965 102.49821 -1.6043106 -78.155426
3275762500 -0.93310189 151.562 -18.772177 102.23068 -18.827999 102.16223 -1.6130209 -78.543076
3296696875 -0.9362753 151.40181 -18.700453 101.87976 -18.773132 101.95612 -1.6214386 -78.916809
3317631250 -0.94009811 151.23061 -18.626801 101.86507 -18.693472 101.76379 -1.6281402 -79.274323
3338565625 -0.94620943 151.03978 -18.551025 101.70045 -18.642378 101.5898 -1.6378105 -79.619453
3359500000 -0.95256048 150.82901 -18.470097 101.53641 -18.55279 101.646 -1.6484915 -79.958618
3380434375 -0.95465082 150.61034 -18.391102 101.32489 -18.458445 101.28529 -1.6597137 -80.310402
3401368750 -0.95855081 150.42535 -18.326021 101.10883 -18.406675 101.18211 -1.668685 -80.683739
3422303125 -0.96781027 150.2606 -18.256903 101.07207 -18.315018 101.02169 -1.6770113 -81.052345
3443237500 -0.97061765 150.09631 -18.170918 100.84145 -18.260931 100.67146 -1.6846348 -81.404701
3464171875 -0.97293562 149.91229 -18.095007 100.65186 -18.205965 100.68499 -1.6918986 -81.744553
3485106250 -0.978881 149.71133 -18.029451 100.50449 -18.126394 100.60876 -1.7011981 -82.074883
3506040625 -0.98918086 149.50842 -17.964437 100.33064 -18.037533 100.53765 -1.7135116 -82.412994
3526975000 -0.9861455 149.3177 -17.889992 100.26414 -17.937037 100.20586 -1.7236035 -82.761612
3547909375 -0.98564154 149.15388 -17.802954 99.657875 -17.895866 99.714134 -1.7332273 -83.129028
3568843750 -0.98455781 149.00615 -17.740864 99.779854 -17.836586 99.849915 -1.7394375 -83.481979
3589778125 -0.99006498 148.84235 -17.657894 99.627441 -17.740688 99.733551 -1.7446861 -83.816757
3610712500 -0.99418581 148.65337 -17.590841 99.405273 -17.675518 99.483841 -1.7522119 -84.137314
3631646875 -0.99656475 148.45013 -17.52997 99.302208 -17.616203 99.466736 -1.7641939 -84.458076
3652581250 -0.99826771 148.24219 -17.456057 99.17054 -17.512806 99.300667 -1.7751522 -84.799019
3673515625 -1.0005217 148.05876 -17.379639 99.061981 -17.435602 98.961113 -1.7823908 -85.167191
3694450000 -1.0030931 147.91022 -17.303078 98.748192 -17.392551 98.766548 -1.7903503 -85.523727
3715384375 -1.0137677 147.76526 -17.243979 98.561935 -17.33408 98.592796 -1.7973688 -85.84745
3736318750 -1.056113 147.60901 -17.177507 98.522545 -17.276049 98.590439 -1.8037255 -86.148872
3757253125 -1.0933439 147.4213 -17.104227 98.323524 -17.171751 98.514038 -1.8156093 -86.461868
3778187500 -1.1062036 147.21826 -17.04455 98.161583 -17.092716 98.115562 -1.8228095 -86.808838
3799121875 -1.1234426 147.07535 -16.971819 98.001419 -17.045221 98.010063 -1.8316861 -87.148987
3820056250 -1.173414 146.90157 -16.898853 97.784172 -16.966427 97.707932 -1.8420842 -87.492546
3840990625 -1.1288514 146.69975 -16.845585 97.598656 -16.952677 97.635201 -1.846158 -87.815918
3861925000 -1.1352845 146.59236 -16.77014 97.320938 -16.854725 97.783951 -1.851784 -88.120995
3882859375 -1.2153491 146.34579 -16.704929 97.279274 -16.746262 97.386757 -1.858595 -88.435051
3903793750 -1.1303343 146.1153 -16.642626 97.033844 -16.724709 97.02858 -1.8692638 -88.740616
3924728125 -1.168 145.98315 -16.586069 96.944122 -16.662363 96.989273 -1.8785715 -89.082573
3945662500 -1.2902731 145.78763 -16.519817 96.786781 -16.60285 96.89843 -1.8869916 -89.421959
3966596875 -1.1413965 145.59634 -16.444622 96.560669 -16.523067 96.746834 -1.8933555 -89.740952
3987531250 -1.1861824 145.44502 -16.392584 96.401794 -16.453182 96.50592 -1.8981342 -90.046249
4008465625 -1.2081163 145.16544 -16.337015 96.25338 -16.401297 96.337029 -1.9046385 -90.33403
4029400000 -1.1452684 145.01755 -16.262882 96.163551 -16.332323 96.226295 -1.9119813 -90.637924
4050334375 -1.175853 144.80621 -16.195457 95.563255 -16.261211 95.829765 -1.9245372 -90.959808
4071268750 -1.1797441 144.57326 -16.136385 95.535583 -16.221495 95.709412 -1.9317622 -91.2901
4092203125 -1.1820858 144.46385 -16.076206 95.262169 -16.139624 95.665359 -1.9406627 -91.602859
4113137500 -1.2133586 144.29079 -16.018551 95.288017 -16.056345 95.378433 -1.9449507 -91.903801
4134071875 -1.1874212 144.09178 -15.945741 95.118126 -16.022043 95.222336 -1.9487736 -92.19516
4155006250 -1.2066748 143.94698 -15.887197 95.002037 -15.935753 94.972443 -1.9575551 -92.488327
4175940625 -1.3116086 143.78841 -15.819371 94.848244 -15.913975 94.690773 -1.967113 -92.794159
4196875000 -1.4955871 143.77306 -15.769667 94.51667 -15.846177 94.943565 -1.9729406 -93.110664
4217809375 -1.4783595 143.60583 -15.719718 94.443085 -15.719516 94.483467 -1.9833561 -93.449715
