!Keysight Technologies,N5227A,US51270248,A.10.65.08
!Date: Tuesday, June 11, 2024 06:15:56
!Correction: S11(Full 2 Port(1,4)) 
!S41(Full 2 Port(1,4)) 
!S14(Full 2 Port(1,4)) 
!S44(Full 2 Port(1,4)) 
!S2P File: Measurements: S11, S41, S14, S44:
# Hz S  dB   R 50
10000000 -0.12492005 179.89325 -46.783318 1.1336421 -46.835651 1.164669 0.046930503 179.96118
30934375 -0.12928407 179.95621 -46.837196 -0.11815854 -46.800148 -0.299009 0.022212923 -179.9704
51868750 -0.12809114 179.95482 -46.867352 -0.2512683 -46.820652 -0.37665033 0.010439103 -179.94496
72803125 -0.12620158 179.92848 -46.928555 -0.095903382 -46.867172 -0.13598605 0.0057493546 -179.93492
93737500 -0.12599973 179.90417 -46.961292 0.12133034 -46.901741 -0.11628626 0.0045852643 -179.9287
114671875 -0.12731457 179.88341 -46.991428 0.21816815 -46.956409 0.10916103 0.0052246698 -179.92409
135606250 -0.1296721 179.87018 -47.004543 0.39054632 -46.982578 0.35748538 0.0050749425 -179.91298
156540625 -0.13233499 179.855 -47.004517 0.60785592 -47.000469 0.57381159 0.0058208695 -179.90504
177475000 -0.13330561 179.83736 -47.011871 0.80940509 -47.011696 0.76425248 0.0070120236 -179.90825
198409375 -0.13520932 179.811 -47.049976 1.0459563 -47.039879 0.91083688 0.007001814 -179.91658
219343750 -0.13726661 179.79474 -47.085659 1.3071035 -47.086132 1.3823529 -0.0064469329 -179.9258
240278125 -0.13693459 179.7926 -47.097466 1.5037746 -47.117283 1.5385245 -0.022018541 -179.93436
261212500 -0.13656442 179.78613 -47.139038 1.9632139 -47.135029 1.6702468 -0.023185261 -179.93654
282146875 -0.13792774 179.77089 -47.161617 2.3188972 -47.183189 2.2437112 -0.021489324 -179.94527
303081250 -0.13985154 179.76149 -47.180115 2.6190765 -47.169022 2.5645468 -0.02218215 -179.95242
324015625 -0.1409799 179.75371 -47.177113 3.0885849 -47.163197 3.0422411 -0.021993592 -179.96539
344950000 -0.14202611 179.73969 -47.176777 3.3596151 -47.198498 3.2286186 -0.024075765 -179.98137
365884375 -0.14231822 179.73444 -47.174908 3.6501048 -47.203712 3.4558249 -0.023388308 -179.99309
386818750 -0.14508297 179.71461 -47.176491 3.7759368 -47.206837 3.7714696 -0.021752259 179.99684
407753125 -0.14658485 179.69809 -47.199589 4.0409689 -47.238106 4.0359554 -0.021081042 179.98878
428687500 -0.14464533 179.70145 -47.220028 4.4745798 -47.258755 4.3858829 -0.023126977 179.9754
449621875 -0.14560331 179.69466 -47.217205 4.8352919 -47.239918 4.8397641 -0.024353372 179.96475
470556250 -0.14798792 179.68359 -47.240009 5.1283364 -47.265331 5.0569172 -0.02666737 179.94879
491490625 -0.14848348 179.67491 -47.259464 5.4836512 -47.268089 5.5088301 -0.026716523 179.93129
512425000 -0.1498275 179.66335 -47.246483 5.792109 -47.27528 5.7656407 -0.027250726 179.91504
533359375 -0.14959362 179.66042 -47.290897 6.1877265 -47.29351 6.20013 -0.026525041 179.90549
554293750 -0.14961153 179.65982 -47.251759 6.4251575 -47.303818 6.421082 -0.025344253 179.89574
575228125 -0.15078215 179.65247 -47.259415 6.7610393 -47.315056 6.8933573 -0.02643981 179.8864
596162500 -0.15063563 179.64896 -47.301929 7.1746068 -47.311474 7.014998 -0.026520152 179.87444
617096875 -0.15300514 179.63367 -47.267982 7.4466853 -47.323181 7.4419088 -0.025844682 179.85721
638031250 -0.15283255 179.63174 -47.293705 7.7924151 -47.290173 7.7164774 -0.027052162 179.84061
658965625 -0.15434901 179.62251 -47.269733 8.0259924 -47.308128 8.1190386 -0.02737887 179.82541
679900000 -0.1565031 179.61049 -47.295303 8.3116198 -47.318398 8.35849 -0.026760917 179.81891
700834375 -0.15581264 179.61363 -47.306648 8.7062502 -47.332352 8.785881 -0.025683833 179.81131
721768750 -0.15677498 179.60327 -47.273937 9.079854 -47.319267 9.1011095 -0.026248666 179.80191
742703125 -0.15763736 179.59471 -47.283997 9.3529415 -47.291019 9.4615641 -0.025861148 179.78732
763637500 -0.15883285 179.58185 -47.276821 9.6271095 -47.310055 9.738308 -0.026655363 179.77516
784571875 -0.16241843 179.56258 -47.302818 10.062498 -47.324799 9.9900742 -0.027210763 179.76196
805506250 -0.16136941 179.56451 -47.297958 10.339856 -47.33363 10.465261 -0.026292661 179.74609
826440625 -0.16069683 179.56303 -47.289558 10.782732 -47.307629 10.792572 -0.026328854 179.73601
847375000 -0.16215505 179.55118 -47.297649 11.053891 -47.298599 11.033421 -0.026270188 179.72581
868309375 -0.16120522 179.54732 -47.301552 11.508992 -47.307312 11.367193 -0.025269452 179.71584
889243750 -0.1594384 179.54504 -47.293118 11.682858 -47.317898 11.80305 -0.025295651 179.70329
910178125 -0.16239874 179.53119 -47.283733 12.089123 -47.297836 12.199923 -0.02608775 179.69316
931112500 -0.16219905 179.53139 -47.271229 12.301231 -47.305981 12.439195 -0.026300449 179.68163
952046875 -0.16316992 179.52438 -47.300301 12.786948 -47.319504 12.804829 -0.026610911 179.66707
972981250 -0.16225548 179.52127 -47.284229 13.32565 -47.31023 13.147523 -0.026318284 179.65747
993915625 -0.16134028 179.51709 -47.261505 13.480435 -47.302635 13.567221 -0.026250599 179.6499
1014850000 -0.16966 179.4863 -47.280956 13.939636 -47.295799 13.876223 -0.025164217 179.64261
1035784375 -0.16843106 179.4875 -47.260223 14.2804 -47.290237 14.23237 -0.025335772 179.63469
1056718750 -0.16631556 179.49022 -47.256435 14.420968 -47.292439 14.64008 -0.026147924 179.62463
1077653125 -0.16697618 179.48543 -47.257435 14.889292 -47.265125 14.878852 -0.02701137 179.61261
1098587500 -0.16771016 179.48064 -47.246227 15.159685 -47.266617 15.215917 -0.027556665 179.6011
1119521875 -0.16770253 179.47473 -47.247459 15.671139 -47.266563 15.557918 -0.027252881 179.58998
1140456250 -0.16627584 179.46829 -47.226639 16.021168 -47.268028 15.963418 -0.026565313 179.58244
1161390625 -0.16690701 179.46191 -47.221043 16.304684 -47.238892 16.403311 -0.025628936 179.57397
1182325000 -0.17055447 179.44815 -47.218475 16.487745 -47.233768 16.65901 -0.025789229 179.56517
1203259375 -0.16689834 179.45549 -47.215565 16.842709 -47.235542 16.938572 -0.027332142 179.55403
1224193750 -0.16749212 179.44966 -47.208225 17.206612 -47.22374 17.294603 -0.028154066 179.54208
1245128125 -0.16729626 179.44386 -47.183697 17.612631 -47.227108 17.588686 -0.028395168 179.52821
1266062500 -0.16618924 179.43869 -47.200146 17.906137 -47.219448 17.969931 -0.028047347 179.51523
1286996875 -0.16480142 179.43234 -47.188015 18.356234 -47.195683 18.365204 -0.027251309 179.50774
1307931250 -0.16588698 179.4223 -47.15229 18.607782 -47.186752 18.65724 -0.027111432 179.50206
1328865625 -0.16664711 179.41725 -47.173367 18.940575 -47.176613 18.992777 -0.026862565 179.49455
1349800000 -0.16974539 179.40991 -47.1642 19.313972 -47.17522 19.222874 -0.027454935 179.48668
1370734375 -0.16716115 179.40741 -47.144436 19.606453 -47.179302 19.610601 -0.028199222 179.47569
1391668750 -0.16860864 179.39284 -47.153278 20.070051 -47.170475 20.017841 -0.027609156 179.46056
1412603125 -0.17304169 179.37228 -47.121506 20.453049 -47.14352 20.439577 -0.027280165 179.44888
1433537500 -0.17276312 179.36772 -47.112965 20.910822 -47.134895 20.884224 -0.026554171 179.44185
1454471875 -0.1681487 179.37686 -47.088604 21.17374 -47.089153 21.114729 -0.027011301 179.43842
1475406250 -0.17126003 179.36955 -47.067364 21.346508 -47.107056 21.422894 -0.027143706 179.43283
1496340625 -0.16874328 179.37282 -47.061077 21.795938 -47.104256 21.865475 -0.027776737 179.42111
1517275000 -0.17654514 179.34851 -47.037544 22.204748 -47.097218 22.168919 -0.028535541 179.40468
1538209375 -0.17259742 179.34698 -47.032024 22.408585 -47.067047 22.41967 -0.029166197 179.39261
1559143750 -0.17124391 179.34303 -47.028755 22.923862 -47.059216 22.874748 -0.029153552 179.38066
1580078125 -0.17290206 179.33391 -46.997631 23.241009 -47.049244 23.140245 -0.028889712 179.37282
1601012500 -0.17548893 179.32591 -46.98542 23.471207 -47.02417 23.606129 -0.029190872 179.36681
1621946875 -0.17272353 179.32944 -46.958973 23.786549 -46.99828 23.841129 -0.029718071 179.36028
1642881250 -0.1707613 179.32536 -46.964619 24.172739 -47.000954 24.233942 -0.029468819 179.34668
1663815625 -0.17253615 179.31244 -46.944813 24.563442 -46.969719 24.638283 -0.030431883 179.33055
1684750000 -0.17447691 179.29929 -46.92646 24.768837 -46.975052 24.972887 -0.030171907 179.31708
1705684375 -0.17202556 179.29758 -46.903622 25.393456 -46.96365 25.313381 -0.030649703 179.30811
1726618750 -0.17162 179.29587 -46.850754 25.580788 -46.937496 25.743681 -0.030447187 179.30309
1747553125 -0.17012583 179.29684 -46.883595 25.895819 -46.89706 26.022755 -0.03041227 179.29518
1768487500 -0.1724171 179.28641 -46.879856 26.469933 -46.904915 26.397274 -0.031120474 179.28551
1789421875 -0.17041646 179.28041 -46.849018 26.772026 -46.867279 26.831511 -0.031099351 179.2709
1810356250 -0.16930413 179.27441 -46.80814 27.127756 -46.863552 27.327002 -0.031277258 179.25685
1831290625 -0.17010143 179.26297 -46.785347 27.453545 -46.821445 27.702536 -0.031465013 179.24644
1852225000 -0.17294669 179.25539 -46.802525 27.751514 -46.802723 28.042847 -0.031522572 179.23784
1873159375 -0.17448628 179.25342 -46.745289 28.280212 -46.783592 28.359383 -0.031598404 179.22911
1894093750 -0.17813428 179.24467 -46.706947 28.599773 -46.708347 28.647266 -0.031867251 179.22185
1915028125 -0.17638315 179.23973 -46.686497 28.83223 -46.72879 28.939253 -0.031703871 179.20848
1935962500 -0.17873116 179.22441 -46.667324 29.203495 -46.701962 29.451635 -0.031821094 179.19705
1956896875 -0.17429301 179.22795 -46.673519 29.631912 -46.657379 29.841234 -0.031950649 179.18353
1977831250 -0.17513365 179.22311 -46.608757 29.939957 -46.610497 30.154135 -0.032853294 179.1718
1998765625 -0.17851199 179.214 -46.558189 30.45451 -46.57056 30.393461 -0.032885224 179.16364
2019700000 -0.17677589 179.21269 -46.504417 30.696796 -46.551594 30.65489 -0.032743413 179.15433
2040634375 -0.17606263 179.20741 -46.471329 30.835186 -46.501823 31.012646 -0.033092123 179.14346
2061568750 -0.17510994 179.20085 -46.44965 31.182842 -46.461533 31.350237 -0.033062223 179.13196
2082503125 -0.17871459 179.18661 -46.410465 31.612179 -46.427254 31.537331 -0.033502106 179.12012
2103437500 -0.17737128 179.18202 -46.356998 31.801369 -46.398632 31.762672 -0.034046829 179.10834
2124371875 -0.17476688 179.18419 -46.323559 31.869339 -46.376091 32.054466 -0.03458181 179.09503
2145306250 -0.17259459 179.18214 -46.301704 32.278358 -46.337585 32.287567 -0.035351306 179.08257
2166240625 -0.17484002 179.1676 -46.263332 32.378395 -46.302406 32.573025 -0.035588942 179.07236
2187175000 -0.17428128 179.16028 -46.237881 32.566479 -46.25462 32.694923 -0.035235211 179.05779
2208109375 -0.17260504 179.15616 -46.190487 32.843834 -46.255356 32.861107 -0.035590716 179.04756
2229043750 -0.17230345 179.14767 -46.181927 33.085033 -46.222134 33.1777 -0.036317553 179.03853
2249978125 -0.17469816 179.13777 -46.163925 33.377705 -46.191292 33.440609 -0.036708586 179.02715
2270912500 -0.17569463 179.13341 -46.146023 33.548523 -46.158943 33.713379 -0.036977109 179.01338
2291846875 -0.17282102 179.13348 -46.106773 33.924076 -46.129128 33.835003 -0.038107105 178.99953
2312781250 -0.17162813 179.12646 -46.062901 34.04858 -46.1026 34.254375 -0.037592623 178.98775
2333715625 -0.17075877 179.12186 -46.061172 34.269428 -46.077625 34.430286 -0.037479829 178.9758
2354650000 -0.17682852 179.10684 -46.029812 34.620811 -46.040012 34.653767 -0.03765095 178.96817
2375584375 -0.17282656 179.1084 -45.985153 34.89674 -46.011463 34.947727 -0.038071815 178.9612
2396518750 -0.17199804 179.10757 -45.952274 35.065182 -45.971077 35.126472 -0.038061157 178.95056
2417453125 -0.17746268 179.09486 -45.918793 35.282146 -45.971191 35.383591 -0.038962893 178.93509
2438387500 -0.17732683 179.08913 -45.889339 35.527626 -45.914051 35.647709 -0.039572295 178.92015
2459321875 -0.17724493 179.07996 -45.871975 35.765476 -45.883881 35.785431 -0.040011726 178.90871
2480256250 -0.17407505 179.07748 -45.838512 35.865643 -45.868736 35.912811 -0.040402945 178.8992
2501190625 -0.17677476 179.06902 -45.835011 36.036732 -45.859089 36.138584 -0.040586784 178.89287
2522125000 -0.17716956 179.06538 -45.803295 36.425541 -45.810654 36.508656 -0.04142442 178.88647
2543059375 -0.17780791 179.06047 -45.755909 36.539974 -45.770287 36.722733 -0.041933414 178.87161
2563993750 -0.17412406 179.05795 -45.725727 36.747486 -45.750282 36.748207 -0.042488284 178.85387
2584928125 -0.17752291 179.04523 -45.689857 36.87669 -45.715073 37.101353 -0.043070797 178.83926
2605862500 -0.17585193 179.03831 -45.671452 37.155659 -45.706665 37.263802 -0.043205835 178.82823
2626796875 -0.17466915 179.03198 -45.668545 37.358067 -45.708488 37.356487 -0.043794781 178.8208
2647731250 -0.1729608 179.03035 -45.655453 37.616173 -45.681087 37.838314 -0.044087119 178.81161
2668665625 -0.17536482 179.02393 -45.598091 38.012169 -45.638386 38.250332 -0.044962563 178.80205
2689600000 -0.17472318 179.01894 -45.564053 38.268982 -45.57999 38.195534 -0.044692792 178.79057
2710534375 -0.17326044 179.01003 -45.513496 38.238697 -45.581699 38.428841 -0.045205135 178.77414
2731468750 -0.17224622 179.00458 -45.538319 38.240173 -45.562794 38.585827 -0.045447987 178.7635
2752403125 -0.17615175 178.99158 -45.528824 38.624397 -45.534805 38.918144 -0.045238741 178.75464
2773337500 -0.17622802 178.98492 -45.464066 39.00975 -45.490906 39.06245 -0.0460889 178.74979
2794271875 -0.17540161 178.98454 -45.452019 39.045509 -45.4879 39.257347 -0.046282478 178.74487
2815206250 -0.17594907 178.98161 -45.414341 39.32531 -45.464256 39.62402 -0.046493158 178.73671
2836140625 -0.17771882 178.97127 -45.385792 39.622559 -45.405052 39.835014 -0.046264786 178.72406
2857075000 -0.17890292 178.96069 -45.371822 39.771118 -45.371593 39.998817 -0.046991266 178.70772
2878009375 -0.17807002 178.9548 -45.348537 39.977512 -45.336685 40.018093 -0.047613323 178.70024
2898943750 -0.17636098 178.95596 -45.311264 40.243755 -45.358131 40.2761 -0.048098695 178.69965
2919878125 -0.18154979 178.9433 -45.279888 40.52153 -45.312443 40.638268 -0.048496816 178.69519
2940812500 -0.18289202 178.93546 -45.234802 40.727722 -45.27914 40.865559 -0.049017299 178.6852
2961746875 -0.17935307 178.93518 -45.231205 40.922131 -45.254272 40.986732 -0.04920619 178.67397
2982681250 -0.17890216 178.92732 -45.205048 41.101208 -45.211651 41.102348 -0.048852604 178.66304
3003615625 -0.17815721 178.91798 -45.185402 41.394634 -45.208199 41.472256 -0.049290176 178.65208
3024550000 -0.18354829 178.90326 -45.133797 41.661568 -45.164719 41.836239 -0.050063338 178.64415
3045484375 -0.17853953 178.90591 -45.088539 41.768497 -45.113708 41.804867 -0.05103318 178.64137
3066418750 -0.18101753 178.89928 -45.092289 41.855354 -45.12167 42.072372 -0.051825903 178.63612
3087353125 -0.18268195 178.89053 -45.052391 42.243694 -45.074486 42.24332 -0.051181443 178.62619
3108287500 -0.18243898 178.87988 -45.017269 42.570572 -45.066322 42.658524 -0.05083276 178.61401
3129221875 -0.17965639 178.87085 -44.967819 42.578758 -45.016102 42.693329 -0.050484177 178.60464
3150156250 -0.17987891 178.8652 -44.942436 42.626152 -44.989506 42.868309 -0.050499514 178.59935
3171090625 -0.17909019 178.86238 -44.957016 42.815495 -44.961426 43.080097 -0.051137671 178.59474
3192025000 -0.18092857 178.85649 -44.906128 43.252964 -44.925991 43.343426 -0.052919924 178.59067
3212959375 -0.17934614 178.85611 -44.847279 43.425522 -44.889351 43.42382 -0.052771635 178.58362
3233893750 -0.17870486 178.84341 -44.824139 43.557404 -44.887543 43.616425 -0.051522817 178.5724
3254828125 -0.1789211 178.83224 -44.764397 43.630123 -44.841682 44.044449 -0.050719209 178.56325
3275762500 -0.18499805 178.81816 -44.797104 43.649372 -44.785515 44.096062 -0.050943993 178.55785
3296696875 -0.18055028 178.82147 -44.763004 44.140865 -44.768463 44.193703 -0.051356655 178.55446
3317631250 -0.17903787 178.82405 -44.721992 44.289162 -44.733665 44.290932 -0.052204698 178.55307
3338565625 -0.18733913 178.8116 -44.692287 44.479294 -44.72023 44.531227 -0.052856755 178.54703
3359500000 -0.18239073 178.80811 -44.634632 44.484016 -44.700314 44.94014 -0.053160883 178.53819
3380434375 -0.18242842 178.79515 -44.645546 44.708153 -44.634315 44.970501 -0.05218035 178.52655
3401368750 -0.18239382 178.78647 -44.601143 45.091759 -44.623924 45.292259 -0.050967947 178.52332
3422303125 -0.18276611 178.78319 -44.53548 45.188599 -44.56736 45.386665 -0.050468493 178.52242
3443237500 -0.18051672 178.78304 -44.507233 45.147354 -44.545353 45.301731 -0.050834607 178.52106
3464171875 -0.1792998 178.78241 -44.517719 45.439758 -44.55571 45.495007 -0.052248832 178.51555
3485106250 -0.17911141 178.77075 -44.482407 45.837845 -44.519386 45.947048 -0.052963693 178.50471
3506040625 -0.18437023 178.75252 -44.434349 46.022949 -44.474846 46.026268 -0.052596282 178.49342
3526975000 -0.18169531 178.746 -44.366276 46.062572 -44.395733 46.34235 -0.050800327 178.48622
3547909375 -0.18138871 178.73824 -44.363785 46.074448 -44.391956 46.181732 -0.050023336 178.4816
3568843750 -0.18641534 178.7312 -44.323654 46.308651 -44.394257 46.529781 -0.049515486 178.48251
3589778125 -0.18837263 178.72868 -44.292255 46.174744 -44.335911 46.766937 -0.05003019 178.47929
3610712500 -0.18931447 178.72079 -44.298477 46.596809 -44.30735 46.674187 -0.051241845 178.4727
3631646875 -0.18259183 178.71364 -44.246426 46.843231 -44.292061 47.034924 -0.051260307 178.46133
3652581250 -0.18287244 178.69859 -44.201649 46.947117 -44.238419 47.367855 -0.050845034 178.4492
3673515625 -0.18621668 178.68547 -44.1534 46.739105 -44.194077 47.211571 -0.050005876 178.44478
3694450000 -0.18524846 178.68668 -44.174416 46.803146 -44.179081 47.248688 -0.048969004 178.44724
3715384375 -0.18141568 178.69022 -44.161598 47.242119 -44.143528 47.413574 -0.048099216 178.44633
3736318750 -0.18170695 178.68608 -44.089458 47.356846 -44.160713 47.589127 -0.049134266 178.44194
3757253125 -0.18431991 178.6736 -44.07679 47.482746 -44.088799 48.025837 -0.049956344 178.43103
3778187500 -0.18334334 178.6644 -44.064808 47.707764 -44.043373 47.838261 -0.050357588 178.42006
3799121875 -0.1836185 178.65726 -43.99847 47.703068 -44.031029 48.067848 -0.049223598 178.41272
3820056250 -0.18344794 178.65082 -44.032536 47.804958 -43.977287 48.012493 -0.048002236 178.41211
3840990625 -0.18382008 178.64822 -43.989582 48.137741 -44.011864 48.157597 -0.047379721 178.41342
3861925000 -0.18392158 178.64954 -43.941196 48.154602 -43.963676 48.667866 -0.046625074 178.41302
3882859375 -0.18236841 178.64267 -43.938339 48.262363 -43.899738 48.579613 -0.04820323 178.40616
3903793750 -0.18415201 178.63155 -43.901127 48.524036 -43.90752 48.502052 -0.04865928 178.39247
3924728125 -0.18450309 178.61829 -43.871086 48.754173 -43.889236 48.743782 -0.049060214 178.38145
3945662500 -0.18669872 178.6095 -43.82365 48.937313 -43.859894 49.056232 -0.049272183 178.37733
3966596875 -0.18342189 178.60762 -43.816605 48.7756 -43.828045 49.118469 -0.047683507 178.3779
3987531250 -0.18649127 178.60188 -43.820007 49.132393 -43.802517 49.239677 -0.046775166 178.37737
4008465625 -0.19027071 178.59424 -43.7621 49.414783 -43.782543 49.401756 -0.047677018 178.36949
4029400000 -0.18734774 178.58859 -43.713074 49.382164 -43.751431 49.655041 -0.048232336 178.3629
4050334375 -0.18912323 178.57364 -43.699154 49.480427 -43.716351 49.685619 -0.049278121 178.35078
4071268750 -0.18883887 178.56284 -43.667458 49.594143 -43.705128 49.841652 -0.04996353 178.34242
4092203125 -0.1915593 178.55122 -43.650063 49.908428 -43.651131 50.128834 -0.049586158 178.33894
4113137500 -0.19720131 178.54478 -43.595695 50.033138 -43.609909 50.180397 -0.048765685 178.33478
4134071875 -0.19952671 178.54269 -43.559048 49.951141 -43.608147 50.190907 -0.04843178 178.32852
4155006250 -0.20107301 178.53525 -43.538109 50.129856 -43.54987 50.414104 -0.048691329 178.32385
4175940625 -0.19786236 178.52914 -43.519539 50.030293 -43.564171 50.343185 -0.049059693 178.31393
4196875000 -0.1970387 178.51982 -43.522476 50.363926 -43.53297 50.849491 -0.049678624 178.3029
