!Keysight Technologies,N5227A,US51270248,A.10.65.08
!Date: Tuesday, June 11, 2024 07:54:18
!Correction: S11(Full 2 Port(1,4)) 
!S41(Full 2 Port(1,4)) 
!S14(Full 2 Port(1,4)) 
!S44(Full 2 Port(1,4)) 
!S2P File: Measurements: S11, S41, S14, S44:
# Hz S  dB   R 50
10000000 -0.35586643 179.53981 -67.547188 10.301493 -63.342915 13.1009 -0.32209331 -0.3057183
30934375 -0.37762555 179.64159 -64.132484 25.828163 -63.654724 25.927023 -0.31653637 -0.99028641
51868750 -0.37599885 179.49019 -62.914444 41.307327 -62.749474 40.808479 -0.32063746 -1.6376181
72803125 -0.37025928 179.27612 -61.69371 52.822399 -61.339535 51.925716 -0.32367688 -2.2707171
93737500 -0.36977953 179.05927 -60.404636 61.355015 -58.418697 58.689236 -0.32919037 -2.8855658
114671875 -0.38291064 178.85257 -58.843124 68.288315 -57.340073 65.557243 -0.33305931 -3.5089982
135606250 -0.39640707 178.68478 -57.4841 73.307655 -56.314922 71.157845 -0.33739457 -4.1456914
156540625 -0.39322919 178.53401 -56.454166 78.416161 -55.358223 75.989357 -0.34051785 -4.7905726
177475000 -0.38915047 178.34097 -55.475208 82.288513 -54.329826 80.038605 -0.34544235 -5.4127741
198409375 -0.39152232 178.1199 -54.556725 85.95163 -53.412975 83.320313 -0.34807557 -6.0096579
219343750 -0.39667049 177.91754 -53.621956 89.636902 -52.580002 86.555374 -0.35186723 -6.6258283
240278125 -0.39840615 177.74295 -52.769363 92.570412 -51.737125 89.193611 -0.3574422 -7.2617626
261212500 -0.39968672 177.57104 -51.907486 94.905731 -50.97728 91.173683 -0.36642596 -7.8925714
282146875 -0.40437576 177.39214 -51.089973 96.67643 -50.06797 93.03981 -0.3718164 -8.5190086
303081250 -0.40796497 177.2179 -50.357742 98.869278 -49.372196 95.1511 -0.37638098 -9.1381102
324015625 -0.41378692 177.0484 -49.623222 100.05684 -48.791889 96.572212 -0.38099146 -9.7421637
344950000 -0.41506547 176.84869 -48.980328 102.26434 -48.172775 98.809196 -0.38457331 -10.344778
365884375 -0.42872676 176.6703 -48.164772 102.91666 -47.56065 100.28016 -0.39137933 -10.951795
386818750 -0.46030882 176.50012 -47.114033 102.43085 -46.951138 101.67126 -0.39929557 -11.575898
407753125 -0.44370234 176.33223 -46.71125 104.73726 -46.440636 103.19305 -0.40877801 -12.179357
428687500 -0.44029164 176.14653 -46.217751 106.15643 -45.889576 104.52049 -0.41127649 -12.785806
449621875 -0.44123879 175.95853 -45.733509 107.55559 -45.386074 105.64228 -0.41733041 -13.405893
470556250 -0.44241253 175.7778 -45.237411 108.82001 -44.879513 106.74444 -0.42398626 -14.004782
491490625 -0.43778089 175.59088 -44.789959 110.25859 -44.369991 107.76231 -0.43152586 -14.594135
512425000 -0.43629953 175.40265 -44.316067 111.42605 -43.801991 108.40359 -0.43846205 -15.190034
533359375 -0.43896198 175.22256 -43.824314 112.29157 -43.406658 109.37862 -0.44690025 -15.798023
554293750 -0.43990102 175.05562 -43.37429 113.22845 -42.958614 110.53832 -0.45509928 -16.404543
575228125 -0.4407002 174.87837 -42.905537 114.08304 -42.497192 111.34027 -0.4617793 -17.00177
596162500 -0.44118637 174.69078 -42.490528 114.83809 -42.078094 111.99754 -0.46808183 -17.594408
617096875 -0.44315246 174.50381 -42.074177 115.65136 -41.680241 112.73645 -0.47549516 -18.191484
638031250 -0.44363913 174.32645 -41.670506 116.20941 -41.278553 113.56107 -0.48523951 -18.780039
658965625 -0.44494897 174.14975 -41.248981 116.96503 -40.871124 114.20939 -0.49361077 -19.367441
679900000 -0.44708511 173.97438 -40.841209 117.64318 -40.463486 114.60686 -0.50149173 -19.96538
700834375 -0.44888696 173.80222 -40.460876 118.15516 -40.140842 115.33517 -0.51063901 -20.559299
721768750 -0.44824871 173.62421 -40.067963 118.81187 -39.717957 115.8926 -0.52065259 -21.139914
742703125 -0.45238242 173.4375 -39.65868 119.04023 -39.347198 116.63227 -0.52765095 -21.706491
763637500 -0.45041361 173.25406 -39.302464 119.57903 -38.990982 116.91403 -0.53391957 -22.290606
784571875 -0.45165712 173.07932 -38.96262 120.03966 -38.672104 117.35148 -0.54305583 -22.877438
805506250 -0.4524388 172.90843 -38.618279 120.64404 -38.362438 118.08208 -0.551691 -23.450785
826440625 -0.45107287 172.73236 -38.233898 121.35995 -37.938278 118.53886 -0.56004834 -24.033312
847375000 -0.45223153 172.54631 -37.860905 121.57673 -37.579956 118.76319 -0.57129675 -24.606916
868309375 -0.45196801 172.36391 -37.535423 121.77427 -37.276703 119.00016 -0.58215153 -25.16836
889243750 -0.4502185 172.17366 -37.219017 122.11429 -36.962284 119.44112 -0.58941019 -25.729448
910178125 -0.4515481 171.99158 -36.907543 122.43465 -36.63501 119.66318 -0.59723777 -26.304502
931112500 -0.45436865 171.82391 -36.594204 122.70998 -36.335266 119.77894 -0.60638154 -26.874044
952046875 -0.45536527 171.65088 -36.273586 122.98894 -36.054268 120.24654 -0.61546975 -27.434256
972981250 -0.4562811 171.46068 -35.970459 123.23242 -35.725079 120.45412 -0.62418813 -27.996464
993915625 -0.45892024 171.27049 -35.663033 123.34377 -35.42934 120.65536 -0.63561732 -28.563198
1014850000 -0.45951462 171.09573 -35.354202 123.41883 -35.116776 120.5783 -0.64586222 -29.123951
1035784375 -0.45918849 170.92085 -35.077702 123.60059 -34.862392 120.79868 -0.65567696 -29.686007
1056718750 -0.46075663 170.7395 -34.786724 123.80031 -34.577892 121.14208 -0.6643095 -30.246141
1077653125 -0.46513444 170.56284 -34.501495 123.88471 -34.27544 121.16678 -0.67209113 -30.800537
1098587500 -0.46779132 170.39003 -34.219513 123.94662 -34.014938 121.23695 -0.68081886 -31.341259
1119521875 -0.46871212 170.20642 -33.949982 123.93968 -33.762325 121.35002 -0.69148213 -31.888426
1140456250 -0.47001818 170.01291 -33.688816 123.96252 -33.501644 121.4044 -0.70295948 -32.43573
1161390625 -0.48007643 169.83636 -33.384609 123.45663 -33.236443 121.61052 -0.71298176 -32.980946
1182325000 -0.47492635 169.66637 -33.137741 123.82941 -32.961998 121.52841 -0.72069585 -33.529964
1203259375 -0.47663224 169.48984 -32.886486 123.79787 -32.723804 121.51656 -0.72813791 -34.080372
1224193750 -0.47708634 169.30751 -32.651207 123.94835 -32.493507 121.48727 -0.73686355 -34.622158
1245128125 -0.47979474 169.12184 -32.405258 123.84972 -32.255516 121.45525 -0.7480582 -35.150936
1266062500 -0.47794169 168.9364 -32.177628 123.92338 -32.028507 121.51789 -0.76006275 -35.683903
1286996875 -0.47676742 168.74759 -31.942951 123.90974 -31.787594 121.42153 -0.77119064 -36.224915
1307931250 -0.47727743 168.56789 -31.711258 123.90757 -31.567093 121.52402 -0.78159666 -36.769825
1328865625 -0.47866833 168.3954 -31.483398 123.90029 -31.330265 121.29092 -0.79144776 -37.307278
1349800000 -0.48610884 168.22469 -31.246508 123.58069 -31.121683 121.33629 -0.7995441 -37.833233
1370734375 -0.485358 168.03676 -31.035891 123.69827 -30.927616 121.27819 -0.80961531 -38.355057
1391668750 -0.48575595 167.84206 -30.825611 123.7282 -30.713659 121.45221 -0.82102948 -38.877693
1412603125 -0.48581019 167.65437 -30.611088 123.74419 -30.49061 121.37951 -0.83280075 -39.398155
1433537500 -0.4858084 167.47675 -30.396847 123.70851 -30.284609 121.35336 -0.84352565 -39.93195
1454471875 -0.48854777 167.3026 -30.184046 123.51832 -30.064989 121.29697 -0.85272282 -40.464081
1475406250 -0.49094832 167.13179 -29.986778 123.53825 -29.876997 121.07669 -0.8625204 -40.982689
1496340625 -0.49559644 166.95493 -29.783417 123.38968 -29.687115 121.10336 -0.87183255 -41.487774
1517275000 -0.49656454 166.7677 -29.58873 123.3902 -29.482872 121.03833 -0.88152897 -41.985218
1538209375 -0.49686673 166.56723 -29.388309 123.36289 -29.286491 120.93912 -0.89323813 -42.496742
1559143750 -0.49854088 166.37727 -29.195148 123.2214 -29.085703 120.94567 -0.90416735 -43.008846
1580078125 -0.50025183 166.20343 -29.004827 123.1539 -28.902908 120.74258 -0.91353148 -43.528362
1601012500 -0.5049839 166.03366 -28.810955 122.97793 -28.71464 120.74973 -0.92163593 -44.049374
1621946875 -0.50566661 165.85783 -28.630058 122.94357 -28.526709 120.46271 -0.9329139 -44.55246
1642881250 -0.50795346 165.67018 -28.44783 122.85201 -28.36248 120.39116 -0.94360882 -45.034863
1663815625 -0.51029503 165.47966 -28.266466 122.69824 -28.184219 120.35016 -0.95424837 -45.521492
1684750000 -0.51239765 165.28862 -28.084049 122.49341 -28.006363 120.22115 -0.96489275 -46.025581
1705684375 -0.51365703 165.10927 -27.915049 122.37893 -27.835045 120.13218 -0.97568107 -46.536392
1726618750 -0.51560855 164.94554 -27.74848 122.34464 -27.664625 119.95883 -0.98617649 -47.033688
1747553125 -0.51842242 164.78105 -27.572992 122.23447 -27.490986 119.72267 -0.9974789 -47.522297
1768487500 -0.52153498 164.60101 -27.397373 122.0692 -27.335606 119.65186 -1.00728 -48.001938
1789421875 -0.52289951 164.41714 -27.233299 121.95584 -27.175146 119.5844 -1.0186421 -48.474575
1810356250 -0.52572358 164.23883 -27.070726 121.79067 -27.018085 119.53644 -1.0293229 -48.95993
1831290625 -0.5270133 164.06558 -26.905233 121.66911 -26.843786 119.4128 -1.0401344 -49.449333
1852225000 -0.52892125 163.90392 -26.738926 121.50188 -26.677948 119.25633 -1.0502008 -49.940033
1873159375 -0.53109288 163.74524 -26.581293 121.36597 -26.526892 119.18757 -1.059693 -50.417976
1894093750 -0.53238875 163.57416 -26.422115 121.21906 -26.350769 118.93297 -1.0704275 -50.887726
1915028125 -0.53536731 163.38557 -26.262867 120.97788 -26.227156 118.69828 -1.0814692 -51.359238
1935962500 -0.53831565 163.20161 -26.114735 120.84422 -26.074364 118.63835 -1.0926121 -51.827618
1956896875 -0.5418027 163.03157 -25.96381 120.64571 -25.906334 118.54675 -1.1015259 -52.300529
1977831250 -0.54423606 162.87743 -25.819317 120.4376 -25.759539 118.28378 -1.1097097 -52.778759
1998765625 -0.54611069 162.72018 -25.684761 120.29351 -25.621786 117.95939 -1.1190084 -53.252739
2019700000 -0.55091441 162.54773 -25.537933 120.02023 -25.505497 117.94183 -1.1287723 -53.710754
2040634375 -0.54863977 162.3701 -25.399311 120.01959 -25.352665 117.87296 -1.1392522 -54.16362
2061568750 -0.55244386 162.18735 -25.254906 119.73927 -25.207314 117.67652 -1.1487929 -54.624939
2082503125 -0.55135763 162.01013 -25.119499 119.65639 -25.077526 117.43649 -1.1592054 -55.091057
2103437500 -0.55212772 161.845 -24.982063 119.51098 -24.943718 117.32503 -1.1679006 -55.553207
2124371875 -0.55113351 161.68216 -24.84675 119.46989 -24.822124 117.27126 -1.1760136 -56.011871
2145306250 -0.54937309 161.5042 -24.70661 119.31474 -24.6765 117.14297 -1.185565 -56.460285
2166240625 -0.54972494 161.3105 -24.569948 119.11951 -24.536913 116.95971 -1.1974173 -56.897705
2187175000 -0.54958832 161.118 -24.433596 119.02647 -24.409422 116.78173 -1.2076842 -57.340977
2208109375 -0.54991084 160.93765 -24.295305 118.79994 -24.291763 116.61095 -1.218366 -57.793427
2229043750 -0.54681438 160.74823 -24.15662 118.66897 -24.162289 116.57049 -1.2287655 -58.254372
2249978125 -0.54873765 160.56146 -24.025778 118.47821 -24.022705 116.35073 -1.2375187 -58.700134
2270912500 -0.55293131 160.38161 -23.897631 118.26548 -23.889828 116.2261 -1.2458597 -59.135895
2291846875 -0.55401248 160.19919 -23.777353 118.13143 -23.763424 115.89498 -1.2562652 -59.57056
2312781250 -0.55462825 160.01044 -23.653799 118.00017 -23.657318 115.77003 -1.2681104 -60.004673
2333715625 -0.55632216 159.81755 -23.526241 117.80142 -23.533348 115.71767 -1.2791519 -60.448601
2354650000 -0.55861574 159.64677 -23.404928 117.65321 -23.417185 115.54227 -1.2888979 -60.897449
2375584375 -0.55946934 159.48036 -23.283018 117.53896 -23.288073 115.46934 -1.2972964 -61.342052
2396518750 -0.5617469 159.30182 -23.159527 117.36906 -23.151892 114.93935 -1.3070948 -61.762676
2417453125 -0.56434733 159.11897 -23.03548 117.20784 -23.044895 114.9482 -1.3147137 -62.180042
2438387500 -0.56655103 158.92313 -22.911816 117.04682 -22.897526 114.85124 -1.3239745 -62.600407
2459321875 -0.56824911 158.72324 -22.787203 116.83906 -22.782269 114.55627 -1.3330694 -63.027813
2480256250 -0.57042414 158.54015 -22.672482 116.65051 -22.678894 114.35242 -1.3427894 -63.462887
2501190625 -0.57282054 158.36946 -22.551531 116.45573 -22.573801 114.24424 -1.3500409 -63.902451
2522125000 -0.57399207 158.1937 -22.43745 116.25465 -22.454868 114.29498 -1.3577764 -64.324715
2543059375 -0.57667542 157.99992 -22.324053 116.10783 -22.318071 114.01938 -1.3646955 -64.729736
2563993750 -0.58026582 157.812 -22.207966 115.91681 -22.218634 113.77826 -1.3725967 -65.133904
2584928125 -0.58039874 157.61858 -22.091246 115.73716 -22.100544 113.59412 -1.3832074 -65.553261
2605862500 -0.58090091 157.4232 -21.978601 115.52129 -22.000948 113.31744 -1.3939234 -65.979088
2626796875 -0.58118206 157.23824 -21.86533 115.31156 -21.906469 113.24517 -1.4026475 -66.404526
2647731250 -0.58431101 157.06152 -21.75753 115.08298 -21.797897 113.0841 -1.4102736 -66.827225
2668665625 -0.58842206 156.88075 -21.654524 114.86749 -21.678974 112.9668 -1.4180689 -67.236282
2689600000 -0.59011579 156.68515 -21.550776 114.70479 -21.560452 112.63659 -1.4267634 -67.627731
2710534375 -0.59302044 156.48943 -21.446672 114.56198 -21.482824 112.42632 -1.4361154 -68.026749
2731468750 -0.59542817 156.30266 -21.329424 114.37322 -21.385227 112.31217 -1.4460341 -68.444489
2752403125 -0.5976181 156.1295 -21.227409 114.1011 -21.276752 112.24658 -1.4543889 -68.863754
2773337500 -0.60051811 155.95096 -21.128496 113.90712 -21.1616 111.9858 -1.4624103 -69.283928
2794271875 -0.60458934 155.77846 -21.024063 113.76385 -21.081993 111.78786 -1.4699316 -69.690804
2815206250 -0.60947549 155.60738 -20.920883 113.54372 -20.976963 111.73573 -1.4790646 -70.079765
2836140625 -0.6120941 155.41403 -20.821827 113.36015 -20.856224 111.54857 -1.4874784 -70.462173
2857075000 -0.6156736 155.222 -20.717312 113.18269 -20.762972 111.25903 -1.4965674 -70.85881
2878009375 -0.61781114 155.05405 -20.612577 112.93074 -20.660965 111.07146 -1.5045868 -71.277504
2898943750 -0.61787307 154.88918 -20.51754 112.73846 -20.585102 110.81745 -1.5138254 -71.68676
2919878125 -0.621979 154.70305 -20.418343 112.45667 -20.480011 110.81805 -1.5212815 -72.075432
2940812500 -0.62588829 154.50871 -20.322695 112.29506 -20.366928 110.57273 -1.5275358 -72.458588
2961746875 -0.6299274 154.32416 -20.221888 112.07841 -20.272635 110.34908 -1.5359713 -72.836525
2982681250 -0.62890488 154.13234 -20.130369 111.92241 -20.175423 110.0491 -1.545913 -73.21685
3003615625 -0.62921822 153.93608 -20.031401 111.65884 -20.108978 109.89336 -1.5541426 -73.604431
3024550000 -0.63113612 153.75218 -19.947418 111.45428 -19.998367 109.82516 -1.5608439 -74.006317
3045484375 -0.63397598 153.57639 -19.850525 111.30995 -19.897297 109.44685 -1.568446 -74.404343
3066418750 -0.63692027 153.39821 -19.750717 111.05453 -19.829144 109.24859 -1.5769104 -74.781265
3087353125 -0.63829136 153.20041 -19.665129 110.81167 -19.731325 109.14553 -1.5844311 -75.139725
3108287500 -0.641388 152.99364 -19.583641 110.57922 -19.63657 108.9388 -1.5940142 -75.506989
3129221875 -0.64156741 152.7975 -19.493561 110.45648 -19.54372 108.673 -1.6027014 -75.891869
3150156250 -0.64462698 152.60764 -19.397144 110.22806 -19.466547 108.41125 -1.6108855 -76.28286
3171090625 -0.64940429 152.43542 -19.306808 109.92368 -19.386692 108.2473 -1.6173576 -76.667252
3192025000 -0.65285701 152.26793 -19.233276 109.72976 -19.293976 108.07754 -1.6242189 -77.03936
3212959375 -0.65611809 152.08351 -19.148336 109.58002 -19.210024 107.77898 -1.6334394 -77.398193
3233893750 -0.66353822 151.87758 -19.061644 109.24362 -19.149691 107.62001 -1.6414931 -77.75515
3254828125 -0.67011786 151.67316 -18.976776 108.96447 -19.051178 107.53673 -1.650979 -78.120361
3275762500 -0.67185676 151.48718 -18.883448 108.7765 -18.946096 107.24516 -1.6575119 -78.509277
3296696875 -0.67472363 151.31815 -18.811239 108.54562 -18.887886 106.965 -1.6638989 -78.88063
3317631250 -0.68117577 151.13831 -18.731718 108.33939 -18.806108 106.71558 -1.6710103 -79.244812
3338565625 -0.69169497 150.9505 -18.651974 108.00654 -18.75802 106.51946 -1.6783111 -79.595673
3359500000 -0.69188368 150.74519 -18.568581 107.95096 -18.665903 106.57037 -1.6860138 -79.946114
3380434375 -0.70192373 150.54019 -18.483824 107.5373 -18.561949 106.2477 -1.694391 -80.304596
3401368750 -0.70534527 150.34941 -18.41807 107.32537 -18.509726 106.057 -1.7022023 -80.671135
3422303125 -0.70726264 150.17772 -18.344328 107.25713 -18.411177 105.90552 -1.7089897 -81.038422
3443237500 -0.70708501 150.00304 -18.254381 107.20343 -18.353203 105.52259 -1.7150358 -81.397484
3464171875 -0.7106728 149.81618 -18.171579 106.95683 -18.300505 105.47813 -1.7209959 -81.742744
3485106250 -0.71746582 149.61934 -18.103968 106.69587 -18.222544 105.39584 -1.7286505 -82.078911
3506040625 -0.71941698 149.42418 -18.040148 106.59269 -18.12863 105.37424 -1.7365659 -82.42421
3526975000 -0.72133237 149.23302 -17.959421 106.51116 -18.01759 105.04573 -1.7452016 -82.770706
3547909375 -0.72221833 149.06523 -17.873962 106.29707 -17.975843 104.6509 -1.7513928 -83.141663
3568843750 -0.72525668 148.91315 -17.804853 106.08892 -17.919291 104.67851 -1.7564005 -83.489761
3589778125 -0.72761291 148.7422 -17.714956 105.96111 -17.819048 104.57807 -1.7617687 -83.83461
3610712500 -0.73178285 148.54948 -17.642406 105.6442 -17.747063 104.21561 -1.7683574 -84.163467
3631646875 -0.73382109 148.35155 -17.583212 105.50307 -17.69243 104.17622 -1.7769803 -84.489662
3652581250 -0.73791236 148.15196 -17.506077 105.33139 -17.584757 104.11572 -1.7847024 -84.833038
3673515625 -0.73924428 147.96681 -17.423687 105.19056 -17.494495 103.59953 -1.793287 -85.192795
3694450000 -0.74165714 147.80745 -17.339094 104.93508 -17.449261 103.41861 -1.7988112 -85.547989
3715384375 -0.74574679 147.64429 -17.277292 104.65697 -17.390095 103.17377 -1.804763 -85.879517
3736318750 -0.74960792 147.46484 -17.212936 104.52699 -17.334013 103.2015 -1.8099157 -86.190239
3757253125 -0.7545498 147.26083 -17.13279 104.34281 -17.221699 103.14824 -1.8164035 -86.516464
3778187500 -0.75910181 147.06335 -17.070753 104.11441 -17.142132 102.6406 -1.8240871 -86.856598
3799121875 -0.76040995 146.88622 -16.99527 104.00924 -17.093702 102.55262 -1.8314753 -87.194923
3820056250 -0.76252878 146.70625 -16.913782 103.69403 -17.015057 102.13302 -1.8389848 -87.536255
3840990625 -0.76340222 146.54092 -16.86483 103.51287 -16.994997 102.1038 -1.8435742 -87.867157
3861925000 -0.76714659 146.35526 -16.785971 103.39082 -16.890926 102.20809 -1.8480533 -88.175987
3882859375 -0.77245075 146.15109 -16.714283 103.11184 -16.790689 101.71944 -1.8532846 -88.491348
3903793750 -0.77627963 145.9474 -16.65135 102.89973 -16.759766 101.47623 -1.8601059 -88.816841
3924728125 -0.7782163 145.74814 -16.592649 102.71222 -16.693594 101.36577 -1.8682741 -89.152405
3945662500 -0.77930087 145.56523 -16.525845 102.59751 -16.627447 101.23682 -1.8754297 -89.491936
3966596875 -0.78132218 145.37944 -16.441 102.3696 -16.54953 101.07372 -1.8804929 -89.812515
3987531250 -0.78674692 145.20142 -16.386045 102.04175 -16.479416 100.77227 -1.884688 -90.121368
4008465625 -0.79122084 145.01038 -16.332212 101.95557 -16.423365 100.60689 -1.8889132 -90.418205
4029400000 -0.79558766 144.8114 -16.254793 101.8175 -16.352858 100.46748 -1.894956 -90.72641
4050334375 -0.79928398 144.61031 -16.187723 101.53496 -16.279102 100.1847 -1.9018438 -91.052048
4071268750 -0.80013788 144.41528 -16.124916 101.36989 -16.237907 99.979233 -1.9100373 -91.374573
4092203125 -0.80482084 144.23808 -16.062233 101.13315 -16.152416 99.943764 -1.9156468 -91.691925
4113137500 -0.80802822 144.07253 -16.002987 101.01225 -16.072773 99.53006 -1.919929 -91.990166
4134071875 -0.8126241 143.89786 -15.926702 100.81971 -16.034151 99.370064 -1.9250734 -92.293228
4155006250 -0.81805825 143.69986 -15.864512 100.5849 -15.947916 99.118721 -1.9300092 -92.589363
4175940625 -0.82028985 143.49603 -15.790534 100.40085 -15.92952 98.828514 -1.9376332 -92.896255
4196875000 -0.82391715 143.31291 -15.738001 100.08208 -15.84978 98.924011 -1.9448804 -93.207329
4217809375 -0.82675177 143.13133 -15.690492 99.981659 -15.759984 98.452179 -1.9495702 -93.518463
