!Keysight Technologies,N5227A,US51270248,A.10.65.08
!Date: Tuesday, June 11, 2024 08:15:50
!Correction: S11(Full 2 Port(1,4)) 
!S41(Full 2 Port(1,4)) 
!S14(Full 2 Port(1,4)) 
!S44(Full 2 Port(1,4)) 
!S2P File: Measurements: S11, S41, S14, S44:
# Hz S  dB   R 50
10000000 -0.65905797 179.5547 -70.565956 67.270477 -54.330048 3.714457 -0.74800414 -0.33878914
30934375 -0.67373377 179.64613 -67.401108 89.75058 -53.695908 12.566077 -0.76006055 -1.0139462
51868750 -0.59805226 179.48755 -62.705433 91.525887 -51.563049 18.7768 -0.80293024 -1.6141815
72803125 -0.59524578 179.27377 -59.912434 92.123253 -50.871674 24.547066 -0.82786417 -2.2442942
93737500 -0.59502947 179.05528 -57.673515 92.902557 -50.425587 30.35998 -0.84103149 -2.8494909
114671875 -0.59455448 178.8457 -55.98172 94.160851 -49.999958 35.63419 -0.85527986 -3.453083
135606250 -0.59574485 178.67822 -54.556213 95.275253 -49.467175 40.473049 -0.86187607 -4.0743957
156540625 -0.59970313 178.52942 -53.244843 96.15136 -49.022606 44.968376 -0.86672968 -4.7064962
177475000 -0.59508598 178.34064 -52.138279 96.938576 -48.561825 49.266415 -0.86948055 -5.317234
198409375 -0.59702802 178.11528 -51.129383 97.882576 -48.020329 53.118336 -0.87342745 -5.9019032
219343750 -0.60110348 177.90935 -50.265877 98.402199 -47.535656 56.802601 -0.87637824 -6.5046148
240278125 -0.60227865 177.73561 -49.448597 99.658913 -47.041748 59.951809 -0.88527071 -7.1252756
261212500 -0.6041553 177.56696 -48.561256 100.36776 -46.601387 62.81152 -0.89250416 -7.7476544
282146875 -0.60313636 177.38898 -47.875854 100.76155 -46.085518 65.560394 -0.89793634 -8.3627472
303081250 -0.60698664 177.2179 -47.234238 101.8993 -45.568176 67.94957 -0.9021737 -8.9736614
324015625 -0.60920733 177.04555 -46.574921 102.04401 -45.092712 70.143623 -0.90644938 -9.5643644
344950000 -0.61107528 176.84331 -46.031929 103.01109 -44.673065 72.469254 -0.91048115 -10.149912
365884375 -0.61116421 176.66029 -45.451553 104.0828 -44.221222 74.407341 -0.91602892 -10.747354
386818750 -0.61050993 176.49525 -44.870232 104.66108 -43.790295 76.271957 -0.92429507 -11.360535
407753125 -0.60844481 176.33253 -44.314716 105.24223 -43.360863 78.094765 -0.93281019 -11.95735
428687500 -0.60966527 176.14616 -43.798927 105.52045 -42.904343 79.580544 -0.93454027 -12.550707
449621875 -0.61302894 175.95419 -43.363163 106.22593 -42.469555 80.97287 -0.93907899 -13.162835
470556250 -0.6159665 175.77313 -42.867439 106.78494 -42.110916 82.484047 -0.94633454 -13.746071
491490625 -0.61575609 175.58447 -42.440796 107.32025 -41.74176 83.8825 -0.95251459 -14.32617
512425000 -0.61704224 175.39682 -41.971401 108.00773 -41.38229 85.307404 -0.95955682 -14.910119
533359375 -0.61796504 175.21962 -41.512917 108.3513 -40.997517 86.436783 -0.96621197 -15.512704
554293750 -0.61964095 175.05254 -41.141739 108.69558 -40.660583 87.751427 -0.97490144 -16.109022
575228125 -0.62145346 174.87709 -40.741714 109.34093 -40.28923 88.838707 -0.97990191 -16.694071
596162500 -0.62301505 174.6888 -40.341637 109.59653 -39.93647 89.697227 -0.98477888 -17.27524
617096875 -0.62875497 174.49791 -39.95945 109.83446 -39.608402 90.777847 -0.99261791 -17.86198
638031250 -0.62732059 174.32275 -39.63097 110.49618 -39.275753 91.7239 -1.0018826 -18.440762
658965625 -0.62841898 174.14764 -39.265408 111.14159 -38.951344 92.667625 -1.0099183 -19.019688
679900000 -0.63078845 173.97322 -38.8423 111.41706 -38.632145 93.44722 -1.0154095 -19.610678
700834375 -0.63644731 173.80046 -38.533741 111.12894 -38.345665 94.262863 -1.0247748 -20.193836
721768750 -0.63505 173.62372 -38.248917 111.91418 -38.012341 95.257477 -1.0337875 -20.762262
742703125 -0.63430136 173.4342 -37.905964 112.36373 -37.700939 95.970932 -1.0404669 -21.31366
763637500 -0.63462365 173.25114 -37.588734 112.95505 -37.394367 96.490623 -1.0454839 -21.888628
784571875 -0.63747895 173.07947 -37.215294 113.10588 -37.123238 97.142006 -1.053606 -22.469353
805506250 -0.63854045 172.9097 -36.953823 113.21328 -36.866886 98.010895 -1.0607808 -23.03813
826440625 -0.63790983 172.73366 -36.637508 114.10303 -36.549786 98.922096 -1.068988 -23.60854
847375000 -0.64129442 172.54715 -36.239574 114.14382 -36.232822 99.38253 -1.0776219 -24.175762
868309375 -0.640769 172.3643 -35.982861 113.88812 -35.962132 99.79361 -1.0884604 -24.725256
889243750 -0.6400038 172.1721 -35.719444 114.39527 -35.68716 100.34191 -1.0956632 -25.275322
910178125 -0.64316899 171.98888 -35.404205 114.62654 -35.409012 100.84921 -1.1020135 -25.845509
931112500 -0.64440429 171.8269 -35.136131 114.8075 -35.162476 101.28421 -1.1100619 -26.406494
952046875 -0.65103799 171.65413 -34.80024 114.59719 -34.904228 101.79977 -1.1169302 -26.961159
972981250 -0.64943749 171.4614 -34.612629 114.91722 -34.627419 102.2817 -1.1260394 -27.512407
993915625 -0.65164471 171.26941 -34.324615 115.60719 -34.381912 102.73611 -1.1354109 -28.06888
1014850000 -0.65158349 171.0977 -33.987461 115.12272 -34.114922 103.00568 -1.144498 -28.623518
1035784375 -0.65189725 170.92166 -33.840416 115.16231 -33.864494 103.16682 -1.1543409 -29.175741
1056718750 -0.65265685 170.74225 -33.576511 115.76244 -33.564468 103.21385 -1.1625369 -29.72846
1077653125 -0.65688074 170.56795 -33.310402 115.91261 -33.335026 103.76408 -1.1687833 -30.275084
1098587500 -0.66073889 170.39629 -33.041992 115.98422 -33.108616 104.02751 -1.1761744 -30.805925
1119521875 -0.66428709 170.21022 -32.765125 115.67222 -32.888115 104.42597 -1.1846737 -31.34474
1140456250 -0.66253024 170.01503 -32.583336 115.80659 -32.655663 104.68427 -1.1959782 -31.884045
1161390625 -0.66199118 169.83792 -32.36694 116.13898 -32.441914 105.1259 -1.205253 -32.422764
1182325000 -0.66401261 169.66957 -32.108131 116.19683 -32.198174 105.28512 -1.2111403 -32.967976
1203259375 -0.66412854 169.49477 -31.86858 116.40498 -31.98032 105.41058 -1.217333 -33.514088
1224193750 -0.67192996 169.31361 -31.598349 116.01585 -31.78014 105.67671 -1.2242728 -34.050976
1245128125 -0.66946989 169.1261 -31.440582 116.2546 -31.569227 105.82961 -1.2354326 -34.568363
1266062500 -0.67659217 168.94112 -31.132381 116.07811 -31.362026 106.03689 -1.245235 -35.092934
1286996875 -0.67238003 168.75339 -30.953552 115.66633 -31.147093 106.1487 -1.255499 -35.630413
1307931250 -0.67354184 168.57274 -30.784052 116.05183 -30.939133 106.26321 -1.2659012 -36.168507
1328865625 -0.67223179 168.40366 -30.538792 116.20025 -30.747499 106.49332 -1.2731497 -36.703533
1349800000 -0.67442155 168.23596 -30.372408 116.145 -30.547911 106.52988 -1.2797182 -37.221508
1370734375 -0.68071097 168.0473 -30.110695 116.05434 -30.361809 106.60596 -1.2882501 -37.735977
1391668750 -0.67997181 167.84978 -29.940016 115.85346 -30.17598 106.97295 -1.2988325 -38.24979
1412603125 -0.67907608 167.6611 -29.756313 116.07225 -29.980404 107.09325 -1.3097665 -38.76469
1433537500 -0.67963797 167.48401 -29.553205 115.74123 -29.792276 107.19974 -1.3190767 -39.294434
1454471875 -0.6870389 167.31337 -29.395834 115.46272 -29.587107 107.25161 -1.3271314 -39.822914
1475406250 -0.68819219 167.14514 -29.204332 115.84914 -29.426622 107.31467 -1.3355414 -40.337727
1496340625 -0.69028485 166.97052 -29.007467 115.73249 -29.24884 107.47792 -1.3428178 -40.833488
1517275000 -0.69627398 166.78075 -28.846607 115.52251 -29.063484 107.51978 -1.3520533 -41.322155
1538209375 -0.69487166 166.57687 -28.633284 115.68452 -28.886585 107.64987 -1.3619691 -41.828003
1559143750 -0.69651318 166.38776 -28.490795 115.29989 -28.700008 107.67165 -1.3726279 -42.334557
1580078125 -0.69662225 166.21605 -28.354086 115.66695 -28.536144 107.72335 -1.3801455 -42.850864
1601012500 -0.70193458 166.04842 -28.150938 115.56091 -28.359684 107.76347 -1.3874443 -43.368027
1621946875 -0.70663702 165.87411 -27.983984 115.5818 -28.183615 107.60176 -1.3973036 -43.866611
1642881250 -0.70732671 165.68573 -27.768955 115.66083 -28.035833 107.79044 -1.4064984 -44.343136
1663815625 -0.70689929 165.49409 -27.613754 115.42619 -27.86957 107.83134 -1.4158281 -44.823654
1684750000 -0.70873255 165.30042 -27.445786 115.25625 -27.705509 107.86501 -1.4255942 -45.322811
1705684375 -0.71214092 165.12474 -27.326038 115.08388 -27.540655 107.80272 -1.4355501 -45.832996
1726618750 -0.71542627 164.9646 -27.16749 115.44639 -27.386663 107.83282 -1.4445628 -46.326916
1747553125 -0.72145206 164.80168 -26.930948 115.21125 -27.23238 107.86491 -1.4528286 -46.815357
1768487500 -0.72764063 164.62277 -26.756556 114.64556 -27.079832 107.80074 -1.4616592 -47.291023
1789421875 -0.72679633 164.43562 -26.642883 114.67923 -26.933456 107.82345 -1.4723839 -47.754322
1810356250 -0.72818881 164.25697 -26.487797 114.71038 -26.784109 107.8967 -1.4820987 -48.234917
1831290625 -0.72855711 164.08907 -26.33198 114.69744 -26.624567 107.91571 -1.4910698 -48.721848
1852225000 -0.73221672 163.92908 -26.144253 114.58527 -26.472616 107.85361 -1.4996028 -49.209312
1873159375 -0.73602086 163.77393 -25.990999 114.00578 -26.323496 107.82986 -1.508242 -49.681728
1894093750 -0.74065542 163.6017 -25.881649 113.99591 -26.165215 107.7731 -1.516827 -50.149437
1915028125 -0.73793232 163.41176 -25.718203 114.04506 -26.039709 107.62962 -1.5272995 -50.617008
1935962500 -0.74200988 163.2243 -25.595545 113.90885 -25.89839 107.71547 -1.5376238 -51.07692
1956896875 -0.750507 163.0565 -25.388954 113.69956 -25.733921 107.51701 -1.5451993 -51.542912
1977831250 -0.75051641 162.90804 -25.299717 112.97095 -25.601143 107.44096 -1.5519553 -52.023426
1998765625 -0.74899143 162.74843 -25.235106 113.33664 -25.475765 107.32626 -1.5601591 -52.495422
2019700000 -0.75001007 162.57936 -25.083733 113.51123 -25.359083 107.31063 -1.5691503 -52.950405
2040634375 -0.75361735 162.40176 -24.92078 113.2918 -25.216007 107.33561 -1.5774865 -53.395088
2061568750 -0.75009805 162.21492 -24.789259 113.24424 -25.083347 107.24071 -1.5863494 -53.854473
2082503125 -0.75085431 162.03641 -24.669449 113.03692 -24.961542 107.20474 -1.5952328 -54.321323
2103437500 -0.75134343 161.87186 -24.559631 112.943 -24.832899 107.08056 -1.6030264 -54.780018
2124371875 -0.75443661 161.71121 -24.423864 112.91179 -24.710016 107.03768 -1.6095359 -55.239277
2145306250 -0.75148004 161.53569 -24.283785 112.83727 -24.577192 107.0668 -1.6178387 -55.686741
2166240625 -0.74923134 161.33925 -24.168106 112.88069 -24.448534 106.95336 -1.6280991 -56.118656
2187175000 -0.75034243 161.14809 -24.012451 112.73964 -24.314796 106.61941 -1.638453 -56.552166
2208109375 -0.74861944 160.96761 -23.893734 112.58494 -24.196384 106.46097 -1.6487272 -57.005184
2229043750 -0.7464444 160.78053 -23.739244 112.51116 -24.076187 106.64954 -1.6571095 -57.466297
2249978125 -0.74850678 160.59552 -23.63204 112.14884 -23.949005 106.66019 -1.6641121 -57.909309
2270912500 -0.75386673 160.41641 -23.510672 112.07414 -23.820904 106.53886 -1.6713115 -58.339474
2291846875 -0.75743306 160.23663 -23.39325 111.77844 -23.709122 106.44349 -1.6791607 -58.773067
2312781250 -0.75547862 160.04176 -23.281366 112.00214 -23.606283 106.4131 -1.6905588 -59.204094
2333715625 -0.7572974 159.85126 -23.120272 111.74785 -23.48856 106.42964 -1.6997957 -59.645687
2354650000 -0.75976592 159.68631 -23.01993 111.36605 -23.380039 106.32706 -1.708477 -60.095242
2375584375 -0.78243583 159.52901 -22.894426 110.54398 -23.258129 106.32294 -1.7154956 -60.537701
2396518750 -0.78407341 159.35428 -22.787188 110.47482 -23.138988 106.22917 -1.7218227 -60.960308
2417453125 -0.7861349 159.16803 -22.675884 110.37613 -23.031872 106.24482 -1.729105 -61.37117
2438387500 -0.78603464 158.96893 -22.569399 110.48031 -22.893259 106.16747 -1.7375972 -61.785019
2459321875 -0.79058635 158.77165 -22.431168 110.13532 -22.78372 105.90396 -1.7463849 -62.213921
2480256250 -0.78596908 158.58723 -22.340139 110.25968 -22.683561 105.84422 -1.7543221 -62.649734
2501190625 -0.78594565 158.4183 -22.200489 110.12586 -22.581678 105.78696 -1.7600598 -63.092098
2522125000 -0.78897315 158.24712 -22.128706 109.67162 -22.462702 105.78668 -1.7673508 -63.508945
2543059375 -0.79374045 158.05182 -22.03381 109.79255 -22.334288 105.55471 -1.7735875 -63.906208
2563993750 -0.79240233 157.85852 -21.912003 109.83546 -22.238777 105.43594 -1.7806616 -64.309937
2584928125 -0.79303098 157.66449 -21.797455 109.71133 -22.12661 105.35987 -1.7896384 -64.728424
2605862500 -0.79299432 157.47154 -21.681305 109.49984 -22.026308 105.09202 -1.7997186 -65.156265
2626796875 -0.79434747 157.28905 -21.570099 109.34737 -21.926029 104.87218 -1.8087559 -65.578789
2647731250 -0.79607981 157.1179 -21.451548 109.05478 -21.823896 104.92434 -1.8132313 -66.000282
2668665625 -0.79835129 156.94054 -21.382656 108.83312 -21.712311 104.86322 -1.8197984 -66.401871
2689600000 -0.80196422 156.74066 -21.302402 108.74674 -21.603643 104.61383 -1.8276889 -66.789459
2710534375 -0.8062017 156.54063 -21.195425 108.90962 -21.526087 104.4986 -1.8368711 -67.189125
2731468750 -0.80686885 156.35506 -21.021254 108.81851 -21.430086 104.49855 -1.8450427 -67.610382
2752403125 -0.80821943 156.1888 -20.9284 108.13639 -21.323708 104.46032 -1.8519542 -68.029358
2773337500 -0.81288719 156.01762 -20.870037 107.98897 -21.212336 104.1735 -1.8585814 -68.445053
2794271875 -0.82061881 155.84958 -20.767374 107.87097 -21.137667 104.0838 -1.8643794 -68.853256
2815206250 -0.82060724 155.67358 -20.658598 107.8651 -21.03397 104.07119 -1.8734686 -69.234276
2836140625 -0.82277697 155.47626 -20.572447 107.63266 -20.919147 103.8452 -1.8818326 -69.613937
2857075000 -0.82600826 155.28148 -20.464136 107.6172 -20.831135 103.77488 -1.88852 -70.015373
2878009375 -0.8291617 155.12021 -20.343803 107.19405 -20.730742 103.54126 -1.8957394 -70.435257
2898943750 -0.82732755 154.95924 -20.279598 106.95466 -20.658068 103.52702 -1.9022418 -70.848396
2919878125 -0.82958966 154.77092 -20.202717 106.8418 -20.553194 103.53297 -1.9089644 -71.23037
2940812500 -0.83645916 154.58066 -20.109175 106.71015 -20.444584 103.31309 -1.9146409 -71.604134
2961746875 -0.84139234 154.39502 -20.00695 106.47585 -20.351894 103.12868 -1.9226201 -71.981949
2982681250 -0.84045386 154.19948 -19.926752 106.3746 -20.260223 102.95023 -1.9309101 -72.363464
3003615625 -0.84111375 154.00296 -19.816168 106.05314 -20.189709 102.87102 -1.9385549 -72.758263
3024550000 -0.86543858 153.83087 -19.753559 105.21077 -20.082085 102.796 -1.9440342 -73.15831
3045484375 -0.86417675 153.66071 -19.65732 105.46027 -19.986856 102.45942 -1.9494008 -73.554001
3066418750 -0.86311924 153.48288 -19.530966 105.25523 -19.920912 102.40926 -1.9563789 -73.931557
3087353125 -0.86262268 153.28226 -19.462696 104.93156 -19.825155 102.32757 -1.9637427 -74.278984
3108287500 -0.86629385 153.0779 -19.418226 104.6957 -19.732376 102.16787 -1.9726069 -74.647194
3129221875 -0.86529094 152.87614 -19.342312 104.88561 -19.642164 101.94479 -1.9811271 -75.033768
3150156250 -0.86737025 152.68666 -19.208971 104.90435 -19.565735 101.72956 -1.9871649 -75.427704
3171090625 -0.87009072 152.52313 -19.094084 104.43724 -19.488121 101.66157 -1.9912425 -75.816666
3192025000 -0.87537253 152.36493 -19.059433 104.02031 -19.395773 101.38563 -1.9983513 -76.178886
3212959375 -0.87828386 152.17665 -18.995853 104.15427 -19.314388 101.15852 -2.0065033 -76.532875
3233893750 -0.87877393 151.96613 -18.900206 103.98031 -19.253567 101.07027 -2.0148942 -76.889481
3254828125 -0.88275599 151.75703 -18.824656 103.93691 -19.159296 101.11042 -2.0226636 -77.254044
3275762500 -0.88811976 151.57159 -18.69516 103.70889 -19.059568 100.81554 -2.027149 -77.64257
3296696875 -0.88992572 151.40968 -18.639614 103.25806 -19.001469 100.60349 -2.0320599 -78.026817
3317631250 -0.89307386 151.23314 -18.574114 103.25614 -18.920885 100.44897 -2.0372531 -78.389717
3338565625 -0.90080106 151.04829 -18.501406 103.0121 -18.871389 100.32354 -2.044003 -78.738937
3359500000 -0.90835637 150.84082 -18.415215 102.90707 -18.778893 100.35645 -2.0518875 -79.077599
3380434375 -0.91547877 150.62614 -18.299742 102.49487 -18.681456 100.07166 -2.0585508 -79.434227
3401368750 -0.91284853 150.43874 -18.274172 102.25035 -18.627197 99.968796 -2.0660987 -79.814156
3422303125 -0.91412622 150.27235 -18.225655 102.37104 -18.533461 99.828346 -2.0717111 -80.181839
3443237500 -0.92236084 150.10201 -18.111738 102.31004 -18.478052 99.506073 -2.0748527 -80.543388
3464171875 -0.93231994 149.9399 -18.141396 101.04637 -18.421556 99.497223 -2.0803158 -80.883591
3485106250 -0.93363357 149.74258 -18.119019 100.66486 -18.344021 99.473145 -2.0870051 -81.219048
3506040625 -0.93446249 149.539 -18.072905 100.63998 -18.251938 99.433548 -2.0954654 -81.555794
3526975000 -0.93478674 149.34503 -17.999641 100.72876 -18.149128 99.158508 -2.102927 -81.905823
3547909375 -0.93527055 149.18492 -17.903246 100.53572 -18.108683 98.83226 -2.1075547 -82.28598
3568843750 -0.93523949 149.03076 -17.845274 100.44679 -18.047485 98.917229 -2.1109235 -82.639069
3589778125 -0.94019598 148.8623 -17.69101 100.62419 -17.951059 98.817375 -2.1153955 -82.974022
3610712500 -0.94770592 148.67053 -17.50547 100.59998 -17.881222 98.5056 -2.1204507 -83.29863
3631646875 -0.9470914 148.46136 -17.497219 100.58955 -17.822752 98.505447 -2.129319 -83.621452
3652581250 -0.95665073 148.26132 -17.424381 100.47741 -17.720432 98.47039 -2.1366172 -83.962166
3673515625 -0.9619894 148.07608 -17.325373 100.42299 -17.636143 98.047035 -2.1414504 -84.331337
3694450000 -0.96216273 147.9187 -17.203169 100.2074 -17.591068 97.862411 -2.1477666 -84.695839
3715384375 -0.96406382 147.77489 -17.154825 99.656601 -17.531298 97.695114 -2.1518967 -85.025513
3736318750 -0.96635556 147.58626 -17.125053 99.673416 -17.471432 97.735916 -2.1568501 -85.330208
3757253125 -0.97169387 147.37683 -17.030935 99.617447 -17.363995 97.689354 -2.1624784 -85.643745
3778187500 -0.98826051 147.19441 -16.978567 99.001289 -17.289297 97.234116 -2.1690855 -85.989517
3799121875 -0.98522741 147.01079 -16.910379 99.210136 -17.238672 97.141457 -2.1767337 -86.329735
3820056250 -0.98245722 146.83502 -16.794193 98.901054 -17.16503 96.894585 -2.1799009 -86.682564
3840990625 -0.980542 146.67183 -16.788862 98.66214 -17.138157 96.805649 -2.1858389 -87.011162
3861925000 -0.98402178 146.48453 -16.704872 98.770195 -17.036871 96.903618 -2.1892292 -87.309029
3882859375 -0.99082911 146.28539 -16.623114 98.356171 -16.942595 96.468147 -2.1926968 -87.62014
3903793750 -0.9913646 146.07471 -16.57527 98.21006 -16.910217 96.310532 -2.1994476 -87.950691
3924728125 -0.99560708 145.87511 -16.532169 97.93058 -16.842779 96.234406 -2.20714 -88.28978
3945662500 -0.99906415 145.69446 -16.480659 97.934166 -16.776854 96.106506 -2.2138827 -88.629967
3966596875 -0.99696368 145.51257 -16.368214 97.913155 -16.701443 95.962746 -2.2183216 -88.948151
3987531250 -1.0005605 145.33519 -16.318447 97.371758 -16.633204 95.742531 -2.2199092 -89.256973
4008465625 -1.0040568 145.14455 -16.306789 97.425255 -16.577765 95.601845 -2.2233002 -89.551575
4029400000 -1.009793 144.94081 -16.217529 97.471428 -16.507414 95.478951 -2.2298644 -89.85228
4050334375 -1.0119209 144.74036 -16.142712 97.17482 -16.436697 95.197685 -2.2363944 -90.183281
4071268750 -1.0131686 144.54556 -16.084772 97.062599 -16.391937 95.067017 -2.2434723 -90.517189
4092203125 -1.0184504 144.37872 -16.018143 96.759995 -16.309374 95.028946 -2.2482712 -90.827682
4113137500 -1.0214916 144.21535 -15.98033 96.710388 -16.234798 94.617882 -2.2508576 -91.12291
4134071875 -1.0246667 144.03648 -15.88909 96.688576 -16.192747 94.363625 -2.2570193 -91.414604
4155006250 -1.0281559 143.83461 -15.826872 96.480415 -16.111809 94.178513 -2.2601783 -91.708176
4175940625 -1.0319941 143.63113 -15.739892 96.36129 -16.088646 94.008545 -2.2671721 -92.031479
4196875000 -1.036971 143.45497 -15.68327 95.806755 -16.008917 94.097527 -2.2739758 -92.336792
4217809375 -1.0379117 143.27744 -15.673042 95.816193 -15.926641 93.673866 -2.2763181 -92.649185
4238743750 -1.0394573 143.0997 -15.581604 95.919609 -15.902017 93.566208 -2.2818346 -92.960426
