!Keysight Technologies,N5227A,US51270248,A.10.65.08
!Date: Tuesday, June 11, 2024 07:30:17
!Correction: S11(Full 2 Port(1,4)) 
!S41(Full 2 Port(1,4)) 
!S14(Full 2 Port(1,4)) 
!S44(Full 2 Port(1,4)) 
!S2P File: Measurements: S11, S41, S14, S44:
# Hz S  dB   R 50
10000000 -2.063719 -0.30144131 -13.434152 0.90457225 -13.452406 0.97254682 -2.0645521 -0.26388475
30934375 -2.062084 -0.84666938 -13.394808 2.2035618 -13.408957 2.2463923 -2.0642924 -0.7960701
51868750 -2.0741649 -1.3461545 -13.396646 3.6654863 -13.394106 3.6774683 -2.0756116 -1.3018851
72803125 -2.0827439 -1.7496901 -13.372611 5.2656546 -13.369675 5.2453871 -2.0855446 -1.7011341
93737500 -2.0850825 -2.1547413 -13.322939 6.8280396 -13.319814 6.8010859 -2.0893328 -2.1052561
114671875 -2.0863798 -2.6041045 -13.260043 8.2975683 -13.252474 8.2506428 -2.0925908 -2.5471737
135606250 -2.0894532 -3.0930622 -13.190981 9.6857672 -13.184207 9.6193018 -2.0972078 -3.0262187
156540625 -2.0964568 -3.5856574 -13.123756 11.031527 -13.116118 10.956905 -2.1042016 -3.5008876
177475000 -2.1040516 -4.0363688 -13.04826 12.39054 -13.043512 12.314044 -2.1110394 -3.9443815
198409375 -2.1101053 -4.4607439 -12.960116 13.73691 -12.95472 13.653934 -2.1160133 -4.3599977
219343750 -2.1138115 -4.9012513 -12.860918 14.998701 -12.850279 14.909748 -2.1213369 -4.8018947
240278125 -2.1216927 -5.3760471 -12.758199 16.182508 -12.742103 16.088068 -2.1319427 -5.2642078
261212500 -2.133024 -5.8463802 -12.654973 17.327385 -12.64187 17.237818 -2.1443224 -5.725759
282146875 -2.1436753 -6.3000817 -12.549103 18.464811 -12.533896 18.364262 -2.1543577 -6.1794624
303081250 -2.1510589 -6.7439117 -12.43496 19.562492 -12.41955 19.453943 -2.1630628 -6.6209106
324015625 -2.1596928 -7.1856289 -12.314948 20.605013 -12.301748 20.493145 -2.1711433 -7.0515733
344950000 -2.1697764 -7.6206985 -12.192685 21.589287 -12.178165 21.46929 -2.1794789 -7.4869137
365884375 -2.1807358 -8.0629826 -12.068717 22.524471 -12.055353 22.405199 -2.1905096 -7.9254432
386818750 -2.1938338 -8.5204411 -11.943735 23.424927 -11.930925 23.297308 -2.2046592 -8.3694286
407753125 -2.2074037 -8.9719219 -11.818464 24.284883 -11.805228 24.167549 -2.218214 -8.8019876
428687500 -2.2194471 -9.4013166 -11.68946 25.123558 -11.672774 24.993053 -2.2271991 -9.2349062
449621875 -2.2268121 -9.83255 -11.555754 25.896667 -11.53993 25.75466 -2.2381399 -9.6803598
470556250 -2.2383745 -10.283354 -11.423095 26.615612 -11.408317 26.475254 -2.2514002 -10.107806
491490625 -2.2536137 -10.719252 -11.293316 27.305573 -11.277879 27.172123 -2.2650299 -10.52518
512425000 -2.2677975 -11.143559 -11.160704 27.970785 -11.146348 27.834177 -2.2799063 -10.947092
533359375 -2.281924 -11.573705 -11.025518 28.596983 -11.0129 28.458811 -2.2946076 -11.375108
554293750 -2.2954926 -12.010995 -10.893396 29.16736 -10.879561 29.038614 -2.3092799 -11.808634
575228125 -2.3093843 -12.44282 -10.763505 29.716839 -10.746897 29.580006 -2.3236516 -12.235713
596162500 -2.3244917 -12.864942 -10.632265 30.235909 -10.616768 30.089815 -2.3380558 -12.653554
617096875 -2.3407028 -13.286958 -10.500789 30.716841 -10.486945 30.577747 -2.3536928 -13.073044
638031250 -2.3583233 -13.703723 -10.371478 31.172045 -10.357846 31.037695 -2.3712804 -13.484646
658965625 -2.3742256 -14.120481 -10.241779 31.60387 -10.228351 31.462532 -2.3884549 -13.895741
679900000 -2.3907604 -14.54771 -10.113449 31.993679 -10.102015 31.850235 -2.4050746 -14.317747
700834375 -2.4086163 -14.962122 -9.9887123 32.362343 -9.9786177 32.229649 -2.4237108 -14.732107
721768750 -2.4270911 -15.371807 -9.8656883 32.71862 -9.8524485 32.587494 -2.4424019 -15.137622
742703125 -2.4460623 -15.76376 -9.7412195 33.062851 -9.727252 32.92054 -2.4596887 -15.5248
763637500 -2.4640424 -16.168663 -9.617795 33.360001 -9.603878 33.210114 -2.4759517 -15.92928
784571875 -2.4814148 -16.586082 -9.4947977 33.645241 -9.4844675 33.482399 -2.4942784 -16.335459
805506250 -2.5003819 -16.998745 -9.3760166 33.898918 -9.3662586 33.757584 -2.513968 -16.736328
826440625 -2.5202475 -17.40222 -9.2592278 34.145283 -9.2463636 33.988667 -2.5335281 -17.132643
847375000 -2.5401847 -17.794777 -9.1429272 34.37923 -9.1308479 34.215057 -2.5544105 -17.524567
868309375 -2.5621591 -18.18762 -9.0277596 34.584068 -9.0172014 34.433964 -2.5758126 -17.905466
889243750 -2.5824506 -18.574318 -8.9123096 34.776264 -8.9008465 34.619942 -2.5952451 -18.289225
910178125 -2.6022086 -18.969631 -8.798646 34.951553 -8.7882261 34.78125 -2.6144545 -18.683353
931112500 -2.6219599 -19.370768 -8.6861572 35.100563 -8.6789112 34.931847 -2.6355803 -19.0653
952046875 -2.6426883 -19.760414 -8.5771275 35.232239 -8.5687742 35.074097 -2.6553493 -19.443089
972981250 -2.663296 -20.13728 -8.4714546 35.357368 -8.4612207 35.192543 -2.6770573 -19.82283
993915625 -2.684926 -20.511242 -8.3647575 35.477833 -8.3552694 35.301186 -2.7000875 -20.2017
1014850000 -2.7073545 -20.893637 -8.258172 35.553593 -8.2516251 35.387066 -2.7224901 -20.580788
1035784375 -2.7310741 -21.278599 -8.1590776 35.633038 -8.151001 35.472984 -2.7456019 -20.959417
1056718750 -2.7523224 -21.656586 -8.0568209 35.72348 -8.0491533 35.545467 -2.7666066 -21.333189
1077653125 -2.7722161 -22.031326 -7.9558034 35.776581 -7.9486327 35.599632 -2.7884369 -21.700905
1098587500 -2.7940085 -22.401455 -7.8584633 35.818909 -7.850491 35.643944 -2.8100178 -22.051359
1119521875 -2.8180268 -22.754894 -7.7617974 35.854485 -7.7550387 35.681522 -2.8330827 -22.411943
1140456250 -2.8418801 -23.104839 -7.6680293 35.883251 -7.6607533 35.714493 -2.8580539 -22.771055
1161390625 -2.8662212 -23.472353 -7.5746555 35.903488 -7.5667958 35.737232 -2.8816519 -23.129644
1182325000 -2.8894768 -23.847178 -7.4820261 35.910236 -7.4748683 35.73468 -2.9033592 -23.494223
1203259375 -2.9121079 -24.212126 -7.3911476 35.910091 -7.3844132 35.727249 -2.9249666 -23.851679
1224193750 -2.9337389 -24.571712 -7.3007507 35.894405 -7.2960272 35.710114 -2.9469683 -24.201626
1245128125 -2.9569981 -24.920948 -7.2157717 35.874012 -7.2105031 35.690197 -2.9726467 -24.538977
1266062500 -2.9833193 -25.270365 -7.1306095 35.85717 -7.12567 35.669579 -2.9975638 -24.879795
1286996875 -3.0116606 -25.607691 -7.0469446 35.822346 -7.0419545 35.644772 -3.0236075 -25.234623
1307931250 -3.0357964 -25.959887 -6.9640875 35.788818 -6.9595199 35.611 -3.049439 -25.587179
1328865625 -3.0589609 -26.326021 -6.881628 35.748646 -6.8781624 35.564575 -3.0730479 -25.937969
1349800000 -3.0830112 -26.678289 -6.8031354 35.689598 -6.7990527 35.508999 -3.096447 -26.272604
1370734375 -3.1078479 -27.021145 -6.7242746 35.64233 -6.7225056 35.455528 -3.1210182 -26.597466
1391668750 -3.1336806 -27.340862 -6.6466012 35.585663 -6.6446896 35.407997 -3.1464684 -26.92804
1412603125 -3.1604221 -27.67314 -6.5705795 35.52776 -6.5680156 35.345242 -3.1738038 -27.258919
1433537500 -3.1884198 -28.011032 -6.4957309 35.454491 -6.4937587 35.277843 -3.200151 -27.598392
1454471875 -3.2137403 -28.351366 -6.4239316 35.376945 -6.4205441 35.198204 -3.225153 -27.942083
1475406250 -3.2373724 -28.694458 -6.3516712 35.306816 -6.3513017 35.121838 -3.2508662 -28.26697
1496340625 -3.2615631 -29.024323 -6.2808876 35.223 -6.2799459 35.051735 -3.2744772 -28.579674
1517275000 -3.2869434 -29.334488 -6.2116251 35.143932 -6.209754 34.968529 -3.3002045 -28.884037
1538209375 -3.3138354 -29.643301 -6.1418123 35.063465 -6.1417785 34.889305 -3.3271518 -29.200705
1559143750 -3.3406675 -29.962482 -6.0726652 34.964779 -6.0727296 34.796913 -3.3556523 -29.517294
1580078125 -3.3668485 -30.292969 -6.0078788 34.86631 -6.0057592 34.699371 -3.3816209 -29.836622
1601012500 -3.3929555 -30.62118 -5.942843 34.765057 -5.9406891 34.591862 -3.4057643 -30.161543
1621946875 -3.4173701 -30.937077 -5.8800969 34.662693 -5.878108 34.480659 -3.4320779 -30.470366
1642881250 -3.4433265 -31.251026 -5.8163614 34.569649 -5.8162231 34.390953 -3.4584174 -30.759075
1663815625 -3.4710374 -31.55142 -5.7535396 34.463181 -5.7529397 34.286575 -3.4853849 -31.049784
1684750000 -3.4998608 -31.850071 -5.6924481 34.355255 -5.6925664 34.179035 -3.5126843 -31.3526
1705684375 -3.5279245 -32.156708 -5.6323457 34.235565 -5.6326289 34.068504 -3.5410421 -31.663818
1726618750 -3.5537844 -32.478077 -5.5751739 34.123039 -5.5743833 33.945789 -3.5675173 -31.968203
1747553125 -3.5814424 -32.795837 -5.5170674 34.021175 -5.5183964 33.827019 -3.5941877 -32.264912
1768487500 -3.6094499 -33.086174 -5.4589467 33.902718 -5.4622526 33.720806 -3.6213169 -32.550507
1789421875 -3.6361048 -33.373745 -5.4037924 33.784332 -5.4074759 33.61179 -3.6493723 -32.825695
1810356250 -3.6646192 -33.669334 -5.3473892 33.671829 -5.3521242 33.501888 -3.6771746 -33.111656
1831290625 -3.6934762 -33.964512 -5.2925801 33.556614 -5.294589 33.379066 -3.7049229 -33.403133
1852225000 -3.7208447 -34.265457 -5.2384005 33.436188 -5.2414551 33.243431 -3.7328169 -33.69593
1873159375 -3.7475789 -34.566193 -5.1851859 33.299244 -5.1901474 33.126019 -3.7594316 -33.978016
1894093750 -3.7739818 -34.851112 -5.1361198 33.169121 -5.1383562 32.990089 -3.7877812 -34.252926
1915028125 -3.8019056 -35.13166 -5.0848041 33.053036 -5.0905828 32.870205 -3.8159151 -34.520603
1935962500 -3.8290005 -35.402954 -5.0343137 32.930214 -5.038527 32.771297 -3.8423648 -34.797966
1956896875 -3.8563793 -35.694294 -4.982163 32.813087 -4.9860592 32.6311 -3.8714502 -35.076649
1977831250 -3.8852346 -35.970978 -4.9314051 32.658295 -4.9380088 32.489185 -3.8983567 -35.351292
1998765625 -3.9095917 -36.24617 -4.8866796 32.518906 -4.8908472 32.351189 -3.9246814 -35.625271
2019700000 -3.9348338 -36.529846 -4.84164 32.395981 -4.8449526 32.234428 -3.9518654 -35.879131
2040634375 -3.9624465 -36.799892 -4.7952294 32.270546 -4.7968268 32.10947 -3.9785495 -36.14362
2061568750 -3.9916556 -37.058525 -4.7482996 32.141022 -4.7518663 31.969719 -4.0075717 -36.406025
2082503125 -4.0200753 -37.32048 -4.7024398 32.002884 -4.7073193 31.837858 -4.0363121 -36.67252
2103437500 -4.0476136 -37.596405 -4.6578231 31.863167 -4.6630602 31.702013 -4.064311 -36.929279
2124371875 -4.0750265 -37.874691 -4.6156592 31.729586 -4.6201634 31.566511 -4.0890565 -37.181519
2145306250 -4.1028433 -38.137875 -4.5725751 31.593542 -4.5778494 31.43416 -4.1146059 -37.440742
2166240625 -4.1292758 -38.389378 -4.5313921 31.464216 -4.5366278 31.301788 -4.1442103 -37.686882
2187175000 -4.1586843 -38.652843 -4.4890294 31.337246 -4.4951186 31.168217 -4.1738973 -37.925755
2208109375 -4.1891084 -38.908878 -4.447463 31.199509 -4.4555221 31.035536 -4.2025285 -38.171951
2229043750 -4.2184587 -39.172028 -4.4064651 31.071753 -4.4145756 30.903677 -4.2292891 -38.434532
2249978125 -4.2469368 -39.430305 -4.3658295 30.933781 -4.3742709 30.772106 -4.256453 -38.690826
2270912500 -4.2731943 -39.694454 -4.3268614 30.794775 -4.3346739 30.633453 -4.2835956 -38.928535
2291846875 -4.3009834 -39.942474 -4.2894483 30.654982 -4.2964592 30.48768 -4.3114433 -39.159027
2312781250 -4.3293562 -40.186489 -4.2528687 30.529642 -4.2606211 30.365967 -4.3410373 -39.391487
2333715625 -4.358489 -40.431999 -4.2124777 30.404457 -4.2220469 30.236504 -4.3717504 -39.641109
2354650000 -4.3880057 -40.681385 -4.1740937 30.258356 -4.1850667 30.096064 -4.4005523 -39.882328
2375584375 -4.4152226 -40.931252 -4.1374831 30.117495 -4.1474104 29.958761 -4.4268885 -40.134808
2396518750 -4.4407725 -41.17675 -4.1030707 29.980597 -4.1129088 29.815832 -4.4536996 -40.35997
2417453125 -4.4666767 -41.414326 -4.0670638 29.845472 -4.0778241 29.698029 -4.4789333 -40.57542
2438387500 -4.4934564 -41.641262 -4.0329018 29.710224 -4.0403376 29.560724 -4.5077925 -40.800919
2459321875 -4.5223346 -41.8675 -3.9958866 29.58119 -4.0062404 29.417112 -4.5381327 -41.012638
2480256250 -4.5499897 -42.100716 -3.9606848 29.443119 -3.9728658 29.281042 -4.5650311 -41.248024
2501190625 -4.5775266 -42.348324 -3.9256277 29.2995 -3.9391992 29.147936 -4.5917768 -41.48275
2522125000 -4.604835 -42.573196 -3.8932436 29.145069 -3.90412 29.006626 -4.6155319 -41.710701
2543059375 -4.6288557 -42.798653 -3.8628349 29.016188 -3.8717995 28.863636 -4.6424026 -41.923641
2563993750 -4.6564937 -43.025639 -3.8304689 28.883341 -3.8408606 28.734947 -4.6695633 -42.115494
2584928125 -4.6859446 -43.240505 -3.7980678 28.750496 -3.8087265 28.599783 -4.6977835 -42.33028
2605862500 -4.7156358 -43.45137 -3.7663546 28.61149 -3.7780049 28.459463 -4.7279253 -42.549572
2626796875 -4.7442966 -43.675838 -3.7346849 28.475218 -3.7464998 28.32761 -4.7542524 -42.76981
2647731250 -4.7712321 -43.915058 -3.7026348 28.32851 -3.7161026 28.190323 -4.7781978 -43.001198
2668665625 -4.7977877 -44.13245 -3.6740942 28.182178 -3.6842411 28.045607 -4.8042068 -43.220943
2689600000 -4.822978 -44.335468 -3.6473219 28.047216 -3.6565421 27.900356 -4.8313851 -43.411613
2710534375 -4.8482852 -44.554703 -3.6202958 27.931343 -3.6297402 27.778641 -4.8601398 -43.606274
2731468750 -4.8783841 -44.785969 -3.5865467 27.811333 -3.599025 27.654169 -4.888371 -43.815636
2752403125 -4.908617 -44.989262 -3.5555427 27.648497 -3.5702024 27.510008 -4.9155269 -44.043285
2773337500 -4.9327931 -45.201412 -3.5301123 27.507343 -3.5418229 27.366165 -4.9430108 -44.269245
2794271875 -4.9575949 -45.426262 -3.5031269 27.37196 -3.5147438 27.225044 -4.9679193 -44.464066
2815206250 -4.981688 -45.640087 -3.4757285 27.235891 -3.4871526 27.095253 -4.9917068 -44.668636
2836140625 -5.0083008 -45.835369 -3.4502289 27.107409 -3.4605072 26.962469 -5.0214248 -44.863754
2857075000 -5.034759 -46.037739 -3.4219592 26.987499 -3.4343021 26.832268 -5.0502911 -45.050026
2878009375 -5.0633388 -46.246037 -3.3918257 26.839094 -3.4079883 26.694115 -5.0784621 -45.261532
2898943750 -5.0903654 -46.450069 -3.3673337 26.684235 -3.3823881 26.551641 -5.102664 -45.461437
2919878125 -5.1147571 -46.655136 -3.3445575 26.550602 -3.3565786 26.418232 -5.1249704 -45.676716
2940812500 -5.137814 -46.853203 -3.3203316 26.43049 -3.331439 26.282248 -5.1517191 -45.86665
2961746875 -5.1642718 -47.05135 -3.2937975 26.293951 -3.3068478 26.150944 -5.1778564 -46.038841
2982681250 -5.1912026 -47.227119 -3.2714009 26.158081 -3.2838769 26.017376 -5.2066693 -46.221439
3003615625 -5.2200751 -47.423157 -3.2459085 26.030264 -3.2600238 25.898922 -5.2325811 -46.406582
3024550000 -5.2464457 -47.609989 -3.2219744 25.883913 -3.2337101 25.761499 -5.2570977 -46.627636
3045484375 -5.2689991 -47.818233 -3.1992743 25.759962 -3.211031 25.611481 -5.2837934 -46.82336
3066418750 -5.2952099 -48.026489 -3.1749389 25.630243 -3.1889515 25.480751 -5.306643 -46.995346
3087353125 -5.3219357 -48.201885 -3.1521909 25.493122 -3.1665139 25.3568 -5.3308401 -47.174072
3108287500 -5.3479652 -48.3657 -3.1321445 25.355694 -3.1437533 25.235804 -5.3594966 -47.356777
3129221875 -5.3726826 -48.556786 -3.1114321 25.241362 -3.1220565 25.101568 -5.3891358 -47.546108
3150156250 -5.3990459 -48.770538 -3.0873919 25.12945 -3.1004546 24.966385 -5.4154258 -47.736168
3171090625 -5.4264665 -48.980988 -3.0621681 24.989302 -3.0782397 24.837234 -5.4378242 -47.937
3192025000 -5.4506407 -49.153511 -3.041841 24.833168 -3.0567648 24.698637 -5.461493 -48.125202
3212959375 -5.4724092 -49.327168 -3.0245664 24.71583 -3.0377429 24.566826 -5.4883876 -48.29229
3233893750 -5.4962931 -49.506973 -3.0036016 24.600756 -3.0183282 24.451756 -5.5141234 -48.440861
3254828125 -5.522131 -49.685696 -2.9834027 24.488293 -2.9959676 24.335464 -5.540422 -48.642147
3275762500 -5.5491638 -49.889015 -2.9589388 24.367722 -2.9750459 24.193951 -5.5714631 -48.837872
3296696875 -5.5751691 -50.070362 -2.9382768 24.207111 -2.9563832 24.06234 -5.5943666 -49.008404
3317631250 -5.5966711 -50.256538 -2.9211259 24.083824 -2.9376645 23.932201 -5.6167498 -49.199192
3338565625 -5.6195788 -50.424664 -2.902626 23.958515 -2.9194608 23.812878 -5.6390023 -49.345573
3359500000 -5.6416345 -50.585831 -2.8840394 23.84363 -2.8983121 23.693758 -5.6619115 -49.522552
3380434375 -5.6694884 -50.760914 -2.8621609 23.723761 -2.8799872 23.564222 -5.6933413 -49.694847
3401368750 -5.697741 -50.911411 -2.842747 23.571783 -2.8618457 23.449976 -5.7194691 -49.864296
3422303125 -5.7198715 -51.091427 -2.8286386 23.451727 -2.8430007 23.316736 -5.7449894 -50.067001
3443237500 -5.7430487 -51.294563 -2.8104262 23.351614 -2.8269331 23.193087 -5.7693863 -50.229137
3464171875 -5.7690492 -51.468925 -2.7888856 23.221523 -2.8088765 23.081356 -5.7875643 -50.380352
3485106250 -5.7945924 -51.612 -2.7713172 23.089684 -2.7902482 22.966415 -5.8096704 -50.543758
3506040625 -5.8190317 -51.738628 -2.755985 22.956631 -2.7709732 22.842138 -5.837554 -50.718079
3526975000 -5.8416696 -51.900841 -2.741883 22.85808 -2.7546232 22.712633 -5.8692479 -50.87788
3547909375 -5.8691359 -52.09763 -2.7210908 22.747833 -2.7394023 22.599792 -5.8961053 -51.032703
3568843750 -5.8927536 -52.270344 -2.7050545 22.616541 -2.7208543 22.489985 -5.9126253 -51.216125
3589778125 -5.9136209 -52.456291 -2.6876423 22.522886 -2.7033007 22.359381 -5.9343963 -51.39888
3610712500 -5.9389806 -52.613163 -2.6672053 22.382832 -2.6886201 22.239017 -5.9589186 -51.528988
3631646875 -5.9618859 -52.736389 -2.6557617 22.250639 -2.6709726 22.132442 -5.981308 -51.66605
3652581250 -5.9841952 -52.888329 -2.6410933 22.152206 -2.6526823 22.013567 -6.0099378 -51.850216
3673515625 -6.0078926 -53.069592 -2.6238389 22.053722 -2.6371355 21.881161 -6.040761 -52.007904
3694450000 -6.0321937 -53.276867 -2.6033115 21.934547 -2.6229072 21.75938 -6.0635576 -52.164326
3715384375 -6.0572124 -53.456184 -2.5860224 21.78944 -2.6090314 21.644579 -6.0829372 -52.327267
3736318750 -6.0764103 -53.59177 -2.5746913 21.675676 -2.5924611 21.54084 -6.0993929 -52.483284
3757253125 -6.0956736 -53.735012 -2.5582197 21.580498 -2.5756121 21.41745 -6.1255846 -52.652893
3778187500 -6.1216135 -53.871082 -2.5423405 21.446316 -2.5618637 21.296043 -6.1551495 -52.759338
3799121875 -6.1453862 -54.02354 -2.529635 21.343452 -2.5471282 21.191929 -6.1778727 -52.912247
3820056250 -6.1725135 -54.205021 -2.5090575 21.229471 -2.5337429 21.074123 -6.2061982 -53.080891
3840990625 -6.1941442 -54.34483 -2.4983852 21.083103 -2.5184441 20.969015 -6.2229395 -53.218391
3861925000 -6.2110043 -54.515057 -2.4851332 20.996273 -2.5031693 20.851044 -6.2389727 -53.408085
3882859375 -6.2356577 -54.656528 -2.4685266 20.882147 -2.4898324 20.736994 -6.266468 -53.543663
3903793750 -6.2593374 -54.769207 -2.4553049 20.760164 -2.4753733 20.630733 -6.2893634 -53.64513
3924728125 -6.2840281 -54.88953 -2.4412723 20.632549 -2.4607165 20.512281 -6.3124137 -53.790897
3945662500 -6.3052177 -55.04155 -2.4313786 20.52944 -2.4469984 20.400599 -6.3361325 -53.953693
3966596875 -6.326983 -55.234509 -2.4146581 20.439482 -2.433764 20.286974 -6.3580499 -54.127125
3987531250 -6.352067 -55.389526 -2.3983951 20.300066 -2.4210327 20.178522 -6.3789268 -54.273293
4008465625 -6.371315 -55.507217 -2.3918295 20.180836 -2.4072456 20.076803 -6.3976645 -54.389809
4029400000 -6.3905029 -55.652325 -2.3785844 20.101166 -2.3935835 19.970142 -6.4172153 -54.519615
4050334375 -6.4169273 -55.778812 -2.3635695 19.98597 -2.3797019 19.859118 -6.4429784 -54.663986
4071268750 -6.4383922 -55.923298 -2.3509362 19.879578 -2.3662448 19.745871 -6.4661217 -54.790966
4092203125 -6.4614739 -56.105988 -2.3362186 19.761429 -2.3537374 19.629606 -6.4876299 -54.961777
4113137500 -6.4806585 -56.261795 -2.3271267 19.652086 -2.3428764 19.521463 -6.5103331 -55.088318
4134071875 -6.4981875 -56.433674 -2.3135133 19.566143 -2.3301234 19.41902 -6.5267329 -55.214909
4155006250 -6.5183525 -56.559261 -2.3007872 19.460981 -2.3177817 19.311031 -6.5489149 -55.351074
4175940625 -6.5404086 -56.69463 -2.2866905 19.37499 -2.306288 19.208529 -6.5703502 -55.443878
4196875000 -6.5681438 -56.825478 -2.2694864 19.230289 -2.2934041 19.100861 -6.591074 -55.605415
4217809375 -6.5872278 -56.941734 -2.2640951 19.114134 -2.281368 18.987637 -6.6165819 -55.733887
4238743750 -6.6046762 -57.131683 -2.2524204 19.039093 -2.2706938 18.881058 -6.6337109 -55.851494
