!Keysight Technologies,N5227A,US51270248,A.10.65.08
!Date: Tuesday, June 11, 2024 06:59:07
!Correction: S11(Full 2 Port(1,4)) 
!S41(Full 2 Port(1,4)) 
!S14(Full 2 Port(1,4)) 
!S44(Full 2 Port(1,4)) 
!S2P File: Measurements: S11, S41, S14, S44:
# Hz S  dB   R 50
10000000 -2.07497 -0.25532067 -13.443625 0.7291801 -13.457343 0.81170118 -2.0765584 -0.21176185
30934375 -2.0760162 -0.74765003 -13.425213 2.3079896 -13.436268 2.3341866 -2.0784297 -0.6967358
51868750 -2.0779524 -1.19081 -13.407304 3.885587 -13.405602 3.9022775 -2.0805323 -1.1205735
72803125 -2.0790329 -1.6626087 -13.367162 5.3705921 -13.362497 5.3584523 -2.080673 -1.6048665
93737500 -2.082124 -2.1247005 -13.320918 6.8418303 -13.314479 6.8133907 -2.0864093 -2.0749168
114671875 -2.0874128 -2.5889993 -13.266455 8.2918024 -13.257628 8.2464266 -2.0942469 -2.5350883
135606250 -2.092643 -3.059767 -13.203951 9.7148781 -13.193708 9.6623573 -2.1007919 -2.9873149
156540625 -2.0981596 -3.5315583 -13.130207 11.092798 -13.120446 11.03118 -2.1052608 -3.4446428
177475000 -2.1034424 -3.990021 -13.0503 12.434663 -13.041997 12.36976 -2.1095071 -3.8997405
198409375 -2.1090164 -4.4391851 -12.962777 13.739715 -12.953477 13.665937 -2.1154106 -4.3454666
219343750 -2.115284 -4.8904009 -12.867837 14.993013 -12.853833 14.917406 -2.1229389 -4.7942877
240278125 -2.1239622 -5.3504786 -12.768119 16.205952 -12.748556 16.117743 -2.1349387 -5.242147
261212500 -2.1338103 -5.8075452 -12.662574 17.362247 -12.646276 17.28722 -2.1448071 -5.6920276
282146875 -2.1427877 -6.2625532 -12.553123 18.490501 -12.535049 18.411509 -2.1531105 -6.1472182
303081250 -2.1507132 -6.7142167 -12.439394 19.57012 -12.420914 19.480768 -2.1620212 -6.5993824
324015625 -2.1608448 -7.1646357 -12.322102 20.60116 -12.304523 20.514627 -2.1714616 -7.0369339
344950000 -2.170913 -7.6009779 -12.201426 21.600132 -12.183204 21.499882 -2.1810577 -7.4678693
365884375 -2.1812637 -8.0394678 -12.076931 22.546543 -12.05938 22.450809 -2.1916828 -7.8992906
386818750 -2.1934617 -8.4901037 -11.950022 23.448393 -11.932423 23.342237 -2.2034059 -8.3416405
407753125 -2.2061241 -8.941123 -11.823237 24.294493 -11.805471 24.198339 -2.2165344 -8.7832718
428687500 -2.2193244 -9.3795433 -11.695399 25.119465 -11.67583 25.011862 -2.2279673 -9.2231216
449621875 -2.2290428 -9.8147821 -11.563437 25.895285 -11.544377 25.784636 -2.23985 -9.6617498
470556250 -2.2411091 -10.255488 -11.430955 26.626909 -11.411866 26.515415 -2.252634 -10.086336
491490625 -2.2551515 -10.689638 -11.29843 27.317463 -11.279884 27.211693 -2.2648079 -10.507347
512425000 -2.2684302 -11.117085 -11.165709 27.970135 -11.148025 27.868938 -2.2787979 -10.929964
533359375 -2.2824841 -11.548864 -11.03159 28.594528 -11.01517 28.483831 -2.2943902 -11.362116
554293750 -2.2972314 -11.982653 -10.900756 29.167089 -10.88274 29.063196 -2.3100703 -11.791438
575228125 -2.3119893 -12.413459 -10.770249 29.719387 -10.750076 29.609421 -2.3249202 -12.217874
596162500 -2.3265672 -12.837785 -10.637925 30.238317 -10.619254 30.125202 -2.3387849 -12.636855
617096875 -2.3424828 -13.257646 -10.506471 30.717085 -10.488257 30.607182 -2.3537779 -13.057432
638031250 -2.3584509 -13.677812 -10.377801 31.173601 -10.359786 31.063854 -2.3712654 -13.472431
658965625 -2.3747654 -14.095043 -10.249099 31.600567 -10.230518 31.487026 -2.3881109 -13.883908
679900000 -2.391921 -14.519307 -10.121774 32.000961 -10.10498 31.883125 -2.4051914 -14.298048
700834375 -2.4102242 -14.927858 -9.9956369 32.37513 -9.9799929 32.26664 -2.423259 -14.710479
721768750 -2.4283571 -15.33952 -9.871295 32.728123 -9.8534431 32.621315 -2.4418309 -15.12136
742703125 -2.4465945 -15.740491 -9.7473974 33.061745 -9.7286539 32.942661 -2.4593661 -15.517694
763637500 -2.4646671 -16.148039 -9.6249266 33.356739 -9.6068048 33.234573 -2.4766448 -15.9194
784571875 -2.4827785 -16.559341 -9.502286 33.644573 -9.4877729 33.515095 -2.4949498 -16.320112
805506250 -2.5024211 -16.964973 -9.3839169 33.904404 -9.3691854 33.793186 -2.5137713 -16.716793
826440625 -2.5220211 -17.365217 -9.2659206 34.144821 -9.2491341 34.027786 -2.5336037 -17.115091
847375000 -2.5418868 -17.760162 -9.1489763 34.378819 -9.1332664 34.253822 -2.5549023 -17.508366
868309375 -2.5639689 -18.156519 -9.0338163 34.582466 -9.0193148 34.46624 -2.5765357 -17.895
889243750 -2.5840368 -18.544802 -8.9197121 34.77581 -8.9032946 34.652634 -2.595367 -18.274933
910178125 -2.6043713 -18.940083 -8.8059921 34.949127 -8.7908354 34.814987 -2.6144013 -18.666185
931112500 -2.6240971 -19.331881 -8.692976 35.100403 -8.680685 34.965324 -2.6352115 -19.044744
952046875 -2.6448753 -19.720499 -8.5838547 35.232841 -8.5706768 35.106716 -2.6556005 -19.426031
972981250 -2.6657774 -20.099852 -8.4765368 35.349922 -8.4625549 35.219551 -2.6774075 -19.809809
993915625 -2.6872578 -20.481537 -8.371851 35.473011 -8.357583 35.33017 -2.7001739 -20.189367
1014850000 -2.7097225 -20.863251 -8.2647972 35.555199 -8.2539425 35.41782 -2.721802 -20.569639
1035784375 -2.7320635 -21.24408 -8.1645308 35.629467 -8.1522932 35.507374 -2.7441111 -20.945173
1056718750 -2.7533486 -21.618265 -8.0629396 35.713814 -8.0504122 35.579334 -2.7657416 -21.317862
1077653125 -2.7737813 -21.992599 -7.9624481 35.770306 -7.95015 35.627502 -2.7877047 -21.685278
1098587500 -2.7957859 -22.361906 -7.8649759 35.81522 -7.852469 35.675434 -2.8095295 -22.039059
1119521875 -2.8199501 -22.722507 -7.7680626 35.851322 -7.7570462 35.715584 -2.8327656 -22.401722
1140456250 -2.8438039 -23.074999 -7.6739168 35.874252 -7.6625414 35.744076 -2.8571312 -22.760029
1161390625 -2.8670843 -23.440016 -7.5809073 35.892719 -7.5683789 35.759193 -2.8802948 -23.12211
1182325000 -2.8904181 -23.808714 -7.4887786 35.901653 -7.4768057 35.760601 -2.9023895 -23.481123
1203259375 -2.9136295 -24.171688 -7.3991046 35.901299 -7.386888 35.755978 -2.9248707 -23.83651
1224193750 -2.9363492 -24.531256 -7.3088694 35.88942 -7.2984295 35.746437 -2.9471474 -24.185413
1245128125 -2.9606569 -24.878153 -7.2227068 35.868477 -7.2119112 35.728851 -2.9721389 -24.524078
1266062500 -2.9864769 -25.229443 -7.1376667 35.851482 -7.1268663 35.702621 -2.9971592 -24.872219
1286996875 -3.0129478 -25.572939 -7.0529604 35.812256 -7.0428596 35.674736 -3.0226843 -25.225304
1307931250 -3.037097 -25.923159 -6.9709568 35.778339 -6.9611959 35.640915 -3.048384 -25.575199
1328865625 -3.0611451 -26.281782 -6.88906 35.740982 -6.8798385 35.596981 -3.0723455 -25.919876
1349800000 -3.0852683 -26.629452 -6.8097525 35.686707 -6.800683 35.546253 -3.0960088 -26.256384
1370734375 -3.1105928 -26.972616 -6.7312508 35.64357 -6.7230568 35.492279 -3.1207247 -26.58399
1391668750 -3.1361158 -27.299433 -6.6528139 35.580524 -6.6456008 35.439892 -3.146322 -26.917091
1412603125 -3.1621041 -27.634401 -6.5773878 35.517506 -6.5691071 35.373478 -3.1733561 -27.250595
1433537500 -3.18924 -27.973915 -6.5022163 35.448284 -6.4953208 35.305359 -3.1995637 -27.58658
1454471875 -3.2147596 -28.308599 -6.4304242 35.37006 -6.4221272 35.229374 -3.2242954 -27.926111
1475406250 -3.23928 -28.647945 -6.3586049 35.298244 -6.3520517 35.153732 -3.2502759 -28.250473
1496340625 -3.2643936 -28.975739 -6.2870412 35.217525 -6.2807355 35.080051 -3.2744024 -28.566048
1517275000 -3.2894828 -29.292643 -6.2182646 35.134811 -6.210927 34.9981 -3.300137 -28.873915
1538209375 -3.315943 -29.607374 -6.1492219 35.057137 -6.1428156 34.916077 -3.3265049 -29.187536
1559143750 -3.3432698 -29.925467 -6.0802221 34.954964 -6.0747805 34.822601 -3.3538923 -29.505844
1580078125 -3.3689311 -30.249369 -6.0156898 34.858437 -6.0086889 34.726776 -3.3803937 -29.820633
1601012500 -3.3946815 -30.572464 -5.9503975 34.761726 -5.942924 34.62344 -3.4052954 -30.140863
1621946875 -3.4199862 -30.887947 -5.8875852 34.658726 -5.8801441 34.514668 -3.4321067 -30.448099
1642881250 -3.4464917 -31.202139 -5.8240252 34.563652 -5.8179131 34.420883 -3.4579775 -30.741135
1663815625 -3.4742136 -31.505159 -5.7607603 34.455948 -5.7547331 34.318741 -3.4845998 -31.035553
1684750000 -3.5022154 -31.804804 -5.6996484 34.348801 -5.6945763 34.209831 -3.5117733 -31.336485
1705684375 -3.5296082 -32.108711 -5.6396999 34.226284 -5.6344047 34.094749 -3.5395305 -31.645782
1726618750 -3.5563564 -32.421894 -5.5831838 34.117428 -5.5759001 33.980808 -3.5666142 -31.946152
1747553125 -3.5840228 -32.736591 -5.5250835 34.017353 -5.5197926 33.865074 -3.5939369 -32.243736
1768487500 -3.6123784 -33.031345 -5.4662867 33.899437 -5.4628439 33.757092 -3.6208551 -32.53117
1789421875 -3.6395509 -33.32019 -5.4114976 33.776711 -5.4082193 33.642406 -3.6486065 -32.812061
1810356250 -3.6674361 -33.616207 -5.3552356 33.661446 -5.3524189 33.528519 -3.6756687 -33.097591
1831290625 -3.6949401 -33.910942 -5.3002305 33.547283 -5.2959547 33.408653 -3.7029016 -33.386044
1852225000 -3.7227099 -34.210224 -5.2471189 33.430283 -5.2427454 33.277077 -3.7309649 -33.674122
1873159375 -3.7510347 -34.502811 -5.1942391 33.291557 -5.1911721 33.157139 -3.7580733 -33.956497
1894093750 -3.7774599 -34.789219 -5.1444855 33.162071 -5.1392341 33.025017 -3.7862911 -34.238316
1915028125 -3.8051696 -35.072739 -5.0926418 33.046635 -5.0905628 32.903347 -3.8145506 -34.508183
1935962500 -3.8313882 -35.350578 -5.041831 32.921375 -5.0385857 32.794792 -3.840703 -34.78178
1956896875 -3.8585668 -35.637833 -4.9905591 32.807236 -4.9870114 32.654064 -3.8686812 -35.062492
1977831250 -3.8875868 -35.91143 -4.9398723 32.655342 -4.9391007 32.517895 -3.8957951 -35.331997
1998765625 -3.9131622 -36.185406 -4.8952742 32.515453 -4.8918185 32.38409 -3.9229136 -35.603619
2019700000 -3.9391139 -36.464729 -4.8493447 32.392342 -4.8452845 32.261368 -3.9501126 -35.863983
2040634375 -3.9665515 -36.736771 -4.8028092 32.266945 -4.7980437 32.133224 -3.9771407 -36.128975
2061568750 -3.995373 -36.999119 -4.7566638 32.135838 -4.7528391 31.995605 -4.0056629 -36.391983
2082503125 -4.0232239 -37.264648 -4.7110462 31.998184 -4.7083149 31.863083 -4.0339861 -36.653816
2103437500 -4.0512195 -37.53619 -4.6665893 31.857687 -4.6639905 31.728622 -4.0614247 -36.909985
2124371875 -4.0787673 -37.80352 -4.624299 31.725554 -4.6209927 31.595612 -4.0874977 -37.162529
2145306250 -4.1072354 -38.068344 -4.5814199 31.592531 -4.5779328 31.461201 -4.1132874 -37.419277
2166240625 -4.1331887 -38.325089 -4.5394506 31.460669 -4.5366631 31.329252 -4.141943 -37.667454
2187175000 -4.1629024 -38.590271 -4.4972029 31.33289 -4.4958458 31.192644 -4.1716275 -37.911739
2208109375 -4.1924047 -38.846806 -4.4560146 31.192183 -4.4558697 31.060173 -4.2003231 -38.157837
2229043750 -4.2216053 -39.105766 -4.4151063 31.067587 -4.4151473 30.929047 -4.227272 -38.412201
2249978125 -4.2502971 -39.362507 -4.3748841 30.927315 -4.3746419 30.794786 -4.254333 -38.666325
2270912500 -4.2778077 -39.623104 -4.3362579 30.791628 -4.3350835 30.658079 -4.281918 -38.906052
2291846875 -4.306056 -39.870987 -4.2982459 30.654217 -4.2970781 30.517672 -4.3099985 -39.142117
2312781250 -4.3339148 -40.118141 -4.2614684 30.524082 -4.2598023 30.390644 -4.338912 -39.374645
2333715625 -4.3621531 -40.365372 -4.2209167 30.400093 -4.2220416 30.25775 -4.3683076 -39.62315
2354650000 -4.3910103 -40.612995 -4.183075 30.25222 -4.1857882 30.117058 -4.3974185 -39.862522
2375584375 -4.4184761 -40.859032 -4.1465626 30.113119 -4.1477289 29.98328 -4.4238625 -40.111572
2396518750 -4.4449463 -41.101665 -4.1115947 29.975504 -4.1130371 29.843857 -4.4513555 -40.339813
2417453125 -4.4712968 -41.340363 -4.0757513 29.841606 -4.0771046 29.720316 -4.4767408 -40.557911
2438387500 -4.498085 -41.571796 -4.0411444 29.706816 -4.0403953 29.578817 -4.5048475 -40.784557
2459321875 -4.5261335 -41.800415 -4.0048499 29.576281 -4.0070572 29.435356 -4.5342627 -40.999367
2480256250 -4.5538025 -42.030731 -3.9703777 29.436863 -3.9727635 29.302448 -4.5612545 -41.229305
2501190625 -4.5814342 -42.27367 -3.9351723 29.29867 -3.9398968 29.164103 -4.5882902 -41.450882
2522125000 -4.6092801 -42.495979 -3.902571 29.143785 -3.9095385 29.005823 -4.6149383 -41.6422
2543059375 -4.6351652 -42.720085 -3.8726182 29.012506 -3.8762794 28.862051 -4.6411076 -41.862015
2563993750 -4.6627607 -42.946991 -3.8397582 28.882378 -3.8445489 28.738493 -4.6681466 -42.067726
2584928125 -4.6907053 -43.165981 -3.8075254 28.748508 -3.8129051 28.594688 -4.6956534 -42.272839
2605862500 -4.7195492 -43.374214 -3.7754817 28.607668 -3.7826421 28.458557 -4.7253718 -42.48645
2626796875 -4.7475934 -43.598797 -3.7439661 28.471321 -3.7501109 28.328266 -4.7512078 -42.715473
2647731250 -4.7757111 -43.828117 -3.711787 28.327087 -3.7204385 28.187918 -4.7766533 -42.935802
2668665625 -4.8025241 -44.044056 -3.682996 28.182064 -3.687366 28.056278 -4.8025503 -43.170631
2689600000 -4.8289266 -44.250813 -3.6559708 28.047709 -3.6591854 27.907736 -4.8300519 -43.366577
2710534375 -4.8540478 -44.475811 -3.6280394 27.928345 -3.631892 27.78236 -4.8580499 -43.560471
2731468750 -4.8823957 -44.704529 -3.5955207 27.805794 -3.6016457 27.655066 -4.8855333 -43.768909
2752403125 -4.9115405 -44.907776 -3.5646174 27.646837 -3.5725737 27.51601 -4.912178 -43.994125
2773337500 -4.9370461 -45.11795 -3.5387959 27.507103 -3.544584 27.368671 -4.9404154 -44.213406
2794271875 -4.9628944 -45.335594 -3.5121024 27.372322 -3.5172827 27.233156 -4.9663548 -44.416435
2815206250 -4.9879713 -45.555977 -3.4840906 27.239813 -3.489578 27.103767 -4.9904971 -44.618992
2836140625 -5.0147185 -45.75172 -3.4586225 27.104944 -3.4627559 26.963894 -5.0186238 -44.822842
2857075000 -5.0401039 -45.954624 -3.4308949 26.981382 -3.4362869 26.835182 -5.0461483 -45.013603
2878009375 -5.0680823 -46.158798 -3.4022989 26.834621 -3.4099538 26.694601 -5.0738387 -45.217968
2898943750 -5.0948262 -46.356552 -3.3769379 26.685972 -3.3849165 26.556051 -5.0993004 -45.415291
2919878125 -5.1204309 -46.5592 -3.3536117 26.55229 -3.3585384 26.420637 -5.1228561 -45.627735
2940812500 -5.145277 -46.759369 -3.3294156 26.429907 -3.3332803 26.284388 -5.1497178 -45.826477
2961746875 -5.1712747 -46.960674 -3.3029687 26.293976 -3.3091698 26.152922 -5.1755571 -46.006035
2982681250 -5.1967182 -47.140827 -3.2799542 26.158352 -3.2856457 26.020496 -5.2030492 -46.191113
3003615625 -5.224597 -47.338947 -3.254704 26.029173 -3.262243 25.900867 -5.2289734 -46.364555
3024550000 -5.2504449 -47.518864 -3.2316391 25.88184 -3.2369051 25.758993 -5.2540073 -46.578194
3045484375 -5.274404 -47.720001 -3.2092178 25.762642 -3.2138512 25.617956 -5.2809744 -46.777676
3066418750 -5.3017936 -47.924698 -3.1842649 25.637163 -3.1919937 25.486517 -5.3058052 -46.951183
3087353125 -5.328608 -48.103592 -3.1612654 25.494345 -3.1689119 25.360722 -5.3300176 -47.137249
3108287500 -5.3542428 -48.275997 -3.1414757 25.354315 -3.1461678 25.237104 -5.3571396 -47.322777
3129221875 -5.378088 -48.465477 -3.1213605 25.236685 -3.124536 25.105999 -5.3846731 -47.510857
3150156250 -5.4038177 -48.671642 -3.0975432 25.127745 -3.1026485 24.973886 -5.4107399 -47.695827
3171090625 -5.4314508 -48.869041 -3.0725777 24.99197 -3.0810525 24.842382 -5.4349952 -47.887978
3192025000 -5.4567523 -49.043659 -3.052 24.838099 -3.0599742 24.70418 -5.4600592 -48.076481
3212959375 -5.4795165 -49.219128 -3.0343697 24.714624 -3.039964 24.575565 -5.4864712 -48.25341
3233893750 -5.5039716 -49.407078 -3.0130584 24.598822 -3.0198767 24.458548 -5.5122623 -48.413975
3254828125 -5.5278363 -49.58847 -2.9930327 24.479513 -2.9983172 24.33573 -5.5371575 -48.602959
3275762500 -5.5538645 -49.785095 -2.9698732 24.365231 -2.9784496 24.19684 -5.5674095 -48.798527
3296696875 -5.5801611 -49.960014 -2.9490366 24.211332 -2.9587028 24.071722 -5.5908842 -48.96595
3317631250 -5.6034226 -50.138676 -2.9315081 24.08634 -2.9394541 23.940235 -5.6149945 -49.149467
3338565625 -5.6269116 -50.311367 -2.9124525 23.958498 -2.921061 23.819963 -5.6379576 -49.306698
3359500000 -5.6493449 -50.482529 -2.8939579 23.843349 -2.9004633 23.698174 -5.6602006 -49.486679
3380434375 -5.6759939 -50.657906 -2.8724003 23.723835 -2.8827298 23.570086 -5.6899605 -49.662777
3401368750 -5.7030249 -50.81361 -2.8533087 23.574646 -2.8646479 23.454546 -5.7160645 -49.82671
3422303125 -5.7255549 -50.989212 -2.8381448 23.456373 -2.8458622 23.324324 -5.7407455 -50.017761
3443237500 -5.7496657 -51.176998 -2.8210597 23.353645 -2.8293371 23.20303 -5.7663007 -50.183712
3464171875 -5.7755427 -51.353695 -2.7994347 23.228142 -2.8109252 23.088491 -5.786406 -50.337711
3485106250 -5.8010898 -51.505749 -2.78141 23.094536 -2.7924526 22.971413 -5.8087597 -50.505466
3506040625 -5.8253179 -51.643337 -2.7658498 22.960152 -2.7739329 22.84454 -5.8345356 -50.677902
3526975000 -5.8473668 -51.805382 -2.7517474 22.8585 -2.7574258 22.720129 -5.8641024 -50.845139
3547909375 -5.8733497 -51.990658 -2.7319465 22.74951 -2.7422845 22.609177 -5.8911452 -50.997459
3568843750 -5.8975177 -52.15868 -2.7153978 22.618822 -2.7236631 22.496544 -5.909955 -51.165764
3589778125 -5.9194055 -52.340504 -2.6982782 22.525494 -2.7066932 22.369171 -5.9325504 -51.348801
3610712500 -5.9455462 -52.501118 -2.6774156 22.389322 -2.6911366 22.248831 -5.9574609 -51.489269
3631646875 -5.9685678 -52.631065 -2.6656375 22.253559 -2.6739383 22.138475 -5.97931 -51.629902
3652581250 -5.9898405 -52.786964 -2.6513286 22.153032 -2.6560802 22.01717 -6.0052614 -51.810707
3673515625 -6.0120296 -52.961182 -2.6349785 22.054356 -2.641768 21.890629 -6.0352473 -51.966228
3694450000 -6.0368896 -53.157513 -2.6146898 21.94272 -2.6266522 21.774893 -6.0590887 -52.117348
3715384375 -6.0626721 -53.323414 -2.5962594 21.799191 -2.6116641 21.661339 -6.0800304 -52.280239
3736318750 -6.0828824 -53.466465 -2.5847824 21.679426 -2.5953922 21.550898 -6.0983963 -52.432907
3757253125 -6.1032124 -53.619923 -2.5689862 21.583448 -2.5794406 21.427221 -6.122561 -52.607254
3778187500 -6.1283712 -53.757729 -2.5533888 21.453533 -2.5657058 21.309126 -6.1502447 -52.730347
3799121875 -6.1503682 -53.912766 -2.5405707 21.350967 -2.5504885 21.203741 -6.1726661 -52.876972
3820056250 -6.1766853 -54.087521 -2.5199859 21.242496 -2.5370181 21.086424 -6.2003417 -53.034405
3840990625 -6.1999564 -54.218876 -2.5088029 21.093906 -2.5215139 20.982656 -6.2196021 -53.171616
3861925000 -6.2182016 -54.38583 -2.4957964 21.005869 -2.5063207 20.862061 -6.2365994 -53.355587
3882859375 -6.2426648 -54.532928 -2.478539 20.892746 -2.4929786 20.746426 -6.2630739 -53.498596
3903793750 -6.2651401 -54.662167 -2.4649916 20.770617 -2.4783995 20.641376 -6.2849374 -53.613354
3924728125 -6.2888041 -54.786983 -2.4515665 20.641909 -2.4651604 20.522537 -6.3074837 -53.746712
3945662500 -6.3093939 -54.92683 -2.4418161 20.537683 -2.4506221 20.410145 -6.3303552 -53.906891
3966596875 -6.3312211 -55.112179 -2.4251754 20.450468 -2.4371552 20.297874 -6.3523827 -54.071495
3987531250 -6.3570614 -55.262627 -2.4085233 20.311575 -2.4245112 20.18668 -6.3746719 -54.22263
4008465625 -6.3773108 -55.386276 -2.4014618 20.19474 -2.4109898 20.085072 -6.3943014 -54.350948
4029400000 -6.3966947 -55.538692 -2.3886111 20.11101 -2.3972874 19.977608 -6.4138584 -54.484665
4050334375 -6.4211636 -55.670795 -2.3736761 19.999336 -2.3837173 19.868294 -6.4374142 -54.620972
4071268750 -6.4426818 -55.81179 -2.3614223 19.892727 -2.370399 19.759346 -6.4599061 -54.74855
4092203125 -6.4656634 -55.976948 -2.3468819 19.776108 -2.3580899 19.641764 -6.4815755 -54.910233
4113137500 -6.4856124 -56.124332 -2.3373737 19.665447 -2.3468258 19.536938 -6.5052752 -55.038364
4134071875 -6.5054917 -56.295074 -2.3240933 19.580912 -2.3337009 19.434113 -6.5231843 -55.171001
4155006250 -6.5256948 -56.430416 -2.3110311 19.472767 -2.3213029 19.327736 -6.5449724 -55.308998
4175940625 -6.5466871 -56.571461 -2.2973838 19.385855 -2.3096879 19.224779 -6.5659451 -55.405933
4196875000 -6.5725942 -56.702358 -2.2804601 19.246019 -2.2967901 19.113384 -6.5842357 -55.558292
4217809375 -6.591351 -56.815418 -2.2741358 19.131201 -2.2859902 19.006565 -6.609417 -55.689747
4238743750 -6.6109509 -56.986973 -2.2631092 19.054707 -2.2744458 18.903498 -6.6290817 -55.804848
