!Keysight Technologies,N5227A,US51270248,A.10.65.08
!Date: Tuesday, June 11, 2024 06:44:11
!Correction: S11(Full 2 Port(1,4)) 
!S41(Full 2 Port(1,4)) 
!S14(Full 2 Port(1,4)) 
!S44(Full 2 Port(1,4)) 
!S2P File: Measurements: S11, S41, S14, S44:
# Hz S  dB   R 50
10000000 -2.0721934 -0.26690662 -13.432306 0.8908658 -13.456366 0.86037165 -2.0699711 -0.2493064
30934375 -2.0718749 -0.7711271 -13.41184 2.2866044 -13.424719 2.2906122 -2.0707631 -0.73980927
51868750 -2.0767956 -1.2575208 -13.402222 3.7813139 -13.399894 3.7735915 -2.0779614 -1.2241849
72803125 -2.0826533 -1.6997684 -13.370324 5.3241849 -13.365578 5.2907009 -2.0854263 -1.6563398
93737500 -2.0854783 -2.1360528 -13.323445 6.8394914 -13.317055 6.8051481 -2.0902233 -2.0872855
114671875 -2.0887744 -2.5919175 -13.264514 8.2981243 -13.255388 8.246829 -2.0945053 -2.5365837
135606250 -2.0927057 -3.0692759 -13.198182 9.7006121 -13.189415 9.6392746 -2.0994639 -3.0025024
156540625 -2.0991116 -3.5453367 -13.127982 11.062633 -13.118518 10.992615 -2.1058102 -3.4671519
177475000 -2.1057394 -3.9996512 -13.049894 12.413612 -13.042727 12.340552 -2.1117299 -3.9153175
198409375 -2.1121581 -4.4422755 -12.961989 13.735115 -12.954265 13.656285 -2.1174247 -4.3474011
219343750 -2.1169848 -4.8913417 -12.865507 14.991917 -12.851972 14.907028 -2.1238706 -4.7940073
240278125 -2.1247373 -5.3541985 -12.765096 16.194864 -12.744784 16.099829 -2.1346238 -5.2495003
261212500 -2.1345594 -5.8156571 -12.660191 17.340956 -12.643142 17.257721 -2.1450634 -5.7028251
282146875 -2.1441803 -6.2686715 -12.552421 18.481283 -12.534019 18.37945 -2.1548042 -6.1546383
303081250 -2.1527557 -6.7154021 -12.438718 19.558838 -12.419642 19.460335 -2.1639793 -6.5997658
324015625 -2.1620455 -7.160903 -12.320189 20.600689 -12.302217 20.49638 -2.1723297 -7.0345082
344950000 -2.1716795 -7.6031022 -12.197861 21.593277 -12.179772 21.476377 -2.1816993 -7.4695616
365884375 -2.1825161 -8.0441313 -12.073737 22.531187 -12.056795 22.421724 -2.1922488 -7.9075203
386818750 -2.1953721 -8.4955587 -11.948526 23.427933 -11.932172 23.31513 -2.2047946 -8.3484535
407753125 -2.2077806 -8.9427977 -11.822313 24.285484 -11.804946 24.177748 -2.2177341 -8.7845364
428687500 -2.2204931 -9.3773994 -11.693353 25.112206 -11.674661 24.994345 -2.2293494 -9.2197161
449621875 -2.2303407 -9.8140554 -11.561283 25.88682 -11.542527 25.762323 -2.240814 -9.6590586
470556250 -2.242461 -10.256555 -11.430007 26.613626 -11.41031 26.490185 -2.2535794 -10.088105
491490625 -2.2564421 -10.691949 -11.297839 27.304533 -11.279217 27.182209 -2.2661653 -10.509604
512425000 -2.2695782 -11.117028 -11.165298 27.963724 -11.147457 27.841164 -2.280055 -10.931655
533359375 -2.2842259 -11.548167 -11.03162 28.58519 -11.014746 28.463884 -2.2952778 -11.357136
554293750 -2.2979198 -11.980122 -10.898852 29.162708 -10.881679 29.043703 -2.3105733 -11.787531
575228125 -2.3126886 -12.411166 -10.768949 29.714714 -10.749007 29.590525 -2.3250566 -12.2154
596162500 -2.3277745 -12.837638 -10.637589 30.226429 -10.618487 30.099388 -2.3395872 -12.635587
617096875 -2.3433805 -13.25968 -10.506979 30.711475 -10.488757 30.590881 -2.3547776 -13.054904
638031250 -2.3596697 -13.676441 -10.377455 31.172209 -10.359636 31.047878 -2.372046 -13.468655
658965625 -2.3753924 -14.09267 -10.247934 31.59774 -10.22994 31.472631 -2.3885109 -13.87776
679900000 -2.3924351 -14.516942 -10.120323 31.99342 -10.104436 31.864649 -2.4055796 -14.295043
700834375 -2.4109132 -14.929688 -9.9951887 32.365181 -9.9802446 32.245365 -2.4243875 -14.708186
721768750 -2.4293642 -15.339021 -9.871439 32.722347 -9.8541117 32.602871 -2.4427314 -15.118053
742703125 -2.4475291 -15.740293 -9.7468872 33.053261 -9.7292452 32.927639 -2.4598451 -15.512854
763637500 -2.4655128 -16.148376 -9.6237364 33.349766 -9.6070108 33.218388 -2.4765284 -15.915618
784571875 -2.4837565 -16.559593 -9.5019321 33.633408 -9.4877701 33.492668 -2.4950376 -16.315559
805506250 -2.5031021 -16.965904 -9.383544 33.892773 -9.3690844 33.775177 -2.5141561 -16.712244
826440625 -2.5233238 -17.366484 -9.266571 34.139679 -9.2495413 34.012722 -2.5345495 -17.108454
847375000 -2.5434735 -17.758183 -9.1492682 34.37344 -9.1336365 34.236523 -2.5554433 -17.501785
868309375 -2.5651889 -18.154947 -9.0341215 34.57885 -9.0203323 34.453335 -2.576901 -17.886415
889243750 -2.5844083 -18.543453 -8.9192839 34.771442 -8.9028721 34.635006 -2.595634 -18.268497
910178125 -2.6040266 -18.935888 -8.8049774 34.943348 -8.7910261 34.796478 -2.6149175 -18.661238
931112500 -2.6244979 -19.330626 -8.6931419 35.097538 -8.6810322 34.952324 -2.6359599 -19.038052
952046875 -2.6451867 -19.716595 -8.5832281 35.231716 -8.5712805 35.093445 -2.6559856 -19.417114
972981250 -2.6664774 -20.098637 -8.4769917 35.345818 -8.4630365 35.207836 -2.6779335 -19.801577
993915625 -2.6881826 -20.479994 -8.3717661 35.465752 -8.3573551 35.316765 -2.700707 -20.182178
1014850000 -2.710434 -20.862083 -8.2646694 35.552498 -8.2543163 35.40176 -2.7225575 -20.563713
1035784375 -2.7327979 -21.241415 -8.1652765 35.627335 -8.1533422 35.489853 -2.7451966 -20.939215
1056718750 -2.7540593 -21.616589 -8.063591 35.713276 -8.0510635 35.565418 -2.7662449 -21.307804
1077653125 -2.7753937 -21.988819 -7.9628139 35.769005 -7.9504485 35.617554 -2.7876496 -21.675171
1098587500 -2.7968621 -22.35762 -7.8648615 35.811974 -7.8527932 35.662872 -2.8102808 -22.030565
1119521875 -2.821162 -22.719725 -7.7683277 35.850555 -7.7571807 35.701271 -2.8333333 -22.393158
1140456250 -2.8447018 -23.076103 -7.6740279 35.871685 -7.6626492 35.731297 -2.8573701 -22.752726
1161390625 -2.8683984 -23.441902 -7.5814266 35.891201 -7.568985 35.749462 -2.8804443 -23.113113
1182325000 -2.8914361 -23.808796 -7.4893456 35.902481 -7.4769902 35.750221 -2.9026911 -23.47229
1203259375 -2.9145305 -24.16836 -7.3991399 35.900402 -7.3872929 35.744373 -2.9250188 -23.825447
1224193750 -2.9372356 -24.529495 -7.3091383 35.889839 -7.299088 35.73317 -2.9474664 -24.176128
1245128125 -2.9609969 -24.876867 -7.2233911 35.869659 -7.212749 35.7131 -2.9726613 -24.516861
1266062500 -2.9870169 -25.230333 -7.1385202 35.852055 -7.1284504 35.689342 -2.9978516 -24.862629
1286996875 -3.0137358 -25.570044 -7.0540423 35.812492 -7.0449705 35.659702 -3.0237098 -25.21312
1307931250 -3.0374706 -25.920218 -6.9715095 35.781178 -6.9620709 35.627586 -3.0486724 -25.561604
1328865625 -3.0616994 -26.277021 -6.8897486 35.742741 -6.8809876 35.581593 -3.0726893 -25.909
1349800000 -3.0856378 -26.624523 -6.8105102 35.689846 -6.8019557 35.525715 -3.0966845 -26.244743
1370734375 -3.1111069 -26.969603 -6.7318249 35.640865 -6.7249236 35.477699 -3.1219468 -26.571178
1391668750 -3.136806 -27.299107 -6.653646 35.58194 -6.6466451 35.428051 -3.1466513 -26.904932
1412603125 -3.1628549 -27.63291 -6.5779066 35.520733 -6.570375 35.360165 -3.1737702 -27.239195
1433537500 -3.189923 -27.969046 -6.5029316 35.448689 -6.4963312 35.290504 -3.1998031 -27.574768
1454471875 -3.2157269 -28.30356 -6.431551 35.369686 -6.4233088 35.213547 -3.2250643 -27.912819
1475406250 -3.2400577 -28.645641 -6.3596377 35.299877 -6.3534694 35.135933 -3.250803 -28.235292
1496340625 -3.2651238 -28.972757 -6.2876406 35.219929 -6.2820878 35.065689 -3.2747798 -28.550632
1517275000 -3.2904453 -29.289289 -6.2188826 35.133492 -6.212667 34.981758 -3.3005795 -28.861494
1538209375 -3.3167901 -29.607054 -6.1497965 35.058075 -6.1440048 34.89959 -3.3267 -29.176964
1559143750 -3.3436582 -29.923069 -6.0809431 34.956928 -6.0758691 34.804417 -3.3543386 -29.492447
1580078125 -3.3695748 -30.247837 -6.0169449 34.86055 -6.0097532 34.710278 -3.3808281 -29.808975
1601012500 -3.3959653 -30.569025 -5.9516206 34.765041 -5.9445877 34.609455 -3.4059541 -30.125534
1621946875 -3.4212906 -30.885387 -5.8887882 34.664921 -5.8813787 34.502769 -3.4329031 -30.43088
1642881250 -3.447654 -31.200974 -5.8242173 34.568291 -5.8190856 34.40992 -3.4585958 -30.726057
1663815625 -3.47471 -31.503736 -5.7611628 34.459862 -5.7570024 34.304111 -3.4854357 -31.022593
1684750000 -3.502589 -31.804834 -5.6998367 34.352066 -5.6962552 34.19669 -3.512198 -31.321985
1705684375 -3.5302711 -32.110195 -5.6407094 34.231834 -5.6367083 34.079762 -3.5403905 -31.626898
1726618750 -3.5570381 -32.422192 -5.5834537 34.126793 -5.5778518 33.97081 -3.5670178 -31.928642
1747553125 -3.5848234 -32.733189 -5.5254369 34.020527 -5.5210376 33.854538 -3.5940728 -32.225357
1768487500 -3.6129277 -33.02953 -5.467155 33.903873 -5.4647245 33.743149 -3.6212544 -32.512959
1789421875 -3.6394463 -33.321053 -5.4114242 33.784504 -5.4097843 33.633537 -3.6491048 -32.795063
1810356250 -3.6674635 -33.617329 -5.3556647 33.668434 -5.3543262 33.518974 -3.6758955 -33.079929
1831290625 -3.6953685 -33.9123 -5.3007803 33.554501 -5.2975521 33.397205 -3.7034655 -33.368008
1852225000 -3.7231514 -34.209431 -5.2472 33.435646 -5.244185 33.261189 -3.7317178 -33.653049
1873159375 -3.7511914 -34.502411 -5.1938491 33.301079 -5.1921825 33.14444 -3.7583148 -33.939274
1894093750 -3.7778687 -34.789242 -5.1444879 33.171654 -5.1405363 33.013199 -3.7866437 -34.219643
1915028125 -3.804951 -35.07613 -5.0924664 33.055649 -5.0920362 32.892509 -3.8148563 -34.4884
1935962500 -3.8315074 -35.352619 -5.042171 32.928154 -5.0402355 32.782604 -3.8407142 -34.76437
1956896875 -3.8587956 -35.639786 -4.990603 32.814507 -4.9883933 32.643326 -3.8682985 -35.044914
1977831250 -3.8873847 -35.910076 -4.9395571 32.661659 -4.9410858 32.505455 -3.8961589 -35.314823
1998765625 -3.9130392 -36.18531 -4.895287 32.522419 -4.8941026 32.371319 -3.9234104 -35.585384
2019700000 -3.9391057 -36.468185 -4.8492522 32.401829 -4.8476734 32.251503 -3.9510183 -35.844315
2040634375 -3.9666576 -36.740322 -4.8027053 32.27309 -4.8001966 32.120987 -3.977664 -36.107948
2061568750 -3.995152 -37.005348 -4.7563467 32.144215 -4.7555385 31.982962 -4.0065823 -36.373386
2082503125 -4.0232935 -37.27002 -4.7114105 32.005787 -4.7109179 31.850908 -4.0344491 -36.635117
2103437500 -4.0506067 -37.537926 -4.6667137 31.867041 -4.6666837 31.717493 -4.0618787 -36.889748
2124371875 -4.0788321 -37.80624 -4.6244097 31.735184 -4.6228857 31.588608 -4.0874677 -37.13987
2145306250 -4.1068993 -38.074482 -4.5811758 31.602947 -4.5804229 31.453442 -4.1142612 -37.395988
2166240625 -4.1335464 -38.328899 -4.539638 31.4715 -4.5387621 31.316944 -4.1428757 -37.646183
2187175000 -4.1626258 -38.591705 -4.4971895 31.344162 -4.4975581 31.179726 -4.171926 -37.889565
2208109375 -4.1917572 -38.849102 -4.4561572 31.204702 -4.4582958 31.049692 -4.2006025 -38.135731
2229043750 -4.2209458 -39.110783 -4.4148378 31.077427 -4.4177194 30.920708 -4.2279835 -38.388725
2249978125 -4.249651 -39.361259 -4.3750091 30.934559 -4.3770156 30.787863 -4.2549977 -38.642075
2270912500 -4.2769403 -39.622463 -4.335743 30.803604 -4.3374224 30.648726 -4.2822452 -38.88372
2291846875 -4.3049536 -39.870979 -4.2976646 30.662352 -4.2989111 30.50815 -4.3105049 -39.121277
2312781250 -4.3329043 -40.122055 -4.2608428 30.535116 -4.2624621 30.381218 -4.3395424 -39.351864
2333715625 -4.36129 -40.370071 -4.2204905 30.40844 -4.2241621 30.245819 -4.3684468 -39.601101
2354650000 -4.3902907 -40.615761 -4.1833653 30.264254 -4.187911 30.107939 -4.3976507 -39.839348
2375584375 -4.4180374 -40.862629 -4.1466999 30.125185 -4.1498008 29.975307 -4.4245734 -40.088882
2396518750 -4.4444609 -41.102135 -4.1118188 29.98871 -4.1154656 29.830608 -4.4527011 -40.314949
2417453125 -4.4714069 -41.33992 -4.0760741 29.852446 -4.0791125 29.713041 -4.4776654 -40.534424
2438387500 -4.4976602 -41.571804 -4.0411992 29.720247 -4.0425324 29.56904 -4.5057344 -40.761707
2459321875 -4.5258431 -41.802624 -4.005054 29.586214 -4.0089588 29.428047 -4.5347605 -40.97929
2480256250 -4.5532579 -42.03479 -3.9703872 29.448095 -3.9747756 29.293308 -4.5616221 -41.206486
2501190625 -4.5813699 -42.274467 -3.9355361 29.308311 -3.9414508 29.159014 -4.5883036 -41.433128
2522125000 -4.6088805 -42.493767 -3.9028423 29.155367 -3.9068699 29.021265 -4.61339 -41.657772
2543059375 -4.6343446 -42.722755 -3.8719182 29.027779 -3.874413 28.876036 -4.6401629 -41.879402
2563993750 -4.6623273 -42.950157 -3.8393197 28.895308 -3.8426728 28.748672 -4.6672106 -42.079777
2584928125 -4.6901126 -43.169331 -3.8072801 28.757818 -3.8110425 28.607718 -4.6946039 -42.289143
2605862500 -4.7189612 -43.38229 -3.775367 28.620739 -3.7801161 28.473387 -4.72366 -42.503792
2626796875 -4.7467113 -43.605621 -3.7439246 28.483707 -3.7488105 28.337383 -4.7504377 -42.719059
2647731250 -4.7751722 -43.833599 -3.7119629 28.342522 -3.7182341 28.202917 -4.7760711 -42.947296
2668665625 -4.8021708 -44.044991 -3.68349 28.195717 -3.6866817 28.060215 -4.8021603 -43.170418
2689600000 -4.8275485 -44.257572 -3.6556659 28.06197 -3.6587002 27.9161 -4.8295846 -43.369156
2710534375 -4.8527765 -44.477196 -3.6283062 27.941767 -3.6304362 27.789066 -4.8574538 -43.56826
2731468750 -4.8813753 -44.705097 -3.5955136 27.818806 -3.6010435 27.66148 -4.8848252 -43.773514
2752403125 -4.9102712 -44.908466 -3.564316 27.661699 -3.5720112 27.521927 -4.9117651 -43.995533
2773337500 -4.9355755 -45.114044 -3.5388412 27.517807 -3.5443015 27.37332 -4.9400926 -44.211208
2794271875 -4.9617314 -45.338783 -3.5123434 27.385975 -3.516686 27.235691 -4.9659042 -44.412731
2815206250 -4.9873114 -45.553341 -3.4845502 27.252193 -3.4889171 27.105988 -4.990169 -44.621456
2836140625 -5.0136151 -45.752323 -3.4585066 27.121155 -3.4624026 26.968351 -5.0179667 -44.825169
2857075000 -5.0390973 -45.957634 -3.4313059 26.995481 -3.436363 26.836811 -5.0454984 -45.011326
2878009375 -5.0669055 -46.165512 -3.401639 26.85384 -3.4103131 26.700649 -5.073359 -45.217289
2898943750 -5.0941482 -46.358559 -3.376894 26.701653 -3.3850465 26.564026 -5.0988264 -45.411587
2919878125 -5.119328 -46.560375 -3.3532965 26.567461 -3.3587866 26.427252 -5.1228256 -45.621437
2940812500 -5.1439991 -46.761127 -3.3292956 26.444315 -3.3332789 26.287354 -5.1500902 -45.822544
2961746875 -5.1698313 -46.963398 -3.3030164 26.309134 -3.3091209 26.156752 -5.1752753 -46.003483
2982681250 -5.1955733 -47.149818 -3.2800047 26.172846 -3.285671 26.024334 -5.2025409 -46.192497
3003615625 -5.2232451 -47.343422 -3.2545519 26.042671 -3.2623844 25.903545 -5.2285008 -46.365715
3024550000 -5.2489901 -47.520638 -3.231483 25.897533 -3.2364705 25.763176 -5.2529607 -46.575619
3045484375 -5.2725701 -47.724533 -3.2086899 25.779902 -3.2140365 25.622099 -5.2803888 -46.771793
3066418750 -5.3005233 -47.927223 -3.1844606 25.650854 -3.1911314 25.490705 -5.3044324 -46.951965
3087353125 -5.3268695 -48.112133 -3.1608198 25.509327 -3.1684186 25.363762 -5.3293977 -47.13792
3108287500 -5.3520842 -48.282066 -3.1415796 25.36932 -3.1466177 25.237803 -5.3567023 -47.321129
3129221875 -5.3752236 -48.473843 -3.1212389 25.255039 -3.1245646 25.10849 -5.384078 -47.509087
3150156250 -5.4014459 -48.679596 -3.0975857 25.143181 -3.1025591 24.975742 -5.4095449 -47.690849
3171090625 -5.4295011 -48.871929 -3.0728068 25.007883 -3.0810061 24.845617 -5.4342966 -47.885014
3192025000 -5.4549599 -49.043106 -3.0523386 24.852747 -3.0596888 24.708052 -5.4594693 -48.073788
3212959375 -5.4775982 -49.223007 -3.0340962 24.733688 -3.0397689 24.581551 -5.4865923 -48.251965
3233893750 -5.5024323 -49.407608 -3.0130744 24.613688 -3.0195081 24.463472 -5.5118747 -48.412899
3254828125 -5.526145 -49.5914 -2.9929593 24.496424 -2.9978838 24.34211 -5.5361834 -48.602718
3275762500 -5.5518608 -49.786484 -2.9695473 24.377756 -2.9782193 24.20252 -5.565321 -48.795292
3296696875 -5.5784564 -49.962288 -2.9485469 24.225401 -2.9588189 24.075914 -5.5898461 -48.962997
3317631250 -5.6016498 -50.137047 -2.9310873 24.101725 -2.9393609 23.947805 -5.6143188 -49.149662
3338565625 -5.6256709 -50.311764 -2.9120896 23.974228 -2.9215372 23.824165 -5.6379881 -49.298817
3359500000 -5.6484318 -50.485676 -2.8931556 23.858877 -2.90008 23.703066 -5.6599598 -49.482506
3380434375 -5.6748447 -50.661514 -2.8715088 23.739511 -2.882411 23.572607 -5.6892443 -49.659584
3401368750 -5.700954 -50.820866 -2.8527017 23.58939 -2.8645549 23.457705 -5.7143149 -49.826134
3422303125 -5.7233114 -50.989975 -2.8382158 23.470207 -2.8463533 23.322235 -5.7401977 -50.01144
3443237500 -5.7472849 -51.184387 -2.8202713 23.370449 -2.8292656 23.206326 -5.7658763 -50.178547
3464171875 -5.7743492 -51.361015 -2.7982559 23.244064 -2.8113706 23.090942 -5.7866855 -50.329494
3485106250 -5.7996511 -51.508942 -2.7804532 23.105913 -2.792619 22.970436 -5.808989 -50.497551
3506040625 -5.8232517 -51.64854 -2.765645 22.97299 -2.7749765 22.843113 -5.83464 -50.662064
3526975000 -5.8447495 -51.813755 -2.7516048 22.873142 -2.7584321 22.718781 -5.8636651 -50.833084
3547909375 -5.8704228 -51.998436 -2.7311299 22.767015 -2.7430422 22.608599 -5.8913026 -50.981491
3568843750 -5.8948622 -52.162926 -2.7153504 22.632475 -2.7250421 22.495855 -5.9101329 -51.148781
3589778125 -5.9170375 -52.343868 -2.6981325 22.540222 -2.707057 22.367687 -5.9325414 -51.336399
3610712500 -5.9439702 -52.502747 -2.6772182 22.404888 -2.6916306 22.2479 -5.9573088 -51.477779
3631646875 -5.9662499 -52.633545 -2.6649404 22.267475 -2.6740108 22.138742 -5.9796782 -51.626293
3652581250 -5.986526 -52.791328 -2.6504536 22.169214 -2.6571205 22.01581 -6.0053329 -51.801407
3673515625 -6.0087953 -52.965153 -2.6339753 22.071999 -2.642025 21.891726 -6.0345526 -51.958752
3694450000 -6.0338945 -53.161663 -2.6134763 21.960617 -2.6272426 21.775845 -6.0588284 -52.106197
3715384375 -6.0607052 -53.323269 -2.5956025 21.814878 -2.6122506 21.663679 -6.0799136 -52.268318
3736318750 -6.0807128 -53.463875 -2.584481 21.695763 -2.5957274 21.551659 -6.0985703 -52.420959
3757253125 -6.1012955 -53.623188 -2.5680749 21.60078 -2.5793302 21.427259 -6.1225915 -52.60247
3778187500 -6.1265273 -53.756664 -2.552716 21.467478 -2.5658851 21.312689 -6.1505656 -52.727657
3799121875 -6.1474757 -53.914848 -2.5397925 21.365515 -2.5507262 21.205841 -6.1732578 -52.871571
3820056250 -6.174561 -54.090038 -2.5194657 21.255064 -2.5376368 21.089165 -6.200356 -53.025539
3840990625 -6.19732 -54.220539 -2.5078428 21.110441 -2.5221858 20.984171 -6.2194605 -53.159706
3861925000 -6.2160306 -54.387711 -2.4946344 21.020363 -2.5061557 20.866617 -6.2377052 -53.34914
3882859375 -6.2409678 -54.532906 -2.4781716 20.904547 -2.4934244 20.745647 -6.2641387 -53.48558
3903793750 -6.2628603 -54.661964 -2.4646046 20.783709 -2.4787686 20.639799 -6.2854366 -53.605335
3924728125 -6.2866483 -54.789864 -2.4510963 20.656008 -2.4659584 20.519995 -6.3078313 -53.736259
3945662500 -6.3062892 -54.929825 -2.4414148 20.555214 -2.4509623 20.412752 -6.3305459 -53.899933
3966596875 -6.3284807 -55.113258 -2.4247949 20.46571 -2.4383357 20.298723 -6.3529935 -54.056103
3987531250 -6.3551054 -55.260845 -2.4083943 20.326979 -2.4254239 20.187431 -6.3753643 -54.203671
4008465625 -6.3748102 -55.384945 -2.4011121 20.209406 -2.4115686 20.084629 -6.3950191 -54.339535
4029400000 -6.3935266 -55.540588 -2.3880394 20.125355 -2.3985443 19.976192 -6.414268 -54.469627
4050334375 -6.417449 -55.675297 -2.3733552 20.012951 -2.3840568 19.868916 -6.4370337 -54.615421
4071268750 -6.4387221 -55.819031 -2.3609102 19.909773 -2.3719828 19.755495 -6.4591913 -54.730076
4092203125 -6.462357 -55.975872 -2.346545 19.791647 -2.358515 19.644701 -6.4807873 -54.899445
4113137500 -6.4821472 -56.121132 -2.3372691 19.684278 -2.347692 19.538795 -6.5053682 -55.030407
4134071875 -6.5025139 -56.291611 -2.3239224 19.597496 -2.3345864 19.435591 -6.5239844 -55.165058
4155006250 -6.522408 -56.430389 -2.3105028 19.490252 -2.3226402 19.327442 -6.5458393 -55.303474
4175940625 -6.5437059 -56.576481 -2.2969346 19.400784 -2.3104408 19.227278 -6.5662861 -55.400536
4196875000 -6.5702472 -56.702122 -2.2803879 19.261801 -2.2973251 19.115173 -6.5841608 -55.553806
4217809375 -6.5888233 -56.815426 -2.273886 19.148615 -2.2864919 19.008404 -6.6094842 -55.683071
4238743750 -6.6079512 -56.98209 -2.2627883 19.073315 -2.274894 18.906464 -6.6294723 -55.797504
