!Keysight Technologies,N5227A,US51270248,A.10.65.08
!Date: Tuesday, June 11, 2024 06:50:40
!Correction: S11(Full 2 Port(1,4)) 
!S41(Full 2 Port(1,4)) 
!S14(Full 2 Port(1,4)) 
!S44(Full 2 Port(1,4)) 
!S2P File: Measurements: S11, S41, S14, S44:
# Hz S  dB   R 50
10000000 -2.0734701 -0.23986875 -13.439536 0.79671192 -13.462659 0.80973107 -2.0747223 -0.2259957
30934375 -2.0739808 -0.75097173 -13.419847 2.30287 -13.431529 2.3155119 -2.0753224 -0.71344501
51868750 -2.0763664 -1.2191036 -13.405437 3.8397007 -13.401018 3.8347132 -2.0796058 -1.1715486
72803125 -2.0792868 -1.6792643 -13.370129 5.3534722 -13.362194 5.3193302 -2.082927 -1.6304836
93737500 -2.0828242 -2.1310709 -13.32428 6.8447819 -13.314994 6.8041215 -2.0884762 -2.0818164
114671875 -2.0872352 -2.5910842 -13.267425 8.2988033 -13.257065 8.2407084 -2.0940223 -2.5333581
135606250 -2.0924385 -3.0636902 -13.201414 9.7110786 -13.191349 9.645092 -2.0999937 -2.9919181
156540625 -2.098511 -3.5375531 -13.128949 11.078522 -13.119631 11.006595 -2.1050792 -3.4536073
177475000 -2.1040354 -3.9951396 -13.049585 12.420875 -13.042965 12.350778 -2.1101573 -3.9053297
198409375 -2.1099515 -4.4409523 -12.96236 13.738577 -12.954677 13.655993 -2.1159494 -4.3444705
219343750 -2.1157634 -4.8915725 -12.867272 14.993573 -12.853714 14.906919 -2.1234581 -4.7902293
240278125 -2.1239595 -5.3529925 -12.76783 16.200924 -12.746893 16.103546 -2.13428 -5.2428303
261212500 -2.1338077 -5.8116865 -12.662114 17.353573 -12.644274 17.266426 -2.1445391 -5.6950297
282146875 -2.142827 -6.2669559 -12.553859 18.485762 -12.534141 18.391563 -2.1534874 -6.1466584
303081250 -2.1514914 -6.7150288 -12.439788 19.568474 -12.419148 19.457775 -2.1631594 -6.5954318
324015625 -2.1613429 -7.1625872 -12.321314 20.602097 -12.303625 20.495697 -2.1721213 -7.031426
344950000 -2.1711497 -7.6011682 -12.2005 21.596748 -12.181597 21.480808 -2.1814158 -7.465117
365884375 -2.1817007 -8.0417747 -12.07668 22.538235 -12.057794 22.427723 -2.1919308 -7.899148
386818750 -2.1939707 -8.492981 -11.95015 23.440075 -11.93275 23.319971 -2.2043285 -8.3410482
407753125 -2.2071824 -8.9417648 -11.823637 24.287979 -11.805394 24.17894 -2.2172616 -8.7803717
428687500 -2.2200398 -9.3790216 -11.695719 25.111971 -11.675273 24.994785 -2.2285473 -9.2173166
449621875 -2.2298138 -9.8141241 -11.563595 25.889357 -11.543618 25.766087 -2.2398264 -9.6562338
470556250 -2.2417722 -10.255075 -11.431414 26.619539 -11.411527 26.494171 -2.253046 -10.083138
491490625 -2.2556286 -10.690157 -11.298608 27.308327 -11.28008 27.189716 -2.265501 -10.50438
512425000 -2.2689846 -11.116808 -11.167238 27.967264 -11.147799 27.850424 -2.2793202 -10.924622
533359375 -2.2829328 -11.54968 -11.032583 28.586771 -11.01542 28.466394 -2.2946713 -11.353992
554293750 -2.2975464 -11.981506 -10.900717 29.164068 -10.883143 29.051943 -2.3099992 -11.784888
575228125 -2.3120275 -12.410991 -10.771189 29.717888 -10.750194 29.594427 -2.3245335 -12.211916
596162500 -2.3267884 -12.837152 -10.638493 30.236551 -10.619891 30.106073 -2.3392651 -12.631943
617096875 -2.3429105 -13.258893 -10.507276 30.713404 -10.490095 30.593927 -2.3542516 -13.051132
638031250 -2.3584974 -13.676456 -10.378482 31.169842 -10.361026 31.048323 -2.3709934 -13.46497
658965625 -2.3747888 -14.093358 -10.249054 31.59663 -10.230921 31.473475 -2.3880594 -13.874524
679900000 -2.391748 -14.518262 -10.121893 31.995413 -10.105238 31.865627 -2.4053464 -14.290493
700834375 -2.4101336 -14.927792 -9.9961271 32.368935 -9.9813061 32.247242 -2.4239578 -14.703547
721768750 -2.4287293 -15.340115 -9.8721657 32.721512 -9.8541222 32.603298 -2.4421303 -15.113184
742703125 -2.4468639 -15.739343 -9.7479467 33.052891 -9.7295465 32.922371 -2.4597721 -15.50938
763637500 -2.4645736 -16.148359 -9.6253319 33.349354 -9.6074953 33.215313 -2.4762659 -15.911073
784571875 -2.4830887 -16.558775 -9.5028429 33.635685 -9.4887886 33.497459 -2.4950194 -16.310413
805506250 -2.5027413 -16.964216 -9.3849058 33.895035 -9.3695793 33.771385 -2.5141323 -16.707911
826440625 -2.5229259 -17.364428 -9.2677126 34.140041 -9.2502089 34.006824 -2.5340216 -17.106073
847375000 -2.5430784 -17.758724 -9.1506977 34.373936 -9.1337633 34.231495 -2.5552559 -17.498987
868309375 -2.5650647 -18.153868 -9.035408 34.577377 -9.0205479 34.448811 -2.5767539 -17.883965
889243750 -2.5847254 -18.541656 -8.9204264 34.7672 -8.9040022 34.634953 -2.595376 -18.264868
910178125 -2.604357 -18.937204 -8.80655 34.943466 -8.7918386 34.797363 -2.6147938 -18.656181
931112500 -2.624506 -19.329832 -8.6942797 35.094799 -8.6818714 34.948586 -2.6356182 -19.036415
952046875 -2.6450558 -19.715338 -8.5844746 35.228539 -8.5720568 35.092117 -2.6559243 -19.414368
972981250 -2.6663938 -20.095932 -8.4784098 35.345955 -8.4637213 35.205791 -2.6778069 -19.796978
993915625 -2.687607 -20.475994 -8.3724966 35.466347 -8.357811 35.312664 -2.7005427 -20.176805
1014850000 -2.7102656 -20.858524 -8.2658634 35.547047 -8.2547274 35.401497 -2.7221336 -20.558661
1035784375 -2.7328558 -21.239347 -8.1663094 35.620617 -8.15376 35.486393 -2.7447937 -20.934715
1056718750 -2.7541027 -21.614468 -8.0645456 35.706669 -8.0516272 35.563042 -2.7663047 -21.305279
1077653125 -2.7750969 -21.985983 -7.9635305 35.761681 -7.9515142 35.610558 -2.787755 -21.67169
1098587500 -2.7972786 -22.354553 -7.8663759 35.804771 -7.853632 35.658222 -2.8098655 -22.026953
1119521875 -2.8211858 -22.716181 -7.769609 35.840546 -7.7577972 35.694767 -2.8331234 -22.389374
1140456250 -2.8450627 -23.071032 -7.6752701 35.866459 -7.663547 35.727631 -2.8573344 -22.74769
1161390625 -2.8687503 -23.436348 -7.5827937 35.881721 -7.5700612 35.744228 -2.8800514 -23.109221
1182325000 -2.8919444 -23.804882 -7.4904404 35.891048 -7.4780688 35.743858 -2.9029155 -23.468451
1203259375 -2.9149256 -24.166529 -7.4001288 35.889702 -7.388237 35.738514 -2.9249363 -23.822239
1224193750 -2.9378347 -24.524626 -7.3102994 35.877983 -7.299808 35.730408 -2.94717 -24.171549
1245128125 -2.9613562 -24.872021 -7.2240171 35.859585 -7.2134342 35.712776 -2.9724066 -24.510298
1266062500 -2.9872015 -25.224543 -7.139215 35.843765 -7.1283646 35.687977 -2.9974344 -24.858406
1286996875 -3.0136149 -25.567278 -7.0552058 35.806736 -7.0445867 35.659424 -3.022851 -25.209869
1307931250 -3.0382786 -25.916565 -6.9732423 35.773411 -6.9624467 35.623371 -3.0478878 -25.558743
1328865625 -3.0624955 -26.275055 -6.8910975 35.733223 -6.8813615 35.580578 -3.0725222 -25.904955
1349800000 -3.0867622 -26.620413 -6.8119082 35.681339 -6.8023105 35.526104 -3.0962889 -26.241089
1370734375 -3.1113069 -26.965591 -6.7325649 35.635616 -6.7251639 35.472572 -3.1213284 -26.567579
1391668750 -3.137295 -27.293936 -6.6547265 35.572487 -6.647377 35.422039 -3.146379 -26.900263
1412603125 -3.1634812 -27.62788 -6.5792899 35.512115 -6.5712495 35.353561 -3.1733792 -27.236948
1433537500 -3.1907213 -27.964144 -6.5045118 35.440269 -6.4971256 35.288387 -3.1995487 -27.570709
1454471875 -3.2160215 -28.300596 -6.4322162 35.359673 -6.4243259 35.210426 -3.224833 -27.908104
1475406250 -3.240732 -28.638592 -6.3605843 35.291309 -6.3536477 35.134087 -3.2503476 -28.233475
1496340625 -3.2658741 -28.967676 -6.288866 35.211899 -6.2823143 35.063625 -3.2742383 -28.547121
1517275000 -3.2908566 -29.283894 -6.2200775 35.126545 -6.2125392 34.979279 -3.3002059 -28.856478
1538209375 -3.3172381 -29.599775 -6.1508632 35.04847 -6.1442518 34.895157 -3.3265443 -29.170954
1559143750 -3.3445375 -29.918514 -6.0817871 34.947121 -6.0763388 34.799259 -3.3543253 -29.486843
1580078125 -3.3701754 -30.241434 -6.0178289 34.852058 -6.0101962 34.706306 -3.3806517 -29.801495
1601012500 -3.3969345 -30.563341 -5.953177 34.755596 -5.9453187 34.603329 -3.4059644 -30.121056
1621946875 -3.4222479 -30.876802 -5.890451 34.653103 -5.8820844 34.497047 -3.4324589 -30.426929
1642881250 -3.4484968 -31.192398 -5.8261828 34.558685 -5.8199124 34.402885 -3.4582927 -30.722013
1663815625 -3.4756284 -31.495451 -5.7633371 34.450558 -5.7573743 34.300278 -3.4853754 -31.018108
1684750000 -3.5037615 -31.796549 -5.7019124 34.341881 -5.6966462 34.191006 -3.512676 -31.317432
1705684375 -3.5309114 -32.099941 -5.6423373 34.220119 -5.6366253 34.079758 -3.540046 -31.622656
1726618750 -3.557838 -32.412231 -5.5854015 34.113594 -5.5786586 33.962811 -3.5672696 -31.923464
1747553125 -3.5857143 -32.726406 -5.5269237 34.012787 -5.5217991 33.846924 -3.5942156 -32.221539
1768487500 -3.6141384 -33.021767 -5.4686484 33.891899 -5.4652209 33.737625 -3.6210611 -32.50951
1789421875 -3.640913 -33.312546 -5.4134455 33.774055 -5.4100718 33.62645 -3.6485915 -32.786617
1810356250 -3.6690123 -33.606926 -5.3575749 33.656898 -5.3542871 33.512104 -3.6759689 -33.074715
1831290625 -3.696265 -33.902622 -5.3024583 33.542828 -5.2982311 33.389072 -3.7036684 -33.364101
1852225000 -3.7241461 -34.198757 -5.2488942 33.42548 -5.2450514 33.258446 -3.731672 -33.650719
1873159375 -3.7521498 -34.491772 -5.1953831 33.28783 -5.1931443 33.139107 -3.7584362 -33.935005
1894093750 -3.7788899 -34.778545 -5.1461778 33.158913 -5.1414156 33.007915 -3.7864051 -34.216133
1915028125 -3.8064437 -35.064026 -5.0945201 33.042728 -5.092875 32.887856 -3.815022 -34.483711
1935962500 -3.8327157 -35.341419 -5.0443997 32.91621 -5.0407209 32.77747 -3.8412726 -34.757858
1956896875 -3.8603995 -35.623592 -4.9930105 32.798233 -4.9890246 32.636898 -3.8689239 -35.03767
1977831250 -3.8887291 -35.897751 -4.9417877 32.648247 -4.9413791 32.501358 -3.8965359 -35.308167
1998765625 -3.9144573 -36.170639 -4.89785 32.507912 -4.8939805 32.367474 -3.923383 -35.582008
2019700000 -3.940593 -36.452309 -4.8515849 32.386799 -4.8475881 32.246964 -3.9503756 -35.83662
2040634375 -3.9682171 -36.724167 -4.8051772 32.258575 -4.8002238 32.115356 -3.9776073 -36.101868
2061568750 -3.9965801 -36.990608 -4.7587905 32.130638 -4.7548661 31.979427 -4.0055652 -36.367424
2082503125 -4.0250592 -37.253525 -4.7138853 31.99345 -4.7108574 31.846632 -4.0339308 -36.628448
2103437500 -4.0529218 -37.523586 -4.6691885 31.854736 -4.6666894 31.712498 -4.0616984 -36.885288
2124371875 -4.0803227 -37.7925 -4.6267529 31.722275 -4.6235375 31.581821 -4.0873394 -37.136112
2145306250 -4.1086402 -38.058762 -4.5836954 31.590588 -4.5808725 31.448469 -4.1142473 -37.391388
2166240625 -4.1351833 -38.314442 -4.5421481 31.457809 -4.5391889 31.31377 -4.1430144 -37.63821
2187175000 -4.164639 -38.577019 -4.4994397 31.329794 -4.4981561 31.177649 -4.172143 -37.882938
2208109375 -4.1941762 -38.834816 -4.4586792 31.190777 -4.4589038 31.042706 -4.2011189 -38.127186
2229043750 -4.2231507 -39.095409 -4.4175167 31.067396 -4.4180117 30.911695 -4.2281094 -38.383179
2249978125 -4.2515464 -39.349106 -4.3772659 30.925472 -4.3774729 30.778769 -4.2551417 -38.636219
2270912500 -4.2787642 -39.608337 -4.3385849 30.789602 -4.3381414 30.641138 -4.2822499 -38.876667
2291846875 -4.3071356 -39.858719 -4.3006272 30.645775 -4.3000469 30.502127 -4.3110628 -39.113613
2312781250 -4.3348064 -40.108318 -4.2638364 30.522211 -4.2626438 30.377851 -4.3401675 -39.346535
2333715625 -4.3636847 -40.356468 -4.2237196 30.396616 -4.2245998 30.243723 -4.3693805 -39.592907
2354650000 -4.3924375 -40.601364 -4.1856856 30.248381 -4.1880579 30.10393 -4.3981919 -39.834713
2375584375 -4.4196887 -40.84779 -4.1493397 30.10854 -4.1500931 29.967169 -4.4248962 -40.082455
2396518750 -4.446322 -41.089539 -4.1144366 29.974764 -4.1155195 29.829273 -4.4521108 -40.312073
2417453125 -4.4738464 -41.324337 -4.0790677 29.837503 -4.0796652 29.705145 -4.4776545 -40.527599
2438387500 -4.5001144 -41.556423 -4.0441446 29.702499 -4.0428791 29.564798 -4.5052519 -40.755978
2459321875 -4.5282669 -41.785557 -4.0076842 29.572708 -4.0095019 29.425976 -4.5346451 -40.971706
2480256250 -4.5553007 -42.019398 -3.9732671 29.433243 -3.9749928 29.290037 -4.5617671 -41.19743
2501190625 -4.5832133 -42.257881 -3.9377956 29.296354 -3.9416807 29.153137 -4.5884299 -41.426044
2522125000 -4.610765 -42.478676 -3.9055083 29.138592 -3.9070721 29.016132 -4.6134081 -41.651264
2543059375 -4.6364603 -42.704754 -3.8750961 29.010761 -3.8743188 28.871695 -4.6399412 -41.870251
2563993750 -4.6639223 -42.932678 -3.8421118 28.8797 -3.8436766 28.743082 -4.6671629 -42.069817
2584928125 -4.6920061 -43.153358 -3.8101556 28.746439 -3.8113337 28.605202 -4.6943879 -42.282959
2605862500 -4.7206612 -43.363003 -3.7780447 28.606503 -3.7810552 28.465961 -4.723804 -42.495083
2626796875 -4.748764 -43.583656 -3.7468486 28.469831 -3.7492411 28.333834 -4.7503924 -42.713184
2647731250 -4.7768006 -43.814846 -3.7146063 28.328754 -3.7186651 28.195852 -4.7759447 -42.941914
2668665625 -4.8040485 -44.025906 -3.6862879 28.18096 -3.6874857 28.054426 -4.8026252 -43.162933
2689600000 -4.8298192 -44.240288 -3.6589668 28.046247 -3.6592221 27.910833 -4.8300447 -43.359917
2710534375 -4.855341 -44.457775 -3.6311135 27.927799 -3.6314495 27.786051 -4.8579922 -43.554626
2731468750 -4.8838468 -44.687344 -3.5987198 27.804249 -3.6011231 27.655989 -4.8846636 -43.76479
2752403125 -4.9128499 -44.891655 -3.5674932 27.646929 -3.5728676 27.513571 -4.9119401 -43.983479
2773337500 -4.9379902 -45.097252 -3.5416787 27.504576 -3.5449307 27.36746 -4.940248 -44.207005
2794271875 -4.964056 -45.316605 -3.5147989 27.370033 -3.5174112 27.23221 -4.9662437 -44.406559
2815206250 -4.9896402 -45.536072 -3.487 27.238775 -3.4893157 27.100233 -4.9903064 -44.61166
2836140625 -5.0159321 -45.732994 -3.4610684 27.106028 -3.4629653 26.960651 -5.0180764 -44.816082
2857075000 -5.0412359 -45.936993 -3.4340119 26.982946 -3.4369888 26.831526 -5.0462933 -45.003475
2878009375 -5.0688224 -46.146122 -3.4044294 26.836348 -3.4106855 26.694651 -5.074007 -45.209263
2898943750 -5.095665 -46.341324 -3.3792853 26.688129 -3.3856068 26.555796 -5.0993447 -45.400887
2919878125 -5.1207809 -46.541607 -3.3556142 26.553736 -3.3594668 26.421091 -5.1232343 -45.615921
2940812500 -5.1458559 -46.741341 -3.3320487 26.428715 -3.3342078 26.280867 -5.1500502 -45.814163
2961746875 -5.1722498 -46.944435 -3.3059847 26.291992 -3.3099153 26.151274 -5.1757417 -45.993225
2982681250 -5.1978745 -47.129238 -3.283159 26.160385 -3.2863138 26.018435 -5.2031636 -46.177818
3003615625 -5.2259245 -47.323311 -3.257194 26.030367 -3.2626274 25.897581 -5.22925 -46.356556
3024550000 -5.2520213 -47.50148 -3.2346809 25.880714 -3.2378013 25.75458 -5.2537909 -46.566395
3045484375 -5.2754102 -47.702377 -3.2119787 25.762428 -3.2149012 25.613955 -5.2808104 -46.763401
3066418750 -5.3031254 -47.904781 -3.1872759 25.635756 -3.1922369 25.485432 -5.3053732 -46.940884
3087353125 -5.3298211 -48.088402 -3.1637933 25.494854 -3.1695044 25.357473 -5.3299184 -47.123352
3108287500 -5.3551879 -48.25687 -3.1441622 25.352497 -3.1472855 25.232277 -5.3571415 -47.311134
3129221875 -5.3787642 -48.450809 -3.1242237 25.237501 -3.1259556 25.101179 -5.3846774 -47.49802
3150156250 -5.4046059 -48.655857 -3.1005459 25.128212 -3.1038115 24.968342 -5.4109344 -47.683884
3171090625 -5.4321451 -48.85096 -3.0747201 24.993584 -3.0822668 24.837101 -5.4352388 -47.873688
3192025000 -5.4575691 -49.0233 -3.0543921 24.837887 -3.0608513 24.701527 -5.4601884 -48.062447
3212959375 -5.4806104 -49.199337 -3.0365088 24.719486 -3.040796 24.57284 -5.4868646 -48.23843
3233893750 -5.5047617 -49.387012 -3.0153577 24.599051 -3.0210395 24.453863 -5.5128899 -48.400082
3254828125 -5.5292778 -49.567776 -2.9958818 24.481071 -2.9992468 24.331135 -5.5376353 -48.588818
3275762500 -5.5553684 -49.762264 -2.9728677 24.365225 -2.9796476 24.196171 -5.5663376 -48.782284
3296696875 -5.5811272 -49.936771 -2.9515083 24.21043 -2.9600356 24.07019 -5.5906119 -48.950211
3317631250 -5.6046066 -50.115204 -2.9341505 24.088421 -2.9403446 23.938065 -5.6149144 -49.137527
3338565625 -5.628345 -50.283466 -2.9155927 23.958473 -2.9222243 23.815744 -5.6385179 -49.292542
3359500000 -5.6509585 -50.455921 -2.8968961 23.844133 -2.900954 23.693752 -5.6604776 -49.469879
3380434375 -5.6772637 -50.633953 -2.8751929 23.724884 -2.8833904 23.56484 -5.6897097 -49.646969
3401368750 -5.703763 -50.792477 -2.8562078 23.574135 -2.865432 23.451286 -5.7149906 -49.812187
3422303125 -5.7264643 -50.965508 -2.8412938 23.454699 -2.8471324 23.319052 -5.7405672 -50.003277
3443237500 -5.7506442 -51.152248 -2.8237305 23.355156 -2.8303316 23.200872 -5.766223 -50.167122
3464171875 -5.776557 -51.327183 -2.8018346 23.229267 -2.8117595 23.085224 -5.7868099 -50.320103
3485106250 -5.8023057 -51.480751 -2.7838559 23.096376 -2.793009 22.965261 -5.8094888 -50.488857
3506040625 -5.8263211 -51.621372 -2.7687116 22.960222 -2.7747984 22.837873 -5.8350201 -50.660393
3526975000 -5.8481998 -51.782703 -2.7549598 22.858471 -2.7594192 22.714224 -5.8643565 -50.825279
3547909375 -5.8738976 -51.97036 -2.734756 22.752457 -2.7434988 22.605671 -5.8916249 -50.978004
3568843750 -5.8985562 -52.134338 -2.7183332 22.618155 -2.7250433 22.490192 -5.9106932 -51.146358
3589778125 -5.9204707 -52.312305 -2.7014441 22.52636 -2.7079942 22.36133 -5.9329648 -51.327614
3610712500 -5.9468389 -52.468933 -2.6808372 22.39052 -2.69241 22.245279 -5.9576344 -51.47205
3631646875 -5.9695687 -52.604076 -2.6678798 22.253424 -2.6751511 22.131544 -5.9802861 -51.613255
3652581250 -5.9906707 -52.761494 -2.6540115 22.152346 -2.6576226 22.008919 -6.0055952 -51.788258
3673515625 -6.0131068 -52.92984 -2.6382587 22.056034 -2.6429503 21.887835 -6.0352521 -51.950172
3694450000 -6.0380478 -53.127045 -2.6177042 21.947462 -2.6277211 21.771978 -6.0591965 -52.100285
3715384375 -6.0642362 -53.287369 -2.5996776 21.800648 -2.6128609 21.656345 -6.0806561 -52.259647
3736318750 -6.0837474 -53.43502 -2.5875478 21.681362 -2.5960803 21.544912 -6.0996284 -52.41415
3757253125 -6.1046777 -53.58672 -2.5723116 21.585695 -2.5808575 21.420401 -6.1231742 -52.583675
3778187500 -6.1295052 -53.729263 -2.5560186 21.454298 -2.5670683 21.30595 -6.1509638 -52.713833
3799121875 -6.1518116 -53.881374 -2.5440557 21.351122 -2.5515532 21.197994 -6.1737161 -52.861088
3820056250 -6.1779847 -54.058743 -2.5228686 21.243565 -2.5381906 21.083666 -6.2006955 -53.017334
3840990625 -6.2012005 -54.186729 -2.5114534 21.094706 -2.5225945 20.977278 -6.2202163 -53.15197
3861925000 -6.2203217 -54.355679 -2.4982171 21.004835 -2.5076671 20.855932 -6.2381577 -53.331455
3882859375 -6.2443943 -54.501442 -2.4815464 20.893475 -2.4940662 20.742435 -6.2640419 -53.479427
3903793750 -6.2665868 -54.632248 -2.4680731 20.769981 -2.4805357 20.633688 -6.2862134 -53.586578
3924728125 -6.2901764 -54.75732 -2.4544947 20.644562 -2.466428 20.515961 -6.3084078 -53.727726
3945662500 -6.31039 -54.898392 -2.4449525 20.540382 -2.4520457 20.407831 -6.3312902 -53.886105
3966596875 -6.3325028 -55.084938 -2.4281998 20.452545 -2.4387321 20.294037 -6.3535204 -54.047367
3987531250 -6.358768 -55.232113 -2.4118588 20.313026 -2.4260478 20.184467 -6.375474 -54.196613
4008465625 -6.3788486 -55.355743 -2.4044728 20.195116 -2.4119856 20.079521 -6.3945975 -54.328388
4029400000 -6.3976717 -55.503452 -2.3916943 20.110485 -2.3987992 19.971647 -6.4145856 -54.461437
4050334375 -6.4215436 -55.642925 -2.3766797 20.001665 -2.3851542 19.861761 -6.4381614 -54.600407
4071268750 -6.4437056 -55.783707 -2.3643351 19.896345 -2.3714645 19.75317 -6.4596415 -54.727318
4092203125 -6.4667807 -55.943813 -2.3498719 19.779186 -2.3597593 19.63714 -6.4815526 -54.884087
4113137500 -6.4868388 -56.093987 -2.3405635 19.66988 -2.348357 19.53307 -6.5058818 -55.016441
4134071875 -6.5068836 -56.258865 -2.3276551 19.584572 -2.3354492 19.428915 -6.5243855 -55.146355
4155006250 -6.5264931 -56.397926 -2.3143845 19.476738 -2.3232422 19.32251 -6.5457177 -55.288235
4175940625 -6.5477581 -56.544304 -2.3004799 19.390099 -2.3116415 19.21891 -6.5670462 -55.383606
4196875000 -6.5739722 -56.670887 -2.2836142 19.250496 -2.2985899 19.109116 -6.5851798 -55.534496
4217809375 -6.5935507 -56.781063 -2.277755 19.133528 -2.2877238 19.001921 -6.6096945 -55.664745
4238743750 -6.6123776 -56.957169 -2.2659867 19.059925 -2.2759686 18.898571 -6.6300111 -55.777931
