!Keysight Technologies,N5227A,US51270248,A.10.65.08
!Date: Tuesday, June 11, 2024 08:06:44
!Correction: S11(Full 2 Port(1,4)) 
!S41(Full 2 Port(1,4)) 
!S14(Full 2 Port(1,4)) 
!S44(Full 2 Port(1,4)) 
!S2P File: Measurements: S11, S41, S14, S44:
# Hz S  dB   R 50
10000000 -0.66036576 179.55246 -62.672523 19.241552 -58.56889 9.5583572 -0.36630866 -0.31566882
30934375 -0.70465875 179.64949 -61.608879 24.325499 -59.086254 23.98547 -0.32340592 -0.95604283
51868750 -0.70331365 179.48444 -60.639877 36.455746 -58.256157 38.103565 -0.31615394 -1.563957
72803125 -0.6795522 179.2733 -59.523911 47.212448 -55.79879 41.340542 -0.39911199 -2.1861858
93737500 -0.6773271 179.05724 -58.317532 56.055187 -54.898361 49.928993 -0.39495432 -2.817765
114671875 -0.67957568 178.85057 -57.192413 63.180973 -53.856186 56.752499 -0.39365697 -3.4431875
135606250 -0.68269724 178.68265 -56.081669 68.605881 -52.936012 62.556637 -0.39280379 -4.0676169
156540625 -0.67971247 178.53798 -55.154697 73.632263 -52.14135 67.468231 -0.38790575 -4.6987538
177475000 -0.67191279 178.34441 -54.177841 77.870354 -51.114807 69.754021 -0.41772652 -5.3187785
198409375 -0.67328459 178.119 -53.166344 81.263176 -50.294731 73.073204 -0.41780707 -5.9161224
219343750 -0.68011707 177.91447 -52.339939 84.43853 -49.517288 76.020065 -0.42163423 -6.5335927
240278125 -0.67820793 177.74146 -51.566822 87.199524 -48.763359 78.543159 -0.42724255 -7.1633592
261212500 -0.67653406 177.57256 -50.786972 90.00724 -48.114552 80.877296 -0.43314138 -7.7892179
282146875 -0.67874622 177.397 -50.08606 92.029793 -47.461967 82.889427 -0.43698692 -8.4180937
303081250 -0.68223727 177.22188 -49.374802 93.974075 -46.797527 84.725517 -0.44146234 -9.0454035
324015625 -0.68298423 177.05559 -48.702576 95.390923 -46.24662 86.086838 -0.44764555 -9.6448536
344950000 -0.68472475 176.85542 -48.150833 97.416382 -45.686253 87.809738 -0.45206255 -10.237177
365884375 -0.68550682 176.67049 -47.544044 99.165283 -45.136543 89.389847 -0.45696503 -10.843378
386818750 -0.68498981 176.50034 -46.925034 100.80694 -44.603729 90.670006 -0.46410936 -11.465559
407753125 -0.68505806 176.33432 -46.374268 102.15643 -44.125397 92.094048 -0.47337776 -12.073618
428687500 -0.68731248 176.15048 -45.810272 103.3055 -43.620083 93.178665 -0.47450256 -12.681195
449621875 -0.69888002 175.96123 -45.306545 104.58439 -43.17091 94.25264 -0.48047125 -13.301876
470556250 -0.70105255 175.7796 -44.791775 105.54575 -42.708187 95.134399 -0.48700595 -13.893413
491490625 -0.70020705 175.59314 -44.332035 106.69198 -42.275497 96.170479 -0.49305961 -14.482123
512425000 -0.6983813 175.40649 -43.830433 107.7039 -41.854347 97.262947 -0.4980045 -15.084079
533359375 -0.69849843 175.22565 -43.391525 108.77821 -41.445412 97.980499 -0.50624979 -15.695507
554293750 -0.70168686 175.05894 -42.92841 109.48015 -41.065876 98.98893 -0.51445001 -16.302225
575228125 -0.70031559 174.88374 -42.47839 110.38497 -40.646832 99.764297 -0.52101749 -16.898369
596162500 -0.70355397 174.69525 -42.05088 111.02877 -40.273571 100.35977 -0.52599001 -17.489193
617096875 -0.70684427 174.50587 -41.655102 111.85761 -39.927116 101.16122 -0.53282589 -18.086149
638031250 -0.70419109 174.32988 -41.244061 112.60865 -39.547821 101.74349 -0.54323 -18.677889
658965625 -0.70911968 174.15369 -40.851147 113.34637 -39.184647 102.36269 -0.55182368 -19.265316
679900000 -0.7087366 173.98076 -40.456795 113.89047 -38.769577 102.50549 -0.55914056 -19.862228
700834375 -0.71663672 173.80777 -40.096546 114.47424 -38.509888 103.36982 -0.56821805 -20.457426
721768750 -0.71358544 173.63133 -39.709839 115.15468 -38.177757 104.23517 -0.57818902 -21.036133
742703125 -0.7150026 173.4418 -39.333729 115.60792 -37.838131 104.8203 -0.58515042 -21.600689
763637500 -0.7120139 173.25856 -38.981071 115.9743 -37.515156 104.9894 -0.59168476 -22.185184
784571875 -0.71256101 173.08673 -38.650696 116.44745 -37.241882 105.4947 -0.60028374 -22.771803
805506250 -0.71398133 172.91721 -38.328213 117.06255 -36.974606 106.27022 -0.60917646 -23.348463
826440625 -0.71324366 172.74022 -37.937355 117.69855 -36.604572 106.87952 -0.61699533 -23.931305
847375000 -0.71589577 172.55501 -37.563396 117.74104 -36.300266 107.22375 -0.62813759 -24.507416
868309375 -0.71550232 172.37157 -37.235401 118.01909 -36.010197 107.38023 -0.63997251 -25.064747
889243750 -0.71433043 172.17989 -36.912636 118.26569 -35.732365 107.88824 -0.64769697 -25.624725
910178125 -0.71739811 171.99834 -36.572033 118.22465 -35.445484 108.22295 -0.65473652 -26.201456
931112500 -0.7194646 171.8353 -36.302616 118.75714 -35.170341 108.33926 -0.66456026 -26.771883
952046875 -0.72159076 171.66263 -35.995167 119.09441 -34.90691 108.78071 -0.67345601 -27.334108
972981250 -0.723207 171.47191 -35.70591 119.39931 -34.631187 109.1908 -0.68201625 -27.895807
993915625 -0.72552502 171.28125 -35.398235 119.63086 -34.373596 109.49829 -0.69292313 -28.458586
1014850000 -0.72799844 171.10747 -35.102444 119.65576 -34.104221 109.61745 -0.70343757 -29.020218
1035784375 -0.72524834 170.93282 -34.83923 119.86994 -33.852474 109.78527 -0.71344459 -29.582251
1056718750 -0.72716379 170.7534 -34.555256 120.12403 -33.617733 110.35793 -0.72182208 -30.14459
1077653125 -0.73280799 170.57869 -34.26178 120.1518 -33.341572 110.47219 -0.73034668 -30.700407
1098587500 -0.73643106 170.40694 -33.994049 120.25976 -33.098934 110.43253 -0.73881394 -31.235884
1119521875 -0.73546129 170.22273 -33.740093 120.43127 -32.863953 110.67707 -0.74958599 -31.783091
1140456250 -0.73457038 170.02724 -33.48547 120.57434 -32.628029 110.80566 -0.76140153 -32.330181
1161390625 -0.7427702 169.85312 -33.235374 120.67056 -32.40432 111.18064 -0.77182645 -32.87796
1182325000 -0.75354397 169.68541 -32.976398 120.79258 -32.12598 111.02778 -0.77999258 -33.42691
1203259375 -0.74776202 169.50932 -32.725147 120.82039 -31.919245 111.1232 -0.78796113 -33.978394
1224193750 -0.74825442 169.32727 -32.48645 120.87789 -31.712681 111.23779 -0.79642981 -34.522018
1245128125 -0.75251174 169.14166 -32.247211 120.77985 -31.501328 111.33003 -0.80840498 -35.047615
1266062500 -0.74831331 168.95554 -32.011482 120.80848 -31.293121 111.46033 -0.82052374 -35.58136
1286996875 -0.74753761 168.76668 -31.785965 120.8092 -31.069687 111.45966 -0.83142453 -36.121994
1307931250 -0.74948871 168.58688 -31.564486 120.90231 -30.860907 111.52651 -0.84299731 -36.666401
1328865625 -0.75218248 168.41876 -31.336145 120.85519 -30.653839 111.53258 -0.85229141 -37.202976
1349800000 -0.75107479 168.25142 -31.122787 120.8793 -30.430231 111.28754 -0.86050224 -37.726078
1370734375 -0.75598443 168.06261 -30.900833 120.8312 -30.271984 111.53612 -0.87006491 -38.250805
1391668750 -0.75332201 167.86528 -30.697123 120.8438 -30.074385 111.74096 -0.88201064 -38.769894
1412603125 -0.75445157 167.67845 -30.47757 120.7594 -29.865126 111.69923 -0.8947823 -39.28949
1433537500 -0.75462312 167.50189 -30.269928 120.78387 -29.670408 111.69894 -0.90556645 -39.822529
1454471875 -0.75676781 167.33005 -30.069685 120.73348 -29.463921 111.71339 -0.91512704 -40.355183
1475406250 -0.75951916 167.16095 -29.87121 120.76478 -29.305094 111.72765 -0.92511088 -40.874374
1496340625 -0.76233864 166.9873 -29.672607 120.67364 -29.131342 111.86179 -0.93410486 -41.377373
1517275000 -0.76600271 166.79752 -29.474165 120.53186 -28.94347 111.87467 -0.94475442 -41.87405
1538209375 -0.76871061 166.59749 -29.276024 120.57249 -28.758081 111.86612 -0.95651907 -42.385658
1559143750 -0.77877402 166.4079 -29.085756 120.37625 -28.573877 111.93423 -0.9675411 -42.897316
1580078125 -0.77771407 166.23634 -28.901571 120.34874 -28.408754 111.84929 -0.97658873 -43.418121
1601012500 -0.77681082 166.07071 -28.717566 120.30247 -28.22611 111.85164 -0.98601907 -43.940178
1621946875 -0.78097415 165.8968 -28.538012 120.21035 -28.053909 111.71893 -0.99708742 -44.443001
1642881250 -0.78176761 165.70895 -28.353008 120.20461 -27.900331 111.70835 -1.0084783 -44.921883
1663815625 -0.78323728 165.51611 -28.168766 119.98548 -27.723236 111.5817 -1.0197432 -45.406948
1684750000 -0.78378391 165.32291 -27.992746 119.8698 -27.550102 111.44712 -1.030813 -45.908775
1705684375 -0.78649688 165.14749 -27.829798 119.75464 -27.39362 111.4903 -1.0419444 -46.421844
1726618750 -0.78869539 164.98808 -27.65974 119.66285 -27.246353 111.57271 -1.051915 -46.923569
1747553125 -0.79244113 164.8266 -27.485548 119.60034 -27.085825 111.45674 -1.0635128 -47.412354
1768487500 -0.79376298 164.64793 -27.311184 119.44927 -26.937326 111.38612 -1.0739704 -47.889473
1789421875 -0.79885602 164.46338 -27.155605 119.38115 -26.788931 111.35847 -1.0858133 -48.358616
1810356250 -0.79826277 164.28619 -26.995409 119.27715 -26.633907 111.30627 -1.097109 -48.843395
1831290625 -0.80185312 164.11777 -26.828411 119.14105 -26.475132 111.31173 -1.1076977 -49.334553
1852225000 -0.80118805 163.95627 -26.664742 119.00916 -26.316885 111.18918 -1.1184468 -49.825642
1873159375 -0.80881244 163.79907 -26.507429 118.85754 -26.174732 111.1461 -1.129312 -50.300404
1894093750 -0.80806166 163.62738 -26.354038 118.76806 -26.009275 111.019 -1.1400802 -50.770134
1915028125 -0.80975121 163.43817 -26.193552 118.55295 -25.887968 110.7523 -1.1520616 -51.23991
1935962500 -0.8130011 163.25325 -26.047707 118.38795 -25.751579 110.90707 -1.1639056 -51.706429
1956896875 -0.81586474 163.08688 -25.895491 118.25095 -25.564754 110.38461 -1.1748244 -52.175549
1977831250 -0.81734359 162.93402 -25.757738 117.93404 -25.443062 110.48622 -1.1822933 -52.655285
1998765625 -0.81975734 162.7787 -25.620495 117.63895 -25.312513 110.25765 -1.1917076 -53.129864
2019700000 -0.81993759 162.60828 -25.483278 117.6329 -25.205193 110.28731 -1.2021059 -53.587303
2040634375 -0.83177865 162.43417 -25.342869 117.52583 -25.059769 110.29189 -1.2125834 -54.040211
2061568750 -0.83269519 162.25238 -25.202478 117.46581 -24.920147 110.10682 -1.2234277 -54.497044
2082503125 -0.84119678 162.07428 -25.065046 117.28223 -24.803549 110.09088 -1.2332227 -54.967594
2103437500 -0.83177608 161.90652 -24.930779 117.08458 -24.671673 109.89986 -1.2421354 -55.430416
2124371875 -0.8350029 161.745 -24.795099 117.03293 -24.557056 109.91972 -1.2499613 -55.892803
2145306250 -0.82827544 161.56718 -24.657963 116.93913 -24.424311 109.90707 -1.2605846 -56.341686
2166240625 -0.82635039 161.37099 -24.527945 116.81946 -24.292192 109.77141 -1.2730591 -56.775921
2187175000 -0.83294159 161.18327 -24.39077 116.69414 -24.169056 109.62172 -1.2838274 -57.216755
2208109375 -0.82755476 161.00121 -24.254925 116.562 -24.057539 109.51831 -1.294874 -57.670532
2229043750 -0.83147961 160.81725 -24.116468 116.42705 -23.935408 109.5014 -1.3051337 -58.130764
2249978125 -0.82938516 160.6304 -23.98778 116.22883 -23.802908 109.43792 -1.3137603 -58.578934
2270912500 -0.84689635 160.45671 -23.862944 116.02792 -23.672216 109.24707 -1.3231435 -59.01017
2291846875 -0.85405999 160.27623 -23.740408 115.93307 -23.548969 109.0578 -1.3327074 -59.444332
2312781250 -0.8473233 160.08112 -23.617044 115.80386 -23.453201 109.00179 -1.3456138 -59.876614
2333715625 -0.84971857 159.89198 -23.4884 115.60773 -23.335142 108.92953 -1.3566036 -60.318974
2354650000 -0.84852529 159.72475 -23.372461 115.43278 -23.225027 108.80798 -1.3667558 -60.767532
2375584375 -0.84889632 159.55991 -23.25152 115.31787 -23.094496 108.64251 -1.3765441 -61.210457
2396518750 -0.85078073 159.38261 -23.130846 115.21021 -22.977007 108.60004 -1.3840888 -61.636524
2417453125 -0.85338056 159.19443 -23.008413 115.00713 -22.873251 108.58776 -1.39252 -62.051506
2438387500 -0.85946971 159.00633 -22.884447 114.80356 -22.73138 108.46071 -1.4029329 -62.468857
2459321875 -0.8644194 158.80777 -22.760824 114.63104 -22.611549 108.02409 -1.4141383 -62.892998
2480256250 -0.86389649 158.62227 -22.638023 114.14986 -22.516979 107.94076 -1.4236484 -63.329056
2501190625 -0.86031812 158.45531 -22.519167 114.06573 -22.418951 107.91282 -1.4311097 -63.769135
2522125000 -0.86026001 158.27715 -22.409893 113.84828 -22.284893 107.48893 -1.4423041 -64.180237
2543059375 -0.8677811 158.08871 -22.300467 113.76418 -22.159403 107.47872 -1.4486411 -64.586723
2563993750 -0.87184703 157.89879 -22.183437 113.67143 -22.06748 107.28902 -1.45762 -64.985809
2584928125 -0.8682133 157.70351 -22.068333 113.43033 -21.961237 107.35329 -1.4674128 -65.409485
2605862500 -0.86373919 157.50824 -21.958336 113.30013 -21.858456 106.91785 -1.4796094 -65.832031
2626796875 -0.86463296 157.32361 -21.845877 113.13148 -21.771029 106.95846 -1.4880981 -66.260315
2647731250 -0.8666485 157.15334 -21.739166 112.93525 -21.663996 106.78568 -1.4959735 -66.680099
2668665625 -0.87020826 156.97223 -21.638393 112.70684 -21.542334 106.55121 -1.5056927 -67.081131
2689600000 -0.87208807 156.77512 -21.538031 112.535 -21.424414 105.99158 -1.5176518 -67.465569
2710534375 -0.87539154 156.57924 -21.432486 112.45702 -21.357363 106.05045 -1.5253696 -67.86644
2731468750 -0.87590998 156.39955 -21.306568 112.17515 -21.267469 106.1178 -1.5349721 -68.288071
2752403125 -0.88109058 156.22479 -21.206369 111.95576 -21.162226 106.11366 -1.5439708 -68.707458
2773337500 -0.88060087 156.05214 -21.113462 111.78187 -21.049646 105.82622 -1.5522306 -69.123322
2794271875 -0.88747001 155.88516 -21.012106 111.64542 -20.973667 105.67609 -1.5601894 -69.531868
2815206250 -0.88915116 155.70851 -20.907396 111.46557 -20.875349 105.70422 -1.5695525 -69.919121
2836140625 -0.8931222 155.51602 -20.809961 111.28791 -20.757664 105.5643 -1.5788358 -70.300735
2857075000 -0.89484966 155.32564 -20.707169 111.17616 -20.66787 105.34052 -1.5874778 -70.69799
2878009375 -0.8966856 155.1615 -20.601969 110.95871 -20.569006 105.11842 -1.5964094 -71.116318
2898943750 -0.90088016 155.00043 -20.509912 110.74754 -20.50037 105.04823 -1.6049672 -71.526833
2919878125 -0.90224713 154.81787 -20.415796 110.57558 -20.396454 105.0293 -1.6130991 -71.913986
2940812500 -0.91154975 154.62137 -20.317661 110.23479 -20.286861 104.80587 -1.6204667 -72.291145
2961746875 -0.91209817 154.43306 -20.219505 110.15762 -20.193964 104.62127 -1.6294988 -72.666618
2982681250 -0.90867066 154.23811 -20.127914 109.97393 -20.100937 104.39317 -1.6393583 -73.049217
3003615625 -0.90765601 154.0412 -20.029991 109.78008 -20.036085 104.30063 -1.6475917 -73.43737
3024550000 -0.90892488 153.85579 -19.947304 109.50513 -19.926567 104.15763 -1.6557083 -73.838158
3045484375 -0.92447644 153.6951 -19.8521 109.46744 -19.830812 103.84976 -1.6628079 -74.236382
3066418750 -0.91877496 153.51723 -19.750332 109.24231 -19.767153 103.77171 -1.6717355 -74.61068
3087353125 -0.9198364 153.31758 -19.665382 108.95286 -19.672253 103.70281 -1.6794904 -74.963867
3108287500 -0.91974312 153.11243 -19.590199 108.77088 -19.577478 103.44321 -1.6899649 -75.329895
3129221875 -0.91987717 152.90854 -19.500807 108.68109 -19.489157 103.29181 -1.6996365 -75.717598
3150156250 -0.92462093 152.72734 -19.399096 108.49721 -19.413916 103.06843 -1.7070318 -76.108208
3171090625 -0.92371124 152.55443 -19.307144 108.18942 -19.335728 102.90767 -1.71392 -76.493744
3192025000 -0.93087441 152.39221 -19.239008 107.92459 -19.246973 102.75485 -1.721359 -76.861656
3212959375 -0.93556494 152.21037 -19.156864 107.88198 -19.164904 102.47034 -1.7318289 -77.214874
3233893750 -0.94130027 152.00142 -19.068039 107.62984 -19.108599 102.42182 -1.7403257 -77.569145
3254828125 -0.93957305 151.79807 -18.985106 107.31646 -19.012766 102.41219 -1.7492216 -77.936409
3275762500 -0.9416256 151.61157 -18.884903 106.77714 -18.908894 102.02917 -1.7570554 -78.321495
3296696875 -0.94981658 151.44925 -18.815022 106.59603 -18.853891 101.80743 -1.7644538 -78.696472
3317631250 -0.95141011 151.27591 -18.737545 106.56667 -18.774357 101.64842 -1.7707362 -79.06089
3338565625 -0.95569539 151.08264 -18.658464 106.3197 -18.725405 101.43012 -1.7785988 -79.405914
3359500000 -0.96130818 150.87614 -18.575872 106.20386 -18.637049 101.49532 -1.7876716 -79.752708
3380434375 -0.96309376 150.66461 -18.486147 106.01145 -18.535809 101.15938 -1.7966243 -80.107315
3401368750 -0.96608067 150.47824 -18.426788 105.76793 -18.485977 101.10037 -1.8035053 -80.479782
3422303125 -0.96918714 150.30571 -18.356979 105.66615 -18.390772 100.99754 -1.8108923 -80.850883
3443237500 -0.97344416 150.13773 -18.263477 105.54233 -18.335066 100.60089 -1.8172619 -81.205582
3464171875 -0.98204488 149.95708 -18.178434 105.29327 -18.283079 100.57728 -1.8237189 -81.546638
3485106250 -0.98227352 149.75464 -18.1138 105.07134 -18.206808 100.59261 -1.8308262 -81.883545
3506040625 -0.98814988 149.55902 -18.053801 104.85959 -18.11573 100.53697 -1.8404069 -82.221764
3526975000 -0.98987025 149.36877 -17.974977 104.85471 -18.008339 100.23556 -1.8493993 -82.570572
3547909375 -0.99725187 149.21147 -17.886248 104.64084 -17.967957 99.843147 -1.8568708 -82.941101
3568843750 -0.99654979 149.06177 -17.82184 104.39928 -17.91258 99.95108 -1.8607337 -83.292778
3589778125 -1.0006969 148.89536 -17.728487 103.87608 -17.815458 99.867218 -1.8664109 -83.632156
3610712500 -1.0050552 148.71097 -17.654421 103.56384 -17.74622 99.53952 -1.8733413 -83.957047
3631646875 -1.0060973 148.50224 -17.601818 103.51938 -17.689695 99.490883 -1.8823909 -84.277435
3652581250 -1.004931 148.29897 -17.527378 103.48422 -17.585617 99.495407 -1.8907843 -84.626869
3673515625 -1.0082779 148.11345 -17.441801 103.37297 -17.498943 99.080498 -1.8981684 -84.992325
3694450000 -1.0120568 147.96384 -17.352262 103.09405 -17.454262 98.795418 -1.9062452 -85.345833
3715384375 -1.0200647 147.81175 -17.292919 102.88369 -17.398142 98.659081 -1.9118173 -85.673782
3736318750 -1.0188359 147.62462 -17.2332 102.77827 -17.341684 98.707069 -1.9169326 -85.983559
3757253125 -1.026352 147.42659 -17.153334 102.60094 -17.230982 98.569427 -1.9252254 -86.302299
3778187500 -1.028265 147.22772 -17.092516 102.38728 -17.155535 98.105766 -1.9339677 -86.641808
3799121875 -1.03098 147.04616 -17.018097 102.30568 -17.108776 98.026489 -1.9420767 -86.977127
3820056250 -1.0295384 146.87044 -16.930809 101.89685 -17.032673 97.758026 -1.9471763 -87.329437
3840990625 -1.0298251 146.69977 -16.888783 101.53824 -17.010326 97.72937 -1.952373 -87.658058
3861925000 -1.0368342 146.52461 -16.809875 101.52776 -16.909224 97.79734 -1.9580183 -87.9618
3882859375 -1.0438815 146.32016 -16.736744 101.32775 -16.811916 97.389999 -1.962778 -88.274315
3903793750 -1.0442065 146.1102 -16.675652 101.12302 -16.782141 97.190758 -1.9702595 -88.597885
3924728125 -1.0465789 145.91095 -16.619205 100.92143 -16.717104 97.104218 -1.9787328 -88.932129
3945662500 -1.0466388 145.72531 -16.554209 100.87704 -16.652388 96.935463 -1.987551 -89.271278
3966596875 -1.0515803 145.55861 -16.465984 100.67773 -16.576784 96.806297 -1.9930184 -89.590019
3987531250 -1.0513157 145.37268 -16.412184 100.33202 -16.507544 96.632813 -1.9948777 -89.901505
4008465625 -1.0579188 145.18213 -16.365646 100.23553 -16.452564 96.411499 -2.0004513 -90.19355
4029400000 -1.0627418 144.98558 -16.28533 100.1834 -16.382488 96.308029 -2.0071855 -90.499268
4050334375 -1.0643948 144.78192 -16.217615 99.926453 -16.311666 95.978645 -2.0157948 -90.827904
4071268750 -1.0669564 144.59268 -16.154781 99.773766 -16.269531 95.924103 -2.0218115 -91.160194
4092203125 -1.068905 144.41319 -16.09248 99.526657 -16.187078 95.842636 -2.0299127 -91.469994
4113137500 -1.0747498 144.25151 -16.036293 99.421867 -16.11026 95.414925 -2.0340979 -91.765297
4134071875 -1.0776078 144.07971 -15.957123 99.313751 -16.071199 95.221191 -2.0406153 -92.057968
4155006250 -1.0816141 143.87791 -15.895115 99.067856 -15.987942 95.120071 -2.0436463 -92.35955
4175940625 -1.0870904 143.68166 -15.819678 98.890511 -15.966841 94.84137 -2.0517216 -92.668724
4196875000 -1.0907763 143.49298 -15.766472 98.529816 -15.889381 94.912544 -2.059762 -92.976318
4217809375 -1.0950907 143.31998 -15.725257 98.478081 -15.803139 94.485718 -2.0648003 -93.289352
4238743750 -1.0961831 143.14642 -15.644277 98.391479 -15.78266 94.362892 -2.0707505 -93.589378
