!Keysight Technologies,N5227A,US51270248,A.10.65.08
!Date: Tuesday, June 11, 2024 05:59:44
!Correction: S11(Full 2 Port(1,4)) 
!S41(Full 2 Port(1,4)) 
!S14(Full 2 Port(1,4)) 
!S44(Full 2 Port(1,4)) 
!S2P File: Measurements: S11, S41, S14, S44:
# Hz S  dB   R 50
10000000 -60.704273 -172.7594 0.0072069378 -0.030154444 0.0019544626 -0.037340499 -61.31002 86.935699
30934375 -60.26627 -168.98091 0.0092514371 -0.059704978 -0.0034834689 -0.043621302 -61.846546 -24.985277
51868750 -60.62384 -160.34616 0.0077278004 -0.095370799 -0.0021588234 -0.070358381 -61.271358 -54.233273
72803125 -61.398613 -154.30707 0.0063912994 -0.1213349 -0.0010817948 -0.10391735 -62.389679 -65.47863
93737500 -61.760017 -150.31839 0.0061863419 -0.15755244 -0.001213912 -0.14049791 -62.321171 -63.156567
114671875 -62.441063 -149.97545 0.0054020439 -0.19532852 -0.0014972902 -0.17265561 -60.876743 -65.898117
135606250 -62.374519 -144.13828 0.0052695135 -0.23182079 -0.0018700631 -0.20395437 -58.907333 -66.583694
156540625 -61.780098 -131.68781 0.0041563055 -0.26536369 -0.0027513811 -0.23528594 -57.328617 -69.469139
177475000 -61.353203 -129.89465 0.0039209272 -0.30070856 -0.0037059125 -0.27515277 -57.206814 -65.392357
198409375 -62.375877 -118.67365 0.0026721845 -0.3358106 -0.004550511 -0.3031888 -56.256531 -62.440697
219343750 -61.756252 -110.13914 0.002162717 -0.36788112 -0.0047430932 -0.33521852 -55.589218 -62.794628
240278125 -61.76046 -123.66579 0.0034119952 -0.41095915 -0.0069063702 -0.36775464 -54.497055 -59.48407
261212500 -61.043896 -100.90258 0.00092302338 -0.44451228 -0.0068807225 -0.38821843 -53.105862 -66.662712
282146875 -59.067768 -95.302536 0.00034054651 -0.46720523 -0.0059499843 -0.42362353 -52.90686 -69.046822
303081250 -58.802509 -89.524338 -0.00066476542 -0.50477022 -0.0079131024 -0.45710012 -52.060986 -66.059441
324015625 -57.569107 -84.433411 -0.0012245504 -0.53338856 -0.0079984339 -0.4789992 -51.224663 -67.928207
344950000 -57.654243 -79.378311 -0.0021201738 -0.57317382 -0.0092798322 -0.51199448 -50.660397 -65.514297
365884375 -56.249481 -79.235741 -0.0028131655 -0.60211909 -0.01025519 -0.53564698 -49.886368 -66.229904
386818750 -55.111153 -74.624428 -0.0048046866 -0.6313808 -0.01040627 -0.56120247 -49.232483 -67.749886
407753125 -54.551613 -71.707977 -0.0062734694 -0.6678412 -0.010148839 -0.58734304 -48.600025 -70.381615
428687500 -53.521759 -70.63916 -0.007378717 -0.69541824 -0.010983303 -0.61734408 -48.195576 -71.099297
449621875 -52.419586 -69.922951 -0.0080329487 -0.72290725 -0.011963488 -0.64750183 -47.728481 -70.128738
470556250 -51.524551 -68.38353 -0.0096097095 -0.75023258 -0.012832487 -0.67214793 -47.104767 -69.528679
491490625 -50.732735 -67.587677 -0.010154768 -0.77754045 -0.012739085 -0.69624496 -46.602055 -70.878288
512425000 -50.483494 -61.609756 -0.013094233 -0.81864458 -0.012644019 -0.72474748 -46.35582 -71.708038
533359375 -49.409237 -64.55098 -0.01345205 -0.83382148 -0.014388446 -0.75340557 -45.850594 -70.532646
554293750 -48.79401 -67.00959 -0.013039242 -0.85952723 -0.01290873 -0.77707028 -45.423416 -73.553726
575228125 -48.403839 -66.419754 -0.014904748 -0.8921755 -0.014341817 -0.81342739 -45.153038 -72.371101
596162500 -47.692406 -66.66037 -0.016049612 -0.91492283 -0.014900539 -0.83406395 -44.531445 -73.132332
617096875 -47.226799 -67.22374 -0.016268166 -0.94604075 -0.015139907 -0.86282718 -44.350075 -73.622169
638031250 -46.735313 -68.091644 -0.0170571 -0.97003865 -0.015536933 -0.89067793 -43.995819 -73.782738
658965625 -46.417721 -66.083984 -0.018431965 -1.0020924 -0.016680222 -0.91629273 -43.670124 -73.500366
679900000 -45.697239 -65.091354 -0.020488836 -1.0273278 -0.017901283 -0.93817014 -43.138111 -73.725441
700834375 -45.499298 -67.401566 -0.020232029 -1.0553533 -0.016921703 -0.95762551 -42.792252 -76.184196
721768750 -45.090034 -68.465515 -0.020881781 -1.0761789 -0.017523592 -0.99830294 -42.828899 -76.453468
742703125 -44.938248 -66.859619 -0.02322148 -1.109751 -0.019003073 -1.0223233 -42.494759 -75.021965
763637500 -44.587513 -65.266441 -0.024947209 -1.1434613 -0.019684544 -1.0431831 -42.016426 -74.860573
784571875 -44.571411 -62.339104 -0.028039331 -1.1921769 -0.019992942 -1.0636218 -41.650555 -75.961662
805506250 -44.22142 -67.102097 -0.025925286 -1.2050856 -0.019541169 -1.0913765 -41.472332 -76.993675
826440625 -44.301613 -62.659584 -0.029755713 -1.2562467 -0.020043923 -1.122088 -41.333767 -77.448578
847375000 -43.537251 -65.83242 -0.029518979 -1.2550892 -0.0213122 -1.1417669 -41.04826 -77.433006
868309375 -43.479763 -66.660561 -0.029298652 -1.2840154 -0.022383749 -1.1645409 -40.797447 -77.64505
889243750 -43.076687 -66.355751 -0.030489272 -1.307917 -0.020453719 -1.1905258 -40.650372 -78.753372
910178125 -42.633335 -67.386223 -0.030291449 -1.3224996 -0.021934485 -1.2187668 -40.482704 -78.111671
931112500 -42.439945 -66.048859 -0.031875949 -1.3540833 -0.023122959 -1.2336273 -40.11478 -78.219666
952046875 -42.05479 -67.203491 -0.03199036 -1.3719348 -0.022214046 -1.2623367 -39.974957 -78.755386
972981250 -41.913185 -68.356918 -0.031262159 -1.3999977 -0.022099832 -1.2921345 -39.834114 -79.264481
993915625 -41.557922 -67.011414 -0.033909407 -1.4231546 -0.022796309 -1.316136 -39.658241 -79.413086
1014850000 -41.158611 -69.010239 -0.032961152 -1.4390761 -0.02298175 -1.3423874 -39.405548 -78.996384
1035784375 -41.201633 -69.351006 -0.033387952 -1.4782686 -0.023002086 -1.3631043 -39.110573 -79.704491
1056718750 -40.940163 -68.489632 -0.035170425 -1.5023654 -0.023032507 -1.394189 -39.080219 -79.967743
1077653125 -40.739605 -67.18248 -0.036875505 -1.5316833 -0.023713158 -1.4182199 -38.882576 -79.133614
1098587500 -40.360668 -67.663315 -0.037088402 -1.5529226 -0.024272673 -1.4389046 -38.584717 -78.891983
1119521875 -40.123138 -68.866821 -0.036500096 -1.5715548 -0.023852959 -1.462468 -38.430233 -79.677971
1140456250 -39.900879 -70.284584 -0.035197608 -1.5902627 -0.024218153 -1.4910105 -38.271652 -79.537224
1161390625 -39.744762 -69.43679 -0.037419319 -1.6234343 -0.023428796 -1.5187823 -38.160782 -79.985626
1182325000 -39.483379 -69.731583 -0.037490565 -1.6425751 -0.025656227 -1.5464768 -37.946987 -79.030838
1203259375 -39.158943 -70.013779 -0.037815824 -1.6606308 -0.025496321 -1.5641243 -37.660255 -79.133926
1224193750 -38.911037 -70.728867 -0.037521146 -1.6858251 -0.024988797 -1.5902683 -37.480225 -79.511192
1245128125 -38.820602 -70.563507 -0.03825539 -1.7168533 -0.024655249 -1.6147826 -37.326954 -79.808777
1266062500 -38.631638 -68.217659 -0.0431812 -1.7529379 -0.025051963 -1.6427648 -37.175842 -80.146179
1286996875 -38.428238 -71.711037 -0.038616732 -1.7656722 -0.024322785 -1.6680002 -37.046402 -80.780289
1307931250 -38.468967 -68.557297 -0.043654583 -1.8212444 -0.025730012 -1.6951779 -36.889267 -80.53286
1328865625 -38.047489 -70.466568 -0.042473126 -1.8236836 -0.025071401 -1.7194188 -36.707981 -80.851593
1349800000 -38.094963 -68.677353 -0.045521267 -1.8734986 -0.026206557 -1.742872 -36.522919 -80.590004
1370734375 -37.642429 -71.033653 -0.043303385 -1.8694862 -0.025504198 -1.7636921 -36.290489 -81.149887
1391668750 -37.525417 -72.576805 -0.040877689 -1.8903229 -0.024469411 -1.7958964 -36.254353 -81.73867
1412603125 -37.387886 -72.308372 -0.042332351 -1.921608 -0.025143351 -1.8235095 -36.130188 -81.627792
1433537500 -37.263977 -72.637093 -0.042752508 -1.9518559 -0.025508955 -1.8504598 -35.966133 -81.961601
1454471875 -37.145767 -73.860741 -0.041507091 -1.9772363 -0.026398156 -1.879143 -35.857105 -81.804108
1475406250 -36.944328 -73.599434 -0.043122858 -2.0017619 -0.026398664 -1.8974417 -35.615074 -81.895439
1496340625 -36.734207 -74.143387 -0.04327634 -2.0226011 -0.025892628 -1.9245551 -35.509811 -82.255142
1517275000 -36.740589 -73.108788 -0.045901198 -2.0649652 -0.026296027 -1.9514568 -35.397068 -82.019745
1538209375 -36.446064 -74.45874 -0.043808557 -2.0705402 -0.02665155 -1.9781116 -35.292191 -82.299286
1559143750 -36.413509 -75.231285 -0.042662568 -2.1032526 -0.027107844 -2.0073609 -35.201031 -82.229614
1580078125 -36.334911 -74.576752 -0.044646323 -2.137033 -0.027128149 -2.0288529 -35.026997 -82.464165
1601012500 -36.16396 -74.265007 -0.046579208 -2.1611745 -0.027811054 -2.0592947 -34.936172 -82.514023
1621946875 -35.978569 -74.845001 -0.046328645 -2.1797633 -0.028365616 -2.0813911 -34.759945 -82.107178
1642881250 -35.702538 -75.505951 -0.04590185 -2.1915936 -0.027928043 -2.1035268 -34.602474 -82.441277
1663815625 -35.624886 -76.318176 -0.045210484 -2.2182236 -0.027057717 -2.1303878 -34.52002 -82.725937
1684750000 -35.521511 -75.985573 -0.046772946 -2.2488143 -0.028046779 -2.1570361 -34.399368 -82.855957
1705684375 -35.423622 -76.719994 -0.045765579 -2.2753386 -0.028790459 -2.1876128 -34.304703 -82.905441
1726618750 -35.306599 -75.580429 -0.049298704 -2.3060319 -0.028621532 -2.2127786 -34.185585 -83.212784
1747553125 -35.028305 -76.102654 -0.048751954 -2.3180592 -0.029179409 -2.2380002 -34.056953 -83.158974
1768487500 -34.975227 -76.173943 -0.049941305 -2.3504088 -0.028621478 -2.2583749 -33.919304 -83.380569
1789421875 -34.867165 -77.253723 -0.048458774 -2.3715014 -0.029669626 -2.2856727 -33.822163 -83.48584
1810356250 -34.73386 -77.496704 -0.048661161 -2.3931963 -0.029216073 -2.3110836 -33.731735 -83.937286
1831290625 -34.676968 -76.848053 -0.05072321 -2.4249232 -0.029339848 -2.3417203 -33.68626 -84.169533
1852225000 -34.457626 -77.667213 -0.049910538 -2.4383821 -0.031289134 -2.3676734 -33.580631 -83.598015
1873159375 -34.353027 -78.749367 -0.048580609 -2.464396 -0.031225579 -2.3933537 -33.461922 -83.951485
1894093750 -34.301346 -78.808945 -0.049414363 -2.4962289 -0.03176862 -2.419704 -33.37801 -83.803879
1915028125 -34.173565 -78.345444 -0.051023886 -2.5214195 -0.031682953 -2.435461 -33.184879 -84.019417
1935962500 -34.098404 -78.393372 -0.051914185 -2.5513206 -0.031110035 -2.4687562 -33.134716 -84.671844
1956896875 -33.88652 -79.418083 -0.04959267 -2.555759 -0.032259777 -2.5005703 -33.120892 -84.310402
1977831250 -33.839817 -79.659073 -0.049468305 -2.5923615 -0.033908378 -2.5242505 -33.006672 -83.900734
1998765625 -33.867798 -79.24482 -0.051121272 -2.633945 -0.033231635 -2.5452461 -32.884598 -84.175011
2019700000 -33.680962 -79.326904 -0.051458292 -2.6491179 -0.033648249 -2.5671673 -32.735386 -84.348557
2040634375 -33.545643 -79.615974 -0.051830374 -2.6719379 -0.032806501 -2.5991919 -32.703281 -84.819763
2061568750 -33.428246 -80.2015 -0.050719369 -2.6915414 -0.034396566 -2.6245265 -32.610085 -84.435097
2082503125 -33.383892 -79.737999 -0.053108446 -2.7265775 -0.033631463 -2.6483409 -32.491253 -84.878189
2103437500 -33.316402 -80.278427 -0.052068666 -2.7521696 -0.033947319 -2.6720476 -32.396164 -84.787331
2124371875 -33.210705 -80.321167 -0.052582569 -2.7739413 -0.035464026 -2.7005281 -32.276802 -84.716187
2145306250 -33.089867 -80.877174 -0.052054163 -2.79356 -0.034154311 -2.725724 -32.217594 -85.408958
2166240625 -33.048588 -80.269073 -0.055080157 -2.8264377 -0.036655247 -2.7531648 -32.158714 -84.891426
2187175000 -32.935387 -80.151848 -0.055907421 -2.850606 -0.03558588 -2.7753906 -32.051155 -85.201324
2208109375 -32.834522 -81.217941 -0.052871201 -2.869391 -0.036886271 -2.7996237 -31.927916 -85.239502
2229043750 -32.731777 -81.237801 -0.053866908 -2.8913364 -0.03570237 -2.8261425 -31.858791 -85.928757
2249978125 -32.679043 -81.595108 -0.053968456 -2.9201679 -0.03603613 -2.8535364 -31.809746 -86.043221
2270912500 -32.618877 -81.268814 -0.056144524 -2.9479549 -0.036683947 -2.8807204 -31.75654 -86.077858
2291846875 -32.513554 -81.894226 -0.054824259 -2.9691002 -0.037410956 -2.9034584 -31.682358 -85.908417
2312781250 -32.406487 -82.300598 -0.054716013 -2.9871249 -0.036943629 -2.9236774 -31.580994 -86.285713
2333715625 -32.28447 -82.114426 -0.056456942 -3.0107973 -0.037119608 -2.9514492 -31.537825 -86.678375
2354650000 -32.219028 -82.494003 -0.056550041 -3.0386519 -0.038732745 -2.9775062 -31.448603 -86.491531
2375584375 -32.164848 -82.918953 -0.055841204 -3.0588412 -0.038243491 -3.0037105 -31.412291 -86.815536
2396518750 -32.107986 -82.965363 -0.0564605 -3.082916 -0.039024778 -3.0241106 -31.336889 -86.659874
2417453125 -32.064339 -82.791214 -0.057472464 -3.1095161 -0.038430743 -3.0463772 -31.250244 -86.904259
2438387500 -32.001251 -82.758492 -0.057499606 -3.1365862 -0.039170623 -3.0750492 -31.23863 -86.905556
2459321875 -31.903223 -83.08519 -0.056364059 -3.1557364 -0.040642437 -3.0985122 -31.147152 -86.447174
2480256250 -31.840242 -83.339043 -0.05574869 -3.1824198 -0.039385978 -3.1199677 -31.043217 -86.845528
2501190625 -31.725439 -83.432899 -0.055951178 -3.2014935 -0.040072318 -3.1435368 -30.955029 -86.963959
2522125000 -31.696783 -83.565926 -0.056227058 -3.2319613 -0.039487273 -3.1702113 -30.919764 -87.245102
2543059375 -31.661011 -83.42765 -0.056586895 -3.2552626 -0.041099332 -3.1980338 -30.885979 -86.679482
2563993750 -31.568279 -83.443718 -0.056180127 -3.2750781 -0.040442482 -3.2170329 -30.783981 -86.85656
2584928125 -31.533688 -82.638145 -0.059948809 -3.3065228 -0.040421579 -3.2427382 -30.740343 -87.018478
2605862500 -31.414064 -83.160347 -0.057678528 -3.3217652 -0.040803809 -3.2654855 -30.652977 -86.914337
2626796875 -31.321993 -83.121223 -0.05765282 -3.3492553 -0.040278707 -3.2918155 -30.550446 -87.103828
2647731250 -31.224688 -83.452431 -0.057024509 -3.3709307 -0.039842475 -3.3184943 -30.492701 -87.54409
2668665625 -31.26989 -81.82341 -0.06436266 -3.4218645 -0.040791068 -3.3473713 -30.47163 -87.47464
2689600000 -31.203718 -82.460045 -0.062190656 -3.4407408 -0.041545432 -3.3701129 -30.414726 -87.175217
2710534375 -31.114037 -82.08963 -0.064046375 -3.4627943 -0.04140494 -3.3907487 -30.302118 -87.367424
2731468750 -30.941725 -82.194946 -0.063820712 -3.475013 -0.041472953 -3.4183962 -30.237173 -87.583199
2752403125 -30.865759 -82.859192 -0.061756875 -3.5033495 -0.041074887 -3.4445305 -30.190626 -88.003769
2773337500 -30.814629 -83.246048 -0.061425857 -3.5296857 -0.042476274 -3.4734826 -30.135542 -87.65332
2794271875 -30.768312 -82.638885 -0.064281069 -3.5590241 -0.041437414 -3.4952352 -30.033993 -87.853729
2815206250 -30.656561 -83.158241 -0.062503599 -3.578516 -0.041501198 -3.5235791 -29.991074 -88.179337
2836140625 -30.627899 -82.641312 -0.065885141 -3.6104667 -0.042298958 -3.5481961 -29.959831 -88.080803
2857075000 -30.536583 -82.918571 -0.064679675 -3.6291804 -0.042103034 -3.5709069 -29.87719 -88.100479
2878009375 -30.434767 -83.500565 -0.062666766 -3.648469 -0.04336274 -3.59548 -29.814962 -87.995735
2898943750 -30.392721 -83.574417 -0.063101426 -3.6776621 -0.042353448 -3.621439 -29.70438 -88.308311
2919878125 -30.343012 -83.443237 -0.064928114 -3.7065568 -0.042450175 -3.6497684 -29.668491 -88.57402
2940812500 -30.287718 -83.575096 -0.064084329 -3.7281735 -0.043256439 -3.6745107 -29.628223 -88.374138
2961746875 -30.202744 -83.932518 -0.062442757 -3.7487006 -0.043424267 -3.6977398 -29.561357 -88.439926
2982681250 -30.158833 -83.945389 -0.06308946 -3.7752039 -0.043478616 -3.7204351 -29.502424 -88.354027
3003615625 -30.086508 -83.695831 -0.064661905 -3.8011148 -0.043291468 -3.7445257 -29.403227 -88.671501
3024550000 -30.052282 -83.76741 -0.064621545 -3.8306975 -0.043865852 -3.7759001 -29.371109 -88.799385
3045484375 -29.983871 -83.586975 -0.064422995 -3.8517449 -0.044370469 -3.7978511 -29.325441 -88.583214
3066418750 -29.859089 -83.760376 -0.064046934 -3.8711784 -0.043306548 -3.8222401 -29.234749 -88.850418
3087353125 -29.816206 -83.715256 -0.065214984 -3.9022284 -0.044391114 -3.850625 -29.19212 -88.781433
3108287500 -29.779619 -84.202827 -0.064351372 -3.9296277 -0.044574864 -3.8755245 -29.145113 -88.976028
3129221875 -29.731426 -84.115967 -0.064521313 -3.9536004 -0.045724202 -3.9010689 -29.096001 -88.961586
3150156250 -29.64263 -83.273178 -0.06823571 -3.9800708 -0.044799 -3.9271019 -29.01683 -89.052612
3171090625 -29.512123 -84.1091 -0.06502746 -3.9946036 -0.045319512 -3.9527903 -28.952679 -89.191368
3192025000 -29.476665 -84.321564 -0.065213092 -4.027267 -0.045320731 -3.9791791 -28.905952 -89.258263
3212959375 -29.423241 -84.618324 -0.063783891 -4.0491223 -0.046129338 -4.0024676 -28.862391 -89.149231
3233893750 -29.389273 -83.697784 -0.069338411 -4.0833316 -0.045533027 -4.028204 -28.778332 -89.392853
3254828125 -29.322556 -84.013832 -0.068505488 -4.1044054 -0.045259774 -4.0547872 -28.748764 -89.857658
3275762500 -29.207525 -84.058212 -0.067808352 -4.1215653 -0.047372032 -4.0797644 -28.720528 -89.456902
3296696875 -29.137144 -84.525711 -0.066802703 -4.1499333 -0.04657694 -4.1030846 -28.616522 -89.582733
3317631250 -29.085218 -84.456139 -0.067629538 -4.1762648 -0.046874359 -4.1291585 -28.553566 -89.527695
3338565625 -29.039743 -84.046753 -0.071228817 -4.2081752 -0.046461366 -4.1549883 -28.461302 -89.626732
3359500000 -28.951843 -84.685966 -0.068096094 -4.2230406 -0.0476184 -4.1846476 -28.442898 -90.005455
3380434375 -28.847891 -84.759956 -0.067961536 -4.2453318 -0.048307881 -4.2045121 -28.421812 -89.838295
3401368750 -28.81826 -85.134529 -0.068105578 -4.2779727 -0.047837555 -4.2304277 -28.333282 -90.136551
3422303125 -28.828178 -84.671944 -0.071089804 -4.3102889 -0.04875318 -4.2562351 -28.301989 -90.182701
3443237500 -28.727613 -84.664345 -0.070793748 -4.3249502 -0.048979316 -4.2770476 -28.212172 -89.890343
3464171875 -28.627043 -85.138351 -0.069198973 -4.3471217 -0.048230279 -4.3075929 -28.126795 -90.218643
3485106250 -28.594194 -85.375282 -0.06954433 -4.3743386 -0.04870189 -4.3355622 -28.101416 -90.438797
3506040625 -28.563734 -85.467796 -0.07006219 -4.4028912 -0.050032344 -4.3593979 -28.078804 -90.638237
3526975000 -28.524366 -85.610237 -0.07024812 -4.4244461 -0.050825391 -4.3793931 -28.073284 -90.530159
3547909375 -28.428684 -85.76017 -0.069893323 -4.4436727 -0.04997367 -4.4028931 -27.970703 -90.474953
3568843750 -28.425676 -85.488396 -0.072559923 -4.4783292 -0.050757498 -4.4322915 -27.881809 -90.827553
3589778125 -28.363466 -85.250252 -0.074134208 -4.4967294 -0.052287463 -4.4571652 -27.87536 -90.835335
3610712500 -28.266838 -85.609261 -0.073222965 -4.5198579 -0.051519688 -4.477529 -27.818253 -90.643524
3631646875 -28.261749 -86.017197 -0.072484262 -4.5474148 -0.052894857 -4.5059924 -27.761726 -90.750473
3652581250 -28.228775 -85.854141 -0.073117837 -4.5712543 -0.052560862 -4.5258579 -27.766973 -91.096672
3673515625 -28.174953 -85.750755 -0.073123075 -4.5924659 -0.053257011 -4.5474348 -27.735872 -90.779724
3694450000 -28.060591 -85.8965 -0.072346203 -4.6120486 -0.052568637 -4.5742841 -27.640944 -90.798378
3715384375 -28.000395 -86.595367 -0.070418365 -4.6378498 -0.052504417 -4.6000133 -27.562756 -90.873062
3736318750 -27.989475 -86.643188 -0.071458317 -4.6660047 -0.052857824 -4.6334248 -27.495937 -91.107605
3757253125 -27.95373 -85.887421 -0.076014742 -4.6963291 -0.05440595 -4.653666 -27.512953 -91.142357
3778187500 -27.87051 -86.598183 -0.072921731 -4.7150698 -0.053395759 -4.6704826 -27.458368 -90.900223
3799121875 -27.851719 -86.429771 -0.074052691 -4.7395287 -0.053829432 -4.6975093 -27.403042 -91.112442
3820056250 -27.752531 -86.253571 -0.075037278 -4.760076 -0.053827025 -4.7186766 -27.355421 -91.041298
3840990625 -27.744516 -86.751549 -0.074652597 -4.7915239 -0.053226687 -4.7511268 -27.254786 -91.242065
3861925000 -27.729891 -86.090981 -0.078838855 -4.8199968 -0.054729074 -4.7728586 -27.231817 -91.54348
3882859375 -27.670553 -85.626762 -0.082146823 -4.8465447 -0.054240923 -4.7902861 -27.198483 -91.172737
3903793750 -27.61985 -86.394356 -0.078254633 -4.8677173 -0.054174386 -4.8201628 -27.128101 -91.184258
3924728125 -27.558777 -86.922646 -0.075287245 -4.8875585 -0.054714561 -4.846138 -27.08573 -91.269478
3945662500 -27.535715 -86.884384 -0.076066472 -4.9137058 -0.054545235 -4.8712873 -27.035038 -91.423286
3966596875 -27.458134 -86.928581 -0.075398341 -4.9292703 -0.055073176 -4.8951621 -26.998243 -91.54406
