!Keysight Technologies,N5227A,US51270248,A.10.65.08
!Date: Tuesday, June 11, 2024 08:03:50
!Correction: S11(Full 2 Port(1,4)) 
!S41(Full 2 Port(1,4)) 
!S14(Full 2 Port(1,4)) 
!S44(Full 2 Port(1,4)) 
!S2P File: Measurements: S11, S41, S14, S44:
# Hz S  dB   R 50
10000000 -0.39728406 179.54628 -74.618118 41.824612 -74.232712 67.71106 -0.05252089 -0.32083932
30934375 -0.41628104 179.64452 -70.988922 86.057411 -70.900887 75.308731 -0.037007898 -0.99924028
51868750 -0.41265333 179.48697 -66.097412 90.534081 -65.335312 62.640179 -0.13900419 -1.6352028
72803125 -0.41096619 179.2738 -63.314468 93.133583 -62.808292 68.621277 -0.16639121 -2.2726698
93737500 -0.4092072 179.05582 -61.134907 95.326538 -60.969433 75.909538 -0.17107964 -2.896548
114671875 -0.40997058 178.84856 -59.327686 97.365341 -59.332054 81.182755 -0.17549302 -3.5262272
135606250 -0.41387689 178.68004 -57.82106 98.951141 -57.949596 85.901703 -0.17747904 -4.1661639
156540625 -0.41632408 178.53302 -56.519867 100.896 -56.761795 89.573601 -0.17968455 -4.8093467
177475000 -0.4153814 178.34047 -55.327835 102.71443 -55.520058 91.672264 -0.19558646 -5.4250684
198409375 -0.41744784 178.11676 -54.197121 103.92804 -54.469803 94.334946 -0.19806936 -6.0276237
219343750 -0.42221388 177.91225 -53.257175 105.12933 -53.492203 96.494293 -0.20184354 -6.6505299
240278125 -0.42408702 177.73816 -52.415691 106.47756 -52.607933 98.802872 -0.20937069 -7.2947564
261212500 -0.42358258 177.56952 -51.536568 107.67713 -51.788136 100.50486 -0.22021887 -7.919548
282146875 -0.4247506 177.39078 -50.729324 109.05554 -51.012661 102.24006 -0.22438584 -8.5562601
303081250 -0.42893481 177.21461 -49.942005 109.98933 -50.228371 103.98504 -0.23012894 -9.1787634
324015625 -0.43154347 177.04701 -49.286358 110.59856 -49.568947 105.1657 -0.23401862 -9.778223
344950000 -0.43335482 176.84583 -48.644726 111.86108 -48.883125 106.87389 -0.23742101 -10.375798
365884375 -0.43435863 176.66527 -47.999077 112.99263 -48.247482 108.26035 -0.24346039 -10.990131
386818750 -0.43292275 176.49585 -47.322567 113.97836 -47.61433 109.58671 -0.25229719 -11.615502
407753125 -0.43213227 176.32726 -46.746498 114.77538 -47.009388 110.66575 -0.26114359 -12.227289
428687500 -0.43304342 176.14131 -46.179447 115.34851 -46.427681 111.69138 -0.26244193 -12.834519
449621875 -0.43734261 175.95329 -45.646069 116.12531 -45.888283 112.64794 -0.26884559 -13.460325
470556250 -0.43939775 175.77205 -45.117371 116.81852 -45.366951 113.55373 -0.27567005 -14.060435
491490625 -0.43974724 175.58385 -44.606056 117.58211 -44.844658 114.44368 -0.28421175 -14.651888
512425000 -0.43985772 175.39711 -44.109238 118.20422 -44.331703 115.29826 -0.2917344 -15.258041
533359375 -0.44234321 175.21649 -43.597851 118.72113 -43.838707 116.04369 -0.30000931 -15.870131
554293750 -0.44398943 175.05013 -43.151329 119.47015 -43.355961 116.77122 -0.30908194 -16.47929
575228125 -0.44554931 174.87294 -42.669407 119.86119 -42.884289 117.465 -0.31636974 -17.080868
596162500 -0.44776213 174.68604 -42.236012 120.37102 -42.436897 118.01006 -0.3222093 -17.673855
617096875 -0.44985169 174.49702 -41.807484 120.70972 -42.000103 118.43121 -0.32958299 -18.27356
638031250 -0.45060298 174.31987 -41.398323 121.4146 -41.590672 119.14755 -0.33932358 -18.867809
658965625 -0.45209378 174.14339 -40.980633 121.75424 -41.182629 119.78896 -0.34771639 -19.458914
679900000 -0.45406154 173.96901 -40.561352 122.23215 -40.760277 120.15853 -0.355921 -20.060419
700834375 -0.45701769 173.7959 -40.177147 122.39127 -40.393234 120.67428 -0.36516353 -20.656073
721768750 -0.45668989 173.61809 -39.802734 122.97197 -39.977379 121.31586 -0.37575722 -21.239059
742703125 -0.45680463 173.43048 -39.422699 123.31497 -39.572338 121.67828 -0.38278937 -21.803413
763637500 -0.45757359 173.24631 -39.057526 123.56755 -39.214336 121.91568 -0.38938123 -22.389645
784571875 -0.45884511 173.07312 -38.658508 123.49415 -38.886219 122.19976 -0.39953256 -22.979794
805506250 -0.45972365 172.90318 -38.336315 124.13376 -38.554649 122.86803 -0.40799436 -23.559151
826440625 -0.46066383 172.72678 -37.944984 124.55338 -38.127941 123.35896 -0.41687194 -24.144091
847375000 -0.46264881 172.54243 -37.567657 124.55486 -37.757275 123.40432 -0.4291428 -24.722258
868309375 -0.46297839 172.35727 -37.247803 124.63297 -37.44017 123.51006 -0.43991643 -25.283089
889243750 -0.46143657 172.16501 -36.935326 124.86311 -37.105183 123.73027 -0.44899127 -25.846001
910178125 -0.46542761 171.98401 -36.619808 125.11607 -36.782684 123.92085 -0.45688277 -26.423811
931112500 -0.46758637 171.81825 -36.306206 125.19599 -36.479073 124.02975 -0.46597683 -26.994431
952046875 -0.46960914 171.64433 -35.990261 125.34566 -36.169067 124.28075 -0.475151 -27.557262
972981250 -0.47017366 171.45245 -35.696182 125.50347 -35.83786 124.473 -0.48443416 -28.122496
993915625 -0.47296685 171.26242 -35.38607 125.68335 -35.535034 124.59435 -0.49599138 -28.6863
1014850000 -0.47321656 171.08829 -35.078075 125.56677 -35.232864 124.55657 -0.5077495 -29.251656
1035784375 -0.47289199 170.91234 -34.824188 125.6614 -34.962318 124.6422 -0.51654738 -29.817389
1056718750 -0.47544515 170.7319 -34.530308 125.83174 -34.665936 124.90695 -0.5254904 -30.380917
1077653125 -0.47887951 170.55545 -34.228966 125.67912 -34.367123 124.93248 -0.53375727 -30.937353
1098587500 -0.4825322 170.38333 -33.954742 125.64787 -34.096474 124.81236 -0.54304779 -31.476952
1119521875 -0.48324034 170.19904 -33.675465 125.45308 -33.829838 124.84248 -0.55392313 -32.026291
1140456250 -0.48494089 170.00302 -33.433361 125.66492 -33.57452 124.92412 -0.56612647 -32.574684
1161390625 -0.48440522 169.82706 -33.180698 125.73405 -33.300495 124.94558 -0.57780069 -33.122608
1182325000 -0.48476443 169.65741 -32.916805 125.71941 -33.022987 124.83485 -0.58580059 -33.675034
1203259375 -0.48748332 169.48189 -32.662399 125.72038 -32.767246 124.5582 -0.59434462 -34.22583
1224193750 -0.48959851 169.29919 -32.411179 125.5852 -32.536404 124.61956 -0.60273951 -34.77108
1245128125 -0.49213976 169.11343 -32.187088 125.5399 -32.298965 124.60001 -0.61445099 -35.300137
1266062500 -0.49159899 168.92831 -31.936501 125.43182 -32.069714 124.56853 -0.62649065 -35.835144
1286996875 -0.49111098 168.73851 -31.709698 125.31117 -31.830164 124.51327 -0.63826728 -36.377731
1307931250 -0.4903045 168.55754 -31.493359 125.34381 -31.602175 124.43864 -0.64906055 -36.923626
1328865625 -0.49353921 168.38794 -31.258154 125.29942 -31.377068 124.41616 -0.65831769 -37.463295
1349800000 -0.49681029 168.21953 -31.045582 125.20761 -31.138214 123.92696 -0.66810977 -37.987148
1370734375 -0.49740478 168.02882 -30.815767 125.1221 -30.938179 123.88668 -0.67846537 -38.51123
1391668750 -0.49913013 167.83197 -30.610065 125.0283 -30.723824 124.07584 -0.69051719 -39.035717
1412603125 -0.50040209 167.64377 -30.394199 124.93651 -30.497589 123.90916 -0.70225346 -39.555721
1433537500 -0.50088006 167.46571 -30.177488 124.78191 -30.294289 123.91219 -0.71345639 -40.091961
1454471875 -0.50208831 167.29372 -29.983324 124.62262 -30.057951 123.51801 -0.72395092 -40.623249
1475406250 -0.50710469 167.12296 -29.775309 124.49786 -29.8762 123.40221 -0.73365718 -41.145058
1496340625 -0.51101589 166.94919 -29.566061 124.21523 -29.680197 123.44358 -0.74316329 -41.649582
1517275000 -0.51482433 166.75923 -29.380659 124.2357 -29.483858 123.43832 -0.75385362 -42.148533
1538209375 -0.51380807 166.55615 -29.175333 124.14729 -29.286087 123.38834 -0.76549387 -42.662582
1559143750 -0.51611936 166.36569 -28.992598 123.95699 -29.081614 123.26317 -0.77673799 -43.175514
1580078125 -0.51800543 166.19315 -28.815844 123.94649 -28.903784 123.11517 -0.78678715 -43.698906
1601012500 -0.52213037 166.02654 -28.620953 123.80568 -28.707451 122.95809 -0.79618019 -44.220768
1621946875 -0.52490097 165.85094 -28.43811 123.66186 -28.525326 122.77354 -0.80706596 -44.726292
1642881250 -0.52700108 165.66241 -28.248419 123.60606 -28.356792 122.69321 -0.81861532 -45.207493
1663815625 -0.52893323 165.47153 -28.071684 123.41745 -28.174906 122.58686 -0.82943559 -45.693775
1684750000 -0.52960426 165.27721 -27.890604 123.19167 -27.991772 122.36726 -0.84117359 -46.197418
1705684375 -0.5315088 165.10083 -27.730509 123.00709 -27.813671 122.08022 -0.85355812 -46.709667
1726618750 -0.53566808 164.93846 -27.564234 123.01087 -27.649326 122.02553 -0.86374289 -47.210907
1747553125 -0.53880262 164.77409 -27.379635 122.91152 -27.475443 121.80347 -0.87551409 -47.701832
1768487500 -0.55976844 164.59836 -27.205647 122.66003 -27.307158 121.4445 -0.88680625 -48.180367
1789421875 -0.56005204 164.41391 -27.049217 122.46191 -27.150265 121.35469 -0.89822602 -48.651604
1810356250 -0.56068832 164.23286 -26.886608 122.36404 -26.990164 121.30331 -0.90952104 -49.136353
1831290625 -0.55926663 164.06007 -26.723629 122.18327 -26.820105 121.2888 -0.92014855 -49.629402
1852225000 -0.56094128 163.89682 -26.55509 122.04327 -26.654148 121.06464 -0.93069351 -50.121868
1873159375 -0.56400818 163.74106 -26.396492 121.76859 -26.496929 120.87786 -0.94092017 -50.600182
1894093750 -0.56543523 163.56891 -26.246244 121.64534 -26.328613 120.74006 -0.95180708 -51.07394
1915028125 -0.56800735 163.3839 -26.084505 121.43314 -26.200432 120.4651 -0.96341634 -51.5457
1935962500 -0.57060319 163.19783 -25.942286 121.2287 -26.048311 120.47939 -0.97498035 -52.013
1956896875 -0.57477885 163.02765 -25.782757 120.98894 -25.878176 120.25283 -0.98478204 -52.485775
1977831250 -0.57743382 162.87453 -25.64584 120.57999 -25.730764 119.93851 -0.99411947 -52.965061
1998765625 -0.5801869 162.7178 -25.52211 120.52574 -25.599901 119.72289 -1.0037143 -53.439598
2019700000 -0.58098495 162.54819 -25.376192 120.43193 -25.47061 119.39466 -1.0153068 -53.89782
2040634375 -0.58017385 162.37012 -25.231232 120.2713 -25.321209 119.4219 -1.0257816 -54.351101
2061568750 -0.58004034 162.18419 -25.093115 120.15452 -25.177542 119.21729 -1.0367273 -54.811779
2082503125 -0.58121341 162.00362 -24.958303 119.95914 -25.050159 119.13272 -1.047249 -55.28043
2103437500 -0.58147925 161.83592 -24.824558 119.79114 -24.914612 118.94742 -1.0566967 -55.742218
2124371875 -0.58092624 161.67348 -24.688459 119.72025 -24.788198 118.80669 -1.0652797 -56.204037
2145306250 -0.57933593 161.49574 -24.548746 119.52937 -24.645035 118.71722 -1.075551 -56.655602
2166240625 -0.58201063 161.30185 -24.419773 119.41241 -24.508194 118.50272 -1.0873737 -57.094009
2187175000 -0.58078003 161.1129 -24.268162 118.96041 -24.378414 118.31427 -1.0982037 -57.53326
2208109375 -0.57957071 160.93158 -24.139643 118.96888 -24.259579 118.10852 -1.110052 -57.988758
2229043750 -0.57632828 160.74487 -23.998796 118.78976 -24.125931 118.0547 -1.1200643 -58.451843
2249978125 -0.57778251 160.55896 -23.873398 118.57364 -23.987871 117.84689 -1.1296347 -58.897152
2270912500 -0.58213931 160.37952 -23.745977 118.40385 -23.854971 117.69129 -1.139062 -59.331547
2291846875 -0.58300185 160.19412 -23.62606 118.20775 -23.730013 117.4303 -1.1492815 -59.76561
2312781250 -0.58397752 160.00168 -23.504177 118.0918 -23.62219 117.28471 -1.1617252 -60.201546
2333715625 -0.58646303 159.80888 -23.372612 117.88942 -23.495583 117.10157 -1.1742957 -60.642818
2354650000 -0.58981127 159.64165 -23.255653 117.66674 -23.378767 116.90407 -1.1841521 -61.09174
2375584375 -0.589966 159.47589 -23.135199 117.51897 -23.250032 116.85932 -1.1929162 -61.537109
2396518750 -0.59136105 159.29715 -23.01404 117.3688 -23.124043 116.6466 -1.2008694 -61.966019
2417453125 -0.59523922 159.11028 -22.895023 117.20069 -23.011602 116.55483 -1.2097389 -62.381729
2438387500 -0.59722173 158.91548 -22.770718 116.99155 -22.868338 116.44623 -1.2193943 -62.801849
2459321875 -0.59894234 158.71889 -22.639326 116.49712 -22.750456 116.01623 -1.2305324 -63.228394
2480256250 -0.60025811 158.53502 -22.519018 115.87763 -22.647118 115.88524 -1.2403302 -63.665367
2501190625 -0.60217494 158.36539 -22.398533 115.80103 -22.539898 115.744 -1.2480732 -64.105888
2522125000 -0.60494393 158.18719 -22.297979 115.68903 -22.41674 115.68278 -1.2567189 -64.525436
2543059375 -0.60749859 157.99298 -22.186409 115.56748 -22.281071 115.33901 -1.2649953 -64.92601
2563993750 -0.61044914 157.80061 -22.069983 115.45107 -22.182726 115.12485 -1.2730898 -65.332253
2584928125 -0.61228186 157.6075 -21.954803 115.25953 -22.064331 114.89242 -1.284945 -65.750397
2605862500 -0.61108309 157.41551 -21.84116 115.03601 -21.964575 114.64079 -1.2952795 -66.179657
2626796875 -0.6128971 157.23012 -21.730513 114.82846 -21.865009 114.47337 -1.3052489 -66.605621
2647731250 -0.61508638 157.05396 -21.620441 114.57938 -21.759241 114.38865 -1.3131088 -67.028008
2668665625 -0.61915612 156.87535 -21.523516 114.36946 -21.639769 114.22878 -1.3210572 -67.435852
2689600000 -0.6212008 156.67935 -21.423742 114.21234 -21.527554 113.86453 -1.3309475 -67.822052
2710534375 -0.62418336 156.48447 -21.319059 114.12114 -21.446194 113.66 -1.340906 -68.222336
2731468750 -0.62609482 156.30254 -21.191174 113.91431 -21.347439 113.55025 -1.3508745 -68.641182
2752403125 -0.62812155 156.12349 -21.090683 113.4983 -21.236244 113.49199 -1.3598424 -69.06189
2773337500 -0.63161296 155.9514 -21.002676 113.3943 -21.121914 113.21188 -1.3672757 -69.480309
2794271875 -0.63570762 155.78476 -20.900412 113.21279 -21.04283 112.93793 -1.3758733 -69.889481
2815206250 -0.64059711 155.60605 -20.797468 113.05774 -20.937025 112.88509 -1.3859814 -70.276253
2836140625 -0.64215499 155.40611 -20.700788 112.85495 -20.815269 112.56216 -1.3962594 -70.660614
2857075000 -0.64547896 155.21078 -20.592857 112.63508 -20.722433 112.38736 -1.4036603 -71.05912
2878009375 -0.64844865 155.04289 -20.489479 112.32137 -20.621483 112.15387 -1.4120393 -71.478905
2898943750 -0.64902818 154.88153 -20.399199 112.14725 -20.544748 111.92759 -1.4225301 -71.887375
2919878125 -0.65287542 154.69881 -20.306179 112.00983 -20.437817 111.91671 -1.4298269 -72.275505
2940812500 -0.65713418 154.50491 -20.209896 111.81314 -20.326538 111.61691 -1.4370435 -72.654892
2961746875 -0.66083091 154.3203 -20.110262 111.56381 -20.232405 111.41013 -1.4457906 -73.033714
2982681250 -0.66046685 154.12642 -20.020407 111.42242 -20.136574 111.01895 -1.4570268 -73.412033
3003615625 -0.66071564 153.92929 -19.921955 111.18051 -20.06428 110.68919 -1.4676974 -73.794792
3024550000 -0.66223168 153.74583 -19.840853 110.93027 -19.953766 110.63148 -1.4749607 -74.198845
3045484375 -0.66534394 153.57416 -19.74477 110.84161 -19.85783 110.21124 -1.4823985 -74.597137
3066418750 -0.66735721 153.39645 -19.644249 110.5843 -19.785763 109.9683 -1.4926647 -74.971481
3087353125 -0.67059261 153.19806 -19.560369 110.29044 -19.690407 109.89115 -1.5010898 -75.326073
3108287500 -0.67468703 152.99092 -19.486094 110.10574 -19.594835 109.69276 -1.5099392 -75.691261
3129221875 -0.6764493 152.79205 -19.39768 110.00139 -19.504442 109.46351 -1.5197235 -76.080276
3150156250 -0.67682862 152.60526 -19.294752 109.79198 -19.427509 109.23434 -1.5270672 -76.472946
3171090625 -0.68069351 152.43065 -19.202721 109.48343 -19.346281 109.04949 -1.5344528 -76.860458
3192025000 -0.68577588 152.26274 -19.134813 109.15676 -19.256226 108.85601 -1.542068 -77.230446
3212959375 -0.68892777 152.07945 -19.054277 109.0483 -19.171556 108.56635 -1.5518339 -77.586113
3233893750 -0.69159955 151.86826 -18.966286 108.83559 -19.109722 108.44879 -1.5606529 -77.943336
3254828125 -0.69404447 151.66232 -18.8841 108.7114 -19.010338 108.41283 -1.56959 -78.31044
3275762500 -0.69898587 151.47917 -18.785929 108.44794 -18.909489 108.01984 -1.5770676 -78.696999
3296696875 -0.70238382 151.31055 -18.717159 108.16042 -18.851482 107.7534 -1.584779 -79.069527
3317631250 -0.70770621 151.13879 -18.63965 108.02455 -18.770151 107.55766 -1.5910265 -79.435005
3338565625 -0.71228683 150.95308 -18.560005 107.78698 -18.718908 107.32558 -1.5989319 -79.786766
3359500000 -0.71626151 150.74452 -18.477781 107.66742 -18.623222 107.29041 -1.608453 -80.13134
3380434375 -0.72002494 150.53139 -18.387175 107.40054 -18.525181 106.94278 -1.617063 -80.487228
3401368750 -0.72438639 150.33835 -18.329538 107.13692 -18.470356 106.83829 -1.6242545 -80.860329
3422303125 -0.72713697 150.16925 -18.258814 107.04463 -18.372883 106.67301 -1.6317021 -81.227188
3443237500 -0.73119122 149.99803 -18.166559 106.8847 -18.317417 106.27665 -1.6378847 -81.582741
3464171875 -0.7360388 149.815 -18.08157 106.6116 -18.26033 106.21103 -1.6448945 -81.928833
3485106250 -0.74243855 149.61232 -18.017515 106.35696 -18.179874 106.13619 -1.6529559 -82.264473
3506040625 -0.75306815 149.41457 -17.958221 106.19129 -18.087717 106.0918 -1.6620629 -82.607315
3526975000 -0.7529251 149.22324 -17.879848 106.12 -17.980364 105.76998 -1.6702803 -82.957054
3547909375 -0.75369954 149.05531 -17.790504 105.89771 -17.939157 105.38902 -1.6767073 -83.328918
3568843750 -0.75586927 148.9023 -17.725767 105.72537 -17.877726 105.42976 -1.6815125 -83.682091
3589778125 -0.76045609 148.737 -17.632219 105.55424 -17.779222 105.27831 -1.687547 -84.020508
3610712500 -0.76350123 148.55069 -17.559322 105.18774 -17.709412 104.87595 -1.6960279 -84.345947
3631646875 -0.76624173 148.35231 -17.50621 105.06918 -17.65085 104.87054 -1.7043598 -84.671638
3652581250 -0.77095187 148.14764 -17.430845 104.9458 -17.544216 104.77666 -1.7125518 -85.014915
3673515625 -0.77269918 147.96271 -17.346052 104.77145 -17.459328 104.35047 -1.7201432 -85.380219
3694450000 -0.77523601 147.8083 -17.257765 104.50047 -17.41353 104.09052 -1.7273686 -85.734184
3715384375 -0.77714866 147.64883 -17.199175 104.20594 -17.354128 103.90951 -1.7325586 -86.064552
3736318750 -0.78006095 147.46573 -17.138861 104.0836 -17.293169 103.93871 -1.7378753 -86.377213
3757253125 -0.78564429 147.26109 -17.058111 103.87669 -17.182323 103.81089 -1.7450925 -86.700142
3778187500 -0.78946143 147.06117 -16.998171 103.59559 -17.108334 103.29953 -1.7538416 -87.039703
3799121875 -0.79222703 146.88118 -16.923752 103.55409 -17.057722 103.22038 -1.7618209 -87.378616
3820056250 -0.79372495 146.70668 -16.838795 103.2207 -16.98225 102.86555 -1.7683005 -87.720039
3840990625 -0.79507893 146.53987 -16.795864 103.007 -16.955507 102.8022 -1.7736452 -88.050186
3861925000 -0.79798359 146.35498 -16.716133 102.90613 -16.852856 102.80173 -1.7801064 -88.356575
3882859375 -0.80374014 146.14742 -16.644768 102.62962 -16.757133 102.36752 -1.7845688 -88.669724
3903793750 -0.80692661 145.94264 -16.583464 102.41992 -16.724993 102.14417 -1.7922007 -88.995468
3924728125 -0.80878508 145.74319 -16.528584 102.18236 -16.658018 102.00732 -1.8013004 -89.330597
3945662500 -0.81019753 145.5602 -16.463814 102.10528 -16.591022 101.8251 -1.8101606 -89.667023
3966596875 -0.81224942 145.379 -16.376036 101.88685 -16.51413 101.69144 -1.8145947 -89.989441
3987531250 -0.81726164 145.19685 -16.323687 101.54176 -16.445238 101.41238 -1.8186514 -90.299149
4008465625 -0.82175606 145.01215 -16.274151 101.46611 -16.389677 101.21262 -1.8235884 -90.59333
4029400000 -0.82700229 144.80862 -16.195045 101.3289 -16.318443 101.03973 -1.831239 -90.899719
4050334375 -0.83055204 144.60446 -16.127884 101.06968 -16.24679 100.76865 -1.8376572 -91.230766
4071268750 -0.83075953 144.41063 -16.065945 100.88785 -16.201799 100.61607 -1.8455462 -91.559975
4092203125 -0.83532137 144.23802 -16.004574 100.61839 -16.117472 100.4982 -1.8530002 -91.872559
4113137500 -0.8386212 144.06946 -15.948359 100.50446 -16.042282 100.11818 -1.8562797 -92.167892
4134071875 -0.84251016 143.89473 -15.869827 100.32764 -16.000584 99.942162 -1.8613718 -92.468826
4155006250 -0.84823155 143.69902 -15.808784 100.1044 -15.916698 99.699455 -1.8668017 -92.765228
4175940625 -0.85123467 143.49228 -15.734813 99.904007 -15.896465 99.433853 -1.8745579 -93.075508
4196875000 -0.8553437 143.31212 -15.682858 99.577408 -15.815637 99.484077 -1.8822609 -93.385887
4217809375 -0.8576656 143.12714 -15.638873 99.497292 -15.732222 99.011795 -1.8879038 -93.693985
