!Keysight Technologies,N5227A,US51270248,A.10.65.08
!Date: Tuesday, June 11, 2024 08:05:17
!Correction: S11(Full 2 Port(1,4)) 
!S41(Full 2 Port(1,4)) 
!S14(Full 2 Port(1,4)) 
!S44(Full 2 Port(1,4)) 
!S2P File: Measurements: S11, S41, S14, S44:
# Hz S  dB   R 50
10000000 -0.47396636 179.54326 -67.664482 15.056423 -61.609463 17.112984 -0.33748657 -0.31507844
30934375 -0.48621091 179.64494 -65.248726 41.897217 -61.549919 23.770636 -0.34403634 -0.96234721
51868750 -0.48193309 179.48647 -63.207649 57.271187 -60.519768 36.850418 -0.34822753 -1.5806857
72803125 -0.47804314 179.27274 -59.842709 65.993256 -59.348221 47.44841 -0.34941047 -2.2250252
93737500 -0.47634226 179.05527 -58.191994 72.525963 -58.206161 56.06916 -0.35416159 -2.8487425
114671875 -0.47980392 178.84822 -56.953762 77.479317 -57.054802 63.126038 -0.3595888 -3.4720073
135606250 -0.4878048 178.67973 -55.774204 81.654144 -55.966129 68.66703 -0.36325026 -4.1010294
156540625 -0.48793975 178.53444 -54.58374 83.176445 -54.960957 73.514221 -0.36583796 -4.7386737
177475000 -0.48535326 178.33954 -53.515053 85.501785 -53.957958 77.403908 -0.36847159 -5.3575816
198409375 -0.48720315 178.11644 -52.558666 87.564522 -53.085358 80.882706 -0.37029195 -5.9571648
219343750 -0.49146181 177.91164 -51.677639 89.352058 -52.257435 84.310616 -0.37376937 -6.5741091
240278125 -0.49288136 177.73776 -50.687939 91.162758 -51.378426 86.873169 -0.38068593 -7.2068334
261212500 -0.49193755 177.5683 -49.943527 92.874527 -50.63649 89.326958 -0.38756943 -7.8341427
282146875 -0.49901891 177.38921 -49.190273 94.696281 -49.890369 91.178566 -0.39262897 -8.4630041
303081250 -0.50127506 177.21622 -48.47234 96.223526 -49.172871 93.433708 -0.39702779 -9.0844355
324015625 -0.50162756 177.04834 -47.843288 97.242752 -48.549896 94.740898 -0.40158781 -9.6842241
344950000 -0.50282967 176.84637 -46.946793 97.898048 -47.950691 96.844734 -0.40512788 -10.279514
365884375 -0.50369203 176.66573 -46.439697 99.526543 -47.359943 98.545441 -0.41078109 -10.889471
386818750 -0.50293165 176.49644 -45.933865 100.90791 -46.769459 100.13963 -0.41828135 -11.512538
407753125 -0.50137568 176.32779 -45.376511 101.97692 -46.111397 101.09492 -0.42695642 -12.120163
428687500 -0.50212246 176.14267 -44.864872 102.83054 -45.625751 102.52477 -0.42860973 -12.726938
449621875 -0.50559187 175.95345 -44.397213 103.77843 -45.111412 103.70322 -0.43402609 -13.34788
470556250 -0.50813574 175.77235 -43.943657 104.94873 -44.627045 104.78043 -0.44134793 -13.944479
491490625 -0.50906032 175.5856 -43.531185 105.95924 -44.149311 105.91679 -0.44791642 -14.533673
512425000 -0.50872177 175.39902 -43.081829 106.63147 -43.654118 106.90664 -0.45410603 -15.135199
533359375 -0.51104534 175.21922 -42.649891 107.55047 -43.230576 107.88593 -0.46239784 -15.746745
554293750 -0.5125106 175.05307 -42.240143 108.24731 -42.768188 108.74755 -0.470072 -16.352966
575228125 -0.51463002 174.87674 -41.76796 108.81124 -42.304844 109.54611 -0.4765045 -16.948818
596162500 -0.51575905 174.68773 -41.37944 109.45753 -41.892567 110.19141 -0.48224753 -17.541397
617096875 -0.52019638 174.49936 -41.009937 110.22744 -41.510109 111.01682 -0.48972392 -18.138628
638031250 -0.52014792 174.32091 -40.582638 110.56179 -41.095711 111.69139 -0.5000329 -18.7299
658965625 -0.52155769 174.14513 -40.25478 111.57787 -40.693413 112.33698 -0.50822026 -19.316713
679900000 -0.52275991 173.9709 -39.858719 112.09865 -40.295731 112.82584 -0.51598758 -19.916164
700834375 -0.52896255 173.79855 -39.500519 112.48783 -39.973011 113.63799 -0.52481186 -20.510466
721768750 -0.52707464 173.61942 -39.048351 112.62595 -39.57103 114.3591 -0.53465253 -21.092348
742703125 -0.5269357 173.43196 -38.750042 113.30025 -39.188091 114.75699 -0.54167575 -21.654047
763637500 -0.52655447 173.24815 -38.436802 113.99163 -38.822243 114.96814 -0.54783881 -22.239161
784571875 -0.5289191 173.0751 -38.104404 114.34396 -38.506081 115.4876 -0.55653274 -22.8293
805506250 -0.52883053 172.90549 -37.803017 115.15041 -38.210434 116.25536 -0.56471467 -23.404453
826440625 -0.5297929 172.72946 -37.438953 115.66085 -37.799324 116.88153 -0.57298672 -23.987045
847375000 -0.53164285 172.54375 -37.108147 116.02397 -37.449795 117.04753 -0.5836367 -24.563692
868309375 -0.53185487 172.35999 -36.791248 116.15378 -37.149296 117.3191 -0.59463924 -25.121706
889243750 -0.53065753 172.16768 -36.484741 116.3864 -36.821873 117.59502 -0.60270691 -25.683504
910178125 -0.5333969 171.98566 -36.207809 116.84129 -36.503731 117.86604 -0.61045742 -26.259878
931112500 -0.53772938 171.82312 -35.907459 117.03331 -36.213444 118.13538 -0.61918223 -26.83
952046875 -0.54161298 171.64928 -35.60368 117.27873 -35.930199 118.58528 -0.62697583 -27.393511
972981250 -0.54062933 171.45633 -35.31628 117.5025 -35.60104 118.67276 -0.63623428 -27.957394
993915625 -0.54227585 171.26659 -34.998112 117.44121 -35.309185 118.87943 -0.64720988 -28.519749
1014850000 -0.54256159 171.09238 -34.723423 117.74358 -35.016045 119.02357 -0.65756351 -29.08408
1035784375 -0.54221892 170.91794 -34.470295 117.74296 -34.762127 119.1899 -0.66773558 -29.645863
1056718750 -0.54368359 170.73802 -34.210129 117.94537 -34.475636 119.5583 -0.67568219 -30.207088
1077653125 -0.54804033 170.56154 -33.970245 118.37812 -34.169796 119.49422 -0.68452686 -30.761929
1098587500 -0.55126625 170.38977 -33.616249 117.58714 -33.91996 119.60511 -0.6930213 -31.301737
1119521875 -0.55170602 170.20389 -33.404308 118.11673 -33.667549 119.79097 -0.70301139 -31.848694
1140456250 -0.5515728 170.00926 -33.149689 118.08638 -33.403625 119.78673 -0.71442312 -32.397251
1161390625 -0.55210906 169.83351 -32.898643 118.16425 -33.148888 119.98629 -0.72495884 -32.943794
1182325000 -0.55271167 169.66254 -32.65015 118.2481 -32.875256 119.99362 -0.73285717 -33.494591
1203259375 -0.55432361 169.48845 -32.394299 118.20644 -32.639996 119.95074 -0.74031222 -34.045612
1224193750 -0.55759043 169.30602 -32.176331 118.40392 -32.400272 119.82375 -0.74906749 -34.590416
1245128125 -0.56017435 169.12004 -31.963436 118.59532 -32.169216 119.89501 -0.75994176 -35.117016
1266062500 -0.56023228 168.93428 -31.745869 118.80976 -31.950325 119.97309 -0.77192861 -35.650272
1286996875 -0.55840158 168.74556 -31.522467 118.74097 -31.716961 120.02241 -0.7827282 -36.194103
1307931250 -0.55848813 168.56403 -31.286438 118.54279 -31.488146 119.93758 -0.79354477 -36.73901
1328865625 -0.56082112 168.39485 -31.091776 118.94445 -31.261179 119.87443 -0.80271482 -37.277477
1349800000 -0.56351388 168.22629 -30.873335 118.76725 -31.048157 119.80949 -0.81092632 -37.802097
1370734375 -0.56517947 168.03777 -30.672667 118.97678 -30.862028 119.92535 -0.82038426 -38.325676
1391668750 -0.56749856 167.84203 -30.462467 118.90962 -30.649752 119.95524 -0.83230591 -38.84684
1412603125 -0.56826913 167.6539 -30.258732 118.91191 -30.423304 119.92856 -0.84380567 -39.366241
1433537500 -0.56896597 167.47604 -30.058149 118.99494 -30.219303 119.88302 -0.85459918 -39.901291
1454471875 -0.57125592 167.30377 -29.850723 118.73528 -30.002558 119.84846 -0.86381131 -40.435162
1475406250 -0.57451642 167.13406 -29.662918 118.86568 -29.819525 119.66345 -0.87403172 -40.954861
1496340625 -0.57851934 166.95876 -29.469976 118.79637 -29.627577 119.74146 -0.88292825 -41.45969
1517275000 -0.58036745 166.76907 -29.277395 118.72747 -29.430082 119.72825 -0.89293993 -41.956135
1538209375 -0.58181673 166.56659 -29.086647 118.79037 -29.235399 119.66818 -0.90465522 -42.467216
1559143750 -0.58645612 166.37712 -28.903847 118.70432 -29.034273 119.58749 -0.91613632 -42.978828
1580078125 -0.58709931 166.20525 -28.720932 118.5943 -28.839844 119.18935 -0.92568976 -43.496841
1601012500 -0.59028459 166.03801 -28.539963 118.56209 -28.657904 119.22844 -0.93396705 -44.019909
1621946875 -0.59223181 165.86317 -28.364447 118.52679 -28.475151 119.0695 -0.94512308 -44.524223
1642881250 -0.59490877 165.67596 -28.177885 118.42388 -28.312469 119.04651 -0.95593047 -45.005375
1663815625 -0.59651893 165.48326 -28.005262 118.3105 -28.133427 118.98177 -0.96631181 -45.492645
1684750000 -0.59719872 165.29083 -27.813398 117.87096 -27.961859 118.9365 -0.97646594 -45.997818
1705684375 -0.59975779 165.11607 -27.632065 117.41286 -27.789589 118.80587 -0.98811162 -46.511642
1726618750 -0.60319483 164.95287 -27.49506 117.81324 -27.615665 118.59148 -0.99809194 -47.010357
1747553125 -0.60470784 164.78914 -27.317951 117.73405 -27.424067 117.97103 -1.010733 -47.497616
1768487500 -0.60835558 164.60799 -27.154974 117.69256 -27.280394 118.11987 -1.0202975 -47.978859
1789421875 -0.61023939 164.42276 -27.003523 117.68858 -27.124662 118.06071 -1.0316167 -48.448433
1810356250 -0.61258167 164.24577 -26.836172 117.44013 -26.967072 118.01187 -1.0423865 -48.934307
1831290625 -0.61548328 164.07451 -26.684904 117.50621 -26.787226 117.7412 -1.0532811 -49.42305
1852225000 -0.61976629 163.91444 -26.522247 117.36314 -26.632738 117.76271 -1.063074 -49.916077
1873159375 -0.62257057 163.7574 -26.359545 117.14074 -26.482891 117.76852 -1.0725485 -50.395432
1894093750 -0.6230318 163.58931 -26.208866 117.00249 -26.307917 117.51797 -1.0831981 -50.86594
1915028125 -0.6256023 163.3974 -26.036045 116.4802 -26.182203 117.27536 -1.094492 -51.337307
1935962500 -0.62783206 163.21043 -25.887749 116.22821 -26.035311 117.34194 -1.1056349 -51.80521
1956896875 -0.63088351 163.04332 -25.74077 116.19283 -25.868597 117.18404 -1.1146829 -52.27792
1977831250 -0.6340192 162.8894 -25.604887 115.95605 -25.723049 116.92359 -1.1229944 -52.757668
1998765625 -0.63390249 162.7323 -25.488794 116.06368 -25.588453 116.64606 -1.1321864 -53.230171
2019700000 -0.63676542 162.56171 -25.348576 115.91461 -25.471088 116.60564 -1.1419933 -53.690834
2040634375 -0.63641924 162.38216 -25.212614 115.96445 -25.321287 116.58966 -1.1526185 -54.14225
2061568750 -0.63742334 162.19893 -25.074738 115.86079 -25.175194 116.35617 -1.1629394 -54.603561
2082503125 -0.6379835 162.02007 -24.952406 115.95569 -25.047468 116.22588 -1.1726384 -55.071476
2103437500 -0.64012718 161.85411 -24.815897 115.68817 -24.915632 116.10111 -1.1811578 -55.534157
2124371875 -0.63982451 161.69252 -24.68121 115.65651 -24.791605 116.02905 -1.1888161 -55.995781
2145306250 -0.63833851 161.5163 -24.546997 115.5644 -24.64739 115.92547 -1.1988196 -56.445431
2166240625 -0.63896888 161.32173 -24.417311 115.44562 -24.510765 115.68401 -1.2110416 -56.880341
2187175000 -0.63815278 161.13184 -24.282589 115.34963 -24.377876 115.31654 -1.2226491 -57.31591
2208109375 -0.63616705 160.95175 -24.149509 115.18837 -24.261372 115.27707 -1.2324159 -57.776722
2229043750 -0.63470817 160.76312 -24.011173 115.0835 -24.131716 115.26636 -1.2426925 -58.241043
2249978125 -0.63718963 160.5759 -23.883137 114.81939 -23.992476 115.06651 -1.2516996 -58.68597
2270912500 -0.64170218 160.39581 -23.760458 114.7478 -23.863235 114.98972 -1.2598165 -59.119781
2291846875 -0.64616275 160.21021 -23.637981 114.51453 -23.736734 114.64992 -1.2702401 -59.551895
2312781250 -0.64745808 160.02124 -23.520542 114.44311 -23.631443 114.52587 -1.2821785 -59.985973
2333715625 -0.64857876 159.83255 -23.396597 114.37757 -23.503658 114.2438 -1.2946035 -60.426247
2354650000 -0.64877051 159.66322 -23.277384 114.16302 -23.383501 113.9045 -1.305173 -60.874634
2375584375 -0.65099847 159.49886 -23.161598 114.10146 -23.25185 113.78985 -1.3138708 -61.319447
2396518750 -0.65233213 159.31856 -23.042553 113.99197 -23.129599 113.65846 -1.3214868 -61.745575
2417453125 -0.65740371 159.1329 -22.922667 113.85277 -23.018049 113.6208 -1.3301489 -62.16048
2438387500 -0.65807903 158.93958 -22.802958 113.74566 -22.876461 113.55912 -1.3385413 -62.580292
2459321875 -0.65907747 158.73892 -22.672716 113.34619 -22.762526 113.23861 -1.3485966 -63.00732
2480256250 -0.66046345 158.55698 -22.567299 113.40347 -22.658346 113.01797 -1.3583857 -63.444221
2501190625 -0.66180331 158.38593 -22.441635 113.16577 -22.542027 112.52951 -1.3685517 -63.877037
2522125000 -0.66549855 158.21169 -22.336271 112.93674 -22.430222 112.81427 -1.3750381 -64.301392
2543059375 -0.67478019 158.02046 -22.226797 112.91969 -22.297548 112.54783 -1.3823001 -64.70446
2563993750 -0.67533046 157.82922 -22.110474 112.75639 -22.198982 112.33019 -1.3910694 -65.107857
2584928125 -0.67507809 157.63445 -21.999104 112.61207 -22.076952 112.04373 -1.4023839 -65.525223
2605862500 -0.67298079 157.44052 -21.887592 112.38398 -21.980122 111.8876 -1.4119006 -65.954285
2626796875 -0.67471325 157.25688 -21.773773 112.09008 -21.885286 111.8455 -1.4204298 -66.384232
2647731250 -0.67712277 157.08475 -21.671793 112.0414 -21.778845 111.73652 -1.4273325 -66.806862
2668665625 -0.68041331 156.90326 -21.568489 111.76024 -21.659054 111.58762 -1.4357935 -67.212891
2689600000 -0.68174964 156.70345 -21.471376 111.66167 -21.549654 111.33669 -1.4444659 -67.603867
2710534375 -0.68492633 156.50816 -21.369146 111.58144 -21.47101 111.15276 -1.4541905 -68.001213
2731468750 -0.68662757 156.32549 -21.247274 111.43256 -21.372866 111.05058 -1.4640013 -68.423515
2752403125 -0.69081789 156.15132 -21.147675 111.17035 -21.262318 110.97012 -1.472801 -68.842995
2773337500 -0.69195884 155.97731 -21.052155 110.94373 -21.150185 110.76746 -1.4802113 -69.262123
2794271875 -0.69837832 155.8085 -20.951218 110.8303 -21.069662 110.57701 -1.4873902 -69.670403
2815206250 -0.70286083 155.631 -20.850149 110.65804 -20.963547 110.4856 -1.4977415 -70.054939
2836140625 -0.70483857 155.43559 -20.751623 110.49585 -20.844688 110.26068 -1.5068736 -70.436302
2857075000 -0.70685977 155.24603 -20.648432 110.33361 -20.754559 110.08045 -1.5147164 -70.836243
2878009375 -0.70853722 155.07837 -20.546211 110.08254 -20.653957 109.87504 -1.5226101 -71.258347
2898943750 -0.70871252 154.91476 -20.455446 109.93183 -20.576614 109.66995 -1.5317773 -71.666443
2919878125 -0.71014386 154.72971 -20.360708 109.72652 -20.469893 109.63471 -1.5396096 -72.056526
2940812500 -0.71594226 154.53644 -20.265249 109.57426 -20.359501 109.3868 -1.5461364 -72.435738
2961746875 -0.71908277 154.34917 -20.16614 109.36398 -20.265411 109.18521 -1.5544473 -72.813408
2982681250 -0.72066718 154.15489 -20.074713 109.14604 -20.171076 108.89114 -1.5646602 -73.195862
3003615625 -0.72073585 153.95782 -19.977484 108.94207 -20.102789 108.75829 -1.5732266 -73.583778
3024550000 -0.72603536 153.7749 -19.896734 108.70943 -19.99132 108.69072 -1.579982 -73.986908
3045484375 -0.727548 153.60423 -19.801907 108.60661 -19.895023 108.29829 -1.5873718 -74.380653
3066418750 -0.72944242 153.42825 -19.701962 108.40747 -19.823805 108.04991 -1.5972235 -74.755836
3087353125 -0.72968978 153.22849 -19.617659 108.15591 -19.726543 108.01317 -1.6043491 -75.111961
3108287500 -0.73164022 153.0192 -19.539246 107.90285 -19.63221 107.8253 -1.6132982 -75.484009
3129221875 -0.733154 152.8219 -19.45269 107.80605 -19.540773 107.55476 -1.6227239 -75.871101
3150156250 -0.73582625 152.63724 -19.353224 107.65673 -19.462379 107.13397 -1.6324778 -76.258041
3171090625 -0.73946649 152.46939 -19.2624 107.36549 -19.382782 107.10067 -1.6371449 -76.64994
3192025000 -0.74614817 152.30568 -19.192318 107.12263 -19.292896 106.93574 -1.6438969 -77.019287
3212959375 -0.7522257 152.11797 -19.111853 107.02944 -19.209591 106.67178 -1.6532948 -77.374184
3233893750 -0.75307429 151.90877 -19.024208 106.83083 -19.148724 106.52738 -1.6624439 -77.732208
3254828125 -0.75383747 151.7037 -18.942505 106.6697 -19.050219 106.49608 -1.6711799 -78.097351
3275762500 -0.75733513 151.51599 -18.846363 106.32281 -18.948526 106.19684 -1.6771228 -78.486916
3296696875 -0.76204562 151.34848 -18.777039 106.172 -18.890156 105.93757 -1.6840042 -78.86441
3317631250 -0.76562184 151.17245 -18.698967 106.03826 -18.807615 105.56639 -1.6926262 -79.222939
3338565625 -0.77192712 150.98598 -18.620419 105.79909 -18.757803 105.48322 -1.6988957 -79.575989
3359500000 -0.77533495 150.77429 -18.538582 105.68519 -18.664316 105.49913 -1.7074238 -79.922668
3380434375 -0.77966732 150.5623 -18.447744 105.1187 -18.564812 105.22173 -1.7147934 -80.280754
3401368750 -0.78358656 150.37523 -18.387388 105.06572 -18.510185 104.99724 -1.7233005 -80.651314
3422303125 -0.78587246 150.20546 -18.316816 104.92399 -18.414598 104.88828 -1.7300149 -81.017166
3443237500 -0.78982502 150.03896 -18.226879 104.8617 -18.358377 104.58003 -1.7347559 -81.375587
3464171875 -0.7946763 149.85284 -18.142599 104.61986 -18.303093 104.53127 -1.7409924 -81.721336
3485106250 -0.80122912 149.65164 -18.076313 104.38113 -18.22287 104.46476 -1.7483763 -82.061058
3506040625 -0.80526614 149.45387 -18.015663 104.28366 -18.129982 104.37624 -1.7579318 -82.401146
3526975000 -0.80752611 149.26457 -17.938597 104.15941 -18.022869 104.0792 -1.7654446 -82.748894
3547909375 -0.80987191 149.09947 -17.852242 103.9492 -17.983009 103.69073 -1.7722452 -83.121056
3568843750 -0.810812 148.94691 -17.785431 103.83343 -17.923046 103.72908 -1.77694 -83.472038
3589778125 -0.81395423 148.78061 -17.695555 103.64581 -17.823889 103.60922 -1.7824663 -83.81086
3610712500 -0.81864822 148.59038 -17.621574 103.36319 -17.754736 103.30621 -1.7886324 -84.140312
3631646875 -0.82101262 148.38716 -17.566921 103.13284 -17.695488 103.25143 -1.797552 -84.464439
3652581250 -0.8243081 148.18665 -17.493351 103.05864 -17.589226 103.15294 -1.8065968 -84.809662
3673515625 -0.82724941 148.00194 -17.411186 102.89497 -17.502954 102.74175 -1.8127902 -85.175499
3694450000 -0.82958448 147.84593 -17.324509 102.64846 -17.457876 102.54022 -1.8194793 -85.531929
3715384375 -0.8320446 147.68903 -17.262854 102.44235 -17.398577 102.34752 -1.8243685 -85.864655
3736318750 -0.83612001 147.50429 -17.201542 102.30583 -17.338797 102.34959 -1.8300923 -86.174225
3757253125 -0.84215152 147.30002 -17.121767 102.15578 -17.228762 102.26525 -1.8367792 -86.495743
3778187500 -0.84665579 147.1032 -17.061813 101.91325 -17.153017 101.78555 -1.8446697 -86.838715
3799121875 -0.849958 146.92487 -16.988871 101.80679 -17.102909 101.70226 -1.852445 -87.180115
3820056250 -0.85056877 146.75197 -16.905157 101.56474 -17.026777 101.34348 -1.858971 -87.524323
3840990625 -0.85162193 146.58202 -16.859234 101.32101 -17.001987 101.27854 -1.8643855 -87.852692
3861925000 -0.85519791 146.4019 -16.781921 100.95116 -16.899767 101.33405 -1.8691999 -88.157509
3882859375 -0.86069363 146.19693 -16.70985 100.62564 -16.802664 100.84957 -1.8747329 -88.46714
3903793750 -0.86445874 145.98692 -16.647972 100.50464 -16.771652 100.64708 -1.8818343 -88.79493
3924728125 -0.86673808 145.78554 -16.590712 100.36788 -16.703594 100.55565 -1.8899795 -89.135948
3945662500 -0.86822796 145.60364 -16.525164 100.17496 -16.637232 100.40639 -1.897442 -89.47364
3966596875 -0.86897671 145.42419 -16.444473 99.630043 -16.560089 100.17543 -1.9036523 -89.787247
3987531250 -0.87448841 145.24211 -16.390575 99.461456 -16.492754 99.86879 -1.9080899 -90.094238
4008465625 -0.8789385 145.05481 -16.350439 98.137878 -16.436514 99.736359 -1.9113363 -90.392067
4029400000 -0.88430762 144.8542 -16.273556 97.975357 -16.364811 99.653427 -1.9168093 -90.700531
4050334375 -0.88711482 144.65558 -16.210403 97.996628 -16.29331 99.373634 -1.9238615 -91.030861
4071268750 -0.88850343 144.46167 -16.152657 95.989777 -16.249107 99.176102 -1.9322935 -91.357254
4092203125 -0.89411449 144.28575 -16.082275 96.011215 -16.164585 99.148956 -1.9380054 -91.673363
4113137500 -0.89653999 144.11929 -16.019691 96.542763 -16.088732 98.756401 -1.9418792 -91.969353
4134071875 -0.89982063 143.94345 -15.956092 95.61142 -16.047424 98.603516 -1.9463334 -92.271011
4155006250 -0.90531111 143.75034 -15.887917 95.712097 -15.964325 98.317963 -1.9523166 -92.565659
4175940625 -0.90921295 143.54205 -15.821211 96.05275 -15.944081 98.050873 -1.960422 -92.876488
4196875000 -0.91277874 143.36208 -15.770877 96.004166 -15.862828 98.146774 -1.9667271 -93.18586
4217809375 -0.91472679 143.18115 -15.715828 96.384277 -15.778442 97.667679 -1.9719336 -93.494064
