!Keysight Technologies,N5227A,US51270248,A.10.65.08
!Date: Tuesday, June 11, 2024 07:35:25
!Correction: S11(Full 2 Port(1,4)) 
!S41(Full 2 Port(1,4)) 
!S14(Full 2 Port(1,4)) 
!S44(Full 2 Port(1,4)) 
!S2P File: Measurements: S11, S41, S14, S44:
# Hz S  dB   R 50
10000000 -2.0626786 -0.30778125 -13.427615 0.87013859 -13.45156 1.019587 -2.0626278 -0.24436794
30934375 -2.0611174 -0.8540011 -13.394886 2.1985838 -13.407016 2.2496905 -2.0640302 -0.79644662
51868750 -2.0737236 -1.3545144 -13.396445 3.6534917 -13.394882 3.6677053 -2.0748205 -1.3091066
72803125 -2.082617 -1.7537459 -13.37155 5.2589688 -13.369533 5.2401476 -2.085443 -1.7059755
93737500 -2.0849905 -2.1557472 -13.322851 6.8231349 -13.317663 6.8005214 -2.0904279 -2.1077662
114671875 -2.0862238 -2.6049354 -13.259945 8.2916574 -13.250606 8.2488899 -2.0932455 -2.5485358
135606250 -2.0889854 -3.0946114 -13.191 9.6799679 -13.18189 9.6143503 -2.0976126 -3.0290697
156540625 -2.0966585 -3.5879352 -13.122749 11.022475 -13.113904 10.950413 -2.1046343 -3.5042529
177475000 -2.1044517 -4.0372491 -13.04723 12.383649 -13.041961 12.308547 -2.1120312 -3.947758
198409375 -2.1102087 -4.4589996 -12.959739 13.729791 -12.952813 13.647136 -2.1168821 -4.3628969
219343750 -2.1141303 -4.9000316 -12.860221 14.991015 -12.849155 14.90468 -2.1221004 -4.8036113
240278125 -2.1216843 -5.3731861 -12.758698 16.180641 -12.740376 16.083357 -2.1328185 -5.2655149
261212500 -2.1331241 -5.8442945 -12.655213 17.319353 -12.638723 17.229355 -2.1449835 -5.7296748
282146875 -2.143635 -6.2978683 -12.54967 18.456207 -12.531323 18.356792 -2.1549599 -6.1842804
303081250 -2.1511612 -6.7416654 -12.435765 19.554373 -12.417185 19.441135 -2.1640048 -6.6244168
324015625 -2.1601729 -7.1833339 -12.315516 20.595264 -12.298693 20.4846 -2.17154 -7.0562015
344950000 -2.1699514 -7.6189446 -12.193375 21.585106 -12.17536 21.459826 -2.180084 -7.4882345
365884375 -2.1805155 -8.0611639 -12.069127 22.519058 -12.053635 22.398489 -2.1916475 -7.9274983
386818750 -2.1935813 -8.5185366 -11.944043 23.414473 -11.929021 23.287073 -2.2054 -8.3716574
407753125 -2.2070379 -8.9698677 -11.819489 24.280943 -11.804012 24.159473 -2.2188041 -8.8039351
428687500 -2.2195923 -9.3992043 -11.689462 25.115549 -11.671895 24.986225 -2.2279305 -9.2384548
449621875 -2.2268877 -9.8296738 -11.55479 25.888828 -11.538625 25.748665 -2.238452 -9.6845551
470556250 -2.2389555 -10.279904 -11.422859 26.599276 -11.407614 26.468296 -2.2520585 -10.112617
491490625 -2.2543571 -10.715719 -11.292145 27.285782 -11.276623 27.160507 -2.2660072 -10.529235
512425000 -2.2683465 -11.136602 -11.160995 27.95447 -11.145016 27.835005 -2.2789392 -10.950942
533359375 -2.2818356 -11.568006 -11.025796 28.584541 -11.011843 28.460926 -2.2943311 -11.380797
554293750 -2.2954507 -12.005237 -10.893929 29.157675 -10.878576 29.036848 -2.3093135 -11.813147
575228125 -2.3094842 -12.436149 -10.76386 29.707249 -10.745843 29.578718 -2.3235528 -12.241198
596162500 -2.3245263 -12.860197 -10.631861 30.21969 -10.6157 30.086147 -2.337975 -12.659619
617096875 -2.3410466 -13.279531 -10.501449 30.702599 -10.48559 30.574581 -2.3535039 -13.075597
638031250 -2.3579967 -13.695517 -10.372496 31.161608 -10.356905 31.03373 -2.3713684 -13.488577
658965625 -2.3743496 -14.114141 -10.24286 31.59161 -10.226731 31.461391 -2.3882391 -13.900821
679900000 -2.3909433 -14.540657 -10.114689 31.983414 -10.100929 31.848507 -2.4049675 -14.324758
700834375 -2.4079292 -14.955907 -9.9895687 32.353653 -9.9770756 32.228706 -2.423449 -14.739241
721768750 -2.4269898 -15.363759 -9.8665705 32.707043 -9.8509283 32.583229 -2.4422426 -15.142599
742703125 -2.4458966 -15.755049 -9.7420988 33.052765 -9.7256775 32.91901 -2.45909 -15.531126
763637500 -2.4638147 -16.159201 -9.6186085 33.347641 -9.6026363 33.209354 -2.4755185 -15.936562
784571875 -2.481323 -16.575916 -9.4954128 33.633934 -9.4835529 33.481045 -2.4943497 -16.341702
805506250 -2.5000463 -16.991592 -9.3769388 33.891075 -9.3647289 33.759987 -2.5136418 -16.741264
826440625 -2.5199997 -17.393282 -9.2607346 34.132614 -9.2453642 33.99395 -2.5330548 -17.139338
847375000 -2.5395632 -17.786169 -9.1436586 34.369511 -9.1301088 34.214813 -2.5543053 -17.532364
868309375 -2.5624347 -18.179237 -9.0286989 34.566067 -9.0160923 34.434464 -2.575969 -17.911953
889243750 -2.5827923 -18.56472 -8.9134874 34.76017 -8.8993349 34.61948 -2.5949047 -18.292734
910178125 -2.6025271 -18.961491 -8.7991285 34.936428 -8.7871542 34.78278 -2.6144233 -18.688715
931112500 -2.6221998 -19.363831 -8.6871986 35.084385 -8.6777725 34.935505 -2.6351926 -19.070576
952046875 -2.6431527 -19.754087 -8.5781565 35.216228 -8.5679607 35.078941 -2.6552424 -19.448946
972981250 -2.6643434 -20.127033 -8.4722338 35.339252 -8.4596958 35.194092 -2.6767545 -19.828642
993915625 -2.6855216 -20.500647 -8.3660154 35.460136 -8.3538408 35.303391 -2.6993558 -20.207382
1014850000 -2.708256 -20.882439 -8.2589769 35.538399 -8.2505903 35.391312 -2.721957 -20.588091
1035784375 -2.7319784 -21.267931 -8.159833 35.613876 -8.1496849 35.476555 -2.7452483 -20.965113
1056718750 -2.7529962 -21.643396 -8.0582123 35.705265 -8.0481424 35.549267 -2.7661386 -21.340395
1077653125 -2.7729573 -22.018839 -7.9565392 35.759327 -7.9474702 35.60487 -2.7875633 -21.70875
1098587500 -2.7943602 -22.389656 -7.8597131 35.801163 -7.8492393 35.650867 -2.8090465 -22.058392
1119521875 -2.8183589 -22.74338 -7.7630663 35.83569 -7.7544451 35.68705 -2.8323746 -22.4191
1140456250 -2.842628 -23.091423 -7.6689005 35.866547 -7.6604466 35.721527 -2.8574095 -22.77693
1161390625 -2.8668435 -23.45785 -7.5754399 35.884899 -7.5657454 35.740288 -2.8808982 -23.137419
1182325000 -2.8899727 -23.832254 -7.4832101 35.8936 -7.4734683 35.739845 -2.903146 -23.500122
1203259375 -2.9127703 -24.200092 -7.3929758 35.89328 -7.3834133 35.731972 -2.9243701 -23.858707
1224193750 -2.9345529 -24.556799 -7.302628 35.875916 -7.2946763 35.716679 -2.94625 -24.210869
1245128125 -2.9578211 -24.906811 -7.2171931 35.852692 -7.209146 35.69978 -2.971621 -24.546938
1266062500 -2.9841814 -25.255232 -7.1322684 35.838242 -7.1244249 35.676842 -2.9966743 -24.887978
1286996875 -3.0122864 -25.594492 -7.0482836 35.802826 -7.0404911 35.651367 -3.0228319 -25.242979
1307931250 -3.0363662 -25.945002 -6.9655242 35.775425 -6.9579077 35.618233 -3.0483119 -25.596436
1328865625 -3.0594473 -26.311584 -6.8831973 35.731678 -6.8766046 35.571369 -3.0724659 -25.94643
1349800000 -3.0837398 -26.664141 -6.8047347 35.67226 -6.7978144 35.515213 -3.0955532 -26.281109
1370734375 -3.1083944 -27.006063 -6.7264981 35.628113 -6.7209029 35.463623 -3.1199918 -26.606953
1391668750 -3.1346319 -27.328362 -6.648283 35.571758 -6.6438394 35.416046 -3.1457853 -26.935957
1412603125 -3.1612132 -27.659243 -6.5724611 35.511723 -6.5668497 35.351543 -3.1731734 -27.269299
1433537500 -3.1889696 -27.997496 -6.4971023 35.43829 -6.4923792 35.282982 -3.1996241 -27.607021
1454471875 -3.2145345 -28.337055 -6.424963 35.359261 -6.4193468 35.204102 -3.224623 -27.951567
1475406250 -3.2377672 -28.678719 -6.3531222 35.2873 -6.3489547 35.127747 -3.2496769 -28.27667
1496340625 -3.2621217 -29.009932 -6.2821813 35.205872 -6.2782598 35.057205 -3.2736304 -28.590017
1517275000 -3.2878718 -29.319069 -6.2130165 35.127472 -6.208662 34.975906 -3.2991264 -28.894487
1538209375 -3.3146687 -29.626192 -6.1439581 35.048489 -6.1405077 34.893993 -3.3263083 -29.208195
1559143750 -3.3419991 -29.945253 -6.0746198 34.948986 -6.0712028 34.800514 -3.354558 -29.527338
1580078125 -3.3678243 -30.27507 -6.0099602 34.846882 -6.0047903 34.704918 -3.3806551 -29.846298
1601012500 -3.3938892 -30.603159 -5.9449544 34.748352 -5.9394464 34.599617 -3.4045923 -30.170557
1621946875 -3.4182961 -30.918856 -5.8818283 34.641827 -5.8769178 34.486237 -3.4312935 -30.480888
1642881250 -3.4443383 -31.231392 -5.8186564 34.551102 -5.8150897 34.39579 -3.4576013 -30.770422
1663815625 -3.4723656 -31.531723 -5.7550793 34.445129 -5.7519011 34.295048 -3.4843874 -31.059902
1684750000 -3.5012259 -31.829765 -5.6944542 34.335564 -5.6919684 34.185806 -3.5118585 -31.362589
1705684375 -3.5288727 -32.13726 -5.6337614 34.215431 -5.6312609 34.074593 -3.5401731 -31.674814
1726618750 -3.5553484 -32.455273 -5.5771279 34.102825 -5.5729647 33.952278 -3.5667756 -31.978645
1747553125 -3.582587 -32.774216 -5.5196271 34.002132 -5.5167093 33.833981 -3.5928986 -32.277405
1768487500 -3.6106038 -33.064217 -5.4612107 33.885513 -5.4604259 33.726463 -3.6197059 -32.562847
1789421875 -3.6376238 -33.35178 -5.4062481 33.764214 -5.4056144 33.615845 -3.6479347 -32.838722
1810356250 -3.666198 -33.647236 -5.3500524 33.652451 -5.3502784 33.506622 -3.675873 -33.120411
1831290625 -3.6948593 -33.941494 -5.2946467 33.53553 -5.2930436 33.385685 -3.7035568 -33.412991
1852225000 -3.7224953 -34.243084 -5.2412677 33.416359 -5.2397528 33.250904 -3.7312059 -33.705204
1873159375 -3.7491405 -34.543274 -5.1876903 33.281956 -5.1885643 33.132782 -3.7574987 -33.988209
1894093750 -3.7754323 -34.827656 -5.1383018 33.148129 -5.1368737 33.001087 -3.7860396 -34.265121
1915028125 -3.8031528 -35.108696 -5.0871868 33.032757 -5.088665 32.879147 -3.8137758 -34.532394
1935962500 -3.8303611 -35.378551 -5.0367756 32.911007 -5.036839 32.778595 -3.8410447 -34.808029
1956896875 -3.8573668 -35.668667 -4.984664 32.795635 -4.9838657 32.64024 -3.869529 -35.085663
1977831250 -3.8862455 -35.949013 -4.9337325 32.643482 -4.9360433 32.500427 -3.8962731 -35.360447
1998765625 -3.9109802 -36.223675 -4.8886738 32.500027 -4.8895216 32.360039 -3.9231939 -35.636288
2019700000 -3.9364462 -36.505939 -4.8438692 32.374714 -4.8435116 32.240952 -3.9501514 -35.892517
2040634375 -3.9639688 -36.774086 -4.7978015 32.248753 -4.7956529 32.116341 -3.9771662 -36.154205
2061568750 -3.9933896 -37.032318 -4.750854 32.120678 -4.7509055 31.979172 -4.0060692 -36.417492
2082503125 -4.0215683 -37.293983 -4.7051511 31.982706 -4.7059731 31.847691 -4.0344672 -36.685078
2103437500 -4.049233 -37.571224 -4.6602802 31.840361 -4.6615272 31.714598 -4.0623164 -36.941765
2124371875 -4.0766292 -37.849342 -4.6182241 31.70636 -4.6182127 31.576096 -4.0869126 -37.196274
2145306250 -4.1047459 -38.112103 -4.5757108 31.572672 -4.5759039 31.443817 -4.1125717 -37.457283
2166240625 -4.1306095 -38.361298 -4.5344405 31.441565 -4.5348129 31.312201 -4.1423254 -37.703163
2187175000 -4.1601744 -38.623291 -4.4918604 31.314714 -4.4933009 31.178253 -4.1719089 -37.939247
2208109375 -4.1908908 -38.881405 -4.4499626 31.175234 -4.4538074 31.044149 -4.2010479 -38.18618
2229043750 -4.2202945 -39.142597 -4.4096103 31.047001 -4.412704 30.911903 -4.2278047 -38.448368
2249978125 -4.2490625 -39.402149 -4.3687358 30.910521 -4.3724008 30.779161 -4.2544174 -38.703434
2270912500 -4.2750473 -39.665295 -4.3298392 30.771021 -4.3325562 30.642124 -4.2814417 -38.94265
2291846875 -4.3032575 -39.915112 -4.2926078 30.631306 -4.2948799 30.498295 -4.3096805 -39.172306
2312781250 -4.3314161 -40.15654 -4.25562 30.505419 -4.2583904 30.375433 -4.338706 -39.408493
2333715625 -4.3605375 -40.402588 -4.215704 30.38266 -4.2203884 30.245649 -4.3698397 -39.656666
2354650000 -4.3900795 -40.653721 -4.1771851 30.239037 -4.1828952 30.106249 -4.3984175 -39.899319
2375584375 -4.4170976 -40.902576 -4.1401305 30.096102 -4.1454177 29.968367 -4.424943 -40.152912
2396518750 -4.4427161 -41.149464 -4.1054649 29.958174 -4.1111922 29.826771 -4.4520869 -40.376171
2417453125 -4.4687052 -41.385513 -4.0701404 29.820217 -4.0759282 29.705317 -4.4772902 -40.589878
2438387500 -4.4954348 -41.610916 -4.03546 29.687243 -4.0385566 29.572289 -4.5057011 -40.817158
2459321875 -4.5244722 -41.836418 -3.9991574 29.557842 -4.0047073 29.427635 -4.5359035 -41.031845
2480256250 -4.5525012 -42.069149 -3.9640796 29.417341 -3.9710536 29.291008 -4.5631537 -41.264324
2501190625 -4.5798302 -42.315254 -3.9294682 29.277456 -3.9369073 29.158689 -4.5896788 -41.501419
2522125000 -4.6073318 -42.544258 -3.8965654 29.122162 -3.9024799 29.016325 -4.6139526 -41.725956
2543059375 -4.6317868 -42.76543 -3.8659718 28.989355 -3.8701494 28.874554 -4.6394119 -41.940567
2563993750 -4.6591392 -42.992588 -3.8337448 28.86104 -3.838742 28.747137 -4.6664729 -42.134186
2584928125 -4.6885962 -43.206154 -3.8012047 28.725067 -3.806818 28.611183 -4.6950312 -42.347984
2605862500 -4.7184334 -43.415802 -3.7696228 28.586535 -3.7761128 28.471336 -4.7257595 -42.565022
2626796875 -4.7464767 -43.641041 -3.7379098 28.44985 -3.7445161 28.338419 -4.7521386 -42.792316
2647731250 -4.7733698 -43.879936 -3.7060018 28.305115 -3.7137718 28.200245 -4.7759171 -43.0205
2668665625 -4.8004556 -44.098293 -3.6776385 28.158049 -3.6825662 28.057739 -4.8019586 -43.238068
2689600000 -4.8264666 -44.299454 -3.6506925 28.018311 -3.6550059 27.911787 -4.8294578 -43.430061
2710534375 -4.8520498 -44.516273 -3.6234705 27.902266 -3.6273675 27.791113 -4.8581314 -43.625786
2731468750 -4.8815894 -44.743938 -3.5905511 27.784006 -3.5969737 27.66626 -4.8867579 -43.832935
2752403125 -4.9109554 -44.951511 -3.558872 27.624138 -3.5682998 27.52352 -4.9140477 -44.060387
2773337500 -4.9355273 -45.167374 -3.5327289 27.483021 -3.5398543 27.378664 -4.9407244 -44.287468
2794271875 -4.9604163 -45.391068 -3.5063686 27.344816 -3.5127871 27.237339 -4.9658065 -44.482357
2815206250 -4.9843192 -45.602917 -3.4791079 27.208881 -3.4853292 27.107334 -4.9897513 -44.68494
2836140625 -5.0107393 -45.795605 -3.453948 27.081238 -3.4584577 26.972811 -5.0189943 -44.880272
2857075000 -5.0377579 -45.993069 -3.4261189 26.961807 -3.4317322 26.845396 -5.0477777 -45.066872
2878009375 -5.0659518 -46.203033 -3.3960512 26.814381 -3.4051538 26.707798 -5.0759721 -45.280903
2898943750 -5.0929651 -46.410435 -3.3711433 26.661705 -3.3803966 26.564003 -5.1007423 -45.480724
2919878125 -5.1172876 -46.618092 -3.347873 26.527151 -3.3543737 26.426579 -5.1230373 -45.696529
2940812500 -5.1409206 -46.814526 -3.3241189 26.404915 -3.3288279 26.294477 -5.1489935 -45.886169
2961746875 -5.1672082 -47.011238 -3.2971375 26.270065 -3.3042033 26.160975 -5.1750793 -46.058815
2982681250 -5.1940608 -47.186817 -3.2743573 26.133762 -3.2815955 26.029024 -5.2040887 -46.241875
3003615625 -5.2230506 -47.383636 -3.248956 26.006674 -3.2577324 25.912001 -5.2304487 -46.427486
3024550000 -5.2496629 -47.572971 -3.2249763 25.859072 -3.2319424 25.769434 -5.2548871 -46.648125
3045484375 -5.2726822 -47.779419 -3.2024784 25.733683 -3.2091472 25.624535 -5.2810764 -46.847286
3066418750 -5.2987127 -47.985233 -3.1786106 25.606138 -3.186852 25.49176 -5.3044729 -47.019012
3087353125 -5.3244982 -48.162277 -3.1556571 25.470625 -3.1647773 25.367376 -5.3286638 -47.194782
3108287500 -5.3510752 -48.326401 -3.1355453 25.329981 -3.1422265 25.247105 -5.3568754 -47.375534
3129221875 -5.3770137 -48.512325 -3.1147754 25.213827 -3.1196601 25.113895 -5.3859406 -47.566784
3150156250 -5.4030166 -48.724083 -3.0915236 25.09971 -3.0980804 24.979115 -5.4119544 -47.760872
3171090625 -5.4300203 -48.931507 -3.0666609 24.965042 -3.0763307 24.849211 -5.4352717 -47.956947
3192025000 -5.4540377 -49.109997 -3.0456645 24.81032 -3.0547984 24.709852 -5.4585981 -48.145908
3212959375 -5.4759994 -49.281624 -3.028285 24.688034 -3.0356708 24.578627 -5.4852858 -48.312523
3233893750 -5.5002723 -49.458706 -3.0075948 24.57523 -3.0157814 24.463125 -5.5117993 -48.467316
3254828125 -5.5262136 -49.636211 -2.9875855 24.458248 -2.9944439 24.344433 -5.5381379 -48.661312
3275762500 -5.553031 -49.834278 -2.9632356 24.340322 -2.9734728 24.207111 -5.5685749 -48.858589
3296696875 -5.5785384 -50.021194 -2.9425213 24.180916 -2.9542899 24.074556 -5.5916123 -49.033104
3317631250 -5.600132 -50.210548 -2.9256258 24.058348 -2.9353445 23.944298 -5.6137781 -49.22382
3338565625 -5.623425 -50.377991 -2.9067173 23.931461 -2.9167461 23.824688 -5.6362672 -49.373291
3359500000 -5.6453805 -50.538483 -2.8881338 23.815914 -2.8963234 23.703209 -5.6593375 -49.543232
3380434375 -5.6725397 -50.710014 -2.8663139 23.700987 -2.8780041 23.578482 -5.6902847 -49.715546
3401368750 -5.7009559 -50.865875 -2.8467243 23.550493 -2.8595324 23.462618 -5.7168975 -49.887486
3422303125 -5.7234249 -51.045368 -2.8315446 23.425467 -2.8409023 23.328264 -5.741981 -50.088696
3443237500 -5.7471981 -51.244957 -2.8144464 23.325245 -2.824573 23.2076 -5.766192 -50.257401
3464171875 -5.7716112 -51.416389 -2.7931623 23.200596 -2.8061385 23.091816 -5.785058 -50.406162
3485106250 -5.7970948 -51.566059 -2.7748349 23.070179 -2.7878644 22.97488 -5.8075132 -50.568409
3506040625 -5.8223352 -51.693268 -2.7594948 22.936638 -2.7691448 22.851429 -5.8353829 -50.735161
3526975000 -5.8460131 -51.854942 -2.7452996 22.833332 -2.7528689 22.726503 -5.8660541 -50.89983
3547909375 -5.8728085 -52.047089 -2.72489 22.724941 -2.7371218 22.611214 -5.8930058 -51.062698
3568843750 -5.8969603 -52.22546 -2.7088246 22.589909 -2.71896 22.498404 -5.910677 -51.241146
3589778125 -5.9180474 -52.404163 -2.6918881 22.495415 -2.7016833 22.369179 -5.9318519 -51.420948
3610712500 -5.9419613 -52.561386 -2.6716504 22.361605 -2.6862483 22.251186 -5.9558454 -51.553871
3631646875 -5.9655309 -52.691422 -2.6590748 22.228327 -2.6692493 22.14296 -5.9785576 -51.688782
3652581250 -5.9882388 -52.839027 -2.6444302 22.127983 -2.6512759 22.023058 -6.0069261 -51.868454
3673515625 -6.0120912 -53.013554 -2.6277132 22.028038 -2.6354232 21.893976 -6.0377903 -52.02898
3694450000 -6.0355568 -53.218563 -2.6077871 21.910109 -2.6208057 21.770399 -6.0603652 -52.189068
3715384375 -6.0600286 -53.405006 -2.590209 21.768404 -2.6063869 21.657681 -6.079062 -52.353893
3736318750 -6.0803132 -53.543163 -2.5784075 21.652931 -2.5902357 21.549999 -6.096509 -52.508617
3757253125 -6.0995913 -53.676598 -2.562824 21.553686 -2.5741174 21.428291 -6.1224704 -52.670776
3778187500 -6.1249642 -53.816452 -2.5464804 21.425058 -2.5596919 21.310854 -6.1508136 -52.783321
3799121875 -6.1498528 -53.967823 -2.5339892 21.320217 -2.5450118 21.202438 -6.1746197 -52.938103
3820056250 -6.1763024 -54.147156 -2.5135529 21.210388 -2.5313592 21.088795 -6.2026272 -53.107555
3840990625 -6.1976252 -54.297424 -2.5022314 21.062519 -2.5159724 20.97876 -6.2200937 -53.2477
3861925000 -6.2150331 -54.462509 -2.4893754 20.972065 -2.5010457 20.859999 -6.2355161 -53.430138
3882859375 -6.2389569 -54.603992 -2.4724801 20.861526 -2.4875813 20.749598 -6.2621059 -53.565151
3903793750 -6.2627382 -54.715366 -2.4586523 20.739872 -2.4726725 20.643421 -6.2857466 -53.669788
3924728125 -6.2879491 -54.839512 -2.4450128 20.610643 -2.4589026 20.522013 -6.309444 -53.813454
3945662500 -6.3096852 -54.988213 -2.4346998 20.504604 -2.4447923 20.410082 -6.3330569 -53.980789
3966596875 -6.3310533 -55.176888 -2.4185548 20.415377 -2.4316626 20.296671 -6.3545246 -54.151428
3987531250 -6.3547206 -55.336605 -2.4022112 20.281096 -2.4189672 20.18816 -6.3751941 -54.299606
4008465625 -6.3748231 -55.459126 -2.3944466 20.160334 -2.4050229 20.086021 -6.3942571 -54.418819
4029400000 -6.3948312 -55.599419 -2.3818669 20.074064 -2.3918583 19.977934 -6.4138956 -54.544991
4050334375 -6.420742 -55.722473 -2.366962 19.96245 -2.3779578 19.871319 -6.438508 -54.687195
4071268750 -6.4429517 -55.864529 -2.3546619 19.853817 -2.3641639 19.759644 -6.4621754 -54.820099
4092203125 -6.4652567 -56.046646 -2.3401029 19.739843 -2.3518836 19.639097 -6.4838772 -54.988476
4113137500 -6.4853559 -56.20652 -2.3302927 19.626722 -2.3408782 19.533621 -6.505816 -55.11776
4134071875 -6.5033746 -56.373791 -2.3177526 19.539303 -2.3278456 19.430574 -6.5225229 -55.244427
4155006250 -6.5231442 -56.498756 -2.304652 19.436834 -2.3155794 19.323856 -6.5439825 -55.375217
4175940625 -6.5451679 -56.630569 -2.2907047 19.34672 -2.3037126 19.222807 -6.5663619 -55.472466
4196875000 -6.572298 -56.761806 -2.273813 19.209009 -2.2908719 19.111734 -6.5870852 -55.630661
4217809375 -6.5922809 -56.885078 -2.2671821 19.091179 -2.2796249 19.00242 -6.6118488 -55.76173
4238743750 -6.6103244 -57.068565 -2.2565637 19.012133 -2.2685397 18.89286 -6.6293626 -55.882408
