!Keysight Technologies,N5227A,US51270248,A.10.65.08
!Date: Tuesday, June 11, 2024 08:13:33
!Correction: S11(Full 2 Port(1,4)) 
!S41(Full 2 Port(1,4)) 
!S14(Full 2 Port(1,4)) 
!S44(Full 2 Port(1,4)) 
!S2P File: Measurements: S11, S41, S14, S44:
# Hz S  dB   R 50
10000000 -0.50757229 179.5546 -59.985294 -0.2453039 -74.620674 43.566666 -0.0065441793 -0.3187094
30934375 -0.52896494 179.64464 -58.556831 22.447489 -67.93235 89.439682 -0.0059561264 -0.97278309
51868750 -0.52779561 179.4894 -60.291573 47.883381 -63.276169 91.616364 -0.0049489471 -1.5698721
72803125 -0.52629077 179.27347 -60.631512 92.460304 -60.285065 92.481674 -0.0024770088 -2.2592289
93737500 -0.52473706 179.05431 -58.515232 93.585106 -58.176987 93.629555 -0.0088764401 -2.9164279
114671875 -0.52489042 178.84615 -56.7323 95.136223 -56.430061 94.549438 -0.017219195 -3.5551867
135606250 -0.5288294 178.67657 -55.297989 96.210197 -55.021851 95.740921 -0.022280784 -4.1856499
156540625 -0.53125882 178.53265 -53.880096 97.021782 -53.687752 96.73243 -0.024619484 -4.8321071
177475000 -0.53079844 178.34009 -52.697514 98.295044 -52.407768 97.565285 -0.028250828 -5.4676485
198409375 -0.53327966 178.11436 -51.720921 98.993828 -51.431927 98.378738 -0.031668413 -6.0814729
219343750 -0.53689337 177.90948 -50.83057 99.857346 -50.540493 99.331665 -0.036523294 -6.7071066
240278125 -0.53767949 177.73595 -49.711132 100.19505 -49.712269 100.19326 -0.04438106 -7.3436837
261212500 -0.53784084 177.56564 -48.773888 100.4887 -48.930145 100.97646 -0.051551666 -7.9783182
282146875 -0.54108471 177.39047 -48.011551 101.23724 -48.205795 101.94467 -0.056757301 -8.6130915
303081250 -0.54538089 177.21356 -47.402653 102.37095 -47.474163 102.43928 -0.061940692 -9.2504835
324015625 -0.54655808 177.04802 -46.911167 103.06487 -46.890396 103.0429 -0.068450384 -9.8621368
344950000 -0.54734796 176.84605 -46.366974 104.25602 -46.269978 103.88469 -0.074412115 -10.460703
365884375 -0.55087942 176.66006 -45.810959 105.12734 -45.691006 104.68813 -0.080668852 -11.072984
386818750 -0.54777604 176.49593 -45.229431 105.77251 -45.114536 105.28255 -0.088850014 -11.705373
407753125 -0.54826236 176.33006 -44.688629 106.37184 -44.59626 105.93066 -0.098835371 -12.320554
428687500 -0.54936945 176.14381 -44.104118 106.76196 -44.070816 106.48501 -0.10188966 -12.932621
449621875 -0.55327982 175.95354 -43.644333 107.25159 -43.589699 107.07018 -0.10876551 -13.560007
470556250 -0.55448008 175.77238 -43.131374 107.73226 -43.107914 107.56472 -0.11699504 -14.158372
491490625 -0.55454314 175.5847 -42.648228 108.29395 -42.668163 108.28481 -0.12466004 -14.751233
512425000 -0.55559582 175.396 -42.249588 109.04474 -42.22374 108.81514 -0.13193774 -15.356663
533359375 -0.55641657 175.21735 -41.853378 109.63978 -41.790634 109.24934 -0.14113158 -15.977018
554293750 -0.55914426 175.0515 -41.439461 110.21956 -41.36647 109.81249 -0.1509774 -16.587851
575228125 -0.56338763 174.87558 -41.038078 110.67228 -40.963078 110.31642 -0.15802591 -17.186125
596162500 -0.57265961 174.68672 -40.611336 110.93233 -40.557003 110.56066 -0.16440304 -17.782993
617096875 -0.57834393 174.49651 -40.262924 111.49834 -40.177345 111.01096 -0.17334773 -18.387043
638031250 -0.57493776 174.32045 -39.913956 111.97908 -39.81699 111.47871 -0.18519324 -18.984138
658965625 -0.57628429 174.14537 -39.508453 112.31309 -39.446877 111.98144 -0.19464327 -19.574858
679900000 -0.57579976 173.97108 -39.180004 112.85794 -39.073841 112.21987 -0.20283747 -20.176983
700834375 -0.57800907 173.79768 -38.831707 113.23177 -38.759991 112.69617 -0.2129892 -20.775307
721768750 -0.57974374 173.62103 -38.51009 113.81384 -38.410225 113.22759 -0.22383796 -21.360767
742703125 -0.57806414 173.43199 -38.159752 114.09062 -38.04081 113.44217 -0.23260826 -21.927362
763637500 -0.5784511 173.24875 -37.822964 114.35387 -37.723957 113.68706 -0.24014315 -22.517612
784571875 -0.57987124 173.07608 -37.527664 114.78498 -37.41396 113.86066 -0.25043598 -23.110279
805506250 -0.58105946 172.90761 -37.231415 115.31606 -37.140118 114.45882 -0.25995296 -23.68804
826440625 -0.58210772 172.73083 -36.864014 115.74181 -36.76545 114.98038 -0.26886407 -24.275898
847375000 -0.58310807 172.54552 -36.541813 115.87487 -36.427219 115.03249 -0.2810075 -24.857121
868309375 -0.5830965 172.36145 -36.236008 116.00478 -36.1581 115.20793 -0.29346925 -25.419662
889243750 -0.58354276 172.16835 -35.959534 116.26462 -35.846542 115.38329 -0.30317256 -25.981281
910178125 -0.5843026 171.98659 -35.656937 116.34468 -35.56144 115.6324 -0.31174245 -26.560026
931112500 -0.58798921 171.82507 -35.386089 116.64015 -35.267139 115.50378 -0.3225762 -27.135679
952046875 -0.58893323 171.65073 -35.092907 116.80895 -34.999836 115.87236 -0.33208987 -27.701431
972981250 -0.59902614 171.45981 -34.818264 117.10451 -34.721889 116.16541 -0.34254178 -28.267687
993915625 -0.59860337 171.26813 -34.542595 117.1931 -34.442799 116.28465 -0.35490835 -28.834747
1014850000 -0.59609109 171.09392 -34.264744 117.24266 -34.174847 116.40313 -0.36627847 -29.396868
1035784375 -0.595918 170.91959 -34.020775 117.47162 -33.926388 116.46506 -0.37749386 -29.962822
1056718750 -0.59729129 170.73788 -33.753162 117.58021 -33.663483 116.76224 -0.38762408 -30.53017
1077653125 -0.60176873 170.56285 -33.499146 117.69501 -33.38958 116.79069 -0.39723361 -31.088272
1098587500 -0.60476631 170.39142 -33.228523 117.64059 -33.136669 116.67522 -0.40658218 -31.627865
1119521875 -0.60706049 170.20569 -32.970634 117.59509 -32.904858 116.84695 -0.41859144 -32.174892
1140456250 -0.60809416 170.0107 -32.743576 117.78745 -32.664993 116.89354 -0.43153363 -32.724937
1161390625 -0.60520095 169.83482 -32.495098 117.75682 -32.423153 117.02994 -0.44333279 -33.274265
1182325000 -0.60529625 169.66438 -32.264633 117.93346 -32.16526 116.96902 -0.45263734 -33.827999
1203259375 -0.60691071 169.49026 -32.030121 117.95963 -31.938278 116.87421 -0.46180665 -34.383698
1224193750 -0.61185384 169.30801 -31.804342 117.98701 -31.728008 116.93982 -0.47151873 -34.929054
1245128125 -0.61291188 169.12233 -31.579018 117.91074 -31.507288 116.92104 -0.48438993 -35.455887
1266062500 -0.61295891 168.93631 -31.33709 117.65082 -31.289038 116.88033 -0.49742082 -35.991543
1286996875 -0.61101723 168.74725 -31.142546 117.89393 -31.071474 116.92191 -0.51063836 -36.53656
1307931250 -0.61011714 168.56601 -30.925484 117.84799 -30.860893 116.91653 -0.5226953 -37.082523
1328865625 -0.61449677 168.39764 -30.718931 117.88501 -30.65881 116.95145 -0.53317833 -37.621395
1349800000 -0.61870533 168.23082 -30.507143 117.80628 -30.449919 116.79478 -0.54265004 -38.148956
1370734375 -0.62588197 168.04211 -30.306078 117.79456 -30.264778 116.77066 -0.55426461 -38.67342
1391668750 -0.62723047 167.84447 -30.113554 117.87321 -30.060413 116.88614 -0.56743604 -39.196217
1412603125 -0.62889725 167.65562 -29.901133 117.74495 -29.86039 116.90781 -0.58103478 -39.715946
1433537500 -0.63097268 167.48029 -29.709583 117.75951 -29.658764 116.77399 -0.59299511 -40.25198
1454471875 -0.63485426 167.30748 -29.518257 117.75514 -29.450794 116.71329 -0.60365295 -40.786724
1475406250 -0.63659656 167.13855 -29.327009 117.64446 -29.279243 116.56429 -0.61528254 -41.307381
1496340625 -0.63667476 166.96277 -29.135324 117.5947 -29.098013 116.65089 -0.62550604 -41.813877
1517275000 -0.63800621 166.77237 -28.934641 117.32895 -28.908176 116.60137 -0.63745028 -42.309452
1538209375 -0.63950503 166.57025 -28.761915 117.481 -28.717386 116.51426 -0.65053642 -42.820347
1559143750 -0.64011705 166.37892 -28.579395 117.41061 -28.531473 116.4337 -0.66332012 -43.332458
1580078125 -0.64151406 166.20744 -28.400688 117.28775 -28.361406 116.35384 -0.67364746 -43.85611
1601012500 -0.64419752 166.04102 -28.226336 117.23525 -28.178288 116.22517 -0.68429005 -44.379993
1621946875 -0.64813757 165.86685 -28.054432 117.17459 -28.006214 116.07546 -0.69687581 -44.885143
1642881250 -0.65510607 165.67784 -27.8855 117.18733 -27.847813 116.01254 -0.70942295 -45.362305
1663815625 -0.6532523 165.48589 -27.705278 116.94124 -27.680168 115.99451 -0.72113121 -45.849297
1684750000 -0.65373397 165.29309 -27.539564 116.8854 -27.509317 115.87155 -0.73325998 -46.352985
1705684375 -0.65658402 165.11519 -27.382885 116.78139 -27.33864 115.66083 -0.74675441 -46.868576
1726618750 -0.65925884 164.95482 -27.225218 116.73356 -27.184837 115.59236 -0.75885171 -47.369362
1747553125 -0.66055596 164.791 -27.05784 116.6275 -27.008663 115.23195 -0.77170038 -47.857468
1768487500 -0.66331327 164.61131 -26.892036 116.51371 -26.861517 115.21035 -0.78321612 -48.33601
1789421875 -0.66832286 164.42754 -26.742411 116.43623 -26.713263 115.17336 -0.79626358 -48.804787
1810356250 -0.67067814 164.24953 -26.587902 116.36581 -26.558378 115.08171 -0.80834812 -49.291622
1831290625 -0.67015964 164.07864 -26.426889 116.16588 -26.401409 115.1016 -0.81989765 -49.783356
1852225000 -0.6714679 163.91652 -26.275068 116.13797 -26.241068 114.85494 -0.83236164 -50.272957
1873159375 -0.67342806 163.7594 -26.119047 115.97379 -26.08964 114.72467 -0.84370279 -50.749535
1894093750 -0.67621392 163.58926 -25.973154 115.91637 -25.93597 114.67036 -0.85540742 -51.219204
1915028125 -0.67704886 163.39972 -25.819551 115.66158 -25.80809 114.38612 -0.86812872 -51.691319
1935962500 -0.68194538 163.21303 -25.680523 115.5359 -25.666105 114.45109 -0.88060218 -52.156948
1956896875 -0.68555212 163.04367 -25.538879 115.42423 -25.496616 114.09395 -0.89217639 -52.62661
1977831250 -0.68891877 162.89229 -25.402636 115.19361 -25.368114 113.99734 -0.90127784 -53.107414
1998765625 -0.69322509 162.73778 -25.272446 115.09117 -25.239553 113.81647 -0.91133481 -53.583145
2019700000 -0.69540912 162.56761 -25.136538 114.97453 -25.120064 113.66859 -0.9239434 -54.039505
2040634375 -0.69590211 162.38695 -24.998796 114.84984 -24.973917 113.56924 -0.93630576 -54.487888
2061568750 -0.69393688 162.20258 -24.856838 114.55267 -24.838524 113.377 -0.94824356 -54.946156
2082503125 -0.6947006 162.02348 -24.729345 114.46923 -24.711319 113.19518 -0.96024632 -55.413757
2103437500 -0.69395053 161.85899 -24.604023 114.44403 -24.581898 113.01729 -0.97070974 -55.873768
2124371875 -0.69708347 161.69882 -24.471422 114.36678 -24.458265 112.92467 -0.97985274 -56.336536
2145306250 -0.70283365 161.5246 -24.341263 114.26005 -24.3309 113.03091 -0.99059725 -56.786213
2166240625 -0.70023376 161.32925 -24.207935 114.00607 -24.201521 112.85382 -1.0041373 -57.221714
2187175000 -0.69822699 161.13763 -24.080803 113.994 -24.077356 112.64993 -1.016138 -57.65765
2208109375 -0.69509286 160.95549 -23.954121 113.91871 -23.961554 112.48679 -1.0280625 -58.113087
2229043750 -0.69485271 160.76976 -23.819143 113.75018 -23.838404 112.53539 -1.0389177 -58.576668
2249978125 -0.69673246 160.58429 -23.695686 113.5975 -23.704475 112.38609 -1.0493957 -59.023422
2270912500 -0.69712186 160.40364 -23.571642 113.40315 -23.579229 112.2468 -1.0599017 -59.454979
2291846875 -0.7043649 160.22339 -23.452864 113.27222 -23.458338 111.97562 -1.0713893 -59.88509
2312781250 -0.70449519 160.03004 -23.335176 113.12675 -23.357283 111.90584 -1.0845313 -60.31702
2333715625 -0.71204585 159.84238 -23.216599 112.95729 -23.238655 111.84119 -1.0967638 -60.759739
2354650000 -0.70983088 159.67313 -23.100727 112.85426 -23.122942 111.61283 -1.1079087 -61.209717
2375584375 -0.71424133 159.51018 -22.985397 112.72268 -23.003668 111.62486 -1.1179842 -61.654629
2396518750 -0.71439976 159.33467 -22.862631 112.53616 -22.883696 111.45026 -1.1272767 -62.075848
2417453125 -0.71487522 159.14536 -22.743006 112.36014 -22.77284 111.38057 -1.1373192 -62.489483
2438387500 -0.71514857 158.95099 -22.627031 112.29995 -22.634703 111.26418 -1.1478735 -62.908344
2459321875 -0.71711212 158.74997 -22.50947 112.15955 -22.523806 110.91 -1.1601179 -63.33403
2480256250 -0.7172398 158.56651 -22.400091 111.98537 -22.423422 110.73202 -1.1710674 -63.767693
2501190625 -0.71932334 158.39989 -22.284365 111.83742 -22.309935 110.36333 -1.1811055 -64.201546
2522125000 -0.72430545 158.22498 -22.174726 111.6451 -22.193239 110.35319 -1.1914113 -64.620613
2543059375 -0.73029828 158.0358 -22.068182 111.54728 -22.067749 110.17468 -1.1992121 -65.021629
2563993750 -0.73533058 157.84164 -21.95537 111.35905 -21.973486 110.03312 -1.2090555 -65.424057
2584928125 -0.73092312 157.64644 -21.842884 111.19135 -21.862982 109.91471 -1.2208099 -65.845047
2605862500 -0.73126006 157.45287 -21.733707 111.03977 -21.760689 109.538 -1.2332808 -66.269676
2626796875 -0.72923326 157.26927 -21.626373 110.81922 -21.667154 109.43857 -1.2434886 -66.69577
2647731250 -0.73709112 157.09923 -21.522781 110.65805 -21.565369 109.44196 -1.2512449 -67.11721
2668665625 -0.73560166 156.91731 -21.422251 110.45059 -21.449249 109.28107 -1.2600992 -67.522217
2689600000 -0.73731846 156.71939 -21.323618 110.28814 -21.340044 108.88152 -1.2724723 -67.908241
2710534375 -0.74460459 156.52214 -21.222815 110.20668 -21.264608 108.80328 -1.2830105 -68.305267
2731468750 -0.74278587 156.33951 -21.110416 110.01681 -21.169136 108.7577 -1.293364 -68.725784
2752403125 -0.744497 156.16563 -21.012371 109.76778 -21.061972 108.65788 -1.3032731 -69.143417
2773337500 -0.74678779 155.99109 -20.91733 109.61289 -20.948893 108.23582 -1.3140005 -69.555611
2794271875 -0.75292212 155.82408 -20.818048 109.4622 -20.875263 108.20383 -1.3218825 -69.965332
2815206250 -0.75677556 155.65169 -20.712988 109.19464 -20.770813 108.19472 -1.3323863 -70.352104
2836140625 -0.75823045 155.45337 -20.598675 108.36456 -20.658447 107.99193 -1.3425111 -70.729446
2857075000 -0.76121587 155.25734 -20.50852 108.58402 -20.568512 107.75185 -1.35303 -71.125435
2878009375 -0.76342416 155.09218 -20.41087 108.39006 -20.472034 107.57546 -1.3615595 -71.547516
2898943750 -0.76427996 154.93057 -20.320944 108.30126 -20.39753 107.4555 -1.3715868 -71.960732
2919878125 -0.76522106 154.74785 -20.227615 108.12327 -20.292776 107.40834 -1.3808254 -72.344299
2940812500 -0.7728374 154.55423 -20.13376 107.93803 -20.182768 107.12247 -1.3893785 -72.717781
2961746875 -0.77488977 154.36719 -20.038328 107.77198 -20.093384 106.923 -1.399509 -73.08931
2982681250 -0.77476501 154.17265 -19.942789 107.32848 -20.001503 106.65551 -1.4102489 -73.471436
3003615625 -0.77407324 153.97462 -19.853168 107.3365 -19.933054 106.59087 -1.4193108 -73.861404
3024550000 -0.77574182 153.79279 -19.768517 107.08678 -19.822519 106.38754 -1.4292693 -74.25985
3045484375 -0.78262228 153.62376 -19.677969 106.98722 -19.733515 106.08665 -1.4368236 -74.653831
3066418750 -0.78266484 153.44586 -19.577936 106.58298 -19.665228 105.96379 -1.4470979 -75.028549
3087353125 -0.78440392 153.24683 -19.496275 106.4852 -19.569157 105.89274 -1.4559312 -75.38063
3108287500 -0.78599149 153.04111 -19.421003 106.42558 -19.473928 105.58505 -1.4678528 -75.743744
3129221875 -0.78785151 152.84021 -19.334681 106.34195 -19.38876 105.40873 -1.4777232 -76.1306
3150156250 -0.79100066 152.65805 -19.240103 106.15839 -19.313753 105.18671 -1.4855826 -76.521751
3171090625 -0.79337972 152.48676 -19.152782 105.84376 -19.233398 105.01455 -1.4933121 -76.906158
3192025000 -0.80633593 152.32748 -19.082491 105.67182 -19.145657 104.84319 -1.5017154 -77.273972
3212959375 -0.80680841 152.14546 -19.000872 105.56095 -19.065445 104.56924 -1.5122507 -77.624916
3233893750 -0.80658573 151.92928 -18.916744 105.3448 -19.005873 104.44857 -1.5228133 -77.97805
3254828125 -0.80905515 151.72192 -18.836012 105.27058 -18.903864 104.18845 -1.5360239 -78.335571
3275762500 -0.81281924 151.53635 -18.745413 105.03601 -18.807022 103.76982 -1.5444829 -78.718658
3296696875 -0.81822234 151.3754 -18.676504 104.84747 -18.750166 103.65359 -1.5502521 -79.099113
3317631250 -0.82253498 151.20187 -18.598 104.67877 -18.671471 103.48154 -1.5575689 -79.459358
3338565625 -0.82899153 151.01271 -18.521742 104.50379 -18.621675 103.2934 -1.5678403 -79.804779
3359500000 -0.83258235 150.80229 -18.441088 104.38355 -18.529339 103.34553 -1.576908 -80.149963
3380434375 -0.83573562 150.58421 -18.357178 104.11509 -18.433777 102.96366 -1.5867934 -80.501961
3401368750 -0.83943206 150.40051 -18.294727 103.89729 -18.380568 102.88803 -1.5951573 -80.873535
3422303125 -0.8459059 150.23132 -18.223129 103.81254 -18.287235 102.72967 -1.6033592 -81.239563
3443237500 -0.85066265 150.06516 -18.135132 103.63881 -18.233654 102.31767 -1.6109713 -81.592529
3464171875 -0.85408396 149.88158 -18.055695 103.40676 -18.176758 102.28684 -1.6183122 -81.933426
3485106250 -0.85801858 149.67845 -17.988943 103.15365 -18.096241 102.17983 -1.6274676 -82.264374
3506040625 -0.86364943 149.48048 -17.926712 103.05388 -18.007021 102.25334 -1.6364791 -82.611397
3526975000 -0.86508906 149.29112 -17.850681 102.99196 -17.903761 101.80343 -1.6474228 -82.952896
3547909375 -0.86735189 149.12546 -17.765425 102.72162 -17.866625 101.58277 -1.6528044 -83.330917
3568843750 -0.86726886 148.97704 -17.699282 102.60371 -17.804873 101.67445 -1.6581657 -83.683121
3589778125 -0.87154794 148.80789 -17.611929 102.35536 -17.709335 101.53102 -1.6646172 -84.017532
3610712500 -0.87573719 148.61987 -17.54167 102.10679 -17.642683 101.21214 -1.6725003 -84.340019
3631646875 -0.87830877 148.41797 -17.483725 101.92305 -17.583105 101.17757 -1.6830577 -84.664619
3652581250 -0.8805266 148.21573 -17.409559 101.8538 -17.479517 101.08775 -1.6925281 -85.004936
3673515625 -0.88332015 148.02834 -17.328594 101.7327 -17.399662 100.68813 -1.7001098 -85.370193
3694450000 -0.88623017 147.87714 -17.246735 101.49957 -17.355318 100.47131 -1.7076973 -85.722649
3715384375 -0.88773197 147.72188 -17.187737 101.27088 -17.295839 100.3064 -1.7139444 -86.052963
3736318750 -0.89220512 147.53958 -17.122841 101.12563 -17.234575 100.27547 -1.7213168 -86.357468
3757253125 -0.89867496 147.33315 -17.046919 100.95096 -17.12697 100.09603 -1.7307529 -86.674301
3778187500 -0.90465438 147.13986 -16.987001 100.76609 -17.057993 99.669487 -1.739204 -87.011627
3799121875 -0.90798289 146.96344 -16.913195 100.63219 -17.006302 99.633217 -1.7472867 -87.354378
3820056250 -0.90832347 146.78336 -16.833769 100.37203 -16.934626 99.326958 -1.7541292 -87.698158
3840990625 -0.90745318 146.61969 -16.786173 100.19867 -16.906883 99.314117 -1.7594385 -88.031494
3861925000 -0.91148233 146.43678 -16.709541 100.08051 -16.804886 99.334312 -1.7658768 -88.329185
3882859375 -0.91618836 146.23222 -16.639215 99.832802 -16.714851 98.893822 -1.772439 -88.634094
3903793750 -0.91928953 146.02298 -16.579716 99.610985 -16.6817 98.721619 -1.7800814 -88.95974
3924728125 -0.92233497 145.8208 -16.5214 99.443741 -16.61594 98.56041 -1.790843 -89.294312
3945662500 -0.92185855 145.63916 -16.456474 99.356575 -16.551146 98.449829 -1.7994312 -89.634682
3966596875 -0.9305343 145.46835 -16.374537 99.144501 -16.475273 98.284103 -1.80518 -89.95121
3987531250 -0.93125111 145.28291 -16.320206 98.854042 -16.409119 98.032394 -1.8093163 -90.257256
4008465625 -0.93582046 145.09413 -16.269182 98.784111 -16.35458 97.824432 -1.816381 -90.542816
4029400000 -0.93952209 144.89398 -16.192129 98.639206 -16.284334 97.698891 -1.823229 -90.847778
4050334375 -0.94261742 144.69086 -16.127235 98.390144 -16.215038 97.450157 -1.8308908 -91.179268
4071268750 -0.94313395 144.49854 -16.065739 98.231323 -16.171026 97.333878 -1.8387775 -91.510437
4092203125 -0.94645125 144.32118 -16.004993 97.991844 -16.088394 97.214172 -1.846998 -91.821106
4113137500 -0.95333016 144.16405 -15.94725 97.890625 -16.016249 96.86235 -1.8507571 -92.11338
4134071875 -0.95526427 143.98926 -15.871337 97.737755 -15.975021 96.723145 -1.8564858 -92.410919
4155006250 -0.96135724 143.79114 -15.811648 97.519943 -15.89388 96.469269 -1.8627622 -92.702385
4175940625 -0.96340299 143.58699 -15.739529 97.330261 -15.872521 96.226669 -1.8717439 -93.013512
4196875000 -0.96775311 143.40094 -15.688782 97.040169 -15.792732 96.270256 -1.880742 -93.321548
4217809375 -0.969724 143.22917 -15.642212 96.952484 -15.713005 95.76078 -1.8865896 -93.626747
