!Keysight Technologies,N5227A,US51270248,A.10.65.08
!Date: Tuesday, June 11, 2024 08:28:58
!Correction: S11(Full 2 Port(1,4)) 
!S41(Full 2 Port(1,4)) 
!S14(Full 2 Port(1,4)) 
!S44(Full 2 Port(1,4)) 
!S2P File: Measurements: S11, S41, S14, S44:
# Hz S  dB   R 50
10000000 -0.58745152 179.54958 -73.773895 85.046379 -75.582214 59.542549 -0.0023615288 -0.30918711
20467187.5 0.024571426 167.77687 -71.151749 93.126724 -70.250244 75.879372 -0.82062054 7.0439081
30934375 -0.60254037 179.64743 -66.713654 90.193718 -67.538322 89.30191 0.0021672191 -1.001314
41401562.5 -0.87263584 179.61273 -64.309769 89.426926 -64.736931 92.565994 0.29304621 -0.6205309
51868750 -0.60603046 179.48499 -62.496716 90.489128 -62.979599 91.336868 -0.00060093845 -1.6543133
62335937.5 -0.71870524 -178.57457 -61.045254 92.449722 -61.527821 94.860458 0.073954739 -2.5683331
72803125 -0.5985992 179.27049 -59.698524 91.5541 -60.096119 92.215546 -0.0037467806 -2.3036149
83270312.5 -0.51993495 179.33621 -58.338272 92.854965 -59.038502 93.67981 -0.09125153 -3.3999245
93737500 -0.59398419 179.05237 -57.485355 92.940681 -57.994595 93.450462 -0.010043029 -2.9264934
104204687.5 -0.55972588 178.83911 -56.464924 93.478447 -57.005157 94.106682 -0.063093953 -2.9627206
114671875 -0.60252839 178.84235 -55.741611 93.952354 -56.128231 94.247177 -0.016267736 -3.5569918
125139062.5 -0.61423022 178.75822 -54.850594 93.988792 -55.443867 95.235504 -0.020121332 -3.8612165
135606250 -0.71599579 178.67645 -54.152096 94.666496 -54.749523 95.281212 -0.019886952 -4.2014852
146073437.5 -0.82789648 178.498 -53.373886 95.40596 -54.09161 95.56015 -0.020289915 -4.4572105
156540625 -0.78138602 178.53265 -52.914982 95.898476 -53.507229 96.370544 -0.023357969 -4.8573799
167007812.5 -0.74685216 179.83389 -52.185478 95.109444 -53.062077 98.304329 -0.035315283 -6.2514434
177475000 -0.7665807 178.34435 -51.856522 96.402573 -52.181469 96.967728 -0.028465234 -5.4868202
187942187.5 -0.77313226 178.33733 -51.477989 97.428604 -51.553307 98.465851 -0.021521768 -5.8716245
198409375 -0.81998807 178.11414 -50.849583 97.341217 -51.281864 98.040726 -0.032190233 -6.0866938
208876562.5 -0.85436922 178.03499 -50.282566 97.964409 -50.742004 97.51284 -0.024680119 -6.35042
219343750 -0.83902729 177.90692 -49.895042 98.143608 -50.191502 98.659157 -0.035942171 -6.7077274
229810937.5 -0.8345812 177.84755 -49.78899 100.24714 -49.749718 99.379211 -0.041076887 -7.043129
240278125 -0.82412052 177.73384 -49.093853 98.747627 -49.411121 99.563065 -0.043357689 -7.3511071
250745312.5 -0.80964088 177.65549 -48.48608 98.92717 -49.152416 97.17952 -0.035246737 -8.5414305
261212500 -0.82276279 177.56607 -48.251659 99.618462 -48.711784 100.20671 -0.051700819 -7.9923253
271679687.5 -0.83074892 177.47235 -47.719883 96.818832 -48.559666 102.81165 -0.053327087 -8.2113676
282146875 -0.83236027 177.39342 -47.571865 100.12595 -48.014744 101.21562 -0.057993989 -8.6255884
292614062.5 -0.83282417 177.30838 -47.404636 100.25478 -47.273312 103.33607 -0.061026067 -8.9334965
303081250 -0.84666884 177.22342 -46.900188 100.96913 -47.28474 101.89349 -0.063546106 -9.2569113
313548437.5 -0.80923307 177.07417 -46.437298 101.38375 -46.985569 100.88974 -0.072885104 -9.5590181
324015625 -0.83035773 177.05676 -46.283104 101.34923 -46.702076 102.19756 -0.06877739 -9.862792
334482812.5 -0.82030541 176.85127 -46.032516 101.61166 -46.39455 103.12042 -0.072813995 -10.11262
344950000 -0.83131218 176.8492 -45.660645 102.05589 -46.043663 103.16235 -0.0741935 -10.466312
355417187.5 -0.85184187 176.70631 -45.321838 103.37214 -45.748459 103.16895 -0.082142189 -10.811653
365884375 -0.96020067 176.66698 -45.078091 102.77058 -45.445938 103.82136 -0.080693662 -11.080886
376351562.5 -0.84286672 176.6557 -44.705036 103.33458 -45.166931 104.14905 -0.11089254 -11.552094
386818750 -0.82676083 176.49673 -44.579788 103.52882 -44.926579 104.46331 -0.090158872 -11.714296
397285937.5 -0.80641043 176.43347 -44.349422 103.95245 -44.417091 104.29056 0.13535303 -12.484734
407753125 -0.87615889 176.33632 -44.05357 104.15852 -44.420261 105.2197 -0.10118155 -12.321918
418220312.5 -0.87100464 176.97174 -43.792988 105.05344 -44.074558 104.36127 -0.22041115 -13.076822
428687500 -0.86849946 176.14955 -43.556168 104.69119 -43.775841 105.30793 -0.10322651 -12.932324
439154687.5 -0.70773327 176.31393 -43.119232 104.81174 -43.397785 105.65393 -0.049780622 -13.239127
449621875 -0.86222857 175.95758 -43.076904 105.13245 -43.296139 105.77075 -0.10985233 -13.562644
460089062.5 -0.95774931 175.43936 -42.882446 105.30241 -43.116127 106.14193 -0.12842363 -14.009315
470556250 -0.92620391 175.77647 -42.63509 105.69777 -42.90593 106.61967 -0.118089 -14.164552
481023437.5 -0.91074961 175.84764 -42.328785 105.8859 -42.65559 106.80322 -0.12812386 -14.501741
491490625 -0.90442628 175.58699 -42.199791 106.24926 -42.467781 107.13836 -0.1268128 -14.75708
501957812.5 -0.90595889 175.46692 -42.012516 106.53192 -42.304604 107.94052 -0.15418732 -15.148573
512425000 -0.89543337 175.39937 -41.743393 106.60439 -42.022488 107.73279 -0.13416199 -15.35927
522892187.5 -0.902776 175.31723 -41.448883 106.7137 -41.747799 108.04402 -0.12871659 -16.034834
533359375 -0.89983541 175.22011 -41.304363 107.1388 -41.606789 108.26071 -0.14358157 -15.97744
543826562.5 -0.89482611 175.27596 -41.193821 105.26554 -41.65826 107.91443 -0.22441113 -16.842638
554293750 -0.90150881 175.0563 -40.886238 107.62242 -41.122517 108.44555 -0.15331449 -16.588274
564760937.5 -0.82995278 175.0957 -40.765141 109.35621 -40.818867 111.14957 -0.1790674 -16.840801
575228125 -0.89905548 174.88135 -40.521019 108.08663 -40.760956 109.25705 -0.16085547 -17.188065
585695312.5 -0.88344043 174.77689 -40.179443 107.89657 -40.383839 107.639 -0.15625444 -17.367367
596162500 -0.89437801 174.6904 -40.1222 108.39149 -40.397751 109.55281 -0.16750079 -17.784067
606629687.5 -0.93971598 174.54367 -39.992432 108.29053 -40.391132 110.37225 -0.14859681 -18.187679
617096875 -0.89399153 174.49898 -39.761616 108.86646 -40.044132 110.09783 -0.17695221 -18.387089
627564062.5 -0.9201408 174.41371 -39.649151 109.22358 -39.831512 110.74576 -0.17894509 -18.747103
638031250 -0.89389855 174.32076 -39.371532 109.00874 -39.668747 110.59744 -0.18830287 -18.981178
648498437.5 -0.91513127 174.28485 -39.2127 108.94077 -39.51601 110.61092 -0.2004946 -19.362114
658965625 -0.89224696 174.14642 -39.053169 109.63593 -39.309387 111.15314 -0.19780393 -19.573799
669432812.5 -0.89777106 174.08632 -38.924419 110.1161 -39.056328 111.48388 -0.19418561 -19.86714
679900000 -0.889754 173.97366 -38.697044 110.04071 -38.884247 111.00876 -0.2065032 -20.177761
690367187.5 -0.8962943 173.76888 -38.583107 107.92078 -38.642838 110.63268 -0.20352291 -20.451687
700834375 -0.89416218 173.80312 -38.392891 110.49727 -38.570072 111.26431 -0.21768206 -20.777119
711301562.5 -0.91196483 173.61211 -38.669277 111.65277 -38.404453 112.05711 -0.21769312 -21.029963
721768750 -0.89359272 173.62445 -38.033413 110.80444 -38.080891 111.20107 -0.22943072 -21.358183
732235937.5 -0.91212845 173.52948 -37.865276 111.83615 -37.938297 112.06841 -0.22349623 -21.61203
742703125 -0.89130646 173.43329 -37.718285 111.21162 -37.829971 112.19511 -0.2376263 -21.921852
753170312.5 -0.89294398 173.3401 -37.564873 110.77026 -37.634773 111.98988 -0.21100859 -22.158247
763637500 -0.8900556 173.24893 -37.330647 111.08215 -37.548065 112.42264 -0.24466403 -22.511524
774104687.5 -0.90399665 173.18837 -37.030781 111.27382 -37.305019 111.96508 -0.13973717 -23.393875
784571875 -0.89042932 173.08049 -36.983761 111.10522 -37.280075 112.73182 -0.25533035 -23.105659
795039062.5 -0.93057644 173.30017 -36.963211 110.39198 -37.156071 111.97335 -0.34431386 -24.014799
805506250 -0.8926844 172.91521 -36.677769 111.50388 -36.953926 113.01642 -0.26553875 -23.685156
815973437.5 -0.83788836 173.3705 -36.60511 113.24591 -36.795036 113.93581 -0.28606969 -23.85442
826440625 -0.89595461 172.73769 -36.388062 112.2811 -36.631729 113.87521 -0.27477953 -24.272463
836907812.5 -0.83517605 172.36665 -36.071602 112.67731 -36.460823 113.98863 -0.28864127 -24.487131
847375000 -0.8949573 172.55022 -36.068634 112.3709 -36.293919 113.86822 -0.28701106 -24.851492
857842187.5 -0.92972225 172.24429 -36.027615 110.63582 -36.161236 113.78746 -0.29522964 -25.207911
868309375 -0.89774454 172.36497 -35.815945 112.79219 -36.031887 114.00085 -0.30009386 -25.410612
878776562.5 -0.95690042 172.60754 -35.96394 114.13472 -35.958961 114.41855 -0.31722358 -25.726664
889243750 -0.90139669 172.17296 -35.402172 112.06692 -35.754356 114.32072 -0.31002152 -25.973059
899710937.5 -0.86821967 172.28192 -35.104969 114.32082 -35.502155 115.05089 -0.32192525 -26.287283
910178125 -0.89807135 171.99152 -35.219162 112.79263 -35.452503 114.65699 -0.31938592 -26.556337
920645312.5 -0.88962209 172.00829 -35.019119 112.6955 -35.233402 113.06295 -0.33209041 -26.806988
931112500 -0.89956439 171.83008 -34.930698 112.92406 -35.157837 114.42002 -0.3302331 -27.129438
941579687.5 -0.89511031 171.74329 -34.865471 113.76456 -35.328712 114.56966 -0.35426608 -27.636648
952046875 -0.90425861 171.65826 -34.70594 113.46967 -34.91013 114.77031 -0.33980691 -27.693388
962514062.5 -0.90810454 171.60875 -34.49017 113.37916 -34.841675 115.66401 -0.39304286 -27.864964
972981250 -0.90106887 171.46579 -34.430328 113.66107 -34.593281 114.88428 -0.35012075 -28.258011
983448437.5 -0.85215449 171.58492 -34.294476 114.33501 -34.47427 114.85884 -0.37162149 -28.426067
993915625 -0.90947181 171.27376 -34.165989 113.83109 -34.330505 115.08056 -0.36302987 -28.823709
1004382812.5 -0.83894354 170.64514 -33.737167 112.62727 -34.231125 116.60668 -0.37399292 -27.919985
1014850000 -0.90256023 171.09921 -33.89629 113.84685 -34.074375 115.37154 -0.37524569 -29.385294
1025317187.5 -0.89756984 170.94827 -34.207722 112.23627 -33.88327 114.97323 -0.36276376 -29.81168
1035784375 -0.89748555 170.92374 -33.679768 114.23992 -33.851971 115.45935 -0.38717261 -29.951694
1046251562.5 -0.9234007 170.7244 -33.696846 116.90804 -33.764103 115.87237 -0.38416636 -30.278419
1056718750 -0.90051037 170.745 -33.41431 114.35307 -33.587059 115.79011 -0.39727324 -30.517019
1067185937.5 -0.91678995 170.64163 -33.217045 114.77676 -33.103348 116.35905 -0.39122266 -30.777235
1077653125 -0.9055326 170.57257 -33.173981 114.49677 -33.278305 115.68008 -0.40771008 -31.07383
1088120312.5 -0.9213379 170.43109 -33.088943 114.2631 -33.208019 113.14529 -0.40495962 -31.372486
1098587500 -0.90612072 170.40112 -32.893085 114.2685 -33.015507 115.27014 -0.41747731 -31.612865
1109054687.5 -0.91618675 170.28535 -32.773521 114.43414 -33.013504 115.576 -0.42122683 -31.885199
1119521875 -0.90551496 170.21471 -32.675461 114.52332 -32.816448 115.71575 -0.42896649 -32.162113
1129989062.5 -0.92331874 170.01796 -32.597935 114.27853 -32.660599 115.61284 -0.43647897 -32.388809
1140456250 -0.90886617 170.01791 -32.451275 114.64622 -32.611618 116.00318 -0.44262055 -32.712238
1150923437.5 -0.91460961 169.89133 -32.324493 114.67088 -32.518635 115.9039 -0.44196284 -32.862316
1161390625 -0.90694696 169.84177 -32.22168 114.75961 -32.363857 116.23351 -0.45493224 -33.259655
1171857812.5 -0.90436709 169.67439 -32.077576 114.9474 -32.140018 116.23467 -0.40700468 -33.36298
1182325000 -0.91358286 169.67505 -31.967487 114.65311 -32.066288 115.9375 -0.46432593 -33.811573
1192792187.5 -0.92613912 169.45465 -31.907717 114.51929 -31.910618 115.58848 -0.36963177 -34.23534
1203259375 -0.90673715 169.5014 -31.763638 114.91057 -31.872551 115.94652 -0.47299978 -34.367317
1213726562.5 -0.93462163 169.41473 -31.506199 114.66955 -31.803514 115.61687 -0.48272535 -34.795616
1224193750 -0.91304493 169.31958 -31.493906 114.4174 -31.67494 116.03185 -0.48331144 -34.91328
1234660937.5 -0.93652725 169.15274 -31.406797 113.90868 -31.563026 115.93333 -0.50492716 -35.155819
1245128125 -0.90874082 169.13306 -31.31391 114.73964 -31.458632 116.00494 -0.49686566 -35.439011
1255595312.5 -0.89735115 169.06142 -31.295845 115.14757 -31.241392 114.88587 -0.50917822 -35.673916
1266062500 -0.9108128 168.94684 -31.106615 114.8009 -31.152124 115.06246 -0.51178169 -35.97084
1276529687.5 -0.90560174 168.78473 -30.882137 112.50544 -31.055603 115.3453 -0.52472085 -36.230484
1286996875 -0.9064191 168.75723 -30.904505 114.92382 -30.975132 115.5019 -0.52414489 -36.514275
1297464062.5 -0.9249537 168.66261 -31.341488 115.73346 -30.847191 115.76952 -0.53250247 -36.755287
1307931250 -0.90683246 168.5766 -30.690159 114.85055 -30.771286 115.52351 -0.53651041 -37.061352
1318398437.5 -0.91579723 168.59724 -30.597464 117.57281 -30.704416 115.47522 -0.54420191 -37.303204
1328865625 -0.90662187 168.41107 -30.450409 114.48895 -30.552177 115.37807 -0.54836863 -37.601429
1339332812.5 -0.90686589 168.37961 -30.192873 112.45871 -30.462341 115.98495 -0.54657686 -37.831284
1349800000 -0.90937406 168.24446 -30.178169 113.69767 -30.35619 115.37148 -0.55769759 -38.126087
1360267187.5 -0.91841817 168.18324 -30.069939 114.66631 -30.245821 115.29529 -0.55777514 -38.41951
1370734375 -0.91144818 168.05644 -30.014235 114.04167 -30.177641 115.15561 -0.56956154 -38.647831
1381201562.5 -0.92103398 168.06563 -29.611597 112.67999 -30.369068 117.41217 -0.58345383 -38.871609
1391668750 -0.91456348 167.85753 -29.822357 114.08267 -30.005085 115.63705 -0.58266836 -39.169819
1402135937.5 -0.9106192 167.86555 -29.869658 113.7767 -29.839397 116.48701 -0.58721077 -39.326828
1412603125 -0.91576105 167.66933 -29.643476 114.20303 -29.791801 115.60181 -0.59693336 -39.688942
1423070312.5 -0.91413802 167.62152 -29.499947 114.6004 -29.705458 114.94105 -0.60462445 -39.888378
1433537500 -0.91735005 167.49356 -29.447275 114.15706 -29.600994 115.55643 -0.60945094 -40.224979
1444004687.5 -0.92288893 167.41904 -29.499163 113.90059 -29.52528 116.10785 -0.62383389 -40.401711
1454471875 -0.91532582 167.32211 -29.255381 114.04703 -29.34709 115.07129 -0.62099516 -40.759392
1464939062.5 -0.93087536 167.27393 -29.223244 115.93842 -29.236828 113.64672 -0.62240088 -40.694527
1475406250 -0.92291504 167.15794 -29.088402 114.19928 -29.221376 115.31155 -0.63189769 -41.281555
1485873437.5 -0.92876875 167.09059 -28.813038 113.81042 -29.504539 115.09044 -0.60372412 -41.442383
1496340625 -0.92569286 166.98503 -28.917786 114.3065 -29.058846 115.50294 -0.6426115 -41.784309
1506807812.5 -0.93956012 166.91727 -29.029474 113.45264 -28.877073 116.47321 -0.63676935 -41.99007
1517275000 -0.92898577 166.7933 -28.735291 114.27362 -28.847862 115.22572 -0.65601754 -42.276611
1527742187.5 -0.93089139 166.73898 -28.730167 114.83121 -28.774305 115.09542 -0.65169024 -42.461128
1538209375 -0.92750859 166.58826 -28.554422 114.24885 -28.674641 115.30493 -0.6687153 -42.789906
1548676562.5 -0.9287203 166.51497 -28.402925 113.68076 -28.42535 116.53909 -0.65468007 -42.950474
1559143750 -0.93253624 166.39848 -28.375826 114.13009 -28.397995 114.15971 -0.68450534 -43.297817
1569610937.5 -0.94733506 166.30226 -28.682552 115.3772 -28.301882 113.28175 -0.66480881 -43.560623
1580078125 -0.92919117 166.23166 -28.203226 114.054 -28.267796 114.44568 -0.69436723 -43.822536
1590545312.5 -0.94136131 166.07079 -28.120695 115.2292 -28.239738 114.29449 -0.68830186 -44.119244
1601012500 -0.93222922 166.0661 -28.037741 114.08897 -28.100126 114.62944 -0.7045626 -44.347916
1611479687.5 -0.94844341 166.00099 -27.949226 113.35445 -27.890249 113.99379 -0.70436913 -44.585949
1621946875 -0.93618619 165.89384 -27.876389 114.09068 -27.914383 114.30914 -0.71853834 -44.849602
1632414062.5 -0.93380505 165.84457 -27.56501 115.03746 -28.014143 113.24696 -0.71773356 -45.107037
1642881250 -0.93874425 165.70547 -27.702948 113.99405 -27.763002 114.16338 -0.73136228 -45.326981
1653348437.5 -0.93159658 165.5925 -27.548723 113.32357 -27.753382 114.53769 -0.73703927 -45.573982
1663815625 -0.93794233 165.51001 -27.537638 113.92387 -27.605762 114.25079 -0.74385035 -45.811195
1674282812.5 -0.93980479 165.40608 -27.517698 114.13657 -27.511856 114.30424 -0.74139059 -46.06414
1684750000 -0.93921459 165.31639 -27.370785 113.79844 -27.457129 114.38309 -0.75544101 -46.314327
1695217187.5 -0.94112867 165.20995 -27.192604 113.63312 -27.377974 114.49413 -0.7586965 -46.619335
1705684375 -0.94016296 165.14302 -27.21723 113.72053 -27.301247 114.40746 -0.76841247 -46.832264
1716151562.5 -0.94672215 165.04329 -27.161871 113.77386 -27.21327 114.33356 -0.77590621 -47.084091
1726618750 -0.94504052 164.98898 -27.04871 113.48125 -27.148489 114.41079 -0.78098202 -47.333782
1737085937.5 -0.94750684 164.88312 -26.797174 113.50858 -27.081516 114.39223 -0.78513128 -47.596886
1747553125 -0.94603366 164.82994 -26.888172 113.38416 -26.971563 114.06022 -0.79354745 -47.82098
1758020312.5 -0.95747328 164.70891 -26.793579 112.15979 -26.849447 113.36026 -0.80861056 -48.156326
1768487500 -0.94850314 164.64943 -26.739895 113.48679 -26.812622 113.69614 -0.80691558 -48.295273
1778954687.5 -0.95877719 164.57083 -26.820436 113.00235 -26.788883 113.55273 -0.83678961 -48.672653
1789421875 -0.95090133 164.46277 -26.588758 113.39354 -26.660631 113.49845 -0.82105607 -48.759792
1799889062.5 -0.94713569 164.39169 -26.538437 113.508 -26.58062 113.71016 -0.82198054 -49.112675
1810356250 -0.95237917 164.28644 -26.436689 113.24601 -26.541353 113.90403 -0.8322829 -49.248726
1820823437.5 -0.95169133 164.14493 -26.337095 113.13652 -26.470448 114.28249 -0.84809542 -49.583759
1831290625 -0.95342004 164.11792 -26.289623 113.2392 -26.379324 113.9851 -0.84389454 -49.740845
1841757812.5 -0.9672811 164.01875 -26.300823 113.14999 -26.210789 115.23386 -0.85650194 -49.964355
1852225000 -0.95551747 163.96313 -26.141092 113.17871 -26.223948 113.91349 -0.85657358 -50.231777
1862692187.5 -0.96262974 163.91113 -25.99823 111.8761 -26.133404 112.66119 -0.86410296 -50.461887
1873159375 -0.96143109 163.80696 -25.991541 113.04126 -26.078205 113.75358 -0.86812961 -50.70734
1883626562.5 -0.95819032 163.74564 -26.31781 111.60603 -26.078394 114.16251 -0.87165874 -50.896587
1894093750 -0.95923048 163.63469 -25.839678 112.89528 -25.90708 113.60829 -0.88084513 -51.176651
1904560937.5 -0.9523322 163.53285 -25.626989 114.4171 -25.806299 113.10093 -0.87814301 -51.418335
1915028125 -0.96294558 163.44707 -25.694485 112.78529 -25.794228 113.24242 -0.8942765 -51.643291
1925495312.5 -0.96697247 163.28398 -25.608076 111.79473 -25.940056 114.27004 -0.902946 -51.805752
1935962500 -0.96482056 163.26118 -25.560234 112.66219 -25.677294 113.54723 -0.90645868 -52.109779
1946429687.5 -0.97152591 163.15102 -25.600351 113.05414 -25.409615 113.92696 -0.91050947 -52.183525
1956896875 -0.96741158 163.09283 -25.422266 112.57672 -25.486032 113.17872 -0.91880286 -52.577705
1967364062.5 -0.97175175 162.92702 -25.338634 111.01054 -25.333925 112.77116 -0.93291563 -52.750553
1977831250 -0.97509444 162.94211 -25.282648 112.30698 -25.346975 113.08469 -0.92818969 -53.061089
1988298437.5 -1.0019209 162.74193 -25.532976 113.4787 -25.322186 112.80193 -0.93437701 -53.309086
1998765625 -0.98188424 162.78917 -25.161102 112.29263 -25.209747 112.69537 -0.94012374 -53.534061
2009232812.5 -1.035973 162.62163 -25.126286 112.68792 -25.279118 111.0891 -0.94256246 -54.72448
2019700000 -0.97625369 162.61865 -25.017965 111.99088 -25.112923 112.68517 -0.95173156 -53.989765
2030167187.5 -0.98388094 162.55382 -24.950163 112.11019 -25.13796 114.48207 -0.93211961 -54.028431
2040634375 -0.97823393 162.44113 -24.897196 112.09509 -24.969992 112.72256 -0.96445411 -54.43856
2051101562.5 -0.98733044 162.35921 -24.835239 112.10079 -24.597681 112.72912 -0.96047813 -54.638519
2061568750 -0.97330165 162.25253 -24.762102 111.89689 -24.83094 112.67999 -0.97561735 -54.898865
2072035937.5 -0.97944772 162.1772 -24.709026 111.89459 -24.720264 111.74876 -0.97407693 -55.075722
2082503125 -0.97374338 162.07219 -24.62866 111.66052 -24.710896 112.49992 -0.98836875 -55.366867
