!Keysight Technologies,N5227A,US51270248,A.10.65.08
!Date: Tuesday, June 11, 2024 07:48:29
!Correction: S11(Full 2 Port(1,4)) 
!S41(Full 2 Port(1,4)) 
!S14(Full 2 Port(1,4)) 
!S44(Full 2 Port(1,4)) 
!S2P File: Measurements: S11, S41, S14, S44:
# Hz S  dB   R 50
10000000 -0.46521285 179.51753 -62.748825 7.3250422 -62.220081 9.6345844 -0.31991938 -0.30679214
30934375 -0.48452947 179.63731 -61.742199 25.741028 -61.776234 26.566109 -0.31683922 -0.99623024
51868750 -0.48101729 179.48628 -60.5653 39.662849 -60.598804 39.611557 -0.32193995 -1.6404091
72803125 -0.47847384 179.27365 -59.268429 49.83736 -59.27832 50.082787 -0.32619041 -2.2699947
93737500 -0.47838771 179.05727 -57.986893 58.536762 -57.980518 58.28566 -0.33127883 -2.8849638
114671875 -0.48129493 178.8517 -56.698486 65.046013 -56.785282 64.722656 -0.33504984 -3.5086613
135606250 -0.48663151 178.68459 -55.624939 70.350372 -55.642864 70.140907 -0.33921272 -4.146337
156540625 -0.48792404 178.53336 -54.564732 74.973572 -54.584648 74.601036 -0.3423931 -4.7896223
177475000 -0.48615533 178.34169 -53.536858 78.624428 -53.586143 78.440849 -0.34765074 -5.4088726
198409375 -0.48856345 178.12091 -52.609291 81.836777 -52.675869 81.575325 -0.3499808 -6.0071893
219343750 -0.4945325 177.9176 -51.749466 84.749954 -51.829285 84.567825 -0.35366109 -6.6237683
240278125 -0.49586871 177.74315 -50.975979 87.28141 -51.015411 87.005379 -0.35944694 -7.2597928
261212500 -0.49519765 177.57178 -50.222721 89.675514 -50.276852 89.207848 -0.36828133 -7.8908896
282146875 -0.49660671 177.39357 -49.487434 91.561943 -49.539238 91.19619 -0.37346309 -8.5158443
303081250 -0.50045455 177.21677 -48.804462 93.335892 -48.802357 93.156563 -0.37857145 -9.1356468
324015625 -0.50300699 177.04993 -48.174458 94.516197 -48.114582 94.126488 -0.38321543 -9.7400208
344950000 -0.50435072 176.85185 -47.56366 96.624458 -47.519257 96.222588 -0.38719252 -10.341246
365884375 -0.50747669 176.67029 -46.978558 98.117622 -46.959435 97.962074 -0.39371449 -10.95007
386818750 -0.50507754 176.50012 -46.398758 99.632927 -46.398224 99.264503 -0.40174636 -11.572109
407753125 -0.50585592 176.33026 -45.838417 100.87889 -45.837524 100.57457 -0.41105884 -12.176967
428687500 -0.50509238 176.14552 -45.312927 102.0257 -45.310455 101.7767 -0.41371202 -12.783962
449621875 -0.50988787 175.95691 -44.802567 102.91475 -44.782555 102.80894 -0.4198755 -13.402491
470556250 -0.5113436 175.7774 -44.315598 104.11826 -44.319447 103.83897 -0.42688233 -14.001577
491490625 -0.51263124 175.59254 -43.848938 105.07985 -43.847786 104.92602 -0.43422288 -14.592209
512425000 -0.51247811 175.40572 -43.370216 105.96996 -43.368614 105.97993 -0.44091591 -15.188836
533359375 -0.51323777 175.22458 -42.96109 106.99504 -42.924015 106.72067 -0.44949615 -15.794283
554293750 -0.51697075 175.05588 -42.486698 107.79569 -42.506985 107.63943 -0.45753545 -16.402403
575228125 -0.51832157 174.8784 -42.056068 108.62989 -42.043575 108.44612 -0.46417546 -16.999449
596162500 -0.52024949 174.69264 -41.635696 109.20554 -41.63065 109.08165 -0.47021252 -17.592337
617096875 -0.52135426 174.50499 -41.238304 109.95589 -41.237946 109.77202 -0.47791368 -18.187717
638031250 -0.52339023 174.32831 -40.859837 110.54245 -40.85363 110.45435 -0.48801875 -18.77725
658965625 -0.52566421 174.15192 -40.459351 111.23327 -40.456779 111.2487 -0.4961884 -19.36635
679900000 -0.52574599 173.97656 -40.089642 111.89745 -40.076244 111.6739 -0.50473726 -19.96158
700834375 -0.52799952 173.80353 -39.728561 112.52127 -39.734715 112.31516 -0.51365411 -20.557249
721768750 -0.52966118 173.62448 -39.357391 113.11712 -39.355999 113.05929 -0.52357364 -21.136108
742703125 -0.53014553 173.43849 -38.980984 113.60114 -38.973648 113.45746 -0.53065127 -21.701525
763637500 -0.52933556 173.25583 -38.661316 114.06894 -38.629368 113.79861 -0.53717464 -22.286751
784571875 -0.53166002 173.08104 -38.326725 114.53924 -38.314064 114.16854 -0.54645115 -22.871796
805506250 -0.53443927 172.90941 -38.005527 115.01543 -38.017818 114.98103 -0.55499798 -23.446363
826440625 -0.53409815 172.73293 -37.616467 115.7279 -37.615883 115.55678 -0.56342238 -24.028234
847375000 -0.53640103 172.54892 -37.28101 115.89002 -37.263363 115.73154 -0.57454181 -24.602272
868309375 -0.53432983 172.36646 -36.971916 116.24086 -36.948097 115.79308 -0.5856325 -25.162924
889243750 -0.53583288 172.17531 -36.648739 116.43918 -36.521473 115.18173 -0.59435672 -25.72253
910178125 -0.53892422 171.99483 -36.34967 116.70129 -36.272106 115.90216 -0.60226578 -26.298502
931112500 -0.5399313 171.82736 -36.057095 117.0245 -35.906956 115.38608 -0.61208063 -26.863916
952046875 -0.54082251 171.65137 -35.763351 117.41202 -35.627514 115.77236 -0.62138122 -27.4233
972981250 -0.54314548 171.46199 -35.458649 117.59471 -35.34523 116.36532 -0.62974924 -27.988914
993915625 -0.54668337 171.27423 -35.165512 117.74936 -34.991982 115.90659 -0.64219832 -28.551394
1014850000 -0.54562992 171.10042 -34.887653 117.95256 -34.762215 116.52348 -0.65156049 -29.113672
1035784375 -0.54601002 170.92433 -34.619709 118.16636 -34.459507 116.20908 -0.66198421 -29.67524
1056718750 -0.55195022 170.7442 -34.328316 118.17677 -34.20882 116.77712 -0.67059141 -30.233816
1077653125 -0.55286044 170.56679 -34.063942 118.46036 -33.954178 117.19695 -0.67850065 -30.787754
1098587500 -0.55640477 170.39362 -33.796833 118.53202 -33.67408 116.94101 -0.68774712 -31.327763
1119521875 -0.55649871 170.21028 -33.54541 118.69745 -33.4739 117.57335 -0.69835013 -31.877012
1140456250 -0.55705214 170.01689 -33.290993 118.74851 -33.073036 116.02963 -0.7109493 -32.419106
1161390625 -0.55806017 169.8416 -33.040001 118.87028 -32.798019 115.93526 -0.72203356 -32.962868
1182325000 -0.55735373 169.67015 -32.797169 119.0577 -32.595356 116.47156 -0.72974122 -33.514027
1203259375 -0.55922323 169.4921 -32.548527 119.05193 -32.364891 116.53493 -0.73699254 -34.062984
1224193750 -0.56345111 169.31067 -32.306774 119.00967 -32.146229 116.72313 -0.74602491 -34.606213
1245128125 -0.56561202 169.12524 -32.075932 119.02385 -31.945395 117.06114 -0.75705296 -35.133209
1266062500 -0.56471068 168.94064 -31.848333 119.11021 -31.718626 117.01994 -0.76910102 -35.667614
1286996875 -0.56464279 168.75296 -31.625238 119.11658 -31.502851 117.14906 -0.77985859 -36.208527
1307931250 -0.56524706 168.57181 -31.401417 119.06368 -31.277248 117.07146 -0.79114783 -36.751522
1328865625 -0.56811917 168.39992 -31.180691 119.07003 -31.063541 117.13091 -0.8007068 -37.288757
1349800000 -0.56856513 168.22943 -30.975084 119.17993 -30.862606 117.22393 -0.80868083 -37.815525
1370734375 -0.57335019 168.04277 -30.75223 119.03864 -30.673685 117.22803 -0.81863409 -38.337399
1391668750 -0.57510823 167.8486 -30.545988 119.08392 -30.455215 117.24356 -0.83064562 -38.857494
1412603125 -0.57573807 167.66148 -30.339272 119.05691 -30.243223 117.2038 -0.84257811 -39.377438
1433537500 -0.57470363 167.48392 -30.134117 119.1049 -29.96739 116.15865 -0.85594583 -39.905769
1454471875 -0.57879949 167.31036 -29.928888 118.98399 -29.780685 116.41547 -0.8642785 -40.43874
1475406250 -0.58430338 167.13881 -29.726776 118.84752 -29.569736 115.86519 -0.8756659 -40.95332
1496340625 -0.58498573 166.96263 -29.540297 118.94773 -29.31954 114.98665 -0.88787317 -41.451439
1517275000 -0.58682245 166.77475 -29.352524 118.94106 -29.117657 114.78339 -0.89820349 -41.946827
1538209375 -0.58861786 166.57581 -29.151588 118.87276 -28.95228 115.13613 -0.90945679 -42.459457
1559143750 -0.59084117 166.38768 -28.960808 118.73635 -28.787811 115.39973 -0.91996115 -42.973366
1580078125 -0.59303194 166.21405 -28.781618 118.70033 -28.620941 115.46912 -0.92874879 -43.491982
1601012500 -0.59513634 166.04379 -28.603424 118.67477 -28.437511 115.37454 -0.93847817 -44.009876
1621946875 -0.59880275 165.86836 -28.419025 118.53591 -28.268097 115.33466 -0.94949788 -44.511803
1642881250 -0.60161281 165.68185 -28.240519 118.4883 -28.099848 115.28381 -0.9601981 -44.995255
1663815625 -0.60455871 165.49098 -28.06267 118.39118 -27.933575 115.28836 -0.97123945 -45.482689
1684750000 -0.60323858 165.30165 -27.889866 118.33486 -27.764566 115.28027 -0.98175675 -45.985027
1705684375 -0.60690147 165.12492 -27.722719 118.16544 -27.589382 115.10008 -0.9928391 -46.49369
1726618750 -0.61177307 164.95926 -27.555574 118.02851 -27.434826 115.09174 -1.0035176 -46.991505
1747553125 -0.61294264 164.79338 -27.386927 118.00697 -27.273695 115.01392 -1.0143862 -47.482342
1768487500 -0.61563224 164.61436 -27.220814 117.91763 -27.117386 114.89149 -1.0246432 -47.961132
1789421875 -0.61735791 164.43149 -27.061073 117.83855 -26.969536 114.92005 -1.036585 -48.431679
1810356250 -0.62170422 164.25502 -26.89477 117.62516 -26.805725 114.78133 -1.0478715 -48.915646
1831290625 -0.62159753 164.08467 -26.740694 117.61294 -26.640251 114.74019 -1.058247 -49.405666
1852225000 -0.62354696 163.92181 -26.581591 117.51461 -26.492188 114.68979 -1.0683697 -49.893993
1873159375 -0.62742162 163.76318 -26.422428 117.32233 -26.33835 114.61926 -1.0787114 -50.372131
1894093750 -0.62915057 163.59248 -26.268616 117.21106 -26.176725 114.47314 -1.0893611 -50.842987
1915028125 -0.63197237 163.40393 -26.109953 117.00151 -26.05443 114.39922 -1.0998292 -51.316246
1935962500 -0.63400573 163.22012 -25.96771 116.91856 -25.898331 114.30179 -1.1117049 -51.781513
1956896875 -0.6384241 163.05208 -25.819868 116.76186 -25.74157 114.19555 -1.120791 -52.251133
1977831250 -0.64098573 162.89868 -25.679888 116.5246 -25.604654 114.0009 -1.1294228 -52.729046
1998765625 -0.64115989 162.73885 -25.551756 116.4719 -25.476097 113.73828 -1.1393236 -53.201344
2019700000 -0.64420968 162.56963 -25.410852 116.32227 -25.356003 113.79895 -1.1488012 -53.66156
2040634375 -0.64560592 162.39348 -25.271666 116.2321 -25.198755 113.47289 -1.1610917 -54.111958
2061568750 -0.64870417 162.21262 -25.12682 115.9855 -25.057262 113.16403 -1.1734203 -54.567139
2082503125 -0.64766848 162.03572 -24.996637 115.93418 -24.931005 113.16557 -1.1821957 -55.034828
2103437500 -0.6470958 161.8699 -24.865984 115.88521 -24.788818 112.65697 -1.1935604 -55.490601
2124371875 -0.64804214 161.70563 -24.726112 115.71601 -24.659111 112.49952 -1.2031883 -55.947639
2145306250 -0.6475634 161.52644 -24.59189 115.61912 -24.530149 112.75817 -1.2115235 -56.400795
2166240625 -0.64650679 161.33636 -24.461916 115.48656 -24.417433 112.92361 -1.2216613 -56.842129
2187175000 -0.64607322 161.14642 -24.327824 115.40908 -24.296312 112.91121 -1.2311001 -57.284153
2208109375 -0.64718205 160.96614 -24.191692 115.22867 -24.174223 112.76677 -1.2416664 -57.73632
2229043750 -0.64461708 160.78078 -24.055437 115.08914 -24.062195 113.11382 -1.2499752 -58.202667
2249978125 -0.64538211 160.59296 -23.929913 114.94677 -23.930431 113.01263 -1.2593397 -58.650261
2270912500 -0.64836276 160.41066 -23.804802 114.80418 -23.801901 112.90679 -1.2670928 -59.085133
2291846875 -0.65074587 160.22946 -23.68297 114.62686 -23.682257 112.6712 -1.2770741 -59.520374
2312781250 -0.65474534 160.03961 -23.559887 114.44236 -23.580139 112.65839 -1.2894275 -59.953461
2333715625 -0.65497673 159.85228 -23.439106 114.34028 -23.45532 112.62547 -1.2993037 -60.395874
2354650000 -0.65607888 159.68393 -23.319891 114.21877 -23.335754 112.31583 -1.3106611 -60.840977
2375584375 -0.65925664 159.5155 -23.199604 114.06304 -23.215393 112.41265 -1.3191494 -61.284756
2396518750 -0.661385 159.33667 -23.076563 113.91936 -23.090881 112.22103 -1.3261197 -61.712128
2417453125 -0.66362214 159.15218 -22.958176 113.79753 -22.98024 112.16766 -1.334794 -62.130352
2438387500 -0.66554797 158.95941 -22.838919 113.69023 -22.843134 112.11063 -1.3437686 -62.550468
2459321875 -0.66719913 158.76517 -22.716856 113.50011 -22.726696 111.72192 -1.3536369 -62.977062
2480256250 -0.67032433 158.58267 -22.599989 113.28488 -22.631393 111.6802 -1.3633461 -63.41169
2501190625 -0.66986388 158.41101 -22.483152 113.19552 -22.521784 111.56824 -1.371287 -63.849163
2522125000 -0.67387247 158.22981 -22.372932 112.95026 -22.397306 111.46388 -1.379181 -64.268341
2543059375 -0.67567545 158.04181 -22.262783 112.87164 -22.273825 111.25375 -1.3870137 -64.673363
2563993750 -0.68099922 157.85318 -22.144905 112.62841 -22.174728 111.09435 -1.3949848 -65.077507
2584928125 -0.68059152 157.66043 -22.034084 112.52232 -22.057543 110.95441 -1.4045935 -65.497261
2605862500 -0.6795724 157.46809 -21.921892 112.351 -21.960112 110.69388 -1.4158157 -65.920944
2626796875 -0.68201017 157.28253 -21.810516 112.10543 -21.862116 110.62128 -1.4247336 -66.347359
2647731250 -0.68378687 157.10597 -21.704023 111.94372 -21.754423 110.48218 -1.4321011 -66.768082
2668665625 -0.68787622 156.92421 -21.601564 111.72453 -21.638451 110.33018 -1.4412223 -67.174683
2689600000 -0.68903422 156.72865 -21.501707 111.61443 -21.530094 110.09373 -1.4487988 -67.567986
2710534375 -0.69449085 156.53647 -21.39724 111.44576 -21.445917 109.82638 -1.4594302 -67.965309
2731468750 -0.69595242 156.35469 -21.281948 111.26696 -21.352652 109.87596 -1.468107 -68.385773
2752403125 -0.69674003 156.17538 -21.182966 111.06518 -21.238358 109.63328 -1.4785432 -68.799072
2773337500 -0.70140338 156.00035 -21.08535 110.86025 -21.125404 109.15102 -1.4882981 -69.209152
2794271875 -0.70475644 155.83138 -20.984953 110.7579 -21.046659 109.10416 -1.4956363 -69.621262
2815206250 -0.71047789 155.65594 -20.881683 110.52744 -20.940523 109.06968 -1.5044241 -70.011719
2836140625 -0.71270359 155.46645 -20.785795 110.38678 -20.827028 108.91515 -1.5126323 -70.395973
2857075000 -0.71993876 155.27711 -20.680445 110.15866 -20.734362 108.56142 -1.5225912 -70.788864
2878009375 -0.72130531 155.11212 -20.577808 109.94612 -20.638634 108.49984 -1.5297348 -71.208641
2898943750 -0.71983325 154.9442 -20.484772 109.79077 -20.560003 108.43977 -1.5377303 -71.621849
2919878125 -0.7215535 154.75696 -20.388615 109.61505 -20.454149 108.4311 -1.5457332 -72.011986
2940812500 -0.72520584 154.56378 -20.293005 109.46784 -20.345627 108.1863 -1.5526534 -72.394691
2961746875 -0.73032051 154.37886 -20.194874 109.23614 -20.253305 108.03931 -1.5602256 -72.773087
2982681250 -0.73133993 154.188 -20.102612 109.05231 -20.161112 107.75481 -1.5704159 -73.152618
3003615625 -0.73034334 153.99339 -20.006954 108.86861 -20.088617 107.65127 -1.5778313 -73.54187
3024550000 -0.7324844 153.81036 -19.922516 108.64852 -19.977545 107.43647 -1.5871047 -73.937065
3045484375 -0.73631865 153.63467 -19.827532 108.50878 -19.888372 107.1246 -1.5950755 -74.334335
3066418750 -0.73971742 153.45668 -19.728926 108.2541 -19.814272 107.01353 -1.6021205 -74.715057
3087353125 -0.73931819 153.25867 -19.644623 108.06938 -19.719172 106.97296 -1.6097758 -75.074921
3108287500 -0.74360609 153.05498 -19.565022 107.85409 -19.626371 106.79106 -1.6191266 -75.440475
3129221875 -0.74465173 152.85831 -19.47547 107.69408 -19.534012 106.54358 -1.6280371 -75.821632
3150156250 -0.74689895 152.67062 -19.377716 107.48804 -19.459572 106.36249 -1.6350187 -76.212227
3171090625 -0.75013977 152.49841 -19.291685 107.25947 -19.378677 106.19749 -1.6423875 -76.596001
3192025000 -0.75589061 152.32736 -19.218985 107.03462 -19.287676 105.99415 -1.6490582 -76.964149
3212959375 -0.75787538 152.14558 -19.135954 106.91644 -19.207077 105.74004 -1.6583152 -77.324043
3233893750 -0.76192504 151.94008 -19.049046 106.69732 -19.143904 105.63124 -1.6668248 -77.683281
3254828125 -0.76403725 151.73549 -18.967487 106.58628 -19.045458 105.57447 -1.6758128 -78.049812
3275762500 -0.76811194 151.54979 -18.874277 106.32441 -18.947056 105.22339 -1.6834072 -78.431725
3296696875 -0.77190512 151.37891 -18.803663 106.10044 -18.888454 104.96836 -1.6902806 -78.806389
3317631250 -0.77722096 151.20279 -18.723755 105.91171 -18.806971 104.7969 -1.6964388 -79.170311
3338565625 -0.78157747 151.01176 -18.645222 105.75134 -18.755409 104.65857 -1.7035329 -79.526276
3359500000 -0.7852633 150.80757 -18.563782 105.61253 -18.662209 104.62766 -1.7127271 -79.872559
3380434375 -0.79165763 150.59882 -18.478846 105.30388 -18.565422 104.31145 -1.720627 -80.229271
3401368750 -0.7953037 150.41226 -18.414516 105.08704 -18.511917 104.19478 -1.7278132 -80.598419
3422303125 -0.79859972 150.23906 -18.341036 105.00259 -18.417063 104.02011 -1.735252 -80.958855
3443237500 -0.80273509 150.06656 -18.253149 104.86349 -18.359894 103.66824 -1.7410468 -81.31588
3464171875 -0.80833769 149.88513 -18.171137 104.57636 -18.302635 103.64436 -1.7475749 -81.665886
3485106250 -0.81569242 149.69183 -18.10471 104.3342 -18.223648 103.57628 -1.75519 -82.005211
3506040625 -0.81738842 149.49576 -18.039619 104.23566 -18.130304 103.53188 -1.7632296 -82.347679
3526975000 -0.82018107 149.30711 -17.961464 104.12635 -18.026167 103.18324 -1.7722292 -82.69249
3547909375 -0.82270259 149.14043 -17.877542 103.91197 -17.986357 102.84949 -1.7785534 -83.063713
3568843750 -0.82313532 148.98361 -17.808161 103.76535 -17.922775 102.90502 -1.7827536 -83.414398
3589778125 -0.82728755 148.81166 -17.720129 103.60502 -17.82645 102.74452 -1.7903492 -83.750404
3610712500 -0.83211148 148.62337 -17.648064 103.30804 -17.758406 102.45193 -1.7961116 -84.08123
3631646875 -0.83476019 148.4305 -17.589375 103.14732 -17.697886 102.38759 -1.8045436 -84.408134
3652581250 -0.83635968 148.22818 -17.512922 103.0499 -17.59412 102.33955 -1.8124855 -84.750565
3673515625 -0.84141076 148.04141 -17.43154 102.86577 -17.509701 101.89455 -1.8192928 -85.109528
3694450000 -0.84295565 147.88557 -17.348463 102.62339 -17.464678 101.67844 -1.8268019 -85.463379
3715384375 -0.84887391 147.72197 -17.286898 102.32074 -17.405144 101.5072 -1.8322228 -85.796585
3736318750 -0.8511976 147.53941 -17.222927 102.23943 -17.343853 101.52734 -1.8373431 -86.109978
3757253125 -0.85553616 147.33879 -17.145514 102.07162 -17.234922 101.39521 -1.8447572 -86.431557
3778187500 -0.86062169 147.14557 -17.083269 101.84693 -17.163218 100.92585 -1.8528581 -86.770409
3799121875 -0.86329263 146.96756 -17.009201 101.72503 -17.110994 100.83556 -1.8606074 -87.1073
3820056250 -0.86426967 146.78848 -16.929121 101.44337 -17.036169 100.52312 -1.8660172 -87.451805
3840990625 -0.86542279 146.62132 -16.880096 101.28295 -17.009357 100.47903 -1.87193 -87.782852
3861925000 -0.86992776 146.43585 -16.801682 101.15086 -16.906458 100.50852 -1.8770643 -88.088226
3882859375 -0.87482232 146.23686 -16.731863 100.89148 -16.812939 100.08261 -1.8817533 -88.401245
3903793750 -0.87799239 146.02948 -16.669357 100.71232 -16.781466 99.871819 -1.8890467 -88.728783
3924728125 -0.88024998 145.8307 -16.610838 100.52948 -16.713882 99.775162 -1.896464 -89.061691
3945662500 -0.88060695 145.64784 -16.543695 100.41535 -16.646122 99.584793 -1.9049767 -89.396095
3966596875 -0.88386911 145.46614 -16.461029 100.19184 -16.570133 99.474892 -1.9095979 -89.717896
3987531250 -0.88929826 145.28462 -16.407682 99.888992 -16.5016 99.20829 -1.9132388 -90.028427
4008465625 -0.89205289 145.09473 -16.352512 99.835403 -16.445114 99.032013 -1.9175061 -90.32943
4029400000 -0.89731729 144.8997 -16.275919 99.691475 -16.375515 98.867867 -1.9249232 -90.633514
4050334375 -0.90086991 144.69675 -16.210514 99.435783 -16.305595 98.602325 -1.931599 -90.963493
4071268750 -0.90254706 144.50249 -16.147274 99.254295 -16.259914 98.46653 -1.9386277 -91.287285
4092203125 -0.90668631 144.32765 -16.085649 99.042549 -16.176283 98.398254 -1.9454751 -91.599792
4113137500 -0.90987802 144.15736 -16.026997 98.924454 -16.102537 97.98201 -1.9499027 -91.897652
4134071875 -0.91613591 143.98431 -15.950279 98.70118 -16.06016 97.862877 -1.954306 -92.200996
4155006250 -0.91925746 143.78737 -15.889184 98.537949 -15.978464 97.605797 -1.9596165 -92.497383
4175940625 -0.923329 143.58929 -15.818043 98.328453 -15.956375 97.360313 -1.9667935 -92.806641
4196875000 -0.92646033 143.40573 -15.765511 98.036469 -15.876152 97.390335 -1.9752434 -93.111252
4217809375 -0.93276602 143.22421 -15.717057 97.881424 -15.793091 96.946617 -1.9794626 -93.418114
