!Keysight Technologies,N5227A,US51270248,A.10.65.08
!Date: Tuesday, June 11, 2024 06:56:20
!Correction: S11(Full 2 Port(1,4)) 
!S41(Full 2 Port(1,4)) 
!S14(Full 2 Port(1,4)) 
!S44(Full 2 Port(1,4)) 
!S2P File: Measurements: S11, S41, S14, S44:
# Hz S  dB   R 50
10000000 -2.0749941 -0.24558704 -13.442996 0.7535044 -13.464165 0.83482224 -2.0765789 -0.21987981
30934375 -2.0757773 -0.74683315 -13.424314 2.3054628 -13.435874 2.3307736 -2.0773439 -0.7016741
51868750 -2.0775619 -1.1970091 -13.406734 3.8713274 -13.40454 3.8795369 -2.0796854 -1.1377745
72803125 -2.0791886 -1.6677226 -13.367437 5.3651114 -13.362702 5.3421426 -2.0813842 -1.6149387
93737500 -2.0825467 -2.1253779 -13.321847 6.8418503 -13.315324 6.8105884 -2.0866961 -2.0767837
114671875 -2.0875053 -2.5902283 -13.267561 8.2950506 -13.257895 8.246582 -2.0938833 -2.5349135
135606250 -2.0926566 -3.0608642 -13.202863 9.714057 -13.193354 9.6560268 -2.1004357 -2.9893692
156540625 -2.0979824 -3.5334213 -13.129923 11.088528 -13.120527 11.023621 -2.1051822 -3.4477639
177475000 -2.1037669 -3.9900334 -13.049456 12.428802 -13.042316 12.365492 -2.1096628 -3.9002409
198409375 -2.1094255 -4.4383349 -12.961819 13.736602 -12.954472 13.662422 -2.1152227 -4.3438802
219343750 -2.1155479 -4.8901854 -12.867105 14.991605 -12.854158 14.914749 -2.1232383 -4.7921724
240278125 -2.1240556 -5.3506727 -12.767558 16.203342 -12.748051 16.113989 -2.1346793 -5.2415953
261212500 -2.1333759 -5.8082767 -12.66209 17.362003 -12.645336 17.27688 -2.1450162 -5.6922522
282146875 -2.142695 -6.2640457 -12.552646 18.490973 -12.535004 18.403788 -2.1532009 -6.1462631
303081250 -2.1508949 -6.7159786 -12.439651 19.568142 -12.420164 19.473551 -2.1627562 -6.5968828
324015625 -2.1604681 -7.1619592 -12.321615 20.60936 -12.30414 20.506952 -2.1722593 -7.0343313
344950000 -2.1710343 -7.6013451 -12.20113 21.602139 -12.182373 21.49342 -2.1812916 -7.4654231
365884375 -2.1816349 -8.0400829 -12.075931 22.54521 -12.058198 22.44109 -2.1914234 -7.8997245
386818750 -2.1938577 -8.4909782 -11.949515 23.440231 -11.93279 23.333693 -2.2033658 -8.3415508
407753125 -2.2066393 -8.9421768 -11.823199 24.294504 -11.805911 24.188513 -2.2162566 -8.7818489
428687500 -2.2196429 -9.3789139 -11.695367 25.118683 -11.675448 25.005089 -2.2275739 -9.2201576
449621875 -2.2293656 -9.8146639 -11.563443 25.894363 -11.543827 25.776653 -2.2393816 -9.6601753
470556250 -2.2416759 -10.255829 -11.431612 26.624931 -11.412522 26.508883 -2.2524602 -10.085345
491490625 -2.2553854 -10.689701 -11.298386 27.315094 -11.279849 27.202625 -2.2648532 -10.504471
512425000 -2.2683122 -11.117875 -11.165522 27.970526 -11.147545 27.859779 -2.2786829 -10.928294
533359375 -2.282393 -11.549273 -11.032084 28.59041 -11.015197 28.474154 -2.2940409 -11.357666
554293750 -2.2971184 -11.983429 -10.900118 29.167265 -10.882743 29.055567 -2.3095541 -11.78858
575228125 -2.3118308 -12.413237 -10.77 29.71839 -10.749974 29.603727 -2.3244777 -12.213995
596162500 -2.3271158 -12.836873 -10.63807 30.238548 -10.619254 30.114567 -2.3382931 -12.634549
617096875 -2.3423512 -13.258235 -10.506827 30.719986 -10.489051 30.602655 -2.3538351 -13.054655
638031250 -2.3583705 -13.676299 -10.37749 31.170338 -10.359689 31.05435 -2.3708811 -13.46855
658965625 -2.3750155 -14.094905 -10.248512 31.593866 -10.231037 31.479567 -2.388123 -13.877864
679900000 -2.392303 -14.517885 -10.121448 31.9953 -10.105521 31.876459 -2.4051895 -14.293607
700834375 -2.4101775 -14.928243 -9.9956751 32.372059 -9.9804993 32.256756 -2.4234669 -14.707031
721768750 -2.4287159 -15.338695 -9.8713083 32.726273 -9.8541002 32.612892 -2.4417651 -15.118163
742703125 -2.4464922 -15.738716 -9.7466984 33.055973 -9.7290659 32.936436 -2.4589937 -15.513494
763637500 -2.4648471 -16.146549 -9.6243734 33.350044 -9.6069813 33.226421 -2.475929 -15.916067
784571875 -2.4830391 -16.560081 -9.5018988 33.639515 -9.4881201 33.508335 -2.4943821 -16.31638
805506250 -2.5028746 -16.965267 -9.3834572 33.897423 -9.3691788 33.783596 -2.5136521 -16.715019
826440625 -2.5229278 -17.366301 -9.2664309 34.140965 -9.2491941 34.02037 -2.5331995 -17.111525
847375000 -2.5428131 -17.760489 -9.1495514 34.374008 -9.133667 34.242775 -2.5549545 -17.504663
868309375 -2.5643334 -18.157019 -9.0342827 34.577557 -9.0200348 34.457741 -2.5764344 -17.888382
889243750 -2.5844278 -18.545588 -8.9196711 34.769897 -8.9035482 34.643631 -2.5952735 -18.270489
910178125 -2.6043365 -18.938313 -8.8056784 34.948097 -8.7912197 34.807686 -2.6146042 -18.66169
931112500 -2.6238647 -19.332375 -8.6931124 35.09914 -8.6811333 34.959187 -2.63515 -19.041494
952046875 -2.644834 -19.721247 -8.5839233 35.229679 -8.5708103 35.100903 -2.6552889 -19.421558
972981250 -2.6662478 -20.100195 -8.4774971 35.350132 -8.4620314 35.213039 -2.677036 -19.803551
993915625 -2.6872978 -20.479832 -8.3720694 35.469631 -8.356884 35.321732 -2.6997755 -20.184414
1014850000 -2.7100556 -20.862568 -8.2653065 35.555935 -8.2536564 35.409203 -2.7213881 -20.565092
1035784375 -2.7330542 -21.241844 -8.1651545 35.628128 -8.1523247 35.495857 -2.7441211 -20.941687
1056718750 -2.7540441 -21.618994 -8.0635929 35.711788 -8.0503626 35.570492 -2.7655549 -21.312365
1077653125 -2.7746787 -21.991072 -7.9625463 35.767433 -7.9502311 35.621281 -2.787394 -21.680115
1098587500 -2.7962112 -22.361429 -7.8652625 35.814838 -7.8525724 35.668541 -2.8093779 -22.035067
1119521875 -2.8202565 -22.721853 -7.7688856 35.854641 -7.7573214 35.705105 -2.8329518 -22.397251
1140456250 -2.844425 -23.075029 -7.6739998 35.877586 -7.6623878 35.736561 -2.8570631 -22.75548
1161390625 -2.8679199 -23.440121 -7.5814576 35.894627 -7.5682211 35.754566 -2.8799405 -23.117552
1182325000 -2.8913558 -23.808357 -7.4895692 35.903244 -7.4772491 35.756741 -2.9028058 -23.47551
1203259375 -2.9144742 -24.169771 -7.3992624 35.899422 -7.3871746 35.749672 -2.9247072 -23.829119
1224193750 -2.937398 -24.528969 -7.3093028 35.888432 -7.2986436 35.738976 -2.9470041 -24.179817
1245128125 -2.9611206 -24.877722 -7.223516 35.866089 -7.2118807 35.720539 -2.971936 -24.520107
1266062500 -2.9865677 -25.229851 -7.1377459 35.848629 -7.1275773 35.69519 -2.9971666 -24.86652
1286996875 -3.0137107 -25.57086 -7.053998 35.809116 -7.0435486 35.668377 -3.0227108 -25.219007
1307931250 -3.0379205 -25.922625 -6.9722414 35.778133 -6.9615221 35.634144 -3.0480909 -25.570137
1328865625 -3.0619004 -26.279308 -6.8899922 35.741745 -6.8803539 35.588699 -3.0719409 -25.915543
1349800000 -3.0861769 -26.625309 -6.8106804 35.689144 -6.8009782 35.535183 -3.095921 -26.250622
1370734375 -3.1107914 -26.972347 -6.7314253 35.644749 -6.7238388 35.480846 -3.120841 -26.576725
1391668750 -3.1364806 -27.300541 -6.6533971 35.583595 -6.6456709 35.43195 -3.145741 -26.911409
1412603125 -3.162519 -27.634651 -6.5780797 35.520313 -6.5696502 35.364887 -3.1730769 -27.24641
1433537500 -3.1897018 -27.970135 -6.5033455 35.447193 -6.4957538 35.295876 -3.1992579 -27.581455
1454471875 -3.215579 -28.307384 -6.4314771 35.367889 -6.4226537 35.21936 -3.2245028 -27.920591
1475406250 -3.2401271 -28.647545 -6.3595777 35.298107 -6.3526106 35.141598 -3.2502608 -28.245161
1496340625 -3.264904 -28.975016 -6.2880063 35.218365 -6.2813501 35.069946 -3.2743194 -28.560671
1517275000 -3.2901757 -29.28936 -6.2191839 35.133678 -6.2120247 34.984856 -3.3003032 -28.866962
1538209375 -3.316884 -29.606424 -6.1500363 35.056896 -6.1430745 34.906723 -3.3264415 -29.181517
1559143750 -3.3439839 -29.922625 -6.0811124 34.954544 -6.0753379 34.810623 -3.3543427 -29.498491
1580078125 -3.3697417 -30.246363 -6.0165601 34.856506 -6.0089622 34.716499 -3.3806977 -29.815252
1601012500 -3.3961184 -30.569895 -5.9518552 34.761639 -5.9436989 34.615707 -3.4059019 -30.134659
1621946875 -3.4214025 -30.885487 -5.8889804 34.660641 -5.8807206 34.507351 -3.4321682 -30.441801
1642881250 -3.4474418 -31.201851 -5.8247023 34.567192 -5.8185425 34.413315 -3.4581449 -30.733795
1663815625 -3.4746425 -31.502514 -5.7615037 34.459545 -5.7557564 34.308086 -3.4851334 -31.031343
1684750000 -3.5028269 -31.802904 -5.7008176 34.347996 -5.6957417 34.196568 -3.5121722 -31.327274
1705684375 -3.5307162 -32.107418 -5.6409149 34.226353 -5.6352587 34.085827 -3.5397878 -31.637501
1726618750 -3.5572441 -32.421532 -5.5842113 34.120152 -5.5773406 33.97123 -3.5670958 -31.938231
1747553125 -3.585067 -32.735352 -5.5259337 34.017479 -5.5204058 33.854492 -3.5939825 -32.237511
1768487500 -3.6132708 -33.030796 -5.4671373 33.899101 -5.4643826 33.746597 -3.6209621 -32.522785
1789421875 -3.6399863 -33.318195 -5.4115434 33.779705 -5.409174 33.632977 -3.6484978 -32.802921
1810356250 -3.6679065 -33.616386 -5.3559337 33.664955 -5.3533707 33.520821 -3.6759651 -33.090904
1831290625 -3.6957507 -33.910572 -5.3010011 33.550209 -5.2972326 33.396713 -3.703397 -33.376652
1852225000 -3.7233846 -34.205204 -5.2480621 33.429405 -5.2434483 33.266914 -3.7316079 -33.666409
1873159375 -3.7513664 -34.503414 -5.1943822 33.295452 -5.1914101 33.146503 -3.7581627 -33.948204
1894093750 -3.7778511 -34.787785 -5.144619 33.164623 -5.1400452 33.014946 -3.7864742 -34.230686
1915028125 -3.8052745 -35.073135 -5.092638 33.049973 -5.0917416 32.894386 -3.8150122 -34.499161
1935962500 -3.8320351 -35.349739 -5.0428772 32.922428 -5.0397072 32.783112 -3.8409145 -34.772026
1956896875 -3.8586955 -35.637138 -4.9908209 32.80698 -4.988266 32.645401 -3.8689559 -35.053471
1977831250 -3.8877189 -35.909973 -4.9402661 32.654976 -4.9400744 32.508568 -3.896364 -35.32349
1998765625 -3.9133172 -36.183521 -4.8955374 32.515656 -4.8928289 32.373302 -3.9228828 -35.596844
2019700000 -3.9393682 -36.465889 -4.8495884 32.392597 -4.8468876 32.251274 -3.9505556 -35.854603
2040634375 -3.9670863 -36.736393 -4.8030519 32.265865 -4.7991514 32.12421 -3.9775655 -36.11974
2061568750 -3.9953773 -37.000992 -4.7563286 32.13681 -4.7540979 31.987411 -4.0060878 -36.38237
2082503125 -4.0233765 -37.266197 -4.7109184 31.999191 -4.7099299 31.853567 -4.0343108 -36.645267
2103437500 -4.0510945 -37.535297 -4.6666207 31.859011 -4.6658716 31.719074 -4.0618091 -36.900211
2124371875 -4.0790777 -37.804676 -4.6242805 31.726332 -4.6226377 31.587778 -4.0876961 -37.151691
2145306250 -4.1072421 -38.069572 -4.5813899 31.591957 -4.5800133 31.454422 -4.1140957 -37.409908
2166240625 -4.1342034 -38.326092 -4.5401411 31.461157 -4.5382557 31.31679 -4.1429539 -37.657738
2187175000 -4.1635108 -38.586304 -4.4976578 31.333315 -4.4972544 31.182549 -4.1723228 -37.901352
2208109375 -4.1928215 -38.844212 -4.4563141 31.193047 -4.4576292 31.051065 -4.2011685 -38.147213
2229043750 -4.2223577 -39.105858 -4.4152203 31.067177 -4.4168525 30.921312 -4.2281733 -38.402195
2249978125 -4.2511711 -39.360291 -4.3750587 30.927019 -4.3762512 30.786264 -4.2548118 -38.654861
2270912500 -4.2780447 -39.619907 -4.3359108 30.790777 -4.3365846 30.64678 -4.2822795 -38.895187
2291846875 -4.3061218 -39.870148 -4.2978749 30.65139 -4.2984667 30.507679 -4.3105121 -39.131077
2312781250 -4.3339863 -40.118427 -4.2616425 30.525898 -4.261364 30.382597 -4.339211 -39.364811
2333715625 -4.3627787 -40.367073 -4.2213254 30.399021 -4.2236891 30.246595 -4.3688402 -39.611256
2354650000 -4.3915896 -40.613983 -4.1838193 30.25263 -4.1866889 30.110165 -4.3976274 -39.853508
2375584375 -4.419425 -40.858719 -4.1474543 30.11311 -4.1488152 29.974258 -4.4245667 -40.098824
2396518750 -4.4456644 -41.100887 -4.1123095 29.97892 -4.1140895 29.835009 -4.4518504 -40.326729
2417453125 -4.4722037 -41.339661 -4.0761819 29.842033 -4.0788636 29.710299 -4.477869 -40.541428
2438387500 -4.4986954 -41.568722 -4.0415359 29.707655 -4.0418806 29.572229 -4.5052686 -40.771347
2459321875 -4.5270796 -41.796696 -4.0052428 29.574215 -4.0077929 29.435278 -4.534112 -40.988449
2480256250 -4.5541716 -42.029121 -3.9710701 29.436571 -3.9739797 29.295099 -4.5618186 -41.216267
2501190625 -4.5825715 -42.269386 -3.9357324 29.299334 -3.9402533 29.161972 -4.5882354 -41.444134
2522125000 -4.610116 -42.491993 -3.9031646 29.143578 -3.905957 29.019592 -4.6132531 -41.667896
2543059375 -4.6355829 -42.71983 -3.8729579 29.014019 -3.8731751 28.87677 -4.6394186 -41.889217
2563993750 -4.663229 -42.943855 -3.840416 28.884378 -3.8418868 28.750633 -4.6666031 -42.090893
2584928125 -4.691268 -43.16547 -3.8081512 28.747467 -3.8099289 28.612835 -4.6939826 -42.301273
2605862500 -4.7202859 -43.374283 -3.7759833 28.609344 -3.7793908 28.475027 -4.7236352 -42.512451
2626796875 -4.7477889 -43.595604 -3.7444379 28.472813 -3.7475364 28.340172 -4.7503142 -42.735634
2647731250 -4.7760105 -43.82724 -3.7127936 28.329426 -3.717175 28.202232 -4.7751789 -42.960884
2668665625 -4.8029857 -44.043198 -3.683985 28.183029 -3.6858928 28.059467 -4.8018193 -43.181774
2689600000 -4.8289948 -44.253807 -3.6568677 28.049042 -3.658062 27.917166 -4.8292642 -43.384094
2710534375 -4.8544602 -44.471424 -3.6289406 27.928946 -3.6298783 27.792376 -4.8576789 -43.577938
2731468750 -4.8828731 -44.700325 -3.5965734 27.808533 -3.6000841 27.663353 -4.8847003 -43.785168
2752403125 -4.9123411 -44.903858 -3.565269 27.650436 -3.5713737 27.521439 -4.9116621 -44.006405
2773337500 -4.9376683 -45.111954 -3.5392222 27.509739 -3.5433679 27.374281 -4.9400787 -44.229149
2794271875 -4.9631915 -45.332558 -3.5129676 27.374796 -3.5167103 27.235693 -4.9665794 -44.4272
2815206250 -4.9881477 -45.550549 -3.4852681 27.239445 -3.4880178 27.107466 -4.9902029 -44.633343
2836140625 -5.0148916 -45.749279 -3.4591553 27.109003 -3.4620383 26.968981 -5.018373 -44.835594
2857075000 -5.0403557 -45.951626 -3.4321148 26.984032 -3.4358044 26.835596 -5.0462084 -45.021473
2878009375 -5.0687442 -46.156261 -3.4031041 26.838663 -3.409039 26.700556 -5.0736842 -45.228813
2898943750 -5.0952964 -46.356438 -3.3775773 26.690596 -3.3844235 26.561419 -5.099618 -45.425514
2919878125 -5.1205182 -46.558327 -3.3541319 26.557426 -3.3579819 26.425314 -5.1228476 -45.634579
2940812500 -5.1451616 -46.756683 -3.3303654 26.431328 -3.3330233 26.287506 -5.1497507 -45.832703
2961746875 -5.1715827 -46.958839 -3.3042665 26.296478 -3.3086302 26.156517 -5.1750402 -46.013676
2982681250 -5.1972132 -47.145035 -3.2808406 26.163908 -3.2852802 26.024582 -5.2025785 -46.19976
3003615625 -5.2253389 -47.338089 -3.2555466 26.031256 -3.2618022 25.900904 -5.22891 -46.373745
3024550000 -5.2512608 -47.516724 -3.2319071 25.884176 -3.2364264 25.761707 -5.2536211 -46.586349
3045484375 -5.275239 -47.718414 -3.2094469 25.76491 -3.2134638 25.620554 -5.2805181 -46.783897
3066418750 -5.3021955 -47.923466 -3.1848276 25.637594 -3.1904407 25.489626 -5.305017 -46.960003
3087353125 -5.3288655 -48.107067 -3.1616151 25.497293 -3.1675961 25.361614 -5.329227 -47.143661
3108287500 -5.3543582 -48.274944 -3.1418164 25.356785 -3.1461158 25.235817 -5.3572621 -47.324993
3129221875 -5.3779531 -48.465363 -3.1216848 25.239525 -3.1244526 25.107183 -5.3848696 -47.516655
3150156250 -5.4040408 -48.672596 -3.0982091 25.130417 -3.1026382 24.973963 -5.4109654 -47.70158
3171090625 -5.4319711 -48.869808 -3.0728934 24.994965 -3.0808799 24.844097 -5.4346194 -47.893227
3192025000 -5.4569983 -49.042568 -3.052315 24.841154 -3.059659 24.706884 -5.4597278 -48.078812
3212959375 -5.4799385 -49.220711 -3.034724 24.718931 -3.039902 24.577383 -5.4867635 -48.258141
3233893750 -5.5041418 -49.407242 -3.0133865 24.6015 -3.0194898 24.459557 -5.5121255 -48.417885
3254828125 -5.528666 -49.582424 -2.9941552 24.48156 -2.9976814 24.337772 -5.536984 -48.608334
3275762500 -5.554595 -49.78056 -2.9703727 24.365715 -2.977952 24.20027 -5.5665345 -48.800816
3296696875 -5.5809183 -49.95266 -2.9494021 24.210953 -2.9584501 24.075241 -5.5904932 -48.972092
3317631250 -5.6038499 -50.136875 -2.931989 24.08894 -2.9391377 23.943388 -5.614521 -49.159065
3338565625 -5.627584 -50.308109 -2.9131212 23.960634 -2.9209483 23.820511 -5.637979 -49.310684
3359500000 -5.6503067 -50.475052 -2.8947437 23.843231 -2.9000309 23.69804 -5.6607447 -49.489864
3380434375 -5.676897 -50.64772 -2.8735909 23.724798 -2.8818929 23.572264 -5.6896896 -49.667633
3401368750 -5.7030759 -50.809475 -2.854212 23.575636 -2.8642147 23.455133 -5.7153673 -49.829029
3422303125 -5.726378 -50.980377 -2.8396325 23.456587 -2.8458152 23.322563 -5.7403917 -50.022736
3443237500 -5.750216 -51.174427 -2.8217266 23.355734 -2.8290443 23.203487 -5.7660432 -50.190086
3464171875 -5.7759795 -51.347408 -2.7997649 23.231491 -2.8107278 23.089308 -5.786541 -50.343742
3485106250 -5.801476 -51.499683 -2.7816801 23.096415 -2.7921684 22.97061 -5.8089304 -50.507114
3506040625 -5.8254027 -51.639843 -2.7665596 22.960426 -2.7737522 22.845987 -5.8349867 -50.679707
3526975000 -5.8478489 -51.798359 -2.7526972 22.858673 -2.7574568 22.721016 -5.8640141 -50.848545
3547909375 -5.8739681 -51.986118 -2.7326531 22.750744 -2.7419748 22.609623 -5.8915377 -51.003132
3568843750 -5.8979354 -52.15266 -2.7163131 22.618025 -2.7238424 22.496338 -5.9103627 -51.1689
3589778125 -5.9200149 -52.334881 -2.6993408 22.524769 -2.7066045 22.368494 -5.9324145 -51.351608
3610712500 -5.9463863 -52.490101 -2.6790025 22.391529 -2.6909549 22.250162 -5.9574127 -51.494755
3631646875 -5.9689598 -52.624477 -2.6664224 22.253164 -2.6736686 22.137924 -5.9801264 -51.63707
3652581250 -5.9903417 -52.781094 -2.6521537 22.153486 -2.6563361 22.015594 -6.0056553 -51.810482
3673515625 -6.012743 -52.952805 -2.6359944 22.054382 -2.6412368 21.892223 -6.0348845 -51.971729
3694450000 -6.0372863 -53.148045 -2.6157134 21.944336 -2.6259193 21.776709 -6.0584879 -52.123528
3715384375 -6.0635014 -53.315804 -2.5972805 21.802166 -2.611649 21.662552 -6.0802131 -52.282894
3736318750 -6.0836945 -53.459587 -2.5855789 21.68273 -2.5946183 21.54985 -6.0980673 -52.436123
3757253125 -6.1038175 -53.611454 -2.5698187 21.585751 -2.5796514 21.423803 -6.1223011 -52.602638
3778187500 -6.1287823 -53.750195 -2.5540962 21.453947 -2.5653422 21.31064 -6.1496973 -52.735172
3799121875 -6.1512647 -53.903736 -2.5419242 21.352009 -2.5502031 21.203388 -6.1731191 -52.881908
3820056250 -6.1773238 -54.081123 -2.520946 21.242521 -2.5367341 21.08744 -6.2006564 -53.038059
3840990625 -6.2003727 -54.215317 -2.5095196 21.09552 -2.521292 20.981236 -6.2198992 -53.173336
3861925000 -6.219593 -54.377007 -2.4969459 21.004408 -2.5063398 20.862087 -6.2373152 -53.355549
3882859375 -6.2431464 -54.525833 -2.4795308 20.89422 -2.4929011 20.747648 -6.2630196 -53.501442
3903793750 -6.2656102 -54.653854 -2.4658475 20.771029 -2.4780817 20.640602 -6.2852526 -53.615273
3924728125 -6.289464 -54.782379 -2.4523783 20.644306 -2.4640291 20.524826 -6.3075385 -53.757385
3945662500 -6.3102217 -54.922184 -2.4428051 20.53861 -2.4503262 20.412094 -6.3306274 -53.90797
3966596875 -6.331778 -55.105839 -2.426192 20.450201 -2.4371116 20.297976 -6.3529739 -54.07391
3987531250 -6.3582039 -55.25489 -2.4096117 20.313381 -2.4243143 20.190369 -6.3747115 -54.224655
4008465625 -6.3782277 -55.380005 -2.4020824 20.195286 -2.4101319 20.084793 -6.3939209 -54.354511
4029400000 -6.3971777 -55.527401 -2.3894405 20.109678 -2.3971355 19.976938 -6.4137855 -54.485435
4050334375 -6.4216986 -55.661942 -2.3747737 19.999611 -2.3835096 19.867743 -6.4367299 -54.627934
4071268750 -6.443368 -55.80455 -2.3623245 19.892181 -2.369998 19.7575 -6.4590669 -54.752033
4092203125 -6.4661121 -55.967598 -2.3478065 19.776165 -2.3578589 19.643354 -6.4812875 -54.912968
4113137500 -6.4868321 -56.109348 -2.3389795 19.66503 -2.3465571 19.537437 -6.5050373 -55.044094
4134071875 -6.5055032 -56.286083 -2.324755 19.582041 -2.3337517 19.433929 -6.5232205 -55.176254
4155006250 -6.5259171 -56.420403 -2.3118601 19.473295 -2.3215978 19.325964 -6.5445142 -55.312752
4175940625 -6.5476985 -56.56403 -2.2982852 19.385698 -2.3092577 19.22661 -6.5656953 -55.41444
4196875000 -6.5734005 -56.691925 -2.2815316 19.248636 -2.2969377 19.112576 -6.5839686 -55.562675
4217809375 -6.5928378 -56.804779 -2.2752528 19.133924 -2.2857959 19.007133 -6.6088166 -55.692368
4238743750 -6.61132 -56.980724 -2.2636151 19.057806 -2.2743654 18.904276 -6.6292925 -55.80883
