!Keysight Technologies,N5227A,US51270248,A.10.65.08
!Date: Tuesday, June 11, 2024 06:12:15
!Correction: S11(Full 2 Port(1,4)) 
!S41(Full 2 Port(1,4)) 
!S14(Full 2 Port(1,4)) 
!S44(Full 2 Port(1,4)) 
!S2P File: Measurements: S11, S41, S14, S44:
# Hz S  dB   R 50
10000000 0.0017541805 -0.015657794 -78.788895 -63.093777 -74.946999 135.1178 -0.00097297871 -0.017131336
30934375 0.0039094924 -0.081721671 -79.661186 90.225639 -81.532333 88.20153 0.0023545267 -0.069927774
51868750 0.0028366998 -0.12527826 -76.324997 89.268532 -76.86039 84.441154 0.0023874301 -0.11545341
72803125 0.0029780515 -0.16218348 -73.547508 90.106544 -73.887123 90.47715 0.002034161 -0.15262754
93737500 0.0024958728 -0.19338642 -71.396568 89.253746 -71.406052 88.648659 0.0014851904 -0.19071914
114671875 0.0023542698 -0.23236063 -69.344772 85.461769 -69.298225 86.275177 0.00072072662 -0.2325286
135606250 0.0028766231 -0.27779353 -68.929794 87.045448 -68.824577 86.937111 0.00062131009 -0.27844626
156540625 0.0033200465 -0.32861987 -67.20797 88.91732 -67.266647 89.164108 0.00067578454 -0.32706186
177475000 0.0030533804 -0.37044594 -65.962837 90.256439 -65.947479 91.653252 0.0009150909 -0.36988208
198409375 0.0034987549 -0.40212721 -64.460907 89.514465 -64.631454 88.920288 0.0017914363 -0.40373361
219343750 0.0048013497 -0.44072044 -63.400341 87.42897 -63.294312 87.047813 0.0024431818 -0.44395757
240278125 0.0034486626 -0.48308948 -63.410992 77.389809 -63.384949 77.172661 0.00086467824 -0.4862572
261212500 0.0024604129 -0.52670228 -63.304531 85.516037 -63.449268 84.358749 0.00049297564 -0.53236091
282146875 0.0020210347 -0.57129312 -62.22541 86.403572 -62.387344 86.589607 -0.00023147608 -0.58280039
303081250 0.0023529003 -0.61456072 -61.691628 87.080856 -61.548206 86.955826 0.00012429201 -0.62746936
324015625 0.0027618736 -0.65527159 -60.79071 87.809998 -60.841602 87.62606 0.00037911776 -0.6671266
344950000 0.0029005862 -0.69129729 -60.225628 87.713348 -60.225807 86.783554 0.0010793934 -0.70467591
365884375 0.0033818411 -0.73032731 -59.630997 87.055626 -59.641178 86.671822 0.0016525883 -0.74653304
386818750 0.0024686207 -0.77745426 -59.029819 87.054558 -58.973251 87.292023 0.00073158118 -0.79426384
407753125 0.00078765594 -0.82763422 -58.459686 86.230095 -58.385689 86.295837 -0.00057133986 -0.8426947
428687500 -0.00047923828 -0.86534923 -58.030491 85.158379 -57.99511 84.923424 -0.00035730336 -0.88712019
449621875 0.0014156335 -0.90530735 -57.556698 85.480202 -57.482056 85.59304 0.00018180358 -0.93714219
470556250 0.0018276318 -0.95245272 -56.991131 84.415367 -56.962124 84.199066 0.00016620006 -0.98018241
491490625 0.0016850508 -0.99398071 -56.691658 83.327446 -56.648289 83.322868 0.0001455732 -1.0189748
512425000 0.0015189793 -1.0347193 -56.209431 83.873177 -56.085831 84.033569 0.0010165503 -1.0611483
533359375 0.0010414806 -1.0800002 -55.625767 82.670258 -55.577652 82.298805 -0.00013052355 -1.1101111
554293750 0.00021654472 -1.1267767 -55.246246 80.80661 -55.233189 80.783615 -0.0012997891 -1.1597943
575228125 -0.0011565302 -1.168974 -55.200676 79.502014 -55.151646 79.406311 -0.0019448864 -1.2053838
596162500 -0.00029428015 -1.2126851 -54.817951 81.439415 -54.76688 81.795044 -0.00071265927 -1.2531781
617096875 -0.00020522186 -1.2590753 -54.117207 82.130554 -54.078915 81.763748 -0.00086199638 -1.3034917
638031250 -0.00069747609 -1.3043424 -53.370735 80.537804 -53.393219 79.866829 -0.0025294358 -1.3528233
658965625 -0.00074390136 -1.3518443 -52.901463 78.674583 -52.899841 78.503906 -0.0040404121 -1.3950578
679900000 -0.0030107405 -1.4083899 -52.320587 76.298775 -52.30439 76.543198 -0.0050114859 -1.4503642
700834375 -0.0067986501 -1.4490751 -51.599186 71.347733 -51.590801 70.751099 -0.0091059683 -1.4988881
721768750 -0.0093085282 -1.4790599 -51.745472 68.82206 -51.755459 68.738457 -0.010342304 -1.5409688
742703125 -0.011406779 -1.5278445 -50.565315 65.320404 -50.561703 64.8647 -0.013481984 -1.5875863
763637500 -0.016515197 -1.5582373 -50.157417 52.299156 -50.067734 52.128716 -0.01806959 -1.6205087
784571875 -0.01853876 -1.5473397 -51.483932 34.963924 -51.412354 34.803459 -0.022106672 -1.6041183
805506250 -0.011478264 -1.5836616 -55.689999 50.026398 -55.731651 49.791965 -0.011002363 -1.6163213
826440625 -0.016647162 -1.6421324 -53.306179 56.69202 -53.186913 56.404346 -0.011384384 -1.7003766
847375000 -0.020352039 -1.6492845 -52.744987 48.848892 -52.727055 48.727859 -0.016238978 -1.743883
868309375 -0.02008423 -1.6541382 -53.661015 41.893539 -53.632759 41.675652 -0.019582717 -1.7638675
889243750 -0.016799506 -1.6724702 -54.962818 41.123043 -55.005619 40.855572 -0.017680552 -1.7794209
910178125 -0.012865531 -1.7076619 -56.308155 45.634956 -56.261055 45.381058 -0.015535037 -1.8113346
931112500 -0.0099473782 -1.7534745 -56.910252 52.868759 -56.846161 52.776325 -0.013268099 -1.8425821
952046875 -0.0086522372 -1.7961656 -57.24641 61.859283 -57.234657 62.143959 -0.010600723 -1.8794783
972981250 -0.0074779093 -1.8381023 -56.558014 70.612724 -56.637257 70.818596 -0.0091044214 -1.9355906
993915625 -0.007217065 -1.8787996 -55.901184 72.667511 -55.788506 72.872368 -0.0099611133 -1.9829935
1014850000 -0.0065856371 -1.9262581 -55.405895 73.201546 -55.423687 72.736885 -0.010007798 -2.0294797
1035784375 -0.0072524124 -1.9720658 -55.280666 77.014862 -55.260098 77.164017 -0.0099958908 -2.0751116
1056718750 -0.006302455 -2.0089018 -54.746704 79.794525 -54.631599 79.367744 -0.0093867676 -2.1186962
1077653125 -0.0045272554 -2.0518799 -54.112324 80.361298 -54.087742 80.291718 -0.0077084615 -2.1618352
1098587500 -0.0039499979 -2.0931416 -53.694359 79.835068 -53.685909 79.921173 -0.0071687279 -2.2039995
1119521875 -0.0043832795 -2.1306057 -53.475681 80.400238 -53.372307 80.13855 -0.0073452541 -2.2450836
1140456250 -0.004790944 -2.1699059 -53.0224 80.777924 -53.002422 80.928566 -0.0075718295 -2.2890711
1161390625 -0.0049603945 -2.2108634 -52.715706 80.302116 -52.722206 80.309158 -0.0071500158 -2.333096
1182325000 -0.004700494 -2.2562227 -52.4645 79.933548 -52.390221 80.173843 -0.0060406174 -2.3782814
1203259375 -0.00413098 -2.2996874 -52.261967 79.472427 -52.220783 79.279053 -0.0047500683 -2.4269474
1224193750 -0.0021503156 -2.3390458 -52.149017 79.381058 -52.13731 79.329269 -0.0042302781 -2.4711318
1245128125 -0.0014901572 -2.3820693 -51.951267 80.210007 -51.944733 79.869812 -0.0041689677 -2.512723
1266062500 -0.0026502586 -2.4232755 -51.730324 80.064758 -51.729816 79.88839 -0.0050576758 -2.5545404
1286996875 -0.0043637985 -2.4639468 -51.552597 80.212494 -51.539593 80.124672 -0.0058279592 -2.6022892
1307931250 -0.0045733145 -2.5039108 -51.323509 80.067535 -51.29208 80.085838 -0.0059604859 -2.6510184
1328865625 -0.0040085651 -2.5521889 -51.150486 80.235146 -51.125652 79.946243 -0.0060794265 -2.7035978
1349800000 -0.003471951 -2.5987968 -50.99157 79.862358 -50.968094 79.76033 -0.0055829594 -2.748023
1370734375 -0.0033084764 -2.6411223 -50.840401 80.365791 -50.784737 80.032486 -0.0050144722 -2.7887132
1391668750 -0.0038318657 -2.6757832 -50.592636 80.180527 -50.563534 79.991478 -0.0048561585 -2.832355
1412603125 -0.0043766489 -2.7125914 -50.446087 79.859116 -50.447021 79.606651 -0.0056154821 -2.8785899
1433537500 -0.0053193914 -2.7539461 -50.352699 79.864227 -50.327171 79.751923 -0.0065224986 -2.9275465
1454471875 -0.0055725537 -2.7997167 -50.200706 80.048836 -50.19334 79.772049 -0.0068541933 -2.9788687
1475406250 -0.0049531166 -2.8464308 -50.067196 80.268204 -49.986851 80.204178 -0.0073380005 -3.029124
1496340625 -0.00466173 -2.8922882 -49.83136 80.244835 -49.821392 80.052574 -0.0065399236 -3.0725427
1517275000 -0.0043407101 -2.9280882 -49.716618 80.090218 -49.695694 79.905731 -0.0065710112 -3.1096885
1538209375 -0.0045069964 -2.963552 -49.566696 80.2444 -49.547863 80.137276 -0.0065861647 -3.1516666
1559143750 -0.0042010052 -3.0040479 -49.33551 80.562202 -49.317112 80.329063 -0.0078310613 -3.1963656
1580078125 -0.0048679844 -3.0530803 -49.125618 80.04612 -49.110077 79.902199 -0.0081733912 -3.246212
1601012500 -0.0054648304 -3.1002893 -48.932716 79.630463 -48.900841 79.461853 -0.0077355537 -3.2964425
1621946875 -0.0056088758 -3.1447287 -48.801491 78.844704 -48.79438 78.664673 -0.0086156726 -3.3454468
1642881250 -0.0050040958 -3.1850631 -48.714649 78.568535 -48.70055 78.485672 -0.0084899534 -3.3869669
1663815625 -0.0047664628 -3.2204158 -48.644093 78.316368 -48.600586 78.248787 -0.0089801215 -3.422416
1684750000 -0.0051274174 -3.25859 -48.529995 78.46167 -48.499817 78.223473 -0.0096486816 -3.464952
1705684375 -0.0060407207 -3.3023591 -48.366318 78.327713 -48.339336 78.324501 -0.010482051 -3.5124941
1726618750 -0.007276352 -3.3500819 -48.195541 78.090279 -48.16227 78.053436 -0.011576924 -3.5611007
1747553125 -0.0082963379 -3.3975368 -48.060925 78.04744 -48.040447 77.962097 -0.011826018 -3.6087613
1768487500 -0.0093822069 -3.4395854 -47.912659 77.692703 -47.879513 77.596001 -0.012907506 -3.6541286
1789421875 -0.0091693709 -3.4776065 -47.761974 77.391006 -47.738407 77.235825 -0.013760262 -3.6931384
1810356250 -0.009931827 -3.5165403 -47.614288 76.966743 -47.605122 76.874535 -0.014164556 -3.7309136
1831290625 -0.010735806 -3.5546784 -47.503593 76.531197 -47.461517 76.350708 -0.015107255 -3.7716494
1852225000 -0.011944483 -3.5960221 -47.390278 76.009949 -47.380333 75.830627 -0.016165322 -3.8160877
1873159375 -0.012853592 -3.6416991 -47.334431 75.553123 -47.295547 75.22702 -0.016997483 -3.8619444
1894093750 -0.013481503 -3.6836462 -47.256123 75.569725 -47.228542 75.262497 -0.017993407 -3.9081366
1915028125 -0.013652737 -3.7249124 -47.076 75.623466 -47.064716 75.37706 -0.019089468 -3.9533384
1935962500 -0.013355419 -3.7635238 -46.909176 75.37117 -46.855988 75.301483 -0.020602515 -3.9949312
1956896875 -0.01309583 -3.8043406 -46.693264 74.584686 -46.66029 74.48587 -0.021585356 -4.0365243
1977831250 -0.013652448 -3.8512681 -46.550842 73.590714 -46.534073 73.433319 -0.022748528 -4.0792289
1998765625 -0.014635393 -3.8986866 -46.434814 72.70858 -46.41325 72.520981 -0.023845037 -4.123188
2019700000 -0.016120458 -3.9410892 -46.371456 71.652229 -46.342281 71.580315 -0.025153778 -4.1648369
2040634375 -0.01664247 -3.9827862 -46.260044 70.954559 -46.239326 70.824364 -0.026891708 -4.2022619
2061568750 -0.018447239 -4.021594 -46.16013 69.929192 -46.163689 69.898972 -0.028189654 -4.2408748
2082503125 -0.018963424 -4.057477 -46.107174 68.885468 -46.070423 68.536835 -0.02998828 -4.2815051
2103437500 -0.01957098 -4.0942202 -46.063026 67.549095 -46.064953 67.3452 -0.031126216 -4.317204
2124371875 -0.021059146 -4.1328564 -46.138046 66.375473 -46.113686 66.144142 -0.032347411 -4.3522825
2145306250 -0.022581887 -4.1706328 -46.184334 65.474518 -46.159489 65.283287 -0.033394039 -4.3888931
2166240625 -0.023633603 -4.2009082 -46.241756 64.670692 -46.213226 64.445221 -0.035090789 -4.4246435
2187175000 -0.025006341 -4.2344847 -46.328289 63.783676 -46.295307 63.585491 -0.036719289 -4.4523759
2208109375 -0.026574804 -4.2668209 -46.485081 63.07671 -46.440079 63.006664 -0.038325615 -4.4832873
2229043750 -0.027291339 -4.2970161 -46.636444 62.933174 -46.612991 62.737808 -0.038726848 -4.5222979
2249978125 -0.026974386 -4.3316965 -46.783012 63.526478 -46.789902 63.316311 -0.039244182 -4.5557766
2270912500 -0.025937043 -4.3750558 -46.81134 64.767876 -46.79641 64.704567 -0.039340686 -4.5921717
2291846875 -0.02662909 -4.4219198 -46.739056 65.06916 -46.667099 65.043144 -0.04055085 -4.6264439
2312781250 -0.02869002 -4.4628687 -46.617699 65.054146 -46.597187 64.806274 -0.0425524 -4.657227
2333715625 -0.030651126 -4.4992499 -46.576824 64.495674 -46.573631 64.264717 -0.044405263 -4.6893196
2354650000 -0.032192282 -4.5361133 -46.6129 63.789673 -46.623516 63.615673 -0.046445671 -4.7212358
2375584375 -0.032850251 -4.5697036 -46.719845 63.510693 -46.694988 63.325443 -0.046918374 -4.7540751
2396518750 -0.032295551 -4.599381 -46.825012 63.512466 -46.801888 63.340961 -0.047475237 -4.7833562
2417453125 -0.031954199 -4.6320424 -46.906643 63.789459 -46.889854 63.547138 -0.047385886 -4.8079605
2438387500 -0.03156795 -4.6613164 -47.039284 64.330856 -47.009102 64.211525 -0.046469141 -4.8332911
2459321875 -0.031255163 -4.6949353 -47.039371 65.522194 -47.021904 65.301735 -0.046212077 -4.8651385
2480256250 -0.031538591 -4.7319894 -47.011971 66.06617 -46.986725 65.922905 -0.046173867 -4.8995543
2501190625 -0.031416371 -4.7701602 -46.946838 66.649391 -46.91275 66.51207 -0.046063028 -4.935966
2522125000 -0.031039963 -4.8109093 -46.907795 66.611221 -46.914188 66.551537 -0.045736488 -4.9690952
2543059375 -0.030050136 -4.8478079 -46.91304 67.040802 -46.899601 67.014786 -0.045072384 -5.0020103
2563993750 -0.029979892 -4.8814588 -46.907135 67.478661 -46.917419 67.247185 -0.045131564 -5.0268998
2584928125 -0.029598687 -4.9165344 -46.878857 68.463661 -46.843796 68.080818 -0.043709297 -5.0554786
2605862500 -0.030249961 -4.9527874 -46.816383 68.599525 -46.799961 68.419289 -0.04367524 -5.0862417
2626796875 -0.030464718 -4.9937892 -46.737831 68.932465 -46.728642 68.870354 -0.04339822 -5.1280479
2647731250 -0.030590616 -5.0382619 -46.71405 69.308342 -46.711277 68.942078 -0.043519456 -5.1690083
2668665625 -0.031150769 -5.0781474 -46.685543 69.528671 -46.663136 69.422806 -0.043207709 -5.2067266
2689600000 -0.031025937 -5.1195002 -46.581184 69.945427 -46.585911 70.031273 -0.043152772 -5.238029
2710534375 -0.031872027 -5.154304 -46.560669 70.46022 -46.527554 70.317802 -0.042918336 -5.2645669
2731468750 -0.032543592 -5.1930733 -46.495956 70.613632 -46.449013 70.504044 -0.042136837 -5.2998228
2752403125 -0.033962108 -5.2302032 -46.40778 71.099548 -46.39922 70.779518 -0.041786246 -5.3414187
2773337500 -0.034148354 -5.2709346 -46.334587 71.447258 -46.321499 71.237732 -0.040845793 -5.3861289
2794271875 -0.035015263 -5.3135829 -46.238625 71.506653 -46.22311 71.423058 -0.040501934 -5.4315972
2815206250 -0.034815047 -5.3551307 -46.169956 71.515305 -46.161381 71.389565 -0.041234884 -5.4746099
2836140625 -0.03555822 -5.3868403 -46.122711 71.773651 -46.066586 71.479546 -0.040582057 -5.5138254
2857075000 -0.035739273 -5.4182816 -46.041359 71.566353 -46.025494 71.304787 -0.040688504 -5.5473008
2878009375 -0.036099046 -5.4512677 -46.008148 71.545395 -45.990139 71.271927 -0.040379941 -5.5895352
2898943750 -0.036715839 -5.4886847 -45.981888 71.764305 -45.972782 71.713387 -0.039797466 -5.6357541
2919878125 -0.036350455 -5.5246568 -45.95512 72.159775 -45.919407 71.987572 -0.039610617 -5.6844363
2940812500 -0.035709538 -5.5574751 -45.896324 72.395905 -45.869427 72.06118 -0.039980799 -5.725636
2961746875 -0.034510963 -5.5945945 -45.818138 72.796768 -45.797604 72.75267 -0.040416311 -5.7653871
2982681250 -0.033477157 -5.6283422 -45.729336 73.059387 -45.697208 72.851463 -0.041181348 -5.8052363
3003615625 -0.034057528 -5.6656842 -45.602345 73.092896 -45.586468 72.858154 -0.041935567 -5.8412771
3024550000 -0.033727594 -5.7028837 -45.513905 72.850914 -45.494007 72.719856 -0.042185336 -5.8842258
3045484375 -0.033603754 -5.7456808 -45.473186 72.691963 -45.439854 72.473816 -0.042061355 -5.9271526
3066418750 -0.03382273 -5.7886963 -45.422337 72.643776 -45.400864 72.498802 -0.042174015 -5.9719348
3087353125 -0.033560336 -5.826787 -45.391243 72.712852 -45.36105 72.458534 -0.043015357 -6.0058031
3108287500 -0.033557124 -5.8627472 -45.346279 72.739609 -45.310707 72.440567 -0.044214472 -6.0424714
3129221875 -0.033390872 -5.8997245 -45.280724 72.830658 -45.247063 72.55365 -0.045444593 -6.0817189
3150156250 -0.034587681 -5.9410281 -45.208656 72.731613 -45.17487 72.493393 -0.046381991 -6.1254425
3171090625 -0.03498961 -5.9837723 -45.172245 72.318314 -45.163761 72.18087 -0.046494041 -6.1677046
3192025000 -0.034540847 -6.0289459 -45.167118 72.32457 -45.134663 72.142708 -0.04608817 -6.2118149
3212959375 -0.034945916 -6.0681906 -45.149231 72.394363 -45.115135 72.176239 -0.04677026 -6.2509198
3233893750 -0.035645649 -6.1017199 -45.144138 72.464615 -45.131054 72.1931 -0.047960311 -6.2861581
3254828125 -0.035980046 -6.1379204 -45.115982 72.721306 -45.102276 72.509552 -0.049676329 -6.3219371
3275762500 -0.035934009 -6.176321 -45.080791 72.742744 -45.051559 72.484741 -0.051149659 -6.3636622
3296696875 -0.035168465 -6.221797 -45.041416 72.922272 -45.006313 72.667946 -0.051216599 -6.4071302
3317631250 -0.036068749 -6.2675543 -45.007637 72.867058 -44.990952 72.629524 -0.051007554 -6.4508147
3338565625 -0.035907488 -6.3087673 -44.976429 73.21962 -44.989536 72.947456 -0.050715081 -6.4919624
3359500000 -0.036464836 -6.3464317 -44.970848 73.380463 -44.924221 73.249977 -0.050726842 -6.5282459
3380434375 -0.036917273 -6.3817077 -44.907661 73.690231 -44.879135 73.419228 -0.052239057 -6.5640235
3401368750 -0.03795347 -6.4190459 -44.878338 73.723259 -44.864902 73.620987 -0.053683367 -6.6062245
3422303125 -0.038459565 -6.4588361 -44.834755 73.985939 -44.81554 73.625938 -0.054855775 -6.6513724
3443237500 -0.039499618 -6.5040216 -44.782284 74.345337 -44.759346 73.976151 -0.055344097 -6.6951461
3464171875 -0.040251195 -6.5429864 -44.723183 74.468575 -44.69532 74.233475 -0.054560721 -6.7356238
3485106250 -0.040775694 -6.5786376 -44.662571 74.377228 -44.624924 74.219917 -0.054192334 -6.7724771
3506040625 -0.041538313 -6.6085391 -44.598774 74.45723 -44.584583 74.250984 -0.05465075 -6.8063498
3526975000 -0.042818502 -6.6389637 -44.572083 74.437515 -44.541672 74.282692 -0.05628242 -6.8429546
3547909375 -0.044025473 -6.6718335 -44.532516 74.653214 -44.508316 74.338287 -0.058147248 -6.8881989
3568843750 -0.044700727 -6.708199 -44.497578 74.685616 -44.480213 74.529343 -0.058426525 -6.934401
3589778125 -0.045208488 -6.7455354 -44.471684 74.986107 -44.439335 74.693512 -0.057926305 -6.9807687
3610712500 -0.045063429 -6.7777476 -44.414299 75.130775 -44.384438 74.898117 -0.057175308 -7.016664
3631646875 -0.045270361 -6.8066335 -44.373013 75.168709 -44.357769 74.928352 -0.057658248 -7.050642
3652581250 -0.044820823 -6.8340573 -44.337086 75.304001 -44.292282 75.105522 -0.058301266 -7.0848036
3673515625 -0.044799063 -6.8684883 -44.283909 75.276222 -44.257477 75.108749 -0.060124122 -7.1259956
3694450000 -0.045651078 -6.9110894 -44.278469 75.495499 -44.234531 75.207756 -0.061648596 -7.1750841
3715384375 -0.045860756 -6.9547777 -44.246742 75.783279 -44.235332 75.440819 -0.062025148 -7.2237039
3736318750 -0.045412511 -6.9929466 -44.210075 75.970955 -44.179352 75.711823 -0.061989166 -7.2657199
3757253125 -0.044958789 -7.0222759 -44.167904 76.193741 -44.144779 75.993965 -0.061121807 -7.3028035
3778187500 -0.044776138 -7.0527973 -44.139984 76.593262 -44.117626 76.360229 -0.060664687 -7.3398204
3799121875 -0.045459416 -7.0873547 -44.08086 77.064323 -44.053764 76.852188 -0.061870445 -7.3787918
3820056250 -0.045372862 -7.1235189 -44.001862 77.401268 -43.98085 76.986656 -0.064135209 -7.4198275
3840990625 -0.045168903 -7.1618919 -43.917213 77.503876 -43.923637 77.290405 -0.064859621 -7.4671488
3861925000 -0.044398274 -7.2016029 -43.866241 77.728951 -43.846615 77.493477 -0.064853944 -7.5114646
3882859375 -0.043868203 -7.2365823 -43.793808 77.999146 -43.766064 77.682449 -0.064028181 -7.5532107
3903793750 -0.043388028 -7.2668314 -43.711319 78.301186 -43.69368 77.998741 -0.062998474 -7.5894041
3924728125 -0.042833965 -7.2997322 -43.608639 78.487389 -43.60442 78.174873 -0.062996112 -7.6285939
3945662500 -0.043358471 -7.3353038 -43.532536 78.5625 -43.508858 78.287727 -0.064002194 -7.6754346
3966596875 -0.043251477 -7.3761039 -43.445755 78.615021 -43.420952 78.252571 -0.065677159 -7.7262673
3987531250 -0.043525517 -7.4151592 -43.365841 78.635376 -43.339268 78.371651 -0.066330232 -7.77316
4008465625 -0.043163251 -7.4535789 -43.274975 78.541321 -43.246834 78.285561 -0.066207133 -7.817832
4029400000 -0.04229632 -7.4889498 -43.204578 78.480507 -43.191441 78.21553 -0.065528065 -7.8561306
