!Keysight Technologies,N5227A,US51270248,A.10.65.08
!Date: Tuesday, June 11, 2024 06:41:03
!Correction: S11(Full 2 Port(1,4)) 
!S41(Full 2 Port(1,4)) 
!S14(Full 2 Port(1,4)) 
!S44(Full 2 Port(1,4)) 
!S2P File: Measurements: S11, S41, S14, S44:
# Hz S  dB   R 50
10000000 -2.0691283 -0.27646795 -13.438978 0.88039595 -13.451792 0.88889259 -2.0672224 -0.24641648
30934375 -2.0684049 -0.8080731 -13.408154 2.2475569 -13.421274 2.2660348 -2.0694244 -0.76072335
51868750 -2.0776556 -1.2954627 -13.403788 3.7327983 -13.398864 3.7454627 -2.0783412 -1.2468292
72803125 -2.084959 -1.715577 -13.375822 5.3059607 -13.367509 5.2893581 -2.0865829 -1.6674868
93737500 -2.0873456 -2.1393573 -13.326011 6.8482895 -13.317329 6.8098993 -2.0905118 -2.0907764
114671875 -2.0892963 -2.59605 -13.265169 8.3048553 -13.254652 8.2539635 -2.0941966 -2.5386403
135606250 -2.0932207 -3.0758979 -13.197754 9.6990805 -13.18856 9.6408043 -2.0989735 -3.0082934
156540625 -2.1004148 -3.5535126 -13.128666 11.057369 -13.11846 10.994282 -2.1055758 -3.4728191
177475000 -2.107141 -4.0048914 -13.051695 12.416988 -13.043106 12.34404 -2.1120729 -3.9203801
198409375 -2.1130931 -4.4441934 -12.964114 13.743455 -12.954584 13.664297 -2.117605 -4.3506165
219343750 -2.1179159 -4.8918562 -12.865583 15.003354 -12.852541 14.917593 -2.1237736 -4.7981319
240278125 -2.1256061 -5.3573241 -12.765305 16.202637 -12.744845 16.109337 -2.1342988 -5.2534094
261212500 -2.1352165 -5.8184843 -12.661353 17.349747 -12.643252 17.266907 -2.1449859 -5.7096891
282146875 -2.1448047 -6.2717438 -12.55441 18.486216 -12.534262 18.39123 -2.1545427 -6.1583967
303081250 -2.1536176 -6.7185264 -12.440221 19.573244 -12.419579 19.477007 -2.1636741 -6.6013432
324015625 -2.1629655 -7.1641822 -12.320941 20.614212 -12.30167 20.512512 -2.1722856 -7.0375147
344950000 -2.1722612 -7.605402 -12.19853 21.604202 -12.178759 21.492695 -2.1805301 -7.4757128
365884375 -2.1827538 -8.0504169 -12.075291 22.538813 -12.056128 22.434385 -2.1917644 -7.9129272
386818750 -2.1957314 -8.500494 -11.949924 23.439449 -11.931282 23.329281 -2.2042449 -8.3528204
407753125 -2.2086127 -8.9453135 -11.82303 24.298355 -11.804276 24.196785 -2.2172871 -8.7895212
428687500 -2.2207973 -9.3813581 -11.694618 25.126831 -11.674129 25.014097 -2.2289612 -9.2256498
449621875 -2.2310889 -9.8182631 -11.561335 25.897146 -11.541991 25.78437 -2.2400157 -9.665411
470556250 -2.2430012 -10.260823 -11.429349 26.624578 -11.409345 26.511097 -2.2528341 -10.094785
491490625 -2.25683 -10.697176 -11.297293 27.313616 -11.278489 27.205473 -2.2656462 -10.517612
512425000 -2.2703948 -11.122877 -11.165359 27.975275 -11.146848 27.86764 -2.2798936 -10.936339
533359375 -2.2843204 -11.552882 -11.030697 28.599789 -11.013869 28.485516 -2.2948749 -11.362441
554293750 -2.2983887 -11.984426 -10.898616 29.174999 -10.88042 29.068052 -2.3095183 -11.793326
575228125 -2.31321 -12.417186 -10.768746 29.724369 -10.747248 29.608267 -2.3246255 -12.224232
596162500 -2.3285451 -12.843348 -10.637742 30.242449 -10.617867 30.122269 -2.3392375 -12.645848
617096875 -2.3440788 -13.265312 -10.50666 30.726372 -10.488222 30.618042 -2.3543301 -13.062599
638031250 -2.3598554 -13.680771 -10.376549 31.188454 -10.359125 31.072922 -2.3711305 -13.476108
658965625 -2.3755805 -14.098107 -10.247067 31.610813 -10.228805 31.496462 -2.3877792 -13.886818
679900000 -2.3930736 -14.522493 -10.119913 32.006569 -10.103364 31.890421 -2.4051487 -14.304747
700834375 -2.4113448 -14.934198 -9.994483 32.379879 -9.9794617 32.27338 -2.423847 -14.717319
721768750 -2.4300411 -15.346441 -9.8711481 32.735435 -9.8529367 32.624939 -2.4428518 -15.125866
742703125 -2.4477711 -15.74684 -9.7462826 33.070892 -9.7269258 32.95153 -2.4596467 -15.522546
763637500 -2.4656909 -16.155048 -9.623414 33.369362 -9.6053791 33.239426 -2.4763238 -15.925731
784571875 -2.4840965 -16.56678 -9.5013866 33.653137 -9.4856071 33.521019 -2.4942665 -16.324688
805506250 -2.503222 -16.972198 -9.3828831 33.911991 -9.3672285 33.796642 -2.513546 -16.724482
826440625 -2.5236237 -17.372274 -9.2653732 34.155884 -9.2476416 34.03677 -2.5340686 -17.119938
847375000 -2.5437996 -17.766468 -9.148901 34.395447 -9.1317825 34.263184 -2.5556514 -17.511744
868309375 -2.5653851 -18.160913 -9.0330877 34.598942 -9.0179682 34.477386 -2.5764871 -17.89876
889243750 -2.584868 -18.552212 -8.9186153 34.790958 -8.9011536 34.66465 -2.5950532 -18.283297
910178125 -2.6046093 -18.947832 -8.8050432 34.962162 -8.7890234 34.82476 -2.6139457 -18.674992
931112500 -2.6245899 -19.338202 -8.6924648 35.11644 -8.6788397 34.977634 -2.6348 -19.05303
952046875 -2.6458762 -19.724369 -8.5834408 35.252834 -8.5690651 35.121017 -2.6552949 -19.432123
972981250 -2.666481 -20.104675 -8.4761305 35.370094 -8.4607811 35.240135 -2.6772068 -19.816557
993915625 -2.687494 -20.487633 -8.3707533 35.487766 -8.3548136 35.345184 -2.7000196 -20.198679
1014850000 -2.7099259 -20.872435 -8.2645683 35.570454 -8.251606 35.431183 -2.7212963 -20.580454
1035784375 -2.7326226 -21.253773 -8.1642809 35.646286 -8.1505623 35.517147 -2.7438593 -20.956009
1056718750 -2.7540476 -21.628061 -8.0632515 35.730972 -8.0485001 35.594093 -2.7650902 -21.325811
1077653125 -2.7751307 -21.998909 -7.9623141 35.789021 -7.9484057 35.645046 -2.7867486 -21.693838
1098587500 -2.7970672 -22.368797 -7.8649511 35.832798 -7.8502274 35.687939 -2.8093538 -22.051212
1119521875 -2.8210342 -22.732235 -7.7677088 35.869926 -7.7548938 35.729038 -2.832731 -22.412714
1140456250 -2.8446646 -23.087387 -7.6734662 35.893074 -7.6601496 35.759045 -2.8562737 -22.771091
1161390625 -2.8682683 -23.452303 -7.5809736 35.91354 -7.5661521 35.777527 -2.8788655 -23.133406
1182325000 -2.8914959 -23.819748 -7.4884305 35.924343 -7.4748316 35.778667 -2.9015214 -23.493715
1203259375 -2.9143229 -24.179485 -7.397943 35.921196 -7.3850923 35.774525 -2.9239383 -23.847233
1224193750 -2.9375591 -24.538795 -7.3084369 35.910664 -7.296061 35.760284 -2.9466507 -24.196827
1245128125 -2.9611478 -24.889753 -7.2221727 35.890976 -7.2101021 35.74662 -2.9716387 -24.538256
1266062500 -2.9866521 -25.243914 -7.1367669 35.872253 -7.1252065 35.722469 -2.9966877 -24.884029
1286996875 -3.013288 -25.586575 -7.0526838 35.835266 -7.0409608 35.696022 -3.021848 -25.237057
1307931250 -3.0372984 -25.935604 -6.9707098 35.801933 -6.958921 35.660175 -3.0470593 -25.587219
1328865625 -3.061322 -26.290466 -6.8882318 35.763004 -6.8775482 35.616966 -3.071105 -25.935652
1349800000 -3.0856826 -26.637335 -6.8090816 35.709156 -6.798326 35.562325 -3.0950077 -26.269636
1370734375 -3.1104479 -26.985653 -6.7299476 35.665279 -6.7213445 35.512135 -3.1200726 -26.598103
1391668750 -3.1363976 -27.31571 -6.6517158 35.605942 -6.6432619 35.461555 -3.1449819 -26.931293
1412603125 -3.1622782 -27.64938 -6.5761986 35.542797 -6.5670919 35.395061 -3.1718397 -27.267323
1433537500 -3.1888638 -27.985229 -6.501142 35.470242 -6.4930749 35.326931 -3.1980457 -27.602179
1454471875 -3.2145081 -28.321518 -6.4294 35.390217 -6.4200091 35.248592 -3.2233539 -27.939993
1475406250 -3.2393525 -28.660536 -6.3580103 35.320072 -6.349648 35.173267 -3.2493992 -28.264713
1496340625 -3.2642972 -28.989447 -6.2859335 35.240845 -6.2784848 35.103584 -3.2733247 -28.580473
1517275000 -3.2892501 -29.306358 -6.2168574 35.157227 -6.2087946 35.0186 -3.2994106 -28.892595
1538209375 -3.3156095 -29.624214 -6.1478271 35.078278 -6.1402206 34.935116 -3.3254044 -29.207323
1559143750 -3.3426812 -29.940962 -6.0790162 34.979397 -6.0718389 34.840336 -3.3523846 -29.5228
1580078125 -3.3684647 -30.264589 -6.0147433 34.884018 -6.0061879 34.746071 -3.3791456 -29.839209
1601012500 -3.3947258 -30.587793 -5.949697 34.788681 -5.9407792 34.645077 -3.4043207 -30.15724
1621946875 -3.4205751 -30.903502 -5.8869214 34.684456 -5.877521 34.537235 -3.4309971 -30.464296
1642881250 -3.447098 -31.218306 -5.8225946 34.591484 -5.814846 34.44318 -3.4563439 -30.76071
1663815625 -3.4738889 -31.523478 -5.7595267 34.48267 -5.7522011 34.340893 -3.4831662 -31.058647
1684750000 -3.5011356 -31.827364 -5.6984839 34.377499 -5.6920915 34.231609 -3.5108516 -31.356726
1705684375 -3.5292075 -32.130936 -5.6388984 34.255226 -5.6322412 34.118126 -3.5386553 -31.662535
1726618750 -3.556319 -32.442104 -5.5817523 34.147942 -5.5739141 34.0056 -3.5655084 -31.961649
1747553125 -3.5836549 -32.752716 -5.5230646 34.047009 -5.517179 33.890453 -3.5927382 -32.260254
1768487500 -3.6116254 -33.049934 -5.4646959 33.929317 -5.4600296 33.78093 -3.6195371 -32.550671
1789421875 -3.6386266 -33.343071 -5.4093876 33.809223 -5.4053979 33.666058 -3.6469464 -32.829567
1810356250 -3.6661787 -33.640968 -5.3531051 33.692593 -5.3492174 33.552879 -3.6741097 -33.116329
1831290625 -3.6936769 -33.933804 -5.2983689 33.579201 -5.2930055 33.430443 -3.7011399 -33.40424
1852225000 -3.7216964 -34.229191 -5.2447133 33.459885 -5.2397594 33.299583 -3.7292728 -33.693535
1873159375 -3.7495649 -34.524048 -5.191247 33.325611 -5.1875634 33.181488 -3.7560489 -33.976894
1894093750 -3.7763519 -34.810005 -5.1417789 33.195759 -5.1363287 33.04747 -3.7847052 -34.259357
1915028125 -3.8038843 -35.098969 -5.0904498 33.079716 -5.0876484 32.927792 -3.8133721 -34.529209
1935962500 -3.8303089 -35.376083 -5.0398216 32.951614 -5.0352125 32.817181 -3.8389506 -34.801907
1956896875 -3.8573639 -35.662392 -4.9884319 32.837208 -4.9837985 32.676857 -3.8665044 -35.083408
1977831250 -3.8861971 -35.934238 -4.9377508 32.684616 -4.9362645 32.541294 -3.8942757 -35.352665
1998765625 -3.9117208 -36.208916 -4.8932538 32.547493 -4.8890915 32.406742 -3.9212191 -35.625446
2019700000 -3.9385641 -36.490452 -4.8471947 32.425789 -4.8428812 32.287312 -3.9489667 -35.88427
2040634375 -3.9659371 -36.764896 -4.8006363 32.297165 -4.7948284 32.158852 -3.9750986 -36.151756
2061568750 -3.9949212 -37.028763 -4.7546077 32.166569 -4.7500172 32.023296 -4.0038524 -36.415573
2082503125 -4.02244 -37.29356 -4.7092824 32.030514 -4.7059269 31.890175 -4.0318842 -36.677517
2103437500 -4.0499711 -37.56432 -4.6646571 31.892344 -4.6609812 31.755701 -4.0593166 -36.935242
2124371875 -4.0776963 -37.833878 -4.6223474 31.760195 -4.6181087 31.627918 -4.0857925 -37.184792
2145306250 -4.106101 -38.098274 -4.5791216 31.629141 -4.5746403 31.493477 -4.1115212 -37.441399
2166240625 -4.1331587 -38.355125 -4.5372849 31.495407 -4.5334435 31.358181 -4.1403089 -37.691792
2187175000 -4.1618977 -38.617859 -4.494772 31.365311 -4.4921803 31.220337 -4.1694384 -37.938614
2208109375 -4.1903429 -38.87582 -4.4535189 31.22768 -4.4528246 31.089045 -4.1984644 -38.184677
2229043750 -4.2190266 -39.13773 -4.4122682 31.101845 -4.4118257 30.958122 -4.22576 -38.437202
2249978125 -4.2475829 -39.390888 -4.371942 30.961823 -4.3715467 30.82448 -4.2526913 -38.688713
2270912500 -4.2753696 -39.651028 -4.333528 30.82556 -4.3316102 30.685619 -4.2799811 -38.931583
2291846875 -4.3037972 -39.899673 -4.2952337 30.685543 -4.2930989 30.547831 -4.308239 -39.170193
2312781250 -4.3311896 -40.150589 -4.2587056 30.559082 -4.2560263 30.421703 -4.3372521 -39.403942
2333715625 -4.3600359 -40.397961 -4.2186766 30.431799 -4.2182918 30.28422 -4.3662238 -39.650326
2354650000 -4.3886995 -40.644238 -4.180809 30.285767 -4.1814623 30.148207 -4.39501 -39.892002
2375584375 -4.416503 -40.890606 -4.1445408 30.146782 -4.1434617 30.011623 -4.4216914 -40.138905
2396518750 -4.4435816 -41.130966 -4.1095934 30.011671 -4.1087928 29.871895 -4.4493303 -40.367756
2417453125 -4.4701662 -41.367958 -4.0732946 29.876583 -4.0730119 29.748363 -4.4754052 -40.587322
2438387500 -4.4964614 -41.601128 -4.0383101 29.741062 -4.0364008 29.609711 -4.5030622 -40.815254
2459321875 -4.5240035 -41.832314 -4.0018921 29.610565 -4.0023499 29.47077 -4.5312338 -41.031479
2480256250 -4.5514464 -42.067574 -3.9675169 29.47283 -3.9686675 29.334333 -4.558898 -41.258003
2501190625 -4.5796266 -42.305405 -3.9325995 29.336065 -3.9351454 29.20013 -4.5855122 -41.48893
2522125000 -4.6063952 -42.52607 -3.899703 29.180973 -3.9006486 29.059679 -4.610826 -41.714336
2543059375 -4.6328959 -42.753536 -3.8693614 29.050325 -3.8674881 28.915592 -4.6373134 -41.933594
2563993750 -4.6606293 -42.981155 -3.8371465 28.91855 -3.8361452 28.787334 -4.6642747 -42.134346
2584928125 -4.6881189 -43.20327 -3.8047321 28.786283 -3.8041794 28.652037 -4.6920452 -42.346233
2605862500 -4.7166934 -43.417164 -3.7726269 28.64448 -3.7738273 28.513718 -4.7211223 -42.56163
2626796875 -4.7448096 -43.637863 -3.741466 28.510332 -3.7420497 28.379295 -4.7482448 -42.7812
2647731250 -4.7727489 -43.865883 -3.709188 28.367512 -3.7114944 28.240973 -4.7731657 -43.005238
2668665625 -4.7994866 -44.079243 -3.6804118 28.221474 -3.6804023 28.099873 -4.7995343 -43.225582
2689600000 -4.8254275 -44.293652 -3.6531155 28.08688 -3.6516991 27.956667 -4.82691 -43.430706
2710534375 -4.8516049 -44.513008 -3.6250801 27.965427 -3.6240113 27.829628 -4.854681 -43.629036
2731468750 -4.8793712 -44.740452 -3.592665 27.845778 -3.5942569 27.698786 -4.8819532 -43.835907
2752403125 -4.907979 -44.943161 -3.5612702 27.686546 -3.5657322 27.559381 -4.9093423 -44.052502
2773337500 -4.9336977 -45.151306 -3.535799 27.547222 -3.5371706 27.414135 -4.9372201 -44.275093
2794271875 -4.9595942 -45.370682 -3.5088825 27.413008 -3.5100029 27.275816 -4.9635339 -44.475296
2815206250 -4.9850473 -45.587944 -3.481102 27.278751 -3.4821913 27.145241 -4.9879303 -44.680309
2836140625 -5.0113797 -45.786526 -3.4553444 27.145828 -3.455879 27.00733 -5.0156159 -44.88908
2857075000 -5.0366035 -45.99509 -3.4282844 27.018167 -3.4290063 26.876133 -5.0427647 -45.076927
2878009375 -5.0642929 -46.200184 -3.3992562 26.875612 -3.4033158 26.737288 -5.070756 -45.280491
2898943750 -5.0915103 -46.398678 -3.3738184 26.728497 -3.3779173 26.599907 -5.0966215 -45.475761
2919878125 -5.1168256 -46.598179 -3.3498847 26.593525 -3.3512719 26.464567 -5.1204238 -45.688709
2940812500 -5.141521 -46.796753 -3.3260636 26.469448 -3.3262713 26.324324 -5.1472912 -45.889145
2961746875 -5.167881 -47.001427 -3.299897 26.334959 -3.3018875 26.194912 -5.1730089 -46.07169
2982681250 -5.1931973 -47.187225 -3.2765729 26.199387 -3.2789028 26.061865 -5.2006965 -46.259521
3003615625 -5.220973 -47.381989 -3.2516196 26.066435 -3.2547882 25.942028 -5.2261815 -46.43396
3024550000 -5.2465601 -47.564079 -3.2280777 25.920965 -3.2295811 25.798969 -5.2511916 -46.643936
3045484375 -5.2707086 -47.76458 -3.2059402 25.80307 -3.2068999 25.659527 -5.2783093 -46.84185
3066418750 -5.2981372 -47.966507 -3.1810865 25.675917 -3.1837451 25.530621 -5.3028965 -47.021748
3087353125 -5.3240595 -48.150509 -3.1573579 25.535149 -3.1615736 25.401581 -5.3280778 -47.205021
3108287500 -5.3494115 -48.322697 -3.1375244 25.3941 -3.1390603 25.276867 -5.3550744 -47.392303
3129221875 -5.3731241 -48.513046 -3.117655 25.276825 -3.1171193 25.145826 -5.3814607 -47.57822
3150156250 -5.3992558 -48.717068 -3.0939438 25.167601 -3.0956326 25.014048 -5.4079857 -47.763283
3171090625 -5.4264083 -48.910416 -3.0686965 25.033878 -3.0740511 24.884476 -5.432621 -47.955765
3192025000 -5.4521856 -49.083298 -3.0484092 24.880383 -3.052253 24.745823 -5.45752 -48.146004
3212959375 -5.4751201 -49.263927 -3.0304036 24.756542 -3.0320036 24.617132 -5.4843116 -48.32415
3233893750 -5.4994698 -49.451038 -3.0094998 24.638027 -3.0118012 24.498564 -5.5100846 -48.486465
3254828125 -5.5238533 -49.633095 -2.9899008 24.517155 -2.990495 24.374292 -5.5343618 -48.673805
3275762500 -5.5489798 -49.827362 -2.9662809 24.40287 -2.9710507 24.24029 -5.5627041 -48.86689
3296696875 -5.5749674 -50.002258 -2.9450176 24.250147 -2.9516354 24.11269 -5.5874271 -49.038792
3317631250 -5.5984421 -50.178173 -2.9271131 24.127277 -2.9320016 23.983854 -5.6121225 -49.224022
3338565625 -5.6225605 -50.353283 -2.9078202 23.998695 -2.9131496 23.862179 -5.6359787 -49.383549
3359500000 -5.6453214 -50.529083 -2.8899107 23.882488 -2.8925936 23.737593 -5.65803 -49.561798
3380434375 -5.6712327 -50.706345 -2.868083 23.76293 -2.8746717 23.610085 -5.6868062 -49.739883
3401368750 -5.6972475 -50.862812 -2.8489878 23.61508 -2.856842 23.493086 -5.7126226 -49.904907
3422303125 -5.7196627 -51.035343 -2.8343396 23.49449 -2.8384154 23.362999 -5.7379756 -50.09623
3443237500 -5.7434545 -51.226505 -2.8164821 23.394953 -2.8216987 23.242943 -5.763823 -50.262268
3464171875 -5.770257 -51.401062 -2.7948654 23.269623 -2.8030779 23.126833 -5.784801 -50.418865
3485106250 -5.7955689 -51.553509 -2.7766452 23.132605 -2.7843134 23.009192 -5.8075881 -50.586521
3506040625 -5.8192525 -51.698864 -2.7611568 22.998066 -2.7660868 22.88158 -5.8327112 -50.758633
3526975000 -5.8415046 -51.859028 -2.7476792 22.896646 -2.7501354 22.759188 -5.861186 -50.929295
3547909375 -5.8667359 -52.042412 -2.7275693 22.789881 -2.7342491 22.648325 -5.8887558 -51.0816
3568843750 -5.8911066 -52.208527 -2.7110796 22.656519 -2.7161047 22.534765 -5.9077864 -51.245819
3589778125 -5.9135094 -52.3862 -2.6942894 22.563276 -2.6989636 22.407478 -5.9303231 -51.427517
3610712500 -5.9400473 -52.546738 -2.6734326 22.43029 -2.6833391 22.2889 -5.9548578 -51.576637
3631646875 -5.9625025 -52.684784 -2.6611528 22.291222 -2.6656256 22.176933 -5.9775758 -51.720272
3652581250 -5.9833374 -52.840214 -2.6470132 22.190351 -2.6488864 22.055189 -6.0029149 -51.893078
3673515625 -6.0054708 -53.011436 -2.6309941 22.093918 -2.6341915 21.933292 -6.0315323 -52.054363
3694450000 -6.0304513 -53.200264 -2.6106923 21.983646 -2.6189346 21.816824 -6.0560012 -52.204773
3715384375 -6.0560837 -53.36372 -2.5922246 21.841154 -2.6039393 21.702574 -6.0778308 -52.365868
3736318750 -6.076808 -53.512482 -2.5805819 21.719311 -2.5872009 21.589289 -6.0969858 -52.519405
3757253125 -6.0972919 -53.670078 -2.5649805 21.625536 -2.5717673 21.463736 -6.1204085 -52.695301
3778187500 -6.1221137 -53.810776 -2.5492263 21.495874 -2.5579867 21.351723 -6.147984 -52.826065
3799121875 -6.1440687 -53.965481 -2.5373197 21.391346 -2.5423737 21.243454 -6.1703382 -52.969933
3820056250 -6.1698394 -54.138668 -2.516525 21.283382 -2.5293162 21.127552 -6.1978106 -53.125511
3840990625 -6.1931343 -54.270397 -2.5044947 21.138229 -2.5134439 21.023926 -6.2175508 -53.264057
3861925000 -6.21243 -54.436634 -2.4913085 21.047411 -2.4984744 20.901918 -6.2356806 -53.442463
3882859375 -6.2365932 -54.586109 -2.4743457 20.936592 -2.4851344 20.786505 -6.2615967 -53.590462
3903793750 -6.2586818 -54.716049 -2.4610243 20.813387 -2.4710248 20.679743 -6.2836165 -53.70842
3924728125 -6.2815318 -54.848206 -2.4472539 20.684618 -2.4567192 20.56464 -6.3054304 -53.850761
3945662500 -6.3018193 -54.989048 -2.4376109 20.581123 -2.442765 20.452461 -6.3283176 -54.002113
3966596875 -6.323875 -55.168663 -2.421134 20.492361 -2.4295659 20.33942 -6.3508396 -54.163605
3987531250 -6.3500156 -55.31493 -2.4047365 20.354815 -2.4162986 20.230145 -6.3730869 -54.313873
4008465625 -6.3708487 -55.441437 -2.3969922 20.234085 -2.4025528 20.122845 -6.3924689 -54.446228
4029400000 -6.3896794 -55.596973 -2.3839967 20.149723 -2.3889892 20.01725 -6.4117389 -54.584919
4050334375 -6.4130836 -55.734768 -2.3696284 20.04101 -2.3757961 19.90712 -6.4350314 -54.721863
4071268750 -6.4346404 -55.875946 -2.3574467 19.934044 -2.3621473 19.797815 -6.4565539 -54.848034
4092203125 -6.457602 -56.03397 -2.3427906 19.82 -2.3503296 19.683474 -6.4790759 -55.006214
4113137500 -6.4775262 -56.178356 -2.3333063 19.709873 -2.3388023 19.578583 -6.5028167 -55.139118
4134071875 -6.4977341 -56.34866 -2.3197227 19.623928 -2.3261359 19.47374 -6.5218911 -55.268406
4155006250 -6.5186157 -56.488873 -2.3071909 19.514997 -2.3143408 19.366577 -6.5430651 -55.408485
4175940625 -6.5397978 -56.634678 -2.2933218 19.426893 -2.3018715 19.267277 -6.5640731 -55.513268
4196875000 -6.5653424 -56.765896 -2.2767465 19.290545 -2.2890458 19.15366 -6.5820913 -55.660603
4217809375 -6.5843844 -56.876766 -2.2702842 19.176796 -2.2778983 19.047476 -6.6067457 -55.792381
4238743750 -6.6033316 -57.046112 -2.2588558 19.100483 -2.2665548 18.943398 -6.6279879 -55.904922
