!Keysight Technologies,N5227A,US51270248,A.10.65.08
!Date: Tuesday, June 11, 2024 07:25:06
!Correction: S11(Full 2 Port(1,4)) 
!S41(Full 2 Port(1,4)) 
!S14(Full 2 Port(1,4)) 
!S44(Full 2 Port(1,4)) 
!S2P File: Measurements: S11, S41, S14, S44:
# Hz S  dB   R 50
10000000 -2.06356 -0.29319829 -13.431135 0.88497949 -13.451407 0.9704653 -2.0646338 -0.24871963
30934375 -2.0624237 -0.84559041 -13.398064 2.2080305 -13.410595 2.2535725 -2.064054 -0.7932452
51868750 -2.0743935 -1.3397285 -13.399038 3.6742568 -13.395997 3.6857665 -2.0756478 -1.2953532
72803125 -2.0826356 -1.744786 -13.37354 5.2684784 -13.369816 5.2507706 -2.0855651 -1.7001104
93737500 -2.0850961 -2.1509674 -13.32412 6.8303728 -13.318991 6.8054185 -2.0897141 -2.106379
114671875 -2.0862432 -2.6019549 -13.262343 8.2991171 -13.252361 8.2553291 -2.0927546 -2.5484025
135606250 -2.0893075 -3.0901496 -13.192802 9.6852083 -13.185209 9.6255875 -2.0974638 -3.0269001
156540625 -2.0964546 -3.5808189 -13.125049 11.034418 -13.116325 10.965448 -2.1044157 -3.4999616
177475000 -2.1043527 -4.0323954 -13.049602 12.393445 -13.043284 12.323486 -2.1115518 -3.9433382
198409375 -2.1098566 -4.4566436 -12.961287 13.737362 -12.953868 13.655369 -2.1166759 -4.363606
219343750 -2.1137888 -4.899725 -12.862667 14.999757 -12.849685 14.910003 -2.122225 -4.8044972
240278125 -2.1214876 -5.3725433 -12.760741 16.189035 -12.741769 16.091097 -2.133194 -5.2669868
261212500 -2.1331544 -5.8411946 -12.657168 17.328959 -12.641026 17.241371 -2.1451375 -5.7285223
282146875 -2.1435409 -6.2955294 -12.551245 18.46673 -12.533463 18.37166 -2.1547725 -6.1803713
303081250 -2.1512258 -6.7384801 -12.436951 19.565914 -12.419833 19.463194 -2.1635466 -6.6228666
324015625 -2.1601343 -7.1813259 -12.3176 20.604435 -12.30077 20.499523 -2.1710298 -7.0552683
344950000 -2.1699476 -7.6172576 -12.195311 21.597303 -12.177753 21.47728 -2.1799958 -7.4916477
365884375 -2.1806829 -8.0612831 -12.070859 22.532787 -12.055452 22.416149 -2.1911821 -7.9273329
386818750 -2.1938746 -8.5167837 -11.946712 23.428444 -11.930826 23.310957 -2.2043943 -8.3719549
407753125 -2.207293 -8.9677372 -11.820951 24.289991 -11.804904 24.178205 -2.2178667 -8.8050585
428687500 -2.2198591 -9.3978872 -11.69171 25.123636 -11.672792 25.00104 -2.2278626 -9.2390385
449621875 -2.2272949 -9.8290854 -11.55745 25.898464 -11.540125 25.767462 -2.2385752 -9.6858826
470556250 -2.2392032 -10.278422 -11.425138 26.616495 -11.40883 26.490049 -2.2517111 -10.113172
491490625 -2.2542322 -10.713547 -11.294309 27.303818 -11.277998 27.18202 -2.2654035 -10.531248
512425000 -2.2682698 -11.138463 -11.16269 27.967751 -11.146591 27.847691 -2.2796953 -10.95057
533359375 -2.2825019 -11.568763 -11.027268 28.595306 -11.013137 28.47467 -2.2944844 -11.380593
554293750 -2.2955146 -12.005776 -10.894705 29.169064 -10.87979 29.053942 -2.3094482 -11.811771
575228125 -2.309711 -12.438576 -10.764884 29.719519 -10.746988 29.594639 -2.3238456 -12.239601
596162500 -2.3248489 -12.862288 -10.633417 30.234129 -10.616274 30.101566 -2.3382564 -12.658106
617096875 -2.3411126 -13.28175 -10.502571 30.719196 -10.486092 30.589901 -2.3539467 -13.075596
638031250 -2.357933 -13.699924 -10.373546 31.175798 -10.357281 31.046404 -2.3723073 -13.487517
658965625 -2.3742912 -14.116538 -10.243991 31.607418 -10.227238 31.472792 -2.3888993 -13.900308
679900000 -2.3907945 -14.54312 -10.115698 31.996098 -10.10165 31.863352 -2.405477 -14.321337
700834375 -2.4083395 -14.95759 -9.9903307 32.368774 -9.9778004 32.243401 -2.4237733 -14.737689
721768750 -2.4271121 -15.367197 -9.8676071 32.72261 -9.8519363 32.603401 -2.4424818 -15.142154
742703125 -2.4462109 -15.759921 -9.7430191 33.063976 -9.7270117 32.937813 -2.4598403 -15.532395
763637500 -2.4636047 -16.162401 -9.6196136 33.36525 -9.6037436 33.224983 -2.4757822 -15.936689
784571875 -2.4818406 -16.581125 -9.4966583 33.64806 -9.4842472 33.499577 -2.4943523 -16.342257
805506250 -2.5006094 -16.994896 -9.3778038 33.902084 -9.3663416 33.774765 -2.5140026 -16.74349
826440625 -2.5205536 -17.39724 -9.2607975 34.147564 -9.2462358 34.011703 -2.533493 -17.138823
847375000 -2.5399971 -17.789425 -9.1439619 34.381432 -9.1304617 34.233322 -2.5546815 -17.530258
868309375 -2.5620797 -18.183163 -9.0290775 34.588642 -9.0169973 34.451981 -2.5761957 -17.913063
889243750 -2.5822546 -18.570227 -8.9140749 34.777824 -8.9002476 34.6376 -2.5953679 -18.294916
910178125 -2.6019139 -18.965944 -8.8000669 34.955433 -8.7881508 34.800491 -2.6150637 -18.690205
931112500 -2.6222818 -19.366734 -8.687705 35.100372 -8.6780415 34.950092 -2.6358876 -19.071175
952046875 -2.6433337 -19.755697 -8.5789061 35.235622 -8.5678635 35.090073 -2.6554196 -19.448742
972981250 -2.6643355 -20.130482 -8.4726782 35.35899 -8.4592485 35.204762 -2.6773202 -19.829597
993915625 -2.6855578 -20.504642 -8.366086 35.479603 -8.3538427 35.31374 -2.7003806 -20.208784
1014850000 -2.7083311 -20.888636 -8.2594719 35.55476 -8.2506208 35.402908 -2.7221477 -20.588074
1035784375 -2.7318778 -21.271521 -8.1603804 35.632324 -8.1497431 35.487148 -2.7457368 -20.966063
1056718750 -2.7527766 -21.648773 -8.0582094 35.719711 -8.0485468 35.564667 -2.76687 -21.34041
1077653125 -2.7727101 -22.024527 -7.9572811 35.776257 -7.9475183 35.617805 -2.7881424 -21.709297
1098587500 -2.7944856 -22.394152 -7.8600264 35.81628 -7.8490882 35.662708 -2.8097672 -22.059389
1119521875 -2.8188274 -22.748091 -7.7635841 35.85302 -7.753809 35.701843 -2.8326566 -22.419861
1140456250 -2.8425603 -23.098497 -7.6693287 35.880054 -7.6598625 35.733837 -2.8574789 -22.778582
1161390625 -2.8664203 -23.465607 -7.5763946 35.900497 -7.5654316 35.752441 -2.8810978 -23.139278
1182325000 -2.8900638 -23.837122 -7.4836783 35.909344 -7.4733844 35.752571 -2.9033267 -23.500717
1203259375 -2.9125731 -24.204184 -7.3929086 35.907177 -7.3830204 35.744064 -2.9248424 -23.8591
1224193750 -2.934114 -24.562801 -7.3028402 35.894127 -7.294487 35.729305 -2.9463141 -24.210991
1245128125 -2.9573145 -24.912022 -7.2170324 35.871059 -7.2085371 35.71344 -2.9717555 -24.548941
1266062500 -2.9841723 -25.262424 -7.1320457 35.855389 -7.1237836 35.691086 -2.9971201 -24.890848
1286996875 -3.0116959 -25.602757 -7.0481553 35.817165 -7.0400701 35.665581 -3.0231342 -25.244883
1307931250 -3.0364745 -25.95352 -6.9657269 35.786968 -6.9579754 35.631126 -3.0484271 -25.598846
1328865625 -3.0597599 -26.318916 -6.8833117 35.744953 -6.8764324 35.584381 -3.072253 -25.949062
1349800000 -3.0837984 -26.670414 -6.804121 35.685303 -6.7975321 35.528419 -3.0958643 -26.282307
1370734375 -3.1084034 -27.011864 -6.7257028 35.641457 -6.7203679 35.47681 -3.1202936 -26.608679
1391668750 -3.1342301 -27.334782 -6.6476617 35.583473 -6.6430483 35.42804 -3.1458414 -26.939377
1412603125 -3.1608593 -27.665714 -6.5721378 35.523903 -6.5664644 35.363911 -3.1735165 -27.271502
1433537500 -3.18837 -28.003202 -6.4968734 35.450268 -6.4923415 35.296391 -3.1999857 -27.610895
1454471875 -3.213856 -28.344166 -6.4250469 35.371521 -6.4185877 35.218288 -3.2249882 -27.953321
1475406250 -3.2377446 -28.686232 -6.3531504 35.300304 -6.3487401 35.139732 -3.2503839 -28.277655
1496340625 -3.262027 -29.016502 -6.2818575 35.218868 -6.2780294 35.068848 -3.2742579 -28.591526
1517275000 -3.2875316 -29.326138 -6.2126441 35.139626 -6.2079329 34.988602 -3.2996311 -28.897079
1538209375 -3.3141415 -29.636734 -6.1427755 35.059914 -6.1398735 34.907738 -3.3266768 -29.212631
1559143750 -3.3412414 -29.955574 -6.0738325 34.960281 -6.0709949 34.816711 -3.3546767 -29.532267
1580078125 -3.3673053 -30.284571 -6.0091486 34.860077 -6.0048976 34.717781 -3.3812835 -29.849365
1601012500 -3.3934593 -30.611351 -5.9442968 34.763664 -5.9396944 34.611458 -3.4054542 -30.172768
1621946875 -3.4176848 -30.92597 -5.8811746 34.658009 -5.8766618 34.500549 -3.4318836 -30.48213
1642881250 -3.4437463 -31.23963 -5.8175087 34.564407 -5.815033 34.409748 -3.4580936 -30.772451
1663815625 -3.4717662 -31.539682 -5.7543812 34.459072 -5.7517619 34.309788 -3.4846702 -31.062967
1684750000 -3.5006242 -31.840212 -5.6933527 34.35083 -5.6914835 34.199398 -3.5123041 -31.367228
1705684375 -3.52825 -32.146282 -5.6334214 34.229343 -5.6313276 34.085506 -3.540801 -31.678883
1726618750 -3.5544376 -32.466068 -5.5770373 34.117161 -5.5731115 33.965836 -3.5674312 -31.981958
1747553125 -3.5822785 -32.784256 -5.5192246 34.015854 -5.5163927 33.848282 -3.5938597 -32.280685
1768487500 -3.6100094 -33.073318 -5.4604092 33.89769 -5.4600358 33.739666 -3.6205752 -32.566372
1789421875 -3.6370649 -33.361847 -5.4054861 33.778732 -5.4053493 33.62915 -3.6486726 -32.842331
1810356250 -3.6655657 -33.656483 -5.3490615 33.665108 -5.3491049 33.519196 -3.6757245 -33.12611
1831290625 -3.6941314 -33.951962 -5.294363 33.551201 -5.2922029 33.399338 -3.7035847 -33.41824
1852225000 -3.7217286 -34.252438 -5.2406788 33.431286 -5.2392941 33.264271 -3.7319212 -33.708855
1873159375 -3.7485418 -34.553543 -5.1871076 33.294071 -5.188293 33.146809 -3.7583654 -33.993439
1894093750 -3.7746384 -34.839924 -5.1377053 33.163948 -5.1362834 33.012802 -3.7865024 -34.272091
1915028125 -3.8020868 -35.119411 -5.0864334 33.050518 -5.0877709 32.89146 -3.8144395 -34.539478
1935962500 -3.8294251 -35.3913 -5.0356474 32.927425 -5.0361166 32.788464 -3.8416424 -34.816669
1956896875 -3.8567417 -35.680244 -4.984076 32.811218 -4.9836631 32.652454 -3.8699672 -35.092793
1977831250 -3.8857501 -35.959969 -4.9330668 32.656807 -4.9356151 32.510311 -3.897192 -35.366085
1998765625 -3.9105566 -36.234978 -4.8883615 32.516079 -4.88869 32.371243 -3.9237742 -35.643322
2019700000 -3.9352407 -36.518353 -4.8429203 32.392586 -4.8425879 32.253067 -3.9506781 -35.899303
2040634375 -3.9624665 -36.78793 -4.7963133 32.267056 -4.7946968 32.126011 -3.9779913 -36.161465
2061568750 -3.9922128 -37.045605 -4.7496099 32.138508 -4.749486 31.989187 -4.0066166 -36.426605
2082503125 -4.0205226 -37.308544 -4.7038584 32.000904 -4.704844 31.858198 -4.0350108 -36.692547
2103437500 -4.0480814 -37.584229 -4.6594586 31.857731 -4.6606212 31.724064 -4.0628605 -36.949364
2124371875 -4.0759206 -37.859299 -4.6170535 31.724068 -4.6176252 31.58901 -4.0879374 -37.199394
2145306250 -4.1043434 -38.123177 -4.5747643 31.590759 -4.5751247 31.455603 -4.1135626 -37.460903
2166240625 -4.1301947 -38.373734 -4.5332818 31.458933 -4.5339479 31.322329 -4.1431289 -37.706852
2187175000 -4.15975 -38.635159 -4.4909124 31.333672 -4.4923673 31.188091 -4.1725984 -37.94878
2208109375 -4.1902122 -38.89323 -4.4489975 31.194376 -4.452601 31.055502 -4.2015038 -38.197277
2229043750 -4.2196817 -39.154873 -4.4086657 31.067038 -4.4119911 30.922436 -4.2284422 -38.454311
2249978125 -4.2477193 -39.414726 -4.3678551 30.928671 -4.3712897 30.793812 -4.2547431 -38.711315
2270912500 -4.2744799 -39.676796 -4.3289728 30.790787 -4.3313947 30.654484 -4.2815976 -38.951065
2291846875 -4.3024254 -39.926914 -4.2914596 30.650795 -4.2933631 30.510473 -4.3097353 -39.182915
2312781250 -4.3305163 -40.168652 -4.2547488 30.525383 -4.2573962 30.386614 -4.3394103 -39.413269
2333715625 -4.359581 -40.416206 -4.2145896 30.400949 -4.2192717 30.258709 -4.3695111 -39.66621
2354650000 -4.388711 -40.665535 -4.1759505 30.255098 -4.1816239 30.118492 -4.3983364 -39.908398
2375584375 -4.4158831 -40.91539 -4.1395011 30.11314 -4.1442847 29.980303 -4.424993 -40.160423
2396518750 -4.4416113 -41.160217 -4.1044507 29.975931 -4.1097045 29.839508 -4.4518223 -40.38797
2417453125 -4.4676719 -41.399055 -4.0686674 29.840372 -4.074368 29.719284 -4.4770837 -40.601082
2438387500 -4.4946275 -41.625568 -4.0343599 29.704496 -4.0373755 29.581993 -4.5059776 -40.82695
2459321875 -4.5235195 -41.851704 -3.9978435 29.577288 -4.0035257 29.439867 -4.535614 -41.04076
2480256250 -4.5512853 -42.0844 -3.9629059 29.436764 -3.9695463 29.304913 -4.5627975 -41.275356
2501190625 -4.5787325 -42.330772 -3.9280548 29.297512 -3.9354041 29.170803 -4.5894465 -41.510418
2522125000 -4.6058908 -42.557613 -3.8951776 29.142567 -3.9010897 29.026676 -4.6136022 -41.734035
2543059375 -4.6302853 -42.779079 -3.8648007 29.011017 -3.8687341 28.886356 -4.6399503 -41.951046
2563993750 -4.6576853 -43.006947 -3.832489 28.879108 -3.8371966 28.758154 -4.6669617 -42.143906
2584928125 -4.6873794 -43.22147 -3.7999055 28.745155 -3.8050382 28.62207 -4.694685 -42.359974
2605862500 -4.7171512 -43.431618 -3.7684765 28.608532 -3.7742765 28.483778 -4.7246962 -42.578541
2626796875 -4.7456064 -43.657742 -3.7365777 28.469398 -3.7429011 28.349625 -4.7517767 -42.802467
2647731250 -4.7722659 -43.895145 -3.704978 28.322887 -3.712296 28.212479 -4.7757354 -43.030876
2668665625 -4.7991185 -44.113384 -3.6756999 28.180624 -3.6809704 28.067636 -4.8018503 -43.249332
2689600000 -4.8242469 -44.314945 -3.6488576 28.039864 -3.6530321 27.926538 -4.8288884 -43.44342
2710534375 -4.8499126 -44.532066 -3.6218417 27.922142 -3.6255972 27.8029 -4.8579445 -43.639515
2731468750 -4.879478 -44.76244 -3.5889597 27.800879 -3.5954094 27.676304 -4.8865104 -43.846817
2752403125 -4.9090881 -44.971493 -3.5572565 27.645037 -3.5667083 27.535049 -4.9133406 -44.072117
2773337500 -4.9340825 -45.184429 -3.5319169 27.503223 -3.5384738 27.389212 -4.9407926 -44.300037
2794271875 -4.9587936 -45.408184 -3.5047739 27.366129 -3.5108302 27.249992 -4.965847 -44.494713
2815206250 -4.9831333 -45.620979 -3.4775724 27.229139 -3.4838428 27.117554 -4.9897003 -44.698357
2836140625 -5.0092783 -45.815289 -3.4521739 27.101147 -3.4572377 26.982487 -5.0187769 -44.894981
2857075000 -5.036242 -46.014095 -3.4244804 26.982441 -3.4306221 26.854666 -5.0474672 -45.082279
2878009375 -5.0639534 -46.224911 -3.3941364 26.834 -3.4040873 26.715134 -5.0756235 -45.292835
2898943750 -5.0912042 -46.432713 -3.3690298 26.68041 -3.3788753 26.574425 -5.1008644 -45.492153
2919878125 -5.1154466 -46.634895 -3.3459394 26.54706 -3.3529844 26.439257 -5.1231084 -45.707069
2940812500 -5.1393185 -46.832809 -3.322047 26.425518 -3.3279271 26.301424 -5.1500306 -45.898697
2961746875 -5.1653581 -47.031376 -3.2956495 26.291071 -3.3033853 26.169519 -5.175983 -46.075294
2982681250 -5.1924329 -47.20816 -3.2727034 26.156406 -3.2801757 26.038017 -5.2044959 -46.257389
3003615625 -5.2208209 -47.404087 -3.2474446 26.026739 -3.2561502 25.919575 -5.2306566 -46.440929
3024550000 -5.2471461 -47.591419 -3.2233183 25.879086 -3.2308209 25.778057 -5.2553706 -46.659252
3045484375 -5.2706952 -47.798798 -3.2009988 25.754072 -3.2075746 25.634026 -5.2813425 -46.859093
3066418750 -5.2967696 -48.004341 -3.1773255 25.627131 -3.1853173 25.500168 -5.30512 -47.030796
3087353125 -5.3230367 -48.183514 -3.1542447 25.488176 -3.1632233 25.374641 -5.3295288 -47.208817
3108287500 -5.3495836 -48.350391 -3.1336386 25.351101 -3.1405625 25.254791 -5.3579159 -47.392838
3129221875 -5.3744321 -48.537815 -3.1128728 25.233028 -3.118464 25.122337 -5.3864799 -47.582417
3150156250 -5.4005508 -48.748135 -3.089644 25.121872 -3.0971253 24.989828 -5.4128957 -47.774075
3171090625 -5.4275303 -48.956234 -3.0640612 24.987494 -3.0750272 24.857098 -5.4359784 -47.973854
3192025000 -5.4517488 -49.135338 -3.0434849 24.83116 -3.0537233 24.72101 -5.459332 -48.159195
3212959375 -5.4735355 -49.306309 -3.0257051 24.709845 -3.0341811 24.590347 -5.4860258 -48.330025
3233893750 -5.497858 -49.485271 -3.005394 24.594927 -3.0144377 24.472931 -5.5123014 -48.484035
3254828125 -5.5236616 -49.663319 -2.9854844 24.477369 -2.9921896 24.35537 -5.53757 -48.679413
3275762500 -5.5504003 -49.865154 -2.9611418 24.360462 -2.9719431 24.215973 -5.5689006 -48.874329
3296696875 -5.5759497 -50.046822 -2.9407089 24.204264 -2.9530668 24.085482 -5.5918436 -49.047554
3317631250 -5.5976863 -50.23241 -2.9234359 24.079561 -2.9337809 23.953838 -5.6143632 -49.239799
3338565625 -5.6212182 -50.401768 -2.9048166 23.953558 -2.9153247 23.834011 -5.6372342 -49.389668
3359500000 -5.6433015 -50.562027 -2.8862541 23.838472 -2.8947196 23.712887 -5.6601071 -49.561081
3380434375 -5.6706204 -50.73653 -2.8647068 23.722065 -2.8764429 23.585583 -5.6905613 -49.735447
3401368750 -5.6982293 -50.891766 -2.8449543 23.570971 -2.8584814 23.471172 -5.7173266 -49.904697
3422303125 -5.7210798 -51.071095 -2.8302872 23.447311 -2.8398738 23.339329 -5.7425299 -50.103642
3443237500 -5.744916 -51.271885 -2.8128197 23.346008 -2.8229654 23.218178 -5.7666254 -50.272213
3464171875 -5.7696576 -51.444145 -2.7915835 23.220781 -2.8046963 23.104107 -5.7860875 -50.421555
3485106250 -5.7951159 -51.590012 -2.7734716 23.09012 -2.7867401 22.984329 -5.8084574 -50.583138
3506040625 -5.8203177 -51.719181 -2.7581387 22.954411 -2.7680228 22.860825 -5.8356977 -50.754383
3526975000 -5.8440328 -51.88015 -2.7440627 22.852907 -2.751296 22.736904 -5.8660445 -50.918621
3547909375 -5.8704457 -52.072655 -2.7235162 22.744331 -2.7354305 22.622879 -5.8930969 -51.077927
3568843750 -5.8942528 -52.249241 -2.7070127 22.612915 -2.7171435 22.507683 -5.9110045 -51.255695
3589778125 -5.9152131 -52.431171 -2.6899869 22.516731 -2.7000294 22.379116 -5.9321499 -51.436668
3610712500 -5.9397664 -52.588955 -2.6694443 22.38221 -2.6848238 22.261532 -5.9565845 -51.572121
3631646875 -5.9632378 -52.717796 -2.6573088 22.24758 -2.6680567 22.151299 -5.9797521 -51.707138
3652581250 -5.986053 -52.867783 -2.6426013 22.147291 -2.6497195 22.031237 -6.0070243 -51.885841
3673515625 -6.0095882 -53.045635 -2.6255679 22.046288 -2.6338756 21.905146 -6.0372267 -52.048424
3694450000 -6.033031 -53.247917 -2.6056664 21.93125 -2.6194878 21.782713 -6.0603638 -52.205734
3715384375 -6.0576701 -53.427788 -2.5882652 21.789087 -2.6052778 21.667784 -6.0799146 -52.371048
3736318750 -6.077528 -53.571499 -2.5764318 21.671364 -2.5888009 21.560293 -6.0979104 -52.524681
3757253125 -6.0968881 -53.711288 -2.5602098 21.574759 -2.5727241 21.438293 -6.1229267 -52.687637
3778187500 -6.1227922 -53.848431 -2.5446644 21.444159 -2.5586629 21.320332 -6.1515059 -52.805882
3799121875 -6.1469412 -54.003071 -2.5317867 21.339878 -2.5437326 21.214437 -6.1744814 -52.958523
3820056250 -6.1734223 -54.179962 -2.5115833 21.228477 -2.530226 21.097712 -6.2026768 -53.125786
3840990625 -6.195065 -54.324825 -2.4998624 21.082829 -2.5146036 20.989996 -6.22087 -53.264519
3861925000 -6.212543 -54.491104 -2.4869308 20.99238 -2.4996345 20.87048 -6.2368464 -53.446438
3882859375 -6.2364125 -54.633572 -2.4701664 20.880339 -2.4862363 20.759007 -6.2633262 -53.585201
3903793750 -6.2597361 -54.747845 -2.4563527 20.759211 -2.471395 20.652859 -6.2863317 -53.691277
3924728125 -6.284389 -54.872826 -2.4426308 20.632307 -2.4572878 20.53231 -6.3097572 -53.836666
3945662500 -6.3068266 -55.021542 -2.4329183 20.527473 -2.4434283 20.419338 -6.3334618 -53.99892
3966596875 -6.3281136 -55.210506 -2.4161723 20.436804 -2.4302704 20.307337 -6.3547134 -54.167244
3987531250 -6.3523598 -55.367886 -2.4001589 20.301092 -2.4176402 20.199402 -6.3759766 -54.317093
4008465625 -6.3725109 -55.491646 -2.3927422 20.181833 -2.4030933 20.096079 -6.3947554 -54.439362
4029400000 -6.3919806 -55.633919 -2.3799744 20.097351 -2.3897099 19.990509 -6.4139504 -54.568943
4050334375 -6.4176531 -55.758175 -2.3653059 19.983978 -2.3764055 19.88068 -6.4393415 -54.710144
4071268750 -6.439878 -55.900715 -2.3528881 19.875422 -2.3625569 19.768757 -6.4624462 -54.84198
4092203125 -6.4624891 -56.082489 -2.3382502 19.759726 -2.350281 19.65127 -6.4845266 -55.005264
4113137500 -6.481988 -56.241741 -2.3284538 19.647635 -2.3388803 19.546391 -6.5062842 -55.137562
4134071875 -6.5003362 -56.406883 -2.315479 19.559965 -2.3264639 19.44363 -6.5238028 -55.264198
4155006250 -6.5198803 -56.533592 -2.3025165 19.456623 -2.314199 19.334761 -6.5453186 -55.398056
4175940625 -6.5417347 -56.667049 -2.2888486 19.36825 -2.3024504 19.234079 -6.567657 -55.497887
4196875000 -6.5688124 -56.798328 -2.2719758 19.229904 -2.2894847 19.123325 -6.5869875 -55.653198
4217809375 -6.5887408 -56.919548 -2.2654805 19.110691 -2.2782216 19.014854 -6.6122589 -55.784206
4238743750 -6.6071162 -57.095284 -2.2551696 19.031088 -2.2671072 18.906128 -6.6306438 -55.902637
