!Keysight Technologies,N5227A,US51270248,A.10.65.08
!Date: Tuesday, June 11, 2024 08:23:44
!Correction: S11(Full 2 Port(1,4)) 
!S41(Full 2 Port(1,4)) 
!S14(Full 2 Port(1,4)) 
!S44(Full 2 Port(1,4)) 
!S2P File: Measurements: S11, S41, S14, S44:
# Hz S  dB   R 50
10000000 -0.59328669 179.55704 -43.042976 2.0239234 -43.843456 0.829045 -2.3988521 -0.31633231
30934375 -0.61295605 179.6489 -43.07037 4.7277374 -43.707554 5.0420604 -2.4008813 -0.93478352
51868750 -0.61337501 179.48584 -43.032227 7.9004593 -43.726494 8.3269634 -2.4034252 -1.5302808
72803125 -0.60817224 179.27351 -43.05558 11.015174 -43.633385 11.400428 -2.4060228 -2.1303649
93737500 -0.60584241 179.05553 -42.927803 13.894586 -43.50985 14.466536 -2.4118202 -2.7027769
114671875 -0.66981512 178.84625 -42.777367 16.813074 -43.447006 17.511791 -2.4177566 -3.2853529
135606250 -0.65765303 178.68037 -42.514729 19.513584 -43.320423 20.453089 -2.4212544 -3.8853471
156540625 -0.65284216 178.53954 -42.424351 22.264095 -43.226173 23.23498 -2.4229476 -4.4948487
177475000 -0.64654505 178.34621 -42.411968 25.222929 -43.109764 26.279989 -2.4247715 -5.0801187
198409375 -0.65165865 178.11763 -42.286484 27.828955 -42.951756 28.952703 -2.4262669 -5.637413
219343750 -0.65602016 177.91174 -42.134712 30.402582 -42.734768 31.640261 -2.429065 -6.2118282
240278125 -0.65372878 177.73894 -42.007229 32.989323 -42.527721 34.128895 -2.4373729 -6.8042049
261212500 -0.65575588 177.57198 -41.746517 35.28175 -42.389927 36.622757 -2.4443216 -7.4027348
282146875 -0.65933663 177.39648 -41.652981 37.923668 -42.165409 39.094025 -2.4479053 -7.9971809
303081250 -0.66249955 177.2247 -41.44323 40.149323 -41.845638 41.29594 -2.4502754 -8.5840569
324015625 -0.66008985 177.06052 -41.263092 42.278721 -41.705288 43.528805 -2.4523668 -9.1513968
344950000 -0.66239637 176.85455 -41.056625 44.418407 -41.495968 45.682053 -2.4557562 -9.7081919
365884375 -0.66395116 176.67081 -40.881939 46.678707 -41.290356 47.844746 -2.4594836 -10.283128
386818750 -0.66586071 176.50452 -40.671356 48.705151 -41.019505 49.851753 -2.4657931 -10.872052
407753125 -0.66081965 176.34149 -40.455338 50.716717 -40.860485 52.03878 -2.4724448 -11.447497
428687500 -0.66185254 176.15501 -40.198551 52.507423 -40.622509 53.951515 -2.4717507 -12.022031
449621875 -0.66497076 175.96404 -40.004982 54.432823 -40.383717 55.798744 -2.4741306 -12.609954
470556250 -0.6681264 175.78246 -39.7761 56.165615 -40.159801 57.549496 -2.47856 -13.169616
491490625 -0.66766316 175.59532 -39.550346 57.879829 -39.950939 59.411247 -2.4830573 -13.72475
512425000 -0.66891432 175.40746 -39.328316 59.486809 -39.703461 61.044319 -2.4887133 -14.288779
533359375 -0.6702162 175.22852 -39.094009 61.084007 -39.469738 62.63438 -2.4933524 -14.870371
554293750 -0.67082363 175.06416 -38.898449 62.784344 -39.247269 64.255196 -2.4987018 -15.447021
575228125 -0.67395514 174.88809 -38.652756 64.271278 -38.979164 65.912537 -2.5014682 -16.009235
596162500 -0.67536217 174.69913 -38.394711 65.507019 -38.719627 67.074333 -2.5036609 -16.568413
617096875 -0.68257689 174.50789 -38.097 66.579323 -38.502926 68.531342 -2.5084252 -17.131577
638031250 -0.67971534 174.33125 -37.950924 68.198105 -38.267166 69.935944 -2.5151649 -17.691929
658965625 -0.67957586 174.15749 -37.722092 69.524185 -38.031418 71.211105 -2.5201275 -18.253769
679900000 -0.68452144 173.98288 -37.465466 70.677269 -37.793167 72.412529 -2.5229931 -18.823904
700834375 -0.68504161 173.81284 -37.281242 72.020714 -37.589348 73.651001 -2.5282741 -19.389376
721768750 -0.68536592 173.63504 -37.026676 73.192696 -37.342335 75.050224 -2.5344369 -19.935949
742703125 -0.68689162 173.44608 -36.774139 74.152458 -37.077202 76.112007 -2.5381227 -20.468664
763637500 -0.68979108 173.26268 -36.493431 74.861465 -36.840225 76.994652 -2.5402312 -21.026829
784571875 -0.68969131 173.09094 -36.324806 76.15583 -36.627808 78.009674 -2.5449414 -21.589594
805506250 -0.68766642 172.92445 -36.155643 77.452232 -36.450119 79.234207 -2.548465 -22.140745
826440625 -0.69314843 172.74974 -35.911659 78.653938 -36.185619 80.486603 -2.5529573 -22.695641
847375000 -0.69261193 172.56311 -35.669846 79.602783 -35.922329 81.373001 -2.5587826 -23.243687
868309375 -0.69488114 172.3793 -35.430882 80.431725 -35.700985 82.167 -2.5654662 -23.775055
889243750 -0.68993765 172.18596 -35.228603 81.392868 -35.465351 83.101883 -2.5695095 -24.310757
910178125 -0.69280374 172.005 -35.002285 82.163521 -35.231266 83.90876 -2.5726013 -24.864048
931112500 -0.69560444 171.84355 -34.782909 82.981598 -35.010925 84.57769 -2.577316 -25.410749
952046875 -0.69824666 171.67142 -34.574604 83.818573 -34.802357 85.452736 -2.5805502 -25.947203
972981250 -0.69756895 171.47964 -34.363354 84.690514 -34.578636 86.338066 -2.5851355 -26.48497
993915625 -0.70089382 171.28734 -34.143974 85.385063 -34.341908 86.949089 -2.5916522 -27.021132
1014850000 -0.70117515 171.11469 -33.911659 85.921326 -34.111271 87.619957 -2.5972371 -27.561712
1035784375 -0.70170009 170.94026 -33.721169 86.717117 -33.916332 88.225922 -2.6028504 -28.103979
1056718750 -0.70040691 170.76222 -33.523136 87.500244 -33.703865 89.077415 -2.6057858 -28.644882
1077653125 -0.70640039 170.5887 -33.293819 88.009468 -33.465427 89.59948 -2.608757 -29.177526
1098587500 -0.70927918 170.41827 -33.089886 88.648125 -33.246197 90.042915 -2.6117668 -29.691505
1119521875 -0.71049345 170.2323 -32.877441 89.122055 -33.050274 90.666641 -2.6168821 -30.213684
1140456250 -0.71099669 170.03542 -32.696114 89.850372 -32.85083 91.240021 -2.6240203 -30.740932
1161390625 -0.71096522 169.85999 -32.479156 90.220612 -32.634373 91.799995 -2.6290393 -31.267681
1182325000 -0.71193051 169.69193 -32.280945 90.80555 -32.402687 92.177353 -2.6311798 -31.801483
1203259375 -0.7139498 169.51855 -32.079391 91.302536 -32.209438 92.527306 -2.6329906 -32.334724
1224193750 -0.72017169 169.33813 -31.882898 91.750244 -32.015495 92.993126 -2.6351323 -32.857216
1245128125 -0.73184073 169.15355 -31.69817 92.199455 -31.816828 93.313248 -2.6417272 -33.359207
1266062500 -0.72171646 168.96634 -31.500776 92.564171 -31.634029 93.804306 -2.6482322 -33.873753
1286996875 -0.72239941 168.77777 -31.314966 92.983002 -31.440046 94.219254 -2.6546452 -34.399963
1307931250 -0.72017533 168.5983 -31.123833 93.331711 -31.25021 94.615517 -2.6598949 -34.929077
1328865625 -0.72084689 168.43149 -30.89897 93.268066 -31.057314 94.855713 -2.6627312 -35.45285
1349800000 -0.74169117 168.26682 -30.746344 93.930656 -30.867275 95.114883 -2.6652386 -35.962021
1370734375 -0.73314977 168.07707 -30.565441 94.257599 -30.707485 95.412788 -2.6690247 -36.462608
1391668750 -0.73473829 167.88036 -30.403194 94.75087 -30.534716 96.027084 -2.6748447 -36.964897
1412603125 -0.73334235 167.68953 -30.222328 95.032936 -30.335674 96.206078 -2.6819761 -37.469425
1433537500 -0.73651439 167.51541 -30.033899 95.242142 -30.165398 96.586258 -2.6867533 -37.993511
1454471875 -0.73556226 167.34485 -29.868134 95.614632 -29.968397 96.814445 -2.6904099 -38.515347
1475406250 -0.73874742 167.17792 -29.699547 95.932365 -29.813429 97.020233 -2.6932669 -39.021255
1496340625 -0.74297309 167.00696 -29.534082 96.230919 -29.647638 97.324814 -2.6963003 -39.507019
1517275000 -0.74527305 166.81552 -29.359165 96.456718 -29.468309 97.561539 -2.7008595 -39.984764
1538209375 -0.74579501 166.61066 -29.186586 96.633751 -29.289812 97.742844 -2.7073705 -40.480087
1559143750 -0.74572998 166.42004 -29.025986 96.949844 -29.112719 97.983727 -2.7132065 -40.982754
1580078125 -0.74702209 166.25162 -28.854059 97.055588 -28.944818 98.003479 -2.7170622 -41.490887
1601012500 -0.75401056 166.08755 -28.699711 97.324631 -28.783751 98.33477 -2.7189584 -42.004517
1621946875 -0.75387162 165.9137 -28.537823 97.547127 -28.621038 98.458664 -2.7239804 -42.496273
1642881250 -0.75749272 165.72635 -28.387186 97.832153 -28.476967 98.696915 -2.7286196 -42.964443
1663815625 -0.75805986 165.53352 -28.23102 98.041199 -28.318016 98.90686 -2.7334669 -43.436478
1684750000 -0.76073915 165.34036 -28.067347 98.104393 -28.155434 99.042175 -2.7388256 -43.929264
1705684375 -0.76236749 165.16612 -27.919943 98.309387 -27.997555 99.132103 -2.7444303 -44.432194
1726618750 -0.76670128 165.00876 -27.771549 98.48777 -27.852308 99.357788 -2.7482967 -44.922905
1747553125 -0.76811308 164.84912 -27.615248 98.582115 -27.696083 99.438728 -2.7519472 -45.407124
1768487500 -0.77065033 164.67014 -27.460194 98.668465 -27.552856 99.515968 -2.755775 -45.873264
1789421875 -0.77349788 164.48242 -27.304438 98.653656 -27.410263 99.709869 -2.7616765 -46.331882
1810356250 -0.77450067 164.30458 -27.172642 98.975845 -27.265255 99.864159 -2.766834 -46.806255
1831290625 -0.77458251 164.13602 -27.026182 99.116142 -27.109152 100.06031 -2.7714474 -47.291653
1852225000 -0.77956367 163.97945 -26.881315 99.224419 -26.946257 99.934227 -2.7762778 -47.772827
1873159375 -0.78063488 163.82545 -26.738306 99.357323 -26.81271 100.10591 -2.7795413 -48.240948
1894093750 -0.78315085 163.65581 -26.593737 99.469437 -26.651926 100.18485 -2.7842543 -48.702393
1915028125 -0.78836834 163.46469 -26.451342 99.549698 -26.529507 100.08113 -2.7897491 -49.1609
1935962500 -0.79061085 163.27924 -26.307489 99.490669 -26.397539 100.40749 -2.7947683 -49.623032
1956896875 -0.79474062 163.11288 -26.17643 99.603897 -26.232594 100.37473 -2.7983913 -50.090797
1977831250 -0.79694813 162.96132 -26.048351 99.6716 -26.101915 100.40636 -2.8001964 -50.566036
1998765625 -0.79791993 162.80675 -25.917515 99.709526 -25.975327 100.34371 -2.8034537 -51.032154
2019700000 -0.79721224 162.63774 -25.790583 99.716209 -25.860655 100.34679 -2.8079212 -51.481407
2040634375 -0.79872024 162.45811 -25.663872 99.866524 -25.724958 100.60056 -2.8118873 -51.927803
2061568750 -0.79975498 162.27136 -25.535372 99.952988 -25.587019 100.54532 -2.8164606 -52.383095
2082503125 -0.79804897 162.09277 -25.411861 100.00642 -25.469423 100.59074 -2.8208063 -52.848007
2103437500 -0.806288 161.93042 -25.283241 100.01559 -25.340933 100.50851 -2.8244958 -53.303459
2124371875 -0.80111116 161.77061 -25.161297 100.16208 -25.229895 100.68839 -2.8254268 -53.760223
2145306250 -0.80129665 161.59338 -25.031258 100.19083 -25.094521 100.82751 -2.8290651 -54.2061
2166240625 -0.80113602 161.39818 -24.908821 100.23954 -24.964382 100.76163 -2.8352997 -54.634686
2187175000 -0.80000991 161.20786 -24.775803 100.13415 -24.831982 100.49457 -2.8412993 -55.062172
2208109375 -0.7987417 161.0276 -24.658587 100.36801 -24.724449 100.59406 -2.8456175 -55.516666
2229043750 -0.79535067 160.84013 -24.529348 100.36433 -24.604218 100.75907 -2.849489 -55.977039
2249978125 -0.79857051 160.65923 -24.406908 100.37481 -24.47418 100.8555 -2.8513994 -56.422127
2270912500 -0.80297112 160.48076 -24.283674 100.3213 -24.341991 100.76944 -2.854497 -56.848522
2291846875 -0.80584931 160.29739 -24.16844 100.33013 -24.227875 100.72319 -2.85849 -57.277473
2312781250 -0.80488366 160.10744 -24.056343 100.35526 -24.1294 100.74717 -2.8649631 -57.703762
2333715625 -0.8065533 159.91644 -23.923672 99.955971 -24.005402 100.69088 -2.8707204 -58.144268
2354650000 -0.81748736 159.75398 -23.783794 99.366798 -23.88773 100.42758 -2.8767328 -58.584938
2375584375 -0.81252927 159.58928 -23.688749 99.784813 -23.771467 100.65327 -2.8782959 -59.032467
2396518750 -0.81282288 159.41133 -23.574854 99.871086 -23.654011 100.70991 -2.8796709 -59.45755
2417453125 -0.8162871 159.22583 -23.460495 99.964584 -23.553303 100.84692 -2.8823321 -59.868256
2438387500 -0.8177706 159.02937 -23.344219 99.959938 -23.39695 100.46429 -2.8883862 -60.271358
2459321875 -0.82509655 158.83113 -23.231251 99.969925 -23.293087 100.45467 -2.8923819 -60.703205
2480256250 -0.82117802 158.64644 -23.123529 99.984398 -23.194025 100.35466 -2.8964286 -61.140255
2501190625 -0.82227868 158.48375 -23.001356 99.678764 -23.094797 100.49009 -2.8970306 -61.58477
2522125000 -0.82850146 158.30908 -22.902897 99.907539 -22.975878 100.51915 -2.8994799 -61.995857
2543059375 -0.83329099 158.11829 -22.790916 99.868332 -22.847269 100.48264 -2.9004779 -62.397247
2563993750 -0.83376259 157.92671 -22.687042 99.945404 -22.753883 100.43275 -2.9038212 -62.797955
2584928125 -0.83960676 157.73259 -22.580215 99.950333 -22.637793 100.30895 -2.9101346 -63.211891
2605862500 -0.84018838 157.5435 -22.468369 99.808136 -22.541147 100.1964 -2.9150825 -63.645657
2626796875 -0.83612311 157.35875 -22.36529 99.874115 -22.449177 100.27522 -2.9171023 -64.076309
2647731250 -0.83911216 157.18823 -22.261198 99.700325 -22.347988 100.35509 -2.9169862 -64.49913
2668665625 -0.84147567 157.00986 -22.15753 99.656265 -22.227039 100.25454 -2.9196362 -64.89772
2689600000 -0.84302688 156.81352 -22.044493 99.167809 -22.111694 99.917229 -2.9243982 -65.277954
2710534375 -0.84585565 156.61613 -21.948608 99.251297 -22.030659 99.662422 -2.9309397 -65.667732
2731468750 -0.84548283 156.43205 -21.846193 99.33786 -21.938967 99.822571 -2.9343643 -66.098129
2752403125 -0.84741479 156.26172 -21.751694 99.309601 -21.834009 99.942146 -2.9364195 -66.527023
2773337500 -0.85112232 156.0883 -21.653561 99.199303 -21.724155 99.793877 -2.9379017 -66.944206
2794271875 -0.8559249 155.92502 -21.556768 99.258278 -21.648201 99.753975 -2.9390774 -67.348335
2815206250 -0.85846192 155.75496 -21.460043 99.207764 -21.546721 99.893112 -2.9426701 -67.730652
2836140625 -0.86202937 155.55545 -21.362259 99.16629 -21.429651 99.744713 -2.9482794 -68.109322
2857075000 -0.8648349 155.35924 -21.262869 99.117584 -21.336849 99.586243 -2.9520991 -68.507942
2878009375 -0.86697495 155.19301 -21.167969 99.117638 -21.237221 99.418961 -2.9555531 -68.933289
2898943750 -0.86507261 155.03354 -21.072771 99.042931 -21.165394 99.43853 -2.9568999 -69.346725
2919878125 -0.87146926 154.85277 -20.976522 98.996025 -21.058762 99.500748 -2.959341 -69.731674
2940812500 -0.87510365 154.65874 -20.879421 98.854309 -20.948965 99.347824 -2.9608703 -70.104942
2961746875 -0.87763172 154.47485 -20.785803 98.786598 -20.856739 99.297417 -2.9648054 -70.480988
2982681250 -0.87832224 154.28175 -20.694111 98.761581 -20.762077 99.126228 -2.9694927 -70.869331
3003615625 -0.88465691 154.08528 -20.597723 98.639252 -20.691051 99.021324 -2.973037 -71.26368
3024550000 -0.89451498 153.90424 -20.512758 98.548447 -20.582842 99.047867 -2.9746008 -71.673027
3045484375 -0.88889027 153.73438 -20.419039 98.475555 -20.484533 98.7742 -2.9759257 -72.068916
3066418750 -0.88893241 153.55894 -20.326674 98.379829 -20.41971 98.78907 -2.9779949 -72.444084
3087353125 -0.89219856 153.35857 -20.240137 98.28643 -20.318817 98.725601 -2.9813199 -72.797417
3108287500 -0.89384902 153.14857 -20.15292 98.084 -20.22109 98.483063 -2.9879713 -73.16375
3129221875 -0.89365613 152.9493 -20.066219 98.111588 -20.129559 98.298851 -2.992847 -73.555283
3150156250 -0.89400637 152.76711 -19.97308 97.952629 -20.052582 98.134392 -2.9941742 -73.955132
3171090625 -0.90111607 152.60522 -19.89016 97.791458 -19.973703 98.155411 -2.9937403 -74.348915
3192025000 -0.9044289 152.44379 -19.813557 97.727455 -19.882126 98.018288 -2.995091 -74.715469
3212959375 -0.9181565 152.26154 -19.729031 97.649292 -19.800348 97.831329 -3.0001347 -75.067673
3233893750 -0.910887 152.04904 -19.645863 97.606468 -19.741146 97.846237 -3.004035 -75.425095
3254828125 -0.91354501 151.84177 -19.562651 97.442039 -19.641266 97.82724 -3.0088062 -75.791817
3275762500 -0.91663605 151.65999 -19.477179 97.354973 -19.540117 97.552711 -3.0123284 -76.186584
3296696875 -0.91813982 151.49423 -19.402399 97.200439 -19.481798 97.442146 -3.0116303 -76.574936
3317631250 -0.92549855 151.32497 -19.322632 97.145462 -19.399332 97.259354 -3.0125716 -76.937943
3338565625 -0.92803651 151.13687 -19.244043 97.040733 -19.350615 97.198753 -3.0149131 -77.283859
3359500000 -0.93625915 150.92891 -19.161659 96.874863 -19.252649 97.05127 -3.0209458 -77.616081
3380434375 -0.93680042 150.70874 -19.081472 96.798714 -19.155302 96.942719 -3.0235343 -77.988213
3401368750 -0.94119382 150.51714 -19.013432 96.668785 -19.103296 96.918167 -3.0260231 -78.373077
3422303125 -0.94343746 150.35365 -18.939573 96.593781 -19.005127 96.746727 -3.0284054 -78.744583
3443237500 -0.94740826 150.18886 -18.853779 96.513039 -18.948536 96.49855 -3.0277004 -79.107788
3464171875 -0.95110929 150.00809 -18.776196 96.366302 -18.895086 96.577988 -3.0280817 -79.450294
3485106250 -0.95830172 149.80379 -18.705786 96.261993 -18.81653 96.588501 -3.0310521 -79.786156
3506040625 -0.96541369 149.60262 -18.637325 96.121323 -18.723839 96.587936 -3.036859 -80.129257
3526975000 -0.96537024 149.41731 -18.559914 96.117912 -18.616673 96.333984 -3.0413027 -80.484016
3547909375 -0.96543747 149.25497 -18.477938 95.978386 -18.575579 96.061577 -3.0424232 -80.868164
3568843750 -0.96426684 149.10864 -18.407169 95.898087 -18.515434 96.200127 -3.0397861 -81.22715
3589778125 -0.97184658 148.94563 -18.321075 95.681747 -18.414116 96.018066 -3.0416121 -81.558975
3610712500 -0.97329175 148.75589 -18.251568 95.534149 -18.345346 95.794022 -3.0433855 -81.885002
3631646875 -0.97524059 148.5466 -18.184763 95.511398 -18.285875 95.879181 -3.0474172 -82.215843
3652581250 -0.97721553 148.34209 -18.109848 95.448692 -18.180618 95.90686 -3.0513823 -82.566513
3673515625 -0.98007661 148.15968 -18.030407 95.300529 -18.092722 95.417091 -3.0551705 -82.934181
3694450000 -0.98526025 148.01199 -17.951767 95.124161 -18.046289 95.30024 -3.0561185 -83.300407
3715384375 -0.98463929 147.86104 -17.891296 95.02774 -17.987705 95.217575 -3.0552981 -83.637733
3736318750 -0.99398994 147.68245 -17.818724 94.943893 -17.927929 95.3209 -3.0550551 -83.948486
3757253125 -0.9973399 147.47356 -17.743784 94.783051 -17.81583 95.220306 -3.0601275 -84.262253
3778187500 -1.0107914 147.27946 -17.679619 94.66275 -17.738901 94.847931 -3.0629208 -84.610931
3799121875 -1.0063344 147.09738 -17.605057 94.627403 -17.688038 94.772888 -3.0679719 -84.956818
3820056250 -1.0043445 146.92601 -17.530125 94.42308 -17.610193 94.502213 -3.0685918 -85.314133
3840990625 -1.008878 146.76285 -17.47234 94.281029 -17.584917 94.377747 -3.0699744 -85.641144
3861925000 -1.0093582 146.57556 -17.395107 94.185936 -17.48023 94.404274 -3.0717168 -85.939407
3882859375 -1.0149704 146.37274 -17.325914 94.076965 -17.382479 93.847862 -3.0751066 -86.238144
3903793750 -1.0165638 146.16223 -17.260277 93.919128 -17.350136 93.847527 -3.076077 -86.579819
3924728125 -1.0238119 145.96155 -17.198605 93.732315 -17.282833 93.811867 -3.0811856 -86.923027
3945662500 -1.0216717 145.78172 -17.130264 93.738472 -17.214903 93.74025 -3.0835757 -87.271194
3966596875 -1.0213292 145.60246 -17.051153 93.568336 -17.137239 93.670097 -3.0827496 -87.597511
3987531250 -1.0264543 145.42545 -16.994429 93.38488 -17.068079 93.471245 -3.0820508 -87.911224
4008465625 -1.034986 145.2399 -16.934324 93.30999 -17.010614 93.32489 -3.082283 -88.202522
4029400000 -1.0469791 145.0416 -16.858564 93.197815 -16.938141 93.052628 -3.0897279 -88.491302
4050334375 -1.0411599 144.83382 -16.793127 93.06192 -16.866901 92.987839 -3.0897627 -88.843391
4071268750 -1.0395689 144.63551 -16.72797 92.82618 -16.821039 92.883911 -3.0933244 -89.179497
4092203125 -1.0429784 144.46735 -16.667727 92.717384 -16.735964 92.903992 -3.0941658 -89.504982
4113137500 -1.0520701 144.30836 -16.603916 92.652672 -16.657953 92.568764 -3.0924957 -89.805183
4134071875 -1.0547061 144.14162 -16.53027 92.543755 -16.616564 92.480164 -3.0930767 -90.107643
4155006250 -1.0593578 143.94203 -16.466841 92.3825 -16.531347 92.287964 -3.0941875 -90.405411
4175940625 -1.0624835 143.73732 -16.396379 92.143211 -16.508156 91.984962 -3.0999217 -90.714554
4196875000 -1.0634514 143.55463 -16.344282 91.989769 -16.428102 92.134407 -3.1029849 -91.033646
4217809375 -1.0642084 143.37532 -16.288952 91.949181 -16.342424 91.755043 -3.1031356 -91.354294
4238743750 -1.0665109 143.20395 -16.213682 91.837158 -16.316935 91.674042 -3.1044705 -91.665512
