!Keysight Technologies,N5227A,US51270248,A.10.65.08
!Date: Tuesday, June 11, 2024 06:02:13
!Correction: S11(Full 2 Port(1,4)) 
!S41(Full 2 Port(1,4)) 
!S14(Full 2 Port(1,4)) 
!S44(Full 2 Port(1,4)) 
!S2P File: Measurements: S11, S41, S14, S44:
# Hz S  dB   R 50
10000000 -44.289444 10.726626 -0.050720125 -0.095365666 -0.03280329 -0.049973045 -48.249348 10.122336
30934375 -46.622383 -1.4357073 -0.039294399 -0.06390176 -0.036437947 -0.032947961 -46.879162 -7.1388779
51868750 -55.079166 -26.650406 -0.013466887 -0.069182344 -0.034956101 -0.053486131 -47.237949 -13.641682
72803125 -54.206135 -34.399178 -0.014405037 -0.081712984 -0.033375323 -0.078390755 -47.693573 -15.960211
93737500 -53.727398 -40.760326 -0.013588629 -0.10368275 -0.032880273 -0.10895603 -47.729809 -17.295273
114671875 -53.330067 -45.213188 -0.01331792 -0.13058037 -0.03188277 -0.13553728 -47.636005 -20.42889
135606250 -53.071053 -50.572083 -0.012276717 -0.16165166 -0.032510333 -0.16233627 -47.283203 -24.019058
156540625 -52.238659 -54.04385 -0.012679486 -0.18867035 -0.032385409 -0.18853047 -47.18784 -28.38475
177475000 -51.633114 -58.169559 -0.012031999 -0.21293461 -0.032111127 -0.22008428 -47.112747 -30.015915
198409375 -51.175793 -57.087734 -0.013186127 -0.24462445 -0.032506194 -0.24599804 -46.846249 -31.374342
219343750 -50.344116 -60.984711 -0.012386667 -0.26308161 -0.032173339 -0.27575812 -46.71756 -33.10014
240278125 -50.992237 -68.991028 -0.0085964482 -0.30389702 -0.032913193 -0.30310461 -46.328186 -34.908516
261212500 -49.930016 -64.701248 -0.011525334 -0.33420026 -0.032512739 -0.32412982 -46.164719 -39.506363
282146875 -49.069267 -67.875237 -0.011089338 -0.35025141 -0.031368218 -0.35839903 -46.150204 -41.692291
303081250 -48.900707 -70.586128 -0.0102616 -0.38429382 -0.032404996 -0.38522536 -45.72131 -42.548561
324015625 -48.318504 -71.045357 -0.010551781 -0.40571249 -0.032124389 -0.41278183 -45.524311 -44.909973
344950000 -48.093304 -73.246101 -0.0090668295 -0.43549311 -0.032672226 -0.44165072 -45.210705 -45.636055
365884375 -46.708584 -58.442146 -0.020694179 -0.47193471 -0.0322503 -0.46585032 -45.002552 -47.613518
386818750 -45.526863 -52.678623 -0.027917434 -0.49681634 -0.032584846 -0.49019051 -44.662708 -49.481785
407753125 -45.215801 -55.565666 -0.027683038 -0.51971263 -0.03150022 -0.51907116 -44.473236 -52.066605
428687500 -45.278595 -60.867538 -0.023799069 -0.54749781 -0.03236011 -0.54859471 -44.265976 -53.241245
449621875 -45.126183 -64.448944 -0.021101754 -0.5748691 -0.032543156 -0.57542348 -43.979465 -53.879704
470556250 -45.025211 -67.760185 -0.018511349 -0.60376668 -0.032156687 -0.60102463 -43.655571 -54.932049
491490625 -44.691322 -69.397972 -0.017745264 -0.62813854 -0.032173518 -0.6283766 -43.42033 -56.233013
512425000 -44.631882 -70.071701 -0.017237684 -0.66110373 -0.032263581 -0.65701008 -43.299427 -57.037319
533359375 -44.208981 -69.781052 -0.018472819 -0.68851668 -0.032345798 -0.68275088 -42.981117 -58.105595
554293750 -43.746269 -70.822723 -0.018793523 -0.71146476 -0.031733863 -0.71163684 -42.797398 -59.828392
575228125 -43.495373 -70.288361 -0.02026169 -0.7429536 -0.03187941 -0.74214566 -42.552654 -60.294922
596162500 -43.202953 -71.461502 -0.019989517 -0.76773906 -0.033085302 -0.76627547 -42.16354 -60.941128
617096875 -42.87793 -72.365791 -0.019829758 -0.79431826 -0.032209121 -0.79369307 -42.044338 -61.965504
638031250 -42.598553 -71.666481 -0.021581186 -0.82375622 -0.032984678 -0.82255065 -41.830326 -62.602299
658965625 -42.432308 -71.93808 -0.021398822 -0.85468918 -0.033793412 -0.84911817 -41.582043 -62.986393
679900000 -42.044807 -70.174294 -0.024059452 -0.88355708 -0.034122322 -0.87312728 -41.255154 -63.896542
700834375 -41.739536 -72.265121 -0.023745557 -0.89996302 -0.03383854 -0.89795834 -41.085781 -65.844322
721768750 -41.58606 -73.662392 -0.02287299 -0.92780328 -0.033776082 -0.93191594 -41.017715 -66.624596
742703125 -41.439579 -73.99765 -0.023160378 -0.95786136 -0.034775686 -0.95463389 -40.754681 -66.221039
763637500 -41.308113 -74.751526 -0.022356117 -0.98734826 -0.036167644 -0.98036569 -40.38113 -65.806458
784571875 -41.127621 -75.256599 -0.022802623 -1.0184376 -0.035347093 -1.0059237 -40.20237 -67.466644
805506250 -40.860119 -76.437439 -0.023070138 -1.0374719 -0.034960683 -1.0350418 -40.080662 -68.268181
826440625 -40.731758 -76.949829 -0.021978483 -1.0674413 -0.035427112 -1.0618147 -39.937084 -68.727058
847375000 -40.572998 -76.429115 -0.023491686 -1.0961567 -0.037005063 -1.0858456 -39.704998 -68.95298
868309375 -40.228046 -76.607597 -0.024535622 -1.1141832 -0.036691889 -1.1077478 -39.564018 -70.270515
889243750 -40.106792 -77.791351 -0.02304857 -1.1433696 -0.035477236 -1.1366363 -39.451214 -70.771729
910178125 -39.879383 -75.542221 -0.02679971 -1.1739801 -0.037201852 -1.162516 -39.260788 -70.557213
931112500 -39.692314 -75.904358 -0.025928723 -1.1966496 -0.037338577 -1.1834747 -39.029709 -70.86631
952046875 -39.502678 -76.120659 -0.026594369 -1.2225215 -0.036146387 -1.2122738 -38.921787 -71.548508
972981250 -39.30225 -76.834953 -0.025857599 -1.2425051 -0.036318846 -1.2416382 -38.796986 -72.019073
993915625 -39.213654 -76.759804 -0.026132291 -1.2752672 -0.037380058 -1.2655265 -38.645626 -72.018387
1014850000 -38.954678 -76.654076 -0.027118919 -1.303219 -0.037959795 -1.2907952 -38.422886 -72.113525
1035784375 -38.702713 -77.865753 -0.026674492 -1.319171 -0.036930807 -1.3158991 -38.232906 -73.277985
1056718750 -38.645611 -78.545013 -0.025758492 -1.3502717 -0.036969386 -1.3436557 -38.143665 -73.53698
1077653125 -38.491928 -77.87368 -0.026366916 -1.3774215 -0.037861247 -1.367752 -37.962845 -72.808052
1098587500 -38.33107 -78.200943 -0.026232148 -1.4076486 -0.03744968 -1.3911593 -37.752113 -73.121399
1119521875 -38.156185 -78.359177 -0.026469875 -1.4301081 -0.037423458 -1.4179436 -37.627872 -73.708916
1140456250 -37.969421 -78.789764 -0.02629664 -1.4521041 -0.037060335 -1.4444698 -37.492043 -74.10704
1161390625 -37.818039 -78.840347 -0.026327794 -1.4804866 -0.037757959 -1.4733967 -37.36121 -74.005058
1182325000 -37.743645 -79.475273 -0.025218233 -1.5091233 -0.038298741 -1.4973953 -37.16758 -74.077515
1203259375 -37.604111 -79.41098 -0.024907595 -1.540283 -0.037524782 -1.521603 -36.960335 -74.32222
1224193750 -37.42321 -79.145081 -0.026070327 -1.5677567 -0.037049539 -1.5468 -36.82457 -74.688904
1245128125 -37.253162 -79.233299 -0.026543766 -1.5914465 -0.037529472 -1.5722945 -36.695515 -74.662834
1266062500 -37.175426 -79.465897 -0.026319683 -1.6252949 -0.038094357 -1.6016536 -36.557552 -74.948929
1286996875 -36.919949 -79.5476 -0.027841218 -1.6434823 -0.037116613 -1.6271777 -36.452278 -75.737404
1307931250 -36.794704 -80.249786 -0.02612759 -1.6701777 -0.037857551 -1.6528943 -36.302586 -75.895874
1328865625 -36.650669 -79.264603 -0.028900241 -1.7032031 -0.037547551 -1.6796633 -36.14571 -75.926353
1349800000 -36.483593 -79.253128 -0.029416006 -1.7266251 -0.037761085 -1.7050406 -35.990471 -76.11377
1370734375 -36.413784 -80.198692 -0.027695801 -1.7584254 -0.037149824 -1.7305636 -35.822544 -76.576172
1391668750 -36.23632 -80.203613 -0.028700141 -1.7803161 -0.037285037 -1.7615267 -35.769276 -76.929855
1412603125 -36.120213 -80.692413 -0.027844992 -1.8074151 -0.037596263 -1.786755 -35.648766 -76.997505
1433537500 -35.960026 -81.3032 -0.027315207 -1.8320721 -0.037678283 -1.8135425 -35.506725 -77.363716
1454471875 -35.783886 -81.590714 -0.027916018 -1.8535697 -0.039490987 -1.840651 -35.374733 -77.173492
1475406250 -35.718704 -82.464607 -0.025634056 -1.8866167 -0.038217198 -1.8648553 -35.201553 -77.67276
1496340625 -35.552155 -81.377342 -0.029349418 -1.9145293 -0.039408647 -1.8923919 -35.087982 -77.456711
1517275000 -35.42728 -82.205925 -0.027901817 -1.9354742 -0.039212294 -1.9191455 -34.986107 -77.706512
1538209375 -35.369568 -82.392487 -0.027706405 -1.9685675 -0.03893717 -1.945367 -34.89719 -78.006813
1559143750 -35.182236 -82.76535 -0.027403763 -1.9836067 -0.039743949 -1.972227 -34.79723 -77.876099
1580078125 -35.084206 -83.272438 -0.026860619 -2.0113428 -0.040956825 -1.9967514 -34.646225 -77.762352
1601012500 -35.017792 -83.664795 -0.026312808 -2.0427434 -0.040270444 -2.0250864 -34.546242 -78.288933
1621946875 -34.928017 -84.129951 -0.025654575 -2.0724888 -0.040620856 -2.048615 -34.399216 -78.151031
1642881250 -34.862717 -83.86277 -0.026142761 -2.1082182 -0.040022161 -2.0742066 -34.274952 -78.465813
1663815625 -34.722164 -84.06945 -0.026894579 -2.1299191 -0.040187139 -2.1011438 -34.193676 -78.5886
1684750000 -34.61964 -84.381241 -0.02617795 -2.1553004 -0.040364958 -2.1280494 -34.080112 -78.790901
1705684375 -34.447334 -85.007805 -0.025608689 -2.1753807 -0.040818609 -2.1566355 -33.983971 -79.149551
1726618750 -34.427216 -85.685585 -0.023384079 -2.208307 -0.041193631 -2.1837785 -33.874718 -79.315102
1747553125 -34.37558 -85.456528 -0.024232481 -2.2478559 -0.041555155 -2.2072031 -33.762844 -79.402962
1768487500 -34.219307 -85.553047 -0.024825698 -2.2690861 -0.041247308 -2.2308962 -33.648129 -79.571037
1789421875 -34.098671 -86.128693 -0.02440032 -2.2909234 -0.041468512 -2.2600679 -33.567459 -79.87265
1810356250 -34.03854 -86.289963 -0.02409316 -2.3199675 -0.042044874 -2.2872229 -33.472637 -80.036789
1831290625 -33.963783 -86.515831 -0.023794245 -2.3449841 -0.042491667 -2.3140559 -33.416058 -80.160019
1852225000 -33.884365 -85.969597 -0.025907353 -2.3807504 -0.042675048 -2.3390641 -33.308533 -80.186722
1873159375 -33.70277 -85.564537 -0.028801454 -2.4022067 -0.04358073 -2.3652189 -33.19939 -80.336075
1894093750 -33.572475 -86.036545 -0.028170992 -2.4223709 -0.043206125 -2.3903136 -33.113987 -80.480835
1915028125 -33.518055 -86.204628 -0.027552344 -2.4551444 -0.04331737 -2.4142547 -32.97538 -80.585991
1935962500 -33.415569 -86.556671 -0.027447727 -2.4776142 -0.043991923 -2.4454851 -32.914394 -80.982872
1956896875 -33.407631 -86.280144 -0.027956596 -2.5168631 -0.044251103 -2.4711232 -32.863087 -80.934036
1977831250 -33.182751 -85.837074 -0.03060659 -2.5282745 -0.04434095 -2.494065 -32.760296 -81.015114
1998765625 -33.066494 -86.799187 -0.028410614 -2.5435405 -0.044424586 -2.5188236 -32.651798 -81.055473
2019700000 -33.030258 -86.722145 -0.028056037 -2.5820048 -0.044386037 -2.5451648 -32.536461 -81.248711
2040634375 -32.951427 -85.956375 -0.031830091 -2.6136675 -0.044453356 -2.5732822 -32.489166 -81.565277
2061568750 -32.843357 -85.33522 -0.033783209 -2.6380324 -0.044865374 -2.5971074 -32.393669 -81.512138
2082503125 -32.752079 -85.729492 -0.033476178 -2.6630254 -0.044877149 -2.6232932 -32.297997 -81.707497
2103437500 -32.666061 -85.972046 -0.033472955 -2.6860354 -0.045036409 -2.6487679 -32.20919 -81.772408
2124371875 -32.614666 -86.233253 -0.033034645 -2.7137239 -0.045852892 -2.6761751 -32.106224 -81.903152
2145306250 -32.530621 -86.350929 -0.033343144 -2.7415357 -0.046856612 -2.7033699 -32.034306 -81.974449
2166240625 -32.456989 -86.634804 -0.03267628 -2.7676225 -0.046441868 -2.7276418 -31.971437 -82.267616
2187175000 -32.415096 -86.67527 -0.032859381 -2.7976379 -0.046633359 -2.7541735 -31.88303 -82.221016
2208109375 -32.33165 -86.822937 -0.033186615 -2.8201697 -0.046786014 -2.7799952 -31.786425 -82.524788
2229043750 -32.279564 -86.775093 -0.033389769 -2.8524253 -0.046351906 -2.8088019 -31.72381 -82.919815
2249978125 -32.169327 -86.936165 -0.034487557 -2.8740096 -0.047292132 -2.8341823 -31.660967 -82.918411
2270912500 -32.115593 -87.301064 -0.033734996 -2.8989334 -0.047979426 -2.8600619 -31.598703 -83.030685
2291846875 -32.024212 -87.31884 -0.034660768 -2.9239192 -0.047360715 -2.881798 -31.531178 -83.089073
2312781250 -31.96982 -87.423256 -0.03457256 -2.9511154 -0.04808142 -2.906981 -31.449659 -83.2295
2333715625 -31.901478 -87.24102 -0.035566177 -2.9860792 -0.049276993 -2.9347873 -31.400475 -83.379402
2354650000 -31.789213 -87.210594 -0.037740845 -3.006218 -0.049040623 -2.9600611 -31.326092 -83.644394
2375584375 -31.707111 -87.356361 -0.037906159 -3.025094 -0.049762182 -2.9840431 -31.276178 -83.82708
2396518750 -31.642344 -87.642998 -0.037463754 -3.0474751 -0.050838295 -3.0034621 -31.198032 -83.636086
2417453125 -31.576529 -87.706017 -0.037559345 -3.0701916 -0.050431237 -3.0294163 -31.126837 -83.855965
2438387500 -31.515978 -88.00296 -0.036325447 -3.096384 -0.050942753 -3.0549259 -31.093723 -83.834366
2459321875 -31.46891 -88.007027 -0.035842624 -3.1250973 -0.050372578 -3.0756969 -31.012129 -83.836479
2480256250 -31.394918 -88.403618 -0.034624543 -3.1471441 -0.050018691 -3.1026981 -30.921959 -84.033775
2501190625 -31.346273 -88.087021 -0.035839889 -3.1814694 -0.050706774 -3.127198 -30.846329 -84.193375
2522125000 -31.223494 -88.04451 -0.037118778 -3.1937382 -0.05110389 -3.1553185 -30.791245 -84.224159
2543059375 -31.174311 -88.2323 -0.036181465 -3.2164354 -0.050380498 -3.1757848 -30.744282 -84.132896
2563993750 -31.144531 -88.306236 -0.035103008 -3.2468054 -0.050947532 -3.2012782 -30.660187 -84.052238
2584928125 -31.098545 -88.317978 -0.035001773 -3.2717397 -0.05138199 -3.2257338 -30.613762 -84.182831
2605862500 -31.032606 -88.060555 -0.03567997 -3.2998877 -0.050957836 -3.2509809 -30.540977 -84.270027
2626796875 -30.964302 -88.13591 -0.035368204 -3.3293476 -0.049708653 -3.279927 -30.463097 -84.645432
2647731250 -30.891058 -87.994514 -0.036875617 -3.3589993 -0.050952502 -3.3079805 -30.3979 -84.766624
2668665625 -30.778061 -87.908417 -0.038211837 -3.376142 -0.05115778 -3.3330374 -30.356319 -84.831505
2689600000 -30.704483 -87.980888 -0.037802696 -3.392611 -0.053085342 -3.3533857 -30.28928 -84.330452
2710534375 -30.677752 -87.753387 -0.038554691 -3.4268355 -0.051763259 -3.3784852 -30.208941 -84.713341
2731468750 -30.587402 -86.079308 -0.045957241 -3.467458 -0.052555073 -3.4080534 -30.151278 -84.878822
2752403125 -30.381506 -84.152687 -0.056253701 -3.4862051 -0.052719783 -3.4338686 -30.097687 -85.150543
2773337500 -30.314211 -84.722862 -0.054485731 -3.5076683 -0.052613579 -3.4581923 -30.038136 -85.180542
2794271875 -30.243879 -84.670906 -0.055190124 -3.5345025 -0.052148618 -3.4852028 -29.957989 -85.240692
2815206250 -30.188093 -85.021194 -0.053525764 -3.5608606 -0.053340316 -3.5143235 -29.901489 -85.407593
2836140625 -30.13035 -85.231171 -0.053681888 -3.5828061 -0.054160874 -3.5333772 -29.857817 -85.37072
2857075000 -30.090191 -85.721802 -0.051100783 -3.6094706 -0.053205039 -3.5582881 -29.789551 -85.490944
2878009375 -30.016796 -85.482361 -0.052889768 -3.6396854 -0.054352898 -3.5849209 -29.726257 -85.468246
2898943750 -29.867144 -84.223526 -0.060234625 -3.6559315 -0.054405365 -3.6140683 -29.640305 -85.588997
2919878125 -29.63604 -80.791306 -0.079316594 -3.6787527 -0.05430441 -3.6410842 -29.589165 -85.89296
2940812500 -29.382034 -76.973778 -0.10062653 -3.7072313 -0.054692172 -3.6631079 -29.543526 -85.825729
2961746875 -29.168301 -75.181595 -0.11166238 -3.7267442 -0.054715723 -3.6885104 -29.480112 -85.875313
2982681250 -29.196457 -75.827972 -0.10841509 -3.7591753 -0.054677732 -3.7093801 -29.420708 -85.949898
3003615625 -29.112343 -76.144539 -0.10777954 -3.7742178 -0.054458201 -3.7404046 -29.345161 -86.122726
3024550000 -29.150028 -76.296646 -0.10581738 -3.8190947 -0.055706635 -3.7682219 -29.299269 -86.225853
3045484375 -29.072025 -76.013657 -0.10699125 -3.8421347 -0.055190388 -3.7874005 -29.246572 -86.225494
3066418750 -28.920675 -76.803848 -0.10514142 -3.8450089 -0.055730615 -3.8175354 -29.171827 -86.165558
3087353125 -28.89551 -77.306931 -0.1030985 -3.8761234 -0.056103349 -3.843992 -29.127522 -86.315849
3108287500 -28.913748 -76.633156 -0.10729524 -3.9259138 -0.055580322 -3.8662055 -29.079121 -86.561607
3129221875 -28.905916 -76.489281 -0.10678772 -3.9599035 -0.057259001 -3.8921649 -29.029493 -86.483894
3150156250 -28.704721 -76.383675 -0.1094471 -3.9603012 -0.056840539 -3.9179642 -28.955667 -86.517342
3171090625 -28.589476 -77.352119 -0.10620131 -3.9674158 -0.057008661 -3.9456944 -28.892347 -86.678673
3192025000 -28.63485 -77.888794 -0.10358328 -4.0114865 -0.057104416 -3.9720192 -28.846012 -86.683525
3212959375 -28.619995 -77.464561 -0.10545641 -4.0496011 -0.057291377 -3.9928138 -28.797453 -86.758629
3233893750 -28.529274 -77.722771 -0.10582268 -4.0679569 -0.056710307 -4.0237126 -28.733377 -86.968491
3254828125 -28.483118 -77.609383 -0.10717642 -4.0957203 -0.058858719 -4.0512505 -28.691559 -87.023628
3275762500 -28.309937 -77.510056 -0.1088492 -4.1013336 -0.058579609 -4.0687394 -28.64793 -87.121544
3296696875 -28.308575 -78.513443 -0.10416404 -4.1308236 -0.057643745 -4.0966053 -28.561914 -87.205452
3317631250 -28.275539 -78.332779 -0.10526884 -4.1639032 -0.057482518 -4.1209583 -28.500969 -87.274887
3338565625 -28.229839 -78.587723 -0.10525822 -4.191103 -0.057570841 -4.1542144 -28.42758 -87.292442
3359500000 -28.156326 -78.402115 -0.10692948 -4.2186217 -0.059010684 -4.1817346 -28.396999 -87.551308
3380434375 -28.021786 -78.847565 -0.10609293 -4.2268763 -0.060387578 -4.2007308 -28.361582 -87.336243
3401368750 -28.057131 -79.60463 -0.1026004 -4.2655807 -0.059652582 -4.2299743 -28.290779 -87.69735
3422303125 -28.045824 -78.508514 -0.10934594 -4.3103685 -0.060628504 -4.2523446 -28.244173 -87.776688
3443237500 -27.890953 -78.02533 -0.11380035 -4.3196087 -0.060920086 -4.2758074 -28.164579 -87.463669
3464171875 -27.788074 -78.927681 -0.11070133 -4.3273296 -0.059880987 -4.3081369 -28.098232 -87.835388
3485106250 -27.806522 -79.588898 -0.10762234 -4.3592072 -0.061505102 -4.3382316 -28.070427 -87.913902
3506040625 -27.840744 -79.8675 -0.10554703 -4.4014907 -0.063371956 -4.3603759 -28.03701 -88.052681
3526975000 -27.795691 -78.651802 -0.11318307 -4.4413939 -0.062578507 -4.3749695 -28.00905 -88.169197
3547909375 -27.648893 -78.970879 -0.11371674 -4.4453964 -0.061786003 -4.4028091 -27.931902 -88.134361
3568843750 -27.664421 -79.143967 -0.11277238 -4.4839306 -0.063439444 -4.4353838 -27.85232 -88.307518
3589778125 -27.538731 -78.681641 -0.11746114 -4.4968867 -0.064240247 -4.4571795 -27.828335 -88.465691
3610712500 -27.323435 -78.221161 -0.12449051 -4.4956245 -0.063481465 -4.4792361 -27.776348 -88.332054
3631646875 -27.435068 -78.064377 -0.12482931 -4.5585637 -0.067236401 -4.5100884 -27.731939 -87.96627
3652581250 -27.421686 -77.739151 -0.12639329 -4.5940847 -0.066830926 -4.5267658 -27.722172 -88.406128
3673515625 -27.328714 -77.311264 -0.12929654 -4.6161423 -0.065879069 -4.5466418 -27.687212 -88.300629
3694450000 -27.121666 -77.918686 -0.12923664 -4.6022372 -0.066215634 -4.5763192 -27.601025 -88.266129
3715384375 -27.136528 -79.43129 -0.12108262 -4.6235304 -0.064812452 -4.6037655 -27.527267 -88.467239
3736318750 -27.211084 -79.409767 -0.12042111 -4.6773448 -0.066374898 -4.6377869 -27.461493 -88.582695
3757253125 -27.114059 -79.258537 -0.12246016 -4.693419 -0.069175623 -4.6553745 -27.464464 -88.482536
3778187500 -27.092052 -80.005875 -0.11845981 -4.7163754 -0.067027368 -4.6705084 -27.412201 -88.435005
3799121875 -27.080608 -79.436592 -0.12221022 -4.7553372 -0.066949099 -4.7004008 -27.360245 -88.700256
3820056250 -26.899374 -79.975082 -0.12145977 -4.7463651 -0.067258671 -4.7212558 -27.310453 -88.619186
3840990625 -26.98716 -80.610603 -0.11833068 -4.7940593 -0.066855565 -4.7557921 -27.227705 -88.831635
3861925000 -26.933165 -80.051819 -0.12226439 -4.8235412 -0.068590187 -4.7779508 -27.192059 -89.121567
3882859375 -26.837059 -80.591545 -0.12001605 -4.8315835 -0.067591421 -4.7934394 -27.15097 -88.927689
3903793750 -26.792107 -80.152588 -0.12453441 -4.8634853 -0.066921853 -4.8247137 -27.096066 -88.958023
3924728125 -26.753704 -79.734932 -0.1278377 -4.895031 -0.068343289 -4.8523965 -27.054266 -88.919067
3945662500 -26.786255 -79.30394 -0.12999484 -4.945261 -0.068824045 -4.8774409 -27.008646 -89.025139
3966596875 -26.635477 -79.229652 -0.13208297 -4.9464617 -0.068631805 -4.8996992 -26.965075 -89.242867
3987531250 -26.583281 -80.582558 -0.12555723 -4.9538484 -0.068719022 -4.9216332 -26.909883 -89.176689
