!Keysight Technologies,N5227A,US51270248,A.10.65.08
!Date: Tuesday, June 11, 2024 06:19:39
!Correction: S11(Full 2 Port(1,4)) 
!S41(Full 2 Port(1,4)) 
!S14(Full 2 Port(1,4)) 
!S44(Full 2 Port(1,4)) 
!S2P File: Measurements: S11, S41, S14, S44:
# Hz S  dB   R 50
10000000 -0.10062958 179.89915 -47.307537 0.25347126 -47.179657 -1.2251205 0.052448764 179.95247
30934375 -0.10652164 179.98218 -47.320984 0.023259915 -47.257881 0.01910164 0.031962283 -179.96927
51868750 -0.10515686 179.99779 -47.307194 0.038346142 -47.288586 -0.072709307 0.019922726 -179.94456
72803125 -0.10382295 179.98305 -47.317432 0.17159314 -47.342995 0.17743807 0.014653091 -179.93433
93737500 -0.10286643 179.96902 -47.379776 0.24221791 -47.351269 0.30016184 0.007347072 -179.92809
114671875 -0.10252558 179.95526 -47.399864 0.7374205 -47.394478 0.60670727 0.0086062336 -179.92192
135606250 -0.1026429 179.95502 -47.423416 0.97588956 -47.41983 0.9289341 0.0086864876 -179.9099
156540625 -0.10261337 179.95787 -47.447891 1.3820894 -47.445469 1.2808093 0.010133644 -179.90106
177475000 -0.10183482 179.94853 -47.447594 1.7910618 -47.439411 1.602844 0.011905774 -179.90247
198409375 -0.10225753 179.92897 -47.460258 1.885795 -47.474487 1.9339685 0.011889087 -179.91144
219343750 -0.10323566 179.9164 -47.457367 2.4087899 -47.479359 2.3781123 -0.0015524683 -179.9194
240278125 -0.10252859 179.91032 -47.469395 2.4685376 -47.497753 2.7019999 -0.016928345 -179.92612
261212500 -0.10122434 179.90633 -47.481609 2.9692705 -47.532818 2.950604 -0.017916748 -179.92972
282146875 -0.10078154 179.8994 -47.494381 3.2177513 -47.540253 3.451807 -0.015596005 -179.93558
303081250 -0.10094866 179.89197 -47.519363 3.5107367 -47.526909 3.5366266 -0.01639403 -179.9406
324015625 -0.10174032 179.88551 -47.50071 4.0710335 -47.544342 4.0787101 -0.016588338 -179.95399
344950000 -0.10216677 179.87105 -47.501781 4.4193797 -47.533718 4.4039664 -0.01861671 -179.9691
365884375 -0.1025304 179.8595 -47.495316 4.5732689 -47.551216 4.6738358 -0.018116873 -179.98174
386818750 -0.10180204 179.85616 -47.50489 4.9545527 -47.52771 4.923737 -0.016683299 -179.98866
407753125 -0.10051756 179.85434 -47.509693 5.2653174 -47.543201 5.1170506 -0.015718179 -179.99651
428687500 -0.099821262 179.84576 -47.502476 5.5864573 -47.54726 5.6276937 -0.017482236 179.9917
449621875 -0.10035229 179.83456 -47.512337 5.8707452 -47.554951 5.8682723 -0.018841125 179.98123
470556250 -0.10176869 179.82547 -47.507629 6.2530904 -47.549236 6.2561378 -0.021072377 179.96558
491490625 -0.101997 179.8143 -47.511211 6.6313472 -47.555695 6.5824838 -0.02121878 179.94791
512425000 -0.10192005 179.80403 -47.525177 6.8274255 -47.539978 6.8851867 -0.02182119 179.93365
533359375 -0.10227074 179.79367 -47.541767 7.1082783 -47.5574 7.2511144 -0.022176947 179.92383
554293750 -0.10188235 179.78946 -47.511436 7.6200495 -47.550873 7.5831699 -0.019985788 179.91399
575228125 -0.10186118 179.78535 -47.491394 7.7929606 -47.559486 7.9722061 -0.021541839 179.90616
596162500 -0.10223623 179.77539 -47.518005 8.1379986 -47.547379 8.1779499 -0.021700503 179.89381
617096875 -0.10281354 179.76424 -47.531384 8.5464458 -47.567463 8.5823231 -0.020911777 179.87875
638031250 -0.10338653 179.75571 -47.517925 8.8257561 -47.562397 9.06954 -0.022013042 179.86195
658965625 -0.10388444 179.74878 -47.537708 9.1389103 -47.550209 9.2942743 -0.022225585 179.84904
679900000 -0.10385466 179.74113 -47.520428 9.3624172 -47.538868 9.5394897 -0.021711139 179.84247
700834375 -0.10413378 179.73563 -47.51992 9.8811951 -47.580627 9.8870811 -0.020203231 179.8345
721768750 -0.10326781 179.72913 -47.505692 10.264765 -47.556076 10.369272 -0.020716958 179.82748
742703125 -0.10321518 179.72087 -47.506229 10.45937 -47.547646 10.529903 -0.020346543 179.81456
763637500 -0.10324742 179.71217 -47.512371 10.738266 -47.555088 10.871605 -0.021070136 179.80161
784571875 -0.10391629 179.70444 -47.529907 11.197336 -47.547829 11.140126 -0.021937169 179.78874
805506250 -0.10350021 179.69707 -47.508747 11.58818 -47.567478 11.593739 -0.021459246 179.77365
826440625 -0.10376754 179.69012 -47.497776 11.771262 -47.542091 11.919115 -0.02115839 179.76375
847375000 -0.10354265 179.68364 -47.511791 12.125472 -47.527481 12.374265 -0.02106983 179.75587
868309375 -0.10257065 179.67543 -47.507923 12.645286 -47.528866 12.49914 -0.019908026 179.74582
889243750 -0.10236625 179.66454 -47.499481 12.878218 -47.540287 12.959496 -0.020188743 179.73373
910178125 -0.10351359 179.65637 -47.504955 13.09976 -47.510078 13.444083 -0.020656792 179.72285
931112500 -0.10396981 179.65164 -47.482159 13.554649 -47.511257 13.528767 -0.021057945 179.71173
952046875 -0.10426214 179.64316 -47.480671 13.739256 -47.535374 13.930766 -0.020902943 179.69864
972981250 -0.10400132 179.63235 -47.468967 14.316342 -47.511131 14.477673 -0.02127317 179.6899
993915625 -0.10451805 179.62286 -47.461174 14.614717 -47.495518 14.661407 -0.020779956 179.68404
1014850000 -0.10421154 179.62079 -47.491051 15.002274 -47.495567 15.07591 -0.020561177 179.67574
1035784375 -0.10406905 179.61359 -47.45118 15.37618 -47.488369 15.373237 -0.020013675 179.66913
1056718750 -0.10443359 179.60632 -47.428921 15.659952 -47.482113 15.789515 -0.020637801 179.66017
1077653125 -0.10609776 179.59718 -47.439941 15.881978 -47.465843 16.0578 -0.021739725 179.65004
1098587500 -0.10682788 179.59233 -47.445816 16.322464 -47.466263 16.420321 -0.021908104 179.63869
1119521875 -0.10694562 179.58255 -47.444645 16.672323 -47.47028 16.701832 -0.021836694 179.62715
1140456250 -0.10634196 179.57188 -47.408371 17.119112 -47.45977 17.020922 -0.021094944 179.62236
1161390625 -0.10663809 179.56592 -47.391872 17.337891 -47.417328 17.560499 -0.020273762 179.61397
1182325000 -0.10639998 179.56215 -47.386353 17.657587 -47.407883 17.724268 -0.020337639 179.60596
1203259375 -0.10661185 179.55641 -47.401405 17.883982 -47.413258 18.003531 -0.021347595 179.59471
1224193750 -0.10782326 179.54762 -47.383652 18.377525 -47.406216 18.499008 -0.021901971 179.58377
1245128125 -0.10870446 179.53893 -47.359562 18.716799 -47.392925 18.838902 -0.022502748 179.57188
1266062500 -0.10771492 179.53099 -47.361404 18.997208 -47.399033 19.167881 -0.022672104 179.55759
1286996875 -0.10676301 179.52177 -47.375275 19.390785 -47.377983 19.51174 -0.021832475 179.55247
1307931250 -0.10630544 179.51642 -47.326103 19.738415 -47.361179 19.814146 -0.021262307 179.54788
1328865625 -0.10608224 179.51198 -47.336349 20.078093 -47.34552 20.173752 -0.021185257 179.54208
1349800000 -0.10697842 179.50868 -47.298977 20.40519 -47.335239 20.409679 -0.021898488 179.53409
1370734375 -0.10715441 179.49861 -47.308235 20.6924 -47.345417 20.871565 -0.022271266 179.52252
1391668750 -0.107679 179.4872 -47.291447 21.069221 -47.323582 21.281918 -0.021600526 179.50905
1412603125 -0.10764191 179.47543 -47.273613 21.434408 -47.292843 21.459106 -0.020836245 179.49776
1433537500 -0.10708457 179.47083 -47.273613 21.849701 -47.297131 21.903681 -0.020782312 179.4912
1454471875 -0.10710476 179.46617 -47.228451 22.291512 -47.258846 22.316624 -0.021098182 179.48759
1475406250 -0.10783248 179.46407 -47.214588 22.507856 -47.261425 22.526224 -0.020871278 179.48256
1496340625 -0.10905945 179.45908 -47.215153 22.832563 -47.251404 22.89115 -0.023120264 179.47127
1517275000 -0.10970405 179.44907 -47.18433 23.269701 -47.224049 23.21006 -0.023446519 179.45752
1538209375 -0.10988537 179.43655 -47.181873 23.486229 -47.22168 23.618185 -0.023463987 179.44487
1559143750 -0.1100476 179.42694 -47.152721 23.991423 -47.187428 23.925814 -0.023570012 179.43341
1580078125 -0.10969491 179.42223 -47.122711 24.281992 -47.190033 24.241537 -0.023645416 179.42696
1601012500 -0.11024778 179.41963 -47.114937 24.423925 -47.156551 24.633993 -0.023535226 179.42006
1621946875 -0.11019818 179.41434 -47.088848 24.749537 -47.144222 24.866409 -0.023813374 179.41527
1642881250 -0.11073852 179.40575 -47.10173 25.010719 -47.138653 25.291718 -0.024256334 179.40237
1663815625 -0.11083738 179.39371 -47.081352 25.558575 -47.125599 25.630821 -0.024909278 179.38797
1684750000 -0.11116138 179.38361 -47.069847 25.816444 -47.127632 25.982849 -0.024928756 179.37575
1705684375 -0.11089775 179.37857 -47.048416 26.340645 -47.098862 26.39448 -0.02512404 179.36703
1726618750 -0.11041909 179.37483 -47.013821 26.591572 -47.061802 26.784096 -0.024875131 179.36137
1747553125 -0.11040053 179.37216 -47.027302 26.826015 -47.04525 27.162895 -0.024982873 179.35541
1768487500 -0.11045033 179.36307 -46.995621 27.187231 -47.034935 27.383953 -0.025910314 179.34634
1789421875 -0.11052985 179.354 -46.968353 27.6611 -47.010639 27.866224 -0.025368163 179.33267
1810356250 -0.11117391 179.34341 -46.959129 28.062489 -46.996021 28.329983 -0.025495334 179.31895
1831290625 -0.11094552 179.33545 -46.920547 28.336376 -46.969376 28.738199 -0.026093526 179.30835
1852225000 -0.11089399 179.3318 -46.91618 28.626551 -46.927303 28.960726 -0.026089022 179.30194
1873159375 -0.11115765 179.32996 -46.888187 29.213829 -46.910328 29.274216 -0.026131455 179.29265
1894093750 -0.11083241 179.32666 -46.832493 29.517021 -46.871033 29.657911 -0.026358757 179.28485
1915028125 -0.11136319 179.31908 -46.829338 29.863941 -46.872402 29.937294 -0.026040727 179.27519
1935962500 -0.11137047 179.30864 -46.801117 30.183962 -46.864559 30.420099 -0.025785509 179.26271
1956896875 -0.11189042 179.29993 -46.790192 30.630339 -46.782841 30.869755 -0.026456943 179.25082
1977831250 -0.11268298 179.29628 -46.773094 31.058964 -46.754471 31.233274 -0.026857302 179.24089
1998765625 -0.1132319 179.29388 -46.689114 31.338062 -46.707916 31.405886 -0.027425127 179.23297
2019700000 -0.11339095 179.28696 -46.652748 31.578196 -46.697906 31.743851 -0.026853461 179.22391
2040634375 -0.11330727 179.28128 -46.630238 31.937819 -46.661743 32.096142 -0.027585872 179.21365
2061568750 -0.11325666 179.27237 -46.595024 32.282898 -46.599232 32.493862 -0.027835684 179.20247
2082503125 -0.11375532 179.2628 -46.558456 32.62154 -46.585999 32.636707 -0.027932858 179.1915
2103437500 -0.11381289 179.25551 -46.518402 32.798836 -46.539944 33.000011 -0.028659623 179.18066
2124371875 -0.11401122 179.25259 -46.474846 33.125584 -46.516361 33.087189 -0.029105611 179.16864
2145306250 -0.11363918 179.24832 -46.430035 33.396461 -46.472992 33.539162 -0.029427739 179.15739
2166240625 -0.11305181 179.23843 -46.396923 33.526669 -46.436516 33.701244 -0.029455803 179.14651
2187175000 -0.11308177 179.22838 -46.372608 33.869995 -46.407879 33.882027 -0.029682335 179.13216
2208109375 -0.11288705 179.22217 -46.331696 33.947525 -46.376438 34.107376 -0.030107543 179.12256
2229043750 -0.11251618 179.21506 -46.321907 34.167221 -46.362068 34.521439 -0.030182835 179.11607
2249978125 -0.11297415 179.2083 -46.287777 34.542557 -46.323952 34.708466 -0.030556895 179.10391
2270912500 -0.11333682 179.20465 -46.260162 34.724274 -46.296391 34.860634 -0.031263057 179.09042
2291846875 -0.11314182 179.19925 -46.234707 35.035229 -46.256092 35.079189 -0.032024827 179.07753
2312781250 -0.11282934 179.19241 -46.191891 35.16087 -46.249981 35.46172 -0.032094367 179.06523
2333715625 -0.11257551 179.18266 -46.181625 35.409687 -46.209042 35.690636 -0.031670202 179.056
2354650000 -0.11257485 179.17657 -46.160595 35.818619 -46.175495 35.963219 -0.031976193 179.04745
2375584375 -0.11324776 179.17245 -46.09837 36.085823 -46.136715 36.347622 -0.032206014 179.04175
2396518750 -0.11380116 179.16884 -46.080147 36.286835 -46.085667 36.455135 -0.032099672 179.03183
2417453125 -0.11455278 179.1633 -46.034832 36.49004 -46.095966 36.60463 -0.032966889 179.01825
2438387500 -0.11493666 179.15616 -45.99403 36.756607 -46.038994 36.955196 -0.033669133 179.00316
2459321875 -0.11547321 179.146 -45.992359 36.881283 -46.010612 37.014275 -0.033961967 178.99323
2480256250 -0.11491003 179.13899 -45.937443 37.100224 -45.982758 37.227245 -0.033857536 178.98451
2501190625 -0.11526281 179.13585 -45.925236 37.294918 -45.95919 37.503502 -0.034722153 178.97838
2522125000 -0.11568412 179.13126 -45.890247 37.674179 -45.926487 37.752861 -0.035195101 178.97389
2543059375 -0.11623459 179.12581 -45.849659 37.887043 -45.870358 38.027359 -0.035460785 178.95833
2563993750 -0.11714378 179.11757 -45.829906 37.881618 -45.867317 38.037167 -0.036448449 178.94177
2584928125 -0.11663218 179.10843 -45.815586 38.146442 -45.836121 38.433182 -0.036793977 178.92783
2605862500 -0.11639873 179.09874 -45.788677 38.45232 -45.787582 38.479301 -0.03735736 178.91751
2626796875 -0.11579626 179.09344 -45.761696 38.533642 -45.79364 38.767895 -0.036931679 178.91087
2647731250 -0.116086 179.08824 -45.728569 38.877823 -45.76643 39.028759 -0.038122006 178.90312
2668665625 -0.11624156 179.08574 -45.699162 39.306656 -45.728531 39.357933 -0.03830443 178.89291
2689600000 -0.11627739 179.0778 -45.653057 39.213894 -45.683521 39.443943 -0.038655855 178.88206
2710534375 -0.11593739 179.06883 -45.597115 39.48962 -45.682163 39.550831 -0.038868979 178.86771
2731468750 -0.11543126 179.06255 -45.617256 39.409779 -45.651367 39.888573 -0.039220572 178.85629
2752403125 -0.11496353 179.05551 -45.601486 40.045788 -45.613773 40.15976 -0.039709255 178.85054
2773337500 -0.11463468 179.04948 -45.561306 40.089684 -45.558842 40.379669 -0.039896656 178.84579
2794271875 -0.11539694 179.04549 -45.519508 40.409649 -45.563423 40.522598 -0.040103152 178.84053
2815206250 -0.1160408 179.04362 -45.481583 40.515022 -45.553272 40.82016 -0.040368289 178.83202
2836140625 -0.11537786 179.03571 -45.486713 40.792309 -45.484756 40.999229 -0.040213469 178.82071
2857075000 -0.11612581 179.02412 -45.447102 40.911835 -45.447834 41.167885 -0.040284779 178.80629
2878009375 -0.11663222 179.01704 -45.439346 41.146069 -45.421593 41.399216 -0.04135365 178.79898
2898943750 -0.11662609 179.0153 -45.422852 41.504101 -45.424477 41.536671 -0.042509742 178.79813
2919878125 -0.11706099 179.01021 -45.375526 41.757156 -45.401913 41.831535 -0.04291372 178.79475
2940812500 -0.11783779 179.00044 -45.310604 41.841835 -45.355881 42.099747 -0.04290057 178.7856
2961746875 -0.11843898 178.99518 -45.30497 42.076706 -45.332455 42.256107 -0.042680193 178.77504
2982681250 -0.11829188 178.98706 -45.273403 42.330025 -45.287209 42.346066 -0.04342008 178.76302
3003615625 -0.11770959 178.97607 -45.254292 42.516216 -45.283817 42.568913 -0.043329254 178.75438
3024550000 -0.11755063 178.96877 -45.190479 42.854862 -45.237877 42.898685 -0.044399485 178.74782
3045484375 -0.11802685 178.96442 -45.160023 42.885292 -45.183655 43.059574 -0.044948302 178.74333
3066418750 -0.11832723 178.96275 -45.153976 43.091476 -45.189308 43.226254 -0.04621879 178.73842
3087353125 -0.11843445 178.95442 -45.125637 43.332199 -45.141186 43.615067 -0.04487789 178.7296
3108287500 -0.11869995 178.94174 -45.070549 43.711456 -45.116329 43.797813 -0.044460915 178.71925
3129221875 -0.11797191 178.9313 -45.022858 43.780674 -45.07653 43.897427 -0.043966468 178.71037
3150156250 -0.11759593 178.92772 -45.018913 43.750877 -45.061386 44.186623 -0.043825712 178.7056
3171090625 -0.11779344 178.92316 -45.006992 43.975605 -45.031349 44.399536 -0.045005791 178.70152
3192025000 -0.11816788 178.92177 -44.964939 44.334656 -44.994587 44.575146 -0.046178333 178.69749
3212959375 -0.11853231 178.91685 -44.911438 44.63776 -44.944332 44.734592 -0.046172343 178.69168
3233893750 -0.11829025 178.9039 -44.874088 44.668858 -44.929203 44.882038 -0.045026165 178.68228
3254828125 -0.11833004 178.89252 -44.835823 44.891506 -44.889862 45.26334 -0.043897174 178.67203
3275762500 -0.11910328 178.88377 -44.840755 44.884762 -44.847286 45.317265 -0.043900121 178.66696
3296696875 -0.1189899 178.88235 -44.812843 45.22847 -44.817631 45.412041 -0.044500407 178.66464
3317631250 -0.11966832 178.88242 -44.78524 45.440636 -44.781239 45.615204 -0.045393754 178.66496
3338565625 -0.12068515 178.87793 -44.744621 45.698601 -44.787014 45.703171 -0.046436604 178.6591
3359500000 -0.12099052 178.86905 -44.694695 45.701191 -44.747822 46.098892 -0.046140853 178.64973
3380434375 -0.12089728 178.85396 -44.695225 45.849838 -44.701115 46.187057 -0.044990622 178.63835
3401368750 -0.12102402 178.84523 -44.658329 46.299931 -44.672722 46.383949 -0.044235736 178.6353
3422303125 -0.12079824 178.84146 -44.59277 46.390373 -44.614964 46.59235 -0.043795004 178.63589
3443237500 -0.12123118 178.84172 -44.555294 46.279625 -44.593803 46.538578 -0.0443395 178.63477
3464171875 -0.12131948 178.83679 -44.57494 46.581623 -44.591404 46.792351 -0.045783222 178.62849
3485106250 -0.1216316 178.82513 -44.539906 46.845646 -44.564945 47.135521 -0.046514548 178.61972
3506040625 -0.12200712 178.81305 -44.486801 47.18544 -44.528214 47.416363 -0.046649415 178.60895
3526975000 -0.12193446 178.80118 -44.426582 47.23634 -44.451172 47.473839 -0.044818755 178.60324
3547909375 -0.12108847 178.79572 -44.408726 47.171291 -44.449635 47.33609 -0.043237969 178.59888
3568843750 -0.1204692 178.79352 -44.363525 47.516342 -44.442966 47.703693 -0.042769223 178.60005
3589778125 -0.12055646 178.79388 -44.34243 47.369202 -44.38525 47.968723 -0.043855455 178.59837
3610712500 -0.12153552 178.78447 -44.36142 47.732132 -44.342247 47.949436 -0.044595696 178.59334
3631646875 -0.12133579 178.77045 -44.280327 47.997177 -44.352684 48.127113 -0.045086887 178.58104
3652581250 -0.12155164 178.75601 -44.243286 48.028919 -44.28162 48.507629 -0.044401329 178.56876
3673515625 -0.12159227 178.74559 -44.187943 48.015213 -44.222191 48.481434 -0.043260008 178.56537
3694450000 -0.12134021 178.74669 -44.210938 48.029091 -44.2146 48.511223 -0.041901443 178.56927
3715384375 -0.12082122 178.74727 -44.201073 48.36282 -44.18668 48.607998 -0.042060472 178.56798
3736318750 -0.12125845 178.74374 -44.129868 48.628372 -44.206482 48.880836 -0.042765055 178.5648
3757253125 -0.12252515 178.73225 -44.108482 48.49416 -44.120121 49.209671 -0.043603111 178.55487
3778187500 -0.12331664 178.72041 -44.075787 48.827652 -44.067692 49.04863 -0.043822113 178.54482
3799121875 -0.12400918 178.71304 -44.033184 48.884281 -44.075462 49.24057 -0.042813569 178.53702
3820056250 -0.12341058 178.70604 -44.056652 48.928844 -44.02248 49.285786 -0.041784685 178.53931
3840990625 -0.12342901 178.70497 -44.004364 49.384529 -44.050255 49.269382 -0.041396078 178.54202
3861925000 -0.12365268 178.7048 -43.982368 49.285477 -44.000389 49.796425 -0.040338963 178.53978
3882859375 -0.12433182 178.69684 -43.973038 49.455765 -43.928013 49.725292 -0.041944463 178.5334
3903793750 -0.12476961 178.68703 -43.931473 49.676697 -43.940506 49.72625 -0.042862937 178.5191
3924728125 -0.12547183 178.67387 -43.89378 49.828495 -43.91917 49.924503 -0.043186639 178.51155
3945662500 -0.12532485 178.66646 -43.858425 50.014042 -43.89101 50.12701 -0.043198094 178.50665
3966596875 -0.12457258 178.66304 -43.833755 49.958099 -43.852375 50.379368 -0.040982019 178.50833
3987531250 -0.12443922 178.66025 -43.839088 50.198021 -43.819866 50.484962 -0.040404011 178.50783
4008465625 -0.12478231 178.65567 -43.78009 50.603935 -43.81089 50.44046 -0.040913537 178.50259
4029400000 -0.12498433 178.64735 -43.736046 50.4949 -43.774746 50.784431 -0.041639913 178.49408
4050334375 -0.12530454 178.63487 -43.723923 50.598034 -43.748333 50.889336 -0.042422641 178.48328
4071268750 -0.12475784 178.62392 -43.690643 50.763607 -43.731316 51.04644 -0.043249007 178.47523
4092203125 -0.12502593 178.61418 -43.675373 50.915386 -43.696621 51.358067 -0.043261617 178.47217
4113137500 -0.1250511 178.60974 -43.616493 51.160107 -43.622456 51.38213 -0.041719086 178.47012
4134071875 -0.12530325 178.61029 -43.583164 51.092182 -43.625736 51.446655 -0.041705824 178.46365
4155006250 -0.12552515 178.60493 -43.555775 51.228687 -43.577347 51.535542 -0.041702878 178.45985
4175940625 -0.12608205 178.593 -43.537529 51.134899 -43.585548 51.474884 -0.042323351 178.45161
4196875000 -0.12705855 178.58363 -43.566162 51.448856 -43.560547 51.95089 -0.042939276 178.4409
