!Keysight Technologies,N5227A,US51270248,A.10.65.08
!Date: Tuesday, June 11, 2024 06:53:10
!Correction: S11(Full 2 Port(1,4)) 
!S41(Full 2 Port(1,4)) 
!S14(Full 2 Port(1,4)) 
!S44(Full 2 Port(1,4)) 
!S2P File: Measurements: S11, S41, S14, S44:
# Hz S  dB   R 50
10000000 -2.0746827 -0.25242096 -13.443431 0.76388562 -13.459404 0.7999019 -2.0740469 -0.21984597
30934375 -2.0755241 -0.74951285 -13.421998 2.3117177 -13.433109 2.3244884 -2.0765889 -0.70596987
51868750 -2.0774143 -1.2094861 -13.406043 3.8540576 -13.403214 3.8569055 -2.0801566 -1.1552722
72803125 -2.0795708 -1.675652 -13.36846 5.3590975 -13.362908 5.3332796 -2.0828116 -1.6200858
93737500 -2.0833888 -2.1305702 -13.323099 6.8418612 -13.314609 6.8092346 -2.088232 -2.0776927
114671875 -2.0881965 -2.5920949 -13.266578 8.2956238 -13.25718 8.2471304 -2.0948992 -2.5333986
135606250 -2.0928707 -3.0637519 -13.202626 9.7123737 -13.192566 9.6540842 -2.1011016 -2.9908297
156540625 -2.0984504 -3.5366683 -13.130116 11.084142 -13.120112 11.018498 -2.1059921 -3.4501903
177475000 -2.1038392 -3.9944382 -13.050808 12.426305 -13.041602 12.355831 -2.1108396 -3.9041011
198409375 -2.1099904 -4.4408622 -12.963146 13.739712 -12.953054 13.659221 -2.1170139 -4.3433738
219343750 -2.1157334 -4.8912787 -12.8677 14.995148 -12.853049 14.911196 -2.1243844 -4.792058
240278125 -2.1241448 -5.3521113 -12.768494 16.206795 -12.746544 16.111406 -2.1355026 -5.2427096
261212500 -2.1338949 -5.8121519 -12.662977 17.356075 -12.643691 17.274616 -2.1459634 -5.6934319
282146875 -2.1433904 -6.2651448 -12.55361 18.492006 -12.534141 18.398172 -2.1545689 -6.1483331
303081250 -2.1512923 -6.7172742 -12.439743 19.568758 -12.419278 19.470669 -2.1635256 -6.5956607
324015625 -2.1607842 -7.1630054 -12.321303 20.603107 -12.30323 20.503599 -2.1729331 -7.0337958
344950000 -2.1710231 -7.6027288 -12.201163 21.599722 -12.18114 21.489941 -2.1825619 -7.4651055
365884375 -2.1816456 -8.041646 -12.07647 22.54208 -12.057817 22.438097 -2.1933572 -7.8978829
386818750 -2.1941319 -8.4945564 -11.949816 23.441061 -11.932409 23.332291 -2.2051392 -8.3433018
407753125 -2.2065175 -8.9441757 -11.823502 24.292789 -11.804887 24.188393 -2.217267 -8.7842064
428687500 -2.2196505 -9.3798552 -11.694607 25.116882 -11.674488 25.004421 -2.2291992 -9.2208328
449621875 -2.2294211 -9.8146706 -11.56396 25.893633 -11.543402 25.775459 -2.2409623 -9.6607084
470556250 -2.2417383 -10.256803 -11.431695 26.624203 -11.411211 26.507099 -2.2536252 -10.085496
491490625 -2.2553751 -10.690843 -11.29881 27.314989 -11.278862 27.198101 -2.265645 -10.505991
512425000 -2.2687154 -11.118555 -11.166348 27.971077 -11.146881 27.856939 -2.2802489 -10.927815
533359375 -2.2829103 -11.549254 -11.031994 28.589672 -11.014535 28.477734 -2.2952161 -11.357445
554293750 -2.296963 -11.982303 -10.900742 29.170103 -10.881677 29.057783 -2.3106973 -11.788057
575228125 -2.3120041 -12.412729 -10.7708 29.723799 -10.749076 29.60396 -2.325352 -12.214417
596162500 -2.3271716 -12.837914 -10.63849 30.236923 -10.618602 30.115967 -2.3397684 -12.635711
617096875 -2.3426218 -13.260326 -10.50724 30.71727 -10.488372 30.601126 -2.3550992 -13.055336
638031250 -2.3585215 -13.676677 -10.377931 31.173717 -10.359581 31.054047 -2.3722961 -13.468704
658965625 -2.3744214 -14.094736 -10.249146 31.602631 -10.23013 31.483164 -2.3890409 -13.877748
679900000 -2.3923299 -14.518759 -10.121626 31.997562 -10.1048 31.875227 -2.4062836 -14.296119
700834375 -2.4103067 -14.929667 -9.9957647 32.371014 -9.9797888 32.26178 -2.4242744 -14.708128
721768750 -2.428863 -15.339805 -9.8717623 32.723972 -9.853528 32.614414 -2.4428291 -15.118943
742703125 -2.446749 -15.740314 -9.7473106 33.059113 -9.7282515 32.936848 -2.4598246 -15.515354
763637500 -2.4652293 -16.148018 -9.625144 33.351082 -9.6062059 33.227978 -2.4766929 -15.916877
784571875 -2.4834757 -16.56325 -9.5031176 33.640144 -9.4872704 33.511089 -2.4952433 -16.316383
805506250 -2.5028236 -16.966898 -9.3845692 33.899166 -9.368392 33.789162 -2.5141551 -16.713659
826440625 -2.5228417 -17.368084 -9.2666407 34.142265 -9.2488289 34.022118 -2.5343728 -17.111353
847375000 -2.5427585 -17.760517 -9.149703 34.374443 -9.1328659 34.244682 -2.5557513 -17.505766
868309375 -2.5649319 -18.158718 -9.0354252 34.582985 -9.018815 34.459694 -2.5769839 -17.890087
889243750 -2.5846624 -18.545109 -8.9203453 34.773167 -8.9026394 34.644878 -2.5958378 -18.273046
910178125 -2.6041234 -18.939228 -8.8058901 34.952171 -8.790678 34.809624 -2.6152945 -18.662876
931112500 -2.6243408 -19.33238 -8.6935768 35.100986 -8.6805544 34.959373 -2.6360476 -19.042231
952046875 -2.6447015 -19.718925 -8.5840225 35.22966 -8.5709314 35.105598 -2.656332 -19.421928
972981250 -2.6659153 -20.101542 -8.4775715 35.348366 -8.4626904 35.217262 -2.6781924 -19.805695
993915625 -2.6874437 -20.481087 -8.3725691 35.471035 -8.3571835 35.328007 -2.7007983 -20.186468
1014850000 -2.7101226 -20.864134 -8.2659531 35.554237 -8.2534351 35.416424 -2.7220712 -20.56741
1035784375 -2.7330353 -21.245274 -8.165699 35.626217 -8.1521044 35.506039 -2.7446203 -20.944613
1056718750 -2.7538831 -21.619717 -8.064127 35.713017 -8.0502691 35.578297 -2.7656164 -21.316687
1077653125 -2.7748377 -21.992464 -7.9634871 35.769798 -7.9499927 35.629417 -2.7876065 -21.682821
1098587500 -2.7965839 -22.361586 -7.8660522 35.812977 -7.8521972 35.676109 -2.8095756 -22.037706
1119521875 -2.8208089 -22.720848 -7.7690706 35.853436 -7.7569375 35.7159 -2.8328583 -22.399767
1140456250 -2.8444397 -23.076073 -7.6746678 35.874973 -7.6621966 35.74324 -2.8569319 -22.758747
1161390625 -2.8680289 -23.441591 -7.5821857 35.893894 -7.5682983 35.761871 -2.879915 -23.120928
1182325000 -2.891438 -23.809772 -7.4900155 35.902199 -7.476757 35.761925 -2.9028933 -23.480297
1203259375 -2.9142532 -24.170944 -7.3996158 35.898666 -7.3864465 35.756649 -2.9248259 -23.832661
1224193750 -2.9371438 -24.529829 -7.3096962 35.888874 -7.2980599 35.74609 -2.9469383 -24.181755
1245128125 -2.9606791 -24.878637 -7.2232985 35.867123 -7.2118182 35.72884 -2.9721515 -24.52305
1266062500 -2.9861944 -25.231384 -7.1380806 35.848408 -7.1267338 35.704559 -2.9970548 -24.870152
1286996875 -3.0132847 -25.575602 -7.0542521 35.810459 -7.0428238 35.675831 -3.0227778 -25.223665
1307931250 -3.0380926 -25.92461 -6.9724164 35.780224 -6.9612775 35.641304 -3.0481989 -25.572065
1328865625 -3.0619814 -26.281746 -6.8902869 35.742607 -6.8793778 35.599998 -3.0719717 -25.91951
1349800000 -3.0863316 -26.629549 -6.8110948 35.686531 -6.800591 35.544559 -3.0958419 -26.254965
1370734375 -3.1113787 -26.974268 -6.7321672 35.642735 -6.7231536 35.493454 -3.1208801 -26.582226
1391668750 -3.1370256 -27.300928 -6.6538854 35.583099 -6.6450205 35.442081 -3.1458068 -26.916082
1412603125 -3.162878 -27.634125 -6.578424 35.520271 -6.5690823 35.373749 -3.1729984 -27.252575
1433537500 -3.1901836 -27.971592 -6.5034366 35.448936 -6.495563 35.306931 -3.1994529 -27.586411
1454471875 -3.2155681 -28.308247 -6.4316821 35.370937 -6.4221611 35.229546 -3.2243705 -27.924965
1475406250 -3.2397342 -28.64756 -6.3598323 35.30159 -6.3523626 35.152988 -3.2501278 -28.248146
1496340625 -3.2648258 -28.976143 -6.2882056 35.221798 -6.2809548 35.080883 -3.2742076 -28.566147
1517275000 -3.2898431 -29.291693 -6.2192926 35.136139 -6.2109509 35.000328 -3.2997625 -28.873699
1538209375 -3.316474 -29.609344 -6.1502419 35.059902 -6.1425223 34.915466 -3.3259561 -29.187414
1559143750 -3.3436234 -29.925116 -6.0813346 34.959255 -6.0742335 34.820683 -3.3537912 -29.505585
1580078125 -3.3694444 -30.248535 -6.0171251 34.86034 -6.0081625 34.727024 -3.3801153 -29.820255
1601012500 -3.3956072 -30.573101 -5.9517646 34.765587 -5.9429951 34.622166 -3.4054284 -30.139101
1621946875 -3.4209971 -30.886604 -5.8891506 34.661217 -5.8801799 34.515789 -3.432101 -30.44533
1642881250 -3.4473114 -31.203381 -5.8250523 34.569798 -5.8181443 34.421097 -3.4581964 -30.738348
1663815625 -3.474509 -31.50391 -5.7621112 34.461151 -5.7553291 34.319321 -3.4847493 -31.035971
1684750000 -3.5026429 -31.80463 -5.7006187 34.352501 -5.6948242 34.211506 -3.5119486 -31.335798
1705684375 -3.5302889 -32.110374 -5.6412268 34.231319 -5.6350803 34.096558 -3.5399034 -31.640873
1726618750 -3.5568514 -32.423477 -5.5843334 34.123882 -5.5765595 33.984715 -3.5669329 -31.942663
1747553125 -3.5846198 -32.735485 -5.5263295 34.019424 -5.5196495 33.865738 -3.5940089 -32.240711
1768487500 -3.612819 -33.030739 -5.467783 33.903378 -5.4628773 33.758766 -3.6208854 -32.52758
1789421875 -3.639519 -33.321617 -5.4120955 33.782017 -5.4083476 33.644951 -3.6485033 -32.808659
1810356250 -3.6675124 -33.617691 -5.3561573 33.666172 -5.3525748 33.531887 -3.6757903 -33.096397
1831290625 -3.6954265 -33.912834 -5.3012581 33.549339 -5.2957516 33.411953 -3.7030454 -33.385849
1852225000 -3.7232313 -34.209583 -5.247745 33.432968 -5.2426777 33.280659 -3.7309422 -33.674068
1873159375 -3.7509103 -34.505753 -5.1942973 33.298912 -5.1913099 33.160622 -3.7582924 -33.956463
1894093750 -3.777498 -34.792389 -5.1448274 33.167992 -5.1392384 33.027409 -3.7861404 -34.237694
1915028125 -3.8053968 -35.075089 -5.0932546 33.052189 -5.0903845 32.908295 -3.8145313 -34.506962
1935962500 -3.831686 -35.351398 -5.0429368 32.924419 -5.0380101 32.797832 -3.8405092 -34.783237
1956896875 -3.8586121 -35.63953 -4.9911456 32.811695 -4.9865928 32.656834 -3.8683376 -35.062447
1977831250 -3.8877177 -35.913479 -4.9404778 32.658192 -4.9387259 32.521343 -3.8955603 -35.332493
1998765625 -3.9132633 -36.186531 -4.896121 32.519024 -4.8918638 32.385681 -3.9228544 -35.604088
2019700000 -3.9395413 -36.468998 -4.850008 32.397518 -4.8455391 32.264866 -3.949918 -35.862167
2040634375 -3.9668729 -36.739719 -4.8039169 32.266098 -4.7975717 32.136589 -3.9769759 -36.127552
2061568750 -3.9951427 -37.004547 -4.7570529 32.137985 -4.7529054 31.997066 -4.0055008 -36.39114
2082503125 -4.0233998 -37.270103 -4.7118092 32.001408 -4.7084117 31.865465 -4.0333076 -36.654385
2103437500 -4.0511856 -37.538998 -4.6674771 31.860712 -4.6641822 31.733673 -4.0611525 -36.911167
2124371875 -4.0789757 -37.810154 -4.6254334 31.729662 -4.6217065 31.597979 -4.0871511 -37.157959
2145306250 -4.1074748 -38.073292 -4.5824704 31.597118 -4.5786529 31.468847 -4.1136618 -37.416454
2166240625 -4.1347985 -38.328819 -4.5413771 31.465296 -4.5375805 31.331335 -4.142714 -37.665009
2187175000 -4.1633849 -38.590015 -4.4980469 31.337841 -4.4963923 31.196449 -4.1720786 -37.909832
2208109375 -4.1929393 -38.847099 -4.4570656 31.198437 -4.456387 31.064838 -4.2008028 -38.154514
2229043750 -4.2217264 -39.108452 -4.4158769 31.072144 -4.4154778 30.932394 -4.2278118 -38.409111
2249978125 -4.250165 -39.362068 -4.3752294 30.931734 -4.3749323 30.800356 -4.2542658 -38.664772
2270912500 -4.2776031 -39.621761 -4.3368268 30.79487 -4.335278 30.660395 -4.2815208 -38.905022
2291846875 -4.3057361 -39.872391 -4.298944 30.654631 -4.2971716 30.521366 -4.3099589 -39.142998
2312781250 -4.3332014 -40.121189 -4.2619247 30.52956 -4.2602959 30.393557 -4.3390069 -39.372784
2333715625 -4.3623385 -40.369244 -4.222127 30.400663 -4.2220869 30.259996 -4.3680048 -39.623268
2354650000 -4.3909702 -40.615818 -4.1846066 30.256235 -4.1852465 30.122545 -4.3970141 -39.862637
2375584375 -4.4184389 -40.863518 -4.1475768 30.119846 -4.1477628 29.986135 -4.4236612 -40.113041
2396518750 -4.4455266 -41.099072 -4.1127663 29.980057 -4.1128945 29.846466 -4.4510627 -40.338303
2417453125 -4.4720788 -41.338615 -4.0768166 29.84473 -4.07689 29.724987 -4.4765663 -40.556408
2438387500 -4.4987154 -41.569599 -4.0420337 29.709784 -4.0401359 29.584566 -4.5046043 -40.784843
2459321875 -4.5263877 -41.800053 -4.0060134 29.577875 -4.0062995 29.441265 -4.5339847 -40.999454
2480256250 -4.5537539 -42.03194 -3.9716594 29.437433 -3.9723296 29.305962 -4.5609732 -41.227631
2501190625 -4.5814104 -42.273579 -3.9361649 29.304394 -3.9389632 29.174507 -4.5874915 -41.457577
2522125000 -4.6097584 -42.493126 -3.9039657 29.147642 -3.9043491 29.034601 -4.6129947 -41.683105
2543059375 -4.6346955 -42.720325 -3.8730116 29.01923 -3.871841 28.890625 -4.6392775 -41.90065
2563993750 -4.6627893 -42.946239 -3.8407965 28.885857 -3.8405519 28.760229 -4.6664524 -42.101318
2584928125 -4.6904016 -43.165878 -3.8083844 28.751026 -3.8083382 28.624229 -4.6937189 -42.315971
2605862500 -4.7193933 -43.381077 -3.7765994 28.612526 -3.7779686 28.483799 -4.7227278 -42.528824
2626796875 -4.7475481 -43.60083 -3.7456889 28.474907 -3.7464178 28.351683 -4.749948 -42.748646
2647731250 -4.7754049 -43.828983 -3.7134156 28.332949 -3.715755 28.212845 -4.775043 -42.973633
2668665625 -4.8023186 -44.042034 -3.6846025 28.18375 -3.6841924 28.070465 -4.8015704 -43.196667
2689600000 -4.8286581 -44.255699 -3.6574051 28.050421 -3.6562352 27.92798 -4.8290186 -43.397797
2710534375 -4.8543758 -44.476261 -3.6300831 27.932526 -3.6282623 27.804533 -4.857091 -43.594624
2731468750 -4.8825526 -44.705544 -3.5978019 27.81131 -3.5987432 27.675135 -4.8842311 -43.7962
2752403125 -4.9117446 -44.910709 -3.5660844 27.657177 -3.569175 27.535355 -4.9105463 -44.020508
2773337500 -4.9370222 -45.11285 -3.5401592 27.514715 -3.5410647 27.385927 -4.9387841 -44.244114
2794271875 -4.9629445 -45.334625 -3.5134377 27.380405 -3.5148387 27.249537 -4.9656181 -44.441696
2815206250 -4.9887247 -45.544579 -3.4863207 27.243097 -3.4866738 27.11944 -4.989563 -44.646931
2836140625 -5.0148044 -45.745716 -3.4598897 27.112925 -3.4596515 26.981724 -5.0176654 -44.851833
2857075000 -5.0403466 -45.951767 -3.432878 26.988001 -3.4332018 26.850607 -5.0449414 -45.041634
2878009375 -5.067945 -46.158813 -3.4032037 26.844179 -3.4075222 26.7106 -5.0724115 -45.242889
2898943750 -5.0945015 -46.35577 -3.3778844 26.692699 -3.3821006 26.57406 -5.0980167 -45.441704
2919878125 -5.1195798 -46.556267 -3.3545055 26.560184 -3.3557363 26.436844 -5.1213279 -45.652702
2940812500 -5.1443214 -46.756275 -3.3305955 26.434208 -3.3310928 26.297054 -5.1485305 -45.850506
2961746875 -5.1708045 -46.956215 -3.3047192 26.297888 -3.3066096 26.168594 -5.1744542 -46.030102
2982681250 -5.196125 -47.145836 -3.281399 26.165178 -3.2834852 26.037775 -5.201829 -46.21693
3003615625 -5.2243724 -47.339184 -3.2562144 26.033825 -3.2596116 25.918291 -5.228025 -46.396732
3024550000 -5.250535 -47.523796 -3.2328811 25.88846 -3.2339911 25.77453 -5.2524977 -46.605831
3045484375 -5.2744799 -47.724518 -3.2103679 25.769979 -3.2110887 25.63254 -5.2793694 -46.803955
3066418750 -5.3011446 -47.923267 -3.1858819 25.642372 -3.1883824 25.503298 -5.3037496 -46.981674
3087353125 -5.3278246 -48.10788 -3.1618803 25.503523 -3.1658952 25.374912 -5.3288903 -47.165302
3108287500 -5.3535547 -48.278122 -3.1421359 25.360756 -3.1438186 25.251049 -5.3566084 -47.352165
3129221875 -5.3775377 -48.464447 -3.1222074 25.241585 -3.1221085 25.117785 -5.3837428 -47.539413
3150156250 -5.4030547 -48.670738 -3.0987113 25.131847 -3.1001825 24.986486 -5.4096789 -47.724945
3171090625 -5.4304452 -48.866337 -3.073153 24.999777 -3.078176 24.857334 -5.4339738 -47.91803
3192025000 -5.4560399 -49.041862 -3.0531597 24.845823 -3.0561895 24.720173 -5.4588361 -48.106415
3212959375 -5.4789114 -49.220417 -3.0349846 24.723871 -3.0363102 24.589979 -5.4857044 -48.281979
3233893750 -5.5034366 -49.406349 -3.0139604 24.6063 -3.0167623 24.471285 -5.5115285 -48.443256
3254828125 -5.5282555 -49.585304 -2.9949045 24.484791 -2.9948721 24.351286 -5.5360208 -48.635517
3275762500 -5.5541735 -49.781651 -2.9711607 24.371626 -2.9758623 24.210833 -5.5656996 -48.820454
3296696875 -5.5798473 -49.957218 -2.9499595 24.216831 -2.9561169 24.084475 -5.5899568 -48.994995
3317631250 -5.6027741 -50.135918 -2.9319887 24.093107 -2.936841 23.953474 -5.6137834 -49.17857
3338565625 -5.626636 -50.307472 -2.9130726 23.964499 -2.9182086 23.83317 -5.637496 -49.334625
3359500000 -5.6497302 -50.477768 -2.8948328 23.849504 -2.8970752 23.712971 -5.6598382 -49.514172
3380434375 -5.6757274 -50.653206 -2.873251 23.731709 -2.8791602 23.582058 -5.6892376 -49.691612
3401368750 -5.7021761 -50.817795 -2.8538587 23.580917 -2.8615475 23.465912 -5.714839 -49.85746
3422303125 -5.724906 -50.986641 -2.8391733 23.458652 -2.8431122 23.333876 -5.7399435 -50.04958
3443237500 -5.7489533 -51.174591 -2.8217876 23.35932 -2.8262239 23.214067 -5.7654033 -50.216316
3464171875 -5.77496 -51.352062 -2.7998974 23.237211 -2.8082078 23.099081 -5.7860136 -50.367329
3485106250 -5.8007083 -51.501656 -2.782028 23.100628 -2.7893479 22.979628 -5.8088622 -50.535042
3506040625 -5.8244071 -51.64312 -2.7663047 22.966139 -2.770858 22.856489 -5.8346381 -50.708889
3526975000 -5.8466382 -51.805042 -2.7529879 22.862009 -2.7549379 22.731085 -5.8637161 -50.8759
3547909375 -5.8723888 -51.991745 -2.7328513 22.757797 -2.7392144 22.619083 -5.8911424 -51.030388
3568843750 -5.896688 -52.157055 -2.716547 22.624783 -2.7207575 22.506994 -5.9095302 -51.196609
3589778125 -5.9186945 -52.335743 -2.6998439 22.532894 -2.7037857 22.378241 -5.93186 -51.375988
3610712500 -5.9448299 -52.492222 -2.6789553 22.398849 -2.6877215 22.260895 -5.9569888 -51.523949
3631646875 -5.9678416 -52.625141 -2.666734 22.260017 -2.670861 22.149178 -5.9793024 -51.662228
3652581250 -5.9889808 -52.783772 -2.6520569 22.158396 -2.6533678 22.027208 -6.0052023 -51.839588
3673515625 -6.0121136 -52.951824 -2.6367292 22.060677 -2.6382654 21.904095 -6.0341673 -52.000553
3694450000 -6.0363426 -53.149292 -2.6165595 21.949862 -2.6235375 21.787315 -6.0583763 -52.1492
3715384375 -6.0621829 -53.317146 -2.5974569 21.808544 -2.6086881 21.671 -6.0795102 -52.311943
3736318750 -6.0820642 -53.461952 -2.5857434 21.686037 -2.5918875 21.561888 -6.0984344 -52.466091
3757253125 -6.102984 -53.61454 -2.5698769 21.591204 -2.5763733 21.436192 -6.1222911 -52.636066
3778187500 -6.1275258 -53.75396 -2.5538621 21.460411 -2.5622144 21.322613 -6.1498041 -52.766846
3799121875 -6.1499271 -53.909641 -2.5417397 21.356426 -2.5472093 21.215336 -6.1728096 -52.910954
3820056250 -6.17593 -54.081772 -2.5211864 21.249704 -2.5338526 21.099707 -6.2002897 -53.067295
3840990625 -6.1991129 -54.219334 -2.5090539 21.10253 -2.5180557 20.995975 -6.2192712 -53.206779
3861925000 -6.2179551 -54.383633 -2.4961929 21.012987 -2.5029774 20.874413 -6.2370768 -53.388481
3882859375 -6.2419982 -54.523399 -2.4796414 20.898706 -2.4898717 20.757576 -6.2630811 -53.532913
3903793750 -6.2645054 -54.657696 -2.4659684 20.77849 -2.4753609 20.651304 -6.2852478 -53.646885
3924728125 -6.2883821 -54.78215 -2.4524243 20.650831 -2.4607897 20.536882 -6.3070774 -53.791458
3945662500 -6.3086472 -54.925365 -2.4424181 20.545267 -2.447526 20.424341 -6.330009 -53.94339
3966596875 -6.3306379 -55.105839 -2.4262559 20.456335 -2.4339552 20.311951 -6.3526416 -54.107948
3987531250 -6.3563619 -55.256428 -2.4093816 20.321695 -2.4212871 20.202044 -6.374588 -54.257637
4008465625 -6.3765283 -55.383991 -2.4018164 20.200041 -2.4072032 20.096422 -6.3940167 -54.38773
4029400000 -6.3957577 -55.53352 -2.3891492 20.116169 -2.3939946 19.990147 -6.4138169 -54.521664
4050334375 -6.4198284 -55.669083 -2.3745039 20.004648 -2.3805921 19.880466 -6.4371657 -54.659653
4071268750 -6.4420166 -55.809345 -2.3623633 19.899136 -2.3669257 19.770033 -6.4591422 -54.786285
4092203125 -6.4646239 -55.96867 -2.3478286 19.783484 -2.3547368 19.655022 -6.4811649 -54.947166
4113137500 -6.4849954 -56.1185 -2.3386586 19.673103 -2.3434711 19.551014 -6.5050974 -55.080837
4134071875 -6.5049829 -56.288013 -2.3257451 19.588984 -2.3308713 19.445028 -6.5237637 -55.207993
4155006250 -6.5248542 -56.427235 -2.3123171 19.480326 -2.3183625 19.339443 -6.5449595 -55.345203
4175940625 -6.5463614 -56.565186 -2.2990384 19.391071 -2.3064628 19.237307 -6.5660591 -55.448429
4196875000 -6.5722241 -56.696587 -2.2816298 19.255564 -2.2935696 19.125629 -6.5842724 -55.598145
4217809375 -6.5912323 -56.808731 -2.2752929 19.137211 -2.282876 19.019285 -6.6091218 -55.727646
4238743750 -6.610508 -56.980236 -2.2639539 19.061731 -2.2714136 18.914572 -6.6295657 -55.840794
