!Keysight Technologies,N5227A,US51270248,A.10.65.08
!Date: Tuesday, June 11, 2024 07:59:58
!Correction: S11(Full 2 Port(1,4)) 
!S41(Full 2 Port(1,4)) 
!S14(Full 2 Port(1,4)) 
!S44(Full 2 Port(1,4)) 
!S2P File: Measurements: S11, S41, S14, S44:
# Hz S  dB   R 50
10000000 -0.43113288 179.54857 -80.384567 -126.39019 -78.456528 67.378952 -0.0037045828 -0.30649713
30934375 -0.44964772 179.64476 -72.315979 89.978859 -70.719673 87.188431 -0.00053899275 -1.0210788
51868750 -0.44719926 179.48625 -67.727974 92.47905 -66.384079 92.678169 -0.0062312274 -1.690918
72803125 -0.44223076 179.27245 -64.824715 95.489662 -63.543682 94.849922 -0.0080615431 -2.3174541
93737500 -0.44330105 179.0562 -62.508652 97.915512 -61.22876 96.287041 -0.013451725 -2.9292665
114671875 -0.44432989 178.8493 -60.684643 99.914009 -59.411022 98.596504 -0.017503336 -3.5582933
135606250 -0.44767195 178.68095 -59.110504 101.67349 -57.899998 99.951782 -0.020852838 -4.2090812
156540625 -0.45100322 178.53433 -57.510033 103.53156 -56.614742 101.57318 -0.025198551 -4.8643513
177475000 -0.44844955 178.34021 -56.317375 105.18874 -55.433605 103.52222 -0.030581471 -5.4890752
198409375 -0.45081365 178.11629 -55.205265 106.63569 -54.265499 104.64713 -0.034177955 -6.089242
219343750 -0.45562387 177.91357 -54.183075 108.13858 -53.281731 105.66064 -0.036909591 -6.7126861
240278125 -0.45765805 177.73779 -53.310856 109.86232 -52.340916 107.00243 -0.043622084 -7.3588562
261212500 -0.45644832 177.56909 -52.407608 111.11491 -51.544987 108.40579 -0.052046452 -8.0022974
282146875 -0.45831954 177.38971 -51.577374 112.07259 -50.733971 109.29585 -0.058322988 -8.6329651
303081250 -0.46255663 177.21712 -50.79187 113.19713 -49.931782 110.43555 -0.063341416 -9.2574749
324015625 -0.46403795 177.047 -50.156754 114.18375 -49.247704 110.78752 -0.068062656 -9.8687677
344950000 -0.46615812 176.84567 -49.417274 115.55414 -48.626198 112.22267 -0.072724536 -10.475704
365884375 -0.46773335 176.66757 -48.725983 116.76469 -47.980484 113.1993 -0.079737924 -11.093593
386818750 -0.46597701 176.49715 -48.095753 117.48076 -47.331474 114.15557 -0.088876225 -11.724047
407753125 -0.4651407 176.32831 -47.446377 118.57639 -46.741821 114.93863 -0.09855742 -12.333216
428687500 -0.46606234 176.1423 -46.8316 119.14696 -46.174057 115.69437 -0.10131527 -12.943943
449621875 -0.47079578 175.95271 -46.28862 119.89819 -45.616436 116.21134 -0.10721189 -13.572996
470556250 -0.47365278 175.77193 -45.738007 120.69031 -45.1008 116.87883 -0.11483925 -14.178475
491490625 -0.4738932 175.58426 -45.204811 121.42108 -44.586994 117.68871 -0.12293596 -14.774787
512425000 -0.47308832 175.39828 -44.674252 122.08415 -44.067471 118.43777 -0.13071565 -15.373972
533359375 -0.47561619 175.21719 -44.138264 122.45548 -43.607147 118.99107 -0.13900839 -15.988947
554293750 -0.47924656 175.05026 -43.654888 123.19533 -43.135509 119.644 -0.14811465 -16.60433
575228125 -0.47960746 174.87555 -43.176769 123.66984 -42.651852 120.06866 -0.15533835 -17.206902
596162500 -0.48165634 174.68831 -42.724815 124.11103 -42.215858 120.45047 -0.16215727 -17.806021
617096875 -0.48378932 174.50009 -42.280937 124.67645 -41.800095 120.93264 -0.17091627 -18.407871
638031250 -0.48440993 174.32141 -41.852848 125.10658 -41.36594 121.44963 -0.18128122 -19.000244
658965625 -0.48587209 174.1447 -41.425316 125.60588 -40.928497 121.8197 -0.19034177 -19.595268
679900000 -0.48776484 173.97008 -40.989571 125.76685 -40.526783 122.1281 -0.19857934 -20.2006
700834375 -0.49366382 173.79851 -40.595661 126.256 -40.169754 122.47843 -0.20939185 -20.799128
721768750 -0.49092922 173.62126 -40.188938 126.73472 -39.75703 123.01871 -0.22035953 -21.383696
742703125 -0.49326611 173.43239 -39.793758 126.95612 -39.362518 123.36446 -0.22862348 -21.953253
763637500 -0.49172637 173.24951 -39.420067 127.18063 -39.004501 123.50463 -0.23534265 -22.543036
784571875 -0.49435622 173.07512 -39.052914 127.45733 -38.680626 123.81897 -0.24547669 -23.137163
805506250 -0.49446765 172.90474 -38.694191 127.96535 -38.318108 124.04981 -0.25510594 -23.716
826440625 -0.49497446 172.72734 -38.285767 128.33443 -37.823799 123.75948 -0.26481766 -24.30139
847375000 -0.4965106 172.54233 -37.912624 128.25476 -37.502434 124.07808 -0.27605033 -24.882217
868309375 -0.49597311 172.35825 -37.572823 128.41396 -37.173084 124.12611 -0.28769162 -25.445168
889243750 -0.49572477 172.16612 -37.234989 128.4631 -36.872025 124.42705 -0.29653594 -26.013088
910178125 -0.49770439 171.98589 -36.912811 128.55157 -36.53215 124.49047 -0.30545208 -26.593546
931112500 -0.5010547 171.82114 -36.592907 128.6778 -36.251545 124.68195 -0.31587726 -27.167147
952046875 -0.50204068 171.64694 -36.278938 128.86339 -35.952709 124.99968 -0.32505366 -27.732046
972981250 -0.5056892 171.45453 -35.952621 128.95061 -35.609901 124.79675 -0.33558902 -28.299606
993915625 -0.50731653 171.26433 -35.640381 128.95818 -35.323101 125.1712 -0.34698117 -28.869205
1014850000 -0.50739259 171.09242 -35.33704 128.94238 -35.027191 125.14774 -0.35795891 -29.435421
1035784375 -0.50916117 170.91644 -35.055557 128.99472 -34.766663 125.24262 -0.36903179 -29.999269
1056718750 -0.50916028 170.73553 -34.753853 129.05989 -34.467823 125.36736 -0.37855178 -30.564857
1077653125 -0.51481056 170.55908 -34.465942 129.07639 -34.165699 125.28428 -0.38802293 -31.123472
1098587500 -0.51611125 170.38799 -34.177509 128.97762 -33.912376 125.33599 -0.39787963 -31.666561
1119521875 -0.5175848 170.20279 -33.907242 128.96634 -33.644878 125.23415 -0.40923685 -32.217403
1140456250 -0.5171296 170.00835 -33.641209 128.899 -33.388538 125.30085 -0.42128247 -32.769451
1161390625 -0.51846832 169.83147 -33.376938 128.88968 -33.112652 125.24082 -0.4333179 -33.316505
1182325000 -0.51905 169.66165 -33.10762 128.77139 -32.824711 124.88512 -0.44202349 -33.869198
1203259375 -0.52053142 169.48555 -32.851349 128.7404 -32.596497 124.90437 -0.45087075 -34.424107
1224193750 -0.52443284 169.30318 -32.598164 128.60954 -32.355236 124.79271 -0.46021175 -34.973454
1245128125 -0.52519447 169.11668 -32.359638 128.51556 -32.135815 124.89464 -0.47296301 -35.503536
1266062500 -0.52487826 168.93158 -32.119682 128.43538 -31.898718 124.7641 -0.48586264 -36.040867
1286996875 -0.52350849 168.74306 -31.879824 128.31636 -31.666136 124.74961 -0.49793211 -36.584682
1307931250 -0.52382749 168.56152 -31.648077 128.207 -31.438967 124.65685 -0.50966394 -37.129993
1328865625 -0.52563637 168.39252 -31.417137 128.1281 -31.219276 124.6363 -0.52013111 -37.671661
1349800000 -0.52886158 168.22339 -31.194305 127.97076 -31.00317 124.52148 -0.52937603 -38.199596
1370734375 -0.53000516 168.03458 -30.973997 127.91159 -30.802504 124.41827 -0.54027522 -38.72522
1391668750 -0.53262651 167.83769 -30.751879 127.76768 -30.588852 124.48819 -0.55271381 -39.25042
1412603125 -0.53414577 167.65051 -30.532841 127.68105 -30.365606 124.35544 -0.56573671 -39.770218
1433537500 -0.53391415 167.47269 -30.315548 127.52471 -30.158571 124.2692 -0.57768553 -40.309116
1454471875 -0.53652698 167.30032 -30.107462 127.35361 -29.937452 124.14964 -0.58788043 -40.84306
1475406250 -0.54046214 167.12981 -29.904108 127.24208 -29.74859 123.78509 -0.59905666 -41.364071
1496340625 -0.54402632 166.95419 -29.700851 127.08415 -29.555256 123.80138 -0.60939628 -41.870075
1517275000 -0.54519528 166.76483 -29.501167 126.98936 -29.353609 123.71262 -0.62065798 -42.368916
1538209375 -0.54743081 166.56294 -29.293756 126.8322 -29.153755 123.60655 -0.63307333 -42.883625
1559143750 -0.54855615 166.3741 -29.099667 126.63182 -28.957026 123.49266 -0.64551163 -43.4002
1580078125 -0.55028826 166.20152 -28.910891 126.503 -28.77607 123.29306 -0.65567356 -43.920834
1601012500 -0.55330086 166.03323 -28.721962 126.31712 -28.585962 123.27094 -0.6654619 -44.443253
1621946875 -0.5584206 165.85764 -28.534122 126.17215 -28.397537 122.90483 -0.67758048 -44.947861
1642881250 -0.55977255 165.66986 -28.348135 126.01037 -28.23509 122.86745 -0.68941051 -45.433491
1663815625 -0.56244135 165.47963 -28.165731 125.80456 -28.055517 122.78639 -0.70063317 -45.92131
1684750000 -0.56271386 165.28609 -27.986786 125.62256 -27.878967 122.61384 -0.7127406 -46.426392
1705684375 -0.5676139 165.1088 -27.813276 125.40214 -27.707554 122.4988 -0.72461939 -46.939018
1726618750 -0.57043236 164.94688 -27.642897 125.26942 -27.535019 122.24432 -0.73652184 -47.440395
1747553125 -0.57276231 164.78146 -27.466846 125.09884 -27.369497 122.13098 -0.74765921 -47.93317
1768487500 -0.57488042 164.60112 -27.295515 124.92316 -27.211607 121.99363 -0.7591508 -48.41291
1789421875 -0.57737625 164.41821 -27.132072 124.73576 -27.047991 121.79131 -0.77210057 -48.883923
1810356250 -0.57882977 164.24055 -26.965809 124.57314 -26.888983 121.72803 -0.78395164 -49.370739
1831290625 -0.58044451 164.0692 -26.799601 124.37798 -26.719049 121.59944 -0.79538786 -49.862499
1852225000 -0.58179224 163.90875 -26.632675 124.19559 -26.55452 121.3701 -0.80651134 -50.354931
1873159375 -0.58466113 163.74983 -26.471848 123.99432 -26.399778 121.24902 -0.81752622 -50.832615
1894093750 -0.58540553 163.57532 -26.314922 123.79009 -26.226986 120.94225 -0.82941407 -51.303898
1915028125 -0.58817154 163.38593 -26.155954 123.55221 -26.100204 120.72629 -0.84133059 -51.776272
1935962500 -0.5931462 163.19971 -26.006504 123.29763 -25.950861 120.69731 -0.85351384 -52.246071
1956896875 -0.59730786 163.03403 -25.856234 123.09185 -25.781528 120.43889 -0.86416912 -52.717144
1977831250 -0.59907657 162.88055 -25.713224 122.84941 -25.638363 120.18469 -0.8738035 -53.197701
1998765625 -0.60025799 162.72278 -25.57715 122.64118 -25.502718 119.91322 -0.88386464 -53.672718
2019700000 -0.60142636 162.55234 -25.434706 122.53638 -25.382973 119.7991 -0.8955074 -54.133736
2040634375 -0.60286528 162.37633 -25.293213 122.34946 -25.231026 119.69701 -0.90654248 -54.586636
2061568750 -0.60207093 162.19353 -25.151478 122.18744 -25.085592 119.46908 -0.91767079 -55.048374
2082503125 -0.60310304 162.01376 -25.012728 121.99453 -24.959755 119.31512 -0.9289481 -55.516159
2103437500 -0.60449129 161.8484 -24.876022 121.8103 -24.823883 119.11364 -0.93874735 -55.977531
2124371875 -0.60465759 161.68491 -24.736774 121.68745 -24.696703 118.99174 -0.94789284 -56.439007
2145306250 -0.60283208 161.50584 -24.595675 121.4699 -24.553078 118.82436 -0.95924854 -56.890717
2166240625 -0.60364515 161.30968 -24.463974 121.30219 -24.420597 118.67355 -0.97200942 -57.327091
2187175000 -0.60358083 161.11897 -24.324928 121.14562 -24.291939 118.42648 -0.98360807 -57.767929
2208109375 -0.60140938 160.93646 -24.18763 120.95284 -24.172159 118.28259 -0.9946968 -58.222965
2229043750 -0.6001007 160.74892 -24.04784 120.76948 -24.039631 118.1692 -1.0062094 -58.684589
2249978125 -0.60213035 160.56363 -23.917862 120.5234 -23.903986 118.04314 -1.0155225 -59.131332
2270912500 -0.60651404 160.38252 -23.790007 120.29273 -23.769196 117.83574 -1.0252342 -59.565247
2291846875 -0.6078276 160.20323 -23.668369 120.08873 -23.644726 117.5186 -1.0361857 -60.000092
2312781250 -0.60866743 160.0112 -23.544729 119.9191 -23.537556 117.36916 -1.049031 -60.433929
2333715625 -0.61083257 159.8185 -23.417677 119.7193 -23.412933 117.22884 -1.0608252 -60.875072
2354650000 -0.61334807 159.6498 -23.296808 119.54385 -23.300196 117.0715 -1.0716611 -61.326233
2375584375 -0.6144554 159.48637 -23.172194 119.37122 -23.168108 116.94994 -1.0816536 -61.770027
2396518750 -0.61552352 159.30643 -23.048246 119.20333 -23.043331 116.72623 -1.0903456 -62.198196
2417453125 -0.61953914 159.11884 -22.92304 118.97794 -22.932251 116.66656 -1.0995746 -62.612999
2438387500 -0.6214698 158.9258 -22.803244 118.81339 -22.788084 116.49183 -1.1100236 -63.034176
2459321875 -0.62311661 158.72545 -22.679514 118.58924 -22.671 116.11134 -1.1211789 -63.460442
2480256250 -0.62498492 158.54387 -22.563908 118.37708 -22.567743 115.90842 -1.1317139 -63.896618
2501190625 -0.62783331 158.37558 -22.445074 118.16689 -22.460304 115.76147 -1.1402256 -64.335159
2522125000 -0.62875688 158.19614 -22.330229 117.93879 -22.337559 115.74255 -1.1487347 -64.756157
2543059375 -0.63209307 158.00328 -22.216717 117.75964 -22.203241 115.35363 -1.1578847 -65.156715
2563993750 -0.63681328 157.80663 -22.100042 117.5639 -22.105392 115.14489 -1.1669453 -65.56057
2584928125 -0.6369561 157.61696 -21.98649 117.33354 -21.988243 114.97789 -1.1776042 -65.982155
2605862500 -0.63816839 157.42345 -21.873285 117.11275 -21.889994 114.6647 -1.1890258 -66.410706
2626796875 -0.63887072 157.24013 -21.760489 116.87472 -21.793427 114.50813 -1.2000976 -66.835014
2647731250 -0.6484924 157.06848 -21.653339 116.62937 -21.685234 114.366 -1.2077248 -67.256729
2668665625 -0.65057057 156.88937 -21.548983 116.39295 -21.566874 114.25057 -1.2162989 -67.663216
2689600000 -0.65219283 156.69051 -21.446684 116.20132 -21.453293 113.88548 -1.2268074 -68.053406
2710534375 -0.65312439 156.49597 -21.342386 116.00681 -21.374889 113.62856 -1.237851 -68.452309
2731468750 -0.65537834 156.31308 -21.224892 115.82552 -21.276937 113.60615 -1.2475206 -68.872734
2752403125 -0.65578407 156.13852 -21.122892 115.5082 -21.163837 113.47161 -1.2573006 -69.289406
2773337500 -0.65976077 155.95912 -21.024294 115.34921 -21.051037 113.18698 -1.2658489 -69.707985
2794271875 -0.66375917 155.78874 -20.92004 115.15694 -20.969164 112.90354 -1.2750776 -70.114624
2815206250 -0.66802186 155.61504 -20.817135 114.94048 -20.864286 112.88057 -1.2849365 -70.50457
2836140625 -0.67010522 155.4183 -20.717485 114.73971 -20.745897 112.64709 -1.2945939 -70.886871
2857075000 -0.67473602 155.22649 -20.612354 114.54147 -20.655161 112.35601 -1.3044968 -71.282326
2878009375 -0.67528611 155.05791 -20.510235 114.29778 -20.55493 112.12843 -1.3132699 -71.699738
2898943750 -0.67607564 154.89322 -20.415375 114.05464 -20.480362 111.93726 -1.3234068 -72.111977
2919878125 -0.67843056 154.70992 -20.319044 113.85191 -20.372646 111.89774 -1.3322201 -72.499687
2940812500 -0.68449843 154.5153 -20.221527 113.62762 -20.261593 111.60725 -1.3397597 -72.879074
2961746875 -0.68720025 154.33189 -20.123934 113.41763 -20.167297 111.36733 -1.3493935 -73.257339
2982681250 -0.68767184 154.13942 -20.028763 113.19416 -20.071934 111.06065 -1.3602623 -73.637283
3003615625 -0.68707108 153.94455 -19.933344 112.95274 -20.002796 110.90959 -1.3685354 -74.025383
3024550000 -0.68968064 153.7583 -19.848087 112.6807 -19.892136 110.79452 -1.3772241 -74.426018
3045484375 -0.69310379 153.58372 -19.752134 112.53671 -19.795891 110.3944 -1.3856117 -74.819527
3066418750 -0.69552362 153.40665 -19.653524 112.27264 -19.727627 110.2215 -1.3948549 -75.196228
3087353125 -0.69876313 153.20522 -19.567097 112.00725 -19.630445 110.12032 -1.4033462 -75.554405
3108287500 -0.70154393 153.00026 -19.487324 111.80189 -19.534714 109.82401 -1.4144762 -75.921768
3129221875 -0.70154679 152.80194 -19.397957 111.63541 -19.444511 109.5916 -1.424086 -76.306641
3150156250 -0.7052213 152.61574 -19.300488 111.41559 -19.367971 109.3187 -1.4325216 -76.695618
3171090625 -0.70842361 152.44812 -19.210598 111.09216 -19.28701 109.1612 -1.4396427 -77.079018
3192025000 -0.71256799 152.28265 -19.138666 110.86395 -19.19594 108.94844 -1.4475925 -77.447876
3212959375 -0.71648979 152.09683 -19.054548 110.71381 -19.11368 108.61065 -1.4583625 -77.80397
3233893750 -0.71737212 151.88786 -18.967421 110.48176 -19.051693 108.49659 -1.4672097 -78.16246
3254828125 -0.72126222 151.6817 -18.885719 110.29779 -18.953655 108.42565 -1.4774663 -78.525208
3275762500 -0.72436297 151.49234 -18.791233 110.0477 -18.852556 108.08057 -1.4847932 -78.913681
3296696875 -0.72804379 151.32648 -18.718504 109.77978 -18.793444 107.79926 -1.4923754 -79.287018
3317631250 -0.73255163 151.14977 -18.639647 109.60337 -18.712719 107.56368 -1.500288 -79.6492
3338565625 -0.74141455 150.96034 -18.560041 109.38608 -18.662489 107.40983 -1.5081222 -80.001999
3359500000 -0.74537003 150.75467 -18.4778 109.19122 -18.569527 107.37304 -1.5175418 -80.347221
3380434375 -0.74931997 150.53981 -18.391298 108.9233 -18.470264 107.0431 -1.5267369 -80.70266
3401368750 -0.75182885 150.34996 -18.326818 108.67075 -18.416292 106.68368 -1.5379127 -81.066017
3422303125 -0.75710469 150.18504 -18.253271 108.5368 -18.319309 106.4612 -1.5459926 -81.429604
3443237500 -0.75905687 150.01337 -18.162781 108.38177 -18.263086 106.08279 -1.5528316 -81.783485
3464171875 -0.76530659 149.82857 -18.079979 108.09131 -18.206562 106.0806 -1.5594041 -82.133247
3485106250 -0.76927787 149.63216 -18.012947 107.85268 -18.12727 106.04272 -1.5666949 -82.471916
3506040625 -0.78368527 149.43477 -17.948879 107.66838 -18.03507 105.96856 -1.5759268 -82.813972
3526975000 -0.79347187 149.2507 -17.870146 107.56338 -17.927357 105.65951 -1.5848256 -83.1633
3547909375 -0.79187781 149.08937 -17.784378 107.32719 -17.888325 105.25765 -1.5920681 -83.5308
3568843750 -0.79544139 148.93475 -17.716043 107.13873 -17.827026 105.29595 -1.5970864 -83.88224
3589778125 -0.79817426 148.76625 -17.625832 106.97127 -17.728418 105.18267 -1.6039131 -84.22068
3610712500 -0.79941088 148.57645 -17.553719 106.63043 -17.659313 104.80005 -1.6115309 -84.545532
3631646875 -0.80142748 148.36729 -17.495253 106.46887 -17.601448 104.77052 -1.6207572 -84.873444
3652581250 -0.80338645 148.16696 -17.419716 106.33497 -17.495592 104.64655 -1.630523 -85.214638
3673515625 -0.80669117 147.98608 -17.336958 106.12681 -17.409683 104.19563 -1.637814 -85.576866
3694450000 -0.80977106 147.82486 -17.252033 105.87967 -17.364594 103.97318 -1.6455535 -85.929611
3715384375 -0.81130099 147.66866 -17.190525 105.56999 -17.305441 103.7951 -1.6510023 -86.261353
3736318750 -0.81513011 147.48633 -17.126688 105.45262 -17.24523 103.79504 -1.6572096 -86.572754
3757253125 -0.82245475 147.27719 -17.047461 105.23909 -17.135036 103.69626 -1.6649705 -86.891624
3778187500 -0.82573777 147.08511 -16.985559 104.99744 -17.060665 103.20105 -1.673437 -87.233788
3799121875 -0.82610786 146.90321 -16.911621 104.88855 -17.011358 103.09571 -1.6819719 -87.568459
3820056250 -0.8306728 146.72827 -16.829615 104.54994 -16.934689 102.72805 -1.6889248 -87.91217
3840990625 -0.83100861 146.56482 -16.781549 104.35763 -16.911276 102.70354 -1.694252 -88.242393
3861925000 -0.83538234 146.38089 -16.702469 104.23202 -16.80747 102.69712 -1.7010137 -88.546738
3882859375 -0.83812851 146.17453 -16.631468 103.94815 -16.711468 102.25366 -1.7065134 -88.860741
3903793750 -0.84202522 145.96701 -16.568777 103.7299 -16.680023 102.0172 -1.7140716 -89.186844
3924728125 -0.84400213 145.7663 -16.51115 103.50801 -16.613495 101.89128 -1.7235643 -89.521149
3945662500 -0.84638578 145.58322 -16.444666 103.3609 -16.547815 101.76424 -1.7310903 -89.858253
3966596875 -0.8488279 145.40518 -16.361263 103.14137 -16.47069 101.56629 -1.7371916 -90.173706
3987531250 -0.85492122 145.22037 -16.305891 102.82324 -16.4018 101.31316 -1.7411791 -90.483368
4008465625 -0.85675257 145.03032 -16.254238 102.72796 -16.345242 101.00627 -1.7481174 -90.774605
4029400000 -0.86157709 144.83543 -16.175982 102.58174 -16.275742 100.81526 -1.7558218 -91.076591
4050334375 -0.86467284 144.62599 -16.109108 102.30485 -16.204411 100.57592 -1.7627059 -91.406013
4071268750 -0.8690632 144.43336 -16.047161 102.11602 -16.160835 100.41972 -1.7710159 -91.732384
4092203125 -0.87171823 144.26367 -15.985499 101.8644 -16.075756 100.36951 -1.7775388 -92.04789
4113137500 -0.87445009 144.09311 -15.926702 101.73717 -16.001217 99.935104 -1.7822828 -92.342987
4134071875 -0.87666774 143.92451 -15.849671 101.56406 -15.960534 99.799393 -1.7870805 -92.643639
4155006250 -0.88100761 143.7262 -15.787937 101.33176 -15.876884 99.528282 -1.793433 -92.940308
4175940625 -0.88726652 143.5215 -15.715316 101.11786 -15.856724 99.232231 -1.802088 -93.249016
4196875000 -0.88884115 143.33849 -15.663369 100.76729 -15.77637 99.321609 -1.8092089 -93.556709
4217809375 -0.89035857 143.1537 -15.615929 100.68669 -15.691873 98.867157 -1.8144292 -93.865173
