!Keysight Technologies,N5227A,US51270248,A.10.65.08
!Date: Tuesday, June 11, 2024 08:36:28
!Correction: S11(Full 2 Port(1,4)) 
!S41(Full 2 Port(1,4)) 
!S14(Full 2 Port(1,4)) 
!S44(Full 2 Port(1,4)) 
!S2P File: Measurements: S11, S41, S14, S44:
# Hz S  dB   R 50
10000000 0.0036712382 -0.31562981 -45.567707 86.627335 -45.59005 88.018387 -0.0026425256 -0.320016
30934375 0.0098563759 -1.0541832 -35.834354 87.134575 -35.85675 87.135704 5.3610322e-005 -0.99475861
51868750 -6.5903383e-005 -1.7199639 -31.438133 86.432419 -31.439579 86.436005 -0.0036539778 -1.6469369
72803125 -0.0070803291 -2.352942 -28.556732 85.7817 -28.547976 85.757317 -0.0094643505 -2.2982972
93737500 -0.016751776 -2.9595869 -26.404099 85.096642 -26.398167 85.079872 -0.019734839 -2.9227521
114671875 -0.024970762 -3.584753 -24.689844 84.445267 -24.679575 84.380424 -0.0305757 -3.5484741
135606250 -0.032032672 -4.2424946 -23.264223 83.729797 -23.254375 83.640404 -0.040041093 -4.1889915
156540625 -0.042214122 -4.9161534 -22.050863 82.997398 -22.042313 82.899269 -0.050103534 -4.8402061
177475000 -0.05635659 -5.5472608 -20.999027 82.30825 -20.989998 82.202156 -0.06285084 -5.4622455
198409375 -0.068863124 -6.1358857 -20.059269 81.639801 -20.052017 81.533295 -0.074892901 -6.0543375
219343750 -0.079165101 -6.743329 -19.213932 80.958733 -19.200871 80.830505 -0.087237403 -6.6642957
240278125 -0.094727471 -7.3863792 -18.452129 80.241959 -18.429935 80.106499 -0.10458719 -7.2960296
261212500 -0.11540276 -8.0256338 -17.758615 79.538147 -17.73818 79.401062 -0.1241336 -7.9232731
282146875 -0.13363181 -8.6412401 -17.121294 78.868141 -17.100611 78.707405 -0.14146274 -8.540782
303081250 -0.14926128 -9.2533903 -16.531471 78.202873 -16.510454 78.025963 -0.1589068 -9.1512556
324015625 -0.16827482 -9.8543806 -15.982375 77.532295 -15.963263 77.361015 -0.17768222 -9.7401447
344950000 -0.18900086 -10.434928 -15.470542 76.875526 -15.449242 76.687317 -0.19680481 -10.317043
365884375 -0.20923632 -11.022379 -14.990808 76.213493 -14.969496 76.015266 -0.21784192 -10.906401
386818750 -0.2324926 -11.639918 -14.539815 75.538795 -14.521368 75.327713 -0.24269927 -11.512492
407753125 -0.25838324 -12.249584 -14.121636 74.881943 -14.101113 74.683144 -0.26985702 -12.090246
428687500 -0.28329071 -12.814601 -13.72185 74.266083 -13.697266 74.049103 -0.28801283 -12.666934
449621875 -0.30013004 -13.380115 -13.338092 73.626694 -13.315823 73.385353 -0.31159839 -13.263177
470556250 -0.32446972 -13.981125 -12.976925 72.960548 -12.956494 72.733826 -0.33825329 -13.825315
491490625 -0.35385364 -14.551862 -12.637932 72.319054 -12.615321 72.093445 -0.36545184 -14.374504
512425000 -0.38189724 -15.110609 -12.313029 71.707466 -12.292282 71.472572 -0.39247259 -14.929938
533359375 -0.40869406 -15.678974 -12.000074 71.0867 -11.981223 70.846565 -0.42214593 -15.502265
554293750 -0.43604714 -16.249674 -11.704361 70.454216 -11.685044 70.212837 -0.45212212 -16.062637
575228125 -0.4642874 -16.80279 -11.424153 69.847427 -11.400937 69.597931 -0.48008233 -16.608923
596162500 -0.49326968 -17.34296 -11.150613 69.23893 -11.129156 68.97628 -0.50870204 -17.148399
617096875 -0.52522993 -17.886097 -10.890561 68.621643 -10.870597 68.365829 -0.54009557 -17.689341
638031250 -0.55742604 -18.425455 -10.643748 68.03231 -10.623052 67.770172 -0.57416934 -18.221182
658965625 -0.58952671 -18.9589 -10.404525 67.449409 -10.382637 67.174553 -0.60669374 -18.747627
679900000 -0.62069196 -19.497713 -10.172609 66.864838 -10.153866 66.575539 -0.63860923 -19.283073
700834375 -0.65328532 -20.0252 -9.9502535 66.269249 -9.934495 65.987862 -0.67409021 -19.808632
721768750 -0.68835014 -20.537136 -9.7413836 65.692535 -9.722147 65.420761 -0.70888782 -20.310764
742703125 -0.72360426 -21.028864 -9.5367613 65.148132 -9.5158072 64.857674 -0.74269176 -20.799011
763637500 -0.75871718 -21.527439 -9.338645 64.587097 -9.3162317 64.277519 -0.77547741 -21.306917
784571875 -0.79141724 -22.049858 -9.1441374 64.037834 -9.1279535 63.701351 -0.81257796 -21.814108
805506250 -0.82653624 -22.565638 -8.9594145 63.477497 -8.9439621 63.160454 -0.84886152 -22.304323
826440625 -0.86212146 -23.060219 -8.7832346 62.930134 -8.7636728 62.600304 -0.88352424 -22.795921
847375000 -0.89806825 -23.547308 -8.6103687 62.396919 -8.592391 62.036247 -0.92296189 -23.28656
868309375 -0.93857193 -24.02774 -8.4447584 61.854248 -8.4294395 61.517883 -0.96354133 -23.744726
889243750 -0.97718364 -24.487761 -8.284812 61.33757 -8.2656736 60.98452 -1.0004431 -24.199667
910178125 -1.013281 -24.966644 -8.125226 60.831612 -8.109828 60.4529 -1.0372677 -24.682133
931112500 -1.0496961 -25.458904 -7.9716401 60.295177 -7.9586167 59.901321 -1.0773906 -25.148073
952046875 -1.0881463 -25.925428 -7.8256106 59.762524 -7.8145318 59.399082 -1.1140282 -25.589306
972981250 -1.1266003 -26.364237 -7.6874909 59.251961 -7.6715579 58.878101 -1.15258 -26.04283
993915625 -1.1639174 -26.802874 -7.5491381 58.779087 -7.5353026 58.367245 -1.1938756 -26.487738
1014850000 -1.2081603 -27.258638 -7.4125977 58.220226 -7.4038677 57.861107 -1.2351549 -26.933456
1035784375 -1.2486179 -27.701027 -7.28827 57.734688 -7.2757807 57.363312 -1.2771572 -27.369709
1056718750 -1.2852197 -28.139679 -7.1612377 57.279724 -7.150259 56.875664 -1.3148884 -27.807026
1077653125 -1.322227 -28.579874 -7.0375867 56.775303 -7.0272193 56.38517 -1.354018 -28.240433
1098587500 -1.3611642 -29.006943 -6.9204354 56.288284 -6.9075952 55.879353 -1.3952699 -28.64045
1119521875 -1.4033812 -29.409119 -6.8045478 55.824295 -6.7964015 55.413841 -1.4350294 -29.044273
1140456250 -1.4468796 -29.797874 -6.6952486 55.336361 -6.6858606 54.94672 -1.4787701 -29.454062
1161390625 -1.4874384 -30.219725 -6.5867147 54.883389 -6.5757608 54.491043 -1.5208373 -29.861174
1182325000 -1.5279365 -30.652588 -6.4798126 54.423473 -6.4686308 54.007206 -1.5606304 -30.274523
1203259375 -1.5663096 -31.068476 -6.3768554 53.982853 -6.367105 53.528492 -1.5998896 -30.678102
1224193750 -1.604187 -31.47443 -6.273994 53.521507 -6.2698007 53.064571 -1.6393776 -31.067881
1245128125 -1.6445012 -31.858469 -6.1800184 53.067875 -6.1744437 52.612812 -1.6835129 -31.435339
1266062500 -1.6896625 -32.247158 -6.0860353 52.62952 -6.082644 52.168919 -1.7266464 -31.806299
1286996875 -1.7368351 -32.618999 -5.9937072 52.178658 -5.9920893 51.74337 -1.7698733 -32.198418
1307931250 -1.7770733 -32.999146 -5.9064856 51.763454 -5.9025426 51.316647 -1.8137753 -32.589592
1328865625 -1.8165615 -33.413757 -5.8165097 51.332764 -5.8162575 50.886215 -1.8544443 -32.963638
1349800000 -1.8564427 -33.798 -5.7332754 50.904564 -5.7307558 50.413292 -1.89728 -33.329376
1370734375 -1.8970193 -34.166489 -5.6499414 50.505871 -5.6543679 50.000668 -1.9384965 -33.661491
1391668750 -1.9406657 -34.510487 -5.56914 50.093784 -5.5748692 49.62682 -1.9790859 -34.011227
1412603125 -1.9834697 -34.864666 -5.4911451 49.701218 -5.494875 49.21479 -2.0252774 -34.366859
1433537500 -2.0310354 -35.226273 -5.4142032 49.267319 -5.4199162 48.822754 -2.0674162 -34.723583
1454471875 -2.0721974 -35.579571 -5.3424535 48.872482 -5.3430467 48.411285 -2.1096687 -35.101044
1475406250 -2.1085846 -35.944698 -5.2693439 48.496883 -5.2756181 47.997749 -2.1534836 -35.429329
1496340625 -2.1493211 -36.295975 -5.1983333 48.096241 -5.2065597 47.634457 -2.1920016 -35.744167
1517275000 -2.1909976 -36.609642 -5.1310177 47.725922 -5.1359525 47.248333 -2.2351201 -36.059525
1538209375 -2.2320549 -36.93185 -5.0602865 47.371407 -5.0700932 46.888008 -2.2774529 -36.384056
1559143750 -2.276686 -37.263184 -4.9927621 46.976421 -5.0013471 46.507961 -2.3230665 -36.720432
1580078125 -2.3168545 -37.599968 -4.9307003 46.607876 -4.937644 46.133598 -2.3651128 -37.045208
1601012500 -2.3568504 -37.948765 -4.8671589 46.243652 -4.8735662 45.742893 -2.4046872 -37.383842
1621946875 -2.3959229 -38.261795 -4.8088236 45.874195 -4.8159332 45.349689 -2.4488735 -37.694759
1642881250 -2.4356608 -38.593815 -4.7468982 45.539616 -4.7595286 44.999783 -2.4926674 -37.969639
1663815625 -2.4821827 -38.894726 -4.687314 45.170109 -4.6997433 44.660717 -2.5338664 -38.25264
1684750000 -2.5247879 -39.200294 -4.6279655 44.834793 -4.6439958 44.311733 -2.5753024 -38.556843
1705684375 -2.5702748 -39.49609 -4.5742474 44.450138 -4.5868545 43.973423 -2.6184561 -38.884422
1726618750 -2.6047027 -39.830658 -4.521482 44.145458 -4.5328708 43.60453 -2.6616497 -39.180885
1747553125 -2.6480448 -40.163998 -4.4671817 43.809093 -4.4834337 43.258656 -2.7018025 -39.470592
1768487500 -2.6925845 -40.452385 -4.4121456 43.464455 -4.4346409 42.933937 -2.7437253 -39.739174
1789421875 -2.7329786 -40.726673 -4.3632112 43.136711 -4.3856339 42.632038 -2.7852871 -39.995998
1810356250 -2.7755847 -41.023441 -4.3117442 42.821011 -4.3353486 42.307213 -2.828105 -40.270386
1831290625 -2.8181546 -41.318058 -4.2615504 42.503712 -4.2819839 42.003803 -2.867384 -40.571392
1852225000 -2.8576121 -41.630375 -4.2106891 42.190258 -4.2341895 41.651218 -2.9116566 -40.858051
1873159375 -2.8993735 -41.932323 -4.1629319 41.844135 -4.189661 41.355049 -2.9498796 -41.124592
1894093750 -2.9374285 -42.193943 -4.122663 41.535709 -4.1422906 41.025867 -2.9924448 -41.39389
1915028125 -2.9782093 -42.46349 -4.0763512 41.245342 -4.1058159 40.702755 -3.0364449 -41.619381
1935962500 -3.0191565 -42.711651 -4.0326495 40.944206 -4.0598845 40.482182 -3.0717521 -41.893093
1956896875 -3.0581102 -43.020809 -3.9818935 40.660305 -4.0076504 40.154915 -3.1163414 -42.175331
1977831250 -3.1049156 -43.284233 -3.9389458 40.298279 -3.9676166 39.813499 -3.157501 -42.428894
1998765625 -3.1397636 -43.512844 -3.9053853 39.997932 -3.9282875 39.511471 -3.197309 -42.692112
2019700000 -3.1734324 -43.787724 -3.8662329 39.730209 -3.892391 39.222073 -3.2380188 -42.903774
2040634375 -3.213769 -44.05405 -3.8245983 39.454685 -3.850163 38.970181 -3.2742975 -43.157135
2061568750 -3.2559295 -44.303177 -3.7823162 39.178043 -3.810446 38.66571 -3.3186631 -43.407589
2082503125 -3.3044529 -44.512802 -3.7479341 38.833958 -3.7734458 38.388901 -3.3594348 -43.649521
2103437500 -3.3404295 -44.785351 -3.7089849 38.562687 -3.7353668 38.091858 -3.400697 -43.884449
2124371875 -3.3776908 -45.055016 -3.6735129 38.296188 -3.7024949 37.786957 -3.4384811 -44.095806
2145306250 -3.4175715 -45.304047 -3.6370409 38.022358 -3.6663048 37.546436 -3.4717393 -44.349525
2166240625 -3.4534667 -45.5256 -3.6037352 37.763851 -3.631593 37.269035 -3.5152631 -44.570915
2187175000 -3.4940853 -45.792995 -3.5647926 37.514713 -3.5986052 37.00045 -3.5579538 -44.777847
2208109375 -3.5389304 -46.024139 -3.5312316 37.239857 -3.5675321 36.728718 -3.599756 -44.982868
2229043750 -3.5795519 -46.279297 -3.4956706 36.982479 -3.5355937 36.469601 -3.6362329 -45.212452
2249978125 -3.6204741 -46.510979 -3.4637344 36.700703 -3.501364 36.233818 -3.6703098 -45.465218
2270912500 -3.6532147 -46.762749 -3.430418 36.458145 -3.4668629 35.971046 -3.7095184 -45.684441
2291846875 -3.6921287 -46.991722 -3.4005589 36.194771 -3.4366145 35.69244 -3.7505679 -45.872803
2312781250 -3.7283263 -47.212799 -3.369597 35.980568 -3.4117668 35.464405 -3.7884192 -46.059666
2333715625 -3.7704744 -47.45792 -3.3329277 35.732277 -3.3785701 35.243263 -3.8296342 -46.309628
2354650000 -3.8122973 -47.68729 -3.3013227 35.46175 -3.3475935 34.992775 -3.8687303 -46.518711
2375584375 -3.8491447 -47.909157 -3.2728283 35.205177 -3.3178415 34.711937 -3.9080369 -46.738728
2396518750 -3.8834708 -48.118454 -3.2476056 34.958862 -3.2908463 34.466076 -3.9452007 -46.937149
2417453125 -3.9185891 -48.325397 -3.2195256 34.720718 -3.2641902 34.273121 -3.9759867 -47.111107
2438387500 -3.9544413 -48.519894 -3.1919734 34.493473 -3.2295439 34.034325 -4.0172992 -47.337654
2459321875 -3.9924827 -48.7397 -3.1589122 34.282104 -3.2049444 33.754719 -4.0632534 -47.500164
2480256250 -4.0315161 -48.935272 -3.1325197 34.036526 -3.1796944 33.543758 -4.0973129 -47.708553
2501190625 -4.0685501 -49.186771 -3.1019258 33.793018 -3.1532803 33.320999 -4.132019 -47.905785
2522125000 -4.1058946 -49.369293 -3.0796013 33.535339 -3.1255603 33.097023 -4.161974 -48.106262
2543059375 -4.1345773 -49.552727 -3.0567348 33.339096 -3.0974903 32.858006 -4.199584 -48.308155
2563993750 -4.1706748 -49.766705 -3.0293291 33.125313 -3.0747857 32.642162 -4.2366767 -48.441078
2584928125 -4.2170854 -49.916496 -3.0073862 32.870304 -3.0498371 32.41605 -4.2745223 -48.629742
2605862500 -4.2532558 -50.134514 -2.9787841 32.669712 -3.0284412 32.176685 -4.3183255 -48.811481
2626796875 -4.2898288 -50.344234 -2.953095 32.455513 -3.0056977 31.975279 -4.3497 -48.989586
2647731250 -4.325923 -50.579613 -2.9263124 32.212734 -2.9815338 31.779108 -4.3759246 -49.201061
2668665625 -4.3610325 -50.750225 -2.9077897 31.98399 -2.954922 31.549129 -4.4114914 -49.402306
2689600000 -4.3916059 -50.898712 -2.8892829 31.786356 -2.9330015 31.315256 -4.4515357 -49.558369
2710534375 -4.4194484 -51.103756 -2.8670461 31.629564 -2.9173503 31.107042 -4.490859 -49.675694
2731468750 -4.4624305 -51.364811 -2.8333113 31.422579 -2.8933568 30.948048 -4.5218616 -49.866371
2752403125 -4.5093174 -51.520897 -2.8111556 31.145061 -2.8693242 30.742094 -4.556046 -50.086906
2773337500 -4.5381722 -51.687462 -2.794812 30.941479 -2.8475852 30.493172 -4.5959439 -50.271851
2794271875 -4.5652838 -51.898487 -2.7731376 30.75094 -2.8305669 30.285011 -4.6252403 -50.398018
2815206250 -4.5969625 -52.083893 -2.7522819 30.542448 -2.8085892 30.123276 -4.6503792 -50.590057
2836140625 -4.6321583 -52.234547 -2.7343874 30.350527 -2.7848547 29.908518 -4.6948891 -50.763168
2857075000 -4.6665611 -52.411674 -2.7103608 30.181612 -2.7661028 29.715517 -4.7309599 -50.897324
2878009375 -4.7069731 -52.616871 -2.6834438 29.942734 -2.748445 29.467373 -4.7733006 -51.062653
2898943750 -4.7444263 -52.762135 -2.6699929 29.706055 -2.731967 29.291571 -4.8008537 -51.217392
2919878125 -4.7729254 -52.927723 -2.6547697 29.522537 -2.7127831 29.088655 -4.8278522 -51.391525
2940812500 -4.7983904 -53.097603 -2.6360435 29.362335 -2.6941249 28.849575 -4.8692846 -51.527927
2961746875 -4.8331165 -53.267979 -2.614192 29.163498 -2.6732051 28.697159 -4.8988299 -51.687641
2982681250 -4.8676481 -53.393589 -2.5988402 28.974892 -2.6567557 28.483479 -4.9404621 -51.816616
3003615625 -4.9071259 -53.577076 -2.5779417 28.782349 -2.6436036 28.343718 -4.9660954 -51.946869
3024550000 -4.9393501 -53.722691 -2.5617976 28.591288 -2.6184001 28.166294 -4.9949088 -52.204216
3045484375 -4.9641843 -53.906746 -2.5452919 28.423435 -2.6012211 27.923336 -5.0350986 -52.352123
3066418750 -4.997025 -54.125126 -2.5225875 28.233282 -2.5890718 27.765285 -5.0566382 -52.454887
3087353125 -5.0356278 -54.22887 -2.5097604 28.021824 -2.5738142 27.589455 -5.0878406 -52.590256
3108287500 -5.0666413 -54.329704 -2.4981911 27.85404 -2.5530524 27.449509 -5.1221809 -52.771523
3129221875 -5.0917139 -54.494587 -2.4819944 27.727629 -2.5358274 27.241255 -5.1635985 -52.9216
3150156250 -5.1269884 -54.70879 -2.4608045 27.549971 -2.5213337 27.067038 -5.1928935 -53.090145
3171090625 -5.1668048 -54.912601 -2.4399049 27.325069 -2.5054846 26.901457 -5.2196789 -53.264729
3192025000 -5.1960864 -55.04071 -2.4280632 27.12042 -2.4884822 26.707863 -5.2482023 -53.409416
3212959375 -5.2174759 -55.153141 -2.4188752 26.979931 -2.4758728 26.523491 -5.2817001 -53.528667
3233893750 -5.2476478 -55.300369 -2.4032166 26.823553 -2.4670792 26.370518 -5.3132429 -53.599949
3254828125 -5.2761469 -55.466473 -2.3857992 26.692995 -2.4445376 26.252924 -5.3413172 -53.826153
3275762500 -5.3126922 -55.677315 -2.3618634 26.517345 -2.4254839 26.029869 -5.3875432 -54.010113
3296696875 -5.3475318 -55.836662 -2.3471622 26.292347 -2.417649 25.844818 -5.4133916 -54.105671
3317631250 -5.3711653 -55.976643 -2.3388207 26.133554 -2.4037471 25.683832 -5.4381113 -54.272461
3338565625 -5.3997622 -56.091835 -2.3269997 25.964558 -2.3962755 25.525961 -5.4623704 -54.318737
3359500000 -5.4213786 -56.233322 -2.3107436 25.837238 -2.3770101 25.417894 -5.481842 -54.512283
3380434375 -5.4586434 -56.418781 -2.2890234 25.669352 -2.3605802 25.218798 -5.5318041 -54.660732
3401368750 -5.5053225 -56.435093 -2.2844548 25.428583 -2.349726 25.079811 -5.560153 -54.771603
3422303125 -5.5227785 -56.600929 -2.2742262 25.31341 -2.3331661 24.905075 -5.5901833 -54.986916
3443237500 -5.5468965 -56.824787 -2.25741 25.190157 -2.3266015 24.725103 -5.6224294 -55.075428
3464171875 -5.5814214 -56.998489 -2.2378128 25.002954 -2.3181388 24.602928 -5.637219 -55.13932
3485106250 -5.6167593 -57.054741 -2.2300215 24.815382 -2.302599 24.483688 -5.6574817 -55.293308
3506040625 -5.6438675 -57.114544 -2.2215152 24.670725 -2.2838099 24.34285 -5.6924224 -55.487362
3526975000 -5.6665869 -57.247234 -2.2119818 24.569855 -2.2681131 24.122496 -5.7453995 -55.610882
3547909375 -5.7010627 -57.473488 -2.1907172 24.420694 -2.2660832 23.941746 -5.7782764 -55.647854
3568843750 -5.7293444 -57.59613 -2.1831357 24.253378 -2.2528832 23.870642 -5.7817316 -55.847534
3589778125 -5.749795 -57.798344 -2.165941 24.140137 -2.2346425 23.704746 -5.8113194 -56.043961
3610712500 -5.7892675 -57.909637 -2.1515353 23.918232 -2.2259445 23.531279 -5.8430681 -56.084976
3631646875 -5.8122139 -57.952461 -2.1491556 23.785269 -2.216666 23.431803 -5.8606849 -56.17651
3652581250 -5.8356342 -58.084167 -2.1373711 23.685146 -2.1939979 23.294302 -5.8997612 -56.424316
3673515625 -5.8622398 -58.252232 -2.1222987 23.563187 -2.1815295 23.081085 -5.9479084 -56.524685
3694450000 -5.8887105 -58.542439 -2.0976477 23.406706 -2.1809835 22.894407 -5.9733624 -56.563625
3715384375 -5.9308705 -58.628044 -2.0935173 23.174782 -2.1722872 22.784258 -5.9884982 -56.718338
3736318750 -5.9453187 -58.708843 -2.0888054 23.072334 -2.1643655 22.667095 -6.0034585 -56.789543
3757253125 -5.9674511 -58.826851 -2.0740178 22.953478 -2.1418512 22.510126 -6.0406299 -57.003937
3778187500 -6.0014853 -58.918667 -2.0630839 22.780535 -2.1365328 22.307001 -6.0863347 -57.008232
3799121875 -6.0230484 -59.059391 -2.0539064 22.687187 -2.1305318 22.183554 -6.1107712 -57.103466
3820056250 -6.0643611 -59.259106 -2.0338094 22.506298 -2.1156192 22.062101 -6.1416879 -57.302242
3840990625 -6.0901742 -59.307941 -2.0342131 22.324762 -2.1134064 21.944088 -6.1506739 -57.330627
3861925000 -6.0992308 -59.490772 -2.0217741 22.250525 -2.0940812 21.844177 -6.1641331 -57.604183
3882859375 -6.1339421 -59.602444 -2.0079143 22.086315 -2.0830948 21.653868 -6.2105494 -57.67207
3903793750 -6.1661487 -59.627213 -2.0016515 21.935999 -2.0780575 21.535461 -6.232368 -57.677757
3924728125 -6.1955547 -59.709064 -1.9921429 21.789661 -2.066385 21.420042 -6.2569757 -57.835323
3945662500 -6.2148657 -59.809097 -1.9889492 21.691996 -2.0566459 21.278715 -6.2865219 -57.963894
3966596875 -6.2393246 -60.041962 -1.9709659 21.575079 -2.0469265 21.132105 -6.3108277 -58.118847
3987531250 -6.2748461 -60.177773 -1.9591575 21.377821 -2.038336 21.001705 -6.3356538 -58.241207
4008465625 -6.2922683 -60.164547 -1.9651563 21.259115 -2.0291836 20.885582 -6.3578162 -58.293499
4029400000 -6.3054729 -60.324375 -1.9501928 21.201181 -2.0235541 20.719042 -6.3859744 -58.311729
4050334375 -6.3425941 -60.433651 -1.9368535 21.046724 -2.0112817 20.592516 -6.4171844 -58.464588
4071268750 -6.36549 -60.543774 -1.9292053 20.925076 -2.001873 20.493263 -6.4397063 -58.583382
4092203125 -6.3991919 -60.695274 -1.9209899 20.755604 -1.9877945 20.359068 -6.4641829 -58.779564
4113137500 -6.4128227 -60.837963 -1.9154216 20.657133 -1.980984 20.199303 -6.4938264 -58.852291
4134071875 -6.4283504 -61.013248 -1.9031886 20.564306 -1.9741899 20.109819 -6.5050268 -58.943878
4155006250 -6.4534035 -61.095135 -1.8942904 20.436241 -1.9620461 19.960024 -6.5380144 -59.041332
4175940625 -6.4787683 -61.212578 -1.8813375 20.333744 -1.9607948 19.842131 -6.5590887 -59.030594
4196875000 -6.5192194 -61.361034 -1.8639164 20.142057 -1.9487324 19.741014 -6.5795612 -59.232746
4217809375 -6.5369821 -61.368874 -1.8702656 20.020611 -1.9374875 19.573921 -6.6212692 -59.336273
