!Keysight Technologies,N5227A,US51270248,A.10.65.08
!Date: Tuesday, June 11, 2024 08:19:49
!Correction: S11(Full 2 Port(1,4)) 
!S41(Full 2 Port(1,4)) 
!S14(Full 2 Port(1,4)) 
!S44(Full 2 Port(1,4)) 
!S2P File: Measurements: S11, S41, S14, S44:
# Hz S  dB   R 50
10000000 -0.77197695 179.54985 -76.560226 101.50339 -70.327049 101.6895 -0.0023658406 -0.33452964
30934375 -0.79374373 179.65051 -65.22673 87.277939 -64.667435 90.106087 0.0018371579 -1.0045174
51868750 -0.78844273 179.47852 -59.71003 89.51046 -60.010048 89.961533 -0.0013720001 -1.6547211
72803125 -0.78535521 179.26978 -55.649517 89.368843 -57.148232 90.644669 -0.0046662237 -2.3025389
93737500 -0.77991545 179.05281 -52.014977 89.47187 -54.983948 91.093246 -0.010626312 -2.9257679
114671875 -0.77936649 178.84526 -50.249973 89.539726 -53.185375 91.661476 -0.016463792 -3.5562611
135606250 -0.78244853 178.67871 -48.190861 89.527367 -51.764027 92.27166 -0.020369856 -4.2020879
156540625 -0.78177905 178.53787 -46.054176 89.281258 -50.579548 93.009285 -0.024315946 -4.8573523
177475000 -0.78077358 178.34067 -44.8764 89.495651 -49.489273 93.37722 -0.029782293 -5.4854283
198409375 -0.78481275 178.11278 -43.785912 89.387878 -48.572605 93.926338 -0.033481978 -6.0874491
219343750 -0.7894575 177.90808 -42.641304 89.22654 -47.653545 94.417656 -0.037119012 -6.7096329
240278125 -0.79139256 177.73538 -41.723038 89.172127 -46.845142 94.957375 -0.044263072 -7.354012
261212500 -0.78929865 177.5686 -40.649788 88.888275 -46.133999 95.531822 -0.052723102 -7.9956927
282146875 -0.79284424 177.39355 -40.105892 89.035889 -45.447803 95.861221 -0.058638629 -8.627059
303081250 -0.79921776 177.22171 -39.472347 89.019951 -44.7705 96.295815 -0.063825332 -9.2556829
324015625 -0.79935336 177.05859 -38.475079 88.53009 -44.207973 96.398003 -0.069931984 -9.866415
344950000 -0.79750907 176.85466 -38.186432 88.81218 -43.650478 97.188087 -0.075150557 -10.467178
365884375 -0.79778349 176.66684 -37.850964 89.04612 -43.089828 97.603249 -0.082373276 -11.085172
386818750 -0.79711038 176.49889 -37.334404 89.052307 -42.564621 97.939484 -0.091738991 -11.71684
407753125 -0.79628414 176.33478 -36.877743 89.10965 -42.024174 98.299217 -0.10254596 -12.327056
428687500 -0.79594868 176.15045 -36.486721 89.164787 -41.560669 98.570969 -0.10501033 -12.937033
449621875 -0.80379438 175.95981 -36.135876 89.207497 -41.126137 98.963562 -0.11165192 -13.565783
470556250 -0.80380768 175.77707 -35.711525 89.221672 -40.717815 99.343269 -0.12041426 -14.167672
491490625 -0.80674958 175.58992 -35.346462 89.278458 -40.297924 99.715096 -0.12903745 -14.760896
512425000 -0.80858439 175.40242 -34.900528 89.110741 -39.939293 100.25135 -0.13690194 -15.36415
533359375 -0.80829167 175.2216 -34.552204 89.108719 -39.515984 100.47166 -0.14584655 -15.981748
554293750 -0.81058598 175.05872 -34.174068 89.058311 -39.16452 100.90916 -0.15581818 -16.593424
575228125 -0.81239218 174.88188 -33.925251 89.186462 -38.779083 101.23203 -0.16357332 -17.191628
596162500 -0.81338149 174.69238 -33.448101 88.871834 -38.438293 101.4619 -0.17072228 -17.789862
617096875 -0.81576514 174.5023 -33.325718 89.153877 -38.075428 101.68764 -0.18041158 -18.391655
638031250 -0.81788278 174.32413 -33.005928 89.100792 -37.733334 101.9019 -0.19195931 -18.984903
658965625 -0.81894624 174.15027 -32.529572 88.736961 -37.444145 102.38658 -0.20175484 -19.577734
679900000 -0.81955916 173.97809 -31.471802 87.100464 -37.122837 102.59824 -0.21052127 -20.182285
700834375 -0.82090652 173.80589 -31.284872 87.222443 -36.802147 102.78815 -0.2217268 -20.781048
721768750 -0.82277119 173.62651 -31.083323 87.346245 -36.499893 103.28648 -0.23324578 -21.362579
742703125 -0.82252449 173.43831 -30.774757 87.159531 -36.210777 103.53677 -0.24169835 -21.926865
763637500 -0.82328725 173.25558 -30.503435 87.028526 -35.933319 103.69599 -0.24935016 -22.517012
784571875 -0.82361084 173.08397 -30.419546 87.333626 -35.649014 103.8427 -0.26021403 -23.109661
805506250 -0.82682884 172.9167 -29.751251 86.298759 -35.39769 104.36756 -0.27034059 -23.688124
826440625 -0.82911736 172.73944 -27.881445 82.823959 -35.085754 104.7802 -0.2800464 -24.274406
847375000 -0.82831305 172.55338 -27.69441 82.779129 -34.811211 104.95022 -0.29276317 -24.853796
868309375 -0.83176947 172.36974 -27.071915 81.801788 -34.551331 105.02146 -0.30623513 -25.412386
889243750 -0.8273856 172.177 -27.125767 82.161194 -34.274994 105.16866 -0.31582701 -25.975878
910178125 -0.830643 171.99586 -26.762964 81.624496 -34.025372 105.35934 -0.32544136 -26.556376
931112500 -0.8318705 171.83525 -26.47254 81.274261 -33.79224 105.4929 -0.33631423 -27.130495
952046875 -0.83332425 171.66228 -24.941704 78.358032 -33.55769 105.81496 -0.34656677 -27.693399
972981250 -0.83719128 171.47055 -24.935102 78.540939 -33.278358 105.87092 -0.35796449 -28.25786
993915625 -0.83757085 171.27838 -24.8069 78.394379 -33.056473 106.14605 -0.37053829 -28.823265
1014850000 -0.8404671 171.1058 -24.416754 77.810059 -32.80518 106.13335 -0.38288134 -29.385536
1035784375 -0.83867741 170.93169 -24.612169 78.409004 -32.529961 105.86397 -0.39513528 -29.948999
1056718750 -0.84957236 170.75226 -24.380043 78.040031 -32.314709 106.23191 -0.40581477 -30.513672
1077653125 -0.86589098 170.58136 -24.471119 78.423302 -32.092922 106.38207 -0.41555923 -31.071251
1098587500 -0.86663061 170.41006 -24.055382 77.645866 -31.879679 106.44336 -0.42582208 -31.610399
1119521875 -0.86694777 170.2224 -24.079977 77.890129 -31.648331 106.4254 -0.43853271 -32.157497
1140456250 -0.8622365 170.02565 -23.905218 77.651001 -31.450726 106.64128 -0.45234916 -32.707367
1161390625 -0.8617276 169.85066 -23.581308 77.014328 -31.244228 106.84657 -0.46456262 -33.253628
1182325000 -0.86069685 169.68291 -22.508423 74.62191 -31.007439 106.72489 -0.47442243 -33.805378
1203259375 -0.86136597 169.5079 -22.497114 74.685852 -30.815155 106.74108 -0.48405853 -34.359299
1224193750 -0.87926286 169.32895 -22.563805 74.986679 -30.626003 106.8456 -0.49446335 -34.904945
1245128125 -0.87437981 169.14243 -22.466085 75.051147 -30.390112 106.55019 -0.50868696 -35.429394
1266062500 -0.87548751 168.95528 -21.829475 73.602463 -30.158148 106.30169 -0.52282542 -35.960499
1286996875 -0.86866736 168.76599 -21.925371 74.034378 -29.968704 106.37673 -0.53666896 -36.50391
1307931250 -0.87066233 168.58589 -21.780375 73.689369 -29.795116 106.48265 -0.54963183 -37.05014
1328865625 -0.86982524 168.41898 -21.311415 72.609642 -29.630177 106.67626 -0.56038988 -37.589787
1349800000 -0.87332499 168.25385 -21.358164 72.854515 -29.433935 106.52749 -0.57092017 -38.115234
1370734375 -0.87400472 168.06607 -21.398621 73.011436 -29.286293 106.7129 -0.58281338 -38.638489
1391668750 -0.88046068 167.86865 -21.346569 73.067688 -28.976891 105.7989 -0.59933323 -39.153584
1412603125 -0.87648129 167.67946 -20.589922 71.167763 -28.783743 105.66486 -0.61316621 -39.670689
1433537500 -0.87422979 167.5041 -20.820194 71.937302 -28.602896 105.62726 -0.62638426 -40.205368
1454471875 -0.87567556 167.33348 -20.827383 72.066765 -28.476843 106.0545 -0.63677657 -40.742527
1475406250 -0.88204747 167.16673 -20.848431 72.156418 -28.305321 105.86288 -0.64967412 -41.260715
1496340625 -0.88814402 166.99446 -20.847704 72.317513 -28.180305 106.27798 -0.65984207 -41.764301
1517275000 -0.88777047 166.8045 -20.733118 72.11129 -28.014032 106.27183 -0.67242622 -42.259342
1538209375 -0.89542824 166.59946 -20.983322 72.950592 -27.843559 106.27903 -0.68628639 -42.7686
1559143750 -0.89507109 166.41092 -20.876715 72.896851 -27.662683 106.08493 -0.7005657 -43.280621
1580078125 -0.8970201 166.24216 -20.850407 72.877396 -27.535446 106.29502 -0.7109921 -43.803669
1601012500 -0.8937124 166.07532 -20.683926 72.474953 -27.373898 106.29428 -0.72143197 -44.325798
1621946875 -0.89826947 165.90123 -20.777386 72.883064 -27.225986 106.22318 -0.73493707 -44.827686
1642881250 -0.89932209 165.71419 -20.738756 72.883476 -27.061327 106.04394 -0.74895781 -45.304253
1663815625 -0.90160537 165.52255 -20.651705 72.855141 -26.927351 106.2159 -0.76091421 -45.789093
1684750000 -0.90163672 165.32802 -20.555868 72.697701 -26.772247 106.16364 -0.77401066 -46.290981
1705684375 -0.90462375 165.15421 -20.53039 72.78492 -26.62393 106.09898 -0.78770959 -46.803574
1726618750 -0.9098562 164.99646 -20.454792 72.567299 -26.474836 105.97143 -0.80077243 -47.302284
1747553125 -0.91155916 164.83664 -20.340462 72.314209 -26.338427 105.97002 -0.81304175 -47.792473
1768487500 -0.91511434 164.65906 -20.295412 72.437973 -26.204672 105.98088 -0.82569593 -48.269207
1789421875 -0.92486525 164.47528 -20.224852 72.369484 -26.055536 105.84884 -0.83988065 -48.734631
1810356250 -0.91959965 164.29636 -20.146584 72.223656 -25.918427 105.87077 -0.85338062 -49.216061
1831290625 -0.92035979 164.12587 -20.063778 72.108871 -25.774616 105.90233 -0.86495548 -49.708736
1852225000 -0.91861445 163.96849 -20.008806 72.04007 -25.634558 105.75955 -0.87813932 -50.198002
1873159375 -0.92643845 163.81303 -19.946804 72.141968 -25.499968 105.73946 -0.89023417 -50.671009
1894093750 -0.92489713 163.64473 -19.830645 71.896225 -25.354053 105.57408 -0.90312237 -51.136093
1915028125 -0.92476064 163.4529 -19.757401 71.761909 -25.24622 105.55904 -0.91641206 -51.605858
1935962500 -0.93190414 163.26945 -19.699959 71.702774 -25.09561 105.43916 -0.93095863 -52.0681
1956896875 -0.93281293 163.09711 -19.674301 71.715584 -24.957649 105.35512 -0.94181883 -52.537457
1977831250 -0.93597537 162.95044 -19.576189 71.754295 -24.837294 105.25665 -0.95202279 -53.017033
1998765625 -0.93612063 162.79619 -19.469862 71.423645 -24.725229 105.13015 -0.9637602 -53.48938
2019700000 -0.93758011 162.62489 -19.434248 71.349823 -24.613916 105.1134 -0.97620142 -53.94519
2040634375 -0.93957186 162.44606 -19.361502 71.21917 -24.467659 104.93412 -0.98968714 -54.39027
2061568750 -0.93795198 162.25911 -19.157763 70.593796 -24.354488 104.88801 -1.0023749 -54.850052
2082503125 -0.93976068 162.08174 -19.170412 70.847298 -24.244364 104.89339 -1.0140278 -55.318535
2103437500 -0.94188595 161.91566 -19.141594 70.946999 -24.127504 104.78562 -1.0245076 -55.776371
2124371875 -0.93938661 161.75516 -19.114408 70.9757 -24.014631 104.78839 -1.0346612 -56.23785
2145306250 -0.94292045 161.58026 -19.045321 70.886185 -23.886051 104.687 -1.047351 -56.684452
2166240625 -0.93770164 161.3828 -18.967657 70.698303 -23.773254 104.64225 -1.0614049 -57.116043
2187175000 -0.93941355 161.19318 -18.948185 70.801857 -23.661373 104.57475 -1.0737358 -57.551762
2208109375 -0.93672466 161.01144 -18.889782 70.806274 -23.539457 104.31042 -1.0871528 -58.003716
2229043750 -0.93867874 160.82515 -18.793577 70.530724 -23.431276 104.45949 -1.0990545 -58.466339
2249978125 -0.93872333 160.64201 -18.691332 70.368134 -23.306858 104.3102 -1.1107094 -58.908054
2270912500 -0.94244528 160.46454 -18.651155 70.35363 -23.188694 104.18411 -1.1212453 -59.337345
2291846875 -0.94550163 160.28383 -18.653349 70.605774 -23.083658 104.05258 -1.1334299 -59.767136
2312781250 -0.94500953 160.09238 -18.482643 69.894669 -22.978807 103.85887 -1.1485496 -60.194286
2333715625 -0.94670266 159.89888 -18.471064 69.98539 -22.876034 103.91659 -1.160692 -60.635471
2354650000 -0.94762033 159.73283 -18.447004 70.212074 -22.776514 103.88808 -1.1724123 -61.084785
2375584375 -0.95210701 159.57063 -18.394436 70.235092 -22.660122 103.87173 -1.1832081 -61.525288
2396518750 -0.95060951 159.39415 -18.285629 69.931145 -22.547943 103.6705 -1.1937428 -61.945309
2417453125 -0.95553565 159.21245 -18.249546 69.983665 -22.447838 103.74052 -1.2042435 -62.357128
2438387500 -0.96010578 159.01709 -18.179836 69.828552 -22.319885 103.60512 -1.2160981 -62.77116
2459321875 -0.96156704 158.81575 -18.158697 69.95462 -22.205908 103.14539 -1.2303489 -63.192413
2480256250 -0.96130633 158.63229 -18.074659 69.736557 -22.1201 103.23186 -1.2402917 -63.628498
2501190625 -0.96650559 158.4649 -18.046097 69.777069 -22.017979 103.07524 -1.2498375 -64.066284
2522125000 -0.96649331 158.29263 -17.957615 69.760376 -21.911446 103.12343 -1.2601541 -64.48053
2543059375 -0.97277933 158.10274 -17.898558 69.566566 -21.794338 102.89257 -1.2701221 -64.877815
2563993750 -0.97134608 157.90639 -17.799042 69.185402 -21.707258 102.78437 -1.2803466 -65.275742
2584928125 -0.97259152 157.71487 -17.759569 69.174164 -21.599928 102.70031 -1.2924397 -65.692986
2605862500 -0.97390854 157.52356 -17.744469 69.326187 -21.505135 102.4215 -1.3063093 -66.117729
2626796875 -0.97853619 157.34058 -17.675499 69.140831 -21.415485 102.39127 -1.3174007 -66.542412
2647731250 -1.0118005 157.18456 -17.627697 69.124451 -21.317162 102.29518 -1.326615 -66.959167
2668665625 -1.0366042 157.02057 -17.484259 68.718193 -21.213369 102.29337 -1.3363757 -67.363152
2689600000 -1.0535952 156.82687 -17.443775 68.660149 -21.109312 102.02116 -1.3475077 -67.749733
2710534375 -1.0407658 156.62495 -17.396244 68.417145 -21.036926 101.83517 -1.360303 -68.140129
2731468750 -1.0343591 156.44009 -17.369265 68.252007 -20.952879 101.89861 -1.3702481 -68.56105
2752403125 -1.0349636 156.2644 -17.325199 68.53611 -20.847387 101.77241 -1.3819497 -68.976028
2773337500 -1.0362082 156.09276 -17.274038 68.547638 -20.736889 101.3866 -1.393573 -69.383293
2794271875 -1.04549 155.93127 -17.241613 68.533363 -20.667664 101.33044 -1.4026161 -69.790787
2815206250 -1.0457903 155.75635 -17.180014 68.370308 -20.567432 101.32541 -1.4147072 -70.17202
2836140625 -1.0520192 155.56564 -17.039692 67.83593 -20.464397 101.24573 -1.4248093 -70.550674
2857075000 -1.0484091 155.36966 -17.070627 68.173866 -20.378727 101.02596 -1.4356388 -70.942932
2878009375 -1.0459629 155.19969 -17.023001 68.159561 -20.280565 100.7187 -1.4469966 -71.357788
2898943750 -1.0481869 155.04144 -16.985653 68.366203 -20.218109 100.77156 -1.4566727 -71.771049
2919878125 -1.0475279 154.85622 -16.873371 67.921867 -20.11577 100.7313 -1.4667959 -72.153595
2940812500 -1.0522894 154.66345 -16.771996 67.429871 -20.016901 100.55656 -1.4755305 -72.524437
2961746875 -1.0617753 154.48172 -16.827084 68.113083 -19.93058 100.38389 -1.4869957 -72.896355
2982681250 -1.0788913 154.29128 -16.761896 67.961075 -19.840208 100.10059 -1.4990566 -73.275139
3003615625 -1.0671586 154.0914 -16.718691 67.885315 -19.775333 100.02751 -1.5088065 -73.663033
3024550000 -1.0635456 153.90607 -16.642786 67.814262 -19.674908 100.03202 -1.5169127 -74.063461
3045484375 -1.0650598 153.73807 -16.61891 67.665878 -19.584232 99.620552 -1.5270944 -74.452133
3066418750 -1.0673928 153.56401 -16.616291 67.864922 -19.519093 99.546661 -1.5372322 -74.823715
3087353125 -1.0698509 153.36464 -16.352175 66.425293 -19.419689 99.237701 -1.5506099 -75.164658
3108287500 -1.0712174 153.15912 -16.345873 66.841888 -19.338165 99.245918 -1.5596817 -75.533386
3129221875 -1.0715072 152.96049 -16.163675 65.736145 -19.255213 99.059792 -1.5710118 -75.918785
3150156250 -1.0752227 152.78064 -16.209108 65.94014 -19.186716 98.903198 -1.5799837 -76.308067
3171090625 -1.0808002 152.61263 -16.173775 65.957153 -19.110014 98.80909 -1.5871849 -76.69474
3192025000 -1.0801036 152.44864 -16.149179 66.364677 -19.020365 98.448914 -1.5988066 -77.05275
3212959375 -1.0821538 152.26814 -16.134306 66.431053 -18.949604 98.329102 -1.6092862 -77.404831
3233893750 -1.0833166 152.0567 -16.058353 66.053696 -18.884876 98.102158 -1.6218604 -77.749771
3254828125 -1.0883216 151.85202 -16.016724 65.916443 -18.794447 98.11982 -1.6327531 -78.115417
3275762500 -1.0886936 151.66338 -16.010624 65.862755 -18.708321 97.907112 -1.6410608 -78.502304
3296696875 -1.0917455 151.50191 -15.771519 64.45063 -18.650688 97.684837 -1.6484437 -78.877022
3317631250 -1.0957403 151.32997 -15.741084 64.557007 -18.578068 97.589966 -1.6557605 -79.235703
3338565625 -1.1076714 151.14676 -15.736799 64.808441 -18.531096 97.55648 -1.6644958 -79.581711
3359500000 -1.1105559 150.93303 -15.74339 64.942108 -18.440849 97.543869 -1.6757562 -79.922508
3380434375 -1.1133999 150.71619 -15.754736 65.159683 -18.352716 97.291328 -1.6854006 -80.277626
3401368750 -1.117358 150.53435 -15.607605 64.725243 -18.302086 97.214531 -1.6949919 -80.649551
3422303125 -1.1150136 150.36537 -15.494477 64.068344 -18.211792 97.039566 -1.7038139 -81.012878
3443237500 -1.1209229 150.20105 -15.530299 64.230827 -18.162302 96.769814 -1.7106994 -81.366531
3464171875 -1.1245838 150.01845 -15.556411 64.665382 -18.104582 96.749084 -1.7186912 -81.705727
3485106250 -1.1286533 149.81831 -14.992613 60.553608 -18.029972 96.735924 -1.7281286 -82.035576
3506040625 -1.1333035 149.62024 -14.887312 60.315968 -17.943487 96.71669 -1.7391275 -82.373405
3526975000 -1.1345395 149.42825 -14.920076 60.476833 -17.847071 96.377525 -1.749846 -82.713394
3547909375 -1.1347859 149.26653 -14.965131 60.781937 -17.811869 96.143372 -1.7574496 -83.087845
3568843750 -1.1382627 149.1209 -14.851282 60.380356 -17.745888 96.037857 -1.7655853 -83.432022
3589778125 -1.1387086 148.95447 -14.929256 60.796749 -17.656433 96.022339 -1.7715973 -83.764229
3610712500 -1.1467675 148.77251 -15.008801 61.939346 -17.593777 95.766777 -1.7792991 -84.087845
3631646875 -1.1456176 148.56885 -14.929237 61.9939 -17.534079 95.711617 -1.7913657 -84.405212
3652581250 -1.1600058 148.37027 -14.86043 61.497467 -17.437904 95.694809 -1.8017129 -84.747658
3673515625 -1.155542 148.17874 -14.938369 61.970764 -17.361036 95.316223 -1.8087171 -85.109138
3694450000 -1.1556199 148.02837 -14.825107 60.789471 -17.319838 95.143387 -1.8190489 -85.461609
3715384375 -1.1596184 147.87773 -14.755923 60.92001 -17.263248 95.057007 -1.8233144 -85.792435
3736318750 -1.1648459 147.69917 -14.500069 59.236584 -17.200897 94.972084 -1.8322046 -86.092003
3757253125 -1.1794486 147.50154 -14.62708 60.18652 -17.100855 95.00106 -1.8399512 -86.410042
3778187500 -1.1796299 147.30043 -14.581709 60.217026 -17.033579 94.515274 -1.8495942 -86.745758
3799121875 -1.1775132 147.11737 -14.617353 60.579044 -16.982042 94.374275 -1.8615457 -87.07885
3820056250 -1.1852195 146.95828 -14.658789 60.976643 -16.915424 94.184189 -1.8668392 -87.426353
3840990625 -1.2028931 146.79999 -14.553879 60.898842 -16.887487 94.084892 -1.8744556 -87.751945
3861925000 -1.2113527 146.6235 -14.528245 60.546989 -16.791935 94.267387 -1.8802835 -88.053299
3882859375 -1.206021 146.41106 -14.59467 61.525013 -16.701303 93.778053 -1.88775 -88.355202
3903793750 -1.2036366 146.19484 -14.52755 61.34803 -16.671482 93.617638 -1.896823 -88.677368
3924728125 -1.2062536 145.99773 -14.520954 61.790127 -16.608305 93.562614 -1.9071715 -89.014023
3945662500 -1.2025546 145.81239 -14.469181 61.525997 -16.545052 93.484131 -1.9149381 -89.355415
3966596875 -1.2049861 145.63583 -14.487493 61.494904 -16.472292 93.356201 -1.9216052 -89.670403
3987531250 -1.2081107 145.45897 -14.381883 61.225693 -16.407375 93.086754 -1.9267954 -89.970764
4008465625 -1.2149107 145.27434 -14.332598 61.413757 -16.355055 92.953247 -1.9333034 -90.259644
4029400000 -1.2226665 145.07127 -14.371343 61.673084 -16.286631 92.838875 -1.941976 -90.561279
4050334375 -1.2220746 144.86732 -14.169741 59.698307 -16.220585 92.613274 -1.9504073 -90.888977
4071268750 -1.2206128 144.67822 -14.077054 58.911331 -16.177361 92.504868 -1.9583743 -91.216949
4092203125 -1.2224871 144.50278 -14.034964 58.750862 -16.097458 92.441383 -1.9668213 -91.528053
4113137500 -1.2261978 144.34494 -14.043454 59.377193 -16.02968 92.095352 -1.9717538 -91.818222
4134071875 -1.2278925 144.16917 -14.035886 59.238838 -15.987431 92.011719 -1.976442 -92.114296
4155006250 -1.2327323 143.974 -14.012655 59.309578 -15.911086 91.782089 -1.9836571 -92.402657
4175940625 -1.2380421 143.7729 -14.030309 59.445328 -15.888385 91.457344 -1.9958254 -92.706627
4196875000 -1.2407843 143.59026 -14.020208 59.867851 -15.808829 91.415916 -2.0070925 -93.005524
4217809375 -1.248946 143.42148 -13.925428 59.603905 -15.733913 91.117325 -2.0096512 -93.321068
4238743750 -1.2505481 143.24582 -13.905509 59.175961 -15.710554 91.042313 -2.0171626 -93.625031
