!Keysight Technologies,N5227A,US51270248,A.10.65.08
!Date: Tuesday, June 11, 2024 06:30:20
!Correction: S11(Full 2 Port(1,4)) 
!S41(Full 2 Port(1,4)) 
!S14(Full 2 Port(1,4)) 
!S44(Full 2 Port(1,4)) 
!S2P File: Measurements: S11, S41, S14, S44:
# Hz S  dB   R 50
10000000 -33.315994 -0.33734903 -0.18811443 -0.070029236 -0.19359547 -0.078655683 -33.073582 2.0486667
30934375 -33.349236 -2.4353905 -0.18536177 -0.12338775 -0.19919463 -0.10630404 -32.678192 -2.3589077
51868750 -33.356892 -4.1335092 -0.18774056 -0.19278882 -0.19603005 -0.17356312 -32.878777 -4.3868384
72803125 -33.335648 -5.3581624 -0.18918684 -0.25640297 -0.19483069 -0.25093699 -32.982624 -5.3184781
93737500 -33.306526 -6.3954782 -0.18919836 -0.32407862 -0.19461162 -0.32571262 -32.99585 -6.0035253
114671875 -33.23465 -7.4286408 -0.19029927 -0.39602995 -0.19330853 -0.39932534 -32.994236 -7.1817493
135606250 -33.211006 -8.8298531 -0.18976794 -0.46995214 -0.19353028 -0.47448087 -32.945366 -8.7502642
156540625 -33.182076 -10.257067 -0.19030513 -0.54517418 -0.19363733 -0.5483501 -32.935562 -10.345927
177475000 -33.173164 -11.428363 -0.19020441 -0.61785734 -0.19379228 -0.62581807 -32.925076 -11.339235
198409375 -33.10183 -12.307797 -0.19092476 -0.69058126 -0.1940839 -0.69697315 -32.847382 -12.194633
219343750 -33.034328 -13.449379 -0.19102359 -0.76356471 -0.19394453 -0.77350885 -32.799534 -13.219938
240278125 -33.118645 -14.757865 -0.18846829 -0.83979291 -0.19508618 -0.84896576 -32.720058 -14.420726
261212500 -33.014614 -15.998222 -0.18980984 -0.91606468 -0.19506691 -0.91747999 -32.719116 -15.968123
282146875 -32.941101 -17.320068 -0.19070399 -0.98560423 -0.19516329 -0.99552113 -32.702602 -17.230028
303081250 -32.898552 -18.415789 -0.19108683 -1.0587342 -0.19576544 -1.0706865 -32.605469 -18.355265
324015625 -32.803974 -19.388208 -0.19132484 -1.1320306 -0.19622229 -1.1422126 -32.535812 -19.458351
344950000 -32.741669 -20.433634 -0.19124693 -1.2038318 -0.19671977 -1.2158583 -32.428997 -20.443501
365884375 -32.7202 -21.641867 -0.19095689 -1.2812504 -0.19757742 -1.2854756 -32.360657 -21.497299
386818750 -32.615543 -22.743698 -0.19226167 -1.3534458 -0.19780631 -1.3562465 -32.302204 -22.850897
407753125 -32.552551 -24.001482 -0.19295444 -1.4238448 -0.19767685 -1.4305776 -32.242561 -24.178598
428687500 -32.449802 -25.104073 -0.19383149 -1.4975138 -0.19822262 -1.5046397 -32.180134 -25.279665
449621875 -32.346569 -26.23764 -0.19425863 -1.5679477 -0.19942853 -1.5787039 -32.059509 -26.161043
470556250 -32.233601 -27.145218 -0.19486199 -1.6421176 -0.19967346 -1.6483073 -31.950914 -27.183825
491490625 -32.114254 -28.18157 -0.19547322 -1.7125301 -0.20031041 -1.7215457 -31.85638 -28.231401
512425000 -32.03233 -28.909975 -0.1962871 -1.7863021 -0.20091811 -1.7955203 -31.79211 -29.110687
533359375 -31.919277 -29.915176 -0.19718488 -1.8578876 -0.20133801 -1.8644611 -31.701094 -30.186632
554293750 -31.816826 -31.173613 -0.19789343 -1.9268581 -0.20192093 -1.9407372 -31.595911 -31.257336
575228125 -31.743811 -32.210594 -0.19811459 -2.0000451 -0.202842 -2.0131774 -31.491135 -32.285156
596162500 -31.620314 -33.148735 -0.19934514 -2.0716834 -0.20336953 -2.0834284 -31.375908 -33.415253
617096875 -31.517836 -34.145374 -0.19947395 -2.1437042 -0.20435265 -2.1568012 -31.28981 -34.189739
638031250 -31.436172 -35.079159 -0.20062274 -2.2154827 -0.20587285 -2.2279396 -31.1877 -35.076946
658965625 -31.342798 -35.818188 -0.20067865 -2.2868001 -0.20695694 -2.2957108 -31.077738 -35.915607
679900000 -31.179771 -36.604496 -0.20214429 -2.3609483 -0.20743202 -2.3660338 -30.953108 -37.050983
700834375 -31.086681 -37.726967 -0.20465729 -2.4244676 -0.20773388 -2.4367571 -30.890051 -38.172997
721768750 -31.023806 -38.597534 -0.20440145 -2.4925463 -0.20870446 -2.5089438 -30.815609 -38.93668
742703125 -30.927582 -39.230099 -0.20510514 -2.5623791 -0.20998944 -2.5723538 -30.674026 -39.581562
763637500 -30.823032 -40.046101 -0.20546041 -2.6359024 -0.20979802 -2.6434441 -30.540871 -40.535717
784571875 -30.737883 -40.828953 -0.20621762 -2.7083797 -0.21048714 -2.7164879 -30.444147 -41.479568
805506250 -30.639952 -41.848385 -0.20700234 -2.7762587 -0.21131486 -2.7874253 -30.35466 -42.224033
826440625 -30.575413 -42.656822 -0.20806226 -2.8423729 -0.21339324 -2.8558302 -30.292992 -43.043961
847375000 -30.490362 -43.126514 -0.20879312 -2.9093401 -0.21400349 -2.9139273 -30.19294 -43.700935
868309375 -30.358883 -43.796947 -0.20994718 -2.9697704 -0.213937 -2.9817271 -30.109434 -44.454529
889243750 -30.245811 -44.535812 -0.20955852 -3.0401003 -0.21369961 -3.0550313 -30.001253 -45.051235
910178125 -30.143478 -45.186745 -0.20930643 -3.1123726 -0.21501344 -3.1223822 -29.882019 -45.614471
931112500 -30.000195 -45.698311 -0.20984501 -3.1796288 -0.21506158 -3.1887398 -29.754822 -46.31723
952046875 -29.874874 -46.322952 -0.21077205 -3.2499397 -0.21487239 -3.2622132 -29.662821 -46.981468
972981250 -29.766172 -47.094849 -0.21088231 -3.3136587 -0.21596611 -3.3324878 -29.569094 -47.621288
993915625 -29.683975 -47.64748 -0.21070465 -3.3874366 -0.21710178 -3.4009368 -29.461773 -48.226574
1014850000 -29.534533 -48.27092 -0.21246846 -3.4636316 -0.21739717 -3.4697478 -29.330906 -48.97163
1035784375 -29.430191 -49.235935 -0.21354824 -3.520668 -0.21785842 -3.5383143 -29.223391 -49.776196
1056718750 -29.344055 -49.773739 -0.21282016 -3.5917976 -0.21863827 -3.6089327 -29.128817 -50.265388
1077653125 -29.220861 -50.179031 -0.21332867 -3.6619787 -0.21917517 -3.6726778 -28.99778 -50.586617
1098587500 -29.102459 -50.65984 -0.21433224 -3.7349429 -0.21865351 -3.7424083 -28.87328 -51.20034
1119521875 -28.996922 -51.221626 -0.21471521 -3.8032043 -0.21954094 -3.8113801 -28.782711 -51.83968
1140456250 -28.887144 -51.815716 -0.21545838 -3.8688104 -0.22026147 -3.8817682 -28.685427 -52.413013
1161390625 -28.793194 -52.457996 -0.21569456 -3.9369109 -0.22089134 -3.9501233 -28.579254 -52.949425
1182325000 -28.696661 -52.947956 -0.21600005 -4.0080566 -0.22115521 -4.0170555 -28.446819 -53.478764
1203259375 -28.587641 -53.415169 -0.21663643 -4.0806828 -0.22103347 -4.0856638 -28.321857 -54.042789
1224193750 -28.469446 -53.907772 -0.21742879 -4.1537476 -0.22110994 -4.157959 -28.22086 -54.533913
1245128125 -28.369057 -54.488827 -0.21786679 -4.2190371 -0.22199914 -4.2280207 -28.122986 -54.992298
1266062500 -28.285501 -54.940552 -0.21860518 -4.2948523 -0.22298004 -4.2994337 -28.03023 -55.602844
1286996875 -28.165979 -55.504982 -0.22019155 -4.360888 -0.22318877 -4.3679299 -27.946802 -56.214977
1307931250 -28.069895 -56.222401 -0.21917742 -4.4243755 -0.2236916 -4.4365087 -27.848858 -56.794147
1328865625 -27.970507 -56.665142 -0.22072862 -4.5025797 -0.22416915 -4.5051455 -27.733522 -57.236515
1349800000 -27.865946 -57.144005 -0.22156794 -4.5667181 -0.22444235 -4.5730901 -27.620874 -57.660969
1370734375 -27.771002 -57.569164 -0.22177733 -4.6418281 -0.22459583 -4.6482091 -27.518394 -58.216434
1391668750 -27.675009 -58.012863 -0.22294785 -4.7067308 -0.22620045 -4.7201877 -27.4545 -58.659687
1412603125 -27.584572 -58.52766 -0.22289629 -4.7765326 -0.22633874 -4.7855744 -27.363844 -59.07077
1433537500 -27.482826 -59.03495 -0.22456498 -4.8468776 -0.22749391 -4.8582187 -27.260803 -59.574974
1454471875 -27.377665 -59.667835 -0.22510827 -4.9103465 -0.22821276 -4.9227986 -27.155054 -60.035847
1475406250 -27.293718 -60.186878 -0.22464639 -4.9814472 -0.22810934 -4.9934168 -27.041403 -60.492683
1496340625 -27.190773 -60.485371 -0.22639322 -5.0544953 -0.22940759 -5.065208 -26.952099 -60.835663
1517275000 -27.097546 -60.885132 -0.2272014 -5.1165113 -0.23005244 -5.1305108 -26.857914 -61.132542
1538209375 -27.020176 -61.230869 -0.22723004 -5.1900544 -0.23126768 -5.201611 -26.781914 -61.567215
1559143750 -26.920374 -61.692085 -0.22858597 -5.2541265 -0.23179466 -5.2688804 -26.696854 -61.931068
1580078125 -26.832752 -62.192631 -0.22821142 -5.3176708 -0.23218483 -5.3386755 -26.594387 -62.329029
1601012500 -26.749052 -62.552479 -0.22899066 -5.3896093 -0.23320001 -5.405046 -26.502039 -62.769787
1621946875 -26.663675 -62.995052 -0.22933678 -5.4578948 -0.23329721 -5.4725566 -26.392586 -63.023365
1642881250 -26.581964 -63.309258 -0.22917973 -5.5361581 -0.23354137 -5.5432439 -26.30266 -63.422657
1663815625 -26.498955 -63.649155 -0.23104471 -5.6032343 -0.23467439 -5.6124678 -26.224033 -63.748795
1684750000 -26.408092 -63.989414 -0.23184071 -5.6728544 -0.23566039 -5.6833239 -26.13965 -64.165955
1705684375 -26.313297 -64.503166 -0.23281141 -5.7339373 -0.23688674 -5.751986 -26.061333 -64.581673
1726618750 -26.240875 -64.985626 -0.23124023 -5.8022323 -0.23747286 -5.8200788 -25.97086 -64.949944
1747553125 -26.160681 -65.255447 -0.23259635 -5.8839846 -0.23795561 -5.8864503 -25.881107 -65.309631
1768487500 -26.071344 -65.578255 -0.23456138 -5.951725 -0.23794171 -5.9544725 -25.797426 -65.648865
1789421875 -25.988792 -65.985718 -0.2357285 -6.0166082 -0.23968601 -6.0278921 -25.718586 -65.9701
1810356250 -25.920664 -66.326973 -0.23598412 -6.0845618 -0.24092005 -6.0962582 -25.648964 -66.338196
1831290625 -25.842384 -66.633629 -0.23644276 -6.151135 -0.24203904 -6.1635666 -25.579922 -66.615273
1852225000 -25.757433 -66.949669 -0.23725167 -6.227838 -0.24212815 -6.2258725 -25.492601 -66.891563
1873159375 -25.664761 -67.284698 -0.24029146 -6.29737 -0.24357186 -6.2966971 -25.408909 -67.250923
1894093750 -25.575712 -67.714279 -0.24017708 -6.3553777 -0.24381383 -6.3583412 -25.329006 -67.493195
1915028125 -25.499456 -68.020638 -0.24063095 -6.4301581 -0.24333616 -6.434588 -25.237089 -67.841812
1935962500 -25.423166 -68.39183 -0.24128115 -6.494648 -0.24615355 -6.5068388 -25.175774 -68.2183
1956896875 -25.363771 -68.623802 -0.24182318 -6.573163 -0.2471403 -6.5642061 -25.102783 -68.362671
1977831250 -25.256697 -68.839241 -0.2451632 -6.6373916 -0.24694613 -6.6296296 -25.01111 -68.661591
1998765625 -25.179714 -69.284698 -0.24487258 -6.690578 -0.24686575 -6.6971812 -24.928001 -68.926643
2019700000 -25.109102 -69.597008 -0.24425121 -6.7634716 -0.2474767 -6.7745576 -24.843451 -69.279427
2040634375 -25.048424 -69.873375 -0.24509464 -6.8373752 -0.24893442 -6.8391013 -24.779346 -69.600952
2061568750 -24.981392 -70.083893 -0.24582954 -6.9057875 -0.2492615 -6.9016652 -24.703104 -69.863518
2082503125 -24.908735 -70.318771 -0.24790058 -6.9710326 -0.2497049 -6.9722877 -24.626156 -70.177963
2103437500 -24.839865 -70.600632 -0.24828921 -7.0350733 -0.25010151 -7.0402956 -24.547104 -70.37748
2124371875 -24.770472 -70.920876 -0.24819681 -7.1032076 -0.25120768 -7.1161175 -24.45891 -70.672798
2145306250 -24.701338 -71.164032 -0.2497384 -7.1741319 -0.25301749 -7.1804104 -24.390778 -70.971733
2166240625 -24.634861 -71.494598 -0.24978012 -7.2373557 -0.25349808 -7.2434721 -24.336044 -71.250031
2187175000 -24.578268 -71.753906 -0.24980935 -7.3120914 -0.2532829 -7.3132014 -24.264618 -71.514984
2208109375 -24.511793 -72.032623 -0.25074151 -7.376296 -0.25434211 -7.3892274 -24.190884 -71.832161
2229043750 -24.448195 -72.273422 -0.25156608 -7.4500666 -0.25625953 -7.4608531 -24.126146 -72.190048
2249978125 -24.374802 -72.540489 -0.25368008 -7.5149865 -0.25769073 -7.524652 -24.062727 -72.43705
2270912500 -24.30784 -72.83976 -0.25405234 -7.5796342 -0.25882879 -7.5878372 -24.003994 -72.634033
2291846875 -24.236649 -73.092964 -0.25567135 -7.6469774 -0.25863388 -7.6512609 -23.933804 -72.849487
2312781250 -24.181652 -73.428642 -0.25524428 -7.7121887 -0.25961933 -7.7244606 -23.875532 -73.17527
2333715625 -24.123188 -73.596519 -0.25636306 -7.7886543 -0.26196709 -7.7862816 -23.821163 -73.44812
2354650000 -24.051857 -73.801285 -0.25879347 -7.85321 -0.26216978 -7.854641 -23.750879 -73.709618
2375584375 -23.983091 -73.992325 -0.2600314 -7.9123764 -0.26394746 -7.9169426 -23.690514 -73.954094
2396518750 -23.915657 -74.206116 -0.26062527 -7.9758134 -0.26416534 -7.9798427 -23.610249 -74.068512
2417453125 -23.849974 -74.385872 -0.26156223 -8.039073 -0.26550975 -8.0534811 -23.54809 -74.344139
2438387500 -23.791756 -74.634308 -0.26121455 -8.1046953 -0.26665345 -8.1078119 -23.499941 -74.513695
2459321875 -23.735998 -74.834389 -0.26123074 -8.1773653 -0.26508504 -8.1723099 -23.42979 -74.701065
2480256250 -23.678459 -75.09359 -0.26122552 -8.238615 -0.26605424 -8.2451811 -23.362368 -75.000893
2501190625 -23.617687 -75.204926 -0.26228008 -8.3152647 -0.26713496 -8.3162537 -23.295595 -75.260674
2522125000 -23.540911 -75.346184 -0.26518816 -8.370595 -0.26962945 -8.380249 -23.23675 -75.462677
2543059375 -23.486124 -75.579453 -0.26407319 -8.4256697 -0.26904297 -8.4334593 -23.180201 -75.576561
2563993750 -23.431253 -75.697418 -0.26398289 -8.4967136 -0.2684851 -8.5065022 -23.115499 -75.766922
2584928125 -23.373394 -75.84108 -0.26445618 -8.5636234 -0.26985672 -8.5700388 -23.06682 -75.995384
2605862500 -23.305576 -75.961891 -0.26538587 -8.6329021 -0.26917347 -8.6395922 -23.010321 -76.211823
2626796875 -23.236216 -76.170135 -0.26567554 -8.702611 -0.26903063 -8.7175026 -22.944738 -76.537796
2647731250 -23.178392 -76.355392 -0.26767275 -8.7759533 -0.27187306 -8.7851191 -22.88867 -76.781464
2668665625 -23.111032 -76.54248 -0.2695753 -8.833231 -0.2739 -8.8413744 -22.839661 -76.929459
2689600000 -23.05373 -76.741516 -0.26971439 -8.8875189 -0.27281326 -8.895956 -22.777061 -77.033562
2710534375 -22.999796 -76.967224 -0.26731664 -8.9516525 -0.27218106 -8.974618 -22.71616 -77.278076
2731468750 -22.954258 -77.104721 -0.26758707 -9.0445566 -0.27401489 -9.046936 -22.665619 -77.556427
2752403125 -22.880466 -77.132912 -0.27199566 -9.1156416 -0.27582991 -9.1095982 -22.610779 -77.787338
2773337500 -22.801361 -77.354622 -0.27234417 -9.1673193 -0.27583003 -9.1680346 -22.5527 -77.954109
2794271875 -22.738981 -77.551598 -0.27181116 -9.2323589 -0.27503833 -9.2480764 -22.483246 -78.111183
2815206250 -22.680138 -77.721809 -0.27205294 -9.304018 -0.27832061 -9.3169546 -22.435072 -78.335258
2836140625 -22.621347 -77.850746 -0.27385983 -9.366147 -0.27823153 -9.3647175 -22.38385 -78.46003
2857075000 -22.56658 -77.995804 -0.27298176 -9.4341259 -0.27741542 -9.4369116 -22.326004 -78.637405
2878009375 -22.507845 -78.044327 -0.27484924 -9.5134945 -0.2780062 -9.501421 -22.266644 -78.816162
2898943750 -22.433321 -78.168816 -0.27667317 -9.573144 -0.27774322 -9.5852194 -22.196144 -79.018234
2919878125 -22.361984 -78.332771 -0.27771345 -9.6339483 -0.28133193 -9.6529741 -22.142458 -79.229416
2940812500 -22.307039 -78.52597 -0.27724674 -9.6954794 -0.28105071 -9.7066479 -22.086729 -79.346504
2961746875 -22.253527 -78.681076 -0.27750894 -9.7669582 -0.28156689 -9.7756491 -22.024921 -79.488945
2982681250 -22.194542 -78.829491 -0.27850732 -9.8303919 -0.28062066 -9.8371305 -21.969486 -79.677353
3003615625 -22.140795 -78.948784 -0.27954283 -9.9064798 -0.2813378 -9.9264536 -21.908522 -79.935333
3024550000 -22.065359 -79.067482 -0.28141624 -9.9628229 -0.28503442 -9.9835377 -21.856215 -80.15995
3045484375 -22.006901 -79.271759 -0.27868995 -10.023746 -0.28330824 -10.042588 -21.80374 -80.288597
3066418750 -21.954962 -79.448067 -0.27963093 -10.110119 -0.28430283 -10.125925 -21.741781 -80.482307
3087353125 -21.895237 -79.59285 -0.28276429 -10.176341 -0.28631064 -10.189738 -21.694389 -80.684441
3108287500 -21.831379 -79.771408 -0.2855126 -10.227792 -0.28734216 -10.250551 -21.646416 -80.900604
3129221875 -21.777231 -80.061821 -0.28278977 -10.277251 -0.28829503 -10.311572 -21.598648 -81.085724
3150156250 -21.73274 -80.202606 -0.28093252 -10.364394 -0.28817505 -10.385301 -21.537535 -81.269592
3171090625 -21.679529 -80.296021 -0.28416124 -10.452747 -0.28967211 -10.456119 -21.483097 -81.492035
3192025000 -21.607971 -80.39521 -0.28823534 -10.509147 -0.29083434 -10.517428 -21.43392 -81.633995
3212959375 -21.549299 -80.602356 -0.2872164 -10.557287 -0.29049152 -10.577686 -21.387537 -81.743423
3233893750 -21.501513 -80.813377 -0.28702286 -10.629052 -0.29071224 -10.66453 -21.333361 -81.95649
3254828125 -21.449158 -81.033424 -0.28671145 -10.687222 -0.29524988 -10.722006 -21.291485 -82.218025
3275762500 -21.406588 -81.121437 -0.28563607 -10.778188 -0.29404575 -10.764174 -21.244328 -82.305183
3296696875 -21.337036 -81.242844 -0.29052809 -10.846563 -0.29338458 -10.846493 -21.17498 -82.488525
3317631250 -21.27677 -81.396461 -0.29101023 -10.902279 -0.29329336 -10.912357 -21.121233 -82.662613
3338565625 -21.221581 -81.514999 -0.29281053 -10.966583 -0.29336879 -11.005186 -21.062981 -82.806152
3359500000 -21.172249 -81.725189 -0.29106694 -11.029521 -0.29988867 -11.065063 -21.028502 -83.021927
3380434375 -21.130775 -81.799736 -0.29226854 -11.119091 -0.2985934 -11.103913 -20.986721 -83.138481
3401368750 -21.076895 -81.951958 -0.29698634 -11.176733 -0.29897147 -11.189877 -20.933762 -83.373245
3422303125 -21.02066 -82.160965 -0.29634911 -11.216876 -0.30066994 -11.236599 -20.883701 -83.543045
3443237500 -20.974695 -82.305779 -0.29385751 -11.291958 -0.29705134 -11.310238 -20.818655 -83.618294
3464171875 -20.931 -82.398811 -0.29560047 -11.382522 -0.29928452 -11.403134 -20.76329 -83.823555
3485106250 -20.882006 -82.456894 -0.2993893 -11.44533 -0.30312407 -11.475685 -20.728952 -83.97554
3506040625 -20.818092 -82.569939 -0.30205834 -11.490592 -0.30854276 -11.523248 -20.685526 -84.096016
3526975000 -20.773811 -82.873795 -0.29962891 -11.537539 -0.30601606 -11.550733 -20.649143 -84.27594
3547909375 -20.734035 -83.003914 -0.29910421 -11.625544 -0.30142671 -11.643204 -20.58889 -84.43866
3568843750 -20.679211 -83.160347 -0.30087787 -11.680527 -0.30682424 -11.734556 -20.527369 -84.646408
3589778125 -20.640623 -83.33165 -0.29791692 -11.754264 -0.30992797 -11.773872 -20.4863 -84.796021
3610712500 -20.58963 -83.347931 -0.30264869 -11.846326 -0.30701685 -11.840743 -20.436859 -84.82505
3631646875 -20.531174 -83.449753 -0.30643842 -11.881649 -0.31134245 -11.931376 -20.395197 -84.956467
3652581250 -20.480337 -83.697197 -0.3042849 -11.931224 -0.31472129 -11.95777 -20.363497 -85.182014
3673515625 -20.444773 -83.867813 -0.30063817 -12.000843 -0.30968803 -12.008604 -20.324015 -85.246071
3694450000 -20.401039 -84.024307 -0.30014288 -12.105146 -0.30883655 -12.095975 -20.256289 -85.398926
3715384375 -20.352232 -84.143051 -0.30588761 -12.18053 -0.30932331 -12.173984 -20.196033 -85.557152
3736318750 -20.295279 -84.270943 -0.30671236 -12.215988 -0.31466696 -12.264222 -20.143898 -85.712685
3757253125 -20.253468 -84.381546 -0.30511099 -12.288816 -0.31895772 -12.280714 -20.115919 -85.791
3778187500 -20.200266 -84.480217 -0.30842817 -12.357437 -0.31169432 -12.337978 -20.066225 -85.849815
3799121875 -20.158571 -84.659363 -0.30617321 -12.409329 -0.31395137 -12.424638 -20.020517 -86.048599
3820056250 -20.115131 -84.743217 -0.30659413 -12.513627 -0.3117404 -12.479341 -19.968197 -86.158989
3840990625 -20.062536 -84.875488 -0.31301892 -12.559435 -0.31313923 -12.59714 -19.9063 -86.360153
3861925000 -20.014694 -85.086548 -0.30973122 -12.617117 -0.32186517 -12.630013 -19.85961 -86.556847
3882859375 -19.973902 -85.145836 -0.31155115 -12.702077 -0.3163003 -12.666268 -19.812778 -86.569939
3903793750 -19.931686 -85.23175 -0.31405655 -12.76231 -0.31565922 -12.767973 -19.767467 -86.688118
3924728125 -19.881424 -85.308876 -0.31657386 -12.821002 -0.31893066 -12.838675 -19.72415 -86.825371
3945662500 -19.829868 -85.510643 -0.31621712 -12.862033 -0.32068038 -12.90456 -19.680014 -87.027557
3966596875 -19.798252 -85.703529 -0.3125644 -12.950932 -0.32248864 -12.958064 -19.635279 -87.18412
3987531250 -19.753628 -85.763367 -0.31828842 -13.038359 -0.32100096 -13.016855 -19.581457 -87.283195
4008465625 -19.700735 -85.934502 -0.32175171 -13.062194 -0.32162684 -13.092539 -19.529032 -87.394371
4029400000 -19.664486 -86.096916 -0.31692183 -13.123343 -0.32408854 -13.152912 -19.48613 -87.510651
4050334375 -19.62632 -86.177765 -0.31820977 -13.204452 -0.32271215 -13.208951 -19.449408 -87.593719
4071268750 -19.581854 -86.320015 -0.31812841 -13.264342 -0.3238942 -13.298913 -19.404911 -87.708458
