!Keysight Technologies,N5227A,US51270248,A.10.65.08
!Date: Tuesday, June 11, 2024 07:20:23
!Correction: S11(Full 2 Port(1,4)) 
!S41(Full 2 Port(1,4)) 
!S14(Full 2 Port(1,4)) 
!S44(Full 2 Port(1,4)) 
!S2P File: Measurements: S11, S41, S14, S44:
# Hz S  dB   R 50
10000000 -2.0648177 -0.30130604 -13.435729 0.91180295 -13.455793 0.99741149 -2.0637956 -0.24432956
30934375 -2.0627227 -0.84203833 -13.399014 2.2070954 -13.413291 2.2530694 -2.0641663 -0.79108626
51868750 -2.0748467 -1.3343025 -13.398911 3.6849899 -13.398504 3.6933923 -2.0757356 -1.290488
72803125 -2.0829749 -1.742421 -13.373641 5.2747402 -13.371088 5.2530141 -2.0849185 -1.6980479
93737500 -2.0855775 -2.1506271 -13.323934 6.8306656 -13.3198 6.8091693 -2.0890307 -2.1045752
114671875 -2.0869174 -2.6031721 -13.262363 8.2964458 -13.254507 8.2549801 -2.0921066 -2.5479617
135606250 -2.0897212 -3.0892446 -13.193721 9.6878138 -13.186929 9.6278248 -2.0970805 -3.0250807
156540625 -2.0965395 -3.5793188 -13.125049 11.036557 -13.117643 10.96906 -2.1040938 -3.4983203
177475000 -2.104255 -4.031208 -13.050308 12.3952 -13.044702 12.325483 -2.1112781 -3.9408455
198409375 -2.1103692 -4.4574022 -12.962219 13.735422 -12.955372 13.660521 -2.1161671 -4.362114
219343750 -2.1141353 -4.9012747 -12.863085 14.996783 -12.85216 14.915803 -2.1218333 -4.8044338
240278125 -2.1217802 -5.3711576 -12.761039 16.189093 -12.743349 16.096167 -2.1328573 -5.2661004
261212500 -2.1327364 -5.8408093 -12.65795 17.329796 -12.642432 17.247313 -2.1447096 -5.7267942
282146875 -2.1434402 -6.2943692 -12.552155 18.46977 -12.534122 18.376085 -2.1544578 -6.1790919
303081250 -2.1514685 -6.7396879 -12.438213 19.564388 -12.420347 19.461245 -2.1634402 -6.6201663
324015625 -2.16043 -7.1811242 -12.318084 20.602673 -12.302353 20.50242 -2.1711159 -7.0540643
344950000 -2.1700804 -7.6175818 -12.195686 21.592859 -12.178718 21.48148 -2.1799052 -7.4891224
365884375 -2.1806438 -8.0594072 -12.072013 22.52841 -12.055921 22.419577 -2.1912341 -7.9270682
386818750 -2.1940811 -8.5159101 -11.946988 23.425713 -11.931803 23.314537 -2.2046149 -8.3697519
407753125 -2.2074006 -8.9668036 -11.820679 24.287554 -11.805086 24.181499 -2.2178874 -8.8033438
428687500 -2.2198884 -9.396121 -11.69167 25.121704 -11.673408 25.002249 -2.2275109 -9.2385101
449621875 -2.227747 -9.8292484 -11.558302 25.895027 -11.54075 25.768545 -2.2385628 -9.6827364
470556250 -2.2397323 -10.277287 -11.425892 26.611605 -11.409196 26.492785 -2.2516682 -10.110517
491490625 -2.2545443 -10.712575 -11.294901 27.302839 -11.27854 27.188061 -2.2649286 -10.530156
512425000 -2.2684085 -11.135855 -11.163269 27.968611 -11.147247 27.852358 -2.2790632 -10.948838
533359375 -2.2823901 -11.568341 -11.027922 28.592831 -11.014197 28.477137 -2.2940717 -11.379133
554293750 -2.2959142 -12.004118 -10.895493 29.166704 -10.880136 29.061136 -2.3084798 -11.810474
575228125 -2.3102689 -12.437238 -10.766092 29.718266 -10.747851 29.599977 -2.3236654 -12.238976
596162500 -2.3254714 -12.860161 -10.634027 30.232927 -10.617478 30.111395 -2.3377888 -12.657682
617096875 -2.3416877 -13.281192 -10.503174 30.714476 -10.487473 30.598322 -2.3535733 -13.074874
638031250 -2.3582771 -13.698236 -10.374092 31.174702 -10.358595 31.057932 -2.3711593 -13.487917
658965625 -2.37411 -14.114736 -10.244486 31.605633 -10.228469 31.479143 -2.3881037 -13.899267
679900000 -2.3909831 -14.54088 -10.116427 31.998169 -10.10225 31.870865 -2.4049728 -14.320412
700834375 -2.4086459 -14.957679 -9.9912949 32.368599 -9.9779644 32.250893 -2.4231627 -14.734267
721768750 -2.4274619 -15.365023 -9.8681726 32.719593 -9.8521528 32.608204 -2.4421387 -15.140071
742703125 -2.4459257 -15.757818 -9.7435656 33.060371 -9.7270708 32.935505 -2.4595873 -15.531152
763637500 -2.463691 -16.163206 -9.6200266 33.357521 -9.6038523 33.228096 -2.4754486 -15.935147
784571875 -2.4813883 -16.580235 -9.4968853 33.644604 -9.4849262 33.502853 -2.4942968 -16.341125
805506250 -2.5009561 -16.991667 -9.3787737 33.898178 -9.3660202 33.779312 -2.5135682 -16.739382
826440625 -2.5209365 -17.393959 -9.26194 34.142181 -9.2465096 34.014503 -2.5331151 -17.136917
847375000 -2.540642 -17.787878 -9.1455441 34.380211 -9.1308861 34.239491 -2.5540268 -17.528408
868309375 -2.5624335 -18.179703 -9.0298929 34.584465 -9.017045 34.459202 -2.5754426 -17.911448
889243750 -2.5825024 -18.566765 -8.9148693 34.776386 -8.9004192 34.645123 -2.5950377 -18.293818
910178125 -2.6026306 -18.961775 -8.8008499 34.95187 -8.7882986 34.803684 -2.6140678 -18.687897
931112500 -2.6225843 -19.363871 -8.6888237 35.094135 -8.6782169 34.955475 -2.6346986 -19.069439
952046875 -2.6433513 -19.751713 -8.5797243 35.233528 -8.5689316 35.099712 -2.6551399 -19.446974
972981250 -2.6643541 -20.128014 -8.4732113 35.35791 -8.4604998 35.215645 -2.6764975 -19.828194
993915625 -2.6854551 -20.503387 -8.3671913 35.475845 -8.3545036 35.325054 -2.6993587 -20.207561
1014850000 -2.7082305 -20.88644 -8.2607174 35.553249 -8.2511377 35.410633 -2.7216823 -20.589354
1035784375 -2.7317955 -21.269508 -8.1613445 35.630238 -8.1501837 35.496403 -2.744854 -20.964949
1056718750 -2.7527702 -21.647085 -8.058917 35.718269 -8.0487995 35.573009 -2.7656646 -21.339806
1077653125 -2.7733042 -22.020941 -7.958252 35.772823 -7.9483738 35.624317 -2.7876413 -21.708197
1098587500 -2.7947149 -22.389835 -7.8607244 35.81316 -7.8497629 35.66964 -2.8089874 -22.059103
1119521875 -2.8186231 -22.746454 -7.7644038 35.850636 -7.7545285 35.707676 -2.8323286 -22.421
1140456250 -2.8426864 -23.097092 -7.6702943 35.879398 -7.660234 35.739357 -2.8572719 -22.779371
1161390625 -2.8667305 -23.464161 -7.5772834 35.898861 -7.5656333 35.759174 -2.8803129 -23.138206
1182325000 -2.8902144 -23.83633 -7.4848437 35.907726 -7.4739051 35.760334 -2.9024804 -23.501299
1203259375 -2.9129705 -24.201567 -7.3943543 35.903599 -7.3834844 35.751148 -2.9241328 -23.859478
1224193750 -2.9345994 -24.561069 -7.3038812 35.891369 -7.2950873 35.734966 -2.9464338 -24.210337
1245128125 -2.9576581 -24.909513 -7.2183137 35.870922 -7.2092195 35.717808 -2.9720998 -24.547756
1266062500 -2.9840984 -25.260525 -7.1337128 35.854664 -7.1245646 35.693707 -2.9973447 -24.89097
1286996875 -3.0114264 -25.600361 -7.0491557 35.818439 -7.04035 35.669552 -3.0228074 -25.243967
1307931250 -3.0359018 -25.951275 -6.9668865 35.784222 -6.9580932 35.636402 -3.0481925 -25.597607
1328865625 -3.0594089 -26.316338 -6.8845701 35.744987 -6.8769879 35.589138 -3.0723183 -25.945885
1349800000 -3.0832472 -26.667507 -6.8052897 35.689007 -6.7978234 35.533821 -3.0954032 -26.281836
1370734375 -3.1078575 -27.009441 -6.7263856 35.640823 -6.7206178 35.484486 -3.1202047 -26.606016
1391668750 -3.133939 -27.332283 -6.6481338 35.584877 -6.643054 35.434593 -3.1451778 -26.938114
1412603125 -3.160229 -27.663275 -6.5728674 35.524441 -6.5668273 35.372017 -3.1729653 -27.271132
1433537500 -3.1880023 -28.002901 -6.4975896 35.451641 -6.4924693 35.300865 -3.1989298 -27.609678
1454471875 -3.2135875 -28.341291 -6.4260073 35.372459 -6.4194212 35.22464 -3.2244239 -27.950949
1475406250 -3.2376583 -28.682896 -6.3542333 35.301067 -6.3497014 35.146591 -3.2501016 -28.276194
1496340625 -3.2616694 -29.013712 -6.2825966 35.221874 -6.2786565 35.077381 -3.274209 -28.587666
1517275000 -3.2875552 -29.325369 -6.2135911 35.138676 -6.2086673 34.994808 -3.2996521 -28.895075
1538209375 -3.3138671 -29.634819 -6.1439142 35.060173 -6.1403737 34.913933 -3.3265953 -29.211941
1559143750 -3.34127 -29.953659 -6.0748763 34.960308 -6.0712814 34.820244 -3.354552 -29.529518
1580078125 -3.3677144 -30.279917 -6.0107732 34.86076 -6.0051889 34.724712 -3.3809316 -29.846565
1601012500 -3.3936896 -30.608715 -5.9454803 34.762878 -5.9397907 34.616741 -3.4050651 -30.170885
1621946875 -3.4183009 -30.922712 -5.8824091 34.659351 -5.8768935 34.506847 -3.431448 -30.480354
1642881250 -3.4443707 -31.235777 -5.8191509 34.565838 -5.814868 34.413723 -3.4577553 -30.772055
1663815625 -3.4718103 -31.536192 -5.756216 34.458221 -5.7517018 34.312366 -3.4841542 -31.063257
1684750000 -3.500469 -31.837036 -5.6949186 34.349934 -5.6914668 34.205688 -3.5115368 -31.364311
1705684375 -3.5282047 -32.145069 -5.634871 34.229286 -5.6312265 34.092789 -3.5397706 -31.674658
1726618750 -3.554692 -32.46003 -5.5780506 34.116997 -5.5727425 33.970963 -3.5666103 -31.978195
1747553125 -3.5825009 -32.777729 -5.5203319 34.01516 -5.5163727 33.855919 -3.5934656 -32.279018
1768487500 -3.610415 -33.069393 -5.4620614 33.897247 -5.4603629 33.746567 -3.6205366 -32.563847
1789421875 -3.6371527 -33.358891 -5.4063549 33.778496 -5.4053049 33.634792 -3.6481619 -32.840321
1810356250 -3.6656249 -33.655144 -5.3502297 33.664185 -5.3496046 33.524799 -3.6757629 -33.127354
1831290625 -3.6939855 -33.948307 -5.2953968 33.548801 -5.2933288 33.403919 -3.7033801 -33.417313
1852225000 -3.7213547 -34.251137 -5.2420974 33.431377 -5.240006 33.269527 -3.7309866 -33.707443
1873159375 -3.7487381 -34.549133 -5.18889 33.294689 -5.188374 33.149826 -3.7579157 -33.993637
1894093750 -3.7756019 -34.835335 -5.1394439 33.164677 -5.1366119 33.017426 -3.7860792 -34.271313
1915028125 -3.8032651 -35.114468 -5.0883398 33.047276 -5.0880437 32.897583 -3.8140492 -34.537766
1935962500 -3.829736 -35.388401 -5.0373793 32.924923 -5.0363703 32.794254 -3.8410773 -34.812893
1956896875 -3.8569877 -35.676651 -4.9856353 32.811092 -4.9838796 32.655132 -3.8693166 -35.092045
1977831250 -3.8859842 -35.954784 -4.9345789 32.656639 -4.9357967 32.516289 -3.8964469 -35.3675
1998765625 -3.9108248 -36.229679 -4.8899145 32.515747 -4.8891602 32.376289 -3.923404 -35.640564
2019700000 -3.936064 -36.511456 -4.844583 32.393108 -4.8426113 32.258224 -3.9506168 -35.897072
2040634375 -3.9637828 -36.780769 -4.7981071 32.267887 -4.7948313 32.133083 -3.9774075 -36.159615
2061568750 -3.992908 -37.04089 -4.7516379 32.137535 -4.7493191 31.994875 -4.0057921 -36.424301
2082503125 -4.0209217 -37.304291 -4.7059746 31.999744 -4.7051191 31.862556 -4.0343137 -36.689857
2103437500 -4.0486698 -37.578453 -4.6612873 31.858099 -4.6604986 31.727983 -4.0625529 -36.946156
2124371875 -4.0760808 -37.855164 -4.6191144 31.724682 -4.6176829 31.593586 -4.0874066 -37.198776
2145306250 -4.1043711 -38.116852 -4.5761333 31.590578 -4.575417 31.459541 -4.1135526 -37.459133
2166240625 -4.1306949 -38.370033 -4.5348186 31.459875 -4.5340157 31.326809 -4.1427064 -37.707619
2187175000 -4.1599994 -38.630924 -4.4921017 31.333199 -4.4932809 31.190096 -4.1725016 -37.945999
2208109375 -4.1907153 -38.88974 -4.4508381 31.19235 -4.4533081 31.060972 -4.2009768 -38.194149
2229043750 -4.2199817 -39.151241 -4.4101563 31.065592 -4.4124441 30.927832 -4.2282729 -38.452477
2249978125 -4.2482042 -39.408428 -4.3695478 30.926857 -4.3723073 30.794533 -4.2547884 -38.706196
2270912500 -4.2748814 -39.671093 -4.3303843 30.790459 -4.3323741 30.657192 -4.2820125 -38.945332
2291846875 -4.3026166 -39.920418 -4.2924352 30.651079 -4.2945452 30.515316 -4.3104939 -39.178894
2312781250 -4.3306832 -40.164253 -4.2557859 30.523525 -4.2576232 30.393072 -4.3391457 -39.410938
2333715625 -4.3598299 -40.410263 -4.2160349 30.398232 -4.2191963 30.259474 -4.3691406 -39.661575
2354650000 -4.3891883 -40.660412 -4.1777143 30.254757 -4.1822577 30.117983 -4.3980904 -39.903141
2375584375 -4.4162326 -40.908497 -4.1408978 30.112091 -4.1446581 29.981194 -4.424614 -40.154877
2396518750 -4.4418044 -41.152042 -4.1063137 29.977123 -4.1099405 29.839197 -4.451911 -40.381664
2417453125 -4.468257 -41.388283 -4.0709062 29.839437 -4.0749311 29.720295 -4.4773173 -40.595467
2438387500 -4.4949298 -41.618008 -4.0358114 29.704493 -4.0379272 29.581245 -4.5060687 -40.822838
2459321875 -4.5234909 -41.84436 -3.9992735 29.575361 -4.0040002 29.441763 -4.5358167 -41.037708
2480256250 -4.5512204 -42.079166 -3.9644663 29.436586 -3.9703901 29.304651 -4.5629711 -41.267399
2501190625 -4.5792713 -42.321503 -3.9296718 29.297398 -3.9361506 29.170509 -4.5888028 -41.503227
2522125000 -4.6060915 -42.548901 -3.8967047 29.141487 -3.9014089 29.029495 -4.6134133 -41.728359
2543059375 -4.6308284 -42.771507 -3.8661821 29.009422 -3.8692 28.887066 -4.6397619 -41.946209
2563993750 -4.6584582 -42.997528 -3.8337822 28.878109 -3.8373108 28.760851 -4.6668553 -42.140182
2584928125 -4.6878028 -43.212833 -3.8017094 28.743116 -3.805578 28.622261 -4.6950536 -42.353531
2605862500 -4.7174268 -43.424442 -3.7698486 28.606586 -3.7746921 28.485905 -4.7251148 -42.572296
2626796875 -4.7454138 -43.649677 -3.7381828 28.471104 -3.7429349 28.351234 -4.7514758 -42.796616
2647731250 -4.772471 -43.886265 -3.7064977 28.324646 -3.7131844 28.211716 -4.7759366 -43.02515
2668665625 -4.7991581 -44.105888 -3.6777835 28.176693 -3.6817827 28.067091 -4.802196 -43.243771
2689600000 -4.824554 -44.307129 -3.6504221 28.043833 -3.6536262 27.92371 -4.8294888 -43.439449
2710534375 -4.850503 -44.525799 -3.6231465 27.925343 -3.6257257 27.804882 -4.8579669 -43.634335
2731468750 -4.8795519 -44.755001 -3.5906193 27.805931 -3.5960321 27.676311 -4.8866324 -43.841766
2752403125 -4.9086833 -44.960518 -3.5588365 27.646746 -3.5672991 27.534781 -4.9134083 -44.065945
2773337500 -4.9339471 -45.172749 -3.533324 27.505089 -3.538965 27.390734 -4.9407425 -44.291206
2794271875 -4.9588757 -45.398441 -3.5064917 27.368284 -3.5116589 27.251066 -4.9661145 -44.489212
2815206250 -4.9832077 -45.613064 -3.4790881 27.232824 -3.4842248 27.118752 -4.9901223 -44.689362
2836140625 -5.0098004 -45.806549 -3.4536402 27.103018 -3.4576807 26.982496 -5.0191283 -44.89032
2857075000 -5.0362411 -46.007076 -3.4257946 26.98168 -3.4310827 26.853443 -5.047235 -45.079437
2878009375 -5.0640545 -46.216682 -3.3958027 26.835993 -3.4042563 26.716356 -5.0749192 -45.290821
2898943750 -5.0912738 -46.424656 -3.3709812 26.682823 -3.3789194 26.575005 -5.1005054 -45.489285
2919878125 -5.1162214 -46.624218 -3.3479638 26.550056 -3.3534544 26.438223 -5.1233478 -45.700523
2940812500 -5.1393723 -46.822987 -3.3238661 26.428123 -3.3286214 26.302467 -5.1500688 -45.89259
2961746875 -5.1656051 -47.022995 -3.2970819 26.291281 -3.3039472 26.171537 -5.1768565 -46.069061
2982681250 -5.191988 -47.199699 -3.2741292 26.155933 -3.2803397 26.039175 -5.2046776 -46.254391
3003615625 -5.2209849 -47.395985 -3.2488091 26.028353 -3.2564883 25.92067 -5.2310152 -46.437466
3024550000 -5.2476273 -47.583122 -3.224956 25.880917 -3.2307591 25.777386 -5.2556725 -46.654938
3045484375 -5.2709088 -47.785847 -3.2024825 25.756384 -3.2076688 25.634113 -5.2815447 -46.852917
3066418750 -5.2970638 -47.993046 -3.1783791 25.628002 -3.185323 25.503132 -5.3053298 -47.027035
3087353125 -5.3234277 -48.172142 -3.1554127 25.491028 -3.1632078 25.376612 -5.3293962 -47.204716
3108287500 -5.3494544 -48.341335 -3.1352854 25.352009 -3.1410036 25.253405 -5.3578997 -47.388504
3129221875 -5.3748136 -48.527966 -3.115015 25.234549 -3.11886 25.12142 -5.3866816 -47.579029
3150156250 -5.4006286 -48.73838 -3.091213 25.121939 -3.096967 24.988514 -5.4124546 -47.77116
3171090625 -5.4279466 -48.943962 -3.0659328 24.98583 -3.0751624 24.857906 -5.4359164 -47.965553
3192025000 -5.4521976 -49.122017 -3.0451946 24.830469 -3.0536325 24.720068 -5.4597459 -48.153675
3212959375 -5.4743476 -49.29517 -3.0276423 24.708929 -3.0342352 24.590279 -5.4863639 -48.325527
3233893750 -5.4989414 -49.47636 -3.0070877 24.594496 -3.0142291 24.474136 -5.5124445 -48.478191
3254828125 -5.5241809 -49.654533 -2.9870462 24.477871 -2.9926043 24.353966 -5.5380325 -48.672947
3275762500 -5.5506639 -49.855171 -2.9631572 24.362762 -2.9724116 24.21677 -5.5686889 -48.869324
3296696875 -5.5757203 -50.036739 -2.9417491 24.204578 -2.9526601 24.085489 -5.5917521 -49.043747
3317631250 -5.5980897 -50.222019 -2.9248431 24.078045 -2.933311 23.954458 -5.6140046 -49.232742
3338565625 -5.6216326 -50.392841 -2.9060552 23.951174 -2.9152198 23.835789 -5.637207 -49.38171
3359500000 -5.6438494 -50.553574 -2.887593 23.837132 -2.8943183 23.713755 -5.6600504 -49.555836
3380434375 -5.6707778 -50.724224 -2.8657217 23.71983 -2.8761668 23.586594 -5.6905336 -49.729485
3401368750 -5.6986542 -50.885201 -2.8462582 23.569534 -2.8585615 23.469599 -5.7171655 -49.898952
3422303125 -5.7214599 -51.061989 -2.8317597 23.445236 -2.8396883 23.337837 -5.7424827 -50.097065
3443237500 -5.7449365 -51.257137 -2.8140099 23.346771 -2.8233247 23.217066 -5.7668309 -50.265381
3464171875 -5.769949 -51.432442 -2.7925706 23.221863 -2.804704 23.101089 -5.7860298 -50.419769
3485106250 -5.7954006 -51.580124 -2.7745223 23.088959 -2.7866366 22.981346 -5.8086481 -50.580036
3506040625 -5.8197718 -51.710136 -2.7588718 22.956961 -2.7678843 22.859076 -5.8358293 -50.74955
3526975000 -5.8431673 -51.872555 -2.7450018 22.852453 -2.7512684 22.735468 -5.8661637 -50.915012
3547909375 -5.8702812 -52.063854 -2.7249575 22.744762 -2.7355375 22.621305 -5.8932266 -51.074406
3568843750 -5.8945541 -52.23962 -2.7084172 22.610008 -2.7175698 22.507215 -5.9114814 -51.249466
3589778125 -5.9155312 -52.418713 -2.6914449 22.51816 -2.700258 22.378304 -5.9327397 -51.429897
3610712500 -5.9401979 -52.577263 -2.6711845 22.383057 -2.6851313 22.260122 -5.956852 -51.566029
3631646875 -5.9636974 -52.708241 -2.6590145 22.245943 -2.667614 22.152218 -5.9797297 -51.702946
3652581250 -5.9861422 -52.859825 -2.6444006 22.146132 -2.6501386 22.028898 -6.007431 -51.881184
3673515625 -6.0098515 -53.035854 -2.6273708 22.044973 -2.6344311 21.904154 -6.0372772 -52.042645
3694450000 -6.0335169 -53.235649 -2.6074224 21.932512 -2.6196032 21.783583 -6.0604515 -52.199993
3715384375 -6.0579009 -53.415356 -2.5895867 21.78948 -2.6054037 21.667994 -6.0801964 -52.366398
3736318750 -6.0780458 -53.559128 -2.5777378 21.672642 -2.5888803 21.559347 -6.0979209 -52.5191
3757253125 -6.0977407 -53.702374 -2.5618391 21.576092 -2.5731175 21.436998 -6.12321 -52.68174
3778187500 -6.1229954 -53.837383 -2.5459659 21.446356 -2.5588112 21.320421 -6.1515675 -52.801842
3799121875 -6.1469378 -53.991646 -2.5333371 21.340542 -2.5439801 21.211763 -6.1748681 -52.954288
3820056250 -6.1736259 -54.171337 -2.5131774 21.230436 -2.5305219 21.098595 -6.2027202 -53.121185
3840990625 -6.1953616 -54.315071 -2.5014367 21.084105 -2.514607 20.989452 -6.2207956 -53.260208
3861925000 -6.2132411 -54.481304 -2.4888351 20.993561 -2.499994 20.870768 -6.237113 -53.441082
3882859375 -6.2367568 -54.622826 -2.4717004 20.881334 -2.4866936 20.759045 -6.2634602 -53.580826
3903793750 -6.2603235 -54.740307 -2.458133 20.760006 -2.4717236 20.650944 -6.2863631 -53.688843
3924728125 -6.2855315 -54.864075 -2.4445236 20.632248 -2.4574776 20.531357 -6.3093476 -53.832294
3945662500 -6.3068962 -55.011074 -2.4346206 20.527231 -2.443686 20.419388 -6.3330092 -53.995441
3966596875 -6.3287697 -55.200054 -2.4183671 20.435673 -2.4303551 20.306599 -6.3542113 -54.162071
3987531250 -6.352901 -55.358303 -2.4017847 20.301014 -2.4177248 20.199776 -6.375442 -54.311951
4008465625 -6.372654 -55.478409 -2.3942044 20.181709 -2.4037681 20.095041 -6.3945937 -54.432758
4029400000 -6.3926225 -55.621181 -2.381712 20.097738 -2.3903315 19.990377 -6.4141145 -54.565086
4050334375 -6.4176064 -55.749073 -2.3669178 19.983736 -2.3771088 19.879877 -6.4390192 -54.707722
4071268750 -6.4396996 -55.890514 -2.3547158 19.877489 -2.3637104 19.766951 -6.4622645 -54.8344
4092203125 -6.4629855 -56.06958 -2.3400886 19.760284 -2.3513689 19.651169 -6.4844213 -55.00034
4113137500 -6.482656 -56.227318 -2.3304145 19.649298 -2.3399866 19.546547 -6.5063863 -55.128994
4134071875 -6.5004487 -56.396633 -2.3172374 19.564077 -2.3273394 19.442881 -6.5235262 -55.258175
4155006250 -6.5204926 -56.524529 -2.3045559 19.45812 -2.3151965 19.33712 -6.5455475 -55.392216
4175940625 -6.5426168 -56.656391 -2.2913413 19.368967 -2.3029311 19.234465 -6.5674992 -55.49506
4196875000 -6.5692091 -56.789116 -2.2739108 19.232027 -2.2898796 19.124876 -6.5876098 -55.650112
4217809375 -6.5886893 -56.909668 -2.2673838 19.114023 -2.2786212 19.014685 -6.6122475 -55.778301
4238743750 -6.6074233 -57.090881 -2.2565055 19.035648 -2.2677205 18.908407 -6.6303205 -55.896393
