!Keysight Technologies,N5227A,US51270248,A.10.65.08
!Date: Tuesday, June 11, 2024 06:47:43
!Correction: S11(Full 2 Port(1,4)) 
!S41(Full 2 Port(1,4)) 
!S14(Full 2 Port(1,4)) 
!S44(Full 2 Port(1,4)) 
!S2P File: Measurements: S11, S41, S14, S44:
# Hz S  dB   R 50
10000000 -2.0720639 -0.25641814 -13.435708 0.81057107 -13.45593 0.85311842 -2.0715966 -0.24136809
30934375 -2.0723553 -0.75973237 -13.414776 2.302299 -13.425425 2.3027561 -2.0732462 -0.72926158
51868750 -2.0767322 -1.24292 -13.402481 3.8050251 -13.397927 3.7979648 -2.079165 -1.2054982
72803125 -2.0812621 -1.6920208 -13.369849 5.3358512 -13.362581 5.3037844 -2.0847015 -1.647091
93737500 -2.0845509 -2.1365435 -13.323476 6.8432035 -13.314846 6.8058624 -2.0897202 -2.0865815
114671875 -2.0882382 -2.5941734 -13.265109 8.2987547 -13.254469 8.2468634 -2.0948207 -2.5365405
135606250 -2.0925169 -3.0688167 -13.199426 9.7098789 -13.188616 9.6450863 -2.1002803 -2.9998851
156540625 -2.0988631 -3.5446365 -13.128799 11.073156 -13.117236 11.001123 -2.1062756 -3.4634728
177475000 -2.1048386 -4.0008578 -13.050804 12.423258 -13.040562 12.343442 -2.1122355 -3.9157577
198409375 -2.1111805 -4.4439836 -12.963292 13.742469 -12.952238 13.657959 -2.1178911 -4.3475175
219343750 -2.1163688 -4.8926768 -12.866632 15.000784 -12.850887 14.908895 -2.1247795 -4.7948966
240278125 -2.1240499 -5.3561673 -12.767027 16.20941 -12.744453 16.105396 -2.1353505 -5.2498198
261212500 -2.1338539 -5.8170514 -12.661815 17.357405 -12.64164 17.264767 -2.1459994 -5.7030759
282146875 -2.1437421 -6.2700567 -12.553274 18.489285 -12.531688 18.39093 -2.1549993 -6.1545148
303081250 -2.1519513 -6.7166843 -12.439685 19.576633 -12.417689 19.466963 -2.1643014 -6.6008449
324015625 -2.161648 -7.1641669 -12.321006 20.616207 -12.300363 20.50135 -2.1731579 -7.0369339
344950000 -2.1710799 -7.6035299 -12.199716 21.607506 -12.178429 21.484991 -2.1820617 -7.4712529
365884375 -2.18191 -8.0460291 -12.075501 22.543442 -12.055372 22.430805 -2.1927803 -7.9070129
386818750 -2.1947598 -8.4979219 -11.948919 23.443285 -11.929852 23.322184 -2.2054186 -8.3487787
407753125 -2.2074978 -8.9460402 -11.82314 24.297783 -11.803092 24.184429 -2.2179313 -8.7871418
428687500 -2.2202747 -9.3813086 -11.693968 25.122789 -11.673347 25.005205 -2.2292562 -9.2214117
449621875 -2.229655 -9.8161163 -11.561977 25.897827 -11.541166 25.773537 -2.2411995 -9.6631927
470556250 -2.2416821 -10.258956 -11.429686 26.62648 -11.409052 26.501617 -2.254245 -10.09082
491490625 -2.2556953 -10.694935 -11.297267 27.315697 -11.27768 27.197462 -2.2666876 -10.511549
512425000 -2.2690587 -11.121861 -11.164689 27.969416 -11.146061 27.857119 -2.2805157 -10.933339
533359375 -2.2835703 -11.551802 -11.030665 28.596851 -11.01271 28.475935 -2.2955074 -11.360237
554293750 -2.2975934 -11.983582 -10.898597 29.172134 -10.879758 29.056534 -2.310504 -11.791118
575228125 -2.3123004 -12.4168 -10.768428 29.720476 -10.746759 29.599415 -2.3255823 -12.220665
596162500 -2.3273723 -12.840117 -10.636672 30.239662 -10.616954 30.112778 -2.3404846 -12.641208
617096875 -2.3430429 -13.264843 -10.505855 30.720989 -10.487233 30.601778 -2.3555887 -13.060143
638031250 -2.3588202 -13.681525 -10.376152 31.180412 -10.357469 31.060488 -2.3728454 -13.471605
658965625 -2.3749628 -14.09832 -10.247576 31.606922 -10.228605 31.482344 -2.3897147 -13.882554
679900000 -2.3920093 -14.522102 -10.119846 32.006744 -10.10214 31.871374 -2.4065738 -14.300159
700834375 -2.4103248 -14.934151 -9.9947805 32.37809 -9.9782343 32.255333 -2.4254317 -14.71358
721768750 -2.4291902 -15.346294 -9.8706636 32.734097 -9.8519993 32.611423 -2.4438446 -15.12236
742703125 -2.4471774 -15.744935 -9.7459068 33.063889 -9.7265644 32.936913 -2.4610627 -15.518578
763637500 -2.4648623 -16.153143 -9.6233664 33.364655 -9.6045866 33.23027 -2.4772549 -15.918854
784571875 -2.4828823 -16.564999 -9.5008545 33.650131 -9.4855576 33.507923 -2.4959371 -16.321068
805506250 -2.5026097 -16.971088 -9.3826675 33.908089 -9.3668022 33.785782 -2.5149088 -16.720022
826440625 -2.5227242 -17.372902 -9.2652836 34.150677 -9.24687 34.021408 -2.5345647 -17.116957
847375000 -2.5425546 -17.765116 -9.1480637 34.386181 -9.1309252 34.245735 -2.5557454 -17.508989
868309375 -2.5647821 -18.161392 -9.032588 34.591148 -9.0170069 34.463009 -2.5774624 -17.894312
889243750 -2.5842798 -18.550261 -8.91817 34.783176 -8.9009848 34.647232 -2.5965557 -18.276854
910178125 -2.6036117 -18.944105 -8.8038015 34.958775 -8.7886229 34.807308 -2.6159661 -18.668568
931112500 -2.6238577 -19.338057 -8.6917753 35.108093 -8.678545 34.964542 -2.6361618 -19.047222
952046875 -2.644419 -19.726276 -8.5825758 35.240837 -8.5686054 35.101307 -2.6564381 -19.426706
972981250 -2.66588 -20.107056 -8.4762917 35.359673 -8.4610872 35.218472 -2.6785707 -19.812607
993915625 -2.6869674 -20.486958 -8.3701735 35.487148 -8.3550386 35.330994 -2.7012899 -20.190901
1014850000 -2.7099245 -20.869774 -8.2632103 35.565895 -8.2511702 35.419121 -2.7228434 -20.571201
1035784375 -2.7324324 -21.250097 -8.1635857 35.638027 -8.1504335 35.500626 -2.7454371 -20.948805
1056718750 -2.7534962 -21.625389 -8.0619202 35.723652 -8.0485277 35.577892 -2.7665863 -21.319536
1077653125 -2.7743244 -21.998877 -7.9611673 35.782032 -7.9483099 35.630424 -2.7879653 -21.685965
1098587500 -2.7961593 -22.367338 -7.8635612 35.826477 -7.850224 35.675045 -2.8101099 -22.041639
1119521875 -2.8204186 -22.729391 -7.7669225 35.860245 -7.7548108 35.712582 -2.8331442 -22.404119
1140456250 -2.8442965 -23.085289 -7.6728835 35.887394 -7.6605477 35.748211 -2.8570232 -22.76326
1161390625 -2.867969 -23.451338 -7.5803599 35.903725 -7.5666819 35.765553 -2.8800817 -23.125612
1182325000 -2.8908181 -23.819073 -7.4880543 35.915028 -7.4749846 35.765305 -2.902838 -23.484478
1203259375 -2.9137461 -24.180563 -7.3976068 35.91087 -7.3850336 35.757954 -2.9248357 -23.838383
1224193750 -2.9366586 -24.538418 -7.3075209 35.900234 -7.296576 35.749168 -2.9475622 -24.190977
1245128125 -2.9607005 -24.888742 -7.2220068 35.880512 -7.2104807 35.733109 -2.9728689 -24.532801
1266062500 -2.9863544 -25.241121 -7.1367173 35.865879 -7.1255398 35.710384 -2.9983175 -24.876471
1286996875 -3.0133176 -25.582264 -7.0524225 35.82629 -7.0415325 35.681309 -3.0234849 -25.226748
1307931250 -3.0374482 -25.933096 -6.9701905 35.79493 -6.959208 35.647022 -3.0487974 -25.578369
1328865625 -3.060941 -26.29133 -6.8877587 35.756264 -6.8777971 35.599945 -3.0726936 -25.924747
1349800000 -3.0851462 -26.638554 -6.8085666 35.701118 -6.7986569 35.546055 -3.0965824 -26.260962
1370734375 -3.1105499 -26.981562 -6.729959 35.655479 -6.7217031 35.493454 -3.1217716 -26.589548
1391668750 -3.1364529 -27.312292 -6.6521201 35.595081 -6.643188 35.443123 -3.1465824 -26.923756
1412603125 -3.1622107 -27.645391 -6.5765457 35.53492 -6.567286 35.377171 -3.1734886 -27.258106
1433537500 -3.1891503 -27.983479 -6.5013113 35.46093 -6.4933777 35.309914 -3.1994176 -27.592665
1454471875 -3.214695 -28.316376 -6.4294763 35.380802 -6.4204082 35.233116 -3.2245524 -27.931314
1475406250 -3.2389958 -28.658791 -6.3575511 35.313877 -6.3502536 35.156952 -3.2503059 -28.253912
1496340625 -3.2643018 -28.986439 -6.2863603 35.23246 -6.2789974 35.087212 -3.2740674 -28.570576
1517275000 -3.2893927 -29.304651 -6.2168808 35.150345 -6.2089453 35.002663 -3.3003027 -28.87982
1538209375 -3.3158264 -29.621656 -6.147891 35.071575 -6.1408968 34.918236 -3.3264346 -29.194086
1559143750 -3.3429539 -29.937393 -6.0789204 34.969307 -6.0726333 34.825012 -3.3542185 -29.512018
1580078125 -3.3688221 -30.262735 -6.0146694 34.871899 -6.0064631 34.73074 -3.3808491 -29.826897
1601012500 -3.394918 -30.585274 -5.9496636 34.778999 -5.9413776 34.630199 -3.4059935 -30.145386
1621946875 -3.4202151 -30.899691 -5.8869028 34.674133 -5.8783617 34.521042 -3.4324539 -30.452436
1642881250 -3.4466465 -31.214235 -5.8226752 34.582531 -5.8160672 34.425831 -3.4583356 -30.747877
1663815625 -3.4737394 -31.51799 -5.7597814 34.472641 -5.7528219 34.323753 -3.4846735 -31.044064
1684750000 -3.5018172 -31.818569 -5.6986637 34.364265 -5.6924529 34.213688 -3.5120254 -31.342188
1705684375 -3.529547 -32.123852 -5.6392064 34.242226 -5.632617 34.100986 -3.5398126 -31.649263
1726618750 -3.5559778 -32.437843 -5.5820737 34.136177 -5.5744181 33.987469 -3.5666213 -31.949463
1747553125 -3.5840087 -32.748497 -5.5240269 34.034107 -5.5170736 33.875778 -3.59374 -32.248707
1768487500 -3.6115761 -33.045155 -5.4652729 33.916634 -5.4606915 33.76469 -3.6204457 -32.537388
1789421875 -3.6388021 -33.335255 -5.4097385 33.796524 -5.4051986 33.651825 -3.6480095 -32.818447
1810356250 -3.6666658 -33.632069 -5.3537369 33.679386 -5.3499904 33.540363 -3.6755476 -33.105522
1831290625 -3.6944284 -33.92659 -5.2989273 33.564831 -5.2934775 33.415932 -3.7028368 -33.392811
1852225000 -3.7220118 -34.224091 -5.245575 33.449352 -5.2400289 33.282818 -3.7309601 -33.679523
1873159375 -3.7500701 -34.519798 -5.1918473 33.313366 -5.1891813 33.162563 -3.7582984 -33.961994
1894093750 -3.7763913 -34.805492 -5.1422458 33.182919 -5.1369963 33.031631 -3.7859988 -34.244415
1915028125 -3.8041131 -35.091408 -5.0904298 33.067074 -5.0880651 32.912174 -3.8139472 -34.515591
1935962500 -3.8307388 -35.368637 -5.0403152 32.942265 -5.0359993 32.80201 -3.8402762 -34.789135
1956896875 -3.8577869 -35.655239 -4.9888763 32.826591 -4.9848704 32.658531 -3.8684506 -35.067451
1977831250 -3.8864784 -35.928528 -4.938107 32.672787 -4.9370275 32.526005 -3.8956554 -35.340775
1998765625 -3.912117 -36.20266 -4.893517 32.533806 -4.8893232 32.394009 -3.9219973 -35.612968
2019700000 -3.9387174 -36.484142 -4.8478408 32.411243 -4.8435726 32.272518 -3.9496686 -35.868843
2040634375 -3.9660573 -36.758244 -4.80123 32.284504 -4.7957034 32.144527 -3.9764609 -36.133907
2061568750 -3.9946928 -37.022495 -4.7545261 32.154579 -4.7503738 32.006912 -4.0047626 -36.399822
2082503125 -4.0227151 -37.285976 -4.7093358 32.019047 -4.7061787 31.873983 -4.0332522 -36.661041
2103437500 -4.0501642 -37.555305 -4.6648307 31.878628 -4.6618004 31.739183 -4.0609503 -36.918633
2124371875 -4.0776553 -37.824982 -4.6223049 31.747181 -4.6185436 31.606283 -4.0865974 -37.168785
2145306250 -4.1058836 -38.090424 -4.5791993 31.613194 -4.5759974 31.476576 -4.1128163 -37.425983
2166240625 -4.1331244 -38.347797 -4.5379672 31.480118 -4.5340772 31.339638 -4.1412015 -37.676479
2187175000 -4.1618977 -38.609131 -4.4956322 31.355373 -4.493578 31.202303 -4.1711164 -37.92099
2208109375 -4.1914048 -38.868713 -4.4546509 31.213861 -4.453701 31.073301 -4.1995649 -38.167656
2229043750 -4.22047 -39.128811 -4.4131122 31.090324 -4.4125171 30.942356 -4.2266102 -38.421852
2249978125 -4.2490544 -39.384228 -4.3726969 30.951248 -4.3723135 30.807531 -4.2537055 -38.670658
2270912500 -4.2762322 -39.641403 -4.3338475 30.814959 -4.3328233 30.6717 -4.2809505 -38.913177
2291846875 -4.3044572 -39.890911 -4.2960906 30.674625 -4.29425 30.530113 -4.3090067 -39.151333
2312781250 -4.331779 -40.140171 -4.259233 30.546989 -4.2568178 30.404375 -4.3378463 -39.385571
2333715625 -4.3606024 -40.388836 -4.2190199 30.419798 -4.2191029 30.268335 -4.3671432 -39.633587
2354650000 -4.3895869 -40.635494 -4.1814051 30.273346 -4.1826344 30.131124 -4.3961086 -39.876099
2375584375 -4.4169688 -40.881935 -4.1447964 30.136185 -4.1446843 29.996368 -4.4231253 -40.123074
2396518750 -4.4441423 -41.122803 -4.1097193 29.999872 -4.1102309 29.856287 -4.4507117 -40.350853
2417453125 -4.4708037 -41.360847 -4.0740485 29.864952 -4.0742359 29.732944 -4.4761891 -40.569206
2438387500 -4.4971318 -41.593105 -4.0390987 29.730978 -4.0379701 29.591169 -4.5038371 -40.793392
2459321875 -4.5247002 -41.823036 -4.0028281 29.59812 -4.0039411 29.450836 -4.5331626 -41.012283
2480256250 -4.5525804 -42.05547 -3.9686251 29.456923 -3.970001 29.316481 -4.560225 -41.238922
2501190625 -4.5797086 -42.296295 -3.9328153 29.323433 -3.9366255 29.180979 -4.5868702 -41.469543
2522125000 -4.6074286 -42.517563 -3.9004574 29.16736 -3.9019506 29.041914 -4.6119976 -41.693867
2543059375 -4.6330757 -42.744167 -3.8703849 29.039042 -3.8691807 28.896687 -4.6380849 -41.915596
2563993750 -4.6608772 -42.971123 -3.8372343 28.907734 -3.8375578 28.770117 -4.6653767 -42.11697
2584928125 -4.6889472 -43.193016 -3.8051658 28.772614 -3.8054786 28.631628 -4.6933603 -42.327259
2605862500 -4.7178898 -43.404755 -3.7731059 28.633921 -3.7749391 28.494183 -4.7219148 -42.542294
2626796875 -4.7457933 -43.625675 -3.7415993 28.495632 -3.743031 28.361149 -4.7487149 -42.762352
2647731250 -4.7735467 -43.855942 -3.7097044 28.353344 -3.7132638 28.222923 -4.7743535 -42.986065
2668665625 -4.8005967 -44.070076 -3.6810417 28.206047 -3.6818576 28.08049 -4.8008399 -43.209045
2689600000 -4.826457 -44.282185 -3.6536374 28.071865 -3.6544344 27.934193 -4.828311 -43.404835
2710534375 -4.8522472 -44.503273 -3.6263943 27.950266 -3.625685 27.811481 -4.8561726 -43.606251
2731468750 -4.8800611 -44.732513 -3.5938306 27.830235 -3.5960968 27.681616 -4.8830323 -43.811619
2752403125 -4.9093852 -44.937832 -3.5624125 27.674341 -3.5674257 27.540874 -4.909935 -44.03598
2773337500 -4.9345818 -45.141899 -3.5367105 27.53273 -3.5390732 27.396208 -4.9380674 -44.255322
2794271875 -4.9605718 -45.360443 -3.5097013 27.399937 -3.5115948 27.259922 -4.9645 -44.45599
2815206250 -4.986084 -45.581055 -3.4818668 27.264891 -3.4836912 27.13088 -4.9887538 -44.66156
2836140625 -5.01228 -45.777588 -3.4556391 27.132326 -3.457011 26.99078 -5.0165639 -44.864662
2857075000 -5.0376453 -45.985577 -3.4287949 27.007713 -3.43085 26.85898 -5.0440607 -45.051689
2878009375 -5.0654893 -46.192062 -3.3994036 26.864563 -3.4050012 26.719954 -5.0716701 -45.257046
2898943750 -5.09231 -46.386955 -3.3739283 26.713449 -3.379494 26.582058 -5.0970716 -45.455994
2919878125 -5.1174426 -46.590374 -3.3502545 26.580482 -3.3530059 26.445957 -5.1208653 -45.665676
2940812500 -5.142035 -46.787292 -3.3265078 26.455538 -3.3284719 26.307392 -5.1476669 -45.863586
2961746875 -5.1682162 -46.992287 -3.3004115 26.320885 -3.3035274 26.1793 -5.1730905 -46.046436
2982681250 -5.1942496 -47.17968 -3.2776325 26.186724 -3.2801449 26.04867 -5.2006407 -46.235466
3003615625 -5.221765 -47.374123 -3.2519214 26.057676 -3.2567301 25.926321 -5.2268348 -46.410679
3024550000 -5.2478108 -47.55418 -3.2288318 25.909605 -3.2313306 25.783979 -5.2516804 -46.619907
3045484375 -5.2722669 -47.751945 -3.2067645 25.790167 -3.208813 25.641785 -5.2784882 -46.816673
3066418750 -5.2991443 -47.959496 -3.1817248 25.66485 -3.1855097 25.513687 -5.3032923 -46.996876
3087353125 -5.3262243 -48.138851 -3.158505 25.523401 -3.1630406 25.384792 -5.3279934 -47.179554
3108287500 -5.3516293 -48.312927 -3.1387737 25.381046 -3.141077 25.257776 -5.3553343 -47.364132
3129221875 -5.375576 -48.494762 -3.1190612 25.261347 -3.1195726 25.127016 -5.3825889 -47.552094
3150156250 -5.4004583 -48.702843 -3.0948873 25.152849 -3.0973146 24.995926 -5.4086866 -47.741459
3171090625 -5.4279308 -48.902733 -3.0695419 25.018866 -3.0755742 24.865572 -5.4327955 -47.932999
3192025000 -5.453166 -49.075291 -3.048656 24.863836 -3.0541344 24.727238 -5.458158 -48.120384
3212959375 -5.4770155 -49.253208 -3.0311403 24.742172 -3.0344679 24.600447 -5.485065 -48.300659
3233893750 -5.5013604 -49.441196 -3.0102124 24.624157 -3.0139999 24.484032 -5.5102849 -48.462036
3254828125 -5.5257831 -49.622696 -2.9907393 24.505777 -2.9924793 24.358591 -5.5349579 -48.649662
3275762500 -5.551692 -49.818577 -2.9671009 24.390507 -2.9723835 24.222925 -5.5642047 -48.844341
3296696875 -5.5775146 -49.993637 -2.9457476 24.236229 -2.9530785 24.095243 -5.5881786 -49.012608
3317631250 -5.6005902 -50.170753 -2.928041 24.113598 -2.9337146 23.966127 -5.6122518 -49.199085
3338565625 -5.6243992 -50.345169 -2.909194 23.984756 -2.9151983 23.844831 -5.6362162 -49.359577
3359500000 -5.6474481 -50.516582 -2.8910446 23.870852 -2.8944547 23.72089 -5.658752 -49.534706
3380434375 -5.6736145 -50.693577 -2.8691714 23.749836 -2.8763068 23.593166 -5.6876578 -49.714146
3401368750 -5.6999221 -50.854733 -2.8504539 23.600374 -2.8589668 23.476463 -5.713676 -49.878052
3422303125 -5.7223215 -51.026562 -2.8351524 23.483658 -2.840277 23.347042 -5.7389193 -50.067204
3443237500 -5.7458591 -51.21545 -2.8175678 23.382771 -2.8237998 23.224661 -5.763916 -50.22813
3464171875 -5.7726398 -51.386539 -2.7960367 23.255119 -2.8048477 23.111994 -5.7844992 -50.387657
3485106250 -5.7977939 -51.542213 -2.7775037 23.120173 -2.7867811 22.990622 -5.8074937 -50.551151
3506040625 -5.8218951 -51.684902 -2.7625089 22.984858 -2.7680364 22.864906 -5.8332276 -50.725483
3526975000 -5.8442135 -51.847069 -2.7487261 22.885061 -2.7521129 22.742056 -5.8621564 -50.893673
3547909375 -5.8699088 -52.029636 -2.7290812 22.776556 -2.7364917 22.630812 -5.889276 -51.047886
3568843750 -5.8940449 -52.199192 -2.7123055 22.644253 -2.7179253 22.517693 -5.9082527 -51.216976
3589778125 -5.9162803 -52.375023 -2.6953769 22.550474 -2.7011614 22.38863 -5.9303164 -51.392319
3610712500 -5.9425135 -52.534718 -2.6743219 22.416426 -2.6856534 22.269934 -5.9555116 -51.535294
3631646875 -5.9651775 -52.668312 -2.6621399 22.277636 -2.6683934 22.159464 -5.977767 -51.682446
3652581250 -5.9864206 -52.827183 -2.6478279 22.17803 -2.6508923 22.039589 -6.0035272 -51.857613
3673515625 -6.0088291 -52.998867 -2.6317658 22.081455 -2.6360505 21.91643 -6.032845 -52.014324
3694450000 -6.033792 -53.190815 -2.6118085 21.97106 -2.6207314 21.80043 -6.056715 -52.169662
3715384375 -6.0597005 -53.352314 -2.5937402 21.826223 -2.6064725 21.682705 -6.0781784 -52.324657
3736318750 -6.0800066 -53.499741 -2.5819998 21.707691 -2.5894482 21.575453 -6.0968776 -52.482754
3757253125 -6.100142 -53.656662 -2.5660212 21.611965 -2.5736973 21.448252 -6.1204615 -52.652084
3778187500 -6.1247807 -53.79517 -2.5496809 21.481768 -2.5600588 21.335049 -6.1476789 -52.780613
3799121875 -6.147532 -53.945362 -2.5377483 21.376598 -2.5447485 21.226351 -6.1706309 -52.926395
3820056250 -6.1728616 -54.123848 -2.5166907 21.269611 -2.5314341 21.113087 -6.1979418 -53.089211
3840990625 -6.1960268 -54.259644 -2.5051751 21.123623 -2.5157893 21.008068 -6.2174168 -53.226818
3861925000 -6.2151875 -54.423527 -2.4923475 21.032619 -2.5010881 20.884844 -6.2354555 -53.403324
3882859375 -6.2395415 -54.572617 -2.475364 20.92083 -2.4874587 20.771578 -6.2612362 -53.552471
3903793750 -6.2619171 -54.702221 -2.4620545 20.798056 -2.4734535 20.663836 -6.2832975 -53.662697
3924728125 -6.2855797 -54.831566 -2.4483039 20.670191 -2.4589603 20.545652 -6.3052917 -53.805637
3945662500 -6.3060026 -54.968891 -2.4385598 20.564949 -2.4449065 20.435616 -6.3284912 -53.962856
3966596875 -6.3277192 -55.153778 -2.4219444 20.477989 -2.4317322 20.323002 -6.3508205 -54.124229
3987531250 -6.3538642 -55.304516 -2.4053519 20.342134 -2.4187469 20.214502 -6.3729496 -54.274044
4008465625 -6.3741121 -55.430206 -2.3979652 20.221823 -2.4046955 20.109081 -6.3924408 -54.403744
4029400000 -6.3934221 -55.579884 -2.3854222 20.138807 -2.3913362 19.999939 -6.4118552 -54.539749
4050334375 -6.4172745 -55.716202 -2.3704665 20.026333 -2.3781354 19.891899 -6.4355893 -54.679058
4071268750 -6.4386992 -55.859646 -2.3580501 19.920778 -2.3642972 19.781998 -6.4571514 -54.805126
4092203125 -6.4618282 -56.018845 -2.3435166 19.805294 -2.3523033 19.666586 -6.4793897 -54.963089
4113137500 -6.4824495 -56.163841 -2.3346388 19.693913 -2.340636 19.563002 -6.5027957 -55.097263
4134071875 -6.5019646 -56.335423 -2.3208444 19.609728 -2.3277481 19.458748 -6.5218759 -55.226933
4155006250 -6.5220547 -56.471222 -2.3077848 19.500353 -2.3158233 19.350052 -6.5431905 -55.370113
4175940625 -6.5432167 -56.619164 -2.2940366 19.411823 -2.3034179 19.250597 -6.5639143 -55.46954
4196875000 -6.5699363 -56.740822 -2.277952 19.273773 -2.2906616 19.137865 -6.5824809 -55.617809
4217809375 -6.5881839 -56.858582 -2.2710609 19.159178 -2.2799885 19.031651 -6.6071935 -55.745888
4238743750 -6.6077762 -57.030556 -2.2596445 19.083515 -2.2679977 18.929533 -6.6277838 -55.862122
