!Keysight Technologies,N5227A,US51270248,A.10.65.08
!Date: Tuesday, June 11, 2024 08:02:14
!Correction: S11(Full 2 Port(1,4)) 
!S41(Full 2 Port(1,4)) 
!S14(Full 2 Port(1,4)) 
!S44(Full 2 Port(1,4)) 
!S2P File: Measurements: S11, S41, S14, S44:
# Hz S  dB   R 50
10000000 -0.39706156 179.55421 -73.687851 93.680481 -77.003944 65.454773 -0.021596041 -0.31067017
30934375 -0.44613317 179.6452 -71.43586 85.192177 -71.549355 86.097214 -0.01567371 -0.99982852
51868750 -0.44374812 179.48524 -66.423904 90.739792 -67.267693 91.750595 -0.012800438 -1.6550312
72803125 -0.43902248 179.27274 -63.543316 93.247482 -63.978962 91.606377 -0.025940146 -2.2997944
93737500 -0.43714473 179.05487 -61.339939 95.571297 -61.798649 94.877281 -0.027941827 -2.9248893
114671875 -0.43720654 178.84811 -59.654602 97.777367 -59.992653 97.40551 -0.031147178 -3.5566707
135606250 -0.44078273 178.67986 -58.172813 99.451859 -58.367767 99.300751 -0.036610272 -4.2004318
156540625 -0.44241872 178.53307 -56.802319 101.61449 -57.137539 101.55054 -0.040265221 -4.8528018
177475000 -0.43978003 178.33771 -55.609539 103.02461 -55.90361 102.36504 -0.057221361 -5.4792166
198409375 -0.44294801 178.1156 -54.468803 104.54266 -54.797337 104.08544 -0.05928437 -6.0824981
219343750 -0.44789931 177.91132 -53.501049 105.64314 -53.827347 105.60842 -0.063475683 -6.7056689
240278125 -0.449985 177.73839 -52.588135 107.14947 -52.8456 107.08152 -0.068204984 -7.3502307
261212500 -0.44917351 177.56885 -51.730602 108.52584 -52.058849 108.62509 -0.07441666 -7.9885526
282146875 -0.45045975 177.39075 -50.953331 109.49444 -51.243587 110.01762 -0.079152629 -8.6227388
303081250 -0.45434985 177.21533 -50.1824 110.37325 -50.40115 111.16408 -0.085968092 -9.2491922
324015625 -0.45958781 177.0499 -49.414639 111.23788 -49.77211 111.95441 -0.090389237 -9.8583336
344950000 -0.4644677 176.8456 -48.695862 112.21532 -49.03553 113.37349 -0.092775561 -10.465374
365884375 -0.46323973 176.66522 -48.082939 113.42587 -48.393036 114.29382 -0.10043063 -11.080883
386818750 -0.46186361 176.49667 -47.485973 114.48207 -47.751385 115.19915 -0.10964729 -11.710014
407753125 -0.46067482 176.32736 -46.87315 115.24429 -47.106419 116.02146 -0.12051356 -12.321092
428687500 -0.46064499 176.14188 -46.300915 115.95369 -46.506142 116.72778 -0.12127984 -12.933517
449621875 -0.46472201 175.95287 -45.74868 116.73409 -45.968494 117.47359 -0.12960102 -13.559714
470556250 -0.46672928 175.7713 -45.22192 117.42693 -45.429516 118.2168 -0.13628817 -14.163965
491490625 -0.46749619 175.58502 -44.702103 118.19012 -44.906578 119.06942 -0.14451432 -14.759327
512425000 -0.46769127 175.39594 -44.206188 118.83509 -44.401382 119.59924 -0.15640825 -15.356818
533359375 -0.46923453 175.21727 -43.740234 119.45567 -43.902065 119.90765 -0.17632644 -15.966211
554293750 -0.47350377 175.05013 -43.207706 120.00312 -43.436577 120.59502 -0.18452927 -16.580763
575228125 -0.47340301 174.87389 -42.784775 120.60513 -42.934223 121.25964 -0.19038476 -17.182224
596162500 -0.47538024 174.68504 -42.325443 120.96444 -42.476463 121.59918 -0.19741955 -17.780073
617096875 -0.47703272 174.49672 -41.90374 121.55242 -42.033237 121.97811 -0.20415369 -18.383013
638031250 -0.4779512 174.31947 -41.491001 121.95518 -41.620369 122.52928 -0.2144053 -18.9781
658965625 -0.47908041 174.14323 -41.086823 122.52597 -41.195187 123.09952 -0.22332726 -19.571404
679900000 -0.48089096 173.96829 -40.672741 122.93763 -40.782707 123.23538 -0.23635824 -20.170444
700834375 -0.48324147 173.79637 -40.290573 123.31765 -40.408672 123.76747 -0.24453576 -20.771286
721768750 -0.48433641 173.6181 -39.876431 123.67044 -40.006962 124.44624 -0.2547538 -21.356779
742703125 -0.48448226 173.42937 -39.499844 124.06285 -39.590176 124.71149 -0.26091763 -21.926653
763637500 -0.48516846 173.24561 -39.130981 124.22794 -39.213989 124.73976 -0.26892534 -22.514452
784571875 -0.48821267 173.07179 -38.774639 124.51853 -38.881474 125.03112 -0.27969936 -23.105732
805506250 -0.49160373 172.90172 -38.420689 124.83621 -38.550667 125.67715 -0.28906196 -23.685072
826440625 -0.49069887 172.72484 -38.02187 125.35983 -38.122448 126.15034 -0.29678929 -24.273344
847375000 -0.49172223 172.54114 -37.658779 125.45435 -37.748089 125.96375 -0.31026551 -24.851742
868309375 -0.49042147 172.35678 -37.338478 125.5481 -37.413971 125.99397 -0.31948194 -25.416021
889243750 -0.48984665 172.16431 -37.015518 125.65971 -37.088123 126.17348 -0.32712266 -25.983646
910178125 -0.49224809 171.98222 -36.693783 125.80982 -36.753441 126.34505 -0.33631134 -26.564095
931112500 -0.49436048 171.81918 -36.376503 126.0259 -36.44453 126.29424 -0.34574959 -27.137125
952046875 -0.49676177 171.64366 -36.064171 126.05296 -36.152721 126.66672 -0.35559699 -27.701946
972981250 -0.49707714 171.45204 -35.757294 126.29099 -35.818287 126.88226 -0.36300039 -28.272827
993915625 -0.49986985 171.2628 -35.453571 126.39571 -35.513893 126.95665 -0.37582827 -28.840006
1014850000 -0.49977353 171.08884 -35.148739 126.33311 -35.198711 126.92664 -0.38078812 -29.412022
1035784375 -0.49995321 170.91304 -34.873428 126.44443 -34.934605 127.00576 -0.39004174 -29.98073
1056718750 -0.50187379 170.73218 -34.579056 126.51696 -34.631004 127.21946 -0.39717788 -30.548601
1077653125 -0.50561684 170.55585 -34.295753 126.57314 -34.325825 127.1368 -0.4079245 -31.105082
1098587500 -0.50909191 170.38388 -34.017807 126.52743 -34.057835 126.95909 -0.41671947 -31.649563
1119521875 -0.50953418 170.19937 -33.757858 126.49416 -33.793209 126.9519 -0.43017802 -32.19706
1140456250 -0.51022583 170.005 -33.493187 126.49281 -33.526112 126.95888 -0.44125697 -32.751026
1161390625 -0.50984192 169.82864 -33.233788 126.52366 -33.257763 127.06324 -0.45162877 -33.299202
1182325000 -0.51055628 169.65851 -32.967628 126.45447 -32.976837 126.88055 -0.46070522 -33.852695
1203259375 -0.51616967 169.48215 -32.70314 126.17854 -32.733589 126.72485 -0.46993983 -34.406456
1224193750 -0.52708495 169.30022 -32.428112 125.66495 -32.4972 126.6135 -0.48126531 -34.952518
1245128125 -0.5257436 169.11453 -32.200336 125.76463 -32.260323 126.57349 -0.49263456 -35.482235
1266062500 -0.5249151 168.92964 -31.966463 125.7411 -32.025639 126.44635 -0.5070278 -36.016411
1286996875 -0.52360791 168.73918 -31.736273 125.69819 -31.791502 126.41963 -0.51811671 -36.562931
1307931250 -0.52260637 168.55869 -31.509497 125.66569 -31.531502 125.81605 -0.53064942 -37.109077
1328865625 -0.52440894 168.38855 -31.28721 125.62505 -31.286366 125.40166 -0.54174191 -37.649586
1349800000 -0.52676266 168.21913 -31.066811 125.54392 -31.075062 125.3989 -0.5513404 -38.176121
1370734375 -0.52988923 168.0309 -30.84481 125.36631 -30.857374 124.88889 -0.56336963 -38.699745
1391668750 -0.5304181 167.83492 -30.63814 125.43687 -30.649746 125.17757 -0.57515895 -39.224686
1412603125 -0.5309751 167.64609 -30.420837 125.31741 -30.420668 124.99133 -0.58827162 -39.7467
1433537500 -0.5304271 167.46794 -30.207668 125.22928 -30.208132 124.74584 -0.60065848 -40.281181
1454471875 -0.53228801 167.29546 -30.001888 125.09148 -29.984331 124.67355 -0.60925156 -40.820042
1475406250 -0.53626263 167.12422 -29.801149 124.9917 -29.805332 124.58275 -0.62034106 -41.341511
1496340625 -0.53878605 166.95007 -29.606237 124.92949 -29.616112 124.63383 -0.63063264 -41.846935
1517275000 -0.54244041 166.75987 -29.405252 124.7511 -29.41654 124.59865 -0.64064461 -42.347473
1538209375 -0.54292089 166.55896 -29.207565 124.66041 -29.218006 124.47986 -0.6540854 -42.859764
1559143750 -0.54426873 166.36858 -29.0116 124.5161 -29.013433 124.34821 -0.66513652 -43.377544
1580078125 -0.54611844 166.19688 -28.827868 124.39381 -28.833231 124.1115 -0.67552274 -43.899937
1601012500 -0.54884821 166.02846 -28.642336 124.30354 -28.639971 124.03953 -0.68569535 -44.422073
1621946875 -0.55263865 165.85353 -28.451097 124.06754 -28.456224 123.81684 -0.69826829 -44.927109
1642881250 -0.55464327 165.66463 -28.270802 123.97977 -28.29076 123.71556 -0.7093308 -45.411598
1663815625 -0.55726337 165.47362 -28.087173 123.77053 -28.111843 123.62617 -0.72223777 -45.898438
1684750000 -0.55799365 165.28017 -27.913254 123.62214 -27.934763 123.44446 -0.7353301 -46.400467
1705684375 -0.5644666 165.10216 -27.738121 123.29754 -27.756376 123.21578 -0.74723458 -46.914505
1726618750 -0.56570649 164.94197 -27.575533 123.23415 -27.586578 123.03843 -0.75918883 -47.414444
1747553125 -0.56726635 164.77834 -27.401903 123.18655 -27.419258 122.88985 -0.77182221 -47.905754
1768487500 -0.5693801 164.59769 -27.229042 123.00214 -27.25893 122.70181 -0.78348982 -48.384663
1789421875 -0.5723629 164.41309 -27.065426 122.78181 -27.099977 122.61434 -0.79521173 -48.857105
1810356250 -0.57456046 164.2364 -26.905039 122.68139 -26.938866 122.49689 -0.80716562 -49.343193
1831290625 -0.57471436 164.06468 -26.741369 122.53411 -26.76646 122.39071 -0.81861913 -49.836018
1852225000 -0.57543182 163.90038 -26.578402 122.39016 -26.599096 122.15187 -0.82985359 -50.329624
1873159375 -0.57908928 163.74258 -26.415546 122.16454 -26.444901 121.98627 -0.84087163 -50.803738
1894093750 -0.57978135 163.57048 -26.261395 122.03336 -26.273788 121.77477 -0.85168463 -51.276482
1915028125 -0.58198845 163.3819 -26.103983 121.79509 -26.139458 121.33739 -0.86470848 -51.748951
1935962500 -0.58668125 163.1958 -25.956562 121.58025 -25.990301 121.29102 -0.87760901 -52.2159
1956896875 -0.59025133 163.02827 -25.80809 121.39594 -25.817505 120.95712 -0.8895371 -52.687111
1977831250 -0.59212404 162.87521 -25.666439 121.12363 -25.674673 120.79182 -0.89791518 -53.168896
1998765625 -0.59293956 162.7173 -25.534107 121.04104 -25.538301 120.53954 -0.90692371 -53.6469
2019700000 -0.59567636 162.54726 -25.391182 120.83736 -25.414333 120.41762 -0.91327345 -54.114727
2040634375 -0.59529591 162.37158 -25.251308 120.72037 -25.266375 120.39812 -0.92479849 -54.566418
2061568750 -0.59584022 162.18565 -25.110788 120.56216 -25.120781 120.15103 -0.93703794 -55.025295
2082503125 -0.59619015 162.00565 -24.974916 120.39162 -24.994699 119.98031 -0.94920886 -55.492065
2103437500 -0.59646869 161.83983 -24.836432 120.25574 -24.858179 119.80182 -0.95858884 -55.955734
2124371875 -0.59735584 161.67657 -24.694855 120.05667 -24.731768 119.68204 -0.9673813 -56.417587
2145306250 -0.5955596 161.49774 -24.559702 119.90305 -24.588879 119.58959 -0.97847599 -56.868977
2166240625 -0.59485781 161.30081 -24.427408 119.74794 -24.449022 119.35544 -0.99096954 -57.305458
2187175000 -0.5955559 161.11006 -24.290585 119.58836 -24.321077 119.11484 -1.0040538 -57.743587
2208109375 -0.5946182 160.92802 -24.155539 119.41122 -24.202984 118.93297 -1.0161762 -58.197632
2229043750 -0.59319824 160.74373 -24.019693 119.21807 -24.072821 118.84258 -1.0272264 -58.660412
2249978125 -0.59531343 160.55986 -23.892643 119.03925 -23.935053 118.67914 -1.0376714 -59.106346
2270912500 -0.59871686 160.37953 -23.765541 118.82391 -23.79977 118.47334 -1.0464735 -59.542919
2291846875 -0.60052687 160.19734 -23.639874 118.61412 -23.677343 118.18476 -1.0574211 -59.97691
2312781250 -0.60362893 160.00409 -23.514961 118.39326 -23.571009 118.06605 -1.0694692 -60.411541
2333715625 -0.60540587 159.81082 -23.389305 118.18192 -23.445286 117.91973 -1.0821589 -60.852512
2354650000 -0.60648227 159.64104 -23.269621 118.06063 -23.329941 117.73692 -1.0937192 -61.30191
2375584375 -0.60829461 159.47577 -23.15032 117.9026 -23.197485 117.64961 -1.1033189 -61.746716
2396518750 -0.60965466 159.29884 -23.026636 117.74395 -23.071032 117.40101 -1.1117011 -62.174789
2417453125 -0.61210626 159.11073 -22.902874 117.56979 -22.957548 117.2681 -1.1209817 -62.589806
2438387500 -0.61592281 158.91673 -22.781111 117.34592 -22.814302 117.13361 -1.1317543 -63.007648
2459321875 -0.61665928 158.71635 -22.659964 117.16959 -22.697956 116.76594 -1.1420664 -63.435658
2480256250 -0.61810118 158.53548 -22.543554 116.97631 -22.594023 116.58864 -1.152137 -63.872417
2501190625 -0.61971754 158.36293 -22.42522 116.79039 -22.487513 116.41103 -1.1612284 -64.312256
2522125000 -0.62193567 158.18532 -22.311909 116.56142 -22.361988 116.29422 -1.1688341 -64.737251
2543059375 -0.62548143 157.99532 -22.201653 116.37817 -22.227066 116.03172 -1.1764446 -65.144279
2563993750 -0.62816179 157.80423 -22.086037 116.22362 -22.128435 115.75855 -1.1858521 -65.544617
2584928125 -0.62860888 157.61009 -21.971228 116.02515 -22.011677 115.57314 -1.196677 -65.961937
2605862500 -0.6291067 157.41682 -21.857428 115.77293 -21.911261 115.29413 -1.2093697 -66.388123
2626796875 -0.62996697 157.23151 -21.747461 115.56492 -21.815376 115.12011 -1.2199637 -66.813011
2647731250 -0.63508773 157.05911 -21.64015 115.25319 -21.710037 114.99931 -1.2280684 -67.234474
2668665625 -0.64243037 156.87737 -21.53546 114.93774 -21.586441 114.73714 -1.2372398 -67.640732
2689600000 -0.64523309 156.6828 -21.434256 114.75832 -21.47267 114.41951 -1.2478598 -68.031815
2710534375 -0.64545506 156.48601 -21.330061 114.67781 -21.393728 114.18584 -1.2582791 -68.429932
2731468750 -0.6460138 156.29933 -21.212246 114.51022 -21.293282 113.73395 -1.2741123 -68.840141
2752403125 -0.64740336 156.12366 -21.111115 114.23674 -21.180105 113.57214 -1.2849355 -69.254829
2773337500 -0.65131247 155.94798 -21.014753 114.01422 -21.065598 113.29491 -1.2925224 -69.675308
2794271875 -0.65611213 155.77831 -20.913332 113.8476 -20.988785 113.10473 -1.3028802 -70.081787
2815206250 -0.66025048 155.60371 -20.81045 113.66119 -20.885889 113.18915 -1.3108078 -70.472427
2836140625 -0.66220248 155.40973 -20.711088 113.47263 -20.765768 112.84365 -1.3231061 -70.847519
2857075000 -0.66567314 155.21497 -20.606989 113.28506 -20.674824 112.53526 -1.3352319 -71.242188
2878009375 -0.66806418 155.04857 -20.504894 113.02699 -20.572594 112.24557 -1.3424853 -71.662476
2898943750 -0.66805005 154.88445 -20.412958 112.82443 -20.497841 112.11909 -1.3522574 -72.077034
2919878125 -0.67019552 154.69978 -20.316923 112.62518 -20.39126 112.142 -1.3599854 -72.466034
2940812500 -0.67522109 154.50838 -20.21929 112.4327 -20.278584 111.85812 -1.3673602 -72.847824
2961746875 -0.67847389 154.32314 -20.119833 112.20951 -20.185553 111.71387 -1.3758359 -73.227173
2982681250 -0.67970663 154.1265 -20.027313 111.98356 -20.089666 111.38808 -1.3857363 -73.60807
3003615625 -0.67897987 153.93083 -19.930332 111.74239 -20.021109 111.21995 -1.3953531 -73.993729
3024550000 -0.68218315 153.745 -19.845041 111.47684 -19.909662 111.16531 -1.4016421 -74.397949
3045484375 -0.68574172 153.57452 -19.75127 111.31477 -19.813635 110.69215 -1.4115916 -74.791527
3066418750 -0.68758523 153.39532 -19.653347 111.08984 -19.744547 110.5341 -1.4200512 -75.170357
3087353125 -0.68837804 153.19681 -19.568453 110.86008 -19.644548 110.25969 -1.4312147 -75.52243
3108287500 -0.6907739 152.98521 -19.487915 110.65112 -19.550385 110.14471 -1.4401467 -75.892937
3129221875 -0.69250631 152.78943 -19.398844 110.47715 -19.458349 109.935 -1.4480754 -76.281174
3150156250 -0.69407457 152.60651 -19.302198 110.26573 -19.383942 109.60941 -1.4596795 -76.667633
3171090625 -0.69841427 152.43346 -19.214182 109.98135 -19.303667 109.50129 -1.4659237 -77.054657
3192025000 -0.7028178 152.26622 -19.141031 109.74952 -19.213589 109.19788 -1.47526 -77.421028
3212959375 -0.70683968 152.08235 -19.057199 109.59828 -19.131538 108.99966 -1.4853395 -77.780869
3233893750 -0.70797199 151.87369 -18.971039 109.40147 -19.068775 108.82714 -1.4940206 -78.134979
3254828125 -0.7114324 151.66609 -18.888975 109.21734 -18.972084 108.75634 -1.5031554 -78.502762
3275762500 -0.71613246 151.48102 -18.795403 108.95828 -18.869678 108.45573 -1.5113053 -78.88974
3296696875 -0.71871126 151.31592 -18.723755 108.70369 -18.810995 108.14716 -1.518145 -79.263359
3317631250 -0.72379225 151.14014 -18.645012 108.52474 -18.727236 107.80964 -1.5271275 -79.623192
3338565625 -0.72855288 150.94788 -18.565216 108.33871 -18.678589 107.52558 -1.5367131 -79.971336
3359500000 -0.73450482 150.73871 -18.482109 108.12321 -18.584839 107.58969 -1.5447887 -80.320618
3380434375 -0.73773795 150.52872 -18.397377 107.87093 -18.483749 107.29381 -1.5527334 -80.677856
3401368750 -0.74170083 150.33754 -18.334009 107.63383 -18.430531 107.18655 -1.5602313 -81.047905
3422303125 -0.74466026 150.17122 -18.260263 107.52245 -18.333878 106.96973 -1.568465 -81.414795
3443237500 -0.74918109 149.99736 -18.170774 107.34869 -18.277363 106.52323 -1.5764068 -81.769287
3464171875 -0.7550751 149.81631 -18.089775 107.05389 -18.22204 106.56549 -1.5815486 -82.118813
3485106250 -0.76048815 149.61559 -18.021864 106.80864 -18.143524 106.41163 -1.5923064 -82.453056
3506040625 -0.76861471 149.41702 -17.957939 106.58171 -18.050222 106.30943 -1.604737 -82.790535
3526975000 -0.76963526 149.23027 -17.878832 106.49398 -17.941372 106.08796 -1.6092188 -83.147285
3547909375 -0.77166498 149.06219 -17.793743 106.24778 -17.902462 105.64206 -1.618328 -83.512177
3568843750 -0.7710523 148.91083 -17.725536 106.1199 -17.841381 105.73256 -1.6226926 -83.86557
3589778125 -0.77401215 148.74069 -17.634842 105.96567 -17.743389 105.55041 -1.6298996 -84.202324
3610712500 -0.77849239 148.55222 -17.564661 105.62022 -17.675289 105.13451 -1.6411721 -84.52227
3631646875 -0.78120035 148.35213 -17.505926 105.48287 -17.613262 105.1537 -1.6463311 -84.854477
3652581250 -0.78560841 148.14398 -17.429871 105.31525 -17.508825 104.86581 -1.6580721 -85.194199
3673515625 -0.78666425 147.96098 -17.347887 105.16096 -17.428471 103.99638 -1.6737989 -85.536346
3694450000 -0.78981781 147.80244 -17.263748 104.88534 -17.381641 103.57861 -1.6839238 -85.882027
3715384375 -0.79383498 147.64969 -17.204651 104.58194 -17.320892 103.68539 -1.6838527 -86.227776
3736318750 -0.80061591 147.46609 -17.13937 104.42609 -17.259794 103.79859 -1.68888 -86.541389
3757253125 -0.8051554 147.26416 -17.060667 104.2495 -17.148771 103.64517 -1.6966072 -86.861122
3778187500 -0.80883783 147.06615 -16.998787 104.02814 -17.075016 103.20895 -1.7039167 -87.203011
3799121875 -0.81075466 146.88736 -16.924524 103.89641 -17.023258 103.15086 -1.7117691 -87.545372
3820056250 -0.81108415 146.70941 -16.84408 103.60967 -16.948376 102.80633 -1.718148 -87.885674
3840990625 -0.81218809 146.54015 -16.795151 103.425 -16.922596 102.73121 -1.724524 -88.217766
3861925000 -0.81667376 146.36246 -16.717022 103.28474 -16.8193 102.80278 -1.729422 -88.527405
3882859375 -0.82914859 146.15846 -16.647995 102.85233 -16.724125 102.32584 -1.7351964 -88.836685
3903793750 -0.8309319 145.95375 -16.585352 102.66334 -16.691853 102.0771 -1.7433714 -89.16124
3924728125 -0.83375961 145.74696 -16.526411 102.4615 -16.625738 101.96944 -1.751846 -89.496773
3945662500 -0.83251578 145.56311 -16.459911 102.4024 -16.55941 101.74616 -1.7604854 -89.83284
3966596875 -0.83505684 145.38715 -16.377317 102.14618 -16.482496 101.57275 -1.7670105 -90.14856
3987531250 -0.83843607 145.20039 -16.322998 101.87182 -16.413778 101.39574 -1.7697699 -90.461899
4008465625 -0.84323257 145.01358 -16.269678 101.77996 -16.357796 101.19956 -1.7740625 -90.760384
4029400000 -0.84902942 144.81288 -16.19182 101.61211 -16.285761 101.05382 -1.7814939 -91.063698
4050334375 -0.85104954 144.61217 -16.126366 101.3574 -16.214428 100.79749 -1.7886726 -91.396553
4071268750 -0.85353112 144.41473 -16.062895 101.15425 -16.169641 100.61586 -1.7963526 -91.719864
4092203125 -0.85945219 144.24837 -16.002535 100.87439 -16.08626 100.60672 -1.8037823 -92.035034
4113137500 -0.86925542 144.08069 -15.944527 100.63082 -16.008345 100.20358 -1.8070996 -92.333405
4134071875 -0.87203318 143.90701 -15.868118 100.4773 -15.967824 100.06158 -1.8114794 -92.635674
4155006250 -0.87354636 143.7075 -15.805797 100.31099 -15.884367 99.789299 -1.8180264 -92.929939
4175940625 -0.87601483 143.50418 -15.733702 100.12886 -15.8662 99.445854 -1.8281909 -93.233955
4196875000 -0.88084227 143.32097 -15.682693 99.785965 -15.785383 99.531502 -1.8352613 -93.543777
4217809375 -0.88429433 143.13821 -15.634146 99.668503 -15.698145 99.10717 -1.8391731 -93.856041
