!Keysight Technologies,N5227A,US51270248,A.10.65.08
!Date: Tuesday, June 11, 2024 08:21:09
!Correction: S11(Full 2 Port(1,4)) 
!S41(Full 2 Port(1,4)) 
!S14(Full 2 Port(1,4)) 
!S44(Full 2 Port(1,4)) 
!S2P File: Measurements: S11, S41, S14, S44:
# Hz S  dB   R 50
10000000 -0.6683166 179.56596 -71.600281 91.637306 -74.34227 106.49683 -0.0016782333 -0.32250464
30934375 -0.68844622 179.64861 -64.500671 88.156464 -66.238441 89.704109 0.0012657712 -1.0014571
51868750 -0.68382305 179.48473 -60.543365 89.61702 -61.726208 90.638832 -0.0013064035 -1.6533757
72803125 -0.67677826 179.27182 -57.765083 90.930984 -58.597977 91.333092 -0.0046581929 -2.3004534
93737500 -0.67383772 179.0546 -55.650753 91.472221 -56.549473 92.146637 -0.010664267 -2.9257591
114671875 -0.67255765 178.8445 -53.903484 92.100929 -54.835033 92.91658 -0.016668666 -3.5569112
135606250 -0.67565286 178.6785 -52.557167 92.947922 -53.382881 93.977737 -0.020554088 -4.2017112
156540625 -0.6931352 178.53781 -51.298119 93.658279 -52.174515 94.6987 -0.024182722 -4.8566523
177475000 -0.6973055 178.34145 -49.726425 93.66037 -51.067745 95.368912 -0.029542957 -5.48631
198409375 -0.69741809 178.11371 -48.879974 94.318993 -50.097092 96.142677 -0.033178918 -6.0883493
219343750 -0.70133382 177.90883 -48.016518 94.97905 -49.20134 96.896805 -0.036808405 -6.7099357
240278125 -0.70156461 177.73605 -47.273907 95.641251 -48.367622 97.470497 -0.044055961 -7.3534689
261212500 -0.69864595 177.56837 -46.534519 96.140144 -47.56348 97.897102 -0.052902862 -7.9944644
282146875 -0.70046145 177.39096 -45.849426 96.563354 -46.892147 98.742119 -0.058734309 -8.6271162
303081250 -0.70741421 177.21936 -45.21299 97.293007 -46.178997 99.149757 -0.064167917 -9.2577286
324015625 -0.70684385 177.05252 -44.637177 97.525703 -45.542892 99.305168 -0.070077837 -9.8648615
344950000 -0.7069574 176.85036 -44.064564 98.160629 -44.939751 100.15244 -0.074937075 -10.470515
365884375 -0.70636749 176.66502 -43.454494 98.435974 -44.409077 100.88178 -0.081834003 -11.086849
386818750 -0.70704675 176.49803 -42.989082 99.14077 -43.863914 101.35349 -0.091859788 -11.718419
407753125 -0.70622599 176.33395 -42.495861 99.603836 -43.37933 101.94537 -0.10245372 -12.326959
428687500 -0.71056765 176.14723 -42.062965 99.988693 -42.871552 102.38199 -0.10467084 -12.938367
449621875 -0.71200812 175.95642 -41.570831 100.30943 -42.423561 102.79393 -0.11138848 -13.568147
470556250 -0.71490419 175.77505 -41.199528 100.84747 -41.94809 103.1554 -0.12022071 -14.167397
491490625 -0.71278429 175.58788 -40.780434 101.32149 -41.544155 103.75623 -0.12853946 -14.760983
512425000 -0.71377116 175.39934 -40.370205 101.66693 -41.097767 104.17491 -0.13651621 -15.363445
533359375 -0.71475607 175.22127 -40.010506 102.21077 -40.709278 104.68613 -0.14575092 -15.981227
554293750 -0.71768755 175.05518 -39.593376 102.509 -40.322746 105.1534 -0.15565833 -16.593203
575228125 -0.71764618 174.87814 -39.222214 102.84129 -39.943832 105.61568 -0.16325024 -17.192709
596162500 -0.7201888 174.68967 -38.891361 103.21912 -39.572002 105.81681 -0.17020418 -17.790161
617096875 -0.72552705 174.49921 -38.507416 103.37943 -39.182896 106.13391 -0.17976807 -18.390312
638031250 -0.72418964 174.32309 -38.214806 103.87647 -38.874496 106.76802 -0.19168672 -18.985365
658965625 -0.72603095 174.1478 -37.848946 104.12659 -38.439835 106.74129 -0.20172092 -19.577559
679900000 -0.73164433 173.97362 -37.392982 103.86636 -38.103867 106.92213 -0.21036701 -20.182041
700834375 -0.7350961 173.80107 -36.9533 103.61605 -37.832779 107.42233 -0.22138147 -20.780788
721768750 -0.73317564 173.62352 -36.727516 104.34371 -37.495972 107.97903 -0.23312084 -21.362144
742703125 -0.732265 173.4359 -36.455849 104.71048 -37.205151 108.46111 -0.24187197 -21.928871
763637500 -0.73114926 173.25224 -36.173901 104.97519 -36.852631 108.33908 -0.24947231 -22.516674
784571875 -0.73221123 173.08026 -35.915779 105.32854 -36.562916 108.57224 -0.26062071 -23.111122
805506250 -0.73195571 172.91284 -35.638004 105.69325 -36.273392 108.96606 -0.27044109 -23.689402
826440625 -0.73410559 172.7374 -35.340977 106.15116 -35.970322 109.60098 -0.27988213 -24.27692
847375000 -0.73502004 172.54968 -35.065239 106.43163 -35.677933 109.83263 -0.29249269 -24.855221
868309375 -0.73546916 172.36516 -34.774754 106.45269 -35.373531 109.6909 -0.30585679 -25.415319
889243750 -0.73330659 172.17223 -34.518665 106.64237 -35.134617 110.20838 -0.31522459 -25.978817
910178125 -0.73586488 171.99159 -34.249134 106.69032 -34.844261 110.32529 -0.32525024 -26.56004
931112500 -0.7391842 171.83005 -34.026783 107.08678 -34.583443 110.33256 -0.33658192 -27.131767
952046875 -0.73959112 171.6581 -33.720383 106.97054 -34.347546 110.79726 -0.34636664 -27.696299
972981250 -0.74139959 171.46561 -33.506874 107.33762 -34.057858 110.91143 -0.35722452 -28.262634
993915625 -0.74460632 171.27325 -33.245396 107.39258 -33.8279 111.23132 -0.37024221 -28.827791
1014850000 -0.74685585 171.09918 -33.064041 107.88351 -33.509922 110.88116 -0.38325617 -29.390007
1035784375 -0.74464875 170.92406 -32.837387 108.04805 -33.274075 110.91698 -0.3951208 -29.955065
1056718750 -0.74590415 170.74496 -32.616161 108.3478 -33.058475 111.47321 -0.40565205 -30.520721
1077653125 -0.75352705 170.5717 -32.40023 108.55686 -32.790665 111.42401 -0.41528618 -31.076611
1098587500 -0.75534201 170.40048 -32.17067 108.65075 -32.571934 111.47694 -0.42542934 -31.617168
1119521875 -0.75573337 170.2135 -31.956373 108.77627 -32.349739 111.64437 -0.43778744 -32.166718
1140456250 -0.75479072 170.0173 -31.747719 108.90155 -32.12225 111.74023 -0.45166549 -32.713135
1161390625 -0.75684631 169.84079 -31.515673 108.88097 -31.891766 111.90311 -0.46408412 -33.260937
1182325000 -0.75690007 169.67302 -31.275383 108.8021 -31.62771 111.64455 -0.47418186 -33.812271
1203259375 -0.75885743 169.49887 -31.095425 109.10575 -31.439972 111.79504 -0.4835372 -34.367805
1224193750 -0.76080507 169.31761 -30.887711 109.1125 -31.23031 111.79861 -0.4936977 -34.913765
1245128125 -0.76388651 169.1321 -30.700893 109.22067 -31.037916 111.94092 -0.50735807 -35.439449
1266062500 -0.76305562 168.94514 -30.498419 109.24162 -30.801411 111.66982 -0.52185327 -35.971596
1286996875 -0.76120245 168.75592 -30.300995 109.28037 -30.601484 111.78413 -0.53544652 -36.515774
1307931250 -0.76138967 168.57497 -30.111042 109.35303 -30.425079 112.00507 -0.5482775 -37.061237
1328865625 -0.7636317 168.40887 -29.914291 109.35745 -30.223774 111.96872 -0.55960017 -37.601208
1349800000 -0.76930398 168.24321 -29.720078 109.27864 -30.027958 111.88312 -0.5695489 -38.126396
1370734375 -0.7688629 168.05334 -29.481211 108.83433 -29.849407 111.84154 -0.58150554 -38.649307
1391668750 -0.77046227 167.85677 -29.310467 108.94466 -29.666304 112.07658 -0.59553015 -39.169052
1412603125 -0.77211267 167.6664 -29.142782 109.1267 -29.473194 112.08504 -0.60933995 -39.687546
1433537500 -0.77143276 167.48967 -28.979815 109.28703 -29.239719 111.56432 -0.62330782 -40.221474
1454471875 -0.772928 167.31897 -28.807566 109.34249 -29.057634 111.66009 -0.63448632 -40.756672
1475406250 -0.77725637 167.15158 -28.629665 109.25281 -28.901037 111.63438 -0.64680386 -41.276138
1496340625 -0.78293931 166.97815 -28.471886 109.38906 -28.743532 111.84846 -0.6576159 -41.77919
1517275000 -0.78397429 166.78827 -28.300797 109.39017 -28.534725 111.56479 -0.67049462 -42.273823
1538209375 -0.78424633 166.58296 -28.122074 109.3284 -28.37133 111.70306 -0.68397194 -42.785828
1559143750 -0.78608727 166.39319 -27.929672 109.03595 -28.203054 111.77432 -0.69762826 -43.298672
1580078125 -0.78936327 166.22372 -27.66477 107.90094 -28.03731 111.64528 -0.70890838 -43.81908
1601012500 -0.79146552 166.05775 -27.511539 107.96429 -27.865784 111.6349 -0.71972281 -44.34436
1621946875 -0.79468936 165.88367 -27.390915 108.3452 -27.697945 111.46329 -0.73327851 -44.845741
1642881250 -0.79764748 165.69615 -27.255421 108.55525 -27.552242 111.48751 -0.74624091 -45.322262
1663815625 -0.79899096 165.50345 -27.097008 108.48177 -27.38504 111.4046 -0.75889283 -45.806423
1684750000 -0.80209041 165.31059 -26.94846 108.4827 -27.213549 111.21436 -0.77237546 -46.308239
1705684375 -0.804371 165.13571 -26.813107 108.54095 -27.069672 111.26902 -0.78544056 -46.822762
1726618750 -0.80979359 164.97765 -26.663429 108.47083 -26.918119 111.21303 -0.79809391 -47.323471
1747553125 -0.81042755 164.81558 -26.505327 108.37759 -26.762882 111.12141 -0.81068289 -47.812454
1768487500 -0.81611788 164.6378 -26.335207 108.10244 -26.619225 111.03076 -0.82340658 -48.289631
1789421875 -0.82123959 164.45239 -26.227034 108.41623 -26.462976 110.84184 -0.83800751 -48.755665
1810356250 -0.82409215 164.27591 -26.087505 108.4323 -26.332983 111.01414 -0.8501929 -49.239468
1831290625 -0.82217449 164.10432 -25.935608 108.25303 -26.166641 110.8522 -0.86345375 -49.728199
1852225000 -0.82381308 163.94516 -25.802443 108.30923 -26.017757 110.72946 -0.87610495 -50.219151
1873159375 -0.82348949 163.7896 -25.670296 108.34936 -25.877848 110.70594 -0.88796836 -50.694561
1894093750 -0.82633847 163.62038 -25.529398 108.31672 -25.721886 110.55259 -0.90079057 -51.161514
1915028125 -0.82745504 163.43057 -25.388557 108.14906 -25.606163 110.40489 -0.913836 -51.630722
1935962500 -0.83328885 163.24454 -25.249557 107.96211 -25.460527 110.31216 -0.92793679 -52.094635
1956896875 -0.83433729 163.07391 -25.127869 107.96117 -25.307207 110.19466 -0.93917561 -52.564205
1977831250 -0.83821708 162.9256 -25.000629 107.85452 -25.177114 110.07875 -0.94958377 -53.044537
1998765625 -0.8406195 162.76974 -24.875353 107.7319 -25.044525 109.73333 -0.96144044 -53.516506
2019700000 -0.842866 162.59947 -24.755556 107.72865 -24.938501 109.76457 -0.97394401 -53.972469
2040634375 -0.84095728 162.41843 -24.626358 107.61923 -24.794922 109.6799 -0.98687589 -54.418888
2061568750 -0.84033376 162.23302 -24.503651 107.60509 -24.66119 109.46229 -0.99951428 -54.874653
2082503125 -0.84228754 162.05383 -24.378765 107.46292 -24.520884 109.01392 -1.013384 -55.337273
2103437500 -0.84255427 161.89087 -24.260981 107.41641 -24.404287 108.99538 -1.0238731 -55.800354
2124371875 -0.84142911 161.73143 -24.140675 107.42198 -24.277639 108.78838 -1.0349607 -56.256374
2145306250 -0.84232843 161.55472 -24.009678 107.23251 -24.163446 109.02378 -1.0459151 -56.708809
2166240625 -0.84180653 161.35822 -23.89908 107.24123 -24.035355 108.80337 -1.0606641 -57.140751
2187175000 -0.84131408 161.16815 -23.719204 106.2694 -23.920145 108.71638 -1.0731591 -57.577881
2208109375 -0.83929193 160.98711 -23.602907 106.30064 -23.809563 108.61786 -1.0860902 -58.030632
2229043750 -0.83774275 160.80188 -23.478493 106.21694 -23.695295 108.76363 -1.0968169 -58.494869
2249978125 -0.8391813 160.61633 -23.382225 106.37914 -23.566181 108.61134 -1.1084105 -58.939949
2270912500 -0.84849 160.43997 -23.265503 106.22126 -23.442127 108.46807 -1.1194136 -59.370827
2291846875 -0.85416973 160.25859 -23.162117 106.26861 -23.322645 108.17344 -1.1321341 -59.798588
2312781250 -0.87597352 160.07385 -23.051323 106.15303 -23.225418 108.08699 -1.146377 -60.228275
2333715625 -0.89503556 159.89029 -22.940199 106.0141 -23.084295 107.53643 -1.1617608 -60.659382
2354650000 -0.89370006 159.71976 -22.835346 105.97253 -22.985298 107.55027 -1.1730469 -61.109833
2375584375 -0.88502026 159.55736 -22.732483 106.05513 -22.871275 107.6564 -1.182963 -61.555965
2396518750 -0.88226867 159.37907 -22.612743 105.83646 -22.761412 107.62782 -1.1926024 -61.979843
2417453125 -0.88607192 159.19185 -22.501474 105.7584 -22.656342 107.59531 -1.2029153 -62.391273
2438387500 -0.88561183 158.994 -22.383547 105.49395 -22.515493 107.35253 -1.2155683 -62.80426
2459321875 -0.88507754 158.79236 -22.281918 105.56817 -22.414301 107.19843 -1.228421 -63.227444
2480256250 -0.88560665 158.61136 -22.173521 105.38475 -22.319111 107.12846 -1.2384944 -63.666443
2501190625 -0.89507312 158.44669 -22.070797 105.35136 -22.219778 107.00192 -1.2486256 -64.1026
2522125000 -0.8897652 158.27324 -21.966894 105.23859 -22.105978 107.01176 -1.2592635 -64.519638
2543059375 -0.89428514 158.07892 -21.865366 105.15468 -21.977493 106.73886 -1.2683772 -64.919281
2563993750 -0.90042299 157.88853 -21.758148 105.02182 -21.886272 106.57227 -1.2788205 -65.31617
2584928125 -0.912947 157.69923 -21.652407 104.88176 -21.775587 106.43797 -1.2918304 -65.734505
2605862500 -0.90214223 157.50388 -21.552675 104.8035 -21.680174 106.15918 -1.3051866 -66.158104
2626796875 -0.8986057 157.31975 -21.452923 104.69997 -21.59264 106.1392 -1.3154898 -66.584419
2647731250 -0.90134692 157.14912 -21.35557 104.53905 -21.491959 106.09197 -1.3237669 -67.004494
2668665625 -0.90293419 156.9713 -21.250099 104.1839 -21.380878 105.97443 -1.3344084 -67.406258
2689600000 -0.90793818 156.77451 -21.147467 103.91475 -21.271626 105.64307 -1.3466618 -67.790215
2710534375 -0.9105823 156.5787 -21.050001 103.74643 -21.198507 105.51577 -1.3583922 -68.18531
2731468750 -0.91154206 156.39452 -20.956118 103.80912 -21.107767 105.51116 -1.3689871 -68.604607
2752403125 -0.90957755 156.2211 -20.86038 103.63972 -21.00206 105.38135 -1.3802141 -69.019951
2773337500 -0.91153216 156.04967 -20.770666 103.57704 -20.88686 104.85861 -1.393127 -69.428345
2794271875 -0.91459817 155.88219 -20.678436 103.5032 -20.815941 104.86124 -1.400911 -69.835823
2815206250 -0.91931736 155.71127 -20.581017 103.30286 -20.717493 104.9258 -1.4120234 -70.219925
2836140625 -0.92486703 155.51321 -20.493299 103.25796 -20.607321 104.78032 -1.4230646 -70.596954
2857075000 -0.92840236 155.32053 -20.39427 103.05522 -20.477348 103.36474 -1.4445229 -70.959885
2878009375 -0.93043274 155.15216 -20.303097 102.95686 -20.395132 103.51823 -1.4509691 -71.390297
2898943750 -0.92708004 154.99109 -20.2146 102.78941 -20.330509 103.57159 -1.4603081 -71.801521
2919878125 -0.93312597 154.81192 -20.122173 102.59051 -20.22707 103.51604 -1.4706979 -72.181267
2940812500 -0.93765843 154.61832 -20.036453 102.57278 -20.124617 103.33196 -1.4794894 -72.555046
2961746875 -0.93781632 154.4295 -19.946804 102.4644 -20.034983 103.17957 -1.489804 -72.930023
2982681250 -0.93685716 154.23267 -19.858419 102.31426 -19.948635 102.95835 -1.5020857 -73.309937
3003615625 -0.93573159 154.03362 -19.765118 102.06687 -19.879438 102.80019 -1.512579 -73.694984
3024550000 -0.93685532 153.85179 -19.68746 101.96228 -19.773846 102.77631 -1.5210602 -74.09787
3045484375 -0.94150758 153.687 -19.598717 101.86135 -19.686964 102.51732 -1.5291858 -74.495094
3066418750 -0.94703108 153.51103 -19.505995 101.57327 -19.624325 102.46519 -1.5396602 -74.867699
3087353125 -0.94793802 153.31235 -19.425177 101.41358 -19.525661 102.24215 -1.5508354 -75.209885
3108287500 -0.94727635 153.10216 -19.346544 101.21734 -19.427557 101.80568 -1.5656137 -75.567093
3129221875 -0.94682002 152.90366 -19.266056 101.23174 -19.350733 101.82701 -1.5759311 -75.954994
3150156250 -0.94761235 152.72185 -19.169798 100.85398 -19.275494 101.57034 -1.5846962 -76.347984
3171090625 -0.95283759 152.55585 -19.094496 100.74229 -19.203991 101.59245 -1.5916538 -76.736504
3192025000 -0.95649809 152.39325 -19.024714 100.62556 -19.112083 101.2461 -1.6019849 -77.094467
3212959375 -0.96313775 152.21068 -18.94606 100.55846 -19.038111 101.10926 -1.6114943 -77.44812
3233893750 -0.96294707 151.99921 -18.860741 100.23734 -18.982307 101.13451 -1.6219294 -77.801811
3254828125 -0.96781158 151.79262 -18.768999 99.639496 -18.887194 101.10478 -1.6329619 -78.164894
3275762500 -0.9683165 151.60663 -18.691597 99.672363 -18.792742 100.80191 -1.6414901 -78.551842
3296696875 -0.97140789 151.44337 -18.614801 99.167053 -18.738199 100.64159 -1.6486762 -78.929405
3317631250 -0.9768393 151.27113 -18.539295 98.980087 -18.660364 100.41074 -1.6582565 -79.284714
3338565625 -0.98217875 151.08594 -18.465919 98.923653 -18.61153 100.33633 -1.6659659 -79.633698
3359500000 -0.98532271 150.87337 -18.39596 99.0177 -18.511883 99.975983 -1.6820303 -79.959167
3380434375 -0.98877978 150.65604 -18.316309 98.679321 -18.424438 99.862442 -1.6894614 -80.318336
3401368750 -0.99532163 150.46939 -18.256279 98.681557 -18.369621 99.644348 -1.7001058 -80.688622
3422303125 -0.99793124 150.30676 -18.182224 98.437477 -18.272572 99.143097 -1.7131326 -81.042458
3443237500 -1.0021132 150.13971 -18.106258 98.522888 -18.215429 98.48999 -1.7255988 -81.38192
3464171875 -1.0081064 149.95628 -18.032059 98.349098 -18.164454 98.805161 -1.7286104 -81.73201
3485106250 -1.0131211 149.75574 -17.968466 98.237579 -18.090645 98.918846 -1.7362051 -82.067947
3506040625 -1.01841 149.55354 -17.905912 98.085701 -18.001703 98.858925 -1.7470901 -82.407349
3526975000 -1.018808 149.36485 -17.831837 98.054993 -17.902498 98.516434 -1.7593312 -82.749825
3547909375 -1.0185161 149.20282 -17.754765 97.872299 -17.867867 98.332558 -1.7647394 -83.127419
3568843750 -1.0218138 149.05989 -17.685583 97.606972 -17.805258 98.355721 -1.7707361 -83.47644
3589778125 -1.0220343 148.89081 -17.602917 97.388618 -17.711626 98.246429 -1.7779745 -83.808792
3610712500 -1.0413505 148.7106 -17.539251 97.281281 -17.648798 97.928841 -1.7881615 -84.12532
3631646875 -1.0551692 148.51685 -17.481636 97.32267 -17.591137 97.981125 -1.7969793 -84.450897
3652581250 -1.0738105 148.31989 -17.407473 97.1129 -17.489998 97.947624 -1.8066614 -84.794342
3673515625 -1.0664322 148.13457 -17.332115 97.053726 -17.408134 97.472275 -1.8164023 -85.153503
3694450000 -1.0686275 147.98383 -17.25791 96.839424 -17.366827 97.354279 -1.8233764 -85.510559
3715384375 -1.0641022 147.82983 -17.198303 96.646736 -17.3102 97.229507 -1.8297238 -85.837273
3736318750 -1.0642979 147.644 -17.128746 96.22226 -17.253061 97.305351 -1.8359894 -86.144363
3757253125 -1.068295 147.4342 -17.059624 96.243385 -17.146881 97.178246 -1.846015 -86.456665
3778187500 -1.0715412 147.23611 -17.000883 96.097153 -17.076101 96.707314 -1.8559306 -86.794609
3799121875 -1.0740688 147.05759 -16.931648 96.120125 -17.028343 96.677849 -1.8655542 -87.133827
3820056250 -1.0728197 146.88573 -16.857443 95.836975 -16.955685 96.369568 -1.8722438 -87.47686
3840990625 -1.0717156 146.7198 -16.80912 95.723297 -16.931759 96.378899 -1.8786356 -87.806343
3861925000 -1.0758792 146.53769 -16.735661 95.720657 -16.831551 96.390984 -1.8871053 -88.10144
3882859375 -1.0811042 146.33139 -16.667793 95.482788 -16.740646 95.93158 -1.8937366 -88.404556
3903793750 -1.0849987 146.12564 -16.608654 95.257736 -16.704472 95.237923 -1.9102345 -88.701973
3924728125 -1.0871211 145.92358 -16.55077 94.961113 -16.641113 95.167053 -1.9218706 -89.038406
3945662500 -1.0890625 145.74158 -16.486757 94.988121 -16.578331 95.192101 -1.9288646 -89.384468
3966596875 -1.0885448 145.56544 -16.410494 94.878624 -16.504284 95.126373 -1.9332309 -89.707649
3987531250 -1.0911809 145.38281 -16.357777 94.471283 -16.440699 94.978935 -1.9365414 -90.014175
4008465625 -1.0980016 145.20039 -16.303131 94.484238 -16.386654 94.813461 -1.9429613 -90.302338
4029400000 -1.1011764 144.99692 -16.229296 94.37114 -16.317808 94.697968 -1.9518317 -90.60479
4050334375 -1.1080302 144.79486 -16.16844 94.22377 -16.250458 94.543289 -1.9584864 -90.941139
4071268750 -1.1071569 144.60123 -16.10453 93.738281 -16.20812 94.382233 -1.9687136 -91.26722
4092203125 -1.1108142 144.43037 -16.049911 93.754822 -16.127991 94.40802 -1.9759582 -91.580406
4113137500 -1.1126113 144.27089 -15.992253 93.716415 -16.056507 93.935028 -1.9813293 -91.862999
4134071875 -1.1151495 144.09302 -15.91993 93.6175 -16.014719 93.776283 -1.9878905 -92.158485
4155006250 -1.1189333 143.89824 -15.860415 93.277931 -15.937017 93.412094 -1.9982388 -92.439377
4175940625 -1.1235164 143.69417 -15.794271 93.259933 -15.915752 93.322197 -2.0053043 -92.757576
4196875000 -1.1260104 143.51057 -15.743634 92.940033 -15.836876 93.421326 -2.013701 -93.0681
4217809375 -1.1320755 143.33885 -15.696796 92.93689 -15.758245 93.066917 -2.0179749 -93.382576
4238743750 -1.129972 143.15848 -15.62476 92.6959 -15.735723 92.947639 -2.026768 -93.684387
