!Keysight Technologies,N5227A,US51270248,A.10.65.08
!Date: Tuesday, June 11, 2024 07:17:54
!Correction: S11(Full 2 Port(1,4)) 
!S41(Full 2 Port(1,4)) 
!S14(Full 2 Port(1,4)) 
!S44(Full 2 Port(1,4)) 
!S2P File: Measurements: S11, S41, S14, S44:
# Hz S  dB   R 50
10000000 -2.0650511 -0.29580122 -13.436477 0.89046288 -13.452227 0.98223704 -2.0649014 -0.25832924
30934375 -2.0642378 -0.84009284 -13.400023 2.2095358 -13.413906 2.2561045 -2.0653639 -0.78484637
51868750 -2.0754437 -1.3276323 -13.39964 3.6949899 -13.398309 3.7045934 -2.0764432 -1.2802399
72803125 -2.0832248 -1.7376416 -13.373294 5.2806683 -13.369317 5.2603254 -2.0853429 -1.6931278
93737500 -2.0856457 -2.1487064 -13.324006 6.8341503 -13.318165 6.808104 -2.0896049 -2.100884
114671875 -2.0872438 -2.6014209 -13.26279 8.2966576 -13.252523 8.2538319 -2.0933545 -2.5454907
135606250 -2.0903478 -3.0872269 -13.195135 9.690506 -13.184832 9.6270323 -2.0981252 -3.0218008
156540625 -2.0971935 -3.57651 -13.124726 11.038622 -13.116343 10.972108 -2.1045737 -3.4935944
177475000 -2.1049132 -4.0279603 -13.048817 12.39351 -13.043516 12.328087 -2.1112866 -3.9375038
198409375 -2.1110137 -4.454699 -12.961015 13.73553 -12.954354 13.659454 -2.1165402 -4.3602624
219343750 -2.1153564 -4.8979025 -12.862396 14.995882 -12.850438 14.911668 -2.1220226 -4.8048244
240278125 -2.1229193 -5.3683333 -12.760313 16.187386 -12.742591 16.097309 -2.1328862 -5.2643337
261212500 -2.1338236 -5.837543 -12.657467 17.330551 -12.64124 17.252159 -2.1444726 -5.7239017
282146875 -2.1440618 -6.2923656 -12.551634 18.46839 -12.533363 18.377563 -2.1537807 -6.1745596
303081250 -2.1518321 -6.7356133 -12.436577 19.562408 -12.419622 19.464216 -2.1629558 -6.6189022
324015625 -2.1608136 -7.1802278 -12.317201 20.603203 -12.302002 20.502829 -2.1707134 -7.0523887
344950000 -2.1705058 -7.6161785 -12.195086 21.592661 -12.178667 21.482721 -2.1798203 -7.4876556
365884375 -2.1814525 -8.0583096 -12.070925 22.527 -12.055559 22.420738 -2.1906998 -7.9246545
386818750 -2.19471 -8.514925 -11.945958 23.425793 -11.930825 23.312735 -2.2040207 -8.3683529
407753125 -2.2080774 -8.9650936 -11.820382 24.286163 -11.804502 24.180513 -2.2177567 -8.8027716
428687500 -2.2204282 -9.3959417 -11.690995 25.121023 -11.672749 25.004269 -2.2275445 -9.2367582
449621875 -2.2285233 -9.8275604 -11.55779 25.893969 -11.540237 25.769989 -2.2385266 -9.6825666
470556250 -2.2404854 -10.275548 -11.425181 26.611477 -11.408551 26.491581 -2.2518363 -10.109725
491490625 -2.2553666 -10.709773 -11.294612 27.303188 -11.277537 27.186964 -2.2652934 -10.52808
512425000 -2.2693875 -11.135238 -11.162696 27.966532 -11.145798 27.847467 -2.2795162 -10.946832
533359375 -2.2832024 -11.567562 -11.027772 28.591671 -11.012623 28.47246 -2.2944934 -11.376491
554293750 -2.2967982 -12.003302 -10.89566 29.166536 -10.87906 29.052572 -2.3094974 -11.809045
575228125 -2.3108952 -12.436549 -10.76484 29.711351 -10.746492 29.595364 -2.3239565 -12.236458
596162500 -2.3258419 -12.8584 -10.633966 30.229956 -10.616104 30.105028 -2.3381906 -12.655774
617096875 -2.3421714 -13.279724 -10.503051 30.712301 -10.486512 30.591953 -2.3539691 -13.07331
638031250 -2.3588443 -13.698103 -10.373424 31.172085 -10.357495 31.053667 -2.3714135 -13.48622
658965625 -2.3748643 -14.115874 -10.244338 31.602818 -10.227671 31.481073 -2.3879793 -13.898691
679900000 -2.3912816 -14.540759 -10.116272 31.996517 -10.101842 31.86842 -2.4049706 -14.319047
700834375 -2.4092381 -14.955065 -9.9913836 32.368263 -9.9775486 32.248169 -2.4235711 -14.732717
721768750 -2.4281209 -15.364938 -9.8683386 32.72501 -9.8519592 32.602814 -2.4422805 -15.139494
742703125 -2.4467754 -15.758105 -9.7434778 33.061024 -9.7268362 32.934658 -2.4595523 -15.529361
763637500 -2.4640749 -16.162174 -9.6201496 33.360004 -9.6037979 33.227131 -2.4759519 -15.934605
784571875 -2.4825184 -16.578445 -9.4973631 33.645454 -9.484334 33.498535 -2.4947114 -16.339611
805506250 -2.5013826 -16.991762 -9.3790588 33.898335 -9.3654594 33.777927 -2.5134754 -16.738834
826440625 -2.5214386 -17.394705 -9.2616415 34.14072 -9.2460318 34.011482 -2.5334368 -17.134426
847375000 -2.5409086 -17.785616 -9.1447067 34.377319 -9.1305504 34.233665 -2.5544591 -17.529881
868309375 -2.5632153 -18.180056 -9.0297756 34.58329 -9.0166559 34.455173 -2.5759859 -17.912025
889243750 -2.5837452 -18.5653 -8.9150562 34.771027 -8.9003124 34.63958 -2.5950317 -18.29376
910178125 -2.6034873 -18.961285 -8.8010502 34.948273 -8.7878122 34.802826 -2.6146293 -18.687216
931112500 -2.623045 -19.361702 -8.6886702 35.097385 -8.6781073 34.955002 -2.6355717 -19.067543
952046875 -2.6439211 -19.750221 -8.5792217 35.22913 -8.5680017 35.095573 -2.6552262 -19.444901
972981250 -2.665024 -20.126478 -8.4729662 35.352661 -8.4598551 35.210579 -2.6766429 -19.827065
993915625 -2.6862452 -20.502918 -8.366992 35.473286 -8.353898 35.317829 -2.699791 -20.206179
1014850000 -2.708827 -20.88497 -8.260149 35.552666 -8.2511711 35.405422 -2.7218266 -20.588018
1035784375 -2.7319934 -21.268286 -8.160429 35.626934 -8.1501055 35.493301 -2.7450676 -20.96368
1056718750 -2.7532859 -21.646118 -8.0590372 35.714767 -8.0479612 35.566151 -2.7660708 -21.338148
1077653125 -2.7739544 -22.02043 -7.9577799 35.769745 -7.9478188 35.619915 -2.7875156 -21.705456
1098587500 -2.7957783 -22.389259 -7.860517 35.811268 -7.8495064 35.666157 -2.8095434 -22.059059
1119521875 -2.8197765 -22.745121 -7.7639165 35.850845 -7.7544026 35.704662 -2.8326735 -22.419342
1140456250 -2.8433585 -23.09708 -7.6699953 35.876896 -7.660028 35.737061 -2.8576486 -22.776909
1161390625 -2.8670871 -23.463171 -7.5767875 35.897724 -7.565609 35.75621 -2.8809798 -23.136753
1182325000 -2.8908637 -23.83589 -7.4843812 35.90554 -7.4736619 35.758141 -2.9027338 -23.499485
1203259375 -2.9132996 -24.199989 -7.3937469 35.90501 -7.3831339 35.748928 -2.924114 -23.855776
1224193750 -2.9352095 -24.559162 -7.30334 35.890877 -7.2946024 35.732613 -2.9462628 -24.207911
1245128125 -2.9585371 -24.909407 -7.2180085 35.866657 -7.2086411 35.716465 -2.9715552 -24.546328
1266062500 -2.9848971 -25.258894 -7.1329107 35.85331 -7.1240201 35.692318 -2.9967902 -24.889355
1286996875 -3.0123792 -25.598368 -7.0486379 35.816708 -7.0403814 35.666294 -3.0227404 -25.242174
1307931250 -3.0364692 -25.949883 -6.9666576 35.785103 -6.9582725 35.632103 -3.0485892 -25.596401
1328865625 -3.060184 -26.313457 -6.8842797 35.743435 -6.8762136 35.588573 -3.0722389 -25.944815
1349800000 -3.0843878 -26.664509 -6.8053737 35.68623 -6.7977152 35.53093 -3.0957189 -26.280878
1370734375 -3.1090512 -27.007353 -6.7267518 35.638653 -6.7203808 35.48032 -3.1205556 -26.607389
1391668750 -3.1349952 -27.331696 -6.6488566 35.582733 -6.6427336 35.43211 -3.1457434 -26.937889
1412603125 -3.1615374 -27.662462 -6.5731225 35.520256 -6.5665483 35.367477 -3.1732032 -27.270655
1433537500 -3.188942 -28.003141 -6.4978185 35.450333 -6.4923558 35.298683 -3.1995873 -27.607624
1454471875 -3.2145281 -28.341454 -6.4260573 35.371464 -6.4190044 35.22047 -3.2247679 -27.949608
1475406250 -3.2381821 -28.683777 -6.3540635 35.298683 -6.3494444 35.142704 -3.2503929 -28.276613
1496340625 -3.262979 -29.012445 -6.2829404 35.216682 -6.278214 35.074181 -3.2740846 -28.587257
1517275000 -3.2883799 -29.323416 -6.2138181 35.136021 -6.2082958 34.991558 -3.2996488 -28.894968
1538209375 -3.3151109 -29.634478 -6.1443958 35.057789 -6.1401439 34.907524 -3.3268931 -29.209578
1559143750 -3.3417857 -29.952921 -6.0749583 34.958668 -6.071238 34.81686 -3.3547575 -29.52796
1580078125 -3.368104 -30.281057 -6.0107236 34.858971 -6.0044136 34.719002 -3.3809097 -29.846056
1601012500 -3.3940637 -30.608547 -5.9458799 34.760971 -5.9392691 34.612877 -3.4055424 -30.169895
1621946875 -3.4185472 -30.923655 -5.8830552 34.657753 -5.876739 34.501053 -3.431999 -30.480324
1642881250 -3.4447482 -31.237467 -5.8192897 34.566071 -5.8149428 34.412338 -3.4582717 -30.77084
1663815625 -3.4724357 -31.537561 -5.7562208 34.458332 -5.7519207 34.309101 -3.4848983 -31.062611
1684750000 -3.5010192 -31.837059 -5.6949654 34.350117 -5.6917305 34.200432 -3.5124862 -31.364086
1705684375 -3.5289142 -32.144165 -5.6350026 34.229359 -5.6315494 34.086464 -3.5407379 -31.67474
1726618750 -3.5551012 -32.461422 -5.5779576 34.116299 -5.5731082 33.966572 -3.5673497 -31.97727
1747553125 -3.5826623 -32.778152 -5.5200205 34.013004 -5.5164509 33.849972 -3.5937488 -32.27663
1768487500 -3.6106737 -33.068935 -5.4615722 33.898006 -5.4604244 33.743187 -3.6209335 -32.562508
1789421875 -3.637984 -33.358112 -5.4064069 33.778709 -5.4050479 33.630981 -3.6486125 -32.838844
1810356250 -3.666465 -33.653557 -5.3506737 33.664242 -5.3499303 33.520847 -3.6763856 -33.124172
1831290625 -3.6945915 -33.947941 -5.2956243 33.549393 -5.292726 33.399681 -3.7036707 -33.413982
1852225000 -3.7222092 -34.248772 -5.2417927 33.430546 -5.23943 33.265598 -3.7315702 -33.704712
1873159375 -3.7491663 -34.549313 -5.1882825 33.29377 -5.1877708 33.146008 -3.7582731 -33.990501
1894093750 -3.7757864 -34.834141 -5.1390839 33.161587 -5.1366158 33.012451 -3.786783 -34.269272
1915028125 -3.803674 -35.114643 -5.0878201 33.046719 -5.088141 32.893082 -3.814908 -34.536224
1935962500 -3.8303466 -35.387451 -5.0372162 32.923489 -5.0362697 32.789742 -3.8418241 -34.81081
1956896875 -3.8573956 -35.676746 -4.9852166 32.808475 -4.9837079 32.650955 -3.8698771 -35.089844
1977831250 -3.8865876 -35.953526 -4.9345345 32.655067 -4.9358568 32.509983 -3.8967979 -35.363575
1998765625 -3.9113884 -36.228661 -4.8895826 32.511257 -4.8889346 32.374451 -3.9234889 -35.637245
2019700000 -3.9368854 -36.511066 -4.8445702 32.390022 -4.8428178 32.253529 -3.9511504 -35.894264
2040634375 -3.9644134 -36.780643 -4.7978473 32.266384 -4.7948313 32.127064 -3.9775398 -36.157997
2061568750 -3.9935935 -37.039894 -4.7512732 32.136883 -4.749702 31.991192 -4.0062447 -36.422966
2082503125 -4.0217328 -37.304386 -4.7055349 31.999521 -4.7054186 31.856201 -4.0349855 -36.688553
2103437500 -4.0492196 -37.577648 -4.6611009 31.855894 -4.6611118 31.724747 -4.0626168 -36.943848
2124371875 -4.0768905 -37.852921 -4.6189466 31.724228 -4.617691 31.589037 -4.0875473 -37.198093
2145306250 -4.1049066 -38.11655 -4.5759568 31.589151 -4.575532 31.456064 -4.1132364 -37.457489
2166240625 -4.1312108 -38.369503 -4.5347047 31.455128 -4.534481 31.322937 -4.1426616 -37.704346
2187175000 -4.1608791 -38.630619 -4.492382 31.333223 -4.493053 31.189442 -4.1723008 -37.942905
2208109375 -4.191484 -38.887535 -4.4507499 31.190359 -4.4529548 31.058472 -4.201129 -38.191402
2229043750 -4.2209406 -39.149918 -4.4102097 31.064339 -4.412107 30.924562 -4.2280741 -38.449551
2249978125 -4.2487922 -39.40826 -4.3693428 30.925478 -4.3717203 30.79023 -4.2548189 -38.705151
2270912500 -4.2753744 -39.669003 -4.33044 30.788055 -4.3321376 30.652786 -4.2820864 -38.943771
2291846875 -4.3033743 -39.919582 -4.2930069 30.647165 -4.2940869 30.511005 -4.3098226 -39.177658
2312781250 -4.3314905 -40.164368 -4.2559195 30.521547 -4.2579045 30.387629 -4.3390918 -39.410347
2333715625 -4.3605342 -40.409447 -4.2163281 30.396603 -4.2198334 30.254778 -4.3696666 -39.659279
2354650000 -4.3898473 -40.660515 -4.1779895 30.252264 -4.1825485 30.116371 -4.3985515 -39.901451
2375584375 -4.4169021 -40.910378 -4.1412587 30.109049 -4.1446891 29.979586 -4.4252772 -40.150322
2396518750 -4.4427085 -41.155602 -4.1064444 29.97348 -4.1095009 29.838039 -4.4518776 -40.379032
2417453125 -4.469172 -41.391041 -4.0710187 29.839006 -4.0745959 29.71427 -4.4776216 -40.593792
2438387500 -4.4958005 -41.61858 -4.0361514 29.703753 -4.0380473 29.578371 -4.5062032 -40.81971
2459321875 -4.5243187 -41.845486 -3.999686 29.575071 -4.0037737 29.436323 -4.5358901 -41.03524
2480256250 -4.5519543 -42.077953 -3.9646432 29.434198 -3.9698617 29.300795 -4.5631356 -41.268494
2501190625 -4.5795126 -42.325493 -3.929625 29.296242 -3.9360237 29.16696 -4.5895967 -41.500839
2522125000 -4.6069555 -42.550777 -3.8969293 29.141115 -3.9016438 29.025623 -4.6138554 -41.725727
2543059375 -4.6312723 -42.774433 -3.8662734 29.009228 -3.8690488 28.882969 -4.6396894 -41.944721
2563993750 -4.6591177 -42.999588 -3.8341126 28.878382 -3.8380358 28.754358 -4.6677027 -42.137844
2584928125 -4.6880388 -43.216213 -3.801563 28.7437 -3.8061266 28.618847 -4.695539 -42.351952
2605862500 -4.717855 -43.426552 -3.7698312 28.607162 -3.7750938 28.482512 -4.7259755 -42.568348
2626796875 -4.74581 -43.651825 -3.7382274 28.468721 -3.7435346 28.345821 -4.7521763 -42.791615
2647731250 -4.7729015 -43.886295 -3.7062209 28.322554 -3.7131853 28.208481 -4.7765045 -43.021523
2668665625 -4.7999034 -44.103466 -3.6772108 28.17671 -3.6818225 28.064857 -4.8025308 -43.23624
2689600000 -4.8254485 -44.309513 -3.6497705 28.04134 -3.6536074 27.920809 -4.8296428 -43.434803
2710534375 -4.8510036 -44.528473 -3.6235197 27.92218 -3.6262279 27.799603 -4.8584208 -43.632256
2731468750 -4.8802519 -44.756599 -3.5905738 27.802349 -3.5958622 27.66975 -4.8868966 -43.841873
2752403125 -4.9099827 -44.964352 -3.5593672 27.643812 -3.5675297 27.528399 -4.9137211 -44.063198
2773337500 -4.9345779 -45.174156 -3.5333269 27.503374 -3.5394897 27.385405 -4.9414215 -44.291073
2794271875 -4.9597058 -45.398582 -3.5067201 27.366619 -3.5122173 27.247255 -4.9669418 -44.486225
2815206250 -4.9843035 -45.611168 -3.4793479 27.230288 -3.4845793 27.113335 -4.9905548 -44.689659
2836140625 -5.011086 -45.806118 -3.4536166 27.10079 -3.4581738 26.97937 -5.0193272 -44.886395
2857075000 -5.037281 -46.004997 -3.426333 26.979097 -3.4314594 26.849739 -5.0475731 -45.075768
2878009375 -5.0648718 -46.216373 -3.396147 26.834745 -3.4045575 26.711962 -5.0758567 -45.286579
2898943750 -5.091866 -46.420361 -3.3712468 26.680208 -3.3793914 26.571312 -5.1009083 -45.483574
2919878125 -5.1166563 -46.624428 -3.3479621 26.546974 -3.353174 26.434517 -5.1234784 -45.696461
2940812500 -5.1407814 -46.822834 -3.3244612 26.424658 -3.3284571 26.298532 -5.1500988 -45.889374
2961746875 -5.1669188 -47.01815 -3.2979128 26.290329 -3.3039353 26.166386 -5.1757574 -46.065434
2982681250 -5.1930752 -47.197197 -3.274724 26.153547 -3.2810247 26.034021 -5.2043276 -46.251484
3003615625 -5.2217474 -47.393028 -3.2488546 26.026468 -3.256901 25.916067 -5.2305503 -46.434242
3024550000 -5.2478547 -47.58247 -3.2250593 25.877439 -3.2312365 25.772131 -5.255579 -46.651093
3045484375 -5.2716799 -47.786659 -3.2033153 25.752939 -3.2081921 25.629591 -5.2816577 -46.850906
3066418750 -5.2980022 -47.990353 -3.1787262 25.627338 -3.1860752 25.499332 -5.3059697 -47.022629
3087353125 -5.3242359 -48.171768 -3.1553462 25.48864 -3.1640115 25.371536 -5.3301492 -47.199608
3108287500 -5.3503838 -48.339787 -3.1350803 25.350777 -3.141103 25.251785 -5.3579144 -47.386234
3129221875 -5.3750577 -48.527565 -3.1146345 25.23303 -3.1190531 25.119408 -5.3864574 -47.574154
3150156250 -5.4019213 -48.73587 -3.09147 25.118126 -3.0974281 24.986664 -5.4124146 -47.764107
3171090625 -5.4282522 -48.943527 -3.0659096 24.984648 -3.0758324 24.854362 -5.4365797 -47.961536
3192025000 -5.452652 -49.121666 -3.0454717 24.829576 -3.0541697 24.714243 -5.4597673 -48.148453
3212959375 -5.4753265 -49.294708 -3.0281959 24.708401 -3.035172 24.585667 -5.4865389 -48.319851
3233893750 -5.4998178 -49.474163 -3.0075159 24.593218 -3.0149839 24.469934 -5.5129766 -48.475651
3254828125 -5.5251284 -49.655373 -2.9870567 24.475523 -2.9931495 24.349398 -5.5382619 -48.668346
3275762500 -5.5516257 -49.853722 -2.9631627 24.359877 -2.9728408 24.212788 -5.5685081 -48.864403
3296696875 -5.5767779 -50.036449 -2.9424508 24.202183 -2.9540191 24.081732 -5.5923405 -49.037933
3317631250 -5.5990272 -50.221268 -2.9251955 24.077934 -2.9344823 23.952795 -5.6151881 -49.227787
3338565625 -5.6225162 -50.391178 -2.9063172 23.951246 -2.9160833 23.831997 -5.6378942 -49.375202
3359500000 -5.644681 -50.553139 -2.8877659 23.835779 -2.8953416 23.709648 -5.6604586 -49.54995
3380434375 -5.6719275 -50.72768 -2.8665419 23.719076 -2.877023 23.581738 -5.6907601 -49.725197
3401368750 -5.6999993 -50.883598 -2.84691 23.56867 -2.8589838 23.466949 -5.7171803 -49.892895
3422303125 -5.7230334 -51.061165 -2.8323717 23.445831 -2.8404899 23.334885 -5.7424436 -50.093163
3443237500 -5.7465758 -51.259068 -2.8149474 23.344194 -2.8240089 23.214359 -5.766428 -50.263966
3464171875 -5.7714143 -51.43158 -2.7936635 23.220339 -2.8056352 23.098461 -5.7864828 -50.414673
3485106250 -5.796618 -51.579388 -2.7753019 23.088587 -2.7871983 22.981781 -5.8091321 -50.575722
3506040625 -5.8212709 -51.711021 -2.7593749 22.952997 -2.7690573 22.857748 -5.8363681 -50.743217
3526975000 -5.8445888 -51.871937 -2.7458096 22.851822 -2.7523236 22.73344 -5.8664269 -50.908298
3547909375 -5.8711672 -52.062477 -2.7254367 22.744694 -2.7364051 22.62026 -5.8931818 -51.070518
3568843750 -5.8953791 -52.238827 -2.7088723 22.610531 -2.7183321 22.506475 -5.9115319 -51.243732
3589778125 -5.9163508 -52.419147 -2.691859 22.515753 -2.7015276 22.377905 -5.9329638 -51.424065
3610712500 -5.9413185 -52.577812 -2.6713097 22.381414 -2.6856241 22.2596 -5.9570584 -51.562366
3631646875 -5.9644618 -52.704826 -2.6588838 22.246004 -2.6686139 22.150238 -5.9800458 -51.70023
3652581250 -5.9873157 -52.861401 -2.6445243 22.14576 -2.6508706 22.029902 -6.0072308 -51.875481
3673515625 -6.0105534 -53.036392 -2.6274235 22.046404 -2.635498 21.903934 -6.0374508 -52.035515
3694450000 -6.0347586 -53.236412 -2.6078501 21.931679 -2.6206756 21.780863 -6.0603466 -52.193108
3715384375 -6.0591683 -53.414902 -2.590385 21.789621 -2.6063125 21.6665 -6.0802064 -52.359161
3736318750 -6.0788579 -53.558445 -2.5781083 21.672699 -2.5896282 21.557199 -6.0981455 -52.509911
3757253125 -6.0986533 -53.699131 -2.5622718 21.576544 -2.573853 21.434984 -6.1231098 -52.673828
3778187500 -6.1242604 -53.835949 -2.546411 21.444992 -2.5595467 21.32102 -6.1511154 -52.795647
3799121875 -6.1477761 -53.991592 -2.5336554 21.341389 -2.5446694 21.212267 -6.1744967 -52.947647
3820056250 -6.1742177 -54.1656 -2.5135653 21.230276 -2.5312927 21.097336 -6.2024331 -53.111549
3840990625 -6.1965575 -54.313293 -2.5021644 21.082609 -2.5154459 20.989599 -6.2208052 -53.251595
3861925000 -6.2145071 -54.47934 -2.4891491 20.992342 -2.5009875 20.869726 -6.2371368 -53.43346
3882859375 -6.2379513 -54.620289 -2.4721313 20.880775 -2.4874842 20.757971 -6.2634907 -53.574142
3903793750 -6.2616649 -54.73584 -2.4587381 20.760229 -2.4725211 20.651297 -6.2866507 -53.682125
3924728125 -6.2858162 -54.862103 -2.4449086 20.631512 -2.4581802 20.532009 -6.3098454 -53.826019
3945662500 -6.3077292 -55.009708 -2.4348962 20.526588 -2.4443889 20.420084 -6.3332705 -53.987377
3966596875 -6.3295145 -55.195782 -2.4190152 20.43614 -2.4314506 20.307871 -6.3549051 -54.154297
3987531250 -6.3534689 -55.353359 -2.4024444 20.302736 -2.4183242 20.198839 -6.3758993 -54.304955
4008465625 -6.3736472 -55.478752 -2.3951066 20.180819 -2.404485 20.095592 -6.3951354 -54.428574
4029400000 -6.39326 -55.619286 -2.3820515 20.096937 -2.3910284 19.990408 -6.4145656 -54.558598
4050334375 -6.4188747 -55.747536 -2.3673995 19.984539 -2.3774786 19.879971 -6.4391141 -54.701042
4071268750 -6.4407353 -55.888958 -2.3551657 19.875553 -2.3639052 19.766888 -6.4625678 -54.831707
4092203125 -6.4637928 -56.065308 -2.3407245 19.761419 -2.3517523 19.649382 -6.484005 -54.993317
4113137500 -6.4837747 -56.224373 -2.3313055 19.650328 -2.3405464 19.546701 -6.5064692 -55.125954
4134071875 -6.5018911 -56.391354 -2.3178782 19.56357 -2.3278313 19.442074 -6.5239692 -55.25399
4155006250 -6.5216727 -56.519184 -2.3050749 19.458654 -2.3155577 19.334879 -6.5451784 -55.389393
4175940625 -6.5432305 -56.656235 -2.2912147 19.369858 -2.3035848 19.233 -6.5672569 -55.492371
4196875000 -6.5702391 -56.786694 -2.2742813 19.230812 -2.2908294 19.122614 -6.5872812 -55.64286
4217809375 -6.5892019 -56.907814 -2.2679121 19.113163 -2.2795119 19.014534 -6.6120396 -55.772533
4238743750 -6.6075172 -57.089527 -2.2566774 19.035812 -2.2684226 18.907545 -6.6304789 -55.88961
