!Keysight Technologies,N5227A,US51270248,A.10.65.08
!Date: Tuesday, June 11, 2024 07:09:37
!Correction: S11(Full 2 Port(1,4)) 
!S41(Full 2 Port(1,4)) 
!S14(Full 2 Port(1,4)) 
!S44(Full 2 Port(1,4)) 
!S2P File: Measurements: S11, S41, S14, S44:
# Hz S  dB   R 50
10000000 -2.0767241 -0.24768788 -13.433959 0.70331091 -13.458017 0.81521958 -2.0794761 -0.21122554
30934375 -2.0782564 -0.74528337 -13.424944 2.3072557 -13.438385 2.3597918 -2.081804 -0.67868114
51868750 -2.0783904 -1.1701822 -13.404413 3.9203494 -13.402836 3.9500768 -2.0822103 -1.0791694
72803125 -2.0780602 -1.6553376 -13.36013 5.3782954 -13.356501 5.3727455 -2.0798259 -1.5918189
93737500 -2.0812111 -2.1219521 -13.314845 6.8323808 -13.309479 6.8175831 -2.0859082 -2.0728366
114671875 -2.0876975 -2.5886433 -13.26172 8.2848291 -13.254728 8.2454538 -2.0952456 -2.5362351
135606250 -2.0930336 -3.0592854 -13.198812 9.713892 -13.190983 9.6656389 -2.1019998 -2.9838109
156540625 -2.097578 -3.5322375 -13.124361 11.096559 -13.11692 11.036568 -2.1056511 -3.4399681
177475000 -2.1026058 -3.993793 -13.044463 12.43519 -13.038794 12.371083 -2.1088281 -3.899332
198409375 -2.108433 -4.4421306 -12.956789 13.734487 -12.950377 13.665644 -2.1147485 -4.3462977
219343750 -2.1145191 -4.8929024 -12.862451 14.988458 -12.851762 14.913731 -2.123385 -4.7966185
240278125 -2.1234362 -5.3555737 -12.763608 16.201826 -12.745794 16.115816 -2.1353116 -5.2441716
261212500 -2.1338534 -5.8131714 -12.6576 17.363508 -12.642359 17.286846 -2.1451046 -5.6915526
282146875 -2.1422982 -6.2686162 -12.548326 18.495182 -12.530926 18.406822 -2.152787 -6.1490583
303081250 -2.1504378 -6.7207737 -12.433692 19.563799 -12.416752 19.471424 -2.1616848 -6.6054049
324015625 -2.1602371 -7.1728153 -12.317043 20.595087 -12.301578 20.503267 -2.1714237 -7.0454035
344950000 -2.1710894 -7.6065044 -12.196966 21.597675 -12.179623 21.490192 -2.1815174 -7.4718275
365884375 -2.1817098 -8.0419788 -12.072637 22.551004 -12.055662 22.443911 -2.1920867 -7.9010987
386818750 -2.193501 -8.4966145 -11.945334 23.446529 -11.928954 23.333677 -2.2040026 -8.3459759
407753125 -2.206337 -8.9515343 -11.817928 24.293636 -11.802714 24.189796 -2.2168076 -8.7899265
428687500 -2.219286 -9.3875046 -11.690456 25.116728 -11.672641 25.002275 -2.2277818 -9.2291975
449621875 -2.2282708 -9.8214474 -11.558678 25.896042 -11.541166 25.773911 -2.2397437 -9.6704512
470556250 -2.2403302 -10.263868 -11.425798 26.625608 -11.409189 26.509649 -2.2528167 -10.091842
491490625 -2.2545052 -10.696539 -11.293443 27.315937 -11.276983 27.206236 -2.2649868 -10.511632
512425000 -2.2678907 -11.124804 -11.160298 27.97308 -11.144116 27.861082 -2.2784386 -10.937389
533359375 -2.2818074 -11.558391 -11.026246 28.592142 -11.012343 28.47653 -2.2940598 -11.368768
554293750 -2.2964036 -11.99385 -10.896097 29.166946 -10.87993 29.056366 -2.3101361 -11.799689
575228125 -2.3111436 -12.425804 -10.766014 29.72481 -10.747407 29.605593 -2.324815 -12.22362
596162500 -2.3258176 -12.844997 -10.63352 30.24457 -10.616064 30.117218 -2.3384831 -12.641685
617096875 -2.3415689 -13.267607 -10.501443 30.71965 -10.485087 30.600143 -2.353313 -13.064627
638031250 -2.3574457 -13.68865 -10.372136 31.172817 -10.356624 31.053261 -2.3714206 -13.482364
658965625 -2.3738856 -14.107884 -10.244277 31.602049 -10.227548 31.479319 -2.3884392 -13.890622
679900000 -2.3910334 -14.530179 -10.11635 32.005196 -10.101727 31.879915 -2.4055867 -14.306548
700834375 -2.4090123 -14.941058 -9.9909544 32.381023 -9.977355 32.261024 -2.4234302 -14.719989
721768750 -2.4273739 -15.349692 -9.8660393 32.731949 -9.8507872 32.613998 -2.4418149 -15.129865
742703125 -2.4456019 -15.749821 -9.7422028 33.062248 -9.7251606 32.931656 -2.4595616 -15.525821
763637500 -2.4635894 -16.159065 -9.6201944 33.361683 -9.6032438 33.222111 -2.4767156 -15.927615
784571875 -2.4817867 -16.571644 -9.4975567 33.65218 -9.4846239 33.503788 -2.4950678 -16.327961
805506250 -2.5012398 -16.97843 -9.3784962 33.909634 -9.3655338 33.784969 -2.5137396 -16.726749
826440625 -2.5209327 -17.380476 -9.2611475 34.153114 -9.2455235 34.020157 -2.5330777 -17.126045
847375000 -2.5407863 -17.775978 -9.1442966 34.384499 -9.1298838 34.240681 -2.5546465 -17.521341
868309375 -2.5625377 -18.172752 -9.0293446 34.585835 -9.0161419 34.459198 -2.5761645 -17.904303
889243750 -2.5830324 -18.560429 -8.9146519 34.780777 -8.9002285 34.646484 -2.5951712 -18.284153
910178125 -2.6025233 -18.953423 -8.8007193 34.960789 -8.7875099 34.811493 -2.6140378 -18.674868
931112500 -2.6224232 -19.350912 -8.6877737 35.110046 -8.6772118 34.956223 -2.634629 -19.056974
952046875 -2.6431015 -19.738478 -8.5783138 35.238228 -8.5673628 35.096752 -2.654963 -19.439501
972981250 -2.6640961 -20.119467 -8.4720535 35.354809 -8.4598703 35.21273 -2.6772151 -19.823269
993915625 -2.6858363 -20.49588 -8.3668957 35.48098 -8.3545818 35.32513 -2.7000229 -20.201118
1014850000 -2.7082722 -20.879057 -8.2598362 35.56134 -8.2512035 35.417427 -2.7219372 -20.579695
1035784375 -2.7315292 -21.260405 -8.1602259 35.637733 -8.1491861 35.499977 -2.7445164 -20.955967
1056718750 -2.7524137 -21.634087 -8.057683 35.722672 -8.0475874 35.578465 -2.7658217 -21.330235
1077653125 -2.7731864 -22.010817 -7.9573755 35.774754 -7.9469423 35.627213 -2.7875416 -21.697638
1098587500 -2.7948198 -22.382524 -7.8601823 35.819012 -7.8489623 35.672913 -2.8096917 -22.049671
1119521875 -2.8192031 -22.737719 -7.7634592 35.859234 -7.7536464 35.710781 -2.8325472 -22.411335
1140456250 -2.8431237 -23.088768 -7.6689448 35.884583 -7.6591973 35.74258 -2.8567898 -22.771082
1161390625 -2.8664086 -23.454222 -7.5758076 35.904209 -7.5648532 35.759167 -2.8798823 -23.132952
1182325000 -2.88907 -23.827299 -7.4833574 35.909512 -7.4728417 35.760117 -2.9022939 -23.49354
1203259375 -2.9124281 -24.191061 -7.3932767 35.909817 -7.3832574 35.756958 -2.9242878 -23.850296
1224193750 -2.9345396 -24.551104 -7.3030705 35.896259 -7.295053 35.743595 -2.9466169 -24.198479
1245128125 -2.9581792 -24.899693 -7.2175827 35.874435 -7.2084956 35.726372 -2.9710286 -24.538599
1266062500 -2.9843309 -25.249182 -7.1321054 35.856293 -7.1237922 35.702087 -2.9963026 -24.884977
1286996875 -3.0112369 -25.591106 -7.0476742 35.821392 -7.0397325 35.675922 -3.0218644 -25.238914
1307931250 -3.035723 -25.943913 -6.9657226 35.789177 -6.9581318 35.640087 -3.0475757 -25.589663
1328865625 -3.0592778 -26.306087 -6.883358 35.751583 -6.8765945 35.595112 -3.0716424 -25.93598
1349800000 -3.0838563 -26.654337 -6.8045549 35.696514 -6.7974911 35.54282 -3.0950074 -26.27173
1370734375 -3.108604 -26.997499 -6.7258143 35.648243 -6.7200074 35.490036 -3.1197145 -26.598658
1391668750 -3.1342571 -27.322216 -6.6475806 35.58947 -6.642242 35.438969 -3.1452856 -26.932739
1412603125 -3.1607764 -27.657921 -6.5723462 35.528172 -6.5661039 35.373253 -3.1725876 -27.26383
1433537500 -3.1883719 -27.995575 -6.4973264 35.457909 -6.4922395 35.307003 -3.1985366 -27.600893
1454471875 -3.2136486 -28.332254 -6.4252925 35.381069 -6.4192104 35.228237 -3.2238946 -27.942257
1475406250 -3.2374263 -28.671837 -6.3532124 35.311527 -6.3487267 35.151833 -3.249809 -28.269234
1496340625 -3.2621803 -29.000008 -6.2823396 35.228745 -6.277669 35.080284 -3.273613 -28.583977
1517275000 -3.2877817 -29.314472 -6.2132769 35.143555 -6.2077489 34.996414 -3.2994807 -28.890789
1538209375 -3.314235 -29.627377 -6.1440606 35.066593 -6.1395106 34.917629 -3.3260372 -29.205715
1559143750 -3.3412769 -29.946554 -6.0747771 34.967289 -6.0708499 34.823063 -3.3536103 -29.523172
1580078125 -3.3671851 -30.271702 -6.0099688 34.870468 -6.0042186 34.727032 -3.3799627 -29.84203
1601012500 -3.3932261 -30.596867 -5.9453659 34.769783 -5.9389572 34.623894 -3.4049578 -30.163977
1621946875 -3.4181292 -30.914417 -5.882329 34.666241 -5.8765574 34.514774 -3.4312711 -30.47139
1642881250 -3.4443204 -31.229811 -5.8183861 34.573521 -5.8143425 34.422718 -3.4573061 -30.763456
1663815625 -3.4722753 -31.531292 -5.755527 34.468292 -5.751267 34.320473 -3.4837697 -31.055655
1684750000 -3.5004957 -31.829554 -5.6943069 34.357697 -5.6909914 34.211624 -3.5108347 -31.358051
1705684375 -3.5283425 -32.135036 -5.6343961 34.236565 -5.6308489 34.096893 -3.5391874 -31.669514
1726618750 -3.5543628 -32.45155 -5.5773468 34.124531 -5.5726099 33.981293 -3.5661917 -31.970142
1747553125 -3.5822496 -32.768326 -5.5199156 34.026791 -5.515974 33.864021 -3.5929463 -32.267921
1768487500 -3.6104739 -33.061352 -5.4612885 33.907089 -5.4594226 33.755409 -3.6198719 -32.553806
1789421875 -3.6374354 -33.35078 -5.4059844 33.787544 -5.4042807 33.645195 -3.6472371 -32.831581
1810356250 -3.6657257 -33.646782 -5.3493452 33.67165 -5.3490424 33.532295 -3.675009 -33.119415
1831290625 -3.6934979 -33.939548 -5.2946787 33.558933 -5.2920914 33.411423 -3.7025795 -33.409893
1852225000 -3.7210901 -34.241234 -5.2413855 33.439915 -5.2388253 33.277691 -3.7304938 -33.699295
1873159375 -3.7483144 -34.539551 -5.1879144 33.304264 -5.187633 33.158756 -3.7574766 -33.982113
1894093750 -3.7751746 -34.825665 -5.1382833 33.17382 -5.1355467 33.026077 -3.7850678 -34.263294
1915028125 -3.802496 -35.10445 -5.0867586 33.055954 -5.0871758 32.904297 -3.8130674 -34.531727
1935962500 -3.8291709 -35.378471 -5.0363331 32.932354 -5.0357022 32.799042 -3.8404617 -34.808765
1956896875 -3.8563695 -35.669811 -4.9847908 32.817558 -4.9833894 32.662006 -3.8684599 -35.087097
1977831250 -3.8855071 -35.946995 -4.9336948 32.665405 -4.9354463 32.522346 -3.8954935 -35.360378
1998765625 -3.9102142 -36.221134 -4.8887839 32.525234 -4.8885922 32.385807 -3.9219167 -35.633987
2019700000 -3.93595 -36.500084 -4.8435502 32.402454 -4.8418841 32.2645 -3.9489455 -35.892185
2040634375 -3.963516 -36.771214 -4.7969608 32.275925 -4.7940946 32.139389 -3.9760029 -36.157085
2061568750 -3.9922454 -37.03072 -4.7504306 32.145874 -4.7492919 32.003113 -4.0049767 -36.419205
2082503125 -4.0207605 -37.296257 -4.7050633 32.009567 -4.7045817 31.874041 -4.0330377 -36.682701
2103437500 -4.0485091 -37.569901 -4.6602178 31.867331 -4.6602569 31.737833 -4.0606947 -36.939075
2124371875 -4.0764866 -37.843147 -4.6181512 31.735207 -4.6173358 31.601978 -4.0863323 -37.192307
2145306250 -4.1044607 -38.105743 -4.5751224 31.602173 -4.5748205 31.47065 -4.1124673 -37.449173
2166240625 -4.1304479 -38.360233 -4.5338659 31.468878 -4.5334525 31.336147 -4.1417089 -37.696476
2187175000 -4.1599073 -38.623981 -4.4914799 31.342424 -4.4922166 31.200222 -4.1709695 -37.937546
2208109375 -4.1903858 -38.883057 -4.4501081 31.202494 -4.4525957 31.070395 -4.1998024 -38.185459
2229043750 -4.2193589 -39.141651 -4.4087033 31.07723 -4.4117589 30.934713 -4.2264538 -38.445068
2249978125 -4.2481461 -39.398907 -4.3683052 30.93891 -4.3715858 30.804619 -4.2537785 -38.699661
2270912500 -4.2749987 -39.66127 -4.3297453 30.801685 -4.3314757 30.665876 -4.2809753 -38.939743
2291846875 -4.3022656 -39.914257 -4.2918873 30.662151 -4.293756 30.525686 -4.3091531 -39.170849
2312781250 -4.3304477 -40.156883 -4.2551742 30.534559 -4.2572021 30.39761 -4.3380408 -39.405884
2333715625 -4.3593078 -40.400806 -4.2151294 30.411404 -4.2193213 30.267696 -4.3681159 -39.655201
2354650000 -4.3882279 -40.65065 -4.1768627 30.264524 -4.182116 30.129747 -4.397017 -39.898731
2375584375 -4.4154887 -40.901131 -4.1399288 30.125113 -4.1445441 29.992321 -4.4237647 -40.148365
2396518750 -4.4416699 -41.145687 -4.1050749 29.989141 -4.1098819 29.851944 -4.4508123 -40.374519
2417453125 -4.4684005 -41.381054 -4.069622 29.852762 -4.0742607 29.729441 -4.4763455 -40.591835
2438387500 -4.4944167 -41.611 -4.034555 29.716463 -4.0370317 29.592375 -4.5043941 -40.820335
2459321875 -4.5232339 -41.837528 -3.9982545 29.587782 -4.0026565 29.449289 -4.5335679 -41.034718
2480256250 -4.5511675 -42.068935 -3.9634776 29.44426 -3.9693029 29.313581 -4.5610986 -41.264286
2501190625 -4.5788193 -42.314518 -3.9286599 29.30794 -3.9354713 29.18128 -4.5878439 -41.497082
2522125000 -4.6063843 -42.538563 -3.8957295 29.153561 -3.9010613 29.040333 -4.6120777 -41.722679
2543059375 -4.6311245 -42.764412 -3.8649898 29.021317 -3.8685622 28.896652 -4.638278 -41.941261
2563993750 -4.6582632 -42.992477 -3.8323591 28.891434 -3.8373146 28.767429 -4.6656837 -42.13834
2584928125 -4.686645 -43.205906 -3.8003373 28.755161 -3.8049698 28.631426 -4.6936841 -42.352787
2605862500 -4.7159915 -43.417885 -3.7689822 28.616461 -3.7742953 28.494308 -4.7230701 -42.565582
2626796875 -4.7447753 -43.640545 -3.7372186 28.481089 -3.7425754 28.357876 -4.7497258 -42.788078
2647731250 -4.7719083 -43.873562 -3.7054071 28.337484 -3.712136 28.22056 -4.7741685 -43.017014
2668665625 -4.7992811 -44.090721 -3.6772923 28.188614 -3.6810122 28.07794 -4.8006196 -43.236904
2689600000 -4.8249879 -44.296898 -3.6495032 28.053263 -3.6529405 27.935883 -4.8281651 -43.434681
2710534375 -4.8503799 -44.517296 -3.622467 27.933167 -3.6253107 27.811987 -4.8562369 -43.632439
2731468750 -4.8792663 -44.747276 -3.5897102 27.812519 -3.5951126 27.685163 -4.8843131 -43.839428
2752403125 -4.9089217 -44.951782 -3.5583665 27.657154 -3.5662227 27.542885 -4.9113216 -44.060905
2773337500 -4.9335089 -45.162964 -3.5323248 27.515755 -3.5377221 27.399706 -4.9391775 -44.285912
2794271875 -4.958756 -45.386856 -3.50544 27.378513 -3.5106735 27.256603 -4.9648042 -44.48563
2815206250 -4.9836731 -45.60442 -3.4781461 27.241869 -3.4829354 27.128756 -4.9890189 -44.689312
2836140625 -5.0104589 -45.800331 -3.4525015 27.113398 -3.4565368 26.992193 -5.0173807 -44.887306
2857075000 -5.0360236 -45.999954 -3.4247463 26.992239 -3.4299896 26.863255 -5.0452127 -45.076172
2878009375 -5.0639997 -46.209457 -3.3950052 26.844051 -3.4036348 26.722748 -5.0730724 -45.283749
2898943750 -5.0909977 -46.412895 -3.3697774 26.694157 -3.37815 26.581455 -5.0980411 -45.482956
2919878125 -5.1159739 -46.61359 -3.3463461 26.561094 -3.3523676 26.445564 -5.1218462 -45.699459
2940812500 -5.1398067 -46.814747 -3.3224719 26.43811 -3.3272121 26.311302 -5.1484151 -45.89439
2961746875 -5.1658568 -47.015579 -3.2960863 26.302565 -3.3032732 26.179541 -5.1747508 -46.072815
2982681250 -5.1922827 -47.195995 -3.2731345 26.165745 -3.2796972 26.047394 -5.2023773 -46.255638
3003615625 -5.2205887 -47.388664 -3.2481327 26.039238 -3.2558832 25.928778 -5.2285047 -46.435989
3024550000 -5.2472253 -47.574932 -3.2239678 25.893421 -3.2301815 25.788067 -5.252862 -46.649414
3045484375 -5.270781 -47.777946 -3.2015557 25.768745 -3.2076838 25.644241 -5.2797165 -46.848671
3066418750 -5.2971849 -47.982265 -3.1775255 25.64135 -3.1850438 25.513123 -5.3037581 -47.023972
3087353125 -5.3237638 -48.164997 -3.1544285 25.503487 -3.1632659 25.383451 -5.3285556 -47.202282
3108287500 -5.349422 -48.336815 -3.1339989 25.362604 -3.1403008 25.262276 -5.3558903 -47.389446
3129221875 -5.3739738 -48.524487 -3.1134 25.244619 -3.1185758 25.130163 -5.3842053 -47.579056
3150156250 -5.3998351 -48.728157 -3.0902116 25.133459 -3.0965822 24.99695 -5.4098353 -47.76685
3171090625 -5.4271684 -48.932674 -3.0652492 24.997713 -3.0750506 24.865028 -5.4340363 -47.96043
3192025000 -5.4521799 -49.11166 -3.044287 24.843611 -3.053709 24.728466 -5.4584498 -48.149872
3212959375 -5.47505 -49.286636 -3.026629 24.721703 -3.0339112 24.599751 -5.4846468 -48.321655
3233893750 -5.4992938 -49.469467 -3.0061004 24.605576 -3.0138457 24.479923 -5.5103707 -48.482113
3254828125 -5.5239158 -49.648315 -2.9860671 24.487383 -2.9923656 24.362143 -5.5360055 -48.674747
3275762500 -5.5500479 -49.847801 -2.9619219 24.37067 -2.9720321 24.224281 -5.5657568 -48.866776
3296696875 -5.5758858 -50.026691 -2.9410441 24.217407 -2.952523 24.093838 -5.5896363 -49.035362
3317631250 -5.5986362 -50.20853 -2.9234898 24.091829 -2.933547 23.963345 -5.6127558 -49.224693
3338565625 -5.622499 -50.379242 -2.9050012 23.965048 -2.9149041 23.84284 -5.6360512 -49.380867
3359500000 -5.6446266 -50.544945 -2.8867493 23.848478 -2.8943746 23.720459 -5.6584773 -49.558735
3380434375 -5.6710763 -50.722065 -2.8648822 23.733633 -2.8762083 23.594095 -5.6888642 -49.734589
3401368750 -5.6983724 -50.877594 -2.8453393 23.582022 -2.8580525 23.479496 -5.7146616 -49.898766
3422303125 -5.7210956 -51.052738 -2.8304548 23.460749 -2.8394363 23.347437 -5.7402539 -50.094788
3443237500 -5.7454386 -51.247833 -2.8131959 23.358208 -2.8227119 23.22603 -5.7648768 -50.259064
3464171875 -5.7708454 -51.420231 -2.7919621 23.233316 -2.8043342 23.110622 -5.7848554 -50.413628
3485106250 -5.796073 -51.574615 -2.7734394 23.102011 -2.7860792 22.992908 -5.8075314 -50.579243
3506040625 -5.8208117 -51.711029 -2.7582164 22.966331 -2.7674379 22.868704 -5.8338842 -50.750183
3526975000 -5.8433452 -51.869804 -2.7439919 22.863638 -2.7510355 22.745369 -5.8635621 -50.912582
3547909375 -5.8697658 -52.056087 -2.7238011 22.755808 -2.7353528 22.62985 -5.89045 -51.07114
3568843750 -5.8938131 -52.228577 -2.7075012 22.622438 -2.717695 22.517235 -5.9092412 -51.246521
3589778125 -5.9157443 -52.406994 -2.6907809 22.528444 -2.7005475 22.389923 -5.931459 -51.426125
3610712500 -5.9410005 -52.570999 -2.6703954 22.395302 -2.6845622 22.272448 -5.9557614 -51.566299
3631646875 -5.9642086 -52.703236 -2.6577864 22.259804 -2.6675484 22.160849 -5.9781137 -51.706142
3652581250 -5.9858909 -52.856285 -2.6431108 22.157549 -2.6500564 22.039314 -6.0055723 -51.883308
3673515625 -6.0089617 -53.026436 -2.6266758 22.060144 -2.6346431 21.915155 -6.0349836 -52.042297
3694450000 -6.0327716 -53.228455 -2.6067159 21.945984 -2.6199076 21.795786 -6.0584459 -52.196125
3715384375 -6.0575347 -53.404732 -2.5887752 21.803459 -2.6051371 21.678482 -6.0788493 -52.356804
3736318750 -6.0786815 -53.54467 -2.5770557 21.685553 -2.5885592 21.570652 -6.0968266 -52.512527
3757253125 -6.0983238 -53.692211 -2.5611253 21.589277 -2.5725684 21.448145 -6.1216025 -52.682308
3778187500 -6.1230674 -53.83342 -2.5450578 21.458031 -2.5585892 21.331295 -6.1496692 -52.804539
3799121875 -6.1467314 -53.983887 -2.5327673 21.355043 -2.5437527 21.223024 -6.1726294 -52.955093
3820056250 -6.1726732 -54.15934 -2.5124519 21.245571 -2.5302424 21.109232 -6.2004166 -53.117687
3840990625 -6.1954799 -54.303101 -2.5007765 21.100836 -2.5143919 21.002594 -6.218823 -53.254311
3861925000 -6.2139049 -54.46603 -2.4876938 21.008186 -2.4996431 20.881248 -6.2354507 -53.437122
3882859375 -6.2370858 -54.611694 -2.4708226 20.896559 -2.4861524 20.769098 -6.2617579 -53.580948
3903793750 -6.2603106 -54.73476 -2.4574361 20.774658 -2.4716763 20.662062 -6.2843499 -53.692627
3924728125 -6.284514 -54.860565 -2.4436913 20.648159 -2.4572203 20.545696 -6.3071313 -53.833965
3945662500 -6.3066711 -55.004154 -2.4338362 20.543875 -2.4432666 20.432493 -6.330359 -53.992954
3966596875 -6.3281837 -55.18758 -2.4174094 20.452326 -2.4303424 20.318108 -6.3525691 -54.158913
3987531250 -6.3527083 -55.346359 -2.4007983 20.317339 -2.4179008 20.209801 -6.3740873 -54.307312
4008465625 -6.3732672 -55.470848 -2.3935268 20.197842 -2.4039948 20.108059 -6.3934631 -54.432644
4029400000 -6.3924479 -55.617584 -2.3803389 20.114248 -2.3902404 20.001301 -6.4126549 -54.565441
4050334375 -6.4177709 -55.749199 -2.3653524 20.001101 -2.3763113 19.890617 -6.4367456 -54.707966
4071268750 -6.4396391 -55.887127 -2.3535988 19.892202 -2.362967 19.779474 -6.4594011 -54.833118
4092203125 -6.4621658 -56.059322 -2.3389301 19.779942 -2.3506653 19.662138 -6.4813256 -54.999851
4113137500 -6.4821649 -56.216595 -2.329345 19.668303 -2.3394365 19.557976 -6.5041456 -55.13039
4134071875 -6.5006948 -56.38361 -2.3162355 19.580858 -2.3266487 19.455019 -6.5219517 -55.258537
4155006250 -6.5213075 -56.515141 -2.3034351 19.475014 -2.3142772 19.348154 -6.5434518 -55.394161
4175940625 -6.5422554 -56.650208 -2.2895429 19.386515 -2.3024266 19.24696 -6.5645599 -55.494621
4196875000 -6.5687017 -56.781982 -2.2729268 19.249208 -2.2900031 19.13452 -6.5847158 -55.648106
4217809375 -6.588222 -56.89901 -2.2666569 19.131523 -2.2784703 19.025814 -6.6093583 -55.776852
4238743750 -6.6066828 -57.078869 -2.2553713 19.055134 -2.2672832 18.921274 -6.6283607 -55.893585
