!Keysight Technologies,N5227A,US51270248,A.10.65.08
!Date: Tuesday, June 11, 2024 08:10:57
!Correction: S11(Full 2 Port(1,4)) 
!S41(Full 2 Port(1,4)) 
!S14(Full 2 Port(1,4)) 
!S44(Full 2 Port(1,4)) 
!S2P File: Measurements: S11, S41, S14, S44:
# Hz S  dB   R 50
10000000 -0.51164883 179.56027 -77.7705 54.888817 -59.544109 8.1537685 -0.37534583 -0.34000885
30934375 -0.52770191 179.64661 -67.758293 90.355812 -58.448921 22.454718 -0.39087081 -1.0089194
51868750 -0.53403866 179.48871 -63.290154 77.944847 -57.619938 34.244308 -0.39519235 -1.6282166
72803125 -0.52715009 179.27348 -60.596252 92.710403 -56.579197 43.328331 -0.39884797 -2.3158808
93737500 -0.52918833 179.05663 -58.445305 94.113495 -55.48951 51.355148 -0.40906915 -2.9682784
114671875 -0.54445231 178.84735 -56.722385 94.876236 -54.413395 57.499615 -0.42039889 -3.6066792
135606250 -0.562442 178.67912 -55.232697 96.203575 -53.375423 62.618828 -0.42701322 -4.2389636
156540625 -0.65548712 178.53673 -53.914421 97.043785 -52.533878 66.781204 -0.43632129 -4.8847694
177475000 -0.62603146 178.34152 -52.764458 97.881233 -51.607243 70.469383 -0.44327578 -5.5167828
198409375 -0.6244126 178.11635 -51.73555 98.797966 -50.848194 73.702202 -0.44851387 -6.1245236
219343750 -0.62885797 177.91142 -50.823353 99.59716 -50.063873 76.846817 -0.45461386 -6.7444415
240278125 -0.63498545 177.73773 -49.96294 100.80209 -49.344097 79.384361 -0.46349308 -7.3737469
261212500 -0.62283802 177.56819 -49.130215 101.63729 -48.691887 81.522568 -0.47289878 -8.007576
282146875 -0.62747502 177.39163 -48.391136 102.06909 -47.995964 83.904152 -0.47821051 -8.6344013
303081250 -0.64320707 177.21834 -47.729939 102.91387 -47.306873 85.589569 -0.48332834 -9.2651634
324015625 -0.64465857 177.0524 -47.10976 103.63268 -46.716946 86.844101 -0.49061495 -9.8727875
344950000 -0.65078425 176.85046 -46.497456 104.6757 -46.186119 88.911201 -0.49710664 -10.465496
365884375 -0.66051728 176.66489 -45.908291 105.36073 -45.65012 90.493309 -0.50389481 -11.070643
386818750 -0.63725764 176.49759 -45.327255 106.16789 -44.920185 91.193993 -0.51285404 -11.695371
407753125 -0.62795359 176.33144 -44.776146 106.76795 -44.315319 92.181747 -0.52277994 -12.30339
428687500 -0.62823647 176.14543 -44.263386 107.17515 -43.90242 93.496986 -0.52634078 -12.90908
449621875 -0.62851661 175.95651 -43.767605 107.77454 -43.402443 94.471436 -0.5327121 -13.529337
470556250 -0.62980449 175.77475 -43.310562 108.45542 -43.032192 95.75827 -0.54085618 -14.122701
491490625 -0.63149148 175.58757 -42.851837 109.07092 -42.622036 96.963181 -0.54894161 -14.709967
512425000 -0.62657773 175.39949 -42.419434 109.78661 -42.164364 97.777046 -0.5566932 -15.303396
533359375 -0.62653214 175.21968 -41.967472 110.20969 -41.803196 98.941139 -0.5659914 -15.91492
554293750 -0.62765872 175.05365 -41.529007 110.55548 -41.381889 99.7892 -0.57563919 -16.518709
575228125 -0.6282028 174.87921 -41.121731 111.14063 -40.972229 100.63813 -0.58247662 -17.108622
596162500 -0.62928939 174.68922 -40.69902 111.37659 -40.575218 101.16402 -0.58859432 -17.699953
617096875 -0.63005948 174.49977 -40.344311 111.78759 -40.224716 101.97193 -0.59665883 -18.297359
638031250 -0.63297081 174.32343 -39.973751 112.3147 -39.884617 102.91281 -0.60839695 -18.885939
658965625 -0.63185239 174.14766 -39.603672 112.84005 -39.519768 103.51163 -0.61772531 -19.472076
679900000 -0.63370621 173.97285 -39.215157 113.32693 -39.15715 104.00562 -0.6250506 -20.06744
700834375 -0.63588125 173.80016 -38.883873 113.41345 -38.874905 104.83924 -0.63511837 -20.659903
721768750 -0.63986355 173.62289 -38.548855 113.96532 -38.514679 105.64496 -0.64552778 -21.237989
742703125 -0.63740891 173.43449 -38.193192 114.25567 -38.149651 105.99773 -0.65368909 -21.79937
763637500 -0.63527292 173.25259 -37.894314 114.82451 -37.843121 106.47134 -0.66017795 -22.382151
784571875 -0.63953519 173.07957 -37.543011 115.03208 -37.551342 106.92892 -0.66976833 -22.966814
805506250 -0.64190745 172.90974 -37.249168 115.38446 -37.269726 107.67396 -0.67813456 -23.538097
826440625 -0.64035213 172.73393 -36.897438 115.92704 -36.9174 108.36195 -0.68704832 -24.119921
847375000 -0.64420807 172.54785 -36.554665 116.17493 -36.582142 108.66332 -0.69835955 -24.693624
868309375 -0.63753307 172.36415 -36.263321 116.07626 -36.303783 108.86666 -0.71013594 -25.250504
889243750 -0.63702768 172.17206 -35.984352 116.41958 -36.018909 109.37608 -0.71918905 -25.807858
910178125 -0.63677621 171.99086 -35.668762 116.58253 -35.713154 109.6367 -0.72690189 -26.38204
931112500 -0.64005899 171.82779 -35.401756 116.82238 -35.444992 109.87099 -0.73617738 -26.950451
952046875 -0.64038175 171.65514 -35.111015 117.03749 -35.169964 110.26298 -0.74486542 -27.510653
972981250 -0.64236766 171.4619 -34.846592 117.07981 -34.835358 110.18325 -0.75530845 -28.070499
993915625 -0.64372796 171.27087 -34.564022 117.52831 -34.593487 110.73553 -0.76651043 -28.630318
1014850000 -0.64301634 171.09743 -34.251762 117.34904 -34.297329 110.73661 -0.77714896 -29.186586
1035784375 -0.64565313 170.92313 -34.046406 117.36076 -34.092491 111.25026 -0.78720886 -29.749962
1056718750 -0.64708185 170.74161 -33.775753 117.65247 -33.834827 111.69939 -0.79598361 -30.311222
1077653125 -0.64996624 170.56845 -33.501278 117.66022 -33.557957 111.80749 -0.80423218 -30.864096
1098587500 -0.65435714 170.39674 -33.244896 117.85657 -33.320168 111.93546 -0.81293511 -31.398735
1119521875 -0.65300304 170.2119 -32.994305 117.86118 -33.083755 112.15807 -0.82318902 -31.942663
1140456250 -0.65420842 170.01535 -32.772629 117.82705 -32.854744 112.38291 -0.83526957 -32.488071
1161390625 -0.65270042 169.83911 -32.534904 117.99282 -32.596806 112.5424 -0.8458339 -33.031288
1182325000 -0.65298092 169.67009 -32.290192 118.10745 -32.341431 112.54182 -0.85388428 -33.581207
1203259375 -0.65489656 169.49568 -32.046375 118.16522 -32.12542 112.64315 -0.8615703 -34.131165
1224193750 -0.65637195 169.31479 -31.800871 118.05711 -31.909206 112.73203 -0.86980587 -34.671425
1245128125 -0.65979689 169.12857 -31.608755 118.1048 -31.691633 112.80058 -0.88185948 -35.194523
1266062500 -0.65800256 168.94205 -31.359547 118.20538 -31.485912 112.9969 -0.89364344 -35.727131
1286996875 -0.66145921 168.75221 -31.142006 117.84825 -31.269787 113.08983 -0.90512007 -36.268002
1307931250 -0.6583975 168.57146 -30.951071 117.97238 -31.061705 113.22434 -0.91614974 -36.810822
1328865625 -0.66099328 168.40294 -30.697302 117.87154 -30.836586 113.07557 -0.92590517 -37.345837
1349800000 -0.66235191 168.23561 -30.523172 117.97969 -30.640896 113.15417 -0.93373811 -37.868462
1370734375 -0.665259 168.04755 -30.290604 117.97475 -30.459627 113.20633 -0.9439199 -38.388294
1391668750 -0.66800267 167.84999 -30.100649 117.75352 -30.244837 113.25172 -0.9560867 -38.905396
1412603125 -0.66939288 167.66122 -29.894419 117.73247 -30.043123 113.33755 -0.96822745 -39.421268
1433537500 -0.66863471 167.48595 -29.700888 117.67211 -29.851025 113.42415 -0.97851855 -39.955513
1454471875 -0.66949892 167.31334 -29.53336 117.56201 -29.650166 113.50073 -0.9879086 -40.487209
1475406250 -0.67169422 167.14388 -29.340611 117.71065 -29.474903 113.33333 -0.99810839 -41.005257
1496340625 -0.67572719 166.96991 -29.140236 117.58952 -29.287909 113.37605 -1.0073802 -41.505608
1517275000 -0.67621124 166.77965 -28.976357 117.55401 -29.098818 113.41892 -1.0178597 -41.998917
1538209375 -0.67757064 166.57671 -28.769926 117.58775 -28.919683 113.52689 -1.0290953 -42.509079
1559143750 -0.67953765 166.38715 -28.595095 117.17726 -28.726046 113.44344 -1.040682 -43.018417
1580078125 -0.68106276 166.21527 -28.442863 117.31666 -28.554321 113.38084 -1.050037 -43.539135
1601012500 -0.68513578 166.04982 -28.261587 117.39392 -28.375584 113.41225 -1.058699 -44.059601
1621946875 -0.68694544 165.87453 -28.0909 117.36819 -28.195351 113.15701 -1.069809 -44.560722
1642881250 -0.69155473 165.68669 -27.889744 117.31549 -28.046148 113.30375 -1.0801634 -45.039181
1663815625 -0.69167793 165.49358 -27.719995 117.10578 -27.871239 113.2002 -1.0908327 -45.521622
1684750000 -0.6921165 165.3008 -27.553839 116.96373 -27.703016 113.22213 -1.101783 -46.023705
1705684375 -0.6955542 165.12521 -27.409771 116.73235 -27.540478 113.17454 -1.1131581 -46.534363
1726618750 -0.69732881 164.96472 -27.249809 116.85039 -27.37945 113.07478 -1.1237916 -47.033146
1747553125 -0.70310926 164.80284 -27.050194 116.82805 -27.217602 112.983 -1.133835 -47.521538
1768487500 -0.70345914 164.62341 -26.884783 116.58223 -27.070227 112.98656 -1.1438123 -47.99942
1789421875 -0.7069847 164.43697 -26.745363 116.43969 -26.914545 112.92192 -1.1559068 -48.464748
1810356250 -0.70744467 164.26027 -26.591801 116.40667 -26.764336 112.90204 -1.166788 -48.948921
1831290625 -0.70813012 164.08928 -26.432451 116.31823 -26.596535 112.80619 -1.1776069 -49.437782
1852225000 -0.71095878 163.93015 -26.261841 116.29291 -26.441147 112.75399 -1.1877223 -49.928608
1873159375 -0.71266901 163.77261 -26.104294 115.86755 -26.295317 112.6984 -1.1970593 -50.402531
1894093750 -0.71497464 163.60228 -25.977049 115.78959 -26.130621 112.56099 -1.2075847 -50.87323
1915028125 -0.71731991 163.41177 -25.814558 115.69337 -26.008213 112.38181 -1.2190399 -51.341469
1935962500 -0.72082424 163.22658 -25.686354 115.58836 -25.860588 112.35868 -1.2307433 -51.805664
1956896875 -0.72411603 163.05754 -25.510281 115.46825 -25.701609 112.32698 -1.2392637 -52.276855
1977831250 -0.72589993 162.90677 -25.392345 114.93326 -25.552027 111.97672 -1.247957 -52.75322
1998765625 -0.72802883 162.75055 -25.295177 114.9701 -25.426853 111.86212 -1.2571086 -53.228683
2019700000 -0.72924674 162.58018 -25.149948 114.94598 -25.290644 111.3545 -1.2692808 -53.68055
2040634375 -0.73043847 162.40057 -24.993233 114.6973 -25.159889 111.63912 -1.2782345 -54.132401
2061568750 -0.73094696 162.21529 -24.860067 114.6144 -25.021612 111.49249 -1.288727 -54.59013
2082503125 -0.73099327 162.03696 -24.736353 114.49347 -24.899683 111.40784 -1.2986474 -55.057007
2103437500 -0.73294461 161.87358 -24.61974 114.4437 -24.765722 111.2188 -1.3075175 -55.516796
2124371875 -0.73068321 161.71121 -24.476494 114.22012 -24.650869 111.26718 -1.3145928 -55.979004
2145306250 -0.73155677 161.53435 -24.341885 114.15643 -24.512657 111.23386 -1.3242676 -56.429085
2166240625 -0.73027009 161.33902 -24.21748 114.03374 -24.38201 111.10913 -1.3361241 -56.864491
2187175000 -0.73006493 161.1479 -24.078384 114.03711 -24.258846 110.97045 -1.3469131 -57.302479
2208109375 -0.72953093 160.96829 -23.953156 113.90566 -24.148151 110.93662 -1.3569609 -57.757973
2229043750 -0.72805548 160.78183 -23.806108 113.75364 -24.020542 110.92224 -1.3668582 -58.219215
2249978125 -0.72927171 160.59622 -23.690584 113.49737 -23.887848 110.82705 -1.3753952 -58.665787
2270912500 -0.73323804 160.41661 -23.571499 113.43581 -23.755753 110.66803 -1.3840004 -59.094517
2291846875 -0.73514402 160.23286 -23.454021 113.19672 -23.637426 110.47379 -1.3941289 -59.52615
2312781250 -0.73779202 160.04337 -23.336931 113.16251 -23.530807 110.26855 -1.4066604 -59.959423
2333715625 -0.7413106 159.85303 -23.195269 112.98904 -23.410463 110.19656 -1.4171317 -60.401077
2354650000 -0.74787879 159.68594 -23.085285 112.7778 -23.297005 110.05048 -1.4266958 -60.851639
2375584375 -0.74571127 159.5233 -22.975311 112.60707 -23.178232 110.15916 -1.4346982 -61.296474
2396518750 -0.74686146 159.34317 -22.861925 112.49455 -23.054317 109.96558 -1.4426889 -61.719597
2417453125 -0.75031275 159.1562 -22.747288 112.38331 -22.946024 109.93443 -1.4513645 -62.131512
2438387500 -0.75168818 158.96136 -22.633471 112.27354 -22.804291 109.79893 -1.4609392 -62.546387
2459321875 -0.7550137 158.76253 -22.506479 112.10654 -22.692091 109.51635 -1.4706658 -62.974133
2480256250 -0.75419468 158.57942 -22.401516 111.93078 -22.586538 109.22778 -1.4813378 -63.407085
2501190625 -0.75607115 158.41405 -22.270952 111.7691 -22.481861 109.12389 -1.4886303 -63.846661
2522125000 -0.75673079 158.23462 -22.181271 111.4925 -22.36327 109.13664 -1.4962212 -64.26712
2543059375 -0.76063645 158.04517 -22.079271 111.46281 -22.236284 108.96007 -1.5030953 -64.666023
2563993750 -0.76424241 157.85307 -21.960686 111.36353 -22.139357 108.68968 -1.5128245 -65.066101
2584928125 -0.76442611 157.65675 -21.846462 111.22379 -22.027473 108.67582 -1.5222162 -65.488129
2605862500 -0.76489669 157.46582 -21.731619 111.03742 -21.911161 107.87694 -1.5371187 -65.901642
2626796875 -0.76528281 157.28046 -21.620163 110.85992 -21.823839 107.93307 -1.5442083 -66.330681
2647731250 -0.76956505 157.10905 -21.503275 110.5031 -21.715973 107.83091 -1.5513238 -66.751213
2668665625 -0.7719776 156.92952 -21.422853 110.35132 -21.604353 107.8625 -1.558443 -67.159431
2689600000 -0.77428144 156.73074 -21.335081 110.22186 -21.493444 107.52166 -1.5685471 -67.547112
2710534375 -0.77726036 156.53619 -21.229469 110.17154 -21.417398 107.4682 -1.5770267 -67.947426
2731468750 -0.778301 156.3541 -21.082134 110.0681 -21.322046 107.38655 -1.5865133 -68.368477
2752403125 -0.78054261 156.17841 -20.984303 109.61226 -21.212997 107.33131 -1.5950505 -68.787285
2773337500 -0.78430557 156.00546 -20.913092 109.45922 -21.104263 107.11224 -1.6024624 -69.204597
2794271875 -0.78827018 155.83998 -20.812414 109.26677 -21.029633 107.01807 -1.6089975 -69.611839
2815206250 -0.79231906 155.66547 -20.706827 109.20467 -20.92601 107.00599 -1.6186903 -69.997261
2836140625 -0.79439664 155.46918 -20.612671 108.94083 -20.808002 106.70313 -1.6286911 -70.371254
2857075000 -0.79776871 155.27507 -20.509127 108.94025 -20.711687 106.24886 -1.6394334 -70.763443
2878009375 -0.79987967 155.1062 -20.395878 108.5691 -20.619019 106.31682 -1.6457056 -71.188484
2898943750 -0.79942852 154.94333 -20.316965 108.3215 -20.543884 106.16895 -1.6541831 -71.598221
2919878125 -0.8026821 154.76308 -20.234133 108.21928 -20.439873 106.20351 -1.6614721 -71.984032
2940812500 -0.80703676 154.5666 -20.141092 108.08335 -20.331135 105.93749 -1.6683879 -72.361015
2961746875 -0.81449145 154.38576 -20.041515 107.91499 -20.237545 105.77394 -1.6767013 -72.736938
2982681250 -0.81221521 154.18954 -19.955038 107.68535 -20.145098 105.56003 -1.6864308 -73.120865
3003615625 -0.81158882 153.99385 -19.852003 107.47386 -20.077692 105.42992 -1.6945455 -73.511261
3024550000 -0.81334513 153.80984 -19.787331 107.25237 -19.970068 105.39714 -1.7011276 -73.915909
3045484375 -0.81620812 153.63849 -19.691536 107.20469 -19.87479 105.03394 -1.7087296 -74.308937
3066418750 -0.81963634 153.46234 -19.578667 106.99602 -19.807442 104.96397 -1.7165208 -74.684395
3087353125 -0.82060564 153.26271 -19.498857 106.66166 -19.710361 104.85217 -1.7246265 -75.037064
3108287500 -0.82394266 153.05565 -19.440477 106.50017 -19.618517 104.70422 -1.7338201 -75.40593
3129221875 -0.82369924 152.85516 -19.356897 106.42631 -19.528008 104.47279 -1.7434194 -75.792671
3150156250 -0.82629067 152.67462 -19.243757 106.35693 -19.453035 104.24644 -1.7503368 -76.183846
3171090625 -0.83016187 152.50435 -19.140322 106.00495 -19.373428 104.10495 -1.7563981 -76.569489
3192025000 -0.834598 152.33957 -19.205505 104.98955 -19.284872 103.94678 -1.7633028 -76.937042
3212959375 -0.83923137 152.15784 -19.142365 104.77392 -19.201778 103.68945 -1.7725714 -77.291901
3233893750 -0.83992076 151.94345 -19.049183 104.62566 -19.141766 103.56868 -1.7817641 -77.648293
3254828125 -0.84537119 151.73845 -18.848417 105.35946 -19.044594 103.54809 -1.791013 -78.013359
3275762500 -0.84812462 151.55418 -18.735544 105.17389 -18.944136 103.23715 -1.797076 -78.402298
3296696875 -0.85148579 151.38809 -18.669228 104.68709 -18.886831 102.98515 -1.8032756 -78.776352
3317631250 -0.85722297 151.2155 -18.597754 104.6795 -18.806574 102.79526 -1.8092985 -79.138939
3338565625 -0.86221641 151.0244 -18.521723 104.46925 -18.756142 102.63134 -1.8167257 -79.488441
3359500000 -0.86682272 150.8177 -18.441216 104.38032 -18.665724 102.68571 -1.8252167 -79.834953
3380434375 -0.87035626 150.60326 -18.337448 103.94759 -18.566614 102.38392 -1.8335984 -80.191704
3401368750 -0.87368429 150.41624 -18.291813 103.70263 -18.514505 102.22993 -1.8417981 -80.562775
3422303125 -0.87791032 150.24869 -18.235401 103.71931 -18.418545 102.08273 -1.8487357 -80.928833
3443237500 -0.8809644 150.08 -18.135244 103.66847 -18.362278 101.74083 -1.8532299 -81.28598
3464171875 -0.88655734 149.90033 -18.03878 103.28645 -18.307379 101.73602 -1.8589422 -81.629303
3485106250 -0.89163572 149.69661 -17.982 103.0341 -18.229687 101.68748 -1.8667029 -81.961739
3506040625 -0.89561468 149.49423 -17.938244 102.88047 -18.138309 101.62463 -1.8764681 -82.303886
3526975000 -0.89886111 149.30713 -17.866968 102.91375 -18.032272 101.33743 -1.8849995 -82.654221
3547909375 -0.89918011 149.14355 -17.765278 102.61631 -17.992399 100.99027 -1.8908728 -83.028831
3568843750 -0.9007194 148.9933 -17.709785 102.50343 -17.933376 101.04294 -1.8950229 -83.379715
3589778125 -0.90433264 148.82613 -17.610708 102.44865 -17.835306 100.92686 -1.9004589 -83.712936
3610712500 -0.9102335 148.64038 -17.52939 101.99503 -17.767 100.61257 -1.906814 -84.040352
3631646875 -0.91350949 148.43645 -17.495531 101.84259 -17.709497 100.60362 -1.9155262 -84.36293
3652581250 -0.91437948 148.23033 -17.426033 101.82411 -17.604137 100.52793 -1.9243377 -84.706924
3673515625 -0.91989642 148.04953 -17.337198 101.77965 -17.518246 100.04971 -1.9318253 -85.069847
3694450000 -0.92184204 147.89703 -17.231066 101.47619 -17.474573 99.843925 -1.938115 -85.426537
3715384375 -0.92700827 147.74501 -17.175247 101.06989 -17.415737 99.722633 -1.941978 -85.759735
3736318750 -0.92847323 147.56099 -17.130203 101.02513 -17.356852 99.728745 -1.9478933 -86.064621
3757253125 -0.93390793 147.35403 -17.043926 100.88159 -17.247477 99.670845 -1.9548119 -86.38382
3778187500 -0.94045758 147.16013 -16.988863 100.62991 -17.17313 99.194679 -1.9624789 -86.725357
3799121875 -0.93985474 146.97942 -16.917295 100.39771 -17.123674 99.132202 -1.9703939 -87.065628
3820056250 -0.94567257 146.80637 -16.817434 100.15019 -17.047894 98.79892 -1.9763418 -87.412514
3840990625 -0.95142567 146.645 -16.789814 99.938217 -17.024502 98.752357 -1.9810805 -87.742783
3861925000 -0.95802504 146.46339 -16.711163 99.891075 -16.922731 98.824745 -1.9857473 -88.047005
3882859375 -0.9625805 146.26173 -16.634197 99.624954 -16.82572 98.401871 -1.9907035 -88.355843
3903793750 -0.96142697 146.04601 -16.579172 99.43631 -16.794853 98.131439 -1.9987307 -88.67794
3924728125 -0.96381205 145.84782 -16.52883 99.219513 -16.729692 98.096123 -2.0063124 -89.019218
3945662500 -0.96320707 145.66165 -16.471958 99.111946 -16.662767 97.938522 -2.0139816 -89.354988
3966596875 -0.96505678 145.48628 -16.374567 99.007919 -16.587095 97.809532 -2.018327 -89.676262
3987531250 -0.96993786 145.30829 -16.320206 98.590858 -16.517551 97.452995 -2.023252 -89.979538
4008465625 -0.97538036 145.11046 -16.288473 98.556938 -16.462921 97.361694 -2.026283 -90.276535
4029400000 -0.98232144 144.92209 -16.207407 98.525436 -16.392221 97.228134 -2.0331564 -90.579536
4050334375 -0.98370856 144.71262 -16.136183 98.262756 -16.322023 96.988464 -2.0398211 -90.91082
4071268750 -0.98424208 144.52081 -16.076658 98.106369 -16.277971 96.807693 -2.0479977 -91.238953
4092203125 -0.98753798 144.34886 -16.01148 97.86853 -16.194534 96.804802 -2.0535042 -91.559204
4113137500 -0.99145252 144.18233 -15.965588 97.758606 -16.118523 96.402435 -2.0576296 -91.851837
4134071875 -0.99444586 144.01564 -15.881832 97.541138 -16.077803 96.276352 -2.0610507 -92.15033
4155006250 -0.99844235 143.80997 -15.820449 97.358772 -15.995532 95.960945 -2.0680997 -92.439133
4175940625 -1.0017666 143.60799 -15.742126 97.242355 -15.974397 95.772339 -2.0749538 -92.754852
4196875000 -1.0047116 143.42633 -15.686486 96.811073 -15.895574 95.856239 -2.0821335 -93.063713
4217809375 -1.0068415 143.24559 -15.659188 96.764763 -15.810658 95.421928 -2.0865881 -93.374512
