!Keysight Technologies,N5227A,US51270248,A.10.65.08
!Date: Tuesday, June 11, 2024 07:57:19
!Correction: S11(Full 2 Port(1,4)) 
!S41(Full 2 Port(1,4)) 
!S14(Full 2 Port(1,4)) 
!S44(Full 2 Port(1,4)) 
!S2P File: Measurements: S11, S41, S14, S44:
# Hz S  dB   R 50
10000000 -0.40677425 179.54678 -64.235809 6.2897563 -64.410645 7.7380128 -0.32201558 -0.3061246
30934375 -0.51552981 179.64587 -61.396687 26.099943 -62.250099 25.860697 -0.31892389 -0.98816818
51868750 -0.51908356 179.48573 -60.185741 38.408306 -60.993134 39.712204 -0.32233706 -1.638204
72803125 -0.51024431 179.27293 -59.081745 49.477779 -59.832298 49.954166 -0.32869121 -2.2653265
93737500 -0.50697559 179.05702 -57.889221 57.589951 -58.525841 58.550686 -0.33372325 -2.8768156
114671875 -0.50823516 178.85121 -56.680759 64.339142 -57.331219 64.993561 -0.33782288 -3.4976733
135606250 -0.51197499 178.68306 -55.563 69.544426 -56.237949 70.676971 -0.34102273 -4.135118
156540625 -0.51307207 178.53659 -54.560452 74.435745 -55.181702 75.283585 -0.34457991 -4.7796125
177475000 -0.52564305 178.34167 -53.301891 77.568764 -54.200363 79.300072 -0.35107458 -5.4008212
198409375 -0.51998478 178.11867 -52.535099 81.235382 -53.22934 82.75753 -0.35370409 -5.995101
219343750 -0.51924962 177.91513 -51.786652 84.373909 -52.359489 85.668686 -0.35693604 -6.6086159
240278125 -0.52009904 177.74252 -51.011738 86.939026 -51.547119 88.358673 -0.36254606 -7.2423768
261212500 -0.51651943 177.57256 -50.301605 89.328697 -50.756462 90.644722 -0.37093312 -7.8776073
282146875 -0.51729941 177.39403 -49.588081 91.512703 -50.055687 92.989929 -0.37637052 -8.5023165
303081250 -0.52178758 177.21956 -48.901836 93.339935 -49.32653 94.811424 -0.38010317 -9.1219015
324015625 -0.52211237 177.05325 -48.308887 94.801712 -48.721897 96.113808 -0.38486466 -9.7266788
344950000 -0.52370876 176.85153 -47.642136 96.674545 -48.037689 98.118179 -0.38900062 -10.327158
365884375 -0.52492899 176.66925 -47.109283 98.308434 -47.477081 99.650848 -0.39531517 -10.936407
386818750 -0.52416974 176.5011 -46.510288 99.750336 -46.882172 101.26121 -0.40377709 -11.558768
407753125 -0.52277255 176.33266 -45.949497 101.06717 -46.332428 102.58498 -0.41299272 -12.16254
428687500 -0.52284586 176.1469 -45.422344 102.1475 -45.754997 103.76242 -0.41506428 -12.767187
449621875 -0.52656472 175.95953 -44.932102 103.37922 -45.236866 104.78477 -0.42071268 -13.387842
470556250 -0.52884376 175.7771 -44.438694 104.36986 -44.733311 105.81579 -0.4275583 -13.986385
491490625 -0.5288378 175.59085 -43.968258 105.46989 -44.260227 106.99196 -0.43519381 -14.576561
512425000 -0.52883315 175.40254 -43.495693 106.39413 -43.778423 107.9953 -0.44275904 -15.168779
533359375 -0.53391415 175.22404 -43.013142 107.19495 -43.300934 108.85939 -0.45123297 -15.778111
554293750 -0.53394961 175.05534 -42.591225 108.16581 -42.862858 109.86299 -0.45907861 -16.384447
575228125 -0.53529251 174.88129 -42.152332 109.01633 -42.408859 110.62226 -0.46545851 -16.980505
596162500 -0.5383814 174.69318 -41.722324 109.58456 -41.969814 111.11155 -0.47202241 -17.575539
617096875 -0.53993273 174.5063 -41.331928 110.28422 -41.584084 111.96651 -0.47989264 -18.170149
638031250 -0.54000682 174.3278 -40.943722 110.99724 -41.166481 112.6125 -0.48934737 -18.759542
658965625 -0.54223585 174.15042 -40.574165 111.77711 -40.771797 113.33411 -0.49745008 -19.348663
679900000 -0.5437634 173.97652 -40.175495 112.28278 -40.372646 113.75288 -0.50534487 -19.946022
700834375 -0.54800791 173.80324 -39.799728 112.83379 -40.027229 114.4485 -0.51456589 -20.541567
721768750 -0.54629117 173.62488 -39.448498 113.60925 -39.640976 115.14371 -0.52463049 -21.120312
742703125 -0.54679918 173.43845 -39.070942 114.01681 -39.245972 115.58339 -0.53173435 -21.683437
763637500 -0.54656476 173.25583 -38.744648 114.53373 -38.895 115.88913 -0.53762364 -22.268661
784571875 -0.55213457 173.08195 -38.373997 114.77742 -38.572971 116.32246 -0.54698467 -22.8554
805506250 -0.54952711 172.91188 -38.087551 115.62466 -38.263874 117.00611 -0.55559224 -23.430904
826440625 -0.55115175 172.7355 -37.694603 116.12822 -37.85606 117.7188 -0.5638395 -24.012402
847375000 -0.5534398 172.54889 -37.351101 116.3854 -37.500912 117.84941 -0.57486099 -24.586222
868309375 -0.55259299 172.36766 -37.032822 116.65238 -37.170147 117.88109 -0.58593994 -25.143959
889243750 -0.55061597 172.17606 -36.731636 117.03573 -36.863377 118.24399 -0.59387147 -25.708614
910178125 -0.55354309 171.99481 -36.428604 117.27348 -36.534332 118.53603 -0.60227996 -26.28371
931112500 -0.5558725 171.82869 -36.125679 117.57107 -36.245831 118.68186 -0.61140728 -26.851866
952046875 -0.55727786 171.65529 -35.835136 117.91135 -35.952366 119.06685 -0.62013835 -27.413017
972981250 -0.55840981 171.4644 -35.533905 118.1718 -35.642056 119.36019 -0.62901086 -27.976421
993915625 -0.56106436 171.2751 -35.239052 118.34093 -35.354988 119.57404 -0.64009392 -28.542402
1014850000 -0.56263357 171.1019 -34.942013 118.43031 -35.048908 119.62985 -0.65047699 -29.102951
1035784375 -0.56233007 170.92586 -34.676723 118.63645 -34.792446 119.83289 -0.66099274 -29.664129
1056718750 -0.56280881 170.74577 -34.409626 118.94408 -34.503689 120.17792 -0.66922903 -30.224903
1077653125 -0.56881106 170.56914 -34.128628 119.02074 -34.201256 120.18521 -0.67735255 -30.780706
1098587500 -0.57087421 170.39708 -33.866203 119.14651 -33.940731 120.14363 -0.68609983 -31.320484
1119521875 -0.57251829 170.21323 -33.599087 119.15574 -33.682098 120.21011 -0.69667482 -31.867201
1140456250 -0.57113165 170.01921 -33.352039 119.37336 -33.434364 120.41587 -0.70805371 -32.415257
1161390625 -0.57293171 169.84213 -33.097832 119.40054 -33.169186 120.55853 -0.71855766 -32.960365
1182325000 -0.57230121 169.67209 -32.848476 119.56932 -32.896469 120.50117 -0.72603053 -33.510311
1203259375 -0.57408798 169.49739 -32.598934 119.5854 -32.647728 120.32607 -0.73441714 -34.059654
1224193750 -0.57664353 169.31491 -32.365307 119.60796 -32.423546 120.35295 -0.74299729 -34.604065
1245128125 -0.57910591 169.12961 -32.133995 119.62459 -32.190868 120.38934 -0.7543667 -35.13089
1266062500 -0.57963854 168.94536 -31.899675 119.60679 -31.968077 120.39109 -0.76658219 -35.66423
1286996875 -0.57768905 168.75516 -31.676998 119.66663 -31.732264 120.46253 -0.77750325 -36.207661
1307931250 -0.57863551 168.57513 -31.450911 119.65266 -31.503742 120.41292 -0.78811228 -36.750862
1328865625 -0.5800786 168.40488 -31.233883 119.69146 -31.284338 120.41584 -0.79735214 -37.289097
1349800000 -0.58338606 168.23499 -31.01713 119.65678 -31.054197 120.13594 -0.80673444 -37.812717
1370734375 -0.58433622 168.04706 -30.810343 119.71442 -30.874506 120.23761 -0.81638604 -38.334854
1391668750 -0.58736902 167.85185 -30.595036 119.66927 -30.66057 120.38886 -0.82777256 -38.857182
1412603125 -0.58739322 167.66528 -30.388594 119.70334 -30.435722 120.31352 -0.84005219 -39.375519
1433537500 -0.58774835 167.48878 -30.177723 119.62661 -30.234507 120.31522 -0.85030937 -39.910683
1454471875 -0.59012532 167.31477 -29.97633 119.57307 -30.010805 120.24239 -0.85981959 -40.443455
1475406250 -0.59362924 167.14391 -29.778502 119.54366 -29.827639 120.07558 -0.86967081 -40.963051
1496340625 -0.59715736 166.96941 -29.584072 119.49689 -29.641027 120.13284 -0.8789416 -41.466404
1517275000 -0.60090667 166.78082 -29.388844 119.41776 -29.439493 120.05991 -0.88884282 -41.963322
1538209375 -0.60043269 166.57988 -29.19381 119.41273 -29.246187 120.02286 -0.90077281 -42.475716
1559143750 -0.60253841 166.39146 -29.002577 119.3386 -29.040756 119.91077 -0.91216266 -42.987576
1580078125 -0.60459912 166.21693 -28.821024 119.26289 -28.862659 119.73568 -0.92167771 -43.506134
1601012500 -0.60814631 166.04973 -28.63867 119.15316 -28.669579 119.65692 -0.93063134 -44.025982
1621946875 -0.61060566 165.87471 -28.456848 119.11226 -28.487106 119.49658 -0.94180101 -44.529335
1642881250 -0.61351621 165.68867 -28.276733 119.02888 -28.32341 119.44602 -0.95229554 -45.012184
1663815625 -0.61496776 165.49713 -28.099848 118.9464 -28.144432 119.37752 -0.96280581 -45.499268
1684750000 -0.61645055 165.30505 -27.923576 118.78362 -27.969395 119.22417 -0.97446346 -46.001247
1705684375 -0.61938977 165.12839 -27.75758 118.67439 -27.797928 119.1518 -0.98533112 -46.513321
1726618750 -0.6218406 164.96619 -27.593134 118.60363 -27.627947 119.00896 -0.99543053 -47.011417
1747553125 -0.62438214 164.80066 -27.421972 118.54756 -27.459341 118.87994 -1.0066501 -47.501396
1768487500 -0.62716997 164.62096 -27.253119 118.4132 -27.302256 118.74557 -1.0171577 -47.979355
1789421875 -0.63028282 164.43733 -27.091604 118.27654 -27.147486 118.66049 -1.0287099 -48.450993
1810356250 -0.63212705 164.26135 -26.93462 118.2134 -26.987707 118.57345 -1.0394086 -48.935654
1831290625 -0.63337421 164.09058 -26.771891 118.0826 -26.812906 118.48474 -1.0503029 -49.425873
1852225000 -0.63581771 163.92899 -26.611818 117.95232 -26.646343 118.30742 -1.0604136 -49.91774
1873159375 -0.63797468 163.7709 -26.454172 117.84273 -26.492691 118.20345 -1.0704479 -50.394085
1894093750 -0.63949353 163.59961 -26.298317 117.71975 -26.322124 118.00211 -1.0811694 -50.864754
1915028125 -0.64166719 163.41118 -26.141909 117.55373 -26.198029 117.72031 -1.0929222 -51.334591
1935962500 -0.64595813 163.22678 -25.995262 117.35631 -26.049761 117.77888 -1.1038221 -51.802639
1956896875 -0.64896685 163.05647 -25.849396 117.21838 -25.88003 117.60247 -1.1129671 -52.274094
1977831250 -0.6515559 162.90282 -25.706793 117.02776 -25.736128 117.36427 -1.1214092 -52.753365
1998765625 -0.65269089 162.74657 -25.575409 116.91759 -25.60025 117.11247 -1.1310266 -53.226414
2019700000 -0.65570176 162.57704 -25.435585 116.76711 -25.482426 117.01824 -1.1407799 -53.685932
2040634375 -0.65539402 162.39992 -25.299524 116.72723 -25.330538 117.00709 -1.1513942 -54.136841
2061568750 -0.65629512 162.21658 -25.156439 116.54591 -25.182268 116.7794 -1.1617705 -54.599117
2082503125 -0.65621185 162.03542 -25.024899 116.45158 -25.054985 116.63377 -1.1719056 -55.067711
2103437500 -0.65871072 161.87042 -24.888798 116.26566 -24.921755 116.43 -1.1806306 -55.527328
2124371875 -0.65692931 161.70848 -24.754227 116.23313 -24.798103 116.37076 -1.1889355 -55.98674
2145306250 -0.65682006 161.53154 -24.615993 116.07208 -24.654406 116.27207 -1.1989859 -56.436157
2166240625 -0.65645742 161.33684 -24.485342 115.94666 -24.517935 116.08411 -1.2106309 -56.872997
2187175000 -0.65709889 161.14792 -24.351891 115.81882 -24.390642 115.91498 -1.2213197 -57.314365
2208109375 -0.6542775 160.96666 -24.217554 115.73118 -24.274113 115.73225 -1.2321513 -57.767918
2229043750 -0.65318125 160.77879 -24.081024 115.56665 -24.147047 115.72128 -1.2419008 -58.228477
2249978125 -0.65602756 160.5909 -23.95035 115.34514 -24.008829 115.56832 -1.2509582 -58.67841
2270912500 -0.6605984 160.41109 -23.823706 115.16186 -23.876259 115.40158 -1.2593132 -59.113102
2291846875 -0.66402882 160.22955 -23.700727 114.94067 -23.748865 115.15338 -1.2697288 -59.548321
2312781250 -0.66490251 160.03879 -23.579742 114.81757 -23.643744 115.02356 -1.2818421 -59.979996
2333715625 -0.66738415 159.84962 -23.459288 114.65903 -23.519215 114.92949 -1.2924923 -60.422653
2354650000 -0.6678068 159.6795 -23.341568 114.57107 -23.404587 114.74849 -1.3027025 -60.87204
2375584375 -0.66965413 159.51479 -23.220667 114.46581 -23.274624 114.70978 -1.311216 -61.316547
2396518750 -0.67105114 159.3364 -23.096973 114.34467 -23.147799 114.50157 -1.319052 -61.741795
2417453125 -0.67375094 159.14938 -22.977835 114.20657 -23.036726 114.36755 -1.3285795 -62.157215
2438387500 -0.67643607 158.95584 -22.854965 114.0525 -22.891716 114.27214 -1.3376298 -62.577053
2459321875 -0.67853439 158.75812 -22.733742 113.85339 -22.774914 113.93001 -1.3476874 -63.003788
2480256250 -0.67928845 158.57265 -22.620987 113.72823 -22.673534 113.77811 -1.3572954 -63.440559
2501190625 -0.68220335 158.40292 -22.500944 113.52094 -22.568037 113.64572 -1.364584 -63.877506
2522125000 -0.68371528 158.22635 -22.390676 113.35566 -22.445728 113.54982 -1.3731246 -64.297699
2543059375 -0.68645465 158.03658 -22.276197 113.20813 -22.311861 113.33574 -1.380658 -64.702904
2563993750 -0.68955237 157.84523 -22.164474 113.06371 -22.211205 113.0659 -1.3891575 -65.103447
2584928125 -0.69140309 157.65282 -22.048853 112.86796 -22.096167 112.92097 -1.3991888 -65.521805
2605862500 -0.69028324 157.46001 -21.937265 112.69036 -21.993549 112.61887 -1.4103737 -65.947701
2626796875 -0.69129306 157.27351 -21.82991 112.51186 -21.899364 112.49937 -1.4197011 -66.374649
2647731250 -0.69479382 157.10054 -21.722408 112.28228 -21.794809 112.38038 -1.4269817 -66.794907
2668665625 -0.69799125 156.91924 -21.618307 112.11379 -21.673746 112.25555 -1.4350853 -67.205101
2689600000 -0.69985044 156.72125 -21.518499 111.97166 -21.558346 111.93371 -1.443848 -67.597237
2710534375 -0.70413023 156.52826 -21.413559 111.81495 -21.481199 111.68261 -1.4539638 -67.995842
2731468750 -0.7050814 156.34511 -21.300121 111.67557 -21.386126 111.65598 -1.4634119 -68.41378
2752403125 -0.70757228 156.1696 -21.200077 111.41447 -21.27437 111.55493 -1.472512 -68.835083
2773337500 -0.7098493 155.99516 -21.102962 111.27137 -21.159723 111.2819 -1.4805809 -69.249313
2794271875 -0.71457028 155.82434 -20.999479 111.11053 -21.077997 111.06661 -1.4884603 -69.657883
2815206250 -0.71961707 155.64998 -20.897749 110.90787 -20.973984 111.05025 -1.4974871 -70.048767
2836140625 -0.72210258 155.45604 -20.800446 110.75675 -20.854467 110.81934 -1.5067412 -70.430115
2857075000 -0.72839236 155.26936 -20.694389 110.48802 -20.761955 110.56898 -1.5154673 -70.825104
2878009375 -0.73570001 155.10321 -20.590895 110.11234 -20.66147 110.34984 -1.5238553 -71.242874
2898943750 -0.73195642 154.93436 -20.498035 110.06049 -20.584284 110.05046 -1.5351888 -71.649971
2919878125 -0.73700488 154.74966 -20.400654 109.77657 -20.478565 110.04339 -1.5421345 -72.039055
2940812500 -0.73738289 154.55563 -20.307343 109.7588 -20.365862 109.75673 -1.5495763 -72.421165
2961746875 -0.74231929 154.37279 -20.209679 109.51795 -20.272726 109.6094 -1.5567876 -72.801956
2982681250 -0.74419492 154.17821 -20.116201 109.32758 -20.175047 109.27242 -1.5671321 -73.181412
3003615625 -0.74169254 153.98256 -20.021366 109.15519 -20.110193 109.14762 -1.5755931 -73.570549
3024550000 -0.74385297 153.79869 -19.935139 108.94159 -19.999241 109.06033 -1.5831951 -73.972008
3045484375 -0.74785179 153.62503 -19.841913 108.81551 -19.900154 108.70256 -1.5903925 -74.369789
3066418750 -0.7534067 153.45177 -19.742834 108.46986 -19.831253 108.51128 -1.599383 -74.744316
3087353125 -0.75373822 153.25081 -19.657368 108.29133 -19.734495 108.4286 -1.6065778 -75.102333
3108287500 -0.7571395 153.04398 -19.574837 108.06668 -19.639599 108.20715 -1.6163061 -75.47097
3129221875 -0.75530308 152.84805 -19.487631 107.99489 -19.54664 107.96167 -1.6257261 -75.855003
3150156250 -0.7562744 152.65903 -19.392328 107.82708 -19.470274 107.69994 -1.6333631 -76.2444
3171090625 -0.76149702 152.49092 -19.304411 107.52909 -19.390743 107.53778 -1.6401075 -76.630386
3192025000 -0.77636307 152.32671 -19.227924 107.04324 -19.299984 107.326 -1.6480451 -76.997726
3212959375 -0.78531802 152.14661 -19.141109 106.74927 -19.214722 107.0732 -1.6567152 -77.359192
3233893750 -0.78242052 151.93582 -19.056364 106.69309 -19.155998 106.90369 -1.665957 -77.713341
3254828125 -0.78395259 151.73203 -18.975399 106.57546 -19.057837 106.89717 -1.6745126 -78.079185
3275762500 -0.78737622 151.5472 -18.883995 106.36805 -18.951056 106.50983 -1.6818774 -78.466537
3296696875 -0.78976756 151.37769 -18.812986 106.15418 -18.89386 106.24633 -1.6890231 -78.842018
3317631250 -0.79387772 151.19931 -18.733171 106.01893 -18.811281 106.05263 -1.6951116 -79.207062
3338565625 -0.79914051 151.00789 -18.655251 105.8371 -18.763609 105.85081 -1.7023561 -79.557396
3359500000 -0.80305225 150.80554 -18.573032 105.67736 -18.671766 105.84631 -1.7115849 -79.903587
3380434375 -0.80718905 150.59494 -18.488918 105.4291 -18.569759 105.56292 -1.7193917 -80.262939
3401368750 -0.80952626 150.40413 -18.424019 105.25577 -18.517115 105.37585 -1.7271932 -80.631569
3422303125 -0.81423992 150.23694 -18.349493 105.11915 -18.418913 105.23349 -1.7342544 -80.998917
3443237500 -0.8164649 150.0658 -18.262667 105.01504 -18.362097 104.83085 -1.7403224 -81.355408
3464171875 -0.82175535 149.8835 -18.181828 104.75369 -18.309496 104.80274 -1.7465171 -81.702484
3485106250 -0.82736903 149.68324 -18.114702 104.54153 -18.230711 104.71945 -1.7548782 -82.037849
3506040625 -0.83121037 149.48512 -18.048298 104.40235 -18.13851 104.70457 -1.7626687 -82.38076
3526975000 -0.83474535 149.29936 -17.969547 104.27321 -18.02809 104.38094 -1.7717717 -82.729073
3547909375 -0.83561355 149.13449 -17.886036 104.08646 -17.986916 103.99892 -1.778203 -83.098976
3568843750 -0.83732378 148.97942 -17.816547 103.91807 -17.928818 104.00717 -1.7827144 -83.448402
3589778125 -0.84223777 148.81219 -17.729372 103.73058 -17.82929 103.89915 -1.7886217 -83.790688
3610712500 -0.84441513 148.62021 -17.657946 103.48581 -17.758305 103.56218 -1.7952412 -84.121231
3631646875 -0.84797168 148.42299 -17.597687 103.31638 -17.701973 103.49562 -1.8042388 -84.44548
3652581250 -0.85068524 148.21887 -17.521816 103.20537 -17.595078 103.44925 -1.812831 -84.791412
3673515625 -0.85836583 148.03876 -17.440071 102.90872 -17.50596 102.99805 -1.8202288 -85.15065
3694450000 -0.8570168 147.88628 -17.358503 102.75287 -17.4624 102.76992 -1.8269843 -85.50473
3715384375 -0.85928506 147.7206 -17.296799 102.52441 -17.402803 102.56812 -1.8321105 -85.836983
3736318750 -0.86294293 147.53882 -17.231606 102.41643 -17.346289 102.57535 -1.8374023 -86.146049
3757253125 -0.86848748 147.33705 -17.153807 102.22955 -17.234648 102.47762 -1.8453562 -86.467491
3778187500 -0.87284482 147.13959 -17.091284 102.02009 -17.155357 101.99184 -1.8530334 -86.810524
3799121875 -0.8741985 146.95882 -17.017153 101.93128 -17.106543 101.89764 -1.8602676 -87.147568
3820056250 -0.87505227 146.78691 -16.938551 101.64429 -17.028799 101.56601 -1.8666054 -87.494881
3840990625 -0.87664008 146.61656 -16.887596 101.47349 -17.007652 101.41516 -1.8736936 -87.818703
3861925000 -0.88289201 146.4353 -16.809435 101.2859 -16.905411 101.47454 -1.8787074 -88.122871
3882859375 -0.88871253 146.2354 -16.739742 101.01337 -16.805592 100.988 -1.8847836 -88.438393
3903793750 -0.89314801 146.02258 -16.676516 100.8176 -16.775883 100.7588 -1.8920898 -88.763359
3924728125 -0.89331722 145.82693 -16.617653 100.66941 -16.709349 100.69326 -1.8990619 -89.102982
3945662500 -0.89330667 145.64075 -16.551043 100.58586 -16.643332 100.54514 -1.9073422 -89.437668
3966596875 -0.89562297 145.46149 -16.469971 100.37965 -16.566238 100.39413 -1.9126064 -89.755318
3987531250 -0.89916945 145.2802 -16.414654 100.10223 -16.495909 100.15244 -1.9144785 -90.06855
4008465625 -0.90394837 145.08583 -16.358669 100.01382 -16.440241 99.956665 -1.9199073 -90.365356
4029400000 -0.91099167 144.89606 -16.283197 99.836685 -16.370348 99.810219 -1.9270108 -90.669479
4050334375 -0.91746294 144.69017 -16.21731 99.510941 -16.296873 99.535416 -1.9331328 -90.999298
4071268750 -0.91578805 144.49667 -16.154739 99.394127 -16.253878 99.38623 -1.9406881 -91.324875
4092203125 -0.91839457 144.32437 -16.093258 99.208427 -16.170471 99.3144 -1.947611 -91.636848
4113137500 -0.922171 144.15433 -16.03326 99.087761 -16.09181 98.903702 -1.9516398 -91.935646
4134071875 -0.92595607 143.98212 -15.957854 98.923462 -16.051182 98.765259 -1.9560312 -92.238365
4155006250 -0.92891848 143.7831 -15.896247 98.751122 -15.966516 98.505798 -1.9615086 -92.535934
4175940625 -0.93235886 143.58284 -15.824705 98.559761 -15.947075 98.225746 -1.9695563 -92.844765
4196875000 -0.93582988 143.3996 -15.772787 98.259277 -15.869217 98.213112 -1.9797077 -93.14949
4217809375 -0.93808001 143.21677 -15.723475 98.173729 -15.78082 97.798668 -1.9830633 -93.462189
