!Keysight Technologies,N5227A,US51270248,A.10.65.08
!Date: Tuesday, June 11, 2024 07:13:46
!Correction: S11(Full 2 Port(1,4)) 
!S41(Full 2 Port(1,4)) 
!S14(Full 2 Port(1,4)) 
!S44(Full 2 Port(1,4)) 
!S2P File: Measurements: S11, S41, S14, S44:
# Hz S  dB   R 50
10000000 -2.0753694 -0.25192797 -13.436289 0.6850183 -13.459702 0.82886553 -2.0791895 -0.20584799
30934375 -2.0767076 -0.74619228 -13.424548 2.3073621 -13.437913 2.3572247 -2.0818961 -0.67722178
51868750 -2.077913 -1.1747986 -13.40295 3.9109383 -13.401738 3.9444168 -2.0820391 -1.0863291
72803125 -2.0776165 -1.6606452 -13.359904 5.3732495 -13.35615 5.3636236 -2.0804927 -1.597689
93737500 -2.0814438 -2.1260016 -13.314485 6.8289924 -13.308584 6.8134389 -2.0866158 -2.0752113
114671875 -2.087904 -2.590925 -13.262237 8.2853537 -13.253513 8.2434635 -2.0957348 -2.5378246
135606250 -2.0933316 -3.0621793 -13.198187 9.7161512 -13.190321 9.6646318 -2.1026294 -2.9863536
156540625 -2.0975823 -3.5371373 -13.123281 11.093322 -13.117246 11.039598 -2.1059136 -3.4437225
177475000 -2.1028543 -3.9978609 -13.042801 12.432424 -13.037498 12.36744 -2.1097438 -3.9032021
198409375 -2.1086869 -4.4443903 -12.955099 13.733328 -12.949924 13.663397 -2.1155145 -4.3488603
219343750 -2.114778 -4.8941898 -12.860828 14.987881 -12.849914 14.911945 -2.1241274 -4.7964625
240278125 -2.1239042 -5.3581505 -12.762213 16.200193 -12.744216 16.114569 -2.1360166 -5.2461476
261212500 -2.1338518 -5.8186979 -12.656379 17.35972 -12.641032 17.284819 -2.1463056 -5.6945114
282146875 -2.1427181 -6.2737422 -12.547596 18.493872 -12.529814 18.404772 -2.1538603 -6.1530671
303081250 -2.1504376 -6.7290134 -12.433701 19.563948 -12.41537 19.469713 -2.1626105 -6.6108928
324015625 -2.1602404 -7.175622 -12.316533 20.601112 -12.29965 20.499407 -2.1725686 -7.048048
344950000 -2.171083 -7.6100755 -12.195772 21.598326 -12.177958 21.489265 -2.1823392 -7.4741197
365884375 -2.1815469 -8.0456944 -12.070606 22.550228 -12.054379 22.442215 -2.1926889 -7.9046154
386818750 -2.1937592 -8.4992514 -11.943027 23.442707 -11.928161 23.331381 -2.2039783 -8.3509178
407753125 -2.20649 -8.9563894 -11.817541 24.29314 -11.801272 24.187702 -2.2175293 -8.7943668
428687500 -2.2196951 -9.3922644 -11.689624 25.117382 -11.670749 25.003838 -2.2281866 -9.2331228
449621875 -2.227921 -9.824502 -11.557231 25.89781 -11.540011 25.773933 -2.2402878 -9.6750631
470556250 -2.2401116 -10.269128 -11.424854 26.624529 -11.408022 26.508379 -2.2535129 -10.095346
491490625 -2.2547626 -10.702285 -11.292118 27.316133 -11.276198 27.206823 -2.2656393 -10.515155
512425000 -2.2679081 -11.129227 -11.159417 27.972586 -11.143633 27.86021 -2.279696 -10.941381
533359375 -2.2817955 -11.564995 -11.02534 28.590467 -11.011059 28.477165 -2.2951167 -11.374277
554293750 -2.2961197 -12.002063 -10.894317 29.165606 -10.878837 29.053753 -2.3108342 -11.805862
575228125 -2.310976 -12.43082 -10.764717 29.7269 -10.745854 29.603481 -2.3255603 -12.228504
596162500 -2.3259752 -12.850756 -10.632395 30.241903 -10.615082 30.121574 -2.3391926 -12.646089
617096875 -2.3412349 -13.274051 -10.500844 30.719952 -10.484437 30.605682 -2.354471 -13.069193
638031250 -2.3582575 -13.693886 -10.371532 31.173029 -10.355473 31.054743 -2.3721647 -13.485182
658965625 -2.3743451 -14.112787 -10.243133 31.60125 -10.226819 31.478403 -2.389689 -13.895755
679900000 -2.391541 -14.537638 -10.115801 32.002346 -10.10096 31.87772 -2.4062076 -14.312037
700834375 -2.409225 -14.947634 -9.9895153 32.375122 -9.9760847 32.257999 -2.424402 -14.726463
721768750 -2.4275403 -15.355908 -9.8656778 32.730717 -9.8495579 32.614182 -2.4427733 -15.136049
742703125 -2.4459169 -15.754576 -9.7411079 33.060463 -9.7247543 32.937901 -2.4604185 -15.530776
763637500 -2.4640901 -16.1609 -9.6191549 33.358139 -9.6022377 33.230312 -2.4772859 -15.931827
784571875 -2.4821501 -16.576448 -9.4962921 33.652008 -9.4838943 33.506161 -2.4956925 -16.335491
805506250 -2.501271 -16.985193 -9.3769655 33.911762 -9.3643217 33.788368 -2.514303 -16.73435
826440625 -2.5208611 -17.387985 -9.2601538 34.151943 -9.2438097 34.025349 -2.533905 -17.132318
847375000 -2.5404658 -17.781849 -9.1432552 34.383495 -9.1288176 34.240234 -2.5555859 -17.527929
868309375 -2.56269 -18.179419 -9.0282364 34.581676 -9.0154486 34.460663 -2.5770297 -17.910606
889243750 -2.5834513 -18.567173 -8.9143877 34.778622 -8.899189 34.647259 -2.5959244 -18.291292
910178125 -2.6035917 -18.958908 -8.8001165 34.959728 -8.7872362 34.813782 -2.6152368 -18.683603
931112500 -2.6230102 -19.357311 -8.6866436 35.107651 -8.6766539 34.96545 -2.6357086 -19.064592
952046875 -2.6436656 -19.748407 -8.577776 35.236317 -8.5666018 35.104519 -2.6555722 -19.446291
972981250 -2.6644359 -20.12788 -8.4718714 35.355976 -8.4586 35.218147 -2.6774273 -19.829447
993915625 -2.686305 -20.502304 -8.3663158 35.48135 -8.3535166 35.330151 -2.7008107 -20.20628
1014850000 -2.7089 -20.884024 -8.2592649 35.563339 -8.2497931 35.420109 -2.7222686 -20.584808
1035784375 -2.7318902 -21.266228 -8.1593714 35.638874 -8.1483955 35.508141 -2.7448671 -20.964384
1056718750 -2.7528443 -21.644114 -8.0576191 35.724209 -8.0466127 35.57962 -2.7659473 -21.340347
1077653125 -2.7730136 -22.019215 -7.9566293 35.7757 -7.9467134 35.632244 -2.7877491 -21.7073
1098587500 -2.7950191 -22.391001 -7.8598137 35.820583 -7.8486872 35.680759 -2.8097615 -22.058966
1119521875 -2.8191442 -22.746042 -7.7628908 35.863091 -7.7530384 35.718349 -2.8325424 -22.419231
1140456250 -2.8430791 -23.095173 -7.6684203 35.88834 -7.6587982 35.751492 -2.8573105 -22.777328
1161390625 -2.8668931 -23.461714 -7.5752568 35.904568 -7.564455 35.767776 -2.8805604 -23.140633
1182325000 -2.8899302 -23.834974 -7.4830585 35.911304 -7.4724727 35.767097 -2.9030304 -23.502274
1203259375 -2.9128475 -24.199482 -7.392879 35.909718 -7.3823233 35.761028 -2.9245517 -23.858246
1224193750 -2.9350178 -24.558994 -7.3024259 35.898979 -7.2937984 35.746582 -2.9466143 -24.20714
1245128125 -2.9582679 -24.908396 -7.2165627 35.877972 -7.2071443 35.729012 -2.97194 -24.546513
1266062500 -2.9842796 -25.258205 -7.1321664 35.861477 -7.1224227 35.701328 -2.9973447 -24.89311
1286996875 -3.0114865 -25.599543 -7.0478272 35.825207 -7.038486 35.67622 -3.0232387 -25.248789
1307931250 -3.036134 -25.951757 -6.96556 35.792164 -6.9572473 35.641499 -3.0492156 -25.599634
1328865625 -3.0597665 -26.315794 -6.8834419 35.752094 -6.8758068 35.596325 -3.0726156 -25.944366
1349800000 -3.0841625 -26.665785 -6.8043399 35.697197 -6.796628 35.543015 -3.0958178 -26.281727
1370734375 -3.1085253 -27.006327 -6.7251477 35.651764 -6.7195754 35.491905 -3.1203752 -26.609657
1391668750 -3.1340461 -27.329861 -6.6469212 35.592491 -6.6416636 35.44051 -3.1455257 -26.943127
1412603125 -3.1604466 -27.664387 -6.5720396 35.53133 -6.5657291 35.376881 -3.1735911 -27.275003
1433537500 -3.1880379 -28.003796 -6.4970689 35.462139 -6.491189 35.309872 -3.1994505 -27.611095
1454471875 -3.2139246 -28.340149 -6.4248166 35.38271 -6.4183922 35.23296 -3.2248952 -27.954088
1475406250 -3.237731 -28.68187 -6.3529191 35.311237 -6.3477235 35.155201 -3.2500021 -28.279528
1496340625 -3.2620943 -29.011028 -6.2816348 35.22831 -6.2768335 35.082813 -3.2742147 -28.593847
1517275000 -3.2876337 -29.325855 -6.2126975 35.14563 -6.2070203 34.998722 -3.2998505 -28.899149
1538209375 -3.3142102 -29.637831 -6.1430697 35.068241 -6.1383657 34.919304 -3.3264959 -29.215128
1559143750 -3.3414886 -29.955587 -6.0737472 34.969677 -6.0695639 34.82621 -3.3545594 -29.533978
1580078125 -3.3675733 -30.282061 -6.0091496 34.871685 -6.0030656 34.730808 -3.3805001 -29.851738
1601012500 -3.3934567 -30.608387 -5.9443154 34.772591 -5.9380646 34.623928 -3.4053228 -30.174871
1621946875 -3.4181149 -30.923481 -5.8817039 34.669189 -5.8755517 34.512051 -3.4325247 -30.484081
1642881250 -3.4444723 -31.239008 -5.817976 34.576077 -5.8135171 34.421444 -3.4581759 -30.77503
1663815625 -3.4724095 -31.541428 -5.7548709 34.471184 -5.7506151 34.319221 -3.4850721 -31.066442
1684750000 -3.5008152 -31.839535 -5.693614 34.36422 -5.6899962 34.210964 -3.5117776 -31.370533
1705684375 -3.528439 -32.146442 -5.6336555 34.240631 -5.6299152 34.096745 -3.5404682 -31.682116
1726618750 -3.5545127 -32.464912 -5.5770569 34.128899 -5.5716648 33.979916 -3.5674641 -31.983332
1747553125 -3.5821364 -32.782585 -5.5192003 34.028152 -5.5152321 33.860935 -3.5939333 -32.280602
1768487500 -3.6103694 -33.074501 -5.460526 33.911926 -5.458519 33.753693 -3.620785 -32.567535
1789421875 -3.6371129 -33.362724 -5.4050217 33.791504 -5.4037051 33.642109 -3.6482365 -32.844925
1810356250 -3.6654069 -33.658401 -5.3488498 33.676441 -5.3480892 33.532391 -3.6757262 -33.132275
1831290625 -3.6933701 -33.953854 -5.293766 33.561371 -5.2913947 33.408749 -3.7036388 -33.423019
1852225000 -3.721112 -34.254128 -5.2406049 33.444645 -5.2383623 33.277729 -3.7318137 -33.711357
1873159375 -3.7486064 -34.55476 -5.1868491 33.306393 -5.186667 33.158398 -3.7586887 -33.997299
1894093750 -3.774987 -34.839687 -5.137373 33.176716 -5.1345387 33.027824 -3.7862563 -34.276649
1915028125 -3.8026373 -35.119301 -5.0859141 33.06189 -5.0864778 32.904785 -3.8147254 -34.544598
1935962500 -3.829618 -35.392521 -5.0356607 32.935101 -5.034749 32.799904 -3.841537 -34.821327
1956896875 -3.8564973 -35.682369 -4.9838314 32.819656 -4.9820514 32.661816 -3.8692439 -35.098049
1977831250 -3.8857825 -35.961285 -4.9327955 32.666847 -4.9343715 32.523487 -3.8962421 -35.372196
1998765625 -3.9108508 -36.23563 -4.8878613 32.527233 -4.8873057 32.384571 -3.9231539 -35.644852
2019700000 -3.9360726 -36.517406 -4.8425269 32.402813 -4.8414068 32.265747 -3.9506712 -35.902882
2040634375 -3.9636209 -36.788681 -4.7958093 32.277718 -4.7935572 32.139656 -3.9776201 -36.166058
2061568750 -3.9920404 -37.048584 -4.7494416 32.148911 -4.7483454 32.002289 -4.0059857 -36.430401
2082503125 -4.0204077 -37.313835 -4.7038751 32.012337 -4.7038584 31.867815 -4.0343399 -36.694534
2103437500 -4.0483904 -37.587109 -4.6593132 31.872147 -4.6594763 31.734682 -4.0624905 -36.952694
2124371875 -4.0759006 -37.860706 -4.6171045 31.73633 -4.6164646 31.599228 -4.0875907 -37.207428
2145306250 -4.1038647 -38.126411 -4.5742564 31.605639 -4.5741496 31.468697 -4.1136775 -37.465275
2166240625 -4.1301546 -38.377247 -4.533287 31.472563 -4.5325513 31.33407 -4.1428685 -37.712574
2187175000 -4.1596971 -38.641865 -4.4903636 31.347454 -4.4912605 31.201393 -4.1718001 -37.953423
2208109375 -4.1901078 -38.899376 -4.4488993 31.207462 -4.4514799 31.07135 -4.2005558 -38.201241
2229043750 -4.2194624 -39.157883 -4.4078364 31.082655 -4.4108067 30.934835 -4.2276359 -38.459183
2249978125 -4.2477155 -39.418591 -4.3674483 30.940979 -4.3707547 30.801289 -4.2544322 -38.714653
2270912500 -4.2742634 -39.679333 -4.3284693 30.80496 -4.3311925 30.66497 -4.2819691 -38.95237
2291846875 -4.3017526 -39.93145 -4.2904553 30.664343 -4.292748 30.524666 -4.3100677 -39.186707
2312781250 -4.3301177 -40.17551 -4.2534623 30.538568 -4.2562075 30.400209 -4.3386507 -39.419109
2333715625 -4.359148 -40.422123 -4.2132421 30.41177 -4.2179618 30.268681 -4.368938 -39.668045
2354650000 -4.3882651 -40.668793 -4.1751981 30.267868 -4.1809726 30.129686 -4.3978839 -39.913212
2375584375 -4.4153991 -40.919647 -4.1386824 30.127634 -4.1432137 29.993605 -4.4243045 -40.164471
2396518750 -4.4412389 -41.16592 -4.1038532 29.990257 -4.1086078 29.852043 -4.4515395 -40.389114
2417453125 -4.4674816 -41.402519 -4.0679531 29.854132 -4.0727859 29.72891 -4.4768095 -40.605053
2438387500 -4.4946346 -41.629597 -4.0335817 29.718843 -4.0358763 29.59199 -4.5051398 -40.834633
2459321875 -4.5230026 -41.857075 -3.9973035 29.59288 -4.001729 29.449621 -4.5347972 -41.049736
2480256250 -4.5507703 -42.089043 -3.9623275 29.451633 -3.9683836 29.313332 -4.5620661 -41.279812
2501190625 -4.5779376 -42.334782 -3.9269679 29.312065 -3.9342813 29.179436 -4.5887122 -41.513214
2522125000 -4.6058064 -42.562004 -3.8945901 29.155321 -3.8997197 29.037498 -4.6128783 -41.73772
2543059375 -4.6305947 -42.784367 -3.8638589 29.022745 -3.8669527 28.896683 -4.6387439 -41.956757
2563993750 -4.6577559 -43.011005 -3.831584 28.895723 -3.8360016 28.769884 -4.66641 -42.152588
2584928125 -4.686285 -43.227402 -3.7993062 28.759396 -3.8038568 28.629663 -4.6946554 -42.367744
2605862500 -4.7163353 -43.439247 -3.767792 28.621485 -3.7730925 28.493372 -4.7241745 -42.583755
2626796875 -4.7441101 -43.664383 -3.7359333 28.482334 -3.7409692 28.359467 -4.7506709 -42.803646
2647731250 -4.7717543 -43.90015 -3.703881 28.339529 -3.7112322 28.219856 -4.775104 -43.032791
2668665625 -4.7986784 -44.116577 -3.6755309 28.191822 -3.680033 28.077734 -4.8017015 -43.254398
2689600000 -4.8243909 -44.321339 -3.6479902 28.055302 -3.6516137 27.935747 -4.8287892 -43.450363
2710534375 -4.8499713 -44.542194 -3.6210876 27.93544 -3.6241436 27.813559 -4.8571186 -43.64566
2731468750 -4.8789911 -44.770195 -3.58813 27.817451 -3.5941589 27.684309 -4.885253 -43.853344
2752403125 -4.9084139 -44.975803 -3.5567892 27.658556 -3.5649996 27.542311 -4.9117413 -44.077137
2773337500 -4.933466 -45.188782 -3.5309289 27.51708 -3.5367038 27.397564 -4.9392385 -44.303864
2794271875 -4.9585414 -45.408764 -3.5041776 27.38063 -3.5094669 27.256516 -4.9650664 -44.50312
2815206250 -4.9831815 -45.626476 -3.4771006 27.243795 -3.4823351 27.126389 -4.9895248 -44.706642
2836140625 -5.0100489 -45.822521 -3.4515429 27.114286 -3.4557638 26.991932 -5.0180435 -44.905403
2857075000 -5.0363898 -46.023026 -3.4236722 26.992029 -3.4288459 26.863869 -5.0460758 -45.093624
2878009375 -5.0637369 -46.231556 -3.3938954 26.845694 -3.4025245 26.724655 -5.0740042 -45.303295
2898943750 -5.091279 -46.437126 -3.3688207 26.693399 -3.3771975 26.581207 -5.0993257 -45.501331
2919878125 -5.1158547 -46.640854 -3.3453431 26.560442 -3.3510404 26.445232 -5.1223297 -45.71582
2940812500 -5.1392384 -46.839592 -3.3210981 26.436535 -3.3260257 26.310652 -5.1492038 -45.911037
2961746875 -5.1657939 -47.036945 -3.2948368 26.301344 -3.3014925 26.180971 -5.175107 -46.084835
2982681250 -5.1922979 -47.218258 -3.2718301 26.166111 -3.2779572 26.048166 -5.2030644 -46.27037
3003615625 -5.2207375 -47.414967 -3.2461905 26.036798 -3.2539229 25.92779 -5.2290421 -46.453316
3024550000 -5.2469254 -47.600967 -3.2222908 25.890392 -3.2281499 25.786158 -5.2534695 -46.669579
3045484375 -5.2704864 -47.804749 -3.2000525 25.765587 -3.2057149 25.641821 -5.2798648 -46.868965
3066418750 -5.2967753 -48.010635 -3.1759627 25.639778 -3.1834974 25.511402 -5.3041358 -47.043285
3087353125 -5.3234749 -48.191486 -3.1528046 25.501244 -3.1611316 25.386452 -5.3283939 -47.222855
3108287500 -5.3495107 -48.360302 -3.132772 25.362743 -3.1388493 25.265127 -5.3562756 -47.409191
3129221875 -5.3738952 -48.547844 -3.112057 25.244364 -3.1169209 25.132019 -5.3846412 -47.597107
3150156250 -5.3997135 -48.755569 -3.0884748 25.131548 -3.0952971 24.997192 -5.410872 -47.786041
3171090625 -5.4270196 -48.960472 -3.0634205 24.998096 -3.0734131 24.867332 -5.4347715 -47.981255
3192025000 -5.4517555 -49.137482 -3.0426512 24.843559 -3.051779 24.729225 -5.4585385 -48.170029
3212959375 -5.4739327 -49.312496 -3.025552 24.720335 -3.0324485 24.598913 -5.4851255 -48.341022
3233893750 -5.4981899 -49.495117 -3.004621 24.604509 -3.0126905 24.481688 -5.5112247 -48.497375
3254828125 -5.5234418 -49.673378 -2.9849012 24.487713 -2.9908111 24.361946 -5.5366654 -48.692497
3275762500 -5.5498977 -49.871155 -2.9607747 24.372129 -2.9703596 24.226807 -5.5670424 -48.888233
3296696875 -5.5755568 -50.05418 -2.9400356 24.214518 -2.9511473 24.093893 -5.5904446 -49.055695
3317631250 -5.5978017 -50.237488 -2.9227927 24.089956 -2.9321086 23.966106 -5.6131654 -49.243248
3338565625 -5.621551 -50.405548 -2.9037757 23.964123 -2.9138091 23.84341 -5.6363368 -49.399372
3359500000 -5.6436534 -50.571255 -2.8851907 23.848513 -2.8928747 23.721947 -5.6589141 -49.575413
3380434375 -5.670392 -50.744678 -2.8636885 23.732403 -2.8748643 23.59573 -5.689065 -49.74789
3401368750 -5.6980782 -50.903488 -2.8441629 23.580921 -2.8569779 23.48019 -5.7154994 -49.91552
3422303125 -5.7211752 -51.081306 -2.8294194 23.459139 -2.8380544 23.34749 -5.7410026 -50.114079
3443237500 -5.7449312 -51.273113 -2.8121042 23.356403 -2.8217726 23.226686 -5.7655349 -50.282082
3464171875 -5.7700391 -51.448093 -2.7907991 23.231501 -2.8031142 23.110889 -5.7851362 -50.435108
3485106250 -5.7953472 -51.599098 -2.7723813 23.09927 -2.7848623 22.993872 -5.8076959 -50.598999
3506040625 -5.8200417 -51.731091 -2.7567363 22.965412 -2.7665935 22.870989 -5.8347673 -50.767303
3526975000 -5.8430305 -51.891735 -2.7430639 22.864302 -2.7497504 22.745975 -5.864994 -50.932648
3547909375 -5.8696494 -52.082054 -2.7231002 22.755318 -2.7343204 22.631218 -5.8919129 -51.092873
3568843750 -5.8938532 -52.256626 -2.7064319 22.62262 -2.7162089 22.517229 -5.9102068 -51.265579
3589778125 -5.9149261 -52.438622 -2.6893585 22.529411 -2.6990032 22.388222 -5.9314332 -51.447807
3610712500 -5.9401646 -52.597443 -2.6689322 22.393715 -2.6832669 22.269995 -5.9557858 -51.58569
3631646875 -5.9634438 -52.728088 -2.6564021 22.255951 -2.6660643 22.159546 -5.9785032 -51.724979
3652581250 -5.9858279 -52.880543 -2.6419921 22.155638 -2.6484857 22.038513 -6.0056658 -51.904381
3673515625 -6.0088692 -53.054234 -2.6251254 22.05887 -2.6330156 21.914738 -6.036377 -52.065479
3694450000 -6.0328379 -53.257423 -2.6051819 21.943935 -2.6180782 21.796021 -6.0593162 -52.220627
3715384375 -6.0578008 -53.435963 -2.5875762 21.802694 -2.6037319 21.681448 -6.0789537 -52.382992
3736318750 -6.0777626 -53.57996 -2.5755608 21.682028 -2.5872834 21.571753 -6.0969238 -52.534855
3757253125 -6.0974135 -53.720642 -2.559808 21.587616 -2.5713637 21.450802 -6.1216946 -52.703499
3778187500 -6.122776 -53.859818 -2.5438957 21.456703 -2.5568447 21.334698 -6.1497684 -52.822819
3799121875 -6.1465554 -54.01474 -2.5315454 21.354685 -2.5424304 21.226711 -6.1729465 -52.975342
3820056250 -6.1727781 -54.190926 -2.5107832 21.243507 -2.5289645 21.111784 -6.2010427 -53.135803
3840990625 -6.1949706 -54.333633 -2.4989634 21.098488 -2.5129271 21.003267 -6.2190056 -53.276936
3861925000 -6.2129016 -54.498833 -2.4862411 21.004841 -2.4981582 20.883978 -6.235177 -53.460419
3882859375 -6.2365303 -54.642464 -2.4691236 20.893965 -2.4846964 20.771206 -6.2616453 -53.601582
3903793750 -6.2601862 -54.764057 -2.4558394 20.772541 -2.4701908 20.664137 -6.2848186 -53.708607
3924728125 -6.2847795 -54.889023 -2.441932 20.645292 -2.4558642 20.548527 -6.3075867 -53.853683
3945662500 -6.3064914 -55.03492 -2.4317436 20.539799 -2.4414682 20.434814 -6.3309116 -54.015408
3966596875 -6.3280869 -55.218868 -2.4158151 20.449089 -2.428905 20.319555 -6.3530626 -54.181171
3987531250 -6.352283 -55.377998 -2.3992894 20.312309 -2.4158938 20.21102 -6.3744407 -54.330673
4008465625 -6.372179 -55.502895 -2.3917408 20.19426 -2.4022157 20.111057 -6.3935127 -54.455547
4029400000 -6.3920426 -55.646301 -2.3792045 20.110254 -2.3883238 20.003933 -6.4131236 -54.587124
4050334375 -6.4171371 -55.77354 -2.3640049 19.999226 -2.3747609 19.894171 -6.4373088 -54.727108
4071268750 -6.4394917 -55.914284 -2.3517334 19.890242 -2.3612475 19.780432 -6.4602146 -54.856403
4092203125 -6.4621992 -56.090034 -2.3373322 19.776083 -2.3493111 19.664999 -6.4818006 -55.020573
4113137500 -6.4820118 -56.245285 -2.327991 19.664196 -2.3378503 19.559908 -6.5045114 -55.151958
4134071875 -6.5003891 -56.414906 -2.3147576 19.57832 -2.3251383 19.455912 -6.5223956 -55.281982
4155006250 -6.5203047 -56.545246 -2.3019173 19.472227 -2.3132446 19.347488 -6.5442381 -55.416069
4175940625 -6.5417867 -56.678616 -2.2885482 19.384134 -2.3010168 19.247461 -6.5655065 -55.518333
4196875000 -6.5681019 -56.812859 -2.2714679 19.245106 -2.2882023 19.137619 -6.5847311 -55.671425
4217809375 -6.5883613 -56.933693 -2.2649069 19.128006 -2.2766495 19.026905 -6.6093884 -55.800007
4238743750 -6.6063643 -57.112827 -2.2538621 19.050869 -2.2658057 18.920555 -6.6283698 -55.918625
