!Keysight Technologies,N5227A,US51270248,A.10.65.08
!Date: Tuesday, June 11, 2024 08:18:23
!Correction: S11(Full 2 Port(1,4)) 
!S41(Full 2 Port(1,4)) 
!S14(Full 2 Port(1,4)) 
!S44(Full 2 Port(1,4)) 
!S2P File: Measurements: S11, S41, S14, S44:
# Hz S  dB   R 50
10000000 -0.64363599 179.56358 -54.004242 9.7762127 -75.89624 54.416439 -0.0018322954 -0.31852722
30934375 -0.65669018 179.64558 -54.745377 14.196126 -67.870995 88.935051 -0.00027839106 -1.0138204
51868750 -0.64892888 179.48686 -54.574066 23.685196 -63.280483 90.090927 -0.0045464425 -1.659808
72803125 -0.65171736 179.27184 -53.813133 31.756664 -60.326645 91.440102 -0.0081418809 -2.3038118
93737500 -0.65528363 179.05397 -53.049042 38.905071 -58.092075 93.195786 -0.013245977 -2.9268081
114671875 -0.6487264 178.84409 -52.481388 45.288513 -55.335243 93.152512 -0.018710945 -3.5568478
135606250 -0.64528036 178.67705 -51.783646 50.597965 -48.315411 89.494308 -0.023527261 -4.2032123
156540625 -0.64917362 178.53404 -51.213802 55.549606 -49.991497 92.244301 -0.027104149 -4.8574195
177475000 -0.65825272 178.34109 -50.503887 60.026756 -50.096317 93.962479 -0.032550771 -5.4843564
198409375 -0.65655941 178.114 -49.86068 63.672855 -49.318577 94.688164 -0.036112107 -6.0878892
219343750 -0.65613091 177.90793 -49.167259 67.412788 -48.552544 95.573547 -0.03972527 -6.7103505
240278125 -0.65901256 177.73547 -48.523331 70.018036 -47.789474 96.25927 -0.046626553 -7.3536901
261212500 -0.66181266 177.56691 -47.95224 72.749962 -47.051903 96.95504 -0.055147495 -7.9938493
282146875 -0.65856528 177.39029 -47.362885 75.482208 -46.360149 97.522987 -0.06103472 -8.6262484
303081250 -0.6610024 177.21658 -46.800396 77.547913 -45.711376 98.051308 -0.066521034 -9.2555609
324015625 -0.66358578 177.05161 -46.2696 79.872597 -45.117382 98.476318 -0.072321758 -9.8661823
344950000 -0.67025018 176.84981 -45.744263 81.759239 -44.490189 99.014015 -0.0774232 -10.468185
365884375 -0.67477036 176.66168 -45.224148 83.229584 -43.980618 99.609291 -0.084482327 -11.084373
386818750 -0.6679154 176.49846 -44.654865 84.668472 -43.220249 99.545708 -0.093991645 -11.716157
407753125 -0.6657204 176.33215 -44.204712 86.431007 -42.881546 100.47478 -0.10457642 -12.326002
428687500 -0.66393203 176.14606 -43.762192 88.026436 -42.438404 101.00977 -0.10689516 -12.937786
449621875 -0.66758859 175.95575 -43.353386 89.445457 -42.021862 101.54769 -0.11336212 -13.565682
470556250 -0.67307997 175.77475 -42.925426 90.644554 -41.542435 101.8563 -0.12187729 -14.167544
491490625 -0.67068011 175.58676 -42.486931 91.939278 -41.1922 102.55955 -0.1301284 -14.760807
512425000 -0.66843653 175.39854 -42.11599 92.957214 -40.806347 103.11292 -0.13741632 -15.362618
533359375 -0.67145675 175.22092 -41.739376 94.201408 -40.391136 103.44842 -0.14682062 -15.979887
554293750 -0.67445236 175.05595 -41.283646 95.245903 -40.053867 104.11713 -0.15653118 -16.592545
575228125 -0.6743502 174.87871 -40.905548 96.112251 -39.652069 104.49628 -0.16401619 -17.191545
596162500 -0.67585605 174.68889 -40.567913 97.222061 -39.236263 104.51806 -0.17127043 -17.78866
617096875 -0.67918646 174.49977 -40.205025 98.135841 -38.886105 104.87347 -0.18078701 -18.389601
638031250 -0.68059242 174.32164 -39.736874 98.315277 -38.585876 105.47133 -0.19201277 -18.984909
658965625 -0.67999202 174.1472 -39.417965 99.161263 -38.27977 105.97884 -0.20160384 -19.578312
679900000 -0.68254417 173.97348 -39.162415 99.989059 -37.936638 106.21677 -0.21071714 -20.181061
700834375 -0.69162095 173.80099 -38.797939 101.15594 -37.602345 106.40867 -0.22103548 -20.780287
721768750 -0.6881603 173.62349 -38.469933 101.91592 -37.29591 106.98512 -0.23238283 -21.363304
742703125 -0.69193935 173.43507 -38.143452 102.4873 -36.929703 107.00545 -0.24122886 -21.928812
763637500 -0.68866467 173.25145 -37.857365 103.11629 -36.639221 107.22919 -0.24889499 -22.518179
784571875 -0.6938445 173.08058 -37.568405 103.5237 -36.382961 107.66235 -0.2595948 -23.112196
805506250 -0.69103855 172.91194 -37.266567 104.56689 -36.138344 108.29316 -0.26959708 -23.69013
826440625 -0.6904673 172.73451 -36.927391 105.19359 -35.812126 108.74554 -0.27915415 -24.277462
847375000 -0.69105428 172.54852 -36.645077 105.51947 -35.529057 108.95144 -0.29134047 -24.857082
868309375 -0.69144982 172.36569 -36.33485 106.28049 -35.25581 109.12984 -0.30425766 -25.41666
889243750 -0.69175601 172.17303 -36.018467 106.48279 -34.978146 109.31432 -0.31395003 -25.980164
910178125 -0.70006341 171.99203 -35.781956 106.84766 -34.694214 109.36884 -0.32374221 -26.561411
931112500 -0.7124325 171.83183 -35.487679 107.27604 -34.437611 109.52329 -0.33414662 -27.134138
952046875 -0.71035278 171.65683 -35.22723 107.72894 -34.136269 109.47473 -0.34407836 -27.697811
972981250 -0.70830792 171.4646 -34.923733 108.25027 -33.904934 109.95546 -0.35465741 -28.262913
993915625 -0.7107892 171.27371 -34.676758 108.3483 -33.639965 109.96666 -0.36731425 -28.829866
1014850000 -0.71198326 171.09933 -34.447319 108.98161 -33.193665 108.69267 -0.38140878 -29.389574
1035784375 -0.7093395 170.92329 -34.118473 109.28593 -33.091831 109.71845 -0.39255813 -29.955936
1056718750 -0.71154386 170.74443 -33.870434 109.38319 -32.850342 110.00407 -0.40293115 -30.520441
1077653125 -0.71276134 170.5705 -33.647892 109.81348 -32.638695 110.32303 -0.41243175 -31.077057
1098587500 -0.7171759 170.39961 -33.399288 109.89012 -32.351936 109.91499 -0.4233768 -31.61725
1119521875 -0.71685052 170.21371 -33.146736 110.04881 -32.176945 110.42961 -0.43437743 -32.167263
1140456250 -0.71637565 170.01674 -32.891171 110.41917 -31.987679 110.73645 -0.44762182 -32.716202
1161390625 -0.71548647 169.84082 -32.653606 110.4842 -31.764353 110.9206 -0.45980158 -33.263699
1182325000 -0.71455699 169.67169 -32.431469 110.7611 -31.508144 110.75182 -0.46954089 -33.815022
1203259375 -0.71829146 169.49774 -32.196072 110.73627 -31.330254 111.02434 -0.47817293 -34.370407
1224193750 -0.72056311 169.31595 -31.999073 111.03471 -31.133673 111.13883 -0.48826745 -34.917015
1245128125 -0.72357357 169.12904 -31.764923 111.21158 -30.92663 111.08032 -0.50197154 -35.443493
1266062500 -0.72227389 168.94301 -31.58576 111.17012 -30.720562 111.10139 -0.51596612 -35.976295
1286996875 -0.72018713 168.75534 -31.353037 111.63528 -30.525534 111.24681 -0.52893662 -36.521126
1307931250 -0.72161269 168.57494 -31.101456 111.39958 -30.341862 111.39622 -0.54130995 -37.067375
1328865625 -0.72232485 168.40727 -30.942451 111.62073 -30.151897 111.44582 -0.55238426 -37.606945
1349800000 -0.72608334 168.24098 -30.712381 111.71806 -29.971281 111.53773 -0.56203049 -38.133503
1370734375 -0.72819382 168.05209 -30.543644 111.70457 -29.793554 111.5084 -0.57400078 -38.656628
1391668750 -0.73093891 167.85332 -30.337343 112.03857 -29.618217 111.80705 -0.58762419 -39.177425
1412603125 -0.73227465 167.66588 -30.135479 112.10346 -29.425362 111.78278 -0.60144132 -39.696468
1433537500 -0.73208499 167.48944 -29.940466 112.35236 -29.238958 111.81898 -0.61359155 -40.233677
1454471875 -0.73303843 167.31642 -29.685989 112.0635 -29.047573 111.78952 -0.62454605 -40.76828
1475406250 -0.73709589 167.14952 -29.519909 112.04626 -28.886583 111.71559 -0.63671178 -41.287148
1496340625 -0.73935592 166.97504 -29.350449 112.21403 -28.690102 111.53149 -0.64777207 -41.789642
1517275000 -0.74152362 166.7852 -29.148159 112.35507 -28.524693 111.6806 -0.66029036 -42.285118
1538209375 -0.74316782 166.58043 -28.970003 112.11572 -28.353436 111.74499 -0.6729809 -42.797829
1559143750 -0.74498177 166.39214 -28.776699 112.4772 -28.173805 111.66763 -0.68641502 -43.310146
1580078125 -0.7456091 166.22092 -28.575523 112.26754 -28.017845 111.68697 -0.69675618 -43.832664
1601012500 -0.74871016 166.05489 -28.412888 112.17107 -27.833044 111.52493 -0.70773482 -44.35606
1621946875 -0.75283283 165.88039 -28.239023 112.09969 -27.673992 111.4414 -0.72106135 -44.859703
1642881250 -0.75624216 165.69182 -28.103088 112.06367 -27.504742 111.21976 -0.7347911 -45.336472
1663815625 -0.75716931 165.49908 -27.926672 112.18452 -27.351976 111.32229 -0.74633658 -45.822716
1684750000 -0.75837266 165.30594 -27.757635 112.18426 -27.19471 111.28017 -0.75893557 -46.325363
1705684375 -0.76229572 165.13049 -27.566385 112.0892 -27.046379 111.29547 -0.77188969 -46.841084
1726618750 -0.76506931 164.9709 -27.410583 111.86211 -26.89217 111.20118 -0.7840637 -47.340374
1747553125 -0.76508415 164.80969 -27.295599 111.8813 -26.746212 111.19733 -0.79666936 -47.831791
1768487500 -0.76850104 164.63058 -27.131332 111.99483 -26.585812 110.94176 -0.80929649 -48.307369
1789421875 -0.77079666 164.44376 -26.959457 111.99053 -26.440147 110.87186 -0.82297218 -48.77425
1810356250 -0.78045022 164.26689 -26.804722 111.85626 -26.289461 110.79604 -0.83604968 -49.257313
1831290625 -0.77580953 164.09642 -26.652729 111.79067 -26.13592 110.78767 -0.84819674 -49.748898
1852225000 -0.77901453 163.93785 -26.521042 111.71931 -25.990688 110.70304 -0.86028981 -50.239845
1873159375 -0.78127068 163.78204 -26.353544 111.68161 -25.857946 110.75717 -0.87201536 -50.713806
1894093750 -0.78246707 163.61093 -26.17864 111.67281 -25.70116 110.61607 -0.88413525 -51.183357
1915028125 -0.78332716 163.41951 -26.048353 111.54973 -25.580116 110.42637 -0.89757836 -51.651245
1935962500 -0.78667343 163.23438 -25.893322 111.38547 -25.43679 110.39339 -0.91129678 -52.116245
1956896875 -0.79019547 163.06566 -25.796234 111.28288 -25.287619 110.30267 -0.92195326 -52.587803
1977831250 -0.79521811 162.91597 -25.635019 111.5491 -25.149673 110.03342 -0.93239266 -53.065098
1998765625 -0.79360265 162.75957 -25.461416 111.29554 -25.02408 109.76581 -0.94393319 -53.539047
2019700000 -0.79642212 162.58983 -25.33379 110.95194 -24.898998 109.51534 -0.95709378 -53.991554
2040634375 -0.80013287 162.4102 -25.213135 110.88775 -24.775215 109.7726 -0.9682638 -54.442314
2061568750 -0.79751134 162.22534 -25.087664 110.92992 -24.641211 109.57778 -0.9809956 -54.901134
2082503125 -0.79776549 162.04491 -24.952593 110.95372 -24.52747 109.54475 -0.9924894 -55.369019
2103437500 -0.79809445 161.88045 -24.812307 110.91032 -24.401388 109.37605 -1.0028405 -55.829514
2124371875 -0.79951483 161.72124 -24.677242 110.69638 -24.290024 109.40537 -1.0125966 -56.290047
2145306250 -0.79826111 161.54404 -24.554935 110.66054 -24.154045 109.34222 -1.0248706 -56.738853
2166240625 -0.79664552 161.35019 -24.420456 110.44784 -24.032001 109.20592 -1.0381187 -57.171585
2187175000 -0.80019242 161.16106 -24.309881 110.4257 -23.909658 108.98885 -1.050873 -57.608616
2208109375 -0.79610032 160.97888 -24.165989 110.27248 -23.800205 108.9062 -1.0629034 -58.063786
2229043750 -0.79515696 160.79256 -24.054644 110.26485 -23.67907 108.9549 -1.0746493 -58.526821
2249978125 -0.79470813 160.60838 -23.920944 110.27527 -23.555429 108.92865 -1.0852996 -58.970085
2270912500 -0.79886001 160.42938 -23.796261 110.08973 -23.425276 108.6965 -1.0962826 -59.400646
2291846875 -0.80451673 160.24734 -23.674231 110.0048 -23.315367 108.53637 -1.1079941 -59.832302
2312781250 -0.80344689 160.05284 -23.549032 109.59377 -23.215368 108.48173 -1.1216086 -60.263012
2333715625 -0.80639648 159.86421 -23.460999 109.54388 -23.088497 108.18069 -1.1359512 -60.699051
2354650000 -0.80716085 159.69833 -23.340443 109.6686 -22.985737 108.15543 -1.1472059 -61.14798
2375584375 -0.80859029 159.53539 -23.208174 109.59092 -22.867672 108.16921 -1.156904 -61.593075
2396518750 -0.81521744 159.35994 -23.086182 109.50796 -22.753662 108.05637 -1.1662303 -62.015522
2417453125 -0.812819 159.17282 -22.959818 109.3319 -22.643911 107.89482 -1.177749 -62.425743
2438387500 -0.81764102 158.97774 -22.822325 108.79681 -22.509905 107.76872 -1.1892874 -62.839928
2459321875 -0.81994897 158.77547 -22.717985 108.83987 -22.405972 107.57809 -1.2006191 -63.266403
2480256250 -0.82847983 158.59367 -22.600262 108.64178 -22.307713 107.50231 -1.2113515 -63.703911
2501190625 -0.82470053 158.42804 -22.510462 108.70176 -22.204311 107.31656 -1.220983 -64.139519
2522125000 -0.82696295 158.25325 -22.373915 108.66611 -22.087282 107.29433 -1.2308421 -64.556801
2543059375 -0.83004707 158.06355 -22.255543 108.44224 -21.968264 107.11405 -1.2400905 -64.956909
2563993750 -0.832335 157.86949 -22.154236 108.34082 -21.877499 107.01169 -1.2496344 -65.358139
2584928125 -0.83299613 157.67429 -22.04636 108.16634 -21.761309 106.70824 -1.2629608 -65.771843
2605862500 -0.8310284 157.48106 -21.940807 107.973 -21.672003 106.62247 -1.2744101 -66.199524
2626796875 -0.83384293 157.29865 -21.836664 107.81122 -21.57201 106.34945 -1.2870436 -66.621964
2647731250 -0.83605081 157.12839 -21.747187 107.81166 -21.469751 106.30181 -1.2949349 -67.041565
2668665625 -0.85376257 156.95688 -21.626984 107.71996 -21.353788 106.04768 -1.3060091 -67.441269
2689600000 -0.86169481 156.76103 -21.51306 107.51699 -21.250847 105.87591 -1.3166082 -67.828835
2710534375 -0.87096071 156.56795 -21.41503 107.23662 -21.179461 105.78146 -1.3277516 -68.224968
2731468750 -0.86665332 156.38541 -21.350796 107.1133 -21.090843 105.82782 -1.3382628 -68.645363
2752403125 -0.86877769 156.20927 -21.249512 107.17677 -20.984266 105.72254 -1.3484224 -69.062866
2773337500 -0.86325282 156.03601 -21.128481 106.95892 -20.876835 105.43449 -1.358321 -69.477776
2794271875 -0.86797369 155.86855 -21.028702 106.79826 -20.797979 105.20097 -1.3686206 -69.880829
2815206250 -0.87210494 155.69221 -20.940233 106.72497 -20.702311 105.32258 -1.3784834 -70.267159
2836140625 -0.87408239 155.4971 -20.836788 106.62817 -20.585785 105.00593 -1.3907262 -70.641396
2857075000 -0.87492269 155.30331 -20.740417 106.37287 -20.499685 104.839 -1.4006014 -71.036362
2878009375 -0.87789875 155.13861 -20.656073 106.35899 -20.40341 104.61844 -1.4109105 -71.456329
2898943750 -0.87865943 154.97192 -20.544752 106.27195 -20.336834 104.65349 -1.420002 -71.86937
2919878125 -0.87910897 154.79285 -20.440958 106.14614 -20.230238 104.59906 -1.4292647 -72.25267
2940812500 -0.88542134 154.60037 -20.342257 105.9064 -20.12175 104.2673 -1.4386824 -72.622253
2961746875 -0.89054441 154.41388 -20.250568 105.75769 -20.034342 104.09788 -1.4495679 -72.997215
2982681250 -0.88828576 154.21767 -20.153259 105.61214 -19.945391 103.90698 -1.4603854 -73.378235
3003615625 -0.88758004 154.01996 -20.067392 105.425 -19.878294 103.79784 -1.470349 -73.768501
3024550000 -0.88858795 153.83966 -19.960258 105.24138 -19.772415 103.72584 -1.4786785 -74.168991
3045484375 -0.8957184 153.67101 -19.871326 104.94901 -19.684462 103.40438 -1.486896 -74.562637
3066418750 -0.89477634 153.49312 -19.799627 104.84364 -19.618992 103.35867 -1.496855 -74.935501
3087353125 -0.89619267 153.29324 -19.708115 104.7951 -19.52149 103.15356 -1.5080413 -75.280357
3108287500 -0.89832836 153.08936 -19.603203 104.65118 -19.430508 102.97411 -1.518923 -75.646751
3129221875 -0.899333 152.88635 -19.505589 104.33237 -19.343279 102.71825 -1.5303603 -76.032524
3150156250 -0.90092844 152.70728 -19.438091 104.07433 -19.2708 102.54996 -1.5386379 -76.423325
3171090625 -0.90418059 152.54016 -19.373007 103.89375 -19.190714 102.31762 -1.5476366 -76.805855
3192025000 -0.91017443 152.37639 -19.277649 103.88074 -19.107206 102.21185 -1.5553521 -77.171822
3212959375 -0.9153837 152.19647 -19.184347 103.67497 -19.029636 102.04787 -1.5654963 -77.524422
3233893750 -0.91708428 151.98236 -19.106417 103.49058 -18.968496 101.90722 -1.5766808 -77.874985
3254828125 -0.91661239 151.77353 -19.021357 103.28328 -18.874395 101.89046 -1.5875572 -78.239067
3275762500 -0.92608488 151.59509 -18.957727 103.06845 -18.776609 101.49838 -1.5966291 -78.623428
3296696875 -0.93485528 151.43512 -18.877962 102.97803 -18.720072 101.26447 -1.6047935 -78.99675
3317631250 -0.93562502 151.2599 -18.792538 102.84595 -18.645605 101.16899 -1.611473 -79.358444
3338565625 -0.93774217 151.06613 -18.712166 102.63464 -18.593664 100.90995 -1.6218054 -79.70015
3359500000 -0.94170308 150.85263 -18.632301 102.43801 -18.502117 100.89792 -1.6329786 -80.037918
3380434375 -0.94702321 150.64029 -18.570465 102.25742 -18.410381 100.68137 -1.6415906 -80.399094
3401368750 -0.95062727 150.4543 -18.485281 102.24093 -18.358353 100.5585 -1.6507667 -80.769371
3422303125 -0.95249909 150.28839 -18.397177 102.03253 -18.265348 100.34471 -1.6602181 -81.132912
3443237500 -0.96114898 150.12613 -18.326508 101.73795 -18.210894 99.966034 -1.6676182 -81.482582
3464171875 -0.96134824 149.94086 -18.265568 101.66415 -18.1563 99.988312 -1.6743084 -81.824471
3485106250 -0.96883851 149.7411 -18.188326 101.59307 -18.079262 99.918152 -1.684045 -82.154312
3506040625 -0.97884965 149.5426 -18.098927 101.45274 -17.986506 99.722633 -1.6971494 -82.488869
3526975000 -0.97867209 149.34947 -18.015377 101.1896 -17.889259 99.549889 -1.7053533 -82.838165
3547909375 -0.98030198 149.18965 -17.953167 101.01462 -17.85223 99.26194 -1.7131357 -83.212364
3568843750 -0.97735089 149.03937 -17.871267 100.93183 -17.79287 99.394905 -1.7170937 -83.564972
3589778125 -0.98135674 148.87463 -17.798601 100.62842 -17.696325 99.215813 -1.7245011 -83.8946
3610712500 -0.98573381 148.68483 -17.740782 100.58347 -17.628271 98.67907 -1.7369602 -84.204605
3631646875 -0.98763818 148.48422 -17.651205 100.4524 -17.572477 98.865234 -1.7441856 -84.534462
3652581250 -0.98986018 148.27437 -17.571318 100.23593 -17.46957 98.775299 -1.7539346 -84.878395
3673515625 -0.99046528 148.08752 -17.500608 99.973282 -17.391718 98.383278 -1.7624394 -85.241249
3694450000 -0.99643397 147.94441 -17.446077 99.725395 -17.346064 98.090874 -1.7721628 -85.591133
3715384375 -0.99739945 147.79219 -17.381235 99.753906 -17.289719 98.062622 -1.7759662 -85.925148
3736318750 -1.0020041 147.61143 -17.292973 99.493103 -17.232224 98.178551 -1.7815018 -86.233536
3757253125 -1.0074539 147.40474 -17.226995 99.304718 -17.124287 97.996246 -1.7915548 -86.544128
3778187500 -1.0109777 147.20804 -17.160114 99.114716 -17.054068 97.463463 -1.8018903 -86.877724
3799121875 -1.0146034 147.02861 -17.083088 98.93866 -17.005228 97.506119 -1.8094964 -87.223099
3820056250 -1.0142424 146.85219 -17.031006 98.659576 -16.932526 97.121681 -1.8176124 -87.564232
3840990625 -1.0147898 146.69017 -16.953274 98.325218 -16.907425 97.144211 -1.823076 -87.89621
3861925000 -1.0192385 146.5107 -16.878796 98.144485 -16.80242 96.848419 -1.8352494 -88.177032
3882859375 -1.024681 146.30322 -16.818645 98.003189 -16.71611 96.693405 -1.8372465 -88.495743
3903793750 -1.027773 146.09323 -16.749508 97.934235 -16.683523 96.506325 -1.8453796 -88.819168
3924728125 -1.0287799 145.89021 -16.682211 97.736771 -16.619877 96.381958 -1.8564638 -89.154175
3945662500 -1.0288745 145.70842 -16.605373 97.599037 -16.554192 96.225983 -1.8659972 -89.490623
3966596875 -1.0414587 145.5408 -16.545475 97.259308 -16.479656 96.147217 -1.8706888 -89.809753
3987531250 -1.0383503 145.35362 -16.490831 97.240181 -16.416069 96.006981 -1.8736709 -90.119385
4008465625 -1.0490104 145.17413 -16.409698 97.120438 -16.361456 95.76342 -1.8810798 -90.404297
4029400000 -1.0518721 144.97467 -16.340565 96.879784 -16.289724 95.452576 -1.8922316 -90.697083
4050334375 -1.0610931 144.77042 -16.281876 96.696281 -16.222691 95.385338 -1.8972633 -91.038841
4071268750 -1.054111 144.57404 -16.217291 96.554855 -16.179146 95.221527 -1.9060588 -91.365921
4092203125 -1.055923 144.39862 -16.162212 96.365425 -16.096956 95.146568 -1.914521 -91.678383
4113137500 -1.0580496 144.24054 -16.089575 96.210403 -16.026218 94.028152 -1.9338636 -91.922371
4134071875 -1.0622008 144.06735 -16.023119 96.033234 -15.9831 94.25856 -1.9315151 -92.238266
4155006250 -1.0670315 143.86821 -15.963864 95.842934 -15.904778 94.057144 -1.9378157 -92.53064
4175940625 -1.0694764 143.66139 -15.901219 95.598793 -15.885096 93.840874 -1.9478413 -92.840164
4196875000 -1.0771515 143.48384 -15.855415 95.431976 -15.804647 93.954727 -1.9553988 -93.152603
4217809375 -1.0828265 143.31058 -15.784323 95.365692 -15.726733 93.535477 -1.9600397 -93.458084
