!Keysight Technologies,N5227A,US51270248,A.10.65.08
!Date: Tuesday, June 11, 2024 06:09:42
!Correction: S11(Full 2 Port(1,4)) 
!S41(Full 2 Port(1,4)) 
!S14(Full 2 Port(1,4)) 
!S44(Full 2 Port(1,4)) 
!S2P File: Measurements: S11, S41, S14, S44:
# Hz S  dB   R 50
10000000 0.0024861926 -0.01864548 -83.462799 128.80028 -105.06186 174.61415 -0.00039600555 -0.0066666747
30934375 0.0040688743 -0.076774031 -80.544952 98.18557 -82.280441 86.203926 0.0020440312 -0.070238948
51868750 0.0031535716 -0.11930066 -75.789581 90.131973 -76.868217 92.246819 0.0022686252 -0.11281677
72803125 0.0035463285 -0.15736319 -73.19854 90.589233 -73.408501 90.809326 0.0020271456 -0.15319881
93737500 0.0028486263 -0.18676558 -70.784187 89.796654 -71.667946 88.092743 0.0013068559 -0.19019008
114671875 0.0026092716 -0.22263131 -68.763023 86.638809 -69.492668 86.265587 0.00066046388 -0.23218444
135606250 0.0028701038 -0.26437518 -68.15686 86.772522 -69.032738 87.399757 0.00028763365 -0.2766569
156540625 0.0029692499 -0.31287718 -66.649361 88.923256 -67.477936 89.386856 0.000533215 -0.32502475
177475000 0.0026915062 -0.35248247 -65.365181 90.809685 -66.336586 91.138824 0.00064992177 -0.36764172
198409375 0.003099855 -0.38280565 -63.766026 90.241829 -64.619553 89.54174 0.0011118082 -0.40231544
219343750 0.0042739487 -0.42111263 -62.575924 88.046059 -63.450474 87.888855 0.0016100421 -0.44237846
240278125 0.0020242436 -0.45810443 -62.591118 76.088684 -63.561626 77.990799 0.00035854464 -0.48235646
261212500 0.0018264855 -0.4989647 -62.534054 85.163177 -63.406544 84.946854 -0.00010206367 -0.52818251
282146875 0.0014643405 -0.53906906 -61.705856 85.344154 -62.616486 86.408035 -0.00024560714 -0.57764298
303081250 0.0023314697 -0.57868958 -60.925541 86.542702 -61.850296 87.421631 4.744219e-006 -0.62280542
324015625 0.0024423096 -0.62049586 -60.029152 87.445251 -60.962139 87.494156 0.00027488 -0.66349906
344950000 0.0023137098 -0.65412229 -59.498196 86.040474 -60.373463 86.786491 0.0011787715 -0.70076805
365884375 0.0031453073 -0.6898303 -58.929234 86.424965 -59.815762 87.13752 0.0011214162 -0.74231172
386818750 0.0020872229 -0.73853093 -58.279728 87.221748 -59.261055 87.252823 0.00073839107 -0.79035056
407753125 0.00036587965 -0.78575683 -57.6464 85.912109 -58.594479 86.216721 -0.00030870701 -0.83785254
428687500 -0.00092302891 -0.81910145 -57.263729 84.831581 -58.166447 85.873215 -0.00036364634 -0.88086659
449621875 0.00071875629 -0.85802686 -56.748051 85.767189 -57.693691 86.364471 9.0820264e-005 -0.93007517
470556250 0.00098497642 -0.90555674 -56.214298 84.525932 -57.149136 84.839668 7.3232462e-005 -0.97346216
491490625 0.00077100255 -0.9456588 -55.962231 83.258118 -56.851173 83.588943 -0.00016616685 -1.0118357
512425000 0.00073390675 -0.98306262 -55.270874 84.067139 -56.303833 84.561783 0.00066487095 -1.05667
533359375 -0.00046261022 -1.0397861 -55.097843 83.380669 -55.733932 82.48082 -0.00064060499 -1.1033885
554293750 -0.001156923 -1.0800835 -54.574249 81.57029 -55.478642 81.039841 -0.0020083555 -1.1538574
575228125 -0.0027028045 -1.1136774 -54.358139 79.149612 -55.355457 80.07373 -0.0023313516 -1.1980332
596162500 -0.002421052 -1.1678896 -54.245209 83.894768 -54.954826 81.771286 -0.0019048288 -1.2459986
617096875 -0.0018228475 -1.202884 -53.182926 81.950745 -54.294273 82.373116 -0.0015036064 -1.2955376
638031250 -0.0022725908 -1.2503878 -52.601204 80.628647 -53.616661 80.556755 -0.0028502403 -1.3447998
658965625 -0.0032706882 -1.299401 -52.081875 78.874939 -53.088757 78.913109 -0.0044019958 -1.3857825
679900000 -0.0051034437 -1.3615874 -51.568939 77.865097 -52.21381 78.646431 -0.0053093159 -1.4372433
700834375 -0.010871905 -1.404279 -50.700562 73.016914 -51.787766 72.145706 -0.009268594 -1.4873844
721768750 -0.015033261 -1.4284341 -50.694656 70.860825 -51.918888 69.585091 -0.010968544 -1.5309298
742703125 -0.016224258 -1.4897577 -49.699421 68.873528 -50.774269 66.417534 -0.013602657 -1.5748643
763637500 -0.024935376 -1.5301213 -48.638973 57.449917 -50.29026 53.638226 -0.018243548 -1.6058999
784571875 -0.031969741 -1.5065839 -49.211861 38.43042 -51.560978 36.062229 -0.022244832 -1.5902278
805506250 -0.023183499 -1.4989334 -53.92775 43.478565 -55.773144 50.142761 -0.011424443 -1.6040434
826440625 -0.029466402 -1.5860246 -51.642384 56.632435 -53.29689 57.894009 -0.011636564 -1.6864625
847375000 -0.038322493 -1.5856745 -50.647915 49.836887 -52.674858 51.34901 -0.016684338 -1.732919
868309375 -0.04349139 -1.5505234 -50.703541 39.287338 -53.690029 41.962814 -0.020304115 -1.7508568
889243750 -0.036385566 -1.5373213 -52.212807 32.582066 -54.90815 42.419704 -0.018330535 -1.7682242
910178125 -0.032350618 -1.5398908 -53.653793 30.531315 -56.295013 45.899273 -0.016166812 -1.7993371
931112500 -0.026213542 -1.5837395 -55.056854 35.865223 -56.907158 52.679478 -0.01396079 -1.8296455
952046875 -0.02311502 -1.6112156 -56.409771 42.876381 -57.298901 61.029892 -0.011318509 -1.8659858
972981250 -0.020721808 -1.6450874 -56.445068 56.346989 -56.690552 70.268059 -0.0095966598 -1.9220591
993915625 -0.018610753 -1.6885866 -55.864464 61.137421 -56.086174 72.256111 -0.010609622 -1.9685739
1014850000 -0.017634079 -1.7267959 -55.367512 61.628708 -55.585609 72.651421 -0.010598422 -2.0166216
1035784375 -0.016732197 -1.7861614 -55.492447 68.315979 -55.502922 76.670273 -0.01021527 -2.0605214
1056718750 -0.017037569 -1.8053349 -54.804649 71.920647 -54.880428 79.532829 -0.0093037123 -2.1017189
1077653125 -0.014334477 -1.8520871 -54.215488 74.234299 -54.130318 79.853111 -0.0074672783 -2.1461129
1098587500 -0.013286745 -1.8950295 -53.677086 74.721893 -53.837006 79.724724 -0.0075021 -2.1870558
1119521875 -0.013926991 -1.9191781 -53.364483 74.906181 -53.616005 80.277672 -0.0079431981 -2.22879
1140456250 -0.012867305 -1.9706272 -52.935734 76.344116 -53.188454 81.061569 -0.0077745239 -2.2713857
1161390625 -0.013881751 -1.9906902 -52.605774 75.532158 -52.677292 78.925873 -0.0075946609 -2.3140075
1182325000 -0.012468026 -2.0433457 -52.283432 75.86335 -52.457443 79.851799 -0.0071036955 -2.3590899
1203259375 -0.011706654 -2.0796275 -52.046108 75.311386 -52.263615 79.408752 -0.0055918624 -2.4078641
1224193750 -0.0098473337 -2.1147149 -51.985493 75.228279 -52.043961 79.16243 -0.0046992432 -2.4511178
1245128125 -0.0087642092 -2.1705315 -51.809326 76.735672 -52.071201 80.307968 -0.0050016516 -2.493242
1266062500 -0.0095729092 -2.1920645 -51.528938 76.354416 -51.575485 78.863602 -0.0056586885 -2.5351441
1286996875 -0.010687923 -2.2374878 -51.379589 76.727768 -51.66293 80.511314 -0.0062983762 -2.5801356
1307931250 -0.010782245 -2.2794127 -51.153996 77.054787 -51.350887 80.280228 -0.0068283728 -2.6291788
1328865625 -0.010453807 -2.3261406 -50.888779 77.217018 -51.126759 80.190308 -0.006285958 -2.6808827
1349800000 -0.0099670915 -2.3722868 -50.735706 76.874992 -51.124855 79.947319 -0.0059436439 -2.7245131
1370734375 -0.010019101 -2.3973267 -50.523739 77.280418 -50.943745 80.538918 -0.0054356018 -2.7652974
1391668750 -0.0099861734 -2.4519973 -50.333084 77.367027 -50.729862 80.514816 -0.0052991086 -2.8090904
1412603125 -0.011157132 -2.4821093 -50.184277 76.726463 -50.367847 79.64212 -0.0066338666 -2.8542464
1433537500 -0.01236093 -2.5128069 -50.039795 76.974876 -50.517864 79.901695 -0.0072558909 -2.9028406
1454471875 -0.011968017 -2.5570457 -49.933197 77.029854 -50.350216 80.407494 -0.0074299234 -2.9535952
1475406250 -0.01133107 -2.5930786 -49.707188 77.391136 -50.200298 80.353638 -0.0077341129 -3.002527
1496340625 -0.010432491 -2.6541576 -49.50045 77.773918 -49.949772 80.49157 -0.0073658582 -3.0448856
1517275000 -0.01083081 -2.6916544 -49.37682 77.302048 -49.727055 80.266785 -0.0071568657 -3.082474
1538209375 -0.011621058 -2.7037339 -49.200226 77.592308 -49.715725 80.580856 -0.0074565653 -3.124423
1559143750 -0.010444616 -2.7610381 -48.985615 78.24353 -49.206406 80.627357 -0.0082654497 -3.167361
1580078125 -0.011310365 -2.8077648 -48.710926 77.829018 -49.261765 80.523987 -0.0087050702 -3.2164757
1601012500 -0.012411453 -2.8511109 -48.493031 77.347015 -49.043949 80.176346 -0.0086635072 -3.2652781
1621946875 -0.013072844 -2.8893571 -48.365601 76.456833 -48.948334 79.464638 -0.0092699174 -3.3134086
1642881250 -0.012972857 -2.9281514 -48.243645 76.227325 -48.590736 78.734299 -0.0091753434 -3.3548019
1663815625 -0.01314644 -2.9635346 -48.144012 76.060814 -48.725185 78.78334 -0.0094226766 -3.3925407
1684750000 -0.013427325 -3.0000286 -48.046021 76.058342 -48.647022 79.133492 -0.010348312 -3.4318488
1705684375 -0.014122481 -3.0516903 -47.884151 76.232407 -48.360432 79.383057 -0.01112644 -3.4799275
1726618750 -0.015832104 -3.0823295 -47.64212 75.710129 -48.282993 78.818909 -0.011809043 -3.52753
1747553125 -0.016632911 -3.1439683 -47.556305 75.808632 -47.853878 78.213638 -0.012778348 -3.5759435
1768487500 -0.018213676 -3.1700292 -47.336861 75.36618 -47.933475 78.315186 -0.013538077 -3.6205041
1789421875 -0.01777475 -3.2197502 -47.212406 75.027153 -47.868793 77.977074 -0.014381755 -3.6612422
1810356250 -0.01960464 -3.2551844 -47.043701 74.63401 -47.662853 77.709358 -0.015191051 -3.6995959
1831290625 -0.021276934 -3.2766776 -46.844543 73.898552 -47.564693 77.125587 -0.016173134 -3.7397006
1852225000 -0.02319321 -3.3479798 -46.808712 73.794556 -47.470341 76.66404 -0.01700159 -3.7838886
1873159375 -0.024155557 -3.3624563 -46.668701 72.813408 -47.103828 75.890282 -0.017593924 -3.8288205
1894093750 -0.024144864 -3.4212401 -46.663994 72.944664 -47.256805 76.342377 -0.018841671 -3.8750968
1915028125 -0.025800824 -3.4347191 -46.375206 72.797531 -47.148399 76.533127 -0.020214846 -3.9206004
1935962500 -0.024365533 -3.4863143 -46.24041 72.740158 -46.682674 76.40979 -0.020844635 -3.9599688
1956896875 -0.024400083 -3.5303905 -45.997639 72.069176 -46.782814 75.408821 -0.022099493 -4.0029149
1977831250 -0.026715588 -3.5636179 -45.734505 70.944855 -46.509853 74.775986 -0.022973502 -4.044117
1998765625 -0.028455861 -3.6464293 -45.727661 70.496521 -46.423191 73.475258 -0.023684233 -4.0895672
2019700000 -0.030900922 -3.6482546 -45.488167 68.622047 -46.392914 72.8004 -0.025413789 -4.1291995
2040634375 -0.031390179 -3.7437613 -45.579235 68.949364 -46.36829 71.697685 -0.026905345 -4.1675153
2061568750 -0.034728333 -3.779218 -45.427498 67.939705 -46.235031 70.932518 -0.028500061 -4.2062626
2082503125 -0.035774913 -3.7760453 -45.19474 65.432655 -46.04789 70.059959 -0.030207111 -4.2454553
2103437500 -0.037488081 -3.8190291 -45.185734 64.094452 -46.167965 68.203186 -0.031444859 -4.2817945
2124371875 -0.041351806 -3.8308249 -45.079075 62.222729 -46.028675 67.655251 -0.032067049 -4.3169069
2145306250 -0.042585414 -3.878861 -45.204243 61.302296 -46.245354 66.150215 -0.033367243 -4.3542805
2166240625 -0.044419382 -3.9066386 -45.24065 60.185905 -46.115681 65.589485 -0.034733776 -4.3893824
2187175000 -0.04738836 -3.9219182 -45.224045 58.698242 -46.155308 64.802254 -0.036498647 -4.4183226
2208109375 -0.048105076 -3.9604614 -45.443974 57.60133 -46.456326 63.836731 -0.037674893 -4.4513879
2229043750 -0.051217187 -3.9717529 -45.601688 56.640324 -46.150543 62.267197 -0.038224895 -4.4911404
2249978125 -0.051482454 -3.9870431 -45.781574 56.711086 -46.708282 63.808475 -0.039037012 -4.5241003
2270912500 -0.047496554 -4.0436668 -45.987625 58.400112 -46.707066 65.384766 -0.039645828 -4.5597987
2291846875 -0.050131176 -4.0682979 -45.774796 58.310642 -46.74931 65.767815 -0.040535256 -4.591383
2312781250 -0.052999299 -4.1051211 -45.632736 57.921494 -46.500851 65.797783 -0.042453498 -4.6236515
2333715625 -0.054462936 -4.162641 -45.719799 57.619312 -46.56374 65.042183 -0.044380601 -4.6552386
2354650000 -0.057355277 -4.1997848 -45.748447 56.868263 -46.635178 64.321129 -0.045258995 -4.6857476
2375584375 -0.060293037 -4.2149715 -45.79208 55.87875 -46.570702 64.179054 -0.046086658 -4.7189593
2396518750 -0.062264655 -4.2221131 -45.862026 55.214298 -46.796879 64.063065 -0.046344791 -4.7474914
2417453125 -0.060121063 -4.2583547 -46.045128 55.162174 -46.494884 63.801018 -0.045930922 -4.7745204
2438387500 -0.060995582 -4.2711272 -46.240391 55.173531 -46.942989 64.863136 -0.045273088 -4.8001714
2459321875 -0.060753155 -4.2883029 -46.339115 56.055168 -46.985897 65.911751 -0.04551262 -4.8315506
2480256250 -0.061713021 -4.3175106 -46.30394 56.565777 -46.776104 66.186394 -0.045856167 -4.865396
2501190625 -0.060095094 -4.3691592 -46.307529 57.460762 -46.901768 66.796425 -0.045309655 -4.9029064
2522125000 -0.061185911 -4.3987541 -46.297363 57.293285 -46.819565 66.742584 -0.045284137 -4.93856
2543059375 -0.060518552 -4.4138956 -46.361069 57.045158 -46.898277 67.390503 -0.044553418 -4.9694428
2563993750 -0.058317766 -4.4741263 -46.460869 58.428478 -46.75499 67.32383 -0.044211444 -4.9951606
2584928125 -0.061928555 -4.4461203 -46.360744 57.909588 -46.656494 68.062782 -0.042531125 -5.0243678
2605862500 -0.059874486 -4.5142198 -46.415943 58.928429 -46.759132 68.548485 -0.042770538 -5.0574346
2626796875 -0.060315538 -4.5499759 -46.398769 59.54977 -46.666771 68.850525 -0.042928893 -5.0986061
2647731250 -0.061222751 -4.5641899 -46.367641 59.068165 -46.659271 69.053246 -0.042772591 -5.1386585
2668665625 -0.060376387 -4.6509752 -46.411045 60.731079 -46.577339 69.245674 -0.042633604 -5.1764565
2689600000 -0.061780222 -4.633606 -46.323765 59.947327 -46.575836 69.848358 -0.04230807 -5.2080512
2710534375 -0.061885335 -4.7293983 -46.324028 61.984165 -46.561123 70.165428 -0.042010874 -5.2367759
2731468750 -0.063620955 -4.7067728 -46.284164 60.991821 -46.42841 70.042549 -0.041789945 -5.2707262
2752403125 -0.062646277 -4.7701373 -46.300251 62.08181 -46.231358 69.595062 -0.041484442 -5.3125763
2773337500 -0.065167785 -4.7935414 -46.195152 62.504818 -46.246952 70.803711 -0.041049 -5.3575063
2794271875 -0.068654127 -4.8190956 -46.094551 62.320683 -46.121799 70.854767 -0.040614445 -5.4034562
2815206250 -0.066399895 -5.0999722 -45.891296 67.295357 -46.075718 70.9832 -0.040983379 -5.4437475
2836140625 -0.07081902 -4.8738065 -45.954803 62.264641 -45.907619 70.693336 -0.040626485 -5.4833164
2857075000 -0.070090719 -5.1074719 -45.798832 66.283127 -45.855965 70.363922 -0.040837292 -5.5190926
2878009375 -0.073690049 -4.9474087 -45.836937 62.561207 -46.041779 71.112755 -0.040421151 -5.5590229
2898943750 -0.072825536 -4.9920788 -45.871811 63.044476 -45.974468 71.23201 -0.04020261 -5.6052699
2919878125 -0.070816226 -5.2102265 -45.768692 66.966858 -45.928398 71.514221 -0.039843038 -5.6528049
2940812500 -0.073515937 -4.9917874 -45.850224 62.810318 -45.916553 71.951424 -0.039975103 -5.6942525
2961746875 -0.067589276 -5.0594811 -45.870495 64.390793 -45.859875 72.324524 -0.040596966 -5.7325535
2982681250 -0.06938456 -5.061275 -45.722321 64.314926 -45.736446 72.512283 -0.041574962 -5.7730613
3003615625 -0.067209043 -5.11799 -45.6134 64.840118 -45.572426 72.518974 -0.042194873 -5.8084149
3024550000 -0.066633992 -5.1477561 -45.508751 64.443336 -45.587059 72.536827 -0.042295691 -5.8502855
3045484375 -0.067294806 -5.1678748 -45.484211 63.7784 -45.350826 71.661674 -0.042001612 -5.8929329
3066418750 -0.068887435 -5.1912932 -45.410934 63.42662 -45.467869 72.183212 -0.042110644 -5.9360442
3087353125 -0.065740168 -5.25564 -45.427952 64.234894 -45.406097 72.197731 -0.042496856 -5.9723902
3108287500 -0.065444507 -5.2874889 -45.392097 64.178749 -45.371906 72.22805 -0.043852571 -6.0072398
3129221875 -0.067165829 -5.3005633 -45.303246 63.841198 -45.19397 71.794907 -0.044909831 -6.0473018
3150156250 -0.067626573 -5.3478074 -45.25024 63.903229 -45.233906 72.147751 -0.045352936 -6.0903358
3171090625 -0.069468588 -5.3765917 -45.199326 63.237717 -45.037251 69.15699 -0.045831971 -6.1328297
3192025000 -0.066325963 -5.4494548 -45.235935 63.780704 -45.028439 71.065109 -0.045505222 -6.175396
3212959375 -0.067776047 -5.4772253 -45.228401 63.54409 -44.982548 70.404427 -0.046624616 -6.2135091
3233893750 -0.070527188 -5.4805517 -45.236908 63.07597 -44.843712 69.067902 -0.047810316 -6.2483921
3254828125 -0.070306391 -5.5213542 -45.252369 63.471153 -44.861015 69.840874 -0.049317319 -6.2826185
3275762500 -0.06804733 -5.5815473 -45.243141 64.136749 -44.93008 67.35981 -0.050724242 -6.324707
3296696875 -0.069766946 -5.6018748 -45.187977 63.633423 -44.853355 69.948677 -0.05075201 -6.3666639
3317631250 -0.070904195 -5.641048 -45.200603 63.699089 -44.792934 69.667114 -0.050372649 -6.4117308
3338565625 -0.070198148 -5.6913366 -45.205036 64.07518 -44.784695 70.293671 -0.049786892 -6.4520459
3359500000 -0.072299533 -5.7122059 -45.19548 64.125671 -44.801735 71.240273 -0.050203066 -6.4868245
3380434375 -0.072352596 -5.7569699 -45.18634 64.615379 -44.727886 68.959145 -0.051562574 -6.523912
3401368750 -0.071993828 -5.8127866 -45.166218 65.236885 -44.711388 70.772362 -0.053023368 -6.5632443
3422303125 -0.0756929 -5.8253918 -45.135822 65.02417 -44.796833 69.414345 -0.054324161 -6.6098409
3443237500 -0.078547552 -5.8497887 -45.110886 65.115501 -44.685753 70.67234 -0.054540738 -6.6515393
3464171875 -0.076126955 -5.9241867 -45.029736 66.02079 -44.614815 72.725586 -0.053451657 -6.6920142
3485106250 -0.08025746 -5.9289093 -44.973503 65.627998 -44.502956 72.068756 -0.053138785 -6.726264
3506040625 -0.081798814 -5.9587116 -44.944527 65.525215 -44.5299 73.001442 -0.053714473 -6.7607794
3526975000 -0.081513621 -6.0140042 -44.914005 66.083321 -44.47723 72.80806 -0.055059809 -6.7960296
3547909375 -0.089301191 -5.978898 -44.888836 65.169609 -44.50824 73.370605 -0.057101693 -6.841455
3568843750 -0.091800407 -6.1701422 -44.686531 67.239876 -44.46571 73.27475 -0.057630353 -6.8875289
3589778125 -0.091285452 -6.0601053 -44.847836 65.767319 -44.42918 73.531784 -0.057064727 -6.9293833
3610712500 -0.087662891 -6.1118655 -44.847252 66.637772 -44.412086 74.006599 -0.056049082 -6.9664865
3631646875 -0.090226293 -6.1282101 -44.794365 66.441216 -44.400234 74.179779 -0.05599482 -6.9991241
3652581250 -0.09295208 -6.0965376 -44.80698 65.916428 -44.305973 73.944923 -0.056873851 -7.0340648
3673515625 -0.089180574 -6.2444892 -44.692947 67.581642 -44.308334 74.18042 -0.058436736 -7.0730605
3694450000 -0.094553851 -6.1813364 -44.763382 66.21022 -44.259991 73.949684 -0.059714377 -7.1219177
3715384375 -0.09883225 -6.3177805 -44.608059 67.405685 -44.174015 72.213623 -0.060625393 -7.1707911
3736318750 -0.095133111 -6.2591124 -44.758724 67.036057 -44.193607 74.151855 -0.060043234 -7.2129259
3757253125 -0.095928706 -6.367918 -44.648083 68.214142 -44.132202 74.05323 -0.059339274 -7.2487602
3778187500 -0.089603342 -6.3304257 -44.784592 68.341064 -44.130909 74.294899 -0.059288379 -7.2847753
3799121875 -0.095750384 -6.3002701 -44.76263 68.192741 -44.075249 74.86245 -0.060396578 -7.3226542
3820056250 -0.091483571 -6.3745255 -44.708397 69.276558 -44.049229 75.60508 -0.062334586 -7.3627648
3840990625 -0.093379736 -6.3806057 -44.671501 69.494667 -43.973904 75.730087 -0.06318257 -7.4099202
3861925000 -0.089981511 -6.4397831 -44.614861 70.286903 -43.893955 75.458443 -0.063160121 -7.4525213
3882859375 -0.094532184 -6.4069448 -44.592369 70.137291 -43.875282 76.598198 -0.06246087 -7.4926329
3903793750 -0.090104006 -6.4740372 -44.499763 71.215477 -43.792191 76.662689 -0.061319716 -7.5287561
3924728125 -0.08878275 -6.5048947 -44.395603 71.753891 -43.727699 77.207001 -0.061107866 -7.5688844
3945662500 -0.088446021 -6.5402064 -44.304161 72.142296 -43.648315 77.311172 -0.061941095 -7.6129622
3966596875 -0.089274451 -6.5656772 -44.204975 72.315254 -43.571823 77.488998 -0.063271597 -7.6633534
3987531250 -0.09385936 -6.5473967 -44.129524 72.11779 -43.449642 77.092476 -0.063681632 -7.7098765
4008465625 -0.087949857 -6.6430035 -43.98658 72.74147 -43.398769 77.475357 -0.063881241 -7.7538009
4029400000 -0.090036377 -6.6337695 -43.910892 72.399628 -43.309685 77.347763 -0.063231811 -7.7921286
4050334375 -0.090037271 -6.6645637 -43.839283 72.440628 -43.247955 77.247513 -0.062680624 -7.8304524
