!Keysight Technologies,N5227A,US51270248,A.10.65.08
!Date: Tuesday, June 11, 2024 07:11:05
!Correction: S11(Full 2 Port(1,4)) 
!S41(Full 2 Port(1,4)) 
!S14(Full 2 Port(1,4)) 
!S44(Full 2 Port(1,4)) 
!S2P File: Measurements: S11, S41, S14, S44:
# Hz S  dB   R 50
10000000 -2.076787 -0.2467531 -13.433772 0.6830706 -13.464804 0.8160826 -2.0797293 -0.21226579
30934375 -2.0772972 -0.7456674 -13.425767 2.3090489 -13.440444 2.3632269 -2.0824957 -0.67594445
51868750 -2.0780766 -1.1695341 -13.404595 3.9219074 -13.405394 3.9646986 -2.0821769 -1.0710371
72803125 -2.0770638 -1.655826 -13.360581 5.3780656 -13.357857 5.3777509 -2.078738 -1.5876666
93737500 -2.081068 -2.1224647 -13.314316 6.8334041 -13.310401 6.8186622 -2.085103 -2.0718093
114671875 -2.0871308 -2.5894732 -13.261742 8.2847567 -13.255524 8.2447176 -2.0947976 -2.5371382
135606250 -2.0928934 -3.0614464 -13.19912 9.7162771 -13.191928 9.6674423 -2.1020765 -2.9830341
156540625 -2.0974476 -3.5341661 -13.124581 11.099375 -13.117895 11.043648 -2.1055772 -3.4384997
177475000 -2.1025629 -3.9958401 -13.045164 12.435384 -13.038692 12.376777 -2.1087425 -3.8985231
198409375 -2.1081581 -4.4431596 -12.956482 13.736651 -12.950068 13.667551 -2.1147895 -4.3456731
219343750 -2.1141407 -4.8943768 -12.862234 14.988851 -12.850964 14.911171 -2.1232533 -4.7962084
240278125 -2.123419 -5.3570576 -12.763361 16.200085 -12.745768 16.117487 -2.1355274 -5.243711
261212500 -2.1337137 -5.8170877 -12.658063 17.364145 -12.643495 17.291075 -2.1453552 -5.6917634
282146875 -2.1419716 -6.2714996 -12.547668 18.49684 -12.531816 18.41613 -2.1530695 -6.1512942
303081250 -2.1498713 -6.7260585 -12.43327 19.567444 -12.416857 19.474464 -2.1619756 -6.6083331
324015625 -2.1595554 -7.1749516 -12.316216 20.59581 -12.302007 20.50642 -2.1719215 -7.0475464
344950000 -2.1704729 -7.6098614 -12.19607 21.600439 -12.180146 21.497137 -2.1817524 -7.4719915
365884375 -2.1809216 -8.0445127 -12.070478 22.554358 -12.056314 22.449968 -2.1920805 -7.901361
386818750 -2.1929569 -8.4982071 -11.943785 23.447611 -11.92948 23.339117 -2.2034738 -8.3481293
407753125 -2.2060382 -8.9536848 -11.81748 24.295483 -11.802923 24.198999 -2.215889 -8.7912178
428687500 -2.2190001 -9.3889647 -11.689968 25.121962 -11.673017 25.014807 -2.2271349 -9.2306671
449621875 -2.2279122 -9.821763 -11.557799 25.898716 -11.541365 25.781954 -2.2394745 -9.6708651
470556250 -2.240099 -10.266636 -11.424743 26.628399 -11.409269 26.513107 -2.2525203 -10.092193
491490625 -2.2546461 -10.698772 -11.292707 27.319796 -11.276988 27.209106 -2.2646291 -10.512078
512425000 -2.2677281 -11.126648 -11.159305 27.972733 -11.144694 27.867233 -2.2784443 -10.938057
533359375 -2.2817271 -11.56189 -11.025519 28.589064 -11.011899 28.480835 -2.2941151 -11.372067
554293750 -2.2961042 -11.998055 -10.895079 29.166943 -10.880224 29.057825 -2.3103461 -11.803469
575228125 -2.3109708 -12.427969 -10.764613 29.726852 -10.747333 29.611996 -2.3246105 -12.226392
596162500 -2.325604 -12.849107 -10.631847 30.247154 -10.616169 30.124195 -2.3384898 -12.643613
617096875 -2.3414066 -13.270668 -10.500631 30.720808 -10.485522 30.607861 -2.3536382 -13.065133
638031250 -2.3578415 -13.691652 -10.371846 31.174101 -10.357141 31.063284 -2.3713105 -13.482971
658965625 -2.3739545 -14.110826 -10.243104 31.602537 -10.228147 31.483212 -2.3889201 -13.893226
679900000 -2.3912015 -14.536746 -10.116055 32.00325 -10.102418 31.884682 -2.4054832 -14.309627
700834375 -2.4090765 -14.945729 -9.9902105 32.381229 -9.9781294 32.267021 -2.4234698 -14.723043
721768750 -2.4273276 -15.354624 -9.8655882 32.730579 -9.8505201 32.618576 -2.4415505 -15.133072
742703125 -2.4449582 -15.751759 -9.741416 33.06496 -9.7256355 32.943901 -2.4591873 -15.527834
763637500 -2.4633584 -16.158836 -9.6190491 33.363796 -9.6032705 33.235214 -2.4760365 -15.93073
784571875 -2.4816754 -16.575373 -9.4967155 33.652 -9.4851847 33.5131 -2.4949582 -16.33288
805506250 -2.5011437 -16.982578 -9.3774843 33.910084 -9.3663445 33.795399 -2.5141106 -16.729856
826440625 -2.5208616 -17.382978 -9.2602005 34.153107 -9.2456484 34.027359 -2.5334435 -17.127203
847375000 -2.54006 -17.779831 -9.1430922 34.384048 -9.1299 34.245064 -2.5546291 -17.525755
868309375 -2.5620933 -18.177301 -9.0282421 34.583889 -9.0167828 34.463028 -2.57639 -17.90835
889243750 -2.5828366 -18.564991 -8.9142656 34.779686 -8.90063 34.651325 -2.595614 -18.287512
910178125 -2.6027524 -18.958158 -8.8001881 34.960571 -8.7878294 34.817924 -2.6142876 -18.679546
931112500 -2.6226459 -19.355091 -8.6879683 35.111183 -8.6773138 34.968536 -2.6346922 -19.060246
952046875 -2.6434453 -19.743002 -8.5780077 35.238178 -8.5679712 35.110138 -2.6549289 -19.443144
972981250 -2.6643901 -20.122189 -8.4714603 35.35907 -8.4602442 35.225445 -2.6769345 -19.825624
993915625 -2.6857309 -20.500408 -8.3660955 35.480278 -8.3546915 35.334202 -2.7000966 -20.203047
1014850000 -2.7087157 -20.882357 -8.2602339 35.56488 -8.2506285 35.421989 -2.721653 -20.582228
1035784375 -2.731823 -21.264393 -8.1597815 35.639935 -8.1493444 35.506527 -2.7444692 -20.960497
1056718750 -2.7523575 -21.640018 -8.0581398 35.727184 -8.0475941 35.581043 -2.7657855 -21.334293
1077653125 -2.7727509 -22.015366 -7.957077 35.778976 -7.9473457 35.631966 -2.7874568 -21.701746
1098587500 -2.794755 -22.387388 -7.8601623 35.824615 -7.8490343 35.678467 -2.8092821 -22.054029
1119521875 -2.8192623 -22.743656 -7.7631235 35.862526 -7.7538128 35.71796 -2.8323491 -22.414976
1140456250 -2.8431716 -23.094791 -7.6690903 35.888149 -7.6590567 35.750107 -2.8563452 -22.774099
1161390625 -2.8661785 -23.460644 -7.5754156 35.907879 -7.5644178 35.768387 -2.8794477 -23.137457
1182325000 -2.8894377 -23.833677 -7.4832892 35.912964 -7.4731998 35.768787 -2.9019697 -23.499176
1203259375 -2.9117994 -24.198486 -7.3931127 35.91394 -7.3830533 35.763309 -2.9236217 -23.853519
1224193750 -2.9345217 -24.558796 -7.3033805 35.90329 -7.2946539 35.748158 -2.9460602 -24.205538
1245128125 -2.9580002 -24.906145 -7.2170458 35.878952 -7.2082443 35.733955 -2.9705288 -24.544731
1266062500 -2.9842908 -25.255972 -7.1320434 35.860825 -7.1235571 35.710487 -2.9960673 -24.889723
1286996875 -3.0114193 -25.598602 -7.0476847 35.823608 -7.0396495 35.68272 -3.0218422 -25.245176
1307931250 -3.0359733 -25.950846 -6.9658885 35.790882 -6.9575653 35.648655 -3.0472677 -25.597174
1328865625 -3.0596035 -26.314243 -6.8833332 35.752518 -6.8756828 35.603855 -3.0707929 -25.943174
1349800000 -3.083566 -26.662657 -6.8042722 35.696934 -6.7964621 35.550564 -3.0943508 -26.278255
1370734375 -3.108206 -27.004135 -6.7253151 35.652344 -6.7190738 35.496441 -3.1192534 -26.605026
1391668750 -3.1338863 -27.329458 -6.6470666 35.590549 -6.6414905 35.444279 -3.1446891 -26.939423
1412603125 -3.1602161 -27.663651 -6.5718474 35.528503 -6.5655799 35.379318 -3.1721172 -27.271086
1433537500 -3.1879942 -28.00355 -6.4967666 35.458992 -6.4916878 35.312382 -3.1988454 -27.608215
1454471875 -3.2136123 -28.341604 -6.4245024 35.379841 -6.4186707 35.236195 -3.2238138 -27.949556
1475406250 -3.2372239 -28.681726 -6.3525705 35.310352 -6.3481302 35.158665 -3.2494421 -28.2745
1496340625 -3.2616735 -29.011871 -6.2813196 35.229874 -6.2770329 35.087879 -3.2730329 -28.589146
1517275000 -3.2868762 -29.325575 -6.2122016 35.148746 -6.207305 35.003666 -3.2989383 -28.897444
1538209375 -3.3137386 -29.639032 -6.1430092 35.071072 -6.1390862 34.923115 -3.3257034 -29.210951
1559143750 -3.3410575 -29.956253 -6.0736036 34.972065 -6.0703754 34.832394 -3.3535268 -29.528099
1580078125 -3.3667855 -30.282946 -6.0088782 34.872669 -6.0035114 34.735752 -3.3794873 -29.84654
1601012500 -3.3926363 -30.608227 -5.9439449 34.774124 -5.9382782 34.63282 -3.404032 -30.170298
1621946875 -3.4174707 -30.924959 -5.8809981 34.669407 -5.8761063 34.522091 -3.4313323 -30.479092
1642881250 -3.4438837 -31.239838 -5.817678 34.576332 -5.8138781 34.428696 -3.4569342 -30.769993
1663815625 -3.4716392 -31.540922 -5.7541447 34.471138 -5.7513061 34.324848 -3.4838748 -31.062273
1684750000 -3.4997346 -31.839788 -5.6930351 34.363087 -5.6907001 34.217762 -3.5108092 -31.36566
1705684375 -3.5277767 -32.14592 -5.6332178 34.242229 -5.6302814 34.10445 -3.5391188 -31.677776
1726618750 -3.5543358 -32.462879 -5.5762339 34.128506 -5.5721149 33.986614 -3.5659885 -31.977365
1747553125 -3.5818074 -32.7813 -5.5187354 34.026997 -5.5159392 33.868519 -3.5930908 -32.274601
1768487500 -3.609982 -33.073853 -5.4600844 33.912624 -5.4589181 33.761284 -3.6196768 -32.560959
1789421875 -3.6371832 -33.360031 -5.4046917 33.792042 -5.4038544 33.649933 -3.6472087 -32.841064
1810356250 -3.6653874 -33.656567 -5.3486118 33.67614 -5.3482881 33.538521 -3.6746194 -33.127533
1831290625 -3.6931314 -33.951981 -5.2936368 33.559582 -5.2917757 33.415272 -3.7023151 -33.417782
1852225000 -3.7206428 -34.252571 -5.2400427 33.440372 -5.2382035 33.28363 -3.7303522 -33.705788
1873159375 -3.7480278 -34.551838 -5.1863966 33.306236 -5.1869535 33.165569 -3.7571244 -33.989346
1894093750 -3.7746043 -34.838528 -5.136909 33.177334 -5.1349239 33.030972 -3.7847962 -34.268692
1915028125 -3.8022909 -35.119061 -5.0855579 33.060196 -5.0863237 32.910797 -3.8128157 -34.539558
1935962500 -3.8287444 -35.390518 -5.0347486 32.935448 -5.0345182 32.803654 -3.8396728 -34.816566
1956896875 -3.8560827 -35.682373 -4.9835372 32.818798 -4.9825745 32.664783 -3.8680587 -35.092575
1977831250 -3.8853307 -35.960487 -4.9327083 32.667919 -4.9344158 32.526394 -3.8951685 -35.366512
1998765625 -3.9102087 -36.236286 -4.8876648 32.527996 -4.887476 32.391445 -3.9216857 -35.642132
2019700000 -3.9357471 -36.514877 -4.8423228 32.403664 -4.8413873 32.270374 -3.948842 -35.898827
2040634375 -3.9630771 -36.784775 -4.7958221 32.277493 -4.7933941 32.144337 -3.97574 -36.165653
2061568750 -3.9917796 -37.047218 -4.7493544 32.147472 -4.748383 32.005436 -4.0046597 -36.426903
2082503125 -4.019907 -37.310143 -4.7036595 32.011768 -4.7039108 31.874054 -4.0331645 -36.690407
2103437500 -4.0479646 -37.581841 -4.6589971 31.870518 -4.6589184 31.739185 -4.0602045 -36.948792
2124371875 -4.0756841 -37.858295 -4.6171598 31.734278 -4.6160049 31.602913 -4.0856261 -37.200703
2145306250 -4.1035533 -38.123119 -4.5742092 31.604204 -4.573607 31.471268 -4.1116657 -37.461143
2166240625 -4.1297626 -38.375694 -4.5327735 31.47081 -4.532064 31.33744 -4.1409998 -37.705891
2187175000 -4.1591725 -38.640041 -4.4904566 31.346771 -4.4911861 31.203672 -4.1702561 -37.948669
2208109375 -4.1897159 -38.896015 -4.4484825 31.206076 -4.4514928 31.069799 -4.1990395 -38.195202
2229043750 -4.2193193 -39.156727 -4.4080925 31.078915 -4.4110599 30.938089 -4.2264609 -38.452217
2249978125 -4.2477756 -39.415306 -4.3673019 30.939695 -4.3706236 30.805325 -4.2537293 -38.709919
2270912500 -4.2739496 -39.67638 -4.3282094 30.804373 -4.3308926 30.668348 -4.2809639 -38.948639
2291846875 -4.3016706 -39.927811 -4.2905378 30.664986 -4.2929907 30.527163 -4.3091903 -39.181423
2312781250 -4.3299332 -40.174423 -4.2536879 30.536703 -4.2559543 30.403666 -4.3378124 -39.413647
2333715625 -4.3590808 -40.419815 -4.2139177 30.412691 -4.2179108 30.271231 -4.3675537 -39.661964
2354650000 -4.388103 -40.666695 -4.1758204 30.267673 -4.1802869 30.130751 -4.3965993 -39.907207
2375584375 -4.4154105 -40.917633 -4.1389074 30.125471 -4.1432018 29.992638 -4.4234614 -40.157246
2396518750 -4.4415684 -41.165329 -4.1041713 29.988157 -4.1082897 29.853428 -4.4503927 -40.386055
2417453125 -4.4682074 -41.400787 -4.0684166 29.854618 -4.0732718 29.731445 -4.4760947 -40.600491
2438387500 -4.4945807 -41.626354 -4.0335827 29.718369 -4.0360017 29.594732 -4.5040364 -40.82682
2459321875 -4.5228891 -41.855099 -3.9971573 29.589678 -4.0015845 29.453215 -4.5333686 -41.043194
2480256250 -4.5503488 -42.086582 -3.9622254 29.447962 -3.9681056 29.315903 -4.5611959 -41.274384
2501190625 -4.5777202 -42.335278 -3.9271374 29.310368 -3.9343457 29.180525 -4.5877204 -41.506599
2522125000 -4.6057639 -42.559601 -3.8950214 29.15469 -3.8999267 29.040367 -4.6123509 -41.732025
2543059375 -4.6310129 -42.783249 -3.8643906 29.02284 -3.8672805 28.899483 -4.6382561 -41.950523
2563993750 -4.65802 -43.010803 -3.831784 28.893692 -3.8356888 28.770397 -4.6650681 -42.147476
2584928125 -4.6865544 -43.226048 -3.7992847 28.756754 -3.8034794 28.631983 -4.6930456 -42.361725
2605862500 -4.7160845 -43.434971 -3.7676587 28.621477 -3.7730429 28.496075 -4.7232666 -42.5774
2626796875 -4.7445412 -43.660576 -3.7359717 28.482794 -3.7411995 28.360323 -4.7498746 -42.800411
2647731250 -4.7716961 -43.893303 -3.7037995 28.339445 -3.711004 28.223215 -4.7745051 -43.030117
2668665625 -4.7987804 -44.11179 -3.6756365 28.192776 -3.6797121 28.078808 -4.8010039 -43.25037
2689600000 -4.8239594 -44.318668 -3.6480153 28.055277 -3.6517425 27.936832 -4.8281503 -43.445541
2710534375 -4.8493643 -44.536728 -3.6205521 27.935764 -3.6238289 27.814962 -4.8563395 -43.642017
2731468750 -4.8782511 -44.769611 -3.588306 27.815275 -3.593523 27.685101 -4.8837976 -43.847904
2752403125 -4.907918 -44.972984 -3.5569162 27.658176 -3.5643666 27.543148 -4.9108748 -44.069134
2773337500 -4.9331198 -45.184528 -3.5311754 27.517954 -3.5364487 27.398907 -4.9385276 -44.296963
2794271875 -4.9588547 -45.407154 -3.5040808 27.382252 -3.5093844 27.258585 -4.9643841 -44.497974
2815206250 -4.9834895 -45.622211 -3.4769661 27.246687 -3.4817715 27.127268 -4.9880648 -44.701797
2836140625 -5.0097327 -45.818272 -3.4511738 27.116152 -3.4554076 26.991806 -5.0164056 -44.901814
2857075000 -5.0359044 -46.017681 -3.4232812 26.993788 -3.4286377 26.862732 -5.04457 -45.090424
2878009375 -5.0634508 -46.228088 -3.39379 26.847235 -3.4026146 26.72596 -5.0728545 -45.298405
2898943750 -5.0906725 -46.432434 -3.3686976 26.694834 -3.3774981 26.584385 -5.0985122 -45.496555
2919878125 -5.1152716 -46.634457 -3.3453274 26.563547 -3.3513 26.448431 -5.1212015 -45.709206
2940812500 -5.1394763 -46.834366 -3.3212385 26.438438 -3.3260651 26.314512 -5.1480546 -45.905926
2961746875 -5.1655626 -47.03738 -3.2949104 26.304708 -3.3018482 26.181723 -5.1740403 -46.081264
2982681250 -5.1918464 -47.215485 -3.2721069 26.16769 -3.2782316 26.048546 -5.2018824 -46.26506
3003615625 -5.2201056 -47.410831 -3.2466826 26.039415 -3.2547255 25.928976 -5.2281528 -46.446297
3024550000 -5.246675 -47.596672 -3.2230842 25.892641 -3.2291548 25.788473 -5.2530341 -46.660633
3045484375 -5.2700324 -47.801117 -3.2008111 25.768847 -3.2060266 25.644775 -5.2791858 -46.859512
3066418750 -5.2970886 -48.00568 -3.1765618 25.64168 -3.1836302 25.512896 -5.3035946 -47.035793
3087353125 -5.3235159 -48.186466 -3.1533997 25.503151 -3.1614733 25.38747 -5.327744 -47.217175
3108287500 -5.3489089 -48.357475 -3.1327136 25.362913 -3.1392579 25.265495 -5.3557162 -47.402336
3129221875 -5.3740726 -48.543896 -3.1126938 25.245253 -3.1169403 25.131815 -5.3840303 -47.588406
3150156250 -5.3996553 -48.752701 -3.0886045 25.133465 -3.0952103 24.997925 -5.4097328 -47.779152
3171090625 -5.426918 -48.956268 -3.0636344 24.998363 -3.0735767 24.868696 -5.4339457 -47.975494
3192025000 -5.4518523 -49.132618 -3.0433238 24.845333 -3.052098 24.731331 -5.4578552 -48.162544
3212959375 -5.4744172 -49.31015 -3.0254123 24.724428 -3.0328238 24.601238 -5.4844594 -48.335972
3233893750 -5.4987874 -49.490253 -3.0049465 24.606094 -3.0126636 24.481869 -5.5105429 -48.496597
3254828125 -5.5232878 -49.669804 -2.9851322 24.48921 -2.9912791 24.360783 -5.5358481 -48.687084
3275762500 -5.5498238 -49.869972 -2.9610527 24.374229 -2.9708931 24.223637 -5.565712 -48.881077
3296696875 -5.5757823 -50.051937 -2.9399848 24.215519 -2.9513495 24.096338 -5.5895538 -49.051434
3317631250 -5.5978765 -50.233059 -2.9227488 24.092735 -2.9321024 23.966562 -5.6127114 -49.24004
3338565625 -5.6220727 -50.402916 -2.9044714 23.965206 -2.9136162 23.843702 -5.6358423 -49.396168
3359500000 -5.6441407 -50.5667 -2.8858359 23.84972 -2.8934591 23.721966 -5.6588707 -49.570995
3380434375 -5.6709762 -50.744865 -2.8641653 23.73279 -2.875262 23.596743 -5.6890926 -49.746918
3401368750 -5.6983194 -50.90239 -2.8443167 23.58242 -2.8568404 23.481779 -5.7147393 -49.910496
3422303125 -5.7211413 -51.079025 -2.8295197 23.459648 -2.8382359 23.348686 -5.7398286 -50.107044
3443237500 -5.7448125 -51.273357 -2.8118412 23.359598 -2.8216443 23.227579 -5.7646141 -50.274002
3464171875 -5.7700415 -51.444759 -2.7903533 23.233707 -2.8034196 23.110193 -5.784802 -50.42942
3485106250 -5.7952318 -51.597549 -2.7722526 23.101007 -2.7849629 22.993004 -5.8072152 -50.594425
3506040625 -5.8203239 -51.732342 -2.7570453 22.967598 -2.7666214 22.869284 -5.8341975 -50.76548
3526975000 -5.8430114 -51.893597 -2.7431705 22.864697 -2.750097 22.747187 -5.8638248 -50.927883
3547909375 -5.8697839 -52.082691 -2.7232425 22.755692 -2.7341034 22.632996 -5.8905535 -51.087135
3568843750 -5.8940849 -52.255474 -2.7066405 22.622761 -2.7156601 22.517368 -5.9092298 -51.26141
3589778125 -5.9152246 -52.436733 -2.6899881 22.530201 -2.6993558 22.390282 -5.9314146 -51.440842
3610712500 -5.9402966 -52.595509 -2.6692791 22.394875 -2.683332 22.272036 -5.9554734 -51.57975
3631646875 -5.9635835 -52.72673 -2.6566973 22.259909 -2.6663196 22.160374 -5.9782419 -51.717766
3652581250 -5.9859109 -52.878685 -2.6423447 22.157167 -2.6487534 22.040424 -6.0049615 -51.894875
3673515625 -6.0088544 -53.052803 -2.6260722 22.058823 -2.6328967 21.917334 -6.0342102 -52.055248
3694450000 -6.0323229 -53.254932 -2.6056054 21.944796 -2.6185153 21.795637 -6.0580263 -52.210064
3715384375 -6.0579925 -53.43129 -2.5877504 21.805332 -2.6038628 21.680962 -6.0787501 -52.377018
3736318750 -6.0782537 -53.574329 -2.5759501 21.684273 -2.5871637 21.570023 -6.0967445 -52.529659
3757253125 -6.0981069 -53.718342 -2.5601659 21.58786 -2.5716493 21.449484 -6.1212735 -52.694794
3778187500 -6.123085 -53.858295 -2.5446219 21.458439 -2.5573628 21.332842 -6.1490741 -52.817043
3799121875 -6.1464648 -54.012455 -2.5320673 21.356321 -2.5429327 21.224411 -6.1726003 -52.969353
3820056250 -6.1724892 -54.188877 -2.5114145 21.247719 -2.5294452 21.110373 -6.2000542 -53.128727
3840990625 -6.195168 -54.32893 -2.4994705 21.09996 -2.5131078 21.002134 -6.2184854 -53.267422
3861925000 -6.2131267 -54.492634 -2.4868474 21.007277 -2.4988413 20.881172 -6.2352333 -53.449451
3882859375 -6.2369576 -54.638847 -2.4700263 20.89608 -2.484874 20.770823 -6.2611942 -53.592899
3903793750 -6.2600708 -54.76025 -2.4562938 20.773848 -2.4706709 20.664907 -6.283874 -53.701286
3924728125 -6.2844748 -54.887444 -2.4425905 20.647758 -2.4560974 20.546747 -6.3069859 -53.846745
3945662500 -6.3061876 -55.030857 -2.4324133 20.541311 -2.4422269 20.435015 -6.3303366 -54.005615
3966596875 -6.3274608 -55.218605 -2.4162533 20.450247 -2.4293072 20.321625 -6.3523498 -54.17215
3987531250 -6.3521948 -55.373997 -2.399981 20.316338 -2.4165559 20.214132 -6.3739748 -54.323219
4008465625 -6.3724885 -55.495491 -2.3926065 20.197561 -2.4024198 20.110956 -6.3931947 -54.447086
4029400000 -6.3919926 -55.641483 -2.3796523 20.114546 -2.3887973 20.004948 -6.412437 -54.579689
4050334375 -6.417326 -55.773174 -2.3644347 20.001081 -2.3755362 19.89542 -6.4366822 -54.720837
4071268750 -6.4389606 -55.914936 -2.3521383 19.890482 -2.3620303 19.780947 -6.4595971 -54.848316
4092203125 -6.4616504 -56.089973 -2.3376496 19.776537 -2.3499947 19.665806 -6.481225 -55.009388
4113137500 -6.4816341 -56.24514 -2.3279276 19.665272 -2.3388617 19.560904 -6.504055 -55.142887
4134071875 -6.5001669 -56.413532 -2.3151088 19.579973 -2.3254702 19.456938 -6.521193 -55.273979
4155006250 -6.5202975 -56.542114 -2.3021219 19.473536 -2.3130984 19.349493 -6.5427051 -55.4077
4175940625 -6.5415196 -56.679657 -2.2883344 19.383978 -2.3012002 19.247993 -6.5643845 -55.511295
4196875000 -6.5680857 -56.810184 -2.2717812 19.24753 -2.2886813 19.135971 -6.5839477 -55.664055
4217809375 -6.5882258 -56.928059 -2.265177 19.131247 -2.2774036 19.029688 -6.6082029 -55.793304
4238743750 -6.6066122 -57.111546 -2.2541819 19.053659 -2.2662814 18.923283 -6.6272759 -55.912128
