!Keysight Technologies,N5227A,US51270248,A.10.65.08
!Date: Tuesday, June 11, 2024 08:08:14
!Correction: S11(Full 2 Port(1,4)) 
!S41(Full 2 Port(1,4)) 
!S14(Full 2 Port(1,4)) 
!S44(Full 2 Port(1,4)) 
!S2P File: Measurements: S11, S41, S14, S44:
# Hz S  dB   R 50
10000000 -0.5313527 179.57133 -57.016602 2.3789926 -58.679562 10.540351 -0.41270187 -0.29561582
30934375 -0.5469144 179.64671 -56.86924 20.011057 -58.086048 20.216404 -0.39909112 -0.94436276
51868750 -0.5381003 179.48763 -56.236401 31.257322 -57.146305 32.069309 -0.39401853 -1.5410825
72803125 -0.53847748 179.27287 -55.402603 41.071754 -55.960003 40.420113 -0.41679817 -2.1784124
93737500 -0.54015702 179.05598 -54.406929 48.974224 -55.140518 48.511879 -0.41696039 -2.807045
114671875 -0.53829527 178.8485 -53.412071 55.414619 -54.048893 55.036709 -0.42434719 -3.4286516
135606250 -0.53930539 178.67992 -52.521957 60.44503 -53.148533 60.580166 -0.42962304 -4.0506401
156540625 -0.56084251 178.53407 -51.508217 64.427361 -52.339527 65.181259 -0.43242097 -4.6831794
177475000 -0.557917 178.33948 -50.603561 68.405891 -51.341061 69.155373 -0.43546513 -5.314074
198409375 -0.55858743 178.11729 -49.855396 71.885765 -50.635201 72.752426 -0.43475544 -5.9132385
219343750 -0.56292361 177.91206 -49.043976 74.645233 -49.865582 75.932648 -0.43700001 -6.5299625
240278125 -0.56502712 177.73824 -48.298416 77.105576 -49.143173 78.457947 -0.44469738 -7.1594634
261212500 -0.56309414 177.56902 -47.697407 79.575134 -48.394371 80.773819 -0.45039192 -7.7825336
282146875 -0.56860781 177.38901 -47.071064 81.651733 -47.790474 83.089684 -0.45386508 -8.4112425
303081250 -0.57711339 177.21924 -46.363609 83.385803 -47.13747 85.061775 -0.45808843 -9.0334826
324015625 -0.57291383 177.05016 -45.843864 84.690132 -46.621899 86.500267 -0.46107832 -9.6345377
344950000 -0.57394332 176.84541 -45.350174 86.561005 -46.019428 88.424553 -0.46513164 -10.226585
365884375 -0.5814898 176.65994 -44.875477 88.262947 -45.483456 90.034958 -0.47029442 -10.833537
386818750 -0.57680559 176.49722 -44.336979 89.765656 -44.948509 91.327934 -0.47827768 -11.457468
407753125 -0.57380164 176.33456 -43.801697 90.83329 -44.441956 92.658638 -0.487342 -12.065414
428687500 -0.57207817 176.1449 -43.296463 91.834503 -43.923485 93.788887 -0.48905364 -12.673457
449621875 -0.5763464 175.95457 -42.877293 92.967827 -43.477524 94.943329 -0.49386689 -13.293834
470556250 -0.57790989 175.77405 -42.463196 94.012177 -43.02293 95.931366 -0.5006966 -13.887767
491490625 -0.57820314 175.58571 -42.05109 95.147469 -42.604511 97.140648 -0.50509703 -14.473943
512425000 -0.57819885 175.39867 -41.638222 96.095512 -42.164272 98.126892 -0.51124984 -15.073019
533359375 -0.58657104 175.22064 -41.23521 97.039352 -41.71352 98.84214 -0.51935345 -15.686061
554293750 -0.60343474 175.05342 -40.834148 97.716072 -41.345825 100.00407 -0.52680582 -16.291613
575228125 -0.59588861 174.87865 -40.461044 98.701881 -40.870167 100.4606 -0.5342533 -16.885256
596162500 -0.59720826 174.69008 -40.071453 99.255051 -40.533627 101.33475 -0.53724217 -17.477018
617096875 -0.59397864 174.49838 -39.733696 100.03138 -40.181011 102.20235 -0.54178149 -18.074509
638031250 -0.59809208 174.32286 -39.171711 99.601608 -39.831863 102.973 -0.55189592 -18.667656
658965625 -0.59602827 174.14763 -38.865295 100.58625 -39.471558 103.66662 -0.56004202 -19.255388
679900000 -0.59632695 173.97285 -38.547638 101.28715 -39.105087 104.15646 -0.56902903 -19.850845
700834375 -0.59881419 173.8006 -38.258305 101.91373 -38.80217 104.82995 -0.57735509 -20.445765
721768750 -0.59786993 173.62367 -37.929775 102.63243 -38.457424 105.62246 -0.58725917 -21.02467
742703125 -0.59901118 173.43413 -37.6493 103.36183 -38.086082 106.01734 -0.59157014 -21.588989
763637500 -0.59794641 173.2516 -37.346653 103.88527 -37.795105 106.5471 -0.59872794 -22.172983
784571875 -0.60019583 173.07901 -37.044636 104.39188 -37.464737 106.76657 -0.60745686 -22.758116
805506250 -0.60117745 172.91002 -36.736317 104.73505 -37.198494 107.60836 -0.61634892 -23.335554
826440625 -0.60189116 172.73268 -36.440575 105.6572 -36.789753 108.00684 -0.62362254 -23.917299
847375000 -0.60271484 172.54655 -36.125698 105.95635 -36.497131 108.41954 -0.63276798 -24.498344
868309375 -0.60249442 172.36259 -35.842781 106.36918 -36.219772 108.83737 -0.64308012 -25.052973
889243750 -0.60222179 172.16982 -35.536137 106.48599 -35.933784 109.28944 -0.65094131 -25.611418
910178125 -0.6041401 171.98849 -35.305325 107.10522 -35.639004 109.51088 -0.65843147 -26.189369
931112500 -0.60724306 171.8253 -35.039173 107.42365 -35.353714 109.6255 -0.66870284 -26.757893
952046875 -0.60682338 171.65205 -34.770782 107.73952 -35.059982 109.8886 -0.67569846 -27.321434
972981250 -0.60889775 171.45909 -34.483765 108.02448 -34.793438 110.37555 -0.68415087 -27.881853
993915625 -0.61145735 171.26965 -34.237617 108.37246 -34.531219 110.66066 -0.69642723 -28.440891
1014850000 -0.61533344 171.09544 -33.989845 108.69522 -34.26915 110.91174 -0.70723742 -29.004976
1035784375 -0.61509264 170.92093 -33.726677 108.80721 -34.026279 111.12929 -0.71550512 -29.566284
1056718750 -0.6141246 170.74026 -33.477077 109.12138 -33.762363 111.49897 -0.72418696 -30.126892
1077653125 -0.6170212 170.56558 -33.245434 109.46797 -33.485939 111.56596 -0.73352003 -30.681511
1098587500 -0.62149298 170.3942 -32.999111 109.62088 -33.248775 111.71407 -0.74092621 -31.22156
1119521875 -0.62035483 170.20674 -32.762573 109.81879 -33.020088 112.0346 -0.75114799 -31.767525
1140456250 -0.62276202 170.01308 -32.534119 109.99718 -32.784546 112.21603 -0.76259667 -32.317249
1161390625 -0.62193769 169.83676 -32.305386 110.13913 -32.54874 112.46568 -0.77197307 -32.865509
1182325000 -0.62105131 169.66705 -32.077698 110.34499 -32.240303 111.95501 -0.78083783 -33.417549
1203259375 -0.62317932 169.49254 -31.839798 110.36587 -32.049927 112.29299 -0.78753364 -33.968704
1224193750 -0.62630445 169.31081 -31.628235 110.52766 -31.835548 112.42715 -0.79703271 -34.512291
1245128125 -0.62850446 169.12456 -31.419985 110.65985 -31.607784 112.36935 -0.80894059 -35.036076
1266062500 -0.62729126 168.93858 -31.210007 110.7735 -31.412601 112.68624 -0.81996876 -35.570763
1286996875 -0.62565517 168.74934 -30.976067 110.61166 -31.194717 112.76825 -0.83127934 -36.115009
1307931250 -0.62700427 168.56985 -30.783073 110.79926 -30.99551 112.92233 -0.84303349 -36.65731
1328865625 -0.6274125 168.4008 -30.581083 110.9348 -30.782976 112.91528 -0.85261184 -37.196896
1349800000 -0.63107085 168.23268 -30.346428 110.63235 -30.576633 112.85466 -0.86064732 -37.721027
1370734375 -0.63304186 168.04242 -30.149837 110.68111 -30.405289 113.03011 -0.87083375 -38.242561
1391668750 -0.63420755 167.84695 -29.972891 110.93525 -30.193007 113.11139 -0.88345671 -38.762856
1412603125 -0.63610023 167.65894 -29.787672 111.09052 -29.991463 113.19315 -0.89216173 -39.284363
1433537500 -0.63492 167.48116 -29.593842 111.10668 -29.793484 113.20576 -0.9014647 -39.820648
1454471875 -0.64103401 167.30995 -29.406317 111.14716 -29.592176 113.22109 -0.91128051 -40.352718
1475406250 -0.64438009 167.14134 -29.216686 111.06866 -29.425222 113.23963 -0.92165989 -40.872242
1496340625 -0.6537438 166.96753 -29.034307 111.08073 -29.235867 113.19693 -0.93205094 -41.373199
1517275000 -0.65086877 166.77757 -28.859219 111.18951 -29.042978 113.18938 -0.94226593 -41.867249
1538209375 -0.65331614 166.57416 -28.683374 111.27277 -28.863033 113.27222 -0.95275807 -42.380718
1559143750 -0.65238184 166.38445 -28.505579 111.23064 -28.658266 112.96745 -0.96627027 -42.887222
1580078125 -0.65388042 166.21291 -28.343933 111.38922 -28.501652 113.13057 -0.97548044 -43.408993
1601012500 -0.65657836 166.04561 -28.170794 111.37752 -28.316576 113.01418 -0.98402607 -43.930614
1621946875 -0.65922928 165.86996 -27.997797 111.30446 -28.153662 113.04925 -0.9947226 -44.438641
1642881250 -0.66024995 165.68109 -27.834589 111.34756 -27.990967 113.02927 -1.0051364 -44.918446
1663815625 -0.66478008 165.48978 -27.668596 111.34798 -27.815836 112.91774 -1.0164733 -45.402317
1684750000 -0.67139602 165.2993 -27.502323 111.2616 -27.653379 112.97966 -1.0265809 -45.909069
1705684375 -0.67279291 165.12228 -27.335358 111.05046 -27.480961 112.75042 -1.0382273 -46.422276
1726618750 -0.67400521 164.96237 -27.186991 111.12116 -27.332779 112.84396 -1.0474871 -46.922466
1747553125 -0.67815185 164.79898 -27.022863 111.07118 -27.163412 112.62855 -1.0587665 -47.412613
1768487500 -0.67908549 164.61902 -26.872906 111.13156 -27.014349 112.62057 -1.0688555 -47.889355
1789421875 -0.67846024 164.4326 -26.722351 111.09885 -26.867188 112.70045 -1.0799409 -48.360771
1810356250 -0.68002307 164.25426 -26.567314 111.01907 -26.708803 112.60359 -1.0914481 -48.843609
1831290625 -0.68003654 164.08408 -26.420599 111.04777 -26.549522 112.60663 -1.100818 -49.33614
1852225000 -0.68163186 163.9221 -26.269657 110.97358 -26.390457 112.34888 -1.1117671 -49.826374
1873159375 -0.6864084 163.76602 -26.118706 110.89592 -26.231977 112.20882 -1.1222916 -50.300369
1894093750 -0.68634295 163.59679 -25.969677 110.83332 -26.069633 112.00098 -1.1349523 -50.770073
1915028125 -0.69376045 163.40826 -25.823015 110.69842 -25.946962 111.88325 -1.1456717 -51.243469
1935962500 -0.69186401 163.21901 -25.675835 110.4726 -25.804916 112.0062 -1.1563247 -51.712048
1956896875 -0.70212901 163.05099 -25.532034 110.30635 -25.644615 111.79329 -1.1664612 -52.181896
1977831250 -0.71206188 162.90231 -25.406479 110.33777 -25.510288 111.64998 -1.1736356 -52.662075
1998765625 -0.71550012 162.74741 -25.281231 110.30398 -25.374891 111.35175 -1.1829903 -53.137341
2019700000 -0.71200997 162.57585 -25.148973 110.24696 -25.263735 111.48801 -1.1928192 -53.592964
2040634375 -0.70979893 162.39606 -25.016209 110.14857 -25.119184 111.47265 -1.2035588 -54.044262
2061568750 -0.71220869 162.21355 -24.889988 110.15529 -24.983212 111.2983 -1.2137948 -54.506149
2082503125 -0.71048325 162.03258 -24.761118 110.09025 -24.856514 111.14088 -1.2242202 -54.971947
2103437500 -0.71135676 161.86691 -24.630978 109.98067 -24.72879 111.04079 -1.2330457 -55.435024
2124371875 -0.70862925 161.70613 -24.497107 109.85561 -24.610142 111.05827 -1.2410589 -55.897205
2145306250 -0.70733958 161.52867 -24.37261 109.84995 -24.474792 111.03326 -1.2514528 -56.345821
2166240625 -0.70994675 161.33475 -24.242754 109.67684 -24.339861 110.74802 -1.2643808 -56.776913
2187175000 -0.71203339 161.14297 -24.094442 109.20107 -24.223265 110.77574 -1.2737081 -57.22332
2208109375 -0.70719719 160.96176 -23.954279 108.88451 -24.105648 110.67664 -1.2841599 -57.677376
2229043750 -0.70458102 160.77501 -23.836744 108.9939 -23.977528 110.65743 -1.29433 -58.140755
2249978125 -0.70447356 160.59122 -23.720583 109.04929 -23.843563 110.51841 -1.3035253 -58.584438
2270912500 -0.7082935 160.41002 -23.592325 108.796 -23.713776 110.37462 -1.3118806 -59.018284
2291846875 -0.71020812 160.22621 -23.481493 108.77988 -23.600779 110.23341 -1.3219274 -59.452557
2312781250 -0.71102256 160.03539 -23.367332 108.6926 -23.491899 110.05011 -1.3351978 -59.881245
2333715625 -0.71682787 159.84589 -23.25762 108.68355 -23.37669 110.03397 -1.3463086 -60.325733
2354650000 -0.71644682 159.67465 -23.138926 108.47282 -23.264906 109.88981 -1.3563838 -60.777634
2375584375 -0.71949559 159.51064 -23.030312 108.58438 -23.141314 109.90337 -1.3653741 -61.223507
2396518750 -0.71938902 159.33429 -22.914392 108.52763 -23.022167 109.742 -1.372849 -61.650784
2417453125 -0.72310054 159.14902 -22.800467 108.50493 -22.903749 109.57746 -1.3827671 -62.062946
2438387500 -0.72333539 158.95432 -22.681854 108.3576 -22.770582 109.54163 -1.3924971 -62.482319
2459321875 -0.72546571 158.75456 -22.561995 108.18192 -22.661051 109.29123 -1.4030328 -62.909035
2480256250 -0.73421907 158.57529 -22.457716 108.11645 -22.55821 109.15453 -1.4116092 -63.345566
2501190625 -0.73301369 158.40434 -22.34445 107.96426 -22.454157 109.09228 -1.4183303 -63.785103
2522125000 -0.73571706 158.23006 -22.237101 107.88207 -22.332956 109.0073 -1.4263864 -64.203323
2543059375 -0.73744434 158.03839 -22.124889 107.71635 -22.207649 108.808 -1.4332865 -64.607391
2563993750 -0.74299294 157.8465 -22.013086 107.53374 -22.110458 108.60359 -1.4437091 -65.009109
2584928125 -0.73904335 157.64983 -21.905668 107.47686 -21.995401 108.37408 -1.4552068 -65.426208
2605862500 -0.73776406 157.45544 -21.796721 107.2965 -21.901995 108.27647 -1.4649575 -65.857513
2626796875 -0.73968136 157.27156 -21.687038 107.06998 -21.803385 108.15704 -1.4738417 -66.284927
2647731250 -0.74295396 157.09749 -21.591824 107.03429 -21.696747 108.08675 -1.4797758 -66.706467
2668665625 -0.74709642 156.92073 -21.490927 106.92419 -21.579271 107.86065 -1.4894681 -67.109909
2689600000 -0.74715775 156.72266 -21.388651 106.71632 -21.47728 107.64329 -1.4983876 -67.500061
2710534375 -0.75163728 156.52708 -21.292973 106.71431 -21.396746 107.51621 -1.5074902 -67.897629
2731468750 -0.75431591 156.34406 -21.185696 106.57007 -21.298965 107.4398 -1.517777 -68.319168
2752403125 -0.75507158 156.16879 -21.09218 106.48327 -21.191706 107.35174 -1.5271248 -68.73674
2773337500 -0.75639617 155.99799 -20.981369 105.93153 -21.084635 107.11067 -1.5353872 -69.152359
2794271875 -0.76013672 155.82767 -20.886328 105.88979 -21.002886 106.97398 -1.5430347 -69.56163
2815206250 -0.76340479 155.65269 -20.782795 105.65869 -20.89592 106.91582 -1.552857 -69.949493
2836140625 -0.76628166 155.45505 -20.690668 105.58916 -20.782228 106.67797 -1.5617781 -70.329033
2857075000 -0.76948023 155.2625 -20.581167 105.16411 -20.697014 106.56402 -1.5698214 -70.729408
2878009375 -0.77259606 155.09749 -20.494341 105.27435 -20.597424 106.3434 -1.5791277 -71.147736
2898943750 -0.77441543 154.9314 -20.404987 105.22415 -20.52103 106.20648 -1.5882379 -71.557915
2919878125 -0.77543724 154.74718 -20.310251 105.09108 -20.411064 106.03042 -1.5978652 -71.939156
2940812500 -0.78209108 154.55736 -20.216835 104.97408 -20.308615 105.89627 -1.6037869 -72.321487
2961746875 -0.78303593 154.37016 -20.120707 104.78366 -20.214998 105.68405 -1.6116446 -72.695992
2982681250 -0.78490853 154.17998 -20.031998 104.67317 -20.124472 105.48379 -1.6210141 -73.079346
3003615625 -0.78213459 153.97888 -19.940948 104.5503 -20.053249 105.38947 -1.6292641 -73.467796
3024550000 -0.78507346 153.79781 -19.852951 104.20638 -19.943037 105.26312 -1.636763 -73.868797
3045484375 -0.78993195 153.62625 -19.757915 103.9816 -19.854897 104.97263 -1.6443671 -74.263374
3066418750 -0.79123485 153.44725 -19.66898 103.92064 -19.780787 104.74253 -1.6539748 -74.639511
3087353125 -0.79261124 153.25015 -19.587437 103.81581 -19.68561 104.6963 -1.6623112 -74.992706
3108287500 -0.79388791 153.04236 -19.50617 103.6344 -19.59334 104.5332 -1.6709253 -75.362419
3129221875 -0.79541504 152.84557 -19.419674 103.54263 -19.505215 104.30843 -1.680915 -75.749016
3150156250 -0.79673696 152.65672 -19.328501 103.37054 -19.429611 104.04304 -1.6892545 -76.139557
3171090625 -0.80239725 152.48796 -19.244762 103.17757 -19.348627 103.90298 -1.6955273 -76.527924
3192025000 -0.80662143 152.32433 -19.171906 102.98762 -19.260551 103.75329 -1.7017962 -76.89521
3212959375 -0.81173301 152.14362 -19.089954 102.895 -19.181524 103.51658 -1.710343 -77.250961
3233893750 -0.81898969 151.93739 -19.005842 102.72495 -19.117813 103.35159 -1.7198608 -77.605331
3254828125 -0.81661814 151.72906 -18.923744 102.498 -19.01988 103.37485 -1.7286847 -77.972534
3275762500 -0.8193903 151.5388 -18.835535 102.29588 -18.926579 103.03313 -1.7364722 -78.360321
3296696875 -0.82346201 151.37569 -18.764675 102.09489 -18.866713 102.82948 -1.7424957 -78.736481
3317631250 -0.82804114 151.20213 -18.688217 102.04208 -18.787308 102.62696 -1.7492795 -79.098923
3338565625 -0.83549941 151.009 -18.609201 101.79926 -18.733238 102.47951 -1.7568593 -79.449905
3359500000 -0.83795673 150.79752 -18.531752 101.77643 -18.640024 102.52732 -1.7649449 -79.797592
3380434375 -0.84479207 150.58945 -18.448921 101.4321 -18.54594 102.17286 -1.7736578 -80.152878
3401368750 -0.8462351 150.40215 -18.385548 101.32082 -18.491133 102.06715 -1.781634 -80.526299
3422303125 -0.84875101 150.23547 -18.311207 101.1384 -18.39712 101.89194 -1.7891467 -80.892876
3443237500 -0.85246956 150.06122 -18.226761 101.07071 -18.344788 101.59002 -1.7940308 -81.251892
3464171875 -0.85715538 149.87854 -18.149525 100.90945 -18.284462 101.57619 -1.8005973 -81.596268
3485106250 -0.86353004 149.68187 -18.08379 100.73958 -18.202812 101.44266 -1.8099525 -81.929649
3506040625 -0.86692822 149.48129 -18.0179 100.59871 -18.112524 101.4124 -1.819005 -82.271309
3526975000 -0.8693499 149.29324 -17.936699 100.31631 -18.01363 101.10018 -1.8274404 -82.616783
3547909375 -0.87183857 149.12869 -17.856085 100.12661 -17.974617 100.82039 -1.8329538 -82.992302
3568843750 -0.87216538 148.97913 -17.789822 100.09638 -17.908775 100.82407 -1.8380162 -83.344742
3589778125 -0.87837332 148.8152 -17.705742 99.982872 -17.813057 100.72177 -1.8428112 -83.682732
3610712500 -0.88093269 148.62462 -17.636793 99.747299 -17.74597 100.33924 -1.850071 -84.001976
3631646875 -0.88334906 148.42249 -17.576153 99.635666 -17.683338 100.39507 -1.8579091 -84.333755
3652581250 -0.88517517 148.21645 -17.501518 99.552612 -17.579231 100.24263 -1.8671677 -84.676094
3673515625 -0.88747317 148.02969 -17.422213 99.410973 -17.501966 99.829758 -1.8737826 -85.036827
3694450000 -0.8923732 147.87633 -17.344404 99.167839 -17.457106 99.609039 -1.8821478 -85.392693
3715384375 -0.89445132 147.72128 -17.283484 98.992638 -17.396282 99.449951 -1.8870261 -85.726234
3736318750 -0.89954305 147.5435 -17.216393 98.886002 -17.332146 99.463829 -1.893047 -86.034859
3757253125 -0.9047296 147.33334 -17.142067 98.722939 -17.226585 99.390709 -1.9000623 -86.353508
3778187500 -0.90838206 147.13704 -17.080627 98.457092 -17.159418 98.916588 -1.9074496 -86.690674
3799121875 -0.9108454 146.96181 -17.008535 98.41011 -17.105955 98.875237 -1.9161453 -87.033844
3820056250 -0.91213846 146.77879 -16.93256 98.178024 -17.034727 98.552368 -1.9210123 -87.378342
3840990625 -0.91502869 146.62201 -16.880211 98.029488 -17.003033 98.549576 -1.9262996 -87.713066
3861925000 -0.92050225 146.44135 -16.804798 97.945778 -16.900858 98.616867 -1.9312899 -88.018478
3882859375 -0.92517048 146.23445 -16.737171 97.717094 -16.81274 98.067101 -1.9384639 -88.321564
3903793750 -0.93031609 146.02608 -16.674034 97.547844 -16.779039 97.942184 -1.9445732 -88.65181
3924728125 -0.92924905 145.82301 -16.615398 97.320892 -16.711136 97.817032 -1.9537058 -88.98835
3945662500 -0.92982322 145.64255 -16.547926 97.248787 -16.644369 97.67942 -1.9614183 -89.32592
3966596875 -0.93130666 145.46185 -16.469934 97.067673 -16.569128 97.540535 -1.9664547 -89.646332
3987531250 -0.93591434 145.2823 -16.416855 96.829384 -16.503756 97.293907 -1.9699422 -89.953453
4008465625 -0.94089544 145.09474 -16.35976 96.733856 -16.447733 97.154106 -1.9744103 -90.249916
4029400000 -0.94924057 144.89398 -16.284838 96.620064 -16.377045 97.031693 -1.9811612 -90.554184
4050334375 -0.95081633 144.69211 -16.220787 96.390205 -16.307846 96.750473 -1.9881589 -90.880646
4071268750 -0.95127779 144.4987 -16.157974 96.250664 -16.261145 96.638527 -1.9948552 -91.212845
4092203125 -0.95556957 144.32408 -16.098207 96.006889 -16.178093 96.51178 -2.0025597 -91.526764
4113137500 -0.95732003 144.16037 -16.038025 95.958542 -16.109657 96.198204 -2.0052466 -91.822746
4134071875 -0.96122497 143.98758 -15.964926 95.788643 -16.06496 95.989151 -2.010972 -92.117523
4155006250 -0.96647149 143.78821 -15.904866 95.608978 -15.986625 95.768616 -2.0167706 -92.411118
4175940625 -0.97031754 143.58258 -15.834887 95.41906 -15.963259 95.55291 -2.0239613 -92.725441
4196875000 -0.97418374 143.40256 -15.784424 95.133484 -15.880094 95.603668 -2.0316586 -93.036255
4217809375 -0.97596186 143.22572 -15.73308 95.057831 -15.804976 95.163002 -2.0362418 -93.338264
