!Keysight Technologies,N5227A,US51270248,A.10.65.08
!Date: Tuesday, June 11, 2024 06:27:27
!Correction: S11(Full 2 Port(1,4)) 
!S41(Full 2 Port(1,4)) 
!S14(Full 2 Port(1,4)) 
!S44(Full 2 Port(1,4)) 
!S2P File: Measurements: S11, S41, S14, S44:
# Hz S  dB   R 50
10000000 -41.719391 -0.2130001 -0.072192118 -0.049917579 -0.075743519 -0.051739115 -41.009605 5.7044053
30934375 -41.627193 -4.8586583 -0.069702394 -0.082410537 -0.07824944 -0.06645371 -40.371536 -4.6405253
51868750 -41.635048 -8.3932133 -0.070871077 -0.12411495 -0.07729739 -0.106493 -40.59169 -8.5796452
72803125 -41.554146 -10.537467 -0.071984269 -0.16073322 -0.07599137 -0.1579667 -40.817223 -10.048246
93737500 -41.485405 -12.327068 -0.072075233 -0.2047248 -0.076014906 -0.20756862 -40.829735 -10.939498
114671875 -41.420879 -14.158032 -0.072207354 -0.25058541 -0.075148627 -0.25513607 -40.731243 -12.811201
135606250 -41.345886 -16.765879 -0.071416624 -0.29920822 -0.075501449 -0.30282426 -40.594215 -15.696473
156540625 -41.235283 -19.343969 -0.071961015 -0.34748939 -0.075690992 -0.35114968 -40.525837 -18.584944
177475000 -41.19199 -21.516947 -0.071568549 -0.39520821 -0.075507924 -0.40274528 -40.490021 -20.230173
198409375 -41.035717 -22.595217 -0.071981907 -0.44373441 -0.075706638 -0.45019111 -40.354343 -21.228506
219343750 -40.869244 -24.439632 -0.07169386 -0.48810357 -0.075370818 -0.49965432 -40.228867 -22.614799
240278125 -41.076511 -27.062368 -0.069093131 -0.54089206 -0.07653331 -0.54905957 -40.032051 -24.456507
261212500 -40.772263 -28.724556 -0.070115708 -0.59197813 -0.076298825 -0.59293687 -39.996323 -27.238176
282146875 -40.582996 -31.116358 -0.070579447 -0.63399088 -0.075726487 -0.6476112 -39.946724 -29.180914
303081250 -40.481358 -32.556156 -0.070583604 -0.68571991 -0.076417975 -0.69413 -39.71563 -30.637363
324015625 -40.259361 -33.815666 -0.070916273 -0.73183995 -0.076264963 -0.74221492 -39.582352 -32.173599
344950000 -40.108089 -35.112305 -0.070388347 -0.77894336 -0.076934159 -0.79085904 -39.335957 -33.200397
365884375 -40.05291 -37.076527 -0.069860466 -0.83073866 -0.077145778 -0.83715647 -39.192715 -34.662285
386818750 -39.79887 -38.479191 -0.071228474 -0.87746155 -0.076792143 -0.88103807 -39.032146 -36.649704
407753125 -39.640182 -40.374504 -0.071637243 -0.92496866 -0.076267041 -0.929928 -38.893047 -38.698322
428687500 -39.393646 -41.632099 -0.072374851 -0.97101533 -0.077341527 -0.97978085 -38.75518 -40.105644
449621875 -39.171432 -43.009953 -0.071971297 -1.018988 -0.077753998 -1.0299802 -38.529408 -40.955837
470556250 -38.94738 -43.948406 -0.072560191 -1.0685431 -0.07782153 -1.076059 -38.294178 -42.001328
491490625 -38.702347 -44.980068 -0.072643414 -1.1136851 -0.078413174 -1.1239237 -38.11956 -43.229504
512425000 -38.555832 -45.613911 -0.073814452 -1.1655498 -0.078803726 -1.1721805 -38.014008 -44.212475
533359375 -38.32008 -46.664112 -0.073904112 -1.2122506 -0.079011999 -1.2173747 -37.829777 -45.467575
554293750 -38.088116 -48.193066 -0.074381687 -1.2563174 -0.078563295 -1.2672329 -37.65147 -46.784187
575228125 -37.960152 -49.568077 -0.074183725 -1.3053232 -0.0792927 -1.3166355 -37.437138 -47.879528
596162500 -37.713139 -50.339001 -0.075302273 -1.3520508 -0.079941027 -1.3628483 -37.216106 -49.087185
617096875 -37.512062 -51.336536 -0.075279355 -1.3993828 -0.079997376 -1.4125458 -37.073685 -49.912579
638031250 -37.363556 -52.510994 -0.075612426 -1.4470139 -0.081592135 -1.4604139 -36.898491 -50.694813
658965625 -37.210693 -53.062565 -0.075482361 -1.4963714 -0.082119048 -1.505193 -36.705685 -51.488071
679900000 -36.93309 -53.476429 -0.076826259 -1.5452788 -0.082264461 -1.5500516 -36.469948 -52.688309
700834375 -36.721966 -54.779469 -0.07871291 -1.5851005 -0.082641557 -1.5966089 -36.340481 -54.059128
721768750 -36.622879 -55.786865 -0.078606658 -1.6293702 -0.083246045 -1.6465597 -36.229343 -54.867794
742703125 -36.474483 -56.267338 -0.079019815 -1.677328 -0.084309407 -1.6868256 -35.999687 -55.139015
763637500 -36.311203 -56.944893 -0.078951031 -1.7253367 -0.083819538 -1.7333553 -35.786133 -55.97966
784571875 -36.161221 -57.624184 -0.079316847 -1.7760054 -0.084090672 -1.7813196 -35.624653 -56.938721
805506250 -35.966377 -58.746819 -0.079794303 -1.8189272 -0.08422745 -1.831476 -35.476162 -57.75769
826440625 -35.859528 -59.73344 -0.07984028 -1.8637681 -0.085878961 -1.8771725 -35.36422 -58.514595
847375000 -35.743176 -60.010254 -0.081214033 -1.9092573 -0.08699479 -1.9145228 -35.210312 -59.187504
868309375 -35.548367 -60.486748 -0.082061119 -1.9458492 -0.086930826 -1.9556136 -35.110432 -59.979828
889243750 -35.387074 -61.022591 -0.081248268 -1.9922476 -0.086127341 -2.0039053 -34.957535 -60.295033
910178125 -35.237492 -61.549839 -0.080943517 -2.0406256 -0.08710847 -2.0500212 -34.781746 -60.607876
931112500 -35.029999 -61.680824 -0.081794865 -2.0826893 -0.087311432 -2.0894814 -34.601658 -61.156239
952046875 -34.847198 -62.066345 -0.082371168 -2.1302476 -0.086642951 -2.1405587 -34.460064 -61.618416
972981250 -34.686249 -62.763763 -0.081933886 -2.1696808 -0.087101676 -2.1879098 -34.337856 -62.284645
993915625 -34.577274 -63.230148 -0.081626676 -2.2191443 -0.087985985 -2.2323933 -34.183941 -62.674282
1014850000 -34.354668 -63.503597 -0.08306025 -2.27161 -0.088160157 -2.2777426 -33.994576 -63.17395
1035784375 -34.172081 -64.516014 -0.084026471 -2.3056335 -0.088429585 -2.3226357 -33.837044 -63.975632
1056718750 -34.071247 -64.984474 -0.082995713 -2.3544233 -0.088754766 -2.3686457 -33.724205 -64.351486
1077653125 -33.912628 -65.068771 -0.083080761 -2.3986123 -0.089645661 -2.4106214 -33.560329 -64.229355
1098587500 -33.751133 -65.23716 -0.08358752 -2.4487059 -0.089045912 -2.4542425 -33.383003 -64.61235
1119521875 -33.599125 -65.517662 -0.084149905 -2.4928725 -0.089337744 -2.4993207 -33.254684 -65.186836
1140456250 -33.445587 -65.98764 -0.084365942 -2.5341647 -0.089296125 -2.5470903 -33.125713 -65.631454
1161390625 -33.316704 -66.544365 -0.084347159 -2.5809104 -0.089783467 -2.5939641 -32.983639 -65.899231
1182325000 -33.196167 -66.897789 -0.084435739 -2.6278663 -0.090092242 -2.6368668 -32.801384 -66.216705
1203259375 -33.048149 -67.089546 -0.084471665 -2.6777384 -0.089643426 -2.6822336 -32.627155 -66.562469
1224193750 -32.886925 -67.344193 -0.085123606 -2.7279334 -0.089696005 -2.7295666 -32.499073 -66.937744
1245128125 -32.752655 -67.822746 -0.08531969 -2.7675285 -0.090223618 -2.7765186 -32.381634 -67.20858
1266062500 -32.654564 -68.113152 -0.085460134 -2.8202202 -0.090540782 -2.8234565 -32.256821 -67.714058
1286996875 -32.48333 -68.439819 -0.087693416 -2.8624127 -0.090647861 -2.8706708 -32.152515 -68.347054
1307931250 -32.350895 -69.207039 -0.085840143 -2.9043519 -0.091101289 -2.9143302 -32.018539 -68.802498
1328865625 -32.225689 -69.418846 -0.087084748 -2.9573696 -0.091315694 -2.9595082 -31.873495 -69.066628
1349800000 -32.08725 -69.818855 -0.08700227 -2.9992948 -0.091783002 -3.0044918 -31.724922 -69.26944
1370734375 -31.970942 -70.007301 -0.087383643 -3.0503969 -0.091227189 -3.0536616 -31.593983 -69.775597
1391668750 -31.848989 -70.317642 -0.08810965 -3.0921056 -0.091852024 -3.1024759 -31.524328 -70.124031
1412603125 -31.737761 -70.751663 -0.087950766 -3.1397293 -0.092504218 -3.1449392 -31.416122 -70.360558
1433537500 -31.602903 -71.130112 -0.089145429 -3.1852155 -0.093059845 -3.194803 -31.284128 -70.753914
1454471875 -31.45924 -71.667786 -0.089290768 -3.2263422 -0.093817905 -3.2374883 -31.146706 -71.024338
1475406250 -31.353905 -72.169998 -0.088563979 -3.2736478 -0.093143649 -3.2833939 -31.000824 -71.404167
1496340625 -31.228487 -72.232079 -0.090054318 -3.322736 -0.094193883 -3.3309383 -30.897337 -71.536301
1517275000 -31.103941 -72.46032 -0.091030039 -3.3630409 -0.094546735 -3.3749721 -30.783106 -71.62674
1538209375 -31.028452 -72.719116 -0.090834662 -3.4127259 -0.095242061 -3.4212146 -30.69838 -71.962524
1559143750 -30.895632 -73.056396 -0.091313124 -3.4541647 -0.095550314 -3.4665749 -30.597286 -72.196648
1580078125 -30.784023 -73.521675 -0.091346323 -3.4952581 -0.095729761 -3.5130222 -30.476345 -72.468147
1601012500 -30.688698 -73.733406 -0.091883026 -3.5437841 -0.096252434 -3.5578992 -30.356216 -72.764397
1621946875 -30.57926 -74.054901 -0.091750488 -3.5913644 -0.09635032 -3.6008966 -30.229242 -72.822067
1642881250 -30.49671 -74.263672 -0.091449641 -3.6427257 -0.096518219 -3.6482508 -30.118097 -73.111229
1663815625 -30.393803 -74.446564 -0.093094714 -3.6875124 -0.096913658 -3.6945331 -30.032072 -73.319069
1684750000 -30.287813 -74.602295 -0.093820833 -3.7328768 -0.097957067 -3.7414691 -29.925282 -73.572517
1705684375 -30.159098 -75.06411 -0.094271623 -3.7747195 -0.098437175 -3.787503 -29.837572 -73.931358
1726618750 -30.078724 -75.516922 -0.092910483 -3.8189385 -0.099165075 -3.8323128 -29.728022 -74.153984
1747553125 -29.991102 -75.667229 -0.09343411 -3.8747458 -0.099320285 -3.8760095 -29.620462 -74.442352
1768487500 -29.880634 -75.703827 -0.095456257 -3.919867 -0.099301212 -3.9213953 -29.524794 -74.638519
1789421875 -29.78084 -76.070396 -0.096458293 -3.9619353 -0.10008729 -3.9692705 -29.43646 -74.856384
1810356250 -29.708652 -76.31189 -0.095949419 -4.0070949 -0.10074408 -4.016356 -29.3577 -75.18779
1831290625 -29.625946 -76.578575 -0.095949389 -4.0506415 -0.10156572 -4.0601802 -29.282976 -75.295006
1852225000 -29.526566 -76.739014 -0.097035244 -4.1027641 -0.10185751 -4.1018076 -29.179718 -75.405952
1873159375 -29.407907 -76.897926 -0.099388748 -4.1488438 -0.10265771 -4.1487112 -29.083364 -75.700195
1894093750 -29.297544 -77.296921 -0.098707594 -4.1874962 -0.10280931 -4.1887555 -28.992384 -75.809753
1915028125 -29.216434 -77.515297 -0.098732308 -4.236918 -0.10242343 -4.2388711 -28.88073 -76.070259
1935962500 -29.123144 -77.778336 -0.099249445 -4.2793541 -0.10385451 -4.2879133 -28.817883 -76.348175
1956896875 -29.06723 -77.909042 -0.099186674 -4.3344364 -0.10445918 -4.3264432 -28.741413 -76.355423
1977831250 -28.936958 -77.904938 -0.10215596 -4.3753462 -0.10464196 -4.3691721 -28.634907 -76.506844
1998765625 -28.838263 -78.349609 -0.10145088 -4.409143 -0.1045616 -4.413588 -28.532217 -76.627243
2019700000 -28.759052 -78.592896 -0.10091627 -4.4592233 -0.1050623 -4.4629598 -28.434225 -76.910408
2040634375 -28.691061 -78.727463 -0.10173541 -4.5095968 -0.10626735 -4.5082912 -28.364944 -77.173676
2061568750 -28.61915 -78.867706 -0.10222175 -4.5548329 -0.10587388 -4.5483751 -28.280474 -77.359901
2082503125 -28.542694 -78.987938 -0.10322659 -4.5986629 -0.10625964 -4.5953999 -28.189606 -77.569801
2103437500 -28.465261 -79.167999 -0.10353646 -4.6398792 -0.10655267 -4.6407747 -28.10148 -77.599609
2124371875 -28.387232 -79.409065 -0.10333632 -4.6842599 -0.10705803 -4.6911383 -27.998114 -77.79274
2145306250 -28.307037 -79.580513 -0.10423593 -4.7320843 -0.10848238 -4.7362409 -27.922873 -78.080048
2166240625 -28.231375 -79.879837 -0.10397591 -4.7746081 -0.10845934 -4.7771411 -27.863842 -78.257507
2187175000 -28.17659 -80.024048 -0.104592 -4.8238659 -0.10869712 -4.8224378 -27.780714 -78.39534
2208109375 -28.104385 -80.191994 -0.10467818 -4.8659825 -0.10898734 -4.8720541 -27.697992 -78.709145
2229043750 -28.033068 -80.354599 -0.10533448 -4.9165807 -0.10983268 -4.920898 -27.62674 -78.983383
2249978125 -27.950514 -80.556755 -0.10652539 -4.9601531 -0.11096052 -4.9630966 -27.556927 -79.156013
2270912500 -27.87462 -80.787346 -0.10726991 -5.0027118 -0.1121152 -5.0061526 -27.490952 -79.23539
2291846875 -27.792202 -80.970375 -0.1088023 -5.0477118 -0.11185547 -5.0474634 -27.41819 -79.383324
2312781250 -27.732864 -81.303383 -0.10827037 -5.0891919 -0.1126193 -5.0938182 -27.352942 -79.687805
2333715625 -27.672415 -81.359673 -0.10899204 -5.1421247 -0.11416845 -5.1355901 -27.299171 -79.904549
2354650000 -27.594149 -81.484161 -0.11128499 -5.1843085 -0.11442656 -5.1801224 -27.21909 -80.104134
2375584375 -27.518841 -81.563759 -0.11209517 -5.221405 -0.11529364 -5.2225699 -27.153461 -80.285278
2396518750 -27.443222 -81.69696 -0.11244442 -5.2638044 -0.11598806 -5.2624907 -27.066221 -80.291199
2417453125 -27.37818 -81.82653 -0.11293407 -5.3048396 -0.11691205 -5.3121657 -26.994278 -80.477608
2438387500 -27.30958 -81.989792 -0.11236609 -5.3480449 -0.11797667 -5.3492026 -26.953093 -80.591705
2459321875 -27.256256 -82.113602 -0.11233949 -5.3953648 -0.11711128 -5.3888927 -26.876774 -80.683731
2480256250 -27.195433 -82.36393 -0.11209493 -5.43679 -0.11746718 -5.4360056 -26.801865 -80.95079
2501190625 -27.135569 -82.358025 -0.11274868 -5.4869537 -0.11791906 -5.481812 -26.72909 -81.115158
2522125000 -27.052435 -82.324211 -0.115334 -5.5240731 -0.11913922 -5.5253406 -26.66872 -81.25843
2543059375 -26.993202 -82.512299 -0.11443357 -5.5583105 -0.11892772 -5.5598273 -26.609018 -81.266571
2563993750 -26.943577 -82.579178 -0.11412484 -5.604588 -0.11815114 -5.6059351 -26.542149 -81.357063
2584928125 -26.882561 -82.59156 -0.11434402 -5.6477261 -0.11932995 -5.6499505 -26.489859 -81.542244
2605862500 -26.811951 -82.595665 -0.11481511 -5.6945939 -0.11895906 -5.6946893 -26.432077 -81.649567
2626796875 -26.735018 -82.680908 -0.11505107 -5.7409811 -0.11810616 -5.745749 -26.36088 -81.99276
2647731250 -26.67609 -82.809273 -0.11644268 -5.7899041 -0.12070342 -5.7925181 -26.296125 -82.140488
2668665625 -26.603697 -82.94944 -0.11773692 -5.8273292 -0.12195456 -5.8314071 -26.248749 -82.252312
2689600000 -26.540321 -83.043701 -0.11815649 -5.8601966 -0.12146217 -5.8658342 -26.18586 -82.240051
2710534375 -26.489355 -83.243721 -0.11646319 -5.90097 -0.12097158 -5.914783 -26.125704 -82.477547
2731468750 -26.454422 -83.257339 -0.11645025 -5.9641118 -0.12196548 -5.9602823 -26.077629 -82.695099
2752403125 -26.375263 -83.156281 -0.1194126 -6.0108738 -0.12320804 -6.0024114 -26.018398 -82.856476
2773337500 -26.283033 -83.253235 -0.11973679 -6.043282 -0.12268591 -6.0407743 -25.958975 -82.952248
2794271875 -26.214275 -83.391205 -0.11911254 -6.085156 -0.12220893 -6.0921082 -25.883354 -83.03009
2815206250 -26.151443 -83.460693 -0.1190757 -6.132163 -0.12425877 -6.1383667 -25.83671 -83.214981
2836140625 -26.091051 -83.524536 -0.12042516 -6.173512 -0.12437627 -6.1689253 -25.786877 -83.230965
2857075000 -26.038786 -83.565559 -0.11992082 -6.2182093 -0.12348981 -6.2144742 -25.725616 -83.327278
2878009375 -25.978542 -83.504395 -0.12101998 -6.2730389 -0.12384334 -6.2569785 -25.663708 -83.424637
2898943750 -25.895922 -83.494858 -0.12266937 -6.3100286 -0.12327124 -6.311501 -25.583136 -83.559464
2919878125 -25.815203 -83.600929 -0.12270918 -6.3480673 -0.12529947 -6.3578324 -25.523399 -83.693275
2940812500 -25.756208 -83.724625 -0.12197115 -6.3892493 -0.12488429 -6.3943529 -25.470121 -83.719261
2961746875 -25.702427 -83.808258 -0.12225702 -6.4369369 -0.12495533 -6.4409575 -25.404325 -83.790749
2982681250 -25.638872 -83.904297 -0.12236158 -6.4760275 -0.12493992 -6.479023 -25.34201 -83.90258
3003615625 -25.587061 -83.901215 -0.12289236 -6.5291119 -0.12491495 -6.5369248 -25.276222 -84.134125
3024550000 -25.501587 -83.864525 -0.12458188 -6.5651064 -0.12732568 -6.5779991 -25.217573 -84.271606
3045484375 -25.433619 -84.024803 -0.12251806 -6.6069098 -0.12628107 -6.6154428 -25.162262 -84.355766
3066418750 -25.378183 -84.107185 -0.1229763 -6.6644053 -0.1268632 -6.6701508 -25.095932 -84.460068
3087353125 -25.311192 -84.199249 -0.12472362 -6.7088642 -0.12801884 -6.7139354 -25.045074 -84.594711
3108287500 -25.240929 -84.292458 -0.12677699 -6.7429667 -0.12847333 -6.7532482 -25.000044 -84.809212
3129221875 -25.180569 -84.56369 -0.12470639 -6.7743392 -0.12921803 -6.7934709 -24.950289 -84.935463
3150156250 -25.137804 -84.685928 -0.12294804 -6.834414 -0.12882194 -6.8427978 -24.881577 -85.043556
3171090625 -25.083885 -84.659721 -0.1251962 -6.8920116 -0.12964037 -6.8889775 -24.822605 -85.213707
3192025000 -25.004725 -84.616219 -0.12820882 -6.9278121 -0.13012205 -6.9312491 -24.769114 -85.288643
3212959375 -24.935509 -84.805099 -0.12694184 -6.9581399 -0.13041106 -6.9723821 -24.72049 -85.313271
3233893750 -24.883553 -84.965553 -0.12699287 -7.005197 -0.13034649 -7.0275106 -24.664783 -85.510231
3254828125 -24.829615 -85.154526 -0.12672171 -7.0447321 -0.13326417 -7.0684333 -24.623192 -85.74054
3275762500 -24.788111 -85.170097 -0.12568112 -7.1055503 -0.13303711 -7.095706 -24.575567 -85.798347
3296696875 -24.707819 -85.167816 -0.12912934 -7.1526952 -0.13199428 -7.1500273 -24.495544 -85.923592
3317631250 -24.639997 -85.278053 -0.12941793 -7.1891856 -0.13217413 -7.1929541 -24.434511 -86.046829
3338565625 -24.578857 -85.322433 -0.13059525 -7.2315936 -0.13230208 -7.2520466 -24.372234 -86.105453
3359500000 -24.526268 -85.484612 -0.1289659 -7.2717619 -0.13624153 -7.2944484 -24.339973 -86.294342
3380434375 -24.488359 -85.488823 -0.12972289 -7.3333702 -0.13503206 -7.3189483 -24.301804 -86.36425
3401368750 -24.426888 -85.60881 -0.1331394 -7.3700142 -0.13524589 -7.3739791 -24.241489 -86.543526
3422303125 -24.364515 -85.789223 -0.13236447 -7.3957014 -0.13685504 -7.4076777 -24.19006 -86.67865
3443237500 -24.318235 -85.838348 -0.13111626 -7.4430084 -0.13427404 -7.4526596 -24.120022 -86.689339
3464171875 -24.27376 -85.892059 -0.13238072 -7.5035176 -0.13470462 -7.5133557 -24.056559 -86.851486
3485106250 -24.226171 -85.874504 -0.13487814 -7.5464106 -0.13725968 -7.5634494 -24.024683 -86.93161
3506040625 -24.155466 -85.890312 -0.13658249 -7.5758357 -0.14101662 -7.5976462 -23.985668 -86.991211
3526975000 -24.104111 -86.189987 -0.13457179 -7.6043077 -0.13966255 -7.6150804 -23.949278 -87.134743
3547909375 -24.06492 -86.269241 -0.13370438 -7.6631336 -0.1363472 -7.6722822 -23.881935 -87.268768
3568843750 -24.005077 -86.406715 -0.13494767 -7.6995025 -0.13973527 -7.7337918 -23.811344 -87.443871
3589778125 -23.966909 -86.514015 -0.13310197 -7.7462063 -0.14185695 -7.761869 -23.769979 -87.53862
3610712500 -23.915154 -86.429489 -0.13603312 -7.8095522 -0.13966081 -7.8034263 -23.721272 -87.483757
3631646875 -23.853872 -86.439941 -0.1391551 -7.8311434 -0.14183664 -7.8629789 -23.683865 -87.5755
3652581250 -23.800808 -86.662086 -0.13719697 -7.8613567 -0.14433728 -7.8829665 -23.654222 -87.730621
3673515625 -23.759546 -86.823524 -0.13438086 -7.90835 -0.14161271 -7.914258 -23.614485 -87.737579
3694450000 -23.717609 -86.922707 -0.13394044 -7.9787855 -0.14043126 -7.9707208 -23.537573 -87.841293
3715384375 -23.665333 -86.975868 -0.1375711 -8.0297613 -0.14059937 -8.0228281 -23.472279 -87.9534
3736318750 -23.60247 -87.092331 -0.13760878 -8.0515165 -0.14348197 -8.0839691 -23.415426 -88.04496
3757253125 -23.559067 -87.124069 -0.1365141 -8.1001358 -0.1468986 -8.0972586 -23.392622 -88.063316
3778187500 -23.50234 -87.131271 -0.13900428 -8.1460619 -0.14228405 -8.1303568 -23.341818 -88.026649
3799121875 -23.460115 -87.27153 -0.13713333 -8.1763897 -0.14319836 -8.1866808 -23.294077 -88.201729
3820056250 -23.417603 -87.300636 -0.13679184 -8.2484665 -0.14188893 -8.222867 -23.238525 -88.247353
3840990625 -23.355085 -87.397705 -0.14158925 -8.2778893 -0.14201361 -8.2993698 -23.167246 -88.412239
3861925000 -23.304873 -87.543724 -0.13955666 -8.314827 -0.14782083 -8.3258295 -23.114447 -88.572319
3882859375 -23.266102 -87.571678 -0.14035186 -8.3745537 -0.14411697 -8.3466845 -23.067204 -88.491814
3903793750 -23.223278 -87.599098 -0.14211284 -8.4114218 -0.14351717 -8.413662 -23.018759 -88.543816
3924728125 -23.172005 -87.579094 -0.14384693 -8.4504871 -0.14563784 -8.4614429 -22.975964 -88.629837
3945662500 -23.111782 -87.731857 -0.14362685 -8.476757 -0.14653662 -8.5052681 -22.928101 -88.81028
3966596875 -23.079483 -87.916885 -0.1406576 -8.5349407 -0.14803126 -8.5400715 -22.879141 -88.927292
3987531250 -23.035685 -87.937408 -0.1441419 -8.5955954 -0.14674079 -8.5790539 -22.820318 -88.952316
4008465625 -22.975527 -88.043938 -0.14679699 -8.6093283 -0.14711735 -8.6277418 -22.763103 -88.992104
4029400000 -22.940035 -88.15419 -0.14320727 -8.6493835 -0.1480971 -8.668828 -22.71814 -89.06115
