!  2-Port S-parameters saved by WinCal
! VAR MeasName=S-Parameters (CALIBRATED_DATA) read from VNA (P5004A)
! VAR MeasDate=27/08/2024 11:33:01
! VAR NAME=AXh_HCoxMem_Air_27_08_24
! VAR FILENAME=AXh_HCoxMem_Air_27_08_24.S2P
! VAR DATE=27/08/2024 11:33:01
! VAR PHYS_PORTS=1,2
! VAR ObjTypeName=DATASET
! VAR IndexType=Frequency
!
# Hz S MA R 50
9000.000 +2.0212869206E-001 -3.6913378592E+001  +1.0056164359E-001 +1.6665313007E+002  +1.2495074967E-001 -4.1471753492E+001  +3.2923525482E-001 -9.9634519874E+001 
7419148.574 +1.3298781984E+000 +2.1709247611E+000  +1.5308882088E-003 +2.1041916408E+001  +6.6055172551E-003 +1.0323437291E+001  +1.2788491597E+000 -4.3939331195E+000 
14829297.147 +1.0223829828E+000 -5.7046263403E+000  +1.7429480686E-003 +3.8271035623E+001  +1.5701291555E-003 -2.4161856900E+000  +1.0559747882E+000 -4.7547024486E+000 
22239445.721 +1.0234771699E+000 +1.6214621769E+000  +1.2724179746E-003 -7.9000617444E+001  +1.2527301382E-003 -7.6673586364E+000  +9.8693234262E-001 +1.2328687573E+000 
29649594.294 +1.0154832570E+000 +1.0676840332E+000  +2.7208565937E-004 -1.3233044373E+001  +7.3828305113E-004 +7.4739638557E+001  +1.0078397446E+000 +1.2000485574E-001 
37059742.868 +1.0270361070E+000 +6.0563556209E-001  +4.1199045278E-004 -1.0078096024E+001  +6.8853331761E-004 -7.6906983137E+001  +1.0090991457E+000 -5.9547667325E-001 
44469891.441 +1.0041349847E+000 -4.4736941035E-001  +1.7175470913E-004 +9.8210907089E+001  +3.8839968329E-004 -1.3962897702E+002  +1.0082291629E+000 -4.1999032353E-001 
51880040.015 +9.9801667458E-001 -9.6225772191E-001  +6.7854007578E-004 +1.5828616827E+002  +5.8410289759E-004 -1.4072660944E+002  +1.0014246894E+000 -1.0513299066E+000 
59290188.588 +9.9094940131E-001 +7.7162333303E-003  +1.7351944364E-004 -3.6896343482E+001  +3.7024160059E-004 -1.7298179987E+002  +9.9003174467E-001 -5.4354959688E-001 
66700337.162 +9.8934692255E-001 +1.1936221600E-001  +2.1762516041E-004 +9.4738509358E+001  +1.2768767178E-004 +8.8964498306E+001  +9.8676377286E-001 +5.2531337131E-002 
74110485.735 +9.9058887534E-001 +4.0173821100E-001  +6.1049437153E-004 -8.0400265725E+001  +7.0636183438E-004 -4.2084871486E+001  +9.9373155203E-001 +4.6365893669E-001 
81520634.309 +1.0032339051E+000 +4.4071647957E-001  +2.0042811269E-004 +5.6702151230E+001  +1.7383239775E-004 -1.7164228878E+002  +1.0013452058E+000 +8.4819160926E-001 
88930782.883 +1.0051433106E+000 -1.2984003306E-002  +3.2919145303E-004 +7.8782028441E+000  +3.7257389434E-004 +1.4704678716E+001  +1.0090948612E+000 +1.7881648068E-001 
96340931.456 +9.9992439300E-001 -8.7415989075E-002  +7.9611097908E-005 +9.5658072442E+001  +2.2853926983E-004 +1.4640247507E+002  +9.9790019551E-001 -7.7020161611E-002 
103751080.030 +9.9589960534E-001 +5.5338005095E-002  +2.6611763240E-004 +2.6192778840E+001  +3.8491329763E-004 -9.5203247259E+000  +9.9732452688E-001 +1.3867565853E-001 
111161228.603 +9.9935397152E-001 +4.0576190144E-001  +2.7623391275E-004 +1.1977385471E+002  +3.2006736788E-004 +1.2077290618E+002  +9.9846030666E-001 +4.0342121909E-001 
118571377.177 +1.0074451586E+000 +3.4309367072E-001  +1.1295864677E-004 -1.6008291648E+002  +9.6738972561E-005 +1.7339073042E+002  +1.0078783859E+000 +3.1117688895E-001 
125981525.750 +1.0122600159E+000 -1.0576657614E-001  +3.5472355859E-004 -4.5598695852E+001  +8.1136850698E-005 -1.6070608214E+002  +1.0134607626E+000 -1.2132909779E-001 
133391674.324 +1.0073428383E+000 -6.5856441363E-001  +7.3558650037E-005 +1.7720555817E+002  +1.2714243914E-004 +1.1513321942E+002  +1.0055001188E+000 -6.0249756987E-001 
140801822.897 +9.9377497512E-001 -8.2094636590E-001  +7.3830919749E-005 -1.9424833670E+001  +7.8932783475E-005 +8.5699912111E+001  +9.9207605547E-001 -7.8352199970E-001 
148211971.471 +9.8141417086E-001 -1.2395120752E-001  +4.3460780974E-005 -1.2325000916E+002  +8.5859653745E-005 -7.3400337813E+001  +9.8637499358E-001 -2.0538715516E-001 
155622120.044 +9.8405654433E-001 +7.2595775200E-001  +1.2631490532E-004 +1.3183105130E+002  +9.5162406636E-005 +6.9316071915E+001  +9.8527029194E-001 +6.3322303020E-001 
163032268.618 +1.0003404685E+000 +9.8342976387E-001  +1.0549313661E-004 +8.6250899865E+001  +1.1180853217E-004 +6.7068919285E+001  +9.9991183156E-001 +9.2977470513E-001 
170442417.192 +1.0145262110E+000 +6.9532851886E-001  +2.2614806661E-004 +9.2956195395E+001  +1.2554431577E-004 +2.4506981252E+001  +1.0115863847E+000 +6.9240992979E-001 
177852565.765 +1.0165798848E+000 -2.8453530746E-001  +3.7229144240E-005 +5.9563274635E+001  +5.4673821798E-005 +1.2527481173E+002  +1.0167855788E+000 -4.2317694650E-001 
185262714.339 +1.0034189689E+000 -9.3651504852E-001  +1.9545592420E-004 +8.7217140236E+001  +2.0329913612E-004 +1.2301544575E+002  +1.0015050566E+000 -7.6167147532E-001 
192672862.912 +9.8843520219E-001 -4.4487863629E-001  +1.9012125327E-004 -1.1113856772E+002  +1.1767092476E-004 -8.5797826081E+001  +9.8882969353E-001 -3.9954141908E-001 
200083011.486 +9.8747469942E-001 +3.9681620482E-001  +2.2669931827E-004 +8.3258379039E+001  +2.7172250090E-004 +4.7470638257E+001  +9.8680878214E-001 +4.3451640373E-001 
207493160.059 +9.9586079125E-001 +9.3183723296E-001  +1.5271629217E-004 -5.4240198048E+001  +2.6900793744E-005 -5.7206835419E+001  +9.9664705011E-001 +9.9412238383E-001 
214903308.633 +1.0111367579E+000 +6.7459130283E-001  +6.0326562737E-005 -1.1056674649E+002  +7.5049678655E-005 -1.3275369527E+002  +1.0133679694E+000 +5.7067582632E-001 
222313457.206 +1.0187645718E+000 -1.0235651763E-001  +1.6967209251E-004 +7.4896699741E+001  +6.0494162942E-005 +1.1825921091E+002  +1.0198160121E+000 -1.6795986157E-001 
229723605.780 +1.0065554936E+000 -1.0859170011E+000  +8.4798930554E-005 +7.8978686221E+001  +3.7376824776E-005 +1.2714654573E+002  +1.0060908625E+000 -1.1353345509E+000 
237133754.353 +9.8525872336E-001 -9.6417163661E-001  +1.1787556471E-004 +1.2390046452E+002  +1.0411710834E-004 +8.2337466335E+001  +9.8680827820E-001 -8.7931017248E-001 
244543902.927 +9.7972874541E-001 -1.7686722249E-002  +1.0838767502E-004 +1.4615060462E+002  +1.2320669072E-004 +7.0688335424E+001  +9.7748189295E-001 +5.2383812082E-002 
251954051.501 +9.8684021716E-001 +1.0261991315E+000  +1.2081648233E-004 +6.3895365709E+001  +5.9739777189E-005 +1.0682892650E+002  +9.8672489818E-001 +9.5525502145E-001 
259364200.074 +1.0048973052E+000 +1.4411862404E+000  +1.2831527342E-004 +3.5757799204E+001  +1.1327551329E-004 +1.5579570137E+002  +1.0047152935E+000 +1.3483673505E+000 
266774348.648 +1.0227405003E+000 +5.5406550426E-001  +1.7310881593E-004 +1.0984564832E+002  +1.5603065872E-004 +1.2088101683E+002  +1.0213450074E+000 +6.6375050890E-001 
274184497.221 +1.0192260423E+000 -6.5268192578E-001  +2.9107418139E-004 +5.2221791796E+001  +1.6333243255E-004 +6.3413617480E+001  +1.0193096314E+000 -6.7361168287E-001 
281594645.795 +9.9904671163E-001 -1.1544884910E+000  +4.7232927196E-005 +1.4288441262E+002  +1.4814528685E-004 +8.8977026484E+001  +1.0005001683E+000 -1.2328126452E+000 
289004794.368 +9.8061153155E-001 -5.5487143444E-001  +1.3389194231E-004 +2.4072212047E+001  +8.4596608183E-005 +3.4615947101E+001  +9.7953387173E-001 -5.2403100350E-001 
296414942.942 +9.8097872234E-001 +6.1591542352E-001  +6.2742138779E-005 +1.0275669534E+002  +1.5544615175E-004 +7.0508286540E+001  +9.8105352600E-001 +5.4070357374E-001 
303825091.515 +9.9442597131E-001 +1.2414774887E+000  +2.3497598935E-005 +8.1159603351E+001  +1.2007508534E-004 +1.3428013691E+002  +9.9669328951E-001 +1.3258089137E+000 
311235240.089 +1.0153661121E+000 +1.0558818848E+000  +9.1402667956E-005 +6.9321553627E+001  +1.2584605266E-004 +8.4519259356E+001  +1.0152528450E+000 +1.1529191763E+000 
318645388.662 +1.0243484440E+000 -1.4509397032E-001  +5.3963475617E-005 +1.2887824120E+002  +3.8791078848E-005 -1.7366151234E+002  +1.0248591738E+000 -2.1021593089E-001 
326055537.236 +1.0114411416E+000 -1.3163863985E+000  +1.5642805873E-004 +6.2503557160E+001  +1.0443113713E-004 +7.0549595162E+001  +1.0118502614E+000 -1.3181598541E+000 
333465685.810 +9.8429745440E-001 -1.1558235675E+000  +6.1448638138E-005 +1.2335109222E+002  +9.2661670569E-005 +1.0358547650E+002  +9.8473412734E-001 -1.1821157906E+000 
340875834.383 +9.7482603512E-001 +1.9565853743E-002  +7.4908186784E-005 +5.6527708020E+001  +1.4318584098E-004 +1.1584761581E+002  +9.7525151873E-001 -2.3566830468E-002 
348285982.957 +9.8384911594E-001 +1.1259530369E+000  +5.8978205222E-005 +4.2188469066E+000  +1.6952423723E-004 +1.2734498286E+002  +9.8194658598E-001 +1.2161463164E+000 
355696131.530 +1.0050654991E+000 +1.6368926732E+000  +8.9621747869E-005 +1.4041596448E+002  +1.9366070952E-004 +9.7063823739E+001  +1.0038440377E+000 +1.6810349313E+000 
363106280.104 +1.0259172333E+000 +7.3365386236E-001  +8.8411347882E-005 +1.5416898627E+002  +1.4865890756E-004 +6.0063609534E+001  +1.0259422958E+000 +9.6267513092E-001 
370516428.677 +1.0251678389E+000 -6.9854465018E-001  +1.2338757074E-004 +9.6053914559E+001  +9.2601978052E-005 +1.1862537030E+002  +1.0263821445E+000 -7.4685982961E-001 
377926577.251 +1.0012956267E+000 -1.4948350717E+000  +1.3862661394E-004 +4.8573151604E+001  +9.3987716878E-005 +1.0168893992E+002  +1.0011014412E+000 -1.4485074347E+000 
385336725.824 +9.7925487058E-001 -8.6320332573E-001  +1.2229924275E-004 +9.2189365925E+001  +1.2341673013E-004 +7.1310212629E+001  +9.7879575657E-001 -8.4712400991E-001 
392746874.398 +9.7582550614E-001 +6.1014997743E-001  +1.0797735127E-004 +9.3230606643E+001  +1.1976333627E-004 +7.4842409722E+001  +9.7424211172E-001 +5.3791791664E-001 
400157022.971 +9.9053147644E-001 +1.5635646804E+000  +1.7120118882E-004 +1.1750168561E+002  +1.2390407062E-004 +6.6251736372E+001  +9.8921045137E-001 +1.5465340108E+000 
407567171.545 +1.0142562188E+000 +1.4717664935E+000  +1.4748308926E-004 +8.7113276471E+001  +6.8056680924E-005 +9.5247375799E+001  +1.0140984681E+000 +1.4434692806E+000 
414977320.119 +1.0270474646E+000 +2.3191706863E-001  +7.8715397988E-005 +1.3791041596E+002  +1.4517515599E-004 +1.0294323262E+002  +1.0295266993E+000 +1.4824028584E-001 
422387468.692 +1.0166921662E+000 -1.2990664884E+000  +8.9430377557E-005 +1.2466518561E+002  +2.0804030345E-004 +4.9815659201E+001  +1.0160154087E+000 -1.3489354272E+000 
429797617.266 +9.9002932508E-001 -1.4891582549E+000  +1.3544505796E-004 +8.5106376755E+001  +1.4971700435E-004 +6.1511320757E+001  +9.8900707705E-001 -1.5152799260E+000 
437207765.839 +9.7187798858E-001 -4.1945337826E-001  +1.4199140412E-004 +9.2540454293E+001  +1.3606716158E-004 +5.5188677198E+001  +9.7124860958E-001 -2.8999284965E-001 
444617914.413 +9.7478860959E-001 +1.1385903180E+000  +1.0955337705E-004 +1.0608054571E+002  +9.6837722257E-005 +7.4686739785E+001  +9.7728640252E-001 +1.1684016855E+000 
452028062.986 +1.0000065198E+000 +1.9838960165E+000  +1.0686352376E-004 +9.1363533728E+001  +1.4988117334E-004 +8.0219146722E+001  +9.9832698459E-001 +1.7957220923E+000 
459438211.560 +1.0270691312E+000 +1.2466520002E+000  +2.3133992353E-004 +9.6684242479E+001  +2.0053811505E-004 +9.0993891850E+001  +1.0239987086E+000 +1.2668831367E+000 
466848360.133 +1.0311333405E+000 -4.0527896823E-001  +1.9858309368E-004 +7.8565738116E+001  +9.0085711575E-005 +9.4381334250E+001  +1.0327153239E+000 -4.5986191277E-001 
474258508.707 +1.0114049635E+000 -1.6249291043E+000  +2.9126347841E-005 -1.2699902204E+002  +2.3192290714E-004 +1.0288310196E+002  +1.0088557973E+000 -1.7789445867E+000 
481668657.280 +9.7851329307E-001 -1.2141514067E+000  +1.5293663084E-004 +8.8120804761E+001  +1.1082771917E-004 +9.9117612919E+001  +9.7840774487E-001 -1.2354763138E+000 
489078805.854 +9.6861367522E-001 +2.2004996695E-001  +2.2441825635E-004 +9.4346256770E+001  +1.2962637303E-004 +7.6050255517E+001  +9.6907133410E-001 +2.3356852101E-001 
496488954.428 +9.8225562451E-001 +1.5920939919E+000  +1.3770731785E-004 +8.2507376561E+001  +1.3316101844E-004 +8.3172631114E+001  +9.8098878012E-001 +1.5853238488E+000 
503899103.001 +1.0094224084E+000 +1.9974056291E+000  +1.0755507542E-004 +8.0475156871E+001  +2.0426961101E-004 +6.8144926574E+001  +1.0100111809E+000 +1.9588067240E+000 
511309251.575 +1.0324439355E+000 +9.1710552499E-001  +2.0543240347E-004 +9.0673485710E+001  +8.1653879166E-005 +1.1208631529E+002  +1.0315308495E+000 +8.0447648913E-001 
518719400.148 +1.0275570332E+000 -8.2481280358E-001  +1.2392274476E-004 +8.3838097283E+001  +1.8504582489E-004 +9.7341722312E+001  +1.0284916807E+000 -8.4197082448E-001 
526129548.722 +9.9674834517E-001 -1.7281748079E+000  +1.0620526874E-004 +8.4471875501E+001  +1.7453443222E-004 +7.5734734675E+001  +9.9828334242E-001 -1.7424390990E+000 
533539697.295 +9.7404389108E-001 -8.7250724363E-001  +2.4279164883E-004 +8.6462340631E+001  +1.4154974384E-004 +6.6190879848E+001  +9.7333811633E-001 -8.6520424809E-001 
540949845.869 +9.7050098691E-001 +8.4594933122E-001  +1.2556973258E-004 +9.0843152732E+001  +1.9349203266E-004 +7.9979352336E+001  +9.6887426794E-001 +8.3614204409E-001 
548359994.442 +9.8845001740E-001 +2.0062532583E+000  +2.2820194654E-004 +9.0196640072E+001  +1.9545632358E-004 +8.1496360610E+001  +9.8882091994E-001 +1.9399378844E+000 
555770143.016 +1.0211821631E+000 +1.8642081832E+000  +2.6271189995E-004 +8.8009604367E+001  +1.5726390358E-004 +8.3018961119E+001  +1.0199360543E+000 +1.8072239663E+000 
563180291.589 +1.0377753390E+000 +1.8526817689E-001  +1.8039489322E-004 +7.3457066055E+001  +1.5134757014E-004 +8.9977175121E+001  +1.0375608160E+000 +2.0546105979E-001 
570590440.163 +1.0209365463E+000 -1.5452516680E+000  +1.4763252873E-004 +6.8693752311E+001  +1.3071130726E-004 +6.4118418236E+001  +1.0208759279E+000 -1.7019694230E+000 
578000588.737 +9.8470083524E-001 -1.7347471609E+000  +1.1933240559E-004 +8.0771445415E+001  +1.6587378740E-004 +1.0360536557E+002  +9.8588144462E-001 -1.7829675925E+000 
585410737.310 +9.6419625045E-001 -2.5143378476E-001  +1.6882054439E-004 +1.0284307895E+002  +3.5582828808E-005 -1.6960346775E+002  +9.6528398473E-001 -3.5274316342E-001 
592820885.884 +9.7165155703E-001 +1.3852274647E+000  +1.9851818252E-004 +8.0853435225E+001  +2.7913784677E-004 +7.8189712138E+001  +9.7088835948E-001 +1.2861480136E+000 
600231034.457 +9.9921097268E-001 +2.3181683514E+000  +2.2662257188E-004 +1.0340196584E+002  +2.3932799873E-004 +1.0586470550E+002  +9.9919643699E-001 +2.3356218123E+000 
607641183.031 +1.0298606337E+000 +1.5784529819E+000  +1.6971622719E-004 +7.3693873616E+001  +1.5363608554E-004 +7.6962637887E+001  +1.0311396719E+000 +1.6160663212E+000 
615051331.604 +1.0371403720E+000 -3.9811348728E-001  +1.2202822763E-004 +9.9292988313E+001  +1.8260695458E-004 +9.5695328450E+001  +1.0374776117E+000 -4.3601236496E-001 
622461480.178 +1.0122275486E+000 -1.8019811682E+000  +1.8007297061E-004 +9.6479316730E+001  +1.3216630420E-004 +7.3722651977E+001  +1.0113068054E+000 -1.8814311636E+000 
629871628.751 +9.7802258282E-001 -1.4015742391E+000  +1.9555824786E-004 +5.4505594743E+001  +1.4782378057E-004 +7.0031356360E+001  +9.7749254379E-001 -1.3527422822E+000 
637281777.325 +9.6465238369E-001 +1.8613871896E-001  +2.1819295541E-004 +6.7203870117E+001  +1.2902726861E-004 +8.0815424621E+001  +9.6523288900E-001 +2.7214138771E-001 
644691925.898 +9.7606847198E-001 +1.8546601211E+000  +9.7817467369E-005 +8.3461755795E+001  +1.0629627968E-004 +1.1711655872E+002  +9.7769349776E-001 +1.7916532069E+000 
652102074.472 +1.0090658152E+000 +2.3514413984E+000  +1.9249877560E-004 +9.9391831526E+001  +1.8006238731E-004 +7.8652038842E+001  +1.0076295193E+000 +2.3558356058E+000 
659512223.046 +1.0374093756E+000 +1.1330572039E+000  +1.3976090810E-004 +6.1471418893E+001  +1.4187007118E-004 +7.4384727312E+001  +1.0388237839E+000 +1.1408759500E+000 
666922371.619 +1.0346907391E+000 -9.8822966875E-001  +2.1210314164E-004 +8.0853555761E+001  +2.2198380825E-004 +1.2304003458E+002  +1.0339007612E+000 -1.0277248202E+000 
674332520.193 +1.0000751231E+000 -2.0266679754E+000  +2.0180314443E-004 +7.5939919711E+001  +2.1439508795E-004 +9.8941944055E+001  +9.9976003193E-001 -2.0478034698E+000 
681742668.766 +9.6764335412E-001 -1.0914673644E+000  +1.9312271974E-004 +6.5076424422E+001  +1.6749464648E-004 +9.5626623406E+001  +9.6857529853E-001 -1.0902812772E+000 
689152817.340 +9.6373343482E-001 +8.6392565893E-001  +1.5288265863E-004 +1.0003881592E+002  +2.4324260537E-004 +8.8120618684E+001  +9.6418828019E-001 +7.9318024419E-001 
696562965.913 +9.8620386966E-001 +2.4079999605E+000  +2.1812890254E-004 +7.2711342850E+001  +1.4687021598E-004 +1.1318226809E+002  +9.8263849036E-001 +2.1667662006E+000 
703973114.487 +1.0185883610E+000 +2.3098291332E+000  +2.4123152815E-004 +1.0048576392E+002  +1.3144195074E-004 +1.1209081724E+002  +1.0189987512E+000 +2.2371401230E+000 
711383263.060 +1.0445332720E+000 +4.4152410797E-001  +2.5366965827E-004 +7.4420713717E+001  +2.3121754835E-004 +1.0134172344E+002  +1.0407986372E+000 +4.4368430599E-001 
718793411.634 +1.0270668376E+000 -1.4889638142E+000  +2.8868474903E-004 +1.0274056539E+002  +7.6823940323E-005 +6.5937227545E+001  +1.0258518220E+000 -1.5642272817E+000 
726203560.207 +9.8934147522E-001 -2.0176598196E+000  +2.6987248241E-004 +1.1611606718E+002  +1.9930736186E-004 +1.0403683701E+002  +9.9003226878E-001 -2.0044296803E+000 
733613708.781 +9.6304567253E-001 -5.1837469499E-001  +1.9165870500E-004 +8.2640187066E+001  +2.8075447840E-004 +8.2034519005E+001  +9.6452711886E-001 -5.1936306839E-001 
741023857.355 +9.6676298321E-001 +1.4302776892E+000  +2.4155115987E-004 +1.0680083781E+002  +2.2595175983E-004 +9.3424674293E+001  +9.6695149288E-001 +1.3372138875E+000 
748434005.928 +9.9426866754E-001 +2.4115435639E+000  +2.2522288221E-004 +9.7814936553E+001  +2.0830543900E-004 +9.6693515314E+001  +9.9553073687E-001 +2.4337196482E+000 
755844154.502 +1.0299087138E+000 +2.0095783038E+000  +1.8354793896E-004 +8.0864092417E+001  +2.8892703126E-004 +9.4941265129E+001  +1.0302506927E+000 +1.9477434507E+000 
763254303.075 +1.0441824241E+000 -3.4089580566E-001  +2.4396759153E-004 +1.2620772468E+002  +2.9968150558E-004 +9.7014413755E+001  +1.0425447401E+000 -2.4833710848E-001 
770664451.649 +1.0166947657E+000 -2.1832256622E+000  +3.0056851910E-004 +1.0951128557E+002  +1.5697973012E-004 +1.0245160338E+002  +1.0179003575E+000 -2.1633897185E+000 
778074600.222 +9.7683488608E-001 -1.7721946682E+000  +1.6095830160E-004 +1.0055322814E+002  +2.5817090553E-004 +7.7087210388E+001  +9.7524117209E-001 -1.7283646412E+000 
785484748.796 +9.6213407752E-001 +9.8693838649E-003  +1.6430378188E-004 +9.9197751269E+001  +2.1111038529E-004 +9.2159508440E+001  +9.6169304615E-001 +9.0125876557E-002 
792894897.369 +9.7172535227E-001 +1.9612443690E+000  +3.4213514433E-004 +8.8393783043E+001  +2.0477540081E-004 +1.1086042714E+002  +9.7047626562E-001 +1.8881188053E+000 
800305045.943 +1.0038797810E+000 +2.7450388770E+000  +1.7525605088E-004 +9.6798962468E+001  +2.5814089168E-004 +1.2442124211E+002  +1.0053132495E+000 +2.6172264274E+000 
807715194.516 +1.0384200610E+000 +1.6765170695E+000  +2.1438089798E-004 +8.9103556874E+001  +3.0395913585E-004 +9.4574078809E+001  +1.0372675564E+000 +1.4752004199E+000 
815125343.090 +1.0414964286E+000 -7.8081944553E-001  +3.0849253209E-004 +7.6209201944E+001  +3.8564630973E-004 +9.9447876511E+001  +1.0425644811E+000 -9.2420578678E-001 
822535491.664 +1.0046390471E+000 -2.1052200960E+000  +2.1896188980E-004 +8.0683963818E+001  +3.8688040022E-004 +9.3323273338E+001  +1.0048549449E+000 -2.1400624042E+000 
829945640.237 +9.6988573476E-001 -1.3057624326E+000  +2.4197739411E-004 +9.6404121458E+001  +2.3413561271E-004 +1.0297138625E+002  +9.6996109373E-001 -1.4061902399E+000 
837355788.811 +9.6160205169E-001 +5.9480357509E-001  +2.7757860467E-004 +9.6150457656E+001  +2.2457007670E-004 +8.7321179000E+001  +9.6036264247E-001 +5.8383832550E-001 
