!  2-Port S-parameters saved by WinCal
! VAR MeasName=S-Parameters (CALIBRATED_DATA) read from VNA (P5004A)
! VAR MeasDate=27/08/2024 11:35:25
! VAR NAME=AXh_HCoxMem_ISSThru_27_08_24
! VAR FILENAME=AXh_HCoxMem_ISSThru_27_08_24.S2P
! VAR DATE=27/08/2024 11:35:25
! VAR PHYS_PORTS=1,2
! VAR ObjTypeName=DATASET
! VAR IndexType=Frequency
!
# Hz S MA R 50
9000.000 +4.4807234897E-002 -1.4188668613E+002  +2.1423933732E-002 +6.2346949813E+001  +3.0158674413E-002 +5.2967207079E+001  +5.5525190542E-001 -3.1806994836E+001 
7419148.574 +1.3582515410E-001 +5.0284275594E+001  +9.8986514954E-001 +1.5529139685E+000  +1.0003079077E+000 +2.5527240843E+000  +6.8537787752E-002 -4.8854340907E+001 
14829297.147 +1.3844710048E-002 +5.3385787402E+001  +1.0020372768E+000 +1.2472485445E-001  +9.8466105165E-001 +2.0827978523E-001  +2.1633122305E-002 +1.6129746101E+002 
22239445.721 +1.2193416713E-002 +9.0582884038E+001  +1.0005383247E+000 -7.2905912308E-002  +1.0008241070E+000 +8.0085423033E-001  +2.0334061454E-002 +1.4237397195E+002 
29649594.294 +3.8526212694E-003 -1.7154219784E+002  +1.0108332121E+000 -1.1326748495E-001  +9.9402013281E-001 +3.6396376319E-001  +4.6802329350E-003 +1.0524119435E+002 
37059742.868 +9.2487622910E-004 +7.4210696583E+000  +9.9943308263E-001 -1.4900838043E-001  +1.0043282123E+000 +9.5392521114E-002  +7.6786861513E-003 -4.6731229243E+001 
44469891.441 +2.3512585848E-003 -4.5818291823E+001  +9.9620197773E-001 -5.8661907981E-002  +1.0019968190E+000 -3.2296264087E-001  +7.7902839018E-003 +4.7204057289E+001 
51880040.015 +4.5973973242E-003 +1.1799642050E+000  +1.0001687439E+000 -1.8026723576E-001  +1.0008876354E+000 -4.4442158582E-003  +2.3321598532E-003 -1.3450306844E+002 
59290188.588 +6.2859294328E-003 +1.5245862958E+002  +1.0007526364E+000 +3.5056883775E-002  +1.0001664633E+000 -1.0613719285E-001  +6.0489514345E-003 -1.4778913538E+002 
66700337.162 +2.5697917212E-003 +1.2973342017E+002  +9.9885283023E-001 +1.4230133409E-001  +1.0017567042E+000 +1.5381885530E-002  +4.1504927612E-003 -4.8481757904E+001 
74110485.735 +2.2092408651E-003 -1.3498118525E+002  +1.0000532875E+000 -2.4348326938E-003  +9.9963782495E-001 -2.5880423152E-002  +5.1529044034E-003 -1.2336181241E+002 
81520634.309 +1.6686982428E-003 -1.6232938114E+002  +1.0001146528E+000 +1.7643542595E-001  +1.0027368663E+000 +5.2256491998E-002  +8.3033997917E-004 -6.1276088640E+001 
88930782.883 +8.9014746255E-004 -9.4335968184E+000  +1.0011773187E+000 -4.0177393271E-002  +1.0028482353E+000 -5.3950833064E-002  +1.2498407784E-003 +6.7889671460E-002 
96340931.456 +2.1902965719E-003 -1.3658949114E+002  +9.9804793499E-001 -5.1574697245E-002  +9.9822837429E-001 -4.5518475202E-003  +2.7096034385E-003 +6.8155013936E+001 
103751080.030 +6.3202266683E-004 +1.1210128623E+002  +1.0004470474E+000 -1.0870686274E-001  +9.9954958078E-001 +2.1851080094E-002  +1.0542516947E-003 -1.2085628571E+002 
111161228.603 +3.7165896354E-004 +1.6030517188E+002  +9.9853972337E-001 -1.4223907676E-001  +9.9856031868E-001 +7.8070468476E-003  +1.3016156782E-003 +1.2989211568E+002 
118571377.177 +1.6098024469E-003 -1.6216284109E+002  +9.9935636907E-001 -9.6265218994E-002  +1.0029734869E+000 -4.3420180977E-002  +2.5012986486E-003 -1.3405030786E+002 
125981525.750 +1.5578212400E-003 +1.5912209186E+002  +1.0007595268E+000 -1.7079576254E-002  +1.0001802498E+000 +5.9172923357E-003  +2.0191658864E-003 -1.2960021336E+002 
133391674.324 +1.5075383163E-003 +9.2417526379E+001  +9.9999340779E-001 +2.3415751035E-002  +9.9930642318E-001 +8.3283647952E-002  +1.4269066646E-003 +6.8477861240E+001 
140801822.897 +1.2455558740E-003 +3.0576758858E+001  +1.0007992026E+000 +1.2417605110E-002  +1.0007473426E+000 -4.9744663714E-002  +2.2483360133E-003 -1.1277721908E+002 
148211971.471 +5.5684293491E-004 +4.2672974898E+001  +1.0003055121E+000 -5.4678871151E-002  +1.0003257387E+000 +9.0615815472E-002  +7.6595981179E-004 +6.4004219831E+001 
155622120.044 +1.4841364420E-003 +5.8296345941E+001  +9.9790389099E-001 +7.0396053593E-003  +9.9905488149E-001 -1.4579157594E-002  +4.7323147011E-004 -2.8772827079E+001 
163032268.618 +1.4392173312E-003 +4.7648588210E+001  +1.0006298863E+000 -1.0784570698E-001  +1.0004426040E+000 -1.6026625782E-001  +4.8843526277E-004 +1.0526479354E+001 
170442417.192 +1.2111094546E-003 +1.7316364325E+002  +1.0009901082E+000 -1.1402987975E-001  +1.0005913109E+000 -4.2185628064E-002  +1.5035877903E-003 +2.1423245271E+001 
177852565.765 +1.7024487770E-003 -1.1850204734E+002  +1.0014362343E+000 -7.9106358988E-002  +1.0000400375E+000 -1.0783845667E-001  +1.6660437506E-003 +1.3291744681E+002 
185262714.339 +1.1413973198E-003 -1.7833725278E+002  +1.0003383978E+000 -1.3613415886E-001  +9.9992979026E-001 -9.7070039660E-002  +4.0404229994E-004 +9.8804984878E+001 
192672862.912 +1.9439812797E-003 -1.0012631917E+001  +9.9827681077E-001 +3.2425851630E-002  +9.9826845327E-001 -5.4101700964E-002  +1.6898878330E-003 -2.0144453495E+001 
200083011.486 +1.8045073303E-003 -1.1754410822E+002  +9.9994119111E-001 +2.2990061836E-002  +9.9902489855E-001 -4.6468404739E-002  +1.5082909414E-003 -1.3474366363E+002 
207493160.059 +9.3670673319E-004 -6.0878127238E+001  +9.9977503403E-001 -1.5028106667E-001  +9.9788351390E-001 +4.5399028370E-002  +6.7223051747E-004 +9.7284353919E+000 
214903308.633 +5.8409203776E-004 -1.4539178956E+002  +9.9990525724E-001 -1.8921792605E-001  +9.9984550612E-001 +2.9852538721E-003  +1.8676587899E-003 -1.7727156475E+002 
222313457.206 +2.1629371021E-004 -1.6415581400E+002  +1.0017083146E+000 +1.7263693647E-002  +9.9973093127E-001 -1.1152811486E-001  +1.2289276823E-004 +1.1308941664E+002 
229723605.780 +6.4007874174E-004 +4.2469881746E+001  +1.0003762019E+000 -5.4602197155E-002  +1.0001591677E+000 -5.7296176990E-002  +5.5444101291E-004 +8.5208002367E+001 
237133754.353 +8.3448231687E-004 +1.2942448270E+001  +1.0001240534E+000 -1.1409789166E-001  +9.9825089213E-001 -5.5436873910E-002  +5.0139054110E-004 +1.6631081592E+002 
244543902.927 +8.5199458357E-004 +6.0212093646E+001  +1.0007371156E+000 -1.9848794265E-001  +9.9999594837E-001 -2.8150739853E-002  +1.2123377727E-003 +1.0108632590E+002 
251954051.501 +8.3232432757E-004 +8.1355584730E+000  +9.9957110115E-001 -1.4576597896E-001  +1.0009330299E+000 -9.1991988483E-002  +5.0547823288E-004 +1.7839760673E+002 
259364200.074 +7.0775824977E-004 +1.0213798138E+002  +1.0009335051E+000 -1.0391146826E-001  +9.9737629696E-001 -1.0770958405E-001  +1.5243280036E-003 -8.3962874697E+000 
266774348.648 +2.4956737318E-004 +9.8604236328E+001  +1.0022671780E+000 -8.5985852739E-002  +9.9932967338E-001 -1.0241738477E-001  +5.0503877180E-004 -1.3669595266E+002 
274184497.221 +1.1317920903E-003 +6.4021764433E+001  +9.9912020194E-001 -8.7255628049E-002  +1.0003231845E+000 -7.3110622514E-003  +1.3211827790E-003 +7.0597723674E+001 
281594645.795 +1.1388308539E-003 +5.5934691393E+001  +9.9970743464E-001 -1.9138360703E-001  +9.9935619198E-001 -1.6755532228E-001  +1.1102300536E-003 -2.5006855604E+001 
289004794.368 +9.4229399693E-004 +1.5307263906E+002  +9.9935695101E-001 -1.2106449629E-001  +1.0000764428E+000 -1.5638420380E-001  +1.2771123644E-003 +8.8747359703E+001 
296414942.942 +2.1371400959E-004 -8.7303177662E+000  +9.9896577425E-001 -1.2450661062E-001  +9.9915606183E-001 -1.4950428658E-001  +1.0335330851E-003 +1.2069064001E+002 
303825091.515 +8.7559617906E-004 +6.1901260483E+001  +1.0011604810E+000 -1.4480032012E-001  +9.9981828946E-001 -2.3525933025E-001  +1.1086678073E-003 -2.2340623490E+001 
311235240.089 +6.9483979263E-004 +1.7804725606E+001  +9.9829575640E-001 -6.1143908766E-002  +1.0002820557E+000 -5.6328912967E-002  +1.2655193201E-003 -2.0512499468E+001 
318645388.662 +9.1907783698E-004 +6.3707066122E+001  +1.0005852812E+000 -6.0601254432E-002  +9.9994754198E-001 -9.2579573288E-002  +1.1971002423E-003 -5.0399134291E+000 
326055537.236 +4.4989834134E-004 +3.0609554121E+001  +9.9964580176E-001 -1.9937594081E-001  +9.9942361066E-001 -1.3390461452E-001  +5.1745889706E-004 +1.0938382310E+002 
333465685.810 +5.4186260697E-004 +1.5670897102E+002  +9.9676478309E-001 -6.2868684493E-002  +9.9966967872E-001 -2.4880259754E-001  +1.3486461672E-003 +2.1062113534E+001 
340875834.383 +8.4996992044E-004 +1.4263943851E+002  +9.9839022791E-001 -1.5777370897E-001  +1.0014731511E+000 -1.1419994451E-001  +6.0358701911E-004 +1.4952032888E+002 
348285982.957 +1.2328584712E-003 +4.8313559506E+001  +9.9975099330E-001 -1.3900263153E-001  +9.9838762652E-001 -1.9078625856E-001  +9.6729705937E-004 -8.2565403280E+000 
355696131.530 +2.2621923143E-003 -2.8247451012E+001  +9.9831744604E-001 -1.6257955192E-001  +9.9746593852E-001 -6.7179530815E-002  +9.7047722910E-004 +1.4584628510E+002 
363106280.104 +7.4007332469E-004 +1.2726448050E+002  +1.0004571279E+000 -2.2839957691E-002  +9.9996214836E-001 -1.0078501560E-001  +5.7748004814E-004 -1.3290026562E+002 
370516428.677 +2.8781921932E-004 +9.6760457594E+001  +1.0004075135E+000 -1.5938601988E-001  +9.9894075584E-001 -2.6789058297E-002  +3.5509720909E-004 +1.0941443176E+002 
377926577.251 +1.1251238720E-003 +1.4147603903E+002  +1.0010631522E+000 -7.0554286567E-002  +9.9870688277E-001 -4.4672567045E-002  +1.9850343726E-003 +1.7486697947E+002 
385336725.824 +4.9539712609E-005 -1.7325758943E+002  +9.9936450664E-001 -8.6688388607E-002  +1.0021485902E+000 -1.3883875837E-001  +7.8538329483E-004 +2.7486748019E-001 
392746874.398 +2.4045247434E-004 +1.4626117883E+002  +1.0003420115E+000 -7.9117142857E-002  +1.0001829079E+000 -1.8203039955E-001  +1.1468766862E-003 -7.6215629773E+001 
400157022.971 +9.9889971817E-004 +9.1117243860E+001  +9.9929974134E-001 -2.0528379974E-001  +9.9979887609E-001 -2.4287304505E-001  +5.8801440641E-004 +9.6756176633E+001 
407567171.545 +1.1022378719E-003 +1.6182370946E+002  +1.0000037058E+000 -6.9018822487E-002  +9.9941124866E-001 -1.0165726051E-001  +4.0360389043E-004 +1.6824179665E+002 
414977320.119 +1.6296976913E-003 -1.3471916591E+002  +9.9781772947E-001 -1.6754670327E-001  +1.0002227233E+000 -1.8835549606E-001  +1.0005307021E-003 +6.6402221436E+000 
422387468.692 +1.9528840794E-003 -1.1049798306E+002  +9.9886533732E-001 -8.7448840598E-002  +9.9815189712E-001 -1.8989929522E-001  +1.3152955739E-003 +9.2479977540E+001 
429797617.266 +7.8047808397E-004 -1.6992830216E+002  +9.9807786387E-001 -2.0087134793E-001  +9.9927208047E-001 -2.1363271080E-001  +3.6664693290E-004 +7.2675560214E+001 
437207765.839 +1.4332961958E-003 +1.2149135046E+002  +9.9867419187E-001 -1.8949007426E-001  +1.0002067758E+000 -2.2993109197E-001  +1.0222196518E-003 -9.4835152899E+001 
444617914.413 +1.0142571089E-003 -1.7572886753E+002  +1.0007596488E+000 -1.1994783656E-001  +9.9809234998E-001 -1.9992748075E-001  +1.6986012511E-004 -1.4625773644E+002 
452028062.986 +1.3768073942E-003 +6.1895773117E+001  +1.0005418431E+000 -1.0203560420E-001  +9.9863661674E-001 -3.0809423460E-001  +5.0506842507E-004 +1.6368759167E+002 
459438211.560 +1.0764169316E-003 +3.3677745000E+001  +1.0004026793E+000 -1.9762234665E-001  +9.9964088317E-001 -1.3852855318E-001  +1.1703113918E-003 -8.9135494915E+001 
466848360.133 +9.9040334583E-004 -1.3231587357E+002  +9.9883141234E-001 -2.0887267633E-001  +9.9884247290E-001 -1.8240161602E-001  +8.1167348214E-004 -3.3665222120E+001 
474258508.707 +1.6144334938E-003 +1.6531846962E+002  +1.0001162676E+000 -1.1974926246E-001  +1.0018742137E+000 -1.8965904059E-001  +5.9874972431E-004 +1.0799889385E+002 
481668657.280 +9.8247035936E-004 +6.1065546286E+001  +1.0000060689E+000 -1.9764394962E-001  +9.9914949883E-001 -1.3416651214E-001  +2.7703438951E-004 -5.4873442082E+001 
489078805.854 +2.4258277702E-004 +1.3655433758E+002  +9.9941093637E-001 -2.2401076003E-001  +1.0001994331E+000 -1.9373932063E-001  +1.7037085688E-004 -2.0352007076E+001 
496488954.428 +1.2358887044E-003 +7.8142786357E+001  +9.9895936072E-001 -1.8563997487E-001  +1.0007139431E+000 -1.8336414127E-001  +8.3326806690E-004 -1.2409498129E+002 
503899103.001 +1.0858372719E-003 +1.9310709552E+001  +1.0000296719E+000 -2.4212715750E-001  +1.0008432426E+000 -1.1056443832E-001  +1.2242408926E-003 -8.5049752790E+001 
511309251.575 +1.1992357957E-003 +9.3695781654E+001  +1.0014292678E+000 -1.8663487574E-001  +1.0004893457E+000 -1.8325852637E-001  +8.5634564781E-004 +9.2590653203E+001 
518719400.148 +6.9171094190E-004 +9.8902446624E+001  +1.0016988815E+000 -1.9010050389E-001  +1.0012056564E+000 -1.3634134744E-001  +1.5802737254E-004 +1.1778167606E+002 
526129548.722 +2.2651374869E-003 -2.2689275166E+001  +9.9819268494E-001 -1.1074833179E-001  +9.9947216349E-001 -1.2416270144E-001  +7.2567393775E-004 +1.3462986380E+002 
533539697.295 +6.5309169346E-004 +1.6212790633E+002  +9.9990579098E-001 -1.6603215959E-001  +1.0006805971E+000 -1.5636998808E-001  +1.2177984972E-003 -2.0975516212E+001 
540949845.869 +8.6726227808E-004 +4.3720866755E+001  +1.0007377104E+000 -2.4116412257E-001  +1.0006560658E+000 -2.5857075743E-001  +1.5852101203E-003 +1.3332843205E+002 
548359994.442 +9.7815578656E-004 +8.7619294716E+001  +9.9979015215E-001 -2.2237671114E-001  +1.0003810254E+000 -1.4337095654E-001  +9.1016997990E-004 -1.3344338953E+002 
555770143.016 +1.5856813363E-003 +1.5654484663E+002  +1.0007883379E+000 -2.0750535627E-001  +1.0005372172E+000 -1.8234523944E-001  +5.6808882356E-004 +1.7790192275E+002 
563180291.589 +1.0307297728E-003 +1.3934963761E+002  +9.9978056986E-001 -2.2693902945E-001  +9.9934638877E-001 -2.2495218630E-001  +6.8170116449E-004 -6.8618651818E+001 
570590440.163 +1.6081744212E-003 +1.7036205315E+002  +1.0004327483E+000 -2.2921370871E-001  +9.9933986211E-001 -2.0822955648E-001  +7.7868688247E-004 +1.0671373825E+002 
578000588.737 +3.4609184481E-004 +1.0401057453E+002  +9.9827079329E-001 -2.0550052444E-001  +1.0008870461E+000 -2.2903566934E-001  +3.2302607914E-004 -1.3473743075E+002 
585410737.310 +1.0460579432E-003 -1.1572281125E+002  +1.0002440370E+000 -3.0274396521E-001  +1.0008951976E+000 -3.2786131377E-001  +9.3625993951E-004 -1.0612037127E+002 
592820885.884 +5.2665954901E-004 -1.5977449500E+002  +9.9967528487E-001 -2.1600195856E-001  +1.0017892698E+000 -2.8843287395E-001  +1.9651665381E-003 -1.0643944915E+002 
600231034.457 +5.2468748800E-004 +7.9999164453E+000  +9.9879120490E-001 -2.5177222499E-001  +1.0005764136E+000 -1.3209837951E-001  +8.1437229011E-004 +8.5211972387E+001 
607641183.031 +8.4118869924E-004 -2.4246207266E+000  +9.9993075327E-001 -2.4086010356E-001  +9.9966733735E-001 -2.1295723045E-001  +2.5325365946E-004 +9.2856950599E+001 
615051331.604 +9.7666199788E-004 -2.5651436676E+001  +9.9978167424E-001 -1.6915636930E-001  +1.0000979354E+000 -2.7344406698E-001  +7.2477042052E-004 +1.3112247988E+002 
622461480.178 +1.2030650952E-003 -4.5062453696E+001  +9.9993300410E-001 -2.0367409360E-001  +9.9850373733E-001 -2.0751925898E-001  +8.8677175626E-004 -1.5360617718E+002 
629871628.751 +1.4176810882E-004 +9.8562094958E+001  +9.9826592223E-001 -1.5963216428E-001  +1.0001542537E+000 -1.8338309542E-001  +5.6356690634E-004 +5.1128151422E+001 
637281777.325 +1.4532559871E-003 -2.5680450299E+000  +9.9921785104E-001 -2.3724844678E-001  +9.9766548124E-001 -2.9989107383E-001  +1.0753298202E-003 -4.5393646780E+001 
644691925.898 +1.1456630097E-003 -8.6378550894E+001  +9.9835320767E-001 -2.9592847885E-001  +1.0000035497E+000 -2.5835015619E-001  +1.0859532366E-003 +1.1428813663E+002 
652102074.472 +7.3957654887E-004 -1.7696432812E+002  +1.0001388792E+000 -3.0129895315E-001  +1.0009940651E+000 -2.9303757692E-001  +4.7513487352E-004 -3.7833665555E+001 
659512223.046 +6.2119718354E-004 +9.0472148617E+001  +9.9916724053E-001 -1.9148301905E-001  +9.9916342233E-001 -2.5464310867E-001  +7.7817505826E-004 +1.4282957484E+002 
666922371.619 +9.5566293670E-004 +1.3659237033E+002  +1.0004490729E+000 -2.2040824543E-001  +9.9934082585E-001 -1.8657552679E-001  +5.9507514573E-004 +1.3594034153E+002 
674332520.193 +2.4312909289E-003 -7.9615538798E+001  +9.9900926978E-001 -1.7514103842E-001  +1.0002499731E+000 -2.1105520616E-001  +8.1497520391E-004 +4.4296436066E+001 
681742668.766 +6.0859459700E-004 +2.8997513977E+000  +1.0002622435E+000 -2.8507315537E-001  +1.0000934732E+000 -3.0659365722E-001  +2.2745529419E-004 +1.7432499112E+002 
689152817.340 +1.3921746967E-003 -1.0346792607E+002  +1.0005249994E+000 -2.4385219410E-001  +1.0005468451E+000 -2.9236302638E-001  +1.1754698412E-003 -1.7974240044E+002 
696562965.913 +9.9909464620E-004 +2.8447810256E+001  +1.0007607032E+000 -2.2588581694E-001  +1.0010130665E+000 -3.4157355089E-001  +3.7701730290E-004 -5.9232769611E+000 
703973114.487 +4.1290596827E-004 +8.5094116646E+001  +9.9952102989E-001 -3.5408151411E-001  +1.0006150991E+000 -1.8932601731E-001  +6.9693910646E-004 -1.5443195200E+001 
711383263.060 +2.1728069914E-003 -2.9877471151E+001  +9.9900595765E-001 -2.1384430804E-001  +1.0016479262E+000 -3.3287754018E-001  +8.0086940090E-004 +1.1783008969E+002 
718793411.634 +1.0056097232E-003 -5.0881206045E+001  +1.0001834957E+000 -2.4906744873E-001  +1.0000623646E+000 -2.1876809262E-001  +6.9511450836E-004 +1.4528745557E+002 
726203560.207 +1.2969911134E-003 -6.8370572439E+001  +9.9946309960E-001 -3.4518368632E-001  +9.9955887952E-001 -3.3299754452E-001  +1.3294767546E-003 -7.2131829741E+001 
733613708.781 +1.2214520713E-003 -1.5272074961E+002  +9.9991805731E-001 -3.2820391033E-001  +1.0000695309E+000 -1.6135733576E-001  +7.8555184007E-004 -4.3746735708E+001 
741023857.355 +2.3897328619E-003 -1.3647380220E+002  +1.0007532796E+000 -2.0353189075E-001  +9.9828872644E-001 -2.2452257344E-001  +2.9765486566E-004 -8.2694227002E+001 
748434005.928 +7.6803134945E-004 -1.2252800598E+002  +9.9973161304E-001 -3.2522994368E-001  +1.0000740977E+000 -2.5421785981E-001  +4.8460815531E-004 +1.4632175599E+002 
755844154.502 +6.4920872145E-004 +8.2047254303E+001  +9.9889819956E-001 -2.4230056417E-001  +1.0009198566E+000 -3.3242192142E-001  +9.4245884021E-004 -1.7222154300E+002 
763254303.075 +6.8664202592E-004 -1.3155272252E+002  +9.9798270882E-001 -3.2264476315E-001  +9.9876200139E-001 -3.2212972176E-001  +5.8921900495E-004 -9.6004448669E+001 
770664451.649 +2.0412621501E-003 -6.7183960740E+001  +9.9822511891E-001 -3.1271158864E-001  +9.9900331436E-001 -3.6515999266E-001  +6.9246391872E-004 +7.0772948890E+001 
778074600.222 +7.1366202028E-004 -9.6539761187E+001  +1.0004096317E+000 -3.0026497399E-001  +9.9957116537E-001 -2.5596608941E-001  +1.1059383843E-003 -8.3926779380E+001 
785484748.796 +9.1505132856E-004 -1.0913459589E+001  +9.9944983184E-001 -3.1950414762E-001  +1.0003138883E+000 -3.3459834337E-001  +4.8224091070E-004 -4.9550233756E+001 
792894897.369 +1.5848446099E-003 +1.5920325837E+002  +9.9925055728E-001 -3.7414626908E-001  +1.0005928921E+000 -3.0450624234E-001  +6.9931548277E-004 +8.5248448208E+001 
800305045.943 +9.3673216827E-004 +2.8205380090E+001  +1.0007956825E+000 -4.0590166106E-001  +9.9999361785E-001 -2.6238772379E-001  +2.6539833631E-003 +1.2341780360E+002 
807715194.516 +1.5506400466E-003 +1.1609879178E+002  +9.9850241499E-001 -2.6611775371E-001  +9.9886729813E-001 -2.2604218751E-001  +1.1249691059E-003 +1.6843909729E+002 
815125343.090 +1.1566447644E-003 +4.7922256389E+001  +9.9860538089E-001 -3.2898246418E-001  +1.0007353360E+000 -3.0048462213E-001  +4.3720314498E-004 +1.1132475044E+001 
822535491.664 +9.4203944298E-004 +1.3581140504E+002  +9.9733770129E-001 -3.6527674337E-001  +9.9955570460E-001 -1.9583890555E-001  +1.9128254257E-003 -1.2412044436E+002 
829945640.237 +5.5557570298E-004 -9.6352078166E+001  +9.9878250201E-001 -3.3637310083E-001  +9.9822626052E-001 -3.7546333448E-001  +4.1748747215E-004 -3.8335933012E+001 
837355788.811 +1.8783517828E-004 +5.9526253243E+001  +9.9849677103E-001 -2.5507178143E-001  +9.9986588919E-001 -3.9169435920E-001  +8.4413585429E-004 +2.1726878264E+001 
