!  2-Port S-parameters saved by WinCal
! VAR MeasName=S-Parameters (CALIBRATED_DATA) read from VNA (P5004A)
! VAR MeasDate=27/08/2024 11:42:12
! VAR NAME=AXh_HCoxMem_WaferThru_27_08_24
! VAR FILENAME=AXh_HCoxMem_WaferThru_27_08_24.S2P
! VAR DATE=27/08/2024 11:42:12
! VAR PHYS_PORTS=1,2
! VAR ObjTypeName=DATASET
! VAR IndexType=Frequency
!
# Hz S MA R 50
9000.000 +1.9949696402E-001 +5.7600410403E+001  +3.2821862864E-002 -1.6231512049E+001  +1.9154927232E-002 -2.8329840570E+000  +3.8853302777E-001 -1.1909813742E+002 
7419148.574 +4.3809735817E-002 +3.0744269434E+001  +9.8333332642E-001 +6.7522671905E-001  +9.8394511996E-001 +1.0970329886E+000  +5.4035807078E-002 +6.9344353660E+001 
14829297.147 +8.1304771255E-003 -6.8276354388E+001  +1.0006624218E+000 -9.0140233157E-001  +9.8710063389E-001 +3.9700220742E-001  +1.0713490619E-002 -1.4951278124E+002 
22239445.721 +8.2714250374E-003 -8.1913962037E+000  +9.8450313144E-001 -1.6547719898E-002  +9.9118130017E-001 +7.1001008708E-002  +1.1205231903E-002 +1.2198180518E+002 
29649594.294 +1.5610212483E-003 -1.2983713930E+002  +9.9920880818E-001 -6.8566185375E-002  +9.9047482634E-001 +1.2897880409E-001  +2.4514100005E-003 -1.1363731012E+002 
37059742.868 +7.0662411189E-003 +5.4874240178E+001  +9.9147477890E-001 +3.1571040941E-001  +9.9860113719E-001 +1.4408647392E-001  +8.4513982655E-003 -1.6340939670E+001 
44469891.441 +2.0570343587E-002 -9.8399259241E+000  +9.9834928336E-001 -1.7990734069E-001  +9.8944847545E-001 +7.1133981887E-002  +1.0706313161E-002 +2.5000539654E+001 
51880040.015 +1.1096246175E-002 +7.6597659576E+000  +9.9397694173E-001 -1.5350520296E-001  +9.9515823430E-001 -5.4851605031E-002  +7.8573677470E-003 +1.0158811530E+001 
59290188.588 +6.3609726168E-003 -2.1319010256E+001  +9.9090062426E-001 -7.3845492265E-002  +9.9346475523E-001 +7.3694429032E-002  +6.0728566765E-003 -3.4805209603E+001 
66700337.162 +2.8614745637E-003 -4.8138639311E+001  +9.9043527827E-001 -4.2621652302E-002  +9.9099397373E-001 -1.7318555336E-001  +1.1178669437E-002 -2.1793442895E+001 
74110485.735 +7.2641133796E-003 +4.2670537985E+000  +9.9500038837E-001 -8.5152549976E-002  +9.9375971787E-001 -1.3376742395E-001  +9.5142361961E-003 -4.6436983878E+001 
81520634.309 +7.1882084612E-003 -1.2637985266E+001  +9.9441396694E-001 -5.5817338568E-002  +9.9720272543E-001 +4.2118361157E-002  +6.2659626344E-003 -1.3373442010E+000 
88930782.883 +6.3126387462E-003 -2.9899867849E+001  +9.9526932919E-001 -7.2895131809E-002  +9.9474871431E-001 -1.4171001646E-001  +7.0752818494E-003 -2.1492967483E+000 
96340931.456 +5.6360895005E-003 -1.6546312855E+001  +9.9404891524E-001 -1.3655424642E-001  +9.9085366155E-001 -3.3868198904E-002  +7.0034956737E-003 +1.9425312078E-001 
103751080.030 +6.1968784239E-003 -6.0129252746E+000  +9.9451796403E-001 -6.1776222964E-002  +9.9275074042E-001 -2.5162116862E-002  +5.5554925819E-003 -2.6010680609E+001 
111161228.603 +8.5525378192E-003 -5.5886546101E+000  +9.9262570311E-001 -9.6923982987E-002  +9.9250365516E-001 -9.5650727985E-002  +7.0541958264E-003 -1.9852729547E+001 
118571377.177 +5.7636604918E-003 -9.8726702312E+000  +9.9249662170E-001 -1.9476207572E-001  +9.9480666655E-001 -1.4885084608E-001  +6.4040826526E-003 -2.2255956526E+001 
125981525.750 +6.0370238092E-003 -2.1211288622E+001  +9.9526646629E-001 -1.8966063272E-001  +9.9397055795E-001 -3.2894452549E-002  +5.6399760515E-003 -1.9354959872E+001 
133391674.324 +6.9815666708E-003 -1.4407556543E+001  +9.9280270499E-001 -5.7634733602E-002  +9.9264458971E-001 -1.1000170144E-001  +7.1475719198E-003 -3.0329241966E+000 
140801822.897 +8.4655432341E-003 -6.1746310541E+000  +9.9246107888E-001 -9.7061356947E-002  +9.9397375375E-001 -1.3216330095E-001  +6.0239057965E-003 -3.1928986613E+001 
148211971.471 +6.5750572959E-003 -8.1411304947E+000  +9.9296845853E-001 -1.5288815337E-001  +9.9259991232E-001 -5.3021634513E-002  +5.9161963119E-003 -1.2986825809E+001 
155622120.044 +6.5488041445E-003 -1.4831835793E+001  +9.9166405795E-001 -1.4338800824E-001  +9.9145207245E-001 -1.0241478801E-001  +7.0188388222E-003 -1.1334274531E+001 
163032268.618 +8.1968010404E-003 -1.7173559634E+001  +9.9230623687E-001 -2.7665538104E-001  +9.9351806041E-001 -1.6968628689E-001  +7.5021333355E-003 -1.0619818471E+001 
170442417.192 +6.3478491693E-003 -3.8875754712E+001  +9.9226527069E-001 -1.8392730353E-001  +9.9243008478E-001 -2.4794034284E-001  +7.0679822304E-003 -1.3184549847E+001 
177852565.765 +6.5032986454E-003 -2.1959761734E+001  +9.9437289204E-001 -2.3032401687E-001  +9.9309576564E-001 -2.8983072727E-001  +6.2901234007E-003 -1.4514671522E+001 
185262714.339 +6.6497503776E-003 -6.0849063440E+000  +9.9356685375E-001 -2.3374509307E-001  +9.9232496050E-001 -2.8308564314E-001  +6.6104523344E-003 -1.5178527825E+001 
192672862.912 +9.4507804947E-003 -2.3406681617E+001  +9.9171423903E-001 -1.5891673304E-001  +9.9297641692E-001 -2.7780998259E-001  +7.5844187416E-003 -2.7000877359E+001 
200083011.486 +7.2862756836E-003 -2.8933923456E+001  +9.9346830637E-001 -2.0660737072E-001  +9.9299648820E-001 -2.2857372962E-001  +7.6575996271E-003 -2.2091690660E+001 
207493160.059 +7.8784249359E-003 -2.4890797187E+001  +9.9311176227E-001 -3.2164985809E-001  +9.9254457075E-001 -2.4533288011E-001  +9.0506049291E-003 -2.1954719347E+001 
214903308.633 +7.1293185230E-003 -2.8060041191E+001  +9.9153989239E-001 -4.1193728007E-001  +9.9368505923E-001 -1.9633089301E-001  +6.0303943475E-003 -3.0789867312E+001 
222313457.206 +6.8570411228E-003 -2.2236082693E+001  +9.9356812275E-001 -2.4307129392E-001  +9.9253219919E-001 -2.6868370556E-001  +7.8373106511E-003 -2.2593836320E+001 
229723605.780 +7.1043216348E-003 -2.1308141142E+001  +9.9299494117E-001 -2.5701641198E-001  +9.9376346212E-001 -3.4098621128E-001  +8.0560588674E-003 -1.7258254409E+001 
237133754.353 +7.0201155296E-003 -1.9782404513E+001  +9.9131583716E-001 -3.5593744569E-001  +9.9183567766E-001 -2.3198836167E-001  +7.0824660303E-003 -3.2069460951E+001 
244543902.927 +7.2349144388E-003 -1.1255216610E+001  +9.9393535748E-001 -3.9990796984E-001  +9.9345855320E-001 -3.3016776471E-001  +6.6602038933E-003 -2.9206947807E+001 
251954051.501 +7.6903300643E-003 -2.2195659165E+001  +9.9283187947E-001 -3.3919756072E-001  +9.9402698062E-001 -2.9320358483E-001  +6.6553726382E-003 -1.8125102804E+001 
259364200.074 +7.6095001060E-003 -2.2997925554E+001  +9.9341236641E-001 -3.1685048316E-001  +9.9486688597E-001 -3.0702436633E-001  +9.0860931920E-003 -2.0558824903E+001 
266774348.648 +5.9908478544E-003 -2.6919554482E+001  +9.9554947365E-001 -3.1068764837E-001  +9.9159278349E-001 -3.9348488220E-001  +7.1785126433E-003 -2.9692814945E+001 
274184497.221 +6.0412564829E-003 -3.3551545625E+001  +9.9225023537E-001 -2.7340127851E-001  +9.9416135431E-001 -1.9417229415E-001  +8.0391298246E-003 -2.5925604106E+001 
281594645.795 +7.2018659913E-003 -2.3117335932E+001  +9.9246523117E-001 -4.1679401127E-001  +9.9381377037E-001 -3.5734862899E-001  +8.0296299756E-003 -3.0225446579E+001 
289004794.368 +7.4049817231E-003 -2.8650952980E+001  +9.9229545726E-001 -3.0843691277E-001  +9.9425004866E-001 -3.7265752422E-001  +6.6484082236E-003 -2.3944800148E+001 
296414942.942 +8.7028765853E-003 -2.2084641243E+001  +9.9150709647E-001 -2.8495200964E-001  +9.9309930997E-001 -3.2231587548E-001  +7.0814885714E-003 -2.5466165106E+001 
303825091.515 +6.9265715180E-003 -2.5712881073E+001  +9.9500783781E-001 -2.5660436717E-001  +9.9353229152E-001 -4.0763423531E-001  +6.7938491786E-003 -2.5322579037E+001 
311235240.089 +7.9240952077E-003 -3.2230055981E+001  +9.9277700082E-001 -2.9925389215E-001  +9.9336978088E-001 -2.8720498975E-001  +7.9706391275E-003 -3.1193251205E+001 
318645388.662 +7.8527818130E-003 -3.1275361691E+001  +9.9323609705E-001 -3.8670570617E-001  +9.9235424773E-001 -4.0530817494E-001  +8.6766685414E-003 -2.8275673438E+001 
326055537.236 +8.7051774216E-003 -2.8171111776E+001  +9.9519784531E-001 -4.5359012743E-001  +9.9302445465E-001 -4.0962419556E-001  +6.6579831339E-003 -2.5555430727E+001 
333465685.810 +7.0417415630E-003 -2.9925993450E+001  +9.9213473818E-001 -3.0368154264E-001  +9.9414974223E-001 -4.5198140030E-001  +8.4090585608E-003 -2.7478950568E+001 
340875834.383 +6.6637369819E-003 -2.4159235062E+001  +9.9153335322E-001 -4.0726085566E-001  +9.9311290153E-001 -4.0955418477E-001  +7.7221973268E-003 -3.1737619040E+001 
348285982.957 +8.2634151391E-003 -2.3812154633E+001  +9.9313725308E-001 -3.3700013559E-001  +9.9319461328E-001 -4.2691769547E-001  +8.8677175487E-003 -3.4007512132E+001 
355696131.530 +8.5524160566E-003 -2.9145667092E+001  +9.9211069478E-001 -3.5882953260E-001  +9.9311955766E-001 -3.5306090275E-001  +7.5424536494E-003 -4.0866725947E+001 
363106280.104 +8.1057087516E-003 -3.1749303083E+001  +9.9257574384E-001 -3.7340828762E-001  +9.9410190211E-001 -3.8439181036E-001  +9.1630216361E-003 -3.0885515632E+001 
370516428.677 +8.4168340859E-003 -3.7327458812E+001  +9.9289541869E-001 -5.1576120126E-001  +9.9262138373E-001 -3.0847497825E-001  +8.8278754223E-003 -3.4316684534E+001 
377926577.251 +8.5212187902E-003 -3.4048996598E+001  +9.9433690017E-001 -4.4711872607E-001  +9.9258425869E-001 -4.9061451101E-001  +7.1440263648E-003 -4.1193097138E+001 
385336725.824 +7.9244637719E-003 -3.5742935177E+001  +9.9395243684E-001 -4.0506190695E-001  +9.9334815259E-001 -4.1326827052E-001  +9.4054124613E-003 -3.6493057311E+001 
392746874.398 +8.2527696164E-003 -3.3216614731E+001  +9.9432990131E-001 -4.4384197549E-001  +9.9441102379E-001 -5.1369834808E-001  +7.9723132586E-003 -4.1704173194E+001 
400157022.971 +8.5905673489E-003 -3.6166114795E+001  +9.9183784800E-001 -5.6561307379E-001  +9.9160203880E-001 -4.2122949751E-001  +8.3914869465E-003 -4.1104034288E+001 
407567171.545 +7.4675507062E-003 -4.7766476395E+001  +9.9224757301E-001 -3.6611460518E-001  +9.9286482023E-001 -5.4354303323E-001  +8.3795012140E-003 -3.3816486665E+001 
414977320.119 +7.4247709814E-003 -4.3051039480E+001  +9.9009457975E-001 -4.1208331085E-001  +9.9353585354E-001 -4.9162785115E-001  +8.0055169774E-003 -3.8281972228E+001 
422387468.692 +8.9873165325E-003 -3.8342592911E+001  +9.9221332392E-001 -4.8372285759E-001  +9.9220657116E-001 -5.1863026461E-001  +7.0320125012E-003 -3.8301533176E+001 
429797617.266 +8.7723153064E-003 -3.6539889787E+001  +9.9145626668E-001 -5.4443410488E-001  +9.9205244856E-001 -4.8537369892E-001  +8.2878597787E-003 -3.4151040445E+001 
437207765.839 +7.7809663778E-003 -3.3279330916E+001  +9.9283323425E-001 -5.1757708702E-001  +9.9171724192E-001 -5.3317003752E-001  +9.2120787833E-003 -3.8914026335E+001 
444617914.413 +8.6157094683E-003 -3.9319734622E+001  +9.9299005638E-001 -4.9338043250E-001  +9.9080525946E-001 -5.9284930793E-001  +8.9920707227E-003 -3.9644046947E+001 
452028062.986 +8.7413121331E-003 -2.9782424855E+001  +9.9430096524E-001 -5.6150522221E-001  +9.9328640698E-001 -6.3162827606E-001  +8.0996796186E-003 -4.1388109338E+001 
459438211.560 +9.1175100363E-003 -3.8133993481E+001  +9.9095511409E-001 -6.0013506077E-001  +9.9282588936E-001 -5.1328618715E-001  +1.0249776711E-002 -4.2024210967E+001 
466848360.133 +8.0686207660E-003 -3.9761779382E+001  +9.9130469840E-001 -5.2041818221E-001  +9.9198649317E-001 -5.6934299554E-001  +8.6747625965E-003 -3.7059710355E+001 
474258508.707 +7.3073848506E-003 -4.7781792355E+001  +9.9385029247E-001 -5.3468200682E-001  +9.9407108693E-001 -5.5885822826E-001  +8.7049638761E-003 -3.7826606554E+001 
481668657.280 +8.7343112523E-003 -3.8358524492E+001  +9.9260787037E-001 -5.8856890331E-001  +9.9296713782E-001 -5.4119119967E-001  +9.0603345349E-003 -4.5720653513E+001 
489078805.854 +8.7640464392E-003 -4.5186111849E+001  +9.9117087498E-001 -5.2227674523E-001  +9.9293034565E-001 -5.8754751499E-001  +9.2177643577E-003 -4.5971602345E+001 
496488954.428 +8.6288547943E-003 -3.6110173246E+001  +9.9327574938E-001 -4.7546919449E-001  +9.9210790056E-001 -5.7030432917E-001  +8.6281965455E-003 -3.8688690625E+001 
503899103.001 +8.9023738796E-003 -3.1650216821E+001  +9.9442340894E-001 -4.6748505109E-001  +9.9339614867E-001 -5.6827892768E-001  +8.5386971244E-003 -4.3017400519E+001 
511309251.575 +7.8846114044E-003 -4.1192509120E+001  +9.9430273483E-001 -5.4755368661E-001  +9.9281860793E-001 -6.1618445514E-001  +9.2514488675E-003 -4.5013976941E+001 
518719400.148 +8.8595577994E-003 -4.5747118703E+001  +9.9445361043E-001 -6.6832917378E-001  +9.9299823841E-001 -5.4905633486E-001  +9.0195186978E-003 -4.2096733052E+001 
526129548.722 +1.0926846071E-002 -3.7976150927E+001  +9.9125672105E-001 -5.8035221887E-001  +9.9314774657E-001 -5.3274356728E-001  +8.7957619801E-003 -4.2058701748E+001 
533539697.295 +8.8582037750E-003 -4.0629068311E+001  +9.9395480493E-001 -5.6697337215E-001  +9.9407101569E-001 -5.7783927862E-001  +1.0439289542E-002 -4.5513559619E+001 
540949845.869 +8.5688739512E-003 -3.8835592544E+001  +9.9357724032E-001 -5.7244452599E-001  +9.9373026406E-001 -6.4952883052E-001  +9.2408047761E-003 -4.9503037342E+001 
548359994.442 +8.2906317562E-003 -4.2619487972E+001  +9.9235539573E-001 -6.1170031018E-001  +9.9417803875E-001 -6.4738292061E-001  +9.8249701614E-003 -4.2520789358E+001 
555770143.016 +8.2842142693E-003 -5.2265630639E+001  +9.9268481723E-001 -6.0569670351E-001  +9.9336590270E-001 -6.5839162352E-001  +9.0096476387E-003 -4.4750521815E+001 
563180291.589 +8.7493118889E-003 -4.7988401797E+001  +9.9415578664E-001 -5.8868778911E-001  +9.9334817864E-001 -6.9355297671E-001  +9.0128221941E-003 -4.9591670239E+001 
570590440.163 +8.8037017430E-003 -5.3073778190E+001  +9.9269311303E-001 -7.4629471279E-001  +9.9213391557E-001 -7.3162041060E-001  +1.0351315542E-002 -4.8931925032E+001 
578000588.737 +1.0618167088E-002 -4.4677523876E+001  +9.9154166852E-001 -6.9241669599E-001  +9.9451019688E-001 -6.1154078249E-001  +9.4340277366E-003 -4.8526329136E+001 
585410737.310 +1.0353333708E-002 -5.1833751886E+001  +9.9109766474E-001 -6.8132058955E-001  +9.9273501755E-001 -6.1895072731E-001  +1.0285910544E-002 -4.7153214676E+001 
592820885.884 +8.5016165002E-003 -5.6021206923E+001  +9.9370431624E-001 -6.9143725888E-001  +9.9349149973E-001 -7.5926422729E-001  +9.9711237282E-003 -5.4283025714E+001 
600231034.457 +1.0713344586E-002 -4.7226211606E+001  +9.9232288453E-001 -7.3030248003E-001  +9.9260547157E-001 -6.1213111771E-001  +8.8563556047E-003 -4.2880132760E+001 
607641183.031 +1.0746473052E-002 -4.2006780245E+001  +9.9469292592E-001 -6.6026692349E-001  +9.9420910791E-001 -6.2894658548E-001  +9.7848563760E-003 -4.6901684850E+001 
615051331.604 +1.0173645713E-002 -4.4466756793E+001  +9.9298182234E-001 -6.8209647696E-001  +9.9277019243E-001 -7.7431031922E-001  +7.8659828128E-003 -4.6032099643E+001 
622461480.178 +1.0569045505E-002 -4.9197855722E+001  +9.9280217239E-001 -7.5039207679E-001  +9.9300443886E-001 -6.4449030185E-001  +1.0269748284E-002 -4.8764357390E+001 
629871628.751 +9.6344794062E-003 -4.8158003789E+001  +9.9124353122E-001 -6.5504488275E-001  +9.9167560371E-001 -7.6418479575E-001  +1.0353049819E-002 -4.7110847090E+001 
637281777.325 +1.1037599273E-002 -3.7489766069E+001  +9.9103424973E-001 -7.0191757324E-001  +9.9144336703E-001 -7.3201483086E-001  +1.2059386633E-002 -5.0362667961E+001 
644691925.898 +1.1048365152E-002 -4.7529020606E+001  +9.9084644098E-001 -7.5120371650E-001  +9.9215433708E-001 -7.0487211560E-001  +9.9152524583E-003 -4.3671301785E+001 
652102074.472 +1.1090519400E-002 -5.2208572994E+001  +9.9410705679E-001 -6.8697429720E-001  +9.9310055619E-001 -7.9243955705E-001  +1.0734631323E-002 -5.2540673631E+001 
659512223.046 +9.7530415209E-003 -4.7209180318E+001  +9.9184033845E-001 -6.4750498804E-001  +9.9363580041E-001 -8.0036444420E-001  +9.6614580653E-003 -5.3543486306E+001 
666922371.619 +9.1086485079E-003 -4.8018737155E+001  +9.9368290659E-001 -7.4221258910E-001  +9.9247850773E-001 -7.6529234517E-001  +1.0474806426E-002 -4.8592955582E+001 
674332520.193 +1.2094752184E-002 -5.1750140635E+001  +9.9237379553E-001 -7.4316937896E-001  +9.9187945837E-001 -7.1670932790E-001  +9.8894626275E-003 -4.8782243772E+001 
681742668.766 +1.0935873021E-002 -4.5465013104E+001  +9.9295643855E-001 -8.5010891072E-001  +9.9228793966E-001 -7.2997024081E-001  +1.1498159804E-002 -4.8697269224E+001 
689152817.340 +1.0714018832E-002 -5.2007590914E+001  +9.9292051597E-001 -7.4942120139E-001  +9.9391880307E-001 -7.3215885343E-001  +1.0573205206E-002 -5.5445505910E+001 
696562965.913 +1.0840790519E-002 -5.3332999024E+001  +9.9223117479E-001 -7.4487163060E-001  +9.9278584579E-001 -7.9083132502E-001  +1.0845711780E-002 -5.1754674078E+001 
703973114.487 +1.0183590785E-002 -4.8667632473E+001  +9.9241158430E-001 -8.8038724658E-001  +9.9259574917E-001 -8.1899953223E-001  +1.0990836047E-002 -5.3382543436E+001 
711383263.060 +1.2173474700E-002 -5.2225434353E+001  +9.9259844321E-001 -8.3548877248E-001  +9.9352894102E-001 -8.8171108637E-001  +1.0978572351E-002 -5.1584416673E+001 
718793411.634 +1.0202102402E-002 -5.2706035118E+001  +9.9245243042E-001 -8.1119997638E-001  +9.9143932602E-001 -9.1364189983E-001  +1.0634862895E-002 -4.9412871627E+001 
726203560.207 +1.1217095638E-002 -5.7636559981E+001  +9.9244472376E-001 -8.9722940482E-001  +9.9230324405E-001 -9.2805327723E-001  +1.1511982704E-002 -5.0846165972E+001 
733613708.781 +1.0749897086E-002 -5.0680012533E+001  +9.9247264625E-001 -9.5024884996E-001  +9.9210140651E-001 -7.3448127473E-001  +1.1224510019E-002 -5.8589499326E+001 
741023857.355 +1.1549944832E-002 -5.6240517340E+001  +9.9096687035E-001 -7.9122149426E-001  +9.9115254737E-001 -7.3262245528E-001  +1.1361227804E-002 -4.7012029542E+001 
748434005.928 +1.1478228095E-002 -5.7410615295E+001  +9.9314828619E-001 -8.0372176215E-001  +9.9335350832E-001 -8.1000034293E-001  +1.0844299851E-002 -5.1807109185E+001 
755844154.502 +1.0289352204E-002 -5.2370385298E+001  +9.9335132424E-001 -8.1493694134E-001  +9.9366948898E-001 -8.8454842302E-001  +1.0835286409E-002 -5.2859566267E+001 
763254303.075 +1.1232813451E-002 -5.6143942450E+001  +9.9258484061E-001 -9.0390221801E-001  +9.9275255027E-001 -9.5735046170E-001  +1.1656051374E-002 -5.3872022454E+001 
770664451.649 +1.2274905530E-002 -5.4471636238E+001  +9.9185820370E-001 -9.8024950144E-001  +9.9047743841E-001 -9.2423123863E-001  +1.0926818270E-002 -5.5637855782E+001 
778074600.222 +1.2605082359E-002 -5.7132026170E+001  +9.9231824149E-001 -8.9066467117E-001  +9.9318176259E-001 -9.0159815920E-001  +1.1546536297E-002 -5.9404160583E+001 
785484748.796 +1.1712866239E-002 -5.8804623274E+001  +9.9215247539E-001 -1.0139426320E+000  +9.9244875580E-001 -7.5905541210E-001  +1.3394273104E-002 -4.8481926643E+001 
792894897.369 +1.1906848978E-002 -5.9013432535E+001  +9.9182443580E-001 -9.4155728019E-001  +9.9291789377E-001 -8.9425973336E-001  +1.1590134129E-002 -4.9412421127E+001 
800305045.943 +1.1719905007E-002 -5.1646013697E+001  +9.9360567462E-001 -9.5054877479E-001  +9.9461740709E-001 -8.5733586421E-001  +1.0184977023E-002 -5.7011849684E+001 
807715194.516 +1.1616905416E-002 -5.0714425836E+001  +9.9235772107E-001 -9.3606141776E-001  +9.9182764511E-001 -9.2609980763E-001  +1.1496504829E-002 -5.7817670986E+001 
815125343.090 +1.1827147825E-002 -5.4601642718E+001  +9.9424930847E-001 -1.0177232142E+000  +9.9314824522E-001 -9.5832401350E-001  +1.1804236075E-002 -5.4252867899E+001 
822535491.664 +1.0533445646E-002 -5.7134621226E+001  +9.9112180183E-001 -9.9326186740E-001  +9.9316478330E-001 -9.7572875421E-001  +1.2662796867E-002 -5.9275712725E+001 
829945640.237 +1.2228751946E-002 -5.5754084363E+001  +9.9244859943E-001 -9.5037684375E-001  +9.9024990277E-001 -9.9050445936E-001  +1.1702130984E-002 -5.3804178953E+001 
837355788.811 +1.2567498550E-002 -5.3463108259E+001  +9.9142685654E-001 -8.3101842813E-001  +9.9155731658E-001 -1.0645413535E+000  +1.1307714103E-002 -5.4809936716E+001 
