!  2-Port S-parameters saved by WinCal
! VAR MeasName=S-Parameters (CALIBRATED_DATA) read from VNA (P5004A)
! VAR MeasDate=27/08/2024 14:17:19
! VAR NAME=S2_r2c8_SET1_9k-100M_1
! VAR FILENAME=S2_r2c8_SET1_9k-100M_1.S2P
! VAR DATE=27/08/2024 14:17:19
! VAR PHYS_PORTS=1,2
! VAR ObjTypeName=DATASET
! VAR IndexType=Frequency
!
# Hz S MA R 50
9000.000 +6.8338966643E-002 -1.3997693416E+002  +1.3391500136E-002 -9.6578494590E+001  +2.9297579688E-002 -2.9721152674E+001  +6.8117240681E-002 -8.8639510106E+001 
134145.181 +1.1118462014E-001 +1.6982655058E+002  +7.6131754695E-005 +7.2082577114E+000  +2.6504866811E-004 -1.1477861440E+001  +2.4384302868E-001 -1.7062451096E+002 
259290.363 +1.1121103163E-001 +1.6942104175E+002  +4.3766599017E-004 -4.8552341833E+001  +7.9505382622E-004 +1.2636163139E+002  +2.4503321737E-001 -1.6808526191E+002 
384435.544 +1.1339008949E-001 +1.6986993115E+002  +4.7118901181E-004 -1.6372082298E+002  +2.5990470146E-004 +7.5865754054E+001  +2.4004829844E-001 -1.6971051309E+002 
509580.726 +1.1445526254E-001 +1.7036293519E+002  +1.2891724940E-003 -2.5981629514E+001  +4.3613148402E-004 -1.5217201980E+002  +2.6025267941E-001 -1.6543030404E+002 
634725.907 +1.1537425293E-001 +1.7066311176E+002  +1.9167332964E-003 -1.0861824096E+002  +6.2005367845E-004 +5.2962303215E+001  +2.4786370018E-001 -1.6506651954E+002 
759871.089 +1.1771783179E-001 +1.6994241823E+002  +1.0342876365E-003 +1.6740791040E+002  +5.0558893252E-004 -5.0520322299E+000  +2.4465378777E-001 -1.6550418488E+002 
885016.270 +1.1800252541E-001 +1.6922102936E+002  +9.3248689409E-004 -7.0688847238E+001  +9.4815424538E-004 +1.1932982428E+001  +2.4068257614E-001 -1.6512653945E+002 
1010161.452 +1.1349333990E-001 +1.7386213150E+002  +7.4226164651E-003 -4.0982782750E+001  +1.1052561693E-002 +1.0366240356E+002  +2.2153924083E-001 -1.4258307969E+002 
1135306.633 +1.1595150612E-001 +1.6714282185E+002  +3.5092855086E-003 -6.6006724569E+001  +1.4747515774E-003 -9.3038767756E+000  +1.6843762475E-001 -1.5779604126E+002 
1260451.815 +1.2157704384E-001 +1.7132603254E+002  +1.7314835040E-003 +8.1260820902E+001  +1.4856221623E-003 +1.0523547158E+002  +2.3036771048E-001 -1.5728371508E+002 
1385596.996 +1.2480407865E-001 +1.7369027206E+002  +8.7082036517E-005 -2.1046794100E+001  +7.0312673899E-004 +9.3014076986E+001  +2.6775764332E-001 -1.6201839514E+002 
1510742.178 +1.2939186854E-001 +1.7056267101E+002  +3.3388409201E-004 -3.8819154303E+001  +4.7602341439E-004 +1.2940647999E+002  +2.6041893298E-001 -1.6107219718E+002 
1635887.359 +1.2874196033E-001 +1.7058783261E+002  +6.4591842558E-004 +2.1753585227E+001  +1.8009075267E-003 +1.3485276275E+002  +2.3899269310E-001 -1.5740171940E+002 
1761032.541 +1.2681752525E-001 +1.6870087429E+002  +5.9492527374E-004 +7.5496446288E+001  +5.0313311473E-004 +1.4389601737E+002  +2.0604769542E-001 -1.5626097473E+002 
1886177.722 +1.2423040035E-001 +1.6744059417E+002  +2.7587939063E-003 -2.9339375056E+001  +3.1907011651E-003 -1.4049317616E+002  +2.0709995598E-001 -1.5895724333E+002 
2011322.904 +1.2570770624E-001 +1.6620952109E+002  +2.4097799788E-003 +3.9506022101E+001  +1.6280668943E-003 -9.7375990687E+001  +2.1668870700E-001 -1.5498558275E+002 
2136468.085 +1.3111049385E-001 +1.6465491643E+002  +3.4173515259E-003 +3.6237352819E+001  +4.6584878607E-003 -7.7746548346E+001  +1.5166636743E-001 -1.6604855552E+002 
2261613.267 +1.3812382982E-001 +1.6537356799E+002  +7.2445972857E-004 +5.4277587718E+001  +1.0282707620E-002 -7.0534503112E+001  +9.2758640758E-002 +1.5267862690E+002 
2386758.448 +1.3762457153E-001 +1.6439627638E+002  +4.0443519372E-003 +1.0610384285E+002  +8.2537423926E-003 -3.7591220977E+001  +2.0437625079E-001 +1.6841065816E+002 
2511903.630 +1.3341921328E-001 +1.5751592924E+002  +1.1059267235E-002 +8.0806867491E+001  +6.6671656131E-003 -4.7060594565E+001  +1.7121598110E-001 +1.5826841741E+002 
2637048.811 +1.3979850698E-001 +1.6000758834E+002  +2.5223173387E-002 +4.6380375983E+001  +2.0958495291E-002 -6.1741305454E+001  +2.2928448585E-001 -4.8755364318E+001 
2762193.992 +8.6409913514E-002 +1.5898310317E+002  +4.3177029774E-002 -1.6745385701E+000  +3.3202558298E-002 -8.0120619152E+001  +1.4276498683E-001 -7.1683210860E+001 
2887339.174 +1.0318870593E-001 +1.7570229272E+002  +1.3831836162E-001 -1.2213637866E+002  +1.0564500100E-001 +1.6759328085E+002  +1.3943151792E+000 -8.6389377131E+001 
3012484.355 +1.0375268282E-001 +1.7455820163E+002  +1.8900418345E-002 -2.0269200381E+000  +3.6744819772E-002 -1.2190327788E+002  +1.4381902156E-001 -6.0232873946E+001 
3137629.537 +9.8339781855E-002 +1.6510476300E+002  +1.0457787873E-001 -9.7913518393E+000  +7.3929586742E-002 -1.1258824968E+002  +7.6978184862E-001 -1.3632778261E+001 
3262774.718 +1.2860112504E-001 +1.5923599916E+002  +1.7391553261E-002 -3.9654320703E+001  +8.9269408473E-003 -1.1884162375E+002  +3.4247773906E-001 -9.4559914550E+001 
3387919.900 +1.3497999557E-001 +1.6698869757E+002  +3.3235843284E-002 +4.2563281044E+001  +2.7330601745E-002 -8.1578270209E+001  +1.0174798964E-001 +4.2512086237E+001 
3513065.081 +1.5830256147E-001 +1.5476128257E+002  +2.6044820692E-002 +4.7395480328E+001  +4.3012993131E-002 -2.6810997922E+001  +2.9627213754E-001 +3.9363869459E+001 
3638210.263 +1.5377211818E-001 +1.2849866295E+002  +4.6401895448E-002 +8.7933725112E+001  +5.9420333493E-002 -1.3391058223E+001  +3.6799988503E-001 +6.0285838223E+001 
3763355.444 +1.3429813282E-001 +1.5104495279E+002  +2.8822055560E-002 +8.3862822749E+001  +2.1614918951E-002 -1.1175592286E+001  +4.1255125123E-001 +1.3985635028E+002 
3888500.626 +1.6850849039E-001 +1.4410473784E+002  +2.2630066331E-002 +6.3399386425E+001  +4.3474178153E-002 -2.3973894165E+001  +3.3904282539E-001 +4.9410200551E+001 
4013645.807 +1.9267759569E-001 +1.5565028178E+002  +1.4232056986E-002 +9.6830894558E+001  +2.1880440884E-002 +2.2244494123E+001  +5.6809205951E-001 +1.3091002361E+002 
4138790.989 +1.6321101818E-001 +1.4061162015E+002  +2.5337863665E-002 +7.4642915291E+001  +3.1455324956E-002 -2.6033295715E+000  +2.8986090967E-001 +1.2488950756E+002 
4263936.170 +1.9176724738E-001 +1.4505742011E+002  +2.1936690502E-002 +8.3651235188E+001  +1.6914368016E-002 +2.1086386099E+001  +3.6508757367E-001 +1.5098450843E+002 
4389081.352 +1.9156023553E-001 +1.4449629827E+002  +2.8695447237E-002 +7.0704407126E+001  +2.8190816715E-002 +1.7998250510E+001  +3.5736641452E-001 +9.8093129041E+001 
4514226.533 +2.8762968068E-001 +1.3249407097E+002  +5.8901504960E-002 +1.1850183879E+002  +5.7561790703E-002 +6.7035325963E+001  +5.6039923102E-001 +1.0546963484E+002 
4639371.715 +2.0964624714E-001 +1.1670363968E+002  +6.7017613908E-002 +7.9942450416E+001  +8.2020324176E-002 +6.9875273063E+001  +9.4041076956E-001 +1.2174757512E+002 
4764516.896 +3.2331654915E-001 +1.2247065174E+002  +4.0937035173E-001 +1.1408482969E+002  +4.0974650548E-001 +7.5481018438E+001  +5.4940500791E+000 +8.8357307218E+001 
4889662.078 +6.1727111062E-001 +1.1376823277E+002  +1.1946142021E+000 +8.6252464072E+000  +6.6553266518E-001 -5.8966072196E+001  +8.5140125370E+000 -7.9145061784E+001 
5014807.259 +3.5193089543E-001 +1.1145644824E+002  +3.7947582264E-001 -6.4012601810E+001  +3.4316958932E-001 -1.1983525683E+002  +4.2627252988E+000 -1.1303210331E+002 
5139952.441 +4.3131882567E-001 +1.3625164468E+002  +2.4553791985E-001 +1.5090683239E+002  +2.6177585036E-001 +1.2202917911E+002  +5.0041819913E+000 +1.0678950284E+002 
5265097.622 +3.9900018459E-001 +1.2069687576E+002  +1.1336554825E-001 +8.4056524348E+001  +1.0555153801E-001 +5.7396138555E+001  +1.0237590115E+000 +6.1995599994E+001 
5390242.804 +3.5552654545E-001 +1.1703189559E+002  +8.4573437786E-002 +1.1051775751E+002  +5.5203278686E-002 +6.5132957200E+001  +1.1911357711E+000 +1.2750064631E+002 
5515387.985 +4.6240162578E-001 +1.3138024124E+002  +1.3425340603E-001 +8.5142083784E+001  +1.6952647156E-001 +5.3205400000E+001  +2.7687732921E+000 +4.8878985221E+001 
5640533.166 +4.2127909449E-001 +1.3203255052E+002  +1.0269822123E-001 +1.0080638180E+002  +1.1104725389E-001 +6.6572070020E+001  +2.3286389340E+000 +9.2260967298E+001 
5765678.348 +4.9065183269E-001 +1.3189850209E+002  +5.3093919458E-002 +9.1608146707E+001  +6.5975500650E-002 +5.4637225344E+001  +1.0302311393E+000 +6.4426722758E+001 
5890823.529 +4.9731045433E-001 +1.2505554641E+002  +1.0478984940E-001 +8.4961713787E+001  +1.0811694311E-001 +5.9404757334E+001  +2.0047535088E+000 +7.9914466812E+001 
6015968.711 +6.9961798679E-001 +1.2143463673E+002  +1.2685653919E-001 +1.1594924955E+002  +1.0121007294E-001 +8.5359694663E+001  +1.9873258619E+000 +9.6522963178E+001 
6141113.892 +7.7401320146E-001 +1.0619802209E+002  +1.7366072829E-001 +4.2460896649E+001  +1.5091243271E-001 +2.3609470174E+001  +2.1443589757E+000 +5.2335826766E+000 
6266259.074 +7.8006380108E-001 +9.2146483611E+001  +1.7714842450E-001 +4.2408944869E+001  +1.5252551114E-001 +3.7378568675E+001  +1.5963226694E+000 +2.5513075671E+001 
6391404.255 +9.8231098983E-001 +1.0480667256E+002  +1.4546166216E-001 +5.9567545981E+001  +1.4375552168E-001 +4.1018626002E+001  +1.7897764988E+000 +2.3114049269E+001 
6516549.437 +1.4526603749E+000 +9.2655382631E+001  +1.5309906716E-001 +7.0429927130E+001  +1.5261785695E-001 +5.4216475686E+001  +1.1045681177E+000 +2.7721881020E+001 
6641694.618 +1.0679825082E+000 +7.8742196722E+001  +1.3117728995E-001 +3.8541488159E+001  +1.2454353770E-001 +3.1101634653E+001  +1.0975561655E+000 +1.7154732358E+001 
6766839.800 +1.3770504429E+000 +5.7166076262E+001  +1.5373020506E-001 +1.8616967462E+001  +1.3506488839E-001 +8.2657499768E+000  +1.2708060212E+000 -1.4745261946E+001 
6891984.981 +1.9040747518E+000 +2.5809012018E+001  +1.5666047309E-001 +8.6257677753E-001  +1.5254055151E-001 -2.2605117903E+000  +1.1373591269E+000 -2.4095771729E+000 
7017130.163 +1.4247681269E+000 +1.1164223467E+001  +1.1670718445E-001 +5.9869286663E-001  +1.2388551680E-001 -1.8842401470E+000  +1.2199571226E+000 -8.9053343879E+000 
7142275.344 +1.6693375798E+000 +7.6228931046E+000  +1.1433400873E-001 +5.9055970329E+000  +1.2759545369E-001 +3.1199298987E-001  +1.2585165549E+000 -6.0166219092E+000 
7267420.526 +1.2954128877E+000 -6.9351549769E+000  +9.0258522011E-002 +8.4990943784E+000  +7.8774454031E-002 +6.5634995745E+000  +1.2807402631E+000 -1.2608008015E+001 
7392565.707 +1.3875434403E+000 +5.6878454956E+000  +7.7642813959E-002 +5.4552857418E+000  +7.6596929195E-002 +1.0616515582E+000  +1.2979753158E+000 -9.9878045299E+000 
7517710.889 +9.7205873358E-001 -8.6263331464E-001  +7.9603314953E-002 +6.3211184109E+000  +6.8200638445E-002 +1.1774239063E+000  +1.1590874303E+000 -7.1395810569E+000 
7642856.070 +9.8552599914E-001 +6.8466255232E+000  +7.0603843220E-002 +2.8432389750E+000  +6.8394983016E-002 +8.9429421486E+000  +1.0335125739E+000 -6.9344026586E+000 
7768001.252 +9.2810853993E-001 +5.2006760034E-001  +6.2869987211E-002 -4.4450120198E+000  +7.0155154612E-002 +9.3442894893E+000  +8.3409671587E-001 -2.6376454240E+000 
7893146.433 +8.7312112674E-001 -1.0730171064E+000  +6.4838159360E-002 +4.0761754451E+000  +5.9371942671E-002 +8.0476344618E+000  +9.0203142791E-001 -2.4131986996E+000 
8018291.615 +7.1139794214E-001 +2.7432991445E+000  +6.0641477351E-002 -6.9181859618E-001  +5.6256122255E-002 +7.7713115222E+000  +7.9074005631E-001 +1.0471882027E+000 
8143436.796 +8.3761124142E-001 +6.8438158899E+000  +5.5831772288E-002 +1.3671325055E+000  +5.1677518239E-002 +1.4509857282E+001  +8.3539961552E-001 -3.9509595408E+000 
8268581.977 +6.7144008555E-001 +8.7260609039E+000  +5.5271285768E-002 +3.2305544573E+000  +5.5222361479E-002 +1.1609485075E+001  +6.0878108018E-001 +4.3181881514E+000 
8393727.159 +6.1259766609E-001 +9.4985853288E+000  +5.2878183266E-002 -3.8174065422E+000  +5.6247362763E-002 +6.7290656744E+000  +6.3856759859E-001 +6.4276641206E+000 
8518872.340 +6.9339481790E-001 +6.3395978124E+000  +5.1921199484E-002 -1.6185672237E+000  +5.0472904424E-002 +1.2068234592E+001  +6.4032802678E-001 +2.3691392200E+000 
8644017.522 +5.2103584453E-001 +5.9106656883E+000  +5.3200854516E-002 -2.4381903303E+000  +5.4011099848E-002 +6.6491328675E+000  +5.9765204800E-001 +3.1341305948E+000 
8769162.703 +5.5909642788E-001 +7.6481386918E+000  +5.1840324555E-002 -3.3830872249E+000  +4.6306785562E-002 +1.3585851533E+001  +5.9761804395E-001 +3.3157915835E+000 
8894307.885 +5.7248102646E-001 +4.6691873374E+000  +5.5336848403E-002 +8.2694821250E-001  +4.8162566336E-002 +8.4372743081E+000  +5.7213400423E-001 -1.3506151783E+000 
9019453.066 +5.3979049487E-001 -2.0048789110E+000  +5.0028921406E-002 -5.7350278163E+000  +5.1985806418E-002 +1.5227187342E+001  +6.3830036244E-001 +4.8129254195E+000 
9144598.248 +5.4860591424E-001 +4.7035816028E+000  +5.4693168704E-002 -3.0605408779E+000  +5.1685926520E-002 +1.1283201788E+001  +5.7836770037E-001 -2.1971709751E+000 
9269743.429 +5.1895337304E-001 +3.0978353556E+000  +5.2600298745E-002 -2.9448712961E+000  +4.9254296602E-002 +1.3923622622E+001  +5.4410620876E-001 -4.6326572110E-001 
9394888.611 +4.9188940879E-001 +2.9417344989E+000  +4.9206114976E-002 -2.1644600704E+000  +5.1496194304E-002 +1.5231068523E+001  +5.3777781517E-001 -3.3004133634E+000 
9520033.792 +4.8293391887E-001 +4.1901998738E-001  +5.0194465607E-002 -4.3552158029E+000  +5.0729204010E-002 +1.2570650960E+001  +5.4551028811E-001 -6.5794627541E+000 
9645178.974 +4.6864505266E-001 -7.0652510542E-001  +5.2900909363E-002 -3.0436617884E+000  +4.8179367427E-002 +1.8985644993E+001  +5.9917708794E-001 -1.6162678984E+000 
9770324.155 +4.6992003606E-001 -6.6071513849E+000  +5.1452164982E-002 -2.9924099502E-001  +5.0586923108E-002 +1.3223651374E+001  +5.2358849797E-001 -2.5227100245E+000 
9895469.337 +4.7475557022E-001 -2.5860490415E+000  +5.2077687148E-002 -2.5202432438E+000  +5.2512817543E-002 +1.4509731159E+001  +5.5551661219E-001 -3.3640848350E+000 
10020614.518 +5.3954384334E-001 -3.8960514728E+000  +5.3246925053E-002 +1.8776642540E+000  +5.4495598753E-002 +1.5976390027E+001  +5.1965017588E-001 -4.9507867850E+000 
10145759.700 +4.8305610869E-001 -3.0876123661E-001  +5.0465026812E-002 -1.2055392113E+000  +5.2514610400E-002 +1.6110997810E+001  +5.3834462597E-001 -2.0986450619E+000 
10270904.881 +4.9285563858E-001 +1.4653231776E+000  +5.3057911886E-002 +6.5679506915E-001  +4.9584141936E-002 +1.3736730088E+001  +4.8444401839E-001 -3.4065012992E-002 
10396050.063 +5.5096802935E-001 +5.8952354402E+000  +5.3399653440E-002 +2.5501882131E+000  +5.2527579509E-002 +1.8241461754E+001  +5.4412663159E-001 -6.9003160872E-001 
10521195.244 +4.8906977281E-001 +8.6259827466E+000  +5.3686582413E-002 +3.3358249513E+000  +5.1222489908E-002 +1.6465083192E+001  +5.5383228679E-001 +3.2243041362E+000 
10646340.426 +5.1230040055E-001 +7.6912041029E+000  +5.2000518106E-002 +2.2833219253E+000  +5.2227219702E-002 +1.6126056740E+001  +5.4239662624E-001 -1.3981797696E+000 
10771485.607 +5.4048186483E-001 +9.6089800082E+000  +5.4566049699E-002 +3.6542272098E+000  +5.2473086873E-002 +1.7679891081E+001  +5.6148451439E-001 +2.1365877656E+000 
10896630.788 +5.3711653594E-001 +7.9712853408E+000  +5.3301203177E-002 +1.3262208145E+000  +5.3269172858E-002 +1.6742203953E+001  +5.7694897341E-001 +4.9055637735E-002 
11021775.970 +5.2727344147E-001 +7.7116014491E+000  +5.3915761664E-002 +2.9409829263E+000  +5.3172528755E-002 +1.8470453693E+001  +5.7115885367E-001 -4.0590096092E-001 
11146921.151 +5.2621810375E-001 +3.2149761570E+000  +5.4367929593E-002 +2.6450610548E+000  +5.4994719049E-002 +1.4193835703E+001  +5.3876623277E-001 +1.3474438036E+000 
11272066.333 +5.4048301510E-001 +7.4327022105E+000  +5.6070162984E-002 +3.9700237728E+000  +5.4949074941E-002 +1.7949473647E+001  +5.7346862296E-001 +2.6691308570E+000 
11397211.514 +5.8181494109E-001 +8.5546354709E+000  +5.6157467484E-002 +4.9106673258E+000  +5.5147358023E-002 +1.7282126435E+001  +5.7983837201E-001 +1.6707424139E+000 
11522356.696 +5.4944902070E-001 +7.8854704762E+000  +5.4839611177E-002 +5.3631143159E+000  +5.3083441644E-002 +1.7008352110E+001  +5.9879439780E-001 +1.3157863047E+000 
11647501.877 +5.8850530047E-001 +5.9219148274E+000  +5.8310524679E-002 +4.5306643969E+000  +5.6428076341E-002 +1.4891331691E+001  +5.9122018663E-001 +2.3556004765E+000 
11772647.059 +5.5258049388E-001 +7.3533866660E+000  +5.5582043545E-002 +7.5937659786E+000  +5.6750340373E-002 +1.5909732424E+001  +6.0325376348E-001 +6.7756746364E-001 
11897792.240 +5.8171467099E-001 +6.9228605853E+000  +6.0115689837E-002 +6.5956652388E+000  +5.8373193676E-002 +1.3612241819E+001  +6.3788205630E-001 +5.0191899050E-003 
12022937.422 +6.3020476314E-001 +7.3999981905E+000  +5.7139881341E-002 +6.4969254296E+000  +5.8550772764E-002 +1.5445169677E+001  +6.2220516681E-001 +2.8316019969E-001 
12148082.603 +6.2723953651E-001 +2.5311742281E+000  +5.8403281626E-002 +7.2927070566E+000  +5.9090264450E-002 +1.5278090716E+001  +6.5149361228E-001 +1.2655113723E+000 
12273227.785 +6.4764187484E-001 +4.2614517953E+000  +6.1902568005E-002 +8.3241313266E+000  +5.8710452816E-002 +1.6101139601E+001  +6.4687388136E-001 -4.8625543405E-001 
12398372.966 +6.3977997029E-001 +4.4155441741E+000  +6.1680157474E-002 +6.2932442283E+000  +5.9971202580E-002 +1.3131085452E+001  +6.3229339767E-001 -2.0202834352E+000 
12523518.148 +6.3681157136E-001 +3.8084333545E+000  +6.1913595083E-002 +8.3320542277E+000  +6.0066041770E-002 +1.4386902038E+001  +6.5641996856E-001 +3.9942031808E-001 
12648663.329 +6.5766051021E-001 +2.6782661383E+000  +6.2519575135E-002 +7.7755498903E+000  +6.1266956948E-002 +1.3109933053E+001  +6.8312943503E-001 +1.1454059673E+000 
12773808.511 +6.8435748514E-001 +1.3252886292E+000  +6.1718988577E-002 +6.4555254802E+000  +6.1372558008E-002 +1.3020815230E+001  +6.7959440012E-001 -3.9340507240E+000 
12898953.692 +7.1981077814E-001 +9.6643598878E-001  +6.3270749886E-002 +7.6122424264E+000  +6.2560144505E-002 +1.3185767016E+001  +7.1600579154E-001 -4.8356205163E-001 
13024098.874 +7.1406679721E-001 +3.2228735376E-002  +6.3603709738E-002 +7.9588257593E+000  +6.2443943535E-002 +1.2175549692E+001  +7.1361584826E-001 -2.2547335599E+000 
13149244.055 +7.3866874924E-001 +2.7249776046E-001  +6.4692456464E-002 +6.9928326106E+000  +6.3433357577E-002 +1.2879921908E+001  +7.4153814487E-001 -1.0708040568E+000 
13274389.237 +7.5378289339E-001 +8.9747759696E-001  +6.6067764830E-002 +7.8114220586E+000  +6.2580764656E-002 +1.1396161894E+001  +7.7118700060E-001 -1.1998492003E+000 
13399534.418 +7.7667453366E-001 +6.5107473223E-002  +6.6184719117E-002 +8.8437567649E+000  +6.4417498468E-002 +1.0466445095E+001  +7.7451672219E-001 -3.0112849603E+000 
13524679.599 +7.9137926774E-001 -1.7891751966E+000  +6.7090174719E-002 +7.8403097905E+000  +6.8501348783E-002 +1.1197602437E+001  +7.9998057492E-001 -2.5893873992E+000 
13649824.781 +8.0640525321E-001 -2.3738340802E+000  +6.8411129904E-002 +9.6052829194E+000  +6.6714755689E-002 +1.2075809367E+001  +8.3257315279E-001 -2.8286079587E+000 
13774969.962 +8.0786684764E-001 -5.0269179075E+000  +6.8952882461E-002 +9.6991228571E+000  +6.7471060712E-002 +9.5331192510E+000  +8.4279412936E-001 -3.3945828281E+000 
13900115.144 +8.3565592524E-001 -3.5295223864E+000  +6.8845783515E-002 +7.8600192369E+000  +6.6332195224E-002 +1.0521227842E+001  +8.6510118534E-001 -3.7532508674E+000 
14025260.325 +8.4653598019E-001 -2.4224354022E+000  +6.8248330844E-002 +9.0201868494E+000  +6.7595254436E-002 +9.0522573975E+000  +8.6898949668E-001 -5.8258113133E+000 
14150405.507 +8.8238264871E-001 -4.6880544594E+000  +6.9374792188E-002 +8.1390361884E+000  +6.8376876287E-002 +9.0024379358E+000  +8.7741444217E-001 -4.1112794237E+000 
14275550.688 +8.7946340561E-001 -4.1478097763E+000  +6.9104585832E-002 +7.7456996476E+000  +6.9024253449E-002 +9.4185078007E+000  +9.0659586492E-001 -4.2720307522E+000 
14400695.870 +9.0338322705E-001 -5.1664159551E+000  +6.9524332482E-002 +7.7834855940E+000  +6.8838771569E-002 +8.4600866800E+000  +9.1802082412E-001 -5.0840228034E+000 
