!  2-Port S-parameters saved by WinCal
! VAR MeasName=S-Parameters (CALIBRATED_DATA) read from VNA (P5004A)
! VAR MeasDate=27/08/2024 14:24:07
! VAR NAME=S2_r2c8_SET2_9k-100M_1
! VAR FILENAME=S2_r2c8_SET2_9k-100M_1.S2P
! VAR DATE=27/08/2024 14:24:07
! VAR PHYS_PORTS=1,2
! VAR ObjTypeName=DATASET
! VAR IndexType=Frequency
!
# Hz S MA R 50
9000.000 +7.6622380510E-002 -1.4411935382E+002  +2.7203785894E-003 +1.3206224389E+002  +1.0482167991E-002 +1.0061220015E+002  +1.9740816169E-001 -1.2433758772E+002 
134145.181 +1.1079059465E-001 +1.6991268057E+002  +6.1645657239E-004 -1.5802133404E+002  +3.6071981819E-004 -7.0973028712E+001  +2.3858038571E-001 -1.7088361279E+002 
259290.363 +1.1201159929E-001 +1.7003909781E+002  +1.0758181202E-003 -3.4713823753E+001  +2.7761432346E-004 +5.6635767017E+001  +2.4399483781E-001 -1.6763137099E+002 
384435.544 +1.1383056918E-001 +1.6968929437E+002  +5.3942794211E-004 +1.6479036354E+002  +5.6230184822E-004 +5.1376657460E+001  +2.4659119192E-001 -1.7005725547E+002 
509580.726 +1.1385382965E-001 +1.7248560688E+002  +9.7260154025E-004 -1.6876992690E+002  +6.9558159881E-004 +8.1853325121E+001  +2.4565405514E-001 -1.6669078516E+002 
634725.907 +1.1649328466E-001 +1.7011127289E+002  +7.2172067126E-004 -1.0851089416E+002  +1.2798852557E-004 -1.3288557022E+002  +2.3170214514E-001 -1.6581457313E+002 
759871.089 +1.1566359916E-001 +1.6992559826E+002  +4.2467966012E-004 -3.1613245704E+001  +1.2770034295E-003 -1.5881888227E+002  +2.4954834804E-001 -1.6630781824E+002 
885016.270 +1.1740828260E-001 +1.6928969166E+002  +5.9720392923E-004 -1.5598706033E+002  +1.3681375029E-003 +1.0833873367E+002  +2.3512361098E-001 -1.6451601750E+002 
1010161.452 +1.1500487766E-001 +1.6992207458E+002  +3.9151148767E-003 +1.4730370958E+001  +3.4565814903E-003 +1.5063510610E+002  +1.6542109729E-001 -1.5606216641E+002 
1135306.633 +1.1716694454E-001 +1.7087285445E+002  +1.1296007154E-003 +4.1630815269E+000  +1.2618390965E-003 -2.5876203912E+001  +1.8867362702E-001 -1.6306049868E+002 
1260451.815 +1.1706205464E-001 +1.7115936439E+002  +2.5914278182E-003 -8.3542481301E+001  +8.2063016383E-004 -1.5139056121E+002  +2.3911106833E-001 -1.6065840001E+002 
1385596.996 +1.2777731248E-001 +1.7267589193E+002  +1.3414959992E-003 +8.3819351376E+001  +1.4332053811E-003 -1.1027740364E+002  +2.6498579610E-001 -1.5689144602E+002 
1510742.178 +1.2613537169E-001 +1.7093602557E+002  +7.6309512394E-004 -1.0234641770E+002  +7.6259178165E-004 -1.3514819725E+002  +2.3731779566E-001 -1.5807354219E+002 
1635887.359 +1.2910645819E-001 +1.7012024635E+002  +1.8729332234E-004 +3.8904964864E+001  +9.9187567230E-004 +2.2657919223E+001  +2.5771656152E-001 -1.5809817973E+002 
1761032.541 +1.2834869407E-001 +1.6917676490E+002  +2.7589289440E-004 -1.0644327479E+002  +2.8641045561E-003 +2.3364599639E+001  +2.2005998970E-001 -1.6348319583E+002 
1886177.722 +1.2968907322E-001 +1.6878930698E+002  +3.1498630065E-004 -9.6866326643E+001  +1.8584821599E-003 -6.3294477654E+001  +2.1447630386E-001 -1.5842462792E+002 
2011322.904 +1.2708885678E-001 +1.6850645962E+002  +4.4035547287E-004 +1.6746823943E+002  +1.3966655505E-003 -1.3148310891E+002  +2.1272254980E-001 -1.7063028319E+002 
2136468.085 +1.2881156613E-001 +1.6597335840E+002  +2.0642305373E-003 -6.4399593158E+001  +2.5753488451E-003 -1.5608715741E+002  +1.9015097482E-001 -1.7934340271E+002 
2261613.267 +1.2389754587E-001 +1.5566212199E+002  +1.9119892964E-003 -1.7919599626E+002  +2.8429181192E-003 -7.0976764524E+001  +1.6735675100E-001 +1.7121715779E+002 
2386758.448 +1.3973446044E-001 +1.6164972012E+002  +3.1088377998E-003 -1.6756998890E+002  +3.7134439977E-003 +9.5048510847E+000  +2.4050960838E-001 +1.7693864258E+002 
2511903.630 +1.2809812619E-001 +1.4954685369E+002  +1.6960753106E-002 +1.0486944136E+002  +1.4673016626E-002 +9.4380572941E+000  +2.3591966217E-001 +1.4305303171E+002 
2637048.811 +1.3128869137E-001 +1.5304516733E+002  +2.7073210482E-002 +1.1770143544E+002  +2.5581019699E-002 +4.1163997233E+001  +3.1739065891E-001 +1.2818033854E+002 
2762193.992 +1.0046795488E-001 -1.2899968528E+002  +7.7155610364E-001 +2.4880373406E+001  +6.3028971772E-001 -3.7468670055E+001  +9.9953975467E+000 +7.1906887852E+001 
2887339.174 +8.7784595181E-002 +1.5791029151E+002  +6.7629343157E-002 -8.2992867387E+001  +2.4402359213E-002 -1.6722124593E+002  +8.7869343538E-001 -1.2502019186E+002 
3012484.355 +1.0418803373E-001 +1.7356387762E+002  +3.5327282513E-002 -5.7190062380E+001  +3.0816082420E-002 +1.2186322748E+002  +7.6380233437E-001 -9.4565177820E+001 
3137629.537 +1.1586565268E-001 +1.7886342330E+002  +3.9172734845E-003 -7.6123819486E+001  +1.6037807033E-002 -1.4578785293E+002  +3.4906043616E-001 -1.0489481813E+002 
3262774.718 +1.1713976206E-001 -1.7947233946E+002  +4.0586539294E-002 +3.2415069903E+001  +4.1509426351E-002 -8.6204917159E+000  +9.9636667217E-001 +8.6561188277E+001 
3387919.900 +1.0988765035E-001 +1.6491224706E+002  +3.6142505403E-002 +5.7202319116E+001  +3.2071569771E-002 -2.2895057893E+001  +6.3402677546E-001 +6.2613316616E+001 
3513065.081 +1.5028064155E-001 +1.4895852705E+002  +2.1695183061E-002 +3.0847485801E+001  +3.8091501436E-002 -4.0964791059E+001  +2.1891626931E-001 +3.5096678084E+001 
3638210.263 +1.5512075466E-001 +1.4697362503E+002  +6.8496382892E-003 -1.0882414954E+002  +3.6134445518E-002 -4.1861383282E+000  +9.5594508277E-001 +9.3666501135E+001 
3763355.444 +1.3268811786E-001 +1.4827107560E+002  +2.0769861307E-002 +1.1671071393E+002  +2.2907981956E-002 +5.8170068269E+001  +6.1497684122E-001 +1.6446498504E+002 
3888500.626 +1.6337977805E-001 +1.5414724156E+002  +7.5424000343E-003 +6.1282378157E+001  +4.0344311711E-003 +3.0132577636E+001  +1.9703499377E-001 +1.1801473324E+002 
4013645.807 +1.6889781514E-001 +1.5177635036E+002  +1.4315732013E-002 +5.9543610797E+001  +7.9577391925E-003 -1.1425917283E+001  +2.4183122956E-001 +1.2649711737E+002 
4138790.989 +1.6618021971E-001 +1.3944534036E+002  +6.6993460081E-002 +9.9858715787E+001  +2.9014918728E-002 +6.7000895761E+001  +1.4363339978E+000 +1.0338738919E+002 
4263936.170 +2.0839004111E-001 +1.3261601012E+002  +1.0603479455E-002 +1.2360596475E+002  +1.7217397888E-002 +5.5042321001E+001  +3.9360265337E-001 +1.2908852454E+002 
4389081.352 +2.2771600836E-001 +1.3835435243E+002  +3.5764717101E-002 +9.1695885678E+001  +5.2034184564E-002 +4.1646533820E+001  +5.9624228663E-001 +8.4381953653E+001 
4514226.533 +1.4706023484E-001 +1.2887096935E+002  +2.0889046958E-002 +1.0576553208E+002  +4.2032014567E-002 +4.6509339153E+001  +9.8512554909E-001 +1.2255854076E+002 
4639371.715 +2.9656556657E-001 +1.2452715422E+002  +6.7564796296E-002 +1.1235534400E+002  +8.1628005967E-002 +5.1238669381E+001  +9.0655497252E-001 +8.0645772133E+001 
4764516.896 +3.0785950635E-001 +1.2319593711E+002  +8.8610502136E-002 -4.5607362309E+000  +9.6624708264E-002 -6.9016722654E+001  +2.0048226363E+000 -6.1640924162E+001 
4889662.078 +5.3607832126E-001 +1.2916931937E+002  +1.0309921547E-001 -9.8330549482E+001  +1.3459384584E-001 -9.1254243801E+001  +2.5276433635E+000 -1.3487010768E+002 
5014807.259 +4.5989612140E-001 +1.2756031062E+002  +1.5527457487E-001 +1.2184740435E+002  +1.0434287009E-001 +6.1766998987E+001  +2.1973945831E+000 +5.2437491283E+001 
5139952.441 +2.9863593150E-001 +9.8161069151E+001  +1.1895659218E-001 +5.6359847605E+001  +1.0220628459E-001 +1.7519383538E+001  +1.5845399859E+000 +4.6225906475E+001 
5265097.622 +3.9462054240E-001 +1.2626769982E+002  +8.7657334218E-002 +1.5484899228E+002  +8.5192095111E-002 +1.3581258388E+002  +2.1310095575E+000 +1.2935646160E+002 
5390242.804 +4.4502458694E-001 +1.1258929608E+002  +1.2363106359E-001 +1.4828101127E+002  +1.2449701653E-001 +1.0016044191E+002  +2.5789817852E+000 +1.1810382287E+002 
5515387.985 +4.2308832118E-001 +1.3338508294E+002  +4.7235494511E-002 +9.7324483705E+001  +3.5193898163E-002 +7.6078577118E+001  +1.4846865122E+000 +7.6308607602E+001 
5640533.166 +4.6535638835E-001 +1.2767707254E+002  +4.7757272740E-002 +1.1542540535E+002  +5.2983075073E-002 +6.3453260379E+001  +1.4768095401E+000 +9.7000199023E+001 
5765678.348 +5.0621776133E-001 +1.3306867957E+002  +7.7702394222E-002 +1.2177254778E+002  +6.1910163526E-002 +8.4737071115E+001  +2.3846961557E+000 +1.0067907294E+002 
5890823.529 +5.1526696596E-001 +1.1802757266E+002  +9.7529979444E-002 +8.6806949778E+001  +5.7482560749E-002 +6.2221706332E+001  +2.4652350500E+000 +7.9776006136E+001 
6015968.711 +6.2256514277E-001 +1.1239164934E+002  +8.6027892047E-002 +7.6078100706E+001  +8.9403196115E-002 +7.2258027879E+001  +1.7646678915E+000 +6.4246876781E+001 
6141113.892 +6.6022381576E-001 +1.1667480671E+002  +8.0373722759E-002 +7.3170821504E+001  +6.2634600451E-002 +5.6667219015E+001  +2.0781942425E+000 +5.6409499852E+001 
6266259.074 +6.8422799687E-001 +1.0901371010E+002  +7.9659790194E-002 +5.5394090368E+001  +5.0860048424E-002 +7.5563788241E+000  +1.5802021438E+000 +2.4996960407E+001 
6391404.255 +1.0782628733E+000 +7.2026859150E+001  +1.0919447194E-001 +4.1006168771E+001  +7.1882132846E-002 +1.4230608676E+001  +1.4943557678E+000 +8.9542801909E+000 
6516549.437 +1.0686921252E+000 +7.3783272100E+001  +1.0554716018E-001 +4.3582407712E+001  +1.0616100227E-001 +2.2260578649E+001  +1.7197644096E+000 +1.6422876568E+001 
6641694.618 +1.5701447250E+000 +6.8671812227E+001  +1.1092176251E-001 +2.1637486493E+001  +8.9475538756E-002 +2.4062951067E+001  +1.1753185133E+000 -3.4172261744E+000 
6766839.800 +1.9117222886E+000 +4.9698957516E+001  +1.1857054569E-001 +1.8385649730E+001  +1.0556015271E-001 +1.6182307415E+001  +1.3315762346E+000 -1.3343600250E+000 
6891984.981 +1.6749953209E+000 +4.0701969338E+001  +9.4592652569E-002 +2.4028385356E+000  +9.0512820171E-002 +1.9202905003E+001  +1.1985533796E+000 -1.0425250940E+001 
7017130.163 +1.5350628873E+000 +2.3132299805E+001  +8.7468293926E-002 +1.3087695893E+001  +7.4951611495E-002 -3.4658166368E+000  +1.4043081186E+000 -1.0548223316E+001 
7142275.344 +1.7882907509E+000 +5.8406097322E+000  +6.9670333381E-002 -3.8502767221E+000  +5.8807939426E-002 -9.7935028346E-001  +1.1691502763E+000 -1.2930938040E+001 
7267420.526 +1.4075452260E+000 -7.9098596248E-001  +5.1273386812E-002 +4.8297128374E+000  +5.8720099349E-002 +2.8255047173E+000  +1.1821126014E+000 -1.1921425688E+001 
7392565.707 +1.1927597312E+000 -7.3992822308E+000  +4.0612133858E-002 -4.3964741487E+000  +5.6253306821E-002 +1.3811141011E+001  +1.1877454356E+000 -1.1040393820E+001 
7517710.889 +1.1572055560E+000 +4.2702124397E+000  +3.9944623665E-002 +2.0002110629E+000  +4.6398274542E-002 +1.0802693309E+001  +1.0059325119E+000 -1.1144790571E+001 
7642856.070 +9.5942532601E-001 -4.3277997877E+000  +3.7792455297E-002 +1.0759810610E+001  +4.0785069042E-002 +1.1728216078E+001  +9.7172320423E-001 -4.5540098247E+000 
7768001.252 +9.7895184015E-001 +4.1557653609E+000  +4.2287851606E-002 +3.5564108101E+000  +3.6915309794E-002 +1.8289131622E+001  +9.7890137850E-001 -4.1610392543E+000 
7893146.433 +9.3739392438E-001 +2.7299625485E+000  +4.4181936948E-002 +1.7267139320E+000  +4.1035310379E-002 +1.1744843728E+001  +9.2331642848E-001 -6.1181793392E+000 
8018291.615 +7.7534206584E-001 +7.7511263847E-001  +3.9781270248E-002 +2.5390156777E+000  +4.0169174134E-002 +8.7684833730E+000  +9.3819646931E-001 +3.2369519362E+000 
8143436.796 +7.9564147930E-001 +5.7190912632E+000  +2.9726798117E-002 +2.1534736946E+000  +4.0512533170E-002 +1.4199817132E+001  +7.7344227388E-001 +4.3003415059E+000 
8268581.977 +6.6920338033E-001 +1.1146120296E+001  +3.1551575207E-002 +4.6771262435E+000  +3.4749424299E-002 +2.0142800723E+001  +7.6829409079E-001 -2.5368872155E+000 
8393727.159 +6.6118276154E-001 +1.1417285579E+001  +2.9826020821E-002 +6.9203643777E-001  +3.6689536854E-002 +2.7979509870E+001  +7.2571002538E-001 +3.3942869515E+000 
8518872.340 +6.6723279693E-001 +4.6934132095E+000  +3.5088213686E-002 +2.7491991717E+000  +3.2551085507E-002 +1.5277195468E+001  +6.6677328105E-001 -2.2329622562E+000 
8644017.522 +6.3861684360E-001 +5.9121912632E+000  +3.1294373158E-002 +1.0234979279E+001  +3.4642546121E-002 +1.6580347960E+001  +7.2306053813E-001 +2.7362497507E+000 
8769162.703 +5.7700552280E-001 +2.7258435978E+000  +3.5132919581E-002 -6.0676420190E-002  +3.0013889432E-002 +1.9999211524E+001  +6.5012796112E-001 -7.7904351902E-001 
8894307.885 +5.3157287682E-001 +8.3922246403E+000  +3.3490397469E-002 -2.8223872499E+000  +3.6118165743E-002 +1.2030846534E+001  +6.0609857595E-001 +7.5922119280E-001 
9019453.066 +5.4524577778E-001 +1.3023865860E+000  +3.1874787695E-002 +9.3823743994E-001  +3.5422018515E-002 +1.6973730443E+001  +5.2038375780E-001 -4.4033770310E+000 
9144598.248 +5.8666724124E-001 +7.0838289630E+000  +3.0956474893E-002 +3.0227243008E+000  +3.2143070536E-002 +1.7919312617E+001  +5.5796962656E-001 +2.5070312733E+000 
9269743.429 +4.7751226189E-001 +1.8377989116E+000  +3.2770916642E-002 +1.8111926312E-001  +2.8273931695E-002 +9.7099415492E+000  +6.0193718270E-001 +1.1167302744E+000 
9394888.611 +5.7035523501E-001 +2.9047771565E-001  +3.3543534124E-002 +4.4659470895E+000  +3.1807931905E-002 +2.0435559876E+001  +5.7894939714E-001 -5.2424961164E+000 
9520033.792 +5.1785673385E-001 +3.4344703318E+000  +3.6221044295E-002 +2.0340785942E+000  +3.4378227187E-002 +1.7481627274E+001  +5.7458661502E-001 -4.2728468849E+000 
9645178.974 +5.5659592282E-001 +2.9536193841E+000  +3.3192339656E-002 +4.7880124170E+000  +3.2129712467E-002 +2.4547840491E+001  +5.4651290732E-001 -7.0801997610E+000 
9770324.155 +4.8700471975E-001 -1.1849828346E+000  +3.4745732288E-002 +2.7588724249E+000  +3.3739319587E-002 +2.2368834117E+001  +5.5213358624E-001 -6.2191718264E+000 
9895469.337 +4.9339473826E-001 -2.1759866953E-002  +3.2198282221E-002 +2.3755043547E+000  +3.4948675075E-002 +1.8293784388E+001  +5.1008881401E-001 -5.6139050207E+000 
10020614.518 +5.3827313615E-001 +2.3317904118E+000  +3.3217926540E-002 -3.2470512385E+000  +3.4980818238E-002 +1.9727258720E+001  +5.6216142039E-001 -7.3604211627E+000 
10145759.700 +5.0351103453E-001 +3.7248829170E+000  +3.2717042232E-002 -4.0121986017E+000  +3.0603911724E-002 +2.1229838616E+001  +5.7817563015E-001 -7.5981068107E+000 
10270904.881 +5.1792604884E-001 +3.9029135892E+000  +3.2367786940E-002 +5.8072946094E+000  +3.0132291872E-002 +1.5351577734E+001  +5.6870287770E-001 -2.4134023610E+000 
10396050.063 +5.5673614385E-001 +9.1551577999E+000  +3.1248830810E-002 +6.8469842941E+000  +3.0411369307E-002 +1.8485716139E+001  +5.4087527794E-001 -2.4833802840E+000 
10521195.244 +5.3385721976E-001 +6.7002670155E+000  +3.3276796431E-002 +3.8055379075E+000  +3.2766183781E-002 +1.7532379496E+001  +5.4197875070E-001 +1.3969652767E+000 
10646340.426 +5.1419489939E-001 +6.5075547884E+000  +3.3666367111E-002 -9.2849128482E-001  +3.1329116773E-002 +1.5011819883E+001  +5.4085496321E-001 -2.8654653941E+000 
10771485.607 +5.2123344220E-001 +6.7197624841E+000  +3.2412957390E-002 +8.5979592332E+000  +3.3001405238E-002 +2.0650361402E+001  +5.9762178735E-001 -1.3735895998E-001 
10896630.788 +5.4659886179E-001 +9.0354862706E+000  +3.3517732321E-002 +3.9682580225E+000  +3.4654623035E-002 +1.8916060668E+001  +5.6820152286E-001 +3.0866335973E+000 
11021775.970 +5.5591136103E-001 +5.8915096931E+000  +3.4733965280E-002 +6.4165700452E+000  +3.2320111413E-002 +1.6112048646E+001  +6.0297225670E-001 +2.0900368234E+000 
11146921.151 +5.7618043209E-001 +7.8404976089E+000  +3.4306506492E-002 +9.8883505391E+000  +3.4231050467E-002 +2.0505719985E+001  +5.8158699103E-001 +1.0384485129E+000 
11272066.333 +5.3978477925E-001 +6.2283161729E+000  +3.4602507525E-002 +6.5489020078E+000  +3.4323993777E-002 +1.8932349293E+001  +5.7153677438E-001 +1.0990087732E+000 
11397211.514 +5.7160458423E-001 +8.0475538960E+000  +3.4412104499E-002 +8.0563559922E+000  +3.2430735080E-002 +2.2512533011E+001  +5.9232558703E-001 +2.3944000695E+000 
11522356.696 +5.6120083893E-001 +7.2002209055E+000  +3.6060397391E-002 +8.9243780571E+000  +3.3576717961E-002 +1.8863308989E+001  +6.2731863935E-001 +2.4839946875E+000 
11647501.877 +5.8253402526E-001 +5.5184923600E+000  +3.4248117071E-002 +1.0212334498E+001  +3.6813831773E-002 +1.7342174975E+001  +6.2491427371E-001 -1.1121626832E-001 
11772647.059 +6.1138258429E-001 +5.0665052669E+000  +3.4743466153E-002 +1.1166828372E+001  +3.4982686653E-002 +1.7423508989E+001  +5.9617604458E-001 +3.2233657848E+000 
11897792.240 +5.9306121104E-001 +5.8140872911E+000  +3.5296188225E-002 +1.0013421620E+001  +3.5011668428E-002 +1.8465762863E+001  +6.3086865614E-001 -1.6564092346E+000 
12022937.422 +6.1831187814E-001 +6.7232189855E+000  +3.5992794007E-002 +1.1779341676E+001  +3.6485508466E-002 +1.8994299605E+001  +6.5628291453E-001 -1.5606294902E+000 
12148082.603 +6.4262947814E-001 +3.5605705142E+000  +3.4840336301E-002 +9.5288820685E+000  +3.8634478921E-002 +2.2575282843E+001  +6.8558448956E-001 -1.5496062270E-001 
12273227.785 +6.5770207902E-001 +5.2630184543E+000  +3.8628987274E-002 +8.2158128111E+000  +3.7778100134E-002 +1.5826681869E+001  +6.5497171307E-001 -1.3005837297E+000 
12398372.966 +6.7556383161E-001 +3.2220047424E+000  +3.8423892563E-002 +9.3887660160E+000  +3.8149556802E-002 +2.1178444650E+001  +6.9133631500E-001 +1.3473213015E+000 
12523518.148 +6.8991910916E-001 +1.6641369021E+000  +3.8760422696E-002 +1.0169830382E+001  +3.8987917350E-002 +1.8371465771E+001  +6.8542274573E-001 -8.6003060228E-001 
12648663.329 +6.8142431426E-001 +2.7261005023E+000  +3.8952767182E-002 +1.3006853565E+001  +3.8951550874E-002 +1.7814322870E+001  +7.1188250712E-001 -2.8317175078E+000 
12773808.511 +6.7431372686E-001 -6.3952599671E-002  +3.9223744919E-002 +1.1595175394E+001  +3.7624657537E-002 +1.6921205031E+001  +7.2520238289E-001 +3.3976594709E-003 
12898953.692 +6.9930553124E-001 +8.7814211382E-001  +3.9848341470E-002 +9.8982093024E+000  +3.8170471823E-002 +1.7530557290E+001  +7.4172401827E-001 -2.3432210310E-001 
13024098.874 +7.6770933416E-001 +1.2136278771E+000  +4.0096052946E-002 +1.0661318370E+001  +4.0698177801E-002 +1.8555709623E+001  +7.3233289182E-001 -6.3858577405E-001 
13149244.055 +7.7709308615E-001 -2.7535567336E-001  +4.0304294184E-002 +1.1693915345E+001  +3.9888918526E-002 +1.5693575552E+001  +7.8444709463E-001 -2.2811460811E+000 
13274389.237 +7.8199439705E-001 -5.0614404037E-001  +4.0761548426E-002 +1.0068869774E+001  +4.0389783357E-002 +1.5227669253E+001  +7.9767941393E-001 -2.6593594977E+000 
13399534.418 +7.8779728205E-001 -1.3150500784E+000  +4.2813269944E-002 +1.0838301385E+001  +4.0705108659E-002 +1.6113404743E+001  +8.1108993503E-001 -1.0440245329E+000 
13524679.599 +8.1319701283E-001 -7.0675286231E-001  +4.3164797825E-002 +1.1405853399E+001  +4.1493859828E-002 +1.5641078133E+001  +8.1952268560E-001 -3.0626599388E+000 
13649824.781 +8.1991388495E-001 -2.2496891352E+000  +4.1275920353E-002 +1.0901762976E+001  +4.1521403077E-002 +1.5162448336E+001  +8.2582906596E-001 -3.6455971857E+000 
13774969.962 +8.1886454421E-001 -1.8103699461E+000  +4.2463988452E-002 +1.0682690947E+001  +4.0004286150E-002 +1.4104759662E+001  +8.5425788115E-001 -3.3873092796E+000 
13900115.144 +8.4640456440E-001 -3.1642064026E+000  +4.2032974826E-002 +1.0312045438E+001  +4.2079023115E-002 +1.2696611472E+001  +8.9476277428E-001 -3.8263310589E+000 
14025260.325 +8.6457743561E-001 -2.3326354382E+000  +4.1235575539E-002 +1.1653348528E+001  +4.1206208278E-002 +1.4520524019E+001  +8.9207241582E-001 -3.8291346651E+000 
14150405.507 +9.0810392195E-001 -4.7960776946E+000  +4.3247872929E-002 +1.0763077765E+001  +4.2698352982E-002 +1.2330840752E+001  +9.2201498038E-001 -4.0364798660E+000 
14275550.688 +9.0755312156E-001 -4.5981821087E+000  +4.2984535670E-002 +8.6836463127E+000  +4.4008956159E-002 +1.1822717076E+001  +9.2501496504E-001 -5.1028013606E+000 
14400695.870 +9.2837191127E-001 -5.0769279506E+000  +4.3905525655E-002 +1.1439501597E+001  +4.3012021543E-002 +1.3205234262E+001  +9.5260919071E-001 -4.5530378350E+000 
