!  2-Port S-parameters saved by WinCal
! VAR MeasName=S-Parameters (CALIBRATED_DATA) read from VNA (P5004A)
! VAR MeasDate=28/08/2024 16:31:38
! VAR NAME=S2_r8c9_SET2_9k-100M_1
! VAR FILENAME=S2_r8c9_SET2_9k-100M_1.S2P
! VAR DATE=28/08/2024 16:31:38
! VAR PHYS_PORTS=1,2
! VAR ObjTypeName=DATASET
! VAR IndexType=Frequency
!
# Hz S MA R 50
9000.000 +7.8465635642E-002 -1.6801442001E+002  +1.9134074789E-003 -7.2988210926E+001  +8.4864522513E-003 +1.7679172491E+002  +2.8495929072E-001 -1.4695862662E+002 
134145.181 +1.1111238018E-001 +1.6980005746E+002  +8.7322820383E-005 +1.3294519062E+002  +2.3622248241E-004 -1.5670664402E+002  +2.3837497938E-001 -1.7129230957E+002 
259290.363 +1.1158704313E-001 +1.6982087544E+002  +7.5534443341E-004 -5.4324723867E+001  +8.6735100586E-004 +6.4088650066E+001  +2.5282806911E-001 -1.6809259424E+002 
384435.544 +1.1430307607E-001 +1.6961028921E+002  +5.7114093531E-004 -1.3902873112E+002  +4.7582272392E-004 -1.1338258206E+002  +2.4127997213E-001 -1.6889068188E+002 
509580.726 +1.1207211308E-001 +1.7037459207E+002  +1.2244603550E-003 +1.7871761943E+002  +6.7791907348E-004 +7.0589202586E+001  +2.5586435991E-001 -1.5996162896E+002 
634725.907 +1.1737375877E-001 +1.7117895234E+002  +1.5951384743E-004 +1.7772879176E+002  +5.7886883838E-004 -1.5791617418E+002  +2.4855713091E-001 -1.6608410484E+002 
759871.089 +1.1944352803E-001 +1.7034564827E+002  +4.4627672000E-004 +7.7225377881E+001  +6.8046654431E-004 +1.7988830078E+002  +2.5642414597E-001 -1.6664121840E+002 
885016.270 +1.2040683715E-001 +1.6911482726E+002  +2.6857654204E-004 +1.4089661107E+002  +6.6292986823E-004 +3.0411132104E+001  +2.4805669420E-001 -1.6700623679E+002 
1010161.452 +1.1669386399E-001 +1.7097988003E+002  +5.1160299489E-004 -1.5704386726E+002  +9.6380762998E-004 +2.0193194514E+001  +1.9289928355E-001 -1.7259732399E+002 
1135306.633 +1.1799777373E-001 +1.6986682228E+002  +6.3216463200E-004 -1.2891636367E+002  +1.7958386995E-003 -1.4225813837E+002  +1.9391319209E-001 -1.6149030927E+002 
1260451.815 +1.1947836104E-001 +1.7332193434E+002  +9.0115540239E-004 +1.4762059784E+002  +9.4731349289E-004 -1.1560520230E+002  +2.2960759579E-001 -1.6428226906E+002 
1385596.996 +1.2328112465E-001 +1.7176287216E+002  +1.3800805007E-003 -1.7035884635E+002  +9.1173280369E-004 +8.5971213938E+001  +2.6595241319E-001 -1.5794649356E+002 
1510742.178 +1.2962412434E-001 +1.7240087899E+002  +3.9070123713E-004 -8.2115865190E+001  +4.4200828261E-004 +8.0391685167E+001  +2.6118945803E-001 -1.5689729427E+002 
1635887.359 +1.2917782167E-001 +1.7239897123E+002  +2.6792784010E-004 +1.4383484735E+002  +1.0285721584E-003 -6.9502979997E+001  +2.5141109736E-001 -1.5861805499E+002 
1761032.541 +1.2840471228E-001 +1.6876748657E+002  +2.0545243223E-003 -6.8884276494E+001  +1.8198640605E-003 +9.8239429208E+001  +2.4448533042E-001 -1.5450665544E+002 
1886177.722 +1.2813818557E-001 +1.7009019754E+002  +3.1999440498E-004 +1.6846876266E+002  +2.4304058185E-003 -7.7926514240E+001  +2.0052580251E-001 -1.6329126579E+002 
2011322.904 +1.3063854682E-001 +1.6698554803E+002  +1.0911619442E-004 +4.4747487877E+001  +1.6362912982E-003 +1.4747018477E+002  +2.1195994334E-001 -1.7080062443E+002 
2136468.085 +1.2926723347E-001 +1.6703221599E+002  +5.2315985689E-004 +1.1258055580E+002  +1.0435287183E-003 -2.5734852167E+000  +1.6424551000E-001 -1.6414121280E+002 
2261613.267 +1.2578081686E-001 +1.6166959107E+002  +1.1235308392E-003 -1.5239345598E+002  +2.4800707720E-003 -1.7852449985E+002  +2.2891760520E-001 -1.7843445012E+002 
2386758.448 +1.3991449368E-001 +1.6658213932E+002  +2.6654981067E-003 +5.1521503104E+001  +3.2535999327E-003 -1.3154615899E+002  +2.9835912174E-001 +1.5296681830E+002 
2511903.630 +1.3917515808E-001 +1.6059025447E+002  +2.9513616346E-003 +1.2829739347E+002  +2.5088873507E-003 +6.0099635452E+001  +1.9177519467E-001 +1.6911551613E+002 
2637048.811 +1.2078717453E-001 +1.6274049947E+002  +1.6472462571E-002 +1.1048695477E+002  +4.4701569302E-003 +1.4380258955E+002  +2.7112915951E-001 +1.1073675288E+002 
2762193.992 +1.0070614984E-001 +1.7538742834E+002  +1.4482624268E-002 +6.2072616584E+001  +2.0927019189E-002 +1.2021395367E+002  +5.1548411632E-001 +9.8682859216E+001 
2887339.174 +1.0226346533E-001 +1.5891509076E+002  +1.1670915742E-002 +6.3351865881E+001  +7.1237402588E-003 -1.1104193517E+002  +1.6499955888E-001 +1.2562841858E+002 
3012484.355 +1.0215988648E-001 +1.7714049633E+002  +1.2138344367E-002 -1.5346710569E+001  +8.7572377574E-003 +7.7677546854E+001  +2.2369331555E-001 -8.5187892441E+001 
3137629.537 +1.3672587333E-001 +1.6309696507E+002  +4.6464534294E-003 +1.0589554661E+002  +2.9175839223E-003 -1.3425983947E+002  +2.2217417093E-001 -8.7638693919E+001 
3262774.718 +1.1967724107E-001 +1.5606764558E+002  +4.7699843621E-003 +1.1961435005E+002  +1.5119683705E-002 +6.9201219584E+001  +2.6954541208E-001 -7.9613543948E+001 
3387919.900 +1.1436898173E-001 +1.6174473118E+002  +1.8433511648E-002 +1.7659340424E+000  +3.2179368242E-002 -3.1896852232E+001  +6.5305833843E-001 +5.2029216297E+001 
3513065.081 +1.3213027497E-001 +1.4780974290E+002  +7.3522672714E-003 -1.1795953186E+002  +1.9400980508E-002 -1.7479501779E+001  +6.9630280188E-001 -4.8540492516E+001 
3638210.263 +1.5403659681E-001 +1.4443240215E+002  +9.8590746460E-003 +9.1641606396E+001  +4.7392358047E-003 +2.2375520090E+001  +7.0186657818E-001 +1.6259781571E+002 
3763355.444 +1.5798892846E-001 +1.5306517438E+002  +1.9294823163E-003 +6.3256672579E+001  +2.7340305397E-003 -4.8854194286E+000  +6.4963131294E-001 +1.6023486919E+002 
3888500.626 +1.6585906073E-001 +1.4478075356E+002  +2.1393841533E-002 -9.1414746853E+001  +1.6849340758E-002 -9.3803479182E+000  +5.5758875548E-001 +1.2721428858E+002 
4013645.807 +1.5758636204E-001 +1.4630114884E+002  +1.4847343548E-002 -1.3819242622E+002  +1.1005985110E-002 -8.4058094326E+001  +6.4055613248E-001 +1.2316757946E+002 
4138790.989 +1.4695128883E-001 +1.5387815062E+002  +3.9691838295E-003 +7.4086839843E+001  +8.3368172982E-003 -7.0722348685E+001  +4.3726902489E-001 +1.1085751007E+002 
4263936.170 +1.4157195808E-001 +1.4122263592E+002  +1.0147687570E-002 +1.0721741381E+002  +1.1642216630E-002 +1.6356719637E+002  +3.6128886349E-001 +1.1982379519E+002 
4389081.352 +1.8839243235E-001 +1.4530615074E+002  +4.2728938934E-003 +6.2324191414E+000  +7.6235788440E-003 +9.8001898037E+001  +9.7329817762E-001 +9.9839417293E+001 
4514226.533 +2.4573982396E-001 +1.2496076517E+002  +1.1501559182E-002 +1.1544389580E+001  +4.1267487955E-003 +2.5172372044E+001  +9.6169265988E-001 +1.0168013203E+002 
4639371.715 +2.8299515901E-001 +1.2892475962E+002  +3.1580439338E-002 +1.7814916369E+002  +4.6310517134E-002 +1.0497775315E+002  +1.9072480749E+000 -1.5773469263E+000 
4764516.896 +4.0281108810E-001 +1.1558367149E+002  +1.1563389202E-001 -4.5570398425E+000  +3.2482753444E-002 +1.4718526356E+002  +3.1999423064E+000 +1.3421182167E+002 
4889662.078 +4.4431742467E-001 +1.2796445873E+002  +2.7682838970E-002 +7.0049021550E+001  +5.7688393980E-003 -1.2333597805E+001  +1.9925121976E+000 -1.3773424020E+002 
5014807.259 +3.9801416368E-001 +1.3144146149E+002  +3.5345153173E-003 +3.2417421468E+001  +4.4099509072E-002 -4.2995488910E+001  +2.7471721994E+000 -1.3300961607E+002 
5139952.441 +3.4079170810E-001 +1.3209097336E+002  +2.0231456550E-002 -1.4038733855E+002  +7.6480705084E-002 -1.6491357448E+002  +3.8329684059E+000 +7.0782907246E+001 
5265097.622 +4.1885258367E-001 +1.3163855264E+002  +4.2691837522E-002 -1.0389886919E+002  +1.9960282551E-002 -1.4032132153E+002  +2.1726558160E+000 +8.3731217682E+001 
5390242.804 +4.6180464994E-001 +1.2738504845E+002  +1.9574212500E-002 -4.7592568389E+001  +1.0787994551E-002 -1.7297750456E+002  +2.6610913511E+000 +9.7095994799E+001 
5515387.985 +4.2627825659E-001 +1.3229766496E+002  +1.7115782030E-002 +1.3143771700E+002  +2.5581385812E-002 +1.2973130650E+002  +1.5046979857E+000 +1.2299418706E+002 
5640533.166 +4.7489831219E-001 +1.2244419106E+002  +5.0423953628E-002 +5.8549091738E+001  +2.8530141469E-002 +1.7898802265E+002  +5.7844775396E+000 +8.9759755654E+001 
5765678.348 +5.6601073823E-001 +1.3150096744E+002  +1.0902439913E-002 +1.0753397856E+002  +1.3834616585E-002 -1.5370829381E+002  +2.6127631969E+000 +5.7832818566E+001 
5890823.529 +5.8381265231E-001 +1.1822482003E+002  +1.0982786647E-002 -7.9249255857E+001  +1.9291466448E-002 -1.1326842952E+002  +1.7969576975E+000 +5.4015335724E+001 
6015968.711 +6.7275848624E-001 +1.1242134973E+002  +3.5811210676E-003 +1.5010356725E+002  +2.5231971331E-002 -5.5333899898E+001  +1.6489301716E+000 +3.0401542466E+001 
6141113.892 +8.6848324315E-001 +1.1035187385E+002  +2.6784504584E-002 -9.8855920462E-002  +5.5965405245E-002 +9.4050342358E+001  +2.8415829451E+000 +4.2783688939E+001 
6266259.074 +1.1372268599E+000 +9.9967889805E+001  +3.2590407145E-002 +1.3343096008E+002  +1.0651648672E-002 +1.7705423726E+002  +1.4593808637E+000 +2.5216122808E+001 
6391404.255 +1.0626020896E+000 +9.8455200544E+001  +1.0721908819E-002 +3.4450973320E+001  +2.7133696418E-002 +1.2550784766E+002  +1.5862315354E+000 +3.2945478401E+001 
6516549.437 +1.1757233292E+000 +8.6325425804E+001  +9.9740557807E-003 +1.1024009274E+002  +1.1217630023E-002 -6.9942334708E+001  +1.6742128852E+000 -2.3391535641E+000 
6641694.618 +1.6004772264E+000 +7.9431298215E+001  +2.0454025248E-002 +1.1229604375E+002  +2.7414611753E-002 -3.0568751667E+001  +1.5458548034E+000 -4.9705741914E-001 
6766839.800 +1.6624268806E+000 +3.9143922315E+001  +2.6542534966E-002 -5.5239935243E+001  +1.2614646765E-002 -6.9500922594E+001  +1.5042082158E+000 -1.0643425414E+000 
6891984.981 +1.8459672449E+000 +2.9956926704E+001  +4.0085523947E-003 +3.6422802565E+000  +1.6333699978E-002 +1.3177566821E+002  +1.3943055579E+000 -2.0755895741E+000 
7017130.163 +1.9664675736E+000 +1.3968726291E+001  +3.1774295047E-002 +1.1770376865E+002  +2.0375502994E-002 +1.5450753381E+002  +1.4149077024E+000 -2.9668771366E+000 
7142275.344 +1.5026474259E+000 -1.6803048116E+000  +1.1662352679E-002 +1.5670471532E+002  +1.5335354714E-002 +1.5025828593E+002  +1.1955181497E+000 -1.8446880009E+001 
7267420.526 +1.3952133372E+000 -6.5240179748E+000  +1.1285168641E-002 +6.8666493959E+000  +1.1000982208E-002 +7.4556825962E+001  +1.2586172260E+000 -1.2249526672E+001 
7392565.707 +1.3244387641E+000 +1.4014988148E+000  +3.0998993850E-003 +4.4299809395E+001  +1.3563675856E-002 +9.1646362044E+001  +1.3371561565E+000 -1.1052058149E+001 
7517710.889 +1.1375424285E+000 +6.8687020616E+000  +1.2499038379E-002 +1.0129604780E+002  +1.0980092797E-002 +7.4623837665E+001  +1.1497123656E+000 -7.2322403191E+000 
7642856.070 +9.8904150663E-001 -4.9674565061E+000  +9.4649830294E-003 +6.5483797091E+001  +1.2299980026E-002 +1.1539130972E+002  +1.1606280733E+000 +7.4496089045E-001 
7768001.252 +1.0076594852E+000 -2.3892642675E+000  +9.8802944499E-003 -3.5635052512E+001  +5.7276922287E-003 +1.2916603629E+002  +1.1519242612E+000 -4.3934796543E+000 
7893146.433 +8.7014547631E-001 +2.2709559641E+000  +2.8144804337E-003 +1.0216119179E+002  +4.2459427099E-003 +9.7349450634E+001  +9.0237501398E-001 +1.9688566468E+000 
8018291.615 +8.0731065387E-001 +5.3381355901E+000  +6.3151097336E-003 +1.3035748662E+002  +4.4318884403E-003 -4.8467878776E+001  +8.2784377295E-001 +1.0326638908E+000 
8143436.796 +7.5884204940E-001 +6.0744038831E+000  +5.1223574440E-003 +4.3860659231E+001  +2.2411881376E-003 -1.7107113442E+002  +7.9296807639E-001 -1.6801651304E+000 
8268581.977 +7.4091133215E-001 +6.3674995112E+000  +1.1424122386E-002 +1.1553649281E+002  +3.2389858985E-003 +9.6205016126E+001  +7.4991226519E-001 +4.6595993803E-001 
8393727.159 +7.2064900478E-001 +4.0910317076E+000  +4.5960745724E-003 +1.0067735157E+002  +2.0537443156E-003 +1.1530885084E+002  +7.2674983370E-001 +4.4770315952E+000 
8518872.340 +6.3302010698E-001 +1.1444233813E+001  +3.2309722667E-003 +7.8898841739E+001  +7.7127043140E-003 +1.2244284499E+002  +7.1981284287E-001 +4.6307668370E+000 
8644017.522 +6.8076346513E-001 +8.6960773008E+000  +4.6094876480E-003 +7.9179835300E+001  +1.0485021949E-002 +9.1329244456E+001  +7.0758500772E-001 +6.4460324382E-002 
8769162.703 +6.4330422238E-001 +1.0325545646E+001  +5.8975115726E-003 +6.5482100705E+001  +5.9013428537E-003 +3.1304031107E+000  +6.9933488682E-001 -1.4781796048E+000 
8894307.885 +5.6931364367E-001 +1.2324075480E+001  +1.1670362581E-003 -1.2531034090E+002  +8.3633887331E-003 +1.1839487498E+002  +5.8445041611E-001 +1.8992934665E+000 
9019453.066 +6.3480015407E-001 +8.8737673631E+000  +3.2987772571E-003 +6.3563007045E+001  +5.0027977177E-003 +1.1051800195E+002  +6.0891588230E-001 -1.1794071242E+000 
9144598.248 +5.6528381146E-001 +3.3438491036E+000  +5.9275217073E-003 +8.2499090001E+001  +5.7515721356E-004 +5.7942782027E+000  +5.8934858273E-001 +1.5285564346E+000 
9269743.429 +5.4795355029E-001 +6.8661102505E+000  +2.8298721228E-003 +3.4490188690E+001  +5.1068563383E-003 +1.0775727194E+002  +6.0429512303E-001 -1.2354453866E+000 
9394888.611 +5.4478874303E-001 +4.2115933830E+000  +4.1912196955E-003 +7.9131798518E+001  +1.3929285322E-003 +6.0796990032E+001  +5.5575988351E-001 -7.3424469357E-001 
9520033.792 +5.3741793883E-001 +2.5107935979E+000  +7.0135291663E-003 +8.1803774282E+001  +5.0193887048E-003 +7.2446966107E+001  +6.5288645939E-001 -1.6551574257E+000 
9645178.974 +5.5021091001E-001 +3.4077485854E+000  +6.6347838713E-003 +5.9874325557E+001  +3.7162908041E-003 +8.4775622719E+001  +5.7353545809E-001 -3.7396177908E+000 
9770324.155 +5.3826940683E-001 +2.2719986909E+000  +6.8637392340E-003 +9.3943624353E+001  +4.0218457630E-003 +1.2726640161E+002  +6.0755804701E-001 -5.5057107788E+000 
9895469.337 +5.3581645636E-001 +4.8808930521E+000  +4.5301987252E-003 +8.1982232623E+001  +3.1061624468E-003 +9.0440416646E+001  +5.8773060137E-001 -6.1222499212E+000 
10020614.518 +5.7601690659E-001 +2.3988850276E+000  +5.4281997596E-003 +8.6888457569E+001  +5.7061678379E-003 +6.6705685772E+001  +6.2818135124E-001 -9.8262549465E+000 
10145759.700 +5.0250255479E-001 +4.7351349268E-001  +5.7234484396E-003 +5.5876032058E+001  +4.3310039417E-003 +9.8862921807E+001  +5.1190597773E-001 -2.6840928455E+000 
10270904.881 +5.6194815628E-001 +1.7414874222E+000  +2.9976481350E-003 +5.0116490872E+001  +5.5888215625E-003 +1.0062710197E+002  +5.6931795138E-001 -1.7115300800E+000 
10396050.063 +5.6814102351E-001 +5.0695344743E+000  +1.4809852353E-003 +3.5674108671E+001  +2.9751644544E-003 +1.4645516501E+002  +5.9840144415E-001 -1.0369924521E+000 
10521195.244 +5.4122199551E-001 +4.1773871051E+000  +5.6961950974E-003 +5.9097986204E+001  +5.5984029092E-003 +9.5622869082E+001  +5.8570616767E-001 -4.0299775983E+000 
10646340.426 +5.5852575805E-001 +6.9533830743E+000  +2.7741260253E-003 +6.2738489991E+001  +5.5699479708E-003 +1.0382697481E+002  +6.1821366091E-001 +1.5805472284E+000 
10771485.607 +5.8661534611E-001 +6.5003104785E+000  +4.0551598451E-003 +5.4075624151E+001  +1.7853835885E-003 +1.6253297577E+002  +5.9765357326E-001 +8.6212947801E-001 
10896630.788 +6.1790163215E-001 +4.5592180939E+000  +5.6317329508E-003 +6.3489619293E+001  +3.9819838571E-003 +3.3507448721E+001  +5.6951921423E-001 +1.0949947894E+000 
11021775.970 +5.8484364879E-001 +6.5024734319E+000  +5.8297307273E-003 +9.0388239413E+001  +6.6740450154E-003 +7.6514955890E+001  +5.9509750457E-001 +6.7037173350E-001 
11146921.151 +6.1525575634E-001 +8.7562732295E+000  +6.6765388493E-003 +9.4785051429E+001  +4.1783045801E-003 +1.0280509690E+002  +6.2352039986E-001 +3.1632262811E+000 
11272066.333 +5.7682537582E-001 +6.5980271032E+000  +4.3327233569E-003 +9.0336598268E+001  +4.5601311137E-003 +9.6503896985E+001  +5.8595163872E-001 -2.5998913899E-001 
11397211.514 +6.0283902582E-001 +6.6265113444E+000  +3.8728015233E-003 +7.4870805748E+001  +5.7635417251E-003 +9.0642260156E+001  +6.2051297974E-001 -2.6133685975E-001 
11522356.696 +6.1608299301E-001 +5.3067921843E+000  +4.6544609522E-003 +9.1728250470E+001  +4.2172590466E-003 +9.1024881972E+001  +6.6268883651E-001 -9.3385895865E-001 
11647501.877 +6.3993592238E-001 +4.0570483086E+000  +7.4372428031E-003 +9.0194796645E+001  +5.5175730925E-003 +8.1010317869E+001  +6.7247013671E-001 -7.9817775096E-001 
11772647.059 +6.5772799869E-001 +5.9715530092E+000  +4.7017296243E-003 +9.2245247031E+001  +4.0311941034E-003 +6.0577516125E+001  +6.7320674386E-001 +1.9980554717E+000 
11897792.240 +6.4951361326E-001 +4.3951269872E+000  +5.7268897259E-003 +7.2631790850E+001  +7.1155633914E-003 +8.9254336012E+001  +6.5198102866E-001 +2.0265622953E+000 
12022937.422 +6.7375029189E-001 +6.5979803886E+000  +5.8649939404E-003 +1.0178666305E+002  +7.4253628158E-003 +1.0309183357E+002  +6.8795758591E-001 +2.3541252406E+000 
12148082.603 +6.7233597965E-001 +5.7946057240E+000  +4.3617328210E-003 +7.2762649636E+001  +6.7229881686E-003 +6.9137345890E+001  +6.9626347412E-001 +7.8548115812E-001 
12273227.785 +7.1833755649E-001 +3.4989476087E+000  +7.3564141586E-003 +7.2217699980E+001  +6.4905589202E-003 +9.3402717292E+001  +6.9738154878E-001 +2.9670469978E-001 
12398372.966 +7.1750937103E-001 +2.8154696721E+000  +4.8608272095E-003 +7.4303124212E+001  +4.2194356029E-003 +9.3268308928E+001  +7.2434980975E-001 -7.6641676884E-001 
12523518.148 +7.2203890807E-001 +3.6548645285E+000  +6.9149159458E-003 +9.1142260663E+001  +7.0469708763E-003 +1.1538812627E+002  +7.1675707330E-001 +6.6594114545E-001 
12648663.329 +7.3987446110E-001 +3.6890507176E+000  +6.5224598627E-003 +1.0651996513E+002  +5.1649510554E-003 +9.4460194845E+001  +7.6278488163E-001 -1.7629841018E+000 
12773808.511 +7.5221540270E-001 +2.7792579655E+000  +3.9409389126E-003 +7.6405414871E+001  +4.6628344444E-003 +8.3578136398E+001  +7.4265276316E-001 -3.5623145630E-001 
12898953.692 +7.5756726138E-001 +2.1146562857E+000  +5.0940193381E-003 +1.0441004836E+002  +6.0986295186E-003 +9.3642997204E+001  +8.1134702009E-001 -1.0119898772E+000 
13024098.874 +8.0048798457E-001 +2.0834228917E+000  +7.4481840801E-003 +1.0078505359E+002  +4.7949411934E-003 +9.8376404627E+001  +7.9497935160E-001 -4.4722171867E-001 
13149244.055 +8.1237434662E-001 +4.2325836986E-001  +7.6368861778E-003 +9.3050996634E+001  +4.4493906051E-003 +7.2649291754E+001  +8.2148053161E-001 -8.0678652744E-001 
13274389.237 +8.1614839849E-001 -6.9106479173E-001  +6.6195707107E-003 +8.5783411317E+001  +5.3714257033E-003 +9.5103539134E+001  +8.2317798484E-001 -1.5930459657E+000 
13399534.418 +8.2917054016E-001 -1.6835927017E+000  +8.9458449725E-003 +8.7750245528E+001  +6.8368010286E-003 +8.9703631275E+001  +8.4493684704E-001 -2.1760023861E+000 
13524679.599 +8.7168541788E-001 -1.3190871369E+000  +8.2865621581E-003 +7.7610591103E+001  +8.3219745585E-003 +9.6090034486E+001  +8.6699496337E-001 -2.8550276817E+000 
13649824.781 +8.5719292634E-001 -2.5328533540E+000  +7.1246585761E-003 +8.9232748621E+001  +5.5842884975E-003 +8.5165238513E+001  +8.8974629611E-001 -2.4471872598E+000 
13774969.962 +8.7436245125E-001 -2.0719578094E+000  +8.0358470729E-003 +8.3048381173E+001  +7.3801852899E-003 +8.3790839359E+001  +8.8570423365E-001 -2.6630087157E+000 
13900115.144 +9.0444995689E-001 -4.0221758577E+000  +5.8794962155E-003 +8.6559849148E+001  +8.3244750936E-003 +9.1855775066E+001  +9.2206985828E-001 -3.5998308036E+000 
14025260.325 +9.0989079187E-001 -3.6314540857E+000  +8.6877537162E-003 +9.2975757651E+001  +7.6704224413E-003 +7.3818360984E+001  +9.3689414174E-001 -3.9445377434E+000 
14150405.507 +9.3764989027E-001 -5.3190621103E+000  +8.6369740204E-003 +8.3247165391E+001  +7.2842252300E-003 +9.6918404142E+001  +9.5504655952E-001 -4.2641658907E+000 
14275550.688 +9.4892040837E-001 -5.1967144526E+000  +7.7832021420E-003 +9.3504084957E+001  +7.4923063487E-003 +9.6355525062E+001  +9.5489526563E-001 -3.5084080872E+000 
14400695.870 +9.7714337990E-001 -5.5684207447E+000  +7.7832231569E-003 +7.5839173150E+001  +7.2913016569E-003 +7.9551201024E+001  +9.7147553433E-001 -4.5620566202E+000 
