!  2-Port S-parameters saved by WinCal
! VAR MeasName=S-Parameters (CALIBRATED_DATA) read from VNA (P5004A)
! VAR MeasDate=28/08/2024 11:13:11
! VAR NAME=S2_r6c9_RESET1_9k-100M_1
! VAR FILENAME=S2_r6c9_RESET1_9k-100M_1.S2P
! VAR DATE=28/08/2024 11:13:11
! VAR PHYS_PORTS=1,2
! VAR ObjTypeName=DATASET
! VAR IndexType=Frequency
!
# Hz S MA R 50
9000.000 +8.4099907988E-002 -1.7485954328E+002  +1.6167831406E-003 +2.9233608692E+001  +1.1401434271E-002 -6.4791242148E+001  +3.7250403597E-001 -1.4569115179E+002 
134145.181 +1.1188577504E-001 +1.6951666694E+002  +9.2739581143E-005 +3.8602458001E+001  +4.1813306241E-004 -1.3785013792E+002  +2.4370127512E-001 -1.7126666929E+002 
259290.363 +1.1184017875E-001 +1.7000838117E+002  +4.2210489084E-004 -6.7101533540E+001  +4.0209193671E-004 +1.3562018681E+002  +2.4945313895E-001 -1.6735753704E+002 
384435.544 +1.1609278124E-001 +1.7042161789E+002  +9.7818211600E-005 -3.8035990456E+001  +7.6482605680E-004 +8.4776899515E+001  +2.4413765547E-001 -1.6974548694E+002 
509580.726 +1.1556093528E-001 +1.7120554244E+002  +1.0622237338E-003 -3.4597712495E+001  +8.5054226416E-004 +1.5733465763E+002  +2.4146839762E-001 -1.6673662372E+002 
634725.907 +1.1835789886E-001 +1.7094349059E+002  +6.3038242105E-004 -1.0405083278E+002  +6.9463984704E-004 -1.2979346354E+002  +2.5607464546E-001 -1.6731792800E+002 
759871.089 +1.1797249796E-001 +1.7081439971E+002  +1.3718565244E-003 -1.0674799283E+002  +4.7850816352E-004 -1.1237644299E+002  +2.5144159220E-001 -1.6655397023E+002 
885016.270 +1.2070544628E-001 +1.6930255343E+002  +3.7844675278E-004 +4.0004145453E+001  +3.6364144185E-004 -1.5014020046E+002  +2.4863367768E-001 -1.6702636177E+002 
1010161.452 +1.1228558585E-001 +1.7271534521E+002  +1.8780650101E-003 -6.3605254763E+001  +1.5413154609E-003 +5.3514776945E+001  +2.0068779293E-001 -1.6757077850E+002 
1135306.633 +1.1822072411E-001 +1.6968144146E+002  +1.4196994275E-003 -3.0748541771E+000  +2.7225036718E-003 -1.3408080218E+002  +1.9128363388E-001 -1.6825204469E+002 
1260451.815 +1.2178266018E-001 +1.7161342317E+002  +1.5824312488E-003 +1.8702001341E+001  +1.9247737616E-003 +7.4828527564E+001  +2.3940796084E-001 -1.5719891674E+002 
1385596.996 +1.2676739424E-001 +1.7186523222E+002  +1.4383210535E-003 -8.7663717970E+001  +1.3068291051E-003 -1.1556071931E+002  +2.6345258862E-001 -1.5646314826E+002 
1510742.178 +1.2773802976E-001 +1.7270008635E+002  +5.0444442740E-004 +1.7274298144E+001  +8.0531472196E-004 -1.5332476489E+002  +2.5851606985E-001 -1.5906222729E+002 
1635887.359 +1.2956382202E-001 +1.6973613423E+002  +8.1918210237E-005 +1.0197001133E+002  +1.2311655561E-003 -3.5240839370E+001  +2.1207667027E-001 -1.5741136890E+002 
1761032.541 +1.2608050668E-001 +1.7032148852E+002  +5.8236752974E-004 +8.1791244109E+001  +1.2696130151E-003 -1.6270609806E+002  +2.0723938166E-001 -1.5346691273E+002 
1886177.722 +1.2936606278E-001 +1.7022396851E+002  +1.2342079219E-003 -1.2691843376E+001  +1.5580750021E-003 -1.1102971982E+002  +2.2883529585E-001 -1.6188044809E+002 
2011322.904 +1.3280819552E-001 +1.6475820482E+002  +6.0766832301E-004 +2.0937402323E+001  +1.3758940750E-003 +4.7109334450E+001  +2.2095052791E-001 -1.6769886278E+002 
2136468.085 +1.2980952930E-001 +1.6643722471E+002  +1.1186376029E-003 -1.6013162573E+002  +2.9209753406E-003 -2.5379028261E+001  +1.1129950741E-001 -1.6604893586E+002 
2261613.267 +1.3054375167E-001 +1.6237408387E+002  +2.7009199221E-003 -5.3746701288E+001  +4.1454948123E-003 +6.9928296851E+001  +2.1463854681E-001 -1.7452882737E+002 
2386758.448 +1.3357778874E-001 +1.6398318140E+002  +1.6106324470E-003 -7.5719983008E+001  +6.2351024974E-003 -1.4501126520E+002  +2.0930174323E-001 +1.5474234152E+002 
2511903.630 +1.3621465612E-001 +1.6488107909E+002  +3.9460102372E-003 -1.0881989410E+002  +2.5331212408E-003 -1.5847413902E+002  +1.8875206493E-001 -1.7599296198E+002 
2637048.811 +1.2803958689E-001 +1.6457556934E+002  +1.5244271544E-002 +5.1527969259E-001  +2.7284476388E-003 -1.9399643677E+001  +2.4552881390E-001 +1.4514702284E+002 
2762193.992 +8.4633717253E-002 +1.5140741113E+002  +1.7251694790E-002 +1.4252195946E+002  +1.5281670096E-002 -2.3267734988E+000  +6.9752551040E-001 +1.6204371272E+002 
2887339.174 +1.1737596405E-001 +1.7519418168E+002  +3.9139082138E-002 -1.6479871984E+002  +1.0702649602E-002 +1.9638701710E-001  +8.0474640691E-001 -2.6311421643E+001 
3012484.355 +1.0505233161E-001 +1.7936671121E+002  +5.4678405138E-003 +7.6553887127E+001  +8.1888268487E-003 +2.2714797960E+001  +1.7509913643E-001 -4.8252032185E+001 
3137629.537 +1.2434404392E-001 +1.6400344138E+002  +1.1123221108E-002 +9.6789072002E+001  +4.1672141726E-003 +1.4690273006E+002  +1.5300409146E-001 -9.6864686692E+001 
3262774.718 +1.3779385873E-001 +1.6744067975E+002  +7.3214945670E-003 +4.6955594671E+000  +7.4919090395E-003 -1.4476499951E+002  +3.0389788708E-001 -7.9871011346E+001 
3387919.900 +1.3056522933E-001 +1.5717520631E+002  +4.6785390749E-003 +1.3485340062E+002  +8.9919429158E-003 -7.2166461218E+001  +3.6448630643E-001 +3.5670051052E+001 
3513065.081 +1.2969818876E-001 +1.5312401202E+002  +2.0781402008E-003 -4.4621830147E+000  +9.1042014604E-003 +1.1364771865E+002  +3.2916981659E-001 +1.2109269720E+002 
3638210.263 +1.7402763324E-001 +1.5186911821E+002  +3.6132805885E-002 +8.9399655009E+000  +9.7013380081E-003 -1.7226783960E+001  +2.6797048334E+000 +1.2788892801E+002 
3763355.444 +1.7718392271E-001 +1.5102920074E+002  +2.3265217942E-003 -4.6218344643E+001  +2.3849364561E-003 -8.9837727287E+001  +5.7742424228E-001 +1.2411316310E+002 
3888500.626 +1.6186492847E-001 +1.5350608308E+002  +4.7796284184E-003 +1.6341580415E+002  +5.6228639817E-003 +3.5621566956E+001  +2.5349384558E-001 +1.4297097576E+002 
4013645.807 +1.6067566457E-001 +1.4144028898E+002  +9.8808630446E-003 -3.8013022969E+001  +6.1025871901E-003 +1.0544982342E+002  +3.0001064269E-001 +1.0743951519E+002 
4138790.989 +1.9489085955E-001 +1.4427096745E+002  +5.7653397971E-003 -9.5355944551E+001  +6.3413243749E-003 -1.5866474695E+002  +6.3108449454E-001 +1.5389114409E+002 
4263936.170 +1.8019110064E-001 +1.4444178510E+002  +5.9732357927E-003 -1.7557338093E+002  +7.8180287468E-003 -1.5731127793E+002  +5.2367551278E-001 +9.6967338047E+001 
4389081.352 +1.9935033431E-001 +1.4288353852E+002  +1.0289357949E-002 -6.1146220654E+001  +4.5111018752E-003 -4.3730432189E+001  +2.2465311256E-001 +1.0395363206E+002 
4514226.533 +2.0777186912E-001 +1.3310948064E+002  +1.0037442156E-002 -3.4770967027E+001  +3.1738348833E-002 +1.3300765417E+002  +7.5446608628E-001 +1.0973106205E+002 
4639371.715 +3.2841773282E-001 +1.2491777507E+002  +5.0856519678E-002 -1.3066788142E+002  +3.5515440895E-002 +1.6521318297E+002  +1.5830564464E+000 -4.5752204509E+000 
4764516.896 +3.5921520897E-001 +1.3243577793E+002  +7.2169000113E-002 -1.0869014469E+001  +8.8684303301E-002 +1.5447771655E+002  +3.3334314929E+000 -3.3867566171E+001 
4889662.078 +2.9723112490E-001 +8.5421902395E+001  +4.2108902806E-002 -9.0651993095E+000  +2.8568534476E-002 -2.6103637073E+001  +2.2781082193E+000 -1.1287275204E+002 
5014807.259 +4.0017238008E-001 +1.0930555057E+002  +5.9735056409E-002 -1.5954445767E+002  +1.0790180917E-001 -7.7578595332E+001  +5.4048272298E+000 +1.6921240254E+001 
5139952.441 +2.9654848215E-001 +1.2657625546E+002  +5.5064949547E-003 -1.3304582161E+002  +2.0054843127E-002 +1.7362303193E+001  +5.7973630350E+000 +6.7244435456E+001 
5265097.622 +4.2775113808E-001 +1.3376862130E+002  +2.1675422717E-002 -7.9674403142E+001  +1.1954892478E-002 -2.7037707744E+001  +2.0478951107E+000 +9.9574274601E+001 
5390242.804 +3.8869121998E-001 +1.1997361769E+002  +1.8803485693E-002 +1.7808441459E+002  +4.4453259543E-002 +1.5821109014E+002  +2.6349691432E+000 +2.7275231797E+001 
5515387.985 +4.7763283444E-001 +1.2196374781E+002  +4.4169932016E-002 +2.0049487564E+001  +5.6601842541E-002 +5.0725626925E+001  +3.5820611108E+000 +3.2748887022E+001 
5640533.166 +4.5275724126E-001 +1.2555043059E+002  +7.2656570553E-003 -6.6389367436E+001  +1.1398750294E-002 +2.0781600655E+000  +1.2380041788E+000 +5.2580111609E+001 
5765678.348 +5.1191903950E-001 +1.1849832679E+002  +1.9010186740E-002 -1.2504231003E+002  +1.3805261718E-002 +1.5985780284E+002  +1.2531081537E+000 +8.1921209367E+001 
5890823.529 +5.3763696805E-001 +1.1301440291E+002  +1.9057069190E-002 +6.6261820497E+001  +1.6802833264E-002 -1.5049417283E+002  +2.1963109170E+000 +1.3384913238E+001 
6015968.711 +6.5809256203E-001 +1.2364514412E+002  +2.2328425109E-003 -1.6463845118E+002  +3.2994002058E-002 +1.4168552025E+002  +2.3141523766E+000 +4.8511904238E+001 
6141113.892 +8.0032646156E-001 +1.1441548030E+002  +1.5916713740E-002 +1.7919251085E+002  +1.5094319305E-002 +7.8601485660E+001  +1.6283004630E+000 +5.2090338355E+001 
6266259.074 +8.4072111295E-001 +1.1018408044E+002  +2.0837040934E-002 -1.7820912842E+002  +1.5976777185E-002 +1.0628282345E+002  +1.4498728562E+000 +1.3834010237E+001 
6391404.255 +9.5753393628E-001 +9.5768806740E+001  +1.2226215099E-002 -6.9492078273E+001  +1.7159404567E-002 +5.9146144139E+001  +1.5172298216E+000 +1.3350622594E+001 
6516549.437 +1.2549520373E+000 +8.9725632557E+001  +1.6990029245E-002 -1.2528292817E+000  +1.2677938055E-002 +1.8898042520E+001  +1.2673464550E+000 +1.6114700866E+000 
6641694.618 +1.8598983167E+000 +6.3456394275E+001  +3.9040010712E-002 +9.0295183513E+001  +2.9997047675E-002 -1.7255425236E+002  +1.4583294715E+000 -7.6405063374E+000 
6766839.800 +2.1794228859E+000 +4.8991864299E+001  +2.2787352860E-003 +1.2557126001E+002  +1.9103160043E-002 -3.4136191032E+001  +1.4636963963E+000 +9.1651304062E+000 
6891984.981 +1.7366013306E+000 +4.1613452590E+001  +2.5657932993E-002 +4.7176960511E+001  +1.5601422199E-002 +1.7384854618E+002  +1.1717406228E+000 -2.4973891068E+000 
7017130.163 +1.9772769727E+000 +1.6102875853E+001  +1.7887210253E-002 +7.6761129576E+001  +2.8846998787E-002 +5.9880824568E+001  +1.2810898139E+000 -1.0674373420E+001 
7142275.344 +1.7293997859E+000 +4.8977871489E+000  +1.2596084719E-003 -1.2998924745E+002  +1.7802915279E-002 +1.3280363688E+002  +1.3545927031E+000 -9.8229906159E+000 
7267420.526 +1.5051265275E+000 +4.5287088469E+000  +8.8975000992E-003 +1.3444949710E+002  +6.1521449838E-003 +8.1111642173E+001  +1.3346651236E+000 -8.4484766754E+000 
7392565.707 +1.3631396599E+000 -7.1173359480E+000  +6.9311703500E-003 +1.3359275640E+002  +6.4423113743E-003 +3.3880164651E+001  +1.3454157694E+000 -2.6998309599E+000 
7517710.889 +1.1737712617E+000 -1.0536920931E+000  +3.8609993751E-003 +8.4486792407E+001  +1.1442942098E-002 +9.1895839608E+001  +1.2700640899E+000 -7.7653288696E-002 
7642856.070 +9.5099598569E-001 -2.3656026983E+000  +3.5325231296E-003 +3.9673447205E+001  +4.8603649965E-003 -1.1975873063E+002  +1.1931547767E+000 -7.7587532579E+000 
7768001.252 +9.8504684030E-001 +2.8182811739E+000  +1.3965535446E-002 +1.6463795208E+002  +8.0689127540E-003 +1.1388224160E+002  +1.0232065954E+000 -9.7814698905E+000 
7893146.433 +8.9789572536E-001 +3.7574909761E+000  +8.7244399679E-003 -2.3450280519E+000  +4.4060598950E-003 +1.4429047621E+002  +9.4257052916E-001 -5.8825003150E+000 
8018291.615 +8.7458870153E-001 +1.9908111005E+000  +6.3557423702E-003 +3.8294202984E+001  +6.4275397099E-003 +3.7650565293E+001  +8.9997368682E-001 -8.7555925091E-001 
8143436.796 +7.8192300912E-001 +4.9069500646E+000  +5.2992305168E-003 +1.1248204950E+002  +4.1375604275E-003 +5.0806143725E+001  +8.6461557267E-001 +2.9725135024E+000 
8268581.977 +7.4935596577E-001 -5.1145796835E-001  +9.5357969660E-004 +4.3554365813E+001  +7.0924013606E-003 +1.2452063859E+002  +7.9068889634E-001 -1.4754834917E+000 
8393727.159 +6.3540884726E-001 +4.9006232396E+000  +4.3463602052E-003 +9.8805345928E+001  +7.4909118102E-003 +7.3191548604E+001  +7.3659153651E-001 +5.0263458775E+000 
8518872.340 +7.5356035594E-001 +7.8210791710E+000  +3.5543472196E-003 +6.5499462586E+001  +5.1836723995E-003 -3.3631539741E+000  +7.1237729861E-001 -1.6728597830E+000 
8644017.522 +6.6223542470E-001 +1.3158223758E+000  +3.6433874599E-003 +7.5894900491E+001  +4.7676262714E-003 +1.0392511560E+002  +6.9276203641E-001 -1.0526067188E+000 
8769162.703 +6.0250080308E-001 +5.3302362146E+000  +6.1392374423E-003 +5.0207228552E+001  +5.4759860461E-003 +5.5380247874E+001  +6.8008958496E-001 +7.9326954628E+000 
8894307.885 +6.4658620386E-001 +1.0428286982E+001  +3.1321235242E-003 +1.1810584380E+002  +1.7404923564E-003 +7.4762435955E+001  +6.3173781042E-001 +3.0762337579E+000 
9019453.066 +6.0467284360E-001 +9.1217008316E+000  +6.3573110428E-003 +3.5395016870E+001  +4.1362404786E-003 +8.0074997464E+001  +6.1417912817E-001 -2.8414763674E+000 
9144598.248 +5.7341020769E-001 +4.9429606157E+000  +3.4348283322E-003 +1.1801259347E+002  +5.1439694540E-003 +1.1490625238E+002  +6.0540571831E-001 -1.3476565773E+000 
9269743.429 +6.1987213546E-001 +2.3230354173E+000  +5.7005850463E-003 +4.4673767314E+001  +6.7918970245E-003 +8.0152366838E+001  +6.3801686736E-001 -3.0513448524E-001 
9394888.611 +5.4995317025E-001 +8.0445708596E+000  +1.9788511218E-003 +9.0567471095E+001  +5.0088400535E-003 +1.0611157688E+002  +5.4640761460E-001 -3.0049218023E+000 
9520033.792 +5.6249703422E-001 -5.9053199268E-001  +2.4883199149E-003 +8.8019873583E+001  +6.9809913755E-003 +1.0206128208E+002  +5.6504709965E-001 -6.5924028311E+000 
9645178.974 +5.3589142017E-001 +3.9077442607E-001  +3.5789237254E-003 +1.1033927321E+002  +5.4835746157E-003 +1.2802538839E+002  +5.8227985377E-001 -2.9474016870E+000 
9770324.155 +5.3066491542E-001 -1.9184907831E-001  +4.7280926626E-003 +1.1322072159E+002  +1.7319983524E-003 -1.1025474552E+002  +5.5634443554E-001 -8.9035792280E+000 
9895469.337 +5.6800448278E-001 +4.4459606354E-001  +5.5875163568E-003 +7.3784296064E+001  +3.0595064157E-003 +5.9829816607E+001  +5.7170863356E-001 -4.8931759040E+000 
10020614.518 +5.2034155743E-001 +2.3743334499E+000  +2.1265085977E-003 +4.2563628085E+001  +1.4398866160E-003 +1.6911171581E+001  +5.8567346377E-001 -5.0867873527E+000 
10145759.700 +5.3848483809E-001 +4.6403857545E+000  +4.0866592038E-003 +7.1464273976E+001  +4.0747046462E-003 +1.2742623393E+002  +6.0781183028E-001 -2.3227499407E+000 
10270904.881 +6.0095465520E-001 +3.3075610620E+000  +3.4349642949E-003 +6.9922170491E+001  +4.2929025465E-003 +9.1180599574E+001  +6.0885134647E-001 -4.7251943152E+000 
10396050.063 +5.8328906991E-001 +3.7752679981E+000  +7.0339880294E-003 +4.5307754515E+001  +5.6989887929E-003 +1.0464062638E+002  +5.8519656941E-001 +1.2850446028E+000 
10521195.244 +5.2959016334E-001 +1.9722821153E+000  +3.3979556571E-003 +9.4467692409E+001  +5.0188858310E-003 +1.0552097615E+002  +5.9111718631E-001 -6.9314944918E-001 
10646340.426 +5.4132349113E-001 +8.1323071965E+000  +1.8622225077E-003 +4.5680753907E+001  +2.2370514311E-003 +1.0050378988E+002  +6.1898073239E-001 -1.0435615698E+000 
10771485.607 +5.4031117195E-001 +5.6170101623E+000  +4.0892620890E-003 +1.0924406808E+002  +5.7159534863E-003 +1.0866131100E+002  +6.0295966040E-001 +1.4762200719E+000 
10896630.788 +5.8913822426E-001 +4.3038501767E+000  +4.1126816359E-003 +1.0703156416E+002  +4.9677486707E-003 +9.7392727093E+001  +6.1606240858E-001 -2.2266605749E+000 
11021775.970 +5.8077545487E-001 +7.0290101031E+000  +4.5735788252E-003 +1.1215722363E+002  +3.5192198328E-003 +1.2062719189E+002  +6.0956306849E-001 +1.1614921537E+000 
11146921.151 +5.9581549736E-001 +7.7179988988E+000  +6.4389717701E-003 +6.7684908317E+001  +5.8453035207E-003 +9.3576505777E+001  +6.1135881589E-001 +9.0974128175E-001 
11272066.333 +6.0903367641E-001 +7.0854736953E+000  +3.4408956703E-003 +1.0613598481E+002  +5.9385663578E-003 +1.0773305968E+002  +6.5402266615E-001 -3.5829025788E-001 
11397211.514 +5.9394776762E-001 +6.5665479398E+000  +3.1517687573E-003 +7.1077262890E+001  +5.5527419331E-003 +8.8397360675E+001  +6.3621298403E-001 +3.7834235718E+000 
11522356.696 +5.9675878212E-001 +5.6669807691E+000  +3.4051835294E-003 +9.1268097867E+001  +3.2487654056E-003 +9.9960350625E+001  +6.1627852945E-001 +1.6216477394E+000 
11647501.877 +6.2614416693E-001 +3.7555014662E+000  +6.3737972998E-003 +9.1185835846E+001  +6.8727919335E-003 +8.8659826109E+001  +6.3822947652E-001 +9.4383234921E-001 
11772647.059 +6.2613401830E-001 +3.6992972984E+000  +4.1597581306E-003 +8.8409742374E+001  +4.9701798221E-003 +8.3619701262E+001  +6.7375718021E-001 +9.4139459249E-001 
11897792.240 +6.8833668908E-001 +2.6807813902E+000  +4.5693981532E-003 +1.2033728236E+002  +5.0321612585E-003 +1.0744080096E+002  +6.6869967779E-001 +1.9038162337E-001 
12022937.422 +6.7450912226E-001 +5.5176073845E+000  +6.4062494084E-003 +7.3294137239E+001  +5.1651079292E-003 +1.1671333122E+002  +7.0720501020E-001 +2.0075154917E+000 
12148082.603 +6.6328891521E-001 +4.5326314457E+000  +5.0741137689E-003 +9.7225863643E+001  +6.1305626652E-003 +9.3466848899E+001  +6.9986855183E-001 +1.6960166471E+000 
12273227.785 +7.0403862867E-001 +4.7890006714E+000  +4.2148126139E-003 +7.1985320361E+001  +6.7875127778E-003 +7.0720355868E+001  +7.0931917659E-001 +3.5856794834E-001 
12398372.966 +7.3203581953E-001 +4.4851835442E+000  +4.7710076469E-003 +9.6377340159E+001  +6.1444329141E-003 +1.0653486452E+002  +7.4715388685E-001 -1.6975207121E+000 
12523518.148 +7.3904669715E-001 +2.9274712047E+000  +5.9423961225E-003 +9.3554897915E+001  +5.5219853519E-003 +8.5425434610E+001  +7.5836392000E-001 +1.0752206166E+000 
12648663.329 +7.3746190446E-001 +3.1976703304E+000  +4.5979304171E-003 +8.9487901706E+001  +5.0812748592E-003 +1.0096925624E+002  +7.4775589895E-001 +9.6931116924E-001 
12773808.511 +7.6736513080E-001 +2.6358956962E+000  +7.1605496142E-003 +9.2857231203E+001  +5.6795389401E-003 +9.8537882539E+001  +7.6705589780E-001 +1.8962779734E-001 
12898953.692 +7.6314526097E-001 +1.5682738786E+000  +6.7705132767E-003 +8.8420626658E+001  +5.1419811512E-003 +1.0198427338E+002  +7.6160011703E-001 -1.0335053889E+000 
13024098.874 +7.9713309767E-001 +1.3101390687E+000  +5.4049801672E-003 +9.0196882172E+001  +7.1828542229E-003 +1.0565449838E+002  +7.7886894492E-001 -4.2082013207E-002 
13149244.055 +8.0505366568E-001 +5.1858962127E-001  +5.9430852426E-003 +9.6883600595E+001  +5.8151078602E-003 +8.1733928411E+001  +8.1014356881E-001 -2.6138719907E+000 
13274389.237 +8.0458679574E-001 -1.0623919529E+000  +5.1786690405E-003 +9.2428373316E+001  +6.6809945691E-003 +9.9640889549E+001  +8.4022038897E-001 -2.6665748870E+000 
13399534.418 +8.2161745223E-001 -2.5338585060E+000  +6.3200480839E-003 +7.7670688621E+001  +4.2347967954E-003 +8.9278080075E+001  +8.5778296710E-001 -1.9908967422E+000 
13524679.599 +8.4590712107E-001 -7.0307802332E-001  +6.9843276096E-003 +7.6792583658E+001  +5.8870009881E-003 +9.5434642914E+001  +8.6693391743E-001 -2.5139791850E+000 
13649824.781 +8.8947247173E-001 -2.2118084573E+000  +5.0720022982E-003 +1.0957651684E+002  +6.2719979313E-003 +9.4080669683E+001  +8.8566589948E-001 -5.0497448274E-001 
13774969.962 +8.8726244329E-001 -2.1974502897E+000  +5.6933665002E-003 +1.0978561299E+002  +5.5673738526E-003 +9.0416119316E+001  +8.8218350265E-001 -3.2964401866E+000 
13900115.144 +9.1557017222E-001 -5.4483034691E+000  +7.7384446003E-003 +9.1351540760E+001  +5.8869072364E-003 +9.1326906798E+001  +9.1255574309E-001 -3.5412160050E+000 
14025260.325 +9.1711994314E-001 -3.3654235940E+000  +7.2862196561E-003 +9.7225723082E+001  +6.8099002928E-003 +9.3287248005E+001  +9.5306543849E-001 -4.1564648458E+000 
14150405.507 +9.6309116829E-001 -3.7857790252E+000  +7.2385690607E-003 +8.9552231315E+001  +7.3447622240E-003 +8.8215462418E+001  +9.5678064925E-001 -3.4625079864E+000 
14275550.688 +9.6105168696E-001 -4.5026954675E+000  +7.1077382289E-003 +8.7125545760E+001  +7.4647600909E-003 +8.6567677046E+001  +9.7362434714E-001 -4.1420695018E+000 
14400695.870 +9.9154453128E-001 -4.5072602682E+000  +7.7088731529E-003 +9.1668163548E+001  +6.8308973076E-003 +9.1235844660E+001  +9.9927164985E-001 -4.9464414921E+000 
