!  2-Port S-parameters saved by WinCal
! VAR MeasName=S-Parameters (CALIBRATED_DATA) read from VNA (P5004A)
! VAR MeasDate=28/08/2024 10:28:56
! VAR NAME=S2_r4c9_SET2_9k-100M_3
! VAR FILENAME=S2_r4c9_SET2_9k-100M_3.S2P
! VAR DATE=28/08/2024 10:28:56
! VAR PHYS_PORTS=1,2
! VAR ObjTypeName=DATASET
! VAR IndexType=Frequency
!
# Hz S MA R 50
9000.000 +7.9475411918E-002 -1.7238274657E+002  +7.0050350150E-003 +3.2107861207E+001  +1.2372929575E-002 +1.5331200552E+002  +2.5211513895E-001 -1.4539904348E+002 
134145.181 +1.1162383067E-001 +1.6977581548E+002  +3.7127556372E-004 -4.1198208382E+001  +9.1140397112E-005 +3.9006399807E+000  +2.4179227936E-001 -1.7198646475E+002 
259290.363 +1.1122842532E-001 +1.6996130507E+002  +2.6624942031E-004 +3.0612058051E+001  +6.3853732530E-004 -9.1644041780E+001  +2.4120152809E-001 -1.6915384455E+002 
384435.544 +1.1470120419E-001 +1.6942220075E+002  +3.0886134520E-004 -1.7561772350E+002  +5.5148591700E-004 -9.5421416633E+001  +2.4609623576E-001 -1.6905222513E+002 
509580.726 +1.1315593885E-001 +1.7169718855E+002  +7.7474538831E-004 +4.7494373176E+000  +4.4551481544E-004 -1.5782230651E+002  +2.3838674776E-001 -1.6615615122E+002 
634725.907 +1.1390282439E-001 +1.7136182908E+002  +1.5966923738E-003 +1.4696655820E+002  +4.1387052835E-004 +1.0719795306E+002  +2.5406962503E-001 -1.6397670323E+002 
759871.089 +1.2050102345E-001 +1.7176869526E+002  +5.5889180128E-004 +7.5263824681E+001  +1.3161390077E-003 -6.1038794798E+001  +2.5476773094E-001 -1.6428533949E+002 
885016.270 +1.1981258653E-001 +1.6950962818E+002  +6.2757897286E-004 -1.3765251241E+002  +4.9449420125E-005 +1.3360859631E+002  +2.4896197548E-001 -1.6643282070E+002 
1010161.452 +1.1636267666E-001 +1.7124057757E+002  +1.0264582394E-003 -1.1914936504E+002  +1.1611286848E-003 +7.0984220295E+001  +2.2277032280E-001 -1.6461778317E+002 
1135306.633 +1.1645133825E-001 +1.7023893105E+002  +5.6421945809E-004 -3.8494143974E+000  +1.2138743970E-003 -5.1309710413E+001  +1.8539905762E-001 -1.5932238150E+002 
1260451.815 +1.2008032038E-001 +1.7199335777E+002  +1.6159493454E-003 -9.5803912341E+001  +2.4027003097E-003 +1.7322745509E+002  +2.1563047598E-001 -1.5694245395E+002 
1385596.996 +1.2343698548E-001 +1.7316709533E+002  +5.4284558835E-005 -2.1902763828E+001  +3.3383585128E-004 +1.2641803777E+002  +2.6482361588E-001 -1.5608303792E+002 
1510742.178 +1.2983821303E-001 +1.7224362204E+002  +1.9722723360E-004 +1.7920786102E+002  +5.9309592365E-004 -1.3463310812E+002  +2.6472482329E-001 -1.5967014023E+002 
1635887.359 +1.3045675925E-001 +1.7128974591E+002  +1.5548857137E-003 -1.2859874800E+002  +8.8974192355E-005 +1.0172323508E+002  +2.6227711433E-001 -1.5686025787E+002 
1761032.541 +1.2891138936E-001 +1.7130042051E+002  +4.9656140005E-004 +6.1419490920E+001  +1.2497729733E-003 -1.1546971619E+002  +2.2450272261E-001 -1.5999343737E+002 
1886177.722 +1.3393923756E-001 +1.6874446717E+002  +1.2614193793E-003 +6.2381929939E+001  +1.3328638367E-003 -1.1919418281E+002  +2.1947434908E-001 -1.6135083683E+002 
2011322.904 +1.2903492253E-001 +1.6724356550E+002  +9.1405541050E-004 -3.3870645045E+001  +1.4433926074E-003 -7.6984836979E+001  +2.0089836328E-001 -1.6323311746E+002 
2136468.085 +1.2662342492E-001 +1.6629415627E+002  +9.7539512367E-004 +6.3490753504E+001  +1.5120786665E-003 +3.9565850176E+001  +2.2375876930E-001 -1.6658129198E+002 
2261613.267 +1.2977995349E-001 +1.6218006829E+002  +4.7366910046E-003 +5.5100114317E+001  +1.9032875797E-003 -8.9881750451E+001  +1.8441449333E-001 -1.6387836200E+002 
2386758.448 +1.3310534773E-001 +1.6396062915E+002  +1.7787569641E-003 -1.0804237054E+002  +1.5856898771E-003 -1.6325173688E+002  +1.9833416699E-001 -1.6488089248E+002 
2511903.630 +1.2544201779E-001 +1.6182515352E+002  +2.3968476164E-003 +9.1776900102E+001  +2.0557309900E-003 -4.6518687733E+001  +1.8668765768E-001 +1.6645661639E+002 
2637048.811 +1.2705497334E-001 +1.5754176465E+002  +1.2646286908E-002 +1.4987947794E+002  +7.6939961578E-003 -5.7233751965E+001  +4.9909102935E-002 +1.6052911020E+002 
2762193.992 +1.1962654494E-001 +1.7315520321E+002  +6.7515364756E-003 +1.2268924901E+002  +2.2139920154E-002 -1.7360290350E+002  +8.8705259536E-001 -1.0403517246E+002 
2887339.174 +1.2020670721E-001 +1.7446697476E+002  +7.8662033478E-003 -1.8226345966E+001  +7.3000118965E-003 -1.0276185541E+002  +2.2794255092E-001 -8.5722803206E+001 
3012484.355 +1.1656863656E-001 +1.6603812127E+002  +1.1939581940E-002 +1.6228167361E+002  +1.4725135478E-002 -9.7328575149E+001  +6.8159077035E-001 -1.0477215176E+002 
3137629.537 +1.3643494818E-001 +1.7257087631E+002  +1.4936220793E-002 -4.7446777750E+000  +5.9244041089E-003 -1.6140070088E+002  +9.9450633775E-002 -6.1501652451E+001 
3262774.718 +1.0997305633E-001 +1.6734814285E+002  +1.7854149415E-002 -8.3942925700E+001  +3.4102558662E-002 -1.6280935790E+002  +8.2866807558E-001 -8.9043981830E+001 
3387919.900 +1.2485537950E-001 +1.5990804331E+002  +8.8193110360E-003 +1.8364124793E+001  +1.4923894925E-002 -1.0197133868E+002  +1.9425232547E-001 -1.5550633523E+001 
3513065.081 +1.7411796940E-001 +1.4677009219E+002  +8.7123179497E-003 +4.4175533326E+000  +5.9352015099E-003 +7.3920953989E+001  +3.3843110909E-001 +1.4888019381E+002 
3638210.263 +1.7841960614E-001 +1.4501180355E+002  +2.0383581688E-002 +7.5407184799E+001  +4.6716762055E-003 +9.1740586173E+000  +5.0766404185E-001 +1.4119833636E+002 
3763355.444 +1.7978888849E-001 +1.4590460469E+002  +7.4028450727E-003 +7.4383603451E+001  +7.0004270542E-003 +7.7386920254E+001  +4.1058526095E-001 +1.5651123967E+002 
3888500.626 +1.4856425380E-001 +1.5284289134E+002  +3.1471080286E-003 +9.7335723749E+001  +1.0353147430E-002 +1.4434461244E+001  +4.8501673129E-001 +1.4636626413E+002 
4013645.807 +1.7568572250E-001 +1.4608927288E+002  +6.0176984985E-003 +9.2798633308E+001  +8.3629321843E-003 +1.0844295873E+002  +2.6512593695E-001 +1.3117558444E+002 
4138790.989 +2.0713813907E-001 +1.4299110659E+002  +9.3286818563E-003 +1.0186271717E+002  +1.6114584046E-002 +3.6061627922E+001  +3.2965324439E-001 +1.2108326454E+002 
4263936.170 +2.4662083985E-001 +1.3852454555E+002  +5.5102107814E-003 -1.6781979281E+002  +5.5122560038E-003 +7.0404763406E+001  +3.5772882810E-001 +9.6898021240E+001 
4389081.352 +2.2497794911E-001 +1.4130228416E+002  +4.1928575222E-002 +1.1943950281E+002  +4.2717320545E-003 +5.9831310054E+001  +1.4386964411E+000 +7.6251704940E+001 
4514226.533 +3.1619640527E-001 +1.3169004569E+002  +1.1794477446E-001 -9.9682145078E+001  +1.7096488360E-002 -1.1914392405E+001  +3.3745668875E+000 -1.3705131618E+002 
4639371.715 +2.2577283131E-001 +1.2286397763E+002  +2.8568004966E-002 +1.5336940217E+002  +1.2570334434E-002 +9.8251051625E+001  +1.7479628532E+000 +1.5897313222E+002 
4764516.896 +4.3556994622E-001 +1.2071039330E+002  +7.3270778497E-002 -7.7942585018E+001  +2.6266153681E-002 -1.0070550550E+002  +3.3794817866E+000 -1.5459413030E+002 
4889662.078 +4.3694966360E-001 +1.1788529956E+002  +1.8820098185E-001 -3.3451999317E+001  +7.4671636769E-002 -1.3122023737E+001  +8.1949486830E+000 -8.5767375092E+001 
5014807.259 +4.0880033720E-001 +1.2968359878E+002  +2.1043148658E-002 +1.7838324933E+002  +5.6029629422E-002 +1.2105731126E+002  +2.6367189251E+000 +1.0947982071E+002 
5139952.441 +3.8564461634E-001 +1.2824862440E+002  +2.6440390685E-002 -1.2590764129E+002  +3.3106345181E-003 +9.0175161933E+000  +1.7954196290E+000 +6.1423703086E-001 
5265097.622 +4.2972434290E-001 +1.1364411260E+002  +2.5528033233E-002 +1.6273625724E+002  +4.3119544034E-002 -1.5544738608E+001  +1.7010769468E+000 +6.4851941526E+001 
5390242.804 +4.4498016246E-001 +1.3779741586E+002  +2.2380214222E-002 +1.2416921440E+002  +1.3293372090E-002 +1.2523627579E+000  +1.5891644410E+000 +1.1134641192E+002 
5515387.985 +5.4590930062E-001 +1.3594782941E+002  +4.0460711960E-002 +1.6122505330E+002  +4.8516546999E-002 +1.2437767863E+002  +2.2932924172E+000 +9.1120577012E+001 
5640533.166 +4.4881237256E-001 +1.2940451152E+002  +3.1235975934E-002 +6.8216975026E+001  +2.1550982685E-003 +1.5486639069E+002  +2.2765988897E+000 +6.8132931354E+001 
5765678.348 +5.3397022929E-001 +1.2207424591E+002  +3.5296878823E-002 +1.3639875994E+002  +1.0952833861E-002 +4.2651476713E+001  +1.8885303360E+000 +7.2070918071E+001 
5890823.529 +5.2916389652E-001 +1.2755523316E+002  +3.3557242844E-002 +9.8766408847E+001  +2.0089485122E-002 +1.6274139765E+001  +2.2750888479E+000 +6.1841136896E+001 
6015968.711 +6.3593279687E-001 +1.1603148003E+002  +1.1983940506E-002 +9.1153113156E+000  +3.9947657502E-002 +5.8794518980E+001  +1.6432955945E+000 +5.1312991662E+001 
6141113.892 +6.5753731260E-001 +1.0708760882E+002  +2.8377589769E-002 +7.7595355056E+001  +1.9545206256E-002 +6.0672338635E+001  +1.5477784161E+000 +2.8010096585E+001 
6266259.074 +6.9553668347E-001 +1.0382546435E+002  +2.6144519877E-002 +5.2076871292E+001  +1.8035256702E-002 +1.1758498810E+002  +1.8539346088E+000 +1.6201542872E+001 
6391404.255 +1.1755396014E+000 +8.6138007027E+001  +6.0780295843E-002 +3.3404538454E+001  +1.0630197852E-001 +7.8187199612E+001  +1.8378363315E+000 -4.2320482534E-001 
6516549.437 +1.1659734710E+000 +8.5752471902E+001  +5.2544697268E-002 +3.9789270039E+001  +3.9165463133E-002 +1.9904838131E+001  +1.5464023751E+000 +1.0478243535E+001 
6641694.618 +1.7339025795E+000 +8.2340400244E+001  +2.5987570522E-002 +4.7719667907E+001  +5.6790030795E-002 +9.8161754546E+001  +1.4082348235E+000 -1.1384601249E+000 
6766839.800 +1.5803259121E+000 +6.7061817155E+001  +2.6083556598E-002 +7.4760970206E+001  +3.9991069446E-002 +2.6745549065E+001  +1.2021746610E+000 -7.4565059754E-001 
6891984.981 +2.5599674565E+000 +1.2328513261E+001  +6.7866656492E-002 -5.4321730665E+000  +2.0233979915E-002 -2.1529588163E+000  +1.3388062998E+000 -6.0176992225E+000 
7017130.163 +1.9881821609E+000 +1.0959749838E+001  +3.5637139240E-002 +1.9419522976E+001  +4.8815122805E-002 +2.2187676993E+001  +1.2649817879E+000 -9.7311831240E+000 
7142275.344 +1.7654592207E+000 +1.1221969231E+001  +3.0811638821E-002 -1.0395511717E+000  +2.7139129530E-002 -2.7402767686E+001  +1.2929762412E+000 -1.0175393989E+001 
7267420.526 +1.6113969217E+000 -3.1515168605E+000  +2.2536845787E-002 -9.5859263475E+000  +1.0265539704E-002 +1.0261285832E+002  +1.3118025565E+000 -1.5692648738E+001 
7392565.707 +1.1368723452E+000 +3.5617928959E+000  +9.7863667050E-003 +7.9078543801E+001  +2.2475882509E-002 +2.0211527599E+001  +1.2647357377E+000 -9.4145176348E+000 
7517710.889 +1.1513734884E+000 +3.7267477377E+000  +1.7116751364E-002 +3.0957601749E+001  +2.1872322612E-002 -2.4823106235E+000  +1.3458142349E+000 -7.4450440937E+000 
7642856.070 +9.9889666998E-001 +2.8725204698E+000  +1.2844879711E-002 +1.5650351656E+001  +1.2497140088E-002 +2.0209954427E+001  +9.8432032651E-001 -7.2985882457E+000 
7768001.252 +9.4645971231E-001 +5.8347810152E+000  +1.5237309257E-002 +1.9207959079E+001  +1.7855001098E-002 +2.9177145614E+001  +1.0848820287E+000 -1.3043337085E+000 
7893146.433 +9.5252498595E-001 +1.9882967607E+000  +1.3587769464E-002 -3.7664511138E+000  +1.0953762661E-002 +6.6652836776E+001  +8.7578625528E-001 +3.0195750118E+000 
8018291.615 +8.0167116757E-001 -6.0843383321E-001  +1.6894867146E-002 +1.1865255172E+001  +7.2781725596E-003 +2.4852821462E+001  +8.5440918780E-001 +9.7736027008E-001 
8143436.796 +8.0240329611E-001 +5.8050114088E+000  +1.3319699358E-002 +1.0229290135E+000  +1.8410707769E-002 +3.8567737402E+001  +8.7157687489E-001 -4.1110552365E+000 
8268581.977 +6.8934256076E-001 +6.7349367022E+000  +1.0447627983E-002 +4.8074913958E+001  +8.7150638117E-003 +3.8230147784E+001  +7.9598257264E-001 -4.7314152058E-002 
8393727.159 +7.6843473388E-001 +1.0228125029E+001  +1.0242964730E-002 +1.7293488130E+001  +1.5274726542E-002 +1.1552772947E+001  +7.9682336686E-001 -1.1073630989E+000 
8518872.340 +5.7577100466E-001 +1.2002052462E+001  +1.0024581449E-002 -7.9432092950E-001  +1.1006711065E-002 +1.8779837866E+001  +6.8423226604E-001 +2.2924721180E+000 
8644017.522 +6.2529642646E-001 +8.8858813833E+000  +1.1063322500E-002 +2.0291132461E+001  +8.9375342953E-003 +4.5549900919E+001  +6.6292018605E-001 -1.0394332797E+000 
8769162.703 +6.1880660812E-001 +1.2375256027E+001  +1.0991425701E-002 +3.1765545851E+001  +1.0082930527E-002 +5.1481698586E+001  +6.9998084292E-001 -6.8846725017E-001 
8894307.885 +5.6704837102E-001 +1.0760488207E+001  +1.1954529420E-002 +1.9160041771E+001  +1.0766270543E-002 +1.8661709167E+001  +7.2016364089E-001 +2.9589021174E+000 
9019453.066 +5.8873773114E-001 +8.9942559794E+000  +1.3362846617E-002 +2.1270476793E+001  +1.0347709907E-002 +3.8539168616E+001  +6.1108884164E-001 -2.0763708191E+000 
9144598.248 +5.7300836370E-001 +6.0553043846E+000  +7.4251867491E-003 +1.4407438533E+001  +1.1226869179E-002 +2.3802739167E+000  +6.1907754271E-001 +3.1812490242E+000 
9269743.429 +5.6396644411E-001 +5.7309320115E+000  +1.5457007853E-002 +2.2811154175E+001  +5.1500794687E-003 +3.6727732912E+001  +6.3154124336E-001 -4.7012057014E+000 
9394888.611 +5.6567877114E-001 +5.7102478736E+000  +9.9446674525E-003 +2.3753515534E+001  +1.1754233296E-002 +3.5068757452E+001  +5.9604136247E-001 -5.6061568855E-001 
9520033.792 +5.0435407432E-001 +1.3430058658E-001  +7.8758445656E-003 +2.3618173930E+001  +9.0953736750E-003 +2.3391695921E+001  +5.7887713822E-001 -8.4735541166E+000 
9645178.974 +5.7971803123E-001 +1.1897011327E+000  +1.1455847329E-002 +1.7881614738E+001  +1.1892508000E-002 +4.6905345992E+001  +5.9243140013E-001 -5.3469004964E+000 
9770324.155 +5.3321550673E-001 -3.8612550713E+000  +1.2099571171E-002 +1.9507812493E+001  +1.1108010143E-002 +2.8667900730E+001  +5.8669455773E-001 -1.2586639585E+001 
9895469.337 +5.2728782370E-001 +5.0727004010E+000  +1.0751710987E-002 +3.1976050290E+000  +8.4356879068E-003 +3.4156224120E+001  +5.6020785839E-001 -7.8600378763E+000 
10020614.518 +5.6837704619E-001 -2.2149444777E+000  +8.2748970023E-003 +1.1654314104E+000  +9.4607227337E-003 +5.6946456581E+001  +5.4792710883E-001 -8.6546105544E+000 
10145759.700 +5.3887386931E-001 +1.7994373079E+000  +1.2660412700E-002 +1.6399137140E+001  +1.0321057073E-002 +2.8072236642E+001  +5.7650700564E-001 -4.5449595356E+000 
10270904.881 +5.2363673225E-001 +5.3675166205E+000  +1.0667900918E-002 +3.0188168782E+001  +8.9330158209E-003 +3.1734941575E+001  +5.6860222160E-001 -2.8129246299E+000 
10396050.063 +5.2444384634E-001 +4.2011166006E+000  +9.9105036745E-003 +7.7287840614E+000  +1.3857496845E-002 +4.0780970423E+001  +5.9248806477E-001 -3.2532992347E-001 
10521195.244 +5.1372861032E-001 +5.2218671506E+000  +9.2316594543E-003 +2.9608388673E+001  +1.2068011891E-002 +4.8965139143E+001  +5.5824932952E-001 -1.7683842390E+000 
10646340.426 +5.5346149666E-001 +5.7147893878E+000  +1.0522917885E-002 +2.1612074536E+001  +1.1487936301E-002 +4.3054531496E+001  +5.9840034438E-001 -5.3510268449E-001 
10771485.607 +5.4584544818E-001 +7.5444001545E+000  +8.9205903785E-003 +1.7966865067E+000  +1.2046351799E-002 +1.6120895617E+001  +6.1717404081E-001 -1.1512623083E+000 
10896630.788 +5.5259186966E-001 +7.9317192996E+000  +1.2211183539E-002 +1.7228580999E+001  +1.1530752535E-002 +3.2347480510E+001  +5.5171693889E-001 +6.9361516026E-001 
11021775.970 +6.0244522527E-001 +7.1390991084E+000  +1.0777647461E-002 +2.6405516771E+001  +9.2590615916E-003 +3.8612240910E+001  +6.5353609587E-001 +2.2721193308E+000 
11146921.151 +5.9699136283E-001 +3.7981760286E+000  +1.1676988167E-002 +1.9485682833E+001  +1.1216392470E-002 +3.1664246166E+001  +6.2917299755E-001 +3.3579145023E-001 
11272066.333 +5.7516942076E-001 +3.7199914540E+000  +1.0926049542E-002 +1.4568312020E+001  +1.0628131225E-002 +3.8836136768E+001  +6.6533849495E-001 +3.3574024248E-001 
11397211.514 +6.1247564230E-001 +8.2755125990E+000  +1.0423128043E-002 +2.1947250077E+001  +9.9395594376E-003 +3.9276576175E+001  +6.2986640995E-001 +7.5350257198E-001 
11522356.696 +6.1445838663E-001 +8.9619542845E+000  +1.1931811263E-002 +2.3481146490E+001  +1.3402739895E-002 +3.3903627305E+001  +6.2408582689E-001 +1.7121803099E+000 
11647501.877 +6.4195578439E-001 +4.8601564441E+000  +1.1494986323E-002 +2.5849374022E+001  +1.1144565369E-002 +3.9987077839E+001  +6.5279659123E-001 +1.5203271780E+000 
11772647.059 +6.7014663547E-001 +3.7929449697E+000  +1.2076932660E-002 +1.8966985934E+001  +1.2137954870E-002 +4.0055352941E+001  +6.8174338601E-001 +2.7176697490E+000 
11897792.240 +6.4983789281E-001 +4.1239586299E+000  +1.1551945577E-002 +2.2176786699E+001  +1.4377731844E-002 +3.5569697258E+001  +6.7460934668E-001 -4.0996357147E-001 
12022937.422 +6.9252744304E-001 +1.8427263962E+000  +1.2859028853E-002 +2.0938794668E+001  +1.2718369356E-002 +4.0267475165E+001  +6.7844204920E-001 -8.5280335995E-001 
12148082.603 +6.8329652030E-001 +2.2042305217E+000  +1.2897562975E-002 +2.9937095925E+001  +1.4628051876E-002 +3.8689690600E+001  +6.9697427029E-001 +2.5726938765E-001 
12273227.785 +7.0340587930E-001 +3.6723747876E+000  +1.2299930524E-002 +3.0008103518E+001  +1.2606666880E-002 +3.1561770211E+001  +7.0534490332E-001 -1.9819206159E-001 
12398372.966 +7.1828750610E-001 +2.4746806473E+000  +1.3605503859E-002 +2.4788050366E+001  +1.2172399052E-002 +4.4502422445E+001  +7.1054821523E-001 +6.1580490749E-002 
12523518.148 +7.2407704567E-001 +3.8636064684E+000  +1.3785245980E-002 +2.2492742298E+001  +1.2831318606E-002 +2.6837377280E+001  +7.4095029462E-001 -9.1384523795E-001 
12648663.329 +7.3224383689E-001 +3.9140558646E+000  +1.3582687216E-002 +1.8912658915E+001  +1.3582224153E-002 +2.9352529738E+001  +7.6826845012E-001 -4.9997174228E-001 
12773808.511 +7.4445384379E-001 +4.5506625396E-001  +1.1850709719E-002 +2.4439119824E+001  +1.2526878297E-002 +3.4123947348E+001  +7.4926674059E-001 -1.5175382997E+000 
12898953.692 +7.5794896029E-001 +2.5180477539E+000  +1.2978985995E-002 +2.4024032459E+001  +1.4127820400E-002 +3.8096280672E+001  +7.6633946536E-001 -1.5243095445E+000 
13024098.874 +7.6286826270E-001 +5.3675600702E-001  +1.5545498853E-002 +2.7942167877E+001  +1.4226521509E-002 +3.0219387439E+001  +7.7078406538E-001 -1.8086941521E+000 
13149244.055 +7.9224733917E-001 -1.3131526490E+000  +1.3897854906E-002 +3.4098812760E+001  +1.3710796987E-002 +3.5293158067E+001  +7.8834048195E-001 -2.3116811747E+000 
13274389.237 +7.9811309624E-001 -1.3098301501E+000  +1.2279167402E-002 +2.8914449260E+001  +1.4433400700E-002 +3.7766236336E+001  +8.4133185779E-001 -1.6928206545E+000 
13399534.418 +8.2803624656E-001 -5.6396326431E-001  +1.2629105903E-002 +3.0464528624E+001  +1.2114920625E-002 +3.0002489677E+001  +8.4580797088E-001 -1.7776181144E+000 
13524679.599 +8.3929725879E-001 -2.5756602506E+000  +1.3532683071E-002 +3.0045767491E+001  +1.3200266892E-002 +2.8614543057E+001  +8.6266732964E-001 -2.6562920022E+000 
13649824.781 +8.2787092827E-001 -3.2673950006E+000  +1.4796129695E-002 +2.7633205818E+001  +1.3346090143E-002 +2.9036229831E+001  +8.8936767538E-001 -4.6205365046E+000 
13774969.962 +8.6131704100E-001 -2.4498077984E+000  +1.4917921005E-002 +2.9846227912E+001  +1.3687731589E-002 +4.0011928392E+001  +8.7892387205E-001 -3.6463596967E+000 
13900115.144 +8.9300941070E-001 -3.2509739818E+000  +1.5975534028E-002 +3.5461185853E+001  +1.4335621022E-002 +3.3140980728E+001  +9.1816101876E-001 -4.5464925561E+000 
14025260.325 +9.2811939316E-001 -4.8785949453E+000  +1.3711491354E-002 +3.1748359198E+001  +1.3980671275E-002 +3.1177484204E+001  +9.3514199774E-001 -4.3322507808E+000 
14150405.507 +9.1945821729E-001 -2.7674700777E+000  +1.5511329642E-002 +2.8146227167E+001  +1.4387586695E-002 +2.8149277255E+001  +9.3298085907E-001 -4.7940361137E+000 
14275550.688 +9.4355610807E-001 -5.5776720016E+000  +1.6677496308E-002 +2.9087375411E+001  +1.5601773606E-002 +3.1665742371E+001  +9.6012818932E-001 -5.3607735772E+000 
14400695.870 +9.5358149050E-001 -5.4475880247E+000  +1.5722524262E-002 +3.1852520006E+001  +1.5625162934E-002 +3.1985364493E+001  +9.8340619690E-001 -5.1419578758E+000 
