!  2-Port S-parameters saved by WinCal
! VAR MeasName=S-Parameters (CALIBRATED_DATA) read from VNA (P5004A)
! VAR MeasDate=27/08/2024 15:34:21
! VAR NAME=S2_r6c8_SET1_9k-100M_1
! VAR FILENAME=S2_r6c8_SET1_9k-100M_1.S2P
! VAR DATE=27/08/2024 15:34:21
! VAR PHYS_PORTS=1,2
! VAR ObjTypeName=DATASET
! VAR IndexType=Frequency
!
# Hz S MA R 50
9000.000 +6.5653919495E-002 -1.6985389976E+002  +4.3254828016E-003 +1.4058853280E+002  +1.8149493898E-002 -1.3040708546E+002  +3.9216989340E-001 -1.2556378850E+002 
134145.181 +1.0985481957E-001 +1.6922110487E+002  +3.3012895606E-004 -8.9883227729E+001  +3.2078988803E-004 -1.5647031487E+002  +2.4143417739E-001 -1.7160414749E+002 
259290.363 +1.1191316618E-001 +1.6923534619E+002  +3.3878553247E-004 -1.5739307859E+002  +3.8223785090E-004 -1.0650223827E+002  +2.4833003120E-001 -1.6963467317E+002 
384435.544 +1.1379511339E-001 +1.7026042515E+002  +1.0890159376E-003 -1.1537974949E+002  +6.7113313917E-004 +1.6526035024E+002  +2.4147461515E-001 -1.6821264019E+002 
509580.726 +1.1430516004E-001 +1.7137237777E+002  +1.0940110349E-003 -9.6885138464E+001  +1.1552673176E-003 +9.4110957095E+001  +2.4979914433E-001 -1.5661739879E+002 
634725.907 +1.1658322452E-001 +1.7018926907E+002  +7.1425048932E-004 -7.9758461213E+001  +4.6252858170E-004 -7.7733909529E+001  +2.4095700663E-001 -1.6569634974E+002 
759871.089 +1.1823498600E-001 +1.7048862644E+002  +5.3793053756E-004 -1.5188438371E+002  +4.3691059049E-004 +1.3062300374E+002  +2.4585755838E-001 -1.6407151911E+002 
885016.270 +1.1730001065E-001 +1.6903285264E+002  +9.4269981043E-004 +3.8443098093E+001  +5.8484812671E-004 -1.4913566029E+002  +2.4013952440E-001 -1.6622226410E+002 
1010161.452 +1.1981586033E-001 +1.7190913657E+002  +1.6730674689E-003 +1.7834581991E+002  +3.9964425424E-003 -1.2805761623E+002  +1.3033564294E-001 -1.4244218027E+002 
1135306.633 +1.1377917953E-001 +1.7014477562E+002  +8.8076002474E-004 -2.3454563638E+001  +2.3988142636E-003 +1.0832953982E+002  +1.9222590145E-001 -1.5359011118E+002 
1260451.815 +1.1921857061E-001 +1.7107394148E+002  +1.1403290678E-003 +3.6254118392E+001  +1.6712950036E-003 +7.5417450867E+001  +2.1498459150E-001 -1.5576548585E+002 
1385596.996 +1.2541753574E-001 +1.7147461707E+002  +5.7321656790E-004 +1.7182798334E+002  +7.2161319633E-004 +5.0341028752E+001  +2.5367938347E-001 -1.5959859664E+002 
1510742.178 +1.2805661690E-001 +1.7134792787E+002  +7.6042869612E-004 -9.8825344095E+001  +5.0327587794E-004 +1.3599917322E+002  +2.3985663679E-001 -1.5887401514E+002 
1635887.359 +1.2682302342E-001 +1.7025258878E+002  +1.0834550087E-003 -1.4437656693E+002  +5.7652252067E-004 +1.3459267121E+002  +2.4660293081E-001 -1.5921184059E+002 
1761032.541 +1.2535382942E-001 +1.6757702376E+002  +1.6886262209E-003 -3.0354606505E+001  +2.7618888489E-003 -1.0836977217E+002  +2.0110628249E-001 -1.6707564601E+002 
1886177.722 +1.2571814574E-001 +1.6877543436E+002  +3.0049196541E-003 +4.2867028009E+001  +2.3572251290E-004 -1.6873795458E+002  +2.1574107818E-001 -1.6095302612E+002 
2011322.904 +1.3116030032E-001 +1.6821563574E+002  +3.7087599702E-004 -1.1240573439E+002  +2.5484999948E-003 -4.1697203127E+001  +1.8330230054E-001 -1.6874176920E+002 
2136468.085 +1.3101073038E-001 +1.6530136162E+002  +3.3575643046E-003 +5.0686417861E+000  +3.8635697086E-003 -7.1041193141E+001  +1.6370686602E-001 -1.6631861372E+002 
2261613.267 +1.2985748793E-001 +1.6310243930E+002  +1.0749405908E-003 -1.7081243198E+002  +1.8302822538E-003 -7.7482104994E+001  +1.9317157307E-001 -1.4866465889E+002 
2386758.448 +1.3675423640E-001 +1.6587106445E+002  +1.4659787892E-003 -6.1634500041E+000  +3.4500089980E-003 -3.5660544263E+001  +2.6635192514E-001 +1.7216811566E+002 
2511903.630 +1.4132673501E-001 +1.5833896250E+002  +5.5392767251E-003 +5.0110635220E+001  +4.7310497580E-004 +5.1307183044E+001  +2.8315398743E-001 +1.6636814103E+002 
2637048.811 +1.2525255830E-001 +1.5617188228E+002  +9.1182318600E-003 +6.7098757496E+001  +5.4249338659E-003 -1.3105595269E+001  +1.0135469917E-001 +1.6102234055E+002 
2762193.992 +1.1009610956E-001 +1.5667056914E+002  +2.4975957387E-002 -1.2987445303E+002  +1.5034496115E-002 +1.5208809089E+002  +6.5651796897E-001 -1.4752971475E+002 
2887339.174 +1.3852681514E-001 +1.7613848551E+002  +5.6242469989E-003 -1.5952975999E+002  +4.5117459155E-004 -1.6302288661E+002  +4.5690530400E-001 -1.3212314234E+002 
3012484.355 +1.3006015139E-001 +1.7111386667E+002  +9.2294862516E-003 +1.5371495678E+002  +8.4228010932E-004 -5.4000404540E+001  +3.9944409350E-001 -1.0957953368E+002 
3137629.537 +1.0833536011E-001 +1.6894636433E+002  +1.3361560637E-002 -2.8138184760E+001  +7.9166968438E-003 -9.6204045732E+001  +3.0057855877E-001 -8.8818358060E+001 
3262774.718 +9.2833162792E-002 +1.3970459509E+002  +1.6329056886E-002 +8.4029061048E+001  +2.6558021120E-002 -5.3388696012E+001  +2.5991886498E-001 +3.8712985822E+001 
3387919.900 +1.3635654832E-001 +1.5878711785E+002  +2.4287377861E-002 -6.8750986938E-001  +2.7059583881E-002 -3.1234526872E+001  +4.9070395566E-001 +5.4906897072E+001 
3513065.081 +1.1795183613E-001 +1.4359228089E+002  +1.3267235762E-002 +1.2426507087E+002  +6.4808341065E-002 -7.7669553993E+001  +7.3576496979E-001 -2.8634044249E+001 
3638210.263 +1.5546454813E-001 +1.4865058431E+002  +1.0211133451E-002 +1.0220477633E+002  +1.7286812679E-002 +8.4452668020E+001  +1.3352094047E+000 +1.6457666772E+002 
3763355.444 +1.7802278031E-001 +1.4189178397E+002  +3.4754492480E-003 -1.7931240839E+002  +1.5656805049E-002 -3.3133585325E+000  +5.6648070596E-001 +1.2988259985E+002 
3888500.626 +1.6651866264E-001 +1.4952489067E+002  +7.1950015199E-003 +9.0577964452E+001  +7.6868535645E-003 +4.2566439925E+001  +1.1021323881E+000 +1.4707111682E+002 
4013645.807 +1.8660924010E-001 +1.4647666450E+002  +1.2698987670E-002 +1.2142553853E+002  +6.7976503834E-003 -1.7319918344E+002  +7.0987800184E-001 +8.6087652204E+001 
4138790.989 +1.8013697751E-001 +1.4244269412E+002  +2.2017446810E-002 +4.6634265731E+001  +1.5080384071E-002 +5.2591551347E+001  +5.7690582854E-001 +1.1459490093E+002 
4263936.170 +1.6611558777E-001 +1.4486273828E+002  +6.8311139056E-003 -3.8075572619E+001  +2.1089571002E-002 -4.0207053573E+001  +4.1467660476E-001 +7.3372502062E+001 
4389081.352 +2.2450079714E-001 +1.2930101196E+002  +1.5090187664E-002 +9.3744472157E+001  +2.1813727037E-002 +4.0118381240E+001  +4.2078263172E-001 +1.1249325503E+002 
4514226.533 +2.9034167402E-001 +1.2793878552E+002  +1.1164023799E-002 +9.8886916647E+001  +1.6258226595E-002 +2.9999992650E+001  +1.0334108104E+000 +1.4289806146E+002 
4639371.715 +2.9033279925E-001 +1.3636278084E+002  +2.1540403234E-002 +5.5424426186E+001  +2.7801096319E-002 +6.1280583540E+001  +7.5535467428E-001 +8.4854028420E+001 
4764516.896 +2.5971693215E-001 +1.2430290405E+002  +3.5511670413E-002 +1.0790361095E+002  +1.9384066041E-001 -9.6845559977E+001  +6.9221344382E+000 -7.0353547680E+001 
4889662.078 +4.4652610455E-001 +1.2415995639E+002  +2.2135342533E-002 +9.1511459426E+000  +8.1254553852E-003 +5.1324549110E+001  +1.9301578263E+000 -9.6193826085E+001 
5014807.259 +3.8171381057E-001 +1.3036881621E+002  +4.9273114815E-002 +1.3602074294E+000  +1.2545157142E-001 +4.8334314378E+001  +4.4780430420E+000 +2.0450445087E+001 
5139952.441 +4.7175027874E-001 +1.2375825018E+002  +3.9941606525E-002 +1.6391570263E+002  +5.8123875673E-002 +1.3250323588E+002  +2.6024606415E+000 +9.0503267144E+001 
5265097.622 +3.9625043581E-001 +1.3390376308E+002  +2.5630551303E-002 +2.3694816261E+001  +1.5138317049E-002 -9.0609158320E+000  +1.9293743905E+000 -4.0679379358E+001 
5390242.804 +4.4883538944E-001 +1.4006643228E+002  +5.4169348432E-002 -1.6874874755E+002  +4.2616456098E-002 +1.3597467494E+002  +3.3640359785E+000 +1.1748983388E+002 
5515387.985 +4.5825996994E-001 +1.2543303143E+002  +3.9090159856E-002 +1.3509139195E+002  +2.9769103563E-002 +9.2541594568E+001  +2.5871955235E+000 +9.5657478879E+001 
5640533.166 +4.9668944037E-001 +1.2221885960E+002  +5.1735781930E-002 +1.4626395831E+002  +5.6842124661E-002 +1.4354385902E+002  +3.4063956883E+000 +1.3624204679E+002 
5765678.348 +4.9414124908E-001 +1.1829548994E+002  +6.8824859702E-002 +9.4545551652E+001  +2.2079047597E-002 +1.0874496913E+002  +2.7660825217E+000 +4.4145967618E+001 
5890823.529 +6.7245371787E-001 +1.1461077046E+002  +6.6606016499E-002 +1.1266046237E+002  +6.1589260964E-002 +9.4113766019E+001  +2.6651371406E+000 +6.2620395845E+001 
6015968.711 +6.9625866204E-001 +1.0995629240E+002  +5.5345326670E-002 +8.7535102262E+001  +5.5663771445E-002 +7.2171234481E+001  +2.3019941584E+000 +4.4055350897E+001 
6141113.892 +6.4026256237E-001 +9.8631771264E+001  +5.1076789932E-002 +4.0945830085E+001  +8.9087110133E-002 +3.1348773284E+001  +2.4083751836E+000 +2.3047955861E+001 
6266259.074 +8.7354029403E-001 +9.3390749716E+001  +8.7705473480E-003 +7.8978653239E+001  +2.1953456580E-002 +3.9450559233E+001  +1.4999783461E+000 +2.3426471167E+001 
6391404.255 +1.0224625586E+000 +1.0453692481E+002  +2.6341825176E-002 -2.3352789302E+001  +4.5723267734E-002 +4.5736332352E+001  +1.8595451394E+000 +1.7224175222E+001 
6516549.437 +1.0620304191E+000 +9.8669265564E+001  +3.0144517230E-002 +8.7143011624E+001  +4.2140101973E-002 +2.8201739652E+001  +1.5977227641E+000 +2.0010472400E+001 
6641694.618 +1.3379315046E+000 +7.9671415604E+001  +2.8863637822E-002 +4.5860005454E+001  +3.4826288129E-002 +5.5461251692E+001  +1.1810613806E+000 -5.8713118397E+000 
6766839.800 +2.2195801602E+000 +5.0537783651E+001  +2.8500447694E-002 +6.9741593480E+001  +7.5353965612E-002 +1.1502039289E+001  +1.3309152186E+000 +3.8972918418E+000 
6891984.981 +1.5990495044E+000 +1.2934950941E+001  +4.6725550982E-002 +2.6293361129E+001  +4.5514047151E-002 +1.9115883453E+001  +1.4221835628E+000 -6.9259154601E+000 
7017130.163 +1.5985097516E+000 +1.9742043653E+001  +4.2693646704E-002 -2.3456274515E+000  +3.1050671729E-002 -2.8024275375E+000  +1.2995356999E+000 -8.7750461837E+000 
7142275.344 +1.7351739606E+000 +2.8863930729E+000  +3.6568459167E-002 +8.6308825786E+000  +3.1876186846E-002 +2.6012704094E+001  +1.1659312402E+000 -1.3238721139E+001 
7267420.526 +1.3312308855E+000 +8.5786529605E+000  +1.7875903087E-002 -3.5853638780E+001  +1.3465639395E-002 -7.6339035347E+000  +1.3715517768E+000 -1.2379138789E+001 
7392565.707 +1.2671238209E+000 -4.7968555218E+000  +2.0596086211E-002 +1.0885361388E+001  +2.1684590258E-002 +2.4370300276E+001  +1.3287496594E+000 -2.9121178094E+000 
7517710.889 +1.1075441979E+000 +1.5405409054E+000  +9.3607440592E-003 +6.7185628471E+000  +8.3958337488E-003 -1.5972322478E+001  +1.2081829690E+000 -4.3415494019E+000 
7642856.070 +1.0370697288E+000 +7.5246528684E+000  +3.4081071493E-003 +1.0617718203E+001  +2.0233299711E-002 +1.8241699262E+001  +9.9869923330E-001 -1.6755068083E+000 
7768001.252 +1.0226310944E+000 -4.0084841778E+000  +1.3349609129E-002 +3.6795585165E+001  +1.3741020388E-002 +5.0938216580E+001  +1.0038574065E+000 -4.5855816522E+000 
7893146.433 +9.6181909959E-001 +2.1178802964E+000  +1.6268644239E-002 +2.5384345103E+001  +1.6522739579E-002 +1.9583942161E+001  +8.9161607632E-001 -6.2446232812E+000 
8018291.615 +8.0432943491E-001 +4.7442103230E+000  +1.1031774537E-002 +4.5045972065E+001  +1.0259236401E-002 +1.8725270122E+001  +7.9932788210E-001 -5.0122669376E+000 
8143436.796 +8.3096156006E-001 +6.0941394176E-001  +1.6804916684E-002 +1.1660590450E+001  +1.9049435604E-002 +1.3854729947E+000  +7.9690502087E-001 -5.1274683459E+000 
8268581.977 +7.5431295942E-001 +3.7681993132E+000  +1.2321627621E-002 +2.2609330437E+001  +1.2073641774E-002 +1.5696731612E+001  +7.6548873218E-001 -7.9718972739E+000 
8393727.159 +6.6744454655E-001 +6.5520810186E+000  +1.0603521765E-002 +2.4840596841E+001  +1.4922263322E-002 +2.7945211977E+001  +7.3215036459E-001 -5.5381375738E-001 
8518872.340 +7.2962564381E-001 +3.5973181557E+000  +1.3056096510E-002 +1.3665642736E+001  +1.3149099132E-002 +2.1017105525E+001  +7.1833103193E-001 +9.4578253804E-001 
8644017.522 +7.2482512023E-001 +9.3800896308E-001  +1.5097472366E-002 +1.7967615926E+001  +7.7886862214E-003 +1.4376811316E+001  +6.8380320044E-001 +4.6560342324E+000 
8769162.703 +6.3225259773E-001 +3.9412002376E+000  +1.7243071219E-002 +1.8333217720E+001  +1.1883277710E-002 +3.9147738142E+001  +6.7188649871E-001 -4.2855810999E+000 
8894307.885 +5.9191668284E-001 -3.7265011279E-001  +1.4362461597E-002 +2.8621855558E+001  +1.0596681744E-002 +2.1530927335E+001  +6.3028593595E-001 +9.3077724959E-001 
9019453.066 +6.0464436798E-001 +7.0290667491E+000  +1.3153482703E-002 +3.5744615127E+000  +1.1316435679E-002 +2.7294530515E+001  +5.8326975548E-001 -2.8098524012E-001 
9144598.248 +5.3219086900E-001 +4.1028467744E+000  +1.2152833715E-002 +1.9035093554E+001  +1.2637770253E-002 +2.0636336221E+001  +6.2435098862E-001 +1.3091922382E+000 
9269743.429 +5.6679040441E-001 +3.1978416574E+000  +1.2862136148E-002 -5.1265212835E-002  +1.0557876724E-002 +3.4478248181E+001  +6.1434767372E-001 -4.3761847027E+000 
9394888.611 +5.2684249336E-001 +5.4732569343E+000  +1.3102516374E-002 +1.3691440354E+001  +1.1971423558E-002 +4.8081021638E+001  +6.1675353295E-001 -2.0153125632E+000 
9520033.792 +5.5447476939E-001 -7.0151223131E-002  +1.7931742883E-002 +1.3229482404E+001  +1.3423485239E-002 +2.7919897831E+001  +5.7930691909E-001 +2.1089683137E+000 
9645178.974 +5.4148155808E-001 -3.0016861313E+000  +1.1406895545E-002 +4.3430941118E+000  +1.6207354086E-002 +2.8428247518E+001  +5.7460329208E-001 -5.9033186147E+000 
9770324.155 +5.3689074948E-001 -9.8575038791E-001  +8.5136966755E-003 +1.1686401167E+001  +1.5085346714E-002 +3.6786650940E+001  +5.8547223683E-001 -6.5800020109E+000 
9895469.337 +4.9139206790E-001 -2.7262489294E+000  +1.3797940621E-002 +1.1638701208E+001  +1.3260034287E-002 +1.4847778828E+001  +5.7106442846E-001 -8.6259001632E+000 
10020614.518 +5.6675073688E-001 +4.6512203374E+000  +1.3158920767E-002 +1.3324413974E+001  +1.2291094300E-002 +3.7161748538E+001  +6.0914667223E-001 -9.3925713183E+000 
10145759.700 +5.3430724739E-001 +5.8496161413E+000  +1.2898030563E-002 +1.0506660625E+001  +1.0375071536E-002 +2.3844190665E+001  +5.4476345727E-001 -3.1734285972E+000 
10270904.881 +4.8022084166E-001 +5.6716222934E+000  +1.2120897455E-002 +2.1745202106E+001  +1.2603465214E-002 +3.0511638737E+001  +5.5835707777E-001 -1.5259976171E+000 
10396050.063 +5.5914988633E-001 +1.8561875523E+000  +1.3495130376E-002 +1.7404431418E+001  +1.2496929714E-002 +4.0164434550E+001  +5.7785985514E-001 -1.5249463326E+000 
10521195.244 +5.7204600813E-001 +5.9850297410E+000  +1.0977691861E-002 +9.3372385796E+000  +1.5229160027E-002 +3.0062824421E+001  +6.0473426995E-001 -1.9246222412E+000 
10646340.426 +5.3871231393E-001 +2.8328490351E+000  +1.2271588912E-002 +1.9066758154E+001  +1.2823082704E-002 +2.6030500387E+001  +5.9796960631E-001 +3.3093041608E+000 
10771485.607 +5.4272340684E-001 +3.9535043774E+000  +1.1144087052E-002 +1.5140756417E+001  +1.0501507826E-002 +3.3819711465E+001  +6.0992306924E-001 -2.3326222389E+000 
10896630.788 +5.8286511147E-001 +6.3931245516E+000  +1.2457145999E-002 +1.6050374536E+001  +1.2828730645E-002 +4.4488360260E+001  +6.0526927093E-001 +1.4934164451E+000 
11021775.970 +5.3963211855E-001 +7.7734200295E+000  +1.3051296007E-002 +1.3632001836E+001  +1.2617343668E-002 +3.7472183558E+001  +6.0685441694E-001 +7.0632701791E-001 
11146921.151 +5.6857741014E-001 +7.4166777824E+000  +1.5165717334E-002 +2.5000515405E+001  +1.1106474608E-002 +2.3098036530E+001  +5.8799407274E-001 +2.3594871516E+000 
11272066.333 +5.6839410531E-001 +5.8089563074E+000  +1.5814332922E-002 +1.8594451732E+001  +1.2624660982E-002 +4.1969416061E+001  +5.9161980319E-001 +1.1122705171E+000 
11397211.514 +5.9347482406E-001 +6.8304477468E+000  +1.2843580293E-002 +1.6510939748E+001  +1.3761879654E-002 +3.1454501043E+001  +6.3461287165E-001 +3.2125063128E+000 
11522356.696 +6.0096494559E-001 +7.9661332016E+000  +1.4091206454E-002 +1.5799999423E+001  +1.4067647092E-002 +2.9945963638E+001  +6.2427940980E-001 +4.3904961744E-001 
11647501.877 +6.3727058197E-001 +4.5825385556E+000  +1.2968126990E-002 +2.8579406038E+001  +1.4904488127E-002 +2.4122100608E+001  +6.4020969313E-001 +1.1665855285E+000 
11772647.059 +6.3473788425E-001 +7.6376063236E+000  +1.4272824687E-002 +2.0708622165E+001  +1.2645892444E-002 +2.2770499042E+001  +6.4934774599E-001 +4.5224460340E-002 
11897792.240 +6.6974075450E-001 +2.3843729496E+000  +1.3909762009E-002 +2.0253749762E+001  +1.4345433313E-002 +4.0900542505E+001  +6.6879551876E-001 +7.2075950614E-002 
12022937.422 +6.5390404078E-001 +3.8746766497E+000  +1.6484907962E-002 +2.4454886919E+001  +1.5294054689E-002 +3.8502692527E+001  +6.9654468730E-001 +2.1696557398E+000 
12148082.603 +6.6974203897E-001 +3.1065260160E+000  +1.5060482753E-002 +3.0124868712E+001  +1.5514704406E-002 +3.6634322643E+001  +7.0583058022E-001 +7.5842006958E-003 
12273227.785 +6.9735430242E-001 +3.2793964677E+000  +1.6131452864E-002 +2.6295575920E+001  +1.4502696616E-002 +2.5158231928E+001  +6.8244379181E-001 -2.2773341713E+000 
12398372.966 +6.8905765118E-001 +3.8529515589E+000  +1.4982970524E-002 +1.7638979503E+001  +1.3863291354E-002 +2.8154881856E+001  +7.0909097402E-001 +2.9264552682E+000 
12523518.148 +7.0044145748E-001 +4.7951971047E+000  +1.5715021324E-002 +2.1102555429E+001  +1.6231274500E-002 +3.6731711974E+001  +7.0405594598E-001 +5.3226169504E-001 
12648663.329 +7.1099904970E-001 +3.4646854439E+000  +1.5544251110E-002 +1.2154289160E+001  +1.4882069486E-002 +2.7438435857E+001  +7.2254807114E-001 -6.7090797554E-001 
12773808.511 +7.2920015212E-001 +4.8064193056E-001  +1.5292586650E-002 +1.4054906622E+001  +1.4241122047E-002 +3.5518663647E+001  +7.7038199765E-001 -3.4194503571E-001 
12898953.692 +7.7769504067E-001 +1.2471209457E+000  +1.7181304686E-002 +2.5432109970E+001  +1.4730608613E-002 +2.5642081552E+001  +7.7055730189E-001 -3.5006544575E-001 
13024098.874 +7.6148691633E-001 -1.4499231858E+000  +1.5246480796E-002 +2.8690235956E+001  +1.4761944194E-002 +3.0295247736E+001  +7.7132122973E-001 -6.8908363542E-001 
13149244.055 +7.8782799607E-001 +1.4805207513E+000  +1.6005719052E-002 +2.2471642320E+001  +1.8531700565E-002 +2.9540694208E+001  +8.0634733699E-001 -1.2498220268E+000 
13274389.237 +8.0000719562E-001 -1.9021077249E+000  +1.7485742702E-002 +2.6186624587E+001  +1.6512308971E-002 +2.7407213538E+001  +8.2628197232E-001 -7.4920211313E-001 
13399534.418 +8.1975273216E-001 -8.2208841339E-001  +1.7257335604E-002 +2.3816699747E+001  +1.5192842351E-002 +2.9095988132E+001  +8.4094679211E-001 -2.6182884299E+000 
13524679.599 +8.1374286728E-001 -6.2253541522E-001  +1.5434515155E-002 +2.3071895243E+001  +1.6991500173E-002 +2.7338943072E+001  +8.3669091770E-001 -1.5363586508E+000 
13649824.781 +8.3424488427E-001 -2.9258860783E+000  +1.6742748445E-002 +2.8411455058E+001  +1.6254411207E-002 +2.1637007641E+001  +8.5600299042E-001 -2.8850823105E+000 
13774969.962 +8.7004524910E-001 -3.5304625773E+000  +1.7069145703E-002 +2.4732244760E+001  +1.6786996848E-002 +2.9524842551E+001  +8.8326454092E-001 -1.9417442523E+000 
13900115.144 +8.9029865448E-001 -2.3629616108E+000  +1.6329518997E-002 +2.3688597642E+001  +1.7334877412E-002 +3.1434109784E+001  +9.0637519413E-001 -3.6363577246E+000 
14025260.325 +9.1387244652E-001 -3.1690466286E+000  +1.6813446668E-002 +2.6734247409E+001  +1.8990675962E-002 +2.4730065129E+001  +9.3129712041E-001 -3.6957001353E+000 
14150405.507 +9.3075400777E-001 -3.7008783233E+000  +1.7041842152E-002 +3.0057803118E+001  +1.7653010694E-002 +2.8624671273E+001  +9.3628527145E-001 -3.2268317448E+000 
14275550.688 +9.6340035312E-001 -4.7246516137E+000  +1.7475058283E-002 +2.4368180514E+001  +1.7261162648E-002 +2.8300845588E+001  +9.5445695541E-001 -3.3554637517E+000 
14400695.870 +9.5602891279E-001 -4.9328004899E+000  +1.6413315894E-002 +2.5274540254E+001  +1.6367952099E-002 +2.6864997143E+001  +9.6927588272E-001 -3.8181848552E+000 
