!  2-Port S-parameters saved by WinCal
! VAR MeasName=S-Parameters (CALIBRATED_DATA) read from VNA (P5004A)
! VAR MeasDate=28/08/2024 10:48:09
! VAR NAME=S2_r5c9_SET1_9k-100M_2
! VAR FILENAME=S2_r5c9_SET1_9k-100M_2.S2P
! VAR DATE=28/08/2024 10:48:09
! VAR PHYS_PORTS=1,2
! VAR ObjTypeName=DATASET
! VAR IndexType=Frequency
!
# Hz S MA R 50
9000.000 +8.8825277085E-002 -1.5741096131E+002  +7.4469949072E-003 +4.3636029836E+001  +1.2548113801E-002 +1.7925446470E+002  +3.0615465200E-001 -1.3045332362E+002 
134145.181 +1.1106084884E-001 +1.6980522711E+002  +4.7207674304E-004 -1.1872814389E+002  +5.3203080730E-004 +5.6939380122E+001  +2.4180402489E-001 -1.7129016661E+002 
259290.363 +1.1206232997E-001 +1.6996794534E+002  +1.0954188503E-003 -6.9429863783E+001  +2.9740521243E-004 -3.8345715385E-002  +2.3806916706E-001 -1.6981524705E+002 
384435.544 +1.1438056367E-001 +1.6958838199E+002  +5.0159091213E-004 -3.8337059881E+001  +3.5594963460E-004 +2.8094531605E+001  +2.4242657119E-001 -1.6937841691E+002 
509580.726 +1.1332348846E-001 +1.7254204168E+002  +2.0411981750E-003 -2.5255157932E+001  +1.3657424322E-003 +1.3819801664E+002  +2.4252653349E-001 -1.6139329623E+002 
634725.907 +1.1754656414E-001 +1.7187715238E+002  +1.0993047810E-003 +5.3064098120E+001  +5.7762398862E-004 -1.7034369035E+002  +2.5465685276E-001 -1.6348990548E+002 
759871.089 +1.1964040971E-001 +1.7158700241E+002  +1.2177408081E-003 +1.9919236615E+001  +4.7690649870E-004 +1.4145539275E+002  +2.4365888513E-001 -1.6627848194E+002 
885016.270 +1.2093491758E-001 +1.6933134726E+002  +1.9604486669E-004 +1.3346337787E+002  +1.5758966377E-004 -1.1650186254E+002  +2.4821689338E-001 -1.6759819069E+002 
1010161.452 +1.1851121006E-001 +1.6992154471E+002  +5.7069600406E-004 -9.7318093403E+001  +9.2261441364E-004 +3.2456151889E+000  +2.0175832494E-001 -1.7007955137E+002 
1135306.633 +1.1542340555E-001 +1.7021795662E+002  +8.6042686193E-004 +1.0815535521E+002  +1.7745309456E-003 +1.0026554450E+002  +2.0831757711E-001 -1.6020202421E+002 
1260451.815 +1.2167833539E-001 +1.7224643311E+002  +3.8388377332E-004 +9.1172767778E+001  +9.3417366139E-004 +4.6640349425E+001  +2.0523948145E-001 -1.5764590785E+002 
1385596.996 +1.2645161896E-001 +1.7183951086E+002  +1.4267808759E-003 +6.6012916833E+001  +6.6988140755E-004 +1.6592933969E+002  +2.7269169959E-001 -1.5555556845E+002 
1510742.178 +1.2389684955E-001 +1.7205398094E+002  +2.5747096469E-003 +8.4235840836E+001  +1.9969632550E-003 -5.3926472548E+001  +2.7479524765E-001 -1.5562252223E+002 
1635887.359 +1.2843034769E-001 +1.7171754300E+002  +1.1811413413E-003 +1.1397789753E+001  +1.0831191539E-003 -1.0637433149E+002  +2.3617200225E-001 -1.5741453365E+002 
1761032.541 +1.2614759005E-001 +1.6962809083E+002  +7.9262985564E-004 -1.1611232014E+002  +1.5801524508E-004 +3.8974984667E+001  +2.3638768632E-001 -1.6038328187E+002 
1886177.722 +1.3127750912E-001 +1.6852905349E+002  +3.2351731532E-003 -5.7815753415E+001  +3.0308353106E-003 -1.8478890689E+001  +1.9128932908E-001 -1.6243433146E+002 
2011322.904 +1.2637314792E-001 +1.6595502217E+002  +2.5487307915E-003 +8.1183735216E+001  +2.2497681861E-003 -4.8367771255E+001  +1.8509139509E-001 -1.5520061451E+002 
2136468.085 +1.2570692287E-001 +1.6720381627E+002  +1.9800033882E-003 -1.4859750449E+002  +6.0148185316E-003 -6.2326592678E+001  +1.3862788548E-001 -1.6607928350E+002 
2261613.267 +1.3569206159E-001 +1.6633608672E+002  +2.5754885625E-003 +1.6092239742E+002  +1.6031835081E-003 +1.7079467016E+002  +1.9911357144E-001 -1.6756638037E+002 
2386758.448 +1.2947893526E-001 +1.6715565687E+002  +7.0638525576E-003 +1.5446972612E+002  +6.8336481654E-003 -1.0333817753E+002  +8.5956369983E-002 -1.5633310894E+002 
2511903.630 +1.4427329286E-001 +1.6307946838E+002  +4.6484391432E-003 -1.7034867481E+002  +2.9029408129E-003 +8.7086791141E+001  +2.0261357627E-001 +1.4068260256E+002 
2637048.811 +1.0761650231E-001 +1.6835602163E+002  +2.6299966463E-003 -1.2772405502E+002  +7.8155497246E-003 +4.4647023668E+001  +2.2543947737E-001 +1.6692518831E+002 
2762193.992 +1.1943392306E-001 +1.5804917032E+002  +3.3730603991E-002 +5.4972916123E+000  +2.1681898889E-002 +1.5141350184E+002  +1.2683885119E+000 -6.8557091079E+000 
2887339.174 +1.2280692268E-001 +1.7026235213E+002  +4.3664523927E-003 +9.9577461082E+001  +2.6071650388E-003 +1.7968374739E+002  +3.5936496854E-001 +1.3056305293E+002 
3012484.355 +1.1688626088E-001 +1.7054613638E+002  +3.8586992218E-003 -4.6177213789E+001  +1.0991478613E-002 -5.3098507656E+001  +1.9400747229E-001 -1.1268181973E+002 
3137629.537 +1.1803969306E-001 +1.6537403741E+002  +1.1588427556E-002 +1.5655568443E+001  +9.5902817064E-003 +1.5788981048E+002  +5.2036507788E-002 +1.2838782351E+001 
3262774.718 +1.1380580225E-001 -1.7847513903E+002  +1.1201636454E-002 +7.2634736184E+001  +3.1728795459E-002 -1.4116307140E+002  +4.9878891011E-001 +8.1815937090E+001 
3387919.900 +1.3450044404E-001 +1.5487657288E+002  +3.5232951577E-004 -1.4210471965E+002  +1.7065915905E-002 -2.5219201696E+001  +4.5783701260E-001 -4.2853209663E+001 
3513065.081 +1.2790004899E-001 +1.5420990389E+002  +6.3856458525E-003 +7.0681923731E+001  +2.1373465825E-002 -1.3781206792E+002  +2.6366148375E-001 +5.7393102102E+001 
3638210.263 +1.7396855828E-001 +1.4676136344E+002  +1.7799830384E-002 -1.6670258521E+002  +1.4918287481E-002 +1.3650756630E+002  +9.8007164088E-001 +1.6113894866E+002 
3763355.444 +1.6616914884E-001 +1.4458688672E+002  +1.1088673288E-002 -1.4122655717E+002  +3.8091090007E-003 -2.6518744141E+001  +4.9802768778E-001 +1.5167375952E+002 
3888500.626 +1.6869301926E-001 +1.5090628765E+002  +8.8831067996E-003 +1.0181866776E+002  +3.6504514344E-003 -2.8443298688E+001  +4.0708800339E-001 +1.3273907807E+002 
4013645.807 +1.4589697004E-001 +1.5057114189E+002  +6.2479530307E-004 -1.1974173345E+002  +1.0422267480E-002 +5.5309105545E+001  +5.1183793565E-001 +1.5370407732E+002 
4138790.989 +1.8300024791E-001 +1.4977532042E+002  +5.9135771337E-003 +2.2519053552E+001  +5.1052479896E-003 +1.5818567859E+001  +3.4685018761E-001 +1.0996303217E+002 
4263936.170 +2.0254673455E-001 +1.4670350838E+002  +1.4973630666E-002 +1.5877965764E+002  +5.4181996331E-003 +1.1360650653E+002  +5.4256512142E-001 +1.2356731408E+002 
4389081.352 +2.0555664270E-001 +1.3692847035E+002  +1.3139879115E-002 +1.0393249347E+002  +7.8819640309E-003 -1.5944856774E+001  +4.1194092387E-001 +1.0994835969E+002 
4514226.533 +2.3344520369E-001 +1.3316630014E+002  +1.4106954395E-002 -3.7090371861E+001  +1.5684073930E-002 +4.5250808931E+001  +6.3512534488E-001 +1.2224134374E+002 
4639371.715 +3.3751898781E-001 +1.3892670601E+002  +8.8535269855E-003 +1.7338266263E+002  +1.3574394484E-002 +8.7535987331E+001  +9.9247078885E-001 +1.4675670650E+002 
4764516.896 +2.6586832574E-001 +1.3731255296E+002  +3.9594781891E-002 +1.5110482788E+002  +3.5364797556E-002 +1.1730161206E+002  +2.2362397323E+000 +1.3968503128E+002 
4889662.078 +5.0111840239E-001 +1.3479172935E+002  +2.2082879019E-002 +1.4938861059E+002  +1.3071538104E-002 -1.5310486343E+002  +1.2770797282E+000 -1.3134073262E+001 
5014807.259 +4.5004221804E-001 +1.2659674958E+002  +5.8415840591E-002 +1.4570004835E+002  +9.1485550207E-002 -2.1053435450E+001  +2.7806720750E+000 -8.4254993140E+000 
5139952.441 +3.7828052417E-001 +1.2938102996E+002  +8.0690385366E-002 +9.4647004837E+001  +8.7929540465E-002 +9.2529932130E+001  +4.3536733813E+000 +7.8629772414E+001 
5265097.622 +3.8846134698E-001 +1.3468823598E+002  +3.8904585767E-002 +1.4596920231E+002  +2.3446558156E-002 +4.7214690058E+001  +2.2168932526E+000 +1.0125352259E+002 
5390242.804 +5.1983882211E-001 +1.2618858103E+002  +5.4366513252E-002 +7.1034140340E+001  +5.1439740640E-002 +7.0383381537E+001  +2.3573885090E+000 +5.4064508008E+001 
5515387.985 +4.2043185753E-001 +1.3034893989E+002  +1.9707494383E-002 +1.3979622393E+002  +2.2531502516E-002 +6.1937583120E+001  +1.6024362971E+000 +1.3244334981E+002 
5640533.166 +4.5008012024E-001 +1.3456352471E+002  +5.2243781656E-002 +1.3920460359E+002  +2.9741527025E-002 +1.5641290755E+002  +3.4226270264E+000 +6.9265131757E+001 
5765678.348 +5.4399787232E-001 +1.2457738131E+002  +2.8916098165E-002 +1.3554881166E+002  +3.6848749003E-002 +5.5522427762E+001  +2.2473106663E+000 +9.2626504631E+001 
5890823.529 +5.4990647023E-001 +1.2220562533E+002  +6.9174398931E-002 +9.8151997528E+001  +1.8177593314E-002 +3.4115828235E+001  +4.3058591027E+000 +6.3484596524E+001 
6015968.711 +6.3371323335E-001 +1.1414762148E+002  +6.3614239969E-002 +9.6111748812E+001  +7.4690907301E-002 +7.0789337767E+001  +3.2825501274E+000 +4.1460708433E+001 
6141113.892 +8.0854990258E-001 +1.1453565966E+002  +4.8684700185E-002 +5.6723896820E+001  +4.4359859278E-002 +5.2443835293E+001  +1.4881190676E+000 +1.6367713261E+001 
6266259.074 +7.3098692225E-001 +1.1291108127E+002  +1.9178375616E-002 +2.5438516606E+001  +1.0311821169E-002 +2.6463809154E+001  +1.9762413548E+000 +3.0980801527E+001 
6391404.255 +1.2835626481E+000 +9.3143849781E+001  +4.8147087456E-002 +5.2315328732E+001  +2.2317117025E-002 +3.6429414293E+001  +1.4739845714E+000 +4.0810456884E+001 
6516549.437 +1.1564608992E+000 +9.0986242652E+001  +1.8511733202E-002 +4.5750659502E+001  +3.9890414862E-002 +2.3826712497E+001  +1.3418206593E+000 +2.5473156310E+000 
6641694.618 +1.3189931924E+000 +6.7634008158E+001  +3.6831152594E-002 +1.8238952895E+001  +4.9845311017E-002 -3.5821104297E+001  +1.7177811879E+000 +5.5127289796E+000 
6766839.800 +2.1910886973E+000 +5.6602081218E+001  +3.5781301285E-002 +4.3141058057E+001  +2.2171206950E-002 -1.8422063214E+000  +1.3031224659E+000 -2.1900373564E+000 
6891984.981 +1.3711557155E+000 +4.4564414754E+001  +2.9947515900E-002 +4.2822324049E+001  +3.8221315400E-002 +2.5491898177E+001  +1.3611671990E+000 -3.9802162601E+000 
7017130.163 +1.6352579663E+000 +2.0619131714E+001  +5.1896089312E-002 +1.0135494815E+001  +2.2580885454E-002 -1.5803167947E+001  +1.1651175673E+000 -3.9554019685E+000 
7142275.344 +1.7282488963E+000 +4.5280825698E+000  +1.5301986210E-002 -1.3471705472E+001  +2.6878498676E-002 -3.0935200336E+000  +1.3490790514E+000 -6.6128324564E+000 
7267420.526 +1.5632210733E+000 +4.9588192608E+000  +2.0978182150E-002 +3.1419840605E+001  +2.3864972476E-002 +7.4220864925E+000  +1.2591915247E+000 -8.8023075455E+000 
7392565.707 +1.3371529661E+000 +5.2537144529E+000  +1.1257773413E-002 +2.2586548471E+001  +1.9572950454E-002 +2.4964692261E+001  +1.3520389829E+000 -6.4971782746E+000 
7517710.889 +1.2233289004E+000 +1.2567681589E+000  +9.0971727845E-003 +3.2372367751E+001  +2.3475434370E-002 +2.9204896383E+001  +1.1547376436E+000 -8.3977067801E+000 
7642856.070 +1.0129190494E+000 +2.0446576265E+000  +1.6323304694E-002 +1.0076596689E+001  +9.2076998522E-003 +9.1114476405E+000  +1.0134624043E+000 -7.7557904318E+000 
7768001.252 +9.9175097666E-001 +2.8016129030E+000  +1.0603026533E-002 -3.8651413454E-001  +2.0220677509E-002 +2.4737978773E+001  +9.3141497542E-001 -2.2176143396E+000 
7893146.433 +8.3045263844E-001 +2.4916392208E+000  +6.1023124103E-003 +5.3274672235E+001  +1.8225263414E-002 +7.9852856307E+000  +8.7851328922E-001 +8.7334631464E-001 
8018291.615 +8.4549534739E-001 +7.3613892506E+000  +1.4277350642E-002 +7.8398075083E+000  +1.6460165230E-002 +1.6273527023E+001  +9.4001483682E-001 -4.4420405935E-001 
8143436.796 +7.2042534401E-001 +7.5187870395E+000  +1.7351150385E-002 +9.2404221966E+000  +1.4667572908E-002 +7.1905441182E+000  +7.0247041514E-001 +1.6780001919E+000 
8268581.977 +7.7015004327E-001 +1.5107835014E+001  +1.1612720049E-002 +1.2126167252E+001  +1.5541653776E-002 +1.2333889371E+001  +7.0309935125E-001 -2.6557740890E+000 
8393727.159 +7.2249848871E-001 +6.3139342825E+000  +1.6275515187E-002 +2.4532208647E+001  +1.2162007183E-002 +1.9132442981E+001  +7.6878693953E-001 +2.5030945180E+000 
8518872.340 +6.8614783473E-001 +1.3553360378E+001  +1.6081505419E-002 +7.2056758834E+000  +6.4615844223E-003 +5.1915206656E+001  +6.8432267230E-001 -1.2484234640E+000 
8644017.522 +6.8293389064E-001 +9.7543583211E+000  +1.5844790962E-002 +1.3240627614E+001  +1.5151472530E-002 +2.7520045133E+001  +6.4554822504E-001 -1.6204006025E+000 
8769162.703 +6.3019950651E-001 +1.1348741003E+001  +1.5080854491E-002 +9.6514801469E+000  +1.5824519995E-002 +1.4124338654E+001  +7.1339675525E-001 +9.2045940072E-001 
8894307.885 +5.7986277496E-001 +8.3756179817E+000  +1.1934022106E-002 +6.8190541575E+000  +1.5797330588E-002 +3.2318102320E+001  +6.4364829767E-001 -5.1428229514E+000 
9019453.066 +6.2875271526E-001 +1.1041296122E+001  +1.5685917560E-002 +2.5932371612E+001  +1.4859876909E-002 +2.6117852311E+001  +6.3376956550E-001 +2.9145510325E+000 
9144598.248 +6.3577853442E-001 +5.1210124021E+000  +1.2193711952E-002 +1.1773357572E+001  +1.2259354878E-002 +3.1872484004E+001  +6.3355078154E-001 -4.0003915540E+000 
9269743.429 +5.8880800716E-001 +2.8775828823E+000  +1.5975186351E-002 -6.4807427876E+000  +1.4451290718E-002 +2.3199399476E+001  +6.1614647877E-001 +1.2988696326E-001 
9394888.611 +5.1197099489E-001 +1.1205021984E+001  +1.2452531479E-002 +4.3865916902E-001  +1.2253346625E-002 +3.2004865284E+001  +6.2937813677E-001 -1.0929141573E+000 
9520033.792 +5.3536965441E-001 +4.6318786717E+000  +1.4635670067E-002 +9.3096412822E+000  +1.2348929296E-002 +2.2347978194E+001  +5.7972773501E-001 -2.2267531047E+000 
9645178.974 +5.0413032020E-001 +2.6938011246E+000  +1.7567849390E-002 +1.6354761674E+001  +9.6272876827E-003 +1.1175680119E+001  +5.9990177828E-001 -2.5376113128E-001 
9770324.155 +5.8471779191E-001 +1.0744022669E+000  +1.3606439864E-002 +1.8890205750E+001  +1.2592916576E-002 +1.7970767973E+001  +5.5184556099E-001 -1.1808087184E+001 
9895469.337 +5.6063041028E-001 -1.2828423993E+000  +9.9709930619E-003 +1.2524871296E+001  +1.3348010014E-002 +2.3938523956E+001  +6.1091199074E-001 -9.6060041276E+000 
10020614.518 +5.0547942853E-001 +2.2872701761E+000  +1.1647084943E-002 +9.0940182673E-001  +1.3754698912E-002 +2.8668265861E+001  +5.9727469835E-001 -4.0535711514E+000 
10145759.700 +4.9726070481E-001 +3.9445784501E+000  +1.1366426163E-002 +1.4054100263E+001  +1.0880567488E-002 +2.2423445828E+001  +5.7115890946E-001 -4.6916957491E+000 
10270904.881 +5.3471922241E-001 +8.7047025194E+000  +1.2192797113E-002 +2.4141302848E-001  +1.2562874735E-002 +2.6942517450E+001  +5.6629163040E-001 +1.2483401506E-003 
10396050.063 +5.6072890406E-001 +8.2223086930E+000  +1.4376336974E-002 +3.1023075892E+000  +1.1236599653E-002 +2.8449913219E+001  +5.5209716122E-001 -1.4879585963E+000 
10521195.244 +5.5213395103E-001 +7.1303720859E+000  +1.0775086134E-002 +1.8579927591E+001  +1.0984020385E-002 +2.6288866978E+001  +5.7358954576E-001 +2.0847923257E-001 
10646340.426 +5.9126306900E-001 +9.6355539862E+000  +1.5294847874E-002 +2.0387812352E+001  +1.3456687666E-002 +3.0196364395E+001  +5.8982544020E-001 +2.8165202680E+000 
10771485.607 +5.6127375257E-001 +9.0210906951E+000  +1.0944440544E-002 +1.2512405909E+001  +1.1957288283E-002 +3.4789418812E+001  +6.0706085335E-001 -1.8840901440E+000 
10896630.788 +5.8661846780E-001 +6.0292353865E+000  +1.3026906056E-002 +2.6648998835E+001  +1.4456079315E-002 +3.0101172061E+001  +5.9463590175E-001 +5.1404971302E+000 
11021775.970 +5.6697285757E-001 +1.1906883155E+001  +1.5094296280E-002 +1.6962814914E+001  +1.4275761045E-002 +2.8067585057E+001  +5.8925291505E-001 +2.9997766206E+000 
11146921.151 +5.8309408824E-001 +9.0617618798E+000  +1.6863333313E-002 +1.6090408475E+001  +1.5529391533E-002 +3.2447437995E+001  +6.2713583542E-001 +3.0339256430E+000 
11272066.333 +5.7297368527E-001 +5.9431550738E+000  +1.3098331908E-002 +1.6397219392E+001  +1.4211435156E-002 +3.8422823396E+001  +6.0619245992E-001 +3.3433399066E+000 
11397211.514 +6.2036249495E-001 +6.7502521633E+000  +1.1876073034E-002 +2.1204851527E+001  +1.3461205716E-002 +3.2976648407E+001  +6.7226393595E-001 +2.6290226469E+000 
11522356.696 +6.0643346522E-001 +7.0451309209E+000  +1.5530631442E-002 +2.0621536188E+001  +1.4335906558E-002 +2.8056837131E+001  +6.3853600888E-001 +2.5910824362E-001 
11647501.877 +6.2589463429E-001 +4.7960727164E+000  +1.4742264484E-002 +2.3115471143E+001  +1.5523153631E-002 +2.7897069985E+001  +6.7432041573E-001 +6.8912010500E-001 
11772647.059 +6.7404370405E-001 +4.9906474882E+000  +1.4061066945E-002 +1.5037714105E+001  +1.5329656100E-002 +2.6964986611E+001  +6.6970379165E-001 +2.9225613546E-001 
11897792.240 +6.4648341013E-001 +5.2976014509E+000  +1.5016149397E-002 +2.4295122653E+001  +1.7135426081E-002 +3.0706210484E+001  +6.6851685114E-001 +5.4832795861E-001 
12022937.422 +6.5963103897E-001 +4.8681754197E+000  +1.5929478838E-002 +2.4601727391E+001  +1.3358379893E-002 +3.9804475564E+001  +6.7304113074E-001 +3.2217344369E+000 
12148082.603 +6.9005561139E-001 +3.6502555495E+000  +1.6085677542E-002 +2.3464397879E+001  +1.6213807253E-002 +3.8132984142E+001  +7.0639536619E-001 +1.9468075529E+000 
12273227.785 +6.8443467864E-001 +5.3872541423E+000  +1.4358846996E-002 +2.2655067989E+001  +1.2923184354E-002 +3.0075543080E+001  +7.0249276316E-001 +1.7088901739E+000 
12398372.966 +7.2074704174E-001 +3.1357203404E+000  +1.7693385477E-002 +2.5650624919E+001  +1.4732391094E-002 +2.8989902500E+001  +7.1898731051E-001 -1.7982316060E-001 
12523518.148 +7.2989956427E-001 +2.8057395013E+000  +1.5982403595E-002 +1.9775250906E+001  +1.5417575764E-002 +2.6071347924E+001  +7.2048173953E-001 -1.0362153449E-001 
12648663.329 +7.0942629370E-001 +2.9086173340E+000  +1.3968892002E-002 +2.1557063934E+001  +1.6789679624E-002 +2.7306173935E+001  +7.2489194554E-001 +2.5951138577E-001 
12773808.511 +7.4455305482E-001 +5.6596747491E-001  +1.3348386241E-002 +2.4908604661E+001  +1.5403433185E-002 +2.8362487759E+001  +7.3921927807E-001 -6.7079325985E-002 
12898953.692 +7.5960469272E-001 +1.2599078010E+000  +1.7170564901E-002 +2.5716413518E+001  +1.5604040043E-002 +3.0307390082E+001  +7.7465738498E-001 +5.1267283148E-001 
13024098.874 +7.8554164839E-001 +7.3730416099E-002  +1.7023870538E-002 +2.6158442231E+001  +1.5174365856E-002 +2.6023230363E+001  +7.9228171771E-001 -8.4616011663E-001 
13149244.055 +7.9778648157E-001 +8.8402254432E-001  +1.5958774126E-002 +2.1119232882E+001  +1.6585117356E-002 +3.2048546644E+001  +8.0755163784E-001 -2.5793204451E+000 
13274389.237 +8.1312048345E-001 -4.8263344011E-001  +1.6686663431E-002 +2.3850170259E+001  +1.6217081593E-002 +3.3604079996E+001  +8.1651240008E-001 -1.7872208498E+000 
13399534.418 +8.3510257661E-001 -5.4434522786E-001  +1.6524900317E-002 +1.8616824819E+001  +1.8070808307E-002 +2.5790673986E+001  +8.1319592529E-001 -3.9870127552E+000 
13524679.599 +8.4542217836E-001 -1.5313160873E+000  +1.7421336047E-002 +2.3859627775E+001  +1.6947906943E-002 +2.6948387574E+001  +8.5424868616E-001 -3.9973572004E+000 
13649824.781 +8.5749686462E-001 -1.4508522055E+000  +1.7790986474E-002 +2.4116580245E+001  +1.5777946583E-002 +2.9004738319E+001  +8.7374651090E-001 -2.2122866061E+000 
13774969.962 +8.7951764514E-001 -3.7364444308E+000  +1.7324593743E-002 +2.8695083523E+001  +1.7166157180E-002 +3.3170680303E+001  +9.0745548343E-001 -2.9948831740E+000 
13900115.144 +8.8780762174E-001 -3.4053519079E+000  +1.6710174237E-002 +2.8075424034E+001  +1.8531433403E-002 +2.8524678064E+001  +8.7606523011E-001 -3.9171721806E+000 
14025260.325 +9.1534647214E-001 -4.8579015727E+000  +1.7281518699E-002 +2.6382066350E+001  +1.7949017712E-002 +2.5622884802E+001  +9.1875601735E-001 -4.9441426279E+000 
14150405.507 +9.3926814476E-001 -3.6219449111E+000  +1.8712462410E-002 +2.6539989300E+001  +1.7425994866E-002 +2.3517632851E+001  +9.4501270854E-001 -3.5817519697E+000 
14275550.688 +9.3042651243E-001 -5.4650164883E+000  +1.8616046945E-002 +2.2517634870E+001  +1.9677657172E-002 +2.5668260848E+001  +9.8077774460E-001 -3.7335796808E+000 
14400695.870 +9.7538453744E-001 -5.2269873738E+000  +1.7783247192E-002 +2.6582584707E+001  +1.7511061645E-002 +2.5779555095E+001  +9.7307753687E-001 -4.6491657269E+000 
