!  2-Port S-parameters saved by WinCal
! VAR MeasName=S-Parameters (CALIBRATED_DATA) read from VNA (P5004A)
! VAR MeasDate=28/08/2024 10:12:41
! VAR NAME=S2_r4c9_RESET1_9k-100M_3
! VAR FILENAME=S2_r4c9_RESET1_9k-100M_3.S2P
! VAR DATE=28/08/2024 10:12:42
! VAR PHYS_PORTS=1,2
! VAR ObjTypeName=DATASET
! VAR IndexType=Frequency
!
# Hz S MA R 50
9000.000 +9.0487537632E-002 -1.6097205197E+002  +3.7148445980E-003 -1.5853274107E+002  +7.4990702661E-003 +7.0614647149E+001  +2.1263956794E-001 -1.3532079662E+002 
134145.181 +1.1130036396E-001 +1.6958389264E+002  +3.5487158904E-004 -4.2922841201E+001  +2.3928488294E-004 -1.4674682188E+002  +2.4002740140E-001 -1.7081677592E+002 
259290.363 +1.1083218064E-001 +1.6940442283E+002  +5.3450007682E-004 -1.3070308804E+002  +1.4537156520E-003 +1.6794041906E+002  +2.3799455896E-001 -1.6902355917E+002 
384435.544 +1.1328352312E-001 +1.7063885455E+002  +5.9807277345E-004 -7.1195325365E+001  +1.0419774643E-003 +1.2388225340E+002  +2.4852267017E-001 -1.6839995603E+002 
509580.726 +1.1486710691E-001 +1.7006662533E+002  +3.8001091050E-004 -1.2823839858E+002  +2.9098913914E-004 +9.3874420121E+001  +2.3924358953E-001 -1.6590453147E+002 
634725.907 +1.1689699350E-001 +1.7130246285E+002  +1.0332676111E-003 -5.0248073163E+001  +1.1975285723E-003 -8.6332708467E+001  +2.5535405844E-001 -1.6456502542E+002 
759871.089 +1.2032930598E-001 +1.7121312140E+002  +3.0020805315E-004 -8.5920900377E+001  +7.9874788915E-004 -1.1025911807E+002  +2.5469581453E-001 -1.6706423228E+002 
885016.270 +1.1795119656E-001 +1.6913553328E+002  +4.2017244749E-004 -3.1503456979E+001  +2.7308329005E-004 -1.1904179857E+002  +2.4314758776E-001 -1.6723620993E+002 
1010161.452 +1.1503067090E-001 +1.6957245404E+002  +1.3496252951E-003 -1.1075847931E+002  +9.3619530696E-004 +8.6817238432E+001  +1.9933101718E-001 -1.6389952664E+002 
1135306.633 +1.1523160599E-001 +1.6967569719E+002  +1.0958644949E-003 -1.5621636565E+002  +1.3909563649E-003 -7.3638114113E+001  +2.0683087249E-001 -1.6725045371E+002 
1260451.815 +1.1855666430E-001 +1.7166750678E+002  +1.9330760646E-003 -8.2285103086E+001  +2.1850978182E-003 +1.7074739640E+002  +2.4605352201E-001 -1.5793340395E+002 
1385596.996 +1.2783286215E-001 +1.7373669155E+002  +1.1254496281E-003 -5.2761744695E+001  +2.4297141491E-003 -8.5531635342E+001  +2.7559397862E-001 -1.5812698568E+002 
1510742.178 +1.2486029742E-001 +1.7138331106E+002  +1.2068248729E-003 -1.1835420499E+002  +9.6016800767E-004 +8.6537684416E+001  +2.6025978758E-001 -1.5518507244E+002 
1635887.359 +1.2706586969E-001 +1.7274215595E+002  +1.6795759456E-003 -8.5704760169E+001  +1.0463758357E-003 -4.6818480883E+001  +2.4007119769E-001 -1.5583420582E+002 
1761032.541 +1.2874577283E-001 +1.7092153214E+002  +3.7688707153E-004 -1.7610864952E+002  +1.7491662837E-003 -7.8945727552E+001  +2.0478364817E-001 -1.6111125287E+002 
1886177.722 +1.3130832020E-001 +1.6930108580E+002  +1.1839530836E-003 -1.2087565183E+002  +2.8617225062E-004 +1.9776934021E+001  +2.1644383608E-001 -1.6741485965E+002 
2011322.904 +1.2482134200E-001 +1.6870529474E+002  +3.4796711630E-003 -1.5240072875E+002  +4.4766496964E-004 +8.0102295049E+001  +1.9611310444E-001 -1.6401193470E+002 
2136468.085 +1.2803663048E-001 +1.7041847969E+002  +1.4233130478E-003 -9.2739348945E+001  +1.6430631648E-003 -5.1697126252E+001  +1.7897113116E-001 -1.7880064041E+002 
2261613.267 +1.3495987498E-001 +1.6386471216E+002  +1.9109094280E-003 +1.6837135488E+002  +6.0920615419E-004 +3.1437078246E+001  +2.0821033881E-001 +1.7224025449E+002 
2386758.448 +1.3153734624E-001 +1.6424963733E+002  +5.2097732309E-003 +1.1875246736E+002  +3.5264408602E-003 +1.4765246510E+002  +2.0945815682E-001 +1.7469262764E+002 
2511903.630 +1.3016245145E-001 +1.6643633705E+002  +8.3190622300E-003 +1.1451233785E+002  +3.3126936623E-003 +1.0757251634E+002  +2.3982230902E-001 +1.4566789913E+002 
2637048.811 +1.1740003310E-001 +1.5541057101E+002  +8.6936820835E-003 -1.2933424326E+002  +2.3774773615E-003 -7.2844980803E+001  +2.7313859824E-001 +1.4687690178E+002 
2762193.992 +1.0612700033E-001 -1.7435936534E+002  +2.6420438669E-002 +1.5977613064E+002  +2.3741707907E-002 +1.7135154579E+001  +3.8565176733E-001 +1.0600460506E+002 
2887339.174 +1.0390449698E-001 +1.7693052563E+002  +8.9921304170E-003 +1.6223067800E+002  +2.0636605422E-002 +6.0602000488E+001  +3.4791518051E-001 -8.6630437250E+001 
3012484.355 +1.1596496231E-001 -1.7768246548E+002  +5.4100258914E-003 -5.7438768811E+000  +3.7568767089E-003 +8.4823180962E+001  +6.8094463424E-002 +1.3508719256E+002 
3137629.537 +1.2432328274E-001 -1.7675197886E+002  +1.6603262516E-003 -1.0152295199E+002  +4.2640925748E-003 +4.8801046856E+001  +1.9615253012E-001 -1.2825658097E+002 
3262774.718 +1.3496241522E-001 +1.6468141398E+002  +9.2598602859E-003 -3.3901049133E+001  +2.6619744492E-003 -8.1756816526E+000  +2.3002476740E-001 -8.6542865286E+001 
3387919.900 +1.3181842892E-001 +1.6023453475E+002  +8.4525005460E-003 +1.1613912155E+002  +1.2751004835E-002 +1.5152291233E+002  +2.5306596110E-001 +6.6224040093E+001 
3513065.081 +1.2266377524E-001 +1.6380584846E+002  +1.9689812385E-002 +6.5671769266E+001  +1.4877323534E-002 +3.9774261507E+001  +1.2140685337E+000 +1.6803105885E+002 
3638210.263 +1.5776054989E-001 +1.4097460988E+002  +8.7858908045E-003 +3.6604483585E+001  +1.1726062040E-002 -1.2085055466E+002  +5.5833486062E-001 +1.3318316027E+002 
3763355.444 +1.7942380805E-001 +1.4652081680E+002  +2.0977992364E-002 +1.0324987760E+002  +1.6709427946E-002 +1.7992434656E+002  +9.1915109568E-001 +7.2231231530E+001 
3888500.626 +1.8366895016E-001 +1.5106364915E+002  +4.9898213725E-003 +1.0752963545E+002  +1.1653885545E-002 -1.5758305326E+002  +5.6760381897E-001 +1.2488421785E+002 
4013645.807 +1.7182494343E-001 +1.5381421322E+002  +5.8388498950E-003 +1.7233388809E+002  +7.4022320088E-003 +5.5558768765E+000  +5.0998567356E-001 +5.3487869324E+001 
4138790.989 +2.0688110369E-001 +1.4592147141E+002  +7.3648503512E-003 +2.1664287231E+001  +7.1265037115E-003 +9.2109977839E+001  +6.9210875775E-001 +1.1490655037E+002 
4263936.170 +1.8933170938E-001 +1.4627029328E+002  +4.1993137607E-003 -8.9340917302E+001  +1.0527109967E-002 -1.3271229676E+002  +6.3478166690E-001 +1.1846656579E+002 
4389081.352 +2.3756333363E-001 +1.3595469985E+002  +6.3855697534E-003 +1.5115614758E+001  +1.5501143329E-003 -3.1636314559E+001  +3.8748466222E-001 +6.8601505579E+001 
4514226.533 +2.5038394816E-001 +1.4507915534E+002  +1.3540596883E-002 -7.5515489458E+001  +2.6148138988E-002 +2.8137752920E+001  +1.6659568913E+000 +9.1313708034E+001 
4639371.715 +2.9070024306E-001 +1.3661987238E+002  +1.1861232926E-002 +6.9691528414E+001  +1.0262167875E-002 -6.5982015707E+001  +1.5805290016E+000 -1.7951234138E+002 
4764516.896 +4.0183225378E-001 +1.2624115012E+002  +5.9158496824E-002 -1.3473563744E+002  +1.7461384008E-002 +5.0806932082E+001  +2.0268153945E+000 +6.0770423953E+001 
4889662.078 +4.5065581233E-001 +1.4162980564E+002  +3.4336787571E-002 +1.6627693633E+002  +4.2095299151E-002 -7.7966670252E+001  +3.7666438220E+000 -1.3687842994E+002 
5014807.259 +3.6552866730E-001 +1.2144947333E+002  +2.2327340155E-002 -9.8874369283E+001  +6.1751130070E-003 -1.4566976744E+002  +2.4548678105E+000 -1.7585364207E+002 
5139952.441 +4.4485962989E-001 +1.2981379905E+002  +2.7444071779E-002 +1.6381426466E+002  +1.9114741726E-002 -1.1940161255E+002  +1.4691970548E+000 +5.0851285854E+001 
5265097.622 +3.9473493740E-001 +1.3122115987E+002  +2.3954773185E-002 -2.7547982280E+001  +2.8399514520E-002 -1.2908408940E+002  +1.4985010569E+000 +7.5451164763E+001 
5390242.804 +3.6636406318E-001 +1.3041166671E+002  +4.8934470193E-002 +1.7060555292E+002  +5.2405922284E-002 +8.8343961568E+001  +5.0875630214E+000 +9.4190094585E+001 
5515387.985 +3.7632231997E-001 +1.2914770878E+002  +2.0303046115E-002 +1.5131747489E+002  +1.6403974458E-002 +1.7127605430E+002  +2.8456644984E+000 +8.9840947555E+001 
5640533.166 +5.0276354940E-001 +1.3068499680E+002  +1.3978486101E-002 +6.5644913671E+001  +1.5941342059E-002 -1.0669028431E+002  +4.0982060234E+000 +4.7482892066E+001 
5765678.348 +5.0998753712E-001 +1.2663670128E+002  +2.2067563071E-002 +1.1265201669E+002  +2.5526051016E-002 +5.2485495289E+001  +3.0790389067E+000 +6.9016389857E+001 
5890823.529 +4.4758733022E-001 +1.1942700425E+002  +1.2752548709E-002 -8.3172525763E+001  +3.1857343740E-002 +1.2993975988E+002  +2.8483858508E+000 +8.7044570140E+001 
6015968.711 +8.2095304590E-001 +1.2110731238E+002  +8.3521167873E-003 +7.3964867676E+001  +1.8195902146E-002 +1.4324742422E+002  +1.4687082768E+000 +1.8299507455E+001 
6141113.892 +8.2186384572E-001 +1.0165407642E+002  +2.4113713520E-002 +5.1020175167E+001  +1.8066563693E-002 -1.7096846147E+002  +1.1715450870E+000 +3.2989022253E+001 
6266259.074 +7.8340357084E-001 +1.1156585817E+002  +2.3930711845E-002 +1.3414373512E+002  +1.4820669473E-002 +1.9922956177E+001  +2.0601905204E+000 +1.3677821128E+001 
6391404.255 +1.0212572832E+000 +9.6714628577E+001  +1.8139305580E-002 +1.1711577440E+002  +1.2740090202E-002 +7.5540115424E+001  +1.6330662777E+000 -1.0377265561E+000 
6516549.437 +1.3088009243E+000 +8.4213384539E+001  +1.2476419437E-002 -2.2383594795E+001  +6.1272261049E-003 +3.8184060075E+001  +1.5256502887E+000 +1.7643662932E+001 
6641694.618 +2.0807474247E+000 +7.5415663785E+001  +1.5794739554E-002 +9.1092412442E+001  +4.6327295876E-002 -4.9536087725E+000  +1.6276998283E+000 -1.1712310663E+001 
6766839.800 +1.6185165654E+000 +5.8758844924E+001  +2.5139743862E-002 -1.5753809426E+002  +1.5659365701E-002 +1.2803399955E+002  +1.3888561580E+000 -6.0211268519E+000 
6891984.981 +1.8385672473E+000 +2.7105543364E+001  +1.0988833624E-002 -1.4697015439E+002  +6.8335025849E-003 +1.5229207695E+002  +1.3715211385E+000 -2.7619837827E+000 
7017130.163 +1.6768694118E+000 +1.9362232375E+001  +8.4260173243E-003 +1.3622555340E+002  +1.7743038856E-002 +1.5275765094E+002  +1.1978428469E+000 -1.6006319466E+001 
7142275.344 +1.7180607476E+000 +9.9073431180E+000  +1.5061918748E-003 -3.8442352421E+001  +5.9026365098E-003 +1.2863176774E+002  +1.2120039811E+000 -1.1805413262E+001 
7267420.526 +1.5405430921E+000 +1.0016417021E+001  +8.2294424023E-003 +1.4127806652E+002  +1.0079850930E-002 +1.0370181413E+002  +1.2725585220E+000 -1.1327336623E+001 
7392565.707 +1.4391405326E+000 -4.2820257229E+000  +5.1449463267E-003 +9.1046558522E+001  +1.3729709216E-002 +6.5340800484E+001  +1.3735457573E+000 -1.5807607537E+000 
7517710.889 +1.3138723866E+000 -1.1495942927E+000  +2.1311795818E-003 -2.4961445003E+001  +1.2451964866E-002 +1.3611710188E+002  +1.2556293825E+000 -8.4482830877E+000 
7642856.070 +1.0170194481E+000 -4.6822426560E+000  +6.4953002021E-003 +9.2148103809E+001  +2.7528853154E-003 +9.5909462425E+001  +1.0382965967E+000 -4.0551042975E+000 
7768001.252 +9.4716158827E-001 -4.2712814637E-001  +1.0074669149E-002 +6.2718377440E+001  +3.9834396874E-003 +1.4564541455E+002  +1.1097743740E+000 +1.1211390390E+000 
7893146.433 +8.5201984575E-001 +3.5914369906E+000  +3.8402583568E-003 +5.3035567553E+001  +3.4962593708E-003 +8.0652852536E+001  +9.0443056862E-001 +1.3618419604E+000 
8018291.615 +7.9855661280E-001 -3.1366148715E+000  +3.6153171566E-003 -8.8337308068E+000  +9.7475469526E-003 +6.5451069582E+001  +9.1596858378E-001 -2.7559951377E-001 
8143436.796 +7.0091928482E-001 +9.5131608414E+000  +6.3384299662E-003 +1.0463724976E+002  +2.6620924166E-003 +1.7762052699E+001  +8.6110105656E-001 -4.0247117745E-001 
8268581.977 +7.5874911827E-001 +5.5952052070E+000  +3.2288937849E-003 +6.4011323892E+001  +6.1741562509E-003 +8.3105472712E+001  +8.5880695983E-001 -3.6861266841E+000 
8393727.159 +6.7439582060E-001 +3.5011244159E+000  +9.6880940462E-004 -1.4627470672E+002  +2.9279387188E-004 +7.6207608269E+001  +6.7042140961E-001 +5.0418777736E+000 
8518872.340 +6.4533701931E-001 +6.7975598724E+000  +8.3436183995E-003 +1.1148705794E+002  +1.1281874813E-002 +6.7096366382E+001  +7.1367285934E-001 +1.5769458179E+000 
8644017.522 +6.6943771789E-001 +8.6825654548E+000  +1.0321480504E-002 +8.9678656445E+001  +6.7058121401E-003 +1.1319044898E+002  +7.4921402741E-001 -1.3630278988E-001 
8769162.703 +5.7199759278E-001 +1.0231068659E+001  +1.8904097415E-003 -4.7718915846E+000  +2.7676286571E-003 +1.2114184032E+002  +6.7531868257E-001 -2.8838387662E+000 
8894307.885 +5.9786213702E-001 +6.4685866619E+000  +5.4046245857E-003 +9.8536735045E+001  +3.1434925762E-003 +8.0021056961E+001  +6.8549928773E-001 +1.4118824284E+000 
9019453.066 +5.8188385029E-001 +8.9865891998E+000  +4.3995456871E-003 +2.7913651884E+001  +5.1236651887E-003 +1.2394037301E+002  +6.5330111055E-001 +5.5175632645E+000 
9144598.248 +5.4001414269E-001 +7.6225501682E+000  +3.3543376192E-003 -2.4054459512E+001  +2.8693490141E-003 +3.3754644963E+001  +6.1118332116E-001 -2.6510927544E+000 
9269743.429 +6.0048849934E-001 +3.6699229700E+000  +2.5430523737E-003 +4.9570052057E+001  +3.8704966358E-003 +1.0767253617E+002  +6.2544040230E-001 -4.0343680301E+000 
9394888.611 +5.6283352722E-001 +1.3739017791E+000  +3.0148348715E-003 +1.1361552593E+002  +5.8291848480E-003 +7.0762761363E+001  +5.8176145768E-001 -3.7091187472E+000 
9520033.792 +5.4812524019E-001 +3.9437382304E+000  +4.7294291719E-003 +1.0543476691E+002  +1.4310319724E-003 +7.1572334344E+001  +5.8673212722E-001 -3.3547466292E+000 
9645178.974 +5.4744160712E-001 +5.5550014642E+000  +6.2577187172E-003 +7.6774506055E+001  +4.4828560418E-003 +8.5527952690E+001  +5.7405019631E-001 -5.0985797657E+000 
9770324.155 +5.6722208678E-001 +3.6452630097E+000  +2.6756712238E-003 +4.0652936972E+001  +3.2350735814E-003 +1.2343504922E+002  +5.6174252296E-001 -3.5840467078E+000 
9895469.337 +5.4342200456E-001 +3.7257964277E+000  +2.6324369793E-003 +1.1919944343E+002  +4.1356346397E-003 +4.1130286516E+001  +6.1043290316E-001 -7.3309182088E+000 
10020614.518 +5.5327547926E-001 +1.0895278816E+000  +5.5586493878E-003 +7.7808798904E+001  +2.7889123959E-003 +7.2934071846E+001  +6.1031135244E-001 -2.2599888353E+000 
10145759.700 +5.5375999242E-001 +5.3271104981E+000  +2.2193582748E-003 +7.2645932693E+001  +4.7767271696E-003 +9.9956491604E+001  +5.9615792541E-001 -7.1209790959E+000 
10270904.881 +6.1235986120E-001 +9.8678804109E-001  +3.5870777716E-003 +1.1638728616E+002  +5.1552428013E-003 +1.4016536809E+002  +6.1229126385E-001 -7.1402867120E+000 
10396050.063 +5.6221718714E-001 +2.6335478272E+000  +4.8384581810E-003 +7.6451774338E+001  +4.4307192392E-003 +9.6821866570E+001  +5.9399307843E-001 -7.9412178497E-001 
10521195.244 +5.3206686193E-001 +4.6746270654E+000  +6.4467688339E-003 +9.1835657541E+001  +8.8565844540E-004 +1.0820713808E+002  +6.0804740944E-001 -4.6570011452E+000 
10646340.426 +5.4254452218E-001 +6.3040094775E+000  +6.0880551867E-003 +1.0137136996E+002  +2.7109124240E-003 +1.0348412728E+002  +6.1784903117E-001 -4.0980097296E-002 
10771485.607 +5.7238892859E-001 +8.6957949924E+000  +5.2625155802E-003 +9.6291766599E+001  +6.2084466969E-003 +9.4314444927E+001  +6.0859468756E-001 +1.9763129291E+000 
10896630.788 +5.8655645354E-001 +5.4652223454E+000  +6.2811659293E-003 +8.7490390534E+001  +3.8809534153E-003 +9.0028038503E+001  +6.2634251597E-001 +3.0363933093E+000 
11021775.970 +5.9153882839E-001 +7.1577305602E+000  +4.1875770259E-003 +6.3998793331E+001  +7.3980441950E-003 +9.4272720683E+001  +6.3745811671E-001 +2.0537053900E+000 
11146921.151 +6.2542069752E-001 +5.2984136411E+000  +2.9641786369E-003 +8.7274019310E+001  +5.1822035633E-003 +1.0736190872E+002  +6.3738805860E-001 +2.4010276422E+000 
11272066.333 +6.2000822629E-001 +5.4048228820E+000  +2.6688719343E-003 +6.3950701086E+001  +5.0442467326E-003 +1.2000487584E+002  +6.5413758336E-001 +1.6512883576E+000 
11397211.514 +6.3207014191E-001 +4.1800338994E+000  +5.3170063389E-003 +6.3802724306E+001  +5.3540318996E-003 +1.1850173318E+002  +6.4776679918E-001 -1.1909119239E+000 
11522356.696 +6.2645126766E-001 +9.0319470923E+000  +3.5512798721E-003 +7.8551593039E+001  +6.7001398271E-003 +1.0331357291E+002  +6.4743702911E-001 +2.0856669643E+000 
11647501.877 +6.1889202317E-001 +7.5127864014E+000  +5.6712799029E-003 +8.9549266119E+001  +6.3187030384E-003 +1.1941416805E+002  +6.3714904085E-001 +6.7102093001E-001 
11772647.059 +6.3613171931E-001 +5.7490178944E+000  +4.5848486159E-003 +5.0776787798E+001  +5.0702360918E-003 +9.2125334407E+001  +6.7633120856E-001 +2.3169171046E-001 
11897792.240 +6.7852736843E-001 +3.5132599713E+000  +5.3912153995E-003 +7.5873438022E+001  +4.4282292566E-003 +1.0146158319E+002  +6.6123831997E-001 -1.4617441530E+000 
12022937.422 +6.7567769048E-001 +4.6406564378E+000  +6.5738272910E-003 +8.3398809855E+001  +5.7810696447E-003 +9.4781501514E+001  +6.9652895884E-001 +1.8328771615E+000 
12148082.603 +7.0578043775E-001 +4.5420437129E+000  +5.8328335310E-003 +7.7415378335E+001  +4.2534280982E-003 +1.1139717319E+002  +7.1166952037E-001 -1.8829802558E+000 
12273227.785 +7.2110425012E-001 +7.0018338985E+000  +4.6479715654E-003 +9.6263252773E+001  +6.7215769669E-003 +1.0659778793E+002  +7.1723961820E-001 -5.4179823454E-001 
12398372.966 +7.1167174017E-001 +1.5360490508E+000  +4.4400572515E-003 +9.1358322197E+001  +6.9243476306E-003 +1.0551531841E+002  +7.1862226518E-001 +5.9768139790E-001 
12523518.148 +7.2906908874E-001 +3.6255730217E+000  +5.2905783667E-003 +9.1201150822E+001  +8.2254633127E-003 +1.0117487118E+002  +7.7131527999E-001 +9.2024166092E-001 
12648663.329 +7.6287284299E-001 +2.6999151809E+000  +6.8488508017E-003 +9.0281176254E+001  +6.2512838466E-003 +9.8561111485E+001  +7.6928289966E-001 +5.2284619824E-001 
12773808.511 +7.7890629645E-001 +1.1383688049E+000  +6.9842218696E-003 +9.2704946008E+001  +7.3491105542E-003 +1.0276093300E+002  +7.8230358136E-001 -2.6878240872E+000 
12898953.692 +7.6385175180E-001 +2.5636111039E+000  +5.7037790563E-003 +8.9052374384E+001  +5.2609213593E-003 +8.3100172824E+001  +7.9233982163E-001 -1.8677350288E+000 
13024098.874 +7.8899749121E-001 +3.0400857274E-001  +7.7949971802E-003 +9.4303703360E+001  +5.3374101573E-003 +1.0497664781E+002  +8.2377647398E-001 -2.1392071408E+000 
13149244.055 +7.9545549228E-001 +6.4040408307E-001  +6.0071694510E-003 +1.0518865492E+002  +7.0767305750E-003 +9.3131334725E+001  +8.1462538887E-001 -8.2887097525E-001 
13274389.237 +8.0950787645E-001 -3.9546049497E-001  +5.3784565140E-003 +8.1382503420E+001  +7.3727293962E-003 +9.6243877992E+001  +8.3218715559E-001 -4.9363537113E+000 
13399534.418 +8.3293085294E-001 +9.1318027748E-001  +6.8244895903E-003 +9.5829217465E+001  +5.7112869075E-003 +9.7349481738E+001  +8.4077549271E-001 -1.6707898773E+000 
13524679.599 +8.6584754969E-001 -1.4186112582E+000  +6.0491330521E-003 +9.7017738035E+001  +7.5690567203E-003 +9.3789383225E+001  +8.6442527030E-001 -1.9484924769E+000 
13649824.781 +8.7291486901E-001 -2.1428646584E+000  +7.1269477220E-003 +1.0219003795E+002  +6.6246632404E-003 +1.0600726139E+002  +8.6899355896E-001 -2.5536081481E+000 
13774969.962 +8.9677944290E-001 -3.1708045631E+000  +7.0733305010E-003 +1.0595502725E+002  +6.1972069275E-003 +8.7712129899E+001  +9.0404323881E-001 -2.8450299532E+000 
13900115.144 +9.0698143333E-001 -4.6512113481E+000  +7.7093269140E-003 +9.4018302203E+001  +7.5861474387E-003 +9.3683813506E+001  +9.1244921277E-001 -2.8639704187E+000 
14025260.325 +9.4516730987E-001 -2.7846249847E+000  +7.2588013000E-003 +8.6202549927E+001  +6.8207658618E-003 +8.6508683454E+001  +9.3862011753E-001 -3.6119455165E+000 
14150405.507 +9.4028875549E-001 -4.1050163255E+000  +7.9000733007E-003 +9.0775065949E+001  +8.2286008359E-003 +9.7488905782E+001  +9.6422970484E-001 -3.6123453855E+000 
14275550.688 +9.6254433275E-001 -4.7228490726E+000  +6.7340455552E-003 +9.2334945894E+001  +8.0832081226E-003 +8.6237038979E+001  +9.6070569203E-001 -5.0248661053E+000 
14400695.870 +9.6070798893E-001 -4.9496436792E+000  +6.8208700533E-003 +8.5364635307E+001  +7.8285005686E-003 +9.7384160927E+001  +9.7529973987E-001 -5.6941307821E+000 
