!  2-Port S-parameters saved by WinCal
! VAR MeasName=S-Parameters (CALIBRATED_DATA) read from VNA (P5004A)
! VAR MeasDate=28/08/2024 16:07:47
! VAR NAME=S2_r8c9_RESET2_9k-100M_3
! VAR FILENAME=S2_r8c9_RESET2_9k-100M_3.S2P
! VAR DATE=28/08/2024 16:07:47
! VAR PHYS_PORTS=1,2
! VAR ObjTypeName=DATASET
! VAR IndexType=Frequency
!
# Hz S MA R 50
9000.000 +9.8837309933E-002 -1.6390541380E+002  +8.3939519108E-003 +1.0178722711E+002  +9.5703418148E-003 -1.5849933219E+002  +2.2695559695E-001 -1.3286479028E+002 
134145.181 +1.1124121234E-001 +1.6997730118E+002  +3.9918796578E-004 -6.2348163761E+001  +1.6876908624E-005 -3.0137540067E+001  +2.4055300034E-001 -1.7070076260E+002 
259290.363 +1.1307746681E-001 +1.6981562942E+002  +1.2061447218E-003 -1.4872172988E+002  +1.0251427281E-003 -2.0789971890E+001  +2.4475576871E-001 -1.6500522082E+002 
384435.544 +1.1463800617E-001 +1.6935710349E+002  +2.9624525415E-004 +1.6899029312E+002  +6.6931518557E-004 +1.7261916993E+002  +2.4620786949E-001 -1.6973733731E+002 
509580.726 +1.1294021965E-001 +1.7108451549E+002  +2.0294849238E-004 -1.3501328444E+002  +1.4582449987E-003 -6.0369170865E+001  +2.5785528334E-001 -1.6324094852E+002 
634725.907 +1.1754636696E-001 +1.7119834411E+002  +1.9401891745E-003 -8.8471502492E+001  +4.2016863721E-004 +3.6514299915E+001  +2.5049574732E-001 -1.6470216946E+002 
759871.089 +1.1764658895E-001 +1.7147598741E+002  +4.2728230237E-004 -3.3292986270E+001  +4.3858011802E-004 -1.7646126599E+001  +2.5307018737E-001 -1.6530947211E+002 
885016.270 +1.1998495046E-001 +1.6909616964E+002  +4.4923483134E-004 +1.5574522772E+001  +6.5843592284E-004 +2.7509657218E+000  +2.4271167089E-001 -1.6565480309E+002 
1010161.452 +1.1539188666E-001 +1.7102134793E+002  +6.1429258574E-004 -1.2439497836E+002  +5.4626873562E-004 -6.3652369127E+001  +2.0796791468E-001 -1.6820475046E+002 
1135306.633 +1.1865788717E-001 +1.6930595882E+002  +2.3239143047E-003 +1.2268330870E+002  +4.5060502898E-004 +1.0082189716E+001  +1.9662075709E-001 -1.6820448258E+002 
1260451.815 +1.1710989887E-001 +1.7136188975E+002  +4.1286979403E-004 +1.4300670030E+002  +2.7403827214E-003 -1.6984474655E+002  +2.2980629757E-001 -1.5684316904E+002 
1385596.996 +1.2530091091E-001 +1.7236022692E+002  +3.6683353264E-004 +6.6920968971E+001  +1.3633904843E-003 +4.5335727251E+001  +2.5589487391E-001 -1.5716747094E+002 
1510742.178 +1.2996162380E-001 +1.7171077880E+002  +9.7943932679E-004 +2.7620220576E+001  +1.1999453200E-003 +1.1805331474E+002  +2.6379311765E-001 -1.5319907675E+002 
1635887.359 +1.2968459973E-001 +1.7157078294E+002  +9.3779530992E-004 +1.3281390594E+002  +5.2062938742E-004 -1.6617447043E+001  +2.4053046531E-001 -1.5947097020E+002 
1761032.541 +1.2840376061E-001 +1.7008480825E+002  +1.6191843076E-003 -1.2959175137E+002  +1.9069795858E-003 +7.9002567982E+001  +2.3018700412E-001 -1.5869124548E+002 
1886177.722 +1.2895713112E-001 +1.7030794001E+002  +4.1090134242E-003 -6.2070838921E+001  +3.9212170505E-003 -4.9219593654E+001  +1.4094016727E-001 -1.4178608864E+002 
2011322.904 +1.3123540435E-001 +1.6801122173E+002  +1.7388511788E-004 -5.0771712536E+001  +7.4846775587E-004 +5.9826469265E+001  +2.3120428168E-001 -1.5525453984E+002 
2136468.085 +1.2699181773E-001 +1.6607664014E+002  +2.6957083202E-003 -6.1492449255E+001  +2.1628893449E-003 -1.6455901637E+002  +1.5565290747E-001 -1.7768627750E+002 
2261613.267 +1.3186002273E-001 +1.6996595829E+002  +2.1798115459E-003 -5.0165602264E+000  +6.3715338542E-004 -1.1006485677E+002  +1.7626999277E-001 -1.6072394892E+002 
2386758.448 +1.2324043564E-001 +1.6235979257E+002  +4.2810743459E-003 +1.4058701845E+002  +5.2736599815E-003 +7.1096408806E+001  +1.8050137901E-001 -1.7974979814E+002 
2511903.630 +1.3296956364E-001 +1.6616762952E+002  +2.8287491629E-003 -1.7404067256E+002  +1.9780759822E-003 +3.3519447771E+001  +2.0544874341E-001 +1.7199094444E+002 
2637048.811 +1.2743103551E-001 +1.6168259092E+002  +2.0700170336E-003 -1.5827836160E+002  +6.6027698901E-004 +1.8348817145E+001  +1.6426404875E-001 -1.6738694126E+002 
2762193.992 +1.2213650626E-001 -1.7044866057E+002  +1.4925183734E-002 +1.0370715446E+002  +2.6856527730E-002 +1.3593034184E+002  +8.3654808165E-001 -9.5328351911E+001 
2887339.174 +8.7908926335E-002 -1.6288826258E+002  +1.2648317289E-002 -8.1329154401E+001  +6.8751915089E-003 +7.7364776757E+001  +4.8536773100E-001 -1.1819461122E+002 
3012484.355 +1.0667369860E-001 -1.7297787066E+002  +1.1930724247E-002 +6.7914063647E+001  +9.8766639750E-003 -1.7148931292E+002  +9.4038061424E-002 -1.2840543490E+002 
3137629.537 +1.2409889329E-001 +1.7131952118E+002  +4.3877706537E-003 -1.1722274123E+002  +6.3755317473E-003 -8.3615012983E+001  +2.7659554995E-001 -9.5841296211E+001 
3262774.718 +1.2819440850E-001 +1.6172874180E+002  +1.6900821764E-002 -6.6913560864E+001  +7.7805851916E-003 -2.3513673814E+000  +1.7620649814E-001 -3.0941620109E+001 
3387919.900 +1.2511700024E-001 +1.6717312946E+002  +8.5495916814E-003 -6.0008100792E+001  +2.4937028982E-002 -3.6624402592E+001  +6.6030779764E-001 -1.0006279921E+001 
3513065.081 +1.3831071372E-001 +1.5524151879E+002  +4.1709245057E-003 +1.3815748631E+002  +6.3169188242E-003 -1.0298090076E+002  +2.8765073939E-001 +9.8789750939E+001 
3638210.263 +1.5385958038E-001 +1.4602579750E+002  +5.8350346646E-003 +1.6914359625E+002  +3.1143344366E-003 +1.3133796209E+002  +3.2783971064E-001 +1.6228657275E+002 
3763355.444 +1.1048047426E-001 +1.2785652445E+002  +4.7075719178E-002 -1.0979836307E+002  +2.8410579470E-002 +1.1271052616E+002  +1.1991444580E+000 +1.0655612526E+002 
3888500.626 +1.7619265478E-001 +1.3890822296E+002  +8.9781910931E-003 -9.6693199504E+001  +9.9321530640E-003 +5.7592022685E+001  +5.0068956175E-001 +1.0967886781E+002 
4013645.807 +1.7423149578E-001 +1.6010990694E+002  +3.2418985304E-003 -1.6179004769E+002  +2.5994172915E-003 +1.5970799359E+002  +4.5696407060E-001 +1.5911387432E+002 
4138790.989 +1.7210553590E-001 +1.4341110156E+002  +6.4592806230E-003 -5.1664387846E+001  +9.1691107652E-003 +1.2778693975E+002  +7.1059515703E-002 +2.0493208130E+001 
4263936.170 +1.9051322816E-001 +1.4487154354E+002  +3.2446326575E-003 -4.2133276943E+001  +6.4158000075E-003 +1.2978816431E+002  +4.0228896830E-001 +1.2345388126E+002 
4389081.352 +2.3812652401E-001 +1.2875213881E+002  +1.0471367686E-003 +1.0241421017E+002  +1.5536427961E-002 +6.5461704041E+001  +5.3681177227E-001 +6.0952962871E+001 
4514226.533 +2.1171704360E-001 +1.3657342208E+002  +1.1037806879E-002 +4.4092468193E+001  +2.7002962921E-003 +1.1987852737E+001  +1.2541042717E+000 +8.7511734644E+001 
4639371.715 +2.8862659981E-001 +1.1830421071E+002  +3.2056291411E-002 -1.0786269830E+002  +1.0250937493E-002 -4.4480375678E+001  +1.0406544320E+000 +3.9027797159E+001 
4764516.896 +4.7284603804E-001 +1.2442778829E+002  +7.5728772722E-002 +1.7794422877E+002  +9.2444862883E-002 -1.2849610626E+002  +2.3511037217E+000 +7.9931596091E+001 
4889662.078 +4.4920621721E-001 +1.3952280730E+002  +4.4283435439E-002 +7.5566575153E+001  +1.1009904815E-001 -9.7681301942E+001  +3.9059551072E+000 -1.1460403069E+002 
5014807.259 +4.2292400563E-001 +1.2165220689E+002  +1.8552396384E-001 -5.1901416788E+001  +7.7307121942E-002 +1.1696086260E+002  +5.1002928906E+000 +9.0632358292E+001 
5139952.441 +3.6914844841E-001 +1.2567044302E+002  +5.2304704469E-002 -1.6313140194E+002  +1.7191884480E-002 +1.4816930364E+002  +2.5123224697E+000 +1.1192894413E+002 
5265097.622 +3.6816212801E-001 +1.2437358765E+002  +6.0243775359E-002 -1.6482460976E+002  +5.9974070152E-002 -1.4523545367E+002  +5.5700796264E+000 +1.4682414871E+002 
5390242.804 +4.1693391989E-001 +1.2833668192E+002  +1.9661870577E-002 +9.8491700106E+001  +2.4670092506E-002 -1.0366354887E+002  +2.0586038121E+000 +1.1210470464E+002 
5515387.985 +3.9781436155E-001 +1.1338348997E+002  +1.6597342763E-002 +1.5744551388E+001  +5.6907777358E-002 -1.5709938038E+002  +2.6636925864E+000 +9.3038379248E+001 
5640533.166 +5.3413355348E-001 +1.2651656178E+002  +2.4991776104E-003 -1.0535033891E+002  +7.8866202620E-003 -1.0580982903E+002  +2.7316026595E+000 +7.0173608932E+001 
5765678.348 +5.1158084492E-001 +1.1065978849E+002  +7.1143783297E-003 +1.3616020213E+002  +3.5451342011E-002 -1.2591696882E+002  +2.6836697160E+000 +9.7179041822E+001 
5890823.529 +7.1621658843E-001 +1.2706687033E+002  +2.3670653624E-002 -1.3806727637E+002  +2.7224010508E-002 -1.5559452096E+002  +1.7092804530E+000 +5.6859498145E+001 
6015968.711 +6.4559076438E-001 +1.1094578939E+002  +2.3496183274E-002 +1.0782253390E+002  +3.2491529496E-002 +1.3772165345E+002  +2.5364710089E+000 +3.9958616618E+001 
6141113.892 +7.9743326147E-001 +1.1001712404E+002  +2.6838176081E-002 -1.5704525751E+001  +2.0332723095E-002 +3.0049432935E+001  +1.5160261478E+000 +2.2975064551E+001 
6266259.074 +8.9936794818E-001 +1.0644287952E+002  +1.8497960381E-002 -1.7413187499E+001  +2.0021621295E-002 +3.7408305491E+001  +1.9606751909E+000 +1.1916049629E+001 
6391404.255 +1.2538134269E+000 +9.8373685222E+001  +3.1290794892E-002 +1.6817779895E+002  +1.7090494827E-002 +1.2925979123E+002  +1.4375009726E+000 +1.1001970093E+001 
6516549.437 +1.0889972724E+000 +8.1670225018E+001  +2.1169482439E-002 -2.7731487555E+001  +1.4495968461E-002 -1.2962875537E+002  +1.0455187403E+000 +2.7654117853E+001 
6641694.618 +2.0483955414E+000 +8.0508121919E+001  +4.2201837669E-003 -1.7889721373E+002  +3.0402082854E-002 +1.1094218106E+002  +1.3608056665E+000 -1.7412864463E+000 
6766839.800 +1.6885579972E+000 +3.8756039514E+001  +2.8132423503E-002 +1.3704118930E+002  +2.1938544134E-003 +1.7987915625E+002  +1.2582393929E+000 -1.1586383659E+000 
6891984.981 +2.0626956280E+000 +1.3891093865E+001  +2.1147330344E-002 +4.9841006092E+001  +1.6576859358E-002 -5.7118451175E+001  +1.4161195884E+000 -1.0065401730E+001 
7017130.163 +1.7293816759E+000 +1.5348176592E+001  +3.4415288681E-002 +6.3062319207E+001  +2.6412052708E-002 -4.4325553043E+001  +1.2809764777E+000 -6.1097410254E+000 
7142275.344 +1.7313077709E+000 +8.0085796083E+000  +6.3320010752E-003 +4.2599132167E+001  +6.0305344562E-003 +8.4227783932E+001  +1.3653609120E+000 -7.9377560118E+000 
7267420.526 +1.1939014529E+000 +6.4623586278E+000  +6.7550080338E-003 +1.6247321270E+002  +6.8805967792E-003 -5.0148763171E+001  +1.3272796598E+000 -6.5586786063E+000 
7392565.707 +1.2820933211E+000 -5.4035644775E-001  +7.5275914331E-003 +1.3004680869E+002  +5.4057742138E-003 +1.7450587029E+002  +1.3726555774E+000 -9.5744122958E+000 
7517710.889 +1.2842500018E+000 -2.9734327463E+000  +3.4490586593E-003 +6.4660189479E+001  +6.9679889763E-003 +1.4129318739E+002  +1.2635153983E+000 -1.3637832756E+000 
7642856.070 +9.6754091910E-001 +3.1275051384E+000  +8.5764292837E-003 -4.0444243524E+001  +1.1977205112E-002 +3.6280558000E+000  +1.2168265353E+000 -7.3087188632E+000 
7768001.252 +8.1650015557E-001 +3.3482344534E+000  +5.3766700220E-003 +1.1767919888E+002  +1.2228321731E-002 +5.2371287687E+001  +1.0007950239E+000 +2.7799971388E+000 
7893146.433 +7.8788513762E-001 +6.7791592945E+000  +7.8392381549E-003 +1.2603432467E+002  +3.1111367695E-003 -1.3259118803E+002  +9.1526567806E-001 -5.9588926903E+000 
8018291.615 +8.5997735010E-001 +3.4398058732E+000  +5.6061442610E-003 +6.4574152029E+001  +3.4278711751E-003 -2.0455201967E+001  +8.6314378647E-001 -3.8288736739E+000 
8143436.796 +8.1154972408E-001 +1.1039343445E+001  +4.4654369403E-003 +1.4697336439E+002  +6.2780947235E-003 +9.7216809851E+001  +9.5433419655E-001 +1.4022629581E-001 
8268581.977 +8.1784150364E-001 +6.8439272021E+000  +4.7260004822E-003 +4.9857891587E+001  +4.6186216324E-003 +8.5085780176E+001  +7.4720716698E-001 -3.0744263398E+000 
8393727.159 +7.5061397906E-001 +6.9139802723E+000  +8.9905421095E-004 +8.0030618942E+001  +4.2691131111E-003 +6.5754836270E+001  +7.5621559433E-001 +7.6278206776E+000 
8518872.340 +6.7473420587E-001 +4.0850900650E+000  +3.5484086029E-003 +1.0876919162E+001  +4.9214465654E-003 +4.3065185591E+001  +6.6351536779E-001 +4.2458205571E-001 
8644017.522 +6.3617754652E-001 +4.9591223998E+000  +7.2085585483E-003 +1.1482464126E+002  +2.8701080558E-003 -2.0431566384E+001  +6.7993790059E-001 +1.3892233713E+000 
8769162.703 +5.7335058148E-001 +5.1642338520E+000  +4.1122234407E-003 +9.0740034532E+001  +4.0791932106E-003 +1.4916186903E+002  +6.9530266681E-001 -2.9903383315E+000 
8894307.885 +6.0365220092E-001 +9.0943605035E+000  +7.3695273016E-003 +8.8144803863E+001  +2.2283535224E-003 +1.1521313262E+002  +6.1980317112E-001 +5.2309923528E+000 
9019453.066 +6.3156245041E-001 +9.9645233550E+000  +3.4192466976E-003 +3.2189780325E+001  +1.3915961010E-003 +2.5676336348E+001  +6.2692785133E-001 -3.5573159773E+000 
9144598.248 +5.7856276660E-001 +6.1610636322E+000  +3.0225117432E-003 +1.0620466673E+002  +6.4903911412E-003 +1.1814357211E+002  +6.1972995999E-001 +1.8833239113E+000 
9269743.429 +5.6267757183E-001 +3.9112609000E+000  +5.4065830260E-003 +8.2413809007E+001  +5.7935155197E-003 +1.0431635510E+002  +6.4728660434E-001 -2.4818120612E+000 
9394888.611 +5.8756510352E-001 +4.5718512609E+000  +4.6831292041E-003 +1.5047967906E+002  +5.3324554214E-004 +6.5174515826E+001  +6.3353944567E-001 -9.3231334839E-001 
9520033.792 +5.7999536385E-001 +6.6607773656E+000  +5.6188225873E-003 +9.9100284339E+001  +1.5435146856E-003 +8.5009684214E+001  +5.9080986543E-001 -4.9687993464E-002 
9645178.974 +5.6059495716E-001 +5.1944542784E+000  +6.4344311182E-003 +9.4740240088E+001  +3.6000929943E-003 -1.6893897446E+002  +5.7542201075E-001 -1.0907652517E+000 
9770324.155 +5.2078720730E-001 -2.1856557325E+000  +1.8813926880E-003 +1.0353461752E+002  +6.2582370687E-003 +9.0834886785E+001  +5.8248323558E-001 -3.9314913711E+000 
9895469.337 +5.4021870568E-001 -7.7162970500E-001  +5.2093396752E-003 +5.7882905954E+001  +6.7339120536E-003 +9.2092845895E+001  +6.1860333490E-001 -7.9646375265E+000 
10020614.518 +5.6063997041E-001 +2.2651872945E+000  +3.9054895200E-003 +1.3148834664E+002  +4.1418671712E-003 +6.4567132633E+001  +5.7750244917E-001 -4.4144513376E+000 
10145759.700 +5.2358817610E-001 +1.2581917386E+000  +4.8664285188E-003 +6.9211019116E+001  +5.8069419271E-003 +1.0852216546E+002  +5.9728160392E-001 -4.1928585732E+000 
10270904.881 +5.4649864964E-001 +8.3724714534E-001  +3.6596248300E-003 +1.0597687343E+002  +5.8034022881E-003 +1.1548161565E+002  +5.8971555407E-001 -1.7963538486E+000 
10396050.063 +5.3795119464E-001 +3.7009020678E+000  +5.7540439337E-003 +9.1773973402E+001  +6.0545677362E-003 +1.2267278594E+002  +5.8240322134E-001 -4.2493601854E+000 
10521195.244 +5.5359644150E-001 +6.9110141210E+000  +4.4421538089E-003 +1.3325513995E+002  +4.6134950937E-003 +1.1205780764E+002  +5.7573864191E-001 +1.9766423407E+000 
10646340.426 +5.7612546836E-001 +8.6109760154E+000  +5.9469678913E-003 +9.6154979952E+001  +4.5950762235E-003 +7.7593848193E+001  +5.8858326419E-001 +4.8912382626E+000 
10771485.607 +5.4787057432E-001 +6.9361900227E+000  +4.8502833984E-003 +8.6989230088E+001  +5.7887207812E-003 +1.0477577913E+002  +5.7920767110E-001 +3.1818173333E+000 
10896630.788 +5.5922502204E-001 +8.2319707433E+000  +2.6747738218E-003 +1.2374095769E+002  +3.4472442292E-003 +1.0257815413E+002  +6.1217758944E-001 +2.2221708029E+000 
11021775.970 +5.6428860941E-001 +6.1351028707E+000  +6.4657591919E-003 +7.9693538261E+001  +5.6172816026E-003 +1.1468486301E+002  +6.1322627135E-001 -5.9062052969E-001 
11146921.151 +6.0746078334E-001 +5.6154657111E+000  +5.7594525081E-003 +7.8530054591E+001  +5.0041966138E-003 +1.1044038282E+002  +6.3348102741E-001 +2.2383238077E+000 
11272066.333 +6.0130495337E-001 +5.3426772128E+000  +3.2634729942E-003 +8.9140848510E+001  +4.9784658814E-003 +8.9405207607E+001  +6.3038159738E-001 +1.4862935713E+000 
11397211.514 +6.0876856079E-001 +9.4515254025E+000  +3.7757601465E-003 +1.1889181595E+002  +6.3596037244E-003 +1.1276518761E+002  +6.2628049845E-001 +3.1341427393E-001 
11522356.696 +6.2628179962E-001 +3.9547062162E+000  +4.8854801923E-003 +8.5471892796E+001  +5.4034250613E-003 +1.2289433846E+002  +6.3983929441E-001 +3.0091475988E-001 
11647501.877 +6.3190408689E-001 +6.1322385961E+000  +5.1444326710E-003 +8.8965689709E+001  +5.4024881957E-003 +1.1119350368E+002  +6.4321920548E-001 +2.3864753921E+000 
11772647.059 +6.4653472470E-001 +6.6861501621E+000  +6.5319480866E-003 +9.4858520916E+001  +4.9900816661E-003 +8.7261507643E+001  +6.6562950208E-001 +3.1818703872E+000 
11897792.240 +6.3098613265E-001 +2.2582661593E+000  +4.9539092409E-003 +8.2128751253E+001  +5.4022151690E-003 +8.4195115972E+001  +6.8118787099E-001 +2.4753639048E+000 
12022937.422 +6.6729275981E-001 +4.3055559846E+000  +5.6231990650E-003 +1.0885115435E+002  +6.5510779827E-003 +9.8233837765E+001  +7.4371535834E-001 -1.0842831977E+000 
12148082.603 +6.6925974875E-001 +4.6533663721E+000  +5.7035916535E-003 +9.9385802896E+001  +5.7870384453E-003 +1.0910443999E+002  +6.9131621791E-001 +1.3009146447E+000 
12273227.785 +6.9446052862E-001 +4.9301855355E+000  +4.7962962007E-003 +7.7251704974E+001  +6.0014005039E-003 +1.0056392378E+002  +7.1732204719E-001 -1.8081431212E-001 
12398372.966 +7.0510335806E-001 +3.7427435032E+000  +5.6904329383E-003 +7.8454433640E+001  +3.4531533743E-003 +9.6772013398E+001  +7.2506874014E-001 -2.5007505848E-001 
12523518.148 +7.1449520505E-001 +3.1630061845E+000  +5.9352910232E-003 +9.7364333746E+001  +5.3247128488E-003 +9.2575195937E+001  +7.0736035990E-001 -1.2925206517E+000 
12648663.329 +7.4466131918E-001 +1.9012662674E+000  +7.4793243242E-003 +9.0865072241E+001  +7.2361032473E-003 +9.6154420074E+001  +7.6073622680E-001 +1.1564178639E-001 
12773808.511 +7.5766048883E-001 +4.5264665817E-001  +5.0246063166E-003 +1.1518736456E+002  +5.1671430097E-003 +8.5904903807E+001  +7.6740567832E-001 -1.7831785448E+000 
12898953.692 +7.7105195556E-001 +2.0759587569E+000  +6.1009888850E-003 +9.3516181784E+001  +6.4610163458E-003 +1.0545314362E+002  +7.8288095369E-001 -1.9886737020E+000 
13024098.874 +7.7668354103E-001 +2.6035626097E-001  +6.8176733979E-003 +9.1835869041E+001  +5.6844547883E-003 +9.5427530060E+001  +7.8263992403E-001 -1.7479786017E+000 
13149244.055 +7.9403780269E-001 +1.0107279260E-001  +6.5497421126E-003 +8.3118139060E+001  +7.5502140615E-003 +8.4009389955E+001  +7.8783744167E-001 -3.0823999299E+000 
13274389.237 +8.1195377427E-001 -5.5749899831E-001  +6.4209715351E-003 +1.0494663746E+002  +6.7094926089E-003 +1.0259321176E+002  +8.2148977218E-001 -2.7203966096E-001 
13399534.418 +8.5408230907E-001 -2.2415455849E+000  +8.7465888483E-003 +8.7839952993E+001  +6.3985316959E-003 +9.4141526966E+001  +8.4134960443E-001 -2.7035366570E+000 
13524679.599 +8.5014138974E-001 -1.4830468010E+000  +6.3249660696E-003 +9.0740771851E+001  +6.4540458845E-003 +8.7715156012E+001  +8.7867428781E-001 -1.6598162308E+000 
13649824.781 +8.7519858960E-001 -2.4495235036E+000  +7.5388067174E-003 +1.0056092318E+002  +7.1793266232E-003 +1.1183451551E+002  +8.9800698105E-001 -3.0361569673E+000 
13774969.962 +8.9327700045E-001 -2.6302003706E+000  +6.9260094521E-003 +8.6014164211E+001  +6.8185727058E-003 +9.6678123056E+001  +9.1909398194E-001 -3.8150663095E+000 
13900115.144 +9.2149709462E-001 -2.9025526083E+000  +8.3899126250E-003 +8.8060265456E+001  +6.3456160693E-003 +8.6938900718E+001  +8.9111340245E-001 -2.3210006275E+000 
14025260.325 +9.4483861446E-001 -3.4385850104E+000  +7.6797918938E-003 +9.2777726674E+001  +6.5015241998E-003 +9.4862780794E+001  +9.3723674976E-001 -3.4158793294E+000 
14150405.507 +9.2059073479E-001 -5.1747807708E+000  +5.8692581690E-003 +8.9841967048E+001  +7.4262182879E-003 +1.1148293491E+002  +9.3946010965E-001 -4.8086067439E+000 
14275550.688 +9.3489689574E-001 -4.6383275601E+000  +6.5020804466E-003 +8.3922262522E+001  +6.2374362811E-003 +8.8759285287E+001  +9.5391430624E-001 -3.6852614715E+000 
14400695.870 +9.8634667314E-001 -7.1722682996E+000  +7.1953023388E-003 +1.0024569102E+002  +7.8113518161E-003 +9.7858687915E+001  +9.7730443630E-001 -5.3077821591E+000 
