!  2-Port S-parameters saved by WinCal
! VAR MeasName=S-Parameters (CALIBRATED_DATA) read from VNA (P5004A)
! VAR MeasDate=27/08/2024 12:50:40
! VAR NAME=S2_r8c9_pristine_9k-100M_3
! VAR FILENAME=S2_r8c9_pristine_9k-100M_3.S2P
! VAR DATE=27/08/2024 12:50:40
! VAR PHYS_PORTS=1,2
! VAR ObjTypeName=DATASET
! VAR IndexType=Frequency
!
# Hz S MA R 50
9000.000 +1.0086112756E-001 -1.0773774554E+002  +8.9771790908E-002 -7.7144479533E+001  +5.5454259457E-002 -4.7139161436E+001  +4.3284759730E-001 -6.8422600132E+001 
134145.181 +1.1042348888E-001 +1.6954312396E+002  +2.3409442168E-004 -9.4145035357E+000  +3.2825524891E-004 +1.3954618096E+002  +2.3705372269E-001 -1.7082827997E+002 
259290.363 +1.1136759032E-001 +1.6990358199E+002  +1.3574640794E-003 +2.2992155354E+001  +6.8210082354E-004 +9.1863418730E+001  +2.3909504914E-001 -1.6723384838E+002 
384435.544 +1.1256519291E-001 +1.7024418265E+002  +1.5501228717E-004 -1.1134578699E+002  +7.7185781570E-004 -5.5475609060E+001  +2.3837148327E-001 -1.6880549407E+002 
509580.726 +1.1354086629E-001 +1.7101384691E+002  +1.1151974997E-003 -9.4118498474E+001  +1.2704266862E-003 +1.7822079820E+002  +2.2467832669E-001 -1.5955608007E+002 
634725.907 +1.1519628592E-001 +1.6999290447E+002  +1.4143449077E-003 +1.7814100247E+002  +9.6018512111E-004 -4.2687314191E+001  +2.3678047999E-001 -1.6228576553E+002 
759871.089 +1.1482465279E-001 +1.7049611499E+002  +1.1931531074E-003 +1.5754809041E+002  +3.6367620661E-004 -1.7483006191E+002  +2.3097641713E-001 -1.6212326297E+002 
885016.270 +1.1716298069E-001 +1.6996347954E+002  +3.9514192686E-004 +8.5674362658E+001  +6.4903348820E-004 -1.3702295263E+002  +2.3654840127E-001 -1.6525250332E+002 
1010161.452 +1.1372622836E-001 +1.7318597154E+002  +1.5180326034E-003 -1.6836216773E+002  +4.4457431619E-003 -3.0115830092E+001  +1.5732529117E-001 +1.4963577703E+002 
1135306.633 +1.1603783635E-001 +1.7073418003E+002  +3.0473022641E-003 -1.0562594211E+002  +2.9775624812E-003 -1.0332085339E+002  +1.0955084160E-001 -1.6918736926E+002 
1260451.815 +1.2237945346E-001 +1.7241269354E+002  +1.0780703842E-003 +5.0177801961E+001  +3.8072818181E-004 +5.8613047989E+001  +2.4749703271E-001 -1.6233712098E+002 
1385596.996 +1.2397964179E-001 +1.7102842588E+002  +1.7871146955E-003 +9.0757142519E+001  +1.6000313903E-003 +1.7203741755E+002  +2.7540322064E-001 -1.5547574742E+002 
1510742.178 +1.2520758992E-001 +1.7347760728E+002  +1.1918602371E-003 +6.1653425295E+000  +1.5861304877E-003 -6.1497790327E+001  +2.4764062004E-001 -1.5647501692E+002 
1635887.359 +1.2805504200E-001 +1.7039522190E+002  +1.1704987436E-003 +1.4458878558E+002  +1.5756807049E-003 -9.9179182105E+001  +2.4433227376E-001 -1.5499425330E+002 
1761032.541 +1.2678596095E-001 +1.6930196038E+002  +1.6262127365E-003 -1.6556388692E+002  +2.7996994698E-003 -2.5161289083E+001  +2.0787149229E-001 -1.6566517910E+002 
1886177.722 +1.3042364395E-001 +1.6714562083E+002  +2.0254938858E-003 -7.5447546052E+001  +3.4298632448E-004 +5.3540403783E+001  +2.0243936814E-001 -1.6104284753E+002 
2011322.904 +1.2431429904E-001 +1.6738010942E+002  +1.3088237774E-003 -1.3768579718E+002  +3.3175779310E-003 +5.7341649309E+001  +1.6258267935E-001 -1.7793494272E+002 
2136468.085 +1.2494750246E-001 +1.6557619499E+002  +2.0786352947E-003 -5.4932588476E+000  +3.1654001801E-003 +3.0782893612E+001  +2.1591193998E-001 -1.7865148796E+002 
2261613.267 +1.2275912780E-001 +1.6523478896E+002  +7.4804536093E-003 -1.3248525827E+002  +3.2407355319E-003 -1.6088522246E+002  +1.0156601674E-001 +1.7595058146E+002 
2386758.448 +1.3721243516E-001 +1.6355965712E+002  +4.3653686290E-003 -1.5039672823E+002  +1.9758258269E-003 +1.4972690522E+002  +2.2184007213E-001 +1.7116522577E+002 
2511903.630 +1.1927941080E-001 +1.5974800263E+002  +5.8768127587E-003 -1.7162563802E+002  +5.4874914947E-003 +1.4370927115E+002  +1.8583264603E-001 +1.3398957195E+002 
2637048.811 +9.8662997229E-002 +1.6622894074E+002  +2.0514912118E-002 +6.1401421454E+001  +2.2153379235E-002 +1.2285094857E+002  +8.2886380572E-001 +1.7179318265E+002 
2762193.992 +1.1157833149E-001 +1.7835203311E+002  +6.6640212073E-003 -1.6202177355E+002  +1.4741046744E-003 -1.3974139604E+002  +5.9613387010E-001 +1.1397956172E+002 
2887339.174 +1.1758160305E-001 +1.6755434310E+002  +1.2392307158E-002 +5.0269334810E+000  +4.2037356863E-003 -8.4383690436E+000  +5.3142549874E-001 -1.1127559549E+002 
3012484.355 +9.5946716780E-002 -1.6565143361E+002  +1.0580486641E-003 -6.8974771739E+001  +4.9588949037E-003 -1.7933340001E+002  +4.5588544463E-001 -1.1607979206E+002 
3137629.537 +1.0300963154E-001 -1.7179762502E+002  +1.0390799044E-002 -1.0651057140E+002  +8.7611251741E-003 +5.1451684117E+001  +1.7720840960E-001 +5.2332573264E+001 
3262774.718 +1.1061479070E-001 +1.6534582090E+002  +9.3452853032E-003 -9.5448357244E+001  +4.1007043015E-003 -8.4816419093E+001  +1.6198205435E-001 -8.1048763782E+001 
3387919.900 +8.7819659340E-002 +1.6294291201E+002  +1.9284460886E-002 -1.0109278481E+002  +1.9252519264E-002 -1.2052615108E+002  +4.8181646492E-001 -4.1221685523E+001 
3513065.081 +1.5095192793E-001 +1.5426194761E+002  +1.9822873454E-002 +8.2656058772E+001  +1.0538100362E-002 -8.1896952909E+001  +1.0817358567E+000 +1.2458508411E+002 
3638210.263 +1.6752718109E-001 +1.4730705258E+002  +5.6939827056E-003 -1.7470571012E+002  +2.0647584054E-003 +1.7724512459E+002  +5.0903171487E-001 +1.2059514476E+002 
3763355.444 +1.9434441726E-001 +1.4619904349E+002  +5.8162542206E-003 -1.3831393825E+002  +6.5386672691E-003 +2.5108484952E+001  +7.2107473348E-001 +1.1517638331E+002 
3888500.626 +1.7038645537E-001 +1.4647398409E+002  +4.9381291879E-003 +1.2204114556E+002  +2.6770412140E-002 -1.3428315821E+002  +3.7321891480E-001 +8.9154131099E+001 
4013645.807 +1.7318583889E-001 +1.4190495561E+002  +1.6515851836E-002 -1.6916909005E+002  +1.3878517010E-002 +1.6860481901E+002  +8.1725449205E-001 +8.1236554612E+001 
4138790.989 +1.6944790264E-001 +1.4831198486E+002  +1.3482165137E-002 +6.8297475484E+001  +1.0777311126E-002 +1.2364557582E+002  +4.3949818551E-001 +1.2714320684E+002 
4263936.170 +1.9999522701E-001 +1.4076824736E+002  +3.4694987144E-002 +2.0618208875E+001  +3.0880313658E-002 +1.7132550619E+002  +1.6381111507E+000 +1.1951399098E+002 
4389081.352 +2.1433408469E-001 +1.4616195781E+002  +9.4373908687E-003 -6.8371037409E+001  +1.8566282758E-002 -9.1340063886E+001  +7.3661159585E-001 +1.1096645943E+002 
4514226.533 +2.6953341583E-001 +1.3722368169E+002  +1.5015273332E-001 +1.2230543652E+002  +1.2995710600E-001 +1.4319533381E+002  +7.6088772946E+000 +5.1941816901E+001 
4639371.715 +2.4017526332E-001 +1.2935456394E+002  +3.9080480687E-002 -8.8990070483E+001  +2.3520351964E-002 +9.8761268399E+001  +2.3593025683E+000 +5.2956354979E+001 
4764516.896 +2.7999574928E-001 +1.3348884511E+002  +3.9974678182E-002 +4.6396471339E+001  +6.2891328962E-002 -1.3853507858E+001  +3.4757169318E+000 -4.4239486768E+001 
4889662.078 +3.8356343367E-001 +1.1395947406E+002  +6.9823195706E-002 +1.2069397066E+001  +1.0514214348E-001 -6.7164977755E+001  +5.1906176853E+000 -1.1320299059E+002 
5014807.259 +4.0333082488E-001 +1.2472138679E+002  +4.4435392670E-002 +1.1277591388E+002  +1.0635106822E-002 +1.8404747480E+000  +1.1905349876E+000 +2.2367620367E+001 
5139952.441 +3.7873504998E-001 +1.2112407499E+002  +5.4911440358E-002 +1.3876947458E+002  +7.8211817394E-002 -1.5794424407E+002  +2.4730246577E+000 +1.0853084491E+002 
5265097.622 +3.6167633109E-001 +1.2942285174E+002  +1.6290160148E-002 +2.3801611780E+001  +7.1115766969E-002 +1.5022138157E+002  +3.1513034410E+000 +1.9680806281E+001 
5390242.804 +4.0117116138E-001 +1.3874609058E+002  +3.0856867232E-002 -1.6573369707E+002  +1.6166098360E-002 +2.6891979688E+000  +1.4699537867E+000 +7.4403168531E+001 
5515387.985 +5.1801996098E-001 +1.3285944033E+002  +1.7012661467E-002 -6.9449760897E+001  +1.0276371526E-002 +2.1228071841E+001  +2.1581368753E+000 +1.2909166005E+002 
5640533.166 +4.4191582810E-001 +1.2197633911E+002  +2.6186638714E-002 +9.2539554844E+001  +1.1004654380E-002 -1.2443360561E+002  +2.9621135623E+000 +5.7062905908E+001 
5765678.348 +4.8495477078E-001 +1.3105163829E+002  +8.7905951486E-003 -6.8517497819E+001  +2.1767294407E-002 +7.5689088227E+000  +1.6495901548E+000 +7.0816078745E+001 
5890823.529 +4.9025545656E-001 +1.2974748486E+002  +4.7700735120E-003 +1.1913362339E+002  +2.1564352988E-002 +1.5601129468E+002  +2.4853739156E+000 +6.3663088397E+001 
6015968.711 +6.0977301960E-001 +1.2173396747E+002  +1.2547630465E-002 -1.6089342540E+002  +7.6973621769E-003 -1.3709609779E+002  +1.5102995293E+000 +4.9765720798E+001 
6141113.892 +6.4774152265E-001 +1.1064235462E+002  +2.4473720374E-002 -1.7436932607E+002  +1.0235509009E-002 +1.7230055151E+002  +1.5649901698E+000 +2.3157205453E+001 
6266259.074 +1.0196224170E+000 +1.0558911968E+002  +1.3901785785E-002 +8.5785913844E+001  +1.8215518733E-002 +1.0891445151E+002  +1.7454630070E+000 +1.6923126983E+001 
6391404.255 +9.1360777849E-001 +1.0314471845E+002  +8.8245055972E-003 -1.0902148566E+001  +2.2407730174E-002 +1.0436650703E+002  +1.7882497999E+000 +1.7817947124E+001 
6516549.437 +1.1932012505E+000 +8.4404155766E+001  +2.0127321175E-002 +1.3488815040E+002  +2.7623142259E-002 -2.1013053946E+001  +1.3267213687E+000 +2.5320989472E+001 
6641694.618 +2.1852123154E+000 +6.6163022545E+001  +1.7004986321E-002 -7.4515239859E+001  +3.6302518236E-002 +1.3373622697E+002  +1.5504678685E+000 +1.5967177284E+000 
6766839.800 +1.7440568914E+000 +5.8124429686E+001  +2.6167715229E-002 +9.6199391030E+001  +2.0334467057E-002 +1.5032022550E+002  +1.1399893746E+000 +3.5573567891E+000 
6891984.981 +1.6741168434E+000 +3.0407693057E+001  +2.9224776696E-002 +8.6287531480E+001  +2.3738003053E-002 +8.4252786416E+001  +1.2347687963E+000 -7.0033355851E+000 
7017130.163 +1.4486958354E+000 +2.0514825683E+001  +1.6705521504E-002 +1.4946426124E+002  +1.4448607861E-002 +1.5374845876E+002  +1.3803294583E+000 +1.0843436426E-001 
7142275.344 +1.7940442888E+000 +1.4636299995E+001  +1.4789829146E-002 +1.4358418760E+002  +1.0865724087E-002 +1.5382700204E+002  +1.2507035482E+000 -7.5398995857E+000 
7267420.526 +1.6413635693E+000 +6.6112428887E+000  +6.4345634035E-003 +6.8645026850E+001  +9.9929138337E-003 +9.6150482333E+001  +1.4266668243E+000 -1.5023184797E+000 
7392565.707 +1.3245274158E+000 +3.5425780950E+000  +1.1158474523E-002 +1.0884128965E+002  +8.9422421608E-003 +9.2261654710E+001  +1.2513155812E+000 -9.4138131284E+000 
7517710.889 +1.1767864397E+000 -2.5327277343E+000  +7.8275830520E-003 -2.7586294573E+001  +1.2298194988E-002 +1.1760665575E+002  +1.2065860141E+000 -9.3695267660E+000 
7642856.070 +1.0752071735E+000 +5.4447490725E+000  +5.6120361481E-003 +4.3087498665E+001  +4.8337237238E-004 +1.4826555415E+002  +1.0685778539E+000 -4.2939094893E+000 
7768001.252 +1.0341132681E+000 +1.5228390626E+000  +2.5464358702E-003 +3.3278744734E+001  +3.7398841605E-003 +9.8125429767E+000  +9.7842153233E-001 -1.0685988222E+001 
7893146.433 +9.7135249267E-001 +6.3181640989E+000  +3.0759720525E-004 -1.3570074506E+002  +7.8029013903E-003 -1.5169411824E+002  +9.3985566423E-001 -8.7447080638E-001 
8018291.615 +8.6368635168E-001 +3.7441756065E+000  +8.2172757004E-004 +8.1435299887E+001  +2.5579756611E-003 -1.0414857814E+002  +8.3907849522E-001 +6.2171208536E+000 
8143436.796 +7.9033285903E-001 +5.8127458464E+000  +2.2674359008E-003 +1.0458196476E+002  +4.2128664166E-003 +1.4132234414E+002  +8.3394104539E-001 +9.6028879094E-001 
8268581.977 +7.5258379699E-001 +2.1373203658E+000  +3.0254582077E-003 +8.5108631188E+001  +5.3568231176E-003 -1.7830793996E+002  +7.9776046271E-001 -6.3409779733E+000 
8393727.159 +7.4096404593E-001 +3.5961434672E+000  +6.5717615917E-003 +1.2339173636E+002  +1.5374328039E-003 +1.1791290478E+002  +7.2734058542E-001 -3.7002122884E+000 
8518872.340 +6.5083397104E-001 +4.9970085623E+000  +6.5763351364E-003 +6.7738253798E+001  +4.4330789816E-003 +1.1268842479E+002  +7.3467143665E-001 -6.9211040381E+000 
8644017.522 +6.9140621798E-001 +9.0608486027E-001  +5.4909027087E-003 +6.0823955261E+001  +7.9538238144E-003 +6.0868956712E+001  +6.3657380750E-001 +5.1175378780E+000 
8769162.703 +6.3371385610E-001 +5.9351699573E+000  +3.6106923814E-003 +1.0442252679E+002  +1.2328270803E-003 +4.2590926716E+001  +6.3108122295E-001 -2.8308074581E+000 
8894307.885 +6.6116543870E-001 +4.7096059689E+000  +1.9458976590E-003 +1.5841452875E+002  +6.0677903863E-003 +8.6353524290E+001  +6.3707247069E-001 -2.6847188463E+000 
9019453.066 +6.4210153887E-001 +8.6585367552E+000  +4.4765838718E-003 +9.7719132173E+001  +3.8492498033E-003 +1.1955955180E+002  +6.0228922007E-001 +1.4854481603E-002 
9144598.248 +6.1461450573E-001 +3.8872932688E+000  +2.7707342342E-003 +1.4032164853E+002  +3.5017665037E-003 +9.3319635302E+001  +6.0626886441E-001 +8.3907361108E-001 
9269743.429 +5.5097980106E-001 +3.5087595580E+000  +5.1472710605E-003 +1.2791443790E+002  +1.9397580202E-003 -1.2527412729E+002  +6.3841720846E-001 -5.5360878109E+000 
9394888.611 +5.6263212591E-001 +3.3838661414E+000  +3.8037153510E-003 +9.5678160639E+001  +3.4540757458E-003 +1.3484523883E+002  +5.8817222713E-001 -2.4242368738E+000 
9520033.792 +5.0809350947E-001 +2.6611113627E+000  +3.4664144392E-003 +7.0364213670E+001  +4.3716450934E-003 +6.6877786420E+001  +6.2976160422E-001 -3.7879981674E+000 
9645178.974 +5.3877894903E-001 +4.5595464678E+000  +3.1695943808E-003 +7.2458688092E+001  +2.2713832751E-003 +1.6064130134E+002  +5.8710788018E-001 -4.5055086777E+000 
9770324.155 +5.6924282626E-001 -4.9254508125E+000  +3.4862815111E-003 +5.0945388571E+001  +4.6953424773E-003 +1.2214717233E+002  +6.1741422436E-001 -4.4988034907E+000 
9895469.337 +5.5218627314E-001 -5.6371316472E-001  +2.8050161371E-003 +1.0522632369E+002  +2.1303507026E-003 +3.0730138400E+001  +6.2183092343E-001 -7.3349159034E+000 
10020614.518 +5.3816567763E-001 +1.5811565298E+000  +5.4920325618E-003 +9.3058811371E+001  +4.2880379848E-003 +1.1341609447E+002  +6.1367590660E-001 -3.2171709130E+000 
10145759.700 +5.4531306131E-001 +3.8450965324E-001  +6.3400952980E-003 +4.5568433044E+001  +1.9763582908E-003 +1.5248832046E+002  +5.6057538373E-001 -4.0564091829E+000 
10270904.881 +5.7727401242E-001 +3.6620781528E+000  +7.7240630722E-003 +9.9617428830E+001  +4.5465632204E-003 +1.0401542967E+002  +5.9909245119E-001 -4.4556263043E+000 
10396050.063 +4.9318883970E-001 +4.1586949723E+000  +5.9936582251E-003 +7.1481011852E+001  +5.1110289451E-003 +1.0878362159E+002  +5.3400899403E-001 +3.3837522296E-001 
10521195.244 +5.7486264672E-001 +6.0056065614E+000  +5.4306409728E-003 +1.0496907400E+002  +4.3188523853E-003 +1.1286911649E+002  +6.0206613891E-001 +1.8356604807E+000 
10646340.426 +5.5913050626E-001 +6.6287129763E+000  +3.9471051010E-003 +1.0229952600E+002  +5.6600699599E-003 +7.4541236850E+001  +5.8842802048E-001 -1.2211163373E+000 
10771485.607 +5.7746213436E-001 +5.5223146264E+000  +4.2735887540E-003 +9.2204128750E+001  +4.0208810086E-003 +1.0054027088E+002  +6.2622269702E-001 +3.6864003458E+000 
10896630.788 +5.8795673082E-001 +5.1050968989E+000  +3.1467948675E-003 +1.1245278274E+002  +3.9678796857E-003 +1.2579565140E+002  +5.9529770342E-001 +5.7455432487E-001 
11021775.970 +5.6415929953E-001 +4.1576242946E+000  +6.2532942015E-003 +8.8240843906E+001  +3.6759126457E-003 +7.3163650324E+001  +6.0459424940E-001 -5.2035367230E-001 
11146921.151 +6.2318146777E-001 +3.9780709946E+000  +5.0479090740E-003 +9.7311284826E+001  +4.0553214545E-003 +1.3359594459E+002  +6.0454681624E-001 +1.4290271854E+000 
11272066.333 +6.0988799234E-001 +6.2448396373E+000  +3.8347516895E-003 +1.1441740131E+002  +5.5238173607E-003 +8.2739416975E+001  +6.2793970608E-001 +1.2626555464E+000 
11397211.514 +6.2745150704E-001 +4.2158191191E+000  +4.0983540273E-003 +5.6851839284E+001  +3.0027717533E-003 +1.1939308443E+002  +6.2214238737E-001 +2.5414032440E+000 
11522356.696 +6.3371745236E-001 +6.8139929645E+000  +5.1550101413E-003 +9.8458767799E+001  +5.8481759726E-003 +9.2930575301E+001  +6.6231845704E-001 +5.8430606072E-001 
11647501.877 +6.5664934891E-001 +7.0884133045E+000  +6.0199606442E-003 +9.1790233847E+001  +4.9879252133E-003 +9.6799727068E+001  +6.1491038954E-001 +5.2094886684E-001 
11772647.059 +6.5809099275E-001 +3.8090634881E+000  +5.1465904877E-003 +9.3330239014E+001  +3.7905217973E-003 +9.7015497909E+001  +6.4917555248E-001 -1.1735363276E+000 
11897792.240 +6.5165829794E-001 +4.7473805063E+000  +4.6379966574E-003 +1.2766120568E+002  +6.6310531042E-003 +1.1532381057E+002  +6.7599759717E-001 +4.0000525629E+000 
12022937.422 +6.7762532498E-001 +3.0685591044E+000  +4.1553150808E-003 +9.1837426383E+001  +4.5400138145E-003 +1.0563080482E+002  +6.7792051141E-001 +9.1832386712E-001 
12148082.603 +6.9208372596E-001 +5.7780269002E+000  +4.3596124249E-003 +7.6590527728E+001  +4.1353100353E-003 +1.1776680573E+002  +6.9501823990E-001 +2.0082744153E+000 
12273227.785 +6.9393304849E-001 +3.3716058811E+000  +5.6672192285E-003 +7.7377546056E+001  +4.8478491426E-003 +7.9050002282E+001  +7.1871726520E-001 +9.8451909395E-002 
12398372.966 +6.9517682787E-001 +6.3839919226E+000  +6.3851963065E-003 +1.0468223308E+002  +6.1676914910E-003 +9.6843616783E+001  +7.4107580255E-001 +1.8066843449E-001 
12523518.148 +7.3909512609E-001 +2.5029179607E+000  +4.9097273938E-003 +9.4585422890E+001  +7.1526430254E-003 +1.1320217653E+002  +7.3422191984E-001 -4.0631636341E-001 
12648663.329 +7.1319868631E-001 +1.1614676295E+000  +6.6675108023E-003 +9.0180968728E+001  +6.8624741207E-003 +1.0446201843E+002  +7.5100562819E-001 +5.0149859852E-001 
12773808.511 +7.3958678092E-001 +3.2819091262E+000  +5.3086636797E-003 +8.8948037774E+001  +5.8358887667E-003 +1.0235148371E+002  +7.9005548030E-001 -5.8183857458E-001 
12898953.692 +7.7840934031E-001 +2.6866406729E+000  +5.7839748161E-003 +1.0069565217E+002  +6.2853959148E-003 +8.9317734909E+001  +7.7200052484E-001 -2.2304238964E+000 
13024098.874 +7.7511847681E-001 +4.9845568067E-001  +5.8052145668E-003 +1.0183672255E+002  +7.7464818456E-003 +9.7153841265E+001  +7.8849300842E-001 -1.3700049109E+000 
13149244.055 +7.8143133529E-001 +2.1404447228E+000  +7.7550516037E-003 +9.3537652959E+001  +7.2516539776E-003 +9.7941943823E+001  +8.1718111320E-001 -1.7323350771E+000 
13274389.237 +8.1793184585E-001 +7.1425235681E-001  +8.0322320790E-003 +9.7749805786E+001  +6.3069273390E-003 +9.0867201378E+001  +8.5337470900E-001 -2.8375140746E+000 
13399534.418 +8.4999526251E-001 -8.4262076567E-001  +6.9202548566E-003 +9.0299581255E+001  +4.2661877368E-003 +1.0401079308E+002  +8.4369201657E-001 -3.7521456879E+000 
13524679.599 +8.4551716424E-001 -1.7450841521E+000  +5.7160375362E-003 +9.9588241383E+001  +6.8680656690E-003 +8.4194083420E+001  +8.6045394486E-001 -1.6422707782E+000 
13649824.781 +8.7350994200E-001 -1.3136963912E+000  +7.5309677261E-003 +1.0098103209E+002  +8.8137993004E-003 +9.8105428417E+001  +8.5953357137E-001 -3.1003175959E+000 
13774969.962 +9.0806594854E-001 -2.6440135702E+000  +7.5208922371E-003 +9.7707114148E+001  +5.6747019878E-003 +9.3136140106E+001  +9.0974357959E-001 -3.1242555051E+000 
13900115.144 +9.1348440795E-001 -3.0788871357E+000  +6.5695016541E-003 +8.4118072835E+001  +6.6658431601E-003 +1.0817523356E+002  +9.3870652434E-001 -3.7395029121E+000 
14025260.325 +9.2715776263E-001 -4.6539303978E+000  +7.5304679330E-003 +8.3066675472E+001  +6.2981885423E-003 +9.3630761398E+001  +9.3071053235E-001 -4.0623188143E+000 
14150405.507 +9.4147891547E-001 -2.9752295281E+000  +7.8110716989E-003 +8.6419210613E+001  +6.9934503240E-003 +8.7898457970E+001  +9.4490966857E-001 -3.7534367056E+000 
14275550.688 +9.7594702547E-001 -4.8146672038E+000  +7.3928666880E-003 +1.0124038167E+002  +6.9975332916E-003 +9.1443274206E+001  +9.6793314277E-001 -4.1457721359E+000 
14400695.870 +9.6447816913E-001 -5.7586828437E+000  +8.5709801182E-003 +9.9659587722E+001  +7.8624668927E-003 +9.1084238796E+001  +1.0072079149E+000 -4.9207182424E+000 
