!  2-Port S-parameters saved by WinCal
! VAR MeasName=S-Parameters (CALIBRATED_DATA) read from VNA (P5004A)
! VAR MeasDate=27/08/2024 14:50:56
! VAR NAME=S2_r3c8_RESET1_9k-100M_1
! VAR FILENAME=S2_r3c8_RESET1_9k-100M_1.S2P
! VAR DATE=27/08/2024 14:50:56
! VAR PHYS_PORTS=1,2
! VAR ObjTypeName=DATASET
! VAR IndexType=Frequency
!
# Hz S MA R 50
9000.000 +5.5418572868E-002 -1.6225471233E+002  +1.4950246765E-002 +1.6600857029E+002  +1.6725360957E-002 -1.6673659986E+002  +3.3686117857E-001 -1.2562818382E+002 
134145.181 +1.1086046025E-001 +1.7018325465E+002  +3.4621948070E-004 +7.7077567841E+001  +8.1718910772E-004 -3.7982099345E+001  +2.3970970906E-001 -1.7135343752E+002 
259290.363 +1.1144526741E-001 +1.6941340344E+002  +7.7403634978E-004 -8.2662227422E+001  +4.4061139772E-004 +1.1566467159E+002  +2.3657771262E-001 -1.6856440396E+002 
384435.544 +1.1444681176E-001 +1.6968148172E+002  +1.1894661828E-004 +3.0955032679E+001  +3.6250622416E-004 +1.4334427400E+002  +2.4766858933E-001 -1.7015883251E+002 
509580.726 +1.1469653592E-001 +1.7047835849E+002  +4.6817375014E-004 -5.3147777988E+001  +1.2646171770E-003 -2.4168384408E+000  +2.3496553847E-001 -1.5896434277E+002 
634725.907 +1.1453514062E-001 +1.7227150446E+002  +3.7731466384E-004 -4.5344889698E+001  +1.5280587493E-003 +1.3996918148E+002  +2.4288634158E-001 -1.6652394788E+002 
759871.089 +1.1862184968E-001 +1.7056592054E+002  +4.7467965235E-004 +1.0158908746E+002  +1.5348766004E-004 -1.7706117881E+002  +2.3730727939E-001 -1.6686223896E+002 
885016.270 +1.1766593553E-001 +1.7020546673E+002  +1.1209413645E-003 -1.0902121847E+002  +4.2129067209E-004 +1.8312959968E+000  +2.3854603040E-001 -1.6599432501E+002 
1010161.452 +1.1480837630E-001 +1.7065244794E+002  +2.6129933931E-003 -5.8450185397E+001  +2.7778082463E-003 +1.4078004864E+002  +1.7932323922E-001 +1.7646247757E+002 
1135306.633 +1.1157216815E-001 +1.7044951980E+002  +1.0150948955E-003 +6.5458064548E+000  +5.6762316362E-003 -1.1977850873E+002  +2.2437316337E-001 -1.4553534725E+002 
1260451.815 +1.1777160123E-001 +1.7241787737E+002  +1.4360028197E-003 -1.4351759501E+002  +1.8824342779E-003 +2.1808414362E+001  +2.3524228348E-001 -1.6177762070E+002 
1385596.996 +1.2827024388E-001 +1.7219122052E+002  +1.0345868504E-003 -1.6581884985E+001  +4.7852497892E-004 -1.5855701388E+002  +2.5376128695E-001 -1.5939414725E+002 
1510742.178 +1.2749145896E-001 +1.7254534333E+002  +1.0219647900E-004 +1.4515773184E+002  +8.2466667220E-004 +1.3428438270E+002  +2.4838194248E-001 -1.5955860649E+002 
1635887.359 +1.2918694177E-001 +1.7192639713E+002  +6.4622552042E-004 -7.7942201206E+001  +5.2558550774E-004 -1.1018466127E+002  +2.2562939344E-001 -1.5997586122E+002 
1761032.541 +1.2991744430E-001 +1.6995051464E+002  +2.0560940683E-004 -1.0357843405E+002  +1.4922641004E-003 -8.7924531225E+001  +2.1367468902E-001 -1.6190323256E+002 
1886177.722 +1.3068504876E-001 +1.6812133251E+002  +2.3479637754E-004 -7.3056826791E+001  +3.5963621634E-004 +2.0627506561E+001  +2.2311825114E-001 -1.6445846621E+002 
2011322.904 +1.2544948333E-001 +1.6698615907E+002  +1.2737120904E-003 +1.4287748301E+002  +2.2561441188E-003 -9.1341575202E+001  +1.4878225322E-001 -1.6116417474E+002 
2136468.085 +1.3013377907E-001 +1.6660979065E+002  +2.0364319766E-003 +3.1057055652E+001  +1.2062744096E-003 +1.3665015457E+001  +2.6407861171E-001 +1.6059934112E+002 
2261613.267 +1.2099393974E-001 +1.6490282561E+002  +1.0649619154E-002 -6.9187855761E+001  +3.5029920530E-003 -1.5034278373E+002  +1.5231533822E-001 +1.5226365019E+002 
2386758.448 +1.3512590284E-001 +1.6219131726E+002  +4.9480321942E-003 -1.5755158468E+002  +2.3134265677E-003 -4.7102395388E+001  +1.7323210982E-001 +1.7474081580E+002 
2511903.630 +1.1087570761E-001 +1.5947561116E+002  +4.4900357920E-003 -9.8534317012E+001  +1.0557048291E-002 +1.6590225791E+002  +1.4703954501E-001 +1.7303166868E+002 
2637048.811 +1.2075085950E-001 +1.6475234577E+002  +2.2978830546E-003 -7.0664331655E+001  +3.2393720259E-003 +6.6891744352E+001  +1.7414183840E-001 +1.5798210409E+002 
2762193.992 +8.2918681535E-002 +1.3859628755E+002  +2.3540655388E-002 +1.2139756505E+002  +1.1034623700E-002 -7.2085685555E+001  +2.6876580529E-001 -4.3802181584E+001 
2887339.174 +9.9261304360E-002 -1.7653281496E+002  +6.9579640399E-003 -8.0184215763E+000  +1.2808093357E-002 +5.9872274433E+001  +5.5866637424E-001 -1.0761999983E+002 
3012484.355 +1.2321118793E-001 -1.7951082687E+002  +1.1404147775E-002 -9.4403356741E+001  +3.1580898686E-003 -7.9302718172E+001  +5.2099794984E-001 -1.1628771636E+002 
3137629.537 +9.0144964779E-002 +1.7744281572E+002  +1.8361095908E-002 +8.1395418440E+001  +2.6223388447E-002 -8.8181881598E+001  +9.2354625489E-001 -1.1378059936E+002 
3262774.718 +1.2386873135E-001 +1.7065517451E+002  +3.5416379300E-002 +6.2437161735E+001  +3.4612252323E-002 -3.2294562045E+001  +8.6843137906E-001 -2.2224659334E+001 
3387919.900 +1.3598500361E-001 +1.6077407118E+002  +1.4785098824E-003 +3.5989269520E+001  +4.7814191913E-003 +6.1379649905E+001  +5.1655424805E-002 -1.0346378616E+002 
3513065.081 +1.5879012035E-001 +1.4553764950E+002  +9.6279884182E-003 +4.1937416819E+001  +8.5754936978E-003 -7.0141826989E+001  +2.6017778841E-001 +8.8217189555E+001 
3638210.263 +1.6439328386E-001 +1.4197984425E+002  +2.3685156039E-002 +6.3144764498E+001  +3.1760810731E-002 -1.5687321756E+001  +7.5700437294E-001 +1.1889505530E+002 
3763355.444 +1.7991322983E-001 +1.5045370191E+002  +6.3716559533E-003 +1.7576555667E+002  +5.6670967039E-003 +7.7762984394E+001  +4.6155375707E-001 +1.1141038592E+002 
3888500.626 +1.7756444885E-001 +1.5557331672E+002  +1.0534409549E-002 +1.7964092888E+002  +8.8923115503E-003 +6.9972329643E+001  +8.4863843841E-001 +1.2719894175E+002 
4013645.807 +1.7636059272E-001 +1.5239772702E+002  +5.2954292847E-003 +1.3829390512E+002  +8.2238806739E-003 -8.5781736193E+001  +1.4933678434E-001 +1.5082307508E+002 
4138790.989 +1.8980211302E-001 +1.5350874494E+002  +6.4421563674E-003 -1.1859795834E+002  +4.2789829145E-003 +1.7558479199E+002  +3.4552369932E-002 +5.1598404474E+001 
4263936.170 +1.8939307749E-001 +1.4656577543E+002  +8.2280243935E-003 -1.1839885831E+002  +7.7698722832E-003 +1.7346222698E+001  +3.7518265166E-001 +1.3648086538E+002 
4389081.352 +2.0392159089E-001 +1.4663734567E+002  +4.6983357592E-003 -2.3363594926E+000  +2.0701476283E-002 +1.0007773615E+002  +9.3694767802E-001 +6.9715980070E+001 
4514226.533 +1.8512246352E-001 +1.3746420383E+002  +2.7614434985E-002 -1.0674307776E+002  +4.1058141425E-002 -1.5100821568E+002  +1.9203489899E+000 +8.5899983529E+001 
4639371.715 +2.5595436834E-001 +1.0332941072E+002  +6.1650499196E-002 +1.4413191468E+002  +1.1789961487E-001 +2.1440644695E+001  +4.6010048493E+000 +1.0215378487E+002 
4764516.896 +3.1169935115E-001 +1.3686697501E+002  +1.2196869368E-002 +1.6102211381E+002  +1.8434253730E-002 -1.7349230989E+002  +1.3644198519E+000 -5.4276633301E+000 
4889662.078 +3.9692335619E-001 +1.3510518133E+002  +1.7393026815E-002 -1.6992382710E+002  +3.7021590770E-003 -1.1615262527E+002  +2.0267559488E+000 -1.2429918843E+002 
5014807.259 +3.6558774579E-001 +1.2426062244E+002  +2.2333645101E-002 +1.1259998852E+002  +2.8426192294E-002 +1.0232766998E+002  +1.4599251666E+000 -1.7937759463E+001 
5139952.441 +3.7840765354E-001 +1.2567081127E+002  +1.3684672166E-002 +1.6557841032E+002  +4.5856329528E-002 +1.5090400697E+002  +5.0253702369E+000 +1.1093770829E+002 
5265097.622 +3.8404549500E-001 +1.3642497061E+002  +9.9163913598E-002 +6.3419098715E+001  +1.0648625512E-001 +3.1683909720E+001  +1.7234128300E+001 +3.5018700520E+001 
5390242.804 +4.7123924396E-001 +1.3440606950E+002  +2.9372832470E-002 +2.0112314169E+001  +2.3341566675E-002 -1.7805966140E+002  +1.9709337843E+000 +4.4950694506E+001 
5515387.985 +3.9706098135E-001 +1.2311198275E+002  +1.4057866444E-002 -7.2270661160E+000  +1.3216625941E-002 -1.1675662015E+002  +1.6479088543E+000 +1.0922896846E+002 
5640533.166 +4.2144763728E-001 +1.2113130055E+002  +6.2399496674E-003 +5.4676375935E+001  +1.3175628773E-002 -1.4190038876E+002  +1.3915686203E+000 +5.5928837587E+001 
5765678.348 +4.6810650967E-001 +1.2389354323E+002  +3.7035775588E-002 -1.4523431161E+002  +2.8488929287E-002 +6.9476593949E+001  +3.2105751004E+000 +2.9419406166E+001 
5890823.529 +5.3124142317E-001 +1.2061983148E+002  +2.9100740102E-002 +1.4247877168E+002  +2.1436597641E-002 +1.0249571915E+002  +1.7406005989E+000 +5.7492677278E+001 
6015968.711 +6.4064270582E-001 +1.2815979427E+002  +2.2491622710E-002 -1.6497393396E+002  +1.0634263432E-002 -1.3661414028E+002  +2.5257982254E+000 +8.9247799837E+000 
6141113.892 +8.6641864891E-001 +1.1066666899E+002  +1.5329155186E-002 +1.4184148889E+002  +1.9261121982E-002 +1.1857328855E+002  +2.1784185687E+000 +5.1025011595E+001 
6266259.074 +8.8127955116E-001 +1.0024127315E+002  +4.4711571749E-002 +5.8927255143E+001  +1.6662489983E-002 -8.6126867965E+001  +1.5557219443E+000 +1.7125234911E+001 
6391404.255 +1.0594645595E+000 +1.0578756075E+002  +1.5547597881E-002 +1.7369113442E+002  +1.1083068117E-002 +1.7165357032E+002  +1.4660656648E+000 +1.2180080516E+001 
6516549.437 +1.5152807373E+000 +7.4498527391E+001  +2.8605938262E-002 +8.6609955326E+001  +3.2147481058E-002 +1.0767729318E+002  +1.7921976980E+000 +2.4195554810E+001 
6641694.618 +1.7024249364E+000 +7.6909582204E+001  +1.6868757790E-002 -1.1747135668E+002  +9.5887058307E-003 +2.7652228476E+001  +1.5246353220E+000 -1.7279873909E+000 
6766839.800 +1.8657003403E+000 +4.9824371608E+001  +2.5681273557E-002 -1.7169440932E+002  +4.0073933288E-002 +1.2437011458E+002  +1.4739176085E+000 -1.7410443168E+001 
6891984.981 +1.7994293989E+000 +4.5079527021E+001  +1.6312090564E-002 +1.5296861518E+002  +2.3202683481E-002 +1.3368759093E+002  +1.2157279608E+000 -1.0242138471E+001 
7017130.163 +1.6019920018E+000 +1.7906451235E+001  +2.0771110113E-002 +1.3323678979E+002  +1.1639628981E-002 +4.6331090551E+001  +1.0603757357E+000 -1.6879645372E+001 
7142275.344 +1.6621377460E+000 +1.2970872336E+001  +1.3474016015E-002 +5.4237038101E+001  +1.6198160726E-002 +9.4846474119E+001  +1.5226404880E+000 -1.1054203334E+001 
7267420.526 +1.4108697049E+000 -3.1874849687E+000  +1.1481916271E-002 +4.5430751984E+001  +4.8086435577E-003 +4.5957779259E+001  +1.2824025853E+000 -7.9798307886E+000 
7392565.707 +1.5183523241E+000 -3.4035921438E+000  +7.3056200569E-003 +1.5154788263E+002  +5.2778328619E-003 +1.7205966448E+002  +1.2445672005E+000 -1.4066927851E+001 
7517710.889 +1.2604863198E+000 +1.7231686127E+000  +5.5534428141E-003 -7.4957652521E+001  +3.9713002975E-003 -1.1352027984E+001  +1.1367793929E+000 -6.7142009915E+000 
7642856.070 +1.0735089332E+000 +9.3659946225E+000  +1.2789494188E-002 +8.5563313403E+001  +4.4300510893E-003 -2.9231331576E+001  +1.1507819471E+000 -4.1165983309E+000 
7768001.252 +9.9224217900E-001 +3.9215184177E+000  +1.2843748523E-002 +2.0709142282E+001  +1.1058529827E-002 +8.6621900509E+001  +1.0801672345E+000 -4.5923142728E+000 
7893146.433 +9.7875943915E-001 +1.5150538486E+000  +3.9356865354E-003 +8.4661799187E+001  +4.5844992910E-003 +1.8263045902E+001  +9.0694539619E-001 -2.4982326099E+000 
8018291.615 +8.3142960996E-001 +8.2285200423E+000  +3.2957058531E-003 +6.2504006585E+001  +7.8843830680E-003 +9.3179284358E+001  +9.6590877072E-001 -5.2248564875E+000 
8143436.796 +7.9587965367E-001 +9.8151322934E+000  +5.8176126887E-003 +5.0176324482E+001  +1.0077179736E-002 +9.9860003187E+001  +7.8039181328E-001 +8.3836799052E-002 
8268581.977 +7.2417684134E-001 +7.5949704251E+000  +8.7491380571E-003 +3.6785235179E+001  +4.9649223423E-003 +8.9448150743E+001  +8.1395572801E-001 -1.6912871536E+000 
8393727.159 +6.6711197185E-001 +4.6416185148E+000  +4.3028048180E-003 +1.1504974238E+002  +3.4563546568E-003 -1.4344724735E+002  +8.0567861736E-001 +2.4397000560E+000 
8518872.340 +7.1224316480E-001 +9.9120391112E+000  +4.9186666084E-003 +1.0494833392E+002  +1.5895054187E-003 +7.4585606243E+001  +7.1970304626E-001 +1.7628114178E+000 
8644017.522 +6.7362604980E-001 +4.1701365707E+000  +5.6117642851E-003 +1.0926381323E+002  +4.3993846514E-003 +2.7809667211E+001  +6.9356303502E-001 -6.4157507334E+000 
8769162.703 +5.8600226049E-001 +1.3198759637E+000  +3.9400704703E-003 +1.0207220664E+002  +4.4777634783E-003 +7.4943328970E+001  +6.5266546219E-001 -5.1155638048E-001 
8894307.885 +6.0127014908E-001 +4.7909907442E+000  +5.4350063823E-003 +9.2422794371E+001  +2.1827525625E-003 +2.8457932727E+001  +5.9453044564E-001 -2.2323047645E-001 
9019453.066 +6.1350747169E-001 +6.9594277948E+000  +2.1410697245E-003 +8.5413259178E+001  +2.7359771966E-003 +1.6238822780E+002  +6.6506701849E-001 -3.1942098060E+000 
9144598.248 +5.4963394840E-001 +5.4629442697E+000  +6.7111871871E-003 +5.1355697382E+001  +3.5158686293E-003 +7.6107665327E+001  +6.3499242567E-001 +1.3306913046E+000 
9269743.429 +5.4726001301E-001 +2.2762082206E+000  +4.3326283295E-003 +8.6869258139E+001  +3.4765332421E-003 +1.4105409120E+002  +6.2379313679E-001 -6.1021573005E+000 
9394888.611 +5.6766014110E-001 +5.8898498434E+000  +3.3815093314E-003 +1.2974265035E+002  +2.3726381274E-003 +8.1490405022E+001  +5.7526268654E-001 -9.6005628705E+000 
9520033.792 +5.9372173695E-001 +4.3148722468E-002  +3.0204593353E-003 +3.0499377148E+001  +4.0775885487E-003 +1.1318738854E+002  +5.3335385947E-001 -2.1272989581E+000 
9645178.974 +5.1831114245E-001 +9.4149906907E-001  +3.5171437580E-003 +2.8179279084E+001  +2.6885559089E-003 +1.0698258536E+002  +6.4516645314E-001 -6.7521724535E+000 
9770324.155 +5.2888617710E-001 -1.9677868041E+000  +5.3363559526E-003 +9.0155396058E+001  +5.1981961199E-003 +1.1105999616E+002  +5.5577429652E-001 -6.8733197438E+000 
9895469.337 +5.4369151001E-001 +4.0983014220E+000  +4.5250038904E-003 +8.6343643442E+001  +5.0031855579E-003 +9.7159315245E+001  +5.5726314717E-001 -7.6022899430E+000 
10020614.518 +5.5179020006E-001 +2.7293221243E+000  +4.9253361696E-003 +6.6877166563E+001  +5.8765052629E-003 +1.0341665669E+002  +5.7458997592E-001 -4.2540775638E+000 
10145759.700 +5.6140405769E-001 +4.1737330676E+000  +6.8578227779E-003 +1.2234440498E+002  +6.1729229563E-003 +1.1565687268E+002  +5.7680523176E-001 -6.0275965535E+000 
10270904.881 +5.5530452918E-001 +4.9095030006E+000  +2.4267479717E-003 +5.2116235269E+001  +3.4197615807E-003 +9.7570065077E+001  +5.6594518313E-001 -2.2025111926E+000 
10396050.063 +5.6362968838E-001 +5.6580458234E+000  +6.9440684425E-003 +9.6051367542E+001  +5.0426635878E-003 +9.1885898971E+001  +5.9896440350E-001 -7.6477567920E-001 
10521195.244 +5.4100958873E-001 +8.7305756897E+000  +3.1743977319E-003 +9.8033866722E+001  +4.4209848410E-003 +1.1886162520E+002  +5.7027356665E-001 -3.3284826521E+000 
10646340.426 +5.8623161229E-001 +7.4868105808E+000  +6.1540313960E-003 +8.5906554473E+001  +2.8665919280E-003 +1.4070122220E+002  +6.1454390618E-001 -2.2473033529E+000 
10771485.607 +5.5682412632E-001 +5.0760331667E+000  +6.9648081486E-003 +6.1140570164E+001  +5.5326339076E-003 +1.1234049930E+002  +5.8179034378E-001 -3.9026529654E-002 
10896630.788 +5.5569651371E-001 +8.3645018018E+000  +4.3941100008E-003 +7.1619974912E+001  +4.6295836243E-003 +9.2767462617E+001  +6.0602936297E-001 +1.2249342780E+000 
11021775.970 +5.7582236875E-001 +5.3356988605E+000  +6.1396324190E-003 +9.1174536733E+001  +7.2702367040E-003 +1.1180656138E+002  +5.9843384968E-001 +1.6181873025E+000 
11146921.151 +5.6662265247E-001 +5.6472129765E+000  +3.7316484685E-003 +1.1626682142E+002  +5.7292122512E-003 +1.3191908172E+002  +6.3412521762E-001 +4.4491042738E-001 
11272066.333 +5.9187106852E-001 +4.9675418762E+000  +4.3463569341E-003 +9.1842457041E+001  +6.5570722930E-003 +1.0262378810E+002  +6.0095364321E-001 +1.6350560541E+000 
11397211.514 +6.0510763700E-001 +5.0182937659E+000  +2.5652387179E-003 +7.4811874350E+001  +4.3555362799E-003 +8.4129210167E+001  +6.0805841646E-001 +7.5828002196E-001 
11522356.696 +6.0511850744E-001 +5.2324958010E+000  +4.4338793325E-003 +9.8482227396E+001  +5.1848047253E-003 +1.0789641246E+002  +6.2424958712E-001 -9.0177871270E-001 
11647501.877 +5.9520382944E-001 +6.6109013201E+000  +7.4089285988E-003 +7.4732883997E+001  +4.1484949838E-003 +1.2062877124E+002  +6.3636008872E-001 +6.4317185508E-001 
11772647.059 +6.5357971555E-001 +6.6078961371E+000  +8.9941244768E-003 +9.0987946745E+001  +4.6455372088E-003 +1.0841488285E+002  +6.7666691035E-001 +6.8567037892E-001 
11897792.240 +6.6655426771E-001 +7.2452840603E+000  +4.3826995898E-003 +9.6342605029E+001  +5.5967683227E-003 +6.7434529285E+001  +6.8490696401E-001 +5.1494101668E-001 
12022937.422 +6.4100187941E-001 +6.8497854586E+000  +5.4397115976E-003 +1.0438196033E+002  +5.3162857619E-003 +9.5771706235E+001  +6.8788082329E-001 +1.0100330070E+000 
12148082.603 +6.8368117333E-001 +4.4194251492E+000  +5.4532134485E-003 +1.0786035172E+002  +6.2657112400E-003 +9.5937170688E+001  +6.7930290217E-001 +1.2871027396E+000 
12273227.785 +6.8612522166E-001 +4.5444822269E+000  +4.3986884834E-003 +6.7645662536E+001  +5.5131765582E-003 +9.9036497160E+001  +7.2704215679E-001 +2.2263399924E+000 
12398372.966 +6.8909660691E-001 +4.2613314787E+000  +5.9932439429E-003 +8.2746440736E+001  +5.3182928789E-003 +1.2088278098E+002  +7.3441484804E-001 -1.0774473284E+000 
12523518.148 +7.2019720671E-001 +4.1483513309E+000  +5.4335563180E-003 +9.4132915109E+001  +6.8379503509E-003 +9.4300206954E+001  +7.1819476839E-001 -2.9469800164E+000 
12648663.329 +7.4258083505E-001 +2.9475388967E+000  +4.4677913970E-003 +8.3828689709E+001  +7.1691966430E-003 +1.0552195635E+002  +7.6331134439E-001 -8.7499302583E-001 
12773808.511 +7.4887926041E-001 +2.1965892695E+000  +7.9575118763E-003 +9.7476100297E+001  +5.2357863403E-003 +9.3456801356E+001  +7.6136898623E-001 -3.4352220830E+000 
12898953.692 +7.7138240896E-001 +1.4467110264E+000  +7.4222337842E-003 +8.8078373467E+001  +6.4752906789E-003 +1.0289753761E+002  +7.6995262513E-001 -1.2702592065E+000 
13024098.874 +7.8429165400E-001 +2.4522023109E+000  +6.0868129940E-003 +1.0028064869E+002  +6.0576706217E-003 +1.0450763716E+002  +8.0229726318E-001 -2.4807250685E+000 
13149244.055 +7.9351094225E-001 +1.9420725822E-001  +5.9194970625E-003 +9.2477279524E+001  +7.6844248094E-003 +9.7273262702E+001  +8.2337442019E-001 -2.3267088079E+000 
13274389.237 +8.2987137822E-001 -2.8093413308E-001  +6.9755973389E-003 +8.9418602555E+001  +6.3652463554E-003 +9.2443763321E+001  +8.2705608822E-001 -2.1247165002E+000 
13399534.418 +8.3688273999E-001 -5.7478030139E-001  +6.8235389292E-003 +9.7865767838E+001  +6.8653203003E-003 +9.9684580147E+001  +8.4401503340E-001 -4.6489678363E+000 
13524679.599 +8.5250943956E-001 -1.2535475186E+000  +5.4565323609E-003 +9.2670230399E+001  +5.2072778652E-003 +1.0362505121E+002  +8.5288294651E-001 -2.3382960328E+000 
13649824.781 +8.8412941372E-001 -2.1976658815E+000  +6.3617513243E-003 +8.9379578446E+001  +7.5680490139E-003 +1.0208468353E+002  +8.6773791856E-001 -3.3146860871E+000 
13774969.962 +8.9440559062E-001 -1.9433740892E+000  +6.2508892324E-003 +9.6934422162E+001  +5.0531300191E-003 +1.0818912872E+002  +9.1585722533E-001 -3.0588839198E+000 
13900115.144 +8.9361457140E-001 -3.5624756392E+000  +6.5601241015E-003 +9.3371721778E+001  +5.4276262160E-003 +9.7079114636E+001  +9.2519051357E-001 -3.8357680488E+000 
14025260.325 +9.1352626159E-001 -3.9120010079E+000  +7.1393558107E-003 +8.3528193825E+001  +5.9670077065E-003 +9.2402494808E+001  +9.2365479673E-001 -4.1519788756E+000 
14150405.507 +9.4072860795E-001 -5.0540118453E+000  +8.1833599500E-003 +9.5685211747E+001  +7.4447087178E-003 +8.7323823919E+001  +9.5731296995E-001 -3.0552069177E+000 
14275550.688 +9.5798272869E-001 -4.4597308715E+000  +7.9282370369E-003 +1.0193459028E+002  +6.6701902440E-003 +8.5588038435E+001  +9.7121363209E-001 -4.4569546523E+000 
14400695.870 +9.8305232285E-001 -4.8434909094E+000  +5.8809586246E-003 +9.9894991815E+001  +7.7037662293E-003 +1.0069638287E+002  +1.0058212201E+000 -5.3687575927E+000 
