!  2-Port S-parameters saved by WinCal
! VAR MeasName=S-Parameters (CALIBRATED_DATA) read from VNA (P5004A)
! VAR MeasDate=28/08/2024 11:48:12
! VAR NAME=S2_r6c9_RESET3_9k-100M_2
! VAR FILENAME=S2_r6c9_RESET3_9k-100M_2.S2P
! VAR DATE=28/08/2024 11:48:12
! VAR PHYS_PORTS=1,2
! VAR ObjTypeName=DATASET
! VAR IndexType=Frequency
!
# Hz S MA R 50
9000.000 +9.1846720105E-002 -1.7378648642E+002  +5.1840830599E-003 +1.3651648757E+002  +1.1233174876E-002 +1.5889885532E+002  +2.7073349420E-001 -1.4468872405E+002 
134145.181 +1.1077265163E-001 +1.6960674932E+002  +8.3732383017E-005 +1.3609406713E+002  +4.4676136027E-005 +1.7802667137E+002  +2.4280775327E-001 -1.7166655220E+002 
259290.363 +1.1232232164E-001 +1.6975675121E+002  +1.0380223080E-003 -7.9179675608E+001  +8.6310250137E-004 -1.1258210654E+002  +2.4743704935E-001 -1.6774322340E+002 
384435.544 +1.1425791891E-001 +1.6965125455E+002  +4.8714125566E-004 -1.7100054771E+002  +5.7399167249E-004 -1.6910707327E+002  +2.4371663058E-001 -1.6845082003E+002 
509580.726 +1.1389260289E-001 +1.6997511031E+002  +7.6699258013E-004 +1.0561017554E+002  +8.4191268420E-004 +9.7208124968E+001  +2.5139819239E-001 -1.6660718745E+002 
634725.907 +1.1826709133E-001 +1.7170053794E+002  +2.7649685062E-004 +1.6272681511E+002  +1.2615858064E-004 +3.7281078803E+001  +2.5294516605E-001 -1.6737884905E+002 
759871.089 +1.2100125749E-001 +1.7121235226E+002  +2.0381991950E-004 -7.6561128159E+001  +6.6687002211E-004 -1.5105605896E+002  +2.5238515545E-001 -1.6635864849E+002 
885016.270 +1.1969280420E-001 +1.6890383862E+002  +6.8043312389E-004 -8.3630032828E+001  +5.7783764479E-004 +6.4895917517E+001  +2.4646752913E-001 -1.6634893867E+002 
1010161.452 +1.1764589901E-001 +1.6960685494E+002  +5.5405044255E-004 -9.2279118936E+000  +1.1952109270E-003 -9.0097888449E+000  +2.0862927581E-001 -1.6782860635E+002 
1135306.633 +1.1731857203E-001 +1.6930632716E+002  +1.4912858137E-004 +8.9421937905E+000  +2.4607083181E-003 +9.3990529242E+000  +1.9931427287E-001 -1.6440559243E+002 
1260451.815 +1.2060272645E-001 +1.7150760773E+002  +1.0797113608E-003 +1.0832612904E+002  +2.7029417793E-003 -1.7894913730E+002  +2.2231043486E-001 -1.5639172051E+002 
1385596.996 +1.2843190765E-001 +1.7249921708E+002  +1.3087464359E-003 +1.2401611736E+002  +1.3989407453E-003 -9.9198044900E+001  +2.5662360131E-001 -1.5359187774E+002 
1510742.178 +1.2515310347E-001 +1.7155918212E+002  +9.2651378595E-004 -1.7213816803E+002  +8.9014691448E-004 -1.0324556924E+002  +2.5735231483E-001 -1.5855782832E+002 
1635887.359 +1.3091191570E-001 +1.7251830641E+002  +4.6957349455E-004 +1.1394947096E+002  +6.4493614302E-004 -7.7619200016E+001  +2.2898660880E-001 -1.5256006257E+002 
1761032.541 +1.3159828012E-001 +1.7060324501E+002  +1.8227686406E-003 -6.4746437267E+001  +5.8866402048E-004 -6.4355004979E+001  +2.2872540732E-001 -1.6029665339E+002 
1886177.722 +1.3306118656E-001 +1.6914788492E+002  +2.4582475396E-003 +1.3383065906E+002  +1.2586788791E-003 +1.6123725321E+002  +1.8406902165E-001 -1.5730468717E+002 
2011322.904 +1.2864491639E-001 +1.6908292450E+002  +4.0791024766E-003 -1.7151545932E+002  +1.0188833688E-002 -9.8517007199E+001  +9.6292245866E-002 +1.6452078576E+002 
2136468.085 +1.3428550409E-001 +1.6818937573E+002  +2.3571316541E-003 +1.7234485927E+002  +1.2269218530E-003 -1.5588828243E+002  +2.2919660647E-001 +1.7530281389E+002 
2261613.267 +1.2377240004E-001 +1.6581307143E+002  +2.6565499188E-003 +3.7342791003E+001  +1.6807859204E-003 -9.3747365313E+001  +1.5995816019E-001 -1.7827398722E+002 
2386758.448 +1.3678101349E-001 +1.6096801700E+002  +4.3332941117E-003 +1.5630392976E+002  +1.6601469860E-003 -1.0689713387E+001  +1.9413762532E-001 -1.7892466763E+002 
2511903.630 +1.2724814580E-001 +1.6792502589E+002  +2.7832089391E-003 -3.0392268257E+000  +3.5700939461E-003 -5.1931268710E+001  +1.6547290484E-001 +1.7724931768E+002 
2637048.811 +1.3073752744E-001 +1.6922943511E+002  +2.4686070491E-003 -1.2331629505E+002  +4.8384469238E-003 -5.4791120303E+001  +1.4303324772E-001 +1.7302400262E+002 
2762193.992 +8.3834544801E-002 +1.6023856858E+002  +9.4765049444E-002 +5.8376097210E+001  +2.1108416093E-001 +4.1656675425E+001  +2.8280469615E+000 +1.7507564640E+002 
2887339.174 +1.1997864779E-001 +1.6915088394E+002  +1.2529788309E-002 -4.5213166296E+001  +4.9559244127E-003 +1.4205572239E+002  +4.8310359407E-001 -1.1953759690E+002 
3012484.355 +1.2776214413E-001 +1.7829716240E+002  +6.3747881253E-003 -5.3559673429E+001  +4.5865707938E-003 -1.5187615821E+002  +2.4657101802E-001 -1.0666257505E+002 
3137629.537 +1.2166737171E-001 +1.6840971099E+002  +2.1585195982E-002 -1.9053987221E+001  +3.0747402293E-002 +1.6904758373E+002  +1.7286706598E+000 -6.8464719961E+000 
3262774.718 +1.1884343125E-001 +1.5454670232E+002  +5.3455100058E-002 +1.0270407423E+002  +4.4744046354E-002 +4.0153958007E+000  +1.2245938679E+000 +1.1053183292E+002 
3387919.900 +1.3961437104E-001 +1.5053536343E+002  +5.9713455181E-003 +1.1872725500E+001  +7.7764499479E-003 -9.1974576697E+001  +6.5891723717E-002 +2.0468946431E+001 
3513065.081 +1.7160689351E-001 +1.4959882178E+002  +5.0389217124E-003 -1.7919576650E+002  +1.0858832890E-002 -7.5858319836E+001  +2.0653946253E-001 +1.2309387645E+002 
3638210.263 +1.6826419751E-001 +1.5340988590E+002  +1.6012792439E-002 -1.7933646487E+002  +1.1832282981E-002 +2.8251559907E+001  +7.2184563746E-001 +1.4189621293E+002 
3763355.444 +1.6000788570E-001 +1.4359504327E+002  +7.4309911851E-002 +5.7831091923E+001  +6.6429710263E-002 -4.4716866389E+001  +2.0129632846E+000 +3.4075321041E+001 
3888500.626 +1.7828945606E-001 +1.4638718271E+002  +8.9406775487E-003 +1.0014934029E+002  +9.8179548240E-003 +5.5749287816E+001  +3.6327833709E-001 +1.1583951106E+002 
4013645.807 +1.8237225552E-001 +1.4018955396E+002  +5.8172919144E-003 +1.1159852052E+002  +1.4759472563E-002 +8.4468196087E+001  +3.8283113972E-001 +1.3505000223E+002 
4138790.989 +1.7659939956E-001 +1.4574411260E+002  +1.6751071802E-003 -1.2814155998E+002  +3.1049666808E-003 +7.5324469725E+001  +4.1494063802E-001 +1.3776787404E+002 
4263936.170 +1.9986488318E-001 +1.4442108187E+002  +1.5679643069E-002 +1.3048903164E+002  +1.1610631477E-002 -1.5817226541E+001  +6.8363029869E-001 +1.4248739516E+002 
4389081.352 +2.1737611327E-001 +1.4341883018E+002  +1.2215081158E-002 +1.6245578521E+002  +1.2653161310E-002 +1.3199694185E+001  +6.4322403758E-001 +1.3473531929E+002 
4514226.533 +2.3564697224E-001 +1.2348059018E+002  +2.3634970470E-002 -1.7926672396E+002  +6.4164725092E-004 +1.0789696965E+002  +1.2151183421E+000 +1.5150855449E+002 
4639371.715 +2.2767441548E-001 +1.3231669826E+002  +5.0918216849E-002 +1.1389982384E+002  +1.3216451325E-002 +5.0048225786E+001  +1.7678618214E+000 +1.0400208259E+002 
4764516.896 +2.9375590201E-001 +1.1991406770E+002  +7.7059803756E-002 +5.8027944796E+001  +2.9174155799E-002 +2.4014675932E+001  +2.0169549283E+000 +4.1718145076E+001 
4889662.078 +4.1851144498E-001 +1.2797969065E+002  +2.3933240777E-002 -1.4517441212E+001  +1.5705238457E-002 +5.3008168873E+001  +1.4756708696E+000 -9.6240976659E+001 
5014807.259 +4.1166825307E-001 +1.3035802989E+002  +2.3388405725E-001 -1.5677111088E+001  +3.4032115010E-001 -6.9244229778E+001  +1.5117804061E+001 -1.3311193769E+002 
5139952.441 +3.4639761398E-001 +1.2937787429E+002  +2.0405308084E-002 +1.6156594346E+002  +2.9601087879E-002 +8.1847143899E+001  +7.7109084491E-001 +1.6928793060E+001 
5265097.622 +3.4836652000E-001 +1.2922831895E+002  +1.1838820346E-001 +7.9195003225E+001  +4.8751975217E-002 +8.2132770893E+001  +6.0179329338E+000 +7.7485297054E+001 
5390242.804 +4.5051988751E-001 +1.3448965710E+002  +1.1940302143E-001 +1.4206149178E+002  +5.3027346570E-002 +1.7239868328E+002  +3.8564011529E+000 +1.0900603942E+002 
5515387.985 +4.2311035354E-001 +1.3639746770E+002  +3.9411459010E-002 +9.4122730019E+001  +3.2909671675E-002 +7.8125741511E+001  +2.6656810828E+000 +4.9339473455E+001 
5640533.166 +4.4714783620E-001 +1.1936103091E+002  +2.9906005383E-002 +8.2829195678E+001  +4.4170672672E-002 +3.6105040115E+001  +1.2663216792E+000 +7.0292341625E+001 
5765678.348 +6.9813549430E-001 +1.2301701138E+002  +2.9101624908E-002 +1.2017241926E+002  +5.2809895632E-002 +1.5314197250E+002  +1.5879044982E+000 +1.0708618086E+002 
5890823.529 +6.1981674251E-001 +1.2108483485E+002  +3.8490407585E-002 +5.7417271744E+001  +2.9551201762E-002 +3.7463637469E+001  +1.7059794762E+000 +3.6433508752E+001 
6015968.711 +6.4332464332E-001 +1.1871083022E+002  +4.3762365137E-002 +6.2719500741E+001  +6.8327406829E-002 +6.9994001106E+001  +2.8400032335E+000 +5.2032054621E+001 
6141113.892 +7.0120245840E-001 +1.1834660234E+002  +1.0197895997E-002 +1.3947284816E+002  +1.5127681775E-002 +1.4311704899E+002  +2.2103628776E+000 +5.0895581614E+001 
6266259.074 +7.2290461869E-001 +1.0247496560E+002  +4.8146911795E-002 +6.6738970126E+001  +4.1354061045E-002 +3.5845612487E+001  +2.2079987378E+000 +1.3174282403E+001 
6391404.255 +1.1187887474E+000 +9.4146678962E+001  +1.7589035964E-002 +1.0477543531E+002  +1.6720695063E-002 +7.3222887134E+000  +1.8435066762E+000 +1.4007907201E+001 
6516549.437 +1.8051874297E+000 +7.9982053614E+001  +5.0204099435E-002 +7.5284590329E+001  +3.2365899942E-002 +7.9140823199E+001  +1.4752528999E+000 -2.5154191716E+000 
6641694.618 +1.7541883051E+000 +8.2398293120E+001  +6.7462829669E-002 +5.0290326702E+001  +6.8050120065E-002 +6.6236932955E+001  +1.5916338500E+000 -2.9055780604E+000 
6766839.800 +1.9374252982E+000 +4.1143121884E+001  +4.3315324767E-002 +3.7476738129E+001  +4.7704454709E-002 -1.4958759076E+000  +1.5020708762E+000 +5.8588956049E-001 
6891984.981 +1.7338698513E+000 +3.0009719861E+001  +3.6229918930E-002 -1.2945112592E+001  +5.4144906817E-002 +2.6332401000E+001  +1.2409083271E+000 -1.1773910025E+001 
7017130.163 +1.9811308982E+000 +1.7189815501E+001  +4.4785332973E-002 +2.0963997815E+001  +3.1900260564E-002 -1.0702831050E+001  +1.2624450928E+000 -6.6436589202E+000 
7142275.344 +1.5108032216E+000 +3.5389062609E+000  +3.8808640824E-002 +2.3028370892E+000  +3.8022974354E-002 -4.4968912630E+000  +1.2876983991E+000 -1.0233376168E+001 
7267420.526 +1.4241577381E+000 -2.0101965481E+000  +2.5992305464E-002 +7.2404188735E+000  +2.0643534672E-002 +6.5675646269E+001  +1.1635146614E+000 -6.7365354932E+000 
7392565.707 +1.3851418749E+000 +4.0560121024E+000  +9.1280518574E-003 +3.5776735670E+001  +1.4502327134E-002 +1.1145225978E+001  +1.5260243277E+000 -1.7914664502E+000 
7517710.889 +1.1599244184E+000 -9.8076877751E-002  +1.8080281487E-002 -9.7130225227E+000  +2.4422697770E-002 +1.9677579937E+001  +1.1678410943E+000 -1.0554030594E+001 
7642856.070 +1.0991914991E+000 +2.8076686245E+000  +7.2855159437E-003 +5.1360054196E+001  +2.0062318238E-002 +2.7118198261E+001  +1.0402783884E+000 +4.4161871190E+000 
7768001.252 +8.1667394962E-001 +6.6822636961E+000  +1.5137115460E-002 +1.1779609589E+001  +1.9450230115E-002 +1.4601794689E+001  +1.0323322785E+000 -5.1686171995E+000 
7893146.433 +9.0629185113E-001 +8.7154336218E+000  +1.7695039040E-002 +1.4467200774E+001  +1.4124214095E-002 +5.6443977634E+000  +9.7553386638E-001 -2.4955722921E+000 
8018291.615 +7.9293495705E-001 +6.9020869522E+000  +1.5783200686E-002 -3.1730069528E+000  +1.9118201694E-002 +1.4361988211E+001  +8.2075650636E-001 +1.3941466975E+000 
8143436.796 +7.4235873483E-001 +7.7550206236E+000  +1.4827834379E-002 +2.1679529971E+001  +1.4903911533E-002 +2.8892204072E+001  +8.1362038133E-001 -4.0639623323E+000 
8268581.977 +7.0686697216E-001 +3.7252674544E+000  +1.6534125142E-002 -1.8028198250E+000  +1.7215419581E-002 +4.1013997930E+001  +7.6749076978E-001 +2.7653374068E+000 
8393727.159 +7.2217536434E-001 +1.1091750512E+001  +1.0477926837E-002 -9.7453798744E-002  +1.2538533594E-002 +1.3158408788E+001  +7.3260084087E-001 -7.5067569443E-002 
8518872.340 +6.9860275322E-001 +1.2675032531E+001  +8.2525606413E-003 +3.3920225256E+001  +1.4113823270E-002 +1.3267236406E+001  +7.2639528481E-001 +4.7375000399E-001 
8644017.522 +6.2214901617E-001 +9.3818881404E+000  +1.0373200857E-002 +1.0906451725E+001  +1.5373360688E-002 +2.7358092397E+001  +6.4058586035E-001 +4.2810648837E+000 
8769162.703 +6.3921268881E-001 +9.9856989410E+000  +1.2020610023E-002 +3.3968649311E+000  +1.5734393991E-002 +1.3161509278E+001  +7.1336696043E-001 -1.3397075726E+000 
8894307.885 +6.1785396419E-001 +5.0842204404E+000  +1.5240234249E-002 -3.2792716222E+000  +1.3025948522E-002 +1.6004758313E+001  +5.9279130525E-001 -1.0867024871E+000 
9019453.066 +5.5904975259E-001 +4.3823946043E+000  +1.5287508640E-002 +1.1480474785E+001  +1.2672727098E-002 +2.1866581627E+001  +5.7901971446E-001 +2.3756070603E+000 
9144598.248 +5.2471341042E-001 +1.1589198512E+001  +1.1234841212E-002 +2.0256260230E+001  +1.3421200100E-002 -2.7220209764E+000  +6.4498027353E-001 -6.1662811452E+000 
9269743.429 +5.3974891938E-001 +1.3073443479E+000  +1.3290663063E-002 -1.0618777431E+000  +1.4718922022E-002 +1.7502940918E+001  +6.0579986431E-001 -1.0093896186E+000 
9394888.611 +5.7168243175E-001 +5.5580620624E+000  +1.2639823242E-002 +1.7690581763E+001  +1.2707030746E-002 +2.9588435755E+001  +6.1678824379E-001 +9.6221670835E-002 
9520033.792 +5.0312860506E-001 +1.1167349970E+000  +1.5254367347E-002 +1.7574998266E+001  +1.4834004455E-002 +2.8309667496E+001  +5.2095166975E-001 -2.4868954704E+000 
9645178.974 +5.3850889284E-001 +8.6748486655E+000  +1.2425892026E-002 +1.4746293828E+001  +1.1881877160E-002 +2.7785183094E+001  +6.2152736593E-001 -6.6420025839E+000 
9770324.155 +5.2727499881E-001 +5.6132682908E+000  +1.0072602200E-002 +2.8162002161E+001  +1.4158439939E-002 +3.2586169547E+001  +5.9201133763E-001 -5.5169908327E+000 
9895469.337 +5.6871047761E-001 +3.9108754495E+000  +1.4611129742E-002 +1.1485816726E+001  +1.3760906002E-002 +2.1505119586E+001  +5.6015499262E-001 -5.3385179196E+000 
10020614.518 +5.3950914656E-001 +6.6342953329E+000  +1.1157125838E-002 +9.2726084240E+000  +1.3812540963E-002 +2.8331977430E+001  +5.7668865406E-001 -2.2753284732E+000 
10145759.700 +5.4363579144E-001 +7.2423641151E+000  +1.5973590483E-002 +1.0466557790E+001  +1.2389665629E-002 +2.5247648410E+001  +5.8348243186E-001 -2.8335651292E+000 
10270904.881 +5.2868731537E-001 +3.7280242626E+000  +1.4785868932E-002 +1.3142382257E+001  +1.1771478717E-002 +2.9294172082E+001  +5.6345461104E-001 -1.9228049150E+000 
10396050.063 +5.6653229308E-001 +2.7546142109E+000  +1.3111146797E-002 +1.9543034175E+001  +1.5182838530E-002 +2.7780468699E+001  +5.7301404389E-001 -1.2989328772E+000 
10521195.244 +5.3372867344E-001 +6.8622416162E+000  +1.4856945285E-002 +1.5794210532E+001  +1.1110900315E-002 +2.6890361165E+001  +6.0154070755E-001 -2.3086238459E+000 
10646340.426 +6.0043975956E-001 +4.8228945961E+000  +1.7510979751E-002 +1.9168589075E+001  +1.1020646118E-002 +2.9434624706E+001  +5.5136728094E-001 +3.4218211419E-001 
10771485.607 +5.4727209146E-001 +4.0506634674E+000  +1.2905138565E-002 +2.0840417110E+001  +1.5423686276E-002 +3.3969143046E+001  +5.7730026176E-001 +5.8882696468E+000 
10896630.788 +5.7323870272E-001 +4.6251054497E+000  +1.5537846875E-002 +2.0947115281E+001  +1.5171005932E-002 +2.7510502647E+001  +5.9655140551E-001 +1.3021929190E+000 
11021775.970 +5.3898204563E-001 +7.3126420241E+000  +1.4989880084E-002 +1.2680640318E+001  +1.5416720583E-002 +2.9295334840E+001  +6.0825902249E-001 +1.1824190175E+000 
11146921.151 +6.0774284756E-001 +7.4498005332E+000  +1.2290265545E-002 +2.2860208736E+001  +1.3646294430E-002 +2.8809971443E+001  +5.7297965698E-001 +3.1137984615E+000 
11272066.333 +6.1469342529E-001 +7.0040102171E+000  +1.2008782795E-002 +2.2369882886E+001  +1.3467633946E-002 +3.3240459497E+001  +6.1933364207E-001 +1.8005456459E+000 
11397211.514 +6.1973266940E-001 +4.6987529675E+000  +1.5719407971E-002 +2.2337941248E+001  +1.4135691564E-002 +3.4939023051E+001  +6.0495587717E-001 +1.6985213516E+000 
11522356.696 +5.9643357712E-001 +5.7314793931E+000  +1.4655585143E-002 +2.7200995427E+001  +1.6118023129E-002 +3.6968741266E+001  +6.5269550019E-001 +1.5520567381E+000 
11647501.877 +6.1560645975E-001 +4.0028350440E+000  +1.2747248203E-002 +1.7379709328E+001  +1.3252109313E-002 +3.1419044947E+001  +6.4196193757E-001 +1.4205420459E+000 
11772647.059 +6.4181427061E-001 +6.6364053996E+000  +1.3679122603E-002 +1.9973528832E+001  +1.6202306203E-002 +2.8151167033E+001  +6.4988093180E-001 +1.3291786076E+000 
11897792.240 +6.3914633817E-001 +5.6433156639E+000  +1.5723594995E-002 +2.1430340274E+001  +1.5303922925E-002 +3.8231239909E+001  +6.5180177485E-001 +1.4165925956E+000 
12022937.422 +6.2604981421E-001 +5.5820024308E+000  +1.4806811400E-002 +1.5469959036E+001  +1.5859181174E-002 +2.8163852411E+001  +6.5589889183E-001 +2.0821517120E+000 
12148082.603 +6.8695561806E-001 +2.3820333166E+000  +1.6137505820E-002 +2.1031393279E+001  +1.4825831110E-002 +3.1663602875E+001  +6.9903090716E-001 +1.4203785033E+000 
12273227.785 +6.9933630909E-001 +2.7548334044E+000  +1.4762167848E-002 +2.4003528690E+001  +1.5555222261E-002 +3.3371843497E+001  +7.0690438375E-001 +2.6825686448E+000 
12398372.966 +6.8591958638E-001 +2.9661311493E+000  +1.6681525499E-002 +1.9895858468E+001  +1.5450578130E-002 +3.2639426941E+001  +7.2282068813E-001 +1.6704833537E+000 
12523518.148 +7.0683027252E-001 +3.7236000862E+000  +1.6941377580E-002 +2.6617403375E+001  +1.3621930855E-002 +3.4719282547E+001  +7.2641144274E-001 -5.7825840144E-001 
12648663.329 +6.9820960193E-001 +1.4927334743E+000  +1.4343336231E-002 +2.5753807102E+001  +1.4060768061E-002 +3.2663906468E+001  +7.3787481289E-001 +1.1944824576E+000 
12773808.511 +7.6362173617E-001 +2.8754922977E+000  +1.3741583051E-002 +2.1817822122E+001  +1.6584701622E-002 +2.9362773891E+001  +7.4836420470E-001 -5.3625101225E-001 
12898953.692 +7.8459835566E-001 +9.6166550406E-001  +1.7013426329E-002 +2.0853203116E+001  +1.7585969561E-002 +3.8420237757E+001  +7.8919655053E-001 -1.3383463413E+000 
13024098.874 +7.6905440516E-001 +3.7331290491E-001  +1.6663464731E-002 +2.0376028458E+001  +1.7095458326E-002 +2.9986952488E+001  +7.9237785314E-001 -2.6827911511E+000 
13149244.055 +7.9361573505E-001 -7.8848804078E-002  +1.6948217309E-002 +2.5319104488E+001  +1.8185681505E-002 +3.1412287863E+001  +8.0666835905E-001 -1.8538173229E+000 
13274389.237 +8.1470475292E-001 +1.7201128126E-002  +1.7285839445E-002 +2.3809386202E+001  +1.6212236994E-002 +2.8485584708E+001  +8.1924408789E-001 -3.0981561540E+000 
13399534.418 +8.1696730968E-001 -2.5617716015E+000  +1.8603209818E-002 +2.4903532102E+001  +1.6458270030E-002 +3.1711479512E+001  +8.1765494007E-001 -1.1192999174E+000 
13524679.599 +8.4825692091E-001 -1.2176349038E+000  +1.7211582749E-002 +2.7667369555E+001  +1.5954826030E-002 +3.1818928091E+001  +8.5664645380E-001 -3.1313493648E+000 
13649824.781 +8.6013139096E-001 -9.8123318106E-001  +1.7782051696E-002 +2.9301414517E+001  +1.6710372037E-002 +2.5959942259E+001  +8.5697313243E-001 -3.7336810044E+000 
13774969.962 +8.8384717047E-001 -1.8391741966E+000  +1.7126828579E-002 +2.6456457446E+001  +1.5215036582E-002 +2.9810813320E+001  +9.0589785248E-001 -1.8679015210E+000 
13900115.144 +8.9484812728E-001 -2.1687035905E+000  +1.8272037323E-002 +2.4546622008E+001  +1.8407705613E-002 +2.8500465830E+001  +8.8695943634E-001 -4.2235164015E+000 
14025260.325 +9.0393613567E-001 -2.6838440918E+000  +1.7154285442E-002 +2.3158362935E+001  +1.6153586215E-002 +2.4203229429E+001  +9.2113631945E-001 -3.9020492107E+000 
14150405.507 +9.3265031434E-001 -4.7973114278E+000  +1.7050666161E-002 +2.3903843835E+001  +1.7935578147E-002 +2.3808140419E+001  +9.5133905728E-001 -4.4927179069E+000 
14275550.688 +9.3771585946E-001 -4.8190370565E+000  +1.7485841978E-002 +2.4379238242E+001  +1.7624798618E-002 +2.6800520524E+001  +9.5760785391E-001 -3.8568419749E+000 
14400695.870 +9.6029767234E-001 -3.9450521750E+000  +1.8405699792E-002 +2.4822182769E+001  +1.6838379861E-002 +2.8557801475E+001  +1.0087318702E+000 -4.8828203585E+000 
