!  2-Port S-parameters saved by WinCal
! VAR MeasName=S-Parameters (CALIBRATED_DATA) read from VNA (P5004A)
! VAR MeasDate=27/08/2024 17:09:34
! VAR NAME=S2_r3c9_SET1_9k-100M_3
! VAR FILENAME=S2_r3c9_SET1_9k-100M_3.S2P
! VAR DATE=27/08/2024 17:09:34
! VAR PHYS_PORTS=1,2
! VAR ObjTypeName=DATASET
! VAR IndexType=Frequency
!
# Hz S MA R 50
9000.000 +9.2592168674E-002 -1.6064203783E+002  +1.1090763382E-002 +5.7095084507E+001  +1.0089210089E-002 +1.6255719296E+001  +2.4414099873E-001 -1.4539774048E+002 
134145.181 +1.1151561417E-001 +1.6947473173E+002  +4.2214637270E-004 -1.6601914583E+002  +1.1231316365E-003 +7.5105769632E+001  +2.3911962206E-001 -1.7085709472E+002 
259290.363 +1.1247827281E-001 +1.6982008023E+002  +6.1842691836E-004 -1.1512504378E+002  +1.1270601905E-004 -1.2512677401E+002  +2.5229625809E-001 -1.6939878061E+002 
384435.544 +1.1357672117E-001 +1.6931511690E+002  +7.7433585251E-004 -4.9481249429E+001  +4.8129089239E-004 -2.3804590246E+001  +2.4263291051E-001 -1.6798489024E+002 
509580.726 +1.1400365743E-001 +1.7127914974E+002  +2.0850175691E-003 +1.2447064000E+002  +1.1301508575E-003 +7.7838679511E+001  +2.2771812718E-001 -1.6166098499E+002 
634725.907 +1.1768183809E-001 +1.7009044885E+002  +2.3944094768E-004 +1.1798691453E+000  +6.8699973806E-004 +8.0737010947E+001  +2.5142564877E-001 -1.6439516797E+002 
759871.089 +1.1942136111E-001 +1.7060192311E+002  +5.5475991473E-004 -1.7310850497E+002  +5.2866277495E-004 +9.0489396558E+001  +2.6544979752E-001 -1.6457121673E+002 
885016.270 +1.2015200558E-001 +1.6936114027E+002  +8.4248477237E-004 -4.3415125147E+001  +7.4530842264E-004 +1.0317618006E+002  +2.4398158647E-001 -1.6529486664E+002 
1010161.452 +1.1877134697E-001 +1.6950644867E+002  +3.1588754164E-004 -2.7907085374E+001  +1.5339726186E-003 -2.7249714279E+001  +2.1121950975E-001 -1.6146715412E+002 
1135306.633 +1.1877525493E-001 +1.7036394170E+002  +1.1961842896E-003 +1.6661551826E+001  +9.7012506749E-004 -1.1025522503E+002  +1.9711174605E-001 -1.6609400475E+002 
1260451.815 +1.2142583915E-001 +1.7186256444E+002  +3.6067882908E-004 +1.3697721206E+002  +1.5741451211E-003 +7.1446495156E+001  +2.1455901557E-001 -1.6211492395E+002 
1385596.996 +1.2755286738E-001 +1.7152219053E+002  +9.9524941685E-004 -1.7490139807E+001  +1.1051446115E-003 -2.3786966468E+000  +2.5336940723E-001 -1.5122346607E+002 
1510742.178 +1.2726196742E-001 +1.7158053061E+002  +8.8983149744E-004 -1.4518307396E+002  +1.4786601083E-003 +1.4516057426E+002  +2.5616275127E-001 -1.5833619268E+002 
1635887.359 +1.2853469161E-001 +1.7002425807E+002  +4.2642313006E-004 +5.0740858446E+001  +5.4931324169E-004 +1.0515626025E+002  +2.4182676923E-001 -1.6146842817E+002 
1761032.541 +1.3067707581E-001 +1.6884109048E+002  +6.4925270625E-004 -2.7769199458E+001  +2.5342780252E-004 +2.2329004288E+001  +2.2179186818E-001 -1.5847692092E+002 
1886177.722 +1.3044693948E-001 +1.6557261992E+002  +1.4803388447E-003 +1.8908602012E+001  +2.1542306205E-003 +1.7518332091E+002  +2.3333002341E-001 -1.6516585480E+002 
2011322.904 +1.2143516459E-001 +1.6562140779E+002  +5.6310100899E-004 -7.7670661143E+001  +2.0857438663E-003 +3.3791427568E+001  +2.2364576813E-001 -1.7284374836E+002 
2136468.085 +1.2687404288E-001 +1.6699056344E+002  +3.7181793218E-003 +7.3438590005E+001  +2.7700065904E-003 -6.6415970812E+001  +2.1258347418E-001 -1.7331746366E+002 
2261613.267 +1.3309575055E-001 +1.6608772131E+002  +2.3806556303E-003 +5.5312958908E+001  +1.9874979950E-003 -5.2836743615E+001  +1.9193214023E-001 +1.7841536114E+002 
2386758.448 +1.4117349894E-001 +1.6134183259E+002  +4.1308739456E-003 +9.1925950907E+001  +2.5256583551E-003 -3.7909047436E+001  +2.2493344221E-001 +1.6721819720E+002 
2511903.630 +1.2481157055E-001 +1.6371288969E+002  +3.5544542529E-003 +8.8874225390E+001  +3.2441437492E-003 -6.4222034331E+001  +2.1700947090E-001 +1.7623439152E+002 
2637048.811 +1.1499481294E-001 +1.6320141248E+002  +1.4713335808E-002 +5.5059470898E+001  +1.1930007552E-002 -6.2854381269E+001  +3.6113640306E-001 +1.3888675742E+002 
2762193.992 +1.2819504945E-001 +1.7093887298E+002  +3.4855920944E-002 +2.5274286202E-001  +1.4681873108E-002 -1.5329260720E+002  +5.0519900211E-001 -4.6122717327E+001 
2887339.174 +1.1592516589E-001 +1.6562897516E+002  +2.0834360276E-002 -6.3307076140E+001  +2.3510726188E-002 -1.3027322721E+002  +3.0759737603E-001 -1.0082469244E+002 
3012484.355 +1.0238572357E-001 +1.7380834962E+002  +6.8798268915E-003 -5.2082027449E+001  +9.7210696478E-003 +1.5262926001E+002  +3.8541884537E-001 -9.2262372634E+001 
3137629.537 +1.3139234237E-001 +1.6738560011E+002  +2.9040026168E-002 -1.0483677392E+002  +4.8005248060E-003 +9.9327317562E+001  +1.2976473356E+000 -1.0390909878E+002 
3262774.718 +9.4163921781E-002 +1.7493727401E+002  +2.3534566599E-002 -4.0446407595E+001  +2.5233641528E-002 -8.5159023554E+001  +2.9936885342E-001 -3.8163901901E+001 
3387919.900 +1.3072088311E-001 +1.6442453709E+002  +2.1094389691E-002 +3.2609542934E+000  +1.8961931732E-002 -7.3944057595E+001  +4.6750056678E-001 -4.8025629993E+001 
3513065.081 +1.3992604560E-001 +1.5713365756E+002  +9.0251259190E-003 +6.0989391922E+001  +5.1565434573E-003 +7.3862501443E+001  +3.9804976443E-001 +1.4113651229E+002 
3638210.263 +1.6435054335E-001 +1.5149212578E+002  +1.3838126020E-002 +5.9169733928E+001  +1.2846296834E-002 -5.4892386631E+001  +3.6359405716E-001 +1.3238331685E+002 
3763355.444 +1.5914956977E-001 +1.5354181776E+002  +1.3772785670E-002 +1.1920247624E+002  +2.9634373155E-002 -7.9448379912E+000  +5.7437609575E-001 +1.2328786506E+002 
3888500.626 +1.6242460119E-001 +1.4960034769E+002  +1.4736953436E-002 +8.4550965468E+001  +1.2177584282E-002 +2.5672856998E+001  +3.6748169068E-001 +1.3044832823E+002 
4013645.807 +1.7639020114E-001 +1.4774871322E+002  +2.3817765926E-002 +1.0823826570E+002  +1.4308122515E-002 +3.2851052762E+001  +3.2464674986E-001 +1.3017338082E+002 
4138790.989 +1.9754059814E-001 +1.4283575620E+002  +1.1873959429E-002 +8.1124131403E+001  +1.0623451174E-002 -1.4893142435E+001  +3.2727138310E-001 +1.1672180343E+002 
4263936.170 +2.0389254506E-001 +1.3553292261E+002  +3.2314573096E-002 +5.4745652928E+001  +1.6434930856E-002 +9.4368101446E+000  +1.3163654051E-001 +9.4148663462E+001 
4389081.352 +2.0428173566E-001 +1.3477942644E+002  +7.9237534830E-003 +1.0145951711E+002  +1.7414932829E-002 +3.0312707407E+001  +6.0915136637E-001 +1.2251365501E+002 
4514226.533 +2.2099704580E-001 +1.2053174185E+002  +6.4446491805E-002 +1.4078144131E+002  +1.2441223386E-002 +1.0798156486E+002  +1.3720381855E+000 +1.2465313639E+002 
4639371.715 +2.6395387440E-001 +1.2994152219E+002  +1.8979361216E-001 +1.7259295904E+002  +1.5866370867E-001 +8.9587277067E+001  +4.9752790319E+000 +1.3580352626E+002 
4764516.896 +3.6316777148E-001 +1.2886750876E+002  +1.1317884589E-001 +1.2712985633E+002  +1.9028668437E-001 +5.6502097996E+001  +5.4058930801E+000 +8.9476347151E+001 
4889662.078 +3.8049038100E-001 +1.3213483267E+002  +5.4468999885E-001 +6.9105218186E+001  +2.6671844417E-001 +1.5921215740E+001  +1.3531553348E+001 +6.2024929828E-003 
5014807.259 +5.0378319467E-001 +1.1770378106E+002  +3.0759992037E-001 -3.9885515767E+000  +4.1924623643E-001 -7.6876041662E+001  +7.9004197070E+000 -9.9761842130E+001 
5139952.441 +3.3519282144E-001 +1.2411597176E+002  +5.3329730560E-002 +1.5865129667E+002  +5.6190093987E-002 +9.5657681637E+001  +2.1518289449E+000 +1.3427242842E+002 
5265097.622 +3.8086530672E-001 +1.2084230054E+002  +5.5049649325E-001 -1.1714527458E+002  +2.9244140046E-001 +1.6379182444E+002  +1.5645831727E+001 -1.5988501105E+002 
5390242.804 +3.6051722614E-001 +1.2600067474E+002  +7.9898917871E-002 +1.1256520362E+002  +3.9018524355E-002 +9.5054796374E+001  +2.7706723020E+000 +7.6078037781E+001 
5515387.985 +4.6718650803E-001 +1.2561765304E+002  +5.5397185798E-002 +9.8492997356E+001  +6.0459293956E-002 +8.4347116945E+001  +1.5574412261E+000 +9.1820305651E+001 
5640533.166 +4.3385424684E-001 +1.2242790371E+002  +5.7973531857E-002 +9.9466814553E+001  +5.1299139331E-002 +6.6230926795E+001  +2.3569713679E+000 +8.3426042262E+001 
5765678.348 +5.1569286085E-001 +1.1808922218E+002  +6.7811032019E-002 +9.7937883076E+001  +6.3166493982E-002 +5.5724260817E+001  +1.7477877802E+000 +7.0233777451E+001 
5890823.529 +5.7532269990E-001 +1.1290994485E+002  +1.6820599331E-001 +8.9460112356E+001  +1.3882402321E-001 +7.6988310671E+001  +3.7027529142E+000 +7.4544692579E+001 
6015968.711 +6.3138678858E-001 +1.2492910750E+002  +5.4169400692E-002 +5.8760665126E+001  +3.7624913377E-002 +3.8896399441E+001  +1.8241807924E+000 +2.5387187850E+001 
6141113.892 +7.8447891558E-001 +8.6072056356E+001  +5.9313082932E-002 +7.3470728518E+001  +9.8363384492E-002 +4.8367427280E+001  +1.4845545567E+000 +2.8316118342E+001 
6266259.074 +1.0192826664E+000 +1.0892920923E+002  +7.6620648012E-002 +7.6813481772E+001  +2.1199792688E-002 +5.0108020579E+001  +1.5807724526E+000 +3.2442631972E+001 
6391404.255 +9.3509911322E-001 +1.0128723663E+002  +5.9054308823E-002 +5.2715255734E+001  +7.4865798993E-002 +3.2038871354E+001  +1.9620300641E+000 +4.4826808199E+000 
6516549.437 +1.2422159163E+000 +6.8292729374E+001  +9.7157022793E-002 +1.3985869178E+001  +8.9803617670E-002 +1.0282413794E+001  +1.8168952271E+000 +4.3653765809E+000 
6641694.618 +1.2605520892E+000 +6.7332798975E+001  +8.7775773174E-002 +3.9032500013E+001  +8.3575465808E-002 +2.6006287383E+001  +1.6109260277E+000 +7.2169473407E+000 
6766839.800 +1.4992694574E+000 +6.4922251003E+001  +7.4497011462E-002 +2.6646097499E+001  +5.0962419149E-002 +2.1954793744E+001  +9.7895712798E-001 -6.0460081521E+000 
6891984.981 +1.7621383477E+000 +1.7590595367E+001  +9.7107357309E-002 +1.0084386431E+001  +8.9172291342E-002 +6.6008027261E+000  +1.3513192025E+000 -2.7888880561E+000 
7017130.163 +2.1709391718E+000 +1.8861203801E+001  +9.3561747829E-002 +1.0906757240E+001  +7.1453073462E-002 -1.2429597015E+001  +1.1801440352E+000 -9.9693908851E+000 
7142275.344 +1.7954358863E+000 +8.7458510536E+000  +4.3109808663E-002 +1.3442324215E+001  +5.6165652750E-002 +1.1593922864E+000  +1.3883312222E+000 -6.3746847665E+000 
7267420.526 +1.4715343656E+000 +6.0463374486E+000  +3.9502560843E-002 -1.2648751896E+001  +4.4654272048E-002 -4.5370473881E+000  +1.2432808436E+000 -1.2361350350E+001 
7392565.707 +1.3429986644E+000 -5.6233914765E+000  +4.1083770018E-002 +9.4546429440E+000  +2.3395699835E-002 +2.0934918065E+001  +1.4145345229E+000 -9.1830977050E+000 
7517710.889 +1.0452667787E+000 +1.0467576045E+000  +3.5651359950E-002 +1.6159523558E+001  +4.0749434304E-002 +7.4310959671E+000  +1.2086704374E+000 -3.9030113550E+000 
7642856.070 +9.6880091131E-001 +1.8890257904E+000  +2.4501137338E-002 +1.5013172497E+001  +2.7790474225E-002 +1.0138060029E+001  +1.1121239041E+000 -8.9000397949E+000 
7768001.252 +8.9576492523E-001 -1.8111329573E+000  +3.4362263844E-002 +1.3596957381E+001  +3.0146855105E-002 +1.5849161869E+001  +1.0566951807E+000 -3.2560473444E+000 
7893146.433 +8.2149111990E-001 +2.9926634338E+000  +2.4556367912E-002 +1.9382838173E+001  +2.4318498731E-002 +1.8232470681E+001  +9.0909100785E-001 -4.2013111237E+000 
8018291.615 +6.8521284423E-001 +7.1961728957E+000  +2.1908099929E-002 +7.0453717480E+000  +2.2214756628E-002 +2.1670504360E+001  +8.1756717615E-001 -2.6793555047E+000 
8143436.796 +6.6929355269E-001 +4.6722136843E+000  +2.7603838945E-002 +5.9862373905E+000  +2.7748415886E-002 +9.2515333216E+000  +8.4983121592E-001 -4.4653883180E+000 
8268581.977 +7.8306927940E-001 +7.3772269427E+000  +3.3263450525E-002 +1.4800215452E+001  +2.7098822460E-002 +6.9252354696E+000  +7.9937460306E-001 +5.2470977603E-001 
8393727.159 +7.0073177036E-001 +8.6637299414E+000  +2.3689886299E-002 +6.2637203741E+000  +2.3020010612E-002 +1.9971431361E+001  +7.2653356046E-001 +2.1386565795E+000 
8518872.340 +6.4895120036E-001 +1.0177558339E+001  +2.2760168378E-002 +1.4127575362E+000  +2.2160483587E-002 +2.2172219877E+001  +7.2998339986E-001 +1.0922195202E+000 
8644017.522 +6.0540844324E-001 +5.3113886613E+000  +2.3095662825E-002 +2.2849309788E+000  +2.0794037306E-002 +1.3728300565E+001  +7.0727805583E-001 +2.7012089447E+000 
8769162.703 +6.5831496242E-001 +5.3724553173E+000  +2.5116095914E-002 -5.6130522279E+000  +2.4857994738E-002 +1.5113394793E+001  +6.7977392946E-001 +1.0275579457E+000 
8894307.885 +6.4336400029E-001 +8.5768879939E+000  +2.9057047995E-002 +1.2684689969E+000  +2.4679061545E-002 +1.9131804652E+001  +6.3354242730E-001 -1.9624545786E+000 
9019453.066 +5.3857223995E-001 +9.3620044902E+000  +2.2320295914E-002 +4.5305554580E-001  +2.2345576002E-002 +2.1794024482E+001  +6.0132354031E-001 -7.3993893662E+000 
9144598.248 +5.5600929227E-001 +8.4788977124E+000  +2.2218513514E-002 +2.1819494477E+000  +2.4893246446E-002 +2.2485465184E+001  +5.9168000998E-001 +2.1005461483E+000 
9269743.429 +5.7515215493E-001 +9.6921115992E+000  +1.8259631589E-002 -2.9843585677E+000  +2.4301564673E-002 +1.5234671158E+001  +5.7881006475E-001 -3.2072868070E+000 
9394888.611 +5.3965260489E-001 +1.0152470304E+000  +2.3274446208E-002 +5.6343730010E+000  +2.1511425495E-002 +1.1207159905E+001  +5.8488686154E-001 -4.1725477634E+000 
9520033.792 +4.9019369328E-001 +5.4132493253E+000  +1.8913590445E-002 +9.6813064549E+000  +2.1818694733E-002 +1.8039486136E+001  +5.1568729576E-001 -3.4454232754E+000 
9645178.974 +6.0126581422E-001 -9.1611370689E-001  +2.3895708195E-002 -2.3378182189E+000  +2.2888044137E-002 +2.2981743568E+001  +5.9165984159E-001 -2.4938024118E+000 
9770324.155 +5.2065151657E-001 -3.0726677685E+000  +2.6278484879E-002 +8.8531195306E-001  +2.5584880738E-002 +1.6709104787E+001  +5.6903950487E-001 -7.4019622662E+000 
9895469.337 +5.2347243004E-001 -2.7953268352E+000  +2.1435143032E-002 +2.4639929721E+000  +2.6802847772E-002 +2.3034729320E+001  +5.3433010229E-001 -5.0143994517E+000 
10020614.518 +4.9074601300E-001 +2.6275744924E+000  +2.1316286559E-002 +1.1412654251E+000  +2.4311224852E-002 +1.8020425507E+001  +5.6814205682E-001 -8.6771819690E+000 
10145759.700 +5.3616821300E-001 +1.3894541188E+000  +2.1189591919E-002 +8.5256934192E+000  +2.5425417255E-002 +2.0379357974E+001  +5.5699137354E-001 -6.6409830563E+000 
10270904.881 +4.9365512161E-001 +1.5965314270E+000  +2.3095540359E-002 +4.4316843619E+000  +2.4456094516E-002 +2.1658631687E+001  +5.6126270324E-001 -1.9850149748E+000 
10396050.063 +5.3400949612E-001 +3.6207929584E+000  +2.4901744638E-002 +8.7259395363E+000  +2.4426785897E-002 +2.5486704642E+001  +5.3595065557E-001 +1.7744659706E+000 
10521195.244 +5.2734421209E-001 +2.1840001885E+000  +2.4590534637E-002 +6.3512714490E+000  +2.6843693533E-002 +2.5552122003E+001  +5.4862167738E-001 -2.3734843665E+000 
10646340.426 +5.7347234930E-001 +9.4892255441E+000  +2.5885797171E-002 +5.1021750785E+000  +2.4728092920E-002 +2.1924711293E+001  +5.6786119648E-001 +2.7526903423E-001 
10771485.607 +5.5316555503E-001 +6.3977115265E+000  +2.7643374038E-002 +6.2296827614E+000  +2.6532023115E-002 +1.7022486758E+001  +6.0283534520E-001 +6.2399816944E-001 
10896630.788 +5.5065936299E-001 +7.4679626673E+000  +2.5301413848E-002 +1.0859386316E+001  +2.2201842519E-002 +1.8763960398E+001  +5.7723368363E-001 +1.4361724328E+000 
11021775.970 +5.5059705981E-001 +4.6669336274E+000  +2.5378862125E-002 +1.1893718550E+001  +2.6922588287E-002 +2.1327795001E+001  +5.7627353316E-001 +2.7610248341E+000 
11146921.151 +5.6976377661E-001 +7.5124320989E+000  +2.4514040540E-002 +1.1017348388E+001  +2.5422448023E-002 +2.2520165952E+001  +6.3450448222E-001 +2.3604840615E+000 
11272066.333 +5.6932990939E-001 +5.0022358289E+000  +2.6572654595E-002 +8.5210776224E+000  +2.5522606781E-002 +2.2002625435E+001  +6.3245296665E-001 +5.7430385089E-001 
11397211.514 +5.8839583380E-001 +3.6621869350E+000  +2.4432879439E-002 +1.2724087331E+001  +2.4890422683E-002 +2.6346189056E+001  +6.0834783789E-001 +1.1642590425E+000 
11522356.696 +6.1564701603E-001 +7.2247850875E+000  +2.6832471387E-002 +1.5861191022E+001  +2.6290935327E-002 +2.0367657640E+001  +5.9982801992E-001 +1.7530865823E+000 
11647501.877 +6.0040738331E-001 +6.2815237318E+000  +2.4386449117E-002 +1.1891969686E+001  +2.4508617279E-002 +2.2326366268E+001  +6.1240822539E-001 +1.8115434912E+000 
11772647.059 +6.1653273119E-001 +7.7823160239E+000  +2.8096424070E-002 +1.0186562671E+001  +2.6418567798E-002 +2.3201229942E+001  +6.3717155476E-001 +1.7360627984E+000 
11897792.240 +6.2992682953E-001 +3.3487189774E+000  +2.8040075512E-002 +1.5034690267E+001  +2.6121356631E-002 +2.2234119686E+001  +6.7329276327E-001 +1.2771381307E+000 
12022937.422 +6.4159831681E-001 +5.8867514205E+000  +2.8298302637E-002 +1.0394327082E+001  +2.6629858414E-002 +2.1577923274E+001  +6.3694632107E-001 +1.2641214446E-001 
12148082.603 +6.5361475204E-001 +4.5801246518E+000  +2.8007047261E-002 +1.4934786455E+001  +2.8019910900E-002 +2.3313380049E+001  +6.7184432354E-001 -1.5488786267E+000 
12273227.785 +6.4116015257E-001 +3.6020454858E+000  +3.0086744282E-002 +9.7907018121E+000  +2.7219080815E-002 +1.9716370780E+001  +6.8937966155E-001 +8.2277132492E-001 
12398372.966 +6.7798254992E-001 +1.0346877855E+000  +2.6748447479E-002 +1.5037821137E+001  +2.8070615010E-002 +1.6475001073E+001  +7.0111040645E-001 -7.7164009772E-001 
12523518.148 +7.0112407558E-001 +5.1184579143E+000  +3.0160682278E-002 +1.5023791658E+001  +2.7536875417E-002 +2.3646086657E+001  +6.7271673114E-001 -7.1707936766E-001 
12648663.329 +7.3350048356E-001 +1.8098645793E+000  +2.8599075408E-002 +1.1409305315E+001  +3.0125387723E-002 +2.1795324126E+001  +7.0588823642E-001 +2.1238527998E+000 
12773808.511 +7.2289417120E-001 +1.5618263857E+000  +2.8868925540E-002 +1.2624921241E+001  +2.9690233618E-002 +2.1389079379E+001  +7.2366472033E-001 -7.7173807788E-001 
12898953.692 +7.4080573271E-001 -7.3362006539E-001  +2.8805754580E-002 +1.6318308117E+001  +2.9440633623E-002 +1.6866437942E+001  +7.4467771996E-001 -8.2780700641E-001 
13024098.874 +7.4983731927E-001 -5.3900743676E-001  +2.9848082226E-002 +1.6563509035E+001  +3.0490189714E-002 +2.2273360989E+001  +7.6077332295E-001 -2.1669488841E+000 
13149244.055 +7.6813384576E-001 +2.1731452550E+000  +3.1100390378E-002 +1.3478586924E+001  +2.9745551475E-002 +1.4809502119E+001  +7.7976761158E-001 -6.4215606989E-001 
13274389.237 +7.7514107456E-001 +7.6238290738E-001  +3.0945973266E-002 +1.5042763008E+001  +3.1718916116E-002 +1.8313183400E+001  +7.8645903741E-001 -2.5474165822E+000 
13399534.418 +7.9127105088E-001 -1.3947795362E-001  +3.1120689914E-002 +1.7543688378E+001  +3.0589685823E-002 +1.7969862396E+001  +7.9911162511E-001 -1.6524365295E+000 
13524679.599 +8.2530956805E-001 -6.7219169816E-001  +3.0064650714E-002 +1.4757169353E+001  +3.1310029149E-002 +1.6932042126E+001  +8.3520894416E-001 -4.3110888338E+000 
13649824.781 +8.4840505240E-001 -1.6763514272E+000  +3.0684767083E-002 +1.8143989021E+001  +3.3843152686E-002 +1.8801086982E+001  +8.4031097602E-001 -4.6530618689E+000 
13774969.962 +8.3692383479E-001 -2.1453625906E+000  +3.2112650362E-002 +1.3755370909E+001  +3.1937964437E-002 +1.8274130671E+001  +8.7907712226E-001 -2.9901484234E+000 
13900115.144 +8.7363225211E-001 -5.2242757348E+000  +3.2747870081E-002 +1.4877448867E+001  +3.1718772689E-002 +1.5187268228E+001  +9.0173474326E-001 -4.5894338675E+000 
14025260.325 +8.8589517578E-001 -3.1896258996E+000  +3.1049957484E-002 +1.7513481783E+001  +3.1021221663E-002 +1.5173571678E+001  +9.0614928982E-001 -3.7070139427E+000 
14150405.507 +9.1273488256E-001 -3.8917555246E+000  +3.1886357724E-002 +1.5274718770E+001  +3.1535483790E-002 +1.5814514195E+001  +9.1444751388E-001 -3.0877682724E+000 
14275550.688 +9.2754254430E-001 -5.2543299973E+000  +3.3422516642E-002 +1.6681830072E+001  +3.2774164244E-002 +1.4755248173E+001  +9.3959314115E-001 -4.7987126525E+000 
14400695.870 +9.4075804812E-001 -4.7288788447E+000  +3.3316367454E-002 +1.2545015656E+001  +3.2101140371E-002 +1.4145259712E+001  +9.5293561111E-001 -5.7901460008E+000 
