!  2-Port S-parameters saved by WinCal
! VAR MeasName=S-Parameters (CALIBRATED_DATA) read from VNA (P5004A)
! VAR MeasDate=27/08/2024 15:30:54
! VAR NAME=S2_r6c8_RESET1_9k-100M_2
! VAR FILENAME=S2_r6c8_RESET1_9k-100M_2.S2P
! VAR DATE=27/08/2024 15:30:55
! VAR PHYS_PORTS=1,2
! VAR ObjTypeName=DATASET
! VAR IndexType=Frequency
!
# Hz S MA R 50
9000.000 +7.8623554377E-002 -1.6415977719E+002  +1.3354445594E-002 +4.3766842804E+000  +1.1652494589E-002 -1.1255686752E+002  +1.4308182154E-001 -1.0605506801E+002 
134145.181 +1.1056253972E-001 +1.6971052886E+002  +1.6457469878E-004 +2.2776214149E+001  +3.4250114775E-004 -1.1911946347E+002  +2.4070658314E-001 -1.6967765584E+002 
259290.363 +1.1048390842E-001 +1.7012371781E+002  +8.4473411426E-004 -5.0668505263E+001  +1.5612054604E-003 -1.5724564709E+002  +2.4253184737E-001 -1.6926067242E+002 
384435.544 +1.1375035189E-001 +1.7029329429E+002  +2.2140267941E-004 -1.3067611885E+001  +2.2813908387E-004 -1.4721595421E+002  +2.4420335517E-001 -1.6841876421E+002 
509580.726 +1.1367634953E-001 +1.7124865504E+002  +5.4708231694E-004 -5.5453485205E+001  +3.5230106318E-003 -1.9861319566E+001  +2.3384264577E-001 -1.5645675424E+002 
634725.907 +1.1658171295E-001 +1.6990875797E+002  +2.3759994807E-004 -4.9839985955E+001  +3.0893359269E-004 +1.7356168342E+002  +2.3651500832E-001 -1.6510741235E+002 
759871.089 +1.1682362474E-001 +1.7092126946E+002  +2.9250458941E-004 +1.1011643595E+002  +3.9580302040E-004 -5.5456910315E+001  +2.5071666455E-001 -1.6499728999E+002 
885016.270 +1.1894283760E-001 +1.6853841386E+002  +3.9935866225E-004 -1.4812819681E+002  +8.0934682576E-004 +1.7512229676E+002  +2.3994136446E-001 -1.6696824017E+002 
1010161.452 +1.1428077208E-001 +1.7321519186E+002  +1.0274261146E-003 -1.3359395597E+002  +2.4107412080E-003 -7.6722551993E+001  +1.9504745569E-001 -1.6969853660E+002 
1135306.633 +1.1078139804E-001 +1.6919741461E+002  +1.3926414882E-003 +7.3128292312E+001  +1.7019331180E-003 -1.3610558014E+002  +2.1457853711E-001 -1.5773153370E+002 
1260451.815 +1.2085481465E-001 +1.7081384453E+002  +6.6344841539E-004 -4.2828734915E+001  +1.6990342920E-003 +5.8212344419E+001  +2.3014243222E-001 -1.6034545376E+002 
1385596.996 +1.2136527345E-001 +1.7132235412E+002  +9.7115093685E-004 +4.7064541732E+001  +4.7719743840E-004 +8.2237884018E+001  +2.6100533774E-001 -1.5777470135E+002 
1510742.178 +1.2832052686E-001 +1.7130318842E+002  +3.0018711487E-004 +1.3159317873E+002  +8.6826069123E-004 -9.2097929822E+000  +2.6306128920E-001 -1.5756512142E+002 
1635887.359 +1.2696340227E-001 +1.7029824538E+002  +1.0973934788E-003 +1.1628853731E+002  +1.9086634259E-003 +6.1513376827E+001  +2.5282641274E-001 -1.5871233325E+002 
1761032.541 +1.3031881355E-001 +1.6970060942E+002  +6.8999829436E-004 +8.8159198200E+001  +6.5933033220E-004 +4.6581612837E+001  +1.9957434184E-001 -1.5023327266E+002 
1886177.722 +1.2778417433E-001 +1.6525766874E+002  +1.4382053146E-003 +2.9111206113E+001  +2.0132562124E-003 +1.4071143722E+002  +2.0919232561E-001 -1.6532437867E+002 
2011322.904 +1.3174236235E-001 +1.6500528987E+002  +1.5958611873E-003 +2.4274513676E+001  +4.1489266296E-004 +1.2482519257E+002  +1.9999989694E-001 -1.6852158254E+002 
2136468.085 +1.1824089145E-001 +1.6689692945E+002  +2.0235298925E-003 -1.8613311118E+001  +9.3420294651E-003 -1.3845907725E+002  +2.0249447919E-001 +1.6609663717E+002 
2261613.267 +1.3615717108E-001 +1.6209118760E+002  +3.1727651601E-003 -1.7765736748E+002  +2.4241873990E-003 -1.4311426153E+002  +2.0272882159E-001 -1.7126007115E+002 
2386758.448 +1.3945909474E-001 +1.6544567038E+002  +6.9431233234E-003 +2.2319389765E+001  +6.3778663218E-003 -8.7728553234E+001  +2.4940736586E-001 +1.3519473318E+002 
2511903.630 +1.3411338898E-001 +1.6000532632E+002  +4.2709248065E-003 +4.5813468946E+001  +2.3698237918E-003 +1.6216031314E+002  +1.7967824130E-001 +1.6683506678E+002 
2637048.811 +1.2750096580E-001 +1.6175522200E+002  +5.2330631119E-003 +1.2807582340E+002  +1.5527647253E-002 +1.3267007829E+001  +2.4787691304E-001 +1.4712676607E+002 
2762193.992 +1.1162858619E-001 -1.7804294787E+002  +1.6629455719E-002 +1.4224911883E+002  +1.4137582650E-002 -1.0384863394E+002  +6.2402837694E-001 -1.1819663253E+002 
2887339.174 +1.1639480232E-001 +1.6797380862E+002  +2.0661649913E-002 +8.2560956730E+000  +1.8544550495E-002 -1.4169832048E+002  +5.1386281778E-001 -8.3428750403E+001 
3012484.355 +6.6919733775E-002 +1.7202114777E+002  +1.7598549747E-002 -1.4174801085E+001  +1.6331786417E-002 -1.7239790593E+002  +1.7957500106E-001 -1.1688585538E+002 
3137629.537 +9.1525820268E-002 +1.6397796129E+002  +5.1522676140E-003 -1.0721393207E+002  +6.6576513841E-003 -9.2467236119E+001  +2.9788710901E-001 -1.2198690574E+002 
3262774.718 +1.2701015324E-001 +1.6542822809E+002  +4.2287377198E-003 -1.6364223385E+002  +5.1047463002E-003 -1.2178052460E+002  +1.1824340003E-001 -9.9307056431E+001 
3387919.900 +1.3071461150E-001 +1.5220249559E+002  +2.5965167914E-003 +2.0730464996E+001  +1.2908269764E-002 +1.6420414716E+002  +3.9829406963E-001 -8.1509941647E+001 
3513065.081 +1.5132181318E-001 +1.5328426157E+002  +3.2230479117E-002 +3.8392970139E+001  +3.3497939539E-002 +6.0941354565E+001  +9.0756987625E-001 +9.4179281687E+001 
3638210.263 +1.8861991714E-001 +1.4879862571E+002  +1.0293397906E-002 +4.7095867935E+001  +7.7111151736E-003 +1.1744337480E+002  +4.4867320893E-001 +1.1869616632E+002 
3763355.444 +2.1842967915E-001 +1.3531036922E+002  +1.5867197675E-002 +1.5236130664E+002  +1.7727214960E-002 -2.5495401603E+001  +1.5139604907E-001 +5.2096340764E+001 
3888500.626 +1.7606250113E-001 +1.5066064045E+002  +2.2378159455E-002 -2.0117392692E+000  +8.2657089362E-003 -1.1597213123E+002  +1.2650201341E+000 +2.1183489165E+001 
4013645.807 +1.5577450248E-001 +1.4784963694E+002  +4.8602179964E-003 +1.7369520630E+001  +3.1926026194E-003 +3.9194801967E+001  +2.8875857373E-001 +3.2396015448E+001 
4138790.989 +2.1389329193E-001 +1.4678067539E+002  +1.1780042440E-002 -1.4897008507E+002  +1.4145783788E-002 +7.3820068076E+001  +4.2813281251E-001 +8.8299945790E+001 
4263936.170 +2.2862813602E-001 +1.4227540053E+002  +7.2502213765E-003 +8.7615733336E+001  +4.7795869174E-003 -1.6914793263E+001  +3.3903350378E-001 +1.3185689837E+002 
4389081.352 +2.3037770431E-001 +1.3525207377E+002  +1.5975645471E-002 +3.0130643262E+001  +6.9600475878E-003 +1.5380542251E+002  +4.6987978414E-001 +6.1831605327E+001 
4514226.533 +2.3561218148E-001 +1.4084267955E+002  +5.7555330479E-003 +7.9917176429E+001  +2.9698332161E-002 -8.5038771537E+001  +1.3547393701E+000 +1.8935225411E+001 
4639371.715 +2.6642594492E-001 +1.2617984460E+002  +1.3969954347E-001 +6.5415168046E+001  +7.6908920793E-002 +8.5908782711E+001  +6.7495009745E+000 -3.2217803642E+001 
4764516.896 +3.2088625463E-001 +1.2326824647E+002  +2.2737639226E-002 -5.0528801964E+001  +8.4541961126E-002 -1.5930199389E+002  +6.8516528983E+000 +1.7530417077E+002 
4889662.078 +4.2430998195E-001 +1.1904896144E+002  +9.8748784000E-002 -7.1312853488E+001  +9.3502022814E-003 -5.2713476327E+000  +7.2511489536E+000 +9.0318891739E+001 
5014807.259 +4.7694187528E-001 +1.1311193258E+002  +1.0249718837E-002 +1.5745924907E+002  +6.7073076107E-002 +1.6901372056E+001  +3.9733803883E+000 -4.3994057642E+001 
5139952.441 +3.8957733414E-001 +1.2837506323E+002  +3.2201289928E-002 -1.5178752857E+002  +2.5351977248E-002 +1.1468491303E+002  +4.1225268721E+000 -1.6663844363E+002 
5265097.622 +4.2905108882E-001 +1.2647061073E+002  +4.4638744853E-002 +4.3997417272E+001  +1.9485742790E-002 +3.9558843666E+001  +3.3601886164E+000 +7.2292300753E+001 
5390242.804 +4.3665605555E-001 +1.2605372420E+002  +5.2597022199E-002 +1.3697329640E+002  +4.3738243747E-002 +1.4841615432E+002  +5.7588550218E+000 +4.0602195148E+001 
5515387.985 +5.7025557596E-001 +1.2982506406E+002  +3.2083371396E-002 +9.1216910422E+001  +4.0896504400E-002 +9.5215090858E+001  +2.4735205204E+000 +7.9198921175E+001 
5640533.166 +4.3445188953E-001 +1.3302077749E+002  +1.4341285391E-002 +8.3243538055E+001  +2.1889318974E-002 +1.4728584500E+002  +2.0211655867E+000 +9.0096022069E+001 
5765678.348 +4.8024573701E-001 +1.3311120881E+002  +2.3863968550E-002 -1.7277143500E+002  +2.9598325108E-002 +3.5853667151E+001  +3.1856571262E+000 +8.9619637362E+001 
5890823.529 +6.5035096885E-001 +1.2101445299E+002  +4.0950161603E-002 +1.0694526253E+002  +3.8626632594E-002 +4.9601264271E+001  +2.1516581314E+000 +4.0293002890E+001 
6015968.711 +6.7648512704E-001 +1.2402875811E+002  +3.0333119846E-002 +1.1631070505E+002  +1.1953666451E-002 +1.0213241387E+002  +1.8887775618E+000 +6.9071087159E+001 
6141113.892 +7.5409382812E-001 +1.2248741404E+002  +2.4861071793E-002 +1.2928218158E+002  +2.6108110722E-002 +1.0762173256E+002  +3.6022746920E+000 +4.5762157027E+001 
6266259.074 +8.9792030633E-001 +1.0818888816E+002  +1.7920008959E-002 +4.4881616387E+001  +3.0401540803E-002 +4.6757528725E+001  +1.6388702302E+000 +2.8382073635E+001 
6391404.255 +1.0126341265E+000 +1.0221306335E+002  +2.5138513955E-002 +1.6747939054E+002  +1.9873904013E-002 +7.8336701780E+001  +2.0884543672E+000 +3.8899217920E+001 
6516549.437 +1.1810262516E+000 +8.6648919372E+001  +3.8794407068E-002 +6.8037791758E+001  +3.7242000867E-002 +2.6956941244E+001  +2.0545019509E+000 +1.2022816449E+001 
6641694.618 +1.5089066905E+000 +7.5263295159E+001  +1.1029769925E-002 -3.2796709644E+001  +2.9656679556E-002 +4.2850569303E+001  +1.3414005908E+000 -6.4290021293E+000 
6766839.800 +3.2157979063E+000 +4.0528885597E+001  +5.7979359779E-002 +2.5270643387E+001  +4.3051180137E-002 +5.0356867817E+001  +1.3442072093E+000 -1.2149164526E-001 
6891984.981 +1.5124745059E+000 +2.3639755059E+001  +5.0785268703E-003 -8.6434147399E+001  +1.9584457108E-002 +4.6846901017E+001  +1.2733279286E+000 -2.9454179782E+000 
7017130.163 +2.2729434971E+000 +2.3740210445E+001  +2.7187286270E-002 +1.8503982869E+001  +3.0952204488E-002 +7.5069026804E+001  +1.3456813304E+000 -1.3816790985E+001 
7142275.344 +1.5167416907E+000 +2.2045864134E+001  +1.7891864299E-002 +2.3126239698E+000  +9.6986942825E-003 +1.1957233819E+000  +1.3122744079E+000 -5.1882954455E+000 
7267420.526 +1.3296563077E+000 -3.5696634411E+000  +1.0414342793E-002 +6.4297891343E+001  +6.2843524471E-003 +4.2881928925E+001  +1.3679350150E+000 -5.4016360493E+000 
7392565.707 +1.4203743237E+000 +1.5519076751E+000  +5.0205828982E-003 -5.3114944104E+001  +1.2171989682E-002 +1.0343934781E+001  +1.3624530886E+000 -7.4229638373E+000 
7517710.889 +1.2678351668E+000 +1.8509566360E+000  +1.4425911363E-002 +2.2135599169E+001  +8.9471193051E-003 +6.8695782235E+001  +1.2043088234E+000 -4.4670673568E+000 
7642856.070 +1.1047267071E+000 -2.9202669389E+000  +2.7271901702E-003 -1.3783791073E+002  +9.7328386113E-003 +3.5637862035E+001  +1.0924103763E+000 -4.6208231843E+000 
7768001.252 +1.0195542044E+000 +3.2502472017E+000  +1.1525368012E-002 +6.4731084977E+001  +8.0137559683E-003 +3.1245390580E+001  +1.1130756750E+000 -2.3910798293E+000 
7893146.433 +9.2175120763E-001 +6.6040532338E+000  +9.6776907236E-004 +4.4196169276E+000  +5.8445286186E-004 +1.0970762912E+002  +9.7234175486E-001 +4.9898914475E-001 
8018291.615 +8.9709639170E-001 +4.9378610935E+000  +7.6729345822E-003 +6.3518909482E+001  +1.3618227192E-002 +3.4894411815E+001  +7.9387686351E-001 +1.9164094809E+000 
8143436.796 +7.6716267076E-001 +3.4800434351E+000  +9.7184601107E-003 -3.0897858994E+001  +8.0075943926E-003 +6.6038626239E+001  +7.7859132574E-001 -3.7833062006E+000 
8268581.977 +7.7654082030E-001 +4.0714894827E+000  +3.4349150445E-003 -1.6838237296E+001  +8.6088375069E-003 +3.7055285340E+001  +7.3649828216E-001 +1.2072411347E+000 
8393727.159 +6.4149786832E-001 +3.5463453468E+000  +4.8765492202E-003 +4.9755776963E+001  +8.9794943564E-003 +7.3309959292E+001  +6.8752510015E-001 +2.7493299112E+000 
8518872.340 +6.5443433425E-001 +4.5482801623E+000  +5.2136611473E-003 +4.3837565965E+000  +1.0761762092E-002 +5.2659208106E+001  +6.6004583947E-001 -3.6467593796E+000 
8644017.522 +6.6102916632E-001 +7.4240842907E+000  +9.4619835714E-003 +4.1256842643E+001  +9.5625042997E-003 +2.9801845185E+001  +6.7693865652E-001 -1.8682499542E+000 
8769162.703 +6.5328159557E-001 +5.2007747080E+000  +6.5098438831E-003 -3.3242192559E-001  +4.7198075599E-003 +4.7901154131E+001  +6.2269984251E-001 +8.7554784158E-001 
8894307.885 +6.2193345876E-001 +6.0851162168E+000  +4.4866410587E-003 +6.0388390562E+001  +5.3079363989E-003 +4.8514934631E+001  +6.1890312879E-001 +3.7673118134E+000 
9019453.066 +6.4722584803E-001 +5.3578852261E+000  +8.0954156711E-003 +2.9630946892E+000  +4.8451336749E-003 +2.3355409290E+001  +6.0047861372E-001 -1.0940062952E+000 
9144598.248 +5.5077575039E-001 +2.8592670342E+000  +3.6895595745E-003 +2.2193110402E+001  +6.0416810593E-003 +3.6857965451E+001  +6.1720265028E-001 +1.8614242553E+000 
9269743.429 +5.7109519222E-001 +7.7952341992E+000  +6.6538940218E-003 +6.5781053496E+001  +7.9570315100E-003 +4.4755696526E+001  +5.8492198118E-001 +1.8705736644E+000 
9394888.611 +5.8701299981E-001 +2.1893300773E+000  +7.8311982525E-003 +1.4590270225E+001  +4.3570035951E-003 +4.6456058657E+001  +6.1450299305E-001 -4.1163541593E+000 
9520033.792 +5.5087860947E-001 +1.1138610505E+000  +5.7659083358E-003 +1.9734121481E+001  +6.8713392243E-003 +4.8311154362E+001  +6.0319413995E-001 -3.7932806164E+000 
9645178.974 +5.7143439618E-001 +3.7521580793E+000  +8.4836298855E-003 +5.5253150810E+001  +7.5005814820E-003 +5.2792458389E+001  +6.0736414203E-001 -4.6519095609E+000 
9770324.155 +5.0176570470E-001 +9.9666856582E-001  +4.6012778983E-003 +4.7885413768E+001  +5.8386242449E-003 +4.7461923668E+001  +6.0015723631E-001 -7.0172097297E+000 
9895469.337 +5.1586242641E-001 +4.0419258568E-001  +4.0474207098E-003 -3.8945421674E-001  +7.2640577361E-003 +5.1681833955E+001  +5.8064644454E-001 -7.7142743226E+000 
10020614.518 +5.2127857238E-001 +4.7666209775E+000  +5.7105631991E-003 +2.4930366958E+001  +4.5795228177E-003 +2.9821917992E+001  +5.5376048474E-001 -4.1152998211E+000 
10145759.700 +5.6862731305E-001 +1.4086926636E+000  +9.6059189751E-003 +2.8208402650E+001  +8.7028962258E-003 +5.7828229636E+001  +6.3130915531E-001 -1.9919139906E+000 
10270904.881 +5.7321340077E-001 +4.3554776379E+000  +6.2530529376E-003 +2.9802102915E+001  +6.6670406994E-003 +4.5957440517E+001  +5.7943055857E-001 -1.2752095302E+000 
10396050.063 +5.5240901568E-001 +6.3627422776E+000  +8.1306201964E-003 +3.7879296112E+001  +7.8564460153E-003 +5.2120550115E+001  +5.6851579312E-001 -8.7027871211E-001 
10521195.244 +5.4027289960E-001 +2.8423344013E+000  +4.9024480781E-003 +4.4725987224E+001  +6.9245722045E-003 +4.0124683297E+001  +5.6477338977E-001 +1.5037361345E+000 
10646340.426 +5.6911007166E-001 -2.6561571855E-001  +8.5645582447E-003 +3.7175711496E+001  +1.0045472556E-002 +4.9856251076E+001  +5.9468424857E-001 -5.1879579409E-002 
10771485.607 +5.5653468972E-001 +7.1968098859E+000  +8.8979401680E-003 +4.8524100288E+001  +6.9522557888E-003 +5.8195913168E+001  +5.9515236833E-001 +1.5773143740E-001 
10896630.788 +5.5356891411E-001 +5.0728098487E+000  +1.0412498978E-002 +3.0120566206E+001  +5.7432510414E-003 +7.4998840689E+001  +5.9244209465E-001 +1.4032847341E+000 
11021775.970 +6.1147242350E-001 +8.2679052374E+000  +8.1130388308E-003 +3.9184965340E+001  +6.2906907261E-003 +3.5115919706E+001  +5.7920486355E-001 +2.1691468924E+000 
11146921.151 +5.9090720219E-001 +3.8748712415E+000  +6.5231142096E-003 +3.7533269592E+001  +7.3878850979E-003 +6.5492134147E+001  +6.2669473550E-001 +5.7471979132E-001 
11272066.333 +6.1128679488E-001 +3.1344312734E+000  +6.8318787994E-003 +4.1911277339E+001  +7.4569829331E-003 +4.1865707075E+001  +6.2604782207E-001 +1.0945589661E+000 
11397211.514 +5.7972100155E-001 +8.1428467475E+000  +7.0962368497E-003 +2.3412843507E+001  +8.1230898818E-003 +4.7167961823E+001  +6.4597449104E-001 -8.6483131789E-001 
11522356.696 +6.2706723866E-001 +5.8989297551E+000  +5.7604940507E-003 +4.4318835621E+001  +7.5119955950E-003 +5.0320025448E+001  +6.4152422530E-001 +2.4333954174E+000 
11647501.877 +6.0539554840E-001 +4.7561405883E+000  +7.8669392755E-003 +3.7477984651E+001  +6.4076467194E-003 +5.6733059420E+001  +6.3359749095E-001 +2.6695444926E+000 
11772647.059 +6.2653791242E-001 +4.4304957479E+000  +1.0041274882E-002 +2.3185309624E+001  +8.1133100445E-003 +4.6324825008E+001  +6.6562074980E-001 +8.1332140958E-001 
11897792.240 +6.3195483153E-001 +6.5642570201E+000  +9.0680918274E-003 +2.3366796495E+001  +8.5303323550E-003 +4.1715300031E+001  +6.4514642088E-001 +3.6751443175E+000 
12022937.422 +6.6135313090E-001 +3.3764138428E+000  +8.2760051425E-003 +4.2121173962E+001  +5.1715672678E-003 +4.1871679450E+001  +6.8036335835E-001 +1.4223480677E+000 
12148082.603 +6.8082396472E-001 +7.4586548213E+000  +9.3813964564E-003 +2.8797974740E+001  +8.4186009027E-003 +4.9153929480E+001  +6.8883620996E-001 -5.1886793839E-001 
12273227.785 +6.7480838359E-001 +4.4925691910E+000  +8.6176225123E-003 +4.7304131790E+001  +8.9541320487E-003 +5.3179535211E+001  +7.0396739665E-001 -1.0138736011E+000 
12398372.966 +6.9496590980E-001 +2.8625981072E+000  +9.4278494523E-003 +4.3955949140E+001  +8.1676166961E-003 +4.8104226313E+001  +7.1571011110E-001 +1.5737292591E+000 
12523518.148 +7.2489816761E-001 +3.5981729339E+000  +8.8998013698E-003 +4.4883149493E+001  +8.5925095173E-003 +3.5158162867E+001  +7.2802918622E-001 +1.3097171543E-001 
12648663.329 +7.1679454911E-001 +2.6251106903E+000  +9.7571254591E-003 +4.4857305641E+001  +9.2494670532E-003 +4.1403522595E+001  +7.4030044796E-001 -8.0914963987E-001 
12773808.511 +7.4366016693E-001 +1.0578007424E+000  +1.0380267275E-002 +4.5564659662E+001  +8.1716193303E-003 +4.0490569823E+001  +7.5713223221E-001 -1.8416009897E+000 
12898953.692 +7.6221131139E-001 +5.1511760921E-001  +8.2031385090E-003 +4.8632879187E+001  +8.7113115630E-003 +4.6204054926E+001  +7.6539047417E-001 +3.5125623345E-001 
13024098.874 +7.8024018872E-001 +8.9364236497E-001  +9.7276450230E-003 +4.5651318966E+001  +7.2549168875E-003 +6.5699680160E+001  +7.9628078611E-001 -1.4307049010E+000 
13149244.055 +8.0365544640E-001 +1.2052534246E+000  +8.8226733385E-003 +4.2102570752E+001  +9.2283710634E-003 +4.5177528559E+001  +7.9649112758E-001 -2.9140834723E+000 
13274389.237 +8.1930026557E-001 -8.8872169884E-001  +8.5461604581E-003 +5.0887355104E+001  +1.0591595865E-002 +5.1466301627E+001  +8.2848986954E-001 -2.3861841045E+000 
13399534.418 +8.3625606770E-001 -1.8802118784E+000  +9.0596258013E-003 +4.5249605428E+001  +9.8593080204E-003 +5.4756082273E+001  +8.4822166575E-001 -2.8881608473E+000 
13524679.599 +8.2332561874E-001 -3.6114447532E-002  +1.0064369245E-002 +4.6298690180E+001  +9.4533597343E-003 +5.9817313880E+001  +8.3996248064E-001 -3.4586050820E+000 
13649824.781 +8.8016913781E-001 -2.8802816812E+000  +9.6214694743E-003 +4.1045794490E+001  +1.0295802040E-002 +4.7403248295E+001  +8.7589396215E-001 -3.3489528773E+000 
13774969.962 +8.8566071759E-001 -1.2828247391E+000  +9.4999534630E-003 +5.1601808231E+001  +8.8427730979E-003 +4.9847855322E+001  +8.7141163120E-001 -2.6000893939E+000 
13900115.144 +9.0604538529E-001 -3.5280025345E+000  +8.9711498814E-003 +5.1170066431E+001  +8.9686099671E-003 +4.8969376091E+001  +8.9885776451E-001 -3.9867395170E+000 
14025260.325 +9.0788647588E-001 -3.0334397457E+000  +1.0691022024E-002 +5.0195290994E+001  +1.1515661220E-002 +5.5387212254E+001  +9.1549047108E-001 -4.3649233684E+000 
14150405.507 +9.3195110708E-001 -3.7818085712E+000  +1.0979167256E-002 +3.9681412946E+001  +1.0145555152E-002 +5.0592285667E+001  +9.4248726268E-001 -4.6259964541E+000 
14275550.688 +9.3926069466E-001 -3.9264789669E+000  +1.0366353333E-002 +4.8942508024E+001  +8.3223546813E-003 +4.3992646175E+001  +9.6148997152E-001 -3.6290065131E+000 
14400695.870 +9.6896122424E-001 -5.2141591075E+000  +1.1480702323E-002 +4.6325554713E+001  +9.9285293124E-003 +4.2708532677E+001  +9.7481303947E-001 -6.2742625263E+000 
