!  2-Port S-parameters saved by WinCal
! VAR MeasName=S-Parameters (CALIBRATED_DATA) read from VNA (P5004A)
! VAR MeasDate=27/08/2024 16:47:36
! VAR NAME=S2_r2c9_RESET3_9k-100M_2
! VAR FILENAME=S2_r2c9_RESET3_9k-100M_2.S2P
! VAR DATE=27/08/2024 16:47:36
! VAR PHYS_PORTS=1,2
! VAR ObjTypeName=DATASET
! VAR IndexType=Frequency
!
# Hz S MA R 50
9000.000 +3.9235237988E-002 -1.6865071301E+002  +2.4571739592E-002 +1.6693620839E+002  +1.1513274961E-002 +1.6284176794E+002  +2.5238668237E-001 -1.2416690265E+002 
134145.181 +1.1066954111E-001 +1.6974859430E+002  +3.3773012232E-004 +8.3079992078E+001  +5.1742867449E-004 -8.4979685368E+001  +2.3637000356E-001 -1.6935823724E+002 
259290.363 +1.1193839980E-001 +1.6935770050E+002  +8.3209125292E-004 +5.0664689276E+001  +8.1875409039E-004 -1.0498226603E+002  +2.3722655211E-001 -1.6593409604E+002 
384435.544 +1.1260872083E-001 +1.6957771229E+002  +7.2417455311E-004 +6.9532247606E+001  +9.3242666921E-004 +1.6190436063E+002  +2.4097865257E-001 -1.6987544058E+002 
509580.726 +1.1511987186E-001 +1.7084034134E+002  +9.7535470486E-004 -4.3818129051E+000  +1.3642972882E-003 +1.6854079440E+001  +2.3811994414E-001 -1.6568574328E+002 
634725.907 +1.1394111941E-001 +1.7148069021E+002  +1.1713118500E-003 +3.2993102385E+001  +1.2982758831E-003 -7.3253221944E+001  +2.4355208670E-001 -1.6459263499E+002 
759871.089 +1.1572467243E-001 +1.7044269996E+002  +5.3129871757E-004 -4.1146616907E+001  +5.3729824866E-004 +6.4998110734E+001  +2.5182281372E-001 -1.6542366823E+002 
885016.270 +1.1867860888E-001 +1.6851351376E+002  +5.4206275748E-004 -1.3483988652E+002  +2.8507454469E-004 +1.2039994487E+002  +2.3364726967E-001 -1.6748164627E+002 
1010161.452 +1.1865289596E-001 +1.6997829574E+002  +2.1516303572E-003 -1.0573220854E+001  +1.0528447924E-003 -1.0692604296E+001  +1.7514321760E-001 -1.6101557649E+002 
1135306.633 +1.2030778618E-001 +1.6990998436E+002  +3.6555600327E-003 +1.5634384974E+002  +4.4422382402E-003 +3.1893369316E+001  +2.0580083371E-001 -1.2501575106E+002 
1260451.815 +1.2229995167E-001 +1.7124041603E+002  +5.6491311157E-004 +1.0958766296E+002  +2.3493704965E-003 +6.9183440654E+000  +1.8129129796E-001 -1.5017330609E+002 
1385596.996 +1.2729565917E-001 +1.7159535537E+002  +1.0100932355E-003 +1.1220800230E+002  +8.8658828815E-004 +5.9913671983E+001  +2.5238002914E-001 -1.5865936165E+002 
1510742.178 +1.2711091999E-001 +1.7150951188E+002  +4.3003890080E-004 -3.8408903840E+001  +8.6306515843E-004 +4.2529891709E+001  +2.5154299782E-001 -1.5822503883E+002 
1635887.359 +1.2871819619E-001 +1.6965980020E+002  +7.4789630502E-004 -1.5581099931E+002  +7.1759216362E-004 +6.7734166331E+001  +2.2559436792E-001 -1.5922833766E+002 
1761032.541 +1.2718388058E-001 +1.6952095830E+002  +1.8104509685E-003 +7.1690007382E+001  +1.9319522511E-003 -1.1521233635E+002  +2.1113686186E-001 -1.6299617949E+002 
1886177.722 +1.3186991664E-001 +1.6703543125E+002  +2.6118520484E-003 -1.5999619442E+002  +1.4204441494E-003 -8.8354213674E+001  +1.9937781505E-001 -1.6500513655E+002 
2011322.904 +1.2410670354E-001 +1.6314253183E+002  +2.5116268579E-003 -1.5403312537E+002  +3.1774023763E-003 -7.8820167820E-001  +1.9546836900E-001 -1.6280786064E+002 
2136468.085 +1.2141595343E-001 +1.6502784927E+002  +1.9900750196E-003 +1.5877849157E+002  +3.2219157209E-003 +1.0657205642E+002  +2.4038998355E-001 +1.4998056055E+002 
2261613.267 +1.3125464213E-001 +1.6491866914E+002  +3.3892416075E-003 -1.2458936725E+002  +2.6555075067E-003 +1.7677308648E+002  +2.0398917508E-001 +1.7452985582E+002 
2386758.448 +1.2529282880E-001 +1.6236177621E+002  +6.7126431536E-003 -1.7732899759E+001  +3.0817837752E-004 -1.7433543177E+001  +2.5978746115E-001 +1.5526154430E+002 
2511903.630 +1.3918320344E-001 +1.6375196721E+002  +3.3366667876E-003 -1.4815188699E+002  +3.3317431733E-003 +1.1558703410E+002  +2.3601354189E-001 +1.6631006071E+002 
2637048.811 +1.2862161469E-001 +1.6056892345E+002  +1.3083128559E-002 +1.6019326874E+002  +3.9322065773E-003 -5.8957755643E+001  +1.0171075054E-001 +1.0490484272E+002 
2762193.992 +9.5395671598E-002 +1.5826472864E+002  +2.4920970728E-002 +5.4659765795E+001  +1.8240501957E-002 -1.0983755768E+002  +9.8812256574E-001 -1.6505677843E+002 
2887339.174 +6.7604914282E-002 +1.6872762753E+002  +3.1234159712E-002 -6.8838146892E+001  +4.7718983799E-003 +1.4264807047E+001  +8.1979947286E-001 -9.6630814099E+001 
3012484.355 +1.3039247435E-001 +1.6744032433E+002  +1.5657788943E-002 +1.1768661746E+002  +1.4914222795E-002 -1.7847705191E+002  +4.0476901597E-001 -8.6298968705E+001 
3137629.537 +1.3966643127E-001 +1.7557668256E+002  +1.6191774923E-002 +1.1397944213E+002  +1.0971741442E-002 -1.5674773653E+002  +6.4572400213E-001 -4.0645461617E+001 
3262774.718 +1.2761606933E-001 +1.6336132474E+002  +8.7578990326E-003 -1.1175534768E+002  +2.1617832465E-002 -5.7996703688E+001  +4.7704517078E-001 -6.1734461689E+001 
3387919.900 +1.2007446750E-001 +1.5542728986E+002  +5.0890928306E-003 -1.2805170618E+002  +1.3948311978E-002 +1.6002848386E+002  +3.0648664501E-001 +1.0772511818E+002 
3513065.081 +1.3624611009E-001 +1.5413791915E+002  +6.1727383432E-003 -2.8300800702E+001  +1.4175187168E-002 -6.0908635160E+001  +4.0583489319E-001 +6.8557434503E+001 
3638210.263 +1.8514090089E-001 +1.4186551237E+002  +3.6152701872E-002 -4.2901907219E+001  +3.6829656112E-003 +7.7204612106E+001  +6.6080278625E-001 +1.2645958528E+002 
3763355.444 +1.9242439472E-001 +1.4638947739E+002  +1.6791834108E-002 -1.1329042118E+001  +1.1846212396E-002 -1.5066265371E+002  +1.2494769377E+000 +1.3673419967E+002 
3888500.626 +1.8519679268E-001 +1.4304860333E+002  +9.9511840485E-003 +2.3364403350E+001  +1.1052708581E-002 +7.9187462401E+001  +6.1851602190E-001 +1.2068113543E+002 
4013645.807 +1.6725855457E-001 +1.4665879641E+002  +1.9122838208E-002 +1.6371581951E+002  +4.2509370506E-003 +2.5426666321E+001  +2.9084149685E-001 +1.2487896941E+002 
4138790.989 +1.7601080921E-001 +1.5033478432E+002  +7.1336602454E-003 +1.5052323953E+002  +7.0963692399E-003 -6.4378378339E+000  +7.2190469746E-001 +1.3642318798E+002 
4263936.170 +1.6763676576E-001 +1.3680959411E+002  +5.6211270398E-002 +1.2245831676E+002  +4.8548479133E-002 -6.6923148816E+001  +1.4629601432E+000 +9.5124328662E+001 
4389081.352 +1.9012935204E-001 +1.4545543236E+002  +9.6476440980E-003 -1.6010198312E+002  +4.3951480635E-003 +1.3271959283E+002  +7.4477652193E-001 +1.2001619116E+002 
4514226.533 +2.3858254085E-001 +1.3856335313E+002  +1.5873688978E-002 +8.8011508541E+001  +2.9071483569E-002 +1.6312992741E+002  +2.1431213502E+000 +5.9008190715E+001 
4639371.715 +2.6552279251E-001 +1.3871756500E+002  +1.8737204033E-002 +1.1199803441E+002  +1.4553014980E-002 -9.6921324452E+001  +1.9622285059E+000 +1.1301850089E+002 
4764516.896 +3.7550050465E-001 +1.1051360825E+002  +4.0415958763E-002 -1.3169678961E+002  +6.2109665744E-003 +5.0411421158E+001  +2.2652808890E+000 +1.7994947794E+002 
4889662.078 +4.7175398583E-001 +1.2911094760E+002  +3.5843728392E-002 +1.1700052524E+002  +2.0160331565E-002 -4.3731912911E+001  +2.3327930747E+000 -1.1559464957E+002 
5014807.259 +4.6279101726E-001 +1.3313191222E+002  +1.5380452262E-002 -1.4041196016E+002  +6.7130728369E-002 +1.3222719629E+002  +3.6796234123E+000 +3.7809763836E+001 
5139952.441 +4.3607736072E-001 +1.3332918382E+002  +1.8585159366E-002 -3.6134412425E+001  +2.8985982091E-002 +1.6853076505E+002  +2.9804407370E+000 +1.7236807747E+002 
5265097.622 +4.5508947787E-001 +1.2691503783E+002  +2.7013732793E-002 -4.5475397020E+001  +4.0926389973E-002 -8.6445083166E+001  +3.1862645234E+000 +9.6725874710E+001 
5390242.804 +5.0301952563E-001 +1.3196305202E+002  +2.9055861352E-002 +4.4896192705E+000  +8.4846626255E-002 +5.4258141095E+001  +3.5288579212E+000 +4.6905886798E+001 
5515387.985 +4.3863694031E-001 +1.3153196199E+002  +2.6246144560E-002 +2.8937480839E+000  +3.6460299356E-002 +1.7641174718E+002  +2.1373326344E+000 +8.3295221158E+001 
5640533.166 +5.3353317285E-001 +1.2712964658E+002  +1.2490841399E-003 +2.2859040860E+001  +3.1434069746E-002 -1.4121818794E+002  +2.9125335191E+000 +1.2615297928E+002 
5765678.348 +5.3227304916E-001 +1.2144553168E+002  +1.5913143869E-002 -1.2873410468E+001  +1.3888504326E-002 +1.3369617380E+002  +2.1929937665E+000 +4.8790246947E+001 
5890823.529 +5.5980903487E-001 +1.2880168501E+002  +1.3814864776E-002 +1.5437536299E+002  +1.4015986729E-002 +9.5303946308E+001  +2.5612820795E+000 +6.3262037658E+001 
6015968.711 +7.1266775807E-001 +1.2102368194E+002  +1.8754304070E-002 +1.2968456684E+002  +1.6307265727E-002 +9.3281347617E+001  +2.1536368740E+000 +4.4172412748E+001 
6141113.892 +7.6449123736E-001 +1.0956171155E+002  +1.6437168719E-002 +1.1406061491E+002  +3.1449617436E-002 +1.5756014836E+002  +1.7104292705E+000 +3.3052412152E+001 
6266259.074 +9.4944328448E-001 +1.2162647474E+002  +1.6138063477E-002 -1.5417320168E+001  +1.4798626426E-002 +6.7677160083E+001  +1.9658905125E+000 +2.2900765296E+001 
6391404.255 +1.1128657552E+000 +1.0197425550E+002  +1.9655441241E-002 +1.2567250833E+002  +3.2577845935E-002 +1.7751648960E+002  +1.3964314177E+000 +7.1835696431E+000 
6516549.437 +1.2806364491E+000 +8.8115187395E+001  +4.3625091848E-002 +5.7388034380E+001  +2.8835361280E-002 +1.2806442401E+002  +1.7856510178E+000 -2.2466897731E+000 
6641694.618 +1.5589752519E+000 +7.6657911496E+001  +2.5128093223E-002 +9.2303812282E+000  +7.3494836882E-003 +1.5949635368E+002  +1.3415002187E+000 -8.8389752030E+000 
6766839.800 +1.6178458342E+000 +5.3567857914E+001  +1.8021217190E-002 -6.3163839013E+001  +2.6271218506E-002 -1.3837510035E+002  +1.2413596769E+000 -5.1920902447E+000 
6891984.981 +1.8460450115E+000 +3.7865264785E+001  +7.5101326084E-003 +1.1394619963E+002  +9.8093795269E-003 -1.5900619561E+002  +1.3354091392E+000 -1.0520931313E+001 
7017130.163 +1.8337028826E+000 +3.6688524575E+001  +2.2330635906E-002 +1.2602752869E+002  +8.2224828604E-003 +1.1585369004E+002  +1.4673482937E+000 -1.1715782127E+001 
7142275.344 +1.6810617639E+000 +8.8151126712E+000  +4.5172363172E-003 +8.4682397593E+001  +2.8649600142E-002 +6.2367401012E+001  +1.3084944492E+000 -1.0962588784E+001 
7267420.526 +1.7252067455E+000 +2.3427458186E+000  +9.9537338710E-003 +7.5239993220E+000  +1.9583961031E-002 +9.5689125314E+001  +1.4181896733E+000 -1.1558788399E+001 
7392565.707 +1.2924423132E+000 +1.6756021300E+000  +7.1795943632E-003 +7.4827369698E+001  +1.0196383480E-002 -1.6609579316E+002  +1.3951660502E+000 -1.2046709534E+001 
7517710.889 +1.3083984411E+000 +5.1468694587E+000  +5.5453726817E-003 +9.5539207714E+000  +6.5987301139E-003 +2.5409262895E+001  +1.1789401391E+000 -4.8459764607E+000 
7642856.070 +1.1061467468E+000 +5.1515153146E+000  +1.2810224494E-003 -9.6006598615E+001  +6.8976191961E-003 +1.0122190874E+002  +1.0401137359E+000 -2.3222147580E+000 
7768001.252 +9.9974090765E-001 +1.7637195198E+000  +3.6278867804E-003 +6.6705237011E+001  +9.2669015796E-003 +1.2165450064E+002  +1.0255495292E+000 -1.0371865899E+001 
7893146.433 +9.5927746991E-001 -1.8095965277E+000  +7.2121500680E-003 +2.9720710192E+001  +5.8859675678E-003 +1.0831868832E+002  +8.6571240895E-001 -4.2964877801E+000 
8018291.615 +8.2828020146E-001 +7.4472873764E-001  +2.6790783329E-003 +3.1409548173E+001  +1.2478099582E-003 +1.1511743568E+002  +8.6070624834E-001 -6.9594848849E+000 
8143436.796 +7.8619363729E-001 +6.6625667477E+000  +2.9329597564E-003 +8.5406136249E+001  +3.2070978807E-003 +5.1886260536E+001  +8.1478151690E-001 +4.6794615885E+000 
8268581.977 +7.7717876591E-001 +3.1874047860E+000  +2.6575743431E-003 +8.9834026683E+001  +8.5275336021E-003 +1.2568716034E+002  +7.8831113216E-001 -1.8922592924E+000 
8393727.159 +6.6709843347E-001 +4.3193725661E+000  +3.3239236903E-003 +5.2931291292E+001  +3.3503836431E-003 +6.7504445574E+001  +7.2164058970E-001 +1.1269952278E+000 
8518872.340 +6.8317080433E-001 +7.0045247047E+000  +6.6024897576E-003 +5.1567426075E+001  +3.8066468039E-003 +1.1599358411E+002  +7.6954231313E-001 -9.6380526731E-001 
8644017.522 +6.2979461664E-001 +5.5584516439E+000  +4.2128372813E-003 +1.5465977999E+001  +3.5131483799E-003 +8.8252137964E+001  +6.6847105175E-001 -3.9700404078E-001 
8769162.703 +6.2544702849E-001 +7.8431151260E+000  +5.8902833277E-003 +3.7091169301E+001  +2.3805394547E-003 +5.9281452898E+001  +7.2179433998E-001 -1.9137348053E-001 
8894307.885 +5.0236725657E-001 +6.4068559103E+000  +5.0496460332E-003 +9.6206852698E+001  +4.9907181885E-003 +1.2945975517E+000  +6.8048555323E-001 -1.9809845510E+000 
9019453.066 +6.1954845839E-001 +6.8849322018E+000  +2.8161102521E-003 +1.2515797964E+002  +2.4313542922E-003 +9.8730365550E+001  +6.7758708257E-001 -3.5755672593E+000 
9144598.248 +5.5572864457E-001 +4.4839008173E-001  +3.0281489086E-003 +3.1399513057E+001  +3.3089455373E-003 +8.2975095413E+001  +6.1389811872E-001 -1.5981498411E+000 
9269743.429 +6.1159327437E-001 +6.9191588438E+000  +4.5270697216E-003 +8.1969220579E+001  +3.4192499198E-003 +5.5276882971E+001  +5.7015277972E-001 +3.2667284472E+000 
9394888.611 +5.9518092980E-001 +3.3486108410E+000  +4.7620858166E-003 +6.5092710135E+001  +5.8124535749E-003 +7.7649327833E+001  +6.3777795621E-001 +1.5233144866E+000 
9520033.792 +5.3358887419E-001 -2.1216317530E+000  +2.4537831784E-003 +8.6896022486E+001  +3.8356930299E-003 +6.8173549002E+001  +5.8917552029E-001 +1.4994944711E+000 
9645178.974 +5.5601959648E-001 +3.9673065574E+000  +5.9785008338E-003 +9.4524972230E+001  +5.3943743024E-003 +1.1803770133E+002  +5.6436783035E-001 -7.8702108322E+000 
9770324.155 +5.1582417515E-001 -2.0957428111E+000  +4.1975649496E-003 +1.2241760601E+002  +3.8508931561E-003 +1.2771143638E+002  +5.8114276717E-001 -5.1927194801E+000 
9895469.337 +5.5792762690E-001 +1.3840132888E-001  +3.1839782452E-003 +7.7700810874E+001  +6.9299038032E-003 +1.3061919739E+002  +5.3997842238E-001 -8.2250633784E+000 
10020614.518 +5.3499305160E-001 +1.1372345479E+000  +5.4681531376E-003 +1.0449047801E+002  +1.4311588885E-003 +1.1599122378E+002  +5.4406350213E-001 -4.5372647944E+000 
10145759.700 +5.9646239404E-001 +5.8461505262E+000  +4.4633448481E-003 +5.1328946130E+001  +5.7274364265E-003 +9.7798229721E+001  +6.1256719206E-001 -6.2901766213E+000 
10270904.881 +5.6422296283E-001 +5.2518243557E+000  +7.0555547027E-003 +1.0160522501E+002  +4.4065878904E-003 +8.6165027347E+001  +5.7635749306E-001 -3.5594073254E+000 
10396050.063 +5.7590134061E-001 +4.1567516411E+000  +2.5980331853E-003 +1.1216197083E+002  +7.1759549603E-003 +1.1522753990E+002  +6.2580291504E-001 -2.9716975314E+000 
10521195.244 +5.7508446631E-001 +5.9347577550E+000  +2.9255616657E-003 +8.6142792928E+001  +4.8451124980E-003 +1.1486703962E+002  +5.7702555306E-001 -4.4298234216E-001 
10646340.426 +5.6002833833E-001 +4.7447563678E+000  +5.0996192006E-003 +1.0665546864E+002  +6.3756649643E-003 +9.9809792815E+001  +5.6011686907E-001 +3.3754439324E+000 
10771485.607 +5.6427959396E-001 +6.7183845230E+000  +4.4675115375E-003 +8.2457897440E+001  +6.5245416919E-003 +1.0194308607E+002  +6.1900120696E-001 +1.8296957751E-001 
10896630.788 +5.9100069295E-001 +5.4165916045E+000  +5.8518629509E-003 +6.2670458375E+001  +5.2490552004E-003 +1.1295779222E+002  +5.8981095894E-001 -4.1538589425E+000 
11021775.970 +5.9372612661E-001 +7.0805844782E+000  +2.8633342273E-003 +9.5003021437E+001  +4.2501066596E-003 +1.0603514299E+002  +6.1118393200E-001 +1.1199494962E+000 
11146921.151 +5.5740595037E-001 +4.9974624147E+000  +4.5960878418E-003 +1.0325392873E+002  +4.0263944638E-003 +8.5546296944E+001  +6.1388069908E-001 +5.2476379934E+000 
11272066.333 +5.8959576758E-001 +5.6684410647E+000  +3.1264493305E-003 +7.2010432837E+001  +5.8178060237E-003 +1.1141058353E+002  +6.2136590556E-001 +7.4701104245E-001 
11397211.514 +5.8209962506E-001 +5.0753990149E+000  +3.9368956056E-003 +5.2008432283E+001  +4.5915919498E-003 +1.2893652979E+002  +6.3519153920E-001 +9.1720099151E-002 
11522356.696 +6.3022740216E-001 +4.6392149318E+000  +6.0949174408E-003 +7.6208448644E+001  +4.4719837862E-003 +8.1565162136E+001  +6.4806071097E-001 +1.5043705398E+000 
11647501.877 +6.1936683923E-001 +5.1590168814E+000  +4.1149468205E-003 +9.9562957544E+001  +4.9508838172E-003 +8.6670331743E+001  +6.2533956376E-001 +1.7499573002E-001 
11772647.059 +6.4006467957E-001 +5.5433312823E+000  +4.2451164226E-003 +8.1933317377E+001  +5.3313707132E-003 +9.8994907359E+001  +6.8127638289E-001 +5.4917445425E-001 
11897792.240 +6.6124308430E-001 +4.6578221880E+000  +5.3457074192E-003 +9.6668808957E+001  +5.8720756213E-003 +9.3242702076E+001  +6.6407829469E-001 +6.6658193253E-001 
12022937.422 +6.7001605725E-001 +6.0964457915E+000  +5.9928006112E-003 +9.0933023527E+001  +6.7974533439E-003 +9.4299482558E+001  +6.8264798861E-001 +2.3690486732E+000 
12148082.603 +6.6850282667E-001 +4.6938573893E+000  +5.6429053670E-003 +9.1595652062E+001  +6.5892107511E-003 +1.0942242149E+002  +6.8397661228E-001 +1.0281086856E+000 
12273227.785 +6.8984808802E-001 +3.4028888678E+000  +7.0328480525E-003 +8.5737939073E+001  +5.4516689396E-003 +9.5144738890E+001  +7.2392831653E-001 +7.7174130829E-001 
12398372.966 +7.2080778096E-001 +1.8559355720E+000  +6.9775479530E-003 +9.7651816067E+001  +4.7518317166E-003 +9.6496876177E+001  +7.2429107654E-001 +6.3396093932E-001 
12523518.148 +7.4203929167E-001 +2.7605921213E+000  +7.0079706279E-003 +9.5082381688E+001  +6.0285470105E-003 +8.2090034592E+001  +7.5345206507E-001 +1.4240074719E-001 
12648663.329 +7.3139142098E-001 +1.9595691923E+000  +6.1318942704E-003 +8.5233334630E+001  +5.2747691701E-003 +7.9397496977E+001  +7.4432579871E-001 -9.8617067619E-001 
12773808.511 +7.3012580694E-001 +1.2744876595E+000  +6.7496888833E-003 +8.2642404031E+001  +6.4176689357E-003 +1.0350063729E+002  +7.8851073456E-001 -2.4200656286E+000 
12898953.692 +7.5588901826E-001 +1.1375427448E+000  +5.8399238475E-003 +7.1093712569E+001  +7.0973518548E-003 +8.5949784120E+001  +7.7674483267E-001 -1.8255071255E+000 
13024098.874 +7.8012667448E-001 +2.0309504691E+000  +5.8054584278E-003 +9.5952895462E+001  +6.1794848388E-003 +1.1362616481E+002  +8.1411952271E-001 -1.1115114161E+000 
13149244.055 +8.1532176708E-001 +1.1070799605E+000  +8.1037800031E-003 +9.0346940212E+001  +8.1948294719E-003 +9.2247732128E+001  +8.2354195384E-001 -1.6177687084E+000 
13274389.237 +8.2313501491E-001 -1.4276679043E+000  +7.0362314219E-003 +9.5770562489E+001  +4.8424065978E-003 +8.5850842208E+001  +8.4604132367E-001 -1.8634006511E+000 
13399534.418 +8.4500691111E-001 +6.6221996585E-002  +6.8335985870E-003 +1.0198696745E+002  +7.4133479491E-003 +1.0428725365E+002  +8.5043348638E-001 -3.5612168638E+000 
13524679.599 +8.6221585160E-001 -9.1599593899E-001  +7.2681147376E-003 +1.0091554451E+002  +5.9790005850E-003 +9.4432447023E+001  +8.7737751244E-001 -3.0540920424E+000 
13649824.781 +8.4810943943E-001 -2.3698165191E+000  +7.2162951225E-003 +9.4776660480E+001  +5.8628901862E-003 +1.0023448630E+002  +8.9312594905E-001 -1.9551244122E+000 
13774969.962 +8.9399028057E-001 -3.3659359754E+000  +7.4145491979E-003 +9.6548903557E+001  +8.8407222680E-003 +8.7536330947E+001  +9.1421676439E-001 -3.6055917165E+000 
13900115.144 +9.0614798202E-001 -2.6554363638E+000  +6.5607413422E-003 +9.5782574360E+001  +7.1142618410E-003 +9.1676913941E+001  +9.4625618063E-001 -3.9424317481E+000 
14025260.325 +9.0018869145E-001 -3.6362784777E+000  +7.6840596213E-003 +9.7132056093E+001  +6.4666472871E-003 +9.7952271318E+001  +9.2586754088E-001 -4.3927682163E+000 
14150405.507 +9.5550330172E-001 -3.8326124091E+000  +7.9460788634E-003 +9.5189968949E+001  +5.7694682010E-003 +8.8446041245E+001  +9.4960821005E-001 -3.4261792056E+000 
14275550.688 +9.4597922268E-001 -4.7163641246E+000  +7.1732134116E-003 +9.9256774402E+001  +6.5026943019E-003 +7.8247186553E+001  +9.6635397549E-001 -4.2941850416E+000 
14400695.870 +9.6274956192E-001 -4.8211118914E+000  +6.9657422662E-003 +9.9250849014E+001  +7.7434729834E-003 +9.8600384273E+001  +9.7780075017E-001 -4.2788064012E+000 
