!  2-Port S-parameters saved by WinCal
! VAR MeasName=S-Parameters (CALIBRATED_DATA) read from VNA (P5004A)
! VAR MeasDate=27/08/2024 15:01:29
! VAR NAME=S2_r3c8_SET1_9k-100M_3
! VAR FILENAME=S2_r3c8_SET1_9k-100M_3.S2P
! VAR DATE=27/08/2024 15:01:29
! VAR PHYS_PORTS=1,2
! VAR ObjTypeName=DATASET
! VAR IndexType=Frequency
!
# Hz S MA R 50
9000.000 +5.8073121804E-002 -1.3596757379E+002  +4.7956877114E-002 -9.3228309193E+001  +2.7685693954E-002 -1.7458848645E+002  +2.5184539448E-001 -8.4746179264E+001 
134145.181 +1.0969120997E-001 +1.6976899937E+002  +8.3876845350E-004 -1.3624083086E+002  +4.0590623813E-004 -1.7810691704E+001  +2.4223887738E-001 -1.7026008352E+002 
259290.363 +1.1211799388E-001 +1.6969233956E+002  +3.7624174290E-004 -9.6291500111E+001  +2.9342496878E-004 +1.2151406636E+002  +2.4404625149E-001 -1.6903314632E+002 
384435.544 +1.1278494253E-001 +1.6945779888E+002  +8.9663764181E-004 -1.2999447082E+002  +1.1202668583E-003 +1.4957981006E+002  +2.4968003628E-001 -1.6809292675E+002 
509580.726 +1.1511449222E-001 +1.7057342534E+002  +1.0654119404E-003 -1.4243139576E+002  +3.9079600341E-004 +9.4049568652E+001  +2.4655839016E-001 -1.6819583633E+002 
634725.907 +1.1845762288E-001 +1.7180563261E+002  +6.0017888682E-004 -8.5921843817E+001  +7.1531786693E-004 -1.7737599464E+002  +2.5376847904E-001 -1.6530996773E+002 
759871.089 +1.1636711136E-001 +1.7236157049E+002  +9.2644749641E-004 +1.6126772910E+002  +3.6309880427E-004 -4.7426029807E+001  +2.4464212403E-001 -1.6615505931E+002 
885016.270 +1.1782501358E-001 +1.6848075688E+002  +4.3776746966E-004 -1.0185576900E+002  +3.4375645896E-004 -9.3240951689E+001  +2.4461769345E-001 -1.6450873357E+002 
1010161.452 +1.1697621437E-001 +1.7148333392E+002  +8.1509806873E-004 -1.5614976224E+002  +1.1728113936E-003 +1.7537550171E+002  +2.0036450385E-001 -1.5904556212E+002 
1135306.633 +1.1714672146E-001 +1.6989751278E+002  +9.6822725687E-004 -5.4778884183E+001  +3.9548700794E-004 -3.6247666300E+001  +1.4291789307E-001 -1.6589038535E+002 
1260451.815 +1.2240294557E-001 +1.7103472539E+002  +2.3293979974E-003 -1.8309735098E+001  +6.7103202611E-004 -1.1346254046E+002  +2.0448823931E-001 -1.5521453437E+002 
1385596.996 +1.2578022081E-001 +1.7082608898E+002  +5.7659691933E-005 -1.6392508004E+002  +7.7396756865E-004 +1.0706039197E+002  +2.5895454255E-001 -1.5939223771E+002 
1510742.178 +1.2752237742E-001 +1.7060725722E+002  +1.0041505815E-003 +8.6330304236E+001  +1.2315443219E-003 -1.9552535288E+001  +2.5297661612E-001 -1.5984626164E+002 
1635887.359 +1.2785135907E-001 +1.7073610064E+002  +4.8751361042E-004 +2.8788553221E+001  +1.4035007658E-003 -1.4120340495E+001  +2.3569074134E-001 -1.5896178768E+002 
1761032.541 +1.2652566625E-001 +1.6877601703E+002  +1.8400884914E-003 -4.8503486429E+001  +8.7308857338E-004 +1.1501954023E+002  +2.1995715473E-001 -1.5600780923E+002 
1886177.722 +1.2753776443E-001 +1.6851143029E+002  +2.3762535586E-003 +4.8229762879E+001  +1.9438798315E-003 +4.3663292025E+000  +2.0414523820E-001 -1.6849411982E+002 
2011322.904 +1.2937742932E-001 +1.6845163783E+002  +2.9149494801E-003 +1.2978833161E+002  +3.9530153346E-003 -9.0704543978E+001  +1.8416435879E-001 -1.7913669632E+002 
2136468.085 +1.3341730602E-001 +1.6451488469E+002  +4.3774656938E-003 -2.4916959219E+001  +4.2013158831E-003 +2.8044190633E+001  +3.1311863220E-001 +1.2287767579E+002 
2261613.267 +1.2637192271E-001 +1.6498822822E+002  +5.5680577835E-003 +1.4834560743E+002  +3.8672367400E-003 -2.6875840302E+001  +1.8165687969E-001 +1.5885117857E+002 
2386758.448 +1.3797661826E-001 +1.6215428169E+002  +7.3698417183E-003 +8.4625932127E+001  +2.0390150631E-003 +1.7742081247E+001  +1.8767352961E-001 +1.7047666588E+002 
2511903.630 +1.3918861935E-001 +1.6129630006E+002  +6.6005046748E-003 +7.8766312169E+001  +6.2248289720E-003 -2.8512696235E+001  +1.1476950184E-001 +1.6339693450E+002 
2637048.811 +1.2037933309E-001 +1.5311964175E+002  +8.0183727024E-003 +6.5827880937E+001  +8.1560485482E-003 -3.8939333620E+001  +2.2310155463E-001 +1.7802102191E+002 
2762193.992 +1.1462338112E-001 -1.7579992922E+002  +5.3235739364E-002 -9.3922212942E-001  +1.0151965589E-001 -1.0508783557E+002  +9.0446477974E-001 +5.7541886410E+001 
2887339.174 +1.0928699046E-001 +1.6854892558E+002  +6.8588981743E-002 -1.6228433001E+001  +6.9497692575E-002 -1.2492185258E+002  +6.1348010454E-001 +2.8300690352E+001 
3012484.355 +1.0775051656E-001 +1.7592612384E+002  +3.8018096661E-002 -3.7931495955E+000  +6.2999001430E-002 -1.7556313420E+002  +9.4214081036E-001 -3.7889982073E+001 
3137629.537 +1.3187030359E-001 +1.7076679268E+002  +1.5171027099E-002 -3.3585031296E+001  +2.0693051571E-002 -1.2374980091E+002  +1.3329879940E-001 -4.7546643448E+001 
3262774.718 +1.1398536211E-001 +1.6136852599E+002  +1.6773477884E-002 -5.7792344395E+001  +2.4691682755E-002 -1.2892020232E+002  +4.6588503537E-001 -9.0586763463E+001 
3387919.900 +1.3179907312E-001 +1.3470142162E+002  +3.7943641525E-002 +1.4378202420E+001  +2.1078483867E-002 -5.1922972600E+001  +1.7261326985E-001 -7.1395116526E+001 
3513065.081 +1.4751154784E-001 +1.5262198472E+002  +6.8347118358E-003 +3.6783129058E+000  +1.8932553004E-002 -4.5229136348E+000  +7.1304870017E-002 +1.3594833107E+002 
3638210.263 +1.5241428511E-001 +1.5101037668E+002  +1.8364194842E-002 +9.2826227953E+001  +1.4838795227E-002 -2.4153453174E+001  +3.6947623092E-001 +1.2594099499E+002 
3763355.444 +1.7502593418E-001 +1.4764200245E+002  +4.8252557154E-002 +7.1389418323E+001  +5.5878227639E-002 +4.7129111104E+000  +6.1300579345E-001 +6.4164758263E+001 
3888500.626 +2.0237551880E-001 +1.4474718530E+002  +3.4040955964E-002 +9.2721535624E+001  +3.0329346747E-002 +2.0041136453E+001  +4.8183173499E-001 +7.2381982084E+001 
4013645.807 +1.5026749147E-001 +1.4606053250E+002  +3.2603059819E-002 +3.3398785894E+001  +2.3629705297E-002 -2.8108819423E+001  +2.7605985938E-001 +7.7325445742E+001 
4138790.989 +1.7702251761E-001 +1.4380847710E+002  +2.4725994725E-002 +5.9709559600E+001  +2.3078325749E-002 +5.3720255638E+000  +2.9943002103E-002 +7.9396598304E+001 
4263936.170 +1.9973862205E-001 +1.4952794558E+002  +2.0369202934E-002 +8.2002909398E+001  +1.6040634883E-002 -2.1060870052E+000  +2.0967497313E-001 +1.1294489412E+002 
4389081.352 +2.0103482025E-001 +1.4072172771E+002  +3.4126231521E-002 +5.3097097217E+001  +4.1238863984E-002 +1.0676736417E+001  +5.0090601379E-001 +7.1046881862E+001 
4514226.533 +1.8985505133E-001 +1.2788007786E+002  +4.4178268569E-002 +9.1234970076E+001  +3.0130495292E-002 +2.8591817841E+001  +4.7077934096E-001 +1.3884219905E+002 
4639371.715 +2.7477267113E-001 +1.4004574224E+002  +4.8732801738E-002 +1.2542879249E+002  +1.5855085332E-002 +3.4249136590E+001  +6.9608136669E-001 +1.1165937159E+002 
4764516.896 +3.9064917147E-001 +1.3456225817E+002  +1.4335407886E-001 +1.0624788904E+002  +9.7531348076E-002 +7.0894232927E+001  +1.6707404218E+000 +6.0225892258E+001 
4889662.078 +4.9516788659E-001 +1.2556138128E+002  +2.4521841529E-001 -6.0767463523E+000  +2.4048191345E-001 -7.4532897742E+001  +3.1378829738E+000 -9.4790146939E+001 
5014807.259 +4.0998400182E-001 +1.1466668301E+002  +2.5147724174E-001 +1.4043623869E+002  +3.2207328321E-001 +1.1104316642E+002  +3.1404393916E+000 +1.1407024020E+002 
5139952.441 +3.9898657364E-001 +1.3189734810E+002  +1.0931886649E-001 +1.4313636436E+002  +1.2981597332E-001 +1.0967068339E+002  +2.2116222194E+000 +1.2374808389E+002 
5265097.622 +3.7314396466E-001 +1.2639240722E+002  +1.0780341792E-001 +1.2929781463E+002  +1.1482901499E-001 +8.2518280574E+001  +1.8427165963E+000 +1.0920236363E+002 
5390242.804 +3.9120550212E-001 +1.2807576523E+002  +9.0999182296E-002 +1.2401432670E+002  +8.2733945084E-002 +7.2267273797E+001  +1.7704107665E+000 +1.1075209751E+002 
5515387.985 +4.3350594776E-001 +1.3179387181E+002  +8.9682030391E-002 +1.4730152799E+002  +8.3961986873E-002 +1.0576479336E+002  +2.1622564251E+000 +1.2545366619E+002 
5640533.166 +4.2745933053E-001 +1.2364799059E+002  +1.0027702693E-001 +6.2755081908E+001  +7.4181809979E-002 +3.3651267802E+001  +1.5202475109E+000 +4.4801017696E+001 
5765678.348 +5.6380703271E-001 +1.2211065550E+002  +1.1469693857E-001 +1.1977605591E+002  +1.1395899932E-001 +8.0313749718E+001  +1.9040364500E+000 +9.9506085238E+001 
5890823.529 +4.8971622119E-001 +1.2367479560E+002  +1.0492682198E-001 +8.9849393882E+001  +8.9378450314E-002 +7.4937001565E+001  +1.9980503747E+000 +8.7916327447E+001 
6015968.711 +6.3971149584E-001 +1.2190438224E+002  +9.4945728098E-002 +8.0786758828E+001  +7.5466840117E-002 +6.1222461825E+001  +1.3198212948E+000 +5.5516422136E+001 
6141113.892 +6.6526848377E-001 +1.1588670455E+002  +1.2195351400E-001 +6.6555040086E+001  +1.3538771666E-001 +4.4611026351E+001  +2.2367493454E+000 +3.0695512121E+001 
6266259.074 +7.8565096932E-001 +1.0064471547E+002  +1.1609051843E-001 +4.9273156535E+001  +1.1668713419E-001 +3.3327829470E+001  +1.4539719555E+000 +2.3867668299E+001 
6391404.255 +7.3907249012E-001 +8.4898561117E+001  +1.2718117261E-001 +2.1581171839E+001  +1.2914955776E-001 -2.8749385680E-001  +1.8410843241E+000 +2.8970852044E+000 
6516549.437 +1.1666410001E+000 +8.3265832173E+001  +1.2773208801E-001 +3.9689965081E+001  +1.3162058788E-001 +3.7366093184E+001  +1.2377239968E+000 +1.4168317789E+001 
6641694.618 +1.3668339336E+000 +6.7095878006E+001  +1.6042297180E-001 +2.5942455748E+001  +1.5052811619E-001 +1.7956743580E+001  +1.5829728180E+000 +1.0610690579E+001 
6766839.800 +1.3447068530E+000 +5.9779883969E+001  +1.4295030039E-001 +2.6773509248E+001  +1.2128910288E-001 +1.0783672075E+001  +1.2330382984E+000 +1.3943890964E+000 
6891984.981 +1.6923255667E+000 +3.4149585352E+001  +1.4098436766E-001 +7.0486113830E+000  +1.3237254523E-001 +5.6011471514E+000  +1.3912891017E+000 -4.3938925508E+000 
7017130.163 +1.7038417619E+000 +2.0900341106E+001  +1.3202270667E-001 +5.8290754635E+000  +1.1916316309E-001 -3.3855419543E+000  +1.3497915952E+000 +2.6910445078E+000 
7142275.344 +1.3090415578E+000 +8.2138130143E+000  +1.0407369018E-001 -3.3673507673E-001  +9.1846553549E-002 -5.8554334420E-001  +1.2319449936E+000 -1.0067472710E+001 
7267420.526 +1.3654708120E+000 +3.4890448052E-001  +8.2982181818E-002 +6.9265620974E+000  +8.9224967666E-002 -7.0386941735E+000  +1.1683964255E+000 -7.4111043169E+000 
7392565.707 +1.2926488861E+000 -1.0798488472E+000  +6.3655807001E-002 +6.4993726262E+000  +6.4791359849E-002 +1.7707351319E+001  +1.1569601911E+000 -6.6899087658E+000 
7517710.889 +9.6694112548E-001 +5.2456837656E+000  +5.5183985902E-002 -1.6341182543E+000  +6.7248902243E-002 +1.1290694594E+001  +1.1990390119E+000 -6.8545523437E+000 
7642856.070 +9.5183416606E-001 -9.7990275102E-001  +6.1169253302E-002 +4.5587250989E+000  +5.9999448043E-002 +2.1733821164E+001  +1.0271559614E+000 -9.8430366715E-002 
7768001.252 +9.4157929228E-001 +5.3300664758E+000  +5.5531380826E-002 +6.8755836478E+000  +5.4379142466E-002 +8.1224871089E+000  +9.1122184300E-001 -7.1358759374E+000 
7893146.433 +8.7991345495E-001 -1.4850028236E+000  +5.3772276505E-002 -6.9323454814E+000  +5.8517625957E-002 +1.4978802606E+000  +8.3479411177E-001 -6.0895614736E+000 
8018291.615 +7.4542387328E-001 -2.1883046996E+000  +5.2442594483E-002 -4.5154156002E+000  +4.9923218489E-002 +7.6254297360E+000  +8.6082869606E-001 -3.2249906490E+000 
8143436.796 +7.1707981422E-001 +6.1998898637E+000  +5.3958507611E-002 -4.0283318170E+000  +4.8562964442E-002 +8.9141098348E+000  +7.3040049422E-001 +1.3274844222E+000 
8268581.977 +7.3347387042E-001 +9.0412060938E+000  +4.8721118403E-002 +3.8531195106E+000  +4.6687372304E-002 +1.0032686646E+001  +6.9410522906E-001 +9.1482596235E-001 
8393727.159 +5.8583659528E-001 -1.5947792668E+000  +4.9456940591E-002 +7.3265903437E-001  +5.1869735030E-002 +8.0167979971E+000  +7.0141857490E-001 +1.3571187660E+000 
8518872.340 +6.6383928353E-001 +9.8270543088E+000  +5.0791693404E-002 +2.0512925418E-001  +4.5222291911E-002 +1.2582499293E+001  +7.2864989545E-001 +4.7259937832E+000 
8644017.522 +6.3654959270E-001 +5.1432978304E+000  +4.7470991191E-002 +1.8144450113E+000  +5.0508287428E-002 +1.2971226105E+001  +6.4739209346E-001 -3.0711017087E+000 
8769162.703 +6.3833217790E-001 +4.5872027491E+000  +4.8893647300E-002 -8.5742828545E+000  +4.7405250740E-002 +1.1071608940E+001  +5.9438726447E-001 -2.9949479658E+000 
8894307.885 +5.3948181387E-001 +5.3984020615E+000  +4.5931545262E-002 +2.9114049615E+000  +4.6505993504E-002 +1.0110580290E+001  +6.0520437711E-001 +1.3349298495E-001 
9019453.066 +5.4868767166E-001 +4.6294518833E+000  +4.5309215672E-002 -2.0117230901E-001  +4.6725918471E-002 +8.7937297182E+000  +5.6830581166E-001 +1.8376041971E+000 
9144598.248 +5.5816769348E-001 +2.4352026180E+000  +4.9302312125E-002 -6.8746470141E-001  +4.5517502484E-002 +1.7220202143E+001  +6.2131563276E-001 +4.9161341415E+000 
9269743.429 +5.6010445728E-001 +3.3571817207E+000  +4.6343637045E-002 -2.3240840759E-001  +4.5357061728E-002 +1.8407606484E+001  +5.9683395477E-001 -3.7971334008E+000 
9394888.611 +5.2452828723E-001 +4.3011458938E+000  +4.4205963635E-002 -1.0254770949E-001  +4.6127247720E-002 +1.2854635837E+001  +5.7472141751E-001 +5.1820027852E-001 
9520033.792 +5.4742299202E-001 +3.7112290244E+000  +4.7116826651E-002 -2.4768284506E+000  +4.3416782792E-002 +1.6823159926E+001  +5.2446977147E-001 -3.9587499495E+000 
9645178.974 +5.2079046905E-001 +5.1486279394E+000  +4.7356945686E-002 +3.7920315176E+000  +4.7297105208E-002 +1.7938207593E+001  +5.5980860261E-001 -5.9821336038E+000 
9770324.155 +5.0770359282E-001 -3.3021819433E+000  +4.5935076332E-002 +1.8046155885E-001  +4.3991534631E-002 +1.6381722109E+001  +5.1666748782E-001 -8.6363745673E+000 
9895469.337 +4.9201199414E-001 +1.4923512282E-001  +4.9452741655E-002 -4.4770156940E-001  +4.9808895513E-002 +1.8490549160E+001  +5.2562287114E-001 -3.7560929225E+000 
10020614.518 +4.5184828720E-001 +1.4209726397E-001  +4.6987503607E-002 -1.8135643643E+000  +4.7632105451E-002 +1.2879568682E+001  +5.1269568274E-001 -6.0131583585E+000 
10145759.700 +5.1877387604E-001 +3.8626850651E+000  +4.7961176481E-002 -6.4440907258E-001  +4.8510384511E-002 +1.6379924524E+001  +5.3834932043E-001 -3.3801487812E+000 
10270904.881 +4.7730356839E-001 +1.9024779259E+000  +4.6239094109E-002 -7.3716926361E-001  +4.3901757345E-002 +1.5431827641E+001  +5.3199364906E-001 -7.7564283405E+000 
10396050.063 +4.7344559908E-001 +4.6961699189E+000  +4.8204960684E-002 +2.8542332461E+000  +4.5437279281E-002 +1.5399597779E+001  +5.3816873966E-001 -2.1435899547E-001 
10521195.244 +4.8535897841E-001 +4.1517132934E+000  +4.6335928312E-002 +3.5194350058E+000  +4.6927385979E-002 +1.7334994669E+001  +5.5561503217E-001 +1.5207780484E+000 
10646340.426 +5.0550394653E-001 +4.0693949161E+000  +4.6545911897E-002 +2.2778858588E+000  +4.6469592736E-002 +1.7345747725E+001  +5.6894807340E-001 +3.0494975698E+000 
10771485.607 +5.4168933671E-001 +7.8233325963E+000  +4.7908694217E-002 +4.0518390843E+000  +4.6470730283E-002 +1.8914703487E+001  +5.6107226078E-001 -7.8278982542E-001 
10896630.788 +4.9995974217E-001 +4.6518371138E+000  +4.9995695235E-002 +3.3260334512E+000  +4.7331723067E-002 +1.8197472178E+001  +5.6570983095E-001 -1.6218210280E+000 
11021775.970 +5.2003127880E-001 +7.3849264206E+000  +4.8863861313E-002 +3.6628207732E+000  +5.1890172708E-002 +1.7987302845E+001  +5.4172047716E-001 +5.5047228519E-001 
11146921.151 +5.5990283168E-001 +7.6930060698E+000  +4.8306825211E-002 +5.0192427787E+000  +4.8172798587E-002 +1.5298000961E+001  +6.0938353392E-001 +4.0966561078E+000 
11272066.333 +5.5229887508E-001 +4.6834763635E+000  +5.0471722988E-002 +6.2491790800E+000  +5.0001722725E-002 +1.4779681950E+001  +5.8840942144E-001 +4.4962154829E-001 
11397211.514 +5.7490172852E-001 +4.8835560227E+000  +4.9231660645E-002 +6.3212257975E+000  +5.0848530707E-002 +1.7898005860E+001  +5.8431607358E-001 -8.7646724128E-001 
11522356.696 +5.6063547262E-001 +7.3073952935E+000  +4.9161692113E-002 +4.7446000418E+000  +4.9193511887E-002 +1.6911488190E+001  +5.8379137056E-001 +1.5846819230E+000 
11647501.877 +6.0053265013E-001 +5.7442909572E+000  +4.9885791912E-002 +5.2234010849E+000  +5.0817230836E-002 +1.6988263421E+001  +6.0343564549E-001 +2.3845058996E+000 
11772647.059 +6.0384668094E-001 +4.9808332032E+000  +5.2656364446E-002 +7.0975204918E+000  +5.0801741788E-002 +1.7027959329E+001  +6.0804708606E-001 +1.1557315870E+000 
11897792.240 +6.1227976817E-001 +3.7996495338E+000  +5.1349481223E-002 +7.4241829624E+000  +5.2610122265E-002 +1.5830914368E+001  +6.4449257243E-001 +1.5209683826E-001 
12022937.422 +5.9066838767E-001 +6.1093755050E+000  +5.2719148390E-002 +7.0234186542E+000  +5.2249996089E-002 +1.5342525895E+001  +6.2622230708E-001 -9.7556398635E-001 
12148082.603 +6.1994288070E-001 +2.7693113810E+000  +5.3439379682E-002 +6.5296185664E+000  +5.6072382306E-002 +1.5593052116E+001  +6.7140710709E-001 +7.2872058331E-001 
12273227.785 +6.3926944097E-001 +3.1348772926E+000  +5.3368900052E-002 +7.0839184244E+000  +5.1843965589E-002 +1.6366354772E+001  +6.4480882244E-001 +7.3464860157E-002 
12398372.966 +6.5777195541E-001 +3.6258685208E+000  +5.2072884105E-002 +6.6261079154E+000  +5.4067762747E-002 +1.6029194671E+001  +6.8837353379E-001 +9.0807930693E-001 
12523518.148 +6.6300370111E-001 +3.1054401327E+000  +5.5555845747E-002 +8.2884204346E+000  +5.4019075851E-002 +1.4764525938E+001  +6.7201229563E-001 -8.7988813001E-001 
12648663.329 +6.7766072556E-001 +2.3679663911E+000  +5.5259157473E-002 +7.3569048062E+000  +5.2823653722E-002 +1.5241193973E+001  +7.0138219439E-001 -4.1088186858E-001 
12773808.511 +6.7719954846E-001 +1.4852455630E+000  +5.6712345488E-002 +7.4495524774E+000  +5.4401639157E-002 +1.5323299064E+001  +7.1435025065E-001 -1.5178933804E+000 
12898953.692 +7.0771433444E-001 +2.2952967070E+000  +5.7629109484E-002 +9.4447879563E+000  +5.5285015560E-002 +1.4412927343E+001  +7.3029005124E-001 -5.8376400884E-001 
13024098.874 +7.1618329689E-001 +2.7613648458E+000  +5.6127335425E-002 +8.8450516515E+000  +5.6689623960E-002 +1.3644210094E+001  +7.4685564724E-001 -1.7187767576E+000 
13149244.055 +7.3718735694E-001 -2.1307000636E-001  +5.7165651358E-002 +8.4882698087E+000  +5.6239327729E-002 +1.1622245219E+001  +7.3006913894E-001 -3.1964194538E+000 
13274389.237 +7.8527740413E-001 +3.2475383188E-001  +5.7565169586E-002 +1.0230997918E+001  +5.8472189159E-002 +1.2067955240E+001  +7.8300140052E-001 -1.0570658318E+000 
13399534.418 +7.6742819215E-001 +6.7615644148E-001  +5.9662647608E-002 +9.9015269258E+000  +5.8825302729E-002 +1.3057745628E+001  +8.0345619770E-001 -4.1016374072E+000 
13524679.599 +8.0240088272E-001 -1.9759785183E+000  +6.1161420588E-002 +9.9066824045E+000  +5.9786560201E-002 +1.0655495177E+001  +8.1335264257E-001 -2.7792744943E+000 
13649824.781 +7.8946885410E-001 -3.5517855352E-001  +5.9403987611E-002 +8.8013542657E+000  +5.8152774609E-002 +1.1135919167E+001  +8.0602025246E-001 -2.6222393576E+000 
13774969.962 +8.1630404053E-001 -1.7375704765E+000  +5.9984403697E-002 +9.7909355123E+000  +5.9208990020E-002 +1.0631353056E+001  +8.5108021127E-001 -3.5530867523E+000 
13900115.144 +8.2709874594E-001 -2.2490639275E+000  +6.0544003032E-002 +9.6095811645E+000  +6.0029280320E-002 +9.5234446963E+000  +8.6926004249E-001 -3.3134138087E+000 
14025260.325 +8.6108631522E-001 -2.9877363941E+000  +6.0763754236E-002 +8.1084344741E+000  +5.9172017857E-002 +1.0234605603E+001  +8.8949332790E-001 -3.3157201531E+000 
14150405.507 +8.5724879901E-001 -4.5211539061E+000  +6.0310162550E-002 +8.6105184180E+000  +6.1480205222E-002 +1.0622210007E+001  +9.1488430458E-001 -3.0176388528E+000 
14275550.688 +9.1516611798E-001 -4.0715382872E+000  +6.1793525888E-002 +9.7088634412E+000  +5.9957823613E-002 +1.0008964188E+001  +9.2245097399E-001 -3.0225308647E+000 
14400695.870 +9.0669565355E-001 -5.0099826767E+000  +6.3240390343E-002 +8.6154191934E+000  +6.2316709023E-002 +8.2652973085E+000  +9.1219363257E-001 -5.6095221190E+000 
