!  2-Port S-parameters saved by WinCal
! VAR MeasName=S-Parameters (CALIBRATED_DATA) read from VNA (P5004A)
! VAR MeasDate=27/08/2024 15:34:40
! VAR NAME=S2_r6c8_SET1_9k-100M_3
! VAR FILENAME=S2_r6c8_SET1_9k-100M_3.S2P
! VAR DATE=27/08/2024 15:34:40
! VAR PHYS_PORTS=1,2
! VAR ObjTypeName=DATASET
! VAR IndexType=Frequency
!
# Hz S MA R 50
9000.000 +7.8512064044E-002 -1.5985950922E+002  +7.1378842740E-003 -7.1934963804E+001  +2.9217234521E-002 +1.5645364258E+002  +4.8696690379E-001 -1.2071150425E+002 
134145.181 +1.1128316535E-001 +1.6912781065E+002  +8.2788404206E-004 -6.3336807097E+001  +1.4463652947E-004 -3.8832405164E+001  +2.4551993032E-001 -1.6948909011E+002 
259290.363 +1.1286109675E-001 +1.6958780652E+002  +6.1038942012E-004 +1.3308902192E+002  +9.3813470005E-005 +1.2516615095E+002  +2.3935831696E-001 -1.6715828401E+002 
384435.544 +1.1348468258E-001 +1.6971480658E+002  +1.2790911941E-003 +1.2333668621E+002  +3.0781775814E-004 +7.3170417469E+001  +2.4695438673E-001 -1.6536597024E+002 
509580.726 +1.1164624092E-001 +1.7038838865E+002  +8.5188668753E-004 -1.3265103487E+002  +1.8763529155E-003 +5.5617904401E+001  +2.4404794498E-001 -1.6751830102E+002 
634725.907 +1.1370761664E-001 +1.7037227396E+002  +9.8317310187E-004 -1.0986251340E+002  +7.3856738874E-004 +1.5896267215E+002  +2.3635251604E-001 -1.6581575180E+002 
759871.089 +1.1839628077E-001 +1.6997172542E+002  +4.3158234411E-004 -1.5445615636E+002  +6.7776569702E-004 +1.7300351552E+002  +2.1630145865E-001 -1.6189533604E+002 
885016.270 +1.1752201529E-001 +1.7031691636E+002  +4.7675812943E-004 -1.6769759305E+002  +6.4876266592E-004 +5.9431966957E+001  +2.4121306671E-001 -1.6429156246E+002 
1010161.452 +1.1839872697E-001 +1.7111817632E+002  +3.2198526920E-003 -3.3892016402E+001  +2.8357318019E-003 +2.8292171578E+001  +1.4796067469E-001 +1.7915893648E+002 
1135306.633 +1.2008701513E-001 +1.7038383114E+002  +6.4074852301E-004 -8.3756691239E+001  +2.4245773678E-004 +6.0142785647E+001  +1.8366282174E-001 -1.6934601546E+002 
1260451.815 +1.1976808077E-001 +1.7184926197E+002  +1.0518360698E-003 -1.9766571252E+001  +7.8528080536E-004 +1.5508801634E+002  +2.3928970534E-001 -1.5905291857E+002 
1385596.996 +1.2516097269E-001 +1.7243881185E+002  +5.0141120335E-004 -7.0925985422E+001  +1.0711935754E-003 +5.4845126651E+000  +2.9059971310E-001 -1.5544187221E+002 
1510742.178 +1.2660138444E-001 +1.7088560560E+002  +8.3534776583E-004 +5.0733906584E+001  +1.1472187255E-003 +5.5841403066E+001  +2.4846707995E-001 -1.5838722985E+002 
1635887.359 +1.2643259984E-001 +1.7044476406E+002  +1.5822432975E-004 -1.2109569228E+002  +1.5077849754E-003 -8.8011001546E+001  +2.4373494345E-001 -1.6155027547E+002 
1761032.541 +1.3066615020E-001 +1.6922131459E+002  +1.0625213821E-003 +1.7384228026E+002  +1.4926592326E-003 -1.0094053822E+002  +2.1220562323E-001 -1.5500454233E+002 
1886177.722 +1.2942207478E-001 +1.6733666252E+002  +1.8687529363E-003 +3.3379651270E+001  +1.7164605664E-003 +1.7755561188E+002  +2.1017554380E-001 -1.6976044387E+002 
2011322.904 +1.3021731882E-001 +1.6659366649E+002  +3.4551098858E-003 +1.7725616333E+002  +4.8461645301E-003 +1.1977883803E+002  +1.5539160043E-001 +1.5712665769E+002 
2136468.085 +1.2898716433E-001 +1.6722355325E+002  +3.3986059521E-003 -1.6555031977E+002  +1.1817949641E-003 +1.0301539870E+002  +2.3172576882E-001 +1.7962273724E+002 
2261613.267 +1.2818238434E-001 +1.6170512681E+002  +5.7212955910E-003 +1.5064452129E+002  +3.8810014696E-003 +4.2184833962E+001  +2.5101476742E-001 +1.5175373877E+002 
2386758.448 +1.3937822740E-001 +1.6648641031E+002  +2.0536118380E-003 +1.4255166419E+002  +4.7325792259E-003 -1.6000426344E+002  +1.4444171722E-001 +1.4747921620E+002 
2511903.630 +1.4013643727E-001 +1.5854485611E+002  +4.0599907993E-003 -1.4679533834E+002  +6.4328334164E-003 -1.4517734422E+002  +1.4739081683E-001 +1.7916503322E+002 
2637048.811 +1.1850979784E-001 +1.5483198208E+002  +7.0863756077E-003 +1.2174446519E+002  +6.9141599158E-003 +2.9765078361E+000  +6.6861915603E-001 +1.6117613843E+002 
2762193.992 +1.1260132889E-001 +1.7784682383E+002  +5.7412544377E-002 -1.6711079378E+002  +7.6904172983E-002 -1.4294509744E+001  +3.1838631456E+000 -1.5756968889E+002 
2887339.174 +1.1901078043E-001 +1.6090128367E+002  +1.4873815247E-002 +7.3027967223E+001  +4.1974729250E-003 +8.5380917585E+001  +5.4699819292E-001 -1.1193168848E+002 
3012484.355 +9.1754026068E-002 -1.7833732974E+002  +2.6153275502E-002 -7.2832149485E+001  +1.2968338388E-002 +1.5714820447E+002  +4.3560312827E-001 -1.1309877337E+002 
3137629.537 +1.3399291595E-001 +1.6654180800E+002  +2.6522624638E-003 -3.4183333350E+000  +6.7687636484E-003 +1.7731033822E+002  +2.9648571389E-001 -1.0208862725E+002 
3262774.718 +8.5305905386E-002 +1.6142317370E+002  +9.3245281200E-003 +1.9921214072E+001  +1.3315141440E-002 -1.3187523610E+002  +3.6598269667E-001 -9.6353472956E+001 
3387919.900 +1.3062156485E-001 +1.5528299676E+002  +1.3054298681E-002 -1.5539117511E+002  +1.0122789505E-002 +1.1105461694E+001  +4.6062045792E-001 -3.0825199865E+001 
3513065.081 +9.8035996059E-002 +1.5384664963E+002  +4.2396750301E-002 -5.6611799110E+001  +1.2764490900E-002 +1.7221329366E+002  +1.0842301658E+000 -4.4457287952E+001 
3638210.263 +1.3962718484E-001 +1.3371555241E+002  +5.9703733653E-002 +3.6273864317E+001  +2.1883666457E-002 -1.3326867235E+002  +9.5199233582E-001 +2.5449328119E+001 
3763355.444 +1.8753364327E-001 +1.4422665049E+002  +1.5208426590E-002 +1.0373367729E+002  +8.2351668950E-003 +1.7535877248E+000  +6.1214836417E-001 +1.0544114172E+002 
3888500.626 +1.5706931976E-001 +1.3939347550E+002  +3.8490383183E-003 -1.4149730644E+002  +2.1091784467E-002 +3.0604937185E+000  +4.7521741677E-001 +1.4464035127E+002 
4013645.807 +1.6082328522E-001 +1.4106694075E+002  +1.3057036284E-002 +1.1716183555E+002  +2.7055245014E-002 +4.2267609767E+001  +7.0659270661E-001 +1.3307632244E+002 
4138790.989 +1.6452312703E-001 +1.4401115744E+002  +9.1683414718E-003 +2.8078141697E+001  +6.1778661090E-003 +7.0414367488E+001  +4.8113983794E-001 +1.0915808815E+002 
4263936.170 +1.5610444810E-001 +1.3106613685E+002  +1.7913862033E-002 +3.7945854909E+001  +3.3126432354E-002 +7.5741279829E+000  +4.1034061049E-001 +8.5304870601E+001 
4389081.352 +1.9918911947E-001 +1.4314621864E+002  +1.0778179927E-002 +1.7116167517E+002  +1.0702980587E-002 +1.1547749889E+002  +7.1944496136E-001 +1.4111651624E+002 
4514226.533 +2.2630177191E-001 +1.4065762727E+002  +1.4318527892E-002 +2.8648793926E+001  +4.6358493928E-002 +1.2119559345E+001  +2.9745482021E+000 +9.2984981897E+001 
4639371.715 +2.8640416813E-001 +1.3368735335E+002  +1.4484249773E-002 +1.1015741941E+002  +1.3467523366E-002 +1.1019696654E+002  +8.2152709420E-001 +1.1515328826E+002 
4764516.896 +3.0581283985E-001 +1.2308841228E+002  +2.6555922867E-001 -1.1693751694E+002  +5.4843282380E-002 +1.6566085331E+002  +2.6833272412E+001 -1.2133075379E+002 
4889662.078 +4.6676278469E-001 +1.2941839014E+002  +3.9346008003E-002 -3.1421464071E+001  +3.7704509561E-002 -7.7568035316E+001  +1.7694076674E+000 -1.1668043119E+002 
5014807.259 +3.9228445976E-001 +1.3430446952E+002  +4.2193843806E-002 +1.7866666658E+002  +2.6273644375E-002 +1.0588398426E+002  +2.1484230691E+000 +1.1735481707E+002 
5139952.441 +4.2562207207E-001 +1.2486776444E+002  +7.7338394759E-002 +9.0449636054E+001  +3.9269265021E-002 +9.2934439773E+001  +2.4671811267E+000 +1.0510745283E+002 
5265097.622 +3.5249671447E-001 +1.2258484897E+002  +1.6861462049E-002 -1.7969233815E+002  +2.9285946240E-002 +1.1905721624E+002  +2.0592435291E+000 +1.6354287707E+002 
5390242.804 +4.0975303026E-001 +1.2778614875E+002  +2.3620919523E-002 +1.3433771374E+002  +4.4196723381E-002 +7.5044310830E+001  +1.8347746262E+000 +8.8215655498E+001 
5515387.985 +4.3038149914E-001 +1.3154139596E+002  +2.2220990499E-002 +1.5329778687E+002  +1.8074080783E-002 +6.4590953833E+001  +1.0420029475E+000 +1.0098316503E+002 
5640533.166 +5.6997063121E-001 +1.2742295957E+002  +2.3523203052E-002 -1.7237215482E+002  +2.4876616202E-002 +1.6089752115E+002  +1.9216453851E+000 +1.2556756051E+002 
5765678.348 +5.5627815412E-001 +1.2714864476E+002  +4.7098678182E-002 +1.3431477379E+002  +4.4254167637E-002 +8.6637214447E+001  +2.4735693728E+000 +8.2627491127E+001 
5890823.529 +6.1087592682E-001 +1.2450703989E+002  +2.0913457207E-002 +9.7513484914E+001  +3.0823434077E-002 +9.8893654317E+001  +1.2901826182E+000 +4.0956945031E+001 
6015968.711 +6.9699973537E-001 +1.1648758292E+002  +2.5844136697E-002 +1.3520534315E+002  +1.1862409212E-002 +5.5002222102E+001  +2.9872812022E+000 +5.5142345288E+001 
6141113.892 +8.0262055886E-001 +1.2507087960E+002  +3.1752549566E-002 +7.9093229102E+001  +3.0876238018E-002 +7.1105228291E+001  +1.1504804754E+000 +2.7283575303E+001 
6266259.074 +7.7626864795E-001 +1.0789135778E+002  +1.6152800103E-002 +5.0906008272E+001  +2.9235641765E-002 +5.5542536175E+001  +1.1016736707E+000 +8.2442848201E+000 
6391404.255 +1.1724649154E+000 +1.0280254522E+002  +5.6854459810E-002 +6.1579593987E+001  +2.2517418309E-002 +1.5258533748E+001  +1.6377601349E+000 +1.0512370163E+001 
6516549.437 +1.5174685336E+000 +9.1941792515E+001  +5.7205831177E-002 +5.8419514002E+001  +3.7294051261E-002 +1.0636355441E+002  +1.6445446320E+000 +9.1419773355E+000 
6641694.618 +1.1435294698E+000 +8.4051010155E+001  +2.9155995675E-002 +1.3108357292E+001  +3.3772359258E-002 +4.1159020975E+001  +1.5613545676E+000 -3.0046456891E+000 
6766839.800 +1.7691534172E+000 +5.7540019204E+001  +5.5859953595E-002 +3.0211141672E+001  +4.1043383499E-002 +4.0576901316E+001  +1.1546400954E+000 +2.3624168543E+000 
6891984.981 +1.6558644363E+000 +2.3266319454E+001  +4.5073587385E-002 -9.2213285005E-001  +3.2341389101E-002 +1.5916789858E+001  +1.4675470149E+000 -2.5817398898E+000 
7017130.163 +1.6695873780E+000 +1.0355921352E+001  +5.0608193774E-002 -1.8508274971E+001  +4.2965956368E-002 +2.7354508470E+000  +1.3394224701E+000 -9.4135821957E+000 
7142275.344 +1.8720202895E+000 +1.3935155313E+000  +1.6624556379E-002 +3.4095623857E+001  +2.6469998507E-002 -1.7559928751E+001  +1.3667031788E+000 -1.3712514921E+001 
7267420.526 +1.3863111048E+000 +9.4670313639E-001  +2.2656950457E-002 +1.6788182293E+001  +2.5245220693E-002 +1.7079034764E+001  +1.3070509292E+000 -1.3578578292E+001 
7392565.707 +1.3628317909E+000 -2.0002065943E+000  +2.5629824780E-002 +5.5592922707E+001  +1.7085445241E-002 +1.7429257127E+001  +1.3391228339E+000 -6.1267970028E+000 
7517710.889 +1.1463293164E+000 -6.0973269612E+000  +1.2345082841E-002 +1.5769761093E+001  +1.3965309111E-002 +7.5999181269E+001  +1.3130193935E+000 -3.0218991026E+000 
7642856.070 +1.0641552530E+000 -2.3371877650E-001  +1.5603288563E-002 +1.9880726258E+001  +1.0854063152E-002 +2.9133682454E+001  +1.0677623896E+000 -6.3466464833E+000 
7768001.252 +9.7133874736E-001 -1.6271282375E+000  +1.9571629938E-002 +3.3138504219E+001  +9.7184641875E-003 +3.6857030816E+001  +9.9546317355E-001 -1.0559214182E+001 
7893146.433 +9.6461368607E-001 +3.2517928060E+000  +1.6369412016E-002 +2.0337895598E+001  +8.7657398516E-003 +1.3289709295E+001  +9.7225443165E-001 -1.7268042611E+000 
8018291.615 +7.9617186922E-001 +8.5297891160E+000  +1.3688065471E-002 +8.7780235334E+000  +1.6399638603E-002 +2.0731514914E+000  +8.9062745621E-001 -6.1085599308E-001 
8143436.796 +7.4527257981E-001 +2.2322152341E+000  +1.3156949335E-002 +1.2168722865E+001  +1.0264348937E-002 +3.5185910320E+001  +7.9131753706E-001 +2.7381279197E+000 
8268581.977 +7.2560044974E-001 +5.0912652327E+000  +1.5150552774E-002 +1.1154882303E+001  +1.6165493560E-002 +2.9618260269E+000  +7.1711008758E-001 +2.5340377739E+000 
8393727.159 +7.4884361630E-001 -2.5670918801E-001  +1.6192956060E-002 -2.4087014858E+000  +1.5040067087E-002 +8.6052701040E+000  +7.1645780327E-001 -5.8769618448E-001 
8518872.340 +7.7353910946E-001 +8.1114418558E+000  +1.1984667527E-002 +2.5564443428E+001  +1.4536272223E-002 +4.3405159680E+000  +7.3045035446E-001 +8.8757445255E+000 
8644017.522 +6.2898834753E-001 +7.2150333600E+000  +1.2034565119E-002 +1.0803583727E+001  +1.4172742124E-002 +1.7485930551E+001  +5.9343117297E-001 -2.7786815018E+000 
8769162.703 +5.8790319644E-001 +5.5019314401E+000  +1.3170801086E-002 +1.7906920436E+001  +9.9735900329E-003 +3.7154972198E+001  +6.4002190765E-001 +3.0263646314E-001 
8894307.885 +6.3967745453E-001 +9.1575997546E+000  +1.1537899980E-002 +1.6268490003E+001  +1.2477098533E-002 +1.6054268154E+001  +6.4434283728E-001 +3.6506563994E+000 
9019453.066 +5.5587094443E-001 +1.9631816169E+000  +1.0427499237E-002 +1.5650383430E+001  +1.2812019378E-002 +1.4614261315E+001  +6.1346490523E-001 -3.8506020265E+000 
9144598.248 +6.0983082873E-001 +3.4548681466E+000  +9.5777349654E-003 +1.7286749611E+001  +1.4635599583E-002 +2.6886468310E+001  +5.5679802617E-001 -2.1955652243E+000 
9269743.429 +5.6099095800E-001 +3.9502656107E+000  +1.5003979734E-002 -2.4688258172E+000  +1.2702730356E-002 +2.4792989972E+001  +6.2196927586E-001 -2.1838469784E+000 
9394888.611 +5.2060327581E-001 +5.5035404297E+000  +1.1608476443E-002 +2.8436370716E+001  +1.4027529351E-002 +3.5027739052E+001  +6.0087676584E-001 -6.2915750836E+000 
9520033.792 +5.5164848297E-001 +4.3668399614E+000  +1.2407991867E-002 +1.3951001809E+001  +1.1324848869E-002 +1.7550473423E+001  +6.1109271852E-001 -5.8245756540E+000 
9645178.974 +4.8436613985E-001 -4.7337699984E-001  +1.5116671993E-002 +1.7895442517E+001  +1.1746617226E-002 +4.2353608379E+001  +6.1468008646E-001 +6.4506766710E-001 
9770324.155 +5.7094616491E-001 +3.2759698799E+000  +1.2041461784E-002 +2.5035366294E+001  +1.1796108677E-002 +2.9933284982E+001  +5.9419934702E-001 -6.9589117715E+000 
9895469.337 +5.2582236823E-001 +1.6018478185E+000  +9.5161616293E-003 +5.2132195316E+000  +1.4278322713E-002 +1.5668892637E+001  +5.7577919907E-001 -2.4553875016E+000 
10020614.518 +5.4546905192E-001 +7.6257056526E-002  +1.0656135824E-002 +1.1366604246E+001  +1.0569172679E-002 +2.9154816323E+001  +5.7180203505E-001 -2.2617147225E+000 
10145759.700 +5.1985013638E-001 +4.1999881762E+000  +1.3938016232E-002 +3.1112853033E+001  +1.5323820091E-002 +3.6228756747E+001  +5.7666266582E-001 -3.9372609728E+000 
10270904.881 +5.1893890452E-001 +1.4521347429E+000  +1.1815044407E-002 +1.1971751517E+001  +1.0755131354E-002 +2.9568547504E+001  +5.8016068172E-001 -5.2018145923E+000 
10396050.063 +5.6601084077E-001 +1.7795977745E+000  +1.0986174262E-002 +2.6776283094E+001  +1.0499858317E-002 +6.4086255162E+001  +5.4979516017E-001 +7.1378794584E-002 
10521195.244 +5.7231071322E-001 +8.3875628888E+000  +1.3734090859E-002 +1.2700581855E+001  +1.0800689859E-002 +3.9931423508E+001  +5.7698140844E-001 -3.4530802810E+000 
10646340.426 +5.5136891994E-001 +4.9963576474E+000  +1.1323245462E-002 +2.4818469140E+001  +1.0145310483E-002 +4.1310808243E+001  +5.9315484410E-001 -1.0879684158E-001 
10771485.607 +5.5438899289E-001 +8.8479812678E+000  +1.1579830539E-002 +1.6332451956E+001  +1.2376685779E-002 +3.0463763684E+001  +6.2272793360E-001 +5.5494625049E-001 
10896630.788 +5.5756666546E-001 +2.2267062327E+000  +1.1140269576E-002 +2.2988491717E+001  +1.4108817073E-002 +2.4062062527E+001  +5.7725557713E-001 +2.3759101777E+000 
11021775.970 +5.4657872789E-001 +5.2779411255E+000  +1.4177895027E-002 +2.8972169673E+001  +1.3352860996E-002 +2.2369097897E+001  +6.1821468222E-001 -7.0234643319E-001 
11146921.151 +5.8488564646E-001 +8.1846138148E+000  +1.5539971118E-002 +1.5682485490E+001  +1.2585307490E-002 +2.6787728644E+001  +5.9416091475E-001 +2.4120559621E+000 
11272066.333 +5.7140866335E-001 +6.7553022583E+000  +1.3663036276E-002 +1.7631755885E+001  +1.3380771551E-002 +3.1946408681E+001  +6.0918067561E-001 -3.2237734743E-001 
11397211.514 +5.7920324412E-001 +5.5875746235E+000  +1.4793487488E-002 +1.2339174931E+001  +1.4656003975E-002 +2.0793308552E+001  +6.2635325733E-001 +5.5381157037E-001 
11522356.696 +6.1306828624E-001 +7.5327267281E+000  +1.2799460892E-002 +1.4864846164E+001  +1.5418808044E-002 +3.5930648578E+001  +6.2719087438E-001 +1.6810617137E+000 
11647501.877 +6.0343730721E-001 +4.8564643206E+000  +1.5559396506E-002 +2.5517464628E+001  +1.3543549070E-002 +3.6438040008E+001  +6.5038910635E-001 -1.8724707736E+000 
11772647.059 +6.3644300658E-001 +5.6052325721E+000  +1.3783493129E-002 +2.1170103029E+001  +1.4139402297E-002 +2.8243483120E+001  +6.5996822083E-001 +4.5386679865E-001 
11897792.240 +6.7368585986E-001 +4.8026328469E+000  +1.4006143724E-002 +2.8988983022E+001  +1.5843278424E-002 +3.2596169846E+001  +6.7406725359E-001 +1.8406105073E+000 
12022937.422 +6.5627992854E-001 +6.6206411342E+000  +1.4143972558E-002 +2.5008725629E+001  +1.5666954841E-002 +3.1047205635E+001  +6.8039794908E-001 -3.9360597945E-001 
12148082.603 +6.9157973286E-001 +4.4749471067E+000  +1.4575243488E-002 +2.4284386347E+001  +1.4148853051E-002 +2.4951973292E+001  +6.8783700826E-001 +9.1827447832E-001 
12273227.785 +6.8447895055E-001 +2.1472212134E+000  +1.6469253675E-002 +2.3666403029E+001  +1.5602961621E-002 +3.2798356613E+001  +7.2211514852E-001 -8.9493225013E-001 
12398372.966 +7.0033645890E-001 +3.8751880927E+000  +1.7432598259E-002 +2.6507604761E+001  +1.5839083866E-002 +2.8907452472E+001  +6.9155458275E-001 -2.9864669098E-001 
12523518.148 +7.1733103753E-001 +3.2706603921E+000  +1.6960464515E-002 +2.3262524626E+001  +1.6115999952E-002 +3.7539577693E+001  +7.0944497965E-001 -7.9009708278E-001 
12648663.329 +7.3693984942E-001 +2.8852541238E+000  +1.5418634453E-002 +2.8534789651E+001  +1.6057486172E-002 +2.4807661328E+001  +7.5000181578E-001 +1.5922453210E+000 
12773808.511 +7.1210999615E-001 +5.0084903051E+000  +1.4800401291E-002 +2.9800940216E+001  +1.5814371512E-002 +3.6195198609E+001  +7.7102140869E-001 -2.2273035505E+000 
12898953.692 +7.6675006122E-001 +1.1355558964E+000  +1.7171190118E-002 +2.3639176861E+001  +1.5351147519E-002 +3.0758403511E+001  +7.6207542642E-001 -6.1437779255E-001 
13024098.874 +7.6578205693E-001 +1.0639373106E+000  +1.4606787481E-002 +2.4255244613E+001  +1.4370154109E-002 +2.9870646331E+001  +8.0851959125E-001 -9.2529300818E-001 
13149244.055 +7.4224044863E-001 -1.4834021353E+000  +1.7065532953E-002 +2.4976762259E+001  +1.5427596414E-002 +3.2782114954E+001  +8.3306842384E-001 -1.6725904810E+000 
13274389.237 +7.9973512150E-001 +2.0705530849E-002  +1.8100412233E-002 +2.4160423796E+001  +1.4691531776E-002 +3.6625316838E+001  +8.2718636908E-001 -9.7768392205E-001 
13399534.418 +8.2625695149E-001 -5.0401597183E-001  +1.6968853899E-002 +2.1708058394E+001  +1.5153649158E-002 +3.2586324463E+001  +8.3147829157E-001 -2.1161971937E+000 
13524679.599 +8.4611686210E-001 -1.3258194246E+000  +1.5218571470E-002 +2.9819912488E+001  +1.5205900893E-002 +2.6384444532E+001  +8.5833962987E-001 -2.3048744487E+000 
13649824.781 +8.4110373467E-001 -2.5211457121E+000  +1.7408122127E-002 +2.3747666915E+001  +1.6249556295E-002 +2.7528175074E+001  +8.5811669738E-001 -2.7136458090E+000 
13774969.962 +8.7142666144E-001 -4.2717696930E+000  +1.7035807442E-002 +2.8178295468E+001  +1.7670941093E-002 +2.7943304806E+001  +8.9512250068E-001 -2.9992238470E+000 
13900115.144 +8.8624086495E-001 -2.3467816464E+000  +1.5757483925E-002 +3.1681368300E+001  +1.5657357266E-002 +2.7734626624E+001  +8.9817575956E-001 -2.7205347598E+000 
14025260.325 +9.0906989588E-001 -4.3587025757E+000  +1.7655371824E-002 +2.2788536943E+001  +1.6881979636E-002 +3.1638563673E+001  +9.0952349006E-001 -4.6954620985E+000 
14150405.507 +9.2448217051E-001 -4.7102289060E+000  +1.7771162114E-002 +2.4387697193E+001  +1.6229072812E-002 +2.2644630261E+001  +9.2972361982E-001 -4.3408219750E+000 
14275550.688 +9.5768875973E-001 -4.4117773207E+000  +1.8434587046E-002 +2.8511527593E+001  +1.5245397732E-002 +2.6212559462E+001  +9.6284438299E-001 -5.3006378082E+000 
14400695.870 +9.4829949986E-001 -4.7512299762E+000  +1.7632604097E-002 +2.3128736872E+001  +1.8180199105E-002 +2.3074014943E+001  +9.7171221911E-001 -5.6992072005E+000 
