!  2-Port S-parameters saved by WinCal
! VAR MeasName=S-Parameters (CALIBRATED_DATA) read from VNA (P5004A)
! VAR MeasDate=27/08/2024 12:36:52
! VAR NAME=S2_r5c9_pristine_9k-100M_3
! VAR FILENAME=S2_r5c9_pristine_9k-100M_3.S2P
! VAR DATE=27/08/2024 12:36:52
! VAR PHYS_PORTS=1,2
! VAR ObjTypeName=DATASET
! VAR IndexType=Frequency
!
# Hz S MA R 50
9000.000 +9.0696317638E-002 -1.4223060235E+002  +4.9891446038E-003 -3.0127770423E+001  +3.0950427244E-002 -9.4135160172E+001  +2.8986083275E-001 -1.2830597533E+002 
134145.181 +1.1053603001E-001 +1.6939077802E+002  +2.7941712205E-004 -6.4536692848E+001  +3.3779133230E-004 +1.0306357478E+002  +2.4043213797E-001 -1.7070784880E+002 
259290.363 +1.1364916717E-001 +1.7044704609E+002  +6.2573012788E-004 +3.3171209632E+001  +2.9688542533E-004 -2.4451628662E+001  +2.4598644904E-001 -1.6935240519E+002 
384435.544 +1.1421151658E-001 +1.6942500826E+002  +6.7423118384E-004 -1.3296945507E+002  +4.4204703590E-004 -1.3174373595E+002  +2.4172550616E-001 -1.6920338879E+002 
509580.726 +1.1347335856E-001 +1.7052782063E+002  +9.1258853689E-004 +8.1169703188E+001  +8.4242983647E-004 +2.2502901254E+001  +2.4424747779E-001 -1.6304447736E+002 
634725.907 +1.1565917700E-001 +1.7067364596E+002  +5.6941708687E-004 -1.7663462668E+002  +3.3165781326E-004 +8.8689944178E+001  +2.3289789026E-001 -1.6803171716E+002 
759871.089 +1.1665198676E-001 +1.7079372693E+002  +4.1583951487E-004 -1.1741519966E+002  +7.2545662040E-004 +1.7471307132E+002  +2.3301496790E-001 -1.6380520849E+002 
885016.270 +1.1716127107E-001 +1.6864503918E+002  +8.5040858611E-004 -4.5327927891E+001  +4.8430945027E-004 +1.4356191890E+002  +2.4031783135E-001 -1.6565011422E+002 
1010161.452 +1.1740784099E-001 +1.7176054740E+002  +1.8168144288E-003 +1.1231280900E+001  +3.8677341066E-003 +1.1398073194E+002  +1.5304307849E-001 -1.7371828487E+002 
1135306.633 +1.1632043416E-001 +1.7375808303E+002  +4.0491624901E-003 -1.0543613422E+002  +3.5844393238E-003 -4.9108642490E+001  +1.7428556257E-001 -1.7566187358E+002 
1260451.815 +1.2154330365E-001 +1.7181839054E+002  +7.1898825930E-004 +7.5305805640E+001  +9.1775283736E-004 -1.4201010451E+000  +2.3232151933E-001 -1.5824743297E+002 
1385596.996 +1.2345398467E-001 +1.7057974137E+002  +6.8840126505E-004 +6.4330002285E+001  +1.8385781622E-003 -6.1515175109E+001  +2.4356640692E-001 -1.5799271997E+002 
1510742.178 +1.2732239449E-001 +1.7158513505E+002  +9.2895043205E-004 -6.1742182495E+001  +1.2999351196E-003 -1.9665156035E+001  +2.4302935903E-001 -1.5508442998E+002 
1635887.359 +1.3098416657E-001 +1.6961924189E+002  +8.2914852178E-004 -8.1501991858E+001  +9.7997767451E-004 +1.1190490358E+002  +2.2907003484E-001 -1.5597097612E+002 
1761032.541 +1.2921009305E-001 +1.6885384365E+002  +1.3459733296E-003 -1.1210160572E+002  +9.5788987859E-004 +5.8753213497E+001  +2.3126279132E-001 -1.6070599727E+002 
1886177.722 +1.3202611828E-001 +1.6876714866E+002  +1.3517956897E-003 +9.0310542651E+001  +5.9671507194E-004 +7.8594230764E+001  +2.1214378441E-001 -1.6095689149E+002 
2011322.904 +1.2776760495E-001 +1.6614242717E+002  +1.6309439014E-003 -1.3549378712E+002  +2.3635931886E-003 -5.4416103126E+001  +1.7658893347E-001 -1.5469645411E+002 
2136468.085 +1.3015396491E-001 +1.6744856440E+002  +9.4465545358E-004 +9.5175706099E+001  +2.3565102568E-003 -1.2735648657E+002  +1.7088338649E-001 -1.7028709959E+002 
2261613.267 +1.3253829394E-001 +1.6528212532E+002  +1.5576497718E-003 +7.7321888978E+001  +3.6015917953E-003 +1.4346317770E+002  +1.9308494265E-001 +1.7172357743E+002 
2386758.448 +1.3706351867E-001 +1.6530063753E+002  +3.8797009520E-003 +1.0289740797E+002  +2.9701972410E-003 +1.1248343193E+002  +2.1564016251E-001 +1.5868147780E+002 
2511903.630 +1.3288066142E-001 +1.5980869897E+002  +1.3749896748E-003 -1.4600114565E+002  +1.9597525730E-003 +1.4975147708E+002  +2.9011421541E-001 +1.6707425211E+002 
2637048.811 +1.3150766853E-001 +1.5470215626E+002  +1.3847998645E-002 -1.8294808474E+000  +9.8632637271E-003 -4.5735774883E+001  +1.0515842531E-001 +7.1855238159E+001 
2762193.992 +9.1599555703E-002 +1.6233361484E+002  +1.7088095840E-002 -1.6689632252E+002  +1.3014328698E-002 -5.0852000070E+001  +1.0290605737E+000 -1.6687597135E+002 
2887339.174 +1.1699729170E-001 -1.7505059276E+002  +1.1370505748E-002 -1.4352771398E+002  +4.0501363994E-003 -1.5304039777E+002  +4.6861291116E-001 -1.2219609693E+002 
3012484.355 +9.3880187656E-002 +1.7173515186E+002  +7.1314881627E-003 -1.5763066800E+002  +9.8447371755E-003 -1.6750959222E+002  +4.4298029672E-001 -1.1333055333E+002 
3137629.537 +1.1096977182E-001 +1.7909190525E+002  +1.9776551507E-002 -1.7158738613E+002  +6.8716365117E-003 +3.8287523454E+001  +4.8982211049E-001 -8.0794045578E+001 
3262774.718 +1.0163822838E-001 -1.7387411480E+002  +8.1865857374E-003 +2.6346872003E+001  +1.4591809913E-002 -1.6233951353E+002  +3.9475194380E-001 -7.0895581078E+001 
3387919.900 +1.0332692551E-001 +1.5269134502E+002  +2.1659247943E-002 +4.9035159985E+001  +1.2628084380E-002 +7.5349305448E+001  +6.6611943921E-001 +5.9598466239E+001 
3513065.081 +1.4630852579E-001 +1.5772897268E+002  +9.7797623271E-004 -1.5560805861E+002  +9.9172377925E-003 +1.2914668911E+002  +2.5617715940E-001 +1.0569070700E+002 
3638210.263 +1.5459981994E-001 +1.4448330964E+002  +1.4232098012E-001 +6.9592710661E+001  +1.3477291895E-001 +1.4910684007E+002  +8.3438980676E+000 +8.6795524455E+001 
3763355.444 +1.8821105976E-001 +1.4380275392E+002  +8.0054564517E-003 -1.1433314798E+002  +6.9868660974E-003 +1.1741061485E+002  +3.9710663840E-001 +1.0673122495E+002 
3888500.626 +1.3916975774E-001 +1.6383541251E+002  +9.9000906528E-003 +2.7136631990E+001  +9.1578501404E-003 +1.7066980546E+002  +3.9939505367E-001 +9.3547559270E+001 
4013645.807 +1.6839124492E-001 +1.4473632621E+002  +2.3790327486E-003 +6.2228417825E+001  +2.2025245998E-003 -3.1163105262E+001  +4.2856957013E-001 +1.2571348848E+002 
4138790.989 +1.4619689425E-001 +1.5066927035E+002  +7.6479651747E-003 -1.4878008492E+002  +9.3851417554E-003 +1.1157191107E+002  +5.2736455624E-001 +1.1496394562E+002 
4263936.170 +1.9304053777E-001 +1.3396890684E+002  +5.3832907772E-003 -3.4113968902E+001  +6.1727972509E-003 +5.6238856857E+001  +2.7093164380E-001 +1.3535319657E+002 
4389081.352 +2.2168058725E-001 +1.3668780655E+002  +2.7849916942E-002 +1.3962433427E+002  +2.3512915681E-002 +7.4890234219E+001  +1.9186671854E+000 +1.2826727179E+002 
4514226.533 +2.1889657591E-001 +1.3852389177E+002  +1.1300743991E-002 -2.5819665970E+001  +1.9706822656E-002 +2.3751715960E+001  +8.5867067401E-001 +8.2772162122E+001 
4639371.715 +2.2847311237E-001 +1.3257004066E+002  +1.4661285832E-002 +7.8298003984E+001  +1.2975762099E-002 -1.3533260396E+002  +2.0985928323E+000 +1.1326478659E+002 
4764516.896 +3.9427180359E-001 +1.3705393884E+002  +1.8437799592E-002 -1.6431379425E+002  +8.6327953355E-003 -3.9953524640E+001  +8.3186362543E-001 +5.9340429419E+001 
4889662.078 +3.8223940456E-001 +1.3248523866E+002  +9.2953259817E-003 -6.9503978553E+001  +9.8855272677E-003 +1.5676541519E+002  +1.7752814909E+000 -1.3266879017E+002 
5014807.259 +4.4553213128E-001 +1.3168500367E+002  +3.0065734885E-002 +3.6252304241E+001  +1.1259386520E-001 +1.8204548798E+001  +3.4119594446E+000 -2.7687446564E+001 
5139952.441 +4.0898383800E-001 +1.2025609095E+002  +1.1675391359E-001 -1.4345991228E+002  +9.9633636980E-002 -1.3215637723E+002  +1.0774226472E+001 -8.3373468952E+001 
5265097.622 +4.0209377898E-001 +1.3850826920E+002  +1.5284410928E-002 +1.6205776762E+002  +1.6127851757E-002 -2.9770904517E+001  +1.9838103765E+000 +1.0949355535E+002 
5390242.804 +4.6395737772E-001 +1.3299781102E+002  +4.0194623741E-002 -1.0784444180E+002  +5.7937118366E-002 +5.5406417265E+001  +5.0977721846E+000 +1.9888254730E+001 
5515387.985 +4.9838417812E-001 +1.2872892475E+002  +2.2927375221E-002 +1.5275799866E+002  +1.5191520102E-002 +2.5987947993E+001  +1.4157347787E+000 +9.7900528527E+001 
5640533.166 +5.1335877837E-001 +1.2661324253E+002  +1.9397460562E-002 +6.2165627032E+001  +1.2889806880E-002 -3.4833597352E+001  +2.8360519497E+000 +1.0596899996E+002 
5765678.348 +5.6202399215E-001 +1.2663772607E+002  +2.0176046607E-002 +6.5246353984E+001  +1.8001800714E-002 +2.6965415432E+001  +1.4275620510E+000 +3.7206327394E+001 
5890823.529 +5.0896737203E-001 +1.2705159598E+002  +4.2356101781E-003 -1.4120724860E+002  +3.9907025134E-004 -1.0232017049E+000  +2.1241706317E+000 +3.1176208640E+001 
6015968.711 +5.6625522964E-001 +1.1146911187E+002  +2.8878236462E-002 +9.0530734744E+001  +4.7110046736E-002 +7.1880097144E+001  +2.7720221793E+000 +4.6574885629E+001 
6141113.892 +8.5866177839E-001 +1.2027484114E+002  +4.6716064672E-002 -1.0837777728E+002  +2.1013544581E-002 +1.6976582378E+002  +2.5660521953E+000 +3.1336000025E+001 
6266259.074 +8.1300421631E-001 +1.0688794335E+002  +5.2880924724E-003 -6.8784142727E+001  +2.3689220016E-002 +1.4942318769E+002  +1.4040020745E+000 +3.5111309665E+001 
6391404.255 +1.0970337649E+000 +9.6362746216E+001  +2.5612460847E-002 +1.1126183401E+002  +1.7995050666E-002 +1.5942723606E+002  +2.0887648404E+000 +1.3975517080E+001 
6516549.437 +1.0889055621E+000 +8.1636788294E+001  +2.9487285187E-002 -9.6380956555E+000  +2.3650838834E-002 -4.7363846334E+001  +1.8524818684E+000 +2.2143726936E+000 
6641694.618 +1.3288038924E+000 +9.4346717723E+001  +1.7808261311E-002 +1.1097422190E+002  +1.1735585089E-002 +1.0820423490E+002  +1.5988527484E+000 -4.3803575566E+000 
6766839.800 +1.7077011662E+000 +5.0401431999E+001  +2.6638261393E-002 +4.1192622394E+001  +1.6104248756E-002 +1.0402788488E+002  +1.3482255049E+000 -4.9174962913E+000 
6891984.981 +1.6472505023E+000 +4.3871667699E+001  +9.3844908664E-003 +3.1340306135E+001  +1.6828048215E-002 +7.3987562211E+001  +1.3064805506E+000 -5.5955856249E+000 
7017130.163 +2.2505200123E+000 +2.3796846334E+001  +1.5162135243E-002 +2.6824704799E+001  +1.2432620488E-002 -5.3805764375E+001  +1.4278261298E+000 -8.2524483462E+000 
7142275.344 +1.4454095104E+000 +4.3209736448E+000  +1.6595397985E-002 +8.7368344929E+001  +5.7287038175E-003 +1.0867925826E+002  +1.4368698615E+000 -1.4930519243E+001 
7267420.526 +1.5284979158E+000 +3.2101000994E+000  +9.8667138404E-003 +2.5297883433E+001  +1.3686329271E-002 +6.4447098903E+001  +1.2817068894E+000 -1.5568506462E+001 
7392565.707 +1.5159176172E+000 +1.9278389772E+000  +7.9045226062E-003 +1.2449774587E+001  +5.6007536675E-003 +1.5128162306E+002  +1.1898280342E+000 -1.0768307732E+001 
7517710.889 +1.2866958284E+000 +4.9322213268E-001  +1.1419325214E-002 -7.9191129407E+001  +1.4347131868E-002 +3.7580968113E+001  +1.2872637655E+000 -5.3636617616E+000 
7642856.070 +1.0635169953E+000 -1.2733678504E+000  +2.7531465835E-003 +5.1884622846E+001  +3.1893610556E-003 -5.2396818403E+001  +1.1276763680E+000 -7.4242845349E+000 
7768001.252 +9.9171943255E-001 +4.0171963475E+000  +1.7921041746E-003 +4.4631567753E+001  +6.7232039238E-003 +1.0654791450E+002  +9.6211114275E-001 +3.7213249076E-001 
7893146.433 +1.0103083104E+000 +2.7298266652E+000  +1.0423346807E-002 +1.1765429138E+002  +5.4993719142E-003 -2.6740478349E+001  +9.8649531404E-001 -7.4222580036E+000 
8018291.615 +8.6860377969E-001 +8.0178401172E+000  +3.0661977294E-003 +1.5075064138E+002  +1.0566617959E-002 +7.5913439626E+001  +8.7073374546E-001 -8.7756004843E+000 
8143436.796 +7.5577005580E-001 +6.1922693632E+000  +6.9420445250E-003 +8.4244933288E+001  +5.5730232942E-003 +8.0470609508E+001  +8.3461607209E-001 +1.0917891727E+000 
8268581.977 +7.6113620383E-001 +1.3193844259E+001  +7.5055387198E-004 -7.2291441688E+001  +5.4455502707E-003 +3.1854765701E+001  +7.6625423840E-001 +1.3279783207E+000 
8393727.159 +7.3966746139E-001 +3.4302898848E+000  +2.8457013239E-003 +2.9663561756E+001  +2.1906348821E-003 -2.7728775725E+001  +7.1194176483E-001 +6.4112271755E-001 
8518872.340 +6.9995178893E-001 +4.9015008920E+000  +7.6636748579E-003 +8.5417638211E+001  +4.3124857299E-003 +9.8029740030E+001  +7.0955400426E-001 +1.6033525989E+000 
8644017.522 +6.6766851871E-001 +9.2042954899E+000  +2.9708279795E-003 +2.0394056855E+001  +3.4610433510E-003 +2.8704561558E+001  +6.8394231922E-001 +1.9401545296E+000 
8769162.703 +7.0453630257E-001 +6.8801755610E+000  +5.4922795778E-003 +7.6195652236E+001  +3.0252880891E-003 +1.0126442692E+002  +6.5613792857E-001 -1.2161650392E+000 
8894307.885 +6.2924163668E-001 +9.4249627662E+000  +1.1014449930E-003 +1.2822701544E+002  +6.4502943280E-003 +1.0530353350E+002  +7.3679891573E-001 +1.7736796586E+000 
9019453.066 +5.6351444415E-001 -4.3958641604E+000  +2.9396540030E-003 +7.3528794602E+001  +5.5708552216E-003 +1.1600326899E+002  +6.4018085504E-001 +2.2489105829E+000 
9144598.248 +6.2309887669E-001 +1.2798915461E+001  +6.3559522713E-003 +8.3431944545E+001  +3.4659699722E-003 +1.6612658032E+002  +6.0848460492E-001 +2.0604857663E+000 
9269743.429 +5.7629824605E-001 +3.2477761037E+000  +1.5810590426E-003 +3.8488443935E+001  +1.0585376738E-003 +3.6723748901E+001  +6.3190662113E-001 -2.3928188044E+000 
9394888.611 +5.4935976285E-001 +1.1475057204E+000  +6.7030084363E-003 +8.9398199399E+001  +4.7062875317E-003 +1.0542671407E+002  +6.1995374778E-001 -4.8395875826E+000 
9520033.792 +5.7096641465E-001 +2.9891082297E+000  +2.3660376367E-003 +1.4392414989E+002  +1.5800007414E-003 +1.7110613945E+002  +6.0998862132E-001 -9.1679225967E+000 
9645178.974 +5.3136314571E-001 +3.2956322893E+000  +1.7885818629E-003 -2.0433729541E+001  +6.2364050961E-003 +4.8533120254E+001  +5.7256903294E-001 -7.3278968964E+000 
9770324.155 +5.3118901697E-001 +9.3825120385E-001  +5.3569364644E-003 +5.3214432857E+001  +6.9603099764E-003 +1.3752963562E+002  +5.9643798892E-001 -4.2765541272E+000 
9895469.337 +5.8410077088E-001 -2.2384546550E+000  +3.5495322095E-003 +9.8598451208E+001  +7.7443641821E-003 +9.9136951769E+001  +5.7763559059E-001 -5.5384246710E+000 
10020614.518 +5.9314099392E-001 +3.8760753438E+000  +5.3155812413E-003 +7.7823787842E+001  +5.2833496598E-003 +8.6683512839E+001  +5.5863817768E-001 -3.6032207131E+000 
10145759.700 +5.5749384532E-001 -2.2538487533E+000  +6.0242655730E-003 +7.2199287251E+001  +6.9305783661E-003 +1.0607140556E+002  +5.8629356817E-001 -3.8871785129E+000 
10270904.881 +5.4054914322E-001 +7.4829913329E-002  +2.8131202431E-003 +1.0585541900E+002  +7.4890459475E-003 +1.0194394594E+002  +5.7333693020E-001 -1.2715107868E+000 
10396050.063 +5.7082205773E-001 +6.7862932154E+000  +2.3348306230E-003 +6.6372744216E+001  +6.6518111132E-003 +1.1787069302E+002  +6.1501908850E-001 -8.8831021268E-001 
10521195.244 +5.5026224177E-001 +2.8024006717E+000  +3.2337336548E-003 +9.8761162078E+001  +2.2730075858E-003 +7.5652992256E+001  +6.1652315289E-001 +2.4763112585E+000 
10646340.426 +5.7128458849E-001 +6.4971463142E+000  +3.9254311547E-003 +8.9844074092E+001  +4.4716245708E-003 +9.8588304677E+001  +6.1681728775E-001 -1.6574939166E+000 
10771485.607 +5.9137568953E-001 +9.5008882516E+000  +3.4457219953E-003 +6.9794267668E+001  +5.3737371581E-003 +9.3267602027E+001  +5.9583445215E-001 +2.0551041655E-001 
10896630.788 +5.7853130447E-001 +5.5690095689E+000  +4.4348109924E-003 +1.0838502041E+002  +6.1291219322E-003 +1.1346706563E+002  +6.4379411184E-001 +3.1699683859E+000 
11021775.970 +5.7989797672E-001 +5.3467304118E-001  +5.0282436153E-003 +6.5875864647E+001  +4.6967302296E-003 +1.2373837630E+002  +6.1237172990E-001 -3.4656577342E+000 
11146921.151 +5.9105746671E-001 +6.7045995374E+000  +5.6809457753E-003 +1.0698832802E+002  +5.0887610332E-003 +9.6289012755E+001  +5.8759340253E-001 -4.4806059171E-001 
11272066.333 +6.4778648083E-001 +6.9567763452E+000  +4.4274502616E-003 +6.1440345687E+001  +5.3900220196E-003 +1.0186774180E+002  +6.3736707926E-001 +2.3924859869E+000 
11397211.514 +6.2233260045E-001 +7.5405115650E+000  +3.8918498357E-003 +8.9183857139E+001  +4.2603363835E-003 +1.1817223893E+002  +6.7067190765E-001 +7.5676676285E-001 
11522356.696 +6.1726118149E-001 +6.9754731371E+000  +4.5618720184E-003 +8.6066308956E+001  +4.2420253174E-003 +9.6679635218E+001  +6.2314057843E-001 +2.9134573975E+000 
11647501.877 +6.1885554479E-001 +3.6451814786E+000  +4.2911677593E-003 +9.9398180486E+001  +5.9000276565E-003 +9.0622965657E+001  +6.5837949738E-001 +1.6214902300E+000 
11772647.059 +6.4489481889E-001 +6.0545236551E+000  +4.3790108725E-003 +6.6689652532E+001  +4.6459566701E-003 +9.1845474992E+001  +6.6946860747E-001 +7.3351931899E-001 
11897792.240 +6.6360370549E-001 +4.1881533965E+000  +3.6711791072E-003 +5.7434565065E+001  +5.7512803197E-003 +1.0506163844E+002  +6.7592782477E-001 -5.0708105892E-001 
12022937.422 +6.7413114446E-001 +5.6384152120E+000  +4.3427202194E-003 +1.0620177750E+002  +6.9397010504E-003 +9.6154515605E+001  +7.2289487984E-001 -6.6648993910E-001 
12148082.603 +6.9357801395E-001 +5.6782563204E+000  +4.4742619955E-003 +8.5737856064E+001  +4.8164571861E-003 +1.1864109837E+002  +6.8471070735E-001 +1.0854639715E+000 
12273227.785 +7.1205200529E-001 +2.9932453283E+000  +5.5851414362E-003 +7.5996824183E+001  +6.0967830653E-003 +1.0471018980E+002  +7.1430752126E-001 -1.7570440716E+000 
12398372.966 +7.1311015471E-001 +4.2423227003E+000  +5.9140647124E-003 +9.1017155734E+001  +4.7738089249E-003 +1.0379281859E+002  +7.1658575992E-001 -6.4695548925E-003 
12523518.148 +7.2914038134E-001 +3.9558330542E+000  +3.3408861319E-003 +9.0617258410E+001  +5.1842827668E-003 +1.0683712951E+002  +7.3516965257E-001 +1.2609982181E+000 
12648663.329 +7.1863287923E-001 +2.7137496345E+000  +6.4434259001E-003 +8.3229705212E+001  +5.7998559338E-003 +8.5229557122E+001  +7.6997937375E-001 +1.1279735421E+000 
12773808.511 +7.2271736982E-001 +6.5256407299E-001  +5.0065036286E-003 +9.8848547268E+001  +5.5084779819E-003 +9.8717445698E+001  +7.6743163297E-001 -7.6588093671E-001 
12898953.692 +7.6577345077E-001 +1.8585360324E-001  +6.7944509152E-003 +8.3748036901E+001  +6.5958722497E-003 +9.1484462417E+001  +7.9340197569E-001 -4.9875349342E-001 
13024098.874 +7.9910702636E-001 +2.2998521733E+000  +5.3303546092E-003 +9.7713675932E+001  +5.6728021759E-003 +9.6772495797E+001  +7.8626878623E-001 -1.1409242817E+000 
13149244.055 +7.8580856717E-001 -6.8386430544E-001  +6.3050143229E-003 +8.9211188367E+001  +7.0293895646E-003 +9.3322017870E+001  +8.1302219421E-001 -1.3822151490E+000 
13274389.237 +8.2216361998E-001 -9.5065910715E-001  +6.0093619486E-003 +8.3786790232E+001  +6.7713300711E-003 +9.9663289973E+001  +8.2371469444E-001 -1.3595458438E+000 
13399534.418 +8.1575930032E-001 -1.3741489695E+000  +5.9342006495E-003 +1.0076353263E+002  +4.8120881266E-003 +1.0981527373E+002  +8.6981349828E-001 -3.1117030890E+000 
13524679.599 +8.6100406495E-001 -2.0527793278E+000  +8.0953659535E-003 +1.0836208721E+002  +6.1553712884E-003 +9.4250385903E+001  +8.5971504246E-001 -1.9207443157E+000 
13649824.781 +8.4493078856E-001 +3.7544882507E-001  +6.0044980851E-003 +1.0143602258E+002  +7.5235276172E-003 +9.2940832235E+001  +8.8905294777E-001 -2.0929409625E+000 
13774969.962 +8.4542345494E-001 -1.4654148198E+000  +6.6658336308E-003 +9.5171607473E+001  +5.0857656770E-003 +8.5465696439E+001  +8.8139753264E-001 -2.4874849357E+000 
13900115.144 +9.0664493176E-001 -2.8489252755E+000  +6.8279250940E-003 +9.9241757078E+001  +7.7934696723E-003 +1.0171692716E+002  +9.1019199942E-001 -2.7906067984E+000 
14025260.325 +9.1721982834E-001 -3.0335989406E+000  +7.1966927451E-003 +9.4566515086E+001  +6.9233429130E-003 +8.6170722268E+001  +9.0874712053E-001 -3.1050996434E+000 
14150405.507 +9.4461605061E-001 -4.3790958099E+000  +7.1296185981E-003 +9.9813983942E+001  +7.4809728692E-003 +1.0180613505E+002  +9.6091962264E-001 -4.0192006603E+000 
14275550.688 +9.5555405526E-001 -5.3298295980E+000  +7.7836449001E-003 +9.0992574055E+001  +5.8326453305E-003 +9.1744818460E+001  +9.5831995950E-001 -4.3568351993E+000 
14400695.870 +9.7708948931E-001 -3.5598590489E+000  +7.7956032017E-003 +8.3576017030E+001  +6.2861331918E-003 +7.9834236585E+001  +1.0011061661E+000 -4.9349330289E+000 
