!  2-Port S-parameters saved by WinCal
! VAR MeasName=S-Parameters (CALIBRATED_DATA) read from VNA (P5004A)
! VAR MeasDate=28/08/2024 16:43:42
! VAR NAME=S2_r8c9_SET3_9k-100M_3
! VAR FILENAME=S2_r8c9_SET3_9k-100M_3.S2P
! VAR DATE=28/08/2024 16:43:42
! VAR PHYS_PORTS=1,2
! VAR ObjTypeName=DATASET
! VAR IndexType=Frequency
!
# Hz S MA R 50
9000.000 +9.2063767699E-002 -1.7085258921E+002  +1.3577401139E-003 -3.0083278827E+001  +1.4320378497E-003 -1.7480987707E+002  +1.8878507875E-001 -1.4938884565E+002 
134145.181 +1.1152708832E-001 +1.6998876476E+002  +5.5139424656E-004 -7.4338124118E+001  +1.4017975108E-004 +1.4986557574E+002  +2.4427341167E-001 -1.7076149314E+002 
259290.363 +1.1122981211E-001 +1.6989583299E+002  +8.3716496942E-004 +1.5171308644E+001  +4.2970189085E-004 +5.9700517439E+001  +2.4246465444E-001 -1.6979073960E+002 
384435.544 +1.1432661447E-001 +1.7061382201E+002  +4.9581102609E-004 -1.2033828367E+002  +7.6098486603E-004 +1.2120663785E+002  +2.3997551605E-001 -1.6970535153E+002 
509580.726 +1.1570658744E-001 +1.7175067858E+002  +7.3162660649E-004 -1.6379680076E+002  +1.0941300853E-003 +3.9185730371E+001  +2.7515242659E-001 -1.6397393172E+002 
634725.907 +1.1554059746E-001 +1.7078252592E+002  +6.7015786286E-004 +1.7752253401E+002  +5.6866318772E-004 -4.7482788005E+001  +2.4152421307E-001 -1.6666118595E+002 
759871.089 +1.1866358172E-001 +1.7060179696E+002  +2.6834436687E-004 -3.1908258102E+000  +9.0850348921E-004 +1.8927303956E+001  +2.4651353873E-001 -1.6573013268E+002 
885016.270 +1.2078307690E-001 +1.6949950323E+002  +5.2246152198E-004 -1.4965084599E+001  +6.6151797493E-004 +8.1391950064E+001  +2.4718637531E-001 -1.6735450360E+002 
1010161.452 +1.1720492048E-001 +1.7034772282E+002  +8.6513321972E-004 +1.5183230361E+001  +1.9837223452E-003 +9.2061567582E+001  +2.2538790164E-001 -1.6936845302E+002 
1135306.633 +1.1303859362E-001 +1.6860707621E+002  +2.2816576781E-003 +4.1071177773E+001  +4.2595433266E-003 -1.5703992163E+002  +1.4719369539E-001 -1.7070034350E+002 
1260451.815 +1.1886307549E-001 +1.7212322805E+002  +7.9681465254E-004 -2.5278043726E+001  +2.0482017324E-003 +1.4574123460E+002  +2.3892140171E-001 -1.6185021845E+002 
1385596.996 +1.2613698740E-001 +1.7326423632E+002  +9.1116347438E-004 -9.1605083500E+000  +2.1508404285E-003 +4.6659125410E+001  +2.6037756163E-001 -1.5627440842E+002 
1510742.178 +1.2850192173E-001 +1.7180348933E+002  +8.9371520482E-004 -1.3811503477E+002  +1.3958276004E-003 -1.5135055132E+002  +2.5338364922E-001 -1.5902195370E+002 
1635887.359 +1.2531434710E-001 +1.6962291827E+002  +1.3109502520E-003 +7.1498544197E+001  +3.8505298010E-004 -4.4640409579E+001  +2.5050888640E-001 -1.5855735576E+002 
1761032.541 +1.2700803845E-001 +1.7049505871E+002  +1.1726544727E-003 +6.3263254318E+001  +5.8892770608E-004 +1.4626431481E+002  +2.3711258257E-001 -1.5867271234E+002 
1886177.722 +1.3053547420E-001 +1.6828834969E+002  +2.2349293523E-003 +7.5590189977E+001  +1.1242172341E-003 +1.6707486824E+002  +2.2030324812E-001 -1.6249846385E+002 
2011322.904 +1.2810343819E-001 +1.6840496747E+002  +3.4241152575E-003 +7.5098695483E+001  +3.7811837630E-003 -9.2222250012E+001  +2.0715235358E-001 -1.6720475519E+002 
2136468.085 +1.3017216917E-001 +1.6706629886E+002  +4.7000063592E-003 +3.3455278805E+001  +4.6067577935E-003 -7.8141477294E+001  +1.8858605454E-001 -1.6392199060E+002 
2261613.267 +1.3377198459E-001 +1.6511899071E+002  +4.7376100866E-003 +1.0742036556E+002  +3.6205691320E-003 -3.8287650619E+000  +2.6259239102E-001 +1.7732216895E+002 
2386758.448 +1.3633218026E-001 +1.6256336751E+002  +8.5298450129E-003 +7.9735579739E+001  +4.7272173146E-003 -2.8829276055E+001  +2.0890204480E-001 +1.7957542056E+002 
2511903.630 +1.3555010375E-001 +1.5866055324E+002  +6.4888534587E-003 +9.7765524440E+001  +3.9316006297E-003 -1.3358546116E+001  +2.5124845995E-001 +1.7519290532E+002 
2637048.811 +1.0857934890E-001 +1.6824630427E+002  +1.9888232169E-002 +2.5255539974E+001  +2.3528037115E-002 -6.1976858467E+001  +1.2100624448E-001 +1.7483236982E+002 
2762193.992 +1.1623129097E-001 +1.7071888152E+002  +2.4253461095E-002 +5.1956947909E+001  +1.8215334759E-002 -5.7577487191E+001  +2.2590850575E-001 +1.3667467853E+002 
2887339.174 +1.1340621731E-001 +1.7399582721E+002  +3.4741935654E-002 +1.2383502957E+001  +5.9736930525E-002 -9.5237413444E+001  +2.7134328049E-001 -1.0815207893E+001 
3012484.355 +1.1797504341E-001 +1.6948643196E+002  +4.7601306730E-002 +6.4140105531E+001  +6.9071887021E-002 -4.8973486036E+001  +6.0321653963E-001 +9.5951664073E+001 
3137629.537 +1.3041069772E-001 +1.5966659725E+002  +1.8819300029E-002 +2.8736807269E+001  +2.0303748094E-002 -5.8657992666E+001  +9.9504821957E-002 -1.1115201321E+002 
3262774.718 +1.2595476389E-001 +1.6669148186E+002  +3.0225330268E-002 +2.1554986473E+001  +3.7214977493E-002 -6.3021215192E+001  +1.9078808106E-001 +8.4415058950E+001 
3387919.900 +1.4390997577E-001 +1.6428410192E+002  +2.3937014874E-002 +4.0974539727E+001  +1.8762427080E-002 -5.4528854801E+001  +1.3083310980E-001 +1.1177375955E+002 
3513065.081 +1.4191363758E-001 +1.5277916187E+002  +3.2196686078E-002 +6.1236179158E+001  +2.7970822071E-002 -1.3657208026E+001  +1.6256962517E-001 +1.2411757582E+002 
3638210.263 +1.6350808838E-001 +1.5193379987E+002  +4.0781231877E-002 +1.2670935285E+002  +2.8946381262E-002 +3.9363874262E+001  +6.1588974154E-001 +1.4180885839E+002 
3763355.444 +1.7117398095E-001 +1.4868063520E+002  +2.3761976194E-002 +1.0348097398E+002  +2.6579669558E-002 +3.6825749318E+001  +3.6837068046E-001 +1.3564243471E+002 
3888500.626 +1.7390036121E-001 +1.4420097235E+002  +3.8411081473E-002 +5.5084775695E+001  +5.0119021537E-002 -2.1399958985E+001  +1.9886224356E-001 +5.0023020195E+001 
4013645.807 +1.7304677229E-001 +1.5346868104E+002  +2.3089997556E-002 +9.4834196771E+001  +1.9188551860E-002 +4.2423625708E+001  +4.2579052702E-001 +1.5120300424E+002 
4138790.989 +1.5643229907E-001 +1.4616020906E+002  +4.6823368554E-002 +8.0351228857E+001  +4.0889272153E-002 +5.0412717396E+000  +4.4253465346E-001 +1.2621562338E+002 
4263936.170 +1.8572467722E-001 +1.4823418845E+002  +2.3632596767E-002 +8.5358445660E+001  +2.4955332217E-002 +1.5255833408E+001  +3.2965095268E-001 +1.5167674146E+002 
4389081.352 +2.2666302494E-001 +1.4625499811E+002  +4.6474020117E-002 +1.0559029102E+002  +4.6555176242E-002 +4.8546084559E+001  +6.1120304617E-001 +1.1999629822E+002 
4514226.533 +2.1024173761E-001 +1.3150530283E+002  +9.5609546899E-002 +1.2487857132E+002  +9.3595159427E-002 +7.1827092143E+001  +1.1154264297E+000 +1.3143126477E+002 
4639371.715 +2.4167776393E-001 +1.3336606176E+002  +1.3685028753E-001 +9.0536315055E+001  +1.4654454766E-001 +5.4377586442E+001  +1.6618350526E+000 +9.4637810825E+001 
4764516.896 +2.5685735877E-001 +1.3997017849E+002  +7.0192526361E-002 +1.3640858529E+002  +1.1004569577E-001 +9.3112796541E+001  +1.6571651215E+000 +1.4198980084E+002 
4889662.078 +4.9893171368E-001 +1.3197867074E+002  +4.8522592922E-001 +4.2645218800E+001  +3.7229996204E-001 -1.7964273987E+000  +3.8446093185E+000 -3.5033379946E+001 
5014807.259 +3.8348432209E-001 +1.3252747558E+002  +4.0363322099E-001 -1.0207643872E+002  +3.5531788687E-001 -1.3040013910E+002  +6.3912568663E+000 -1.4009226441E+002 
5139952.441 +3.7186221360E-001 +1.3650225046E+002  +1.7089116700E-001 +4.2751845200E+001  +1.7188003008E-001 +1.3385679021E+001  +2.2570602657E+000 +4.8211825901E+000 
5265097.622 +2.9379121953E-001 +1.2775922999E+002  +1.4418490619E-001 +7.5554182976E+001  +1.2760880349E-001 +2.7062505672E+001  +1.5419416294E+000 +6.8621734757E+001 
5390242.804 +3.4142794019E-001 +1.3339310672E+002  +8.8833115321E-002 +9.8069835657E+001  +1.1027403421E-001 +6.4964170751E+001  +1.4104276257E+000 +1.0366097715E+002 
5515387.985 +4.1647479088E-001 +1.2941167280E+002  +1.0157453574E-001 +8.7801897742E+001  +1.0757376817E-001 +3.9300885457E+001  +1.0192878200E+000 +7.8398931867E+001 
5640533.166 +4.6913856348E-001 +1.2149495580E+002  +1.5575445531E-001 +9.3181647264E+001  +1.2722208137E-001 +5.8263837910E+001  +1.3179256511E+000 +7.7262870956E+001 
5765678.348 +5.3611628033E-001 +1.2104718804E+002  +1.3320584742E-001 +1.1477431554E+002  +1.4348805053E-001 +8.8290036603E+001  +1.8179308606E+000 +1.0502635804E+002 
5890823.529 +4.8180053231E-001 +1.1299076890E+002  +1.7308663321E-001 +7.2309026196E+001  +2.1315258962E-001 +4.6366036245E+001  +2.1134969106E+000 +6.5178154133E+001 
6015968.711 +5.2807611067E-001 +1.1874173740E+002  +9.7060606605E-002 +5.6604943943E+001  +1.3459832005E-001 +3.2502242368E+001  +1.1422642314E+000 +3.7908381463E+001 
6141113.892 +7.1772720027E-001 +1.1799513358E+002  +1.7433865576E-001 +6.0584976378E+001  +1.4891142935E-001 +4.7189067620E+001  +1.6153987789E+000 +3.6877512590E+001 
6266259.074 +7.3164948464E-001 +9.7659127516E+001  +1.7064452603E-001 +4.2915709406E+001  +1.8612234611E-001 +3.3510510735E+001  +1.5068921728E+000 +3.6053232761E+001 
6391404.255 +6.9869957962E-001 +9.9330811951E+001  +1.8228568144E-001 +2.7030361399E+001  +1.2758514199E-001 +2.0074752918E+001  +1.6499244594E+000 +1.7252497725E+001 
6516549.437 +8.2017024447E-001 +7.7663142329E+001  +1.8908657974E-001 +3.3744046293E+001  +1.6842241187E-001 +7.7527545599E+000  +1.2966648579E+000 +1.4088896739E+001 
6641694.618 +9.2859037103E-001 +7.4474777904E+001  +1.5905784068E-001 +2.1325285277E+001  +1.6777163889E-001 +9.3296193425E+000  +1.1741677950E+000 +1.5264631617E+000 
6766839.800 +1.3563063973E+000 +6.2135454566E+001  +1.9187318827E-001 +2.9963504253E+001  +1.7823521722E-001 +2.1659064812E+001  +1.0616042698E+000 +6.0546833248E+000 
6891984.981 +1.5094353938E+000 +2.1694052242E+001  +1.9082588548E-001 +4.2985324399E-001  +1.9936587429E-001 -1.2916029814E+000  +1.0840672648E+000 -4.1488188758E+000 
7017130.163 +1.6220899789E+000 +1.8759078017E+001  +1.6357814510E-001 +2.1527380149E+000  +1.8342618837E-001 -6.1832244373E+000  +1.1801326706E+000 -9.3957179068E+000 
7142275.344 +1.5157590688E+000 +8.4675673086E+000  +1.4374663656E-001 +9.8977547731E+000  +1.5185837289E-001 -4.6862816960E+000  +1.1584131001E+000 -1.2730938901E+001 
7267420.526 +1.5087285053E+000 +1.3257727859E+000  +1.3800538308E-001 -6.5763348278E+000  +1.3620407456E-001 -3.7440725247E+000  +1.1171679882E+000 -7.6898872084E+000 
7392565.707 +1.2376495350E+000 -2.9378177305E+000  +1.0202130918E-001 +3.7182881188E+000  +1.0590656797E-001 +4.4001663076E+000  +1.1069648559E+000 -2.1085334804E+000 
7517710.889 +1.1494224492E+000 -2.9398164797E+000  +9.8697069023E-002 +7.7016056765E+000  +9.2186785311E-002 +8.5173399496E+000  +1.0919360485E+000 -6.4169643817E+000 
7642856.070 +9.6892379457E-001 +2.0906745477E+000  +9.4004041115E-002 +1.0686865613E+001  +9.3640259565E-002 +1.0239297306E+001  +9.8176548846E-001 -7.6849616669E+000 
7768001.252 +8.9123766170E-001 +3.9558802884E+000  +8.6048364507E-002 +5.6849298336E+000  +8.1105446232E-002 +3.8490792877E+000  +8.4314869539E-001 -1.6393494583E+000 
7893146.433 +7.0065317679E-001 +4.8512895688E+000  +8.1638498875E-002 -1.8096384513E+000  +7.5607177917E-002 +4.3902371491E+000  +8.2740963915E-001 +3.1678597312E+000 
8018291.615 +7.6474469345E-001 +5.9277618071E+000  +7.9565744222E-002 -3.3358249410E+000  +8.1049033778E-002 +1.0505704301E+001  +7.0899668029E-001 -1.1295549674E+001 
8143436.796 +6.8599029711E-001 +5.1022385690E+000  +7.5160288252E-002 +4.3578033706E+000  +7.4806992336E-002 +8.9776206011E+000  +7.4612705429E-001 +7.7050895285E+000 
8268581.977 +6.3078311975E-001 +9.5667553936E+000  +7.9131075413E-002 -8.5233624163E-001  +6.7105558352E-002 +4.5308471124E+000  +6.1389179049E-001 +1.6885216153E+000 
8393727.159 +5.6473405023E-001 +1.4138859537E+001  +7.1311175298E-002 -3.0846944836E+000  +7.4150810639E-002 +9.1552022210E+000  +6.3488508288E-001 +5.1675180955E+000 
8518872.340 +5.7589430727E-001 +6.6169264669E+000  +7.7377644503E-002 +1.0895270450E+000  +7.4029093782E-002 +1.0816285762E+001  +6.3599846084E-001 -1.2809548580E+000 
8644017.522 +5.5435338645E-001 +1.0960508670E+001  +7.1533630575E-002 +1.2909727947E-001  +6.8959527094E-002 +6.8892207102E+000  +6.8036726779E-001 +1.5719259059E+000 
8769162.703 +5.6587168477E-001 +9.1623794309E+000  +6.9624011700E-002 -2.0080791037E+000  +7.2667695218E-002 +1.5814793285E+001  +5.5631523162E-001 +2.7841188097E+000 
8894307.885 +5.8109450347E-001 +1.3762891073E+001  +6.9732911392E-002 +7.4299510348E-001  +7.0851500374E-002 +1.1162775256E+001  +5.5938932180E-001 +9.8274530143E-001 
9019453.066 +5.7578622762E-001 +1.0018578948E+001  +6.8768862480E-002 -1.7158265493E+000  +7.2153597437E-002 +1.1825650283E+001  +5.0162096213E-001 +5.3200564030E+000 
9144598.248 +5.6474334849E-001 +7.7799048778E+000  +7.0827299328E-002 -1.5150361405E+000  +7.0370697416E-002 +1.2267486117E+001  +5.2901520118E-001 -1.0228683641E+000 
9269743.429 +4.5137422840E-001 +5.8703296351E+000  +7.0504597146E-002 -3.0464004633E+000  +6.8827505947E-002 +1.5188672943E+001  +5.0973717111E-001 +1.6575920334E+000 
9394888.611 +4.9376780007E-001 +1.0495705454E+001  +6.8042913546E-002 -3.0770969620E+000  +6.9019489188E-002 +1.2907335196E+001  +5.1670538717E-001 +2.5957543754E+000 
9520033.792 +4.8459240487E-001 +9.0292705991E+000  +6.9870219285E-002 +4.8363516428E-001  +6.8112934352E-002 +1.1975451842E+001  +5.3366647393E-001 +1.8703602181E-001 
9645178.974 +4.9568009785E-001 -7.3564931676E-003  +7.5431688275E-002 -1.6607698440E+000  +6.9308637105E-002 +1.4740014534E+001  +5.7071768133E-001 -4.2879575218E+000 
9770324.155 +4.5110511010E-001 +7.8821480256E+000  +7.3546402473E-002 -2.4518746964E+000  +7.2014234972E-002 +1.2655271257E+001  +5.3601531947E-001 -6.7107769251E+000 
9895469.337 +4.8826301280E-001 +1.9177155532E+000  +7.3262983150E-002 -3.4563253284E+000  +7.4915221505E-002 +1.6831878777E+001  +5.0005868737E-001 -5.9511298899E+000 
10020614.518 +4.8629989926E-001 +2.5345561797E+000  +7.1355247142E-002 +1.8542369092E-001  +7.1694836775E-002 +1.4487886466E+001  +4.9693770458E-001 -5.3400268683E+000 
10145759.700 +4.7392557746E-001 +7.9346363732E+000  +7.0960298779E-002 -1.2868498051E+000  +7.2052229487E-002 +1.5047902679E+001  +5.3866879419E-001 +1.2621657986E+000 
10270904.881 +4.6568912614E-001 +6.5454591192E+000  +7.3381578380E-002 -4.8490865512E-001  +6.9843153405E-002 +1.5409891232E+001  +5.1647490468E-001 +5.1063600048E-003 
10396050.063 +5.1493779737E-001 +8.7194797760E+000  +7.2714490262E-002 +7.4934904306E-001  +6.9858998977E-002 +1.7841395159E+001  +4.8359597812E-001 -1.0633323216E+000 
10521195.244 +4.7795601651E-001 +1.0206555521E+001  +7.1570824923E-002 +9.1522552709E-001  +7.2804768806E-002 +1.5484034290E+001  +5.2655085230E-001 -8.9234848315E-001 
10646340.426 +5.0353789979E-001 +5.5307914667E+000  +7.3423185974E-002 +2.0576428156E+000  +7.3043392087E-002 +1.6259253024E+001  +5.2946719045E-001 +2.8247606853E+000 
10771485.607 +5.0619058556E-001 +8.3889277668E+000  +7.3751128664E-002 +1.5517099700E+000  +7.0817110180E-002 +1.6554815506E+001  +5.2305468303E-001 +5.2197980099E+000 
10896630.788 +5.2710021398E-001 +9.9034600442E+000  +7.4441301232E-002 +2.1262944877E+000  +7.3885458669E-002 +1.6130130906E+001  +5.5141021752E-001 +2.4080489048E+000 
11021775.970 +5.0727281974E-001 +1.3160630904E+001  +7.4923177777E-002 +1.9008688370E+000  +7.3741123890E-002 +1.4490694276E+001  +5.4305436602E-001 +8.1574468877E-001 
11146921.151 +5.0775831160E-001 +1.0736968808E+001  +7.4263166812E-002 +3.5744658720E+000  +7.3437423961E-002 +1.5131867064E+001  +5.4619436449E-001 +2.6367518104E+000 
11272066.333 +5.3190075652E-001 +7.1675999042E+000  +7.7307943813E-002 +1.8819206557E+000  +7.4817189616E-002 +1.6032263999E+001  +5.8197819965E-001 +3.7124667361E-001 
11397211.514 +5.3706036998E-001 +6.9801361851E+000  +7.8917683556E-002 +1.2126291180E+000  +7.6096293615E-002 +1.5026421075E+001  +5.6903242002E-001 -5.5247816751E-001 
11522356.696 +5.4431950324E-001 +1.0541093904E+001  +7.7771805727E-002 +3.7990070368E+000  +7.3696609254E-002 +1.7122696311E+001  +5.6138421501E-001 +4.5798713510E+000 
11647501.877 +5.6711241464E-001 +9.1949742513E+000  +7.8555756258E-002 +3.4165099814E+000  +7.6192453563E-002 +1.5420916341E+001  +5.5893588372E-001 +4.0575025713E+000 
11772647.059 +5.6485746731E-001 +8.5449568859E+000  +7.9232576950E-002 +4.4201933658E+000  +7.7284870092E-002 +1.4579758740E+001  +6.2268347363E-001 +4.7377514528E+000 
11897792.240 +5.9660932613E-001 +7.2157432504E+000  +8.0297284531E-002 +4.9971409003E+000  +7.8539214522E-002 +1.4735315380E+001  +5.9845337141E-001 +1.7085013169E+000 
12022937.422 +5.6831434235E-001 +6.1285074433E+000  +8.0123491553E-002 +4.8515035086E+000  +7.7580709872E-002 +1.3386241415E+001  +6.0374481416E-001 +3.6650475125E+000 
12148082.603 +6.1859313630E-001 +6.9089275798E+000  +8.2317329191E-002 +5.8274763952E+000  +7.9362901155E-002 +1.4483768571E+001  +6.1924330966E-001 +1.5557732224E+000 
12273227.785 +6.2002138424E-001 +6.2469299609E+000  +8.2677343015E-002 +5.8997760774E+000  +8.1610566619E-002 +1.1893280385E+001  +6.3659377847E-001 -3.0900727576E-001 
12398372.966 +6.1194811836E-001 +4.4250250311E+000  +8.2132268248E-002 +6.8483772322E+000  +8.4074704394E-002 +1.2990302527E+001  +6.6009846390E-001 +1.2839397431E+000 
12523518.148 +6.3727371988E-001 +3.8472407684E+000  +8.4242626256E-002 +6.3893840810E+000  +8.3821155988E-002 +1.2305217306E+001  +6.6472402771E-001 +1.0307480378E+000 
12648663.329 +6.3660094533E-001 +2.6126051716E+000  +8.5009704014E-002 +5.4286422753E+000  +8.3350005144E-002 +1.1978265398E+001  +6.4649783844E-001 +4.8457269729E-002 
12773808.511 +6.7482908050E-001 +2.9179618239E+000  +8.7659151410E-002 +6.5525454524E+000  +8.5459663343E-002 +1.2138284776E+001  +6.7942443031E-001 -6.6485498828E-001 
12898953.692 +6.8598688709E-001 +2.1179511188E+000  +8.6426192000E-002 +5.1307332830E+000  +8.6774589308E-002 +1.1854036557E+001  +6.7594286667E-001 -1.4994966244E+000 
13024098.874 +6.7790677815E-001 +3.0807905137E+000  +8.8785210404E-002 +5.8549285204E+000  +8.6043607074E-002 +1.0050859883E+001  +7.0663428618E-001 -1.7116953151E+000 
13149244.055 +7.1424540782E-001 +1.0952958998E+000  +8.8931896266E-002 +5.8258296288E+000  +8.9112271915E-002 +9.9150224851E+000  +7.1074107041E-001 -1.6243154535E+000 
13274389.237 +7.1983956564E-001 -1.3857129135E+000  +9.0176905530E-002 +6.0021742786E+000  +8.8015674130E-002 +8.6010045477E+000  +7.2633200059E-001 -2.0439211379E+000 
13399534.418 +7.5031812882E-001 -1.5527375863E+000  +8.9727854516E-002 +6.2676235660E+000  +8.7442551700E-002 +1.0403158376E+001  +7.6145258972E-001 -2.9564770141E+000 
13524679.599 +7.7631742551E-001 -1.1765933227E+000  +9.0090402619E-002 +5.3066831363E+000  +8.8940204267E-002 +1.0752324985E+001  +7.6116879590E-001 -1.2797392139E+000 
13649824.781 +7.6389275079E-001 -1.6111559255E+000  +9.2042720318E-002 +6.2586932709E+000  +9.1157025284E-002 +7.9549100363E+000  +8.0017710399E-001 -2.9391988379E+000 
13774969.962 +7.8702859435E-001 -1.1352304601E+000  +9.3458907308E-002 +6.1055537883E+000  +9.0759837556E-002 +8.2261929141E+000  +8.1408436645E-001 -4.6638933280E+000 
13900115.144 +8.1996571862E-001 -3.1047194173E+000  +9.3582211897E-002 +7.0363113574E+000  +9.0877362029E-002 +7.8799002715E+000  +8.3101207489E-001 -3.5635962185E+000 
14025260.325 +8.3269418308E-001 -4.3526093353E+000  +9.4183260647E-002 +7.6756838994E+000  +9.1774883333E-002 +7.0210444023E+000  +8.3459517269E-001 -3.3311514631E+000 
14150405.507 +8.3900529243E-001 -5.5004717125E+000  +9.5625354599E-002 +5.2282779132E+000  +9.4818018228E-002 +6.7923230286E+000  +8.4723865868E-001 -4.5778811352E+000 
14275550.688 +8.6574277396E-001 -3.8050195632E+000  +9.3977804382E-002 +5.9947996352E+000  +9.3072025053E-002 +5.9793730940E+000  +8.6117761190E-001 -4.2074082743E+000 
14400695.870 +8.7490719398E-001 -5.7184466007E+000  +9.4409895894E-002 +5.2404018062E+000  +9.4348048634E-002 +5.8151234666E+000  +8.8309909858E-001 -4.1177624976E+000 
