!  2-Port S-parameters saved by WinCal
! VAR MeasName=S-Parameters (CALIBRATED_DATA) read from VNA (P5004A)
! VAR MeasDate=28/08/2024 12:33:48
! VAR NAME=S2_r7c9_SET3_9k-100M_1
! VAR FILENAME=S2_r7c9_SET3_9k-100M_1.S2P
! VAR DATE=28/08/2024 12:33:48
! VAR PHYS_PORTS=1,2
! VAR ObjTypeName=DATASET
! VAR IndexType=Frequency
!
# Hz S MA R 50
9000.000 +9.2155473246E-002 -1.5907636602E+002  +5.8088700746E-003 -9.9724859402E+001  +7.5616143011E-003 +1.5056674682E+002  +2.4245214709E-001 -1.3950307801E+002 
134145.181 +1.1113054317E-001 +1.6954642379E+002  +3.9534991619E-004 +2.5614560196E+001  +4.7360046996E-004 +1.6789651420E+002  +2.4626889098E-001 -1.7132198481E+002 
259290.363 +1.1262120275E-001 +1.6957577105E+002  +4.2139514634E-004 +1.5425974688E+002  +6.3327683303E-004 -5.8395411705E+001  +2.4695148921E-001 -1.6982677170E+002 
384435.544 +1.1509719411E-001 +1.6975462300E+002  +3.7084773103E-004 -1.5146074730E+001  +3.3964270322E-004 -1.6727078441E+002  +2.4843953710E-001 -1.6958798432E+002 
509580.726 +1.1515389074E-001 +1.7100914354E+002  +4.3672538569E-004 -9.7409225082E+001  +4.7503391581E-004 +8.3026895525E+001  +2.4433091977E-001 -1.6717126093E+002 
634725.907 +1.1715562383E-001 +1.7081428617E+002  +1.2504940779E-003 -9.9708411912E+001  +8.2845776555E-004 -2.6725923530E+001  +2.6929633962E-001 -1.6458845450E+002 
759871.089 +1.2006897346E-001 +1.7085543040E+002  +5.3721541156E-004 +8.6244036677E+001  +9.2688131394E-005 +1.1581803334E+002  +2.5844396112E-001 -1.6613611929E+002 
885016.270 +1.2013245603E-001 +1.6977749417E+002  +8.5315347972E-004 -1.0990773178E+002  +1.3769568743E-004 +1.4322430244E+002  +2.4164443676E-001 -1.6544968876E+002 
1010161.452 +1.1794998734E-001 +1.7000877484E+002  +4.9390574693E-004 -7.5008723824E+001  +1.7944419595E-003 -2.2656649011E+001  +1.7757325679E-001 -1.6889013744E+002 
1135306.633 +1.1728491035E-001 +1.6804010318E+002  +2.8009747015E-004 -1.0289705596E+002  +9.8604131989E-004 -7.4315321216E+001  +2.1020236848E-001 -1.6923710103E+002 
1260451.815 +1.1938062343E-001 +1.6938059382E+002  +5.5184194335E-004 +1.3847035364E+002  +1.0210850791E-003 +1.3406081446E+001  +2.0126317096E-001 -1.6634702931E+002 
1385596.996 +1.2710385833E-001 +1.7398091701E+002  +3.6090992873E-004 +1.1716178574E+001  +1.3883447610E-003 +7.2397880684E+001  +2.4601136527E-001 -1.5938393412E+002 
1510742.178 +1.2945987237E-001 +1.7300099350E+002  +1.7099594700E-004 -9.1586771367E+001  +1.7899489538E-003 -6.7532167548E+001  +2.5749590530E-001 -1.5993036859E+002 
1635887.359 +1.3047195601E-001 +1.7144481303E+002  +7.9942810668E-004 -8.9078749145E+001  +3.4686803773E-004 +1.0070564839E+002  +2.6018436245E-001 -1.5787894465E+002 
1761032.541 +1.2958531290E-001 +1.7128458289E+002  +1.9796125601E-003 -1.7916300284E+002  +1.1175702506E-003 -1.6440183501E+002  +2.3752493970E-001 -1.5639872180E+002 
1886177.722 +1.3399204075E-001 +1.6979648522E+002  +5.9037920860E-004 +1.6128509184E+001  +1.0879437930E-003 -1.5445970122E+002  +2.1893580750E-001 -1.6321829656E+002 
2011322.904 +1.2433675652E-001 +1.6928863551E+002  +1.7017900779E-003 +4.0020277755E+000  +2.2811866533E-003 -1.6463522049E+002  +1.9901064328E-001 -1.6397890074E+002 
2136468.085 +1.2615744299E-001 +1.6999297465E+002  +3.8557619224E-003 -1.2162930363E+001  +3.1218881263E-003 +5.4835140510E+001  +1.9078757989E-001 -1.5698716881E+002 
2261613.267 +1.3596627651E-001 +1.6520870535E+002  +1.4195200376E-003 -1.5892755409E+001  +1.9521596701E-003 +5.1360774758E+001  +1.7753326752E-001 -1.6521648380E+002 
2386758.448 +1.3941970449E-001 +1.6371400640E+002  +4.1976805168E-003 +1.3301047495E+002  +4.1192041705E-003 +1.6279151641E+002  +2.1853494555E-001 +1.7442412349E+002 
2511903.630 +1.3579661561E-001 +1.6395994113E+002  +5.0104082476E-003 -8.6475865601E+001  +7.6390831434E-003 +1.1348673311E+002  +1.3502271594E-001 +1.7933785450E+002 
2637048.811 +1.2416897288E-001 +1.6613789293E+002  +2.0653857306E-003 -9.6568173702E+000  +1.6149598188E-003 +7.0536842224E+001  +2.0975026000E-001 +1.7794445011E+002 
2762193.992 +1.2454839503E-001 +1.6297082722E+002  +1.3056139816E-002 +9.7077932759E+000  +2.1831588066E-002 +1.0902685460E+002  +7.1476344257E-001 +1.1244790086E+002 
2887339.174 +1.2987061635E-001 +1.7011636668E+002  +8.3150473385E-003 -1.0198437790E+002  +3.0868314178E-003 -5.7962790691E+001  +6.9599601023E-002 +8.2497783641E-001 
3012484.355 +1.0374549923E-001 +1.5870089822E+002  +5.2807467606E-003 -5.2458732628E+001  +1.0748607160E-002 -7.2824487728E+001  +2.1433891400E-001 -9.8373504526E+001 
3137629.537 +1.2393539127E-001 +1.7004473257E+002  +7.3574044488E-003 -8.6759333566E+001  +9.6306377296E-003 +5.1073791793E+001  +3.7923300172E-001 -9.6728530483E+001 
3262774.718 +1.2400719580E-001 +1.6548288505E+002  +9.8653812609E-003 -1.0056683394E+002  +7.8144443016E-003 -1.6736089815E+002  +2.2637313550E-001 -7.0808825821E+001 
3387919.900 +1.1789297041E-001 +1.5578180517E+002  +2.0417366284E-002 -6.4893588533E+001  +9.0626896023E-003 -1.5685945733E+002  +5.1327835862E-001 +6.0045221727E+001 
3513065.081 +1.4012094637E-001 +1.5732040044E+002  +2.6468228507E-002 +1.0414754944E+002  +6.0754131795E-003 +1.5992089257E+001  +9.2162939946E-001 +1.2950485859E+002 
3638210.263 +1.7373380663E-001 +1.5169430462E+002  +2.7158680869E-003 -1.2696243493E+002  +6.6224117856E-003 +1.1091502157E+002  +4.8255938748E-001 +1.6695482007E+002 
3763355.444 +1.8336173286E-001 +1.4332431763E+002  +1.0992057654E-002 +1.5933118839E+002  +1.2028056557E-002 -1.0879649096E+002  +4.6389299964E-001 +1.2764483773E+002 
3888500.626 +1.7904326195E-001 +1.5440235692E+002  +5.5917991748E-003 +1.2466677117E+002  +2.0003787586E-002 -1.6163511936E+002  +3.3037096955E-001 +1.0006189772E+002 
4013645.807 +1.6515998489E-001 +1.5196312078E+002  +5.6836445270E-003 -1.7050255639E+002  +8.5737070770E-003 +4.2691459284E+001  +2.0630790000E-001 +1.2431355587E+002 
4138790.989 +1.7872581835E-001 +1.4678784344E+002  +7.3044374510E-003 -1.6345951452E+002  +1.1304680653E-002 +8.3149371624E+000  +6.8623887880E-001 +1.2962603817E+002 
4263936.170 +1.9481388707E-001 +1.3852784324E+002  +8.6695839035E-003 -1.3572719927E+002  +4.9352047102E-003 -4.4609744957E+001  +6.4071629042E-001 +1.3115825706E+002 
4389081.352 +2.2402557869E-001 +1.4243854689E+002  +4.4825431922E-003 +4.1336690469E+001  +5.3280442887E-003 +7.9193249168E+001  +3.7798645692E-001 +3.1945002327E+001 
4514226.533 +1.7746087765E-001 +1.4535403875E+002  +1.2013901666E-001 +1.1040483509E+002  +4.3486072761E-002 -1.4811225802E+002  +6.8712400389E+000 +1.1834658799E+001 
4639371.715 +2.3746745934E-001 +1.2772550198E+002  +2.0156216678E-002 +5.8018685577E+001  +3.7616203961E-003 +1.1635771154E+002  +1.1462748646E+000 +1.2927206520E+002 
4764516.896 +3.5167313286E-001 +1.2438507647E+002  +1.8274541692E-001 +1.0248504155E+002  +1.7879551690E-001 -1.2874662536E+001  +7.1674882326E+000 +1.7522338062E+001 
4889662.078 +4.3064780228E-001 +1.2517549184E+002  +4.5896789250E-002 +4.9927640786E+001  +6.4661233781E-002 -3.9510474836E+001  +3.8115490262E+000 -1.2063888120E+002 
5014807.259 +3.9981713776E-001 +1.3611923169E+002  +2.5093425343E-002 -7.0179319168E+001  +4.2587947667E-002 -7.3549577076E+001  +1.8535301814E+000 -2.1743194325E+001 
5139952.441 +4.4672654726E-001 +1.2447639837E+002  +4.2424993005E-002 +8.8936616716E+001  +2.3629275683E-002 +1.6710324629E+002  +2.2720867142E+000 +1.4540513124E+002 
5265097.622 +4.8511365420E-001 +1.3297143445E+002  +4.3471022958E-002 +7.1491289820E+000  +1.9897348189E-002 -1.0231673793E+002  +2.3386208877E+000 +1.4804008312E+001 
5390242.804 +4.0745518927E-001 +1.3195686834E+002  +4.5268365997E-002 -1.8252433488E+001  +4.7730588286E-002 +5.1652636852E+001  +6.4574306661E+000 +5.3867271065E+001 
5515387.985 +4.0447526060E-001 +1.3390309730E+002  +1.0881170191E-002 +1.0474245790E+002  +4.5901530719E-002 -1.0818963577E+002  +3.1093016006E+000 +9.1392818026E+001 
5640533.166 +4.9749080942E-001 +1.2948701953E+002  +1.5732126427E-002 +6.8134557863E+001  +2.6052213045E-002 +2.3346967327E+001  +2.8198703082E+000 +9.1039187255E+001 
5765678.348 +4.8824964517E-001 +1.2282333650E+002  +2.0003522440E-002 +1.1563882335E+002  +2.4363197364E-002 +8.6441406292E+000  +2.4624691425E+000 +9.4711897085E+001 
5890823.529 +5.4213962815E-001 +1.2896901841E+002  +1.7267965669E-002 +1.1750743249E+002  +5.0375634437E-003 +1.1528313985E+002  +1.3816713201E+000 +6.4172052161E+001 
6015968.711 +6.1462861468E-001 +1.2472008746E+002  +3.8385883580E-003 -1.2475227915E+002  +1.5988713862E-002 +1.0542565019E+002  +1.4146925342E+000 +3.4304790744E+001 
6141113.892 +6.9622788403E-001 +1.1169782126E+002  +3.5481967390E-002 -1.7771609241E+002  +3.0561148440E-002 -1.1875274596E+002  +2.4381259224E+000 +3.9528426568E+001 
6266259.074 +9.5260986770E-001 +9.5650658883E+001  +1.2124366146E-002 -3.6167903527E+000  +6.4898549134E-003 -1.5943107777E+002  +1.6385320030E+000 +2.6790683498E+001 
6391404.255 +8.4846800172E-001 +1.0197382799E+002  +2.2627133971E-002 +5.8483783654E+001  +1.8534017405E-002 +1.0208872417E+002  +1.4254280314E+000 +3.0481731061E+001 
6516549.437 +1.0549520483E+000 +9.6583641643E+001  +3.2141146200E-002 +4.2248520048E+001  +3.1465294670E-002 +7.5717527436E+001  +1.2620625361E+000 +5.2651121519E+000 
6641694.618 +2.0107485062E+000 +6.9236026832E+001  +2.4543923559E-002 +4.9305985195E+001  +8.7793330178E-003 +3.6767697476E+000  +1.4322945193E+000 -6.7551534877E+000 
6766839.800 +1.8876341805E+000 +3.5308660346E+001  +1.3026790878E-002 +1.2666991884E+002  +2.3149526516E-002 +1.1246146878E+001  +1.2900787062E+000 -9.4734932741E+000 
6891984.981 +2.0545112889E+000 +4.1230702817E+001  +1.2162255126E-002 +7.4045351194E+001  +1.8396883067E-002 +4.0982700521E+001  +1.3894537613E+000 -7.9443041096E+000 
7017130.163 +1.6644028857E+000 +1.5300858605E+001  +9.6245241017E-003 -2.9381256353E+001  +3.0697262052E-002 +1.8788528620E+001  +1.2017410897E+000 -1.6434040844E+001 
7142275.344 +1.6743856726E+000 +3.5223044496E+000  +1.5107765676E-002 -5.4814360854E+001  +1.8692713230E-002 +1.1654303695E+002  +1.3160390340E+000 -1.4740486538E+001 
7267420.526 +1.5513933264E+000 -1.3146231316E+000  +2.5060356898E-003 +3.9812620573E+001  +5.8003538506E-003 -1.2633434148E+002  +1.2361516581E+000 -5.1574919591E+000 
7392565.707 +1.3040936513E+000 -7.4728225356E-001  +1.1714215618E-002 +1.0591605051E+002  +3.9006492013E-003 -9.9733245946E+001  +1.2611003947E+000 -5.0570353178E+000 
7517710.889 +1.0713969293E+000 +2.6291823492E+000  +4.3559772980E-003 +7.1780985996E+001  +8.8368279531E-003 +6.1927449305E+001  +1.2726003371E+000 -7.8858754800E+000 
7642856.070 +1.1484721172E+000 +4.9982117512E+000  +8.1407026123E-003 -1.7327123091E+001  +5.1949599670E-003 +8.0913165572E+001  +1.1135677586E+000 -6.8323633367E+000 
7768001.252 +9.0704438043E-001 +3.8914985008E+000  +3.6927698969E-003 +2.9587125298E+001  +9.7361861951E-003 +1.6518566044E+001  +9.7812053587E-001 -1.8272592485E+000 
7893146.433 +9.0733913375E-001 -3.1704638293E+000  +6.5002674776E-003 +2.9388389438E+001  +1.0611403221E-002 +5.9103103036E+001  +9.7091899554E-001 -2.9893455816E-001 
8018291.615 +7.4603863751E-001 -9.5575608215E-001  +1.0683788793E-002 +8.3593339118E+001  +7.0990629461E-003 +2.8094472564E+001  +9.1252271263E-001 +4.6972323969E+000 
8143436.796 +7.7537471901E-001 +8.1204679198E+000  +3.5346565757E-003 +1.5222814886E+002  +3.4150841967E-003 -1.1650219999E+002  +8.4185651102E-001 -3.8301456115E+000 
8268581.977 +7.1687300563E-001 +1.1753610581E+001  +7.0273775026E-003 +3.8619103219E+001  +5.7659102796E-003 +5.2886906169E+001  +7.6391647959E-001 -8.1349210785E-001 
8393727.159 +6.7950517203E-001 +9.2267073113E+000  +1.2820175095E-003 -9.7875452544E+001  +4.1925431241E-003 +8.1959626720E+001  +6.9423689534E-001 +3.3245955276E+000 
8518872.340 +7.5845513322E-001 +2.6545506141E+000  +4.8063368424E-003 +2.5148013254E+001  +8.3532461421E-003 +7.8421544161E+001  +6.6160673351E-001 -5.6264707144E+000 
8644017.522 +6.5315172854E-001 +6.9142212963E+000  +4.1562020858E-003 +7.1963266355E+001  +2.2621616728E-003 +4.4009473580E+001  +6.4331058955E-001 +1.5961363406E+000 
8769162.703 +5.9143357373E-001 +9.3622240166E+000  +8.6001463796E-003 +1.0111636062E+002  +5.8262525993E-003 +9.2728387038E+001  +6.5397600814E-001 -2.2644272091E+000 
8894307.885 +5.3245155039E-001 +1.0205727323E+001  +3.5357631193E-003 +4.4309023678E+001  +4.3559854934E-003 +9.3197024054E+001  +6.5313500749E-001 +1.6656608489E+000 
9019453.066 +6.2110261227E-001 +2.8396983725E+000  +2.3676093444E-003 +4.4723149099E+000  +9.5459425399E-003 +7.5116167908E+001  +6.4894130240E-001 -4.7453074424E-001 
9144598.248 +5.7405802710E-001 +5.3017822169E+000  +4.9373404149E-003 +8.7865211042E+001  +6.9701547602E-004 +7.1850986027E+001  +5.7775689394E-001 -6.7427220722E-001 
9269743.429 +5.7827072213E-001 +5.7587479815E+000  +5.0864501900E-003 +3.6165951442E+001  +4.6737955974E-003 +4.3170362470E+001  +6.2194520376E-001 +3.8629111179E-003 
9394888.611 +5.1560289992E-001 +8.0590026371E+000  +5.5677290552E-003 +5.8859731651E+001  +3.8374882473E-003 +1.1260443237E+002  +5.6166104778E-001 +4.9644381829E-001 
9520033.792 +5.3577733951E-001 +5.2734421634E+000  +4.1250996195E-003 +6.1493044485E+001  +3.9431723777E-003 +8.7459280536E+001  +5.7893327860E-001 -4.6069286988E+000 
9645178.974 +5.6718156611E-001 +6.6933602673E+000  +3.2752288009E-003 +4.4909144628E+001  +2.7925961929E-003 +8.3125970630E+001  +6.0227041490E-001 -5.2505616666E+000 
9770324.155 +5.9480932465E-001 +2.8239533782E+000  +5.7671878307E-003 +6.3095600535E+001  +6.8681680416E-003 +7.5717232404E+001  +5.7215594748E-001 -4.8514559935E+000 
9895469.337 +5.1956069949E-001 -5.8931816391E-001  +7.0441645841E-003 +7.8923847694E+001  +4.3252605607E-003 +7.5281214817E+001  +5.7051177721E-001 -3.3772801771E+000 
10020614.518 +5.7032978569E-001 -1.4065277789E+000  +3.3311274766E-003 +1.8578377841E+001  +5.4257911247E-003 +1.0253687851E+002  +6.0566119342E-001 -5.7952534980E+000 
10145759.700 +5.6286441320E-001 -1.3660427755E+000  +3.8304030236E-003 +5.6725358419E+001  +6.2615209381E-003 +6.4793511163E+001  +6.0665478971E-001 -2.5334937534E+000 
10270904.881 +5.8767949062E-001 +4.8584426531E+000  +3.7501183027E-003 +9.1150751848E+001  +4.8726021998E-003 +8.4851512096E+001  +5.6266483412E-001 -4.6608417404E+000 
10396050.063 +5.6155848674E-001 +4.8584332573E+000  +4.2507545877E-003 +1.1254535502E+002  +3.7994709183E-003 +1.1862622465E+002  +5.9220112257E-001 -5.9800305021E-001 
10521195.244 +5.7994962230E-001 +7.1611152273E+000  +3.7617277910E-003 +2.0408202951E+001  +5.7926644390E-003 +9.9684139940E+001  +5.8999982986E-001 +4.3523206870E-001 
10646340.426 +5.8055949962E-001 +6.4993189246E+000  +7.2765501702E-003 +6.3462551028E+001  +3.1375198307E-003 +7.2862489473E+001  +5.9725443932E-001 -2.6092570335E+000 
10771485.607 +5.6746042089E-001 +3.3082983951E+000  +7.5524276011E-003 +6.8668548633E+001  +4.2710077855E-003 +9.0823952949E+001  +5.9108453998E-001 -2.8551364576E+000 
10896630.788 +5.4037629109E-001 +7.8759826731E+000  +3.4757376890E-003 +8.9931388269E+001  +5.6453484853E-003 +8.9293533217E+001  +5.8916602508E-001 +8.6777052791E-001 
11021775.970 +5.6327298092E-001 +3.4330212828E+000  +4.6589501936E-003 +9.0412552423E+001  +3.5517642563E-003 +1.1951492267E+002  +6.2709472592E-001 -2.4177412970E-001 
11146921.151 +6.0194249430E-001 +7.2410427165E+000  +7.2067177633E-003 +7.0880177150E+001  +3.9631031043E-003 +6.2368527403E+001  +6.3003050910E-001 +4.2997364467E+000 
11272066.333 +5.8633619622E-001 +5.4013405985E+000  +4.6932273539E-003 +7.3537985332E+001  +4.1117374441E-003 +7.0564022734E+001  +6.3921758256E-001 +3.0478213098E+000 
11397211.514 +5.8115657996E-001 +7.5202882552E+000  +7.3080918091E-003 +9.0855561705E+001  +3.7681396784E-003 +6.8780041485E+001  +6.7345767603E-001 +2.4452623261E-001 
11522356.696 +6.5038725524E-001 +7.3281357142E+000  +2.9392656543E-003 +7.7363416310E+001  +6.0413736084E-003 +7.9897906220E+001  +6.4019137897E-001 +2.1542652494E+000 
11647501.877 +6.6372043651E-001 +6.0619186284E+000  +5.4248587456E-003 +8.9055915277E+001  +4.3620522561E-003 +7.5512831779E+001  +6.5736433334E-001 +1.5645140676E-002 
11772647.059 +6.7735122956E-001 +5.0134131696E+000  +5.4974509656E-003 +6.9778857652E+001  +4.2804852863E-003 +9.8650694300E+001  +6.7306222065E-001 +1.1165942809E+000 
11897792.240 +6.4524437675E-001 +2.7830722970E+000  +3.5709292353E-003 +5.6239769552E+001  +7.0284663396E-003 +8.7038882879E+001  +6.7440737944E-001 -1.2674804690E-002 
12022937.422 +6.7512665333E-001 +4.6610837963E+000  +7.2437610167E-003 +8.1031938219E+001  +5.5737307464E-003 +1.0540830283E+002  +6.9695035949E-001 +1.6876301314E-001 
12148082.603 +6.7370224845E-001 +6.0414160316E+000  +8.3118190700E-003 +7.1502642024E+001  +6.8275154064E-003 +9.6610576519E+001  +6.8838621866E-001 -2.9355610173E+000 
12273227.785 +6.9481994485E-001 +3.3343689202E+000  +4.8272388143E-003 +8.9379235738E+001  +5.4498852713E-003 +8.4583182751E+001  +7.3299591713E-001 +1.7509305681E+000 
12398372.966 +7.0202406690E-001 +2.9944229173E+000  +5.5058609532E-003 +7.6546549108E+001  +5.6922738463E-003 +8.2766993522E+001  +7.0811194427E-001 -3.1456019756E-001 
12523518.148 +7.0742994332E-001 +2.9142198431E+000  +5.8504550949E-003 +7.8769826207E+001  +5.2332913738E-003 +1.0512950380E+002  +7.3220470572E-001 -5.8959219916E-002 
12648663.329 +7.4891452265E-001 +2.3975305877E+000  +5.9700299296E-003 +7.8026164798E+001  +4.9941227669E-003 +7.1844243632E+001  +7.6947436541E-001 +6.6695488059E-001 
12773808.511 +7.5007959279E-001 -1.6525847049E-001  +7.2876767054E-003 +7.1670979755E+001  +5.7121747982E-003 +9.6575123655E+001  +7.6879326108E-001 -7.0975036896E-001 
12898953.692 +7.7737580276E-001 +2.3801457679E+000  +6.7625166516E-003 +7.9408424832E+001  +8.1823135753E-003 +9.4308320277E+001  +7.7497774736E-001 +6.9301126399E-001 
13024098.874 +7.9459648945E-001 +7.9819511182E-002  +6.7392237255E-003 +7.1085119436E+001  +8.4005546825E-003 +7.9863366969E+001  +8.0577995935E-001 -2.4567353438E+000 
13149244.055 +7.9738484079E-001 +6.9129105475E-001  +6.8644896231E-003 +7.3897269206E+001  +5.6462915937E-003 +7.6119075663E+001  +8.1594973005E-001 -7.2498270296E-001 
13274389.237 +7.9914473322E-001 +1.2504310407E+000  +7.8976021408E-003 +7.0384572110E+001  +6.9847909838E-003 +8.7065017566E+001  +8.4141924454E-001 -1.6643422774E+000 
13399534.418 +8.4159067954E-001 -9.7531371788E-001  +5.9471786830E-003 +7.9297007990E+001  +6.8526048333E-003 +8.8942420334E+001  +8.5733489713E-001 -1.9000995432E+000 
13524679.599 +8.6448235738E-001 -1.1907889719E+000  +6.5698999658E-003 +7.5348688422E+001  +6.3519365451E-003 +8.8179389237E+001  +8.7539561019E-001 -3.0628241444E+000 
13649824.781 +8.7850683072E-001 -3.4152292107E+000  +6.5430103871E-003 +7.7562839050E+001  +9.2006859736E-003 +7.6938958523E+001  +8.8406746595E-001 -1.9256150431E+000 
13774969.962 +8.7880502521E-001 -1.9614514780E+000  +6.8090305575E-003 +7.2356373842E+001  +6.6552863577E-003 +7.6162414932E+001  +9.1977478614E-001 -3.1783282453E+000 
13900115.144 +9.0894535599E-001 -4.1170226861E+000  +8.2869687085E-003 +8.0330527913E+001  +5.9473237345E-003 +8.6356658719E+001  +9.2760574587E-001 -4.1055463036E+000 
14025260.325 +9.1017963755E-001 -4.2085823929E+000  +6.4006155280E-003 +7.9628035954E+001  +8.1299810914E-003 +7.5319863261E+001  +9.2586313943E-001 -3.9624544749E+000 
14150405.507 +9.3496890598E-001 -4.4049603021E+000  +8.1157552680E-003 +6.9369463853E+001  +8.1047367647E-003 +8.8273012795E+001  +9.4570223543E-001 -3.3712200347E+000 
14275550.688 +9.5071604952E-001 -3.7503050379E+000  +7.1245553303E-003 +7.1853512951E+001  +9.7965834227E-003 +7.7003268517E+001  +9.6373045772E-001 -5.1450137805E+000 
14400695.870 +9.7906928520E-001 -5.6258512834E+000  +8.4866472968E-003 +7.7892425437E+001  +7.2131453146E-003 +8.2588751015E+001  +9.9224945831E-001 -5.0086774567E+000 
