!  2-Port S-parameters saved by WinCal
! VAR MeasName=S-Parameters (CALIBRATED_DATA) read from VNA (P5004A)
! VAR MeasDate=27/08/2024 15:13:08
! VAR NAME=S2_r3c8_SET3_9k-100M_1
! VAR FILENAME=S2_r3c8_SET3_9k-100M_1.S2P
! VAR DATE=27/08/2024 15:13:08
! VAR PHYS_PORTS=1,2
! VAR ObjTypeName=DATASET
! VAR IndexType=Frequency
!
# Hz S MA R 50
9000.000 +8.4437511405E-002 -1.1804391297E+002  +1.4980833963E-002 +1.1936706998E+001  +1.6771083449E-002 -1.7350452928E+002  +2.3773392219E-001 -1.4654972456E+002 
134145.181 +1.1158088990E-001 +1.6936766554E+002  +3.0150157789E-004 -4.2924457366E+001  +2.4821992802E-004 +1.1511271713E+001  +2.4009737361E-001 -1.7064813459E+002 
259290.363 +1.1144775914E-001 +1.6946819378E+002  +2.1744449866E-004 +7.5526796552E+001  +7.8595856262E-004 -9.4395555542E+000  +2.3815312491E-001 -1.6820669243E+002 
384435.544 +1.1340195163E-001 +1.7053377898E+002  +5.4953253077E-004 -8.3470391402E+001  +7.3713993521E-004 -1.0399898439E+002  +2.4257885130E-001 -1.6849765988E+002 
509580.726 +1.1399114928E-001 +1.7192297760E+002  +1.3548343092E-003 +9.2941455394E+001  +1.5915950759E-003 -1.4158302821E+002  +2.4726747752E-001 -1.6437393025E+002 
634725.907 +1.1513572338E-001 +1.7106923487E+002  +8.8871336081E-004 -1.3255658321E+002  +5.3896295359E-004 -1.3723002631E+002  +2.3980407337E-001 -1.6408905287E+002 
759871.089 +1.1797935812E-001 +1.7025532738E+002  +4.8820165075E-004 +1.0524083749E+002  +2.1335351124E-004 -1.4340279324E+002  +2.4264990270E-001 -1.6707166741E+002 
885016.270 +1.1647147353E-001 +1.6952758385E+002  +8.9052347765E-004 -2.8797871803E+001  +5.5693322088E-004 +6.7493081281E+001  +2.4268579430E-001 -1.6519510532E+002 
1010161.452 +1.1993997039E-001 +1.7041017389E+002  +2.8877167594E-003 -8.0839012558E+001  +3.3718281752E-003 -1.3976901384E+000  +1.3152961322E-001 -1.6764443183E+002 
1135306.633 +1.1808922417E-001 +1.6868018192E+002  +1.3350497870E-003 -1.0873186190E+002  +5.7220797610E-004 +3.6651408708E+001  +2.0558977793E-001 -1.6120942454E+002 
1260451.815 +1.2494226676E-001 +1.7369951379E+002  +1.0448872994E-003 +5.3467648743E+001  +2.6814432159E-003 -1.7976737898E+002  +2.2354097672E-001 -1.5189661367E+002 
1385596.996 +1.2536861620E-001 +1.7192468690E+002  +3.6416897110E-004 -1.3940164311E+002  +5.0622055817E-004 +6.9488669163E+001  +2.6939813388E-001 -1.5595670822E+002 
1510742.178 +1.2483688225E-001 +1.6966816157E+002  +6.8957729291E-004 -2.9409224158E+000  +4.9188518488E-004 +1.3037761910E+002  +2.5520904698E-001 -1.5984056379E+002 
1635887.359 +1.2862372583E-001 +1.7050469502E+002  +5.7360484641E-004 -1.0644402282E+002  +6.6608607900E-004 -9.9927676523E+001  +2.4251026975E-001 -1.5815585665E+002 
1761032.541 +1.2973500601E-001 +1.7069410146E+002  +1.3863550981E-003 -1.5529936694E+002  +4.7228953620E-004 +3.6078725677E+001  +2.0942740894E-001 -1.6148179480E+002 
1886177.722 +1.3261881280E-001 +1.6883486527E+002  +1.1755373631E-003 +8.9997286746E+000  +6.6239562249E-004 -1.1053490528E+002  +2.0826523706E-001 -1.6493182624E+002 
2011322.904 +1.2838695043E-001 +1.6862206598E+002  +2.4332382346E-003 +1.1270495919E+002  +6.1767581838E-004 -1.6931103056E+002  +1.9824410668E-001 -1.7526529114E+002 
2136468.085 +1.1985108606E-001 +1.6942896521E+002  +2.7495101194E-003 -1.2289494876E+001  +4.1459690126E-004 -8.9788500377E+001  +2.4684315218E-001 +1.6744375768E+002 
2261613.267 +1.2719327570E-001 +1.6087391623E+002  +5.9911485367E-003 +7.4150106419E+001  +8.1223607735E-003 -9.8081076619E+001  +9.9122380182E-002 -1.4470291627E+002 
2386758.448 +1.3744897863E-001 +1.6349260494E+002  +6.7427990487E-004 +1.2314208806E+002  +8.6316061451E-004 +2.6129579232E+001  +2.4642453967E-001 +1.7799040722E+002 
2511903.630 +1.3584740059E-001 +1.6047423807E+002  +3.1187709848E-003 +1.0737274070E+002  +2.1203329946E-003 -1.2459071766E+001  +2.9003480787E-001 +1.6954264029E+002 
2637048.811 +1.3102315933E-001 +1.6425657403E+002  +1.9389413062E-003 -1.2233620884E+002  +7.3074819370E-003 -3.0288698739E+001  +2.5865514597E-001 +1.4284638398E+002 
2762193.992 +1.2307033278E-001 +1.7151002488E+002  +5.5780244327E-002 -1.1919322527E+002  +8.0856818553E-002 +1.3806652817E+002  +1.3603635112E+000 -1.0759627854E+002 
2887339.174 +1.3148567224E-001 +1.7972303119E+002  +5.9339360054E-003 -1.2639553125E+002  +8.3981264749E-003 +1.0493750497E+002  +3.8592919812E-001 -1.0700657522E+002 
3012484.355 +1.3004290137E-001 +1.7305156039E+002  +2.3091462342E-002 -3.3960235501E+001  +7.5552899081E-003 +1.5506597318E+002  +4.1075142996E-001 -7.3640575678E+001 
3137629.537 +7.0819666389E-002 +1.5707499661E+002  +2.9505745338E-002 +5.2294990113E+001  +2.4947856990E-002 -4.1898566177E+001  +1.3479914806E-001 +3.6812784379E+001 
3262774.718 +1.1366295777E-001 +1.6560319101E+002  +1.4648744773E-002 -2.0798830096E+001  +3.2242683223E-003 -8.9351872017E+001  +1.1921685444E-001 -4.8206402348E-001 
3387919.900 +1.2535751361E-001 +1.6783890378E+002  +7.7730646459E-003 +1.0056415209E+002  +6.4457760925E-003 +1.0509601211E+002  +3.9915438524E-001 +1.3606581758E+002 
3513065.081 +1.3679236096E-001 +1.4771078624E+002  +1.1570678717E-002 -1.5395863561E+002  +5.7268969681E-003 +5.0510985072E+001  +4.2903726248E-001 +1.0692604258E+002 
3638210.263 +1.6453502796E-001 +1.5585637515E+002  +4.5382977742E-003 +1.3137404988E+002  +4.9861251550E-003 +9.4209026178E+001  +4.5912373124E-001 +1.5037084818E+002 
3763355.444 +1.6156222769E-001 +1.4587090933E+002  +1.2272599067E-002 +8.1958885568E+001  +1.9463209877E-002 +3.1267856269E+001  +4.0647190724E-001 +1.3871497959E+002 
3888500.626 +1.8469976154E-001 +1.4748192459E+002  +1.3541097003E-002 +4.7479252483E+001  +1.5543881461E-002 +1.7413327924E+001  +2.3412559280E-001 +1.1552760031E+002 
4013645.807 +1.4084083042E-001 +1.4461096411E+002  +7.5869131532E-003 -7.8241802078E+000  +1.0531702169E-002 -1.0798361428E+002  +2.1170301527E-001 +3.6050123952E+001 
4138790.989 +1.7875539128E-001 +1.3521518466E+002  +1.4149303315E-002 +8.0282895135E+001  +1.8889302253E-002 -2.5399378673E+001  +2.1485260741E-001 +1.2937691897E+002 
4263936.170 +1.9801766086E-001 +1.4834925853E+002  +2.1690982404E-002 +7.0290355645E+001  +2.8768708299E-002 +3.6050644257E+001  +4.5565503039E-001 +1.0928029205E+002 
4389081.352 +1.7428185864E-001 +1.4216564873E+002  +8.0682046719E-003 +1.7549856088E+001  +4.3120687018E-003 +1.2360752960E+002  +3.1963318356E-001 +1.2615612586E+002 
4514226.533 +2.0829772505E-001 +1.3782251692E+002  +1.1946758884E-002 +7.6910285201E+001  +5.2495631858E-003 +5.4888802528E+001  +7.9924153726E-001 +1.3843763511E+002 
4639371.715 +2.7205199203E-001 +1.1347684747E+002  +1.0589364783E-001 +1.3062953248E+002  +1.6153042617E-001 +6.8409911432E+001  +2.4970317316E+000 +8.6338363440E+001 
4764516.896 +2.9429151410E-001 +1.1406255686E+002  +5.4964402915E-002 -9.8614757890E+001  +3.1080363593E-002 -1.1067839454E+002  +3.1194145567E+000 -1.0538926721E+002 
4889662.078 +4.1655221260E-001 +1.3429615003E+002  +1.8092376369E-001 -1.2552201971E+002  +2.0760410016E-001 -1.2822488085E+002  +5.9563201092E+000 -1.5805555013E+002 
5014807.259 +4.1899054289E-001 +1.2605920828E+002  +1.6126484336E-001 +1.3799445334E+002  +2.2748076199E-001 +9.0987107769E+001  +6.1560164579E+000 +7.3365030062E+001 
5139952.441 +4.3211379788E-001 +1.3021964212E+002  +1.2146952128E-001 +1.4790659198E+002  +1.9579291517E-001 +1.0606047143E+002  +5.4093194957E+000 +1.1230066403E+002 
5265097.622 +3.5023682488E-001 +1.2846533330E+002  +5.3586962587E-002 +8.7484615081E+000  +1.0966666207E-001 -3.8494604648E+000  +4.1313271393E+000 -8.9038888271E+000 
5390242.804 +3.8332825882E-001 +1.2894199002E+002  +5.5568714586E-002 +1.6446601818E+002  +7.4871952348E-002 +8.2106325678E+001  +2.1644821060E+000 +1.1036801485E+002 
5515387.985 +4.5480597278E-001 +1.3329614336E+002  +6.4157513398E-002 +1.0555312500E+002  +6.1813892422E-002 +6.5876735359E+001  +2.1343750928E+000 +7.5400928193E+001 
5640533.166 +4.0270826551E-001 +1.2562023458E+002  +3.8409518755E-002 +7.3451145166E+001  +6.4644812379E-002 +5.2553508134E+001  +1.8036935201E+000 +5.4075827521E+001 
5765678.348 +5.0993857038E-001 +1.2749461611E+002  +6.6448390722E-002 +9.6921304347E+001  +5.6418934244E-002 +3.9826623059E+001  +1.8940191192E+000 +6.9746942124E+001 
5890823.529 +5.2980255022E-001 +1.1548877898E+002  +6.5706658019E-002 +6.5898065221E+001  +4.2163960566E-002 +6.8205971640E+001  +1.2967654548E+000 +6.9233650272E+001 
6015968.711 +5.9680064486E-001 +1.1424013753E+002  +3.3305764920E-002 +5.0478397579E+001  +3.1347045804E-002 +2.8138550097E+001  +9.5024005868E-001 +4.5425548178E+001 
6141113.892 +7.1069374734E-001 +1.1687244048E+002  +6.2840716589E-002 +6.6720954406E+001  +4.6589398303E-002 +2.2484324549E+001  +1.5608055366E+000 +4.2237804598E+001 
6266259.074 +7.8993969628E-001 +1.1547143303E+002  +7.0157536734E-002 +4.5440539892E+001  +3.7037998959E-002 +2.6977421630E+001  +1.6339049947E+000 +8.6872380405E+000 
6391404.255 +1.0815893526E+000 +1.0049422478E+002  +7.3585805466E-002 +6.6994191810E+001  +6.2171840404E-002 +3.9199991690E+001  +1.4269332365E+000 +2.3465332267E+001 
6516549.437 +1.2980681426E+000 +8.2851109159E+001  +7.0076487633E-002 +5.0323591337E+001  +8.0021213771E-002 +3.4937799223E+001  +1.3178256772E+000 -9.2577254625E-001 
6641694.618 +2.0969994209E+000 +7.8195758641E+001  +8.4847287187E-002 +5.0478904911E+001  +6.3092982361E-002 +3.4068100220E+001  +1.4873630977E+000 -3.1274889209E+000 
6766839.800 +2.1323245232E+000 +6.3544335971E+001  +9.7053926276E-002 +4.9834874626E+001  +6.8586052016E-002 +2.4944002975E+001  +1.2115058879E+000 -2.5918599389E-001 
6891984.981 +1.6251083313E+000 +4.0951957916E+001  +6.7197090113E-002 +8.1826632673E+000  +6.3007406740E-002 +4.5468845074E+000  +1.1419568114E+000 -1.3762085184E+001 
7017130.163 +1.8759414252E+000 +2.3315419661E+001  +7.9946675851E-002 +2.3170790020E+001  +7.7958999023E-002 +1.0674845321E+001  +1.1468528092E+000 -4.9967017240E+000 
7142275.344 +1.6903872648E+000 +8.1125118000E+000  +5.4288623256E-002 +5.0766747563E+000  +5.3690815228E-002 +9.7346568322E+000  +1.2935380434E+000 -1.5288023306E+001 
7267420.526 +1.3773741385E+000 -1.0519593164E+001  +5.1213019380E-002 +5.6027505127E+000  +4.0985954059E-002 +3.7439406296E+000  +1.4384214857E+000 -1.0616890917E+001 
7392565.707 +1.3995489242E+000 +2.6152651718E-001  +4.2531576419E-002 -7.1827132166E+000  +3.2638495732E-002 +1.4688591500E+001  +1.2604037039E+000 -1.2522726113E+001 
7517710.889 +1.1465361094E+000 -1.0174429490E+001  +2.7628912948E-002 +8.3707709460E+000  +3.2660736945E-002 +9.1538432004E+000  +1.2394182404E+000 -9.4787827836E+000 
7642856.070 +9.7296016443E-001 +5.9254166969E+000  +3.6289940760E-002 +1.0191001963E+001  +2.6832350422E-002 +7.2709183058E+000  +1.0448118706E+000 -4.2349258103E+000 
7768001.252 +9.5418414967E-001 +5.4715984106E+000  +3.1879359617E-002 +6.7558878492E+000  +2.8940271293E-002 +1.3091382255E+001  +9.8802170980E-001 -2.6015647367E+000 
7893146.433 +8.4891549188E-001 +8.7019801636E+000  +1.8358259606E-002 +1.2802839480E+001  +3.1153108040E-002 +1.0739433643E+001  +9.4461490965E-001 -4.8464881646E+000 
8018291.615 +8.3333699499E-001 +5.1373255015E+000  +2.8776500779E-002 +1.1022478519E+001  +2.9607411194E-002 +1.8276368152E+001  +8.9941912868E-001 -6.8652448055E+000 
8143436.796 +6.7179368711E-001 +9.9575380547E+000  +2.5192367520E-002 +8.0219310270E+000  +2.4266892131E-002 +1.0248410975E+001  +8.2949587649E-001 -9.7417019757E-001 
8268581.977 +7.0413933556E-001 +7.3011351856E+000  +2.2977087542E-002 -4.6482473130E-001  +2.4973583621E-002 +2.5522810926E+001  +7.6185810954E-001 -5.7259854361E+000 
8393727.159 +6.7867728196E-001 +5.8466931477E+000  +2.7004965868E-002 -5.9305729827E-001  +2.6612195489E-002 +2.8977940433E+001  +6.6248028924E-001 -5.9231511429E-001 
8518872.340 +7.1054714777E-001 +1.3374552794E+001  +2.2228699436E-002 +5.8281434409E+000  +1.8986407529E-002 +1.3762019737E+001  +6.9522308464E-001 +3.8098480424E-001 
8644017.522 +5.9008001064E-001 +4.2202907857E+000  +2.3272575654E-002 +6.8461277055E-001  +1.9389574511E-002 +2.1585970064E+001  +6.5641344691E-001 +2.9151524312E+000 
8769162.703 +6.5230762509E-001 +2.8490215335E+000  +1.9130641928E-002 +1.2694116309E+001  +1.8141446521E-002 +2.5037944312E+001  +6.4544105994E-001 +7.0703540855E+000 
8894307.885 +5.9586497516E-001 +8.6108183972E+000  +2.1563537156E-002 +5.9500656790E+000  +2.2693896735E-002 +6.0594296756E+000  +6.8219066811E-001 +1.8937645591E+000 
9019453.066 +6.2405275366E-001 +7.6017256990E+000  +2.4714463943E-002 +5.5274307405E+000  +1.9729961346E-002 +9.8787642532E+000  +5.7753896462E-001 -1.9729410758E+000 
9144598.248 +5.6822972139E-001 +6.8130712199E+000  +2.0902982257E-002 +4.4127280649E+000  +1.9467055139E-002 +1.9167227533E+001  +6.1270381255E-001 -1.4081167849E+000 
9269743.429 +5.7326812219E-001 +2.3051793275E+000  +1.9651618403E-002 -4.4295805401E-001  +2.3636792732E-002 +2.1753659391E+001  +5.8497206979E-001 +1.7622559592E+000 
9394888.611 +5.6412468258E-001 +4.3240347912E+000  +2.3481860012E-002 +6.5561953001E+000  +2.1970956464E-002 +2.5647829972E+001  +5.8394588154E-001 +1.9619551565E+000 
9520033.792 +5.4609229316E-001 +2.7104006382E+000  +2.0130927649E-002 +8.5345816605E+000  +2.3314071185E-002 +1.8430643799E+001  +5.9294446221E-001 -4.6353229346E+000 
9645178.974 +5.5931500920E-001 +2.6564323616E+000  +2.0255306577E-002 -2.5035987728E+000  +2.3177842529E-002 +2.7548659569E+001  +5.8053334331E-001 -1.3927303782E+000 
9770324.155 +5.1427367419E-001 +2.9648329726E-001  +2.4670968837E-002 +1.2021281871E+001  +2.1702905068E-002 +1.5723033258E+001  +5.7377079476E-001 -6.4109275626E+000 
9895469.337 +5.4848229864E-001 -3.5099199913E+000  +2.0690901755E-002 +5.1942365141E+000  +2.1718909403E-002 +1.5554217186E+001  +5.9171722836E-001 -3.5534989112E+000 
10020614.518 +4.9871017955E-001 +1.9535405696E+000  +2.0714866242E-002 +4.8411664017E+000  +2.2931371235E-002 +2.8763710801E+001  +5.7584413569E-001 -6.8867912020E+000 
10145759.700 +5.1930462136E-001 +4.0353503084E+000  +2.1311312783E-002 +7.9244347259E+000  +2.4044368630E-002 +1.7227775274E+001  +5.2362456685E-001 -2.7920343339E+000 
10270904.881 +5.5094478503E-001 +5.7297372266E+000  +2.3955000887E-002 +3.6650737365E+000  +2.1513310194E-002 +2.7871347192E+001  +5.3690085997E-001 -3.2038226408E+000 
10396050.063 +5.3673113548E-001 +3.1885243352E+000  +2.5051015460E-002 +1.0210476324E+001  +2.4742125663E-002 +2.6599639960E+001  +5.4376693289E-001 +4.8635718803E-002 
10521195.244 +5.2944193694E-001 +6.0670827290E+000  +2.6134732545E-002 +3.4794107044E+000  +2.3175905407E-002 +2.5421063641E+001  +5.8522179587E-001 -6.8587511763E-001 
10646340.426 +5.2131204343E-001 +7.5182018171E+000  +2.0919833075E-002 +1.0258366520E+001  +2.3287388193E-002 +2.1276270582E+001  +5.4343342736E-001 -1.2460534635E+000 
10771485.607 +5.4492253991E-001 +6.9500413982E+000  +2.4324132292E-002 +1.2685996045E+001  +2.2197450041E-002 +1.9737647935E+001  +5.6664203259E-001 +3.2054533569E-001 
10896630.788 +5.7192530501E-001 +7.8064649975E+000  +2.4867662567E-002 +4.9413136191E+000  +2.2747121747E-002 +2.3136178385E+001  +5.5710770751E-001 +7.9039918677E-001 
11021775.970 +5.6600536205E-001 +9.1860362014E+000  +2.2510264308E-002 +6.7838261672E+000  +2.4468999553E-002 +1.8277651981E+001  +5.6351351212E-001 +5.8329242584E-001 
11146921.151 +5.6134146726E-001 +9.4747653496E+000  +2.4379944640E-002 +1.4408020475E+001  +2.3892292308E-002 +2.1415681522E+001  +6.1256135082E-001 +2.5660505167E+000 
11272066.333 +5.8539761045E-001 +6.4474377447E+000  +2.3632534082E-002 +9.1180359322E+000  +2.2821052080E-002 +2.9207615274E+001  +5.8230076202E-001 -7.9298836239E-001 
11397211.514 +5.9251822338E-001 +7.5279106907E+000  +2.3653659028E-002 +9.3837396853E+000  +2.5325048145E-002 +2.5987212105E+001  +6.0557036684E-001 +2.2520132573E+000 
11522356.696 +5.9093405164E-001 +9.2171256740E+000  +2.3676234174E-002 +1.8866156139E+001  +2.4476460706E-002 +2.5399368595E+001  +6.1706078455E-001 +1.0773422050E+000 
11647501.877 +6.1521329803E-001 +5.4553358351E+000  +2.5808121003E-002 +1.1690318559E+001  +2.3698614679E-002 +2.3302553355E+001  +6.4426705947E-001 +7.6705113376E-001 
11772647.059 +6.2880246865E-001 +6.0262995363E+000  +2.5220074333E-002 +1.2006988749E+001  +2.5291554590E-002 +2.0873246537E+001  +6.3662177473E-001 -6.5713928582E-002 
11897792.240 +6.3196723218E-001 +3.2965829906E+000  +2.5010405856E-002 +1.6410085295E+001  +2.5634100387E-002 +1.9793878438E+001  +6.5653450383E-001 +1.2516568353E+000 
12022937.422 +6.2935265763E-001 +5.9146920532E+000  +2.6280488460E-002 +1.1727775952E+001  +2.3283297332E-002 +2.8244192972E+001  +6.9303965383E-001 +2.1419437227E+000 
12148082.603 +6.4360162359E-001 +6.0514442893E+000  +2.6230356589E-002 +1.2730005147E+001  +2.4880698829E-002 +2.0165790005E+001  +6.8207409485E-001 +1.2966892490E+000 
12273227.785 +6.5123299966E-001 +3.8538849045E+000  +2.7000350206E-002 +1.5814798929E+001  +2.6140607770E-002 +1.7951259797E+001  +6.8332541865E-001 +1.3162751590E+000 
12398372.966 +6.8610513945E-001 +2.6072778222E+000  +2.6427428514E-002 +8.5503798510E+000  +2.5599471192E-002 +2.1129000035E+001  +6.9432750807E-001 +1.6555560097E+000 
12523518.148 +7.1555926914E-001 +3.1914086787E+000  +2.7973765500E-002 +1.4701612413E+001  +2.9192145371E-002 +2.1263259247E+001  +7.2726098871E-001 -1.3254507328E+000 
12648663.329 +7.1780350230E-001 +3.0441508088E+000  +2.6610931841E-002 +1.8320597026E+001  +2.6133536889E-002 +2.1045612097E+001  +7.1789369433E-001 +1.3535194471E+000 
12773808.511 +7.4919673727E-001 +4.4730263581E+000  +2.7679027434E-002 +1.5912353466E+001  +2.5717635470E-002 +1.7826973978E+001  +7.5857842603E-001 -2.3890810880E-002 
12898953.692 +7.3172716316E-001 +2.2775366479E+000  +2.7272966149E-002 +1.5281195726E+001  +2.8998307029E-002 +2.1734430882E+001  +7.7385136603E-001 -1.6900265488E+000 
13024098.874 +7.2324154524E-001 -1.2117665998E+000  +2.8880683477E-002 +1.1817001591E+001  +2.7703363195E-002 +1.9635716303E+001  +7.5764844292E-001 -8.0081928225E-001 
13149244.055 +7.7893181079E-001 +7.5055090961E-001  +2.8334601198E-002 +1.6849440649E+001  +3.0037259942E-002 +2.1050657288E+001  +7.9275307832E-001 -3.0986508728E+000 
13274389.237 +8.0067227139E-001 -1.7717989793E-002  +2.8857623938E-002 +1.5488192370E+001  +2.8474313325E-002 +2.0630367367E+001  +8.1581727684E-001 -1.1096736239E-001 
13399534.418 +8.0139201869E-001 -1.2349502302E+000  +3.0516112797E-002 +1.4586838259E+001  +2.8448798070E-002 +2.0429910057E+001  +8.2049416676E-001 -2.2316987676E+000 
13524679.599 +8.2656679624E-001 -1.0179711111E+000  +2.8142913767E-002 +1.7372344139E+001  +2.8981263702E-002 +1.5964659617E+001  +8.4336691195E-001 -3.0763746768E+000 
13649824.781 +8.2240753665E-001 -2.6330291339E+000  +2.8960416084E-002 +1.5636975355E+001  +2.8651178609E-002 +1.7491330051E+001  +8.6632602858E-001 -3.4661336898E+000 
13774969.962 +8.3234452132E-001 -2.5847074420E+000  +2.9899063032E-002 +1.4909702520E+001  +2.8527759983E-002 +1.5951017560E+001  +8.6896845342E-001 -3.7297527096E+000 
13900115.144 +8.7918937279E-001 -3.0360892746E+000  +3.0277294403E-002 +1.5388016323E+001  +2.9741532623E-002 +1.8285983507E+001  +8.9833143638E-001 -2.7996300156E+000 
14025260.325 +8.8812208565E-001 -3.9071350595E+000  +3.0821541966E-002 +1.8326229049E+001  +2.9756812497E-002 +1.9508565104E+001  +9.1837816473E-001 -3.8042193111E+000 
14150405.507 +9.0275005493E-001 -6.4776505149E+000  +3.0573265891E-002 +1.4401563281E+001  +2.9375683992E-002 +1.9897291743E+001  +9.0670301222E-001 -3.5390174012E+000 
14275550.688 +9.2943909380E-001 -4.5149232848E+000  +2.9477623686E-002 +1.5061993769E+001  +3.0786145305E-002 +1.8576743838E+001  +9.2226101138E-001 -4.2046074335E+000 
14400695.870 +9.3216013635E-001 -5.9979524739E+000  +2.9389901512E-002 +1.3942393804E+001  +3.0772122367E-002 +1.5197352804E+001  +9.6114266834E-001 -4.6130340002E+000 
