!  2-Port S-parameters saved by WinCal
! VAR MeasName=S-Parameters (CALIBRATED_DATA) read from VNA (P5004A)
! VAR MeasDate=27/08/2024 16:38:02
! VAR NAME=S2_r2c9_SET1_9k-100M_3
! VAR FILENAME=S2_r2c9_SET1_9k-100M_3.S2P
! VAR DATE=27/08/2024 16:38:02
! VAR PHYS_PORTS=1,2
! VAR ObjTypeName=DATASET
! VAR IndexType=Frequency
!
# Hz S MA R 50
9000.000 +8.4986532120E-002 -1.6775086812E+002  +3.5254292441E-003 +3.7647904499E+001  +8.2800843676E-003 +9.3383855242E+001  +2.4162241303E-001 -1.3121244935E+002 
134145.181 +1.1121741920E-001 +1.6954202939E+002  +4.2271537975E-004 -9.5969039554E+001  +9.8509017249E-005 -4.9090550245E+001  +2.4297048886E-001 -1.7027058007E+002 
259290.363 +1.1218484850E-001 +1.6956427011E+002  +6.6912795604E-004 -1.1698279036E+002  +7.4943450108E-004 +5.4966896510E+001  +2.4132733549E-001 -1.6763404867E+002 
384435.544 +1.1492469902E-001 +1.6992240051E+002  +4.3445234709E-004 -1.2130922328E+002  +5.5920036054E-004 +6.8690964968E+001  +2.4191154975E-001 -1.6826309342E+002 
509580.726 +1.1234455167E-001 +1.7047906937E+002  +5.1924562028E-004 -1.8802684906E+001  +8.4326786565E-004 -7.0526252831E+001  +2.4277093619E-001 -1.6682594358E+002 
634725.907 +1.1632484039E-001 +1.7074648633E+002  +7.1424569949E-004 -1.4508670196E+002  +4.0792339898E-004 -6.7044493268E+001  +2.5444937849E-001 -1.6213971420E+002 
759871.089 +1.1556541616E-001 +1.7017978214E+002  +7.2787223169E-004 +1.3186760369E+002  +5.5254471275E-005 -2.2095448423E+001  +2.5025208119E-001 -1.6476829242E+002 
885016.270 +1.1426778237E-001 +1.6952223239E+002  +4.1756404669E-004 -3.2957836510E+001  +1.0779240399E-003 -2.0426333522E+001  +2.3943499482E-001 -1.6520794858E+002 
1010161.452 +1.1651537653E-001 +1.7171071957E+002  +1.1815555429E-003 -7.1796627470E+000  +7.3992389328E-004 -1.9111082628E+000  +1.8111131109E-001 -1.6548347448E+002 
1135306.633 +1.1415631355E-001 +1.6687985374E+002  +1.3804799864E-003 -5.3680627515E+001  +2.7718554913E-003 -1.1648282600E+002  +1.8587365227E-001 -1.6705156191E+002 
1260451.815 +1.2109979241E-001 +1.7194850088E+002  +8.8071582097E-004 -1.0145778922E+002  +1.0419064680E-003 -1.1912588018E+002  +2.2562385616E-001 -1.5537922932E+002 
1385596.996 +1.2605464722E-001 +1.7123951107E+002  +6.0003671725E-004 -1.2568445759E+002  +5.8449501364E-004 -6.5358338179E+001  +2.5942071383E-001 -1.5894016329E+002 
1510742.178 +1.2838010148E-001 +1.7182655140E+002  +4.2885139394E-004 +4.8919904016E+001  +2.4986727974E-004 -8.4343330958E+001  +2.6627463217E-001 -1.5812480468E+002 
1635887.359 +1.2634334989E-001 +1.7122742979E+002  +1.2299011569E-003 +1.9829699841E+001  +9.4567579057E-004 -3.7148575555E+001  +2.4707697073E-001 -1.5817025887E+002 
1761032.541 +1.3068885520E-001 +1.6983465942E+002  +1.9467562011E-003 +1.1165779142E+002  +1.0061058896E-003 -8.2818483956E+001  +2.1409272961E-001 -1.6107947295E+002 
1886177.722 +1.3221261455E-001 +1.6836437616E+002  +1.5527623146E-003 +5.5542893678E-001  +4.0420047185E-003 +1.6549699154E+002  +1.6185588369E-001 -1.7388941426E+002 
2011322.904 +1.3528307735E-001 +1.6445802740E+002  +2.0289238351E-003 +3.0577453916E+000  +7.6995169349E-003 -5.3091693988E+001  +1.0463269368E-001 +1.7727325664E+002 
2136468.085 +1.3055921079E-001 +1.6460793793E+002  +5.7061886978E-003 -2.2238219264E+001  +4.0424599795E-003 +1.7615338052E+002  +1.1803980960E-001 -1.5945933787E+002 
2261613.267 +1.3112819214E-001 +1.6796963396E+002  +1.9973003420E-003 +1.2134879197E+001  +2.9342223905E-003 -5.0185420760E+001  +1.6914277315E-001 +1.6088481743E+002 
2386758.448 +1.3012453699E-001 +1.6342931116E+002  +2.5791104623E-003 -1.3355380050E+002  +2.6086624948E-003 -1.1008330919E+002  +2.1991332627E-001 +1.7322195343E+002 
2511903.630 +1.4128163730E-001 +1.6228651205E+002  +4.1098359351E-003 +1.1465072821E+002  +1.4750104313E-003 -1.2228599939E+002  +2.1333466616E-001 +1.6110494012E+002 
2637048.811 +1.2218824207E-001 +1.6626732425E+002  +5.5189620608E-003 +1.6641664437E+002  +5.4288628959E-003 +1.4089781031E+002  +1.7358551271E-002 -8.1111507375E+001 
2762193.992 +1.2394587937E-001 +1.7309428620E+002  +1.4027197464E-002 +1.3414476692E+002  +9.3338374846E-003 -8.2152990008E+001  +7.8975466291E-001 +1.5838804371E+002 
2887339.174 +1.1026279331E-001 -1.7839880693E+002  +1.7646120616E-002 -8.8134351070E+001  +6.8517161964E-003 -3.1634578234E+001  +4.6466254953E-001 -1.0186911234E+002 
3012484.355 +1.1537840729E-001 +1.7579756856E+002  +2.4032079969E-002 -1.1243950968E+002  +3.1090185224E-002 -6.1383345247E+001  +6.5466619507E-001 -1.1691363768E+001 
3137629.537 +1.1418298531E-001 +1.6726300741E+002  +3.6040600718E-002 -1.0337468423E+002  +1.1119200479E-002 -6.5783387978E+001  +5.4877412657E-001 -9.8992431055E+001 
3262774.718 +1.0070053616E-001 +1.6515441821E+002  +1.9643372755E-002 +1.0630742927E+001  +3.0410553561E-002 -1.2900718684E+002  +3.3508012771E-001 -3.5298196058E+001 
3387919.900 +1.3375508650E-001 +1.4164246595E+002  +5.6691765048E-003 -1.0588150191E+002  +7.8512680651E-003 -2.8424234091E+001  +5.2428734812E-001 +9.7266290474E+001 
3513065.081 +1.5625739555E-001 +1.4351572824E+002  +1.3567777264E-002 -2.4333229529E+001  +1.4967732253E-002 -1.5479718790E+001  +2.0724383557E-001 +9.5209128835E+001 
3638210.263 +1.8709914084E-001 +1.4489843914E+002  +1.0747098763E-002 +1.2593424687E+002  +1.0805065436E-002 +6.5590759299E+000  +6.6207299759E-001 +1.4134178517E+002 
3763355.444 +2.0647060798E-001 +1.4542251485E+002  +1.1322421425E-002 +3.1477698057E+001  +1.0788676477E-003 +1.5065015007E+002  +8.0585345256E-001 +1.5475338638E+002 
3888500.626 +1.8297324123E-001 +1.5091845987E+002  +4.2870286097E-003 +7.8424198366E+001  +2.9350849236E-003 +1.3937883357E+001  +9.6030129219E-003 +1.6661361563E+002 
4013645.807 +1.6585378831E-001 +1.4908415651E+002  +5.3738992581E-003 +1.3859596584E+002  +1.1385543587E-002 -8.9986518650E+001  +7.2951687494E-001 +1.1948714023E+002 
4138790.989 +1.6038494673E-001 +1.5048318001E+002  +8.8506508545E-003 -1.3149211508E+001  +1.0868840088E-002 +1.0711081879E+002  +8.2094646916E-001 +6.5668639228E+001 
4263936.170 +2.0962256368E-001 +1.2964155782E+002  +1.4830710964E-002 +5.7165234522E+001  +1.4114790652E-002 -5.7521779391E+000  +7.4072680570E-001 +1.0200424713E+002 
4389081.352 +1.9855787367E-001 +1.3341761155E+002  +1.1438531117E-002 +7.4038085538E+001  +6.8791227512E-003 -5.8992973418E+000  +2.4889615456E-001 +1.3521516101E+002 
4514226.533 +2.9031394114E-001 +1.3156203867E+002  +1.5309532651E-002 +1.6066092165E+002  +3.6099423894E-003 +2.8566959000E+001  +1.1428167116E+000 +1.0064314865E+002 
4639371.715 +3.2386162184E-001 +1.3002602293E+002  +3.8472898201E-002 +1.4511323544E+002  +1.0192207145E-001 -1.1488505748E+002  +4.8600509937E+000 +1.5783521333E+002 
4764516.896 +3.9021760749E-001 +1.3178167666E+002  +1.0651753373E-002 +1.2363038061E+002  +3.3864324570E-002 -1.5983346186E+002  +2.6951942806E+000 -1.2800594605E+002 
4889662.078 +4.4863327524E-001 +1.3929380547E+002  +1.0087231444E-001 +1.1421736911E+001  +1.0090840478E-001 -8.7553900550E+001  +6.8704147324E+000 -1.2039663762E+002 
5014807.259 +4.0575074997E-001 +1.3510319061E+002  +4.3249540692E-002 +5.6497096660E+001  +2.3898881677E-002 -1.5542899668E+001  +1.9349314921E+000 -8.4799614576E+001 
5139952.441 +4.0645142662E-001 +1.2820764347E+002  +3.6632717602E-002 +1.0735238751E+002  +5.2406482029E-002 -1.7048429219E+002  +3.2724198147E+000 +1.3428876488E+002 
5265097.622 +3.8442609538E-001 +1.2996293256E+002  +3.3519427776E-002 +7.4937997881E+001  +1.4362692632E-002 +1.4938097184E+002  +1.3890032672E+000 +8.8426986625E+001 
5390242.804 +4.0639976272E-001 +1.2526766736E+002  +6.6133084093E-002 +1.1636187561E+002  +7.4558561313E-002 +4.7667758279E+001  +3.8935227509E+000 +9.6098751061E+001 
5515387.985 +4.4680475723E-001 +1.2114730282E+002  +2.7980575463E-002 +6.9402903733E+001  +1.6576920171E-002 -1.7389685992E+002  +1.4761771886E+000 +1.0865705977E+002 
5640533.166 +5.2915933960E-001 +1.2261733150E+002  +1.6854684329E-002 +1.5193042293E+002  +1.9139406661E-002 +9.8233143834E+001  +1.8448528978E+000 +9.9841850268E+001 
5765678.348 +4.3618297797E-001 +1.2868905796E+002  +1.8541914988E-002 +6.5198049744E+001  +9.3980298197E-003 +9.8851350345E+001  +1.5636829952E+000 +6.3746359187E+001 
5890823.529 +5.2407756594E-001 +1.1868000559E+002  +1.4230919687E-002 +1.7360301513E+002  +5.0864614549E-002 +5.4200109739E+001  +2.2138001343E+000 +4.4803184666E+001 
6015968.711 +6.8344472828E-001 +1.2131686773E+002  +3.7785754480E-002 +1.3786479831E+002  +1.9368751882E-002 +6.7596805485E+001  +3.3228764042E+000 +7.4631613640E+001 
6141113.892 +7.8793797784E-001 +1.0677933526E+002  +1.1655817015E-002 +3.0562382753E+001  +1.4403922140E-002 -2.2796154876E+001  +1.4204850899E+000 +2.4296629379E+001 
6266259.074 +9.5202828425E-001 +1.1654470788E+002  +2.1016362013E-002 +1.5000929174E+002  +2.2491099005E-002 +1.0307658202E+002  +1.2606138236E+000 +2.9366657778E+001 
6391404.255 +9.8901854926E-001 +8.9773347044E+001  +3.7237312220E-002 +4.9484254705E+001  +4.0925158622E-002 +6.1623702364E+001  +1.3981574954E+000 +1.2087915823E+001 
6516549.437 +1.4191446086E+000 +7.9733515806E+001  +5.6773186772E-002 +5.4250735055E+001  +5.8722039738E-002 +4.9466564146E+001  +1.3655528558E+000 +6.9500023291E+000 
6641694.618 +1.5801176709E+000 +6.4409474649E+001  +3.9523001751E-002 +5.3989346459E+001  +3.0785138220E-002 -4.1677367822E+001  +1.3587367757E+000 -9.2140276411E+000 
6766839.800 +1.5994076948E+000 +3.6825193726E+001  +3.6396291986E-002 +5.0153216663E+001  +3.6715838252E-002 +3.6203719535E+001  +1.7048795585E+000 +8.0493163727E+000 
6891984.981 +1.7012267209E+000 +3.8843939337E+001  +3.6203353194E-002 +2.3956587821E+001  +2.2022648934E-002 +4.7741928156E+000  +1.1706841685E+000 -5.9505305239E+000 
7017130.163 +1.8641444880E+000 +2.2827218516E+001  +3.1869654105E-002 +5.0077371503E+001  +2.4362031604E-002 +4.1532669459E+001  +1.3635546844E+000 -8.5141742277E+000 
7142275.344 +1.9756435357E+000 +1.4639646260E+001  +2.9478736125E-002 -3.5693962992E+001  +3.2137791721E-002 +5.0970911169E+001  +1.2974620122E+000 -1.5156977997E+001 
7267420.526 +1.6203873043E+000 +4.2559246651E+000  +9.4523966744E-003 -1.4414714048E+001  +1.9506291858E-002 -4.7844568511E+001  +1.3369870466E+000 -1.4696617811E+001 
7392565.707 +1.3019358697E+000 +4.6857322371E-002  +7.2153644686E-003 +2.6665027303E+001  +9.1139175672E-003 +4.1093904875E+001  +1.4024280192E+000 -5.5795016879E+000 
7517710.889 +1.0634935962E+000 +2.6977412037E-001  +1.2086732777E-002 +2.7530389000E-002  +8.1051042533E-003 +5.4114072690E+001  +1.1531435073E+000 -3.7196874971E+000 
7642856.070 +1.0388948367E+000 +1.0099278674E-001  +8.3562632791E-003 +3.9469354800E+001  +5.4219849991E-003 -1.8999393866E+001  +1.0144958084E+000 -7.5677636446E+000 
7768001.252 +1.0306308499E+000 +3.3081951745E+000  +1.2821468372E-002 +6.2837965317E+001  +9.4156784438E-003 +3.4301535198E+001  +1.0306568048E+000 -7.1988574225E+000 
7893146.433 +8.9051788824E-001 +4.4970009011E+000  +1.0196661088E-002 +2.5435140239E+000  +1.7942945582E-002 +2.0957649813E+001  +8.0570964640E-001 -1.9807465690E+000 
8018291.615 +8.4316953254E-001 +3.1418142029E+000  +7.4201818251E-003 +5.0689717960E+001  +1.1534409960E-002 +2.8983460407E+001  +8.0460361243E-001 -5.4196072927E+000 
8143436.796 +7.7663632763E-001 +1.1235465132E+001  +8.7389109504E-003 +1.0247416322E+001  +5.1838333905E-003 +4.3963180275E+001  +8.0533752890E-001 -2.9786856823E+000 
8268581.977 +6.8131099236E-001 +1.0167554378E+001  +1.1898640228E-002 +3.9467859507E+001  +6.5738649413E-003 -3.1481271412E+000  +8.0355432310E-001 -4.1444957456E+000 
8393727.159 +6.6582582908E-001 +7.7604678684E+000  +4.8627538696E-003 +8.3922134167E+000  +5.9371037928E-003 +1.6319690110E+001  +7.2713183309E-001 -3.9339486590E+000 
8518872.340 +7.0305601998E-001 +1.0816632905E+001  +9.1531594637E-003 +3.0340076037E+000  +5.6903569446E-003 +2.2351014844E+001  +7.0888582338E-001 -2.9464513422E+000 
8644017.522 +6.9429359453E-001 +3.3698899419E+000  +1.0129130360E-002 +5.3673596098E+001  +9.0990665439E-003 +5.6217704967E+001  +6.3014714368E-001 +6.4003144417E+000 
8769162.703 +6.3373110389E-001 +4.6439280891E+000  +1.2297564754E-002 +7.7000351416E+000  +1.1800505406E-002 +3.6736776944E+001  +6.3081364768E-001 -4.9365877295E-001 
8894307.885 +5.8329387904E-001 +6.3330482350E+000  +7.9568307874E-003 +2.1372914389E+001  +6.5907890133E-003 +2.8766710375E+001  +6.3431818060E-001 -5.8716497698E+000 
9019453.066 +5.8860714726E-001 -2.8857059746E-001  +7.4942066400E-003 -4.6280805669E+000  +1.2319872412E-002 +4.3404891346E+001  +6.0603778149E-001 -4.6852574426E+000 
9144598.248 +5.7879248648E-001 +7.7438552244E+000  +7.1904234575E-003 +3.0424898262E+001  +1.0289875262E-002 +1.5405416570E+001  +6.1307923620E-001 -3.0577176362E+000 
9269743.429 +5.4282021197E-001 +4.9349731987E+000  +6.7410534863E-003 +3.4732461090E+000  +1.0293258716E-002 +4.4513723017E+001  +5.9765556062E-001 -6.1116297908E-001 
9394888.611 +5.0413773403E-001 -2.7952881221E-001  +7.7684042244E-003 +3.1358077212E+001  +8.9863216221E-003 +4.9871011473E+001  +6.0400246463E-001 -4.9273906857E+000 
9520033.792 +5.2884616915E-001 +1.3053103618E+000  +1.1695769857E-002 +2.4456534294E+001  +8.2936006012E-003 +3.9263755681E+001  +6.0601274929E-001 -3.5958811934E+000 
9645178.974 +4.8560840256E-001 +1.8993389531E+000  +9.0718400579E-003 +3.5847197387E+001  +8.6875467947E-003 +2.8337773040E+001  +5.2707770563E-001 -4.1674695258E+000 
9770324.155 +5.3138752588E-001 +1.0757420264E+000  +1.0071119960E-002 +2.0105244274E+001  +7.2527440620E-003 +2.9645490160E+001  +5.7836047392E-001 -4.8642677369E+000 
9895469.337 +5.4544399910E-001 -1.3427356690E+000  +9.4437545894E-003 +1.3192111108E+001  +9.0908008581E-003 +2.9176631932E+001  +5.8777473030E-001 -4.5554036695E+000 
10020614.518 +5.5915969879E-001 +4.7190351024E+000  +8.8980082514E-003 +2.6070355142E+001  +1.0986632621E-002 +4.0345942634E+001  +5.4682208129E-001 -6.6399215829E+000 
10145759.700 +5.2062987471E-001 +5.5038959617E+000  +1.0544270891E-002 +1.6459860059E+001  +1.1169531664E-002 +1.9923653918E+001  +5.3942341708E-001 -5.3070276998E+000 
10270904.881 +5.2541964323E-001 +5.0104900073E+000  +7.6730997021E-003 +2.7553507279E+001  +8.6194829682E-003 +2.8963117111E+001  +5.9825646080E-001 -2.1209112117E+000 
10396050.063 +5.5167761322E-001 +5.8026514407E+000  +7.2428003549E-003 +1.6040253260E+001  +9.4156316561E-003 +4.4996709958E+001  +5.4280696963E-001 -2.1139637620E+000 
10521195.244 +5.4834855319E-001 +5.0926288076E+000  +8.6661257038E-003 +1.6658772861E+001  +1.0477961327E-002 +3.9741958363E+001  +5.4491043074E-001 -3.9729869122E+000 
10646340.426 +5.8432601350E-001 +2.8152574911E+000  +8.0167162132E-003 +2.7699401056E+001  +9.6670925676E-003 +5.9646076986E+001  +6.0297322803E-001 +4.9667533934E-001 
10771485.607 +5.6687004073E-001 +6.2581800080E+000  +8.3311432409E-003 +3.4697828522E+001  +7.7253289274E-003 +3.8293038240E+001  +5.7734355815E-001 +1.7251940052E+000 
10896630.788 +5.5292175045E-001 +7.5351240636E+000  +1.0532794869E-002 +2.7203519695E+001  +9.2804146273E-003 +2.2773717891E+001  +5.7087871056E-001 +9.4635682100E-001 
11021775.970 +5.8748433973E-001 +3.1654787589E+000  +8.7051746058E-003 +2.9745161850E+001  +1.0434920775E-002 +6.2206604722E+001  +6.0039434843E-001 -2.0878119497E-002 
11146921.151 +5.9345649392E-001 +7.0273899476E+000  +9.3486270092E-003 +1.4404204557E+001  +8.5895429200E-003 +4.5306455939E+001  +6.1656308447E-001 +1.9913524077E+000 
11272066.333 +5.7578676070E-001 +6.5316919483E+000  +1.0215815506E-002 +2.9710983037E+001  +7.9855799986E-003 +4.1275494659E+001  +6.3042894938E-001 +9.2241973622E-001 
11397211.514 +5.7621700161E-001 +8.0353294787E+000  +8.8546488379E-003 +3.5644690539E+001  +9.1980270984E-003 +4.5578304266E+001  +6.3864999071E-001 -1.0218019229E+000 
11522356.696 +6.1188931327E-001 +6.2950929502E+000  +9.1647683657E-003 +4.4086294970E+001  +8.2905607513E-003 +4.8798507949E+001  +6.5827913145E-001 +1.4680779033E+000 
11647501.877 +6.4000240221E-001 +7.2242473605E+000  +9.6597353108E-003 +3.1661496976E+001  +9.0156574245E-003 +4.1685378012E+001  +6.3127540434E-001 +3.4573100764E-001 
11772647.059 +6.4591122317E-001 +6.9608359081E+000  +1.0619409134E-002 +3.3014134154E+001  +1.2099183536E-002 +3.6278093854E+001  +6.3975633192E-001 +1.6475488019E+000 
11897792.240 +6.4050603829E-001 +5.9600266406E+000  +8.5815836946E-003 +3.2006534021E+001  +9.3306456202E-003 +4.6089014281E+001  +6.6585353548E-001 +1.3854143321E+000 
12022937.422 +6.5199252934E-001 +4.2373519798E+000  +1.0243086981E-002 +3.9618806932E+001  +1.1607229953E-002 +4.8885139019E+001  +7.1275468794E-001 -1.7234422671E+000 
12148082.603 +6.6306464895E-001 +4.7680767531E+000  +9.2015724202E-003 +3.1714697265E+001  +1.0547809186E-002 +4.3794780105E+001  +6.9291828970E-001 +1.5386890492E+000 
12273227.785 +6.6533416052E-001 +3.9562547043E+000  +9.4586231184E-003 +2.6248769165E+001  +1.0418172001E-002 +4.7392850942E+001  +7.1281432226E-001 -6.8707484772E-001 
12398372.966 +6.9080574250E-001 +2.6778740670E+000  +1.0506711949E-002 +2.9536947061E+001  +8.6876632290E-003 +4.3677936532E+001  +7.1072919384E-001 +1.6790816675E-001 
12523518.148 +7.2249369154E-001 +1.4162249504E+000  +9.0893484842E-003 +3.6543955121E+001  +9.9599066663E-003 +3.5070046808E+001  +7.2330709168E-001 -1.5466963541E+000 
12648663.329 +7.4229366605E-001 +2.7484089051E+000  +9.9157132377E-003 +4.1866221738E+001  +1.1920499736E-002 +3.0830800811E+001  +7.3264093656E-001 -1.2345534049E+000 
12773808.511 +7.5091395660E-001 +2.0523704850E+000  +1.0886912475E-002 +3.8470548269E+001  +1.0319011039E-002 +4.4523515140E+001  +7.7699664945E-001 -1.2422070733E+000 
12898953.692 +7.5280076737E-001 +1.1001279603E+000  +1.0768556878E-002 +3.0374349937E+001  +1.3044133630E-002 +4.4936466314E+001  +7.7077302417E-001 -2.1672903822E-001 
13024098.874 +7.5732235708E-001 +1.3665565913E+000  +1.1279296740E-002 +3.5905195165E+001  +1.2166239004E-002 +3.7526143731E+001  +7.9836141685E-001 -1.1652532120E+000 
13149244.055 +7.9069819510E-001 +6.4455748151E-001  +1.0734253737E-002 +3.5083035029E+001  +1.1170013414E-002 +4.5191925721E+001  +8.1058392767E-001 -1.5312975902E+000 
13274389.237 +8.1630253825E-001 -9.1071067083E-001  +1.1429238109E-002 +3.4723773051E+001  +1.1262496849E-002 +4.1731704903E+001  +8.4209036413E-001 -8.2932122993E-001 
13399534.418 +8.4085998659E-001 -9.9953732371E-001  +1.0717067312E-002 +3.9865276399E+001  +1.1420641210E-002 +4.0624544371E+001  +8.3033935700E-001 -1.6651570173E+000 
13524679.599 +8.3886641952E-001 -1.3405741314E+000  +1.1613699019E-002 +4.0985870587E+001  +1.1736139095E-002 +3.6982181516E+001  +8.5918329773E-001 -2.0301505974E+000 
13649824.781 +8.7611948792E-001 -1.7137855184E+000  +1.2968129460E-002 +3.6312768116E+001  +1.0950165717E-002 +3.8927798170E+001  +8.6968763405E-001 -1.2482060267E+000 
13774969.962 +8.7904533228E-001 -2.0946507443E+000  +1.1844554430E-002 +3.3484336883E+001  +1.1503182474E-002 +3.8481054270E+001  +8.7480494679E-001 -4.6937630323E+000 
13900115.144 +8.9615175399E-001 -3.4426867331E+000  +1.1983865162E-002 +3.5101205546E+001  +1.1715624840E-002 +3.9220252099E+001  +9.1064154235E-001 -4.1083869490E+000 
14025260.325 +9.2901863739E-001 -3.5639469109E+000  +1.3485486357E-002 +4.1349057270E+001  +1.2852143810E-002 +3.5552017291E+001  +9.1889524516E-001 -5.1282296007E+000 
14150405.507 +9.2056729336E-001 -4.3252565238E+000  +1.3291972647E-002 +3.5091872461E+001  +1.1530177292E-002 +4.1332621292E+001  +9.4251427464E-001 -3.8448789287E+000 
14275550.688 +9.5040964493E-001 -4.2215145093E+000  +1.2352852718E-002 +3.2679975506E+001  +1.0666378172E-002 +4.3879185302E+001  +9.6120471489E-001 -3.7081216034E+000 
14400695.870 +9.8202427661E-001 -5.0823044675E+000  +1.3547570456E-002 +3.6722995299E+001  +1.2195371764E-002 +3.7358751098E+001  +9.8794192993E-001 -3.7301267772E+000 
