!  2-Port S-parameters saved by WinCal
! VAR MeasName=S-Parameters (CALIBRATED_DATA) read from VNA (P5004A)
! VAR MeasDate=28/08/2024 10:51:02
! VAR NAME=S2_r5c9_RESET2_9k-100M_3
! VAR FILENAME=S2_r5c9_RESET2_9k-100M_3.S2P
! VAR DATE=28/08/2024 10:51:02
! VAR PHYS_PORTS=1,2
! VAR ObjTypeName=DATASET
! VAR IndexType=Frequency
!
# Hz S MA R 50
9000.000 +8.6972536510E-002 -1.6263943763E+002  +1.0669520903E-002 -9.5006715851E+001  +5.4355793882E-003 -1.5008451621E+002  +3.2954354143E-001 -1.4435605494E+002 
134145.181 +1.1118847228E-001 +1.6960247668E+002  +3.0955479263E-004 +4.5326321959E+001  +5.8577391862E-004 +3.0830002557E+001  +2.4019220601E-001 -1.7142242329E+002 
259290.363 +1.1173883047E-001 +1.6967521178E+002  +6.1993702602E-004 -6.6350055449E+001  +5.3595224126E-004 +6.1993938056E+001  +2.5019177287E-001 -1.6940371622E+002 
384435.544 +1.1300529659E-001 +1.7118553408E+002  +1.0083067335E-003 +8.1506837738E+000  +9.7171578288E-004 +1.2758643421E+002  +2.4794952876E-001 -1.7022793033E+002 
509580.726 +1.1332900424E-001 +1.7115316529E+002  +9.8365660671E-004 -6.2144176161E+001  +7.0042280983E-004 -1.4181939667E+002  +2.4786419936E-001 -1.6828206848E+002 
634725.907 +1.1753699853E-001 +1.7201414785E+002  +1.2313748236E-003 -1.2640114236E+002  +5.6256996636E-004 +1.8887568761E+001  +2.5348129870E-001 -1.6446566194E+002 
759871.089 +1.2097675830E-001 +1.7111170222E+002  +1.0864503384E-003 -1.5025616994E+002  +3.4097854051E-004 +1.7970867915E+002  +2.4758538620E-001 -1.6648908164E+002 
885016.270 +1.1842781353E-001 +1.6920307969E+002  +5.7519919490E-004 -1.1013682768E+001  +4.8237277076E-004 -4.2191853521E+001  +2.4451822325E-001 -1.6608004366E+002 
1010161.452 +1.1693329695E-001 +1.7001808800E+002  +1.7032098305E-003 +1.0379008421E+002  +4.4438288352E-004 +7.7426198457E+001  +1.9873842667E-001 -1.6345199319E+002 
1135306.633 +1.2010248887E-001 +1.6999022199E+002  +1.1346923618E-003 -1.4958869799E+002  +2.4066990091E-003 -8.2899366491E+001  +2.0709948424E-001 -1.6030611083E+002 
1260451.815 +1.1849812169E-001 +1.7166968246E+002  +6.3440920299E-004 -1.6668824008E+002  +6.7477603998E-004 -8.4588044909E+001  +2.1866726277E-001 -1.5895070281E+002 
1385596.996 +1.2807199795E-001 +1.7241615093E+002  +1.1952274532E-003 -6.6338769363E+001  +9.0810420643E-004 +1.3079720230E+002  +2.6878990830E-001 -1.5934397898E+002 
1510742.178 +1.2649477851E-001 +1.7087537984E+002  +4.6865971679E-004 +1.7194479529E+002  +1.9970374918E-003 +1.2199610738E+002  +2.5033744936E-001 -1.5890122696E+002 
1635887.359 +1.2912050830E-001 +1.7137839509E+002  +6.2815067390E-004 +1.0988658051E+002  +4.0793614712E-004 +2.3246011249E+001  +2.5161563415E-001 -1.5468273710E+002 
1761032.541 +1.2999071274E-001 +1.6858027612E+002  +7.9433181750E-004 +1.7154464135E+002  +4.1449259321E-004 -1.6429928277E+002  +2.2744682315E-001 -1.6279234269E+002 
1886177.722 +1.3098046978E-001 +1.6907467521E+002  +9.9283662402E-004 -1.1786619498E+002  +1.2284301419E-003 +2.3969953722E+001  +1.9289261560E-001 -1.6016287937E+002 
2011322.904 +1.2714397873E-001 +1.7015952483E+002  +1.0374216168E-003 +1.0095130459E-001  +2.0634892919E-003 -2.2540667144E+001  +2.1587903905E-001 -1.6224617194E+002 
2136468.085 +1.3044944564E-001 +1.6459898962E+002  +4.8257486182E-003 -1.4820153432E+002  +1.9201822275E-003 -7.5349660663E+001  +2.1649317053E-001 +1.6304917323E+002 
2261613.267 +1.3022291126E-001 +1.6543045000E+002  +3.8211233542E-003 +7.3384296778E+001  +3.1748541938E-003 +6.4187354143E+001  +1.7805811076E-001 -1.7611219085E+002 
2386758.448 +1.3888136294E-001 +1.6176693328E+002  +1.8317804421E-003 +1.2269721133E+002  +1.6198593862E-003 +1.1550182165E+002  +1.9188875277E-001 +1.7597796436E+002 
2511903.630 +1.2657645735E-001 +1.6323086955E+002  +2.0115379751E-003 +1.3872087116E+002  +1.1849200374E-003 -1.1529070978E+002  +2.1303587880E-001 -1.7792352167E+002 
2637048.811 +1.2540602009E-001 +1.6233665053E+002  +1.4744899152E-002 -4.5569248124E+001  +1.1649657891E-002 +4.9573244350E+000  +1.4703902888E-001 +1.3504409192E+002 
2762193.992 +9.6889631724E-002 +1.7845457249E+002  +5.8693501436E-003 +7.2954596742E+001  +7.7715082535E-003 -1.4131181272E+002  +2.9767389328E-001 -1.1835430313E+002 
2887339.174 +1.1073739148E-001 +1.6812530507E+002  +1.5987349568E-002 -5.8015881621E+001  +6.1145457879E-003 -3.0954568622E+001  +5.0100366458E-001 -5.3477493406E+001 
3012484.355 +1.2042021397E-001 +1.7164864175E+002  +9.4205680349E-003 -1.2874961252E+002  +2.3498908391E-003 +1.7331423832E+002  +3.9114355719E-001 -1.0602067372E+002 
3137629.537 +1.1517535234E-001 +1.7067765954E+002  +8.6188571041E-003 -1.4902715359E+002  +8.6666383642E-003 +8.2120105599E+000  +5.1028207228E-002 +2.2854919015E+001 
3262774.718 +1.4150698774E-001 +1.6246618150E+002  +6.4404200876E-003 +1.0500955673E+002  +1.4155300466E-002 -1.0218849251E+002  +5.8051516935E-001 -6.3455759234E+001 
3387919.900 +1.2110096696E-001 +1.6012273370E+002  +1.9255784494E-002 -9.6509846005E+001  +2.1081612517E-002 +1.6400083817E+002  +1.1203711038E+000 +1.4576151537E+002 
3513065.081 +1.6672109947E-001 +1.5102826028E+002  +9.4435474590E-003 +1.4004659126E+002  +1.5197837448E-002 +4.3131707825E+001  +2.9619865195E-001 +8.2817209487E+001 
3638210.263 +1.8322356356E-001 +1.4331670186E+002  +2.5617548651E-003 +1.6753789694E+001  +1.3628041108E-002 -5.7613070917E+001  +3.5436440194E-001 +1.4845492599E+002 
3763355.444 +2.1305406154E-001 +1.2558569336E+002  +2.4320110357E-002 +6.0160650287E+001  +2.8933377100E-002 -1.0951770317E+002  +2.9430520361E-001 +9.6583036658E+001 
3888500.626 +1.7038685645E-001 +1.4387770916E+002  +2.6182726480E-003 +2.1488339382E+001  +6.6520502412E-003 +9.7583442835E+001  +4.1559860111E-001 +4.9299974848E+001 
4013645.807 +1.8471759160E-001 +1.3874274233E+002  +9.0703849822E-003 +1.2424523977E+002  +8.3099686503E-003 +1.0320629084E+002  +3.7762668307E-001 +1.3272072420E+002 
4138790.989 +2.0261245817E-001 +1.5012996539E+002  +1.0513407840E-002 -1.7145324763E+002  +6.1359935001E-003 -1.4032195699E+002  +3.6827195958E-001 +1.1263347066E+002 
4263936.170 +1.7770443807E-001 +1.4747941337E+002  +4.5729523758E-003 +1.2573466646E+002  +1.0686141777E-003 +1.7473399682E+002  +2.8189368024E-001 +1.3750344003E+002 
4389081.352 +2.1478352538E-001 +1.3577574263E+002  +9.8054136450E-003 -1.5507223508E+002  +1.1864375034E-002 +1.4869509517E+002  +4.9633657159E-001 +9.5921811724E+001 
4514226.533 +2.3886282785E-001 +1.4163146674E+002  +1.2506858454E-002 +3.8770911789E+001  +1.5205047635E-002 -2.4401525932E+001  +1.2611018334E+000 +1.3613187605E+002 
4639371.715 +2.7812504071E-001 +1.3745511042E+002  +1.7351082383E-002 -1.4690704028E+002  +1.7654035465E-002 -8.4852914287E+001  +2.6745533040E+000 -1.6108792340E+002 
4764516.896 +3.0160248402E-001 +1.1857904163E+002  +9.1898645426E-001 -1.1465862499E+002  +8.2487999641E-001 +1.7749345645E+002  +4.5194943355E+001 +5.9489632764E+001 
4889662.078 +3.6590590701E-001 +1.3456884996E+002  +9.1208753743E-003 -4.6362354245E+001  +1.6228083980E-002 -6.5519805715E+001  +2.3815693466E+000 -1.6708747434E+002 
5014807.259 +5.0454716195E-001 +1.3567561132E+002  +2.1325716529E-002 -1.7774195011E+001  +5.5770565710E-002 +1.1436498894E+001  +4.7269610416E+000 +1.2906962330E+002 
5139952.441 +4.1626114391E-001 +1.2460668927E+002  +3.5139814817E-002 +1.7173198236E+002  +4.3181614149E-002 -1.7887426574E+002  +2.8082781328E+000 +8.8329791949E+001 
5265097.622 +5.2488845477E-001 +1.3357116795E+002  +9.0697539457E-002 +1.0231745233E+002  +6.2902386958E-002 -1.0713589663E+002  +8.0829783005E+000 +1.5604096095E+002 
5390242.804 +4.0796293063E-001 +1.2820761395E+002  +6.3848988247E-002 -2.5345309987E+001  +8.2060111455E-002 -1.0745412931E+002  +1.2654986869E+001 -1.1555429508E+002 
5515387.985 +4.3584146885E-001 +1.2884758300E+002  +6.5127933244E-003 +1.4823810754E+002  +9.5867123212E-003 -7.5090370839E+001  +2.5250287257E+000 +1.2541722698E+002 
5640533.166 +4.6033010340E-001 +1.2757226293E+002  +4.0307836840E-002 -8.6186255215E+001  +8.5602109977E-002 +7.8878259239E+001  +5.0453371970E+000 +1.0255474471E+002 
5765678.348 +5.3845995441E-001 +1.1786896650E+002  +3.2394203488E-002 +2.1579137864E+001  +2.0947399926E-002 +1.5357684111E+002  +2.8084460132E+000 +7.4992401468E+001 
5890823.529 +4.9153395655E-001 +1.2240143264E+002  +2.2175157698E-002 +1.0589434039E+002  +9.8075211319E-003 +8.3022669195E+001  +2.5169036903E+000 +9.0320553874E+001 
6015968.711 +6.4299706094E-001 +1.1608651889E+002  +3.0885140580E-002 +1.2985349530E+002  +3.3138941406E-002 -1.0516587121E+002  +2.4054874688E+000 +4.1086933022E+001 
6141113.892 +6.9241043520E-001 +1.1473788004E+002  +2.5473249501E-002 -4.8540230884E+001  +1.8896608397E-002 +7.5159366027E+001  +1.2434606994E+000 +4.9327592170E+001 
6266259.074 +7.8065791103E-001 +1.1056584411E+002  +2.6934315947E-002 +3.7622335166E+000  +1.5117575061E-002 +1.5151872220E+002  +1.7036848421E+000 +2.6785038179E+001 
6391404.255 +1.2292597664E+000 +1.0013945091E+002  +7.8695100085E-003 +1.5244048031E+002  +2.3340186485E-002 +1.1424094454E+002  +1.2220543153E+000 +4.0693222111E+001 
6516549.437 +1.2266305723E+000 +8.1506545785E+001  +5.6487234577E-003 -1.3679429406E+002  +7.7916755138E-003 -2.6733367639E+001  +1.5579776322E+000 +3.2068696715E+000 
6641694.618 +1.5150319274E+000 +7.6324701891E+001  +3.8048162490E-002 +1.5711173948E+002  +8.3281359263E-003 +5.8532815426E+001  +1.4754365917E+000 -7.0044415612E+000 
6766839.800 +1.9776223015E+000 +6.0248547301E+001  +8.6897371183E-003 -1.6626079331E+002  +3.1644193568E-002 +6.7875529761E+001  +1.2536170411E+000 -3.3032462210E+000 
6891984.981 +1.4992688873E+000 +3.3559635054E+001  +1.0430203454E-002 +1.2846075139E+002  +2.1424310046E-002 +5.6058848507E+001  +1.1801124976E+000 -1.9267902648E+000 
7017130.163 +1.8218659773E+000 +1.6673940971E+001  +1.9317016171E-002 +8.6098186019E+001  +1.4674991867E-002 +5.4282257271E+001  +1.3228077449E+000 -1.3329405993E+001 
7142275.344 +1.3525240965E+000 +6.8568191796E-001  +1.7863812939E-002 +1.4737713365E+001  +8.6060351662E-003 +1.4939965492E+002  +1.3937511388E+000 -6.2127909055E+000 
7267420.526 +1.4940836433E+000 -1.9447540208E+000  +5.5442895039E-003 +5.3260319632E+001  +3.9791294167E-003 +9.0125060950E+001  +1.3575155392E+000 -1.2134889571E+001 
7392565.707 +1.3279503198E+000 -6.2798039297E+000  +1.0503102640E-002 +2.9114962201E+001  +1.7912975583E-002 +6.8989853699E+001  +1.3642960693E+000 -8.6752308322E+000 
7517710.889 +1.1730289400E+000 -7.1657717442E+000  +9.7956929960E-003 +1.5960297898E+002  +7.8052354758E-003 +7.3365711867E+001  +1.2499740390E+000 -8.4638646692E+000 
7642856.070 +9.8282625557E-001 +3.4147180893E+000  +1.2125187027E-002 +7.1015587463E+001  +5.8096919957E-003 +6.6654161129E+001  +1.1222530981E+000 -3.3737101496E+000 
7768001.252 +9.5542350838E-001 +3.3948829997E+000  +6.2389451230E-003 +7.5998607061E+001  +4.6859005738E-003 +1.1757894577E+002  +1.0327890666E+000 +1.6778763870E+000 
7893146.433 +9.3511419475E-001 -1.2879885748E+000  +4.0826043353E-003 +6.9451322882E+001  +4.6522734172E-003 +1.1380006042E+002  +9.8003831452E-001 -3.1858008939E+000 
8018291.615 +7.7426701473E-001 +1.1697635994E+001  +8.0834210968E-003 +7.3650831908E+001  +2.6931943484E-003 +1.0759568457E+002  +9.4937620662E-001 +2.6884240989E+000 
8143436.796 +7.1364235204E-001 +1.1455792348E+001  +2.6845500418E-003 +2.8526943792E+001  +1.9622138679E-003 +1.7633036414E+002  +8.7726800593E-001 +1.3160410381E-001 
8268581.977 +7.6379667686E-001 +1.0523817206E+001  +8.1530897218E-003 +5.8979563313E+001  +1.6850477405E-003 -2.0523098342E+001  +7.8859462464E-001 +2.9623225488E+000 
8393727.159 +7.6389049414E-001 +5.7558681419E+000  +4.7856738887E-003 +1.2024583437E+002  +1.0137099604E-002 +1.1193472388E+002  +7.0421291093E-001 +3.1932307383E+000 
8518872.340 +7.1555708163E-001 +7.1403987631E+000  +2.8337565845E-003 +7.6640239118E+001  +4.0509903222E-003 +1.0311966049E+002  +7.1347514834E-001 -3.7328143490E+000 
8644017.522 +6.7722782414E-001 +8.5999836980E+000  +1.1933774020E-002 +8.0808868235E+001  +2.2149390987E-003 +1.4754482538E+002  +6.6827413990E-001 +2.5314884195E+000 
8769162.703 +5.6598014982E-001 +1.0257678740E+001  +3.2362676185E-003 +1.4385472060E+002  +2.3823553809E-003 +1.0245085050E+002  +6.6321495802E-001 -3.5108381572E+000 
8894307.885 +5.6818172045E-001 +3.9779450041E+000  +2.9536068022E-003 +5.7994436779E+001  +3.9655722474E-003 +6.5265356778E+001  +6.6320954934E-001 -4.2260437004E+000 
9019453.066 +5.9465417965E-001 +6.8489109652E+000  +2.2536734420E-003 +7.4947479884E+001  +2.4947502316E-003 +8.8510261594E+001  +6.5163604243E-001 -2.3071901028E-001 
9144598.248 +5.5512732730E-001 +6.3363631841E+000  +3.7144301592E-003 +7.4088395099E+001  +3.8567077064E-003 +7.7838860433E+001  +6.0156059638E-001 -2.1526153147E+000 
9269743.429 +5.7291121123E-001 +5.7095345369E+000  +3.6265145176E-003 +8.6260004969E+001  +2.7468805021E-003 +6.4166137907E+001  +5.7082109925E-001 -5.1771518715E+000 
9394888.611 +5.5821107965E-001 +4.4291071729E+000  +3.4681785957E-003 +5.8582158648E+001  +2.4933639177E-003 +1.3608140621E+002  +6.3860413371E-001 -2.6197508373E+000 
9520033.792 +5.4708179213E-001 +4.3409434224E+000  +4.3187044174E-003 +6.6669179507E+001  +1.8796799722E-003 +2.8560420102E+001  +5.5951767310E-001 -3.4627021502E+000 
9645178.974 +5.6936602748E-001 +3.0821525823E+000  +8.1141471274E-003 +7.2004978839E+001  +4.6762313655E-003 +9.4055904871E+001  +5.7318894612E-001 -2.7986531690E+000 
9770324.155 +5.8356369069E-001 +5.0348615899E+000  +4.5995544031E-003 +1.2124603631E+002  +2.9043185314E-003 +1.1290260329E+002  +5.9397911841E-001 -6.1832866585E+000 
9895469.337 +5.0877598454E-001 +3.4388298139E+000  +4.6555354056E-003 +6.2026110956E+001  +4.8357464757E-003 +8.9782995855E+001  +5.6963717872E-001 -2.8056804554E+000 
10020614.518 +5.6160635396E-001 -3.9235268328E+000  +6.2542673268E-003 +6.2107601176E+001  +3.3364009085E-003 +2.9929261895E+001  +6.2397464055E-001 -2.9087321390E+000 
10145759.700 +5.7568920654E-001 +2.7095622292E+000  +8.4162530282E-003 +8.5060834738E+001  +4.7041163453E-003 +9.5941606869E+001  +6.0025149241E-001 -5.9810516502E+000 
10270904.881 +5.4617342376E-001 +4.8028855860E+000  +2.9063913796E-003 +3.1718735813E+001  +3.8497209421E-003 +8.5874567797E+001  +5.8171934594E-001 -5.3086206903E+000 
10396050.063 +5.8313142397E-001 +7.4679039698E+000  +7.4176378424E-003 +7.0549318409E+001  +6.0916723627E-003 +7.0632240845E+001  +5.6308587137E-001 -5.6805064311E-001 
10521195.244 +5.5142727456E-001 +5.9356841876E+000  +4.0804905966E-003 +6.1345592958E+001  +2.1953112244E-003 +1.0593267888E+002  +5.8581030268E-001 -5.2806638900E+000 
10646340.426 +5.5038130399E-001 +7.4351174661E+000  +5.3484766558E-003 +6.7945653710E+001  +4.4560572902E-003 +6.2113471304E+001  +5.6547734339E-001 -5.1250292251E-001 
10771485.607 +5.9942422367E-001 +8.1427847695E+000  +6.8419583004E-003 +5.1628278827E+001  +6.5044898072E-003 +9.0919189661E+001  +5.9152858768E-001 -7.4231040378E-001 
10896630.788 +5.6360086426E-001 +7.6811955048E+000  +5.7503059878E-003 +7.5317494355E+001  +6.2445090896E-003 +7.8753655121E+001  +5.9533221712E-001 +3.1558695767E+000 
11021775.970 +5.7639672242E-001 +5.9106994451E+000  +6.7179507723E-003 +9.8457730009E+001  +4.5405731388E-003 +8.0723693319E+001  +5.8537973985E-001 +9.4731549053E-001 
11146921.151 +6.2278347065E-001 +8.3977098349E+000  +4.5516154440E-003 +9.5717049307E+001  +3.7059556829E-003 +7.9554588663E+001  +6.1675146583E-001 +1.5952882097E+000 
11272066.333 +5.8990224464E-001 +5.5538531125E+000  +2.8464045675E-003 +4.2775941714E+001  +4.9615251703E-003 +9.5068844403E+001  +6.3745887309E-001 +2.2327644294E-001 
11397211.514 +6.1614557154E-001 +8.5138649550E+000  +5.2204182430E-003 +6.1635700656E+001  +1.7215928151E-003 +7.0744766059E+001  +6.3569315607E-001 +1.8590263113E+000 
11522356.696 +6.4899758426E-001 +5.7838305475E+000  +5.0476212685E-003 +7.2515255161E+001  +3.6075145467E-003 +8.8290503089E+001  +6.4246156368E-001 +2.4171591801E+000 
11647501.877 +6.3661322633E-001 +7.7251344530E+000  +5.7308130309E-003 +7.6212910156E+001  +6.7143690956E-003 +8.6822701374E+001  +6.3766046579E-001 +1.5294537237E+000 
11772647.059 +6.3823429945E-001 +6.8047346678E+000  +5.3008125361E-003 +9.2995541691E+001  +4.8902591028E-003 +7.3781166642E+001  +6.4180601014E-001 +3.1499118310E+000 
11897792.240 +6.7916672385E-001 +6.6775775615E+000  +4.9796738810E-003 +9.0237964954E+001  +4.6645199927E-003 +8.2399712455E+001  +6.7850775639E-001 +1.3573460345E+000 
12022937.422 +6.3662306322E-001 +5.1876671800E+000  +4.1186887587E-003 +7.7912319244E+001  +4.0059314745E-003 +1.0007734977E+002  +6.9158409458E-001 +2.4463745982E+000 
12148082.603 +6.9148331138E-001 +4.8798984970E+000  +5.7961245751E-003 +5.9244889251E+001  +6.5734917817E-003 +7.9256274267E+001  +7.0836153962E-001 +1.6072412822E+000 
12273227.785 +6.8790619257E-001 +5.0478025720E+000  +5.5516803785E-003 +6.7459399463E+001  +5.3734547452E-003 +7.8784774616E+001  +7.0729417555E-001 -3.6979956722E-001 
12398372.966 +7.0039483071E-001 +4.7667928259E+000  +4.6253915996E-003 +7.4350926693E+001  +7.1094329465E-003 +7.3542060433E+001  +7.3730261761E-001 -1.3428575827E+000 
12523518.148 +7.1538672526E-001 +2.1817672263E+000  +7.4927079468E-003 +8.6280456359E+001  +6.8053683625E-003 +8.3764994390E+001  +7.5257345123E-001 -1.5965224001E+000 
12648663.329 +7.4624251987E-001 +2.8052354142E+000  +7.1413509075E-003 +9.0738909811E+001  +6.2706481546E-003 +7.3805314128E+001  +7.6294513937E-001 -2.9195797026E+000 
12773808.511 +7.7043065371E-001 +2.0166349651E+000  +5.6228638164E-003 +8.2555982630E+001  +4.5031063734E-003 +8.7215783336E+001  +7.7529221928E-001 -1.5213482063E+000 
12898953.692 +7.8942607639E-001 +5.1199884390E-001  +6.6738954667E-003 +7.6641151401E+001  +6.7278804053E-003 +8.3298653763E+001  +7.7471874682E-001 -1.1293336432E+000 
13024098.874 +7.8953839561E-001 +4.9141402077E-001  +5.7622641940E-003 +7.5195948859E+001  +8.4546620039E-003 +7.5414403013E+001  +8.1781613426E-001 -5.4377858644E-001 
13149244.055 +8.0118340478E-001 +1.2428071479E+000  +5.8651561919E-003 +6.7951491452E+001  +6.8533098683E-003 +8.4559131046E+001  +8.3650358208E-001 -3.9644144269E+000 
13274389.237 +8.2172942498E-001 -1.8968072885E+000  +5.3172272920E-003 +7.9880939812E+001  +7.3065309327E-003 +7.7913261823E+001  +8.4083939041E-001 -2.7567071320E+000 
13399534.418 +8.4034712328E-001 -1.1800659419E+000  +7.0209724241E-003 +7.0848608734E+001  +6.2851806483E-003 +8.9157355083E+001  +8.3673479162E-001 -1.5570469761E+000 
13524679.599 +8.5850983242E-001 -1.0600115426E+000  +6.7011354473E-003 +8.3579154841E+001  +7.0981692088E-003 +8.1081212360E+001  +8.4835895580E-001 -4.1296128936E+000 
13649824.781 +8.6131008571E-001 -2.6717064363E+000  +7.1196147629E-003 +8.6617512659E+001  +7.2259831632E-003 +7.3134306037E+001  +8.8600458310E-001 -4.6991562032E+000 
13774969.962 +8.9748367580E-001 -2.3378311105E+000  +7.1183327066E-003 +7.7504504517E+001  +6.9515388858E-003 +8.4395745810E+001  +8.9100195837E-001 -2.0064769411E+000 
13900115.144 +9.0395325888E-001 -4.0035677765E+000  +5.9821834334E-003 +6.7641291192E+001  +5.9366569424E-003 +8.2527998946E+001  +9.2261677667E-001 -3.0746500461E+000 
14025260.325 +9.3317459511E-001 -2.6354104303E+000  +7.3375760673E-003 +7.4911259080E+001  +7.2578697386E-003 +8.5544606474E+001  +9.3575087705E-001 -3.2878222590E+000 
14150405.507 +9.3071036741E-001 -5.4449315535E+000  +8.9503211531E-003 +7.9990508242E+001  +7.8467376079E-003 +7.3805864467E+001  +9.6234721251E-001 -4.0514786301E+000 
14275550.688 +9.5642857674E-001 -4.8801738464E+000  +7.5755751200E-003 +8.6665146903E+001  +8.2774103750E-003 +7.2091814026E+001  +9.9328238701E-001 -4.7350262514E+000 
14400695.870 +9.8355247536E-001 -5.3724831380E+000  +7.4149710630E-003 +8.1105707349E+001  +7.7474564115E-003 +9.1932227658E+001  +1.0004990587E+000 -4.6600629014E+000 
