!  2-Port S-parameters saved by WinCal
! VAR MeasName=S-Parameters (CALIBRATED_DATA) read from VNA (P5004A)
! VAR MeasDate=27/08/2024 12:19:11
! VAR NAME=S2_r1c9_pristine_9k-100M_1
! VAR FILENAME=S2_r1c9_pristine_9k-100M_1.S2P
! VAR DATE=27/08/2024 12:19:11
! VAR PHYS_PORTS=1,2
! VAR ObjTypeName=DATASET
! VAR IndexType=Frequency
!
# Hz S MA R 50
9000.000 +8.7493160068E-002 -1.4905187910E+002  +2.2324726706E-002 +9.2245856640E+001  +4.0358374144E-003 +4.1122171484E+001  +3.2831221052E-001 -8.1216785994E+001 
134145.181 +1.1048101942E-001 +1.6940962367E+002  +6.5949451922E-004 -9.0821853842E+001  +8.6299346289E-004 +5.0868869297E+001  +2.4101097666E-001 -1.6943341292E+002 
259290.363 +1.1236330470E-001 +1.6946976699E+002  +6.9221702620E-004 -2.6283511347E+001  +2.2559402983E-004 +3.9069502528E+001  +2.3890900891E-001 -1.6923049521E+002 
384435.544 +1.1323435614E-001 +1.7021890197E+002  +1.0645326137E-003 -5.2581004662E+001  +7.0382947896E-004 -8.2345864771E+001  +2.4345438284E-001 -1.6755092217E+002 
509580.726 +1.1493515299E-001 +1.7059261743E+002  +5.9544482354E-004 +8.8940116922E+000  +9.3590852557E-004 -1.1179406876E+002  +2.5559354087E-001 -1.6647027400E+002 
634725.907 +1.1688374713E-001 +1.7088360975E+002  +4.0512305043E-004 -7.4970413561E+001  +7.6458189513E-004 -6.1841101002E+001  +2.4202625095E-001 -1.6681838852E+002 
759871.089 +1.1590612533E-001 +1.7208121693E+002  +6.4514517508E-004 -4.6609851701E+000  +3.7305892124E-004 -6.9931533071E+001  +2.3995281692E-001 -1.6546032476E+002 
885016.270 +1.1480296730E-001 +1.6985558491E+002  +2.5504470207E-004 +7.8105020765E+001  +2.2161391417E-004 -7.7791074393E+001  +2.2741200643E-001 -1.6255231200E+002 
1010161.452 +1.1714941231E-001 +1.7021772850E+002  +5.3297970288E-004 +6.3213682951E+001  +7.7506462710E-004 -7.6995538648E+001  +1.8435556397E-001 -1.6472021968E+002 
1135306.633 +1.0737352849E-001 +1.7022256655E+002  +4.6658641264E-003 -5.6428178478E+001  +1.6612184467E-003 +1.4786653810E+002  +1.4713843690E-001 -1.5158048580E+002 
1260451.815 +1.1758184507E-001 +1.7225730925E+002  +8.0008208089E-004 -1.2088908304E+002  +2.4714667011E-003 +1.1173700902E+002  +2.6172286406E-001 -1.5573041077E+002 
1385596.996 +1.2637279091E-001 +1.7216521426E+002  +7.2181177966E-004 -4.1113677639E+001  +1.0849183680E-003 -7.6064046022E+001  +2.6819564727E-001 -1.5599247202E+002 
1510742.178 +1.2876883868E-001 +1.7114850296E+002  +6.3338788242E-004 -1.4690539233E+002  +5.6105328930E-004 -3.0988111836E+001  +2.5755576752E-001 -1.5869078161E+002 
1635887.359 +1.2854938457E-001 +1.7018736637E+002  +7.4943260071E-004 -1.0321262906E+002  +8.0446664351E-004 +1.5879995552E+002  +2.4523530341E-001 -1.6015222199E+002 
1761032.541 +1.2736116296E-001 +1.6855584381E+002  +1.5389758789E-003 +1.0320922313E+002  +1.2405937519E-003 +1.4220249082E+002  +2.1792966203E-001 -1.6130953672E+002 
1886177.722 +1.2945499967E-001 +1.6643476710E+002  +1.7677211842E-003 +1.2692061506E+002  +3.2358683951E-003 +7.9849840528E+001  +1.8069916960E-001 -1.7345735807E+002 
2011322.904 +1.2984159564E-001 +1.6498991920E+002  +9.3932156497E-004 +6.9807676336E+001  +2.5398456935E-003 +1.3547729749E+002  +1.6700858757E-001 -1.6910475284E+002 
2136468.085 +1.3089348663E-001 +1.6688995599E+002  +1.0159197185E-003 +1.3157575702E+002  +2.2150739904E-003 +1.1853088649E+001  +2.0604615120E-001 -1.6728650305E+002 
2261613.267 +1.2563180617E-001 +1.6141713037E+002  +2.0100650398E-003 +2.6858501162E+001  +6.2139659861E-003 -1.4150999702E+002  +1.5854969708E-001 -1.7381338756E+002 
2386758.448 +1.2496513033E-001 +1.6260797366E+002  +2.4431018578E-003 +1.2343391498E+001  +2.2651363043E-003 -1.0308904823E+002  +1.5206039742E-001 +1.6743802844E+002 
2511903.630 +1.2764334675E-001 +1.5846794090E+002  +2.0905352341E-003 -2.4303689296E+001  +3.1757618727E-003 -9.0739929162E+001  +2.7112093952E-001 +1.7540915084E+002 
2637048.811 +1.2974249764E-001 +1.5088580824E+002  +2.1682317894E-002 +1.5935839306E+002  +1.6019292462E-002 -1.3328710148E+002  +7.4481687759E-001 +1.1638253231E+002 
2762193.992 +7.7075219804E-002 -1.7945564412E+002  +1.2609082387E-002 -1.4187955346E+002  +3.3260993219E-002 +1.5836441980E+002  +1.1276897867E+000 -1.3251123660E+002 
2887339.174 +1.2699707821E-001 +1.7926688417E+002  +1.0789122375E-002 +1.8403528851E+001  +4.1268206986E-003 +1.0227491988E+002  +3.5365944383E-001 -1.0257205467E+002 
3012484.355 +1.1460644664E-001 -1.7455113889E+002  +8.8514349788E-003 +5.2265639695E+001  +1.5894902604E-003 -1.1076353805E+002  +2.0543315517E-001 -1.1300598672E+002 
3137629.537 +1.2582167522E-001 +1.5550862141E+002  +1.0555400735E-002 -4.6568768538E+001  +6.4685311454E-003 +1.6052194331E+002  +3.1124957027E-001 -4.9013257276E+001 
3262774.718 +1.2592533700E-001 -1.7356416319E+002  +1.2419552503E-002 -3.4013081183E+001  +1.4178264462E-002 -1.6330887230E+001  +1.5626204796E-001 -7.0699158898E+000 
3387919.900 +1.4277401098E-001 +1.5544735566E+002  +1.3339685103E-002 +1.3832810874E+002  +1.0037757670E-002 +1.6111458927E+002  +3.5528528984E-001 -8.0947555965E+001 
3513065.081 +1.6610078104E-001 +1.3448518353E+002  +5.2716180106E-003 +2.2074563046E+001  +1.9622006520E-002 -1.3234588481E+002  +3.5390361927E-001 +1.1902140552E+002 
3638210.263 +1.4596394095E-001 +1.4723816232E+002  +3.3656528185E-002 +2.6771802345E+001  +2.9673366333E-002 +3.1685135958E+001  +2.1719334544E+000 +1.6529829948E+002 
3763355.444 +1.9533004966E-001 +1.5142432996E+002  +6.7369736326E-003 -1.3365510175E+002  +1.3394065488E-002 -1.4458354515E+002  +5.1814605670E-001 +1.0545231800E+002 
3888500.626 +1.8957264759E-001 +1.3992194636E+002  +6.3287381519E-003 +6.8195726861E+001  +1.0365430758E-002 -3.8311621476E+001  +3.5445198942E-001 +1.3653474409E+002 
4013645.807 +1.5718735158E-001 +1.3760785664E+002  +7.5516970882E-003 +4.7800382111E+000  +9.8369243490E-003 -8.1477233979E+001  +3.6767986656E-001 +6.3027355753E+001 
4138790.989 +1.1215333830E-001 +1.4046653261E+002  +1.1039636025E-002 -1.3456301167E+002  +5.4845152252E-003 +1.5819918130E+002  +6.7365621908E-001 +1.0398125263E+002 
4263936.170 +2.1840238000E-001 +1.2877481699E+002  +5.5835026666E-003 -1.7776692713E+002  +9.7206161087E-003 +1.1941596413E+002  +4.6719567313E-001 +1.0669819891E+002 
4389081.352 +2.0141874142E-001 +1.3789359077E+002  +4.9564399806E-003 +8.0500962703E+001  +7.9411123796E-003 +5.7626273012E+001  +3.2850679956E-001 +1.2254977859E+002 
4514226.533 +2.1972758788E-001 +1.4059045514E+002  +2.3539834078E-002 -1.2042140300E+000  +1.0885360067E-002 +1.2277771621E+002  +9.2859947145E-001 +1.1162054818E+002 
4639371.715 +3.0264085109E-001 +1.2286495624E+002  +1.8405513559E-002 -1.5285465425E+002  +5.1733869493E-002 -2.1279397735E+001  +4.7733427933E+000 -1.0802379100E+002 
4764516.896 +3.6351269176E-001 +1.1470857432E+002  +1.7388857626E-002 -6.9031583057E+001  +3.2647101243E-002 +6.7628992868E+001  +2.6231474713E+000 -1.7287469040E+002 
4889662.078 +5.7756043053E-001 +1.2252529983E+002  +2.3349661406E-002 +8.3071038573E+001  +3.7686042897E-002 -1.0859508134E+001  +2.7154606398E+000 -1.0383743174E+002 
5014807.259 +4.2569174324E-001 +1.3057705553E+002  +3.6401981895E-002 -1.1439882907E+001  +9.8354398461E-003 +1.3778266013E+002  +3.7674281365E+000 +1.7878668686E+002 
5139952.441 +4.0465525013E-001 +1.3435669586E+002  +2.3600065932E-002 -3.1757770717E+001  +1.8176182018E-002 +6.9929474243E+001  +3.0776826984E+000 +1.2338134873E+002 
5265097.622 +4.1634878962E-001 +1.3112525576E+002  +6.9743455451E-003 -4.4534881538E+001  +8.0869990586E-002 -9.3612348834E+001  +7.1099996599E+000 -5.7961689210E+001 
5390242.804 +3.9510712272E-001 +1.3444368737E+002  +5.1220022105E-003 -1.5260258372E+002  +3.0598173342E-002 -6.9168856550E+001  +1.8521722892E+000 +1.2100312588E+002 
5515387.985 +4.6014328862E-001 +1.3381973881E+002  +1.1473452328E-002 +1.7653951952E+001  +2.4680583727E-002 +1.7311725531E+002  +1.5391853259E+000 +8.2172714161E+001 
5640533.166 +4.7265726325E-001 +1.3762151990E+002  +3.1369652114E-002 -1.6739762970E+002  +3.6490814809E-003 -1.3064490042E+002  +1.7160941315E+000 +4.2915588710E+001 
5765678.348 +5.3738656348E-001 +1.2092460933E+002  +6.2244017852E-003 +1.0547435678E+002  +1.7268877608E-002 -1.0076062815E+002  +2.0087795739E+000 +5.5271438067E+001 
5890823.529 +5.7493694446E-001 +1.2484467656E+002  +1.6586673649E-002 -1.1395614877E+002  +2.8148238283E-002 +1.4689595670E+002  +2.1779903889E+000 +6.6608060980E+001 
6015968.711 +6.8457232483E-001 +1.1883110249E+002  +1.8053189390E-002 +1.7581872412E+002  +1.5315692480E-002 +1.4666895347E+001  +3.4123446246E+000 +4.4159785055E+001 
6141113.892 +8.3481586133E-001 +1.1458588756E+002  +1.6631787282E-002 +4.1271517360E+001  +2.9568977915E-002 +9.0899244837E+001  +1.3497981819E+000 +4.7524467421E+001 
6266259.074 +8.9074928853E-001 +1.1451243238E+002  +1.0387023764E-002 -5.7012937711E+001  +3.7028088799E-002 +1.2367049247E+002  +1.7402423750E+000 +2.8447821118E+001 
6391404.255 +9.2526254146E-001 +9.7582998021E+001  +1.4282895830E-003 -5.2643811702E+001  +1.5536740294E-002 +2.2521100455E+001  +2.0961612118E+000 +2.6992104528E+001 
6516549.437 +1.5165512267E+000 +8.3235134870E+001  +3.2288133384E-002 +1.4892955149E+002  +3.2169677561E-002 +8.0646497937E+001  +1.6943447283E+000 +1.1485729682E+000 
6641694.618 +1.5769439949E+000 +5.6883800244E+001  +3.4412610468E-002 +9.4064263556E+001  +2.4670776974E-002 -1.7691791381E+002  +1.3167061063E+000 +2.5673164953E+000 
6766839.800 +1.8250743813E+000 +3.4901783762E+001  +2.4066926226E-002 +1.2735871860E+002  +1.9501836152E-002 +7.6175762669E+001  +1.2841505198E+000 -8.3461377055E+000 
6891984.981 +3.0343970893E+000 +3.5639003678E+001  +6.2265720843E-003 -8.7087541592E+000  +1.8626585071E-002 +1.0511880547E+002  +1.2841118254E+000 -6.2895545874E+000 
7017130.163 +2.1183030400E+000 +1.9231833373E+001  +1.6756236386E-002 +1.5181593694E+002  +2.3443962313E-002 +1.1217389360E+002  +1.1981054906E+000 -8.6335606409E+000 
7142275.344 +1.8743993101E+000 +8.0109903864E+000  +5.7078346514E-003 -5.5776104858E+000  +4.1231199320E-003 +1.2743877693E+002  +1.3866100262E+000 -1.2752600814E+001 
7267420.526 +1.6978729172E+000 +4.0292820270E+000  +6.8973541240E-003 -1.5565438000E+002  +1.6925292819E-003 -4.8410484039E+001  +1.4308891935E+000 -8.4757479867E+000 
7392565.707 +1.3883793165E+000 +1.4072744614E+000  +4.3586252942E-003 -1.0172242086E+002  +1.0119467067E-002 +7.2211671138E+001  +1.3305993654E+000 -1.7878280402E+000 
7517710.889 +1.3190206907E+000 -4.4619655299E-001  +5.4361136647E-003 -1.7472052381E+002  +4.6720793187E-003 +7.7485689102E+001  +1.1201730680E+000 -4.6635682359E+000 
7642856.070 +1.0977424868E+000 +3.2873264062E+000  +1.0296781967E-002 +5.8095454611E+001  +2.8135415467E-003 +3.8677394824E+001  +1.1362465908E+000 -2.9041269805E+000 
7768001.252 +9.8665680138E-001 -3.0392580377E+000  +6.8055288569E-003 +5.7153532206E+001  +7.3285167905E-003 +1.0460274529E+002  +9.1481725893E-001 -3.2300511122E+000 
7893146.433 +9.9521603777E-001 +2.1667077651E+000  +8.6497044258E-003 +9.6028746486E+001  +9.2451867630E-003 +7.0856732381E+001  +9.2199048352E-001 -2.8042662249E+000 
8018291.615 +7.9722085809E-001 +3.7237960112E+000  +2.5438444368E-003 -1.4237315209E+002  +8.6155126898E-003 +8.2594923746E+001  +9.1998604047E-001 +1.2076701090E+000 
8143436.796 +8.1553645086E-001 +7.2957296470E+000  +6.1781001149E-003 +1.6628333839E+000  +6.0756185071E-003 +9.5154348867E+001  +8.2242280527E-001 +3.0661118317E+000 
8268581.977 +6.9743545164E-001 +7.0829060490E+000  +7.5193849864E-003 +3.1286706361E+001  +2.8874850268E-003 -1.7375341618E+002  +7.4374157039E-001 +1.9957545830E+000 
8393727.159 +6.9339738163E-001 +8.8300545421E+000  +3.8555223047E-003 +1.0963861965E+002  +6.0825742132E-003 +8.0470226128E+001  +8.3115497977E-001 +3.7649506059E+000 
8518872.340 +6.5521873815E-001 +1.1777622840E+001  +8.7851315457E-003 +9.6675285966E+001  +5.5560587096E-003 +1.0665025357E+002  +7.4706813025E-001 +1.8015640954E+000 
8644017.522 +6.8145286630E-001 +5.9073019482E+000  +3.8219672101E-003 +8.8338656450E+001  +4.1930025641E-003 +9.5678934186E+001  +7.1062249448E-001 -2.2198628191E+000 
8769162.703 +6.2355814501E-001 +7.8015565651E+000  +5.6574494416E-003 +6.8394120358E+001  +6.8071448686E-003 +9.1211228217E+001  +6.1509118571E-001 -1.4091059758E+000 
8894307.885 +6.4057025626E-001 +1.9164957782E+000  +5.3584857142E-003 +1.3129666579E+002  +5.5164289687E-003 +7.4830652325E+001  +6.6906828398E-001 +3.0489030410E+000 
9019453.066 +5.5136030380E-001 +5.6291206356E+000  +4.4370647647E-003 +1.3951657122E+002  +5.1249221122E-003 +3.0773537717E+001  +6.4091797124E-001 -3.8261071016E+000 
9144598.248 +5.7533372296E-001 +2.3942183508E+000  +4.6794632928E-003 +6.7283064394E+001  +4.4206087306E-003 +6.3882172806E+001  +6.3812096733E-001 +1.0063409731E+000 
9269743.429 +5.6511664014E-001 +7.5551689339E+000  +4.9767569233E-003 +9.2877900622E+001  +1.3286295363E-003 -2.9424969311E+001  +5.7968590799E-001 +2.6455684966E+000 
9394888.611 +5.8011874036E-001 +1.6617941313E+000  +3.4012368610E-003 +8.0093953588E+001  +4.8493842098E-003 +1.0224944623E+002  +5.7924922612E-001 -3.1321548028E+000 
9520033.792 +6.0992136647E-001 +3.5352538340E+000  +4.3593560194E-003 +8.4087128478E+001  +3.8350021613E-003 +1.0644417018E+002  +5.5718496615E-001 +5.2506779236E-001 
9645178.974 +5.7210220840E-001 +1.8181264879E-001  +3.1673322416E-003 +1.0005735323E+002  +7.7298640201E-003 +8.1566469695E+001  +5.9814092863E-001 -5.8680642755E+000 
9770324.155 +5.6986058145E-001 -3.3501853979E+000  +4.7848752462E-003 +8.8569516028E+001  +5.3887566810E-003 +9.5348178906E+001  +6.2693871702E-001 -5.7346312743E+000 
9895469.337 +5.6994125900E-001 -2.1062567104E-001  +6.1028903998E-003 +1.1025199313E+002  +5.0444483936E-003 +1.4580614785E+002  +5.6016504545E-001 -8.3153259893E+000 
10020614.518 +5.3452951754E-001 +3.2371057345E+000  +4.3076522282E-003 +9.2513056113E+001  +2.6063006156E-003 +1.5620409110E+002  +5.9609867114E-001 -5.5476796380E+000 
10145759.700 +5.4487324667E-001 +4.0100528727E+000  +5.4007902026E-003 +1.2135362120E+002  +2.7774437447E-003 +1.2308598443E+002  +5.9017517947E-001 -9.5043252931E+000 
10270904.881 +5.2812494800E-001 +4.3396875360E+000  +4.1629231913E-003 +8.3179544840E+001  +3.6534357451E-003 +8.5822321936E+001  +5.5939055325E-001 -6.7025112730E-001 
10396050.063 +5.6919155123E-001 +6.2916863530E+000  +3.7074714143E-003 +8.7636548425E+001  +7.6562163165E-003 +1.1377521505E+002  +5.8063353021E-001 -1.9458332891E+000 
10521195.244 +5.5928924706E-001 +4.8688952119E+000  +4.4447837560E-003 +7.3472068513E+001  +7.0003048337E-003 +1.0076364680E+002  +5.6166052262E-001 -8.7304183389E-001 
10646340.426 +5.7897561934E-001 +3.1311287790E+000  +5.5906291669E-003 +7.6269333197E+001  +5.3318683805E-003 +8.9846370909E+001  +6.2285279836E-001 +3.8745831893E-001 
10771485.607 +5.8907291549E-001 +6.5076860239E+000  +4.5039829053E-003 +1.0543556501E+002  +5.7053316731E-003 +1.1782177348E+002  +5.9653187072E-001 -1.2002991646E+000 
10896630.788 +5.6877145637E-001 +4.1276622402E+000  +6.2680753160E-003 +7.7176276351E+001  +3.0613129460E-003 +6.3440869315E+001  +6.4254817521E-001 +6.8282176533E-001 
11021775.970 +5.6753189818E-001 +2.0340122577E+000  +5.5436611267E-003 +8.6117649228E+001  +5.1347879624E-003 +1.3863100873E+002  +6.2293537613E-001 -9.2343919961E-001 
11146921.151 +5.8705671565E-001 +6.7357966859E+000  +5.3891241620E-003 +9.2788155399E+001  +3.6374543699E-003 +1.5307041436E+002  +6.2313239090E-001 -2.2515163531E-001 
11272066.333 +6.2030918486E-001 +6.8065433986E+000  +3.7932226490E-003 +9.6309047834E+001  +3.3548747105E-003 +9.2686823736E+001  +6.4474575010E-001 +4.1268465174E+000 
11397211.514 +6.0357457840E-001 +6.0211890624E+000  +5.2160417116E-003 +7.6625207589E+001  +5.9894627231E-003 +1.1991742867E+002  +6.1836346998E-001 +3.8047483905E+000 
11522356.696 +6.1292981172E-001 +3.4572541297E+000  +6.9433171602E-003 +9.1607499617E+001  +4.2643093185E-003 +1.0186772804E+002  +6.4933493888E-001 +2.0798129087E+000 
11647501.877 +6.2540821512E-001 +6.5722790723E+000  +5.6110409702E-003 +9.1502110766E+001  +5.8807524182E-003 +7.3460087335E+001  +6.4749348270E-001 -2.2264587116E-001 
11772647.059 +6.5762304588E-001 +6.6544042417E+000  +4.1329469839E-003 +7.9251568174E+001  +7.2251082932E-003 +1.0758722827E+002  +6.8408237079E-001 -5.5047639553E-001 
11897792.240 +6.8821717104E-001 +4.6350040502E+000  +5.1720700548E-003 +9.7178332981E+001  +4.3540936019E-003 +1.1228940239E+002  +6.7293824121E-001 +9.7143791009E-002 
12022937.422 +6.6659990685E-001 +1.8291463516E+000  +4.9410048089E-003 +9.1144012358E+001  +5.4479580285E-003 +1.2150137784E+002  +6.8240550565E-001 +1.4677948135E-001 
12148082.603 +7.0023350021E-001 +3.9481521006E+000  +4.9383366508E-003 +8.1940471912E+001  +6.7834917871E-003 +1.0079206956E+002  +7.0258186526E-001 -1.1726595343E+000 
12273227.785 +6.9031299094E-001 +2.2831757433E+000  +5.5470023699E-003 +8.8442681131E+001  +6.5789042358E-003 +1.1405393214E+002  +7.1688261374E-001 -1.0450193359E+000 
12398372.966 +7.1026176049E-001 +4.7247190328E+000  +6.0036845038E-003 +9.6557666083E+001  +5.5851263102E-003 +8.9096431351E+001  +7.2645395293E-001 +9.5365494894E-002 
12523518.148 +7.3551183052E-001 +2.3225449132E+000  +7.0244578374E-003 +1.0022680884E+002  +5.0936342897E-003 +9.1299279248E+001  +7.4351793610E-001 +5.3362691107E-001 
12648663.329 +7.5184267418E-001 +2.3069144886E+000  +7.3745478128E-003 +8.7064769351E+001  +6.5156523784E-003 +9.1037053517E+001  +7.5471453281E-001 -9.4185189047E-001 
12773808.511 +7.4924191963E-001 +4.2890271394E-002  +5.7258362099E-003 +9.2966802832E+001  +6.0049867115E-003 +1.0225904248E+002  +7.6084238794E-001 -6.3058841405E-001 
12898953.692 +7.5945130384E-001 +2.3904371113E+000  +6.6582138447E-003 +9.5239852558E+001  +6.4736681106E-003 +1.1217662546E+002  +7.6930773575E-001 -1.9052249053E+000 
13024098.874 +7.7583069033E-001 +1.0096959499E+000  +7.5185314791E-003 +9.6548131433E+001  +5.0578896844E-003 +9.2099363841E+001  +8.1693690494E-001 -4.3987384041E-001 
13149244.055 +7.9988575668E-001 -6.2174318464E-001  +5.2968769999E-003 +9.1125285137E+001  +4.6691776249E-003 +1.0917547586E+002  +8.2898534037E-001 -1.5391738321E+000 
13274389.237 +8.2046352874E-001 -1.9155056471E+000  +7.2445779928E-003 +8.6730440000E+001  +6.0402298297E-003 +8.7220433589E+001  +8.2526459741E-001 -1.8316589657E+000 
13399534.418 +8.1111625850E-001 -5.8059595624E-001  +6.1835987538E-003 +8.1875246054E+001  +7.9812879701E-003 +8.7339877270E+001  +8.4040379940E-001 -2.1244397367E+000 
13524679.599 +8.2709352831E-001 -2.0430396406E+000  +7.3777001972E-003 +9.0744504894E+001  +7.1230716082E-003 +9.1351256340E+001  +8.7226666627E-001 -1.3788168325E+000 
13649824.781 +8.7347923762E-001 -2.9821138763E+000  +7.1972772954E-003 +9.2257753762E+001  +9.4808310697E-003 +8.8188631287E+001  +8.9253710312E-001 -2.7863789703E+000 
13774969.962 +8.9582070543E-001 -4.2124605137E+000  +6.9536021568E-003 +9.8147969291E+001  +8.3089166081E-003 +8.2749776941E+001  +9.0899661369E-001 -1.9845873100E+000 
13900115.144 +9.1249980179E-001 -3.7497189530E+000  +6.4262712687E-003 +9.0694385513E+001  +7.1483817148E-003 +9.8138653845E+001  +9.3278008837E-001 -2.0622688769E+000 
14025260.325 +9.2053515973E-001 -3.4511042001E+000  +6.0953639570E-003 +9.0263501189E+001  +7.2466474371E-003 +9.3066558932E+001  +9.4462445394E-001 -2.9215476017E+000 
14150405.507 +9.2847203877E-001 -4.4595819217E+000  +7.2972399087E-003 +1.0399686390E+002  +6.3676017197E-003 +9.5572862281E+001  +9.6876028476E-001 -4.7706581189E+000 
14275550.688 +9.6308121108E-001 -3.8698270861E+000  +6.9563445728E-003 +8.5924102861E+001  +8.1565233820E-003 +9.4215201311E+001  +9.4568214676E-001 -3.6773239203E+000 
14400695.870 +9.6879217575E-001 -6.4597016445E+000  +6.6443696201E-003 +9.2493223980E+001  +9.1562650053E-003 +8.4697148463E+001  +9.9853595493E-001 -4.8945280130E+000 
