!  2-Port S-parameters saved by WinCal
! VAR MeasName=S-Parameters (CALIBRATED_DATA) read from VNA (P5004A)
! VAR MeasDate=27/08/2024 12:36:40
! VAR NAME=S2_r5c9_pristine_9k-100M_2
! VAR FILENAME=S2_r5c9_pristine_9k-100M_2.S2P
! VAR DATE=27/08/2024 12:36:40
! VAR PHYS_PORTS=1,2
! VAR ObjTypeName=DATASET
! VAR IndexType=Frequency
!
# Hz S MA R 50
9000.000 +7.2570377674E-002 -1.4947872462E+002  +4.7328929536E-003 +1.6111138429E+002  +1.8012586360E-002 +1.3222800345E+002  +1.0080918993E-001 -1.2435249244E+002 
134145.181 +1.1019419138E-001 +1.6936691199E+002  +3.5305742257E-004 +1.3892706616E+002  +4.7301100065E-004 -7.8473650829E+001  +2.4140662777E-001 -1.7104343863E+002 
259290.363 +1.1127293333E-001 +1.6927560635E+002  +2.1162277985E-004 +5.9378407034E+001  +6.8479168187E-004 -1.2911927834E+002  +2.4351000376E-001 -1.6899399225E+002 
384435.544 +1.1456216250E-001 +1.7033944965E+002  +4.9149056502E-004 +1.7805782133E+002  +8.9117026623E-004 -1.4697885254E+002  +2.3991368352E-001 -1.6870380960E+002 
509580.726 +1.1240826603E-001 +1.7038210101E+002  +1.7690009268E-004 -7.2332040756E+001  +1.3545147470E-003 -5.6103892066E+001  +2.3284657894E-001 -1.6627287169E+002 
634725.907 +1.1752372471E-001 +1.7007853073E+002  +1.7195528324E-005 -9.7807625989E+001  +8.7396987558E-004 +1.0221008691E+002  +2.4563973132E-001 -1.6746834938E+002 
759871.089 +1.1469703490E-001 +1.7136708533E+002  +1.1130666991E-003 +2.3180888351E+000  +9.5711400097E-004 +6.5471429208E+001  +2.4919697772E-001 -1.6232649419E+002 
885016.270 +1.1508708568E-001 +1.7104539442E+002  +4.2357476347E-004 -8.1195243742E+001  +1.3499904451E-003 +1.2660352236E+002  +2.3961887653E-001 -1.6489043568E+002 
1010161.452 +1.1663908655E-001 +1.7099785355E+002  +8.5015525483E-004 +4.0947024257E+001  +2.2344921473E-003 -2.4647316411E+001  +1.5311135635E-001 -1.7045483512E+002 
1135306.633 +1.1399976076E-001 +1.7079059900E+002  +2.5696435742E-003 -1.1584806102E+002  +3.4867531546E-003 -9.7809526719E+001  +1.6140618649E-001 -1.7254277857E+002 
1260451.815 +1.2324317013E-001 +1.6971164996E+002  +1.0028506473E-003 +1.7185586234E+001  +1.4245900696E-003 -4.0031905848E+001  +2.2297454075E-001 -1.5530333553E+002 
1385596.996 +1.2552988953E-001 +1.7302438534E+002  +7.2680745224E-004 -1.2239383617E+002  +6.7954067874E-004 +1.7746031538E+002  +2.5709067973E-001 -1.5551349270E+002 
1510742.178 +1.2744113961E-001 +1.7175007866E+002  +7.2860098024E-004 +1.0146285346E+002  +2.0287554851E-003 -1.5453127844E+002  +2.3691278769E-001 -1.6041236353E+002 
1635887.359 +1.2564735585E-001 +1.7004462910E+002  +1.5833659684E-003 +1.3972896506E+001  +1.6128270294E-003 -3.4261367930E-001  +2.5396248076E-001 -1.5172360006E+002 
1761032.541 +1.2825157100E-001 +1.6781957891E+002  +2.0752578594E-003 +4.5857544740E+001  +5.1984743321E-004 -1.1655403250E+002  +2.2592392691E-001 -1.6183488504E+002 
1886177.722 +1.2894872425E-001 +1.6824631848E+002  +2.5959654915E-003 +3.7419572307E+001  +1.4049855446E-003 -1.3695345334E+001  +1.9420544472E-001 -1.6065217507E+002 
2011322.904 +1.3530171262E-001 +1.6365411887E+002  +6.4814755056E-004 +2.5352236740E+001  +6.7587994831E-004 -1.4900062225E+002  +2.1164650305E-001 -1.6825297635E+002 
2136468.085 +1.3015408025E-001 +1.6522771791E+002  +4.9369074462E-004 +1.2236063886E+002  +4.4286469576E-003 -1.1310366246E+002  +1.3927987998E-001 -1.6799283721E+002 
2261613.267 +1.3590357379E-001 +1.6646243313E+002  +3.1027770026E-003 +3.0323046397E+001  +4.5490188845E-003 +5.4931872516E+001  +5.0500881275E-002 +8.3029156501E+001 
2386758.448 +1.2982569141E-001 +1.5175106118E+002  +5.0515533143E-003 -9.4575502124E+001  +1.1578260150E-002 -1.3820283517E+002  +1.8983271204E-001 +1.4396486529E+002 
2511903.630 +1.2348886097E-001 +1.5675053556E+002  +6.1033633906E-003 -2.6231651865E+001  +6.7764514557E-003 +1.7791734195E+002  +2.6896586312E-001 +1.5416323687E+002 
2637048.811 +1.0061223466E-001 +1.3858561101E+002  +2.2005996804E-002 -5.7905942357E+001  +2.1288373389E-002 -9.7291083675E+001  +8.7778915582E-001 -1.5734859545E+002 
2762193.992 +2.7052570083E-002 +1.7104817694E+002  +4.0564783028E-002 -2.1883208075E+001  +5.6068762733E-002 +1.0149588929E+002  +5.1094312424E-001 +2.1711551243E+001 
2887339.174 +1.0273244638E-001 +1.6428695103E+002  +4.5402974236E-003 -2.6335905736E+001  +7.6595869758E-003 +1.0132605664E+002  +3.3550763072E-001 -1.1967624258E+002 
3012484.355 +9.7074611658E-002 -1.7479194691E+002  +1.7583841134E-002 +8.3980860111E+000  +8.5950662498E-003 +5.0733141326E+001  +6.0517863364E-001 -1.0245727289E+002 
3137629.537 +1.0711213866E-001 -1.7038104246E+002  +1.1835762245E-002 +3.3173639582E+001  +8.0202295734E-003 +9.5357491866E+001  +7.7819638580E-002 -2.9333849794E+001 
3262774.718 +1.0403119555E-001 +1.5349495171E+002  +4.7091425738E-003 -8.3968824481E+001  +1.0146841770E-002 -2.9728053081E+001  +2.1318887165E-001 -5.6418798027E+001 
3387919.900 +1.0776881462E-001 +1.5682291889E+002  +2.5522399136E-002 +1.7440778624E+002  +2.4152200974E-002 -2.2930138473E+001  +7.6665031519E-001 -4.5823901049E+001 
3513065.081 +1.1296611980E-001 +1.6190687732E+002  +2.3016294685E-002 +8.5087164946E+001  +1.8893640223E-002 +7.9775790752E+001  +1.5253797668E+000 +5.7205406277E+001 
3638210.263 +1.8353075159E-001 +1.3794796006E+002  +1.7549658886E-002 -1.5282829279E+002  +1.9245592086E-002 -1.5466517949E+002  +9.7279226317E-001 +1.0872770785E+002 
3763355.444 +2.1723306490E-001 +1.4031190106E+002  +2.7627561387E-003 +1.0463325539E+002  +7.8854736366E-003 +1.5228306071E+002  +5.5958106704E-001 +1.4447138264E+002 
3888500.626 +1.7083122252E-001 +1.3373684423E+002  +1.3927131784E-002 +1.3817494719E+002  +8.1213607345E-003 +2.0942956801E+001  +4.5769847356E-001 +9.4791222167E+001 
4013645.807 +1.8940095679E-001 +1.4251098132E+002  +1.5330946055E-002 +1.5586784466E+002  +1.0987826177E-002 -1.6588026056E+002  +4.6214364632E-001 +1.0164077023E+002 
4138790.989 +1.7750059313E-001 +1.4826168975E+002  +4.1397999421E-003 +4.7120935148E+001  +1.2757023036E-003 +1.2913859447E+002  +1.8053807973E-001 +1.0839874530E+002 
4263936.170 +1.5352299360E-001 +1.5007778791E+002  +2.3863009350E-002 +1.6384737426E+002  +1.4755455582E-002 +5.8604181840E+001  +6.8825654868E-001 +7.6226495783E+001 
4389081.352 +2.1957207138E-001 +1.2814227899E+002  +1.8227278917E-002 -6.1994455636E+001  +1.4127103958E-002 -1.6501064386E+002  +3.5714403131E-001 +1.2548820938E+002 
4514226.533 +2.0522000658E-001 +1.2809511331E+002  +1.2735745076E-002 -1.5262240971E+002  +1.4769816665E-002 -1.5483769244E+002  +1.0684718627E+000 +1.5304938736E+002 
4639371.715 +3.0191736721E-001 +1.2217396782E+002  +6.3118675468E-002 -6.9347907096E+001  +3.8467030004E-002 -1.3767548109E+002  +2.2814651497E+000 +1.0090710528E+002 
4764516.896 +4.2504633807E-001 +1.2756383921E+002  +2.6245434080E-002 +1.6238307081E+002  +2.5127087470E-002 -1.7493176038E+002  +1.7858953457E+000 +1.6247236532E+001 
4889662.078 +4.6580709286E-001 +1.2791402369E+002  +3.7107510412E-002 -1.2658093700E+002  +4.4964026289E-002 -1.7602246751E+001  +1.4402770091E+000 -1.5486799595E+000 
5014807.259 +4.5777885781E-001 +1.2709689912E+002  +3.1656532734E-002 -7.9928031715E+001  +2.2049187762E-002 +1.7263109251E+002  +2.4432802102E+000 +9.9113563702E+000 
5139952.441 +3.7230651206E-001 +1.3031674392E+002  +1.0499777005E-002 -2.3661857972E+001  +2.4077733736E-002 +1.7832205494E+002  +3.8248118711E+000 +9.0446779801E+001 
5265097.622 +4.2025574529E-001 +1.2615592491E+002  +1.7343447026E-002 +1.1135094977E+002  +2.7901355079E-003 -1.5183373290E+002  +2.1541301678E+000 +8.2168624927E+001 
5390242.804 +4.7277511502E-001 +1.2803888095E+002  +1.3449546007E-002 -1.2536146785E+002  +1.3722878131E-002 +1.8279484785E+001  +9.4661397601E-001 +1.1522986398E+002 
5515387.985 +4.7033710129E-001 +1.2147388508E+002  +1.0854652729E-002 -6.8794738096E+001  +7.4755862635E-004 -3.6393303787E+001  +1.1579155684E+000 +7.8938738243E+001 
5640533.166 +4.8951617456E-001 +1.2932654750E+002  +3.4246333800E-002 +1.0863269985E+002  +1.3161202796E-002 -1.6062252550E+002  +1.9444013521E+000 +9.3345960686E+001 
5765678.348 +5.2952035740E-001 +1.2493912089E+002  +1.3735843676E-002 +1.4177469896E+002  +1.4993314063E-002 +1.0895707689E+002  +1.6002208641E+000 +8.3785659491E+001 
5890823.529 +6.5819297419E-001 +1.2530862116E+002  +2.0916773407E-002 -1.4822796302E+002  +1.5003035053E-002 -1.2266485497E+002  +1.3943279042E+000 +7.4932002590E+001 
6015968.711 +6.5874258220E-001 +1.1116624554E+002  +3.6106137797E-002 +6.4991763266E+001  +1.9935272149E-002 +1.4462653912E+001  +1.8829100878E+000 +5.5867742900E+001 
6141113.892 +7.5149729384E-001 +1.0827790440E+002  +3.4119301466E-002 +2.6777037331E+000  +3.0126642760E-002 +1.4865080321E+002  +1.8412865809E+000 +5.3660391382E+001 
6266259.074 +8.2242703412E-001 +1.1408257229E+002  +8.1884919977E-003 +7.1552708499E+001  +1.1297120615E-002 -1.0030254441E+002  +1.5170697076E+000 +3.6102250719E+001 
6391404.255 +9.9315865169E-001 +9.9706287336E+001  +2.4283781634E-002 +1.2150397899E+002  +1.2884191160E-002 -1.1906473857E+002  +2.1469471736E+000 +6.5420195594E+000 
6516549.437 +1.6753928197E+000 +8.1270530768E+001  +1.4464882696E-002 -1.3699217772E+002  +3.3990173107E-002 +1.3689811600E+002  +1.4160698140E+000 +1.7979760881E+001 
6641694.618 +2.0795840502E+000 +8.0872927446E+001  +3.1096668730E-002 +1.3425411201E+002  +2.5850057765E-002 +1.4435862044E+002  +1.3522070296E+000 +8.8374169432E+000 
6766839.800 +1.3679360929E+000 +4.6780349536E+001  +1.3920567643E-002 +7.6289392042E+001  +8.3655745247E-003 +2.8257339775E+001  +1.6213604039E+000 +8.4359792031E+000 
6891984.981 +2.1152825429E+000 +4.4949207295E+001  +2.8055771546E-002 +1.3876912558E+002  +1.2390155692E-002 +8.8959573231E+001  +1.3866594468E+000 +1.4271974390E+000 
7017130.163 +1.6363355294E+000 +1.6766406522E+001  +1.5259339438E-002 +4.4896574178E+001  +1.6471775152E-002 +4.8303760321E+001  +1.3150202060E+000 -8.9334101426E+000 
7142275.344 +1.6785811187E+000 +1.4250722398E+001  +6.3637749891E-003 +6.7805676046E+001  +4.7068948284E-003 +8.7079572678E+001  +1.3685645322E+000 -6.7864539729E+000 
7267420.526 +1.4705625847E+000 -2.3870924233E-001  +2.3089136086E-003 +3.4012385221E+001  +4.4387392440E-003 -1.0901071408E+002  +1.3260664793E+000 -6.7977911378E+000 
7392565.707 +1.5322672399E+000 +6.2770816441E+000  +7.0582838638E-003 +5.5985936973E+001  +1.1442053823E-002 +7.3013544302E+001  +1.3422406218E+000 -6.8346950291E+000 
7517710.889 +1.2126514507E+000 -2.7451731877E+000  +1.0749570099E-002 +9.1218253914E+001  +2.3271115215E-003 +1.3591037215E+002  +1.2794266433E+000 -9.7141686599E+000 
7642856.070 +1.0762358481E+000 -1.6522684147E+000  +5.4027477819E-003 +1.1495913167E+002  +6.9989953128E-003 +1.0519844310E+002  +1.1986065906E+000 -8.5723386317E+000 
7768001.252 +1.0278258598E+000 +1.8239124389E+000  +3.9601683050E-003 +6.1187128022E+001  +1.9603275707E-003 +7.1102633068E+001  +9.7444265324E-001 -4.3603980290E+000 
7893146.433 +8.5050490253E-001 +8.1252097475E+000  +7.3902515009E-003 +1.6272958562E+002  +2.4333371738E-003 +8.1379407379E+001  +9.3684986797E-001 +1.6235210934E+000 
8018291.615 +7.6234900667E-001 +7.7713947159E+000  +5.9945581953E-003 +1.5705309927E+002  +4.7824045678E-003 +1.2556879884E+002  +8.6012510908E-001 +3.5428542542E+000 
8143436.796 +8.0276039941E-001 +9.8638025559E+000  +1.5788785276E-003 +1.6141068816E+002  +4.7871231313E-003 +1.7376854926E+002  +8.9016479041E-001 -2.6431092383E+000 
8268581.977 +7.9010032137E-001 +1.0482673807E+001  +2.8395185319E-003 +5.4888156293E+001  +7.4000057966E-003 +4.9610173787E+001  +7.0981475050E-001 +3.7263053047E+000 
8393727.159 +6.2165191211E-001 +1.5876622280E+001  +5.2222010587E-003 +1.7240663742E+002  +2.8521883527E-003 -1.6470572451E+002  +7.8386307080E-001 +5.1567569442E-003 
8518872.340 +6.3061440070E-001 +4.0864660591E+000  +7.2767310775E-003 +6.9694215283E+001  +3.2187490062E-003 +1.0007084517E+002  +7.2926314164E-001 -4.2855552090E-001 
8644017.522 +6.7553658032E-001 +5.9766604376E+000  +5.2661188431E-003 +9.5090409901E+001  +7.0701701679E-003 +5.8795283025E+001  +6.6887498600E-001 -3.0511535496E-001 
8769162.703 +6.1856786222E-001 +1.0975765921E+001  +1.6721178578E-003 -2.6353059437E+001  +8.6376878006E-003 +5.6577293475E+001  +7.4405813405E-001 +4.3419376727E+000 
8894307.885 +6.0405023194E-001 +5.4621179620E+000  +5.2360168384E-003 +8.8195596579E+001  +7.0497297675E-003 +6.6707669655E+001  +6.4487100162E-001 -3.2032880304E-001 
9019453.066 +5.9462853226E-001 +2.6817089643E+000  +6.2602327893E-003 +6.8202512757E+001  +5.6644499040E-003 +1.3096483670E+002  +6.2825965192E-001 +2.2989768775E+000 
9144598.248 +6.4379786775E-001 +4.6534065334E+000  +5.6430117106E-003 +7.9869884834E+001  +3.3114758173E-003 -1.5290254187E+001  +5.8696909938E-001 -3.3881781708E+000 
9269743.429 +5.4328238165E-001 +2.4598495864E+000  +5.1483892631E-003 +7.9666594694E+001  +8.5404343510E-003 +9.5752541071E+001  +5.6708623020E-001 -7.1179616406E-001 
9394888.611 +4.9526979227E-001 +4.2159853876E+000  +2.5506168885E-003 +4.5416602761E+001  +4.5949140700E-003 +1.3418439765E+002  +5.9690480137E-001 -3.8052457149E+000 
9520033.792 +5.3181881835E-001 -2.3061087447E+000  +1.5239780159E-003 +4.2020818365E+001  +3.3282354466E-003 +1.0282470444E+002  +6.0520919568E-001 -5.0581533179E+000 
9645178.974 +5.5106181098E-001 -1.7934858662E+000  +2.9603425494E-003 +9.3365602899E+001  +6.7054033139E-003 +1.0166623796E+002  +5.6731902180E-001 -1.2002834055E+001 
9770324.155 +5.1621353622E-001 -9.5376397831E-002  +4.9610791014E-003 +7.2317388831E+001  +4.3944440479E-003 +9.9998131001E+001  +6.1605671799E-001 -6.2670665844E+000 
9895469.337 +5.3968359804E-001 -1.7952598666E+000  +4.7914423658E-003 +8.9898546008E+001  +5.9307533421E-003 +1.4662811585E+002  +5.8005832094E-001 -8.0039284887E+000 
10020614.518 +5.1380622197E-001 -2.9202886014E-001  +5.8996782918E-003 +8.7663543728E+001  +3.8680976055E-003 +7.6220280407E+001  +5.9361886047E-001 -4.2020928979E-001 
10145759.700 +5.7523354231E-001 +1.1122589156E+000  +4.5673786827E-003 +1.1744599978E+002  +3.1660748306E-003 +1.3312406168E+002  +5.8913642596E-001 -1.0393110604E+000 
10270904.881 +5.5175607266E-001 +3.0340456476E+000  +5.9994866215E-003 +9.9564178625E+001  +2.5262907668E-003 +1.3882640821E+002  +6.1654200151E-001 -1.4975557562E-001 
10396050.063 +5.5006790019E-001 +3.1567096320E+000  +3.4873094296E-003 +9.5956386005E+001  +3.7491478734E-003 +1.0343739607E+002  +6.1435969338E-001 -3.9009456081E+000 
10521195.244 +5.6155610962E-001 +4.7676335251E+000  +5.0512471698E-003 +1.0728343460E+002  +5.2958132625E-003 +8.5659616321E+001  +6.2817937939E-001 -2.0925701226E+000 
10646340.426 +5.6762145765E-001 +4.8693107791E+000  +3.0239637804E-003 +8.9952086704E+001  +2.2116045560E-003 +9.2038321843E+001  +5.8472795066E-001 -1.7374483235E+000 
10771485.607 +5.7272883133E-001 +6.9326859176E+000  +3.5188099140E-003 +7.7639474546E+001  +4.4347032125E-003 +1.3068577085E+002  +6.1230527717E-001 +7.2565799835E-001 
10896630.788 +5.8421159618E-001 +8.9230354086E+000  +2.9236708717E-003 +4.9534110935E+001  +3.5087304624E-003 +9.7559179452E+001  +6.0406411675E-001 +1.9055116973E+000 
11021775.970 +5.8120865707E-001 +3.7368067443E+000  +5.3016879977E-003 +9.3125749354E+001  +4.8984395937E-003 +1.0981621589E+002  +6.1816262906E-001 +6.6662578444E-001 
11146921.151 +5.7355692226E-001 +7.1692736438E+000  +3.1486405150E-003 +1.0716049111E+002  +4.0359172587E-003 +1.0876661503E+002  +6.3670869743E-001 +1.7794471754E+000 
11272066.333 +5.9122297934E-001 +5.4033392347E+000  +3.6773788308E-003 +8.9829643875E+001  +4.6505166257E-003 +1.1088235921E+002  +6.3820829323E-001 +1.1272988249E+000 
11397211.514 +5.9539147161E-001 +7.5892913565E+000  +3.7693311576E-003 +9.6447889050E+001  +8.7852471972E-003 +1.0007181949E+002  +6.3471470982E-001 +2.2069647425E+000 
11522356.696 +6.2517361639E-001 +6.0666673584E+000  +6.0552241916E-003 +1.0321647485E+002  +4.1460759347E-003 +8.1106142719E+001  +6.4843932092E-001 +2.5084552295E+000 
11647501.877 +5.9906014576E-001 +3.6585360109E+000  +5.7659098982E-003 +8.7113379513E+001  +5.1373646893E-003 +1.2172041458E+002  +6.2974384118E-001 +1.0565966338E+000 
11772647.059 +6.1974140174E-001 +4.6959275978E+000  +3.9483228194E-003 +8.7481847294E+001  +4.2620187096E-003 +9.4716837414E+001  +6.5005920306E-001 +2.6996023766E+000 
11897792.240 +6.6869514727E-001 +5.4505216515E+000  +4.0520077404E-003 +1.0497305620E+002  +6.9308919615E-003 +1.0826158925E+002  +6.6364356346E-001 +5.9848544793E-001 
12022937.422 +6.6492739244E-001 +3.8513045093E+000  +7.1376847546E-003 +8.9411588876E+001  +6.4946031974E-003 +1.1053195058E+002  +6.7776723736E-001 +1.0341975909E+000 
12148082.603 +6.7686147179E-001 +4.8721493194E+000  +5.9264746885E-003 +1.0165516067E+002  +6.7072639239E-003 +1.0210100813E+002  +7.0315798702E-001 -1.2355697465E-001 
12273227.785 +6.9997249937E-001 +5.2386628838E+000  +7.3228909005E-003 +1.0789703980E+002  +5.8340785329E-003 +9.7204909302E+001  +7.1295033122E-001 -5.2842361651E-001 
12398372.966 +7.1178702805E-001 +3.1405395269E+000  +5.4959081174E-003 +9.2037365386E+001  +6.0617870417E-003 +9.4368129684E+001  +7.1423442165E-001 +2.2834954311E-001 
12523518.148 +7.4716111689E-001 +4.8371339078E+000  +4.4292197853E-003 +9.3830087813E+001  +3.5904404095E-003 +9.1209031083E+001  +7.4698527029E-001 +8.8270340495E-001 
12648663.329 +7.3899771269E-001 +3.1639790217E+000  +6.1195238862E-003 +9.6651132123E+001  +6.5572731164E-003 +1.1472478085E+002  +7.6407537894E-001 -8.9949261125E-001 
12773808.511 +7.3632710488E-001 +1.7273904104E+000  +6.1465486797E-003 +8.6167715189E+001  +5.3685051730E-003 +1.0651082763E+002  +8.0174687074E-001 -1.4450581505E-002 
12898953.692 +7.9147795755E-001 +1.4020817717E+000  +5.5974430968E-003 +9.4936496730E+001  +6.6280371368E-003 +9.6266604258E+001  +8.1191407477E-001 +1.2952349783E-001 
13024098.874 +8.1859701571E-001 +8.8841086322E-001  +5.0219384024E-003 +1.0076233693E+002  +5.1783846495E-003 +9.6729636880E+001  +7.7759813593E-001 -2.4173876501E+000 
13149244.055 +8.0029026167E-001 +1.5935277455E+000  +6.4885683379E-003 +8.5707311617E+001  +6.6545360189E-003 +9.8421859252E+001  +8.2080049553E-001 -8.2635268148E-001 
13274389.237 +8.3398697114E-001 +1.1323733857E+000  +6.0647791968E-003 +8.7161160336E+001  +7.8184343865E-003 +1.0157994444E+002  +8.4483667812E-001 -2.4584075187E+000 
13399534.418 +8.2565623202E-001 -1.4810997214E+000  +7.2484507280E-003 +9.5468494176E+001  +5.4178035669E-003 +9.2563871698E+001  +8.5167612433E-001 -1.2565931418E+000 
13524679.599 +8.2626220231E-001 -2.1703755504E+000  +6.4858660667E-003 +9.1187087612E+001  +5.4948219590E-003 +9.5511298845E+001  +8.7928709496E-001 -2.1564755287E+000 
13649824.781 +8.6664648105E-001 -2.7135249475E+000  +7.1802031017E-003 +8.8942403786E+001  +5.4866653076E-003 +1.0183057754E+002  +8.8188932492E-001 -3.3796849438E+000 
13774969.962 +8.7173666325E-001 -2.1167016225E+000  +6.7701015070E-003 +8.1739238710E+001  +6.6132217523E-003 +9.6653106100E+001  +9.0326732307E-001 -3.0953985371E+000 
13900115.144 +9.0231961323E-001 -2.6469757313E+000  +6.9389120266E-003 +9.5745930302E+001  +7.0187859258E-003 +9.8098875214E+001  +9.3994120646E-001 -3.0628613490E+000 
14025260.325 +9.2023468333E-001 -3.8210510695E+000  +7.4283184294E-003 +7.5039927252E+001  +6.2593070522E-003 +1.0025039375E+002  +9.2261485661E-001 -2.6062167061E+000 
14150405.507 +9.3598276631E-001 -5.3486467422E+000  +7.4738760198E-003 +9.1677747185E+001  +6.9072622038E-003 +9.6113726360E+001  +9.3905743884E-001 -4.0785609998E+000 
14275550.688 +9.5180921759E-001 -4.4892236419E+000  +6.4911244346E-003 +7.2075266667E+001  +8.4500099107E-003 +9.8578700365E+001  +9.5727377852E-001 -4.7649941474E+000 
14400695.870 +9.8722696536E-001 -5.4950762962E+000  +8.0783420069E-003 +9.3123082644E+001  +5.9740472809E-003 +8.6585024432E+001  +1.0145005900E+000 -4.1646713643E+000 
