!  2-Port S-parameters saved by WinCal
! VAR MeasName=S-Parameters (CALIBRATED_DATA) read from VNA (P5004A)
! VAR MeasDate=28/08/2024 10:48:16
! VAR NAME=S2_r5c9_SET1_9k-100M_3
! VAR FILENAME=S2_r5c9_SET1_9k-100M_3.S2P
! VAR DATE=28/08/2024 10:48:16
! VAR PHYS_PORTS=1,2
! VAR ObjTypeName=DATASET
! VAR IndexType=Frequency
!
# Hz S MA R 50
9000.000 +1.0332941034E-001 -1.6135729573E+002  +9.7412451793E-003 +8.8626922526E+001  +4.5286081161E-003 +1.4289072294E+002  +2.7988639222E-001 -1.3678677097E+002 
134145.181 +1.1131445501E-001 +1.6951972995E+002  +3.3261927718E-004 -3.4397479755E+001  +6.3735192650E-004 -1.0064185428E+002  +2.4077810303E-001 -1.7055742726E+002 
259290.363 +1.1221921030E-001 +1.6980572135E+002  +3.0979905806E-004 +1.1393580618E+002  +6.7409740930E-005 +4.7176486782E+001  +2.4345296770E-001 -1.6983904208E+002 
384435.544 +1.1389674486E-001 +1.6970300837E+002  +4.5521432403E-004 +1.3017243919E+002  +6.8279274043E-004 -5.0896217789E+001  +2.4316720953E-001 -1.6650717755E+002 
509580.726 +1.1443286493E-001 +1.7130247455E+002  +7.6344053378E-004 -8.8004422974E+001  +1.3592980063E-003 -3.9253056311E+001  +2.6707153954E-001 -1.6325189978E+002 
634725.907 +1.1779934792E-001 +1.7116707414E+002  +1.4592220230E-003 +1.6014202215E+002  +1.0039666794E-003 -1.5266263343E+002  +2.4895540051E-001 -1.6151553169E+002 
759871.089 +1.1908491610E-001 +1.7017509884E+002  +7.6516583290E-004 -5.8400782741E+001  +5.0145189783E-004 +6.4087889869E+001  +2.5894875512E-001 -1.6669352685E+002 
885016.270 +1.2160066720E-001 +1.6941125221E+002  +2.4155611000E-004 -5.9999568521E+001  +2.1613446494E-004 +5.6703056725E+001  +2.3659143685E-001 -1.6641662057E+002 
1010161.452 +1.1749775972E-001 +1.7026384025E+002  +1.1498134604E-003 +1.4031421688E+002  +1.5143325042E-003 +1.1317315399E+002  +1.9353686837E-001 -1.7018522271E+002 
1135306.633 +1.1642829853E-001 +1.6919215353E+002  +1.0719540572E-003 +1.5151893580E+002  +5.1588982010E-004 -1.2823242686E+000  +2.0703075052E-001 -1.6217396228E+002 
1260451.815 +1.2138541632E-001 +1.7124808954E+002  +1.9195412891E-003 -6.0755642206E+001  +1.6980804807E-003 +7.9771335206E+001  +2.3808550440E-001 -1.5697622968E+002 
1385596.996 +1.2742033521E-001 +1.7323120880E+002  +4.1854523034E-004 -1.7307057433E+002  +1.4906416823E-003 +6.6932323586E+001  +2.6084499522E-001 -1.6218865626E+002 
1510742.178 +1.2680338300E-001 +1.7110026611E+002  +1.5802071492E-003 +5.3192514561E+001  +4.3832959918E-004 +5.3505199772E+001  +2.5938318781E-001 -1.6029767567E+002 
1635887.359 +1.2663645845E-001 +1.7090110840E+002  +1.1084480823E-003 +1.5993656395E+002  +1.9094314945E-004 -1.5033638346E+002  +2.4444806319E-001 -1.5808751984E+002 
1761032.541 +1.2338633970E-001 +1.6943525260E+002  +8.7801111374E-004 +1.7431319712E+001  +3.5799591270E-003 -9.8050821124E+001  +2.2418081859E-001 -1.6076943659E+002 
1886177.722 +1.2948101540E-001 +1.6827086490E+002  +2.0219080880E-003 -1.4965066844E+002  +7.7114163985E-004 -6.6035208941E+001  +2.0852235039E-001 -1.6602185917E+002 
2011322.904 +1.3070896202E-001 +1.6766106108E+002  +1.4174031815E-003 -1.2861141735E+002  +1.7510960861E-003 -1.0220750010E+002  +1.7286353352E-001 -1.5882840252E+002 
2136468.085 +1.2693105031E-001 +1.6333108402E+002  +1.2443746379E-003 -3.9950316937E+001  +3.4879039600E-003 -1.3019042669E+002  +1.8901015692E-001 -1.6529571629E+002 
2261613.267 +1.3094027340E-001 +1.6466413556E+002  +2.5029841686E-003 +8.0700230624E+001  +1.0988451619E-003 +1.7864022324E+002  +1.3588630619E-001 -1.5432243528E+002 
2386758.448 +1.3209782073E-001 +1.6396542334E+002  +2.8164954607E-003 -1.3543464758E+002  +1.6039564823E-003 +1.2838898826E+002  +1.4119668521E-001 +1.4887137423E+002 
2511903.630 +1.4626042996E-001 +1.5980366059E+002  +5.2205324018E-003 +8.5249642810E+001  +2.3893523489E-003 -3.3573671173E+000  +2.1665453959E-001 +1.6997234548E+002 
2637048.811 +1.2737184165E-001 +1.7237631892E+002  +3.9617682857E-003 +6.8844444266E+001  +2.1280024756E-003 +1.0805405073E+002  +3.0667464673E-001 +1.5235748603E+002 
2762193.992 +1.1167336654E-001 +1.6726298347E+002  +3.0401968694E-002 -2.7937224775E+001  +1.0081746138E-002 -9.4190861152E+000  +6.6361233455E-001 +6.6918544581E+000 
2887339.174 +1.1946776714E-001 +1.6761739376E+002  +2.2245094176E-003 -1.7111041738E+002  +6.5092105182E-003 -1.2727451223E+002  +3.6343835113E-001 -1.1669869282E+002 
3012484.355 +1.2173057052E-001 +1.7380995344E+002  +7.6781184211E-003 -1.9218778865E+001  +5.3527091752E-003 -1.2897861372E+002  +1.1817032534E-001 -6.3815251133E+001 
3137629.537 +1.1032311772E-001 +1.6663100806E+002  +1.4030380887E-002 -3.4604413262E+001  +1.0719173385E-003 +1.0515575079E+002  +3.3495618381E-001 -1.0440189255E+002 
3262774.718 +1.2329628889E-001 +1.7845234897E+002  +1.5861772558E-002 -7.0379851578E+001  +2.3156255526E-002 +1.3286104049E+002  +4.1137287131E-001 -9.2308977231E+001 
3387919.900 +9.4692426013E-002 +1.4547962765E+002  +5.9470335509E-003 -3.2027585748E+001  +2.1491817422E-002 -2.9725171303E+001  +1.0760734353E-001 -8.6327468389E+001 
3513065.081 +1.5248741597E-001 +1.5158771093E+002  +1.9198300589E-002 +4.7210690951E+001  +3.3833082678E-003 -2.0899585822E+001  +7.1065026713E-001 +1.1489557830E+002 
3638210.263 +1.8292626753E-001 +1.5083703836E+002  +2.5570287981E-003 +1.0356175949E+002  +3.7227143099E-003 -1.7854476607E+001  +4.2123492782E-001 +1.4751812153E+002 
3763355.444 +1.7046543106E-001 +1.4581092669E+002  +7.1703772095E-003 +5.6836332412E+001  +1.2947583813E-002 +1.0625208921E+002  +3.4860413698E-001 +1.2821675795E+002 
3888500.626 +1.6517520723E-001 +1.3180483193E+002  +3.8080684225E-003 +2.5365422178E+001  +7.1222345746E-003 -5.5340507587E+001  +2.9667381151E-001 +1.5675372755E+002 
4013645.807 +1.8137195350E-001 +1.4242458145E+002  +5.9740328443E-003 +8.8689658060E+001  +6.3710590145E-003 +9.6724421688E+001  +5.1153802372E-001 +1.4976502241E+002 
4138790.989 +1.7079407591E-001 +1.4291843765E+002  +1.0803570815E-002 +1.4945260045E+002  +7.3550499868E-003 +4.6731267572E+001  +6.0937882137E-001 +1.2739307423E+002 
4263936.170 +1.7087962169E-001 +1.4878142347E+002  +8.7551269694E-003 +6.1641151074E+001  +8.3534944059E-003 -4.1893798368E+001  +3.9710019932E-001 +1.1647253575E+002 
4389081.352 +2.1599587672E-001 +1.3850364278E+002  +6.6739344393E-003 +4.6821900079E+001  +1.9559716570E-002 +5.2364253461E+001  +5.2289407980E-001 +3.8042682350E+001 
4514226.533 +2.6173303525E-001 +1.3947459313E+002  +1.3021056072E-002 +1.3723370563E+002  +2.2294774508E-002 +8.5608238260E+001  +1.8703746552E+000 +8.4164372768E+001 
4639371.715 +2.5812088794E-001 +1.1827390545E+002  +2.1898806718E-002 -4.9304541973E+001  +3.1122144679E-003 +1.6567323010E+002  +1.6243953375E+000 +6.9648716601E+001 
4764516.896 +3.3446802512E-001 +1.0667917146E+002  +3.1675673691E-002 +3.4750216491E+001  +5.0870432175E-002 +7.0522000100E+001  +1.0799087395E+000 +3.3318304314E+001 
4889662.078 +4.4085867071E-001 +1.3151088249E+002  +5.7743413448E-002 -9.9962228916E+001  +3.1277331583E-002 +8.9056319460E+001  +3.7218488891E+000 -1.6614469286E+002 
5014807.259 +3.9702127996E-001 +1.2502040532E+002  +5.4725981082E-002 -1.0969079912E+002  +8.5984841760E-002 +1.3699739814E+002  +5.3415293322E+000 -1.6833470965E+002 
5139952.441 +3.2516662916E-001 +1.3476869303E+002  +3.0633447494E-002 +1.2802634973E+002  +3.6973650056E-002 +1.3646750252E+001  +1.9182683492E+000 +1.0490219461E+002 
5265097.622 +4.2355093163E-001 +1.2950036771E+002  +9.1527226744E-002 +1.3192552712E+002  +3.3727518035E-002 +1.6330495977E+002  +3.2992427359E+000 +6.1531923432E+001 
5390242.804 +4.0975269705E-001 +1.2102866733E+002  +8.7589477078E-002 +1.5143825359E+002  +6.8357961215E-002 +1.0488437106E+002  +4.2534262709E+000 +8.8634422623E+001 
5515387.985 +4.3853510109E-001 +1.2264393148E+002  +3.1423931109E-002 +1.2199302384E+002  +3.3120674076E-002 +1.0841103281E+001  +2.3539765464E+000 +8.4693850804E+001 
5640533.166 +4.3164955107E-001 +1.1160864136E+002  +3.7269978818E-002 +9.0918949028E+001  +3.9898501036E-002 +5.5353202003E+001  +2.1159339914E+000 +7.2884349240E+001 
5765678.348 +5.4969123797E-001 +1.3105323525E+002  +1.9839091354E-002 +7.7365381261E+001  +2.4504586427E-002 +5.7204568127E+001  +1.2851226864E+000 +7.6102197409E+001 
5890823.529 +5.9832495625E-001 +1.2555905354E+002  +2.8249794753E-002 +1.1862295474E+002  +2.9892238095E-002 +3.7675200351E+001  +2.1235087207E+000 +6.0462726448E+001 
6015968.711 +7.4915920005E-001 +1.0751129131E+002  +5.0431081024E-002 +6.0759770593E+001  +1.4254018574E-002 +5.4606057742E+001  +1.4684799692E+000 +3.8926889366E+001 
6141113.892 +6.8423963988E-001 +1.1453269681E+002  +2.7819932301E-002 +1.0826378862E+002  +3.6279691089E-002 +6.3086603865E+000  +1.3298246331E+000 +4.0297015423E+001 
6266259.074 +8.1960586709E-001 +1.0385851347E+002  +4.5809715056E-002 +3.5119998444E+001  +4.7355038190E-002 +5.2760229763E+001  +2.6069811315E+000 +2.0463644368E+001 
6391404.255 +9.4078276567E-001 +9.6251487005E+001  +3.5253573572E-002 +3.2980271920E+001  +3.7511006613E-002 +6.1186916028E+001  +1.3001303274E+000 +6.5382436983E+000 
6516549.437 +1.0962425231E+000 +8.4265720886E+001  +3.6950494215E-002 +6.7866303242E+001  +4.3665302815E-002 +5.2004933696E+001  +1.4230771901E+000 +2.7157323183E+001 
6641694.618 +1.1751972822E+000 +6.3579697509E+001  +3.9853450989E-002 +7.3270484853E+001  +4.5583724921E-002 +4.2308411437E+001  +1.6744108386E+000 +4.2979652636E+000 
6766839.800 +2.0305771225E+000 +5.7646938097E+001  +5.2071682455E-002 +2.2425113015E+001  +4.9981801741E-002 +2.4463458685E+000  +1.2251869456E+000 -2.2382326148E+000 
6891984.981 +2.2077433541E+000 +5.1840024673E+001  +4.5977208956E-002 +2.9049461727E+001  +4.7270956258E-002 +1.4162504973E+001  +1.4356250422E+000 -2.7411556288E+000 
7017130.163 +1.6087662502E+000 +2.6872263099E+001  +2.9087167537E-002 +1.9744816176E+001  +3.9045608927E-002 -1.6309021862E+000  +1.1615850949E+000 -9.9423896530E+000 
7142275.344 +1.7430755667E+000 +1.2889682242E+001  +2.2047613582E-002 +1.0292229594E+001  +2.7221104501E-002 -1.6989166151E+001  +1.3235729500E+000 -2.0260226598E+001 
7267420.526 +1.7171053868E+000 -9.3891739432E+000  +3.2539847696E-002 +1.0378325978E+001  +3.1125928217E-002 -8.0804057182E+000  +1.2945511875E+000 -5.5431290624E+000 
7392565.707 +1.3756630478E+000 -4.1496946394E+000  +2.7847210236E-002 -5.6093032562E+000  +1.9002136277E-002 +1.4151519824E+001  +1.3422497167E+000 -9.2630307963E+000 
7517710.889 +1.1559991845E+000 -3.1457441826E+000  +1.3456998449E-002 +4.9052957068E+001  +1.9774485003E-002 +1.6992281953E+001  +1.2456491434E+000 -8.9785797347E+000 
7642856.070 +1.0392993826E+000 +4.2069924249E+000  +2.6189131931E-002 +1.0570363515E+001  +1.9826981380E-002 +3.8360607793E+001  +1.0882916249E+000 -2.6596249005E+000 
7768001.252 +9.2584351082E-001 +1.0342448674E+000  +1.4884518499E-002 +2.7815839582E+001  +1.8838315447E-002 +2.2245920307E+001  +9.7354467050E-001 -7.0643480166E+000 
7893146.433 +8.0718610652E-001 +4.2340846324E+000  +1.6472227582E-002 -9.1834486016E+000  +1.7772623891E-002 +1.7544819701E+001  +9.0578656067E-001 -2.0511412907E+000 
8018291.615 +8.3763741964E-001 +4.5847632683E+000  +1.6498733389E-002 +6.3156049818E+000  +9.6366885259E-003 -8.8255444989E-001  +8.7072529012E-001 -4.5728850502E-001 
8143436.796 +8.3749788067E-001 +5.7473572180E+000  +1.7357257148E-002 +1.5719631988E+001  +1.7012152136E-002 +2.4053629395E+001  +8.3674311681E-001 -4.8309916240E-001 
8268581.977 +7.1331044792E-001 +4.6251314306E+000  +1.4674126430E-002 +1.1987873281E+001  +1.6336647167E-002 +5.0135194496E+000  +7.4579400747E-001 -3.1967544059E+000 
8393727.159 +7.5446138131E-001 +2.8166233415E+000  +1.3664021508E-002 +6.5338923526E+000  +1.4310071207E-002 +3.6369942497E+001  +6.9329331781E-001 -2.6477634115E+000 
8518872.340 +6.6821050028E-001 +8.6290341650E+000  +1.7706466252E-002 -8.0476459483E-001  +1.8913761049E-002 +2.9846900190E+001  +7.0786091489E-001 -7.0527722050E+000 
8644017.522 +6.3495865426E-001 +1.2073129554E+001  +1.4810149056E-002 +1.4171256656E+001  +1.2035277641E-002 +1.6232910828E+001  +6.4675717041E-001 +1.6710768382E+000 
8769162.703 +6.0141831386E-001 +9.1216133182E+000  +1.2890995050E-002 +2.3707704649E+000  +1.4225062616E-002 +2.9907183276E+001  +6.0075552697E-001 +1.7311532606E+000 
8894307.885 +5.5851111909E-001 +3.4794324723E+000  +1.2374178563E-002 +1.8225718800E+001  +1.0873421876E-002 +1.7042699926E+001  +6.5787940514E-001 +3.1005326152E+000 
9019453.066 +5.7282054034E-001 +2.2555686000E+000  +1.1247779044E-002 +8.5710567984E+000  +7.1961498588E-003 +4.3478357515E+001  +6.1065306812E-001 -3.0713801340E+000 
9144598.248 +5.2999084829E-001 +7.9348629437E+000  +1.0477177675E-002 +8.2761956864E+000  +1.7269150456E-002 +1.8932854461E+001  +6.6123993529E-001 -2.1899119564E+000 
9269743.429 +5.5866931515E-001 +3.5766043444E+000  +1.1810764206E-002 +1.8270479888E+001  +1.5224951259E-002 +1.3106318701E+001  +5.6729448713E-001 -1.7822370139E+000 
9394888.611 +5.3378977832E-001 -5.4986807129E-001  +1.4707647826E-002 +1.1714924877E+001  +1.2686069250E-002 +1.0307505490E+001  +5.8066698723E-001 -1.1556201533E+000 
9520033.792 +5.1680327699E-001 +3.5332826760E+000  +1.3224366329E-002 +1.0589965834E+001  +1.3319254491E-002 +3.4280776595E+001  +6.0793244266E-001 -3.1028863312E+000 
9645178.974 +5.3437962760E-001 +3.4820695484E+000  +1.1871810837E-002 +4.1064586613E+000  +1.4534420363E-002 +3.4299450273E+001  +5.5764838894E-001 -8.8951841125E-001 
9770324.155 +5.3760933081E-001 +2.9512766840E+000  +1.4560123581E-002 +2.3591394982E+001  +1.3213238059E-002 +2.1831203780E+001  +5.3851058241E-001 -7.8674564623E+000 
9895469.337 +5.3467920923E-001 +5.0585348190E+000  +1.2607262141E-002 +2.0800100542E+001  +1.0409654079E-002 +2.6606457564E+001  +6.3866980617E-001 -4.7102051932E+000 
10020614.518 +5.6668462457E-001 +8.8625443391E-001  +1.0821547684E-002 +2.4995112545E+001  +1.4419275719E-002 +4.1037840709E+001  +5.8793947719E-001 -2.7733999527E+000 
10145759.700 +5.4419753900E-001 +9.7675183417E-001  +1.0800619014E-002 +2.2823286267E+001  +1.3356267744E-002 +3.9431893873E+001  +5.4901468810E-001 -1.2981341876E+000 
10270904.881 +5.9121322812E-001 +2.1606699265E+000  +1.4009471989E-002 +1.6695221279E+001  +1.3739059699E-002 +3.6523105478E+001  +5.4321585745E-001 -2.7641641676E+000 
10396050.063 +5.5457557272E-001 +2.9173260122E+000  +1.3685715527E-002 +1.6981811326E+001  +1.5661554753E-002 +4.5134787648E+001  +5.3112135805E-001 -1.2658210679E-001 
10521195.244 +5.8325303961E-001 +7.8911719618E+000  +1.3639240696E-002 +1.7357479252E+001  +1.4307854775E-002 +3.8932584294E+001  +6.1816818043E-001 -2.2178719951E+000 
10646340.426 +5.3713827441E-001 +6.0567800405E+000  +1.2823800000E-002 +2.2875325676E+001  +1.5158105099E-002 +3.1363597080E+001  +5.6332647503E-001 +1.5620150715E+000 
10771485.607 +5.4045854838E-001 +6.3632236380E+000  +1.1915065445E-002 +1.5439906785E+001  +1.4998636178E-002 +2.9058862382E+001  +5.8880234675E-001 -3.2855445364E+000 
10896630.788 +5.5437900907E-001 +8.2810917188E+000  +1.2531969065E-002 +2.2734181916E+001  +1.5008950673E-002 +3.6482553145E+001  +5.8092706614E-001 +3.1731410054E+000 
11021775.970 +5.5955290449E-001 +3.9732143101E+000  +1.3180834394E-002 +1.4442321141E+001  +1.3786088498E-002 +2.5676298390E+001  +5.6403567623E-001 +2.7254984159E+000 
11146921.151 +6.0107642743E-001 +5.0716468353E+000  +1.4804637931E-002 +1.9300225625E+001  +1.3869309476E-002 +2.7726225379E+001  +6.1949624131E-001 +3.0395495694E-001 
11272066.333 +5.6692870874E-001 +4.2542716892E+000  +1.6532354567E-002 +2.0606059610E+001  +1.4049115733E-002 +4.2281035173E+001  +6.4486938931E-001 +1.6424581916E+000 
11397211.514 +6.1064480283E-001 +6.5811070201E+000  +1.3237521474E-002 +1.6727106564E+001  +1.1553676415E-002 +3.9502036945E+001  +6.0923262815E-001 +2.0272644242E+000 
11522356.696 +6.2769882681E-001 +7.9427781411E+000  +1.4817554996E-002 +2.2524270999E+001  +1.4891015284E-002 +4.0750492806E+001  +6.2966068784E-001 +2.5765212782E+000 
11647501.877 +6.3755858491E-001 +6.5093487499E+000  +1.5038554390E-002 +2.3872120229E+001  +1.3969759577E-002 +3.2086353873E+001  +6.7460315212E-001 +2.1809956476E+000 
11772647.059 +6.5161694910E-001 +7.4927612714E+000  +1.5278650043E-002 +2.1730907331E+001  +1.5141982359E-002 +2.8573473237E+001  +6.2996811230E-001 +2.3756928924E+000 
11897792.240 +6.3004277287E-001 +6.4609967488E+000  +1.3756281551E-002 +3.0542569553E+001  +1.4772643189E-002 +2.4711737224E+001  +6.5552867484E-001 +2.1493068641E+000 
12022937.422 +6.6911409302E-001 +3.0557526147E+000  +1.6528474214E-002 +2.0904562385E+001  +1.7205435675E-002 +3.0368804965E+001  +6.8446912875E-001 +1.1877633478E+000 
12148082.603 +7.0717884136E-001 +4.2461545740E+000  +1.6139762211E-002 +2.7641103659E+001  +1.3098784734E-002 +3.3738262335E+001  +6.9732423494E-001 -1.2392289208E+000 
12273227.785 +6.7012851716E-001 +1.9318151234E+000  +1.6655676906E-002 +2.0983312727E+001  +1.6592582258E-002 +3.1624458066E+001  +6.8022740020E-001 +1.2083879285E+000 
12398372.966 +6.8478073467E-001 +2.1475595757E+000  +1.6004027276E-002 +2.0641969518E+001  +1.4789602657E-002 +2.6469782558E+001  +7.0293555611E-001 -6.1738939518E-001 
12523518.148 +7.1456932355E-001 +2.9102711254E+000  +1.6402397856E-002 +2.9217784746E+001  +1.6013824791E-002 +3.1624503730E+001  +7.4498861958E-001 +2.2803683000E+000 
12648663.329 +7.3312960529E-001 +2.0712093444E+000  +1.4842548942E-002 +2.1130334934E+001  +1.7807847442E-002 +2.5276726020E+001  +7.3876222525E-001 -1.1550406409E+000 
12773808.511 +7.4210365469E-001 +2.1063351091E+000  +1.6761535218E-002 +2.5467592227E+001  +1.5999165971E-002 +2.4408868228E+001  +7.6265245077E-001 -1.1748607843E-001 
12898953.692 +7.7233444688E-001 +7.5997627618E-001  +1.7761375500E-002 +2.2183311327E+001  +1.7154924796E-002 +3.2213227540E+001  +7.8018987315E-001 -7.7657008464E-002 
13024098.874 +7.7409740370E-001 +8.4199886971E-001  +1.5081406141E-002 +3.1116848784E+001  +1.6760003473E-002 +3.0992904763E+001  +8.0829340253E-001 -1.5423392501E+000 
13149244.055 +8.1305801881E-001 +5.1824639150E-001  +1.5432147005E-002 +2.6288636198E+001  +1.4032656576E-002 +3.0064632372E+001  +8.0142278745E-001 +2.2121154968E-001 
13274389.237 +7.9767675900E-001 +1.1779687865E-001  +1.6281623780E-002 +2.1505974624E+001  +1.7363756044E-002 +2.6749768247E+001  +8.2853078444E-001 -1.7740809591E+000 
13399534.418 +8.2630619725E-001 -1.6952346493E+000  +1.8280296202E-002 +2.7996173682E+001  +1.5696028612E-002 +2.9043452508E+001  +8.2189748887E-001 -3.3378779555E+000 
13524679.599 +8.1909478237E-001 -1.6642970002E+000  +1.7256434624E-002 +2.4566875065E+001  +1.7550812844E-002 +2.7064736143E+001  +8.5341410969E-001 -5.2008844710E+000 
13649824.781 +8.4953794956E-001 -2.5954173693E+000  +1.7575919372E-002 +2.9383345671E+001  +1.7891123218E-002 +2.9433076740E+001  +8.8183853289E-001 -3.2292796071E+000 
13774969.962 +8.6169167538E-001 -2.3584041393E+000  +1.6423404743E-002 +2.2956010796E+001  +1.6008894109E-002 +2.8502442849E+001  +8.6689995825E-001 -3.8949352591E+000 
13900115.144 +8.8464782187E-001 -2.7615964085E+000  +1.8536125533E-002 +2.6049941495E+001  +1.7907072222E-002 +2.7142286401E+001  +9.0993675216E-001 -3.0800837004E+000 
14025260.325 +9.1052392426E-001 -4.8891020136E+000  +1.6176087368E-002 +2.7329026708E+001  +1.8417870026E-002 +3.3571485491E+001  +9.1367114160E-001 -2.9451804545E+000 
14150405.507 +9.2997151066E-001 -4.0006005888E+000  +1.8167688479E-002 +2.4989259208E+001  +1.7618902511E-002 +2.6921156709E+001  +9.5584185182E-001 -4.1595678418E+000 
14275550.688 +9.1853080154E-001 -6.3400782194E+000  +1.8586813381E-002 +2.1867089754E+001  +1.8132786215E-002 +2.5455499549E+001  +9.6305316699E-001 -4.3444275538E+000 
14400695.870 +9.7091642407E-001 -5.3622753569E+000  +1.7529276610E-002 +2.2799136912E+001  +1.8854269745E-002 +2.4159090113E+001  +9.7211998318E-001 -5.8376320409E+000 
