!  2-Port S-parameters saved by WinCal
! VAR NAME=S2_r4c9_formed(1)_9k-100M_1
! VAR DATE=30/08/2024 11:36:57
! VAR FILENAME=S2_r4c9_formed(1)_9k-100M_1.S2P
! VAR MeasName=S-Parameters (CALIBRATED_DATA) read from VNA (P5004A)
! VAR MeasDate=28/08/2024 10:03:28
! VAR PHYS_PORTS=1,2
! VAR ObjTypeName=DATASET
! VAR IndexType=Frequency
!
# Hz S MA R 50
9000.000 +9.8908029764E-002 -1.7002633694E+002  +6.1794003287E-003 -1.5271378609E+002  +5.2689280539E-003 -1.0554304380E+002  +2.3713577761E-001 -1.4865264929E+002 
134145.181 +1.1127977655E-001 +1.6973300168E+002  +4.9545899081E-004 +1.9358402105E+001  +2.0392476665E-004 +1.0357178309E+002  +2.3537965735E-001 -1.7131271515E+002 
259290.363 +1.1224168956E-001 +1.6962969279E+002  +4.8826927590E-004 -7.0123198760E+001  +6.7547873018E-004 +2.0638365050E+001  +2.5103199028E-001 -1.6911170318E+002 
384435.544 +1.1315257525E-001 +1.7056999820E+002  +6.8009537837E-004 +9.8758316354E+001  +6.3938784320E-004 -7.9310820319E+001  +2.5331264653E-001 -1.6838060726E+002 
509580.726 +1.1574965619E-001 +1.7064568710E+002  +8.3150106511E-004 -1.1549016521E+002  +2.4487889687E-004 +8.7102439866E+000  +2.3636500075E-001 -1.6615417258E+002 
634725.907 +1.1860234882E-001 +1.7155456430E+002  +7.5713314236E-004 -1.5711658282E+002  +1.0096559028E-003 -3.2316079710E+001  +2.5432135574E-001 -1.6522051752E+002 
759871.089 +1.2072630608E-001 +1.7172552643E+002  +7.4480102591E-004 -2.7922704580E+001  +4.5217308520E-004 -1.6460766203E+002  +2.4599553383E-001 -1.6665266887E+002 
885016.270 +1.2065645262E-001 +1.6941555247E+002  +5.7074138151E-004 +1.4992291968E+002  +4.9274830960E-004 -8.1501102614E+001  +2.5377469494E-001 -1.6573735584E+002 
1010161.452 +1.1475514156E-001 +1.6960059135E+002  +1.8285918763E-003 +1.1757175366E+002  +2.5212369587E-003 -1.4198486717E+002  +1.9405286674E-001 -1.6950353334E+002 
1135306.633 +1.1544508607E-001 +1.7007056767E+002  +1.2133807773E-003 +4.9976704473E+001  +2.0520616841E-003 +6.0146749591E+001  +1.8459169241E-001 -1.7364161163E+002 
1260451.815 +1.2063592279E-001 +1.7068914374E+002  +3.2293268349E-004 +6.9016018029E+001  +1.2599209827E-003 +9.7960137012E+001  +2.3554499344E-001 -1.5958014270E+002 
1385596.996 +1.2721104611E-001 +1.7314420172E+002  +5.8405040465E-004 -1.6825702018E+002  +2.2403669085E-003 +7.7735880229E+001  +2.6850459923E-001 -1.5776498526E+002 
1510742.178 +1.2828879488E-001 +1.7274802907E+002  +6.9840420386E-004 +8.9883366575E+001  +3.1304432281E-004 -4.7396422722E+000  +2.4495863139E-001 -1.5680694823E+002 
1635887.359 +1.2651157443E-001 +1.7233119132E+002  +1.8405344315E-004 +1.4220362850E+002  +8.4996761948E-004 +1.0191303824E+002  +2.5070422992E-001 -1.5706397140E+002 
1761032.541 +1.2879840707E-001 +1.6991703187E+002  +2.2693357708E-003 -1.2762150989E+002  +1.8753699431E-003 -1.3110761588E+001  +2.2795293461E-001 -1.5362067721E+002 
1886177.722 +1.2622150634E-001 +1.6716647518E+002  +3.8002525738E-003 +4.6703285047E+001  +3.9697603945E-003 -7.3893845326E+001  +1.4486424999E-001 -1.7093811204E+002 
2011322.904 +1.3282365715E-001 +1.6765761330E+002  +4.5795355252E-004 +1.4195542988E+002  +2.7296354233E-003 +2.3482497926E+001  +2.1577688252E-001 -1.4410284389E+002 
2136468.085 +1.2894148801E-001 +1.6896394580E+002  +4.6024612097E-003 -1.2705626950E+002  +3.1931002268E-003 +2.7321550339E+001  +1.7316851239E-001 +1.6851117611E+002 
2261613.267 +1.2510835532E-001 +1.6359974304E+002  +1.8537895012E-003 -1.5056192186E+002  +5.3579165835E-003 +1.7876651583E+002  +1.1899829305E-001 +1.7106913606E+002 
2386758.448 +1.3358553105E-001 +1.6271341480E+002  +2.2955839151E-003 -1.3420476699E+002  +3.9122864990E-003 -5.7314408355E+001  +2.6322396555E-001 +1.7559775258E+002 
2511903.630 +1.3038118494E-001 +1.6331216633E+002  +1.3607597806E-003 +4.6108124009E+001  +3.7338671328E-003 -7.0265446944E+001  +2.0081302986E-001 -1.7453578304E+002 
2637048.811 +1.2702837461E-001 +1.7199875267E+002  +2.1327828523E-003 -1.0786830116E+001  +3.4067340423E-003 +1.0643741977E+002  +6.9968658226E-002 -1.0676755223E+002 
2762193.992 +1.1794921338E-001 +1.7010581093E+002  +1.3316267254E-002 -8.9009134073E+001  +2.4034674114E-003 +1.6781460113E+002  +6.2790442867E-001 -1.3428112141E+002 
2887339.174 +1.2678231764E-001 -1.7675983879E+002  +1.3224129955E-002 +5.6978497142E+001  +1.0674504294E-002 +7.7546054777E+001  +2.5748356182E-001 +8.7646831182E+001 
3012484.355 +1.2932002948E-001 +1.7304151624E+002  +5.3544687449E-003 -4.6713416531E+001  +3.2187047348E-003 +3.9696357392E+001  +2.3114066957E-001 -7.0073258793E+001 
3137629.537 +1.1371241537E-001 +1.6919845496E+002  +2.0006050641E-001 -1.3235562407E+002  +1.5530051127E-001 +7.0520924062E+001  +7.6361254177E+000 -5.8255766795E+001 
3262774.718 +1.2868309899E-001 +1.7598924092E+002  +1.6211815294E-002 -9.9012181160E+001  +9.9684038299E-003 -1.1752526706E+002  +4.1553690978E-001 -8.3293640958E+001 
3387919.900 +1.3447225313E-001 +1.5654303544E+002  +1.1357977522E-002 -1.0944757265E+002  +1.1027557702E-002 -1.4086561352E+002  +5.1148421997E-001 -4.4747002428E+001 
3513065.081 +1.4570619606E-001 +1.6036413903E+002  +1.3205020868E-002 -3.3320436608E+001  +8.0376115806E-003 -6.8749360268E+000  +9.0261570186E-001 +1.6213566774E+002 
3638210.263 +1.5259136726E-001 +1.4715177421E+002  +1.0617009535E-003 -6.2505230162E+001  +4.2784480004E-003 -1.5441167753E+001  +5.5456037367E-001 +1.3514990187E+002 
3763355.444 +1.6958460800E-001 +1.4113237970E+002  +1.5987199120E-002 +1.1105716466E+002  +3.3323567243E-002 -1.5145455361E+002  +1.1858479496E+000 +1.2386976136E+002 
3888500.626 +1.5863461652E-001 +1.5035371953E+002  +4.7751752012E-003 +1.5714369452E+002  +5.9975887307E-003 +1.6604401786E+002  +6.6411506097E-001 +1.3006516082E+002 
4013645.807 +1.5057092596E-001 +1.4092234277E+002  +3.4953606751E-003 -1.3640073081E+002  +8.8596187374E-003 -3.9811609637E+001  +3.4336750009E-001 +1.4196097065E+002 
4138790.989 +1.7798889260E-001 +1.4822702938E+002  +1.0455518677E-002 -2.3001970033E+000  +1.4490386669E-002 -4.5373204395E+001  +3.4235108182E-001 +1.0967666890E+002 
4263936.170 +1.9166203831E-001 +1.4246854974E+002  +1.4257339349E-002 -8.8321764527E+001  +8.0287022477E-003 -2.1866869160E+001  +8.1733493759E-001 +1.2705824705E+002 
4389081.352 +2.0571909797E-001 +1.0475347502E+002  +2.5230207693E-002 +1.1366124020E+002  +1.8371988654E-002 +8.8623259884E+001  +1.0161569898E+000 +8.7504232147E+001 
4514226.533 +2.1761102178E-001 +1.3697451124E+002  +1.4560737809E-002 -1.2455531800E+002  +2.3746875939E-002 -5.7087431401E+000  +1.1564501695E+000 +1.4944789949E+002 
4639371.715 +2.6328017715E-001 +1.2898242431E+002  +1.5918025896E-002 +1.5253214762E+002  +9.7340341023E-002 -1.0012918145E+002  +4.9443809574E+000 -1.4134981069E+002 
4764516.896 +3.7304975410E-001 +1.3683596013E+002  +4.5936957910E-002 -9.2479222933E+001  +3.7644602861E-002 -5.4633273018E+001  +2.4711688926E+000 +8.5626317820E+001 
4889662.078 +5.6756641498E-001 +1.4382252307E+002  +3.2542985730E-002 -5.1813947329E+001  +6.7787768055E-002 -1.4384771763E+002  +2.7347884317E+000 -1.1557154355E+002 
5014807.259 +3.8812334520E-001 +1.3127510297E+002  +7.1348345992E-002 +7.9883260233E+001  +1.2750454295E-001 -3.2448456144E+001  +2.5401438215E+001 -4.2691323863E+001 
5139952.441 +3.6471459207E-001 +1.3543464411E+002  +8.1852476660E-002 -2.4888242515E+001  +6.8941458209E-002 -1.5755821495E+002  +8.3952874560E+000 +1.2336577529E+002 
5265097.622 +4.2892747528E-001 +1.3658478003E+002  +2.5065889557E-002 -1.5786264453E+001  +3.3135955634E-002 -1.3854628130E+002  +3.6657857620E+000 +1.2676640057E+002 
5390242.804 +4.4481628162E-001 +1.2159982035E+002  +5.7005149746E-003 +1.4745010387E+002  +2.7060184509E-002 +1.6866438842E+002  +1.5274768450E+000 +8.3685885591E+001 
5515387.985 +5.8006961674E-001 +1.1896675870E+002  +6.5026108335E-002 -3.7465984551E+001  +3.4553730850E-002 -7.4214446131E+001  +2.5664498754E+000 +1.0146939206E+002 
5640533.166 +4.8335251689E-001 +1.3594674300E+002  +4.6620344672E-002 -1.5400670415E+002  +2.3005114516E-002 +1.3417058693E+002  +4.8490087820E+000 +7.7774318136E+001 
5765678.348 +6.2770411760E-001 +1.1869661397E+002  +2.7400851031E-002 +1.1407777422E+002  +1.9937565007E-002 +6.2756261742E+001  +1.9585800950E+000 +1.0257841328E+002 
5890823.529 +5.9236919461E-001 +1.1784618794E+002  +4.6403158739E-002 -1.7317233156E+002  +1.4799036823E-002 -6.6648225081E+001  +3.2774395155E+000 +7.5827520880E+001 
6015968.711 +5.6358193486E-001 +1.2240884371E+002  +2.5952299309E-002 -3.2549883574E+001  +2.8382865340E-002 +1.3225065745E+002  +2.0978057679E+000 +4.2339713115E+001 
6141113.892 +7.3652973164E-001 +1.1905531184E+002  +1.8954712633E-002 +1.6295559384E+002  +1.0337680017E-002 -1.5235208341E+002  +1.8431731893E+000 +3.8020497653E+001 
6266259.074 +8.8274928175E-001 +8.9288974147E+001  +2.1690491613E-002 -6.3533107974E+001  +1.6959849308E-002 +7.3970238566E+001  +2.3195472283E+000 +2.1781469512E+001 
6391404.255 +1.5137183911E+000 +1.0056015015E+002  +3.2472374141E-002 +1.0362438176E+002  +1.9276298441E-002 +6.4928044143E+001  +1.5250606704E+000 +2.9639787736E+000 
6516549.437 +1.4273727000E+000 +7.6035630575E+001  +2.1008166149E-002 +7.2012979112E+001  +1.0761898259E-002 -3.9884994901E+001  +1.9220349019E+000 -7.1313749374E+000 
6641694.618 +1.5270774677E+000 +6.3566610116E+001  +7.9768826065E-003 +8.3040878606E+001  +2.1492251342E-002 +1.2118119523E+002  +1.3764741663E+000 -6.0519072601E+000 
6766839.800 +1.6659890030E+000 +5.1842055210E+001  +2.4597076233E-002 +1.4176657631E+002  +3.9793923695E-002 +8.1977962596E+001  +1.3249567426E+000 -1.1164220179E+001 
6891984.981 +1.7048417539E+000 +3.0086960436E+001  +1.0327687172E-002 +6.1639531982E+001  +3.2075697424E-002 +1.7902077431E+002  +1.4736150252E+000 -1.0126518127E+001 
7017130.163 +2.5920071115E+000 +1.4601080662E+001  +1.7933770819E-002 -1.1862427377E+002  +2.4386081430E-002 +6.2444384115E+001  +1.4143569849E+000 -1.1377450114E+001 
7142275.344 +1.4276705033E+000 +1.4397727083E+001  +1.0128491857E-002 +8.6219011502E+001  +8.1013315460E-003 +1.0366387549E+002  +1.3715926134E+000 -1.6281828778E+001 
7267420.526 +1.3975984030E+000 +9.2739809867E+000  +4.2390951874E-003 +6.7859997499E+001  +4.7368132328E-003 +4.3633346332E+001  +1.3640240623E+000 -6.2380859546E+000 
7392565.707 +1.4510504325E+000 +4.7911219968E+000  +4.5101866181E-003 +1.1762045912E+002  +2.7041171683E-003 +1.0278707958E+002  +1.3766420491E+000 -4.4102941618E+000 
7517710.889 +1.0929507396E+000 +1.8014772271E-001  +1.2961481936E-002 +9.5582956119E+001  +7.0645867917E-003 +1.4930095006E+002  +1.2876192785E+000 -7.1879973423E+000 
7642856.070 +1.0132830326E+000 -2.0505754861E+000  +2.2559238349E-003 +4.6196490331E+001  +3.0538763465E-003 -1.5562254127E+002  +1.0669384043E+000 -6.4076974497E+000 
7768001.252 +9.6519356199E-001 -8.3773514793E-001  +3.0888271362E-003 -2.7063936362E+001  +9.2766582275E-003 +8.9190989952E+001  +1.0728945922E+000 -8.6527384346E+000 
7893146.433 +1.0214244022E+000 +2.4375567310E+000  +2.0981668834E-003 -1.6166406139E+001  +1.2704146915E-002 +1.2745286492E+002  +9.4507574689E-001 -1.2810387840E+000 
8018291.615 +8.6577861077E-001 +1.1557629835E+001  +1.3113984626E-002 +1.5325160325E+002  +8.2769934786E-003 +1.7441234880E+002  +8.5394930903E-001 +1.6832248377E+000 
8143436.796 +7.9222627429E-001 +1.0685376379E+000  +3.3668248416E-003 +1.1611668918E+001  +9.2680144085E-003 +8.0403698463E+001  +8.3149322084E-001 -1.7568315894E+000 
8268581.977 +7.7951630904E-001 +6.1964753014E+000  +2.6335093587E-003 +7.2387065147E+000  +4.9840461820E-003 +1.6676755907E+002  +8.5842988914E-001 -5.2420797859E+000 
8393727.159 +6.8782767955E-001 +4.3044648480E+000  +5.7488013178E-003 +1.2070354594E+002  +5.0192625646E-003 +5.1645972052E+001  +6.9680775649E-001 -1.4162562607E+000 
8518872.340 +6.6243960692E-001 +7.8915774516E+000  +4.4416584418E-003 +3.8377384098E+001  +7.6059601986E-003 +1.1846987543E+002  +7.5836523827E-001 +2.4815229244E+000 
8644017.522 +6.7824970541E-001 +1.2510597094E+001  +2.8967969036E-003 +2.1661498863E+001  +4.6137893994E-003 +1.3507248416E+002  +7.4619641834E-001 -5.0615078985E-001 
8769162.703 +6.6226458902E-001 +8.7140732578E+000  +2.5334641108E-003 +1.5193698371E+002  +1.0103393146E-003 +1.7423843634E+002  +6.8977396305E-001 +2.9969786479E+000 
8894307.885 +6.4186953148E-001 +7.7174843093E+000  +1.7785454049E-003 +5.2443014563E+001  +6.1902914172E-003 +1.1350708510E+002  +6.6206064322E-001 -3.1405059933E+000 
9019453.066 +6.6018127065E-001 +4.8750010771E+000  +4.6652754587E-003 +1.2175920569E+002  +4.0187989659E-003 +4.2203821375E+001  +6.3203638238E-001 -1.5304966801E+000 
9144598.248 +5.9501308426E-001 +1.0183395896E+001  +3.8951074011E-003 +3.1646719485E+001  +3.3243957837E-003 +1.0276556578E+002  +6.3843231985E-001 -7.4396191839E-001 
9269743.429 +5.5651534891E-001 +4.5662332907E+000  +4.6564958604E-003 +9.3228281860E+001  +1.7098232111E-003 +1.6012438965E+002  +6.2229336983E-001 -3.9040597189E+000 
9394888.611 +5.1039432366E-001 +1.0401385676E+001  +3.3378391436E-003 +2.1386746187E+001  +1.5476262146E-003 +9.7908514764E+001  +5.8066212143E-001 -3.8190297787E+000 
9520033.792 +5.6756973046E-001 -5.1184703715E-001  +4.5414904641E-003 +1.1314599386E+002  +2.6704041161E-003 +7.6187255952E+001  +5.9487610348E-001 -5.6118472441E+000 
9645178.974 +5.4433095458E-001 -2.9806880257E+000  +2.4069935020E-003 +1.0166829952E+002  +6.2099471082E-003 +1.5101768122E+002  +6.3112999345E-001 -3.8128656170E+000 
9770324.155 +5.1758519005E-001 +1.8812819028E+000  +4.1836599359E-003 +8.3034654723E+001  +2.5916781817E-003 +1.3268858716E+002  +5.8789347843E-001 -4.2437131215E+000 
9895469.337 +5.5356400662E-001 -3.3972660008E+000  +5.1915947375E-003 +1.0374553261E+002  +4.8364331631E-003 +8.0884738703E+001  +5.7820258186E-001 -5.1991320811E+000 
10020614.518 +5.4792953825E-001 +2.4475488681E+000  +5.5571884303E-003 +1.0342964241E+002  +3.0806074456E-003 +5.2845149787E+001  +6.0426588606E-001 -4.1060195049E+000 
10145759.700 +5.7895076981E-001 +3.2942443244E+000  +2.6544362921E-003 +1.2714692851E+002  +3.8405454638E-003 +5.0169215335E+001  +6.2181446813E-001 -3.8627025363E+000 
10270904.881 +5.6528989999E-001 +5.3846012707E+000  +1.3098465268E-003 +1.2790947766E+002  +6.5299676795E-003 +6.8370700053E+001  +5.7754932392E-001 -2.6780711441E+000 
10396050.063 +5.5401606561E-001 +3.5563380321E+000  +4.9249236914E-003 +1.3619162930E+002  +5.5396558506E-003 +1.0279648024E+002  +6.2803025498E-001 -4.4948749700E-002 
10521195.244 +5.4231855196E-001 +3.8537742804E+000  +4.5723423754E-003 +4.2120722800E+001  +4.7602746187E-003 +9.2532965260E+001  +5.9492656483E-001 -1.0709299893E+000 
10646340.426 +5.4834031459E-001 +2.1569102159E+000  +5.4767354969E-003 +9.2250926112E+001  +3.1143175761E-003 +8.6874850257E+001  +6.0807117756E-001 -2.2942433379E+000 
10771485.607 +5.7544462280E-001 +6.0109560570E+000  +1.2127475791E-003 -9.1619928811E+000  +5.5901691451E-003 +1.2029924479E+002  +5.8175135472E-001 +2.5613725970E+000 
10896630.788 +5.9245257395E-001 +3.9836197746E+000  +6.0359625062E-003 +1.0432524062E+002  +4.6600340392E-003 +9.8973568075E+001  +5.9578776814E-001 +3.6914011173E+000 
11021775.970 +5.5656723658E-001 +9.6589353423E+000  +3.9427708891E-003 +1.0463359677E+002  +4.8606163653E-003 +8.8500988110E+001  +6.5168625968E-001 +2.1063042614E+000 
11146921.151 +5.9482748031E-001 +6.4763808945E+000  +8.2832026026E-003 +8.5482890752E+001  +5.5915517780E-003 +9.9115432233E+001  +6.3392540744E-001 +1.2856759671E+000 
11272066.333 +6.1084448994E-001 +4.6547487562E+000  +3.5560388872E-003 +7.0573901068E+001  +3.2978638697E-003 +8.5416634302E+001  +6.1709821400E-001 -1.6409936004E+000 
11397211.514 +6.1015107575E-001 +5.6218120616E+000  +5.5983025509E-003 +9.4048525053E+001  +4.3934125535E-003 +9.0274929997E+001  +6.6392317349E-001 +1.8091753814E+000 
11522356.696 +6.2463599981E-001 +5.3849914771E+000  +5.9481505863E-003 +9.3840196917E+001  +4.2323505087E-003 +1.0275089231E+002  +6.5574492461E-001 +7.8867438816E-001 
11647501.877 +6.4608164357E-001 +5.6769825642E+000  +3.8901018616E-003 +7.6872667066E+001  +5.4080203633E-003 +1.0458865140E+002  +6.5714190827E-001 -7.1720262011E-001 
11772647.059 +6.6289583013E-001 +6.2681366992E+000  +3.3076957550E-003 +8.4595785203E+001  +5.5975821185E-003 +9.6241149652E+001  +6.7394397314E-001 +2.4128571125E+000 
11897792.240 +6.8849397872E-001 +5.0995811499E+000  +5.5930565938E-003 +8.7917921920E+001  +4.4483123870E-003 +8.9376775398E+001  +6.9192228148E-001 -7.9859130714E-001 
12022937.422 +6.4209455298E-001 +5.4107844637E+000  +6.5600230255E-003 +1.0312168647E+002  +5.2006700842E-003 +1.1022444493E+002  +6.8923912733E-001 +4.1389680045E-001 
12148082.603 +7.1871391331E-001 +1.9593048018E+000  +4.9616508886E-003 +8.7321351367E+001  +4.9431103637E-003 +9.6077331948E+001  +6.9696593766E-001 +3.8942120702E-001 
12273227.785 +7.1528390992E-001 +4.4329408506E+000  +4.8279825680E-003 +8.5494545228E+001  +5.7831880562E-003 +9.0129626413E+001  +7.1115088109E-001 +7.3961229969E-002 
12398372.966 +7.2291222522E-001 +2.2978576925E+000  +7.7203853998E-003 +7.9300316858E+001  +3.4790097862E-003 +1.1654382839E+002  +7.5513312959E-001 -1.6274868302E+000 
12523518.148 +7.2735727929E-001 +2.4205486087E+000  +5.2936181980E-003 +1.1322284479E+002  +5.3246028194E-003 +1.2687695383E+002  +7.6465357028E-001 -5.7236848197E-001 
12648663.329 +7.4695692879E-001 +1.4763008006E+000  +4.9369387080E-003 +9.7799713135E+001  +6.3480717895E-003 +9.2108216045E+001  +7.7946509546E-001 -1.5222666183E+000 
12773808.511 +7.4553596040E-001 +7.0648123058E-001  +7.0297931635E-003 +9.4419406002E+001  +6.3512025033E-003 +9.5668228849E+001  +8.0056444835E-001 -1.5421244331E+000 
12898953.692 +7.6207861592E-001 +3.4145347524E+000  +6.2159251805E-003 +8.3091489288E+001  +5.5203560346E-003 +1.0006813122E+002  +7.8348872411E-001 -2.9277655472E+000 
13024098.874 +7.9431242218E-001 -2.2535438880E-001  +7.6807661431E-003 +7.1670116602E+001  +5.1829976837E-003 +9.4545270247E+001  +7.8031916872E-001 -1.7696960947E+000 
13149244.055 +7.9367712931E-001 +7.8527908848E-001  +7.1400353363E-003 +9.6398255088E+001  +6.6189926604E-003 +9.5935164552E+001  +8.0793241356E-001 -8.9551809904E-001 
13274389.237 +8.2684354926E-001 -1.3481297576E+000  +5.6102815446E-003 +7.6564238452E+001  +6.7259921111E-003 +9.4169040377E+001  +8.2956546181E-001 -2.1966040473E+000 
13399534.418 +8.3285451644E-001 -9.6337382946E-001  +6.4435177245E-003 +8.6577048991E+001  +5.9789280748E-003 +1.0451339856E+002  +8.8191819871E-001 -3.2088985808E+000 
13524679.599 +8.5558642970E-001 -1.4121049898E+000  +8.2215688138E-003 +9.3595403943E+001  +6.6320024638E-003 +9.7744863719E+001  +8.9320341057E-001 -2.9009460802E+000 
13649824.781 +8.8079696999E-001 -2.2575167296E+000  +6.6968142268E-003 +8.0573368604E+001  +5.6997983434E-003 +1.0342948608E+002  +8.5918696444E-001 -2.7224440053E+000 
13774969.962 +9.0105213775E-001 -2.8823171821E+000  +7.6715931658E-003 +8.2912068151E+001  +6.7074029340E-003 +1.0453388799E+002  +9.0693266860E-001 -3.9996945429E+000 
13900115.144 +9.0262967077E-001 -2.7412616030E+000  +6.1236754631E-003 +9.8565427379E+001  +7.8484366853E-003 +9.1740445448E+001  +9.1825837207E-001 -3.3255748850E+000 
14025260.325 +9.3923990648E-001 -3.3118797518E+000  +5.9526101457E-003 +9.7499466912E+001  +7.1093682178E-003 +9.5705405918E+001  +9.4068124628E-001 -4.3305990276E+000 
14150405.507 +9.5121356254E-001 -4.4480847399E+000  +6.8373504461E-003 +9.5544612240E+001  +8.8313150116E-003 +9.4668936184E+001  +9.7699593295E-001 -4.4240668557E+000 
14275550.688 +9.6967640985E-001 -4.3945964748E+000  +6.5157800018E-003 +1.0049844461E+002  +7.1199134971E-003 +1.0096806683E+002  +9.7435781805E-001 -3.9621913203E+000 
14400695.870 +9.8862957771E-001 -6.2665954588E+000  +7.0489723200E-003 +9.0534546652E+001  +7.1360119961E-003 +8.1121960373E+001  +9.6412334488E-001 -4.2276444746E+000 
