!  2-Port S-parameters saved by WinCal
! VAR MeasName=S-Parameters (CALIBRATED_DATA) read from VNA (P5004A)
! VAR MeasDate=28/08/2024 12:03:42
! VAR NAME=S2_r7c9_formed_9k-100M_1
! VAR FILENAME=S2_r7c9_formed_9k-100M_1.S2P
! VAR DATE=28/08/2024 12:03:42
! VAR PHYS_PORTS=1,2
! VAR ObjTypeName=DATASET
! VAR IndexType=Frequency
!
# Hz S MA R 50
9000.000 +9.3035004620E-002 -1.6250975365E+002  +4.7762777621E-003 -6.5753433296E+001  +3.4760414731E-003 -7.1945565666E+001  +2.4354482831E-001 -1.4750291705E+002 
134145.181 +1.1119079096E-001 +1.6954741608E+002  +1.8972042945E-004 -1.1417457546E+002  +5.2690406692E-004 -1.0101821582E+002  +2.4347338983E-001 -1.7133117452E+002 
259290.363 +1.1219651506E-001 +1.7027563521E+002  +4.3023778248E-004 +1.1581683209E+001  +2.3503407693E-004 +2.0420239426E+000  +2.4869891866E-001 -1.7003471983E+002 
384435.544 +1.1441957849E-001 +1.7062484654E+002  +1.2220531516E-003 -3.4160105866E+001  +5.1282552081E-004 -4.5709176689E+001  +2.4635104889E-001 -1.6838676820E+002 
509580.726 +1.1412988356E-001 +1.7187747959E+002  +1.2385011458E-003 +2.9016975794E+001  +5.2980158437E-004 +6.3019462783E+001  +2.5068233576E-001 -1.6796762968E+002 
634725.907 +1.1700847871E-001 +1.7108156549E+002  +1.8370260939E-003 +1.2975430600E+002  +7.7324705781E-004 +6.2277204272E+001  +2.4553250077E-001 -1.6458040292E+002 
759871.089 +1.1906821341E-001 +1.7027043981E+002  +5.6830615908E-004 -9.2465707224E+001  +4.8191309186E-004 -6.5112941819E+001  +2.4826481548E-001 -1.6520929400E+002 
885016.270 +1.1984218366E-001 +1.6951408856E+002  +2.0838257270E-004 -3.5802505588E+001  +7.6312335624E-004 +1.0744919286E+002  +2.4701414683E-001 -1.6697575347E+002 
1010161.452 +1.1592162961E-001 +1.6995137148E+002  +1.1816930495E-003 +8.0555745553E+001  +2.5205183500E-003 +4.4360373010E+001  +1.6699901772E-001 -1.6875579793E+002 
1135306.633 +1.1833898032E-001 +1.7066953682E+002  +3.9472243536E-004 -6.2348079992E+001  +1.3759619743E-003 -1.6787521034E+002  +1.9722318898E-001 -1.6480248289E+002 
1260451.815 +1.2208984778E-001 +1.7080693913E+002  +1.2637184028E-003 -1.1342669394E+002  +1.1165877786E-003 +1.2941729622E+002  +1.9277898759E-001 -1.6180135643E+002 
1385596.996 +1.2397561865E-001 +1.7268625720E+002  +1.2635409634E-003 -6.1581228302E+001  +1.1586675676E-003 +2.6940834751E+001  +2.6497127782E-001 -1.6101646515E+002 
1510742.178 +1.2973164264E-001 +1.7238228617E+002  +7.4890371831E-004 -1.2761197810E+002  +8.4042646792E-004 -1.4256753151E+002  +2.6538140445E-001 -1.5873200146E+002 
1635887.359 +1.2979837407E-001 +1.7078128699E+002  +5.2737295219E-004 -3.1691134033E+001  +6.0131717363E-004 -1.6213439196E+001  +2.4534127473E-001 -1.6022090362E+002 
1761032.541 +1.2912041191E-001 +1.6971887669E+002  +9.6844663742E-004 -9.4249800609E+001  +1.1413697025E-003 -1.6424304106E+002  +2.3366526591E-001 -1.5337367872E+002 
1886177.722 +1.3028369589E-001 +1.6930864408E+002  +2.6897027823E-003 +1.2438164079E+002  +9.5956112020E-004 -1.3795645760E+002  +2.0320036702E-001 -1.6173960991E+002 
2011322.904 +1.2953409385E-001 +1.6586619998E+002  +1.8224430929E-003 +1.4383137510E+002  +1.2086082876E-003 -8.6110674027E+001  +1.8701098838E-001 -1.7475527000E+002 
2136468.085 +1.2484774075E-001 +1.6619950425E+002  +4.5577076119E-003 +1.0160117113E+002  +2.8465864405E-003 -6.8124957315E+000  +2.1182592296E-001 -1.7140893850E+002 
2261613.267 +1.3589691627E-001 +1.6146986467E+002  +3.4798184848E-003 +1.1467990685E+002  +3.2452832071E-003 -6.5494977347E+001  +1.4484989870E-001 -1.6424979778E+002 
2386758.448 +1.3099735160E-001 +1.6565873246E+002  +1.6359637251E-003 -1.5027816294E+002  +2.2293643293E-003 +5.8639164374E+001  +1.8868031156E-001 +1.7393438689E+002 
2511903.630 +1.3337283167E-001 +1.6501209044E+002  +4.7789715971E-003 +1.2556569173E+002  +6.9473179328E-004 +5.3537372669E+001  +1.7703508582E-001 +1.5630565749E+002 
2637048.811 +1.3002932669E-001 +1.6159329634E+002  +1.0951765407E-002 +8.5029345131E+001  +5.2422837275E-003 -1.1525657922E+002  +1.6347653551E-001 +1.5610914966E+002 
2762193.992 +1.1726073782E-001 +1.7521334069E+002  +1.4499282901E-002 +1.9571803759E+001  +1.4722580041E-002 +1.5950523652E+002  +5.7934277040E-001 -8.3504438883E+001 
2887339.174 +1.2418921828E-001 -1.7772336645E+002  +1.2332995276E-002 -4.5486609770E+001  +1.0420673724E-002 -9.6305814439E+001  +4.0279225980E-001 -7.6165531210E+001 
3012484.355 +1.3174447993E-001 +1.7298866905E+002  +9.8639632092E-003 -1.1570751154E+001  +2.3710825823E-002 -9.8786222359E+001  +3.9177367160E-001 +4.9218383590E+001 
3137629.537 +1.3329204910E-001 -1.7929873182E+002  +1.4432947437E-002 +1.0736291869E+002  +1.9919917919E-002 -1.6081630097E+002  +4.0594459439E-001 +2.1782896620E+001 
3262774.718 +1.2897880706E-001 +1.6674338312E+002  +4.1930635307E-003 -8.3966758730E+001  +1.0803604474E-002 +1.0592565538E+001  +1.0796058832E-001 -1.7432753744E+002 
3387919.900 +1.4036939158E-001 +1.5021716983E+002  +2.7892804904E-002 -3.9665610812E+001  +1.0689648946E-002 -8.6664407177E+001  +8.6090407087E-001 -5.0546163409E+001 
3513065.081 +1.2729767462E-001 +1.5327254501E+002  +1.7816089137E-002 -3.6720943092E+001  +7.1879754076E-003 -5.9904323107E+001  +4.9909649797E-001 -8.5444939239E+001 
3638210.263 +1.3867563544E-001 +1.4671046573E+002  +1.1958201308E-002 +1.7934700469E+002  +5.4895507553E-003 +4.0086699911E+001  +6.7433862868E-001 +1.5146767483E+002 
3763355.444 +1.9927581632E-001 +1.4003701097E+002  +4.1045931271E-003 +8.4309975369E+001  +6.9048114548E-003 +2.2540183829E+000  +4.8133099512E-001 +1.5627390159E+002 
3888500.626 +1.7559147412E-001 +1.4248861222E+002  +4.8462136971E-003 -1.7422919958E+002  +1.1736990251E-002 -6.8890398740E+001  +1.9830758460E-001 +1.1441274602E+002 
4013645.807 +1.4512277628E-001 +1.4313627786E+002  +1.4162189218E-002 +4.6840454851E+001  +9.7474892453E-003 +2.0859635354E+001  +3.8613519772E-001 +1.2504041093E+002 
4138790.989 +1.8985713579E-001 +1.4237069848E+002  +8.8049412906E-003 +1.0485636617E+002  +6.1646257306E-003 +2.0991736396E+001  +2.7558517264E-001 +1.3777953926E+002 
4263936.170 +2.1581387408E-001 +1.3676775610E+002  +9.6671321915E-003 +4.6054404958E+001  +8.9815736772E-003 -9.1462905816E+001  +3.8337825500E-001 +1.1733977148E+002 
4389081.352 +1.6502588165E-001 +1.3116621475E+002  +7.5710111929E-003 +1.2292252292E+002  +1.5974349829E-002 -9.0855634946E+000  +6.5432243598E-001 +1.3834386468E+002 
4514226.533 +2.3192470165E-001 +1.2092524920E+002  +2.6914831477E-002 -1.7893202646E+002  +2.4011238173E-002 +4.1815414229E+001  +1.0114503639E+000 +1.2635259674E+002 
4639371.715 +2.8155761698E-001 +1.4191931482E+002  +1.6229413690E-002 +1.0826930997E+002  +1.0748198182E-002 +1.0981253353E+001  +1.2494335553E+000 +1.3849095764E+002 
4764516.896 +2.9045637702E-001 +1.2484903573E+002  +1.5015858124E-002 +1.7205579453E+002  +4.2439130442E-002 +9.2573801548E+001  +2.1370417769E+000 +1.3092480295E+002 
4889662.078 +4.2824430567E-001 +1.3595569792E+002  +1.7834464863E-002 -4.2870179865E+001  +3.9889605395E-002 -6.5057348458E+001  +2.2302609957E+000 -1.1804641636E+002 
5014807.259 +4.4932643716E-001 +1.1861502224E+002  +5.6556964334E-002 -1.6675885784E+002  +1.2281550371E-001 +9.9525395462E+001  +4.6783757497E+000 +1.3218688596E+002 
5139952.441 +4.0436306828E-001 +1.2915881104E+002  +3.2798375375E-002 +1.6380833746E+002  +4.5979930053E-002 +9.0471257331E+001  +1.6935680874E+000 +1.0145694460E+002 
5265097.622 +3.4794373968E-001 +1.3275056650E+002  +3.1439323779E-002 +6.6978367805E+001  +2.1711871672E-002 +7.8954801479E+001  +1.9937356585E+000 +6.4828320338E+001 
5390242.804 +3.5317162654E-001 +1.3526525602E+002  +3.7425440320E-002 +8.9954712621E+001  +2.5785259094E-002 +1.0733666729E+002  +1.8986566728E+000 +6.1811250854E+001 
5515387.985 +4.6179537939E-001 +1.3288173223E+002  +6.8882527325E-002 +1.4963129977E+002  +3.3146960030E-002 +1.6869763201E+002  +4.4507211204E+000 +1.0650187478E+002 
5640533.166 +5.3389082972E-001 +1.3050283319E+002  +3.4026393691E-002 +1.7627317205E+002  +1.9886279167E-002 +1.1087586884E+002  +2.3611943873E+000 +1.3676877961E+002 
5765678.348 +5.7350732578E-001 +1.2275335173E+002  +4.6476315951E-002 +1.3849297271E+002  +2.9698261264E-002 +1.0450821247E+002  +2.4010226814E+000 +9.8221884424E+001 
5890823.529 +4.9062611838E-001 +1.0952475663E+002  +1.6918223470E-002 +1.1968553030E+001  +7.0857126604E-002 +5.4433520081E+001  +2.4283139583E+000 +3.1210351393E+001 
6015968.711 +6.0411498772E-001 +1.1383590074E+002  +3.4220842142E-002 +6.2334964749E+001  +1.6205533486E-002 -3.6158860300E+001  +2.2056328602E+000 +3.3721112271E+001 
6141113.892 +8.4666383684E-001 +1.1153542296E+002  +3.4797068521E-002 +5.8778104448E+001  +5.7445691312E-002 +4.9590998717E+001  +2.1905257480E+000 +5.5119332385E+001 
6266259.074 +7.3666350645E-001 +1.0948151531E+002  +2.2178450147E-002 +4.3290959187E+001  +2.9840469274E-003 +1.6020487545E+001  +1.8320088129E+000 +2.7902091786E+001 
6391404.255 +9.3871836640E-001 +8.6996579928E+001  +7.0069441556E-002 +3.7352599411E+001  +9.8839887281E-003 +9.4616920521E+000  +2.0270330882E+000 +1.4582707975E+001 
6516549.437 +1.2544981931E+000 +1.0980141005E+002  +3.4844480139E-002 +7.9242717783E+001  +3.3402940290E-002 +5.6253236233E+001  +1.3770172381E+000 +1.4128206331E+001 
6641694.618 +1.6160355124E+000 +7.9133184813E+001  +5.4954391306E-002 +3.1707222764E+001  +4.3492683819E-002 +1.2888539988E+001  +1.4800192514E+000 +7.0250829910E-002 
6766839.800 +2.0121616834E+000 +6.5438365252E+001  +3.4667186835E-002 +4.1742828063E+001  +2.3365180589E-002 +2.1349470903E+001  +1.3143014242E+000 -1.0024555422E+000 
6891984.981 +1.7856664809E+000 +3.6519992889E+001  +5.3904875760E-002 +2.3760170767E+001  +3.4103161007E-002 +2.7208139450E+001  +1.5073862567E+000 -1.6021496109E+001 
7017130.163 +1.7420200189E+000 +1.5513908618E+001  +2.8343294040E-002 +1.3696245835E+001  +4.5649049953E-002 +2.3449759997E+000  +1.5148371254E+000 -5.7873183147E+000 
7142275.344 +1.5077783944E+000 +1.1533926665E+001  +3.4289773883E-002 +4.0963933220E+001  +2.5996748873E-002 +4.0064979903E+001  +1.1494531443E+000 -8.4815829557E+000 
7267420.526 +1.4734328772E+000 +1.1522767528E+001  +2.2287242182E-002 +1.4203421118E+001  +3.5615171488E-002 +1.4243589619E+001  +1.2117819258E+000 -2.8074609280E+000 
7392565.707 +1.4085558950E+000 +1.5868230464E+000  +1.3652273013E-002 +4.2441028917E+001  +2.9939859000E-002 +9.7814973615E+000  +1.3640312474E+000 -1.0454280077E+001 
7517710.889 +1.1521207232E+000 +9.1891706904E+000  +1.5470795291E-002 +1.7375898164E+001  +1.9936136492E-002 +1.1503765157E+001  +1.1378176799E+000 -9.8927483657E+000 
7642856.070 +1.1778623276E+000 +4.2080446535E+000  +1.5924661445E-002 +2.2958410419E+001  +1.8479035988E-002 +1.3038479574E+001  +9.7775983756E-001 -1.0804966287E+001 
7768001.252 +1.0569652283E+000 +1.2650145848E+000  +2.2066267551E-002 +3.1581676520E+000  +2.4065998978E-002 +2.4637598200E+001  +9.8991015676E-001 -8.7461035749E+000 
7893146.433 +8.7258816003E-001 +2.4013663280E+000  +6.2538333131E-003 +2.5419112749E+001  +1.9409731719E-002 +2.1848015989E+001  +8.4559240667E-001 +1.6864552779E-001 
8018291.615 +8.5103878460E-001 +8.9309210806E-001  +1.6005452514E-002 +2.7629143796E+001  +1.1041633177E-002 +4.9954796661E+001  +8.5320979635E-001 +3.2908091299E+000 
8143436.796 +8.5445268938E-001 +5.2830736481E+000  +1.0022712309E-002 +2.4243306284E+001  +1.1639182906E-002 +2.9760347388E+001  +7.6326612086E-001 +1.3210430859E+000 
8268581.977 +7.9216507237E-001 +3.0477753336E+000  +1.5281410102E-002 +1.2551476794E+001  +1.2904896768E-002 +6.0171393158E+000  +7.4574355327E-001 -6.6853172391E-001 
8393727.159 +6.1649740315E-001 +9.8459897141E+000  +1.7843444994E-002 +3.5621572442E+001  +1.8536713608E-002 +2.1451318188E+001  +7.1167901320E-001 +2.8065558412E+000 
8518872.340 +7.0691250707E-001 +8.5541074153E+000  +1.1108421214E-002 +3.3027607568E+001  +1.6589373172E-002 +1.5297995878E+001  +6.9566992868E-001 -1.4710580045E+000 
8644017.522 +6.6072934815E-001 +6.2620626605E+000  +1.3937642788E-002 +2.0378791220E+001  +1.0816588215E-002 +2.0475345949E+001  +6.6716121778E-001 -1.7950610109E+000 
8769162.703 +6.4533024526E-001 +9.6998301723E+000  +1.2637942111E-002 +3.0838394196E+001  +1.3810098948E-002 +2.7022793417E+001  +6.7429534842E-001 -7.7418495488E-001 
8894307.885 +6.2374957376E-001 +8.1224323635E+000  +1.7079777434E-002 +1.7261752999E+001  +1.8024963001E-002 +2.2418363792E+001  +6.4156631531E-001 +1.9220189249E+000 
9019453.066 +5.8802271677E-001 +4.9015687010E+000  +1.5717032922E-002 +1.9760013934E+001  +1.1196401833E-002 +3.2985701003E+001  +6.2732029111E-001 -1.4577016543E+000 
9144598.248 +5.3219779746E-001 +3.6450387261E+000  +1.2483551744E-002 +1.4606808329E+000  +1.1978194866E-002 +2.0335782396E+001  +5.6077152772E-001 +4.4197844349E+000 
9269743.429 +5.4800741560E-001 +3.5280663558E+000  +1.5199233407E-002 +1.5289310089E+001  +9.8633515868E-003 +2.2933871122E+001  +5.4956708460E-001 -1.2921673417E+000 
9394888.611 +5.4949931603E-001 +2.9268253853E+000  +1.2254988537E-002 +4.0072235281E+000  +1.1735355903E-002 +3.8212809032E+001  +6.1969962426E-001 -3.9925103528E+000 
9520033.792 +5.3537641481E-001 +5.5305848769E+000  +1.4758384322E-002 -4.1578677292E+000  +1.6429156648E-002 +1.7685714815E+001  +5.1234206879E-001 -4.6711651909E+000 
9645178.974 +5.0890220433E-001 +6.8781721433E-001  +9.6422189975E-003 +1.7297113178E+001  +1.0277374200E-002 +3.6552502667E+001  +6.0198659111E-001 -4.3206724386E+000 
9770324.155 +5.5469754766E-001 -2.2971427189E+000  +1.4072382194E-002 +1.6858641301E+001  +1.3983945953E-002 +3.1257619167E+001  +5.5962778628E-001 -4.2353378480E+000 
9895469.337 +5.0297715498E-001 -5.1501406089E+000  +1.4002061841E-002 +2.1314487698E+001  +1.4471312558E-002 +4.4587776534E+001  +5.6704968492E-001 -4.6440104553E+000 
10020614.518 +5.4093909663E-001 +2.6010467172E+000  +1.4682506145E-002 +2.3900408954E+001  +1.5415549014E-002 +3.6656025883E+001  +5.7217648102E-001 -6.1130364528E+000 
10145759.700 +5.3712580017E-001 +9.2114264658E-001  +1.4772132873E-002 +9.5637516989E+000  +1.3498805877E-002 +2.6598511044E+001  +5.5949150527E-001 +1.0660846716E+000 
10270904.881 +5.1558548117E-001 +3.6345414351E+000  +1.3867162661E-002 +1.3202037699E+001  +1.4382613757E-002 +1.7721745594E+001  +5.7149108516E-001 -1.5771832873E+000 
10396050.063 +5.4698598549E-001 +6.5914414900E+000  +1.2062145767E-002 +2.8965901975E+001  +1.2524831549E-002 +3.9508608855E+001  +5.8664926761E-001 -1.6434225752E+000 
10521195.244 +5.5105732545E-001 +5.0479785907E+000  +1.4549796860E-002 +9.4774225232E+000  +1.1943764835E-002 +1.5583468539E+001  +5.4778333588E-001 +4.1200437625E+000 
10646340.426 +5.2193141928E-001 +6.1549886457E+000  +1.4521616177E-002 +6.1378248770E+000  +1.4140592346E-002 +2.9999659215E+001  +5.6750355676E-001 +4.7186084894E+000 
10771485.607 +6.0554667204E-001 +7.3257341442E+000  +1.2375544444E-002 +2.4668267221E+001  +1.3472278711E-002 +3.8838759989E+001  +5.9627277448E-001 +1.7207362095E+000 
10896630.788 +5.6010927655E-001 +6.1897442539E+000  +1.6260486940E-002 +2.5704931465E+001  +1.4566598260E-002 +3.0071359802E+001  +5.8499328771E-001 +2.8421034924E-001 
11021775.970 +5.6779273843E-001 +7.4688926818E+000  +1.4441425845E-002 +1.2209116538E+001  +1.3658664697E-002 +3.8146418839E+001  +6.2391644608E-001 +1.9244533438E+000 
11146921.151 +6.0397584489E-001 +8.7262541441E+000  +1.4299584863E-002 +2.2222602363E+001  +1.4241561872E-002 +3.7955385392E+001  +6.2361428594E-001 +2.6453759675E+000 
11272066.333 +5.7951498695E-001 +6.5748210178E+000  +1.2482356577E-002 +1.6653947156E+001  +1.3694706215E-002 +2.5682474369E+001  +6.3486864425E-001 +2.1382418451E+000 
11397211.514 +5.7943667066E-001 +7.1038798405E+000  +1.5804136543E-002 +1.8431942161E+001  +1.2603920276E-002 +3.4427933908E+001  +6.4163266377E-001 -7.9483019690E-001 
11522356.696 +5.9014350977E-001 +5.1228545718E+000  +1.5000458948E-002 +1.6850725290E+001  +1.3574060255E-002 +3.4380680429E+001  +6.2230601771E-001 +2.4994180736E+000 
11647501.877 +6.3431948690E-001 +4.7380041739E+000  +1.4675366339E-002 +2.8519194548E+001  +1.4150509647E-002 +2.6704427161E+001  +6.6314680503E-001 +4.9498997717E-001 
11772647.059 +6.4968599329E-001 +8.2266013037E+000  +1.3430539141E-002 +2.9886963709E+001  +1.5794295464E-002 +3.3947519552E+001  +6.4599837924E-001 +2.2334619724E-001 
11897792.240 +6.4694754041E-001 +4.6338814174E+000  +1.3382710453E-002 +3.3076385039E+001  +1.3791165016E-002 +3.0737326916E+001  +6.6272703712E-001 +1.4241732014E+000 
12022937.422 +6.6553489172E-001 +2.6610680370E+000  +1.2920632949E-002 +2.0752182644E+001  +1.6275141180E-002 +2.8345483813E+001  +6.7641531254E-001 +3.2431982353E-001 
12148082.603 +6.8504070377E-001 +6.4426175398E+000  +1.5660503696E-002 +2.6949036960E+001  +1.6799540328E-002 +2.6875333303E+001  +6.8161935881E-001 +1.1047637526E-002 
12273227.785 +6.9576654521E-001 +8.3534947343E-001  +1.3556651290E-002 +1.7635227558E+001  +1.6371452837E-002 +3.1496664216E+001  +7.0201935201E-001 -4.4567178141E-001 
12398372.966 +7.0441342690E-001 +3.2531475430E+000  +1.5558684735E-002 +2.6121041648E+001  +1.5277827618E-002 +3.1585129239E+001  +7.1447246376E-001 -4.2440966803E-001 
12523518.148 +7.2170929419E-001 +2.2634204986E+000  +1.5006288538E-002 +2.4209120864E+001  +1.4615951826E-002 +2.9153737746E+001  +7.1788623795E-001 -1.8157131507E-001 
12648663.329 +7.1505547234E-001 +3.0845125362E+000  +1.5094708367E-002 +2.4917490421E+001  +1.5317082915E-002 +3.1312847314E+001  +7.3161816032E-001 +7.6947394758E-001 
12773808.511 +7.5952212709E-001 +7.0997743678E-002  +1.7140949591E-002 +2.6445334074E+001  +1.7699230438E-002 +3.5777700199E+001  +7.4298723279E-001 -1.9238465911E+000 
12898953.692 +7.9910472542E-001 +1.5146909746E+000  +1.6038120255E-002 +2.1686414219E+001  +1.5163688256E-002 +2.5714761431E+001  +7.4464883427E-001 -1.0501360965E+000 
13024098.874 +7.8971443008E-001 +7.5673574647E-001  +1.6406241817E-002 +2.4524949763E+001  +1.5062961130E-002 +2.4312090011E+001  +7.9483443882E-001 -6.9959914536E-001 
13149244.055 +8.2820122062E-001 +6.5457684974E-001  +1.6185023140E-002 +2.9762572172E+001  +1.5873223726E-002 +3.2319160690E+001  +8.2237010813E-001 -6.8774248032E-001 
13274389.237 +8.0128229891E-001 -2.3946159662E+000  +1.6585518763E-002 +2.7100563195E+001  +1.5410684523E-002 +3.2074703761E+001  +8.1347508657E-001 -2.8393068638E+000 
13399534.418 +8.2559554240E-001 -2.1975477415E+000  +1.6782880639E-002 +1.9260105442E+001  +1.6591127988E-002 +2.8339493866E+001  +8.2359791916E-001 -4.3041049706E+000 
13524679.599 +8.4296048379E-001 -3.4279506655E-001  +1.7362132034E-002 +2.9294651800E+001  +1.6757273145E-002 +2.7237222425E+001  +8.5415006046E-001 -2.4208184672E+000 
13649824.781 +8.6187212816E-001 -2.3047305733E+000  +1.7471077365E-002 +2.5542450592E+001  +1.5715456145E-002 +3.4727040572E+001  +8.7084261595E-001 -1.8210218804E+000 
13774969.962 +8.6267339953E-001 -2.1619228919E+000  +1.8070409991E-002 +3.0932224473E+001  +1.8439258040E-002 +3.0146413898E+001  +8.8098984004E-001 -2.8678117115E+000 
13900115.144 +8.8959004181E-001 -3.2423538717E+000  +1.8309468527E-002 +2.8318237947E+001  +1.6813093998E-002 +3.0938777125E+001  +9.2257558711E-001 -3.7176438154E+000 
14025260.325 +9.1033338521E-001 -5.4895637586E+000  +1.7618570278E-002 +2.6235584400E+001  +1.7955116281E-002 +2.7013552167E+001  +9.3734853388E-001 -5.0802571369E+000 
14150405.507 +9.2617068218E-001 -4.1395733344E+000  +1.7631726974E-002 +2.6902005861E+001  +1.9377016002E-002 +2.5917233991E+001  +9.2737470200E-001 -4.6670123849E+000 
14275550.688 +9.4729923142E-001 -5.1918548402E+000  +1.8698948943E-002 +2.8129038528E+001  +1.7854038900E-002 +2.4543273547E+001  +9.7091868216E-001 -4.3435118661E+000 
14400695.870 +9.6182491704E-001 -6.2564555467E+000  +1.8383117071E-002 +2.3197602397E+001  +1.7321229372E-002 +2.3161578992E+001  +9.7889151951E-001 -5.1129968668E+000 
