!  2-Port S-parameters saved by WinCal
! VAR MeasName=S-Parameters (CALIBRATED_DATA) read from VNA (P5004A)
! VAR MeasDate=27/08/2024 16:18:14
! VAR NAME=S2_r1c9_SET2_9k-100M_1
! VAR FILENAME=S2_r1c9_SET2_9k-100M_1.S2P
! VAR DATE=27/08/2024 16:18:14
! VAR PHYS_PORTS=1,2
! VAR ObjTypeName=DATASET
! VAR IndexType=Frequency
!
# Hz S MA R 50
9000.000 +5.6242689014E-002 -1.7574322252E+002  +6.8714864523E-003 +4.6438822841E+001  +6.6544846070E-003 -1.4644987842E+002  +2.7581952240E-001 -1.2618630168E+002 
134145.181 +1.1105283049E-001 +1.6981690098E+002  +6.5778878641E-004 +1.3947028912E+002  +4.9868096096E-004 -7.8264343558E+001  +2.3964814312E-001 -1.7094839994E+002 
259290.363 +1.1257056663E-001 +1.7040326824E+002  +1.4250818493E-004 -6.8590117784E+001  +3.5696340099E-004 +7.1577154708E-001  +2.3629840612E-001 -1.7044201998E+002 
384435.544 +1.1376726537E-001 +1.7006841546E+002  +4.4565012285E-004 +1.6937960712E+002  +1.9400064446E-004 -1.2456024193E+002  +2.4244913093E-001 -1.6809946202E+002 
509580.726 +1.1329388964E-001 +1.7030620278E+002  +1.0413651616E-003 -1.3930944797E+002  +1.8629941692E-003 -4.3954751616E+001  +2.4875001648E-001 -1.6603753609E+002 
634725.907 +1.1459623086E-001 +1.7015959671E+002  +4.6197220050E-004 +1.6447618810E+002  +1.0381968471E-003 +5.1333850447E+001  +2.3910630018E-001 -1.6580582916E+002 
759871.089 +1.1886253968E-001 +1.7171167352E+002  +8.1554941983E-004 -1.3394798433E+002  +1.0372505937E-003 +3.8602414840E+001  +2.3915227391E-001 -1.6560294141E+002 
885016.270 +1.1770692324E-001 +1.6905062571E+002  +1.0774334332E-004 -1.5787808543E+001  +2.7457695048E-004 +1.6102021135E+002  +2.4524332870E-001 -1.6823126872E+002 
1010161.452 +1.1514309131E-001 +1.7057506272E+002  +2.4718032632E-003 +1.1853179566E+002  +2.4069795176E-003 -9.8857290560E+001  +1.7590874668E-001 -1.6665493069E+002 
1135306.633 +1.1780929407E-001 +1.6906605364E+002  +1.2284552736E-003 -1.3091136153E+002  +1.2055705561E-003 -1.0840697219E+002  +1.9718563574E-001 -1.6439671911E+002 
1260451.815 +1.2063144202E-001 +1.7184809296E+002  +1.2075562540E-003 +9.9928354693E+001  +1.0090526442E-003 -1.3400777261E+002  +2.2665575641E-001 -1.5734789244E+002 
1385596.996 +1.2604641970E-001 +1.7174458004E+002  +1.0416727712E-003 -6.0311507259E+001  +9.1571016143E-004 +4.3472133914E+001  +2.6453573401E-001 -1.6069179753E+002 
1510742.178 +1.2724915284E-001 +1.7127023787E+002  +9.8970174076E-004 -1.2057206337E+002  +5.0098270978E-004 +1.2646330059E+002  +2.4380928671E-001 -1.5926261706E+002 
1635887.359 +1.3023214215E-001 +1.7142546919E+002  +7.6817234953E-004 -1.2053386248E+002  +1.0476637655E-003 -1.3061476333E+002  +2.4540859478E-001 -1.5710390552E+002 
1761032.541 +1.2870933611E-001 +1.7015425514E+002  +6.6670980804E-004 +8.3333095430E+001  +2.7518993289E-004 +1.7714854948E+002  +2.4345385746E-001 -1.5709200811E+002 
1886177.722 +1.3175196087E-001 +1.6900047401E+002  +6.4596632431E-004 -1.7184506375E+002  +1.0953879532E-003 -6.9975231929E+001  +2.1234685328E-001 -1.6848413955E+002 
2011322.904 +1.2867108341E-001 +1.6508704666E+002  +1.8282669244E-003 -1.8227099948E+001  +7.8804849134E-004 -8.3997195359E+001  +2.0062938595E-001 -1.6649228212E+002 
2136468.085 +1.2644570238E-001 +1.6374960447E+002  +1.3864770027E-003 -2.4889743210E+001  +3.8953623711E-003 +1.7446600693E+002  +1.9021865126E-001 +1.7947514167E+002 
2261613.267 +1.3171715532E-001 +1.6632884109E+002  +1.3514197723E-003 -9.8253454822E+001  +1.9523260358E-003 +1.6743823170E+002  +1.8528763706E-001 -1.7224380544E+002 
2386758.448 +1.2932776523E-001 +1.6305469039E+002  +3.6474156818E-003 +3.2543273501E+001  +1.8726516088E-003 -4.8857188397E+001  +2.2161768469E-001 +1.7830597410E+002 
2511903.630 +1.2062341107E-001 +1.5580430478E+002  +1.0618146021E-003 +5.4458191216E+001  +4.6880965578E-003 -2.3739465317E+001  +2.1952525786E-001 +1.7608771053E+002 
2637048.811 +1.2412735500E-001 +1.6298409449E+002  +3.7479035936E-003 -1.2883267710E+001  +1.0251411457E-003 -5.7847070497E+001  +2.7877628141E-001 +1.4473868382E+002 
2762193.992 +9.9796599303E-002 +1.4845248749E+002  +3.0985925270E-003 -8.7911121136E+001  +5.1500350144E-002 +6.9426558445E+001  +1.1916272472E+000 +6.5889163984E+001 
2887339.174 +1.2156548262E-001 +1.7573324786E+002  +8.9200038320E-004 -6.1730747916E+001  +3.4862219707E-003 -1.4073440996E+002  +2.8759258469E-001 -1.2067617936E+002 
3012484.355 +1.0257253691E-001 -1.7896345026E+002  +1.0012427429E-002 -1.4692768100E+002  +3.7548875923E-003 -1.6522924530E+000  +2.5190172677E-001 -1.2128083207E+002 
3137629.537 +1.2634201905E-001 +1.7342325012E+002  +1.0284095255E-002 -1.2164858024E+002  +8.8556791692E-003 -1.7439143462E+002  +4.1338606028E-001 -5.3845438849E+001 
3262774.718 +1.0350945992E-001 +1.6671738507E+002  +1.6280058942E-002 +1.3623542134E+002  +2.5264400108E-002 -5.6438149167E+001  +4.6148789679E-001 +1.0092403308E+002 
3387919.900 +1.1115190722E-001 +1.5779499364E+002  +1.8199305585E-002 -7.7038455600E+001  +3.8005693181E-002 -1.5670398440E+002  +5.2560387155E-001 -4.7152775725E+001 
3513065.081 +1.3665431780E-001 +1.5440185803E+002  +7.2265914460E-003 -4.8817304838E+001  +1.1449516590E-002 +1.3347657808E+001  +4.3923146932E-001 +1.2106451346E+002 
3638210.263 +1.7359427373E-001 +1.4627039636E+002  +1.0254359714E-002 +1.6742711395E+002  +7.9291352658E-003 -1.4483343385E+001  +2.6246391253E-001 +1.1441442826E+002 
3763355.444 +1.2503702110E-001 +1.4287859421E+002  +1.2051223917E-002 -1.2049633468E+002  +1.2169072184E-002 +5.7604111086E+001  +5.5773169473E-001 +1.0917180036E+002 
3888500.626 +1.5375839955E-001 +1.4176638306E+002  +6.9466224161E-003 -1.2535788208E+001  +4.0662699123E-002 -3.0052102765E+001  +5.3563068619E-001 +9.5395716094E+001 
4013645.807 +1.8640602171E-001 +1.4905268427E+002  +5.0932604729E-003 +1.5730999355E+002  +2.3404418731E-003 -9.4228396626E+001  +3.9553253072E-001 +1.3515838336E+002 
4138790.989 +1.5225378441E-001 +1.5338665146E+002  +1.6196845198E-002 +5.9471580637E+001  +1.3194802264E-002 +7.8015115256E+001  +5.4007796840E-001 +1.2137451352E+002 
4263936.170 +1.9666582334E-001 +1.4746495752E+002  +3.4313615786E-003 +9.5630877378E+001  +3.5005352358E-003 -4.6706903597E+001  +2.9645769163E-001 +7.3768914483E+001 
4389081.352 +2.3346342908E-001 +1.2550690658E+002  +1.8126876289E-002 -1.3918517689E+002  +1.7782299550E-002 +2.4405101804E+001  +6.4789624651E-001 +1.1814035748E+002 
4514226.533 +2.0054183261E-001 +1.3392106663E+002  +1.1067182780E-002 +4.2802021819E+001  +9.7516014820E-003 +4.5766278640E+001  +7.5217684281E-001 +1.2408246471E+002 
4639371.715 +3.1396233764E-001 +1.2870039175E+002  +4.2476570143E-002 -6.2847001397E+001  +1.2713327552E-001 -1.1021101151E+002  +7.9018720000E+000 -1.6058029363E+002 
4764516.896 +3.3181316025E-001 +1.0040573208E+002  +1.1354695581E-001 +6.5089645196E+001  +1.8878000697E-002 +1.5027055976E+002  +2.1519257737E+000 +1.0088882459E+002 
4889662.078 +3.8548269440E-001 +1.2139799566E+002  +4.6696787736E-002 -1.0727627009E+001  +3.3705628641E-002 -1.9368663027E+001  +4.7927761081E+000 -9.3863139697E+001 
5014807.259 +3.2863162908E-001 +1.2271843746E+002  +7.1553646819E-002 -2.8431351955E+001  +4.5097665146E-002 -1.4171135673E+001  +5.8933548658E+000 -9.0039543872E+001 
5139952.441 +3.8665895530E-001 +1.3165019052E+002  +7.5700291346E-002 +1.5037904928E+002  +1.1040843372E-002 +1.4135268284E+002  +3.1422048820E+000 +9.1699962226E+001 
5265097.622 +4.2360218181E-001 +1.2831859045E+002  +8.4038060888E-002 +8.9341648261E+001  +6.8103527040E-002 +8.7625776483E+001  +5.5359136656E+000 +5.1871302947E+001 
5390242.804 +4.4882188085E-001 +1.3020626607E+002  +3.8069532270E-002 +1.3925394799E+002  +8.4825178261E-003 -4.3994751700E+001  +2.0033765267E+000 +7.2673225173E+001 
5515387.985 +4.7195305866E-001 +1.3085031829E+002  +1.1962046784E-002 +1.5216740509E+002  +7.5841023848E-003 +7.3948119787E+001  +1.4910213279E+000 +1.2352887042E+002 
5640533.166 +5.3814558537E-001 +1.2548606890E+002  +3.9270755660E-002 +1.0041595091E+002  +5.5937153921E-002 +7.6541194483E+001  +2.7838095364E+000 +9.3434203166E+001 
5765678.348 +5.7681511908E-001 +1.1677120210E+002  +1.6532922042E-002 -4.3790203920E+001  +1.5390272753E-002 +1.3760908409E+001  +1.4332973587E+000 +2.7731782430E+001 
5890823.529 +6.7203039857E-001 +1.1902594835E+002  +2.7038584886E-002 +1.0054525978E+002  +1.3860899203E-002 +3.3382396627E+001  +1.8101183205E+000 +5.1634415802E+001 
6015968.711 +6.3995734986E-001 +1.1804389915E+002  +4.7870369643E-002 +9.3844156877E+001  +2.6238318342E-002 +9.0954068250E+001  +2.8031463100E+000 +3.9630296738E+001 
6141113.892 +7.3444397966E-001 +1.0668363633E+002  +3.2578360390E-002 +8.5409263769E+001  +1.9068661785E-002 +9.1594984422E+000  +2.3085592927E+000 +6.5763675439E+001 
6266259.074 +9.4080133869E-001 +1.1075018087E+002  +6.5567162284E-003 +1.4288174029E+002  +1.3916658556E-002 +7.7482297174E+001  +1.9863760762E+000 +2.4258457053E+001 
6391404.255 +8.1698474151E-001 +8.6404771249E+001  +2.2496558212E-002 +2.5470710143E+001  +2.8883828860E-002 +4.3384982527E+000  +1.6301406982E+000 +1.8073212380E+001 
6516549.437 +1.2574298973E+000 +8.9205735441E+001  +2.6895814867E-002 +1.1019175452E+001  +3.5176190143E-002 +8.6798967502E+001  +1.4968686801E+000 +1.0267199720E+001 
6641694.618 +2.0088204178E+000 +6.4038477533E+001  +6.2472307921E-002 +4.5195316793E+001  +4.9891418319E-002 +3.4197324511E+001  +1.1985615648E+000 +4.3754735000E+000 
6766839.800 +1.7931880482E+000 +6.3336419520E+001  +1.8877717195E-002 +5.5799742166E+001  +2.7619703238E-002 +7.5832968647E+001  +1.4530108090E+000 +8.6590412244E+000 
6891984.981 +1.5537103036E+000 +2.9603534814E+001  +4.7956926550E-002 +1.8951554262E+001  +4.5420949230E-002 +6.4285325374E+001  +1.3353518990E+000 -9.4017041231E+000 
7017130.163 +1.6573418304E+000 +2.3546264042E+001  +3.2910173752E-002 +3.8413590563E+001  +2.3924936589E-002 +1.1675022545E+000  +1.3517019246E+000 -4.5815407347E+000 
7142275.344 +1.6643851358E+000 +7.5917400921E+000  +3.0929632044E-002 +1.7771057073E+001  +2.8566751865E-002 +2.2236620329E+001  +1.3476878539E+000 -7.5441095783E+000 
7267420.526 +1.5981179558E+000 +1.1083190746E+000  +2.6044950288E-002 +9.3822899536E+000  +1.6426667731E-002 +2.6594954406E+001  +1.3768274410E+000 -1.1139283781E+001 
7392565.707 +1.1995053524E+000 +1.6024661966E+000  +1.9802767708E-002 +3.5302977196E+001  +1.8378648262E-002 +5.9868927042E+001  +1.2151573830E+000 -6.3587895758E+000 
7517710.889 +1.1329166314E+000 -6.1164852961E-001  +2.2435286589E-002 -8.4459062625E+000  +1.6595272199E-002 +1.4601483821E+001  +1.1549943355E+000 -1.2291808417E+001 
7642856.070 +9.8039554544E-001 -1.7759502488E+000  +1.5296639497E-002 +1.0710066158E+001  +1.0731861731E-002 +3.9863266395E+001  +9.9305602676E-001 -4.6706519780E+000 
7768001.252 +9.6941727136E-001 +8.3108512517E-001  +1.5093911942E-002 -1.4574568099E+001  +7.7614637053E-003 +5.2523801251E+001  +9.1091736077E-001 -5.6538863166E+000 
7893146.433 +9.0255693584E-001 +1.8051493987E+000  +1.3569447008E-002 +1.9373750348E+001  +1.8132694137E-002 +2.8339764402E+001  +9.4100890448E-001 +1.9748136780E+000 
8018291.615 +8.0289388848E-001 -3.3018411759E+000  +1.5658374055E-002 -8.1278958014E+000  +1.8230290202E-002 +4.5936305787E+001  +9.2456539928E-001 -5.2577040021E+000 
8143436.796 +7.2687159273E-001 +2.1834230722E+000  +9.8339551658E-003 +2.1181780135E+001  +1.2662062905E-002 +3.1855135632E+001  +8.5170741979E-001 -1.0914049120E+000 
8268581.977 +7.6900711512E-001 +7.4516957964E+000  +1.1981537090E-002 +5.3628941012E+001  +1.0318436797E-002 +4.1253283922E+001  +7.3618513842E-001 -2.0597345729E+000 
8393727.159 +6.9026884494E-001 +4.6712189322E+000  +1.6458161934E-002 +1.8038534414E+001  +1.3130972058E-002 +3.0446067566E+001  +7.6858434628E-001 -2.4868950937E+000 
8518872.340 +7.0886217601E-001 +7.1379267141E+000  +7.0696248924E-003 +2.4095384978E+001  +8.5572374987E-003 +5.4857641944E+001  +7.0614325858E-001 +1.6711591913E+000 
8644017.522 +6.3603829386E-001 +8.3701912228E+000  +1.1020850516E-002 +2.6600434719E+001  +1.3524880712E-002 +2.8183744176E+001  +6.8348197523E-001 +1.1107528274E+000 
8769162.703 +5.9072036699E-001 +5.2036305296E+000  +1.3166393653E-002 +1.8034152749E+001  +1.3464963576E-002 +2.3683048225E+001  +6.2384118484E-001 +1.0716635255E-001 
8894307.885 +5.9903935082E-001 +6.1879807337E+000  +1.0193608365E-002 -4.4764480152E+000  +1.1690968834E-002 +2.0060228863E+001  +6.4613117364E-001 -2.6536361730E-001 
9019453.066 +5.5141014431E-001 +5.0672533404E+000  +1.0660269813E-002 +6.1864180457E+000  +1.0977702852E-002 +2.4734741588E+001  +6.4563859591E-001 +3.6944520032E-001 
9144598.248 +5.9508525263E-001 +6.6276709610E+000  +1.1704162660E-002 +1.9788231546E+001  +3.0843299998E-003 +2.1260095416E+001  +6.0663468408E-001 -1.3470456051E-001 
9269743.429 +5.4115139070E-001 +3.8302814219E+000  +7.5170844964E-003 +1.0931336070E+001  +7.9179464034E-003 +4.4780671644E+001  +5.8808485622E-001 -8.7998416107E-001 
9394888.611 +5.6103257224E-001 +1.0599884784E+001  +1.1469494800E-002 +3.0033704483E+001  +4.8707621465E-003 +2.3216183269E+001  +5.5134336790E-001 -3.2283731994E+000 
9520033.792 +4.9472883928E-001 +4.6613265091E+000  +1.0282084579E-002 +1.6568449825E+001  +1.2423668220E-002 +5.1171397420E+001  +5.6497421627E-001 -3.8923893178E+000 
9645178.974 +5.4913596324E-001 +5.7243540783E+000  +1.1454236190E-002 +1.0251798848E+001  +8.7682543076E-003 +2.0720773473E+001  +5.8263517917E-001 -1.8295914796E+000 
9770324.155 +5.1194103887E-001 -7.7434870275E-001  +1.1641273935E-002 +7.0886822800E+000  +7.6736566356E-003 +1.5066247009E+001  +5.4213388027E-001 -4.8134580912E+000 
9895469.337 +5.3505509802E-001 -2.3295906200E+000  +8.3499811712E-003 +2.0306544383E+001  +1.1036438069E-002 +4.2920709142E+001  +5.3891806009E-001 -4.3315745833E+000 
10020614.518 +5.4103329735E-001 +2.6058822758E+000  +1.0039589800E-002 +1.7251984521E+001  +7.9575288466E-003 +2.4492160852E+001  +5.9897733221E-001 -5.2032510398E+000 
10145759.700 +5.2015789864E-001 +2.3564150707E+000  +9.3874438507E-003 +2.1704785191E+001  +1.2042903308E-002 +2.4405074482E+001  +5.5899435485E-001 -4.1929211123E+000 
10270904.881 +5.3256237916E-001 +7.8005583955E+000  +7.5204552677E-003 +1.4268468450E+001  +1.0868457838E-002 +3.5315940698E+001  +5.5810311938E-001 -1.8068643151E+000 
10396050.063 +5.5721148201E-001 +2.8003283403E+000  +9.8555025108E-003 +2.4765410325E+001  +9.3939113112E-003 +2.8743777856E+001  +5.9438425439E-001 -1.0551760106E+000 
10521195.244 +5.8375530468E-001 +3.4340672898E+000  +7.7040515492E-003 +2.8249768939E+001  +9.5938338701E-003 +3.7654796399E+001  +5.8836278355E-001 -1.5077254204E+000 
10646340.426 +5.2239269220E-001 +3.9554853485E+000  +1.2308821605E-002 +3.9626527835E+001  +8.9313173219E-003 +3.3679717593E+001  +5.6067055661E-001 -1.7672200031E+000 
10771485.607 +5.7104097171E-001 +4.8673991306E+000  +1.0264881834E-002 +1.1435401477E+001  +9.2624052191E-003 +3.4889774575E+001  +5.8237337296E-001 +2.2510586540E+000 
10896630.788 +5.3281524656E-001 +4.0028605963E+000  +9.1161483095E-003 +2.7856792395E+001  +9.4870154702E-003 +3.6441006274E+001  +5.7486345765E-001 +1.0240420690E+000 
11021775.970 +5.8822660499E-001 +9.1756063439E+000  +1.1407650306E-002 +2.6544527515E+001  +1.2340544088E-002 +4.4169133858E+001  +6.0721453807E-001 +1.7995723058E+000 
11146921.151 +5.7358258631E-001 +5.1790029914E+000  +1.1661351742E-002 +1.2708806243E+001  +1.1225586498E-002 +2.7490127561E+001  +5.7829454572E-001 +2.8629351696E+000 
11272066.333 +5.8599116595E-001 +3.1854602496E+000  +1.0463927833E-002 +3.2863666319E+001  +1.2963284374E-002 +4.7433319535E+001  +6.2669131285E-001 +2.0384474200E+000 
11397211.514 +5.9321074488E-001 +3.3692662295E+000  +1.2667442651E-002 +3.0367785601E+001  +8.5525303153E-003 +4.0821228328E+001  +6.3263616868E-001 +2.5341216372E+000 
11522356.696 +6.3238394482E-001 +7.6049009226E+000  +1.1082728497E-002 +2.6414725182E+001  +1.1570101619E-002 +3.9509259889E+001  +6.3909005942E-001 -3.2071081601E-001 
11647501.877 +6.2697796126E-001 +5.9466540249E+000  +1.0883132965E-002 +2.3020026524E+001  +1.1270457086E-002 +3.9069661600E+001  +6.5627992352E-001 +2.3221800989E+000 
11772647.059 +6.5378563211E-001 +5.2448747908E+000  +9.8241988905E-003 +2.7026869158E+001  +1.2502351015E-002 +4.8314220640E+001  +6.5072575462E-001 +1.4202771475E-001 
11897792.240 +6.7296393429E-001 +6.0716661351E+000  +1.0226201743E-002 +2.2878086346E+001  +1.0687837451E-002 +3.8844649206E+001  +6.5759688725E-001 -3.4067176856E-001 
12022937.422 +6.8454938437E-001 +5.5247720569E+000  +1.2028950977E-002 +3.9310565211E+001  +1.2211641486E-002 +4.0930358400E+001  +7.0856169555E-001 +1.5177548357E+000 
12148082.603 +6.6403207214E-001 +2.6325640456E+000  +1.3088061972E-002 +2.6087288920E+001  +1.1628494373E-002 +3.4879542465E+001  +6.7847976865E-001 +1.6246104372E+000 
12273227.785 +7.0171184884E-001 +3.4917524937E+000  +1.3455516784E-002 +3.0023734351E+001  +1.1261987411E-002 +4.3530254448E+001  +7.1088623457E-001 -8.0799164181E-001 
12398372.966 +6.8263021921E-001 +4.2984649906E+000  +1.0820448127E-002 +3.0807106255E+001  +1.1420646675E-002 +4.1163073333E+001  +7.0358842570E-001 +6.5739939642E-001 
12523518.148 +7.3905389220E-001 +1.4489754503E+000  +1.2554893871E-002 +3.5687829671E+001  +1.2086541084E-002 +2.7449982042E+001  +7.3288749537E-001 -1.0405884368E+000 
12648663.329 +7.2049553290E-001 +2.8401622387E+000  +1.1776272857E-002 +3.0433074584E+001  +1.3988383318E-002 +3.9404119244E+001  +7.3436732096E-001 +5.4782431125E-001 
12773808.511 +7.4013880694E-001 +7.7591919331E-001  +1.2877631927E-002 +2.9109734689E+001  +1.3404126633E-002 +3.5662421698E+001  +7.4715028504E-001 -4.7331793205E-001 
12898953.692 +7.3967658249E-001 +7.8334064213E-001  +1.1580882421E-002 +3.2524325838E+001  +1.3711669338E-002 +3.6492227013E+001  +7.6760214544E-001 -1.7507971722E+000 
13024098.874 +7.5201084605E-001 +1.4033788117E+000  +1.3384266313E-002 +2.7264890074E+001  +1.1014321023E-002 +3.5831893522E+001  +7.8607925477E-001 -1.2132154458E+000 
13149244.055 +7.7141529371E-001 -8.9727920752E-001  +1.2661801535E-002 +2.8983900183E+001  +1.2751878614E-002 +3.6816248380E+001  +7.8609930431E-001 -2.1741307653E+000 
13274389.237 +8.0372125048E-001 -8.2447027311E-001  +1.4352881547E-002 +3.3676859825E+001  +1.2918299289E-002 +3.7295811932E+001  +8.1356100929E-001 -1.8682886436E+000 
13399534.418 +8.1451443759E-001 -1.2752473464E+000  +1.3309212446E-002 +3.3161522127E+001  +1.1836557778E-002 +2.7256899180E+001  +8.5205221903E-001 -2.5313566251E+000 
13524679.599 +8.3672144477E-001 -6.4279254472E-001  +1.4378545066E-002 +3.9303159277E+001  +1.3126642963E-002 +3.4773370550E+001  +8.4624242886E-001 -1.2050478965E+000 
13649824.781 +8.4881620936E-001 -2.0977696277E+000  +1.4447223833E-002 +3.1662541334E+001  +1.4246383810E-002 +2.8143428634E+001  +8.6926102976E-001 -3.3220038156E+000 
13774969.962 +8.9135799878E-001 -3.2069985286E+000  +1.3722522577E-002 +3.0448671857E+001  +1.2896587644E-002 +3.7234478472E+001  +8.8700251343E-001 -3.3730083057E+000 
13900115.144 +8.9523191180E-001 -2.6351351217E+000  +1.4015899074E-002 +3.0556751900E+001  +1.3579985349E-002 +3.6778780906E+001  +9.0384428489E-001 -5.0843578005E+000 
14025260.325 +9.0068291929E-001 -4.3649266952E+000  +1.3554913559E-002 +3.0083880763E+001  +1.3367068488E-002 +3.0785034804E+001  +9.3206125472E-001 -3.5959814652E+000 
14150405.507 +9.2203198930E-001 -4.3753809185E+000  +1.2450093608E-002 +3.4610318470E+001  +1.4361351986E-002 +3.0884090248E+001  +9.4194551915E-001 -3.7640275342E+000 
14275550.688 +9.4503435214E-001 -4.7691341860E+000  +1.4987571673E-002 +3.4582519232E+001  +1.2614751766E-002 +2.8907922503E+001  +9.5649180550E-001 -4.4234095653E+000 
14400695.870 +9.5015114344E-001 -5.5603556754E+000  +1.5335806365E-002 +3.6144942339E+001  +1.5823823170E-002 +3.5268215645E+001  +9.8443514602E-001 -4.9167326715E+000 
