!  2-Port S-parameters saved by WinCal
! VAR MeasName=S-Parameters (CALIBRATED_DATA) read from VNA (P5004A)
! VAR MeasDate=27/08/2024 16:05:54
! VAR NAME=S2_r1c9_RESET1_9k-100M_2
! VAR FILENAME=S2_r1c9_RESET1_9k-100M_2.S2P
! VAR DATE=27/08/2024 16:05:54
! VAR PHYS_PORTS=1,2
! VAR ObjTypeName=DATASET
! VAR IndexType=Frequency
!
# Hz S MA R 50
9000.000 +6.3177106180E-002 -1.5997756961E+002  +2.1619558668E-002 +6.7365639271E+001  +9.4939210168E-003 +1.3827576039E+002  +3.3990847575E-001 -1.3297720287E+002 
134145.181 +1.1104519448E-001 +1.6952249132E+002  +1.7176947797E-004 -1.3933778005E+002  +1.7514128056E-004 -1.4341839391E+002  +2.4130945537E-001 -1.7144773129E+002 
259290.363 +1.1185213594E-001 +1.7001387030E+002  +1.5471218808E-004 -8.9147576036E+001  +3.9374109114E-004 +1.8339575344E+001  +2.3776497511E-001 -1.7030221739E+002 
384435.544 +1.1529781772E-001 +1.6941957216E+002  +4.7395225193E-004 -1.2146239116E+002  +5.1774814410E-004 +1.6900678677E+002  +2.3219371067E-001 -1.6688704392E+002 
509580.726 +1.1462847502E-001 +1.7134294620E+002  +4.6515583678E-004 +1.7590422268E+002  +1.0365874361E-003 +9.8733090561E+001  +2.3669982895E-001 -1.6414241763E+002 
634725.907 +1.1527750385E-001 +1.7036450668E+002  +3.3262139479E-004 +4.5308295146E+001  +1.2277797338E-003 -2.6394583402E+001  +2.4063726617E-001 -1.6539159375E+002 
759871.089 +1.1716027871E-001 +1.7035537287E+002  +2.9122017625E-004 -4.8789126408E+001  +6.7697159727E-004 -7.0570004945E+001  +2.4067669833E-001 -1.6196551063E+002 
885016.270 +1.1862974084E-001 +1.6964637467E+002  +1.2696541100E-004 -1.6265017938E+002  +6.1971492895E-004 -9.8623930311E+001  +2.4333053329E-001 -1.6715133349E+002 
1010161.452 +1.2025137782E-001 +1.7104732060E+002  +1.2103291167E-003 +1.6846386759E+002  +4.4559263412E-003 -5.5376695683E+001  +2.0200532236E-001 -1.4291729551E+002 
1135306.633 +1.0942414562E-001 +1.6978743991E+002  +1.3904232121E-003 +1.3203110216E+002  +1.3774117913E-003 +9.9436595410E+001  +1.6995190011E-001 -1.6271128401E+002 
1260451.815 +1.1909831583E-001 +1.7178951890E+002  +7.0171987568E-004 +1.1768654799E+002  +1.2825622752E-003 -3.9917502565E+001  +2.4242946218E-001 -1.5958116465E+002 
1385596.996 +1.2609319264E-001 +1.7176285647E+002  +5.7583037242E-004 -7.5904954352E+001  +1.0854117868E-005 +1.0650121871E+002  +2.7731134557E-001 -1.5930191974E+002 
1510742.178 +1.2810451378E-001 +1.7237148867E+002  +1.0016684478E-003 -1.7186231017E+002  +2.3012343039E-004 -1.4453665516E+002  +2.5908897804E-001 -1.5671906366E+002 
1635887.359 +1.2879886599E-001 +1.7067655171E+002  +9.8106591824E-004 -8.2847138574E+001  +7.3432926402E-004 -2.9349115625E+001  +2.4694210048E-001 -1.5947542085E+002 
1761032.541 +1.3055388622E-001 +1.6877232574E+002  +1.3601554233E-003 -9.0275556551E+001  +2.3804379154E-003 +1.3754936279E+002  +1.9715392537E-001 -1.5898470141E+002 
1886177.722 +1.3250067534E-001 +1.6750572880E+002  +1.0856051937E-003 -7.8191285824E+001  +1.2701645704E-003 +8.5243153007E+001  +2.1899475635E-001 -1.6713534928E+002 
2011322.904 +1.3069102070E-001 +1.6830563714E+002  +3.8299551250E-003 +9.7433634815E+001  +2.5116826549E-003 -2.0001634942E+001  +1.7014368338E-001 +1.6685144744E+002 
2136468.085 +1.2739081646E-001 +1.6526361635E+002  +2.8042399454E-003 -3.4387603805E+001  +9.6346842339E-004 +1.6810549760E+002  +2.0969142481E-001 +1.6767700738E+002 
2261613.267 +1.3272151640E-001 +1.6645120573E+002  +3.3762609871E-003 -2.3758211738E+001  +1.2401065714E-003 +1.2821154849E+002  +2.0884837846E-001 -1.7791944829E+002 
2386758.448 +1.3165242755E-001 +1.5850415951E+002  +5.4110198124E-003 +4.0163282438E+001  +2.7573430328E-003 -8.3499248852E+001  +2.7828452533E-001 +1.6905652504E+002 
2511903.630 +1.2086481964E-001 +1.6298179920E+002  +2.0772257666E-003 -1.2030116713E+002  +1.0372423091E-002 -3.2286994700E+000  +4.5376938887E-001 +1.6211677161E+002 
2637048.811 +1.2727276687E-001 +1.6107327581E+002  +8.2356943578E-003 -1.7889569322E+001  +2.5109128439E-002 +1.2671830148E+002  +9.7666972839E-001 +1.4883942992E+002 
2762193.992 +8.8559825843E-002 +1.6131803177E+002  +7.5160331509E-003 +8.7188058551E+001  +7.8959149387E-003 +2.1546927869E+001  +3.0568184474E-001 +7.7538532109E+001 
2887339.174 +1.1439177334E-001 +1.5130354106E+002  +2.2050123624E-002 +6.1797808871E+001  +3.1479104119E-002 -1.3946698530E+002  +7.5459557134E-001 -1.1651955441E+002 
3012484.355 +9.9260608442E-002 +1.5384961953E+002  +2.8060992993E-002 -1.2264931402E+002  +2.5873736307E-002 +1.0650324204E+002  +1.0287239429E+000 -6.3894627072E+001 
3137629.537 +1.1822082235E-001 +1.5368258774E+002  +2.6483969375E-003 -9.0634391608E+001  +9.9540060118E-003 -3.6447698981E+001  +4.2667235492E-001 -1.1344377742E+002 
3262774.718 +1.1323682393E-001 +1.6817562474E+002  +1.1632053245E-002 -6.6782831659E+001  +1.5475000440E-002 -4.8010638664E+001  +4.6774278301E-001 -3.2908805290E+001 
3387919.900 +1.3690378644E-001 +1.5570789751E+002  +3.6633108182E-003 -1.0526618914E+002  +6.6783778691E-003 +5.6813851642E+001  +2.3607213241E-001 +1.2494856603E+002 
3513065.081 +1.2172311571E-001 +1.4234155505E+002  +1.0617828364E-002 -1.2589011613E+002  +9.7335031289E-003 +8.3301690764E+001  +1.3836965859E-001 +1.3988539332E+002 
3638210.263 +1.7550663129E-001 +1.3711512822E+002  +1.1518933576E-002 -1.4275564137E+002  +4.9189478392E-004 -5.3620503333E+001  +1.9730276305E-001 +8.2710103779E+001 
3763355.444 +1.9131478085E-001 +1.4512579968E+002  +3.5550612548E-003 -8.6751434395E+000  +1.8639977356E-002 -1.3389075552E+002  +7.7161102449E-001 +1.4655767365E+002 
3888500.626 +1.6009753028E-001 +1.4746480401E+002  +8.8280886859E-003 +1.4668390135E+002  +1.0305343138E-002 +2.2782596309E+001  +5.1295317611E-001 +1.3687288301E+002 
4013645.807 +1.4946127492E-001 +1.5539538233E+002  +6.7170025029E-003 +1.5467460916E+002  +7.2918587515E-003 +2.9750997175E+001  +2.7896127514E-001 +1.2009565132E+002 
4138790.989 +1.3038829383E-001 +1.3260084448E+002  +7.8772439300E-003 +1.0692388268E+002  +5.3568457261E-004 -1.7935624722E+002  +5.2753650845E-001 +1.2648999884E+002 
4263936.170 +1.8921531372E-001 +1.4056320462E+002  +7.7997893438E-003 +6.6877781295E+001  +1.4344164370E-002 -4.0983545143E+001  +1.2011612834E+000 +1.2680456350E+002 
4389081.352 +2.0003849114E-001 +1.4991469579E+002  +9.4140948391E-003 -1.2720430049E+002  +5.3517150296E-003 +1.3197712447E+001  +5.6832793502E-001 +1.1019366326E+002 
4514226.533 +2.2380798206E-001 +1.3568855492E+002  +4.5950781029E-002 -1.4506589333E+002  +1.9310660022E-002 -3.2128348842E+001  +2.3219646698E+000 +6.8727958141E+001 
4639371.715 +3.0419568821E-001 +1.3522407867E+002  +1.4615598682E-002 +8.6932986064E+001  +3.6692731912E-002 -3.8570271647E+001  +2.1203829676E+000 +7.8489389437E+001 
4764516.896 +3.9340126629E-001 +1.3115652754E+002  +3.8733663195E-002 +2.4192638402E+001  +4.8983357378E-002 -5.7723347381E+001  +2.9765193263E+000 +1.5046207980E+002 
4889662.078 +5.9013825498E-001 +1.1751751719E+002  +9.3094688084E-002 -4.7245456814E+001  +1.7349755697E-002 -3.1627012834E+001  +3.1924358754E+000 -1.2864846179E+002 
5014807.259 +4.2423199015E-001 +1.4068062347E+002  +3.2233494855E-002 +3.7225117863E+001  +2.5411769675E-002 -4.4402157389E+001  +5.0246360752E+000 -1.5526917497E+002 
5139952.441 +4.3074515086E-001 +1.1797227090E+002  +2.3485344442E-002 -9.3728281270E+001  +4.4586066756E-002 +4.7981209954E+001  +3.9283424787E+000 +6.5595140168E+001 
5265097.622 +4.2616414325E-001 +1.2839572958E+002  +3.3957231243E-002 +1.3578032980E+002  +3.9930880469E-002 -1.6933058825E+002  +2.9525452135E+000 +1.0400933488E+002 
5390242.804 +5.3437818543E-001 +1.3217485218E+002  +3.2353415635E-002 +1.4559119741E+002  +4.2287973611E-002 -1.3026559919E+002  +3.5442599034E+000 +5.8675988961E+001 
5515387.985 +4.6743192927E-001 +1.2411275712E+002  +1.2504412132E-002 -2.5307624383E+001  +1.0587245865E-002 +1.5874323886E+002  +1.9539920482E+000 +1.4161125264E+002 
5640533.166 +4.7555189466E-001 +1.2596607627E+002  +2.7510968308E-002 -1.4754882053E+002  +1.0115590847E-002 +1.2877435829E+002  +2.2891688062E+000 +6.1761766459E+001 
5765678.348 +4.8521618119E-001 +1.3036090063E+002  +1.5699064377E-002 +8.4250691119E+001  +6.0287667185E-002 +7.4983699859E+001  +2.6434747189E+000 +8.6921876807E+001 
5890823.529 +5.9113482036E-001 +1.2680150155E+002  +4.3590605117E-002 +6.5791899619E+001  +1.7026403529E-002 +1.2915868305E+002  +3.6971534733E+000 +4.5121550745E+001 
6015968.711 +7.1896000029E-001 +1.2058760614E+002  +2.2918636126E-003 +5.7580322382E+001  +7.5621629417E-003 +1.0970879062E+002  +1.3433978867E+000 +1.8552807612E+001 
6141113.892 +6.4918401799E-001 +1.1727345888E+002  +2.8331198648E-002 +1.7608789626E+002  +7.3391007913E-003 -6.4559278728E+001  +2.0077032984E+000 +4.3913052064E+001 
6266259.074 +9.1602179501E-001 +8.8869104186E+001  +2.9860084095E-002 -1.2743639882E+002  +5.4269324926E-002 -1.7698677984E+002  +2.4332186533E+000 +1.0073345051E+001 
6391404.255 +1.0481911501E+000 +8.3136166057E+001  +2.2497695243E-002 -9.5507211239E+001  +1.9583347046E-002 +5.5323546900E+001  +1.7097127710E+000 -5.4121033422E+000 
6516549.437 +1.2540067125E+000 +8.9739481069E+001  +7.1359530805E-003 -1.6578734543E+002  +9.3550428703E-003 -1.7182643486E+002  +1.4663158534E+000 +8.4901362760E+000 
6641694.618 +1.4525832074E+000 +5.9371176890E+001  +1.5310971543E-002 +5.3057739712E+001  +4.2561118506E-002 +9.1208490589E+001  +1.5726886024E+000 -4.6124926124E+000 
6766839.800 +1.4470620823E+000 +5.0329208121E+001  +1.5287315171E-002 +1.3154449210E+002  +1.1156119253E-002 -7.8407209703E+001  +1.3713436281E+000 -7.3445999432E-001 
6891984.981 +2.0195547780E+000 +2.1045511914E+001  +3.0058015277E-002 +2.3904404667E+001  +1.0934936844E-002 +8.7848884804E+001  +1.3114973791E+000 -9.6068954204E+000 
7017130.163 +2.2345114884E+000 +2.5258024898E+001  +8.8170153252E-003 -1.1387607773E+002  +2.2750813762E-002 -3.4739235930E+001  +1.1677164701E+000 -1.7813798825E+001 
7142275.344 +1.5736070801E+000 +1.1512871712E+001  +1.1002799598E-002 -5.8804751962E+001  +1.0346295898E-002 +7.0823368445E+001  +1.3144485376E+000 -6.0124041206E+000 
7267420.526 +1.7779816205E+000 +1.4371837719E+000  +1.8444437763E-002 -3.4026724390E+000  +1.0512181981E-002 +1.2333029039E+002  +1.4023335554E+000 -1.5786221525E+001 
7392565.707 +1.3971299842E+000 -1.7832215969E-001  +5.1749396840E-003 +1.7675702573E+002  +1.0284538685E-002 +1.2122070276E+002  +1.3626613304E+000 -2.6121805018E+000 
7517710.889 +1.3174364676E+000 +1.9430115650E+000  +1.1096114388E-002 +7.5027448162E+001  +7.5016259236E-003 -1.6695998825E+002  +1.2602522418E+000 -9.8613215451E+000 
7642856.070 +1.0834543692E+000 -1.4023014300E+000  +1.1651981331E-002 +5.7029266741E+001  +1.6421697108E-003 -4.1858855353E+001  +1.2071765210E+000 -3.4756891077E+000 
7768001.252 +1.0097819590E+000 -6.9936331169E-001  +1.2658234967E-002 +1.1352070879E+002  +6.4043559219E-003 +1.0059067018E+002  +1.0519441160E+000 -6.8484701738E+000 
7893146.433 +9.0713850864E-001 +5.2567353450E+000  +6.1773543656E-003 +3.7961352931E+001  +7.8504826681E-003 +3.8234285230E+001  +9.0716756070E-001 -5.5843677329E+000 
8018291.615 +7.3881448424E-001 -1.6465899886E-001  +9.0789902542E-003 +5.0407710475E+001  +7.9639408977E-003 +6.3953124715E+001  +8.5792537979E-001 -3.3268037563E+000 
8143436.796 +7.6722551260E-001 +4.4879763330E+000  +8.9790873903E-003 +9.6208458346E+001  +4.5702649819E-003 +7.9119378612E+001  +7.5861047801E-001 -6.2064156375E+000 
8268581.977 +7.9629307992E-001 +8.3363131483E+000  +2.9425179396E-003 +1.7333760851E+002  +3.2314537286E-003 +6.2524992020E+001  +7.4574979696E-001 +1.0891376044E+000 
8393727.159 +6.7127118899E-001 +8.2801178687E+000  +4.1156816838E-003 +1.0194743492E+002  +3.4664759610E-003 +1.1064575447E+002  +7.3553163639E-001 +4.7831253705E+000 
8518872.340 +7.2658743819E-001 +4.1806101381E+000  +1.4332989210E-003 +7.3515804992E+001  +5.6122718837E-003 +1.1581602791E+002  +7.3182047774E-001 +5.2733828234E+000 
8644017.522 +6.8317134428E-001 +8.7564113856E+000  +4.3116155120E-003 +1.0424758626E+002  +1.2400186211E-003 +8.3363471552E+001  +7.3240871316E-001 -9.9402220744E-001 
8769162.703 +5.8437626956E-001 +1.9795401736E+000  +5.9648036504E-003 +6.6424492650E+001  +4.6901541955E-003 +1.6188024558E+002  +6.5366952086E-001 +1.5992459997E+000 
8894307.885 +6.5241244615E-001 +1.7818278072E+000  +2.5295715911E-003 +1.4542733069E+002  +1.8985373123E-003 +8.4221757405E+001  +6.6978604626E-001 -2.3479666050E+000 
9019453.066 +5.9045060878E-001 +1.0178330327E+001  +4.1868362435E-003 +9.4885979368E+001  +4.9855479466E-003 +8.9485477341E+001  +6.3804422401E-001 +4.5984793242E-001 
9144598.248 +6.1925787761E-001 +4.7610905091E+000  +3.7117655963E-003 +8.5621833936E+001  +4.6541989621E-003 +5.5128162117E+001  +6.2665557215E-001 -2.7150615148E+000 
9269743.429 +5.3655273878E-001 +4.8610271214E+000  +5.2633736548E-003 +7.0750314282E+001  +4.0298168890E-003 +7.8396780883E+001  +5.9516842822E-001 -2.1796216474E+000 
9394888.611 +5.4106138373E-001 +2.4244728084E+000  +4.3427363844E-003 +7.1319271942E+001  +5.4230798459E-003 +3.9558930318E+001  +5.7432816872E-001 -1.3279074012E+000 
9520033.792 +5.7377380556E-001 +7.5379187239E-001  +5.1010407691E-003 +7.0643225989E+001  +3.1441783783E-003 +1.6876264304E+002  +6.2307626890E-001 -4.2855003475E+000 
9645178.974 +5.3594677045E-001 +2.4163008214E+000  +5.4780414436E-003 +9.2723154414E+001  +6.8083542137E-003 +9.5101870418E+001  +5.9184354340E-001 -5.6160901856E+000 
9770324.155 +6.2289582016E-001 +1.2711851913E-001  +3.9086681701E-003 +5.8256248565E+001  +4.6051140061E-003 +1.4752624113E+002  +5.7386777817E-001 -5.8132716420E+000 
9895469.337 +5.5693720337E-001 +8.8624346658E-001  +5.2253734574E-003 +3.8223605380E+001  +3.8482901409E-003 +1.2844726266E+002  +5.3899614810E-001 -1.1183319784E+001 
10020614.518 +5.3974729869E-001 +5.8065485086E-001  +7.1337668873E-003 +5.8494396014E+001  +6.6835824975E-003 +9.6452138237E+001  +5.6377093329E-001 -5.9696165663E+000 
10145759.700 +5.9331803563E-001 +1.1424744447E+000  +2.8084201598E-003 +1.2436927490E+002  +3.5083790691E-003 +1.2819267682E+002  +5.6092204529E-001 -3.5745471238E+000 
10270904.881 +5.4241058152E-001 +1.3737265000E+000  +2.2260633348E-003 +5.5080074483E+001  +5.7500532284E-003 +1.3361951797E+002  +6.0848949323E-001 -2.5719439154E+000 
10396050.063 +5.6991807239E-001 +5.4619011443E+000  +3.4168801683E-003 +1.3137026845E+002  +5.0179253736E-003 +9.1036344361E+001  +5.3812599044E-001 -2.2537985362E+000 
10521195.244 +5.6983702547E-001 +7.0922887223E+000  +4.6417262063E-003 +8.7532126247E+001  +6.6633351469E-003 +1.1448391658E+002  +6.0232228403E-001 +9.0947830979E-001 
10646340.426 +5.5184304418E-001 +4.9133329460E+000  +3.7633013977E-003 +6.1718330053E+001  +4.3555293135E-003 +7.5874524640E+001  +5.8309807827E-001 -3.3015019985E-001 
10771485.607 +6.0502180645E-001 +2.0687029353E+000  +2.8763547961E-003 +1.0804292496E+002  +6.4936111561E-003 +1.2493066215E+002  +6.0265456651E-001 +1.4150463352E-001 
10896630.788 +6.0046151667E-001 +6.2399972904E+000  +6.4356554343E-003 +7.4460726196E+001  +5.9321397473E-003 +8.5959767946E+001  +6.2320263718E-001 +2.0613923955E+000 
11021775.970 +5.8915854429E-001 +9.1478755459E+000  +4.4162721175E-003 +7.7113278837E+001  +4.7315598457E-003 +1.4062232859E+002  +5.9952459620E-001 +1.5254240862E-001 
11146921.151 +5.9334535744E-001 +6.4361886967E+000  +5.7345814220E-003 +9.3082316697E+001  +5.9876841125E-003 +9.0353491984E+001  +6.1247192648E-001 +2.4153145664E+000 
11272066.333 +6.2872406093E-001 +7.6560519855E+000  +3.7761357378E-003 +7.0912116540E+001  +6.8092084524E-003 +1.0051237642E+002  +6.1176738788E-001 -4.4718360229E-001 
11397211.514 +6.1831598602E-001 +6.6058329825E+000  +4.5907738511E-003 +7.6176584508E+001  +4.5779380571E-003 +9.8867128332E+001  +6.2716753156E-001 +4.4299973080E-002 
11522356.696 +6.1311677495E-001 +6.5886614953E+000  +5.0425639508E-003 +8.1066644197E+001  +4.9801148801E-003 +1.0547464653E+002  +6.3611150436E-001 +1.4054745149E-001 
11647501.877 +6.4890435156E-001 +6.7210166585E+000  +5.1528932631E-003 +8.2261016353E+001  +4.0219187859E-003 +5.6751251482E+001  +6.4848772507E-001 -3.5821751616E-001 
11772647.059 +6.4620398670E-001 +5.0516794113E+000  +6.4782622881E-003 +9.1829987931E+001  +5.0612272451E-003 +9.0304754031E+001  +6.5238588573E-001 -4.3670240679E-001 
11897792.240 +6.5361351669E-001 +4.4415643656E+000  +5.6748909707E-003 +1.0175365361E+002  +4.8710167862E-003 +9.4588140908E+001  +6.9418351631E-001 +2.1861641408E+000 
12022937.422 +6.5777040312E-001 +4.3164844811E+000  +7.8852045011E-003 +1.0966179277E+002  +6.5934568299E-003 +1.1141820837E+002  +6.8103463088E-001 -2.2156574352E+000 
12148082.603 +6.6920509321E-001 +3.9588954682E+000  +5.4875280225E-003 +7.7122121432E+001  +3.9360075143E-003 +1.2696472012E+002  +7.1460933119E-001 -7.5842210361E-003 
12273227.785 +7.0143557408E-001 +3.7002903491E+000  +4.3663756351E-003 +7.8378774464E+001  +8.1720759516E-003 +9.1771281816E+001  +7.2530858199E-001 +3.8361614194E-001 
12398372.966 +6.8159664127E-001 +2.9338259322E+000  +3.5796247007E-003 +9.3171078813E+001  +5.9525407600E-003 +1.1036428228E+002  +7.3334286614E-001 +1.1238238854E-001 
12523518.148 +6.9441454179E-001 +2.3935827624E+000  +4.9520705640E-003 +9.9687080472E+001  +6.6840360865E-003 +9.8102611449E+001  +7.4151431912E-001 -2.4465579084E+000 
12648663.329 +7.2857166664E-001 +3.2954838674E+000  +6.6786159045E-003 +1.0097617996E+002  +5.8596382569E-003 +8.8895182135E+001  +7.4924109706E-001 +1.3466835016E-001 
12773808.511 +7.6561843589E-001 +1.1430054192E+000  +5.7497802206E-003 +8.4040632423E+001  +6.3158302192E-003 +9.0436789676E+001  +7.4495039911E-001 -1.5156685878E+000 
12898953.692 +7.8365699476E-001 +1.5083543831E+000  +6.6646190252E-003 +9.4189477888E+001  +6.2262834622E-003 +9.8062562515E+001  +7.8261026560E-001 -3.0861599838E-001 
13024098.874 +7.8623374639E-001 +4.5906392294E-001  +6.8899977354E-003 +9.6280909046E+001  +4.0832503081E-003 +1.0148398730E+002  +8.0546807022E-001 -2.1384144773E+000 
13149244.055 +7.9132228247E-001 +6.2341104100E-002  +5.7832744468E-003 +7.2906791537E+001  +6.0333919748E-003 +8.2200196169E+001  +8.1232380702E-001 -2.5225126771E+000 
13274389.237 +7.9630838655E-001 -1.0732576931E+000  +7.1514324875E-003 +9.2052536265E+001  +7.8632772974E-003 +9.5037316439E+001  +8.2027316842E-001 +3.3634750164E-001 
13399534.418 +8.3254456030E-001 +4.2035992904E-001  +7.7451696934E-003 +8.7163832256E+001  +6.4342026877E-003 +8.6089105758E+001  +8.3800079735E-001 -2.4921422482E+000 
13524679.599 +8.5591792256E-001 -1.6455299791E+000  +7.9617369176E-003 +1.0014655536E+002  +5.9642808185E-003 +9.8103668864E+001  +8.8196442261E-001 -2.3325899614E+000 
13649824.781 +8.5287228325E-001 -1.2084510600E+000  +6.6059204512E-003 +8.1331371297E+001  +6.5970444329E-003 +9.2085532699E+001  +8.9729250391E-001 -2.3368360395E+000 
13774969.962 +8.7989302709E-001 -1.5895166301E+000  +6.5102511793E-003 +9.4251864890E+001  +6.5281095061E-003 +9.9210311624E+001  +9.0450957963E-001 -2.1720107535E+000 
13900115.144 +9.0346783190E-001 -3.3824173853E+000  +8.8407353002E-003 +1.0525227226E+002  +6.7104428890E-003 +8.5847472837E+001  +9.2171326845E-001 -2.8482011787E+000 
14025260.325 +9.0595848496E-001 -3.3742570622E+000  +7.7891901152E-003 +8.0889585268E+001  +7.7717828528E-003 +9.4449467647E+001  +9.3846850810E-001 -3.8086236310E+000 
14150405.507 +9.5206247636E-001 -4.3848507127E+000  +7.9583352094E-003 +9.3761713966E+001  +8.7982614722E-003 +8.7191839087E+001  +9.5038146335E-001 -3.4619997813E+000 
14275550.688 +9.5637053886E-001 -3.5257886150E+000  +7.9567625936E-003 +1.0118840964E+002  +7.6822366924E-003 +7.6288084409E+001  +9.8507197949E-001 -4.6174163597E+000 
14400695.870 +9.6531345899E-001 -4.9673597308E+000  +7.5122760085E-003 +8.2190623460E+001  +6.3738505036E-003 +9.2821379415E+001  +9.7413598715E-001 -4.1099830163E+000 
