!  2-Port S-parameters saved by WinCal
! VAR MeasName=S-Parameters (CALIBRATED_DATA) read from VNA (P5004A)
! VAR MeasDate=27/08/2024 12:06:25
! VAR NAME=S2_r3c8_pristine_9k-100M_2
! VAR FILENAME=S2_r3c8_pristine_9k-100M_2.S2P
! VAR DATE=27/08/2024 12:06:25
! VAR PHYS_PORTS=1,2
! VAR ObjTypeName=DATASET
! VAR IndexType=Frequency
!
# Hz S MA R 50
9000.000 +4.1574793553E-002 +1.4620440042E+002  +1.2000889531E-002 +7.9899487648E+001  +1.5663969950E-002 -5.3535817972E+001  +2.0911098158E-001 -1.1772453249E+002 
134145.181 +1.1028640426E-001 +1.7006635315E+002  +3.9446481192E-004 +5.8399435807E+001  +2.2166546115E-004 +1.0873793486E+002  +2.3943305212E-001 -1.7097274698E+002 
259290.363 +1.1057027283E-001 +1.6939240482E+002  +8.8153494273E-004 +1.5987007275E+002  +8.1374188713E-004 +1.9660553083E+001  +2.4373250892E-001 -1.6634284237E+002 
384435.544 +1.1367401449E-001 +1.7046397094E+002  +1.0244545238E-003 -1.5808505241E+002  +1.6430125628E-003 -7.9960062928E+001  +2.4302849967E-001 -1.6855687514E+002 
509580.726 +1.1400999326E-001 +1.7136801886E+002  +9.3613351622E-004 +6.4550223579E+001  +1.0605149391E-003 -1.9698078595E+001  +2.3663732491E-001 -1.6626315337E+002 
634725.907 +1.1462906998E-001 +1.7066276026E+002  +1.1854161392E-003 -9.0770662143E+001  +4.4941734610E-004 -1.4679639918E+002  +2.5422341550E-001 -1.6022628550E+002 
759871.089 +1.1513381879E-001 +1.6923741296E+002  +1.3452342558E-003 +1.5924255796E+002  +1.8756649431E-004 -1.8428273232E+001  +2.3525908480E-001 -1.6434467648E+002 
885016.270 +1.1681950465E-001 +1.7127049666E+002  +1.2296220865E-003 +8.0775376014E+001  +1.8914052557E-003 -1.4564056198E+002  +2.3016214788E-001 -1.6255460685E+002 
1010161.452 +1.1901729129E-001 +1.7081256782E+002  +1.2556382667E-003 -1.1733366964E+002  +3.1178080025E-003 +6.4568859441E+001  +1.7836139743E-001 -1.7201362690E+002 
1135306.633 +1.1421252098E-001 +1.7219145259E+002  +3.3247896916E-003 -1.7473992711E+002  +3.8514348219E-003 +2.2244195260E+001  +1.5679083593E-001 -1.2314504589E+002 
1260451.815 +1.2023137080E-001 +1.7089221923E+002  +1.1341687420E-003 -1.3589826917E+000  +5.8539864549E-004 +8.5102833437E+001  +2.4628209986E-001 -1.5538968820E+002 
1385596.996 +1.2872333981E-001 +1.7294523361E+002  +6.1403372131E-004 +8.8105689001E+001  +1.4582670787E-003 +1.2402811627E+001  +2.4277291853E-001 -1.5643808754E+002 
1510742.178 +1.2526990455E-001 +1.7126569685E+002  +3.2922972109E-004 +5.9388773533E+001  +7.4535860856E-004 +9.5158037542E+001  +2.5882586270E-001 -1.6115179346E+002 
1635887.359 +1.2603886665E-001 +1.7003547508E+002  +3.0207557849E-004 +1.5034576758E+002  +1.5466029937E-003 +1.4631977671E+002  +2.4834025301E-001 -1.5429750689E+002 
1761032.541 +1.2792101916E-001 +1.6867814618E+002  +7.4994970118E-004 +2.9947812165E+000  +7.3096147514E-004 +9.9894826038E+001  +2.2123073964E-001 -1.5747633545E+002 
1886177.722 +1.2507607769E-001 +1.6600714536E+002  +2.0611563624E-003 +6.7664992288E+000  +2.6137703032E-003 -1.2541561724E+002  +2.0874584186E-001 -1.5370972981E+002 
2011322.904 +1.2586051635E-001 +1.6415811233E+002  +4.4137942568E-003 +6.3989602138E+001  +2.9856726310E-003 -8.5633875701E+000  +1.9283971249E-001 -1.4167174656E+002 
2136468.085 +1.2539201202E-001 +1.6552063920E+002  +4.2442164444E-003 +6.8577105493E+001  +3.4104047568E-003 +1.5143866567E+002  +1.9505780565E-001 +1.7941352260E+002 
2261613.267 +1.3003478159E-001 +1.6583741987E+002  +1.9790469200E-003 +1.7269559648E+002  +2.2889612843E-003 -1.4516652158E+002  +3.3750957178E-001 +1.6587040990E+002 
2386758.448 +1.3663188049E-001 +1.6141207467E+002  +2.1486716410E-003 +6.7615247710E+001  +4.9957655005E-003 -4.2646094047E+001  +2.2938453419E-001 +1.6449357610E+002 
2511903.630 +1.3647780874E-001 +1.6068738153E+002  +2.3358375865E-004 +5.5154295504E+001  +2.8887474039E-003 -1.6564356248E+002  +1.4926948058E-001 +1.6298784240E+002 
2637048.811 +1.3566177134E-001 +1.5501689378E+002  +1.1492152248E-002 -1.6177043320E+002  +4.5084626982E-003 -1.7219865264E+002  +2.4225028924E-001 +1.3278486383E+002 
2762193.992 +9.4135892203E-002 -1.7709140529E+002  +3.2778425961E-002 -1.6929517519E+002  +1.5158292506E-002 +1.3974347678E+002  +6.3812487443E-001 -9.2869517200E+001 
2887339.174 +1.1061240714E-001 +1.7172435564E+002  +6.4808465674E-003 -3.7977888892E+001  +4.8402587416E-003 -1.7139793261E+002  +6.4585985222E-001 -1.1399422915E+002 
3012484.355 +1.2803513690E-001 +1.7834469319E+002  +2.3161878957E-003 +8.3623561802E+001  +9.9633526209E-003 -4.3624916920E+001  +4.3250929589E-001 -1.0731883118E+002 
3137629.537 +9.8105245137E-002 +1.7015792981E+002  +2.8380606732E-003 +3.0747144558E+001  +6.4941190701E-003 +1.6552802477E+001  +3.3434912435E-001 -1.2140923973E+002 
3262774.718 +1.0585596267E-001 +1.6952093774E+002  +1.1732638085E-002 +1.2930221386E+001  +2.1704602401E-002 -1.5724103654E+002  +3.9990700278E-001 +6.3903845390E+001 
3387919.900 +6.4321825889E-002 +1.7943460583E+002  +2.2196755718E-001 -1.5533373627E+002  +1.2204017144E-001 +1.5619776583E+002  +5.3054994207E+000 -9.7395257405E+001 
3513065.081 +1.5259277162E-001 +1.4774552390E+002  +4.1308102166E-003 +1.3381972220E+002  +1.1746611525E-002 +1.2179843470E+002  +1.0617672633E-001 +1.1395693163E+002 
3638210.263 +1.9315095029E-001 +1.3106257211E+002  +1.5518943341E-002 -8.4276650972E+001  +1.6776104079E-002 +8.6601917688E+001  +4.5710883443E-001 +1.3188184478E+002 
3763355.444 +1.7939993279E-001 +1.4463687107E+002  +9.3469965061E-003 +1.0469679826E+002  +2.8044623829E-003 -5.7048443427E+000  +3.0223781893E-001 +7.7491330692E+001 
3888500.626 +1.6330880188E-001 +1.5062430069E+002  +6.5233060477E-003 -2.9727438661E+001  +6.2579757911E-003 -1.6201159198E+002  +2.8322235551E-001 +1.1634497729E+002 
4013645.807 +1.6157848257E-001 +1.4294027482E+002  +1.1963617928E-002 +4.4341496261E+001  +8.0203273372E-003 +1.1244269094E+002  +2.4486779224E-001 +1.0102527151E+002 
4138790.989 +1.7072792845E-001 +1.5616563696E+002  +4.3746491077E-003 -1.6468203913E+002  +6.3514747238E-003 -1.4662294185E+002  +3.3982038032E-001 +1.4921105248E+002 
4263936.170 +1.8838331408E-001 +1.2389089953E+002  +3.8297919203E-003 -4.0030773500E+001  +5.5193395071E-003 -5.4311620736E+001  +3.6542244878E-001 +1.3410300318E+002 
4389081.352 +2.3832252333E-001 +1.3588263099E+002  +1.6540075340E-002 +7.3113924189E+001  +9.6110976616E-003 -7.8829341421E+001  +6.1088838525E-001 +1.0111540216E+002 
4514226.533 +2.1425362619E-001 +1.3780941748E+002  +5.8087309573E-002 +1.0952614670E+002  +4.0235940779E-002 -1.5312932080E+001  +3.3802529863E+000 +1.0335343481E+002 
4639371.715 +2.4638618993E-001 +1.0908911317E+002  +6.4607090455E-002 +1.2865081673E+002  +9.1498656338E-003 -1.4293422103E+002  +2.4872370233E+000 -3.1309539632E+001 
4764516.896 +3.1913384229E-001 +1.1274243338E+002  +1.3953612458E-002 -1.6333753513E+002  +4.7484824538E-002 +3.0578371108E+001  +2.0907828998E+000 +6.0735545523E+001 
4889662.078 +3.7965539620E-001 +1.3088065177E+002  +1.5317991124E-002 -1.2755869951E+002  +2.2655562417E-002 -5.7557558281E+001  +2.6855521889E+000 -1.3463087228E+002 
5014807.259 +3.9330375745E-001 +1.2620924782E+002  +2.3401546046E-002 +1.0487379169E+002  +2.7253316583E-002 -9.5500708648E+001  +2.4015742425E+000 +1.6174509386E+002 
5139952.441 +4.0502004288E-001 +1.2611046173E+002  +2.6843470498E-002 +1.5867641459E+002  +2.1646117090E-002 -1.6409924680E+002  +2.3696721080E+000 +8.9048258171E+001 
5265097.622 +4.1390107421E-001 +1.3102212520E+002  +3.1436662811E-002 +1.6102974649E+002  +7.6379107567E-002 -1.7236214462E+002  +3.1675739609E+000 +1.2292573781E+002 
5390242.804 +4.4085225932E-001 +1.2942596907E+002  +1.8320306851E-002 +9.4149589157E+001  +1.6751023476E-002 -1.3074648016E+002  +1.4399594585E+000 +3.8815412339E+001 
5515387.985 +4.2805321662E-001 +1.3129736934E+002  +3.6095982888E-002 +1.7789626966E+002  +1.6242522079E-002 -1.4807325280E+002  +2.8104754201E+000 +1.2688274887E+002 
5640533.166 +5.0271299938E-001 +1.2859695128E+002  +1.8034340842E-002 +8.2585666214E+001  +1.7833443985E-002 -7.4072809671E+001  +2.1890121741E+000 +9.7141587560E+001 
5765678.348 +5.6920441151E-001 +1.2086433865E+002  +7.3755324398E-003 +8.8557521074E+001  +1.9824584720E-002 +4.2332843855E+001  +1.7082225530E+000 +8.5118905950E+001 
5890823.529 +6.5170236041E-001 +1.2608658953E+002  +3.9039684681E-002 +9.1464412694E+000  +3.0163091239E-002 +5.9125598595E+001  +2.8027457019E+000 +2.4177704010E+001 
6015968.711 +5.9170725283E-001 +1.2335079007E+002  +3.1965948099E-002 +1.6477020380E+002  +7.4234104706E-003 -9.9813154468E+001  +1.4864444554E+000 +5.3891973229E+001 
6141113.892 +7.0374141720E-001 +1.0944337055E+002  +3.4295845045E-002 +1.6656742273E+002  +1.1883112060E-002 -9.7724343779E+001  +2.1455033485E+000 +4.9461059282E+001 
6266259.074 +9.4933184277E-001 +1.1874831340E+002  +8.7718001136E-003 -6.6001545098E+001  +1.3296641930E-002 +1.5025951322E+002  +1.9537951502E+000 +1.0807317726E+001 
6391404.255 +1.0593630210E+000 +1.0486501654E+002  +1.1406831091E-002 -1.4396413495E+002  +2.1082243278E-002 +1.2815779551E+002  +1.5068184825E+000 +2.8681877673E+001 
6516549.437 +1.2996320116E+000 +8.9547834887E+001  +1.5849630525E-002 +1.1881561809E+002  +1.1898823663E-002 +3.9295661648E+001  +1.3703728369E+000 +1.1635031915E+001 
6641694.618 +1.6415688779E+000 +5.5940895545E+001  +5.5744108669E-003 -8.3597929988E+001  +4.0308366880E-002 +7.1139798951E+001  +1.3366731835E+000 -5.5269494279E+000 
6766839.800 +2.1377188678E+000 +4.6293692674E+001  +2.7031317924E-002 +2.1845999027E+001  +1.7703212216E-002 +8.0220904259E+001  +1.4543730960E+000 +5.8889003291E+000 
6891984.981 +1.7103576047E+000 +2.4405254074E+001  +1.4921834019E-002 +7.7454723920E+001  +1.5689050144E-002 -2.8096625917E+001  +1.5136194488E+000 -1.8355498458E+001 
7017130.163 +2.2309929933E+000 +2.3057505241E+001  +2.2330165485E-002 +1.1669006493E+002  +2.1884542732E-002 +1.2654164745E+002  +1.4753184968E+000 -1.3011455083E+001 
7142275.344 +1.8300512296E+000 +1.0255029259E+001  +8.4452428691E-003 +8.5469194518E+001  +1.8836686434E-002 +5.3887223729E+001  +1.4163284834E+000 -4.9819049825E+000 
7267420.526 +1.6683883522E+000 -5.0831066178E+000  +2.1790606691E-003 +1.5200069117E+002  +8.2990857904E-003 +1.0922132184E+002  +1.2970593171E+000 -1.3966595583E+001 
7392565.707 +1.3586701442E+000 -1.0655780548E+001  +3.9121314159E-003 -1.6314003682E+002  +1.7022838475E-002 +1.7505672256E+002  +1.3563350380E+000 -7.7553119725E+000 
7517710.889 +1.2455414752E+000 +2.7235518806E+000  +6.6233604040E-003 +1.0260577533E+002  +1.1307635883E-003 +1.3744675089E+001  +1.1684083101E+000 -6.2646724797E+000 
7642856.070 +9.7944283698E-001 +2.4911998611E+000  +5.8776881123E-003 -4.2462823088E+001  +3.8724891659E-003 -1.0815389317E+002  +1.0795946214E+000 -7.4873488316E+000 
7768001.252 +9.7938509886E-001 +2.3530141908E+000  +2.1864693791E-003 +1.3633404709E+002  +5.2090250582E-003 +1.5229770496E+002  +1.0357688704E+000 -5.2943138249E+000 
7893146.433 +9.0608841593E-001 -6.8923652837E+000  +5.8157865322E-003 +2.5231425835E+001  +4.6480278397E-003 +4.0397428750E+001  +1.0057764186E+000 -2.7982499892E+000 
8018291.615 +7.9392996366E-001 +2.5913134761E+000  +8.0961287039E-003 +1.0802763970E+002  +2.4209192751E-003 +9.1211707131E+001  +8.6583411388E-001 -3.5883375654E+000 
8143436.796 +7.3724474505E-001 +1.2042855145E+001  +4.4501926323E-003 +6.0055764682E+001  +6.0323193594E-003 -7.7126913806E+000  +7.4780555865E-001 -5.7797704093E-002 
8268581.977 +7.4299330269E-001 +1.4920183897E+001  +4.8240100666E-003 +4.8923416150E+001  +2.4984730049E-003 -9.8212793408E+001  +7.5958744512E-001 +4.1728383109E+000 
8393727.159 +7.0383723205E-001 +7.2402770998E+000  +6.1070639252E-003 +1.1230791797E+002  +3.5349137570E-003 +1.1366520778E+002  +7.5600358394E-001 +5.2793409486E-001 
8518872.340 +7.7012750361E-001 +6.7353763932E+000  +2.5987103131E-003 +7.0752314643E+001  +2.9675726003E-003 +9.2773160562E+001  +6.7835033792E-001 +5.8299236746E-001 
8644017.522 +6.6815019094E-001 +3.5256700302E+000  +5.0310496461E-003 +5.0179407748E+001  +3.3674890365E-003 +1.1094540222E+002  +6.5612111310E-001 -1.2212910846E+000 
8769162.703 +6.9101965429E-001 +1.2511924104E+001  +5.5234239098E-003 +5.4457908908E+001  +1.9688815119E-003 +1.6560944165E+002  +6.6923550828E-001 -9.9460903101E-001 
8894307.885 +5.9652591787E-001 +6.9796170449E+000  +6.3675722559E-003 +4.6350677859E+001  +2.8816586684E-003 +3.4461826494E+001  +6.8223897835E-001 -5.7316028965E-001 
9019453.066 +5.4927123975E-001 +6.8568785870E+000  +8.5579272969E-003 +7.7210311218E+001  +2.3535869404E-003 +1.2346005847E+002  +5.8539199560E-001 -2.7841911774E-001 
9144598.248 +5.6698421337E-001 -9.3686079943E-001  +4.8610823334E-003 +7.0506069638E+001  +2.0499855818E-003 +1.4582530464E+002  +6.0397245091E-001 -5.1927564513E+000 
9269743.429 +5.5816472851E-001 +9.4954174155E+000  +1.0205327180E-003 +8.4498844434E+001  +5.3760339955E-003 +9.5161731922E+001  +5.8610038978E-001 -3.7195271663E+000 
9394888.611 +5.7790585942E-001 +6.5155056388E+000  +2.9819514777E-003 +8.6428926440E+001  +1.6880097915E-003 +1.1879838993E+002  +5.9347589699E-001 -1.2656885535E+000 
9520033.792 +5.6143144629E-001 +3.2013946473E+000  +1.5788235004E-003 +1.0237049869E+002  +1.6739860236E-003 +4.4357249787E+001  +5.9944920264E-001 -1.0126542517E+000 
9645178.974 +5.1940563705E-001 -2.9474131591E+000  +3.8941187560E-003 +9.0304184300E+001  +5.3353598230E-003 +1.0801003397E+002  +5.4374079480E-001 -1.0262230580E+001 
9770324.155 +5.1394714739E-001 -6.1659953793E-001  +4.1314184229E-003 +4.9261602891E+001  +1.4517226394E-003 +5.6578405908E+001  +5.7663015279E-001 -2.8354086400E+000 
9895469.337 +5.3682495282E-001 -1.5140080854E+000  +2.0507361226E-003 +1.1318938353E+002  +4.6997197140E-003 +9.2265165242E+001  +5.6361231522E-001 -7.8546612700E+000 
10020614.518 +5.8362661827E-001 +2.6979999114E+000  +6.8490887087E-003 +8.3248483924E+001  +7.6643347613E-003 +1.0533314292E+002  +5.6745078774E-001 -6.4299224260E+000 
10145759.700 +5.7239031832E-001 +5.1059631895E+000  +7.7871916972E-003 +1.0012276636E+002  +7.5113844996E-003 +9.0546362481E+001  +5.7028488526E-001 -2.8208933850E+000 
10270904.881 +5.5410794664E-001 +4.8564536174E+000  +4.7710189292E-003 +1.1890866442E+002  +3.2923232357E-003 +1.2730022477E+002  +5.5595429347E-001 -3.1543039903E+000 
10396050.063 +5.4660153993E-001 +2.6143889921E+000  +6.2385699455E-003 +7.4904434116E+001  +6.5228946978E-003 +1.0513992230E+002  +6.1742918230E-001 +1.3340546068E+000 
10521195.244 +5.5196920595E-001 +8.6178965671E+000  +5.4952790027E-003 +9.5904656662E+001  +6.3954506986E-003 +8.9074479105E+001  +6.1818598632E-001 -3.9584057222E+000 
10646340.426 +5.8271045640E-001 +6.8762059531E+000  +7.0371142438E-003 +8.1611418957E+001  +2.7335023702E-003 +1.1097426521E+002  +5.9738917314E-001 +1.0356308488E+000 
10771485.607 +5.5007241451E-001 +8.5659258539E+000  +3.8664737014E-003 +1.3860170587E+002  +2.8407832388E-003 +8.4101197003E+001  +5.7420732803E-001 -1.4559991287E+000 
10896630.788 +6.0216183983E-001 +4.8613542878E+000  +5.1732909080E-003 +8.3890800384E+001  +3.9899580016E-003 +1.1703911186E+002  +6.0816676682E-001 -1.4794326278E+000 
11021775.970 +5.8979573858E-001 +9.8063170609E+000  +6.6888459737E-003 +9.2629937313E+001  +5.5038353765E-003 +1.1499374859E+002  +6.0591940170E-001 +2.2920077218E+000 
11146921.151 +6.2195482580E-001 +9.0290288059E+000  +2.8156484655E-003 +7.6174152464E+001  +3.4634471590E-003 +5.7761846154E+001  +6.2248863483E-001 -2.9357518382E+000 
11272066.333 +6.2375005359E-001 +6.4522437168E+000  +4.9001841599E-003 +8.7963362128E+001  +4.2607779422E-003 +1.0316054238E+002  +6.3379591244E-001 +2.0637359484E+000 
11397211.514 +5.9435650105E-001 +9.7452322566E+000  +4.8535416987E-003 +1.0731396408E+002  +5.7694329166E-003 +1.1917266517E+002  +6.3164196243E-001 +1.5099317911E+000 
11522356.696 +6.0642443926E-001 +5.7398135521E+000  +3.7421682946E-005 +4.1968865040E+001  +4.2971562561E-003 +9.6948361190E+001  +6.6913646672E-001 +3.1255422483E-001 
11647501.877 +6.5914576057E-001 +7.3663446210E+000  +5.4949181213E-003 +1.1130909337E+002  +6.3688026613E-003 +8.6056408610E+001  +6.7405200992E-001 +5.9830485912E-002 
11772647.059 +6.5916624418E-001 +5.9293141307E+000  +5.2028073251E-003 +1.0179077273E+002  +6.0570185923E-003 +1.1805321819E+002  +6.7467895619E-001 +1.2800147140E+000 
11897792.240 +6.4743694116E-001 +2.7100613234E+000  +7.7433341693E-003 +8.6808067116E+001  +5.0851678879E-003 +7.4414961347E+001  +6.8296884172E-001 -2.7372792513E+000 
12022937.422 +6.8308496790E-001 +2.9570066813E+000  +6.1132863570E-003 +8.2855725869E+001  +6.3488098600E-003 +9.8599051385E+001  +6.9970906171E-001 +1.6296409310E+000 
12148082.603 +6.8195107343E-001 +3.0054145870E+000  +6.8298444106E-003 +9.3802319994E+001  +7.0876397861E-003 +1.0030951811E+002  +6.9138754704E-001 -1.4118528418E-001 
12273227.785 +6.8594642064E-001 +1.7201890761E+000  +6.5987567999E-003 +7.0614510326E+001  +5.5363779329E-003 +9.1237065830E+001  +7.0946431252E-001 +3.9927651150E-001 
12398372.966 +6.9736781241E-001 +4.8152071659E+000  +3.3064272606E-003 +8.3493805286E+001  +5.7065244115E-003 +7.7712274539E+001  +6.9070382433E-001 +1.0338025163E+000 
12523518.148 +7.2779536160E-001 +2.3780950096E+000  +5.6524765527E-003 +9.5942578136E+001  +5.4612795684E-003 +9.8108038037E+001  +7.3462278463E-001 -3.3733823408E-002 
12648663.329 +7.6061241857E-001 +2.3701475794E+000  +6.5779174335E-003 +9.9481451048E+001  +5.5933920003E-003 +1.1158061784E+002  +7.5316178917E-001 +5.1730538795E-001 
12773808.511 +7.5551139947E-001 +3.5771774503E+000  +5.2875254149E-003 +8.7115116540E+001  +6.7702283355E-003 +8.6910923832E+001  +7.9690222708E-001 -2.5632722166E-001 
12898953.692 +7.8703930360E-001 +7.1195730287E-001  +6.0804579859E-003 +8.8139154970E+001  +7.6690687867E-003 +1.0237672828E+002  +8.0561154068E-001 -2.6138064545E+000 
13024098.874 +7.9677280186E-001 +6.0628844644E-001  +5.0975089514E-003 +8.7042414299E+001  +4.8862904587E-003 +8.4054107150E+001  +7.8213672695E-001 -1.3779764886E+000 
13149244.055 +7.8905034698E-001 +3.4937131625E-001  +6.4785153579E-003 +9.2540475728E+001  +5.0890714673E-003 +9.0743350478E+001  +8.3408157678E-001 -2.1504149475E+000 
13274389.237 +8.1528122612E-001 -1.1174300214E+000  +7.1124147042E-003 +8.6174537555E+001  +6.2100749575E-003 +7.9242739390E+001  +8.2326791408E-001 -2.0349533493E+000 
13399534.418 +8.3824291495E-001 -1.1690810345E+000  +7.2048749964E-003 +8.1851189565E+001  +6.4412265376E-003 +8.8211616447E+001  +8.3034943164E-001 -2.3568851216E+000 
13524679.599 +8.5439631270E-001 -2.5298167442E+000  +6.1190022097E-003 +1.0169809523E+002  +6.7528331814E-003 +8.7757901046E+001  +8.5673881300E-001 -2.9969881348E+000 
13649824.781 +8.5754479537E-001 -2.6108307865E+000  +6.5513798229E-003 +8.5816074591E+001  +7.8370728368E-003 +8.3124813339E+001  +8.9120544104E-001 -2.7700002679E+000 
13774969.962 +8.9149366276E-001 -1.5988084818E+000  +6.8088414821E-003 +9.1950604030E+001  +5.2788555400E-003 +8.7037608305E+001  +9.0791639011E-001 -3.1686903781E+000 
13900115.144 +8.8870945934E-001 -2.9911633201E+000  +7.4744634372E-003 +9.1376505091E+001  +7.9488126285E-003 +9.6372474965E+001  +9.0938187621E-001 -2.7622706061E+000 
14025260.325 +9.1832246143E-001 -3.4953874079E+000  +6.7770527413E-003 +8.5273132837E+001  +6.9082943935E-003 +8.6936920802E+001  +9.5594521971E-001 -2.8660744017E+000 
14150405.507 +9.4640977413E-001 -3.9775329163E+000  +6.6703563203E-003 +1.0610929850E+002  +7.0873354466E-003 +8.7248235578E+001  +9.5310810683E-001 -3.7527760501E+000 
14275550.688 +9.5622612149E-001 -3.5116870405E+000  +7.9377708135E-003 +9.7350609453E+001  +7.5811262184E-003 +8.8982010625E+001  +9.9074900424E-001 -3.0497850577E+000 
14400695.870 +9.7652205835E-001 -4.3118607089E+000  +7.9747041257E-003 +9.3985572912E+001  +7.9809759389E-003 +9.1066546408E+001  +9.8500456219E-001 -5.2167810667E+000 
