!  2-Port S-parameters saved by WinCal
! VAR MeasName=S-Parameters (CALIBRATED_DATA) read from VNA (P5004A)
! VAR MeasDate=27/08/2024 14:27:45
! VAR NAME=S2_r2c8_RESET3_9k-100M_2
! VAR FILENAME=S2_r2c8_RESET3_9k-100M_2.S2P
! VAR DATE=27/08/2024 14:27:45
! VAR PHYS_PORTS=1,2
! VAR ObjTypeName=DATASET
! VAR IndexType=Frequency
!
# Hz S MA R 50
9000.000 +6.3757467049E-002 -1.3310683242E+002  +1.9024723675E-002 -1.7620785102E+002  +2.4792832053E-002 -3.3352728492E+001  +3.0898322008E-001 -1.0376417587E+002 
134145.181 +1.1134640171E-001 +1.6960781301E+002  +7.0957035646E-004 -1.6177870511E+002  +3.5009094977E-004 -4.0576279774E+001  +2.4096168631E-001 -1.7114396391E+002 
259290.363 +1.1189669660E-001 +1.6941123447E+002  +1.1467187938E-003 -1.4522080395E+002  +9.4204588646E-004 +1.7615873276E+001  +2.4421689747E-001 -1.6731269117E+002 
384435.544 +1.1377492930E-001 +1.6969791914E+002  +4.7721686603E-004 +4.5353585110E+000  +8.5244421615E-004 -1.6628117447E+002  +2.4319691293E-001 -1.6935315351E+002 
509580.726 +1.1568648754E-001 +1.7079487718E+002  +6.5310682314E-004 -5.8454528446E+001  +1.1682414562E-003 -5.4755291741E+001  +2.3589546706E-001 -1.6328111338E+002 
634725.907 +1.1461275054E-001 +1.7131287008E+002  +4.9342020251E-004 +5.4687834649E+000  +1.4192161958E-003 -6.3097696478E+001  +2.4398983914E-001 -1.6775247765E+002 
759871.089 +1.1769397067E-001 +1.7008303036E+002  +5.3641033495E-005 -1.6065382548E+002  +7.8499282242E-004 +1.6725248914E+002  +2.5386731202E-001 -1.6605726760E+002 
885016.270 +1.1561705781E-001 +1.6981545127E+002  +5.3582289959E-004 -9.4459295287E+000  +1.1249801157E-004 +8.6847236739E+001  +2.4564293699E-001 -1.6535891170E+002 
1010161.452 +1.1663478377E-001 +1.7326676901E+002  +2.9186089367E-003 -9.3276207750E+000  +5.6737513280E-003 +5.6842933716E+001  +1.4731340090E-001 -1.6708704524E+002 
1135306.633 +1.1491640429E-001 +1.7118094998E+002  +3.4610839802E-003 +9.0199933012E+001  +4.6649390452E-003 +2.6396104991E+001  +1.0741435910E-001 -1.3843661891E+002 
1260451.815 +1.2126231059E-001 +1.6998989664E+002  +2.8374982848E-004 -5.2154972080E+001  +8.4375836410E-004 +1.5433665017E+002  +2.5561417442E-001 -1.5454613882E+002 
1385596.996 +1.2670299359E-001 +1.7225831633E+002  +1.2480632391E-003 -8.3890555857E+001  +5.9876002879E-004 -1.1545409517E+002  +2.7481069679E-001 -1.5689828176E+002 
1510742.178 +1.2223777130E-001 +1.7221561941E+002  +4.6392125599E-004 -3.9716323650E+000  +8.8704766477E-004 +1.6330230895E+002  +2.6030515207E-001 -1.5940317952E+002 
1635887.359 +1.2990692250E-001 +1.7119728835E+002  +1.3734648257E-003 +1.5550245330E+002  +1.8331456478E-003 +2.4874280705E+001  +2.5498981152E-001 -1.5606468833E+002 
1761032.541 +1.2731827834E-001 +1.6817173114E+002  +1.0896230495E-003 +1.0804882510E+002  +1.2465486070E-003 -2.2485460286E+001  +2.0805917500E-001 -1.5800408536E+002 
1886177.722 +1.3113546537E-001 +1.6752985613E+002  +1.2250296089E-003 -1.0753366910E+002  +2.3748850127E-003 +9.2991147539E+001  +1.6966163208E-001 -1.7737169898E+002 
2011322.904 +1.3145202041E-001 +1.6664751480E+002  +1.1192408638E-003 +9.7519513819E+001  +1.1894835935E-003 -1.2697307466E+002  +1.8207675020E-001 -1.6727857487E+002 
2136468.085 +1.3090249042E-001 +1.6673851605E+002  +3.2492756530E-003 +6.0475244112E+001  +1.2348116592E-002 +5.3475369410E+001  +1.0331679732E-001 +1.2116522949E+002 
2261613.267 +1.2781816440E-001 +1.6481239446E+002  +2.8923596164E-003 +2.2068942152E+001  +1.7350728587E-003 -1.3215880635E+002  +1.3723405213E-001 +1.6326322410E+002 
2386758.448 +1.2628616372E-001 +1.6387236725E+002  +4.2740549964E-003 -7.0108254714E+001  +2.7269353257E-003 -3.7159917204E+001  +2.4569703560E-001 +1.7083506039E+002 
2511903.630 +1.2585741559E-001 +1.6050166200E+002  +5.3746780151E-003 -1.1815542331E+002  +1.7458077746E-003 +1.2654818872E+002  +2.8399607462E-001 +1.6686419681E+002 
2637048.811 +1.1465503416E-001 +1.6881534420E+002  +9.4150706995E-003 +1.1877795668E+001  +9.9361604204E-003 -1.1081561008E+002  +4.3004543310E-001 +1.6151776262E+002 
2762193.992 +1.1716169334E-001 +1.5710205166E+002  +1.0072811514E-002 -7.7303146281E+001  +4.3068264765E-003 -1.1190577141E+002  +8.2353839405E-001 -1.6435329130E+002 
2887339.174 +1.0818514287E-001 -1.7718374982E+002  +1.4160411886E-002 -7.6725425558E+001  +2.0256900581E-002 +1.5443323417E+002  +7.0026938595E-001 -9.8789028989E+001 
3012484.355 +9.2426441092E-002 -1.6788735803E+002  +3.6378457215E-003 +1.7822152940E+002  +1.1413473484E-002 -1.4551000129E+002  +2.4322023568E-001 -8.5644004952E+001 
3137629.537 +1.1368811597E-001 +1.6579717733E+002  +4.7356730461E-003 -1.2729879264E+002  +2.2027473902E-003 +1.1381474124E+002  +2.1742492732E-001 -1.0600434255E+002 
3262774.718 +8.4539750075E-002 +1.5712361603E+002  +7.3911466664E-003 -7.2452033247E+001  +2.8536659068E-002 +4.8192023807E+001  +4.0675702045E-001 -1.1863047184E+001 
3387919.900 +1.3401772164E-001 +1.6033510222E+002  +3.3038048532E-003 +1.6219408052E+001  +6.6310317313E-003 +1.5069190647E+002  +1.0744835303E-001 +3.6386994321E-001 
3513065.081 +1.4078431846E-001 +1.5968238656E+002  +7.9733293187E-003 -8.5828919575E+001  +2.8704714596E-003 -3.1239994521E+001  +1.4200822619E-001 +1.2132650054E+002 
3638210.263 +1.5274280203E-001 +1.4571803101E+002  +1.4602601430E-002 +1.0245695825E+002  +5.3674898905E-003 +1.6134844924E+002  +5.9500785139E-001 +1.4888379621E+002 
3763355.444 +1.9086079373E-001 +1.4617768497E+002  +7.1928995251E-003 -9.3612489110E+000  +8.0285124996E-003 +1.4589126104E+002  +5.2709633222E-001 +1.4212390144E+002 
3888500.626 +1.5990156900E-001 +1.4676665539E+002  +1.5076636424E-002 -1.0271618765E+002  +7.5875945358E-003 +4.2456987110E+001  +2.5333791024E-001 +9.9391448191E+001 
4013645.807 +1.8878194147E-001 +1.4488312463E+002  +1.4464336529E-003 -7.5575072516E+001  +1.1114100799E-002 -1.4821389664E+002  +3.2496911929E-001 +1.3073773819E+002 
4138790.989 +2.1038222069E-001 +1.3763448179E+002  +8.8433418583E-003 +1.6485973625E+002  +6.1315417878E-003 +1.5556732488E+002  +2.5044196613E-001 +1.3191798954E+002 
4263936.170 +1.8026470524E-001 +1.4556593137E+002  +1.3461639636E-002 +5.5493819659E+001  +5.7260841550E-003 -7.3514149646E+001  +3.6066331055E-001 +1.3404366473E+002 
4389081.352 +2.2504952427E-001 +1.3435677268E+002  +1.9608152431E-002 -1.3133915249E+002  +1.1454496401E-002 -5.8374410924E+000  +9.5372271492E-001 +1.2136184764E+002 
4514226.533 +2.2061501945E-001 +1.3947136326E+002  +2.8995226591E-002 +5.3840864290E+001  +2.8103704739E-002 -6.8818216875E+001  +1.4990388817E+000 +1.2388738140E+002 
4639371.715 +2.6301948534E-001 +1.2881610185E+002  +7.7468274241E-003 -8.9516380513E+000  +2.5817106579E-002 +4.3705148672E+001  +1.8142487686E+000 +1.0456033719E+002 
4764516.896 +3.5321942925E-001 +1.0358378876E+002  +1.0295125886E-001 +8.5860400850E+001  +1.4022763942E-001 +3.2356059570E+001  +2.7968915396E+000 +4.9554594562E+001 
4889662.078 +3.6457718401E-001 +1.3526175153E+002  +2.6128530679E-002 +8.1183622987E+001  +8.0028150255E-003 +1.0217185340E+002  +2.2579166610E+000 -6.7634182971E+001 
5014807.259 +3.3921240981E-001 +1.1369139040E+002  +2.1396840355E-002 -3.1283868279E+001  +2.5962236226E-002 +1.2963929743E+002  +5.0579003085E+000 -1.0920065000E+002 
5139952.441 +4.3838181153E-001 +1.2954897369E+002  +1.6065329008E-002 +1.0174603585E+001  +4.0768562176E-002 -8.0340096846E+001  +3.1466907617E+000 +1.4642871063E+002 
5265097.622 +3.7771136272E-001 +1.3336452180E+002  +3.2270805196E-003 +1.6196476310E+002  +1.7140458115E-002 -1.3014187517E+002  +1.4172284146E+000 +6.6628516361E+001 
5390242.804 +3.8574914264E-001 +1.3271504784E+002  +1.2923863721E-002 -1.6040395781E+002  +8.8302447886E-003 +9.8257062456E+001  +2.1761173420E+000 +1.2989543648E+002 
5515387.985 +4.1481686645E-001 +1.3632015146E+002  +1.5613892704E-003 +2.2170198627E+001  +7.0715609731E-003 -4.3767495751E+000  +1.8310085445E+000 +1.2003789283E+002 
5640533.166 +4.5910478651E-001 +1.2510528214E+002  +1.5195714725E-002 -1.7290494341E+001  +2.2619599289E-002 -1.2026028027E+002  +2.0474340899E+000 +9.8618751763E+001 
5765678.348 +4.4350877847E-001 +1.2630787452E+002  +2.2747264816E-002 -1.2461283037E+002  +2.4838145619E-002 -1.2844255319E+002  +2.1542219383E+000 +7.8523747752E+001 
5890823.529 +6.7482297103E-001 +1.2731598901E+002  +3.5782537321E-002 -1.2094570328E+002  +6.8636718810E-003 +1.0100030024E+002  +2.3127070917E+000 +4.4953092145E+001 
6015968.711 +5.3092425250E-001 +1.1928926960E+002  +2.1044361688E-002 -1.2167813207E+002  +7.2856277466E-003 +1.3467265821E+002  +1.8224898454E+000 +6.0205536153E+001 
6141113.892 +7.9219010831E-001 +1.1194245514E+002  +1.3428813063E-002 +2.5838308059E+001  +3.8413192072E-002 +7.0548854538E+001  +1.9852781010E+000 +5.0809819138E+001 
6266259.074 +8.1002203955E-001 +1.0410852907E+002  +1.4890240032E-002 +7.7099557588E+001  +4.4122326393E-002 +1.4846527585E+002  +2.4969115600E+000 +5.6375266105E+001 
6391404.255 +1.0219607916E+000 +9.4849295786E+001  +3.9643062233E-002 +9.3106495869E+001  +8.1188485625E-003 -4.9007087058E+000  +1.6752951339E+000 +1.8324608499E+001 
6516549.437 +1.3879207055E+000 +1.0622293494E+002  +1.5177366881E-002 -7.1677147284E+001  +1.3528920454E-002 -1.3781001743E+002  +1.4793604852E+000 +5.4467577240E+000 
6641694.618 +1.2416094566E+000 +6.5334864931E+001  +1.3391846909E-002 -1.6650900588E+002  +6.0744120813E-003 -1.3676923937E+002  +1.4545270696E+000 -4.5050480121E+000 
6766839.800 +2.2590159300E+000 +3.6706878680E+001  +1.0874091190E-003 -1.5607241659E+002  +5.5952631397E-002 +1.2245678851E+002  +1.2520680434E+000 -3.5977857164E+000 
6891984.981 +1.5840715285E+000 +2.6673363439E+001  +1.3879719530E-002 +9.5637232656E+001  +5.8029252317E-003 -1.1626667367E+002  +1.3277162303E+000 -1.1708446481E+001 
7017130.163 +1.6079634333E+000 +2.9547443799E+001  +2.5811978026E-002 +5.3333342229E+001  +1.8740571722E-002 +1.1040875706E+002  +1.3423637377E+000 -1.1480921237E+001 
7142275.344 +2.0829761405E+000 +2.3188595138E+000  +9.8562677174E-003 +3.8940828740E+001  +1.6629432095E-002 +1.7321895576E+001  +1.3996442305E+000 -1.3089292451E+001 
7267420.526 +1.6329664866E+000 -1.2804796394E+000  +7.1727409526E-003 +7.3790058231E+001  +2.2665121343E-002 +7.0373637977E+001  +1.3297648380E+000 -1.1572594860E+001 
7392565.707 +1.4361899722E+000 -8.1194664440E-001  +6.9397280854E-003 -1.0214264327E+001  +9.4457524638E-003 +8.9952539558E+001  +1.3338604697E+000 -3.9617336084E+000 
7517710.889 +1.1198193048E+000 -6.5557942846E+000  +1.1187752428E-002 +6.5610999325E+000  +2.0549967276E-003 +5.0614880148E+000  +1.2477274321E+000 -4.5716421180E+000 
7642856.070 +9.7745337655E-001 +3.6372155066E-001  +5.1187763752E-003 +1.2668033342E+002  +4.5150277424E-003 +1.2145349700E+002  +1.0838657222E+000 -4.0033149379E+000 
7768001.252 +9.8753269503E-001 +5.7321786519E+000  +9.8547182801E-003 +7.7375542714E+001  +7.7885702838E-003 +9.2612975396E+001  +9.2643205597E-001 -2.3905538029E+000 
7893146.433 +8.9553462473E-001 +3.5100406903E+000  +1.2659184850E-003 +1.4740100128E+002  +7.1394312311E-003 +1.7833658687E+002  +9.9649688805E-001 -2.9698237822E+000 
8018291.615 +8.1098600987E-001 +1.4924191039E+000  +1.0586416085E-002 +6.1303509988E+001  +6.2789991027E-003 +2.6498249235E+000  +9.5973146610E-001 -2.0471056781E+000 
8143436.796 +7.8045146408E-001 +8.6776098344E+000  +3.3235378660E-003 +1.3108502872E+002  +3.2490931468E-003 +8.5939003954E+000  +8.2466450940E-001 +2.4786616230E+000 
8268581.977 +6.9451584162E-001 +5.8793604529E+000  +1.0158235908E-003 +1.3722617926E+002  +7.8698475519E-003 +5.0284460636E+001  +7.4723782329E-001 +5.3556552583E+000 
8393727.159 +6.7296972036E-001 +3.7943072286E+000  +8.9516490139E-003 +8.2734502818E+001  +4.7748129220E-004 +1.5997811483E+002  +7.7503101245E-001 -3.9446859049E+000 
8518872.340 +7.0452238391E-001 +3.2460541765E+000  +3.0305827101E-003 +8.7615062023E+001  +2.8043387381E-003 +1.2285966348E+002  +7.1696584648E-001 -6.0332503868E-001 
8644017.522 +6.8611287145E-001 +5.7600832591E+000  +6.0457222547E-003 +5.6017775483E+001  +7.0194082987E-003 +6.3592855374E+001  +7.4788562337E-001 -9.9911285941E-001 
8769162.703 +7.0748547444E-001 +7.8347739565E+000  +6.5370311620E-004 +3.3782124802E+001  +1.8772297534E-003 +2.3510594503E+001  +6.7732794864E-001 +1.8790087914E+000 
8894307.885 +6.7643382955E-001 +5.6254372311E+000  +5.3748796502E-003 +6.3197329197E+001  +3.5830388150E-003 +1.0031655807E+002  +6.5754462921E-001 +3.4091360388E+000 
9019453.066 +6.3705039574E-001 +1.1504830900E+001  +5.3818828502E-003 +4.5390392495E+001  +6.1518724705E-003 +1.1221588576E+002  +6.0911221910E-001 +6.8346372628E+000 
9144598.248 +6.0613478522E-001 +3.3176421182E+000  +3.3181536430E-003 +6.5099789595E+001  +4.6665675560E-003 +1.1154556321E+002  +5.9669820081E-001 -4.4667767639E+000 
9269743.429 +5.5568197799E-001 +6.2780517505E+000  +8.8926717548E-003 +8.5152412640E+001  +6.0067945185E-003 +7.2346588286E+001  +5.6826342167E-001 -4.2341386053E+000 
9394888.611 +5.4054171812E-001 +2.6513699437E+000  +4.3323432401E-003 +1.0990880425E+002  +5.8676118305E-003 +9.8560229621E+001  +5.7567731155E-001 -4.8695913369E+000 
9520033.792 +5.5300138550E-001 +3.7548275850E+000  +1.1303957661E-003 +1.0958562495E+002  +9.0322493326E-004 +5.1708725467E+001  +6.0758514501E-001 -5.5801101957E+000 
9645178.974 +5.5080919492E-001 -1.6134650844E+000  +3.7107171036E-003 +9.9259710089E+001  +2.7492528538E-003 +2.2090192860E+001  +5.6652228944E-001 -3.6868488153E+000 
9770324.155 +5.6341019474E-001 -2.1171857340E-001  +5.8804123375E-003 +4.6334405209E+001  +5.0213682864E-003 +1.1736853513E+002  +5.8516198406E-001 -1.0773120823E+001 
9895469.337 +5.4922281204E-001 -1.8226202365E+000  +4.3941593474E-003 +9.2475379369E+001  +6.2647859712E-003 +7.6096953368E+001  +6.2244168693E-001 -4.2561963350E+000 
10020614.518 +5.5850170737E-001 +2.2052870135E+000  +4.1896691918E-003 +1.0909410026E+002  +5.8370960396E-003 +1.0300788779E+002  +5.9296588505E-001 -7.2703913618E+000 
10145759.700 +5.4308084240E-001 +9.5082982938E-001  +6.3917952618E-003 +1.1515529460E+002  +2.9412331299E-003 +9.1039279734E+001  +6.1625825040E-001 -4.2780370817E+000 
10270904.881 +5.2887897487E-001 +4.4470947204E+000  +7.1187820645E-003 +7.0322193930E+001  +4.9054776001E-003 +1.1695628105E+002  +6.0017174860E-001 -5.3077037025E+000 
10396050.063 +5.7277525806E-001 +5.5551916464E+000  +6.3664309591E-003 +6.9729084115E+001  +4.3604255136E-003 +7.9431643857E+001  +5.7803806497E-001 -2.4401272824E+000 
10521195.244 +5.7715057859E-001 +4.0351898466E+000  +4.4701842766E-003 +1.1783272655E+002  +1.9002295276E-003 +1.2499263587E+002  +5.4343475238E-001 -9.7284498834E-001 
10646340.426 +5.8178969387E-001 +4.8552290969E+000  +5.9406616511E-003 +9.6502097253E+001  +6.5668784925E-003 +9.0693895589E+001  +5.9697957231E-001 -2.4774122977E+000 
10771485.607 +5.7139493422E-001 +6.8756843943E+000  +4.8862040575E-003 +5.0696277276E+001  +5.8133153191E-003 +1.1735791339E+002  +6.2908192433E-001 -1.2583589113E+000 
10896630.788 +5.7820462876E-001 +8.8172959534E+000  +6.0914897687E-003 +8.1949094676E+001  +4.0348483289E-003 +5.8374988277E+001  +5.9648865036E-001 -1.3483395572E+000 
11021775.970 +5.4975276919E-001 +5.4925164846E+000  +4.6381181803E-003 +8.5631565192E+001  +3.7243499565E-003 +4.5833630289E+001  +6.4027831614E-001 +1.6196376657E+000 
11146921.151 +5.8475961800E-001 +6.8660982684E+000  +5.1518398327E-003 +1.1611913089E+002  +3.3798450517E-003 +9.1975077922E+001  +6.2143005371E-001 +3.5154099765E-001 
11272066.333 +5.9003211280E-001 +6.6545433793E+000  +6.1375760129E-003 +1.0946346764E+002  +3.7311944922E-003 +1.1985020091E+002  +6.3926038407E-001 +3.0256826211E-001 
11397211.514 +6.2320322139E-001 +4.5163060246E+000  +5.2801634176E-003 +8.2624742993E+001  +2.7144164578E-003 +1.2472062286E+002  +6.2162389490E-001 +1.8791050634E+000 
11522356.696 +6.3523521452E-001 +5.9848920773E+000  +5.8790772737E-003 +7.3680588839E+001  +2.5249308390E-003 +9.8709090357E+001  +6.2400149588E-001 -8.7861192972E-001 
11647501.877 +6.1875432786E-001 +5.4297629440E+000  +4.0348418853E-003 +8.1535321077E+001  +4.4666103623E-003 +1.0241228485E+002  +6.3951735057E-001 +1.5462196572E+000 
11772647.059 +6.6464597746E-001 +4.7214558633E+000  +3.2231197475E-003 +9.4688803253E+001  +5.3437774645E-003 +1.0296601841E+002  +7.0197235373E-001 -1.1391950412E+000 
11897792.240 +6.4350933576E-001 +3.2249212689E+000  +5.1799250236E-003 +8.6738613811E+001  +3.7345019188E-003 +9.4618501978E+001  +6.9921408925E-001 -2.3156252868E-001 
12022937.422 +6.6024734495E-001 +4.9152818912E+000  +6.0146464205E-003 +1.0001899770E+002  +4.7842594397E-003 +1.0141966583E+002  +6.7365268038E-001 +1.3503075439E+000 
12148082.603 +6.5466905874E-001 +4.8691033151E+000  +3.8966908393E-003 +8.8821908724E+001  +6.0546805808E-003 +1.0192114474E+002  +7.0670957897E-001 -5.8856074760E-002 
12273227.785 +7.0264393760E-001 +2.4820134024E+000  +6.5768254777E-003 +8.7917268873E+001  +6.0795270403E-003 +8.9745389724E+001  +7.0689094884E-001 -2.5565519576E+000 
12398372.966 +7.1205868404E-001 +4.1791314260E+000  +3.2893438710E-003 +8.1014118096E+001  +6.1521415470E-003 +1.0141270909E+002  +7.2666669718E-001 +8.4318670453E-001 
12523518.148 +7.5760148967E-001 +3.0693626466E+000  +4.7205026732E-003 +1.0400469681E+002  +5.6686715274E-003 +1.0298250698E+002  +7.1896100029E-001 +4.0391981203E-002 
12648663.329 +7.4421582451E-001 +2.2583400729E+000  +5.9757948355E-003 +9.5300632164E+001  +5.7853412284E-003 +9.7953404139E+001  +7.8419010757E-001 -5.8800235123E-001 
12773808.511 +7.5530246131E-001 +1.1068714873E+000  +5.5029170342E-003 +9.8737030761E+001  +5.2523656436E-003 +9.9135102262E+001  +7.8059818632E-001 -7.8155377986E-001 
12898953.692 +7.7201520639E-001 +2.1665548588E+000  +4.9132355020E-003 +8.6734113010E+001  +6.6872983375E-003 +9.1632358099E+001  +7.7756574905E-001 +1.0408575405E-001 
13024098.874 +7.8447745318E-001 +1.9321310941E+000  +6.8501413908E-003 +9.6633472077E+001  +4.8013416943E-003 +1.0101168049E+002  +7.7016577864E-001 -2.0988671017E+000 
13149244.055 +7.6505797693E-001 +9.3387506472E-001  +6.0633558683E-003 +7.7461331873E+001  +6.4979758502E-003 +9.9799092132E+001  +8.2559726908E-001 -7.6750657298E-001 
13274389.237 +8.0270893614E-001 -9.3943685198E-001  +6.4447113919E-003 +8.9281124651E+001  +7.0873970641E-003 +9.5102923001E+001  +8.2525238660E-001 -3.3250854605E+000 
13399534.418 +8.2145331040E-001 -9.9919044212E-001  +6.9152722369E-003 +7.9339168131E+001  +6.1927162324E-003 +8.7882516794E+001  +8.5855892613E-001 -2.7040549767E+000 
13524679.599 +8.5794421171E-001 -2.6209599254E+000  +8.4401784164E-003 +9.3420605894E+001  +4.7002672384E-003 +8.6725862776E+001  +8.6468630880E-001 -2.5669669806E+000 
13649824.781 +8.7203998508E-001 -2.0586959813E+000  +6.2963667752E-003 +9.5728826127E+001  +8.2831664400E-003 +1.0470114785E+002  +9.1110366365E-001 -1.0078864378E+000 
13774969.962 +8.8322042822E-001 -2.8682901974E+000  +5.8511249770E-003 +8.1189379801E+001  +8.3049820553E-003 +8.8637951167E+001  +8.9338519154E-001 -3.0806556263E+000 
13900115.144 +8.8948650323E-001 -3.2245668854E+000  +6.7982444140E-003 +9.2162564293E+001  +7.8386397932E-003 +9.1722312588E+001  +9.1465049338E-001 -2.8696614246E+000 
14025260.325 +9.2053737399E-001 -3.9093833376E+000  +6.5398792675E-003 +8.8414364058E+001  +7.6191613603E-003 +9.4117470307E+001  +9.2419245214E-001 -3.6479426814E+000 
14150405.507 +9.4809648748E-001 -4.3909008365E+000  +7.3069678784E-003 +8.5309757021E+001  +6.8938374330E-003 +9.2501920004E+001  +9.5683961339E-001 -4.1014220279E+000 
14275550.688 +9.5226805690E-001 -3.9830062557E+000  +7.2257707255E-003 +8.6733131554E+001  +7.5347862504E-003 +9.0613726756E+001  +9.7869925955E-001 -4.7799065028E+000 
14400695.870 +9.7692546201E-001 -5.3085805688E+000  +8.0339509467E-003 +8.8663395946E+001  +6.6684347028E-003 +7.9948195957E+001  +1.0027206793E+000 -4.7765917415E+000 
