!  2-Port S-parameters saved by WinCal
! VAR NAME=S2_r6c9_formed(1)_9k-100M_1
! VAR DATE=30/08/2024 11:44:46
! VAR FILENAME=S2_r6c9_formed(1)_9k-100M_1.S2P
! VAR MeasName=S-Parameters (CALIBRATED_DATA) read from VNA (P5004A)
! VAR MeasDate=28/08/2024 11:42:53
! VAR PHYS_PORTS=1,2
! VAR ObjTypeName=DATASET
! VAR IndexType=Frequency
!
# Hz S MA R 50
9000.000 +6.0685168142E-002 -1.6817813411E+002  +1.3196141294E-002 +1.0457257564E+002  +1.0266344393E-002 +1.4978480635E+002  +2.8854728857E-001 -1.3026373709E+002 
134145.181 +1.1108610006E-001 +1.6952230726E+002  +6.3989986849E-005 +2.9120633012E+001  +3.6910240029E-004 -2.7090546658E+001  +2.4087537427E-001 -1.7104177917E+002 
259290.363 +1.1168285810E-001 +1.6911499194E+002  +1.3250156460E-003 -3.8267206131E+001  +1.0962935810E-003 -7.0603785102E+000  +2.4313636989E-001 -1.6788972841E+002 
384435.544 +1.1479118544E-001 +1.6972132595E+002  +3.0546234094E-004 -1.2366366533E+002  +1.0441589156E-003 +2.6700311200E+001  +2.4829423075E-001 -1.6979980139E+002 
509580.726 +1.1332469651E-001 +1.7083437945E+002  +1.7836662483E-003 +7.2575630211E+001  +5.5965957081E-004 +3.5214859806E+001  +2.3676658809E-001 -1.5809602563E+002 
634725.907 +1.1773829590E-001 +1.7159226223E+002  +1.2811911917E-003 -1.2818242689E+002  +6.8829626800E-004 +5.1217607334E+000  +2.5611087402E-001 -1.6438323119E+002 
759871.089 +1.1805572981E-001 +1.7177947859E+002  +3.8525018119E-004 -1.5250153692E+002  +1.6525546533E-004 +6.8085690679E+001  +2.4911436364E-001 -1.6720288887E+002 
885016.270 +1.2030467109E-001 +1.6935270218E+002  +8.5770352148E-004 -6.5224912659E+001  +7.3952650177E-004 +1.1875757358E+002  +2.4379366265E-001 -1.6629076157E+002 
1010161.452 +1.1790992407E-001 +1.7031066567E+002  +1.2608416894E-003 +1.2587552801E+001  +1.3550693266E-003 +1.5211907945E+002  +2.1465984755E-001 -1.7110873435E+002 
1135306.633 +1.1762576967E-001 +1.6948060029E+002  +2.9390385682E-003 -3.4535486833E+001  +2.1670811934E-003 -1.2038989479E+002  +1.9609824011E-001 -1.7258577519E+002 
1260451.815 +1.1569686343E-001 +1.7163855979E+002  +2.3183533500E-003 -1.3955619926E+002  +2.2036439436E-003 +1.1613793414E+002  +2.2424015252E-001 -1.5941963132E+002 
1385596.996 +1.2676789887E-001 +1.7301737777E+002  +8.4717695837E-004 -8.2644723714E+001  +1.1187028661E-003 +1.0979530340E+002  +2.5572794848E-001 -1.5798294218E+002 
1510742.178 +1.2608487535E-001 +1.7181650379E+002  +1.3463313386E-003 -4.0489071291E+001  +8.7827835436E-004 -1.4982093630E+002  +2.4894194201E-001 -1.6090254870E+002 
1635887.359 +1.3084528210E-001 +1.7035833586E+002  +1.8857374320E-003 -1.6787329202E+001  +8.6737711984E-004 -1.4968073645E+002  +2.4408858567E-001 -1.5767277754E+002 
1761032.541 +1.2919567509E-001 +1.6854208384E+002  +2.9197607091E-004 +1.5302595484E+002  +2.2100886230E-003 -1.0571546802E+002  +2.2491518430E-001 -1.5833814558E+002 
1886177.722 +1.3028122162E-001 +1.6857770247E+002  +1.8304703560E-003 +9.2531812301E+001  +1.6766057011E-003 -1.1162868476E+002  +2.3039290284E-001 -1.6520651609E+002 
2011322.904 +1.3004196058E-001 +1.6693732272E+002  +4.3276891926E-003 +7.2610934387E+001  +5.4083184147E-003 -6.1082018225E+001  +1.5992120653E-001 -1.6835552143E+002 
2136468.085 +1.2921990677E-001 +1.6295486848E+002  +7.4948811285E-003 +1.0033125409E+002  +7.6881084118E-003 -3.5238869710E+001  +1.9403694622E-001 -1.7262929270E+002 
2261613.267 +1.2269901309E-001 +1.6441167625E+002  +9.8205252984E-003 +1.0326672142E+002  +1.0307060062E-002 +1.1287457436E+001  +2.3662464421E-001 +1.6663516009E+002 
2386758.448 +1.3980863260E-001 +1.6679154530E+002  +4.3568975566E-003 +5.0879862214E+001  +5.7989666990E-003 -6.1070941531E+001  +2.1747346617E-001 -1.7401938748E+002 
2511903.630 +1.3240162479E-001 +1.6692692138E+002  +1.3235296706E-002 +6.6419242171E+001  +1.7888650194E-002 -5.6677427222E+001  +1.5563098942E-001 -1.7716329997E+002 
2637048.811 +1.3289526696E-001 +1.6155818699E+002  +2.0423449857E-002 +8.3747631779E+001  +1.9288082864E-002 -1.7493520397E+001  +1.9658517925E-001 +1.5706010984E+002 
2762193.992 +1.0827275841E-001 +1.5797296247E+002  +1.0939080748E-001 +1.0140752700E+002  +8.0018627380E-002 -1.2512870090E+001  +7.0600171899E-001 +1.0767614666E+002 
2887339.174 +1.2542564613E-001 +1.6985228190E+002  +3.4623873185E-002 -2.9439600434E+001  +3.5479090688E-002 -1.3288780848E+002  +2.0193073873E-001 -9.7075120422E+001 
3012484.355 +8.5355690199E-002 +1.7311161895E+002  +3.6574877247E-002 +3.0690755033E+001  +4.0929778644E-002 -9.9999204714E+001  +9.8235355754E-002 -1.6024342508E+002 
3137629.537 +1.4297559685E-001 +1.7379376659E+002  +2.8277728322E-002 -3.3624457142E+001  +2.5762366423E-002 -1.1785760043E+002  +2.6483538882E-001 -9.3109084947E+001 
3262774.718 +1.2629880744E-001 +1.7357755160E+002  +4.1417392353E-002 -2.7972248501E+001  +3.8016802531E-002 -9.7253058995E+001  +2.2067897579E-001 -6.9030382093E+001 
3387919.900 +1.3715757648E-001 +1.6016320981E+002  +3.4772803852E-002 +4.7353650755E+001  +3.7916276169E-002 -5.8783401756E+001  +7.6219173616E-002 +1.4210727615E+002 
3513065.081 +1.7355233622E-001 +1.5409886691E+002  +3.6331278429E-002 +8.0166324460E+001  +3.2023366678E-002 -7.2295809341E+000  +1.7043251345E-001 +1.0467374572E+002 
3638210.263 +1.7498622963E-001 +1.5162273063E+002  +3.5380931806E-002 +1.0599570210E+002  +3.9475609758E-002 +2.0978158874E+001  +4.1989499526E-001 +1.3233660732E+002 
3763355.444 +1.4464027393E-001 +1.5024351494E+002  +3.3073178033E-002 +7.2093511184E+001  +4.1189282076E-002 -4.5570588078E-001  +2.2238814488E-001 +1.5708129374E+002 
3888500.626 +1.5783770104E-001 +1.5179565829E+002  +4.6723775038E-002 +7.7430899864E+001  +3.9603278784E-002 +7.9873956965E+000  +3.6943361658E-001 +1.2286678438E+002 
4013645.807 +1.6019419424E-001 +1.4786709657E+002  +4.9786866847E-002 +7.7957892535E+001  +6.3545656389E-002 +2.0560428611E+001  +4.6006938470E-001 +1.2327537729E+002 
4138790.989 +1.9254034542E-001 +1.4397464366E+002  +3.8326686391E-002 +9.6381657533E+001  +3.3011085317E-002 +3.7124721238E+001  +3.2199932725E-001 +1.6348626028E+002 
4263936.170 +1.8768006405E-001 +1.4284576300E+002  +7.1350866351E-002 +9.6205347994E+001  +8.5968231943E-002 +2.9274512356E+001  +6.1469118997E-001 +1.1823471407E+002 
4389081.352 +2.1989438961E-001 +1.3974988730E+002  +6.7837487681E-002 +8.4059024244E+001  +5.7850750776E-002 +2.0662679102E+001  +2.7727038608E-001 +1.1177644749E+002 
4514226.533 +2.1406833779E-001 +1.3858819983E+002  +6.4103659575E-002 +8.9871778316E+001  +6.5036945972E-002 +3.3821848858E+001  +4.1761751431E-001 +1.1328441996E+002 
4639371.715 +2.4319115919E-001 +1.4004327794E+002  +1.4672222143E-001 +8.5411894658E+001  +1.4718480918E-001 +2.5553906151E+001  +1.1994432387E+000 +6.1699831622E+001 
4764516.896 +3.6167216380E-001 +1.4077702829E+002  +1.8191488453E-001 +1.7352443138E+002  +1.9383733741E-001 +1.1706770120E+002  +1.9496312438E+000 +1.3668596194E+002 
4889662.078 +2.6741709047E-001 +1.3435957213E+002  +7.4754765588E-001 -1.0781224156E+002  +6.5030104491E-001 -1.5920318702E+002  +5.4788987035E+000 -1.3794066186E+002 
5014807.259 +4.1693286030E-001 +1.3772148215E+002  +2.7970849907E-001 -1.5884145611E+002  +2.0829827486E-001 +1.6013429235E+002  +2.5369617716E+000 +1.5760782683E+002 
5139952.441 +3.5652117383E-001 +1.3105540952E+002  +3.4740929165E-001 +1.3479819513E+002  +3.3463439865E-001 +9.1545973910E+001  +3.3377190308E+000 +1.1625900858E+002 
5265097.622 +3.4251363273E-001 +1.3022955350E+002  +1.7889273090E-001 +6.5779602913E+001  +1.9437148103E-001 +2.4066964900E+001  +1.3172866172E+000 +4.2203131768E+001 
5390242.804 +3.5688581329E-001 +1.3063381113E+002  +1.7628791472E-001 +1.0877411547E+002  +1.6864098303E-001 +7.1164023427E+001  +1.6365284247E+000 +1.0561403854E+002 
5515387.985 +3.3309771601E-001 +1.2292497460E+002  +1.9635081362E-001 +6.7669567544E+001  +1.9958241681E-001 +3.9210660145E+001  +1.4860395008E+000 +6.4139941278E+001 
5640533.166 +4.6056740303E-001 +1.2753621022E+002  +2.1204963971E-001 +1.1983838375E+002  +1.9990690444E-001 +8.9146551003E+001  +2.0727659648E+000 +1.1334663941E+002 
5765678.348 +4.0180638343E-001 +1.2355893041E+002  +1.5664195860E-001 +7.6944041809E+001  +1.6134754075E-001 +5.2984486991E+001  +1.1138643652E+000 +9.6127898494E+001 
5890823.529 +5.5494235159E-001 +1.2042558536E+002  +2.8616458897E-001 +9.8857310106E+001  +2.8184831166E-001 +7.4771053107E+001  +2.4766069669E+000 +9.3698948168E+001 
6015968.711 +5.7884473169E-001 +1.1798820969E+002  +2.0555483629E-001 +5.6588760109E+001  +1.9637927779E-001 +3.7306170582E+001  +1.1689165829E+000 +3.0400246770E+001 
6141113.892 +6.4985600643E-001 +9.8835081092E+001  +3.5227198331E-001 +6.9234163714E+001  +3.3369898690E-001 +5.0920209790E+001  +2.1900706748E+000 +6.8514601015E+001 
6266259.074 +7.0657321599E-001 +9.5064696571E+001  +3.1513147568E-001 +4.6751078349E+001  +2.7410955350E-001 +2.7470457705E+001  +1.7550608788E+000 +3.5225136007E+001 
6391404.255 +6.9581734366E-001 +9.4623251262E+001  +2.2516425011E-001 +3.7654133840E+001  +2.2126628302E-001 +2.6501536658E+001  +1.2291561210E+000 +2.6828455861E+001 
6516549.437 +1.2878149926E+000 +8.9221906837E+001  +2.6014655923E-001 +5.3206852113E+001  +2.6205756365E-001 +3.7246748855E+001  +9.8032654281E-001 +2.7258789443E+001 
6641694.618 +1.1020551115E+000 +7.4422578550E+001  +2.5508708007E-001 +2.9763216497E+001  +2.4842133687E-001 +2.0220712810E+001  +1.0322283726E+000 +8.8242838792E+000 
6766839.800 +1.3821818014E+000 +5.5136070253E+001  +2.7765596541E-001 +1.9841256095E+001  +2.7981389929E-001 +1.1963737218E+001  +1.1334171833E+000 -1.1870488226E+000 
6891984.981 +1.4021161548E+000 +3.8572449831E+001  +2.8352488950E-001 +1.0874412456E+001  +2.8412056389E-001 +6.6399005260E+000  +1.2657689970E+000 +1.8841970173E+000 
7017130.163 +1.3546373004E+000 +1.3226836136E+001  +2.4837796296E-001 -4.0707116538E+000  +2.4746085083E-001 -8.9271719055E+000  +1.1522130465E+000 -1.4240509957E+001 
7142275.344 +1.2930706714E+000 +1.3954566615E+000  +2.0605131825E-001 -2.7734366744E+000  +2.2894114880E-001 -8.3541228767E+000  +1.1710749071E+000 -1.0888654470E+001 
7267420.526 +1.2719039042E+000 +6.6806159737E-001  +1.9188264400E-001 +3.0240269675E+000  +1.8382673640E-001 -2.6300286042E+000  +9.7221356090E-001 -1.0545759783E+001 
7392565.707 +1.2190697709E+000 -4.6006484594E+000  +1.6647882495E-001 +5.9324703382E+000  +1.5824596488E-001 +6.0998254450E+000  +1.1904338955E+000 -8.4861230443E+000 
7517710.889 +1.0293128517E+000 -7.7442206251E+000  +1.3661656081E-001 +2.3335882327E+000  +1.4521592789E-001 -9.6771205842E-001  +1.0415160217E+000 -3.7244772586E+000 
7642856.070 +8.3880417816E-001 +2.3548164618E+000  +1.4063762144E-001 +4.7306886211E+000  +1.3323389361E-001 +6.0978777473E+000  +9.3983995323E-001 -4.9973013335E+000 
7768001.252 +7.6447464137E-001 +2.2419115550E-001  +1.3082512476E-001 -1.9439117229E-002  +1.3337724928E-001 +7.1078896133E+000  +8.0260255820E-001 -1.0674582028E+001 
7893146.433 +6.9246016730E-001 +3.4873519145E+000  +1.2491353751E-001 +4.9278411835E-002  +1.1827806594E-001 +9.6011509567E+000  +8.4955112514E-001 +7.4711740975E-001 
8018291.615 +5.9741653127E-001 +1.3929117356E+001  +1.1950561576E-001 -2.1353632591E+000  +1.1332350805E-001 +7.3502577321E+000  +7.3086608658E-001 -5.4955058994E+000 
8143436.796 +5.7275359778E-001 +1.9428287342E+000  +1.1677198598E-001 -2.2916508557E+000  +1.1396981388E-001 +7.5903825166E+000  +7.5556157144E-001 +3.7703270131E+000 
8268581.977 +5.2228450641E-001 +1.4780650913E+001  +1.1130302751E-001 +2.0268368805E-001  +1.1169399185E-001 +5.7689015272E+000  +6.3087809493E-001 +3.9982966862E+000 
8393727.159 +5.6335583042E-001 +5.7142622348E+000  +1.1097757456E-001 -3.5529337784E+000  +1.0740191225E-001 +5.3468737212E+000  +5.7690405393E-001 +5.1277612388E+000 
8518872.340 +5.3087495515E-001 +1.1581674329E+001  +1.0456038309E-001 -7.4491198076E-001  +1.0635234491E-001 +6.6858599054E+000  +5.8335009145E-001 +4.5388168323E+000 
8644017.522 +5.5234914502E-001 +1.3126306643E+001  +1.1044281438E-001 -2.6031491552E+000  +1.0600580484E-001 +9.4277691726E+000  +5.3008855919E-001 +3.0346550987E+000 
8769162.703 +5.5831721725E-001 +1.1806913522E+001  +1.0535483570E-001 -3.0240309880E+000  +1.0737704150E-001 +1.1971090314E+001  +5.4628226837E-001 +1.2450230263E+001 
8894307.885 +4.9182251802E-001 +1.2771013661E+001  +1.0241493222E-001 -2.5249562749E+000  +1.0672917695E-001 +1.0496555127E+001  +4.4954024518E-001 +3.6134424319E+000 
9019453.066 +4.9210814048E-001 +2.5130898420E+000  +1.0289265147E-001 -3.2522568284E+000  +1.0655597217E-001 +1.1174949758E+001  +4.8859031734E-001 +6.0939698214E+000 
9144598.248 +4.2324012801E-001 +9.0108782831E+000  +1.0703757724E-001 -3.0684030680E+000  +1.0457798057E-001 +1.1462526564E+001  +4.9093523925E-001 -2.0510885402E+000 
9269743.429 +4.4355906307E-001 +1.1880991845E+001  +1.0581509261E-001 -3.3665647220E+000  +1.0502461289E-001 +1.2940856871E+001  +4.9335445704E-001 +2.5749419881E+000 
9394888.611 +4.3049300710E-001 +5.8479405938E+000  +1.0681694060E-001 -4.8416647371E+000  +1.0472843494E-001 +9.5692305689E+000  +4.8626169779E-001 -5.3454059959E-001 
9520033.792 +4.6325355656E-001 +8.5952114437E+000  +1.0423581084E-001 -1.8182059590E+000  +1.0640662828E-001 +1.4321638752E+001  +4.4025112359E-001 -3.9497334232E+000 
9645178.974 +4.5728114037E-001 +7.0701691784E+000  +1.0580454134E-001 -4.4815878488E+000  +1.0753570099E-001 +1.3477894027E+001  +4.4813305736E-001 -6.7969292284E+000 
9770324.155 +4.3937596183E-001 +6.9153743854E-001  +1.0858743622E-001 -4.2224422082E+000  +1.0758930461E-001 +1.3429980630E+001  +4.8121750623E-001 -5.8017903941E+000 
9895469.337 +4.2198860072E-001 +5.5023584034E+000  +1.0922527792E-001 -3.3815357602E+000  +1.0718991571E-001 +1.4095488220E+001  +4.5616988679E-001 -3.8214910477E+000 
10020614.518 +4.1177689853E-001 -1.2622734460E+000  +1.0758835834E-001 -4.9573181705E+000  +1.0507868697E-001 +1.2623453958E+001  +4.9283013901E-001 -4.9342732133E+000 
10145759.700 +4.2541488166E-001 +2.8283570101E+000  +1.0814040952E-001 -2.4809786770E+000  +1.0736744336E-001 +1.1656319641E+001  +4.8359909985E-001 +5.7252443614E-001 
10270904.881 +4.6537561268E-001 +6.2000417467E+000  +1.0966943208E-001 -2.0534071764E+000  +1.0660630676E-001 +1.3313402503E+001  +4.5308427798E-001 -2.2833173733E+000 
10396050.063 +4.6768062467E-001 +6.9377173797E+000  +1.0948014080E-001 -1.8651201516E+000  +1.0821451130E-001 +1.3957620775E+001  +4.7450675231E-001 -1.8107489951E+000 
10521195.244 +4.1846396717E-001 +7.5655308393E+000  +1.1028119054E-001 -2.6540948244E+000  +1.1028198383E-001 +1.4015490785E+001  +4.6915957866E-001 -1.9923869515E-001 
10646340.426 +4.6891713771E-001 +9.0448969476E+000  +1.1109662266E-001 +1.9491414084E-001  +1.0919190916E-001 +1.4761927215E+001  +4.5803214530E-001 +1.0507680020E+000 
10771485.607 +4.8159922385E-001 +9.6317817877E+000  +1.1023135001E-001 -1.3774522288E+000  +1.0915862116E-001 +1.2871623463E+001  +4.8479083782E-001 +4.5467084137E+000 
10896630.788 +4.4486514429E-001 +6.6596823421E+000  +1.0895444673E-001 -8.2128057701E-001  +1.0947670369E-001 +1.4391285540E+001  +4.9175484370E-001 +2.0201727449E+000 
11021775.970 +4.8462648666E-001 +7.1362060051E+000  +1.1116037034E-001 +1.8080979317E+000  +1.1054625015E-001 +1.3417068609E+001  +4.9363350199E-001 +3.1475945214E+000 
11146921.151 +4.9468559943E-001 +5.2404375341E+000  +1.1351435884E-001 +1.0589986874E+000  +1.1188566093E-001 +1.3504562711E+001  +5.1099558662E-001 +6.3209223142E+000 
11272066.333 +5.1085103784E-001 +8.6781950064E+000  +1.1558631798E-001 +1.5701478433E+000  +1.1157850175E-001 +1.3801706035E+001  +5.0107072348E-001 +1.4034302321E+000 
11397211.514 +4.8140979821E-001 +8.5187649640E+000  +1.1358414295E-001 +1.3705892543E+000  +1.1362600854E-001 +1.3469142098E+001  +5.1201264069E-001 +3.2116411575E+000 
11522356.696 +4.9462589584E-001 +8.2013119100E+000  +1.1321351629E-001 +8.2806965331E-001  +1.1214050293E-001 +1.4625717154E+001  +5.0416413908E-001 +6.1053730635E+000 
11647501.877 +5.0000073111E-001 +9.4794679411E+000  +1.1514445127E-001 +1.3854077837E+000  +1.1670482704E-001 +1.3150804541E+001  +5.4852322348E-001 +2.5484427097E+000 
11772647.059 +5.4987232570E-001 +4.7543794761E+000  +1.1811100209E-001 +9.2219752762E-001  +1.1670490320E-001 +1.3035936769E+001  +5.3402586017E-001 +3.8016914421E+000 
11897792.240 +5.6110323233E-001 +5.0747900671E+000  +1.1816004807E-001 +2.8732596458E+000  +1.1721972957E-001 +1.2793808411E+001  +5.4609938079E-001 +3.4323786389E+000 
12022937.422 +5.4080708413E-001 +8.0259638353E+000  +1.1887483934E-001 +2.3691451081E+000  +1.1838662114E-001 +1.1915239711E+001  +5.4828692111E-001 +3.5621575704E+000 
12148082.603 +5.6672444467E-001 +2.6375274356E+000  +1.2632898354E-001 +3.7264661026E+000  +1.2125558231E-001 +1.3799487975E+001  +5.9008707638E-001 +2.0476102402E+000 
12273227.785 +5.6677029581E-001 +5.0055771596E+000  +1.2402940574E-001 +3.1284506983E+000  +1.2242722650E-001 +1.0771939543E+001  +5.7570537703E-001 +1.4428607680E+000 
12398372.966 +6.0816884943E-001 +2.8481779222E+000  +1.2526668222E-001 +2.9241497840E+000  +1.2433202219E-001 +1.2138789766E+001  +6.0784652599E-001 +1.8788320539E+000 
12523518.148 +5.8460915875E-001 +3.8404793842E+000  +1.2345127306E-001 +3.6714116303E+000  +1.2361406084E-001 +1.0252240172E+001  +6.0589912921E-001 +1.3930894903E+000 
12648663.329 +6.0558022367E-001 +4.3640057553E+000  +1.2628780863E-001 +4.1211196007E+000  +1.2437994946E-001 +1.0993604298E+001  +6.3865001566E-001 -1.2647854591E-002 
12773808.511 +6.3796330595E-001 +3.1578439604E+000  +1.2775503826E-001 +4.3488555567E+000  +1.2601183561E-001 +1.1129078727E+001  +6.6066278605E-001 +2.0995945571E+000 
12898953.692 +6.5116576097E-001 -2.6474369063E-001  +1.3277677238E-001 +5.0947370988E+000  +1.3021071941E-001 +1.0216391461E+001  +6.3674580794E-001 -5.9341368121E-001 
13024098.874 +6.5573319658E-001 +1.5153635039E-001  +1.3101138708E-001 +3.8807398202E+000  +1.3042236641E-001 +8.9785950090E+000  +6.5618317098E-001 +3.5707933252E-001 
13149244.055 +6.6700471420E-001 +1.3360241801E+000  +1.3348834224E-001 +3.8298966663E+000  +1.3183105000E-001 +8.3239372401E+000  +6.8631439629E-001 -1.0400181812E+000 
13274389.237 +6.7109174722E-001 +6.3119346553E-001  +1.3359631711E-001 +4.1634567755E+000  +1.3281089086E-001 +8.2622222228E+000  +6.7707573280E-001 -2.7257265650E+000 
13399534.418 +7.1239838197E-001 -5.0243012122E-001  +1.3310796487E-001 +4.7159433393E+000  +1.3255824676E-001 +8.2992200192E+000  +7.1888652662E-001 -1.0312701391E-001 
13524679.599 +7.2410696150E-001 -6.0840390648E-001  +1.3769038995E-001 +5.1506775951E+000  +1.3457920207E-001 +7.2941248241E+000  +7.3125242190E-001 -1.6655063507E-001 
13649824.781 +7.2365069058E-001 -1.1975765947E+000  +1.3863877976E-001 +4.8370201405E+000  +1.3463705045E-001 +7.3047916473E+000  +7.4718517975E-001 -3.8799901789E+000 
13774969.962 +7.6483184015E-001 -2.1560486276E+000  +1.3916728090E-001 +4.3673914393E+000  +1.3671609051E-001 +6.7782904111E+000  +7.6414666754E-001 -1.7145494145E+000 
13900115.144 +7.5360067070E-001 -3.0108902434E+000  +1.3848132236E-001 +4.6539806665E+000  +1.3647766575E-001 +6.5446438875E+000  +7.8680340681E-001 -2.8466398338E+000 
14025260.325 +7.7579715672E-001 -5.1850173765E+000  +1.4084206404E-001 +3.6471944996E+000  +1.4078124560E-001 +5.5874020577E+000  +7.7608166987E-001 -4.2270700396E+000 
14150405.507 +7.9168185264E-001 -6.6870293109E+000  +1.4137862482E-001 +4.0736193893E+000  +1.4088034873E-001 +5.0961895681E+000  +8.0703929096E-001 -3.5232761472E+000 
14275550.688 +8.3091570139E-001 -3.7951394192E+000  +1.4289452894E-001 +4.2474344327E+000  +1.4090724594E-001 +4.8558832360E+000  +8.2390153257E-001 -5.7420485136E+000 
14400695.870 +8.4103742458E-001 -5.0883347035E+000  +1.4343789381E-001 +4.3420542038E+000  +1.4105882428E-001 +4.5248502701E+000  +8.5680491432E-001 -4.8548780995E+000 
