!  2-Port S-parameters saved by WinCal
! VAR MeasName=S-Parameters (CALIBRATED_DATA) read from VNA (P5004A)
! VAR MeasDate=28/08/2024 11:54:49
! VAR NAME=S2_r6c9_RESET4_9k-100M_1
! VAR FILENAME=S2_r6c9_RESET4_9k-100M_1.S2P
! VAR DATE=28/08/2024 11:54:49
! VAR PHYS_PORTS=1,2
! VAR ObjTypeName=DATASET
! VAR IndexType=Frequency
!
# Hz S MA R 50
9000.000 +9.7320217008E-002 -1.6572824878E+002  +1.2147187345E-002 -1.0100146170E+002  +6.5400461651E-003 -1.4091804996E+002  +2.8002708419E-001 -1.4262746944E+002 
134145.181 +1.1056667422E-001 +1.6951966845E+002  +1.1038590825E-004 +1.2354615648E+002  +2.0992303232E-004 -7.6826800762E+000  +2.4214289600E-001 -1.6972387635E+002 
259290.363 +1.1191351080E-001 +1.6910441864E+002  +6.7429964598E-004 -1.5446310466E+002  +7.5814752961E-004 -1.7593609611E+002  +2.4586635807E-001 -1.6836216395E+002 
384435.544 +1.1374565328E-001 +1.7034994297E+002  +2.7023590168E-004 -1.3684602876E+002  +1.8135914548E-004 +6.1331325043E+000  +2.4805017028E-001 -1.7021834416E+002 
509580.726 +1.1402123299E-001 +1.7098084396E+002  +7.2815061864E-004 -1.7807409055E+002  +2.3520390991E-003 -4.9123220373E+001  +2.4407753829E-001 -1.6419138348E+002 
634725.907 +1.1611062276E-001 +1.7169437863E+002  +4.8055928382E-004 -6.0012422761E+001  +7.8046835591E-004 +1.7652451485E+002  +2.4635259786E-001 -1.6698427118E+002 
759871.089 +1.2023896544E-001 +1.7095262867E+002  +4.1387490783E-004 -1.4279795369E+002  +1.4397984204E-004 +1.7367867547E+002  +2.5119542329E-001 -1.6730246529E+002 
885016.270 +1.1962275859E-001 +1.6880723251E+002  +3.8556546356E-004 -1.5423619760E+002  +5.1939882695E-004 -1.5809795872E+002  +2.4353694609E-001 -1.6620497949E+002 
1010161.452 +1.1424377828E-001 +1.7094273351E+002  +1.4207145208E-003 +1.5890976825E+002  +5.8745060383E-004 +1.1452134022E+002  +2.0636060790E-001 -1.6975738326E+002 
1135306.633 +1.1649023585E-001 +1.6964900034E+002  +4.2269769308E-004 +8.8826121826E+001  +2.1476576803E-003 +1.6420212728E+002  +1.9287114743E-001 -1.6272386025E+002 
1260451.815 +1.1701577759E-001 +1.6952031393E+002  +1.1810592880E-003 -2.6000014972E+001  +2.8521860701E-003 +1.6020972844E+002  +2.3648016973E-001 -1.5990205422E+002 
1385596.996 +1.2940447833E-001 +1.7217073778E+002  +9.1872075451E-004 +3.6518418458E+001  +7.2840248186E-004 -1.0716872780E+002  +2.6114426339E-001 -1.5820718316E+002 
1510742.178 +1.2732287924E-001 +1.7146324591E+002  +4.5926746783E-004 -1.6173339735E+001  +5.9874287140E-004 +5.1431608081E+001  +2.4248428347E-001 -1.6111961676E+002 
1635887.359 +1.3045495995E-001 +1.7069975239E+002  +9.4495939058E-004 +9.2826477804E+001  +1.1765504550E-003 -4.9260070917E+001  +2.3929065613E-001 -1.5656365288E+002 
1761032.541 +1.2706366624E-001 +1.7006453551E+002  +5.1904303217E-004 -6.0451824382E+001  +1.0271979549E-003 -1.1143591783E+002  +2.4675598665E-001 -1.5257141915E+002 
1886177.722 +1.3135254949E-001 +1.6851356234E+002  +1.1609509522E-003 -1.3876654123E+002  +1.3175900649E-003 +1.6509296282E+002  +1.5923394366E-001 -1.7292332903E+002 
2011322.904 +1.2828923893E-001 +1.6769192654E+002  +1.2392712670E-003 +9.5184446369E+001  +9.9634645024E-004 -8.0988757282E+001  +2.2232731841E-001 -1.6334320858E+002 
2136468.085 +1.2698195374E-001 +1.6615043219E+002  +2.2410103483E-003 +1.1539165741E+002  +2.2310571389E-003 -6.9528049043E+000  +1.7893842894E-001 -1.6695537752E+002 
2261613.267 +1.2800994245E-001 +1.6434363647E+002  +1.0182118630E-003 -1.9273680508E+001  +1.7959474688E-003 -9.3998919970E+001  +1.5301942683E-001 -1.7068158873E+002 
2386758.448 +1.3645652320E-001 +1.6397401919E+002  +2.3675768003E-003 -4.6344444223E+001  +7.7816260577E-003 -1.7824399360E+002  +9.0629514406E-002 -1.7134645465E+002 
2511903.630 +1.3018044102E-001 +1.5876711600E+002  +3.4803416684E-003 +1.1572150119E+002  +4.2620739752E-003 +1.2280184512E+002  +5.5067259817E-002 -1.0170088044E+001 
2637048.811 +9.9434678099E-002 +1.7882159536E+002  +1.0233397858E-002 +3.2549550154E+000  +1.5811268927E-002 -1.3794796695E+002  +2.0425855282E-001 +2.9838435412E+001 
2762193.992 +1.2534487773E-001 +1.7112183191E+002  +4.9385433456E-003 +4.7132239170E+001  +9.7992954222E-003 +1.6239122087E+002  +5.2896781506E-001 -1.0298574783E+002 
2887339.174 +1.1693766400E-001 +1.7083685982E+002  +9.5061327841E-003 +5.7599079316E+001  +3.8130951988E-003 +1.7959696647E+002  +5.8762841526E-001 -1.2617601944E+002 
3012484.355 +1.0550568435E-001 -1.7867170131E+002  +2.1125160691E-002 -4.7728273319E+001  +2.5284183131E-002 -2.9245210465E+001  +3.3792161173E-001 +1.9701256783E+001 
3137629.537 +1.1011235826E-001 +1.7518300777E+002  +2.5480137762E-002 -1.3325245311E+002  +7.1320424673E-003 -2.4770110717E+001  +9.7926667519E-001 -6.2437798791E+000 
3262774.718 +1.1761667507E-001 +1.5600733166E+002  +9.1290736706E-003 +3.2372126257E+001  +7.4976229449E-003 +8.7879981096E+001  +2.6242534397E-001 +7.4081361764E+001 
3387919.900 +1.3686815151E-001 +1.5098953616E+002  +6.2438886666E-003 -1.3647109134E+002  +2.6463542222E-003 +1.3112753834E+002  +8.8643527171E-002 +1.3539570498E+002 
3513065.081 +1.5920913665E-001 +1.4484288726E+002  +9.2509505877E-003 -1.7338869989E+002  +7.7979602218E-003 +1.3451912409E+002  +5.9197061514E-001 +1.3352917692E+002 
3638210.263 +1.7237579714E-001 +1.4204713446E+002  +1.2770492096E-002 -4.1113775460E+000  +1.2935964875E-002 +1.3243740013E+002  +6.1643366810E-001 +1.5162419740E+002 
3763355.444 +1.3715641820E-001 +1.3656305171E+002  +9.6645316031E-003 +1.7366981508E+002  +2.4192358663E-002 +1.1426444816E+001  +4.1429212162E-001 +6.0797331989E+001 
3888500.626 +1.6186075180E-001 +1.5258071336E+002  +1.5797062286E-003 +1.2269536604E+002  +2.8951222198E-003 +6.3276212265E+001  +3.1639089154E-001 +1.3795327452E+002 
4013645.807 +1.7995702961E-001 +1.4995001142E+002  +4.9158678289E-003 -7.1287712294E+001  +9.0582723994E-003 +9.5017180705E+001  +3.9897854923E-001 +1.5154464673E+002 
4138790.989 +2.0290591081E-001 +1.4324706728E+002  +8.0083352938E-003 +1.6011319736E+002  +7.6606348213E-003 -1.7353105374E+002  +1.9045073514E-001 +1.2317883217E+002 
4263936.170 +1.8513946358E-001 +1.4226785646E+002  +1.2028491779E-002 +3.5557893425E+001  +1.1442078044E-002 +1.4697653265E+002  +7.9749669872E-001 +8.6583744227E+001 
4389081.352 +2.0501446478E-001 +1.4055890076E+002  +5.6876814174E-003 -4.1055739183E+001  +6.6506801364E-003 -1.3458614619E+002  +6.2133379686E-001 +1.3366199258E+002 
4514226.533 +2.3201711848E-001 +1.4765205879E+002  +1.7074667552E-002 -1.5078602931E+002  +1.5370421635E-002 +9.1594264523E+001  +1.1734051967E+000 +3.8358690571E+001 
4639371.715 +3.6243988568E-001 +1.0832780129E+002  +1.2489310227E-001 +3.1580435252E+001  +9.4418303390E-002 +4.4849192951E+000  +5.1799705785E+000 -1.3491354646E+002 
4764516.896 +2.9892697771E-001 +1.1972682152E+002  +3.1121226599E-002 +1.1813948898E+002  +8.3642378751E-003 +1.2319649409E+002  +2.8221299361E+000 -1.4223949052E+002 
4889662.078 +3.6153325829E-001 +1.3137094337E+002  +2.6764533245E-002 +6.2479533923E+001  +2.5502602916E-002 -1.2529298982E+002  +2.3063544451E+000 -1.0757973787E+002 
5014807.259 +3.7291783980E-001 +1.2822993815E+002  +1.8211291219E-002 -4.9834474672E+001  +3.0659905338E-002 +1.3272134042E+002  +2.9226805645E+000 -1.9537646168E+001 
5139952.441 +3.4436992554E-001 +1.2157574393E+002  +2.4353534616E-002 +1.3468570001E+002  +9.3926107293E-002 -9.1198891880E+001  +4.9194096898E+000 +1.4585789925E+002 
5265097.622 +4.0365823217E-001 +1.3598937313E+002  +3.0090831420E-002 +8.2879702105E+001  +1.1669877973E-002 +1.0740859776E+002  +2.9797338338E+000 +3.4321298436E+001 
5390242.804 +3.8890164435E-001 +1.2948817138E+002  +1.1935709376E-002 -1.5082818060E+002  +7.0187279925E-003 -4.1612086192E+001  +1.8053106282E+000 +1.2858048567E+002 
5515387.985 +4.7136622042E-001 +1.3291392169E+002  +1.8995501341E-002 +1.4539418822E+002  +2.3402179943E-002 -1.1437460519E+002  +2.4523826585E+000 +8.8664189344E+001 
5640533.166 +5.1066661116E-001 +1.3605379520E+002  +1.4569107642E-002 +2.7027208216E+001  +1.1579002281E-002 +9.9855712058E+001  +1.8245803496E+000 +8.1743567648E+001 
5765678.348 +5.7936660135E-001 +1.2160134873E+002  +5.0912348396E-003 +6.5276182429E+001  +3.8304104437E-002 +1.7113768478E+002  +3.7462819094E+000 +7.1510765538E+001 
5890823.529 +5.5383977799E-001 +1.2784878857E+002  +2.1050759323E-002 -1.3689670620E+002  +4.0923527884E-002 -1.4833028342E+002  +1.8292122407E+000 +6.6578886313E+001 
6015968.711 +6.0438941587E-001 +1.1489421122E+002  +1.1625444193E-002 -1.5304646378E+002  +1.1304095884E-002 -1.5092548808E+002  +1.8981741932E+000 +2.3657686903E+001 
6141113.892 +9.4835533474E-001 +1.0167412297E+002  +3.0885947156E-002 +2.2293548594E+001  +4.6632210934E-002 +5.0020888065E+001  +1.5923629927E+000 +4.7049911390E+001 
6266259.074 +8.1974382998E-001 +1.0769725568E+002  +1.5470691588E-002 +9.7781249378E+001  +1.4797040994E-002 -2.2436197243E+001  +1.3440876789E+000 +1.1811771527E+001 
6391404.255 +1.0908340293E+000 +1.0258390141E+002  +3.3189237880E-002 +1.4548954601E+002  +2.2259609224E-003 -9.1542272441E+001  +1.4112550967E+000 -6.9455278526E+000 
6516549.437 +1.2220981803E+000 +8.2612777111E+001  +8.7471153100E-003 +1.6816981801E+002  +7.3661530823E-003 -1.6485456719E+002  +1.5370110636E+000 +7.6435190863E+000 
6641694.618 +1.8138953444E+000 +7.3150823866E+001  +1.9230658591E-002 +6.0550675263E+001  +3.7395792453E-002 +1.0812463632E+002  +1.5186783318E+000 +4.9013555636E+000 
6766839.800 +1.7208278172E+000 +6.7719043934E+001  +8.6011104932E-003 +1.1176761944E+002  +2.0104124081E-002 -9.9415409151E+001  +1.3252971388E+000 -5.0344810602E+000 
6891984.981 +2.0943082347E+000 +4.5572829625E+001  +2.8343594431E-002 +9.0224097145E+001  +7.6197672862E-003 +3.0392028165E+001  +1.3905527314E+000 -1.4288270750E+001 
7017130.163 +1.5494473951E+000 +1.6445804875E+001  +1.0819567605E-002 +1.0998642599E+002  +2.2235275576E-002 +7.6709095319E+001  +1.2668468698E+000 -1.1258712738E+001 
7142275.344 +1.3834094756E+000 +5.7013061468E+000  +2.3213145577E-002 +3.7104686422E+001  +1.5236986052E-002 +4.9069392512E+001  +1.3401137433E+000 -1.1503288236E+001 
7267420.526 +1.5633727110E+000 -7.8061523132E+000  +1.6794997163E-002 +8.0842527713E+001  +1.2658507534E-002 -1.4078295920E+002  +1.2945311227E+000 -9.2201347572E+000 
7392565.707 +1.2986945104E+000 +2.3947750922E-001  +1.1113409586E-002 +1.0599587288E+002  +5.5990441139E-003 +7.7790270490E+001  +1.4610906042E+000 -6.9172775701E+000 
7517710.889 +1.1637010090E+000 +5.5530254756E+000  +6.1639085345E-003 +1.1054659945E+002  +1.0331500829E-002 +4.6017359001E+001  +1.1800427083E+000 -6.6443320343E+000 
7642856.070 +9.9150236112E-001 +5.7204734424E+000  +1.2902644157E-002 +1.2083524303E+002  +1.0912706415E-002 +7.7735595751E+001  +1.1446415911E+000 -1.0917691166E+001 
7768001.252 +1.0506770447E+000 +5.7362799908E+000  +4.8758634827E-003 +8.1756925872E+001  +6.9045347384E-003 +1.0926868995E+002  +1.0240060986E+000 -7.5967396727E+000 
7893146.433 +9.8107493014E-001 +8.0012326811E+000  +2.9825879959E-003 +1.1302114143E+002  +1.7138100877E-003 +1.6831965358E+002  +9.0069589171E-001 -8.5645124426E+000 
8018291.615 +7.8754455948E-001 +7.2070640092E+000  +1.6243610164E-003 -1.0422998472E+002  +1.2560388938E-002 +1.2228972543E+002  +8.0941443435E-001 -1.5053685866E+000 
8143436.796 +7.5653690280E-001 +8.2920609322E+000  +1.1729307429E-003 +8.6626768708E+001  +6.7623213194E-003 +1.0089731525E+002  +7.5810112561E-001 +5.8251766651E-001 
8268581.977 +7.0513431894E-001 +1.2485738544E+001  +4.7482482717E-003 +1.1541950182E+002  +7.2216049449E-003 +4.2784599061E+001  +7.4600405108E-001 -8.1882954830E-001 
8393727.159 +7.4705206446E-001 +1.0933846777E+001  +2.8749378581E-003 +7.1611350173E+001  +4.3712871972E-003 +1.5263557562E+002  +7.1290051984E-001 +3.9756751458E+000 
8518872.340 +6.7579432497E-001 +4.0601617874E+000  +5.1583895756E-003 +6.8109247937E+001  +2.9317798121E-003 +1.4005492939E+002  +7.1413403789E-001 -1.9044903990E-003 
8644017.522 +7.2233794782E-001 +9.4133128172E+000  +9.6078358161E-004 +9.6630950269E+001  +1.0060683107E-002 +5.2589395711E+001  +7.0367779649E-001 +1.0766789692E+000 
8769162.703 +5.9317704490E-001 +1.0238011350E+001  +3.1329440595E-003 +5.6547361043E+001  +6.9074862295E-003 +8.3144148733E+001  +6.2422996055E-001 -1.8364113517E+000 
8894307.885 +6.3154795379E-001 +1.0377240558E+001  +1.6941831913E-003 +5.2555823224E+001  +3.3298573684E-003 +1.4011067494E+002  +6.5468321485E-001 +1.1650463471E-001 
9019453.066 +5.5971843677E-001 +4.8762670304E+000  +4.8662763215E-003 +1.0170265007E+002  +6.8271161379E-003 +7.0667259266E+001  +6.3032982479E-001 -1.9369889317E+000 
9144598.248 +5.7479356471E-001 +3.8192609825E+000  +3.5329246058E-003 +7.1729014003E+001  +1.4897715176E-003 +1.3766227604E+002  +6.1976757741E-001 +2.3975941394E+000 
9269743.429 +5.5289638752E-001 +9.9355862337E+000  +5.3340895874E-003 +9.0167870524E+001  +1.5241052311E-003 -1.1656323882E+002  +5.9240482102E-001 -4.9654273904E+000 
9394888.611 +5.8387115093E-001 +5.6070865122E+000  +4.9484708176E-003 +1.1559378473E+002  +3.7070028321E-003 +7.4768044529E+001  +6.1285666677E-001 -3.1277670964E+000 
9520033.792 +6.1062114535E-001 +6.5264561180E+000  +6.0131051056E-003 +7.0319668994E+001  +2.1761749207E-003 +1.2500430248E+002  +5.7236953388E-001 -3.9216927744E+000 
9645178.974 +5.6741312511E-001 -4.0732559353E-001  +1.7260525879E-003 +1.3311295315E+002  +2.0823463438E-003 +9.5221311301E+001  +5.8211237336E-001 -9.0728972063E+000 
9770324.155 +5.7322320421E-001 +2.3884041655E+000  +4.1079039792E-003 +5.6815613556E+001  +3.1343278236E-003 +1.2790040285E+002  +5.7342899278E-001 -9.7189168693E+000 
9895469.337 +5.5266050894E-001 +2.6898193826E+000  +2.9368485144E-003 +1.0342066829E+002  +6.9166386887E-003 +1.0105618596E+002  +5.5290849734E-001 -3.1480610386E+000 
10020614.518 +5.3770820612E-001 +3.1781334362E+000  +3.1031809510E-003 +8.1407504756E+001  +5.6674215307E-003 +9.6343638008E+001  +6.0840994642E-001 -4.8621319691E+000 
10145759.700 +5.8611095237E-001 +2.3266024664E+000  +7.2712126115E-003 +8.5410169116E+001  +2.0597545642E-003 +1.2546154668E+002  +5.9503331087E-001 -5.3796817921E+000 
10270904.881 +5.6222248332E-001 +3.4919788059E+000  +5.0864097154E-003 +9.2773150230E+001  +3.6762099946E-003 +7.1009415064E+001  +5.8791566730E-001 -2.1588886301E+000 
10396050.063 +5.4363800431E-001 +7.4740673077E+000  +4.6615124457E-003 +1.2620405798E+002  +4.6473558847E-003 +8.6313155418E+001  +5.7568322108E-001 +8.3096478409E-001 
10521195.244 +5.6415152481E-001 +6.3074475474E+000  +5.8465262066E-003 +4.3336734087E+001  +6.1944250535E-003 +5.8420433058E+001  +6.3770779378E-001 -2.7665072096E+000 
10646340.426 +5.4754537248E-001 +7.4443662827E+000  +4.0671184954E-003 +6.6665752802E+001  +5.5167223220E-003 +9.5441378726E+001  +6.0373416167E-001 +9.0282255935E-001 
10771485.607 +5.4506529831E-001 +4.9135625944E+000  +6.2050630125E-003 +6.8395632323E+001  +4.2426804168E-003 +9.8841361881E+001  +6.0841726849E-001 -1.9590124891E+000 
10896630.788 +6.0864169053E-001 +6.7212461694E+000  +5.5283878560E-003 +8.6473175670E+001  +3.8716331393E-003 +8.4266547827E+001  +5.8738271491E-001 +1.8674114703E+000 
11021775.970 +6.0857442266E-001 +7.3218859458E+000  +4.7541868597E-003 +5.7746794682E+001  +6.0675581541E-003 +8.3990067068E+001  +6.4837269551E-001 +1.7845228895E-001 
11146921.151 +6.4056975071E-001 +7.4323099040E+000  +5.5932029383E-003 +9.1318839203E+001  +3.3768450816E-003 +8.1061681739E+001  +6.1610019029E-001 +2.0507050914E+000 
11272066.333 +5.8191093188E-001 +8.0559347552E+000  +3.9739457320E-003 +5.6966463493E+001  +3.6976339257E-003 +8.2907457916E+001  +6.4125091066E-001 +2.2277376589E+000 
11397211.514 +6.3572555842E-001 +9.2825638526E+000  +4.1099191537E-003 +6.7849066870E+001  +3.9417482374E-003 +7.8627787348E+001  +6.6225637066E-001 +1.7691438527E+000 
11522356.696 +6.0504901466E-001 +8.2959285494E+000  +3.8792356637E-003 +8.6579952914E+001  +8.4354668676E-003 +1.0880452456E+002  +6.6750041474E-001 -3.9328566030E-002 
11647501.877 +6.3428782061E-001 +6.5309433903E+000  +4.4018213007E-003 +7.1577289003E+001  +3.7125174632E-003 +8.2196556100E+001  +6.4840177231E-001 +9.8288066736E-001 
11772647.059 +6.4368808064E-001 +4.6982590239E+000  +6.2701803448E-003 +8.5500091067E+001  +5.5419413142E-003 +6.7756817338E+001  +6.8004214305E-001 +2.9882698304E+000 
11897792.240 +6.6845431202E-001 +5.9909764861E+000  +4.1259960835E-003 +7.9955928198E+001  +6.3348931806E-003 +7.0342822153E+001  +6.4657834411E-001 +1.5880668648E+000 
12022937.422 +6.7469305867E-001 +6.1433216402E+000  +5.2520302339E-003 +9.4090434879E+001  +5.5686309485E-003 +1.1511157728E+002  +6.8004793668E-001 +3.0450093850E-001 
12148082.603 +7.0750345222E-001 +2.1020163278E+000  +7.3568456219E-003 +9.0851262491E+001  +4.5195194550E-003 +7.4466721196E+001  +6.9837832694E-001 -7.8083320156E-001 
12273227.785 +6.9596803832E-001 +3.2177809946E+000  +6.6888251161E-003 +8.1938877510E+001  +6.2502009103E-003 +7.6038316111E+001  +7.1692848884E-001 +5.4748545000E-001 
12398372.966 +7.2622249610E-001 +3.0798023222E+000  +4.8529451525E-003 +7.8556994191E+001  +4.4045499571E-003 +9.8828494794E+001  +7.3925246429E-001 +6.4762074093E-001 
12523518.148 +7.2834658112E-001 +2.4770561480E+000  +5.5775037897E-003 +8.6960923968E+001  +4.1606160438E-003 +8.0327269887E+001  +7.4251202761E-001 -1.1035743561E+000 
12648663.329 +7.3391784341E-001 +2.7632798546E+000  +6.3593466882E-003 +8.6471477226E+001  +7.0328097391E-003 +7.4297908639E+001  +7.5250028652E-001 +1.9991157059E-001 
12773808.511 +7.5477693625E-001 +2.1185757214E+000  +6.6350442116E-003 +8.0690284222E+001  +5.6166212336E-003 +8.2916269907E+001  +7.4477328970E-001 +1.5188959924E+000 
12898953.692 +7.7555182753E-001 -5.5912003416E-001  +6.8459209618E-003 +8.7283272306E+001  +5.4523898493E-003 +9.5710588755E+001  +7.8799036979E-001 +3.5700973973E-001 
13024098.874 +8.0430824300E-001 +1.0014377051E+000  +7.2310819888E-003 +9.8051025814E+001  +6.0063081857E-003 +8.3985205570E+001  +8.1073487699E-001 +4.5566884918E-001 
13149244.055 +7.7940314790E-001 -1.0275862522E+000  +7.0076737187E-003 +7.7713560250E+001  +5.5573903314E-003 +6.7729923881E+001  +8.2244692983E-001 -1.3527782964E+000 
13274389.237 +8.2653115848E-001 -9.3434445740E-001  +6.8596601356E-003 +7.8887480149E+001  +5.1944476168E-003 +8.7162836710E+001  +8.2375544730E-001 -3.0719981237E+000 
13399534.418 +8.3691822145E-001 -2.2344588284E-001  +6.3697190362E-003 +8.3557242241E+001  +6.9422908510E-003 +7.7411083039E+001  +8.6065182705E-001 -3.2953456303E+000 
13524679.599 +8.6027104885E-001 -2.0103290554E+000  +6.2775120331E-003 +9.1023407254E+001  +6.9796186386E-003 +8.4068605657E+001  +8.4789689985E-001 -1.5231720604E+000 
13649824.781 +8.7912024279E-001 -3.2903586851E+000  +6.9555227785E-003 +8.9315979769E+001  +8.1199567123E-003 +8.4293655222E+001  +8.7097345976E-001 -3.4559577123E+000 
13774969.962 +8.8046055860E-001 -2.3038469526E+000  +6.0553257163E-003 +9.5334762979E+001  +7.6021599710E-003 +8.6314897499E+001  +8.9821822399E-001 -3.4481305475E+000 
13900115.144 +9.2270683016E-001 -3.6924573818E+000  +6.0659943872E-003 +9.9656942963E+001  +6.2897543117E-003 +9.1501777115E+001  +9.2584856272E-001 -2.1765333535E+000 
14025260.325 +9.0070917834E-001 -4.3870038003E+000  +7.7070152067E-003 +7.6861406071E+001  +6.0863136899E-003 +8.9486884977E+001  +9.2891521024E-001 -4.6582268514E+000 
14150405.507 +9.6152041874E-001 -3.3370927588E+000  +7.3565326724E-003 +8.1388982548E+001  +8.3981167317E-003 +6.5844534963E+001  +9.3859190404E-001 -4.6715467637E+000 
14275550.688 +9.6733346262E-001 -4.3798481213E+000  +7.1186912405E-003 +8.1282352530E+001  +7.6815602605E-003 +9.2094610898E+001  +9.7273103519E-001 -5.3537741652E+000 
14400695.870 +9.7931741937E-001 -4.9448381224E+000  +8.0770025199E-003 +8.4720181033E+001  +6.9529262849E-003 +6.8616617086E+001  +9.8574142484E-001 -5.5326933992E+000 
