!  2-Port S-parameters saved by WinCal
! VAR MeasName=S-Parameters (CALIBRATED_DATA) read from VNA (P5004A)
! VAR MeasDate=28/08/2024 10:48:01
! VAR NAME=S2_r5c9_SET1_9k-100M_1
! VAR FILENAME=S2_r5c9_SET1_9k-100M_1.S2P
! VAR DATE=28/08/2024 10:48:01
! VAR PHYS_PORTS=1,2
! VAR ObjTypeName=DATASET
! VAR IndexType=Frequency
!
# Hz S MA R 50
9000.000 +8.0882922003E-002 -1.6730535605E+002  +2.1987327566E-003 -5.2921471356E+000  +1.0143956872E-002 +5.6530561483E+001  +2.8154094576E-001 -1.5596577030E+002 
134145.181 +1.1163156751E-001 +1.6973419154E+002  +6.3488647204E-004 +1.1906570435E+002  +3.0544927006E-004 +1.6027342207E+002  +2.4261025549E-001 -1.6976483371E+002 
259290.363 +1.1148317801E-001 +1.6961331953E+002  +5.3659851933E-004 -8.8353023933E+001  +4.7341337533E-004 +5.8307538186E+001  +2.4189261905E-001 -1.6968034847E+002 
384435.544 +1.1584444730E-001 +1.7014970542E+002  +3.7458804694E-004 -7.5190235242E+001  +4.9275698341E-004 +6.8088964850E+001  +2.4052266846E-001 -1.6923688911E+002 
509580.726 +1.1417424720E-001 +1.6987041674E+002  +1.0249306377E-003 -1.3638765161E+002  +1.7406814472E-003 -1.6968932171E+001  +2.6616180641E-001 -1.6083261042E+002 
634725.907 +1.1644752970E-001 +1.7105990886E+002  +1.3339335369E-003 -1.4908951015E+002  +3.8032512280E-004 +1.8249038812E+001  +2.5119311188E-001 -1.6486262946E+002 
759871.089 +1.1947447126E-001 +1.7116477503E+002  +6.0929344549E-004 +2.2805138740E+001  +8.7803711575E-004 -1.7186230606E+001  +2.4918203548E-001 -1.6502972237E+002 
885016.270 +1.1998768419E-001 +1.6954747935E+002  +4.1253104251E-004 -1.5003201092E+002  +6.9764895460E-004 +1.6276805579E+002  +2.4326046260E-001 -1.6689540633E+002 
1010161.452 +1.1873276913E-001 +1.6974603266E+002  +7.5203594480E-004 -1.5436034741E+002  +1.2334766091E-003 -7.1651549712E+001  +2.2433797282E-001 -1.6210115110E+002 
1135306.633 +1.1550707554E-001 +1.6862700603E+002  +7.4488336132E-004 +1.3403064784E+001  +1.4127058069E-003 -1.2830215488E+002  +1.8627591410E-001 -1.6134830704E+002 
1260451.815 +1.2239565715E-001 +1.7070846174E+002  +1.2369237410E-003 +1.0058889893E+002  +6.8983194195E-004 +9.2105687513E+001  +2.4039339024E-001 -1.6033809811E+002 
1385596.996 +1.2773389022E-001 +1.7324655749E+002  +4.1118910776E-004 +9.1496104512E+000  +2.0272874359E-003 +5.2356165304E+001  +2.5969031729E-001 -1.5799852391E+002 
1510742.178 +1.2686244558E-001 +1.7057792168E+002  +6.2011153390E-004 +7.3267016438E+000  +7.2984658584E-004 +1.1808461607E+002  +2.6890533543E-001 -1.5908546184E+002 
1635887.359 +1.2860503966E-001 +1.7178937180E+002  +3.6384002869E-004 -4.9107035508E+001  +1.6407661180E-003 -1.1543715966E+001  +2.4625417949E-001 -1.5833881003E+002 
1761032.541 +1.2712758122E-001 +1.6864427913E+002  +1.5181765600E-003 +1.5134018118E+002  +3.2606537383E-003 +1.0947936935E+002  +2.3787614351E-001 -1.5541116334E+002 
1886177.722 +1.2937295127E-001 +1.6801786128E+002  +9.8060445227E-004 -7.9790976320E+001  +9.1323962917E-004 +4.5575865486E+001  +2.2671917169E-001 -1.5296083381E+002 
2011322.904 +1.3394463352E-001 +1.6767441990E+002  +2.6053696632E-003 -1.3938475095E+001  +1.2194762264E-003 +9.6171628538E+001  +1.9335055086E-001 -1.6857931505E+002 
2136468.085 +1.3295566399E-001 +1.6551350210E+002  +5.3816307705E-003 +1.4611523370E+001  +1.0313515237E-003 +6.7013447117E+000  +1.2451641631E-001 -1.5538785378E+002 
2261613.267 +1.2704444557E-001 +1.6016756502E+002  +3.6991241385E-003 +8.6635806231E+001  +3.2995362089E-003 -1.4350286029E+002  +1.7279122080E-001 +1.7811987424E+002 
2386758.448 +1.3596395575E-001 +1.6600910482E+002  +2.7490735569E-003 +5.8562762245E+000  +4.6364819315E-003 -1.0584860825E+002  +1.2595431012E-001 -1.6447976941E+002 
2511903.630 +1.3205285964E-001 +1.5872231824E+002  +6.6793617911E-003 +3.5728754305E+001  +7.1918861445E-003 -7.7550430742E+001  +1.6591462574E-001 +1.5335339996E+002 
2637048.811 +1.2406166082E-001 +1.5666364176E+002  +4.0802250554E-003 -6.6532597397E+001  +3.7302331136E-003 -1.8744054280E+001  +2.2897679141E-001 +1.5094929490E+002 
2762193.992 +1.0644116372E-001 +1.7170390339E+002  +9.4293443882E-003 -3.1529058084E+001  +6.4864558864E-003 -1.3348691412E+002  +1.0402513010E-001 +5.1664486319E+001 
2887339.174 +1.2586154575E-001 -1.7781691679E+002  +4.9216879771E-003 -8.2628172290E+001  +6.6328256193E-003 -1.7337390855E+002  +2.6006632452E-001 -1.1180569420E+002 
3012484.355 +1.1769772119E-001 +1.6885662741E+002  +8.3962081844E-003 +6.2297016764E-001  +5.2851829338E-003 -2.3747912104E+001  +8.0943407006E-002 -9.7673792272E+001 
3137629.537 +1.2180811394E-001 +1.6510933535E+002  +5.7286839744E-003 +1.6097232763E+002  +6.3724180469E-003 +1.4477038336E+002  +4.2381812303E-001 -7.6273129082E+001 
3262774.718 +1.0690894828E-001 +1.6325254445E+002  +1.1994312685E-002 +1.1479822552E+001  +9.8209724404E-003 -1.7796465737E+002  +2.9449349497E-001 -4.1135055884E+001 
3387919.900 +1.7968789360E-001 +1.2988344455E+002  +4.2881325828E-002 +1.3508032549E+002  +8.6405701846E-002 -3.3829198372E+001  +1.1371383294E+000 -1.4221913746E+001 
3513065.081 +1.6069071767E-001 +1.4696756992E+002  +1.6036970709E-002 +1.4604880336E+002  +7.3164341591E-003 -1.9855033825E+001  +4.0437665202E-001 +1.2490885862E+002 
3638210.263 +1.6460588361E-001 +1.4448139594E+002  +1.0686388921E-002 +9.5546020165E+000  +2.1571407770E-003 -9.2887520863E+001  +4.8351331781E-001 +9.1945474854E+001 
3763355.444 +2.0287776140E-001 +1.3749034992E+002  +3.6835421356E-002 +1.6017326110E+002  +1.2816099438E-002 +1.5013591891E+002  +8.5235565699E-001 +1.1624444805E+002 
3888500.626 +1.7355300887E-001 +1.4970388361E+002  +1.1969609712E-002 +4.2960723782E+001  +3.2458765790E-003 -8.8728103409E+000  +6.4481996072E-002 +1.6698824863E+002 
4013645.807 +1.3944588150E-001 +1.5413141707E+002  +5.4396883208E-003 +1.7818065796E+002  +1.0613955218E-002 +2.2480502685E+001  +5.3526879606E-001 +1.4734750289E+002 
4138790.989 +1.8596496333E-001 +1.4570510048E+002  +1.0993994609E-002 +7.6584993533E+001  +1.9956397378E-002 +2.4587177265E+001  +4.4111619753E-001 +1.1061526370E+002 
4263936.170 +2.1142050354E-001 +1.4447747830E+002  +9.1754662215E-003 +8.1383378981E+001  +1.1687849450E-002 +9.6266393375E+001  +7.7042482161E-001 +1.2424509238E+002 
4389081.352 +2.0880704504E-001 +1.3982902358E+002  +1.0226271370E-002 +5.4578044200E+001  +7.3173735134E-003 +1.3945426680E+002  +5.8131349287E-001 +1.2078440441E+002 
4514226.533 +2.1787446193E-001 +1.3912915511E+002  +5.5141174405E-003 +1.3963835527E+002  +8.4961341439E-003 +3.1554094216E+001  +4.8664051482E-001 +7.8773658867E+001 
4639371.715 +2.7957993354E-001 +1.3661273084E+002  +1.5549839796E-002 +1.2431588553E+002  +3.2711401284E-002 +4.1023186199E+001  +9.6020987108E-001 +9.2454379395E+001 
4764516.896 +4.4930977146E-001 +1.3631218946E+002  +3.5013410371E-002 -1.3999089881E+002  +3.9454809664E-001 +3.9204875114E+001  +1.1851645503E+001 -1.1099991504E+000 
4889662.078 +3.9521532517E-001 +1.3234092199E+002  +4.7542324270E-002 -6.9250437835E+000  +3.1619235794E-002 +1.1680705165E+002  +3.4849962807E+000 -1.6962082620E+002 
5014807.259 +3.6459565817E-001 +1.2909759915E+002  +6.3338933187E-002 +1.8588239716E+001  +2.3455193956E-002 +1.3717302438E+001  +2.9045337163E+000 -3.9310753241E+001 
5139952.441 +4.9866609375E-001 +1.1904208273E+002  +5.5636986727E-002 +1.4457645252E+002  +7.6637494829E-002 -1.7795136583E+002  +4.2613764938E+000 +1.1352796083E+002 
5265097.622 +3.6377152172E-001 +1.3412122284E+002  +1.2298399768E-002 -1.5405226304E+002  +1.7679178758E-002 +1.4971866645E+002  +1.7839290652E+000 +1.2868268275E+002 
5390242.804 +4.0303681593E-001 +1.2153177464E+002  +2.2858472066E-002 +6.3648843322E+001  +2.3642282609E-002 +7.2775019222E+001  +1.1523513617E+000 +8.1527780937E+001 
5515387.985 +4.0907996373E-001 +1.2609655236E+002  +1.8660234551E-002 +1.4767086765E+002  +2.4772475504E-002 +1.6901845374E+001  +1.0329097690E+000 +1.0224510876E+002 
5640533.166 +4.8762110375E-001 +1.1377883592E+002  +7.4543920486E-002 +1.4375782086E+002  +5.7514464265E-002 +9.2486778492E+001  +3.0919674651E+000 +1.1670648100E+002 
5765678.348 +4.5979759728E-001 +1.2940910651E+002  +1.0767590042E-002 +5.3794782517E+001  +2.7507790401E-002 +1.1811846538E+002  +2.0134765505E+000 +7.1764700762E+001 
5890823.529 +5.7838170232E-001 +1.2420803326E+002  +3.9375865304E-002 +8.9616832291E+001  +2.5541445469E-002 +1.6156029575E+002  +2.0341460504E+000 +5.2814765444E+001 
6015968.711 +6.1322321245E-001 +1.1992173698E+002  +5.9235344653E-002 +7.6335599500E+001  +4.0481607405E-002 +4.8408771637E+001  +2.1512032096E+000 +3.4374907678E+001 
6141113.892 +7.7991554075E-001 +9.4214201484E+001  +6.1447939849E-002 +5.3591637145E+001  +6.5790722754E-002 -4.9459155778E+000  +2.0894090432E+000 +1.9703238615E+001 
6266259.074 +8.3542488672E-001 +9.7869170152E+001  +2.3433246966E-002 +5.5211682158E+001  +1.7052408017E-002 +2.6585418522E+001  +1.7111661587E+000 +8.6623393873E+000 
6391404.255 +9.9320220965E-001 +1.0309704401E+002  +3.9322087686E-002 +5.1177057297E+001  +2.4308722327E-002 +1.3910597510E+001  +1.5244803724E+000 +1.5011794001E+001 
6516549.437 +1.3328514273E+000 +8.4012822460E+001  +2.7948910929E-002 +7.4252339211E+001  +4.7600998434E-002 +4.5180836564E+001  +1.2686852117E+000 +1.1466860554E+001 
6641694.618 +1.1899217009E+000 +8.3296971022E+001  +3.1028145035E-002 +4.0812667367E+001  +3.5370784450E-002 +2.9053884639E+001  +1.4749543438E+000 -3.7733396786E+000 
6766839.800 +1.9657504780E+000 +4.0860941346E+001  +4.3119129031E-002 +3.1543483959E+001  +4.8393736938E-002 +1.2334717744E+001  +1.0962982543E+000 +1.6096002313E+001 
6891984.981 +1.6404766912E+000 +3.9508362263E+001  +2.8604094493E-002 -8.2833365695E+000  +1.5578543380E-002 +4.9209752177E+001  +1.2698864770E+000 +1.7530239564E-001 
7017130.163 +1.5575363057E+000 +2.2838373813E+001  +3.5594813889E-002 +1.3548134386E+001  +4.6092278602E-002 +1.4669033694E+000  +1.1762378098E+000 -1.5381978842E+001 
7142275.344 +1.5102321215E+000 +5.7891264243E+000  +3.4160054240E-002 +1.7855334878E+001  +2.3677412543E-002 +1.1269899098E+001  +1.0879211658E+000 -1.1046304386E+001 
7267420.526 +1.5128601685E+000 -7.6558709914E-001  +3.2849975845E-002 +4.7541183361E+000  +7.7705199565E-003 -3.4361633908E+001  +1.4595320555E+000 -9.8102423326E+000 
7392565.707 +1.2840494818E+000 -2.0802559032E+000  +2.2633756967E-002 +1.6210107107E+001  +2.5300029676E-002 -1.8866901487E+001  +1.2350936886E+000 -8.4890033308E+000 
7517710.889 +1.1090910118E+000 -2.7730634417E+000  +5.4593970661E-003 -2.4065133755E+001  +6.8034850856E-003 +1.0669449791E+002  +1.2232283884E+000 -4.3515666790E+000 
7642856.070 +9.7326858222E-001 -1.4407593447E+000  +1.7056072556E-002 +1.1362082015E+001  +1.8736369414E-002 +2.5344426551E+001  +9.7924625308E-001 -1.0181355537E+001 
7768001.252 +1.0405595285E+000 +3.4522505133E+000  +1.3181033483E-002 +2.5952800786E+001  +1.9246341484E-002 +2.5214891730E+001  +1.0159391624E+000 -2.2755399010E+000 
7893146.433 +9.6357457563E-001 +2.4999385376E+000  +1.8160342629E-002 +5.7471234572E+000  +8.7517862245E-003 +5.2994536621E+001  +8.8335942815E-001 -1.3394175965E+001 
8018291.615 +8.2769818235E-001 +4.8718665889E+000  +9.4588704471E-003 +3.2333656473E+001  +1.1934912954E-002 +6.3314203735E+001  +8.5108115908E-001 -3.0065771586E+000 
8143436.796 +7.3040846840E-001 +1.1283437380E+001  +1.7179098203E-002 +2.0182862692E+001  +1.4083259203E-002 +9.2822675189E+000  +7.4249187316E-001 -3.0366631062E+000 
8268581.977 +7.4376861739E-001 +1.2797601413E+001  +2.1325078928E-002 +1.6939778710E+001  +1.4957500123E-002 +3.7007423402E+001  +8.2510695043E-001 +3.7412953326E+000 
8393727.159 +6.5271557973E-001 +2.4724493567E+000  +1.3664025316E-002 -2.4706701725E+000  +1.2099034782E-002 +1.1668144009E+001  +7.0347231509E-001 -5.1098434199E+000 
8518872.340 +7.7465074136E-001 +3.3137003178E+000  +1.2836643232E-002 +8.0981922071E-001  +1.0165442734E-002 +2.9974763883E+001  +7.3826700662E-001 -5.4048267986E+000 
8644017.522 +6.3010276717E-001 +7.0872416106E+000  +1.4327457139E-002 +8.1621180664E-001  +1.1905305336E-002 +4.3397651321E+001  +7.3003012437E-001 -3.4984158101E+000 
8769162.703 +6.4651133809E-001 +9.2663959606E+000  +1.3252218487E-002 +1.6393210641E+001  +1.5459163723E-002 +2.4308866934E+001  +6.7445474337E-001 +1.9556120953E-001 
8894307.885 +6.1483272609E-001 +6.9287961823E+000  +1.3596191043E-002 +2.1587394869E+001  +1.3468019520E-002 +1.2999116593E+001  +6.4642750604E-001 -4.9834507059E+000 
9019453.066 +5.7667014241E-001 +7.8480984438E+000  +1.6422865469E-002 +4.0647885231E+000  +1.4268655247E-002 +1.3091773242E+001  +6.2810988423E-001 +1.5427238653E-001 
9144598.248 +5.8025369590E-001 +3.8982645605E+000  +1.1433672231E-002 +1.5953986434E+001  +1.2883532867E-002 +3.5995397370E+001  +6.3087534151E-001 -4.2997395483E+000 
9269743.429 +5.2855834484E-001 +5.9241186274E+000  +1.5582844835E-002 +4.4576053900E+000  +1.6320546446E-002 +2.9481779585E+001  +6.4055108152E-001 -3.6898728950E-001 
9394888.611 +5.5923820075E-001 +5.5901263031E+000  +1.4358238982E-002 +1.6072884215E+001  +1.1153223416E-002 +2.5654898370E+001  +5.9445420708E-001 +2.8529126098E-001 
9520033.792 +5.8247547081E-001 +5.3131978017E+000  +1.1292589094E-002 -2.6848692675E+000  +1.4201148736E-002 +4.6059080279E+001  +5.8130671981E-001 +7.1783099179E-001 
9645178.974 +5.4712699335E-001 +6.0949004897E+000  +1.8210430310E-002 +8.6832109379E+000  +1.5188260571E-002 +2.9834288629E+001  +6.2934232473E-001 -5.1149500795E+000 
9770324.155 +5.3816073387E-001 -1.1715582803E-001  +1.1183202975E-002 +7.3999680712E+000  +1.2709038836E-002 +3.1379876054E+001  +5.9482792417E-001 -4.1568384380E+000 
9895469.337 +5.1416609690E-001 -5.8241603512E-001  +1.2174609715E-002 +1.9023832319E+001  +1.1820071276E-002 +1.7467364125E+001  +5.4407141702E-001 -2.2059733753E+000 
10020614.518 +5.4289298468E-001 +2.6315065838E+000  +1.3039657469E-002 +1.5594557155E+001  +1.4272292985E-002 +2.0663184427E+001  +5.4220358177E-001 -6.4775901691E+000 
10145759.700 +5.6746917028E-001 +5.3220801157E+000  +1.4751227356E-002 +1.5917525570E+001  +1.1202852479E-002 +3.4324239367E+001  +5.2235054786E-001 -1.8621342765E+000 
10270904.881 +5.5121727638E-001 +4.9256824676E+000  +1.3934127801E-002 +1.5456278835E+001  +1.1833110336E-002 +3.1701831049E+001  +5.7888074568E-001 -6.7866829286E-001 
10396050.063 +5.5600702486E-001 +1.8490061921E+000  +1.4858069814E-002 +1.9356255775E+001  +1.1519399208E-002 +2.5823187023E+001  +5.9953564304E-001 -1.8269461697E+000 
10521195.244 +5.4478801138E-001 +8.8846708085E+000  +1.3423605329E-002 +8.6015874416E+000  +1.1716230881E-002 +3.1344664207E+001  +5.7195806257E-001 +1.7512430119E+000 
10646340.426 +5.7236698330E-001 +1.0041578038E+001  +1.4381672890E-002 +1.9077497044E+001  +1.2538617299E-002 +3.0099103173E+001  +5.9074943617E-001 +4.6560235667E+000 
10771485.607 +5.8412884090E-001 +4.0709719228E+000  +1.1510498909E-002 +9.1530325143E+000  +1.3323140192E-002 +3.0483291535E+001  +5.8760179205E-001 +1.1417197128E+000 
10896630.788 +5.3709033920E-001 +5.1464363814E+000  +1.3641628945E-002 +2.2855556596E+001  +1.4047429197E-002 +3.1638693100E+001  +6.0637317322E-001 -1.0067207755E-001 
11021775.970 +5.6486494417E-001 +6.1339664604E+000  +1.5058548447E-002 +1.9842958896E+001  +1.5646643015E-002 +2.4255140913E+001  +6.0527751556E-001 +1.8502764550E+000 
11146921.151 +6.0095574296E-001 +8.7924026500E+000  +1.4513870069E-002 +1.8344984308E+001  +1.4544678320E-002 +2.2894840559E+001  +6.3221635508E-001 +6.0142648599E-001 
11272066.333 +5.8823441364E-001 +5.1267946590E+000  +1.4489340968E-002 +1.7585410661E+001  +1.7224276853E-002 +3.1076808862E+001  +6.3303300758E-001 +3.7208627848E+000 
11397211.514 +5.8881219141E-001 +5.3586488473E+000  +1.4670353297E-002 +1.0118056598E+001  +1.4033174479E-002 +3.1185963320E+001  +6.2265295429E-001 +1.9452598683E+000 
11522356.696 +6.3151430666E-001 +4.8333345348E+000  +1.3750718502E-002 +2.0503103207E+001  +1.3969991994E-002 +2.9294939586E+001  +6.2392411176E-001 -2.5193316118E+000 
11647501.877 +6.1689059294E-001 +4.9537336694E+000  +1.5729969499E-002 +2.6958285699E+001  +1.4506470188E-002 +3.5634715200E+001  +6.3863608804E-001 +4.3869605784E+000 
11772647.059 +6.4552148978E-001 +5.3935484610E+000  +1.5614708395E-002 +2.0652763619E+001  +1.5846784466E-002 +2.8185968434E+001  +6.5554193560E-001 -7.9737773822E-002 
11897792.240 +6.5530897323E-001 +4.1674157829E+000  +1.4845512660E-002 +2.6227038708E+001  +1.4011417227E-002 +3.6386027606E+001  +6.6014511618E-001 +8.8478100450E-002 
12022937.422 +6.7916439429E-001 +6.7350683745E+000  +1.5325967772E-002 +2.3739918498E+001  +1.3554544643E-002 +3.5701685366E+001  +6.9595739388E-001 +1.1743058763E-001 
12148082.603 +6.7418732865E-001 +4.4052893656E+000  +1.4155909463E-002 +2.2669153627E+001  +1.4991035387E-002 +3.0905525180E+001  +7.0268717949E-001 +1.9544727596E-001 
12273227.785 +7.1121683185E-001 +5.2895144430E+000  +1.5259834149E-002 +1.7247634937E+001  +1.5714861395E-002 +3.2184582222E+001  +7.1351676779E-001 -1.1340909446E+000 
12398372.966 +7.1465568863E-001 +3.9509919370E+000  +1.6380787298E-002 +1.7221020772E+001  +1.3718911671E-002 +1.9719306973E+001  +7.0645635592E-001 -1.9533265296E-001 
12523518.148 +7.1395705319E-001 +1.3070683224E+000  +1.5468202220E-002 +2.4973108467E+001  +1.4885334097E-002 +2.8040881284E+001  +7.1097552517E-001 -1.4606681646E+000 
12648663.329 +7.4935449899E-001 +2.6767491962E+000  +1.7298114786E-002 +2.1727251025E+001  +1.8564293783E-002 +2.5826252410E+001  +7.3966528961E-001 -7.3933339220E-002 
12773808.511 +7.4751597639E-001 +2.2978038407E+000  +1.4688198832E-002 +2.5243847337E+001  +1.5006497787E-002 +3.0557733445E+001  +7.3878089536E-001 -1.9209053005E-001 
12898953.692 +7.5002854726E-001 +1.8005507126E+000  +1.7120022076E-002 +2.3181513938E+001  +1.4485139402E-002 +3.0817959423E+001  +7.5070992454E-001 -4.1569125878E+000 
13024098.874 +7.6144746924E-001 -4.3646458204E-001  +1.6039977487E-002 +2.0575271704E+001  +1.7812531562E-002 +3.5215548683E+001  +7.7359000056E-001 -1.4634761016E+000 
13149244.055 +7.8752403969E-001 +3.9433258936E-001  +1.6959781616E-002 +2.5735695940E+001  +1.7278580645E-002 +3.9286463240E+001  +8.0175036191E-001 -1.3208240859E+000 
13274389.237 +8.2564069590E-001 +7.5678327109E-001  +1.7292901227E-002 +2.0099538471E+001  +1.5817798357E-002 +2.2231063171E+001  +8.3156631841E-001 -2.9930770215E+000 
13399534.418 +8.3839793037E-001 -1.9130906421E+000  +1.7395994639E-002 +2.5474340124E+001  +1.7057755406E-002 +2.9410358691E+001  +8.1913060533E-001 -2.6884650813E+000 
13524679.599 +8.4815755423E-001 -9.6554572403E-001  +1.7544887781E-002 +2.4520417553E+001  +1.7036306217E-002 +2.9538274397E+001  +8.5063300422E-001 -2.6402574315E+000 
13649824.781 +8.6246747720E-001 -3.6671227291E+000  +1.7039180596E-002 +2.6933433670E+001  +1.6978471561E-002 +3.1082294546E+001  +8.6774332244E-001 -3.0408918559E+000 
13774969.962 +8.6503994841E-001 -1.6592327872E+000  +1.7378837149E-002 +3.0960363791E+001  +1.6812422232E-002 +3.1767826115E+001  +8.9696713680E-001 -3.1029077038E+000 
13900115.144 +9.0504195194E-001 -2.3832981783E+000  +1.7479677779E-002 +2.6124062659E+001  +1.7876408420E-002 +2.4865082038E+001  +9.1387189571E-001 -3.3255792212E+000 
14025260.325 +8.9900249614E-001 -4.5534719033E+000  +1.7073289454E-002 +2.3661293434E+001  +1.6485545759E-002 +2.9707188847E+001  +9.3117374380E-001 -4.2292653922E+000 
14150405.507 +9.3257870859E-001 -4.0326449546E+000  +1.7043792438E-002 +2.4901824880E+001  +1.7642814212E-002 +1.9352206076E+001  +9.4727531037E-001 -2.8056667175E+000 
14275550.688 +9.4104056019E-001 -6.1646816849E+000  +1.7700529804E-002 +2.5425929819E+001  +1.8432283543E-002 +2.3701475059E+001  +9.6497321018E-001 -4.9408452764E+000 
14400695.870 +9.7729976921E-001 -5.5474364889E+000  +1.8391118750E-002 +2.9608897202E+001  +1.7996801646E-002 +2.5883875950E+001  +9.6534824870E-001 -5.5621234439E+000 
