!  2-Port S-parameters saved by WinCal
! VAR NAME=S2_r2c8_formed(1)_9k-100M_3
! VAR DATE=30/08/2024 11:25:41
! VAR FILENAME=S2_r2c8_formed(1)_9k-100M_3.S2P
! VAR MeasName=S-Parameters (CALIBRATED_DATA) read from VNA (P5004A)
! VAR MeasDate=27/08/2024 13:55:19
! VAR PHYS_PORTS=1,2
! VAR ObjTypeName=DATASET
! VAR IndexType=Frequency
!
# Hz S MA R 50
9000.000 +6.9915785910E-002 -1.4443321995E+002  +2.9379095112E-002 +1.1958379906E+002  +4.6850021448E-002 +1.6002732772E+002  +3.0311600488E-001 -4.5004118789E+001 
134145.181 +1.1065391370E-001 +1.6964694922E+002  +3.4203614219E-005 -8.8244064841E+001  +5.9511049167E-004 +1.5855316080E+001  +2.4025775771E-001 -1.7091538939E+002 
259290.363 +1.1139600155E-001 +1.6961461393E+002  +6.8970797482E-005 -2.6285914174E+001  +1.5081339677E-003 -6.9234631389E+001  +2.5812850882E-001 -1.6880816557E+002 
384435.544 +1.1456370492E-001 +1.7034675588E+002  +4.1246154615E-004 -1.1752727282E+002  +4.7044523497E-004 +1.6222361430E+002  +2.4545598490E-001 -1.6961704512E+002 
509580.726 +1.1295622586E-001 +1.7135556879E+002  +7.0335155959E-004 +3.2412291051E+001  +4.6152457367E-004 -1.3521560053E+002  +2.4544184240E-001 -1.6689598009E+002 
634725.907 +1.1719248791E-001 +1.7053053960E+002  +2.1659669184E-004 -9.5654956811E+001  +9.4386600431E-004 -1.4489337543E+001  +2.4567546833E-001 -1.6677754190E+002 
759871.089 +1.1583172335E-001 +1.7042465533E+002  +6.2310880200E-004 -1.6290196371E+002  +6.5733479000E-004 +1.2690648439E+002  +2.4022159453E-001 -1.6555574186E+002 
885016.270 +1.1704200601E-001 +1.6928287192E+002  +5.0890690720E-004 -2.3362027702E+001  +2.4896510277E-004 -1.3609302165E+002  +2.3679868973E-001 -1.6300063852E+002 
1010161.452 +1.1678459468E-001 +1.6978448856E+002  +3.5599520651E-003 +1.2861244031E+002  +1.6902143421E-003 +1.3087826012E+001  +1.1191761112E-001 +1.7365811385E+002 
1135306.633 +1.1347235934E-001 +1.7085684538E+002  +8.6948183762E-004 -1.5083894931E+002  +3.0349365397E-003 +1.2590792165E+002  +2.1259921050E-001 -1.4950611373E+002 
1260451.815 +1.1463939064E-001 +1.7220271912E+002  +2.0537368005E-004 -4.0598998269E+001  +2.5373293738E-003 +1.1943771378E+002  +2.2170639455E-001 -1.5490013591E+002 
1385596.996 +1.2691503807E-001 +1.7173774454E+002  +6.7605290933E-004 -1.2518976215E+002  +5.7223613405E-004 -1.4041884845E+002  +2.5109771924E-001 -1.5903994007E+002 
1510742.178 +1.2546280023E-001 +1.7076269861E+002  +9.0173980270E-004 +2.2702612446E+001  +7.5246229589E-004 -5.6916417617E+001  +2.6273391349E-001 -1.5717430176E+002 
1635887.359 +1.2489774799E-001 +1.7075002842E+002  +8.5297828384E-004 +8.3801693245E+001  +1.1096274297E-003 +1.1330571898E+002  +2.3925229452E-001 -1.5830855424E+002 
1761032.541 +1.2737688059E-001 +1.6862704393E+002  +1.6955742136E-003 +7.4038462251E+001  +2.2176734794E-003 -3.3594047534E+001  +2.1266282285E-001 -1.5893889026E+002 
1886177.722 +1.2986262723E-001 +1.6535601357E+002  +5.5066150056E-004 +1.9578252401E+001  +1.2019961936E-003 +8.5341120504E+001  +1.8584649138E-001 -1.6383138370E+002 
2011322.904 +1.2997426774E-001 +1.6392625308E+002  +2.0609564268E-003 +1.2552147113E+002  +1.1319061709E-003 -1.1286362262E+002  +2.0215455679E-001 -1.6913942373E+002 
2136468.085 +1.2890145404E-001 +1.6306305851E+002  +3.5296312916E-003 -1.1711165780E+002  +5.4168306546E-003 +1.2071747738E+002  +1.3597561182E-001 -1.6573861012E+002 
2261613.267 +1.3297991095E-001 +1.6348556826E+002  +2.3559867556E-003 -4.9736458863E+001  +1.4187468315E-003 +5.1360310926E+001  +1.9968763023E-001 +1.7258872678E+002 
2386758.448 +1.3834035407E-001 +1.6503306066E+002  +3.5828736981E-003 -4.0303151066E+001  +2.7641636181E-003 +1.5912552472E+002  +2.1344953311E-001 +1.6472547852E+002 
2511903.630 +1.3687549395E-001 +1.5892774630E+002  +4.2611172009E-003 -7.7903016344E+001  +3.0467950966E-003 -8.4315492240E+001  +1.7085323701E-001 +1.7837085771E+002 
2637048.811 +1.0312954304E-001 +1.5606818132E+002  +2.1624137666E-002 +1.3790981044E+002  +3.5357585252E-002 +8.5630536245E+000  +3.5047127676E-001 +5.9547644749E+001 
2762193.992 +1.3022240127E-001 +1.5097719650E+002  +4.5507938300E-002 +1.6317202163E+002  +1.5133523762E-002 -7.7630041240E+001  +1.4187837356E+000 -5.7498145348E+001 
2887339.174 +9.7101497569E-002 +1.6843034480E+002  +2.5177594022E-002 +6.8346459347E+001  +1.2521091595E-002 -6.3283568406E+001  +7.3116688918E-001 -1.3652477640E+002 
3012484.355 +1.1869804580E-001 +1.7253588122E+002  +4.6225766307E-003 -1.1767512947E+002  +2.3958878650E-003 +1.6124469573E+002  +5.6364114013E-001 -1.0516887800E+002 
3137629.537 +1.3677249729E-001 +1.7666912587E+002  +8.1283365043E-003 +6.3556194268E+001  +2.4933392791E-003 +1.3830875195E+002  +4.7686921124E-001 -1.1254633873E+002 
3262774.718 +8.3032915137E-002 +1.5331681565E+002  +1.0331130352E-002 -1.6846192260E+002  +4.7097013999E-003 -1.5029929117E+002  +1.2995646133E-001 -8.1723950803E+001 
3387919.900 +1.1178250908E-001 +1.6716783468E+002  +2.6189383536E-003 +2.1492794929E+001  +6.3985128893E-004 -3.6216930541E+001  +1.5807920667E-001 +1.1573589463E+002 
3513065.081 +1.6215118467E-001 +1.3845578110E+002  +1.9305758967E-003 -1.7928626500E+002  +3.2661945351E-003 +1.6358720164E+002  +1.1182460005E-001 -7.6391515207E+001 
3638210.263 +1.5609925577E-001 +1.4473173321E+002  +1.2171391368E-002 +1.4937343229E+002  +3.4546062757E-002 +1.5235964931E+002  +1.0022694271E+000 +1.2739562824E+002 
3763355.444 +1.7623461270E-001 +1.3805309681E+002  +9.4450967562E-003 +1.4569436934E+002  +2.6321540097E-002 -1.3046021201E+002  +6.0386933318E-001 +9.6626619730E+001 
3888500.626 +1.7014370854E-001 +1.2647398379E+002  +1.5018369135E-002 +1.1245207818E+002  +7.2710025282E-003 -1.4981322034E+002  +5.4006795384E-001 +1.0126063555E+002 
4013645.807 +1.6008178170E-001 +1.3104251456E+002  +1.0906922346E-002 +1.2485933654E+002  +1.6914867842E-002 +5.9463800665E+001  +9.4606198198E-001 +1.1283465383E+002 
4138790.989 +2.0058694552E-001 +1.4692107814E+002  +1.2953770732E-002 +9.8875927582E+001  +1.2298164146E-002 +1.5062832506E+002  +1.2859044895E+000 +1.2478307070E+002 
4263936.170 +2.0112562480E-001 +1.4596689395E+002  +2.0820503016E-002 -6.0475199199E+001  +1.7658079358E-002 -1.3255833217E+002  +1.3124267189E+000 +9.7994547079E+001 
4389081.352 +2.1670731153E-001 +1.3052642918E+002  +7.2496442269E-003 -2.9586140352E+001  +1.7500235201E-002 +5.0071503171E+001  +1.3424814153E+000 +9.4677849475E+001 
4514226.533 +1.4825688398E-001 +1.1911620158E+002  +8.4862256191E-003 -9.0842626521E+001  +4.4557905404E-003 +1.7589934274E+002  +2.7468100481E-001 +1.2422125159E+000 
4639371.715 +3.0612714342E-001 +1.4093105407E+002  +1.5867917897E-002 -1.5340270379E+002  +1.1573190709E-002 +8.6422849965E+001  +4.0109340382E+000 +1.2110984159E+002 
4764516.896 +3.5092645038E-001 +1.3315254659E+002  +5.9059918052E-002 +6.8420918988E+001  +9.5725635868E-002 -1.7692106777E+002  +3.9179955485E+000 +2.2802995104E+001 
4889662.078 +3.7346135907E-001 +1.3590455047E+002  +2.3991614542E-002 +1.0335293837E+002  +7.0459780197E-002 -9.3339469976E+001  +4.4664932969E+000 +1.7002087998E+002 
5014807.259 +4.3308249580E-001 +1.3369356132E+002  +6.8655426052E-002 -1.2652910583E+002  +1.2993022081E-002 +7.1868040613E+001  +2.7211690600E+000 +9.7533270153E+001 
5139952.441 +3.8878135457E-001 +1.2280660769E+002  +2.0624515955E-002 -1.5046969939E+002  +1.9585830366E-002 -1.1171688466E+002  +6.3828227823E+000 +1.2453020729E+002 
5265097.622 +4.3162014612E-001 +1.3723587941E+002  +3.4267835221E-002 +9.3861285543E+001  +1.6182692585E-002 -8.1486390494E+000  +1.8052079124E+000 +4.7883552414E+001 
5390242.804 +3.7398445967E-001 +1.2656754828E+002  +1.0946847946E-002 +1.2314400561E+002  +3.8305387946E-002 +1.6529507872E+002  +1.7862926947E+000 +8.1820828928E+001 
5515387.985 +4.4110286867E-001 +1.2775032727E+002  +1.6312353890E-002 -1.4227978872E+002  +2.5972466238E-002 +4.2826480399E+001  +2.4479463889E+000 +9.3307170412E+001 
5640533.166 +4.4280004739E-001 +1.2251025609E+002  +1.3974100997E-002 +1.1419995563E+002  +9.8202019282E-003 +1.5275707209E+002  +1.2118759813E+000 +9.8982538577E+001 
5765678.348 +5.3940419687E-001 +1.1986251278E+002  +3.0190876127E-002 +1.0800437718E+002  +2.1422957609E-002 +1.3289119282E+002  +2.6431706507E+000 +8.7731106334E+001 
5890823.529 +5.4277126972E-001 +1.1967281014E+002  +1.5481335294E-002 +1.6839666085E+001  +2.3437297008E-002 -8.3146261169E+000  +2.5128735607E+000 +8.5834517499E+001 
6015968.711 +5.7678094992E-001 +1.1684577281E+002  +1.5104411549E-002 +1.5120873759E+002  +1.2283566007E-002 -1.6448609385E+002  +2.2003475628E+000 +6.1668556702E+001 
6141113.892 +8.8857001354E-001 +1.0765232002E+002  +2.9008847001E-002 +8.7220338466E+001  +3.6950928538E-002 +7.8351107665E+001  +2.1562213177E+000 +4.2160013372E+001 
6266259.074 +9.6211847558E-001 +1.0976219352E+002  +1.2847677134E-002 +1.4870482913E+002  +2.1319715442E-002 +1.2563917218E+002  +1.8634833655E+000 +6.1572663024E+000 
6391404.255 +1.0333630573E+000 +8.7399414752E+001  +2.1243759339E-002 -7.1205801144E+001  +2.6054141768E-002 +1.3079196249E+002  +1.8631536841E+000 +7.5633584146E+000 
6516549.437 +1.2917502364E+000 +6.8702570175E+001  +3.4597563081E-002 +4.9077302725E+001  +4.9861645721E-002 +5.1471145519E+001  +1.2784366714E+000 +9.4190798876E+000 
6641694.618 +1.3209615702E+000 +7.0172406843E+001  +3.6232331218E-002 +9.9093460902E+001  +7.3481568184E-003 -1.5730552310E+002  +1.1729935042E+000 +1.1250806688E+001 
6766839.800 +1.9609554208E+000 +4.5850760203E+001  +4.7951255104E-003 -3.6671356671E+001  +1.1027486608E-002 +8.2922877706E+001  +1.1931575636E+000 -9.2597687783E-001 
6891984.981 +1.7858900235E+000 +3.2524613198E+001  +1.6952915193E-002 -1.6896780161E+002  +2.9606164278E-002 -2.2579249265E+001  +1.5396141467E+000 -5.0845078046E+000 
7017130.163 +1.4160766592E+000 +2.1055915173E+001  +6.5030247184E-003 +3.7059972027E+001  +2.1029669992E-002 +5.7178868756E+001  +1.3663946018E+000 -4.6317848413E+000 
7142275.344 +1.5118881877E+000 +5.2817378990E+000  +3.6904433681E-003 -4.8034221657E+001  +1.7446322599E-002 +1.1059681258E+002  +1.3485765924E+000 -1.6302084233E+001 
7267420.526 +1.7976053552E+000 +4.2599393820E+000  +8.4291071682E-003 -1.7728318480E+002  +2.1746492807E-002 +1.0663853827E+002  +1.3924242406E+000 -4.6555571028E+000 
7392565.707 +1.2710833364E+000 +7.9284615277E-001  +4.8373033823E-003 -3.3382634419E+000  +6.7655887969E-003 +1.4600874705E+000  +1.2446959999E+000 -7.1318294815E+000 
7517710.889 +1.1438761460E+000 -2.9913451562E+000  +3.4576800792E-003 -9.8466906140E+001  +1.0000713282E-002 +6.3953835037E+001  +1.2837256850E+000 -4.2728910346E+000 
7642856.070 +1.0671468414E+000 -6.1788262830E-001  +8.2502485435E-003 +3.5807610733E+001  +4.2095498112E-003 +1.1687641516E+002  +1.1598583271E+000 -5.9107825690E+000 
7768001.252 +1.0070125183E+000 +2.4075089774E+000  +8.2814812917E-003 +5.7622032692E+001  +1.1001982843E-002 +8.5779305091E+001  +1.0830342114E+000 -3.1098828229E+000 
7893146.433 +9.3519248390E-001 +4.6190005119E+000  +7.8997713221E-003 +6.8207183251E+001  +3.4673019222E-003 +1.3162368750E+002  +9.5156588654E-001 -7.3931597214E+000 
8018291.615 +8.3805950211E-001 +2.0392138501E+000  +6.7174299041E-003 -1.3666235482E+002  +6.5877432074E-003 +1.4512204422E+002  +8.7796414480E-001 -2.8855476879E+000 
8143436.796 +7.9098679248E-001 +4.0442489662E+000  +7.5764855985E-003 +9.8016221088E+001  +1.0325666009E-003 +1.1936252597E+002  +8.5383450971E-001 +1.0891289527E+000 
8268581.977 +8.1477933254E-001 +8.6126778740E+000  +2.7950098013E-003 +1.0990441597E+002  +3.1358471651E-003 +4.8862422595E+000  +7.1129810062E-001 +9.9167329632E-002 
8393727.159 +7.2927407817E-001 +7.5078886693E+000  +7.0150602779E-003 +8.0299483140E+001  +8.0672582304E-003 +6.5346167618E+001  +7.4019417873E-001 +4.2407961541E+000 
8518872.340 +6.8857747900E-001 +8.0191072650E+000  +1.1842730315E-002 +1.1572235895E+002  +1.5595901188E-003 +1.4556178507E+002  +7.7600043047E-001 +2.8213246545E-001 
8644017.522 +7.5345278782E-001 +4.9073513598E+000  +2.0805497822E-003 +6.4455530015E+001  +5.2715226307E-003 +1.2521393093E+002  +7.0237966708E-001 +9.9374883206E-001 
8769162.703 +6.2137115274E-001 +3.4598468644E+000  +6.2914013007E-003 +1.3861946179E+002  +2.1222858971E-003 +1.3996409175E+002  +6.2131139983E-001 -1.7307554326E-001 
8894307.885 +5.8602104569E-001 +5.8085750067E+000  +5.3285647856E-003 +7.9894075943E+001  +2.6777234668E-003 +1.2633194365E+002  +6.8703846244E-001 -7.8013417670E-002 
9019453.066 +5.8864527063E-001 -1.2902219308E+000  +5.9615280811E-003 +1.3084562053E+002  +3.1602594031E-003 +1.3004622775E+002  +6.3986782026E-001 -2.6041724918E+000 
9144598.248 +5.3319792209E-001 +3.4273168816E+000  +2.0678359343E-003 +8.0024028652E+001  +6.6373234874E-003 +1.2812763103E+002  +6.7607246425E-001 -2.8094191063E+000 
9269743.429 +6.4479407460E-001 +2.6942934549E+000  +7.1681210516E-003 +1.1449864039E+002  +3.3698084549E-003 +1.0863143696E+002  +6.0939786574E-001 +1.0163893503E+000 
9394888.611 +5.5421572293E-001 +2.4267495436E+000  +4.3743241869E-003 +9.7639709833E+001  +8.8804289107E-003 +1.4587247339E+002  +6.2933685514E-001 -3.6918653661E+000 
9520033.792 +5.3983190657E-001 -3.1068130142E+000  +6.3961516402E-003 +9.4887942240E+001  +7.8790196196E-003 +1.1228696120E+002  +6.0164377347E-001 -3.1376452436E+000 
9645178.974 +5.7268342728E-001 +7.1456188062E+000  +1.5396380531E-003 +4.0299572874E+001  +3.3630924847E-003 +1.3731863295E+002  +6.2870482488E-001 -3.8970130288E+000 
9770324.155 +5.6171636234E-001 -5.0840804577E+000  +7.8820288109E-004 +5.1452737357E+001  +4.4076238003E-003 +6.7455514735E+001  +5.7855934764E-001 -7.5310361245E+000 
9895469.337 +5.4388009948E-001 +3.3867077205E+000  +5.5905566071E-003 +1.0126359563E+002  +5.1831729187E-003 +1.2367321183E+002  +6.2164000677E-001 -4.1208161821E+000 
10020614.518 +5.2433530763E-001 -2.9547179510E+000  +5.4316663768E-003 +8.3355196191E+001  +2.3360258660E-003 +3.0990542232E+001  +5.9168116140E-001 -4.5371993470E+000 
10145759.700 +5.9651266721E-001 +1.5731115702E+000  +4.1125724112E-003 +5.3295288655E+001  +3.7104722498E-003 +1.0156280162E+002  +5.7089243259E-001 -2.4969171239E+000 
10270904.881 +5.7917305843E-001 +1.8688529651E+000  +6.2958715872E-003 +7.3942775862E+001  +4.3854783059E-003 +1.0326638472E+002  +5.6299419614E-001 -3.0551893522E+000 
10396050.063 +5.4485771646E-001 +5.3681802596E+000  +3.5440955624E-003 +1.1486797079E+002  +4.4990250164E-003 +9.5320215181E+001  +5.9236095308E-001 -3.0883412239E+000 
10521195.244 +5.8134147486E-001 +7.8576386794E+000  +1.0409297777E-003 +6.2359704548E+001  +5.1562957572E-003 +8.8825391742E+001  +5.9473597205E-001 +1.0352951168E+000 
10646340.426 +5.8926908409E-001 +5.9555667667E+000  +6.0609868912E-003 +1.1173071896E+002  +4.6408480661E-003 +1.1729921641E+002  +5.8934161308E-001 -1.0840039373E+000 
10771485.607 +5.6515659090E-001 +4.8970417296E+000  +6.6050498229E-003 +7.4239784452E+001  +6.1980267856E-003 +9.9537206361E+001  +5.7146452142E-001 -3.3012185800E+000 
10896630.788 +6.0422016049E-001 +1.7819298956E+000  +6.7113314502E-003 +6.5204039669E+001  +3.2816960820E-003 +1.2734567576E+002  +6.1799642704E-001 +4.1006589368E-001 
11021775.970 +5.8749240653E-001 +5.3819062471E+000  +3.8336057780E-003 +1.0865249530E+002  +3.8357684301E-003 +1.0128158223E+002  +6.2423071394E-001 -1.0849359024E+000 
11146921.151 +5.8860587686E-001 +8.2349303391E+000  +3.3862914435E-003 +8.6733403839E+001  +6.0963130633E-003 +1.1261911691E+002  +6.0921597493E-001 -8.0156226050E-002 
11272066.333 +6.1501452560E-001 +5.2789170000E+000  +4.0915760409E-003 +8.4507494822E+001  +4.6495845986E-003 +8.6901413173E+001  +6.2053432890E-001 +5.1179622442E+000 
11397211.514 +6.0657458025E-001 +4.4529382798E+000  +4.6507074500E-003 +1.0851189476E+002  +6.1571912975E-003 +1.0350259465E+002  +6.4675789016E-001 +6.8736222237E-001 
11522356.696 +6.2044074250E-001 +4.1643773503E+000  +6.2444723207E-003 +7.3991285645E+001  +4.9946474968E-003 +9.6165255876E+001  +6.4804664818E-001 -4.9551496011E-001 
11647501.877 +6.4175124149E-001 +5.3641301146E+000  +3.7038982930E-003 +8.4910471163E+001  +4.8673024346E-003 +1.0023682369E+002  +6.5267425267E-001 +1.5069009933E+000 
11772647.059 +6.4374582411E-001 +5.0569223739E+000  +5.6984023146E-003 +6.5238784553E+001  +5.5344716674E-003 +1.0089875903E+002  +6.7470899818E-001 +7.6448092970E-001 
11897792.240 +6.8190161586E-001 +4.4403523837E+000  +5.3035467370E-003 +8.9420322897E+001  +5.3939270314E-003 +1.0291049055E+002  +6.9784730296E-001 -3.8690330780E-001 
12022937.422 +6.5133238323E-001 +4.5440323162E+000  +3.5146276372E-003 +1.0142388279E+002  +6.1083073896E-003 +1.0161104656E+002  +6.8050541630E-001 -2.4261855552E-001 
12148082.603 +6.9172271114E-001 +4.8934548018E+000  +4.0772511150E-003 +9.2348305256E+001  +4.9172634419E-003 +9.8839018446E+001  +7.0141453108E-001 +5.1485074150E-001 
12273227.785 +7.2856151950E-001 +2.7981877037E+000  +5.9644191255E-003 +8.7568236183E+001  +4.7025364131E-003 +1.0740479027E+002  +7.1219438018E-001 -6.6133844043E-001 
12398372.966 +7.0198860534E-001 +2.3311278323E+000  +6.3931526145E-003 +1.1344820931E+002  +4.5895832739E-003 +1.0761187138E+002  +7.2791101628E-001 +3.9373000536E-001 
12523518.148 +7.1280371266E-001 +1.2589653051E+000  +4.5744688010E-003 +1.0230738793E+002  +6.6259319996E-003 +9.9708196933E+001  +7.3303349069E-001 -1.3497197298E+000 
12648663.329 +7.4562022945E-001 +2.2256399991E+000  +5.3635115701E-003 +6.8156449995E+001  +5.7993907646E-003 +8.9796135098E+001  +7.4235970920E-001 -3.6389261097E-001 
12773808.511 +7.3813621769E-001 +5.6059759905E-001  +6.1847627427E-003 +8.7034172496E+001  +6.9808377365E-003 +9.2394245751E+001  +7.4446699690E-001 -2.9859568838E-001 
12898953.692 +7.8038476749E-001 +2.2857009324E+000  +5.0915437927E-003 +6.7871428828E+001  +6.5992114474E-003 +9.8828201558E+001  +8.0520977973E-001 -3.7498191873E+000 
13024098.874 +7.9146980817E-001 +8.1517781520E-001  +5.0557546837E-003 +8.6327491839E+001  +6.3958104501E-003 +1.0271061785E+002  +8.1637008434E-001 -2.4913812834E+000 
13149244.055 +8.1095219013E-001 -2.3150378990E-001  +6.3144685652E-003 +1.0028797882E+002  +5.2218631105E-003 +1.0687565743E+002  +8.2475533734E-001 -1.2220871691E+000 
13274389.237 +8.3140551291E-001 -5.7396164830E-001  +6.4419957907E-003 +8.4727342520E+001  +5.4368928896E-003 +9.9295342852E+001  +8.2177304600E-001 -1.7962667330E+000 
13399534.418 +8.5129389477E-001 -8.2805830439E-001  +6.0773387160E-003 +8.4802913837E+001  +7.4409003922E-003 +1.0099413146E+002  +8.5110456063E-001 -2.9527803508E+000 
13524679.599 +8.3603692324E-001 -1.0912742878E+000  +6.8446532396E-003 +8.0025681374E+001  +6.7693358705E-003 +9.5864608790E+001  +8.5221434038E-001 -2.3522009592E+000 
13649824.781 +8.8282275125E-001 -3.3488386507E+000  +5.2285133398E-003 +9.2051252789E+001  +6.9854602794E-003 +9.1698340207E+001  +8.7386284822E-001 -1.9063993934E+000 
13774969.962 +8.8448131450E-001 -3.1344028443E+000  +5.9832626431E-003 +8.0372328963E+001  +6.3605378505E-003 +9.3681241361E+001  +8.8097103677E-001 -4.2386572393E+000 
13900115.144 +9.0289785002E-001 -3.5727851624E+000  +6.9138335112E-003 +9.5115549844E+001  +6.4047609959E-003 +9.4325730061E+001  +9.0963424285E-001 -3.0389385649E+000 
14025260.325 +9.0995332339E-001 -3.2835833142E+000  +5.9845507966E-003 +7.9349157947E+001  +7.0923303955E-003 +8.7755827555E+001  +9.4995796490E-001 -3.2950889692E+000 
14150405.507 +9.3022320695E-001 -4.7272461131E+000  +7.2645687686E-003 +9.4621810592E+001  +6.0398420600E-003 +1.0244094729E+002  +9.3678425970E-001 -3.3006846920E+000 
14275550.688 +9.4791888175E-001 -4.5288744554E+000  +8.3848495399E-003 +8.4946118557E+001  +7.6239887836E-003 +8.6024611562E+001  +9.6932305553E-001 -4.0780079886E+000 
14400695.870 +9.8447559681E-001 -5.5268567723E+000  +7.2252346521E-003 +9.2610119343E+001  +6.2072514401E-003 +9.3463613509E+001  +9.8525554815E-001 -5.5755372534E+000 
