!  2-Port S-parameters saved by WinCal
! VAR MeasName=S-Parameters (CALIBRATED_DATA) read from VNA (P5004A)
! VAR MeasDate=27/08/2024 15:45:46
! VAR NAME=S2_r6c8_SET3_9k-100M_2
! VAR FILENAME=S2_r6c8_SET3_9k-100M_2.S2P
! VAR DATE=27/08/2024 15:45:46
! VAR PHYS_PORTS=1,2
! VAR ObjTypeName=DATASET
! VAR IndexType=Frequency
!
# Hz S MA R 50
9000.000 +7.7187123709E-002 -1.5570602268E+002  +1.5416434105E-002 -1.0368166088E+002  +7.7477749554E-003 -3.0927352791E+001  +1.9619103174E-001 -1.1472582020E+002 
134145.181 +1.1054318907E-001 +1.6945349975E+002  +4.0121272032E-004 -1.1759418847E+002  +4.7210540310E-004 +6.2759877466E+001  +2.3983977236E-001 -1.7128855907E+002 
259290.363 +1.1246557469E-001 +1.6946658406E+002  +3.5997052964E-004 -8.1572578468E+001  +7.2090161086E-004 +8.7593201692E+001  +2.4003176137E-001 -1.6847875691E+002 
384435.544 +1.1199181421E-001 +1.6975278501E+002  +1.2991302644E-003 -6.1138935044E+001  +4.1461762197E-004 -1.3565880029E+002  +2.4442302421E-001 -1.6635454210E+002 
509580.726 +1.1438390844E-001 +1.7038180998E+002  +8.9746407214E-004 +3.8328073123E+001  +4.2229989761E-004 -7.7053381157E+000  +2.3819843751E-001 -1.6581238785E+002 
634725.907 +1.1483579251E-001 +1.7035017286E+002  +5.5444941745E-004 -8.4144886077E+001  +1.1139478510E-003 +2.7853139407E+001  +2.3605675136E-001 -1.6564781584E+002 
759871.089 +1.1809878671E-001 +1.7065540608E+002  +5.0155291420E-004 +5.0715913339E+001  +7.7921216636E-004 +1.0336709042E+002  +2.3941172139E-001 -1.6559106424E+002 
885016.270 +1.1795397047E-001 +1.6920225442E+002  +1.1841811051E-003 +1.2624435419E+002  +7.0037644555E-004 -1.7081748674E+002  +2.3789755910E-001 -1.6625687050E+002 
1010161.452 +1.1662571316E-001 +1.7056684261E+002  +5.8431888620E-003 -1.1438189413E+002  +6.4227219119E-004 +1.6680730552E+002  +1.1651965034E-001 +1.5718926857E+002 
1135306.633 +1.1595254305E-001 +1.7103003416E+002  +2.1809600527E-003 -1.6883335391E+001  +1.6239001593E-003 -5.7176324414E+001  +1.8736665149E-001 -1.5854642027E+002 
1260451.815 +1.2269624190E-001 +1.7160978277E+002  +7.2046782136E-004 +9.2179603549E+001  +1.9329139093E-003 +8.0492714039E+001  +2.4422133286E-001 -1.5336834266E+002 
1385596.996 +1.2652681875E-001 +1.7203427640E+002  +7.5052989638E-004 +1.3986438354E+002  +8.5084631362E-004 +1.3975588512E+002  +2.6178285104E-001 -1.5984928307E+002 
1510742.178 +1.2955014592E-001 +1.7019431263E+002  +1.0100461011E-003 -6.9505039201E+001  +8.4209971722E-004 -1.6376372388E+002  +2.6971777308E-001 -1.5671678832E+002 
1635887.359 +1.2602745194E-001 +1.7053162471E+002  +1.4199875761E-003 +1.1693633501E+002  +9.6561643271E-004 +1.7136685561E+002  +2.4629402801E-001 -1.5808515275E+002 
1761032.541 +1.2922007144E-001 +1.6953905048E+002  +2.2735715890E-003 +1.1089652702E+002  +9.4988535584E-004 +8.6353579824E+001  +2.1324978071E-001 -1.6128381770E+002 
1886177.722 +1.2960161610E-001 +1.6629482582E+002  +2.1378279014E-003 +1.1607527676E+002  +8.2434692486E-004 +1.0655407566E+001  +2.2575241120E-001 -1.5757840257E+002 
2011322.904 +1.2565859344E-001 +1.6685541282E+002  +2.1298129579E-003 +1.9197469148E+001  +1.0965416229E-003 +9.8857559771E+001  +1.9725523527E-001 -1.5737175519E+002 
2136468.085 +1.3322115139E-001 +1.6511237924E+002  +3.8958628481E-003 +8.8191951805E+001  +3.2222934462E-003 +3.4267897843E+001  +1.3098605805E-001 -1.6377399107E+002 
2261613.267 +1.3014834639E-001 +1.6175441144E+002  +1.7373897362E-003 -6.3331837310E+001  +3.0134958757E-003 -1.4847716079E+002  +2.1487083521E-001 -1.7205754130E+002 
2386758.448 +1.3117687408E-001 +1.5985751128E+002  +4.3311838628E-003 +1.0871570217E+002  +2.4348808437E-003 -3.5611378577E+001  +1.5844275118E-001 -1.7127625167E+002 
2511903.630 +1.4151705427E-001 +1.5400147436E+002  +4.8989420037E-003 -7.5346697039E+001  +3.7079587405E-003 +6.8106353961E+000  +2.3924899930E-001 +1.6939177480E+002 
2637048.811 +1.2744053563E-001 +1.6117646588E+002  +3.8687604948E-003 +4.5933693500E+001  +4.7219194368E-003 +1.3712504188E+002  +3.7643882806E-001 +1.4444584364E+002 
2762193.992 +1.1493949206E-001 +1.6846143563E+002  +1.0470555364E-002 -1.6747697011E+002  +4.4315784950E-003 -1.7371415323E+002  +6.1737238703E-001 +1.7722626857E+002 
2887339.174 +8.6658818524E-002 +1.7202985161E+002  +1.8224260537E-002 +1.7758646241E+002  +2.6460767297E-002 +7.5206004290E+001  +9.4317399199E-001 -1.5031002305E+002 
3012484.355 +1.2235892087E-001 +1.6418662295E+002  +3.9258819915E-003 -7.2079722728E+001  +8.5449393206E-003 +7.1307443189E+001  +5.1313307773E-001 -1.1310138593E+002 
3137629.537 +9.0493436625E-002 +1.5084923157E+002  +9.7090689537E-003 +1.1486184540E+002  +1.5274010439E-002 -4.1003746624E+001  +8.0018449481E-002 -1.1582077618E+002 
3262774.718 +7.5393462153E-002 +1.7297187013E+002  +2.7065056109E-002 -1.7966500639E+002  +3.3507446199E-002 -9.3432878014E+001  +9.3853832445E-001 -7.5472833607E+001 
3387919.900 +1.0429915943E-001 +1.4525048080E+002  +1.8725662902E-002 +1.9129719643E+001  +7.7701359618E-003 -1.7198315214E+002  +1.2879871637E-001 +1.0136119130E+002 
3513065.081 +6.2749637606E-002 +1.1410965821E+002  +1.1891858416E-002 +1.1403692233E+002  +3.5778217688E-002 -5.6833196294E+001  +7.2265071973E-001 +1.3935984151E+002 
3638210.263 +2.1168608439E-001 +1.4521070752E+002  +7.0669237231E-003 -6.2879301976E+001  +1.9944112583E-002 +6.4704832750E+001  +8.7296056919E-001 +1.6063962713E+002 
3763355.444 +1.9150947219E-001 +1.3643646267E+002  +7.1964530834E-003 +1.2121849711E+002  +1.8373706330E-002 +3.1876339424E+001  +6.1736765264E-001 +1.3856793748E+002 
3888500.626 +1.6936280495E-001 +1.4887030769E+002  +4.0090628702E-003 +6.5052292244E+001  +3.7889650141E-003 +1.4451931358E+002  +5.1200708631E-001 +1.5138695071E+002 
4013645.807 +1.6492711273E-001 +1.4639121178E+002  +1.4980752639E-002 +6.7681866306E+001  +2.1459828135E-002 +9.2470478107E+000  +2.9591423675E-001 +7.4625922970E+001 
4138790.989 +1.9610642663E-001 +1.2319146457E+002  +6.9262965703E-003 +3.8916281761E+000  +5.8224571928E-003 -9.9692710155E+001  +7.9422315336E-001 +1.2707788859E+002 
4263936.170 +1.5598248069E-001 +1.4342820707E+002  +1.0261400492E-002 +6.3845549613E+001  +1.2733901015E-002 +2.2012330912E+001  +3.1691150588E-001 +9.6978610822E+001 
4389081.352 +1.7566976027E-001 +1.3117283918E+002  +9.9937294397E-003 +1.1766751392E+002  +2.3033990627E-002 +1.7545882493E+002  +7.2441665387E-001 +9.3568186339E+001 
4514226.533 +2.5441253501E-001 +1.3745280273E+002  +1.8114847183E-002 -9.3875615639E+001  +2.1566946069E-002 +3.0185545561E+000  +9.7493460254E-001 +7.1631573235E+001 
4639371.715 +2.4556722623E-001 +1.0438375058E+002  +4.8754402651E-002 -3.2175296618E+001  +2.3828809043E-001 +1.5136878005E+002  +4.8327738055E+000 +8.0424124134E+001 
4764516.896 +3.7223198195E-001 +1.3584999099E+002  +1.1270584986E-002 +1.4097921720E+002  +4.8486102701E-003 +5.5097205010E+001  +8.9718892684E-001 +2.5415810164E+001 
4889662.078 +4.8041377477E-001 +1.3909563292E+002  +5.7434758242E-002 -3.9100290412E+001  +2.8035584792E-002 -9.1155595731E+000  +2.8434348229E+000 -1.0561836064E+002 
5014807.259 +4.1729418583E-001 +1.3463654021E+002  +5.0092162749E-002 +1.0493909249E+002  +2.0941104990E-002 +9.7055273757E+001  +3.2929777657E+000 +1.1495061435E+002 
5139952.441 +4.1647607613E-001 +1.3209044105E+002  +8.4201629347E-002 -1.4476022472E+002  +1.3559378157E-001 +1.3046455623E+002  +6.4171497578E+000 +1.1093475493E+002 
5265097.622 +4.0801357461E-001 +1.2395207715E+002  +2.6882012413E-002 +1.1931332121E+002  +2.2686883030E-002 +5.4669986147E+000  +1.2204082122E+000 +9.5440206607E+001 
5390242.804 +3.8779446742E-001 +1.3701159352E+002  +2.4011636090E-002 -1.5382175984E+002  +1.5330337097E-002 +7.2473916893E+001  +2.1494159548E+000 +1.1761624590E+002 
5515387.985 +5.3152793479E-001 +1.3646909266E+002  +2.5351926328E-002 +1.2702829029E+002  +1.0009921363E-002 -1.0813035967E+002  +2.0796948960E+000 +1.1549812275E+002 
5640533.166 +5.2935299231E-001 +1.3090217939E+002  +2.1401625502E-002 +1.1290791310E+002  +1.8036999905E-002 +1.2827341750E+002  +2.4976381441E+000 +7.2442993183E+001 
5765678.348 +5.3606864528E-001 +1.3272179323E+002  +3.8681302547E-002 +9.8945614379E+001  +1.3455603852E-002 +1.2908313822E+002  +2.9625484885E+000 +5.7582179054E+001 
5890823.529 +5.5290814689E-001 +1.1721610944E+002  +2.8860328639E-002 +1.5246806204E+002  +3.4949902488E-002 +6.7614852710E+001  +2.3845354001E+000 +3.1477274182E+001 
6015968.711 +6.0402941532E-001 +1.1676736545E+002  +2.1624893421E-002 +2.0803153672E+001  +1.7923032316E-002 +4.0890674553E+001  +1.9634337160E+000 +3.3531665648E+001 
6141113.892 +7.1334330495E-001 +1.0565446222E+002  +1.7524851730E-002 +1.0768296153E+002  +2.2742060426E-002 +1.1075612151E+001  +1.8389510480E+000 +3.9633735971E+001 
6266259.074 +1.1250718244E+000 +9.4234681487E+001  +6.9160116100E-002 +8.2103970278E+001  +4.8235631840E-002 +8.9351711462E+001  +2.0972056997E+000 +3.0753882849E+001 
6391404.255 +9.8341778109E-001 +9.4828516549E+001  +5.1484378474E-002 +1.4175511627E+001  +2.4450322229E-002 +1.0065280310E+002  +1.8938836710E+000 +7.2140169760E+000 
6516549.437 +1.0830114456E+000 +8.5005178878E+001  +3.1927581860E-002 +3.6260981541E+001  +1.5638658638E-002 +6.8333907940E+001  +1.6703265343E+000 +5.6332664280E+000 
6641694.618 +1.7597370907E+000 +6.7342101812E+001  +2.9548037702E-002 -8.4244367604E+000  +3.9903338539E-002 +2.7413011012E+001  +1.4012860585E+000 -5.2480306642E+000 
6766839.800 +1.3878065467E+000 +4.2770928926E+001  +2.0315615032E-002 +2.3859840512E+000  +3.6465316443E-002 +6.3634977186E+001  +1.4948431678E+000 +1.0574430890E-001 
6891984.981 +1.7484320298E+000 +4.0846885231E+001  +2.7334749761E-002 +5.9246384531E+001  +1.6935740899E-002 +1.1018656334E+001  +1.2769306094E+000 -1.7661566319E+001 
7017130.163 +2.1684669882E+000 +2.8384761899E+001  +2.4123975012E-002 +3.4903429780E+001  +2.4807906158E-002 +5.5749281919E+001  +1.3006703878E+000 -4.9209334214E+000 
7142275.344 +1.7965889001E+000 +1.7334707261E+001  +3.2999483923E-002 +3.4593569715E+001  +2.0742124388E-002 +2.4470355654E+001  +1.3431970398E+000 -7.2787443446E+000 
7267420.526 +1.7003892698E+000 -3.7043932292E+000  +1.3390230421E-002 +3.7175590550E+001  +2.0492668246E-002 -1.5690223533E+001  +1.4906883406E+000 -1.1628919919E+001 
7392565.707 +1.3616489384E+000 -2.8480019477E+000  +3.5160373520E-003 +1.0751245542E+001  +9.2846776166E-003 +2.4344014419E+001  +1.2863698636E+000 -9.9192974756E+000 
7517710.889 +1.1499406324E+000 -7.1599435489E-001  +1.8508725026E-002 -1.4169216691E+001  +1.0698260125E-002 -6.5269581470E-001  +1.2560878129E+000 -2.2289545965E+000 
7642856.070 +1.1391222396E+000 +4.7958366037E+000  +1.7794953550E-002 +5.2038472008E+000  +2.2557581176E-002 +2.4610899656E+001  +1.0610218847E+000 -5.7513481147E+000 
7768001.252 +9.8671893238E-001 +7.6304848129E+000  +6.0150022974E-003 +2.5830392415E+001  +1.5316479050E-002 +2.9498925772E+001  +1.0104290814E+000 +2.3721547463E+000 
7893146.433 +8.3002726629E-001 -2.3535345314E+000  +1.9474423945E-002 +3.3111599310E+001  +1.1886203092E-002 +3.7571513559E+001  +8.9232272907E-001 -4.4580725097E-001 
8018291.615 +8.1670935955E-001 +8.5016828969E+000  +2.0194973731E-002 +9.3606082822E+000  +6.5459138011E-003 -1.0690485744E+000  +8.7593226007E-001 -2.3299025613E+000 
8143436.796 +7.9411153782E-001 +1.4594380738E+001  +1.0892111785E-002 +4.1692056569E+001  +1.0979734024E-002 +2.2418735902E+001  +7.6040673190E-001 +5.0206118801E+000 
8268581.977 +7.0785861865E-001 +7.6881570508E+000  +8.8040503041E-003 +1.4582313628E+001  +1.5831755311E-003 +1.1337839013E+001  +7.2268446173E-001 +1.0290049279E+000 
8393727.159 +7.4231384709E-001 +9.2138683418E+000  +3.8324430464E-003 +1.0791392811E+001  +1.0227230624E-002 +3.6898464651E+001  +7.7807929217E-001 +2.9780555244E+000 
8518872.340 +6.5032663376E-001 +7.6921600941E+000  +1.0131229958E-002 +2.0413933196E+001  +7.7310738626E-003 +3.6592413804E+001  +7.1260290927E-001 +4.6875391935E+000 
8644017.522 +6.6194733857E-001 +7.0873745978E+000  +8.9316900131E-003 +3.3375418569E+001  +1.2006538673E-002 +4.6155416565E+001  +7.5052216107E-001 +2.8830540882E-001 
8769162.703 +6.4526436525E-001 +4.1254753161E+000  +8.5172460313E-003 +2.1613229107E+001  +1.0371541038E-002 +2.7726903976E+001  +6.6006524572E-001 -5.3246529264E-001 
8894307.885 +5.5946329066E-001 +6.5587481631E+000  +1.0718266273E-002 +1.4269586299E+001  +8.3522750663E-003 +4.2435083614E+001  +6.6492200326E-001 +1.2234321769E+000 
9019453.066 +5.9356688533E-001 +4.7932112610E+000  +9.7867829260E-003 +1.2574629875E+001  +1.1910192905E-002 +3.3324516186E+001  +6.6062836109E-001 -1.9636667303E+000 
9144598.248 +5.6436172496E-001 +4.1020158165E+000  +9.5595349867E-003 +1.9033840563E+001  +9.2108196434E-003 +4.2272871809E+001  +5.8907108512E-001 -1.2414545132E+000 
9269743.429 +5.2300698719E-001 +2.5738658407E+000  +7.0086654062E-003 -1.4942817871E+000  +1.2572958384E-002 +2.3936963696E+001  +5.7772042520E-001 -3.3716564319E+000 
9394888.611 +6.0206396795E-001 -1.7147424346E-001  +8.5161969369E-003 +4.1011840983E+001  +9.1106728618E-003 +1.7615909767E+001  +6.1217299072E-001 -4.3450199557E+000 
9520033.792 +5.7412616487E-001 +1.0093775380E+000  +7.6992548734E-003 +2.8077366216E+001  +8.6892810540E-003 +3.8770504776E+001  +5.8305426310E-001 -1.6749083160E+000 
9645178.974 +5.3382804297E-001 +4.5884622741E+000  +7.2363294983E-003 +3.4817426187E+001  +1.1514971396E-002 +4.0461655701E+001  +5.9812334869E-001 -4.2219906681E+000 
9770324.155 +5.2475193241E-001 -1.5085763926E-001  +1.0105538215E-002 +3.2816614527E+001  +1.0643546505E-002 +3.0253899485E+001  +5.7174174412E-001 -4.0868732717E+000 
9895469.337 +5.3586732805E-001 -1.1748359166E+000  +8.7784350670E-003 +1.6728074957E+001  +1.0004809472E-002 +5.0669365377E+001  +5.8065675584E-001 -4.3818939649E+000 
10020614.518 +5.3962838156E-001 +2.6918501689E-001  +6.4913516615E-003 +7.6572025351E+000  +8.5339544703E-003 +5.4805757127E+001  +5.4666535022E-001 -6.0174320866E+000 
10145759.700 +5.2914553568E-001 -3.1474442814E-001  +9.4704238076E-003 +4.2674464244E+001  +1.1890593898E-002 +4.5591697789E+001  +5.8913719959E-001 -3.9389485262E+000 
10270904.881 +5.1996922195E-001 +5.5966017119E+000  +7.1580222915E-003 +1.2705225891E+001  +9.9444969079E-003 +4.6032227962E+001  +5.1566260109E-001 -5.2835248457E+000 
10396050.063 +5.7475093055E-001 +3.4744933239E+000  +6.7545328614E-003 +2.0633816445E+001  +1.0096118915E-002 +2.9900897920E+001  +5.5943687059E-001 -3.9194579461E+000 
10521195.244 +5.3537302419E-001 +1.9200323136E+000  +8.8331640706E-003 +2.6987342500E+001  +1.0125911240E-002 +4.0409970365E+001  +5.4687803305E-001 -1.7293352594E+000 
10646340.426 +5.5051724514E-001 +6.1211634829E+000  +1.0364739738E-002 +2.2938637034E+001  +1.2580708847E-002 +4.1746969594E+001  +5.7899495529E-001 +4.8133204589E-002 
10771485.607 +5.5257865434E-001 +5.2870889548E+000  +8.9863399713E-003 +2.0052411530E+001  +7.4917785081E-003 +4.7807550840E+001  +5.8545427803E-001 -3.9934946108E+000 
10896630.788 +5.4892910601E-001 +6.9595005414E+000  +1.1330246041E-002 +2.9119790824E+001  +7.3600216397E-003 +4.8559895515E+001  +6.0772313468E-001 +2.9590443134E+000 
11021775.970 +5.4146908908E-001 +2.4765501134E+000  +9.8426320337E-003 +1.6662131575E+001  +8.2592171137E-003 +4.8449998738E+001  +5.8498510176E-001 -1.2174199357E+000 
11146921.151 +6.2964209443E-001 +4.3575003473E+000  +1.1550818874E-002 +1.8100057567E+001  +9.5774679043E-003 +3.8210120258E+001  +6.3476181039E-001 +2.5563993059E-001 
11272066.333 +5.9257604357E-001 +8.5389194162E+000  +1.1640700379E-002 +2.2982284658E+001  +9.4692430767E-003 +4.4759209590E+001  +6.2262014720E-001 +2.6041609360E+000 
11397211.514 +6.0143988413E-001 +8.1427940605E+000  +1.0259643440E-002 +3.2124973907E+001  +1.0379016719E-002 +3.5641871560E+001  +6.0155896560E-001 -1.2486888889E+000 
11522356.696 +6.2019285125E-001 +5.0085122404E+000  +1.1204448430E-002 +2.8258962770E+001  +9.2339404529E-003 +5.2193224293E+001  +5.9379750294E-001 -1.1345223725E+000 
11647501.877 +6.1133014424E-001 +4.0383968869E+000  +1.1151325166E-002 +2.8763201535E+001  +9.5627508466E-003 +4.1108893363E+001  +6.4863145485E-001 +2.2852913030E+000 
11772647.059 +6.3171960883E-001 +5.3963123394E+000  +1.0482150465E-002 +2.7459250762E+001  +1.0730013703E-002 +4.6377833048E+001  +6.6989785398E-001 -1.1584058355E+000 
11897792.240 +6.4904773688E-001 +3.6365764340E+000  +9.6546792669E-003 +4.5150207510E+001  +9.8077434230E-003 +4.5139020604E+001  +6.7395426979E-001 +1.2890143729E+000 
12022937.422 +6.8244589083E-001 +5.7328902296E+000  +1.0438501880E-002 +3.1358598954E+001  +1.1681863742E-002 +3.2090519298E+001  +6.8277198107E-001 -6.6820922361E-001 
12148082.603 +6.5053075835E-001 +3.8725841729E+000  +1.2140940600E-002 +2.9551227487E+001  +9.7847545418E-003 +4.3726727614E+001  +6.8641877174E-001 +1.2706870970E+000 
12273227.785 +6.9496166919E-001 +4.9989305443E+000  +1.0880051871E-002 +2.8833862465E+001  +9.1888826937E-003 +4.4767210064E+001  +7.0895833964E-001 +8.9038741671E-001 
12398372.966 +7.1751881581E-001 +3.4791935510E+000  +9.4065721053E-003 +3.1033486541E+001  +1.1203897156E-002 +3.6931565157E+001  +7.4130258110E-001 +9.7630803911E-001 
12523518.148 +6.9918654227E-001 +3.5261512314E+000  +1.1203513001E-002 +3.4356253704E+001  +1.0492981048E-002 +3.3415556888E+001  +7.3078737497E-001 -7.4471418061E-001 
12648663.329 +7.2852947190E-001 +1.8376834989E+000  +1.2294581246E-002 +3.0309191384E+001  +1.2041645559E-002 +2.8809243330E+001  +7.4814249558E-001 -1.2916320181E+000 
12773808.511 +7.7358529133E-001 +3.2384275251E+000  +1.2347607521E-002 +2.5156220136E+001  +1.1199390099E-002 +3.1928127377E+001  +7.4908676735E-001 -1.6140037832E-002 
12898953.692 +7.4956603786E-001 +1.1593423451E+000  +1.0326294797E-002 +2.6893249192E+001  +1.2006853325E-002 +3.9600477683E+001  +7.5547087582E-001 -1.4234018270E+000 
13024098.874 +7.7705892635E-001 +3.4871202452E-001  +1.1564698029E-002 +3.4513430234E+001  +1.1280735227E-002 +4.1860071486E+001  +7.9944067056E-001 -2.6000650661E+000 
13149244.055 +8.0319100102E-001 +4.6244364427E-001  +1.1760211673E-002 +3.2721036891E+001  +1.1699302903E-002 +4.1844716063E+001  +8.0486885742E-001 -1.3683390984E+000 
13274389.237 +7.9337786160E-001 +3.6855127006E-002  +1.2873291461E-002 +2.7146513627E+001  +1.1568288173E-002 +3.7722903836E+001  +8.0824498441E-001 -8.4213575962E-001 
13399534.418 +8.1564757174E-001 +7.9083131369E-001  +1.3594828885E-002 +4.1184781627E+001  +1.2512764984E-002 +3.0462602065E+001  +8.3640004541E-001 -3.5129412914E+000 
13524679.599 +8.5224311315E-001 -1.6980665517E-001  +1.1226071758E-002 +2.9280862087E+001  +1.2242258674E-002 +3.9535979611E+001  +8.5699261261E-001 -2.1233439777E+000 
13649824.781 +8.4594592972E-001 -1.0749124259E+000  +1.3111759909E-002 +3.4008191574E+001  +1.0424259235E-002 +2.9687232842E+001  +8.5818877625E-001 -2.8620561695E+000 
13774969.962 +8.7583667190E-001 -2.2283843587E+000  +1.1148903254E-002 +2.6758143911E+001  +1.3498025266E-002 +3.4296620558E+001  +8.8897331663E-001 -2.8887560512E+000 
13900115.144 +9.0328032789E-001 -3.1147929371E+000  +1.3820283740E-002 +3.5017494843E+001  +1.3090068970E-002 +3.4445644829E+001  +9.1705622779E-001 -3.1856621817E+000 
14025260.325 +9.0289448127E-001 -3.5143792205E+000  +1.2751632736E-002 +3.3212360677E+001  +1.1668481971E-002 +4.7296016526E+001  +9.4873791768E-001 -4.9444852678E+000 
14150405.507 +9.5395841716E-001 -5.9397516117E+000  +1.2741837698E-002 +4.2500729182E+001  +1.2738089869E-002 +3.4212699416E+001  +9.3301147004E-001 -4.9653289599E+000 
14275550.688 +9.3858710745E-001 -4.9441650267E+000  +1.2795847835E-002 +3.6647402703E+001  +1.2363963210E-002 +3.3840035971E+001  +9.5876221988E-001 -3.5929060008E+000 
14400695.870 +9.5933985456E-001 -5.2225805229E+000  +1.2355738347E-002 +3.5665742242E+001  +1.3346133268E-002 +3.4840708186E+001  +9.5609875007E-001 -5.2739317167E+000 
