!  2-Port S-parameters saved by WinCal
! VAR MeasName=S-Parameters (CALIBRATED_DATA) read from VNA (P5004A)
! VAR MeasDate=28/08/2024 10:56:52
! VAR NAME=S2_r5c9_RESET3_9k-100M_3
! VAR FILENAME=S2_r5c9_RESET3_9k-100M_3.S2P
! VAR DATE=28/08/2024 10:56:52
! VAR PHYS_PORTS=1,2
! VAR ObjTypeName=DATASET
! VAR IndexType=Frequency
!
# Hz S MA R 50
9000.000 +7.3716912702E-002 -1.6971798310E+002  +1.7872325938E-002 +1.0567675354E+002  +1.1307618897E-002 -7.4297584058E+001  +3.5102707924E-001 -1.2753491057E+002 
134145.181 +1.1143390630E-001 +1.6940858589E+002  +2.1372984868E-004 -4.5250825214E+001  +4.0555248099E-004 +1.1416039245E+002  +2.4409311438E-001 -1.7081026171E+002 
259290.363 +1.1275078925E-001 +1.6956958448E+002  +1.0404984139E-003 -1.1498602325E+002  +3.4559914173E-004 +5.3634624485E+000  +2.5162409699E-001 -1.6670946951E+002 
384435.544 +1.1461746420E-001 +1.7019384913E+002  +3.4751682360E-004 +3.8070005204E+001  +5.5735398454E-004 -1.7482186240E+002  +2.4604059024E-001 -1.6974644334E+002 
509580.726 +1.1513878872E-001 +1.7070098086E+002  +5.9835825676E-004 -4.0620785026E+001  +1.9605995343E-004 -1.3148545334E+001  +2.3571991849E-001 -1.6334851459E+002 
634725.907 +1.1750173181E-001 +1.7135883344E+002  +1.1237730462E-003 -1.6837737981E+002  +4.1863240826E-004 -1.3695497755E+002  +2.6251720844E-001 -1.6403281095E+002 
759871.089 +1.2067732414E-001 +1.7090646083E+002  +9.8682226261E-004 +8.4480186178E+001  +5.3870165304E-004 -4.7382620915E+001  +2.5113629991E-001 -1.6570660399E+002 
885016.270 +1.1964463236E-001 +1.6842536096E+002  +6.0327668244E-004 -1.5184739286E+002  +2.7033532208E-004 +1.2942261275E+002  +2.5136356996E-001 -1.6723864626E+002 
1010161.452 +1.1812250655E-001 +1.7098753928E+002  +1.3758223161E-003 -5.9352595978E+001  +8.8573992213E-004 +1.0516881462E+002  +2.0411188224E-001 -1.5926210444E+002 
1135306.633 +1.1600189115E-001 +1.7113708157E+002  +1.0028679901E-003 +6.5029008158E+001  +2.5280009106E-003 -7.2513190172E+001  +2.0566830659E-001 -1.7221522996E+002 
1260451.815 +1.2232765191E-001 +1.7196161679E+002  +1.4807851540E-003 -6.5635970684E+001  +2.1473362549E-003 +1.0538067103E+002  +2.3905833216E-001 -1.5397549845E+002 
1385596.996 +1.2262740815E-001 +1.7259876564E+002  +2.0273036774E-003 -1.4752160360E+002  +6.8851188319E-004 +4.9037251125E+001  +2.9082462764E-001 -1.5857985512E+002 
1510742.178 +1.2574680528E-001 +1.7271065820E+002  +4.5010497100E-004 +1.5470186593E+002  +1.9874592787E-004 +1.4677525029E+002  +2.5332653261E-001 -1.6139378811E+002 
1635887.359 +1.2799298862E-001 +1.7142168854E+002  +1.4334625841E-003 +7.2181936317E+001  +9.7781041931E-004 -1.4831895581E+002  +2.3612752904E-001 -1.5735550886E+002 
1761032.541 +1.2940349072E-001 +1.6982693510E+002  +1.0076609533E-003 -1.4438026848E+002  +1.2348065310E-003 +1.6657618535E+002  +2.3458294321E-001 -1.5652046117E+002 
1886177.722 +1.2780481547E-001 +1.6764441117E+002  +1.5466279986E-003 -5.6014182390E+001  +2.3421960379E-003 +1.6824834834E+002  +2.0736112623E-001 -1.5553138922E+002 
2011322.904 +1.3236681336E-001 +1.6741919224E+002  +1.0334331496E-003 -7.2605376779E+001  +1.9729237161E-003 -2.8388117529E+001  +1.9964724085E-001 -1.6134841713E+002 
2136468.085 +1.2939133274E-001 +1.6479651758E+002  +2.7542276220E-003 -1.5233850098E+002  +3.0002413003E-003 -1.6625593238E+002  +1.9758510567E-001 -1.5410860715E+002 
2261613.267 +1.2902468008E-001 +1.6705719650E+002  +1.6525116549E-003 -8.8045709005E+000  +2.8775106076E-003 +3.0782490183E+001  +1.7305204333E-001 +1.7978727646E+002 
2386758.448 +1.4064322062E-001 +1.6322360606E+002  +5.7533735776E-004 +2.7308791446E+001  +4.2987172471E-003 +9.4888496516E+001  +2.0981511216E-001 +1.7822873312E+002 
2511903.630 +1.3334001276E-001 +1.6383138230E+002  +6.5347364308E-003 -5.3126416346E+001  +3.0577239090E-003 -9.8517704900E+001  +1.2756598282E-001 -1.7623867418E+002 
2637048.811 +1.2931550602E-001 +1.6530233733E+002  +1.0965822822E-002 +1.3917178366E+002  +1.8367620124E-002 -6.1677932135E+001  +5.1144885409E-001 +1.1154645199E+002 
2762193.992 +1.3036886669E-001 +1.7575268099E+002  +1.9940521804E-002 -3.7286673465E+001  +1.0670377714E-002 -1.3715686142E+002  +3.6860772309E-001 +6.1863985350E+001 
2887339.174 +9.5219232322E-002 +1.7633375058E+002  +3.3985756461E-003 -1.2495735646E+002  +9.2234233201E-003 -1.5083400982E+002  +6.9663623155E-001 -9.2554532586E+001 
3012484.355 +1.2725612857E-001 +1.7817470800E+002  +5.3918104250E-003 -9.0406714848E+001  +2.0277198648E-003 +9.8502756129E+000  +4.1980408864E-001 -7.4215475846E+001 
3137629.537 +1.1330305583E-001 +1.7224793600E+002  +3.3281663770E-003 -4.7942011144E+001  +3.2667257356E-003 -1.3194643571E+002  +2.6119012138E-001 -6.0729479737E+001 
3262774.718 +1.1847642509E-001 +1.6009165921E+002  +8.2363828440E-003 +9.4013149176E+001  +8.4309168577E-003 -9.5346413079E+001  +2.3790065100E-001 -5.6463298041E+001 
3387919.900 +1.1255348277E-001 +1.6529785701E+002  +1.1577124547E-002 -1.0018562028E+002  +9.9522369075E-003 -8.4191009435E+001  +5.2622770968E-002 +1.2344777951E+002 
3513065.081 +1.5866904141E-001 +1.5322069803E+002  +3.8253167523E-003 -1.6152991608E+002  +4.3547095825E-003 +1.2701555166E+001  +1.7307957377E-001 +1.3326110193E+002 
3638210.263 +1.5705216214E-001 +1.3804874958E+002  +6.6542970307E-003 +3.1998904834E+001  +9.1885349878E-003 +1.0324683343E+002  +4.0142071188E-001 +1.3540264179E+002 
3763355.444 +1.7876122939E-001 +1.5380857038E+002  +6.5931466444E-003 -1.3105290951E+002  +1.5869186970E-002 +2.6438782031E+001  +9.9038092487E-001 +1.4920146367E+002 
3888500.626 +1.6668861579E-001 +1.5321719113E+002  +5.1225492066E-003 +1.4989382502E+002  +2.0016987778E-003 -3.0503252964E+001  +9.2743991011E-002 +1.1655808536E+002 
4013645.807 +1.5691585981E-001 +1.4973162968E+002  +5.8201744147E-003 +1.3818140790E+002  +5.4275631154E-003 +6.6286383325E+001  +2.3382326574E-001 +1.4854544538E+002 
4138790.989 +1.8500653341E-001 +1.4751294990E+002  +5.2747196678E-003 -1.7802099475E+002  +3.3638214001E-003 -9.3225322289E+001  +1.9136212171E-001 +8.8995488469E+001 
4263936.170 +2.0910150443E-001 +1.4060309006E+002  +1.9494981747E-003 +1.4965492647E+001  +9.9104937827E-003 +1.5425829636E+002  +5.2295998206E-001 +1.0619880195E+002 
4389081.352 +1.9834305955E-001 +1.4675352820E+002  +1.7088453441E-002 -8.9926330982E+001  +1.3445752827E-002 -4.7152685316E+001  +9.5291897941E-001 +6.6855458814E+001 
4514226.533 +2.4408434920E-001 +1.3840439526E+002  +7.8689284291E-003 -8.6164786910E+001  +4.3728363668E-003 +2.5767437520E+001  +2.2899388661E-001 +1.2171116901E+002 
4639371.715 +2.9387660293E-001 +1.3222177417E+002  +8.4733031377E-002 -3.8788142050E+001  +2.8486829995E-002 +1.3555651239E+002  +3.1058195814E+000 +6.9185936940E+001 
4764516.896 +4.5442327222E-001 +1.2565013207E+002  +1.4538369101E-002 -1.3418395491E+002  +3.3081820324E-002 +1.7264781034E+002  +2.2358174540E+000 +1.5292858270E+002 
4889662.078 +3.9150860195E-001 +1.3653900352E+002  +5.3906033710E-002 +2.3007303096E+000  +4.1021881782E-002 +1.4896257275E+002  +6.1394378297E+000 -1.0267401190E+002 
5014807.259 +3.2901347366E-001 +1.3326288796E+002  +2.1801605960E-002 +4.4240298297E+001  +5.2780792986E-002 +1.2261333238E+002  +5.1772094947E+000 -8.2629116362E+001 
5139952.441 +3.6834489983E-001 +1.3195299073E+002  +2.4508509067E-002 +1.1768926051E+002  +5.0534539669E-002 +1.6960674315E+002  +3.7804464336E+000 +1.5100555435E+002 
5265097.622 +3.2324008512E-001 +1.2552499807E+002  +3.2007330026E-002 +1.4142503798E+001  +2.8410933808E-002 +4.3351290073E+001  +3.2994102887E+000 +8.4670364412E+001 
5390242.804 +4.4073613334E-001 +1.3282781722E+002  +3.8392461046E-002 -4.4058480082E+000  +5.9725169854E-002 -6.1477154778E+001  +4.0365738125E+000 +5.1786399873E+001 
5515387.985 +4.8389778692E-001 +1.3434641998E+002  +2.6409277370E-002 +1.4422195207E+002  +1.6653938712E-002 +8.0106132329E+001  +1.5803878499E+000 +7.7318661697E+001 
5640533.166 +4.7524702068E-001 +1.2724163806E+002  +2.7687226206E-002 -1.5949374627E+002  +1.5830374305E-002 -1.4683455072E+002  +4.0197335068E+000 +8.5594078306E+001 
5765678.348 +5.7756135635E-001 +1.2281388704E+002  +2.1495867525E-002 -1.3396493466E+002  +1.3807751303E-002 +1.5740551331E+002  +1.7245306235E+000 +9.3094741123E+001 
5890823.529 +6.2184597497E-001 +1.2716206507E+002  +1.5118662988E-002 +1.0896314263E+002  +1.8048669488E-002 +1.1093181434E+002  +1.4595614213E+000 +4.3138425591E+001 
6015968.711 +5.8544764982E-001 +1.0685207307E+002  +1.4992277178E-002 +5.1726570455E+001  +2.5104763012E-002 +1.2707340028E+002  +1.5542217308E+000 +5.4248275750E+001 
6141113.892 +7.7164494929E-001 +9.7171322578E+001  +4.0458368984E-002 +1.3972872849E+002  +1.9320564409E-002 -4.7980262075E+001  +1.3211823613E+000 +2.5181094322E+001 
6266259.074 +9.4292665124E-001 +9.5625443283E+001  +4.0665881186E-002 +6.7516288329E+001  +2.2123486295E-002 +7.0387245836E+001  +2.0826064071E+000 +7.4388220239E+000 
6391404.255 +1.1028457276E+000 +9.5964445109E+001  +3.0911436389E-002 +1.0419005805E+002  +1.2259890389E-002 +4.2181419054E+001  +1.4014642434E+000 +1.1009961790E+001 
6516549.437 +1.1674635236E+000 +8.2584287664E+001  +2.1974579151E-002 +5.4698140144E+001  +1.9738258809E-002 +6.5217685586E+001  +1.4440282219E+000 +9.2244132837E+000 
6641694.618 +1.0878731244E+000 +5.9213592073E+001  +2.5800289848E-002 +7.4367912160E+001  +1.2511762212E-002 +2.4134189115E+000  +1.4057537549E+000 -1.2940357204E+001 
6766839.800 +1.9415432552E+000 +5.1747475103E+001  +4.0109913415E-002 +5.6395790515E+001  +2.9968897833E-002 -2.0148240537E+001  +1.2499841752E+000 -1.2091591774E+001 
6891984.981 +1.7996778553E+000 +2.1019864439E+001  +9.5981654199E-003 -5.1603738657E+000  +2.3008664980E-002 +4.2947962709E+001  +1.3283413123E+000 -1.2394785633E+001 
7017130.163 +1.8167862541E+000 +1.7151726966E+001  +1.1646266524E-002 -1.6482445292E+002  +2.6624050494E-002 +3.4180102675E+001  +1.1004034403E+000 -1.5389760311E+001 
7142275.344 +1.5266958473E+000 +4.0452260211E+000  +3.1114211680E-003 +6.6661698379E+001  +2.1576815664E-002 -3.3975749102E+000  +1.2910493211E+000 -5.6411551443E+000 
7267420.526 +1.5287820797E+000 -6.4976626975E+000  +1.0183783626E-002 +1.1701316226E+001  +1.9846768564E-002 -5.6000971606E+001  +1.2670221815E+000 -8.2665746668E+000 
7392565.707 +1.3546034021E+000 +5.0543409993E+000  +1.2084281252E-002 +1.1817789449E+002  +1.0351887854E-002 +5.3825365460E+001  +1.3102695425E+000 -1.7464297709E+000 
7517710.889 +1.1262504624E+000 +5.4120712975E+000  +6.8585953093E-003 +3.7909463490E+001  +5.0041964078E-003 +8.3312091928E+000  +1.2230630709E+000 -5.5190543992E+000 
7642856.070 +1.0294625282E+000 +2.3481979589E+000  +8.6572413737E-003 +7.2817521710E+001  +8.5018845377E-003 +5.0156255657E+001  +1.0253505665E+000 -7.9129952317E+000 
7768001.252 +9.7608105605E-001 +1.7060059228E+000  +2.9178691531E-003 +4.1847340991E+001  +1.2519742830E-003 +5.8990345261E+001  +9.4656853555E-001 -2.2349955721E+000 
7893146.433 +8.7340054210E-001 +5.0463801016E+000  +6.7439001324E-003 +3.4200832847E+001  +7.9285093869E-003 +1.6057493857E+001  +9.1906840569E-001 -7.7967227468E+000 
8018291.615 +8.9132099969E-001 +6.9450160187E+000  +8.2372239387E-003 +5.9352774391E+001  +9.8589289490E-003 +1.0211506815E+002  +8.5625914162E-001 -3.8037446074E-001 
8143436.796 +7.2603790903E-001 +6.3424164483E+000  +1.1567589577E-002 +1.1489315152E+001  +2.5510151889E-003 -1.5651041125E+002  +8.1360058093E-001 +3.0061611617E+000 
8268581.977 +7.7154364838E-001 +5.8407461140E+000  +1.7278551952E-003 +1.1154562797E+002  +2.2412467433E-003 +1.6600763638E+002  +7.4782363107E-001 +3.7045336513E+000 
8393727.159 +7.1462931621E-001 +4.5369299580E+000  +3.7480081754E-003 +1.0061780729E+002  +6.2952468088E-003 +8.1875161988E+001  +7.3671452869E-001 -2.5964210876E+000 
8518872.340 +6.2245418437E-001 +6.6129603272E+000  +3.5165186837E-003 +2.1970443826E+001  +4.2049312382E-003 +6.7597591316E+001  +6.8126745144E-001 +1.6849774063E+000 
8644017.522 +6.6406682577E-001 +6.8384583282E+000  +8.2319995633E-003 +3.7070594380E+001  +5.6640191548E-003 +4.4892983556E+001  +7.2317792374E-001 +2.6675434719E+000 
8769162.703 +6.4439157967E-001 +3.5166150698E+000  +8.6658101055E-003 +1.3863689118E+001  +7.1706248821E-003 +5.8560774086E+001  +6.6313257708E-001 -2.6297486524E+000 
8894307.885 +5.8103582237E-001 +5.1627685429E+000  +2.8730318794E-003 +6.8963654756E+001  +8.3234641767E-003 +6.5758558420E+001  +6.1526073625E-001 +3.9143820141E+000 
9019453.066 +5.8601826761E-001 +2.9247847358E+000  +7.4833021480E-003 +3.2277314159E+001  +3.3416866888E-003 +4.9813522676E+001  +6.0931305813E-001 +2.1279941421E+000 
9144598.248 +5.9798064555E-001 +7.1072044354E+000  +6.3752583634E-003 +2.6668529396E+001  +6.1099376979E-003 -8.9096703794E+000  +5.6883125503E-001 +8.3640123281E-001 
9269743.429 +5.8852477344E-001 +8.1701943424E+000  +7.0313046609E-003 +5.7514767140E+001  +7.5693425668E-003 +4.9052723497E+001  +6.2005604359E-001 -7.0288276299E+000 
9394888.611 +5.3805452474E-001 +3.2545310538E+000  +7.7861605095E-003 +1.1581721233E+001  +3.1917766535E-003 +5.1990456634E+000  +6.0144542650E-001 +1.9119834035E+000 
9520033.792 +5.8597140616E-001 +3.1653642782E+000  +5.8199038698E-003 +3.7648574759E+001  +9.2292970803E-003 +9.8779338603E+001  +5.8063353057E-001 +1.3529617153E-001 
9645178.974 +5.3779632249E-001 +3.9227101663E+000  +4.2729720088E-003 +6.4735625285E+001  +6.3493609979E-003 +3.7538485703E+001  +6.0888607631E-001 -9.3463556333E+000 
9770324.155 +5.1784768513E-001 +1.9674117276E+000  +9.5061923393E-003 +2.7578848940E+001  +9.7006224385E-003 +4.4950049380E+001  +5.9783508470E-001 -2.5411761217E+000 
9895469.337 +5.7173827286E-001 +3.8315758261E+000  +5.8745886834E-003 +7.6561624047E+001  +5.0367743562E-003 +6.2874134404E+001  +6.1046624961E-001 -4.6488931193E+000 
10020614.518 +5.7697292943E-001 +6.1075575681E+000  +4.8908983312E-003 +2.8935284125E+001  +6.6459183268E-003 +6.0165707722E+001  +5.7903996395E-001 -4.9531742369E+000 
10145759.700 +5.5513001454E-001 -4.1826251175E-001  +2.6783315579E-003 +2.6590954520E+001  +4.6343650275E-003 +4.5594606423E+001  +6.3037309703E-001 -2.9551217866E+000 
10270904.881 +5.8964448690E-001 +2.4589479456E+000  +4.7473390755E-003 +8.4926218454E+001  +4.7351885529E-003 +5.2085281679E+001  +5.6744610868E-001 -2.2070086729E+000 
10396050.063 +5.6086991764E-001 +6.4703480943E+000  +6.2102283162E-003 +1.6067143970E+001  +7.0932432391E-003 +6.3474077154E+001  +5.7376813556E-001 -1.1667859051E+000 
10521195.244 +5.5907428736E-001 +1.2839696447E+000  +6.6775171281E-003 +5.4212558603E+001  +7.4125582181E-003 +9.3390551424E+001  +5.6173970624E-001 -3.0747538107E+000 
10646340.426 +5.6649707285E-001 +7.2506136936E+000  +5.9868532928E-003 +4.3393970516E+001  +2.6671767344E-003 +7.2994086427E+001  +6.0908095552E-001 -4.1554410608E-001 
10771485.607 +5.5295818501E-001 +5.2926743454E+000  +8.8593642676E-003 +4.1823698443E+001  +4.6276356990E-003 +7.4020708999E+001  +6.3477118558E-001 +1.4109439054E-001 
10896630.788 +5.7564987473E-001 +4.8013480642E+000  +2.3679074070E-003 +6.3867688355E+001  +5.8018132316E-003 +7.6434722359E+001  +6.1804670256E-001 +3.3300194218E+000 
11021775.970 +5.8362682278E-001 +8.0245070823E+000  +8.2252069193E-003 +4.0392511603E+001  +8.2408902918E-003 +7.1236706900E+001  +5.8637565437E-001 +5.0027966273E-001 
11146921.151 +5.8870891025E-001 +4.7763631577E+000  +6.3800428016E-003 +7.0880193593E+001  +6.7236488384E-003 +5.4812960025E+001  +6.4356816436E-001 +1.5317233019E+000 
11272066.333 +5.9838494880E-001 +5.5239388039E+000  +7.0327331321E-003 +2.9675206892E+001  +6.9051301264E-003 +6.5394360063E+001  +6.3350965509E-001 +1.1385293540E+000 
11397211.514 +5.9121514136E-001 +3.9202132225E+000  +6.2162019202E-003 +6.4753528217E+001  +6.3600881879E-003 +5.2316564858E+001  +6.2383127556E-001 +7.6466061051E-001 
11522356.696 +6.1679924022E-001 +5.8821933733E+000  +6.4386631411E-003 +5.2927657387E+001  +7.0882052227E-003 +5.1776449227E+001  +6.4114335105E-001 +2.2841399192E+000 
11647501.877 +6.4651353055E-001 +4.7144765068E+000  +7.9609535020E-003 +4.0242694338E+001  +6.8450821775E-003 +6.5677735779E+001  +6.6445594750E-001 -4.1708551348E-002 
11772647.059 +6.6879898409E-001 +7.2563043375E+000  +5.4730284263E-003 +6.0805108060E+001  +4.6205557822E-003 +7.0614086823E+001  +6.8833928532E-001 -5.9699063417E-001 
11897792.240 +6.6790633957E-001 +6.5080644776E+000  +6.5204707684E-003 +6.2304255121E+001  +7.2115746090E-003 +4.9334533810E+001  +7.0899599969E-001 +2.0787671567E+000 
12022937.422 +6.8564889779E-001 +5.5973505853E+000  +4.8776012330E-003 +4.0723329286E+001  +5.9591545063E-003 +7.1220760554E+001  +6.6497977355E-001 -2.1602336963E-001 
12148082.603 +6.8138722378E-001 +4.9508360816E+000  +8.5563922225E-003 +4.3825932552E+001  +7.4532443710E-003 +3.3421995974E+001  +7.0597940767E-001 -1.0143269600E+000 
12273227.785 +6.9457816280E-001 +2.5980293566E+000  +7.0548908202E-003 +5.1712235035E+001  +5.0872332954E-003 +5.7704157030E+001  +7.1552844893E-001 -1.0084385689E+000 
12398372.966 +7.0734641936E-001 +3.1393793622E+000  +7.6810021106E-003 +5.6334536553E+001  +6.9198362685E-003 +5.3752383171E+001  +7.2239048967E-001 -1.2807965834E-001 
12523518.148 +7.2367892345E-001 +7.7218190226E-001  +4.9747098178E-003 +6.4090941349E+001  +6.4425696208E-003 +5.8372383298E+001  +7.5956859248E-001 +2.0655792542E+000 
12648663.329 +7.4971804387E-001 +2.9931685612E+000  +6.3966601631E-003 +5.0088847881E+001  +7.3883736499E-003 +6.1159777108E+001  +7.5532574787E-001 +4.1237811209E-001 
12773808.511 +7.4918051752E-001 +1.3790100121E+000  +8.7912132636E-003 +5.1817210006E+001  +7.2599461926E-003 +6.5921196038E+001  +7.4747080233E-001 -1.0075967323E+000 
12898953.692 +7.5716881272E-001 +7.4433160834E-002  +8.3622949506E-003 +5.2309436678E+001  +6.7198985465E-003 +7.5742526906E+001  +8.0519545691E-001 -1.7195147264E+000 
13024098.874 +7.7225214371E-001 -6.6666198729E-001  +5.7870434208E-003 +5.6398839637E+001  +7.3949605427E-003 +7.4094423193E+001  +7.8901104507E-001 -1.9581205589E+000 
13149244.055 +8.0617393134E-001 +7.5914493387E-001  +8.4317818349E-003 +5.7326944939E+001  +6.1974734668E-003 +5.8628465248E+001  +7.9872728689E-001 -1.0173102536E+000 
13274389.237 +8.1998149307E-001 -1.0187639867E+000  +8.5451076839E-003 +5.5302172107E+001  +8.9850708654E-003 +5.9176036542E+001  +8.1281964150E-001 -7.9802017334E-001 
13399534.418 +8.4081468342E-001 -1.1316811329E+000  +8.8093838272E-003 +5.8782829174E+001  +8.9285695999E-003 +5.4122700356E+001  +8.6123011739E-001 -2.6882280256E+000 
13524679.599 +8.6324646063E-001 -1.4530831987E+000  +7.4242143451E-003 +5.5733800105E+001  +9.6379736765E-003 +6.6316902533E+001  +8.7568504461E-001 -1.9356541588E+000 
13649824.781 +8.5789418966E-001 -1.7866448466E+000  +6.9263135002E-003 +5.6600873613E+001  +8.4096922175E-003 +6.8628007704E+001  +9.0087173633E-001 -1.6419380049E+000 
13774969.962 +8.9783435966E-001 -2.2565624667E+000  +8.5034888207E-003 +5.3042399264E+001  +7.3824116914E-003 +6.1381906238E+001  +9.0875581808E-001 -3.2862839138E+000 
13900115.144 +9.0651472320E-001 -3.7535191653E+000  +7.3430207865E-003 +6.0148765273E+001  +7.6898547530E-003 +6.2225145151E+001  +9.2023585612E-001 -2.6608386753E+000 
14025260.325 +9.1120925179E-001 -4.4109891105E+000  +8.1343952268E-003 +6.2254279771E+001  +7.8714615241E-003 +6.3786979834E+001  +9.3791733069E-001 -4.0252061880E+000 
14150405.507 +9.3178688596E-001 -4.4966436774E+000  +9.6785384002E-003 +5.8011664045E+001  +9.8760428184E-003 +6.5185653167E+001  +9.3446033229E-001 -4.3956124252E+000 
14275550.688 +9.5727938643E-001 -5.7967424486E+000  +9.0711446024E-003 +6.3959778171E+001  +1.0024214060E-002 +5.8898284611E+001  +9.8292221483E-001 -4.2430529004E+000 
14400695.870 +9.7126366160E-001 -5.9369000768E+000  +9.7608330120E-003 +6.1450802220E+001  +8.1710448829E-003 +4.6523867732E+001  +9.7930228462E-001 -4.9170074189E+000 
