!  2-Port S-parameters saved by WinCal
! VAR MeasName=S-Parameters (CALIBRATED_DATA) read from VNA (P5004A)
! VAR MeasDate=28/08/2024 12:17:51
! VAR NAME=S2_r7c9_SET1_9k-100M_3
! VAR FILENAME=S2_r7c9_SET1_9k-100M_3.S2P
! VAR DATE=28/08/2024 12:17:51
! VAR PHYS_PORTS=1,2
! VAR ObjTypeName=DATASET
! VAR IndexType=Frequency
!
# Hz S MA R 50
9000.000 +9.2597590016E-002 -1.6059132984E+002  +1.3237814877E-002 +1.0849151408E+002  +1.4385337198E-002 -1.5313319193E+002  +2.3642735324E-001 -1.3697157776E+002 
134145.181 +1.1095840001E-001 +1.6971852274E+002  +4.1003905790E-004 -1.9963310266E+001  +9.1806185892E-005 +1.7365181026E+002  +2.4112384903E-001 -1.7123649125E+002 
259290.363 +1.1290426761E-001 +1.7002204375E+002  +3.9741961945E-004 -8.5959204177E+001  +1.5657365624E-003 +5.9748282405E+001  +2.4894583223E-001 -1.6826812183E+002 
384435.544 +1.1370425899E-001 +1.7046371589E+002  +3.2225414314E-004 -5.3045586070E+001  +1.7244919864E-004 +1.6599239425E+002  +2.4144928787E-001 -1.6799188115E+002 
509580.726 +1.1436617049E-001 +1.7039585603E+002  +1.3510828574E-003 -1.4201673881E+002  +1.1667057268E-003 -1.4247080872E+002  +2.4111167836E-001 -1.6520691854E+002 
634725.907 +1.1619706975E-001 +1.7245439272E+002  +5.6547223857E-004 -8.5478354838E-001  +1.4468467489E-003 -1.3589872369E+002  +2.5276974677E-001 -1.6354168719E+002 
759871.089 +1.2088079051E-001 +1.7087847091E+002  +8.9521539399E-004 -5.6400942851E+001  +9.9012505965E-004 -1.8671096770E+000  +2.5727743205E-001 -1.6571097632E+002 
885016.270 +1.1935237318E-001 +1.6924143777E+002  +2.9524316400E-004 -8.1745687473E+001  +6.4438767668E-004 -4.1744389361E+001  +2.4625619868E-001 -1.6783966109E+002 
1010161.452 +1.1750381684E-001 +1.7143361318E+002  +9.2919148797E-004 -1.0236680690E+002  +1.0769831598E-003 -4.7586288450E+001  +2.0251013115E-001 -1.6250739291E+002 
1135306.633 +1.2065136119E-001 +1.6880018390E+002  +3.9801213179E-004 -1.7942455824E+002  +2.0433796870E-003 -7.3600734356E+001  +1.8067127456E-001 -1.6392562823E+002 
1260451.815 +1.1886166873E-001 +1.6978584881E+002  +1.3380702347E-003 +1.7400697559E+002  +2.5497059358E-004 +1.5616024254E+002  +2.2858196838E-001 -1.5767285254E+002 
1385596.996 +1.2667236972E-001 +1.7136861210E+002  +1.1289744727E-003 +1.3398351187E+001  +1.6148126886E-003 -4.3816360278E+001  +2.6993187309E-001 -1.5579816396E+002 
1510742.178 +1.2585822483E-001 +1.7162073873E+002  +7.8297354661E-004 +8.4146857826E+001  +4.0180271424E-004 +1.6515433035E+002  +2.4544687517E-001 -1.6011706063E+002 
1635887.359 +1.3003731788E-001 +1.7038949781E+002  +1.1769869924E-003 +1.5783354596E+002  +9.0013567805E-004 -1.2158656904E+002  +2.4233052077E-001 -1.5557868162E+002 
1761032.541 +1.3225216656E-001 +1.7018887494E+002  +1.2017439466E-003 -6.3397738241E+001  +2.6175672012E-004 -1.4888948085E+002  +2.1823091125E-001 -1.5779844364E+002 
1886177.722 +1.2846412875E-001 +1.6827234218E+002  +2.1060649564E-003 +4.1467971711E+001  +2.9375604771E-003 +1.2575068501E+001  +2.1366416537E-001 -1.6449664751E+002 
2011322.904 +1.2898169782E-001 +1.6590714921E+002  +3.7266600934E-004 -3.4040219345E+001  +2.0250153891E-003 +1.1311656496E+002  +1.7381825332E-001 -1.7119064300E+002 
2136468.085 +1.3252074813E-001 +1.6489376829E+002  +3.3230312332E-003 -2.0893569986E+000  +4.6445811119E-004 -1.5606917735E+002  +1.4055204455E-001 +1.5955060570E+002 
2261613.267 +1.3851830306E-001 +1.6555468659E+002  +1.1583741853E-003 -8.4906114130E+001  +1.7938139510E-003 -7.3942875644E+001  +1.9544961692E-001 +1.7251134947E+002 
2386758.448 +1.3310239817E-001 +1.6288950065E+002  +2.8588524274E-003 +2.0558319922E+001  +2.3234160094E-003 -1.0278367015E+002  +2.1622375621E-001 +1.5143905811E+002 
2511903.630 +1.2423204260E-001 +1.6175255058E+002  +2.6981494917E-003 -9.9970659749E+001  +3.9558100974E-003 -3.9520908229E+001  +2.2851898846E-001 +1.6744873973E+002 
2637048.811 +1.2210229495E-001 +1.6475739234E+002  +1.5037816258E-002 -2.2582617745E+001  +1.6700706792E-002 +6.7826581665E+001  +4.8368051702E-001 +1.0060349487E+002 
2762193.992 +7.3510395936E-002 +1.5051230267E+002  +6.6809258513E-002 -4.1316388970E+001  +1.4765224036E-001 +1.4289570579E+002  +2.7031451701E+000 +6.1714487098E+001 
2887339.174 +1.1184243015E-001 +1.6856300632E+002  +8.8139082159E-003 +1.3672051617E+002  +4.9359171709E-003 +1.4441700923E+002  +4.9000724518E-002 -2.6283221002E+001 
3012484.355 +1.3621853633E-001 +1.7396858461E+002  +8.3082101376E-003 +1.6047054947E+002  +1.0793834188E-002 -1.6173266556E+002  +6.4588081206E-001 -1.0765828010E+002 
3137629.537 +1.2359636431E-001 +1.7677587848E+002  +1.3140181499E-002 -4.4911337153E+001  +8.3021057378E-003 -9.0545595450E+001  +5.7687294838E-001 +5.8592264700E-001 
3262774.718 +1.2916138634E-001 +1.6625991554E+002  +3.8819907318E-003 +1.5439309223E+002  +1.1219953189E-002 +6.9955287886E+001  +4.9895121147E-002 -1.4040509894E+002 
3387919.900 +1.3447139093E-001 +1.6607931269E+002  +5.0884129405E-003 -1.2491550507E+001  +5.8329282311E-003 +1.4880256382E+002  +1.6134259318E-001 -9.7200081418E+001 
3513065.081 +9.4566615709E-002 +1.4767266794E+002  +2.0292693082E-002 +1.7067664671E+002  +8.9535313862E-003 -7.4082031248E+001  +3.3719196006E-001 +1.7948080541E+001 
3638210.263 +1.7127248624E-001 +1.3332698669E+002  +6.1914257594E-003 +1.7908549868E+002  +1.5936111215E-002 +1.0545889972E+002  +7.5136057223E-001 +1.5481789396E+002 
3763355.444 +1.5811551615E-001 +1.3221938150E+002  +1.2715348942E-002 -3.4899172435E+001  +9.2498581490E-003 +3.5774800444E+001  +1.3194417709E+000 +1.6768045912E+002 
3888500.626 +1.9760422045E-001 +1.3976655460E+002  +1.1764627191E-002 -9.3767974677E+001  +2.7250721775E-003 +3.3375742581E+000  +6.4446216299E-001 +1.4162142000E+002 
4013645.807 +1.8748182859E-001 +1.5314118302E+002  +2.6692973893E-003 +4.0019868566E+001  +5.4865944182E-003 +3.8975395384E+001  +4.4466905307E-001 +1.3741322538E+002 
4138790.989 +1.8813134653E-001 +1.4400061114E+002  +9.2033746024E-003 -6.1006287065E+000  +1.4486983500E-002 -1.5010804704E+000  +1.6414841994E+000 +1.0033490001E+002 
4263936.170 +1.9993619063E-001 +1.4029098721E+002  +1.1840201237E-002 -1.0933882147E+002  +8.4699857275E-003 +1.0698836291E+002  +4.8731506072E-001 +1.0440535472E+002 
4389081.352 +2.0521609596E-001 +1.4507396013E+002  +2.3608889973E-002 +3.6660075422E+001  +2.5362693878E-002 +7.8387134610E+001  +2.3000072881E+000 +1.7429879222E+002 
4514226.533 +1.7547899554E-001 +1.4280459146E+002  +3.5770203165E-002 +1.4654991019E+002  +2.5455030664E-002 +9.9245252336E+001  +1.7719642505E+000 +9.6382786735E+001 
4639371.715 +2.8343812933E-001 +1.3361759415E+002  +8.3479761872E-002 -4.1267013298E+001  +3.7701027597E-002 -1.2538047560E+002  +4.5408963463E+000 +1.3758546980E+002 
4764516.896 +2.2557689023E-001 +1.2965181030E+002  +3.8899223371E-002 -1.3003465411E+002  +3.2254539421E-002 +1.3942254485E+002  +3.2471380272E+000 +2.8192437809E+000 
4889662.078 +4.6232199407E-001 +1.4131665309E+002  +8.0433650646E-002 -6.8256417565E+000  +3.2032321320E-002 +1.4489818669E+002  +5.1550460568E+000 -7.9578422555E+001 
5014807.259 +3.9403178957E-001 +1.3260758692E+002  +2.1468436305E-002 +1.6857216980E+002  +5.1974098139E-003 +1.1661122979E+002  +3.0717813640E+000 -5.9277581041E+001 
5139952.441 +3.3695524121E-001 +1.2699541053E+002  +5.7065814474E-002 -2.1042192987E+001  +3.5521875729E-002 +4.7832907330E+001  +3.4890821438E+000 +9.4471949184E+001 
5265097.622 +3.3875940365E-001 +1.3357823384E+002  +4.6298941837E-002 +7.2925670587E+001  +2.3272835522E-002 -7.8949043951E+001  +4.8843454421E+000 +1.8885585288E+001 
5390242.804 +4.3171524645E-001 +1.2134691465E+002  +1.1445504375E-001 -5.5679818404E+001  +3.8625812297E-002 -1.3330970958E+002  +8.6754368511E+000 +6.8314481123E+001 
5515387.985 +4.5918564161E-001 +1.2867983964E+002  +4.6018553864E-002 +1.0484962298E+002  +7.3352215343E-003 -1.1233262310E+002  +2.6519416248E+000 +1.0104110979E+002 
5640533.166 +5.6725017344E-001 +1.2639515658E+002  +2.8810325315E-002 +1.1657017009E+002  +3.5349607095E-002 +8.5555037085E+001  +1.9889569833E+000 +6.4862912426E+001 
5765678.348 +5.4294615592E-001 +1.2719030847E+002  +1.8607031115E-002 -1.2519848992E+002  +1.7453649598E-002 -1.7820310327E+002  +2.7282676338E+000 +5.9058534626E+001 
5890823.529 +5.5641636400E-001 +1.1911412385E+002  +2.0889627428E-002 +1.3404108027E+002  +4.3085637460E-002 -1.1050215671E+002  +2.5915989216E+000 +4.9968069401E+001 
6015968.711 +5.7165107986E-001 +1.1187669681E+002  +7.2943542419E-003 +6.1116581172E+001  +1.1784419437E-002 -1.3235080501E+002  +1.8481445674E+000 +3.4504385985E+001 
6141113.892 +9.5097659358E-001 +1.0458882560E+002  +1.4247843861E-002 +1.3581643475E+002  +2.2130217037E-002 +3.7167345325E+001  +2.2610238240E+000 +3.9832021736E+001 
6266259.074 +8.7086349217E-001 +1.1287928418E+002  +1.6469452987E-002 +1.0950356217E+002  +1.2149590891E-002 +1.0483876638E+002  +2.0216553280E+000 +2.2433460352E+001 
6391404.255 +9.9810830044E-001 +8.9695456848E+001  +3.6912919249E-002 +1.0442147171E+002  +2.0512060904E-002 +1.2717510915E+002  +1.2699978977E+000 +2.3721689702E+001 
6516549.437 +1.5310728382E+000 +8.9649834562E+001  +1.5471110372E-002 +1.4651681261E+002  +1.5309465374E-002 -4.3106632415E+001  +1.1187587626E+000 +2.1107680258E+000 
6641694.618 +1.3187320018E+000 +6.6760502465E+001  +2.8364168452E-002 -1.7656495287E+002  +2.9000152953E-002 +7.5661893422E+001  +1.3344565082E+000 +8.8140868127E-001 
6766839.800 +1.5704014536E+000 +5.8720280917E+001  +2.5172151339E-002 +8.6553243895E+001  +1.6422678435E-002 -4.1684319721E+001  +1.3161836535E+000 -1.1428968997E+001 
6891984.981 +1.7244816602E+000 +1.3606120855E+001  +4.4015011910E-002 +7.3555151414E+001  +3.1535829616E-002 +5.7406732881E+001  +1.4095761588E+000 -9.3072478132E+000 
7017130.163 +1.9058637558E+000 +1.9006799220E+001  +2.0444908579E-002 +6.7952983146E+001  +2.0841113490E-002 +1.5115271848E+001  +1.4195404874E+000 -1.5170558469E+001 
7142275.344 +1.2624096166E+000 +5.3684162237E+000  +2.3102919945E-002 +9.4477246261E+001  +1.9141991773E-002 +1.5247195586E+001  +1.3673148364E+000 -6.8012858138E+000 
7267420.526 +1.4897704011E+000 -1.1366086499E+000  +8.0622492976E-003 -7.8803600794E+001  +1.6521017258E-002 +6.0573275882E+001  +1.3894528112E+000 -7.1289460107E+000 
7392565.707 +1.3364914262E+000 -2.6256070833E+000  +7.0703803370E-003 +5.8246147502E+001  +3.5651351700E-003 +2.3676528402E+001  +1.3812968404E+000 -4.2294789303E+000 
7517710.889 +1.2878625681E+000 -7.0687931922E+000  +8.8005718053E-003 -1.1505189556E+001  +1.0345288634E-002 +2.8169463337E+001  +1.1818769324E+000 -9.6389680209E+000 
7642856.070 +1.0777183287E+000 +2.3567019892E+000  +5.5883281868E-003 +1.0413891120E+002  +5.7545441755E-003 +7.1747543886E+001  +1.0718114401E+000 -5.8964043323E+000 
7768001.252 +8.4897275344E-001 +4.2537193348E+000  +1.1809225977E-002 +1.1138573499E+002  +1.1193701408E-002 +6.2331985558E+001  +8.8277505223E-001 -1.0476120996E+001 
7893146.433 +7.6645280187E-001 -2.9990186031E+000  +1.5334173225E-002 +9.0104008383E+001  +4.4162252909E-003 +5.9223700374E+001  +9.8136878026E-001 -2.8203348787E+000 
8018291.615 +8.1702772479E-001 +4.5896820067E+000  +9.5926637025E-003 +8.8655147561E+001  +8.9605442304E-003 +1.1046142271E+001  +8.4008755320E-001 -4.0392757756E+000 
8143436.796 +7.5377195498E-001 +2.3615036581E+000  +6.1884352609E-003 -1.5192735304E+002  +7.2837101977E-003 +6.7888920679E+001  +8.4166656484E-001 -2.6989558748E+000 
8268581.977 +6.9514118850E-001 +1.1152748101E+001  +3.3850253511E-003 +4.3502722146E+000  +5.0777559113E-003 +9.0818552845E+001  +7.8704528341E-001 +1.9784481400E-001 
8393727.159 +7.0504399747E-001 +8.2551647704E+000  +8.1178537801E-003 +5.9517442235E+001  +1.6870302547E-003 +1.5395423316E+002  +7.3781877656E-001 +5.1227624912E+000 
8518872.340 +6.8367234279E-001 +3.5789290127E+000  +2.8787221578E-003 +4.6688168925E+001  +5.6489910967E-003 +6.1447174823E+001  +7.0271339876E-001 +2.5022734690E+000 
8644017.522 +6.2100293024E-001 +6.0000298250E+000  +5.2389173936E-003 +5.8266226833E+001  +5.4905716252E-003 +9.1257963743E+001  +7.1559424067E-001 -1.1774791442E+000 
8769162.703 +6.1362796045E-001 +8.3402745444E+000  +2.8133556687E-003 +6.9410910207E+001  +2.7805207103E-003 +8.0111575319E+001  +6.3657757799E-001 +1.4105957924E+000 
8894307.885 +6.4761453643E-001 +6.2280224190E+000  +2.7401636930E-003 -3.3465514092E+001  +3.1696588327E-003 +9.1339834114E+001  +6.3024372926E-001 -5.2091334582E+000 
9019453.066 +5.7596076518E-001 +7.8751960572E+000  +4.7228093857E-003 +1.1008249115E+002  +5.3970765689E-003 +1.0834288855E+002  +6.4839178761E-001 -7.0525246329E-001 
9144598.248 +5.4969602466E-001 +2.5170743567E+000  +7.8350225652E-003 +8.1147745684E+001  +4.4240500984E-003 +9.9803467627E+001  +6.4517075262E-001 -1.7422838912E+000 
9269743.429 +6.1440570094E-001 +4.7500199468E+000  +3.7919755625E-003 +1.1162804092E+002  +4.0744364188E-003 +7.4271534147E+001  +5.7569818508E-001 +2.7634210725E+000 
9394888.611 +5.9228153647E-001 +1.0394654298E+001  +4.2854169448E-003 +2.4224157138E+001  +3.0480779485E-003 +9.9070544698E+001  +6.2592796375E-001 +1.4718258039E-001 
9520033.792 +6.1393057377E-001 +6.3354566112E+000  +3.2504003022E-003 +1.0646403130E+002  +5.9206946888E-003 +5.6012589559E+001  +5.8196097094E-001 -1.5140888273E+000 
9645178.974 +5.9238169288E-001 +2.1295034571E+000  +3.8490532828E-003 +9.9303848523E+001  +1.9169624149E-003 +4.7697725753E+001  +6.0991388095E-001 -5.7610270814E+000 
9770324.155 +5.0250573870E-001 +4.4514433241E+000  +4.8437258065E-003 +6.5169856693E+001  +6.9846409241E-003 +8.9747051149E+001  +5.8782491088E-001 -3.5311481640E+000 
9895469.337 +5.2659439675E-001 +1.0774024068E+000  +1.7301814816E-003 -1.0703894747E+001  +4.7577902155E-003 +1.1509526671E+002  +5.9288711085E-001 -2.8590170423E+000 
10020614.518 +5.3779771226E-001 +6.0586919044E+000  +2.6865328951E-003 +5.4855890929E+001  +8.2423764487E-003 +8.7307223370E+001  +5.4452083813E-001 -7.6643123728E+000 
10145759.700 +5.8854559818E-001 -2.7121743000E-001  +4.8740933400E-003 +4.3356495884E+001  +4.3745350824E-003 +9.2797392077E+001  +5.8248231122E-001 -7.8874031861E+000 
10270904.881 +5.4202718124E-001 +3.8442628701E+000  +4.4622796642E-003 +6.0643453511E+001  +2.9158372955E-003 +1.0124896128E+002  +5.6365946045E-001 -4.3265319677E+000 
10396050.063 +5.4891544554E-001 +4.0986481281E+000  +4.1358808434E-003 +8.5758683159E+001  +5.4059245535E-003 +9.0890012678E+001  +5.8403775965E-001 -1.1476702251E+000 
10521195.244 +6.1724340976E-001 +7.6697301600E+000  +4.3867170964E-003 +6.9663707891E+001  +2.5976446046E-003 +1.0330880838E+002  +5.6495617786E-001 +3.4699962245E-001 
10646340.426 +5.6617104682E-001 +7.9873574677E+000  +4.5372808614E-003 +5.9327297181E+001  +4.5549687931E-003 +1.1262027497E+002  +6.2870336326E-001 +2.8723875714E+000 
10771485.607 +6.0549537728E-001 +8.6003819963E+000  +6.5003062760E-003 +4.0580879820E+001  +4.7079452765E-003 +9.7136795146E+001  +5.9694856695E-001 -1.2072347641E+000 
10896630.788 +5.5128299407E-001 +4.3022455339E+000  +6.6331138481E-003 +6.3352866347E+001  +4.9727339231E-003 +8.9129391201E+001  +6.3680472140E-001 +6.4709108407E-001 
11021775.970 +5.8829976795E-001 +6.4491523919E+000  +5.5672302244E-003 +7.3937133918E+001  +5.9896106920E-003 +7.1442048180E+001  +6.1082099975E-001 +1.6717505492E+000 
11146921.151 +6.0486817833E-001 +5.1882090380E+000  +4.8588093349E-003 +5.0646339674E+001  +7.3277667009E-003 +7.8115318817E+001  +6.3625774503E-001 +3.6404344524E+000 
11272066.333 +6.0190389652E-001 +6.2289600780E+000  +4.2845809108E-003 +1.1491664306E+002  +3.0541754518E-003 +7.9893305987E+001  +6.1645888558E-001 +2.0609058579E+000 
11397211.514 +6.3318933356E-001 +6.3864310653E+000  +4.7919272782E-003 +7.1504288482E+001  +6.6904250054E-003 +7.3890343268E+001  +6.3009886294E-001 +1.2060055149E+000 
11522356.696 +5.9934632173E-001 +5.6522207435E+000  +7.3168051657E-003 +6.3266802380E+001  +6.4572788418E-003 +5.8024493182E+001  +6.4428165047E-001 +2.6949083245E+000 
11647501.877 +6.1581207366E-001 +5.1526315846E+000  +5.0609481605E-003 +7.8229818052E+001  +5.7148165220E-003 +8.9726292880E+001  +6.4679430240E-001 +5.1513993644E+000 
11772647.059 +6.3446252747E-001 +4.5941968991E+000  +6.3071483763E-003 +7.5118306943E+001  +5.9257836912E-003 +7.1178056920E+001  +6.7116779688E-001 +1.6099678701E+000 
11897792.240 +6.4283103677E-001 +5.4516510107E+000  +5.4864971871E-003 +6.0653476381E+001  +5.8317196524E-003 +5.8771117936E+001  +6.6376362417E-001 -4.9506251593E-001 
12022937.422 +6.8364493439E-001 +6.6728171626E+000  +6.0827205154E-003 +7.4155458113E+001  +5.3091958575E-003 +1.0917030895E+002  +6.6682357423E-001 -1.6616038497E+000 
12148082.603 +6.7288983680E-001 +2.5180051235E+000  +5.4774320361E-003 +5.1493360268E+001  +4.5219118999E-003 +8.4077865586E+001  +6.8692296596E-001 +5.0405790843E-001 
12273227.785 +6.8424869953E-001 +3.4484513754E+000  +4.9881895643E-003 +7.8450957750E+001  +4.4242296658E-003 +8.2628104299E+001  +7.2734295672E-001 -9.5213596200E-001 
12398372.966 +7.0452569651E-001 +3.9277681383E+000  +6.6571420348E-003 +5.4481308873E+001  +5.6247383017E-003 +8.6393787092E+001  +7.3464447065E-001 -5.1439486332E-002 
12523518.148 +7.3671957595E-001 +3.8569553010E+000  +8.0326208235E-003 +7.9520792460E+001  +7.0648550343E-003 +6.4629030026E+001  +7.5952045445E-001 -2.4940164340E-001 
12648663.329 +7.5327569177E-001 +2.9444992856E+000  +4.3501260039E-003 +6.7934148226E+001  +6.4585117305E-003 +8.1432593139E+001  +7.5149029744E-001 -2.7292809953E-001 
12773808.511 +7.1979830397E-001 +1.5475325808E+000  +7.0119834060E-003 +8.2595626875E+001  +7.2022742193E-003 +7.9624327214E+001  +7.8199840495E-001 -1.5072129395E+000 
12898953.692 +7.7739946251E-001 +1.2019373823E+000  +7.0748662707E-003 +6.9663993632E+001  +5.9957280745E-003 +7.6656480724E+001  +7.9135220789E-001 +1.6629979303E-001 
13024098.874 +7.8174039145E-001 +3.0051701305E-001  +7.9008393124E-003 +7.7761684904E+001  +6.6947266075E-003 +8.5817195003E+001  +7.6599622834E-001 -1.9214940745E+000 
13149244.055 +7.9633669703E-001 +1.3803963202E-001  +6.8797919162E-003 +6.3557354663E+001  +5.3934714901E-003 +6.9055944283E+001  +8.2574856846E-001 -1.1673130967E+000 
13274389.237 +8.2532144800E-001 -1.1357188028E-001  +7.4959010786E-003 +8.6786100054E+001  +8.1769889293E-003 +7.8795305838E+001  +8.4648406186E-001 -4.1145805559E+000 
13399534.418 +8.3919311541E-001 -1.5133922982E+000  +8.3638433380E-003 +6.2974263699E+001  +6.7351599328E-003 +7.1162107689E+001  +8.5446883258E-001 -2.8908515003E+000 
13524679.599 +8.4124453588E-001 -2.3343579353E+000  +6.9525723973E-003 +7.4767700921E+001  +6.5837853430E-003 +7.2735293042E+001  +8.5538219038E-001 -3.6439538040E+000 
13649824.781 +8.7744517933E-001 -1.2233246506E+000  +5.5800042966E-003 +7.6199779843E+001  +5.2772713529E-003 +9.9658064784E+001  +8.8343943859E-001 -2.8132052041E+000 
13774969.962 +8.9225375792E-001 -3.5815480117E+000  +6.6661211868E-003 +8.9599777362E+001  +7.6175497662E-003 +8.1813901355E+001  +8.9509187259E-001 -2.9665860315E+000 
13900115.144 +9.3786550185E-001 -2.6947802014E+000  +8.4536707833E-003 +7.5273747332E+001  +6.7080953019E-003 +6.9275367957E+001  +9.1074883035E-001 -3.4664801489E+000 
14025260.325 +9.1143356292E-001 -4.2987373344E+000  +6.5357551176E-003 +9.2196803096E+001  +8.1672000834E-003 +8.6655250739E+001  +9.2860118402E-001 -3.4549524398E+000 
14150405.507 +9.2825648099E-001 -4.2748526791E+000  +7.1628006864E-003 +7.1872343070E+001  +6.6527492275E-003 +7.8869074239E+001  +9.5801210850E-001 -4.8581648027E+000 
14275550.688 +9.8201724135E-001 -5.0182044043E+000  +6.8439805079E-003 +7.6472379369E+001  +6.6674344870E-003 +8.9918360267E+001  +9.7585710378E-001 -3.0501947341E+000 
14400695.870 +9.8015940793E-001 -4.6326359122E+000  +8.0952763602E-003 +7.5221669407E+001  +6.7534614493E-003 +7.9178769686E+001  +1.0032660103E+000 -4.4033022654E+000 
