!  2-Port S-parameters saved by WinCal
! VAR MeasName=S-Parameters (CALIBRATED_DATA) read from VNA (P5004A)
! VAR MeasDate=28/08/2024 16:28:47
! VAR NAME=S2_r8c9_RESET3_9k-100M_3
! VAR FILENAME=S2_r8c9_RESET3_9k-100M_3.S2P
! VAR DATE=28/08/2024 16:28:47
! VAR PHYS_PORTS=1,2
! VAR ObjTypeName=DATASET
! VAR IndexType=Frequency
!
# Hz S MA R 50
9000.000 +8.4854502255E-002 -1.6833795440E+002  +4.6166154293E-003 -1.5398005305E+002  +2.9826650209E-003 +3.9728737892E+001  +2.5180089637E-001 -1.5047778539E+002 
134145.181 +1.1159498617E-001 +1.6950115293E+002  +6.9814716632E-004 +1.1881736569E+002  +4.7782789976E-005 +2.0732349241E+001  +2.3894103611E-001 -1.7158785965E+002 
259290.363 +1.1267385169E-001 +1.7004547038E+002  +5.7448411504E-004 -1.6527401088E+002  +2.1259643773E-004 -8.1540131201E+001  +2.4387076982E-001 -1.6901371747E+002 
384435.544 +1.1459418905E-001 +1.7011900668E+002  +2.8380250246E-004 -1.2321695653E+002  +2.0783717947E-004 -8.1806988853E+001  +2.4525112714E-001 -1.6893527246E+002 
509580.726 +1.1406047602E-001 +1.7127347677E+002  +1.0018234782E-003 +1.2427136755E+002  +1.3645930824E-003 -2.2528748035E+001  +2.4717998093E-001 -1.6763498189E+002 
634725.907 +1.1549710717E-001 +1.7033384228E+002  +3.3122543955E-004 +2.6117773985E+001  +1.4461279355E-003 +7.1757311674E+001  +2.4076778088E-001 -1.6234225925E+002 
759871.089 +1.1701975700E-001 +1.7163752062E+002  +4.6289286087E-004 +3.3982061610E+001  +6.5437067477E-004 -1.1990804023E+002  +2.5060371493E-001 -1.6549889491E+002 
885016.270 +1.2031785728E-001 +1.6887054088E+002  +2.9680660436E-004 +1.2425243890E+002  +5.3141384219E-004 +1.4638137008E+002  +2.4716266711E-001 -1.6790104357E+002 
1010161.452 +1.1652169431E-001 +1.7117010517E+002  +9.7372463595E-004 +2.3693018317E+001  +2.1204371681E-004 +9.4085320105E+001  +2.1618621770E-001 -1.7033712187E+002 
1135306.633 +1.1850527670E-001 +1.6950854722E+002  +3.4122705448E-004 -3.2887113003E+001  +1.7018958502E-003 -1.7482360602E+002  +2.0412822941E-001 -1.7087766316E+002 
1260451.815 +1.2038900988E-001 +1.7085813878E+002  +1.7905250907E-003 -9.0288401642E+000  +1.5697189483E-003 +1.7992989396E+002  +2.2296154387E-001 -1.5912680344E+002 
1385596.996 +1.2877822168E-001 +1.7348279787E+002  +1.0703811757E-003 -2.0358309974E+001  +4.3717288129E-004 -6.9753473175E+001  +2.5221571412E-001 -1.5599620311E+002 
1510742.178 +1.2710148247E-001 +1.7136176132E+002  +7.6417582100E-004 +5.0925062606E+001  +9.2390817334E-004 -6.2288463093E+001  +2.5002311086E-001 -1.5412366384E+002 
1635887.359 +1.2956655806E-001 +1.7044772373E+002  +5.9000487357E-004 +9.1245432020E+001  +8.4979491062E-004 -9.9631868129E+001  +2.5465494251E-001 -1.6087704570E+002 
1761032.541 +1.2852093477E-001 +1.7027386032E+002  +6.3570162064E-004 -6.2526411688E+001  +1.0128823464E-003 -1.0713300548E+002  +2.3994587294E-001 -1.5650831601E+002 
1886177.722 +1.3024530377E-001 +1.6869640150E+002  +7.7369867713E-004 +1.6291878330E+001  +9.4325667230E-004 -2.4803590794E+000  +1.9913723065E-001 -1.6157801111E+002 
2011322.904 +1.3233297005E-001 +1.6651079869E+002  +1.8835288961E-003 +1.1841415329E+002  +1.6938590069E-003 +1.4769621690E+002  +1.8543707495E-001 -1.6436273624E+002 
2136468.085 +1.2675063948E-001 +1.6438926180E+002  +1.8202235018E-003 -1.9738734966E+001  +2.2599603545E-003 +1.5695651978E+002  +1.9830769361E-001 -1.6637515241E+002 
2261613.267 +1.3102606224E-001 +1.6248388816E+002  +1.9181469692E-003 +5.0881482696E+001  +1.1628555930E-003 +1.4644724000E+002  +1.2627724936E-001 +1.5341039672E+002 
2386758.448 +1.3594341080E-001 +1.6322817700E+002  +5.6244861294E-003 -9.9924253222E+001  +1.6903405515E-003 -1.4945177638E+002  +2.2784310575E-001 +1.7169942237E+002 
2511903.630 +1.2780662956E-001 +1.6176493242E+002  +2.3292489723E-003 +1.6894778650E+002  +3.6338269696E-003 -3.2451312886E+001  +2.2354435546E-001 +1.7066535272E+002 
2637048.811 +1.0400205141E-001 +1.6507611480E+002  +1.0413831016E-002 -7.8639086614E+001  +4.6529260550E-003 -7.4078798089E+001  +2.2004264461E-001 +1.4451275899E+002 
2762193.992 +9.2826794995E-002 +1.6467307364E+002  +2.3642068130E-002 -1.0425096560E+002  +1.9148570854E-002 +9.5292408240E+001  +1.7667089112E-001 -4.9081566682E+001 
2887339.174 +1.2616014718E-001 +1.6777948546E+002  +1.7901580192E-003 +1.2016865071E+002  +7.0081792379E-003 +8.9379230767E+001  +1.8520712042E-001 -8.5052254060E+001 
3012484.355 +1.1126458188E-001 +1.7552919826E+002  +7.0407054810E-003 +1.1668027188E+002  +2.0255916472E-003 +1.4845024832E+002  +2.4067025415E-001 -9.8851783241E+001 
3137629.537 +1.0032817085E-001 +1.6951322903E+002  +5.1232482806E-003 -2.0300364115E+001  +1.2820778991E-002 -3.2803430709E+001  +1.8441147355E-001 -8.1438151186E+001 
3262774.718 +1.3463153991E-001 +1.6153343541E+002  +7.5144634097E-003 +1.0749458033E+002  +8.3209728590E-003 +1.2581322785E+002  +8.3010150907E-002 -1.3953873019E+002 
3387919.900 +1.0701975976E-001 +1.5990020952E+002  +1.4220907063E-002 +2.5803008051E+001  +1.3761897456E-002 +1.8191166924E+001  +2.4157418178E-001 +1.7654605895E+001 
3513065.081 +1.4114798028E-001 +1.6660866580E+002  +6.5579076149E-003 +3.0024990576E-001  +9.8029745109E-003 +1.2718266875E+002  +2.1878018944E-001 +5.7494603272E+001 
3638210.263 +1.7068177835E-001 +1.4950555272E+002  +8.0679253102E-003 -1.1883152407E+002  +5.7566925314E-003 +2.4477257954E+001  +4.7618982325E-001 +1.3443493135E+002 
3763355.444 +1.7387959194E-001 +1.4524420608E+002  +1.1575719412E-002 -1.5884596327E+002  +7.6016800172E-003 +5.3703942859E+001  +5.9390585862E-001 +1.4885143453E+002 
3888500.626 +1.8269550898E-001 +1.4942858745E+002  +6.3195940860E-003 -7.3180988451E+001  +7.1338015547E-003 +1.1999158088E+002  +6.2869735584E-001 +1.3888902007E+002 
4013645.807 +1.8696624242E-001 +1.5316781609E+002  +6.1454066809E-003 +1.0863946963E+002  +1.9658030692E-003 +1.6818534167E+002  +3.8076946739E-001 +1.1360683581E+002 
4138790.989 +1.8052464318E-001 +1.3986962209E+002  +5.8662215216E-003 +6.4292153975E+001  +5.4788991747E-003 +3.6981666364E+001  +1.5609109520E-001 +1.4160290811E+002 
4263936.170 +2.1468015957E-001 +1.3989718479E+002  +2.9586485360E-002 -1.0556889166E+002  +2.2425738912E-002 +8.0880205243E+001  +6.1531416780E-001 +1.2911815003E+002 
4389081.352 +1.8547406192E-001 +1.3563779494E+002  +2.0729014070E-002 -1.7484673510E+002  +9.3491831468E-003 -2.7196930396E+001  +6.6695204759E-001 +1.2270509732E+002 
4514226.533 +2.4206357664E-001 +1.4098697495E+002  +8.2038151026E-003 +7.1547650054E+001  +5.5112219836E-003 -1.5257447881E+002  +8.5837758124E-001 +1.3508920278E+002 
4639371.715 +3.5872648740E-001 +1.3727877388E+002  +2.4088021630E-002 -5.0581675383E+001  +2.9638125885E-002 -1.3639994596E+002  +2.4464887038E+000 +1.5807838947E+002 
4764516.896 +2.9844558436E-001 +1.2811363051E+002  +3.9579824097E-002 +1.1942030288E+002  +1.8241900656E-002 -8.0847498456E+001  +3.1337225283E+000 -3.4616995587E+001 
4889662.078 +4.8678033767E-001 +1.2871218160E+002  +1.9526651800E-002 +1.0433079306E+001  +2.5789754349E-002 +2.8059618770E+001  +1.7781767007E+000 -1.2423027701E+002 
5014807.259 +4.1937228629E-001 +1.3182437617E+002  +1.0411460205E-001 -1.7670059392E+001  +1.3482829807E-001 +5.8952871590E+001  +7.9861013286E+000 -3.6985980389E+001 
5139952.441 +4.0882030812E-001 +1.2535380397E+002  +2.2082043848E-002 +1.7665655095E+002  +2.4814236000E-002 -1.6726884085E+002  +2.8882360180E+000 +1.0756177909E+002 
5265097.622 +5.2757340396E-001 +1.2624184820E+002  +7.4493924864E-002 -1.5031495857E+002  +5.8972421840E-002 +5.0635117442E+001  +3.9326376157E+000 +7.7888118808E+001 
5390242.804 +4.2917704348E-001 +1.2887606120E+002  +3.9850229227E-002 +1.7379751774E+002  +1.7012973394E-002 +1.0451285697E+002  +2.4423169240E+000 +9.5747881076E+001 
5515387.985 +4.2768430526E-001 +1.3490458867E+002  +1.7154458317E-002 +1.1875290909E+002  +1.6008554512E-002 +1.4054531389E+002  +1.6125419560E+000 +8.8273986723E+001 
5640533.166 +4.4974895290E-001 +1.3020483391E+002  +1.9150685170E-002 +4.2288004828E+001  +9.5746381895E-003 -3.5990038368E+001  +2.9492326887E+000 +1.0723290628E+002 
5765678.348 +4.6873661683E-001 +1.2046449526E+002  +5.3724715037E-002 -1.7373723459E+002  +1.5246498427E-002 +1.6700559582E+002  +3.0624693291E+000 +6.9871497288E+001 
5890823.529 +5.5816556250E-001 +1.2485952355E+002  +3.3322700368E-002 +6.3631125571E+001  +2.7734639936E-002 +1.2941723938E+002  +2.4271085444E+000 +6.7252087885E+001 
6015968.711 +6.4034452160E-001 +1.1968767973E+002  +1.2535106387E-002 +1.8370459957E+001  +8.4769833869E-003 +7.5953536725E+001  +2.0593405187E+000 +4.2578864233E+001 
6141113.892 +8.7435653238E-001 +1.0133895556E+002  +1.4580141302E-002 -1.3261427381E+002  +1.5431009590E-002 +4.7011372905E+001  +1.7521920141E+000 +5.9021771107E+001 
6266259.074 +8.6311912268E-001 +9.6470984497E+001  +3.6536520146E-002 +1.1409323811E+002  +3.6899098585E-002 -1.6030355998E+002  +2.0876864681E+000 +1.0425742667E+001 
6391404.255 +1.3816499954E+000 +1.0442123973E+002  +1.9915661129E-002 +1.0556367607E+002  +3.2487650293E-002 +1.7079988977E+002  +1.6041066703E+000 +1.7368387229E+001 
6516549.437 +1.2311541399E+000 +9.2806086133E+001  +1.6008831685E-003 -8.1505398288E+001  +9.0484015306E-003 +1.6571297163E+002  +1.3862092760E+000 +1.2437092835E+001 
6641694.618 +1.3504040033E+000 +7.1082796349E+001  +9.3722011401E-003 -1.7835321180E+002  +1.1668376404E-002 -1.7495633491E+002  +1.8273161416E+000 +1.1006042368E+001 
6766839.800 +1.6929297153E+000 +4.9744078333E+001  +2.5866843923E-002 +9.9760539148E+001  +2.9432441968E-002 +1.5383145576E+001  +1.2748447819E+000 -7.5852263073E-001 
6891984.981 +1.7451406748E+000 +4.3140512812E+001  +2.4657653594E-002 +1.1854124138E+002  +7.4439438165E-003 +3.4850241194E+001  +1.2492557030E+000 -4.5911008423E+000 
7017130.163 +1.8584021603E+000 +2.1920114439E+001  +1.5844555838E-002 +1.1565304891E+002  +1.5798654801E-002 +1.1218434248E+002  +1.3103449928E+000 -5.7110347802E+000 
7142275.344 +1.7933002092E+000 +8.3208929501E+000  +7.6467634411E-003 +1.1507728415E+002  +1.2527442653E-002 +3.9049120741E+001  +1.1994039873E+000 -8.6136274708E+000 
7267420.526 +1.5249826167E+000 -4.8714723195E-001  +1.0328360054E-003 +8.4460198789E+001  +6.4213115422E-003 +9.3223228400E+001  +1.3328172156E+000 -1.1111443797E+001 
7392565.707 +1.3457028965E+000 +1.0255386567E-001  +9.1683034940E-003 +1.0516576843E+002  +6.5701953029E-003 +2.0169074706E+000  +1.3998204731E+000 -6.6693278325E+000 
7517710.889 +1.1644877690E+000 -2.6859224716E+000  +5.6282026547E-003 -1.5151969256E+002  +7.3696357357E-003 +1.2827344351E+002  +1.1012094347E+000 -1.7477167907E+000 
7642856.070 +1.0528033662E+000 -1.5452631127E+000  +6.1681771004E-003 +6.5954455791E+001  +9.6281259956E-003 +5.5508829586E+001  +1.1170631764E+000 -2.7136663877E+000 
7768001.252 +9.5332395706E-001 +5.0026086135E+000  +2.9315649819E-003 -4.5583897575E+001  +1.3091012095E-002 +1.0268251840E+002  +9.5447396879E-001 -2.7132631799E+000 
7893146.433 +8.8753778725E-001 +2.3811574748E+000  +9.2994642343E-003 +7.6201178359E+001  +3.0118255137E-003 -2.4441583075E+001  +9.5483324810E-001 +5.0312888502E+000 
8018291.615 +8.6197116655E-001 +3.8364377501E+000  +4.3012904360E-003 -1.4501032699E+002  +6.6722896992E-003 +1.7659682149E+002  +8.4453521766E-001 -2.6538918197E+000 
8143436.796 +7.8347792826E-001 +1.6639924838E-001  +5.2389095339E-003 +1.2079463622E+002  +3.0086314317E-003 +6.9458129085E+001  +7.6365394888E-001 -1.1310919099E-002 
8268581.977 +6.8962054933E-001 +8.9345228959E+000  +7.9227731227E-003 +9.4425437290E+001  +7.4517676429E-003 +2.1650334352E+001  +8.2163830817E-001 -5.8836717811E+000 
8393727.159 +6.7395023606E-001 +1.0283597058E+001  +5.2627609049E-003 +8.1166865189E+001  +6.6162913542E-003 +7.4133674960E+001  +7.4540726631E-001 +3.5921301115E+000 
8518872.340 +6.6765579069E-001 +9.6814692217E+000  +6.0542195405E-003 +1.0409336623E+002  +2.7033460070E-003 +3.2467149615E+001  +6.7543884044E-001 -1.0354141545E+000 
8644017.522 +6.8587216176E-001 +1.3575773951E+001  +2.0018275806E-003 +1.1172822756E+002  +1.6227431583E-003 +7.6612393787E+001  +6.7969499543E-001 +3.9809361026E-002 
8769162.703 +6.2696812055E-001 +2.8383853701E+000  +2.9989236034E-003 +8.7780737441E+001  +6.8551248302E-003 +1.2146420299E+002  +6.9426329551E-001 +2.3182813550E+000 
8894307.885 +5.9942372755E-001 +1.0186573116E+001  +2.8195460967E-003 +4.4161750556E+001  +6.4319158058E-003 +5.3165381377E+001  +6.2052222974E-001 +1.1550770253E+000 
9019453.066 +6.5331628668E-001 +4.0459300351E+000  +7.3148071392E-003 +2.0897427318E+001  +4.7148308499E-003 +1.2074365713E+002  +6.0667009887E-001 +6.2279533433E-001 
9144598.248 +5.7580597878E-001 +1.2753270355E+001  +5.9936799787E-003 +8.2231414457E+001  +2.8652646578E-003 +1.0176638180E+002  +6.0749693654E-001 -1.3196666900E+000 
9269743.429 +5.7879898352E-001 +9.8590080612E-001  +3.2536159757E-003 +8.1090007036E+001  +3.9371681125E-003 +9.4476374938E+001  +6.0559270309E-001 +1.3460290281E+000 
9394888.611 +5.6065224179E-001 +1.9117934687E+000  +4.3817897082E-003 +1.1664519340E+002  +2.9217963831E-003 +9.3110582523E+001  +6.1439846692E-001 -4.1377079654E-001 
9520033.792 +5.2789864699E-001 +7.7039005249E+000  +5.9255500043E-003 +9.0884934905E+001  +2.2226362117E-003 +9.2387100908E+001  +5.3907384173E-001 -4.9409121702E-001 
9645178.974 +5.6335361757E-001 +6.7362571430E+000  +5.9324951079E-003 +1.0369828782E+002  +3.0027098165E-003 +5.0024506980E+001  +5.7483376350E-001 -7.4401143921E+000 
9770324.155 +5.3285018158E-001 -4.1063348948E-001  +7.2738933667E-003 +8.3342743412E+001  +3.2886279276E-003 +9.4445074997E+001  +5.7451791657E-001 -5.2222308902E+000 
9895469.337 +5.3680744230E-001 +2.2733762449E+000  +4.6164727917E-003 +1.5458562353E+002  +3.0076793669E-003 +9.1933611229E+001  +5.5222849065E-001 -8.6740482247E+000 
10020614.518 +5.3808720460E-001 +2.3188334721E+000  +4.5617799218E-003 +7.3361285118E+001  +6.4973509352E-003 +1.1754445118E+002  +5.5636087491E-001 -8.2490454091E+000 
10145759.700 +5.5958912625E-001 +4.0536299193E+000  +5.0686134759E-003 +6.9453886722E+001  +6.4298595234E-003 +7.8896768578E+001  +5.7436908477E-001 -2.5254376505E+000 
10270904.881 +5.4268229942E-001 +2.3833802880E+000  +6.6748995373E-003 +7.4685733773E+001  +4.3798840130E-003 +1.2113434132E+002  +6.2273506024E-001 -2.1654272325E-001 
10396050.063 +5.3693098431E-001 -1.9073775957E+000  +2.3646512041E-003 +1.4891612680E+002  +5.6247643037E-003 +9.5630284474E+001  +6.0849588240E-001 +6.6463553424E-001 
10521195.244 +5.6864973313E-001 +3.6019775117E+000  +1.2140041969E-003 +6.4349780950E+001  +4.4718551475E-003 +1.0338253758E+002  +6.0151970774E-001 +3.7162270052E+000 
10646340.426 +5.3810425672E-001 +7.7596730166E+000  +1.4458559344E-003 +3.4874954289E+001  +5.2541595218E-003 +7.7439724163E+001  +5.7640443595E-001 -1.4257100347E+000 
10771485.607 +5.6455282101E-001 +5.2036823249E+000  +5.3984797894E-003 +8.0145715205E+001  +4.1279050862E-003 +1.1419279159E+002  +6.0902466660E-001 -2.1566144613E-001 
10896630.788 +5.6739928965E-001 +6.7104774691E+000  +3.9230259593E-003 +8.4002858844E+001  +2.9121298157E-003 +1.1641577843E+002  +6.4042388355E-001 +3.4091235715E+000 
11021775.970 +5.9444620634E-001 +6.2127046535E+000  +6.5970112547E-003 +8.5402459015E+001  +6.9367626325E-003 +1.2201489771E+002  +6.0381770623E-001 +3.4579538894E+000 
11146921.151 +6.0052834030E-001 +9.0224138032E+000  +4.0814586502E-003 +8.8461728440E+001  +1.5878966636E-003 +1.1145123761E+002  +6.0599739389E-001 +3.9188749057E+000 
11272066.333 +6.2209766866E-001 +4.8989440717E+000  +7.2417055742E-003 +9.2417099465E+001  +4.9110496305E-003 +1.1302611525E+002  +6.0667873366E-001 +2.2230251546E+000 
11397211.514 +6.3425898085E-001 +5.7915238845E+000  +4.9646786291E-003 +9.2975136699E+001  +7.2744921424E-003 +9.5977529233E+001  +6.3253436742E-001 +1.4255922072E+000 
11522356.696 +6.3646093581E-001 +5.9382979167E+000  +6.0952155679E-003 +9.5079809635E+001  +4.4179052458E-003 +9.4908738974E+001  +6.4411935726E-001 +2.4237393927E+000 
11647501.877 +6.4273416219E-001 +4.0398912782E+000  +6.1181029587E-003 +8.6746464888E+001  +4.0330101380E-003 +8.8423486680E+001  +6.5672657128E-001 +1.9068878002E+000 
11772647.059 +6.2025046083E-001 +5.4590869701E+000  +4.0099954082E-003 +1.0365198167E+002  +4.1405837155E-003 +7.3958320237E+001  +6.8885000804E-001 +9.5382143646E-001 
11897792.240 +6.5048060566E-001 +6.9367279042E+000  +4.0673126813E-003 +8.4893052760E+001  +5.3391257625E-003 +1.0748840340E+002  +6.9158881847E-001 +5.0963239956E-001 
12022937.422 +6.7706807402E-001 +2.6975427815E+000  +4.5972380291E-003 +7.7147540323E+001  +4.3934293787E-003 +9.3210171298E+001  +6.9058171571E-001 +2.1896848735E-001 
12148082.603 +6.8077509549E-001 +5.7582408079E+000  +4.3231280918E-003 +8.5704109590E+001  +4.9976475105E-003 +9.5151720798E+001  +6.8908899995E-001 +2.0642006433E+000 
12273227.785 +6.8050458856E-001 +4.3719019231E+000  +6.1198888808E-003 +7.9722098165E+001  +5.8368779759E-003 +8.4531988849E+001  +6.9998621887E-001 +9.7805226820E-001 
12398372.966 +7.1417544389E-001 +2.2000049947E+000  +4.3547283322E-003 +7.2984379947E+001  +5.6156355181E-003 +9.9976929758E+001  +6.9768938049E-001 +4.7511317544E-001 
12523518.148 +7.1798544702E-001 +1.5463698452E+000  +4.1454718809E-003 +6.5438375710E+001  +6.7932074591E-003 +9.9093510089E+001  +7.5262327230E-001 -9.3414932108E-001 
12648663.329 +7.2860868794E-001 +1.8450268005E+000  +4.7522577264E-003 +7.9474415322E+001  +7.6789599228E-003 +9.4845236277E+001  +7.3908045613E-001 -1.7575663810E+000 
12773808.511 +7.4777051755E-001 +2.0519464360E+000  +6.8545063979E-003 +6.9518849604E+001  +6.0638129294E-003 +9.9543648754E+001  +7.6646251585E-001 -1.1691733066E+000 
12898953.692 +7.6902556661E-001 +2.3119906318E-001  +6.6007791731E-003 +7.7228843240E+001  +7.5971489921E-003 +9.2766270772E+001  +7.9542616643E-001 -1.2052815917E+000 
13024098.874 +7.9541846499E-001 +9.6746584069E-001  +6.2641135233E-003 +8.9625495310E+001  +6.9504983795E-003 +8.7267937206E+001  +7.7804234693E-001 -2.0046157994E+000 
13149244.055 +7.8821196390E-001 +2.2981085304E-001  +7.8753279557E-003 +8.3048663856E+001  +6.9944417477E-003 +1.0087877914E+002  +8.1104100864E-001 -4.2764198730E+000 
13274389.237 +8.0741920029E-001 -1.1889236344E+000  +7.0435580290E-003 +8.8557927187E+001  +7.7390764606E-003 +8.6382184424E+001  +8.3367091679E-001 -2.4391386418E+000 
13399534.418 +8.4778661573E-001 -1.6127381753E+000  +8.0212649089E-003 +7.9696942506E+001  +6.3494012928E-003 +8.7432069572E+001  +8.1626453783E-001 -2.4907938406E+000 
13524679.599 +8.6587113095E-001 -5.0398491298E-001  +7.3723101187E-003 +8.6127706859E+001  +7.2196788735E-003 +9.4662320310E+001  +8.6175490819E-001 -4.0680301236E+000 
13649824.781 +8.7001529959E-001 -1.8268115247E+000  +6.9698374383E-003 +7.6493170072E+001  +8.7340427329E-003 +8.3458191460E+001  +8.5707191756E-001 -2.5001643646E+000 
13774969.962 +9.0064635613E-001 -2.5136768635E+000  +6.5326502746E-003 +9.0987517974E+001  +7.8158538283E-003 +9.2082767113E+001  +9.0697707971E-001 -4.9904779538E+000 
13900115.144 +9.2432696603E-001 -2.9248996640E+000  +6.3787967273E-003 +9.1571109460E+001  +6.5397483728E-003 +1.0102705306E+002  +8.8547495689E-001 -3.5589243070E+000 
14025260.325 +9.3523735217E-001 -3.0007351831E+000  +7.2577716698E-003 +7.0871409779E+001  +7.4209068416E-003 +1.0037224998E+002  +9.4250026738E-001 -3.0618837938E+000 
14150405.507 +9.3764680747E-001 -3.8928806419E+000  +6.8836994108E-003 +8.6553011799E+001  +5.7308117533E-003 +7.2265995971E+001  +9.4550876663E-001 -4.2237211923E+000 
14275550.688 +9.5086406528E-001 -4.2072057361E+000  +8.0294623588E-003 +8.2778720638E+001  +6.8204300609E-003 +8.3432018692E+001  +9.6375302794E-001 -4.5481947028E+000 
14400695.870 +9.5858550525E-001 -5.3584568697E+000  +6.3432423203E-003 +9.2109337843E+001  +9.4747259423E-003 +8.3894326296E+001  +1.0071378684E+000 -4.6009456019E+000 
