!  2-Port S-parameters saved by WinCal
! VAR MeasName=S-Parameters (CALIBRATED_DATA) read from VNA (P5004A)
! VAR MeasDate=27/08/2024 14:51:14
! VAR NAME=S2_r3c8_RESET1_9k-100M_3
! VAR FILENAME=S2_r3c8_RESET1_9k-100M_3.S2P
! VAR DATE=27/08/2024 14:51:14
! VAR PHYS_PORTS=1,2
! VAR ObjTypeName=DATASET
! VAR IndexType=Frequency
!
# Hz S MA R 50
9000.000 +5.4082848307E-002 -1.4706693581E+002  +1.4923409588E-002 -1.1288147453E+002  +8.8403319862E-003 -1.3823135421E+002  +2.8469690317E-001 -1.4031252681E+002 
134145.181 +1.1141164333E-001 +1.6960571159E+002  +4.8109058187E-004 -3.8225924290E+001  +5.7194649147E-004 +5.3234476605E+001  +2.3875047789E-001 -1.7022876780E+002 
259290.363 +1.1211323770E-001 +1.7032444177E+002  +5.7184729444E-004 +7.5977882991E+001  +2.6431562897E-004 -7.8912679865E+001  +2.3628075114E-001 -1.6829995350E+002 
384435.544 +1.1473539732E-001 +1.7054774857E+002  +5.8481919627E-004 -1.2519967486E+002  +1.0053495672E-003 -1.5648181740E+002  +2.4270079003E-001 -1.6824231400E+002 
509580.726 +1.1329160844E-001 +1.7127270793E+002  +7.6263838371E-004 +3.2137940586E+001  +4.5705828542E-004 +5.4359475558E+001  +2.3592113488E-001 -1.6930026886E+002 
634725.907 +1.1502241328E-001 +1.6994616962E+002  +7.3714787778E-004 -1.4114388102E+002  +4.4253210588E-004 -1.0173901617E+001  +2.3794370574E-001 -1.6493325528E+002 
759871.089 +1.1842451660E-001 +1.7079099170E+002  +5.5481486067E-004 -1.0452821341E+002  +1.3154861264E-003 -1.1343067334E+002  +2.4714667345E-001 -1.6554009651E+002 
885016.270 +1.1735327221E-001 +1.6960256712E+002  +5.7559634045E-004 -3.4392004504E+001  +3.7769276338E-004 -1.2944102629E+001  +2.4855569601E-001 -1.6341454439E+002 
1010161.452 +1.1889673595E-001 +1.7256346633E+002  +1.0743405931E-003 +5.7608160584E+001  +1.9091028993E-003 +1.3913643192E+002  +1.8906850434E-001 -1.5774234952E+002 
1135306.633 +1.1596142702E-001 +1.7057822190E+002  +2.5631289679E-003 -1.7349464543E+002  +3.9203477156E-004 -4.7738239442E+001  +1.7296836693E-001 -1.5951260829E+002 
1260451.815 +1.2083168028E-001 +1.7235465919E+002  +1.3121074341E-003 -8.7379749053E+001  +1.4955965703E-003 +1.4100350250E+002  +2.4920257131E-001 -1.5729016002E+002 
1385596.996 +1.2597248095E-001 +1.7246988900E+002  +8.1169093786E-004 -1.4634604141E+002  +9.2997486083E-005 -1.0713995204E+002  +2.5619576463E-001 -1.5846485201E+002 
1510742.178 +1.2662398006E-001 +1.7241471167E+002  +1.1687912722E-003 +7.8585102248E+001  +1.7978742209E-003 -4.6331878299E+001  +2.6166978914E-001 -1.5940730339E+002 
1635887.359 +1.2858499931E-001 +1.7039843426E+002  +5.2208919418E-004 -1.2670080970E+002  +1.7977334419E-003 +1.3827013073E+002  +2.4594873050E-001 -1.5576219521E+002 
1761032.541 +1.2880812174E-001 +1.6897650618E+002  +6.1180450119E-004 +8.8832154834E+001  +5.8175225460E-004 +1.0496429227E+002  +2.2082716039E-001 -1.6079318575E+002 
1886177.722 +1.2847433276E-001 +1.6713930861E+002  +1.8487378903E-004 +1.7697331348E+002  +1.6712926607E-003 +8.3019282415E+001  +1.9442451813E-001 -1.6844414472E+002 
2011322.904 +1.2768642563E-001 +1.6527602981E+002  +1.3966238150E-003 -1.3761191298E+002  +2.0868496475E-003 +1.4961600622E+002  +1.9015898449E-001 -1.6471826567E+002 
2136468.085 +1.3431817390E-001 +1.6477251185E+002  +3.0592957889E-003 -1.6832423902E+002  +3.6104640634E-003 -1.4510559505E+002  +1.9252394389E-001 -1.6806935198E+002 
2261613.267 +1.3662826733E-001 +1.6366626270E+002  +2.0764302899E-003 +1.1976742003E+002  +2.6703848992E-003 -8.6916620005E+001  +2.0894064801E-001 +1.7229719367E+002 
2386758.448 +1.3473325725E-001 +1.6468895122E+002  +2.1030878317E-003 -1.5736784519E+002  +4.3069093273E-003 -3.2965391037E+001  +1.7852595911E-001 -1.7302928889E+002 
2511903.630 +1.3285493548E-001 +1.5958797220E+002  +2.8921564175E-003 -1.0043631467E+002  +1.0222472040E-002 +1.4422345480E-001  +3.1683407116E-001 +1.4778591384E+002 
2637048.811 +1.2712825655E-001 +1.5712207629E+002  +5.5098678630E-003 +1.2168691022E+002  +1.9360183852E-002 -1.3508050486E+002  +6.8777020992E-001 +1.1952420883E+002 
2762193.992 +9.0860796960E-002 +1.6673192560E+002  +2.9857955416E-002 +2.9248480605E+000  +1.5688329166E-002 -2.1333890861E+001  +1.0505936780E+000 -1.4514348489E+002 
2887339.174 +9.7050684707E-002 +1.7445035481E+002  +6.9995386105E-003 -7.6611548120E+001  +2.2242576254E-003 -5.7535654506E+001  +3.3859272382E-001 -1.1906212440E+002 
3012484.355 +1.2268818440E-001 +1.7747235398E+002  +1.1917945283E-002 +1.7569653594E+002  +5.9792001019E-003 +1.1280955542E+002  +5.2182407004E-001 -1.1524878534E+002 
3137629.537 +1.1869692480E-001 -1.7755564944E+002  +2.1653315406E-002 +1.1445700957E+002  +1.4238750167E-002 +1.5524231817E+002  +4.7801495361E-001 -5.4332100461E+001 
3262774.718 +1.1430931898E-001 +1.7565193252E+002  +2.8176793309E-003 +4.7640881213E+001  +1.2131942978E-002 +1.1799083286E+002  +4.8971056122E-001 -4.0480046023E+001 
3387919.900 +1.2314318961E-001 +1.5697470636E+002  +2.1411829384E-002 -2.0280561157E+001  +1.1650311953E-002 -7.6547016667E+001  +4.6734925033E-001 -5.0612199912E+000 
3513065.081 +1.2863528851E-001 +1.5490478334E+002  +6.8073370440E-003 -1.4382694939E+002  +1.5224210959E-002 -8.6461705863E+000  +3.4022252047E-001 +9.6906114904E+001 
3638210.263 +1.5834352749E-001 +1.3992132303E+002  +3.4067534312E-003 -7.0532779783E+001  +4.2181925022E-003 -1.7041406102E+002  +4.4206925851E-001 +9.8115445855E+001 
3763355.444 +1.6976572722E-001 +1.4801954872E+002  +1.0614914456E-002 +1.7731361243E+002  +1.7252800447E-002 -6.5328589371E+000  +7.5368599496E-001 +8.8107552113E+001 
3888500.626 +1.8974234872E-001 +1.5111459963E+002  +2.2402071339E-002 -1.0173721879E+002  +1.5828865417E-002 -7.2620786133E+001  +1.3310874107E+000 +5.7678671744E+001 
4013645.807 +1.9236263788E-001 +1.4554408492E+002  +7.8969570200E-003 +1.7297036177E+002  +3.4701604414E-003 -1.6249143069E+001  +3.6782355247E-001 +1.3743821870E+002 
4138790.989 +1.5859021355E-001 +1.5292595249E+002  +9.4739856213E-003 +1.6569050379E+002  +1.9159952439E-002 -1.6325629625E+002  +6.7793692413E-001 +9.2565522064E+001 
4263936.170 +2.4111339556E-001 +1.3312316220E+002  +3.6251210823E-002 -1.5574928294E+002  +5.8544909490E-003 -1.5654869232E+002  +7.0734612988E-001 +1.2012175394E+002 
4389081.352 +2.0424081710E-001 +1.4726440451E+002  +1.5732742094E-002 -1.6223330803E+002  +1.6934345784E-002 +1.4556785448E+002  +8.7546129549E-001 +7.5277074756E+001 
4514226.533 +1.7155540305E-001 +1.3799304416E+002  +4.3404449582E-003 +1.6060347932E+002  +6.9252409282E-003 +8.8044189234E+001  +6.9998784372E-001 +1.4163978265E+002 
4639371.715 +2.9565242570E-001 +1.3137753061E+002  +3.5854566638E-002 -1.5008693811E+002  +7.0366598342E-003 +1.4301606515E+002  +2.4545247221E+000 -3.4695656167E+001 
4764516.896 +3.8647753807E-001 +1.3877198126E+002  +3.6862868816E-002 +1.5653920694E+001  +2.8230353401E-002 -1.4505268336E+002  +1.8218788203E+000 +1.1285196961E+002 
4889662.078 +4.5956449504E-001 +1.2747374806E+002  +2.7251377705E-002 +1.3284937457E+002  +7.3469341926E-002 -1.0973220286E+002  +3.3021235356E+000 -9.5956730254E+001 
5014807.259 +4.6533300437E-001 +1.2984808492E+002  +4.1414310190E-002 -1.0516846154E+002  +8.4103647186E-002 -2.3316597343E+001  +8.0480849957E+000 +1.3132169699E+002 
5139952.441 +4.5233648252E-001 +1.2406395184E+002  +7.6649249278E-002 +2.1904314562E+001  +2.1953980226E-002 -3.8918517710E+001  +3.4276513949E+000 +1.6743965873E+002 
5265097.622 +4.0695802862E-001 +1.2865420818E+002  +3.6108639807E-002 -1.2351469293E+002  +1.9356981817E-002 +1.0132431628E+002  +4.2231285572E+000 +1.3731242338E+002 
5390242.804 +5.0484904288E-001 +1.2432536469E+002  +7.3063441143E-002 -1.2786812391E+002  +4.1865190020E-002 -1.5896873124E+002  +3.6259300891E+000 +1.1847909400E+002 
5515387.985 +3.8167908748E-001 +1.2827806959E+002  +2.5351427192E-002 -1.1763437269E+002  +4.2350506927E-002 +1.0252706852E+002  +3.6092848366E+000 +5.9372786008E+001 
5640533.166 +4.8919544352E-001 +1.3545012014E+002  +5.3211217878E-003 +1.5603929262E+002  +3.8874013625E-002 +1.2729042993E+002  +3.1789961546E+000 +1.0778814787E+002 
5765678.348 +4.6940582603E-001 +1.2399462773E+002  +1.5497929446E-002 -5.2570945769E+001  +6.3499697470E-003 -5.2385664135E+000  +2.3168096849E+000 +6.4750937662E+001 
5890823.529 +5.1145145037E-001 +1.2103696712E+002  +1.1251807726E-002 +2.5420605055E+001  +2.1635571320E-002 -6.7359056762E+000  +1.5997557782E+000 +5.2493309987E+001 
6015968.711 +5.6079186463E-001 +1.1488808514E+002  +2.6965386662E-002 +1.4825807030E+002  +2.4395833127E-002 +1.3179848508E+002  +1.9582310814E+000 +3.6435685632E+001 
6141113.892 +6.8080164208E-001 +1.1340054487E+002  +2.8011770519E-002 -1.5146936154E+002  +8.0361882505E-003 +5.2748549157E+001  +1.8001665087E+000 +4.9797274253E+001 
6266259.074 +8.6549646498E-001 +1.0691131053E+002  +2.4118148011E-002 +1.2285005177E+002  +2.3405670902E-002 -1.7530329113E+002  +2.1214199219E+000 +2.7939559335E+001 
6391404.255 +9.2815343757E-001 +1.0489600286E+002  +2.0713523468E-002 -1.3310671828E+002  +5.5248299268E-003 +2.6418229679E+001  +1.6900647012E+000 +5.0368399028E+000 
6516549.437 +1.2813233661E+000 +8.4944220503E+001  +1.2038391367E-002 +1.0789708015E+002  +4.5321386408E-002 +1.7706374587E+002  +1.5314757164E+000 +1.9801417597E+001 
6641694.618 +2.0255304501E+000 +6.2030865846E+001  +3.4565766252E-002 +1.4200476510E+002  +3.1211878869E-002 +1.4273457292E+002  +1.3002194050E+000 -2.2116704360E+000 
6766839.800 +2.4073399039E+000 +4.9765851915E+001  +1.1441318132E-002 +1.6828513883E+002  +2.5604044975E-002 -1.6736082902E+002  +1.2956927078E+000 -6.7184816046E+000 
6891984.981 +2.5336473069E+000 +3.7141313277E+001  +7.0668933260E-003 +6.3776878549E+001  +3.6518476780E-002 +1.1163092548E+002  +1.2185023166E+000 -5.2390345130E+000 
7017130.163 +1.8813832661E+000 +2.0938011946E+001  +1.2380422560E-002 +8.3721513486E+001  +8.1532195366E-003 +1.1642575231E+002  +1.5412810681E+000 -6.4366637488E+000 
7142275.344 +1.5043728216E+000 +8.8434847985E+000  +1.6707009879E-003 -9.6297692898E+001  +1.4282348233E-002 -2.3258155427E+001  +1.4012651313E+000 -5.4657568198E+000 
7267420.526 +1.8024684018E+000 +4.0203089538E+000  +1.3608944679E-002 +1.3899059059E+002  +1.5842361012E-002 +5.9267082697E+001  +1.1741289789E+000 -8.8220820330E+000 
7392565.707 +1.5158022925E+000 -6.3843123061E+000  +4.2170940693E-003 +7.6967604306E+001  +8.5627834437E-003 +5.2876006953E+001  +1.2831312424E+000 -5.5551034748E+000 
7517710.889 +1.1297596932E+000 -5.8321038455E+000  +8.8694749946E-003 +6.9807564016E+001  +3.5838562157E-003 +1.2485496606E+002  +1.2235881833E+000 -6.0650800897E+000 
7642856.070 +1.0043322434E+000 +5.5946016751E+000  +1.7925343870E-003 +6.6917748307E+001  +3.1643172204E-003 -6.8535557443E+001  +1.1289508359E+000 -3.3393338779E+000 
7768001.252 +1.0672897068E+000 +3.6044943092E+000  +7.8467949986E-003 +2.4750796453E+001  +5.2748994524E-003 +7.7066869174E+001  +9.4363196719E-001 -5.3185321679E+000 
7893146.433 +9.4488255636E-001 -1.9598770012E-001  +5.9510670999E-003 +1.0468945015E+002  +6.4413351820E-003 +1.5217078066E+002  +9.9117279060E-001 -1.0550104577E+000 
8018291.615 +8.3926186052E-001 +5.1242412279E+000  +2.2150436607E-003 -7.3534344922E+001  +1.0874458600E-003 -9.2545313906E+001  +8.9198286698E-001 +1.5806314232E+000 
8143436.796 +7.7677487597E-001 +1.0109057939E+001  +2.4289923463E-003 +1.4223389888E+002  +3.9885049635E-003 -8.0827861087E+001  +7.7605310194E-001 +2.5854396683E+000 
8268581.977 +7.4751158773E-001 +2.5258375906E+000  +4.5825361843E-003 +1.4285032665E+002  +2.5084646247E-003 +1.6005643411E+002  +7.0893654311E-001 +2.5251764161E-001 
8393727.159 +7.0155550131E-001 +1.0015355583E+001  +5.5354355470E-003 +1.3818595838E+002  +3.0869549622E-003 -9.4451126204E+001  +7.0179283037E-001 -2.2417390671E+000 
8518872.340 +6.2926130763E-001 -5.7188238317E-001  +6.4460988626E-003 +1.8485160927E+001  +4.8973983157E-003 +6.9865960419E+001  +7.2940445102E-001 +3.2701130943E+000 
8644017.522 +7.1980168718E-001 +1.1484371776E+001  +6.0319707194E-003 +8.9774319377E+001  +5.3490505160E-003 +1.1487589582E+002  +6.7078008225E-001 -1.0487866988E+000 
8769162.703 +6.4717570828E-001 +5.6348081208E+000  +3.2620238107E-003 +7.0989008547E+001  +3.7402763551E-003 +1.1543057010E+002  +7.0637861698E-001 -2.1355055975E+000 
8894307.885 +5.9982444950E-001 +4.4197011952E+000  +1.8096889320E-003 +7.1920260121E+001  +4.4948367983E-003 -3.5266261082E+001  +6.5238683631E-001 -1.7160581982E+000 
9019453.066 +6.1143638887E-001 +7.3368284986E+000  +5.0630072332E-003 +2.7893972992E+001  +4.9784212166E-003 +9.9056359876E+001  +6.5097556457E-001 -1.2894444159E-001 
9144598.248 +5.6124838229E-001 +5.3935935240E+000  +2.1397214847E-003 +1.6269430355E+001  +4.0090356459E-003 +1.1039211170E+002  +6.4074774610E-001 -8.4942528896E-001 
9269743.429 +5.5736985954E-001 +8.1382906698E+000  +6.1854305193E-003 +1.2663992733E+002  +8.6322652909E-004 +1.4515307836E+002  +6.0518177544E-001 -7.1851948932E-001 
9394888.611 +5.9796867957E-001 +2.5817051656E+000  +8.4731377338E-003 +7.5515733709E+001  +5.9345139721E-003 +1.2302118859E+002  +6.3625751103E-001 -6.2868839799E+000 
9520033.792 +5.0926264904E-001 -1.4120222991E+000  +5.6227556378E-003 +1.3472570494E+002  +2.5719689387E-003 +5.8085684039E+001  +5.9262464044E-001 -4.6525355861E+000 
9645178.974 +5.3253374368E-001 +3.3668042922E+000  +2.4478618703E-003 +6.2957449847E+001  +6.0724298605E-003 +1.2254869464E+002  +5.7377551969E-001 -6.6457086801E+000 
9770324.155 +5.1945288508E-001 +1.3857206088E-002  +5.3359807839E-003 +6.6788593727E+001  +3.2197533203E-003 +1.5788306752E+002  +5.7850149340E-001 -7.5484805904E+000 
9895469.337 +5.3900950238E-001 -8.1988491457E-001  +4.9787508959E-003 +7.7164941729E+001  +3.8446867590E-003 +1.2111219972E+002  +6.0217420867E-001 -3.8114860677E+000 
10020614.518 +5.2195397423E-001 +3.5917333132E+000  +3.5904046788E-003 +1.3932277404E+002  +4.3820981773E-003 +1.2310149093E+002  +5.6620585925E-001 -2.7284704240E+000 
10145759.700 +5.1418633438E-001 +2.5688763891E+000  +2.2251713638E-003 +1.1671497354E+002  +6.3799824441E-003 +8.5763450739E+001  +5.6876907754E-001 +3.1767132656E-001 
10270904.881 +5.9213764277E-001 +3.3210773246E+000  +5.3941199397E-003 +5.5246000226E+001  +5.5433687095E-003 +1.0772248198E+002  +5.7110973547E-001 -5.1276625013E+000 
10396050.063 +5.6036320750E-001 +7.0529316975E+000  +5.4455483743E-003 +7.0108264708E+001  +4.6153204321E-003 +6.8167350513E+001  +5.9178417703E-001 -2.3216863527E+000 
10521195.244 +5.8501704799E-001 +6.7751626356E+000  +6.4507811623E-003 +9.4542031766E+001  +4.7939402291E-003 +6.4595187203E+001  +5.8729728836E-001 -1.9458064747E+000 
10646340.426 +5.2732704024E-001 +3.8437294300E+000  +3.8437919132E-003 +8.1301455004E+001  +4.1559854534E-003 +1.0870717186E+002  +6.1663478739E-001 -2.1892377859E+000 
10771485.607 +5.6793920353E-001 +4.8482009582E+000  +6.2894951966E-003 +1.0252449550E+002  +4.2270186484E-003 +1.0709219705E+002  +5.9082041205E-001 -1.0823801709E+000 
10896630.788 +6.3163793267E-001 +6.1414041710E+000  +2.7494360260E-003 +8.7446238270E+001  +6.5137029806E-003 +1.2294765055E+002  +6.1488316206E-001 -8.9466679105E-001 
11021775.970 +5.6547219285E-001 +4.9095194100E+000  +4.7315792432E-003 +8.8903970456E+001  +5.1260702221E-003 +1.3547292928E+002  +6.1423382304E-001 -6.4230444120E-001 
11146921.151 +6.2224425975E-001 +6.6346321888E+000  +4.0539001359E-003 +8.3054517463E+001  +3.3875830048E-003 +9.8573401370E+001  +6.4253629372E-001 +2.6894012686E-002 
11272066.333 +5.9752983664E-001 +5.9775817852E+000  +5.4851455529E-003 +8.8567303041E+001  +5.6678837381E-003 +1.1411176154E+002  +6.2897776709E-001 +1.2740726069E+000 
11397211.514 +5.9746320858E-001 +5.8510616672E+000  +5.7885353619E-003 +9.6718181664E+001  +4.6010142335E-003 +1.2776244083E+002  +6.4827444790E-001 -8.3661601170E-001 
11522356.696 +6.0625544413E-001 +4.7499528367E+000  +3.6790598339E-003 +4.2071051000E+001  +2.9767932458E-003 +1.2723080094E+002  +6.3606955891E-001 +1.1187895721E+000 
11647501.877 +6.4566874060E-001 +5.9703876920E+000  +6.9366846252E-003 +7.9556314158E+001  +3.8763012268E-003 +7.0202526496E+001  +6.3079883078E-001 -1.0705323818E+000 
11772647.059 +6.4118388180E-001 +3.3936010344E+000  +6.2854179496E-003 +8.5209878269E+001  +5.5304103671E-003 +9.2074504664E+001  +6.4566858744E-001 +5.6975677071E-002 
11897792.240 +6.5825098562E-001 +6.3716503856E+000  +7.3144229507E-003 +1.0075245367E+002  +4.6919108080E-003 +8.2550976149E+001  +6.7440881002E-001 +2.9431641808E-001 
12022937.422 +6.6795604305E-001 +4.9001546412E+000  +6.5334479730E-003 +8.9138581273E+001  +4.9863953091E-003 +9.8450481642E+001  +7.2153987298E-001 +1.2788739737E-002 
12148082.603 +6.9987988749E-001 +4.0966290397E+000  +5.3815193444E-003 +9.2422575909E+001  +5.1281655942E-003 +1.0764828408E+002  +6.7979698190E-001 +1.6857088570E+000 
12273227.785 +6.9659222558E-001 +5.1299498427E+000  +5.6431049370E-003 +8.3425528416E+001  +5.8472019911E-003 +1.0044397529E+002  +7.0181456136E-001 +1.5741356465E+000 
12398372.966 +6.9169648713E-001 +1.2467722376E+000  +5.6964877556E-003 +8.1894631036E+001  +5.5538027553E-003 +9.1644721358E+001  +7.2534202421E-001 +8.4704341912E-001 
12523518.148 +7.3654488832E-001 +3.1909283239E+000  +5.9196780199E-003 +9.8996566936E+001  +6.9936099810E-003 +1.1919271555E+002  +7.2490779787E-001 -9.7523242801E-001 
12648663.329 +7.6577275713E-001 +2.4353613256E+000  +6.1222379498E-003 +9.4486806810E+001  +3.5207705584E-003 +1.0840583524E+002  +7.4732005491E-001 -1.0818520335E+000 
12773808.511 +7.8641405053E-001 +3.1054922594E+000  +6.7429002987E-003 +7.9419518601E+001  +6.0740501130E-003 +9.9627975826E+001  +7.7114541891E-001 -2.3416241478E+000 
12898953.692 +7.9351442818E-001 +1.0904402959E+000  +8.7149327346E-003 +9.6022330502E+001  +6.9769089323E-003 +1.0062727397E+002  +7.8090100941E-001 -1.3830763712E+000 
13024098.874 +7.9125124962E-001 +7.1827627222E-001  +6.1965985599E-003 +8.1544886023E+001  +6.8375657854E-003 +8.6171875596E+001  +7.9842474096E-001 -9.0320441228E-001 
13149244.055 +7.9511872007E-001 +3.0135244582E-001  +7.3200511545E-003 +8.8149597797E+001  +7.9086884869E-003 +9.7671037458E+001  +8.1849199059E-001 -1.3395688267E+000 
13274389.237 +8.1180178656E-001 -2.9286560484E-001  +7.3929236190E-003 +8.1048450684E+001  +6.2111039211E-003 +7.9784819599E+001  +8.4594653638E-001 -3.7855014936E-001 
13399534.418 +8.2210098302E-001 +3.3071851933E-001  +6.2916731040E-003 +8.5615278688E+001  +5.3704251408E-003 +7.5069699208E+001  +8.3644110552E-001 -1.6213215808E+000 
13524679.599 +8.6866398388E-001 -1.7076418826E+000  +6.7425228179E-003 +9.8616866359E+001  +6.5721939913E-003 +8.1165906575E+001  +8.6624380501E-001 -3.2408995817E+000 
13649824.781 +8.8057101389E-001 -1.2606928382E+000  +8.5702265882E-003 +9.5924356359E+001  +6.8792928154E-003 +9.7475813902E+001  +8.7095469392E-001 -1.5773639224E+000 
13774969.962 +8.7958273317E-001 -3.5097056936E+000  +7.0764476382E-003 +8.7921252895E+001  +6.6638503971E-003 +1.0377010108E+002  +8.7689563219E-001 -2.6821176063E+000 
13900115.144 +8.9249045602E-001 -3.2637956992E+000  +7.1731317533E-003 +9.2565299425E+001  +6.3347575727E-003 +8.5056237479E+001  +9.3783530070E-001 -1.2255709795E+000 
14025260.325 +9.3844266081E-001 -3.4128171384E+000  +7.4643216341E-003 +9.5817938026E+001  +7.8031987664E-003 +8.4502043194E+001  +9.5141708443E-001 -3.7980866964E+000 
14150405.507 +9.3208967627E-001 -4.4808830186E+000  +7.2157226440E-003 +9.1656970810E+001  +8.7237503824E-003 +9.1874328516E+001  +9.4212130205E-001 -3.8776529796E+000 
14275550.688 +9.4366554761E-001 -3.6174633054E+000  +7.2826250921E-003 +9.6057571693E+001  +8.1628577218E-003 +9.9280024257E+001  +9.7598109878E-001 -3.0506776210E+000 
14400695.870 +9.7197672079E-001 -6.4937346812E+000  +6.7497349595E-003 +8.7939797666E+001  +6.6120577162E-003 +9.4695522404E+001  +9.8595509004E-001 -4.2521599355E+000 
