!  2-Port S-parameters saved by WinCal
! VAR MeasName=S-Parameters (CALIBRATED_DATA) read from VNA (P5004A)
! VAR MeasDate=27/08/2024 17:20:58
! VAR NAME=S2_r3c9_SET3_9k-100M_2
! VAR FILENAME=S2_r3c9_SET3_9k-100M_2.S2P
! VAR DATE=27/08/2024 17:20:58
! VAR PHYS_PORTS=1,2
! VAR ObjTypeName=DATASET
! VAR IndexType=Frequency
!
# Hz S MA R 50
9000.000 +1.0161161735E-001 -1.1585194860E+002  +2.7394611822E-002 -1.0674737100E+002  +1.4707025480E-002 -1.1081356530E+001  +1.6100449162E-001 -1.3921039879E+002 
134145.181 +1.1060103357E-001 +1.7000461728E+002  +6.1853109325E-004 +1.5290516775E+002  +6.4063967112E-004 +1.0800381678E+002  +2.3766490597E-001 -1.7043857590E+002 
259290.363 +1.1096573110E-001 +1.6972315434E+002  +1.9251546420E-004 +7.7527392369E+001  +1.1969963793E-003 +6.7633132184E+001  +2.3002353714E-001 -1.6909133138E+002 
384435.544 +1.1392873397E-001 +1.6978311137E+002  +5.3597336441E-004 +1.4726254416E+002  +1.2543814643E-003 +6.2796067111E+001  +2.3750702221E-001 -1.6884654892E+002 
509580.726 +1.1475421253E-001 +1.7071030047E+002  +9.4199905948E-004 -1.6601993351E+002  +1.0174625966E-003 +3.8676693558E+001  +2.3883692768E-001 -1.6617713500E+002 
634725.907 +1.1657714404E-001 +1.7075790358E+002  +5.9102346982E-004 +7.6182697366E+001  +1.3182139946E-003 -9.8611507788E+001  +2.4188365741E-001 -1.6519725215E+002 
759871.089 +1.1846822306E-001 +1.7037770063E+002  +8.2580551819E-004 +1.6894747737E+002  +1.2342071142E-003 -1.7345268169E+002  +2.5293464506E-001 -1.6543795703E+002 
885016.270 +1.1893616793E-001 +1.6922296062E+002  +8.9287955862E-004 +1.7962817143E+002  +7.1567468269E-004 -1.4660622847E+002  +2.3974612753E-001 -1.6480715293E+002 
1010161.452 +1.1710939089E-001 +1.7113116322E+002  +1.8364483822E-003 +1.6058340218E+002  +1.3484793933E-003 +1.0111463964E+002  +1.9265735325E-001 -1.6652840228E+002 
1135306.633 +1.1223417743E-001 +1.6949907539E+002  +2.9462449245E-003 +1.3903452667E+001  +5.4506190040E-003 -1.7893944562E+002  +1.2776113094E-001 -1.6768315637E+002 
1260451.815 +1.2204792797E-001 +1.7005312501E+002  +1.6596917435E-003 -1.3331611705E+002  +1.0075397176E-003 -1.6513489212E+002  +2.2452021052E-001 -1.5570509955E+002 
1385596.996 +1.2612546569E-001 +1.7228328047E+002  +9.3214661748E-004 +1.6945561607E+002  +4.5619986725E-004 -1.5424996541E+002  +2.6761023869E-001 -1.5974142816E+002 
1510742.178 +1.2915753915E-001 +1.7230021858E+002  +1.1379292826E-003 -5.7897166066E+001  +7.0215561324E-004 +5.3225390638E+001  +2.2911550661E-001 -1.5535042167E+002 
1635887.359 +1.2994546669E-001 +1.7106009450E+002  +7.4600150203E-004 +4.3092984070E+001  +5.2342032679E-004 +2.9113067498E+001  +2.4624665836E-001 -1.5892871621E+002 
1761032.541 +1.2654759910E-001 +1.6960364836E+002  +1.1497349305E-003 +1.9858841616E+001  +2.1985504095E-003 +1.2152277085E+001  +2.3265544426E-001 -1.6162891991E+002 
1886177.722 +1.2693045976E-001 +1.6820769859E+002  +2.5339816117E-003 -6.6609287934E+001  +1.9462714997E-003 +7.6974402846E+001  +1.7803873922E-001 -1.7194681467E+002 
2011322.904 +1.3309254895E-001 +1.6628291047E+002  +1.1068851479E-003 -4.4798092515E+001  +2.0973598146E-003 +2.1067449519E+000  +1.7927847932E-001 -1.4862316884E+002 
2136468.085 +1.2965928054E-001 +1.6624218566E+002  +2.2715985313E-003 +1.3381021775E+002  +1.1929862569E-003 -9.1372469777E+001  +1.7763116061E-001 -1.6511555563E+002 
2261613.267 +1.2910329449E-001 +1.6419715720E+002  +5.7115009375E-003 +1.4474849882E+002  +1.5682748031E-003 +1.4577523403E+002  +2.0810988398E-001 +1.6167573674E+002 
2386758.448 +1.3760263995E-001 +1.6620966688E+002  +3.8972085760E-003 +1.0221172108E+002  +2.8967421776E-003 +2.6514053112E+001  +2.8104877947E-001 +1.5835256559E+002 
2511903.630 +1.3700885648E-001 +1.6341284652E+002  +3.1252511757E-003 +1.0854240706E+001  +4.1392706036E-003 +1.3006904698E+001  +1.6636221358E-001 -1.7575525311E+002 
2637048.811 +1.3540041300E-001 +1.5812939846E+002  +1.2604977046E-002 +1.1249859793E+002  +5.2610556980E-003 -5.2483752649E+001  +2.0770621204E-001 +1.1815718488E+002 
2762193.992 +1.2016389232E-001 +1.5923018338E+002  +4.6990652984E-002 +1.6322983278E+002  +5.7248331405E-002 +1.9350845568E+001  +1.3830235684E+000 +1.2644770248E+002 
2887339.174 +1.3510233144E-001 +1.7666918963E+002  +2.4556434009E-002 +1.1260524274E+002  +5.9481108289E-003 -5.7645659808E+001  +7.2040257226E-001 +9.5221399297E+001 
3012484.355 +1.2518048632E-001 +1.7499656147E+002  +3.8186230059E-003 +1.3620295214E+002  +6.9740812439E-003 +1.6031750914E+002  +3.3272095497E-001 -1.1194195043E+002 
3137629.537 +1.1880663008E-001 +1.7649485158E+002  +3.1371386236E-002 -1.1986224335E+002  +8.6039420936E-003 +1.4098442742E+002  +1.1124188248E+000 -1.2551558604E+002 
3262774.718 +1.2279854824E-001 +1.7769962115E+002  +1.0525484178E-002 -2.9865105912E+000  +9.7662858127E-003 -1.3779876091E+002  +3.1257694695E-002 +7.0345192735E+001 
3387919.900 +1.2227211849E-001 +1.5731682542E+002  +8.8865829416E-003 -5.7855009131E+001  +1.3391359857E-002 -5.1564602583E+001  +2.3459658894E-001 +7.6550319780E+001 
3513065.081 +1.4325630511E-001 +1.6261467346E+002  +1.5050502778E-002 -9.2193123556E+000  +6.4145106343E-003 +4.0052124498E+001  +2.8305100853E-001 +4.3594752177E+001 
3638210.263 +1.6537380768E-001 +1.5667059339E+002  +3.0945144819E-003 +2.2045731607E+001  +2.0135850158E-002 +3.4941735075E+001  +7.1046949871E-001 +1.2209053137E+002 
3763355.444 +1.7972014071E-001 +1.4261242727E+002  +8.3457317110E-003 +7.8297589909E+001  +5.7691718425E-003 +7.7311812573E+001  +6.5586060009E-001 +1.1327009242E+002 
3888500.626 +1.5763952565E-001 +1.5844703619E+002  +2.0237760530E-002 +2.1635125150E+001  +3.4415209963E-002 -3.9219450333E+000  +4.2206698262E-001 +1.6129948477E+001 
4013645.807 +1.5284578853E-001 +1.5051622792E+002  +7.7908488336E-003 +6.5190129041E+001  +1.1694804258E-002 +2.9241727796E+001  +8.2471052270E-002 +6.2803481746E+001 
4138790.989 +1.8249234947E-001 +1.5240706868E+002  +6.5560138764E-003 +1.1201204462E+002  +9.3156750070E-003 -1.5457414899E+000  +6.8675768518E-001 +1.2288878361E+002 
4263936.170 +2.0230879693E-001 +1.4700643141E+002  +1.0367988950E-002 +1.0441528676E+002  +1.1300117052E-002 +1.1740221037E+001  +2.0677731980E-001 +9.2493706045E+001 
4389081.352 +1.8034336733E-001 +1.4131962929E+002  +1.9480522788E-002 +8.9893594734E+001  +2.1041695256E-002 +1.6846044112E+001  +2.7722699990E-001 +1.2226176253E+002 
4514226.533 +2.2224539064E-001 +1.3345358398E+002  +3.1383998068E-002 +1.2611912986E+002  +7.0461704888E-003 +7.6020007294E+001  +8.4413047390E-001 +1.1078141185E+002 
4639371.715 +2.6657087775E-001 +1.3902368992E+002  +3.7928959626E-002 +1.0137557417E+002  +4.3481660670E-002 +3.6791920120E+001  +1.6155538364E+000 +9.2126491794E+001 
4764516.896 +4.0968354475E-001 +1.2061811701E+002  +1.0029823599E-001 +1.4477955024E+002  +9.1029872116E-002 +1.4889848068E+002  +2.2342732116E+000 +1.1788464466E+002 
4889662.078 +3.8462479044E-001 +1.3409589176E+002  +1.4734820317E-002 -1.5895598503E+001  +2.1144251499E-002 -1.1869750439E+002  +1.7920558262E+000 -1.1980253247E+002 
5014807.259 +3.7866916251E-001 +1.3805823543E+002  +5.9940466063E-002 +7.7977002241E+001  +4.8759831801E-002 -2.2487379144E+001  +3.7835631728E+000 -3.5533779556E+001 
5139952.441 +4.5343048746E-001 +1.3284403507E+002  +7.3129919817E-002 +1.2197022183E+002  +8.4745115623E-002 +4.7804721600E+001  +2.2662887271E+000 +4.9237342670E+001 
5265097.622 +4.3049066841E-001 +1.2130402036E+002  +2.1029585829E-001 +1.2250712528E+002  +1.2750450099E-001 -1.7635047937E+002  +9.4402045370E+000 +1.2206222385E+002 
5390242.804 +4.5604425226E-001 +1.2701137682E+002  +2.8983676405E-001 +1.3683901426E+002  +1.9032377176E-001 +8.5542623548E+001  +1.7725785883E+001 +1.0943965018E+002 
5515387.985 +4.0765286310E-001 +1.0398882051E+002  +9.8984077587E-003 +1.0079105996E+002  +7.6540747535E-002 +7.9326668026E+001  +1.9763184925E+000 +9.5892580064E+001 
5640533.166 +5.3298592827E-001 +1.2998829349E+002  +3.1717824399E-002 +6.3082789952E+001  +3.4015683079E-002 +5.4368648981E+001  +1.7048029001E+000 +4.4900315871E+001 
5765678.348 +4.9333369894E-001 +1.1630037389E+002  +5.9213786622E-002 +1.0693275756E+002  +3.7621376995E-002 +4.2554838857E+001  +1.3159102720E+000 +8.8218515895E+001 
5890823.529 +4.9261851601E-001 +1.1382266101E+002  +4.4122888717E-002 +3.8856646575E+001  +6.8983150377E-002 +3.0870078304E+001  +1.9039634773E+000 +5.5319164899E+001 
6015968.711 +5.8355703007E-001 +1.1304719502E+002  +6.9049990933E-002 +6.5648714352E+001  +5.3184563984E-002 +2.8197493314E+001  +2.6624478818E+000 +3.8603245189E+001 
6141113.892 +8.1858713987E-001 +9.9900206366E+001  +8.6263105737E-002 +5.0690223702E+001  +9.3379101855E-002 +3.8108264847E+001  +1.7080667442E+000 +2.9166355464E+001 
6266259.074 +9.3643215291E-001 +1.0109063256E+002  +8.0381637711E-002 +8.5991846885E+001  +6.5874732822E-002 +3.8631519792E-001  +1.8169992540E+000 +1.3905152272E+001 
6391404.255 +8.8085227044E-001 +9.1567878421E+001  +4.6686265945E-002 +5.8400767008E+001  +4.7763656364E-002 +4.7221871437E+001  +1.2142719273E+000 +3.7758355364E+001 
6516549.437 +1.1698123243E+000 +7.9820859272E+001  +5.7926523409E-002 +5.9184200756E+001  +5.1655863693E-002 +1.6196223401E+001  +1.3744088473E+000 -2.4302879603E+000 
6641694.618 +1.2975229386E+000 +6.9426258334E+001  +5.1946634033E-002 +2.1077310884E+001  +7.8339134924E-002 +3.2284528065E+001  +1.3375209786E+000 -7.8632790464E+000 
6766839.800 +2.6384861321E+000 +4.7628090721E+001  +8.1264021370E-002 +3.4356038365E+001  +1.0553303407E-001 -7.7968023180E+000  +1.3716956235E+000 +8.8862281718E-001 
6891984.981 +1.6252704875E+000 +3.9672475630E+001  +3.5459746811E-002 +2.6354405284E+001  +6.7340621372E-002 +1.2477905382E+001  +1.3308934346E+000 -1.0157794676E+001 
7017130.163 +1.9646346491E+000 +1.7632054991E+001  +3.8801446034E-002 +1.8256284990E+001  +5.5860270583E-002 -2.9921227489E+000  +1.2253224061E+000 -1.9965842734E+001 
7142275.344 +1.7647129182E+000 +1.6135612744E+000  +3.9546091794E-002 -3.0007124874E+000  +4.5044851418E-002 +1.3135037422E+001  +1.2742386710E+000 -1.1293790666E+001 
7267420.526 +1.7208386295E+000 +3.1682450437E-001  +3.4688005220E-002 +1.0789269913E+001  +3.5553035240E-002 +2.6340231462E+001  +1.2432651224E+000 -1.0181884434E+001 
7392565.707 +1.4926668651E+000 -4.6428362225E+000  +2.7431118480E-002 +2.0946343238E+001  +3.1193989580E-002 -3.7421825407E+000  +1.3712385672E+000 -1.2319439537E+001 
7517710.889 +1.1606777744E+000 +1.9151868364E+000  +3.1377223306E-002 +7.6627057211E-001  +3.1658328905E-002 +4.1265226721E+000  +1.2686562724E+000 -7.4458192261E+000 
7642856.070 +1.0196075227E+000 -5.9798210355E-001  +2.5743500417E-002 +3.0938795761E+001  +2.5301604567E-002 +1.4719362861E+001  +9.8394690346E-001 -3.0621104943E+000 
7768001.252 +9.2540289673E-001 +3.2613632493E+000  +2.2373626241E-002 +1.2415104520E+001  +1.0449116245E-002 +2.2793604019E+000  +9.6932335805E-001 -1.0678690685E+001 
7893146.433 +9.2853640539E-001 +1.1039164439E+001  +2.2484734771E-002 +1.8850863036E+001  +2.2447696523E-002 +1.4583919609E+001  +8.8908207016E-001 -3.9277373782E+000 
8018291.615 +7.3450857403E-001 +5.9664690907E+000  +1.6154978518E-002 +5.1483480583E+000  +2.3165150393E-002 +1.4570695746E+001  +8.7422312119E-001 +6.7044842352E-001 
8143436.796 +7.4938909551E-001 +4.7890750234E+000  +2.0685765326E-002 +1.1422439600E+001  +2.2894280111E-002 +7.4767326422E+000  +7.3832791109E-001 -4.8786564163E+000 
8268581.977 +7.4399941244E-001 +7.0721398122E+000  +2.3118016944E-002 +1.9339837855E+000  +1.7965758821E-002 +3.7720035723E+001  +7.8390766398E-001 +2.1400847213E+000 
8393727.159 +6.7575583564E-001 +7.5287681710E+000  +2.2008757324E-002 +1.4035614271E+001  +2.4697600988E-002 +1.7357476791E+001  +7.6262235488E-001 -4.0252634890E+000 
8518872.340 +6.7484868523E-001 +6.7291147235E+000  +2.1153645808E-002 +1.3870309464E+001  +2.1418263537E-002 +1.5965780694E+001  +7.8715280258E-001 -4.5025532221E+000 
8644017.522 +6.4607117568E-001 +6.1997724934E+000  +2.1046171788E-002 +8.6802314609E+000  +1.7101962246E-002 +1.9605373649E+001  +6.8506958559E-001 -1.4124858318E+000 
8769162.703 +6.1218141881E-001 +7.2046879592E+000  +1.8014110184E-002 +2.6262335718E+000  +2.1964296833E-002 +2.0050172520E+001  +6.3979864327E-001 -2.7115229204E+000 
8894307.885 +6.1073926140E-001 +1.2365368557E+001  +2.1431852925E-002 -1.0045505203E+000  +1.6114299596E-002 +2.2091565751E+001  +6.5689983389E-001 +1.8577040731E+000 
9019453.066 +6.0833951327E-001 +1.9282668075E+000  +1.5103256477E-002 +5.6313360692E+000  +1.7602215100E-002 +3.2717229323E+001  +5.8751959561E-001 +1.7091308643E+000 
9144598.248 +5.8719839006E-001 +8.3276313230E+000  +1.9851736565E-002 +9.6584671454E+000  +1.7828420800E-002 +2.5121984698E+001  +5.6604193061E-001 -1.6364564652E-001 
9269743.429 +5.3040079433E-001 +8.7488513497E+000  +1.7193805747E-002 -2.0781494170E+000  +2.0904650104E-002 +2.4891091010E+001  +6.2754480883E-001 -1.3006909507E+000 
9394888.611 +5.6246965174E-001 +3.6516256838E+000  +1.6397672369E-002 -1.0925098522E+001  +1.9885151986E-002 +1.8727923057E+001  +6.0858187629E-001 +7.4907781125E-001 
9520033.792 +5.4092372076E-001 +4.6347274246E+000  +1.7550795341E-002 +5.4456873655E+000  +1.7988700677E-002 +1.7668384029E+001  +6.0105247303E-001 -5.3442931424E+000 
9645178.974 +5.6413096850E-001 +1.8074869688E+000  +1.7854169312E-002 +6.3035178773E+000  +2.0682368030E-002 +1.8140685432E+001  +5.9168941202E-001 -2.6017830311E+000 
9770324.155 +5.4849589456E-001 +1.7123879974E-001  +1.7972024823E-002 +4.5429188003E+000  +1.6523559893E-002 +3.1847621629E+001  +5.4509006045E-001 -4.8892849465E+000 
9895469.337 +5.2204156682E-001 -2.9779243756E+000  +1.8909926086E-002 +2.3155027829E+000  +1.9547165041E-002 +1.0508092792E+001  +5.3742373529E-001 -4.1702333211E+000 
10020614.518 +5.2017659502E-001 -2.0462635378E+000  +1.9048855002E-002 +1.3506418754E+001  +1.7403373568E-002 +3.0915181425E+001  +5.7133694575E-001 -4.3024391333E+000 
10145759.700 +5.4549358914E-001 +5.6930387388E-001  +1.6994290712E-002 +8.4675616455E+000  +1.9949710277E-002 +1.9002041644E+001  +5.7325262422E-001 -5.7322771530E+000 
10270904.881 +5.4627432671E-001 +6.1640172757E+000  +1.7052331244E-002 +7.7020417013E+000  +1.8833276474E-002 +2.5030550600E+001  +5.9391596306E-001 -9.3980329954E-001 
10396050.063 +5.2725376302E-001 +3.7355751694E+000  +1.8752745880E-002 +8.1313600986E+000  +1.9252850505E-002 +1.9261614692E+001  +5.6391039721E-001 -2.4877394526E+000 
10521195.244 +5.5781691104E-001 +5.4286747370E+000  +1.7489810994E-002 +1.6902439589E+001  +1.8412490467E-002 +3.1468795907E+001  +5.6338839034E-001 +2.5394918918E+000 
10646340.426 +5.1567527652E-001 +5.1722309887E+000  +1.8302331573E-002 -1.9037372343E+000  +1.6454879150E-002 +2.8144794699E+001  +6.2574191818E-001 +1.0103248941E-001 
10771485.607 +5.2723349237E-001 +5.6249097697E+000  +1.9597538265E-002 +1.0822767777E+001  +1.9071642053E-002 +2.4012337150E+001  +5.7426025123E-001 -3.5244201808E-001 
10896630.788 +6.1961509971E-001 +8.6248167889E+000  +1.7010958255E-002 +1.3082862928E+001  +2.0364085521E-002 +3.3345684618E+001  +5.9609502128E-001 -1.2772793348E+000 
11021775.970 +5.4425172022E-001 +5.9963333332E+000  +2.0177057055E-002 +8.6712561508E+000  +1.8844603188E-002 +2.6339049196E+001  +5.7264117924E-001 +2.5509852817E+000 
11146921.151 +5.8881943227E-001 +7.8336047343E+000  +2.2206959595E-002 +1.3763319034E+001  +1.9633888438E-002 +2.4191548323E+001  +6.0735482845E-001 +5.3193946752E-001 
11272066.333 +6.0703471804E-001 +5.6039617667E+000  +1.8808717769E-002 +1.7172922604E+001  +2.1655388217E-002 +2.7845765307E+001  +5.9757985165E-001 +1.7118113565E+000 
11397211.514 +5.9302391780E-001 +7.2290832862E+000  +2.0910334698E-002 +1.1504560308E+001  +2.1242769250E-002 +2.4743042142E+001  +6.2660644473E-001 +4.2108911884E+000 
11522356.696 +6.1772972970E-001 +7.5762557125E+000  +1.9752746728E-002 +1.6228725371E+001  +1.9149104420E-002 +1.7978758862E+001  +6.1594093117E-001 -4.0239714785E+000 
11647501.877 +6.0794788486E-001 +5.6028212452E+000  +1.9386049933E-002 +1.5490873886E+001  +1.9454909642E-002 +2.8501495414E+001  +6.3313208928E-001 +2.5668529960E+000 
11772647.059 +6.1677783101E-001 +7.0366085665E+000  +2.1120306270E-002 +1.9231819099E+001  +2.1901016450E-002 +2.3467930879E+001  +6.4224405741E-001 +3.6218126310E-001 
11897792.240 +6.6654832380E-001 +7.5159036039E+000  +2.0685599739E-002 +1.2885532792E+001  +2.1458721657E-002 +2.3768046997E+001  +6.1583418072E-001 +9.7047723664E-001 
12022937.422 +6.3544462258E-001 +4.9024483235E+000  +2.1579151695E-002 +2.0425990651E+001  +1.9627511472E-002 +2.3484197593E+001  +6.6418918352E-001 +3.3581474222E-001 
12148082.603 +6.6074145301E-001 +4.4046225960E+000  +2.1809414211E-002 +1.3087814703E+001  +2.1527024820E-002 +2.7373041765E+001  +6.9409504340E-001 -1.5290560191E-001 
12273227.785 +6.5012105525E-001 +4.5012081067E+000  +2.2096013477E-002 +1.2379627527E+001  +2.1834621393E-002 +2.2627362724E+001  +7.1376683967E-001 +2.6120701347E-001 
12398372.966 +6.9326278480E-001 +5.0015792058E+000  +2.0672091220E-002 +1.3256980045E+001  +2.1850676728E-002 +2.0932477327E+001  +7.2107723516E-001 +4.2609198635E-001 
12523518.148 +6.8099198625E-001 +2.5168936325E+000  +2.3480924614E-002 +1.8642875156E+001  +2.3117590236E-002 +2.9354127773E+001  +7.1580598826E-001 +6.8156935802E-001 
12648663.329 +7.1159907746E-001 +2.7281788450E+000  +2.3467874302E-002 +1.5953486292E+001  +2.4181723762E-002 +2.7119706222E+001  +7.2107437897E-001 +1.2364008069E+000 
12773808.511 +7.0523335056E-001 +1.3421849170E+000  +2.2004925316E-002 +1.5379649984E+001  +2.2857526704E-002 +2.2514901544E+001  +7.2666271839E-001 -3.0995005252E-001 
12898953.692 +7.2292761492E-001 +2.0479205501E+000  +2.2893949515E-002 +2.0163753690E+001  +2.1832394683E-002 +2.1491163454E+001  +7.5717680873E-001 -2.3067350016E+000 
13024098.874 +7.4876410372E-001 -6.8321608414E-001  +2.3645824990E-002 +1.6893953737E+001  +2.3090687632E-002 +2.3272271373E+001  +7.9103080551E-001 -1.2811728299E+000 
13149244.055 +7.7764256730E-001 +2.1504595215E+000  +2.3457603231E-002 +1.6586819365E+001  +2.0142848359E-002 +2.2871590582E+001  +7.8083896853E-001 -1.2219208202E+000 
13274389.237 +7.9899738566E-001 -2.3699363436E+000  +2.4342881687E-002 +2.0396193106E+001  +2.2471545864E-002 +2.0066141653E+001  +8.0291869962E-001 -1.2811552924E+000 
13399534.418 +8.0971985332E-001 -6.6749746418E-001  +2.4249321904E-002 +2.0089579737E+001  +2.3860464930E-002 +1.8338968653E+001  +8.2719326023E-001 -1.8093138854E+000 
13524679.599 +8.2914532196E-001 -1.1465548305E+000  +2.4847939646E-002 +1.9948265553E+001  +2.4348570685E-002 +2.0411653872E+001  +8.5396753319E-001 -3.1393392359E+000 
13649824.781 +8.3890538637E-001 -2.5297872033E+000  +2.3685135027E-002 +2.2508803606E+001  +2.3118615463E-002 +1.7831397666E+001  +8.4294085677E-001 -1.9271380074E+000 
13774969.962 +8.5931048137E-001 -2.4159425396E+000  +2.4307213861E-002 +1.9562169855E+001  +2.4760524969E-002 +2.2388817125E+001  +8.6920900876E-001 -3.3574584337E+000 
13900115.144 +8.7864526604E-001 -2.4872286624E+000  +2.4929635844E-002 +1.8816122870E+001  +2.4620935548E-002 +1.9308565425E+001  +9.0100677996E-001 -5.2364384610E+000 
14025260.325 +8.8455424284E-001 -3.6789181593E+000  +2.6381988621E-002 +1.8315039133E+001  +2.5207305304E-002 +2.2095012914E+001  +9.0272940162E-001 -4.4577712345E+000 
14150405.507 +9.1460390021E-001 -4.9095885759E+000  +2.4488510472E-002 +1.8280185942E+001  +2.5000091758E-002 +1.6672526662E+001  +9.3373740542E-001 -2.7522494510E+000 
14275550.688 +9.5677400171E-001 -4.3007540865E+000  +2.5549939163E-002 +1.8233094387E+001  +2.5156293078E-002 +2.0329921817E+001  +9.3094108207E-001 -3.7045729454E+000 
14400695.870 +9.4886907242E-001 -5.2497807405E+000  +2.5643954044E-002 +1.8123784400E+001  +2.5012966754E-002 +1.8691256403E+001  +9.8381210765E-001 -5.7357930971E+000 
