!  2-Port S-parameters saved by WinCal
! VAR MeasName=S-Parameters (CALIBRATED_DATA) read from VNA (P5004A)
! VAR MeasDate=27/08/2024 16:30:31
! VAR NAME=S2_r2c9_formed_9k-100M_3
! VAR FILENAME=S2_r2c9_formed_9k-100M_3.S2P
! VAR DATE=27/08/2024 16:30:31
! VAR PHYS_PORTS=1,2
! VAR ObjTypeName=DATASET
! VAR IndexType=Frequency
!
# Hz S MA R 50
9000.000 +8.5236966032E-002 -1.7049014544E+002  +1.1461736538E-002 -1.6100891145E+002  +1.2204459671E-003 -1.6160779156E+002  +2.9098682849E-001 -1.3054635844E+002 
134145.181 +1.1064955622E-001 +1.6973177502E+002  +4.0356971380E-004 -1.1053163853E+002  +7.2564871613E-004 -5.0210282996E+001  +2.4105313023E-001 -1.7147622570E+002 
259290.363 +1.1061886145E-001 +1.6947090833E+002  +6.3617727691E-004 -9.2841983017E+001  +5.8907460521E-004 +1.6597232479E+002  +2.3918705547E-001 -1.6898409170E+002 
384435.544 +1.1266561427E-001 +1.7003655270E+002  +5.4391873566E-004 -2.1454766857E+001  +9.1190471504E-004 +9.7854344715E+001  +2.4389064070E-001 -1.6893502641E+002 
509580.726 +1.1472075608E-001 +1.7096145830E+002  +1.1697595556E-003 -9.0672469025E+001  +2.7470846440E-004 -2.7553158347E+001  +2.4316536545E-001 -1.6584287628E+002 
634725.907 +1.1636424766E-001 +1.7120268381E+002  +1.1515654032E-003 +1.3754768487E+002  +5.5133169505E-004 +5.5952471200E+001  +2.5173788791E-001 -1.6612429656E+002 
759871.089 +1.1660856085E-001 +1.7032883113E+002  +8.6974169723E-004 -7.0665807900E+001  +1.9509084704E-004 +5.7868144454E+001  +2.4090952016E-001 -1.6464109432E+002 
885016.270 +1.2026636079E-001 +1.6877247295E+002  +2.4059999273E-004 +4.0358488635E+001  +3.0376557638E-004 -2.0899342607E+000  +2.4330479690E-001 -1.6622814549E+002 
1010161.452 +1.1592934554E-001 +1.6978199544E+002  +1.3300176743E-003 -3.6630378107E+001  +2.4983551123E-003 -1.5156632594E+002  +2.0765704587E-001 -1.6460391223E+002 
1135306.633 +1.1304306640E-001 +1.6962994473E+002  +1.2871284245E-003 +1.2136508554E+002  +2.8083640345E-003 +1.1710318032E+002  +1.7897837516E-001 -1.6620183495E+002 
1260451.815 +1.2203457027E-001 +1.7136718921E+002  +5.5490470745E-004 +1.0182844743E+002  +2.0758523053E-003 +1.6379876838E+002  +2.5042672877E-001 -1.4579231111E+002 
1385596.996 +1.2536234755E-001 +1.7277828037E+002  +4.2913982305E-004 +1.7551951962E+002  +7.0166787047E-004 -9.2828628373E+001  +2.5580027398E-001 -1.6021447413E+002 
1510742.178 +1.2451012364E-001 +1.7176503275E+002  +5.8167606199E-004 +6.9765041012E+001  +1.9442281398E-003 -1.2315814994E+002  +2.4737515453E-001 -1.5883039362E+002 
1635887.359 +1.2640300138E-001 +1.7060154376E+002  +4.2203781864E-004 -9.5161856304E+001  +3.8445769217E-004 -6.3141006120E+001  +2.4996548996E-001 -1.5944512808E+002 
1761032.541 +1.3123112723E-001 +1.6957701150E+002  +2.0775450503E-004 +4.9256398830E+001  +3.6379091736E-004 -5.6823682888E+000  +2.2310146433E-001 -1.5953354691E+002 
1886177.722 +1.2637665044E-001 +1.7002237181E+002  +8.3668518949E-004 +1.5639121842E+001  +1.0248159047E-003 -1.6999986295E+000  +2.1445780580E-001 -1.6435175766E+002 
2011322.904 +1.2667181036E-001 +1.6637335886E+002  +3.7004807601E-003 +8.5752977353E+001  +5.0632275908E-003 -1.5688488567E+002  +1.5020420181E-001 -1.7663267067E+002 
2136468.085 +1.2663268513E-001 +1.6626014384E+002  +4.1687946128E-003 -1.7814130099E+002  +3.1098305177E-003 -1.3425060324E+002  +1.9553678844E-001 -1.7817587670E+002 
2261613.267 +1.3434568624E-001 +1.6369079861E+002  +2.1857347441E-003 -9.1838070245E+001  +4.1251220775E-003 -1.1353184280E+002  +1.4573805938E-001 -1.7189497776E+002 
2386758.448 +1.3229854645E-001 +1.6431258805E+002  +1.6518807193E-003 -1.4669952286E+001  +1.0386616724E-003 -9.9786278901E+001  +2.0614551245E-001 -1.7611555669E+002 
2511903.630 +1.3320739864E-001 +1.5932248229E+002  +6.3028265344E-003 -2.5764108183E+000  +7.5228768955E-003 +1.0061062437E+002  +4.2681606068E-001 +1.4857315870E+002 
2637048.811 +1.1676142571E-001 +1.6277726258E+002  +8.5978305317E-003 -9.2271838473E+001  +8.4464799547E-003 +6.2216820916E+001  +8.1337939190E-001 +1.3991880691E+002 
2762193.992 +7.9929424863E-002 -1.6560767613E+002  +2.6981854272E-002 +1.3198880331E+002  +2.8994714114E-002 +1.5019162973E+002  +8.8766259663E-001 -1.3599434505E+002 
2887339.174 +8.2835119353E-002 +1.5576384250E+002  +6.8988113376E-003 -1.1866134091E+002  +8.0243026806E-003 -2.3289835411E+001  +2.0275612910E-001 -1.2007469908E+002 
3012484.355 +1.1739389441E-001 -1.7342587271E+002  +2.0463990129E-002 +1.2029159928E+002  +1.0245662173E-002 -6.1994503405E+001  +4.7058005807E-001 -9.7368656667E+001 
3137629.537 +1.0607858229E-001 +1.6308678126E+002  +1.4336531882E-002 +1.3568794928E+002  +5.3023722174E-003 -2.5173590101E+001  +8.8451323703E-002 +1.1375963236E+002 
3262774.718 +7.0227733138E-002 +1.5037316229E+002  +3.2180775790E-002 +9.4871435377E+001  +1.4185399117E-002 -7.3413812095E+001  +5.1057899351E-001 -4.0351758212E+001 
3387919.900 +1.2519529394E-001 +1.6394478917E+002  +5.9397465204E-003 -1.2634135440E+002  +7.7394045840E-003 +5.3074631057E+001  +2.8042823892E-001 -7.7221582427E+001 
3513065.081 +1.7630332885E-001 +1.4972515358E+002  +5.5530295836E-003 +7.4760586330E+001  +1.2027489547E-003 -2.4144537186E+001  +2.3303215496E-001 -7.8494833157E+001 
3638210.263 +1.9546108338E-001 +1.3992099937E+002  +3.8130158187E-002 -7.3764484765E+001  +1.7005551670E-002 -1.5219541140E+002  +1.0853030279E+000 +1.0239392738E+002 
3763355.444 +1.6202098757E-001 +1.4560868716E+002  +4.9763254053E-003 -6.6247004935E+001  +1.2619295975E-003 +1.7172481146E+002  +3.2021480040E-001 +1.3752387375E+002 
3888500.626 +1.9827626990E-001 +1.4880330592E+002  +4.2199661194E-003 +6.4757436804E+001  +2.1940542648E-003 -1.6207387757E+002  +1.2994916181E-001 +7.7985897992E+001 
4013645.807 +1.6881186296E-001 +1.5509103862E+002  +6.6125657655E-003 +9.0611539501E+001  +7.7517708788E-003 +6.5881595113E+000  +4.4941481708E-001 +1.3884616919E+002 
4138790.989 +1.8523898760E-001 +1.4458354341E+002  +2.5294940161E-003 -5.0218071753E+001  +4.6868016275E-003 -1.1606046416E+002  +3.7115281419E-001 +1.0349209054E+002 
4263936.170 +2.0169155998E-001 +1.4002434073E+002  +3.3210190116E-002 +1.3721066159E+002  +2.0674111689E-002 -2.4874585537E+001  +1.1688072316E+000 +7.8174237534E+001 
4389081.352 +2.3969701819E-001 +1.4225663261E+002  +1.0978549369E-002 +8.8537582530E+001  +8.3768561845E-003 -1.4190107707E+002  +1.0393169927E+000 +1.4972889051E+002 
4514226.533 +2.1241448935E-001 +1.4066019635E+002  +1.0128170839E-002 +1.5533482996E+002  +8.8316672466E-003 +1.0169385639E+002  +7.0953052719E-001 +7.3927827508E+001 
4639371.715 +2.7145808532E-001 +1.3883168738E+002  +6.0844413896E-003 +1.4372156676E+002  +1.5110834213E-002 +2.9738267881E+001  +1.4922611654E+000 +1.4360564104E+002 
4764516.896 +3.2017551352E-001 +1.2477560705E+002  +7.8109895172E-002 +7.3744434379E+001  +1.2960561700E-001 -1.3307299837E+002  +5.1514469551E+000 -5.5769976470E+001 
4889662.078 +4.5688677859E-001 +1.4046659960E+002  +2.8489491736E-002 +7.0265192736E+001  +1.3795495874E-002 +1.3542041332E+002  +1.7948493004E+000 -6.7828333960E+001 
5014807.259 +3.9325555354E-001 +1.1993454700E+002  +5.8026586971E-002 +1.4311026415E+002  +2.0935417121E-002 -1.6258052063E+002  +2.5586364735E+000 -9.9382877609E+001 
5139952.441 +4.4056167420E-001 +1.3159056632E+002  +1.1427024115E-002 -1.5156647009E+002  +2.5612230698E-002 -1.5923829104E+002  +1.6994504519E+000 +9.8682824939E+001 
5265097.622 +4.7046550388E-001 +1.3341990090E+002  +4.1307951468E-002 +1.5408550875E+002  +3.4687465076E-002 -3.6499559992E+001  +1.8668447984E+000 +4.6836881309E+001 
5390242.804 +3.9849133742E-001 +1.3360364687E+002  +5.2386278529E-003 -6.4282515544E+001  +6.7268864837E-003 -3.8160509268E+001  +1.0557124071E+000 +1.0810408044E+002 
5515387.985 +4.5589252399E-001 +1.3550865089E+002  +1.7197250432E-002 -2.3985171074E+001  +2.1019810079E-002 +1.7617431966E+002  +2.2988464219E+000 +7.0718218992E+001 
5640533.166 +4.1293247452E-001 +1.2616377083E+002  +1.5935472951E-002 -1.0883018739E+002  +8.7973728269E-003 +1.6455494239E+002  +1.5612257126E+000 +1.0048691361E+002 
5765678.348 +5.0715285832E-001 +1.1599197653E+002  +4.6629310274E-003 -9.5165242260E+001  +8.0398967025E-003 +1.5055719883E+002  +1.4341673426E+000 +8.6600755084E+001 
5890823.529 +5.7869312367E-001 +1.2523717716E+002  +1.2183251602E-002 -1.1987050371E+002  +1.1488296487E-002 -7.9387558098E+001  +2.1463140014E+000 +6.8069992678E+001 
6015968.711 +6.7800377801E-001 +1.0661322622E+002  +3.4025060226E-002 +3.2537741019E+001  +3.2477889992E-002 +1.1906780243E+002  +1.8182597019E+000 +7.2758057939E+001 
6141113.892 +6.3457687854E-001 +1.1445010608E+002  +9.8592803762E-003 +1.6122442423E+002  +9.4743151611E-003 -6.9063780782E+000  +1.5848895357E+000 +1.7397685772E+001 
6266259.074 +9.7466947239E-001 +9.4742230887E+001  +1.3824159904E-002 -5.1941914334E+001  +2.3512986578E-002 +1.3711634326E+002  +1.0622845127E+000 +3.0193392575E+001 
6391404.255 +1.1662712346E+000 +1.1780565793E+002  +7.7454201041E-003 +1.6294113203E+002  +2.7354937409E-003 -1.8179034482E+001  +1.6512231575E+000 -1.3153290846E+001 
6516549.437 +1.1297030955E+000 +7.9816779108E+001  +1.6248654435E-002 -6.4176864540E+001  +2.5564110209E-003 -9.7783256011E+000  +1.2023474819E+000 +2.4703142841E+001 
6641694.618 +1.6756676999E+000 +5.7933076793E+001  +1.9913440483E-002 +4.8637777581E+001  +1.6633837835E-002 +7.8203365601E+001  +1.7173293640E+000 -6.4460218689E+000 
6766839.800 +2.0845145712E+000 +4.4394322524E+001  +2.7707216544E-002 +1.2116566287E+002  +2.6195657506E-002 +1.1163753075E+002  +1.2285614226E+000 -7.6256507956E+000 
6891984.981 +1.6793454448E+000 +4.1433406791E+001  +1.1731416384E-002 +2.5685457659E+001  +1.5613624477E-002 +1.8086374119E+001  +1.4023164577E+000 -3.3298219469E+000 
7017130.163 +1.7948341949E+000 +3.1897039954E+001  +1.8940235545E-003 -1.6404812105E+002  +1.6951377801E-002 -1.7313128347E+002  +1.2454460106E+000 -2.3054275308E+000 
7142275.344 +1.4396663072E+000 +4.8607515886E+000  +7.7932313453E-003 +1.5627681109E+002  +2.0634648871E-002 +1.2739172728E+002  +1.2012534566E+000 -1.4332966479E+001 
7267420.526 +1.4698142788E+000 +9.4033469421E+000  +1.5859384910E-002 +1.1927697515E+002  +1.1409239244E-002 +1.0390006520E+002  +1.3224860262E+000 -5.5370630690E+000 
7392565.707 +1.3338494909E+000 +4.4456407296E+000  +1.4843230549E-002 -1.2071142872E+002  +9.2033043151E-003 +5.7023350910E+001  +1.2945439812E+000 +8.6376458723E-001 
7517710.889 +1.1912390632E+000 +7.1344685899E+000  +4.7999376072E-003 +6.8380447630E+001  +9.1790711729E-003 +1.0080448534E+002  +1.1098830288E+000 -2.5389520201E+000 
7642856.070 +9.6547674680E-001 -3.7509591627E+000  +5.5431587120E-003 +1.2215002761E+002  +8.4460066661E-003 +8.5832557047E+001  +1.2238306766E+000 +6.6803842177E-001 
7768001.252 +1.0195645363E+000 -8.1216198981E-001  +5.0952628383E-003 +8.3219474814E+001  +5.8885381325E-003 +9.3089993301E+001  +9.6032689432E-001 -4.0090468844E+000 
7893146.433 +8.3324621626E-001 +2.4743405418E+000  +3.6300953977E-003 -1.7873613776E+002  +6.0795311919E-003 +8.1510508133E+001  +9.5492216765E-001 -6.2440002499E+000 
8018291.615 +8.0164194793E-001 +4.4606992952E+000  +3.7046253511E-003 +1.4770659877E+002  +6.9506061913E-003 +6.4128873645E+001  +8.7585220350E-001 -1.1812132026E+000 
8143436.796 +7.2857256195E-001 +1.5070712872E+000  +4.1868562196E-003 +1.0356822556E+002  +5.0327774257E-003 +1.5110165817E+002  +8.0700076594E-001 -1.6113904634E+000 
8268581.977 +7.0168154116E-001 +8.3370591720E+000  +3.9383614500E-003 +7.8489312728E+001  +3.4784174255E-003 +9.6434304757E+001  +8.3301474831E-001 -2.9926429330E+000 
8393727.159 +7.7798252593E-001 +7.8608044916E+000  +7.3842575917E-004 +1.1559602443E+002  +2.2633458767E-003 +9.4962407120E+001  +7.2573724200E-001 +3.0625474855E+000 
8518872.340 +7.2095257064E-001 +1.1714191703E+001  +6.3221850002E-003 +3.9664993868E+001  +7.9408987168E-003 +8.2059949580E+001  +7.3105980752E-001 +1.7822428417E+000 
8644017.522 +6.7863643694E-001 +3.5425719472E+000  +7.2040710291E-003 +1.1416715635E+002  +2.1215095822E-003 -3.7810394523E+000  +6.6535635003E-001 -2.8288844333E+000 
8769162.703 +5.8764895643E-001 +1.0948340718E+001  +5.8534969342E-003 -1.1427591280E+001  +1.7669540564E-003 +9.7314882632E+001  +7.1108812721E-001 +3.0832112973E+000 
8894307.885 +5.8797946090E-001 +5.6653514206E+000  +9.8309544038E-004 +1.3955534652E+002  +5.9003377241E-003 +8.4481510273E+001  +6.7978037006E-001 -2.2012813486E+000 
9019453.066 +6.1822451335E-001 +2.3730855640E+000  +3.0531500363E-003 +7.2222630045E+001  +4.8750333591E-003 +1.1017571268E+002  +6.4283172550E-001 -2.0342354786E+000 
9144598.248 +5.8538201696E-001 +6.6869834829E+000  +1.8054555159E-003 +1.5626110980E+002  +4.1470839825E-003 +5.7601471451E+001  +6.1027890430E-001 +3.1394112893E+000 
9269743.429 +5.3815095617E-001 +3.4463180966E+000  +4.3431342659E-003 +8.4828247084E+001  +6.0671773287E-004 -1.4671719457E+002  +6.1707545828E-001 +4.1086733215E+000 
9394888.611 +5.6700771963E-001 +5.5791293604E-001  +3.1373086595E-003 +4.2669017924E+001  +2.6135751580E-003 +7.7132444374E+001  +5.4853665952E-001 +1.4936626888E+000 
9520033.792 +5.4600123798E-001 +1.7849248887E+000  +5.9803363335E-003 +9.7185467998E+001  +4.2244433494E-003 +1.1561902820E+002  +5.6710930383E-001 -4.3146883803E+000 
9645178.974 +5.5270589249E-001 -3.3250044479E-001  +6.5618180997E-003 +9.1625004088E+001  +4.1469002486E-003 +1.4250655084E+002  +5.9781392556E-001 -5.2756119453E+000 
9770324.155 +5.2338250844E-001 +2.3104758704E-001  +1.0565672505E-003 +9.1005511707E+001  +6.7429348293E-003 +9.2904777672E+001  +5.9951856197E-001 -6.8596228887E+000 
9895469.337 +5.1806725270E-001 -1.4473942168E+000  +2.5346439314E-004 -1.7963549803E+002  +6.3040207190E-003 +1.1844388332E+002  +6.4289487182E-001 -3.3020283411E+000 
10020614.518 +5.5680370585E-001 +5.4597359993E+000  +6.3782903904E-003 +1.0568679220E+002  +4.7451463008E-003 +1.0761219790E+002  +5.9751025254E-001 -4.6034371805E+000 
10145759.700 +5.5543512790E-001 +3.8491091203E+000  +3.0367481570E-003 +1.1842578917E+002  +4.3350102662E-003 +8.4481972669E+001  +6.0411706750E-001 -8.8773434166E-001 
10270904.881 +5.5763297646E-001 +1.7412324523E+000  +4.9815458700E-003 +9.2154910501E+001  +2.9398922598E-003 +1.2244796895E+002  +5.6592996276E-001 -2.5766239758E+000 
10396050.063 +5.5854822200E-001 +6.4065820580E+000  +6.3829365397E-003 +9.4985957573E+001  +5.9868486595E-003 +6.7105266654E+001  +5.7979865754E-001 -2.8082023682E+000 
10521195.244 +5.3104293832E-001 +7.3205321387E+000  +4.2704617594E-003 +1.1733991433E+002  +2.6949590805E-003 +1.1039983137E+002  +5.6165263214E-001 +1.0622922762E+000 
10646340.426 +5.4942452343E-001 +1.1863544952E+000  +4.1023535389E-003 +9.6342161622E+001  +4.1333594467E-003 +1.1333762180E+002  +5.7088333448E-001 +3.4115177275E+000 
10771485.607 +5.7971540396E-001 +1.7308460427E+000  +4.6183248026E-003 +6.4253214521E+001  +4.5442332361E-003 +1.0260791795E+002  +6.0238882028E-001 -1.6390682968E-001 
10896630.788 +5.8434505937E-001 +7.3243809978E+000  +3.8029526491E-003 +7.1375813474E+001  +5.9289164238E-003 +9.4698870451E+001  +6.1959924143E-001 -7.7392702459E-001 
11021775.970 +6.0117395064E-001 +4.8087572563E+000  +4.3666628535E-003 +9.0921987823E+001  +5.3873825627E-003 +1.1635983396E+002  +6.2591837155E-001 +1.3546033026E+000 
11146921.151 +6.0881495533E-001 +7.1633340560E+000  +4.0042570821E-003 +8.5698102799E+001  +3.7970467068E-003 +6.9201344773E+001  +6.0028029806E-001 +5.0502531926E-001 
11272066.333 +5.7318312285E-001 +6.7564069269E+000  +3.8802898564E-003 +8.3481367738E+001  +4.8641191988E-003 +6.7044546977E+001  +6.2269100942E-001 +1.2806621948E+000 
11397211.514 +6.1548899803E-001 +5.8495929090E+000  +5.9982984549E-003 +9.5789161733E+001  +4.5479623895E-003 +1.0850522791E+002  +6.6580470740E-001 +3.3468845348E+000 
11522356.696 +6.2746299321E-001 +5.5737027346E+000  +6.3500952512E-003 +6.9565597512E+001  +3.0374645865E-003 +9.4409825373E+001  +6.1982507699E-001 +1.6287122186E+000 
11647501.877 +6.2982371751E-001 +7.1179868163E+000  +4.9120287367E-003 +8.6750965390E+001  +6.2404060738E-003 +8.4649421155E+001  +6.6946194881E-001 +8.1981203787E-001 
11772647.059 +6.6416533385E-001 +7.4014497436E+000  +7.5149079973E-003 +8.8453271076E+001  +7.1348481302E-003 +9.5138639749E+001  +6.4145612164E-001 +6.7819673071E-001 
11897792.240 +6.6611809499E-001 +6.2089481677E+000  +3.9777566691E-003 +8.4643583526E+001  +3.4102294064E-003 +1.1679536823E+002  +6.7562928174E-001 +1.7512516436E+000 
12022937.422 +6.3998913694E-001 +5.9340542762E+000  +6.2867478085E-003 +7.7346807793E+001  +7.1256517122E-003 +8.4689110290E+001  +6.6991619130E-001 -4.7402121209E-001 
12148082.603 +6.7264027467E-001 +3.4758251978E+000  +6.1885012512E-003 +9.3274774299E+001  +4.0045361914E-003 +8.2129894770E+001  +6.8872696474E-001 +9.5915691648E-001 
12273227.785 +6.9062783335E-001 +5.8037210667E+000  +6.1000595872E-003 +9.3951794799E+001  +4.8144163825E-003 +7.8933915611E+001  +7.1129216584E-001 -1.6131200712E+000 
12398372.966 +6.9338531420E-001 +3.4301763903E+000  +6.7368533664E-003 +8.0948470576E+001  +6.3488127769E-003 +8.9475334282E+001  +7.2253537798E-001 -4.2919539428E-001 
12523518.148 +7.4221513590E-001 +3.0267137983E+000  +6.8121546331E-003 +7.8187310419E+001  +5.6784989144E-003 +1.1383666801E+002  +7.2809445594E-001 -1.7342281817E-001 
12648663.329 +7.4580786912E-001 +3.3423312972E+000  +5.6756960970E-003 +9.1169863919E+001  +7.6084028321E-003 +9.5549192111E+001  +7.4088704168E-001 +5.0033407181E-001 
12773808.511 +7.5890409147E-001 +1.1581121083E+000  +4.9625663333E-003 +9.2748461363E+001  +5.0984338822E-003 +9.1328806933E+001  +7.6662121813E-001 +3.5707161754E-001 
12898953.692 +7.6446226553E-001 -1.1658809598E-001  +6.5973531957E-003 +9.4768626640E+001  +4.4311401031E-003 +1.0094549128E+002  +7.9628198130E-001 -1.0109887520E-001 
13024098.874 +7.7776392840E-001 +1.7372118766E+000  +6.1499970965E-003 +8.0426241622E+001  +6.3498146944E-003 +8.2014129367E+001  +8.2000443824E-001 -2.2193600875E+000 
13149244.055 +7.9091602185E-001 +1.1403209140E+000  +5.7816327731E-003 +9.1878547673E+001  +6.5629277348E-003 +6.7749825657E+001  +8.1052312973E-001 -1.7891920400E+000 
13274389.237 +8.2132247600E-001 -2.7401819043E-001  +6.2406384753E-003 +9.3643581462E+001  +6.0640226530E-003 +8.9074602526E+001  +8.3350290814E-001 -6.1414687572E-001 
13399534.418 +8.5072843025E-001 -1.9427015636E+000  +7.5141947125E-003 +1.0398289091E+002  +5.2309118686E-003 +9.7146195338E+001  +8.6187258328E-001 -3.1855735305E+000 
13524679.599 +8.6120390365E-001 -1.6197075408E+000  +8.5426769361E-003 +1.0682841897E+002  +6.4141021383E-003 +8.6171518061E+001  +8.5672023196E-001 -2.2369686386E+000 
13649824.781 +8.7008813548E-001 -1.2773621270E+000  +7.5510728465E-003 +9.0846194655E+001  +8.5743292296E-003 +1.0628739343E+002  +8.8523364355E-001 -3.1611775335E+000 
13774969.962 +8.8125005643E-001 -1.6347546197E+000  +7.7538317727E-003 +8.7524442723E+001  +6.9319415833E-003 +1.0445289532E+002  +9.1531969277E-001 -5.2948860448E+000 
13900115.144 +9.1292062145E-001 -4.5709844280E+000  +7.1573797360E-003 +7.7978901486E+001  +5.5624314817E-003 +9.9149110429E+001  +9.2084369275E-001 -2.2278588950E+000 
14025260.325 +9.0154493724E-001 -2.5231755689E+000  +7.1089146900E-003 +9.6066267303E+001  +7.0638534944E-003 +9.4317280480E+001  +9.3199906549E-001 -5.2420654975E+000 
14150405.507 +9.2491851612E-001 -3.2372346646E+000  +7.9552307268E-003 +8.7865831077E+001  +7.4810946734E-003 +9.4580858992E+001  +9.6118709652E-001 -3.4674440205E+000 
14275550.688 +9.6686889310E-001 -4.4171794524E+000  +8.2098265434E-003 +9.1625221038E+001  +6.6187223896E-003 +9.6149678893E+001  +9.7533647744E-001 -3.9819018249E+000 
14400695.870 +9.8852741038E-001 -5.3165102004E+000  +7.9982626264E-003 +9.6430068382E+001  +7.6665001253E-003 +8.4990251796E+001  +9.7784167671E-001 -4.4666008737E+000 
