!  2-Port S-parameters saved by WinCal
! VAR MeasName=S-Parameters (CALIBRATED_DATA) read from VNA (P5004A)
! VAR MeasDate=28/08/2024 10:34:48
! VAR NAME=S2_r4c9_SET3_9k-100M_3
! VAR FILENAME=S2_r4c9_SET3_9k-100M_3.S2P
! VAR DATE=28/08/2024 10:34:48
! VAR PHYS_PORTS=1,2
! VAR ObjTypeName=DATASET
! VAR IndexType=Frequency
!
# Hz S MA R 50
9000.000 +9.0445713627E-002 -1.6787847962E+002  +6.2660858816E-003 -9.5150157151E+001  +4.7627741438E-003 +5.4259957279E+001  +2.6081733482E-001 -1.4768444982E+002 
134145.181 +1.1138843268E-001 +1.6996904625E+002  +4.1487910768E-004 +8.6896016738E+001  +2.6988570536E-004 -1.7741377803E+002  +2.3802464076E-001 -1.7060134372E+002 
259290.363 +1.1213727747E-001 +1.6982273266E+002  +1.3579781224E-004 +1.4768528202E+001  +1.2041564908E-003 -3.8232072506E+001  +2.3231327460E-001 -1.6628029500E+002 
384435.544 +1.1434974944E-001 +1.6989321066E+002  +1.1515600848E-004 -1.0795442692E+002  +1.0066763903E-003 -8.8116416292E+001  +2.4299109787E-001 -1.6656976104E+002 
509580.726 +1.1417804364E-001 +1.7094108890E+002  +7.5735639331E-004 -6.7234432754E+001  +1.0362109576E-003 +3.7387673807E+001  +2.4971332623E-001 -1.6700088510E+002 
634725.907 +1.1622713762E-001 +1.7078697473E+002  +8.6632719069E-004 -1.3242913795E+002  +1.5489653272E-003 +2.3568747507E+001  +2.6536549166E-001 -1.6487630165E+002 
759871.089 +1.1858012641E-001 +1.7149173476E+002  +2.6589812211E-004 -1.6211606104E+002  +4.8186964805E-004 +4.4214432728E+001  +2.4890027910E-001 -1.6541516911E+002 
885016.270 +1.2028544705E-001 +1.6900443518E+002  +2.8205049214E-004 -3.6623633694E+001  +3.9922864864E-004 +1.7820050384E+002  +2.4657988698E-001 -1.6743218217E+002 
1010161.452 +1.1514897144E-001 +1.6999401023E+002  +1.3770684115E-003 -1.5741445118E+002  +2.4914423624E-003 +1.7065768815E+002  +1.6728286184E-001 -1.5978043220E+002 
1135306.633 +1.1150977283E-001 +1.6598058534E+002  +1.4604181501E-003 -1.1148864429E+002  +1.7820025413E-003 -1.7443101243E+002  +2.1277646848E-001 -1.6745103438E+002 
1260451.815 +1.2007164327E-001 +1.7091259027E+002  +1.1804193827E-003 +6.0682455875E+001  +1.9984504703E-003 -1.7278761743E+002  +2.4436847435E-001 -1.5341460073E+002 
1385596.996 +1.2757696504E-001 +1.7293317311E+002  +1.0586160710E-003 -6.3985957272E+001  +2.0163313732E-003 -7.0613197503E+001  +2.7093724516E-001 -1.4898733077E+002 
1510742.178 +1.2697278967E-001 +1.7110496938E+002  +4.6711596320E-004 +1.4152756823E+002  +2.4852140497E-004 +1.5280853069E+002  +2.5270698382E-001 -1.5911601798E+002 
1635887.359 +1.2949854234E-001 +1.7142780350E+002  +2.1205431291E-003 +3.2116325197E+001  +1.0642719138E-003 +9.3661403637E+001  +2.4144602930E-001 -1.5540672761E+002 
1761032.541 +1.2875433537E-001 +1.7056129882E+002  +3.5645565270E-004 -5.0381767919E+001  +1.1614546575E-003 -1.3287131925E+002  +2.2728607912E-001 -1.6405217332E+002 
1886177.722 +1.2720450804E-001 +1.6750629013E+002  +1.0216794521E-003 -3.1787670261E+001  +1.4407587627E-003 -1.0230801705E+002  +2.1461135687E-001 -1.5875963225E+002 
2011322.904 +1.2309277864E-001 +1.6956288160E+002  +2.4041875095E-003 +2.5808387386E+000  +7.8569056930E-004 -7.0134126677E+001  +2.0990020066E-001 -1.6191223893E+002 
2136468.085 +1.3150986142E-001 +1.6887523426E+002  +1.8244035810E-003 -2.4989627862E+000  +3.0192480663E-003 -1.2054517687E+002  +1.9593989797E-001 -1.6867220996E+002 
2261613.267 +1.3122337155E-001 +1.6599357127E+002  +9.0507214714E-003 +1.8766094565E+001  +6.6468445758E-004 -7.6067310579E+001  +1.4935924924E-001 -1.7575275892E+002 
2386758.448 +1.3042010061E-001 +1.6648456266E+002  +1.6712526403E-003 +5.1175022636E+001  +3.0789311011E-003 -1.1290117367E+002  +2.0871279831E-001 +1.6905178011E+002 
2511903.630 +1.2616343393E-001 +1.5664925776E+002  +4.3155272427E-003 -1.4946481365E+002  +1.3991973767E-003 -1.6938910387E+002  +2.0693976841E-001 +1.7195551834E+002 
2637048.811 +1.2734326088E-001 +1.6924701329E+002  +3.5949236356E-003 +3.2829164730E+001  +1.2651469645E-003 -5.5776138824E+001  +2.2245164575E-001 +1.4956055576E+002 
2762193.992 +1.1495225664E-001 +1.6412427517E+002  +2.6123228403E-002 +1.1869594010E+002  +2.1380395906E-002 +8.9136135201E+001  +1.0535524529E+000 -1.7332071167E+002 
2887339.174 +9.6341934760E-002 +1.6215113727E+002  +2.3646409672E-002 -1.7435241015E+001  +1.2753679306E-002 -1.5152618347E+002  +2.4455285490E-001 -1.0727523161E+002 
3012484.355 +1.2474631033E-001 +1.6937818120E+002  +7.7074274571E-003 -6.3356642929E+001  +4.8458422889E-003 -7.9495001039E+001  +2.2931113472E-001 -1.0602461089E+002 
3137629.537 +1.2823646882E-001 +1.6993963068E+002  +7.1011736080E-003 -3.7774262693E+001  +4.0565417812E-003 +1.0667421626E+002  +7.3725844002E-002 -8.6798118240E+001 
3262774.718 +1.2355463488E-001 +1.6071196179E+002  +1.0495508979E-002 +4.4858637318E+001  +1.1484362240E-002 -1.6914662217E+002  +6.9069973181E-002 +1.5533833962E+002 
3387919.900 +1.2787349293E-001 +1.5744005336E+002  +1.1799924607E-002 +1.6524806010E+002  +2.2589656953E-002 +2.2437626757E+001  +2.8688998486E-001 +3.5221580243E+001 
3513065.081 +1.2235419793E-001 +1.5525305655E+002  +2.5405543629E-002 -1.7669798722E+002  +5.2907752342E-002 -5.7068075662E+001  +4.1093628849E+000 -1.6858242641E+001 
3638210.263 +1.7874904770E-001 +1.4328831351E+002  +2.8399807381E-002 -1.7803164748E+002  +2.1888301926E-002 -3.9903233930E+001  +9.4651565000E-001 +1.2548599902E+002 
3763355.444 +1.8863915249E-001 +1.4834334660E+002  +1.1898095218E-002 +6.7693943147E+001  +2.6458957589E-002 -1.7866587817E+002  +9.9337774297E-001 +1.3864050346E+002 
3888500.626 +1.7610979506E-001 +1.5142475510E+002  +6.2113484664E-003 +1.1133796501E+002  +7.6331775591E-003 +1.6321858735E+001  +5.1606788795E-001 +1.2840803667E+002 
4013645.807 +1.9392459233E-001 +1.4517265223E+002  +1.2962010183E-002 +1.0104629672E+002  +1.0098073679E-002 -5.4730941697E+001  +3.0486478029E-001 +1.1635604412E+002 
4138790.989 +1.6825949975E-001 +1.3581393383E+002  +8.2186289103E-003 +3.5575891175E+001  +9.7548158513E-003 +3.6043349285E+001  +5.1762433123E-001 +1.2095478160E+002 
4263936.170 +2.0187988526E-001 +1.5248571122E+002  +2.1910077830E-002 +9.7791359727E+001  +1.1125024157E-002 +3.0481672355E+001  +1.1193363416E+000 +9.5407651280E+001 
4389081.352 +2.1150952659E-001 +1.4343732740E+002  +2.5258719408E-002 +8.9868483853E+001  +5.3145047067E-002 -8.5486915735E+000  +2.0877511534E+000 +2.3823750256E+001 
4514226.533 +2.7448649142E-001 +1.3164203560E+002  +8.3274448146E-003 +7.8740384485E+001  +1.3648504108E-002 -3.8878450960E+000  +2.6077702718E-001 +1.2365472415E+002 
4639371.715 +2.2849431496E-001 +1.3081195328E+002  +8.0395679503E-002 +3.6067836501E+001  +6.3093413201E-002 -1.4516452611E+001  +2.7681161179E+000 +3.7781903844E+001 
4764516.896 +3.3270153176E-001 +1.3393545221E+002  +7.6110398792E-002 -1.0037518856E+002  +4.6848760807E-002 -1.4540313963E+002  +3.1759013337E+000 -1.5664944593E+002 
4889662.078 +4.1152402497E-001 +1.1984006112E+002  +2.6010450397E-002 -8.1787412005E+001  +4.5584390418E-002 -1.0924448578E+002  +2.1349956249E+000 -1.2772170367E+002 
5014807.259 +4.1514171641E-001 +1.3503653302E+002  +1.4892212035E-001 -8.8622946273E+001  +3.6542244700E-001 -8.7863123419E+001  +1.1935021807E+001 -1.3204580172E+002 
5139952.441 +3.6562775098E-001 +1.3048810829E+002  +3.3085525728E-002 +1.1768156889E+002  +3.6846187429E-002 +3.7016380320E+001  +1.6081202145E+000 +9.9974072998E+001 
5265097.622 +4.1476588364E-001 +1.3448808783E+002  +2.0688609800E-002 +1.1768402550E+002  +3.5056926704E-002 +1.3312309832E+002  +1.6373130505E+000 +1.0108697554E+002 
5390242.804 +4.1711965684E-001 +1.2782877079E+002  +3.9183316307E-002 +1.3535678724E+002  +1.5606420529E-002 +7.8059315003E+001  +1.0490923587E+000 +8.8913395615E+001 
5515387.985 +4.0451568273E-001 +1.2758324216E+002  +4.2894549215E-002 +1.2250886685E+002  +2.8679457690E-002 +8.0106940975E+001  +2.2372814691E+000 +1.1113073525E+002 
5640533.166 +4.8310513549E-001 +1.2745173221E+002  +2.8623724741E-002 +1.1281801504E+002  +2.9133276846E-002 +1.1983495436E+002  +2.6120598867E+000 +9.1365063556E+001 
5765678.348 +5.3274277389E-001 +1.2925332254E+002  +5.3871450260E-002 +9.9604795681E+001  +3.2544100029E-002 +5.5629200698E+001  +3.0869284501E+000 +7.7811663699E+001 
5890823.529 +4.3208446161E-001 +1.1981755404E+002  +3.8021510498E-002 +8.7797574347E+001  +2.5936088303E-002 +3.5130636389E+001  +2.1877003816E+000 +7.6514152810E+001 
6015968.711 +5.2501369017E-001 +1.1609415365E+002  +1.4817996603E-002 +1.7383508834E+001  +3.1641315947E-002 +9.1804069495E+001  +2.1807712394E+000 +3.4752215625E+001 
6141113.892 +7.5496049516E-001 +1.1932935642E+002  +3.2228486724E-002 +8.6187485047E+001  +4.1194884491E-002 +4.5700295251E+001  +1.7540228592E+000 +2.8080104543E+001 
6266259.074 +8.0743518645E-001 +1.0933106350E+002  +4.7203400736E-002 +7.0939195696E+001  +3.9846246871E-002 +5.2225309413E+001  +2.4314768459E+000 +3.1574204162E+001 
6391404.255 +1.0457096393E+000 +9.5659309771E+001  +5.5992626091E-002 +5.4657516465E+001  +2.4350497319E-002 +5.9077623839E+001  +1.8174383780E+000 +1.6692795468E+001 
6516549.437 +1.2641478469E+000 +8.3830190834E+001  +5.8411670649E-002 +4.8568038462E+001  +3.6037044167E-002 +1.5714384939E+001  +1.7576814368E+000 +6.2748736976E+000 
6641694.618 +1.7161786216E+000 +7.2998411494E+001  +5.3277307910E-002 +5.5016130485E+001  +5.6856325579E-002 +6.7324397006E+001  +1.1399276337E+000 +7.4183227760E+000 
6766839.800 +1.8112621918E+000 +3.9662755760E+001  +3.1124496246E-002 -2.0007660230E+001  +4.5233625906E-002 +2.7621164095E+001  +1.4282362776E+000 -1.0822514546E+000 
6891984.981 +2.0842255836E+000 +4.0391522146E+001  +3.4704539922E-002 +1.6894655305E+001  +6.9214844094E-002 +7.9167813707E+000  +1.1228566597E+000 -1.6429562471E+001 
7017130.163 +1.7218889092E+000 +1.5425612809E+001  +4.0884156275E-002 +5.3587228695E+000  +3.6946583361E-002 -5.8707420542E+000  +1.3838575926E+000 -1.1294543943E+001 
7142275.344 +1.6823430894E+000 +1.3212058292E+001  +2.6591334434E-002 -1.2782422129E+001  +4.2133445569E-002 +3.1517976925E+001  +1.4211161963E+000 -1.1814771507E+001 
7267420.526 +1.3743683414E+000 +8.9626167000E+000  +1.9555445704E-002 +2.0819018289E+001  +3.0110465097E-002 +5.5571851722E+000  +1.2914767630E+000 -1.0535176981E+001 
7392565.707 +1.2673167521E+000 +1.8107222331E+000  +1.7058276114E-002 +2.3815987372E+001  +1.5515779098E-002 +1.3787995749E+001  +1.4015835110E+000 -4.3040489317E+000 
7517710.889 +1.1847223645E+000 +2.9608128933E+000  +2.6820170893E-002 +1.1116651612E+001  +2.2471878712E-002 +2.4590098282E+001  +1.2067831546E+000 -7.3732372347E+000 
7642856.070 +9.7454579262E-001 +7.4906409537E-001  +1.6075422388E-002 +2.1980688583E+001  +2.1231028461E-002 +1.7544352922E+001  +1.0535513068E+000 -4.7277466109E+000 
7768001.252 +9.8359133172E-001 +2.3583677039E+000  +1.2670977758E-002 +4.3012851477E+001  +1.9610099632E-002 +2.0084867270E+001  +9.3860382060E-001 -1.8474200451E+000 
7893146.433 +8.5192482429E-001 +5.2440353964E+000  +2.1602016262E-002 +3.6709806107E+001  +1.5757159100E-002 +1.5781276207E+001  +8.6853792460E-001 -4.3193139902E+000 
8018291.615 +7.3561346987E-001 +7.7925091679E+000  +1.1668108708E-002 +3.3641644439E+001  +1.6606366481E-002 -3.7646516856E+000  +8.1447084343E-001 -4.3459678799E+000 
8143436.796 +8.0950651407E-001 +7.7358455224E+000  +1.2862147329E-002 +3.6276235044E+001  +1.7024527087E-002 +2.6962734861E+001  +7.7148401086E-001 -9.3055254412E+000 
8268581.977 +7.2597748430E-001 +1.5392156992E+001  +1.6246206054E-002 -2.8970831373E+000  +1.9283333173E-002 +2.6588866201E+001  +6.7065569156E-001 -5.8356917337E+000 
8393727.159 +7.2479752743E-001 +1.0464335325E+001  +1.4295174953E-002 +4.2990500825E+000  +1.4146946798E-002 +6.6061881002E+000  +7.5371651384E-001 +6.0571924750E+000 
8518872.340 +7.5649883475E-001 +9.0542765772E+000  +1.2987810879E-002 +9.3356878168E+000  +1.1457061043E-002 +2.5393892491E+001  +7.6910521424E-001 +3.6607505444E+000 
8644017.522 +6.9642636950E-001 +7.5200566572E+000  +1.4566722793E-002 +1.5591087570E+001  +1.4769151510E-002 +2.1149049572E+001  +6.0011605893E-001 +4.7472004420E+000 
8769162.703 +6.0202904721E-001 +1.5459354102E+000  +1.5909144148E-002 +4.0651420949E+000  +1.4773082569E-002 +1.7390695817E+001  +6.6819123851E-001 +2.6933522340E+000 
8894307.885 +6.0186488793E-001 +7.9277526849E+000  +1.2698931181E-002 -5.3291338738E+000  +1.6514864618E-002 +2.7300447790E+001  +6.8914627358E-001 +3.3638660386E+000 
9019453.066 +6.5047093287E-001 -2.3837347432E+000  +1.7249573288E-002 +2.0782102128E+001  +1.1022181627E-002 +1.7585200116E+001  +6.2037775461E-001 +3.8360286275E+000 
9144598.248 +5.8467935603E-001 +4.5991933661E+000  +1.4797309139E-002 -2.3854543980E-001  +1.5006941635E-002 +2.8367331004E+001  +6.0139557476E-001 +1.0268864696E+000 
9269743.429 +5.2526042894E-001 +6.6496378469E+000  +1.1530361036E-002 +7.6113546048E+000  +1.2854543737E-002 +2.6950692527E+001  +6.1399151736E-001 +1.2100805254E+000 
9394888.611 +5.2493526237E-001 +4.8032690724E+000  +1.3434111919E-002 -4.3156544408E+000  +1.1662519511E-002 +2.4636487013E+001  +5.7286523660E-001 -5.5392498439E+000 
9520033.792 +5.1714646871E-001 +9.7025947790E-001  +1.3974597935E-002 +1.5967157682E+000  +1.5304660584E-002 +1.9584804662E+001  +5.3570790107E-001 -1.9099495989E+000 
9645178.974 +5.5383476211E-001 +2.8236680854E+000  +1.2097379599E-002 +1.3076552597E+001  +1.1896873057E-002 +2.1342796475E+001  +5.6528358522E-001 +8.2696111988E-001 
9770324.155 +5.4096543906E-001 +4.4298604188E+000  +1.6234488926E-002 +1.3642815517E+001  +1.3586512789E-002 +3.3829857201E+001  +5.5497004384E-001 -9.2085007371E+000 
9895469.337 +5.1984432560E-001 +4.0467694616E-001  +1.5958714950E-002 +7.0985746568E+000  +1.2343178498E-002 +2.2905761694E+001  +5.6487162330E-001 -6.2270399148E+000 
10020614.518 +5.5399273168E-001 +1.2205160994E+000  +1.3496433049E-002 +7.7346834821E+000  +1.4649161281E-002 +2.6598527431E+001  +5.7763954344E-001 -3.1713338236E+000 
10145759.700 +5.6366912615E-001 +6.4997332009E+000  +1.0970508472E-002 +2.4792070761E+000  +1.3920944133E-002 +3.4270190272E+001  +6.0631412639E-001 -2.1713861485E+000 
10270904.881 +5.4503370261E-001 +7.7043104353E+000  +1.5122385254E-002 +6.6470670673E+000  +1.5413966837E-002 +2.9194722605E+001  +5.6814356858E-001 +1.1550539661E-001 
10396050.063 +5.2395612117E-001 +4.4563212435E+000  +1.4314641738E-002 +1.0128462285E+001  +1.6309012550E-002 +3.5291303510E+001  +5.8930843887E-001 -2.3723612624E+000 
10521195.244 +5.3026308189E-001 +6.5859847012E+000  +1.5772416711E-002 +1.9242198570E+001  +1.5617916079E-002 +3.1833911574E+001  +5.9679708410E-001 -2.2528028092E+000 
10646340.426 +5.3486250143E-001 +7.0392152400E+000  +1.5004225728E-002 +7.9073928445E+000  +1.4727769546E-002 +3.2596054759E+001  +5.6272538280E-001 -1.7652245347E+000 
10771485.607 +5.5166215761E-001 +8.6676088755E+000  +1.4844716455E-002 +1.3375112657E+001  +1.4655039416E-002 +4.0114840275E+001  +5.9766717290E-001 -4.8026217845E-001 
10896630.788 +5.9064799086E-001 +9.5678295479E+000  +1.5999035344E-002 +9.4051200511E+000  +1.3519866193E-002 +2.3246543349E+001  +6.0615594648E-001 -1.2497810296E+000 
11021775.970 +5.8136224736E-001 +8.0948014545E+000  +1.5865929016E-002 +1.5486769741E+001  +1.6713049804E-002 +2.6419100655E+001  +5.9842143144E-001 +2.5073036505E+000 
11146921.151 +6.0615012705E-001 +8.2281117184E+000  +1.4195305106E-002 +1.6318008673E+001  +1.5041476428E-002 +1.7431544222E+001  +6.0214307702E-001 +2.6706641326E+000 
11272066.333 +5.6974887517E-001 +7.9337614908E+000  +1.5105619811E-002 +2.0496893774E+001  +1.6072628938E-002 +3.4187622146E+001  +6.0484599942E-001 +1.2278338215E+000 
11397211.514 +5.9591360524E-001 +7.2221819222E+000  +1.3075773208E-002 +1.9324453075E+001  +1.4750447805E-002 +2.2620314084E+001  +6.4108649224E-001 +1.1261665454E+000 
11522356.696 +6.3913201827E-001 +7.6624248286E+000  +1.7269557972E-002 +1.7232459206E+001  +1.7199472489E-002 +3.9281572905E+001  +6.1371449568E-001 +1.5386857195E+000 
11647501.877 +6.1495090332E-001 +3.9050964526E+000  +1.5619326428E-002 +1.3521328567E+001  +1.5734328523E-002 +3.4204409896E+001  +6.4829395824E-001 -1.0224508211E+000 
11772647.059 +6.2195773159E-001 +8.0750162584E+000  +1.7197219566E-002 +2.2628548229E+001  +1.7856913984E-002 +3.1697281978E+001  +6.3792797202E-001 +1.6896307833E+000 
11897792.240 +6.3996377407E-001 +2.4903661848E+000  +1.7923152472E-002 +1.5449121467E+001  +1.5811525248E-002 +2.3792773964E+001  +6.6152979886E-001 +1.3886909614E-002 
12022937.422 +6.5821592007E-001 +3.6085641580E+000  +1.6444074951E-002 +1.7087612889E+001  +1.8028640822E-002 +4.0743529312E+001  +6.7174203307E-001 +6.2298273792E-001 
12148082.603 +6.7482011654E-001 +4.9255139658E+000  +1.6415885182E-002 +1.8257410145E+001  +1.6266669209E-002 +2.6897228339E+001  +6.9269899649E-001 -1.3801921093E+000 
12273227.785 +6.9186838114E-001 +3.3592108192E+000  +1.5031571883E-002 +1.6713525776E+001  +1.6190102606E-002 +2.8642078371E+001  +7.0015461370E-001 +8.7161474012E-001 
12398372.966 +7.0683871196E-001 +5.0834281530E+000  +1.7884397359E-002 +1.4417875017E+001  +1.7705999010E-002 +3.0119270696E+001  +7.0634440948E-001 +2.2296374079E-001 
12523518.148 +7.0935290892E-001 +2.9935640649E+000  +1.8225687224E-002 +2.4763938766E+001  +1.7047792927E-002 +2.6777146921E+001  +7.2045201092E-001 +4.1299446427E-001 
12648663.329 +7.2025633227E-001 +2.0513593401E+000  +1.6128425713E-002 +2.0604356080E+001  +1.7712818387E-002 +2.6243128078E+001  +7.4022638711E-001 -1.0833703421E+000 
12773808.511 +7.5213789159E-001 +2.4204122135E+000  +1.7658704194E-002 +2.1344794540E+001  +1.8742594672E-002 +3.2725511327E+001  +7.6626438194E-001 +1.9750252444E+000 
12898953.692 +7.3886238522E-001 +2.2348705031E+000  +1.9631790961E-002 +1.8391698809E+001  +1.8006232737E-002 +2.8433934004E+001  +7.6569121672E-001 -9.0003760258E-001 
13024098.874 +7.5714912074E-001 +2.7596371754E-001  +1.6775109990E-002 +2.2618377730E+001  +2.0709530846E-002 +2.7617934768E+001  +7.7383552981E-001 -5.2875135172E-001 
13149244.055 +7.8588318277E-001 -4.3893851126E-001  +1.8544046305E-002 +1.8552215268E+001  +1.8671707449E-002 +2.3185461520E+001  +7.9017844865E-001 -1.9440738130E+000 
13274389.237 +8.1903885088E-001 -1.4581532775E+000  +1.9084227649E-002 +2.5674261212E+001  +1.8037155375E-002 +2.5745765996E+001  +8.2374526562E-001 -1.8158792298E+000 
13399534.418 +8.2212710029E-001 -2.0030466363E+000  +1.8928868524E-002 +1.9610265793E+001  +1.9269334673E-002 +2.4696369259E+001  +8.3274545869E-001 -3.0182381569E+000 
13524679.599 +8.2139343986E-001 -2.0378152851E-001  +1.8400429971E-002 +2.6866877215E+001  +1.7744282857E-002 +2.8708444525E+001  +8.4755964719E-001 -2.2403737634E+000 
13649824.781 +8.6722197562E-001 -1.8794938923E+000  +2.0072879420E-002 +2.2611349212E+001  +1.9539687295E-002 +2.9231751361E+001  +8.7865601380E-001 -3.2163494596E+000 
13774969.962 +8.7701646905E-001 -2.4661483675E+000  +1.9583149942E-002 +1.7725045071E+001  +1.9263707386E-002 +2.2291089055E+001  +8.6511976750E-001 -4.1158681614E+000 
13900115.144 +8.9621877311E-001 -3.7986022205E+000  +1.8730862132E-002 +2.5214002117E+001  +1.8298209749E-002 +2.2363340845E+001  +9.1427141095E-001 -4.4069238813E+000 
14025260.325 +9.0803205633E-001 -3.7199918004E+000  +1.9677423858E-002 +2.5565172153E+001  +1.8886353844E-002 +2.1386276350E+001  +9.1789846516E-001 -3.8581044575E+000 
14150405.507 +9.3794458951E-001 -4.8268273192E+000  +1.8729178411E-002 +2.3728573609E+001  +1.8103785951E-002 +2.3714330755E+001  +9.2791437971E-001 -4.8828733389E+000 
14275550.688 +9.3183038319E-001 -5.0103065558E+000  +2.0204196234E-002 +2.5338268460E+001  +1.8991041850E-002 +1.8152189996E+001  +9.5126392623E-001 -5.2635128940E+000 
14400695.870 +9.6823547925E-001 -4.5202307622E+000  +2.1340953625E-002 +2.0744896261E+001  +1.9648913410E-002 +2.2100486912E+001  +9.7282770016E-001 -5.0323129494E+000 
