!  2-Port S-parameters saved by WinCal
! VAR MeasName=S-Parameters (CALIBRATED_DATA) read from VNA (P5004A)
! VAR MeasDate=27/08/2024 16:11:50
! VAR NAME=S2_r1c9_SET1_9k-100M_2
! VAR FILENAME=S2_r1c9_SET1_9k-100M_2.S2P
! VAR DATE=27/08/2024 16:11:50
! VAR PHYS_PORTS=1,2
! VAR ObjTypeName=DATASET
! VAR IndexType=Frequency
!
# Hz S MA R 50
9000.000 +4.8147686078E-002 -1.1986118517E+002  +5.3332971007E-003 +8.5364069163E+001  +2.3144201497E-002 -9.0390485025E+001  +2.1523640610E-001 -1.4410807971E+002 
134145.181 +1.1102960644E-001 +1.6966556442E+002  +3.6752737249E-004 +6.4719128022E+001  +4.9659093318E-004 -1.4742672513E+002  +2.4165756681E-001 -1.7046454500E+002 
259290.363 +1.1181572576E-001 +1.6950930290E+002  +7.0072383549E-004 -7.2302654186E+001  +5.9653379958E-004 +6.1556029825E+001  +2.4674227675E-001 -1.7056287532E+002 
384435.544 +1.1370647552E-001 +1.7035081520E+002  +4.3482972859E-004 -8.8105028166E+001  +4.2464488617E-004 +9.0050847354E+000  +2.4546403374E-001 -1.6795506483E+002 
509580.726 +1.1385228036E-001 +1.7074279628E+002  +3.9005627248E-004 -1.0371501357E+002  +1.6801082777E-003 +2.1241393186E+001  +2.4949565529E-001 -1.6487913456E+002 
634725.907 +1.1608049669E-001 +1.7060702779E+002  +9.5285226443E-004 -1.5876152941E+002  +2.1215063598E-004 +3.7969238760E+001  +2.3982600574E-001 -1.6741810594E+002 
759871.089 +1.1917760501E-001 +1.7020686695E+002  +5.0315898950E-004 -5.6419600560E+001  +8.0480836945E-004 +4.9311533287E+001  +2.5108065334E-001 -1.6131041294E+002 
885016.270 +1.1695346688E-001 +1.6902590634E+002  +6.3133516413E-004 -2.2186182146E+001  +4.1390606334E-004 +1.4087667478E+002  +2.4198557575E-001 -1.6621201886E+002 
1010161.452 +1.1979415426E-001 +1.6947162039E+002  +3.7477951707E-003 -1.3355914008E+001  +1.2754370441E-004 +1.7182057009E+001  +1.1380510794E-001 -1.6813660072E+002 
1135306.633 +1.1849197755E-001 +1.6900731295E+002  +1.0041558369E-003 +1.1162665967E+000  +3.3636577844E-003 -1.7568287679E+002  +1.7827735518E-001 -1.6947478471E+002 
1260451.815 +1.2016522214E-001 +1.6975999421E+002  +1.2601368410E-003 -1.3444705570E+002  +3.1707948286E-003 -1.6631770572E+002  +2.2448394577E-001 -1.5415672071E+002 
1385596.996 +1.2627707231E-001 +1.7223739320E+002  +1.2416230435E-003 -1.1220879018E+002  +5.8176285574E-004 +9.8458111397E+001  +2.5287724978E-001 -1.5668168771E+002 
1510742.178 +1.2655682366E-001 +1.7218583140E+002  +1.0805015317E-003 -5.5138695111E+001  +5.2152613794E-004 -1.3271857454E+002  +2.4896352196E-001 -1.5800624601E+002 
1635887.359 +1.2938393653E-001 +1.7060971592E+002  +1.6757906488E-003 -1.4109012199E+001  +6.8436658162E-004 +1.4962691354E+002  +2.3668610049E-001 -1.5987114892E+002 
1761032.541 +1.2823717786E-001 +1.6961927525E+002  +2.6035677669E-003 -1.6880699991E+001  +1.1072585567E-003 -8.1814395273E+001  +2.0892972248E-001 -1.6131126126E+002 
1886177.722 +1.2978886510E-001 +1.6863013980E+002  +8.2496198157E-004 +3.1895004689E+001  +1.4351860489E-003 -1.1271077510E+002  +1.7207404727E-001 -1.6517383025E+002 
2011322.904 +1.2724164378E-001 +1.6714454428E+002  +2.7947127833E-003 +6.0545548529E+001  +4.6830207308E-003 -1.0012146517E+002  +1.8337486814E-001 -1.6164820209E+002 
2136468.085 +1.2999405640E-001 +1.6453595947E+002  +3.5467852786E-003 +1.1545925330E+002  +2.6396622323E-003 +2.0031262855E+000  +2.0752008851E-001 -1.7382335139E+002 
2261613.267 +1.2406175406E-001 +1.6828487705E+002  +9.7425175064E-003 +5.1136328343E+001  +7.7759677337E-003 -5.7520904861E+001  +1.9655983701E-001 +1.7401105526E+002 
2386758.448 +1.3314033891E-001 +1.6395810404E+002  +4.6369506239E-003 +6.8099656789E+001  +5.5811314461E-003 -7.6653376595E+000  +2.5219981190E-001 +1.7392645198E+002 
2511903.630 +1.3187191130E-001 +1.6319067628E+002  +8.1611029846E-003 +7.3922872869E+001  +6.7278663855E-003 -2.8752426393E+001  +2.0889058525E-001 +1.7660730867E+002 
2637048.811 +1.2304934055E-001 +1.5569343914E+002  +4.0762040335E-002 +5.7066205664E+001  +2.7433602966E-002 -2.2726204628E+001  +1.5732653913E-001 +1.0678558078E+002 
2762193.992 +1.2691606207E-001 +1.7565652683E+002  +4.2193537007E-002 +7.1392243602E+000  +3.4780841805E-002 -1.0081988172E+002  +1.7665578829E-001 +5.9391224357E+001 
2887339.174 +1.2939977513E-001 +1.7060427168E+002  +1.0419465337E-001 -1.1030398760E+002  +8.9145493406E-002 +1.3646358108E+002  +1.6021267997E+000 -1.1392648217E+002 
3012484.355 +1.3666993683E-001 +1.7522871326E+002  +3.4202652763E-002 -8.5471685482E+001  +2.5091640962E-002 -1.5439340694E+002  +4.9529534085E-001 -9.8157770972E+001 
3137629.537 +1.0857520818E-001 +1.7322498022E+002  +5.4574801591E-002 -7.8779080365E-001  +7.8079166431E-002 -8.9564068236E+001  +2.4152155673E-001 -3.4973164890E+000 
3262774.718 +1.2862336182E-001 +1.5916854344E+002  +5.0605706628E-002 +2.1645349399E+001  +4.2996931086E-002 -4.6587717014E+001  +2.2418275504E-001 -2.5146148022E+001 
3387919.900 +1.3635839986E-001 +1.5857230522E+002  +4.6249948781E-002 +3.8118421657E+001  +3.5531357712E-002 -5.9497138538E+001  +1.9397144034E-001 +4.3702236827E+001 
3513065.081 +1.5168622734E-001 +1.5570321573E+002  +5.4823309477E-002 +3.2774817235E+001  +2.9566757487E-002 -6.6386739615E+001  +2.3175775313E-001 +8.5729456170E+000 
3638210.263 +1.8573078800E-001 +1.5310929922E+002  +3.7217133616E-002 +1.6954765634E+002  +2.7558267042E-002 +9.2986919490E+001  +7.9344665369E-001 +1.6066679474E+002 
3763355.444 +1.4706296198E-001 +1.3306903981E+002  +6.1178497390E-002 +5.5037247364E+001  +6.3294977678E-002 -1.2277285307E+001  +2.5604474015E-001 +5.2939933815E+001 
3888500.626 +1.4288762690E-001 +1.5141559593E+002  +6.8630441727E-002 +6.9076306682E+001  +7.2517778799E-002 -1.5623371384E+001  +4.9390054633E-001 +8.2354535989E+001 
4013645.807 +1.7445115027E-001 +1.5442820122E+002  +3.5884828868E-002 +8.4016460068E+001  +3.2504310750E-002 +2.1596826122E+001  +5.1632949447E-001 +1.2353969901E+002 
4138790.989 +1.9211218786E-001 +1.5224659489E+002  +4.1936859899E-002 +7.4722314683E+001  +3.9232107061E-002 +2.7116475565E+001  +3.6597190035E-001 +1.2108210145E+002 
4263936.170 +2.3255743725E-001 +1.4781590695E+002  +5.4770931640E-002 +1.0188188554E+002  +5.0571517196E-002 +3.8016431826E+001  +5.7463675219E-001 +1.0151670835E+002 
4389081.352 +2.3522292121E-001 +1.3682881144E+002  +1.0960134123E-001 +1.0436332765E+002  +1.0452866288E-001 +3.3679335421E+001  +1.0159723948E+000 +9.4544155686E+001 
4514226.533 +2.2615252728E-001 +1.2850583454E+002  +9.0771895995E-002 +9.2461531244E+001  +9.3320057277E-002 +3.8494072696E+001  +6.7752294539E-001 +9.5803095607E+001 
4639371.715 +2.9544160512E-001 +1.3771821696E+002  +1.1380521840E-001 +1.1499003499E+002  +1.0690960771E-001 +6.3031721387E+001  +1.0528979784E+000 +9.3828203703E+001 
4764516.896 +3.0580853014E-001 +1.3048713771E+002  +1.9652665899E-001 +1.4418969418E+002  +1.5578122322E-001 +9.1639543416E+001  +1.9635562427E+000 +1.2641716611E+002 
4889662.078 +3.3514734882E-001 +1.3007736051E+002  +1.4442736484E-001 +8.0816931707E+001  +1.5803120794E-001 +2.4504749162E+001  +1.2324905620E+000 +3.6062196641E+001 
5014807.259 +3.3801954446E-001 +1.3343112790E+002  +1.5766241875E-001 -1.1469323962E+002  +2.0972473046E-001 -1.7836637905E+002  +2.9591542044E+000 -1.5900238774E+002 
5139952.441 +1.5405860457E-001 +1.2922298059E+002  +2.4683191320E+000 -6.0029956448E+001  +2.1221788704E+000 -1.0543833058E+002  +2.2222511467E+001 -1.0722275980E+002 
5265097.622 +3.6905439869E-001 +1.3180599367E+002  +3.5698665615E-001 +9.9840250603E+001  +3.4962766866E-001 +6.7204097906E+001  +4.6779493976E+000 +8.3064371316E+001 
5390242.804 +4.0171766870E-001 +1.3069356065E+002  +1.1045666472E-001 +1.0294074225E+002  +9.5317220591E-002 +6.9988496264E+001  +9.6325737748E-001 +9.8810713611E+001 
5515387.985 +4.4421965231E-001 +1.3293689556E+002  +1.1194386869E-001 +1.2767911902E+002  +1.0682964593E-001 +8.5653111472E+001  +1.4725726097E+000 +1.1211335678E+002 
5640533.166 +4.2103499539E-001 +1.3637817301E+002  +8.3612636546E-002 +1.0781180214E+002  +8.2065146163E-002 +8.4471502073E+001  +1.2836828302E+000 +1.1385983195E+002 
5765678.348 +5.4263373836E-001 +1.2851134630E+002  +1.2769051842E-001 +1.0491962470E+002  +1.0978291148E-001 +8.1646555920E+001  +1.3220753413E+000 +9.6845256483E+001 
5890823.529 +4.9383566616E-001 +1.1893340721E+002  +1.3310756555E-001 +7.4525093049E+001  +1.4918939004E-001 +5.2308600852E+001  +1.2498821552E+000 +7.5279570417E+001 
6015968.711 +5.3030558087E-001 +1.2074576031E+002  +1.3744099197E-001 +6.2545199392E+001  +1.2365038258E-001 +4.0643070385E+001  +1.2230175927E+000 +4.5963885073E+001 
6141113.892 +6.5728834387E-001 +1.0498567281E+002  +1.7637418095E-001 +5.1756044851E+001  +1.7509924816E-001 +3.0932411772E+001  +1.1357036528E+000 +3.7211018310E+001 
6266259.074 +7.5571379609E-001 +1.1038125994E+002  +1.4313667278E-001 +5.5881482966E+001  +1.5475099132E-001 +4.5121804213E+001  +1.1346558166E+000 +3.2573331456E+001 
6391404.255 +7.9021393137E-001 +9.3754312136E+001  +2.2655374893E-001 +4.4411474252E+001  +2.0779478289E-001 +2.9045864743E+001  +1.9131376634E+000 +2.5678029586E+001 
6516549.437 +1.0965210733E+000 +8.3086769830E+001  +2.1499566802E-001 +5.1392939710E+001  +2.3627529455E-001 +3.9940640807E+001  +1.4597932006E+000 +3.9590620620E+001 
6641694.618 +1.3809511162E+000 +7.6167201280E+001  +2.2295142256E-001 +3.9497970489E+001  +2.0249156670E-001 +2.9381341094E+001  +1.0247409665E+000 +8.5548827418E+000 
6766839.800 +9.1752414844E-001 +4.8548839871E+001  +1.8410772907E-001 +9.7514210370E+000  +1.8783592439E-001 +6.5213853190E-001  +1.2721948307E+000 +8.9538388646E+000 
6891984.981 +1.7441792673E+000 +1.7285729205E+001  +2.7408237778E-001 +6.6450321992E-001  +2.5364976774E-001 -2.6746617458E+000  +1.2284633760E+000 +1.3088578895E+000 
7017130.163 +1.4568051311E+000 +1.5002924339E+001  +1.9705145322E-001 +3.8411802903E-001  +1.9454445309E-001 -2.7665223869E+000  +1.1155086475E+000 -1.3246618924E+001 
7142275.344 +1.7610450912E+000 +7.6615587108E+000  +1.9615457702E-001 +5.4475594933E+000  +1.9269727471E-001 +1.7825929513E+000  +1.1904421585E+000 -3.9384016980E+000 
7267420.526 +1.3631521863E+000 -1.7911854928E+000  +1.4634390449E-001 -7.3368704325E-001  +1.5591998705E-001 -5.5284238401E+000  +1.2810547965E+000 -1.6475397834E+001 
7392565.707 +1.2366684020E+000 +8.9387681327E-001  +1.0901668832E-001 +1.0080492030E+001  +1.2552789945E-001 +5.2698682686E+000  +1.1848121399E+000 -3.2451694756E+000 
7517710.889 +1.1778341468E+000 +1.9445787299E+000  +1.1026006665E-001 +1.2695647369E+001  +1.1306722165E-001 +1.1930593269E+001  +1.1229841252E+000 -9.5803754431E+000 
7642856.070 +9.7266190160E-001 +1.2986952108E+000  +1.0264367683E-001 +6.1075962997E+000  +1.0070455076E-001 +8.3504740507E+000  +9.8831609032E-001 -3.9193645732E+000 
7768001.252 +8.9383273834E-001 +1.2046327671E+001  +9.2287952918E-002 +1.6564855340E+000  +9.5058690058E-002 +3.9265273101E+000  +8.6837808746E-001 +2.0027839289E+000 
7893146.433 +8.1330565520E-001 +8.3830407728E+000  +9.2474917590E-002 +2.2177047492E+000  +9.0861000905E-002 +5.2487951808E+000  +7.9275987922E-001 -5.3672406118E+000 
8018291.615 +7.9663439763E-001 +1.4075177079E+001  +9.1331014781E-002 -3.9702647303E-001  +9.2439453304E-002 +1.1141785128E+001  +7.4140494813E-001 -4.6904552620E+000 
8143436.796 +7.1856393523E-001 +1.0929506950E+001  +8.9467482671E-002 +1.5232191156E+000  +8.4756702978E-002 +9.1293919339E+000  +7.4278822975E-001 +4.1249274385E+000 
8268581.977 +6.5078246105E-001 +1.7610511696E+000  +8.5992031068E-002 -3.0014792534E+000  +8.4364221710E-002 +5.5716255577E+000  +5.9366818946E-001 +1.5713438406E+000 
8393727.159 +5.7860674426E-001 +2.0325175810E+000  +8.2119036132E-002 -3.8285705779E+000  +8.0391698363E-002 +1.1280130654E+001  +6.3453545511E-001 -4.9339309737E+000 
8518872.340 +5.9351820248E-001 +9.5497530192E+000  +8.2145241762E-002 +9.6283349758E-001  +8.0194733046E-002 +1.0148451650E+001  +6.7007901948E-001 +7.1419200361E+000 
8644017.522 +5.8176449418E-001 +1.3236516286E+001  +7.8638714956E-002 +7.4475902698E-001  +7.8006699959E-002 +8.4018589501E+000  +5.9881738016E-001 +6.8214287261E+000 
8769162.703 +5.9056273845E-001 +9.6595758205E+000  +7.8358713880E-002 -5.0141501839E+000  +8.1741231874E-002 +1.2299304077E+001  +6.3263089022E-001 +8.4859484033E-001 
8894307.885 +5.6201867037E-001 +4.2279953333E+000  +8.0157224486E-002 +9.6742199131E-001  +8.3880148947E-002 +1.1166603789E+001  +5.5625890592E-001 -4.7354799131E+000 
9019453.066 +5.0945696028E-001 +9.3423691966E+000  +8.1102613828E-002 -3.0991844113E+000  +7.6838913575E-002 +1.3510453039E+001  +5.3602935871E-001 -1.2300465421E+000 
9144598.248 +4.8855254462E-001 +4.5615743342E+000  +7.6606709696E-002 -4.0390442964E+000  +7.7195039767E-002 +1.3837016082E+001  +5.4703052987E-001 +2.4767444412E+000 
9269743.429 +5.2064416584E-001 -1.9550501467E+000  +8.0826479224E-002 -4.8108100064E-001  +8.0500955657E-002 +1.0238329599E+001  +5.3926924966E-001 -3.9218513884E+000 
9394888.611 +4.9920502549E-001 +7.4187672043E+000  +7.8476946092E-002 -2.7096205436E+000  +7.4183558468E-002 +1.5580378609E+001  +4.8466686096E-001 -4.4706578840E+000 
9520033.792 +4.6064096074E-001 +6.3210449471E+000  +8.0527284063E-002 -1.3992955231E+000  +7.8737190033E-002 +1.4780498321E+001  +4.8714235728E-001 -2.2641598167E+000 
9645178.974 +4.8319004740E-001 +3.5644582302E+000  +7.7922534967E-002 -3.6024398146E+000  +8.0059634004E-002 +1.4122444825E+001  +5.0510381550E-001 -8.0000551218E+000 
9770324.155 +4.7177328607E-001 +3.6026846189E+000  +7.9837925256E-002 -1.3460432769E+000  +7.9158799838E-002 +1.4244469889E+001  +5.2511919439E-001 -4.0064594271E+000 
9895469.337 +4.5862614662E-001 +4.9535757089E+000  +7.9750740870E-002 -2.2589641189E+000  +7.9434563678E-002 +1.2028521341E+001  +4.5215045454E-001 -6.3132840062E+000 
10020614.518 +4.8674640384E-001 -2.3647710867E-001  +8.1787758280E-002 -2.6093789971E+000  +8.1853611732E-002 +1.3646046737E+001  +4.5987127726E-001 -2.7116779875E+000 
10145759.700 +4.7566248432E-001 +2.5516884217E+000  +7.9596030205E-002 -1.9543631406E+000  +7.9875653978E-002 +1.4841104676E+001  +5.1767585122E-001 -6.0085688805E-001 
10270904.881 +4.7395885279E-001 +9.3684377769E+000  +7.7854563152E-002 +9.0537948552E-001  +7.8908501885E-002 +1.4162150664E+001  +4.9569449359E-001 -2.4725634030E+000 
10396050.063 +5.0807067734E-001 +4.8601583680E+000  +8.0260120382E-002 +7.3981920595E-001  +7.9466302221E-002 +1.5874440166E+001  +4.9869964989E-001 +6.1022528504E-002 
10521195.244 +4.7225944989E-001 +7.3789582139E+000  +8.1555748020E-002 -1.7099105622E+000  +8.1114653818E-002 +1.4556729584E+001  +5.2977652871E-001 -7.3200896998E-002 
10646340.426 +4.6140601150E-001 +8.3546478759E+000  +8.1263105901E-002 -9.6297295506E-001  +7.9014781065E-002 +1.4560643966E+001  +5.2675792945E-001 -6.7790107624E-001 
10771485.607 +4.6228929229E-001 +1.1953460804E+001  +7.8155772557E-002 -3.4140432501E-001  +8.0637879759E-002 +1.5554505759E+001  +5.1863138473E-001 +3.0706446714E+000 
10896630.788 +4.7987121563E-001 +6.5406530388E+000  +8.3179199391E-002 +2.2146927661E+000  +8.2447678467E-002 +1.5407484807E+001  +5.0599859992E-001 -1.7500759217E+000 
11021775.970 +4.9929964492E-001 +8.5829584035E+000  +8.2533454163E-002 +1.4201713200E+000  +8.2683625766E-002 +1.4867141699E+001  +5.6413917006E-001 -3.4210222335E-001 
11146921.151 +5.2589705661E-001 +6.5384030759E+000  +8.5250635417E-002 +1.3558539037E+000  +8.3616568616E-002 +1.4952929186E+001  +5.0429566342E-001 +9.9637352321E-001 
11272066.333 +5.3682675394E-001 +5.9598862869E+000  +8.2785133054E-002 +1.2517239462E+000  +8.3252063919E-002 +1.5797559160E+001  +5.3809880884E-001 +4.1784175975E+000 
11397211.514 +5.1858611230E-001 +7.8888983660E+000  +8.4699843150E-002 +6.2043556375E-001  +8.2642287287E-002 +1.3693633632E+001  +5.2738845634E-001 +3.1160453136E+000 
11522356.696 +5.5601865823E-001 +7.5364738210E+000  +8.4544895280E-002 +4.2827444132E+000  +8.4090321132E-002 +1.5928632107E+001  +5.5901827732E-001 +2.1434872747E+000 
11647501.877 +5.6695081404E-001 +6.0864148498E+000  +8.5199336716E-002 +3.3171583406E+000  +8.7246167123E-002 +1.4710086598E+001  +5.5911708293E-001 +3.8698546173E+000 
11772647.059 +5.3058329983E-001 +5.9969896976E+000  +8.6776817834E-002 +3.4875970385E+000  +8.5206877976E-002 +1.4142049969E+001  +5.9801204351E-001 +1.9831410866E+000 
11897792.240 +5.6198451983E-001 +6.9260526437E+000  +9.0064846492E-002 +4.4193478787E+000  +8.7248467953E-002 +1.3613732403E+001  +6.0701496967E-001 +4.6441445906E+000 
12022937.422 +5.7282398299E-001 +6.6442727974E+000  +9.1733384069E-002 +4.3149356336E+000  +8.9767248796E-002 +1.4436915221E+001  +6.2297001267E-001 -1.3371874824E-001 
12148082.603 +6.0332645700E-001 +5.0479925887E+000  +8.8756714696E-002 +3.1845264275E+000  +9.1133500587E-002 +1.3381336170E+001  +5.8079746587E-001 -8.9565599587E-001 
12273227.785 +5.9907823296E-001 +3.8164596047E+000  +9.2852065684E-002 +3.7226510562E+000  +9.0367253410E-002 +1.3030746485E+001  +6.1956710583E-001 +3.0040739644E+000 
12398372.966 +6.0296877570E-001 +5.6505648382E+000  +9.0885154370E-002 +6.1328379109E+000  +9.0781383963E-002 +1.3627184999E+001  +6.1334024644E-001 +3.1730394913E-001 
12523518.148 +6.1120802756E-001 +2.3394981343E+000  +9.2212063922E-002 +5.5675831965E+000  +9.4841847882E-002 +1.3354145883E+001  +6.3708628448E-001 +8.5505399713E-001 
12648663.329 +6.1023331891E-001 +4.2061678508E+000  +9.4451725151E-002 +4.3657224053E+000  +9.4455638256E-002 +1.2567701593E+001  +6.5257081081E-001 +7.5273098766E-002 
12773808.511 +6.5065267467E-001 +2.2747989986E+000  +9.4251526052E-002 +5.8739518564E+000  +9.5420549965E-002 +1.1738440512E+001  +6.7165079576E-001 -1.3574684945E+000 
12898953.692 +6.6745591742E-001 +3.4754808056E+000  +9.5395796955E-002 +5.9623174129E+000  +9.6389396560E-002 +1.1764727530E+001  +6.9613460474E-001 -1.9192255517E+000 
13024098.874 +6.7025671608E-001 +2.5691212401E+000  +9.8306863362E-002 +6.5563955227E+000  +9.6901098123E-002 +1.1661209365E+001  +7.0904373699E-001 -1.0339603924E+000 
13149244.055 +7.2214054316E-001 +2.4633679613E+000  +9.8697742412E-002 +6.0375521619E+000  +9.9046954763E-002 +1.0699889345E+001  +7.0549805543E-001 -1.5286231132E+000 
13274389.237 +7.0908398397E-001 -1.5045088356E+000  +1.0015291781E-001 +5.1918079084E+000  +1.0017312603E-001 +9.6009957325E+000  +7.3034839000E-001 -2.2397230862E+000 
13399534.418 +7.3331567806E-001 -2.7189411253E-001  +1.0185242724E-001 +6.2702612390E+000  +9.8576421587E-002 +9.2191591419E+000  +7.3855316428E-001 -1.1349669540E+000 
13524679.599 +7.6692201237E-001 -1.3040092702E+000  +1.0306476957E-001 +6.1708150164E+000  +1.0124383296E-001 +9.0952270337E+000  +7.5469196466E-001 -3.0608402287E+000 
13649824.781 +7.7149845325E-001 -1.9127755631E+000  +1.0231507738E-001 +6.5576380080E+000  +1.0054405651E-001 +8.5600581908E+000  +7.7332335979E-001 -2.6155296189E+000 
13774969.962 +7.9635874663E-001 -2.1922520573E+000  +1.0246457395E-001 +6.8673323459E+000  +1.0211659594E-001 +7.7321790838E+000  +7.9406347656E-001 -1.7108158648E+000 
13900115.144 +8.1678853251E-001 -3.4822826181E+000  +1.0557033688E-001 +6.5614968721E+000  +1.0387314605E-001 +7.7022351028E+000  +8.1173459441E-001 -5.2990798998E+000 
14025260.325 +8.1095021514E-001 -3.1419704437E+000  +1.0413097986E-001 +5.3510575827E+000  +1.0302991413E-001 +6.9382566326E+000  +8.2214603415E-001 -4.3707334138E+000 
14150405.507 +8.2456356243E-001 -4.6156923662E+000  +1.0565460911E-001 +6.1973819901E+000  +1.0285766810E-001 +7.1271279654E+000  +8.5487210371E-001 -4.1724273794E+000 
14275550.688 +8.4294725183E-001 -3.2448241818E+000  +1.0477806452E-001 +6.0097665257E+000  +1.0333829871E-001 +6.2944312252E+000  +8.5419031498E-001 -4.3688096513E+000 
14400695.870 +8.4612041839E-001 -4.9688610892E+000  +1.0641543239E-001 +5.2431134444E+000  +1.0625501824E-001 +5.9494843124E+000  +8.7624624266E-001 -5.2222338187E+000 
