!  2-Port S-parameters saved by WinCal
! VAR MeasName=S-Parameters (CALIBRATED_DATA) read from VNA (P5004A)
! VAR MeasDate=27/08/2024 15:01:12
! VAR NAME=S2_r3c8_SET1_9k-100M_1
! VAR FILENAME=S2_r3c8_SET1_9k-100M_1.S2P
! VAR DATE=27/08/2024 15:01:12
! VAR PHYS_PORTS=1,2
! VAR ObjTypeName=DATASET
! VAR IndexType=Frequency
!
# Hz S MA R 50
9000.000 +7.8464422177E-002 -1.5937910098E+002  +2.0790115071E-002 -7.1853891124E+001  +2.3832806819E-002 -1.6155653826E+002  +7.7407635174E-001 -9.7453886655E+001 
134145.181 +1.1061438057E-001 +1.6954015750E+002  +2.0218309612E-004 -4.3435866416E+001  +4.6874620157E-004 +1.4043027026E+002  +2.3477366891E-001 -1.7126399038E+002 
259290.363 +1.1221367805E-001 +1.6960578059E+002  +6.9100035136E-004 +1.7487476353E+002  +1.5890943072E-004 -1.2141331366E+002  +2.3259884333E-001 -1.6786822719E+002 
384435.544 +1.1338750326E-001 +1.7013134820E+002  +1.0415270731E-003 +1.5465644032E+002  +3.1868862569E-004 +1.2317928277E+002  +2.4572923080E-001 -1.6965764740E+002 
509580.726 +1.1444290632E-001 +1.7228863825E+002  +7.7109123885E-004 +1.0878771871E+002  +1.1919837103E-003 +4.3000959750E+001  +2.4737603878E-001 -1.6677007702E+002 
634725.907 +1.1637163992E-001 +1.7118867545E+002  +6.7816300467E-004 -1.6175388365E+002  +8.9231707084E-004 +1.0647456442E+002  +2.3949750441E-001 -1.6637274887E+002 
759871.089 +1.1685478060E-001 +1.7100777274E+002  +3.4161421777E-004 +5.2725511186E+001  +8.1500379364E-004 +1.2805546173E+002  +2.4870927521E-001 -1.6451815494E+002 
885016.270 +1.1931942583E-001 +1.6958289194E+002  +4.4298219152E-005 -2.2340480728E+001  +1.2528109475E-003 +1.7299410348E+002  +2.3686027206E-001 -1.6345992962E+002 
1010161.452 +1.1817468899E-001 +1.6972891784E+002  +7.0026209240E-004 +3.6437906712E+001  +1.0136396980E-003 +1.7773615631E+002  +1.9819871788E-001 -1.7021674645E+002 
1135306.633 +1.1520635829E-001 +1.7309964983E+002  +1.6343865101E-003 +1.0590055134E+002  +4.5460114860E-003 -1.6668695781E+002  +1.4228355612E-001 +1.6966832448E+002 
1260451.815 +1.1751069530E-001 +1.7102684232E+002  +1.0435914379E-003 -9.7694328382E+001  +1.0794252259E-003 -3.2660719105E+001  +2.3012889454E-001 -1.5863557295E+002 
1385596.996 +1.2594387848E-001 +1.7219691285E+002  +2.5727069119E-004 -1.1033994507E+002  +1.1793599450E-003 +5.3577455841E+001  +2.5719569678E-001 -1.5829199893E+002 
1510742.178 +1.2964224623E-001 +1.7124107190E+002  +6.5363525352E-004 +1.2202508643E+001  +1.4346362813E-003 +1.2317357503E+002  +2.5816487148E-001 -1.5932404575E+002 
1635887.359 +1.2715732825E-001 +1.7052070371E+002  +1.1107384635E-003 -1.6897756522E+002  +8.8593807398E-004 +2.2049615377E+001  +2.5273404131E-001 -1.5707085529E+002 
1761032.541 +1.3050272311E-001 +1.6874034271E+002  +1.5323016251E-003 +6.0334730916E+001  +1.2217131715E-003 -7.6307579599E+001  +2.1152811201E-001 -1.6580874819E+002 
1886177.722 +1.2885882878E-001 +1.6784051185E+002  +8.2069616404E-004 -1.5525061385E+002  +2.1264016485E-003 -8.1704155853E+001  +2.0129013629E-001 -1.6253500569E+002 
2011322.904 +1.2601955507E-001 +1.6565628004E+002  +1.4312002702E-003 +1.5062391374E+002  +6.8828940725E-003 -6.0555604360E+000  +1.2843317310E-001 -1.7842062534E+002 
2136468.085 +1.2554445851E-001 +1.6770550456E+002  +7.2892507723E-003 +2.5310280439E+001  +4.9224262645E-003 -1.0701506395E+002  +1.8829805795E-001 -1.7862421479E+002 
2261613.267 +1.3312098835E-001 +1.6534308964E+002  +2.1104616547E-003 +1.7529664834E+001  +3.3912753397E-003 -3.5738533720E+001  +2.1013745443E-001 -1.6655564769E+002 
2386758.448 +1.2940822157E-001 +1.5915032411E+002  +1.2465514260E-002 +9.1853109665E+001  +6.7391284113E-003 -3.9615960456E+001  +1.1812393460E-001 +1.6790916984E+002 
2511903.630 +1.0938980714E-001 +1.6766742924E+002  +9.4491493687E-003 +4.2509809819E+001  +1.7864501746E-002 -4.5835388735E+001  +1.4005043102E-001 +1.7638137925E+002 
2637048.811 +1.2007770274E-001 +1.5471346775E+002  +1.8710157025E-002 +1.0027902810E+002  +2.2278833531E-002 -2.5798939942E+001  +2.2964774957E-001 +1.5536228520E+002 
2762193.992 +1.1831198334E-001 +1.5133795061E+002  +3.1220885706E-002 +1.3671533759E+002  +4.0395173436E-002 +2.1595425802E+001  +5.1827352800E-001 +1.4562496616E+002 
2887339.174 +1.2950572315E-001 +1.6703222797E+002  +1.2283060596E-002 -1.3399220414E+001  +1.3596767372E-002 -1.2634109180E+002  +3.6118506301E-001 -9.7010069831E+001 
3012484.355 +1.1169728759E-001 +1.6925738278E+002  +2.0738551816E-002 -1.1806701517E+002  +1.1462203301E-002 +1.4613811963E+002  +6.1134288811E-001 -1.1121951467E+002 
3137629.537 +1.2658611403E-001 +1.5106436011E+002  +8.1202177473E-003 -2.6215710874E+001  +1.6368120476E-002 -9.3428480029E+001  +2.1055843177E-001 -8.0164619084E+001 
3262774.718 +1.1704925395E-001 +1.5953500262E+002  +2.6785820917E-002 -8.4616204950E+001  +5.3835527662E-002 -1.4802171058E+002  +5.9562346282E-001 -8.1518559285E+001 
3387919.900 +1.4536359335E-001 +1.6202950552E+002  +1.6332860969E-002 -1.7503295219E+001  +1.2747224449E-002 -8.0917805315E+001  +2.2407503188E-001 -8.8522010606E+001 
3513065.081 +1.2347510923E-001 +1.4079037786E+002  +3.1308160148E-002 +2.1068161516E+001  +6.3211465095E-002 -4.3450439129E+001  +5.5810841153E-001 +3.1236343075E+001 
3638210.263 +1.4915687063E-001 +1.3607339119E+002  +3.1515328681E-002 +1.1947270296E+002  +4.2669599673E-002 +2.2341147334E+001  +9.2104757610E-001 +1.3686398552E+002 
3763355.444 +1.6176340873E-001 +1.4671501946E+002  +2.3745711158E-002 +1.0346004752E+002  +1.3980000847E-002 +3.2306440126E+001  +4.3944579030E-001 +1.4883089718E+002 
3888500.626 +1.8137469542E-001 +1.4599134075E+002  +2.6410653350E-002 +9.1997453289E+001  +1.6554081658E-002 +2.5217723050E+001  +5.0006733892E-001 +1.4073581152E+002 
4013645.807 +1.2779207154E-001 +1.4687181042E+002  +1.1697764737E-002 +5.7762926184E+001  +2.7452950263E-002 +8.3237260161E+000  +3.4136370274E-001 +1.5409964135E+002 
4138790.989 +1.9267298710E-001 +1.5086769915E+002  +6.3338000850E-002 +9.3460288695E+001  +3.5997978253E-002 +1.3247022667E+001  +8.9386348575E-001 +7.8872776884E+001 
4263936.170 +2.0492622161E-001 +1.4157755469E+002  +2.4810445988E-002 +9.5897499274E+001  +3.4946598135E-002 +4.9237936784E+001  +5.0219758293E-001 +1.2153268320E+002 
4389081.352 +2.1825288514E-001 +1.4540501499E+002  +2.4042177327E-002 +1.0467975931E+002  +2.4104629587E-002 +3.7728101435E+001  +5.1229428315E-001 +1.3342110969E+002 
4514226.533 +2.7922812151E-001 +1.3327178595E+002  +6.3111234217E-002 +9.4556229015E+001  +6.8074388460E-002 +2.0565791366E+001  +6.4307277611E-001 +7.5834622150E+001 
4639371.715 +2.9706425192E-001 +1.2563437640E+002  +1.9126892326E-001 +9.7571808011E+001  +2.2098371410E-001 +1.9020167648E+001  +2.7922071480E+000 +6.0363244623E+001 
4764516.896 +3.1486292371E-001 +1.3095982105E+002  +1.8423090971E-001 -8.7676225454E+001  +1.5516483079E-001 -1.3303737360E+002  +4.1139877846E+000 -1.2717808668E+002 
4889662.078 +4.4066143810E-001 +1.3311598894E+002  +1.4348686312E-001 +1.1743861828E+002  +1.5082010693E-001 +6.7026403068E+001  +1.8472855199E+000 +6.4880363862E+001 
5014807.259 +4.4993955755E-001 +1.3092274674E+002  +2.2875995553E-001 +8.0303498796E+000  +3.6250634181E-001 -2.9969304816E-001  +5.3255278499E+000 -4.8938819841E+001 
5139952.441 +3.0762362604E-001 +1.2276824009E+002  +9.7775022040E-001 +3.0393973435E+001  +8.6317375039E-001 -3.9831295738E+001  +1.9695438317E+001 -2.3143650001E+000 
5265097.622 +3.6541390035E-001 +1.3640703749E+002  +1.0273162773E-001 +1.0162839974E+002  +1.0533028135E-001 +7.9683947297E+001  +2.8075606515E+000 +8.9856621281E+001 
5390242.804 +4.4399941021E-001 +1.2715327665E+002  +1.1140491764E-001 +1.3649639227E+002  +1.0493868627E-001 +9.2550467272E+001  +1.9573167056E+000 +1.0624377164E+002 
5515387.985 +3.9315117010E-001 +1.3514493598E+002  +7.7165138186E-002 +9.6878823525E+001  +8.3744324566E-002 +6.1714899086E+001  +1.4519313701E+000 +9.2635838459E+001 
5640533.166 +4.5754637076E-001 +1.2051337559E+002  +1.0396447588E-001 +1.0461378305E+002  +1.0292934287E-001 +8.3328660545E+001  +1.6926969986E+000 +1.0526428660E+002 
5765678.348 +4.7840675114E-001 +1.2971103270E+002  +9.3304187836E-002 +1.0804523768E+002  +9.5356125288E-002 +8.7631417463E+001  +2.0102860460E+000 +1.0407898499E+002 
5890823.529 +4.9588538354E-001 +1.2294084715E+002  +9.0094605332E-002 +6.4424878016E+001  +8.8398227740E-002 +5.9646920990E+001  +1.5601406875E+000 +6.3209824460E+001 
6015968.711 +5.0765070790E-001 +1.1152549769E+002  +1.0104150683E-001 +6.8418232640E+001  +1.1137425300E-001 +5.4990854352E+001  +1.7562101061E+000 +6.0447301879E+001 
6141113.892 +7.2259748735E-001 +1.1372623108E+002  +1.1369074144E-001 +6.6963081748E+001  +1.1177269454E-001 +4.5445065167E+001  +1.4180841933E+000 +5.0460845435E+001 
6266259.074 +8.5870957806E-001 +9.9432002469E+001  +1.5644048048E-001 +5.1305694598E+001  +1.4329069908E-001 +3.3602255428E+001  +1.8390707075E+000 +3.4517812565E+001 
6391404.255 +9.3149879213E-001 +9.5940318943E+001  +1.3197564571E-001 +3.5892074375E+001  +1.2100312187E-001 +2.1009896003E+001  +1.7799490829E+000 +4.5299262492E+000 
6516549.437 +9.7794775906E-001 +7.6880935911E+001  +1.3250590572E-001 +2.8159094986E+001  +1.3208218590E-001 +1.1038245665E+001  +1.6146157699E+000 +2.0373336273E+001 
6641694.618 +1.8557656448E+000 +8.1315500551E+001  +1.7511504722E-001 +4.1171927211E+001  +1.8229131496E-001 +2.8431124767E+001  +1.5818678521E+000 +1.6139609977E+000 
6766839.800 +1.6596689373E+000 +5.2489814609E+001  +1.5465931726E-001 +1.7230901004E+001  +1.6135620497E-001 +1.0804526160E+001  +1.1214101365E+000 -7.9302418840E-001 
6891984.981 +1.8353605155E+000 +3.4061070653E+001  +1.3309502986E-001 +1.2626562647E+001  +1.3806512617E-001 -4.6457908536E+000  +1.0545558043E+000 -6.5948728438E+000 
7017130.163 +1.2336527836E+000 +1.6824595415E+001  +9.0219235418E-002 -3.8394015317E+000  +1.1290887794E-001 -5.0259651873E+000  +1.1987348407E+000 -8.7980859365E+000 
7142275.344 +1.3771217864E+000 +7.8667633810E+000  +7.5917450513E-002 +1.0207058928E+001  +9.2499687607E-002 -3.6767641062E+000  +1.2344552766E+000 -8.7808488741E+000 
7267420.526 +1.3603031632E+000 +7.1399264066E-001  +9.2101002380E-002 +3.8138185092E+000  +8.3495144408E-002 +8.6105804884E+000  +1.1691143002E+000 -1.3054804775E+001 
7392565.707 +1.2081201737E+000 -2.2523407678E+000  +7.2709215638E-002 +9.1583470075E+000  +6.7654638235E-002 +1.0963709440E+001  +1.3490113202E+000 -5.1297899780E+000 
7517710.889 +1.1262388269E+000 -2.6930443898E+000  +6.3438528437E-002 +3.1567844211E+000  +6.4986683734E-002 +6.9085208853E+000  +1.0996570613E+000 -2.7025792987E+000 
7642856.070 +9.4827530187E-001 -2.9294122176E+000  +6.5985483609E-002 -1.5375446414E+000  +6.3389891388E-002 +7.6836396898E+000  +9.2283643139E-001 -3.2465371606E+000 
7768001.252 +9.2154764172E-001 +1.5525554680E+000  +5.4347816946E-002 +5.7211684164E+000  +6.2229615959E-002 +7.0255233443E+000  +9.0304477802E-001 +2.2243030090E+000 
7893146.433 +8.7259182962E-001 +3.1564393763E+000  +5.2650238501E-002 +3.2491384802E+000  +4.9901011282E-002 +9.0125025607E+000  +8.9750203984E-001 -1.6123342525E+000 
8018291.615 +7.3606021377E-001 +4.9018523146E+000  +5.1481785560E-002 +2.4803852825E+000  +5.1641517474E-002 +6.3580602910E+000  +8.4790946784E-001 -2.1939970156E+000 
8143436.796 +7.5242851769E-001 +6.9164993045E-001  +4.7787470406E-002 +3.6722989380E+000  +5.9798183438E-002 +9.5115580984E+000  +7.4804326623E-001 -2.1933292797E+000 
8268581.977 +7.3620680831E-001 +4.6647297774E+000  +4.9328001935E-002 -7.2815166958E-002  +4.8836876812E-002 +9.9404708910E+000  +7.2282423919E-001 -2.6208007235E+000 
8393727.159 +7.0620937335E-001 +9.1428321744E+000  +4.4108841806E-002 +7.0272925413E+000  +4.9656466279E-002 +1.5823202315E+001  +6.9586056681E-001 -2.8034300834E+000 
8518872.340 +6.6652141209E-001 +1.0551071557E+001  +5.0174382199E-002 -5.1879629524E+000  +4.7846233741E-002 +9.4331403091E+000  +6.3240999705E-001 +1.3410503637E+000 
8644017.522 +5.9980378741E-001 +3.2976586578E+000  +5.0472424968E-002 -6.4649072004E+000  +4.6476391472E-002 +1.2957744443E+001  +5.9386771138E-001 +3.4943466686E+000 
8769162.703 +5.8745162711E-001 +3.9754731469E+000  +4.6032081147E-002 -8.1878143143E-001  +4.6538180021E-002 +1.2125151668E+001  +5.9298842543E-001 +4.0746312643E+000 
8894307.885 +5.6126075989E-001 +7.7637364867E+000  +4.6018673080E-002 +3.4067200114E+000  +4.0356477756E-002 +1.3924130268E+001  +6.2564928620E-001 +1.0757953506E+000 
9019453.066 +5.4466527696E-001 +6.7762372022E+000  +4.4824425559E-002 +1.0733859446E-001  +4.4886898940E-002 +1.0405108306E+001  +5.6143401759E-001 +3.5764743865E+000 
9144598.248 +5.5182610317E-001 +5.2830578890E+000  +4.4033007319E-002 -1.2974411748E+000  +4.4002394261E-002 +1.0253206275E+001  +6.0240825725E-001 -4.0833252277E+000 
9269743.429 +5.0342198208E-001 +1.4840681707E-001  +4.3768502107E-002 +3.6608485532E-001  +4.6145617142E-002 +1.5894407154E+001  +6.3025764932E-001 -1.4644478038E+000 
9394888.611 +5.1789911718E-001 +2.1169965592E+000  +5.1207284679E-002 -2.0471250004E+000  +4.7773826899E-002 +1.3675446238E+001  +5.3355536797E-001 -5.6400893825E+000 
9520033.792 +4.8359491163E-001 +2.1870019631E+000  +4.7704652868E-002 -2.5257302635E+000  +4.4193667445E-002 +1.5935533751E+001  +5.6079663311E-001 -5.6475225360E+000 
9645178.974 +5.1184238260E-001 +3.0953295935E+000  +4.5381604837E-002 +8.9667652585E-001  +4.8768933177E-002 +1.6732318866E+001  +5.2810311845E-001 -5.9309664345E+000 
9770324.155 +4.9148524636E-001 +5.9266886518E-001  +4.6949606945E-002 +1.1941498091E+000  +4.5682682154E-002 +1.8494878956E+001  +5.5239361478E-001 -3.5241203703E+000 
9895469.337 +4.9600917061E-001 -3.6590696729E+000  +4.7074230338E-002 -8.9029644023E-001  +4.3376251745E-002 +1.4393467337E+001  +5.3992726185E-001 -4.8133565023E+000 
10020614.518 +5.3045471427E-001 +1.8872358516E+000  +4.6218356698E-002 +2.1409725527E+000  +4.6333435620E-002 +1.4987324213E+001  +5.2734671042E-001 -4.3175314165E+000 
10145759.700 +4.9221023716E-001 +3.3303938294E+000  +4.5262589148E-002 +7.9641734420E-001  +4.7234867120E-002 +1.7143852127E+001  +5.2414377698E-001 -4.8934424391E+000 
10270904.881 +5.3051918280E-001 +2.4684390352E+000  +4.7527014484E-002 -2.0891015363E-001  +4.7629747495E-002 +1.5998209873E+001  +5.0762040679E-001 -3.8451600312E+000 
10396050.063 +4.9283154260E-001 +4.7488403979E+000  +5.0770489025E-002 +3.9838632673E+000  +4.8750125067E-002 +1.6377500554E+001  +5.6675025711E-001 -3.7628830276E+000 
10521195.244 +5.0083126213E-001 +5.9839762173E+000  +4.8543861643E-002 +1.8605291397E+000  +4.9089286510E-002 +1.6248628768E+001  +5.6200587060E-001 +2.5803004368E+000 
10646340.426 +5.1164368041E-001 +7.0490141805E+000  +4.8079740167E-002 +2.5256210993E+000  +4.4636655444E-002 +1.8628162102E+001  +5.5830754934E-001 +7.4712953317E-001 
10771485.607 +5.0659886006E-001 +5.0599739073E+000  +4.8405654880E-002 -2.2067127191E+000  +4.9630020202E-002 +1.7507795275E+001  +5.3484798377E-001 -3.9212903906E-001 
10896630.788 +5.3939195595E-001 +5.4594413981E+000  +4.8524967174E-002 +2.1623897211E+000  +4.6545984692E-002 +1.6713812017E+001  +5.5292219890E-001 +4.3157712973E-001 
11021775.970 +5.2168142065E-001 +1.0092647228E+001  +4.8355399652E-002 +1.5866540109E+000  +4.7841165033E-002 +2.0116016661E+001  +5.6127833976E-001 +4.6533783131E+000 
11146921.151 +5.4006201636E-001 +6.7994349478E+000  +4.7691199970E-002 +4.4594708697E+000  +4.9040688528E-002 +1.5666865614E+001  +5.6351814247E-001 +1.4025776065E+000 
11272066.333 +5.4639635479E-001 +6.1042066719E+000  +4.8590204043E-002 +4.3717759009E+000  +4.8411723248E-002 +2.1668734822E+001  +5.7201902612E-001 +2.2761565356E-002 
11397211.514 +5.5268869678E-001 +8.4155734617E+000  +4.9796679188E-002 +3.7700072053E+000  +4.8091104139E-002 +1.6907442686E+001  +5.8379491483E-001 +2.5699969111E+000 
11522356.696 +5.6782554806E-001 +8.1783314248E+000  +4.6470672503E-002 +3.5801094086E+000  +5.0464605217E-002 +1.5788699308E+001  +5.8671476581E-001 +2.7227521997E+000 
11647501.877 +5.6810250166E-001 +4.6784337800E+000  +5.0881253024E-002 +6.0279705696E+000  +4.8775430821E-002 +1.5865234939E+001  +6.3820874647E-001 +2.8403350503E+000 
11772647.059 +5.9009178364E-001 +6.7189757389E+000  +5.1000484352E-002 +3.7180102011E+000  +5.1955105237E-002 +2.0054413060E+001  +5.9990640484E-001 +2.4679390539E+000 
11897792.240 +5.8536802234E-001 +5.5950224953E+000  +5.0994418906E-002 +6.4131268996E+000  +5.1501474580E-002 +1.6349882229E+001  +6.3332869315E-001 -2.2411240334E-001 
12022937.422 +6.2716562749E-001 +5.4622361408E+000  +5.2220865636E-002 +7.0960805447E+000  +5.1369207141E-002 +1.6945042479E+001  +6.0451592871E-001 +2.2636465708E+000 
12148082.603 +6.5491682184E-001 +1.9648144539E+000  +5.3986672105E-002 +8.1715862961E+000  +5.2888279201E-002 +1.6173423808E+001  +6.5324843803E-001 +1.5503870638E+000 
12273227.785 +6.5192921014E-001 +5.5973469302E+000  +5.2957652671E-002 +8.1313717271E+000  +5.2879469737E-002 +1.6214018929E+001  +6.4098415753E-001 +1.0956817282E-001 
12398372.966 +6.4959267346E-001 +3.7610265222E+000  +5.6325073213E-002 +7.0093582059E+000  +5.3852120931E-002 +1.6402847136E+001  +6.6908766700E-001 -7.9930600630E-001 
12523518.148 +6.8097782339E-001 +3.0470248101E+000  +5.3807352802E-002 +8.8151392598E+000  +5.2332531111E-002 +1.5469306608E+001  +6.7293024423E-001 -4.9660127812E-001 
12648663.329 +6.8333070511E-001 +3.1751174581E+000  +5.6148087037E-002 +8.4435917763E+000  +5.5160158517E-002 +1.4335300579E+001  +6.7919741084E-001 +1.2372480458E+000 
12773808.511 +6.8950313869E-001 +1.1678905528E+000  +5.5967546591E-002 +7.3796044820E+000  +5.5851648229E-002 +1.5727858827E+001  +7.1472138951E-001 -1.6673770858E+000 
12898953.692 +6.9163272824E-001 +6.1280106329E-001  +5.5989999295E-002 +8.2580307891E+000  +5.4357040057E-002 +1.3108363302E+001  +7.1846407621E-001 +3.6901282120E-001 
13024098.874 +7.4134117009E-001 +7.4766566143E-001  +5.7277428046E-002 +8.9235244079E+000  +5.7481504320E-002 +1.3756104662E+001  +7.2446959021E-001 -2.2454396287E+000 
13149244.055 +7.3171749865E-001 +7.7621109327E-001  +5.6057277748E-002 +1.0318910218E+001  +5.7516022425E-002 +1.0721839704E+001  +7.5823638161E-001 -1.8958790934E+000 
13274389.237 +7.7593773503E-001 +3.3685257434E-001  +5.8347025070E-002 +9.1827821201E+000  +5.6544415482E-002 +1.3931914236E+001  +7.8574421818E-001 -2.7610486227E+000 
13399534.418 +7.6594871016E-001 -3.9537362189E-001  +5.7257614671E-002 +7.6927327622E+000  +5.7572872995E-002 +1.1928631318E+001  +7.7625787847E-001 -2.7421139983E+000 
13524679.599 +7.8378076972E-001 -2.6448173958E+000  +5.8771810684E-002 +9.9810393109E+000  +5.9476137048E-002 +1.3800228694E+001  +7.9783882070E-001 -3.7977872946E+000 
13649824.781 +8.1305450904E-001 -2.1515094506E+000  +6.0574954296E-002 +9.0911312454E+000  +6.0183599495E-002 +1.0299149500E+001  +8.2469520906E-001 -1.8860595231E+000 
13774969.962 +8.2946490748E-001 -2.9918363771E+000  +5.8683541809E-002 +9.0467040716E+000  +5.9221329668E-002 +1.0743172483E+001  +8.2015699851E-001 -3.4306311315E+000 
13900115.144 +8.5846884909E-001 -4.8057943023E+000  +6.0668785963E-002 +8.1628540080E+000  +6.1988930193E-002 +1.1796725071E+001  +8.7194124117E-001 -2.2343134553E+000 
14025260.325 +8.5960551281E-001 -4.1620917892E+000  +6.0905466528E-002 +9.8598102420E+000  +6.0620120791E-002 +1.0202731166E+001  +8.7573199149E-001 -4.6502455659E+000 
14150405.507 +8.8597067348E-001 -6.0230826879E+000  +6.1074974405E-002 +8.7878521250E+000  +6.2795088195E-002 +1.0107771385E+001  +8.8035877002E-001 -4.1633008363E+000 
14275550.688 +8.9724012003E-001 -5.7398642908E+000  +6.2508750566E-002 +8.5469734214E+000  +6.1815725773E-002 +9.8072197377E+000  +9.1585138468E-001 -2.8957861730E+000 
14400695.870 +9.1407077518E-001 -4.9032310900E+000  +6.2307434150E-002 +8.2335233470E+000  +6.2182043669E-002 +9.0168731538E+000  +9.2679864985E-001 -3.4687107809E+000 
