!  2-Port S-parameters saved by WinCal
! VAR MeasName=S-Parameters (CALIBRATED_DATA) read from VNA (P5004A)
! VAR MeasDate=28/08/2024 10:53:51
! VAR NAME=S2_r5c9_SET2_9k-100M_1
! VAR FILENAME=S2_r5c9_SET2_9k-100M_1.S2P
! VAR DATE=28/08/2024 10:53:51
! VAR PHYS_PORTS=1,2
! VAR ObjTypeName=DATASET
! VAR IndexType=Frequency
!
# Hz S MA R 50
9000.000 +9.3178831337E-002 -1.4651591190E+002  +1.0324849860E-002 -4.4631027865E+001  +1.3002670241E-002 -4.7203144088E+001  +2.6651388390E-001 -1.3489018496E+002 
134145.181 +1.1080410138E-001 +1.6953148696E+002  +2.9038387807E-004 +2.3887859988E+001  +2.3888468889E-004 -1.3817717443E+002  +2.3876096030E-001 -1.7016824594E+002 
259290.363 +1.1121409186E-001 +1.6969557307E+002  +5.3051983172E-004 -1.3559347556E+002  +8.7675432185E-004 +1.4981286335E+001  +2.3498611969E-001 -1.6785142645E+002 
384435.544 +1.1514159899E-001 +1.7067892905E+002  +5.0199382541E-004 +1.7268196288E+002  +1.2543558183E-003 -1.1379541310E+002  +2.4986097421E-001 -1.6691872066E+002 
509580.726 +1.1214964034E-001 +1.7025402559E+002  +3.9911562155E-004 +1.2843561691E+001  +8.8612195966E-004 +6.2167323334E+000  +2.5186248600E-001 -1.6578246977E+002 
634725.907 +1.1749717249E-001 +1.7232001680E+002  +9.2461971016E-004 -7.8972278390E+001  +1.4680760745E-003 +9.7114406918E+000  +2.5132019967E-001 -1.6427685339E+002 
759871.089 +1.2040601215E-001 +1.7133637183E+002  +6.2466810692E-005 +1.0381756225E+002  +4.4523214414E-004 +4.3959129849E+001  +2.5563147098E-001 -1.6695370542E+002 
885016.270 +1.2004291283E-001 +1.6913777359E+002  +4.4843959579E-004 -8.8115544768E+001  +1.9164678013E-004 +1.0866041647E+002  +2.4466594453E-001 -1.6704731717E+002 
1010161.452 +1.1522784667E-001 +1.7108553276E+002  +3.7245749449E-004 +4.4413699519E+001  +1.2670191452E-003 -1.3456695942E+002  +2.2635030596E-001 -1.6346557074E+002 
1135306.633 +1.1824998441E-001 +1.6888237738E+002  +1.0027122449E-003 +9.0687246260E+001  +1.9346773829E-003 +1.3518439781E+002  +1.6911009881E-001 -1.6461944126E+002 
1260451.815 +1.1783163259E-001 +1.7038697398E+002  +8.7999481977E-004 -1.4438564329E+002  +1.7359199116E-003 -1.2958338285E+002  +2.1464783602E-001 -1.5440589842E+002 
1385596.996 +1.2574582544E-001 +1.7107721220E+002  +1.1244636349E-003 -3.8654117883E+001  +6.3846409024E-004 -1.3186338592E+002  +2.5429735252E-001 -1.5918941262E+002 
1510742.178 +1.2882813686E-001 +1.7167190410E+002  +5.3968105072E-004 +5.6415228030E+001  +1.2518478943E-003 +1.5603406108E+002  +2.6197403567E-001 -1.5972120312E+002 
1635887.359 +1.2837293858E-001 +1.7192437978E+002  +1.5432060220E-003 -4.1342958356E+001  +1.0259080460E-003 +5.5886455683E+001  +2.5753240284E-001 -1.5515306079E+002 
1761032.541 +1.2873627456E-001 +1.6892048035E+002  +5.0838360934E-004 +1.5207386343E+002  +1.0115688648E-003 +7.6130808280E+001  +2.3865545339E-001 -1.5954068781E+002 
1886177.722 +1.2932931833E-001 +1.6600253863E+002  +2.6223545385E-003 +1.9739410106E+001  +1.9668040507E-003 -1.4283894748E+001  +2.0313477900E-001 -1.6247586297E+002 
2011322.904 +1.2766631624E-001 +1.6754599727E+002  +1.2905742967E-003 +1.2215784433E+002  +3.1445966117E-003 +8.2076823387E+001  +2.0195885024E-001 +1.7907557429E+002 
2136468.085 +1.3010716278E-001 +1.6825345788E+002  +1.7352772225E-003 -1.7926398670E+002  +8.5375220821E-004 +9.0830081130E+001  +2.2337869220E-001 -1.7663992805E+002 
2261613.267 +1.2956950553E-001 +1.6560120112E+002  +1.2941338741E-003 +1.6710717020E+002  +5.6119926100E-003 -8.8471117737E+001  +1.7588051523E-001 -1.7179258443E+002 
2386758.448 +1.3890494461E-001 +1.6643516520E+002  +7.4522789862E-004 +1.4750785245E+001  +1.3970410111E-003 -1.1617605740E+002  +1.4339871246E-001 +1.7811406945E+002 
2511903.630 +1.3001994964E-001 +1.6232536723E+002  +5.8148672720E-003 +9.3044982238E+001  +1.1588242086E-002 +1.5129592282E+001  +1.8864643833E-001 +1.5389840793E+002 
2637048.811 +1.1891222831E-001 +1.6556795501E+002  +8.6170361069E-003 +1.7109772726E+001  +1.4141404264E-003 -1.4545831115E+002  +1.6096653064E-001 +1.7962691220E+002 
2762193.992 +1.1931026753E-001 +1.7176797326E+002  +1.6913671292E-002 +6.0730603881E+001  +1.0180041853E-003 +6.8161423916E+001  +2.0151278442E-001 +6.1199640245E+001 
2887339.174 +8.7306227771E-002 -1.6761626208E+002  +2.3967410675E-002 -6.3224721996E+001  +6.8858494512E-003 +1.7589332239E+002  +8.1847048032E-001 -4.8924263180E+001 
3012484.355 +1.2148100326E-001 +1.7836376002E+002  +8.9820348060E-003 -2.9563116334E+001  +1.4574615846E-002 -1.1085888634E+002  +2.9344660157E-001 -1.0231588182E+002 
3137629.537 +1.1974595595E-001 +1.6052735340E+002  +2.6649012615E-003 -1.2245879581E+002  +1.3833285111E-002 +1.7808013473E+002  +3.3635269303E-001 -2.2477351711E+001 
3262774.718 +1.4318451715E-001 +1.6689353896E+002  +4.0095276044E-003 -3.3920260079E+001  +2.7201831210E-003 +3.9609588281E+001  +2.0198256834E-001 -3.6114288489E+001 
3387919.900 +1.2525423448E-001 +1.4804560351E+002  +1.4000117073E-002 -7.6139379801E+001  +2.5607428367E-003 -7.9814331145E+001  +1.2128996093E-001 -2.2376898974E+001 
3513065.081 +1.5091366524E-001 +1.5690148161E+002  +5.6696877906E-003 +8.6312395461E+001  +1.3063808637E-002 -1.0421233017E+002  +5.6709654403E-001 +6.4600953701E+001 
3638210.263 +1.7678524642E-001 +1.4344189154E+002  +7.7586044835E-003 +3.6734009886E+001  +2.7136550686E-003 +6.2712725811E+001  +5.0481750036E-001 +1.4367474243E+002 
3763355.444 +1.9834647937E-001 +1.4499554484E+002  +3.2343087767E-003 +3.3059967436E+001  +2.1967365104E-002 +1.5284482273E+002  +7.5788118129E-001 +1.4373614014E+002 
3888500.626 +1.8787532530E-001 +1.5110832285E+002  +2.3852713723E-002 +6.7483747841E+001  +8.7068962306E-003 +1.1783025345E+002  +8.9650642958E-001 +1.1741662051E+002 
4013645.807 +1.8933718911E-001 +1.5094422233E+002  +1.1733147350E-002 +1.1780024708E+002  +2.8065105301E-002 -1.0892566373E+002  +5.4608959410E-001 +1.1525827755E+002 
4138790.989 +1.8518906618E-001 +1.3655118113E+002  +2.2599757792E-002 +5.7169485811E+001  +5.1642477922E-003 -5.1704876693E+001  +3.0865949281E-001 +7.5778688553E+001 
4263936.170 +1.8569773025E-001 +1.4165362535E+002  +1.1074094310E-002 +4.6212132215E+001  +1.4364889993E-002 -2.7769878088E+001  +5.5577642999E-001 +9.6185450173E+001 
4389081.352 +1.9143434138E-001 +1.3323267674E+002  +2.1119467193E-003 +1.1842111332E+002  +1.6475133954E-002 -6.1817485079E+001  +5.4854646367E-001 +1.2313281802E+002 
4514226.533 +2.6556678628E-001 +1.3355816651E+002  +1.2147677930E-002 -1.7745000962E+002  +7.6556005266E-003 -6.4531175976E+001  +7.7616571797E-001 +1.3425987493E+002 
4639371.715 +1.8740795581E-001 +1.2377255158E+002  +1.7642629754E-002 +5.1183622290E+001  +1.5958121423E-002 -1.5406084250E+002  +1.0463105783E+000 +1.1719885637E+002 
4764516.896 +3.8675664522E-001 +1.1370769132E+002  +1.8135123512E-001 +1.6722192326E+002  +1.1205607904E-001 +1.1279102269E+002  +4.7611890286E+000 +1.4410315293E+002 
4889662.078 +4.4017073228E-001 +1.3052053126E+002  +3.7467346618E-002 +6.0903721722E+001  +4.2166178552E-002 +7.9229144610E+001  +2.4637645376E+000 -2.0024163512E+001 
5014807.259 +3.8633518753E-001 +1.3134564186E+002  +7.3371557355E-002 +1.4375958546E+002  +2.2481729994E-002 +6.5033990347E+001  +3.3866864829E+000 +7.7306130669E+001 
5139952.441 +4.1334285052E-001 +1.2824416133E+002  +4.4742954386E-002 +1.2938513369E+002  +3.3118380620E-002 +7.9113064888E+001  +1.3784473095E+000 +6.1539302564E+001 
5265097.622 +4.3284583775E-001 +1.2414013208E+002  +1.7633729670E-002 +9.7349413171E+001  +8.7927307920E-003 +1.5221689318E+002  +1.6377679500E+000 +7.6924776317E+001 
5390242.804 +4.1030164879E-001 +1.3251784637E+002  +4.9428698903E-002 +2.2150638553E+001  +2.4692719459E-002 +6.3641037789E+001  +3.2764298467E+000 +5.0364077437E+001 
5515387.985 +5.3813493663E-001 +1.3138784319E+002  +1.8221958596E-002 +1.6794695929E+002  +1.9911915925E-002 -1.3245269946E+002  +1.5314672517E+000 +1.1776812285E+002 
5640533.166 +5.6784833718E-001 +1.2511653958E+002  +1.2527521472E-002 -5.2783687846E+001  +8.7967921269E-002 +9.7285985420E+001  +3.7349230151E+000 +6.8239455834E+001 
5765678.348 +6.2214013258E-001 +1.1990257685E+002  +3.7439958918E-002 -2.5860775653E+001  +5.8645798849E-002 +6.9101088197E+001  +2.8016074163E+000 +7.2567016321E+001 
5890823.529 +6.5406464532E-001 +1.2135780893E+002  +4.0698051076E-002 +1.1885564706E+002  +4.6126114579E-002 +7.4320617350E+001  +1.6001229791E+000 +5.4324172885E+001 
6015968.711 +6.0694913675E-001 +1.1849581961E+002  +3.7830823790E-002 +1.2164466267E+002  +2.2145270990E-002 +8.3687070302E+001  +1.5048222206E+000 +7.4208508703E+001 
6141113.892 +7.5591923084E-001 +1.1802577736E+002  +3.2822978617E-002 +1.0405147111E+002  +1.5956297375E-002 +6.4093830543E+001  +2.2218548021E+000 +5.9586111111E+001 
6266259.074 +7.1421268055E-001 +9.3978531219E+001  +2.0326793695E-002 +2.6328007733E+001  +5.1344592530E-002 +1.4980338871E+001  +1.5167024846E+000 +2.3847500215E+001 
6391404.255 +9.4499581601E-001 +1.0033744306E+002  +5.6881033332E-003 +1.7736127569E+002  +2.4265575933E-002 -1.0269121494E+001  +1.5925967785E+000 -2.4978981440E+000 
6516549.437 +1.1454667016E+000 +7.6571827837E+001  +1.2063239358E-002 +5.7104283242E+001  +4.5048123809E-002 +6.4868664572E+001  +1.2962926577E+000 +7.3918307496E+000 
6641694.618 +2.1084781011E+000 +6.6745712887E+001  +4.4314579623E-002 +4.9712186598E+001  +5.2511134855E-002 +8.8692089053E+001  +1.4191174269E+000 +1.3916469342E+001 
6766839.800 +1.6753333874E+000 +4.7594819099E+001  +3.3759771422E-002 +1.4529384805E+000  +2.0205511096E-002 +4.9897064315E+001  +1.3132135983E+000 +2.2080278234E+000 
6891984.981 +1.5155374043E+000 +3.1175866738E+001  +1.7766465393E-002 +7.2788807688E+001  +2.7544091839E-002 -1.8044595613E+001  +1.3944400966E+000 -3.9384308843E-001 
7017130.163 +1.3938806550E+000 +2.3054542604E+001  +1.2236461164E-002 +1.1812403971E+001  +3.2528341512E-002 +5.5759419209E+000  +1.1511560693E+000 -1.8993690597E+001 
7142275.344 +1.8536495925E+000 +9.7183163512E+000  +2.3190979331E-002 +3.1147271747E+001  +2.6126229971E-002 +2.2363530388E+001  +1.3363407772E+000 -1.5249678670E+001 
7267420.526 +1.7055597347E+000 +1.0296138035E+000  +2.6481567308E-002 +5.6733388817E+001  +1.3479571466E-002 +5.7806321065E+001  +1.2120539511E+000 -3.7199116480E+000 
7392565.707 +1.5182222795E+000 +1.0788250378E+000  +1.1857220044E-002 +2.5950876046E+001  +2.2488407084E-002 +4.9098943063E+001  +1.2640600924E+000 -1.0000544663E+001 
7517710.889 +1.2184693468E+000 +1.8327413204E+000  +8.3968172180E-003 +6.2274716681E+001  +3.4146820294E-003 -1.5375099148E+001  +1.1549353149E+000 -7.1802725040E+000 
7642856.070 +1.0196409026E+000 -2.5365772989E+000  +1.7065968201E-002 +2.9902526305E+001  +1.5015363317E-002 +3.6163769474E+001  +1.0895057576E+000 -3.8738581357E+000 
7768001.252 +9.5300153741E-001 +3.1311788478E+000  +6.6242405349E-003 -3.3944940420E+000  +5.5021824339E-003 +2.0012374193E+001  +1.0163086562E+000 -2.7106288562E+000 
7893146.433 +8.6436626374E-001 +4.5454316942E+000  +1.5630852974E-002 -4.1771964248E+000  +1.7884729385E-002 -1.3190723276E+001  +1.0294424648E+000 -2.2184412986E+000 
8018291.615 +9.4148462789E-001 +7.9302826316E-001  +1.5463371577E-002 +2.8805127447E+001  +9.6750985551E-003 +2.8793917428E+001  +7.2463483385E-001 -2.8613545718E+000 
8143436.796 +7.9228818613E-001 +9.8229456985E+000  +8.7052835586E-003 +6.1965810983E+000  +1.2647412490E-002 +2.1379754161E+001  +8.1686317554E-001 +1.7095502133E+000 
8268581.977 +8.0759294757E-001 +6.3223627688E+000  +1.4349798550E-002 +3.7585480829E+001  +1.2729303774E-002 +5.6211433298E+001  +7.8802570034E-001 +2.7831355526E+000 
8393727.159 +6.6177139928E-001 +1.0490715497E+001  +5.3754312066E-003 +4.3875360960E+000  +8.4178178592E-003 +5.2654188027E+001  +7.2255670911E-001 -1.0753382486E+000 
8518872.340 +7.0663339067E-001 +9.0209870588E+000  +3.0388021944E-003 -3.0353853044E+000  +1.0512644430E-002 +3.9282715540E+001  +7.5412632915E-001 +3.3349012135E-001 
8644017.522 +6.3976608962E-001 +5.0039605272E+000  +8.9623555256E-003 -3.3642111371E+000  +6.5739647143E-003 +2.6016775559E+001  +7.3431969544E-001 +3.8627502628E+000 
8769162.703 +5.6234942415E-001 +6.5362400306E+000  +4.2131591570E-003 +2.7806554711E+001  +1.1284549328E-002 +2.7868782714E+001  +6.7518351388E-001 -3.6247277556E+000 
8894307.885 +5.8762912609E-001 +8.3698726017E+000  +7.3380646496E-003 +3.5229532613E+001  +1.0067484787E-002 +3.1053155942E+001  +6.4476365099E-001 -1.1108549151E+000 
9019453.066 +5.5537989756E-001 +7.3088564968E+000  +5.4222774371E-003 +4.4497908382E+001  +4.7223963836E-003 +2.6667698972E+001  +6.2140359912E-001 -1.3903642718E+000 
9144598.248 +5.3902229675E-001 -1.5123065472E-001  +7.7397332784E-003 +2.8573305704E+001  +5.7042521844E-003 +2.9025259607E+001  +5.4642582586E-001 +3.2132744223E+000 
9269743.429 +5.6442813611E-001 +9.2640455202E+000  +8.8531897189E-003 +3.0906787655E+001  +7.9119099379E-003 +3.8891974840E+001  +5.8308967033E-001 -6.0181896911E+000 
9394888.611 +5.5562266793E-001 +5.1148519385E+000  +9.3479269006E-003 +3.3526269432E+001  +6.6335523816E-003 +3.9454190121E+001  +5.7678367545E-001 -6.7946355383E+000 
9520033.792 +5.6188280880E-001 +1.1228740330E+000  +7.9913424351E-003 +1.0303470132E+001  +8.5552434207E-003 +3.8536711608E+001  +5.7675151160E-001 -1.4259861706E+000 
9645178.974 +5.5605798229E-001 -2.3506043576E+000  +8.9553534593E-003 +5.3288451990E+000  +7.6581958420E-003 +5.2126563087E+001  +5.7838926861E-001 -7.0890830026E+000 
9770324.155 +5.3655750873E-001 +5.5147272540E+000  +5.5748968098E-003 +3.2372200370E+001  +1.1831935057E-002 +5.1811250322E+001  +6.0588970306E-001 -3.7597318772E+000 
9895469.337 +5.4468909516E-001 +3.3420489606E+000  +7.9963310072E-003 +1.0321551635E+001  +8.8482635480E-003 +3.5243220869E+001  +5.5255820967E-001 -6.5825761079E+000 
10020614.518 +5.6436178536E-001 +9.3606118329E-001  +8.0039744267E-003 +2.6430666754E+001  +8.3851331849E-003 +3.5751432719E+001  +6.0106198300E-001 -5.3145548467E+000 
10145759.700 +5.3908257502E-001 +6.8685531431E+000  +1.0699426022E-002 +2.5058475486E+001  +9.1935410806E-003 +5.1086598677E+001  +5.7073429710E-001 -3.5599292006E+000 
10270904.881 +5.5426968928E-001 +5.0128081541E+000  +8.5122775031E-003 +3.6094413495E+000  +7.1574528789E-003 +5.4965731643E+001  +5.7854048863E-001 -4.6498964731E+000 
10396050.063 +5.4236792966E-001 +4.0473952909E+000  +6.4563803505E-003 +2.6912538709E+001  +8.1244056244E-003 +4.1184413256E+001  +5.8052835450E-001 -1.2091035950E+000 
10521195.244 +5.2616583963E-001 +8.1651422480E+000  +7.7757690567E-003 +1.6384290590E+001  +9.8078845585E-003 +4.7474696781E+001  +5.9893688385E-001 -1.7536277767E-002 
10646340.426 +5.6857332715E-001 +8.9100399230E+000  +7.0660502958E-003 +2.0725392598E+001  +9.0216152010E-003 +4.8061463353E+001  +5.9391911567E-001 -4.1530952185E+000 
10771485.607 +5.4537208723E-001 +6.4816041909E+000  +1.1209201158E-002 +3.7786376862E+001  +7.3722377989E-003 +5.1675019326E+001  +5.8531579636E-001 +3.1396332309E+000 
10896630.788 +6.0221625566E-001 +7.0999926956E+000  +8.6462626148E-003 +3.1093528576E+001  +9.9788712404E-003 +5.6154316066E+001  +5.8713286367E-001 +9.5275892311E-001 
11021775.970 +5.7699525581E-001 +9.3513345484E+000  +9.6140906552E-003 +3.5877564212E+001  +7.2612143738E-003 +2.8376973796E+001  +6.0977583181E-001 +3.8380166020E+000 
11146921.151 +6.1315163722E-001 +7.4297747372E+000  +9.6038444911E-003 +1.1612854707E+001  +1.0711478867E-002 +3.9973651086E+001  +6.4544848010E-001 -2.8350837901E-001 
11272066.333 +5.9056358769E-001 +3.6177925815E+000  +1.0488963361E-002 +3.0246964084E+001  +1.1081675825E-002 +3.5519213285E+001  +6.4175250701E-001 +1.7205974577E+000 
11397211.514 +6.0763887968E-001 +8.2141985741E+000  +8.6016758081E-003 +2.8430620266E+001  +7.5385482239E-003 +4.2693290944E+001  +6.2499983449E-001 -1.2882142484E+000 
11522356.696 +6.2810551433E-001 +1.0005073779E+001  +7.9307786419E-003 +4.7930096886E+001  +8.6352579152E-003 +4.2545902531E+001  +6.2831606851E-001 +3.5848511985E+000 
11647501.877 +6.2114946711E-001 +6.9659938555E+000  +1.1881919832E-002 +2.7134461245E+001  +7.4590011503E-003 +3.6198481380E+001  +6.6360707046E-001 +4.8090049399E-001 
11772647.059 +6.6519364182E-001 +5.6728019354E+000  +9.6632880529E-003 +2.5552519302E+001  +1.0981582198E-002 +3.7322873649E+001  +6.6099235354E-001 +1.6636494770E+000 
11897792.240 +6.4645611923E-001 +5.9491388505E+000  +9.4910584830E-003 +2.0990995057E+001  +9.9711174128E-003 +3.2878535239E+001  +6.6927528286E-001 -5.2922130870E-001 
12022937.422 +6.4893622383E-001 +5.2793654066E+000  +1.0483339270E-002 +2.8447052937E+001  +9.4121931969E-003 +4.4755885965E+001  +6.6684485553E-001 +1.8678004607E+000 
12148082.603 +6.8067380108E-001 +5.8263058680E+000  +1.0452969871E-002 +3.2467998824E+001  +1.0147664061E-002 +3.9127268175E+001  +6.9789775824E-001 +1.0439590517E-001 
12273227.785 +6.9078144422E-001 +4.5466566199E+000  +1.0065417733E-002 +3.8894320933E+001  +1.1100806642E-002 +4.1398670974E+001  +7.0951966104E-001 +2.5045050700E+000 
12398372.966 +7.1789266399E-001 +3.3162179796E+000  +1.0363333142E-002 +2.9784729569E+001  +1.1012336946E-002 +5.4719795682E+001  +7.0375696117E-001 -7.1469431344E-001 
12523518.148 +6.9000329942E-001 +2.8060565364E+000  +1.1211946555E-002 +2.8059741990E+001  +9.9243420659E-003 +5.5830953515E+001  +7.4462230977E-001 -9.1106761113E-001 
12648663.329 +7.3409937121E-001 +3.4216737628E+000  +9.2721006690E-003 +3.5425844658E+001  +9.7558820855E-003 +3.6496520949E+001  +7.6122453875E-001 -3.0631372461E-001 
12773808.511 +7.4994259974E-001 +3.5183846785E+000  +1.1629879800E-002 +3.0299262263E+001  +1.0783425866E-002 +4.2244126480E+001  +7.3701104626E-001 -2.4417212149E+000 
12898953.692 +7.7657180078E-001 -8.0443024565E-002  +1.0210238419E-002 +3.8957523949E+001  +1.0301558767E-002 +5.1378297074E+001  +7.5736470757E-001 -2.2672837184E+000 
13024098.874 +7.7647651636E-001 +4.6194239692E-002  +1.1436553442E-002 +3.6348964255E+001  +1.1554893910E-002 +3.9309648622E+001  +7.8375682664E-001 -1.1717288713E+000 
13149244.055 +8.0672330616E-001 -1.3973902290E+000  +1.0152822969E-002 +3.9175475554E+001  +1.0848383824E-002 +5.0381658865E+001  +8.2225447861E-001 -3.9570340010E-001 
13274389.237 +8.1220691350E-001 +4.9416783074E-001  +1.2307482004E-002 +2.6009232202E+001  +1.0395972470E-002 +4.2033352496E+001  +8.2442321650E-001 -2.3243991718E+000 
13399534.418 +8.4307862835E-001 -2.8809769605E+000  +1.2252552113E-002 +4.2505220603E+001  +1.2109134316E-002 +4.6821522376E+001  +8.4788314392E-001 -2.7266304815E+000 
13524679.599 +8.7826041215E-001 -1.0917046728E+000  +9.8169918452E-003 +4.3116371607E+001  +1.2687375970E-002 +3.4678454476E+001  +8.7519642527E-001 -2.8686193447E+000 
13649824.781 +8.7358316642E-001 -2.1285276681E+000  +1.2163658900E-002 +3.9925835459E+001  +1.2733248492E-002 +4.5123638812E+001  +8.7338362955E-001 -2.1416090934E+000 
13774969.962 +8.6051101102E-001 -2.2795974322E+000  +1.2431464608E-002 +4.0611750561E+001  +1.1700435300E-002 +4.1657152778E+001  +8.8627116365E-001 -1.7650307277E+000 
13900115.144 +9.0187857031E-001 -2.7068453494E+000  +1.1898040573E-002 +3.3064378841E+001  +9.7347460033E-003 +3.8907828305E+001  +9.4289620372E-001 -3.5986586618E+000 
14025260.325 +9.3289525692E-001 -4.4396987512E+000  +1.3545355804E-002 +4.0752546988E+001  +1.3021570734E-002 +3.3587197960E+001  +9.3125664255E-001 -4.3775415494E+000 
14150405.507 +9.2740663207E-001 -4.9266457172E+000  +1.2925185427E-002 +4.3833963127E+001  +1.1474712255E-002 +4.2954630476E+001  +9.7772910283E-001 -3.7680631495E+000 
14275550.688 +9.3077166256E-001 -4.4930764100E+000  +1.2057881127E-002 +3.5927768852E+001  +1.1909422899E-002 +4.0430324736E+001  +9.6926958828E-001 -3.2716279873E+000 
14400695.870 +9.5615030535E-001 -6.0473767852E+000  +1.2364923573E-002 +3.3037169893E+001  +1.0833831313E-002 +3.8867065329E+001  +9.7313291404E-001 -3.6033827967E+000 
