!  2-Port S-parameters saved by WinCal
! VAR MeasName=S-Parameters (CALIBRATED_DATA) read from VNA (P5004A)
! VAR MeasDate=28/08/2024 12:21:27
! VAR NAME=S2_r7c9_RESET3_9k-100M_1
! VAR FILENAME=S2_r7c9_RESET3_9k-100M_1.S2P
! VAR DATE=28/08/2024 12:21:27
! VAR PHYS_PORTS=1,2
! VAR ObjTypeName=DATASET
! VAR IndexType=Frequency
!
# Hz S MA R 50
9000.000 +7.9663996703E-002 -1.6064772648E+002  +1.0642287660E-002 +2.7273978213E+001  +8.6960194144E-003 +1.4217409333E+002  +2.6439455240E-001 -1.3711658486E+002 
134145.181 +1.1115652751E-001 +1.6992592273E+002  +3.3975085391E-004 -1.0568724789E+002  +2.4391868570E-004 -2.6489088665E+001  +2.3932337688E-001 -1.7064843493E+002 
259290.363 +1.1266835452E-001 +1.6988296220E+002  +1.9005284848E-004 -4.2598914786E+001  +2.3901638166E-004 -1.3359396636E+002  +2.3656795796E-001 -1.6938216487E+002 
384435.544 +1.1390107228E-001 +1.7060999925E+002  +2.7650451752E-004 -1.0608025101E+002  +3.0224348960E-004 +8.9451866994E+001  +2.4497841291E-001 -1.7014453229E+002 
509580.726 +1.1250364311E-001 +1.7063108376E+002  +8.3385619026E-004 -1.4824962727E+002  +4.0235138295E-004 -4.0395278605E+001  +2.4906038222E-001 -1.6515232614E+002 
634725.907 +1.1796928949E-001 +1.7143097262E+002  +6.0266422398E-004 -3.9107531293E+001  +1.5297756426E-003 +1.0770852711E+002  +2.5068289600E-001 -1.6628740918E+002 
759871.089 +1.1948647459E-001 +1.7043978381E+002  +4.1521277448E-004 -1.4776387729E+002  +3.6552725700E-004 -1.5623923995E+002  +2.4879997799E-001 -1.6584666422E+002 
885016.270 +1.2081184322E-001 +1.6893965966E+002  +3.3661331819E-004 -1.1007904434E+002  +3.0233892340E-004 +1.4180872921E+001  +2.5019674361E-001 -1.6662106041E+002 
1010161.452 +1.1635010835E-001 +1.7067499549E+002  +3.1127168074E-004 +1.7192992382E+002  +2.6654318830E-003 -1.2649028341E+002  +2.0185204314E-001 -1.6884265984E+002 
1135306.633 +1.1645708703E-001 +1.6928642316E+002  +2.3814221384E-003 -2.4303666708E+001  +1.3010834247E-003 -1.0642611702E+002  +1.6161786933E-001 -1.6988978621E+002 
1260451.815 +1.2269767772E-001 +1.7051252900E+002  +2.9288827890E-004 -1.6612507172E+002  +6.4048537426E-004 -4.0586156679E+001  +2.3135857367E-001 -1.6012376852E+002 
1385596.996 +1.2744311357E-001 +1.7152955393E+002  +6.7028004573E-004 -1.0753176140E+002  +1.4670276751E-004 -7.0524686571E+001  +2.7231676403E-001 -1.5859829212E+002 
1510742.178 +1.2775845467E-001 +1.7131005621E+002  +1.0502847837E-003 +1.0609503857E+001  +1.5626494777E-003 -1.3735713574E+002  +2.3485038045E-001 -1.5558325596E+002 
1635887.359 +1.2667814528E-001 +1.7127960110E+002  +1.1257146092E-003 +1.6627028219E+002  +1.5936836944E-003 -1.2012840719E+002  +2.3464024536E-001 -1.5620874050E+002 
1761032.541 +1.2765130549E-001 +1.6939446806E+002  +7.6331074943E-004 -1.5653323832E+002  +2.3267218187E-004 -1.6810526636E+001  +2.3097213046E-001 -1.5794127548E+002 
1886177.722 +1.3119768733E-001 +1.6780584082E+002  +9.8980324482E-004 +1.3151761667E+002  +2.7047536226E-003 -7.5722793109E+001  +1.9717290014E-001 -1.5864413614E+002 
2011322.904 +1.3179712059E-001 +1.6689871830E+002  +1.6657130316E-003 -9.6150297132E+001  +5.6402321210E-004 -4.0115982858E+000  +2.1253720832E-001 -1.5943547496E+002 
2136468.085 +1.2721878321E-001 +1.6786255953E+002  +1.7871955651E-003 +1.4887610900E+002  +1.5920367608E-003 +7.8889871596E+001  +1.6064179100E-001 -1.7947179506E+002 
2261613.267 +1.3251485941E-001 +1.6387027063E+002  +2.0925214615E-003 -7.0990190416E+000  +7.9854799030E-004 +3.1359076332E+001  +1.1911824228E-001 -1.4871184849E+002 
2386758.448 +1.2788037775E-001 +1.6171816631E+002  +3.2849881975E-003 +5.4869223905E+001  +4.3666783963E-003 +1.2347554120E+002  +1.6544348696E-001 +1.6765640437E+002 
2511903.630 +1.3710481422E-001 +1.6380780088E+002  +4.9316640589E-003 -3.5576835160E+001  +5.1305511149E-003 +1.1765525370E+001  +2.7044018706E-001 +1.6265510256E+002 
2637048.811 +1.0619435636E-001 +1.5189069040E+002  +7.0157949062E-003 -7.5935992663E+000  +6.6201911308E-003 +5.0707868400E+001  +2.2262184782E-001 +1.5584151918E+002 
2762193.992 +1.3244994976E-001 +1.6858863360E+002  +6.7647611440E-003 +1.1138087064E+002  +9.4102312079E-003 -3.5180466675E+001  +6.4229637961E-001 -6.1998258367E+001 
2887339.174 +1.2812163702E-001 +1.7410370806E+002  +1.1669817522E-002 +1.3395419802E+002  +5.0156822390E-003 -4.2285757078E+001  +2.7786831804E-001 -7.3012917544E+001 
3012484.355 +9.5191810920E-002 +1.7585465541E+002  +1.8974858903E-002 +8.2353486949E+001  +1.1412249667E-002 -1.7356269017E+002  +1.3278838367E-001 -6.4728546968E+001 
3137629.537 +1.1668449342E-001 +1.7478952983E+002  +6.5963176017E-003 -5.9392519272E+001  +1.7062599296E-003 -7.2510972533E+001  +2.1723048943E-001 -9.6268461452E+001 
3262774.718 +1.3345961901E-001 +1.7228320975E+002  +6.6943391786E-003 -9.7873265861E+000  +6.8943451170E-003 -1.5066207432E+002  +1.7007831069E-002 +9.5970642771E+001 
3387919.900 +1.0087876801E-001 +1.5500336653E+002  +2.2978789087E-002 -1.3068162134E+002  +1.7744049293E-002 +8.6278388474E+001  +2.7814510817E-001 +8.5192671275E+001 
3513065.081 +1.3436130382E-001 +1.4198280294E+002  +1.6332778363E-002 +1.4322844152E+002  +1.5617442390E-002 -1.0250123798E+002  +1.2950790690E-001 +7.8361625507E+001 
3638210.263 +1.4812535327E-001 +1.4480020372E+002  +1.5525978825E-002 -3.8930473273E-001  +1.1840247932E-002 +1.4710175484E+002  +8.6662191663E-001 +1.5676691054E+002 
3763355.444 +1.7318521111E-001 +1.4976066588E+002  +1.2034779901E-002 +7.2237608365E+001  +1.0702138981E-002 +1.7764066290E+002  +4.2972201661E-001 +1.4443977807E+002 
3888500.626 +1.6239615629E-001 +1.5553037380E+002  +9.0636944791E-003 +9.4202824802E+001  +1.5875629719E-003 -7.4123405121E+001  +4.5283385483E-001 +1.2442520343E+002 
4013645.807 +1.7112257913E-001 +1.4859096704E+002  +3.0314183304E-003 +5.7087157172E+001  +9.5353586222E-003 +5.9534554671E+001  +3.8871027620E-001 +1.3147951670E+002 
4138790.989 +2.0115806588E-001 +1.5052306116E+002  +8.8712895652E-003 +1.1922521732E+002  +6.1045919547E-003 +1.9324347303E+001  +4.1082606531E-001 +1.1772319742E+002 
4263936.170 +1.9571340219E-001 +1.4241824524E+002  +1.7720603164E-002 +1.3103907860E+002  +6.4379129745E-003 -1.7673787460E+002  +8.2015149263E-001 +8.1716542298E+001 
4389081.352 +2.1763230685E-001 +1.5052175293E+002  +1.9518895808E-003 -6.4859435224E+001  +4.5691451852E-003 +1.8433250831E+000  +3.9282978796E-001 +1.2423845644E+002 
4514226.533 +2.4455640654E-001 +1.3611873912E+002  +7.2920773483E-003 +1.3516018799E+002  +2.0281481628E-002 +3.4312746566E+001  +1.0699365631E+000 +7.0340485531E+001 
4639371.715 +3.4350831336E-001 +1.3034876152E+002  +8.3598980957E-003 -1.7853572060E+002  +3.6127530565E-002 +1.3513846335E+002  +2.3753100580E+000 +1.4116030077E+002 
4764516.896 +3.5791435529E-001 +1.3067907075E+002  +4.7538094786E-002 -1.0567361086E+002  +5.4752439051E-002 +1.8713888462E+000  +2.1692011675E+000 -5.5975299452E+001 
4889662.078 +4.4116079788E-001 +1.2867973563E+002  +9.2767270416E-003 +4.7775684366E+001  +8.0423802251E-002 -5.5636511184E+001  +2.7948505786E+000 -7.8066611642E+001 
5014807.259 +4.2216536992E-001 +1.2693228528E+002  +3.3305275306E-002 -1.7409742747E+002  +6.5180396560E-002 -7.0738966152E+001  +2.8172849876E+000 -8.0369311586E+001 
5139952.441 +4.9505199390E-001 +1.1277539031E+002  +2.4070290923E-002 -1.7971307185E+002  +4.6200053332E-002 -1.6322272525E+002  +1.0237305007E+000 +6.1214323563E+001 
5265097.622 +3.6759084924E-001 +1.3314133353E+002  +5.9600685797E-002 +1.6246318870E+001  +1.7157920062E-002 +1.1494745190E+002  +3.9759825646E+000 +8.7061214046E+001 
5390242.804 +4.4622699521E-001 +1.2951348354E+002  +1.3426666104E-002 +1.3529532401E+002  +1.1211878811E-002 +9.0987281708E+001  +1.0595891034E+000 +6.2014888486E+001 
5515387.985 +4.3172049314E-001 +1.2830245801E+002  +2.3676264686E-002 -3.1865779973E+001  +2.1950522867E-002 -8.0242819410E+001  +1.6599012155E+000 +9.0671267455E+001 
5640533.166 +4.5660334962E-001 +1.3611700115E+002  +1.6569562640E-002 -1.4185329572E+002  +1.9344337497E-002 +1.3216360730E+002  +2.9954042053E+000 +4.4784052748E+001 
5765678.348 +4.9810853915E-001 +1.2240010306E+002  +4.2825080642E-002 +8.0127162369E+001  +3.5386799989E-002 -7.5545191436E+001  +3.5818632922E+000 +7.1458195525E+001 
5890823.529 +5.9342757951E-001 +1.2536913105E+002  +1.5320236090E-003 -1.1007145037E+002  +2.9880322985E-002 +1.7795236716E+002  +2.5739002370E+000 +7.3998360109E+001 
6015968.711 +5.7954220102E-001 +1.2518498905E+002  +2.9678534598E-002 +5.2186765879E+001  +1.7107653130E-002 -7.6396516922E+001  +3.4782222441E+000 +5.4056153462E+001 
6141113.892 +8.9179658480E-001 +1.1065598440E+002  +3.1487862972E-002 -1.6192332547E+002  +1.3880538856E-002 -1.3567431792E+002  +1.6589553532E+000 +3.4271944078E+001 
6266259.074 +8.8716041625E-001 +1.0326456419E+002  +1.5978831506E-002 -1.5452160554E+002  +1.6271241856E-002 +1.6667681248E+002  +1.2795292981E+000 +2.2845390268E+001 
6391404.255 +9.1740461345E-001 +1.0270510257E+002  +2.6964815036E-002 +1.4560031829E+002  +9.8771546157E-003 +1.2841216138E+002  +1.3573120084E+000 +2.1534596959E+001 
6516549.437 +1.1800153311E+000 +8.5429891819E+001  +1.2556884547E-002 +1.4771566779E+002  +2.4913825818E-002 -2.3045866437E+000  +1.4151542075E+000 +2.0780000006E+001 
6641694.618 +1.3022314179E+000 +8.2157558992E+001  +2.1342551754E-002 +6.2377627488E+001  +1.7180957788E-002 +8.5148258732E+001  +1.6365974745E+000 -2.6991148930E+000 
6766839.800 +1.4549730787E+000 +4.3920114045E+001  +1.6268631433E-002 -3.4623630621E+001  +8.7668322373E-003 -8.2443265300E+001  +1.2655524092E+000 -4.9584086048E+000 
6891984.981 +1.7334246983E+000 +3.5760423435E+001  +5.5402701073E-003 -6.7199460542E+001  +2.1802396136E-002 +9.7202120650E+001  +1.2743733567E+000 -6.0291252404E+000 
7017130.163 +1.8035662202E+000 +2.0831043176E+001  +2.5562485459E-003 +6.1270355810E+001  +1.0387003979E-002 +1.0552870322E+002  +1.2348996174E+000 -1.4244945059E+001 
7142275.344 +1.7900558836E+000 +1.3348245836E+001  +2.1310950606E-002 +6.1759999006E+001  +1.0084239819E-002 +5.9463012872E+001  +1.3304625516E+000 -1.0686441368E+001 
7267420.526 +1.2433754479E+000 +3.6058247560E+000  +7.4964984277E-003 +4.0742576440E+001  +1.7720424324E-002 +5.2474935479E+001  +1.4825174993E+000 -5.7833050615E+000 
7392565.707 +1.2751165932E+000 -2.2801792738E+000  +4.9005320295E-003 +3.0122022183E+001  +1.0637392572E-002 +3.9592534244E+001  +1.4150831003E+000 -4.0135587909E+000 
7517710.889 +1.2903251642E+000 -1.5387042844E+000  +1.4099637391E-002 +6.0077414082E+001  +1.3928448677E-003 +1.3552089230E+002  +1.1822316197E+000 -1.9605908831E+000 
7642856.070 +1.1034630380E+000 +5.0601492872E+000  +4.9790177049E-003 +6.2503280231E+001  +5.7615433805E-003 +1.4087334194E+002  +1.1301598208E+000 -6.9637424876E+000 
7768001.252 +9.5440286501E-001 -6.4089425734E-002  +1.2632624007E-002 -1.1929764986E+001  +2.9662383816E-003 -1.5528525435E+002  +1.0832224417E+000 -8.7452317074E-001 
7893146.433 +7.8793773883E-001 +7.5263467544E+000  +5.8528624750E-003 +8.8048818873E+001  +9.8365841560E-003 +2.5603573956E+001  +8.5005045860E-001 -3.2538949710E+000 
8018291.615 +9.2789553465E-001 +6.2832401073E+000  +3.7757149362E-003 +5.7397933717E+001  +5.0977661050E-003 +6.2156707071E+001  +9.1658070461E-001 +2.4432644251E+000 
8143436.796 +8.2345320019E-001 +7.0105215500E+000  +2.2859658998E-003 +1.0214130836E+002  +6.3581492518E-003 +1.6309540604E+002  +7.8313267144E-001 +5.6330501113E-001 
8268581.977 +7.0789575757E-001 +9.5029430441E+000  +4.4372527265E-003 -1.7368162122E+000  +6.4693000160E-003 +7.5306613172E+001  +7.9634596160E-001 -5.4501212164E+000 
8393727.159 +6.9776313365E-001 +5.6243359975E+000  +3.3392499745E-003 +1.0037999651E+002  +7.7855697513E-003 +1.1411894233E+002  +7.5558471331E-001 -2.7184857230E+000 
8518872.340 +6.7898229373E-001 +8.5616266593E+000  +5.2464876649E-003 -1.6066226273E+001  +5.8610150097E-003 +8.0415354365E+001  +7.0850588506E-001 +4.7603907640E-001 
8644017.522 +7.3072063651E-001 +5.8731304371E+000  +1.1573549812E-003 +4.1967895872E+001  +4.2099122578E-003 +6.9741083865E+001  +6.8874908685E-001 -8.4046867865E-001 
8769162.703 +6.3221398962E-001 +7.5177785545E+000  +4.6665813672E-003 +8.4380464469E+001  +7.8671058074E-003 +1.2212524010E+002  +6.2234983290E-001 +2.9175181509E+000 
8894307.885 +6.2204885580E-001 +6.6327606967E+000  +5.8220749757E-003 +6.6760477466E+001  +9.7581150132E-003 +7.3572183579E+001  +6.5322479829E-001 +1.9814887343E-001 
9019453.066 +5.6628608271E-001 +7.8723596425E+000  +2.3581131316E-003 +3.2017343973E+001  +3.2610723578E-003 +8.8771939184E+001  +5.8841789143E-001 -3.1526828349E+000 
9144598.248 +5.4007619461E-001 +7.0120708636E+000  +3.3287751238E-003 +3.6215642230E+001  +2.4469219051E-003 +6.8491173220E+001  +6.6038277586E-001 +1.5043093771E+000 
9269743.429 +5.7460547610E-001 +6.8518419497E+000  +2.3924701178E-003 +8.2856997020E+001  +4.9043380676E-003 +1.2455929635E+002  +5.7572123474E-001 -9.9536631013E-001 
9394888.611 +5.8541089966E-001 +1.9187992727E+000  +3.4923143883E-003 +8.7888625388E+001  +8.6202680672E-003 +1.2327521823E+002  +5.6784248141E-001 -2.4636877780E+000 
9520033.792 +5.4542268879E-001 +1.4250677981E+000  +4.8474657427E-003 +7.2834398014E+001  +3.6393006709E-003 +3.0841560135E+001  +5.3080864273E-001 -2.8521079917E+000 
9645178.974 +5.7400602343E-001 +1.6827443689E+000  +5.1860515925E-003 +6.0518691621E+001  +6.2061528198E-003 +6.6452106232E+001  +5.9120720866E-001 -5.1713906505E-003 
9770324.155 +5.9241159294E-001 +5.6559433401E-001  +5.0960260159E-003 +4.5929620830E+001  +5.1139923745E-003 +8.5212871712E+001  +5.6629131275E-001 -6.0103380330E+000 
9895469.337 +5.1595263146E-001 -7.1257166507E+000  +3.4521560978E-003 +9.6689043136E+001  +1.3767763761E-003 +1.1292412422E+002  +5.4844287776E-001 -1.0872525786E+000 
10020614.518 +5.7440560415E-001 +5.6985500689E+000  +4.7677498409E-003 +8.3164597110E+001  +5.0637968425E-003 +1.0747609443E+002  +5.9870444908E-001 -1.2242460158E+000 
10145759.700 +5.7699487544E-001 +7.5239968603E-001  +7.7645616935E-003 +8.8765812777E+001  +3.1348619364E-003 +9.0400842203E+001  +6.1846282088E-001 -4.7660899931E+000 
10270904.881 +5.2276638308E-001 +5.9621613335E+000  +1.3163608919E-003 +1.2132273638E+002  +5.8400790094E-003 +9.1012499507E+001  +5.5510203762E-001 -4.8943994554E+000 
10396050.063 +5.7281905816E-001 +3.8144109360E+000  +2.5329524194E-003 +1.0891022827E+002  +4.2258872033E-003 +8.9372833928E+001  +5.3392874395E-001 -2.7152386115E+000 
10521195.244 +5.5892671528E-001 +3.2252846435E+000  +5.2315812966E-003 +8.5126421719E+001  +3.3018548562E-003 +9.1285759804E+001  +6.0642376979E-001 -7.7909289736E-001 
10646340.426 +5.6084359798E-001 +6.9316145873E+000  +2.7518350884E-003 +7.6948199036E+001  +6.3517983594E-003 +8.4081822917E+001  +6.0255931249E-001 +7.6400753458E-001 
10771485.607 +5.7880030159E-001 +6.2460323518E+000  +4.4415528543E-003 +8.4573039554E+001  +4.5848815117E-003 +1.0699997081E+002  +5.9463287654E-001 +2.9290461838E+000 
10896630.788 +5.8847866862E-001 +6.8772944160E+000  +3.6734284416E-003 +5.8096036181E+001  +3.6024079170E-003 +1.0877345603E+002  +5.9322189309E-001 +2.8513572235E+000 
11021775.970 +6.0426401511E-001 +6.7085613476E+000  +4.6902482315E-003 +1.0295254459E+002  +4.8214337490E-003 +7.9322558784E+001  +6.2071483660E-001 -2.3660808175E-002 
11146921.151 +6.0040543230E-001 +6.1142211564E+000  +5.4404924149E-003 +9.4222541769E+001  +6.0265005388E-003 +8.5769773242E+001  +6.1611273638E-001 +1.9389768199E+000 
11272066.333 +6.5352889051E-001 +5.3093408788E+000  +2.9870631042E-003 +7.0411721797E+001  +5.1304180836E-003 +9.4890876318E+001  +6.1386322337E-001 +1.9538892061E+000 
11397211.514 +6.0240043300E-001 +6.2301783453E+000  +7.2216193012E-003 +9.2077688846E+001  +6.5272786298E-003 +9.0231203407E+001  +6.5157179965E-001 +1.6596646088E+000 
11522356.696 +6.1983816545E-001 +5.7493185467E+000  +4.5508894882E-003 +1.0311369988E+002  +4.5859983585E-003 +8.6853434549E+001  +6.4243620662E-001 +1.7419587958E+000 
11647501.877 +6.2053791171E-001 +7.0792727464E+000  +3.2742620722E-003 +8.8552671026E+001  +3.6465245182E-003 +7.5433968371E+001  +6.2612018529E-001 +1.4400303669E+000 
11772647.059 +6.5026736473E-001 +8.5422723122E+000  +5.0355606628E-003 +9.4672021790E+001  +5.4267288203E-003 +1.1387449314E+002  +6.5215244951E-001 -5.8510900811E-001 
11897792.240 +6.7944836054E-001 +5.2565995710E+000  +4.5390155833E-003 +7.6117584977E+001  +3.9893716926E-003 +1.2010697769E+002  +6.7486758885E-001 +2.7556366000E-002 
12022937.422 +6.6858048119E-001 +5.7145809677E+000  +5.7767614055E-003 +1.0239416110E+002  +6.9854606846E-003 +1.2352264114E+002  +6.7739972433E-001 +2.8636136708E+000 
12148082.603 +6.8444610315E-001 +4.2526056792E+000  +6.6740923807E-003 +8.2308689406E+001  +6.0703194860E-003 +9.4170888902E+001  +7.2096694498E-001 +4.6137652338E-001 
12273227.785 +6.9393642205E-001 +2.2431497119E+000  +6.2210865943E-003 +7.5588419822E+001  +5.0270237250E-003 +9.7075527834E+001  +7.0054320919E-001 -3.7425785440E-001 
12398372.966 +7.2273195117E-001 +2.6312464729E+000  +7.2649067995E-003 +1.0851735353E+002  +4.9926048559E-003 +9.5802200388E+001  +7.3297916954E-001 +1.0255440904E+000 
12523518.148 +7.4298746573E-001 +1.0101353006E+000  +6.8150273750E-003 +8.4489696935E+001  +6.5731923390E-003 +8.9365676739E+001  +7.2896189565E-001 +1.1867165659E+000 
12648663.329 +7.2925675012E-001 +8.6726476386E-002  +6.7697215746E-003 +8.8336705437E+001  +5.0801361324E-003 +1.0389161245E+002  +7.4749647771E-001 -2.0115238988E+000 
12773808.511 +7.3531759666E-001 +2.0713919944E+000  +5.9152411442E-003 +8.6091699871E+001  +5.8102153056E-003 +8.9490998078E+001  +7.5523084746E-001 +7.5603181564E-001 
12898953.692 +7.9610489392E-001 +1.0453103034E+000  +6.1977111369E-003 +1.0165078918E+002  +6.1895851835E-003 +1.0950585891E+002  +7.7914354813E-001 -1.1213947394E+000 
13024098.874 +7.8371730860E-001 +1.7711254890E+000  +7.1292303890E-003 +9.2860689234E+001  +5.4982440990E-003 +8.6867757437E+001  +7.9720055380E-001 +8.2452669184E-001 
13149244.055 +8.1045059069E-001 +3.1738775491E-001  +6.7467644204E-003 +8.6346213600E+001  +6.4937609071E-003 +8.6426163417E+001  +8.1724044798E-001 -7.0213851308E-001 
13274389.237 +8.2123259368E-001 +1.2655569058E-001  +6.5915178222E-003 +8.2902555970E+001  +4.7677295593E-003 +1.0138485160E+002  +8.4575767169E-001 -2.6161577160E+000 
13399534.418 +8.1837417194E-001 -1.9615200112E+000  +6.3777405190E-003 +9.3799190685E+001  +7.5576711947E-003 +8.3672208709E+001  +8.3317996292E-001 -2.9511420847E+000 
13524679.599 +8.6026705075E-001 -6.6260690259E-001  +6.5547644123E-003 +8.5578395722E+001  +6.8283196699E-003 +9.0250220651E+001  +8.5572541827E-001 -1.9315280924E+000 
13649824.781 +8.5849603699E-001 -1.4745332275E+000  +6.7373461262E-003 +8.8440268399E+001  +6.9983868294E-003 +9.6911095975E+001  +9.1101444468E-001 -2.3366074472E+000 
13774969.962 +8.7789395966E-001 -3.7526451426E+000  +6.1462606695E-003 +9.0011889509E+001  +8.5270905760E-003 +9.2844471489E+001  +8.9714520542E-001 -3.7146364759E+000 
13900115.144 +8.9530326537E-001 -3.6327983093E+000  +6.6512684402E-003 +8.4211607446E+001  +6.1478472253E-003 +1.0033939555E+002  +9.2440461837E-001 -2.9311261970E+000 
14025260.325 +9.3142412570E-001 -5.4808970745E+000  +9.7211257413E-003 +8.8626436734E+001  +6.5755769963E-003 +9.2254990374E+001  +9.3231054008E-001 -3.6935402076E+000 
14150405.507 +9.4015726764E-001 -4.1283257950E+000  +7.9912770442E-003 +1.0133841406E+002  +7.2878615794E-003 +8.4257567214E+001  +9.6124656688E-001 -4.2675532456E+000 
14275550.688 +9.5556100283E-001 -5.0608958659E+000  +7.3917604359E-003 +9.0765213086E+001  +6.1947539210E-003 +1.0184762614E+002  +9.7167601327E-001 -4.2204376804E+000 
14400695.870 +9.8635438861E-001 -5.3179890576E+000  +7.6812598387E-003 +9.5650744340E+001  +7.8302681954E-003 +9.0043780982E+001  +9.9737166740E-001 -5.3373735756E+000 
