!  2-Port S-parameters saved by WinCal
! VAR MeasName=S-Parameters (CALIBRATED_DATA) read from VNA (P5004A)
! VAR MeasDate=27/08/2024 16:50:22
! VAR NAME=S2_r2c9_SET3_9k-100M_3
! VAR FILENAME=S2_r2c9_SET3_9k-100M_3.S2P
! VAR DATE=27/08/2024 16:50:22
! VAR PHYS_PORTS=1,2
! VAR ObjTypeName=DATASET
! VAR IndexType=Frequency
!
# Hz S MA R 50
9000.000 +9.3611840109E-002 -1.3330297949E+002  +8.4865844217E-003 -1.2319869278E+002  +2.8186442773E-002 -1.0634648478E+002  +3.1740516657E-001 -1.2134391623E+002 
134145.181 +1.1181888619E-001 +1.6943631273E+002  +2.8950363463E-004 +2.4122971979E+001  +3.1502139141E-004 -1.2937579934E+002  +2.3803882243E-001 -1.7053592182E+002 
259290.363 +1.1222890759E-001 +1.6972185868E+002  +4.8694824183E-004 -7.1187317968E+001  +7.6207931917E-004 +7.0473231684E+001  +2.3923835677E-001 -1.6881235182E+002 
384435.544 +1.1257294042E-001 +1.6980130110E+002  +5.4313406190E-004 -2.3189620533E+001  +1.1929929128E-003 +1.7111327165E+002  +2.4675951640E-001 -1.6866872864E+002 
509580.726 +1.1411037270E-001 +1.7067027916E+002  +2.2368389257E-004 -5.3631605844E+000  +9.9815884389E-004 +3.7845634801E+001  +2.5615293467E-001 -1.6556799170E+002 
634725.907 +1.1632623502E-001 +1.7068577936E+002  +3.1164997080E-004 -3.5593996409E+001  +1.1223659189E-003 +9.6473128438E+000  +2.4450285831E-001 -1.6821697401E+002 
759871.089 +1.1684514624E-001 +1.7061503432E+002  +3.0225346651E-004 -1.7194085390E+002  +1.2362182940E-003 +4.1617201965E+001  +2.3214361910E-001 -1.6646347529E+002 
885016.270 +1.1856183379E-001 +1.6910733031E+002  +2.5315419928E-004 -4.5553202745E+001  +2.5376127859E-004 +1.0726753817E+002  +2.3439113309E-001 -1.6509040242E+002 
1010161.452 +1.1987745288E-001 +1.7143457205E+002  +1.2649514603E-003 -1.2575235914E+002  +1.7188804530E-003 +1.7438328785E+002  +1.9416119145E-001 -1.7461091345E+002 
1135306.633 +1.1273848462E-001 +1.6979589421E+002  +1.1559940643E-003 -4.4575070297E+001  +2.2460217989E-003 +1.7939365634E+002  +1.8657223677E-001 -1.7148764605E+002 
1260451.815 +1.1699905492E-001 +1.7059702217E+002  +1.7357866312E-003 -8.8155135464E+001  +1.3413566678E-003 -1.4043437535E+001  +2.2657345979E-001 -1.6148240652E+002 
1385596.996 +1.2534852422E-001 +1.7234101727E+002  +1.4670421451E-003 -1.3768498958E+002  +9.3224275088E-004 -1.6794900891E+002  +2.5942748992E-001 -1.5327807643E+002 
1510742.178 +1.2742065967E-001 +1.7210391989E+002  +6.7313363745E-004 -7.7500535295E+001  +1.1618480849E-003 +1.5756243511E+002  +2.6668420621E-001 -1.5811869633E+002 
1635887.359 +1.2401331271E-001 +1.7068615843E+002  +9.0160398261E-004 +5.3095180622E+001  +1.9632563779E-003 +1.6410233178E+002  +2.3735982560E-001 -1.5836631948E+002 
1761032.541 +1.2662841035E-001 +1.6959811568E+002  +3.6205863162E-003 +1.8259811706E+001  +1.4940278739E-003 -6.3931768743E+001  +2.2119981532E-001 -1.5830973083E+002 
1886177.722 +1.2980677058E-001 +1.6555972191E+002  +4.5596236536E-003 +9.8815701459E+001  +3.2487528892E-003 -9.0309377147E+001  +1.8120177617E-001 -1.7273815256E+002 
2011322.904 +1.2967912933E-001 +1.6615853033E+002  +3.4425774543E-003 +7.7122919497E+001  +6.1834777306E-003 -1.7631253676E+001  +1.7264612041E-001 -1.7718557892E+002 
2136468.085 +1.2972958141E-001 +1.6459253597E+002  +2.1409856590E-003 +1.4451225062E+002  +4.5666576001E-003 -3.1171911315E+001  +1.8576662737E-001 -1.7836583183E+002 
2261613.267 +1.3708792586E-001 +1.6613075399E+002  +3.1383890549E-003 +6.6853587073E+001  +6.9459141380E-003 -4.4577430947E+001  +1.9511458516E-001 -1.7179423541E+002 
2386758.448 +1.3493183659E-001 +1.6570925256E+002  +9.7407098345E-003 +7.5376470921E+001  +9.0285652772E-003 -2.1641046785E+001  +1.5063722736E-001 +1.5474112102E+002 
2511903.630 +1.3852758430E-001 +1.6059179492E+002  +8.8628474984E-003 +1.1068595968E+002  +7.8323685195E-003 +7.1892159512E+000  +1.8586356938E-001 +1.5495926788E+002 
2637048.811 +1.3464827205E-001 +1.6106255130E+002  +1.5166632356E-002 +7.9636311800E+001  +1.6651431039E-002 -3.2760351609E+001  +1.1476735058E-001 +1.4872622089E+002 
2762193.992 +1.1596450811E-001 +1.6523146737E+002  +4.7641686269E-002 +1.9141455699E+001  +5.8658395401E-002 -9.3847094301E+001  +3.0696208477E-001 -1.7269209754E+001 
2887339.174 +8.6047233482E-002 +1.5967119855E+002  +5.4598845864E-002 +3.5741924519E+001  +4.2894876402E-002 -1.1499432646E+002  +1.0109528983E-001 +3.7670285510E+001 
3012484.355 +1.2009321348E-001 +1.6988576793E+002  +8.4840654073E-003 -1.8692692203E+001  +1.5163088000E-002 -1.4407401680E+002  +2.5282680637E-001 -1.1032777398E+002 
3137629.537 +9.3264633499E-002 -1.7743494008E+002  +5.0307868397E-002 -3.7781968316E+001  +2.2395983197E-002 -1.2396083285E+002  +1.9723443278E-001 -7.7644025678E+001 
3262774.718 +8.8659618568E-002 +1.5453795847E+002  +6.0234615294E-002 +4.0940959236E+001  +4.5517238513E-002 -4.3077577151E+001  +2.5242132926E-001 +8.8912960363E+001 
3387919.900 +1.2542250285E-001 +1.6697478648E+002  +2.6856046049E-002 -7.4489227351E+000  +3.1467888890E-002 -1.2023543390E+002  +4.3616090359E-001 -5.6301179207E+001 
3513065.081 +1.5219194697E-001 +1.2175851476E+002  +2.2209426946E-001 +4.6930201973E+001  +2.1931126639E-001 -1.4221485439E+001  +1.6413892412E+000 +1.5759014110E+001 
3638210.263 +1.7598057727E-001 +1.4579067928E+002  +7.3168797703E-002 +1.4811393897E+002  +9.2142196284E-002 +7.1952766524E+001  +1.4565047342E+000 +1.4115524490E+002 
3763355.444 +1.6195695669E-001 +1.5529517028E+002  +2.9848397998E-002 +1.3130698734E+002  +2.6703368881E-002 +7.0169038069E+001  +7.4621555558E-001 +1.5618087564E+002 
3888500.626 +1.7439683674E-001 +1.5289498091E+002  +1.6798531333E-002 +1.1945687571E+002  +2.3313442818E-002 +2.8310715034E+001  +4.0629077853E-001 +1.4519085364E+002 
4013645.807 +1.6154017268E-001 +1.3932099917E+002  +4.3300543614E-002 +7.6698083494E+001  +5.1776625091E-002 +3.1757771587E+001  +4.1124953734E-001 +1.2890631795E+002 
4138790.989 +1.8225669131E-001 +1.4827776201E+002  +2.5299714014E-002 +7.7176883905E+001  +2.2781413540E-002 +2.4880995061E+001  +2.8661534088E-001 +1.2121399301E+002 
4263936.170 +2.1664195693E-001 +1.3746790860E+002  +4.0596462057E-002 +7.9890328305E+001  +3.3177574877E-002 +3.7933190000E+000  +1.3882402985E-001 +1.2569027004E+002 
4389081.352 +2.0128018281E-001 +1.4499610068E+002  +2.4569683840E-002 +9.6386532825E+001  +2.4767508342E-002 +1.7874295452E+001  +3.8180236773E-001 +1.4330426332E+002 
4514226.533 +1.8103755816E-001 +1.2166731205E+002  +3.7399034650E-002 +1.2644165177E+002  +4.8772206476E-002 +4.3823690928E+001  +6.2374616957E-001 +1.5070014059E+002 
4639371.715 +3.2346498976E-001 +1.3790464337E+002  +9.2511949853E-002 +1.0079933641E+002  +9.0359618735E-002 +4.2539902440E+001  +7.4299160709E-001 +6.0337881126E+001 
4764516.896 +3.5587888322E-001 +1.1768142607E+002  +2.0852494324E-001 +6.7589559834E+001  +2.4635809880E-001 +2.5023953628E+001  +1.9807329722E+000 +2.7715334429E+001 
4889662.078 +4.2825933497E-001 +1.2729586722E+002  +2.4402053890E-001 +1.9142348257E+001  +2.4034691947E-001 -3.8865570333E+001  +2.7262377358E+000 -5.6017110234E+001 
5014807.259 +3.9225139056E-001 +1.2937361944E+002  +4.8607218048E-001 +9.4229986293E+001  +3.8646496509E-001 +4.4250436634E+001  +6.9266721449E+000 +5.3812657776E+001 
5139952.441 +3.2524275169E-001 +1.2590822233E+002  +1.7553528494E-001 +8.6885053910E+001  +1.5983900526E-001 +5.0923370411E+001  +1.9929577365E+000 +7.3674152512E+001 
5265097.622 +3.4031138900E-001 +1.2633793683E+002  +5.5226294583E-001 +8.7475159442E+001  +4.7197845956E-001 +5.2410474970E+001  +7.7263082549E+000 +6.5997271459E+001 
5390242.804 +4.0714673982E-001 +1.2950872968E+002  +1.5131632933E-001 +1.2514897357E+002  +1.6472563815E-001 +9.2238058977E+001  +2.1962656701E+000 +1.1265870055E+002 
5515387.985 +4.1863153036E-001 +1.3189722722E+002  +8.8196945041E-002 +1.1185350270E+002  +7.8172792265E-002 +7.8582737615E+001  +1.4210057306E+000 +1.1202086221E+002 
5640533.166 +4.6912529064E-001 +1.3008310516E+002  +1.0351168171E-001 +1.0925868871E+002  +1.0949098039E-001 +8.6037014662E+001  +1.7610078256E+000 +1.0258710313E+002 
5765678.348 +4.9552109679E-001 +1.2653824668E+002  +2.1610263314E-001 +1.0108806893E+002  +1.9477462018E-001 +7.4758735492E+001  +3.4882439323E+000 +7.8651750531E+001 
5890823.529 +5.5146118179E-001 +1.1976795996E+002  +1.4827866861E-001 +6.7609117574E+001  +1.4109992133E-001 +5.3413010726E+001  +2.1405675863E+000 +5.3152556232E+001 
6015968.711 +5.8673844152E-001 +1.2432249377E+002  +1.2901739204E-001 +8.2187845223E+001  +1.3198615642E-001 +5.2012186720E+001  +1.4970881777E+000 +6.1734794574E+001 
6141113.892 +6.8714972789E-001 +1.0602492558E+002  +1.2944812085E-001 +6.1456897039E+001  +1.4828009823E-001 +3.8235370583E+001  +1.2761138921E+000 +4.6675037519E+001 
6266259.074 +5.9912246961E-001 +9.8941148336E+001  +1.5608606364E-001 +4.2585182538E+001  +1.5950123821E-001 +1.3505364395E+001  +1.6576389630E+000 +2.7387019821E+001 
6391404.255 +7.8505475373E-001 +1.0366006127E+002  +1.6133590006E-001 +5.6567469361E+001  +1.4468460890E-001 +2.7022432765E+001  +1.7071304127E+000 +2.3466976462E+001 
6516549.437 +1.3028814810E+000 +9.9287774650E+001  +1.6106332059E-001 +5.5027555950E+001  +1.7710195591E-001 +4.8791615098E+001  +1.1163447796E+000 +2.0375007976E+001 
6641694.618 +1.2843088251E+000 +5.9800345993E+001  +1.9997542931E-001 +2.2205445175E+001  +1.8546071047E-001 +1.7385617323E+001  +1.2148209890E+000 +1.3947869414E+001 
6766839.800 +1.5303455404E+000 +6.2859455486E+001  +2.0856847856E-001 +2.4427109966E+001  +1.9586299998E-001 +9.4111493764E+000  +1.2318394389E+000 -1.6539636145E+000 
6891984.981 +1.6744500037E+000 +3.3625845366E+001  +1.7446793317E-001 +1.0984229772E+001  +1.9042318653E-001 +1.1851494782E+000  +9.7405793764E-001 -6.6467892111E+000 
7017130.163 +1.5133992661E+000 +1.5802333409E+001  +1.6290318000E-001 -3.0962054290E+000  +1.4353136829E-001 -9.4496593630E+000  +1.3007950122E+000 -1.5383293900E+001 
7142275.344 +1.0636472647E+000 +8.2411007336E+000  +1.1565778421E-001 -2.0811259562E+000  +1.0729187618E-001 -1.8887709694E+000  +1.2581537459E+000 -8.4476960258E+000 
7267420.526 +1.2442545248E+000 -2.7011021544E+000  +1.1265672379E-001 +6.9072092846E+000  +1.0798836062E-001 -9.1752924207E-001  +1.1721541913E+000 -1.1758254139E+001 
7392565.707 +1.2658093326E+000 +3.1032018649E+000  +9.3023107135E-002 +7.2650785030E+000  +8.5713128560E-002 +1.2646933697E+001  +1.0771321280E+000 -5.6528217134E+000 
7517710.889 +1.0163504585E+000 -7.6625659195E+000  +8.9040473194E-002 -2.4806869214E-001  +9.1390818457E-002 +9.1816343101E+000  +1.0489443681E+000 -2.7024764772E+000 
7642856.070 +8.6775282885E-001 -2.3601390519E+000  +8.1789385146E-002 +4.4578412422E+000  +7.9552016497E-002 +7.1544852179E+000  +1.0078360057E+000 -1.0901432840E+001 
7768001.252 +8.6357024480E-001 +9.3562895194E+000  +7.7941541248E-002 +1.6568455233E+000  +7.1507704256E-002 +8.2264077989E+000  +8.5449192311E-001 -2.3118618351E+000 
7893146.433 +8.0873120282E-001 +3.2950384161E+000  +6.9230699430E-002 +4.9820947045E+000  +7.5061461574E-002 +9.6506051218E+000  +8.9563911696E-001 -2.4165405253E+000 
8018291.615 +8.6354751280E-001 +6.6187698865E+000  +6.9336976733E-002 +1.0126536840E+000  +7.2295477771E-002 +1.2869367707E+001  +7.5632855128E-001 +2.0109188244E+000 
8143436.796 +7.2327396542E-001 +7.5710740938E+000  +6.6473479252E-002 +3.7452685267E+000  +7.1874745279E-002 +4.1280311483E+000  +7.7928563729E-001 +2.0284264207E+000 
8268581.977 +6.8296551163E-001 +5.7727084766E+000  +7.1501407736E-002 -4.8997338738E+000  +7.1455456838E-002 +1.1967218723E+001  +7.7864177844E-001 +6.8155265053E+000 
8393727.159 +5.8892026863E-001 +8.1955342314E+000  +6.8688487076E-002 -2.2783153007E+000  +6.5275837733E-002 +1.0737774463E+001  +7.2686282399E-001 +4.4608617198E-001 
8518872.340 +6.2155511163E-001 +5.1506017648E+000  +6.6433977464E-002 -2.0035708929E-001  +6.5506948853E-002 +1.0919294019E+001  +6.5507063365E-001 -1.5341507233E+000 
8644017.522 +5.5293937466E-001 +8.4289151750E+000  +6.4043719069E-002 +1.8839220522E-001  +6.5951940627E-002 +9.7092495020E+000  +5.9134496300E-001 -1.2116109811E+000 
8769162.703 +5.7117914918E-001 +1.5357762434E+001  +6.3510137421E-002 -1.6429704474E+000  +6.2669686850E-002 +1.3707856310E+001  +6.2644212458E-001 +1.8573679894E+000 
8894307.885 +5.0914153281E-001 +6.2639158669E-001  +6.6493890135E-002 -1.8428366498E+000  +6.6992289953E-002 +9.5251476690E+000  +5.8272289726E-001 +2.8861535476E+000 
9019453.066 +5.0887197774E-001 +4.5888491352E+000  +6.6297191738E-002 -2.4923531610E+000  +6.0807778572E-002 +1.1274651602E+001  +5.8531777018E-001 +1.7972265416E+000 
9144598.248 +5.6532388812E-001 +6.0266735939E+000  +6.3379941945E-002 -2.2093933270E+000  +6.3598337034E-002 +1.1293200169E+001  +5.1870650277E-001 -4.7179865143E-001 
9269743.429 +5.0179616649E-001 +6.6194933053E+000  +6.2887828680E-002 -2.7822256033E+000  +6.1599597191E-002 +1.5962358741E+001  +5.5952244170E-001 +2.1406387817E+000 
9394888.611 +5.1691407509E-001 +8.4894222754E+000  +6.5087658370E-002 -1.4252388043E+000  +6.0362921703E-002 +1.5249167969E+001  +5.3237669257E-001 -4.1008390560E+000 
9520033.792 +5.1406553526E-001 -1.6723425823E+000  +5.9513191204E-002 -1.5873661502E+000  +6.3340124810E-002 +1.3381982977E+001  +5.4957508882E-001 -2.0279714026E+000 
9645178.974 +4.6791548164E-001 +7.1608459405E-001  +6.3889913226E-002 -1.4602947499E+000  +6.0684707870E-002 +1.3419144071E+001  +5.3861230475E-001 -3.1861209818E+000 
9770324.155 +4.2801346092E-001 -2.9824422557E-001  +6.3793250776E-002 -1.1777434209E-002  +6.3554307689E-002 +1.2735396653E+001  +5.0077852653E-001 -2.2143031694E+000 
9895469.337 +4.7655022916E-001 +1.8866611182E+000  +6.3687577094E-002 -1.9906994557E+000  +6.2850999281E-002 +1.5685684375E+001  +5.3221984529E-001 -6.2749620813E+000 
10020614.518 +4.8555586797E-001 +9.7550360112E-001  +6.2395562617E-002 -1.5588009011E+000  +6.3804701075E-002 +1.5075111761E+001  +4.8679048300E-001 -4.1904047096E+000 
10145759.700 +4.9183764029E-001 +1.0862222787E+000  +6.7105600881E-002 -2.6013254606E+000  +6.2351588489E-002 +1.5679566390E+001  +4.9015139832E-001 +3.2966718529E+000 
10270904.881 +4.8889475138E-001 +4.0469872408E+000  +6.4838216616E-002 -3.1179162521E+000  +6.5242587271E-002 +1.8178116732E+001  +5.2354260114E-001 -1.2675336417E+000 
10396050.063 +5.1735264533E-001 +6.4411002608E+000  +6.5902829602E-002 +1.4880711865E+000  +6.6284555116E-002 +1.7996428199E+001  +5.3369180034E-001 +4.1603919637E+000 
10521195.244 +4.7695782810E-001 +6.1382602623E+000  +6.4972810689E-002 -5.6967036485E-001  +6.4348950515E-002 +1.4985989499E+001  +4.9699406713E-001 +3.0442662182E+000 
10646340.426 +4.6871295853E-001 +3.4068833529E+000  +6.4004018098E-002 -9.0385856382E-001  +6.3092859541E-002 +1.4514956080E+001  +5.2633540176E-001 +2.5105537875E+000 
10771485.607 +5.2923811793E-001 +6.7804597063E+000  +6.6129105851E-002 -6.1742787859E-001  +6.6347520428E-002 +1.5203652658E+001  +5.4676555593E-001 +5.8968849308E-001 
10896630.788 +5.4336754689E-001 +4.6321233499E+000  +6.7326572121E-002 +2.2051056984E+000  +6.4785218567E-002 +1.4820504372E+001  +4.9304645016E-001 -1.4066554165E+000 
11021775.970 +5.0748714276E-001 +6.5694650494E+000  +6.6137774209E-002 +3.3298396706E+000  +6.5509694162E-002 +1.6980981467E+001  +5.9091286403E-001 +2.1236098696E+000 
11146921.151 +5.2134174972E-001 +5.2732340129E+000  +6.8158384258E-002 +3.9311947911E+000  +6.5889873889E-002 +1.5424272947E+001  +5.4558777283E-001 +4.7088852616E+000 
11272066.333 +5.3184831474E-001 +9.6764214697E+000  +6.7159708837E-002 +4.3692352830E+000  +6.5578739956E-002 +1.5951432997E+001  +5.8218685329E-001 +6.2686545385E-001 
11397211.514 +5.4261689577E-001 +5.0475014327E+000  +6.7364403451E-002 +3.2539626913E+000  +6.9342789543E-002 +1.5717225527E+001  +5.7619036442E-001 +1.5372605179E+000 
11522356.696 +5.5738628633E-001 +9.1946071863E+000  +7.0009140847E-002 +3.5832621978E+000  +6.7238125465E-002 +1.5153925827E+001  +5.6521870030E-001 +2.7200798984E+000 
11647501.877 +5.8067464828E-001 +6.5126823759E+000  +6.9174953556E-002 +3.8503056846E+000  +6.8876139554E-002 +1.5934043630E+001  +6.1214027762E-001 +8.7063563989E-001 
11772647.059 +5.8240793010E-001 +5.8239791216E+000  +6.9807039385E-002 +4.4308553354E+000  +7.0234375632E-002 +1.7064688171E+001  +5.6160925807E-001 +1.8128328059E+000 
11897792.240 +5.8986774100E-001 +6.1035883368E+000  +7.1110856676E-002 +5.5247710306E+000  +6.9744725928E-002 +1.3163962768E+001  +5.9663924526E-001 +3.5647453709E+000 
12022937.422 +5.9753677563E-001 +6.1722051688E+000  +7.2649273308E-002 +4.5822957680E+000  +7.2360426215E-002 +1.3583074322E+001  +6.2631757440E-001 +6.5576714402E-001 
12148082.603 +5.7526796705E-001 +4.2593933884E+000  +7.2384678914E-002 +5.4732182120E+000  +7.2292289563E-002 +1.4454137432E+001  +6.1947256256E-001 +1.9205188796E+000 
12273227.785 +6.3215494294E-001 +2.8920641141E+000  +7.2416468316E-002 +6.6275333091E+000  +7.2427974890E-002 +1.4827189754E+001  +6.3337567855E-001 +3.3901199955E+000 
12398372.966 +6.3218995444E-001 +5.4202763812E+000  +7.4162213742E-002 +5.9792818135E+000  +7.4095252204E-002 +1.3322797609E+001  +6.6631482306E-001 +1.0096763958E+000 
12523518.148 +6.4900765673E-001 +2.5076081757E+000  +7.7410956724E-002 +5.2021263131E+000  +7.4906708843E-002 +1.4617070154E+001  +6.5924060087E-001 +7.7122920807E-001 
12648663.329 +6.6017685721E-001 +1.6718273663E+000  +7.6268866613E-002 +6.0178923124E+000  +7.5559950763E-002 +1.3903469839E+001  +6.5407895631E-001 -2.2559322248E+000 
12773808.511 +6.8660374100E-001 +1.6887573465E+000  +7.6214478215E-002 +6.0275195271E+000  +7.5672072108E-002 +1.2280128609E+001  +6.8300450727E-001 -1.2946399748E+000 
12898953.692 +6.9734054308E-001 +1.5130046527E+000  +7.7338991597E-002 +5.5260301386E+000  +7.6157900504E-002 +1.2224312636E+001  +6.8710937484E-001 -1.5209510328E+000 
13024098.874 +7.2041393086E-001 +1.4428396909E+000  +7.9982434314E-002 +7.2508146653E+000  +7.8272554998E-002 +1.3107922525E+001  +7.5366340219E-001 -2.1522334542E+000 
13149244.055 +7.3626446841E-001 -6.8934543458E-001  +8.1534693371E-002 +7.3240623619E+000  +7.7763597976E-002 +1.1474571340E+001  +7.6796552942E-001 -4.2924241805E-001 
13274389.237 +7.5027732136E-001 +6.7776392909E-001  +8.0162569513E-002 +8.1752830716E+000  +8.0590056899E-002 +1.1166915258E+001  +7.2389499636E-001 -8.3241421686E-001 
13399534.418 +7.2634244654E-001 -1.2819591267E+000  +8.1187045811E-002 +5.5251997546E+000  +8.0347613859E-002 +9.8155911205E+000  +7.3857605768E-001 -2.2403034532E+000 
13524679.599 +7.6994256096E-001 +2.9623464026E-001  +8.0551336812E-002 +5.5072823765E+000  +8.1439191099E-002 +1.0089261261E+001  +7.8391248068E-001 -1.9913995281E+000 
13649824.781 +8.0344917819E-001 -8.2708247610E-001  +8.2874024079E-002 +6.8904729355E+000  +8.0005012259E-002 +8.9039279917E+000  +8.2566475084E-001 -2.0998351937E+000 
13774969.962 +8.1142512985E-001 -2.9669190991E+000  +8.3016007400E-002 +6.8509286547E+000  +8.2254913039E-002 +8.7295694627E+000  +7.9229927190E-001 -2.7709527972E+000 
13900115.144 +8.1970250362E-001 -3.0928093631E+000  +8.3407687287E-002 +6.3447773294E+000  +8.2874090080E-002 +8.4584860080E+000  +8.2720103773E-001 -2.9998414351E+000 
14025260.325 +8.2026879149E-001 -3.6650474945E+000  +8.3629935834E-002 +7.8840632272E+000  +8.4512029918E-002 +8.4776363455E+000  +8.5079196617E-001 -2.9404818272E+000 
14150405.507 +8.4528081500E-001 -4.0551922343E+000  +8.4854864669E-002 +6.3343959609E+000  +8.4156052360E-002 +7.9772500139E+000  +8.6309047239E-001 -4.4558828481E+000 
14275550.688 +8.6620988973E-001 -5.6132436123E+000  +8.5794130140E-002 +7.4162805803E+000  +8.4523835951E-002 +7.6399563744E+000  +9.0689938601E-001 -4.6229378408E+000 
14400695.870 +8.9532322492E-001 -5.5920500566E+000  +8.6234122201E-002 +5.7117205200E+000  +8.3586149357E-002 +7.5730165979E+000  +8.9918003406E-001 -3.7555667182E+000 
