!  2-Port S-parameters saved by WinCal
! VAR MeasName=S-Parameters (CALIBRATED_DATA) read from VNA (P5004A)
! VAR MeasDate=27/08/2024 15:04:16
! VAR NAME=S2_r3c8_RESET2_9k-100M_3
! VAR FILENAME=S2_r3c8_RESET2_9k-100M_3.S2P
! VAR DATE=27/08/2024 15:04:16
! VAR PHYS_PORTS=1,2
! VAR ObjTypeName=DATASET
! VAR IndexType=Frequency
!
# Hz S MA R 50
9000.000 +7.6746669083E-002 -1.5268500199E+002  +1.2237491769E-002 -6.4586508366E+001  +6.1225580229E-003 -8.3068654992E+001  +2.0660393978E-001 -1.4056326408E+002 
134145.181 +1.1054704706E-001 +1.6935966762E+002  +2.2085911984E-004 -7.2192178792E+001  +2.4001284247E-004 -6.8135175244E+001  +2.3941824437E-001 -1.7149876175E+002 
259290.363 +1.1139195988E-001 +1.6995407015E+002  +6.5272252001E-004 +1.9283188003E+001  +3.3121672135E-004 +6.2742653068E+001  +2.3828265210E-001 -1.6620240534E+002 
384435.544 +1.1303368464E-001 +1.7042166292E+002  +9.0812721286E-004 +5.3233733121E+001  +1.5083234678E-003 +4.2827077244E+000  +2.4015320007E-001 -1.6526613174E+002 
509580.726 +1.1438256659E-001 +1.7096531713E+002  +9.9718849519E-004 -1.7290622689E+002  +4.7210982536E-004 -1.0312004758E+002  +2.4750142505E-001 -1.6607925528E+002 
634725.907 +1.1695595045E-001 +1.7038185405E+002  +5.4239848120E-004 +3.6303283771E+001  +1.0590170192E-003 +1.5609479486E+002  +2.4960988761E-001 -1.6498372326E+002 
759871.089 +1.1731578455E-001 +1.7123723463E+002  +3.3641461289E-004 -1.2651657455E+002  +3.4279419541E-004 -9.2312716168E+001  +2.4569187027E-001 -1.6391611007E+002 
885016.270 +1.1860983988E-001 +1.6978021266E+002  +1.9644029928E-004 -1.7760533536E+002  +2.8447573401E-004 -5.5657769984E+001  +2.4327033975E-001 -1.6604568069E+002 
1010161.452 +1.1475531000E-001 +1.7147203066E+002  +4.1069704146E-003 -1.4192172116E+002  +6.9971433734E-003 +1.4069878270E+002  +9.8443902423E-002 -1.2956454665E+002 
1135306.633 +1.1109172233E-001 +1.7063160127E+002  +3.9891803711E-003 +1.0052435754E+002  +3.0528257080E-003 +1.0983436124E+002  +1.7420185536E-001 -1.5295904215E+002 
1260451.815 +1.2029892685E-001 +1.6995512474E+002  +7.8963635514E-004 +1.0128200211E+002  +1.7218986993E-003 +1.4250007613E+002  +2.5897539767E-001 -1.5650451793E+002 
1385596.996 +1.2497801581E-001 +1.7171008262E+002  +9.3797729812E-004 +2.0474300180E+001  +1.2608200303E-003 +1.4729140269E+002  +2.4209719264E-001 -1.5570711092E+002 
1510742.178 +1.2743126638E-001 +1.7178051799E+002  +1.2242791103E-004 +4.4572175152E+000  +7.4753247975E-004 -1.5499241076E+002  +2.6418866112E-001 -1.5673387949E+002 
1635887.359 +1.2639651518E-001 +1.6874664128E+002  +4.6219452901E-004 -8.6369002469E+001  +8.3780005021E-004 -1.0520472626E+002  +2.5017504457E-001 -1.5793928363E+002 
1761032.541 +1.2275629028E-001 +1.6753385431E+002  +1.1871199695E-003 +9.7760029384E+001  +1.0020921168E-003 -1.4564475749E+002  +1.9918287511E-001 -1.5562970646E+002 
1886177.722 +1.3165811475E-001 +1.6867980498E+002  +1.7205014086E-003 +4.1557471901E+001  +1.8541669329E-003 +1.3255887199E+002  +2.0992788950E-001 -1.5234638853E+002 
2011322.904 +1.2458603326E-001 +1.6656774763E+002  +2.0056636810E-003 -3.1822050960E+001  +1.1582781648E-003 -5.4384017820E+001  +1.9748554491E-001 -1.6813448551E+002 
2136468.085 +1.3230638994E-001 +1.6663899919E+002  +9.4547109492E-005 -1.0656027852E+002  +2.1854977823E-003 -6.3910506255E+001  +1.9645817674E-001 -1.7328555084E+002 
2261613.267 +1.3576915187E-001 +1.6408959091E+002  +1.3273112172E-003 -8.2337998907E+001  +1.8264680000E-003 +1.1895739722E+002  +1.7124192382E-001 +1.6306728779E+002 
2386758.448 +1.3715104525E-001 +1.6281890127E+002  +6.7467295852E-003 +7.2836916532E+001  +5.6516233401E-003 -7.7115793181E+000  +1.3095705712E-001 +1.7693052529E+002 
2511903.630 +1.2754860432E-001 +1.6460166479E+002  +1.7798772767E-003 -2.0082988500E+001  +7.1998028326E-003 -5.1021660949E+001  +1.3253682634E-001 -1.7166926243E+002 
2637048.811 +1.3601518698E-001 +1.5871152564E+002  +1.8548537261E-002 -1.7960711644E+002  +1.1074627937E-002 +1.5821263143E+001  +2.5886898004E-001 +1.1408076431E+002 
2762193.992 +8.3119905464E-002 +1.4795295492E+002  +2.0322306825E-002 -1.8094277294E+001  +1.5172621438E-002 -1.5384551162E+002  +1.3890244216E-001 +6.6823676336E+001 
2887339.174 +1.2287681132E-001 +1.6601368866E+002  +5.3271072493E-003 +1.2892547438E+002  +1.7626475163E-002 +2.2239060666E+001  +3.4108212676E-001 -5.5620926646E+001 
3012484.355 +1.1217598025E-001 +1.6925223831E+002  +9.0364659006E-003 +1.7623694264E+002  +1.1336569953E-002 +8.8441432448E+001  +3.3990603014E-001 -5.3922229603E+001 
3137629.537 +1.0223115059E-001 +1.5209569978E+002  +9.3924658229E-003 +5.2108372627E+001  +8.9804804909E-003 -8.3634136265E+001  +2.8848072847E-001 -1.0342989489E+002 
3262774.718 +9.1029396422E-002 +1.6261444669E+002  +8.3267522314E-003 +1.5942078523E+002  +7.2405541224E-003 -9.7150061351E+001  +3.8761168030E-002 +2.1441816784E+001 
3387919.900 +1.0387795668E-001 +1.5318778438E+002  +7.0144999678E-003 +1.4594858852E+002  +8.2513353437E-003 +1.2784238453E+002  +7.0935166222E-002 -1.7404107706E+001 
3513065.081 +1.4773490934E-001 +1.4939373876E+002  +2.0953685679E-002 +5.6280700737E+001  +1.1558569891E-002 -1.3690831427E+002  +4.6406562362E-001 +7.9220990653E+001 
3638210.263 +1.8584024679E-001 +1.4310661534E+002  +1.8964408153E-003 -1.7553302497E+002  +1.2307929643E-002 +6.2587603490E+000  +1.3953203317E-001 +4.7317507694E+001 
3763355.444 +1.7303634459E-001 +1.4365263859E+002  +1.8840612782E-002 +4.3320575876E+001  +1.8576376564E-002 +3.9113525506E+001  +5.3631193832E-001 +1.2367717151E+002 
3888500.626 +1.9008154506E-001 +1.4125179000E+002  +1.1357268953E-002 +1.0039256584E+002  +2.2954226110E-003 +1.1747667365E+002  +4.2696299321E-001 +1.3874285200E+002 
4013645.807 +1.9169668078E-001 +1.4498960763E+002  +1.3817837037E-002 +1.1088853509E+002  +1.5263042539E-002 +1.3333436118E+002  +2.5266993414E-001 +1.3951337697E+001 
4138790.989 +1.5765423965E-001 +1.4379047756E+002  +9.9746199696E-003 +6.9426219629E+001  +5.4777458930E-003 +1.6529491042E+002  +2.2232246739E-001 +1.0580600632E+002 
4263936.170 +1.9733426921E-001 +1.4510284525E+002  +1.1479854042E-002 -1.7500422851E+002  +1.1993269203E-002 -1.2943881480E+002  +6.6822813676E-001 +9.4769315843E+001 
4389081.352 +2.1026060578E-001 +1.3174278542E+002  +1.2150555503E-002 +1.1996131400E+002  +1.9939246936E-002 -5.4421360776E+001  +1.2229893691E+000 +1.2782121906E+002 
4514226.533 +1.9153846513E-001 +1.2663274533E+002  +3.5507333330E-003 -9.2050023340E+001  +3.3713657262E-002 -6.9454094560E+001  +5.3786283992E-001 +2.9997899350E+001 
4639371.715 +2.9599967901E-001 +1.2315478426E+002  +1.9852836546E-002 +1.7968560276E+002  +3.0306715321E-002 -1.3083850958E+002  +1.4106330523E+000 +1.3497660200E+002 
4764516.896 +3.5876504098E-001 +1.2690009201E+002  +8.2452773971E-002 -1.3105606303E+002  +1.5953386060E-001 +8.4120193557E+001  +6.8226720900E+000 +7.0403175592E+001 
4889662.078 +4.0152046137E-001 +1.2654657142E+002  +4.1400722344E-002 +1.1278111444E+002  +4.6035754834E-002 +1.4598208141E+002  +2.1347724575E+000 -7.6799125688E+001 
5014807.259 +5.0007726544E-001 +1.2461612845E+002  +5.0788384185E-002 +3.2922531905E-001  +9.6253270576E-002 -1.1936348024E+002  +3.0418135464E+000 -1.6098672266E+002 
5139952.441 +4.4271918004E-001 +1.3295515472E+002  +1.0534682569E-002 +8.9808353189E+001  +1.1377835999E-002 +1.5661939446E+002  +1.9937652042E+000 +5.4889978595E+001 
5265097.622 +3.9255475990E-001 +1.3157057806E+002  +2.2748651086E-002 -1.4623096796E+002  +1.1996529983E-002 +1.7563521924E+002  +4.0197747296E+000 +1.3012957831E+002 
5390242.804 +5.1629489821E-001 +1.2319501028E+002  +5.3099269945E-002 -1.2663880176E+002  +4.9126437220E-002 +8.1939851219E+001  +3.7868007632E+000 +1.0067535015E+002 
5515387.985 +4.4564961916E-001 +1.3106771147E+002  +3.3429739756E-002 -6.9907138236E+001  +1.9595868704E-002 -1.4014342167E+002  +2.4775912953E+000 +8.8664673896E+001 
5640533.166 +5.0581060356E-001 +1.3214726630E+002  +2.1028140929E-002 +1.1729605928E+002  +1.3984155713E-002 +1.4450590736E+002  +1.2255061569E+000 +7.4679194289E+001 
5765678.348 +5.1737100252E-001 +1.2270231540E+002  +8.7331305562E-003 +1.6235101303E+002  +4.4950333766E-003 +7.3779532706E+000  +1.2700734631E+000 +6.1674494627E+001 
5890823.529 +6.4628372493E-001 +1.2407723197E+002  +1.3830603302E-002 +1.4528509416E+002  +1.2257049091E-002 +4.8855991791E+001  +2.7296206797E+000 +8.4816204111E+001 
6015968.711 +8.0618443527E-001 +1.1339596881E+002  +4.2282538305E-002 -9.8629551622E+001  +1.8074031160E-002 +1.0803047785E+002  +2.5088529747E+000 +6.7990835697E+001 
6141113.892 +8.4780970191E-001 +1.1371636784E+002  +8.7639149288E-002 +1.1248194657E+002  +3.3969782817E-002 +1.0870074097E+002  +2.6681030026E+000 +4.2093315740E+001 
6266259.074 +8.5972504434E-001 +8.8950045741E+001  +1.1538154438E-002 -1.6417498734E+002  +4.0150226114E-002 +5.5816413757E+001  +2.4162804495E+000 +2.7710376199E+001 
6391404.255 +1.2009118846E+000 +8.1890697932E+001  +1.1196519478E-002 -1.2031636817E+001  +3.0877885419E-002 +1.5282952475E+002  +1.4322158007E+000 +1.7604095643E+001 
6516549.437 +1.1419660445E+000 +8.5963358195E+001  +1.0173430887E-002 +1.6737022782E+002  +3.3592234470E-002 +4.6776610751E+001  +1.3116744605E+000 +1.6863158373E+001 
6641694.618 +1.5682324854E+000 +7.8572990417E+001  +1.0494799086E-002 +1.0146981974E+002  +1.6239721225E-002 +8.7790505192E+001  +1.7342643959E+000 -4.4493360250E+000 
6766839.800 +1.3033198645E+000 +5.1398167574E+001  +1.6159671258E-003 +1.5603292233E+002  +1.5892138477E-002 +1.4633477092E+002  +1.2558678173E+000 -1.3825284509E+001 
6891984.981 +1.4666081895E+000 +3.9886990226E+001  +1.5832351127E-003 +1.8080620688E+001  +1.2219400133E-002 +1.2688843687E+002  +1.3387764690E+000 -9.0489592718E+000 
7017130.163 +1.9661179982E+000 +2.6160371734E+001  +2.8223794742E-002 +1.2031919435E+002  +1.5490890893E-002 +3.8751288791E+001  +1.1532081506E+000 -1.6702656536E+001 
7142275.344 +1.7258439843E+000 +9.7239443878E+000  +2.9031199190E-003 +6.8047873397E+000  +9.8529332197E-003 -1.3501157140E+001  +1.3939148065E+000 -4.4548871838E+000 
7267420.526 +1.8431222984E+000 +2.0756624661E-001  +2.3535253344E-002 +1.5207376074E+001  +4.0494237552E-003 +1.6006368738E+002  +1.4087476366E+000 -8.8028643751E+000 
7392565.707 +1.2911293575E+000 -4.4253621237E-001  +1.3923061595E-002 +2.6290813342E+001  +9.1774360386E-003 +7.6333985568E+001  +1.4072207087E+000 -6.5553356914E+000 
7517710.889 +1.1082849203E+000 +2.2821512013E-001  +5.9996155636E-003 +9.2868041624E+001  +8.9853379789E-003 +9.2977223051E+001  +1.1478316604E+000 -9.0472520172E+000 
7642856.070 +1.0254877840E+000 +2.1118886761E+000  +2.1231736643E-003 +1.5465862373E+002  +7.3041718716E-003 +3.4962445994E+001  +1.1255742215E+000 +2.8144305230E+000 
7768001.252 +1.0086934835E+000 -1.2146133076E+000  +3.5907548326E-003 +1.9719025678E+001  +6.3172958668E-003 +8.2595930035E+001  +9.3305295643E-001 -2.0362706251E+000 
7893146.433 +9.4840614142E-001 +2.6757979595E+000  +2.4064653237E-003 +1.0772043920E+002  +7.7499882676E-003 +2.8350650880E+001  +8.9291932060E-001 -3.6460057207E-001 
8018291.615 +8.8626131019E-001 +6.6125637393E+000  +5.4882567730E-003 +7.3743597852E+001  +9.0393669852E-003 +9.1515794801E+001  +8.5067702904E-001 -9.7544637068E-001 
8143436.796 +8.4684123837E-001 +7.9567848391E+000  +5.9944929965E-003 +7.9897336684E+001  +3.0107924192E-003 +8.5043110395E+001  +8.2417488565E-001 -2.8223140832E+000 
8268581.977 +7.7003399515E-001 +1.5670564048E+000  +6.1835175137E-003 +8.2987086431E+001  +3.5907351006E-003 +1.0821939421E+002  +8.1868916276E-001 +2.0719442853E+000 
8393727.159 +6.8573980292E-001 +1.0310653756E+000  +5.1539716092E-003 +6.9851301137E+001  +7.7306170279E-003 +4.3762855283E+001  +7.3188992566E-001 -5.9959950064E-001 
8518872.340 +6.4441350745E-001 +5.3615675826E+000  +5.5714400500E-003 +1.6061836767E+002  +4.0679298025E-003 +9.0045314225E+001  +7.3468163586E-001 -1.8593135372E+000 
8644017.522 +7.1464048168E-001 +3.3133088675E+000  +2.5073501665E-003 -1.8821096679E+001  +2.3339767237E-003 +1.4376223954E+002  +6.6225328736E-001 +1.9316103290E+000 
8769162.703 +6.1474776151E-001 +9.9428566679E+000  +6.6426408531E-003 +8.8557511456E+001  +8.0396845680E-003 +7.8606160470E+001  +6.6026406752E-001 +7.8205328972E-001 
8894307.885 +6.5260830568E-001 +5.4440652631E+000  +2.9902345080E-003 +7.8906261580E+001  +4.7834724894E-003 -2.2701069221E+001  +6.2940527892E-001 -1.3973652218E+000 
9019453.066 +5.7385821680E-001 +4.2876357429E+000  +5.4245301203E-003 +7.9318675293E+001  +6.9886425841E-003 +9.7044571937E+001  +6.4649563483E-001 -6.0861155753E-001 
9144598.248 +5.7971273932E-001 +3.8087899567E+000  +4.5502613034E-003 +9.9531458815E+001  +1.3632238046E-003 +1.1351113323E+002  +6.6310347154E-001 -4.3419496878E+000 
9269743.429 +5.6179315972E-001 +5.4249576008E+000  +2.6331951056E-003 +8.4375331204E+001  +3.9604917953E-003 +7.9104522832E+001  +5.8832693068E-001 -1.7106787991E-001 
9394888.611 +5.5158143881E-001 +2.0225199847E+000  +6.2040924641E-003 +5.8415947596E+001  +3.2956454016E-003 +1.4454283464E+002  +6.4084618481E-001 -1.6767857868E+000 
9520033.792 +6.0782833918E-001 -6.6957545879E-001  +6.6318968934E-003 +2.4513902527E+001  +2.2652478737E-003 +1.0841981819E+002  +5.9422534394E-001 -2.1809991479E+000 
9645178.974 +5.2545509797E-001 -2.5495888885E+000  +7.5754835874E-003 +5.0261350027E+001  +3.4364771653E-003 +6.9034912496E+001  +5.9859878041E-001 -5.4865239407E+000 
9770324.155 +5.3621649012E-001 -3.7017483140E-002  +4.7755044405E-003 +3.7130767564E+001  +6.4734602165E-003 +8.6064733350E+001  +5.8905629337E-001 -4.0524204094E+000 
9895469.337 +5.6259608021E-001 -3.1059309367E+000  +4.2758589332E-003 +6.5562968702E+001  +4.4790148709E-003 +6.1995260037E+001  +5.7759039337E-001 -6.6778136719E+000 
10020614.518 +5.8214651957E-001 +3.1554637013E+000  +4.3280381098E-003 +6.9657654685E+001  +5.2009056447E-003 +3.5803315769E+001  +5.9898976319E-001 +5.7248665438E-001 
10145759.700 +5.5003115860E-001 +1.3694001706E+000  +7.8001501630E-003 +7.9887438369E+001  +7.0247464253E-004 +5.1369896344E+001  +5.5011384563E-001 -9.5642700560E+000 
10270904.881 +5.6556623362E-001 +3.2073318761E+000  +4.8774747828E-003 +9.7280486238E+001  +4.6926326842E-003 +1.1102029081E+002  +5.9093272881E-001 -4.7523441626E-001 
10396050.063 +5.3346431215E-001 +6.3253420248E+000  +5.4625735808E-003 +7.1662867656E+001  +4.4916561861E-003 +5.3591613073E+001  +5.4980348704E-001 -2.9306531227E+000 
10521195.244 +5.5282741672E-001 +9.6114761151E-001  +3.4034394065E-003 +1.1508617023E+002  +6.0049156678E-003 +7.3736290754E+001  +5.9001214112E-001 -3.1223941688E+000 
10646340.426 +5.3654820057E-001 +6.9329395617E+000  +7.5095442424E-003 +5.2986765260E+001  +6.7967540248E-003 +6.4128217763E+001  +6.1221548516E-001 -1.3045906332E+000 
10771485.607 +5.6485330964E-001 +3.3018830858E+000  +3.0223349641E-003 +6.8781203764E+001  +4.2494549507E-003 +8.1402609609E+001  +6.3483392047E-001 +7.3685840445E-002 
10896630.788 +5.6819917617E-001 +5.7346337710E+000  +6.3627601839E-003 +6.6745955630E+001  +3.8717633080E-003 +8.9373284753E+001  +6.1103066311E-001 +2.4780393750E+000 
11021775.970 +5.6964168847E-001 +5.0195916333E+000  +6.4631885798E-003 +9.0984231433E+001  +4.4163114822E-003 +8.9007561072E+001  +6.0920380807E-001 +5.1187258351E-001 
11146921.151 +5.7897535968E-001 +5.3648105538E+000  +6.0916949498E-003 +6.9936882813E+001  +6.2356586771E-003 +6.7762209417E+001  +6.4411608819E-001 +2.0746778116E+000 
11272066.333 +6.1319160158E-001 +6.5184460001E+000  +5.9916845905E-003 +6.9502277241E+001  +3.4329855447E-003 +8.2354370279E+001  +6.1347825816E-001 +1.8675907860E+000 
11397211.514 +6.2222556268E-001 +6.2507318043E+000  +6.1739390425E-003 +7.4762175277E+001  +4.9457444794E-003 +8.8140424854E+001  +6.5427344563E-001 +6.2779328354E-001 
11522356.696 +6.3653004395E-001 +5.7234755875E+000  +2.9085407941E-003 +1.0363323563E+002  +5.1575435450E-003 +4.7556445048E+001  +6.0876484636E-001 -6.1445856267E-001 
11647501.877 +6.3227037104E-001 +5.9448860651E+000  +4.6016615357E-003 +6.4208411129E+001  +6.5622027808E-003 +8.5372079870E+001  +6.2889375867E-001 -3.6186266381E-001 
11772647.059 +6.0340094691E-001 +5.8828837530E+000  +4.8268637922E-003 +9.2028248488E+001  +2.7804055104E-003 +6.8948478614E+001  +6.4757264124E-001 +1.4862570295E+000 
11897792.240 +6.5723890295E-001 +5.1265444261E+000  +5.6186230361E-003 +6.9369886766E+001  +5.1393098871E-003 +1.0374712300E+002  +6.7314694181E-001 +1.0397847170E+000 
12022937.422 +6.7616842183E-001 +3.0203706708E+000  +6.8575645953E-003 +7.9098011089E+001  +6.6010482879E-003 +9.2982109269E+001  +6.7020318929E-001 -5.7542194219E-002 
12148082.603 +6.8913108041E-001 +3.4907406809E+000  +6.4163743143E-003 +7.4099359960E+001  +6.1725780089E-003 +8.2854325518E+001  +7.4817142519E-001 +9.0378946027E-001 
12273227.785 +6.5915725273E-001 +3.2796910954E+000  +6.2828789732E-003 +5.8343887419E+001  +6.0890147930E-003 +8.2371046342E+001  +7.2701091251E-001 -8.7401723332E-001 
12398372.966 +7.1198508387E-001 +3.9477618275E-001  +6.0987269572E-003 +6.6029051670E+001  +6.1962909013E-003 +8.2849704694E+001  +7.3939284000E-001 -1.4205273242E+000 
12523518.148 +7.0496893250E-001 +1.7308018194E+000  +5.3794573067E-003 +6.0233250515E+001  +5.5318017800E-003 +8.9967880572E+001  +7.4562611440E-001 -3.0425527279E-001 
12648663.329 +7.0785318663E-001 +3.4278983106E+000  +6.7838248205E-003 +7.1408311540E+001  +6.1733482259E-003 +8.0220779863E+001  +7.2614493939E-001 -4.0335079081E+000 
12773808.511 +7.3305044846E-001 +2.7323233341E+000  +7.7705779948E-003 +7.3663797762E+001  +6.7060600446E-003 +8.1267000325E+001  +7.7230244976E-001 -7.9937021686E-001 
12898953.692 +7.5730715802E-001 +7.1155123406E-001  +5.2597761474E-003 +7.3548783361E+001  +5.9190581659E-003 +6.9468479851E+001  +7.7908526709E-001 -2.2921048807E+000 
13024098.874 +7.7287887408E-001 -9.6885775026E-001  +7.4176677335E-003 +8.0466234168E+001  +5.5851492144E-003 +7.1237569447E+001  +8.0404321531E-001 -9.3826538021E-001 
13149244.055 +8.0065299842E-001 +4.8903784532E-001  +7.7540602540E-003 +8.5017607498E+001  +5.5974522718E-003 +8.9325377364E+001  +8.3185733964E-001 -1.5752447640E+000 
13274389.237 +7.8922444064E-001 +7.1739898291E-001  +7.7474548988E-003 +7.2080133716E+001  +5.6412122682E-003 +9.4164889442E+001  +8.3810473627E-001 -3.2673737283E+000 
13399534.418 +8.4264184271E-001 -1.0754250950E+000  +7.8266608792E-003 +7.5402879986E+001  +7.2289075459E-003 +7.6231841397E+001  +8.4460375942E-001 -1.3764314183E+000 
13524679.599 +8.6747471610E-001 -2.8666955804E+000  +6.9898966151E-003 +8.2145922064E+001  +6.7418472914E-003 +7.9697094669E+001  +8.6926879076E-001 -3.4929998394E+000 
13649824.781 +8.6836515182E-001 -1.8149525684E+000  +8.5316321522E-003 +8.2882164194E+001  +7.0406221667E-003 +8.1009395347E+001  +8.8221133050E-001 -2.6145008332E+000 
13774969.962 +8.5945775218E-001 -3.0690699925E+000  +7.0600093238E-003 +7.1862402237E+001  +7.4027915256E-003 +6.4480353632E+001  +9.0478639836E-001 -4.0993370930E+000 
13900115.144 +9.1652691627E-001 -3.2739756362E+000  +8.2744597431E-003 +6.2745641567E+001  +6.2697188200E-003 +8.8810256547E+001  +9.1275576341E-001 -4.1767341671E+000 
14025260.325 +9.1877508082E-001 -4.9118481206E+000  +6.4420836594E-003 +8.0955643695E+001  +7.8815810661E-003 +8.2687720412E+001  +9.3370021316E-001 -3.7192515368E+000 
14150405.507 +9.3351082322E-001 -3.9961998868E+000  +8.4564803604E-003 +7.9737030875E+001  +7.0342237585E-003 +8.4611011558E+001  +9.5745417125E-001 -4.4553309268E+000 
14275550.688 +9.4699075840E-001 -4.8441234331E+000  +7.2609572336E-003 +6.7034932969E+001  +7.6889370736E-003 +8.7140624442E+001  +9.7712941431E-001 -3.8843185762E+000 
14400695.870 +9.7839650760E-001 -5.0702103585E+000  +6.5385469947E-003 +7.3100504915E+001  +5.6643529375E-003 +8.2573734995E+001  +9.7401165953E-001 -4.3771547531E+000 
