!  2-Port S-parameters saved by WinCal
! VAR MeasName=S-Parameters (CALIBRATED_DATA) read from VNA (P5004A)
! VAR MeasDate=27/08/2024 14:17:39
! VAR NAME=S2_r2c8_SET1_9k-100M_3
! VAR FILENAME=S2_r2c8_SET1_9k-100M_3.S2P
! VAR DATE=27/08/2024 14:17:39
! VAR PHYS_PORTS=1,2
! VAR ObjTypeName=DATASET
! VAR IndexType=Frequency
!
# Hz S MA R 50
9000.000 +7.9880728799E-002 -1.5940552940E+002  +4.7294125026E-003 +9.2487999292E+001  +3.7081562612E-002 +2.4747411732E+001  +3.6708638940E-001 -8.9859012088E+001 
134145.181 +1.1147147588E-001 +1.6956472401E+002  +1.6185165644E-004 +1.7348169208E+001  +7.1591006076E-004 -1.6904735495E+002  +2.3881665592E-001 -1.7123070970E+002 
259290.363 +1.1225007975E-001 +1.6947020107E+002  +4.8724971154E-004 -6.0602087892E+001  +1.1172079115E-003 +6.8561478202E+001  +2.4297733194E-001 -1.6785287492E+002 
384435.544 +1.1300433716E-001 +1.6946218523E+002  +5.7103855934E-004 -5.8387669755E+001  +2.4423333058E-004 +6.3487390872E+001  +2.4173423896E-001 -1.6870233863E+002 
509580.726 +1.1375285557E-001 +1.7157589765E+002  +1.1612613259E-003 -4.0005128843E+001  +7.0237504791E-004 -1.6989280609E+002  +2.5051672019E-001 -1.6378391715E+002 
634725.907 +1.1706572967E-001 +1.7076420476E+002  +5.4793001181E-004 -8.7587416045E+001  +6.3785394063E-004 +1.2531801551E+002  +2.4682168960E-001 -1.6507918764E+002 
759871.089 +1.1699177102E-001 +1.7066087753E+002  +7.5622290101E-004 -6.4861859390E+001  +6.8794734326E-004 +1.6648095527E+001  +2.4183928710E-001 -1.6558945122E+002 
885016.270 +1.1994401349E-001 +1.6981516129E+002  +3.9637695649E-004 -3.5122419974E+001  +1.4116476331E-004 -8.8016275491E+001  +2.4509272518E-001 -1.6551095177E+002 
1010161.452 +1.1834462254E-001 +1.7155098740E+002  +3.2232460319E-003 -4.7972736412E+001  +3.6973343770E-003 +1.1491460409E+002  +1.7550409680E-001 -1.5159201470E+002 
1135306.633 +1.1837495471E-001 +1.7097068721E+002  +1.0633148970E-003 +6.7205720614E+001  +2.8671082593E-003 +8.9468809532E+001  +2.0023741577E-001 -1.5660347461E+002 
1260451.815 +1.2421703644E-001 +1.7174456513E+002  +1.5919366864E-003 +1.7054175837E+002  +2.7192558078E-004 -2.7272626488E+001  +2.6579394786E-001 -1.5749297349E+002 
1385596.996 +1.2648336369E-001 +1.7134477636E+002  +1.1786687708E-003 -1.2829157728E+002  +1.2219790271E-003 +9.2233859425E+001  +2.4926168946E-001 -1.5894547160E+002 
1510742.178 +1.2756176726E-001 +1.7116232210E+002  +2.2567288992E-004 -7.3152840007E+001  +7.5856706431E-004 -1.6891136967E+002  +2.5388723721E-001 -1.5933225558E+002 
1635887.359 +1.2959087277E-001 +1.7107924858E+002  +5.2091594692E-004 -8.0475714739E+000  +6.4822215247E-004 -1.0733904447E+002  +2.4278949331E-001 -1.5868973198E+002 
1761032.541 +1.3160289985E-001 +1.6756786032E+002  +1.4984076423E-003 +3.0130931407E+001  +5.5901253732E-004 -1.2590130574E+002  +2.2059424471E-001 -1.6273376982E+002 
1886177.722 +1.2847159107E-001 +1.6870657432E+002  +1.5714490258E-003 +4.3452342777E+001  +1.3211158708E-003 +1.5145065429E+002  +2.2500272492E-001 -1.6146209135E+002 
2011322.904 +1.2809579608E-001 +1.6520974458E+002  +2.3237608174E-003 +9.6949023389E+001  +2.5760516523E-003 -7.7203188091E+001  +2.1047760943E-001 -1.6301567444E+002 
2136468.085 +1.2583861933E-001 +1.6734664474E+002  +1.1138335235E-003 -4.1592066539E+001  +5.3945438457E-003 -4.0967686828E+001  +2.0997760341E-001 -1.6833526928E+002 
2261613.267 +1.3457525535E-001 +1.6108694045E+002  +4.7502032336E-003 +1.1112423023E+002  +5.2862417702E-003 -5.1835892319E+001  +1.9666225342E-001 +1.7900615487E+002 
2386758.448 +1.3164833957E-001 +1.6528986697E+002  +1.3019085307E-003 +5.7363012513E+001  +7.7933788524E-003 -4.5058817249E+001  +1.6727256495E-001 -1.7897056776E+002 
2511903.630 +1.1929834695E-001 +1.6034020505E+002  +1.8216125582E-002 +3.8108959302E+001  +1.6497324963E-002 -6.7987654127E+001  +4.7350195055E-002 -1.5764758085E+002 
2637048.811 +1.3452283494E-001 +1.6026144430E+002  +1.7468332649E-002 +1.0868495963E+002  +2.4875405522E-002 +1.4625355436E+000  +2.1137412875E-001 +1.3224179702E+002 
2762193.992 +1.2018350063E-001 +1.7036872256E+002  +1.1032753443E-002 +2.3286140049E+001  +1.6267622711E-002 -6.5977586092E+000  +3.0738417664E-001 +1.2714146377E+002 
2887339.174 +1.1301046530E-001 -1.7409602591E+002  +4.9719154586E-002 -3.2777792610E+001  +4.1875803353E-002 -1.0034082363E+002  +4.2229201073E-001 -3.9910416703E+001 
3012484.355 +1.0467396632E-001 -1.7301202172E+002  +3.1818727875E-002 -7.9618926117E+001  +2.7330867284E-002 -1.6156501290E+002  +2.2959704708E-001 -6.6989637977E+001 
3137629.537 +1.1009465833E-001 +1.7387964897E+002  +2.9987539512E-002 -8.6653046160E+001  +4.4150150543E-002 +1.7655029708E+002  +6.6917579609E-001 -1.0833023023E+002 
3262774.718 +1.0651956174E-001 +1.6461027671E+002  +4.1946969156E-002 +9.6669880326E+001  +3.3648992746E-002 +1.3254002998E+001  +5.7968099767E-001 +1.2786264010E+002 
3387919.900 +1.3686030869E-001 +1.4846529087E+002  +4.1384376198E-002 +4.3118459921E+001  +4.0450028482E-002 -5.6561913315E+001  +3.7129287373E-001 +3.9519318185E+001 
3513065.081 +1.5190484923E-001 +1.5879229639E+002  +5.8548220920E-002 +2.0208138443E+001  +4.6990298568E-002 -7.4577837473E+001  +7.8909313750E-001 +2.6168374541E+001 
3638210.263 +1.5988931561E-001 +1.5092744429E+002  +3.1923885955E-002 +2.3638382506E+001  +3.9823991952E-002 -4.4204826213E+001  +3.5927369735E-001 +2.8128348554E+001 
3763355.444 +1.7287825670E-001 +1.3892125880E+002  +2.4447320143E-002 +1.1150676213E+002  +2.2520928239E-002 +6.5592607963E+001  +4.4879898777E-001 +1.3879849867E+002 
3888500.626 +1.8704092520E-001 +1.4638479247E+002  +2.2696693332E-002 +1.4673583905E+001  +3.7285344082E-002 -1.2811040873E+001  +1.2701574341E-001 +2.5956904246E+001 
4013645.807 +1.8712615327E-001 +1.3194262068E+002  +4.3191771588E-002 +1.2367716472E+002  +5.3087022730E-002 +3.9221606711E+001  +4.7686672576E-001 +1.3338102984E+002 
4138790.989 +1.8797279651E-001 +1.5432370175E+002  +1.4879453032E-002 +6.5758388266E+001  +1.6367992278E-002 -4.9735863555E+000  +1.5543720377E-001 +1.1686981583E+002 
4263936.170 +1.8653745514E-001 +1.4322728673E+002  +2.4673635744E-002 +1.1237070931E+002  +2.8241774250E-002 +4.7717341264E+001  +4.2818043231E-001 +1.4473921516E+002 
4389081.352 +2.1976231021E-001 +1.3995079905E+002  +2.8469690823E-002 +8.3089894056E+001  +2.2896005201E-002 +3.4896368217E+001  +2.9185113905E-001 +1.4403288195E+002 
4514226.533 +2.3595708602E-001 +1.3875180001E+002  +3.4356757566E-002 +9.7389698399E+001  +3.2896117958E-002 +4.7544759207E+001  +4.8519728259E-001 +1.1592215351E+002 
4639371.715 +2.5668910658E-001 +1.3335175554E+002  +5.3400785931E-002 +1.0289447577E+002  +6.2104323516E-002 +2.9762412863E+001  +5.5030891094E-001 +9.4878583159E+001 
4764516.896 +3.8783432245E-001 +1.2943186934E+002  +1.0890217043E-001 +1.3282298185E+002  +1.5616992075E-001 +6.7260674048E+001  +1.9607548737E+000 +8.7665073843E+001 
4889662.078 +3.6315881364E-001 +1.3138876663E+002  +1.7451837493E-001 -5.9325387697E+001  +1.2826481988E-001 -1.1223728463E+002  +2.9203627851E+000 -1.1946972692E+002 
5014807.259 +4.7777524594E-001 +1.3892955074E+002  +1.6484824056E-001 +1.0803093442E+002  +1.5932089985E-001 +5.7954497622E+001  +2.2451212007E+000 +1.8101787828E+001 
5139952.441 +3.7194908931E-001 +1.2919703649E+002  +8.5549887509E-002 +1.1691029994E+002  +8.5441286581E-002 +1.0217850953E+002  +1.5533126782E+000 +1.1765378386E+002 
5265097.622 +4.0952594114E-001 +1.3134252883E+002  +2.7926930991E-001 +1.1593353057E+002  +3.4054414284E-001 +6.6710419510E+001  +5.5437268529E+000 +7.5439242708E+001 
5390242.804 +3.8512623923E-001 +1.2730347486E+002  +1.1419458275E-001 +1.0352207982E+002  +1.2350761762E-001 +5.4454116777E+001  +2.0262661574E+000 +8.1170133238E+001 
5515387.985 +4.5255332935E-001 +1.3027652077E+002  +7.2336646861E-002 +1.3951281529E+002  +7.8627621115E-002 +1.0046595262E+002  +1.8051958793E+000 +1.2340780369E+002 
5640533.166 +5.0182592975E-001 +1.2986572583E+002  +1.0206185718E-001 +1.1552423012E+002  +8.3643649141E-002 +8.7888777947E+001  +1.4701481921E+000 +9.5325576563E+001 
5765678.348 +4.8268571768E-001 +1.2856252150E+002  +1.1992963282E-001 +8.2222831191E+001  +9.5770223243E-002 +6.4217804337E+001  +2.0665372064E+000 +7.2459918280E+001 
5890823.529 +5.5733574505E-001 +1.2570975150E+002  +1.0307044593E-001 +9.5966529979E+001  +9.1603797983E-002 +6.9978493388E+001  +1.3743191867E+000 +7.3015512118E+001 
6015968.711 +6.3313687672E-001 +1.1352796531E+002  +1.0464550629E-001 +8.5488566451E+001  +1.1258146033E-001 +7.0821295844E+001  +1.3691838074E+000 +8.2377292444E+001 
6141113.892 +6.5067958528E-001 +1.0200091438E+002  +2.3966789629E-001 +6.8453397567E+001  +2.4922101148E-001 +4.0597495643E+001  +4.0173995383E+000 +4.5817612367E+001 
6266259.074 +7.0474427137E-001 +1.0607711798E+002  +1.2010769493E-001 +3.6283552385E+001  +1.1187369968E-001 +2.7432809457E+001  +1.9153024309E+000 +1.5004367714E+001 
6391404.255 +8.7516784198E-001 +8.1711730877E+001  +1.4633820740E-001 +3.0341100825E+001  +1.3410885095E-001 +1.8463109361E+001  +1.4911894114E+000 +1.6497150872E+001 
6516549.437 +9.5176371991E-001 +7.9449482284E+001  +1.1620038047E-001 +2.3926063522E+001  +1.2913652571E-001 +2.1222872308E+001  +9.9774405411E-001 +2.8702391656E+000 
6641694.618 +1.3436381164E+000 +5.8707671690E+001  +1.6149152527E-001 +1.9733348542E+001  +1.4307991436E-001 +1.2119873392E+001  +1.1054688863E+000 +8.8436255768E+000 
6766839.800 +1.4503314535E+000 +5.6701729598E+001  +1.2923559705E-001 +2.3045165643E+001  +1.3690219667E-001 +1.4829797549E+001  +1.2461705883E+000 -1.4485234650E+000 
6891984.981 +1.4896793930E+000 +3.2821171700E+001  +1.4390745241E-001 +1.6574881823E+001  +1.4540004215E-001 +1.2525819356E+000  +1.1445926321E+000 -1.5550028185E+000 
7017130.163 +1.5072947576E+000 +2.1645676185E+001  +1.2693461128E-001 -2.7781212577E+000  +1.3308181850E-001 -1.1569325783E+001  +1.1871245959E+000 -5.8964628522E+000 
7142275.344 +1.4509029286E+000 +5.0162516718E+000  +1.1603121021E-001 +7.8780484521E+000  +1.1840207773E-001 +5.2432660397E+000  +1.1303338352E+000 -1.0473396915E+001 
7267420.526 +1.4308671282E+000 -1.4445076024E+000  +9.7321182660E-002 -5.4399090934E+000  +1.0313285586E-001 +3.8860869091E+000  +1.3531792653E+000 -6.6384789150E+000 
7392565.707 +1.2484102454E+000 +2.2971959551E-001  +7.0232836810E-002 +4.3036036235E+000  +7.3114908788E-002 +8.8975574895E+000  +1.3259386481E+000 -5.0731108137E+000 
7517710.889 +1.1952131665E+000 +1.0862289775E+000  +6.7507153121E-002 +7.8009352941E+000  +6.9185456810E-002 +9.5987499895E+000  +1.1983146567E+000 -5.5856609432E+000 
7642856.070 +1.0007695884E+000 -1.0399379500E+000  +6.4518736996E-002 -2.3061102704E+000  +6.4822927337E-002 +8.5481074463E+000  +9.4858056978E-001 -4.5009127522E+000 
7768001.252 +9.1965541789E-001 +5.1756018344E+000  +6.8641748316E-002 +2.9136150388E+000  +5.6951405090E-002 +1.1860651217E+001  +9.4174664159E-001 -5.0480546067E+000 
7893146.433 +8.1691083384E-001 +3.5555753319E+000  +6.3451270275E-002 -4.6187817588E+000  +6.7409424792E-002 +6.6392057158E+000  +9.1903000742E-001 -5.8198886570E+000 
8018291.615 +8.1357950634E-001 +4.9525409512E+000  +6.7317861072E-002 +6.8922436220E+000  +5.8101588536E-002 +6.3633003154E+000  +7.5858481944E-001 +2.3368897284E+000 
8143436.796 +6.2609189452E-001 +1.2523141995E+000  +5.6304750244E-002 -6.0382002909E-001  +5.8423355790E-002 +7.4400814157E+000  +8.1279324160E-001 +1.4425481612E+000 
8268581.977 +6.6563758022E-001 +1.2290528381E+001  +5.6355533370E-002 -3.2893466689E-001  +5.6090904795E-002 +1.4920606636E+001  +7.5206801149E-001 -1.1146164108E+000 
8393727.159 +6.6628579601E-001 +6.0309674338E+000  +5.9157902384E-002 +7.9704241060E-001  +5.3698366616E-002 +1.1278327635E+001  +6.6860663635E-001 +3.5753543169E+000 
8518872.340 +6.0269940701E-001 +1.0553289638E+001  +5.4394388711E-002 -1.4924791859E-001  +5.3659188149E-002 +1.2831762495E+001  +6.7312223320E-001 +3.4607334539E+000 
8644017.522 +6.1457877886E-001 +8.1370913195E+000  +4.8870958887E-002 +1.2600180766E+000  +5.1089627726E-002 +9.5395730740E+000  +6.0644808606E-001 -3.7285965688E+000 
8769162.703 +5.9885396908E-001 +1.1284240708E+001  +5.3715679818E-002 +2.3305735749E+000  +4.5821067804E-002 +9.1717043364E+000  +6.6289659659E-001 +2.6324764939E-001 
8894307.885 +5.1863063180E-001 +7.2364093643E+000  +5.2280956819E-002 -4.4000332307E+000  +4.6476926205E-002 +1.6064579873E+001  +6.3104141791E-001 +1.8186948140E+000 
9019453.066 +5.8401614631E-001 +9.5366386188E+000  +5.2877559130E-002 +1.9618101175E+000  +5.0614372912E-002 +1.3545823230E+001  +5.6581122817E-001 -1.8445130075E-001 
9144598.248 +5.3170108246E-001 +7.1376913702E+000  +5.1061619814E-002 +1.0989567514E+000  +5.1210973727E-002 +1.1642380331E+001  +5.8625537182E-001 -2.3274573791E+000 
9269743.429 +5.3308993642E-001 +3.9326172191E+000  +5.1172686870E-002 -1.1967849615E+000  +4.5959428147E-002 +1.5460621490E+001  +5.1566643734E-001 -6.7248416097E+000 
9394888.611 +5.3575152776E-001 +3.9420814952E+000  +5.1549176819E-002 -8.0736498910E-001  +5.2958382273E-002 +1.4784006259E+001  +5.4857016469E-001 -3.5214307208E+000 
9520033.792 +5.4248488561E-001 +5.2288448592E+000  +5.1100578274E-002 -4.5754686296E+000  +4.8135660337E-002 +1.4031830885E+001  +5.2892290527E-001 -6.6073953461E+000 
9645178.974 +5.4594991695E-001 +1.9978299930E-001  +5.1134256823E-002 -6.6258251385E+000  +5.4906891920E-002 +1.5821347584E+001  +5.0690210097E-001 -4.5574065369E+000 
9770324.155 +4.7283631432E-001 +1.0310778824E+000  +5.2785501936E-002 -5.3823777914E+000  +5.3420118548E-002 +1.6674182766E+001  +5.6992148963E-001 -1.1950411604E+001 
9895469.337 +4.5467932190E-001 -2.4736511644E+000  +5.3664149379E-002 +1.0865914508E+000  +5.1536457791E-002 +1.4297192660E+001  +4.9904958175E-001 -6.6052391059E+000 
10020614.518 +4.7494382830E-001 +2.1941743314E+000  +5.6151872537E-002 +1.4385583298E-001  +5.1109458972E-002 +1.7315140966E+001  +5.5844176309E-001 -5.3561996883E+000 
10145759.700 +4.9340022923E-001 +3.1234550712E+000  +5.5673208176E-002 -1.6772686629E+000  +5.0279762084E-002 +1.5694636747E+001  +5.0697246153E-001 -4.8496714101E+000 
10270904.881 +4.8348513465E-001 +5.3478286922E+000  +5.5390559040E-002 +2.7222209049E+000  +5.1034072128E-002 +1.5484938981E+001  +5.3109129900E-001 +9.9512688158E-002 
10396050.063 +5.3461990092E-001 +5.7736707170E+000  +5.1654748976E-002 +7.3571040317E-001  +5.0921855533E-002 +1.5332524792E+001  +5.6322522502E-001 +1.3956573702E+000 
10521195.244 +5.1795843087E-001 +6.8797460994E+000  +5.1206456471E-002 +1.9970114192E-001  +5.4155389245E-002 +1.8791263508E+001  +5.2507423373E-001 +1.2513302978E+000 
10646340.426 +5.0309384949E-001 +8.3748772059E+000  +5.2658528940E-002 +1.0297533959E-002  +5.2609781778E-002 +1.4964642651E+001  +5.5076070706E-001 -1.6361712394E+000 
10771485.607 +5.1085486995E-001 +6.8477011805E+000  +5.4763176163E-002 +2.0763928064E+000  +5.3980206730E-002 +1.4331904145E+001  +5.3957211938E-001 +4.1720980577E-001 
10896630.788 +5.1997633507E-001 +9.0342108344E+000  +5.4478224598E-002 +3.1446332153E+000  +5.2502009260E-002 +1.5202623844E+001  +5.7111811377E-001 +3.2087413992E+000 
11021775.970 +5.3161281962E-001 +5.7506028535E+000  +5.1251305660E-002 +4.2010845875E+000  +5.2691279589E-002 +1.4639151586E+001  +5.5195787492E-001 +2.5928487066E+000 
11146921.151 +5.2528873033E-001 +8.0601360842E+000  +5.2776775840E-002 +2.3245345435E+000  +5.3854374214E-002 +1.6404366267E+001  +5.6846002030E-001 +3.3882774538E+000 
11272066.333 +5.6329816369E-001 +7.3327910676E+000  +5.5589769484E-002 +5.2920935159E+000  +5.4589521770E-002 +1.7922846394E+001  +6.0395614564E-001 +3.4360787859E+000 
11397211.514 +5.3368778366E-001 +8.3032035742E+000  +5.5396877214E-002 +3.2247117812E+000  +5.4203022359E-002 +1.4930851011E+001  +5.6992590167E-001 -9.0697123335E-001 
11522356.696 +6.0447089980E-001 +7.1804263245E+000  +5.6808393178E-002 +6.1384209909E+000  +5.5710938823E-002 +1.6532761675E+001  +5.8431570507E-001 +5.5743119951E+000 
11647501.877 +5.7755845541E-001 +6.0534513697E+000  +5.6152003506E-002 +5.1942690538E+000  +5.5180652491E-002 +1.8513510422E+001  +6.0479123730E-001 +3.5434403413E+000 
11772647.059 +5.5828628514E-001 +7.5669995248E+000  +5.7402104645E-002 +6.5053978817E+000  +5.7947298202E-002 +1.5696453014E+001  +5.9601093253E-001 +3.8031238642E+000 
11897792.240 +5.8517401336E-001 +8.3498728873E+000  +5.7860408197E-002 +5.1131271284E+000  +5.6791519635E-002 +1.7119880885E+001  +6.2256566701E-001 -1.0833079813E-001 
12022937.422 +6.1301219861E-001 +5.8118409624E+000  +5.8273521110E-002 +6.4929365320E+000  +5.8770360566E-002 +1.5644860908E+001  +6.2051213059E-001 +1.5176909063E+000 
12148082.603 +5.9435629187E-001 +5.4554227229E+000  +5.7690711598E-002 +6.9922374553E+000  +5.9770447961E-002 +1.5634064601E+001  +6.4826334467E-001 +9.7775319747E-003 
12273227.785 +6.3630881521E-001 +5.5289635583E+000  +5.8551790743E-002 +6.7667574260E+000  +5.9602797851E-002 +1.3504457827E+001  +6.7090059205E-001 +1.2349874544E-001 
12398372.966 +6.4389937727E-001 +2.9924933581E+000  +6.0879169453E-002 +7.5815498555E+000  +6.1116247951E-002 +1.6188946814E+001  +6.9015224164E-001 -2.8696915892E-001 
12523518.148 +6.6565559418E-001 +1.7131392210E+000  +6.2458672250E-002 +6.3730673356E+000  +6.0739663231E-002 +1.6031250649E+001  +6.6894110374E-001 -1.8180368772E+000 
12648663.329 +6.8843412490E-001 +1.3148169908E+000  +6.2835054173E-002 +6.7074405469E+000  +6.1542979964E-002 +1.4367969429E+001  +7.0246923201E-001 -2.0534254685E+000 
12773808.511 +6.8454854961E-001 +2.8921924743E+000  +6.2456571137E-002 +7.5611879422E+000  +6.1392129904E-002 +1.3013772213E+001  +7.2093345416E-001 -1.2851059522E+000 
12898953.692 +7.0618301741E-001 +3.0388390092E+000  +6.4061088670E-002 +7.2037166487E+000  +6.2546530195E-002 +1.2801421795E+001  +7.1247697518E-001 -1.7441736778E+000 
13024098.874 +7.1004160755E-001 +1.6308647838E+000  +6.4002163422E-002 +8.0029939375E+000  +6.2887957129E-002 +1.2961762689E+001  +7.3440250940E-001 -2.0715378219E-001 
13149244.055 +7.2998260088E-001 -1.2234031508E+000  +6.5261933198E-002 +8.1556824536E+000  +6.4866829424E-002 +1.3973201492E+001  +7.5250129169E-001 -1.8390346959E+000 
13274389.237 +7.6744594590E-001 +1.2701058406E+000  +6.4714700150E-002 +9.1222496236E+000  +6.2943490089E-002 +1.3665133430E+001  +7.6206010746E-001 -1.0436677376E+000 
13399534.418 +7.7397680402E-001 +2.2262374641E-001  +6.3934190763E-002 +8.3850691922E+000  +6.6540296020E-002 +1.0864442986E+001  +7.6631352544E-001 -1.3823250031E+000 
13524679.599 +7.7501727184E-001 -7.7490398451E-001  +6.5285140685E-002 +7.6428977415E+000  +6.6814850291E-002 +1.1123137800E+001  +7.9411828078E-001 -2.4088473616E+000 
13649824.781 +7.9412673139E-001 -1.1316659003E+000  +6.6681058798E-002 +8.8352406388E+000  +6.6311200290E-002 +1.1060297337E+001  +8.1762993319E-001 -2.6261773028E+000 
13774969.962 +8.1536326000E-001 -2.7878892070E+000  +6.8211302623E-002 +8.3253630849E+000  +6.5339504892E-002 +1.0502836349E+001  +8.2959220033E-001 -3.0076249653E+000 
13900115.144 +8.3143356074E-001 -4.4976903553E+000  +6.8218748944E-002 +7.9846222875E+000  +6.9204803102E-002 +9.6907679416E+000  +8.5231894248E-001 -5.1611629897E+000 
14025260.325 +8.3890397419E-001 -2.4907807536E+000  +6.8132415409E-002 +8.0440706174E+000  +6.7095556628E-002 +1.0678809300E+001  +8.8873800836E-001 -2.5846362452E+000 
14150405.507 +8.4849978106E-001 -5.1105762411E+000  +6.8741082088E-002 +8.5076946602E+000  +6.8707194785E-002 +8.9434197462E+000  +8.7846396653E-001 -4.0827006837E+000 
14275550.688 +8.8052919175E-001 -4.4903376023E+000  +7.0871527088E-002 +7.0099143348E+000  +6.7557651786E-002 +8.9222483593E+000  +9.0156709457E-001 -4.5921948891E+000 
14400695.870 +8.9874413904E-001 -4.9995897990E+000  +7.0169982010E-002 +6.5473318281E+000  +6.9276848409E-002 +7.8076214964E+000  +8.9922171686E-001 -6.0881131518E+000 
