!  2-Port S-parameters saved by WinCal
! VAR NAME=S2_r4c9_formed(2)_9k-100M_2
! VAR DATE=30/08/2024 11:38:42
! VAR FILENAME=S2_r4c9_formed(2)_9k-100M_2.S2P
! VAR MeasName=S-Parameters (CALIBRATED_DATA) read from VNA (P5004A)
! VAR MeasDate=28/08/2024 10:07:55
! VAR PHYS_PORTS=1,2
! VAR ObjTypeName=DATASET
! VAR IndexType=Frequency
!
# Hz S MA R 50
9000.000 +9.7995682411E-002 -1.6256556753E+002  +9.5602658226E-004 -4.7293005570E+001  +8.9932665570E-003 -1.5970704289E+002  +2.3024580573E-001 -1.4700723673E+002 
134145.181 +1.1128322730E-001 +1.6933622754E+002  +6.5977583425E-004 -2.7017892312E+001  +3.6865275525E-004 +1.3452963626E+002  +2.3717146602E-001 -1.7096904461E+002 
259290.363 +1.1167825500E-001 +1.7096564330E+002  +3.4865583623E-004 +9.4840086816E+000  +9.9010528465E-004 +2.2690174250E+001  +2.4230574375E-001 -1.7087046519E+002 
384435.544 +1.1381226257E-001 +1.6989592172E+002  +8.2777438626E-004 -2.6296157254E+001  +1.1001715639E-003 +1.6998273444E+002  +2.4121348879E-001 -1.6805740208E+002 
509580.726 +1.1434264048E-001 +1.7051280794E+002  +4.1184104984E-004 -5.5523645352E+001  +8.1318586775E-004 +9.3256055198E+001  +2.3624622100E-001 -1.6440869836E+002 
634725.907 +1.1385974215E-001 +1.7061473211E+002  +2.4180423408E-003 -7.0406127114E+001  +2.7109440705E-003 +6.3024531400E+001  +2.5928996840E-001 -1.6401070281E+002 
759871.089 +1.2053138839E-001 +1.7072963066E+002  +1.0233253207E-003 -1.2116630507E+002  +1.2679055589E-003 +1.2103624802E+002  +2.4207128979E-001 -1.6517210889E+002 
885016.270 +1.1994077476E-001 +1.6885665303E+002  +8.3343026042E-004 -7.7525635934E+001  +8.5922910163E-004 +1.5038855800E+002  +2.4802042319E-001 -1.6771651046E+002 
1010161.452 +1.1458653049E-001 +1.7108267877E+002  +2.0549642531E-003 +1.2845202779E+001  +3.0799364343E-003 -1.5844532381E+002  +2.1226184904E-001 -1.6844364652E+002 
1135306.633 +1.1765451630E-001 +1.7171121167E+002  +2.8101866765E-003 -3.9721657810E+001  +1.8945579498E-003 -1.6464998317E+002  +2.1042710297E-001 -1.6875697515E+002 
1260451.815 +1.2200621449E-001 +1.7208975761E+002  +1.7370711122E-003 -5.5742917737E+001  +2.3548081100E-003 +1.4109397777E+002  +1.8531564151E-001 -1.5529840797E+002 
1385596.996 +1.2305320184E-001 +1.7382913976E+002  +2.3348931441E-003 -1.2609641319E+002  +2.3118225797E-003 +7.1791784988E+001  +2.6879525828E-001 -1.5458091776E+002 
1510742.178 +1.2743583183E-001 +1.7132387147E+002  +1.6733285270E-003 -6.6722265185E+001  +1.2851617679E-003 +1.3960014192E+002  +2.5480810373E-001 -1.5741891784E+002 
1635887.359 +1.2610715944E-001 +1.7179267463E+002  +1.3558393501E-003 -7.5831833064E+001  +2.5668339986E-003 +1.7298230891E+002  +2.5248982316E-001 -1.5924450898E+002 
1761032.541 +1.2894851760E-001 +1.6910431972E+002  +1.7593173235E-003 -6.8383336491E+000  +1.3008291769E-003 -1.1276647960E+002  +2.3330233832E-001 -1.5877170318E+002 
1886177.722 +1.3227870130E-001 +1.7005689203E+002  +2.6768625787E-003 +2.5171300676E+001  +3.4290180792E-003 -9.5214912394E+001  +1.9906990171E-001 -1.5974069528E+002 
2011322.904 +1.3229534945E-001 +1.6969199367E+002  +5.3870727817E-003 +5.3182347150E+001  +7.6524024950E-003 -8.4656677462E+001  +1.8367788954E-001 -1.6212054769E+002 
2136468.085 +1.2792050663E-001 +1.6700487732E+002  +1.2732752207E-002 +7.3551193500E+001  +1.2165231889E-002 -6.1910554052E+001  +1.6590033592E-001 -1.7076978599E+002 
2261613.267 +1.3330877559E-001 +1.6548688642E+002  +1.0118179099E-002 +6.1440667764E+001  +9.3148417025E-003 -6.3861106990E+001  +2.0156815463E-001 -1.6809934876E+002 
2386758.448 +1.3830125939E-001 +1.6385633028E+002  +6.4384831823E-003 +9.7973708525E+001  +1.1729538675E-002 -3.5829715149E+001  +2.3445472940E-001 -1.7331382194E+002 
2511903.630 +1.4007152579E-001 +1.6498393895E+002  +1.9175671253E-002 +8.9905125316E+001  +2.2006215979E-002 -4.0887775046E+001  +1.2118244366E-001 +1.7008493240E+002 
2637048.811 +1.4451481062E-001 +1.5312841629E+002  +5.2481929256E-002 +1.0622752336E+002  +4.3218694732E-002 -1.9321627215E+000  +1.5119783815E-001 +1.3470734335E+002 
2762193.992 +1.1947998969E-001 -1.6732028891E+002  +1.0736212491E-001 -1.6103813392E+001  +1.0813939592E-001 -1.3231504527E+002  +1.8321583286E-001 -8.9195373079E+001 
2887339.174 +1.2856146347E-001 +1.7803028361E+002  +6.9882468576E-002 -2.9687817255E+000  +7.0500006461E-002 -1.1151235991E+002  +1.3024505007E-001 -4.8488739445E+001 
3012484.355 +1.3308313517E-001 +1.7328661339E+002  +2.6672803171E-002 -2.4125057636E+001  +3.8139009873E-002 -1.2812802233E+002  +2.3876740529E-001 -1.1929995554E+002 
3137629.537 +1.4181543918E-001 +1.6931370076E+002  +3.7017725878E-002 +9.9628664238E+000  +5.3438958131E-002 -8.2649795704E+001  +8.0456523918E-002 -2.9847258707E+001 
3262774.718 +1.4890889315E-001 +1.6804898377E+002  +5.0409255656E-002 +2.4522939198E+001  +4.5221870865E-002 -7.1395912713E+001  +6.7352829407E-002 -3.6875105003E+001 
3387919.900 +1.0632537112E-001 +1.5865312662E+002  +9.4854317994E-002 +5.9792138709E+001  +8.9603522666E-002 -3.4046744256E+001  +2.2118779645E-001 +1.0271587620E+002 
3513065.081 +1.4626320813E-001 +1.5793600361E+002  +6.5120762678E-002 +2.5566476297E+001  +6.5581193642E-002 -4.9392532523E+001  +1.3996597698E-001 -2.9010962362E+001 
3638210.263 +1.7504981016E-001 +1.5148808604E+002  +4.9351326551E-002 +1.1520839252E+002  +4.7327385041E-002 +2.9110880880E+001  +3.3768849142E-001 +1.4563350512E+002 
3763355.444 +1.6250808927E-001 +1.4523123523E+002  +7.2915736825E-002 +1.0880704755E+002  +6.9083607223E-002 +2.6076674673E+001  +4.1476940220E-001 +1.3982687270E+002 
3888500.626 +1.7859471315E-001 +1.4879091802E+002  +8.1776813870E-002 +1.2607433139E+002  +8.4098432126E-002 +5.3316744534E+001  +6.5672007583E-001 +1.3916569109E+002 
4013645.807 +1.5614999395E-001 +1.4646999435E+002  +8.0546483764E-002 +8.2111225975E+001  +9.5373709412E-002 +8.4971646694E+000  +3.0353347876E-001 +1.1224230935E+002 
4138790.989 +1.7759176803E-001 +1.5239235190E+002  +5.3995602992E-002 +8.6323253031E+001  +5.6177322825E-002 +2.1393803292E+001  +3.6599704001E-001 +1.4773124639E+002 
4263936.170 +1.7876218209E-001 +1.4973746029E+002  +6.0565989765E-002 +7.4121921313E+001  +5.7523392395E-002 +1.4850978971E+001  +2.8258113304E-001 +1.4502145170E+002 
4389081.352 +1.7224701120E-001 +1.4409002358E+002  +7.7652200828E-002 +7.9714184454E+001  +7.4798327474E-002 +2.0223588115E+001  +3.4265684559E-001 +1.4271522161E+002 
4514226.533 +2.1509051168E-001 +1.4117224203E+002  +1.1998549509E-001 +8.7322762328E+001  +1.1527650461E-001 +2.4987173279E+001  +5.1487817684E-001 +1.0131124954E+002 
4639371.715 +2.5908424373E-001 +1.2281229126E+002  +2.7021653914E-001 +7.8569254454E+001  +2.4640567042E-001 +2.0497621909E+001  +8.5557314555E-001 +5.4899181733E+001 
4764516.896 +3.8429264165E-001 +1.3459137675E+002  +6.8989764154E-001 +1.5845590932E+002  +6.9428299475E-001 +1.0901529515E+002  +3.8392920136E+000 +1.3837300967E+002 
4889662.078 +4.7067139478E-001 +9.2466066023E+001  +1.2429324381E+000 +6.6663247782E+001  +1.1884719776E+000 +1.7012071239E+001  +5.0472883996E+000 +3.0420998190E+001 
5014807.259 +3.5969049121E-001 +1.2178620024E+002  +3.5823197548E-001 +1.1372716585E+002  +3.3884260222E-001 +6.6023237003E+001  +1.6140868660E+000 +1.0016381644E+002 
5139952.441 +4.1160954963E-001 +1.2963592800E+002  +2.1027003100E-001 +1.2929209489E+002  +1.9507468749E-001 +8.7349248907E+001  +9.1530232769E-001 +1.2628488360E+002 
5265097.622 +3.7485587294E-001 +1.3110188159E+002  +2.4091894657E-001 +1.3151644796E+002  +2.1606398464E-001 +9.4678748154E+001  +1.3518298009E+000 +1.3096841602E+002 
5390242.804 +3.7419236462E-001 +1.3385476643E+002  +2.5059389117E-001 +1.0578403404E+002  +2.3637113067E-001 +7.1106783443E+001  +1.4959173886E+000 +1.0030312308E+002 
5515387.985 +3.4733674624E-001 +1.3499002152E+002  +1.6812637433E-001 +1.2813826813E+002  +1.7266376635E-001 +9.4046178585E+001  +1.5210950798E+000 +1.4613483438E+002 
5640533.166 +3.8715607131E-001 +1.2115880860E+002  +2.4435753191E-001 +9.3896191241E+001  +2.4670442412E-001 +6.3555095208E+001  +1.2329542137E+000 +1.0756057539E+002 
5765678.348 +4.5735581828E-001 +1.3028781413E+002  +2.4226990123E-001 +9.2425899956E+001  +2.2570943983E-001 +6.3041534483E+001  +1.2905442897E+000 +9.0922493917E+001 
5890823.529 +4.8192286388E-001 +1.1088871094E+002  +3.5343057978E-001 +6.5741601236E+001  +3.5451845273E-001 +3.9946531208E+001  +1.4084923440E+000 +6.2128633399E+001 
6015968.711 +4.8464716599E-001 +1.2154401744E+002  +2.7648225264E-001 +7.1254133639E+001  +2.9404476410E-001 +4.7908711245E+001  +1.5329103263E+000 +7.2621812643E+001 
6141113.892 +5.7386816081E-001 +1.0521964453E+002  +3.8384061277E-001 +7.1354764181E+001  +3.6918676225E-001 +5.2863894848E+001  +1.5984058460E+000 +7.9084502774E+001 
6266259.074 +6.4998212082E-001 +9.7096133208E+001  +4.9723319604E-001 +5.6880088260E+001  +4.8420474843E-001 +4.0840992806E+001  +2.1101647877E+000 +5.5094244177E+001 
6391404.255 +7.9585142664E-001 +9.3135948124E+001  +3.9411701019E-001 +5.6028587990E+001  +3.8247159020E-001 +3.6839845259E+001  +1.3350332803E+000 +5.1308408981E+001 
6516549.437 +9.0464205675E-001 +9.0536833424E+001  +3.6270621118E-001 +4.5949636551E+001  +3.4156881272E-001 +3.4509679278E+001  +1.0811631780E+000 +3.5052990926E+001 
6641694.618 +9.1232997981E-001 +6.2267878212E+001  +4.0758640828E-001 +2.1547309351E+001  +4.0029809760E-001 +7.2161395386E+000  +1.1247932064E+000 +5.9024799424E+000 
6766839.800 +1.2220519353E+000 +3.4702613868E+001  +4.6006381349E-001 +1.3689474236E+001  +4.6017781968E-001 +5.8081221682E+000  +7.7949346255E-001 +1.5808337732E+001 
6891984.981 +1.4139705941E+000 +2.5641607398E+001  +4.7470703754E-001 +7.0971501019E+000  +4.6599077053E-001 +1.6022766167E+000  +1.1548375487E+000 +4.1127307770E+000 
7017130.163 +9.0655516798E-001 +1.2154451478E+001  +3.4573172047E-001 -6.9827189434E-001  +3.4023893440E-001 -4.7626597618E+000  +8.6916008759E-001 -8.0359629820E+000 
7142275.344 +1.2365358737E+000 +4.9220766681E+000  +3.5285406755E-001 +1.6344056597E+000  +3.4999986635E-001 -2.6493313339E+000  +9.5584168710E-001 -2.1651291801E+000 
7267420.526 +1.1860762488E+000 +1.3208479856E+000  +3.0086855345E-001 +2.4910868301E-001  +3.0541563092E-001 -7.1099023735E-001  +1.1445698590E+000 -1.1670708824E+001 
7392565.707 +1.0858704075E+000 -6.2514463195E-001  +2.5643992243E-001 +6.5761234612E+000  +2.5493136203E-001 +4.0758819604E+000  +1.0729694243E+000 -9.0914671575E+000 
7517710.889 +9.6890670064E-001 +5.4781371561E-001  +2.3306576666E-001 +6.0633446894E+000  +2.3373565047E-001 +8.3063309168E+000  +9.0264912856E-001 -5.6804725595E+000 
7642856.070 +7.6482417840E-001 +3.7526588415E+000  +2.1504490621E-001 +7.6827621535E-001  +2.1909619521E-001 +5.3787167484E+000  +7.4905315094E-001 -3.7123452008E+000 
7768001.252 +7.1176205163E-001 -1.0319179304E+000  +2.1274746189E-001 +7.3084523469E-001  +2.1162701968E-001 +5.3031366031E+000  +7.2838839876E-001 -5.5391190628E+000 
7893146.433 +6.4919189091E-001 +3.9169474589E+000  +2.0602094863E-001 -1.4543539320E+000  +2.0311501226E-001 +5.7866164587E+000  +6.3571349206E-001 -4.8191671815E+000 
8018291.615 +6.5088803146E-001 +1.1886692624E+001  +1.9857947841E-001 -9.2568071704E-001  +1.9735667662E-001 +8.0285450963E+000  +6.9591234821E-001 -2.2996289557E+000 
8143436.796 +5.3892635743E-001 +1.6966423527E+001  +1.8226879589E-001 -1.6947987155E+000  +1.8540074723E-001 +7.9595143373E+000  +6.4087722918E-001 +1.2265712315E+000 
8268581.977 +5.3264038341E-001 +1.1365908627E+001  +1.8443669431E-001 -2.5996356954E+000  +1.8626719798E-001 +8.1917079096E+000  +5.5091286736E-001 +5.5510028403E+000 
8393727.159 +4.7288475745E-001 +8.6826175640E+000  +1.8473420124E-001 -3.6071430141E+000  +1.8532879098E-001 +7.3186534879E+000  +6.0530459869E-001 +1.7504545951E+000 
8518872.340 +4.8035579160E-001 +6.9174388435E+000  +1.7844885884E-001 -3.9414430139E+000  +1.8307852884E-001 +9.0864472901E+000  +5.1951521445E-001 +3.0506889456E+000 
8644017.522 +4.5283137645E-001 +1.0450811349E+001  +1.7132799321E-001 -2.9740745540E+000  +1.7738881064E-001 +8.1222950756E+000  +4.9893284630E-001 +5.6472261114E+000 
8769162.703 +4.6837792379E-001 +9.2569391973E+000  +1.7379214229E-001 -2.7455915658E+000  +1.6884994073E-001 +1.0375256252E+001  +5.4013511959E-001 +6.7730476358E+000 
8894307.885 +4.4672469724E-001 +9.9337655493E+000  +1.7419186188E-001 -3.8508767547E+000  +1.7697299495E-001 +9.4620485842E+000  +4.7755696755E-001 +9.2302968088E-002 
9019453.066 +4.0204319048E-001 +1.4957999335E+001  +1.7135105812E-001 -4.3227477024E+000  +1.6679202825E-001 +1.0994941941E+001  +5.0958270158E-001 +5.2405278971E+000 
9144598.248 +4.0554463980E-001 +7.6793591282E+000  +1.6930028288E-001 -5.1586640203E+000  +1.7200916415E-001 +1.0594238789E+001  +4.2385589102E-001 +9.4540050656E+000 
9269743.429 +4.8484315914E-001 +9.0240999718E+000  +1.6823088716E-001 -4.3227160353E+000  +1.7279259626E-001 +1.1533173246E+001  +4.3624284961E-001 -6.7241650305E-001 
9394888.611 +3.9879840447E-001 +4.4796194645E+000  +1.7393132704E-001 -5.9014937796E+000  +1.7323815754E-001 +1.0168029080E+001  +3.9131347889E-001 -1.0076490522E+000 
9520033.792 +3.5627440540E-001 +6.7074007935E+000  +1.6786657183E-001 -4.7954285206E+000  +1.7012388051E-001 +1.1702051952E+001  +4.2111226369E-001 +6.7343488580E+000 
9645178.974 +3.7190347260E-001 +3.6083486712E+000  +1.7394304410E-001 -4.8368027450E+000  +1.7158331639E-001 +1.1937598291E+001  +4.4670494151E-001 -1.5498790212E+000 
9770324.155 +3.7439280788E-001 +8.1428037097E+000  +1.7146715438E-001 -4.1712607326E+000  +1.7188172570E-001 +1.0793889605E+001  +3.4188033599E-001 -1.2333022298E+000 
9895469.337 +3.4992868105E-001 +9.3880252175E-001  +1.7342725111E-001 -4.5501173118E+000  +1.7424695850E-001 +1.1407338193E+001  +3.7674659047E-001 -4.7322657225E+000 
10020614.518 +3.7957248409E-001 +9.1469565714E+000  +1.7114425637E-001 -3.1275381375E+000  +1.7094946194E-001 +1.2170737366E+001  +4.1647202553E-001 -3.3267442028E+000 
10145759.700 +3.5456796075E-001 +5.8294075450E+000  +1.7283810901E-001 -4.1675578726E+000  +1.7169935030E-001 +1.2357332679E+001  +3.8531736125E-001 +2.7617431770E-001 
10270904.881 +4.0199185177E-001 +5.8314876844E+000  +1.7620094357E-001 -2.6738830479E+000  +1.7490713994E-001 +1.3289597230E+001  +3.8212562505E-001 +2.4403493197E-001 
10396050.063 +3.7026539445E-001 +8.2953642875E+000  +1.7208778109E-001 -2.2628446776E+000  +1.7198050494E-001 +1.3187394322E+001  +4.2463713110E-001 +6.1862082293E+000 
10521195.244 +4.0364249927E-001 +6.7758649408E+000  +1.7594839009E-001 -2.5761848297E+000  +1.7478313341E-001 +1.3611797640E+001  +3.8090301336E-001 +9.4163201042E-002 
10646340.426 +3.7288247738E-001 +8.0364791235E+000  +1.7915486409E-001 -1.2628856895E+000  +1.7833413490E-001 +1.2900861925E+001  +4.6581583076E-001 +2.2065661823E+000 
10771485.607 +4.3767221718E-001 +8.1960323635E+000  +1.7683182827E-001 -8.6652248614E-001  +1.7822407444E-001 +1.3515298867E+001  +4.0921890401E-001 +3.7945569635E+000 
10896630.788 +3.9798656299E-001 +1.0533603055E+001  +1.7756356379E-001 -1.4238033066E+000  +1.7760383540E-001 +1.2795441904E+001  +3.9409305646E-001 +8.9441446712E+000 
11021775.970 +3.9607361083E-001 +1.1422170933E+001  +1.8094541976E-001 -1.1304850578E+000  +1.7791060526E-001 +1.3230272887E+001  +4.3673939004E-001 +3.9348139315E+000 
11146921.151 +4.0717546059E-001 +1.5969171551E+001  +1.7792275653E-001 -8.8925510466E-001  +1.7770911132E-001 +1.2971942108E+001  +4.3057753680E-001 +9.0800710491E+000 
11272066.333 +4.2480551725E-001 +9.8641787168E+000  +1.7989402520E-001 -8.6227390432E-002  +1.8363914670E-001 +1.2504937567E+001  +4.2415362730E-001 +5.3610984561E+000 
11397211.514 +4.4085278380E-001 +1.1286428523E+001  +1.8358079685E-001 -4.3295123833E-001  +1.8147734425E-001 +1.2710610269E+001  +4.4014674267E-001 +9.7574241394E+000 
11522356.696 +4.4989830392E-001 +1.1696441336E+001  +1.8663206463E-001 +4.9416967729E-001  +1.8466892425E-001 +1.2288999065E+001  +4.6139644676E-001 +2.7687983684E+000 
11647501.877 +4.3217253752E-001 +1.1465963609E+001  +1.8785121271E-001 +6.0615941322E-001  +1.8744543438E-001 +1.1907934107E+001  +4.6412281738E-001 +6.7281784535E+000 
11772647.059 +4.8306185842E-001 +9.7730038905E+000  +1.8924862396E-001 +1.1421195396E+000  +1.8728421740E-001 +1.2147128411E+001  +4.7927075471E-001 +5.4856397105E+000 
11897792.240 +4.8027155978E-001 +8.8753248096E+000  +1.9054946229E-001 +1.1383906983E+000  +1.9257116600E-001 +1.1547326216E+001  +4.7124217815E-001 +3.7426992703E+000 
12022937.422 +4.8649802467E-001 +6.7254460675E+000  +1.9548473104E-001 +2.2016613602E+000  +1.9257595940E-001 +1.1267743671E+001  +4.8804886981E-001 +3.7132786437E+000 
12148082.603 +4.7475568769E-001 +4.8682084257E+000  +1.9797290750E-001 +1.2528197030E+000  +1.9372663731E-001 +1.0768652919E+001  +4.7138952545E-001 +5.5009254948E+000 
12273227.785 +5.0656057763E-001 +4.7455646016E+000  +1.9819659435E-001 +2.0526110051E+000  +1.9699241066E-001 +1.0592582581E+001  +5.0738009098E-001 +7.8571061660E-001 
12398372.966 +5.0777447398E-001 +4.6200128652E+000  +2.0150652527E-001 +2.5101997069E+000  +1.9938140413E-001 +1.0300818035E+001  +5.5340860933E-001 +1.2255110901E+000 
12523518.148 +5.2141445291E-001 +4.5794480323E+000  +2.0204433849E-001 +2.7294320419E+000  +2.0079399433E-001 +9.3737469327E+000  +5.1487887665E-001 +3.8026708191E+000 
12648663.329 +5.3801786803E-001 +6.7064302914E+000  +2.0475434216E-001 +2.8102784572E+000  +2.0324000871E-001 +8.9991901516E+000  +5.3134658044E-001 -8.8995532391E-001 
12773808.511 +5.6606866599E-001 +4.2023650788E+000  +2.0759140392E-001 +3.0894352845E+000  +2.0503363896E-001 +9.1263677217E+000  +5.8054956989E-001 +1.5570888729E+000 
12898953.692 +5.5897907951E-001 +2.3945311486E+000  +2.1040510443E-001 +3.0094830803E+000  +2.0753087155E-001 +8.0236092981E+000  +5.6122458528E-001 +6.2158755379E-001 
13024098.874 +5.6556970698E-001 +2.8048028006E-002  +2.1035652733E-001 +2.9055318452E+000  +2.0972908483E-001 +7.9572928006E+000  +6.0335766965E-001 +2.4808435836E-002 
13149244.055 +5.9643949659E-001 +1.3958209602E+000  +2.1497984211E-001 +3.1560013218E+000  +2.1113749151E-001 +7.4982264024E+000  +5.9869581029E-001 -2.3818469618E+000 
13274389.237 +5.8442475862E-001 -3.3977898904E-001  +2.1560501363E-001 +3.0131566705E+000  +2.1459095367E-001 +7.1118906138E+000  +6.3624521469E-001 -2.0100985458E+000 
13399534.418 +6.2995187008E-001 -1.5690159306E+000  +2.1712949812E-001 +3.5984215964E+000  +2.1375062539E-001 +7.2680865686E+000  +6.5854191695E-001 +1.3918886467E+000 
13524679.599 +6.3704180671E-001 -8.7348881316E-001  +2.1952463191E-001 +3.3505043489E+000  +2.1929161980E-001 +6.3996026446E+000  +6.6592599833E-001 -3.1894111811E+000 
13649824.781 +6.5232593011E-001 -2.0402643880E+000  +2.2139151272E-001 +3.3122194231E+000  +2.1886199955E-001 +6.0582748953E+000  +6.5084483191E-001 -1.1232657852E+000 
13774969.962 +6.8065266867E-001 -1.7915189916E+000  +2.2462930511E-001 +3.5904337678E+000  +2.2207199733E-001 +5.4936591990E+000  +6.7956043555E-001 -5.4631035683E+000 
13900115.144 +6.7300971836E-001 -2.5072795696E+000  +2.2535710146E-001 +3.3797652497E+000  +2.2369333094E-001 +5.1749555731E+000  +6.9975599167E-001 -5.1881633450E+000 
14025260.325 +6.9126176083E-001 -2.8133295241E+000  +2.2672252381E-001 +2.7492237266E+000  +2.2379992647E-001 +4.5956662834E+000  +7.0874804771E-001 -4.6249452744E+000 
14150405.507 +7.1702289791E-001 -4.5275153934E+000  +2.2799080725E-001 +3.1669208359E+000  +2.2612365903E-001 +4.0521411399E+000  +7.3575007455E-001 -4.3988850452E+000 
14275550.688 +7.2584815726E-001 -2.9878558712E+000  +2.2688509976E-001 +2.8473258309E+000  +2.2546889990E-001 +3.5772071532E+000  +7.3843713980E-001 -4.5025040514E+000 
14400695.870 +7.2233453818E-001 -4.6972215257E+000  +2.2746330388E-001 +2.3713343345E+000  +2.2657172498E-001 +2.9609516331E+000  +7.3230381928E-001 -3.1747163877E+000 
