!  2-Port S-parameters saved by WinCal
! VAR MeasName=S-Parameters (CALIBRATED_DATA) read from VNA (P5004A)
! VAR MeasDate=27/08/2024 17:12:42
! VAR NAME=S2_r3c9_RESET2_9k-100M_2
! VAR FILENAME=S2_r3c9_RESET2_9k-100M_2.S2P
! VAR DATE=27/08/2024 17:12:42
! VAR PHYS_PORTS=1,2
! VAR ObjTypeName=DATASET
! VAR IndexType=Frequency
!
# Hz S MA R 50
9000.000 +6.6287142799E-002 -1.5564496231E+002  +1.9544336010E-002 +1.3931973690E+002  +7.6853822216E-002 -4.2983800394E+001  +6.9835320562E-001 -1.0913168411E+002 
134145.181 +1.1114806791E-001 +1.6946450143E+002  +4.6976255464E-004 +1.0397853504E+002  +6.1314738305E-004 -2.4764587909E+001  +2.4113778767E-001 -1.7162308789E+002 
259290.363 +1.1150573951E-001 +1.6981876628E+002  +7.6003585719E-004 -1.5712281793E+002  +5.6262669545E-004 +1.2860406184E+002  +2.4323107538E-001 -1.6874945958E+002 
384435.544 +1.1353352213E-001 +1.7066252173E+002  +2.9208243415E-004 -4.2636239810E+001  +1.1561785324E-003 +9.6624329581E+001  +2.4428539299E-001 -1.6828381229E+002 
509580.726 +1.1681251838E-001 +1.7141600099E+002  +2.3156717669E-004 +9.6728410788E+001  +3.8581648242E-004 +2.5171910922E+000  +2.5607310493E-001 -1.6879173276E+002 
634725.907 +1.1600339711E-001 +1.7069668313E+002  +5.1776080054E-004 -7.3716035240E+000  +1.3999097124E-003 +5.4466494044E+001  +2.6111213681E-001 -1.6686643824E+002 
759871.089 +1.1690175343E-001 +1.7115496160E+002  +1.1055052981E-003 -9.4632739431E+000  +1.1514332181E-003 -8.8217317722E+001  +2.4223371724E-001 -1.6559256800E+002 
885016.270 +1.1558904444E-001 +1.6911486086E+002  +3.6399020527E-004 +1.5664755875E+001  +1.0355893204E-003 +1.1026185286E+002  +2.3976484935E-001 -1.6631675695E+002 
1010161.452 +1.1672082315E-001 +1.7069157813E+002  +7.7774319516E-004 +5.2833897683E+001  +4.7155365876E-004 -1.3745875000E+002  +2.0325614663E-001 -1.6868137704E+002 
1135306.633 +1.1865427281E-001 +1.6994879585E+002  +9.5054729357E-004 -9.0117186901E+001  +4.4931183008E-004 -5.2117921054E+000  +1.6992810266E-001 +1.7905351176E+002 
1260451.815 +1.2043823875E-001 +1.7143831141E+002  +1.6332684836E-003 -3.1488521447E+001  +7.1493214934E-004 +5.5558146037E+001  +2.5854343955E-001 -1.5554614344E+002 
1385596.996 +1.2024619737E-001 +1.7144203512E+002  +1.5814764479E-003 +1.6909360087E+001  +1.2925969023E-003 -9.0949516812E-001  +2.6669776439E-001 -1.5872348673E+002 
1510742.178 +1.2705150067E-001 +1.7108683566E+002  +3.0745844191E-004 +1.1293118896E+002  +9.4984769901E-004 +1.4057717752E+002  +2.4550534822E-001 -1.5709218606E+002 
1635887.359 +1.2901643299E-001 +1.7099356775E+002  +2.0982690147E-004 +1.4804631973E+002  +4.0835209935E-004 +1.1267767485E+002  +2.3837139353E-001 -1.6076261900E+002 
1761032.541 +1.2841936395E-001 +1.6859189391E+002  +1.7884780278E-003 -1.5873697314E+002  +1.1008512701E-003 -1.1307525027E+002  +1.9584645525E-001 -1.5415052921E+002 
1886177.722 +1.2857945198E-001 +1.6655846380E+002  +5.7054327100E-004 -1.3047848279E+002  +1.8166890414E-003 -1.5182360106E+001  +2.2050280112E-001 -1.5659412442E+002 
2011322.904 +1.2471092879E-001 +1.6708002377E+002  +4.5139859133E-003 +1.1382685128E+001  +8.3934115794E-003 +7.0147451676E+001  +8.0811401173E-002 -1.5775064254E+002 
2136468.085 +1.2897099789E-001 +1.6283835527E+002  +3.7343137865E-003 +9.9254299068E+001  +2.2952280326E-003 +8.4087569032E+001  +1.2100241421E-001 +1.5237285704E+002 
2261613.267 +1.3637260893E-001 +1.6143240918E+002  +9.6006325607E-004 +8.8357822971E+001  +6.5226049700E-004 +5.3668374424E+000  +2.1453518167E-001 -1.7993836525E+002 
2386758.448 +1.3819177121E-001 +1.6295414662E+002  +1.9251883512E-003 +1.2867380727E+002  +2.1800797968E-003 +3.0868545412E+001  +2.4753085229E-001 +1.7293628067E+002 
2511903.630 +1.2739393052E-001 +1.5947269173E+002  +6.0873443365E-003 +1.6675961234E+002  +4.9022757824E-003 -9.2653874645E+001  +1.8870303136E-001 +1.6784979346E+002 
2637048.811 +1.2792290562E-001 +1.5741642716E+002  +1.1431306722E-002 +1.0339530302E+002  +1.8294682806E-002 +4.4857919916E+001  +2.9847872903E-001 +1.1610902839E+002 
2762193.992 +9.0789320081E-002 +1.7110861188E+002  +1.2036771551E-002 +1.5640388974E+002  +1.7162281989E-002 -4.0563883330E+001  +3.4964426439E-001 +1.0611063745E+002 
2887339.174 +1.1489196746E-001 +1.7621515084E+002  +1.0112686427E-002 -8.6621806479E+001  +7.9250956864E-003 +3.3142830957E+000  +3.5944946542E-001 +8.7247734237E+001 
3012484.355 +1.2108971026E-001 -1.6836633564E+002  +2.9700528903E-002 +8.2786924860E+000  +2.1878836418E-002 -1.7893716688E+002  +6.0123171337E-001 -6.8556924006E+001 
3137629.537 +1.1695920652E-001 +1.7408150134E+002  +7.7530362611E-003 -1.5129769721E+002  +1.2517756343E-002 -1.7306560400E+001  +7.0768142242E-001 -5.9645554744E+001 
3262774.718 +1.1304651423E-001 +1.7420702630E+002  +2.4804136891E-003 -9.3094663950E+001  +1.1273748795E-002 -3.1533553215E+000  +5.6746950856E-001 -1.1594352373E+002 
3387919.900 +1.3351460340E-001 +1.5391805741E+002  +4.9272236447E-003 -2.1224671815E+000  +1.8550871841E-002 +5.7625407547E+001  +1.1517601618E-001 -1.1530745290E+001 
3513065.081 +1.5536071959E-001 +1.4610051582E+002  +1.2833942354E-002 +1.0346593544E+002  +1.3030606103E-002 -7.9529327353E+001  +4.7152533073E-001 +8.2700474284E+000 
3638210.263 +1.6920022986E-001 +1.4486059795E+002  +2.0294465187E-002 +1.5197307751E+002  +8.1198151489E-003 -5.3657552441E+001  +5.5193905669E-001 +8.3357362377E+001 
3763355.444 +1.2570645578E-001 +1.4842683112E+002  +1.1205156230E-002 +1.1869324339E+002  +1.7784561942E-002 +7.2506870318E+001  +5.9443658086E-001 +1.2616179610E+002 
3888500.626 +1.7752098921E-001 +1.5867290535E+002  +6.4694676585E-003 +1.6616733772E+002  +2.4121621634E-003 +9.8601920736E+001  +3.1096892062E-001 +1.5003296367E+002 
4013645.807 +1.6561418340E-001 +1.4447770421E+002  +1.2968960596E-002 -5.2127250831E+001  +1.2305940764E-002 -8.8497289277E+001  +4.6833842898E-001 +9.7045773983E+001 
4138790.989 +2.1847428570E-001 +1.5140969129E+002  +1.0755184173E-002 -1.2927996608E+002  +3.0855931827E-003 +2.4251614347E+001  +4.0543409498E-001 +9.5133386724E+001 
4263936.170 +2.0279475623E-001 +1.5010881657E+002  +1.9381762982E-002 +1.0831065450E+001  +1.4284411999E-002 +9.0514173517E+001  +6.3149948925E-001 +8.8215138763E+001 
4389081.352 +2.3663333375E-001 +1.3210568516E+002  +2.5005901943E-003 +1.3331113252E+002  +1.2291468034E-002 -1.7888582182E+002  +6.2933700890E-001 +1.2416626513E+002 
4514226.533 +2.1498661098E-001 +1.3431283269E+002  +3.9147879479E-002 +5.0473821214E+001  +8.9555473074E-002 +9.6873877411E+001  +3.6554108883E+000 +1.0750579302E+002 
4639371.715 +2.8377940854E-001 +1.2955946617E+002  +5.9617116541E-002 -7.6086376822E+001  +1.8113255157E-002 +1.5126784487E+002  +3.7445712609E+000 +1.6664734276E+002 
4764516.896 +2.7179397342E-001 +1.1940467361E+002  +9.0926237471E-002 +9.6669234761E+001  +3.0818308322E-001 -5.5555265569E+001  +1.0494054346E+001 +5.3118389949E+001 
4889662.078 +5.8100482786E-001 +1.1708470660E+002  +1.7881001464E-001 -1.4581016672E+002  +8.7440904572E-002 +1.1210700323E+002  +5.7924545378E+000 +4.3455344280E+001 
5014807.259 +3.0952876043E-001 +1.2461052138E+002  +5.6273243915E-002 +7.9976985201E+001  +2.6517810020E-002 +7.0984969402E+001  +5.6378164271E+000 +2.3373759192E+000 
5139952.441 +3.8523269511E-001 +1.3639322677E+002  +4.2201005717E-002 -1.3018365511E+002  +7.3736706090E-002 +1.0985207083E+002  +5.2920774431E+000 +2.2979479310E+001 
5265097.622 +3.7315982635E-001 +1.2564410346E+002  +1.3082420739E-002 +4.7077149676E+001  +7.8232683864E-003 -1.5468917253E+002  +1.7988658219E+000 +1.0410580503E+002 
5390242.804 +4.5541475886E-001 +1.2995221934E+002  +2.3376319326E-002 +1.7584314655E+002  +2.1574829990E-002 +1.5786913287E+002  +3.1185069144E+000 +6.7393785460E+001 
5515387.985 +4.2746615528E-001 +1.3559158497E+002  +2.7974153870E-002 +4.2769389502E+001  +2.1691974950E-002 +8.1863836752E+001  +3.8462160355E+000 +8.5916749687E+001 
5640533.166 +4.6683384125E-001 +1.3240293327E+002  +6.8381595378E-003 -7.6724190939E+001  +1.5380487215E-002 -1.4020621334E+002  +3.0601468419E+000 +5.7571843138E+001 
5765678.348 +4.0553879934E-001 +1.2369647058E+002  +3.3149075181E-003 +1.0122514426E+002  +3.5734188692E-002 +9.9411880887E+001  +1.8875565499E+000 +5.0996910252E+001 
5890823.529 +5.9489698451E-001 +1.2436353888E+002  +1.2092719339E-002 -1.2104083693E+002  +7.2637996565E-003 -1.3905108359E+002  +1.5322703355E+000 +6.5457371597E+001 
6015968.711 +6.3548108909E-001 +1.1741436714E+002  +4.8828541895E-002 +9.1708943935E+001  +1.3285858762E-002 +1.3618008238E+000  +2.0540908319E+000 +5.8707372175E+001 
6141113.892 +6.7494177882E-001 +1.0615292155E+002  +2.3227270209E-002 +1.2643323777E+002  +7.8181453880E-004 +1.5366793899E+002  +2.2310777175E+000 +1.9715599893E+001 
6266259.074 +1.0238314380E+000 +9.1958216361E+001  +7.1582982569E-003 -1.4031942334E+001  +4.9062437532E-003 -6.6157920153E+000  +2.3210800133E+000 +2.8827056873E+001 
6391404.255 +9.5350789401E-001 +9.3212070224E+001  +2.4784396204E-002 -5.6081428588E-001  +1.2726856485E-002 +1.4487628801E+002  +1.5756985694E+000 +9.4752762360E+000 
6516549.437 +1.3771407112E+000 +9.0051057522E+001  +1.8555440887E-002 +6.5213563155E+001  +3.3920298735E-002 +8.2320729960E+001  +1.8227529897E+000 -5.0474459564E-001 
6641694.618 +1.7061485304E+000 +8.5517512676E+001  +3.4144499029E-002 +1.5955445524E+002  +7.5446813699E-003 +7.5118213909E+001  +1.4627159719E+000 -7.8815166205E+000 
6766839.800 +1.8278123292E+000 +6.1961978004E+001  +1.6414693802E-002 +1.3650414086E+002  +1.1782063033E-002 +2.2740589114E+001  +1.3188032334E+000 -1.2569868144E+001 
6891984.981 +1.9597188726E+000 +4.7083187036E+001  +2.2037135340E-002 -1.6967507748E+002  +3.7937408374E-003 -1.9212674675E+000  +1.4229226899E+000 -4.2625427989E+000 
7017130.163 +1.8026780735E+000 +8.7253810607E+000  +6.5027196348E-003 -1.2407041784E+002  +6.0658967131E-003 +1.1391131566E+002  +1.4411242569E+000 -1.1622349952E+001 
7142275.344 +1.4279845906E+000 +1.1287831722E+001  +6.4007932663E-003 +1.7057758827E+002  +5.4719743690E-003 -1.4840791103E+001  +1.3741782078E+000 -9.4764625666E+000 
7267420.526 +1.4437052374E+000 -7.9750447802E+000  +1.3433986366E-002 -1.0422170420E+002  +1.5338672836E-002 +3.7539451238E+001  +1.3562636251E+000 -1.3427799978E+001 
7392565.707 +1.3570894782E+000 +1.7098218249E+000  +1.3040090824E-002 -6.0254796150E+001  +1.7054704309E-002 +1.1456516410E+002  +1.4333797601E+000 -1.2361039191E+001 
7517710.889 +1.2979390531E+000 +3.6034459737E+000  +8.9499413562E-003 -5.2789823672E+000  +6.4293883931E-003 -1.5756534113E+002  +1.1752931604E+000 -4.8355971138E+000 
7642856.070 +1.0453195696E+000 +1.1486591054E+000  +1.6303585500E-003 +4.3002331466E+001  +1.2930318307E-002 +1.1286477134E+002  +1.1171585413E+000 -4.5364123070E+000 
7768001.252 +9.5107446558E-001 +9.1290971973E+000  +5.0697664985E-003 +1.1056914210E+002  +5.9451211111E-003 -3.4075712521E+000  +9.8668365158E-001 -1.1980520784E+000 
7893146.433 +8.7759873968E-001 +7.6507132104E-001  +1.5624147745E-003 +1.3920020603E+002  +5.5083981433E-003 +9.7856225406E+000  +9.9295908160E-001 -6.8618453414E+000 
8018291.615 +7.5851309307E-001 +8.6170746016E+000  +1.9980350754E-003 -6.3991062749E+001  +1.4157651731E-003 +1.3975425041E+002  +8.5701341968E-001 +3.2102185082E-002 
8143436.796 +7.3892320203E-001 +1.0902199269E+001  +1.7637443926E-003 -1.8303639997E+001  +6.1938474556E-003 +6.3211408393E+001  +7.9008278336E-001 +2.7800553616E+000 
8268581.977 +6.9982229085E-001 +6.9110066398E+000  +4.7855927898E-003 +4.5125193518E+001  +6.6961650636E-003 +1.6910737772E+002  +8.1044346224E-001 -1.0518093448E+000 
8393727.159 +6.8393198334E-001 +1.0772361045E+001  +3.1601008480E-003 +8.3537187487E+001  +8.8070648905E-003 +8.4121373716E+001  +7.7039725429E-001 -2.3149297917E+000 
8518872.340 +6.6570014135E-001 +2.2588004886E+000  +3.6126004266E-003 +8.9424870502E+001  +5.5118185151E-003 +6.6308888771E+001  +7.4039656328E-001 +2.3040204168E+000 
8644017.522 +6.2441771713E-001 +5.7792391299E-001  +2.1567502741E-003 +1.3560479840E+002  +1.8936490788E-003 +7.6054639234E+001  +6.9613196500E-001 +2.7838887055E+000 
8769162.703 +6.1542317710E-001 +6.0327015824E+000  +1.0896416304E-002 +8.1627739292E+001  +6.5620296379E-003 +1.1268877256E+002  +7.0078239794E-001 +1.1131103395E+000 
8894307.885 +6.0102270357E-001 +3.6427543577E+000  +4.1672299246E-003 +2.6718261368E+001  +2.2993378045E-003 +8.6814238022E+001  +6.9938021339E-001 -3.4264633905E+000 
9019453.066 +6.6578975623E-001 +3.8720504592E+000  +5.1013845331E-003 +8.5733429304E+001  +5.3692772005E-003 +1.3399899712E+002  +6.8412442224E-001 -2.7201144254E+000 
9144598.248 +5.8699543124E-001 +1.0430590167E+001  +1.0188109164E-003 +8.1135164137E+001  +3.3711719025E-003 +1.2323516830E+002  +6.5865959859E-001 -1.2034128200E+000 
9269743.429 +5.6114441535E-001 +4.9667402352E+000  +2.3219472542E-003 +8.4478865967E+001  +5.8696585264E-003 +1.1077473845E+002  +6.4675517442E-001 +3.3910911508E+000 
9394888.611 +5.8172398193E-001 +4.6194807276E+000  +4.9391526811E-003 +5.1829640740E+001  +8.7925005898E-003 +1.1093250741E+002  +6.2690344054E-001 -5.2052743533E+000 
9520033.792 +5.5568979972E-001 +1.1024610676E+000  +3.8691339299E-003 +7.6134963537E+001  +4.8063076788E-003 +7.5651557507E+001  +5.7019243283E-001 -5.5368414233E+000 
9645178.974 +5.8266297419E-001 +8.7125454315E+000  +5.5681886333E-003 +7.6164299745E+001  +3.7841383512E-003 +5.5016931558E+001  +6.0093183335E-001 -2.7758949925E+000 
9770324.155 +5.3540303368E-001 -8.9273640528E-001  +5.2602346066E-003 +5.9603674815E+001  +5.7996159484E-003 +6.6203616781E+001  +5.7030504194E-001 -2.6038453442E+000 
9895469.337 +5.2420745295E-001 +4.2613913770E+000  +4.5321858803E-003 +1.3197096165E+002  +5.7537876459E-003 +6.5438845612E+001  +5.9470226681E-001 -5.2467523218E+000 
10020614.518 +5.2998546173E-001 +2.3540201184E+000  +6.2563327179E-003 +8.2932820329E+001  +3.4094436211E-003 +7.5263103194E+001  +5.7347014797E-001 -3.7446007508E+000 
10145759.700 +5.7465563811E-001 +5.7317393162E+000  +6.2980007670E-003 +4.3434911541E+001  +6.5852396972E-003 +9.0800026784E+001  +6.0912733270E-001 -6.0825999052E+000 
10270904.881 +5.9600550779E-001 +1.9291015184E+000  +3.1938036158E-003 +9.8985906453E+001  +4.8491241697E-003 +9.4058750423E+001  +5.8483017540E-001 -1.4454497852E+000 
10396050.063 +5.5619893364E-001 +3.4577624053E+000  +3.6242654569E-003 +9.6311502403E+001  +4.4283852560E-003 +9.3600032508E+001  +5.7738791377E-001 -3.4778993533E+000 
10521195.244 +5.6646623688E-001 +4.8996546851E+000  +5.9218058823E-003 +9.0588715560E+001  +3.5184247523E-003 +9.8305172744E+001  +5.8053966112E-001 -2.9420235362E+000 
10646340.426 +5.9401399473E-001 +5.3821365041E+000  +3.3460090550E-003 +1.5885423754E+001  +5.4054770083E-003 +3.8391827404E+001  +5.9446848404E-001 +2.6549034924E+000 
10771485.607 +5.8910259424E-001 +8.6546120393E+000  +3.8659806043E-003 +5.1008615916E+001  +4.1751052181E-003 +7.5529587886E+001  +6.0043004626E-001 -1.8086514756E+000 
10896630.788 +5.4997751412E-001 +7.3325152427E+000  +5.3172067474E-003 +1.1747286182E+002  +1.4406470029E-003 +1.0762908616E+002  +5.8773005539E-001 +2.0739490240E+000 
11021775.970 +5.9909307980E-001 +6.2631071640E+000  +4.4892774853E-003 +8.5629488838E+001  +5.1035676184E-003 +6.2260372906E+001  +6.0768380331E-001 +1.6353271340E+000 
11146921.151 +5.8301540103E-001 +6.3066771806E+000  +4.0507535617E-003 +8.5118693671E+001  +4.0380868554E-003 +7.6233642424E+001  +6.1855625631E-001 -2.4271327712E+000 
11272066.333 +5.8383328639E-001 +7.7587889302E+000  +6.7232179769E-003 +8.3976818179E+001  +4.3763902471E-003 +1.0187934790E+002  +6.3462311724E-001 +1.4228989258E+000 
11397211.514 +6.1037552241E-001 +5.0048226296E+000  +5.2716957815E-003 +9.0493240355E+001  +3.8868845516E-003 +8.9586363724E+001  +6.4306154878E-001 +1.2152067240E+000 
11522356.696 +6.2571551675E-001 +7.8444088168E+000  +5.2249903332E-003 +6.1095236177E+001  +6.8832071046E-003 +7.5584478715E+001  +6.5352921877E-001 -9.0834988791E-001 
11647501.877 +6.0862889524E-001 +5.3680199601E+000  +5.0771307380E-003 +9.8848903922E+001  +5.9797536258E-003 +9.3271875572E+001  +6.5193843871E-001 +1.5728582824E+000 
11772647.059 +6.4928488741E-001 +5.5097980726E+000  +4.3995318967E-003 +5.9570549098E+001  +5.2169872265E-003 +9.9330683431E+001  +6.7669419548E-001 +1.9550596086E+000 
11897792.240 +6.7316494844E-001 +6.5507728084E+000  +5.4252207588E-003 +6.9733658975E+001  +4.9305155239E-003 +8.2608573669E+001  +6.7224678408E-001 +2.9110105424E+000 
12022937.422 +6.6862654158E-001 +4.4220873575E+000  +4.4896008942E-003 +9.1586854749E+001  +6.5992435094E-003 +1.0331754085E+002  +6.7903440609E-001 +3.7260878996E-001 
12148082.603 +6.8143460938E-001 +5.8280980768E+000  +6.8638294257E-003 +9.4501836308E+001  +6.4337593164E-003 +9.9152373258E+001  +6.9821244199E-001 -7.0839223854E-002 
12273227.785 +6.9352809690E-001 +3.5767699354E+000  +7.6700235026E-003 +7.4149765418E+001  +4.5418661645E-003 +9.4328057411E+001  +6.7677286010E-001 +1.5104898290E-001 
12398372.966 +6.9330514973E-001 +3.0100885216E+000  +6.7235898156E-003 +8.9744835149E+001  +4.8137062515E-003 +9.4297943447E+001  +7.0291463389E-001 +1.4838572937E+000 
12523518.148 +7.6192071885E-001 +2.4745904088E+000  +5.7313888096E-003 +8.3362024054E+001  +6.3238489054E-003 +8.6331683272E+001  +7.3583650976E-001 +1.4040053172E-001 
12648663.329 +7.4466642943E-001 +3.3463715661E+000  +6.5753646845E-003 +6.9135434531E+001  +3.9617703216E-003 +9.6847535872E+001  +7.4033254888E-001 -1.5524454940E+000 
12773808.511 +7.6255669481E-001 +2.6112584717E+000  +6.0885329927E-003 +7.4147500082E+001  +7.1731745541E-003 +8.7156145531E+001  +7.7516545420E-001 -7.9384668930E-001 
12898953.692 +7.6165642680E-001 +1.8686354216E+000  +8.2913467795E-003 +9.5619584695E+001  +6.4152874360E-003 +1.0057836132E+002  +7.7450182938E-001 -1.4753337903E+000 
13024098.874 +7.7632863500E-001 -3.9670678461E-001  +6.5072874135E-003 +9.4193054087E+001  +6.0069098017E-003 +9.2334000826E+001  +8.0027630123E-001 -3.3923336460E+000 
13149244.055 +7.6852397516E-001 -6.0539177231E-001  +6.5586373732E-003 +9.9497267570E+001  +6.6536702747E-003 +1.0107855929E+002  +8.0929974035E-001 -2.2562858800E+000 
13274389.237 +8.2653275413E-001 -8.5599974649E-001  +5.3757135975E-003 +9.3001805428E+001  +5.1934273763E-003 +9.5004925054E+001  +8.3669311373E-001 -3.4105746851E+000 
13399534.418 +8.4609090622E-001 -1.9222662166E-001  +5.9328412424E-003 +8.1445312922E+001  +6.7649905312E-003 +8.7977674721E+001  +8.3864408845E-001 -2.3912456271E+000 
13524679.599 +8.4672065565E-001 -1.9300904016E+000  +6.8570656755E-003 +6.8417716119E+001  +5.9371427576E-003 +9.5775376892E+001  +8.7105431509E-001 -1.8926448720E+000 
13649824.781 +8.8515831562E-001 -1.6597218622E+000  +7.8925669467E-003 +8.4482607876E+001  +8.5255812399E-003 +9.7978582511E+001  +8.6913725084E-001 -3.6933910174E+000 
13774969.962 +8.9236030102E-001 -2.0485807190E+000  +7.7638699432E-003 +8.9100247624E+001  +7.3329125700E-003 +8.2869935025E+001  +8.9437546558E-001 -2.2871348969E+000 
13900115.144 +8.9868569539E-001 -2.0305015185E+000  +6.8512925016E-003 +9.4762761080E+001  +7.2520614881E-003 +9.3918625176E+001  +9.0858311962E-001 -3.1378568729E+000 
14025260.325 +9.2380407565E-001 -4.1704167841E+000  +7.2114891812E-003 +9.8028553374E+001  +7.8456036495E-003 +8.7897206671E+001  +9.3930593182E-001 -3.0828751690E+000 
14150405.507 +9.4585711585E-001 -4.5754275122E+000  +7.4692814235E-003 +8.5490801054E+001  +7.3557601211E-003 +8.8383867945E+001  +9.5567097556E-001 -4.3207880904E+000 
14275550.688 +9.4583525970E-001 -4.6936010431E+000  +8.7740355521E-003 +8.9580979341E+001  +6.7834635314E-003 +8.7834008879E+001  +9.8992039050E-001 -4.5253855405E+000 
14400695.870 +9.8236117059E-001 -5.2814917076E+000  +8.3210577800E-003 +7.6874738855E+001  +7.3955641931E-003 +7.7553854657E+001  +1.0003417432E+000 -4.3874328433E+000 
