!  2-Port S-parameters saved by WinCal
! VAR MeasName=S-Parameters (CALIBRATED_DATA) read from VNA (P5004A)
! VAR MeasDate=28/08/2024 11:21:02
! VAR NAME=S2_r6c9_RESET2_9k-100M_1
! VAR FILENAME=S2_r6c9_RESET2_9k-100M_1.S2P
! VAR DATE=28/08/2024 11:21:02
! VAR PHYS_PORTS=1,2
! VAR ObjTypeName=DATASET
! VAR IndexType=Frequency
!
# Hz S MA R 50
9000.000 +7.9497137354E-002 -1.3556082937E+002  +9.3561660354E-003 -1.3364386274E+002  +1.4225395094E-002 -1.2744732521E+002  +2.4696921679E-001 -1.4644365554E+002 
134145.181 +1.1091060498E-001 +1.6920381249E+002  +7.1521845040E-005 +8.0238881655E+001  +3.6333790261E-004 -2.6075188059E+001  +2.4498016872E-001 -1.7024776713E+002 
259290.363 +1.1150204340E-001 +1.6992937319E+002  +5.6998459346E-004 -8.1824159604E+001  +4.3010755349E-004 -1.1397370366E+002  +2.3985178712E-001 -1.6946254484E+002 
384435.544 +1.1352755508E-001 +1.7050798659E+002  +3.9269543459E-004 +1.6188407668E+002  +3.4011147453E-004 -1.3213476571E+002  +2.4929690430E-001 -1.6902606947E+002 
509580.726 +1.1303692741E-001 +1.6993309595E+002  +2.4009635481E-004 -7.0276730860E+001  +9.1723753010E-004 -9.1075632040E+001  +2.4777411309E-001 -1.6630670002E+002 
634725.907 +1.1776999729E-001 +1.7118592333E+002  +1.6358192452E-004 +2.5579700227E+001  +9.3396163927E-004 +5.0905070487E+001  +2.5611590611E-001 -1.6766342209E+002 
759871.089 +1.1843626109E-001 +1.7075511564E+002  +1.9068280843E-004 +5.4883302088E+001  +4.8943566046E-004 +9.4540481294E+001  +2.4492827406E-001 -1.6719629216E+002 
885016.270 +1.2016929948E-001 +1.6894210232E+002  +2.7034739712E-004 -1.1025263881E+002  +1.3633359515E-004 +3.0707462132E+001  +2.4597794591E-001 -1.6737233995E+002 
1010161.452 +1.1952240106E-001 +1.6919537407E+002  +3.3216996580E-004 -8.1991638447E+001  +1.9042659424E-003 -1.1235106862E+002  +2.1595798726E-001 -1.6575632693E+002 
1135306.633 +1.1630117244E-001 +1.7038214984E+002  +6.9796027888E-004 +1.6264219847E+002  +1.3223077632E-003 -1.4754037193E+002  +2.2034025617E-001 -1.6044047625E+002 
1260451.815 +1.2186853080E-001 +1.7111273711E+002  +4.0473591996E-004 -1.4438960740E+002  +9.8274728037E-004 -1.2277209804E+002  +2.1176945814E-001 -1.6186861242E+002 
1385596.996 +1.2582283977E-001 +1.7163506006E+002  +1.1315116159E-003 +1.4049641322E+001  +1.4324054757E-003 +1.1177651118E+002  +2.6132912912E-001 -1.5415169797E+002 
1510742.178 +1.2987689365E-001 +1.7300205738E+002  +1.3840203509E-003 +1.2928057346E+001  +3.2808122065E-004 +1.3736336030E+002  +2.5973146674E-001 -1.5909248231E+002 
1635887.359 +1.3247814250E-001 +1.7108317234E+002  +2.1936534420E-004 -5.3886228418E+001  +4.5274499573E-004 +1.7478359509E+001  +2.4528573145E-001 -1.5902267761E+002 
1761032.541 +1.3219882459E-001 +1.7009132072E+002  +5.0956313110E-004 +7.6946120122E+001  +7.3030501023E-004 +1.7303958789E+002  +2.0386188816E-001 -1.5599449867E+002 
1886177.722 +1.3123648705E-001 +1.6964965760E+002  +1.3724241938E-003 +1.2231538177E+002  +1.2339067602E-003 +8.1930429182E+001  +1.8787267627E-001 -1.6726246811E+002 
2011322.904 +1.2755374980E-001 +1.6684089416E+002  +1.2675249392E-004 -1.1223953391E+002  +2.6310710914E-003 +8.7507701261E+001  +1.9585162067E-001 -1.6897474071E+002 
2136468.085 +1.2401667719E-001 +1.6874207898E+002  +1.1507435551E-003 +1.3139379235E+002  +2.9637490154E-003 +4.7497645309E+001  +2.0951532839E-001 -1.5893816989E+002 
2261613.267 +1.2501174423E-001 +1.6419227828E+002  +4.4742238036E-003 -1.6733948628E+002  +2.4800282629E-003 +1.5608260969E+002  +1.8645990364E-001 +1.6835098117E+002 
2386758.448 +1.4005219370E-001 +1.6437605625E+002  +1.9237410597E-003 +1.2201925447E+002  +4.9699770106E-003 -1.6351188031E+002  +2.1101013659E-001 +1.7200788017E+002 
2511903.630 +1.2763362951E-001 +1.6984672814E+002  +5.9062615150E-003 +3.0052159430E+001  +1.7144880269E-003 -6.4315321046E+001  +1.9784225139E-001 +1.6330966909E+002 
2637048.811 +1.2088123838E-001 +1.5666897465E+002  +1.1024043947E-002 +2.9084646634E+001  +1.2875198508E-002 -1.2598259450E+002  +2.2439630644E-001 +1.2806708338E+002 
2762193.992 +1.3102669959E-001 +1.7156701119E+002  +5.8716436164E-003 +5.9683551108E+001  +4.7313396660E-003 +6.2799945233E+001  +1.6524241868E-001 -9.1304033297E+001 
2887339.174 +1.2076968870E-001 -1.7978302434E+002  +2.4958861059E-002 +4.8664044364E+001  +1.4836471911E-002 +1.4365762814E+002  +4.2687830999E-001 -8.0307205908E+001 
3012484.355 +1.2627504582E-001 +1.7468054909E+002  +3.8123562625E-003 +1.6967386819E+002  +4.8021921107E-003 +7.9348217572E+001  +2.7966239715E-001 -1.1422844410E+002 
3137629.537 +1.1849807072E-001 +1.6940747637E+002  +8.9500666960E-003 +9.6515049621E+001  +4.7523884173E-003 +5.3389776555E+001  +2.0752121203E-001 -9.1118132704E+001 
3262774.718 +1.1665405420E-001 +1.6684536633E+002  +4.5219769729E-003 -1.1190472507E+002  +6.5723277422E-003 +1.1316417747E+002  +1.2801126469E-001 -1.7044357634E+002 
3387919.900 +1.2717755868E-001 +1.5576787397E+002  +2.1020396688E-003 +1.0325815128E+002  +1.3238241354E-002 -6.8452272812E+001  +1.8837305566E-001 -5.0903003832E+001 
3513065.081 +1.3858455085E-001 +1.5698606755E+002  +3.1105573017E-002 -3.3205538957E+001  +2.3362442788E-002 +1.7754766729E+002  +8.1013319353E-001 +1.1073573688E+002 
3638210.263 +1.5787814321E-001 +1.4823607512E+002  +1.8562867287E-002 -4.7398504398E+001  +1.4027704825E-002 +1.3022153952E+002  +8.7464432971E-001 +1.1555796451E+002 
3763355.444 +1.8832261338E-001 +1.4307689366E+002  +6.7812524895E-003 -8.0369958980E+001  +2.8917296343E-003 -1.5896454066E+002  +3.7486061900E-001 +1.2727734945E+002 
3888500.626 +1.7180307262E-001 +1.5072324667E+002  +4.0607409470E-003 +1.4226214045E+002  +5.9889643011E-003 +1.2796839783E+002  +3.4088735838E-001 +1.3753090612E+002 
4013645.807 +1.5309397206E-001 +1.5325551139E+002  +7.6350387715E-003 -1.1093601355E+002  +3.4760927732E-003 +3.0763755565E+001  +4.1890199027E-001 +1.0742758942E+002 
4138790.989 +1.7039863730E-001 +1.3860371004E+002  +1.1874465513E-002 -4.6284464434E+001  +1.0019359620E-002 -8.2764951256E+001  +3.8702025658E-001 +9.7526951372E+001 
4263936.170 +2.2117717905E-001 +1.3591027831E+002  +3.6478565625E-003 +1.2276291176E+002  +9.4505200520E-003 +3.0036346122E+001  +5.8332776787E-001 +1.2294179270E+002 
4389081.352 +1.8941769268E-001 +1.4473732022E+002  +4.3786866210E-003 -1.6441027390E+002  +8.8129119697E-003 -2.5774215316E+001  +9.3806016834E-001 +9.1577419646E+001 
4514226.533 +2.1193286941E-001 +1.4048534168E+002  +2.5481830262E-002 +8.3609898144E+001  +1.8611980137E-002 +1.6555259180E+002  +1.0311987489E+000 +7.7465194707E+001 
4639371.715 +2.4410910464E-001 +1.3808821821E+002  +3.7276051583E-003 +7.1274334400E+001  +1.5386484743E-002 -1.1174069369E+002  +6.7513934052E-001 +1.0999833405E+002 
4764516.896 +3.2939841252E-001 +1.1852978829E+002  +1.1293589737E-001 +1.3214076102E+002  +5.6594177835E-002 +1.2249239698E+002  +5.9559743650E+000 +3.0685672005E+001 
4889662.078 +4.3549000450E-001 +1.2280875097E+002  +1.5608806151E-002 +1.2386076493E+002  +1.1760729688E-001 +8.7716545761E+001  +3.4152201187E+000 +5.6576302880E+001 
5014807.259 +3.8633277149E-001 +1.3401658468E+002  +1.7040825955E-002 -3.9770519493E+001  +1.3878021707E-002 +7.0380734913E+001  +2.9066944443E+000 -1.3858071507E+002 
5139952.441 +3.9446958975E-001 +1.3207855861E+002  +2.4519361163E-002 +1.5761104741E+002  +3.7218919546E-002 +7.7479933176E+001  +3.1920439762E+000 +1.0414718095E+002 
5265097.622 +3.8748180005E-001 +1.2526590467E+002  +2.4577564877E-002 +1.3182911662E+002  +3.6695863051E-002 +1.7257008398E+002  +1.7092881676E+000 +8.7515965624E+001 
5390242.804 +4.3680180341E-001 +1.3272188885E+002  +1.8676038703E-002 -1.3596334228E+002  +1.5581431631E-002 -1.0043160355E+002  +2.2355667386E+000 +6.2392829897E+001 
5515387.985 +4.5316853442E-001 +1.2599651859E+002  +2.8262267237E-002 +1.5432258698E+002  +3.9613356531E-002 +1.0708620948E+002  +2.7217462706E+000 +7.8433049880E+001 
5640533.166 +4.8608207429E-001 +1.2640682004E+002  +5.4403106929E-002 -1.4702446064E+002  +3.5020309916E-002 -5.9489588938E+001  +2.9087056763E+000 +6.5241756825E+001 
5765678.348 +4.8923957548E-001 +1.2417115149E+002  +1.4916798591E-002 -1.5489685672E+002  +5.0986193493E-002 -1.6914905776E+002  +2.7720301530E+000 +5.9038811829E+001 
5890823.529 +5.7463741351E-001 +1.1778119130E+002  +1.3889925383E-002 +1.2514433478E+002  +2.2531058687E-002 +1.0500432976E+002  +3.4469859772E+000 +6.3407125422E+001 
6015968.711 +6.5606390756E-001 +1.1487436132E+002  +5.4812838214E-003 +8.7994036465E+001  +1.6967215183E-003 +1.6314836270E+002  +1.4629966946E+000 +3.0105499437E+001 
6141113.892 +1.1235559895E+000 +1.0918234119E+002  +3.5101522182E-002 -1.1610792300E+001  +8.7053352400E-003 +9.1982788481E+001  +1.6532974958E+000 +1.3776266910E+001 
6266259.074 +8.6166905885E-001 +1.1280583686E+002  +1.5421001331E-002 -9.6087378300E+001  +3.5841257027E-003 -1.8603280089E+001  +1.5098842661E+000 +1.6898483506E+001 
6391404.255 +9.2388323668E-001 +9.9182233816E+001  +1.1474847788E-002 -9.8451702619E+001  +2.7741241512E-002 +1.4895165587E+001  +2.1319409848E+000 +2.0787099148E+001 
6516549.437 +1.2101593612E+000 +9.2601764138E+001  +1.7912425006E-002 +1.5981226700E+002  +3.2356528362E-002 +1.3805618582E+001  +1.7476774449E+000 +9.7956665565E+000 
6641694.618 +1.4352184647E+000 +6.6240301724E+001  +3.3812304054E-002 +2.9524846609E+001  +1.5202597530E-002 +6.2011990530E+001  +1.5064872890E+000 -1.5354047113E+000 
6766839.800 +1.5479867338E+000 +4.5254396998E+001  +2.9623803793E-003 -1.3009236496E+002  +3.2458188786E-002 -2.0262312158E+001  +1.3453740453E+000 -6.9340685872E+000 
6891984.981 +1.4675636916E+000 +2.9975630074E+001  +1.8530083301E-002 +1.1117299019E+002  +4.7582038112E-003 +1.6717747182E+002  +1.4276806896E+000 -1.8798800063E+000 
7017130.163 +1.9459622763E+000 +1.5281034309E+001  +2.3145484852E-002 +1.4729549609E+002  +1.6483663439E-002 +6.4052224355E+001  +1.1982280681E+000 -1.7291416027E+001 
7142275.344 +1.3179474543E+000 +2.0639484748E+001  +9.7533024114E-003 -6.6334026808E+001  +9.7558655128E-003 +1.1118145858E+002  +1.4271662933E+000 -7.0919035738E+000 
7267420.526 +1.3311674361E+000 -3.1647278583E+000  +1.5106728255E-002 +9.6107583906E+001  +8.7472376123E-003 -6.4705627432E+001  +1.2162459956E+000 -1.3448421633E+001 
7392565.707 +1.3842383723E+000 -6.2374939878E-001  +5.6798210681E-003 -1.7084194043E+002  +6.1741678922E-003 +6.0060055587E+001  +1.2505384005E+000 -7.2954806531E+000 
7517710.889 +1.0800972691E+000 -1.4256316684E+000  +9.2084785459E-003 +2.7546258757E+001  +1.2519443184E-003 -1.6165961976E+002  +1.1273304527E+000 -2.9807360390E+000 
7642856.070 +1.0183022682E+000 +4.3219127971E+000  +1.1556452596E-002 +7.6732804121E+001  +1.2098511407E-002 +7.5541207325E+001  +1.1350611852E+000 -3.1345383944E+000 
7768001.252 +1.0439690639E+000 +9.1077868296E+000  +6.1770351942E-003 +1.1117669362E+002  +4.5469588137E-003 +1.4410928721E+001  +1.0722229641E+000 +2.6343138222E+000 
7893146.433 +9.2053301642E-001 +1.7161479082E+000  +8.2026564287E-003 +8.5991656349E+001  +4.6346654056E-003 +2.5384777549E+001  +8.8433390676E-001 -3.6937534606E+000 
8018291.615 +8.1912506909E-001 +9.9857922867E+000  +1.1705530814E-002 +8.7807516603E+001  +3.8090472327E-003 +1.3521190493E+001  +8.4355533764E-001 -2.3811659405E+000 
8143436.796 +7.4369694457E-001 +4.6912155623E+000  +6.0258678569E-003 +3.3041443972E+001  +3.7495195311E-003 -1.0476755953E+001  +7.5373621793E-001 +5.1206645814E+000 
8268581.977 +7.2342182369E-001 +9.5754276121E+000  +5.5883035210E-003 +1.3074121220E+002  +6.7877859224E-003 +1.0758561152E+002  +8.3169769858E-001 -8.0976836984E-002 
8393727.159 +6.9083074265E-001 +8.0795066425E+000  +9.8632196734E-003 +1.0313241434E+002  +4.4468006055E-003 +7.6516560983E+001  +6.7728006177E-001 +5.7898136160E+000 
8518872.340 +6.8660315544E-001 +5.9578150751E+000  +3.9951141239E-003 +6.4124694785E+001  +1.6738873736E-003 +1.1314923816E+002  +7.4964468658E-001 +2.5118114148E+000 
8644017.522 +6.0593892859E-001 +9.2352537683E+000  +4.2936322495E-003 +1.0703702351E+002  +1.4346893739E-003 -1.3246094759E+002  +7.2936624683E-001 +3.8815205122E+000 
8769162.703 +6.4104564563E-001 +8.5658589613E+000  +2.9523368850E-003 +1.0440846211E+002  +5.6492649511E-003 +9.6375563689E+001  +6.7753354599E-001 +3.0264073312E+000 
8894307.885 +6.1435827522E-001 +4.1069190185E+000  +5.0215250927E-003 +1.2564487231E+001  +1.9262295120E-003 +1.1015721225E+002  +6.1359020868E-001 +1.3766842447E+000 
9019453.066 +6.1956652326E-001 +5.8985671530E+000  +4.4172454690E-003 +7.3316272594E+001  +6.7773996525E-003 +1.0901572435E+002  +6.7624870038E-001 +2.3138593371E+000 
9144598.248 +5.4328801824E-001 +1.6463110765E+000  +2.6156436810E-003 +8.6064541651E+001  +3.0612317758E-003 +9.4509532318E+001  +6.2553833736E-001 -6.8885211581E+000 
9269743.429 +5.9634753870E-001 +8.3669121660E+000  +3.2043689062E-003 +7.0359580462E+001  +4.9848938363E-003 +5.1357412585E+001  +6.1999426529E-001 -1.2815103838E+000 
9394888.611 +5.9022245397E-001 +6.5801762677E+000  +5.4298975774E-003 +2.0209034140E+001  +2.3699738340E-003 +1.3749720393E+002  +6.1470270092E-001 +1.1592991690E+000 
9520033.792 +5.5984511546E-001 +7.5585678765E+000  +5.8395425100E-003 +1.0002208748E+002  +6.4110813907E-003 +1.4120952881E+002  +5.5940230817E-001 -2.9183136539E+000 
9645178.974 +5.4097925285E-001 +5.1403890566E+000  +4.4048002458E-003 +8.2775365785E+001  +7.0184032001E-003 +8.9266485256E+001  +6.3983472837E-001 -4.3597978912E+000 
9770324.155 +5.3754217857E-001 +4.8200950820E+000  +5.1556392872E-003 +9.0913142590E+001  +1.8543812020E-003 +1.7511554616E+002  +5.6746901218E-001 -4.4121240734E+000 
9895469.337 +5.5606800844E-001 -5.7621258999E+000  +3.5071863921E-003 +7.5149943409E+001  +3.4217610624E-003 +1.0964279169E+002  +5.9892509000E-001 -7.0915365006E+000 
10020614.518 +5.2539920758E-001 +5.0670649019E+000  +4.9257815073E-003 +7.8747244493E+001  +6.2633944509E-003 +8.4989121982E+001  +6.0614632554E-001 -1.1121782047E+000 
10145759.700 +5.4599158889E-001 +5.5340900564E+000  +5.8977533824E-003 +9.3250712276E+001  +5.8883512403E-003 +1.0298135383E+002  +5.9175209239E-001 -4.3025247706E+000 
10270904.881 +5.3604811816E-001 +1.3475017804E+000  +4.6945664263E-003 +5.7937349151E+001  +4.6627517770E-003 +6.4692205938E+001  +5.6157993674E-001 -9.6594210545E-001 
10396050.063 +5.6106965007E-001 +2.7065684331E+000  +3.1795040138E-003 +4.3265209665E+001  +7.7169154240E-003 +1.2649492801E+002  +5.7525349275E-001 -3.1275729436E+000 
10521195.244 +5.3447004916E-001 +4.1440169001E+000  +4.2497111897E-003 +1.1518431155E+002  +3.1618245948E-003 +8.6491032687E+001  +5.8097046426E-001 -1.2807264180E+000 
10646340.426 +5.7455094492E-001 +7.3010700851E+000  +3.7583644707E-003 +1.0416983913E+002  +6.7324405696E-003 +9.5682553530E+001  +6.2770225728E-001 -1.1470589719E+000 
10771485.607 +5.7611593723E-001 +4.7157284419E+000  +2.3796617739E-003 +1.0860182601E+002  +2.7729972298E-003 +7.9435112716E+001  +5.9242394425E-001 +3.0892997306E-001 
10896630.788 +5.7792274548E-001 +6.4799694201E+000  +6.0421610449E-003 +4.9975026652E+001  +5.6592980490E-003 +1.1988787262E+002  +6.0045896051E-001 -2.1046497142E-002 
11021775.970 +5.6379297671E-001 +8.6056508619E+000  +7.0543813976E-003 +7.8484783047E+001  +4.9868212034E-003 +1.1498685760E+002  +6.5743847432E-001 +5.4516546958E-001 
11146921.151 +6.1603165409E-001 +6.0355501765E+000  +6.5446570740E-003 +8.0844828987E+001  +3.6154111986E-003 +7.8046707313E+001  +6.5050342083E-001 +1.0465074888E+000 
11272066.333 +5.8731398536E-001 +2.9783366253E+000  +4.3377959723E-003 +7.5404229939E+001  +7.2366499806E-003 +9.9806532194E+001  +6.1907484460E-001 -5.1057614496E-001 
11397211.514 +6.1278945210E-001 +6.8104451321E+000  +4.2992750162E-003 +1.0565012887E+002  +5.6506104576E-003 +1.1466738617E+002  +6.5469778365E-001 -9.1905882072E-002 
11522356.696 +6.5168491264E-001 +7.5828642872E+000  +2.9198997414E-003 +7.5432230438E+001  +8.7573278869E-003 +1.0225938219E+002  +6.6597277505E-001 +1.9328558310E+000 
11647501.877 +6.4864914780E-001 +7.0904081240E+000  +3.4140721308E-003 +8.8827893525E+001  +3.9024744612E-003 +7.7555009515E+001  +6.4592848870E-001 +1.0442407676E+000 
11772647.059 +6.4680949395E-001 +5.6160978593E+000  +4.1070368996E-003 +8.9168128091E+001  +6.1816065906E-003 +1.1832312462E+002  +6.7668695071E-001 +1.4062187959E+000 
11897792.240 +6.5907442346E-001 +5.7097609693E+000  +5.2362693057E-003 +1.1067948611E+002  +5.4008361954E-003 +9.7763842432E+001  +6.8558357160E-001 +3.3462268931E+000 
12022937.422 +6.7590641911E-001 +5.4546714289E+000  +4.5776511376E-003 +8.9974623103E+001  +4.7414251220E-003 +1.1001889811E+002  +6.8477767238E-001 +2.4923577170E+000 
12148082.603 +6.9313718803E-001 +3.6295644897E+000  +4.6493880252E-003 +9.4070057180E+001  +7.4336996498E-003 +9.4365966196E+001  +6.8986950853E-001 -1.0924422985E+000 
12273227.785 +6.9097453240E-001 +6.3435647918E+000  +4.8706904116E-003 +7.9494053033E+001  +7.4463656374E-003 +1.0489462119E+002  +7.0272924955E-001 -1.1004263661E+000 
12398372.966 +6.8792932394E-001 +4.9918379885E+000  +6.3013263778E-003 +1.0192779182E+002  +5.0827471451E-003 +9.6780958264E+001  +7.2469200838E-001 +2.5705000128E-001 
12523518.148 +7.3580689842E-001 +2.9866824134E+000  +6.3074875654E-003 +8.5930270661E+001  +5.0934691495E-003 +9.6158251511E+001  +7.4834730918E-001 -8.9883039213E-002 
12648663.329 +7.6871793080E-001 +2.5109484791E+000  +6.6335996432E-003 +9.1557760826E+001  +5.7419894742E-003 +9.9753614083E+001  +7.3150968305E-001 +7.4804545056E-001 
12773808.511 +7.4107557280E-001 +2.4541857135E+000  +6.8776403655E-003 +8.5539060930E+001  +4.6095248592E-003 +8.4028130996E+001  +7.7111529684E-001 -2.2285557679E+000 
12898953.692 +7.8773426936E-001 +1.4183131392E+000  +6.7349592900E-003 +8.6422270686E+001  +6.6282592787E-003 +9.9526366491E+001  +7.7051009738E-001 -3.8466692243E-001 
13024098.874 +7.7703719448E-001 +2.2359816394E+000  +6.0843189257E-003 +1.0336659405E+002  +5.8808506101E-003 +9.5569568028E+001  +8.0251839478E-001 -1.3418921534E+000 
13149244.055 +8.1576440401E-001 -1.1989979325E+000  +7.2624462110E-003 +9.4710444927E+001  +4.5684893689E-003 +8.2075864880E+001  +8.1741640303E-001 -3.4059549588E+000 
13274389.237 +8.2823902840E-001 -1.1249119144E+000  +5.8124830341E-003 +9.2631351804E+001  +7.1141340916E-003 +1.0685888428E+002  +8.5205959716E-001 -1.9991573434E+000 
13399534.418 +8.6060164425E-001 -6.8758769889E-001  +8.5122943064E-003 +9.2295807011E+001  +7.4346848255E-003 +8.8794612098E+001  +8.6068926793E-001 -3.6378914364E+000 
13524679.599 +8.6362238266E-001 -1.4193033989E+000  +7.6237320894E-003 +9.9117173885E+001  +7.0002804226E-003 +8.8410462466E+001  +8.5042310398E-001 -3.2836766504E+000 
13649824.781 +8.8110572807E-001 -2.1427313444E+000  +7.0473293996E-003 +9.6431886898E+001  +8.6877101781E-003 +9.1526555441E+001  +8.8890692404E-001 -2.5313558021E+000 
13774969.962 +9.1473249126E-001 -2.3853297910E+000  +7.3953991529E-003 +8.4737802802E+001  +6.4729071209E-003 +1.0279225320E+002  +9.0855087041E-001 -3.5017246545E+000 
13900115.144 +9.1309684981E-001 -3.6141541074E+000  +7.1588547724E-003 +8.8161418003E+001  +7.2222175683E-003 +9.3895338930E+001  +8.9784335373E-001 -4.4581480619E+000 
14025260.325 +8.9182105516E-001 -3.4065988768E+000  +6.6237820147E-003 +1.0709518992E+002  +7.7724850884E-003 +9.2678653384E+001  +9.3476042128E-001 -3.7682043334E+000 
14150405.507 +9.5008831218E-001 -5.1804433094E+000  +5.6701106304E-003 +7.8850674889E+001  +6.5204176122E-003 +1.1010114375E+002  +9.3702526889E-001 -3.8846785053E+000 
14275550.688 +9.4441060169E-001 -4.9749705264E+000  +6.3302109087E-003 +8.7726088405E+001  +8.6787384236E-003 +9.0445288828E+001  +9.7289078084E-001 -5.1705702828E+000 
14400695.870 +9.8758695422E-001 -5.5580504476E+000  +7.8391907838E-003 +8.9071169364E+001  +6.9578885705E-003 +8.6547864134E+001  +1.0026019487E+000 -4.2027258282E+000 
