!  2-Port S-parameters saved by WinCal
! VAR NAME=S2_r8c9_formed(0)_9k-100M_3
! VAR DATE=30/08/2024 11:58:54
! VAR FILENAME=S2_r8c9_formed(0)_9k-100M_3.S2P
! VAR MeasName=S-Parameters (CALIBRATED_DATA) read from VNA (P5004A)
! VAR MeasDate=28/08/2024 15:54:36
! VAR PHYS_PORTS=1,2
! VAR ObjTypeName=DATASET
! VAR IndexType=Frequency
!
# Hz S MA R 50
9000.000 +7.9286682587E-002 -1.6111403174E+002  +9.5814065676E-003 -1.3850945444E+002  +2.6635167418E-003 +2.4465794277E+001  +2.4839699528E-001 -1.4137615615E+002 
134145.181 +1.1105836554E-001 +1.6966013711E+002  +5.2215774676E-004 -9.1779355823E+000  +2.2996410664E-004 -1.4289408446E+002  +2.4021597769E-001 -1.7096503814E+002 
259290.363 +1.1227956826E-001 +1.6948852020E+002  +1.5009703058E-004 -1.6963535833E+002  +7.4527379148E-004 -3.1893784606E+001  +2.4875458443E-001 -1.6945118059E+002 
384435.544 +1.1487288030E-001 +1.7035641761E+002  +3.0290996543E-004 -6.6580117687E+001  +3.9763705256E-004 +5.8406227721E+001  +2.4055234401E-001 -1.6928339070E+002 
509580.726 +1.1421696494E-001 +1.7053205994E+002  +1.1352416079E-003 -4.2753704075E+001  +2.6325757776E-003 +1.6988778415E+002  +2.2822215563E-001 -1.6732832422E+002 
634725.907 +1.1751804518E-001 +1.7028197638E+002  +1.2048917427E-003 -2.4294919576E+001  +1.9138580882E-003 +1.6085385491E+002  +2.3224445415E-001 -1.6300844895E+002 
759871.089 +1.1895444795E-001 +1.7044211059E+002  +1.7889961952E-003 -6.4184165525E+001  +1.2407025235E-003 +8.4333768037E+001  +2.4121702923E-001 -1.6649371561E+002 
885016.270 +1.2102789257E-001 +1.6908181921E+002  +6.6788735755E-004 -1.4443983339E+001  +9.6561028637E-004 +1.2837755008E+002  +2.4917159749E-001 -1.6647950932E+002 
1010161.452 +1.1536885573E-001 +1.6985537708E+002  +3.1068306576E-003 +1.7835492894E+001  +3.1265438113E-003 -1.5261430801E+002  +2.0679293688E-001 -1.6837432615E+002 
1135306.633 +1.1998788975E-001 +1.6859102093E+002  +2.9598882508E-003 +1.2719097065E+000  +5.2157673723E-003 -1.6330875340E+002  +2.1350296567E-001 -1.6052206498E+002 
1260451.815 +1.2228901195E-001 +1.6993915880E+002  +3.2493662440E-003 -2.8056051485E+001  +1.9826844265E-003 +1.5998422129E+002  +2.2860770558E-001 -1.6083917463E+002 
1385596.996 +1.2399792741E-001 +1.7243964855E+002  +2.9849717576E-003 -1.9420055499E+001  +3.1565076997E-003 +1.3508464988E+002  +2.6762540109E-001 -1.6044737377E+002 
1510742.178 +1.2661057466E-001 +1.7232006360E+002  +2.2745810253E-003 -4.3951124982E+001  +1.8660993490E-003 +1.7182847547E+002  +2.6070979426E-001 -1.5984576386E+002 
1635887.359 +1.3256788046E-001 +1.7091662715E+002  +1.5563119944E-003 -4.3924253012E+001  +2.7249297803E-003 -1.5765920931E+002  +2.4177772946E-001 -1.5906257394E+002 
1761032.541 +1.3044187140E-001 +1.7029849473E+002  +3.2841268092E-003 +4.4021528930E+000  +2.8197963935E-003 -1.0825433161E+002  +2.3711607886E-001 -1.5590936970E+002 
1886177.722 +1.3202197588E-001 +1.6932710091E+002  +4.7225725235E-003 +6.9403345984E+001  +4.3439486222E-003 -6.3488870771E+001  +2.3295289215E-001 -1.6560427283E+002 
2011322.904 +1.3244251210E-001 +1.6938131056E+002  +8.7168295745E-003 +7.2244839284E+001  +1.0381061855E-002 -5.7889298308E+001  +2.0782526431E-001 -1.6426457083E+002 
2136468.085 +1.2182741466E-001 +1.6648090015E+002  +2.1077971373E-002 +8.3714505547E+001  +2.3739352299E-002 -4.5481403086E+001  +1.6357796333E-001 -1.6918182531E+002 
2261613.267 +1.3251901225E-001 +1.6605399511E+002  +1.5671894377E-002 +7.7428546604E+001  +1.3950506612E-002 -5.1789579631E+001  +2.0652366346E-001 -1.6479887812E+002 
2386758.448 +1.3454393181E-001 +1.6786374891E+002  +1.7282110950E-002 +6.8813407050E+001  +1.7633867560E-002 -4.7928512930E+001  +2.0899263653E-001 -1.6801966699E+002 
2511903.630 +1.3884637063E-001 +1.6423682626E+002  +2.5376270939E-002 +9.4537693551E+001  +2.8762932897E-002 -2.4629287055E+001  +1.8958048243E-001 +1.7887788845E+002 
2637048.811 +1.3009430964E-001 +1.6567720081E+002  +3.5709535198E-002 +6.0235897270E+001  +3.8675087503E-002 -4.8846417246E+001  +1.7290220129E-001 -1.6302316043E+002 
2762193.992 +1.4590797791E-001 -1.7522603410E+002  +1.1320534669E-001 -4.0023678537E+001  +1.2894495021E-001 -1.4613168500E+002  +4.1046784317E-001 -1.0974412310E+002 
2887339.174 +1.3996150899E-001 +1.7471140897E+002  +5.1329273040E-002 +1.2129344182E+001  +4.9043917208E-002 -9.5117419256E+001  +1.5664399963E-001 -1.3327431547E+002 
3012484.355 +1.2588842642E-001 +1.7609038512E+002  +7.2608526519E-002 +3.2088966091E+001  +7.2100165430E-002 -6.8815138889E+001  +7.0223618969E-002 -1.6421627141E+002 
3137629.537 +1.2977211176E-001 +1.7642185417E+002  +8.3297779982E-002 -8.4671651998E-001  +8.3731231229E-002 -1.0121140036E+002  +2.2421809496E-001 -9.9355380827E+001 
3262774.718 +1.1422460382E-001 +1.6689819912E+002  +9.9035489968E-002 +4.3371660887E+001  +9.6915468331E-002 -4.1566103878E+001  +3.7550731646E-002 +1.1433765962E+002 
3387919.900 +1.4008459973E-001 +1.6454878417E+002  +6.3597321909E-002 +3.9978714531E+001  +5.9766737337E-002 -4.6557499433E+001  +1.1672965535E-001 -1.4892696860E+002 
3513065.081 +1.2467149523E-001 +1.4503847293E+002  +1.4462249221E-001 +1.0139534007E+002  +1.5960915509E-001 +1.5952283565E+001  +4.6052059781E-001 +1.2907008061E+002 
3638210.263 +1.5599804654E-001 +1.5489359560E+002  +6.3723615817E-002 +1.1077907718E+002  +6.7416066096E-002 +3.1960729700E+001  +3.7709173527E-001 +1.6504016834E+002 
3763355.444 +1.5015758399E-001 +1.5630185517E+002  +8.9895677314E-002 +8.6417522121E+001  +8.8706045550E-002 +1.1767424619E+001  +3.0659331333E-001 +1.4519430680E+002 
3888500.626 +1.9424456651E-001 +1.4599196798E+002  +1.1597743085E-001 +1.0880842188E+002  +1.1148807558E-001 +3.7544638101E+001  +3.4262291548E-001 +1.3771419245E+002 
4013645.807 +1.7099153489E-001 +1.4554639356E+002  +9.1605932068E-002 +8.6298533781E+001  +8.6914017872E-002 +1.6408037919E+001  +2.4380148987E-001 +1.6226393615E+002 
4138790.989 +1.6151133239E-001 +1.4883036012E+002  +1.1958477782E-001 +7.5345244309E+001  +1.1835890782E-001 +9.7099478759E+000  +2.4422270103E-001 +1.3311388145E+002 
4263936.170 +1.9358441375E-001 +1.5080987738E+002  +8.9042875514E-002 +9.4889245393E+001  +8.6585395264E-002 +2.9128826156E+001  +3.4273005307E-001 +1.5441159882E+002 
4389081.352 +1.7609682385E-001 +1.4203738686E+002  +1.6175813171E-001 +8.3069161957E+001  +1.5171198008E-001 +2.2023476679E+001  +3.5498529718E-001 +1.2136942015E+002 
4514226.533 +2.0777154162E-001 +1.4333736564E+002  +1.8258618136E-001 +1.0174426317E+002  +1.9187566342E-001 +4.3339309597E+001  +6.5366863201E-001 +1.2326643999E+002 
4639371.715 +1.9356643512E-001 +1.3283845760E+002  +2.4677499832E-001 +7.8761624006E+001  +2.4053563551E-001 +2.5988081443E+001  +5.7827319553E-001 +9.8030998591E+001 
4764516.896 +4.1320228436E-001 +1.1989046728E+002  +6.2491352545E-001 +1.3858800755E+002  +5.9620098761E-001 +8.8786667756E+001  +1.7462920022E+000 +1.3907621512E+002 
4889662.078 +4.4817447594E-001 +1.3997839286E+002  +6.3193987853E-001 +1.6972830040E+002  +6.5174761226E-001 +1.2006706404E+002  +2.1747709680E+000 +1.5851023507E+002 
5014807.259 +3.7807246426E-001 +1.3184174781E+002  +3.2666308987E-001 +1.2703082689E+002  +3.0944122809E-001 +8.0633618524E+001  +9.2565498699E-001 +1.2885423867E+002 
5139952.441 +3.1978671460E-001 +1.2858540574E+002  +2.9977734922E-001 +1.1035463906E+002  +2.9461388041E-001 +6.8596431164E+001  +9.2255184089E-001 +1.2883268339E+002 
5265097.622 +2.8765538952E-001 +1.3132740159E+002  +2.7718154953E-001 +7.6783322872E+001  +2.7408100511E-001 +4.1197260479E+001  +6.2405417500E-001 +9.4806947266E+001 
5390242.804 +3.2668313135E-001 +1.3113924688E+002  +2.0050070351E-001 +8.1870074768E+001  +2.0364734999E-001 +4.6613324824E+001  +3.9092252660E-001 +1.2928577698E+002 
5515387.985 +3.8917081082E-001 +1.3373354836E+002  +2.8751407774E-001 +1.1451899041E+002  +2.8750809064E-001 +8.4535994397E+001  +1.1057426387E+000 +1.3603194421E+002 
5640533.166 +3.9237839358E-001 +1.2505122407E+002  +3.4534530566E-001 +1.0584016916E+002  +3.3612188906E-001 +7.2166142818E+001  +1.1261308006E+000 +1.3054331467E+002 
5765678.348 +3.8771130023E-001 +1.1663838552E+002  +3.4807600660E-001 +8.9208397770E+001  +3.5491159700E-001 +6.2513327312E+001  +9.4416814385E-001 +1.2537813605E+002 
5890823.529 +3.6667358134E-001 +1.2313913865E+002  +3.9366634619E-001 +8.6563474130E+001  +3.8523615106E-001 +6.0222195943E+001  +1.3372680701E+000 +1.1733354586E+002 
6015968.711 +4.6591827605E-001 +1.2206848781E+002  +3.8444652167E-001 +8.4427345178E+001  +3.7408213579E-001 +6.1381734719E+001  +1.1174915421E+000 +1.0935909774E+002 
6141113.892 +6.7678326111E-001 +9.7962945303E+001  +6.3193397200E-001 +8.1260756434E+001  +6.2929561814E-001 +6.1458601904E+001  +1.2823776523E+000 +9.9277085678E+001 
6266259.074 +5.3182322752E-001 +9.8355857250E+001  +6.0027504841E-001 +6.8260824527E+001  +6.2233667652E-001 +4.7309118116E+001  +1.5179383972E+000 +8.7494351733E+001 
6391404.255 +5.7593880850E-001 +8.6406828357E+001  +5.7797375509E-001 +4.9807313966E+001  +5.6731501516E-001 +3.3520137601E+001  +8.6458173812E-001 +7.2659539102E+001 
6516549.437 +6.0403494512E-001 +8.5545124559E+001  +5.9902994584E-001 +4.1888831350E+001  +5.8091670494E-001 +2.8937380333E+001  +1.0045280637E+000 +5.7444074117E+001 
6641694.618 +8.0031100548E-001 +7.3062213225E+001  +6.8037970662E-001 +3.4833006660E+001  +6.5598523772E-001 +2.4848674203E+001  +9.0550311069E-001 +3.5594391794E+001 
6766839.800 +6.7035509799E-001 +6.6168385565E+001  +6.3615367099E-001 +1.9473360551E+001  +6.2410231384E-001 +1.1212430749E+001  +1.0258812902E+000 +1.1642187000E+001 
6891984.981 +7.4709759364E-001 +4.2711104028E+001  +6.4109821899E-001 +1.1783375418E+001  +6.3622330336E-001 +3.3313914971E+000  +7.7756236620E-001 +2.1037655894E+000 
7017130.163 +7.1950097944E-001 +1.3010517818E+001  +6.5175453498E-001 +1.0105177425E+000  +6.5522064907E-001 -3.6101641459E+000  +8.4024919181E-001 +2.2134567304E+000 
7142275.344 +6.6465373120E-001 +1.2348110237E+001  +5.8075737294E-001 +2.3530877844E+000  +5.8895949253E-001 -2.5076987671E+000  +7.8447657573E-001 +5.6785114261E+000 
7267420.526 +8.0415158149E-001 -3.8076469456E+000  +5.6581185961E-001 -1.4259706125E+000  +5.6956695799E-001 -4.5392134228E-001  +8.2817028476E-001 -8.9147917614E+000 
7392565.707 +5.8922036851E-001 +6.3221214409E+000  +4.8542296527E-001 +2.3886712127E+000  +4.8748092106E-001 +3.1433229397E+000  +8.2154377989E-001 -1.3136165347E+001 
7517710.889 +6.0656161490E-001 +3.4392654285E+000  +4.5788199685E-001 +1.6689219202E+000  +4.5621405469E-001 +4.5346914221E+000  +6.6336393412E-001 -8.9489333699E+000 
7642856.070 +6.5902195471E-001 +3.1613188944E-002  +4.5555426655E-001 +2.2661546083E+000  +4.5421941250E-001 +5.2863566681E+000  +6.3461284818E-001 -3.4292026935E+000 
7768001.252 +4.5012303151E-001 +1.7054399681E+001  +4.1502474727E-001 -1.4294349436E+000  +4.0489411982E-001 +3.4072118964E+000  +4.3781428018E-001 +7.7655204963E-002 
7893146.433 +3.9544157531E-001 +1.6155281417E+001  +3.9767717226E-001 -2.6695031351E+000  +3.9574783794E-001 +5.2235342089E+000  +4.5305048188E-001 +1.4521985554E+000 
8018291.615 +3.5517415310E-001 +2.4839349386E+001  +3.8109920615E-001 -2.2104672190E+000  +3.8123752965E-001 +5.2660077128E+000  +4.6392899661E-001 +1.2345672732E+001 
8143436.796 +3.5687993364E-001 +2.2399868188E+001  +3.7261316609E-001 -4.0911264452E+000  +3.6818265958E-001 +5.0094472535E+000  +3.5394369267E-001 +1.8635487230E+001 
8268581.977 +3.9716805462E-001 +1.7944809170E+001  +3.7402619109E-001 -3.3730912312E+000  +3.7154194505E-001 +7.2980077981E+000  +3.6515151466E-001 +1.6875373939E+001 
8393727.159 +2.8492310760E-001 +2.7025284466E+001  +3.6558919983E-001 -4.6208026769E+000  +3.5791739026E-001 +6.5489789786E+000  +3.1666940665E-001 +1.3188221579E+001 
8518872.340 +2.7342596345E-001 +3.0026486721E+001  +3.5385879191E-001 -5.2024512930E+000  +3.5073322961E-001 +6.9422988665E+000  +3.1127137951E-001 +2.1624953242E+001 
8644017.522 +2.7984515264E-001 +1.8818041166E+001  +3.4946431505E-001 -5.5260434598E+000  +3.5362436973E-001 +6.9708571499E+000  +3.2739540977E-001 +2.1107395899E+001 
8769162.703 +2.5761010858E-001 +3.8666348552E+001  +3.4920053527E-001 -5.3919481526E+000  +3.4376467487E-001 +7.0534976162E+000  +2.7297858091E-001 +2.1401649804E+001 
8894307.885 +2.2749087958E-001 +2.3908291814E+001  +3.4580634147E-001 -6.4652498472E+000  +3.4311831350E-001 +8.4869000610E+000  +2.7614870134E-001 +2.3443511990E+001 
9019453.066 +2.6370657522E-001 +2.2452160560E+001  +3.4430589436E-001 -5.8882366612E+000  +3.3736772355E-001 +9.0372643115E+000  +2.8512625380E-001 +2.1000398782E+001 
9144598.248 +2.4862559807E-001 +2.3568064160E+001  +3.4026419199E-001 -5.8252631290E+000  +3.4095342579E-001 +8.8899399616E+000  +2.7869631417E-001 +2.4190060076E+001 
9269743.429 +1.8884434407E-001 +3.6105642175E+001  +3.3930932917E-001 -6.4837206556E+000  +3.3747066242E-001 +8.3667246286E+000  +2.1215394216E-001 +1.6449876028E+001 
9394888.611 +2.3057570172E-001 +1.4560957788E+001  +3.4442821157E-001 -6.1682520210E+000  +3.4241457792E-001 +9.5836524885E+000  +2.2784408122E-001 +1.8424455970E+001 
9520033.792 +1.5830035501E-001 +1.6797980495E+001  +3.4322890220E-001 -6.8546413373E+000  +3.3589398076E-001 +8.4149879924E+000  +1.9985780534E-001 +2.2119128821E+001 
9645178.974 +1.7899210658E-001 +2.1952450844E+001  +3.4388951864E-001 -6.5705881362E+000  +3.4067876599E-001 +9.3935862346E+000  +2.0953895182E-001 +1.7227300925E+001 
9770324.155 +1.6013782670E-001 +1.7825029827E+001  +3.4371846972E-001 -6.4805496643E+000  +3.3989428899E-001 +9.4394082025E+000  +2.5581453346E-001 +5.9603350102E+000 
9895469.337 +1.7661055165E-001 +2.6966697329E+001  +3.3839704437E-001 -6.7620905818E+000  +3.3767152488E-001 +9.5955431445E+000  +2.1506827819E-001 +2.7341047335E+001 
10020614.518 +1.7915971093E-001 +2.1476399212E+001  +3.4632731615E-001 -5.5773121565E+000  +3.4612038464E-001 +9.8049289256E+000  +2.3016986224E-001 +9.5811120613E+000 
10145759.700 +2.0486588059E-001 +1.8718977681E+001  +3.4623877171E-001 -6.0694991976E+000  +3.4310190233E-001 +1.0694469137E+001  +2.0854064820E-001 +1.4295697336E+001 
10270904.881 +2.0470161588E-001 +3.3427286107E+001  +3.4250997986E-001 -5.3037199589E+000  +3.4264447126E-001 +1.0538713219E+001  +2.1846872799E-001 +1.4422673506E+001 
10396050.063 +2.1092232428E-001 +3.2430628199E+001  +3.4515730591E-001 -5.2659189392E+000  +3.3990743494E-001 +1.0497420015E+001  +2.1818779151E-001 +2.6407985368E+001 
10521195.244 +2.2617616115E-001 +2.3559651586E+001  +3.4800123147E-001 -4.6039551658E+000  +3.4382899629E-001 +1.0518263997E+001  +2.4877596477E-001 +2.5419732066E+001 
10646340.426 +2.3867724935E-001 +2.3865117002E+001  +3.5022543842E-001 -4.0760439656E+000  +3.4777039487E-001 +1.0896857437E+001  +2.4410417162E-001 +1.7574338143E+001 
10771485.607 +2.0234742638E-001 +3.4437037330E+001  +3.4997022829E-001 -4.4266015169E+000  +3.5108586909E-001 +9.9737739521E+000  +2.1865402801E-001 +2.0140233269E+001 
10896630.788 +2.0701307152E-001 +2.5966997991E+001  +3.5288921937E-001 -3.7106438729E+000  +3.5001336860E-001 +1.0570680729E+001  +2.5903750600E-001 +2.9379365507E+001 
11021775.970 +2.3103314147E-001 +2.2883563928E+001  +3.5898584407E-001 -3.3770505253E+000  +3.5625581652E-001 +1.0456206836E+001  +2.5383403528E-001 +1.4269189240E+001 
11146921.151 +2.4484944591E-001 +2.0918295097E+001  +3.6282977921E-001 -2.4432173555E+000  +3.5798325082E-001 +1.0939307606E+001  +2.9383131064E-001 +1.7466541283E+001 
11272066.333 +2.5111889730E-001 +2.1813511988E+001  +3.6197631734E-001 -2.5948327555E+000  +3.6096115875E-001 +1.0195572168E+001  +2.6200487810E-001 +2.5199541538E+001 
11397211.514 +2.4524155176E-001 +1.6481002311E+001  +3.6644542530E-001 -2.3693751018E+000  +3.6360900405E-001 +1.0010640199E+001  +2.6688810162E-001 +2.4296988466E+001 
11522356.696 +2.4021313704E-001 +2.0954684449E+001  +3.7179890613E-001 -2.7042617783E+000  +3.6676362766E-001 +9.8318107845E+000  +2.3826874224E-001 +1.2877325553E+001 
11647501.877 +2.5733957594E-001 +2.1765423015E+001  +3.6948403764E-001 -2.1316143373E+000  +3.6763635462E-001 +8.8896673258E+000  +2.4630908430E-001 +2.3688750057E+001 
11772647.059 +2.8345842560E-001 +2.5913921791E+001  +3.7329621520E-001 -1.3870983239E+000  +3.7134834932E-001 +9.3460993156E+000  +2.7678671119E-001 +1.5129566004E+001 
11897792.240 +2.8842359477E-001 +2.0704158929E+001  +3.7860160603E-001 -1.3320124958E+000  +3.7613901145E-001 +8.9072967674E+000  +2.6575895646E-001 +1.6282132283E+001 
12022937.422 +2.8129205219E-001 +1.8273681329E+001  +3.8436837832E-001 -9.8675157137E-001  +3.8027276733E-001 +8.7038163975E+000  +2.9749832935E-001 +1.5294166862E+001 
12148082.603 +3.1352269806E-001 +1.6175513849E+001  +3.8793288788E-001 -3.7961703420E-001  +3.8365063049E-001 +8.9559297280E+000  +2.9141034090E-001 +1.4856415040E+001 
12273227.785 +2.9486862765E-001 +1.5334682375E+001  +3.9064984381E-001 -7.3673338478E-001  +3.8987717592E-001 +7.7077248385E+000  +2.8910557277E-001 +1.5510970698E+001 
12398372.966 +3.2235077050E-001 +1.2569891404E+001  +3.9761361306E-001 +6.9946507165E-002  +3.9265842491E-001 +7.9327904054E+000  +3.0439671697E-001 +1.3228701001E+001 
12523518.148 +3.1917411102E-001 +1.4039595013E+001  +4.0148431132E-001 +4.9478281807E-002  +3.9476479557E-001 +7.3248897187E+000  +3.2197671973E-001 +8.1148191584E+000 
12648663.329 +3.2288717611E-001 +9.8760355176E+000  +4.0880811262E-001 +4.6923519246E-001  +4.0334662364E-001 +6.9867167719E+000  +3.4949637435E-001 +7.3338823506E+000 
12773808.511 +3.2323254868E-001 +1.0568200502E+001  +4.0586443298E-001 +3.6511892928E-001  +4.0117716263E-001 +6.4298703443E+000  +3.3503210872E-001 +1.4408111572E+001 
12898953.692 +3.5492467741E-001 +1.0879013679E+001  +4.1074769738E-001 +7.1184192033E-001  +4.0629178452E-001 +6.5036696349E+000  +3.6009933360E-001 +1.1225607492E+001 
13024098.874 +3.4158506297E-001 +7.3184420338E+000  +4.1698147332E-001 +6.1670956992E-001  +4.1352970002E-001 +5.6859930654E+000  +3.6385763347E-001 +6.3845524045E+000 
13149244.055 +3.5599564207E-001 +7.2971231169E+000  +4.2162234277E-001 +8.9920367293E-001  +4.1809864915E-001 +5.2467745765E+000  +3.7554260130E-001 +4.2898736913E+000 
13274389.237 +3.8420075761E-001 +3.3350591440E+000  +4.2653487320E-001 +1.2235697035E+000  +4.2201264916E-001 +5.1772354120E+000  +3.9616298330E-001 +6.1651615028E+000 
13399534.418 +3.8337897534E-001 +4.2640381658E+000  +4.3058101955E-001 +1.1224866403E+000  +4.2769994124E-001 +4.7449512001E+000  +3.9763775741E-001 +1.4121131170E+000 
13524679.599 +3.9405902247E-001 +4.6989826350E-001  +4.3542323049E-001 +9.4665968538E-001  +4.3133412582E-001 +4.0302293813E+000  +3.9443942417E-001 +1.7727910858E+000 
13649824.781 +4.3444300211E-001 +1.8717781057E+000  +4.4040544773E-001 +1.4784798624E+000  +4.3333677769E-001 +4.0011765371E+000  +4.1698024086E-001 -1.0337260225E+000 
13774969.962 +4.2809722936E-001 -1.9153329329E+000  +4.4594846608E-001 +1.4765364081E+000  +4.4096761954E-001 +3.5821116673E+000  +4.5087123612E-001 -8.5571282117E-001 
13900115.144 +4.4636764529E-001 -2.9620810120E+000  +4.5246650553E-001 +1.5320960807E+000  +4.4665844342E-001 +3.3887663323E+000  +4.6020319719E-001 -4.4170832183E+000 
14025260.325 +4.5651115123E-001 -2.2707483161E+000  +4.5239600937E-001 +1.3942382667E+000  +4.4629020070E-001 +2.7557169227E+000  +4.6203457728E-001 -3.6257798616E+000 
14150405.507 +4.7508657886E-001 -3.6057120509E+000  +4.5461234281E-001 +1.3864661496E+000  +4.5247244475E-001 +2.7274556337E+000  +4.9048136848E-001 -3.2543032745E+000 
14275550.688 +4.9816033702E-001 -3.2761437281E+000  +4.5748089425E-001 +1.5481795280E+000  +4.5182132318E-001 +2.3145884285E+000  +5.0292410900E-001 -2.4678202799E+000 
14400695.870 +5.1668329714E-001 -3.7519540198E+000  +4.6060228918E-001 +1.4631601363E+000  +4.5630845209E-001 +2.0133345670E+000  +5.2436327962E-001 -4.9296678953E+000 
