!  2-Port S-parameters saved by WinCal
! VAR MeasName=S-Parameters (CALIBRATED_DATA) read from VNA (P5004A)
! VAR MeasDate=27/08/2024 12:42:48
! VAR NAME=S2_r6c9_pristine_9k-100M_2
! VAR FILENAME=S2_r6c9_pristine_9k-100M_2.S2P
! VAR DATE=27/08/2024 12:42:48
! VAR PHYS_PORTS=1,2
! VAR ObjTypeName=DATASET
! VAR IndexType=Frequency
!
# Hz S MA R 50
9000.000 +5.6771379562E-002 +8.4669523679E+001  +1.9182823557E-002 -8.9884354933E+001  +4.5656944419E-003 -1.3299227693E+001  +1.9605322231E-001 -1.3502781543E+002 
134145.181 +1.1105613133E-001 +1.6975615769E+002  +4.9944495847E-004 +1.1488127256E+002  +4.1739131748E-004 -2.7323443918E+000  +2.3664191020E-001 -1.7071115982E+002 
259290.363 +1.1063214043E-001 +1.6934142559E+002  +5.7842942810E-004 +1.3096086858E+001  +1.4712029174E-003 +1.1610298394E+002  +2.3956014136E-001 -1.6815438732E+002 
384435.544 +1.1279756162E-001 +1.6975787936E+002  +5.4175534211E-004 -8.0734297020E+001  +6.8677519120E-004 -1.1061331588E+002  +2.4779403856E-001 -1.6828393962E+002 
509580.726 +1.1030772626E-001 +1.7026497464E+002  +1.9486514058E-003 +5.2132395841E+001  +1.5809828240E-003 +1.7234433478E+002  +2.2472441910E-001 -1.6537043586E+002 
634725.907 +1.1499997301E-001 +1.7000531929E+002  +6.2831994811E-004 -2.4163084614E+001  +5.8630426360E-004 +1.1560593474E+002  +2.5789543273E-001 -1.6522132620E+002 
759871.089 +1.1535037246E-001 +1.7040742239E+002  +6.3495458918E-004 -8.3746010277E+001  +5.6553083185E-004 +1.3229720593E+002  +2.4108479928E-001 -1.6572442614E+002 
885016.270 +1.1715365728E-001 +1.6855970256E+002  +3.1413227395E-004 +1.0971758085E+002  +6.8168561749E-004 +3.8053753621E+001  +2.3275441216E-001 -1.6620009248E+002 
1010161.452 +1.2007331278E-001 +1.7286442197E+002  +2.0638832370E-003 +1.5057811527E+002  +3.5138432291E-003 +9.2656444457E+001  +6.3905290158E-002 -1.7214794873E+002 
1135306.633 +1.1159724499E-001 +1.7070584195E+002  +3.9723862413E-004 -5.8609886223E+000  +1.7662246959E-003 -2.8022436505E+001  +1.7060529251E-001 -1.5585462338E+002 
1260451.815 +1.2006752692E-001 +1.7062562382E+002  +6.4041545980E-004 -2.8286599562E+001  +9.9184132330E-004 -3.1516375413E+001  +2.1906145851E-001 -1.5640344655E+002 
1385596.996 +1.2266866591E-001 +1.7327448334E+002  +9.9415130069E-004 -1.0322831022E+002  +1.9918239129E-003 -5.1427159090E+001  +2.5712052079E-001 -1.5613539515E+002 
1510742.178 +1.2456111270E-001 +1.7255750804E+002  +9.5378235038E-004 -8.5008167793E+000  +3.3632676542E-004 -5.4105048812E+001  +2.5451037868E-001 -1.5707668489E+002 
1635887.359 +1.2667159433E-001 +1.6980810911E+002  +6.0658471273E-004 -9.7635703141E-001  +1.0334938761E-003 +4.0884646129E+001  +2.5423437019E-001 -1.5892494374E+002 
1761032.541 +1.2506452511E-001 +1.6838347647E+002  +3.5462896860E-003 -9.9779890813E+001  +1.6740695967E-003 +1.1497950944E+002  +1.7531336568E-001 -1.6200080732E+002 
1886177.722 +1.2638709298E-001 +1.6810145735E+002  +4.0293332153E-004 +1.1596584310E+002  +3.9407356782E-003 -1.0585642016E+002  +1.8326212336E-001 -1.7141752301E+002 
2011322.904 +1.3258352719E-001 +1.6650627873E+002  +8.0662149508E-004 -4.4854638439E+001  +1.7880507193E-003 +1.6831238824E+002  +1.9968861472E-001 -1.6183506600E+002 
2136468.085 +1.2858120492E-001 +1.6228497131E+002  +3.3830794173E-003 +1.1718362671E+002  +3.3013212882E-003 -9.6793459158E+001  +1.7937598205E-001 -1.7195504553E+002 
2261613.267 +1.3113747548E-001 +1.6483733853E+002  +5.3648698008E-003 -1.5346869687E+002  +4.0876549983E-003 +1.2503035793E+002  +2.3083010093E-001 +1.4170505915E+002 
2386758.448 +1.4090912381E-001 +1.6251263637E+002  +9.1736559338E-004 +1.3712408577E+001  +3.5100779812E-003 -1.0657433252E+002  +2.0125706729E-001 +1.7659506516E+002 
2511903.630 +1.2481940224E-001 +1.5828882720E+002  +1.7370544883E-003 -1.4209105352E+001  +4.3804203985E-003 +6.8519477295E+001  +2.3088734052E-001 +1.6308736770E+002 
2637048.811 +1.0932516577E-001 +1.6300733839E+002  +1.8107241829E-002 +6.9238516132E+001  +1.7848258419E-002 -6.7953595767E+001  +5.0104588517E-001 +1.3651679179E+002 
2762193.992 +8.6848182331E-002 +1.6108731576E+002  +7.6248814366E-003 -1.7869175792E+002  +5.3240487533E-002 -4.7781820325E+001  +1.1693408864E+000 -9.1300651979E+001 
2887339.174 +9.8518468921E-002 +1.7741158502E+002  +1.9393115189E-002 -7.7795229874E+000  +1.7684041997E-002 +3.2597997200E+000  +4.6220341680E-001 -6.0366603227E+001 
3012484.355 +1.0105464914E-001 +1.6647097552E+002  +1.4158805605E-002 +1.5622287296E+002  +6.0481035591E-003 +1.6346651726E+002  +3.0979980618E-001 -1.0023074932E+002 
3137629.537 +8.8418127160E-002 -1.7973792790E+002  +1.2773803828E-002 +7.0122308260E+001  +6.7740425140E-003 +1.9171721638E+001  +2.6232360714E-001 -1.0051835565E+002 
3262774.718 +7.6082292669E-002 -1.6931108352E+002  +1.7633433260E-002 -1.7866195286E+002  +2.0141767867E-002 -1.4371174334E+002  +3.4991430527E-001 -7.6821044382E+001 
3387919.900 +6.5971685454E-002 +1.6857980325E+002  +2.6248228312E-002 -6.7047915886E+001  +3.2677090941E-002 -6.1694493123E+001  +9.8279151167E-001 +4.7531084098E+001 
3513065.081 +1.6553973813E-001 +1.4543240932E+002  +5.9709074711E-003 -3.4345396062E+001  +1.5825603181E-002 +1.5529703797E+001  +4.5424807489E-001 +1.1209116456E+002 
3638210.263 +1.6631807285E-001 +1.4507600639E+002  +1.6857087432E-002 +1.5456975817E+002  +3.0678646112E-002 +1.2842057240E+001  +5.9280602230E-001 +3.1067134475E+001 
3763355.444 +1.8489849292E-001 +1.3939137780E+002  +1.0746341560E-002 -5.3914854080E+001  +2.1013881607E-002 -1.7080144711E+002  +5.5642314349E-001 +1.3394601935E+002 
3888500.626 +2.2704094593E-001 +1.2895955479E+002  +8.8301438384E-003 -2.6235551909E+001  +2.0649240315E-002 +5.4702530061E+001  +3.9817164687E-001 +1.0171140157E+002 
4013645.807 +1.7198229962E-001 +1.5001266113E+002  +8.4782117494E-003 +3.9617684681E+001  +5.5189258397E-002 +1.1376046640E+002  +3.1587184164E+000 +1.1902107860E+002 
4138790.989 +1.2834655058E-001 +1.3685527566E+002  +1.1030400576E-002 -8.9355013515E+001  +1.0700342764E-002 -1.2864949677E+002  +2.8693284329E-001 +1.3874431543E+002 
4263936.170 +1.7979123731E-001 +1.3505860093E+002  +9.5208752440E-003 -3.0099788268E+001  +2.8186093216E-003 +1.6965346934E+002  +5.1278662756E-001 +9.5051883540E+001 
4389081.352 +1.8604211128E-001 +1.4364331204E+002  +4.8786819860E-003 +7.4850298129E+001  +5.6381077944E-003 +1.5464747236E+002  +4.9079698409E-001 +8.9130333312E+001 
4514226.533 +2.7989409598E-001 +8.9300246733E+001  +1.2224388336E-002 -9.4499635792E+001  +7.0721105986E-003 -9.7904549361E+001  +4.8115565214E-001 +1.1156467607E+002 
4639371.715 +4.1462499570E-001 +1.2094810145E+002  +6.1772109168E-002 -5.5395286637E+001  +4.4293395096E-002 +5.9021800835E+001  +1.5352309519E+000 +6.4773404366E+001 
4764516.896 +3.7192386885E-001 +1.3514656594E+002  +1.6304190023E-001 -1.4365153798E+002  +6.6606705160E-002 -2.9424193273E+001  +1.5362597828E+001 +4.6157424810E+001 
4889662.078 +4.6099510652E-001 +1.2527899122E+002  +7.2292785756E-002 +8.7012225328E+001  +1.4078989381E-001 -8.5931100042E+001  +4.7278066320E+000 -1.6548417000E+002 
5014807.259 +4.2220252427E-001 +1.3328690837E+002  +1.9774703259E-001 +1.4528709983E+002  +7.8339627139E-002 -9.8024150220E+001  +1.0633223294E+001 -4.5648954239E+001 
5139952.441 +4.9984107147E-001 +1.1196416368E+002  +3.6752677696E-002 +1.4257489201E+002  +5.3964002802E-002 +1.4405168553E+001  +4.3976677426E+000 +1.2846259579E+002 
5265097.622 +4.4621100165E-001 +1.2686287093E+002  +4.5799864393E-002 -1.2514747364E+001  +5.7088241459E-002 -2.2965730113E+001  +3.5807272725E+000 +1.2182931069E+002 
5390242.804 +3.9212674099E-001 +1.3071104925E+002  +6.0218541898E-003 +4.3899207260E+001  +2.5644664764E-002 +3.9131804685E+001  +2.1760580608E+000 +9.2441033008E+001 
5515387.985 +3.8946997051E-001 +1.2116353415E+002  +1.9887417867E-002 -6.4330149735E+001  +1.9407116310E-002 +1.6249908999E+002  +2.7711341441E+000 +6.9417207034E+001 
5640533.166 +5.2867494221E-001 +1.2549249935E+002  +1.1812432002E-002 +1.1294333476E+002  +1.7539799119E-002 +1.8497584652E+000  +2.0685454066E+000 +8.9870173011E+001 
5765678.348 +5.9912953894E-001 +1.2542163231E+002  +4.4787734890E-002 -1.6143739419E+002  +1.3068347580E-002 -7.1388225315E+001  +2.5382384073E+000 +9.9828885901E+001 
5890823.529 +6.3030047894E-001 +1.2394323772E+002  +2.5448496812E-002 +1.5685669213E+002  +1.0464577305E-002 -1.6136250078E+002  +1.6247937687E+000 +4.0792249834E+001 
6015968.711 +6.5800297302E-001 +1.2261114257E+002  +3.6714666787E-002 -1.0764405437E+002  +4.6367397879E-002 -1.4628654729E+002  +3.0430489774E+000 +6.9651409465E+001 
6141113.892 +8.7518953536E-001 +1.1834400917E+002  +3.0771271807E-002 +1.6290369828E+002  +1.9630556873E-002 -1.0333693592E+002  +2.0739286650E+000 +3.4874264056E+001 
6266259.074 +1.0039624334E+000 +9.8730377451E+001  +2.4481099751E-002 -5.3399006418E+001  +6.1693659423E-003 +3.4524574130E+001  +1.6522540649E+000 +4.1405101732E+001 
6391404.255 +1.1815655672E+000 +8.3325517149E+001  +4.2861540505E-002 -1.0850097350E+002  +3.0139438664E-002 +6.7611801983E+001  +1.9818913007E+000 +1.1730856528E+001 
6516549.437 +1.1025542219E+000 +9.4922373373E+001  +1.6612764843E-002 -1.2143074902E+002  +2.9168124712E-002 +1.2655847408E+002  +1.4207371438E+000 +5.7311465171E+000 
6641694.618 +1.6429485273E+000 +7.7490716217E+001  +1.3664390425E-002 -8.3595859130E+001  +1.1347689801E-002 -5.2099376378E+001  +1.4767728763E+000 -1.1749723184E+000 
6766839.800 +2.6305171628E+000 +5.4037484683E+001  +3.5582754469E-002 +8.5038155917E+000  +2.7893714992E-002 +7.0821682104E+001  +1.4673716308E+000 -1.2782270262E+001 
6891984.981 +1.6663341070E+000 +3.3977457657E+001  +9.0371586973E-003 +1.1260863076E+002  +1.7007627008E-002 +1.5023727790E+002  +1.3946551098E+000 -6.1760963988E+000 
7017130.163 +1.8991511965E+000 +1.2375381223E+001  +2.1156803952E-002 +1.5734260699E+001  +1.2080442818E-002 +7.9671504050E+001  +1.4225107862E+000 +8.5620939357E-001 
7142275.344 +1.5561392683E+000 +5.5674101977E+000  +2.2531026750E-002 +4.3333806184E+001  +1.8414295441E-002 +5.7182873680E+001  +1.1774583916E+000 -1.5170136815E+001 
7267420.526 +1.7130207572E+000 -1.0322673754E+001  +1.0079661292E-002 +5.4830653205E+001  +1.6996057981E-002 +1.5948124342E+002  +1.3261266629E+000 -6.4965304500E+000 
7392565.707 +1.4085299893E+000 +1.0904773471E+000  +1.3150587015E-002 +6.6173787093E+001  +3.9322236123E-003 +1.5469994536E+002  +1.1478203637E+000 -5.6219437839E+000 
7517710.889 +1.2837303864E+000 -5.5980225578E-001  +5.9463650888E-003 +1.0591083784E+002  +3.3846382202E-003 +1.6837705554E+002  +1.1298866155E+000 -6.0109469406E+000 
7642856.070 +9.4178696107E-001 +3.7980424751E+000  +1.8045965631E-003 +3.2440349114E+001  +8.4559797180E-003 +1.3906347926E+002  +1.1550875000E+000 -4.8266051905E+000 
7768001.252 +1.0059766911E+000 -4.0710807656E+000  +3.8548248011E-003 +8.8118666961E+001  +3.8331538306E-003 +1.1516421914E+002  +9.3155769750E-001 -3.8122591213E+000 
7893146.433 +9.3158103895E-001 +5.3590902277E+000  +7.4796626538E-003 +1.0256056968E+002  +6.3524328854E-003 +1.0356528424E+002  +8.9577436234E-001 -6.2541326404E+000 
8018291.615 +8.6590476735E-001 -1.5422125833E+000  +4.3590522288E-003 +6.4586437379E+001  +6.2344550138E-003 +4.8161570881E+001  +9.1776019571E-001 -3.5002846980E+000 
8143436.796 +6.9999853495E-001 +2.5759013194E+000  +2.8119456120E-003 -1.7470412552E+002  +3.8501579997E-003 +1.4089013246E+002  +8.6494132753E-001 -3.8915349752E+000 
8268581.977 +6.9369598488E-001 +6.6080783450E+000  +3.1964584297E-003 +8.3293227608E+001  +1.8181185520E-003 +4.1747876368E+001  +7.6958338296E-001 +5.8305741953E+000 
8393727.159 +8.2198905650E-001 +4.2100710393E+000  +1.9160039504E-004 +1.2895903519E+002  +9.6749278136E-003 +6.0946857828E+001  +7.7884407226E-001 -1.8932820437E+000 
8518872.340 +6.5743458837E-001 +4.2826683215E+000  +5.5396921344E-003 +7.8321809532E+001  +4.4699918462E-003 +8.2975887912E+001  +7.3375916528E-001 +3.8111585005E+000 
8644017.522 +6.3650296245E-001 +1.0239269960E+001  +7.2966598757E-003 +4.8839870017E+001  +4.5737746808E-003 +1.2329215562E+002  +6.8216970696E-001 +2.1912015425E+000 
8769162.703 +6.8469576615E-001 +7.1313018347E-001  +5.6960390693E-003 +6.8220434307E+001  +3.5344310921E-003 +1.2421192446E+002  +6.3842682345E-001 -4.4762249675E+000 
8894307.885 +6.3429367220E-001 +2.3699030392E+000  +3.6634265565E-003 +1.2366055855E+002  +7.3828262792E-003 +1.1220139631E+002  +6.2213742002E-001 -7.7663934994E-001 
9019453.066 +5.9179592566E-001 -8.9343467852E-001  +6.8138826994E-003 +5.7355486493E+001  +2.7034627622E-003 +9.6271565440E+001  +5.9892200391E-001 +3.6494201045E-001 
9144598.248 +6.0153002896E-001 +7.5102482249E+000  +8.3085674081E-003 +8.0630321482E+001  +6.3854782543E-003 +8.5989910069E+001  +6.1163861434E-001 -1.7262616551E+000 
9269743.429 +6.1414674490E-001 -5.9070846222E-001  +5.2408155892E-003 +8.1052893835E+001  +4.2799200770E-003 +6.8001232532E+001  +6.3355723572E-001 -3.8588123651E+000 
9394888.611 +5.7575779436E-001 +6.3605762812E+000  +6.7574416747E-003 +9.2121705663E+001  +5.5062947619E-003 +1.2139757540E+002  +6.0548045198E-001 -9.7319545469E-001 
9520033.792 +5.8110147406E-001 -1.5132144180E+000  +4.5502935725E-003 +6.4607747025E+001  +2.1596549759E-003 +7.8021637850E+001  +5.5386445045E-001 -6.3977390394E+000 
9645178.974 +5.3170461008E-001 -2.5607131361E-001  +2.6750542205E-003 +8.2857642654E+001  +3.7946778970E-003 +1.1291053933E+002  +5.9234543246E-001 -5.7251366956E+000 
9770324.155 +5.6190126460E-001 -2.0654763591E+000  +3.4746211164E-003 +8.7774812571E+001  +6.6746212567E-003 +8.3823880614E+001  +5.5349977031E-001 -3.4779581876E+000 
9895469.337 +5.3459309276E-001 -1.7536721924E+000  +3.5042880194E-003 +9.2663071868E+001  +4.9182573960E-003 +1.1346482139E+002  +6.0140711741E-001 -3.9695638229E+000 
10020614.518 +5.5835126854E-001 +1.8944002460E+000  +4.7504333758E-003 +6.9922052567E+001  +4.5408987988E-003 +1.0139414724E+002  +5.8223782724E-001 -6.7010276867E+000 
10145759.700 +5.7085346137E-001 +2.2799424803E-001  +6.5236250143E-003 +1.2125666568E+002  +5.0771232110E-003 +1.0784868712E+002  +5.9049121113E-001 -3.6671465531E+000 
10270904.881 +5.0738981189E-001 +3.9604599399E+000  +4.7212300006E-003 +9.3692300621E+001  +3.9401870555E-003 +1.0089142569E+002  +5.9008412320E-001 -5.8517690024E+000 
10396050.063 +5.5364509015E-001 +1.8288118004E+000  +5.3009041589E-003 +8.2060822614E+001  +3.2768712117E-003 +7.3380484251E+001  +5.9138889665E-001 -1.5529555046E+000 
10521195.244 +5.6292358372E-001 +3.3131675971E+000  +4.7766128241E-003 +1.1000984633E+002  +6.1143437936E-003 +9.0590492240E+001  +5.9890832049E-001 -1.5106476860E+000 
10646340.426 +5.7953317849E-001 +3.7213038346E+000  +2.2912195124E-003 +9.8950339470E+001  +6.7164598759E-003 +1.2406318125E+002  +5.7640798284E-001 -2.2843884222E+000 
10771485.607 +5.6260212104E-001 +5.6623092573E+000  +5.1525094252E-003 +8.6459569419E+001  +5.2327948566E-003 +1.1661921976E+002  +6.0933719643E-001 +1.0976906761E-001 
10896630.788 +5.6214674792E-001 +3.9403649434E+000  +6.0577024880E-003 +9.1423910998E+001  +2.5484818644E-003 +9.4031410293E+001  +6.0433248178E-001 -4.1859168450E-001 
11021775.970 +5.7793287557E-001 +3.4156940618E+000  +4.4319217840E-003 +1.1590889872E+002  +6.1962235614E-003 +1.4609471082E+002  +5.8808685975E-001 -3.5091517819E+000 
11146921.151 +6.1361600792E-001 +5.5861519220E+000  +5.9451193107E-003 +7.1289705232E+001  +6.4180827628E-003 +1.0099017549E+002  +6.4944235301E-001 -5.9201806460E-001 
11272066.333 +6.0592108259E-001 +4.9524008298E+000  +3.3265920229E-003 +1.0804942727E+002  +4.7051888180E-003 +9.5319304962E+001  +6.2812272982E-001 +1.2127885763E+000 
11397211.514 +5.8608115626E-001 +5.6789877954E+000  +3.6732140868E-003 +6.5668249649E+001  +4.4629271210E-003 +1.0146417528E+002  +6.4283853145E-001 +4.1131777538E+000 
11522356.696 +6.0535781074E-001 +5.3160290017E+000  +4.1195084337E-003 +1.0558932275E+002  +2.5734691695E-003 +1.2256312783E+002  +6.2089460482E-001 +1.9854816425E+000 
11647501.877 +6.2739752577E-001 +5.5769988758E+000  +5.8047728308E-003 +1.0832431606E+002  +4.6792623285E-003 +6.8797104964E+001  +6.7235997768E-001 +1.1149131815E+000 
11772647.059 +6.2481527626E-001 +4.1572003282E+000  +6.1024301969E-003 +9.0074441558E+001  +6.9996433495E-003 +1.0865244153E+002  +6.5012567173E-001 +1.1191888281E+000 
11897792.240 +6.3986969559E-001 +6.1761015354E+000  +4.8422736456E-003 +9.2274906612E+001  +5.6269184605E-003 +1.1245066397E+002  +6.7137965124E-001 +1.3432715264E+000 
12022937.422 +6.6194354749E-001 +6.3561617750E+000  +6.2184263124E-003 +8.0324415649E+001  +3.1968559441E-003 +8.8313637423E+001  +7.0698990352E-001 -8.1580242340E-001 
12148082.603 +6.6508481843E-001 +4.0647451744E+000  +4.0097332243E-003 +7.7815296559E+001  +4.9282732136E-003 +8.3430944705E+001  +7.0258810137E-001 -2.6316354934E-001 
12273227.785 +6.9007613428E-001 +3.5626607372E+000  +5.6727714015E-003 +9.8363941635E+001  +7.2743181348E-003 +1.0836497991E+002  +7.3241306963E-001 -8.1472560344E-001 
12398372.966 +7.2386562686E-001 +3.5794803548E+000  +4.5931018934E-003 +1.0227580887E+002  +6.5209579880E-003 +1.1277766443E+002  +7.1513836112E-001 +8.1733573715E-001 
12523518.148 +7.3339122867E-001 +6.8488972998E-001  +7.0904338149E-003 +9.7113116201E+001  +4.4948095491E-003 +9.7612231400E+001  +7.5030112569E-001 -1.4460795492E+000 
12648663.329 +7.2553334950E-001 +4.0026505114E+000  +6.5506036189E-003 +9.9897307739E+001  +5.2592650621E-003 +8.7122052913E+001  +7.4167983686E-001 -8.1951637105E-001 
12773808.511 +7.6062178607E-001 +9.1578097129E-001  +5.6677624386E-003 +7.0366717446E+001  +6.2536950603E-003 +9.7249042915E+001  +7.4997109520E-001 -6.1169457134E-001 
12898953.692 +7.5257186498E-001 +1.9540190449E-002  +5.8934550730E-003 +9.4354549427E+001  +7.4866258871E-003 +8.5981908735E+001  +7.4993880833E-001 -1.0786055609E+000 
13024098.874 +7.7450291346E-001 +1.3364433291E+000  +6.0048045982E-003 +8.4735486277E+001  +6.9549253164E-003 +9.5013361416E+001  +7.8734236209E-001 -3.4583054661E+000 
13149244.055 +8.0292263840E-001 +1.2940387865E+000  +6.7139199745E-003 +9.7087127519E+001  +6.3857541942E-003 +9.0292512268E+001  +8.1334950045E-001 -1.3303613118E+000 
13274389.237 +8.1814784611E-001 +1.8830897904E-001  +7.8692546890E-003 +1.0042514646E+002  +7.0913035915E-003 +9.7210635884E+001  +8.1040676455E-001 -2.9075900878E+000 
13399534.418 +8.3692072269E-001 -1.4889180148E+000  +8.1630372714E-003 +9.1006562426E+001  +7.4981071502E-003 +9.8964592138E+001  +8.4201695400E-001 -2.0336185514E+000 
13524679.599 +8.4176960678E-001 -2.7181731197E+000  +6.8490537978E-003 +7.7083994229E+001  +5.5787489906E-003 +9.9628748005E+001  +8.4133822373E-001 -1.8315209094E+000 
13649824.781 +8.6059471922E-001 -7.6605400315E-001  +6.5485964046E-003 +9.6190965253E+001  +6.5295722286E-003 +7.6842762686E+001  +8.7534993893E-001 -2.0618395789E+000 
13774969.962 +8.8118527754E-001 -1.8856641065E+000  +5.2691551198E-003 +9.8441642636E+001  +6.3343813596E-003 +9.5590012000E+001  +8.9124615998E-001 -2.6793448724E+000 
13900115.144 +9.2005716404E-001 -3.4046133955E+000  +7.2180259742E-003 +8.3207122827E+001  +7.8121069903E-003 +9.7996257289E+001  +9.2454606833E-001 -2.5931739280E+000 
14025260.325 +9.0695887022E-001 -2.3760189542E+000  +6.3125098665E-003 +8.7643821743E+001  +7.6828305518E-003 +9.6159033945E+001  +9.5425925478E-001 -3.5716142126E+000 
14150405.507 +9.2871225093E-001 -3.6148495251E+000  +7.1198980688E-003 +8.5102512174E+001  +7.6412090944E-003 +9.8600603809E+001  +9.4104507351E-001 -3.5821675696E+000 
14275550.688 +9.6008623270E-001 -4.9478112447E+000  +6.4010500674E-003 +8.6201887097E+001  +8.7390898208E-003 +8.6159742306E+001  +9.6875359972E-001 -4.0375209991E+000 
14400695.870 +9.6069547543E-001 -5.0689220351E+000  +7.5747810464E-003 +9.9111114581E+001  +7.4342733290E-003 +9.2920003807E+001  +9.8770151908E-001 -4.3974860243E+000 
