!  2-Port S-parameters saved by WinCal
! VAR MeasName=S-Parameters (CALIBRATED_DATA) read from VNA (P5004A)
! VAR MeasDate=27/08/2024 14:27:55
! VAR NAME=S2_r2c8_RESET3_9k-100M_3
! VAR FILENAME=S2_r2c8_RESET3_9k-100M_3.S2P
! VAR DATE=27/08/2024 14:27:55
! VAR PHYS_PORTS=1,2
! VAR ObjTypeName=DATASET
! VAR IndexType=Frequency
!
# Hz S MA R 50
9000.000 +7.3456427944E-002 -1.1842240688E+002  +2.5743493913E-002 +1.6005813022E+002  +7.2112365771E-003 -1.0874430098E+002  +1.2536140985E-001 -1.2612634882E+002 
134145.181 +1.1166849029E-001 +1.6983345976E+002  +4.3103276623E-004 -9.3467666052E+001  +8.7866385690E-004 -7.1303411770E+001  +2.3638714274E-001 -1.7022391585E+002 
259290.363 +1.1215517011E-001 +1.7060983918E+002  +3.0420001402E-004 +7.3505884407E+001  +7.5134205483E-004 -6.6155807897E+001  +2.4695585015E-001 -1.6938065288E+002 
384435.544 +1.1360157227E-001 +1.6947193720E+002  +2.3200771950E-004 +1.6607441547E+002  +2.2911561087E-005 +8.2815784944E+001  +2.4450516373E-001 -1.6888328732E+002 
509580.726 +1.1455879206E-001 +1.7143068241E+002  +1.2334799812E-003 -4.6947669427E+000  +1.3479386350E-003 +6.7938972340E+001  +2.4420592019E-001 -1.6309887665E+002 
634725.907 +1.1624504994E-001 +1.7231599391E+002  +7.6499270747E-004 -1.1976063685E+002  +9.1457983863E-004 -1.5452494181E+002  +2.3889631832E-001 -1.6417794937E+002 
759871.089 +1.1731545380E-001 +1.7071743904E+002  +3.0326261417E-004 -1.0248222709E+002  +1.0348580846E-003 -1.6054688518E+002  +2.3812614923E-001 -1.6468330157E+002 
885016.270 +1.1736558318E-001 +1.7088725942E+002  +3.0409301193E-004 +1.6629533057E+002  +7.2339471389E-004 -8.8837588753E+001  +2.4012290561E-001 -1.6509892237E+002 
1010161.452 +1.1589687002E-001 +1.7091675718E+002  +3.1480369642E-003 +4.5812312583E+001  +9.8135625180E-003 +1.9888393184E+001  +1.2083569370E-001 -1.3780297971E+002 
1135306.633 +1.1408604402E-001 +1.7225886017E+002  +1.2869564020E-003 -4.5284655918E+001  +2.5679450079E-003 -7.0138216972E+001  +1.4472926923E-001 +1.6829627803E+002 
1260451.815 +1.2044113113E-001 +1.7204269324E+002  +4.5142370528E-004 -1.6455884636E+002  +1.9368247670E-003 +1.2880921088E+002  +2.5924085479E-001 -1.5581825708E+002 
1385596.996 +1.2784753615E-001 +1.7151703692E+002  +1.8962592315E-004 +1.4176946841E+002  +2.9477653491E-004 +1.1666673857E+002  +2.4347289258E-001 -1.5399651248E+002 
1510742.178 +1.2776241603E-001 +1.7097634178E+002  +6.5074025530E-004 -4.1469073464E+001  +1.0789664703E-003 +1.7800045386E+002  +2.5285226701E-001 -1.5988349605E+002 
1635887.359 +1.2816824862E-001 +1.7009707437E+002  +7.3444207816E-004 -1.6045644726E+002  +6.3881740898E-004 -7.2107886344E+001  +2.6128242573E-001 -1.5931880430E+002 
1761032.541 +1.3011376518E-001 +1.6944031007E+002  +1.8729377197E-003 -1.2417319912E+002  +2.3065749348E-003 -1.1522793360E+002  +2.1523711234E-001 -1.6096266662E+002 
1886177.722 +1.2934677447E-001 +1.6667808931E+002  +1.3310453986E-003 -2.1726109617E+001  +1.6536156653E-003 +1.3492243097E+002  +2.2331394942E-001 -1.5911520231E+002 
2011322.904 +1.2884688247E-001 +1.6794174326E+002  +1.3573558614E-003 -1.4043972133E+002  +1.8425833192E-003 +6.3794712108E+000  +2.1587015255E-001 -1.6857537153E+002 
2136468.085 +1.2666314826E-001 +1.6723808530E+002  +1.4617141375E-003 -1.6122301748E+002  +1.4005591428E-003 +7.2912395633E+001  +2.1084643967E-001 +1.7453267851E+002 
2261613.267 +1.3514253310E-001 +1.6534239426E+002  +3.7324540487E-003 +2.9918899669E+001  +3.4179070956E-003 -1.4501493562E+002  +1.4469111931E-001 -1.6357992722E+002 
2386758.448 +1.3710837826E-001 +1.5926122669E+002  +5.9697717239E-003 +8.4573063746E+001  +2.4774705684E-003 +5.3810683546E+001  +1.4041891612E-001 +1.6711027852E+002 
2511903.630 +1.3110869013E-001 +1.5722983149E+002  +5.9551389705E-003 -7.5573661356E+001  +9.6397712846E-003 +2.6773353993E+001  +3.9042739740E-001 +1.6063716439E+002 
2637048.811 +1.2683525822E-001 +1.7111322619E+002  +4.2213490936E-003 +2.7100051159E+001  +5.2530646192E-003 -2.8141549989E+001  +1.4960839969E-001 -8.0281664192E+001 
2762193.992 +1.2076409032E-001 +1.7005929911E+002  +1.4057645887E-002 +1.3170371753E+002  +6.3262610065E-003 +1.2525665061E+002  +1.1707867654E+000 -1.7661003859E+002 
2887339.174 +9.5267885011E-002 +1.6960450860E+002  +1.3593389798E-002 +4.9353735290E+001  +4.1145325905E-002 -1.7351866193E+002  +8.0735828698E-001 +1.1787096630E+002 
3012484.355 +5.2547775254E-002 -1.6563915456E+002  +2.8812789215E-002 -1.0451128728E+002  +1.5729990301E-002 +1.1254326991E+002  +1.5261074561E-001 -1.0757433607E+001 
3137629.537 +1.3428101175E-001 +1.6962322416E+002  +1.1478021098E-002 +1.2100089829E+002  +2.8782403709E-002 +2.5344144824E+001  +5.3212332530E-001 -2.8028639525E+001 
3262774.718 +1.2083503223E-001 +1.6809376816E+002  +8.9432611333E-003 -2.9706927774E+001  +1.8790447271E-003 -1.4056751840E+001  +6.2657626590E-001 -8.1961816991E+001 
3387919.900 +1.3572361018E-001 +1.6413265414E+002  +1.0679357236E-003 +2.8412918149E+001  +7.2343053975E-003 +1.7832293850E+002  +5.0835901215E-001 -8.9650194483E+001 
3513065.081 +1.2553506345E-001 +1.4858779799E+002  +4.8617160432E-002 -3.0645531194E+001  +3.7361070813E-002 +4.6614980418E+001  +1.5297585897E+000 +2.7825285044E+001 
3638210.263 +1.4331662929E-001 +1.3983177095E+002  +1.0885875226E-002 +1.4480416016E+002  +1.1440666901E-002 -5.7281279918E+001  +5.5028630884E-001 +1.4372977862E+002 
3763355.444 +1.6364325657E-001 +1.4665077157E+002  +8.4399527052E-003 -1.0589622230E+002  +1.3701396439E-002 -2.8364350562E+001  +9.3052220096E-001 +1.5991877725E+001 
3888500.626 +1.6487757497E-001 +1.5440800041E+002  +9.6927556131E-003 +3.9328901893E+001  +1.3045717756E-002 -5.3622454124E+001  +5.4610453359E-001 +1.2298364734E+002 
4013645.807 +1.9960378969E-001 +1.4604069589E+002  +5.7058767689E-003 +1.3177545419E+002  +1.1644674532E-002 +1.5118106525E+002  +4.5627743936E-001 +1.1965127272E+002 
4138790.989 +1.5818896978E-001 +1.5192781404E+002  +4.4385267419E-003 -1.6735905490E+002  +3.9638386528E-003 -9.4713386430E+001  +1.9755921066E-001 +1.2356287453E+002 
4263936.170 +2.1656364210E-001 +1.4514617875E+002  +1.0051096677E-002 +1.4656819419E+002  +1.1793986459E-002 +1.2908150338E+002  +5.5395200750E-001 +9.1134698554E+001 
4389081.352 +2.3497361127E-001 +1.4538508896E+002  +2.4823020486E-002 -1.4889661324E+002  +4.3884515291E-002 +3.0144427323E+001  +2.7287682688E+000 +5.8830332221E+001 
4514226.533 +2.2335557588E-001 +1.4316229228E+002  +5.3925483619E-003 +9.3984303718E+001  +7.3572419610E-003 -1.7650919282E+002  +1.1570125911E+000 +7.1569452126E+001 
4639371.715 +2.1685925265E-001 +1.3359953226E+002  +2.9428367303E-002 -4.3716660099E+001  +3.2991309954E-002 +1.5526912501E+002  +2.6066700048E+000 +1.6161833204E+002 
4764516.896 +4.1755959455E-001 +1.3504420400E+002  +5.7690629158E-002 -4.6286628196E+001  +1.0442132120E-002 -1.0108046873E+001  +1.2185065814E+000 +3.5085539816E+001 
4889662.078 +3.7648098174E-001 +1.3363575628E+002  +5.6240014958E-002 +1.4760695116E+002  +1.8672700827E-002 -1.4960357105E+002  +3.2298408155E+000 -1.1727124475E+002 
5014807.259 +4.9119543800E-001 +1.2194492831E+002  +1.0269681538E-001 -1.1306095993E+002  +1.5297310557E-001 +5.3559755046E+001  +9.2937070732E+000 -1.6152241432E+002 
5139952.441 +3.5439257029E-001 +1.3066447678E+002  +4.3119278619E-002 -8.3426164303E+001  +3.0905277147E-003 -1.2062237674E+002  +8.9044474749E+000 +1.6987500214E+002 
5265097.622 +3.7531897572E-001 +1.3160918355E+002  +1.0850562223E-002 -8.3599719729E+001  +1.1058371785E-002 -2.2230882089E+001  +1.2687481159E+000 +1.1388338248E+002 
5390242.804 +4.0189976423E-001 +1.3148865653E+002  +4.8397245228E-002 +1.5039373989E+002  +2.3191689227E-002 +1.4801150964E+002  +1.6028166339E+000 +8.8898089705E+001 
5515387.985 +4.6525502416E-001 +1.2947006406E+002  +1.0984399448E-002 +6.9795658204E+001  +3.5987614759E-002 +9.5145241337E+001  +2.8358530319E+000 +3.0666964959E+001 
5640533.166 +4.6093502995E-001 +1.3371214123E+002  +1.9392515252E-002 -7.8740255958E+001  +1.3383794595E-002 -1.7891218224E+002  +2.3137159816E+000 +9.1993140248E+001 
5765678.348 +5.1722799762E-001 +1.2118840715E+002  +9.8945671756E-003 -1.1496446057E+002  +2.6868878571E-002 -1.6389242663E+001  +2.0697146181E+000 +7.0452969162E+001 
5890823.529 +6.2963540554E-001 +1.2460793736E+002  +2.3000925022E-002 -1.1138761641E+002  +5.6002861635E-002 +1.5455446181E+002  +3.0637105741E+000 +4.7056276220E+001 
6015968.711 +6.3736615047E-001 +1.2287224051E+002  +3.2708327678E-002 +1.6089412405E+002  +1.5267808294E-002 -1.4563718904E+002  +2.4793245109E+000 +6.0213081621E+001 
6141113.892 +7.6058433401E-001 +1.0620265086E+002  +1.5818320167E-003 -6.7045803236E+001  +1.4007728961E-002 +1.3793064950E+002  +1.9265620408E+000 +3.5715993397E+001 
6266259.074 +8.3251298162E-001 +1.1553788234E+002  +1.9811376607E-002 +1.7156479326E+002  +1.4581442665E-002 +9.7869784381E+001  +1.9781889573E+000 +5.7311539091E+000 
6391404.255 +1.0731197236E+000 +9.9002822318E+001  +1.2726913917E-002 -1.0915509970E+001  +5.2260822376E-002 +1.3679598283E+002  +1.5485335760E+000 +1.5933633381E+001 
6516549.437 +1.1464270873E+000 +7.7778768538E+001  +6.6147448603E-003 +1.7826019250E+002  +2.4054584851E-002 +7.8992363194E+001  +1.8199979877E+000 +2.3266196935E+000 
6641694.618 +1.6743856980E+000 +8.2270542502E+001  +2.1635905237E-002 +1.1756384760E+002  +2.5118686769E-002 +1.3309756081E+002  +1.2991524563E+000 -3.9518909169E+000 
6766839.800 +2.0868792480E+000 +5.7218268975E+001  +3.6632131515E-002 +1.2782304762E+002  +2.0714441636E-002 +9.7575081241E+001  +1.3938632047E+000 -1.9272415508E+000 
6891984.981 +2.2979650578E+000 +4.3762608085E+001  +2.7499811155E-002 +1.0297562156E+002  +1.3180660260E-002 +1.1382732437E+002  +1.4418117200E+000 -9.1220078460E-002 
7017130.163 +1.9810896310E+000 +1.3005916011E+001  +4.7554476382E-003 -9.2353482739E+001  +2.6989144798E-002 +3.4010822993E+001  +1.5291831247E+000 -8.2122094677E+000 
7142275.344 +1.8758838141E+000 +5.1346554694E+000  +1.1537379566E-002 +1.2507087461E+002  +3.2147030708E-002 +8.5064068921E+001  +1.3677087558E+000 -2.3730990261E+000 
7267420.526 +1.4427370164E+000 -2.3249210026E+000  +6.4180785752E-003 +9.7986886036E+001  +8.3352115047E-003 +8.5589354011E+001  +1.3414503422E+000 -1.3744562505E+001 
7392565.707 +1.3278967922E+000 +2.5422848060E-001  +8.2628088948E-003 +1.4735122114E+002  +1.0074029615E-002 +1.1475566993E+002  +1.3112857900E+000 -6.1124686886E+000 
7517710.889 +1.1156803229E+000 +8.8755294815E-001  +3.1268664680E-003 +1.6783344817E+002  +5.7150669087E-003 +5.1319145912E+001  +1.2303389479E+000 -6.7699427779E+000 
7642856.070 +1.0300438629E+000 +2.6827722905E+000  +4.7864070047E-003 +1.1291924199E+002  +5.8795808581E-003 -4.4837285747E+001  +1.0660835568E+000 -4.0931917181E+000 
7768001.252 +1.0410074792E+000 +5.1046375762E+000  +5.1763745730E-003 -1.2353016717E+002  +7.1299183024E-003 +3.2056286777E+001  +9.0046243689E-001 -9.3216315336E+000 
7893146.433 +8.7740867071E-001 +2.4953697896E+000  +6.0747683786E-003 +6.6594188757E+001  +4.0943448139E-003 -1.6268735791E+002  +9.5031341650E-001 -6.2764512936E+000 
8018291.615 +8.4194708856E-001 +2.4944881989E+000  +7.2469535020E-003 +1.0104809920E+002  +4.3008159703E-003 +9.2828119265E+001  +8.9004518763E-001 -7.5323532599E-001 
8143436.796 +7.7801492781E-001 +7.3687777646E+000  +1.0305469692E-002 +9.7298796861E+001  +2.9767068337E-003 +8.7725947078E+001  +7.7997267487E-001 -1.3022917182E+000 
8268581.977 +6.9760541458E-001 +2.4983413361E+000  +3.4649910065E-003 +1.7819379542E+001  +6.6970575679E-003 +5.8980627212E+001  +7.7418187616E-001 -6.4873325558E-001 
8393727.159 +6.8917844350E-001 -1.3873858522E+000  +3.1288806373E-003 +8.8062969294E+001  +3.1039615960E-003 +5.4369324130E+001  +7.6827678160E-001 +3.3137385295E+000 
8518872.340 +7.1223539933E-001 +1.1277522617E+001  +5.1799912293E-003 +1.4941579618E+002  +5.3830007078E-003 +1.2992975512E+002  +7.6840306397E-001 +2.7998455840E+000 
8644017.522 +6.9036855723E-001 +9.3081460034E+000  +2.7413507804E-003 +1.4131176215E+002  +4.1047606395E-004 +4.8883706174E+000  +7.0366955508E-001 -2.1170680729E+000 
8769162.703 +6.3833392837E-001 +3.5833048811E+000  +4.6805134940E-003 +1.1635808644E+002  +2.9341791370E-003 +1.1496852648E+002  +6.9624152801E-001 -1.4871503604E+000 
8894307.885 +5.9546259866E-001 +5.1208012721E+000  +2.7787006680E-003 -9.1833547586E+000  +2.0894321127E-003 +1.0860864697E+002  +6.7310265118E-001 +7.4067364340E-001 
9019453.066 +6.0278865420E-001 +4.3738244336E+000  +5.6258018818E-003 +3.0220860932E+001  +6.2387111756E-003 +1.0709908097E+002  +6.6870408697E-001 -3.8215614703E+000 
9144598.248 +5.7479257041E-001 +7.1782495585E+000  +3.1663248111E-003 +6.5898391356E+000  +1.9669836335E-003 -1.1837947165E+002  +5.7945807328E-001 -7.5867446422E-001 
9269743.429 +6.4453016448E-001 +3.1919324011E+000  +3.9297529575E-003 +6.3034872532E+001  +2.8212162663E-003 +7.6041634858E+001  +6.3169627570E-001 -3.4522314786E+000 
9394888.611 +6.0204084959E-001 +7.2888589271E+000  +4.5635090915E-003 +4.5533316389E+001  +3.5507639408E-003 +1.0193607788E+002  +6.6824454741E-001 -1.5812209783E+000 
9520033.792 +5.6470359078E-001 +1.8345544135E+000  +7.9575237054E-003 +9.0606070094E+001  +6.1150102129E-003 +1.2629530559E+002  +6.1455362208E-001 -3.4165083169E+000 
9645178.974 +5.5252457363E-001 +4.3962641018E+000  +5.4597212931E-004 +9.8989361808E+001  +3.8503702543E-003 +9.8537989332E+001  +5.6631113049E-001 -6.7491640791E+000 
9770324.155 +5.1542674976E-001 +3.9495514331E+000  +5.2157607680E-003 +9.4877641126E+001  +3.3905899239E-003 +6.3640811759E+001  +6.0642833548E-001 -5.2254943899E+000 
9895469.337 +5.6788576529E-001 -4.1975126130E+000  +3.9994108082E-003 +6.1292286388E+001  +3.7762920585E-003 +1.2421503633E+002  +6.3113576451E-001 -4.7205155565E+000 
10020614.518 +5.5014135203E-001 +4.5773313485E+000  +8.4279674246E-003 +8.6081140632E+001  +1.9685224841E-003 +1.5706664088E+002  +5.5803892520E-001 -3.9874695734E+000 
10145759.700 +5.3753898306E-001 +1.3129218226E+000  +3.3212978405E-003 +7.3241657025E+001  +3.6913712330E-003 +1.0420996375E+002  +5.8268588780E-001 -4.0185697809E+000 
10270904.881 +5.0577086873E-001 +7.1131169452E+000  +4.0230611155E-003 +8.1316659905E+001  +2.8071943164E-003 +9.0436437080E+001  +5.6625960840E-001 -4.4487945535E+000 
10396050.063 +5.5102734046E-001 +9.8233646712E-001  +5.5159095296E-003 +8.3131076659E+001  +4.4028317854E-003 +9.1424061992E+001  +6.0317640880E-001 -3.9449161755E+000 
10521195.244 +5.2888763129E-001 +5.1221333529E+000  +5.2795748143E-003 +5.5858766007E+001  +5.2286612414E-003 +5.0532860165E+001  +5.6463753001E-001 -3.0287909497E+000 
10646340.426 +5.7156982678E-001 +2.6040636209E+000  +6.3356067261E-003 +9.7801785645E+001  +4.2008632899E-003 +7.9270133607E+001  +6.0787963181E-001 -1.8826194756E+000 
10771485.607 +5.5536401061E-001 +7.7515644444E+000  +3.4649655653E-003 +1.1079083798E+002  +3.7356615466E-003 +1.1181799262E+002  +6.0209612831E-001 +3.6172843702E+000 
10896630.788 +6.0416594637E-001 +3.5221964591E+000  +3.7959970074E-003 +1.2142588924E+002  +7.1503932576E-003 +9.6287097539E+001  +6.2576133750E-001 -2.6243042285E-001 
11021775.970 +5.7520133362E-001 +2.5943306555E+000  +5.5599533628E-003 +8.4627749426E+001  +4.1960384005E-003 +1.3476223977E+002  +5.9398258366E-001 -5.3725709911E-001 
11146921.151 +5.5712385249E-001 +8.9638893799E+000  +3.9315492432E-003 +8.2487703223E+001  +3.9291649437E-003 +7.4888721928E+001  +6.1887429283E-001 -2.2306422927E-001 
11272066.333 +6.0712777622E-001 +5.1553513188E+000  +4.2840458420E-003 +8.4437854649E+001  +4.8923835410E-003 +8.7012622749E+001  +6.3076094687E-001 -4.7824856095E-001 
11397211.514 +6.1793890678E-001 +8.2509394460E+000  +5.1418382364E-003 +7.3166123340E+001  +3.2502369572E-003 +1.2137397917E+002  +6.4051302908E-001 -1.3022337319E+000 
11522356.696 +6.0014224980E-001 +6.3801160715E+000  +3.6844818101E-003 +6.5883855127E+001  +3.8885847265E-003 +8.1255328088E+001  +6.5465437463E-001 +1.7590552384E+000 
11647501.877 +6.0401953953E-001 +5.5369475963E+000  +4.7770508296E-003 +8.5031284765E+001  +5.3266865103E-003 +9.3818564627E+001  +6.6352334335E-001 +1.6818217548E+000 
11772647.059 +6.4420667779E-001 +7.9466835746E+000  +4.4358764440E-003 +1.0259663226E+002  +3.9266825126E-003 +9.3451832562E+001  +6.4484852780E-001 +2.1374012981E+000 
11897792.240 +6.4413563132E-001 +6.6536331990E+000  +5.8704960411E-003 +9.4613481086E+001  +6.0738446989E-003 +1.0100351402E+002  +6.7632415991E-001 -2.2374363454E-001 
12022937.422 +6.7638276279E-001 +7.4540812222E+000  +6.7896992121E-003 +7.7169536770E+001  +4.4953841510E-003 +1.0338692520E+002  +6.6625225259E-001 +1.1838506869E+000 
12148082.603 +6.8510725788E-001 +4.4411456054E+000  +4.3019847030E-003 +1.0171457767E+002  +3.7400800076E-003 +9.1102784332E+001  +7.1576135295E-001 -2.6539360443E-001 
12273227.785 +6.9833659001E-001 +3.7080917926E+000  +5.5053125961E-003 +9.0061349392E+001  +5.8045669067E-003 +9.6563935198E+001  +7.0521724232E-001 -8.6924913522E-004 
12398372.966 +7.3094728789E-001 +4.1520903002E+000  +6.4687503918E-003 +9.3245524393E+001  +4.4395028921E-003 +8.6467128426E+001  +7.2239162956E-001 -1.3095300540E+000 
12523518.148 +7.4214754778E-001 +1.2442220299E+000  +7.4583526993E-003 +8.7666870795E+001  +6.1804509623E-003 +9.6272823210E+001  +7.4655796920E-001 -2.3140879480E+000 
12648663.329 +7.5030427570E-001 +3.1987939993E+000  +6.8870870085E-003 +1.0159941391E+002  +4.8808132635E-003 +8.8258789433E+001  +7.3414179697E-001 +8.0196485167E-001 
12773808.511 +7.5483672092E-001 +3.6339280864E-001  +4.8083191312E-003 +9.2074534228E+001  +5.5633035254E-003 +1.0065941283E+002  +7.6574966433E-001 -1.2250647798E+000 
12898953.692 +7.6819693017E-001 +3.8069496866E+000  +6.3374513682E-003 +8.5185657709E+001  +6.3904826392E-003 +9.7749334522E+001  +7.7770055389E-001 -1.7977545310E+000 
13024098.874 +7.8984376277E-001 +2.4324031495E-001  +5.2138877673E-003 +8.2940712188E+001  +6.5678163318E-003 +9.7888228184E+001  +7.9405570499E-001 -1.7068746323E+000 
13149244.055 +7.9569433974E-001 -6.4839714222E-001  +5.6107040387E-003 +8.2539295118E+001  +8.1265246558E-003 +1.0262499358E+002  +7.9620770434E-001 -2.9140071949E+000 
13274389.237 +8.0873893683E-001 +8.7523718712E-002  +7.1156550222E-003 +8.0110646124E+001  +5.2498216210E-003 +1.0509330249E+002  +8.1733833480E-001 -2.0927215894E+000 
13399534.418 +8.2239173154E-001 -7.2995372151E-001  +7.0399639414E-003 +8.6854948368E+001  +5.9957463783E-003 +1.0772441963E+002  +8.4260856139E-001 -2.6813005422E+000 
13524679.599 +8.6871472139E-001 -2.3444491564E+000  +6.1704839011E-003 +9.2648941186E+001  +7.4269170508E-003 +9.0401669526E+001  +8.6643899590E-001 -4.3314298815E+000 
13649824.781 +8.7774344216E-001 -2.4589301827E+000  +6.6585664245E-003 +1.0079191467E+002  +6.9688047178E-003 +1.0223957898E+002  +8.9902362695E-001 -3.9021939090E+000 
13774969.962 +8.7152678562E-001 -2.5511695979E+000  +7.2536396330E-003 +9.6412656168E+001  +8.1215648004E-003 +9.4086122692E+001  +8.7315412474E-001 -2.7098645154E+000 
13900115.144 +9.1025785605E-001 -3.5127025108E+000  +6.5408441682E-003 +8.9328071090E+001  +6.1014225811E-003 +9.0127068259E+001  +9.1274349331E-001 -3.7619260761E+000 
14025260.325 +9.2409414086E-001 -3.2994210580E+000  +6.9175765706E-003 +9.2658101365E+001  +6.5870349409E-003 +9.0587577046E+001  +9.3035751004E-001 -4.6929845305E+000 
14150405.507 +9.2471921457E-001 -3.5497286897E+000  +5.9707999159E-003 +1.0917845414E+002  +5.8404761863E-003 +9.4871874830E+001  +9.6210754117E-001 -3.6285199036E+000 
14275550.688 +9.5088563352E-001 -4.3442953555E+000  +7.3121100564E-003 +9.0703243564E+001  +7.2821920334E-003 +8.3662138334E+001  +9.8822365185E-001 -5.3914969738E+000 
14400695.870 +9.6322309689E-001 -6.4826522362E+000  +7.4542157346E-003 +8.8984869980E+001  +8.1115621612E-003 +9.5391009354E+001  +9.8842454370E-001 -4.5835208212E+000 
