!  2-Port S-parameters saved by WinCal
! VAR MeasName=S-Parameters (CALIBRATED_DATA) read from VNA (P5004A)
! VAR MeasDate=27/08/2024 12:28:21
! VAR NAME=S2_r3c9_pristine_9k-100M_3
! VAR FILENAME=S2_r3c9_pristine_9k-100M_3.S2P
! VAR DATE=27/08/2024 12:28:21
! VAR PHYS_PORTS=1,2
! VAR ObjTypeName=DATASET
! VAR IndexType=Frequency
!
# Hz S MA R 50
9000.000 +8.5449875896E-002 -1.0624922244E+002  +2.0097094672E-002 +4.8439354594E+001  +4.1617984323E-002 -7.9492355284E+001  +1.6634009901E-001 -1.1222820025E+002 
134145.181 +1.1131966630E-001 +1.6957024139E+002  +5.3277609379E-004 -1.3234068454E+002  +8.0373761060E-005 +1.5606075053E+002  +2.3548480528E-001 -1.7063995141E+002 
259290.363 +1.1131250407E-001 +1.7012025041E+002  +5.2796413288E-004 +9.7041328601E+001  +4.4019495542E-004 -8.2636207152E+001  +2.4328868475E-001 -1.6878867076E+002 
384435.544 +1.1345416505E-001 +1.6955038780E+002  +4.0766301729E-004 -1.7323313733E+002  +5.0669934950E-004 +1.7843754875E+002  +2.4062494949E-001 -1.7046035446E+002 
509580.726 +1.1579929181E-001 +1.7108675528E+002  +4.5262115762E-004 -8.9459277705E+001  +2.9745798883E-004 -1.0037022621E+002  +2.3087474852E-001 -1.6620689936E+002 
634725.907 +1.1602655325E-001 +1.7004148116E+002  +7.0178762604E-004 +1.3376746990E+002  +1.0598986197E-003 +5.9699106952E+001  +2.3678016850E-001 -1.6662361533E+002 
759871.089 +1.1533290758E-001 +1.7046510686E+002  +6.0212304828E-004 -1.6276145836E+002  +9.2152648789E-004 +1.0022639201E+002  +2.2685187024E-001 -1.6480901115E+002 
885016.270 +1.1678153273E-001 +1.6998373228E+002  +5.8084076134E-004 +1.7502906657E+002  +1.0940106666E-003 +7.0519029485E+001  +2.3232553753E-001 -1.6413306261E+002 
1010161.452 +1.1722833687E-001 +1.7097327203E+002  +3.0392519127E-004 -1.5970338080E+002  +6.7197378960E-004 -1.0823028288E+001  +1.9979990224E-001 -1.6881711502E+002 
1135306.633 +1.1071766573E-001 +1.6969396825E+002  +1.1356947915E-003 -2.0377100885E+001  +3.3037917872E-003 -9.2867395427E+001  +1.9536502547E-001 -1.5024512276E+002 
1260451.815 +1.2347292772E-001 +1.7182906867E+002  +3.9668059634E-004 +1.3008001553E+002  +7.4961949022E-004 +1.1536491337E+002  +2.2613375797E-001 -1.6098942180E+002 
1385596.996 +1.2522834829E-001 +1.7118204485E+002  +6.9341438411E-004 -4.6498379769E+001  +8.0772735734E-004 +7.2013111300E+000  +2.6887987456E-001 -1.5984680970E+002 
1510742.178 +1.2837129741E-001 +1.7181410919E+002  +1.9844900379E-003 -1.3426678447E+002  +7.9144691065E-004 +4.2823042224E+000  +2.4240350838E-001 -1.5660637113E+002 
1635887.359 +1.2643367488E-001 +1.7121677902E+002  +9.1032479497E-004 -1.4542997706E+002  +1.5690310875E-003 -1.1634843561E+002  +2.1998985546E-001 -1.5614750655E+002 
1761032.541 +1.2617815533E-001 +1.6889167104E+002  +8.5597546138E-004 -9.5795891585E+001  +1.2301688524E-003 -1.1559824835E+002  +2.2671643475E-001 -1.6203866113E+002 
1886177.722 +1.2518127094E-001 +1.6721181880E+002  +3.9623473200E-003 +1.4786571049E+002  +2.2770848450E-003 -5.1869149578E+001  +1.9482628749E-001 -1.6751670866E+002 
2011322.904 +1.3017655848E-001 +1.6401594756E+002  +3.4156557539E-004 -1.4917039876E+001  +1.7729812696E-003 -3.2295401360E+001  +1.7075621198E-001 -1.7939001377E+002 
2136468.085 +1.2730750661E-001 +1.6450909204E+002  +1.5090063338E-003 +7.0384944225E+001  +3.1259283473E-003 +1.2234360020E+002  +1.9652188777E-001 -1.6995208289E+002 
2261613.267 +1.3183871526E-001 +1.6876736428E+002  +3.1726725646E-003 +4.9548990800E+001  +3.2395103341E-003 +1.7488399942E+002  +1.9604343683E-001 +1.7015749094E+002 
2386758.448 +1.3933698425E-001 +1.6054296512E+002  +1.9223923794E-003 -7.3002819782E+001  +8.6702949814E-004 +1.1205232767E+002  +1.7331445383E-001 +1.7940691744E+002 
2511903.630 +1.3467851757E-001 +1.6222957642E+002  +3.2353153229E-003 +8.8445263007E+001  +1.6063987369E-003 -1.6206811779E+002  +1.5242789272E-001 +9.8668158269E+001 
2637048.811 +1.1470530506E-001 +1.7072216159E+002  +3.7971410658E-002 +1.9632715497E+001  +1.0796244497E-002 +1.4764053852E+001  +1.5663716404E+000 +1.4882638497E+002 
2762193.992 +1.2552278470E-001 -1.7762244204E+002  +2.1083303482E-003 -5.6436043217E+001  +2.4783556027E-002 -4.0311124433E+001  +9.1749749842E-001 +1.7836868690E+002 
2887339.174 +1.0891722324E-001 +1.7622332856E+002  +1.0801166904E-002 -1.3876947763E+002  +2.7832514412E-002 +1.0500928871E+002  +4.4699254583E-001 -8.5527330849E+001 
3012484.355 +1.2913853040E-001 +1.7861740402E+002  +5.6172604788E-003 +1.4728460386E+002  +6.2055796191E-003 -1.0508046135E+002  +3.7336377623E-001 -1.0285089514E+002 
3137629.537 +1.2230035632E-001 +1.7689460981E+002  +1.6091404652E-002 +1.5157459344E+002  +6.1325542329E-003 -1.3621961130E+002  +4.9286543561E-001 -8.9902909087E+001 
3262774.718 +1.3207853265E-001 +1.6620802576E+002  +1.9694198040E-002 -1.6343663705E+002  +2.7780105828E-002 +1.7063679943E+002  +1.2791086211E+000 +2.4440768814E+000 
3387919.900 +1.0340149677E-001 +1.6853603074E+002  +2.5673651841E-002 +1.7243639390E+002  +9.1853294973E-003 +1.2402060101E+002  +4.2234355494E-001 -5.9609550419E+001 
3513065.081 +1.4968777576E-001 +1.5702801557E+002  +8.3352158344E-003 +1.2078726734E+002  +1.1308939652E-002 +2.9794274963E+001  +6.3822754070E-002 +9.6052802725E+001 
3638210.263 +1.8784080917E-001 +1.4277786184E+002  +2.6327678887E-002 +4.4848927384E+001  +1.3065083634E-002 -1.2624239244E+002  +6.0046587891E-001 +2.2548001026E+001 
3763355.444 +1.4135749653E-001 +1.3848893672E+002  +1.6088425979E-002 +6.6811566517E+000  +9.6602743632E-003 +2.3821464832E+001  +4.6161088468E-001 +1.1511792773E+002 
3888500.626 +1.7975098408E-001 +1.5631878444E+002  +1.8119916468E-003 +1.3268886388E+002  +4.9566493464E-003 +5.0536490261E+001  +3.0334562420E-001 +9.0755610517E+001 
4013645.807 +1.6480919629E-001 +1.4673869254E+002  +1.3046180813E-002 +1.4522351403E+002  +5.1271900228E-003 -9.3213737341E+001  +4.3061756625E-001 +1.3117308441E+002 
4138790.989 +1.5520562165E-001 +1.4750589277E+002  +4.4902263188E-003 -7.8868606389E+001  +2.4560656498E-003 -1.7912515439E+002  +3.5100247663E-001 +1.4863423192E+002 
4263936.170 +1.8098030097E-001 +1.4311958423E+002  +2.5509282976E-003 -1.4867665238E+002  +1.3518456205E-002 -6.8727864610E+001  +5.0600104118E-001 +1.0497154371E+002 
4389081.352 +2.0653862559E-001 +1.3962271775E+002  +1.5182386259E-002 -5.1987772170E+001  +4.3788240385E-003 +1.6529880258E+002  +7.2712900467E-001 +1.2725276941E+002 
4514226.533 +2.1983730717E-001 +1.3717853443E+002  +5.0307105691E-002 -1.5436678553E+002  +2.2684413665E-002 +6.3311106762E+001  +1.2372827474E+000 +9.3174933562E+001 
4639371.715 +3.0981208054E-001 +1.2438750897E+002  +2.4838449771E-002 -5.6806732360E+000  +3.1706417592E-002 +1.0081890631E+002  +2.1536891494E+000 +6.4131155764E+001 
4764516.896 +2.9834560664E-001 +1.1865513236E+002  +1.1769064695E-001 -9.6613912327E+001  +5.1227996974E-002 -1.3494626448E+002  +5.3643698673E+000 +1.4142881357E+001 
4889662.078 +3.4983415243E-001 +1.1113754238E+002  +1.0418182979E-002 +1.2463608666E+002  +1.2925924593E-002 -1.1622857762E+002  +2.1551688952E+000 -9.8768321062E+001 
5014807.259 +3.4499812965E-001 +1.2441928004E+002  +5.1087113378E-002 +9.5279372015E+001  +5.7499368356E-002 +1.6544199793E+001  +2.4454071216E+000 -5.0723903017E+001 
5139952.441 +3.5114672095E-001 +1.3569503433E+002  +3.1963348766E-002 -1.7081697211E+002  +1.6317893267E-002 -1.2321242364E+002  +2.3588987150E+000 +1.1247664049E+002 
5265097.622 +3.8919304635E-001 +1.3520335104E+002  +2.6622445177E-002 -7.2206287384E+001  +1.7421308263E-002 +1.7603136579E+002  +2.2013481415E+000 +1.4591757882E+002 
5390242.804 +3.6719848125E-001 +1.3157944811E+002  +2.5465482026E-002 +6.7023848032E+001  +1.9165669855E-002 +1.2779894715E+002  +1.9076153666E+000 +9.3347115252E+001 
5515387.985 +4.5844568155E-001 +1.2692235555E+002  +6.8934366633E-002 -6.7441247052E+001  +3.7582184165E-002 +1.0664242193E+002  +3.0278726831E+000 +5.7249059121E+001 
5640533.166 +4.3332165631E-001 +1.3367018748E+002  +1.9649700551E-002 -1.7626859087E+002  +1.5946962761E-002 +1.7109817005E+002  +2.1694665421E+000 +8.8874936167E+001 
5765678.348 +4.9330111117E-001 +1.2012099476E+002  +3.5520699497E-002 -1.0683136307E+002  +1.0745453029E-002 +1.5526052606E+002  +2.8733138357E+000 +9.2655733443E+001 
5890823.529 +5.5855507681E-001 +1.1165942668E+002  +2.8980961563E-002 +1.0685788396E+002  +1.5734377999E-002 -1.1628707061E+002  +3.1805936382E+000 +4.7262068404E+001 
6015968.711 +6.7282611336E-001 +1.0975435746E+002  +2.2713087193E-002 +1.7298610921E+002  +3.1044222708E-002 +2.9765819791E+001  +1.8143284254E+000 +5.1008952453E+001 
6141113.892 +6.2368048866E-001 +1.1734740749E+002  +3.5973904408E-002 -8.1834480780E+001  +3.5087250780E-002 +1.1615862713E+002  +2.3102559793E+000 +3.9927718085E+001 
6266259.074 +8.1576001789E-001 +1.0969271180E+002  +1.3805430714E-002 +8.6719643115E+001  +2.3640776604E-002 +1.2070943310E+002  +1.6604560680E+000 +4.5523615293E+001 
6391404.255 +1.0485253206E+000 +1.0105933656E+002  +2.1185451258E-002 +1.4730725948E+002  +1.0868717839E-002 +1.5253981274E+002  +1.8383360545E+000 +1.5351065441E+001 
6516549.437 +9.1680833164E-001 +8.5774238072E+001  +5.9151980864E-003 +5.5354564170E+001  +2.2077999563E-002 -1.2629183206E+002  +1.4714298576E+000 +2.1359810133E+000 
6641694.618 +1.9281196930E+000 +7.6682366010E+001  +2.0985826702E-002 +1.3366043581E+002  +3.4331785936E-002 +3.0614816761E+001  +1.6192052840E+000 -4.8975796770E+000 
6766839.800 +1.5730373931E+000 +4.8199096640E+001  +7.2547335159E-003 +1.2519693030E+002  +2.2469428325E-002 -8.6028825564E+001  +1.2651825437E+000 -4.9648349727E+000 
6891984.981 +1.3748483178E+000 +4.5488768318E+001  +2.3953390933E-003 +4.9641015838E+001  +2.3247049375E-002 -1.6188906782E+002  +1.1925883696E+000 -8.9046983978E+000 
7017130.163 +1.5869294599E+000 +2.7680441213E+001  +1.6953091960E-002 +1.2238308507E+002  +1.5795114015E-002 +7.8164664301E+001  +1.1296216946E+000 -1.6895966760E+001 
7142275.344 +1.9982130855E+000 +8.3427296078E+000  +8.2240813157E-003 +9.1601899240E+001  +1.2191442438E-002 +9.7949971106E+001  +1.3750801720E+000 -1.1191764759E+001 
7267420.526 +1.4044801674E+000 +3.5349910855E+000  +1.1447307118E-002 +1.4058067500E+002  +3.9169164349E-003 +1.0020806029E+002  +1.3778054807E+000 -1.2008244263E+001 
7392565.707 +1.4740160526E+000 +1.5413293028E+000  +4.5998759106E-003 +1.6951208168E+002  +4.6909625733E-003 +1.7803108319E+002  +1.3882076550E+000 -5.6775303011E+000 
7517710.889 +1.2670287757E+000 +4.4787599151E-001  +4.0064967530E-003 +5.8004331159E+001  +1.0312704543E-002 +7.4245650956E+001  +1.2772762346E+000 -1.1816688565E+000 
7642856.070 +1.1400187700E+000 +3.3474410891E+000  +4.4514327361E-003 +1.5241529683E+002  +3.4282019871E-003 -2.4524252683E+001  +1.1126836206E+000 -1.4459134646E-001 
7768001.252 +1.0737305593E+000 +3.8784123077E+000  +3.2714577365E-003 +9.6257702360E+001  +1.8446454320E-003 +1.0786489408E+001  +9.7211922012E-001 -1.0493328385E+000 
7893146.433 +9.7336793008E-001 +3.9694522595E+000  +4.0183566845E-003 +5.6590263866E+001  +1.6705015591E-003 +1.2658926162E+001  +9.7796075402E-001 -5.6716711597E+000 
8018291.615 +8.6394377350E-001 +4.6842787335E+000  +3.1987720165E-003 +7.9333430020E+001  +3.4238841785E-003 -4.6930356891E+001  +8.4251010391E-001 -5.9934090165E+000 
8143436.796 +7.4748467473E-001 +2.6894159090E+000  +5.5103019097E-003 +7.7250001293E+001  +3.6340212042E-003 +7.8925023837E+001  +8.8087949009E-001 -1.4121467743E+000 
8268581.977 +8.0305231505E-001 +4.5149048489E+000  +5.0967284841E-003 +1.2447076916E+002  +4.5030982786E-003 +7.8981207313E+001  +7.6221125093E-001 +2.9560671151E+000 
8393727.159 +6.9041337729E-001 +9.5670342559E+000  +2.6421170150E-003 +8.7479988297E+001  +7.7355567713E-003 +8.5916676425E+001  +7.6625203973E-001 +2.3735074938E+000 
8518872.340 +6.2243924963E-001 +7.0244355850E+000  +4.0499730802E-003 +1.0883605098E+002  +6.1753137238E-003 +5.2925271460E+001  +7.2877613616E-001 +2.8919718244E+000 
8644017.522 +6.1956176982E-001 +7.8381612600E+000  +4.0749053007E-003 +1.1788940092E+002  +7.2496721689E-004 +1.4891108801E+002  +6.9402015609E-001 +3.7168210071E+000 
8769162.703 +6.5054369503E-001 +8.8155640145E+000  +3.2620154925E-003 +1.3807728183E+002  +5.8578767206E-003 +4.9009894372E+001  +6.9708375456E-001 -8.2376216822E-001 
8894307.885 +5.8698344879E-001 +5.2993170857E+000  +4.6713855635E-003 +1.2419815710E+002  +2.3989067769E-003 -1.1501245928E+002  +6.9302878202E-001 -3.1243524558E+000 
9019453.066 +6.1198234472E-001 +3.7913062669E+000  +3.3878512682E-003 +6.8326927785E+001  +2.0116412909E-003 -1.7562352830E+002  +5.9681816461E-001 -2.6943622439E+000 
9144598.248 +5.9537002482E-001 +3.7724225920E-001  +7.4136484561E-003 +7.8993948505E+001  +6.4914587442E-003 +1.3298623428E+002  +5.8566465433E-001 -5.7878793958E+000 
9269743.429 +5.2947009501E-001 +2.4172231560E+000  +3.1625238830E-003 +7.0658188212E+001  +4.7051998431E-003 +5.8176501038E+001  +6.5264523540E-001 -4.0680214405E+000 
9394888.611 +5.7713763496E-001 +7.0545057241E+000  +5.4669056710E-003 +8.4133751852E+001  +5.3076730170E-003 +5.1922943943E+001  +6.1225216403E-001 +4.1063197699E-001 
9520033.792 +5.5516769840E-001 -3.7484988500E+000  +5.2508028464E-003 +4.7735579731E+001  +8.9233440304E-003 +1.1422691834E+002  +6.3059122603E-001 -5.8685322705E+000 
9645178.974 +5.3855675158E-001 +1.0154326074E+000  +5.3599338340E-003 +8.8769060072E+001  +1.5978126418E-003 +7.1493491823E+001  +6.1000719812E-001 -5.4560866935E+000 
9770324.155 +5.5365548108E-001 -1.4110133135E+000  +5.5202127375E-003 +9.9176862817E+001  +4.2230549370E-003 +9.2311532215E+001  +5.8481292940E-001 -6.0621510058E+000 
9895469.337 +5.3331552856E-001 +4.3998671530E-001  +2.5536718586E-003 +1.4450981094E+001  +3.7910802072E-003 +9.8572082597E+001  +5.8692015979E-001 -7.2012838322E+000 
10020614.518 +5.8245378442E-001 +1.7305430001E+000  +2.8308316798E-003 +1.1822520736E+002  +4.7891903497E-003 +8.3631471503E+001  +5.9363389495E-001 -6.1993855453E+000 
10145759.700 +5.6282264770E-001 +3.9859217316E+000  +4.6155206522E-003 +1.1166204883E+002  +5.5860991212E-003 +1.1937912476E+002  +6.2786005406E-001 -3.3329888379E+000 
10270904.881 +5.4384709312E-001 +2.9087074599E+000  +4.9618604260E-003 +8.4506497294E+001  +4.5637114201E-003 +7.6557238214E+001  +5.8807410400E-001 -3.6215296938E+000 
10396050.063 +5.6548204870E-001 +1.9991554366E+000  +3.1768231278E-003 +7.2565903887E+001  +2.2929513987E-003 +8.3296670152E+001  +5.7097841530E-001 -3.6716244743E+000 
10521195.244 +5.4130438204E-001 +4.0349634811E+000  +3.9472114222E-003 +1.1739064272E+002  +4.7068819619E-003 +6.8452056777E+001  +5.9435554410E-001 +2.4121167806E+000 
10646340.426 +6.0355265037E-001 +6.2414735055E+000  +4.7209929751E-003 +1.0928934318E+002  +4.6663238019E-003 +1.1146691275E+002  +5.7886726324E-001 +1.1735540305E+000 
10771485.607 +5.8800677743E-001 +7.4036408741E+000  +2.6326084598E-003 +6.9866747520E+001  +2.8959960015E-003 +7.1929373492E+001  +5.8073858191E-001 -4.9180185892E+000 
10896630.788 +5.8390287718E-001 +6.6678684288E+000  +5.2255965559E-003 +1.1054123183E+002  +5.1211289864E-003 +6.9872225424E+001  +6.2637059812E-001 -8.3082912390E-001 
11021775.970 +6.0981009600E-001 +7.7410022988E+000  +3.0675371999E-003 +8.4542268525E+001  +7.0195684068E-003 +1.0516965389E+002  +6.2923273301E-001 -4.3444542268E-001 
11146921.151 +5.6387287263E-001 +7.1878773691E+000  +4.0090567044E-003 +1.0150486574E+002  +4.1569501459E-003 +8.0169690310E+001  +6.1313428647E-001 -1.2663383273E+000 
11272066.333 +6.2316767481E-001 +7.5043044094E+000  +5.2652335499E-003 +1.0368873642E+002  +6.1560953647E-003 +9.0940794447E+001  +6.3186292109E-001 +2.3766436782E+000 
11397211.514 +6.1692409717E-001 +2.7820417101E+000  +6.4491915251E-003 +7.4515254319E+001  +6.5881484069E-003 +9.5082119563E+001  +6.2688273270E-001 +1.0836447461E+000 
11522356.696 +5.9434443705E-001 +4.4319905387E+000  +6.1002131289E-003 +8.2043277302E+001  +3.5439164213E-003 +9.1331375750E+001  +6.4066823621E-001 +2.2263293112E+000 
11647501.877 +6.3106261905E-001 +5.4111608050E+000  +5.8131870646E-003 +9.0334042658E+001  +3.7766247045E-003 +1.2732973742E+002  +6.5974091423E-001 +1.1664827941E+000 
11772647.059 +6.4560280214E-001 +5.7598955242E+000  +7.3636032058E-003 +9.1241894532E+001  +4.3468421833E-003 +9.4553081461E+001  +6.4672562150E-001 +2.1875707538E+000 
11897792.240 +6.4850074149E-001 +5.5054633324E+000  +5.3238065333E-003 +8.8451441051E+001  +5.5265927132E-003 +9.0685525017E+001  +6.9794533665E-001 +3.0521004091E+000 
12022937.422 +6.7299741268E-001 +4.3829362325E+000  +5.5958665292E-003 +8.1119337905E+001  +4.9156820057E-003 +1.1864731016E+002  +6.8604881077E-001 +6.1733099708E-001 
12148082.603 +6.8311716410E-001 +4.0690848548E+000  +5.9654160631E-003 +8.3663526632E+001  +5.8836536517E-003 +9.0614216915E+001  +7.2134757748E-001 +9.9143937229E-002 
12273227.785 +7.0452398220E-001 +3.2231828605E+000  +3.0716402960E-003 +1.0063256951E+002  +4.5361204956E-003 +1.0305581366E+002  +7.2047157654E-001 -1.4750158365E+000 
12398372.966 +7.1316274497E-001 +4.5680078636E+000  +6.4036803517E-003 +9.1048111168E+001  +3.2677043538E-003 +7.3526420583E+001  +6.9983585800E-001 +1.2448990935E+000 
12523518.148 +7.2585555315E-001 +2.9479562166E+000  +6.3750319929E-003 +9.1024136236E+001  +6.0055016937E-003 +9.8918774556E+001  +7.3343555271E-001 -2.5470656258E+000 
12648663.329 +7.5718515494E-001 +3.2485318240E+000  +6.2038952598E-003 +9.0373203770E+001  +6.9142312909E-003 +8.6857279686E+001  +7.7625731450E-001 +6.3690850728E-001 
12773808.511 +7.5730453252E-001 +1.0316974300E+000  +7.2846456406E-003 +9.4426400368E+001  +4.3052409228E-003 +7.4450284218E+001  +8.0033919914E-001 -1.4811950183E+000 
12898953.692 +7.7547700435E-001 +1.2692509216E+000  +6.0069183066E-003 +8.2833019373E+001  +6.1878754242E-003 +9.8025267857E+001  +7.6427936813E-001 -2.6469750555E+000 
13024098.874 +7.9477969574E-001 +7.5466507051E-001  +6.0469109641E-003 +9.1939528107E+001  +4.6976283993E-003 +1.0028178758E+002  +7.9481403359E-001 -1.3851766753E+000 
13149244.055 +8.2038981621E-001 +4.3635207365E-001  +6.8790159038E-003 +1.0460040765E+002  +5.1149070611E-003 +8.8579991995E+001  +7.9799945244E-001 -2.8164653629E+000 
13274389.237 +8.1230187174E-001 +3.0724430525E-002  +6.5634527452E-003 +9.9808525289E+001  +7.1659450973E-003 +8.9498312281E+001  +8.3843112922E-001 +8.5343646083E-003 
13399534.418 +8.5137925259E-001 -1.8942600154E+000  +6.2411313569E-003 +9.4932102630E+001  +5.3844678407E-003 +9.5930675807E+001  +8.4160198917E-001 -1.8126314660E+000 
13524679.599 +8.6079151843E-001 -2.8009620039E+000  +5.0145114112E-003 +8.8044660501E+001  +6.6559921149E-003 +9.2666392109E+001  +8.4380789599E-001 -2.9531583909E+000 
13649824.781 +8.5749776440E-001 -1.1916092848E+000  +8.0209166868E-003 +9.6498824752E+001  +6.9724321462E-003 +8.6536734436E+001  +8.9200773447E-001 -2.7504045949E+000 
13774969.962 +8.8549012578E-001 -2.4148574207E+000  +6.6396020566E-003 +9.8123972129E+001  +6.1573912433E-003 +9.1201656036E+001  +9.1847527983E-001 -4.0142329587E+000 
13900115.144 +8.9853770525E-001 -2.3312027251E+000  +6.4725680224E-003 +9.7292044346E+001  +6.9438215151E-003 +9.4847500870E+001  +9.3096497875E-001 -3.3878182094E+000 
14025260.325 +9.2433739902E-001 -2.4427820293E+000  +8.2871735633E-003 +9.0275488322E+001  +7.1427953682E-003 +8.8196273921E+001  +9.3306353490E-001 -2.3370362921E+000 
14150405.507 +9.6460103256E-001 -3.8672681430E+000  +8.2489831683E-003 +9.1236116712E+001  +6.6531160168E-003 +1.0189266371E+002  +9.4232054313E-001 -3.2433054776E+000 
14275550.688 +9.5747311630E-001 -4.6211234749E+000  +7.0236402512E-003 +1.0299012381E+002  +9.5529104295E-003 +9.4126140614E+001  +9.6398392179E-001 -4.6532917859E+000 
14400695.870 +9.9104423753E-001 -4.9231270252E+000  +7.0709597918E-003 +8.6341709674E+001  +7.9266399436E-003 +9.3775212479E+001  +9.7678269779E-001 -4.9378039192E+000 
