!  2-Port S-parameters saved by WinCal
! VAR MeasName=S-Parameters (CALIBRATED_DATA) read from VNA (P5004A)
! VAR MeasDate=28/08/2024 12:17:44
! VAR NAME=S2_r7c9_SET1_9k-100M_2
! VAR FILENAME=S2_r7c9_SET1_9k-100M_2.S2P
! VAR DATE=28/08/2024 12:17:44
! VAR PHYS_PORTS=1,2
! VAR ObjTypeName=DATASET
! VAR IndexType=Frequency
!
# Hz S MA R 50
9000.000 +9.0115152988E-002 -1.6080028163E+002  +2.2499406809E-002 -1.5082870827E+002  +1.1836292465E-002 +6.9148963032E+001  +5.0340004147E-001 -1.2662124829E+002 
134145.181 +1.1149158216E-001 +1.6973268217E+002  +4.7868688104E-004 +8.4290210110E+000  +5.8342781010E-004 -7.3200975663E+001  +2.4228873203E-001 -1.7050398762E+002 
259290.363 +1.1161612714E-001 +1.7008479922E+002  +6.8630611341E-004 +3.6849114480E+000  +1.3251496442E-003 -3.4084081846E+001  +2.4482212943E-001 -1.6637536350E+002 
384435.544 +1.1352551581E-001 +1.6984445181E+002  +6.9632389834E-004 -1.7196024121E+001  +7.2916272868E-004 +1.0380766239E+002  +2.3485940155E-001 -1.6883236783E+002 
509580.726 +1.1631021523E-001 +1.7260284336E+002  +1.6655393475E-003 -3.9333950395E+001  +1.3719880008E-003 -9.3277034272E+001  +2.4635290642E-001 -1.6325091689E+002 
634725.907 +1.1809631824E-001 +1.7233093454E+002  +1.0964028472E-003 -5.9232562702E+000  +1.0438906033E-003 -1.1384610444E+002  +2.5405420213E-001 -1.6452402450E+002 
759871.089 +1.2040005239E-001 +1.7049396001E+002  +2.0811200695E-004 -1.4293484696E+001  +2.2537658396E-004 +3.7070491871E+001  +2.5337651541E-001 -1.6584380704E+002 
885016.270 +1.2056292878E-001 +1.6896381204E+002  +8.3508510004E-004 +8.7119655758E+001  +5.5033489510E-004 +9.4298855328E+001  +2.4386632820E-001 -1.6550092955E+002 
1010161.452 +1.1725488693E-001 +1.6985338620E+002  +5.9221517720E-004 -1.7659374182E+002  +1.1402482675E-003 +1.5495803973E+002  +2.1241231975E-001 -1.6926534742E+002 
1135306.633 +1.1692777375E-001 +1.6952420161E+002  +2.5777828949E-003 +9.0491423142E+001  +1.2029063536E-003 +7.9028554698E+001  +1.4828094849E-001 -1.6080777234E+002 
1260451.815 +1.1942142603E-001 +1.7070031658E+002  +5.8521304789E-004 +1.4340640974E+002  +1.3546874874E-003 -5.1657683943E+001  +2.3011133327E-001 -1.5720864642E+002 
1385596.996 +1.2707542603E-001 +1.7301264144E+002  +3.7183579664E-004 +1.1926334791E+002  +8.9902792842E-004 -9.6497684179E+001  +2.7010946214E-001 -1.6000858704E+002 
1510742.178 +1.2617655673E-001 +1.7106378217E+002  +4.9740955802E-004 +9.1939032485E+001  +4.9313684839E-004 +1.1810741840E+002  +2.5561722066E-001 -1.6026806644E+002 
1635887.359 +1.2909019848E-001 +1.7141004503E+002  +6.6394941583E-004 +1.6143751532E+002  +9.5504750067E-004 +1.7868196789E+002  +2.6464093718E-001 -1.5736932668E+002 
1761032.541 +1.2600377711E-001 +1.7035434837E+002  +5.2575797965E-004 +7.7256728161E+001  +1.2836758428E-003 +1.7942434829E+002  +2.3945930835E-001 -1.5799798047E+002 
1886177.722 +1.2768106504E-001 +1.6988916752E+002  +9.9795163830E-004 -1.5835472676E+002  +4.5494807419E-004 -6.3247600350E+001  +2.1042827239E-001 -1.6618787591E+002 
2011322.904 +1.2601209711E-001 +1.7120194189E+002  +1.1647996008E-003 -1.1036797460E+002  +1.4484879857E-003 -2.1645384901E+001  +2.1041418134E-001 -1.6183933674E+002 
2136468.085 +1.2760565720E-001 +1.6610576246E+002  +3.9423387969E-004 -1.4365915513E+002  +6.8796078771E-003 +6.0489160782E+001  +2.1225817586E-001 +1.7309117655E+002 
2261613.267 +1.2103078289E-001 +1.6693031914E+002  +5.7096993235E-003 +1.5350410041E+001  +2.8852434055E-003 -8.5519276747E+001  +1.6230430746E-001 -1.7720915998E+002 
2386758.448 +1.2923436938E-001 +1.6126175248E+002  +1.8597156401E-003 +1.2994557246E+001  +6.3685961454E-003 -1.2211067995E+001  +1.7753031500E-001 -1.7383477763E+002 
2511903.630 +1.4337528845E-001 +1.6187141775E+002  +2.4330187221E-003 -1.5531197642E+002  +3.8471859183E-003 -3.0133662604E+001  +1.7725221849E-001 +1.3504014914E+002 
2637048.811 +1.3002989225E-001 +1.6302812301E+002  +4.3791545531E-002 +7.7369645954E+001  +3.5200502415E-002 -1.3947810296E+002  +1.2456531809E+000 -3.3938226246E+001 
2762193.992 +1.2659252363E-001 +1.6952041701E+002  +5.7786087291E-002 +1.2195716909E+002  +2.9202655283E-002 +1.0167611329E+001  +1.9668508022E+000 +3.0689375224E+000 
2887339.174 +1.2274509896E-001 +1.7368946593E+002  +1.6439404572E-002 -9.0317082075E+000  +1.9181481539E-002 -4.7584787454E+001  +3.9112972485E-001 -2.8626790075E+001 
3012484.355 +1.2520502084E-001 +1.7252318930E+002  +3.0641576688E-003 -9.9902099120E+001  +4.9036982271E-003 -8.2437403543E+001  +1.0614300657E-001 -1.2838072746E+002 
3137629.537 +1.1720378333E-001 +1.7789537408E+002  +1.9397624365E-002 -9.8583575213E+001  +4.0295158923E-002 +1.2493972784E+002  +6.7959410322E-001 -1.2350864400E+001 
3262774.718 +9.8403083386E-002 +1.6531460425E+002  +8.6173610598E-003 -1.4243977859E+002  +6.8186182918E-003 +9.7456209236E+000  +8.6745320843E-002 -9.1584510552E+001 
3387919.900 +1.1242364314E-001 +1.4874846671E+002  +1.9653251238E-002 +1.3327701184E+002  +1.9640945537E-003 +3.8518798740E+000  +3.7457104084E-001 +3.6514404490E+001 
3513065.081 +1.1721875331E-001 +1.4549495216E+002  +3.2383305998E-002 -1.6487032330E+002  +3.5479279488E-002 +2.4759807724E+001  +5.6130031355E-001 +9.3336934346E+001 
3638210.263 +1.7843154550E-001 +1.4617161602E+002  +1.0319549052E-002 +1.6373622844E+002  +8.4033658851E-003 -1.5514835319E+002  +2.9144784298E-001 +1.3167745441E+002 
3763355.444 +1.6812905870E-001 +1.4968292456E+002  +3.9140594839E-002 +1.7000682682E+002  +2.8119837532E-003 -3.2809761851E+001  +3.4342214888E+000 +5.1684898401E+001 
3888500.626 +1.8109206408E-001 +1.5078869909E+002  +6.7394034410E-003 +1.3842188640E+002  +6.4030371104E-003 +1.6345878456E+001  +2.9426364177E-001 +1.3869586014E+002 
4013645.807 +1.7814783275E-001 +1.5449451622E+002  +8.4913954331E-003 -6.8147768676E+001  +2.9054654009E-003 -1.4493354919E+002  +4.4686242202E-001 +1.2724443143E+002 
4138790.989 +1.7610205277E-001 +1.4902520257E+002  +6.2544064528E-003 +1.7088357629E+002  +1.4210791045E-002 +9.8863316114E+001  +2.9120656272E-001 +1.3159395999E+002 
4263936.170 +2.0661023613E-001 +1.4481655535E+002  +9.8680917094E-003 +9.3188205455E+001  +1.8051424353E-002 +1.6585421132E+002  +3.8007412981E-001 +6.6292622658E+001 
4389081.352 +2.0812197521E-001 +1.4619387794E+002  +8.7291735381E-003 +1.0352308512E+002  +9.5740108754E-003 -3.0316217751E+000  +5.5115656626E-001 +9.0672405483E+001 
4514226.533 +2.3611566579E-001 +1.3611052660E+002  +1.0749912832E-002 -1.1123322928E+002  +7.1270909960E-003 +9.8274373393E+001  +4.9251138660E-001 +1.1515824761E+002 
4639371.715 +3.3906697972E-001 +1.1695357696E+002  +2.2563218280E-002 -1.2156227065E+002  +8.3513085223E-003 +1.4777265481E+002  +1.8073652628E+000 +8.3593176038E+001 
4764516.896 +4.1041832772E-001 +1.2126473662E+002  +9.5725874805E-002 +1.6628593138E+001  +5.4246899385E-002 +5.8248971707E+001  +2.6655491245E+000 -4.6422252807E+000 
4889662.078 +3.7734572759E-001 +1.3220725788E+002  +2.8038380300E-002 -1.0456125182E+002  +2.2887671874E-002 +1.2538463421E+002  +1.3179137732E+000 -2.9843988367E+001 
5014807.259 +4.2853004353E-001 +1.3316923265E+002  +4.3861492561E-002 -1.6850401262E+002  +1.1741877788E-001 -9.7397113512E+001  +1.0301997853E+001 -1.5026080901E+002 
5139952.441 +2.7477326709E-001 +1.3593330865E+002  +1.1373545433E-001 +1.6527423794E+002  +1.1116998927E-001 +1.7437520497E+002  +1.4546639982E+001 +1.2148550404E+002 
5265097.622 +3.7704213106E-001 +1.3635164225E+002  +1.5123204278E-002 +1.7549746765E+002  +4.0513748174E-003 +7.1003043484E+001  +2.8402066652E+000 +1.2723659498E+002 
5390242.804 +3.5509103406E-001 +1.2973959529E+002  +2.1015686139E-002 +1.1106239924E+002  +2.3233773398E-002 -1.1155982961E+002  +3.0753669195E+000 +1.1563547616E+002 
5515387.985 +4.6249441164E-001 +1.3462592812E+002  +1.7002450159E-002 -1.7833689099E+001  +1.1069403757E-002 +5.0180412664E+001  +2.4908219164E+000 +1.1509122796E+002 
5640533.166 +4.4604262923E-001 +1.3343422293E+002  +1.5950266890E-002 +1.5601543782E+002  +1.4183337761E-002 -1.6721836251E+002  +2.8180772001E+000 +7.6355212962E+001 
5765678.348 +5.0303995650E-001 +1.2802532678E+002  +1.8170235833E-002 -1.4748184195E+002  +2.8699497193E-002 -1.6956484029E+002  +2.1887162134E+000 +7.9608648744E+001 
5890823.529 +5.8426602768E-001 +1.2448715410E+002  +3.7630223941E-002 +1.4097521274E+002  +9.3136407500E-003 +8.5649052217E+001  +1.9826756327E+000 +3.5274599009E+001 
6015968.711 +6.0258799515E-001 +1.1875557748E+002  +2.2978086619E-002 +8.8082564388E+001  +2.7326698377E-002 +1.2226214211E+002  +1.7533669337E+000 +5.3859643189E+001 
6141113.892 +7.7702051934E-001 +1.1783253079E+002  +2.2418436078E-002 +1.0229624984E+002  +1.2408568406E-002 +1.4196032117E+002  +1.5085206137E+000 +4.9727035598E+001 
6266259.074 +9.4661623845E-001 +1.0232166554E+002  +3.8028870955E-002 +1.2372387615E+002  +1.7764243960E-002 +1.7487700096E+002  +1.6703929376E+000 +2.4688404735E+001 
6391404.255 +1.0071989887E+000 +8.6972341992E+001  +2.7008091679E-002 +1.5459571473E+002  +2.0093773665E-002 -1.7175576832E+002  +1.2449199164E+000 +1.6848156908E+001 
6516549.437 +1.1433886199E+000 +8.9432229316E+001  +1.5255220466E-002 -1.0245265477E+002  +2.2642775294E-002 +1.6830315692E+001  +1.7811508632E+000 +1.5407078503E+001 
6641694.618 +1.4153465597E+000 +8.7852773420E+001  +1.4866565332E-002 +1.2562021862E+002  +1.7532973551E-002 +3.8769110657E+001  +1.4234459261E+000 +9.8144665664E+000 
6766839.800 +1.4753606702E+000 +6.7221306513E+001  +8.4374552479E-004 -5.2399163032E+001  +1.4516490081E-002 +1.6623391832E+002  +1.2268011048E+000 -3.3162995596E+000 
6891984.981 +2.0326820288E+000 +3.0473540298E+001  +1.4730699260E-002 -1.5600949411E+002  +3.4996577152E-002 +7.1182027170E+001  +1.3994191781E+000 -9.4163355813E+000 
7017130.163 +1.6014282769E+000 +2.8323518437E+001  +9.5933697632E-003 +3.4925107000E+001  +3.7062859153E-002 +5.4650344176E+001  +1.2661841061E+000 -1.2623383391E+001 
7142275.344 +1.8615477102E+000 +1.5385682823E+001  +1.5382811707E-002 -1.3066872409E+002  +1.2936986285E-002 -4.4364664028E+000  +1.4600507364E+000 -1.3919456266E+001 
7267420.526 +1.5507881959E+000 +4.8691402932E+000  +1.6544521730E-002 +1.2222236668E+002  +6.4890249306E-003 +1.2268291604E+002  +1.1521362162E+000 -5.5218013482E+000 
7392565.707 +1.2987773269E+000 +4.4860655100E+000  +4.6193401642E-003 +1.1624010548E+002  +9.5136389362E-003 +5.2296158751E+001  +1.3164231326E+000 -1.4070612420E+001 
7517710.889 +1.2043557853E+000 +5.2517543713E+000  +7.4580519828E-003 +1.2955295994E+002  +3.7883853668E-003 +1.5191184805E+002  +1.1079092887E+000 -4.0088679025E+000 
7642856.070 +1.0263618241E+000 +1.9045120552E+000  +1.1743210757E-002 -1.2479150497E+001  +6.7035241457E-003 +1.2422605498E+002  +9.9108773086E-001 -4.3933928085E+000 
7768001.252 +9.8794649156E-001 +8.3217560343E+000  +2.8868781760E-004 +1.6353379353E+002  +3.6557212056E-003 -1.7462594400E+002  +1.0183692611E+000 -6.4187292451E+000 
7893146.433 +8.5887613473E-001 +8.8425153164E+000  +5.3246058916E-003 +6.1766723274E+001  +3.3553291370E-003 +1.6453794832E+002  +9.2969518456E-001 +1.7243129615E+000 
8018291.615 +9.3979271446E-001 +1.3271162705E+000  +1.4259537040E-002 +4.2519635008E+001  +5.0641145045E-003 +4.4762362769E+001  +8.4808009260E-001 -3.3400208310E+000 
8143436.796 +7.5503922878E-001 +7.2341870878E+000  +2.6402026902E-003 +4.6893806249E+001  +5.5222605938E-003 +1.2068269110E+002  +8.4850842796E-001 +3.6519913904E-001 
8268581.977 +7.4048228505E-001 +7.6585644583E+000  +9.3211136081E-003 +4.0746115255E+001  +4.6427555762E-003 +1.1175498873E+002  +7.7268598977E-001 -2.4611285359E+000 
8393727.159 +6.2542307407E-001 +7.0867395225E+000  +2.5089202156E-003 +8.6239721112E+001  +4.1945647283E-003 +4.9349942410E+001  +7.2288181165E-001 +2.3576621718E+000 
8518872.340 +6.7008029669E-001 +7.1907105146E+000  +4.0396519538E-003 -3.7598448801E+001  +8.0252155935E-003 +2.1538105385E+001  +6.6431701065E-001 +1.6037809520E+000 
8644017.522 +7.0723598243E-001 +4.1426366378E+000  +1.4194396627E-003 +9.3041280863E+001  +1.1055075972E-002 +1.1690980201E+002  +7.0897845905E-001 +2.2350277410E+000 
8769162.703 +5.9885514695E-001 +4.0633366574E+000  +5.3730441823E-003 +7.7872224238E+001  +3.3398260473E-003 +2.0870111714E+001  +6.5598513170E-001 +1.1805864137E+000 
8894307.885 +6.4372989187E-001 +5.3899946708E+000  +5.9629913661E-003 +8.0653702527E+001  +3.6099388270E-003 +1.0436129426E+002  +6.8600971078E-001 +1.9187434193E+000 
9019453.066 +6.0497243764E-001 +4.2987244299E+000  +3.0596692557E-003 +6.5662235474E+001  +2.0914198334E-003 +9.9935372280E+001  +6.4456043592E-001 +3.3162680118E+000 
9144598.248 +5.6552817309E-001 +3.9004242520E+000  +4.4737053595E-003 +1.0579036996E+002  +1.3774837828E-003 +6.1825451701E+001  +6.0088744789E-001 +6.0535108619E+000 
9269743.429 +5.8400324377E-001 +8.3943312525E+000  +2.3744298008E-003 +7.0363311317E+001  +3.5646699351E-003 +9.9042329542E+001  +5.5574627395E-001 -1.9793674740E+000 
9394888.611 +5.8165702306E-001 +3.9682341669E+000  +5.7800979233E-003 +4.7471296913E+001  +6.5019393724E-003 +1.4202636674E+002  +5.9023825142E-001 -8.5859463456E+000 
9520033.792 +5.5709402601E-001 +4.6304466282E+000  +3.3165939979E-003 +7.3189866434E+001  +4.8172725024E-003 +6.8738230652E+001  +5.5664565381E-001 +2.4012465987E+000 
9645178.974 +5.1578174997E-001 +2.7299823097E+000  +4.5322323182E-003 +8.5988964223E+001  +3.8039509601E-003 +7.9015564529E+001  +5.8673751431E-001 -6.4120255301E+000 
9770324.155 +5.4630586664E-001 +2.1846050999E+000  +4.4210599528E-003 +3.7293891857E+001  +6.3682779410E-003 +7.6163904725E+001  +5.3868421625E-001 -3.4035020756E-001 
9895469.337 +5.4987302639E-001 +3.3519444146E+000  +7.3877711285E-003 +6.2624419186E+001  +3.8564170823E-003 +6.9062043024E+001  +5.5610955445E-001 -2.2883169673E+000 
10020614.518 +5.5751685928E-001 +1.8634972483E+000  +4.4046955455E-003 +4.9010132027E+001  +1.4982124520E-003 +3.2272585643E+001  +5.6864208054E-001 -5.6792827259E+000 
10145759.700 +5.5773695100E-001 -8.6091506766E-001  +2.2284350594E-003 +1.4396566664E+001  +5.0638000649E-003 +5.7544336972E+001  +5.6292980142E-001 -3.3425491916E+000 
10270904.881 +5.2064575172E-001 +5.0830002415E+000  +4.3701161364E-003 +9.9692225694E+001  +5.3938116135E-003 +6.5634302052E+001  +5.7877549231E-001 -9.3916350219E-001 
10396050.063 +5.7447742807E-001 +4.6637000200E+000  +3.5674742773E-003 +5.6896593914E+001  +3.3795366434E-003 +7.3918674316E+001  +5.6488746666E-001 -2.6387452496E+000 
10521195.244 +5.5152021277E-001 +7.2985002669E+000  +5.0914346653E-003 +5.7277671826E+001  +4.1546191148E-003 +9.8219849465E+001  +5.6518317885E-001 -1.6112792272E+000 
10646340.426 +5.4008276635E-001 +3.6447618286E+000  +3.1757057040E-003 +5.1977334270E+001  +6.0638338585E-003 +1.3346524541E+002  +5.7581767069E-001 -1.6448091912E+000 
10771485.607 +6.0238827406E-001 +6.2702338368E+000  +3.1535389280E-003 +8.8519314006E+001  +4.3170415280E-003 +9.2332040754E+001  +5.5601512916E-001 +4.3262524301E-001 
10896630.788 +5.9614407898E-001 +5.2512134654E+000  +3.6341808179E-003 +7.8845927292E+001  +3.6758758473E-003 +8.3261094771E+001  +6.0462905627E-001 +1.4892123485E+000 
11021775.970 +6.0664309796E-001 +7.7113887135E+000  +4.5261084118E-003 +4.9706746842E+001  +4.1182042452E-003 +5.3122609141E+001  +6.0135439061E-001 -1.4984639649E-001 
11146921.151 +5.9777501251E-001 +8.4270088947E+000  +5.4899839231E-003 +8.5109224514E+001  +5.4822509227E-003 +5.6523385430E+001  +6.2112511499E-001 +1.1286243333E-001 
11272066.333 +6.2793343718E-001 +6.0288188929E+000  +5.4486281708E-003 +8.8673038204E+001  +3.7504370213E-003 +8.7450014309E+001  +6.4707978868E-001 +1.6844762491E+000 
11397211.514 +5.9590596969E-001 +4.4157811287E+000  +6.3626640046E-003 +7.0602103572E+001  +6.9191898295E-003 +9.6796305223E+001  +6.3533969350E-001 +2.7998858580E-001 
11522356.696 +6.2078238070E-001 +6.4705309907E+000  +6.3992288375E-003 +9.4702210536E+001  +4.4684287798E-003 +5.2279419749E+001  +6.4979166482E-001 +1.2516389757E+000 
11647501.877 +6.1913534468E-001 +5.2525705474E+000  +6.1353785219E-003 +5.9414404342E+001  +4.2880771470E-003 +7.6018645480E+001  +6.7552015895E-001 +2.0601748673E+000 
11772647.059 +6.4224209722E-001 +7.0319934693E+000  +3.9194488695E-003 +6.4309689040E+001  +4.9884095900E-003 +5.8376371367E+001  +6.6190584575E-001 +5.4171808610E-001 
11897792.240 +6.3445799428E-001 +4.0768510926E+000  +7.9381441705E-003 +8.7243338547E+001  +5.9065225176E-003 +8.6544679617E+001  +6.6273191771E-001 +1.3364348127E+000 
12022937.422 +6.6075672408E-001 +4.9432238971E+000  +6.0608372708E-003 +5.8443573738E+001  +6.3891446036E-003 +9.1089514020E+001  +6.9660411274E-001 +3.0906137879E+000 
12148082.603 +6.5585740862E-001 +6.7933848143E+000  +8.3290212777E-003 +7.5168786974E+001  +3.3917655863E-003 +9.1202133524E+001  +6.7084811668E-001 +7.0861209092E-001 
12273227.785 +7.0345000727E-001 +3.0249033396E+000  +6.0364989023E-003 +6.9437060147E+001  +5.7210236230E-003 +9.4483841793E+001  +6.9375988456E-001 -2.9033552547E-001 
12398372.966 +7.1032412408E-001 +2.9678655176E+000  +5.6359753720E-003 +8.0797422993E+001  +5.4147536016E-003 +1.0142296564E+002  +7.3183071990E-001 -6.2224686490E-001 
12523518.148 +7.3509069069E-001 +2.0122764184E+000  +6.6083001895E-003 +6.4948479743E+001  +4.3182530955E-003 +6.4920519969E+001  +7.4460433466E-001 +1.5164903223E-001 
12648663.329 +7.5146761951E-001 +1.7487048266E+000  +4.5020752663E-003 +6.0487177704E+001  +5.9373031394E-003 +7.6811704007E+001  +7.4838274672E-001 -2.2520853492E-001 
12773808.511 +7.5956694308E-001 +2.1190680030E+000  +6.2099397108E-003 +7.2477866296E+001  +6.8912474655E-003 +8.6614540678E+001  +7.6377572077E-001 -1.9409996174E+000 
12898953.692 +7.8286282670E-001 +5.1798729906E-001  +6.2379747494E-003 +7.5300113535E+001  +7.6453374972E-003 +7.8470956619E+001  +7.9859576173E-001 -1.0157969379E+000 
13024098.874 +7.7525608328E-001 -2.9844676306E-002  +6.8769805492E-003 +8.0089494974E+001  +7.0103275273E-003 +7.4638201463E+001  +8.0569089629E-001 -4.8395687161E-001 
13149244.055 +8.3473336032E-001 +4.2533945415E-001  +6.0882375187E-003 +7.9645092080E+001  +6.2857796013E-003 +8.7216870696E+001  +8.0775794517E-001 -1.1076955726E+000 
13274389.237 +8.2613630087E-001 -4.9159620412E-001  +6.4511555388E-003 +7.5338878321E+001  +6.4539492157E-003 +8.4941859647E+001  +8.1723077568E-001 -1.7612361952E+000 
13399534.418 +8.3597169104E-001 -1.8787819625E+000  +9.2899437333E-003 +7.7584038893E+001  +7.3506624778E-003 +6.4803283830E+001  +8.5742911834E-001 -3.7316581716E+000 
13524679.599 +8.5582675770E-001 -9.2826695693E-001  +7.5320545257E-003 +7.4692102572E+001  +7.5324006690E-003 +6.6131140570E+001  +8.6667128599E-001 -1.7727710226E+000 
13649824.781 +8.6609415461E-001 -1.1509668256E+000  +8.5695052986E-003 +8.1997830099E+001  +6.8083814036E-003 +9.6855549051E+001  +8.8196693933E-001 -3.5630846151E+000 
13774969.962 +8.7453758390E-001 -2.3147299942E+000  +6.9860900389E-003 +8.6216191587E+001  +7.9657911641E-003 +7.8795389575E+001  +9.0426958056E-001 -4.9160721973E+000 
13900115.144 +9.1162900043E-001 -4.2247180573E+000  +7.0296463453E-003 +7.2957576459E+001  +7.4898916455E-003 +7.4701438150E+001  +9.2014894426E-001 -3.2753637845E+000 
14025260.325 +9.4092697461E-001 -3.3688156609E+000  +8.3419286428E-003 +7.8598671424E+001  +6.2231987939E-003 +7.7057173293E+001  +9.4362686878E-001 -4.5794592526E+000 
14150405.507 +9.5734138688E-001 -4.0653930926E+000  +7.2543973298E-003 +8.4284880150E+001  +6.2757975854E-003 +7.9944548852E+001  +9.4461252589E-001 -4.5906658575E+000 
14275550.688 +9.7663982380E-001 -6.0495707247E+000  +7.1015470547E-003 +7.0951965242E+001  +7.0067459038E-003 +9.2009915851E+001  +9.5031699974E-001 -4.5184458773E+000 
14400695.870 +1.0000325674E+000 -5.2725856690E+000  +7.4037431251E-003 +7.7230297437E+001  +8.7541613940E-003 +7.4595123954E+001  +9.9791695941E-001 -5.0194377552E+000 
