!  2-Port S-parameters saved by WinCal
! VAR MeasName=S-Parameters (CALIBRATED_DATA) read from VNA (P5004A)
! VAR MeasDate=27/08/2024 16:21:53
! VAR NAME=S2_r1c9_RESET3_9k-100M_3
! VAR FILENAME=S2_r1c9_RESET3_9k-100M_3.S2P
! VAR DATE=27/08/2024 16:21:53
! VAR PHYS_PORTS=1,2
! VAR ObjTypeName=DATASET
! VAR IndexType=Frequency
!
# Hz S MA R 50
9000.000 +7.4256562032E-002 -1.3427351637E+002  +4.3219068240E-002 +1.2351318345E+002  +5.1258402767E-002 +1.0825718141E+002  +3.3055060975E-001 -7.9663060390E+001 
134145.181 +1.1157840992E-001 +1.6944888650E+002  +5.4584142421E-004 -1.0280349437E+002  +1.7682708193E-004 -1.3864552352E+002  +2.3990082521E-001 -1.7081141465E+002 
259290.363 +1.1139691471E-001 +1.7003634974E+002  +4.3945534310E-004 +1.1442282712E+002  +4.2778391548E-004 -1.5575804965E+002  +2.4536597024E-001 -1.6746605813E+002 
384435.544 +1.1500029122E-001 +1.7007166801E+002  +7.0935015213E-004 -4.4725261775E+001  +5.8494457658E-004 +5.6782223830E+001  +2.4099214294E-001 -1.6860332720E+002 
509580.726 +1.1307018306E-001 +1.7163683720E+002  +2.1241469255E-003 -1.2766452217E+002  +1.2162930907E-003 +1.1701554872E+002  +2.3800825440E-001 -1.6458785107E+002 
634725.907 +1.1750030549E-001 +1.7066677548E+002  +1.0217652492E-003 +1.7888810025E+002  +5.2283496213E-004 +4.4732554502E+000  +2.4932470289E-001 -1.6536614771E+002 
759871.089 +1.1738077330E-001 +1.7056207194E+002  +2.1373143509E-004 -8.0529211110E+001  +6.0419181812E-004 -4.1145524299E+001  +2.4589583594E-001 -1.6527310286E+002 
885016.270 +1.1787651988E-001 +1.6980238234E+002  +3.1688803048E-004 -5.0154155533E+001  +9.8686875930E-004 +2.2373325194E+001  +2.3036395507E-001 -1.6692176995E+002 
1010161.452 +1.1733552930E-001 +1.7056008306E+002  +1.4362173413E-003 -7.2736356584E+001  +1.7865109796E-003 +8.5531908863E+001  +1.9435285597E-001 -1.6717936741E+002 
1135306.633 +1.1752158691E-001 +1.7066555418E+002  +1.6716660668E-003 -4.2260697503E+001  +2.3426874849E-003 +1.4327033155E+001  +1.8433099322E-001 -1.5283290827E+002 
1260451.815 +1.1964459124E-001 +1.7054060712E+002  +1.3580965483E-003 -9.3420510876E+001  +3.1317262138E-003 +1.4129257889E+002  +2.4348880375E-001 -1.5548270553E+002 
1385596.996 +1.2680565750E-001 +1.7261559369E+002  +6.6939502355E-004 +8.5265219254E+000  +6.7414946436E-004 -1.5989518621E+002  +2.5028101573E-001 -1.5893752560E+002 
1510742.178 +1.2870775537E-001 +1.7183237987E+002  +5.1341204688E-004 +2.0868395743E+001  +2.1582852223E-004 +1.5563114151E+002  +2.5929378559E-001 -1.5827828553E+002 
1635887.359 +1.2874458242E-001 +1.7186130797E+002  +3.7242104563E-004 -1.3986361062E+002  +7.3716809070E-004 -2.0231032396E+001  +2.3835894023E-001 -1.5895737912E+002 
1761032.541 +1.2732018813E-001 +1.6873907112E+002  +8.8726139089E-004 -7.1646643181E+001  +2.1433031344E-003 -7.5491858034E+001  +2.2137882163E-001 -1.5775544842E+002 
1886177.722 +1.3205041886E-001 +1.6796509585E+002  +1.1791624483E-003 +3.1356097097E+001  +1.3194458699E-003 +5.5027980734E+001  +2.1866090042E-001 -1.6219244922E+002 
2011322.904 +1.2839718015E-001 +1.6422132458E+002  +4.5086335502E-003 -9.5652181272E+001  +4.0093573346E-004 -1.9614050765E+001  +1.7946626953E-001 -1.5741388841E+002 
2136468.085 +1.3262206812E-001 +1.6549345461E+002  +1.0189033607E-003 +1.4253497988E+002  +9.5176547376E-004 -4.3511908980E+000  +2.2014123279E-001 -1.6724496461E+002 
2261613.267 +1.3201683240E-001 +1.6455953055E+002  +1.7967279241E-003 +1.1394817210E+002  +1.3710616618E-003 -1.2088040890E+002  +2.0694349912E-001 -1.7564298734E+002 
2386758.448 +1.4067038504E-001 +1.6339610703E+002  +4.2988766082E-003 -1.7271477503E+001  +4.1153022527E-003 +1.3245918626E+002  +2.4918421760E-001 +1.5276238494E+002 
2511903.630 +1.2281319338E-001 +1.6310896374E+002  +2.1232950496E-003 +1.1716050236E+002  +3.3425916887E-003 +4.1994836920E+001  +2.7543170980E-001 +1.7577046828E+002 
2637048.811 +1.2512664946E-001 +1.5816620660E+002  +1.1374446710E-002 -7.8775239164E+001  +3.3313139172E-002 -4.2934145655E+001  +4.6395623411E-001 +6.7581294282E+001 
2762193.992 +9.5410712572E-002 +1.6416521870E+002  +8.6006820296E-003 +1.1323540985E+002  +5.6317762507E-002 -1.2730816049E+002  +1.4784382515E+000 -1.4952475511E+002 
2887339.174 +9.0325824346E-002 +1.6728502081E+002  +8.3068905509E-003 -1.2694951668E+002  +1.1021265654E-002 -1.4469370607E+002  +3.4688814721E-001 -1.1699404133E+002 
3012484.355 +8.7384241713E-002 -1.5015104854E+002  +4.4182204722E-002 +1.0657294081E+002  +1.8973141619E-002 -1.2218852171E+002  +1.2447731099E+000 +1.2201131584E+002 
3137629.537 +1.0666766244E-001 +1.7395423127E+002  +2.8233225365E-003 -2.3751529257E+001  +5.0964542338E-003 +4.9154578956E+001  +4.6190991005E-001 -9.3750104643E+001 
3262774.718 +9.4420654442E-002 +1.6934069404E+002  +1.9494178134E-002 -9.2916912299E-001  +1.4656130452E-002 -2.5200248521E+001  +2.0086863280E-001 -3.2482221558E+001 
3387919.900 +1.2065950336E-001 +1.5329878779E+002  +5.9721011265E-003 +5.2165887591E+001  +7.1784724378E-003 +8.6926643626E+001  +5.5295836097E-001 -6.0116352789E+001 
3513065.081 +1.3783421209E-001 +1.5840393615E+002  +1.4883249700E-002 -1.2481240993E+002  +2.4450192645E-003 -1.5112890128E+002  +4.2922302124E-001 +1.7516591789E+001 
3638210.263 +1.8157166908E-001 +1.5148480157E+002  +8.0121711888E-003 -1.2595522990E+002  +1.0238410988E-002 -7.3417904751E+001  +1.8806980333E+000 +1.7608158261E+002 
3763355.444 +1.6942011930E-001 +1.3581680186E+002  +4.6338471812E-003 -3.5149952573E+001  +6.9126802490E-003 -1.6701492189E+002  +5.3490433375E-001 +1.3485760285E+002 
3888500.626 +1.6123395547E-001 +1.3903641145E+002  +8.2001479177E-003 -1.7331600234E+002  +1.0722803361E-002 -1.0910464562E+002  +4.3050650946E-001 +1.2464438722E+002 
4013645.807 +2.0867664803E-001 +1.3745689448E+002  +6.6006913968E-003 +7.9221251153E+001  +1.3252833039E-002 +1.8232784152E+001  +3.5093894553E-001 +1.0564112195E+002 
4138790.989 +1.6651761558E-001 +1.3723122895E+002  +2.0445946621E-002 +1.7477198564E+002  +1.4631728374E-002 -1.2734998334E+002  +1.1359459087E+000 +8.9070484653E+001 
4263936.170 +1.7278835434E-001 +1.3522096844E+002  +1.6683668672E-002 +1.5142686051E+002  +1.5408978117E-002 -6.0737445753E+000  +1.3234150090E+000 +8.8603640615E+001 
4389081.352 +2.5036026134E-001 +1.3855198478E+002  +5.4669990922E-003 +3.5438850075E+001  +7.4116997461E-003 -1.5085078552E+002  +6.9089265550E-001 +7.0286771049E+001 
4514226.533 +2.3788634318E-001 +1.3734821317E+002  +2.6192509396E-002 -1.1783079297E+002  +7.0183654704E-003 +4.9189825199E+001  +1.2718263676E+000 +1.0671414608E+002 
4639371.715 +2.6919235233E-001 +1.0243618102E+002  +1.5073666396E-002 -4.4230144544E+001  +3.6766415480E-002 +7.5997603785E+001  +1.6381967578E+000 +1.0084832046E+002 
4764516.896 +2.7894077501E-001 +1.2514204395E+002  +2.3106828252E-002 -1.7947490844E+002  +4.4783493197E-003 +5.0955535876E+001  +2.0246241012E+000 +2.2055055046E+001 
4889662.078 +5.3282490261E-001 +1.2991709958E+002  +5.3273638964E-002 -5.1598157892E+001  +8.8104312521E-002 -1.5395532708E+002  +4.2129470644E+000 -5.3324941771E+000 
5014807.259 +4.0915891818E-001 +1.2251870920E+002  +4.9877803194E-002 +4.3388259084E+001  +9.7015416339E-002 +4.6604967251E-001  +2.5867824042E+000 +7.7820083250E+000 
5139952.441 +4.3156176930E-001 +1.3217809881E+002  +6.4123523276E-002 -2.6054855273E+001  +4.9626687273E-002 -8.9039087967E+001  +5.9685012993E+000 -9.8129057200E+001 
5265097.622 +4.3010738994E-001 +1.2608072070E+002  +2.4017734475E-002 +1.6480461222E+002  +8.3521627733E-003 -4.4446048707E+001  +2.2372311775E+000 +1.2179647264E+002 
5390242.804 +4.6856143159E-001 +1.2889998336E+002  +1.0335858950E-002 +8.9779691916E+001  +2.4061223567E-002 +1.7407467185E+002  +1.3820265537E+000 +1.1932152725E+002 
5515387.985 +4.2382592777E-001 +1.2608706514E+002  +1.5553817641E-002 +1.2996180304E+002  +2.0159268474E-002 +1.5128999177E+002  +3.1874552495E+000 +8.2950043209E+001 
5640533.166 +5.3658000385E-001 +1.3146505920E+002  +5.0781098246E-003 +1.0803038212E+002  +1.0992506046E-002 -1.3149154793E+002  +1.6618343007E+000 +8.7105225155E+001 
5765678.348 +5.1232225543E-001 +1.2798384556E+002  +7.3905568213E-002 +4.5898008909E+001  +6.3601384052E-003 +1.7032215852E+002  +5.0402079320E+000 +5.0973094062E+001 
5890823.529 +4.9308180700E-001 +1.2062659383E+002  +2.8089143645E-002 -1.6976130142E+002  +8.9987773914E-003 +9.8985581258E+001  +1.1995106951E+000 +6.8420392683E+001 
6015968.711 +5.4209500354E-001 +1.2589980808E+002  +1.0190182919E-002 -5.5892078882E+001  +7.9477758983E-003 +4.6994382492E+001  +1.6901918944E+000 +3.5141155202E+001 
6141113.892 +7.2904824018E-001 +1.2083419669E+002  +1.4172396978E-002 -1.3589785961E+002  +1.7155434266E-002 +4.7742245358E+001  +2.1031615517E+000 +3.6539451768E+001 
6266259.074 +7.3396107165E-001 +9.8809538962E+001  +1.7482223170E-002 -6.3408375707E+000  +1.2987484359E-002 +8.9602769728E+001  +1.7981081656E+000 +1.8886748106E+001 
6391404.255 +9.6564716820E-001 +9.0508933845E+001  +1.6709328033E-002 +1.1899709028E+002  +2.0399384266E-002 -2.2151028219E+001  +1.6879807405E+000 +2.6107006071E+000 
6516549.437 +1.0410517741E+000 +7.3933758139E+001  +1.5765496912E-002 +1.0410564900E+002  +2.2442662038E-002 +1.5766490731E+002  +1.9192420895E+000 +9.2835046478E+000 
6641694.618 +1.8970875869E+000 +7.0647761997E+001  +1.2769580694E-002 -1.2502074667E+002  +1.7076995988E-002 +6.1173759409E+000  +1.1555263831E+000 +6.8251499186E+000 
6766839.800 +2.0667440765E+000 +7.1145453807E+001  +3.0300120321E-003 +7.0207168209E+001  +5.4226663609E-003 +5.7552764951E+001  +1.2891717380E+000 -5.4227618254E-001 
6891984.981 +1.7779071919E+000 +3.5202959401E+001  +2.6107380806E-003 +1.6265155940E+002  +1.2842298284E-002 +5.4937902068E+001  +1.3424867186E+000 -1.2135303843E+001 
7017130.163 +1.5919425901E+000 +1.7596735972E+001  +2.4953331066E-002 +1.2658090781E+002  +4.6023639883E-003 +7.5347611497E+001  +1.3762491292E+000 -2.2274855679E+001 
7142275.344 +2.0002287490E+000 +1.3854266378E+001  +3.2068665140E-002 +5.4937279997E+001  +1.7671804477E-002 +8.0961738887E+001  +1.3424042409E+000 -1.0917415908E+001 
7267420.526 +1.6652346864E+000 -1.9044579817E+000  +1.0616102572E-002 +2.1285200696E+001  +1.6992723063E-002 +1.7113021652E+001  +1.2677712645E+000 -1.2301532891E+001 
7392565.707 +1.3471679987E+000 -2.5750459756E+000  +4.9906370539E-003 -4.7669781114E+001  +1.5976569795E-002 +3.8763541222E+001  +1.3276487090E+000 -5.2305972211E+000 
7517710.889 +1.1177813434E+000 +5.9671905592E-001  +4.3550714450E-003 +2.4629952652E+001  +1.0603485987E-002 +9.7164541367E+001  +1.1843057553E+000 -3.7157025125E+000 
7642856.070 +1.0385481409E+000 +3.2256077443E+000  +8.9175976416E-003 +2.0131717720E+001  +4.1167575218E-003 -4.7227252105E+001  +1.1241514854E+000 -3.6317020061E+000 
7768001.252 +1.0139516919E+000 +4.2926288814E+000  +8.3325058462E-003 +1.5648358677E+002  +2.8112211437E-003 +1.4466628776E+001  +9.7963640337E-001 -2.2549945870E+000 
7893146.433 +9.2623807531E-001 +4.9893712568E+000  +9.7104866974E-003 +4.8387007581E+001  +1.0341967460E-002 +3.2782798371E+001  +9.5023646658E-001 -2.9934727770E+000 
8018291.615 +7.8240116170E-001 +9.6131584144E+000  +8.6233020062E-003 +7.0111168060E+001  +9.1863446852E-003 +1.0797454218E+002  +8.1350453082E-001 -1.7346075214E+000 
8143436.796 +7.4142193659E-001 +1.4336825619E+000  +8.6721563984E-003 +6.4867917971E+001  +1.9742592089E-003 +7.5414843038E+001  +8.4603980647E-001 +2.2249137640E+000 
8268581.977 +8.3534088022E-001 +7.1883890300E+000  +8.1874421856E-003 +5.9576176460E+001  +3.1191497956E-003 +1.5222901476E+002  +7.7500458598E-001 -3.4529254245E+000 
8393727.159 +7.1074952509E-001 +9.2409622487E+000  +2.6596363273E-003 -1.0626190647E+002  +8.1137739235E-003 +1.7808979065E+001  +7.9917839309E-001 +5.7931086520E+000 
8518872.340 +6.5631359692E-001 +1.2372436417E+001  +5.6383016723E-003 +3.0165459114E+001  +4.5948305046E-003 +7.5646227076E+001  +7.0918058763E-001 +3.1241352708E+000 
8644017.522 +6.3502685436E-001 +6.9508250841E+000  +2.2122820709E-003 +5.2722407164E+001  +5.1337966633E-003 +9.3585533983E+001  +6.9947654585E-001 -3.9435085365E+000 
8769162.703 +6.1021172147E-001 +8.8468880119E+000  +1.9408692628E-003 +3.1185532187E+001  +8.8530046580E-003 +7.0603013159E+001  +7.1737135742E-001 -2.9080853163E+000 
8894307.885 +5.8713216565E-001 +4.7662571094E+000  +1.7578258297E-003 +1.1782620906E+002  +9.2478322147E-003 +5.7117499104E+001  +6.0390384835E-001 -4.3298646736E-001 
9019453.066 +5.3209699249E-001 +8.8698568487E+000  +7.5730194751E-003 +6.5377867896E+001  +5.0610500562E-003 +7.7333713467E+001  +6.1023114563E-001 +2.5896725772E+000 
9144598.248 +5.5194614914E-001 +4.5228046089E+000  +4.3329242797E-003 +3.1320929152E+001  +1.5276102707E-003 +7.1560814986E+001  +6.0532327532E-001 -2.3488132024E+000 
9269743.429 +5.4152347462E-001 +7.3432131611E+000  +3.6025202799E-003 +3.0156439512E+001  +2.6709264960E-003 +1.0833669628E+002  +6.1911721351E-001 -2.1664194335E+000 
9394888.611 +5.5451637313E-001 +8.7711601251E+000  +5.4614512867E-003 +7.3468008801E+001  +5.7552367595E-003 +7.9617552200E+001  +5.7969740073E-001 -4.0900432348E+000 
9520033.792 +5.4240592457E-001 +6.0605483850E+000  +3.8665392568E-003 +7.1342869219E+001  +4.8943656043E-003 +4.7255788746E+001  +5.8884276946E-001 -4.4922491060E+000 
9645178.974 +5.9319514331E-001 -1.5842211248E+000  +4.4461228879E-003 +4.1064690784E+001  +3.6422182068E-003 +1.1337012517E+002  +5.1914451103E-001 -3.5765395469E+000 
9770324.155 +5.6455743687E-001 +3.1600938005E-001  +5.2253111702E-003 +8.5052652923E+001  +7.4127927050E-003 +5.4975337474E+001  +5.9522124622E-001 -6.2459451231E+000 
9895469.337 +5.4755046266E-001 +2.6246183253E-001  +5.0455773622E-003 +7.4936404726E+001  +5.3590413537E-003 +7.2362569585E+001  +6.1360554199E-001 -1.1133580031E+001 
10020614.518 +5.3800140550E-001 +5.1011986862E+000  +2.6629905728E-003 +5.9954918490E+001  +5.8726177791E-003 +7.0822495374E+001  +6.1663293927E-001 -6.2411700779E+000 
10145759.700 +5.3345161524E-001 +3.6496697088E+000  +6.9335994777E-003 +9.1280175257E+001  +4.7606805920E-003 +7.8916617273E+001  +6.1538933959E-001 -3.4732235034E+000 
10270904.881 +5.7053021081E-001 +5.6468951065E+000  +2.5284130865E-003 +7.1152387151E+001  +2.7979719510E-003 +6.9209867005E+001  +5.8138436600E-001 -3.2244550171E+000 
10396050.063 +5.7270636398E-001 +1.5668085238E+000  +2.8389196327E-003 +5.2315743465E+001  +3.6103245981E-003 +7.3906173304E+001  +5.8361195131E-001 -2.8602293738E+000 
10521195.244 +5.8710670121E-001 +8.7682065035E+000  +3.7129336469E-003 +5.1720800406E+001  +6.7303143398E-003 +3.8418865464E+001  +5.6744808099E-001 +1.7864179155E+000 
10646340.426 +5.5036286685E-001 +1.0836465925E+001  +6.4384110353E-003 +5.4713380656E+001  +3.5085476898E-003 +1.0180911090E+002  +5.9761082414E-001 +3.9297880205E+000 
10771485.607 +5.6637376295E-001 +7.3323179402E+000  +5.0535300139E-003 +7.2603195077E+001  +3.7448255220E-003 +9.1023301771E+001  +6.0532629496E-001 -9.1464979902E-001 
10896630.788 +5.4467537636E-001 +5.6258836072E+000  +3.1910601353E-003 +8.1886891426E+001  +6.6545582256E-003 +8.5810723584E+001  +5.7998883880E-001 -1.5079850313E+000 
11021775.970 +5.6316416910E-001 +4.8230118389E+000  +5.3566048447E-003 +6.7890669761E+001  +6.8238080304E-003 +7.3091451688E+001  +6.1241638695E-001 -2.9316657594E+000 
11146921.151 +5.6124456167E-001 +7.9726799645E+000  +3.9706022432E-003 +8.1061750749E+001  +7.8374161037E-003 +7.2519020539E+001  +6.1014501604E-001 +3.3164570613E+000 
11272066.333 +5.8343759642E-001 +2.6624822796E+000  +4.3205197512E-003 +7.3782908148E+001  +6.5903299071E-003 +7.4955365292E+001  +6.4724352091E-001 -3.5849023068E+000 
11397211.514 +6.0048423165E-001 +6.7715534188E+000  +6.3228115472E-003 +6.2686191550E+001  +5.5594281500E-003 +9.0233384807E+001  +6.7355869658E-001 +7.2902432130E-001 
11522356.696 +6.2704807957E-001 +4.2648697423E+000  +4.8270006572E-003 +7.3383548164E+001  +6.5698630224E-003 +7.1570987443E+001  +6.4723900489E-001 -5.3000652843E-001 
11647501.877 +6.4488375770E-001 +3.9990657386E+000  +6.2684389340E-003 +7.9204334015E+001  +6.5284750303E-003 +7.4954882941E+001  +6.5165202030E-001 +9.0131224457E-001 
11772647.059 +6.5703761803E-001 +7.0608251189E+000  +6.7361659478E-003 +7.8470378902E+001  +3.5336085230E-003 +9.3842909270E+001  +6.5636132609E-001 +2.3629889202E+000 
11897792.240 +6.8106946022E-001 +5.6303162300E+000  +6.3361721644E-003 +6.4460376546E+001  +4.1266467956E-003 +7.3367892727E+001  +6.5907841899E-001 +1.8815878726E+000 
12022937.422 +6.4386235547E-001 +5.1616546800E+000  +6.4916487362E-003 +5.4213906297E+001  +5.8595682727E-003 +1.2320098971E+002  +6.8864757871E-001 +6.1204297667E-001 
12148082.603 +6.9198622341E-001 +3.6538648049E+000  +5.6885941340E-003 +4.6992573648E+001  +5.7608374715E-003 +7.4321827738E+001  +7.0923784474E-001 +6.4609036035E-001 
12273227.785 +6.6046461046E-001 +1.7849147133E+000  +6.4285253899E-003 +6.3757249319E+001  +6.5381602228E-003 +6.6566501144E+001  +6.9194054199E-001 -7.6691817866E-001 
12398372.966 +7.0245515953E-001 +4.0552826752E+000  +6.5402252796E-003 +8.1013903352E+001  +7.6751525690E-003 +6.7596147126E+001  +7.3591901662E-001 +6.6436946836E-002 
12523518.148 +7.5047170125E-001 +3.0542486951E+000  +4.9859069591E-003 +6.3951885459E+001  +6.5823338414E-003 +8.2129893684E+001  +7.4569429213E-001 +1.4558054782E+000 
12648663.329 +7.2093827071E-001 +2.1141447703E+000  +8.4810157818E-003 +7.9395607309E+001  +4.2898157728E-003 +7.6227031002E+001  +7.5579571733E-001 +1.5679941819E+000 
12773808.511 +7.2329663572E-001 +1.1901533761E+000  +7.1504987532E-003 +5.2745723655E+001  +6.6672597705E-003 +7.9830671959E+001  +7.7656640445E-001 -1.4093517558E+000 
12898953.692 +7.4793435871E-001 +2.0845923803E+000  +8.2067384120E-003 +7.7172458939E+001  +5.9114993023E-003 +7.3896559699E+001  +7.9184893126E-001 -1.6623729278E-002 
13024098.874 +7.9534794265E-001 +1.3228287005E+000  +5.7226992830E-003 +7.6353275342E+001  +4.9877294382E-003 +7.6376888322E+001  +8.1606012653E-001 -1.1533950762E+000 
13149244.055 +7.8227757714E-001 -4.4949663295E-001  +7.0256241543E-003 +7.1970241558E+001  +6.9025983718E-003 +7.2992703297E+001  +8.0545635946E-001 -2.6189335724E+000 
13274389.237 +8.1652659503E-001 -8.4847557368E-001  +7.3381377235E-003 +7.1316390241E+001  +6.8863409116E-003 +7.6226167669E+001  +8.2762511299E-001 -3.2706229303E+000 
13399534.418 +8.3719878653E-001 -1.5697062657E+000  +7.0549431958E-003 +7.8128934776E+001  +7.0816421411E-003 +7.1400510414E+001  +8.3747402157E-001 -3.2499100504E+000 
13524679.599 +8.6995460220E-001 -2.7103581721E+000  +6.4153283207E-003 +8.5484899853E+001  +6.5317901466E-003 +9.2613543915E+001  +8.7198491718E-001 -2.9474649319E+000 
13649824.781 +8.6853634472E-001 -1.7586722655E+000  +7.4401475779E-003 +7.3987290120E+001  +7.5032388435E-003 +8.9065156792E+001  +8.6937811516E-001 -2.4895339927E+000 
13774969.962 +8.7189167280E-001 -1.5740792400E+000  +8.4744999030E-003 +7.7734988582E+001  +7.8860644516E-003 +6.3933144326E+001  +8.7834395970E-001 -2.6866242607E+000 
13900115.144 +8.9434586642E-001 -3.9792677214E+000  +8.0397380616E-003 +6.5784414859E+001  +6.2801379914E-003 +7.5361410752E+001  +9.2146397082E-001 -3.9723441991E+000 
14025260.325 +9.1369649797E-001 -3.8088772454E+000  +7.1707660395E-003 +7.8541424759E+001  +7.8460002613E-003 +6.4489927753E+001  +9.1377387351E-001 -4.1155147049E+000 
14150405.507 +9.4748598848E-001 -4.1617111963E+000  +7.5249960227E-003 +8.0556646156E+001  +7.9135703596E-003 +7.8619152358E+001  +9.4515896187E-001 -2.9393510009E+000 
14275550.688 +9.3944831857E-001 -5.1528598185E+000  +9.0245389770E-003 +6.2279472645E+001  +8.5109294452E-003 +7.4854048116E+001  +9.6638630681E-001 -4.7747458240E+000 
14400695.870 +9.6259853762E-001 -4.9206050752E+000  +8.3724705780E-003 +7.9864612146E+001  +8.2313780804E-003 +6.9072044178E+001  +1.0013419999E+000 -4.6605437830E+000 
