!  2-Port S-parameters saved by WinCal
! VAR NAME=S2_r8c9_formed(0)_9k-100M_2
! VAR DATE=30/08/2024 11:58:48
! VAR FILENAME=S2_r8c9_formed(0)_9k-100M_2.S2P
! VAR MeasName=S-Parameters (CALIBRATED_DATA) read from VNA (P5004A)
! VAR MeasDate=28/08/2024 15:54:15
! VAR PHYS_PORTS=1,2
! VAR ObjTypeName=DATASET
! VAR IndexType=Frequency
!
# Hz S MA R 50
9000.000 +9.8579686834E-002 -1.6580636186E+002  +6.7490135106E-004 +9.8056785329E+001  +7.2535598801E-003 +5.5636088578E+001  +2.6406768063E-001 -1.4705918671E+002 
134145.181 +1.1123349271E-001 +1.6951328198E+002  +4.5943199057E-004 -5.7246137445E+001  +5.0616426735E-004 +1.2114070647E+002  +2.4119041570E-001 -1.7077894179E+002 
259290.363 +1.1215650541E-001 +1.6980523200E+002  +7.7893725009E-004 -2.0184499668E+000  +7.6407919189E-004 +1.1806089480E+002  +2.4259826471E-001 -1.6861273884E+002 
384435.544 +1.1460914535E-001 +1.6949766227E+002  +6.9124360167E-004 -1.2068315426E+002  +3.3068929257E-004 -1.8059600447E+001  +2.4414846284E-001 -1.7002958141E+002 
509580.726 +1.1187508102E-001 +1.7110063822E+002  +1.9266226387E-003 -4.6711133688E+001  +9.2107265900E-004 +8.2863210695E+001  +2.5039083563E-001 -1.6876766530E+002 
634725.907 +1.1680384866E-001 +1.7216116371E+002  +1.7892273503E-003 -2.9821277309E+001  +2.7630921453E-003 +9.5588911008E+001  +2.5171510877E-001 -1.6192178059E+002 
759871.089 +1.1985381258E-001 +1.7065609316E+002  +1.0302642206E-003 -9.5695601220E+001  +1.1717427325E-003 +1.1413833044E+002  +2.4905886253E-001 -1.6750225812E+002 
885016.270 +1.2028496450E-001 +1.6934911922E+002  +7.6329463121E-004 -3.0216459714E+001  +1.7660698671E-003 +1.5085692346E+002  +2.4207576393E-001 -1.6796781368E+002 
1010161.452 +1.2066831949E-001 +1.7011204663E+002  +1.7109790416E-003 +9.7701355443E+000  +2.0772970275E-003 -1.6342100750E+002  +2.1463797575E-001 -1.7014141093E+002 
1135306.633 +1.1918107101E-001 +1.7037222163E+002  +2.2569684516E-003 -4.3572829324E+000  +3.3367656940E-003 -1.2794735116E+002  +1.9373842789E-001 -1.7334135246E+002 
1260451.815 +1.2158507893E-001 +1.7076896960E+002  +2.2864381590E-003 -4.8215943898E+001  +2.1582396046E-003 +1.5474798677E+002  +2.4852007853E-001 -1.6256567262E+002 
1385596.996 +1.2743351010E-001 +1.7191783928E+002  +2.8687473472E-003 -6.2960097972E+001  +2.4937032613E-003 +1.4150038655E+002  +2.5294543338E-001 -1.5837021198E+002 
1510742.178 +1.2693020814E-001 +1.7240550487E+002  +2.2050226169E-003 -5.3177398224E+001  +3.0341299958E-003 +1.4334186283E+002  +2.5334332378E-001 -1.6102871218E+002 
1635887.359 +1.2955142313E-001 +1.7067138365E+002  +3.7661329972E-003 -5.2005659774E+000  +3.3137339498E-003 -1.4218472118E+002  +2.2423239424E-001 -1.5954040086E+002 
1761032.541 +1.3273841767E-001 +1.7029786236E+002  +2.8946404880E-003 +1.0070096574E+001  +2.2233165589E-003 -1.3495588822E+002  +2.3835762651E-001 -1.5922942343E+002 
1886177.722 +1.3014180019E-001 +1.6990208456E+002  +5.3076187944E-003 +4.3203901535E+001  +7.2122807986E-003 -9.7153587085E+001  +2.2778570787E-001 -1.6054817482E+002 
2011322.904 +1.3042586216E-001 +1.6972608068E+002  +7.9672814002E-003 +8.4470962096E+001  +8.3434953462E-003 -6.0999466130E+001  +2.1805707004E-001 -1.6929176750E+002 
2136468.085 +1.3108459686E-001 +1.6746655683E+002  +1.1383361242E-002 +8.0742701529E+001  +1.1862887434E-002 -4.6440453542E+001  +2.0268645108E-001 -1.6928572229E+002 
2261613.267 +1.3061818220E-001 +1.6770802174E+002  +2.3272867120E-002 +6.5168066118E+001  +2.4209671183E-002 -5.0844070420E+001  +1.5423364172E-001 -1.6911253219E+002 
2386758.448 +1.3033501425E-001 +1.6647598621E+002  +1.8783851873E-002 +6.5635497770E+001  +2.1345636772E-002 -5.6763405523E+001  +2.0474476028E-001 -1.6213852635E+002 
2511903.630 +1.3152580086E-001 +1.6297406583E+002  +2.7989607051E-002 +7.1228148030E+001  +2.7464128894E-002 -4.3191358679E+001  +1.8952417386E-001 -1.6195964863E+002 
2637048.811 +1.2035625578E-001 +1.6648878468E+002  +6.9675119288E-002 +4.6437773317E+001  +6.1278759939E-002 -7.0926353158E+001  +1.1672275371E-001 -1.1726447923E+002 
2762193.992 +1.3681166394E-001 -1.7790577308E+002  +5.0248306519E-002 -8.5429520652E+000  +4.7342164670E-002 -1.1391562781E+002  +2.0606188631E-001 -1.4211690802E+002 
2887339.174 +1.2558625249E-001 +1.7939185641E+002  +9.5875813612E-002 +3.6945149731E+000  +8.7558343402E-002 -9.9393715689E+001  +1.9030663908E-001 -9.6135519220E+001 
3012484.355 +1.3727165087E-001 +1.7613907828E+002  +4.5911995671E-002 +7.9475921783E+000  +4.4370929496E-002 -9.1522468540E+001  +1.8548560363E-001 -1.4361645357E+002 
3137629.537 +1.4684757716E-001 -1.7843881424E+002  +8.9621163642E-002 -1.5328225664E+001  +8.4314316195E-002 -1.1501927253E+002  +2.3649634401E-001 -9.5811303081E+001 
3262774.718 +1.3121638315E-001 +1.7163468306E+002  +7.7850138432E-002 +3.7164587415E+001  +6.6665946257E-002 -5.5139896955E+001  +6.4950036221E-002 -1.6966359975E+002 
3387919.900 +1.2024971245E-001 +1.7601821787E+002  +1.4207601153E-001 +2.0801222682E+001  +1.3634338775E-001 -6.9223102336E+001  +2.2617851274E-001 -2.7885653640E+001 
3513065.081 +1.1576790846E-001 +1.7264228402E+002  +1.0960259246E-001 +3.4444920551E+001  +1.1310629921E-001 -5.4730819803E+001  +1.1910306473E-002 -3.6371468119E+001 
3638210.263 +1.1925792797E-001 +1.5234626193E+002  +1.5173101390E-001 +7.3418903586E+001  +1.3914990778E-001 -7.4529264502E+000  +2.8369207219E-001 +1.0007092719E+002 
3763355.444 +1.4285018728E-001 +1.5384220324E+002  +8.9194121156E-002 +7.3544824194E+001  +9.4605200683E-002 +1.5769372062E-001  +2.1823415469E-001 +1.4429818582E+002 
3888500.626 +1.4811089409E-001 +1.6017030791E+002  +1.0867773566E-001 +5.4270143121E+001  +1.0347416809E-001 -1.8092839481E+001  +1.1628256704E-001 +1.0583094470E+002 
4013645.807 +1.8413632601E-001 +1.4974688434E+002  +1.0011942793E-001 +8.4681637846E+001  +9.3804942557E-002 +1.5398134139E+001  +2.1217001155E-001 +1.3808245468E+002 
4138790.989 +1.9417216316E-001 +1.5429246476E+002  +7.6616590792E-002 +9.6103779102E+001  +7.2969864600E-002 +3.1260893463E+001  +3.4133233389E-001 +1.5518883387E+002 
4263936.170 +1.7671473135E-001 +1.5039850404E+002  +1.2493253746E-001 +8.2703980025E+001  +1.2379656914E-001 +1.8708240693E+001  +3.3286960932E-001 +1.3152704359E+002 
4389081.352 +2.0649968420E-001 +1.4540205163E+002  +1.1831913930E-001 +8.5162769619E+001  +1.1244783181E-001 +2.4564301333E+001  +2.5252433234E-001 +1.3637743228E+002 
4514226.533 +2.1412738179E-001 +1.4265359898E+002  +1.5093788323E-001 +8.6012874378E+001  +1.5006131389E-001 +2.9405819468E+001  +3.3727533663E-001 +1.1827694315E+002 
4639371.715 +2.0089584876E-001 +1.1627797266E+002  +3.0539362649E-001 +9.7026778461E+001  +3.1267228978E-001 +4.2879092407E+001  +7.9564509911E-001 +1.2138192706E+002 
4764516.896 +2.4743829150E-001 +9.5781782158E+001  +4.9278988847E-001 +8.1476706707E+001  +4.7429782286E-001 +2.7212255853E+001  +9.5774332088E-001 +8.2691381126E+001 
4889662.078 +7.0623445254E-001 +9.4244931454E+001  +1.3443106780E+000 +8.4707200755E+001  +1.2202248719E+000 +3.6288920350E+001  +2.6697189569E+000 +4.9092743879E+001 
5014807.259 +4.3605014991E-001 +1.3544521091E+002  +4.4454155234E-001 +1.2280275576E+002  +4.1511638862E-001 +7.5650540619E+001  +1.1570690319E+000 +1.0091286083E+002 
5139952.441 +4.0603621509E-001 +1.1155521217E+002  +7.6464422421E-001 +1.0052641627E+002  +7.4571879150E-001 +5.8018896397E+001  +2.2854486757E+000 +9.4318184057E+001 
5265097.622 +4.7390467571E-001 +1.2788480103E+002  +5.6207155693E-001 +1.3412302769E+002  +5.5416451936E-001 +9.4725015385E+001  +1.7287902735E+000 +1.3228038676E+002 
5390242.804 +3.3492106203E-001 +1.3135150511E+002  +2.5119069120E-001 +9.0606985508E+001  +2.4085955632E-001 +5.3670751501E+001  +5.9160598556E-001 +1.1943311905E+002 
5515387.985 +3.3362947000E-001 +1.3456415666E+002  +2.7861885656E-001 +8.8275865774E+001  +2.7016331014E-001 +5.3998136769E+001  +8.3730356894E-001 +1.1289694059E+002 
5640533.166 +3.8359700586E-001 +1.3150946746E+002  +2.7080471894E-001 +9.2817148148E+001  +2.5724838123E-001 +6.2034820748E+001  +7.5977666272E-001 +1.2157593611E+002 
5765678.348 +4.2178442553E-001 +1.2939253000E+002  +3.8335903356E-001 +9.3107834191E+001  +3.7598615603E-001 +6.6232399634E+001  +1.2772805979E+000 +1.0613383248E+002 
5890823.529 +4.0229825514E-001 +1.2440727091E+002  +3.6570498037E-001 +9.8086268331E+001  +3.6316526157E-001 +6.9186187290E+001  +1.3513320707E+000 +1.2666466988E+002 
6015968.711 +4.2650791892E-001 +1.1985846429E+002  +3.6249917225E-001 +7.5756806185E+001  +3.5234828094E-001 +5.3739414852E+001  +9.1829973902E-001 +1.1023022135E+002 
6141113.892 +4.0550113241E-001 +1.0204438702E+002  +4.9949226381E-001 +5.5418823550E+001  +4.8334796669E-001 +3.2479788707E+001  +9.7956442597E-001 +7.6685447252E+001 
6266259.074 +3.7692485656E-001 +1.0894068514E+002  +5.0833461854E-001 +4.8067531102E+001  +5.1728150583E-001 +2.8513073590E+001  +1.3243908978E+000 +6.8337908707E+001 
6391404.255 +5.0972638045E-001 +1.0178409756E+002  +5.6186012408E-001 +5.1951542610E+001  +5.4134832878E-001 +3.5357045095E+001  +1.2934115559E+000 +6.7728814469E+001 
6516549.437 +5.4444162675E-001 +7.4498955058E+001  +6.5649990275E-001 +3.3577602273E+001  +6.5859577511E-001 +1.9594542391E+001  +1.1656126035E+000 +4.6891735252E+001 
6641694.618 +6.0484789997E-001 +8.1267484646E+001  +5.6280279851E-001 +2.7648594896E+001  +5.6616860874E-001 +1.6690534289E+001  +8.7656260919E-001 +2.6732714038E+001 
6766839.800 +6.2368600431E-001 +4.1984183580E+001  +6.9602151069E-001 +1.2998226587E+001  +7.0439508889E-001 +4.6129804718E+000  +1.0007844096E+000 +1.7644432421E+001 
6891984.981 +5.3298347263E-001 +3.0939981204E+001  +5.9586324451E-001 +3.9181814041E+000  +5.9640523607E-001 -3.2153220616E+000  +7.6744034313E-001 -3.3080641173E+000 
7017130.163 +4.3327462082E-001 +8.0023280089E+000  +5.5444707643E-001 -1.9650650939E+000  +5.5729899573E-001 -7.2103419050E+000  +6.4569444658E-001 +2.2266241062E+000 
7142275.344 +5.6617321805E-001 +2.2441426505E+001  +5.5710729187E-001 +1.1041068820E+000  +5.5169833048E-001 -1.9570725473E+000  +8.5959803985E-001 -6.5530403050E+000 
7267420.526 +7.4589157537E-001 -7.3209506348E+000  +5.5776972095E-001 -1.6942807697E+000  +5.5257554453E-001 -2.3810794455E+000  +6.8868001531E-001 -1.4256751205E+001 
7392565.707 +7.6324901049E-001 +1.8713656721E+000  +4.9709431414E-001 +3.7548186885E+000  +5.0800207688E-001 +4.2505699353E+000  +7.1252643581E-001 -9.8858192573E+000 
7517710.889 +6.2334619666E-001 -1.8019847912E+000  +4.6580243141E-001 +2.3172559173E+000  +4.7165886453E-001 +2.6264637677E+000  +6.3108945993E-001 -9.3415811106E+000 
7642856.070 +4.9082059607E-001 +1.2939665131E+001  +4.2659155316E-001 -4.5847400754E-001  +4.3576946508E-001 +4.0939131439E+000  +4.8164099741E-001 -1.2977046511E+001 
7768001.252 +5.1181217322E-001 +8.9439428341E+000  +4.1779940692E-001 -3.9240845529E-001  +4.1765757826E-001 +3.8634434673E+000  +4.7182123022E-001 +5.3650756136E+000 
7893146.433 +3.7304370595E-001 +1.5895777635E+001  +3.9392013962E-001 -1.9917396117E+000  +3.8364477243E-001 +3.5275758095E+000  +3.9908410948E-001 +1.1138779343E+001 
8018291.615 +3.2756557663E-001 +1.5423705206E+001  +3.8064389825E-001 -2.2088115717E+000  +3.9330426867E-001 +4.6191709556E+000  +4.9935544150E-001 +1.6150483817E+000 
8143436.796 +3.1114842761E-001 +2.3186673677E+001  +3.7072897747E-001 -3.2480731135E+000  +3.6781082408E-001 +5.5592889068E+000  +4.0784135217E-001 +2.2168269566E+001 
8268581.977 +3.3050013080E-001 +1.4976272674E+001  +3.7232136051E-001 -3.3423556518E+000  +3.6978286739E-001 +5.5691736434E+000  +4.2837183560E-001 +2.0698711464E+001 
8393727.159 +3.2460076936E-001 +2.8110859318E+001  +3.6000565189E-001 -3.7205437637E+000  +3.6501669730E-001 +6.3564533607E+000  +3.2476369278E-001 +1.2476722255E+001 
8518872.340 +3.3867776553E-001 +2.9636737282E+001  +3.4978947303E-001 -3.1873257147E+000  +3.5366831692E-001 +7.7727670363E+000  +3.4384421960E-001 +2.1120228425E+001 
8644017.522 +2.6981748375E-001 +2.7319731174E+001  +3.4949637719E-001 -4.3451197712E+000  +3.4170110438E-001 +7.3905060628E+000  +3.7334895672E-001 +2.5451025140E+001 
8769162.703 +2.2010775956E-001 +3.2226100976E+001  +3.4381747885E-001 -6.2652441076E+000  +3.4489699036E-001 +7.3587723797E+000  +3.0793996558E-001 +2.9863281458E+001 
8894307.885 +2.9196821034E-001 +2.6558039063E+001  +3.4585201164E-001 -4.7512469747E+000  +3.3708120917E-001 +8.6795416974E+000  +2.6045953486E-001 +2.4611316402E+001 
9019453.066 +2.8094463290E-001 +3.1511253736E+001  +3.4236314661E-001 -5.3985505837E+000  +3.4058971691E-001 +8.9825560703E+000  +2.5736633877E-001 +2.3178420996E+001 
9144598.248 +1.6977221187E-001 +1.7569692401E+001  +3.4459219375E-001 -7.0391488215E+000  +3.4381982934E-001 +8.0053479888E+000  +2.2974143580E-001 +2.0485090070E+001 
9269743.429 +1.8025715483E-001 +2.8187330299E+001  +3.3918442663E-001 -7.0976977620E+000  +3.3475052704E-001 +8.0412087004E+000  +2.3093810958E-001 +2.8160409536E+001 
9394888.611 +2.2279490730E-001 +2.9723222178E+001  +3.3707149695E-001 -6.0272201720E+000  +3.3416538640E-001 +9.5604568300E+000  +2.3572266601E-001 +2.1394179823E+001 
9520033.792 +1.6546736900E-001 +1.3291487587E+001  +3.3936423096E-001 -7.3312804805E+000  +3.4322881703E-001 +8.1361102685E+000  +2.2277412640E-001 +1.7877706153E+001 
9645178.974 +1.7021825709E-001 +3.5335938631E+001  +3.3995365029E-001 -6.6053774141E+000  +3.3522154293E-001 +9.7175696183E+000  +2.3538189899E-001 +1.3841054875E+001 
9770324.155 +1.9090406361E-001 +1.2201647431E+001  +3.4735180087E-001 -6.2227057968E+000  +3.4528602442E-001 +9.4714057025E+000  +2.4116669016E-001 +1.1371863193E+001 
9895469.337 +2.1241026438E-001 +1.7803597537E+001  +3.4557023972E-001 -5.6569728262E+000  +3.4221673108E-001 +1.0104630574E+001  +2.2331677565E-001 +1.4971661643E+001 
10020614.518 +2.0513893943E-001 +1.6455029962E+001  +3.4639424897E-001 -5.8149285099E+000  +3.4476727410E-001 +1.0191533843E+001  +2.2814612114E-001 +1.6217085914E+001 
10145759.700 +2.0585430289E-001 +1.1274990879E+001  +3.5047987317E-001 -5.5080590905E+000  +3.4704992940E-001 +9.7486823646E+000  +1.9330511776E-001 +1.0013563803E+001 
10270904.881 +1.9439444642E-001 +2.7534621795E+001  +3.4218974047E-001 -5.6603984659E+000  +3.4098395552E-001 +1.0140631636E+001  +1.9187499483E-001 +1.6457657820E+001 
10396050.063 +2.1221622397E-001 +2.8923338567E+001  +3.4463401121E-001 -4.9455842749E+000  +3.3908785876E-001 +1.0022525591E+001  +2.2126463782E-001 +2.6854786114E+001 
10521195.244 +2.1946043593E-001 +2.7849783141E+001  +3.4965765987E-001 -4.3554331081E+000  +3.4662876584E-001 +1.0846893992E+001  +2.3989244511E-001 +1.9141222547E+001 
10646340.426 +2.2018062140E-001 +2.5708443001E+001  +3.5046300787E-001 -4.8279049542E+000  +3.4696393961E-001 +1.0346047063E+001  +2.0418773160E-001 +2.1092483403E+001 
10771485.607 +2.3554735974E-001 +2.7828103263E+001  +3.5191081822E-001 -3.9009413127E+000  +3.5053051979E-001 +1.0953749385E+001  +2.4911850089E-001 +2.0914656099E+001 
10896630.788 +2.5312451267E-001 +2.7427866321E+001  +3.5034837764E-001 -3.5003183309E+000  +3.4689644556E-001 +1.0695297230E+001  +2.4243263875E-001 +2.7057438448E+001 
11021775.970 +2.5609205671E-001 +2.3373241853E+001  +3.5558725586E-001 -3.0090381234E+000  +3.5334178235E-001 +1.0861573403E+001  +2.6195723233E-001 +2.2713566778E+001 
11146921.151 +2.4442958915E-001 +2.7694850568E+001  +3.5822832189E-001 -3.1330038297E+000  +3.5514729067E-001 +1.0424068045E+001  +2.4916409143E-001 +1.8751785455E+001 
11272066.333 +2.2936575917E-001 +3.0297070076E+001  +3.6131804388E-001 -3.1207801360E+000  +3.5568627256E-001 +9.8907498300E+000  +2.6186441002E-001 +2.2012374271E+001 
11397211.514 +2.3096340159E-001 +2.7704699938E+001  +3.6475832376E-001 -2.3888466557E+000  +3.6030303168E-001 +9.9183097079E+000  +2.7866285507E-001 +2.0127517867E+001 
11522356.696 +2.6329335224E-001 +2.5407379953E+001  +3.6787609104E-001 -1.9919675782E+000  +3.6267346446E-001 +1.0022697261E+001  +2.5958955726E-001 +2.2972850551E+001 
11647501.877 +2.8679066990E-001 +2.3448866261E+001  +3.6986291902E-001 -1.3892813262E+000  +3.6807205356E-001 +1.0130245422E+001  +2.9176322880E-001 +1.7685436062E+001 
11772647.059 +2.5952577022E-001 +2.3427011893E+001  +3.7365489737E-001 -1.8818260369E+000  +3.7159593639E-001 +9.0624206381E+000  +2.8645290729E-001 +1.7364431025E+001 
11897792.240 +2.6289874105E-001 +2.2266694455E+001  +3.7877169268E-001 -1.5517687837E+000  +3.7381004014E-001 +9.0008652021E+000  +2.7996029890E-001 +1.7685873185E+001 
12022937.422 +2.9735857700E-001 +1.9798123456E+001  +3.8172980061E-001 -1.1994598279E+000  +3.7779165818E-001 +8.8053631864E+000  +2.7224050428E-001 +1.5522801766E+001 
12148082.603 +2.6842182226E-001 +1.9779484762E+001  +3.8631896745E-001 -7.4626837905E-001  +3.7993238240E-001 +8.5884199149E+000  +3.2441198325E-001 +2.0359121450E+001 
12273227.785 +3.2965903570E-001 +1.7551408754E+001  +3.9182415398E-001 +3.8256204649E-002  +3.8871428287E-001 +8.7253378350E+000  +3.1136788892E-001 +9.1653699185E+000 
12398372.966 +3.0090342550E-001 +1.0760930312E+001  +3.9555461038E-001 -1.1687853473E-002  +3.9363720460E-001 +7.7651394484E+000  +3.4337737949E-001 +1.1282075533E+001 
12523518.148 +3.2715737337E-001 +1.3385395181E+001  +3.9799928077E-001 +5.2601871238E-001  +3.9627377953E-001 +7.6035471329E+000  +3.3741186658E-001 +1.1874928416E+001 
12648663.329 +3.1508349963E-001 +1.0332781320E+001  +4.0582472931E-001 +2.0396584444E-001  +4.0164288294E-001 +7.1207144552E+000  +3.4034154740E-001 +6.7473236845E+000 
12773808.511 +3.5044178829E-001 +1.2054588781E+001  +4.0688372672E-001 +1.1146157615E+000  +4.0249654069E-001 +6.9473265410E+000  +3.6330798562E-001 +1.1676633993E+001 
12898953.692 +3.4324674061E-001 +8.8523737648E+000  +4.1191908174E-001 +8.6437067897E-001  +4.0682953833E-001 +6.3207915605E+000  +3.5175241949E-001 +9.8260677934E+000 
13024098.874 +3.5882592639E-001 +7.8006764990E+000  +4.1780131492E-001 +8.0591647283E-001  +4.1397037328E-001 +5.7868837167E+000  +3.5754251789E-001 +3.1032074387E+000 
13149244.055 +3.8198338472E-001 +5.4568527315E+000  +4.2281343132E-001 +1.3559135972E+000  +4.1932919046E-001 +6.0827961080E+000  +4.0170517431E-001 +3.7865693657E+000 
13274389.237 +3.9205862773E-001 +3.2010408093E+000  +4.2733340753E-001 +1.4408546822E+000  +4.2342588593E-001 +4.9498735851E+000  +3.8255031668E-001 +3.4454984128E+000 
13399534.418 +3.8719243510E-001 +2.9396601162E+000  +4.3008168382E-001 +1.4860451505E+000  +4.2670371621E-001 +4.9239522310E+000  +4.1924987278E-001 +2.5005622718E+000 
13524679.599 +4.0063851896E-001 +1.8254026768E+000  +4.3619142777E-001 +1.3344657006E+000  +4.3295461222E-001 +4.0593625135E+000  +4.0696498302E-001 -5.5854443609E-001 
13649824.781 +4.4282115035E-001 -3.8541953014E-001  +4.4233940435E-001 +1.7412320567E+000  +4.3633531215E-001 +4.2009545329E+000  +4.0854634222E-001 +1.7433632721E-001 
13774969.962 +4.1999624978E-001 -1.3071956055E+000  +4.4639104022E-001 +1.0994952482E+000  +4.3951221422E-001 +3.2510095216E+000  +4.3051656365E-001 -1.7188291022E+000 
13900115.144 +4.4261804096E-001 -1.1636598830E+000  +4.4655672516E-001 +1.3735196812E+000  +4.4283204391E-001 +3.1521211057E+000  +4.6731318447E-001 -1.1377540656E+000 
14025260.325 +4.6557855471E-001 -2.3993526880E+000  +4.4972796647E-001 +1.5133396321E+000  +4.4500730785E-001 +2.8517367734E+000  +4.7094215071E-001 -1.3880525043E-001 
14150405.507 +4.5338038560E-001 -3.7953502039E+000  +4.5243867402E-001 +1.1429977708E+000  +4.4491611038E-001 +2.1449764769E+000  +4.8017521570E-001 +1.3511190591E+000 
14275550.688 +4.9401780067E-001 -3.1645121478E+000  +4.5728275230E-001 +1.4934320975E+000  +4.5206431148E-001 +2.2359704880E+000  +5.1901106304E-001 -3.3381842109E+000 
14400695.870 +5.2592397285E-001 -3.4306447057E+000  +4.5901257506E-001 +1.5730285470E+000  +4.5408775742E-001 +2.2354774333E+000  +5.2968947635E-001 -3.8810527817E+000 
