!  2-Port S-parameters saved by WinCal
! VAR MeasName=S-Parameters (CALIBRATED_DATA) read from VNA (P5004A)
! VAR MeasDate=27/08/2024 11:59:45
! VAR NAME=S2_r2c8_pristine_9k-100M_2
! VAR FILENAME=S2_r2c8_pristine_9k-100M_2.S2P
! VAR DATE=27/08/2024 11:59:45
! VAR PHYS_PORTS=1,2
! VAR ObjTypeName=DATASET
! VAR IndexType=Frequency
!
# Hz S MA R 50
9000.000 +2.9749617257E-002 -1.5505702751E+002  +2.4274335972E-002 +8.0152613480E+000  +1.6790732745E-002 -2.8658048560E+001  +2.9561210078E-001 -1.1449310869E+002 
134145.181 +1.1094755140E-001 +1.6937813571E+002  +4.2354772530E-004 -4.2626445805E+001  +5.0794974626E-004 +5.6096913934E+001  +2.3941066937E-001 -1.7173467396E+002 
259290.363 +1.1195903111E-001 +1.6968486895E+002  +3.0077404280E-004 +6.5222093533E+001  +5.5857998229E-004 -1.1185845241E+002  +2.3883081919E-001 -1.6934880905E+002 
384435.544 +1.1384771220E-001 +1.6961286370E+002  +1.8591209863E-004 +6.5299434337E+000  +8.8589113194E-004 +7.7360105444E+000  +2.4316178030E-001 -1.6792609431E+002 
509580.726 +1.1185910664E-001 +1.7057972513E+002  +5.9810605655E-004 +1.4802062272E+002  +4.1035476122E-004 -4.5588787402E+001  +2.6137057069E-001 -1.6714933850E+002 
634725.907 +1.1623902499E-001 +1.7096909963E+002  +3.1772461137E-004 -1.0835954125E+002  +3.1684846153E-004 -7.7603571529E+001  +2.3331521234E-001 -1.6608225572E+002 
759871.089 +1.1591259038E-001 +1.7013326798E+002  +1.0496127681E-004 +1.1932539297E+002  +1.0049298546E-004 -8.8043615611E+001  +2.4405492884E-001 -1.6390962481E+002 
885016.270 +1.1863172650E-001 +1.7038928269E+002  +6.4631235705E-004 -1.4554925352E+002  +5.0769864708E-004 -1.8563237062E+001  +2.1746341647E-001 -1.6428025811E+002 
1010161.452 +1.2006803201E-001 +1.7128831471E+002  +4.7153702658E-004 +2.8708729997E+001  +9.5313558387E-004 -1.5845319039E+002  +2.0671940566E-001 -1.7443627839E+002 
1135306.633 +1.1664069816E-001 +1.7131132054E+002  +8.1760371611E-004 -5.3557659355E+001  +3.3744896513E-003 -8.2126007024E+001  +2.2952104709E-001 -1.4482453920E+002 
1260451.815 +1.2243873106E-001 +1.7228400852E+002  +2.5205535198E-004 +5.4138446435E+001  +6.6487492746E-004 +1.4724561372E+002  +2.5852766230E-001 -1.5912693317E+002 
1385596.996 +1.2645517634E-001 +1.7220034974E+002  +7.9154970587E-004 -1.6959655967E+002  +8.9058648173E-004 -1.2797612590E+002  +2.6780641587E-001 -1.6081516508E+002 
1510742.178 +1.2811770022E-001 +1.7113563894E+002  +6.1597114711E-004 -1.6106310075E+002  +1.1713462023E-003 +1.5852848777E+002  +2.5915429149E-001 -1.5701292662E+002 
1635887.359 +1.2742102863E-001 +1.7077406757E+002  +9.9600714782E-004 -1.0388131345E+002  +8.4125131941E-004 -1.1554699615E+002  +2.3429526356E-001 -1.5583773537E+002 
1761032.541 +1.2849803299E-001 +1.6894315400E+002  +8.5881736505E-004 -9.9689569417E+001  +5.2389558661E-004 +9.2920096789E+001  +2.4084090803E-001 -1.5927013409E+002 
1886177.722 +1.2090577651E-001 +1.6608826875E+002  +2.0339759656E-003 +1.4497115159E+002  +7.0519436003E-004 -1.4281668840E+002  +2.0078537759E-001 -1.6200918487E+002 
2011322.904 +1.3332394696E-001 +1.6524707170E+002  +1.6245356871E-003 +1.1610295147E+002  +4.2525081931E-004 -1.7513297299E+002  +1.5424696460E-001 -1.6654999529E+002 
2136468.085 +1.3011101339E-001 +1.6281833330E+002  +4.6385363438E-003 +7.6163652533E+001  +1.8607670707E-003 -4.3645302179E+001  +1.3372303447E-001 -1.6252171645E+002 
2261613.267 +1.2906727881E-001 +1.6151181825E+002  +4.5997228664E-003 +1.5498178045E+002  +2.8019506194E-003 -5.3802818249E+001  +1.8053231706E-001 -1.7255606032E+002 
2386758.448 +1.1935773968E-001 +1.6358876044E+002  +1.0939926686E-002 -9.3678899805E+000  +5.1689053622E-003 -9.4129212550E+001  +1.1559247736E-001 +1.4845536044E+002 
2511903.630 +1.2022965824E-001 +1.6310915712E+002  +3.8724626826E-003 -9.1089267488E+001  +7.7210775761E-003 -1.0447384357E+002  +3.7678831677E-001 +1.4729434005E+002 
2637048.811 +1.2373800576E-001 +1.5625315159E+002  +1.3969012743E-003 -1.0799472232E+002  +6.6147159752E-003 +8.4441877163E+001  +2.9878525117E-001 +1.6004404954E+002 
2762193.992 +1.0741104704E-001 +1.7536369436E+002  +5.3475549098E-002 +2.2288477549E+001  +2.2945065602E-002 +2.0624141708E+001  +3.7224857796E+000 -1.4165407976E+002 
2887339.174 +1.1772541012E-001 -1.7268789628E+002  +1.5715306653E-002 +1.1013983278E+002  +3.9955405501E-002 +3.9757223400E+001  +6.8716354993E-001 -9.7397364294E+001 
3012484.355 +1.1872704110E-001 +1.7741180052E+002  +2.5052621136E-002 +8.5457491006E+001  +1.4141137963E-002 -5.4889166330E+001  +4.8729123211E-001 -7.3087746423E+001 
3137629.537 +9.6511936267E-002 -1.7398134398E+002  +1.1520782398E-002 -2.7636673857E-001  +5.9178265898E-003 -1.0070921558E+002  +4.4191519545E-001 -1.1843431086E+002 
3262774.718 +6.7002294018E-002 +1.6528419085E+002  +5.2498072522E-003 -1.8422593903E+000  +1.8274428419E-002 -6.8727330265E+001  +2.2751231821E-001 -8.1310828129E+001 
3387919.900 +1.3159358239E-001 +1.6640762476E+002  +6.7236391749E-003 +3.6481363321E+001  +1.5258382354E-002 -1.2160652763E+002  +4.6686595076E-001 +7.1181600742E+001 
3513065.081 +1.4993383763E-001 +1.5740466494E+002  +1.8826471557E-002 -1.6292255239E+002  +1.7571730068E-002 +7.2138564688E+001  +8.5034847546E-001 -1.8708622838E+001 
3638210.263 +1.7187425666E-001 +1.4391606810E+002  +2.8810468846E-002 -1.2099402652E+002  +2.2398204938E-002 -1.7222591742E+002  +1.7229141354E+000 +1.3008099247E+002 
3763355.444 +1.3934285324E-001 +1.5488526896E+002  +1.2716151592E-002 +6.7719930920E+001  +1.1015125755E-002 -1.9419822166E+001  +1.7381552042E-001 +1.1740801166E+002 
3888500.626 +1.4388277934E-001 +1.3380815700E+002  +2.0170483345E-003 -1.1671480068E+001  +3.9458500158E-003 +1.1658829588E+002  +6.4496459637E-001 +1.5279857576E+002 
4013645.807 +1.4553312198E-001 +1.3878240210E+002  +8.5616270433E-003 +2.7826342593E+001  +9.2604559484E-003 +2.4780335412E+001  +2.4784558241E-001 +3.5153672492E+001 
4138790.989 +1.6971272039E-001 +1.5548038807E+002  +6.4546413410E-003 +1.2656385821E+002  +3.7861257969E-003 -1.4548994834E+002  +3.5180787641E-001 +1.3345001035E+002 
4263936.170 +1.9116483755E-001 +1.5063766219E+002  +1.0015950987E-002 -3.7272788032E+001  +8.0769241835E-003 +3.5545383514E+001  +6.5927605640E-001 +1.2885144474E+002 
4389081.352 +2.3183102505E-001 +1.3818040286E+002  +2.3420223093E-002 +4.1395334504E+001  +9.4402529850E-003 +1.2275049308E+002  +1.0223693314E+000 +9.8824122453E+001 
4514226.533 +2.2997366885E-001 +1.4619480120E+002  +1.0304575228E-002 +1.6213823512E+002  +5.6020574402E-003 -1.6391174852E+002  +7.1392261252E-001 +6.3076692817E+001 
4639371.715 +2.6749533408E-001 +1.2326484906E+002  +1.3208423506E-002 -1.2175459568E+002  +7.1009817272E-003 +1.5083775898E+002  +1.5398273946E+000 +8.8921242009E+001 
4764516.896 +3.0193603946E-001 +1.2059438993E+002  +3.0505939804E-002 -8.0538746387E+001  +4.5817030902E-002 -1.1306293631E+002  +1.7859941071E+000 +1.2090415692E+002 
4889662.078 +3.9065026782E-001 +1.3245774459E+002  +6.4552649098E-002 +8.3949724459E+001  +1.6074930857E-001 -1.6177794379E+002  +2.1970908839E+001 -4.8219596118E+001 
5014807.259 +3.9081499533E-001 +1.1294363955E+002  +3.0973236564E-002 -1.0530295335E+002  +5.1466283635E-002 +1.7878399176E+002  +4.4323966694E+000 +1.0701970831E+002 
5139952.441 +4.4405182169E-001 +1.3040947842E+002  +4.2947177693E-002 +1.4615350002E+001  +1.7927137614E-002 -9.3400686632E+001  +1.2349847790E+000 +2.9404648364E+001 
5265097.622 +3.8357860671E-001 +1.3536362685E+002  +3.8040599085E-002 +1.2150598761E+002  +2.2377049658E-002 +7.9162664391E+001  +3.1233271691E+000 +9.6723795816E+001 
5390242.804 +4.0205653883E-001 +1.3569344904E+002  +1.9087833570E-003 -4.6056643609E+001  +5.0513219722E-002 -1.6335320037E+002  +2.3040301024E+000 +9.3339654461E+001 
5515387.985 +4.1482001527E-001 +1.2764681057E+002  +1.9647120919E-002 +1.1284511830E+002  +3.0228191828E-002 -2.6105373113E+000  +3.0435402723E+000 +8.7514532272E+001 
5640533.166 +4.7094676301E-001 +1.3752672093E+002  +6.6883398290E-003 -6.1888689306E+001  +1.6696730026E-002 +1.5663172469E+002  +2.5176310962E+000 +2.6848174975E+001 
5765678.348 +5.2140975500E-001 +1.3069748532E+002  +3.5261307634E-003 -1.2634343437E+001  +2.4901222796E-002 -1.2579029172E+002  +3.2161350263E+000 +1.2371959900E+002 
5890823.529 +5.9414961186E-001 +1.1991257395E+002  +1.6998668438E-002 +1.1282337788E+002  +4.3791591021E-002 +1.1175830671E+002  +3.1330839972E+000 +8.7884105120E+001 
6015968.711 +6.5702693941E-001 +1.2180111059E+002  +2.2302578579E-003 -8.4664571483E+001  +2.5032442696E-002 -1.0932606028E+002  +2.3341273533E+000 +4.2711666856E+001 
6141113.892 +8.3105350093E-001 +9.6567317172E+001  +3.7287288062E-002 +9.4418576443E+001  +1.7886833442E-002 +8.2211626102E+000  +1.8637219249E+000 +4.8296387716E+001 
6266259.074 +7.9670469537E-001 +1.0635855581E+002  +7.2203088523E-003 +1.1741583153E+002  +1.9885279767E-002 +5.5359724605E+001  +1.6516040719E+000 +2.4910346969E+001 
6391404.255 +1.1296468437E+000 +1.0212114908E+002  +1.3483581455E-002 +1.8775749459E+001  +5.2716193056E-002 +5.5130007047E+001  +1.4955861580E+000 -6.1544887267E+000 
6516549.437 +1.1873963788E+000 +8.4079797892E+001  +2.8671878041E-002 +9.3423193844E+001  +2.0243945683E-002 -2.1493337466E+001  +1.6492859670E+000 -5.0858530734E+000 
6641694.618 +1.6596886010E+000 +7.8817754986E+001  +1.5819817033E-002 +1.6637965181E+002  +2.0191149581E-002 +4.3326289345E+001  +1.4056787388E+000 +4.5587651990E+000 
6766839.800 +1.6372697265E+000 +6.4826454559E+001  +1.9654541063E-002 +1.4359722558E+002  +2.4342287975E-002 +9.6143898699E+001  +1.6707859223E+000 +3.7910752354E+000 
6891984.981 +2.3068706429E+000 +3.4404286715E+001  +2.0850346772E-002 +1.6574421647E+002  +7.4855774990E-003 -1.1872396987E+002  +1.1839187395E+000 +8.8965395104E-001 
7017130.163 +2.0289190757E+000 +3.5152523051E+001  +1.5236924657E-002 +1.1326596380E+002  +4.9226689975E-003 +7.6017264135E+001  +1.2746897561E+000 -4.2078746411E+000 
7142275.344 +1.5718176352E+000 +1.4282699389E+001  +1.2890574938E-002 +1.7057269874E+002  +1.5101443732E-002 -5.2659023328E+000  +1.1455669166E+000 -1.3202680518E+001 
7267420.526 +1.4489016021E+000 +1.1516305014E+001  +1.0316941792E-002 +1.6440429553E+002  +5.0865255305E-003 +1.7312851791E+002  +1.3909795628E+000 -1.1490047070E+001 
7392565.707 +1.3380919251E+000 +5.0062127949E+000  +6.5723483328E-003 +1.5781292023E+001  +5.8264472868E-003 +6.2764339690E+001  +1.3038329503E+000 -5.4699204736E+000 
7517710.889 +1.2827432389E+000 +1.6899371959E+000  +4.5623418057E-003 -1.5261429228E+002  +1.4032817329E-002 +5.6739359908E+001  +1.1723985929E+000 -1.0837524522E+001 
7642856.070 +1.0256475998E+000 +1.2834969987E+000  +2.4279683598E-003 -1.2928650917E+000  +5.4102486011E-003 +1.2739969987E+002  +1.1000833072E+000 -5.2492399567E+000 
7768001.252 +9.7073296706E-001 -3.6066376251E+000  +4.0702766734E-003 +1.0798656404E+002  +8.2439248743E-003 +1.5411518918E+002  +1.0937997785E+000 -5.0967350500E+000 
7893146.433 +9.5769546943E-001 +6.3483523255E+000  +6.7961511745E-003 +4.9220703182E+001  +2.6409730133E-003 +1.1511028320E+002  +9.6759802488E-001 -2.0901986390E+000 
8018291.615 +8.6222662765E-001 +9.0044761721E+000  +1.0483714488E-002 +9.5001120211E+001  +6.5918073935E-003 +8.9230516811E+001  +1.0078837752E+000 -1.1219473978E+000 
8143436.796 +8.1935654738E-001 +5.9767838479E+000  +1.8427946243E-003 +1.5852189378E+002  +5.4136562463E-003 +7.0478732350E+001  +8.4669983029E-001 +2.6500207269E-001 
8268581.977 +7.3244317807E-001 +6.8567476563E+000  +8.1451332772E-003 +7.1120778191E+001  +7.6438578808E-003 +1.1271309249E+002  +8.3322928337E-001 -5.2424525537E+000 
8393727.159 +6.5504452007E-001 +4.0215970779E+000  +5.0249549234E-003 +3.7006189518E+001  +4.7163955834E-003 +1.0424196073E+002  +6.7018814264E-001 -1.0414012622E+000 
8518872.340 +7.6847060587E-001 +5.6806290522E+000  +1.5754730563E-003 -1.3083056280E+002  +5.8345551612E-003 +6.9447131247E+001  +7.6028650550E-001 -2.2116774724E+000 
8644017.522 +6.3785026957E-001 +6.1177648605E+000  +5.5552311681E-003 +5.8321766712E+001  +5.8567122350E-003 +1.2352597012E+002  +7.4701742840E-001 -4.0299892274E+000 
8769162.703 +7.7709139815E-001 +2.7679094277E+000  +6.1183969712E-003 +7.9156548525E+001  +8.8816345873E-004 +1.3503879226E+002  +5.7186754951E-001 +4.2131536909E+000 
8894307.885 +6.7406841285E-001 +7.2819427269E+000  +2.8507666201E-003 +1.3859789149E+002  +3.9503085882E-003 +1.1290854350E+002  +6.1641376352E-001 -3.0087636254E+000 
9019453.066 +6.2899056320E-001 +8.0071862917E+000  +8.4006306822E-003 +9.5236550332E+001  +2.8036697499E-003 -1.7539109723E+002  +6.5130981909E-001 -1.2519570008E+000 
9144598.248 +5.8314615566E-001 +6.9777047069E+000  +3.3500014761E-003 +6.2369183126E+001  +6.0204967659E-003 +1.5975610589E+002  +6.4676448049E-001 +5.9158484714E-001 
9269743.429 +6.0838598685E-001 +6.2389049680E-001  +2.0522739649E-003 +2.0181099081E+001  +2.7312914593E-003 +1.1668552562E+002  +6.5060769077E-001 -9.5548653916E-001 
9394888.611 +6.1947556299E-001 +5.4508874248E-001  +6.9666291725E-003 +1.0014659766E+002  +1.8648779152E-003 +1.1762557389E+002  +6.2429641264E-001 -6.1162503783E-001 
9520033.792 +5.6234652571E-001 +3.8565614266E+000  +6.3245274499E-003 +1.1895555478E+002  +7.9579732740E-003 +9.2629463346E+001  +5.8101710510E-001 -2.3278868415E+000 
9645178.974 +6.1779934738E-001 +1.6441258167E+000  +4.8087374307E-003 +1.1004564302E+002  +1.6719066723E-003 +6.9162739245E+001  +5.6670677120E-001 -3.7064475135E+000 
9770324.155 +5.5203424645E-001 +3.4024802915E+000  +3.9189648483E-003 +7.7040081713E+001  +5.6033975131E-003 +7.6633302269E+001  +6.3200670235E-001 -4.2369875681E+000 
9895469.337 +5.0819676433E-001 +2.0507676515E+000  +4.5188819909E-003 +1.3451762768E+002  +4.1108060025E-003 +7.0959886572E+001  +5.8204856656E-001 -7.4235213645E+000 
10020614.518 +5.9861455669E-001 +6.8211988393E-001  +3.7684314152E-003 +9.4945388523E+001  +2.9205208792E-003 +3.7542880842E+001  +5.9599767501E-001 -8.0650518194E+000 
10145759.700 +5.8586643433E-001 +4.3213119724E+000  +3.0489352730E-003 +1.0239510823E+002  +7.4941502433E-003 +1.0708618096E+002  +6.0967031641E-001 -7.1011740274E-001 
10270904.881 +5.4807331548E-001 -5.4461799790E-001  +4.6556355172E-003 +7.9882875313E+001  +8.6192185981E-004 +9.4115592605E+001  +5.8375601036E-001 -3.5778364104E+000 
10396050.063 +5.7149210720E-001 +1.8709711573E+000  +4.2537257273E-003 +7.9250261537E+001  +4.1488774931E-003 +1.0305724838E+002  +5.7265828153E-001 -3.2618103288E+000 
10521195.244 +5.9491325119E-001 +6.4509766910E+000  +2.8707793338E-003 +1.0581008091E+002  +5.3786378473E-003 +9.8513116868E+001  +5.6717954816E-001 -1.2150975385E+000 
10646340.426 +5.6473454649E-001 +5.1801783526E+000  +3.8097144073E-003 +1.0208410018E+002  +4.9343677998E-003 +1.1297830425E+002  +6.0000805977E-001 +1.9796080832E+000 
10771485.607 +5.9612963779E-001 +7.8969185230E+000  +2.3294484725E-003 +8.5055546383E+001  +5.5772383210E-003 +8.7122610998E+001  +5.8928115015E-001 +1.7577611643E+000 
10896630.788 +6.0136357869E-001 +6.4713818347E+000  +4.2813472631E-003 +9.2239802683E+001  +6.6293630020E-003 +8.7971467761E+001  +5.9877482213E-001 -1.5841582725E+000 
11021775.970 +5.6365259629E-001 +8.3494539947E+000  +3.2265241948E-003 +9.7227029042E+001  +6.8178236009E-003 +1.0993510884E+002  +6.2564907499E-001 +2.1443769358E+000 
11146921.151 +6.2102724639E-001 +5.1499677579E+000  +3.7538213128E-003 +9.8568097519E+001  +5.4645159745E-003 +1.1652514308E+002  +6.4278650335E-001 +4.3162680739E+000 
11272066.333 +6.0827300961E-001 +5.5603148348E+000  +3.2801245026E-003 +9.2303248906E+001  +5.8887683673E-003 +8.7378558169E+001  +6.0258729663E-001 +9.8147200187E-001 
11397211.514 +6.1667807770E-001 +7.2529566910E+000  +3.9896249746E-003 +7.1120545189E+001  +5.7871079200E-003 +8.4809975276E+001  +6.0807752597E-001 +8.6403418921E-001 
11522356.696 +6.2321728926E-001 +5.9844536041E+000  +4.3991483956E-003 +1.2039121650E+002  +5.4401309338E-003 +1.1437785944E+002  +6.4267590550E-001 +2.2465746927E+000 
11647501.877 +6.5124331304E-001 +5.7728546092E+000  +4.4175927635E-003 +8.0600841739E+001  +3.7279005922E-003 +8.1482857162E+001  +6.6277601315E-001 -3.5324647821E-001 
11772647.059 +6.4884131299E-001 +6.1764508783E+000  +5.0234728549E-003 +8.3056973033E+001  +5.7430908018E-003 +7.9692165734E+001  +6.5191391436E-001 -2.8525947546E-001 
11897792.240 +6.6016788534E-001 +4.4638739875E+000  +5.8037523519E-003 +1.0324419499E+002  +5.3807054610E-003 +9.1386276880E+001  +6.8166770759E-001 +2.3561262786E+000 
12022937.422 +6.5727979367E-001 +5.7178756201E+000  +5.8329974667E-003 +7.8122524911E+001  +5.4626241678E-003 +1.1545058351E+002  +6.7140598826E-001 -9.7032083004E-001 
12148082.603 +6.9194472990E-001 +3.4135811954E+000  +5.7700937393E-003 +8.7738276319E+001  +7.0398263078E-003 +1.1658545447E+002  +6.9610572898E-001 -2.5969430526E+000 
12273227.785 +7.1913293874E-001 +2.7149728261E+000  +5.9900236441E-003 +1.0056932746E+002  +9.2758547879E-003 +1.0135949273E+002  +7.1309486085E-001 +2.0085118125E-001 
12398372.966 +7.1645877876E-001 +4.7228334083E+000  +6.1552146532E-003 +1.0724481630E+002  +5.2136625157E-003 +1.0164572811E+002  +7.2138977674E-001 -1.9221221994E-001 
12523518.148 +7.0080966424E-001 +4.7578522465E+000  +6.3796518797E-003 +8.8385894380E+001  +6.7377282960E-003 +9.5051161983E+001  +7.3448078400E-001 -1.0142789088E+000 
12648663.329 +7.2891702297E-001 +1.6109951933E-001  +5.7854164664E-003 +7.4053539409E+001  +5.2860134087E-003 +1.0265191821E+002  +7.6539879364E-001 -6.5335615803E-001 
12773808.511 +7.4065897789E-001 +2.7935253020E+000  +6.4845051782E-003 +1.0050199224E+002  +6.0611723378E-003 +9.7277356277E+001  +7.3090946997E-001 -1.3695555555E+000 
12898953.692 +7.8211182703E-001 +2.4353114714E+000  +6.0375172603E-003 +8.5030358663E+001  +5.1473894060E-003 +9.1691821218E+001  +7.8494055432E-001 -7.5595815864E-001 
13024098.874 +7.9873019369E-001 +5.9558592319E-001  +7.3177590294E-003 +9.5893571466E+001  +7.1804335666E-003 +1.0578792205E+002  +8.0841045911E-001 +5.2937202712E-001 
13149244.055 +8.0567874888E-001 -4.0618108207E-002  +7.0183762849E-003 +1.0013239084E+002  +7.6504068528E-003 +1.0395416312E+002  +8.0990367902E-001 -1.0347800928E+000 
13274389.237 +8.0798482409E-001 -1.0291963115E+000  +6.1677155821E-003 +1.0464361356E+002  +5.1320515216E-003 +8.2247617519E+001  +8.4055313316E-001 -2.4311845963E+000 
13399534.418 +8.3772293910E-001 -3.8036193998E-001  +6.0806438744E-003 +8.4359664136E+001  +5.6825256396E-003 +9.5705356556E+001  +8.6180529587E-001 -2.5595350819E+000 
13524679.599 +8.5849338964E-001 -4.6091252955E-001  +6.8773268158E-003 +9.1352872910E+001  +6.9829163318E-003 +9.4496341458E+001  +8.6552753431E-001 -3.3387524273E+000 
13649824.781 +8.9234559598E-001 -2.5263290248E+000  +6.5812222921E-003 +9.2840563439E+001  +6.5568125329E-003 +8.9180941840E+001  +8.7687431851E-001 -3.7851105730E+000 
13774969.962 +8.7037766364E-001 -1.1800668493E+000  +6.0186971284E-003 +9.8283737284E+001  +6.9383433743E-003 +1.0628232537E+002  +9.0402566612E-001 -3.1969456117E+000 
13900115.144 +9.0709654943E-001 -1.6416954159E+000  +6.4084893169E-003 +9.8523316815E+001  +6.3085276803E-003 +9.3052925761E+001  +9.1216183509E-001 -2.7175314019E+000 
14025260.325 +9.2901198011E-001 -3.8120631395E+000  +5.2145559871E-003 +8.8323628497E+001  +7.4476354005E-003 +8.5522930251E+001  +9.3362973185E-001 -3.9046704756E+000 
14150405.507 +9.3812881866E-001 -4.5791629639E+000  +7.9286415855E-003 +8.3319197659E+001  +7.1367613948E-003 +9.3051808063E+001  +9.3277629136E-001 -3.1144614650E+000 
14275550.688 +9.7975759469E-001 -4.8159609569E+000  +7.1319243211E-003 +8.3276836789E+001  +7.8704924734E-003 +9.5051143330E+001  +9.7405924769E-001 -4.8738750626E+000 
14400695.870 +9.7334140363E-001 -4.1225638802E+000  +7.6791398335E-003 +9.3937522139E+001  +6.4500999806E-003 +9.8438256453E+001  +9.8956759136E-001 -5.0721757559E+000 
