!  2-Port S-parameters saved by WinCal
! VAR MeasName=S-Parameters (CALIBRATED_DATA) read from VNA (P5004A)
! VAR MeasDate=28/08/2024 12:10:13
! VAR NAME=S2_r7c9_RESET1_9k-100M_2
! VAR FILENAME=S2_r7c9_RESET1_9k-100M_2.S2P
! VAR DATE=28/08/2024 12:10:13
! VAR PHYS_PORTS=1,2
! VAR ObjTypeName=DATASET
! VAR IndexType=Frequency
!
# Hz S MA R 50
9000.000 +9.3998352462E-002 -1.6553235531E+002  +1.4139611040E-002 +1.4376426497E+002  +2.0137968260E-002 -1.5077689668E+001  +3.9528502294E-001 -1.3519142907E+002 
134145.181 +1.1206372754E-001 +1.6988115879E+002  +7.7541747252E-005 -1.4260927343E+001  +3.8918835850E-004 +3.6596108987E+001  +2.4034117190E-001 -1.7126730768E+002 
259290.363 +1.1177645134E-001 +1.6957088097E+002  +6.2133281470E-004 -5.5462669015E+001  +6.7804687680E-004 -1.9828427498E+001  +2.4980514847E-001 -1.6794741069E+002 
384435.544 +1.1401827153E-001 +1.6976343699E+002  +1.1485567670E-004 +7.2738610093E+000  +3.5698837591E-004 -8.4230595178E+001  +2.4321593843E-001 -1.6741606922E+002 
509580.726 +1.1253760047E-001 +1.7189069103E+002  +5.6085966788E-004 +6.5785186724E+001  +2.4438095893E-004 -7.5144440592E+001  +2.4719964736E-001 -1.6742885177E+002 
634725.907 +1.1720656461E-001 +1.7080367209E+002  +6.1675642161E-004 +2.6050185711E+001  +2.4209109466E-004 +1.6800855581E+002  +2.5906654569E-001 -1.6666951326E+002 
759871.089 +1.2092439796E-001 +1.7212782227E+002  +7.9198746924E-004 -1.3902119544E+002  +2.4197712078E-004 -1.7329767389E+001  +2.5187814323E-001 -1.6581739356E+002 
885016.270 +1.2000149196E-001 +1.6889966509E+002  +2.7125804863E-004 +2.7757992743E+001  +5.6690414910E-004 +9.4652536292E+000  +2.3778643882E-001 -1.6703400773E+002 
1010161.452 +1.1693934848E-001 +1.7116555847E+002  +1.6059447464E-003 -4.3836404839E+001  +1.2255044732E-003 +1.0794371249E+002  +2.0644727927E-001 -1.7132218470E+002 
1135306.633 +1.1733125023E-001 +1.7072851147E+002  +2.4112250939E-003 -4.8066142252E+001  +2.8137010590E-003 +1.6927276316E+002  +1.1237789641E-001 -1.5869611558E+002 
1260451.815 +1.1644525627E-001 +1.7096861460E+002  +1.1900412188E-003 -9.3904781501E+001  +2.2867624890E-003 +1.0856063480E+002  +1.8642578267E-001 -1.5550235308E+002 
1385596.996 +1.2895786447E-001 +1.7155560071E+002  +5.1306885086E-004 +1.7324602150E+002  +4.0227259718E-004 -8.1319570363E+000  +2.6353203993E-001 -1.5520460711E+002 
1510742.178 +1.2684877922E-001 +1.7081897827E+002  +9.7962071228E-004 +1.4725081839E+000  +1.0728203862E-003 -4.8289383634E+001  +2.5948724843E-001 -1.5988115516E+002 
1635887.359 +1.2633874657E-001 +1.7004076737E+002  +2.4164857303E-003 +1.2994356946E+002  +1.6289372431E-004 +1.0442398482E+002  +2.3456544123E-001 -1.4906364308E+002 
1761032.541 +1.2869258677E-001 +1.7059602252E+002  +9.1065395072E-004 -1.4542836096E+002  +7.3015004095E-004 +1.7398657846E+002  +2.2388968737E-001 -1.5743798150E+002 
1886177.722 +1.2853644276E-001 +1.6728776245E+002  +1.6421326420E-003 +3.7939443242E+001  +1.5849222025E-003 +2.9356327377E+001  +2.2374743533E-001 -1.5889533366E+002 
2011322.904 +1.3129482263E-001 +1.6494073818E+002  +2.2076897743E-003 +5.6157295448E+001  +6.3278992451E-004 +1.5322142365E+002  +1.7780224161E-001 -1.7198720936E+002 
2136468.085 +1.2181644504E-001 +1.6877101355E+002  +1.0562558649E-003 -4.8369284668E+001  +4.8698887349E-003 -3.4565409989E+001  +1.4775857601E-001 -1.6485022038E+002 
2261613.267 +1.3725190613E-001 +1.6319229481E+002  +2.2229040049E-003 +7.6687545243E+001  +2.5678263338E-003 -1.3583599553E+002  +1.2807320517E-001 -1.6795275774E+002 
2386758.448 +1.3366718425E-001 +1.6322361809E+002  +1.9700431790E-003 -5.1151570898E+001  +2.7049778454E-003 +5.4553791953E+001  +2.1931152726E-001 -1.7968568765E+002 
2511903.630 +1.3208707274E-001 +1.6207661115E+002  +1.8755532924E-003 +1.0605826559E+002  +7.1439977557E-003 +7.8724586656E+000  +2.1613755577E-001 +1.4301545973E+002 
2637048.811 +1.2440072831E-001 +1.6939001804E+002  +5.5410221518E-003 -1.5975448780E+002  +1.1600209388E-002 +6.7405472508E+001  +1.0027726336E+000 +1.6493848559E+002 
2762193.992 +1.1596832276E-001 +1.7012591031E+002  +3.6943879315E-003 +1.7249091481E+002  +8.9737374111E-003 -1.3500099021E+002  +3.0130669770E-001 -7.2961517279E+001 
2887339.174 +1.1902232202E-001 +1.6529108294E+002  +4.8118858854E-003 -2.2487760832E+001  +6.5609992021E-003 -4.4128333027E+001  +4.1800657203E-001 -1.1542813240E+002 
3012484.355 +1.1612444573E-001 +1.7961477884E+002  +9.7280510611E-003 +2.2718392435E+001  +4.0346296441E-003 -4.1085499101E+001  +3.5222042772E-001 -1.0656390853E+002 
3137629.537 +1.2354094971E-001 +1.7009922465E+002  +9.2926699794E-003 +5.8648419780E+000  +1.3327683938E-002 -6.4827641372E+001  +4.7396355444E-002 -1.1037984480E+002 
3262774.718 +1.3183420292E-001 +1.7898888651E+002  +1.5791127496E-002 +1.7482173625E+001  +9.2444293409E-003 -9.4810204353E+001  +5.1818712999E-002 +1.1051928385E+002 
3387919.900 +1.3157243331E-001 +1.6152492222E+002  +1.1365942896E-002 +1.0046153607E+002  +3.2874978739E-003 +1.7307105526E+002  +2.5767729002E-001 -8.4408958846E+001 
3513065.081 +1.5062341955E-001 +1.4787021500E+002  +2.6965171493E-003 +7.4471114209E+001  +7.4076649855E-003 -8.5372938442E+001  +1.7315524333E-001 -1.0697767317E+002 
3638210.263 +1.7743485096E-001 +1.4440457377E+002  +6.2347635375E-003 +8.9327323448E+001  +1.0763489196E-002 +7.7611891268E+001  +5.7403302932E-001 +1.6650173878E+002 
3763355.444 +1.6972437612E-001 +1.4812568204E+002  +1.5850546237E-002 +1.3828568178E+002  +8.5929148334E-003 +1.2889965435E+001  +3.4764118664E-001 +9.6392193291E+001 
3888500.626 +1.4630029692E-001 +1.5390423577E+002  +6.3386225002E-003 +3.7779912593E+001  +1.0489309516E-002 -1.2144678479E+002  +5.8740839941E-001 +3.4579377320E+001 
4013645.807 +1.6215528393E-001 +1.3832812758E+002  +7.9320755132E-003 +1.4223684817E+002  +3.8823196520E-003 +5.3328075554E+001  +4.7628534690E-001 +1.3429543213E+002 
4138790.989 +1.7963512383E-001 +1.4533851429E+002  +4.4207523121E-003 +2.9004223971E+001  +1.9604070093E-002 +1.4061221209E+002  +6.3721650739E-001 +6.8187230886E+001 
4263936.170 +2.0258564593E-001 +1.4360233192E+002  +3.3448360149E-003 +1.7854039513E+002  +7.0674673638E-003 +2.4641216038E+001  +5.0802084776E-001 +1.3908121699E+002 
4389081.352 +1.8400501687E-001 +1.3362738654E+002  +3.8420487601E-002 -4.5965899362E+001  +1.1855164516E-001 -4.8793758604E+000  +3.3758533608E+000 +4.2698608712E+001 
4514226.533 +2.2564257219E-001 +1.2999699999E+002  +1.9874797622E-002 +9.4337757864E+001  +1.9392231612E-002 +1.9167685256E+001  +3.3575823762E-001 +8.9877018196E+001 
4639371.715 +2.8178604879E-001 +1.3521172692E+002  +2.9934235733E-002 +1.2583035928E+002  +3.0437163601E-002 -1.3102954236E+002  +2.7366763224E+000 +1.4133780669E+002 
4764516.896 +3.1115055250E-001 +1.3037152036E+002  +3.3494642932E-002 +1.7225597235E+002  +4.5953469726E-002 +9.6994561181E+001  +2.1413092418E+000 +1.2397683121E+002 
4889662.078 +4.3488827618E-001 +1.1515188072E+002  +2.8458052888E-001 -9.7432143324E+001  +1.9081054599E-001 +1.4088027001E+002  +1.2622810013E+001 -1.3260791102E+002 
5014807.259 +4.3621382371E-001 +1.2946438729E+002  +3.0316592716E-002 +1.4503646662E+002  +4.7468834942E-002 -1.6115574682E+002  +3.2292251422E+000 +1.7684148677E+002 
5139952.441 +3.9284261984E-001 +1.2368407478E+002  +4.8843428166E-002 +1.1229809398E+002  +1.3930647473E-002 -1.5322117687E+002  +1.3595354491E+000 +6.3525848384E+001 
5265097.622 +4.0268603348E-001 +1.2928645705E+002  +1.0627672515E-002 +1.6292120501E+002  +1.9609193318E-002 +1.5429158836E+001  +2.7233653224E+000 +7.9928937160E+001 
5390242.804 +4.7817380691E-001 +1.2246370492E+002  +2.5724929710E-002 +1.6858493303E+002  +4.1663495379E-002 +1.3388412304E+002  +1.6878360098E+000 +1.2973194033E+002 
5515387.985 +4.6218058316E-001 +1.2017789598E+002  +2.5367771358E-002 +8.4504550800E+001  +3.0314965157E-002 +1.2563595640E+002  +1.3705220409E+000 +6.9820064687E+001 
5640533.166 +5.3038386885E-001 +1.2316090440E+002  +3.0042832735E-002 +1.0026652549E+002  +4.1111178905E-002 +4.1072472824E+001  +2.1046692976E+000 +5.2297182791E+001 
5765678.348 +4.8125683847E-001 +1.2338080464E+002  +1.5897248236E-002 +6.3402835332E+001  +4.2149646900E-002 +4.8526186931E+001  +2.2467425496E+000 +4.7490504778E+001 
5890823.529 +5.4548050894E-001 +1.1752068550E+002  +2.3700760389E-002 -1.5906128099E+002  +3.4830098843E-002 +8.9163481920E+001  +1.5127040762E+000 +7.2527023649E+001 
6015968.711 +6.0167297112E-001 +1.1157348501E+002  +2.7268535846E-002 +1.0696988414E+002  +3.0169911819E-002 +2.1162354071E+000  +1.4867727936E+000 +5.4789977749E+001 
6141113.892 +6.7714174202E-001 +1.0822407807E+002  +2.5818389359E-002 +7.9429281632E+001  +7.6453808010E-003 -7.5069892023E+001  +1.7794895542E+000 +5.1830927098E+001 
6266259.074 +7.4908952480E-001 +1.1241010377E+002  +1.3355742646E-002 +5.1488617214E+001  +3.1199156224E-002 +6.8504990837E+001  +1.9407322325E+000 +2.1098315179E+001 
6391404.255 +9.9316970672E-001 +1.0441231122E+002  +1.8485517402E-002 +7.5867278437E+001  +2.0394639429E-002 +3.4675407698E+001  +1.2830370322E+000 +8.4399532694E+000 
6516549.437 +1.0913514679E+000 +8.7832071713E+001  +9.3904522619E-003 -6.3997328205E+000  +3.0585637589E-002 -9.9527341915E+000  +1.5208163743E+000 +1.1349704266E+001 
6641694.618 +1.3223513127E+000 +6.6410339565E+001  +1.5568197019E-002 +9.1477407176E+000  +3.8522717686E-002 +6.9953704496E+001  +1.4297578995E+000 -8.8858174073E+000 
6766839.800 +1.6777286210E+000 +4.1956537129E+001  +2.7344481038E-002 -8.8489419801E+000  +2.5538973998E-002 +1.8879612487E+001  +1.4040485540E+000 -5.3219878310E+000 
6891984.981 +1.9467401953E+000 +3.4922513076E+001  +7.1134044984E-003 -1.6980751720E+002  +2.6911064111E-002 -5.4193034584E+001  +1.5131963010E+000 -1.5146498309E+001 
7017130.163 +1.4695833091E+000 +1.5330032476E+001  +2.3644135989E-002 -3.1181197357E+001  +3.0951228835E-002 +9.1914159672E+000  +1.3133010630E+000 -1.3330500580E+001 
7142275.344 +1.6551597146E+000 +1.9066109573E+001  +2.9038757807E-002 +2.2326533216E+001  +1.4796796081E-002 +1.9437550351E+001  +1.3355746291E+000 -4.8495768852E+000 
7267420.526 +1.4597687026E+000 +3.4464951688E+000  +5.3621310781E-003 +1.4898052725E+001  +1.1165434572E-002 +3.0205540349E+000  +1.3320991933E+000 -1.3084528426E+001 
7392565.707 +1.2141553663E+000 +2.3428139708E+000  +7.3355869177E-003 +6.1997225162E+001  +1.6476949803E-002 +1.2585587368E+001  +1.2708245765E+000 -5.0173587968E+000 
7517710.889 +1.1729261975E+000 -4.9592037785E+000  +1.2441740366E-002 +4.5796792680E+001  +1.5165044297E-002 +3.7800100786E+001  +1.1721072584E+000 -1.1335450554E+001 
7642856.070 +1.0975156564E+000 +1.5204802515E+000  +1.5149221026E-002 +2.2373692053E+001  +1.1054723583E-002 +3.5905858336E+001  +1.0199479553E+000 -7.4868182571E+000 
7768001.252 +9.5747898462E-001 -1.9044687893E-001  +1.3858343095E-002 +4.9302252075E+000  +1.2973661671E-002 +2.3289657967E+001  +9.9701399015E-001 +7.7573082572E-001 
7893146.433 +7.6252346193E-001 +9.1195578451E+000  +1.1704688912E-002 +2.3749133374E+001  +5.4285904579E-003 +5.4069912884E+001  +9.3711681455E-001 -3.9768260250E+000 
8018291.615 +7.2600123063E-001 +5.1745730258E+000  +5.6027667743E-003 +5.1755772837E+001  +9.1295049073E-003 +7.3986790479E+000  +7.5807350309E-001 -3.2944801746E+000 
8143436.796 +7.8194903802E-001 +6.4412303554E+000  +1.3832983678E-002 +5.5025040742E+001  +1.2685960423E-002 +8.2979129077E+000  +7.6345521269E-001 -4.4907661990E+000 
8268581.977 +7.1638819792E-001 +9.2251403978E+000  +6.8664506202E-003 +2.4783412068E+001  +3.3508723565E-003 +5.5610603931E+001  +7.1816253806E-001 -1.4176670993E+000 
8393727.159 +7.4591019844E-001 +5.8477011683E+000  +1.2427766955E-002 +1.5376709339E+001  +9.8665005081E-003 +4.0803383706E+001  +7.4128223128E-001 +6.3305404957E-001 
8518872.340 +7.0316775299E-001 +5.8278554172E+000  +6.6311793860E-003 +1.7764285569E+001  +6.7253854735E-003 +3.9808180877E+001  +6.2078676904E-001 -2.4806124717E+000 
8644017.522 +6.8324641089E-001 +8.0853743585E+000  +6.6251555253E-003 +3.9069683969E+001  +9.0813508319E-003 +3.8673348283E+001  +7.9805832502E-001 +1.4817029245E+000 
8769162.703 +6.2546634772E-001 +8.3188906240E+000  +6.9148751482E-003 -5.6182849563E+000  +9.5656028048E-003 +5.1904118095E+001  +6.7994591155E-001 +9.0226718477E-001 
8894307.885 +5.6463064969E-001 -9.8484319900E-001  +7.4494179528E-003 +4.5260618993E+001  +9.1406798689E-003 +5.6430046814E+001  +5.9135143187E-001 +7.1602092158E-001 
9019453.066 +5.4104712412E-001 +5.0516415710E+000  +8.9463030105E-003 +1.0226521161E+001  +5.3506916772E-003 +3.5311696292E+001  +6.4419860295E-001 +2.4057886006E+000 
9144598.248 +5.7516675593E-001 +3.1166673659E+000  +6.4209493163E-003 +2.0287748956E+001  +9.8885786734E-003 +4.8896197919E+001  +5.7733893404E-001 -1.8236623532E+000 
9269743.429 +5.8219133193E-001 +9.7742105303E+000  +1.1546216447E-002 +4.2403919659E+001  +9.6226881917E-003 +3.4981129049E+001  +6.3802484096E-001 -3.9786482904E+000 
9394888.611 +5.2503870063E-001 +4.5708592452E+000  +8.0436886755E-003 +2.9911553428E+001  +4.3530770804E-003 +4.1656499025E+001  +5.4461255522E-001 -1.9132033458E+000 
9520033.792 +5.3276013096E-001 -8.7437607765E-001  +1.2490549541E-002 +3.4965219829E+001  +9.0741257293E-003 +3.3766170296E+001  +5.8531133949E-001 -6.0502704955E+000 
9645178.974 +5.7084245006E-001 +1.6783026413E-001  +1.2094669771E-002 +2.6877149887E+001  +9.3470704640E-003 +3.8073858411E+001  +5.4266955001E-001 -4.9759661854E+000 
9770324.155 +5.3995014012E-001 -1.7333509148E+000  +8.4125256355E-003 +2.1320519270E+001  +1.0115192441E-002 +5.1929205486E+001  +5.9707851626E-001 -3.7440831438E+000 
9895469.337 +5.4066426454E-001 +4.3499152353E+000  +7.2960776851E-003 +3.1118765431E+001  +1.0880890174E-002 +5.2531245307E+001  +5.3276147871E-001 -1.0336495606E+001 
10020614.518 +5.6532986864E-001 +2.5821636887E+000  +1.0155776728E-002 +3.3392312378E+001  +4.5185181782E-003 +3.5595253854E+001  +5.8145792203E-001 -4.4372806080E+000 
10145759.700 +5.7947402442E-001 +2.9908947563E+000  +1.0055173757E-002 +4.0991677404E+001  +7.5046476621E-003 +3.1248232936E+001  +5.7179292284E-001 -1.3891375890E+000 
10270904.881 +5.5086537022E-001 +3.6399972988E+000  +8.8633108202E-003 +2.1869777468E+001  +7.7899511935E-003 +5.8883171089E+001  +5.7960580694E-001 -3.3180024550E+000 
10396050.063 +5.7291494546E-001 +4.3869340884E+000  +9.3450275020E-003 +1.7125527567E+001  +5.7567895972E-003 +2.8631473743E+001  +5.7923233644E-001 -4.0483662252E+000 
10521195.244 +5.5851880557E-001 +6.5955758669E+000  +7.8150461859E-003 +2.6574666832E+001  +6.6356307741E-003 +5.3816310283E+001  +6.0831629725E-001 -4.0613366873E+000 
10646340.426 +5.5515565853E-001 +5.3328228089E+000  +6.4829296830E-003 +4.9214254164E+001  +8.1710092158E-003 +2.9772049439E+001  +5.8188307365E-001 +6.3593987606E-002 
10771485.607 +5.6157228678E-001 +5.5440661468E+000  +9.2611795700E-003 +4.0578727298E+001  +9.0761139391E-003 +5.0529580954E+001  +5.5989378035E-001 +1.2025455302E+000 
10896630.788 +5.7781802579E-001 +8.1959708524E+000  +9.7555423936E-003 +2.8745096018E+001  +8.1897259683E-003 +3.3365997099E+001  +5.7377700951E-001 +3.7457207431E+000 
11021775.970 +5.8275555879E-001 +5.1672821555E+000  +1.1159322525E-002 +3.4583511713E+001  +1.0881909612E-002 +2.3587115973E+001  +5.8247417415E-001 -4.6370165998E-001 
11146921.151 +5.8945534417E-001 +5.1846817935E+000  +1.0644635570E-002 +1.8367656636E+001  +7.7505484076E-003 +4.7958354781E+001  +6.2107710061E-001 +7.3910318945E-002 
11272066.333 +5.9895866891E-001 +4.6342377270E+000  +9.2891889506E-003 +3.6259512170E+001  +8.2950434537E-003 +5.1447390331E+001  +6.5272642663E-001 +1.6629671766E+000 
11397211.514 +6.1921934806E-001 +2.9332152884E+000  +1.0869590845E-002 +3.5192307602E+001  +8.1330137924E-003 +5.6268153999E+001  +6.4180113321E-001 +3.7372787903E+000 
11522356.696 +6.1968100759E-001 +6.2167904043E+000  +9.1934432667E-003 +3.8814917865E+001  +9.5801304023E-003 +4.1045278104E+001  +6.3544739839E-001 +1.5290747365E+000 
11647501.877 +6.1721096817E-001 +6.4214092027E+000  +8.1111030610E-003 +2.8754861778E+001  +1.1655650353E-002 +3.7644015555E+001  +6.4132945557E-001 -2.8035030676E-001 
11772647.059 +6.3517955306E-001 +6.6521930425E+000  +1.1070574853E-002 +3.7694293517E+001  +1.0807323521E-002 +4.1688457137E+001  +6.6126959430E-001 +1.7678940024E+000 
11897792.240 +6.5552482162E-001 +3.2060824694E+000  +9.1540916349E-003 +2.9090525962E+001  +9.9985482564E-003 +4.3140581423E+001  +6.5387579530E-001 +2.0954040533E+000 
12022937.422 +6.4452151215E-001 +4.2485781469E+000  +9.9307582589E-003 +4.7232792309E+001  +1.0372663717E-002 +3.1962906323E+001  +7.0004059703E-001 +1.5053351692E+000 
12148082.603 +6.7931000681E-001 +3.4088177050E+000  +1.0119598118E-002 +4.0280346585E+001  +1.0086082244E-002 +4.5273041990E+001  +6.7862418681E-001 -1.5040440496E+000 
12273227.785 +7.2415400819E-001 +2.0700149244E+000  +1.1065579574E-002 +2.8806506310E+001  +9.8994691205E-003 +4.4198080076E+001  +6.9753992275E-001 -6.2844461461E-001 
12398372.966 +7.1656524140E-001 +2.8973596397E+000  +1.1129527924E-002 +3.6075220092E+001  +1.2005932426E-002 +4.1772477932E+001  +6.9084168675E-001 +8.0226795977E-001 
12523518.148 +7.3039798845E-001 +3.5417645175E+000  +8.1139455483E-003 +4.1583478736E+001  +1.2504588203E-002 +4.4433747400E+001  +7.3931398225E-001 +7.5657839217E-001 
12648663.329 +7.2887045552E-001 +2.3714855272E+000  +9.7712639348E-003 +3.9960307313E+001  +9.9925646472E-003 +4.0032976269E+001  +7.6675136304E-001 -8.5240284436E-002 
12773808.511 +7.4445334492E-001 +2.2467662053E+000  +1.0177894771E-002 +3.7049674180E+001  +1.0705082122E-002 +4.8021577723E+001  +7.6256568957E-001 +1.0452205996E-001 
12898953.692 +7.6570841688E-001 +2.3753749016E+000  +1.0639269470E-002 +3.6719596111E+001  +1.0945430122E-002 +2.9203541477E+001  +7.6600452552E-001 -6.6029205651E-001 
13024098.874 +7.9969413445E-001 +5.9450390614E-001  +1.0749527036E-002 +3.3129412619E+001  +1.0850543032E-002 +4.5958875362E+001  +8.0092464818E-001 -1.1440921769E+000 
13149244.055 +7.9116081542E-001 -6.3915901410E-001  +1.0329305505E-002 +4.0559511557E+001  +1.1811919736E-002 +4.3066106633E+001  +8.1262767100E-001 -8.3591871672E-001 
13274389.237 +7.9958123587E-001 -1.3107378121E+000  +1.0918997076E-002 +3.9799521074E+001  +1.1024675319E-002 +4.2117504368E+001  +7.9944053666E-001 -6.3107690982E-001 
13399534.418 +8.4802078995E-001 -2.1643751386E+000  +1.0991090797E-002 +3.5388040371E+001  +9.9709683407E-003 +4.2877894483E+001  +8.4092327729E-001 -1.1936357619E+000 
13524679.599 +8.5849283869E-001 -1.0066165453E+000  +1.1312691992E-002 +4.3761883990E+001  +1.2879102757E-002 +3.5505480249E+001  +8.4045921884E-001 -2.8024706009E+000 
13649824.781 +8.7419705417E-001 -2.1929975322E+000  +1.0644802964E-002 +4.0649331809E+001  +1.2265836585E-002 +4.7731623236E+001  +8.9209662402E-001 -5.0193411794E+000 
13774969.962 +9.0144194684E-001 -2.2321193384E+000  +1.2659322470E-002 +3.5175013820E+001  +1.1264868076E-002 +4.4073996895E+001  +8.7831770842E-001 -3.7986474494E+000 
13900115.144 +8.9541444181E-001 -2.4495065884E+000  +1.1708408517E-002 +2.9553438363E+001  +1.1985522866E-002 +3.1590407185E+001  +9.1067424581E-001 -6.6947510414E+000 
14025260.325 +9.0071213700E-001 -3.2911312729E+000  +1.2923211242E-002 +4.2712372667E+001  +1.1908188277E-002 +3.6433487596E+001  +9.2266063961E-001 -4.1427967030E+000 
14150405.507 +9.2453786702E-001 -4.9014596252E+000  +1.1434420166E-002 +3.3046210552E+001  +1.4208884758E-002 +3.9606546499E+001  +9.3602363979E-001 -3.2848097318E+000 
14275550.688 +9.3270141212E-001 -5.3605633122E+000  +1.1942022869E-002 +3.6932353240E+001  +1.2213482131E-002 +3.5802162850E+001  +9.6146579221E-001 -5.0203771016E+000 
14400695.870 +9.6096392665E-001 -4.7178919937E+000  +1.1144356927E-002 +4.2622363558E+001  +1.0997026950E-002 +4.1415056548E+001  +9.8080375287E-001 -5.2533036086E+000 
