!  2-Port S-parameters saved by WinCal
! VAR MeasName=S-Parameters (CALIBRATED_DATA) read from VNA (P5004A)
! VAR MeasDate=28/08/2024 10:12:25
! VAR NAME=S2_r4c9_RESET1_9k-100M_1
! VAR FILENAME=S2_r4c9_RESET1_9k-100M_1.S2P
! VAR DATE=28/08/2024 10:12:25
! VAR PHYS_PORTS=1,2
! VAR ObjTypeName=DATASET
! VAR IndexType=Frequency
!
# Hz S MA R 50
9000.000 +1.0383357215E-001 -1.5853587916E+002  +6.9191075350E-003 +1.7150551611E+002  +1.3199586710E-002 -1.0667872585E+002  +2.5322248651E-001 -1.3729148593E+002 
134145.181 +1.1150225914E-001 +1.6948182488E+002  +1.4242097221E-004 +1.7217038159E+002  +5.8993030130E-004 +4.1454354791E+001  +2.4405429142E-001 -1.7075818528E+002 
259290.363 +1.1175874746E-001 +1.6952470546E+002  +1.0084531434E-003 -1.3711058758E+002  +8.1565844013E-004 +1.1953126272E+000  +2.4345010795E-001 -1.6704000173E+002 
384435.544 +1.1472933768E-001 +1.7018232029E+002  +4.3511843297E-004 +5.4504875651E+001  +5.5456085003E-004 +1.6119732662E+002  +2.3421924063E-001 -1.6915494446E+002 
509580.726 +1.1457253981E-001 +1.7122287493E+002  +5.8232103792E-004 +3.4801222316E+001  +6.4906489777E-004 -1.6010783770E+002  +2.5333739234E-001 -1.6832978897E+002 
634725.907 +1.1762329940E-001 +1.7214656626E+002  +9.3947057565E-004 -7.9888079814E+001  +4.9652395823E-004 -1.8087740064E+001  +2.4432308962E-001 -1.6429667214E+002 
759871.089 +1.1741459929E-001 +1.7057923531E+002  +7.1612631897E-004 -6.5828541856E+001  +5.9462320039E-004 -1.8868654398E+001  +2.5033940437E-001 -1.6605628259E+002 
885016.270 +1.2021855822E-001 +1.6983574299E+002  +3.2432421481E-004 -1.6906144203E+002  +2.8940705718E-004 +1.1207166669E+002  +2.4722852090E-001 -1.6696952885E+002 
1010161.452 +1.1696163869E-001 +1.7050711618E+002  +1.7701209504E-003 -5.3290988910E+000  +1.9598913657E-003 +1.5163850875E+002  +1.8955261108E-001 -1.6594298531E+002 
1135306.633 +1.2069855952E-001 +1.7006982209E+002  +1.3676444659E-003 +8.0502066445E+001  +2.0053682623E-003 +1.2856944512E+002  +2.0220826627E-001 -1.6706503404E+002 
1260451.815 +1.2061223970E-001 +1.7114701064E+002  +1.7624047949E-003 +1.2672848133E+002  +1.9869127826E-003 +1.0775303335E+002  +2.0204323854E-001 -1.5016887516E+002 
1385596.996 +1.2465636628E-001 +1.7293554694E+002  +6.4961373152E-004 -1.3805432275E+002  +7.5220350655E-004 -3.8944986825E+001  +2.7036678009E-001 -1.5879736282E+002 
1510742.178 +1.2913706207E-001 +1.7289816783E+002  +6.0306973347E-004 -2.5084372948E+001  +1.2170218446E-003 -2.9992393249E+001  +2.5464318022E-001 -1.5812084908E+002 
1635887.359 +1.2465536615E-001 +1.7237454841E+002  +8.9649287632E-004 -2.7929461199E+001  +1.3900120778E-004 +1.2634681540E+001  +2.4637975993E-001 -1.6135679962E+002 
1761032.541 +1.3044605017E-001 +1.6927439671E+002  +4.8672466159E-004 +7.7544131790E+001  +9.9153391754E-004 +1.3879675843E+002  +2.3737130510E-001 -1.5773416281E+002 
1886177.722 +1.2813156265E-001 +1.6962029985E+002  +1.6060482131E-003 -2.4728000005E+001  +7.9143662140E-004 -1.5806794556E+002  +2.2587074727E-001 -1.6288781878E+002 
2011322.904 +1.2551433542E-001 +1.6797292468E+002  +2.0614863810E-003 -1.4208916056E+002  +1.1926628489E-003 -1.3148582585E+002  +2.1021142587E-001 -1.7111625926E+002 
2136468.085 +1.3535482565E-001 +1.6666074811E+002  +1.9331699877E-003 +1.1221403337E+002  +4.3381201456E-003 -2.3732268316E+001  +1.8041094783E-001 -1.7219162666E+002 
2261613.267 +1.3336942759E-001 +1.6309732109E+002  +7.6621144720E-004 -1.5944560658E+001  +2.4472375554E-003 -6.1160694444E+001  +2.1321954531E-001 -1.7279695439E+002 
2386758.448 +1.3553346557E-001 +1.6469329280E+002  +3.6169621122E-004 -1.2377474914E+002  +6.2207449411E-004 +1.2984638340E+002  +2.2592743056E-001 -1.7740890682E+002 
2511903.630 +1.3915291710E-001 +1.6558492459E+002  +2.2677027944E-003 -7.2329978079E+001  +2.0211203902E-003 -1.4855639317E+002  +1.3857259734E-001 -1.5719817315E+002 
2637048.811 +1.3499898489E-001 +1.5702528695E+002  +1.0494724146E-002 -9.3209168724E+001  +4.0373945757E-003 +6.7738550209E+001  +1.1522859628E-001 +1.2677916221E+002 
2762193.992 +1.0832454071E-001 +1.7560141343E+002  +5.0446518146E-003 -1.2320863338E+002  +6.6573400807E-003 +1.1105558374E+002  +1.8058532780E-001 +1.4526808998E+002 
2887339.174 +1.3564417328E-001 +1.7266599412E+002  +3.0328219622E-003 -2.9852584490E+001  +3.8248323122E-003 -2.8515603423E+001  +6.8332838089E-001 -1.3678639733E+002 
3012484.355 +1.0191220065E-001 +1.7098282762E+002  +1.4890559377E-002 -8.5283939523E+001  +1.3134913409E-002 -1.1566362881E+002  +4.1977355844E-001 -9.0208567843E+001 
3137629.537 +9.3945662934E-002 +1.6771771444E+002  +7.8257912884E-003 -4.9525202816E+001  +8.4292705627E-003 +1.0214339668E+002  +2.4784230388E-001 -7.5882910019E+001 
3262774.718 +1.3008488689E-001 +1.7290568612E+002  +1.8414720920E-002 +1.7646391984E+002  +8.0383835850E-003 -1.6081501671E+002  +2.9944484085E-001 -9.1642140368E+000 
3387919.900 +1.4092991488E-001 +1.5963623801E+002  +5.9395579768E-003 +1.4102789396E+002  +2.1478253978E-003 -7.7652277639E+001  +1.1383151872E-001 -1.6722472873E+002 
3513065.081 +1.5798566218E-001 +1.5255961636E+002  +4.4716844272E-003 -2.1452073695E+001  +1.1369228538E-002 +3.2842295650E+001  +2.7203042058E-001 +1.1100649599E+002 
3638210.263 +1.8268259940E-001 +1.4414438548E+002  +2.3017384469E-003 +5.8371298537E+001  +2.6055400346E-003 +6.0339677629E+001  +4.7781320184E-001 +1.3876908148E+002 
3763355.444 +1.8749626225E-001 +1.4894261804E+002  +1.0846742770E-002 -1.6576631667E+002  +1.8916497636E-002 -7.2548794093E+001  +1.2900837506E+000 +1.2413560094E+002 
3888500.626 +1.4428586280E-001 +1.4780930384E+002  +1.6926013373E-002 +1.0948402582E+002  +1.2706328150E-002 +1.1332885984E+001  +5.7194460484E-001 +1.1231574139E+002 
4013645.807 +1.8097862883E-001 +1.5034087841E+002  +6.2945462488E-003 +1.7293931856E+002  +1.1864863510E-003 +1.3275488304E+002  +4.5591542094E-001 +1.3627744706E+002 
4138790.989 +1.7669987210E-001 +1.4845830089E+002  +1.5334976189E-002 -1.4557715509E+002  +1.7087687219E-002 -6.7967254207E+001  +4.4312987152E-001 +9.9386943973E+001 
4263936.170 +1.3451221564E-001 +1.4896208061E+002  +1.0348059713E-002 +1.7807357823E+001  +7.8938290140E-003 -3.7321312192E+001  +1.4871780029E-001 +8.9721815108E+001 
4389081.352 +2.1529664723E-001 +1.3552775224E+002  +1.3790573996E-002 +1.5720232227E+002  +3.7259751916E-003 +1.4981642324E+002  +5.0072727753E-001 +1.4262573288E+002 
4514226.533 +2.2434160716E-001 +1.2932802477E+002  +2.4485116335E-002 +2.3371171799E+001  +2.8017276965E-002 +6.2779085757E+001  +8.1613919751E-001 +6.4183977239E+001 
4639371.715 +2.5469048690E-001 +1.2902545686E+002  +1.7963055422E-002 -1.4246536055E+002  +7.1611280775E-002 +1.4259115958E+002  +2.1290448543E+000 +7.5522614297E+001 
4764516.896 +4.0730135636E-001 +1.2302502471E+002  +3.0428350081E-002 +8.3407299535E+001  +2.9125263153E-002 +1.8743925557E+001  +1.0733692892E+000 +1.9771675945E+001 
4889662.078 +4.3761798820E-001 +1.3373058641E+002  +3.9389748507E-002 +1.2205574431E+002  +4.8459860989E-002 -5.9900086643E-001  +4.2196692900E+000 -1.7303132784E+002 
5014807.259 +4.6906369396E-001 +1.2462465977E+002  +2.5090968016E-002 +1.4320684036E+002  +4.5646213265E-002 -9.6390890522E+001  +7.1103506421E+000 +4.9818542055E+001 
5139952.441 +3.3958340662E-001 +1.3572638850E+002  +2.8219848767E-002 -1.7974171004E+002  +2.2034256537E-002 -1.4796725235E+002  +3.8328441334E+000 +1.3530763632E+002 
5265097.622 +3.6183933909E-001 +1.3531422321E+002  +2.5293434868E-002 -1.3350264209E+002  +1.0890810555E-002 +1.6840915083E+001  +2.3839520900E+000 +1.1352361112E+002 
5390242.804 +3.8483939364E-001 +1.2783487140E+002  +2.1816599863E-002 +1.4834816678E+002  +3.4490027059E-002 +9.4054218250E+001  +2.9227383240E+000 +1.1530422245E+002 
5515387.985 +4.2881261584E-001 +1.2258875683E+002  +2.0326465330E-002 +1.3298917284E+002  +1.5851235569E-002 -3.1623520787E-002  +1.2577739393E+000 +4.2155011251E+001 
5640533.166 +4.0895237504E-001 +1.2158517722E+002  +7.6221127107E-003 +8.1245022104E+001  +2.2620208262E-002 +6.7907088300E+001  +1.9735320885E+000 +8.1566577624E+001 
5765678.348 +4.7729127188E-001 +1.2181493536E+002  +1.9798321155E-002 +7.4429746091E+001  +4.0051955620E-002 -1.0350962791E+002  +3.3047711664E+000 +4.2174793000E+001 
5890823.529 +5.7054023166E-001 +1.3162623489E+002  +1.4901340666E-002 +1.6137581880E+002  +1.3485961657E-002 -2.5861641640E+001  +2.2008938346E+000 +8.4205867077E+001 
6015968.711 +6.2307568265E-001 +1.2108663613E+002  +7.3486219011E-003 +1.4307252644E+002  +2.1677783682E-002 +1.5008382667E+002  +1.9371875354E+000 +4.6938673889E+001 
6141113.892 +7.4463058194E-001 +1.2047023921E+002  +1.5521938898E-002 +1.3916487447E+002  +2.8516692183E-002 +8.3037418306E+001  +2.4258677377E+000 +4.5081318557E+001 
6266259.074 +7.9178607216E-001 +1.1071701119E+002  +1.3412999634E-002 +1.3938618433E+002  +1.2098545629E-002 +7.8000950987E+001  +1.4498136360E+000 +2.1537790755E+001 
6391404.255 +1.1793497684E+000 +9.9793932736E+001  +2.0473096859E-002 +2.6067864555E+001  +1.0995574457E-002 +2.4519725107E+001  +1.6812811364E+000 +9.4928318183E+000 
6516549.437 +1.4517466571E+000 +9.2907409779E+001  +1.5089343541E-002 -1.2585605193E+002  +1.1961910277E-002 -1.4667956625E+002  +1.6528644604E+000 +5.8348933453E+000 
6641694.618 +1.7300110284E+000 +7.0682935627E+001  +2.9866653059E-002 +1.4116009540E+002  +2.3164457438E-002 -1.6801721011E+002  +1.5404055742E+000 +1.1428576272E+001 
6766839.800 +2.1501205256E+000 +5.1834336351E+001  +2.9080264746E-002 +1.7634599918E+002  +9.3079344222E-003 -1.6704554973E+002  +1.3487715882E+000 -7.0496440472E+000 
6891984.981 +2.0626047414E+000 +3.9909043728E+001  +1.5969826305E-002 -9.7996744313E+001  +9.7403561673E-003 +1.5224673745E+002  +1.0693562577E+000 -1.9436298933E+001 
7017130.163 +1.6952028580E+000 +1.7005604408E+001  +3.1891927640E-002 +1.0998275801E+002  +3.1966396694E-002 +2.6924755928E+001  +1.3746761686E+000 -1.4065634828E+001 
7142275.344 +1.6568527612E+000 +8.3440483984E+000  +7.8575934181E-003 +1.4500853820E+001  +9.6768698050E-003 -3.9980114956E+001  +1.2605791836E+000 -1.2643549659E+001 
7267420.526 +1.5091343107E+000 +9.6324978372E+000  +3.3616523678E-003 -1.1297000228E+002  +1.4822256924E-002 +1.7139682574E+002  +1.4124351609E+000 -1.2097129220E+001 
7392565.707 +1.3465944539E+000 -3.3666790548E-001  +8.2162243262E-003 +1.4110179178E+002  +8.7424148518E-003 +8.6603648936E+001  +1.1866107805E+000 -3.7100409569E+000 
7517710.889 +1.1819367772E+000 +2.9392907293E-002  +6.3790675273E-003 +1.7320130360E+002  +3.2294427811E-003 +3.9896496810E+001  +1.1681551901E+000 +1.8344173528E+000 
7642856.070 +1.0348010757E+000 +1.5115486518E+000  +6.3703431789E-003 +1.6958492747E+002  +1.1509429360E-002 +8.0492221982E+001  +1.1614683446E+000 -4.1266392255E+000 
7768001.252 +9.6903554860E-001 +8.8231223844E+000  +8.2662908747E-003 +5.4094479356E+001  +4.4503780953E-003 +1.6196905625E-001  +1.0642081903E+000 -7.0354667695E+000 
7893146.433 +8.7745436389E-001 +7.5384014138E+000  +6.7286898785E-003 +4.0194408140E+001  +2.3429855746E-003 -1.7873942588E+002  +9.2601885352E-001 -1.3033279999E+000 
8018291.615 +8.0044495020E-001 +3.1191455938E+000  +1.1000928700E-002 +8.8957490703E+001  +6.5553141006E-003 +9.1667839362E+001  +8.5410565666E-001 -9.0261609479E-001 
8143436.796 +7.7722887514E-001 +1.1449401441E+001  +6.1958740982E-003 +5.5694150857E+001  +5.2542797437E-003 -1.4788304167E+002  +8.2204504163E-001 +1.2764473524E-001 
8268581.977 +7.7011677337E-001 +1.0607905956E+001  +1.9457618914E-003 +1.1307229102E+002  +5.6834740008E-004 -1.5136009496E+002  +7.6247821827E-001 -5.2658503340E+000 
8393727.159 +7.4049726126E-001 +5.7012749320E+000  +3.2436193199E-003 +8.5985105123E+001  +5.2292880630E-003 +8.6807899154E+001  +7.9697506237E-001 -1.6215865740E+000 
8518872.340 +7.2031064251E-001 +5.0263085991E+000  +6.2018483300E-003 +7.3066685966E+001  +2.6750390876E-003 +1.1743264646E+002  +7.5696314675E-001 +5.2896577668E-001 
8644017.522 +6.2844331420E-001 +1.0399354220E+001  +7.4676779956E-003 +1.2029782998E+002  +1.4395579663E-003 +1.1124956386E+002  +6.7420686621E-001 -1.8777851476E+000 
8769162.703 +6.3495824835E-001 +7.2951536776E+000  +2.1548778704E-003 -8.5470938520E+001  +5.2846711161E-003 +1.0093712490E+002  +6.6543893990E-001 -8.5286521226E+000 
8894307.885 +5.9448750562E-001 +7.7983779543E+000  +3.3298670490E-003 +9.7319115389E+001  +5.8012806790E-003 +1.1032077679E+002  +6.4972741082E-001 -1.9784600008E+000 
9019453.066 +5.5392107517E-001 +6.4229246768E+000  +5.3574752213E-003 +2.2113665536E+001  +3.9146387897E-003 +1.0321524582E+002  +6.4148589962E-001 -2.1724725886E+000 
9144598.248 +5.2897902265E-001 +4.7012462112E+000  +2.6374441636E-003 +6.1328097259E+001  +7.7348374856E-003 +9.0753670796E+001  +6.1062849573E-001 -3.0785048704E+000 
9269743.429 +5.4517554815E-001 -1.3092713673E+000  +4.0850300038E-003 +6.0825076853E+001  +2.4434237549E-003 +1.3361628555E+002  +6.0608017695E-001 -5.9973484327E+000 
9394888.611 +5.9639656286E-001 +4.8705118612E+000  +4.7903368865E-003 +5.4755948749E+001  +2.2478827940E-003 +6.7974103730E+001  +6.0874455279E-001 -2.2065647793E+000 
9520033.792 +5.6381447333E-001 +3.7463129062E-001  +3.9108886560E-003 +1.8789244051E+001  +7.2573583197E-003 +8.7031740080E+001  +5.9418891579E-001 -6.2827205547E+000 
9645178.974 +5.3701002870E-001 +3.5828417156E+000  +3.6420418364E-003 +5.6976846011E+001  +4.5146406205E-003 +6.8690462272E+001  +5.7309588597E-001 -2.6460354258E+000 
9770324.155 +5.5019976240E-001 -6.4904506648E-001  +1.6863678998E-003 +1.6040910010E+002  +4.7881707806E-003 +8.2155416791E+001  +6.0168004644E-001 -2.0424524025E+000 
9895469.337 +5.1214019502E-001 -3.7666888465E-001  +7.0246936163E-003 +6.0649510962E+001  +4.5608437619E-003 +1.2565263620E+002  +5.5688805611E-001 -7.6758858944E+000 
10020614.518 +5.5049586014E-001 +1.2069093151E+000  +4.6906091724E-003 +7.0456494849E+001  +2.7452161363E-003 +1.0776081662E+002  +6.0513144540E-001 -7.7912271480E+000 
10145759.700 +5.3173442785E-001 +2.6263115054E+000  +2.9884526498E-003 +7.8150618919E+001  +5.9480613233E-003 +1.0119114450E+002  +6.0514435622E-001 -4.0465124507E+000 
10270904.881 +5.3206212065E-001 +4.5047127966E+000  +6.1008241299E-003 +1.0476385638E+002  +5.3081205639E-003 +1.1008143547E+002  +5.7295563217E-001 -6.6818178312E+000 
10396050.063 +5.6633898243E-001 +4.5192654565E+000  +2.3479410177E-003 +7.9991161334E+001  +2.7945554993E-003 +1.1198433228E+002  +5.7607030467E-001 +3.9176915540E-001 
10521195.244 +5.7133175153E-001 +7.0961347705E+000  +4.1756704268E-003 +1.0339460200E+002  +3.3825433413E-003 +1.3804509455E+002  +6.2019747183E-001 -9.7117538806E-002 
10646340.426 +5.5118950124E-001 +1.3841540950E+000  +4.1947123317E-003 +8.8471049297E+001  +3.1439588173E-003 +7.2054363192E+001  +5.9662511070E-001 -1.1176544717E+000 
10771485.607 +5.7912368542E-001 +5.9314283552E+000  +4.5624462491E-003 +6.5685386836E+001  +4.7788581630E-003 +1.0236616968E+002  +6.2851696629E-001 -1.8188771249E+000 
10896630.788 +5.7841935368E-001 +9.2210742615E+000  +3.8879634992E-003 +6.9511941793E+001  +6.8574432660E-003 +9.2710165179E+001  +6.2633191297E-001 -3.4518008532E+000 
11021775.970 +6.2223901070E-001 +7.1290709069E+000  +3.9632859407E-003 +1.0919222877E+002  +2.6664999039E-003 +1.0645378021E+002  +6.2309454999E-001 -7.0231769756E-002 
11146921.151 +6.1637889219E-001 +8.0124799553E+000  +5.8507055161E-003 +6.6994713648E+001  +3.8435035062E-003 +1.0291529972E+002  +6.1715982841E-001 -4.1510961154E-001 
11272066.333 +6.0477576557E-001 +6.9441536515E+000  +4.4856634965E-003 +1.1629086035E+002  +3.5542707885E-003 +7.0041072926E+001  +6.5452263145E-001 +1.9525209009E+000 
11397211.514 +6.0344292326E-001 +7.9867854077E+000  +4.8195314179E-003 +1.0195362287E+002  +4.2049148883E-003 +9.0786136038E+001  +6.3111760952E-001 -1.0997584485E+000 
11522356.696 +6.3901958336E-001 +6.8268934294E+000  +5.1583987980E-003 +7.2164153151E+001  +3.3858743140E-003 +9.6830025873E+001  +6.7345312231E-001 +2.6626634362E+000 
11647501.877 +6.4506140818E-001 +6.5524052688E+000  +5.9043551549E-003 +8.2842254156E+001  +5.0091342254E-003 +9.8975550998E+001  +6.5862353174E-001 +1.8604788728E-001 
11772647.059 +6.4807175445E-001 +6.4824560916E+000  +7.1402278660E-003 +8.6472535143E+001  +3.5362425775E-003 +9.7087088347E+001  +6.9692114887E-001 +1.5003663578E+000 
11897792.240 +6.7186562643E-001 +5.5470269549E+000  +6.1516030714E-003 +8.7631571172E+001  +5.8202267961E-003 +1.0602876177E+002  +7.0586570238E-001 -6.2579277092E-001 
12022937.422 +6.8243296811E-001 +4.7514883545E+000  +6.0565874724E-003 +7.0287344409E+001  +4.1293885493E-003 +1.0290439384E+002  +7.0133261994E-001 +3.0991640396E+000 
12148082.603 +7.0214139530E-001 +3.2107069936E+000  +8.3803323282E-003 +8.9797284133E+001  +4.4652980528E-003 +1.3847727549E+002  +7.0628651780E-001 +2.8506923647E+000 
12273227.785 +7.0386636026E-001 +6.1459979440E+000  +4.5195509268E-003 +9.2503526071E+001  +5.1194731387E-003 +8.1860000315E+001  +7.2188284599E-001 +2.1474248708E+000 
12398372.966 +7.2707476423E-001 +3.4532239355E+000  +7.5068426985E-003 +8.6630428563E+001  +6.9914263036E-003 +8.6016534943E+001  +7.5406739533E-001 -4.5878230574E-001 
12523518.148 +7.0113602135E-001 +3.1927505637E+000  +6.5088238556E-003 +8.7503175877E+001  +4.4607547111E-003 +1.0754362774E+002  +7.4213562974E-001 -2.4393636390E+000 
12648663.329 +7.6945651312E-001 +2.4219914923E+000  +3.5343072730E-003 +6.3514166875E+001  +4.8914286355E-003 +9.3142257127E+001  +7.7548713748E-001 -1.6510148145E+000 
12773808.511 +7.7430305421E-001 +2.0673676420E+000  +7.3965214302E-003 +8.4413979843E+001  +5.8794215796E-003 +9.4412160113E+001  +7.7869638840E-001 -7.5409367775E-001 
12898953.692 +7.8253454605E-001 +7.9823784600E-001  +6.3537584906E-003 +1.0211747146E+002  +4.5300364534E-003 +1.0771519310E+002  +7.9925504025E-001 -1.2370853522E+000 
13024098.874 +7.9096266956E-001 +2.9509477406E+000  +6.8411564107E-003 +8.3887104942E+001  +5.8126376335E-003 +1.0137715757E+002  +8.1029917266E-001 -1.5722772182E+000 
13149244.055 +8.3488071837E-001 +2.0792432602E+000  +5.7972780280E-003 +8.1383345338E+001  +5.9157800618E-003 +8.9741848737E+001  +8.2016701936E-001 -1.4582182740E+000 
13274389.237 +8.1451151407E-001 +6.4489867679E-001  +3.5215934095E-003 +1.0071416735E+002  +6.3116284210E-003 +1.0856065990E+002  +8.6239371189E-001 -2.0809370425E+000 
13399534.418 +8.2570460886E-001 -1.1676446631E+000  +6.6205761372E-003 +8.7276006897E+001  +6.2341900807E-003 +9.5684600913E+001  +8.4597331754E-001 -2.6664546335E+000 
13524679.599 +8.5328671173E-001 -2.7761718748E+000  +7.0598371643E-003 +7.7332238984E+001  +7.7153771877E-003 +8.4937750409E+001  +8.9563120988E-001 -2.1949980484E+000 
13649824.781 +8.8051256703E-001 -1.3956707594E+000  +6.9227927821E-003 +7.8363715463E+001  +7.6464758346E-003 +1.0203357754E+002  +8.9674119439E-001 -3.8838466512E+000 
13774969.962 +9.0436562575E-001 -1.6492584256E+000  +7.6676304305E-003 +1.0795506380E+002  +5.9058204477E-003 +1.0089016348E+002  +9.3749525098E-001 -2.7595578267E+000 
13900115.144 +9.1882458583E-001 -2.7561946718E+000  +7.3759121276E-003 +8.9555024778E+001  +7.7851842358E-003 +8.5323488635E+001  +9.3913284551E-001 -3.0880297340E+000 
14025260.325 +9.3173781067E-001 -4.1805120558E+000  +7.0387101430E-003 +8.8245423318E+001  +5.3778665822E-003 +8.4274734745E+001  +9.4728947803E-001 -4.7241185806E+000 
14150405.507 +9.5159167639E-001 -3.3746014538E+000  +7.3704966644E-003 +9.1013470147E+001  +6.9335491159E-003 +9.0556113808E+001  +9.7266443129E-001 -3.6628195647E+000 
14275550.688 +9.7254091686E-001 -4.8593774092E+000  +6.8305540682E-003 +8.7330076810E+001  +7.8578651133E-003 +8.1125187419E+001  +9.7706386643E-001 -4.4956409659E+000 
14400695.870 +9.8814770726E-001 -5.1966269287E+000  +7.1716543100E-003 +8.9236781679E+001  +8.5078069646E-003 +9.0207952099E+001  +9.9721811995E-001 -5.2678580706E+000 
