!  2-Port S-parameters saved by WinCal
! VAR MeasName=S-Parameters (CALIBRATED_DATA) read from VNA (P5004A)
! VAR MeasDate=28/08/2024 12:29:31
! VAR NAME=S2_r7c9_RESET4_9k-100M_2
! VAR FILENAME=S2_r7c9_RESET4_9k-100M_2.S2P
! VAR DATE=28/08/2024 12:29:31
! VAR PHYS_PORTS=1,2
! VAR ObjTypeName=DATASET
! VAR IndexType=Frequency
!
# Hz S MA R 50
9000.000 +9.5508600858E-002 -1.6271092312E+002  +9.3352429595E-003 -1.5006227716E+002  +3.4547400092E-003 -8.8812392178E+001  +2.6295284432E-001 -1.4410084273E+002 
134145.181 +1.1095782304E-001 +1.6955756899E+002  +2.0197815980E-004 -2.4888181680E+001  +2.2308429981E-004 -1.1176327909E+002  +2.3657306941E-001 -1.7081625840E+002 
259290.363 +1.1250486147E-001 +1.7017484109E+002  +4.9076631112E-004 -7.7871623889E+001  +7.6210667336E-004 -9.7131400080E+001  +2.4484427833E-001 -1.6987958564E+002 
384435.544 +1.1467260802E-001 +1.7045463013E+002  +5.9398820137E-004 -1.5475952087E+002  +8.4337494776E-004 +5.1604543465E+001  +2.4220781375E-001 -1.6872473979E+002 
509580.726 +1.1535722842E-001 +1.7229505440E+002  +1.4175045468E-003 -7.4709635197E+001  +1.9667249789E-003 -7.5537243280E+001  +2.4975633063E-001 -1.6412022752E+002 
634725.907 +1.1831047604E-001 +1.7143174524E+002  +9.8349193778E-004 +1.6881395556E+002  +6.6594895736E-004 +4.0186778629E+001  +2.5816735525E-001 -1.6383054621E+002 
759871.089 +1.2073795859E-001 +1.7113544675E+002  +6.6263647621E-004 -2.8324760956E+000  +7.9946168919E-004 -6.0131648031E+001  +2.5187852592E-001 -1.6715980435E+002 
885016.270 +1.1957809352E-001 +1.6917936243E+002  +5.8185376771E-004 -1.2854578814E+002  +2.1411398104E-004 -6.1004601949E+001  +2.3984731490E-001 -1.6658991808E+002 
1010161.452 +1.1907276862E-001 +1.7017168519E+002  +8.2764692733E-004 -1.2554142919E+002  +8.7284796854E-004 -1.0434761382E+002  +2.0422870453E-001 -1.6556730555E+002 
1135306.633 +1.1501553495E-001 +1.6853111331E+002  +7.4398150930E-004 +3.4794648529E+001  +2.8113951459E-003 -8.0675633011E+001  +1.8758205258E-001 -1.5879201997E+002 
1260451.815 +1.1951435989E-001 +1.7012445404E+002  +1.8618119218E-003 -7.5369808922E+000  +3.4652552505E-003 -1.6734065909E+002  +2.4146689305E-001 -1.5702094593E+002 
1385596.996 +1.2794457516E-001 +1.7263162499E+002  +8.2322887967E-004 -3.2465641425E+001  +1.0450986220E-003 +1.0179092718E+002  +2.8522155319E-001 -1.5705528128E+002 
1510742.178 +1.2404786937E-001 +1.7325972750E+002  +2.3706800044E-004 -4.7826433546E+001  +8.7610240594E-004 -6.5752506376E+001  +2.5494659539E-001 -1.6001304801E+002 
1635887.359 +1.2700873537E-001 +1.6932968760E+002  +1.5201773931E-003 -4.3050388350E+001  +7.6049565059E-004 +8.5899995774E+001  +2.3500873805E-001 -1.5575702699E+002 
1761032.541 +1.2894752430E-001 +1.6904958228E+002  +1.3084628290E-003 +1.0708034202E+001  +7.7623355581E-004 -1.1011556935E+002  +2.2594545548E-001 -1.6190001568E+002 
1886177.722 +1.3150470155E-001 +1.7039889747E+002  +1.7060273260E-003 +1.7050572833E+002  +7.5886563006E-004 +1.7526483123E+002  +2.3415306638E-001 -1.6391977550E+002 
2011322.904 +1.2697647760E-001 +1.6761590470E+002  +9.5720233218E-004 -3.4984109677E+001  +3.1832595612E-003 -6.0441523551E+001  +2.1530560634E-001 -1.6196712139E+002 
2136468.085 +1.2280389535E-001 +1.6634970778E+002  +2.6183666281E-003 +1.2844878693E+002  +5.8166266293E-003 +1.3153089720E+002  +1.9579718167E-001 -1.6144037682E+002 
2261613.267 +1.2982155749E-001 +1.6596209131E+002  +2.7116839241E-003 -1.2364854580E+002  +9.4530045615E-004 -1.1626141444E+002  +1.8266503831E-001 -1.6395921961E+002 
2386758.448 +1.3343120655E-001 +1.6590821904E+002  +2.2622696961E-003 +4.3368944467E+001  +2.1820743680E-003 +6.1785004709E+001  +2.2634086975E-001 -1.7510664624E+002 
2511903.630 +1.3189240531E-001 +1.6492913586E+002  +1.7835531676E-003 -1.6142410412E+002  +2.1005081942E-003 -3.5161456700E+001  +2.0029221906E-001 +1.7917443445E+002 
2637048.811 +1.3193240607E-001 +1.6305279200E+002  +1.5123818430E-003 -1.5987162350E+002  +6.0865126435E-003 +1.7773948996E+002  +2.3022665319E-001 +1.5173525525E+002 
2762193.992 +1.0994106884E-001 +1.7733631235E+002  +9.0503775826E-003 +8.7618260578E+001  +2.4547541860E-002 -3.5605773145E+001  +3.5264603259E-001 +1.7808648368E+000 
2887339.174 +9.3393718427E-002 +1.7603429602E+002  +1.0928222405E-002 -1.5713014782E+002  +1.1403302189E-002 -4.5309249968E+001  +4.7618597057E-001 -1.2272954063E+002 
3012484.355 +1.3147594962E-001 +1.7177366942E+002  +3.7421823966E-002 -1.1371481142E+002  +1.4496489988E-002 -1.4518802572E+002  +5.9424008395E-001 -6.4579914411E+001 
3137629.537 +1.0344439926E-001 +1.6893479505E+002  +2.3945252986E-002 +3.5579773278E+001  +3.2304654972E-002 +3.7157977113E+000  +5.3599102370E-001 -2.3497061443E+001 
3262774.718 +1.3501834538E-001 +1.6945444408E+002  +6.5183055541E-003 -1.2456370793E+002  +6.8262828386E-003 -1.4100511346E+002  +6.9434311610E-002 +6.2612363858E+001 
3387919.900 +1.0617434033E-001 +1.6871956446E+002  +2.8997890976E-002 +7.4578547509E+001  +1.8800362415E-002 +3.2646096499E+001  +6.9634052509E-001 +1.0412287805E+001 
3513065.081 +1.4597925672E-001 +1.4842313822E+002  +4.5334310900E-003 +1.4879024968E+002  +1.6316898028E-002 +1.7827238525E+002  +6.4157831964E-001 -7.7527015252E+001 
3638210.263 +1.7343053282E-001 +1.4268732145E+002  +1.0486882873E-002 -1.2242476075E+002  +9.7434588709E-003 -1.7538574602E+002  +3.6758088237E-001 +1.1867647985E+002 
3763355.444 +1.8648278436E-001 +1.4247271859E+002  +1.4015248380E-002 +1.2248596383E+001  +1.0366607669E-002 +1.0607820191E+001  +3.1890617527E-001 +1.1283875903E+002 
3888500.626 +1.8701273706E-001 +1.5400826883E+002  +5.2681359034E-004 +1.4892742614E+001  +1.0837692340E-002 -2.8691496766E+001  +3.3936103766E-001 +8.5596174484E+001 
4013645.807 +1.7212854508E-001 +1.4404123153E+002  +8.1412652930E-003 -1.7435925612E+002  +7.9495767340E-003 +1.6770240133E+002  +1.7061507220E-001 +4.3362835010E+001 
4138790.989 +1.8292398458E-001 +1.5225311113E+002  +1.2703950082E-002 +8.5611741560E+001  +6.1342213809E-003 +1.2946134832E+002  +6.5589037505E-001 +1.1151534386E+002 
4263936.170 +1.9977619482E-001 +1.4001488850E+002  +3.5740068139E-003 -1.4306411208E+002  +2.5871538651E-002 +7.8074474822E+001  +1.0169767404E+000 +5.0843026516E+001 
4389081.352 +2.1808892212E-001 +1.4201394142E+002  +1.2851361408E-002 -1.5475133781E+002  +2.2631665186E-002 -1.5171751326E+002  +1.1227528699E+000 +9.1544941335E+001 
4514226.533 +2.6796209484E-001 +1.4413380844E+002  +1.0562081749E-002 -1.2615526956E+002  +6.4569963184E-003 +1.2038954755E+002  +4.8776959355E-001 +1.0201745004E+002 
4639371.715 +2.8584556889E-001 +1.2713440078E+002  +1.0621676217E-002 +4.3730975006E+001  +1.0744370351E-003 +1.3410251141E+002  +1.2324933492E+000 +1.1509483252E+002 
4764516.896 +3.6062869990E-001 +1.2533464503E+002  +3.4869517809E-002 -6.5725410612E+001  +2.3626090024E-002 +5.2733158824E+001  +2.4022366630E+000 -1.3412241288E+002 
4889662.078 +4.4410475528E-001 +1.2529789402E+002  +3.9575842855E-001 -1.5029931084E+002  +1.9371425915E-001 +1.4007695400E+002  +1.0893240868E+001 +1.6770248406E+002 
5014807.259 +3.8212166919E-001 +1.3754891435E+002  +2.2432485785E-002 -7.9823437309E+000  +2.0869732168E-002 +1.6302809045E+002  +3.2775413530E+000 -1.0249142609E+002 
5139952.441 +4.0274732719E-001 +1.2931928059E+002  +8.0080216587E-003 -1.1690821217E+002  +2.0488179992E-002 +3.4003300293E+001  +1.8888880816E+000 +4.7511311484E+001 
5265097.622 +4.0041555156E-001 +1.2813986512E+002  +1.2785166810E-002 -1.3850639727E+002  +1.1165302613E-002 -1.6837546970E+002  +1.1372274567E+000 +5.6346587634E+001 
5390242.804 +4.4305686105E-001 +1.3255352378E+002  +1.2052930739E-001 +1.7968159520E+002  +4.6336502569E-002 +1.5479334955E+002  +6.5437737082E+000 +8.2867373779E+001 
5515387.985 +4.4207042030E-001 +1.2812426424E+002  +7.5346749108E-003 -1.1256711983E+002  +2.2723011001E-002 +8.6710138926E+001  +2.3994769116E+000 +1.2063952860E+002 
5640533.166 +4.5356646396E-001 +1.3044248474E+002  +3.8608489777E-002 -1.3622537497E+002  +1.9522996587E-002 -1.7990641072E+002  +2.0382617286E+000 +6.1165878240E+001 
5765678.348 +5.1927440456E-001 +1.2656266588E+002  +1.6463345459E-002 +1.2932842019E+002  +5.7599447881E-003 -3.1067397765E+001  +1.7359665591E+000 +3.0797307533E+001 
5890823.529 +4.8990836765E-001 +1.0694340772E+002  +2.4639690061E-002 +1.6709566360E+002  +2.4511867542E-002 -1.0394560101E+002  +1.9865403709E+000 +7.0469570018E+001 
6015968.711 +6.5960225159E-001 +1.0943377984E+002  +4.4923219142E-002 -1.0980054570E+002  +8.0896001126E-003 +1.6100132524E+002  +2.8157102817E+000 +5.6886757574E+001 
6141113.892 +6.9628515507E-001 +1.0229873649E+002  +1.7971525988E-002 +1.5020975034E+002  +1.1865436201E-002 -1.0759316880E+002  +1.9556657990E+000 +6.1129916175E+001 
6266259.074 +7.6395683151E-001 +9.7077820500E+001  +1.9029311122E-002 +1.0728515371E+002  +1.8937303343E-002 +1.2871490124E+002  +1.3737300060E+000 +3.7897494637E+001 
6391404.255 +1.4626544724E+000 +1.0030784003E+002  +7.6507035895E-003 -5.3663535604E+001  +7.2727551396E-003 -1.4523081402E+002  +1.7119025785E+000 +2.3582636870E+001 
6516549.437 +1.1522443544E+000 +8.1317759929E+001  +3.2566333796E-003 -1.7308273996E+002  +3.9596482067E-002 +1.2242636514E+002  +1.5728861832E+000 +2.7983467253E+000 
6641694.618 +1.4469733794E+000 +7.2214773834E+001  +2.0052036521E-002 -8.9543871423E+001  +4.4529006556E-002 +9.7808316718E+001  +1.5843732517E+000 +5.0129949034E+000 
6766839.800 +1.5708858811E+000 +4.6679533157E+001  +3.3005448871E-002 +3.6458022143E+001  +3.0068684749E-002 +1.3027996936E+002  +1.4914683928E+000 +4.2169233769E+000 
6891984.981 +1.6094106877E+000 +2.1586111964E+001  +1.6662750629E-002 +1.3000978486E+002  +2.3753062485E-002 +8.1797717779E+001  +1.2439650951E+000 -2.2330751360E+000 
7017130.163 +1.9034700464E+000 +1.6270905707E+000  +2.6253282253E-003 +5.7002082700E+001  +2.1970736904E-002 +1.2253894585E+000  +1.1038223689E+000 -1.2096849870E+001 
7142275.344 +1.4629975540E+000 +3.6300605656E+000  +2.1296952596E-002 +1.2330512587E+002  +9.6330311446E-003 +9.1084093026E+001  +1.3470915769E+000 -1.1801833521E+001 
7267420.526 +1.4845076054E+000 -4.9374182992E-001  +1.8676386930E-002 +6.7033026440E+001  +6.9300033268E-003 +9.5170485347E+001  +1.3320870514E+000 -4.4280810595E+000 
7392565.707 +1.3394305412E+000 +3.5568750819E+000  +2.3083020993E-003 +1.1478778133E+002  +3.6057545727E-003 +1.5322373428E+002  +1.2975220647E+000 -7.3306676327E+000 
7517710.889 +1.1438469624E+000 +2.2475899886E+000  +6.5050256424E-003 +1.0644615174E+002  +2.5255924710E-003 -1.3086563216E+002  +1.2569627045E+000 -2.2486470716E+000 
7642856.070 +1.0984314356E+000 -1.7850954628E+000  +3.9967810010E-003 +1.7530803469E+002  +1.3501140567E-002 +5.8008502314E+001  +1.0951581944E+000 -7.4001930068E+000 
7768001.252 +1.0913300035E+000 +2.2556720323E+000  +7.2725549606E-003 +7.8714321577E+001  +1.0195004973E-002 +1.4753701436E+002  +1.0142587548E+000 -8.8948189171E+000 
7893146.433 +8.8873444219E-001 +1.1433581282E+000  +6.4958099839E-003 +1.7669986420E+001  +8.2659755484E-003 +6.2160620672E+001  +9.0596269202E-001 -4.0564768122E+000 
8018291.615 +8.1653747058E-001 +1.0422782443E+001  +1.3996994071E-003 +1.7758413704E+002  +5.8672055939E-003 +1.1256560837E+002  +8.1158368352E-001 -1.3120187865E+000 
8143436.796 +8.2385599583E-001 +9.7827136874E+000  +7.9060105502E-003 +1.5878086438E+001  +2.7706385608E-003 +3.6036534951E+001  +8.2309931464E-001 -4.9332596457E+000 
8268581.977 +7.2575482474E-001 +1.0078025062E+001  +1.2620458141E-002 +8.4478290011E+001  +3.2179555716E-003 +1.4031106028E+002  +7.4092613890E-001 +3.1163693669E-001 
8393727.159 +6.9159399636E-001 +1.0539843968E+001  +4.1316646946E-003 +1.0046434494E+002  +8.3606395547E-003 +8.2326481031E+001  +7.4068511476E-001 -4.3221938882E+000 
8518872.340 +6.2629953262E-001 +9.6054595946E+000  +3.1665190954E-003 +6.4767479025E+001  +4.4062606389E-003 +1.2249682938E+002  +7.3398556421E-001 -2.3639154208E+000 
8644017.522 +6.6287658181E-001 +3.8101879154E+000  +1.4491639989E-003 +4.5261359882E+001  +7.0161729039E-003 +6.4877646043E+001  +6.6655191711E-001 +3.1638843290E+000 
8769162.703 +6.6305000915E-001 +9.8955168206E+000  +1.5290846122E-003 +2.8997936385E+001  +9.2162065881E-003 +7.8957409750E+001  +7.5511159787E-001 +1.5636375507E+000 
8894307.885 +6.1536174133E-001 +9.4538773038E+000  +2.4172027362E-003 +1.2808227172E+002  +5.3821850689E-003 +9.2894366336E+001  +6.3450227500E-001 +5.9775232811E+000 
9019453.066 +6.5237355139E-001 +3.5555819400E+000  +2.8648303910E-003 -1.7710190061E+002  +2.6388489859E-003 +1.7564525995E+002  +6.3598762543E-001 -3.2646222950E+000 
9144598.248 +6.0246907570E-001 +6.9601723092E+000  +4.4895049605E-003 +1.1082799382E+002  +3.5035803965E-003 +1.2129143975E+002  +5.7709319388E-001 +1.7680034268E+000 
9269743.429 +5.8115595852E-001 +2.0793338827E+000  +5.1849990630E-003 +1.2049410715E+002  +5.6479837160E-003 +8.2497618900E+001  +6.1324681211E-001 -6.7490775924E+000 
9394888.611 +6.2538255428E-001 +4.2274398421E+000  +2.0751205057E-003 +5.4193781495E+001  +1.3143738480E-003 -6.2721683191E+001  +6.3312182921E-001 -5.4791363207E-001 
9520033.792 +6.2482647382E-001 +7.8024049399E+000  +4.7362405243E-003 +1.0567906192E+002  +3.8582868991E-003 +1.4462155976E+002  +5.7023438449E-001 -1.4662369507E+000 
9645178.974 +5.3074755919E-001 +5.5440682515E+000  +5.7703258706E-003 +9.7911925153E+001  +5.9487285448E-003 +1.1414043897E+002  +6.2803891220E-001 -3.0296978490E+000 
9770324.155 +5.7404983470E-001 -2.4075297990E+000  +3.1168206335E-003 +8.4225954120E+001  +5.0362693323E-003 +1.0712783131E+002  +6.2320281594E-001 -6.5658938485E+000 
9895469.337 +5.6711049685E-001 +4.6743249884E+000  +4.9040505233E-003 +8.5995757591E+001  +1.9611713971E-003 +7.3666339498E+001  +5.5647881222E-001 -9.9657934540E-001 
10020614.518 +5.3602580462E-001 +4.3463625345E+000  +3.3769917536E-003 +1.1590209103E+002  +4.7327802890E-003 +1.1098507297E+002  +5.8049573667E-001 -3.0800106055E+000 
10145759.700 +5.7965712557E-001 +1.8003910263E+000  +3.0422167475E-003 +6.2893756999E+001  +7.5034331665E-003 +1.0536686980E+002  +5.7022804851E-001 -7.7826919188E+000 
10270904.881 +5.7702015158E-001 +6.1729471968E+000  +4.0221958536E-003 +7.7118460827E+001  +4.5235712343E-003 +6.5429855631E+001  +6.2454426682E-001 +6.3822972430E-001 
10396050.063 +5.1872911049E-001 +6.0705888043E+000  +7.0491452332E-003 +8.6261669611E+001  +4.2037476114E-003 +9.2127249122E+001  +5.8778329098E-001 -5.3954492709E-001 
10521195.244 +5.3991957716E-001 +3.9534571096E+000  +3.1948604555E-003 +9.6061823072E+001  +4.9671841001E-003 +1.1437641610E+002  +5.8403986488E-001 +3.6514788174E+000 
10646340.426 +5.8622312194E-001 +4.8720414044E+000  +5.4709759627E-003 +1.0250599654E+002  +4.1091011976E-003 +9.5943806775E+001  +6.2096521941E-001 -2.3631810325E-001 
10771485.607 +5.5619698475E-001 +3.6922540431E+000  +4.0314907793E-003 +7.7856585088E+001  +5.8321216045E-003 +8.4476186713E+001  +5.6968147439E-001 +1.2052741384E-001 
10896630.788 +5.8761296846E-001 +8.3891672327E+000  +7.5097790654E-003 +9.5674340770E+001  +6.3629827185E-003 +1.3271810681E+002  +5.9354222152E-001 +1.9024823609E+000 
11021775.970 +5.9396966114E-001 +5.6368570172E+000  +4.9941443428E-003 +1.0235117172E+002  +4.6992502141E-003 +9.8311784269E+001  +6.0946011430E-001 +2.4037017543E-001 
11146921.151 +6.1255435290E-001 +6.2259840470E+000  +3.7401997288E-003 +7.6294525834E+001  +5.0999913798E-003 +1.0941651845E+002  +6.3691708305E-001 +1.0009191694E+000 
11272066.333 +5.8691951269E-001 +6.5397809606E+000  +5.5014149009E-003 +9.4751680854E+001  +6.3925864721E-003 +8.5375841147E+001  +6.2331795943E-001 +5.9244363536E-001 
11397211.514 +5.7987364263E-001 +2.9933034298E+000  +3.8784488357E-003 +9.1114961967E+001  +3.5859741908E-003 +6.4935950676E+001  +6.6473814019E-001 -8.1783947502E-002 
11522356.696 +6.3061373860E-001 +5.4627491863E+000  +6.7775161518E-003 +9.4812219026E+001  +6.2675786002E-003 +7.1740476142E+001  +6.4356803270E-001 +1.4898168728E+000 
11647501.877 +6.4931706132E-001 +7.3407336932E+000  +5.2688022913E-003 +9.2117171228E+001  +4.9347309047E-003 +1.1634163359E+002  +6.5695631550E-001 +9.2939292992E-001 
11772647.059 +6.4932734010E-001 +5.6464178096E+000  +7.3945134287E-003 +8.7734057835E+001  +4.5017532589E-003 +1.2405911888E+002  +6.6216487498E-001 +2.0187775628E+000 
11897792.240 +6.5970977680E-001 +5.1545401486E+000  +4.1539903546E-003 +8.2243456406E+001  +5.5998406370E-003 +8.5106792108E+001  +6.8527461481E-001 +2.8096132329E+000 
12022937.422 +6.8128224913E-001 +5.3154800104E+000  +4.6647262625E-003 +7.2145200346E+001  +7.3215833068E-003 +8.6154417703E+001  +7.0959194920E-001 -4.8093977779E-001 
12148082.603 +6.8409046095E-001 +5.0552257299E+000  +6.7089572495E-003 +8.4319303152E+001  +6.7134882129E-003 +1.0888126917E+002  +7.1277660370E-001 +1.3263164397E-001 
12273227.785 +7.0837346676E-001 +2.6828893626E+000  +6.1074823833E-003 +8.6963584810E+001  +7.2977647055E-003 +9.8629612820E+001  +7.1660338722E-001 +2.7109256717E+000 
12398372.966 +7.0767914827E-001 +5.7300107275E+000  +4.8460547437E-003 +8.9846557440E+001  +4.8458346889E-003 +9.5202755077E+001  +7.3738098028E-001 -1.4850065389E+000 
12523518.148 +7.2672365703E-001 +2.7192525832E+000  +6.7226412980E-003 +8.6661787053E+001  +4.9950988755E-003 +1.0719898708E+002  +7.6851099927E-001 -1.3185484342E+000 
12648663.329 +7.3952818606E-001 +2.3852738565E+000  +7.3406926104E-003 +9.5534926311E+001  +6.3807666548E-003 +1.0038752204E+002  +7.6922717836E-001 -4.4630413442E-001 
12773808.511 +7.5187577690E-001 +1.5566554420E+000  +6.0883890543E-003 +9.2525061253E+001  +5.6531437184E-003 +9.8564064642E+001  +7.5846790765E-001 +3.0636889278E-001 
12898953.692 +7.8741837778E-001 +8.4026570974E-002  +7.0943838598E-003 +8.4521580804E+001  +6.0245007965E-003 +1.0368988399E+002  +7.7399582246E-001 -1.3950780393E+000 
13024098.874 +8.0119430315E-001 -2.1069182596E-001  +6.3818637046E-003 +8.8063136168E+001  +7.8482355974E-003 +9.5433820045E+001  +8.1354785874E-001 -2.1506370631E+000 
13149244.055 +8.1251417851E-001 +8.3997528227E-001  +5.3290478886E-003 +1.0174539383E+002  +5.9400266070E-003 +9.5885411985E+001  +8.1135136774E-001 -5.3442905895E-001 
13274389.237 +8.1703198051E-001 -9.4033100865E-001  +6.5049479602E-003 +9.7143344064E+001  +6.8453864298E-003 +9.5009968470E+001  +8.2423014542E-001 -1.3778288079E+000 
13399534.418 +8.4015218164E-001 -2.7505840818E-002  +7.6101150748E-003 +8.3161620651E+001  +7.4667221473E-003 +1.0884299072E+002  +8.4846727866E-001 -2.4836427160E+000 
13524679.599 +8.6934949294E-001 -1.8012845783E+000  +6.2525085499E-003 +9.8551352086E+001  +7.0180478393E-003 +1.0199450119E+002  +8.8729412084E-001 -2.6266485314E+000 
13649824.781 +8.7562507380E-001 -2.9165769621E+000  +7.3448321137E-003 +9.6885049671E+001  +6.1580974747E-003 +9.1237540364E+001  +8.8306951418E-001 -2.3886431585E+000 
13774969.962 +8.8540067524E-001 -2.5353967603E+000  +6.5260255781E-003 +9.2633244615E+001  +7.4668209466E-003 +1.0223361179E+002  +8.9542811752E-001 -2.7043494257E+000 
13900115.144 +9.1569909642E-001 -2.4986720416E+000  +8.7943154702E-003 +8.7215207561E+001  +6.8032093070E-003 +8.1399975530E+001  +9.0092627177E-001 -2.4623923500E+000 
14025260.325 +9.3799461570E-001 -3.0791905145E+000  +7.6396973087E-003 +8.7040239003E+001  +7.1883549315E-003 +8.4827813315E+001  +9.1691818903E-001 -3.7845567874E+000 
14150405.507 +9.6815248982E-001 -4.4039331711E+000  +7.1125159855E-003 +9.1858056128E+001  +6.0501621365E-003 +8.7510825179E+001  +9.5032166439E-001 -5.0875159338E+000 
14275550.688 +9.6829553867E-001 -5.6098968805E+000  +8.3347599804E-003 +9.8717877055E+001  +6.5576706925E-003 +9.6687654943E+001  +9.8157550603E-001 -3.9083672304E+000 
14400695.870 +9.7548523775E-001 -5.6272186535E+000  +8.5353279591E-003 +8.6804637446E+001  +7.0056984812E-003 +9.0689998735E+001  +9.8325340400E-001 -4.3773595747E+000 
