!  2-Port S-parameters saved by WinCal
! VAR MeasName=S-Parameters (CALIBRATED_DATA) read from VNA (P5004A)
! VAR MeasDate=27/08/2024 16:14:50
! VAR NAME=S2_r1c9_RESET2_9k-100M_2
! VAR FILENAME=S2_r1c9_RESET2_9k-100M_2.S2P
! VAR DATE=27/08/2024 16:14:50
! VAR PHYS_PORTS=1,2
! VAR ObjTypeName=DATASET
! VAR IndexType=Frequency
!
# Hz S MA R 50
9000.000 +6.6602761860E-002 -1.5785989092E+002  +1.8060829532E-002 +1.6210953538E+001  +1.0056363064E-002 -1.3053790512E+002  +1.7226358907E-001 -1.0709635428E+002 
134145.181 +1.1073897293E-001 +1.6933683243E+002  +5.2772660551E-004 +1.3850440823E+002  +3.1924379303E-004 +1.1965907784E+002  +2.4055071747E-001 -1.7087182596E+002 
259290.363 +1.1055398163E-001 +1.6976104563E+002  +6.7148640010E-005 +4.5667165275E+000  +6.7039236556E-004 +5.0197968859E+000  +2.4433688199E-001 -1.6833046121E+002 
384435.544 +1.1299155918E-001 +1.6981406234E+002  +5.4552842754E-004 +1.2891922892E+002  +1.0855982392E-003 -7.1849591898E+001  +2.4344356143E-001 -1.6840229904E+002 
509580.726 +1.1582345596E-001 +1.7038605035E+002  +1.5073401917E-003 -1.6492371654E+002  +3.6621444424E-004 -4.6395140155E+001  +2.3289820275E-001 -1.6363877262E+002 
634725.907 +1.1612610209E-001 +1.7111184396E+002  +1.0526311410E-003 -8.5112575576E+001  +4.3640997607E-004 -1.1536032839E+002  +2.5892858283E-001 -1.6541161288E+002 
759871.089 +1.1783998387E-001 +1.7012331397E+002  +6.7591040424E-004 +2.1949727847E+001  +4.9501502714E-004 +1.3069311179E+002  +2.3621213096E-001 -1.6320718543E+002 
885016.270 +1.1746354127E-001 +1.6827690558E+002  +2.1799960296E-004 -1.1038274969E+001  +3.9651281125E-004 -4.2548294233E+001  +2.2853259971E-001 -1.6339302253E+002 
1010161.452 +1.1640260858E-001 +1.7108796374E+002  +8.3807508823E-004 -1.1795252440E+002  +1.5901822482E-003 +8.4483063668E+001  +1.1181911204E-001 +1.7380957967E+002 
1135306.633 +1.1678984073E-001 +1.6984163381E+002  +8.1533980178E-004 +4.5154569656E+001  +3.2542839873E-003 +7.4341927437E+000  +1.7957132604E-001 -1.4342974625E+002 
1260451.815 +1.2135000135E-001 +1.7047995052E+002  +1.6064069912E-003 -1.4235766371E+002  +7.9424084386E-004 -1.7660713507E+002  +2.3440804557E-001 -1.5662801153E+002 
1385596.996 +1.2376639528E-001 +1.7204789951E+002  +1.7906000497E-004 +7.5964870049E+001  +9.3514293552E-004 -8.2748980527E+000  +2.5219905069E-001 -1.5822126516E+002 
1510742.178 +1.2799092149E-001 +1.7301913885E+002  +1.0631454289E-003 +5.6817714420E+001  +1.0851323554E-003 +6.4547467502E+001  +2.6286335495E-001 -1.5797481975E+002 
1635887.359 +1.2588503416E-001 +1.7083158104E+002  +4.5161096772E-004 +1.4818724681E+002  +5.8719033258E-004 +5.7418811360E+001  +2.5055002863E-001 -1.6077169159E+002 
1761032.541 +1.2804400070E-001 +1.7112650558E+002  +2.0095746834E-004 -1.3322208296E+002  +1.4751500257E-003 +1.5743835369E+002  +2.3620781129E-001 -1.5525703087E+002 
1886177.722 +1.3151583172E-001 +1.6727923042E+002  +1.7232287330E-003 -1.3802084992E+002  +8.0085101068E-004 +1.3157763846E+002  +2.1497615550E-001 -1.6013338511E+002 
2011322.904 +1.2928546701E-001 +1.6670510095E+002  +6.1598663351E-004 +5.0891092011E+001  +4.3938701471E-004 +1.2855865121E+002  +1.8897449659E-001 -1.6532928261E+002 
2136468.085 +1.2776488224E-001 +1.6711747275E+002  +8.9917031003E-004 +2.0672592441E+001  +6.1753586416E-004 +9.0218807827E+001  +2.2930774921E-001 +1.6747182451E+002 
2261613.267 +1.3182076390E-001 +1.6272769734E+002  +2.2451955201E-003 -1.3173321844E+002  +2.5090323655E-003 +3.9953079546E+001  +1.5886038158E-001 -1.6677662555E+002 
2386758.448 +1.3172196585E-001 +1.6446322015E+002  +8.6344072258E-004 +1.7888105465E+002  +1.9189027485E-003 +1.6925207561E+002  +1.9236101681E-001 +1.7537145199E+002 
2511903.630 +1.2779066283E-001 +1.5998820497E+002  +9.8451700590E-003 -1.0451683451E+002  +5.5823094023E-003 +9.9122452981E+001  +1.9522370166E-001 +1.0960627740E+002 
2637048.811 +9.6662607471E-002 +1.5362597409E+002  +1.6901267406E-002 +4.3396681447E+001  +2.6900408920E-003 -1.1494554184E+002  +2.1247353365E-001 +1.6690545273E+002 
2762193.992 +1.2343522184E-001 +1.6295195368E+002  +1.6448866015E-003 +1.4657562171E+001  +1.1003229466E-002 +1.1783915357E+002  +8.3430737036E-001 +1.3805749318E+002 
2887339.174 +1.1893093920E-001 +1.6906778056E+002  +8.7206228661E-002 -2.1845920825E+000  +4.8410659026E-002 -1.1914138797E+001  +4.4734034899E+000 +1.6743677334E+002 
3012484.355 +1.0452530104E-001 +1.6758531915E+002  +1.4829598908E-003 -4.9908044668E+001  +8.4022377864E-003 -1.6311668891E+002  +3.0689142985E-001 -1.3148794196E+002 
3137629.537 +1.2441297164E-001 +1.6753049001E+002  +1.7367896884E-002 -1.2858647860E+001  +5.1806608292E-003 +1.0012678685E+002  +1.2975767762E-001 -2.2482957591E+001 
3262774.718 +1.1226852336E-001 +1.6155831645E+002  +1.9420605517E-002 -7.0866694732E+001  +1.0543693146E-002 -2.7322129443E+001  +3.3818918771E-001 -6.4880167913E+001 
3387919.900 +1.1757278914E-001 +1.6439178039E+002  +1.1306020668E-002 +9.0745374873E+001  +8.9414466416E-003 -1.3629342041E+002  +2.5812139174E-001 +1.2834264471E+002 
3513065.081 +1.8901784105E-001 +1.3793395516E+002  +2.2718193525E-002 +1.4687737384E+002  +2.0792654679E-002 -1.1420412965E+002  +5.6529932014E-001 -1.5997872983E+001 
3638210.263 +2.0158769517E-001 +1.4340738335E+002  +3.0119435698E-002 +4.8871642248E+001  +1.5420050131E-002 -7.9150709199E+001  +5.5163667540E-001 +6.8940631179E+001 
3763355.444 +1.7596701044E-001 +1.4126309520E+002  +1.1232662744E-002 +9.1458183286E+001  +7.0002457515E-004 -1.0787657817E+002  +1.3112014859E-001 +4.4244032596E+001 
3888500.626 +2.2504198590E-001 +1.3717836532E+002  +1.4956800615E-002 -8.9018696114E+001  +2.4741690306E-003 +2.0619856321E+001  +6.7226907201E-001 +1.6308233612E+002 
4013645.807 +1.4549304535E-001 +1.5106225460E+002  +6.0866674893E-003 +5.8949798739E+000  +1.9161088871E-003 +8.8696390925E+001  +2.7794825858E-001 +1.5366445861E+002 
4138790.989 +1.6770828904E-001 +1.4128962754E+002  +1.5020938022E-002 +7.0896104016E+001  +1.1416531723E-002 +1.0406781221E+001  +6.1300702724E-001 +1.0607705224E+002 
4263936.170 +1.7306085101E-001 +1.3708895261E+002  +6.0343099009E-003 -1.9948481545E+001  +9.0587553207E-003 -9.9618181032E+001  +1.9479796538E-001 +1.3438979889E+002 
4389081.352 +2.4004880750E-001 +1.4079338888E+002  +4.7922552323E-003 -1.1985401614E+002  +1.0868493315E-002 -1.6065205555E+002  +6.6543460747E-001 +1.2551309320E+002 
4514226.533 +2.2912771446E-001 +1.4189781484E+002  +5.9609492199E-003 -9.6487420595E+000  +8.3381873675E-003 -1.2001072837E+002  +4.5016249712E-001 +5.5777944583E+001 
4639371.715 +2.8076086535E-001 +1.3806402318E+002  +5.4854128734E-002 -1.6332017384E+002  +2.2821548787E-002 +1.5934979548E+002  +2.6526504180E+000 +1.0937313425E+002 
4764516.896 +3.3502314599E-001 +1.3004569276E+002  +4.3946843300E-002 +1.0826945376E+002  +4.0622930195E-002 +1.0821170492E+001  +4.3032466696E+000 -1.3822947634E+001 
4889662.078 +4.2246092620E-001 +1.3557126687E+002  +3.1802877139E-002 +7.0007997210E+001  +5.0163006635E-002 -6.3009536230E+001  +2.7095943391E+000 -7.7204752105E+001 
5014807.259 +4.0000632337E-001 +1.3911488761E+002  +2.8004248410E-002 +1.2360302289E+002  +4.6500178440E-003 -3.6365953810E+000  +3.6773822154E+000 +1.7993177206E+002 
5139952.441 +3.8299254931E-001 +1.3333412304E+002  +4.8366519419E-002 -2.0947517951E+001  +1.6871405957E-001 +1.6404650155E+002  +7.5743453247E+000 +1.1891417067E+002 
5265097.622 +4.0145997771E-001 +1.3085081758E+002  +3.3512537369E-002 +3.0444980135E+001  +2.4347059276E-002 +1.0912939011E+002  +2.6681260382E+000 +1.1402712238E+002 
5390242.804 +4.1903978211E-001 +1.2465580283E+002  +2.4806553985E-002 +9.1758384996E+001  +3.2056820317E-002 +1.4814999019E+002  +2.8006328926E+000 +1.2052704420E+002 
5515387.985 +4.6575448074E-001 +1.2867159104E+002  +9.5632581983E-003 -1.6538343214E+002  +3.0207001800E-002 +4.7463663702E+001  +1.2191658702E+000 +8.3139557386E+001 
5640533.166 +4.5714397802E-001 +1.3369949374E+002  +1.6899695256E-002 -1.4203159377E+002  +1.5809445491E-002 +1.5966396441E+002  +1.8222689523E+000 +8.7972171977E+001 
5765678.348 +5.5219554772E-001 +1.1772921207E+002  +2.5503254955E-002 +1.7983946088E+002  +5.6933012251E-002 +1.2183009073E+002  +5.5230709763E+000 +5.1273682727E+001 
5890823.529 +6.3072416138E-001 +1.2131478184E+002  +2.5951668879E-002 -9.6458958047E+001  +4.5380786358E-002 +1.1910557026E+002  +3.4918437088E+000 +7.1264068620E+001 
6015968.711 +7.1144516409E-001 +1.0714992567E+002  +2.6555462405E-002 +1.2464202495E+002  +4.1588581125E-002 +1.0693367168E+002  +2.7333631735E+000 +4.0518417699E+001 
6141113.892 +7.6782571096E-001 +1.0833488395E+002  +1.7318427684E-002 -8.6297328723E+001  +1.2201117205E-002 +1.6997830078E+002  +2.5781300998E+000 +4.2027627460E+001 
6266259.074 +8.6558083759E-001 +1.0590612774E+002  +9.6232801067E-003 -5.3150182929E+001  +1.8726451067E-002 +7.6651343186E+001  +2.2454561944E+000 +5.6447475234E+001 
6391404.255 +1.1515166350E+000 +9.7448348020E+001  +1.7495641593E-002 +1.3930578307E+002  +3.5218088915E-002 -3.8962082714E+001  +1.5299223798E+000 +1.6094991768E+001 
6516549.437 +1.1268388833E+000 +9.6343374584E+001  +9.6565550564E-003 +1.5304025352E+002  +1.5543719654E-002 -1.6833027674E+002  +1.3482991022E+000 +7.3663163787E+000 
6641694.618 +1.5648136406E+000 +5.0167138519E+001  +3.6553249636E-002 -6.4048115033E+000  +3.0054153549E-002 +1.7162689284E+001  +1.5432909923E+000 +8.4491822407E+000 
6766839.800 +2.1429986185E+000 +4.7264779332E+001  +6.5713498606E-003 -1.4731356247E+002  +2.6695554130E-002 +4.7948757786E+001  +1.3611266118E+000 -5.7376826567E+000 
6891984.981 +1.8013525427E+000 +1.9772513560E+001  +2.9202843019E-002 +7.0282206792E+001  +1.0254292243E-002 -4.5576363970E+001  +1.5403014777E+000 -1.2686711158E+001 
7017130.163 +1.8144766041E+000 +2.1790475248E+001  +2.7894389159E-002 +1.5178755930E+002  +1.0993643433E-002 -1.1670517315E+002  +1.1826522437E+000 -1.3910453142E+001 
7142275.344 +2.0138647781E+000 +4.5091159908E+000  +1.0135406667E-002 -1.6679105970E+001  +8.2045297490E-003 +1.7831933561E+002  +1.2885282220E+000 -8.8067961251E+000 
7267420.526 +1.6330133721E+000 -5.5637324635E+000  +6.2028508725E-003 +1.7981716684E+002  +1.1140522989E-002 +1.1335937795E+002  +1.2554247007E+000 -9.1785465987E+000 
7392565.707 +1.4276375386E+000 -4.1300534456E+000  +1.1657088534E-002 +2.8289521811E+001  +7.0952429002E-003 +4.7429268300E+001  +1.3108270146E+000 -1.2092842474E+001 
7517710.889 +1.1106061897E+000 +1.7497371200E+000  +4.8319207566E-003 +1.0238413451E+002  +1.1852484564E-002 +9.6787436079E+001  +1.1756689504E+000 -7.4861115774E+000 
7642856.070 +1.1471238375E+000 +3.8050549850E-001  +9.8661864527E-003 +1.2418933382E+001  +3.1960215928E-003 +1.5768140239E+002  +1.0547966092E+000 -3.2486670705E+000 
7768001.252 +9.5666384211E-001 +5.3424060084E+000  +3.7423270089E-003 +1.4098139753E+002  +7.6443093274E-004 -6.6547584660E+001  +1.1162013484E+000 -1.5690009758E+000 
7893146.433 +8.8493219709E-001 +1.4877167764E+000  +8.6334988892E-003 +7.8970914356E+001  +4.9293354200E-003 -8.0670230885E-001  +8.8952479884E-001 +1.5066863887E+000 
8018291.615 +7.9135318067E-001 +5.0454163636E+000  +6.2886269044E-003 +4.7119098430E+001  +6.1551043716E-003 +7.1110427155E+001  +9.0663061661E-001 -1.9010297162E+000 
8143436.796 +8.0451386297E-001 +2.1814624282E+000  +8.4541808741E-003 +1.0186246335E+002  +3.9576899953E-003 +4.0278550080E+001  +8.2104226881E-001 -4.7355552569E-001 
8268581.977 +7.5105797899E-001 +9.5566253557E+000  +2.2090733015E-003 +1.0623230967E+002  +3.8401888556E-003 +1.2712876792E+002  +8.1716478497E-001 -2.3004926155E-002 
8393727.159 +8.0423674380E-001 +6.3521275280E+000  +2.2057926677E-003 +1.0078876868E+002  +1.4978784904E-003 -1.5090171167E+002  +7.3193127716E-001 -5.1081465138E+000 
8518872.340 +7.6400691003E-001 +1.0892465579E+001  +3.6357704219E-003 -1.5554617778E+001  +5.6517912367E-003 +6.0087559661E+001  +6.8707737827E-001 -3.1593967708E+000 
8644017.522 +6.2001340114E-001 +1.0585514773E+001  +7.4662677788E-003 +7.0186072575E+001  +6.2267240907E-003 +9.8675827686E+001  +6.9911565997E-001 -2.8902803987E+000 
8769162.703 +6.3787829653E-001 +7.3272413927E+000  +6.1984828452E-003 +8.9233041305E+001  +6.0007896792E-003 +5.3929904031E+001  +6.8737936449E-001 +1.4649016875E+000 
8894307.885 +6.0041457790E-001 +4.3257240292E+000  +2.7124436509E-003 -1.7477528097E+002  +2.8377996573E-003 +1.1552737374E+002  +7.2224514873E-001 -4.3092219256E+000 
9019453.066 +6.1120437283E-001 +4.5935448074E+000  +8.3967190853E-004 +5.3613845826E-001  +1.7531973097E-003 +8.1322265924E+001  +5.9832362494E-001 -3.5986898345E+000 
9144598.248 +5.8743635826E-001 +4.5489572027E+000  +4.2998236718E-003 +5.9059877166E+001  +4.9430770199E-003 +1.2197487054E+002  +6.0500283049E-001 -1.0840482025E-001 
9269743.429 +5.3413626367E-001 -1.0180148064E+000  +4.4137273021E-003 +3.9184201309E+001  +4.1300951677E-003 +9.5387871890E+001  +6.0417861717E-001 -5.7341740247E+000 
9394888.611 +5.2733888747E-001 +4.7529290517E+000  +5.8013308112E-003 +1.1070301582E+002  +4.7029792156E-003 +5.5550704048E+001  +6.2455059553E-001 +2.0710007690E+000 
9520033.792 +5.3201902453E-001 +3.1074341968E+000  +2.0265168250E-003 +6.9624139518E+001  +5.9797437559E-003 +8.5650706074E+001  +5.7450813594E-001 +6.0203854996E-001 
9645178.974 +5.4008609941E-001 +4.8925442682E+000  +4.8419516294E-003 +6.0662249330E+001  +6.0765338854E-003 +1.1483869995E+002  +6.4109355569E-001 -2.7895285616E+000 
9770324.155 +5.4793252685E-001 -3.5978652686E+000  +5.7489853453E-003 +1.3871576866E+002  +3.7861489630E-003 +5.7161781230E+001  +5.5493904644E-001 -5.9132589045E+000 
9895469.337 +5.4472189903E-001 +7.2862431827E-001  +3.3635869434E-003 +1.9393220161E+001  +2.3475704610E-003 +8.9970292988E+001  +5.9675566645E-001 -5.9967408534E+000 
10020614.518 +5.7533523345E-001 -2.7852212157E+000  +4.5992796661E-003 +8.0162259482E+001  +3.3838295647E-003 +9.0236982735E+001  +5.9454780080E-001 -7.5943148460E+000 
10145759.700 +5.7966824191E-001 +1.0164253615E-001  +6.4061139662E-003 +8.5642240589E+001  +4.8692816520E-003 +7.5987911237E+001  +6.1359231778E-001 -5.2826369728E+000 
10270904.881 +5.6060758825E-001 +6.0226059498E-001  +3.5093892347E-003 +4.9590713018E+001  +3.9200427933E-003 +9.5120141604E+001  +5.7816409897E-001 -3.7156782526E-001 
10396050.063 +5.6823440810E-001 +5.4985927511E+000  +4.1896938722E-003 +1.1272025726E+002  +3.8308777300E-003 +4.4901818739E+001  +5.6404308156E-001 -5.4625071814E+000 
10521195.244 +6.0038184686E-001 +3.7350482417E+000  +6.7699981619E-003 +6.1697247830E+001  +3.9992494017E-003 +1.0072873545E+002  +5.5360258062E-001 -4.3322826678E+000 
10646340.426 +5.5969359473E-001 +4.9174203724E+000  +5.3382159094E-003 +8.5902713338E+001  +6.9452689584E-003 +1.1916506001E+002  +5.9032184501E-001 -3.5871574127E-001 
10771485.607 +6.0468639927E-001 +5.1233978752E+000  +3.0632562352E-003 +5.0204097508E+001  +5.6230554919E-003 +8.7856833585E+001  +5.9156671187E-001 -1.0085315307E+000 
10896630.788 +5.4176861313E-001 +3.0851962460E+000  +4.4376951071E-003 +8.5324690416E+001  +6.3659981366E-003 +8.8579563538E+001  +6.1229041596E-001 -8.5903701343E-001 
11021775.970 +5.9206462208E-001 +5.7293147645E+000  +4.6247008196E-003 +6.9126325212E+001  +6.2559245098E-003 +1.0128996842E+002  +5.9867261820E-001 +1.3531201293E+000 
11146921.151 +6.2144075141E-001 +9.4710142609E+000  +5.0178608934E-003 +6.4893571672E+001  +5.7067361923E-003 +1.0894488172E+002  +6.5095535949E-001 +4.6495867160E+000 
11272066.333 +6.0022074860E-001 +4.1925231504E+000  +6.7883935190E-003 +9.7722802304E+001  +2.2154163947E-003 +1.0987628226E+002  +6.3216362933E-001 +2.7057086172E+000 
11397211.514 +5.9758739912E-001 +5.1076559504E+000  +5.3078798538E-003 +7.7902817375E+001  +4.7079383109E-003 +6.1877242417E+001  +6.4956544540E-001 +1.0516786577E+000 
11522356.696 +6.1785183072E-001 +6.8120915627E+000  +4.0593126856E-003 +1.1478885697E+002  +6.9942217693E-003 +8.6345708701E+001  +6.6143818396E-001 +2.2647896126E+000 
11647501.877 +6.3637576674E-001 +7.2663801786E+000  +6.2875254891E-003 +8.6116914182E+001  +6.6606483015E-003 +8.9184077472E+001  +6.5412350391E-001 +1.7453382906E+000 
11772647.059 +6.4769606527E-001 +6.9595290825E+000  +6.6783418613E-003 +7.0517008748E+001  +4.0037474232E-003 +1.0053446787E+002  +6.5080900817E-001 +1.3461158265E+000 
11897792.240 +6.6159970218E-001 +3.2080258238E+000  +7.4110015350E-003 +7.5787483699E+001  +6.7120675702E-003 +8.8628832176E+001  +6.8720706996E-001 -1.8259769005E+000 
12022937.422 +6.8068799645E-001 +5.4158085703E+000  +6.9383692407E-003 +8.4957631173E+001  +4.3935208038E-003 +9.9042191791E+001  +6.9331469648E-001 +1.6896341494E+000 
12148082.603 +6.8349090308E-001 +5.1541291890E+000  +4.4744305095E-003 +6.7286700581E+001  +5.7739475351E-003 +8.0431294990E+001  +6.9672375622E-001 +4.5584826696E-001 
12273227.785 +6.8968321927E-001 +4.9520081630E+000  +7.6360748726E-003 +7.2744729137E+001  +3.5051683102E-003 +7.1216811257E+001  +7.2233486657E-001 +1.0378422237E+000 
12398372.966 +7.2230948076E-001 +4.1762466620E+000  +6.1314778885E-003 +8.6489187423E+001  +7.3835906041E-003 +8.6673384811E+001  +7.2406595557E-001 +5.6636363220E-002 
12523518.148 +7.2280761724E-001 +2.4702073737E+000  +6.2301674190E-003 +7.4640585642E+001  +5.8396978912E-003 +9.0306753151E+001  +7.3255591948E-001 -1.5137405183E-001 
12648663.329 +7.4982294787E-001 +3.3288096433E+000  +5.8661045778E-003 +1.0929889644E+002  +6.6342344215E-003 +8.8377504460E+001  +7.4928101228E-001 -3.4386062206E-001 
12773808.511 +7.5513482233E-001 +2.8308358031E+000  +7.3919248501E-003 +8.1967938641E+001  +6.9937025049E-003 +1.0257223273E+002  +7.4372770180E-001 -9.1907982635E-001 
12898953.692 +7.6776433456E-001 -9.8612260785E-002  +5.8681923805E-003 +8.5539877623E+001  +7.6945204686E-003 +8.8322937734E+001  +7.5785987857E-001 -1.7745573341E+000 
13024098.874 +7.9945493042E-001 +7.7754633576E-001  +8.5903111745E-003 +8.6709111942E+001  +6.9062202347E-003 +6.9140431871E+001  +8.1184209546E-001 -1.8037891612E+000 
13149244.055 +8.1442593634E-001 +2.2503797207E+000  +6.1521893051E-003 +8.5178769450E+001  +5.2827251568E-003 +1.0408572931E+002  +8.0947539852E-001 -1.6818681180E+000 
13274389.237 +8.0300619697E-001 +8.5341053688E-001  +7.2526766411E-003 +7.8652773476E+001  +6.3058239437E-003 +8.5657723325E+001  +8.5481285084E-001 -2.5101480476E+000 
13399534.418 +8.1302874503E-001 -6.5299819454E-001  +5.7471145579E-003 +8.3952854895E+001  +6.8645696955E-003 +8.2026198789E+001  +8.5388463111E-001 -2.2055750350E+000 
13524679.599 +8.2873725960E-001 -1.3793643411E+000  +7.1575091542E-003 +8.2839042135E+001  +6.0660374286E-003 +9.0830114069E+001  +8.3689941621E-001 -2.7704769084E+000 
13649824.781 +8.6568296383E-001 -1.8966828274E+000  +8.6546278846E-003 +7.3941738876E+001  +6.7975380727E-003 +8.0280409791E+001  +8.9519741196E-001 -1.7125453256E+000 
13774969.962 +8.7768088701E-001 -1.5094708956E+000  +7.9978129587E-003 +8.2263301676E+001  +7.5441176135E-003 +9.3145058377E+001  +9.0037071196E-001 -2.5406798375E+000 
13900115.144 +9.1412178944E-001 -3.1932747677E+000  +7.6823894695E-003 +8.2963288227E+001  +7.0701019122E-003 +8.7273192205E+001  +9.2591134260E-001 -3.3951269625E+000 
14025260.325 +9.2890156438E-001 -3.4470361119E+000  +7.4507382507E-003 +7.3618966833E+001  +8.5885929518E-003 +8.7687304824E+001  +9.4927243201E-001 -4.1635212009E+000 
14150405.507 +9.1892775093E-001 -3.2508305389E+000  +7.7643859887E-003 +8.3251165200E+001  +7.4547318487E-003 +7.9309613817E+001  +9.3962153584E-001 -4.2651149187E+000 
14275550.688 +9.7195445180E-001 -4.0661193422E+000  +8.4640872037E-003 +8.2493470687E+001  +7.4185447540E-003 +8.8705718128E+001  +9.8474685362E-001 -4.9095388813E+000 
14400695.870 +9.4899862525E-001 -5.3458693430E+000  +8.2446359819E-003 +9.0434437800E+001  +6.6671466282E-003 +7.8634608523E+001  +9.9488023649E-001 -4.0762575469E+000 
