!  2-Port S-parameters saved by WinCal
! VAR MeasName=S-Parameters (CALIBRATED_DATA) read from VNA (P5004A)
! VAR MeasDate=27/08/2024 17:12:35
! VAR NAME=S2_r3c9_RESET2_9k-100M_1
! VAR FILENAME=S2_r3c9_RESET2_9k-100M_1.S2P
! VAR DATE=27/08/2024 17:12:35
! VAR PHYS_PORTS=1,2
! VAR ObjTypeName=DATASET
! VAR IndexType=Frequency
!
# Hz S MA R 50
9000.000 +5.6536878614E-002 -1.7737081543E+002  +3.0049819190E-002 -1.1896544412E+002  +2.3262782367E-002 -7.8355316496E+001  +3.5591076514E-001 -1.1264179258E+002 
134145.181 +1.1120841446E-001 +1.6959391622E+002  +6.7451776834E-004 -9.0663087021E+001  +1.4837408961E-004 +1.2091203049E+002  +2.3998596537E-001 -1.7092823882E+002 
259290.363 +1.1172990557E-001 +1.7041474775E+002  +1.4586874248E-003 +3.2156204477E+001  +7.1385416770E-004 +8.4261505063E+001  +2.4548170987E-001 -1.6785441142E+002 
384435.544 +1.1382808924E-001 +1.6987430543E+002  +3.1753516025E-004 -1.4953028505E+002  +7.1732026082E-004 -1.6250959546E+002  +2.3731720326E-001 -1.6953832616E+002 
509580.726 +1.1324759590E-001 +1.7018885592E+002  +3.9204919289E-004 -1.5711549000E+002  +1.4635335635E-003 -1.3235384807E+002  +2.5042815795E-001 -1.6362890904E+002 
634725.907 +1.1648899219E-001 +1.7064572273E+002  +4.0919609631E-004 -1.4766854622E+002  +4.8918030321E-004 -1.6360575813E+002  +2.4743423439E-001 -1.6714258416E+002 
759871.089 +1.1563546391E-001 +1.7050887802E+002  +4.4881163052E-004 -9.9856433364E+001  +1.2345644957E-003 +1.0339389363E+002  +2.4442239114E-001 -1.6310420419E+002 
885016.270 +1.2086342755E-001 +1.7024108132E+002  +2.6067665886E-004 -3.2300053268E+000  +8.9936608094E-004 -1.0348050336E+002  +2.4195542823E-001 -1.6556157558E+002 
1010161.452 +1.1971735418E-001 +1.7115534568E+002  +6.6859945075E-004 +1.4853384440E+002  +2.5661197765E-003 -1.1031248709E+002  +1.4839964697E-001 -1.7398693367E+002 
1135306.633 +1.1481439328E-001 +1.7015610630E+002  +1.0622656574E-003 +1.6524897540E+002  +1.4492547985E-003 -9.6250010869E+001  +1.8925872936E-001 -1.6404066283E+002 
1260451.815 +1.2397897886E-001 +1.7315675857E+002  +1.3951195462E-003 -1.3057634132E+002  +9.3820854630E-004 +1.3453876270E+002  +2.4176636422E-001 -1.5631764090E+002 
1385596.996 +1.2729264233E-001 +1.7128834332E+002  +1.2595755001E-003 -7.3594791528E+001  +6.6405808409E-004 -1.6260426698E+002  +2.5413595941E-001 -1.5967213731E+002 
1510742.178 +1.2505387038E-001 +1.6976210616E+002  +6.4144225983E-004 +1.3339969972E+001  +1.2077744003E-003 +1.0833760983E+002  +2.4953862915E-001 -1.6074979801E+002 
1635887.359 +1.2781401909E-001 +1.7119519348E+002  +7.1387554663E-004 +1.2144583691E+002  +9.5580495919E-004 +1.3987949782E+002  +2.4496118181E-001 -1.5874115019E+002 
1761032.541 +1.3067806656E-001 +1.6915185479E+002  +1.1121568058E-003 -1.0749489055E+002  +2.0836838447E-003 +1.1969543041E+002  +2.3707573068E-001 -1.5611102971E+002 
1886177.722 +1.3270740845E-001 +1.6605724206E+002  +1.9104066845E-003 -1.4483053189E+002  +1.8111732035E-003 +1.6039283940E+002  +2.0360817894E-001 -1.6074083455E+002 
2011322.904 +1.3014845574E-001 +1.6518042667E+002  +2.6455145362E-003 -9.3144943051E+001  +2.0476178694E-003 -6.2774357140E+001  +2.0466068217E-001 -1.7563341680E+002 
2136468.085 +1.2596001051E-001 +1.6585136777E+002  +4.6282824389E-003 +1.7678461262E+002  +1.6460537165E-003 +5.7358601276E+001  +1.1959009686E-001 -1.7969055845E+002 
2261613.267 +1.3917030600E-001 +1.6271936403E+002  +5.3006314147E-003 +6.0486753702E+000  +4.0724155940E-003 +1.7998140726E+001  +1.7246872007E-001 +1.5092224963E+002 
2386758.448 +1.4100323238E-001 +1.6418028708E+002  +1.5428797285E-003 +1.4621271410E+002  +4.9511912671E-003 -1.5895772158E+002  +1.6770517399E-001 +1.5587686254E+002 
2511903.630 +1.3672639318E-001 +1.6220113098E+002  +9.1045548325E-004 +1.0988360857E+002  +2.5976228604E-003 -1.2986211160E+002  +2.3338494283E-001 +1.7073408503E+002 
2637048.811 +1.0448383186E-001 +1.5779418804E+002  +1.8791276381E-002 +1.0626365456E+002  +2.2392746759E-002 +5.5818059769E+001  +5.8222395869E-001 +1.2263925744E+002 
2762193.992 +5.8441249955E-002 +1.3623326149E+002  +7.2371332413E-002 +1.8994212916E+001  +4.6810668656E-002 -9.1221649923E+001  +6.4689084687E-001 -9.0638770074E+001 
2887339.174 +1.1529907027E-001 +1.7291623537E+002  +1.4336706027E-002 +4.5431608959E+001  +1.0683297359E-002 +9.6949213921E+001  +7.8167727942E-001 -9.4188627972E+001 
3012484.355 +9.5708631158E-002 +1.7282402240E+002  +5.2495538407E-003 +2.7898604297E+001  +2.5636990145E-003 +1.0476160715E+002  +3.5841481860E-001 -1.3094462393E+002 
3137629.537 +1.3373831776E-001 +1.6862622832E+002  +1.0049331334E-002 +1.9529562873E+001  +1.4165622295E-002 +1.3914324690E+002  +3.1653640133E-001 -2.3959413220E+001 
3262774.718 +1.1968537703E-001 +1.7206407878E+002  +1.0044227822E-001 +1.2619215420E+001  +3.4322689265E-002 -4.5648873388E+001  +2.0116488160E+000 -3.1536760420E+001 
3387919.900 +1.2708308730E-001 +1.4829360997E+002  +1.5932550526E-002 +1.1484512320E+002  +2.1506298243E-002 +2.1693424325E+001  +2.2379525517E+000 +1.1121193588E+002 
3513065.081 +1.7368142124E-001 +1.4521691812E+002  +1.2278707150E-002 -1.7686598200E+002  +2.9635582927E-002 -1.4738084829E+002  +9.2627861016E-001 +4.8203033699E+001 
3638210.263 +1.9202972181E-001 +1.3897250531E+002  +4.1107813026E-002 -1.7509419037E+002  +1.6382283028E-002 +1.5152601928E+002  +9.8447456564E-001 +1.3211094261E+000 
3763355.444 +2.1761482063E-001 +1.3639075354E+002  +8.9319521726E-003 -7.1140852584E+001  +2.1479972007E-002 +1.7047504398E+002  +3.3602928411E-001 +1.1303131438E+002 
3888500.626 +2.0568252748E-001 +1.4027972967E+002  +3.9257821434E-003 +1.5166499927E+002  +6.4012862484E-003 -6.1651213235E+001  +1.6769144274E-001 +1.2943058159E+002 
4013645.807 +2.0241610457E-001 +1.4910372415E+002  +7.2164614737E-003 +1.1707499446E+002  +3.6793095691E-003 -3.0652227149E+001  +6.1230067443E-001 +1.2417616960E+002 
4138790.989 +1.8037766916E-001 +1.4695877452E+002  +4.8377153941E-003 -1.4818256076E+002  +7.4737830068E-003 -7.3043794796E+001  +4.9901348542E-001 +1.3881419426E+002 
4263936.170 +1.8203061067E-001 +1.4317088805E+002  +9.5853198743E-003 -2.1324983272E+001  +8.4217230733E-003 +4.4706232357E+001  +5.6990255679E-001 +1.4022366806E+002 
4389081.352 +2.0884799160E-001 +1.3306957967E+002  +1.2653123242E-002 +5.5718231113E+001  +6.8231650099E-003 -8.6208091647E+001  +5.2556809219E-001 -6.2112483958E+000 
4514226.533 +3.0099231721E-001 +1.1590164094E+002  +1.0529357394E-002 -9.8265029743E+001  +3.7382073708E-002 +1.6975659271E+002  +7.3738251305E-001 +1.2755279146E+002 
4639371.715 +2.4228353141E-001 +1.2553341958E+002  +2.9719716544E-002 -2.9449322194E+001  +5.9138916888E-003 -7.5675546400E+001  +9.6628804674E-001 +7.7762856612E+001 
4764516.896 +4.6024226605E-001 +1.4132355309E+002  +6.4823418239E-002 -1.0180627975E+001  +1.9773827860E-002 -1.5688640463E+002  +2.5905335184E+000 -1.6745736950E+002 
4889662.078 +4.6228150469E-001 +1.3113675602E+002  +1.0943417005E-001 +1.6540842432E+002  +2.2582904541E-002 +7.4752328841E+001  +3.5727412234E+000 +3.7885180432E+001 
5014807.259 +3.8351600088E-001 +1.3078524693E+002  +1.2628508060E-002 -1.5224530355E+002  +2.2373361400E-002 -1.5241391231E+002  +2.3861895998E+000 -4.3110241458E+001 
5139952.441 +3.3036763037E-001 +1.2206304087E+002  +1.7889739238E-002 +1.0243193441E+002  +2.3285427095E-002 +1.1609004745E+002  +2.5392057358E+000 +5.8586868489E-001 
5265097.622 +3.6935690004E-001 +1.2853385853E+002  +1.1693934869E-002 -3.5195119287E+001  +6.5665955911E-003 -1.3880966860E+002  +1.0431096173E+000 +6.8326821488E+001 
5390242.804 +4.4985681888E-001 +1.2885513429E+002  +2.0465093694E-003 -9.8463390703E+001  +4.1110230217E-002 +1.2781257701E+002  +3.8779297697E+000 +9.6575711186E+001 
5515387.985 +4.8096412463E-001 +1.3189941802E+002  +5.6817988267E-003 +7.7576421528E+001  +1.4010119075E-002 -1.5743735547E+002  +1.9159664346E+000 +8.9557481780E+001 
5640533.166 +4.7753577711E-001 +1.3352263343E+002  +4.0104761136E-002 -4.0610176777E+001  +2.6717316659E-002 -9.8804437747E+001  +4.9656946435E+000 +6.7860926789E+001 
5765678.348 +4.4996810142E-001 +1.2820948362E+002  +1.3961249980E-002 +7.5313710035E+001  +1.1012858628E-002 +1.3413503636E+002  +1.6821037753E+000 +7.5526162683E+001 
5890823.529 +5.3056251758E-001 +1.2657492938E+002  +1.0329994036E-002 +1.0631508739E+002  +1.6934895191E-002 -5.0027744519E+000  +1.4857358999E+000 +6.2155811854E+001 
6015968.711 +6.4754247756E-001 +1.1272398499E+002  +1.6977965991E-002 +1.1274248592E+002  +5.3072573198E-003 -9.0300076263E+001  +1.6947670868E+000 +3.3807297826E+001 
6141113.892 +7.9338578127E-001 +1.2141013488E+002  +8.4732175927E-003 +1.1873460809E+002  +2.5025484724E-002 -1.7508165159E+002  +2.4000686029E+000 +1.3707405123E+001 
6266259.074 +9.0303212226E-001 +8.7999807435E+001  +4.2931535035E-002 -1.6370947160E+002  +2.5740861646E-002 -8.5218026034E+001  +2.2968604863E+000 +7.4383824196E+000 
6391404.255 +9.0361829890E-001 +9.2662323236E+001  +2.0219738767E-002 +1.1123937429E+002  +3.9773820282E-002 +5.6417011045E+001  +2.0595298401E+000 +1.9843324705E+001 
6516549.437 +1.1020724571E+000 +9.5416625591E+001  +1.7028348253E-002 -1.7431366191E+002  +1.8509548048E-002 +3.5884658002E+001  +1.4594662981E+000 +1.4447978838E+001 
6641694.618 +1.5532035144E+000 +8.6905747132E+001  +1.0524244211E-002 +5.3795169541E+001  +9.7524747586E-003 +8.1521196079E+001  +1.3467615878E+000 +1.5061240121E+000 
6766839.800 +1.4937025974E+000 +5.9344896736E+001  +6.4200918244E-003 +1.0965900659E+002  +2.6564054925E-002 +4.8640516926E+001  +1.3708572464E+000 -9.0151829309E+000 
6891984.981 +1.9172603180E+000 +1.6781002336E+001  +6.2080083736E-003 +1.0503178823E+002  +1.6725189420E-002 +1.0208204014E+002  +1.2520083224E+000 -6.1982773864E+000 
7017130.163 +1.7430055173E+000 +1.8703408596E+001  +1.8117002487E-002 -6.8629296091E+000  +1.8853932951E-002 -1.7349786152E+001  +1.2028586248E+000 -1.0293822247E+001 
7142275.344 +1.6624435472E+000 +4.1183162640E+000  +1.4848883874E-002 -1.6119151012E+002  +6.1200044448E-003 +1.3931371698E+002  +1.4114325254E+000 -5.4332212177E+000 
7267420.526 +1.4642223232E+000 -6.1877918645E+000  +6.7179656324E-003 +1.5777851554E+002  +5.4327968347E-003 +1.7815317871E+000  +1.2610055584E+000 -1.3758597665E+001 
7392565.707 +1.3668808115E+000 -1.0750476774E+000  +8.6517565824E-003 +1.2756868303E+002  +7.4506437274E-003 +1.1140685197E+002  +1.1835023140E+000 -1.3117075155E+001 
7517710.889 +1.3276517980E+000 -2.1375311435E+000  +1.5383694469E-003 -3.6324070975E+001  +4.3821599712E-003 +6.8761795880E+001  +1.2709586487E+000 -6.4749696977E+000 
7642856.070 +9.5191737805E-001 +1.5687025233E+000  +9.6280447215E-003 +3.2624759975E+001  +2.6563089941E-003 +1.0689897711E+002  +1.1072516528E+000 -3.7164726058E+000 
7768001.252 +9.8168339201E-001 +2.9903233050E-001  +1.0946722928E-002 +9.7904570536E+001  +1.3314151830E-003 +2.1237611923E+001  +9.9887072592E-001 +8.3801300803E-002 
7893146.433 +9.0098971759E-001 +4.3288351069E+000  +5.1268415961E-003 +6.2733348517E+001  +1.7341657895E-003 -6.3504456915E+001  +9.0899398875E-001 -6.0865699215E-001 
8018291.615 +9.5587447382E-001 +7.4201305047E+000  +3.7194442212E-003 -1.7756661846E+001  +1.3012839913E-002 +1.3893285888E+002  +9.2032563997E-001 -1.9820690533E+000 
8143436.796 +8.2859396128E-001 +6.5048411573E+000  +1.9091262127E-003 -1.3041278383E+002  +9.6398972672E-003 +6.9021871053E+001  +7.9618929154E-001 -5.0877732321E+000 
8268581.977 +7.5999014806E-001 +5.3184809612E+000  +1.7112681442E-003 +4.2801940479E+001  +1.9771613364E-003 -1.7537415867E+002  +8.1499821705E-001 -2.2467605452E-001 
8393727.159 +7.1631137598E-001 +4.4113891106E+000  +4.1287884404E-003 +6.9639141954E+001  +1.4862678454E-003 +8.4617844096E+001  +7.9136101991E-001 +2.2629123532E+000 
8518872.340 +7.2295217573E-001 +7.2853189059E+000  +4.0576119243E-003 +7.6639648088E+001  +2.7319827743E-003 -4.7796963765E+001  +7.1575402335E-001 -1.6970211011E+000 
8644017.522 +6.7665010047E-001 +7.6357128017E+000  +4.5321209074E-003 +1.4148039459E+002  +8.8784026782E-004 +1.8620825442E+001  +7.2805688711E-001 +2.3101904771E+000 
8769162.703 +5.7121681681E-001 +8.6537087466E+000  +6.0086836583E-003 +6.8156421211E+001  +9.5382397745E-003 +1.1537274088E+002  +6.4760377216E-001 +1.9550264299E+000 
8894307.885 +6.3019799160E-001 +6.6184231117E+000  +5.3705373083E-003 +1.7389136963E+001  +6.1405502108E-003 +5.0244180141E+001  +6.7676070569E-001 +1.1160389890E-001 
9019453.066 +5.6655378765E-001 -4.3366942798E-001  +6.4545188404E-003 +8.8753770936E+001  +6.9187275334E-003 +1.7224545226E+002  +6.2741009206E-001 -2.3338865682E+000 
9144598.248 +5.7393286999E-001 +1.0334613355E+001  +2.0219014285E-003 +1.1209714311E+002  +3.6834796818E-003 +5.8272296449E+001  +5.9270798937E-001 -1.6533719488E+000 
9269743.429 +5.4214173830E-001 +7.1864318422E+000  +1.1103362002E-002 +6.9390444394E+001  +8.4135315559E-003 +1.0031119514E+002  +5.7179490566E-001 -1.3369773301E+000 
9394888.611 +5.8204036635E-001 -1.6992902686E-001  +3.9949705728E-003 +3.3169753882E+001  +2.3857884567E-003 -3.6211711731E+001  +6.0610138615E-001 -2.9069071751E-001 
9520033.792 +5.6148586477E-001 +4.1346789019E+000  +6.6665012845E-003 +8.2659270857E+001  +4.4217201955E-003 +6.2762560000E+001  +5.8497036739E-001 -6.8050514576E-001 
9645178.974 +5.7030556827E-001 -1.5970443392E+000  +2.3111123382E-003 +4.5414394703E+001  +2.8553106753E-003 +1.0970921453E+002  +5.7696370077E-001 -7.0859540129E+000 
9770324.155 +4.9856194246E-001 -1.3633578474E+000  +4.0013867278E-003 +8.3932147299E+001  +4.5208806709E-003 +8.3361361772E+001  +5.5178214902E-001 -8.0402449970E+000 
9895469.337 +5.3236051209E-001 +2.7405753921E+000  +3.1146877442E-003 +5.2322525904E+001  +3.7490410423E-003 +8.3052937832E+001  +5.4732813843E-001 -9.5504869819E+000 
10020614.518 +5.4683759085E-001 +5.5138096191E+000  +5.3127466172E-003 +8.1440845930E+001  +5.7673171565E-003 +1.0971289813E+002  +5.6806473046E-001 -4.9418654069E+000 
10145759.700 +5.4001572463E-001 +1.3104130930E+000  +1.5109837562E-003 +1.4071221368E+002  +4.0920050125E-003 +6.9686641949E+001  +5.7381023130E-001 -4.7570740397E+000 
10270904.881 +6.0061732748E-001 +3.6195608104E+000  +3.8621233143E-003 +8.9738830101E+001  +4.7441781931E-003 +7.7933805068E+001  +6.3032816800E-001 -3.1274192992E+000 
10396050.063 +5.5671403703E-001 +4.9704716947E+000  +5.2335169270E-003 +9.4231188813E+001  +5.3348863821E-003 +6.7816026422E+001  +5.7166114991E-001 -2.4243791585E+000 
10521195.244 +5.9627585965E-001 +7.4578715613E+000  +4.0926526698E-003 +9.8210229839E+001  +3.6160460970E-003 +8.2731717182E+001  +5.7282859455E-001 +2.4887705905E+000 
10646340.426 +5.4647223950E-001 +5.3793506662E+000  +5.0325133869E-003 +9.7454320380E+001  +4.1759199317E-003 +9.9483684507E+001  +6.1141042161E-001 -3.3260431340E+000 
10771485.607 +5.8934883306E-001 +5.0140915904E+000  +6.1676644278E-003 +9.6825779649E+001  +5.1574449476E-003 +7.8996258282E+001  +5.8828906544E-001 -1.6285640902E+000 
10896630.788 +5.5850324939E-001 +9.3295430044E+000  +5.5649431540E-003 +4.8512630888E+001  +5.1484296279E-003 +9.7108592074E+001  +6.0508881515E-001 +1.1513993457E+000 
11021775.970 +6.0021718028E-001 +4.8771999127E+000  +2.4454377383E-003 +6.5265615023E+001  +6.1494744588E-003 +9.5965765968E+001  +6.2727565898E-001 +2.3823758739E+000 
11146921.151 +5.9846872731E-001 +4.9457857706E+000  +3.8876159675E-003 +8.0612796125E+001  +4.4764513018E-003 +6.9566357419E+001  +6.2563424074E-001 +1.5716769093E+000 
11272066.333 +6.0343802699E-001 +5.4490545199E+000  +4.8273438343E-003 +1.0637450317E+002  +5.8654668638E-003 +7.9299532941E+001  +6.1715193586E-001 +1.7698360732E+000 
11397211.514 +6.0431460737E-001 +6.6602051515E+000  +6.5211818901E-003 +7.8212819167E+001  +5.3453869900E-003 +9.6074378891E+001  +6.5743449993E-001 +4.3730167379E+000 
11522356.696 +6.3708883977E-001 +4.8329891483E+000  +4.5193550787E-003 +9.6387769220E+001  +6.2229533463E-003 +1.1656636651E+002  +6.6752520359E-001 +3.1996617641E+000 
11647501.877 +6.2703694849E-001 +7.5628217147E+000  +5.4144647256E-003 +7.3917937332E+001  +3.2495144354E-003 +8.4922348763E+001  +6.6015618326E-001 -8.2455022827E-001 
11772647.059 +6.4911032526E-001 +2.2197974377E+000  +7.7994972175E-003 +6.2841989592E+001  +6.9216712620E-003 +1.0109380597E+002  +6.6760016840E-001 +7.8275912435E-001 
11897792.240 +6.5333223286E-001 +5.0263624679E+000  +5.0649835628E-003 +9.7423148335E+001  +6.6760959895E-003 +6.3764556987E+001  +6.8722685714E-001 +2.4872823298E+000 
12022937.422 +6.5576322081E-001 +3.7777135014E+000  +5.8049068924E-003 +9.0338559261E+001  +7.0863670082E-003 +8.5763128626E+001  +7.1016774300E-001 -5.5652902059E-002 
12148082.603 +6.6697564479E-001 +3.3836556751E+000  +4.5295170812E-003 +9.2281386303E+001  +5.9682800163E-003 +7.6901038638E+001  +6.6356373875E-001 +8.1207256918E-001 
12273227.785 +6.8730283633E-001 +4.0755854150E+000  +5.1657597537E-003 +9.4800650479E+001  +4.4113616499E-003 +8.9311474989E+001  +6.9179418535E-001 +1.3514438829E+000 
12398372.966 +7.1786309377E-001 +3.9354569432E+000  +3.3927455203E-003 +6.9223128275E+001  +6.0666221919E-003 +8.7974248294E+001  +7.4194822500E-001 -1.7869667810E+000 
12523518.148 +7.1308485882E-001 +2.2433072596E+000  +5.7293347950E-003 +7.8355254647E+001  +7.9112827115E-003 +9.5722150558E+001  +7.4960301552E-001 -2.1903606782E+000 
12648663.329 +7.2753934770E-001 +2.4309598807E+000  +5.4417454103E-003 +8.1911381019E+001  +6.8549525358E-003 +8.8397072392E+001  +7.4079324246E-001 -2.1980097662E+000 
12773808.511 +7.4635210211E-001 +1.5602750211E-001  +5.8908544747E-003 +1.0085714184E+002  +7.7441734311E-003 +9.4076261480E+001  +7.7765952724E-001 -1.1171298556E+000 
12898953.692 +7.5306399391E-001 +9.9870512344E-001  +6.8292567380E-003 +9.2344104659E+001  +7.7107509317E-003 +9.0762300771E+001  +7.8366383835E-001 -3.0263652240E+000 
13024098.874 +7.7656585870E-001 +1.1222551662E+000  +7.2649930545E-003 +9.1229301111E+001  +4.9922736507E-003 +9.9969101856E+001  +7.7589614440E-001 -2.2358611481E+000 
13149244.055 +8.0061741444E-001 +1.2017194626E-002  +6.3071007048E-003 +7.3525550709E+001  +5.2376314731E-003 +9.6783886076E+001  +7.9932196464E-001 -1.4137670568E+000 
13274389.237 +8.1064184875E-001 -8.7705970784E-001  +7.9803997478E-003 +8.4856236356E+001  +5.6964424699E-003 +8.3719736254E+001  +8.4957961730E-001 -1.8393026270E+000 
13399534.418 +8.4588035967E-001 -2.8473522895E+000  +4.8164412098E-003 +8.3445520823E+001  +7.3567185511E-003 +8.4239466203E+001  +8.5020154271E-001 -1.6191057574E+000 
13524679.599 +8.6188538237E-001 -1.0712267347E+000  +7.5499526446E-003 +8.4064028909E+001  +7.4807647458E-003 +8.8007914067E+001  +8.6108993897E-001 -3.0145306725E+000 
13649824.781 +8.8594997099E-001 -2.3937298448E+000  +8.2376296645E-003 +8.9717515886E+001  +7.1491440328E-003 +9.6653462227E+001  +8.6989190447E-001 -3.6203709721E+000 
13774969.962 +8.8676219807E-001 -2.7135506594E+000  +5.2768620894E-003 +8.0382870504E+001  +8.3367725235E-003 +9.6789926504E+001  +9.0704889967E-001 -3.4550686118E+000 
13900115.144 +8.8313412905E-001 -2.2093502981E+000  +8.6593100263E-003 +9.5680217455E+001  +6.9445450952E-003 +1.0237646494E+002  +9.0820917757E-001 -2.9517953269E+000 
14025260.325 +9.4448887893E-001 -2.9792490437E+000  +7.8931078459E-003 +8.9320491350E+001  +7.9878201116E-003 +8.5333637413E+001  +9.3768002079E-001 -4.8372912737E+000 
14150405.507 +9.3159720611E-001 -4.8793549189E+000  +6.9452566324E-003 +8.7297169375E+001  +5.7634831846E-003 +9.4252340200E+001  +9.3822180088E-001 -4.0168261283E+000 
14275550.688 +9.6508323608E-001 -5.3345859580E+000  +7.1373021898E-003 +8.5046409417E+001  +5.8295264997E-003 +7.1290906324E+001  +9.7135077085E-001 -3.6784957754E+000 
14400695.870 +9.4898528004E-001 -4.6849444084E+000  +7.0336476239E-003 +7.1757141735E+001  +6.9515783999E-003 +9.0638153323E+001  +9.7588660030E-001 -3.8346120739E+000 
