!  2-Port S-parameters saved by WinCal
! VAR MeasName=S-Parameters (CALIBRATED_DATA) read from VNA (P5004A)
! VAR MeasDate=27/08/2024 15:37:03
! VAR NAME=S2_r6c8_RESET2_9k-100M_1
! VAR FILENAME=S2_r6c8_RESET2_9k-100M_1.S2P
! VAR DATE=27/08/2024 15:37:03
! VAR PHYS_PORTS=1,2
! VAR ObjTypeName=DATASET
! VAR IndexType=Frequency
!
# Hz S MA R 50
9000.000 +6.5629350245E-002 -1.6163276457E+002  +7.8800527615E-003 -1.5631603622E+002  +2.4464026727E-002 -1.7960931057E+002  +2.1328253696E-001 -1.3792748161E+002 
134145.181 +1.1079511665E-001 +1.6986469362E+002  +3.3710663317E-004 -1.4987226903E+002  +5.4551424071E-004 -1.3204374326E+002  +2.4424416276E-001 -1.7030316223E+002 
259290.363 +1.1215660403E-001 +1.6977281080E+002  +4.9250507266E-004 +4.1134470850E+001  +4.5326438464E-004 -3.8835959247E+001  +2.4142755270E-001 -1.7011739232E+002 
384435.544 +1.1497635424E-001 +1.7042945964E+002  +3.4781288621E-004 -1.7401233878E+002  +5.8733083794E-004 -7.9974619425E+001  +2.4387878821E-001 -1.6831475135E+002 
509580.726 +1.1413446680E-001 +1.6989750351E+002  +1.2315666723E-003 +9.2341277254E+001  +8.3405991786E-004 +5.8091847657E+001  +2.4184794214E-001 -1.6544942179E+002 
634725.907 +1.1615098531E-001 +1.7137122482E+002  +9.6649702771E-004 +7.6759549536E+001  +1.1590720429E-003 +7.7039292104E+001  +2.4160758186E-001 -1.6574032737E+002 
759871.089 +1.1750494955E-001 +1.7064904905E+002  +4.7943190437E-004 -1.4669513464E+002  +7.6061091130E-004 +3.0183418320E+001  +2.3292017013E-001 -1.6294958139E+002 
885016.270 +1.1758155712E-001 +1.6885548773E+002  +6.8906289902E-004 +1.3120918819E+002  +4.3395747056E-004 -1.7776516624E+002  +2.3675981054E-001 -1.6541594231E+002 
1010161.452 +1.1728276282E-001 +1.7278346219E+002  +1.8998009395E-003 +7.0255949671E+001  +2.0034277666E-003 -9.4051617307E+001  +1.7979253337E-001 -1.6959252097E+002 
1135306.633 +1.1746861393E-001 +1.6827140452E+002  +1.2266319495E-003 +5.3196216597E+001  +3.8201616689E-003 +7.2695366440E+001  +1.6233657660E-001 -1.2680028368E+002 
1260451.815 +1.2329123320E-001 +1.7201582646E+002  +9.0531414161E-004 -1.1438645572E+002  +1.5520282878E-003 -1.1211067021E+002  +2.3546469415E-001 -1.5765699690E+002 
1385596.996 +1.2098919582E-001 +1.7196556544E+002  +1.3822547854E-003 +1.1223959845E+002  +7.6493974522E-004 +1.3612557734E+002  +2.5752821002E-001 -1.6013470680E+002 
1510742.178 +1.2811691240E-001 +1.7099393135E+002  +9.1873566194E-004 -9.9090631997E+001  +1.1399003994E-003 +6.4357382905E+001  +2.5364135551E-001 -1.5732538830E+002 
1635887.359 +1.2572816921E-001 +1.7093441645E+002  +7.2988161706E-004 +1.0801791435E+002  +1.2857503759E-003 -5.1291905121E+001  +2.1918555240E-001 -1.5639559997E+002 
1761032.541 +1.2539108451E-001 +1.6915309677E+002  +7.6727724678E-004 +1.4308367536E+002  +8.9869581748E-004 +1.5735452663E+002  +1.9885997334E-001 -1.5989693389E+002 
1886177.722 +1.3035934617E-001 +1.6527554790E+002  +1.4093459234E-003 +1.5964276900E+002  +3.3140863336E-004 +8.0171867586E+001  +2.1169674590E-001 -1.6792001379E+002 
2011322.904 +1.2352511103E-001 +1.6682280332E+002  +1.9831851394E-003 -1.4111969170E+002  +1.2913596480E-004 +1.6533100012E+002  +1.7739140338E-001 -1.6250543694E+002 
2136468.085 +1.2901656625E-001 +1.6623966371E+002  +4.2959485289E-003 +1.7216103377E+002  +2.2565951613E-003 -7.1719759752E+001  +1.6909798892E-001 -1.7969770814E+002 
2261613.267 +1.3587359864E-001 +1.6409097111E+002  +1.2748592892E-003 -1.1639782048E+002  +1.0215956138E-003 -1.0771343185E+002  +2.4896880803E-001 +1.7892899988E+002 
2386758.448 +1.3742475272E-001 +1.6353952100E+002  +2.1888655199E-003 -7.0122618590E+000  +2.5884697000E-003 -1.3179548767E+002  +2.7697433344E-001 +1.4465289468E+002 
2511903.630 +1.2749277919E-001 +1.5858221659E+002  +2.2737712363E-003 -9.8789644943E+001  +2.9934612855E-003 -1.4114678530E+002  +2.0860263695E-001 +1.5257686860E+002 
2637048.811 +1.2143107251E-001 +1.3820401428E+002  +7.1312992579E-003 +1.1564871097E+002  +2.2080508211E-002 -5.0691393819E+001  +4.0103005400E-001 +1.4920908420E+002 
2762193.992 +7.4972304579E-002 +1.6974545369E+002  +1.1528572408E-002 +4.4994396802E+001  +4.1840340983E-002 +2.8937834693E+001  +1.0915688065E+000 -1.5534076533E+002 
2887339.174 +1.1641847752E-001 -1.7527081008E+002  +1.4855226391E-002 +3.1052640592E+001  +1.7573408133E-002 -8.0250462612E+001  +1.1263050945E+000 -1.5886418096E+002 
3012484.355 +8.0936350068E-002 +1.6389892882E+002  +2.5414369311E-002 -8.3551000226E+001  +2.6876744736E-002 -8.5589680741E+001  +7.8618337386E-001 -1.0582177520E+002 
3137629.537 +1.1872214118E-001 +1.6838289046E+002  +5.0648890380E-002 -7.8561118957E+001  +9.4527060585E-002 +5.4501086029E+001  +1.8384514433E+000 +8.5824561756E+001 
3262774.718 +1.2430036849E-001 +1.6478535904E+002  +6.4218923649E-003 -7.5160793097E+000  +4.6861927640E-003 -1.1154770223E+002  +1.3623752463E-001 -1.1962593353E+002 
3387919.900 +9.4739953811E-002 +1.6393743528E+002  +1.6238084988E-001 -5.9390517610E+001  +6.9605788991E-002 +1.2907493642E+002  +2.7577967167E+000 -7.1142924274E+001 
3513065.081 +1.4742865252E-001 +1.4074858371E+002  +1.9522238195E-002 -7.9855927493E+001  +3.6480086981E-002 +1.2073505398E+002  +1.0211293554E+000 +3.9782362096E+001 
3638210.263 +1.7114880450E-001 +1.2845769894E+002  +7.7080292827E-003 -9.4461270051E+001  +6.9407825330E-003 -5.6093421801E+000  +6.2291472683E-001 +1.4788637865E+002 
3763355.444 +1.7557937257E-001 +1.3757207631E+002  +7.4228769385E-003 -1.2712162525E+002  +1.0178597567E-002 +5.0986517647E+001  +5.5306354542E-001 +1.2930199410E+002 
3888500.626 +1.7072250136E-001 +1.4395003509E+002  +8.4799383187E-003 +1.5763446919E+002  +8.8395631947E-003 +4.0984733461E+001  +4.0908580371E-001 +9.8631642290E+001 
4013645.807 +1.4851274910E-001 +1.4659958230E+002  +1.9391323371E-002 -1.0270761977E+002  +3.7768314828E-003 -1.0944075584E+002  +8.0843761651E-001 +8.9434974019E+001 
4138790.989 +1.7420492067E-001 +1.4227025707E+002  +9.5497789723E-003 +1.2434254922E+002  +1.5170199298E-002 -1.7093267340E+002  +5.6904851857E-001 +1.0939596673E+002 
4263936.170 +1.5604530769E-001 +1.4308509090E+002  +7.7806061708E-003 +1.2163646380E+001  +2.5094647526E-002 +5.4291365491E+000  +1.4209941517E+000 +1.0040027064E+002 
4389081.352 +1.9170839680E-001 +1.3174475199E+002  +2.1636212434E-002 +9.1186868809E+001  +2.0034773705E-002 +6.3739253669E+001  +7.8147923939E-001 +3.6637341023E+001 
4514226.533 +2.3109219707E-001 +1.3440027743E+002  +2.7408686574E-002 +1.1783535343E+002  +1.0780671670E-002 +9.2525133319E+001  +1.2927395122E+000 +1.1674147860E+002 
4639371.715 +3.3156094803E-001 +1.3592067157E+002  +3.0150461510E-002 -1.2307163156E+002  +3.1521859343E-002 +1.6554525295E+002  +1.5796570688E+000 +1.2451222943E+002 
4764516.896 +4.5200450898E-001 +1.2830256358E+002  +3.2020616920E-002 +1.2639745687E+002  +2.3670416437E-002 +6.7671070001E+001  +3.0176604199E+000 +1.2028480345E+002 
4889662.078 +6.1834234384E-001 +1.3385144095E+002  +1.3026487156E-002 +1.2954846132E+002  +7.4742565074E-003 +1.7181845307E+002  +2.8284315638E+000 -1.3405026630E+002 
5014807.259 +4.3139805444E-001 +1.1813263659E+002  +5.2838591327E-002 -1.1447936436E+002  +5.3332547832E-002 -1.6786739698E+002  +5.0568190269E+000 -1.2197139686E+002 
5139952.441 +4.1797314949E-001 +1.2965870869E+002  +1.6966743249E-002 -3.7323471779E+001  +1.1514748230E-002 +8.2630208363E+001  +1.8617337955E+000 +9.2014594596E+001 
5265097.622 +3.8824911420E-001 +1.2759631136E+002  +7.1595718694E-002 -1.0524198448E+002  +4.9920793208E-002 -1.6883937791E+002  +1.0300355271E+001 +4.1564750136E+001 
5390242.804 +4.2778194793E-001 +1.2000740420E+002  +2.4037961602E-002 +9.4845137681E+001  +3.6228374561E-002 +9.1437651856E+001  +1.7089470668E+000 +7.6551855671E+001 
5515387.985 +4.2868425375E-001 +1.2835348300E+002  +6.3363706405E-002 -6.4282434954E+001  +4.4024918749E-002 +9.4705752734E+001  +3.9228735287E+000 +5.9915099932E+001 
5640533.166 +4.5590721759E-001 +1.2201514965E+002  +5.7448921334E-002 +1.7269301672E+002  +1.9026829599E-002 +4.8478293340E+000  +3.8902117464E+000 +6.2468154064E+001 
5765678.348 +5.1481708937E-001 +1.1900793039E+002  +4.5236092709E-003 -1.2992662514E+002  +1.8613526162E-002 -1.7163088470E+002  +3.5960920286E+000 +8.5419809610E+001 
5890823.529 +5.3001598824E-001 +1.2567897341E+002  +1.0532959935E-002 +1.5959346067E+002  +2.5443686506E-002 +8.9268527237E+001  +1.9271356859E+000 +4.7942055783E+001 
6015968.711 +6.6209488958E-001 +1.2177810314E+002  +2.4258790377E-003 +2.7800260600E+001  +3.6785289453E-002 +4.7668666124E+001  +1.8042167317E+000 +5.2487693641E+001 
6141113.892 +7.6055698790E-001 +1.1825699327E+002  +2.5339798240E-002 +8.9467474578E+001  +2.7715540403E-002 +1.1872549786E+002  +1.9296334817E+000 +2.3493921793E+001 
6266259.074 +8.2826866150E-001 +9.9536090108E+001  +1.5870219207E-002 -1.0581929154E+002  +5.3711374760E-003 -1.5657989097E+002  +1.6994495518E+000 +1.0771325707E+001 
6391404.255 +9.5501194090E-001 +9.7727666131E+001  +2.4045949101E-002 +1.4938528594E+002  +1.5152735810E-002 -1.1955282749E+002  +1.7893468727E+000 +1.8712186766E+001 
6516549.437 +1.1504496211E+000 +9.0740459195E+001  +2.0292280556E-002 -1.3687135851E+002  +1.7981983615E-002 +1.5635717506E+001  +1.5139353491E+000 +5.7698387868E+000 
6641694.618 +1.1819946423E+000 +6.1833045985E+001  +4.4029603552E-003 +1.2748618385E+002  +2.2101761622E-002 -1.3911186488E+001  +1.2825943360E+000 +6.2346792357E+000 
6766839.800 +2.7935149833E+000 +4.0654926689E+001  +4.0479237540E-002 -1.7338846550E+002  +1.9523816865E-002 -1.6242050697E+001  +1.1156538975E+000 +3.0769586929E+000 
6891984.981 +1.5065518679E+000 +1.9774483941E+001  +1.7571125653E-003 +2.6588322566E+001  +1.6401853460E-002 +1.3377701668E+002  +1.3084713385E+000 -9.3674334017E+000 
7017130.163 +1.6654625744E+000 +2.0398680206E+001  +4.8480331924E-003 -9.7521970299E+001  +1.3367613303E-002 +1.3557499059E+002  +1.3152782608E+000 -1.1193694882E+001 
7142275.344 +1.4255249709E+000 +4.6633382203E+000  +5.5715636196E-003 +6.0103838666E+001  +1.1418611838E-002 -4.3574001446E+001  +1.4283680170E+000 -1.3679802827E+001 
7267420.526 +1.6009557346E+000 +6.2233719111E+000  +1.0246280226E-002 +1.0292372158E+002  +9.8978928624E-003 +1.1162570722E+002  +1.4390671888E+000 -1.2186255891E+001 
7392565.707 +1.2182828302E+000 -1.6625467593E+000  +1.2152299654E-002 +7.2058783341E+001  +5.2296545780E-003 -3.1256134486E+000  +1.3058370151E+000 -6.5099699500E+000 
7517710.889 +1.2781683826E+000 +4.7994104448E+000  +6.4437746390E-003 +1.2175547306E+002  +7.9152373207E-003 +2.6257298614E+001  +1.2131358339E+000 -4.7678295276E+000 
7642856.070 +1.0117566212E+000 -1.1176494700E+000  +4.5341836922E-003 +1.6103498490E+002  +2.0704074644E-003 +1.2196195279E+002  +1.0943335445E+000 -4.6784362535E+000 
7768001.252 +9.3389200515E-001 -1.0059669378E+000  +3.8475881691E-003 +6.0408702134E+001  +3.1850176480E-003 -1.6440040106E+002  +9.1606996050E-001 -5.4429285618E+000 
7893146.433 +8.0496143953E-001 +1.4326033849E+001  +3.2446197343E-003 +1.7514121264E+002  +6.9418910164E-003 +6.9052719622E+001  +9.3697160137E-001 +1.6771220233E+000 
8018291.615 +9.0908828874E-001 +1.4015269648E+001  +6.1552273330E-003 -6.9236566570E+000  +5.0882897084E-003 -8.1875094838E+001  +9.0054172320E-001 -4.8621616946E-001 
8143436.796 +8.4784983373E-001 +7.1925045600E+000  +8.7064859658E-003 +5.5433659414E+001  +3.1476700086E-003 +6.9639050108E+001  +7.9236211204E-001 -6.4500827689E+000 
8268581.977 +6.7951361286E-001 +7.6755428551E+000  +4.5617020991E-003 +1.0181557132E+002  +5.5801698795E-003 +1.6087429127E+002  +8.2895383072E-001 -2.4931505109E+000 
8393727.159 +6.9430680039E-001 +7.9691724974E+000  +2.9634534270E-003 +1.1105342754E+002  +4.2916685868E-003 +1.3958108862E+002  +7.8187101510E-001 +1.9026391105E+000 
8518872.340 +7.2627803276E-001 +7.7654350796E+000  +8.0671126193E-003 +1.1678044467E+002  +6.5871437230E-003 +9.0865909751E+001  +7.0085823288E-001 -2.5826972585E+000 
8644017.522 +6.2701470838E-001 +4.4736058860E+000  +7.2371876598E-003 +1.0378445245E+002  +9.4984895953E-005 +1.3273363772E+002  +6.6206844123E-001 -6.0758038390E-002 
8769162.703 +6.0085520827E-001 +4.6925160413E+000  +4.6392793582E-003 +8.4715295385E+001  +4.7977576486E-003 +2.5600337219E+001  +7.3421127275E-001 -4.2707142578E+000 
8894307.885 +5.5810798601E-001 +9.3518411617E-001  +4.6147729807E-003 +5.9274376345E+001  +1.9875674762E-003 +7.3872997164E+001  +6.3214983892E-001 +4.5852981863E+000 
9019453.066 +5.9642320747E-001 -3.7382615291E-001  +2.7392708778E-003 +9.9381144224E+001  +6.0992081189E-003 +8.0162597569E+001  +6.2142113926E-001 +5.2740013881E-001 
9144598.248 +5.7872617106E-001 +3.9447448764E+000  +2.5910264071E-003 -1.7542612577E+000  +3.1348685973E-003 +9.7761670376E+001  +5.9770489352E-001 -5.0883918155E+000 
9269743.429 +5.8206475309E-001 +7.1942765995E+000  +2.5371961129E-003 +8.6720081234E+001  +2.9599674811E-003 +1.0436026538E+002  +6.1952436379E-001 -2.7196520236E+000 
9394888.611 +5.7588637174E-001 +5.1040500032E+000  +6.5869689873E-003 +8.9259868517E+001  +4.6938914356E-003 +1.0667227589E+002  +6.6147996160E-001 -2.1050448043E+000 
9520033.792 +5.2067341578E-001 +3.3094872934E+000  +5.0450130589E-003 +9.1284630658E+001  +3.0233357480E-003 +8.9385355292E+001  +6.0349550940E-001 -4.0625555341E-001 
9645178.974 +5.3060474608E-001 +5.7139009528E+000  +2.1892135104E-003 +6.5225029563E+001  +5.4876216801E-003 +7.9389033811E+001  +5.5814366758E-001 -5.6229511108E+000 
9770324.155 +5.2740373308E-001 +3.5904088903E+000  +2.3863367366E-003 +3.6219796598E+001  +2.6724246337E-003 +7.1385052806E+001  +5.8454785852E-001 -7.7939263103E+000 
9895469.337 +5.0715826250E-001 +1.5643948220E-001  +3.2653835100E-003 +9.8682952383E+001  +3.9114094947E-003 +8.5298582580E+001  +5.5304951213E-001 -6.8769432910E+000 
10020614.518 +5.8728285123E-001 +6.8038101327E+000  +4.7788938878E-003 +7.1981522131E+001  +3.8995320049E-003 +8.1127330248E+001  +5.3394237714E-001 -5.4855289093E+000 
10145759.700 +5.4210675104E-001 +4.2668298265E+000  +5.1446035310E-003 +7.3272285212E+001  +3.6931865200E-003 +5.2452479129E+001  +6.1022740877E-001 -2.5894706629E+000 
10270904.881 +5.6899931418E-001 +5.3614638891E+000  +4.3491864618E-003 +1.6422520479E+002  +5.7135656591E-003 +9.9241367655E+001  +5.9309270661E-001 -1.4319555862E+000 
10396050.063 +5.7713476894E-001 +3.3405570949E+000  +1.1058561648E-003 +1.2398426326E+002  +3.2088154712E-003 +5.7105684386E+001  +5.5063068837E-001 -1.4049015814E+000 
10521195.244 +5.7256644843E-001 +3.7958333196E+000  +4.0650965577E-003 +9.2562067909E+001  +1.8948517746E-003 -1.6107978727E+002  +5.8296901427E-001 +9.0870950156E-001 
10646340.426 +5.3995913846E-001 +4.4065859162E+000  +3.3184381551E-003 +6.8782101890E+001  +5.3485907266E-003 +7.0087607101E+001  +5.9931900819E-001 -6.7678475932E-001 
10771485.607 +5.9129833613E-001 +5.5608652164E+000  +4.7722391869E-003 +7.0058648499E+001  +2.8611497967E-003 +1.3792594454E+002  +6.2097013946E-001 +5.9996084415E-001 
10896630.788 +5.8354571723E-001 +6.6808786413E+000  +4.7331058221E-003 +9.2585664352E+001  +5.7063295333E-003 +8.5761533186E+001  +6.0516117557E-001 -4.6596802993E-001 
11021775.970 +5.9183772263E-001 +4.5191046336E+000  +3.7371016370E-003 +5.7419150388E+001  +6.2778166994E-003 +1.0167820175E+002  +6.2814335552E-001 +9.3485433741E-001 
11146921.151 +5.7748579740E-001 +6.9824398850E+000  +5.6321928353E-003 +7.5797369320E+001  +1.3964963597E-003 +5.2352063525E+001  +5.9526174486E-001 +1.0064965688E+000 
11272066.333 +5.8459849163E-001 +5.7683216721E+000  +4.7221320759E-003 +9.9323575738E+001  +6.2260425518E-003 +9.3746701556E+001  +6.4822336481E-001 -1.1930002283E+000 
11397211.514 +6.2657015313E-001 +5.3257462357E+000  +5.1468831060E-003 +7.8024881443E+001  +4.5432507913E-003 +1.2091599982E+002  +6.3580886217E-001 +1.4171257892E+000 
11522356.696 +5.8397694270E-001 +3.2709434073E+000  +4.2308603276E-003 +9.9456628001E+001  +5.4301655725E-003 +1.1586262724E+002  +6.4132382399E-001 +2.5514214662E+000 
11647501.877 +6.1893160707E-001 +6.4775761753E+000  +5.9667687257E-003 +8.3217108537E+001  +4.5050485211E-003 +8.6484888658E+001  +6.3547307914E-001 -1.0984119888E+000 
11772647.059 +6.4590933179E-001 +7.0760887246E+000  +5.4100878617E-003 +6.3924931212E+001  +6.6486710646E-003 +9.5245415735E+001  +6.4852130598E-001 -1.1262689508E+000 
11897792.240 +6.4960569559E-001 +4.9304947109E+000  +6.9290306173E-003 +8.3284725245E+001  +5.5808220651E-003 +7.8715328486E+001  +7.0188535254E-001 +2.3636936796E+000 
12022937.422 +6.6133512423E-001 +3.8045727614E+000  +5.6973682777E-003 +7.8497302153E+001  +4.9927380079E-003 +1.0603839968E+002  +6.9097268562E-001 -1.5963871302E-001 
12148082.603 +6.6621427556E-001 +6.7309326043E+000  +5.7284615456E-003 +1.0256067263E+002  +3.7006295115E-003 +9.5435059421E+001  +6.7650147302E-001 -4.0698942920E-001 
12273227.785 +6.9532269169E-001 +4.4819917173E+000  +4.9131356832E-003 +1.0364708914E+002  +5.4321288482E-003 +1.0630187607E+002  +7.0597781069E-001 -2.3452247421E-001 
12398372.966 +7.2138120383E-001 +3.1586182679E+000  +5.2188082034E-003 +8.4979914844E+001  +6.3510995318E-003 +9.2387001044E+001  +7.3497390242E-001 -1.5689650225E+000 
12523518.148 +7.0634427601E-001 +2.8915055944E+000  +5.2643434887E-003 +7.6742005715E+001  +4.8357634805E-003 +9.1563047594E+001  +7.3434072861E-001 +1.3028499987E+000 
12648663.329 +7.2895193092E-001 +1.3705992234E+000  +5.4781090050E-003 +8.3775624662E+001  +5.2433889218E-003 +9.9401753059E+001  +7.5028552730E-001 -1.8944779269E+000 
12773808.511 +7.5300262197E-001 -1.0305930575E+000  +5.6805922846E-003 +1.0619768582E+002  +6.8063027649E-003 +8.2724949933E+001  +7.6875287899E-001 -9.8221341552E-001 
12898953.692 +7.5010861612E-001 +5.9399056724E-001  +5.2482031061E-003 +7.7524918137E+001  +7.9783465001E-003 +9.9266557890E+001  +7.7656233711E-001 -7.9243511709E-001 
13024098.874 +7.6961772650E-001 +1.0631633211E+000  +7.0357667731E-003 +9.3732690700E+001  +4.9624144194E-003 +9.1638798166E+001  +7.8323255431E-001 -1.1291657897E+000 
13149244.055 +8.0298942898E-001 +7.3536097739E-002  +3.9651562549E-003 +9.3199175079E+001  +5.6959657841E-003 +8.5539141093E+001  +8.1374702267E-001 -2.2075961072E+000 
13274389.237 +8.2142793595E-001 -1.4901862053E+000  +7.1724446632E-003 +8.5791460095E+001  +5.7314221256E-003 +8.1743865526E+001  +8.5121157408E-001 -2.5845818457E+000 
13399534.418 +8.4126027420E-001 -1.0680914861E+000  +5.2991320757E-003 +6.5571953140E+001  +5.2387149460E-003 +8.2984326046E+001  +8.4924803705E-001 -2.5672078806E+000 
13524679.599 +8.3266393228E-001 -1.7441750832E-002  +6.7003025912E-003 +7.8332589192E+001  +6.2275523202E-003 +8.1984464867E+001  +8.4597070262E-001 -4.1302177066E+000 
13649824.781 +8.7271856064E-001 -2.4847077866E+000  +6.2816246642E-003 +8.8047081425E+001  +6.7811700757E-003 +9.7471371581E+001  +8.7721922157E-001 -2.8734666204E+000 
13774969.962 +8.8376829235E-001 -2.1173822937E+000  +7.9121383580E-003 +9.5492947982E+001  +8.8114389741E-003 +8.2495380942E+001  +8.8742185831E-001 -4.6068871253E+000 
13900115.144 +9.0985292556E-001 -3.2027314050E+000  +6.3402254080E-003 +6.8144995473E+001  +6.9204095602E-003 +8.7573325906E+001  +9.0903533900E-001 -3.8315707374E+000 
14025260.325 +9.2577936800E-001 -3.7194876203E+000  +6.9692671382E-003 +8.2959591950E+001  +7.6290359424E-003 +9.1118374388E+001  +9.2691398902E-001 -4.2842525112E+000 
14150405.507 +9.3553639282E-001 -4.6181434712E+000  +8.4864071453E-003 +8.2389431807E+001  +6.2086937824E-003 +8.8145909843E+001  +9.3882111941E-001 -3.7879639041E+000 
14275550.688 +9.5749385587E-001 -4.5883725179E+000  +8.0395655282E-003 +8.1707084151E+001  +6.2336089880E-003 +9.2484775734E+001  +9.7142709678E-001 -4.5390562206E+000 
14400695.870 +9.7878503213E-001 -6.0862154522E+000  +7.2396021217E-003 +7.5626210538E+001  +5.9294946260E-003 +9.0593330596E+001  +9.8886933934E-001 -4.8787367951E+000 
