!  2-Port S-parameters saved by WinCal
! VAR MeasName=S-Parameters (CALIBRATED_DATA) read from VNA (P5004A)
! VAR MeasDate=27/08/2024 12:19:26
! VAR NAME=S2_r1c9_pristine_9k-100M_2
! VAR FILENAME=S2_r1c9_pristine_9k-100M_2.S2P
! VAR DATE=27/08/2024 12:19:26
! VAR PHYS_PORTS=1,2
! VAR ObjTypeName=DATASET
! VAR IndexType=Frequency
!
# Hz S MA R 50
9000.000 +9.0157969585E-002 -1.5167783153E+002  +2.5495811464E-002 +1.6882795337E+002  +3.2808770771E-002 -1.2964546627E+002  +3.3708546970E-001 -1.1193928625E+002 
134145.181 +1.1069862101E-001 +1.6969051784E+002  +3.1994825062E-004 +1.5736516898E+002  +4.6966282548E-004 +1.7352855080E+002  +2.4076914812E-001 -1.7008074824E+002 
259290.363 +1.1197544809E-001 +1.6965050226E+002  +3.2356316903E-004 -7.4508680624E+000  +2.4800074561E-004 -7.3550198004E+001  +2.3935840469E-001 -1.6960980511E+002 
384435.544 +1.1243335845E-001 +1.6995813759E+002  +2.6058931759E-004 +4.5193490663E+001  +3.1211291054E-004 +1.3719263561E+002  +2.4415108205E-001 -1.6993571646E+002 
509580.726 +1.1364427455E-001 +1.7109759071E+002  +3.3643356219E-004 -5.0062950813E+000  +3.3541092499E-003 +1.4064713687E+002  +2.5478403575E-001 -1.6230729164E+002 
634725.907 +1.1600886649E-001 +1.7112638722E+002  +1.3934487568E-003 +4.2969016647E+001  +1.4982344571E-003 -1.4113001374E+002  +2.4121747530E-001 -1.6450515723E+002 
759871.089 +1.1769303733E-001 +1.7082061790E+002  +6.5115286313E-004 -1.6812907052E+002  +5.9146950177E-004 -6.4314321771E+001  +2.4534266777E-001 -1.6574636893E+002 
885016.270 +1.1309659765E-001 +1.6905562756E+002  +3.9388846885E-004 -1.3763171378E+002  +6.2140701334E-004 -1.4759080427E+002  +2.5248619928E-001 -1.6488660834E+002 
1010161.452 +1.1477387151E-001 +1.7261395774E+002  +1.4372469266E-003 +5.1751284875E+001  +2.6560047691E-003 -1.1249413140E+002  +1.1640743866E-001 -1.5785620232E+002 
1135306.633 +1.1790838556E-001 +1.7114832056E+002  +8.5752668044E-004 -1.2086727219E+002  +8.6859035441E-004 +2.5103592384E+001  +2.0695510429E-001 -1.6641640154E+002 
1260451.815 +1.2020822048E-001 +1.7217509713E+002  +2.0426757871E-003 +8.1649524364E+001  +2.2263311875E-003 -5.8781164150E+001  +2.2459668044E-001 -1.5861194427E+002 
1385596.996 +1.2514484786E-001 +1.7144093087E+002  +7.4141589775E-004 +1.2216373106E+001  +4.2787431580E-004 +1.3078524804E+002  +2.7220509754E-001 -1.5791923405E+002 
1510742.178 +1.2868926166E-001 +1.7203007157E+002  +1.3741456246E-003 +1.1251801298E+002  +5.5098479421E-004 +1.3873352160E+001  +2.5619246036E-001 -1.5989229645E+002 
1635887.359 +1.2873020860E-001 +1.7072287050E+002  +1.0468117227E-003 +4.8156859503E+001  +1.3368718133E-003 +1.6658241379E+002  +2.2713787941E-001 -1.5456507219E+002 
1761032.541 +1.2801965585E-001 +1.6948671166E+002  +1.1357072282E-003 +4.6487804205E+001  +1.4066065473E-003 -1.3345181594E+002  +2.1930469365E-001 -1.6287407013E+002 
1886177.722 +1.3160942196E-001 +1.6881558429E+002  +1.1798187632E-003 +1.5962280821E+001  +9.2302198104E-004 -1.2058587866E+002  +2.1032177816E-001 -1.6648376700E+002 
2011322.904 +1.3056762581E-001 +1.6723009267E+002  +1.4540113661E-003 +1.5349936104E+002  +9.4209699161E-004 -7.6138479470E+001  +2.0880026771E-001 -1.7758602295E+002 
2136468.085 +1.3203620948E-001 +1.6395975452E+002  +1.7084246197E-003 -1.7658464557E+002  +3.1478765170E-003 +1.7536394219E+002  +1.5491030413E-001 -1.6764162387E+002 
2261613.267 +1.2388377578E-001 +1.6446494080E+002  +3.6654915598E-003 +1.3137797296E+002  +2.1680311889E-003 -2.8212316059E+001  +2.2216330010E-001 +1.7947298655E+002 
2386758.448 +1.3021203664E-001 +1.6646298409E+002  +3.4209963391E-003 +6.6004199793E+001  +7.9360957323E-003 -1.5575789420E+001  +2.1853460938E-001 +1.2715860290E+002 
2511903.630 +1.3365452528E-001 +1.6577207563E+002  +9.3722779984E-004 +8.7188436116E+001  +4.6104441648E-003 -1.6318314873E+002  +2.8481482740E-001 +1.5400520124E+002 
2637048.811 +1.1644539315E-001 +1.6751180182E+002  +1.4351226341E-002 +1.7322032073E+002  +4.4179566154E-003 -5.7782688980E+001  +3.3671224944E-001 +1.1255552499E+002 
2762193.992 +1.0698346879E-001 +7.4032070561E+001  +5.8551342229E-002 +1.4252771782E+002  +9.0971963432E-002 -1.6913294920E+002  +4.6520715648E-001 -4.7888130648E+001 
2887339.174 +1.2618078751E-001 -1.7853966159E+002  +1.2343014885E-002 +3.2218077827E+001  +2.3832670541E-002 -5.3473472464E+001  +8.4114515515E-001 -1.2583752276E+002 
3012484.355 +1.1740270970E-001 +1.7998002741E+002  +1.0350990807E-002 -5.8083848437E+001  +3.6443519765E-003 -1.0418536572E+002  +3.7569982829E-001 -1.1538152417E+002 
3137629.537 +1.2127391428E-001 +1.6964376442E+002  +2.3791209721E-002 +7.4884544803E+001  +1.0213230434E-002 +4.6117732186E+001  +5.2717045073E-001 -2.3408060141E+001 
3262774.718 +8.2494020115E-002 +1.7590283144E+002  +4.1308987620E-002 -1.7456278373E+001  +1.8056404339E-002 -1.7036453759E+002  +3.6298684510E-001 +1.1477515030E+001 
3387919.900 +1.4078531331E-001 +1.5364890834E+002  +1.6414895796E-002 +1.2630013229E+001  +2.0791579700E-002 +3.4274656113E+000  +1.1353790492E+000 +5.7300881089E+001 
3513065.081 +1.2162842220E-001 +1.5778506129E+002  +5.1253560028E-003 -1.6422004688E+002  +8.1555069558E-003 +1.7534438163E+002  +3.6630065894E-001 +1.0514956518E+002 
3638210.263 +1.6512584715E-001 +1.5430252620E+002  +7.0074108029E-003 +1.9831697352E+001  +1.2040661460E-002 +8.0641166181E+001  +4.6012917925E-001 +1.0313184888E+002 
3763355.444 +1.5368719351E-001 +1.3656663277E+002  +1.0294963905E-002 +1.6274379975E+002  +5.1239533753E-003 +1.1447959284E+002  +1.7470162459E-001 +6.4087089578E+001 
3888500.626 +1.8076464130E-001 +1.5827028991E+002  +3.4107565514E-002 +1.3120062922E+001  +2.2324847983E-002 +1.7697818475E+002  +5.7722158986E+000 +1.2073487614E+002 
4013645.807 +1.9775827332E-001 +1.4342220590E+002  +8.6644046961E-003 +1.0675570288E+002  +3.8194058965E-003 -1.5823374261E+002  +3.2430426308E-001 +1.5511214958E+002 
4138790.989 +1.6847295163E-001 +1.4319475836E+002  +8.2867175643E-003 -1.0562424512E+002  +1.9616001760E-003 -1.0047223846E+002  +2.8274909102E-001 +9.7453934311E+001 
4263936.170 +2.1285677077E-001 +1.3200402087E+002  +6.4187140764E-003 -1.7850539924E+002  +1.6331791686E-002 +1.9517597560E+001  +4.9287839817E-001 +1.1482147531E+002 
4389081.352 +1.9182965381E-001 +1.4449805467E+002  +2.0448499205E-002 +1.1340564862E+002  +1.4686485226E-002 -1.7559423400E+002  +1.1580153926E+000 +1.0656147242E+002 
4514226.533 +1.7891405015E-001 +1.0575369575E+002  +1.3557823103E-002 -1.5980690129E+002  +1.0296150744E-002 -1.3182005618E+001  +6.4135489748E-001 +1.0953437103E+002 
4639371.715 +2.7766614524E-001 +1.2128178881E+002  +2.2189080929E-002 +9.8006867646E+001  +2.2750501405E-002 -7.5660474022E+001  +1.1998231741E+000 +1.2459035988E+002 
4764516.896 +3.2558958916E-001 +1.2830502802E+002  +2.6548893231E-002 +1.6472235245E+002  +1.1930581022E-002 -5.4207726214E+001  +1.8589771534E+000 +6.5617535800E+001 
4889662.078 +4.5197795936E-001 +1.3865781670E+002  +4.7987496440E-002 -8.9777088663E+001  +1.2152579735E-002 -1.5220726832E+002  +2.8499781105E+000 -6.3895888380E+001 
5014807.259 +3.4873428660E-001 +1.2537009102E+002  +9.4384812790E-003 +1.7738553935E+002  +3.8329800848E-002 +1.3755268113E+001  +1.8366459710E+000 -2.9375755031E+001 
5139952.441 +3.6114483857E-001 +1.3036324595E+002  +3.9050320004E-002 +1.1846199195E+002  +3.8341296474E-002 +1.2664118073E+002  +3.0735233108E+000 +2.8924463310E+001 
5265097.622 +3.4140592243E-001 +1.3490867418E+002  +1.9547374156E-002 -7.6538713020E+001  +3.1910415732E-002 -3.7182508452E+001  +2.1494856284E+000 +6.6636806656E+001 
5390242.804 +4.4798600779E-001 +1.3679886858E+002  +1.2867916581E-002 -8.4381584491E+001  +1.3779194500E-002 +8.5592534266E+001  +2.1177704871E+000 +9.8837318549E+001 
5515387.985 +5.0889699994E-001 +1.3798722907E+002  +2.0073419959E-002 +1.3505131744E+002  +1.4896323727E-002 +1.2455982304E+002  +2.0637714120E+000 +1.0088223079E+002 
5640533.166 +4.6713355618E-001 +1.2147596047E+002  +1.9611115283E-003 +5.2725146882E+001  +1.3432030116E-002 +7.6853055014E+001  +1.2064648479E+000 +8.7999756267E+001 
5765678.348 +5.2227852766E-001 +1.1561944677E+002  +2.9236167320E-002 -1.3333733041E+002  +3.2427493451E-002 +1.3883510438E+002  +2.6990515911E+000 +8.5449699100E+001 
5890823.529 +6.2070836181E-001 +1.1583074000E+002  +2.9804808701E-003 -5.6556263997E+001  +3.0537890066E-002 -8.8036731246E+001  +1.5660790192E+000 +7.2751280035E+001 
6015968.711 +7.0852125043E-001 +1.2813213843E+002  +1.6046605781E-002 -1.0272638451E+002  +2.1551400005E-002 -1.0192990614E+002  +1.9074339173E+000 +4.4679623559E+001 
6141113.892 +8.2201446614E-001 +1.0952708303E+002  +2.6944839975E-002 -1.2680049979E+002  +2.7492774634E-002 +1.3731652445E+002  +1.4938811427E+000 +1.7707332858E+001 
6266259.074 +7.9627653100E-001 +1.0968837572E+002  +2.2097003649E-002 -1.6509243405E+002  +3.1166329216E-003 +1.7804425214E+002  +1.7806992259E+000 +4.0530695108E+001 
6391404.255 +1.0485201623E+000 +1.0535310908E+002  +2.4708329001E-002 +1.5060415544E+002  +2.6962814925E-002 +1.2489586517E+002  +1.5152731128E+000 +2.1034296467E+001 
6516549.437 +1.5715966498E+000 +9.5068249342E+001  +2.3740709731E-002 +1.1759372978E+002  +2.6671634005E-002 +1.4987816680E+002  +1.4119047776E+000 +1.8026847516E+001 
6641694.618 +1.4108079804E+000 +7.1224528070E+001  +4.4065888695E-003 -1.6328793925E+001  +1.4957162131E-002 +1.2616189078E+002  +1.5196269087E+000 -1.3170246975E+001 
6766839.800 +1.7409886450E+000 +6.6115385584E+001  +1.0597196184E-002 -4.0768925709E+001  +1.4888143285E-002 -7.8259391840E+001  +1.4502645905E+000 -8.2110156169E+000 
6891984.981 +2.1458549418E+000 +3.6678789939E+001  +3.5871577643E-002 -1.3245006780E+002  +1.1240416953E-002 +6.2112606516E+001  +1.1980378274E+000 -6.4042489395E+000 
7017130.163 +1.8017226509E+000 +2.3612410212E+001  +1.5786899191E-002 +4.6748309980E+001  +8.5684067426E-003 +8.3262053535E+001  +1.2371443677E+000 -1.3871891615E+001 
7142275.344 +1.4702573447E+000 +9.2421168371E+000  +7.4507012360E-003 +2.5462921990E+001  +7.0814812820E-003 +8.9625264728E+001  +1.3219296517E+000 -9.4362271126E+000 
7267420.526 +1.4538072710E+000 +6.0668911893E+000  +5.7727367023E-003 +8.3352687420E+001  +1.0254355844E-002 +1.5018804234E+002  +1.3098008113E+000 -1.7081004708E+001 
7392565.707 +1.2404029543E+000 +2.7559975948E+000  +6.9867414991E-003 -1.5447329428E+002  +1.9655270572E-002 +9.7212883771E+001  +1.3345810545E+000 -6.0718582713E+000 
7517710.889 +1.1242267111E+000 -2.3960589876E+000  +1.7929619163E-003 +1.1923864101E+002  +7.3263946154E-003 +1.1620038309E+002  +1.2154364313E+000 -3.7966863603E+000 
7642856.070 +1.2329321045E+000 +5.8556175083E+000  +1.7168703994E-002 +7.2145416621E+001  +9.2303102585E-003 +8.6059317622E+001  +1.1693019700E+000 +2.9256644588E+000 
7768001.252 +9.8445918201E-001 +2.4751676024E+000  +4.7128558195E-003 +7.5692534207E+001  +1.0574921567E-002 -5.3417165313E+000  +1.0352580744E+000 +1.8987329436E+000 
7893146.433 +8.0883385820E-001 +2.0146916742E+000  +9.0850577321E-003 +8.0067705989E+001  +7.4815041936E-003 +8.7796321260E+001  +1.0209977163E+000 -5.5174357732E+000 
8018291.615 +7.8508674264E-001 +6.0811692505E+000  +6.0588937864E-003 +1.3125482122E+002  +2.3115607315E-003 +1.5518179834E+002  +8.5806666125E-001 -5.3583473691E+000 
8143436.796 +7.6381222824E-001 -1.0394449583E+000  +5.3159771066E-003 +5.1599086462E+001  +4.6545138884E-003 -1.6366893291E+002  +7.7807993846E-001 -3.6008440129E+000 
8268581.977 +7.5293064814E-001 +6.1313593309E+000  +7.0469155382E-003 +1.2467130837E+002  +3.8588543262E-003 +1.3294951727E+002  +8.0093782758E-001 -8.4343829169E-001 
8393727.159 +6.7783350557E-001 +5.7682419671E+000  +8.3819532827E-004 +6.5903793321E+001  +7.5397056123E-003 +8.9658551710E+001  +7.3147373498E-001 -3.6353444622E+000 
8518872.340 +6.4207581718E-001 +6.8645790503E+000  +3.9623445754E-003 +1.1229003273E+002  +1.9543153661E-003 +1.3429681206E+002  +6.5622364530E-001 -5.9022370615E-002 
8644017.522 +6.4285169024E-001 +4.1993904517E+000  +4.2155785322E-003 +1.5023865219E+002  +3.1485803826E-003 +7.9359799226E+001  +6.5921723918E-001 -1.3888320697E+000 
8769162.703 +5.8846451220E-001 -5.8971978633E-002  +6.3639383039E-003 +9.3533133300E+001  +2.1250238260E-003 -6.7711324673E+000  +7.5400297657E-001 -2.2808291275E+000 
8894307.885 +5.7797280241E-001 +7.9357711917E+000  +4.0144705955E-003 +6.1946804046E+001  +4.7967578387E-003 +5.2176987899E+001  +6.8566064577E-001 -2.9014676601E+000 
9019453.066 +6.3984540255E-001 +7.6258605962E+000  +8.7605462524E-003 +8.3224349759E+001  +4.6597263812E-003 +4.5369545100E+001  +5.6373275080E-001 +2.1256607209E+000 
9144598.248 +6.0899728002E-001 +7.7222233645E+000  +4.5410054272E-003 +9.9827459479E+001  +4.5362091773E-003 +1.1675715177E+002  +6.0232348860E-001 +4.3261732439E+000 
9269743.429 +5.8944748666E-001 +1.1776272187E+001  +5.4507016912E-003 +8.5523253053E+001  +3.5000677172E-003 +3.4507013064E+001  +6.0550401557E-001 -2.3928208482E+000 
9394888.611 +5.8062861616E-001 +4.2282656068E+000  +4.8925592248E-003 +6.4429616446E+001  +6.6041059458E-003 +1.5095460075E+002  +5.7921208077E-001 -6.2504474491E+000 
9520033.792 +5.8435227718E-001 +1.2896461556E+000  +4.0699448343E-003 +1.0208649372E+002  +4.0221867078E-003 +1.1052378896E+002  +6.2453073801E-001 +2.7413944940E+000 
9645178.974 +6.0342628278E-001 +2.0998255263E+000  +4.3374550037E-003 +6.6514931957E+001  +3.5521489169E-003 +1.0738889791E+002  +6.1149699616E-001 -6.3858180076E-001 
9770324.155 +5.2894063576E-001 +2.3384889134E+000  +2.6519979652E-003 +1.0151729579E+002  +1.9307473992E-003 +7.7008148805E+001  +6.0219888416E-001 -5.9143348680E+000 
9895469.337 +5.9536814729E-001 -9.7223338787E-001  +3.6705689803E-003 +1.3915064919E+002  +4.9421580252E-003 +1.1312218165E+002  +5.7763314762E-001 -5.7698299193E+000 
10020614.518 +5.5834544150E-001 +2.1112892126E+000  +3.0975047320E-003 +6.1618564025E+001  +6.4756695651E-003 +9.5307330851E+001  +6.0731061354E-001 -6.1059641982E+000 
10145759.700 +5.1335748054E-001 +1.3408509549E+000  +4.1421894501E-003 +1.0261466263E+002  +6.4917424723E-003 +1.0246273809E+002  +5.5510980051E-001 -3.6647272760E+000 
10270904.881 +5.6732832544E-001 +2.9404639307E+000  +4.5774187935E-003 +9.5753773655E+001  +2.5115592201E-003 +1.0397740722E+002  +5.9815748562E-001 -3.3372587469E+000 
10396050.063 +5.4975335897E-001 +3.8809735089E+000  +6.1045028971E-003 +9.0234877460E+001  +4.5023900474E-003 +1.4030588804E+002  +5.9386493290E-001 -3.0977144705E+000 
10521195.244 +5.4512509742E-001 +5.7221176898E+000  +4.8140600952E-003 +1.1422526960E+002  +2.7318729773E-003 +1.2049235807E+002  +6.0734622100E-001 -1.8223799350E+000 
10646340.426 +5.6569243780E-001 +7.2776091867E+000  +3.6775607823E-003 +8.8093834091E+001  +5.4110941409E-003 +9.5545745891E+001  +6.0997221782E-001 +1.3021230094E+000 
10771485.607 +6.0218178672E-001 +1.4533191313E+000  +3.8079845256E-003 +1.0761883424E+002  +3.0667797456E-003 +8.1583790095E+001  +6.1707287413E-001 -3.2484611864E+000 
10896630.788 +5.5068840019E-001 +8.1665679458E+000  +3.2701120395E-003 +1.1040232045E+002  +7.4660256846E-003 +1.1731330838E+002  +5.7655335336E-001 +2.4584589954E+000 
11021775.970 +5.9137018977E-001 +6.0596008855E+000  +5.4407358403E-003 +8.5445471148E+001  +5.4808477215E-003 +1.3109727767E+002  +6.2843047796E-001 -1.4306958642E-001 
11146921.151 +5.6821622961E-001 +8.3832649106E+000  +5.0533320609E-003 +1.0024297894E+002  +3.8659581431E-003 +9.1905517197E+001  +6.3154153430E-001 -1.6218715616E+000 
11272066.333 +6.0737670332E-001 +6.0759455801E+000  +4.9194113641E-003 +9.2057442729E+001  +5.6175823782E-003 +9.2448107899E+001  +6.3583233236E-001 +2.4607056976E-001 
11397211.514 +5.9457037832E-001 +5.4237034764E+000  +4.5464957131E-003 +1.0237374845E+002  +5.9492823005E-003 +9.9450295839E+001  +6.2100279790E-001 +8.6891524415E-001 
11522356.696 +6.1295260985E-001 +3.3777903212E+000  +5.0663841502E-003 +8.3765488032E+001  +6.4691014402E-003 +7.8122699287E+001  +6.6584935446E-001 +7.7177853211E-001 
11647501.877 +6.6178988627E-001 +6.7442462143E+000  +4.8007330805E-003 +9.9488789096E+001  +4.0725270226E-003 +9.8533503891E+001  +6.4859175338E-001 +1.4678959031E+000 
11772647.059 +6.4492914537E-001 +5.7567276489E+000  +3.7579580621E-003 +8.7626065808E+001  +4.6417094695E-003 +1.0142911211E+002  +6.7065372437E-001 +2.1508952517E+000 
11897792.240 +6.5869672667E-001 +5.8460673491E+000  +1.6251155471E-003 +1.0243164592E+002  +5.7716588444E-003 +8.3583176897E+001  +6.9537808448E-001 +1.4019590975E+000 
12022937.422 +6.7103749543E-001 +6.4949201191E+000  +5.4963868233E-003 +1.0469655621E+002  +5.5437799024E-003 +9.9730742319E+001  +6.9309711918E-001 +7.5431994533E-002 
12148082.603 +6.7088779789E-001 +4.5274996372E+000  +5.2482205498E-003 +8.1218023491E+001  +4.5738914749E-003 +9.0783411583E+001  +6.9594586824E-001 +1.1658690083E+000 
12273227.785 +6.7352839233E-001 +4.4196923691E+000  +5.0540627377E-003 +9.9384563811E+001  +5.7554348272E-003 +9.6104441712E+001  +7.1760117950E-001 -1.2909852625E+000 
12398372.966 +7.3285616133E-001 +1.7882614893E+000  +5.3430788367E-003 +9.9204923823E+001  +6.9492820455E-003 +9.6576918974E+001  +7.3768756215E-001 -6.6817343989E-001 
12523518.148 +7.4959691286E-001 +4.0457477459E+000  +5.3803217378E-003 +9.1745608582E+001  +5.0929152214E-003 +9.6667857903E+001  +7.4032657275E-001 +2.4850076824E-001 
12648663.329 +7.5826756033E-001 +3.7565144670E+000  +4.8255746493E-003 +6.7991066481E+001  +5.9890996249E-003 +8.3413525963E+001  +7.7023822021E-001 -1.6173294661E+000 
12773808.511 +7.7861981871E-001 +5.0920294196E-001  +7.1650824585E-003 +9.1797142059E+001  +6.0978053190E-003 +1.0890867510E+002  +7.7063543990E-001 -1.2413267475E+000 
12898953.692 +7.7904117826E-001 +1.6397409494E+000  +8.0208022787E-003 +8.8024646309E+001  +5.1088565586E-003 +9.8583468122E+001  +7.7468456830E-001 -2.2052099690E+000 
13024098.874 +7.8880202325E-001 +8.2861689674E-001  +5.3632409669E-003 +9.3060041688E+001  +5.8742865596E-003 +1.0277295334E+002  +7.9322697268E-001 -2.9371441259E+000 
13149244.055 +7.8888170656E-001 +1.6182486312E-001  +6.5811627443E-003 +8.2901964261E+001  +5.7619087213E-003 +1.0736268505E+002  +8.2207897441E-001 -2.8437549026E+000 
13274389.237 +8.3966136101E-001 +5.9829306179E-001  +5.8426609782E-003 +1.0649894436E+002  +6.2131400371E-003 +8.6972553169E+001  +8.2643996390E-001 -2.2738813813E+000 
13399534.418 +8.5886426815E-001 -8.2018632093E-001  +4.8934512735E-003 +1.0749784649E+002  +6.7385959503E-003 +9.1203186890E+001  +8.4426148633E-001 -2.5729384456E+000 
13524679.599 +8.4244879858E-001 -9.7143904029E-001  +7.2951066855E-003 +8.3268479623E+001  +6.3173312790E-003 +9.6088706257E+001  +8.6943220764E-001 -2.5183645804E+000 
13649824.781 +8.7685032598E-001 -2.5844356847E+000  +8.3556436998E-003 +9.1398936196E+001  +5.3567635327E-003 +8.8555815296E+001  +8.8175194485E-001 -2.5778885935E+000 
13774969.962 +8.7911089265E-001 -1.9969501148E+000  +8.6115198482E-003 +9.9283488830E+001  +5.3445407398E-003 +9.1003937977E+001  +8.8559512175E-001 -3.0516148706E+000 
13900115.144 +9.1353153876E-001 -3.7880859887E+000  +8.3604286776E-003 +9.5246791489E+001  +7.2780486976E-003 +8.5752406658E+001  +9.0624102031E-001 -2.6798277192E+000 
14025260.325 +9.1511747427E-001 -2.4467098263E+000  +8.2593031887E-003 +1.0087566907E+002  +6.7842987196E-003 +1.0282325534E+002  +9.5768881399E-001 -3.4928221333E+000 
14150405.507 +9.4073998011E-001 -3.6082987295E+000  +6.9001720141E-003 +9.3268182138E+001  +7.4409841402E-003 +9.4337895133E+001  +9.4186689702E-001 -4.6144232726E+000 
14275550.688 +9.6068259393E-001 -5.4595446564E+000  +8.3724382318E-003 +9.2103035957E+001  +7.8779398936E-003 +9.5348782956E+001  +9.8482923020E-001 -4.0819938399E+000 
14400695.870 +9.7919627646E-001 -5.0087249098E+000  +9.2742189245E-003 +8.9842248383E+001  +7.0002635777E-003 +8.9777291060E+001  +1.0034288646E+000 -4.8867457835E+000 
