!  2-Port S-parameters saved by WinCal
! VAR MeasName=S-Parameters (CALIBRATED_DATA) read from VNA (P5004A)
! VAR MeasDate=27/08/2024 12:46:45
! VAR NAME=S2_r7c9_pristine_9k-100M_3
! VAR FILENAME=S2_r7c9_pristine_9k-100M_3.S2P
! VAR DATE=27/08/2024 12:46:45
! VAR PHYS_PORTS=1,2
! VAR ObjTypeName=DATASET
! VAR IndexType=Frequency
!
# Hz S MA R 50
9000.000 +5.7754230897E-002 -1.6452117405E+002  +3.8957161325E-002 -1.6809199344E+002  +5.5084121940E-002 +1.4569926176E+002  +5.5480237872E-001 -1.4141539133E+002 
134145.181 +1.1163173372E-001 +1.6978441759E+002  +3.7167868987E-004 -2.2357806002E+001  +9.3864332697E-004 -1.3500275358E+002  +2.4172266583E-001 -1.7051155897E+002 
259290.363 +1.1165988697E-001 +1.6936551552E+002  +3.8495280825E-004 -9.5209656078E+001  +3.8181782249E-004 +8.4337335169E+001  +2.3996168258E-001 -1.6972119935E+002 
384435.544 +1.1267724268E-001 +1.7017139437E+002  +2.6581085889E-004 -1.2778366225E+002  +5.6709083080E-004 -6.7152281525E+001  +2.4080847936E-001 -1.6879136031E+002 
509580.726 +1.1482707252E-001 +1.7088648158E+002  +2.3785094573E-004 +9.6824700011E+001  +9.8225324331E-004 +1.1534561255E+002  +2.5184582765E-001 -1.6654028449E+002 
634725.907 +1.1750244534E-001 +1.7144361945E+002  +8.7698352613E-004 -1.5881394489E+002  +1.3935902467E-003 +1.7434552653E+002  +2.3436034550E-001 -1.6484675594E+002 
759871.089 +1.1695017851E-001 +1.6932332164E+002  +5.2340967696E-004 +1.7256742185E+002  +9.1415450148E-004 -9.8165856140E+001  +2.3403569311E-001 -1.6334938975E+002 
885016.270 +1.1751690942E-001 +1.6852677992E+002  +1.4738196450E-003 +1.0270836187E+002  +5.1722059553E-004 +4.4541613597E+001  +2.3981133158E-001 -1.6447067875E+002 
1010161.452 +1.1561314854E-001 +1.7060547552E+002  +1.5595154669E-003 +1.4418081045E+002  +1.9417110443E-003 +2.0752636604E+001  +1.6464628797E-001 -1.5600168769E+002 
1135306.633 +1.1231996837E-001 +1.6954392613E+002  +4.6565907217E-004 -1.4363915511E+002  +9.3699178603E-004 -2.7118607905E+001  +2.0793043600E-001 -1.6262485582E+002 
1260451.815 +1.2088108237E-001 +1.7115310338E+002  +8.2756818719E-004 -3.4664665259E+001  +1.3862726579E-003 +1.0130056421E+002  +2.4584266245E-001 -1.6223328334E+002 
1385596.996 +1.2532964715E-001 +1.7240937891E+002  +4.1454207681E-004 +9.1924402228E+001  +5.2855914099E-004 -1.4972750998E+002  +2.4717408392E-001 -1.5802042433E+002 
1510742.178 +1.2688001750E-001 +1.7033764878E+002  +1.0558824919E-003 +1.4990661221E+002  +1.1172780362E-003 +9.2282316570E+001  +2.5989517202E-001 -1.5820076280E+002 
1635887.359 +1.2502968806E-001 +1.7168752523E+002  +9.8229738827E-004 +4.1937355745E+001  +1.3606626995E-003 +1.0266618007E+002  +2.5731623546E-001 -1.5789793697E+002 
1761032.541 +1.2786107075E-001 +1.6845764504E+002  +8.2093309459E-004 -1.5561357350E+002  +1.8869894149E-003 -1.8044068053E+001  +2.0856101213E-001 -1.6214347439E+002 
1886177.722 +1.3135345797E-001 +1.6946664409E+002  +1.8044028509E-003 -1.0486641921E+002  +9.0646355684E-004 -7.6224134561E+001  +1.9601001253E-001 -1.7563888397E+002 
2011322.904 +1.3000560702E-001 +1.6751036794E+002  +2.0824162428E-003 -4.6421637284E+001  +3.7455146410E-003 +1.5421480247E+002  +1.9554445340E-001 -1.6005800522E+002 
2136468.085 +1.3089684516E-001 +1.6281636140E+002  +4.4710803261E-003 -1.7317149837E+002  +4.4380987430E-003 -1.5217935426E+002  +2.4830803230E-002 -1.1693757302E+002 
2261613.267 +1.3326221130E-001 +1.6370590630E+002  +3.9528934162E-003 -3.2743543773E+001  +2.4621207804E-003 +6.3495414465E+001  +1.5739016636E-001 +1.6055653490E+002 
2386758.448 +1.3497378480E-001 +1.6001030573E+002  +1.6663198738E-003 +1.6760509853E+002  +2.3432131395E-003 -1.3896226059E+001  +2.4862295274E-001 +1.6954561822E+002 
2511903.630 +1.2651066102E-001 +1.6195157559E+002  +1.1408487544E-002 +1.6344734246E+002  +1.0102130716E-002 -8.2238847696E+001  +3.0190117914E-001 +1.5138636589E+002 
2637048.811 +1.1938668174E-001 +1.6331205063E+002  +7.9630814404E-003 +1.6520384823E+002  +1.2330561299E-002 +1.6076180059E+001  +3.3608251693E-001 +1.4293001943E+002 
2762193.992 +6.8452130109E-002 +1.6172932811E+002  +4.0939126493E-002 -5.0066758712E+000  +4.6130882907E-002 +1.2216912995E+002  +1.1936896334E+000 -1.5158543348E+002 
2887339.174 +9.8861003601E-002 +1.6956201657E+002  +1.7189608583E-002 -5.0234007835E+001  +2.4025338164E-003 +1.3818359690E+002  +5.3660321841E-001 -1.2484271098E+002 
3012484.355 +1.0936660932E-001 -1.7665043497E+002  +6.7483027831E-003 +9.6364303619E+001  +1.5409515749E-002 +1.0862442231E+002  +3.5214763912E-001 -1.2058237224E+002 
3137629.537 +1.3296037062E-001 +1.7227148217E+002  +1.7868069402E-003 -5.5679669308E+001  +6.8003201218E-003 -9.7693043991E+000  +4.1420983542E-001 -1.2101276151E+002 
3262774.718 +8.6515380508E-002 +1.4570858203E+002  +2.1481366334E-002 -1.0305962506E+002  +1.4641736241E-002 +1.3098493710E+002  +1.2009458000E+000 -8.9959270099E+001 
3387919.900 +9.5578741136E-002 +1.6724275998E+002  +1.2700235861E-002 +1.0163785770E+002  +2.8079901488E-002 -1.6070309582E+002  +5.5483592910E-001 +9.5799682165E+001 
3513065.081 +1.7076819082E-001 +1.3963756507E+002  +1.2262720081E-002 +1.2795787429E+000  +1.1766703710E-002 -6.9504961516E+001  +2.9691180007E-001 +6.3836704064E+001 
3638210.263 +1.5777910152E-001 +1.5150563379E+002  +1.0987382726E-002 -1.3927543638E+002  +9.0365770935E-003 -9.1506036140E+001  +9.6158681116E-001 +1.4988534237E+002 
3763355.444 +1.6315769288E-001 +1.3914637544E+002  +1.1883272169E-002 -4.6067657667E+001  +3.8602521476E-003 +5.1769914653E+001  +1.8967157960E-001 +1.2743806975E+002 
3888500.626 +1.5489475789E-001 +1.5274821387E+002  +9.6282986041E-003 -1.6065404283E+002  +1.4689379734E-002 -8.7177257697E+001  +8.4665405713E-001 +8.3261200163E+001 
4013645.807 +1.8422335284E-001 +1.4703348224E+002  +2.6238475985E-003 +4.0126609068E+001  +5.7459134960E-003 -7.0053898016E+001  +3.7303523224E-001 -1.5076510592E-001 
4138790.989 +1.6643663911E-001 +1.4047128752E+002  +2.2206668874E-002 -1.1424173319E+001  +2.8156751540E-002 -1.4212297899E+001  +8.2073587919E-001 +4.4447813358E+001 
4263936.170 +1.8642553748E-001 +1.4183995503E+002  +1.3246279377E-002 -8.6825282720E+001  +4.0034499144E-002 -1.6307112954E+002  +1.5887817140E+000 +1.3034614285E+002 
4389081.352 +2.3469208747E-001 +1.4183287974E+002  +1.6256160317E-003 +8.9164287372E+001  +1.4433762099E-002 -7.8421189718E+001  +2.9736352434E-001 +1.0580943336E+002 
4514226.533 +2.6278185422E-001 +1.3791330529E+002  +5.0582263489E-003 +7.5573675314E+001  +4.5355751863E-003 -1.7043219031E+002  +8.3131799326E-001 +5.2986940825E+001 
4639371.715 +2.5648578441E-001 +1.2618230927E+002  +2.7201073243E-002 +7.7296920667E+001  +1.1049203453E-002 -4.2014275252E+001  +1.2801136698E+000 +1.2958329067E+002 
4764516.896 +3.6895010687E-001 +1.3537170210E+002  +4.1741957610E-002 +5.1373700931E+001  +2.1228449709E-002 +8.0756489956E+001  +1.9271970219E+000 -8.8595294914E+001 
4889662.078 +4.1166798677E-001 +1.3676285873E+002  +2.2536803551E-002 +1.3249256746E+002  +2.4710839015E-002 +8.7013268426E+000  +2.1169957748E+000 -1.0010881103E+002 
5014807.259 +3.2756468641E-001 +1.2685660799E+002  +3.2582860298E-002 +1.1187792256E+001  +6.7007609174E-002 +3.3133652615E+000  +2.7593221610E+000 +5.6264970337E+001 
5139952.441 +4.1354236268E-001 +1.2697992930E+002  +2.7128409238E-002 -1.3362149966E+002  +2.0403877737E-002 -1.4598748184E+002  +3.0156571948E+000 +1.4247651788E+002 
5265097.622 +4.9487000847E-001 +1.2972269155E+002  +2.4374259588E-002 -9.2909391931E+001  +2.1271066298E-002 -1.5305740652E+001  +2.0331770143E+000 +1.3606270079E+002 
5390242.804 +4.0621042256E-001 +1.3791754386E+002  +5.0975943146E-003 -3.5434078596E+001  +9.4292231280E-003 -4.9753216687E+001  +1.1930509615E+000 +6.6709971153E+001 
5515387.985 +4.6681624859E-001 +1.2969937245E+002  +1.9359340211E-002 -7.9890167034E+001  +2.0526222414E-002 -1.7149594482E+002  +2.3718287332E+000 +9.1175253510E+001 
5640533.166 +4.8622001180E-001 +1.3165564464E+002  +1.2398249432E-002 -1.0870835839E+002  +4.9751812534E-003 -4.0129258720E+000  +1.8961105465E+000 +1.1128729660E+002 
5765678.348 +4.9067110813E-001 +1.3249148663E+002  +1.8462455327E-002 +1.7917030708E+002  +1.7914434952E-002 -2.7437163713E+001  +1.9936818333E+000 +8.4282034061E+001 
5890823.529 +5.4648953001E-001 +1.2640865484E+002  +1.6746123437E-002 -8.8699581646E+001  +1.7323543420E-002 -1.2182375420E+002  +1.3104137860E+000 +6.9379137340E+001 
6015968.711 +7.0668235289E-001 +1.2567804198E+002  +2.2070700387E-002 +1.4795185165E+002  +1.9357967611E-002 +1.7917685497E+001  +2.5874818496E+000 +3.5719474854E+001 
6141113.892 +8.2408070139E-001 +1.1501461662E+002  +7.8367019261E-003 -1.1985947081E+002  +3.6613392033E-002 +1.6182649888E+002  +1.9795468016E+000 +4.5336214374E+001 
6266259.074 +7.3929912947E-001 +1.1147290735E+002  +1.2776595440E-002 +1.3528042207E+002  +1.2621956795E-002 +4.6880983508E+001  +2.0129588621E+000 +2.5947276908E+001 
6391404.255 +9.7130365302E-001 +8.6233227563E+001  +2.0089294224E-002 +6.2584921981E+001  +2.4840171156E-002 -1.0491297544E+002  +1.7237064217E+000 +3.0997033394E+001 
6516549.437 +1.3846737364E+000 +1.0227351492E+002  +4.0046432930E-002 +1.5360509303E+002  +2.6832364954E-002 -1.5655474275E+002  +1.6625901927E+000 +9.0990402386E+000 
6641694.618 +1.4614513354E+000 +8.3908972022E+001  +1.6170603482E-002 +9.4502975895E+001  +1.5064485261E-002 -1.6750456557E+002  +1.5892165674E+000 -4.0003941624E+000 
6766839.800 +2.3228734274E+000 +5.6024309503E+001  +2.4006548077E-002 +1.5514102180E+002  +7.6487067502E-002 +6.6042834713E+001  +1.2821358174E+000 +6.7246742655E-001 
6891984.981 +2.0301750602E+000 +4.4093294204E+001  +3.0200976599E-002 +1.2678252999E+002  +2.2077115297E-002 +7.2381918585E+001  +1.3346251009E+000 -5.2937927561E+000 
7017130.163 +1.7028064526E+000 +4.0230812236E+001  +1.9773783205E-003 -7.2540919252E+001  +1.1261908298E-002 +8.4165754872E+001  +1.3288428338E+000 -8.3687260169E+000 
7142275.344 +1.6127804056E+000 +1.5843547150E+001  +1.2728364338E-002 -3.6130913384E+001  +9.6654777363E-003 +6.9907905697E+001  +1.1130457709E+000 -1.0798244753E+001 
7267420.526 +1.6869665185E+000 +1.2651653917E+000  +1.4214466448E-002 +4.4781568755E+001  +1.5074546257E-002 +1.1154997172E+002  +1.3578235208E+000 -7.2114587622E+000 
7392565.707 +1.3277528114E+000 -5.3402540719E+000  +3.8382632121E-003 +1.2582517528E+002  +4.0605053539E-003 -1.5231016792E+002  +1.3311628166E+000 -8.0756452813E+000 
7517710.889 +1.0612670034E+000 +2.1765627327E+000  +6.2466562757E-003 +8.6433103809E+001  +6.5229858870E-003 +1.0348752319E+002  +1.1287118610E+000 -4.4170718764E+000 
7642856.070 +1.1059285083E+000 -1.1817316010E-001  +6.1264322572E-003 +1.0554901363E+002  +6.4646670890E-003 +1.2109603918E+002  +1.1610250098E+000 -4.0886697882E+000 
7768001.252 +8.8319251375E-001 -3.9860201486E-001  +3.5132395175E-003 +1.4389244498E+002  +1.4049973062E-002 +4.4641509763E+001  +1.0742765960E+000 -1.4748122902E+000 
7893146.433 +9.4798231355E-001 +3.3767392030E+000  +4.3926509675E-003 +5.7323345785E+001  +3.5342049077E-003 +1.4443433584E+002  +8.8888234179E-001 -3.7478615719E-001 
8018291.615 +8.3109302048E-001 +5.4389263325E+000  +5.9191953318E-003 +1.1149042703E+002  +2.7500584177E-003 -1.7764014382E+002  +9.2045830701E-001 -2.7790609146E+000 
8143436.796 +8.0514428243E-001 +5.0697034973E+000  +4.8847943934E-003 +8.9056885825E+001  +2.8825977072E-003 -2.0529311088E+001  +8.8732903159E-001 -1.8219259607E+000 
8268581.977 +7.5427019158E-001 +1.0487710037E+000  +2.2229986311E-003 +1.2241967955E+002  +7.5381210138E-003 +7.7107643250E+001  +7.3766998893E-001 -1.9912513542E-001 
8393727.159 +7.4573748461E-001 +8.1932612382E+000  +1.8701505290E-003 +1.7360823987E+002  +5.6227702182E-003 +1.1448409960E+002  +8.0239113257E-001 +1.0713564349E+000 
8518872.340 +7.3447545859E-001 +3.9799220408E+000  +3.0811786924E-003 +1.4557067115E+001  +2.2959870868E-003 +1.1235115244E+002  +7.2988144715E-001 -1.0450097471E+000 
8644017.522 +6.3595962986E-001 +9.0996273983E+000  +6.3985740246E-003 +7.9473820434E+001  +2.7507374043E-003 -3.2020363083E+001  +6.7475271922E-001 +3.4133839764E+000 
8769162.703 +6.3023097608E-001 +5.0568018666E+000  +4.7252151080E-003 +1.4668892966E+002  +3.8323288342E-003 +6.8031121095E+001  +6.9287309744E-001 -7.7656064386E+000 
8894307.885 +6.2564656415E-001 +8.1516625073E+000  +2.9556581516E-003 +1.6386145830E+002  +5.4089565680E-003 +7.8556366960E+001  +6.4808421733E-001 +1.2013335233E-001 
9019453.066 +5.8469833146E-001 +5.0408253169E+000  +2.7768605300E-003 +1.0480950321E+002  +5.0372883619E-003 +1.0952906441E+002  +6.0304888641E-001 +1.3816272926E+000 
9144598.248 +5.6712117030E-001 +4.3246437417E+000  +3.6684241882E-003 +1.5614008511E+002  +2.7357951066E-003 +1.6733051749E+002  +6.3538866283E-001 -8.9117477696E+000 
9269743.429 +5.6079107889E-001 +6.7920456097E-001  +3.7387789767E-003 +8.4199039888E+001  +6.0390874806E-003 +1.3615983949E+002  +6.3012274580E-001 -5.6964167302E+000 
9394888.611 +6.3210101474E-001 +1.0263275840E+001  +2.7781193667E-003 +1.1046136308E+002  +3.9795782725E-003 +9.7266234614E+001  +6.2485165019E-001 -2.9871426528E+000 
9520033.792 +5.2924034151E-001 +2.1226320717E+000  +7.0922660893E-003 +4.6080743334E+001  +3.6171169856E-003 +4.9249568223E+001  +6.1207757481E-001 -5.6556467407E+000 
9645178.974 +5.6496947343E-001 +4.4188104990E-001  +4.2620843598E-003 +8.0694615547E+001  +4.4860990426E-003 +6.0420717469E+001  +5.6955893160E-001 -7.6093481227E+000 
9770324.155 +5.3997644018E-001 +6.7955457710E-002  +1.4058069026E-003 +8.5810278613E+001  +7.8146814180E-003 +8.7808117602E+001  +6.0493069127E-001 -8.1029021905E+000 
9895469.337 +5.4706830613E-001 +4.2526575443E+000  +2.8689088323E-003 +3.9924444725E+001  +5.5166980030E-003 +6.7313299925E+001  +5.6883150228E-001 -8.7858850862E+000 
10020614.518 +6.0199015456E-001 +1.2139555578E+000  +4.0447746384E-003 +6.9751049398E+001  +4.3547818020E-003 +8.5995774070E+001  +5.5505139873E-001 -7.2290817729E+000 
10145759.700 +5.4387530790E-001 +1.2425176694E+000  +7.2375691269E-003 +7.8108173891E+001  +5.1617975830E-003 +1.4199629423E+002  +5.8583985513E-001 -1.6484755702E+000 
10270904.881 +5.8350851286E-001 +2.8658247781E+000  +5.2297116270E-003 +7.6443307290E+001  +6.8495269341E-004 +8.6850329737E+001  +5.8009456167E-001 +8.6915096887E-001 
10396050.063 +5.3117388682E-001 +3.3460234771E+000  +4.4585146470E-003 +7.0725769846E+001  +4.3215789542E-003 +9.5347715473E+001  +5.8102735102E-001 +1.0174568509E-001 
10521195.244 +5.5648598300E-001 -1.9447812305E-002  +6.6709664885E-003 +8.6950697642E+001  +2.8008661950E-003 +1.4608638514E+002  +5.7104290404E-001 -7.3260139030E-001 
10646340.426 +5.5306241530E-001 +5.2469735059E+000  +4.6737588351E-003 +1.0775769154E+002  +3.6775419649E-003 +1.2556428112E+002  +6.0092616951E-001 +1.1401721741E+000 
10771485.607 +5.5317435281E-001 +2.2352486795E+000  +2.1400892633E-003 +6.6487611663E+001  +3.7966779051E-003 +8.2002963160E+001  +5.9116516951E-001 +1.5690427325E+000 
10896630.788 +5.9217296973E-001 +5.6728095569E+000  +4.7565784985E-003 +1.0094073144E+002  +4.1915483141E-003 +1.3404026229E+002  +6.0372994148E-001 -1.6427809599E-001 
11021775.970 +5.9946353543E-001 +7.3735621375E+000  +6.3569179346E-003 +6.7872217153E+001  +3.9916275924E-003 +9.2901898010E+001  +5.9949453174E-001 +3.3291139847E+000 
11146921.151 +5.8735646779E-001 +8.8194517389E+000  +4.0976443083E-003 +7.0738695901E+001  +4.8855937964E-003 +1.0911485602E+002  +6.0524153253E-001 +3.2770108504E+000 
11272066.333 +6.0967685606E-001 +7.8758626944E+000  +4.5070213841E-003 +9.0934639272E+001  +4.9301112090E-003 +1.1302767923E+002  +6.4499392114E-001 +2.5964564167E+000 
11397211.514 +6.2820487441E-001 +6.0703315363E+000  +5.6578194737E-003 +6.5145246600E+001  +6.6309012638E-003 +9.7176408333E+001  +6.3880298678E-001 -1.7954554663E+000 
11522356.696 +6.3503769845E-001 +7.3337257300E+000  +4.1172877863E-003 +9.8879857248E+001  +4.7975342213E-003 +8.4592507821E+001  +6.5318750166E-001 +3.2454388179E-001 
11647501.877 +6.3837983539E-001 +4.9746908062E+000  +6.0503986273E-003 +8.9437516436E+001  +5.9893148674E-003 +1.0410071193E+002  +6.4117801400E-001 +6.0567606378E-001 
11772647.059 +6.6474505862E-001 +5.3230217709E+000  +4.3574309556E-003 +9.2060386225E+001  +5.0226054911E-003 +7.7629566228E+001  +6.6916291186E-001 +8.4769703212E-001 
11897792.240 +6.6349014450E-001 +4.1407961168E+000  +3.7363761711E-003 +9.6610186145E+001  +5.0674281686E-003 +1.1593446276E+002  +6.7398315590E-001 +1.1920015172E+000 
12022937.422 +6.9289543832E-001 +4.2712445661E+000  +6.8485581134E-003 +9.8068775224E+001  +6.8046551248E-003 +1.0004125999E+002  +6.8049198796E-001 -9.0592671617E-001 
12148082.603 +6.6930733654E-001 +5.8684995422E+000  +5.8956626374E-003 +7.6112623498E+001  +4.7424655809E-003 +8.9749564241E+001  +6.9749713761E-001 -5.3184164288E-001 
12273227.785 +7.0395550733E-001 +1.8999156877E+000  +4.1451943791E-003 +9.4084818164E+001  +5.9381026742E-003 +9.7846840394E+001  +7.0897169193E-001 +3.5258267179E-001 
12398372.966 +7.0791117108E-001 +4.6699727055E+000  +5.8095204320E-003 +8.2618679454E+001  +5.3875164551E-003 +1.0848534963E+002  +7.3455580582E-001 -1.7444319859E+000 
12523518.148 +7.3797369095E-001 +1.3483065394E+000  +4.5170953772E-003 +6.8254695223E+001  +6.4640375733E-003 +8.8451253620E+001  +7.2329161226E-001 -1.1853103360E+000 
12648663.329 +7.1471613855E-001 +4.0397169220E+000  +6.9406585512E-003 +8.3412582502E+001  +6.6607086034E-003 +9.4336951127E+001  +7.4280926924E-001 -1.0843000445E+000 
12773808.511 +7.6018036754E-001 +1.1603294850E+000  +7.0237441994E-003 +9.9528253034E+001  +7.2793593804E-003 +1.0228007175E+002  +7.5724849533E-001 -7.4068948441E-001 
12898953.692 +7.6295195757E-001 +2.1732477337E+000  +6.9566914549E-003 +8.8859203351E+001  +5.9371517210E-003 +8.4455494522E+001  +7.9371027260E-001 -1.0050550042E+000 
13024098.874 +7.6351783480E-001 +1.9348987220E+000  +6.3935174031E-003 +9.1757130920E+001  +6.5483483690E-003 +7.9364953333E+001  +8.0953038891E-001 -8.3758250503E-001 
13149244.055 +8.0527631933E-001 +3.0366560873E-001  +6.8884044753E-003 +8.4581868256E+001  +6.9798639031E-003 +8.4463804377E+001  +8.2681292274E-001 -1.6401273513E+000 
13274389.237 +8.0847083649E-001 -1.4452402434E+000  +6.3663254387E-003 +9.1017975461E+001  +8.2871389862E-003 +1.0444508380E+002  +8.3221920213E-001 -2.4837922712E+000 
13399534.418 +8.4464671222E-001 -3.2596837740E-001  +6.9201597720E-003 +9.6023090428E+001  +5.5243141568E-003 +9.7718420603E+001  +8.4617260404E-001 -3.5247282234E+000 
13524679.599 +8.5419984760E-001 -2.8838609996E+000  +9.1114150823E-003 +1.0012992187E+002  +7.2317700840E-003 +9.0650209079E+001  +8.7214970129E-001 -3.3065903055E+000 
13649824.781 +8.7282336402E-001 -3.1514335075E+000  +6.8265759380E-003 +8.9869203643E+001  +4.6396951782E-003 +9.1923727841E+001  +8.8605638582E-001 -2.7895607287E+000 
13774969.962 +8.9057843171E-001 -2.4105575391E+000  +7.6111318200E-003 +1.0158442266E+002  +7.6783839017E-003 +9.8098493827E+001  +9.0323689772E-001 -4.0624226855E+000 
13900115.144 +9.0243797236E-001 -2.0611620080E+000  +7.2879581720E-003 +9.4411594661E+001  +6.5051001466E-003 +1.0015827712E+002  +8.9970100853E-001 -3.8484023303E+000 
14025260.325 +9.3528679034E-001 -3.0929465265E+000  +8.0408368810E-003 +8.7983827869E+001  +7.0308606012E-003 +8.8897497826E+001  +9.4977973595E-001 -4.5520153738E+000 
14150405.507 +9.4096158480E-001 -3.6413381245E+000  +7.4988560351E-003 +9.9593779125E+001  +7.6944130575E-003 +9.3361118897E+001  +9.4658220170E-001 -4.5983074637E+000 
14275550.688 +9.5855764227E-001 -3.9246124970E+000  +8.7782221682E-003 +9.0977713072E+001  +7.1771132951E-003 +9.1964797104E+001  +9.5321939198E-001 -3.8732427852E+000 
14400695.870 +9.8169027379E-001 -4.8317016969E+000  +7.9592883197E-003 +9.6191029999E+001  +7.7067153623E-003 +9.0554207046E+001  +1.0002615451E+000 -4.6682233786E+000 
