!  2-Port S-parameters saved by WinCal
! VAR NAME=S2_r2c8_formed(1)_9k-100M_1
! VAR DATE=30/08/2024 11:25:20
! VAR FILENAME=S2_r2c8_formed(1)_9k-100M_1.S2P
! VAR MeasName=S-Parameters (CALIBRATED_DATA) read from VNA (P5004A)
! VAR MeasDate=27/08/2024 13:54:45
! VAR PHYS_PORTS=1,2
! VAR ObjTypeName=DATASET
! VAR IndexType=Frequency
!
# Hz S MA R 50
9000.000 +5.8072405887E-002 -1.6048489243E+002  +1.1741015457E-002 +6.6661792495E+000  +1.0142544303E-002 +1.5344257200E+002  +2.2704057439E-001 -1.1972793861E+002 
134145.181 +1.1085539260E-001 +1.6948984632E+002  +4.6900163908E-004 +1.2506540439E+002  +6.5375984608E-004 +4.1698517577E+001  +2.4398193893E-001 -1.7070895178E+002 
259290.363 +1.1133657440E-001 +1.6951671004E+002  +3.8208492202E-004 -2.0978962384E+001  +2.2278117565E-004 -1.6586461352E+002  +2.4635515288E-001 -1.6762026721E+002 
384435.544 +1.1350053648E-001 +1.7036706609E+002  +3.5100776177E-004 -5.8255429409E+001  +3.1369068494E-004 +5.2370595648E+001  +2.4030601976E-001 -1.6865224772E+002 
509580.726 +1.1491066726E-001 +1.7087440444E+002  +3.5987460149E-004 +1.4194379655E+002  +1.7171353990E-003 +7.5299181468E+001  +2.4502619047E-001 -1.6662907374E+002 
634725.907 +1.1729591607E-001 +1.7134028751E+002  +2.4383376638E-004 +8.4810714873E+001  +4.2628915563E-004 -6.8152043475E+001  +2.4800513391E-001 -1.6660112290E+002 
759871.089 +1.1573987974E-001 +1.7066153311E+002  +5.2777653896E-004 -8.1042576202E+001  +4.8526961308E-004 +1.5633984289E+002  +2.4751436200E-001 -1.6628272366E+002 
885016.270 +1.1763989882E-001 +1.6923167058E+002  +5.3536408702E-004 -6.0691382957E+001  +4.6966119298E-004 +7.9926297587E+001  +2.3729525314E-001 -1.6602198702E+002 
1010161.452 +1.1919237950E-001 +1.7299290006E+002  +1.6028638265E-003 +7.3406366776E+001  +1.5993027517E-003 -1.7496779574E+002  +9.8845147216E-002 +1.7590033005E+002 
1135306.633 +1.1386894875E-001 +1.7126951844E+002  +3.2151772937E-004 -1.4030121937E+002  +1.2786531491E-003 -1.6148722443E+002  +1.9097536342E-001 -1.6757756966E+002 
1260451.815 +1.2198094715E-001 +1.7062611411E+002  +4.5066465671E-004 +1.7936409357E+002  +4.1235410148E-004 +3.3968945911E+001  +2.4539413575E-001 -1.6097801984E+002 
1385596.996 +1.2771166283E-001 +1.7317897793E+002  +4.0020931865E-004 -4.5740108491E+001  +5.2931619926E-004 +1.7681958447E+002  +2.5161991034E-001 -1.5775687617E+002 
1510742.178 +1.2560110654E-001 +1.7161955972E+002  +9.8223777201E-004 -1.8030455001E+001  +8.4854816177E-004 -1.5584825152E+002  +2.6552345262E-001 -1.5821360766E+002 
1635887.359 +1.2795417550E-001 +1.7094391853E+002  +7.1923907658E-004 -4.5278531610E+001  +1.0661106643E-003 +2.7265453399E+001  +2.3590655057E-001 -1.5332290679E+002 
1761032.541 +1.3023598793E-001 +1.6839468367E+002  +1.3792412403E-003 -1.2006861729E+002  +2.7491816852E-003 -1.4624779586E+002  +1.9522066513E-001 -1.5029500728E+002 
1886177.722 +1.2936980660E-001 +1.6827006189E+002  +1.8816196386E-003 -8.0025599085E+000  +1.3490690825E-003 -1.5903246529E+002  +2.1980395514E-001 -1.6862494696E+002 
2011322.904 +1.1944395012E-001 +1.6721587372E+002  +2.1096617917E-003 +1.2466211342E+002  +3.9124210208E-003 +5.1813998910E+001  +1.6986495610E-001 +1.7961062304E+002 
2136468.085 +1.3287516432E-001 +1.6607727709E+002  +2.2292580120E-003 -4.7251691346E-002  +2.7976561105E-003 -2.4824566453E+000  +1.7148266857E-001 -1.5400220057E+002 
2261613.267 +1.3316494092E-001 +1.6378932823E+002  +1.5392883500E-003 -1.6938719669E+002  +4.0643331218E-003 -9.9074375922E+001  +1.8607005195E-001 +1.7239484270E+002 
2386758.448 +1.3411150418E-001 +1.6257794973E+002  +4.5618622458E-003 +4.1661691140E+001  +7.3326289680E-004 +7.3085365102E+001  +1.5188475401E-001 +1.7755182666E+002 
2511903.630 +1.4351906659E-001 +1.5840498329E+002  +2.2673142114E-003 +2.5444825456E+001  +1.1387914886E-002 +8.5587649430E+001  +4.7898924023E-001 +1.1815200429E+002 
2637048.811 +1.1528915361E-001 +1.6221508937E+002  +4.5293824428E-003 -1.2984298112E+002  +1.0303047923E-002 -8.7908410137E+001  +3.7447841055E-001 +1.4052238906E+002 
2762193.992 +8.0198927731E-002 +1.7627990070E+002  +1.5952614488E-002 +7.9202644346E+001  +3.0682272028E-002 +1.3918136160E+002  +5.9516560906E-001 -8.3565896108E+001 
2887339.174 +1.3370249541E-001 +1.7585128378E+002  +4.8258006000E-003 -4.5012250056E+001  +7.2828314940E-003 +5.4041437454E+001  +4.1063701055E-001 -1.3008827573E+002 
3012484.355 +9.8368946779E-002 +1.7042933919E+002  +3.1738714455E-002 +1.2253969659E+002  +1.8805221280E-002 -1.1692814303E+002  +6.4154329352E-001 -5.0031201354E+001 
3137629.537 +1.3221466503E-001 +1.6592520058E+002  +3.2570265141E-003 +1.7557084895E+002  +1.2973259073E-003 +1.3831275715E+002  +2.7976620686E-001 -1.2160797407E+002 
3262774.718 +1.2040095022E-001 +1.7139535978E+002  +4.7998435627E-003 +1.7231706458E+002  +1.4349613900E-002 +1.7491385229E+001  +2.3883155783E-001 -8.5049039226E+001 
3387919.900 +1.3238650056E-001 +1.6122334218E+002  +1.1448449178E-002 +4.4558147230E+001  +4.3763885481E-002 +1.1821747655E+002  +1.4969707039E+000 -1.2519640947E+002 
3513065.081 +1.4682230071E-001 +1.4862481512E+002  +9.4660378930E-003 -1.4197337301E+002  +2.4836206728E-002 -9.0820429281E+001  +5.5787418778E-001 +8.1459719031E+001 
3638210.263 +1.8048928339E-001 +1.4779835651E+002  +3.5397532188E-003 -3.1036530702E+001  +1.4359666832E-003 -5.0391337132E+001  +1.3219811354E-001 -1.0854472557E+002 
3763355.444 +1.6919306457E-001 +1.3399779525E+002  +1.6049862278E-002 +1.6872026186E+002  +3.0290043578E-002 +1.1818085198E+002  +9.1918725676E-001 +5.3635164992E+001 
3888500.626 +1.8276254281E-001 +1.5024226382E+002  +9.9182064860E-003 -6.0842751352E+001  +1.0577326810E-002 +1.0760299796E+002  +6.9275579191E-001 +9.2849304829E+001 
4013645.807 +2.2199251085E-001 +1.4483279197E+002  +8.3342026160E-003 +1.5387351164E+002  +8.7230146931E-003 +1.1216336418E+002  +4.3846816683E-001 +1.2327462487E+002 
4138790.989 +1.9089261353E-001 +1.4857017975E+002  +1.4303115852E-003 +1.7806362345E+001  +6.8215956830E-003 -1.6622307857E+001  +2.9507969970E-001 +1.0511969612E+002 
4263936.170 +2.2361134324E-001 +1.3187842889E+002  +4.0846120787E-003 -1.5632398975E+002  +9.9677322436E-003 -6.7868805504E+001  +2.7803932122E-001 +5.4555155646E+001 
4389081.352 +2.2534153528E-001 +1.4117873493E+002  +5.8359104117E-003 +3.2350175960E+001  +1.3125262653E-002 +5.1656884719E+001  +1.8213303027E-001 +1.1900765052E+001 
4514226.533 +2.3456618715E-001 +1.3458503193E+002  +3.6558035893E-002 +1.6185914199E+002  +4.0123548945E-002 -1.3068065347E+002  +1.4489730838E+000 +1.1700652999E+002 
4639371.715 +2.9724353562E-001 +1.2120243476E+002  +3.8934734759E-002 +1.2010709686E+002  +1.1790571061E-002 -1.4052387830E+002  +1.3042224156E+000 +6.4052390600E+001 
4764516.896 +3.6880050449E-001 +1.3549356056E+002  +1.7002702859E-002 +2.5892544304E+001  +6.2157290103E-002 +6.3286761527E+001  +3.5376767361E+000 -1.7728280166E+001 
4889662.078 +4.5879864648E-001 +1.2708921742E+002  +1.0943958920E-001 -2.4738944163E+001  +2.0242253800E-001 +1.6010168783E+002  +7.4686588886E+000 -1.6652251415E+002 
5014807.259 +4.0263353049E-001 +1.3083845185E+002  +2.3760545316E-002 -1.4836507691E+002  +6.0124318788E-002 -8.8132379755E+000  +5.1057820595E+000 -1.5311908119E+002 
5139952.441 +4.2654719059E-001 +1.3649527788E+002  +6.8918236403E-003 -1.5855445289E+002  +2.2721352612E-002 -1.0698541934E+002  +1.6005768904E+000 -2.5000091957E+001 
5265097.622 +3.7043184209E-001 +1.2871614480E+002  +2.4507361920E-002 -1.4877555972E+002  +3.1299884592E-002 +7.5325672683E+001  +2.6785151530E+000 +7.3962924340E+001 
5390242.804 +4.7314793625E-001 +1.2609013295E+002  +1.8274614825E-002 +1.2168617910E+002  +1.0922927204E-002 +1.3980120169E+002  +2.3632716872E+000 +4.7628141467E+001 
5515387.985 +4.8659762915E-001 +1.2633909572E+002  +5.0185644798E-002 -1.6642085075E+002  +4.3906710828E-002 -3.8645167337E+001  +2.8944579172E+000 +8.0890007176E+001 
5640533.166 +5.1053490800E-001 +1.2872639179E+002  +1.0158232522E-002 +1.1150133758E+002  +3.1196068380E-002 -1.1065100596E+002  +3.4050398687E+000 +6.9340900890E+001 
5765678.348 +5.3125065078E-001 +1.2753755023E+002  +2.2457048060E-002 -1.5237067541E+002  +1.4179242853E-002 +1.1791542709E+002  +1.7959533745E+000 +7.0178475298E+001 
5890823.529 +5.2961877927E-001 +1.2570156302E+002  +1.7580642445E-002 -5.9879375524E+001  +1.6068083917E-002 -1.0695524503E+002  +1.9039644982E+000 +8.5307033490E+001 
6015968.711 +5.9464155845E-001 +1.1945917215E+002  +1.0179255242E-002 -7.1017058799E+001  +1.2306622669E-002 +1.4853124377E+001  +2.2106755463E+000 +8.0923040706E+001 
6141113.892 +7.0232805774E-001 +1.1064205585E+002  +3.7593046037E-002 +1.6757761761E+002  +2.0106345727E-002 +1.4317797291E+002  +2.1119730910E+000 +4.2317934745E+001 
6266259.074 +6.9791309792E-001 +1.0335203797E+002  +5.7584090727E-003 +1.8425721867E+001  +2.0183136517E-002 -1.5113504162E+002  +1.3838242862E+000 +8.4128584824E+000 
6391404.255 +1.2636440538E+000 +1.0079040964E+002  +2.8652630534E-002 +1.5012530224E+002  +2.7717845613E-003 +1.5609888286E+002  +1.4656235974E+000 +1.8928207721E+001 
6516549.437 +1.3110656467E+000 +7.9330711235E+001  +1.7035997847E-002 +1.4032809714E+001  +1.3901921233E-002 +4.4345127850E+001  +1.9084238204E+000 +4.7557184753E+000 
6641694.618 +1.4373180408E+000 +7.7116125955E+001  +1.6630192822E-002 +7.2142795155E+001  +3.5233462872E-003 -1.1452999252E+002  +1.4136846647E+000 -7.9124225469E+000 
6766839.800 +1.6309509263E+000 +5.4316796361E+001  +8.1863846260E-003 -7.2200055868E+001  +4.0652449590E-002 +4.3645898326E+001  +1.6006255048E+000 -2.1234361776E+001 
6891984.981 +1.8478156697E+000 +3.1039067231E+001  +1.7161051089E-002 +8.6153879370E+001  +3.9168220979E-002 +1.0456881451E+002  +1.5655998011E+000 -6.2964464136E-001 
7017130.163 +1.9941559282E+000 +1.6633863747E+001  +1.5085356544E-002 +2.8491864571E+001  +6.1334959150E-003 +8.7058841944E+001  +1.4945378164E+000 -1.6384315228E+001 
7142275.344 +1.4834648820E+000 +2.1405624520E+001  +2.3053083705E-002 +8.9442408999E+001  +2.3093420445E-002 +1.7666111348E+002  +1.4044589685E+000 -1.1522701006E+001 
7267420.526 +1.5217724696E+000 +2.9104140665E+000  +1.9959956546E-002 +7.4855329882E+001  +1.7241976551E-002 +1.6064271882E+002  +1.3679842103E+000 -9.5008451888E+000 
7392565.707 +1.2873492281E+000 -4.2852172409E-001  +6.2143624114E-003 +1.2446466254E+002  +2.7410178738E-003 +8.9540172949E+001  +1.2796476648E+000 -1.0110726383E+001 
7517710.889 +1.1871261226E+000 +1.1058254830E+000  +3.0869285288E-003 +5.9953831412E+001  +1.7168124811E-003 -1.1986458433E+002  +1.3222168199E+000 -7.4442598461E+000 
7642856.070 +1.0686201031E+000 +4.7573657242E+000  +7.6404147501E-003 +1.0207793238E+002  +6.1525891386E-003 +1.2552233795E+002  +1.1678797825E+000 -3.3176970275E+000 
7768001.252 +1.0606260799E+000 +4.7689444396E+000  +3.0935199256E-003 +9.5602670310E+001  +3.2960319824E-003 -1.5029735855E+002  +1.0557413769E+000 -5.9750280901E+000 
7893146.433 +9.1582466799E-001 -1.7295992679E+000  +5.4612726476E-003 +1.2759821404E+002  +1.0553435924E-002 +5.5445571614E+001  +9.6039906493E-001 -2.7683795605E+000 
8018291.615 +8.3877103898E-001 +7.0788556226E+000  +1.0774986443E-002 +7.8687550599E+001  +8.1731824722E-003 +3.4072310957E+001  +8.4045281387E-001 -2.1834439451E+000 
8143436.796 +8.0359333459E-001 -2.5825095183E-001  +3.6336077824E-003 +8.9190235840E+001  +5.3684710889E-003 +1.2760268531E+002  +8.3402485842E-001 +1.3595723907E+000 
8268581.977 +7.4100475348E-001 +6.0585337424E+000  +2.4737317502E-003 +4.6169719132E+001  +1.0044648847E-002 +1.5508738758E+002  +8.1069748143E-001 -1.6292778250E+000 
8393727.159 +6.6143321813E-001 +3.5824888092E+000  +5.0793707541E-003 +6.9139660655E+001  +9.6090249339E-003 +4.7312484097E+001  +7.8402620754E-001 +9.4313800467E-001 
8518872.340 +6.5413661639E-001 +6.6768243970E+000  +6.4692796662E-003 +1.4553222514E+002  +5.0076714002E-003 +1.1820235111E+002  +6.7619099492E-001 +2.0075909127E+000 
8644017.522 +7.1989545964E-001 +9.4467154716E+000  +2.0962748093E-003 +7.3605615563E+001  +2.7388827848E-003 +1.3874245531E+002  +7.8084135850E-001 -1.9913036350E+000 
8769162.703 +6.3841950202E-001 +4.8668032876E+000  +4.7298488131E-003 +9.0241174375E+001  +3.7965860595E-003 +1.1122801895E+002  +6.4740211087E-001 +9.5033907523E-001 
8894307.885 +6.2468211534E-001 +4.2798125218E+000  +6.5045628724E-003 +6.8557574447E+001  +5.6286917598E-003 +6.4287447269E+001  +6.1878844903E-001 +2.6338922728E+000 
9019453.066 +6.3476248112E-001 +2.4479312675E+000  +2.9849911671E-003 +7.9071175476E+001  +4.6000381395E-003 +9.8290517353E+001  +6.8011464790E-001 -3.0271023941E+000 
9144598.248 +5.8763615026E-001 +8.2650403267E+000  +4.1683403519E-003 +1.0230274948E+002  +4.5250651152E-003 +8.8418129474E+001  +6.3330070811E-001 -2.4146130456E+000 
9269743.429 +6.3800504248E-001 +5.1202028765E+000  +2.3933336400E-003 +4.0007610883E+001  +1.3424968453E-003 +9.0024922906E+001  +5.8676586357E-001 -2.6527893350E+000 
9394888.611 +5.6241853342E-001 +4.6861375983E+000  +3.6347358527E-003 +1.0689809833E+002  +4.1495128146E-003 +9.6363311851E+001  +6.3045606356E-001 -2.8618274269E+000 
9520033.792 +5.4291445612E-001 -4.1860586398E-001  +2.3968974929E-003 +7.1030502912E+001  +3.4286837402E-003 +1.0397562811E+002  +5.6646079801E-001 -5.4366921606E+000 
9645178.974 +5.4313977614E-001 -1.6008026451E+000  +5.1323838765E-003 +7.8345222076E+001  +5.5207910822E-003 +9.4344951646E+001  +6.0908846679E-001 -1.0380329235E-001 
9770324.155 +5.5137378132E-001 -1.9478272915E+000  +4.6520170116E-003 +9.4583955977E+001  +5.2024314547E-003 +1.3629056891E+002  +5.7361105609E-001 -6.3091765795E+000 
9895469.337 +5.5016044836E-001 -4.7611239351E-001  +3.7026576144E-003 +7.3556314092E+001  +6.3013663622E-003 +1.3374388782E+002  +5.6821110977E-001 -5.5802142934E+000 
10020614.518 +5.4573776238E-001 +3.0851680661E+000  +5.1550556717E-003 +6.9308603849E+001  +5.4129450779E-003 +7.9974566207E+001  +5.8633376878E-001 -3.8534303347E+000 
10145759.700 +5.6197526558E-001 +2.9885000532E+000  +3.4571881657E-003 +1.1481148811E+002  +6.6053135834E-003 +6.3877127824E+001  +5.8989206676E-001 -4.3568096477E+000 
10270904.881 +5.6865781792E-001 +3.9508733712E+000  +5.1351932385E-003 +8.0049931518E+001  +3.9822952886E-003 +6.5096118939E+001  +5.5800063384E-001 -8.7800185494E-001 
10396050.063 +5.5013109131E-001 +2.1870426912E+000  +4.1699216989E-003 +8.6682385372E+001  +6.3221391685E-003 +8.4361066891E+001  +5.9407327663E-001 +1.2252022871E+000 
10521195.244 +5.6015324207E-001 +8.0204351132E+000  +6.0548401131E-003 +9.4779098129E+001  +5.4516525460E-003 +8.0424340382E+001  +5.7840600389E-001 -5.2120700623E+000 
10646340.426 +5.9049751105E-001 +6.2930421145E+000  +6.0778180996E-003 +1.0826240467E+002  +2.7685981894E-003 +7.1439365420E+001  +5.8394780974E-001 +4.8329942491E-001 
10771485.607 +5.5714874015E-001 -1.0923564437E+000  +2.9461850479E-003 +9.7842448661E+001  +2.9372604623E-003 +1.2150192799E+002  +6.1940515057E-001 +3.6598356474E-001 
10896630.788 +6.1220588128E-001 +4.9450151336E+000  +3.6191420494E-003 +8.0341323223E+001  +2.3682278391E-003 +1.1728218164E+002  +6.2611298673E-001 -1.1677960246E-001 
11021775.970 +5.6616594502E-001 +6.9141745985E+000  +3.8323816522E-003 +9.9386312937E+001  +6.0971071511E-003 +8.6097545923E+001  +6.0319958702E-001 +3.0708478022E+000 
11146921.151 +5.7440875985E-001 +2.4009322815E+000  +4.1704404325E-003 +8.4349974201E+001  +4.1482816812E-003 +1.1332259967E+002  +6.2409685064E-001 +1.0102764622E+000 
11272066.333 +5.9782789337E-001 +3.2667172927E+000  +4.4369825876E-003 +8.8338388402E+001  +5.4965060723E-003 +8.7410306771E+001  +6.2982158441E-001 +3.0123588780E+000 
11397211.514 +6.0853178513E-001 +4.0431669513E+000  +5.3418456077E-003 +7.6809500677E+001  +5.5244697657E-003 +1.0118230771E+002  +6.2262780822E-001 +3.3548017037E+000 
11522356.696 +5.9789800742E-001 +7.8702655592E+000  +4.7124774836E-003 +6.4286061173E+001  +4.7838686530E-003 +1.0542354128E+002  +6.4428740612E-001 -7.7974680050E-001 
11647501.877 +6.3605665738E-001 +5.8378462182E+000  +6.0514372900E-003 +9.8654953134E+001  +4.6400743706E-003 +1.0074688935E+002  +6.4587628549E-001 +2.7625107075E-001 
11772647.059 +6.5498120527E-001 +5.0910397449E+000  +6.5190137718E-003 +9.0876876674E+001  +2.8272740957E-003 +9.1181061689E+001  +6.5587148188E-001 +2.4122080475E-001 
11897792.240 +6.5892383232E-001 +5.7107004055E+000  +3.1819136111E-003 +8.6949411498E+001  +5.7605121192E-003 +9.5738204308E+001  +7.0011550927E-001 +5.6550919571E-001 
12022937.422 +6.9418909206E-001 +5.8313252542E+000  +5.9789763034E-003 +9.0137258283E+001  +3.4602199923E-003 +1.1811892140E+002  +6.9673653650E-001 -6.2406155562E-001 
12148082.603 +6.6565245452E-001 +3.5459886325E+000  +3.3825658062E-003 +8.8553515359E+001  +5.9566919704E-003 +1.0733377230E+002  +6.9969858544E-001 -4.9058090603E-001 
12273227.785 +6.8634648099E-001 +4.6859958108E+000  +5.1072739750E-003 +9.9595201717E+001  +5.2818897272E-003 +1.1191045152E+002  +7.3343960173E-001 +2.1458115876E+000 
12398372.966 +6.8868844923E-001 +2.4396747777E+000  +6.2684553776E-003 +9.0631805203E+001  +5.0770567609E-003 +7.9381696363E+001  +7.2642798462E-001 +5.3192198055E-001 
12523518.148 +7.3748571153E-001 +2.9345516725E+000  +4.7733985713E-003 +9.1214909057E+001  +5.1399286127E-003 +1.0197162437E+002  +7.3928728570E-001 -2.0251674992E-001 
12648663.329 +7.5126814760E-001 +5.2740805063E-001  +5.0419009879E-003 +9.7717453709E+001  +6.4337029069E-003 +7.9220454438E+001  +7.5780247590E-001 -2.3049929509E+000 
12773808.511 +7.5833706491E-001 +2.6739530536E+000  +6.3966653493E-003 +8.7818426852E+001  +6.8154500446E-003 +9.7165050649E+001  +7.8593988166E-001 -2.3138763429E+000 
12898953.692 +7.9102617677E-001 +2.4790052196E+000  +5.4406564349E-003 +9.2588858031E+001  +6.5356891562E-003 +9.1765889519E+001  +7.8940312977E-001 -2.9515324908E+000 
13024098.874 +7.7833782689E-001 +3.8108786992E-001  +6.6640526494E-003 +8.4668776758E+001  +5.7555334307E-003 +9.8545010029E+001  +7.8904571532E-001 -1.8618066616E+000 
13149244.055 +7.8662162781E-001 +1.0017259576E+000  +6.1079737208E-003 +8.9837602518E+001  +5.5619632400E-003 +9.8193038843E+001  +8.1926473562E-001 -8.6722435261E-001 
13274389.237 +7.9990200442E-001 +3.6392293105E-002  +8.2286015194E-003 +1.0389036495E+002  +7.2800501961E-003 +8.8023973907E+001  +8.4831736090E-001 -2.2967783619E+000 
13399534.418 +8.3532814453E-001 -2.3878964898E-001  +6.5144546902E-003 +9.4271107312E+001  +6.1953211870E-003 +9.6388559906E+001  +8.5373255932E-001 -2.8078137841E+000 
13524679.599 +8.5772303055E-001 -1.1611694633E-001  +5.8445298081E-003 +1.0131564858E+002  +7.1169657339E-003 +8.4952269727E+001  +8.4722126089E-001 -4.1002450271E+000 
13649824.781 +8.7641623394E-001 -1.1472389770E+000  +8.2035584226E-003 +9.6254779034E+001  +7.1553780559E-003 +1.1079692293E+002  +8.6032597256E-001 -2.6830314401E+000 
13774969.962 +8.6372893497E-001 -2.4319718491E+000  +5.8648244579E-003 +1.0518056960E+002  +8.0646958312E-003 +8.9341319929E+001  +9.0217724378E-001 -1.7968368605E+000 
13900115.144 +9.3335811691E-001 -4.0695690770E+000  +7.9291222433E-003 +9.1331303103E+001  +8.4061044417E-003 +9.7657452446E+001  +9.3816438379E-001 -5.1200556804E+000 
14025260.325 +9.2474447273E-001 -4.1733341571E+000  +8.8846616538E-003 +8.9039370513E+001  +6.1965188116E-003 +9.8266056734E+001  +9.6496994490E-001 -3.7180037081E+000 
14150405.507 +9.5103792018E-001 -4.7579967414E+000  +6.6853875422E-003 +9.1752651196E+001  +6.1756331993E-003 +8.9442273544E+001  +9.5240032450E-001 -4.2605687334E+000 
14275550.688 +9.5625844206E-001 -4.9368524275E+000  +6.2689559567E-003 +7.5829471559E+001  +6.5104576849E-003 +7.9437184141E+001  +9.6043023414E-001 -4.1580728050E+000 
14400695.870 +9.6210730142E-001 -4.0492181198E+000  +7.4233566962E-003 +8.6240940132E+001  +7.3975438357E-003 +8.6814684794E+001  +9.8780342858E-001 -5.8204076753E+000 
