!  2-Port S-parameters saved by WinCal
! VAR MeasName=S-Parameters (CALIBRATED_DATA) read from VNA (P5004A)
! VAR MeasDate=27/08/2024 12:46:18
! VAR NAME=S2_r7c9_pristine_9k-100M_1
! VAR FILENAME=S2_r7c9_pristine_9k-100M_1.S2P
! VAR DATE=27/08/2024 12:46:18
! VAR PHYS_PORTS=1,2
! VAR ObjTypeName=DATASET
! VAR IndexType=Frequency
!
# Hz S MA R 50
9000.000 +5.3286189516E-002 -1.5936476580E+002  +1.0349010670E-002 -1.3121889339E+002  +3.4503917651E-002 -1.3648890492E+002  +1.9031071525E-001 -6.7968059955E+001 
134145.181 +1.1155436465E-001 +1.6971205800E+002  +2.7633087233E-004 +1.6449024518E+002  +5.3109680032E-004 +7.7064510610E+000  +2.3792614546E-001 -1.7006436002E+002 
259290.363 +1.1121239855E-001 +1.6996668269E+002  +1.3007236834E-004 +1.1351783142E+002  +3.9432363943E-004 -5.2548437438E+001  +2.4027361050E-001 -1.6954670458E+002 
384435.544 +1.1436950866E-001 +1.6948752411E+002  +3.0024385638E-004 -5.1497927495E+001  +7.7842995636E-004 -6.2889835170E+001  +2.3785468173E-001 -1.6963727498E+002 
509580.726 +1.1528687426E-001 +1.7151655418E+002  +9.8413372778E-004 +1.1829894072E+002  +6.5752043635E-004 +6.9971664446E+001  +2.3905968178E-001 -1.6591183984E+002 
634725.907 +1.1613470371E-001 +1.7026882542E+002  +5.6534189279E-004 +9.8760771459E+001  +1.2509329254E-003 +2.5593336561E+001  +2.3780944920E-001 -1.6425879098E+002 
759871.089 +1.1603371709E-001 +1.7027200750E+002  +8.6900494625E-004 +1.7077146559E+002  +1.3369340058E-003 -3.9932402247E+001  +2.5125023775E-001 -1.6118291592E+002 
885016.270 +1.1569265312E-001 +1.7152231348E+002  +1.6772318945E-003 +1.7063492726E+002  +8.4432127121E-004 -2.5461120296E+001  +2.4451130778E-001 -1.6492879438E+002 
1010161.452 +1.1554711802E-001 +1.7203462994E+002  +1.1077631961E-003 +8.6308292291E+001  +1.4981925304E-003 -1.2805728356E+002  +1.8587093308E-001 +1.7381448994E+002 
1135306.633 +1.1774474399E-001 +1.6899410248E+002  +8.7981349017E-004 -8.8318640222E+001  +4.3892621641E-003 +1.4929823635E+002  +1.6178597373E-001 -1.7841713555E+002 
1260451.815 +1.1429860416E-001 +1.7156942886E+002  +8.7561803282E-004 +1.5572555373E+002  +6.1302763265E-004 +3.7013839391E+001  +2.4750675213E-001 -1.5756827225E+002 
1385596.996 +1.2518892490E-001 +1.7181496923E+002  +1.2573705447E-003 -9.9023801877E+001  +8.6659212832E-004 +2.4766656251E+001  +2.4417738943E-001 -1.5968322338E+002 
1510742.178 +1.2783871624E-001 +1.7217142583E+002  +5.5769330190E-004 +1.7979392461E+002  +1.0344924139E-003 -4.3510056239E+000  +2.4804427899E-001 -1.5718401572E+002 
1635887.359 +1.2509279639E-001 +1.6957576780E+002  +2.7585484431E-003 +9.4549487805E+001  +9.8658182892E-004 +7.7674727791E+001  +2.2422003063E-001 -1.5307860925E+002 
1761032.541 +1.2944389076E-001 +1.6860909807E+002  +3.5231046337E-004 +6.8276634920E+001  +8.7697803704E-004 -1.4172579918E+002  +2.0702079324E-001 -1.6069180626E+002 
1886177.722 +1.3197814935E-001 +1.6657988168E+002  +4.8663317332E-004 +1.6073126883E+002  +7.1323441270E-004 -1.2631593589E+002  +2.2349110419E-001 -1.6554492557E+002 
2011322.904 +1.3215931844E-001 +1.6428488266E+002  +1.2933645878E-003 -1.6026861832E+002  +1.6418102663E-003 -1.6199329406E+001  +1.8001901575E-001 -1.7778068383E+002 
2136468.085 +1.3689582540E-001 +1.6157466372E+002  +7.6807245748E-004 -1.7566188363E+002  +3.6919824058E-003 -1.3544449499E+002  +1.9164078537E-001 -1.7944406056E+002 
2261613.267 +1.1470651338E-001 +1.6099554471E+002  +6.0938240620E-003 +1.2966356079E+002  +6.5957534886E-004 -7.5060260792E+001  +1.7944394534E-001 +1.6355511938E+002 
2386758.448 +1.1891333623E-001 +1.6262795975E+002  +9.8980618689E-003 +1.6058251930E+002  +8.7187794870E-003 +9.9070777117E+000  +1.4289071604E-001 +1.0167151220E+002 
2511903.630 +1.2232372707E-001 +1.5683674947E+002  +5.2297374844E-003 +3.0243789877E+001  +8.0040672467E-004 -1.4024206433E+002  +2.7240264047E-001 +1.6124024215E+002 
2637048.811 +1.4315565250E-001 +1.5939345245E+002  +6.6777667157E-003 +5.3612290297E+001  +5.1198526921E-003 +1.4336159048E+002  +6.2640636508E-001 +1.7283018658E+002 
2762193.992 +1.0936745066E-001 +1.6701872467E+002  +1.3951357577E-002 +1.4300014851E+002  +1.2864667723E-002 -1.2373745981E+002  +7.6673412631E-001 +8.8819115484E+001 
2887339.174 +1.3281941899E-001 -1.7745215321E+002  +2.3562594076E-002 -3.5539886801E+001  +4.8989445111E-002 +1.6741068354E+002  +2.1414735705E+000 -9.8483314230E+001 
3012484.355 +1.2485967668E-001 -1.6418673528E+002  +1.5216074230E-002 -6.6423440497E+001  +2.0933573847E-002 -9.0972809859E+001  +3.9882308379E-001 -5.8021903589E+001 
3137629.537 +1.0475625719E-001 -1.6789623148E+002  +3.2287670265E-002 +1.0531229910E+002  +1.9360893453E-002 -1.4659211437E+002  +3.0615802008E-001 -1.3089085980E+001 
3262774.718 +1.3839277255E-001 +1.7087160928E+002  +5.3236330848E-003 +5.4195500803E+001  +7.0539412920E-003 +1.0431700230E+002  +1.9694027994E-001 -6.6138217129E+001 
3387919.900 +9.7234977501E-002 +1.6971295013E+002  +1.9250638114E-002 -1.1214201874E+002  +9.6536924590E-003 +1.2051582350E+002  +4.0453110529E-001 +4.7949238692E+001 
3513065.081 +1.5159779986E-001 +1.4444298536E+002  +4.8220591824E-002 +6.1350662967E+000  +1.8312036030E-002 -1.7522163354E+002  +8.4975131201E-001 +6.1431622997E+001 
3638210.263 +1.3728438777E-001 +1.3891044050E+002  +6.9284805936E-004 +2.6489896740E+001  +3.7909804938E-002 +1.6883719228E+002  +9.9005857682E-001 +9.7206228816E+001 
3763355.444 +1.6753387712E-001 +1.3403606203E+002  +3.8984717669E-002 +5.6468285581E+001  +3.4049228324E-002 +1.4347824956E+002  +1.5043487186E+000 +1.6648400468E+002 
3888500.626 +1.7091338872E-001 +1.3925930345E+002  +1.2052660650E-002 -1.5851484440E+002  +6.2082016306E-003 +1.7941940451E+002  +2.9312033166E-001 -7.8445168837E+001 
4013645.807 +1.7318451393E-001 +1.4776776636E+002  +4.8887976994E-003 -1.5208262202E+002  +1.1044039038E-002 +1.2815775875E+002  +7.1463713118E-001 +1.2259265847E+002 
4138790.989 +1.8175057989E-001 +1.3236762474E+002  +7.3984415782E-003 -1.1499061544E+002  +9.0156138259E-003 +9.9084146166E+001  +3.6298268510E-001 +1.2998078168E+002 
4263936.170 +1.9801258910E-001 +1.4179448060E+002  +4.7911224845E-003 +1.0574701433E+002  +6.4518938807E-003 -3.7003393069E+001  +1.1837941530E-001 +1.3713986454E+001 
4389081.352 +2.4134232523E-001 +1.2528757800E+002  +7.4814404701E-003 -1.2563987629E+001  +1.1683907494E-002 +8.3202279000E+001  +4.2926942400E-001 +1.1074972249E+002 
4514226.533 +2.4788941120E-001 +1.2688219403E+002  +2.5401903287E-002 -7.9727162877E+001  +2.4292694099E-002 +4.9193617093E+001  +1.4637557478E+000 +5.5592377438E+001 
4639371.715 +2.5101797612E-001 +1.2330403279E+002  +2.9275646691E-002 -9.6685160153E+001  +1.7267526360E-002 -8.6301101128E+001  +1.1780207373E+000 +8.3093074712E+001 
4764516.896 +3.8666070571E-001 +1.3595895159E+002  +6.8399822484E-002 -6.1087120517E+000  +6.8990298936E-002 +9.2014733395E+001  +4.2552822350E+000 -1.0510323613E+002 
4889662.078 +4.6506638783E-001 +1.2435985505E+002  +6.4255030303E-002 +9.8524872860E+001  +3.5298223312E-002 -6.6001726293E-001  +2.4284224783E+000 -1.0495566755E+002 
5014807.259 +4.5808858300E-001 +1.2497923730E+002  +8.2852701488E-002 -2.8093726777E+001  +8.3003464899E-002 -1.7543266373E+002  +4.7180608842E+000 -4.5185845140E+001 
5139952.441 +4.0301029326E-001 +1.2698994160E+002  +4.8358829904E-002 +1.7648075221E+002  +2.1797814414E-002 -9.2218125398E+001  +1.6264599828E+000 +7.4395174820E+001 
5265097.622 +3.7002262356E-001 +1.1495280766E+002  +3.1641967808E-002 -9.2542144455E+001  +2.3192051823E-002 +1.0794414761E+002  +2.6096522212E+000 +6.3708426182E+001 
5390242.804 +4.0633275073E-001 +1.3003798638E+002  +5.7787785045E-003 +9.2811385452E+001  +5.0307094346E-003 -6.0193646840E+000  +1.7700277891E+000 +1.2127159922E+002 
5515387.985 +4.6753084536E-001 +1.3633536250E+002  +2.8579907639E-002 +1.1765833396E+002  +1.8098925822E-002 -4.2178522318E+001  +2.0233110242E+000 +7.6091447215E+001 
5640533.166 +4.6264936384E-001 +1.2278084073E+002  +4.9040429799E-002 +1.5716559085E+002  +7.7086860902E-003 -6.3016028643E+001  +3.1044993045E+000 +7.6848509764E+001 
5765678.348 +4.8552510467E-001 +1.2677679379E+002  +4.1503087410E-002 -1.6388780802E+002  +1.2886879532E-002 +1.4426732826E+002  +3.4283458527E+000 +4.4738448244E+001 
5890823.529 +5.4238912306E-001 +1.2134690087E+002  +1.6716647177E-002 +1.4139713059E+002  +1.8790196967E-002 -8.1206233619E+001  +1.6944851057E+000 +4.6512165804E+001 
6015968.711 +7.5483972082E-001 +1.1461716879E+002  +6.0963720746E-002 +1.6243144478E+002  +2.2137540343E-002 +2.9555176023E+001  +2.9660659321E+000 +5.9561039945E+001 
6141113.892 +7.0033253389E-001 +1.0488543893E+002  +1.0995613553E-002 -4.2474465479E+001  +1.1072261658E-002 +5.3145476008E+001  +2.9289608861E+000 +2.0771335018E+001 
6266259.074 +8.3494328726E-001 +9.9997067489E+001  +3.0690563716E-002 -1.5021639554E+002  +2.3891384639E-002 +1.3590580164E+002  +1.9259423998E+000 +4.2567845208E+001 
6391404.255 +9.8645288687E-001 +1.0342417559E+002  +3.7565553656E-002 +1.1085017473E+002  +2.9656472036E-002 +3.3734939821E+001  +1.9155852356E+000 +1.2371112910E+001 
6516549.437 +1.1724516244E+000 +9.6362738220E+001  +2.7293563329E-002 +1.3090783330E+002  +1.5194961934E-002 +1.5350118628E+002  +1.5336357638E+000 +9.5038997305E+000 
6641694.618 +1.9220662664E+000 +6.9866492552E+001  +2.7098100453E-002 -1.4850191300E+002  +2.3158650373E-002 +5.1785832977E+001  +1.3065758993E+000 +7.7846587859E+000 
6766839.800 +1.6676444316E+000 +6.4747581797E+001  +2.6575901534E-002 +9.6132836656E+001  +1.2030576913E-002 +6.9309202393E+001  +1.3493918579E+000 +2.3780447519E+000 
6891984.981 +1.5366496482E+000 +3.8749141743E+001  +2.2978068029E-002 +2.9740817919E+001  +5.8646397941E-003 +1.1247226427E+002  +1.2084418923E+000 -4.8136875099E+000 
7017130.163 +1.6675322476E+000 +2.3702899702E+001  +1.7863078851E-002 +6.5172524303E+001  +1.0161889647E-002 +1.6217054304E+001  +1.2635659287E+000 -1.1292526639E+001 
7142275.344 +1.4887409300E+000 +1.3476235106E+001  +6.2140454076E-003 +8.1520345561E+001  +9.2820173392E-003 -4.5246884048E+000  +1.2101426327E+000 -1.4396501982E+001 
7267420.526 +1.5402924037E+000 -7.8119125704E+000  +1.4365518990E-002 +9.3675471142E+001  +1.6580884515E-002 -1.1904069176E+002  +1.4311312155E+000 -1.3566429434E+001 
7392565.707 +1.4336294634E+000 -5.0636850796E+000  +8.3046071681E-003 -3.2628729937E+001  +6.0011887637E-003 +1.5488178140E+002  +1.3517239582E+000 -5.5587605895E+000 
7517710.889 +1.1424203675E+000 -1.1536725979E+000  +9.1528579706E-003 +8.4647709362E+001  +9.8319097636E-003 +7.6928459600E+001  +1.2026974511E+000 -7.3268049721E+000 
7642856.070 +9.7656894243E-001 -3.7964685535E+000  +6.7317019482E-003 +3.6357892665E+000  +1.3753144325E-002 +9.7296727823E+001  +1.1061669184E+000 -1.1514979358E+001 
7768001.252 +9.6736768951E-001 +5.4776128669E-001  +4.3792771829E-003 +1.3761969846E+002  +9.4372163822E-003 +5.4788331796E+001  +9.3482651413E-001 +5.4493424767E-001 
7893146.433 +9.5039980989E-001 +3.3574944110E+000  +3.0707461652E-003 +5.9355078505E+001  +3.9086755542E-003 +1.3747004178E+002  +9.8034760588E-001 -5.2404763274E+000 
8018291.615 +8.0871442168E-001 +2.1979972057E+000  +6.3177211375E-003 +3.0603581026E+001  +6.7800088931E-003 +1.2186871959E+002  +8.8007165135E-001 -3.8322737616E+000 
8143436.796 +7.5088378797E-001 +1.0309392193E+001  +3.0771292307E-003 -1.3844189751E+002  +7.0309911037E-004 -1.0749870350E+002  +8.5727969845E-001 -5.8499789084E-001 
8268581.977 +7.1116529773E-001 +3.1010013468E+000  +2.2641163421E-003 +1.4457249274E+002  +2.4540617880E-003 +1.3201054795E+002  +8.0794193706E-001 +1.0865680556E+000 
8393727.159 +7.4587050280E-001 +1.1412393450E+001  +5.0483628472E-003 +7.5966475214E+001  +6.0636163183E-003 +4.3131567301E+001  +7.5085628211E-001 +3.5954397526E-001 
8518872.340 +7.2848925646E-001 +5.2621458376E+000  +1.0727588479E-003 +1.5005517185E+002  +4.0005029807E-003 +8.8551374031E+001  +7.6240603845E-001 -1.2421444618E+000 
8644017.522 +6.8048192553E-001 +4.6273912039E+000  +2.9802283408E-003 +1.4487830751E+001  +2.7786290396E-003 +1.4948106258E+002  +7.4853886210E-001 -4.0489854876E+000 
8769162.703 +6.1211340430E-001 +1.1154889715E+001  +2.7637858894E-003 +3.4473972631E+001  +5.0255010323E-004 +2.0113751048E+001  +5.9040311788E-001 -4.3279505866E+000 
8894307.885 +6.5113398573E-001 +9.0816508807E+000  +5.4061102148E-003 +1.1025608114E+002  +7.2267781590E-003 +8.5008310739E+001  +6.6591317614E-001 +2.6954987176E+000 
9019453.066 +6.1250703613E-001 +5.2687101463E+000  +3.8266245145E-003 +8.3778413188E+001  +3.7212122406E-003 +1.2196074729E+002  +6.7263435817E-001 -2.3387311305E+000 
9144598.248 +5.4523869778E-001 +4.3749626276E+000  +5.2934373414E-003 +4.0895344877E+001  +3.6419130059E-003 +1.1617897065E+002  +6.2165252699E-001 -1.8242079368E+000 
9269743.429 +5.7318400094E-001 +3.7180041554E+000  +6.1616201191E-003 +7.2110591792E+000  +5.8812980325E-003 +6.8497724589E+001  +5.9935207227E-001 -1.6790396597E-001 
9394888.611 +5.3688423990E-001 +1.8986032472E+000  +5.0100564735E-003 +1.0926360108E+002  +6.4155849798E-003 +8.6522465042E+001  +5.9143252462E-001 +1.1394768904E+000 
9520033.792 +5.7885482615E-001 -1.2119255616E+000  +3.4646324468E-003 +9.0443631868E+001  +7.0340676341E-003 +1.0210804781E+002  +6.3213804652E-001 -3.1970029411E+000 
9645178.974 +5.7717649993E-001 -1.1906617602E+000  +4.5646628200E-003 +7.6185515266E+001  +8.8466901209E-003 +1.0218253068E+002  +5.7378678710E-001 -5.6040373033E+000 
9770324.155 +5.5524463908E-001 +9.8846321475E-001  +4.8799881526E-003 +1.0458595414E+002  +1.8366836179E-003 +1.2407700020E+002  +5.8964883109E-001 -6.7935365238E+000 
9895469.337 +5.4543720899E-001 +1.3817441102E+000  +6.2677517199E-003 +1.2808782370E+002  +6.2802956193E-003 +1.2100458177E+002  +5.8943765879E-001 -5.2326429934E+000 
10020614.518 +5.4045148390E-001 +3.6192799770E+000  +3.5340685501E-003 +1.1927529703E+002  +3.5946575868E-003 +6.4409489257E+001  +5.9117199256E-001 -4.1722705501E+000 
10145759.700 +5.8592088083E-001 +1.7938108384E-001  +3.8643035808E-003 +1.1765750445E+002  +7.3767253729E-003 +9.6278745036E+001  +5.7410784330E-001 -7.2375227242E+000 
10270904.881 +5.4371417211E-001 +3.8920570412E+000  +5.7325142569E-003 +9.8882859788E+001  +5.2793443565E-003 +1.2955056585E+002  +5.6828368017E-001 -8.8489038205E-001 
10396050.063 +5.7916970532E-001 +1.8799891330E+000  +3.7697513732E-003 +5.6558729808E+001  +1.4644029896E-003 +9.6873812443E+001  +5.5564237659E-001 -1.9697226851E+000 
10521195.244 +5.5937813154E-001 +9.0420976179E+000  +4.9676928824E-003 +7.1078593915E+001  +1.9453031384E-003 +1.1723890874E+002  +5.6489085975E-001 -4.0291659490E+000 
10646340.426 +5.7714894312E-001 +3.5780123199E+000  +3.1988694678E-003 +8.1430697492E+001  +2.6579539347E-003 +7.2595606393E+001  +6.0626935602E-001 +1.3228618358E+000 
10771485.607 +5.6497200245E-001 +2.2133058966E+000  +5.1053836113E-003 +1.1013966390E+002  +6.3011452276E-003 +8.0752310674E+001  +6.2126626931E-001 +9.7412183490E-001 
10896630.788 +5.8325014378E-001 +2.2607902134E+000  +4.7163151357E-003 +7.7535317542E+001  +3.1863625037E-003 +1.2174070314E+002  +5.8928475842E-001 +1.3601621917E+000 
11021775.970 +5.7112532349E-001 +4.8853425780E+000  +5.2429898227E-003 +1.0567931042E+002  +4.5181470613E-003 +1.1023855376E+002  +5.9270588948E-001 +1.7177758537E+000 
11146921.151 +5.8059696666E-001 +5.9980072507E+000  +5.7902270775E-003 +7.0280800170E+001  +5.5768419536E-003 +9.8110398979E+001  +6.2521890185E-001 -5.2632136632E-001 
11272066.333 +6.0698006472E-001 +4.3096424447E+000  +5.3622625270E-003 +1.1490241565E+002  +6.6452371332E-003 +1.1067945013E+002  +6.3427792761E-001 +6.5990241873E-001 
11397211.514 +5.7349394885E-001 +6.2632302353E+000  +7.2761756583E-003 +9.2311146806E+001  +4.9422527493E-003 +1.1837206917E+002  +6.3880354796E-001 -1.3127939095E+000 
11522356.696 +6.2290284498E-001 +6.3474897934E+000  +3.7188724331E-003 +1.1943695645E+002  +5.3831318060E-003 +6.9536301289E+001  +6.5162417508E-001 +1.2054609637E+000 
11647501.877 +6.2667174964E-001 +8.7219583116E+000  +4.9182053846E-003 +1.0695838303E+002  +4.2499033141E-003 +1.1211158146E+002  +6.5091901665E-001 +2.8875853942E+000 
11772647.059 +6.5215560917E-001 +4.2238326107E+000  +4.4592022124E-003 +8.8718581769E+001  +3.7180598601E-003 +1.0089831439E+002  +6.7021199520E-001 -5.6999438490E-001 
11897792.240 +6.6142551659E-001 +6.4240005250E+000  +5.0683801531E-003 +8.9851615570E+001  +7.2113899694E-003 +9.9124015105E+001  +7.0110200341E-001 +3.6352314283E-001 
12022937.422 +6.4374210492E-001 +3.6979115131E+000  +5.8342695757E-003 +8.4682983637E+001  +6.2456373101E-003 +7.3918755174E+001  +6.9968772824E-001 +2.6351468415E+000 
12148082.603 +6.8264688862E-001 +4.2438463241E+000  +5.0334068982E-003 +1.0266607983E+002  +3.6949562665E-003 +5.9533504574E+001  +7.1365955510E-001 +3.2992860988E-001 
12273227.785 +7.0247438919E-001 +8.0822807159E-001  +6.2438493705E-003 +9.2071250823E+001  +4.1520714373E-003 +1.1742040395E+002  +7.2653158838E-001 +1.5158018121E+000 
12398372.966 +6.6318654378E-001 +3.2219883453E+000  +7.1173935858E-003 +9.1804454375E+001  +6.1520556140E-003 +1.0251133558E+002  +7.2533956228E-001 -6.9198421898E-001 
12523518.148 +7.1030045187E-001 +2.5151532710E+000  +5.1430915636E-003 +1.1295590242E+002  +6.9214590883E-003 +1.0891004219E+002  +7.5859418656E-001 -5.7032918249E-001 
12648663.329 +7.4702971330E-001 +1.9026691360E+000  +4.2478490014E-003 +9.7523863557E+001  +7.8040689760E-003 +9.2987938906E+001  +7.5033422277E-001 -4.9264160360E-001 
12773808.511 +7.3886011235E-001 +1.2510129121E+000  +6.7526717637E-003 +8.6973936746E+001  +5.4874893907E-003 +9.7716497384E+001  +7.5703686221E-001 -1.9152167038E-001 
12898953.692 +7.6536818139E-001 +3.8857426251E-001  +8.1336097396E-003 +8.8518347379E+001  +5.4606960382E-003 +7.3523747223E+001  +7.6683026457E-001 -3.1820408233E-002 
13024098.874 +7.9981305833E-001 -6.6853741486E-001  +6.4948833441E-003 +7.9306195762E+001  +4.9958028696E-003 +9.3643784668E+001  +8.0119254745E-001 -3.6611942412E-001 
13149244.055 +7.9866868987E-001 -1.4219245513E+000  +6.9526533357E-003 +1.0577667488E+002  +7.9097899247E-003 +9.0343084006E+001  +8.2454410007E-001 -2.1083213446E+000 
13274389.237 +8.0651788470E-001 -2.9218208150E-002  +5.9178016397E-003 +9.0091635363E+001  +4.1438780891E-003 +8.9152960602E+001  +8.5348651838E-001 -3.0983027378E+000 
13399534.418 +8.4005389477E-001 -2.3343513324E+000  +6.6695579289E-003 +9.2319761492E+001  +5.4664889085E-003 +1.0366029611E+002  +8.4678900328E-001 -2.7265582627E+000 
13524679.599 +8.7364325442E-001 -8.0803721013E-001  +6.9343931027E-003 +9.0286981322E+001  +5.4064543845E-003 +1.1793851894E+002  +8.6392934228E-001 -9.7375010815E-001 
13649824.781 +8.5298877686E-001 -1.3560558454E+000  +5.7156659078E-003 +8.3549251103E+001  +6.2355654951E-003 +9.4244903701E+001  +8.9570463224E-001 -2.1967811322E+000 
13774969.962 +8.9463759488E-001 -1.2152747251E+000  +7.5679615186E-003 +8.5956550652E+001  +7.4463664858E-003 +8.1662686548E+001  +9.0222844232E-001 -3.6085668530E+000 
13900115.144 +9.0567535060E-001 -1.7873881331E+000  +6.5541151788E-003 +9.6717564201E+001  +6.7680962336E-003 +9.7605433233E+001  +9.1157825892E-001 -3.2470891122E+000 
14025260.325 +9.3011331222E-001 -3.1231410757E+000  +7.1269148231E-003 +8.9953486746E+001  +5.2060907672E-003 +9.0127756173E+001  +9.2468198188E-001 -3.5217339710E+000 
14150405.507 +9.3113981278E-001 -4.2811313280E+000  +6.4887125541E-003 +8.9219426248E+001  +6.8252380552E-003 +8.9676159525E+001  +9.4901426051E-001 -4.0676021591E+000 
14275550.688 +9.4655898488E-001 -5.0664545298E+000  +7.4215954846E-003 +9.2234795295E+001  +6.4939924717E-003 +8.0151050143E+001  +9.7400216641E-001 -4.6879653358E+000 
14400695.870 +9.6980567138E-001 -5.0194583616E+000  +6.6197862036E-003 +8.7520107903E+001  +6.8498137351E-003 +8.3158297060E+001  +9.8362689612E-001 -5.4424864178E+000 
