!  2-Port S-parameters saved by WinCal
! VAR MeasName=S-Parameters (CALIBRATED_DATA) read from VNA (P5004A)
! VAR MeasDate=28/08/2024 16:43:35
! VAR NAME=S2_r8c9_SET3_9k-100M_2
! VAR FILENAME=S2_r8c9_SET3_9k-100M_2.S2P
! VAR DATE=28/08/2024 16:43:35
! VAR PHYS_PORTS=1,2
! VAR ObjTypeName=DATASET
! VAR IndexType=Frequency
!
# Hz S MA R 50
9000.000 +1.1593307602E-001 -1.4573903599E+002  +5.4737860831E-003 +5.2877175268E+000  +1.9921665917E-002 -1.5669884344E+002  +2.9650207842E-001 -1.4226848326E+002 
134145.181 +1.1146685484E-001 +1.7005326060E+002  +2.6165060253E-004 -1.7573208721E+002  +9.8360821367E-004 -1.6182629866E+002  +2.3669400629E-001 -1.7133872401E+002 
259290.363 +1.1218368608E-001 +1.6991345706E+002  +1.0183765957E-003 -8.4927599553E+001  +9.9768280426E-004 +1.4081395401E+002  +2.3517463631E-001 -1.6826459187E+002 
384435.544 +1.1426321525E-001 +1.7077605632E+002  +3.8040012308E-004 -1.7564936244E+001  +5.7705286968E-004 +1.3864021963E+002  +2.3878614772E-001 -1.6933725099E+002 
509580.726 +1.1464647024E-001 +1.7021559892E+002  +1.1736288338E-003 +1.6287941104E+002  +2.9046440638E-004 +2.1420203762E+001  +2.4464127252E-001 -1.6648972827E+002 
634725.907 +1.1899422363E-001 +1.7125791643E+002  +1.7630547818E-004 -5.2601145906E+001  +5.7748214389E-004 -1.7479767292E+002  +2.4463167592E-001 -1.6715456961E+002 
759871.089 +1.1996482424E-001 +1.7156126957E+002  +5.6895730297E-004 -9.0606174891E+001  +4.7367923356E-004 +2.4889043699E+001  +2.4805528054E-001 -1.6501959749E+002 
885016.270 +1.2067961182E-001 +1.6912943894E+002  +1.2626254874E-004 -3.9364682760E+001  +1.8874344879E-004 +7.0934683420E+001  +2.4445929895E-001 -1.6730339053E+002 
1010161.452 +1.1927308574E-001 +1.7096372663E+002  +6.0020935734E-004 -8.6978665148E+001  +4.0501820200E-004 +1.3896199305E+002  +2.0207529890E-001 -1.7284392739E+002 
1135306.633 +1.1388962695E-001 +1.6985648017E+002  +2.0902008901E-003 -1.0312587434E+002  +3.1524477928E-003 -1.3214804791E+002  +2.0736729483E-001 -1.5400340055E+002 
1260451.815 +1.2117253337E-001 +1.7034278018E+002  +1.2623167515E-003 -1.5856526382E+002  +4.6114247097E-004 -1.6568112451E+002  +2.3425503567E-001 -1.5850192441E+002 
1385596.996 +1.2455729596E-001 +1.7191799986E+002  +3.3381564030E-004 +1.7956533026E+002  +1.7286090031E-003 +4.9123109016E+001  +2.8245737951E-001 -1.5819073492E+002 
1510742.178 +1.2864179984E-001 +1.7220263579E+002  +5.3787993148E-004 -1.0042462017E+002  +1.0613930768E-004 -1.5057315002E+002  +2.6716800298E-001 -1.6065660292E+002 
1635887.359 +1.2918398072E-001 +1.7123799194E+002  +1.7003620041E-003 +3.0374139343E+001  +8.8602563633E-004 -1.6309939994E+002  +2.3341058305E-001 -1.5442352119E+002 
1761032.541 +1.2934876753E-001 +1.7060642045E+002  +2.1064552666E-003 +1.3779749010E+001  +1.0871881460E-003 -1.1753973250E+002  +2.2715253685E-001 -1.6159348477E+002 
1886177.722 +1.3089109012E-001 +1.6919059068E+002  +5.1327173816E-004 +5.7865872442E+001  +1.5220431827E-003 -1.0300917582E+002  +2.1968384970E-001 -1.6181044409E+002 
2011322.904 +1.2741315434E-001 +1.6832300060E+002  +6.0408988973E-003 +3.3110375447E+001  +4.7214213037E-003 -7.3394179086E+001  +1.7586513918E-001 -1.6052926375E+002 
2136468.085 +1.3067164453E-001 +1.6676416576E+002  +3.7839166639E-003 +1.5708806248E+001  +2.7573353771E-003 -8.1684808272E+001  +2.1805231692E-001 -1.6288743797E+002 
2261613.267 +1.3070822171E-001 +1.6783002709E+002  +8.7697596796E-003 +3.8721876023E+001  +1.1068020775E-002 -6.2556400750E+001  +1.2281555075E-001 -1.7077589831E+002 
2386758.448 +1.3801455120E-001 +1.6274663163E+002  +5.4393253097E-003 +8.1328751295E+001  +7.6986266928E-003 -4.5706231163E+001  +1.7321312154E-001 -1.7927413080E+002 
2511903.630 +1.3697584834E-001 +1.6431776542E+002  +1.1723367086E-002 +8.8845678555E+001  +1.3113248516E-002 -6.4696483477E+001  +6.4307737370E-002 +1.4444305892E+002 
2637048.811 +1.3712061519E-001 +1.6514155842E+002  +1.5112530987E-002 +5.4715766231E+001  +1.2824421046E-002 -6.7139392337E+001  +1.5982815855E-001 +1.7592703933E+002 
2762193.992 +1.1113300167E-001 +1.7055963135E+002  +3.1341600866E-002 -1.1502391127E+001  +2.4411876690E-002 -1.1536482795E+002  +4.6735861131E-002 -2.2030917878E+001 
2887339.174 +1.1358652413E-001 -1.7729466123E+002  +4.9977125834E-002 +3.4192265035E+000  +2.4624515304E-002 -7.5098407230E+001  +1.5247159585E-001 +5.1483724261E+001 
3012484.355 +1.3592909650E-001 +1.6899692096E+002  +1.8720326680E-002 -1.4301741030E+000  +1.9718016509E-002 -7.9625708006E+001  +3.8800260488E-002 -2.8494967708E+001 
3137629.537 +1.1752147663E-001 +1.7205661934E+002  +2.3515921030E-002 -3.2959019532E+001  +2.5435767447E-002 -1.0720234579E+002  +1.5946221137E-001 -9.9071141741E+001 
3262774.718 +1.3184769755E-001 +1.6363250292E+002  +3.2714543092E-002 +1.7303307093E+001  +3.5401911110E-002 -6.2853008771E+001  +1.5458792518E-001 +3.3153807599E+001 
3387919.900 +1.4221831919E-001 +1.6091803880E+002  +2.1615230248E-002 +2.5876181998E+001  +1.9126797028E-002 -8.9483045345E+001  +4.1055747950E-002 -7.4927254112E+001 
3513065.081 +1.4295887068E-001 +1.5957262335E+002  +5.8358724942E-002 +2.2034418807E+001  +5.9050034290E-002 -6.8379199806E+001  +6.2775504354E-001 +1.8987506851E+001 
3638210.263 +1.9854162071E-001 +1.4850509875E+002  +2.2069800324E-002 +1.1255465515E+002  +1.5159336994E-002 +7.1731686807E+001  +4.3848884046E-001 +1.4870187969E+002 
3763355.444 +1.6728548229E-001 +1.5324813986E+002  +4.4754208408E-002 +1.0460568835E+002  +3.7247904760E-002 +3.6273813928E+001  +5.8346284390E-001 +1.2854106094E+002 
3888500.626 +1.7892483051E-001 +1.4500830543E+002  +7.3190783971E-002 +8.3158433253E+001  +5.6424726822E-002 +2.3883165589E+001  +5.8280410539E-001 +9.2418059414E+001 
4013645.807 +1.7361355402E-001 +1.5475878051E+002  +1.7616777084E-002 +5.5849884584E+001  +3.4474344138E-002 +1.6662532384E+001  +3.6695413429E-001 +1.3059880006E+002 
4138790.989 +1.9771304703E-001 +1.4880223503E+002  +3.2349001390E-002 +1.0183931200E+002  +3.0247229161E-002 +3.9402103329E+001  +4.8721339216E-001 +1.3124305201E+002 
4263936.170 +1.7134549367E-001 +1.4852982404E+002  +4.2805473712E-002 +7.0854565377E+001  +4.2350504435E-002 +1.7625048796E+001  +4.7534606559E-001 +1.2215586051E+002 
4389081.352 +2.5931187259E-001 +1.2808827954E+002  +1.3144688857E-001 +1.0601747659E+002  +1.0998101402E-001 +5.9685019540E+001  +9.7414346517E-001 +9.3345181511E+001 
4514226.533 +2.1328590873E-001 +1.3371153402E+002  +6.1256695895E-002 +1.0452827643E+002  +6.3905696767E-002 +4.7389022812E+001  +6.3116743507E-001 +1.2529915357E+002 
4639371.715 +2.7585751141E-001 +1.3516246654E+002  +1.3203564148E-001 +1.1255909276E+002  +1.1896938222E-001 +5.9947061744E+001  +1.4856722860E+000 +9.2618673986E+001 
4764516.896 +3.3682127757E-001 +1.3249570308E+002  +1.6416491013E-001 +6.9485672990E+000  +1.8626111345E-001 -5.1650434834E+001  +2.0895725188E+000 -7.2621551145E+001 
4889662.078 +4.7052518968E-001 +1.1848856804E+002  +1.8867587233E-001 +1.1752720748E+002  +2.2061252405E-001 +5.3927363434E+001  +1.2121327695E+000 +7.9851329393E+001 
5014807.259 +3.3323137080E-001 +9.2275815855E+001  +2.0707314683E+000 -2.4747399858E+000  +1.9295014404E+000 -4.0302106290E+001  +1.9510471816E+001 -4.1548604856E+001 
5139952.441 +3.9252823880E-001 +1.2158234836E+002  +2.6645882408E-001 +1.3117138673E+002  +2.8174827841E-001 +9.1546022793E+001  +3.1999186415E+000 +1.0761909652E+002 
5265097.622 +4.4441281923E-001 +1.3216317720E+002  +2.1954245660E-001 +1.1937400108E+002  +2.0723217434E-001 +7.9267873645E+001  +2.2354440181E+000 +8.4543658933E+001 
5390242.804 +4.0051362798E-001 +1.3277224535E+002  +1.3328088210E-001 +1.6085843202E+002  +1.9259042571E-001 +1.1975691414E+002  +2.7365161650E+000 +1.4506663815E+002 
5515387.985 +4.5021444751E-001 +1.3487240976E+002  +1.1776622582E-001 +1.3890888105E+002  +1.1482899900E-001 +9.9230557662E+001  +1.9268407472E+000 +1.2184715426E+002 
5640533.166 +4.5309141556E-001 +1.2769732204E+002  +1.4770007491E-001 +1.0034957100E+002  +1.2994366109E-001 +7.3082528908E+001  +1.5872754287E+000 +9.3608637308E+001 
5765678.348 +4.8573255975E-001 +1.2164829517E+002  +1.8111464472E-001 +8.4818476061E+001  +2.0441034982E-001 +4.2544775480E+001  +2.5170117964E+000 +5.9677965167E+001 
5890823.529 +5.4373972744E-001 +1.1808708802E+002  +1.3615753113E-001 +8.3378991233E+001  +1.3317812724E-001 +6.5442713835E+001  +1.5626504177E+000 +8.3128119387E+001 
6015968.711 +5.9395831497E-001 +1.1106061309E+002  +1.5686849061E-001 +5.4609074248E+001  +1.7414484321E-001 +3.1771576365E+001  +1.3860498863E+000 +2.5972024567E+001 
6141113.892 +6.9391552385E-001 +1.0408495215E+002  +1.7302257841E-001 +6.0759682498E+001  +1.5158604061E-001 +2.9892017911E+001  +1.0923531893E+000 +3.8321353954E+001 
6266259.074 +7.9905625111E-001 +1.0923978381E+002  +1.8595607517E-001 +6.3148285631E+001  +1.6469244337E-001 +5.2139065006E+001  +1.7864249930E+000 +3.9646540322E+001 
6391404.255 +8.4691900018E-001 +1.0073342114E+002  +1.5854585934E-001 +4.1904670041E+001  +1.5946813239E-001 +3.7898056744E+001  +1.3906309345E+000 +2.0880135499E+001 
6516549.437 +1.1066365903E+000 +8.5133830090E+001  +1.7532151854E-001 +4.2218934593E+001  +1.7973637751E-001 +2.3967415710E+001  +1.1170432806E+000 +6.2641087940E+000 
6641694.618 +1.1307435743E+000 +7.4306447854E+001  +2.0561351177E-001 +2.5630210266E+001  +1.9038696814E-001 +1.5111854975E+001  +1.4209635082E+000 +4.2624800239E-001 
6766839.800 +1.4925031210E+000 +3.8118805126E+001  +2.3473779887E-001 +9.0355869904E+000  +2.3338788816E-001 +6.5743047219E-001  +1.2750466799E+000 +3.6069828512E+000 
6891984.981 +1.2205880057E+000 +2.7631686948E+001  +1.9293822163E-001 +2.3682358912E+000  +1.9541833102E-001 -3.7052761287E+000  +1.3793624741E+000 -3.7630626057E+000 
7017130.163 +1.2566317364E+000 +1.7878531816E+001  +1.5746758216E-001 -4.6205367179E+000  +1.7020298071E-001 -2.1986433937E+000  +1.2513954950E+000 -5.7194358440E+000 
7142275.344 +1.1750691840E+000 +8.0981850252E+000  +1.4624474274E-001 -7.4660070939E+000  +1.4650596192E-001 -2.2930321415E+000  +1.2451355390E+000 -1.5818838667E+001 
7267420.526 +1.3921310762E+000 +2.0202728035E+000  +1.3070546336E-001 +2.7237059889E+000  +1.2237092071E-001 -3.1161310680E+000  +1.2258137073E+000 -1.8412675700E+001 
7392565.707 +1.2990720344E+000 -4.9878682626E+000  +1.0573814549E-001 +4.4932364160E+000  +1.1385043162E-001 +9.5383398460E+000  +1.3507007498E+000 -6.4004776171E+000 
7517710.889 +9.9413826994E-001 +5.4891749386E+000  +1.0376876299E-001 +4.6927872975E+000  +9.6974747935E-002 +9.7818403572E+000  +1.0706938001E+000 -8.5596151823E+000 
7642856.070 +9.7083712217E-001 +1.1608779656E+000  +8.5992846127E-002 +2.9924824516E+000  +8.3626431240E-002 +4.0623128169E+000  +1.0162337468E+000 -6.7032127576E+000 
7768001.252 +7.9647623000E-001 +5.9942846086E+000  +8.1950312689E-002 +4.3362893044E+000  +8.9652718093E-002 +9.9473538866E+000  +8.7857911225E-001 -5.1102393999E+000 
7893146.433 +6.8451689104E-001 +3.1073199002E+000  +8.0098662757E-002 -1.5923486976E+000  +8.4689373241E-002 +6.3116822894E+000  +8.4153191294E-001 +2.1589283086E+000 
8018291.615 +7.5354526273E-001 +7.3473207461E+000  +8.4601197565E-002 -6.0092566090E-001  +8.0816968236E-002 +8.9206555482E+000  +6.9669655240E-001 +6.9566116576E-001 
8143436.796 +6.2484653710E-001 +2.1818916181E+000  +8.0392878779E-002 -1.4977715277E+000  +7.8458183320E-002 +8.1125574685E+000  +6.4352327628E-001 +3.2623017361E-001 
8268581.977 +6.8482554563E-001 +9.8116434015E+000  +7.3358992676E-002 +1.3468723380E+000  +7.8553960209E-002 +7.9900783448E+000  +6.6159427173E-001 +1.5874518554E+000 
8393727.159 +6.2618334333E-001 +1.1152685371E+001  +7.4057610311E-002 +9.1092224992E-001  +7.7148578351E-002 +1.5524329142E+001  +7.0088540261E-001 +1.2094712487E+000 
8518872.340 +6.0096637504E-001 +8.6297205127E+000  +7.4574083385E-002 -1.2557477492E-001  +7.5193829799E-002 +9.1121171481E+000  +5.6075403824E-001 +5.4585778214E+000 
8644017.522 +4.7892380483E-001 +1.3493804140E+001  +7.4836320939E-002 -5.6823478985E-001  +6.7837117633E-002 +8.2158222245E+000  +6.4606681062E-001 -2.4054986154E+000 
8769162.703 +5.7512923956E-001 +1.0607470633E+001  +6.8995287710E-002 -1.1781762336E+000  +6.9528446448E-002 +7.6978360455E+000  +5.6624736788E-001 +3.2953414780E+000 
8894307.885 +5.4026652964E-001 +1.7798935452E+000  +7.2852485416E-002 -2.7039978917E+000  +6.9140536001E-002 +1.0021606874E+001  +5.2224321279E-001 +2.9473679595E+000 
9019453.066 +5.4587127303E-001 +8.6489351155E+000  +6.8228527310E-002 -1.6709313686E+000  +6.9772462797E-002 +1.4635188512E+001  +5.3728520894E-001 +1.9948623470E+000 
9144598.248 +5.3557538494E-001 +7.3066073309E+000  +6.8591346894E-002 -2.5885361865E+000  +7.1339260061E-002 +1.3564229120E+001  +5.3879202217E-001 -4.0706521102E-001 
9269743.429 +5.1643915366E-001 +4.9500950363E+000  +7.1978373549E-002 -2.8802108630E+000  +7.3109254066E-002 +1.2021438603E+001  +5.3729408234E-001 +1.0061555053E+000 
9394888.611 +4.6995912688E-001 +8.8018860699E+000  +7.0134110603E-002 -3.2558354711E-001  +6.8907890247E-002 +1.3185605908E+001  +4.8550311920E-001 -6.0872441013E-001 
9520033.792 +4.5084512682E-001 +1.0826492660E+001  +6.8501127434E-002 +1.5107016607E+000  +6.9807710601E-002 +1.5658209780E+001  +5.3675699606E-001 +2.6156263150E+000 
9645178.974 +4.7909404107E-001 +3.1812741327E+000  +6.7146147133E-002 -3.7542254159E+000  +6.7468403541E-002 +1.3842074974E+001  +4.8042962198E-001 -1.7807250184E+000 
9770324.155 +4.8505998481E-001 -4.1981222698E+000  +7.1021886466E-002 -3.9651060448E+000  +7.2324990507E-002 +1.3779095765E+001  +5.2965456708E-001 -6.5756432152E+000 
9895469.337 +4.5139475124E-001 -5.4311964918E-001  +7.1634034435E-002 -2.4340197330E+000  +7.0533521625E-002 +1.2046824861E+001  +5.4023241430E-001 -6.3679829502E+000 
10020614.518 +4.6956071828E-001 +7.0387891639E+000  +6.9496829526E-002 -8.9679782900E-001  +6.8234012538E-002 +1.4159216131E+001  +4.9858090036E-001 -2.7074760394E+000 
10145759.700 +4.5715777477E-001 +4.5736351660E+000  +7.3154788341E-002 -6.0836703267E-001  +7.1106056879E-002 +1.7260373456E+001  +5.3973867545E-001 -1.0845848994E+000 
10270904.881 +4.7623476364E-001 +6.7041606419E+000  +7.0580314946E-002 -1.3167456018E+000  +7.1790020285E-002 +1.5550759987E+001  +5.1513036895E-001 -6.4018315789E-001 
10396050.063 +4.8176109837E-001 +8.5196174098E+000  +7.4377771827E-002 -2.3995811490E-001  +7.1441905671E-002 +1.3427777147E+001  +5.0917776954E-001 -3.3186189241E+000 
10521195.244 +4.9927772590E-001 +1.1487014971E+001  +7.2348530419E-002 +4.6396996298E-001  +7.1086171360E-002 +1.5392101040E+001  +5.1603878971E-001 -6.0973709898E-001 
10646340.426 +5.0315168085E-001 +6.5486453318E+000  +7.2771448041E-002 +3.8666893808E-001  +7.3867104069E-002 +1.4055422141E+001  +5.1435345201E-001 -9.0605591027E-001 
10771485.607 +5.1800734240E-001 +1.0240927292E+001  +7.1779549269E-002 +1.2927171746E+000  +7.2504020677E-002 +1.4222848262E+001  +5.2762460900E-001 -8.6260159120E-002 
10896630.788 +5.2138029169E-001 +7.3379428126E+000  +7.5014438892E-002 +2.7405901952E+000  +7.3915185831E-002 +1.5962601138E+001  +5.4807041753E-001 +2.5950597455E+000 
11021775.970 +5.1566364468E-001 +7.1369224017E+000  +7.4312354822E-002 +1.3169060357E+000  +7.4489382451E-002 +1.4375080568E+001  +5.2325937809E-001 +2.6536038832E+000 
11146921.151 +5.2571127256E-001 +7.8629206336E+000  +7.6074179279E-002 +2.8493692668E+000  +7.3730313127E-002 +1.7002350200E+001  +5.5035594268E-001 +3.8270115680E+000 
11272066.333 +5.2263051669E-001 +6.6681895882E+000  +7.5639747823E-002 +1.0420818408E+000  +7.4161471076E-002 +1.5501174602E+001  +5.3787551322E-001 +1.1515895029E+000 
11397211.514 +5.3391078744E-001 +7.6106560305E+000  +7.8681017829E-002 +3.7395205249E+000  +7.5883863866E-002 +1.4502264546E+001  +5.5991816972E-001 +2.8757739934E+000 
11522356.696 +5.7929172423E-001 +1.0516371471E+001  +7.8758691572E-002 +2.2308566772E+000  +7.7564897826E-002 +1.6276648170E+001  +5.7591065244E-001 +4.1740440032E+000 
11647501.877 +5.5801898442E-001 +8.7683838244E+000  +7.9572680568E-002 +4.1807526368E+000  +7.9037075770E-002 +1.5524439430E+001  +5.6198607985E-001 +2.4646355607E+000 
11772647.059 +5.7322542186E-001 +9.6994048745E+000  +8.0233887681E-002 +4.2544401875E+000  +7.7902701493E-002 +1.4810818201E+001  +5.8476870020E-001 +2.3325375921E+000 
11897792.240 +5.6515923872E-001 +5.8917525833E+000  +7.7820563945E-002 +4.3500649837E+000  +8.0420437907E-002 +1.4491409553E+001  +5.8757292462E-001 +7.5247044418E+000 
12022937.422 +6.0999419740E-001 +4.7630809781E+000  +8.0045420408E-002 +4.6733814229E+000  +7.8959820766E-002 +1.3863328697E+001  +6.0963580418E-001 +3.8008455304E+000 
12148082.603 +6.2799447136E-001 +5.5095375835E+000  +8.3591660691E-002 +5.4829504393E+000  +8.2040253441E-002 +1.2947773854E+001  +6.1572032302E-001 +2.6427807272E+000 
12273227.785 +6.1783186604E-001 +4.0454509314E+000  +8.2045948048E-002 +4.7371007207E+000  +8.0733205396E-002 +1.3535326110E+001  +6.1821556939E-001 +1.5881409124E+000 
12398372.966 +6.2690212419E-001 +2.6819474630E+000  +8.3090925529E-002 +3.9553295082E+000  +8.1326810387E-002 +1.2541325299E+001  +6.3697176806E-001 +2.7491160097E+000 
12523518.148 +6.5066694262E-001 +3.3518817720E+000  +8.4180241349E-002 +6.2824012409E+000  +8.4030962952E-002 +1.2899600586E+001  +6.5066857480E-001 +1.5839568433E+000 
12648663.329 +6.6073484977E-001 +1.8115425603E+000  +8.4761451979E-002 +5.9379067618E+000  +8.2517549225E-002 +1.2534293795E+001  +6.8329003491E-001 -2.2950491793E+000 
12773808.511 +6.6490407870E-001 +3.7880618008E+000  +8.7127027028E-002 +5.5618553824E+000  +8.3785179484E-002 +1.0829176850E+001  +6.8847016738E-001 +1.0032683201E-001 
12898953.692 +6.8296675254E-001 +9.9240040929E-001  +8.6980536303E-002 +5.8171992185E+000  +8.5797218167E-002 +1.2002589520E+001  +7.0307608273E-001 -2.1856444005E+000 
13024098.874 +7.0106173986E-001 +1.5127382114E+000  +8.7719460545E-002 +5.2595105696E+000  +8.9284187086E-002 +1.1744874044E+001  +7.1491686030E-001 -2.7495790669E+000 
13149244.055 +7.0610417333E-001 +1.4301498468E+000  +8.8968234574E-002 +6.2423866270E+000  +8.6455888549E-002 +1.1129088086E+001  +7.1811330477E-001 -1.1033977159E+000 
13274389.237 +7.3811057669E-001 +9.2695049727E-001  +8.8937681142E-002 +7.4819114048E+000  +8.8281000776E-002 +1.0752548079E+001  +7.5903265196E-001 -2.4288868224E+000 
13399534.418 +7.5237707808E-001 +5.2542096669E-001  +9.0234095598E-002 +7.3646764816E+000  +8.9458411223E-002 +1.0286884942E+001  +7.4768613038E-001 -1.1689739401E+000 
13524679.599 +7.7302062557E-001 -4.2986704160E-001  +9.2114125690E-002 +6.8738025609E+000  +8.9837803230E-002 +9.1812619963E+000  +7.7790036781E-001 -2.5760241433E+000 
13649824.781 +7.9264915013E-001 -1.5359371337E+000  +9.2107662155E-002 +7.5481861307E+000  +9.2504085497E-002 +7.3614879098E+000  +7.7451389726E-001 -4.6219996592E+000 
13774969.962 +7.9927287415E-001 -1.9381853955E+000  +9.3652773119E-002 +5.0382058925E+000  +9.0773786589E-002 +8.1289564387E+000  +7.9103120591E-001 -1.7554410873E+000 
13900115.144 +8.0760834496E-001 -3.6686423196E+000  +9.4168868869E-002 +6.6072980391E+000  +9.3837061909E-002 +7.4331246851E+000  +8.1778523322E-001 -5.5991725423E+000 
14025260.325 +8.5346304276E-001 -4.0176919400E+000  +9.4504464859E-002 +6.2555208151E+000  +9.1509097819E-002 +8.3714817325E+000  +8.4856448801E-001 -3.9254098840E+000 
14150405.507 +8.4552475403E-001 -3.7312459226E+000  +9.4740066384E-002 +5.5204805409E+000  +9.2170152709E-002 +6.6297458964E+000  +8.5289775339E-001 -4.6022462573E+000 
14275550.688 +8.4944654977E-001 -5.0333124310E+000  +9.4590035004E-002 +6.4215115964E+000  +9.5783487349E-002 +6.1724872088E+000  +8.8775094928E-001 -5.2995472916E+000 
14400695.870 +8.7433596159E-001 -4.7692484225E+000  +9.4494132068E-002 +5.1022553267E+000  +9.3252895931E-002 +6.5567282566E+000  +8.7026192496E-001 -4.6789866371E+000 
