!  2-Port S-parameters saved by WinCal
! VAR MeasName=S-Parameters (CALIBRATED_DATA) read from VNA (P5004A)
! VAR MeasDate=28/08/2024 11:51:59
! VAR NAME=S2_r6c9_SET3_9k-100M_3
! VAR FILENAME=S2_r6c9_SET3_9k-100M_3.S2P
! VAR DATE=28/08/2024 11:51:59
! VAR PHYS_PORTS=1,2
! VAR ObjTypeName=DATASET
! VAR IndexType=Frequency
!
# Hz S MA R 50
9000.000 +8.9422090243E-002 -1.7494484840E+002  +8.4874416292E-003 -5.1266750297E+001  +4.6483187825E-003 -1.0890564230E+002  +1.9578995866E-001 -1.4274207817E+002 
134145.181 +1.1152132325E-001 +1.6988320477E+002  +7.4250231760E-004 +6.3572533010E+000  +9.2884236667E-005 +1.7259501602E+002  +2.3697390650E-001 -1.7183831865E+002 
259290.363 +1.1184093971E-001 +1.6995618970E+002  +2.9731298257E-004 -3.7839785146E+001  +7.0296281819E-004 -1.1216786456E+002  +2.3829850534E-001 -1.6899359950E+002 
384435.544 +1.1475531694E-001 +1.7064418225E+002  +8.0215122864E-004 -1.4665049491E+002  +7.3875321953E-004 +1.1572071371E+002  +2.4341746742E-001 -1.6968294302E+002 
509580.726 +1.1324857322E-001 +1.7039090806E+002  +1.2965004421E-003 +4.8177513954E+001  +1.9246792779E-003 +1.0733661767E+002  +2.4368407179E-001 -1.6239385620E+002 
634725.907 +1.1591412523E-001 +1.7162382243E+002  +1.4579977986E-003 -9.5281613139E+001  +1.2326434230E-003 +1.2287248570E+002  +2.5006542051E-001 -1.6777460065E+002 
759871.089 +1.1901371443E-001 +1.7114839462E+002  +9.2701345647E-004 -7.8779472151E+001  +6.2835563295E-004 +8.5647868537E+001  +2.4503527392E-001 -1.6648838138E+002 
885016.270 +1.2052585877E-001 +1.6933446440E+002  +3.8124765832E-004 -1.1769604400E+002  +3.4976418701E-004 +5.8744422324E+001  +2.4359099771E-001 -1.6613672573E+002 
1010161.452 +1.1816528120E-001 +1.6942821259E+002  +5.3014314677E-004 +4.7793083003E+001  +7.5535578647E-004 +3.4113444118E+001  +2.1007558132E-001 -1.7035291788E+002 
1135306.633 +1.1914091299E-001 +1.6821676537E+002  +6.6949574641E-004 +8.0520321916E+001  +1.6422203157E-003 +1.3172778594E+002  +2.0400481153E-001 -1.6608409931E+002 
1260451.815 +1.2090548943E-001 +1.7091046199E+002  +2.3027396233E-003 -1.0282337503E+002  +1.8259712141E-003 -1.5109886830E+002  +2.1309264570E-001 -1.5802055527E+002 
1385596.996 +1.2273727771E-001 +1.7228853159E+002  +2.2687207864E-003 -1.7304041963E+002  +1.6879815377E-003 +1.3016910959E+002  +2.7004712155E-001 -1.5775473303E+002 
1510742.178 +1.3116230717E-001 +1.7217474002E+002  +5.7758949829E-005 +9.4718995821E+001  +5.9125642981E-004 +1.1897250341E+002  +2.4170806192E-001 -1.5953902212E+002 
1635887.359 +1.3001519983E-001 +1.7185802094E+002  +8.4612239630E-004 +1.6985393587E+002  +3.3361787944E-004 -1.7611724255E+002  +2.5965887264E-001 -1.5847955942E+002 
1761032.541 +1.2860070111E-001 +1.6984530699E+002  +5.2962341123E-004 +7.2544745370E+001  +2.3174773646E-003 +1.4604827556E+002  +2.2180893457E-001 -1.5903746002E+002 
1886177.722 +1.2856775444E-001 +1.6749297454E+002  +1.8465823922E-003 +1.5508707900E+001  +3.1969770543E-003 -5.6991514489E+001  +2.1706755037E-001 -1.6481318422E+002 
2011322.904 +1.3098164822E-001 +1.6756879578E+002  +5.0310391954E-003 +9.4255449331E+001  +4.8212015707E-003 -6.8256875357E+001  +1.2595605371E-001 -1.5709415260E+002 
2136468.085 +1.3218046788E-001 +1.6391406786E+002  +7.7317633198E-003 +6.1783220982E+001  +4.3868691229E-003 -5.2849338382E+001  +1.5273897976E-001 -1.6666049733E+002 
2261613.267 +1.3154263538E-001 +1.6634274397E+002  +4.9118031764E-003 +5.6551192467E+001  +5.4413063535E-003 -5.8309977800E+001  +1.9045824082E-001 -1.6754587315E+002 
2386758.448 +1.3651222582E-001 +1.6310064866E+002  +7.1626253559E-003 +5.1519469629E+001  +6.8364418548E-003 -5.2226057258E+001  +1.8016832243E-001 -1.5966672168E+002 
2511903.630 +1.3344409752E-001 +1.6467590574E+002  +1.9471091821E-002 +9.0905984072E+001  +2.3773488335E-002 -1.8878908430E+001  +1.0875935984E-001 +1.1892845207E+002 
2637048.811 +1.2030905614E-001 +1.6324959208E+002  +1.8763239945E-002 +7.8693856223E+001  +2.1740989221E-002 -4.4045753916E+001  +2.1081388244E-001 +1.6391998990E+002 
2762193.992 +1.2754428585E-001 +1.6980851715E+002  +6.9046192097E-002 +1.7731180477E+002  +6.0221594669E-002 +6.0836666149E+001  +1.2412719936E+000 -1.7185509314E+002 
2887339.174 +1.2777245418E-001 -1.7455435363E+002  +1.2730956356E-001 +1.3061575869E+001  +1.1542062462E-001 -7.8250634524E+001  +8.6721764312E-001 +5.5119360303E+001 
3012484.355 +1.2305538213E-001 +1.7617743383E+002  +3.1558905490E-002 -5.3378615070E+001  +2.1567227121E-002 -1.3485030578E+002  +2.7469320160E-001 -1.1169603049E+002 
3137629.537 +1.3240846304E-001 +1.7296862749E+002  +3.3033992430E-002 -1.0059384539E+001  +3.0560691278E-002 -9.4977030811E+001  +1.0035087443E-001 -7.9590561612E+001 
3262774.718 +1.2885858070E-001 +1.7805308149E+002  +5.5365011516E-002 -3.8942186921E+001  +5.6241018449E-002 -1.0792260858E+002  +2.8902535495E-001 -1.5361284610E+001 
3387919.900 +1.3825396528E-001 +1.5007613977E+002  +3.3673878914E-002 +3.8139256540E+001  +2.6710932159E-002 -5.8420395926E+001  +7.7469396359E-002 -1.7835131637E+002 
3513065.081 +1.6432651230E-001 +1.5373491685E+002  +3.7591552814E-002 +1.0792741878E+002  +3.5539325248E-002 +2.6295254997E+001  +4.1694111133E-001 +1.2742634319E+002 
3638210.263 +1.7383075441E-001 +1.5513274661E+002  +3.1047712681E-002 +8.1876005182E+001  +2.9913721836E-002 +4.7800101202E+000  +2.2491484201E-001 +1.3146493671E+002 
3763355.444 +1.9521725540E-001 +1.4895668283E+002  +2.6625251972E-002 +1.4125719238E+002  +2.8615985272E-002 +6.5045050583E+001  +4.8731425529E-001 +1.5759513160E+002 
3888500.626 +1.6149616460E-001 +1.3339157035E+002  +4.4302838276E-002 +1.2252683466E+002  +3.7363376181E-002 +4.4372362801E+001  +4.1483542247E-001 +1.4938809686E+002 
4013645.807 +1.7561984336E-001 +1.4993561170E+002  +2.5460766847E-002 +1.1134541345E+002  +2.9684240069E-002 +3.0895809724E+001  +3.9875695014E-001 +1.5313651801E+002 
4138790.989 +1.7551816687E-001 +1.5340572473E+002  +3.8330451254E-002 +9.8502697354E+001  +3.2417925534E-002 +2.9025727845E+001  +4.5393924083E-001 +1.3814166209E+002 
4263936.170 +1.7867919433E-001 +1.4215753676E+002  +4.7037967757E-002 +5.7289988297E+001  +5.5237773991E-002 -2.1361093535E-001  +2.4446895629E-001 +7.6575442372E+001 
4389081.352 +1.7032461676E-001 +1.4398008246E+002  +5.9985248503E-002 +6.9676200824E+001  +5.7331337577E-002 -4.8545350245E+000  +3.9611396333E-001 +1.0605499803E+002 
4514226.533 +2.4312585943E-001 +1.4020584119E+002  +6.5690082374E-002 +1.1806350439E+002  +6.8353498043E-002 +6.0465346501E+001  +6.5349446951E-001 +1.1934847264E+002 
4639371.715 +2.5142454449E-001 +1.3051579643E+002  +1.2928553856E-001 +9.2029362741E+001  +1.2391593658E-001 +3.7260191089E+001  +9.7240148146E-001 +8.4015042277E+001 
4764516.896 +2.8858217928E-001 +1.3590665324E+002  +1.9296851422E-001 +1.7628411093E+002  +2.0834898825E-001 +1.2371891485E+002  +2.5521931874E+000 +1.5922652595E+002 
4889662.078 +3.3051927858E-001 +1.0662652412E+002  +2.4300824829E-001 -1.9687715490E+001  +2.3331283010E-001 -6.3295606258E+001  +1.5266065800E+000 -6.8042019089E+001 
5014807.259 +3.5869277521E-001 +1.2133970704E+002  +3.5931289732E-001 +1.0462675660E+002  +3.2458231873E-001 +6.3182484256E+001  +2.5297597867E+000 +8.3645230860E+001 
5139952.441 +3.1795140356E-001 +1.2691028248E+002  +1.8282903733E-001 +1.3456452253E+002  +1.5514741538E-001 +8.8201538834E+001  +1.9283270106E+000 +1.2911108337E+002 
5265097.622 +3.2321768809E-001 +1.3544465524E+002  +1.1430730453E-001 +1.1454217079E+002  +1.1745945550E-001 +6.5093475049E+001  +1.5160362405E+000 +1.1228601279E+002 
5390242.804 +3.6454952359E-001 +1.2214517206E+002  +1.3283933080E-001 +1.0484078441E+002  +1.3839964403E-001 +6.7319976871E+001  +1.2638338261E+000 +1.1740710348E+002 
5515387.985 +3.7960801407E-001 +1.3812814449E+002  +9.8873021010E-002 +1.3723286213E+002  +8.4606887087E-002 +1.0277968307E+002  +1.6882965175E+000 +1.4243979779E+002 
5640533.166 +4.2836401403E-001 +1.2587598614E+002  +1.3210473630E-001 +1.2483823692E+002  +1.1880620694E-001 +9.1135645370E+001  +1.5020790216E+000 +1.3516824537E+002 
5765678.348 +4.9827507009E-001 +1.3067494951E+002  +1.7879353823E-001 +8.5348887320E+001  +1.7010361583E-001 +5.9858934384E+001  +2.0659024419E+000 +6.9819895987E+001 
5890823.529 +5.5889205577E-001 +1.1767122528E+002  +2.6312568830E-001 +7.8373880432E+001  +2.5583896972E-001 +5.6528555726E+001  +2.2585348448E+000 +6.3132507337E+001 
6015968.711 +4.8775686744E-001 +1.0338034254E+002  +2.0047662968E-001 +6.8077492293E+001  +2.0357473485E-001 +4.2567398452E+001  +1.5693995328E+000 +7.5899156406E+001 
6141113.892 +5.8850523950E-001 +1.0484969006E+002  +2.2516289727E-001 +5.0668500542E+001  +2.0953725416E-001 +3.4787238180E+001  +1.7210581126E+000 +4.5818398261E+001 
6266259.074 +7.2459998038E-001 +1.1353658750E+002  +2.1199119225E-001 +5.6942618714E+001  +2.2052595091E-001 +4.8384654784E+001  +1.8514415781E+000 +4.5510778744E+001 
6391404.255 +9.1579459657E-001 +8.7301959196E+001  +2.3456149409E-001 +5.1664208494E+001  +2.4444824515E-001 +3.9995883362E+001  +1.2884543684E+000 +5.2772748423E+001 
6516549.437 +8.9020042391E-001 +8.8945412537E+001  +2.2851836431E-001 +3.6539204478E+001  +2.2509144353E-001 +2.2090134657E+001  +1.3698859408E+000 +1.4486129786E+001 
6641694.618 +1.3256465242E+000 +5.0098683397E+001  +3.0890960654E-001 +2.6974551345E+001  +3.2740981007E-001 +8.8659788231E+000  +1.3286212341E+000 +1.7619804257E+001 
6766839.800 +1.3595889899E+000 +5.4177189492E+001  +2.7675367603E-001 +2.3920670248E+001  +2.4609210438E-001 +1.0960003813E+001  +1.2184213668E+000 +4.4386172786E+000 
6891984.981 +1.0703928135E+000 +2.7469230043E+001  +2.1490444701E-001 -2.6060246748E+000  +2.0917410454E-001 -4.2336207513E+000  +1.1035896046E+000 -5.7774391285E+000 
7017130.163 +1.1765492553E+000 +1.7590678660E+001  +2.1177881295E-001 +3.2914492398E+000  +2.0041780134E-001 -5.3068198380E+000  +1.2192192446E+000 -9.8987043607E-001 
7142275.344 +1.3935909312E+000 -1.1306324069E+000  +1.9367425041E-001 -5.5405612273E+000  +1.9982023984E-001 -7.4602662398E+000  +1.0199845759E+000 -2.2578687659E+000 
7267420.526 +1.1472616117E+000 -1.1584138462E+000  +1.6743151434E-001 -5.5740937846E-001  +1.4938052681E-001 -3.6008090214E+000  +1.1837012100E+000 -9.5838149209E+000 
7392565.707 +1.0953873662E+000 +4.7609373225E-001  +1.2799217472E-001 +7.5034159682E+000  +1.3404462118E-001 +5.1821207135E+000  +1.1975698199E+000 -2.2057973637E+000 
7517710.889 +1.0630344276E+000 -3.0844010700E+000  +1.1906126254E-001 +3.0075221213E-001  +1.1703298599E-001 +3.3521750549E+000  +1.0445825595E+000 -2.1318074902E+000 
7642856.070 +8.3815951220E-001 -4.5571151551E+000  +1.0987432859E-001 +4.2893995436E+000  +1.1911430017E-001 +3.9375846972E+000  +9.6110887131E-001 -5.0281603561E+000 
7768001.252 +8.3171402549E-001 +3.7373545349E-001  +1.1790838337E-001 +1.7417074305E+000  +1.0534620491E-001 +1.0382024497E+001  +8.3378987007E-001 -2.3381007259E+000 
7893146.433 +7.3863219272E-001 -9.5180183409E-001  +1.0598579975E-001 -4.2331535641E+000  +1.0357712608E-001 +4.5327467933E+000  +8.3771781578E-001 -4.2929802509E+000 
8018291.615 +6.6830287346E-001 +1.4573468611E+001  +1.0338442175E-001 -2.7359339452E-001  +9.1997085847E-002 +7.5238546043E+000  +6.9184611333E-001 +7.5009829031E-001 
8143436.796 +6.8844301531E-001 +5.3893504773E+000  +9.9996932273E-002 -2.8384324579E+000  +9.7376562748E-002 +8.6975945370E+000  +6.6974632266E-001 +5.1333464190E+000 
8268581.977 +6.4097097709E-001 +1.2873381239E+001  +9.7319389403E-002 -1.3799639675E+000  +9.7960553715E-002 +1.0942696948E+001  +6.4511550548E-001 +3.7111734305E+000 
8393727.159 +5.7627856336E-001 +6.3711734557E+000  +9.5087410136E-002 -1.6337746419E+000  +9.5161132296E-002 +9.7316912477E+000  +6.5113611329E-001 -5.9643208372E+000 
8518872.340 +5.2154506443E-001 +8.0489745343E+000  +8.9280882943E-002 +6.4158106925E-001  +9.2619031195E-002 +8.6459028422E+000  +5.7162021323E-001 +4.7996873342E+000 
8644017.522 +5.6217566621E-001 +1.0440671032E+001  +9.0420292086E-002 -1.2562018357E-001  +9.0616430625E-002 +1.0610533138E+001  +5.7364900708E-001 +8.3785257935E+000 
8769162.703 +4.6458909886E-001 +1.1555635231E+001  +8.7792346386E-002 -4.2182829949E+000  +8.9531719744E-002 +1.0010254813E+001  +6.0050057579E-001 +7.0276357601E+000 
8894307.885 +4.8846800932E-001 +8.5692438997E+000  +9.0617760224E-002 -4.3991380187E+000  +8.9543683038E-002 +1.1039450366E+001  +5.0944314725E-001 +3.1747868863E+000 
9019453.066 +5.6278923213E-001 +8.8932952354E+000  +9.1989564765E-002 -2.4292212690E+000  +8.9887326393E-002 +1.1716215903E+001  +4.6518609146E-001 -9.6809777129E-001 
9144598.248 +4.6749512713E-001 +8.3577527414E+000  +9.1778904038E-002 -3.6868459380E+000  +8.9853380387E-002 +1.0494319101E+001  +5.0755340514E-001 -3.9531550665E+000 
9269743.429 +4.3339310594E-001 -7.5946144690E-001  +9.2926735777E-002 -3.3256604208E+000  +9.2734419532E-002 +1.0902442753E+001  +5.2833370535E-001 -4.2642301840E+000 
9394888.611 +4.5255434829E-001 +2.9372943920E+000  +8.7726325263E-002 -4.4258601533E+000  +8.7932933654E-002 +1.3349719194E+001  +4.8754498003E-001 +6.4353485919E-001 
9520033.792 +4.2451325061E-001 +2.2808489715E+000  +8.7890918082E-002 -1.1794532902E+000  +9.0814718474E-002 +1.2672925763E+001  +5.0558632217E-001 -4.1222178298E+000 
9645178.974 +4.4911501696E-001 -4.8038613170E-002  +9.0622620654E-002 -2.4872908482E+000  +9.2230014426E-002 +1.1959622589E+001  +4.4355838833E-001 -3.9833367699E+000 
9770324.155 +4.4005046144E-001 -4.9079086977E+000  +9.2096049397E-002 -4.3025438805E+000  +9.0429826097E-002 +1.4223886514E+001  +5.1829447582E-001 +1.1871246354E+000 
9895469.337 +4.6633862734E-001 +2.0979654270E+000  +9.1785023691E-002 -3.3473217431E+000  +9.0272728853E-002 +1.1346191931E+001  +4.6964984265E-001 -7.8779851172E+000 
10020614.518 +4.4921898355E-001 -1.4512296455E+000  +9.8668038165E-002 +6.1822710150E-001  +8.7604872453E-002 +1.4340288357E+001  +5.3945901574E-001 +3.4326729158E-001 
10145759.700 +4.9039998769E-001 -1.9726800087E+000  +9.7259066165E-002 -1.2273438145E+000  +9.3108341868E-002 +1.4306944358E+001  +4.8217670144E-001 -3.9151171995E+000 
10270904.881 +4.4524968049E-001 +5.8638377998E+000  +9.2584778276E-002 -1.5278064761E+000  +9.3450729038E-002 +1.5000191945E+001  +4.8715878780E-001 -2.6086027922E-001 
10396050.063 +4.5566358303E-001 +8.7722322437E+000  +9.2672324454E-002 -1.7649468329E+000  +9.4559432964E-002 +1.4617013512E+001  +4.9300399333E-001 -3.3673359396E+000 
10521195.244 +4.5400894119E-001 +4.7816410849E+000  +9.0258784630E-002 -6.0169972724E-001  +9.2179622883E-002 +1.6817974694E+001  +4.9406895761E-001 +4.3744359352E+000 
10646340.426 +4.6760661698E-001 +5.6056488237E+000  +9.4445688585E-002 -7.5232138696E-001  +9.4238759356E-002 +1.5712604801E+001  +5.0341859531E-001 +3.6193377348E-001 
10771485.607 +5.0003527929E-001 +8.5681954001E+000  +9.5461977268E-002 +8.5414310707E-001  +9.2647703126E-002 +1.4212527377E+001  +4.9495579052E-001 +4.1286122458E+000 
10896630.788 +4.6976642254E-001 +5.9588086882E+000  +9.5085053281E-002 +2.4198168363E-001  +9.3401118389E-002 +1.4556134393E+001  +4.9046344996E-001 +2.9951018792E+000 
11021775.970 +4.9827710939E-001 +1.0860581559E+001  +9.4820776873E-002 +6.4852354280E-001  +9.4910391272E-002 +1.4695252700E+001  +5.1636091870E-001 -4.3932757117E-001 
11146921.151 +5.0487180250E-001 +7.1360375286E+000  +9.6788700659E-002 +1.4294091531E+000  +9.5350047417E-002 +1.3320708065E+001  +5.1604048672E-001 +6.9948044364E+000 
11272066.333 +5.0246631690E-001 +8.7266525851E+000  +9.8063510283E-002 +2.1253835032E+000  +9.7538386524E-002 +1.6433517062E+001  +5.5176277514E-001 +3.1513253486E+000 
11397211.514 +5.2434030560E-001 +8.3371509459E+000  +9.7986937598E-002 +6.0250276920E-001  +9.7037824430E-002 +1.3269554869E+001  +5.2090510761E-001 +4.0478273538E+000 
11522356.696 +5.1445489155E-001 +6.1185845857E+000  +1.0007872024E-001 +2.5157767086E+000  +9.6201504002E-002 +1.3234574173E+001  +5.6859057623E-001 +2.6736082707E+000 
11647501.877 +5.6554792934E-001 +6.3268731382E+000  +1.0283062853E-001 +3.9164727748E+000  +9.7612508646E-002 +1.4644043530E+001  +5.5063271547E-001 +4.1207442970E+000 
11772647.059 +5.1707520862E-001 +4.5275334437E+000  +1.0011957986E-001 +2.2096131078E+000  +9.8586690926E-002 +1.3854536302E+001  +5.5596039640E-001 +3.4583016155E+000 
11897792.240 +5.9981521778E-001 +2.8365175519E+000  +1.0458566169E-001 +3.9894454047E+000  +1.0176688205E-001 +1.3669350478E+001  +5.9986136515E-001 +1.3237015790E+000 
12022937.422 +5.4310732583E-001 +6.2902037428E+000  +1.0297163179E-001 +2.6162261805E+000  +1.0254186513E-001 +1.2601032298E+001  +5.7001803247E-001 +3.8744815483E-001 
12148082.603 +5.5846632893E-001 +5.5011395512E+000  +1.0458514843E-001 +4.6495365043E+000  +1.0425277078E-001 +1.2549588153E+001  +6.1086321591E-001 +4.0448768150E+000 
12273227.785 +5.8514537821E-001 +4.9269000151E+000  +1.0619438448E-001 +3.2318841253E+000  +1.0425927693E-001 +1.1014845963E+001  +5.6752540911E-001 +5.1949647154E-001 
12398372.966 +5.8472890290E-001 +1.0126290221E+000  +1.0849587839E-001 +3.4604035297E+000  +1.0680062406E-001 +1.1842201488E+001  +6.1701085714E-001 +5.0958853446E-001 
12523518.148 +6.1420871332E-001 +1.1683219854E+000  +1.0759578092E-001 +4.1677477435E+000  +1.0717254150E-001 +1.1677871725E+001  +6.4176382555E-001 +1.4167275378E+000 
12648663.329 +6.4550681495E-001 +4.5485565623E-001  +1.1064026039E-001 +4.9836415095E+000  +1.0750538904E-001 +1.2093643297E+001  +6.4665054016E-001 +2.9085705730E-001 
12773808.511 +6.3096090209E-001 +3.5265638168E+000  +1.0943797231E-001 +5.0488040629E+000  +1.0999342817E-001 +9.7945908618E+000  +6.6480867583E-001 +9.9306447401E-002 
12898953.692 +6.4045662942E-001 +1.5890514153E+000  +1.1164699682E-001 +4.4166506289E+000  +1.0944144227E-001 +9.8707563641E+000  +6.7025635656E-001 +4.0336918079E-001 
13024098.874 +6.5589926666E-001 +1.1884124012E-001  +1.1291031755E-001 +4.9998520593E+000  +1.1265315206E-001 +9.4038861767E+000  +6.7949448392E-001 -1.4207673729E+000 
13149244.055 +7.0830443742E-001 +1.7783511139E+000  +1.1352868110E-001 +4.9971568320E+000  +1.1183651412E-001 +1.0176778718E+001  +6.8563177890E-001 -1.1802525277E+000 
13274389.237 +7.2903383809E-001 -1.8797840534E+000  +1.1469869320E-001 +5.4737392390E+000  +1.1394210407E-001 +9.4471079428E+000  +7.1509972201E-001 -2.1150615417E+000 
13399534.418 +7.2622013114E-001 -2.4347113442E-001  +1.1564406822E-001 +4.8707709455E+000  +1.1581422086E-001 +8.7763271367E+000  +7.1929163176E-001 -2.4879199114E+000 
13524679.599 +7.4963373150E-001 -1.5218201775E+000  +1.1666721948E-001 +5.8642803054E+000  +1.1395344521E-001 +8.8073097600E+000  +7.4702530338E-001 -8.3090332127E-001 
13649824.781 +7.5712412621E-001 -1.9033176988E+000  +1.1697202672E-001 +5.3154109344E+000  +1.1528558008E-001 +8.1564901792E+000  +7.7633278584E-001 -1.6673828812E+000 
13774969.962 +7.6371658769E-001 -2.8071443912E+000  +1.1823120886E-001 +5.3202344804E+000  +1.1711808547E-001 +7.0040629977E+000  +7.6768213143E-001 -4.3046058872E+000 
13900115.144 +7.9117183078E-001 -3.3521192317E+000  +1.1781877198E-001 +5.0897511106E+000  +1.1834045123E-001 +6.6509478876E+000  +7.8421783738E-001 -3.0618399376E+000 
14025260.325 +7.9217390753E-001 -4.8762220189E+000  +1.2046170933E-001 +4.7548183493E+000  +1.1892606318E-001 +6.3807987086E+000  +8.1437196878E-001 -2.8332655500E+000 
14150405.507 +8.2872608972E-001 -4.8514989696E+000  +1.2257093906E-001 +4.7176896243E+000  +1.1831176559E-001 +5.3284608365E+000  +8.1887639953E-001 -4.3368468396E+000 
14275550.688 +8.4033816434E-001 -5.1027751044E+000  +1.2195203615E-001 +5.4294497467E+000  +1.2135742522E-001 +6.1177345236E+000  +8.5882024341E-001 -3.6419725749E+000 
14400695.870 +8.4358644427E-001 -4.2678676166E+000  +1.2165073808E-001 +4.0456312986E+000  +1.2126992087E-001 +4.8386322031E+000  +8.6843912996E-001 -5.1415130800E+000 
