!  2-Port S-parameters saved by WinCal
! VAR MeasName=S-Parameters (CALIBRATED_DATA) read from VNA (P5004A)
! VAR MeasDate=27/08/2024 12:36:23
! VAR NAME=S2_r5c9_pristine_9k-100M_1
! VAR FILENAME=S2_r5c9_pristine_9k-100M_1.S2P
! VAR DATE=27/08/2024 12:36:23
! VAR PHYS_PORTS=1,2
! VAR ObjTypeName=DATASET
! VAR IndexType=Frequency
!
# Hz S MA R 50
9000.000 +7.7752406857E-002 -1.3921271280E+002  +4.5982777596E-002 -1.3718224037E+002  +4.3507907254E-003 +1.1474508486E+002  +3.0064425415E-001 -8.2498764520E+001 
134145.181 +1.1069812045E-001 +1.7001277461E+002  +5.2183854753E-004 +1.6449070692E+002  +3.3308053268E-004 -1.4779707427E+002  +2.4087168055E-001 -1.7113623538E+002 
259290.363 +1.1133868548E-001 +1.7057185222E+002  +6.4522463914E-004 +1.5488958582E+002  +1.1815398925E-003 +6.7909324136E+001  +2.4023239396E-001 -1.6772812281E+002 
384435.544 +1.1378698653E-001 +1.6974931146E+002  +1.2981946487E-004 -7.7148781754E+000  +4.2897026626E-004 -1.6634952631E+002  +2.4277214913E-001 -1.6800671218E+002 
509580.726 +1.1398854296E-001 +1.7086335868E+002  +1.4608516702E-003 +8.5231174952E+001  +9.5075189672E-004 +3.0444383189E+001  +2.4246472982E-001 -1.6265549229E+002 
634725.907 +1.1671511747E-001 +1.7024595955E+002  +2.3242265986E-004 -1.3993102085E+002  +1.2724493233E-004 -1.3181507882E+002  +2.4486259295E-001 -1.6642093876E+002 
759871.089 +1.1669278165E-001 +1.6956767724E+002  +9.2310380952E-004 +1.1604462087E+002  +7.3387020252E-004 -8.5420396920E+001  +2.2495515613E-001 -1.6373568088E+002 
885016.270 +1.1717334352E-001 +1.6970472554E+002  +5.2152404256E-004 -1.0492385843E+002  +1.5879102855E-003 +7.5351367739E+001  +2.3656802663E-001 -1.6447285889E+002 
1010161.452 +1.1708060802E-001 +1.7018141016E+002  +7.1277272029E-003 +7.9060175620E+001  +5.9916303560E-003 +1.7611666513E+002  +1.1279611693E-001 -1.1404579975E+002 
1135306.633 +1.1275600832E-001 +1.7037595904E+002  +2.7661416629E-003 +1.4132542950E+002  +2.8463255139E-003 -6.5863781390E+001  +1.7976995746E-001 -1.5239909107E+002 
1260451.815 +1.2118464381E-001 +1.7093028475E+002  +1.6557544444E-003 +4.4716455481E+001  +1.2677565028E-003 -6.8650105558E+001  +2.4594543743E-001 -1.5556438553E+002 
1385596.996 +1.2522202330E-001 +1.7237838100E+002  +5.7637953109E-004 +1.2438256943E+002  +1.6995012986E-003 +8.0457152216E+001  +2.6191212174E-001 -1.5451353401E+002 
1510742.178 +1.2752054530E-001 +1.7069832964E+002  +1.8869609365E-004 -2.8453531164E+001  +7.1253315911E-004 -1.0052578109E+002  +2.5790237741E-001 -1.6211678846E+002 
1635887.359 +1.2624476598E-001 +1.7148022716E+002  +1.4301259752E-003 -5.7509339031E+001  +1.3709644829E-003 +4.5156139046E+000  +2.1334733640E-001 -1.5701757282E+002 
1761032.541 +1.2911998945E-001 +1.6788554770E+002  +1.7171392757E-004 -1.5041644503E+002  +7.3651272282E-004 -1.6375327945E+002  +2.2602532309E-001 -1.6464193344E+002 
1886177.722 +1.2139134503E-001 +1.6796007710E+002  +3.6439995718E-003 +7.8753807666E+001  +3.2226897550E-003 +1.1640952585E+002  +1.7096421157E-001 +1.7362046049E+002 
2011322.904 +1.2793832196E-001 +1.6702853747E+002  +1.1812843478E-003 -4.8258594626E+001  +3.3055730200E-003 -3.3255386486E+001  +1.4897428934E-001 -1.7649765587E+002 
2136468.085 +1.3077559270E-001 +1.6780306491E+002  +1.5074677430E-003 +1.0071682523E+002  +4.2792784347E-003 -5.6090522874E+000  +3.1614898467E-001 +1.4590746386E+002 
2261613.267 +1.2928604857E-001 +1.6109033902E+002  +2.7367832827E-004 +5.4709161922E+001  +5.7463408166E-003 -6.2847658921E+001  +2.1644762434E-001 +1.5533303311E+002 
2386758.448 +1.2834853529E-001 +1.6433260933E+002  +5.9189289556E-003 -5.5007046999E+001  +4.7083382215E-003 -8.4939275534E+001  +2.6133815926E-001 +1.6792775703E+002 
2511903.630 +1.2575256987E-001 +1.6085047665E+002  +3.2961225246E-003 +1.5610329563E+002  +6.4328098939E-003 +5.2325277872E+001  +2.5418208115E-001 +1.1083816640E+002 
2637048.811 +1.1916621612E-001 +1.4824564658E+002  +8.5130730475E-003 -1.3400836737E+002  +6.5884629122E-003 -1.5504016775E+002  +2.5961910730E-001 +1.4028597817E+002 
2762193.992 +1.0731140552E-001 +1.6781101588E+002  +9.4993449355E-003 -1.6190900390E+002  +3.9641205398E-003 +1.6839946425E+002  +4.4851077765E-001 +1.1593014731E+002 
2887339.174 +1.1697997899E-001 +1.7509857860E+002  +1.3458686677E-002 +3.2285687911E+000  +1.5695695047E-002 -9.4495013336E-003  +1.9432950495E-001 -7.3097744722E+001 
3012484.355 +8.9561567441E-002 +1.5718068988E+002  +6.0522300084E-003 +7.8443243475E+001  +3.9981478263E-003 +3.2160433315E+001  +4.0101148552E-001 -1.1106039523E+002 
3137629.537 +1.2610809545E-001 +1.7122822738E+002  +8.2454963808E-003 -6.9856033986E+001  +4.7670066749E-003 -3.1909156634E+001  +4.1731947145E-001 +7.3365428654E+001 
3262774.718 +1.3285293724E-001 -1.7248242288E+002  +6.0972920264E-003 -1.0741743871E+002  +9.0062241971E-003 -1.5289775083E+002  +2.0295677386E-001 -9.5227092719E+001 
3387919.900 +1.2920990013E-001 +1.5449482058E+002  +1.0137544866E-002 +1.4117194055E+002  +1.5331258917E-002 -3.2661962178E+001  +2.4540913909E-001 -4.0033952571E+001 
3513065.081 +1.2799923990E-001 +1.5758717684E+002  +3.9980594999E-003 +8.2446254595E+001  +1.8961858265E-002 +1.3647784272E+002  +7.3474176589E-001 +1.3635743644E+002 
3638210.263 +1.7298247775E-001 +1.3944477018E+002  +2.3598800179E-002 +1.7442904564E+002  +2.0990683166E-002 -6.3191071068E+001  +4.4512037472E-001 +1.1961749111E+002 
3763355.444 +1.4996335921E-001 +1.4348206253E+002  +7.5075365764E-003 -4.3335440054E+001  +5.7317428048E-003 +9.3239086465E+001  +3.0332203671E-001 +1.0206366162E+002 
3888500.626 +1.5988320493E-001 +1.5142324753E+002  +1.0971792707E-002 +1.4328529062E+002  +1.0261367887E-002 -3.4363477743E+001  +4.4812061790E-001 +4.9884294846E+001 
4013645.807 +1.6480930248E-001 +1.4851400263E+002  +1.1887115367E-002 +1.5665755126E+002  +8.0214333633E-003 +2.9681338408E+001  +6.0745476496E-001 +1.2119440122E+002 
4138790.989 +2.0333797231E-001 +1.5010389501E+002  +2.6669193377E-003 +6.7689698044E+001  +3.9844196028E-003 +9.0407062866E+001  +2.7461330392E-001 +1.4289234811E+002 
4263936.170 +1.8944744353E-001 +1.3872793025E+002  +9.2002760579E-003 +6.1088829204E+001  +1.0839965276E-002 +1.0541806064E+002  +3.7485114469E-001 +1.0467795314E+002 
4389081.352 +1.4733448078E-001 +1.1052755075E+002  +1.8300171705E-002 +9.9180825695E+001  +8.1363104275E-003 +1.2401065121E+002  +7.2731682984E-001 +8.7964365944E+001 
4514226.533 +2.1943927049E-001 +1.3238906920E+002  +1.8300074139E-002 +1.6134668992E+002  +2.5492983998E-002 +7.8721315565E+001  +7.7094748400E-001 +5.2637279178E+001 
4639371.715 +2.3999270979E-001 +1.3194777324E+002  +5.5816976087E-002 -1.0954352204E+002  +9.9765384359E-002 +8.8953324824E+001  +3.6371250191E+000 -3.2027362390E+001 
4764516.896 +4.3636652282E-001 +1.2070437972E+002  +6.2672633646E-002 -1.3118014743E+002  +8.1675000079E-002 -7.6445264869E+001  +3.4353229980E+000 -1.1749718322E+002 
4889662.078 +3.2555227545E-001 +1.3664657472E+002  +2.7047101230E-002 -1.1057577500E+002  +3.0450275700E-002 +2.6811272921E+001  +3.1928974027E+000 -1.3381886980E+002 
5014807.259 +3.5173725460E-001 +1.3187756784E+002  +1.3700454565E-001 +1.7166187253E+002  +1.3431554539E-001 +1.2157228546E+002  +1.9422028026E+001 -1.0292753965E+001 
5139952.441 +4.1366824904E-001 +1.3260693527E+002  +7.1713195440E-003 +1.1632368045E+002  +4.5503825519E-003 -8.0251565817E+001  +2.0454269202E+000 +6.5204814009E+001 
5265097.622 +3.6128285439E-001 +1.3131571879E+002  +9.5363746036E-003 +1.7883620276E+002  +5.2557919994E-002 +1.4899836745E+002  +3.4651449453E+000 +1.0163739893E+002 
5390242.804 +4.1529956873E-001 +1.3783864644E+002  +5.0790161702E-002 -8.4153509758E+001  +2.4983189709E-002 +1.7209867402E+002  +2.5984773414E+000 +9.7225356594E+001 
5515387.985 +5.2258528124E-001 +1.2581012300E+002  +2.0126954842E-002 -1.4761714279E+002  +7.9734369344E-003 +9.7879050574E+001  +1.6988907910E+000 +1.0890513280E+002 
5640533.166 +5.0635654463E-001 +1.3175917816E+002  +1.2156573803E-002 -1.7363568758E+002  +3.9955668381E-002 -3.7844636355E+001  +2.6705053586E+000 +1.1053097414E+002 
5765678.348 +4.7746490802E-001 +1.2963198494E+002  +1.7039078904E-002 +1.2255440178E+002  +2.1793249630E-002 +1.7763275957E+002  +1.7664506086E+000 +2.5783978393E+001 
5890823.529 +6.2715675481E-001 +1.2606666542E+002  +6.2380235533E-002 +1.5750687996E+002  +1.7051896371E-002 -6.3601583120E+001  +2.6401413795E+000 +9.1954767782E+000 
6015968.711 +6.1955364977E-001 +1.1992063754E+002  +2.3454018630E-002 +1.5858668096E+002  +4.0180943416E-003 +2.3852575593E+001  +1.5848260627E+000 +7.4837178186E+001 
6141113.892 +5.2649087262E-001 +1.1285036138E+002  +3.1382297269E-002 +1.1766019439E+002  +2.3204046781E-002 -1.7169294712E+002  +3.9508259441E+000 +4.6912011696E+001 
6266259.074 +8.6597194141E-001 +1.1276791599E+002  +1.0185860898E-002 +3.0513107015E+001  +1.4750928799E-002 -1.4615677622E+002  +2.4515433802E+000 +2.2436314866E+001 
6391404.255 +8.5374950232E-001 +9.6755020601E+001  +6.3150138474E-003 -1.3338660411E+002  +1.3711635841E-002 +1.3734413685E+002  +1.2357694058E+000 +3.5043182312E+000 
6516549.437 +1.1493205288E+000 +8.5277009818E+001  +1.5796488559E-002 -8.4606487807E+001  +3.0740952286E-002 +1.3683980450E+002  +1.8524182777E+000 +2.1366471727E+001 
6641694.618 +1.4548372065E+000 +7.3770294679E+001  +6.0065682464E-003 -1.4588609683E+002  +2.2567624134E-002 -4.1703961299E+001  +1.4475975040E+000 +1.3452617495E+000 
6766839.800 +1.9018638118E+000 +5.9602126025E+001  +2.0019757304E-002 +1.1269853269E+002  +1.9900762528E-002 +1.0326935412E+002  +1.3054496525E+000 -6.5361534251E+000 
6891984.981 +1.7321512508E+000 +4.2138954718E+001  +2.6422277641E-002 +1.0171287075E+002  +1.6772312610E-002 +1.3330272660E+002  +1.1069600345E+000 -3.0435256417E+000 
7017130.163 +2.0430144652E+000 +1.4872399966E+001  +1.1377265125E-002 +5.5920156001E+001  +2.0872595716E-002 -1.1215890434E+001  +1.3054822500E+000 -1.0423076342E+001 
7142275.344 +1.4189821060E+000 +1.1346980457E+001  +8.6877718330E-003 +1.3168008074E+002  +1.5011227807E-002 +1.4918218298E+001  +1.2774306196E+000 -9.2086465765E+000 
7267420.526 +1.5280547161E+000 +2.5811628028E+000  +1.3598924452E-002 +5.1732935334E+001  +1.5198549483E-002 -1.7808406181E+002  +1.3644015470E+000 -1.4132225540E+001 
7392565.707 +1.2241606156E+000 +5.0532279489E+000  +2.9831608386E-003 +1.4565893943E+002  +1.3413398926E-002 -9.1658637727E+001  +1.2739655757E+000 -8.8311321895E+000 
7517710.889 +1.2554466947E+000 +7.0500152148E+000  +1.0424704863E-002 +1.0139176601E+002  +5.9964293662E-003 +1.7203519119E+002  +1.1866083606E+000 -6.0804318765E+000 
7642856.070 +1.0519309213E+000 +2.8102401945E-001  +8.4432516049E-003 +1.7653488504E+002  +1.1683253811E-002 +5.9634514061E+001  +1.1247179832E+000 -4.8140613398E+000 
7768001.252 +9.9457762704E-001 +1.2830586850E+000  +6.2892973369E-003 +5.7963586290E+001  +7.3721573207E-003 +1.7188029850E+002  +9.8863155764E-001 -1.1851720687E+001 
7893146.433 +8.4889550899E-001 +2.2874157816E+000  +1.6330772973E-003 +1.1680771801E+002  +4.4976672108E-003 +5.6012459606E+001  +9.8242168996E-001 -5.9490399059E+000 
8018291.615 +9.2490426164E-001 +4.5964262466E+000  +3.0250336676E-003 +1.6656157563E+001  +8.5867439307E-003 +1.6836494271E+001  +9.5015551276E-001 +2.5800487568E+000 
8143436.796 +7.8509646737E-001 +6.6313701453E+000  +7.8890908718E-003 +1.1047722910E+002  +7.9826410562E-003 +1.2197207204E+002  +8.5101827407E-001 -3.9911728319E-001 
8268581.977 +7.7183848433E-001 +6.7289743187E+000  +4.0286488944E-003 +1.3272040401E+001  +4.9735480834E-003 +1.8942743543E+001  +8.1605848771E-001 -1.7976991556E+000 
8393727.159 +7.0814172020E-001 +7.1627011699E+000  +6.2202870969E-003 +2.3948190800E+001  +2.6647683698E-003 -1.5304755915E+002  +7.9989332342E-001 -2.6166177184E+000 
8518872.340 +6.8679041384E-001 +9.0612962882E+000  +3.9029795320E-003 +6.2881390290E+001  +3.7101734124E-003 +1.1509424699E+002  +6.9908220099E-001 +2.1670599773E+000 
8644017.522 +6.4796655144E-001 +5.3733648757E+000  +1.1595145602E-003 +8.4333811988E+001  +3.6524093491E-003 +1.1309625957E+002  +6.9831313885E-001 +1.8853753524E+000 
8769162.703 +6.4033882312E-001 +4.1436896715E+000  +5.1823832428E-003 +1.2860650560E+002  +4.2265356990E-003 +1.3208818294E+002  +6.9279485432E-001 -3.8539894277E+000 
8894307.885 +6.5848677533E-001 +4.3347502100E+000  +2.2782073214E-003 +5.3676382467E+001  +2.1778295824E-003 +3.4439583911E+001  +6.8781175283E-001 +1.8830129759E+000 
9019453.066 +6.4807519747E-001 +6.2889771380E+000  +2.0685201043E-003 +9.2192221573E+001  +1.7321170630E-003 +1.6298899653E+002  +6.0557938964E-001 +3.4329306454E+000 
9144598.248 +5.9140010392E-001 +2.9506562421E+000  +6.8809647450E-003 +1.1238459167E+002  +1.1266455688E-003 +5.0917233216E+001  +5.9981644356E-001 -3.8797190501E+000 
9269743.429 +5.6466310271E-001 +7.4431613503E+000  +4.2291178555E-003 +1.0694322127E+002  +4.9324716080E-003 +1.0431845591E+002  +6.0268840047E-001 -3.2976708257E-001 
9394888.611 +5.6337184543E-001 -3.3245822310E+000  +5.4554534423E-003 +8.8623850428E+001  +5.0545464050E-003 +1.3032520634E+002  +6.5525475022E-001 -9.3586977247E-001 
9520033.792 +5.5233893705E-001 +1.2602819270E+000  +7.3523625458E-003 +1.2742922799E+002  +4.9958655483E-003 +1.4270811990E+002  +5.9829597031E-001 -3.3058760359E+000 
9645178.974 +5.9889085176E-001 +1.9964643095E+000  +3.3836633096E-003 +6.3753295247E+001  +3.9347403499E-003 +8.9357322146E+001  +6.1550694779E-001 -3.5353597861E+000 
9770324.155 +5.5534244116E-001 -3.6662741213E+000  +2.0906388615E-003 +1.0045000651E+002  +2.4906887282E-003 +1.1174061811E+002  +5.8975046079E-001 -3.6025431800E+000 
9895469.337 +5.1491459225E-001 +1.1354632641E+000  +3.9343140646E-003 +1.2750815688E+002  +3.9286641799E-003 +9.7018748281E+001  +5.7731859001E-001 -4.2926925061E+000 
10020614.518 +5.6456003555E-001 +6.7469035680E+000  +3.4385306616E-003 +6.7738272830E+001  +4.8749814646E-003 +1.1585854762E+002  +5.7311402703E-001 -1.0649402235E+000 
10145759.700 +5.6417427346E-001 +2.2693846067E+000  +3.4985215913E-003 +7.7227478576E+001  +3.5284708631E-003 +6.2202090883E+001  +5.5852154499E-001 -1.5857479803E+000 
10270904.881 +5.3411382800E-001 +5.4485701939E+000  +5.6213588712E-003 +8.8775609244E+001  +5.6251968985E-003 +1.2137551479E+002  +5.7771053215E-001 -1.6727581257E+000 
10396050.063 +5.8112523687E-001 +5.1694282398E+000  +3.1556341639E-003 +9.0632004705E+001  +4.6980512966E-003 +1.0937290652E+002  +5.6821842899E-001 -4.5282453981E+000 
10521195.244 +6.0050765300E-001 +2.2617407151E+000  +5.3541881016E-003 +9.0015048946E+001  +4.0536017411E-003 +1.2215691369E+002  +5.3671539040E-001 +1.9849270318E-001 
10646340.426 +6.0421064825E-001 +6.3653821071E+000  +5.7000274358E-003 +9.2638385112E+001  +4.2192378820E-003 +9.8650463151E+001  +5.8319586822E-001 -1.0969162580E+000 
10771485.607 +5.9023152290E-001 +1.0889682064E+001  +5.9332725654E-003 +6.5436373611E+001  +3.1268090289E-003 +1.1806757581E+002  +5.9610411191E-001 +2.6906336845E+000 
10896630.788 +5.5421603125E-001 +6.5323556671E+000  +6.6212454769E-003 +9.2687095740E+001  +6.0819855395E-003 +1.2467587427E+002  +5.8123103917E-001 -1.3781339801E+000 
11021775.970 +5.7089731107E-001 +7.4752483021E+000  +3.6972378849E-003 +1.0676808855E+002  +2.1391169982E-003 +9.4186906957E+001  +6.2513765453E-001 -3.0229224917E-002 
11146921.151 +6.1564768277E-001 +7.0583135893E+000  +4.1666566353E-003 +1.1154156878E+002  +5.2871291645E-003 +1.2621211649E+002  +5.8702241770E-001 -1.6500717384E+000 
11272066.333 +6.0675510574E-001 +7.7059835224E+000  +4.6107040050E-003 +7.9528380956E+001  +4.2878823952E-003 +9.4255252773E+001  +6.4214306194E-001 +4.1697953376E-002 
11397211.514 +6.2371364759E-001 +5.3039739616E+000  +4.8826173836E-003 +1.0714735610E+002  +6.6520540716E-003 +9.3317366537E+001  +6.6582554179E-001 +9.5353846907E-001 
11522356.696 +6.1884014861E-001 +6.9013118863E+000  +4.8218431634E-003 +7.3263809471E+001  +4.7212475982E-003 +1.0770933113E+002  +6.7427124436E-001 +2.7658739136E+000 
11647501.877 +6.4643076759E-001 +6.0065103200E+000  +4.9792287600E-003 +8.7067490689E+001  +2.3771997497E-003 +1.0104724474E+002  +6.7057670928E-001 +2.1219073833E+000 
11772647.059 +6.5871343347E-001 +3.6322379082E+000  +3.5916732870E-003 +8.0231301938E+001  +6.1959548510E-003 +9.2725631297E+001  +6.5785960571E-001 +5.5010396918E-001 
11897792.240 +6.5363849872E-001 +4.3126493728E+000  +5.5660736447E-003 +8.4984889304E+001  +4.9310635063E-003 +1.0811887989E+002  +6.8619853018E-001 +5.3129932664E-001 
12022937.422 +6.7064363191E-001 +2.0504253536E+000  +5.9652669282E-003 +8.2376279620E+001  +4.4561595129E-003 +8.0420077467E+001  +7.0184840007E-001 -3.3578017846E-001 
12148082.603 +6.7958276008E-001 +4.9420980575E+000  +6.2622812789E-003 +7.9937893992E+001  +4.6769916283E-003 +8.9280894708E+001  +7.1315922201E-001 +3.0027344814E-001 
12273227.785 +6.6301019821E-001 +3.2750803996E+000  +4.6066694810E-003 +9.0801275323E+001  +3.8230338449E-003 +1.0290403285E+002  +7.1943464226E-001 +2.1430882771E+000 
12398372.966 +7.2458864092E-001 +3.3183142254E+000  +5.7545113961E-003 +9.8383404532E+001  +5.6793679161E-003 +9.8888029505E+001  +7.0674520662E-001 +5.7011541712E-001 
12523518.148 +7.3297252751E-001 +4.7437268528E+000  +5.3704464757E-003 +7.8352622479E+001  +6.2252347395E-003 +9.4410448839E+001  +7.2501778517E-001 -1.3912920143E+000 
12648663.329 +7.4032028052E-001 +1.7013200003E+000  +4.3680453123E-003 +9.2337600205E+001  +6.2048605624E-003 +9.5287504945E+001  +7.3354292278E-001 -2.0074679510E+000 
12773808.511 +7.4080693940E-001 +1.8856169540E+000  +6.7227415783E-003 +8.5916449466E+001  +5.6080051586E-003 +9.5174097621E+001  +7.5699899808E-001 -1.1659792952E+000 
12898953.692 +7.7308740230E-001 +1.4175335568E+000  +5.5150476735E-003 +8.4142194528E+001  +4.7902464763E-003 +1.0125261538E+002  +7.7770048431E-001 +5.3931218951E-001 
13024098.874 +7.6990237853E-001 -7.6039528377E-001  +5.0007869489E-003 +9.4295589167E+001  +4.7733942322E-003 +9.2279571637E+001  +8.0357633844E-001 -1.2052700737E+000 
13149244.055 +8.0507135486E-001 -4.2638948707E-001  +5.2459844734E-003 +9.2256526581E+001  +6.1494491127E-003 +8.6222590357E+001  +7.9329406407E-001 -2.8399388293E+000 
13274389.237 +8.2776748963E-001 +6.5125760380E-002  +6.5717713445E-003 +8.8443462834E+001  +6.3294498857E-003 +9.2843386230E+001  +8.2039505098E-001 -2.4299002018E+000 
13399534.418 +8.2306332538E-001 -1.2316230361E+000  +5.8188421599E-003 +8.8698572195E+001  +7.0832908642E-003 +1.0162365945E+002  +8.2919775772E-001 -1.9384298594E+000 
13524679.599 +8.6200872218E-001 -9.9153709447E-001  +5.0743893332E-003 +7.6602035598E+001  +7.7488608667E-003 +8.9123071585E+001  +8.6648193975E-001 -2.7213020732E+000 
13649824.781 +8.8938557649E-001 -2.1354968583E+000  +7.1568784608E-003 +8.9625409777E+001  +6.1053107888E-003 +9.5211232521E+001  +8.8629816195E-001 -3.7791507099E+000 
13774969.962 +8.9088716494E-001 -3.8821054684E+000  +6.2881077866E-003 +7.9972195432E+001  +5.2310538738E-003 +8.1803616250E+001  +9.0312734509E-001 -2.6698066075E+000 
13900115.144 +9.0211095937E-001 -1.4053348404E+000  +6.6596553788E-003 +1.0135929361E+002  +7.2139115963E-003 +1.0172071904E+002  +9.1002167377E-001 -3.5241353855E+000 
14025260.325 +9.0790100704E-001 -4.5237157423E+000  +7.9519638934E-003 +8.9246566109E+001  +6.9832373091E-003 +9.0169898797E+001  +9.2986075155E-001 -5.8283984599E+000 
14150405.507 +9.3410972421E-001 -3.7678547400E+000  +8.4685357319E-003 +9.2229461219E+001  +7.1544404531E-003 +8.5651670559E+001  +9.4992423676E-001 -4.1448414762E+000 
14275550.688 +9.5203048965E-001 -4.1089845354E+000  +6.4642827783E-003 +9.2355906569E+001  +8.1003035013E-003 +9.5390839564E+001  +9.7457801063E-001 -4.3780766200E+000 
14400695.870 +9.8591593196E-001 -4.7197773392E+000  +6.4816451819E-003 +1.0496221096E+002  +8.6230989633E-003 +8.1712463090E+001  +9.9607627007E-001 -4.2495611735E+000 
