!  2-Port S-parameters saved by WinCal
! VAR MeasName=S-Parameters (CALIBRATED_DATA) read from VNA (P5004A)
! VAR MeasDate=27/08/2024 14:31:46
! VAR NAME=S2_r2c8_SET3_9k-100M_3
! VAR FILENAME=S2_r2c8_SET3_9k-100M_3.S2P
! VAR DATE=27/08/2024 14:31:46
! VAR PHYS_PORTS=1,2
! VAR ObjTypeName=DATASET
! VAR IndexType=Frequency
!
# Hz S MA R 50
9000.000 +7.0819831380E-002 -1.6174945850E+002  +6.1097175026E-003 -8.4410102814E+001  +3.0139580780E-003 +1.6971048661E+002  +2.1391887122E-001 -1.0065202851E+002 
134145.181 +1.1023106659E-001 +1.6966095640E+002  +4.6650416676E-004 -5.5462571397E+001  +7.6562252812E-004 -1.6488752735E+002  +2.4632195111E-001 -1.7083242777E+002 
259290.363 +1.1127890345E-001 +1.6918169173E+002  +4.1543487175E-004 +1.6575505067E+002  +2.5964092470E-004 +9.4936027862E+001  +2.4135478576E-001 -1.7007136842E+002 
384435.544 +1.1329104622E-001 +1.7007906549E+002  +3.6189350484E-004 +1.2848329007E+002  +2.4121220145E-004 +8.9298531600E+001  +2.3431367473E-001 -1.6991059373E+002 
509580.726 +1.1256744773E-001 +1.7005908740E+002  +7.6125172810E-004 -1.0016188056E+002  +6.0043623163E-004 +5.9555276822E+001  +2.5612209006E-001 -1.6680737342E+002 
634725.907 +1.1565549186E-001 +1.7024460057E+002  +4.6559139002E-004 +1.5301729384E+002  +8.6521043447E-004 +1.5879096366E+000  +2.4700902285E-001 -1.6341775447E+002 
759871.089 +1.1703362499E-001 +1.7113832391E+002  +7.6122219968E-004 +1.5948456993E+002  +1.1786588481E-003 -6.8613575574E+001  +2.3755413413E-001 -1.6423869776E+002 
885016.270 +1.1673512322E-001 +1.7071439399E+002  +9.5254227686E-004 -5.0374279998E+001  +1.2956370030E-003 +9.2643793078E+001  +2.3232539621E-001 -1.6474981426E+002 
1010161.452 +1.1717232208E-001 +1.7237488705E+002  +1.8877010362E-003 -1.4133875097E+001  +1.7330252796E-003 -1.3226091955E+002  +1.8673141787E-001 -1.5855412427E+002 
1135306.633 +1.1648651440E-001 +1.7008282961E+002  +2.2971659327E-003 +1.2656570093E+002  +7.7571726614E-004 +3.4521125671E+001  +1.8629709917E-001 -1.6778970357E+002 
1260451.815 +1.2214410150E-001 +1.7102528909E+002  +1.0179745162E-003 +1.7371093146E+002  +1.1117470425E-004 -1.7414524457E+002  +2.2508831905E-001 -1.5931518645E+002 
1385596.996 +1.2691953933E-001 +1.7107572069E+002  +7.7910019622E-004 -1.1808129512E+002  +9.1053905137E-004 +4.9221307640E+001  +2.5751890992E-001 -1.5789374515E+002 
1510742.178 +1.2548792991E-001 +1.7200802625E+002  +2.7351460847E-003 -6.5412415216E+001  +1.4052350616E-003 +9.1094981454E+001  +2.5009167305E-001 -1.5806958406E+002 
1635887.359 +1.2877776256E-001 +1.7125392229E+002  +1.0412825470E-003 +9.7729495061E+000  +1.2159349396E-003 +1.2513493460E+002  +2.1860501211E-001 -1.5582943997E+002 
1761032.541 +1.3106365343E-001 +1.6872174664E+002  +6.0553130498E-004 +1.0760596494E+002  +3.7479573486E-004 -9.4907211006E+001  +2.2549774558E-001 -1.5920122426E+002 
1886177.722 +1.2948688888E-001 +1.6842144199E+002  +1.4442653552E-003 +9.3271092895E+001  +2.8639033858E-003 -2.1616735351E+001  +1.8916591980E-001 -1.7269924400E+002 
2011322.904 +1.3129536991E-001 +1.6736797388E+002  +7.6352975621E-004 +5.5990121603E+001  +3.7133805386E-003 -7.3288547916E+001  +1.7405881205E-001 -1.6713252586E+002 
2136468.085 +1.2549573106E-001 +1.6503351167E+002  +2.9685121343E-003 +4.2401522088E+001  +2.7613541079E-003 -1.7574387757E+002  +2.1039930068E-001 -1.7357024686E+002 
2261613.267 +1.2567545124E-001 +1.6464750902E+002  +4.1117320866E-003 +1.1282670359E+002  +3.0647134469E-003 -1.1008426224E+001  +2.5249742548E-001 +1.6746139928E+002 
2386758.448 +1.2869272969E-001 +1.6315340978E+002  +3.4935780937E-003 +1.2629823032E+002  +1.4680895335E-002 +5.5101670660E+000  +2.7475465420E-001 +1.5256683261E+002 
2511903.630 +1.2736002679E-001 +1.5979280058E+002  +1.0787465217E-002 +3.2097123940E+001  +9.5080899173E-003 -3.6382220939E+001  +1.6507941208E-001 +1.4130072964E+002 
2637048.811 +1.2893920414E-001 +1.6364608033E+002  +1.2063641559E-002 +8.2863046885E+001  +1.5222498804E-002 -4.8681400843E+001  +4.1223839360E-001 +1.3148864005E+002 
2762193.992 +1.0611337079E-001 +1.4867906626E+002  +1.5939248562E-001 -1.3726839420E+002  +2.2379298744E-001 +7.3454074496E+001  +4.1899880957E+000 +1.7806358431E+002 
2887339.174 +1.1499431489E-001 -1.7219564395E+002  +1.7039785108E-002 -9.2657703240E+001  +2.4248958833E-002 -1.4589129768E+002  +4.0107485522E-001 -9.8238955020E+001 
3012484.355 +1.2541950412E-001 +1.6112689063E+002  +2.9982041549E-002 -1.2808382757E+001  +2.7504091022E-002 -8.7412371248E+001  +4.1005843083E-001 -4.4615927934E+001 
3137629.537 +1.1853878221E-001 -1.7709594604E+002  +1.2512464292E-002 -9.4306539421E+001  +1.0022684244E-002 +1.7530067744E+002  +3.2598739378E-001 -1.0881800548E+002 
3262774.718 +1.3841761290E-001 +1.5470602091E+002  +9.7583513829E-003 -4.9180971649E+000  +1.2918767422E-002 -7.7150387929E+001  +2.7622877776E-001 -9.2245414676E+001 
3387919.900 +1.1741370067E-001 +1.5480872280E+002  +6.6511958295E-002 +8.8263449108E+001  +4.5786894513E-002 +1.2101057150E+001  +9.5090935752E-001 +1.1108567370E+002 
3513065.081 +1.5219592313E-001 +1.4922205140E+002  +2.0745541593E-002 +6.9384411579E+001  +1.6615382809E-002 -6.9497003325E+000  +2.5464026289E-001 +1.2348957989E+002 
3638210.263 +1.8157843305E-001 +1.5065235470E+002  +1.9958702639E-002 -1.5728194696E+002  +2.7007955611E-002 +1.2053595213E+002  +9.9512557502E-001 +1.6859780622E+002 
3763355.444 +1.8907129629E-001 +1.5066487477E+002  +2.8958422650E-002 +1.2760833100E+002  +3.7379854349E-002 +7.6165108611E+001  +1.1435308947E+000 +1.2950112200E+002 
3888500.626 +1.5183086177E-001 +1.4984869803E+002  +2.4532725566E-002 +9.4335903568E+001  +2.9711167875E-002 +6.3116626583E+000  +3.9311052739E-001 +1.2514321713E+002 
4013645.807 +1.7105228781E-001 +1.5122606096E+002  +2.1290616259E-002 +1.1334130641E+002  +1.5888791527E-002 +2.3203134361E+001  +4.9368789305E-001 +1.4427844769E+002 
4138790.989 +1.8814085819E-001 +1.4651064004E+002  +2.3416006709E-002 +6.3207843659E+001  +1.9281929717E-002 +1.4445021289E+001  +1.9921956683E-001 +8.7969709092E+001 
4263936.170 +1.7119737566E-001 +1.4489520660E+002  +3.6745105450E-002 +8.3430790998E+001  +2.8888932551E-002 -4.6490446737E-001  +7.8725659876E-001 +9.8956523707E+001 
4389081.352 +2.1791290736E-001 +1.4656287733E+002  +1.4373974586E-002 +4.3392306678E+001  +1.2160106854E-002 +3.4041807542E+001  +4.6927799073E-001 +7.9338886816E+001 
4514226.533 +1.7346027415E-001 +1.3546121040E+002  +2.5674888707E-002 +8.7677594240E+001  +2.6435011095E-002 +2.4461233739E+001  +4.3396176446E-001 +1.1941149176E+002 
4639371.715 +3.0544193120E-001 +1.3810301519E+002  +8.6766291667E-002 +1.4211814845E+002  +7.9935980637E-002 +9.5055530312E+001  +2.2395160023E+000 +1.0323076338E+002 
4764516.896 +2.7772576870E-001 +1.3800282168E+002  +9.4057560024E-002 -1.0705088683E+002  +7.6818651353E-002 -1.5491829336E+002  +2.9189294555E+000 -1.3239684388E+002 
4889662.078 +4.3401765519E-001 +1.2196058136E+002  +6.2825891555E-001 -9.7423048465E+001  +7.8775120243E-001 -1.5573978202E+002  +1.2044997040E+001 -1.6326970177E+002 
5014807.259 +4.0284519866E-001 +1.3016014573E+002  +2.8892369887E-001 +3.6785542597E+001  +2.4650317158E-001 -1.1579146439E+001  +5.4445422454E+000 -2.6774870266E+001 
5139952.441 +4.1133202547E-001 +1.3473407362E+002  +1.3798790944E-001 +1.0410874253E+002  +1.4802380583E-001 +9.7957377691E+001  +3.0057734975E+000 +9.0690610882E+001 
5265097.622 +4.2876258065E-001 +1.3472953679E+002  +2.4949487901E-001 +1.4201450631E+002  +2.1516425695E-001 +1.0201020038E+002  +5.9709874893E+000 +1.0740380372E+002 
5390242.804 +4.0981665215E-001 +1.3145963128E+002  +1.2379256625E-001 +1.3184728997E+002  +1.5559847898E-001 +1.1613788161E+002  +3.4837404443E+000 +1.2322415697E+002 
5515387.985 +4.5137899355E-001 +1.3461628828E+002  +5.1131267200E-002 +1.3541717017E+002  +5.9775089469E-002 +6.6728957750E+001  +1.2778664401E+000 +8.6976205227E+001 
5640533.166 +4.4159646376E-001 +1.2045682823E+002  +6.6172658543E-002 +8.7380454616E+001  +7.9265720953E-002 +6.3154348198E+001  +1.7232243338E+000 +8.5062140293E+001 
5765678.348 +5.1139730614E-001 +1.3113414209E+002  +6.1921978603E-002 +9.1539715650E+001  +6.9664260953E-002 +5.2897080863E+001  +1.5734144187E+000 +6.5019163048E+001 
5890823.529 +5.6658369827E-001 +1.2130280543E+002  +7.1215719919E-002 +8.5766511457E+001  +8.8307730803E-002 +8.1224163856E+001  +1.7672108405E+000 +8.1508703131E+001 
6015968.711 +5.5427900706E-001 +1.2141413617E+002  +8.2051401114E-002 +7.7317343447E+001  +9.8335935093E-002 +5.1799888488E+001  +1.9644728516E+000 +6.2227839430E+001 
6141113.892 +7.5383197999E-001 +1.1817029244E+002  +8.8742043991E-002 +8.0733154040E+001  +6.6109105638E-002 +5.7404933725E+001  +1.5375640368E+000 +4.8908790951E+001 
6266259.074 +8.8450282277E-001 +8.6508341808E+001  +1.2371708877E-001 +3.9641246222E+001  +1.3171590890E-001 +3.1159029103E+001  +2.0317462918E+000 +1.2365301400E+001 
6391404.255 +1.0398345638E+000 +1.0652349930E+002  +9.4561088678E-002 +6.2263746504E+001  +1.0601321276E-001 +3.9657510499E+001  +1.6432570998E+000 +1.4605641713E+001 
6516549.437 +1.6378064680E+000 +8.2830577442E+001  +1.1772340469E-001 +6.6471761411E+001  +1.2613451763E-001 +3.6981261334E+001  +1.0139157660E+000 +1.7127261966E+001 
6641694.618 +1.5903779266E+000 +5.9963186819E+001  +1.2073597085E-001 +3.1266979778E+001  +1.2623375343E-001 +1.4437579751E+001  +1.3153268362E+000 -4.1185821753E+000 
6766839.800 +1.3211687103E+000 +5.2835388886E+001  +1.1139516112E-001 +3.6196102817E+001  +1.0808483443E-001 +1.7747117149E+001  +1.2501841850E+000 +4.1659323443E+000 
6891984.981 +1.7514797630E+000 +3.9935469428E+001  +1.2369382762E-001 +2.4236933680E+001  +1.1237801609E-001 +8.1913567172E+000  +1.1658743513E+000 +1.6249440245E+000 
7017130.163 +1.5475329357E+000 +3.6179339886E+001  +8.3117551373E-002 +1.0545311228E+001  +7.9246531304E-002 +1.8783853679E+000  +1.1753119684E+000 -4.5751945341E+000 
7142275.344 +1.2657111672E+000 +8.7955550724E+000  +8.8737243498E-002 -3.2733219471E+000  +8.1637121264E-002 -4.8729775341E+000  +1.3669759700E+000 -6.7066015047E+000 
7267420.526 +1.5239413918E+000 +1.1423886467E+000  +8.3393541369E-002 +1.0460054875E-001  +7.4604389675E-002 -1.2048029528E+000  +1.2972191454E+000 -1.2539646560E+001 
7392565.707 +1.3645832534E+000 +1.8219545736E+000  +5.2260963005E-002 +6.2966687258E+000  +6.1555189262E-002 +7.3965250077E+000  +1.2536332353E+000 -5.8112626322E+000 
7517710.889 +1.1429744543E+000 +5.9304683819E+000  +5.4732067529E-002 -1.6169379721E-001  +5.0738449384E-002 +1.6423973784E+001  +1.2219801051E+000 -5.1058559725E+000 
7642856.070 +9.3804579633E-001 +5.3453727254E+000  +5.1897953792E-002 +1.2418058515E+001  +4.7230659424E-002 +9.7380049316E+000  +1.0050080506E+000 -5.7681556753E+000 
7768001.252 +9.4109081046E-001 +6.6055597832E+000  +4.7733921997E-002 -2.9863579823E+000  +4.2725626526E-002 +1.5943329726E+001  +9.5716082148E-001 -1.5636652988E+000 
7893146.433 +8.3011005523E-001 +4.0179703805E+000  +4.7796864306E-002 +1.1950814302E+001  +4.1058558002E-002 +2.1584420928E+001  +9.2151811322E-001 -1.5076964500E+000 
8018291.615 +8.3304358574E-001 +1.0665122914E+001  +4.0928184473E-002 +3.3916886973E+000  +4.0075485317E-002 +4.7579652836E+000  +8.1936098100E-001 -4.7704672675E+000 
8143436.796 +7.2776709776E-001 +7.2973665403E+000  +3.9099099891E-002 +7.4896846008E+000  +4.2311135955E-002 +1.0293887510E+001  +7.0029162131E-001 -1.1235268427E+000 
8268581.977 +7.6179762772E-001 +7.0535345411E+000  +4.0143629253E-002 +2.8252891290E+000  +3.7954679614E-002 +1.0702551951E+001  +7.5252104047E-001 +4.7920567399E+000 
8393727.159 +7.1566016006E-001 +6.1169064154E+000  +3.9662744398E-002 -2.3566541726E+000  +3.9742078029E-002 +1.1455977576E+001  +6.2867484398E-001 +1.6487464662E+000 
8518872.340 +7.0845793270E-001 +9.5742789689E+000  +3.7022524827E-002 +4.5345001392E+000  +3.9635315070E-002 +9.9518039818E+000  +6.8201462986E-001 +3.9257245373E+000 
8644017.522 +6.4577321475E-001 +4.4781253126E+000  +3.5599574481E-002 -2.5638754107E+000  +3.8137359756E-002 +9.2603666500E+000  +6.7233658404E-001 +2.3277942310E+000 
8769162.703 +6.1739917828E-001 +8.0198360446E+000  +3.7506124356E-002 +2.3600212581E+000  +3.8873432487E-002 +1.5861289835E+001  +6.0775667608E-001 -3.0984659651E+000 
8894307.885 +5.4945385915E-001 +1.1268874068E+001  +4.0232281713E-002 +1.3330493040E+000  +3.4608083337E-002 +1.0947529709E+001  +6.0023267910E-001 +6.2081156421E+000 
9019453.066 +5.3778754877E-001 +5.7890346226E+000  +3.5711903424E-002 -3.1027731407E+000  +3.6667020845E-002 +1.2375552453E+001  +6.4753500978E-001 +3.1732875663E+000 
9144598.248 +5.7681246561E-001 +6.3425153564E+000  +3.4900901785E-002 -2.3127750595E+000  +3.8154201887E-002 +2.0642095798E+001  +6.0371765287E-001 -3.9975013985E-002 
9269743.429 +5.5028922924E-001 +6.3905109799E+000  +3.7313208428E-002 -1.2901407962E+000  +3.8623983074E-002 +1.7721808430E+001  +5.6049850696E-001 -6.8671809002E+000 
9394888.611 +4.9686357969E-001 +7.4761907987E+000  +3.9020350344E-002 -3.1591123297E+000  +3.8128861782E-002 +1.2906110024E+001  +5.5459882344E-001 -1.7537247888E+000 
9520033.792 +5.2819206316E-001 -1.2504487054E+000  +3.8907619983E-002 -1.1719390743E+000  +3.6117122141E-002 +2.3771166703E+001  +5.4749780642E-001 +2.5862320503E+000 
9645178.974 +4.9902084011E-001 +6.6510997721E+000  +3.7383980421E-002 +2.8000157432E-001  +3.6917510505E-002 +1.4799402101E+001  +5.6464006168E-001 -5.7316552141E+000 
9770324.155 +4.9756941947E-001 -2.2193528984E-001  +3.7786153947E-002 -3.2421140048E+000  +4.1685857276E-002 +1.6619565567E+001  +5.3526247223E-001 -7.1178520816E+000 
9895469.337 +4.7934726221E-001 -9.3946741973E-001  +4.0336526751E-002 -3.1912543933E-001  +3.6325773230E-002 +1.8350700913E+001  +5.3041490231E-001 -4.0355758964E+000 
10020614.518 +5.2163803410E-001 -2.4156304088E+000  +4.0348288757E-002 +4.7721511753E+000  +3.9480428212E-002 +1.7054923077E+001  +5.7810100436E-001 -6.6443291876E+000 
10145759.700 +4.8625315631E-001 +3.2020160229E+000  +3.8579184165E-002 +2.6115720528E+000  +3.5537619888E-002 +1.7129269643E+001  +5.7064839794E-001 -1.7739561956E+000 
10270904.881 +5.1555735864E-001 +4.8191776079E+000  +3.8640168424E-002 -1.5917073236E+000  +4.0270880339E-002 +1.6807998109E+001  +5.4554566950E-001 -1.5946147743E+000 
10396050.063 +5.2332310793E-001 +7.2567729058E+000  +3.9426679124E-002 +1.0941116062E+000  +3.8232354342E-002 +1.8722237485E+001  +5.4322850822E-001 -3.7798561556E-003 
10521195.244 +5.1027822400E-001 +1.8016236555E+000  +3.8341870105E-002 +6.4739282727E+000  +3.8416912621E-002 +2.1060708211E+001  +5.6150220488E-001 +1.4929258467E+000 
10646340.426 +5.3835357350E-001 +7.4233835224E+000  +3.6205794905E-002 +5.4107739034E+000  +4.1427568746E-002 +1.9336172799E+001  +5.4489108383E-001 +2.7701274482E+000 
10771485.607 +5.4965539107E-001 +6.4733199631E+000  +3.9118858646E-002 +4.0419421883E+000  +3.8568594320E-002 +1.8646015095E+001  +5.4607010202E-001 +8.2340763732E-001 
10896630.788 +5.4220748445E-001 +6.1466401593E+000  +3.8795261284E-002 +4.1011468879E+000  +3.9641806957E-002 +2.1057425966E+001  +5.3513694477E-001 +7.5917576912E-001 
11021775.970 +5.6467972143E-001 +8.7964114639E+000  +3.9855781297E-002 +7.3455402113E+000  +4.0098583777E-002 +1.8835044254E+001  +5.3869545167E-001 +1.8022867269E+000 
11146921.151 +5.6306510231E-001 +7.3992043895E+000  +3.8942360999E-002 +2.7815807207E+000  +3.9822376359E-002 +1.7270570780E+001  +5.5668485017E-001 +2.3858837700E-001 
11272066.333 +5.4149858705E-001 +9.2497585271E+000  +3.8873828127E-002 +1.9910106081E+000  +4.0442520912E-002 +1.7193702318E+001  +5.7590473650E-001 -1.0418947507E-002 
11397211.514 +5.6010253441E-001 +4.9058564359E+000  +3.9417699422E-002 +5.6596529863E+000  +4.0622897868E-002 +1.9202144425E+001  +6.2209209149E-001 +5.5165644048E+000 
11522356.696 +5.7526438925E-001 +6.3223077430E+000  +4.1808695387E-002 +6.3948667996E+000  +4.0523746070E-002 +1.5920401878E+001  +5.9742380800E-001 +3.5604502840E+000 
11647501.877 +6.1866761377E-001 +5.6637240540E+000  +4.2980219078E-002 +6.4745301283E+000  +4.2186654142E-002 +1.8292875505E+001  +6.0212063312E-001 +1.3823379024E+000 
11772647.059 +5.9743534870E-001 +7.1448389779E+000  +4.2546047028E-002 +8.3706648369E+000  +4.0784082096E-002 +2.0051059025E+001  +6.2571295440E-001 +3.1619317699E+000 
11897792.240 +5.8558907550E-001 +2.9452555202E+000  +4.2085005872E-002 +7.5024249682E+000  +4.4364736267E-002 +1.8993130352E+001  +6.2894055171E-001 -3.6103752736E-001 
12022937.422 +6.1741226289E-001 +5.7894226424E+000  +4.2365545037E-002 +6.6067358073E+000  +4.3762703137E-002 +1.9741377054E+001  +6.5538376875E-001 +1.9944500040E+000 
12148082.603 +6.3678129602E-001 +3.5430123489E+000  +4.4643960435E-002 +6.8020740329E+000  +4.4057854391E-002 +1.5010133223E+001  +6.6266354055E-001 +2.0759069351E+000 
12273227.785 +6.5061117474E-001 +2.7344024935E+000  +4.4631098073E-002 +7.5380358632E+000  +4.3915452468E-002 +1.8333475705E+001  +6.6457765085E-001 -6.4787327988E-001 
12398372.966 +6.8169374456E-001 +3.6004023258E+000  +4.5880800341E-002 +1.0370818993E+001  +4.3478385408E-002 +1.6032543432E+001  +6.9109603339E-001 +5.2375120218E-001 
12523518.148 +6.9294915179E-001 +3.2204438902E+000  +4.5397353406E-002 +8.8504202306E+000  +4.4415448631E-002 +1.7882209666E+001  +6.6814172660E-001 +5.4228214943E-001 
12648663.329 +7.0210087357E-001 +3.2949069785E+000  +4.4920449618E-002 +9.2579018304E+000  +4.5033405109E-002 +1.5784177451E+001  +7.0077023164E-001 -9.3950225868E-001 
12773808.511 +7.0452557871E-001 +1.8036022830E+000  +4.8033871889E-002 +8.9963587538E+000  +4.5444550220E-002 +1.4804163056E+001  +7.1816667492E-001 +1.9590309170E-001 
12898953.692 +7.3764052901E-001 +6.7723079908E-001  +4.5670980146E-002 +9.4082651976E+000  +4.5872453380E-002 +1.5815392140E+001  +7.2686453687E-001 -1.1448499822E+000 
13024098.874 +7.3967189311E-001 -2.3130047217E-001  +4.8342550499E-002 +1.1004932686E+001  +4.6705660782E-002 +1.8477078953E+001  +7.7070756163E-001 -1.5529517631E+000 
13149244.055 +7.5797933447E-001 +2.1503428987E+000  +4.5732348428E-002 +1.0283583246E+001  +4.7087424165E-002 +1.5683228348E+001  +7.6000625995E-001 -2.0460472832E+000 
13274389.237 +7.6469723186E-001 +5.3468502337E-001  +4.7526708702E-002 +1.0090047459E+001  +4.7867072050E-002 +1.2696882221E+001  +7.8748934414E-001 -1.3403210652E+000 
13399534.418 +7.9557258454E-001 -1.9465388912E+000  +4.9174275443E-002 +1.0272474634E+001  +4.7888164186E-002 +1.3934265162E+001  +7.8970931928E-001 -2.3262793683E+000 
13524679.599 +7.8936557004E-001 +6.9244793524E-002  +4.9055790943E-002 +1.0774301558E+001  +4.8271012979E-002 +1.2053277968E+001  +7.9993435673E-001 -3.1689128336E+000 
13649824.781 +8.3655289432E-001 -1.6005199435E+000  +4.9850476191E-002 +1.1915363739E+001  +4.9488034684E-002 +1.4331702300E+001  +8.3020040896E-001 -3.2923918963E+000 
13774969.962 +8.4396046247E-001 -2.3413885421E+000  +5.1127705457E-002 +1.2079832837E+001  +4.7911002133E-002 +1.3346375683E+001  +8.6908420466E-001 -5.2732615111E+000 
13900115.144 +8.5223334929E-001 -3.8065336886E+000  +4.9972105100E-002 +1.0782501659E+001  +5.0211760060E-002 +1.1220827597E+001  +8.7766595636E-001 -3.2107796256E+000 
14025260.325 +8.7221236964E-001 -3.8098865194E+000  +5.0857700531E-002 +9.3564229854E+000  +5.0143500227E-002 +9.5168141027E+000  +8.8543502009E-001 -4.2686803797E+000 
14150405.507 +9.0748116986E-001 -4.3345057077E+000  +4.9932156393E-002 +8.8330370058E+000  +5.1613333911E-002 +1.0975769683E+001  +9.0332770023E-001 -4.6250952235E+000 
14275550.688 +9.1114207396E-001 -5.0317623405E+000  +5.1714669334E-002 +9.5041219466E+000  +5.1793143692E-002 +1.0241337300E+001  +9.1138222990E-001 -4.1189773265E+000 
14400695.870 +9.3113677159E-001 -5.6279593053E+000  +5.1903541633E-002 +1.1870386564E+001  +4.9328117943E-002 +9.1577047303E+000  +9.5004288232E-001 -4.8690571334E+000 
