!  2-Port S-parameters saved by WinCal
! VAR MeasName=S-Parameters (CALIBRATED_DATA) read from VNA (P5004A)
! VAR MeasDate=28/08/2024 10:31:39
! VAR NAME=S2_r4c9_RESET3_9k-100M_2
! VAR FILENAME=S2_r4c9_RESET3_9k-100M_2.S2P
! VAR DATE=28/08/2024 10:31:39
! VAR PHYS_PORTS=1,2
! VAR ObjTypeName=DATASET
! VAR IndexType=Frequency
!
# Hz S MA R 50
9000.000 +8.7469753612E-002 -1.6868992085E+002  +9.5225945070E-003 -1.7316871021E+002  +1.6834402031E-002 +4.0830883512E+001  +3.3461295568E-001 -1.4450267496E+002 
134145.181 +1.1089182379E-001 +1.6968504301E+002  +5.6236749175E-005 -1.5566552185E+002  +5.3571920182E-004 +1.5951239601E+002  +2.3889726739E-001 -1.7181214913E+002 
259290.363 +1.1089138367E-001 +1.6981269265E+002  +5.8258172303E-004 +1.5545694957E+002  +5.9630715280E-004 -1.0528473415E+002  +2.4379513467E-001 -1.6822458599E+002 
384435.544 +1.1465179426E-001 +1.7072163374E+002  +6.4878059904E-004 -1.4663837379E+002  +1.1635953216E-003 -8.4960761871E+001  +2.4818515134E-001 -1.6828510352E+002 
509580.726 +1.1217271356E-001 +1.7064786311E+002  +6.0395117324E-004 -7.0730431627E+001  +8.8174211873E-004 +9.8002360653E+001  +2.4433050203E-001 -1.6715846206E+002 
634725.907 +1.1682412584E-001 +1.7141976034E+002  +9.9380706242E-004 +3.5080076259E+001  +7.8973563477E-004 -6.6857878550E+001  +2.4580591238E-001 -1.6326838821E+002 
759871.089 +1.1914257839E-001 +1.7075065812E+002  +9.7796811845E-004 -9.7994426493E+001  +4.8931221461E-004 -1.7726953081E+002  +2.5264230102E-001 -1.6435143932E+002 
885016.270 +1.2082561039E-001 +1.6935533181E+002  +5.6112450007E-004 +3.8467127674E+001  +4.8604735488E-004 +4.2220321136E+001  +2.5057074557E-001 -1.6733521803E+002 
1010161.452 +1.1495533534E-001 +1.7279279451E+002  +3.9989503042E-004 +1.7209675726E+002  +1.6961159675E-003 +9.6554356142E+001  +2.0298697956E-001 -1.7128900284E+002 
1135306.633 +1.1781272948E-001 +1.6941111299E+002  +1.5112691540E-003 -1.4827495142E+002  +1.6770567561E-003 -1.5637263563E+000  +1.6732665354E-001 -1.6341630358E+002 
1260451.815 +1.1924605057E-001 +1.7005805429E+002  +2.0243850481E-003 -7.4223466678E+001  +1.0589776029E-004 -1.5786780529E+002  +2.4859555449E-001 -1.5424175265E+002 
1385596.996 +1.2531106674E-001 +1.7200355875E+002  +1.5910184480E-003 +2.6780729926E+001  +3.7617445577E-004 +2.9783258190E+001  +2.6720330822E-001 -1.5477896036E+002 
1510742.178 +1.2689687532E-001 +1.7173616362E+002  +9.0998409960E-004 -1.5623700314E+002  +6.9142064624E-004 +4.9411396651E+001  +2.6416355729E-001 -1.5765607114E+002 
1635887.359 +1.2895093114E-001 +1.7151360466E+002  +9.4587450240E-004 +1.2824005669E+002  +1.6077921665E-003 -1.4014827135E+002  +2.0512985882E-001 -1.5761708738E+002 
1761032.541 +1.2660446701E-001 +1.7020684271E+002  +8.8273350742E-004 +1.5430291021E+001  +4.3983409857E-004 +1.1755298739E+002  +2.5041193391E-001 -1.6058395155E+002 
1886177.722 +1.3282322805E-001 +1.6890330793E+002  +3.1195334850E-003 +9.3794816496E+001  +3.7147820490E-003 -7.4523464870E+001  +1.2326851583E-001 -1.5897826577E+002 
2011322.904 +1.3078648030E-001 +1.6747436555E+002  +2.1792596193E-003 +1.3080882658E+002  +2.2977327015E-003 -1.0883490223E+002  +1.8139278248E-001 -1.6580552943E+002 
2136468.085 +1.2702643151E-001 +1.6483805963E+002  +1.6572383242E-003 -2.7415082775E+001  +3.2819536735E-003 -1.0004928303E+002  +2.0235358855E-001 -1.7182584944E+002 
2261613.267 +1.3847420736E-001 +1.6589210574E+002  +4.4346910017E-003 +1.2138632759E+002  +2.9364457233E-003 -1.5227736583E+002  +1.6521259761E-001 +1.6231200891E+002 
2386758.448 +1.3572920628E-001 +1.6532729649E+002  +4.8417249870E-003 +9.4152209846E+001  +8.6299105766E-003 -8.0848828746E+001  +1.6977088353E-001 +1.6669727834E+002 
2511903.630 +1.2376820910E-001 +1.6543973125E+002  +5.1954629806E-003 +2.3408067649E+001  +7.8286969107E-003 +2.4857994966E+001  +1.6801125852E-001 +1.3446653962E+002 
2637048.811 +1.0281147566E-001 +1.6466786762E+002  +1.5352021732E-003 -7.6369989593E+001  +3.4229220087E-003 +1.2962220562E+002  +1.8336597524E-001 +1.5111305498E+002 
2762193.992 +9.5292848957E-002 +1.7709042876E+002  +1.9374805699E-002 +7.1434109136E+001  +6.8766137735E-002 -1.1170957276E+002  +6.4704621158E-001 +6.2594943478E+001 
2887339.174 +1.1809461111E-001 +1.7362060974E+002  +7.3428428515E-003 -1.3444467986E+002  +1.0448525976E-002 +1.6714868560E+002  +3.5723297798E-001 -1.0210264232E+002 
3012484.355 +1.1481189980E-001 +1.7785909825E+002  +8.1187112704E-004 +1.5685722623E+002  +4.4059054279E-003 +1.0881097262E+001  +1.7703271675E-001 -1.5321415307E+002 
3137629.537 +9.6822393477E-002 +1.5968831307E+002  +2.4936703178E-003 +2.0849075726E+001  +1.8502464895E-002 -1.5707119555E+001  +7.0141756592E-002 -1.2452906699E+002 
3262774.718 +1.2619949410E-001 +1.6521701262E+002  +6.0386386810E-003 -8.9362448206E+001  +1.9991962719E-002 -6.6943999870E+001  +3.4577303009E-001 -5.6537017111E+001 
3387919.900 +1.1366120207E-001 +1.4611432894E+002  +2.1648940006E-002 +3.3572697494E+001  +8.9433439225E-003 -1.4658662219E+002  +3.8469414825E-002 -5.4309865875E-001 
3513065.081 +1.5222740320E-001 +1.4520791426E+002  +1.5835855155E-002 +1.0141782578E+001  +1.0397083256E-002 -2.8228589975E+001  +4.0046303948E-001 +1.1195321328E+002 
3638210.263 +1.5179040273E-001 +1.5346469638E+002  +1.1367265548E-002 +5.6113915358E+001  +1.2984952423E-002 +1.2637452835E+002  +4.4743114205E-001 +1.2378360959E+002 
3763355.444 +1.6825037989E-001 +1.5173893536E+002  +2.3636324096E-003 +1.5592258774E+002  +6.6713217714E-003 -2.5048849462E+001  +4.1786305558E-001 +1.0087431353E+002 
3888500.626 +1.6974024024E-001 +1.4651376619E+002  +2.9788773509E-003 +2.9565541575E+001  +6.3073433426E-004 +1.6067005472E+002  +2.7566515099E-001 +8.3691218011E+001 
4013645.807 +2.0517238590E-001 +1.4570526516E+002  +9.6980815797E-003 +1.5628628063E+002  +7.1917295618E-003 +8.3470356624E+001  +4.2749794213E-001 +1.4190435307E+002 
4138790.989 +1.7636680599E-001 +1.3962338535E+002  +1.8223047981E-002 +9.5978490182E+001  +1.4540117482E-002 +4.4553297402E+001  +5.7693755617E-001 +9.3907667884E+001 
4263936.170 +1.8607664662E-001 +1.3714798855E+002  +1.1423552786E-002 +2.7396517577E+001  +1.3805436363E-002 +3.6005883174E+001  +6.7738471587E-001 +1.0366227047E+002 
4389081.352 +1.9488183537E-001 +1.4244740404E+002  +5.1844656517E-003 +1.2227142663E+002  +5.0269277767E-003 +9.5948379429E+001  +2.6866076267E-001 +9.2437023979E+001 
4514226.533 +2.5210992402E-001 +1.3414029200E+002  +7.5680429714E-003 +8.9435236628E+001  +5.2012723994E-003 +8.9456554750E+001  +5.7895538265E-001 +1.0548583754E+002 
4639371.715 +3.1917679445E-001 +1.1995437118E+002  +1.5480592499E-002 +8.3883704597E+001  +2.5723598722E-002 +5.4166830184E+001  +8.8674444903E-001 +9.5267674635E+001 
4764516.896 +3.2161904920E-001 +1.2783120839E+002  +8.2356061197E-003 -9.0023388606E+001  +5.5865931634E-002 -1.8452353423E+001  +2.7786103599E+000 -3.0669487384E+001 
4889662.078 +4.3613437162E-001 +1.3661266340E+002  +7.1382045396E-002 -1.6188833507E+001  +6.6251462473E-002 -1.6573141097E+001  +2.9903909950E+000 -9.9698972828E+001 
5014807.259 +4.8328471332E-001 +1.0933709164E+002  +9.7577721537E-002 -7.1012535957E+001  +3.8395605737E-002 +7.2277121561E+001  +3.2819333825E+000 -8.4129864081E+001 
5139952.441 +4.5534141652E-001 +1.2790053622E+002  +1.7527454466E-002 +1.0853006646E+002  +1.4230458490E-002 +9.2945115317E+001  +2.7952641951E+000 +3.4218705608E+001 
5265097.622 +3.6959621064E-001 +1.2828606952E+002  +1.4091302995E-002 +1.5341659461E+002  +3.9684422315E-003 +9.9133444141E+001  +1.3290674838E+000 +1.2909838386E+002 
5390242.804 +4.0929179290E-001 +1.3245687174E+002  +1.2046388288E-002 +1.2746926905E+002  +2.6784706672E-002 -8.5804320838E+000  +1.5656752608E+000 +2.2711053065E+001 
5515387.985 +4.3492824418E-001 +1.3548082340E+002  +1.2490294812E-002 +1.4498721063E+002  +2.0932510972E-002 +8.4951387047E+001  +1.8268868293E+000 +1.0946489253E+002 
5640533.166 +4.3474383549E-001 +1.3195097753E+002  +3.6716145779E-002 +2.2227464164E+001  +1.3204005667E-002 +1.5245453785E+002  +1.6311769291E+000 +7.6231995325E+001 
5765678.348 +4.3833306559E-001 +1.2105419802E+002  +1.4155493384E-002 +1.5373747845E+002  +2.0624985694E-002 +1.2265372782E+002  +2.3018827076E+000 +1.0159601661E+002 
5890823.529 +5.7019057705E-001 +1.2461316912E+002  +3.5800008116E-002 +9.7322121536E+001  +2.7682747954E-002 +1.0391191334E+002  +3.7274219784E+000 +2.1283282382E+001 
6015968.711 +6.2174187400E-001 +1.1992539646E+002  +2.3228193995E-002 +8.4466508183E+001  +1.3991877212E-002 -6.5221314972E+001  +1.6628406943E+000 +4.6155296892E+001 
6141113.892 +7.8553805744E-001 +9.7671979217E+001  +7.3695939955E-002 +1.0730220188E+002  +3.1766044322E-002 +3.2163027125E+001  +2.2236059113E+000 +2.7798004843E+001 
6266259.074 +7.4227617141E-001 +1.0483724507E+002  +2.5012839380E-002 +9.0279596452E+001  +2.4148722571E-002 +8.0003994504E+001  +2.0422906872E+000 +2.4984962181E+001 
6391404.255 +1.0546009176E+000 +9.0499882038E+001  +1.4422172725E-002 -1.3536438670E+002  +1.5629879059E-002 +7.1952123675E+001  +1.6022318072E+000 +8.3972975260E+000 
6516549.437 +1.1225093378E+000 +6.4316754450E+001  +2.2750179364E-002 +2.8385183380E+001  +5.8593146583E-002 +3.9302640020E+000  +1.2272377269E+000 +1.4780097137E+001 
6641694.618 +1.3772525926E+000 +7.2784030345E+001  +2.3659305058E-002 +8.7209133535E+001  +2.5658743650E-002 +5.8895668602E+001  +1.6978737785E+000 +1.8261639681E+001 
6766839.800 +1.1647476402E+000 +4.7653940679E+001  +1.3388104817E-002 -1.1320011373E+001  +1.3671067614E-002 -1.8983142688E+000  +1.3190887772E+000 -1.1122758330E+001 
6891984.981 +1.3982738415E+000 +4.3872353770E+001  +1.8013297979E-002 +4.2840595328E+001  +2.3934161770E-002 +2.9480793843E+001  +1.4560909922E+000 +4.8107117418E-001 
7017130.163 +1.6611264708E+000 +1.4065175788E+001  +4.8024154602E-002 +1.5871508232E+001  +9.6940952191E-003 +7.1226715063E+001  +1.3704309771E+000 -5.8514998373E+000 
7142275.344 +1.7322725128E+000 +1.2841410193E+001  +1.5707054713E-002 -9.2619782010E+000  +3.0241292633E-002 -1.2400446294E+001  +1.4059875376E+000 -1.3339672592E+001 
7267420.526 +1.5793196731E+000 +5.2528867330E+000  +1.1633570521E-002 -1.1204261248E+001  +3.2198393187E-002 -2.8070577197E+001  +1.2940799263E+000 -8.7155234547E+000 
7392565.707 +1.2607959121E+000 +9.5225238475E-001  +8.4310614611E-003 +1.9951602797E+001  +2.7689447445E-002 +2.6586533244E+001  +1.2189537590E+000 -4.6244752837E+000 
7517710.889 +1.0982864992E+000 -9.7316928511E-001  +1.4953476122E-002 +4.9256449842E+001  +1.3434134103E-002 +2.1164566228E+001  +1.1199399445E+000 -7.7177637211E+000 
7642856.070 +1.1935525740E+000 -6.0981693642E-002  +1.5290995190E-002 +1.0511666371E+000  +7.1176603299E-003 +1.4863863326E+000  +1.0873576359E+000 -7.2330957633E+000 
7768001.252 +9.0600211378E-001 -1.2040439983E+000  +1.0139200113E-002 -2.0544057264E+001  +1.5456842814E-002 +2.2269746677E+001  +9.8553308602E-001 -5.9741107615E+000 
7893146.433 +7.9300321524E-001 +9.5085174776E+000  +9.2535229276E-003 +1.0297257657E+000  +3.1305130441E-003 -6.3003287516E+000  +8.9301587432E-001 -8.8722052977E-001 
8018291.615 +7.7369009081E-001 +5.1254765960E+000  +1.3156448679E-002 +3.5250558263E+001  +7.8687133446E-003 +2.3198739885E+001  +7.5692843341E-001 -4.3771390719E+000 
8143436.796 +7.8982066259E-001 +9.4558723786E+000  +1.2854144563E-002 +5.1904058020E+001  +1.6087783551E-002 +4.1895353406E+001  +8.1214953343E-001 -2.5234119160E-001 
8268581.977 +8.1868772075E-001 +6.9708066804E+000  +9.6758817557E-003 +5.0208900463E+001  +6.5804167690E-003 +1.2629945859E+001  +8.1977973970E-001 +4.4037144343E+000 
8393727.159 +6.4994132181E-001 +2.0021662301E+000  +5.5586606253E-003 -2.9911250064E+000  +9.5205545970E-003 +1.4082315068E+001  +7.2850721873E-001 +3.5659448062E+000 
8518872.340 +6.8625959825E-001 +1.0087605306E+001  +1.3889880891E-002 +1.0492139960E+001  +1.1726012329E-002 +5.4802823690E+001  +6.8597883959E-001 -4.0033007142E+000 
8644017.522 +6.4915273352E-001 +8.3073675023E+000  +1.1324212510E-002 +2.8897970289E+001  +8.1286048841E-003 +4.1232395934E+001  +6.7060581374E-001 -1.4215284951E+000 
8769162.703 +5.7613225084E-001 +7.5976488487E+000  +8.7393180468E-003 +1.0821059394E+001  +8.8305084925E-003 +2.6622339683E+001  +6.9119871334E-001 -2.5750081190E-001 
8894307.885 +5.8536357529E-001 +8.6842970439E+000  +7.8525522728E-003 +1.0409943959E+001  +8.1815859646E-003 +5.9024068879E+001  +6.9324982175E-001 -1.3837937660E+000 
9019453.066 +6.3268852680E-001 +4.3978726171E+000  +1.4337172743E-002 +2.1106423798E+001  +1.0452953318E-002 +7.8109636900E+001  +6.6876808243E-001 +3.2181387952E+000 
9144598.248 +5.8549943257E-001 +2.1604490603E+000  +9.0571579703E-003 +1.9859031273E+001  +9.4173353173E-003 +3.4168075550E+001  +6.1150703658E-001 -3.5751962660E+000 
9269743.429 +5.3496564769E-001 +4.8864840811E+000  +8.9033266628E-003 +3.5435225930E+001  +1.0501140337E-002 +4.4893153228E+001  +6.2663645630E-001 -2.4362071476E+000 
9394888.611 +4.9745586246E-001 +3.9352310378E+000  +6.4864574160E-003 +3.6470734683E+001  +7.5084974110E-003 +5.8972680611E+001  +5.7846760058E-001 -2.6788670165E+000 
9520033.792 +5.5509995883E-001 +4.5626049156E+000  +8.1679336157E-003 +1.5480598649E+001  +6.8373205200E-003 +3.6822552542E+001  +5.6912799575E-001 -1.2475383741E+000 
9645178.974 +5.1841869951E-001 -1.1870229784E+000  +8.7995084943E-003 +3.4059754125E+000  +9.5208106381E-003 +3.8905690395E+001  +5.7263153280E-001 -6.5404763172E+000 
9770324.155 +5.2363998170E-001 -4.2447471020E+000  +8.5969726904E-003 +6.1393068153E+000  +9.5217989635E-003 +2.5312038053E+001  +6.0024462882E-001 -4.9262627053E+000 
9895469.337 +5.0946393174E-001 +3.4768460418E+000  +9.2644158080E-003 +3.0496598107E+001  +1.0994996282E-002 +2.3010127876E+001  +6.0564494544E-001 -4.4672515550E+000 
10020614.518 +4.9725395073E-001 +1.1210875997E+000  +9.8253759948E-003 +1.5741334258E+001  +7.2597881070E-003 +4.8338755503E+001  +5.4811095714E-001 -5.6710725737E+000 
10145759.700 +5.9143015327E-001 +2.8546995225E+000  +8.4212152826E-003 +1.4453850845E+001  +1.0890484321E-002 +4.4100880470E+001  +5.8117293522E-001 -7.8617350950E-001 
10270904.881 +5.5984069269E-001 +9.5538030272E+000  +1.0408183561E-002 +4.6495897762E+001  +9.1816836619E-003 +5.1125715264E+001  +5.9530700057E-001 -3.7904744456E+000 
10396050.063 +5.7842423042E-001 +5.0371395770E+000  +1.1192446834E-002 +7.9225467386E+000  +9.7713778299E-003 +2.4830982743E+001  +5.7332086120E-001 -2.2051331501E+000 
10521195.244 +5.1974045689E-001 +3.6372063129E+000  +1.0336568779E-002 +1.9562694918E+001  +9.5675181205E-003 +6.1436838636E+001  +5.7860825546E-001 -9.4118080330E-001 
10646340.426 +5.6223398373E-001 +6.1923273233E+000  +1.0167056354E-002 +2.4043000646E+001  +9.4939134403E-003 +4.3994384586E+001  +5.7213740964E-001 +6.4642180842E-001 
10771485.607 +5.9822841118E-001 +1.0726187445E+001  +9.3024111668E-003 +3.0151910582E+001  +1.1866170616E-002 +4.5004155973E+001  +5.2715858492E-001 +1.0582250336E+000 
10896630.788 +5.6224627038E-001 +6.2897657744E+000  +1.3372337419E-002 +2.6989590474E+001  +7.9868149158E-003 +1.7188889773E+001  +5.9447724138E-001 -1.3959599407E+000 
11021775.970 +5.7512614890E-001 +6.5324599526E+000  +1.0753433969E-002 +3.2606486220E+001  +1.0475099146E-002 +4.1352529763E+001  +5.8753035772E-001 +3.1911511596E+000 
11146921.151 +5.8752236712E-001 +5.8446283920E+000  +8.8456619274E-003 +3.1211056458E+001  +1.1356398467E-002 +4.8059103635E+001  +5.9837269419E-001 +2.2860848019E+000 
11272066.333 +6.1209422497E-001 +6.9229715996E+000  +1.0346148208E-002 +3.5975944250E+001  +8.4847322882E-003 +4.0759142977E+001  +6.1745119311E-001 +3.6335538477E+000 
11397211.514 +6.1310284451E-001 +6.3461396848E+000  +1.0648428551E-002 +2.0151560154E+001  +9.4941055401E-003 +3.4203617995E+001  +6.2161075014E-001 +3.5199062929E+000 
11522356.696 +6.3364375298E-001 +6.9351287997E+000  +8.5210525391E-003 +3.0547345018E+001  +9.6560094619E-003 +5.0966231941E+001  +6.6098658717E-001 +3.1967197289E+000 
11647501.877 +6.2795227677E-001 +3.7340939489E+000  +9.4984598683E-003 +3.6493030381E+001  +1.0644370013E-002 +3.9404335027E+001  +6.6426340408E-001 +2.1865918737E+000 
11772647.059 +6.6082836799E-001 +7.8383609461E+000  +9.3315145272E-003 +2.9530683642E+001  +1.1384191865E-002 +3.8636472615E+001  +6.6603927873E-001 -1.3428425248E+000 
11897792.240 +6.3090788755E-001 +2.5678835535E+000  +1.1064871792E-002 +3.6350152200E+001  +9.6814088344E-003 +3.6696179615E+001  +6.6549751421E-001 +3.2041681725E+000 
12022937.422 +6.7360190566E-001 +3.7989824566E+000  +1.1112776194E-002 +3.6151941251E+001  +1.0394621326E-002 +4.1897648703E+001  +6.8461166029E-001 +8.2327857845E-001 
12148082.603 +6.9495038796E-001 +3.6132597795E+000  +1.3434197341E-002 +2.6177193310E+001  +9.6862351341E-003 +4.0887536864E+001  +7.0597691798E-001 +1.8811466867E+000 
12273227.785 +6.9220817241E-001 +3.4362909186E+000  +1.2286037400E-002 +3.1177488570E+001  +1.2635903997E-002 +3.2500895540E+001  +7.2148676235E-001 +1.0272055763E+000 
12398372.966 +7.2132815126E-001 +2.6370130381E+000  +1.3037824064E-002 +4.1110455909E+001  +1.1536701621E-002 +3.9931655794E+001  +7.0425599451E-001 -1.6036899350E+000 
12523518.148 +7.3126784816E-001 +1.2881737017E+000  +1.1362114170E-002 +2.6405080522E+001  +1.1535561993E-002 +4.1788417752E+001  +7.2648784328E-001 +3.6461976868E-002 
12648663.329 +7.4639072986E-001 +3.1338409621E+000  +1.0788210204E-002 +3.7508057208E+001  +1.2320767333E-002 +4.2772401697E+001  +7.5488732377E-001 +1.0278059415E+000 
12773808.511 +7.5813895687E-001 +1.4631338279E+000  +1.1274773848E-002 +3.1074512815E+001  +1.3562565440E-002 +3.5820058842E+001  +7.4949226160E-001 -1.0058370200E+000 
12898953.692 +7.7033964749E-001 +1.7833206390E+000  +1.1829235052E-002 +3.2221436858E+001  +1.1612269219E-002 +3.7903510901E+001  +7.7550484392E-001 -5.1386862388E-001 
13024098.874 +7.6812941969E-001 -9.8877722360E-002  +1.1412711516E-002 +3.8907247245E+001  +1.1117209259E-002 +3.2689023725E+001  +8.0319076120E-001 -1.5900461907E-001 
13149244.055 +7.9148305708E-001 +5.8671686218E-001  +1.1620367925E-002 +3.6962373433E+001  +9.8142106975E-003 +3.8905992474E+001  +8.1066469673E-001 -2.5436467233E+000 
13274389.237 +8.4105778920E-001 -3.4323811130E-001  +1.2690933323E-002 +2.9741774330E+001  +1.1904980622E-002 +3.6867839406E+001  +8.3714606320E-001 -3.0270945121E+000 
13399534.418 +8.3722665390E-001 -1.0203808998E+000  +1.2128324405E-002 +3.5117728313E+001  +1.3991546655E-002 +3.1292459123E+001  +8.3672014939E-001 -2.9435776348E+000 
13524679.599 +8.4829365659E-001 -9.4748136293E-001  +1.3085604492E-002 +4.0076428903E+001  +1.0300259697E-002 +4.0918211183E+001  +8.6525193274E-001 -1.5183017568E+000 
13649824.781 +8.6665320899E-001 -2.6234475213E+000  +1.2824311928E-002 +3.4465286444E+001  +1.1829105564E-002 +4.0921142269E+001  +8.8559017697E-001 -2.3242048424E+000 
13774969.962 +8.8172972377E-001 -3.8101679192E+000  +1.2412167728E-002 +3.6887326100E+001  +1.3896609766E-002 +4.0119019509E+001  +8.8192078300E-001 -1.3722520975E+000 
13900115.144 +8.9511624119E-001 -2.4876485256E+000  +1.2931091064E-002 +3.4995302766E+001  +1.1465813911E-002 +3.5089705182E+001  +9.1786817673E-001 -4.4169989911E+000 
14025260.325 +9.1481672589E-001 -3.9167013614E+000  +1.3758115523E-002 +3.7257285966E+001  +1.3131377572E-002 +3.6415860398E+001  +9.3067767958E-001 -5.6410716708E+000 
14150405.507 +9.2797417695E-001 -5.3758658080E+000  +1.3268911540E-002 +3.7310823465E+001  +1.4628905391E-002 +3.7946200390E+001  +9.3395844383E-001 -3.6137123748E+000 
14275550.688 +9.3426361189E-001 -5.7753108423E+000  +1.4230407834E-002 +3.6722643000E+001  +1.2580318489E-002 +4.3131826185E+001  +9.6837973327E-001 -4.3761174330E+000 
14400695.870 +9.6987995348E-001 -5.8554489648E+000  +1.3822742163E-002 +3.3854479773E+001  +1.2298227825E-002 +3.7321496512E+001  +9.7651135731E-001 -4.7400271193E+000 
