!  2-Port S-parameters saved by WinCal
! VAR MeasName=S-Parameters (CALIBRATED_DATA) read from VNA (P5004A)
! VAR MeasDate=27/08/2024 16:06:04
! VAR NAME=S2_r1c9_RESET1_9k-100M_3
! VAR FILENAME=S2_r1c9_RESET1_9k-100M_3.S2P
! VAR DATE=27/08/2024 16:06:04
! VAR PHYS_PORTS=1,2
! VAR ObjTypeName=DATASET
! VAR IndexType=Frequency
!
# Hz S MA R 50
9000.000 +8.1208273525E-002 -1.5684325444E+002  +1.2224862702E-002 -1.4761988372E+002  +7.2615170426E-003 +8.3848248002E+001  +2.4230226621E-001 -1.4600147399E+002 
134145.181 +1.1070510926E-001 +1.6971850603E+002  +7.6526547747E-004 +1.0855523740E+002  +4.8623245196E-004 +1.1563158350E+002  +2.4154138114E-001 -1.7043991825E+002 
259290.363 +1.1122787379E-001 +1.6957829268E+002  +3.3702591683E-004 +1.3833637962E+002  +5.0409429843E-004 +1.3416067354E+002  +2.4197461077E-001 -1.6945427554E+002 
384435.544 +1.1321398787E-001 +1.7005820714E+002  +7.9095484773E-004 -1.0123753504E+002  +1.1939253365E-004 +3.3402638165E+001  +2.4610723016E-001 -1.6926522783E+002 
509580.726 +1.1258688549E-001 +1.7106156510E+002  +1.0504442694E-003 -1.6744030438E+002  +1.1389702916E-003 +9.1348148332E+000  +2.4233354232E-001 -1.6584446513E+002 
634725.907 +1.1841863795E-001 +1.7075241471E+002  +3.8114783622E-004 +7.3047471348E+001  +9.7958493315E-004 -1.6204028769E+002  +2.5010103515E-001 -1.6333035220E+002 
759871.089 +1.1683500382E-001 +1.7117559786E+002  +4.3881909352E-004 -6.1629244289E+001  +9.2141115171E-004 +2.0259702472E+001  +2.5205467666E-001 -1.6505039235E+002 
885016.270 +1.1822694704E-001 +1.6923416774E+002  +5.8349390998E-004 -5.7277495064E+001  +7.7233560439E-004 +1.0493251881E+002  +2.5129680731E-001 -1.6266800038E+002 
1010161.452 +1.1527468403E-001 +1.7066753776E+002  +2.8052545854E-003 +4.6689945900E+001  +3.0042914014E-003 +1.6942052713E+002  +2.3384435214E-001 -1.4970535356E+002 
1135306.633 +1.1133713634E-001 +1.7043223141E+002  +2.1287812161E-003 +9.7477771141E+001  +5.2137067791E-003 -1.3286942649E+002  +1.8301921162E-001 -1.6026302545E+002 
1260451.815 +1.2072148793E-001 +1.7076324318E+002  +1.0622769795E-003 -3.5020578390E+000  +2.0268310672E-003 -8.3078308261E+001  +2.5027817712E-001 -1.5716797225E+002 
1385596.996 +1.2509220178E-001 +1.7103524722E+002  +3.6072685736E-004 -1.2663356220E+002  +1.2455564371E-003 -1.3577483705E+002  +2.7146046232E-001 -1.5863385558E+002 
1510742.178 +1.2521302794E-001 +1.7012497048E+002  +8.6665901153E-004 -4.4035746470E+001  +5.9875282157E-004 -8.1361580561E+001  +2.5114027243E-001 -1.6003439404E+002 
1635887.359 +1.2663235071E-001 +1.6992764737E+002  +7.7362163567E-004 +3.6194571570E+001  +8.2571816999E-004 +6.8049758563E+001  +2.3773400127E-001 -1.5685371546E+002 
1761032.541 +1.2689880133E-001 +1.6754618645E+002  +1.8681848862E-003 +1.7512275790E+002  +1.9012392657E-003 +1.4697031047E+002  +2.0719434925E-001 -1.5053744249E+002 
1886177.722 +1.3144065051E-001 +1.6853622337E+002  +1.2392934889E-003 -1.2245904188E+002  +2.8584410773E-003 +1.2445762427E+002  +1.7151344774E-001 -1.6831395894E+002 
2011322.904 +1.3118866881E-001 +1.6656546123E+002  +9.0142042079E-004 +7.6864668185E+001  +2.4044095413E-003 +2.0567366354E+001  +1.8354481099E-001 -1.6112277384E+002 
2136468.085 +1.2648007696E-001 +1.6486587898E+002  +2.3934975815E-003 +1.2855737679E+002  +2.7227817705E-003 +1.3526635000E+002  +2.0781376484E-001 -1.6250365459E+002 
2261613.267 +1.3352659123E-001 +1.6297166407E+002  +2.4136984050E-003 -1.0682419863E+002  +3.7478475077E-003 +1.0977200009E+002  +1.6854952943E-001 +1.7417352978E+002 
2386758.448 +1.4085457857E-001 +1.6224269011E+002  +1.5469797949E-003 +1.4947441720E+002  +1.3472239776E-003 +1.3103105440E+002  +2.6223466162E-001 +1.6963967104E+002 
2511903.630 +1.2258630459E-001 +1.6266514716E+002  +4.1108583913E-003 +1.4123443731E+002  +1.7206053773E-003 -1.2960212343E+002  +3.3233008451E-001 +1.6517136536E+002 
2637048.811 +1.1080229318E-001 +1.6242194312E+002  +2.0412065066E-002 +5.7402446568E+001  +2.7010647707E-002 +9.9776099488E+001  +5.7585361206E-001 +1.4278002745E+002 
2762193.992 +1.1836295601E-001 +1.6678395124E+002  +7.0809287841E-003 +6.0966143247E+000  +8.5562159856E-003 -7.8697053445E+001  +3.0295359608E-001 -1.0394474525E+002 
2887339.174 +1.1568684761E-001 +1.6114998238E+002  +8.3233095792E-003 -8.8176941797E+001  +7.7454175423E-003 -3.0263385797E+001  +2.7983740567E-001 -1.1345307014E+002 
3012484.355 +1.0648222681E-001 +1.6824565825E+002  +1.3195340783E-002 +1.3684674641E+002  +8.7282480168E-003 -1.1744114909E+002  +3.4026431422E-001 -9.8078321984E+001 
3137629.537 +1.1623003405E-001 +1.7450739352E+002  +5.1774348797E-003 +1.1665922356E+002  +2.6186350718E-003 -9.3887786357E+001  +1.6778325156E-001 -4.3318267957E+001 
3262774.718 +1.2193796849E-001 +1.6819870307E+002  +9.7236993448E-003 -1.0121336566E+002  +2.1899093006E-002 -1.5449942742E+002  +1.2650232883E+000 -6.1729705713E+001 
3387919.900 +1.2159887568E-001 +1.4809704186E+002  +1.0192993321E-002 +7.5935819615E+001  +1.4771614826E-002 +9.5312792712E+001  +3.2354891973E-001 -2.6980935252E+001 
3513065.081 +1.3761466906E-001 +1.4367817186E+002  +8.8061570232E-003 -1.0090285182E+002  +4.8003268596E-003 -2.5596746356E+000  +7.2311517049E-002 +3.8621462440E+001 
3638210.263 +1.8479922797E-001 +1.4970153416E+002  +5.4688018932E-003 -8.8053498746E+001  +5.8834141283E-003 +7.9364959645E+001  +3.3532648290E-002 -8.2410319715E+001 
3763355.444 +1.8075970662E-001 +1.4916281376E+002  +8.8712789845E-003 +1.4945826253E+002  +1.1076626956E-002 -1.7804516900E+002  +3.6718155973E-001 +1.0996944535E+002 
3888500.626 +1.7331561497E-001 +1.4758398891E+002  +5.0631017613E-003 +9.4853567215E+001  +4.2113488049E-003 +1.0216528027E+002  +5.3297413501E-001 +1.3964215304E+002 
4013645.807 +1.8607474868E-001 +1.4974131333E+002  +9.3035042131E-003 -1.1343115110E+002  +9.7388631399E-003 -1.0433375473E+002  +6.7040520963E-001 +1.5884861363E+002 
4138790.989 +1.8144983733E-001 +1.3927507436E+002  +7.7440531675E-003 +4.2577737131E+001  +1.7794883013E-002 -1.4814178058E+002  +5.1196260533E-001 +1.2405700113E+002 
4263936.170 +2.1044162399E-001 +1.4566030977E+002  +1.1338535403E-002 -8.4470228362E+001  +1.0336532768E-002 +6.4106410110E+001  +5.7060390932E-001 +1.2079778698E+002 
4389081.352 +2.3156810856E-001 +1.4393365951E+002  +1.3364028016E-002 +6.1725389003E+001  +2.3449198663E-003 -7.3593840135E+001  +3.9572396621E-001 +9.9414734445E+001 
4514226.533 +2.5399226172E-001 +1.0901472868E+002  +6.2952301609E-002 -1.6120802511E+002  +7.9808097918E-002 -7.2122350297E+000  +1.8025238432E+000 +2.6083655951E+001 
4639371.715 +2.7379218393E-001 +1.2989986538E+002  +2.0811089078E-002 +1.5539867740E+002  +1.2639047811E-002 +1.3228853461E+002  +1.2350871751E+000 +5.7987230769E+001 
4764516.896 +3.3906283847E-001 +1.3246866903E+002  +2.7090275682E-002 +1.6258501167E+002  +1.4665370768E-002 -9.5974647926E+001  +2.1779027272E+000 -1.7587898003E+002 
4889662.078 +6.0938476619E-001 +1.3178302578E+002  +4.0688281129E-002 -1.1026910502E+002  +2.1930581707E-002 +1.4049768158E+002  +2.3408611653E+000 -8.4656885010E+001 
5014807.259 +4.3211683479E-001 +1.3461184157E+002  +1.3406580244E-002 -1.2322768878E+002  +2.7334921383E-002 -8.0887623426E+001  +2.3528590323E+000 +1.3961681216E+002 
5139952.441 +5.5738229528E-001 +1.2889927974E+002  +3.0766594392E-002 -1.5584067537E+002  +2.0901600229E-001 +1.5027584872E+002  +1.2657741221E+001 -1.0031910755E+002 
5265097.622 +4.0914375534E-001 +1.3038155030E+002  +1.3681793546E-002 +4.7343691013E+001  +2.7899317043E-002 +1.6361741859E+002  +1.2249107297E+000 +1.1168352804E+002 
5390242.804 +4.8332970682E-001 +1.2537255500E+002  +1.0307267525E-002 +4.9717172448E+001  +2.2373553759E-002 -3.0337939258E+001  +2.6019095129E+000 +1.0850203867E+002 
5515387.985 +5.2811196813E-001 +1.2088594860E+002  +4.7576228849E-002 -2.6612130298E+001  +3.3312899942E-002 +1.0021853979E+002  +3.3810310021E+000 +6.3093322385E+001 
5640533.166 +5.1709967423E-001 +1.2691096070E+002  +1.2093291917E-002 +1.0669843869E+002  +1.0726443711E-002 +2.0901280012E+001  +7.7642877385E-001 +9.4629407535E+001 
5765678.348 +4.9395118411E-001 +1.1515268996E+002  +4.0763473584E-002 -1.5979842250E+002  +1.2928124788E-002 +3.3255335060E+001  +3.4974184265E+000 +6.9695371009E+001 
5890823.529 +5.4177918522E-001 +1.2058063489E+002  +1.4060278413E-002 +6.7282087619E+001  +1.8781678408E-002 -1.6993891897E+002  +1.3951898750E+000 +4.8555228492E+001 
6015968.711 +6.5776416753E-001 +1.1363239375E+002  +5.0013955628E-002 +1.4198376623E+002  +2.4563565877E-002 -1.7860170432E+002  +4.5091480027E+000 +5.5310605043E+001 
6141113.892 +7.5808498874E-001 +1.0789836329E+002  +3.3588576376E-002 +2.1973689643E+001  +1.6432613409E-002 +2.4957751699E+001  +1.9208669264E+000 +2.3094293280E+001 
6266259.074 +8.9568527262E-001 +9.2987381667E+001  +6.0334953458E-003 -1.6135995206E+002  +4.8128533427E-002 +3.4393894792E+001  +1.3587427977E+000 +2.3740153613E+001 
6391404.255 +1.0868096779E+000 +9.1066841845E+001  +1.6110552729E-002 +1.4340094594E+002  +2.8986103657E-002 +8.8402957077E+001  +1.4121107800E+000 +1.4896308861E+001 
6516549.437 +1.4179767841E+000 +1.0053414839E+002  +3.3680202612E-002 +3.8887621619E+001  +2.4342827711E-002 +7.7908866644E+001  +1.9966066704E+000 +1.9457500756E+001 
6641694.618 +1.9311689145E+000 +8.4776948634E+001  +1.9968522253E-002 +6.0962054764E+000  +3.2020253639E-002 +1.5834125857E+002  +1.4003612456E+000 +5.9874726512E+000 
6766839.800 +2.0066590425E+000 +4.4884328009E+001  +9.0496193633E-003 -2.7511365258E+001  +4.3865762386E-003 +8.7088366911E+001  +1.3767163425E+000 -1.4249066672E+001 
6891984.981 +2.2333935368E+000 +1.8417216237E+001  +9.2875377395E-003 -5.2012549750E+001  +3.2027211955E-002 +8.5691638306E+001  +1.3335481153E+000 -1.6017494605E+001 
7017130.163 +2.3409490980E+000 +1.7724353835E+001  +8.3332845681E-003 -1.4929255244E+002  +2.0691947293E-002 +1.5096423330E+002  +1.4005577847E+000 -9.3523802213E+000 
7142275.344 +1.7704045669E+000 +2.7035350251E+000  +2.5685803997E-002 +6.9566292617E+001  +2.1367727016E-002 -3.1964183298E+001  +1.2756197551E+000 -1.0405952686E+001 
7267420.526 +1.5876469465E+000 -1.7750610163E+000  +1.2792943280E-002 +8.3895077731E+001  +1.6659939291E-002 +1.0710474990E+002  +1.4786844101E+000 -1.7088777573E+001 
7392565.707 +1.3456915404E+000 +1.9861076455E-001  +6.2407762301E-003 +5.3102949845E+001  +4.4319106898E-003 +1.2780677535E+002  +1.3795230448E+000 -6.5900353356E+000 
7517710.889 +1.2372957471E+000 +2.0057305740E+000  +9.6095780651E-003 +5.7900946848E+001  +5.7106820670E-003 +8.9230373893E+001  +1.2111442984E+000 -6.8159188705E+000 
7642856.070 +1.1092582087E+000 +4.7538452651E-001  +4.7450793691E-003 +1.1713066834E+002  +8.1399184376E-003 -3.5672927907E+000  +1.0395810378E+000 -6.8213053736E+000 
7768001.252 +9.7323431619E-001 +2.0384782030E-001  +4.2017227992E-003 +6.5471727549E+000  +3.0805836432E-003 -1.3470852053E+002  +1.0543891441E+000 +2.6584691353E-001 
7893146.433 +9.2353055910E-001 -2.2686804333E+000  +3.2175845214E-003 +9.6298344797E+001  +6.7535905643E-003 +8.2627340239E+001  +1.0247061826E+000 -1.0840405085E+000 
8018291.615 +8.5514460647E-001 +3.0597477117E+000  +1.0163380678E-002 +4.5926703745E+001  +5.3574813320E-003 +1.0770525711E+002  +9.0605842840E-001 -3.4257276538E+000 
8143436.796 +7.1114046216E-001 +7.8635073672E+000  +2.4627667647E-003 +5.3827708188E+001  +8.2777428475E-004 -4.2632533158E+001  +7.7618647298E-001 -1.5259481661E+000 
8268581.977 +7.5477579655E-001 +4.6548720754E+000  +5.6383504660E-003 +8.8139881457E+001  +5.2802130288E-003 +1.6025129668E+001  +7.5876605312E-001 -6.0427155472E-001 
8393727.159 +7.0000848350E-001 +1.5545693052E+001  +6.0567282489E-003 +1.3136535226E+002  +6.9540037393E-003 +1.0001448896E+002  +7.7465965097E-001 -4.1376914950E+000 
8518872.340 +6.5417021948E-001 +1.2021990940E+001  +3.0482472912E-003 +8.0823657229E+001  +5.1601992533E-003 +1.0607706854E+002  +7.1985761342E-001 -1.1113062670E+000 
8644017.522 +6.2128281315E-001 +6.3209839617E+000  +1.4244643999E-003 +3.3127789379E+001  +3.2777545791E-003 +9.6197206078E+001  +7.1704265165E-001 +1.8629443355E+000 
8769162.703 +6.7127706005E-001 +3.9264051794E+000  +3.7919751504E-003 +1.4130665673E+002  +4.9663629416E-003 +1.5760393596E+002  +6.9659665357E-001 -9.5562702228E-001 
8894307.885 +6.3515470390E-001 +9.5520889144E+000  +5.4264042603E-003 +9.6762176803E+001  +1.0953550660E-003 +2.9082649034E+001  +6.9261075548E-001 -2.0414764286E+000 
9019453.066 +5.8844912976E-001 +6.2357037718E+000  +3.0196802806E-003 +6.1506515759E+001  +3.8576982688E-003 +9.7637687348E+001  +6.6837101749E-001 -6.2956774224E-001 
9144598.248 +5.5582206607E-001 +4.2046925539E+000  +4.2639999698E-004 -1.3971200996E+001  +5.4386842354E-003 +8.2916870418E+001  +6.4110093235E-001 +1.6448278162E+000 
9269743.429 +5.9104529416E-001 +1.3097067952E+000  +6.1621699010E-003 +8.6734395078E+001  +4.7202124341E-003 +6.2594279336E+001  +6.2328905828E-001 -3.5976040297E+000 
9394888.611 +5.7655599561E-001 +4.3261687033E+000  +6.9994884151E-003 +7.5015276609E+001  +1.4834757173E-003 +3.5280886773E+001  +5.9545120426E-001 +2.7570243946E+000 
9520033.792 +5.5366062871E-001 +2.0553365008E+000  +6.1804987855E-003 +7.2108684306E+001  +5.6198261387E-003 +8.6223079894E+001  +5.8334105201E-001 -3.3253449607E-001 
9645178.974 +5.6868388274E-001 -1.5217329069E-002  +4.8326465773E-003 +8.4000498092E+001  +4.1911827867E-003 +5.9183835107E+001  +6.0028981463E-001 -3.3717620848E+000 
9770324.155 +5.6794701132E-001 -2.0285929735E+000  +1.8863154872E-003 +8.1318947934E+001  +2.2005248147E-003 +8.8665853459E+001  +5.6057108675E-001 -7.6895261406E+000 
9895469.337 +5.3669188659E-001 +1.7199597336E+000  +2.2524975733E-003 -1.7793832710E+002  +1.2885057922E-003 +4.9508677285E+001  +5.6600883703E-001 -3.7361123073E+000 
10020614.518 +5.4352865516E-001 +3.7399367689E+000  +5.4159767321E-003 +9.9637391999E+001  +2.2971032044E-003 +5.7540123962E+001  +5.6045711470E-001 -4.6078248346E-001 
10145759.700 +5.6434607072E-001 +2.5477320239E+000  +1.4065859818E-003 +9.7925949270E+001  +2.8498618627E-003 +1.0810977469E+002  +5.8173655303E-001 -2.5910096116E+000 
10270904.881 +5.7850350417E-001 +3.4084088953E+000  +4.2150168932E-003 +6.8764520393E+001  +3.0121773504E-003 +9.6148571139E+001  +5.4644301188E-001 -4.4333293035E+000 
10396050.063 +5.7008182925E-001 +4.8554026674E+000  +9.0099738927E-004 +8.8734536842E+001  +4.1721524940E-003 +8.1460182660E+001  +6.1370426966E-001 -1.4566064203E+000 
10521195.244 +5.4254914510E-001 +7.2148781109E+000  +2.7959505475E-003 +9.5986210879E+001  +2.4030018491E-003 +9.9829602724E+001  +5.8299072984E-001 -4.6936910143E+000 
10646340.426 +5.5248705661E-001 +5.7876298617E+000  +3.4427549032E-003 +8.2588600485E+001  +5.2648179487E-003 +9.3769105722E+001  +6.0282843649E-001 -2.2536809044E+000 
10771485.607 +5.5351780720E-001 +5.8791709993E+000  +4.2276138911E-003 +6.1996514469E+001  +4.7907772361E-003 +7.0485110363E+001  +5.7606454327E-001 +1.3611434056E-001 
10896630.788 +5.6479740930E-001 +8.4215654143E+000  +2.3209751925E-003 +6.6445705008E+001  +5.2706873297E-003 +9.9054963075E+001  +6.1197154579E-001 +1.3485664335E+000 
11021775.970 +6.0182079407E-001 +5.5088402713E+000  +4.5811436717E-003 +9.3023453283E+001  +5.2133405682E-003 +1.2455088336E+002  +6.1342140096E-001 -1.2221906941E+000 
11146921.151 +5.9297366717E-001 +7.7683071636E+000  +3.8260985327E-003 +1.0840784321E+002  +3.6072335812E-003 +1.0022924999E+002  +6.4000602823E-001 +2.2090067219E+000 
11272066.333 +5.9066871424E-001 +7.6330901422E+000  +6.1864605064E-003 +9.3521759432E+001  +4.0253774380E-003 +1.1613575131E+002  +6.3306163219E-001 +2.9073503084E+000 
11397211.514 +6.1917665907E-001 +5.7202621936E+000  +6.4648873554E-003 +9.4823291894E+001  +3.5060087280E-003 +8.2624484315E+001  +6.3842849809E-001 +1.9662912111E+000 
11522356.696 +6.2677675886E-001 +4.5139424310E+000  +5.4247896148E-003 +8.9123540067E+001  +8.4993532871E-003 +9.9593461636E+001  +6.5877730065E-001 +6.7371642764E-001 
11647501.877 +6.3330751149E-001 +3.4106077207E+000  +5.6265627908E-003 +8.3826621725E+001  +6.1040964171E-003 +9.0869163784E+001  +6.5852888164E-001 -2.6736495964E-001 
11772647.059 +6.5204031397E-001 +6.5498247468E+000  +4.7418071783E-003 +9.1604667740E+001  +4.8671565774E-003 +8.2835561618E+001  +6.9242091590E-001 +1.8229408411E+000 
11897792.240 +6.6284994075E-001 +6.0491798866E+000  +2.7357220907E-003 +1.0282919395E+002  +6.2297792962E-003 +8.5472725158E+001  +6.8038171485E-001 +2.3892250984E-002 
12022937.422 +6.6336487698E-001 +4.8820734797E+000  +5.3865063147E-003 +1.0123809195E+002  +5.7146516192E-003 +8.8673078371E+001  +6.6746161493E-001 -2.7574679779E-001 
12148082.603 +6.6494521279E-001 +5.2308549711E+000  +5.7503056231E-003 +9.9527355571E+001  +3.0863554995E-003 +7.4358963297E+001  +6.9467488606E-001 -1.6204732256E-001 
12273227.785 +6.9738782853E-001 +2.3421361064E+000  +5.7714574280E-003 +1.1470533951E+002  +4.2475573831E-003 +1.0474727550E+002  +7.0949807969E-001 +6.9055119354E-001 
12398372.966 +7.2028782085E-001 +2.8010877769E+000  +4.9101066532E-003 +9.9365389812E+001  +4.5544184699E-003 +8.3725083008E+001  +7.4526751407E-001 +3.9957939059E-001 
12523518.148 +7.4008365351E-001 +3.6355482539E+000  +4.8880226100E-003 +1.0405544972E+002  +5.0355257562E-003 +9.4003763261E+001  +7.1624534923E-001 -4.1891183655E+000 
12648663.329 +7.3999357265E-001 +1.7125013448E+000  +6.7386606233E-003 +8.5049930878E+001  +5.1602836357E-003 +9.3741778738E+001  +7.4233140324E-001 -1.8662807310E+000 
12773808.511 +7.3997904859E-001 +2.4970575474E+000  +5.9593438575E-003 +9.4292348374E+001  +5.6969101851E-003 +9.4048913982E+001  +7.9707815904E-001 +2.5596215618E-001 
12898953.692 +7.7662841613E-001 -1.2666167236E+000  +5.6398348088E-003 +9.9448404059E+001  +5.6528559457E-003 +8.7974373292E+001  +7.7681206426E-001 -6.4538747834E-001 
13024098.874 +7.6338486501E-001 -6.3118331859E-002  +7.8486775765E-003 +9.5503265772E+001  +7.0262205772E-003 +1.0219646216E+002  +7.8395252188E-001 -1.6202809481E+000 
13149244.055 +8.1240655044E-001 -4.7993939517E-001  +5.8511563413E-003 +9.0500061744E+001  +6.6036320966E-003 +8.6665790383E+001  +8.0050493610E-001 -2.3658954690E+000 
13274389.237 +8.0605954718E-001 +5.0875993215E-001  +6.9159796785E-003 +8.4453073919E+001  +6.2543661210E-003 +9.4672546534E+001  +8.0735516597E-001 -2.5728350001E+000 
13399534.418 +8.3696095869E-001 -1.4710373979E+000  +5.7700965568E-003 +8.1625916869E+001  +8.6347976524E-003 +1.0149917574E+002  +8.3407405910E-001 -2.1785972888E+000 
13524679.599 +8.6778418455E-001 -1.4698853605E+000  +6.5888545105E-003 +9.2164480202E+001  +6.6536685003E-003 +9.1158016512E+001  +8.7539303954E-001 -3.1652979162E+000 
13649824.781 +8.8568234871E-001 -1.0639973914E+000  +7.4244397613E-003 +8.9883456952E+001  +6.0854545617E-003 +8.7598749976E+001  +8.6792234804E-001 -2.1645352753E+000 
13774969.962 +8.6941262436E-001 -1.4555275756E+000  +7.5040080491E-003 +9.2657412647E+001  +6.4854385484E-003 +9.1838347905E+001  +8.9823682855E-001 -3.5883713011E+000 
13900115.144 +8.9891466081E-001 -3.9852776218E+000  +6.9612523662E-003 +7.9649508444E+001  +6.4434189443E-003 +9.3701279549E+001  +9.1309595710E-001 -3.1295327893E+000 
14025260.325 +9.0094144842E-001 -3.8823763428E+000  +7.9454632306E-003 +9.9277713285E+001  +7.8485820709E-003 +9.3403808567E+001  +9.3570399489E-001 -2.8065799372E+000 
14150405.507 +9.3996680285E-001 -4.0616667078E+000  +6.7281353739E-003 +9.1263439577E+001  +6.5689238149E-003 +9.3588221860E+001  +9.4060156685E-001 -4.3333397031E+000 
14275550.688 +9.6435484437E-001 -4.3685195314E+000  +7.3929583942E-003 +9.1201951955E+001  +7.7074773436E-003 +8.4067749611E+001  +9.6408495882E-001 -4.5727575011E+000 
14400695.870 +9.7611087286E-001 -6.1104850758E+000  +7.0739212190E-003 +8.8374224626E+001  +7.7798915871E-003 +1.0538953697E+002  +9.7833766165E-001 -5.0946638209E+000 
