!  2-Port S-parameters saved by WinCal
! VAR MeasName=S-Parameters (CALIBRATED_DATA) read from VNA (P5004A)
! VAR MeasDate=28/08/2024 16:34:44
! VAR NAME=S2_r8c9_RESET4_9k-100M_1
! VAR FILENAME=S2_r8c9_RESET4_9k-100M_1.S2P
! VAR DATE=28/08/2024 16:34:44
! VAR PHYS_PORTS=1,2
! VAR ObjTypeName=DATASET
! VAR IndexType=Frequency
!
# Hz S MA R 50
9000.000 +9.8593887443E-002 -1.7553776671E+002  +7.4191355126E-003 -1.2533492528E+002  +1.1460612724E-002 +1.3824765419E+002  +2.4595889871E-001 -1.4130931852E+002 
134145.181 +1.1106376351E-001 +1.6990747332E+002  +1.2976566773E-004 +1.1675466945E+002  +3.0631024519E-004 -6.4227032166E+001  +2.3954348480E-001 -1.7080315970E+002 
259290.363 +1.1327176842E-001 +1.6971167596E+002  +7.4418879098E-004 -1.2054466468E+002  +3.8571660271E-004 -1.2097399778E+002  +2.3967718684E-001 -1.6950336452E+002 
384435.544 +1.1279062920E-001 +1.7052262460E+002  +3.4731442750E-004 +1.9372284899E+001  +9.2324986855E-004 +6.1855256574E+001  +2.4101708216E-001 -1.6953529950E+002 
509580.726 +1.1495989566E-001 +1.7129934607E+002  +1.7904930180E-003 +8.6509358099E+000  +7.9099474359E-004 +1.6140992440E+002  +2.4879075300E-001 -1.6312748438E+002 
634725.907 +1.1855813696E-001 +1.7237216834E+002  +8.4323811832E-004 -1.1427208032E+002  +1.2668357930E-003 +3.6115202068E+001  +2.6738986534E-001 -1.6442161552E+002 
759871.089 +1.1886594413E-001 +1.7093918831E+002  +6.5941092286E-004 +9.4253537670E+001  +6.8880269926E-004 +6.5995465453E+001  +2.5416806979E-001 -1.6559731781E+002 
885016.270 +1.1925493736E-001 +1.6893208661E+002  +2.1867665798E-004 -9.3042395912E+001  +7.0582765202E-004 +1.2973235549E+002  +2.4817369186E-001 -1.6621287154E+002 
1010161.452 +1.1692857156E-001 +1.6966384450E+002  +1.1870539551E-003 +1.3299779903E+002  +1.4872964609E-003 +5.2999053371E+001  +2.0581864815E-001 -1.6754958112E+002 
1135306.633 +1.1919363949E-001 +1.6775769920E+002  +1.7165510308E-003 +9.0005892756E+001  +6.7393403827E-004 +1.4131184529E+001  +1.9979377099E-001 -1.7146740918E+002 
1260451.815 +1.1745063551E-001 +1.7200753269E+002  +2.5786683763E-004 +8.8852595005E+000  +2.2525127329E-003 +1.6797771170E+002  +2.3982877579E-001 -1.6033855731E+002 
1385596.996 +1.2453636365E-001 +1.7238757870E+002  +1.4986332538E-003 -5.3364503139E+001  +2.4938301847E-003 +1.4882764020E+002  +2.6039931321E-001 -1.5058380569E+002 
1510742.178 +1.2633975367E-001 +1.7127307628E+002  +1.1353028666E-003 +1.1458082409E+002  +2.6606177665E-004 -9.2427399376E+001  +2.5803745553E-001 -1.5703769655E+002 
1635887.359 +1.2952645760E-001 +1.7152799723E+002  +1.1182671843E-003 -3.6687508737E+001  +1.1175468631E-003 -1.3916187944E+002  +2.4677208261E-001 -1.5489600926E+002 
1761032.541 +1.2877409750E-001 +1.6826619806E+002  +4.9856592383E-004 +1.4192359126E+002  +1.0104728022E-003 -1.4145538708E+002  +2.3171515720E-001 -1.6480787838E+002 
1886177.722 +1.2914102140E-001 +1.6773945846E+002  +1.7065894084E-003 +1.4089554053E+002  +1.0348044798E-003 -1.7261264400E+002  +2.1324445888E-001 -1.5494151478E+002 
2011322.904 +1.3146379228E-001 +1.6850320069E+002  +2.4834432136E-004 -2.2628614298E+001  +4.3752601414E-004 -8.9350676491E+001  +1.9953804284E-001 -1.6176532408E+002 
2136468.085 +1.3036679996E-001 +1.6453107671E+002  +2.7448269123E-003 -1.7114527618E+002  +1.8214430407E-004 +7.0712820865E+001  +1.8796778347E-001 -1.6976246609E+002 
2261613.267 +1.2638180498E-001 +1.6329092497E+002  +2.7303226984E-003 -7.4623491056E+001  +4.1865106793E-003 -2.6052487711E+001  +1.6366447748E-001 +1.6309949408E+002 
2386758.448 +1.2169898769E-001 +1.6536575097E+002  +3.3281611192E-003 -1.4226707106E+002  +6.8538610189E-003 +3.1605216857E+001  +2.1095772735E-001 +1.7852807043E+002 
2511903.630 +1.2708366999E-001 +1.6381089323E+002  +1.8051925357E-003 -1.6687393330E+002  +3.4326125169E-003 +1.4958884879E+002  +1.9271742061E-001 +1.5576107444E+002 
2637048.811 +1.2828685529E-001 +1.5604422561E+002  +1.4981683615E-002 +1.3666909469E+002  +2.1158424446E-002 -1.0989515383E+002  +3.1678393264E-001 +1.3179076227E+002 
2762193.992 +8.1715580767E-002 +1.5416267418E+002  +3.7870268351E-002 -6.7634521554E+001  +2.7291712499E-002 +1.7838228766E+000  +9.4977899775E-001 -6.3908266090E+001 
2887339.174 +1.2996675034E-001 -1.6739852828E+002  +1.6799846658E-002 +3.9702457391E+001  +3.3974244475E-002 -6.5896354817E+001  +2.3900206442E-001 +5.4762126153E+001 
3012484.355 +8.7494862052E-002 -1.7244731046E+002  +1.5860360983E-002 +6.3460794093E+000  +2.2341813825E-002 +1.1202787482E+002  +6.7542534811E-001 -1.0100775259E+002 
3137629.537 +1.2722596364E-001 +1.7395969622E+002  +1.2606201022E-002 -1.5034456685E+002  +8.3796426136E-003 +2.0144902172E+001  +1.1098224615E-001 -3.7029133645E+001 
3262774.718 +8.0799464322E-002 +1.4279586382E+002  +1.5029379190E-002 +1.0143771262E+000  +6.7412678653E-003 +1.2854082007E+002  +1.0408277963E-001 +1.3088750877E+002 
3387919.900 +9.6516625028E-002 +1.6228783514E+002  +2.3087395263E-002 -6.4002635058E+001  +3.4302736812E-002 +7.2975634243E+000  +8.3514083557E-001 +1.0924560311E+002 
3513065.081 +1.6002929254E-001 +1.5365785041E+002  +5.9667153374E-003 -3.3944878224E+001  +3.7586264469E-003 +1.1895581217E+002  +3.5442202100E-001 +1.5029367869E+002 
3638210.263 +1.8166467366E-001 +1.4260454376E+002  +1.0906919072E-002 +1.4221816037E+002  +1.5690061096E-002 +1.7791170636E+002  +5.1723038443E-001 +1.4695751198E+002 
3763355.444 +1.7476131890E-001 +1.4080696503E+002  +9.0099910802E-003 +1.1779886920E+002  +1.2265342925E-002 +7.7489681344E+001  +4.0214308247E-001 +1.3139344254E+002 
3888500.626 +1.8076851740E-001 +1.5327672587E+002  +4.2614454687E-003 -7.3732189370E+000  +5.9318307705E-003 -1.0549651163E+002  +1.5762604091E-001 +9.1517422659E+001 
4013645.807 +1.7124842648E-001 +1.4086341103E+002  +4.4102947162E-003 +4.9890797125E+001  +3.6919136959E-003 +1.1437777159E+002  +3.8433519785E-001 +1.4987159393E+002 
4138790.989 +2.1709520337E-001 +1.4689295453E+002  +6.3348464664E-003 +1.9291441529E+001  +8.1209440593E-003 +1.3012538444E+002  +3.5395454878E-001 +9.8742559641E+001 
4263936.170 +1.8340728499E-001 +1.4794136908E+002  +1.1140732466E-003 -8.6486523156E+001  +7.5016904345E-003 +1.6238262883E+002  +6.1994583540E-001 +1.2291227936E+002 
4389081.352 +2.2410798104E-001 +1.4192872406E+002  +7.6072973727E-003 +1.1566162973E+001  +1.2240546155E-002 -1.7382113104E+002  +8.3252517587E-001 +6.8765627840E+001 
4514226.533 +2.2796554072E-001 +1.3254199567E+002  +7.9471175394E-003 -9.5863820162E+001  +1.5994671201E-002 +2.2285815222E+001  +1.0184890510E+000 +7.7349978412E+001 
4639371.715 +3.4328700435E-001 +1.2900224661E+002  +1.5955618610E-002 +4.2050609890E+001  +1.5892581685E-002 -7.0858509512E+001  +5.1294535971E-001 +9.3432781420E+001 
4764516.896 +3.5534224354E-001 +1.2138223463E+002  +4.6581535134E-002 +1.3981768607E+002  +1.3760018078E-001 +1.3220922003E+002  +1.3436122354E+001 +1.5991270364E+002 
4889662.078 +4.9249374144E-001 +1.3171102526E+002  +3.9295284702E-002 +1.3762451574E+002  +3.2031353765E-002 +6.3868310735E+001  +2.6363202498E+000 -1.3443367964E+002 
5014807.259 +4.6426408621E-001 +1.2013250693E+002  +9.9659017784E-002 +1.2874435559E+002  +1.7710669934E-001 +1.5258385083E+002  +5.4923641325E+000 +1.4876366184E+001 
5139952.441 +4.2643390414E-001 +1.2207577053E+002  +1.4038021709E-001 -4.8858037601E+001  +5.6916403570E-002 -2.5583658508E+001  +5.6972217378E+000 +3.8942465626E+001 
5265097.622 +4.0859185475E-001 +1.2913429024E+002  +8.6781938107E-003 -7.4875452768E+001  +2.7459399796E-002 +1.6158605035E+002  +3.8252174487E+000 +5.2470660787E+001 
5390242.804 +4.5589443996E-001 +1.3201144415E+002  +1.6887023146E-002 -1.2464517655E+002  +7.9773723284E-003 -3.2504880842E+001  +2.1842577272E+000 +9.5155654578E+001 
5515387.985 +4.7156335493E-001 +1.2757139216E+002  +2.3079236350E-002 -6.9692016078E+001  +2.2404527917E-003 -6.9004906368E+001  +1.7439038416E+000 +1.0722386704E+002 
5640533.166 +5.1822024930E-001 +1.3008037624E+002  +2.3590752775E-003 -1.1396444859E+002  +1.3051594008E-002 -1.0593310348E+002  +1.1979038115E+000 +2.6906935672E+001 
5765678.348 +5.5973501150E-001 +1.2783319022E+002  +9.2418902608E-003 +1.6149401698E+002  +2.0308696849E-002 +8.6292412238E+001  +1.3242290742E+000 +7.8537536766E+001 
5890823.529 +5.9980490180E-001 +1.0114089818E+002  +9.8741243845E-002 -8.2233131038E+001  +2.0930540568E-001 +1.7152536885E+002  +8.0674309781E+000 +8.2688971829E+001 
6015968.711 +6.5881638246E-001 +1.1300816517E+002  +2.3143159002E-002 -1.2169584768E+001  +6.5707567930E-002 -1.4065541183E+002  +3.1893375615E+000 +4.1191896095E+001 
6141113.892 +7.7831141262E-001 +1.1450553409E+002  +1.6906641165E-002 -6.2107458757E+000  +2.8544218268E-002 -3.8215169566E+001  +1.7872024718E+000 +3.9403574257E+001 
6266259.074 +7.4640222561E-001 +1.0439884793E+002  +8.9191466835E-003 -1.5781473444E+002  +5.0577064909E-003 +1.4530683375E+002  +1.6090090230E+000 +2.1468564353E+001 
6391404.255 +1.0818812865E+000 +9.8176969614E+001  +3.2969515928E-002 +9.3973502107E+001  +2.8828996578E-002 +1.5518954161E+002  +1.4012940721E+000 +2.9556175910E+000 
6516549.437 +1.6352928433E+000 +8.6971104120E+001  +3.4108254708E-002 +4.5415716533E+001  +3.3383864860E-002 +1.3046149745E+001  +1.5190410618E+000 -8.6084036724E+000 
6641694.618 +1.7332574627E+000 +6.8979378367E+001  +3.8253992563E-002 -3.4628224212E+001  +4.3446697590E-002 +1.7789392455E+002  +1.5244644437E+000 +3.2837361265E+000 
6766839.800 +1.7422365908E+000 +4.6692037505E+001  +4.2070330661E-002 +6.4880739813E+001  +1.9473819688E-002 +6.9695345988E+001  +1.1890027436E+000 -1.1926738452E+001 
6891984.981 +1.8732468335E+000 +4.9454356602E+001  +1.3915323886E-002 +2.4847347244E+001  +5.5444962986E-003 +9.9241721263E+001  +1.3593800422E+000 -5.4890611277E-001 
7017130.163 +1.7295420653E+000 +2.9621843873E+001  +9.6888639464E-003 +8.1229485433E+001  +1.4101955981E-002 +7.1387304233E+001  +1.2870159280E+000 -5.8180293959E+000 
7142275.344 +1.3951294875E+000 +8.0103248558E+000  +4.7316976847E-004 -5.7423384220E+001  +1.3251073934E-002 +1.5282715466E+001  +1.2610876819E+000 -1.3898254957E+001 
7267420.526 +1.6993561263E+000 +4.7038270143E-001  +1.4892381809E-003 +9.4625727022E-001  +1.7711213935E-002 -1.9328262200E+001  +1.2267348639E+000 -7.8906609918E+000 
7392565.707 +1.2650703143E+000 -8.6378513371E-001  +2.4817586049E-003 +6.6472173046E+001  +6.4064793177E-003 +7.6537278409E+001  +1.4152838292E+000 -9.7488318698E+000 
7517710.889 +1.1405318747E+000 -9.4081989604E-001  +1.7805090950E-003 +5.6046076668E+001  +5.3930440785E-003 +7.8696193399E+000  +1.1886529354E+000 -3.7798007550E+000 
7642856.070 +1.1493626518E+000 +1.0818702581E+000  +6.9633413926E-003 -9.5822652905E+001  +6.2870139865E-003 +2.9811634848E+001  +1.0885433850E+000 -7.0684501169E+000 
7768001.252 +8.4924654761E-001 +5.6004860856E+000  +1.1830689382E-002 +7.9205439750E+001  +6.1845437582E-003 -1.4698405007E+002  +1.0570817547E+000 -3.3055644015E+000 
7893146.433 +9.1145535725E-001 +5.8670868372E+000  +6.1305664552E-003 +5.1848106729E+001  +1.1337004773E-002 -1.4037240053E+001  +8.8716369738E-001 +3.4299424826E+000 
8018291.615 +8.2583069142E-001 +6.4584442437E+000  +4.1170004061E-004 +2.0558631674E+001  +5.7342480717E-003 +1.2897098573E+002  +8.4374102222E-001 +7.2887057584E-001 
8143436.796 +7.7831098953E-001 +1.0307461425E+001  +8.1726916531E-003 +1.2586266133E+002  +4.5454144010E-003 +1.5929250919E+002  +8.2818658469E-001 +4.8865770621E+000 
8268581.977 +6.9334809785E-001 +1.4205728127E+001  +5.6394028809E-003 +3.5179181258E+001  +9.9526738883E-003 +1.0496138147E+002  +7.6504491637E-001 -1.7637118805E-001 
8393727.159 +6.5817993203E-001 +8.3993395957E+000  +4.3830531068E-003 +2.8952371425E+001  +5.6191843069E-003 +3.1302126033E+001  +7.7605705778E-001 +3.1407624644E+000 
8518872.340 +6.9825218380E-001 +8.8793585104E+000  +3.2622831071E-003 +1.2054080148E+002  +7.3347946287E-003 +9.9493148110E+001  +6.4817577054E-001 +2.0328538433E+000 
8644017.522 +6.9194317026E-001 +4.3813544684E+000  +4.0271981207E-003 +1.4090159335E+002  +3.2369222568E-003 +6.8751770308E+001  +6.9320654268E-001 +1.6826471780E+000 
8769162.703 +6.0885204096E-001 +9.3708652850E+000  +7.9303575542E-003 +1.0008065264E+002  +7.1578951462E-003 +1.0551541395E+002  +6.7065958008E-001 +6.6758011768E-002 
8894307.885 +5.8103871257E-001 +6.7199716661E+000  +5.9229757594E-003 +1.1982479987E+002  +4.9569061915E-003 +1.5604005966E+002  +6.3430972093E-001 +2.3589997257E-001 
9019453.066 +6.2963141948E-001 +1.1546990283E+001  +4.6554916427E-003 +9.6411114810E+001  +6.4201689940E-003 +1.1158801639E+002  +6.7038334126E-001 +5.4989580142E+000 
9144598.248 +5.5347627980E-001 +5.4485908373E+000  +6.1018523192E-003 +8.1849764245E+001  +7.3439228257E-003 +1.4017542398E+002  +6.1528617343E-001 +1.2411882633E+000 
9269743.429 +5.3841128087E-001 +5.9985073551E+000  +3.7481906107E-003 +1.1465858311E+002  +4.4326445885E-003 +6.9675888417E+001  +6.5528329903E-001 -1.3034560307E-001 
9394888.611 +5.0561488147E-001 +9.3880937282E+000  +3.0734710845E-003 +1.1200836798E+002  +5.3843518354E-003 +1.4361285249E+002  +6.3005214569E-001 -3.3776263064E+000 
9520033.792 +5.3002481927E-001 +7.6598578147E+000  +9.0918059212E-003 +7.8912642105E+001  +4.3584162508E-003 +8.9536971855E+001  +5.6596779400E-001 -5.3295350017E+000 
9645178.974 +5.3837594563E-001 +7.1795222193E+000  +1.4866923389E-003 -2.2203272111E+001  +6.8460230698E-003 +8.9827544062E+001  +5.9706086890E-001 -4.8773760471E+000 
9770324.155 +5.5725442075E-001 -4.3874760070E+000  +8.2198380327E-003 +9.8908465785E+001  +3.8993673351E-003 +1.2558361861E+002  +5.8540889365E-001 -1.9479121197E+000 
9895469.337 +5.5896444430E-001 +6.2152406539E+000  +3.5178521007E-003 +6.7284271858E+001  +6.4341247919E-003 +9.9798565417E+001  +5.7159730365E-001 -7.1461181551E+000 
10020614.518 +5.5336248684E-001 +4.2934991510E+000  +4.4617932055E-003 +7.5139258143E+001  +4.8155415898E-003 +1.3107993446E+002  +5.7921412840E-001 -2.7594001520E+000 
10145759.700 +5.2176340527E-001 +6.3154975949E+000  +2.8377374964E-003 +9.6203644442E+001  +4.5058298524E-003 +1.2053037902E+002  +5.7393865124E-001 -2.9876257202E+000 
10270904.881 +5.3007360044E-001 +7.4207609429E+000  +3.1070400301E-003 +6.6896427882E+001  +6.8573648102E-003 +1.0728499670E+002  +5.9031433988E-001 -4.1209145901E+000 
10396050.063 +5.4804537587E-001 +5.6650859267E+000  +6.2298239936E-003 +6.7366354003E+001  +3.1593930735E-003 +9.1556053951E+001  +5.4996110809E-001 +7.4084429998E-001 
10521195.244 +6.0570884334E-001 +5.0283327015E+000  +6.3496841246E-003 +9.0643060572E+001  +4.7611695491E-003 +1.2705464423E+002  +5.9945551384E-001 -3.0960624764E+000 
10646340.426 +5.5987492468E-001 +3.4938437516E+000  +6.2883332509E-003 +1.0429700032E+002  +3.1749606445E-003 +1.2884084471E+002  +6.2381005697E-001 +9.1381090737E-001 
10771485.607 +5.5551108956E-001 +7.0846513930E+000  +3.3323173610E-003 +1.0255183012E+002  +5.1028342942E-003 +8.0402689327E+001  +5.9986242821E-001 -1.1897133263E+000 
10896630.788 +5.7333054799E-001 +9.0768170593E+000  +2.1421256320E-003 +8.3115388092E+001  +2.8525323745E-003 +1.1414555726E+002  +6.2551595589E-001 +1.5264896428E+000 
11021775.970 +5.9907004076E-001 +8.1075208299E+000  +6.4213121862E-003 +8.6306444397E+001  +4.9848605809E-003 +1.3339437140E+002  +6.3261233375E-001 +1.8035470586E+000 
11146921.151 +5.8688327546E-001 +7.4681147080E+000  +7.1528597113E-003 +8.5356543830E+001  +5.1668571974E-003 +9.4900525602E+001  +6.4404323222E-001 +1.6668962194E+000 
11272066.333 +6.0370444617E-001 +6.1394724466E+000  +4.2286976367E-003 +8.5263646398E+001  +3.9443027013E-003 +9.7551273016E+001  +6.4860457285E-001 -2.0875696030E+000 
11397211.514 +6.1493928848E-001 +7.1437236704E+000  +5.3432869253E-003 +7.7222793477E+001  +6.4841049191E-003 +1.1139889881E+002  +6.2739676985E-001 +3.0113825049E+000 
11522356.696 +6.1564622289E-001 +5.6262745195E+000  +4.1721205811E-003 +7.8656754497E+001  +6.1413102670E-003 +1.0048353821E+002  +6.5138508989E-001 +4.6621142072E+000 
11647501.877 +6.5372129491E-001 +5.2084088455E+000  +6.3514106282E-003 +1.0302201072E+002  +4.3788537374E-003 +1.0106373729E+002  +6.3029253838E-001 -7.4506279983E-001 
11772647.059 +6.3766338558E-001 +7.4545082748E+000  +5.1445178951E-003 +1.1298187710E+002  +2.2140974633E-003 +1.0302207680E+002  +6.8157186261E-001 +5.7426874919E-001 
11897792.240 +6.6309774009E-001 +5.1245137121E+000  +4.5318859922E-003 +8.3365473481E+001  +5.8076493518E-003 +9.0908557313E+001  +6.7827298954E-001 -1.1766278745E+000 
12022937.422 +6.5303105129E-001 +5.5638807016E+000  +6.2808429326E-003 +7.6741945259E+001  +6.1470025191E-003 +1.1159966702E+002  +6.9234044855E-001 +1.9860114164E+000 
12148082.603 +6.7580441464E-001 +4.3704179013E+000  +3.5326988736E-003 +1.1037966321E+002  +6.5253113341E-003 +1.1723323081E+002  +6.9286834083E-001 +1.0323398798E+000 
12273227.785 +6.8806433723E-001 +5.4972870542E+000  +5.4760398114E-003 +9.0291266955E+001  +6.9208862643E-003 +8.7480431113E+001  +7.2041164029E-001 +3.4781328088E-001 
12398372.966 +7.2535916775E-001 +4.6482370094E+000  +5.9142898444E-003 +9.3475611247E+001  +6.1583729553E-003 +9.3317395104E+001  +7.3878696658E-001 -7.2945665440E-001 
12523518.148 +7.2328472971E-001 +2.9165571940E+000  +4.7180935841E-003 +8.8065117754E+001  +4.4619841309E-003 +8.3310624353E+001  +7.1631001271E-001 +9.4362634748E-001 
12648663.329 +7.4253871806E-001 +1.4632702671E+000  +5.9206177129E-003 +9.7460678151E+001  +5.7194804233E-003 +9.7761447047E+001  +7.6434603262E-001 -1.1465529792E+000 
12773808.511 +7.4059969658E-001 +2.1530927572E+000  +5.7512510894E-003 +7.5829042453E+001  +6.8775626335E-003 +9.9582640843E+001  +7.7042710982E-001 -6.1888416804E-001 
12898953.692 +7.8020491903E-001 +2.3966097974E+000  +5.7502618124E-003 +9.0523388454E+001  +6.0554454141E-003 +8.2825750026E+001  +7.6661770328E-001 -1.5925173732E+000 
13024098.874 +7.9562722101E-001 -5.4494204336E-001  +6.1062384053E-003 +9.8578438899E+001  +6.8383918769E-003 +8.8556751362E+001  +8.0728644538E-001 -4.2412276219E-001 
13149244.055 +8.1283494516E-001 -1.1770307943E+000  +6.2821113421E-003 +8.3535134936E+001  +5.7973726888E-003 +9.1919385325E+001  +8.2211929351E-001 -3.1568172928E+000 
13274389.237 +8.3878950152E-001 +4.1240799688E-002  +8.7196239952E-003 +8.8932499224E+001  +5.7566577868E-003 +8.8808394466E+001  +8.2260149324E-001 -3.3576557942E+000 
13399534.418 +8.2509029460E-001 -2.9744355124E+000  +7.6682422165E-003 +8.1575248821E+001  +6.2032660808E-003 +8.6772667711E+001  +8.3215742117E-001 -1.2286333668E+000 
13524679.599 +8.5847051149E-001 -9.8821280871E-001  +7.9589727473E-003 +9.0416612716E+001  +6.2460758553E-003 +8.7683993463E+001  +8.7085691054E-001 -2.3559140634E+000 
13649824.781 +9.0140806592E-001 -2.5701491328E+000  +7.2199670479E-003 +8.6273618928E+001  +6.0058860817E-003 +8.8723026361E+001  +8.8895274076E-001 -3.1663392181E+000 
13774969.962 +8.9036822267E-001 -2.5432775504E+000  +6.6979779735E-003 +9.2334336301E+001  +7.2226457494E-003 +8.5909213582E+001  +8.9383949563E-001 -1.6022587765E+000 
13900115.144 +9.1302574508E-001 -1.8860192694E+000  +8.4251925110E-003 +9.8359100774E+001  +8.0125326017E-003 +9.5781591540E+001  +9.0686921887E-001 -3.7253817440E+000 
14025260.325 +9.1501833411E-001 -4.0499214596E+000  +7.8459322919E-003 +9.7586588264E+001  +7.3004494894E-003 +9.8048476755E+001  +9.2746779018E-001 -1.6812448575E+000 
14150405.507 +9.3064609535E-001 -3.6765976328E+000  +8.2467952355E-003 +9.6164620645E+001  +7.9048202796E-003 +8.6059133294E+001  +9.5575760684E-001 -3.0965221052E+000 
14275550.688 +9.4889103919E-001 -6.0249408818E+000  +7.6385097192E-003 +8.4715280431E+001  +8.3748851045E-003 +9.6816875526E+001  +9.5712954330E-001 -3.7948891521E+000 
14400695.870 +9.6593651215E-001 -4.8852997731E+000  +5.5913536653E-003 +8.9433180882E+001  +7.5308113612E-003 +8.5987861708E+001  +9.8537501391E-001 -5.4790631893E+000 
