!  2-Port S-parameters saved by WinCal
! VAR NAME=S2_r6c9_formed(1)_9k-100M_2
! VAR DATE=30/08/2024 11:44:55
! VAR FILENAME=S2_r6c9_formed(1)_9k-100M_2.S2P
! VAR MeasName=S-Parameters (CALIBRATED_DATA) read from VNA (P5004A)
! VAR MeasDate=28/08/2024 11:43:08
! VAR PHYS_PORTS=1,2
! VAR ObjTypeName=DATASET
! VAR IndexType=Frequency
!
# Hz S MA R 50
9000.000 +9.6590685530E-002 -1.6837196219E+002  +6.7891175366E-003 +1.7727857739E+002  +4.9423369294E-003 -8.7449282954E+001  +2.7191488686E-001 -1.3738755377E+002 
134145.181 +1.1218738467E-001 +1.6976065226E+002  +2.7396737100E-004 +2.0652318611E+001  +2.4310418061E-004 +7.5219576230E+001  +2.3923096318E-001 -1.7174328316E+002 
259290.363 +1.1180242517E-001 +1.6983233101E+002  +4.2249998110E-004 +7.6630219537E+001  +3.1124666476E-004 -8.1549654668E+000  +2.4219942988E-001 -1.6894060006E+002 
384435.544 +1.1331498726E-001 +1.7023648464E+002  +4.6392256817E-004 -1.2325031559E+002  +3.3731501751E-004 +1.3386101382E+002  +2.4186952000E-001 -1.7017827467E+002 
509580.726 +1.1563823656E-001 +1.7070432109E+002  +5.5445094821E-004 -1.0934050008E+002  +1.3931750711E-003 +8.1663369199E+001  +2.4654884659E-001 -1.6741839456E+002 
634725.907 +1.1577965814E-001 +1.7114738884E+002  +1.4365255386E-003 -9.8469471278E+001  +5.5235278120E-004 -1.5489580216E+002  +2.5787921203E-001 -1.6533579995E+002 
759871.089 +1.1935955455E-001 +1.7063393665E+002  +4.5589720205E-004 -7.0648814505E+001  +5.7731095097E-004 +7.4789674709E+001  +2.4999424126E-001 -1.6640613008E+002 
885016.270 +1.1950547977E-001 +1.6922051542E+002  +8.4009337458E-004 -9.6669079143E+001  +2.5255433820E-004 +1.0035330306E+002  +2.4785099356E-001 -1.6676987032E+002 
1010161.452 +1.1476669221E-001 +1.6754019329E+002  +1.7888932713E-003 -5.3541540672E+001  +1.7910872716E-003 -1.2211263302E+002  +2.1072665908E-001 -1.6757307105E+002 
1135306.633 +1.1970836814E-001 +1.6988270935E+002  +3.0434908889E-003 +2.2434237001E+001  +2.7389025057E-003 -1.6791199857E+002  +1.7561100897E-001 -1.7099454022E+002 
1260451.815 +1.2302791164E-001 +1.7031213868E+002  +1.6924695773E-003 -7.6033529406E+001  +6.6700705107E-004 -1.1468985720E+002  +2.1174499383E-001 -1.5944997553E+002 
1385596.996 +1.2386740644E-001 +1.7268871653E+002  +2.2503565095E-003 -1.1721785146E+002  +8.2697369645E-004 +1.1495254638E+002  +2.4245492422E-001 -1.5638027888E+002 
1510742.178 +1.2744273847E-001 +1.7227320237E+002  +6.2099306871E-004 -4.1714513034E+001  +1.0694838825E-003 +1.4865448961E+002  +2.5906838244E-001 -1.5662151405E+002 
1635887.359 +1.2804798884E-001 +1.7127147125E+002  +6.5335440260E-004 +1.2140985248E+002  +1.6016379253E-003 +1.6565601729E+002  +2.3941613687E-001 -1.5547939854E+002 
1761032.541 +1.3141932029E-001 +1.7024864280E+002  +1.5936171715E-003 -6.9251445822E+000  +2.0332716082E-003 -1.5966918071E+002  +2.6501364937E-001 -1.5186797939E+002 
1886177.722 +1.3066141170E-001 +1.6704516379E+002  +9.9312669605E-004 +9.7140284411E+000  +1.0303203301E-003 -1.1250188376E+002  +2.3716263509E-001 -1.6000093719E+002 
2011322.904 +1.2915800022E-001 +1.6681274501E+002  +5.8342141899E-003 +8.1051883275E+001  +4.0732470992E-003 -7.1519123285E+001  +1.8355036969E-001 -1.6759713536E+002 
2136468.085 +1.3561498150E-001 +1.6615958795E+002  +7.2187340601E-003 +6.8216910024E+001  +5.0157648469E-003 -1.4534981669E+001  +1.5565072034E-001 +1.7908876196E+002 
2261613.267 +1.3185960100E-001 +1.6586922708E+002  +1.0417817037E-002 +7.5508698676E+001  +9.4659826019E-003 -5.9390993575E+001  +1.4722314571E-001 +1.7920792990E+002 
2386758.448 +1.4006049354E-001 +1.6451793185E+002  +8.0546848807E-003 +5.8116668622E+001  +6.6998308132E-003 -4.4486700697E+001  +1.8318685437E-001 +1.7843430909E+002 
2511903.630 +1.3875035378E-001 +1.6256624469E+002  +1.0573451081E-002 +1.0765364679E+002  +1.0631406110E-002 +4.6267113450E+000  +2.5640811286E-001 +1.6603202144E+002 
2637048.811 +1.3912086026E-001 +1.5283374783E+002  +4.3452450228E-002 +1.1765810442E+002  +6.9991534243E-002 +3.8476913778E+000  +3.3903453845E-001 +1.0580982017E+002 
2762193.992 +1.1330212847E-001 +1.7523308956E+002  +2.0982464563E-001 +5.4050835621E+001  +2.6219595855E-001 -5.6622982240E+001  +2.0485458302E+000 +4.9475349749E+001 
2887339.174 +1.0435036082E-001 +1.7204081034E+002  +6.5424308650E-002 -2.7029868047E+001  +7.4149510607E-002 -1.2106830018E+002  +3.1655425542E-001 -6.7259003492E+001 
3012484.355 +1.1781824080E-001 +1.6530244376E+002  +2.5446753928E-002 -3.1832242928E+000  +3.3691682891E-002 -8.6580062517E+001  +1.5754030157E-001 -1.1856363644E+002 
3137629.537 +1.3974119602E-001 +1.7535416467E+002  +3.0547854282E-002 +4.3962084983E+000  +2.5024762496E-002 -1.0842003737E+002  +1.0480735484E-001 -9.4246667202E+001 
3262774.718 +1.3209866092E-001 +1.6649873588E+002  +4.4539311745E-002 +2.2816030828E+001  +4.2449821791E-002 -5.2471209137E+001  +1.8586797078E-001 +2.9642656509E+001 
3387919.900 +1.3399287471E-001 +1.5544569514E+002  +6.3569060331E-002 +8.1067881588E+001  +6.3946551425E-002 -2.3431966481E+001  +3.5689457976E-001 +9.3311077920E+001 
3513065.081 +1.3005619912E-001 +1.3792439617E+002  +9.7428982338E-002 +4.7280735669E+001  +8.6022911738E-002 -3.5811361675E+001  +2.8371138841E-001 +1.2112739141E+001 
3638210.263 +1.6705598307E-001 +1.4973273145E+002  +1.2585029112E-001 +8.8271022966E+001  +1.0410475913E-001 +1.4751818148E+001  +1.0875736932E+000 +7.3105362733E+001 
3763355.444 +1.8102881011E-001 +1.5049342943E+002  +4.2949136619E-002 +1.0769380266E+002  +3.7354079924E-002 +2.5320154216E+001  +4.1718871009E-001 +1.3341470870E+002 
3888500.626 +1.8156806207E-001 +1.5841177946E+002  +2.8525603072E-002 +7.5724302256E+001  +2.4495459074E-002 -6.0314470781E+000  +1.5989565538E-001 +1.3782872532E+002 
4013645.807 +1.8171993943E-001 +1.5227139154E+002  +2.2460565853E-002 +8.9707183077E+001  +2.6060704895E-002 +1.6510286927E+001  +2.7978307999E-001 +1.6447169738E+002 
4138790.989 +1.6780182887E-001 +1.5642811974E+002  +3.5454982891E-002 +9.0173229911E+001  +3.9977947936E-002 +3.0128118071E+001  +4.8466116417E-001 +1.5281230006E+002 
4263936.170 +1.8544313737E-001 +1.4342261744E+002  +8.7936181135E-002 +9.7622907403E+001  +7.3128394086E-002 +3.3409651129E+001  +5.5161658616E-001 +1.1546705980E+002 
4389081.352 +1.6824483275E-001 +1.3120770933E+002  +8.3912266795E-002 +8.8160679423E+001  +8.4422147534E-002 +2.4681450946E+001  +4.5025104302E-001 +1.2110083629E+002 
4514226.533 +2.3593637529E-001 +1.4143640798E+002  +9.0192326152E-002 +1.4130649282E+002  +8.9571086583E-002 +8.0939948772E+001  +9.9080289503E-001 +1.3873755150E+002 
4639371.715 +2.4940758467E-001 +1.3960637698E+002  +1.2732292165E-001 +1.3845225064E+002  +1.1843949047E-001 +9.2640116362E+001  +1.5554453554E+000 +1.3338105914E+002 
4764516.896 +2.8386607352E-001 +1.1847236825E+002  +2.8126728374E-001 +6.8024072816E+001  +2.6204639199E-001 +1.9819769927E+001  +1.5767457988E+000 +3.6873182036E+001 
4889662.078 +8.6092234567E-001 +9.3856019876E+001  +3.1035943213E+000 +6.4554813831E+001  +2.9075131646E+000 +2.7334009307E+001  +1.6420533818E+001 +2.0442380660E+001 
5014807.259 +4.7702487475E-001 +1.2381480748E+002  +6.7202140586E-001 +1.4022319137E+002  +6.5509928516E-001 +9.5522580863E+001  +4.4432694126E+000 +1.0509178413E+002 
5139952.441 +3.2057204795E-001 +1.2966731935E+002  +1.7002495792E-001 +1.0964403367E+002  +1.8895236372E-001 +5.5130715308E+001  +1.5672510123E+000 +1.0373306643E+002 
5265097.622 +3.4683001053E-001 +1.2108879641E+002  +2.4665134641E-001 +7.6816112967E+001  +2.4490703289E-001 +4.2411946916E+001  +1.5490438959E+000 +6.2086017771E+001 
5390242.804 +3.7029486634E-001 +1.3604534847E+002  +1.4755371966E-001 +1.0135513768E+002  +1.6533525248E-001 +6.5204708344E+001  +1.4586604306E+000 +8.8902787361E+001 
5515387.985 +4.4628625761E-001 +1.2864769910E+002  +1.5650452007E-001 +1.1952357844E+002  +1.6604911604E-001 +7.8789499822E+001  +1.4389926979E+000 +1.0583158390E+002 
5640533.166 +4.7882689629E-001 +1.3337629726E+002  +1.4558817887E-001 +1.0842596954E+002  +1.3575540684E-001 +8.0069274022E+001  +1.2220113813E+000 +9.7706399013E+001 
5765678.348 +4.8482500350E-001 +1.2685700577E+002  +2.2028426804E-001 +7.8287827084E+001  +2.4278264293E-001 +4.5060860133E+001  +1.9808659171E+000 +5.7450503100E+001 
5890823.529 +4.9049179451E-001 +1.2758748260E+002  +1.8030722097E-001 +8.4983359011E+001  +1.7462304179E-001 +6.1002781938E+001  +1.5331784914E+000 +8.2341199290E+001 
6015968.711 +5.5686848015E-001 +1.1489780966E+002  +2.2162892557E-001 +7.4697992740E+001  +2.2652821422E-001 +5.1348334005E+001  +1.5084730816E+000 +6.5415166368E+001 
6141113.892 +6.1279514795E-001 +1.1002954675E+002  +2.5650607400E-001 +6.3104854641E+001  +2.6081695559E-001 +4.2932537528E+001  +1.7520169332E+000 +5.2643851786E+001 
6266259.074 +7.4518720964E-001 +1.0730027350E+002  +2.4878355139E-001 +6.0533382402E+001  +2.2515338167E-001 +3.9466518114E+001  +1.3355208600E+000 +3.8200043614E+001 
6391404.255 +8.8315842936E-001 +8.3007634895E+001  +3.2188189218E-001 +4.2505257655E+001  +3.0559491365E-001 +2.6559995988E+001  +1.5681533447E+000 +3.0712343006E+001 
6516549.437 +1.4813551608E+000 +5.0086670133E+001  +3.9892605147E-001 +3.3505888488E+001  +4.0470822421E-001 +1.9010095682E+001  +9.4691059534E-001 +3.2713061586E+001 
6641694.618 +1.0114866239E+000 +6.4106330093E+001  +2.6900760062E-001 +1.7316796195E+001  +2.5514363561E-001 +8.3658954718E+000  +1.2320494669E+000 -2.0499079471E+000 
6766839.800 +1.0962312170E+000 +3.2170380014E+001  +2.8849045223E-001 +4.0840494627E+000  +2.9780679238E-001 -4.0531538457E+000  +1.1309158918E+000 -8.6539571545E-001 
6891984.981 +1.4060116681E+000 +3.7913742454E+001  +2.7827327717E-001 +1.1653152772E+001  +2.7615988084E-001 +4.8667364051E+000  +9.6463340509E-001 -4.5267933243E+000 
7017130.163 +1.3682156367E+000 +5.9744960199E+000  +2.7198753683E-001 -7.7488337591E+000  +2.6818986862E-001 -1.0115652983E+001  +1.3176772003E+000 -5.1285224841E+000 
7142275.344 +1.2911280366E+000 +1.4910100797E+001  +2.1822871185E-001 +2.5704100694E+000  +2.1606757419E-001 -1.0930348844E+000  +1.0838318895E+000 -6.4493224358E+000 
7267420.526 +1.5646110944E+000 -4.8163658699E+000  +1.8647327577E-001 +3.4261398271E+000  +1.9776078109E-001 -1.9006382388E+000  +1.0290125606E+000 -5.4035220573E+000 
7392565.707 +1.0864823916E+000 -1.9276914590E+000  +1.6477602205E-001 +4.4599167798E+000  +1.4588297779E-001 +3.6699260601E+000  +1.1992302159E+000 -9.9624778473E+000 
7517710.889 +1.0152891272E+000 +8.9561639879E-001  +1.4872786502E-001 +5.7708790922E+000  +1.3773353735E-001 +5.6144905454E+000  +9.4326664200E-001 -3.8411634888E+000 
7642856.070 +8.8988015799E-001 +1.2886852102E+001  +1.2840640398E-001 +6.1947981681E+000  +1.3288754406E-001 +9.2494244747E+000  +9.2941950867E-001 -4.5982436053E+000 
7768001.252 +8.3847379107E-001 -2.5228652322E+000  +1.2801103049E-001 -2.9168579245E+000  +1.2870130783E-001 +5.1732978124E+000  +7.9372914649E-001 -2.6943570655E+000 
7893146.433 +7.4809260679E-001 +7.7030042218E+000  +1.2719968325E-001 +8.3994516309E-001  +1.2742392881E-001 +7.4349253821E+000  +8.0104959126E-001 -5.2733301339E+000 
8018291.615 +6.4324860444E-001 +1.2004401958E+001  +1.1711540657E-001 +2.1662798467E+000  +1.1754001197E-001 +8.5612609697E+000  +6.5742523273E-001 -1.8919634803E-001 
8143436.796 +6.7125151195E-001 +8.3095052615E+000  +1.1733365774E-001 +1.3842386808E-001  +1.0863278185E-001 +6.6581452111E+000  +6.7904486598E-001 +1.3627863024E+000 
8268581.977 +6.3239476944E-001 +1.0334125312E+001  +1.1126897119E-001 -2.8341942973E+000  +1.1149237844E-001 +7.2500230859E+000  +6.3744547169E-001 -4.5072054187E+000 
8393727.159 +5.4278342215E-001 +4.6615595636E+000  +1.0923957806E-001 -1.3303305213E+000  +1.0687369419E-001 +6.7638841563E+000  +5.8113294100E-001 +2.4950417169E+000 
8518872.340 +6.1026130937E-001 +1.0375777760E+001  +1.0815132168E-001 -2.3433259017E+000  +1.1154849010E-001 +8.3470365503E+000  +5.9743604074E-001 +1.5630427122E+000 
8644017.522 +5.1307367521E-001 +1.0704219868E+001  +1.1360421513E-001 -3.5206583205E+000  +1.0743084531E-001 +8.4469657433E+000  +5.5573087458E-001 -5.4126780110E+000 
8769162.703 +5.7614113579E-001 +7.6920101757E+000  +1.1038006816E-001 -1.8541813798E+000  +1.0657498757E-001 +1.2615835911E+001  +5.4714710600E-001 +7.7679716295E+000 
8894307.885 +4.6654856102E-001 +6.6481667566E+000  +1.0873755343E-001 -7.9059711116E-001  +1.0670417367E-001 +1.2171331609E+001  +5.2033305348E-001 +5.1014716031E-001 
9019453.066 +4.4975222773E-001 +1.0728450018E+001  +1.0565919025E-001 -2.3568729051E+000  +1.0435121554E-001 +1.2512677609E+001  +5.0585163171E-001 +4.8245248939E+000 
9144598.248 +5.2453395494E-001 +5.7370090179E+000  +1.0788116716E-001 -4.5108546251E+000  +1.0357405486E-001 +1.2292935575E+001  +4.9519021003E-001 +4.6752586230E+000 
9269743.429 +4.7485333629E-001 +1.0208377954E+001  +1.0188527061E-001 -3.8979352865E+000  +1.0572603344E-001 +1.3850260472E+001  +5.0279631706E-001 +1.1972115286E-001 
9394888.611 +4.0217093571E-001 +5.4023331464E+000  +1.0440894687E-001 -4.3076498431E+000  +1.0943089812E-001 +1.2967516753E+001  +4.5925407925E-001 -4.0412432992E+000 
9520033.792 +4.4752647048E-001 +3.4786681919E+000  +1.0677121600E-001 -1.9962409397E+000  +1.0643635502E-001 +1.1349276787E+001  +4.9972617395E-001 +2.8170992045E+000 
9645178.974 +4.4850300442E-001 +3.3427222253E+000  +1.0296171654E-001 -3.5926272295E+000  +1.0374021914E-001 +1.2537842545E+001  +4.4919868917E-001 -4.5456053841E+000 
9770324.155 +4.7752262926E-001 +3.9836329095E+000  +1.0890652693E-001 -3.4830473670E+000  +1.0459089602E-001 +1.3626900564E+001  +4.6874832523E-001 -9.9859317283E-001 
9895469.337 +4.2522697675E-001 -3.4616733259E+000  +1.0983932295E-001 -2.8711761285E+000  +1.0757093078E-001 +1.1996460865E+001  +4.9304602486E-001 -2.1133162552E+000 
10020614.518 +4.5720255813E-001 +6.4753044407E+000  +1.0960833157E-001 -1.5763196788E+000  +1.0661296473E-001 +1.3060863233E+001  +5.1355416945E-001 -5.5329156861E+000 
10145759.700 +4.4442176457E-001 +5.5406793756E+000  +1.0724186230E-001 -2.7523268571E+000  +1.0692724761E-001 +1.3806959553E+001  +4.5706479166E-001 -2.3790064171E+000 
10270904.881 +4.5466583938E-001 +7.8359349297E+000  +1.0651182749E-001 +4.3260686447E-001  +1.0674594720E-001 +1.4296093302E+001  +4.6087319465E-001 -1.2384273580E+000 
10396050.063 +4.6089999346E-001 +3.1997037767E+000  +1.0888255386E-001 -2.2505150551E+000  +1.0788408542E-001 +1.5497014168E+001  +4.5721038092E-001 +3.1655409601E+000 
10521195.244 +4.3172097937E-001 +1.0199115848E+001  +1.0592772048E-001 -2.0807199982E+000  +1.0640325452E-001 +1.4661376631E+001  +4.7809027225E-001 +1.6724213842E+000 
10646340.426 +4.3365603264E-001 +7.9132325964E+000  +1.1011038026E-001 -1.6165828385E+000  +1.0858100454E-001 +1.3557508546E+001  +4.8911438195E-001 -2.2296665608E-001 
10771485.607 +4.4855781510E-001 +8.9865733686E+000  +1.1217868374E-001 -8.0554798404E-001  +1.0830615198E-001 +1.4437600433E+001  +4.9630711102E-001 +4.2308625869E+000 
10896630.788 +4.4099789997E-001 +8.5588177220E+000  +1.1402209904E-001 +1.1168796119E-001  +1.0858613965E-001 +1.5574167850E+001  +4.8989176801E-001 +2.6787348007E+000 
11021775.970 +4.7423417689E-001 +1.1174581155E+001  +1.1120384305E-001 +1.8423285204E-001  +1.0988487574E-001 +1.3529260698E+001  +5.0362201009E-001 +6.0732299175E+000 
11146921.151 +4.7855657225E-001 +9.1834267081E+000  +1.1082870759E-001 +4.6473862324E-001  +1.1112821127E-001 +1.3087754176E+001  +4.9093941707E-001 +6.4299786367E+000 
11272066.333 +5.3217505067E-001 +1.1070425192E+001  +1.1180184432E-001 +1.5968516475E+000  +1.1137052340E-001 +1.4918974408E+001  +4.8416914330E-001 +3.8895814791E+000 
11397211.514 +4.8230312213E-001 +1.0207842178E+001  +1.1474603332E-001 +1.0795947407E+000  +1.1226044682E-001 +1.3688675600E+001  +5.2372232279E-001 +2.1112514080E+000 
11522356.696 +4.8496858189E-001 +4.7304971497E+000  +1.1631208117E-001 +1.3742544273E+000  +1.1676409961E-001 +1.3729935231E+001  +5.3821796887E-001 +2.7205192629E+000 
11647501.877 +5.1613208521E-001 +7.5306227035E+000  +1.1988278916E-001 +1.6285901194E+000  +1.1421491390E-001 +1.3804580756E+001  +5.2715517868E-001 +3.6747784217E+000 
11772647.059 +5.2003379795E-001 +9.3176267292E+000  +1.1820404442E-001 +3.0611873769E+000  +1.1720886983E-001 +1.2744878583E+001  +5.3197056070E-001 +3.3225333785E+000 
11897792.240 +5.3224884009E-001 +8.2555081722E+000  +1.1964204434E-001 +1.9216035446E+000  +1.1834010185E-001 +1.2832318327E+001  +5.4008683994E-001 +2.5251497469E+000 
12022937.422 +5.3368156704E-001 +3.2875330719E+000  +1.2243653759E-001 +2.9754390230E+000  +1.2133748633E-001 +1.2897345731E+001  +5.7832067958E-001 +2.5080611079E-001 
12148082.603 +5.7388568373E-001 +6.5440915088E+000  +1.2148913759E-001 +3.3951776663E+000  +1.2077201194E-001 +1.2359287112E+001  +5.8737723153E-001 +2.4245288115E+000 
12273227.785 +5.6307977010E-001 +4.1358307512E+000  +1.2509448095E-001 +3.6498718038E+000  +1.2137291080E-001 +1.1744640742E+001  +6.0598034731E-001 +2.1582776921E+000 
12398372.966 +5.8485634454E-001 +4.8386601930E+000  +1.2509394116E-001 +4.0404682499E+000  +1.2355295903E-001 +1.1265358635E+001  +6.0500822128E-001 +5.3264511613E-001 
12523518.148 +6.1438784456E-001 +5.9896119480E+000  +1.2489993829E-001 +4.1500218702E+000  +1.2530743262E-001 +1.1094689679E+001  +5.9974055768E-001 +1.5645017590E+000 
12648663.329 +6.1023572716E-001 +3.2929956750E+000  +1.2578962445E-001 +4.0209125942E+000  +1.2832550193E-001 +1.0502760681E+001  +6.1164637982E-001 +8.6537491754E-001 
12773808.511 +6.3346503428E-001 +2.8958752417E+000  +1.2749609403E-001 +4.8276518042E+000  +1.2654236951E-001 +9.8549995944E+000  +6.3210682112E-001 -5.0484726127E-001 
12898953.692 +6.4956714933E-001 +2.2596830717E+000  +1.3098822551E-001 +4.8489477938E+000  +1.2900142005E-001 +1.0937624722E+001  +6.7863696450E-001 -1.0428665405E+000 
13024098.874 +6.4415539760E-001 +2.2999951222E+000  +1.3107659727E-001 +3.6994429359E+000  +1.3004484137E-001 +9.2827706244E+000  +6.6658461811E-001 +2.9188690010E-001 
13149244.055 +6.6725509411E-001 +2.5149722731E+000  +1.3202547187E-001 +4.0218859562E+000  +1.3025952547E-001 +8.5315674196E+000  +6.6193259414E-001 -8.0611097315E-001 
13274389.237 +6.9213810515E-001 -2.0931953464E-001  +1.3351199575E-001 +5.0437930284E+000  +1.3060997483E-001 +8.9192131023E+000  +7.0120885302E-001 -7.6419399669E-001 
13399534.418 +6.9402736217E-001 -8.8690149967E-001  +1.3539639615E-001 +5.0444592932E+000  +1.3335046376E-001 +8.0099353656E+000  +6.9175780571E-001 -8.7493137477E-001 
13524679.599 +7.0631025916E-001 -1.0088212602E+000  +1.3551243463E-001 +4.2440016798E+000  +1.3572475282E-001 +7.4825298878E+000  +7.1693829611E-001 -1.1671760195E+000 
13649824.781 +7.3785843813E-001 -1.2723903806E+000  +1.3917628000E-001 +4.3069733182E+000  +1.3628482900E-001 +6.6910463949E+000  +7.2503372985E-001 -4.0742958404E+000 
13774969.962 +7.3871293286E-001 -1.6308921141E+000  +1.3827831069E-001 +4.1715352085E+000  +1.3707600203E-001 +7.3039515458E+000  +7.5553756966E-001 -5.0481402601E+000 
13900115.144 +7.6670305292E-001 -3.9482474435E+000  +1.3977462064E-001 +4.5212224102E+000  +1.3801553615E-001 +5.9569566864E+000  +7.7878470070E-001 -3.0750469932E+000 
14025260.325 +7.6042338913E-001 -4.7606647171E+000  +1.4105007079E-001 +4.3808829949E+000  +1.3876997845E-001 +5.2725558266E+000  +7.8299836450E-001 -3.8641908150E+000 
14150405.507 +8.0478860956E-001 -4.7925663992E+000  +1.4138918056E-001 +4.0961335772E+000  +1.3941991352E-001 +5.4466099273E+000  +8.0367135968E-001 -3.6202893191E+000 
14275550.688 +7.9908047386E-001 -4.3241367263E+000  +1.4014261904E-001 +3.9238461549E+000  +1.3814153505E-001 +4.3435667300E+000  +8.2141494056E-001 -3.8606684687E+000 
14400695.870 +8.1796699909E-001 -6.4985340330E+000  +1.4386304920E-001 +3.6162088592E+000  +1.4140964999E-001 +3.8840017243E+000  +8.5112640438E-001 -4.8815074515E+000 
