!  2-Port S-parameters saved by WinCal
! VAR NAME=S2_r2c8_formed(2)_9k-100M_2
! VAR DATE=30/08/2024 11:27:09
! VAR FILENAME=S2_r2c8_formed(2)_9k-100M_2.S2P
! VAR MeasName=S-Parameters (CALIBRATED_DATA) read from VNA (P5004A)
! VAR MeasDate=27/08/2024 14:03:00
! VAR PHYS_PORTS=1,2
! VAR ObjTypeName=DATASET
! VAR IndexType=Frequency
!
# Hz S MA R 50
9000.000 +1.0184248698E-001 -1.2630966961E+002  +1.5831556984E-002 +8.0052079836E+001  +2.7077090384E-002 -1.1297316357E+002  +2.5757941853E-001 -1.2799829477E+002 
134145.181 +1.1143855181E-001 +1.6959038636E+002  +2.9167159992E-004 +1.6073319589E+002  +5.6651745590E-004 +1.0508707753E+002  +2.3778871244E-001 -1.7058586330E+002 
259290.363 +1.1171922311E-001 +1.6964838445E+002  +2.1534844167E-004 +1.0208929221E+002  +1.4523450636E-004 -3.7197839614E+001  +2.4291646496E-001 -1.6803016964E+002 
384435.544 +1.1372049286E-001 +1.6980504835E+002  +1.2910989452E-003 -1.0598691330E+002  +1.4432065054E-004 -1.4430796314E+002  +2.4709125703E-001 -1.6743284615E+002 
509580.726 +1.1141840050E-001 +1.7175285612E+002  +1.6623923816E-003 -1.4861491736E+002  +7.1625873213E-004 -1.5997995549E+002  +2.3393299262E-001 -1.6320012445E+002 
634725.907 +1.1578290166E-001 +1.7068535786E+002  +9.9257254433E-004 -1.2330119241E+002  +8.6412122726E-004 +1.3842724863E+002  +2.4070462710E-001 -1.6660962169E+002 
759871.089 +1.1742247442E-001 +1.7074680798E+002  +5.8360390051E-004 -1.5903986687E+002  +4.8428015126E-004 +5.6789235596E+001  +2.3482178182E-001 -1.6611570222E+002 
885016.270 +1.1791282470E-001 +1.7007166009E+002  +4.2927650823E-004 -2.2231554625E+001  +5.6911662234E-004 +1.0078636845E+002  +2.3341174809E-001 -1.6312961506E+002 
1010161.452 +1.1879690590E-001 +1.7005813581E+002  +8.0418418539E-004 -2.5997010424E+001  +1.7299449549E-003 +7.5752070574E+001  +1.5798309731E-001 -1.2992185551E+002 
1135306.633 +1.1822664234E-001 +1.6952536536E+002  +6.2550314115E-003 -8.2547398826E+001  +1.5861194896E-002 +1.3161945890E+002  +6.9044214736E-001 -8.3608058572E+001 
1260451.815 +1.1991709294E-001 +1.7255774519E+002  +3.3630760306E-003 -6.1428511321E+001  +1.1137009326E-003 -1.2575328427E+002  +2.6116605651E-001 -1.5188733526E+002 
1385596.996 +1.2823955652E-001 +1.7360892923E+002  +6.5005082361E-004 +8.4104873912E+000  +7.6222109094E-004 +2.6593289133E+001  +2.6131352269E-001 -1.6140142595E+002 
1510742.178 +1.2735238851E-001 +1.7279189445E+002  +2.1186376470E-004 +5.9059835329E+001  +6.9776491471E-004 +7.3988106283E+001  +2.3634762517E-001 -1.5861549419E+002 
1635887.359 +1.2900135698E-001 +1.7029483480E+002  +3.4766160970E-003 -7.2115694671E+001  +2.4007852918E-003 +1.4598108086E+002  +2.0708737591E-001 -1.4964775864E+002 
1761032.541 +1.2339329965E-001 +1.6829533520E+002  +2.0726951881E-003 +1.0221989540E+002  +7.8514165108E-004 -1.1445626335E+002  +2.2946326458E-001 -1.6428686715E+002 
1886177.722 +1.3102798516E-001 +1.6861880829E+002  +1.3682505865E-003 +7.1237884084E+001  +9.1045523595E-004 -1.1495172957E+002  +2.2575554765E-001 -1.6348885633E+002 
2011322.904 +1.2857384424E-001 +1.6321066859E+002  +5.1259504880E-003 +1.3682785511E+002  +4.5233603526E-003 +3.6238135194E+000  +2.1407943729E-001 -1.7427167877E+002 
2136468.085 +1.2527814261E-001 +1.6902468834E+002  +4.3880067677E-003 +2.6389723958E+001  +2.0273442179E-003 -9.1137352348E+000  +1.9397259414E-001 +1.7942899057E+002 
2261613.267 +1.2672638435E-001 +1.6760240254E+002  +3.9582860411E-003 +5.6325835888E+001  +7.4707100758E-003 -5.1539143516E+001  +2.1084577944E-001 -1.7182319106E+002 
2386758.448 +1.2576957673E-001 +1.6380632593E+002  +5.6492624023E-003 +7.4384184403E+001  +4.2313062321E-003 +6.6394648190E+000  +2.3014753872E-001 -1.7375646480E+002 
2511903.630 +1.3672438847E-001 +1.6093006744E+002  +9.6163846050E-003 +1.1958800400E+002  +1.1605575531E-002 -2.5146249309E+001  +1.9198472787E-001 +1.6108251162E+002 
2637048.811 +1.1263258803E-001 +1.6726485008E+002  +4.0178006376E-002 +2.7005825303E+001  +3.5521234636E-002 -5.3832755821E+001  +4.7188951901E-001 +5.2146115810E+001 
2762193.992 +9.9825515868E-002 +1.5954246853E+002  +2.8321313502E-002 +3.3703024969E+001  +2.7799948333E-002 -9.0653104690E+001  +5.3191350121E-002 -8.3296223779E+001 
2887339.174 +1.2127396379E-001 -1.7846607701E+002  +1.3898082331E-002 +3.8647789418E+000  +2.7087370107E-002 -1.6568665802E+002  +1.6781814655E-001 -9.1813556544E+001 
3012484.355 +1.3123135755E-001 +1.7078084784E+002  +8.9612732390E-002 -2.4111922231E+001  +1.0178784180E-001 -1.6038983495E+002  +1.4904824637E+000 -5.2786049918E+001 
3137629.537 +1.0350983434E-001 -1.7946053877E+002  +3.9084833435E-002 -8.0184568941E+001  +2.8552985769E-002 -1.3112155474E+002  +4.2168389629E-001 -7.1979484233E+001 
3262774.718 +7.4805325415E-002 +1.7556954395E+002  +5.7441862877E-002 +1.0681849503E+001  +4.8392593121E-002 -7.8822143956E+001  +2.5247352659E-001 +2.2770603642E+001 
3387919.900 +1.0495249275E-001 +1.5274642257E+002  +7.7701648835E-002 +1.0056183729E+001  +7.0101023837E-002 -6.2397057594E+001  +4.1830375157E-001 +1.3729627909E+001 
3513065.081 +1.5321614312E-001 +1.5364913429E+002  +2.0553007120E-002 +5.3092496112E+001  +2.1119483062E-002 -2.6173854687E+001  +7.5176870040E-002 +3.4773753264E+001 
3638210.263 +1.5584127629E-001 +1.4162283533E+002  +4.0608794953E-002 +7.6596517119E+001  +5.4791804156E-002 -1.0870182034E+001  +6.4144533910E-001 +7.1931665304E+001 
3763355.444 +1.7029006042E-001 +1.4717098663E+002  +1.7706185516E-002 +1.3074065678E+002  +2.4581289299E-002 +4.7506017462E+001  +5.1994223041E-001 +1.5049755775E+002 
3888500.626 +1.6504501792E-001 +1.4600487910E+002  +2.7195680223E-002 +7.4485109098E+001  +1.8337720337E-002 -8.6110981155E+000  +1.8049666955E-001 +1.2717367592E+002 
4013645.807 +1.7288096194E-001 +1.4898912697E+002  +1.4258448952E-002 +7.4884454355E+001  +1.2681967293E-002 -3.0797996785E+001  +1.8443715719E-001 +1.6029635459E+002 
4138790.989 +1.9933470384E-001 +1.4012700680E+002  +2.8199319659E-002 +8.2713557541E+001  +3.3925802577E-002 -8.2989451440E-001  +3.1155394904E-001 +7.9669950842E+001 
4263936.170 +2.1020143900E-001 +1.5072562824E+002  +2.7552891451E-002 +1.2592771568E+002  +2.3544044100E-002 +4.2514546991E+001  +6.0665152441E-001 +1.2764772067E+002 
4389081.352 +2.1391623548E-001 +1.4471422743E+002  +3.1869992546E-002 +1.0237469563E+002  +2.7206995384E-002 +4.0676382236E+001  +4.7293106128E-001 +1.2287889254E+002 
4514226.533 +2.5362308565E-001 +1.3803006140E+002  +4.7326648925E-002 +1.2028532858E+002  +3.3567648559E-002 +2.9478829110E+001  +7.1779659630E-001 +1.3575116439E+002 
4639371.715 +2.2121261549E-001 +1.3731139651E+002  +3.3891563181E-002 +1.1761474314E+002  +2.9773284873E-002 +6.1822633689E+001  +6.0835328538E-001 +1.3935938580E+002 
4764516.896 +3.9638166385E-001 +1.2425568321E+002  +1.9435785835E-001 +1.2281359456E+002  +1.4850669068E-001 +8.2513586542E+001  +2.3140665230E+000 +8.3648239012E+001 
4889662.078 +3.8962386166E-001 +1.3468250958E+002  +5.0499367745E-001 -1.0050686617E+002  +5.6781800422E-001 -1.2895052482E+002  +9.1214984230E+000 -1.4760398417E+002 
5014807.259 +4.5101814784E-001 +1.1931092113E+002  +1.2627366679E-001 -1.4032515983E+002  +1.5739572364E-001 +1.6871241786E+002  +2.1357315646E+000 -1.7705240453E+002 
5139952.441 +3.3737862834E-001 +1.2806569959E+002  +1.5348514477E-001 +2.8103108622E+001  +1.5827733207E-001 +3.2540487512E+000  +2.8327825648E+000 -3.8344264795E+000 
5265097.622 +3.8866449030E-001 +1.3065170655E+002  +7.4071683143E-002 +1.0191798809E+002  +8.9007200323E-002 +8.2136935206E+001  +1.1717280406E+000 +9.7555411442E+001 
5390242.804 +3.5614292917E-001 +1.2841988671E+002  +6.2402075993E-002 +1.2385092876E+002  +6.8655797236E-002 +9.7823974326E+001  +1.4842468168E+000 +1.3200453450E+002 
5515387.985 +3.8493949435E-001 +1.2919246302E+002  +8.1720259564E-002 +1.0991928789E+002  +8.1259969491E-002 +7.8486340213E+001  +1.5402875027E+000 +1.1398048106E+002 
5640533.166 +4.6856318001E-001 +1.2662883033E+002  +8.8252745132E-002 +8.2398161042E+001  +1.0458086219E-001 +5.0488732383E+001  +1.6287756040E+000 +6.4399338530E+001 
5765678.348 +5.0004073735E-001 +1.0960404184E+002  +9.6789114359E-002 +9.8822950344E+001  +1.8014575435E-001 +6.5195558710E+001  +2.1977521140E+000 +8.0695234062E+001 
5890823.529 +5.8472656189E-001 +1.2488272582E+002  +9.5881944735E-002 +1.1095562188E+002  +1.1924708875E-001 +8.5322665923E+001  +2.1444230444E+000 +1.0370434678E+002 
6015968.711 +6.3351181071E-001 +1.2591861986E+002  +9.3637860649E-002 +9.4950238894E+001  +8.8832018173E-002 +6.3543741028E+001  +1.5458260170E+000 +7.3696497442E+001 
6141113.892 +6.5444068753E-001 +1.0998432900E+002  +1.0462233777E-001 +7.2307223930E+001  +8.9986562440E-002 +3.5985356605E+001  +1.4131521633E+000 +6.1330847955E+001 
6266259.074 +7.4585952073E-001 +1.0220854009E+002  +1.2236380087E-001 +5.0170796497E+001  +1.2620490891E-001 +2.9763373217E+001  +1.3962467071E+000 +3.2955950944E+001 
6391404.255 +8.9791089038E-001 +8.4577558972E+001  +1.0374646045E-001 +2.9681447741E+001  +1.1713345244E-001 +1.6963302489E+001  +1.1040420553E+000 +3.4921012123E-001 
6516549.437 +1.2556349401E+000 +9.6835868439E+001  +1.5725114738E-001 +5.3449007440E+001  +1.2288169092E-001 +4.7354533343E+001  +1.5048963299E+000 +2.6098215169E+001 
6641694.618 +1.2538822790E+000 +6.5850617954E+001  +1.8847329088E-001 +2.3729900195E+001  +1.9075037826E-001 +1.2555041383E+001  +1.8770533216E+000 -3.8293559440E+000 
6766839.800 +1.8049254607E+000 +5.1307988595E+001  +1.5657019831E-001 +1.8288136448E+001  +1.7835334992E-001 +7.9420177423E+000  +1.3504442494E+000 -4.7233107518E+000 
6891984.981 +1.6882961076E+000 +3.8302437516E+001  +1.3620126853E-001 +1.1318901491E+001  +1.2900695699E-001 -3.4816671818E+000  +1.0570250025E+000 -4.9809767163E+000 
7017130.163 +1.2474931742E+000 +2.0697372132E+001  +1.2506038076E-001 -4.2796810807E+000  +1.1124363432E-001 -2.2617664620E+000  +1.3114410858E+000 -1.3659310305E+001 
7142275.344 +1.5731830996E+000 +8.6083102353E+000  +1.1722903487E-001 +3.4506953878E+000  +1.1926160643E-001 +2.7878591081E+000  +1.3233814847E+000 -1.2583559627E+001 
7267420.526 +1.2425187102E+000 -6.7276031002E+000  +8.4056646317E-002 +1.5046624212E+000  +9.2937105123E-002 -1.0962361975E+001  +1.2060801117E+000 -6.4784830245E+000 
7392565.707 +1.1809401860E+000 -3.3516014123E+000  +7.3791748976E-002 +8.7631639959E+000  +7.7460834097E-002 -5.8405708123E-001  +1.4008120778E+000 -7.4058039267E+000 
7517710.889 +1.1083253103E+000 +3.8334346169E+000  +6.4305530253E-002 -7.2772722757E-001  +6.2522938739E-002 +1.1932138729E+001  +1.0400944028E+000 -3.8129742854E+000 
7642856.070 +8.8673030256E-001 +6.1493433051E-001  +6.6903021484E-002 +3.9816413584E+000  +6.4839590368E-002 +7.6931026780E+000  +1.0951727763E+000 -1.3086894963E+001 
7768001.252 +8.8685662914E-001 +2.7667547220E+000  +6.5220876395E-002 +5.6846447326E+000  +6.4038108749E-002 +8.6787697728E+000  +9.3715944832E-001 -4.5593367926E+000 
7893146.433 +7.9881065157E-001 -4.2680370220E+000  +5.8698924359E-002 -6.4049933781E-001  +5.3954998705E-002 +4.1594602881E+000  +8.5553233788E-001 -3.6284050608E+000 
8018291.615 +7.9168953765E-001 +1.0773113256E+001  +5.2424531282E-002 +2.4543090340E+000  +5.7916357112E-002 +1.2122941092E+001  +8.0145666976E-001 -2.1826913124E+000 
8143436.796 +7.1024957669E-001 +9.4401387691E+000  +5.6806240432E-002 +2.0962123670E-001  +5.2531879245E-002 +7.1992886840E+000  +7.3129230039E-001 +7.0731611137E-001 
8268581.977 +6.6623551318E-001 +1.1533221445E+001  +5.1822967795E-002 -1.0757772971E+000  +5.3632619320E-002 +1.3827232835E+001  +7.1776329125E-001 +1.0669279791E+000 
8393727.159 +5.1505401398E-001 +1.8580736562E+000  +5.4933424272E-002 +3.0442050079E+000  +4.7283739038E-002 +9.9175287640E+000  +7.4431763656E-001 -1.1861824208E-001 
8518872.340 +7.1479592787E-001 +1.0717056841E+001  +4.7463570769E-002 +2.7376622236E+000  +5.1829077776E-002 +1.1424095133E+001  +6.1709456755E-001 -1.4252185531E+000 
8644017.522 +5.6759128367E-001 +1.3873765999E+000  +5.1798521827E-002 -3.9939898295E-001  +4.7757274510E-002 +8.7497732906E+000  +5.9143558962E-001 +3.9664655504E+000 
8769162.703 +5.8113519182E-001 +8.1414346940E+000  +5.3939753513E-002 -2.8410111414E+000  +5.2955938817E-002 +1.0620364146E+001  +6.5625441415E-001 +1.5690182001E+000 
8894307.885 +5.2088497025E-001 +1.2167821521E+001  +5.0032641123E-002 +3.7511404610E-001  +4.9757853789E-002 +1.5966622683E+001  +5.7990800517E-001 +4.9450462586E+000 
9019453.066 +5.7375578546E-001 +4.7285450682E+000  +4.9735087270E-002 -2.2007016837E+000  +4.9763457119E-002 +1.5870573415E+001  +5.9451100474E-001 -2.9869883816E-001 
9144598.248 +5.9493761854E-001 +7.7996386171E+000  +5.2868111011E-002 +1.8045894304E+000  +4.4149022123E-002 +1.6064086919E+001  +5.5584962595E-001 +7.4966695033E-001 
9269743.429 +5.2948501056E-001 +9.2970453536E+000  +4.9655180223E-002 -2.1778520659E+000  +4.8190750458E-002 +1.3270590520E+001  +5.8254475485E-001 -3.6360869123E+000 
9394888.611 +5.3451228769E-001 +3.8106370474E+000  +4.9088434115E-002 -1.0276727028E-001  +4.9604547813E-002 +1.5487619171E+001  +5.5912605419E-001 -1.8046284623E+000 
9520033.792 +4.6372722469E-001 -8.9459572920E-001  +4.5292794554E-002 -4.8589117473E+000  +4.8097595834E-002 +1.3126429203E+001  +5.7909742383E-001 -5.1668959037E+000 
9645178.974 +4.6838309614E-001 +5.4643766887E-001  +4.7836103687E-002 -4.2921683136E-001  +4.9627658862E-002 +1.7441746196E+001  +5.2873735794E-001 -6.0359181978E+000 
9770324.155 +4.7385431669E-001 -2.2346367267E+000  +5.0305989090E-002 +1.5558005039E+000  +5.1379779854E-002 +1.5087058811E+001  +5.5624694127E-001 -3.8663785556E+000 
9895469.337 +4.4641264514E-001 -1.8976291351E+000  +4.9688584815E-002 +2.8936660159E+000  +4.8287519432E-002 +1.5548459937E+001  +5.4503571943E-001 -6.4403293899E+000 
10020614.518 +4.8970217025E-001 +2.4018976196E+000  +5.1140825004E-002 -1.8467925232E+000  +5.0881503391E-002 +1.6553929011E+001  +5.0192270592E-001 -7.1107500424E+000 
10145759.700 +5.0844382781E-001 -1.5740739723E+000  +5.1738673476E-002 -2.4153541314E-001  +4.9514530113E-002 +1.3578706261E+001  +5.1004309822E-001 -4.7683097092E+000 
10270904.881 +4.8504206421E-001 +1.2810627486E+000  +4.9503659552E-002 -7.5589421329E-001  +4.9480360138E-002 +1.9369058800E+001  +5.2518778210E-001 +3.0767282265E+000 
10396050.063 +4.7927255051E-001 +5.7883260403E+000  +5.1624334614E-002 +2.7872321037E+000  +5.0791631036E-002 +1.9189887219E+001  +5.3126475484E-001 -3.3303378134E+000 
10521195.244 +4.8657866801E-001 +5.8031530707E+000  +4.9826974646E-002 -1.1651781311E+000  +5.1266991377E-002 +1.5470448853E+001  +5.4522053147E-001 +1.2875715281E+000 
10646340.426 +5.1006340666E-001 +2.9735639221E+000  +4.9682318106E-002 +2.3710317357E+000  +4.9164854567E-002 +1.6677258731E+001  +5.3265840891E-001 -1.2837914894E+000 
10771485.607 +5.1618284599E-001 +6.2757346902E+000  +5.0838956371E-002 +2.6085518048E-001  +4.9816102579E-002 +1.7837397481E+001  +5.3286319664E-001 -1.1750339112E+000 
10896630.788 +5.5286787127E-001 +6.0293620542E+000  +5.2663115176E-002 +6.2676175330E+000  +4.9540953906E-002 +1.7408748102E+001  +5.3672416352E-001 -2.6487678585E-001 
11021775.970 +5.2258513584E-001 +8.6901259910E+000  +5.1202391460E-002 +4.8575572793E+000  +4.8953321399E-002 +1.6311138668E+001  +5.4941235449E-001 -2.6920558733E-001 
11146921.151 +5.2605312599E-001 +4.3115637910E+000  +5.4062429011E-002 +3.2268857123E+000  +5.3738056431E-002 +1.7624963780E+001  +5.5890636517E-001 +1.2944094910E+000 
11272066.333 +5.7536075669E-001 +5.9779166314E+000  +5.2968660281E-002 +2.6670341756E+000  +5.3386455621E-002 +1.6624053379E+001  +5.5712558666E-001 +1.8200124279E+000 
11397211.514 +5.5713860669E-001 +7.0674710425E+000  +5.3566312682E-002 +3.9008546932E+000  +5.2891866043E-002 +1.7085227910E+001  +5.7741477147E-001 -1.0518298469E+000 
11522356.696 +5.6036679615E-001 +4.0416715122E+000  +5.4447192680E-002 +4.8258928689E+000  +5.1093813207E-002 +1.6378447878E+001  +5.8417077211E-001 -4.4547097195E-001 
11647501.877 +5.7594409460E-001 +9.2263898616E+000  +5.3214161470E-002 +5.8729253975E+000  +5.5989504347E-002 +1.9498635367E+001  +5.9693510335E-001 +2.2012428353E+000 
11772647.059 +5.8281801673E-001 +5.2740280935E+000  +5.4757238488E-002 +7.4920863190E+000  +5.4933788540E-002 +1.6576671682E+001  +6.0874187068E-001 +5.6981028647E+000 
11897792.240 +5.9533915714E-001 +5.7469371559E+000  +5.6723606936E-002 +5.0126934986E+000  +5.4691362918E-002 +1.5152572088E+001  +6.1275919066E-001 +4.0761980038E+000 
12022937.422 +6.2667133361E-001 +6.2326487814E+000  +5.6157040130E-002 +7.1350362295E+000  +5.5446671010E-002 +1.5847499597E+001  +6.3504209712E-001 +1.8543443840E+000 
12148082.603 +6.2668637103E-001 +4.9990286755E+000  +5.6522387618E-002 +8.0550036935E+000  +5.7280860301E-002 +1.5080500536E+001  +6.4533302018E-001 +9.8917196454E-001 
12273227.785 +6.2427436182E-001 +4.6317535897E+000  +5.6928356997E-002 +6.1138596527E+000  +5.7249995892E-002 +1.7022344220E+001  +6.6319219391E-001 +1.5206910795E+000 
12398372.966 +6.5001035204E-001 +4.5612891919E+000  +5.6611108393E-002 +7.6916811633E+000  +5.7936483968E-002 +1.4582200174E+001  +6.8743545086E-001 +8.2807082231E-002 
12523518.148 +6.5280439638E-001 +2.6262531995E+000  +6.0016431812E-002 +8.0954048678E+000  +5.8384249913E-002 +1.4435317882E+001  +6.7856795930E-001 -3.6040346462E-001 
12648663.329 +6.6356564129E-001 +1.4256420717E+000  +6.0351503540E-002 +7.5576285252E+000  +5.7547462966E-002 +1.4916572633E+001  +6.8887131106E-001 -2.4514028896E-001 
12773808.511 +6.8976444675E-001 -1.0192729008E+000  +6.2018449583E-002 +6.7917668182E+000  +6.0595381853E-002 +1.2565984630E+001  +6.9081778333E-001 -4.1984985850E-001 
12898953.692 +7.2081718381E-001 +1.9900207267E+000  +6.1237662135E-002 +8.6946323795E+000  +5.8481749125E-002 +1.4984014967E+001  +7.1853339921E-001 -1.9664159106E+000 
13024098.874 +7.4100059717E-001 +2.3826142391E-002  +6.2982378252E-002 +7.9815345292E+000  +6.1936399061E-002 +1.2890163642E+001  +7.2862303659E-001 -1.5387334505E+000 
13149244.055 +7.4753799551E-001 +8.6081062016E-001  +6.1570274972E-002 +9.1741310330E+000  +6.0965591402E-002 +1.2385016680E+001  +7.4058199628E-001 -1.3875169319E+000 
13274389.237 +7.5635184063E-001 +3.0703865363E-001  +6.2022479978E-002 +7.1684672882E+000  +6.1466770177E-002 +1.2996698080E+001  +7.7726461834E-001 -2.1233024511E+000 
13399534.418 +7.7690819131E-001 -1.4227808729E+000  +6.2276860482E-002 +7.3636841960E+000  +6.3398946115E-002 +1.2860229807E+001  +7.9313632956E-001 -2.1706896147E+000 
13524679.599 +7.8357382590E-001 -3.0902428512E+000  +6.4281582936E-002 +7.2751046978E+000  +6.2955232367E-002 +1.1108686433E+001  +7.9106741102E-001 -2.7335488941E+000 
13649824.781 +8.0302084270E-001 -9.3611609402E-001  +6.3653092514E-002 +7.2000752296E+000  +6.2553728868E-002 +9.8555629253E+000  +8.0703915053E-001 -2.7992552328E+000 
13774969.962 +8.2530793399E-001 -2.2359831232E+000  +6.4205340862E-002 +7.9593908627E+000  +6.3917035275E-002 +1.1826060974E+001  +8.3782317991E-001 -1.9143920488E+000 
13900115.144 +8.4676965509E-001 -2.4618017429E+000  +6.4018657292E-002 +8.9962290482E+000  +6.4928000849E-002 +1.0275816981E+001  +8.5687171231E-001 -3.1724900310E+000 
14025260.325 +8.4609535305E-001 -5.1438970466E+000  +6.5707602377E-002 +8.1051852354E+000  +6.4074859449E-002 +1.0151487523E+001  +8.6527182481E-001 -4.7839675504E+000 
14150405.507 +8.6364213147E-001 -4.8014568436E+000  +6.6537186466E-002 +7.6425047398E+000  +6.5193601399E-002 +9.1523126162E+000  +8.7218579742E-001 -2.1895592033E+000 
14275550.688 +8.9310641060E-001 -3.3120153909E+000  +6.6109911707E-002 +9.8107170174E+000  +6.3521925570E-002 +1.0351387090E+001  +9.0085390762E-001 -3.9864496872E+000 
14400695.870 +8.9174511009E-001 -4.9603939181E+000  +6.6583364229E-002 +6.5881346123E+000  +6.5444276280E-002 +7.6637171692E+000  +9.2668721708E-001 -4.6292739556E+000 
