!  2-Port S-parameters saved by WinCal
! VAR MeasName=S-Parameters (CALIBRATED_DATA) read from VNA (P5004A)
! VAR MeasDate=28/08/2024 11:54:58
! VAR NAME=S2_r6c9_RESET4_9k-100M_2
! VAR FILENAME=S2_r6c9_RESET4_9k-100M_2.S2P
! VAR DATE=28/08/2024 11:54:58
! VAR PHYS_PORTS=1,2
! VAR ObjTypeName=DATASET
! VAR IndexType=Frequency
!
# Hz S MA R 50
9000.000 +9.0554921115E-002 -1.5785018131E+002  +2.7618062292E-002 -4.0382504224E+001  +1.7855829767E-002 -1.3078638955E+002  +2.4443017732E-001 -1.1815468428E+002 
134145.181 +1.1117366806E-001 +1.6930377745E+002  +2.0928270955E-004 +6.3569455246E+001  +2.9674884805E-004 -5.5328188600E+000  +2.3704532215E-001 -1.7162884045E+002 
259290.363 +1.1120890919E-001 +1.6992958474E+002  +4.4200243433E-004 -1.2739392948E+002  +3.9826792481E-004 -8.1510754501E+001  +2.3936406029E-001 -1.6923708060E+002 
384435.544 +1.1369625742E-001 +1.7013739415E+002  +1.1880971611E-004 -2.4914055656E+001  +6.4172366803E-004 +2.6307150020E+001  +2.4816888755E-001 -1.6981402581E+002 
509580.726 +1.1641051264E-001 +1.7086292190E+002  +4.6706577700E-004 +3.1202024244E+000  +6.7966518317E-004 +1.3459086259E+002  +2.5354682421E-001 -1.6464919936E+002 
634725.907 +1.1562035793E-001 +1.7159255803E+002  +4.9208767939E-004 -1.2769696100E+002  +1.1303914373E-003 +1.3635298149E+002  +2.5753193563E-001 -1.6637722506E+002 
759871.089 +1.2032894301E-001 +1.7091801122E+002  +5.2560931791E-004 +5.3981112993E+001  +6.3929204124E-004 -9.1835069732E+001  +2.5693629339E-001 -1.6548888271E+002 
885016.270 +1.2045209291E-001 +1.6900197869E+002  +4.4758476402E-004 +1.3808874681E+002  +5.5081028477E-004 +1.2282887677E+002  +2.4413653773E-001 -1.6530958730E+002 
1010161.452 +1.1911373875E-001 +1.7063539027E+002  +1.1429559289E-003 +8.3652589007E+001  +5.9268508568E-004 -8.1713842335E+001  +2.0705035513E-001 -1.6780015778E+002 
1135306.633 +1.1447567048E-001 +1.7034283109E+002  +1.4930594064E-003 -1.3527614253E+002  +2.8923070228E-003 +1.2631490553E+002  +1.7792673429E-001 -1.5539493655E+002 
1260451.815 +1.1845712001E-001 +1.7084518086E+002  +6.4311544147E-004 -8.9930387408E+001  +1.5773471139E-003 -7.2880040951E+000  +2.3890549963E-001 -1.5990306250E+002 
1385596.996 +1.2713105657E-001 +1.7111938419E+002  +1.7656857454E-004 -1.5192227633E+002  +7.6110417994E-004 +6.9475619156E+001  +2.6201202632E-001 -1.6039483731E+002 
1510742.178 +1.2839773939E-001 +1.7282605628E+002  +2.0950030344E-003 -1.9839152987E+000  +4.8770732834E-004 +7.6888290280E+001  +2.4953044580E-001 -1.5570484629E+002 
1635887.359 +1.2661049470E-001 +1.7207573392E+002  +1.3731166876E-003 -6.4351870059E+001  +1.9738758942E-003 -1.4812342765E+002  +2.4168111424E-001 -1.5886883535E+002 
1761032.541 +1.2711795023E-001 +1.7056253647E+002  +1.3224562688E-003 +5.5267582316E+001  +1.8307061895E-003 -2.7542655430E+001  +2.3486291138E-001 -1.6042892762E+002 
1886177.722 +1.2566008109E-001 +1.6666696899E+002  +2.6401998909E-003 -9.5396711183E+001  +3.6272722871E-003 -1.1127992817E+002  +1.7576822226E-001 +1.7318006565E+002 
2011322.904 +1.3065336607E-001 +1.6653945658E+002  +2.7020471863E-003 -2.9268186372E+001  +4.2677480290E-003 +1.3836282907E+002  +1.2797901736E-001 -1.7780330277E+002 
2136468.085 +1.2937969532E-001 +1.6747095054E+002  +1.5932735474E-004 +1.7736660718E+002  +2.7577602202E-003 +1.7832501398E+002  +1.8357155955E-001 -1.7295894994E+002 
2261613.267 +1.2552021783E-001 +1.7107066048E+002  +4.0998851368E-004 +6.9451764149E+001  +3.4635092092E-003 +1.5589804048E+002  +2.3052426726E-001 +1.6975637599E+002 
2386758.448 +1.3849974498E-001 +1.6290519896E+002  +3.0227290734E-003 +3.6413368603E+001  +1.6708851678E-003 +3.7825331304E+001  +1.9663470894E-001 +1.6251690208E+002 
2511903.630 +1.4367665077E-001 +1.6436862782E+002  +1.2030493170E-002 +4.9215897534E+001  +9.9689614864E-003 +1.4222566523E+002  +2.5258392699E-001 +5.0144372998E+001 
2637048.811 +1.3679894011E-001 +1.6303075063E+002  +5.5379217473E-003 -6.2470738943E+001  +5.4223585339E-003 +5.7977559487E+001  +3.9617885776E-001 +1.5875888128E+002 
2762193.992 +8.2143951479E-002 +1.6743925764E+002  +3.5929292429E-002 +1.0187923037E+002  +4.1005929146E-002 -1.3940232460E+002  +5.3615422370E-001 -5.3474839322E+001 
2887339.174 +1.3191907994E-001 +1.6974117093E+002  +1.8993654368E-002 -1.3631560423E+002  +6.3596058405E-003 -8.5821020106E+001  +1.8315125017E+000 -1.0429885347E+002 
3012484.355 +1.2841889163E-001 +1.6996573628E+002  +2.5738554951E-003 +1.7632934175E+002  +9.1123328330E-003 -1.7812442731E+000  +1.2588449075E-001 -6.9292689173E+001 
3137629.537 +1.2985107901E-001 +1.7644881286E+002  +1.9973547012E-003 -1.5408561252E+002  +3.6084743958E-003 +1.0442355149E+002  +1.4837277827E-001 -1.1840932592E+002 
3262774.718 +9.8896052457E-002 +1.5878722637E+002  +9.8657877846E-003 -1.7132161837E+002  +1.3164698999E-002 -1.6772426566E+002  +4.6843525415E-001 -7.0676370062E+001 
3387919.900 +1.4158099298E-001 +1.5048746186E+002  +1.2179740759E-002 +5.6659910799E+000  +2.4004040299E-002 -9.1716835580E+001  +1.1090237644E+000 -9.7445197333E+001 
3513065.081 +1.4760499039E-001 +1.5522540592E+002  +9.9210808753E-003 +2.2210411598E+001  +6.3273895396E-003 -1.7001933905E+001  +3.1147909998E-001 +1.2168420094E+002 
3638210.263 +1.7560702303E-001 +1.3790541846E+002  +2.4071137032E-002 -6.1255543489E+001  +1.3508003793E-002 +6.6550586375E+001  +6.0591806413E-001 +1.5496215164E+002 
3763355.444 +1.9136588177E-001 +1.5297650364E+002  +6.3957426074E-003 -3.8997080393E+001  +2.2070694723E-003 +5.1872426344E+001  +3.5175998827E-001 +1.2489229566E+002 
3888500.626 +1.8166010214E-001 +1.5181487134E+002  +6.8881669843E-003 -1.5638975087E+002  +2.5481936495E-003 +4.5618493655E+001  +5.3369675973E-001 +1.2313284137E+002 
4013645.807 +2.0626710744E-001 +1.3873552131E+002  +1.6529237824E-003 +1.3649733734E+002  +1.0913706024E-002 +1.7312562592E+002  +6.5199089924E-001 +1.4559855341E+002 
4138790.989 +1.8502739069E-001 +1.4967258703E+002  +1.0983871225E-002 +2.2991863869E+001  +1.7464144991E-002 +1.6897216941E+002  +7.4144218232E-001 +9.9159328443E+001 
4263936.170 +1.6657404879E-001 +1.4072627938E+002  +8.4498798671E-003 +1.1315743824E+002  +8.1128385864E-003 +1.2783067221E+002  +9.4510624902E-001 +1.0587723523E+002 
4389081.352 +2.1370912726E-001 +1.3903922947E+002  +1.7173353521E-002 +1.2514683718E+002  +1.7444575217E-002 +1.4419281006E+002  +4.1022797457E-001 +9.0359979115E+001 
4514226.533 +2.0791073910E-001 +1.3872228449E+002  +6.1687466051E-003 -1.3401036271E+002  +5.1241215434E-003 +5.7781938921E+001  +9.5333182175E-001 +1.4509681739E+002 
4639371.715 +2.0276553598E-001 +1.2234721003E+002  +3.9722853686E-002 -1.7193254166E+002  +2.8690066691E-002 +6.9786099424E+001  +2.0843003142E+000 +4.1545626906E+001 
4764516.896 +3.4757841787E-001 +1.2123882453E+002  +2.9439124091E-002 +2.4662220031E+001  +8.1377004468E-002 +2.5539318085E+001  +7.0419492718E+000 +9.6090702685E+001 
4889662.078 +4.4314389623E-001 +1.3402667592E+002  +1.1626516639E-001 +1.0922568746E+002  +3.3178151251E-002 +3.7461064818E+001  +5.4173883381E+000 -6.9487719408E+001 
5014807.259 +3.5520599989E-001 +1.2644149112E+002  +7.7003608685E-002 +3.3664617185E+001  +5.0410098570E-002 -1.3283980119E+002  +6.2325356541E+000 -1.2300965892E+002 
5139952.441 +3.8024034138E-001 +1.2480340999E+002  +3.4306427526E-002 +5.2600019358E+001  +2.2820855774E-002 -1.1095776747E+002  +2.9335779772E+000 +1.3428969053E+002 
5265097.622 +3.8033511502E-001 +1.3521890624E+002  +1.6171686928E-002 +1.4935529659E+002  +1.6823873219E-002 -5.3317203283E+001  +1.3025834040E+000 +6.7299456628E+001 
5390242.804 +4.4197952616E-001 +1.3705160650E+002  +8.8726906252E-003 +1.5074236796E+002  +6.2988330543E-003 -1.7042071206E+002  +8.0745250467E-001 +1.0148074195E+002 
5515387.985 +4.2263762650E-001 +1.3199879473E+002  +1.4742603119E-002 -8.8367433434E+001  +9.5214506187E-003 +8.0474041914E+001  +2.8290795507E+000 +7.6132319886E+001 
5640533.166 +5.1879377613E-001 +1.2922714106E+002  +1.3619684752E-002 -8.8346932888E+001  +3.1675963335E-002 +1.6627845897E+002  +1.8726203734E+000 +9.0643341329E+001 
5765678.348 +5.3492371770E-001 +1.2654189851E+002  +2.6244232239E-002 +8.8028542054E+001  +2.4643761142E-002 +1.1810527552E+002  +2.4221606280E+000 +4.4555814731E+001 
5890823.529 +6.3018550455E-001 +1.1733088443E+002  +4.4032112806E-002 +1.9776302207E+001  +3.3757296259E-002 +2.2806509955E+001  +4.5750757788E+000 +6.5775793828E+001 
6015968.711 +6.3605020283E-001 +1.1810852042E+002  +2.7032504455E-002 -9.3467692492E+001  +1.0954320865E-002 +4.5124819052E+001  +3.2898802302E+000 +7.6014085697E+001 
6141113.892 +6.4610316790E-001 +1.1143390665E+002  +9.5912174089E-003 +1.1277310351E+002  +2.5830006429E-002 +1.7914746147E+002  +2.0140345282E+000 +3.4234759845E+001 
6266259.074 +8.4449063743E-001 +1.1224356619E+002  +3.0189100165E-002 -1.7937032994E+002  +6.2302021917E-003 -5.4776598309E+001  +1.5618836698E+000 +3.2689057523E+001 
6391404.255 +1.1411125740E+000 +8.3767658197E+001  +6.1690904530E-003 +1.3421760081E+002  +3.1277536015E-002 -6.8044130431E+001  +1.3309358683E+000 +1.9439502718E+001 
6516549.437 +1.2036559162E+000 +9.4684277479E+001  +3.9379939179E-002 +1.4139852765E+002  +2.0712806660E-002 +1.0533683801E+001  +1.5348328956E+000 +2.5531655575E+001 
6641694.618 +1.6574721214E+000 +6.6390202857E+001  +1.1784067533E-002 +4.7698490255E+001  +6.6659440793E-003 +1.5019802212E+002  +1.4651571042E+000 +5.1105199949E+000 
6766839.800 +1.8735091709E+000 +6.0349872742E+001  +1.2603416315E-002 +8.6556365282E+001  +3.3202175252E-002 +1.7966421798E+002  +1.2764231302E+000 -5.0333708536E+000 
6891984.981 +1.9134403368E+000 +4.2234192030E+001  +3.5278313095E-002 +5.3186345697E+001  +1.9523551041E-002 +4.6436184161E+001  +1.4296764483E+000 -8.4036107276E+000 
7017130.163 +1.3555167302E+000 +1.3059897399E+001  +2.4225586852E-002 +4.2731643692E+001  +2.2730552708E-002 -4.4799200800E+001  +1.3358935463E+000 -8.3474415638E+000 
7142275.344 +1.8596969547E+000 +1.2727669886E+001  +1.3795450805E-002 +5.3333253421E+001  +1.2680428388E-002 -2.6588951709E+001  +1.1740513447E+000 -8.5662022404E+000 
7267420.526 +1.5601103026E+000 +9.3564909928E+000  +1.0509839496E-002 +1.2777949386E+002  +1.2812996691E-002 -5.9167730784E+000  +1.4408089090E+000 -7.9390471739E+000 
7392565.707 +1.3262682898E+000 +9.6519877243E-002  +7.3344499734E-003 +1.5764597726E+002  +1.5966846930E-002 +9.9016241256E+001  +1.2927491559E+000 -9.7372480910E+000 
7517710.889 +1.1523035358E+000 -6.1985296825E-001  +6.5901464052E-003 +7.8246415741E+001  +3.6351460155E-003 +5.4163797368E+001  +1.1347108597E+000 -2.3969977010E+000 
7642856.070 +1.0604513347E+000 +2.3688049523E+000  +4.9029516215E-003 +1.3232639309E+002  +8.1777865641E-003 +5.3414487489E+001  +1.1728548501E+000 -5.7469617147E+000 
7768001.252 +1.0003726115E+000 -2.0348474904E+000  +3.1383070157E-003 +5.5434103593E+001  +6.3051353449E-003 +1.1577926158E+002  +1.0434988349E+000 -2.4059893183E+000 
7893146.433 +9.4035086154E-001 +2.9389677587E+000  +3.7263310332E-003 +9.5874322488E+001  +8.9666042404E-003 +8.5917406629E+001  +8.7110462756E-001 -2.5971179745E+000 
8018291.615 +8.8347253855E-001 +8.8013949403E+000  +3.9748192127E-003 +7.0993383100E+001  +4.6307296457E-003 +6.5628295315E+001  +8.6600722771E-001 +3.0473654216E+000 
8143436.796 +7.2216264035E-001 +4.5800788443E+000  +2.6062395630E-003 +1.8368602653E+001  +6.6110027967E-003 +7.4785401450E+001  +7.7293552187E-001 -1.5508702356E+000 
8268581.977 +7.1544059219E-001 +4.7362451649E+000  +3.7943947587E-003 -1.6048166969E+002  +6.8579031538E-003 +9.5066146663E+000  +7.9003331004E-001 +3.0463563525E+000 
8393727.159 +6.8989309627E-001 +4.6377235849E+000  +7.2139391400E-003 +1.4965773660E+001  +6.0960831486E-003 +1.7042760525E+001  +6.9925106808E-001 +7.5191632689E-001 
8518872.340 +6.2474167040E-001 +3.8772604307E+000  +5.4770429135E-003 -5.1843880106E+000  +4.2381109082E-003 +1.1337024007E+002  +7.2810370615E-001 -9.3547651676E-001 
8644017.522 +6.2993083190E-001 +1.3059251083E+001  +4.1900790668E-003 +5.0457869745E+001  +1.1712659914E-003 +1.2107568430E+002  +6.9319105443E-001 +2.0307665472E-001 
8769162.703 +6.6665109940E-001 +3.8416594830E+000  +4.1538960659E-003 +3.1230931129E+001  +1.6017668305E-003 -1.4888413202E+002  +7.0164217914E-001 +2.3809435802E+000 
8894307.885 +6.3353440637E-001 +1.2117753201E+001  +3.6597867622E-003 +7.5213541636E+001  +9.3864637942E-004 +6.8656155573E+001  +6.7285354489E-001 -1.4810600990E+000 
9019453.066 +6.0302101104E-001 +1.1561641102E+001  +3.8329728880E-003 +6.5846967120E+001  +3.0936499796E-003 +1.5059496506E+002  +6.3836062525E-001 -8.5308344502E-001 
9144598.248 +5.8592807085E-001 +9.9259979143E+000  +3.3873877404E-003 +8.5989759788E+001  +3.2240933451E-003 +9.4831434049E+001  +6.3030138555E-001 +6.2863949730E-001 
9269743.429 +5.6587858708E-001 +4.1533726414E+000  +4.9157301721E-003 +8.6691653634E+001  +2.1788248072E-003 +1.9528234959E+001  +6.0091705100E-001 +5.6556809291E-001 
9394888.611 +5.7137766075E-001 +2.8316229482E+000  +4.2624701809E-003 +4.3994949398E+001  +6.0189390023E-003 +1.2528655871E+002  +6.3698901018E-001 -3.9601787349E+000 
9520033.792 +5.2028151143E-001 +4.1385805742E+000  +3.9565839085E-003 +4.5751766741E+001  +3.2423491049E-003 +7.5326643602E+001  +6.2592432245E-001 -5.8722503834E+000 
9645178.974 +5.7632305780E-001 +2.4253354935E+000  +4.3152500500E-003 +8.2429135343E+001  +3.2073365697E-003 +1.1738803214E+002  +5.7463294188E-001 -3.9980081052E+000 
9770324.155 +5.5524290102E-001 +3.3561936503E+000  +6.8138999910E-003 +3.7949718690E+001  +7.7541997236E-003 +9.4311498679E+001  +5.6489261354E-001 -5.4254877437E+000 
9895469.337 +5.4981542381E-001 +1.7471081408E+000  +5.0581372254E-003 +5.8188837394E+001  +2.9040380633E-003 +4.9706973004E+001  +5.6742873925E-001 -5.0000363404E+000 
10020614.518 +5.6552818907E-001 +4.3554699487E+000  +3.1066753724E-003 +7.4125556586E+001  +1.8202254406E-003 +5.9154855240E+001  +5.9091455923E-001 -5.1048549480E+000 
10145759.700 +5.9581701451E-001 +5.1770925782E+000  +5.9049614718E-003 +6.7386862463E+001  +3.0820671566E-003 +1.1425232352E+002  +6.2037167338E-001 -4.5691994745E+000 
10270904.881 +5.5084352918E-001 +2.4453783395E+000  +4.8264197127E-003 +7.3088613033E+001  +4.5094107768E-003 +2.7260627220E+001  +5.9597811383E-001 -2.1857064578E+000 
10396050.063 +5.6120075622E-001 +5.2229345622E+000  +3.6229604374E-003 +7.9766195924E+001  +4.3564812363E-003 +9.2912345053E+001  +6.2068625745E-001 -3.7166682351E+000 
10521195.244 +5.7417155243E-001 +4.6577890959E+000  +5.8283633701E-003 +7.8172975464E+001  +2.5958070522E-003 +9.0289581436E+001  +6.1013361819E-001 -3.0102441104E+000 
10646340.426 +5.8094339660E-001 +2.9253262805E+000  +3.2496503173E-003 +8.6069279694E+001  +4.2736406175E-003 +9.0048907829E+001  +5.8006960676E-001 -2.0224196498E+000 
10771485.607 +5.7836374862E-001 +7.3669196024E+000  +3.7405191218E-003 +4.9321115901E+001  +3.3736556140E-003 +5.1465469923E+001  +6.1977057446E-001 +1.6017287360E+000 
10896630.788 +5.6016608556E-001 +6.8415834242E+000  +3.7197727897E-003 +8.6375359200E+001  +2.3413965913E-003 +1.1343877691E+002  +6.1113587812E-001 +2.5676123994E+000 
11021775.970 +5.8383276114E-001 +4.9040520579E+000  +2.0418489368E-003 +4.4142177702E+001  +5.4776689198E-003 +8.8114272506E+001  +6.2727033238E-001 +1.5538570550E+000 
11146921.151 +5.9430748113E-001 +8.2010703676E+000  +3.3336249041E-003 +6.3406977048E+001  +5.2163718177E-003 +8.1936546794E+001  +6.3051075492E-001 +2.2535435581E+000 
11272066.333 +5.9665048166E-001 +7.8154482099E+000  +2.6506077373E-003 +5.5168915852E+001  +6.1761589578E-003 +9.6243504579E+001  +6.2151925919E-001 +1.8958625127E+000 
11397211.514 +6.6136489746E-001 +8.3652535392E+000  +2.8595699064E-003 +6.1378133675E+001  +2.7700214640E-003 +7.7119608423E+001  +6.2698667359E-001 +2.0427045962E-001 
11522356.696 +6.4509802129E-001 +5.4350011051E+000  +5.9997394511E-003 +7.1610859548E+001  +4.6654826896E-003 +9.4140660228E+001  +6.4908493903E-001 +3.0371755007E+000 
11647501.877 +6.4802151378E-001 +6.1658562571E+000  +6.0148542191E-003 +8.4232386599E+001  +7.4306709237E-003 +1.0906750020E+002  +6.8237843120E-001 +2.1892701241E+000 
11772647.059 +6.5184837190E-001 +5.8716388220E+000  +4.6748772765E-003 +7.8958361230E+001  +3.7813184268E-003 +1.0876075699E+002  +6.7122420884E-001 -2.9926791969E-002 
11897792.240 +6.8383730063E-001 +3.3281582843E+000  +4.7702593903E-003 +7.1367537625E+001  +4.4920084642E-003 +8.1731407626E+001  +6.5903241178E-001 +4.0857689215E-001 
12022937.422 +6.6839208167E-001 +5.4922332054E+000  +6.8805775777E-003 +8.5651372632E+001  +4.8965383896E-003 +9.9706909290E+001  +6.7023469717E-001 +1.2082785023E+000 
12148082.603 +6.5708281642E-001 +4.6490326038E+000  +5.9793838480E-003 +6.9931848910E+001  +5.1662450097E-003 +8.7385950473E+001  +6.9721279092E-001 +1.7552639594E+000 
12273227.785 +7.0046332718E-001 +4.4459612300E+000  +4.7671292678E-003 +8.0245680529E+001  +6.7705922413E-003 +8.8978409391E+001  +7.0810716310E-001 +1.0211743763E+000 
12398372.966 +6.9897267238E-001 +5.0830327110E+000  +4.8764526408E-003 +6.8042304018E+001  +5.8794757501E-003 +9.2224634280E+001  +7.3320225277E-001 +4.1813492604E-001 
12523518.148 +7.4381776542E-001 +3.5160656769E+000  +5.5756524557E-003 +8.8287559783E+001  +6.6515384216E-003 +8.1747940634E+001  +7.3929076755E-001 -6.9895406522E-001 
12648663.329 +7.4246584448E-001 +1.9928274158E+000  +5.3809268330E-003 +1.0460785123E+002  +4.7312038136E-003 +8.0856680627E+001  +7.6756914884E-001 -8.0354238883E-001 
12773808.511 +7.5388565777E-001 +2.9401768145E+000  +5.5885510770E-003 +8.9770765131E+001  +6.0066634832E-003 +7.6189267464E+001  +7.5757776451E-001 +2.4875868568E-001 
12898953.692 +7.6334055443E-001 +1.0235217578E+000  +6.3753820130E-003 +8.5095594074E+001  +5.9922534616E-003 +8.8000213930E+001  +7.7583647583E-001 -8.1633792943E-001 
13024098.874 +7.9150819894E-001 +5.2807853506E-001  +7.0591701982E-003 +6.6310583939E+001  +6.2323709043E-003 +1.0356821326E+002  +7.9026971418E-001 -2.1667710809E+000 
13149244.055 +7.9251265204E-001 +9.7749436759E-001  +7.9942343074E-003 +8.2149525290E+001  +8.0793715570E-003 +9.5513519840E+001  +8.3521152837E-001 -2.5497868263E+000 
13274389.237 +8.1506448391E-001 -8.0298453358E-001  +7.3382419162E-003 +8.7226492840E+001  +5.7187459814E-003 +7.3773871990E+001  +8.3208748627E-001 -1.2328290140E+000 
13399534.418 +8.4378710124E-001 -1.0669525298E+000  +6.9260423077E-003 +6.7387984629E+001  +5.3508210651E-003 +8.6649890106E+001  +8.4632360191E-001 -1.8956765278E+000 
13524679.599 +8.4603844567E-001 -2.1730695154E+000  +8.0189942707E-003 +8.6124298416E+001  +7.9537530787E-003 +9.1508892187E+001  +8.6699308275E-001 -2.9349293642E+000 
13649824.781 +8.6101587273E-001 -2.6487431129E+000  +7.4087687242E-003 +7.6018612448E+001  +8.6761490293E-003 +7.6768427358E+001  +8.7731551212E-001 -1.8905396975E+000 
13774969.962 +8.9376348037E-001 -2.6859134227E+000  +8.6378796424E-003 +9.2967813647E+001  +7.8804933182E-003 +8.2922052557E+001  +9.0010085268E-001 -3.5719554886E+000 
13900115.144 +9.1872505696E-001 -3.2952224313E+000  +6.0063377948E-003 +8.3969065872E+001  +7.2841513039E-003 +8.0227788947E+001  +9.1796446787E-001 -5.1605778939E+000 
14025260.325 +9.2591224779E-001 -5.1538536324E+000  +7.5053585260E-003 +8.0713759609E+001  +8.0127212592E-003 +7.7743610543E+001  +9.2411390476E-001 -3.4494766698E+000 
14150405.507 +9.5717735665E-001 -5.5580218352E+000  +7.9988285722E-003 +8.2686846074E+001  +7.8925835462E-003 +9.3931211844E+001  +9.5823699115E-001 -4.3881571120E+000 
14275550.688 +9.6369644892E-001 -4.2145182303E+000  +6.8935175053E-003 +7.8858682266E+001  +8.1891424562E-003 +8.6117324639E+001  +9.9766726091E-001 -3.7999449752E+000 
14400695.870 +9.6715723354E-001 -4.0338528528E+000  +7.6595324200E-003 +8.0533799516E+001  +6.4793885501E-003 +7.8868561074E+001  +9.8468452945E-001 -5.7025048567E+000 
