!  2-Port S-parameters saved by WinCal
! VAR MeasName=S-Parameters (CALIBRATED_DATA) read from VNA (P5004A)
! VAR MeasDate=28/08/2024 10:56:35
! VAR NAME=S2_r5c9_RESET3_9k-100M_1
! VAR FILENAME=S2_r5c9_RESET3_9k-100M_1.S2P
! VAR DATE=28/08/2024 10:56:35
! VAR PHYS_PORTS=1,2
! VAR ObjTypeName=DATASET
! VAR IndexType=Frequency
!
# Hz S MA R 50
9000.000 +9.2645684581E-002 -1.6957446597E+002  +1.4276500389E-002 -6.7374756544E+001  +7.1344973784E-003 -1.2341115191E+002  +2.5409000575E-001 -1.4453914122E+002 
134145.181 +1.1101978278E-001 +1.6984128287E+002  +4.0543489400E-004 +1.6597332586E+002  +2.1535516307E-004 +2.7633051933E+000  +2.3920710881E-001 -1.7127604366E+002 
259290.363 +1.1313449847E-001 +1.7033024710E+002  +4.9240601414E-004 -4.3696059282E+001  +1.3186902553E-003 -5.7812201211E+001  +2.4814028082E-001 -1.6864994829E+002 
384435.544 +1.1503685329E-001 +1.7056309486E+002  +2.8682025613E-004 -1.3580634673E+002  +5.3453973277E-004 -1.4797292425E+001  +2.4937075836E-001 -1.6954863176E+002 
509580.726 +1.1547615136E-001 +1.7132900795E+002  +1.4185436054E-003 -5.8160290191E+001  +2.0042881750E-003 +1.3697554661E+002  +2.4332786484E-001 -1.6020344263E+002 
634725.907 +1.1179694554E-001 +1.7102414939E+002  +1.0914692007E-003 -1.4981568522E+002  +6.2402690065E-004 +1.6756262880E+001  +2.4865191040E-001 -1.6499987909E+002 
759871.089 +1.2155333057E-001 +1.7097865474E+002  +3.2215174032E-004 +4.6367575218E+001  +2.3238892772E-004 +1.3456088472E+002  +2.5288071052E-001 -1.6689901102E+002 
885016.270 +1.2019102825E-001 +1.6897733719E+002  +4.6664983832E-004 -8.6005617482E+001  +3.0836110629E-004 +6.6249684046E+001  +2.4794945320E-001 -1.6686735421E+002 
1010161.452 +1.1715024151E-001 +1.7012936196E+002  +8.8027065433E-004 +4.4854101891E+001  +7.2378302222E-004 -1.6283018460E+002  +2.1737522810E-001 -1.6769577966E+002 
1135306.633 +1.1433548555E-001 +1.6884899222E+002  +4.1604506521E-004 +4.8904932160E+001  +2.7691992442E-003 -7.4295603536E+001  +1.8487111213E-001 -1.6361620857E+002 
1260451.815 +1.1950501971E-001 +1.7226458190E+002  +3.2573730408E-003 +8.6694016406E+001  +1.9763203524E-003 +9.0793144917E+001  +2.0959294729E-001 -1.5530533981E+002 
1385596.996 +1.2493543580E-001 +1.7245864630E+002  +2.3151399666E-003 +1.2387234408E+002  +7.1784824714E-004 +7.8623918088E+001  +2.5915153290E-001 -1.5859438907E+002 
1510742.178 +1.2610264537E-001 +1.7343800839E+002  +9.5134566999E-004 -1.7169073533E+002  +1.5692705556E-004 +1.6393600645E+002  +2.6025981905E-001 -1.5698736625E+002 
1635887.359 +1.3215485030E-001 +1.7072905396E+002  +4.5339624073E-004 +8.6113076972E+001  +5.5985403256E-004 +1.6290691232E+001  +2.4188730379E-001 -1.6013328913E+002 
1761032.541 +1.2907000727E-001 +1.7007447058E+002  +4.7623105694E-004 -1.0900334953E+002  +3.0729054320E-004 +1.7611628565E+002  +2.3947008136E-001 -1.5573702327E+002 
1886177.722 +1.2881749251E-001 +1.6686670134E+002  +2.8277499303E-003 +1.7597333211E+002  +1.4005715034E-003 -8.5385007706E+001  +2.1484984290E-001 -1.5974139961E+002 
2011322.904 +1.3223333997E-001 +1.6616761050E+002  +3.4619520434E-004 +4.5129756131E+001  +4.8519036390E-004 +1.4618165117E+002  +1.9891606208E-001 -1.5126494513E+002 
2136468.085 +1.2489627287E-001 +1.6980735034E+002  +2.6920511455E-003 +9.3937677269E+001  +2.4690651303E-003 -8.4087255726E+001  +1.4605416012E-001 -1.5400915316E+002 
2261613.267 +1.3488312497E-001 +1.6589144931E+002  +2.3360688870E-003 +1.3134682688E+002  +3.4552395879E-003 +5.3051317520E+001  +1.7111403029E-001 -1.6253706416E+002 
2386758.448 +1.3213104278E-001 +1.6466494896E+002  +1.5675772536E-003 +2.4489498017E+000  +4.0801063151E-004 +1.7485702341E+002  +1.8305806225E-001 -1.6139409352E+002 
2511903.630 +1.4065002387E-001 +1.6254343407E+002  +2.2413827651E-003 +1.0233858216E+002  +2.2921199817E-003 +9.3348117187E+000  +2.2255562581E-001 +1.5707303809E+002 
2637048.811 +1.2497595941E-001 +1.6522340256E+002  +5.9790679912E-003 +1.3085304241E+002  +3.1332079024E-003 -2.6807648806E+001  +2.7836686950E-001 +1.4909894110E+002 
2762193.992 +1.0080302121E-001 +1.5915157572E+002  +4.3549661375E-002 +3.5205348721E+001  +1.8151829213E-002 -1.0422948020E+002  +7.6659276451E-001 +8.1982978907E+000 
2887339.174 +1.2601903976E-001 +1.7479171048E+002  +8.9669547591E-003 +6.8752497300E+001  +5.0845156780E-002 -3.4738670120E+000  +7.6491580972E-001 +6.3327328791E+001 
3012484.355 +1.3242364849E-001 -1.6956172740E+002  +1.5597382333E-002 +9.7275874622E+001  +1.5370994080E-002 -8.8227928899E+001  +3.0117861288E-001 -2.9396810698E+001 
3137629.537 +1.4194323096E-001 +1.6386836378E+002  +9.8143859034E-003 +1.2856020717E+002  +4.4095407815E-003 -1.5955779613E+002  +2.6711407666E-001 -8.6266167184E+001 
3262774.718 +1.4196951972E-001 +1.7411923574E+002  +4.8559709439E-003 -8.4273392397E+001  +3.8256571524E-003 -3.7437462870E+001  +1.2368918043E-001 -1.1930327104E+002 
3387919.900 +1.5559104703E-001 +1.5813632412E+002  +1.9497509932E-002 -1.1229897222E+002  +6.4760339824E-003 +1.5586588422E+002  +6.6572122751E-001 +9.8861126886E+001 
3513065.081 +1.6494045861E-001 +1.4746305448E+002  +7.5069650431E-003 -1.0654827356E+002  +8.6356318834E-003 +1.1293184315E+002  +2.3694210340E-001 +1.4476536600E+002 
3638210.263 +1.6356936745E-001 +1.5204913175E+002  +4.2398062025E-003 +9.0857843822E+001  +8.8328658481E-003 +3.2167691250E+000  +6.4815005230E-001 +1.3848599558E+002 
3763355.444 +1.8218470192E-001 +1.4620478280E+002  +9.2760277209E-003 +8.6407609935E+001  +2.2994089822E-003 -1.1936866203E+002  +3.3273291081E-001 +1.3515597834E+002 
3888500.626 +1.7283924113E-001 +1.4705151727E+002  +4.4406746826E-003 +6.2107008803E+001  +4.2138908193E-003 +5.2818030506E+001  +2.3017577999E-001 +1.1335519809E+002 
4013645.807 +1.8176238960E-001 +1.5092824591E+002  +6.1689195331E-003 +1.0503189990E+002  +5.1955750986E-003 +3.4364396175E+001  +3.2940969515E-001 +1.4563611565E+002 
4138790.989 +1.8739838146E-001 +1.4969026423E+002  +2.3119751084E-003 -8.7955769705E+001  +5.4874684174E-003 +2.0380561703E+001  +4.9698126987E-001 +1.4332535043E+002 
4263936.170 +1.9908149679E-001 +1.4752703632E+002  +1.4058539878E-003 -5.2125508205E+001  +9.1003615609E-003 -1.8614628388E+001  +3.3385341076E-001 +7.9064209926E+001 
4389081.352 +2.2013230784E-001 +1.5043667400E+002  +3.2448803938E-003 +6.4705746211E+001  +3.6297776998E-003 +6.9988280387E+001  +1.6428919152E-001 +2.0535826837E+001 
4514226.533 +2.2762090313E-001 +1.3043305279E+002  +4.3692196304E-002 -1.1762596347E+002  +9.0681645054E-003 -4.0696625663E+001  +1.1446868747E+000 +1.4923138519E+002 
4639371.715 +3.0096592143E-001 +1.2282294063E+002  +1.9391109333E-001 +1.1001845242E+002  +6.8200660093E-002 +9.7405812612E+001  +4.0089092496E+000 +3.2690038121E+001 
4764516.896 +2.5232992363E-001 +1.3751573980E+002  +1.2471076927E-002 +1.9330921009E+001  +8.8067077693E-002 +1.1594091479E+002  +4.1126544828E+000 +9.7122784202E+001 
4889662.078 +3.8317260089E-001 +1.1431799819E+002  +1.3527639135E-001 +9.4730522992E+000  +6.1570903676E-002 -1.0663397724E+002  +4.8288272191E+000 -1.0079339942E+002 
5014807.259 +4.0286620289E-001 +1.2812246064E+002  +2.8686143385E-002 +1.7269209163E+002  +3.3723704588E-002 -1.6119086808E+002  +1.4953251982E+000 -3.0220181502E+001 
5139952.441 +4.1748135719E-001 +1.3331421816E+002  +2.2450815248E-002 -1.1397535939E+002  +5.0796034494E-002 -1.4114099731E+001  +2.8109540484E+000 -2.4696620724E+000 
5265097.622 +3.9922352410E-001 +1.3874034512E+002  +3.5851169731E-002 +1.6363966884E+002  +2.8145941612E-002 +6.2219023909E+001  +3.1017088595E+000 +1.1490783424E+002 
5390242.804 +4.2291204728E-001 +1.2566088838E+002  +1.9900816022E-002 +9.0869849366E+001  +2.5812567137E-002 +4.2791690348E+001  +1.7935928842E+000 +1.0296015917E+002 
5515387.985 +4.4550021275E-001 +1.3154856321E+002  +2.9997810809E-002 -1.7577366503E+002  +2.4510230865E-002 +5.8840731712E+001  +3.3544656965E+000 +7.0500746536E+001 
5640533.166 +5.1461953942E-001 +1.3481788964E+002  +2.7158996066E-002 +1.4738443111E+002  +2.1049416942E-002 -1.3157802031E+002  +3.8881163768E+000 +8.1679939072E+001 
5765678.348 +5.5783842256E-001 +1.3058359305E+002  +5.4487472953E-003 +1.5262249336E+002  +7.7932423705E-003 +1.0348848878E+002  +1.6406382755E+000 +5.6578537207E+001 
5890823.529 +6.0036249109E-001 +1.1534720072E+002  +2.0687659952E-002 +3.3422050489E+001  +1.5023505817E-002 -1.3773795221E+002  +2.1773573993E+000 +2.2063211739E+001 
6015968.711 +6.0545439229E-001 +1.1986471926E+002  +2.6430248561E-002 +7.4785659560E+001  +1.6563597467E-002 -1.3162396231E+002  +2.5348613605E+000 +4.8218928525E+001 
6141113.892 +7.6049497971E-001 +1.1589744404E+002  +2.4610724511E-002 +7.4794449172E+001  +8.3856283402E-003 -1.2572079523E+002  +1.4075572495E+000 +3.9630536162E+001 
6266259.074 +9.2373549745E-001 +1.1111566900E+002  +4.5083490591E-002 +7.2899579847E+001  +1.8554852407E-002 +8.0000064732E+001  +1.7189271426E+000 +1.7316822588E+001 
6391404.255 +1.0923982432E+000 +9.6853057787E+001  +1.4570411663E-002 +1.4017391520E+002  +5.1909839854E-002 +9.3572924884E+001  +1.3127309170E+000 +3.1060465683E+000 
6516549.437 +1.3791817222E+000 +9.3421116886E+001  +6.3535296788E-003 -1.0840581586E+002  +2.6110454798E-002 -1.7644002946E+002  +1.6093376196E+000 -7.0161650835E+000 
6641694.618 +1.3745193383E+000 +7.5158476393E+001  +1.7913874061E-002 +7.7401642585E+001  +9.8632039264E-003 +8.4896633077E+001  +1.3012816969E+000 +5.9029767650E+000 
6766839.800 +2.1855375728E+000 +3.8148601348E+001  +1.1092162899E-002 -3.6582316838E+001  +4.7422522187E-002 +5.4114510679E+000  +1.3345100229E+000 +7.8761663130E+000 
6891984.981 +1.8690340833E+000 +3.7880382991E+001  +1.5809659665E-002 +9.4766540648E+001  +2.9320400847E-002 +1.0050507832E+002  +1.0857426413E+000 -1.1921343129E+000 
7017130.163 +1.3978207642E+000 +1.5506206153E+001  +8.6833099386E-003 +6.8355209723E+001  +2.0620695441E-002 -1.2821269271E+002  +1.2858699276E+000 -1.1440819941E+001 
7142275.344 +1.6848931823E+000 +2.8664693352E+000  +8.7778459461E-003 +4.1456704397E+001  +3.5687909391E-002 +7.0848736559E+001  +1.2814937355E+000 -1.7295653521E+001 
7267420.526 +1.4756138117E+000 +1.1240051674E+000  +6.9641307222E-003 -3.2156900172E+001  +1.8427859988E-002 +2.5814773066E+001  +1.3070397205E+000 -1.3776014005E+001 
7392565.707 +1.5463808526E+000 +1.7308820481E+000  +6.9481246303E-003 +1.8413010106E+001  +6.5279499217E-003 +7.1144282994E+001  +1.2911412084E+000 -7.7514953890E+000 
7517710.889 +1.0892958079E+000 +8.8357736193E-001  +9.9820799959E-003 +6.6287653896E+001  +1.6071623898E-002 +2.9824108698E+001  +1.2275538821E+000 -8.3801900530E+000 
7642856.070 +1.1119010409E+000 -7.9769975572E-001  +5.9550433371E-003 +1.0144199155E+002  +5.5711115152E-003 +9.0080744071E+001  +1.0867762434E+000 -2.8955069346E+000 
7768001.252 +9.2826976071E-001 -1.8893247553E+000  +1.0198880075E-002 +3.7751727391E+001  +2.4215275412E-003 +2.3302750840E+000  +1.0509035130E+000 -6.2459729533E+000 
7893146.433 +9.2786739780E-001 +6.5781368380E+000  +2.0615393374E-003 +1.8011795968E+001  +1.2425598230E-002 +4.6756221803E+001  +9.2551835801E-001 -8.1251681491E+000 
8018291.615 +8.2833243219E-001 +9.6029783334E+000  +7.9736648622E-003 +8.9153404870E+000  +1.8157403265E-003 +1.4688383404E+002  +8.2649911875E-001 -2.0323253987E+000 
8143436.796 +8.0680222196E-001 +7.3983195629E+000  +5.2333785119E-003 +6.4690119224E+001  +2.9070595840E-003 +5.1981807719E+001  +8.8449938317E-001 -2.0739118793E+000 
8268581.977 +7.0084899042E-001 +1.3353634904E+001  +2.3348658438E-003 +8.3644074764E+001  +7.0608266810E-003 +5.1921196813E+001  +7.3236514589E-001 -3.5564075950E+000 
8393727.159 +5.9447057788E-001 +1.3861310276E+001  +8.0986540069E-003 +4.7435602152E+001  +3.0309008187E-003 -1.6417881616E+001  +7.9484966002E-001 +5.8724566106E+000 
8518872.340 +7.0733180381E-001 +1.0603837831E+001  +3.2111800249E-003 +9.0671854391E+001  +6.8725675736E-003 +7.2068619711E+001  +6.7231391768E-001 +2.5895990805E+000 
8644017.522 +6.3648705100E-001 +6.1320586499E+000  +2.4950011865E-003 -7.1719185952E-001  +5.2872811782E-003 +2.3996599767E+000  +7.5788544560E-001 +6.6864126369E-001 
8769162.703 +6.2785878140E-001 +4.7526726595E-001  +4.8610086942E-003 +4.2148086073E+001  +6.9485943519E-003 +4.5298048002E+001  +6.1981124046E-001 -2.7365038671E+000 
8894307.885 +5.9429827820E-001 +5.2604709296E+000  +3.1193517035E-003 -3.0187528616E+001  +6.4011723363E-003 +1.9653950226E+001  +6.5239914664E-001 -7.7388581319E-001 
9019453.066 +6.5709149311E-001 +3.6530992970E+000  +5.8057396505E-003 +5.9783269931E+001  +2.4824852581E-003 -1.0905463714E+001  +6.2343676058E-001 -5.7617566468E+000 
9144598.248 +5.8615010136E-001 +7.6133264942E+000  +6.4568837224E-003 +3.3519230605E+001  +5.8088081854E-003 +6.1134373826E+001  +6.5706601989E-001 -5.7720473860E+000 
9269743.429 +5.7938424830E-001 +4.1874404257E+000  +3.6705902300E-003 +7.9165484934E+001  +7.7932836239E-003 +4.4220873471E+001  +6.0275316873E-001 -8.1642117680E+000 
9394888.611 +5.7221641912E-001 +6.3334381118E+000  +6.1382888704E-003 +2.4755416580E+001  +3.7403926684E-003 +3.6069987998E+001  +5.6787233827E-001 -2.4886668481E+000 
9520033.792 +5.5303156893E-001 +9.8321206389E-001  +4.4334474907E-003 +3.1864408551E+001  +1.0954751361E-002 +5.3253111383E+001  +5.8402213157E-001 -3.9796087523E+000 
9645178.974 +5.1481638216E-001 +2.9417225000E+000  +8.8980607399E-003 +4.0988095805E+001  +3.5252658140E-003 +6.8007544145E+001  +6.1558060031E-001 -6.4174184763E+000 
9770324.155 +5.2489288174E-001 -7.8011443889E-001  +5.0417398864E-003 +5.8752101861E+001  +8.1671097382E-003 +5.2111045133E+001  +5.9656492253E-001 -6.0597742039E+000 
9895469.337 +5.3563433748E-001 -1.6212711260E-001  +5.1787683252E-003 +4.6727046770E+001  +6.0131911931E-003 +4.3966188887E+001  +5.7186929676E-001 -8.0967761144E+000 
10020614.518 +5.4062358838E-001 +5.3722084746E+000  +7.6313781740E-003 +4.6779190574E+001  +2.2403025457E-003 +6.7728544574E+001  +5.8036200208E-001 -4.8546906030E+000 
10145759.700 +5.4461844243E-001 +4.0902722747E+000  +5.9887371550E-003 +3.2365594454E+001  +6.0559077082E-003 +7.9702111978E+001  +5.5488808745E-001 -5.3705236603E+000 
10270904.881 +5.6793641026E-001 +3.3343981864E+000  +6.6709982301E-003 +6.7579462348E+001  +3.5202923430E-003 +7.5420038536E+001  +5.4858425627E-001 -3.1690479478E+000 
10396050.063 +5.5050249697E-001 +5.4209254890E+000  +6.5820963673E-003 +1.6457166346E+001  +4.8753674745E-003 +1.8322839071E+001  +6.0942072933E-001 +1.1571813992E+000 
10521195.244 +5.3209949102E-001 +5.3574876749E+000  +8.0549707665E-003 +4.2808925590E+001  +4.4037193911E-003 +6.1586919066E+001  +5.9240266952E-001 -1.8485881960E+000 
10646340.426 +5.6364403648E-001 +9.1530946861E+000  +5.8837988910E-003 +4.8450952722E+001  +4.4858671793E-003 +6.6987023466E+001  +6.1190558083E-001 -1.4871901995E+000 
10771485.607 +5.6902011192E-001 +4.4097842176E+000  +5.1842678654E-003 +4.8970441302E+001  +6.6203914664E-003 +4.6026895400E+001  +5.8853343487E-001 +1.0355139935E+000 
10896630.788 +5.6110154061E-001 +1.0560682344E+001  +7.3980944921E-003 +3.4928091338E+001  +6.6773215641E-003 +4.7226090596E+001  +5.8066968624E-001 -1.9556842020E-001 
11021775.970 +5.5186289806E-001 +6.6017396541E+000  +6.2326567472E-003 +4.3189282679E+001  +6.8539528111E-003 +7.7950064531E+001  +6.1125230512E-001 +2.6709633779E+000 
11146921.151 +6.1349609075E-001 +6.9031276052E+000  +7.6890146251E-003 +2.6042316942E+001  +7.5013025098E-003 +6.4108939539E+001  +5.9206057442E-001 +1.5277949882E+000 
11272066.333 +6.0715454763E-001 +6.9725024595E+000  +7.7763036194E-003 +5.3886621446E+001  +4.3010036902E-003 +6.2698910817E+001  +6.2613809089E-001 -1.5256682135E+000 
11397211.514 +5.9736198882E-001 +5.3213553498E+000  +6.3524487951E-003 +4.4316389341E+001  +6.6521177149E-003 +5.8887196646E+001  +6.2042655455E-001 +1.3034238520E+000 
11522356.696 +6.4745067179E-001 +5.7077641949E+000  +5.8856570270E-003 +4.9925412598E+001  +5.1927923803E-003 +5.5285397325E+001  +6.5635564788E-001 +3.2803484302E-001 
11647501.877 +6.6797511487E-001 +8.1271787747E+000  +8.2982457565E-003 +5.8161254043E+001  +5.1395135647E-003 +5.9615373348E+001  +6.4453311008E-001 +2.9180632653E+000 
11772647.059 +6.3732532691E-001 +3.6340919241E+000  +6.5537193232E-003 +4.9822445068E+001  +3.6861958832E-003 +8.5306737271E+001  +6.7804236399E-001 +2.1401952391E+000 
11897792.240 +6.5132132984E-001 +4.2532832327E+000  +6.2419332695E-003 +5.8606066044E+001  +5.6736705456E-003 +6.7505122132E+001  +6.7807149414E-001 +5.9427770732E-001 
12022937.422 +6.6701991093E-001 +4.3041423191E+000  +7.4940504781E-003 +6.3566953091E+001  +4.5106623645E-003 +5.4821952341E+001  +6.9193219965E-001 +1.0627814966E-001 
12148082.603 +6.8764742100E-001 +4.4397282383E+000  +8.2729152931E-003 +5.8055635825E+001  +6.4580550819E-003 +6.9462569983E+001  +6.7038644892E-001 -1.8644383137E+000 
12273227.785 +6.8966910606E-001 +4.3692834304E+000  +6.9652419420E-003 +4.6159475692E+001  +6.1292437460E-003 +5.3383886676E+001  +6.9450352824E-001 -2.1325227352E-001 
12398372.966 +7.3358785338E-001 +3.8647275518E+000  +6.9307365344E-003 +3.6926940735E+001  +6.3108719016E-003 +5.7570926390E+001  +7.1745165628E-001 +3.0037144843E-001 
12523518.148 +7.1255629736E-001 +2.7556588123E+000  +6.2905351587E-003 +5.9056002944E+001  +5.3230121068E-003 +6.4520453181E+001  +6.9337947392E-001 +1.2809700890E+000 
12648663.329 +7.4008693512E-001 +1.4324654556E+000  +9.0727165138E-003 +5.7344722572E+001  +5.9214828091E-003 +7.2834296586E+001  +7.6781236363E-001 -1.7235405879E+000 
12773808.511 +7.6107519324E-001 +2.9863208584E+000  +1.0192825767E-002 +4.9729997104E+001  +7.4351887934E-003 +7.3674862474E+001  +7.8074800414E-001 -2.0414925446E+000 
12898953.692 +7.9618933685E-001 +2.0801560128E+000  +6.9819987719E-003 +5.2141603338E+001  +6.0467558696E-003 +6.2800803610E+001  +7.7555106573E-001 +3.6962092864E-001 
13024098.874 +8.0084090760E-001 +1.0575789370E-001  +9.6821598721E-003 +4.9672947333E+001  +7.3498282198E-003 +6.7002513504E+001  +8.2027838138E-001 -8.8950752023E-002 
13149244.055 +7.7639708386E-001 +5.5476348427E-001  +8.5443393999E-003 +4.4110214880E+001  +6.7821020648E-003 +6.7566601417E+001  +8.1796922296E-001 -2.5162091819E-001 
13274389.237 +8.1306926691E-001 +1.0134157730E+000  +8.4746467476E-003 +5.4922098692E+001  +7.1517371802E-003 +5.1503638738E+001  +8.1704388018E-001 -2.6816031901E+000 
13399534.418 +8.3708676592E-001 -1.1229973124E+000  +7.1958811408E-003 +5.4286717152E+001  +9.1342500919E-003 +5.4844912915E+001  +8.4846286089E-001 -2.4094307080E+000 
13524679.599 +8.7330752965E-001 -1.1740836414E+000  +8.9848201968E-003 +6.0941299424E+001  +7.5118521819E-003 +5.3723150366E+001  +8.4317111979E-001 -3.2349959968E+000 
13649824.781 +8.7174547627E-001 -2.8745806061E+000  +1.0331521398E-002 +5.2725620280E+001  +7.3868749868E-003 +5.6900926714E+001  +8.8706121051E-001 -3.3332564602E+000 
13774969.962 +8.8610429350E-001 -2.8579986570E+000  +9.6029410104E-003 +5.7488541277E+001  +8.0112206550E-003 +5.9498896141E+001  +9.0215270211E-001 -3.5326982297E+000 
13900115.144 +8.9969975288E-001 -3.1289186346E+000  +9.6275889708E-003 +5.6990886190E+001  +8.4430755987E-003 +5.7014422802E+001  +9.3577936633E-001 -3.7699311074E+000 
14025260.325 +9.1854518596E-001 -4.4658543806E+000  +1.0008286049E-002 +5.9566965736E+001  +7.6807522364E-003 +5.7271663338E+001  +9.2517043107E-001 -3.2711583981E+000 
14150405.507 +9.3577890747E-001 -3.3730372010E+000  +9.4145794630E-003 +4.7978561160E+001  +9.7062363820E-003 +5.2696051826E+001  +9.4679976878E-001 -5.4118123687E+000 
14275550.688 +9.6678253505E-001 -5.1054338171E+000  +8.7042081739E-003 +5.8459665532E+001  +9.1021020901E-003 +5.4637013834E+001  +9.6124342971E-001 -4.8656602463E+000 
14400695.870 +9.7462794254E-001 -6.0164717952E+000  +8.0040349698E-003 +6.1315997882E+001  +7.6523075678E-003 +5.1911320420E+001  +9.8016353543E-001 -3.7993049579E+000 
