!  2-Port S-parameters saved by WinCal
! VAR MeasName=S-Parameters (CALIBRATED_DATA) read from VNA (P5004A)
! VAR MeasDate=28/08/2024 10:25:32
! VAR NAME=S2_r4c9_RESET2_9k-100M_1
! VAR FILENAME=S2_r4c9_RESET2_9k-100M_1.S2P
! VAR DATE=28/08/2024 10:25:32
! VAR PHYS_PORTS=1,2
! VAR ObjTypeName=DATASET
! VAR IndexType=Frequency
!
# Hz S MA R 50
9000.000 +7.8825655807E-002 -1.7747703673E+002  +8.0158143132E-003 -5.2200922210E+001  +7.2260141940E-003 -1.0546703972E+002  +2.3919461485E-001 -1.3855002285E+002 
134145.181 +1.1096722589E-001 +1.6936046431E+002  +3.7010849989E-004 -6.6661625005E+001  +3.1307354906E-004 -8.6409470079E+001  +2.3990759667E-001 -1.7088494787E+002 
259290.363 +1.1105425927E-001 +1.7027893933E+002  +1.2291852498E-003 -3.9275022802E+001  +7.0119143478E-004 +1.7999182873E+002  +2.3998867897E-001 -1.6838674690E+002 
384435.544 +1.1426433862E-001 +1.6958227731E+002  +4.7166124061E-004 +1.2611607070E+002  +2.0712562186E-004 +6.2806465876E+000  +2.4538837590E-001 -1.6834013190E+002 
509580.726 +1.1378031788E-001 +1.7073011375E+002  +1.1192815841E-003 +3.5965311746E+000  +9.2365474874E-004 +4.6529215748E+001  +2.4337416269E-001 -1.6790182620E+002 
634725.907 +1.1605353633E-001 +1.7232104942E+002  +8.7018739200E-004 +8.4772647379E+001  +1.0822438225E-003 -9.9671548497E+001  +2.5655807101E-001 -1.6758544366E+002 
759871.089 +1.1852774548E-001 +1.7050373532E+002  +8.8822020341E-004 -1.5895682356E+002  +4.6659875390E-004 +4.3522476047E+001  +2.4657844553E-001 -1.6622935242E+002 
885016.270 +1.2072508897E-001 +1.6969406453E+002  +4.6205260095E-004 +9.2466854273E+001  +6.2990701605E-004 -9.2084802756E+001  +2.4825661987E-001 -1.6703975706E+002 
1010161.452 +1.1776979220E-001 +1.7017782191E+002  +5.0856359203E-004 +7.1060162469E+001  +1.1090648235E-003 -9.8428195942E+001  +2.0631038435E-001 -1.6721835596E+002 
1135306.633 +1.1683171306E-001 +1.6861915608E+002  +7.4373432370E-004 -1.5685577438E+002  +1.3307696392E-003 -6.1951249894E+001  +1.8628315780E-001 -1.6156131044E+002 
1260451.815 +1.1937545733E-001 +1.7173779636E+002  +1.6099430991E-003 -1.4399360382E+002  +1.4753729927E-003 +3.3843724347E+001  +2.1084090816E-001 -1.5541066479E+002 
1385596.996 +1.2933085143E-001 +1.7272433444E+002  +4.4924800143E-004 -1.3244834714E+002  +1.0304741807E-003 +2.5457249534E+000  +2.4840579050E-001 -1.5780714199E+002 
1510742.178 +1.2635142462E-001 +1.7267165125E+002  +2.8136051337E-004 +4.3121771884E+001  +1.0387721002E-003 -7.6258241911E+000  +2.5477794243E-001 -1.5910190027E+002 
1635887.359 +1.2812241847E-001 +1.7203068539E+002  +1.7481695085E-003 +4.6369103563E+001  +1.5276906838E-003 -1.0456164908E+001  +2.3173754229E-001 -1.5186636627E+002 
1761032.541 +1.3044822445E-001 +1.7077416300E+002  +1.6798165337E-003 -6.1490032597E+001  +1.8670375054E-003 -1.6905504441E+001  +2.4047329233E-001 -1.5519577144E+002 
1886177.722 +1.2853978248E-001 +1.6828525523E+002  +2.6041026188E-003 -1.5587075602E+002  +1.8305743093E-003 -8.0245748552E+001  +2.1495724152E-001 -1.5944213901E+002 
2011322.904 +1.2897313923E-001 +1.6771900779E+002  +2.4558601628E-003 +5.7461166117E+001  +1.0052115304E-003 -1.6106750710E+002  +1.6022903865E-001 -1.4768331161E+002 
2136468.085 +1.3071882154E-001 +1.6823159491E+002  +2.3539931068E-003 +6.7813802015E+001  +3.0271630483E-003 -6.4785235499E+001  +1.7910543541E-001 -1.6637155051E+002 
2261613.267 +1.3017996683E-001 +1.6547481876E+002  +3.0192951933E-003 +2.8861278968E+001  +1.3932985831E-003 -5.8129778856E+000  +1.4725201574E-001 +1.6930897801E+002 
2386758.448 +1.2956454711E-001 +1.6537834195E+002  +5.2073271482E-003 +3.4193696184E+001  +5.9986069020E-003 -6.7705913753E+001  +1.1166997745E-001 +1.4569965993E+002 
2511903.630 +1.3479171520E-001 +1.6428458409E+002  +1.1698585549E-003 -1.1076408720E+002  +3.0447415143E-003 -1.4378545757E+002  +1.8771815229E-001 -1.7761506176E+002 
2637048.811 +1.2097309765E-001 +1.6533917558E+002  +1.2614864094E-002 +7.2377678221E+000  +6.2633215323E-003 -5.1698262188E+001  +1.0340110497E-001 -1.0801125800E+002 
2762193.992 +1.0801903245E-001 +1.6542162885E+002  +8.6386210977E-003 -7.4967297490E+001  +1.2992772533E-002 -8.3269496677E+000  +5.3145659169E-001 +9.8764099372E+001 
2887339.174 +1.2308679324E-001 +1.6049151832E+002  +1.0119681071E-002 +3.8906427732E+001  +9.6053216372E-003 +1.3814812371E+002  +3.5003184174E-001 -5.9530929281E+001 
3012484.355 +1.1951025767E-001 +1.7044424157E+002  +1.4729520065E-002 -6.7340727155E+001  +7.9263643819E-003 +1.6799300666E+002  +3.0526224662E-001 -1.0170884007E+002 
3137629.537 +1.0981312387E-001 +1.7164786671E+002  +1.4514016709E-002 +8.6254917472E+001  +2.8212100603E-003 -7.3453040680E+001  +1.3647676353E-001 -3.6188035042E+001 
3262774.718 +1.1317089351E-001 +1.5634636647E+002  +9.6883706957E-003 -1.7484044675E+002  +7.4003738560E-003 +1.0201678338E+002  +5.1172656016E-002 +9.7271313458E+001 
3387919.900 +1.3224491238E-001 +1.5921758084E+002  +4.4242024028E-003 +4.4240196903E+001  +3.8605448998E-003 +1.3092558728E+002  +1.5448646946E-001 -1.7357170689E+002 
3513065.081 +1.2357145315E-001 +1.5871697322E+002  +1.7215290244E-002 +2.5597548482E+001  +3.4246570306E-003 -2.8876733289E+000  +5.1603676867E-001 +1.1038218575E+002 
3638210.263 +1.8285663598E-001 +1.4874935206E+002  +7.8575944868E-003 -1.4464409228E+002  +9.4701928582E-003 +9.3350090119E+000  +5.3500721238E-001 +1.5317151905E+002 
3763355.444 +1.5814850555E-001 +1.4284744251E+002  +1.2154741063E-002 -2.2698774461E+001  +1.7137645321E-002 +2.1343048685E+001  +6.4928073114E-001 +1.1629997647E+002 
3888500.626 +1.7305190287E-001 +1.5240146160E+002  +9.9755383339E-003 +2.4108190000E+001  +1.0195047530E-002 +4.9007386036E+001  +2.7543385796E-001 +1.2639560085E+002 
4013645.807 +1.5859854350E-001 +1.5182973537E+002  +6.2721030520E-004 -8.3646924599E+001  +4.6780497958E-003 +3.3824632825E+001  +2.4565873647E-001 +1.4756085263E+002 
4138790.989 +1.9760543069E-001 +1.4633449021E+002  +9.5297428157E-003 +1.5792719452E+002  +1.8416905224E-002 +1.0350003159E+002  +5.1177789322E-001 +1.3041426299E+002 
4263936.170 +1.7811719114E-001 +1.3582029838E+002  +1.2956564013E-002 +4.7885668057E+001  +1.7071513415E-002 -7.6424069571E+000  +7.4020499649E-001 +7.0938066270E+001 
4389081.352 +2.2784812538E-001 +1.3611991924E+002  +4.3813693252E-003 +6.9140900209E+001  +1.5102072315E-002 -4.2621221458E+001  +6.1705236901E-001 +8.3233415983E+001 
4514226.533 +2.1602503433E-001 +1.3861598803E+002  +7.5300014584E-003 +1.4806397596E+002  +2.6126212675E-002 +8.8668249012E+000  +1.0592536563E+000 +5.2792231432E+001 
4639371.715 +2.4584980458E-001 +1.2215446397E+002  +1.0759975311E-002 +1.1915145408E+002  +5.2952307570E-002 +6.4553739225E+001  +1.5002787048E+000 +1.1274168387E+002 
4764516.896 +3.3063094213E-001 +1.3729279926E+002  +3.7031236948E-003 +1.1963825774E+002  +2.7637572018E-002 -1.4848677142E+001  +2.5694666597E+000 -1.3496211021E+002 
4889662.078 +3.8817763235E-001 +1.3611530459E+002  +3.9571712859E-002 +1.6667459194E+002  +6.4158078261E-002 +1.1500180509E+002  +3.1093614643E+000 +8.6483272215E+001 
5014807.259 +4.5486811874E-001 +1.3192041762E+002  +1.7040791599E-001 -9.9495913856E+001  +8.2845709187E-002 -2.9713569266E+001  +6.5097334196E+000 +1.6180349551E+002 
5139952.441 +3.4881794080E-001 +1.2368015907E+002  +2.6491828903E-002 +6.8827314213E+001  +1.0641760064E-002 +4.5843307084E+001  +1.1439384832E+000 +3.2736385389E+001 
5265097.622 +4.0452649973E-001 +1.3640103809E+002  +4.7628024148E-002 +1.2823162812E+002  +5.4744785597E-002 +8.8384719370E+001  +3.1863188842E+000 +1.0590184617E+002 
5390242.804 +3.8422985214E-001 +1.3231965777E+002  +5.3708621248E-002 +1.6680822743E+002  +7.0225010417E-002 +6.3231345962E+001  +5.7926057504E+000 +5.7435458972E+001 
5515387.985 +4.1998390252E-001 +1.2968082950E+002  +4.4636748643E-002 +1.7793928947E+002  +5.1161322060E-002 +1.3152269255E+002  +3.2128231663E+000 +1.1029868682E+002 
5640533.166 +4.4666022074E-001 +1.2473290019E+002  +1.1578460790E-002 +1.3965257232E+002  +2.9297981024E-002 +6.1004795098E+001  +2.1407262931E+000 +8.3227965460E+001 
5765678.348 +4.6782509265E-001 +1.2634991002E+002  +2.0048127230E-002 +5.6581422588E+001  +2.3071319797E-002 +6.7128169992E+001  +1.4669707452E+000 +5.8052005323E+001 
5890823.529 +5.9092405754E-001 +1.0957736039E+002  +3.2724719005E-002 +2.9693413326E+001  +1.1867128405E-002 +1.1612269939E+002  +2.2111781808E+000 +1.0699732365E+002 
6015968.711 +7.8095036737E-001 +1.0819330862E+002  +4.5358384110E-002 +7.6936296709E+001  +6.2609337690E-002 +5.5615097128E+001  +2.2595384496E+000 +3.6119609845E+001 
6141113.892 +8.4994401232E-001 +1.1761682993E+002  +3.2477765348E-002 +1.1286190407E+002  +1.6246342022E-002 +6.5765040613E+001  +2.0064456944E+000 +3.7046555602E+001 
6266259.074 +8.7538607007E-001 +1.0688816088E+002  +3.4142585586E-002 +9.9113115843E+001  +2.9220829395E-002 +3.9716833161E+001  +1.8332008287E+000 +4.8161811624E+001 
6391404.255 +1.2117191026E+000 +9.9777360336E+001  +2.2755431255E-002 +8.7260756065E+001  +2.6767527877E-002 +2.9661158516E+001  +1.5949352141E+000 +1.0256501164E+001 
6516549.437 +1.2620755294E+000 +9.5597952878E+001  +1.1074407634E-002 +6.9767513958E+001  +2.8912042937E-002 +5.7277420408E+001  +1.2744443648E+000 +4.2447489668E+000 
6641694.618 +1.5185937731E+000 +8.7558396224E+001  +1.6897602707E-002 +1.5618624392E+000  +3.8810861210E-002 +8.0642415339E+001  +1.2679394145E+000 +3.7738332512E-001 
6766839.800 +2.3426126412E+000 +5.0712838017E+001  +3.4400236212E-002 -4.5615216163E+001  +4.7826943991E-002 +4.7324621443E+001  +1.4576870916E+000 +4.1517473619E+000 
6891984.981 +1.5262245721E+000 +1.8922795667E+001  +1.9958949905E-002 -4.4347641873E+000  +4.3238554986E-002 +1.2996964441E+001  +1.2481198902E+000 -5.5004993212E+000 
7017130.163 +1.9218036710E+000 +2.5100183718E+001  +1.8032309913E-002 -3.2710558669E+001  +3.6203539796E-002 +3.4834319256E+001  +1.2216682347E+000 -8.2781359268E+000 
7142275.344 +1.6945498818E+000 +6.2389960929E+000  +1.8575828660E-002 +7.8429561356E+001  +2.4509944779E-002 +6.3602080476E+000  +1.3867779077E+000 -1.0851434046E+001 
7267420.526 +1.5533897457E+000 -4.2145754581E+000  +1.8721222391E-002 +1.8957817904E+001  +1.1770154340E-002 -4.8083669796E+001  +1.3195436054E+000 -9.7452345551E+000 
7392565.707 +1.2099126880E+000 +1.0422689093E+000  +8.0503323245E-003 +5.4688091850E+001  +8.7060365850E-003 +3.7862159512E+001  +1.3076853984E+000 +1.9399486744E+000 
7517710.889 +1.1777517735E+000 -2.7026147597E+000  +9.2962162156E-003 -8.0865890912E-001  +7.2288028290E-003 +6.4496631458E+000  +1.1425285439E+000 -5.7081535229E+000 
7642856.070 +1.0605643768E+000 +2.7253662447E+000  +1.7929100540E-002 -7.8182180950E+000  +8.2092913970E-003 +5.9698044243E+001  +1.2128625022E+000 -1.0530139294E+001 
7768001.252 +1.0450739905E+000 +6.1292917426E+000  +1.2872981921E-002 +1.5711832863E+001  +5.4617262929E-003 +7.9301553677E+001  +8.2948221484E-001 -8.8774295842E+000 
7893146.433 +8.3079912774E-001 +7.5423849479E+000  +1.5417369759E-002 +2.1540590105E+001  +1.3591835399E-002 -8.0634221558E+000  +8.4043396875E-001 +3.8766200469E-002 
8018291.615 +7.8681562917E-001 +9.4463285329E+000  +1.2769461957E-002 +2.3634608317E+001  +1.5201848656E-002 +1.8201690964E+001  +8.6798032756E-001 -3.3697659581E+000 
8143436.796 +8.4407086912E-001 +6.4889579887E+000  +1.1580782581E-002 +3.9502670713E+001  +1.2394432574E-002 +1.7800203675E+001  +8.4282146401E-001 +8.0964115121E-001 
8268581.977 +7.2275027300E-001 +6.6706357222E+000  +6.3782413267E-003 +4.7490724155E+001  +6.1910806577E-003 -3.5837900662E+000  +8.5103087822E-001 +4.0600427481E+000 
8393727.159 +6.1581743676E-001 +4.0946511598E+000  +4.8189195321E-003 +4.6568086086E+000  +1.0310241231E-002 +1.4545477852E+001  +7.8698306983E-001 -1.3582797795E+000 
8518872.340 +7.2115691793E-001 +7.2592336766E+000  +9.2208479048E-003 +3.4747230861E+001  +8.6604203389E-003 +7.2419920458E+001  +7.3810481327E-001 +3.3743191071E+000 
8644017.522 +6.3275554259E-001 +2.0450385361E+000  +1.1344002628E-002 -5.2112434066E+000  +8.5752913240E-003 +2.5065301243E+001  +7.0749908050E-001 +1.8336220006E+000 
8769162.703 +6.5141433404E-001 +1.0972627189E+001  +7.8209444554E-003 +4.2500808735E+001  +1.2372989841E-002 +3.2399930927E+001  +6.4015350240E-001 -1.3168700298E+000 
8894307.885 +6.2495929271E-001 +8.9541358341E+000  +7.6437588084E-003 +1.9168278890E+001  +6.5691671805E-003 +6.5167539266E+001  +6.8224292539E-001 +9.5017801943E-001 
9019453.066 +5.3849101205E-001 +7.6746268951E+000  +7.5573943806E-003 -4.2304742062E+000  +8.5768278530E-003 +5.4275172914E+001  +6.2204722771E-001 +2.1001005011E+000 
9144598.248 +6.1143897827E-001 +5.3037911735E+000  +6.3723384874E-003 +2.6435751293E+001  +7.8251106175E-003 +3.0139384990E+001  +6.4886871538E-001 -1.8399233140E+000 
9269743.429 +5.9264362096E-001 +3.2899613550E+000  +9.2198808529E-003 +3.6826163170E+001  +9.1073127403E-003 +2.8122403901E+001  +5.9923319295E-001 +1.6333347582E+000 
9394888.611 +5.6320584472E-001 +2.2942403090E+000  +8.2221651437E-003 +1.1621316206E+001  +4.4660654454E-003 +2.7437531827E+001  +5.9095903130E-001 -4.4222478644E-001 
9520033.792 +5.4966299009E-001 +1.2345734982E+000  +9.0393542125E-003 +1.4273338508E+001  +9.8071800337E-003 +3.7456971536E+001  +6.2269608517E-001 -4.7178468996E+000 
9645178.974 +5.7489227058E-001 +1.9829520223E+000  +9.0605594423E-003 +1.5147045841E+001  +1.2967736912E-002 +3.0575524190E+001  +5.8534051450E-001 -4.3927801023E+000 
9770324.155 +5.5199853783E-001 -1.6411229132E+000  +8.5707560737E-003 +4.4438600295E+001  +7.7300382769E-003 +5.8446228581E+001  +5.9175342907E-001 -5.2461211618E+000 
9895469.337 +5.2585766151E-001 +3.7179970213E+000  +1.0340367703E-002 +1.6404148537E+001  +5.9398374393E-003 +3.6317526262E+001  +5.1774979655E-001 -5.8940113721E+000 
10020614.518 +5.5863692713E-001 +4.1751081554E+000  +1.1994612740E-002 +3.6878971286E+001  +9.0568021989E-003 +2.1401647919E+001  +5.7660894164E-001 -6.0821742526E+000 
10145759.700 +5.1594793603E-001 +5.1782365411E+000  +9.5501418001E-003 +2.5099007184E+001  +1.0819355486E-002 +2.7907842976E+001  +5.5641004455E-001 -1.2958696606E+000 
10270904.881 +5.4140156499E-001 +4.9355072684E+000  +6.6973166543E-003 +3.0858782019E+001  +7.3254160176E-003 +3.4530397607E+001  +5.7816216963E-001 -3.4252065101E+000 
10396050.063 +5.6052527654E-001 +7.5317977943E+000  +7.2435153893E-003 +2.1712449799E+000  +9.4825932761E-003 +3.7211723149E+001  +6.0192371393E-001 -2.3831365993E+000 
10521195.244 +5.6747638938E-001 +4.0799594076E+000  +9.9678741015E-003 +3.4586096246E+001  +1.0201278528E-002 +3.6007132375E+001  +5.8947977631E-001 -4.2769334350E-001 
10646340.426 +5.3657660437E-001 +8.7679247973E+000  +8.4472036876E-003 +2.9306935658E+001  +9.1933538066E-003 +3.2098436583E+001  +5.8116249013E-001 +8.1427035654E-001 
10771485.607 +5.6516501455E-001 +6.5124537672E+000  +8.5249089817E-003 +2.4806703021E+001  +8.4374021198E-003 +4.1289742938E+001  +6.0126884048E-001 -1.4152494425E+000 
10896630.788 +6.0344861114E-001 +7.1473144720E+000  +9.7161518724E-003 +3.3925860999E+001  +8.6175944896E-003 +4.0037319837E+001  +6.0708828631E-001 +1.2198517933E+000 
11021775.970 +5.7674462746E-001 +5.6035005410E+000  +8.3467109438E-003 +2.0687015789E+001  +9.8715659460E-003 +4.2534880561E+001  +6.2626469102E-001 -2.1896731344E+000 
11146921.151 +5.9146720852E-001 +4.9310543477E+000  +1.2015668852E-002 +2.5625552614E+001  +1.1095525833E-002 +4.0335741855E+001  +6.1240857708E-001 +1.4185771241E+000 
11272066.333 +6.0240870836E-001 +7.0692451200E+000  +7.6561036500E-003 +4.5285970118E+001  +8.6659545997E-003 +3.6680946802E+001  +6.0616198795E-001 +3.8918029729E-001 
11397211.514 +5.9202723040E-001 +6.8039035900E+000  +1.1242166567E-002 +2.7468696859E+001  +8.9243111735E-003 +3.3267701675E+001  +6.3534278109E-001 -6.6786861483E-003 
11522356.696 +6.1836926309E-001 +6.2226525014E+000  +8.2802556743E-003 +2.8851862611E+001  +6.4765726563E-003 +5.1519217886E+001  +6.8169828772E-001 +2.5529517167E+000 
11647501.877 +5.9879026014E-001 +8.8119014462E+000  +9.1871564690E-003 +3.2425010324E+001  +1.1605912342E-002 +3.9952524963E+001  +6.4148653172E-001 +1.9725004062E+000 
11772647.059 +6.3844682593E-001 +4.9338534424E+000  +1.0285282293E-002 +3.2282403161E+001  +1.0645986266E-002 +5.0146671767E+001  +6.7485271364E-001 +4.4516938967E-001 
11897792.240 +6.4789254614E-001 +4.9313823991E+000  +1.1252703457E-002 +4.2052381707E+001  +9.7015665174E-003 +4.4645685091E+001  +6.8899548187E-001 +1.3827336691E+000 
12022937.422 +7.0168454757E-001 +5.9568344001E+000  +9.3912451921E-003 +2.9661579727E+001  +1.1848317454E-002 +3.7854598617E+001  +6.9614821921E-001 +6.7189031204E-001 
12148082.603 +6.8486345734E-001 +5.5478135801E+000  +1.1988883526E-002 +2.4882895058E+001  +8.7263975339E-003 +3.2499793160E+001  +7.0610035705E-001 -1.0888736608E+000 
12273227.785 +7.1167826690E-001 +7.3059197153E+000  +9.1258553191E-003 +2.8257994335E+001  +1.1233480980E-002 +3.7460339915E+001  +6.9445250552E-001 +4.2311358050E-001 
12398372.966 +7.2421606915E-001 +5.3381052812E+000  +1.0788012532E-002 +3.1000633186E+001  +1.1413899500E-002 +4.5349386565E+001  +7.2346678728E-001 +1.1555732924E+000 
12523518.148 +7.3989866601E-001 +1.0310200449E+000  +1.0009381977E-002 +3.0692715542E+001  +1.2280798570E-002 +4.9220339398E+001  +7.6126869711E-001 -1.2493902282E-001 
12648663.329 +7.3171602878E-001 +3.9235827550E+000  +8.9122511392E-003 +3.8750486558E+001  +1.0602252470E-002 +3.9440685865E+001  +7.3783562706E-001 -1.9311558945E+000 
12773808.511 +7.4512514200E-001 +2.2548441947E+000  +1.1144553859E-002 +3.5520042993E+001  +1.0748397811E-002 +4.6554762922E+001  +7.6580489099E-001 -8.6171960799E-001 
12898953.692 +7.5812699476E-001 +1.7775103003E+000  +1.1516454390E-002 +3.5155634379E+001  +1.1815556334E-002 +4.0372542311E+001  +7.7873163917E-001 -1.7244391672E+000 
13024098.874 +7.9170082377E-001 +3.2043875179E-001  +1.1967596358E-002 +3.4804504757E+001  +1.2144658273E-002 +3.9005404683E+001  +7.9619704594E-001 -2.9762357653E+000 
13149244.055 +7.9468683381E-001 -4.2953760287E-001  +1.1115656789E-002 +3.8522433501E+001  +1.0827644783E-002 +3.3978151746E+001  +8.0368497900E-001 -1.9506449332E+000 
13274389.237 +8.2656750253E-001 -1.0776404439E-001  +1.1278842087E-002 +3.9571136153E+001  +1.1988090782E-002 +3.9438000390E+001  +8.2932001810E-001 -3.0818830691E+000 
13399534.418 +8.3062615485E-001 -1.1155813002E-001  +1.1189199823E-002 +3.8755930074E+001  +9.8746613597E-003 +4.3110758956E+001  +8.4814720103E-001 -2.3489826416E+000 
13524679.599 +8.3559594658E-001 -2.4000646821E+000  +1.0870705104E-002 +4.1862107153E+001  +1.2419128831E-002 +2.8989164582E+001  +8.6447295117E-001 -2.3895470461E+000 
13649824.781 +8.7034149965E-001 -1.8147023031E+000  +1.1596780152E-002 +4.1267311712E+001  +1.2171204781E-002 +4.3381711868E+001  +8.7591851485E-001 -2.5215636161E+000 
13774969.962 +8.8609463739E-001 -3.0655267240E+000  +1.0695648124E-002 +3.5575350119E+001  +1.1340853881E-002 +4.6318045414E+001  +9.0169699799E-001 -3.8481561141E+000 
13900115.144 +9.1270571863E-001 -3.8088883415E+000  +1.2440102144E-002 +4.2521240184E+001  +1.1243757932E-002 +3.6381144380E+001  +9.0285601209E-001 -5.2290761746E+000 
14025260.325 +9.1502000791E-001 -4.2761866382E+000  +1.1936108605E-002 +3.5974860892E+001  +1.1927233882E-002 +4.3479442751E+001  +9.3471739798E-001 -4.1586117575E+000 
14150405.507 +9.4459605225E-001 -5.4246610064E+000  +1.2001194430E-002 +4.1183569038E+001  +1.2952337254E-002 +4.4324878534E+001  +9.5299734542E-001 -4.5204458321E+000 
14275550.688 +9.5076805701E-001 -5.0367822577E+000  +1.2163998750E-002 +4.2371470893E+001  +1.1249362872E-002 +3.8056024611E+001  +9.4220110315E-001 -3.3966052990E+000 
14400695.870 +9.6982309026E-001 -3.8500051941E+000  +1.2273374143E-002 +4.1165256528E+001  +1.2124507825E-002 +3.8184650717E+001  +9.9447469044E-001 -4.5226979460E+000 
