!  2-Port S-parameters saved by WinCal
! VAR MeasName=S-Parameters (CALIBRATED_DATA) read from VNA (P5004A)
! VAR MeasDate=27/08/2024 15:42:52
! VAR NAME=S2_r6c8_RESET3_9k-100M_2
! VAR FILENAME=S2_r6c8_RESET3_9k-100M_2.S2P
! VAR DATE=27/08/2024 15:42:52
! VAR PHYS_PORTS=1,2
! VAR ObjTypeName=DATASET
! VAR IndexType=Frequency
!
# Hz S MA R 50
9000.000 +6.9904543432E-002 -1.7076987777E+002  +8.9558667239E-003 +1.2772065453E+002  +5.9113603435E-003 -1.3325471264E+002  +2.6464447144E-001 -1.3418426486E+002 
134145.181 +1.1116028327E-001 +1.6981366736E+002  +5.8045617079E-004 -1.5161427875E+002  +5.0835228451E-004 -9.2309308503E+001  +2.3582738279E-001 -1.7189370504E+002 
259290.363 +1.1147615788E-001 +1.7025442657E+002  +4.8266618387E-004 +1.3374734680E+002  +4.1786017839E-004 +1.6042696967E+002  +2.4612551789E-001 -1.6841771075E+002 
384435.544 +1.1430201760E-001 +1.7000952321E+002  +5.6185836106E-004 -2.4733222972E+001  +3.6063300411E-004 -1.2779846681E+002  +2.4023920227E-001 -1.6862755498E+002 
509580.726 +1.1543576923E-001 +1.7132574738E+002  +4.5008377044E-004 -1.3421892578E+002  +1.4846105353E-003 +9.9425304192E+001  +2.5473805689E-001 -1.6435308285E+002 
634725.907 +1.1600563828E-001 +1.7108830141E+002  +3.3274194709E-004 +1.1312792375E+002  +1.3678828013E-003 +1.1218385481E+002  +2.5262215142E-001 -1.6583231669E+002 
759871.089 +1.1913334130E-001 +1.7110984927E+002  +4.9795458705E-004 -1.1881226937E+002  +6.4776398190E-004 +1.5164363804E+002  +2.4458687377E-001 -1.6595895285E+002 
885016.270 +1.1796283749E-001 +1.6883936813E+002  +1.2853202854E-004 -1.9983683589E+001  +7.7955129979E-004 -2.7026491414E+001  +2.4982988155E-001 -1.6428007308E+002 
1010161.452 +1.1583039312E-001 +1.7486411266E+002  +5.1553306059E-003 -1.0426556977E+002  +2.3438012258E-003 +1.7011467787E+001  +1.7181716031E-001 -1.5446506647E+002 
1135306.633 +1.1994534797E-001 +1.7147476075E+002  +6.4006212800E-004 -9.5624149332E+001  +2.5331629701E-003 +6.2613230394E+001  +1.9945853635E-001 -1.5071029426E+002 
1260451.815 +1.2339854370E-001 +1.7113714642E+002  +4.5696135243E-004 +1.3600248288E+002  +5.6590454190E-004 -1.4336326314E+002  +2.3717620356E-001 -1.5883605539E+002 
1385596.996 +1.2468864527E-001 +1.7224902082E+002  +1.1107499311E-003 -7.0922916247E+001  +7.6455284062E-004 -4.1896028344E+001  +2.5006496109E-001 -1.5788418651E+002 
1510742.178 +1.2873074697E-001 +1.7106360183E+002  +1.0093847580E-003 +7.1791850616E+001  +4.9544817017E-004 -1.3874876960E+001  +2.6896040615E-001 -1.5866560092E+002 
1635887.359 +1.2765483034E-001 +1.7059601084E+002  +6.7382165200E-004 +6.2817674316E+001  +1.4529664132E-003 -7.1313078245E+001  +2.3975447081E-001 -1.5845826643E+002 
1761032.541 +1.2914959639E-001 +1.6771003369E+002  +5.6817731855E-004 +9.6122136563E+001  +1.6779808702E-003 -2.4762586763E+001  +2.1886488432E-001 -1.6172315168E+002 
1886177.722 +1.3099584061E-001 +1.6910346728E+002  +1.4631067325E-003 +6.8922343208E+000  +2.3154051477E-003 +7.4826594657E+001  +1.3396445803E-001 +1.6848193293E+002 
2011322.904 +1.3231888276E-001 +1.6629706778E+002  +1.0182957083E-003 -1.3540908309E+002  +2.7922081572E-003 +1.3409692076E+002  +1.6817231985E-001 +1.7374692081E+002 
2136468.085 +1.2892117021E-001 +1.6827872136E+002  +2.9237098371E-003 +1.7109545047E+002  +2.2368759003E-003 +1.0974016116E+002  +1.4612916951E-001 -1.7088684822E+002 
2261613.267 +1.3611064035E-001 +1.6356092377E+002  +2.4550760705E-003 +1.6958420079E+002  +2.6111296875E-003 -1.4856740775E+001  +2.0091204912E-001 +1.7259209108E+002 
2386758.448 +1.3090124813E-001 +1.5888741373E+002  +7.7678217539E-003 -1.7299620922E+002  +7.4609460022E-003 -1.6852150904E+002  +2.5146276159E-001 +1.5667633811E+002 
2511903.630 +1.2796252817E-001 +1.6155064959E+002  +7.6218492251E-003 -4.4949735283E+001  +1.8240850664E-003 -6.3124292147E+001  +2.6302955981E-001 +1.5638955890E+002 
2637048.811 +1.3156612342E-001 +1.6119414319E+002  +1.3994603380E-003 -9.0987874689E+001  +7.3760367276E-003 +1.2434089516E+002  +2.4607029478E-001 +1.4260596879E+002 
2762193.992 +1.1569729883E-001 +1.5510476237E+002  +1.6879616175E-002 +1.3832504209E+002  +6.1210472505E-003 +9.4364045804E+001  +8.9495857712E-001 +1.6749376106E+002 
2887339.174 +1.0457059282E-001 -1.7442310404E+002  +1.3400302544E-002 +7.6116280413E+001  +2.7420218187E-003 -7.0768005888E+001  +4.3276599979E-001 -1.2514267138E+002 
3012484.355 +1.0346398143E-001 +1.6922277214E+002  +5.9068465118E-003 +1.3162314510E+001  +1.9850652403E-003 -1.6137964283E+002  +3.7526651289E-001 -1.0922628543E+002 
3137629.537 +1.1451223404E-001 +1.6070399805E+002  +1.3127432582E-002 -1.2262465785E+002  +1.8193624396E-003 -4.2569018751E+001  +5.4460754077E-001 -4.1020012638E+001 
3262774.718 +1.3508493254E-001 +1.6905956634E+002  +1.8723749670E-003 +1.0310455610E+002  +6.0315025836E-003 +1.0406525573E+002  +7.1821899064E-001 -1.0199533259E+002 
3387919.900 +1.4524837789E-001 +1.5138856574E+002  +3.2136089098E-002 +6.3256762883E+001  +4.8580879683E-002 -9.0761773268E+001  +2.5597654741E+000 -8.8228660127E+000 
3513065.081 +1.8658379067E-001 +1.4215018871E+002  +1.0209420867E-002 +8.6985379386E+001  +9.8072833887E-003 +1.8497583849E+001  +2.6613543144E-001 -5.2166669745E+001 
3638210.263 +1.4947805068E-001 +1.4175131991E+002  +1.8070025075E-002 +1.7382379219E+002  +6.8970669770E-003 +1.3483124217E+002  +3.9424282393E-001 +1.3338058329E+002 
3763355.444 +1.6792747048E-001 +1.3890079890E+002  +8.5343801430E-003 +4.8864929036E+001  +1.4587660569E-002 +2.7363436758E+001  +6.8573592997E-001 +1.4656039088E+002 
3888500.626 +1.6405811650E-001 +1.4855325362E+002  +7.6911299090E-003 -1.2909182147E+002  +7.2413370776E-003 -1.1613245239E+002  +3.6146987704E-001 +1.2529876238E+002 
4013645.807 +1.9830729097E-001 +1.4302826889E+002  +7.4065487736E-003 -2.0908777655E+001  +1.0030071251E-002 +1.4262632298E+002  +2.9788912773E-001 +9.6987549804E+001 
4138790.989 +1.6337753869E-001 +1.3562333160E+002  +2.3508987796E-003 -7.0049072157E+001  +1.5378043401E-003 +8.1666620077E+001  +3.9456633263E-001 +1.4311471061E+002 
4263936.170 +2.1221693937E-001 +1.3509066866E+002  +4.4680833443E-001 +1.1811551529E+002  +3.9555225705E-001 -1.4989272452E+002  +3.7798750547E+001 -1.0573402112E+002 
4389081.352 +2.1032958920E-001 +1.4240062332E+002  +1.6555174302E-003 -1.4188326839E+002  +1.0881316768E-002 -1.7461622348E+002  +1.0764458025E+000 +1.2320223529E+002 
4514226.533 +2.5198954129E-001 +1.3219462733E+002  +1.2816886593E-002 +1.0546700818E+002  +1.3193758678E-002 +1.3171152715E+001  +9.2500652668E-001 +1.0350640595E+002 
4639371.715 +3.8547226968E-001 +1.2767504521E+002  +4.6246994039E-002 +1.4477643671E+002  +2.6545741266E-002 +6.5241625377E+001  +2.1185529241E+000 +5.5195076497E+001 
4764516.896 +3.0684319103E-001 +1.2023188227E+002  +5.1063117510E-002 +7.5057190958E+000  +1.2702439142E-001 +8.7866963432E+001  +5.9037729211E+000 +6.3761549966E+001 
4889662.078 +3.7391041049E-001 +1.3162880293E+002  +4.2691784051E-002 +3.4380067940E+001  +1.3759246065E-002 -5.3445026235E+001  +2.5000273421E+000 -1.6811982142E+002 
5014807.259 +3.9754666294E-001 +1.2857461736E+002  +2.3661701930E-001 -1.8964371620E+000  +1.9676465323E-001 +1.2700229464E+002  +1.4075943318E+001 +1.4898431827E+002 
5139952.441 +3.3406991977E-001 +1.2423280069E+002  +1.2529214905E-001 -1.2560534376E+002  +1.6580097603E-001 +1.0300014108E+002  +7.9441586474E+000 +7.0843817633E+001 
5265097.622 +3.9577661179E-001 +1.2971053417E+002  +2.8159708091E-002 -1.2032235826E+001  +2.3048106400E-002 -1.6944628165E+002  +3.3441314428E+000 +8.9417892429E+001 
5390242.804 +4.1001059813E-001 +1.3595654824E+002  +1.5411046389E-002 +1.6665618395E+002  +3.4412392122E-002 +2.8417399621E+001  +2.4595508314E+000 +6.5036805793E+001 
5515387.985 +4.2558615274E-001 +1.3384965485E+002  +1.6910279452E-002 -1.0780919044E+002  +1.2982097524E-002 +1.5608542668E+002  +1.2962349749E+000 +8.4936275997E+001 
5640533.166 +4.2529995060E-001 +1.2925528415E+002  +3.4836556232E-002 +1.6652598581E+002  +2.8702778643E-002 +9.4990367903E+001  +2.8438765434E+000 +8.6349903268E+001 
5765678.348 +6.5231367601E-001 +1.1855544689E+002  +7.1661130352E-003 -2.9675917691E+001  +5.5393956522E-002 +8.0938842705E+001  +3.4874458147E+000 +7.8494727982E+001 
5890823.529 +6.8798503287E-001 +1.2327785411E+002  +5.3337479539E-002 -1.3682573536E+002  +7.1676242590E-002 -1.0084801088E+002  +4.7170088652E+000 +6.3279640067E+001 
6015968.711 +5.9478985686E-001 +1.2015481729E+002  +1.0705091647E-002 -1.2661828998E+002  +3.2736902717E-003 -8.5373581877E+001  +2.3546256840E+000 +4.3592308942E+001 
6141113.892 +8.5521529566E-001 +1.0989984657E+002  +2.6327920377E-002 +2.7986022999E+001  +2.4862125295E-002 +1.7617428099E+002  +2.5700129238E+000 +3.5244709885E+001 
6266259.074 +8.7052106123E-001 +9.7406298510E+001  +3.3701531993E-002 +9.7566879537E+001  +7.7939539464E-003 -5.5626188498E+001  +1.3465291207E+000 +1.9952526676E+001 
6391404.255 +1.0753569350E+000 +8.3850244582E+001  +3.3076549633E-002 -1.2396565904E+001  +1.7509825331E-002 +9.3511963845E+001  +1.2296101358E+000 +3.2499363568E+001 
6516549.437 +9.6619562596E-001 +8.1201434356E+001  +1.9582611727E-002 +1.3699769715E+002  +1.3590546917E-002 +4.6919648806E+001  +1.4030378407E+000 -4.9467561671E+000 
6641694.618 +1.9597215391E+000 +7.3601943750E+001  +1.4114590619E-002 +9.7505978770E+001  +2.4607446569E-002 -1.4688043181E+002  +1.2826630747E+000 +1.3574711428E+000 
6766839.800 +2.1607299112E+000 +4.4952358847E+001  +3.5541369363E-002 +1.3452735862E+002  +1.1284572643E-002 -5.4407008316E+001  +1.4126697292E+000 -9.6888868205E+000 
6891984.981 +2.0572216467E+000 +3.2774898395E+001  +1.3487461201E-002 -9.0197676463E+001  +2.3901264548E-002 -1.0101040076E+002  +1.4140964326E+000 -1.0330295386E+001 
7017130.163 +1.6622876352E+000 +4.5272441841E+000  +1.1430736858E-002 +3.7114168903E+001  +2.6956368621E-002 +5.2113822074E+000  +1.3506105748E+000 -1.0687057998E+001 
7142275.344 +1.9448556078E+000 +7.7421256691E+000  +1.2410647820E-002 +2.0476462323E+001  +1.2694106863E-002 +1.2775867700E+002  +1.3161295633E+000 -1.1815533532E+001 
7267420.526 +1.7254146793E+000 -1.4248599867E+000  +1.6899514098E-002 +5.7589088227E+001  +1.0763966935E-002 +1.0643232389E+002  +1.2761943687E+000 -1.0886643941E+001 
7392565.707 +1.2888427067E+000 -8.0187328813E+000  +7.9631415903E-003 +1.3724256240E+002  +1.0957098780E-002 +2.2706037405E+001  +1.3122106355E+000 -1.3375672586E+001 
7517710.889 +1.2128997427E+000 +9.0724035404E-001  +1.2981320357E-002 +2.5857553846E+001  +3.0493078539E-003 +1.6662344786E+002  +1.2389224578E+000 -9.0826808232E+000 
7642856.070 +1.0524375884E+000 +2.6978843748E+000  +5.3624481361E-003 +1.2060620228E+001  +5.9526531123E-003 +2.2692997434E+001  +1.0659714292E+000 -7.5374736580E+000 
7768001.252 +8.9232957004E-001 -2.2414041996E+000  +9.6015537388E-003 +1.0840065979E+002  +6.6903584087E-003 -1.2694780513E+002  +1.0060720379E+000 -6.1989155115E+000 
7893146.433 +8.6847341090E-001 -2.3254077622E-001  +6.9105684282E-003 +1.0684127752E+002  +5.2587051805E-004 +7.1563571615E+001  +9.6963285096E-001 -2.3012643504E+000 
8018291.615 +8.2890192558E-001 +7.7122597759E+000  +6.1637729174E-003 +1.2235732400E+002  +8.2025181391E-003 -1.1621849350E+000  +8.3707312970E-001 +5.0648523617E-001 
8143436.796 +7.9089969733E-001 +9.0714707302E+000  +6.2163403718E-003 -2.8099844744E+000  +4.9815483223E-003 +1.4115893795E+002  +8.1145560292E-001 -3.9406139932E+000 
8268581.977 +8.0535466933E-001 +9.6595501555E+000  +6.8776956292E-003 +5.5751655866E+001  +2.8844314714E-003 +9.7370197337E+001  +7.8360049066E-001 -3.4987551641E+000 
8393727.159 +7.5213723920E-001 -4.4402365097E-001  +4.6928108906E-003 +4.0005165972E-001  +7.5845663388E-003 +8.0072480215E+001  +7.5115247070E-001 -2.8339417830E+000 
8518872.340 +6.6276069720E-001 +6.6769022862E+000  +3.7518739395E-003 +8.7857684687E+001  +3.9673614047E-003 +6.9079261231E+001  +7.1155966043E-001 -3.1069948491E+000 
8644017.522 +7.2455088165E-001 +1.0474264721E+001  +1.4933762724E-003 +2.8723837590E+001  +2.5126454935E-003 +1.1769263388E+002  +7.0411092612E-001 -2.6457251846E+000 
8769162.703 +6.8474362110E-001 +6.3091532770E+000  +6.5120277517E-003 +7.7787166318E+001  +3.1907918391E-003 +1.1087883471E+002  +6.7567058329E-001 +1.1901066731E+000 
8894307.885 +6.0441400740E-001 +8.5543003532E+000  +5.5311468196E-003 +5.3059767441E+001  +2.8638576973E-003 +7.6609496842E+001  +6.4602959823E-001 +2.5953001974E-002 
9019453.066 +5.8928098222E-001 +5.8519250840E+000  +6.6970853933E-003 +5.0372307854E+001  +1.7043817106E-003 +9.2970473619E+001  +6.6530680727E-001 +1.4610754845E+000 
9144598.248 +5.2885168964E-001 +1.3334562539E-001  +5.6887468897E-003 +8.5620840621E+001  +5.6809931385E-003 +4.6425825246E+001  +6.1593669634E-001 -8.6403651899E-001 
9269743.429 +5.8881117898E-001 +4.5391476934E+000  +2.4901780279E-003 +4.3777049810E+001  +5.1552097863E-003 +5.4875304594E+001  +6.1317409507E-001 -1.0180279911E-001 
9394888.611 +5.6287966177E-001 +7.8868604500E-001  +5.6757946717E-003 +7.1175228096E+001  +4.9862727674E-003 +4.9394240545E+001  +5.9675935975E-001 +6.0257199053E-001 
9520033.792 +5.4484478360E-001 +3.5294310638E+000  +2.2912095969E-003 +9.5793949036E+001  +6.0679118999E-003 +1.1131912443E+002  +5.6962926195E-001 -6.0390504077E+000 
9645178.974 +5.1378526631E-001 +3.7527990803E+000  +5.1484221411E-003 +1.5458276937E+002  +1.0492005731E-003 +1.5546158842E+002  +6.0269376913E-001 -5.4121038232E+000 
9770324.155 +5.1754481581E-001 -1.9040579191E+000  +5.5850173313E-003 +7.9417556319E+001  +2.4619485983E-003 +9.3085888438E+001  +6.0154298562E-001 -5.4499007477E+000 
9895469.337 +5.8644133317E-001 -3.0273713853E+000  +5.1956112654E-003 +6.8345772167E+001  +4.0389545267E-003 +9.7806975431E+001  +5.6325020936E-001 -4.7453271301E+000 
10020614.518 +5.4166679815E-001 +2.9917425444E+000  +4.0476080207E-003 +4.9969131827E+001  +4.0813960889E-003 +7.6771987450E+001  +5.8250577362E-001 -7.8641237819E+000 
10145759.700 +5.4343791493E-001 +4.5878468872E+000  +2.9511252783E-003 +9.6207533796E+001  +2.6723132224E-003 +9.8148480518E+001  +5.3667781763E-001 -1.6336403955E+000 
10270904.881 +5.6420181954E-001 +3.3022986728E+000  +4.7886867336E-003 +5.3575312995E+001  +4.3905211130E-003 +1.1729577741E+002  +5.4220742443E-001 -2.0078521927E+000 
10396050.063 +5.4040143092E-001 +6.6792602217E+000  +3.8562773719E-003 +3.1959894163E+001  +5.2516266821E-003 +5.0578265114E+001  +5.9093291039E-001 -1.9065087807E+000 
10521195.244 +5.3552841155E-001 +3.7242638198E+000  +3.9484669065E-003 +8.8095653744E+001  +5.8601907594E-003 +8.8797870239E+001  +5.9592981544E-001 -1.2762491779E+000 
10646340.426 +5.5913289256E-001 +8.9960717136E+000  +5.0149553368E-003 +2.5685963457E+001  +5.6066343386E-003 +1.0220962106E+002  +6.2210708204E-001 +2.6411467947E-001 
10771485.607 +5.4683693844E-001 +6.3434912740E+000  +6.2885583020E-003 +8.5901366162E+001  +4.0989565983E-003 +1.0277885556E+002  +5.9428029376E-001 -8.9222247004E-001 
10896630.788 +5.6269206812E-001 +3.0247863294E+000  +4.0644879034E-003 +6.5462616764E+001  +5.7936100447E-003 +8.9060429596E+001  +6.1504131928E-001 +1.5578757484E+000 
11021775.970 +6.0040944011E-001 +7.5908450159E+000  +4.2816397273E-003 +5.1272645635E+001  +3.5764460060E-003 +8.6579362622E+001  +6.1021188361E-001 +1.3043097470E+000 
11146921.151 +5.9182680870E-001 +9.7648565444E+000  +5.5310295758E-003 +6.6824052629E+001  +5.0672054175E-003 +7.9264136119E+001  +6.0852936649E-001 -6.3480830737E-001 
11272066.333 +5.9776951170E-001 +6.3546996579E+000  +4.1723223795E-003 +5.1974366066E+001  +5.3248890956E-003 +8.4623647022E+001  +6.4528061993E-001 -9.3105663826E-001 
11397211.514 +5.8479334257E-001 +7.6719042745E+000  +3.9533327021E-003 +2.8524118212E+001  +3.6485141761E-003 +7.9590425534E+001  +6.2431270835E-001 +2.8083154028E+000 
11522356.696 +6.0884537937E-001 +6.1891936964E+000  +5.8199037384E-003 +7.0553769692E+001  +5.2337285737E-003 +7.7103908794E+001  +6.3056747466E-001 +5.1942235091E-001 
11647501.877 +6.1616117185E-001 +4.3889318294E+000  +5.9276576568E-003 +6.3564624709E+001  +5.1472541661E-003 +8.3568181338E+001  +6.5119264163E-001 +2.1073112150E+000 
11772647.059 +6.3953700590E-001 +4.8766128356E+000  +5.1295076744E-003 +6.0738927913E+001  +4.2839546486E-003 +8.3956335089E+001  +6.6684228651E-001 -6.0178088987E-001 
11897792.240 +6.4535889103E-001 +3.9053216220E+000  +5.2827396905E-003 +6.4890284458E+001  +4.9560775474E-003 +1.0311320483E+002  +6.8191416382E-001 +2.1056815526E+000 
12022937.422 +6.8360873453E-001 +4.6171101652E+000  +4.2899118026E-003 +7.4294793128E+001  +7.1437346113E-003 +7.8327006703E+001  +7.0054763714E-001 +1.2100480761E+000 
12148082.603 +6.9136738501E-001 +2.9520121996E+000  +7.2527801844E-003 +7.1854135956E+001  +4.5910044712E-003 +6.8439471184E+001  +6.9612242181E-001 -7.4573967625E-001 
12273227.785 +6.9248643816E-001 +2.4897803131E+000  +5.0034885666E-003 +6.8400571462E+001  +5.8982737254E-003 +6.0005461696E+001  +7.2246576563E-001 +9.8199456290E-001 
12398372.966 +7.0692788797E-001 +4.2612164622E+000  +5.2344054800E-003 +5.7871013024E+001  +6.9369628426E-003 +7.8964757717E+001  +7.2312432890E-001 -5.7404339878E-003 
12523518.148 +7.3627642783E-001 +2.1895496557E+000  +5.8835709663E-003 +7.5631932431E+001  +7.7114686413E-003 +8.2413669480E+001  +7.2991840238E-001 -7.5943235057E-001 
12648663.329 +7.4444587466E-001 +1.9259164547E+000  +5.6575222355E-003 +5.8971867491E+001  +7.1958713672E-003 +8.6561572587E+001  +7.4220322605E-001 -1.7669534534E+000 
12773808.511 +7.3380056950E-001 +2.7926407453E+000  +7.0920573512E-003 +6.7838838395E+001  +6.1198896382E-003 +7.8260260707E+001  +7.7365887932E-001 -1.1956574354E+000 
12898953.692 +7.7364872446E-001 +1.3713765511E+000  +6.5880997539E-003 +6.5255696835E+001  +7.4233146514E-003 +8.6742734627E+001  +7.7613521643E-001 +1.5422248554E-001 
13024098.874 +7.5715039814E-001 +4.9693459353E-001  +4.0743784499E-003 +9.0545185588E+001  +5.9865470444E-003 +8.8686541096E+001  +7.9227681966E-001 -1.0078403950E+000 
13149244.055 +8.1235002822E-001 +5.1702482500E-001  +6.1298227757E-003 +7.5531298636E+001  +6.3142567640E-003 +9.4656320889E+001  +8.0725138677E-001 -2.3765477334E+000 
13274389.237 +8.2355844514E-001 -1.3184307296E+000  +5.4613780006E-003 +7.4052553046E+001  +6.6798731362E-003 +8.0889388864E+001  +8.1320067369E-001 -1.1384990316E+000 
13399534.418 +8.3296649766E-001 -2.2405546862E-001  +5.4104843790E-003 +8.1917575925E+001  +6.1038815664E-003 +7.1870578994E+001  +8.5041670066E-001 -2.5569886510E+000 
13524679.599 +8.5349466500E-001 -1.6082166000E+000  +4.8530702971E-003 +7.2413524384E+001  +6.5964880328E-003 +7.9411684020E+001  +8.7110818562E-001 -2.2623218302E+000 
13649824.781 +8.5100855069E-001 -1.2915464213E+000  +7.0050340539E-003 +7.8512797629E+001  +8.5290826657E-003 +8.8417528630E+001  +8.8298361313E-001 -2.4689640492E+000 
13774969.962 +8.7176156056E-001 -1.8657822939E+000  +6.4388943109E-003 +7.0938473782E+001  +5.9298733693E-003 +7.2185285648E+001  +8.9291366401E-001 -3.2848710532E+000 
13900115.144 +9.3375104485E-001 -4.0367951836E+000  +5.8258037431E-003 +8.0788079425E+001  +6.0099654833E-003 +7.8093993641E+001  +8.8995106195E-001 -2.6781636732E+000 
14025260.325 +9.1891402235E-001 -3.0408955717E+000  +8.7233933570E-003 +7.7784686170E+001  +7.3726327821E-003 +8.2305650341E+001  +9.4801762416E-001 -3.1308254652E+000 
14150405.507 +9.3789776963E-001 -5.1695862866E+000  +7.8783278545E-003 +8.8690843666E+001  +7.5999660709E-003 +7.7805547678E+001  +9.6107356408E-001 -4.1656558803E+000 
14275550.688 +9.6724631224E-001 -4.5251180724E+000  +7.2761117075E-003 +8.0422092910E+001  +7.9714569312E-003 +7.1956014946E+001  +9.6842510798E-001 -5.0003099386E+000 
14400695.870 +9.8382411121E-001 -4.9965718133E+000  +7.1923210979E-003 +8.3686305571E+001  +7.6314033063E-003 +9.0191787035E+001  +9.9459815993E-001 -3.8159844505E+000 
