!  2-Port S-parameters saved by WinCal
! VAR MeasName=S-Parameters (CALIBRATED_DATA) read from VNA (P5004A)
! VAR MeasDate=27/08/2024 17:15:17
! VAR NAME=S2_r3c9_SET2_9k-100M_1
! VAR FILENAME=S2_r3c9_SET2_9k-100M_1.S2P
! VAR DATE=27/08/2024 17:15:17
! VAR PHYS_PORTS=1,2
! VAR ObjTypeName=DATASET
! VAR IndexType=Frequency
!
# Hz S MA R 50
9000.000 +6.8660741362E-002 -1.6506324684E+002  +1.6819279007E-002 -8.2941562860E+001  +1.3506474113E-002 +6.3240031310E+001  +3.8358487183E-001 -1.3219126202E+002 
134145.181 +1.0978058699E-001 +1.6948760166E+002  +1.3639814430E-004 -2.6824102028E+001  +2.1680966852E-004 -7.9351047771E+001  +2.3996608279E-001 -1.6969350989E+002 
259290.363 +1.1299208141E-001 +1.6965845036E+002  +5.9250023722E-004 +2.6004922701E+001  +5.8066354056E-004 -8.8869236929E+001  +2.4520560408E-001 -1.6857387991E+002 
384435.544 +1.1333604874E-001 +1.6941839296E+002  +4.2843195566E-004 -1.5920060200E+002  +1.8879925402E-004 +1.0542183712E+002  +2.3534013024E-001 -1.6835256675E+002 
509580.726 +1.1376619934E-001 +1.7162187899E+002  +1.6154725533E-003 -6.1886764085E+001  +5.7266146136E-004 +1.7242367011E+002  +2.5620190393E-001 -1.6745499778E+002 
634725.907 +1.1484331215E-001 +1.7120066566E+002  +1.3455907330E-004 -2.0886154521E+001  +7.9958684219E-004 +1.0926037756E+001  +2.4746414704E-001 -1.6445390850E+002 
759871.089 +1.1819553702E-001 +1.7086758742E+002  +5.8364320974E-004 -8.9794497251E+000  +6.2705837772E-004 +1.2021440910E+002  +2.4099881592E-001 -1.6715152149E+002 
885016.270 +1.1921241245E-001 +1.6987855082E+002  +5.3986360654E-004 -4.9721808716E+001  +5.6961961325E-004 +1.7101919571E+002  +2.3989577454E-001 -1.6720803347E+002 
1010161.452 +1.1829147884E-001 +1.7162805139E+002  +8.6017437620E-004 -1.6937115766E+002  +7.2930750763E-004 -5.7323576599E+001  +1.9851248271E-001 -1.6529708621E+002 
1135306.633 +1.1761953127E-001 +1.7053094201E+002  +1.1854583580E-003 -1.6114145972E+001  +1.7557530654E-003 +1.1652961927E+002  +1.4804523931E-001 -1.4787919623E+002 
1260451.815 +1.1786820403E-001 +1.7325155564E+002  +1.1771533394E-003 +1.2981608244E+002  +3.1036999067E-003 -1.6089803434E+002  +2.3176269109E-001 -1.6003680082E+002 
1385596.996 +1.2786044410E-001 +1.7242825039E+002  +1.1094109532E-003 -5.8850180080E+001  +1.2598005771E-003 -1.2077997916E+002  +2.5160658164E-001 -1.5387746188E+002 
1510742.178 +1.2741149797E-001 +1.7245757665E+002  +8.6411187607E-004 +6.9421777030E+001  +9.8759000993E-004 +4.4813707428E+001  +2.7232588324E-001 -1.5896079845E+002 
1635887.359 +1.2619833574E-001 +1.7063114994E+002  +4.3684104411E-004 +2.8445543732E+001  +6.8247183970E-004 +3.1254257256E+001  +2.4157272414E-001 -1.5849134606E+002 
1761032.541 +1.2715615286E-001 +1.6718010893E+002  +8.6239328096E-004 +1.6684403703E+002  +1.8151862277E-003 +1.6134899429E+001  +1.8989212490E-001 -1.6492409255E+002 
1886177.722 +1.3049294500E-001 +1.6743659030E+002  +1.2878451888E-003 -8.1314261847E+000  +2.6365958040E-003 -4.6542879228E+001  +1.7691752249E-001 -1.5795770409E+002 
2011322.904 +1.2818539439E-001 +1.6697874769E+002  +1.5610026153E-003 -8.0448472228E+000  +8.6560678707E-004 -1.7658484308E+002  +2.0580975029E-001 -1.6902155582E+002 
2136468.085 +1.3128691372E-001 +1.6561548635E+002  +4.9507652355E-003 -3.2342994446E+001  +2.7108837420E-003 +1.5853432069E+002  +2.6043857033E-001 +1.5634682852E+002 
2261613.267 +1.3277735912E-001 +1.6701400723E+002  +2.5568630273E-003 +4.2221193794E+001  +4.1691316981E-003 -4.3978802525E+001  +1.8586071431E-001 -1.7669879991E+002 
2386758.448 +1.3659726892E-001 +1.6519649468E+002  +4.9883503237E-003 +8.9072435847E+001  +2.0749663490E-003 -1.2603908187E+002  +1.9881569890E-001 -1.7179202074E+002 
2511903.630 +1.3977375338E-001 +1.6617680120E+002  +8.2708908093E-004 +4.0634557775E+001  +4.3630026288E-003 -1.4604357805E+002  +1.4099951605E-001 +1.3561125849E+002 
2637048.811 +1.2405015513E-001 +1.6022992227E+002  +2.6846466010E-002 +6.0318833770E+001  +1.1829123193E-002 -5.9063157898E+001  +8.0616333012E-001 +5.3684574420E+001 
2762193.992 +1.2114356801E-001 +1.6736057641E+002  +3.1617800692E-002 +1.0733223763E+001  +7.4520453352E-003 +4.8822269375E+000  +3.5602021335E-001 +3.2047034154E+001 
2887339.174 +1.0974889633E-001 +1.5911713450E+002  +8.7492914261E-003 -6.0300018382E+001  +1.6361676745E-002 -1.3878725159E+002  +4.2043930144E-001 -9.1113058119E+001 
3012484.355 +1.0165081330E-001 +1.6505245620E+002  +4.5684688213E-002 -1.0270851603E+001  +1.9419317780E-002 -2.1100728742E+001  +6.6090765188E-001 +2.5767747233E+001 
3137629.537 +1.4087120935E-001 +1.6801339740E+002  +2.5265087701E-003 +1.0957450324E+002  +4.9530486325E-003 -1.2348316476E+002  +1.9703499151E-001 -1.3003334490E+002 
3262774.718 +1.1440636552E-001 +1.4951266177E+002  +3.9203525180E-002 +2.2364663435E+001  +3.5211430152E-002 -6.0596416423E+001  +5.0744936752E-001 -6.8951046769E+000 
3387919.900 +1.1630035698E-001 +1.5579490993E+002  +8.0667941015E-003 +1.2829438093E+002  +2.3316765963E-002 -1.8511552125E+001  +2.6773719264E-001 +7.9816060398E+001 
3513065.081 +1.0012033964E-001 +1.5412285535E+002  +1.6299584339E-001 +1.5924419653E+002  +1.6398353603E-001 +3.6995442147E+001  +7.1866103848E+000 +1.6423954623E+002 
3638210.263 +1.7085656178E-001 +1.4091160776E+002  +1.6280074989E-002 +9.4417982298E+001  +5.0502430865E-003 +6.9343736095E+001  +5.2815441612E-001 +1.5780781549E+002 
3763355.444 +1.8049927404E-001 +1.4711558731E+002  +5.1223072872E-002 +9.3256626756E+001  +2.4913289105E-002 +3.2801102731E+001  +1.2509575229E+000 +8.7292030131E+001 
3888500.626 +1.7233745709E-001 +1.5074049121E+002  +4.8794008031E-003 +7.4383704312E+001  +1.6109903482E-002 -1.9937863652E+001  +2.1387343974E-001 +6.6750882144E+001 
4013645.807 +1.9371049148E-001 +1.5546183659E+002  +1.9563167996E-003 +1.6974836907E+002  +1.2000655194E-002 +1.5240373918E+001  +4.8647786627E-001 +1.3699716053E+002 
4138790.989 +2.0219830417E-001 +1.5110778138E+002  +2.7712686302E-002 +1.5445368647E+002  +1.6057457172E-002 -9.5248875955E+000  +1.4531601589E+000 +1.1469286150E+002 
4263936.170 +1.7510283982E-001 +1.4213983406E+002  +1.5018069291E-002 +7.8678709324E+001  +1.6873384946E-002 +3.7550633091E+001  +5.4706545277E-001 +1.3972611600E+002 
4389081.352 +2.2146037169E-001 +1.3884120483E+002  +2.3926540207E-002 +1.4102123903E+002  +5.2462753605E-003 +9.5241191367E+001  +7.6639204384E-001 +1.3817107095E+002 
4514226.533 +2.0397609596E-001 +1.4218783118E+002  +1.0170736811E-001 +3.9298323291E+001  +1.2720561304E-001 +5.7420641645E+001  +4.1804818301E+000 +6.9835751351E+001 
4639371.715 +2.7386443805E-001 +1.3589882056E+002  +6.7059995618E-002 +1.2509767816E+002  +5.9083046999E-002 +3.3046444223E+001  +2.5116638734E+000 +7.2084818737E+001 
4764516.896 +3.5203891473E-001 +1.2425212147E+002  +3.8652156248E-002 -6.0115856671E+000  +5.5825855471E-002 -6.1923965868E+001  +2.4737090183E+000 -8.2879756367E+001 
4889662.078 +4.1972977275E-001 +1.4338640997E+002  +6.6702882505E-002 -1.0965006774E+002  +6.4467304675E-002 +1.6431225928E+002  +4.0657586345E+000 +1.7991743982E+002 
5014807.259 +3.8425918128E-001 +1.2814261612E+002  +1.6275696918E-001 -9.0367199950E+001  +1.1695377952E-001 -7.2117812142E+001  +5.2889293289E+000 -1.2233170532E+002 
5139952.441 +3.4381688098E-001 +1.2532402955E+002  +5.3542088670E-002 +2.4173203775E+001  +6.2473117164E-002 +1.7898241687E+000  +1.4431521115E+000 -2.9099933490E+001 
5265097.622 +3.5102076836E-001 +1.3603242684E+002  +3.7495837226E-002 +1.5441517165E+002  +2.2848924306E-002 +1.0605726077E+002  +2.9855149456E+000 +1.2288146315E+002 
5390242.804 +4.2917187578E-001 +1.2442397703E+002  +4.9807170195E-002 +9.0833723073E+001  +4.2756810534E-002 +6.0239868783E+001  +1.5676983049E+000 +7.8683587637E+001 
5515387.985 +4.8960488857E-001 +1.3765027685E+002  +2.4404959901E-002 +1.4260814314E+002  +2.5738284469E-002 +5.9420902937E+001  +1.7965213559E+000 +8.5166508001E+001 
5640533.166 +4.4598879804E-001 +1.2381248374E+002  +7.6612317082E-002 +9.8993074881E+001  +1.1114759121E-001 +1.0345839937E+002  +3.4131595929E+000 +9.6569096419E+001 
5765678.348 +4.5930169546E-001 +1.2170742712E+002  +5.1323644428E-002 +1.0399768880E+002  +2.6288876009E-002 +5.5854384467E+001  +1.2603391186E+000 +7.1791451586E+001 
5890823.529 +5.5751378605E-001 +1.2358548729E+002  +5.5683412965E-002 +7.1911785597E+001  +7.0541964067E-002 +2.5408511939E+001  +2.3778013247E+000 +4.7506150466E+001 
6015968.711 +5.3527618537E-001 +1.0781195219E+002  +8.9261676885E-002 +4.1670770354E+001  +9.2713273153E-002 +4.4292392295E+001  +2.4544937499E+000 +4.3432560275E+001 
6141113.892 +7.0912693093E-001 +1.1376878425E+002  +6.3869496794E-002 +8.0075164224E+001  +5.4566208846E-002 +5.6129149782E+001  +1.5262930652E+000 +3.3869666716E+001 
6266259.074 +9.0816201376E-001 +1.1043054820E+002  +6.0042266971E-002 +8.1232134952E+001  +6.8942305747E-002 +5.8123115068E+001  +1.9219617987E+000 +4.1467669002E+001 
6391404.255 +1.1148686194E+000 +1.0408955993E+002  +5.0599723082E-002 +7.6046636378E+001  +5.1695185279E-002 +7.9010882001E+001  +1.3414327661E+000 +2.1224120794E+001 
6516549.437 +1.2491379675E+000 +8.5383521003E+001  +8.5680395662E-002 +5.7012669163E+001  +6.2269032401E-002 +3.9227817131E+001  +1.4251131302E+000 +2.2519114976E+001 
6641694.618 +1.6085216682E+000 +6.6898111113E+001  +6.2326316082E-002 +5.6502361820E+001  +5.7385914632E-002 +1.5295516365E+001  +1.3811513708E+000 -1.5634979896E+000 
6766839.800 +1.2638654484E+000 +6.0555364326E+001  +6.2114429216E-002 +1.9527505040E+001  +5.3753483384E-002 +1.4786986603E+001  +1.5226269136E+000 -8.5866002469E-001 
6891984.981 +2.0349690809E+000 +3.8933066448E+001  +4.6598204411E-002 +3.6982950134E+001  +6.5229856851E-002 +3.4160588468E+000  +1.1161229720E+000 -1.2751447055E+001 
7017130.163 +1.6370871873E+000 +2.6876677073E+001  +4.1651428884E-002 +1.2231429555E+001  +4.4624790931E-002 +2.8248548257E+000  +1.2547823246E+000 -1.8221911699E+001 
7142275.344 +1.9972104944E+000 +1.6244237224E+001  +4.5986593371E-002 +1.4366631456E+001  +3.5451421329E-002 -2.0196727249E+001  +1.4422724522E+000 -1.7025855038E+001 
7267420.526 +1.4624927011E+000 +1.1985131209E+000  +3.7144371789E-002 +1.6073674725E+001  +3.8097674663E-002 +7.2124859021E+000  +1.3432484205E+000 -1.5097512820E+001 
7392565.707 +1.3702358385E+000 +2.2125602070E+000  +3.3985153554E-002 -8.3905201019E-001  +3.0204236640E-002 +3.7586797232E+000  +1.2586684143E+000 -5.6578444092E+000 
7517710.889 +1.1354497533E+000 +5.6336566394E+000  +2.6645884027E-002 +8.9252604336E+000  +2.9857491719E-002 +2.0376340485E+001  +1.1738694858E+000 -1.7907131729E+000 
7642856.070 +1.0450611480E+000 -7.9895681016E-001  +2.3628733883E-002 +1.7747466757E+001  +2.1476518806E-002 +2.2694916358E+001  +1.0153407085E+000 -8.0038397621E+000 
7768001.252 +9.3679622210E-001 +5.2847585838E+000  +2.7743827322E-002 +3.6968582112E+000  +2.1904447776E-002 +7.9817646788E+000  +9.7068779114E-001 -4.6021211311E+000 
7893146.433 +9.0744723214E-001 +1.5400353930E+000  +2.6166612060E-002 -2.9440277473E+000  +2.3066457119E-002 -7.4408743373E+000  +8.8791942516E-001 -5.4584709167E+000 
8018291.615 +7.9060378844E-001 +3.0977413384E+000  +2.1413166125E-002 +1.2107006286E+001  +1.8271400771E-002 +2.0588798465E+000  +9.4653238351E-001 +3.0313428518E+000 
8143436.796 +7.7234633932E-001 +3.2706742393E+000  +2.3257532534E-002 +1.4603366530E+001  +2.0971345752E-002 +8.8789165035E+000  +8.4126647314E-001 -6.4078637617E+000 
8268581.977 +7.4308695567E-001 +1.2019768132E+001  +2.6309146017E-002 +2.3774340487E-002  +2.0179940018E-002 +1.6276192704E+001  +7.6571417415E-001 +8.7062844975E-001 
8393727.159 +6.3285933051E-001 +6.6426923622E+000  +2.3244647112E-002 +1.9651917897E+001  +2.0928560027E-002 +1.7526600404E+001  +6.6417501707E-001 +4.3987611573E+000 
8518872.340 +6.3803169850E-001 +1.0062527325E+001  +2.6739430638E-002 +4.0266482221E-001  +1.6919834052E-002 +2.1998684245E+001  +7.1062101632E-001 +1.0529733763E+000 
8644017.522 +6.4729458879E-001 +3.5764630550E+000  +1.9734479648E-002 +2.4106417974E+000  +2.4706119963E-002 +2.1972562776E+001  +6.4533543559E-001 -2.5734324514E+000 
8769162.703 +5.7380283977E-001 +8.8248245989E+000  +1.8871957383E-002 -6.4221693734E+000  +2.0196429929E-002 +2.2824077652E+001  +6.9882803625E-001 +1.4641489232E+000 
8894307.885 +5.9194654741E-001 +1.8961788956E+000  +2.0325645828E-002 +1.6178572383E+000  +1.7660947713E-002 +2.8157945772E+001  +6.5451493988E-001 +5.8696939489E+000 
9019453.066 +5.7270596036E-001 +1.2153679584E+000  +2.0754241796E-002 +7.7630275949E-001  +1.9410532653E-002 +9.8939667561E+000  +6.3299072726E-001 -2.7141450477E+000 
9144598.248 +5.9804169231E-001 +5.3547094349E+000  +1.8969895954E-002 -5.2842033256E+000  +1.9005572998E-002 +7.5595894097E+000  +5.9980733985E-001 -5.3075467416E+000 
9269743.429 +6.3063462380E-001 +1.8773948988E+000  +1.7084137731E-002 +7.5757190212E+000  +2.1655722018E-002 +9.9685115995E+000  +5.3716558967E-001 -1.5252618746E+000 
9394888.611 +5.4243550009E-001 -1.4523477108E+000  +1.9946950920E-002 +4.9349360957E+000  +2.0173477073E-002 +9.6720379385E+000  +6.0245224066E-001 -5.6102989350E+000 
9520033.792 +5.6998686196E-001 -5.7149678774E-001  +1.9083582533E-002 +2.0379576636E+000  +2.0110946151E-002 +1.6789373308E+001  +5.3217146332E-001 -1.7350844391E+000 
9645178.974 +5.4930948960E-001 -2.8280444468E+000  +2.1376356234E-002 -4.1419110407E-001  +1.9913689566E-002 +1.7923707918E+001  +5.7648149507E-001 -3.1932025829E+000 
9770324.155 +4.9640776966E-001 -7.4914095629E-001  +1.8019856777E-002 +1.3127765310E+001  +2.0786621061E-002 +1.7003967921E+001  +5.4957917308E-001 -5.3379053001E+000 
9895469.337 +4.9932589362E-001 +1.1556103719E+000  +2.4283903848E-002 +5.2041775152E+000  +2.2174679603E-002 +2.4426848848E+001  +5.7486972142E-001 -3.0491720361E+000 
10020614.518 +5.1876055307E-001 +4.2764984727E+000  +1.9167920687E-002 -8.9235443675E-001  +2.2159712285E-002 +3.3237216733E+001  +6.0263937533E-001 -6.0158089117E+000 
10145759.700 +5.1567221578E-001 +5.9057529651E+000  +2.0191251709E-002 +1.5812887506E+001  +2.2842654707E-002 +2.4195838632E+001  +5.4711273018E-001 -2.8595455788E+000 
10270904.881 +5.4079911901E-001 +4.3538237251E+000  +1.9661680677E-002 +1.0127119304E+001  +2.1862472885E-002 +2.9111141670E+001  +5.1233502518E-001 -7.7053698692E+000 
10396050.063 +5.2150596940E-001 +7.7650011522E+000  +2.2043901048E-002 +9.4036875780E+000  +2.1513434185E-002 +2.2388430464E+001  +5.7631092629E-001 -4.0440132891E+000 
10521195.244 +6.1927177858E-001 +4.4744518231E+000  +2.1498907002E-002 +8.4661943090E+000  +1.9357441772E-002 +3.0822383517E+001  +5.6079792581E-001 -2.7289551350E+000 
10646340.426 +5.4075086311E-001 +6.2351539907E+000  +2.1148693850E-002 +3.2508358379E+000  +2.0071907821E-002 +2.4803300655E+001  +5.8314590270E-001 +1.3572258856E+000 
10771485.607 +5.4302075085E-001 +3.3623154715E+000  +2.3016045069E-002 +6.2017877124E+000  +2.2944045325E-002 +2.2202967907E+001  +5.6257429437E-001 -1.0065642585E+000 
10896630.788 +5.5114584553E-001 +5.4776480237E+000  +2.1261423799E-002 +7.2668990500E+000  +2.5091977966E-002 +2.3930059267E+001  +5.8463861429E-001 -1.3617853269E+000 
11021775.970 +5.4699486231E-001 +6.7720523993E+000  +2.2915200445E-002 +1.1511794331E+001  +2.0450718582E-002 +2.3742187319E+001  +6.0894334939E-001 +1.1354633638E+000 
11146921.151 +5.6723925637E-001 +4.0559117898E+000  +2.2151323849E-002 +1.5328311698E+001  +2.2066916887E-002 +2.8771249733E+001  +6.1499162926E-001 +2.6384973373E-001 
11272066.333 +5.6999874354E-001 +6.8305581725E+000  +2.1750462835E-002 +1.5160758466E+001  +2.5481965513E-002 +2.8135151921E+001  +6.2815369561E-001 +3.9483662411E-001 
11397211.514 +5.8677098183E-001 +8.6374785575E+000  +2.2564839059E-002 +1.4875423238E+001  +2.1531082285E-002 +2.4496617650E+001  +6.3476387124E-001 +2.3296020380E+000 
11522356.696 +6.0747587947E-001 +5.7163139968E+000  +2.2958728349E-002 +1.5102934066E+001  +2.2192582077E-002 +2.4543642923E+001  +6.3213917125E-001 +5.1198534353E-001 
11647501.877 +6.1258966120E-001 +6.7958897922E+000  +2.4945857515E-002 +1.1094319566E+001  +2.4106747350E-002 +2.5194967394E+001  +6.1954271383E-001 -1.3768306224E+000 
11772647.059 +6.2973920357E-001 +6.0855654759E+000  +2.3814180857E-002 +1.6863311247E+001  +2.4787715668E-002 +2.5857447340E+001  +6.4916874086E-001 +3.1911448465E+000 
11897792.240 +6.4686694275E-001 +4.6274869012E+000  +2.6140367219E-002 +1.9841711743E+001  +2.4854328092E-002 +2.2329648723E+001  +6.5183340897E-001 +6.7633271669E-001 
12022937.422 +6.5485651112E-001 +5.2256222047E+000  +2.3753498852E-002 +1.5191108101E+001  +2.0818128773E-002 +2.8037575359E+001  +6.6346702531E-001 +2.1547521244E+000 
12148082.603 +6.5104188619E-001 +4.1724254950E+000  +2.4225041932E-002 +8.3753655892E+000  +2.2390868670E-002 +2.3939478844E+001  +6.6175254418E-001 +9.0514389894E-001 
12273227.785 +6.6122683194E-001 +3.7926575276E+000  +2.3947740082E-002 +1.5448076948E+001  +2.3839965718E-002 +2.5675580881E+001  +7.0290358897E-001 +5.5454207331E-001 
12398372.966 +6.8071753509E-001 +5.3139316500E+000  +2.3320356285E-002 +1.4885145264E+001  +2.1957566779E-002 +1.9139172131E+001  +6.7892596199E-001 -8.1152247644E-001 
12523518.148 +6.9343250134E-001 +1.6178887841E+000  +2.4169413380E-002 +1.5389174617E+001  +2.5720869054E-002 +2.0120876552E+001  +6.9998414237E-001 +4.7534372153E-001 
12648663.329 +7.1789489581E-001 +2.8730124290E+000  +2.4789720609E-002 +1.7158780586E+001  +2.6363998638E-002 +2.3209332728E+001  +7.3549940817E-001 -2.3328065467E+000 
12773808.511 +7.2946295355E-001 +3.8067133534E+000  +2.4393335702E-002 +1.7161380843E+001  +2.5024618231E-002 +2.0277850985E+001  +7.2151828380E-001 -8.8226420957E-001 
12898953.692 +7.4133863106E-001 +2.3933303501E+000  +2.7743166119E-002 +1.5904434707E+001  +2.4361000320E-002 +1.8807699046E+001  +7.8171507458E-001 -5.0462321768E-001 
13024098.874 +7.7938003237E-001 +1.1851371345E+000  +2.6301930400E-002 +1.7453203341E+001  +2.4404303817E-002 +2.2148209323E+001  +7.7478150715E-001 -2.2255249969E+000 
13149244.055 +7.5305148307E-001 +6.2321990659E-001  +2.6170125168E-002 +1.4645173479E+001  +2.6802578502E-002 +2.2882211220E+001  +7.9210839354E-001 -2.1810766505E+000 
13274389.237 +7.9781445425E-001 +1.4471511615E-002  +2.6613598227E-002 +1.6270070540E+001  +2.5085886381E-002 +2.4337132640E+001  +8.0933160585E-001 -1.9356844889E+000 
13399534.418 +8.1624671440E-001 -1.4663335339E+000  +2.6890920258E-002 +1.5822326866E+001  +2.4822365287E-002 +1.9352751486E+001  +8.3968031012E-001 -1.8887858304E+000 
13524679.599 +8.2221751051E-001 -8.4994670969E-001  +2.7346770236E-002 +1.5080850372E+001  +2.5516362800E-002 +2.1837729556E+001  +8.3854251037E-001 -3.2578341640E+000 
13649824.781 +8.4352059678E-001 -1.3255669391E+000  +2.6566917451E-002 +1.7716464326E+001  +2.5806908634E-002 +1.5902297858E+001  +8.4414141904E-001 -4.2019675741E+000 
13774969.962 +8.4439708557E-001 -3.1689977291E+000  +2.7618458347E-002 +1.8863629881E+001  +2.6953328262E-002 +1.6997694002E+001  +8.6557250232E-001 -3.1620155497E+000 
13900115.144 +8.7685507725E-001 -1.8371796405E+000  +2.7556646052E-002 +1.5728054118E+001  +2.6752580002E-002 +2.0510657213E+001  +8.9194030872E-001 -2.8827945435E+000 
14025260.325 +9.0591053126E-001 -3.8506256233E+000  +2.8611360361E-002 +1.7162289875E+001  +2.6944798683E-002 +2.0437107152E+001  +9.1129476084E-001 -4.0086311355E+000 
14150405.507 +8.9192274019E-001 -5.0444815136E+000  +2.8540887552E-002 +1.6512667276E+001  +2.8713986622E-002 +1.8903774960E+001  +9.2351829054E-001 -4.6903905251E+000 
14275550.688 +9.3125857413E-001 -5.0329423378E+000  +2.8489363908E-002 +1.6521525670E+001  +2.6931826770E-002 +1.8795937125E+001  +9.4548626164E-001 -4.8210519668E+000 
14400695.870 +9.4925620013E-001 -5.3367714370E+000  +2.8035714629E-002 +1.6682126551E+001  +2.8080325571E-002 +2.0302727676E+001  +9.5758496559E-001 -4.0886825363E+000 
