!  2-Port S-parameters saved by WinCal
! VAR MeasName=S-Parameters (CALIBRATED_DATA) read from VNA (P5004A)
! VAR MeasDate=28/08/2024 16:31:47
! VAR NAME=S2_r8c9_SET2_9k-100M_2
! VAR FILENAME=S2_r8c9_SET2_9k-100M_2.S2P
! VAR DATE=28/08/2024 16:31:47
! VAR PHYS_PORTS=1,2
! VAR ObjTypeName=DATASET
! VAR IndexType=Frequency
!
# Hz S MA R 50
9000.000 +8.0105411657E-002 -1.6817311903E+002  +1.2310802843E-002 +6.7883674693E+001  +2.1925889839E-002 -6.0006711827E+001  +2.6345457897E-001 -1.1759234066E+002 
134145.181 +1.1053833880E-001 +1.6948337597E+002  +5.4923175266E-004 -1.2029790585E+002  +5.2265805858E-004 +9.1684870223E+001  +2.4106564623E-001 -1.7100946721E+002 
259290.363 +1.1233743205E-001 +1.6989506314E+002  +1.1615161098E-004 -1.7412102462E+002  +6.8168748309E-004 +1.9920457649E+001  +2.4402802640E-001 -1.6957367934E+002 
384435.544 +1.1209408528E-001 +1.7051147137E+002  +1.2780030837E-004 -1.2817019022E+002  +3.1002798731E-004 +1.0596766370E+002  +2.3986951148E-001 -1.6931131328E+002 
509580.726 +1.1620116120E-001 +1.7149983988E+002  +7.6201007989E-004 +1.1954354529E+002  +1.5771689006E-003 -7.7132035505E+001  +2.5537030003E-001 -1.6076033467E+002 
634725.907 +1.1823323502E-001 +1.7107936228E+002  +1.0930791493E-004 +3.7925793768E+001  +5.6335091000E-004 +1.6878810990E+002  +2.3963694822E-001 -1.6539642607E+002 
759871.089 +1.2054846304E-001 +1.7047781028E+002  +7.7176056904E-004 -1.2112702404E+002  +2.0976551187E-004 -1.1550421347E+002  +2.4894437847E-001 -1.6670388193E+002 
885016.270 +1.1970445408E-001 +1.6983101467E+002  +7.4602288304E-004 -7.1767300915E+001  +3.0502064652E-004 -1.9741844171E+001  +2.4220792526E-001 -1.6778653105E+002 
1010161.452 +1.1508922836E-001 +1.7009479581E+002  +1.4257219895E-003 -3.0542067268E+001  +1.9563995878E-003 -1.0316164654E+002  +1.9352472404E-001 -1.6637709926E+002 
1135306.633 +1.1524582557E-001 +1.6870571472E+002  +1.1561161581E-003 -3.0755986389E+001  +4.3570267114E-003 +1.5809371028E+002  +1.8240850224E-001 -1.5683070072E+002 
1260451.815 +1.1857336679E-001 +1.7303623665E+002  +1.7152240802E-003 -1.6570387515E+002  +1.6773161700E-003 +7.7788082068E+000  +2.3279784069E-001 -1.5965365507E+002 
1385596.996 +1.2592338269E-001 +1.7227877506E+002  +1.2012886450E-003 +9.7166900201E+001  +1.4294373933E-003 -1.4407613340E+002  +2.7116680810E-001 -1.5642847926E+002 
1510742.178 +1.2800860930E-001 +1.7318253406E+002  +8.2165779997E-004 -3.9795839321E+001  +3.0331731546E-004 -9.2796878616E+001  +2.8172316245E-001 -1.5706840785E+002 
1635887.359 +1.2736080093E-001 +1.7190349831E+002  +5.6388974643E-004 +6.9150350501E+001  +2.7232566448E-003 -9.5063851996E+001  +2.4439330794E-001 -1.5353128586E+002 
1761032.541 +1.2699421466E-001 +1.6930521089E+002  +1.4798660283E-003 +9.7252738472E+001  +3.1132220157E-003 +1.2811985092E+002  +2.0276931181E-001 -1.6090794118E+002 
1886177.722 +1.2721448420E-001 +1.6782393542E+002  +1.4404075432E-003 -5.3970415180E+001  +1.7738392147E-003 +1.3664672705E+002  +2.1835752505E-001 -1.6244711288E+002 
2011322.904 +1.2447161079E-001 +1.6904962749E+002  +8.5816668809E-004 +1.5720708201E+002  +1.9797284378E-003 +1.5657778799E+001  +2.0916085543E-001 -1.7056654647E+002 
2136468.085 +1.2899914414E-001 +1.6478796873E+002  +1.0511271612E-003 +2.7619884653E+001  +1.8766896376E-003 +6.5138587732E+001  +2.0612524813E-001 -1.6085291852E+002 
2261613.267 +1.3149639781E-001 +1.6317015720E+002  +4.5270332863E-004 +4.7571746813E+001  +2.9504549771E-003 +7.2202157374E+001  +9.3932056889E-002 +1.7045110967E+002 
2386758.448 +1.3839463656E-001 +1.6150448318E+002  +1.7863104006E-003 +1.5296918647E+001  +1.0325260663E-003 -8.6231923375E+001  +2.0201494197E-001 +1.7490608831E+002 
2511903.630 +1.3883765190E-001 +1.6746772606E+002  +1.2242979601E-003 -1.7902476078E+002  +1.6557150249E-003 +1.6149137123E+002  +2.1449481153E-001 +1.7524489552E+002 
2637048.811 +1.2260042435E-001 +1.4304724061E+002  +7.8014847450E-003 -8.2312608923E+001  +2.6732682580E-002 -8.3053026995E+000  +3.4047859658E-001 -6.6675120735E+001 
2762193.992 +1.0362394539E-001 +1.7278363535E+002  +9.4477660971E-002 -1.1229583588E+001  +7.2467441477E-002 -1.6011231073E+002  +2.4283616695E+000 -6.1198539355E+001 
2887339.174 +1.1435165450E-001 +1.7943347517E+002  +1.4475740265E-002 -5.1244325774E+001  +1.2486131671E-002 -1.6473097584E+002  +1.6702934825E-001 -8.2989165648E+001 
3012484.355 +1.1471107560E-001 +1.7805317409E+002  +2.0905170229E-002 +6.8579719498E+001  +1.5343246103E-002 -9.4084149034E+001  +3.2692717819E-001 +7.8738103284E+000 
3137629.537 +1.1519950861E-001 +1.7384941301E+002  +2.7583204917E-003 +1.3369292094E+002  +1.6501358897E-002 -9.5178052142E+001  +8.8047428056E-002 -8.1674295963E+001 
3262774.718 +1.2006209544E-001 +1.5430796134E+002  +1.3567437439E-003 -4.5942466340E+001  +6.1622924691E-003 -5.5931327224E+001  +1.6716967988E-001 -1.6929810766E+002 
3387919.900 +1.2043976326E-001 +1.5697563510E+002  +1.0081497825E-002 -1.0255346506E+002  +9.6035540834E-003 +9.6535700670E+001  +8.3305753171E-002 -1.2330367668E+001 
3513065.081 +1.3950578440E-001 +1.5052629587E+002  +9.5247538811E-003 +4.7432263520E+001  +7.1885381206E-003 +1.7340982869E+001  +2.3827670625E-001 +1.4447250718E+002 
3638210.263 +1.5969116925E-001 +1.4731813783E+002  +1.8531261549E-002 -9.2946559617E+001  +1.2338182615E-002 -7.7681053592E+001  +1.0173035355E+000 +2.8099222729E+001 
3763355.444 +1.7261889310E-001 +1.4682984216E+002  +1.0498191914E-002 +1.0973858501E+002  +3.4194283724E-003 -6.7232315561E+001  +6.6644156809E-001 +1.5785422214E+002 
3888500.626 +1.7240047292E-001 +1.5077982442E+002  +5.2696079043E-003 +5.8661893953E+001  +7.8792534616E-003 -1.2507293072E+002  +3.1054316622E-001 +8.7308424387E+001 
4013645.807 +1.8968226552E-001 +1.4745323082E+002  +7.1707447293E-003 -1.0667135132E+002  +4.6220092224E-003 -3.3352955032E+001  +5.3925991237E-001 +1.4591002948E+002 
4138790.989 +1.7670224463E-001 +1.2749107419E+002  +1.5868198057E-003 +1.0831553996E+002  +3.2905546973E-004 -2.5631388979E+001  +1.9670994257E-001 +1.2284450155E+002 
4263936.170 +1.9214312993E-001 +1.5242079635E+002  +5.7462290290E-003 -1.0500701030E+002  +3.5526452657E-003 +1.3753017408E+002  +1.3946600284E-001 +6.0904209174E+001 
4389081.352 +2.0111283897E-001 +1.4325162943E+002  +3.7944146952E-003 +1.6158968706E+002  +1.1632666193E-002 -1.1025873629E+002  +5.1464197237E-001 +8.1073878541E+001 
4514226.533 +2.7658496852E-001 +1.3194465471E+002  +2.1772853496E-002 +1.3555881966E+001  +9.7580878009E-003 +1.5321372072E+002  +7.7633973423E-001 +8.7811255454E+001 
4639371.715 +3.2066048876E-001 +1.3812763990E+002  +2.7268943908E-002 -1.7951486715E+002  +5.8114607962E-002 +1.7926507984E+002  +1.9878014165E+000 +8.2734461486E+001 
4764516.896 +3.4022130445E-001 +1.3334548349E+002  +5.1626313782E-002 -7.2130233860E+001  +1.4990411112E-002 -9.4878694795E+001  +2.9245870460E+000 +1.6160351826E+002 
4889662.078 +4.6864295931E-001 +1.3085922176E+002  +4.3013024140E-002 +1.3267107520E+002  +5.7319698546E-002 -2.7841421715E+001  +3.8631698858E+000 -1.2893202440E+002 
5014807.259 +3.9473077897E-001 +1.1349321327E+002  +1.9688335794E-002 -1.0495252215E+002  +8.3746621962E-002 +7.6340537667E+000  +2.6935748670E+000 -1.4614779036E+002 
5139952.441 +5.2792734238E-001 +1.3553724344E+002  +3.0203529682E-002 -1.7979481474E+001  +1.2072037500E-001 +1.5759107872E+000  +5.3481192228E+000 +1.4822963288E+002 
5265097.622 +4.4912809113E-001 +1.2251690631E+002  +5.1553137390E-002 +1.2693050941E+002  +3.1442222144E-002 +1.3804599494E+002  +2.2700489911E+000 +1.0357973005E+002 
5390242.804 +3.9400740078E-001 +1.2980180619E+002  +3.9299144622E-003 -8.4482419055E+001  +1.4351087116E-002 -9.0263095550E+001  +1.7796723252E+000 +1.4728668824E+002 
5515387.985 +4.8037853437E-001 +1.3065334802E+002  +1.4470415559E-002 -1.6326359634E+002  +1.9643094401E-002 +9.6154600532E+000  +1.5790736653E+000 +8.6853132977E+001 
5640533.166 +5.2808217227E-001 +1.2967124061E+002  +7.0391005215E-003 +9.6464316220E+001  +2.9276796553E-002 +8.2259631558E+001  +5.5891611186E+000 +6.8540549574E+001 
5765678.348 +5.3164197263E-001 +1.2686724531E+002  +2.2830748454E-003 +1.5538113589E+002  +5.9890575580E-003 +4.7279883457E+001  +1.6116977751E+000 +1.0555379756E+002 
5890823.529 +5.6298562653E-001 +1.2333257506E+002  +3.3185894071E-002 +1.5512124930E+002  +3.1767577716E-002 -8.8593784688E+001  +2.9667026881E+000 +1.1244053062E+002 
6015968.711 +6.3558329430E-001 +1.1826709438E+002  +7.4803664125E-003 +1.6694123193E+001  +1.9939735757E-002 -1.2367359102E+002  +1.2624524834E+000 +3.3555298387E+001 
6141113.892 +7.3092817671E-001 +1.1645484653E+002  +2.5943464559E-002 -1.7279794107E+002  +1.9327969899E-002 -1.6342247677E+002  +1.4220475201E+000 +4.5733246532E+001 
6266259.074 +8.7880805929E-001 +1.0557421760E+002  +2.0707713467E-002 -1.6027252241E+002  +5.7380618464E-002 +1.1672885159E+002  +2.4924083525E+000 +1.4897582723E+001 
6391404.255 +8.6076540431E-001 +8.5425543250E+001  +1.8133517870E-002 +8.7716273465E+001  +1.7542759713E-002 +8.6753237770E+001  +1.2878445765E+000 +7.0665182929E+000 
6516549.437 +1.0399747037E+000 +7.9207883571E+001  +7.5331187616E-003 +6.3568151774E+001  +3.0536223554E-002 +7.6209185527E+001  +1.6655907842E+000 +7.2286989573E+000 
6641694.618 +1.2944997832E+000 +7.1209108234E+001  +1.4951770421E-002 +1.1169136317E+002  +4.3329122069E-002 -3.8802733852E+000  +1.8885808679E+000 -1.0228806414E+000 
6766839.800 +1.4686702826E+000 +6.6356026525E+001  +2.9412324396E-002 +8.7790999673E+001  +1.3023137413E-002 +9.4899319553E+001  +1.7565101435E+000 -1.1149627781E+001 
6891984.981 +1.8262195946E+000 +2.5004734539E+001  +8.0948544792E-003 -2.0947610065E+001  +3.3721566715E-002 -3.2977938806E+001  +1.3622383533E+000 -1.1263600356E+001 
7017130.163 +1.7644842682E+000 +2.0146696860E+001  +2.7450254063E-002 +9.1825806723E+001  +8.3608635571E-003 +1.0685675680E+002  +1.0965593585E+000 -7.2813374506E+000 
7142275.344 +1.5138565656E+000 +8.1837286167E+000  +7.2240043459E-003 +4.2324535896E+001  +2.9354305404E-002 +2.6580476166E+001  +1.3375669193E+000 -1.1898722047E+001 
7267420.526 +1.3841933349E+000 +1.4818557259E+000  +1.4848732462E-002 +1.7670165534E+002  +9.4947379367E-003 +1.4193987784E+002  +1.3734867446E+000 -1.1030967735E+001 
7392565.707 +1.2861163911E+000 -1.1450438539E+001  +8.3736242991E-004 -1.3130444905E+002  +5.4383487040E-003 +1.1333272705E+002  +1.3369355703E+000 -3.0704923840E+000 
7517710.889 +1.2095896178E+000 +8.3019808534E-001  +2.6066231293E-003 +1.3710711822E+002  +1.2995160699E-002 +1.1262483346E+002  +1.1935548668E+000 -1.1183958118E+001 
7642856.070 +1.0729291498E+000 +1.3959145431E+000  +6.0783292486E-003 -3.2934972064E+001  +8.2990892387E-003 +3.3478985895E+001  +1.0366095809E+000 -7.1761532009E+000 
7768001.252 +9.3180780921E-001 +1.0330198674E+001  +6.5110496038E-003 +9.1248520733E+001  +6.6535026183E-003 +1.4752474941E+002  +9.1145718619E-001 -3.2816339658E+000 
7893146.433 +8.8611536061E-001 +4.9875632073E+000  +7.1094871553E-003 -1.6566544727E+002  +6.9142204732E-003 +1.2828633302E+002  +9.5514903741E-001 +4.6322274457E-001 
8018291.615 +8.2175732672E-001 +2.4417948729E+000  +6.4396895636E-003 -1.7000738698E+002  +7.7831613540E-003 +4.4707070511E+001  +8.5673318447E-001 +8.5295192391E-001 
8143436.796 +7.7244629911E-001 +7.3046418569E+000  +1.3051453867E-003 +1.7841647361E+002  +8.6302991284E-003 +7.5718941768E+001  +7.1978392813E-001 +5.4156179339E-001 
8268581.977 +6.9634231378E-001 +1.0080010773E+001  +1.1570082254E-003 +5.4269486162E+000  +3.6972398514E-003 -1.7594388218E+002  +7.8838653261E-001 -3.3866420626E+000 
8393727.159 +6.5555384256E-001 +5.7143931243E+000  +6.8168785587E-003 +1.2267931883E+002  +8.8673310965E-004 -1.1534840766E+002  +7.2994961880E-001 -1.2623953472E+000 
8518872.340 +6.6237216526E-001 +4.2608986191E+000  +7.0506047862E-003 +1.3308641705E+002  +3.6206548456E-003 +2.8150584290E+001  +7.1320355953E-001 +5.4643685094E-001 
8644017.522 +6.5297631170E-001 +1.2746200033E+001  +6.5867783574E-003 +1.3451079287E+002  +7.1645363439E-004 -1.7941402047E+002  +6.7361428031E-001 +2.7211563444E+000 
8769162.703 +5.6412632004E-001 +9.3142413203E+000  +2.6839330751E-003 +5.9688377155E+001  +5.5393097242E-003 +4.7647977406E+001  +6.9936938895E-001 +2.4879519532E+000 
8894307.885 +6.0449838633E-001 +8.8991734430E+000  +7.1711092503E-003 +6.5919286111E+001  +2.2347525276E-003 +8.2161430076E+001  +6.6239625868E-001 +3.2712541863E+000 
9019453.066 +6.2184929254E-001 +6.8692111854E+000  +4.2949459108E-003 +3.3659512521E+001  +5.4355747103E-003 +1.2337308560E+002  +6.4398805748E-001 -1.6489030941E-001 
9144598.248 +5.9374559195E-001 +8.4439636266E+000  +3.2149373388E-003 +9.3759038321E+001  +4.9380731282E-003 +3.6073886433E+001  +6.2797366245E-001 +5.5020843486E-001 
9269743.429 +5.5877073825E-001 +6.3329221019E+000  +4.6190138627E-003 +5.8000100352E+001  +4.8027729477E-003 +1.1270922272E+002  +5.8500152900E-001 -6.2343910814E-001 
9394888.611 +5.7000199773E-001 -2.1655296349E+000  +4.5194607587E-003 +1.3288192131E+002  +6.6596830589E-003 +8.9069126412E+001  +5.8226663333E-001 -9.7868104533E-001 
9520033.792 +5.1766382730E-001 +4.5222290190E+000  +3.2155437628E-003 +5.3848505634E+001  +4.1187707116E-003 +1.2104987122E+002  +6.0105048028E-001 -6.9516010606E+000 
9645178.974 +5.5507275862E-001 -2.5906139064E+000  +4.3932198048E-003 +5.3293560445E+001  +5.1862595925E-003 +6.2927783458E+001  +5.4742437051E-001 -5.3953477590E+000 
9770324.155 +5.3475149852E-001 +2.5275755184E+000  +6.0531357028E-003 +6.0918223719E+001  +2.8969774728E-003 +1.1455614404E+002  +5.5375059966E-001 -1.8080657124E+000 
9895469.337 +5.2788995327E-001 -2.3894472962E-002  +4.5772375250E-003 +6.4295791972E+001  +1.3798671801E-003 -1.5816722783E+002  +5.8033533794E-001 -5.9152522178E+000 
10020614.518 +5.2413246986E-001 +3.0189257224E+000  +2.4270252864E-003 +4.0592083034E+001  +3.8920032770E-003 +8.0714081321E+001  +6.0934678830E-001 -4.8114185331E+000 
10145759.700 +5.8613887630E-001 +1.1335671888E+000  +4.0217836397E-003 +8.0957044856E+001  +3.7276779073E-003 +8.5323450521E+001  +5.8965560487E-001 -2.4713840330E+000 
10270904.881 +6.0321890469E-001 +7.5023418439E+000  +4.0525844947E-003 +5.5437434930E+001  +5.7665320032E-003 +9.8385125116E+001  +5.6161332999E-001 -3.1830206943E+000 
10396050.063 +5.5246059929E-001 +5.3024152428E+000  +2.5421227749E-003 +3.9694581379E+001  +6.0054363774E-003 +1.0385154289E+002  +5.8506855598E-001 -2.5114888997E+000 
10521195.244 +5.2594774467E-001 +5.2258779660E+000  +3.4865209333E-003 +8.0492533113E+001  +3.0702472380E-003 +1.1670555405E+002  +5.7384085471E-001 +2.1136165629E+000 
10646340.426 +5.7923433919E-001 +5.7898781472E+000  +6.4487020156E-003 +4.9784588817E+001  +5.6490558322E-003 +8.4749198316E+001  +5.9328938866E-001 +1.4344288764E+000 
10771485.607 +5.8380517868E-001 +8.0397047592E+000  +5.4621061529E-003 +7.1127818448E+001  +4.4425343107E-003 +8.1103662951E+001  +5.9849707396E-001 +1.3357747328E+000 
10896630.788 +5.9620897144E-001 +6.7493354510E+000  +5.8261766700E-003 +8.9078222044E+001  +4.9604785707E-003 +1.1546140296E+002  +6.2027154817E-001 +3.5853214407E-001 
11021775.970 +5.9232295535E-001 +6.6032508652E+000  +5.0224812908E-003 +5.0325570879E+001  +6.9418291206E-003 +9.4307426420E+001  +5.8736914588E-001 +7.4767783561E-001 
11146921.151 +5.7647055297E-001 +5.9508382445E+000  +2.3543582487E-003 +6.0361701987E+001  +4.4599105914E-003 +8.6540713157E+001  +5.9476573406E-001 +7.7759914478E-002 
11272066.333 +6.2268188533E-001 +4.3037982995E+000  +4.6747443254E-003 +5.7869386154E+001  +3.8900972972E-003 +8.1941736430E+001  +5.9664218933E-001 +2.8335826882E+000 
11397211.514 +6.0058290469E-001 +3.8573517856E+000  +4.0748075781E-003 +3.4915323699E+001  +5.7047728488E-003 +1.0982012373E+002  +6.1736878717E-001 +4.8001550758E-001 
11522356.696 +5.9997322425E-001 +4.5675893579E+000  +3.6848280479E-003 +7.6802886268E+001  +2.4201557326E-003 +9.3388048083E+001  +6.3295700635E-001 +2.9710035361E+000 
11647501.877 +6.1413685523E-001 +8.0542237639E+000  +5.0826734930E-003 +9.5174953704E+001  +6.1863936626E-003 +1.2229806251E+002  +6.4420644470E-001 +1.8234050699E+000 
11772647.059 +6.3621850128E-001 +4.9896128394E+000  +6.8164506130E-003 +6.7745400177E+001  +4.5146136546E-003 +7.8522258355E+001  +6.5838806503E-001 +3.2367339877E+000 
11897792.240 +6.4153382354E-001 +6.1046052109E+000  +4.8174889918E-003 +8.5978875934E+001  +6.2599887792E-003 +9.8922790236E+001  +6.8192562628E-001 +8.6557838063E-001 
12022937.422 +6.5714866995E-001 +4.2725991754E+000  +4.0043314167E-003 +8.8367512258E+001  +6.7376024363E-003 +8.9863503102E+001  +6.8583073666E-001 +2.2933960363E+000 
12148082.603 +7.1293901643E-001 +3.0280191860E+000  +6.0436680353E-003 +8.9407359184E+001  +5.4459377785E-003 +9.6931938082E+001  +6.7756149612E-001 -1.4740088351E+000 
12273227.785 +7.0311644582E-001 +3.3369192383E+000  +3.3334297577E-003 +8.7141679662E+001  +7.0484791643E-003 +9.1567991943E+001  +6.9962509323E-001 +1.1541443426E+000 
12398372.966 +7.2053267587E-001 +6.5238011958E+000  +4.5072409054E-003 +1.1013389910E+002  +5.5677034885E-003 +8.6268487041E+001  +7.4282893570E-001 +2.6488098208E+000 
12523518.148 +7.2433924570E-001 +4.3558918616E+000  +4.3665801587E-003 +1.0261520376E+002  +5.7866117412E-003 +8.2071186738E+001  +7.4273301635E-001 +1.0818475285E+000 
12648663.329 +7.4935179164E-001 +3.5808476471E+000  +6.6004634097E-003 +7.8592921551E+001  +7.6803164530E-003 +9.4276511031E+001  +7.5288074362E-001 +5.8432194742E-001 
12773808.511 +7.7994459186E-001 +2.9087532265E+000  +6.6501240935E-003 +8.1961385288E+001  +6.1660449714E-003 +8.0767098666E+001  +7.5543934850E-001 +3.3176093933E-002 
12898953.692 +7.7253158337E-001 +1.5050332091E+000  +7.1187131780E-003 +9.7633431229E+001  +5.9426967290E-003 +9.8431909753E+001  +7.9634132821E-001 -2.0198919066E+000 
13024098.874 +7.9951731687E-001 +7.7045528725E-001  +5.4243416435E-003 +8.6400473034E+001  +6.3578851681E-003 +8.3732450479E+001  +7.8841479854E-001 -3.7305161674E-001 
13149244.055 +8.0915181499E-001 -4.2739765124E-002  +6.4734018031E-003 +8.1816500997E+001  +7.2908421266E-003 +9.0688146575E+001  +8.3127819274E-001 -6.1705802174E-001 
13274389.237 +8.1672440911E-001 -9.2193409486E-001  +7.6295928121E-003 +7.8905834949E+001  +5.6215103230E-003 +8.2889951560E+001  +8.5253395427E-001 -2.1572903586E+000 
13399534.418 +8.1779274095E-001 -9.4660122048E-001  +7.5331948623E-003 +9.1992979374E+001  +8.3849955671E-003 +1.0168422767E+002  +8.2065692712E-001 -1.1247377424E-001 
13524679.599 +8.5376289220E-001 -1.3971590579E+000  +7.5906967961E-003 +9.4497850060E+001  +6.2812207511E-003 +8.8727063110E+001  +8.4956312758E-001 -1.2465303084E+000 
13649824.781 +8.7081364945E-001 -1.1562280149E+000  +8.1250760515E-003 +8.1014487689E+001  +7.9027713862E-003 +8.9676609449E+001  +8.6700041601E-001 -2.0543749703E+000 
13774969.962 +8.8658420211E-001 -3.4449176333E+000  +7.9986959207E-003 +9.2477873413E+001  +5.9285397132E-003 +7.8992840766E+001  +8.7832193992E-001 -3.2070496937E+000 
13900115.144 +8.9751951882E-001 -3.4925034004E+000  +9.0136390716E-003 +9.2995750029E+001  +7.0839644849E-003 +9.9050331846E+001  +9.1967965929E-001 -2.6542415857E+000 
14025260.325 +9.3554120491E-001 -3.3085748947E+000  +5.6605220686E-003 +8.5830377424E+001  +6.7955825533E-003 +8.4770117972E+001  +9.2535197946E-001 -3.1436487774E+000 
14150405.507 +9.4762357192E-001 -4.5634747435E+000  +6.9283343417E-003 +8.2180089266E+001  +6.0071327743E-003 +9.1573826375E+001  +9.6629140482E-001 -4.7270103282E+000 
14275550.688 +9.4313441613E-001 -4.6591049686E+000  +7.3599763476E-003 +8.8097674373E+001  +7.1378189315E-003 +8.5679996616E+001  +9.6626300818E-001 -4.8261259419E+000 
14400695.870 +9.7971107024E-001 -5.1740444809E+000  +7.3964694323E-003 +8.7452300126E+001  +7.8714730514E-003 +8.6454843352E+001  +9.9174577067E-001 -3.9094735463E+000 
