!  2-Port S-parameters saved by WinCal
! VAR MeasName=S-Parameters (CALIBRATED_DATA) read from VNA (P5004A)
! VAR MeasDate=27/08/2024 12:19:42
! VAR NAME=S2_r1c9_pristine_9k-100M_3
! VAR FILENAME=S2_r1c9_pristine_9k-100M_3.S2P
! VAR DATE=27/08/2024 12:19:42
! VAR PHYS_PORTS=1,2
! VAR ObjTypeName=DATASET
! VAR IndexType=Frequency
!
# Hz S MA R 50
9000.000 +1.3506056280E-002 +1.1792022041E+002  +2.6917678919E-002 -4.1337329863E+001  +4.0542408707E-002 -1.6790398170E+002  +3.3270778282E-001 +2.2746194380E+001 
134145.181 +1.1111994781E-001 +1.6947937869E+002  +2.1871842181E-004 +7.6320478218E+001  +3.3468391277E-004 +1.0990317525E+002  +2.4032880996E-001 -1.7156315174E+002 
259290.363 +1.1235494414E-001 +1.7001607583E+002  +1.4765303496E-003 +1.2217920774E+002  +1.4831698983E-003 -1.3659864624E+002  +2.5800659081E-001 -1.6867016164E+002 
384435.544 +1.1349221853E-001 +1.6972034422E+002  +6.2858516892E-004 +7.6901541374E+001  +1.4367149241E-003 +5.0719757377E+000  +2.4406717020E-001 -1.6776966408E+002 
509580.726 +1.1414320078E-001 +1.7067896132E+002  +7.9315357107E-004 +9.7239792049E+001  +3.1963767204E-004 -2.4669002138E+001  +2.3388154175E-001 -1.6536711777E+002 
634725.907 +1.1574688842E-001 +1.7122639007E+002  +9.2341611185E-004 +1.5278226883E+002  +6.5610201306E-004 +5.3009053569E+001  +2.3859459369E-001 -1.6524526568E+002 
759871.089 +1.1535802380E-001 +1.7039245366E+002  +1.3525370727E-003 -1.3234794924E+002  +9.1471851532E-004 -7.1536299742E+001  +2.3721649807E-001 -1.6342304452E+002 
885016.270 +1.1609534068E-001 +1.6875874724E+002  +5.0434993477E-004 +1.0486732712E+002  +6.6802356575E-004 +3.6600593611E+001  +2.4341112954E-001 -1.6513167786E+002 
1010161.452 +1.1495817719E-001 +1.7201759594E+002  +1.6847529019E-003 -1.6939599720E+002  +1.3452962619E-003 +1.3489280988E+001  +2.0017986229E-001 -1.6654593428E+002 
1135306.633 +1.2001831552E-001 +1.7184671171E+002  +2.8413804291E-003 +1.2583406666E+000  +2.6413362945E-003 +3.9442349686E+001  +1.6709146828E-001 -1.6030648567E+002 
1260451.815 +1.2180228084E-001 +1.7249174043E+002  +1.1266552068E-003 -3.4255552864E+001  +6.6030890824E-004 +2.2070324748E+001  +2.3211761509E-001 -1.6279583573E+002 
1385596.996 +1.2588636220E-001 +1.7205034968E+002  +8.5414429162E-004 +5.3161436409E+001  +5.9050575507E-004 -1.1591948125E+002  +2.5872931830E-001 -1.5884238357E+002 
1510742.178 +1.2621873669E-001 +1.7126428859E+002  +6.9677286696E-004 +1.0341858100E+002  +1.1900978201E-003 -4.7683102140E+001  +2.3042424072E-001 -1.5605783494E+002 
1635887.359 +1.2760189087E-001 +1.7060190784E+002  +8.4006986595E-004 -1.5479551753E+002  +1.9970398005E-003 -1.1322983594E+002  +2.3429030111E-001 -1.5845773810E+002 
1761032.541 +1.3026878987E-001 +1.6920656796E+002  +1.1988934535E-003 +4.6497261905E+001  +8.7437547376E-004 -1.2745835315E+002  +2.2884214946E-001 -1.5916906371E+002 
1886177.722 +1.2701893101E-001 +1.6460129248E+002  +9.0721501162E-004 -1.7744028886E+002  +7.8804231760E-004 +7.5900255482E+001  +1.8885706250E-001 -1.6102111366E+002 
2011322.904 +1.3122545971E-001 +1.6618035624E+002  +1.0528102263E-003 +1.4842082707E+002  +2.5925235628E-003 +8.1322937909E+001  +1.8451703106E-001 -1.7600042193E+002 
2136468.085 +1.3298474881E-001 +1.5926593429E+002  +3.5155743262E-003 -6.0333197438E+001  +4.0693077448E-003 +1.1990437825E+002  +2.4804444786E-001 +1.6938731616E+002 
2261613.267 +1.2430809202E-001 +1.6443896955E+002  +2.1674022940E-003 -1.6943087857E+002  +2.3406562010E-003 -1.2360841410E+002  +2.1742827751E-001 +1.7707670247E+002 
2386758.448 +1.3376674856E-001 +1.6425428823E+002  +9.7550252280E-004 +1.5375428716E+002  +3.6561207258E-003 +1.2074342844E+002  +2.4534896725E-001 +1.7305995613E+002 
2511903.630 +1.3651677588E-001 +1.6320430793E+002  +4.5379819167E-003 +1.0539778560E+002  +1.0742724325E-002 +1.1734793735E+002  +2.5243996927E-002 +4.8292629852E+001 
2637048.811 +1.3683176335E-001 +1.5460005792E+002  +1.1708055451E-003 -2.8680163624E+001  +5.7292827007E-004 +1.4768220741E+001  +8.0842223100E-002 +1.5547501704E+002 
2762193.992 +1.4852616933E-001 -1.7209576415E+002  +2.5118984802E-003 -4.4261636974E+001  +8.2183078602E-003 -1.4399993119E+002  +4.7420765479E-001 -1.2806872662E+002 
2887339.174 +1.1519712109E-001 +1.6624132803E+002  +3.9185442219E-003 +1.0756193083E+002  +1.2970711434E-002 -4.6727580391E+001  +6.8793499029E-001 -1.1588739991E+002 
3012484.355 +1.0767861682E-001 -1.7992523634E+002  +1.1595590574E-002 -1.4336062485E+002  +7.7707850460E-003 -4.5532720365E+001  +4.2713497833E-001 -9.5535698339E+001 
3137629.537 +9.3475615055E-002 +1.7770415855E+002  +6.1413413123E-003 -1.5698804078E+002  +3.9642247897E-003 +1.1311170793E+002  +9.5424631723E-001 -1.0558792672E+002 
3262774.718 +1.0022744850E-001 +1.6775854580E+002  +1.1590246794E-002 -3.8309144445E+001  +6.5435456142E-003 +8.0118013441E+001  +4.2174628521E-001 -9.0064792237E+001 
3387919.900 +1.0907350276E-001 +1.4849532618E+002  +9.9953819670E-003 -9.0679015474E+001  +8.5341497716E-003 +1.3198713999E+002  +8.2429368560E-002 +1.4608162466E+002 
3513065.081 +1.4524210802E-001 +1.4523559852E+002  +3.5136178787E-003 -8.1132262100E+001  +1.4790333611E-002 -1.6431960529E+002  +6.5181489363E-002 +1.0964988755E+002 
3638210.263 +1.3506065438E-001 +1.2671744088E+002  +8.0667543981E-003 +9.0363779048E+001  +1.5982977504E-002 +6.9031764558E+001  +4.5897831185E-001 +1.1941134162E+002 
3763355.444 +1.5290755064E-001 +1.4789485227E+002  +4.7584235602E-003 -1.6407707061E+002  +3.0578542957E-003 -5.3380077848E+001  +4.0752105917E-001 +1.3505193557E+002 
3888500.626 +1.6160785578E-001 +1.4614000694E+002  +7.7729965946E-003 +1.4952052485E+002  +3.0309656362E-003 +1.7956843337E+002  +4.7219432986E-001 +9.4785182237E+001 
4013645.807 +1.9311726297E-001 +1.3801140602E+002  +8.4399874034E-003 +1.9858286751E+001  +1.7837277396E-002 +1.2619437169E+002  +4.1644700209E-001 +1.2397384167E+002 
4138790.989 +1.9004153418E-001 +1.4092439900E+002  +4.8991811370E-003 -2.7347032042E+001  +8.2347780754E-003 -8.4441712137E+001  +4.5363085179E-001 +1.4062642537E+002 
4263936.170 +1.8308803371E-001 +1.4802468536E+002  +4.4506406545E-003 -1.1870217970E+002  +4.3054065080E-003 +9.2387826273E+001  +3.0712855263E-001 +1.3758965474E+002 
4389081.352 +2.1280165178E-001 +1.4200315592E+002  +7.8857499858E-003 -1.7107219800E+002  +1.0343910331E-002 -2.2573928942E+001  +4.1208360445E-001 +1.2776853872E+002 
4514226.533 +2.5860029181E-001 +1.1961425588E+002  +3.0961611737E-002 +1.2831110439E+002  +5.7523125560E-003 +4.7702468601E+001  +9.2258673370E-001 +1.3815428526E+002 
4639371.715 +2.3653749418E-001 +1.2242416828E+002  +5.5168835526E-002 -1.1263121693E+002  +6.3578443687E-002 -6.3104574933E+001  +2.7391789910E+000 +8.4978959935E+001 
4764516.896 +3.2930233671E-001 +1.3298755512E+002  +8.8538573055E-002 -1.7098872111E+002  +2.0385243907E-001 -7.4998212002E+001  +1.0320242231E+001 +1.0518541874E+002 
4889662.078 +4.5288648566E-001 +1.4297019042E+002  +3.4285616798E-002 +6.4405687783E+001  +3.2679959746E-002 -2.4284452331E+001  +3.4334780900E+000 -1.4100563620E+002 
5014807.259 +4.0732276964E-001 +1.2656260012E+002  +5.6325987985E-002 -1.6780859187E+002  +2.9319572424E-002 -1.6048197981E+002  +2.8461606236E+000 -1.1027366998E+002 
5139952.441 +3.9807160750E-001 +1.2447695884E+002  +2.4024833727E-002 +1.6237588362E+002  +6.3845051567E-002 +1.5811671010E+002  +2.6889057236E+000 +6.5477305449E+001 
5265097.622 +3.9119875525E-001 +1.3457926887E+002  +4.5431424057E-003 +1.2464313528E+002  +4.7182020511E-003 +6.5701971127E+001  +2.1786549706E+000 +5.7485678441E+001 
5390242.804 +4.5276321583E-001 +1.2976346033E+002  +5.7075989536E-003 +1.0652894153E+002  +2.5537119086E-002 -1.6953153490E+002  +2.2718017001E+000 +1.5626426766E+002 
5515387.985 +4.4753359563E-001 +1.3637961372E+002  +2.9467640259E-002 -1.4728217272E+002  +5.5241051861E-003 +1.6884889276E+002  +2.5502651749E+000 +8.6806923857E+001 
5640533.166 +3.8927448243E-001 +1.1752437340E+002  +5.9065274450E-002 +9.3915357807E+001  +3.0434650552E-002 -1.2802698261E+002  +4.4958695209E+000 +1.1122447454E+002 
5765678.348 +5.1074477498E-001 +1.1429689840E+002  +3.5544030371E-002 -1.6198778279E+000  +2.8012076936E-002 +3.1134941888E+001  +2.1369296997E+000 +9.2529729029E+001 
5890823.529 +5.5979594896E-001 +1.1970447799E+002  +1.4077601294E-002 +1.0963854722E+002  +2.6195289402E-002 -1.7482269615E+002  +2.5323828601E+000 +7.2086009152E+001 
6015968.711 +6.3557128071E-001 +1.1746699137E+002  +5.3309107792E-003 -6.4776857395E+001  +6.9172877018E-003 +1.1148983936E+002  +2.0490668006E+000 +7.4764062024E+001 
6141113.892 +8.3204443196E-001 +1.1254755126E+002  +1.5464843376E-002 +4.7241140578E+000  +4.3465598536E-002 +1.7228062259E+002  +2.1756556899E+000 +4.1994773890E+001 
6266259.074 +8.5179159758E-001 +1.0471434198E+002  +2.2243113249E-002 +1.4448985174E+002  +2.0339692279E-002 +1.0254490295E+002  +1.6495482650E+000 +2.9397334415E+001 
6391404.255 +1.0460613250E+000 +8.2255780362E+001  +4.5029898709E-002 -1.6241904243E+002  +1.5995960991E-002 +2.1126056760E+001  +1.8024428872E+000 +3.1142458294E+001 
6516549.437 +1.1725573937E+000 +8.0861960347E+001  +1.5644530602E-002 -1.4133163048E+002  +1.7286709880E-002 +1.3386632192E+002  +1.7114077548E+000 +9.5383072860E+000 
6641694.618 +1.5398299648E+000 +3.1121466869E+001  +4.3600017383E-002 +1.1038429381E+002  +3.8129189709E-002 +1.3374611997E+002  +1.2620315420E+000 -4.1403937782E+000 
6766839.800 +2.2169961396E+000 +5.6629579736E+001  +2.2510651048E-002 +1.3925397640E+002  +2.6817779593E-002 -5.5987231666E+001  +1.2119244912E+000 +4.8614116834E+000 
6891984.981 +1.9392876095E+000 +2.3487146822E+001  +2.2537697688E-002 +3.2461190932E+001  +3.0319748123E-002 +1.5193949337E+002  +1.5782354839E+000 -2.6985884959E+000 
7017130.163 +1.8478590606E+000 +2.6377536877E+001  +1.2365090825E-002 +1.2774993234E+002  +1.2074921897E-002 +6.2103376148E+001  +1.3249007955E+000 -7.2068914923E+000 
7142275.344 +1.9202777882E+000 +6.4336845376E+000  +1.3613850292E-002 -1.4189834439E+002  +1.9173786295E-002 +1.3868535426E+002  +1.3414627715E+000 -8.9007122211E+000 
7267420.526 +1.7546170044E+000 -1.0858661486E+000  +2.3842917210E-002 +8.5736160285E+001  +1.3675980876E-002 -1.1678345825E+002  +1.2330863749E+000 -1.0108493362E+001 
7392565.707 +1.3956603124E+000 -1.3258064414E+000  +1.3679890757E-002 +2.5399479707E+001  +6.4675494320E-003 +4.7381435934E+001  +1.3607557697E+000 -6.6439996298E+000 
7517710.889 +1.2184961194E+000 -9.9372157529E-001  +1.2591766484E-002 +1.0538689587E+002  +8.0493328734E-004 -5.5930116874E+001  +1.1621895376E+000 -3.7560846360E+000 
7642856.070 +1.0354459200E+000 +4.5068924631E+000  +1.1020252344E-002 +4.3862987556E+001  +6.0667359807E-003 +4.0914140391E+001  +1.0978502601E+000 +4.2004125181E-002 
7768001.252 +9.5491789998E-001 +1.0153989960E+001  +7.8057430780E-003 +1.6537888918E+002  +6.3755143905E-003 +5.7151483488E+001  +8.8024108756E-001 -4.0836532372E+000 
7893146.433 +9.4152047195E-001 +7.9782563758E+000  +5.3565747107E-003 +9.9294137397E+001  +1.1751792504E-002 +7.3418604824E+001  +9.9536528337E-001 -1.7010706585E+000 
8018291.615 +8.5932064639E-001 +7.1522372790E+000  +9.6996025917E-003 +1.1126415992E+001  +6.0815214242E-003 +1.0675624249E+002  +8.3254262755E-001 -9.6619749483E+000 
8143436.796 +7.0523895999E-001 +5.2158332606E+000  +2.8919454243E-003 -2.9552263646E+001  +2.4596505712E-003 +7.4796569500E+001  +7.8311755234E-001 -1.4304307875E+000 
8268581.977 +6.6188289359E-001 +1.0660135918E+001  +2.7757646928E-003 +6.8680919523E+001  +3.3521175274E-003 +1.2868824940E+002  +7.5355004616E-001 -1.3944211369E+000 
8393727.159 +7.6181635757E-001 +6.6164719620E+000  +1.8199850555E-003 +6.8644026488E+001  +2.0510907898E-003 +1.2070539427E+002  +7.1809879091E-001 +9.4063226900E-001 
8518872.340 +7.2408779452E-001 +6.7474601961E+000  +1.8973915276E-003 -9.7274304532E+000  +2.3564109041E-003 +1.4193828583E+002  +7.0476332923E-001 +1.1116977525E+000 
8644017.522 +6.8756194032E-001 +5.1327712620E+000  +3.4973330344E-003 +1.6620689357E+002  +4.7630519224E-003 +6.5803156272E+001  +8.0155484211E-001 +3.3115045070E+000 
8769162.703 +5.9953489987E-001 +1.1978901539E+001  +2.2886883067E-003 +8.7985297512E+001  +7.5716153251E-003 +1.2289294056E+002  +6.3106358147E-001 +3.3306945056E+000 
8894307.885 +6.7286326892E-001 +4.1247698674E+000  +6.0500823507E-003 +1.0170400640E+002  +8.8137365647E-003 +8.2808910560E+001  +6.5045693769E-001 +2.2747548424E+000 
9019453.066 +5.8535157226E-001 +2.8631085430E+000  +4.6268662919E-003 +8.9194989332E+001  +2.8556739275E-003 +5.1978012491E+001  +6.6215605971E-001 -3.2798921239E+000 
9144598.248 +5.8991430955E-001 +4.7751821335E+000  +1.4237555431E-003 +4.5690552731E+001  +3.9561960524E-003 +3.1031258577E+001  +6.1502476062E-001 +1.6201910716E-001 
9269743.429 +6.3668650417E-001 +7.3295065384E-001  +6.8250033788E-003 +7.5385213368E+001  +3.1334794806E-003 +1.0436639208E+002  +5.9612423978E-001 -3.0689034877E+000 
9394888.611 +5.5174009676E-001 +5.1197545487E+000  +4.8872449653E-003 +4.1205271920E+001  +3.4698076344E-003 +1.5406336459E+002  +6.2605458539E-001 +1.7502497431E-001 
9520033.792 +5.6867265701E-001 +2.0819568729E+000  +6.1080471560E-003 +1.0801266202E+002  +4.5116906225E-003 +1.0040325579E+002  +6.2571306710E-001 -2.7445296934E+000 
9645178.974 +5.6893542960E-001 +3.9380008433E+000  +7.1616552643E-003 +7.6552256273E+001  +3.2291665205E-003 +1.2753662374E+002  +5.9235413528E-001 -7.8858568856E-001 
9770324.155 +5.4359710274E-001 +3.1748837257E+000  +4.7900724444E-003 +4.9139735583E+001  +4.2168555619E-003 +5.7583320038E+001  +5.4596263167E-001 -1.7137416914E+000 
9895469.337 +4.8899125037E-001 +1.1504819329E+000  +6.1813265982E-003 +7.8910070003E+001  +3.9893553105E-003 +9.8166334305E+001  +6.0322197546E-001 -4.8433598835E+000 
10020614.518 +5.1463276788E-001 -3.2357613525E+000  +7.7874040355E-003 +7.5256683742E+001  +7.2928444641E-003 +6.1226100269E+001  +6.1643804574E-001 -5.8238504994E+000 
10145759.700 +5.5953153518E-001 +6.7964096717E-001  +4.3869183341E-003 +5.0572874332E+001  +6.0202197582E-003 +1.3143232161E+002  +5.8990088535E-001 -7.1603798810E+000 
10270904.881 +5.5070973795E-001 +1.4995553792E+000  +5.0710475452E-003 +1.3254959281E+002  +1.9615574054E-003 +1.2256700080E+002  +5.9767525761E-001 +1.0964165125E+000 
10396050.063 +5.2869266201E-001 +2.6001354926E+000  +5.0614535016E-003 +8.4653934797E+001  +4.1370021861E-003 +8.6321388683E+001  +5.8216483648E-001 +1.0964037136E+000 
10521195.244 +5.8420279041E-001 +4.6891028860E+000  +4.8909565844E-003 +1.3154568358E+002  +5.7417951037E-003 +9.9920761171E+001  +5.5560992027E-001 -3.0355783320E+000 
10646340.426 +5.6577635205E-001 +5.6531810976E+000  +5.7762824208E-003 +9.6412641342E+001  +4.1197145165E-003 +9.9933974707E+001  +5.4064562700E-001 -3.2220321721E+000 
10771485.607 +5.7591122193E-001 +7.1395052251E+000  +4.4149534624E-003 +8.6885008411E+001  +3.9619431903E-003 +8.9192382138E+001  +5.5559883557E-001 -1.3269311267E+000 
10896630.788 +5.7712341499E-001 +7.6386689961E+000  +4.8349135253E-003 +8.1988941610E+001  +5.6318491327E-003 +1.0374228847E+002  +6.1519205334E-001 +1.8102330663E+000 
11021775.970 +5.8684781826E-001 +5.8193018560E+000  +2.6119389022E-003 +9.3155439043E+001  +7.5528225198E-003 +1.0627861842E+002  +6.3027621680E-001 +2.9507433489E-001 
11146921.151 +5.5670359282E-001 +6.8171130078E+000  +5.3614391380E-003 +6.5932752854E+001  +5.2497268815E-003 +1.1077669766E+002  +6.1975906820E-001 +1.0801768863E+000 
11272066.333 +6.1791487569E-001 +2.9813427845E+000  +4.3431793510E-003 +5.7753949663E+001  +3.2075515005E-003 +1.2474604778E+002  +6.3341840145E-001 -1.2782033540E+000 
11397211.514 +6.3569948704E-001 +5.9781770847E+000  +4.2610602371E-003 +5.3666355380E+001  +3.8380308487E-003 +9.8401802988E+001  +6.2056199621E-001 -2.5318786661E-001 
11522356.696 +6.3409361028E-001 +4.4052397281E+000  +7.6207221530E-003 +7.5706677655E+001  +4.7837911762E-003 +7.3787133705E+001  +6.5610862049E-001 +9.9147052826E-001 
11647501.877 +6.2282904401E-001 +8.5769796966E+000  +4.6662894345E-003 +1.0661288268E+002  +4.5112588180E-003 +1.1886707607E+002  +6.5688524799E-001 +1.5685752591E+000 
11772647.059 +6.3880516596E-001 +4.6459855709E+000  +5.0814870633E-003 +1.0123590140E+002  +5.6369080103E-003 +1.2439603989E+002  +6.7056090802E-001 +1.4335568786E+000 
11897792.240 +6.4875531988E-001 +6.8548442921E+000  +7.8474205614E-003 +8.5349475842E+001  +5.5928346073E-003 +9.9060647737E+001  +6.9821453887E-001 +1.0593412560E+000 
12022937.422 +6.9697046513E-001 +4.1690178364E+000  +5.7508940259E-003 +1.0242944915E+002  +6.7285668170E-003 +9.9487383180E+001  +7.0874618342E-001 +1.5193716902E-001 
12148082.603 +6.9075307186E-001 +2.0114190314E+000  +4.7076179205E-003 +8.0866877984E+001  +7.3242510294E-003 +8.3308546303E+001  +6.7138013687E-001 +1.0774524270E+000 
12273227.785 +6.8241892483E-001 +4.7252081115E+000  +4.4184215547E-003 +1.0712767307E+002  +5.8593194581E-003 +8.5154229871E+001  +6.9483092553E-001 -4.9810720485E-001 
12398372.966 +7.0892035034E-001 +3.5095097533E+000  +5.7445624707E-003 +9.4029138649E+001  +5.1744741822E-003 +1.1866520074E+002  +7.2957187028E-001 +5.9086427567E-001 
12523518.148 +7.2332481473E-001 +2.8462697491E+000  +6.7598135288E-003 +9.8544659229E+001  +6.0351289008E-003 +9.7305628715E+001  +7.2656634819E-001 -3.6736545392E-001 
12648663.329 +7.3635637399E-001 +2.1612396856E+000  +5.6239820530E-003 +8.4823151083E+001  +5.0637564259E-003 +1.0432393228E+002  +7.6533969661E-001 -4.7450981739E-002 
12773808.511 +7.7392687680E-001 +1.4341561535E+000  +5.9561622207E-003 +7.8826184613E+001  +4.2749094582E-003 +1.1408805866E+002  +7.7250063499E-001 -1.3318206802E-001 
12898953.692 +7.5570064372E-001 +1.2294844263E+000  +5.3275454815E-003 +8.9158534378E+001  +6.3421552632E-003 +9.4368365784E+001  +7.8821364148E-001 -2.8710171942E+000 
13024098.874 +7.8987672925E-001 +5.4590552914E-001  +6.4651634901E-003 +9.6136352209E+001  +6.4086020793E-003 +7.4593622078E+001  +7.9717229373E-001 -3.9184008724E-001 
13149244.055 +7.9743525796E-001 +9.4834217206E-001  +5.6113879205E-003 +8.1290890461E+001  +5.6507043279E-003 +8.9794378131E+001  +8.0890090525E-001 -1.3321922472E+000 
13274389.237 +8.0078619963E-001 -2.1298192229E+000  +5.7897459699E-003 +8.4679966457E+001  +6.7524556079E-003 +9.9427364608E+001  +8.2950323959E-001 +2.9704135102E-001 
13399534.418 +8.4340199314E-001 -1.9889068249E+000  +7.6564654616E-003 +9.9067719993E+001  +6.9353554038E-003 +8.8560493604E+001  +8.6030627928E-001 -3.6872605973E+000 
13524679.599 +8.6929360784E-001 -3.3473072806E+000  +5.5504454253E-003 +9.6150947805E+001  +8.3097768446E-003 +9.3578389645E+001  +8.6247563166E-001 -2.0922992232E+000 
13649824.781 +8.6708852134E-001 -1.4647401835E+000  +7.6590504614E-003 +7.8548720274E+001  +7.1380660405E-003 +9.6899728172E+001  +8.8146955127E-001 -1.6367922829E+000 
13774969.962 +8.7634117720E-001 -3.2080498650E+000  +7.6512990869E-003 +8.7109293221E+001  +7.2104644227E-003 +9.2647639296E+001  +8.7499299980E-001 -2.2527669321E+000 
13900115.144 +8.9458273098E-001 -4.1305039870E+000  +8.3248993554E-003 +9.2595864442E+001  +6.7882829917E-003 +1.0259496964E+002  +9.1425787311E-001 -2.3552652559E+000 
14025260.325 +9.1639589251E-001 -3.3150480941E+000  +9.2311349478E-003 +8.6616697929E+001  +8.0714341231E-003 +9.4400747294E+001  +9.4912340745E-001 -4.9845411378E+000 
14150405.507 +9.3967217926E-001 -5.1065040814E+000  +7.8856043375E-003 +9.4094794045E+001  +7.4161748839E-003 +9.1558083886E+001  +9.5133862026E-001 -4.1116486574E+000 
14275550.688 +9.5713603917E-001 -5.8143909155E+000  +7.8407567155E-003 +8.7345115109E+001  +9.6316265729E-003 +9.0095229341E+001  +9.6180502842E-001 -4.3831076026E+000 
14400695.870 +9.7225549855E-001 -5.5892303731E+000  +7.4952524504E-003 +9.2433027522E+001  +5.8150738419E-003 +9.8161431617E+001  +9.9017519908E-001 -5.1098397444E+000 
