!  2-Port S-parameters saved by WinCal
! VAR MeasName=S-Parameters (CALIBRATED_DATA) read from VNA (P5004A)
! VAR MeasDate=27/08/2024 12:32:28
! VAR NAME=S2_r4c9_pristine_9k-100M_2
! VAR FILENAME=S2_r4c9_pristine_9k-100M_2.S2P
! VAR DATE=27/08/2024 12:32:28
! VAR PHYS_PORTS=1,2
! VAR ObjTypeName=DATASET
! VAR IndexType=Frequency
!
# Hz S MA R 50
9000.000 +3.4250809895E-002 -7.6958268624E+001  +4.3440786043E-002 +7.4131581378E+001  +3.1513099263E-002 +1.0297132190E+002  +3.6529915788E-001 -1.3354951523E+002 
134145.181 +1.1080846634E-001 +1.6944597929E+002  +7.7783910621E-004 +9.1187099268E+001  +6.5589244285E-004 +1.7050306532E+002  +2.4219640099E-001 -1.7021284382E+002 
259290.363 +1.1126579391E-001 +1.6950660230E+002  +2.9538583495E-004 -7.8520569569E+001  +5.2443451454E-004 -4.3821972402E+001  +2.4705318000E-001 -1.6822811939E+002 
384435.544 +1.1382916677E-001 +1.7044887409E+002  +6.8525835314E-004 -1.5362256769E+002  +8.6109590581E-004 +8.0610200219E+001  +2.4725023609E-001 -1.6856258161E+002 
509580.726 +1.1372290174E-001 +1.7074220702E+002  +7.2721379863E-004 -1.6077391795E+002  +1.7765476514E-004 -6.7201410910E+000  +2.4512375681E-001 -1.6738541234E+002 
634725.907 +1.1649372389E-001 +1.7036022942E+002  +1.4720505960E-004 -1.1745347038E+002  +1.1634026588E-003 +6.5133944270E+000  +2.4317843265E-001 -1.6657837953E+002 
759871.089 +1.1867764416E-001 +1.7039817487E+002  +4.5943831492E-004 -1.1045384219E+002  +4.4245628398E-004 +3.4613050107E+001  +2.3786233580E-001 -1.6442513525E+002 
885016.270 +1.1694287947E-001 +1.6987402415E+002  +8.2388839363E-004 +1.6691477835E+002  +1.4565139765E-004 +1.5432572528E+002  +2.4224726411E-001 -1.6269104485E+002 
1010161.452 +1.1660927822E-001 +1.7076508666E+002  +1.9986130268E-003 -1.3464537455E+002  +1.6925629097E-003 +1.6474481061E+002  +1.4725805492E-001 -1.4622871768E+002 
1135306.633 +1.1265876640E-001 +1.6970957290E+002  +1.0979678828E-002 +8.4618941343E+001  +1.2473013540E-002 -3.4579703752E+001  +1.2218358455E-001 -7.7468414154E+000 
1260451.815 +1.1676812703E-001 +1.6865460684E+002  +2.3674533287E-003 +1.4114181515E+002  +1.9293797829E-003 -4.6080484614E+001  +2.3511330836E-001 -1.5993312349E+002 
1385596.996 +1.2756119442E-001 +1.7222935607E+002  +7.1338871369E-004 +2.6524299266E+001  +2.4835168793E-004 +2.0621990532E+001  +2.7212680379E-001 -1.6026978603E+002 
1510742.178 +1.2789372655E-001 +1.7188803518E+002  +5.3447474073E-004 +7.7815593959E+001  +8.8207867656E-005 +6.0307660763E+001  +2.5849014644E-001 -1.5852378612E+002 
1635887.359 +1.2420285919E-001 +1.7024805553E+002  +4.1116608998E-004 -1.7893004121E+002  +1.0317996776E-003 -1.7451419389E+002  +2.4764355985E-001 -1.5262259463E+002 
1761032.541 +1.2422806029E-001 +1.6948679174E+002  +1.1774747805E-003 +1.2152757263E+001  +2.1982820237E-003 +5.6356982456E+001  +2.1497398143E-001 -1.5107989909E+002 
1886177.722 +1.3216890314E-001 +1.6874622419E+002  +1.0795772276E-003 -3.0079201235E+001  +1.3675785955E-003 +2.5660448166E+001  +1.9245441227E-001 -1.6807257971E+002 
2011322.904 +1.2345220842E-001 +1.6592124954E+002  +6.0056838808E-003 +7.5611802526E+001  +9.3918193157E-003 -3.3821628899E+001  +1.1476530686E-001 +1.6143553814E+002 
2136468.085 +1.3256870698E-001 +1.6035845007E+002  +8.9814837949E-005 +1.6831290450E+002  +2.2602850741E-003 -1.0701687874E+001  +1.8495575115E-001 -1.6851180592E+002 
2261613.267 +1.3556505759E-001 +1.6336468230E+002  +2.7683382300E-003 -4.9577036817E+001  +2.2833777588E-003 -1.7152826783E+002  +1.9078032451E-001 -1.7714378649E+002 
2386758.448 +1.3917703739E-001 +1.5643786521E+002  +1.0225343584E-002 -1.4661338647E+002  +5.2482566664E-003 -3.1846971870E+001  +2.3598617394E-001 +1.4360213904E+002 
2511903.630 +1.3371394635E-001 +1.6076418240E+002  +2.0370139877E-003 -5.8759435111E+001  +4.4260746855E-003 +1.3174392450E+002  +1.9324165632E-001 +1.5564929332E+002 
2637048.811 +9.9213776660E-002 +1.5731840722E+002  +4.1355791703E-003 +1.6184644958E+002  +1.1240334446E-002 -1.5447516902E+002  +1.2489709419E-001 +1.6108184568E+002 
2762193.992 +1.0486288007E-001 -1.7115923798E+002  +4.3060148370E-002 -1.3134752903E+001  +6.9088544408E-002 -1.1013926821E+002  +1.6480508307E+000 -1.4076877041E+002 
2887339.174 +1.2003251507E-001 -1.7715538136E+002  +4.3461982762E-003 +9.4245675875E+000  +2.5796168358E-003 +6.1314672108E+001  +5.2649397166E-001 -1.3776286111E+002 
3012484.355 +1.1247249766E-001 +1.6226801785E+002  +4.0352756275E-003 +1.0818088134E+002  +5.6241858687E-003 -2.7356428009E+000  +4.4150160334E-001 -1.1916318288E+002 
3137629.537 +1.3938159289E-001 +1.7852666308E+002  +8.6627713997E-004 -1.7115455542E+002  +3.6133987219E-003 -1.9580202955E+001  +2.4030043352E-001 -6.1046744556E+001 
3262774.718 +1.0181835509E-001 +1.6570830967E+002  +2.2583460808E-002 +2.5841833892E+001  +2.6355772597E-002 -9.7620902940E+001  +2.4608556593E-001 +6.6418958220E+001 
3387919.900 +1.3633370553E-001 +1.5631872187E+002  +5.7696994622E-003 +1.0211376017E+002  +7.5720392174E-003 -2.4796401218E+001  +1.6767311914E-001 -9.3344205215E+001 
3513065.081 +1.2020425475E-001 +1.4756001652E+002  +4.2366395384E-003 +1.3808362869E+002  +1.0601194940E-002 +1.7622571054E+002  +2.6035623317E-001 +8.8244869991E+001 
3638210.263 +1.8046679430E-001 +1.3301019140E+002  +3.1497859076E-003 +1.1672077069E+002  +2.9977085317E-003 +1.6332834474E+002  +2.2411846876E-001 +1.3297578189E+002 
3763355.444 +1.8500220159E-001 +1.4583098048E+002  +1.6097872957E-002 -1.3785683792E+002  +2.0225188976E-002 +1.0162907330E+002  +5.3060428219E-001 +2.1309259162E+001 
3888500.626 +9.4195977897E-002 +1.0451787354E+002  +4.3698228653E-003 -7.9503111691E+001  +8.1771710265E-003 -1.3887940719E+001  +2.3566341792E-001 +1.3347364308E+002 
4013645.807 +1.9077754795E-001 +1.5123671753E+002  +3.0549365043E-003 -1.1934551258E+002  +5.3808473846E-003 +1.1668491199E+002  +4.6570942971E-001 +1.3323385306E+002 
4138790.989 +1.7908383715E-001 +1.4246641620E+002  +3.0060375406E-002 +1.6445277935E+002  +1.0353627863E-002 +1.1482678608E+002  +5.1769963294E-001 +6.4396714365E+001 
4263936.170 +1.8442924387E-001 +1.4721346299E+002  +1.7200742598E-002 -1.2201929137E+002  +6.8770175859E-003 +8.1666079241E+001  +4.0342556518E-001 +1.0194378411E+002 
4389081.352 +2.1288299176E-001 +1.2535277907E+002  +8.6399670810E-003 +1.4033705997E+002  +3.3943023935E-003 -5.6261480399E+001  +6.3566158333E-001 +1.2800941001E+002 
4514226.533 +2.4849091093E-001 +1.3006405856E+002  +5.8484229708E-003 -1.6466795561E+002  +5.7095236427E-003 -1.6123713537E+002  +1.2273599411E+000 +7.1260625033E+001 
4639371.715 +2.6534095980E-001 +1.3045523609E+002  +8.9158470173E-003 +7.0516472973E+001  +1.7078566910E-002 -1.0785414902E+002  +2.9554993405E+000 +9.8533377185E+001 
4764516.896 +3.8713581920E-001 +1.2022283905E+002  +2.0438041943E-002 -1.0631854155E+002  +7.5703574060E-002 +1.3669649277E+002  +2.2719232920E+000 +9.4488935881E+001 
4889662.078 +4.2997412304E-001 +1.3723317962E+002  +2.9311239054E-002 +9.2775490284E+001  +3.4802700487E-002 +3.7700003194E+001  +2.2198804057E+000 -3.9980441462E+001 
5014807.259 +3.8196733713E-001 +1.2923067820E+002  +8.0329438705E-003 -2.5086053607E+001  +6.4813691719E-003 -1.0936961734E+002  +3.5068087837E+000 -1.2510862319E+002 
5139952.441 +4.3909736288E-001 +1.2509056379E+002  +1.4919208944E-002 +2.2366656533E+001  +4.9840473555E-002 +1.0096869696E+002  +2.7485588169E+000 +8.1025871300E+001 
5265097.622 +3.5373806968E-001 +1.2401607779E+002  +9.5001974200E-003 -4.8235276771E+001  +2.3094819762E-002 +1.7956402417E+002  +2.0582904745E+000 +7.7525195747E+001 
5390242.804 +4.2294214944E-001 +1.2418321825E+002  +3.3509272908E-002 +8.8018458821E+000  +4.6789712436E-002 -1.0729853696E+002  +1.4471397288E+000 +8.7860323621E+001 
5515387.985 +4.4406512336E-001 +1.2777807765E+002  +1.0169066950E-002 +1.3897293660E+002  +3.5041833949E-002 +4.2296648539E+001  +3.3616036523E+000 +5.8077393273E+001 
5640533.166 +5.3923249995E-001 +1.2252972351E+002  +3.9140046916E-002 -1.0006978585E+002  +4.2552458911E-002 -1.0284655668E+002  +5.2504582206E+000 +8.3207646444E+001 
5765678.348 +5.1081396678E-001 +1.2764828982E+002  +3.0569202063E-002 -2.6732777708E+001  +3.7888834435E-002 +1.7119021520E+002  +3.7412130975E+000 +8.4343245480E+001 
5890823.529 +5.8133913025E-001 +1.1301191882E+002  +2.7646312573E-004 +1.7965755148E+002  +2.5310030423E-002 +1.4710135314E+002  +1.5558398146E+000 +5.1781731829E+001 
6015968.711 +6.9856911502E-001 +1.0971180287E+002  +3.4506537841E-002 -6.4011672918E+001  +2.9082043102E-002 +1.6339699800E+002  +2.1315860121E+000 +3.4949254013E+001 
6141113.892 +7.4259870294E-001 +1.1113200857E+002  +1.4835971189E-002 +1.6012017693E+002  +1.6153355527E-002 -1.6093819740E+002  +1.4232785224E+000 +3.3281466860E+001 
6266259.074 +9.0625548881E-001 +1.0077135672E+002  +2.3979082356E-002 +1.1458198171E+002  +2.1266987427E-002 +1.5764957019E+002  +1.4540842281E+000 +3.2777327100E+001 
6391404.255 +1.1955575927E+000 +1.0313225737E+002  +1.0510207089E-002 -1.2260045244E+002  +2.9330601798E-002 +1.5817017195E+002  +2.1291596120E+000 +2.1208825321E+001 
6516549.437 +1.9506522363E+000 +6.8273584497E+001  +1.5108570342E-002 -1.5554155859E+002  +4.2724669752E-002 +7.6570869681E+001  +1.3194569894E+000 +8.4358296972E+000 
6641694.618 +1.2320108472E+000 +7.4349006603E+001  +1.9911922763E-002 +1.4273940590E+002  +6.9695859369E-003 +1.4655333217E+002  +1.4455910075E+000 -3.0678764070E+000 
6766839.800 +1.6739875825E+000 +5.1798924717E+001  +2.6407949256E-002 +6.2680808135E+001  +1.6597042798E-002 +8.8371140645E+001  +1.1810268028E+000 -7.4762433750E+000 
6891984.981 +1.7341521703E+000 +2.6100889832E+001  +3.5563223066E-002 -9.2543908441E+001  +1.0472635016E-002 +1.2039256147E+002  +1.0356818833E+000 -1.1791763859E+001 
7017130.163 +2.2368378077E+000 +2.4435807674E+001  +1.9193399612E-002 +3.1041742524E+001  +1.2978565459E-002 +3.9292397424E+000  +1.2784357817E+000 -1.2756833457E+001 
7142275.344 +1.7222616956E+000 +9.4363813193E+000  +7.8757444184E-003 -6.3532264168E+001  +3.8615452022E-003 -4.6727196471E+001  +1.3241594571E+000 -8.8365470377E+000 
7267420.526 +1.7607414987E+000 +3.8597335517E+000  +6.2394442518E-003 +1.0306083265E+001  +2.2195996329E-002 +1.6808849626E+002  +1.2845458093E+000 -1.0577089099E+001 
7392565.707 +1.2838068370E+000 -9.5256278556E-001  +1.4353929128E-002 +1.0755417240E+002  +4.7264910407E-003 -1.5835679606E+002  +1.3215616712E+000 -8.9135233903E+000 
7517710.889 +1.1414982557E+000 -2.5578460558E+000  +1.8758162076E-003 -6.0667327001E+001  +6.7708605483E-003 +1.3700847543E+002  +1.1931878519E+000 -4.5980265795E+000 
7642856.070 +1.0913874728E+000 +3.5397901497E+000  +5.7839508145E-003 +9.2202464887E+001  +1.3426281206E-002 +1.4365919633E+002  +1.1385926407E+000 -7.4739623343E+000 
7768001.252 +1.0608002207E+000 +4.4469772407E+000  +7.4014894241E-003 +2.9087688629E+001  +1.2962165037E-002 +1.3874063852E+002  +1.0105918195E+000 -2.3531329376E+000 
7893146.433 +8.9858078557E-001 +4.3380456782E+000  +4.0102638830E-003 -1.3705376256E+002  +7.6651464588E-003 +5.0312446122E+001  +8.9867609623E-001 -3.7444970820E+000 
8018291.615 +8.0701217018E-001 -3.8561375381E+000  +8.8068943419E-003 +1.9917660918E+001  +3.8792031636E-003 +5.4313480867E+001  +9.4057472830E-001 -7.1461726845E-001 
8143436.796 +7.3499072442E-001 +3.0661936499E+000  +3.0948146714E-003 +1.2567550564E+002  +3.1484461345E-003 +3.2825437982E+001  +7.7153714491E-001 +2.9468123638E+000 
8268581.977 +7.0502532409E-001 +3.3234409311E+000  +3.5307333337E-003 +1.4426011769E+002  +8.9433652759E-003 +1.1066044972E+002  +6.7303464155E-001 -3.3978324164E-001 
8393727.159 +8.1230034500E-001 +5.6084678127E+000  +7.3787189624E-003 +7.6204223851E+001  +6.5915442946E-003 +1.0243787296E+002  +7.2121461658E-001 +1.3899710451E+000 
8518872.340 +6.9363579879E-001 +5.5667303713E+000  +6.9987596743E-003 +6.7484629191E+001  +5.5463793097E-003 +2.9262732410E+001  +6.9911055568E-001 -2.5083035500E+000 
8644017.522 +6.2609268292E-001 +2.7800234215E+000  +3.1190584854E-003 +1.1210181992E+001  +5.1509881387E-003 +4.5308357832E+001  +6.7365791282E-001 -2.5666610417E+000 
8769162.703 +6.6667924998E-001 +4.1709534899E+000  +5.7981396730E-003 +1.0874850273E+002  +3.9842459541E-003 +5.8309775598E+001  +6.6250170915E-001 -1.4389861900E+000 
8894307.885 +6.1536748468E-001 +4.5099829505E+000  +3.5629309027E-003 +6.7308573319E+001  +6.1093050536E-003 +8.7363199728E+001  +6.9228012568E-001 -3.8165097571E+000 
9019453.066 +5.7339500582E-001 -3.0617320484E+000  +4.0052215738E-003 +4.3911898105E+001  +5.9340948881E-003 +6.7538222777E+001  +6.3631846494E-001 -6.9982581072E-001 
9144598.248 +6.1645556513E-001 +6.4321467211E+000  +5.5721892804E-003 +7.4709114242E+001  +4.7812957764E-003 +9.4734605496E+001  +6.1632970431E-001 -4.5257297178E-001 
9269743.429 +5.4350262718E-001 -1.1997430218E+000  +5.8918243269E-003 +8.4958994129E+001  +4.0654193792E-003 +4.8340393715E+001  +5.9433066205E-001 -2.7285874345E+000 
9394888.611 +5.5986834029E-001 +5.2839308276E+000  +4.8670277070E-003 +9.0211804969E+001  +4.5247247158E-003 +5.7045478098E+001  +6.1804185969E-001 -1.4307636711E+000 
9520033.792 +6.1332850323E-001 -1.0365240978E+000  +5.8325364276E-003 +8.3966969963E+001  +3.6684756636E-003 +7.7049637518E+001  +5.8079978969E-001 +4.2536061865E-001 
9645178.974 +5.5284719027E-001 -2.4198967702E-001  +2.8187632486E-003 +6.6117179638E+001  +4.0783978025E-003 +1.0447472080E+002  +6.1581978758E-001 -7.2808182184E+000 
9770324.155 +5.4335946144E-001 -3.9990835327E-001  +1.8979130083E-003 +5.3595059798E+001  +1.8294336919E-003 +8.6978461362E+001  +6.3069344425E-001 -4.1256959591E+000 
9895469.337 +5.6813215554E-001 +3.3542339337E+000  +4.1358863957E-003 +9.2583202929E+001  +2.5883213823E-003 +8.1753819566E+001  +5.9265816876E-001 -6.9679328752E+000 
10020614.518 +5.3561385131E-001 +6.4190831791E+000  +4.1993036223E-003 +7.2684887094E+001  +4.9706089008E-003 +5.1496884849E+001  +5.8509996155E-001 -6.5206189168E+000 
10145759.700 +5.2778108660E-001 +1.7456251528E+000  +9.4309550896E-003 +6.9273066671E+001  +4.0090127740E-003 +1.0647778478E+002  +5.9537096739E-001 -7.1559618672E+000 
10270904.881 +5.5733939903E-001 +4.9340853736E+000  +4.4811282158E-003 +1.3735673712E+002  +4.9906768725E-003 +8.7776815013E+001  +5.7353554919E-001 -1.9444836483E+000 
10396050.063 +5.6088001454E-001 +3.5771061486E+000  +5.1369740320E-003 +9.5838007312E+001  +4.6337300203E-003 +1.0394991666E+002  +6.1154680011E-001 -1.9822579688E+000 
10521195.244 +5.4956600248E-001 +5.2075306936E+000  +4.7252495891E-003 +9.9096219780E+001  +3.3595397859E-003 +9.0567395436E+001  +5.6954407531E-001 -1.1763822576E+000 
10646340.426 +5.8865079014E-001 +7.4738005952E+000  +5.3689577766E-003 +7.7822643425E+001  +5.6934652728E-003 +8.8811676130E+001  +5.9215091974E-001 -2.2638591870E+000 
10771485.607 +5.4962035446E-001 +2.6659962529E+000  +2.7216154391E-003 +8.7598613873E+001  +3.2488910603E-003 +1.1046313070E+002  +6.1856812973E-001 -6.2240640158E-002 
10896630.788 +5.9336745444E-001 +7.2298504182E+000  +3.9253387809E-003 +1.1816096438E+002  +4.0357697499E-003 +1.3159441120E+002  +6.1527274432E-001 -2.0837343081E+000 
11021775.970 +5.8142277171E-001 +4.8550317848E+000  +3.5440547916E-003 +1.0039785071E+002  +6.8814377117E-003 +8.5912196259E+001  +6.3584249742E-001 +3.0878694265E-001 
11146921.151 +5.5926029361E-001 +6.4247785170E+000  +4.2651706093E-003 +1.1287017727E+002  +6.2100254419E-003 +1.0298702763E+002  +6.3434141829E-001 +2.5623792395E+000 
11272066.333 +6.0752644151E-001 +5.0022185934E+000  +4.7711315920E-003 +7.2090125674E+001  +2.4433988682E-003 +1.1763663173E+002  +6.0973433869E-001 +2.0655418882E+000 
11397211.514 +6.0436300236E-001 +4.3019751396E+000  +4.8601913650E-003 +8.1542479622E+001  +5.2804248846E-003 +9.1601617785E+001  +6.4014938304E-001 -6.1489213352E-001 
11522356.696 +6.2783891718E-001 +6.4484780932E+000  +5.0550937430E-003 +6.3618677329E+001  +6.2245788248E-003 +9.1651901850E+001  +6.4138935467E-001 +1.0951833428E+000 
11647501.877 +6.4004155712E-001 +7.2021795957E+000  +4.5346976824E-003 +8.5999461713E+001  +5.1124968240E-003 +1.0999124616E+002  +6.8240618318E-001 +1.2806879455E+000 
11772647.059 +6.3984856242E-001 +2.4877723939E+000  +4.8920550735E-003 +1.0448487244E+002  +3.5475719397E-003 +1.2511459578E+002  +6.5871644424E-001 +2.7626240814E+000 
11897792.240 +6.2882887029E-001 +5.1366490676E+000  +5.2814527641E-003 +9.8022310769E+001  +5.4586563464E-003 +1.1437158366E+002  +6.7831026350E-001 +1.7496695716E+000 
12022937.422 +6.6976174357E-001 +2.9802431550E+000  +6.6136896374E-003 +9.8348438264E+001  +4.2303350218E-003 +1.2712420588E+002  +6.6186747041E-001 +9.7675096328E-001 
12148082.603 +6.9336995279E-001 +2.8287374002E+000  +6.5550964868E-003 +8.0751117841E+001  +3.5775175975E-003 +7.7932465448E+001  +7.0164627813E-001 +6.3816203468E-001 
12273227.785 +7.1428489695E-001 +4.1350967355E+000  +5.8769823880E-003 +9.7682124328E+001  +3.1148793781E-003 +1.1398266062E+002  +6.8018050711E-001 -1.3985251173E+000 
12398372.966 +6.8510467023E-001 +2.6309805351E+000  +6.5384907706E-003 +1.0396070187E+002  +5.6852267947E-003 +1.0928004403E+002  +7.1492250942E-001 +2.0842979305E-001 
12523518.148 +7.2998945057E-001 +2.8460904586E+000  +4.1670527447E-003 +9.0292525042E+001  +4.3878860294E-003 +1.1060547823E+002  +7.3815312133E-001 +2.1643465985E-001 
12648663.329 +7.5644605978E-001 +3.9672572587E+000  +7.0373829254E-003 +8.0525977023E+001  +6.5962374596E-003 +9.3297356770E+001  +7.4595563777E-001 +7.2606776956E-001 
12773808.511 +7.2879325347E-001 +2.5452818241E+000  +8.4854262615E-003 +9.1976217897E+001  +7.1080491047E-003 +8.9878675750E+001  +7.6313054639E-001 -2.0903666918E+000 
12898953.692 +7.6957655361E-001 +1.8234540758E+000  +6.7445193224E-003 +1.0336482046E+002  +6.1630915025E-003 +9.5886688408E+001  +7.7494273856E-001 -2.0343822168E+000 
13024098.874 +8.0066112049E-001 +2.7080829864E+000  +6.1381300487E-003 +8.5817389847E+001  +6.2180013676E-003 +1.0619117904E+002  +7.9308911641E-001 -1.1590471962E+000 
13149244.055 +7.9648507242E-001 -2.1387775121E-001  +6.1107887450E-003 +9.2211038009E+001  +8.3297230990E-003 +1.0239461656E+002  +8.1392760560E-001 +1.2733665817E+000 
13274389.237 +8.0512289481E-001 +4.2480689126E-002  +7.0993740758E-003 +9.1383087710E+001  +4.5861801226E-003 +9.3160919936E+001  +8.1948900461E-001 -3.2127038974E+000 
13399534.418 +8.2888097019E-001 -1.8491918046E+000  +6.2895277036E-003 +8.0791836101E+001  +6.5563778645E-003 +9.3032519522E+001  +8.4063130555E-001 -1.2486490663E+000 
13524679.599 +8.5782932362E-001 -1.7484738902E+000  +7.7341094666E-003 +9.8746539023E+001  +7.0451044892E-003 +8.5624947087E+001  +8.4201098515E-001 -1.9395408584E+000 
13649824.781 +8.6731692369E-001 -1.6413613934E+000  +6.1728078321E-003 +7.9660602279E+001  +6.5987241310E-003 +9.3367349553E+001  +8.8231576499E-001 -3.5683752520E+000 
13774969.962 +8.8207486090E-001 -2.7309719393E+000  +6.6827242028E-003 +9.1476512414E+001  +6.3299123390E-003 +1.0522626295E+002  +9.0653985227E-001 -3.4456246313E+000 
13900115.144 +8.9702978044E-001 -3.4874258741E+000  +7.6286432078E-003 +9.4367632513E+001  +6.6670270748E-003 +9.1100857082E+001  +8.9888865253E-001 -4.2910476290E+000 
14025260.325 +9.3214724459E-001 -3.5634050390E+000  +5.7631485832E-003 +9.7446382765E+001  +6.9998280996E-003 +8.5511543281E+001  +9.2042964377E-001 -3.7111035378E+000 
14150405.507 +9.5063259665E-001 -4.7604315926E+000  +7.1629369578E-003 +7.9175629898E+001  +6.5592761731E-003 +8.3327125890E+001  +9.4833579407E-001 -4.7540474357E+000 
14275550.688 +9.5192533042E-001 -4.1537648978E+000  +7.2382859383E-003 +9.0992846344E+001  +6.8015717962E-003 +9.5739460557E+001  +9.9647108313E-001 -5.7675980629E+000 
14400695.870 +9.6952340992E-001 -4.5512181107E+000  +7.8829121454E-003 +9.8254556026E+001  +6.2220437725E-003 +8.4072751820E+001  +1.0012501746E+000 -4.7918747562E+000 
