!  2-Port S-parameters saved by WinCal
! VAR MeasName=S-Parameters (CALIBRATED_DATA) read from VNA (P5004A)
! VAR MeasDate=27/08/2024 15:01:22
! VAR NAME=S2_r3c8_SET1_9k-100M_2
! VAR FILENAME=S2_r3c8_SET1_9k-100M_2.S2P
! VAR DATE=27/08/2024 15:01:22
! VAR PHYS_PORTS=1,2
! VAR ObjTypeName=DATASET
! VAR IndexType=Frequency
!
# Hz S MA R 50
9000.000 +5.3420569238E-002 -1.4898643016E+002  +1.2470587555E-002 +1.1058460250E+002  +3.8956534821E-003 +1.0639450191E+002  +1.4678663307E-001 -5.8582685401E+001 
134145.181 +1.1063733354E-001 +1.6967115501E+002  +2.5774245637E-004 +1.9713845796E+001  +1.3889563269E-004 +6.4263878542E+000  +2.3725641422E-001 -1.7039630615E+002 
259290.363 +1.1221188631E-001 +1.7018862209E+002  +7.1713394147E-004 -6.2632199850E+000  +9.0149747043E-004 +6.7220756728E+001  +2.4431340446E-001 -1.6928954977E+002 
384435.544 +1.1286464674E-001 +1.7014007406E+002  +3.9681169758E-004 -1.7475771937E+002  +5.7430325541E-004 +2.5294042328E+001  +2.3866759707E-001 -1.6941267262E+002 
509580.726 +1.1479255793E-001 +1.7065409457E+002  +9.5478136322E-004 -7.1249273794E+001  +3.5883305091E-004 -5.3604515376E+001  +2.4128330047E-001 -1.6635727235E+002 
634725.907 +1.1433955661E-001 +1.7034151826E+002  +1.1417033154E-003 -2.6733946119E+001  +1.1373082081E-003 +4.9112289025E+001  +2.4928077024E-001 -1.6693491328E+002 
759871.089 +1.1871207964E-001 +1.7171824866E+002  +7.8483396359E-004 -1.7918417117E+002  +1.3925831279E-003 +4.1184563959E+000  +2.4908318603E-001 -1.6532929185E+002 
885016.270 +1.1594279374E-001 +1.6884694628E+002  +5.9218107981E-004 -8.0514657562E+001  +8.4714950885E-004 +1.6008813616E+002  +2.4013900368E-001 -1.6705823252E+002 
1010161.452 +1.2084889712E-001 +1.7277405093E+002  +3.2079299094E-004 +2.7105258687E+001  +1.1087851051E-003 -1.5736324855E+002  +1.8493585311E-001 -1.7501368262E+002 
1135306.633 +1.1217473391E-001 +1.7019303549E+002  +2.1711795112E-003 +1.6943423590E+002  +4.6792119986E-003 +1.5523906499E+002  +1.9045965344E-001 -1.5830414974E+002 
1260451.815 +1.2015463244E-001 +1.6936867678E+002  +1.2708427085E-003 +6.3578031525E+001  +2.2771032496E-003 -1.2517920816E+002  +2.6814840035E-001 -1.5562125805E+002 
1385596.996 +1.2445464554E-001 +1.7180686344E+002  +9.1279877784E-004 -1.6109347091E+002  +2.9555303131E-004 +1.0662826448E+002  +2.6194460938E-001 -1.5981422038E+002 
1510742.178 +1.2877702010E-001 +1.7159445694E+002  +4.0897701142E-004 -8.3845871061E+001  +1.6658487321E-004 +5.2365495310E+001  +2.5496029295E-001 -1.5828249895E+002 
1635887.359 +1.2841120943E-001 +1.7069131779E+002  +8.8046366411E-004 +1.6109836061E+002  +9.4560118830E-004 +7.7330968524E+001  +2.4661182271E-001 -1.5643788836E+002 
1761032.541 +1.3109365861E-001 +1.6997060094E+002  +1.0811318880E-003 +2.5051664498E+001  +2.8517440005E-004 +2.8291969523E+001  +2.2786945633E-001 -1.6069087517E+002 
1886177.722 +1.2944520153E-001 +1.6729433237E+002  +1.6092149161E-003 +1.5326071788E+002  +2.7770338935E-004 +4.4143327272E+001  +2.0921495640E-001 -1.6451463362E+002 
2011322.904 +1.2995777531E-001 +1.6692974961E+002  +1.5650551037E-003 +1.0319085378E+002  +3.3412613769E-003 -5.5318991838E+000  +1.9755187384E-001 -1.6016485869E+002 
2136468.085 +1.3500006579E-001 +1.6627549262E+002  +2.2740802869E-003 +3.4165920847E+001  +5.1204306842E-003 +4.7361452023E+001  +2.0456072182E-001 +1.6796352990E+002 
2261613.267 +1.3272391377E-001 +1.6602731902E+002  +1.7092274695E-003 +6.4251665359E+001  +2.9041137138E-003 -7.2563804826E+001  +1.6773959810E-001 -1.7826748854E+002 
2386758.448 +1.3911646277E-001 +1.6306318578E+002  +6.3767776913E-003 +9.8381645965E+001  +5.5553157480E-003 -1.8727198966E+001  +1.4195825167E-001 +1.5913831030E+002 
2511903.630 +1.4116046264E-001 +1.6090503153E+002  +6.8492100144E-003 +8.8590965084E+001  +5.1247513670E-003 +7.1461116557E+000  +2.2896463956E-001 +1.6901767440E+002 
2637048.811 +1.2000609144E-001 +1.5777799409E+002  +2.0581235718E-002 +1.3577141672E+002  +2.5080417259E-002 +2.6865754900E+001  +4.6535515816E-001 +1.3544636681E+002 
2762193.992 +1.1666333016E-001 +1.6990552133E+002  +2.8676446482E-002 +1.3381206261E+002  +2.4562696002E-002 +1.5388742728E+001  +6.8622873600E-001 +1.4015829068E+002 
2887339.174 +7.0648839995E-002 +1.6759463481E+002  +4.5124649086E-002 -1.1275528085E+002  +3.2993431531E-002 +1.4077267191E+002  +7.2163288246E-001 -1.1558847599E+002 
3012484.355 +9.8490849112E-002 +1.7964134040E+002  +1.8010741348E-002 -3.2575983806E+001  +1.7914053092E-002 -1.4392734234E+002  +4.4903024734E-001 -9.6903832102E+001 
3137629.537 +8.5443473694E-002 +1.7812594921E+002  +1.5972644941E-002 -4.2077533411E+001  +2.8628206316E-002 -1.4700797396E+002  +3.0720952601E-001 -6.3401446221E+001 
3262774.718 +1.1573699649E-001 +1.6429614414E+002  +1.5173465498E-002 +4.5302983140E+001  +1.4898384914E-002 -6.9168573144E+001  +7.5146543147E-002 -1.7586660406E+002 
3387919.900 +1.1915645634E-001 +1.5474456920E+002  +8.1807465238E-002 +9.2021763560E-001  +7.2624601834E-002 -7.5877379461E+001  +1.1224492947E+000 +1.9453290502E+001 
3513065.081 +1.5734424308E-001 +1.5497865394E+002  +1.9945155288E-002 +9.2055603019E+001  +1.7563429889E-002 +1.8057291837E+001  +3.5349044415E-001 +1.1102641894E+002 
3638210.263 +1.6787971077E-001 +1.3281404105E+002  +3.3967712638E-002 -1.7274758768E+002  +3.8639270365E-002 +7.5549796987E+001  +6.2092909498E-001 +1.4586142888E+002 
3763355.444 +1.8166692127E-001 +1.4800841692E+002  +2.7442595205E-002 +1.1989160824E+002  +3.8392072187E-002 +3.2314998104E+001  +7.3752586698E-001 +1.0615395378E+002 
3888500.626 +1.8951992143E-001 +1.4037437370E+002  +1.4340516236E-002 +9.3593986010E+001  +1.1227383483E-002 -1.2217008852E+001  +2.1949948267E-001 +1.6572158272E+002 
4013645.807 +2.0113071474E-001 +1.4900219687E+002  +2.3352045807E-002 +1.1178438429E+002  +1.5866535846E-002 -4.4296171747E-001  +3.5603855477E-001 +8.0496947579E+001 
4138790.989 +1.5568338135E-001 +1.4729584298E+002  +2.3571247460E-002 +7.5799618555E+001  +3.2172644635E-002 +1.1532422714E+001  +2.6684032554E-001 +1.1188141705E+002 
4263936.170 +1.5557089649E-001 +1.4582803046E+002  +1.9567024729E-002 +7.1204947963E+001  +2.2340875369E-002 +7.8070055379E-002  +3.5956072734E-001 +1.3004408586E+002 
4389081.352 +1.9239872298E-001 +1.4833164392E+002  +2.5822402451E-002 +6.9020797376E+001  +2.5276976645E-002 +1.6192038182E+001  +4.8574623465E-001 +9.2091688391E+001 
4514226.533 +2.3209777865E-001 +1.3795404674E+002  +2.7200890780E-002 +8.7937452208E+001  +3.8140179869E-002 +3.5939238883E+001  +4.5189903639E-001 +7.5843229135E+001 
4639371.715 +2.7050046923E-001 +1.2865737418E+002  +5.4673309809E-002 +9.9702115665E+001  +5.7493910780E-002 +5.9063544959E+001  +8.1887627274E-001 +9.8665738573E+001 
4764516.896 +3.7344909338E-001 +1.2903979629E+002  +4.8450855727E-001 -5.1826420888E+001  +5.3087261287E-001 -9.7644383672E+001  +7.7581568856E+000 -1.1956850283E+002 
4889662.078 +4.2436150394E-001 +1.1725683703E+002  +4.5448873891E-001 -4.2245864656E+001  +3.4805680829E-001 -9.8966208335E+001  +4.3999964309E+000 -1.1157618023E+002 
5014807.259 +4.6611755140E-001 +1.3717001822E+002  +1.7094595511E-001 +1.4539495842E+002  +1.8263014293E-001 +1.1431170966E+002  +4.2059275170E+000 +8.5357551127E+001 
5139952.441 +4.4816643429E-001 +1.3281635387E+002  +2.7394830417E-001 +1.5895154276E+002  +2.8976991849E-001 +1.0379747382E+002  +5.1251042471E+000 +1.1584046957E+002 
5265097.622 +4.4027820534E-001 +1.3027058934E+002  +9.6130852247E-002 +1.3749159557E+002  +9.3774960160E-002 +9.1883226001E+001  +1.8647064253E+000 +1.1952929637E+002 
5390242.804 +4.0377496113E-001 +1.3404403853E+002  +1.8162936416E-001 +1.3977292930E+002  +1.7260364174E-001 +9.9889411419E+001  +4.9136702203E+000 +1.1554906758E+002 
5515387.985 +4.6233162040E-001 +1.1696562581E+002  +1.7920810986E-001 +1.3351874277E+002  +1.6791896895E-001 +8.2714742986E+001  +2.7700872258E+000 +1.0442505554E+002 
5640533.166 +4.2970845403E-001 +1.2502117044E+002  +1.8464667888E-001 +1.0555223974E+002  +1.4296718989E-001 +6.5210450651E+001  +2.9484454614E+000 +8.4034643500E+001 
5765678.348 +4.5713038216E-001 +1.1238149359E+002  +1.5399093877E-001 +7.6290589953E+001  +1.4203508641E-001 +6.4264746875E+001  +2.7601170820E+000 +6.7379011202E+001 
5890823.529 +6.2756427497E-001 +1.1244917434E+002  +1.3335802283E-001 +6.8556369272E+001  +1.2194596514E-001 +4.5324537692E+001  +1.5497445034E+000 +5.2748496094E+001 
6015968.711 +5.3153808145E-001 +1.1645549015E+002  +7.7474389529E-002 +7.0986466723E+001  +1.1384116979E-001 +5.3803011888E+001  +2.2299736489E+000 +6.0171632398E+001 
6141113.892 +7.9078016973E-001 +1.1069212894E+002  +1.2897147433E-001 +7.5538244977E+001  +1.0928374312E-001 +5.7780510547E+001  +1.7166051417E+000 +4.8882557295E+001 
6266259.074 +8.4920728249E-001 +9.6222295853E+001  +1.6966248681E-001 +6.1629695400E+001  +1.4896593065E-001 +2.8230400585E+001  +1.7666828123E+000 +2.9485218699E+001 
6391404.255 +1.1032430473E+000 +1.0050482607E+002  +1.1265258224E-001 +5.6467919029E+001  +1.3982571486E-001 +3.9582012640E+001  +1.3328918873E+000 +2.6942510921E+001 
6516549.437 +1.1648069509E+000 +7.9303738467E+001  +1.6404350811E-001 +4.4116534839E+001  +1.3220654197E-001 +1.9186115138E+001  +1.7294370724E+000 +1.1053082882E+001 
6641694.618 +1.5532499780E+000 +7.2404071413E+001  +1.5448730165E-001 +3.6629025107E+001  +1.3436911566E-001 +1.7268854457E+001  +1.0249339558E+000 +5.5494742813E+000 
6766839.800 +1.9892915346E+000 +4.1797364641E+001  +2.0001286571E-001 +1.3142572146E+001  +1.7785153336E-001 +1.3906401885E+001  +1.3172250338E+000 -1.0604295893E+000 
6891984.981 +1.4041084049E+000 +1.4345998566E+001  +1.1477158265E-001 +3.5992319441E+000  +1.2675598117E-001 -9.4944883273E-001  +1.0413985739E+000 -1.6022757103E+001 
7017130.163 +1.5007923641E+000 +2.2530445776E+001  +1.3389883324E-001 +9.2104294150E+000  +1.2396319885E-001 -5.0586893446E+000  +1.1233015763E+000 -4.3600210436E+000 
7142275.344 +1.4863235619E+000 +1.1640293693E+001  +1.0965621513E-001 +2.5408074048E+000  +9.7684405013E-002 -6.0458077370E-001  +1.1962949885E+000 -1.3454015783E+001 
7267420.526 +1.3652990109E+000 +4.8102165764E+000  +8.6232050040E-002 +2.6963608356E+000  +8.8482451953E-002 +1.1512388087E+001  +1.3781304576E+000 -8.7697310911E+000 
7392565.707 +1.2187370762E+000 +6.0374854760E-001  +6.5071510538E-002 +4.0909741193E+000  +6.4126831220E-002 +1.4047077024E+001  +1.4228982422E+000 -2.8587980548E-001 
7517710.889 +1.0656434098E+000 +5.1409247902E+000  +6.7434751569E-002 +2.2817343199E+000  +5.8948231474E-002 +7.6014755783E+000  +1.1299711571E+000 -2.3890763663E+000 
7642856.070 +1.0176594504E+000 -5.0265213809E+000  +6.1353226104E-002 +4.0902814435E+000  +5.6571809203E-002 +9.4705615845E+000  +9.8602471555E-001 -2.7615821944E+000 
7768001.252 +9.7547962057E-001 +2.0171480773E+000  +5.5676737837E-002 +3.0991601645E+000  +6.4987207532E-002 +6.2793243170E+000  +1.0201912099E+000 -1.3979430392E+000 
7893146.433 +8.3787303631E-001 +8.9510338374E+000  +5.4856115396E-002 +6.6456850303E+000  +5.4600997332E-002 +1.0144799639E+001  +9.6784155664E-001 +6.7291137052E-001 
8018291.615 +7.0798380949E-001 +4.7055414362E+000  +5.2053615901E-002 +2.9419753487E+000  +5.3380254245E-002 -3.2313959908E-001  +8.2666384096E-001 +2.5017507662E+000 
8143436.796 +7.8113473538E-001 +1.0001856389E+001  +5.6111648370E-002 +4.6652414135E+000  +4.5695876864E-002 +1.4331213215E+001  +7.5474438451E-001 -4.5199833714E+000 
8268581.977 +7.2097274863E-001 +8.3046700859E+000  +5.0804466043E-002 +3.6584125862E+000  +5.0326024229E-002 +7.4103849398E+000  +7.4340483043E-001 -1.4424732184E+000 
8393727.159 +6.7662343824E-001 +2.6769286554E+000  +5.0806675655E-002 -4.1593141292E+000  +5.3000697554E-002 +1.2878013871E+001  +7.2848424383E-001 -5.6965059194E+000 
8518872.340 +6.2416837667E-001 +8.7114905665E+000  +4.9874154035E-002 +2.2943250730E+000  +5.1337859561E-002 +1.4055609242E+001  +6.7300888489E-001 +1.6398770605E+000 
8644017.522 +6.2074440284E-001 +1.3236788330E+001  +4.6441517274E-002 -1.9198515185E+000  +4.6477024114E-002 +1.6337358811E+001  +6.1013078991E-001 -2.3220207654E+000 
8769162.703 +6.2153046494E-001 +6.6098901791E+000  +4.5815604035E-002 -7.6022186986E-001  +4.3578706453E-002 +1.0918444635E+001  +6.4104907308E-001 -2.3014758793E-001 
8894307.885 +5.5644053649E-001 +8.4597704446E+000  +4.4683717106E-002 -4.0314112075E+000  +4.6013204287E-002 +1.4710026133E+001  +5.9196284186E-001 +1.3955978664E-001 
9019453.066 +4.8205414546E-001 +7.1664572008E+000  +4.7282476746E-002 -6.7577932061E+000  +4.6896806085E-002 +1.7502891735E+001  +5.8029279228E-001 +2.4110291818E+000 
9144598.248 +5.1207104329E-001 +3.8922310153E+000  +4.3696355081E-002 -5.3324798110E-001  +4.5752606228E-002 +8.6746417485E+000  +5.3853676871E-001 +3.4308982185E+000 
9269743.429 +5.5205514007E-001 +7.6852665432E+000  +4.5918789506E-002 +1.5631828670E+000  +4.3790796425E-002 +1.7927786843E+001  +5.4651221664E-001 -4.3695399810E+000 
9394888.611 +4.8191607082E-001 -3.2672456248E+000  +4.5051798330E-002 +4.4211072114E-001  +4.2943980290E-002 +1.2190410432E+001  +6.2948209520E-001 -2.0117225288E+000 
9520033.792 +5.1086152242E-001 -5.8129997539E-001  +4.7392856371E-002 -6.5479095777E+000  +4.6055635106E-002 +1.6476914662E+001  +5.4433577640E-001 +2.3049337608E-001 
9645178.974 +4.7255986294E-001 +1.6814727574E+000  +4.9345800807E-002 +3.8383423219E+000  +4.4764333856E-002 +1.3336734548E+001  +5.5993301477E-001 -2.1792290955E+000 
9770324.155 +4.9586788405E-001 +1.2464699100E+000  +4.6493238884E-002 +1.4553234407E+000  +4.6509921544E-002 +1.6906161934E+001  +5.5906031013E-001 -2.7465664511E+000 
9895469.337 +4.9826815024E-001 -1.1121849558E+000  +4.6579362132E-002 +1.4329732030E+000  +4.6274034591E-002 +1.4549025132E+001  +5.3404254331E-001 -3.2903430834E+000 
10020614.518 +4.8914040586E-001 +1.1629016859E+000  +4.6166638730E-002 +1.3143765439E+000  +4.7999901250E-002 +1.4339659911E+001  +5.2522343993E-001 -3.6270349130E+000 
10145759.700 +5.4063828333E-001 +5.8699143180E+000  +4.7289066693E-002 -2.7777638280E-001  +4.5109600994E-002 +1.6609068562E+001  +5.4514995794E-001 -4.3777974138E+000 
10270904.881 +4.9374192231E-001 +1.9621289191E+000  +4.6915235847E-002 +3.9983741648E+000  +4.6176864125E-002 +1.6368613841E+001  +5.1230255839E-001 +4.8872598607E-001 
10396050.063 +5.1502518667E-001 +4.1782174297E+000  +4.4824196125E-002 +3.5906848968E+000  +4.6195840488E-002 +1.4850048342E+001  +5.1831275739E-001 -1.8832828696E+000 
10521195.244 +5.0511815219E-001 +1.7769728131E+000  +4.4370688126E-002 +2.0495919526E+000  +4.7727228153E-002 +1.3593980295E+001  +5.3221111063E-001 -3.1978510198E+000 
10646340.426 +5.0192741162E-001 +4.0680506958E+000  +4.8032375635E-002 +3.3385825578E+000  +4.7222753750E-002 +1.7481177379E+001  +5.4499747992E-001 +1.1452238598E+000 
10771485.607 +5.4761924812E-001 +5.3542044857E+000  +4.8501285856E-002 +5.9130988690E+000  +4.6865776669E-002 +2.0373017890E+001  +5.7314439788E-001 +3.0359089154E+000 
10896630.788 +5.2576904815E-001 +7.6016051559E+000  +4.9554452849E-002 +4.5454456066E+000  +4.6227191622E-002 +1.6828063933E+001  +5.7322336616E-001 +1.8218270145E+000 
11021775.970 +5.3843473317E-001 +4.7705981756E+000  +5.1329028770E-002 +2.9792898725E+000  +4.6801830035E-002 +1.5272475534E+001  +5.5348780583E-001 +1.9211322954E+000 
11146921.151 +5.7153955504E-001 +2.5407791062E+000  +4.8866524905E-002 +6.8214690154E+000  +5.0498576852E-002 +1.7564550850E+001  +5.4755605027E-001 +2.1541824758E+000 
11272066.333 +5.5968751271E-001 +4.0662576221E+000  +5.0048712950E-002 +4.9951742539E+000  +5.1752355540E-002 +1.9636883230E+001  +5.8095717477E-001 +1.0052126806E+000 
11397211.514 +5.4865301260E-001 +6.2556844787E+000  +5.0991665703E-002 +4.7126360123E+000  +4.9791038656E-002 +1.7200856124E+001  +5.9184503039E-001 +3.5381081953E+000 
11522356.696 +5.7096598966E-001 +1.0246380361E+000  +5.0773899543E-002 +5.9444849215E+000  +4.8057646482E-002 +1.9406780389E+001  +5.7380173145E-001 +2.9149139623E+000 
11647501.877 +5.8042223177E-001 +2.2029914074E+000  +5.1468383592E-002 +3.9308012925E+000  +4.8977345714E-002 +1.8353165553E+001  +5.9724312372E-001 +2.0980243363E+000 
11772647.059 +6.2083322116E-001 +6.2989597896E+000  +5.2825967692E-002 +5.4915263544E+000  +5.1128693384E-002 +1.6797641517E+001  +6.0197189412E-001 +4.1386907225E+000 
11897792.240 +6.2446501075E-001 +3.4876207947E+000  +5.3603633519E-002 +6.9263449969E+000  +5.4738234294E-002 +1.5899001053E+001  +6.0932634606E-001 +4.1813907404E-002 
12022937.422 +6.0942379525E-001 +4.7090755352E+000  +5.2094463827E-002 +6.5674056271E+000  +5.2890380108E-002 +1.7317183316E+001  +6.2366004065E-001 +1.0240598832E+000 
12148082.603 +6.3087597490E-001 +5.0052071872E+000  +5.0758005601E-002 +6.9643640621E+000  +5.3248365111E-002 +1.6521139995E+001  +6.4322508317E-001 +1.9223117333E+000 
12273227.785 +6.4361379036E-001 +9.0989524683E-001  +5.6271602737E-002 +7.3469711353E+000  +5.3235503328E-002 +1.4228975910E+001  +6.4168919350E-001 +7.8024027920E-001 
12398372.966 +6.4533728876E-001 +2.1642407278E+000  +5.3599590230E-002 +7.4567627132E+000  +5.3062123067E-002 +1.6474538228E+001  +6.7290134831E-001 -2.2528268746E-001 
12523518.148 +6.6197835645E-001 +6.9035546259E+000  +5.4713134514E-002 +9.5870032155E+000  +5.6471691975E-002 +1.3937795280E+001  +6.8666024266E-001 +2.6257516269E-002 
12648663.329 +7.0565483265E-001 +1.8021180114E+000  +5.6233178415E-002 +8.3305737549E+000  +5.2716623702E-002 +1.5069035513E+001  +6.9192010714E-001 -4.1129478201E-001 
12773808.511 +6.9968236476E-001 +3.1623313415E+000  +5.6831968771E-002 +7.8534526271E+000  +5.6037506848E-002 +1.3839409245E+001  +7.0416571115E-001 -2.7931425867E+000 
12898953.692 +7.2148215419E-001 +1.7859485798E+000  +5.8115511549E-002 +9.9701926730E+000  +5.4977829931E-002 +1.4261156822E+001  +7.3574699973E-001 -2.3508065187E+000 
13024098.874 +7.0842494136E-001 +1.6069466958E+000  +5.6779552608E-002 +7.1802125062E+000  +5.7642956382E-002 +1.4096982907E+001  +7.3860025584E-001 -1.1825045521E+000 
13149244.055 +7.3220916005E-001 +4.8836369326E-001  +5.6992208874E-002 +8.6469449655E+000  +5.5749219557E-002 +1.2951924654E+001  +7.4777057959E-001 -1.7893663977E+000 
13274389.237 +7.7718868470E-001 -1.1220940559E+000  +5.8369591905E-002 +8.9621736506E+000  +5.7943771149E-002 +1.2816112086E+001  +7.6900092600E-001 -1.0173185309E+000 
13399534.418 +7.7204360014E-001 -1.8045264068E-001  +5.9762000272E-002 +7.4980079804E+000  +5.6499496700E-002 +1.1137650614E+001  +7.7792308842E-001 -2.8562433054E+000 
13524679.599 +8.0192792884E-001 -6.1909475703E-003  +5.8819897076E-002 +9.7657263466E+000  +5.8537545252E-002 +1.2011566257E+001  +8.0566147058E-001 -1.3416387266E+000 
13649824.781 +8.0996270010E-001 -1.4695033791E+000  +5.9572187078E-002 +8.3344559448E+000  +5.9345007576E-002 +1.1579657270E+001  +8.1692647462E-001 -2.6330402130E+000 
13774969.962 +8.0573508292E-001 -2.2224794425E+000  +6.0538137038E-002 +8.9929153677E+000  +5.8911220890E-002 +1.1357239494E+001  +8.3707328267E-001 -2.4303522430E+000 
13900115.144 +8.3475746874E-001 -3.2533796200E+000  +6.0545846266E-002 +7.7217270833E+000  +5.9883310502E-002 +1.0628036857E+001  +8.6635983910E-001 -2.8011483545E+000 
14025260.325 +8.5101130929E-001 -2.6127747568E+000  +5.9372451590E-002 +9.1027387759E+000  +5.9240212414E-002 +1.1096015490E+001  +8.6650300772E-001 -3.1577629436E+000 
14150405.507 +8.8842053886E-001 -3.8740823466E+000  +6.0962243377E-002 +9.5110738258E+000  +6.0075121153E-002 +9.2814033449E+000  +8.9283674953E-001 -4.0593909342E+000 
14275550.688 +8.9540192928E-001 -5.6864900328E+000  +6.2527362212E-002 +8.0612530102E+000  +6.0056147912E-002 +8.2689606020E+000  +8.9104055216E-001 -4.3596428887E+000 
14400695.870 +9.1045930325E-001 -5.6542843941E+000  +6.2359601283E-002 +9.0668300623E+000  +6.1098947942E-002 +9.4990348407E+000  +9.3309626454E-001 -4.0969098313E+000 
