!  2-Port S-parameters saved by WinCal
! VAR MeasName=S-Parameters (CALIBRATED_DATA) read from VNA (P5004A)
! VAR MeasDate=27/08/2024 12:42:30
! VAR NAME=S2_r6c9_pristine_9k-100M_1
! VAR FILENAME=S2_r6c9_pristine_9k-100M_1.S2P
! VAR DATE=27/08/2024 12:42:30
! VAR PHYS_PORTS=1,2
! VAR ObjTypeName=DATASET
! VAR IndexType=Frequency
!
# Hz S MA R 50
9000.000 +1.7441352675E-002 -8.3753602385E+001  +2.0430293573E-002 -1.2681303245E+001  +3.4908442011E-002 +1.0071062905E+002  +1.8818585093E-001 -1.0150461865E+002 
134145.181 +1.1014673602E-001 +1.7003496993E+002  +5.3346968263E-004 -2.5594203580E+001  +6.7562048798E-005 -1.1973923769E+002  +2.4368785227E-001 -1.7106669948E+002 
259290.363 +1.1294187919E-001 +1.6940134078E+002  +3.2644775776E-004 +5.1535812950E+001  +1.0308364370E-003 +8.1289609678E+001  +2.3465842279E-001 -1.6873005660E+002 
384435.544 +1.1339051364E-001 +1.7016635606E+002  +5.2239981645E-004 -1.4406835436E+002  +8.7602331148E-004 -9.3880436988E+001  +2.4271693540E-001 -1.6959422591E+002 
509580.726 +1.1453297505E-001 +1.7030101025E+002  +4.7730095700E-004 +3.7873497543E+001  +1.9949892339E-003 -1.6669395522E+002  +2.2758897059E-001 -1.6582024846E+002 
634725.907 +1.1785697797E-001 +1.7039673871E+002  +3.1235198343E-005 +1.6709099261E+002  +4.4800408541E-004 -2.3553315242E+001  +2.3836318035E-001 -1.6593862450E+002 
759871.089 +1.1749860343E-001 +1.7073053384E+002  +1.3214495114E-003 -1.1184285130E+001  +1.0106574794E-004 +1.3888438580E+002  +2.5118692986E-001 -1.6667370743E+002 
885016.270 +1.1730637344E-001 +1.6905668520E+002  +4.4247100483E-004 +1.3874144474E+002  +8.8092284433E-004 -5.0143339318E+001  +2.4143230774E-001 -1.6579391942E+002 
1010161.452 +1.1285479176E-001 +1.7045308194E+002  +1.7062020144E-003 +3.5518107341E+001  +3.0684544901E-004 +7.6779494091E+001  +1.3930397722E-001 -1.5023685968E+002 
1135306.633 +1.1480883958E-001 +1.6975199316E+002  +2.9877154175E-003 +1.5707087106E+002  +2.0014828520E-003 -1.2280371002E+002  +1.9930502979E-001 -1.4596380728E+002 
1260451.815 +1.2027311835E-001 +1.7158870320E+002  +1.4635434846E-003 -3.1230352236E+001  +1.8476256293E-003 +1.1899348145E+001  +2.5287738151E-001 -1.5737480683E+002 
1385596.996 +1.2752970535E-001 +1.7226189467E+002  +4.3309890682E-004 +3.7204083352E+001  +9.3974638204E-004 -8.2385730781E+001  +2.4285350959E-001 -1.5757400892E+002 
1510742.178 +1.2304988286E-001 +1.7008356535E+002  +1.1267146224E-003 -2.2766105448E+001  +7.0488705210E-004 +8.5546147032E+001  +2.3875494395E-001 -1.6129618722E+002 
1635887.359 +1.2408911450E-001 +1.7030177892E+002  +1.1974787138E-003 -1.7527957565E+002  +1.0590703935E-003 +1.3247935252E+002  +2.4474856843E-001 -1.6120386207E+002 
1761032.541 +1.2800222200E-001 +1.6922838148E+002  +9.2161964949E-004 -1.5611714849E+002  +1.1310466395E-003 -8.7461422447E+001  +2.2692751462E-001 -1.5849880456E+002 
1886177.722 +1.3356958340E-001 +1.6669734988E+002  +3.7459087492E-004 +1.4568000621E+002  +2.7383170264E-003 +7.6680377566E+001  +1.7895600769E-001 -1.5458327393E+002 
2011322.904 +1.2450523273E-001 +1.6664577274E+002  +1.8352369689E-003 +1.4825911563E+002  +7.2220043855E-004 +1.4629780352E+002  +1.6458221573E-001 -1.5943182811E+002 
2136468.085 +1.2813455331E-001 +1.6358561918E+002  +4.8943631294E-003 +1.3208866531E+002  +1.4110505047E-003 -1.9989409855E+001  +2.0869052908E-001 +1.7866801042E+002 
2261613.267 +1.3493346549E-001 +1.5646486357E+002  +7.1654280367E-003 +1.4979812642E+002  +2.2518418524E-003 +5.8508634789E+000  +2.3277020741E-001 +1.4339471604E+002 
2386758.448 +1.3443442407E-001 +1.5803867688E+002  +4.4485424946E-003 +6.4805822383E+001  +3.4420666841E-003 +1.3513895129E+002  +2.8144878130E-001 +1.6484300967E+002 
2511903.630 +1.3782560730E-001 +1.5392650004E+002  +6.2106744250E-003 +8.9832827024E+001  +1.8194615650E-003 -1.3387880879E+002  +1.4154780217E-001 +1.5115387794E+002 
2637048.811 +1.2952661584E-001 +1.5545332141E+002  +2.0716885680E-002 +1.7383527231E+002  +2.1488731089E-002 -1.2439250956E+002  +8.2635678033E-001 -1.0078395946E+002 
2762193.992 +1.0550670290E-001 +1.6420952992E+002  +2.0203268889E-002 +4.7154633106E+001  +9.2756341106E-003 -1.7023754463E+002  +8.3748050527E-001 -1.6294403048E+002 
2887339.174 +1.3259178406E-001 +1.7852109320E+002  +8.2324079633E-003 +1.4437971169E+002  +1.2761408516E-002 -7.0953527686E+001  +8.0725991212E-001 -1.2140032732E+002 
3012484.355 +8.7454135833E-002 +1.6383838089E+002  +3.2045337183E-003 +9.1832850191E+001  +1.4329028167E-002 -1.2878870124E+002  +2.9956949491E-001 -1.0969218542E+002 
3137629.537 +9.8931250575E-002 +1.7180692714E+002  +1.4290305214E-002 +9.0752614685E+000  +1.6149546716E-002 +1.6909588016E+002  +1.8244875206E-001 -5.6267721944E+001 
3262774.718 +9.1769358807E-002 -1.7251453462E+002  +4.1818145601E-003 -1.6524081990E+002  +1.0374442588E-002 -9.9770860216E+000  +1.5003699915E-001 -9.0261128620E+001 
3387919.900 +1.0621613227E-001 +1.6173991197E+002  +1.3066975437E-002 +1.0137542148E+002  +9.5073919228E-003 -1.3847305690E+002  +5.0462920237E-002 +1.7530946006E+002 
3513065.081 +1.3544759291E-001 +1.4651226311E+002  +2.4252231035E-002 +1.6748514891E+002  +5.7350868605E-003 -1.5181773604E+002  +5.2160366839E-001 -3.2472785126E+001 
3638210.263 +1.7296675325E-001 +1.4582965491E+002  +3.0111867637E-002 -6.5622459311E+001  +5.8493979641E-002 +8.7247443737E+001  +1.9849134390E+000 +1.0293335791E+002 
3763355.444 +1.5965420021E-001 +1.4190315770E+002  +2.1590523882E-002 -1.7749278887E+001  +4.4633753435E-003 -1.6728525663E+002  +8.7146063717E-001 +8.9857301221E+001 
3888500.626 +1.9785447709E-001 +1.4588320475E+002  +1.5493522013E-002 -1.6653152831E+002  +1.0800758200E-002 +1.5831330308E+001  +3.4522715092E-001 +1.1099762869E+002 
4013645.807 +1.5860679949E-001 +1.4161550518E+002  +3.1603463156E-002 -7.5462368406E+001  +1.9458898815E-002 +1.3379305046E+002  +6.1063143073E-001 +7.5389471497E+001 
4138790.989 +2.2658194911E-001 +1.3332462004E+002  +4.8453926020E-003 +1.6802944895E+002  +1.2917595244E-002 +1.0664621639E+002  +2.5900504000E-001 +1.2112099227E+002 
4263936.170 +2.0309317333E-001 +1.4717020258E+002  +9.6090139884E-003 -1.1683439940E+002  +4.0684050523E-003 +1.4884197930E+002  +4.2765991877E-001 +8.7276664810E+001 
4389081.352 +1.8690428132E-001 +1.4423183461E+002  +1.4909913385E-002 -6.5405568394E+001  +1.2721315681E-002 -4.2758015822E+001  +8.0464189843E-001 +8.3330514408E+001 
4514226.533 +2.3467933264E-001 +1.0516187814E+002  +5.7647328991E-002 -1.4821902220E+002  +4.4036363534E-002 -1.5340933387E+002  +1.6800041175E+000 +2.0164571928E+001 
4639371.715 +2.1504606041E-001 +7.9390154827E+001  +1.7056127715E-001 +1.1271786872E+002  +2.5421242611E-001 +1.5650715432E+002  +4.4791628825E+000 +5.5905139191E+001 
4764516.896 +3.9998174756E-001 +1.1980671932E+002  +1.1948364050E-002 -6.2322956004E+001  +3.5698145689E-002 -1.3620585057E+001  +1.6342203062E+000 +5.3052623152E+001 
4889662.078 +4.2644290087E-001 +1.2010611011E+002  +1.5635549189E-001 +2.3546417729E+000  +4.3941014552E-002 -4.2100145885E+001  +6.3559190637E+000 -1.2932266343E+002 
5014807.259 +3.8521973047E-001 +1.3180762392E+002  +1.5085160720E-002 -1.6187745614E+002  +9.1823039622E-003 -6.8080332804E+001  +9.8619709413E-001 +3.0197254292E+001 
5139952.441 +4.2022989381E-001 +1.3449421828E+002  +3.8804090966E-002 +1.4128196000E+002  +5.1236562696E-002 +1.6989859139E+002  +3.6424747269E+000 +8.8858426461E+001 
5265097.622 +3.8593449209E-001 +1.3247594257E+002  +1.6091167348E-002 +1.6132375981E+002  +3.1220736021E-002 -1.6313823804E+002  +2.0439726603E+000 +6.3372154780E+001 
5390242.804 +3.8479074060E-001 +1.2748949361E+002  +1.6757425054E-002 +1.4514667664E+002  +1.6996752024E-002 -9.9106348664E+001  +1.8805049028E+000 +7.9013549454E+001 
5515387.985 +4.9299305005E-001 +1.3229857878E+002  +2.7737042701E-002 -8.5178444531E+001  +1.6899865576E-002 -3.9462408081E+001  +2.5783215760E+000 +8.9135661336E+001 
5640533.166 +5.2376289847E-001 +1.1857152739E+002  +1.4718520808E-002 -8.9828630688E+000  +9.2838009829E-003 +1.0300203924E+002  +2.7645224861E+000 +7.4001246154E+001 
5765678.348 +4.8434280614E-001 +1.2695117863E+002  +1.9381604009E-002 +1.6458217698E+002  +1.0862913323E-002 -4.8870421170E+001  +1.6185259864E+000 +7.5508820571E+001 
5890823.529 +5.1176849544E-001 +1.1590291167E+002  +1.8904486114E-002 +1.7246628379E+002  +3.1856768393E-002 +1.3145070738E+002  +1.1215986169E+000 +6.1860864066E+001 
6015968.711 +6.6217962893E-001 +1.0933105315E+002  +1.6063455976E-002 -1.1487689073E+002  +6.0726651718E-002 +1.7784981354E+002  +1.8838202210E+000 +6.7803563194E+001 
6141113.892 +5.7411118670E-001 +9.5088811328E+001  +1.5367902164E-002 -1.4976585442E+002  +1.8262156195E-002 +1.7145074638E+002  +2.0252638986E+000 +3.0123997597E+001 
6266259.074 +8.8297864789E-001 +1.0767363904E+002  +2.8379923341E-002 -1.7536007443E+002  +1.3151622641E-002 +1.7318343219E+002  +1.9222610264E+000 +1.7989981470E+001 
6391404.255 +1.2262012423E+000 +7.3444620046E+001  +2.3877663042E-002 -1.0924207362E+002  +7.3947465974E-003 -8.7375621115E+001  +1.6240573823E+000 +2.4637860373E+000 
6516549.437 +1.2860223443E+000 +8.2788516035E+001  +1.4089578955E-002 +1.0753478853E+002  +5.3979348515E-002 +1.3149117154E+002  +1.3915272746E+000 +1.5975255688E+001 
6641694.618 +1.4703036703E+000 +7.3671463266E+001  +5.9059024191E-003 -5.8484325539E+001  +1.9473418710E-002 -1.2187850461E+001  +1.2475258363E+000 -2.2223676254E+000 
6766839.800 +2.2354798644E+000 +5.1277524966E+001  +2.1401887782E-002 +5.5722672500E+001  +2.5913852889E-002 -1.6264388562E+002  +1.4189765978E+000 -5.1339087331E+000 
6891984.981 +2.0591905915E+000 +2.8313795509E+001  +4.9436330673E-002 +8.4567424338E+001  +1.5913101500E-002 +8.1753917475E+001  +1.2725727659E+000 +1.4044861241E+000 
7017130.163 +1.9756955650E+000 +2.8744837309E+001  +1.6492524040E-002 -3.6647299583E+001  +2.4697155733E-002 +8.2190567206E+001  +1.1784288989E+000 -7.4771104226E+000 
7142275.344 +1.6991235108E+000 +7.4189151204E+000  +1.1576687893E-002 -1.2927082477E+002  +1.0485802335E-002 +1.4463602565E+001  +1.2072914193E+000 -8.4791787872E+000 
7267420.526 +1.5938579767E+000 -5.6808327228E+000  +6.8036701595E-003 +1.4674272680E+002  +5.3075203945E-003 +1.7502340600E+002  +1.3626443817E+000 -1.2583825899E+001 
7392565.707 +1.3151973095E+000 -2.8399197926E+000  +9.7045198971E-003 +6.1249241682E+001  +2.6902972311E-003 -1.6126921311E+002  +1.2005528793E+000 -6.9314636519E+000 
7517710.889 +1.2071242662E+000 -5.9514778936E-001  +9.2091029798E-003 +8.7322617781E+001  +2.8308828562E-003 +1.8527616909E+001  +1.1906694660E+000 -9.1476717026E+000 
7642856.070 +1.0687257010E+000 -7.9175534000E-001  +3.0178105243E-003 -9.4733509403E+001  +6.5167953220E-003 +9.0617742591E+001  +1.0494761069E+000 -8.3717119886E+000 
7768001.252 +8.9489214545E-001 +4.1441312759E+000  +8.5711709799E-003 +1.1895428065E+002  +7.1741059514E-003 +8.4487257276E+001  +1.0186110264E+000 -1.0056066756E+001 
7893146.433 +9.9140471168E-001 +7.9643951661E+000  +5.0611031684E-003 +7.1466587058E+001  +5.6531458986E-003 +2.3704588851E+000  +9.4574718000E-001 -6.1539912906E+000 
8018291.615 +8.5485846074E-001 +7.3001246667E+000  +1.0600247147E-002 +8.5327314538E+001  +8.2500280431E-003 +1.1131637918E+002  +8.4215658992E-001 -2.2098791139E+000 
8143436.796 +7.9914686562E-001 +3.5267754676E+000  +3.7308506424E-003 +1.2485680775E+002  +5.4188500413E-003 +2.0785867328E+000  +8.6327491956E-001 -9.8213933321E-001 
8268581.977 +7.0381763583E-001 +3.5202106188E+000  +6.4873014558E-003 +7.3072466750E+001  +4.3537817053E-003 -2.7670120801E+001  +7.9745898157E-001 +3.0958389778E+000 
8393727.159 +6.8840241970E-001 +8.7760384289E+000  +2.3503482810E-003 +8.8012791122E+001  +2.9456048867E-004 +5.3416820742E+001  +7.2720596666E-001 -3.2670335928E+000 
8518872.340 +7.2401600152E-001 +7.3255273610E+000  +9.7083066944E-003 +1.0802572934E+002  +6.4470386980E-003 +1.3780199556E+002  +7.0818176930E-001 -3.6907452083E+000 
8644017.522 +5.9578023843E-001 +1.2153832325E+000  +2.5543163022E-003 +1.3536757448E+002  +3.5505786923E-003 +6.3016123104E+001  +7.5283526390E-001 -2.4997313420E+000 
8769162.703 +6.0407389802E-001 +8.7224530123E+000  +6.1285402307E-003 +3.8059105960E+001  +4.9087715990E-003 +4.2039065818E+001  +6.5512832964E-001 +1.6766121247E+000 
8894307.885 +6.7917548375E-001 +3.5447215707E+000  +5.9150692122E-003 +6.3542138606E+001  +7.2165740920E-003 +1.1044532679E+002  +6.6727431967E-001 +2.1365211657E+000 
9019453.066 +6.2505715744E-001 +2.5893306688E+000  +5.2506885881E-003 +1.1117591379E+002  +6.0879405671E-003 +9.7517675351E+001  +5.5711736254E-001 +3.3333217203E+000 
9144598.248 +5.9051067683E-001 +5.4784611665E+000  +4.4035787495E-003 +1.1337739055E+002  +5.5839916347E-003 +9.3010639865E+001  +6.5064429396E-001 -4.7082289591E+000 
9269743.429 +5.7651695909E-001 +9.1172639602E-001  +5.2251258524E-003 +8.7719840433E+001  +3.0991483824E-003 +5.7395633091E+001  +6.4857417892E-001 -3.0750914428E+000 
9394888.611 +5.1262573098E-001 -1.2256201883E+000  +4.1807511670E-003 +8.8427353763E+001  +3.4583098861E-003 +6.0321606905E+001  +6.3307113285E-001 -3.8669027673E+000 
9520033.792 +6.0639513808E-001 +1.1723994398E-002  +5.0459128500E-003 +1.0262092518E+002  +4.6506019161E-003 +1.0168621091E+002  +5.8622013864E-001 -5.1988664120E+000 
9645178.974 +5.0675568844E-001 +5.8400494844E-001  +9.6228054069E-004 +6.0272945710E+001  +2.4465197354E-003 +6.4554117484E+001  +6.2017789122E-001 -3.5891817596E+000 
9770324.155 +5.9410761391E-001 -7.5474029755E-001  +8.6559793271E-003 +7.5237837285E+001  +5.8465132535E-003 +1.0297326168E+002  +5.6971092060E-001 -5.6747462737E+000 
9895469.337 +5.8493587991E-001 -5.1457841802E+000  +5.0649696177E-003 +6.1199402091E+001  +4.5861934009E-003 +1.0208693317E+002  +6.0324650843E-001 -7.4092905921E+000 
10020614.518 +5.5720519681E-001 +2.5549313876E-001  +3.0271676019E-003 +7.7156609471E+001  +3.0189315802E-003 +1.4688755055E+002  +5.8170501121E-001 -5.6777309449E+000 
10145759.700 +5.6914728882E-001 +2.6352819964E-001  +3.2821575966E-003 +8.4010000893E+001  +3.6184367329E-003 +1.2382018587E+002  +5.9615690173E-001 -5.4713902927E+000 
10270904.881 +5.5215600886E-001 +4.8121609454E+000  +4.3433150764E-003 +9.8882846160E+001  +3.9078266301E-003 +6.4881750836E+001  +5.9337477864E-001 -4.0128109384E+000 
10396050.063 +5.8323686410E-001 +4.9818695784E+000  +4.6838794820E-003 +4.0902952567E+001  +2.1964008299E-003 +6.4911258327E+001  +5.5493636343E-001 -4.2863552577E+000 
10521195.244 +5.4034662241E-001 +5.9755335348E+000  +5.5080550990E-003 +8.2432973493E+001  +4.7044157775E-003 +8.5314860918E+001  +5.5106589653E-001 +9.4240137700E-001 
10646340.426 +5.2648963960E-001 +2.9976496749E+000  +1.0522735712E-002 +8.7173309372E+001  +4.1012549335E-003 +8.1436834860E+001  +6.0812636492E-001 -3.4703785356E+000 
10771485.607 +5.5937327109E-001 +4.3201013603E+000  +5.2512299340E-003 +9.5884085259E+001  +3.9811221695E-003 +9.0637237573E+001  +5.6238704400E-001 +3.0434492186E+000 
10896630.788 +5.5830729059E-001 +4.7005182224E+000  +5.8657452648E-003 +6.9650980153E+001  +5.0221547924E-003 +8.2610574397E+001  +6.1482215002E-001 +1.4713601191E+000 
11021775.970 +5.9435253542E-001 +6.8280818383E+000  +5.2823710342E-003 +9.5099035986E+001  +3.2060285856E-003 +9.9123902510E+001  +6.0800447967E-001 -2.2058118875E+000 
11146921.151 +5.9244543466E-001 +4.4047014661E+000  +4.5435823199E-003 +8.4316780011E+001  +2.0839757975E-003 +9.3621438549E+001  +6.3992378653E-001 -2.7268611566E-001 
11272066.333 +6.0214737103E-001 +5.7679558422E+000  +3.9264847204E-003 +9.3290759305E+001  +4.8651778085E-003 +1.2358252837E+002  +6.2429670523E-001 -8.5536485883E-002 
11397211.514 +6.2213484736E-001 +4.2133247064E+000  +4.0623010108E-003 +9.1803835370E+001  +5.2411919228E-003 +9.3871654258E+001  +6.5651830799E-001 +2.7491278478E+000 
11522356.696 +5.9662920037E-001 +3.8987470398E+000  +3.1583205075E-003 +8.7255658893E+001  +5.4006492653E-003 +1.1758022575E+002  +6.6205567565E-001 +1.4174959964E+000 
11647501.877 +6.3523287464E-001 +5.8190468695E+000  +4.1986701076E-003 +1.0725399251E+002  +5.9073278195E-003 +1.0169159508E+002  +6.5047747781E-001 -9.0394011957E-001 
11772647.059 +6.4208931289E-001 +2.2331255133E+000  +5.0220599587E-003 +8.7495873475E+001  +5.0743214164E-003 +1.1487264728E+002  +6.7586556220E-001 +1.8194150492E+000 
11897792.240 +6.5689791865E-001 +4.6073551565E+000  +4.7598950108E-003 +6.2862503717E+001  +6.8927778211E-003 +1.0545563014E+002  +6.7016540845E-001 +2.0477001819E+000 
12022937.422 +6.7309059542E-001 +3.5831506619E+000  +4.5449417732E-003 +9.8197457231E+001  +4.8416904042E-003 +8.6748887718E+001  +6.7959283286E-001 +1.2778979645E+000 
12148082.603 +6.5930687583E-001 +3.5392553943E+000  +4.0056784881E-003 +8.0970220089E+001  +3.5581335394E-003 +6.4984554980E+001  +7.1114988540E-001 +2.2562026012E+000 
12273227.785 +6.9036932687E-001 +4.7403925102E+000  +5.1987755227E-003 +8.1129241389E+001  +5.4962287876E-003 +9.9248935791E+001  +7.1886299930E-001 -1.0385724572E-001 
12398372.966 +7.0186825695E-001 +3.3654174817E+000  +6.1804575499E-003 +8.2339191709E+001  +5.4264422035E-003 +1.0383861602E+002  +7.1748122500E-001 +1.8892817830E+000 
12523518.148 +7.1585231940E-001 +3.1424406700E+000  +5.1745330022E-003 +1.0203405740E+002  +7.3821156739E-003 +1.0272927037E+002  +7.3668396695E-001 -1.1998656957E+000 
12648663.329 +7.4224595681E-001 +2.1352816098E+000  +5.0884682291E-003 +8.7272586788E+001  +5.2321729173E-003 +9.6049108933E+001  +7.5685938646E-001 -1.3716274457E+000 
12773808.511 +7.5158111395E-001 +1.1168940232E+000  +6.5211974273E-003 +9.1671215319E+001  +7.0229888718E-003 +8.9343915102E+001  +7.7468346207E-001 -2.0585540669E+000 
12898953.692 +7.6756455112E-001 +6.0767580960E-001  +5.9997839162E-003 +9.2893971898E+001  +7.6028206994E-003 +9.5045741961E+001  +7.9932450842E-001 -1.7289124635E+000 
13024098.874 +7.6780514703E-001 +3.3999466607E-001  +5.0163902304E-003 +1.0556900718E+002  +6.1987941821E-003 +1.0331184578E+002  +7.8562833994E-001 -1.1836188962E+000 
13149244.055 +8.1849200346E-001 +4.7863147226E-001  +6.7420800043E-003 +1.0192926489E+002  +6.1819753804E-003 +9.3294861091E+001  +8.2207585478E-001 -1.9665554621E+000 
13274389.237 +8.0730970559E-001 -1.4863601025E+000  +7.3502832625E-003 +8.7328022738E+001  +7.8097788303E-003 +8.5498224316E+001  +8.3112484011E-001 -1.2085679915E+000 
13399534.418 +8.2222234858E-001 -8.9579536028E-001  +6.4599251332E-003 +9.2415138958E+001  +5.5552477598E-003 +8.8314969328E+001  +8.5066811022E-001 -3.1574626249E+000 
13524679.599 +8.6337194888E-001 -1.0550432743E+000  +6.8008520986E-003 +9.7049538714E+001  +7.5555592703E-003 +8.8668822819E+001  +8.6597768903E-001 -2.1504263442E+000 
13649824.781 +8.7746674552E-001 -2.8300928612E+000  +8.2015578041E-003 +9.8415128589E+001  +6.6168437523E-003 +1.1008874083E+002  +8.8111659575E-001 -2.8723744009E+000 
13774969.962 +8.9100550076E-001 -1.7241530615E+000  +7.3171549099E-003 +9.2384725254E+001  +6.2795668228E-003 +9.0049676476E+001  +8.8908529524E-001 -3.1900684493E+000 
13900115.144 +8.9918137133E-001 -3.7788847423E+000  +7.3344312709E-003 +8.6692432590E+001  +7.1540656941E-003 +1.0013021183E+002  +9.1348162142E-001 -3.6293379651E+000 
14025260.325 +9.2173627959E-001 -5.2332238360E+000  +7.4747461935E-003 +9.5467634914E+001  +8.2253452355E-003 +9.4397835312E+001  +9.4597199709E-001 -3.1567812258E+000 
14150405.507 +9.4398595442E-001 -2.8197418866E+000  +7.3200887671E-003 +9.5143619603E+001  +7.3861883404E-003 +9.4244434478E+001  +9.4108966305E-001 -2.8606897330E+000 
14275550.688 +9.4860106491E-001 -4.9655564874E+000  +7.1126431841E-003 +9.0823056473E+001  +7.7376727512E-003 +9.0437631063E+001  +9.6802995543E-001 -4.3784659896E+000 
14400695.870 +9.7982158322E-001 -4.8398874443E+000  +6.8888556202E-003 +8.1281590211E+001  +8.1120512464E-003 +7.9076106575E+001  +1.0021907618E+000 -5.6055330419E+000 
