!  2-Port S-parameters saved by WinCal
! VAR MeasName=S-Parameters (CALIBRATED_DATA) read from VNA (P5004A)
! VAR MeasDate=27/08/2024 14:45:37
! VAR NAME=S2_r3c8_formed_9k-100M_3
! VAR FILENAME=S2_r3c8_formed_9k-100M_3.S2P
! VAR DATE=27/08/2024 14:45:37
! VAR PHYS_PORTS=1,2
! VAR ObjTypeName=DATASET
! VAR IndexType=Frequency
!
# Hz S MA R 50
9000.000 +7.4506460871E-002 -1.2934391665E+002  +2.5433425846E-002 -1.2874151265E+001  +1.5404537079E-002 -1.7976448142E+002  +1.9582286270E-001 -1.1778192930E+002 
134145.181 +1.1105364822E-001 +1.6957700484E+002  +3.3660742979E-004 -4.3632953932E+001  +6.1667332647E-004 +1.2987823205E+002  +2.3792769696E-001 -1.7067348222E+002 
259290.363 +1.1211194794E-001 +1.6957833655E+002  +9.7134431862E-005 -1.5423569200E+002  +1.0345437448E-003 +7.5806434988E+001  +2.4285174790E-001 -1.6877110465E+002 
384435.544 +1.1362102737E-001 +1.6981548136E+002  +1.2020025909E-003 -7.5703230316E+001  +1.0689288224E-003 +7.4974762989E+001  +2.4215576491E-001 -1.6708845190E+002 
509580.726 +1.1338703720E-001 +1.6944914522E+002  +6.1268501438E-004 -7.6964462670E+001  +6.5284006943E-004 +7.8649541573E+001  +2.4114777708E-001 -1.6526625426E+002 
634725.907 +1.1550082168E-001 +1.7079015899E+002  +7.8414721457E-004 -8.2431214866E+001  +6.4572694552E-004 +3.3301643271E+001  +2.3343953772E-001 -1.6532181788E+002 
759871.089 +1.1805113463E-001 +1.7031675669E+002  +2.9334355031E-004 -1.0476867222E+002  +2.0245778609E-003 +8.6796770611E+001  +2.4901800633E-001 -1.6374022510E+002 
885016.270 +1.1851523314E-001 +1.6952696004E+002  +1.0697773561E-003 -9.1566315047E+001  +7.0632927200E-004 +1.3233703964E+002  +2.3986889915E-001 -1.6636643173E+002 
1010161.452 +1.1882857274E-001 +1.7063967980E+002  +2.5506736458E-003 -1.3655449494E+001  +2.9382208935E-003 +1.0822771245E+002  +1.8048021624E-001 -1.6924106058E+002 
1135306.633 +1.1283685342E-001 +1.6827010069E+002  +3.3643621311E-003 -3.6644788942E+001  +8.6260330795E-004 +6.2257362815E+001  +1.6416244692E-001 -1.6994584387E+002 
1260451.815 +1.1830224020E-001 +1.6964004528E+002  +2.4830669446E-003 -3.9715059107E+001  +1.4266545602E-003 +5.0451304095E+001  +2.2738031163E-001 -1.5691366230E+002 
1385596.996 +1.2457212974E-001 +1.7260399673E+002  +1.4315748937E-003 -1.5822301789E+002  +1.4128391641E-003 +1.6728866923E+001  +2.6583552298E-001 -1.5883423687E+002 
1510742.178 +1.2680698646E-001 +1.7175030844E+002  +1.3836662346E-003 -1.1371999135E+002  +2.7569304861E-004 +2.9924117706E+001  +2.5798189251E-001 -1.5602525748E+002 
1635887.359 +1.2625966351E-001 +1.6908893113E+002  +8.4691115964E-004 +3.6806406836E+001  +1.8328083344E-003 -1.6423563271E+002  +2.5699309687E-001 -1.5385703611E+002 
1761032.541 +1.3126127635E-001 +1.6920256333E+002  +1.6569851052E-003 +6.7396248630E+000  +1.1463966747E-003 +1.6925177108E+002  +2.3436141786E-001 -1.5998851642E+002 
1886177.722 +1.2518837114E-001 +1.6823309423E+002  +1.1002747538E-003 +4.9570774292E+001  +2.2596248006E-003 -5.4353898578E+001  +2.2347106487E-001 -1.6913229081E+002 
2011322.904 +1.3426657864E-001 +1.6621537287E+002  +3.0821543211E-003 +3.4056413543E+001  +3.5840653611E-003 -6.5698346144E+001  +2.0284058361E-001 -1.6569347741E+002 
2136468.085 +1.3020262243E-001 +1.6572491546E+002  +8.4313412971E-003 +1.2298659262E+002  +6.8653408403E-003 -1.2454551156E+001  +2.2477759501E-001 +1.6783838762E+002 
2261613.267 +1.3276059892E-001 +1.6298463167E+002  +9.7190997731E-003 +1.2906724416E+002  +1.0310453118E-002 -6.7737114710E-002  +2.3918039617E-001 +1.6074415886E+002 
2386758.448 +1.3573411508E-001 +1.6152331864E+002  +8.3991764547E-003 +9.2582445939E+001  +1.3651025323E-002 -1.6480690590E+001  +1.9400029175E-001 +1.7908912295E+002 
2511903.630 +1.4000067198E-001 +1.6615883859E+002  +7.8437402229E-003 +9.2629217074E+001  +6.5688950471E-003 -3.5323414539E+001  +2.3661444141E-001 +1.7951266923E+002 
2637048.811 +1.1017685540E-001 +1.6428086160E+002  +2.7446421859E-002 +1.2708070350E+002  +3.1290615412E-002 +1.4235286413E+001  +3.6690410705E-001 +1.5924838851E+002 
2762193.992 +9.3487407038E-002 -1.7712044345E+002  +2.3837419143E-001 -2.0600959234E+001  +2.5070083708E-001 -1.4296988203E+002  +1.0379922315E+000 -6.8853008732E+001 
2887339.174 +1.4673204907E-001 +1.7647838852E+002  +7.2179468957E-002 -6.6624158387E+001  +6.6934054994E-002 -1.7628360576E+002  +5.8493755894E-001 -7.0464893239E+001 
3012484.355 +1.0935222329E-001 +1.5289639650E+002  +6.7773328742E-002 -5.3531570552E+001  +8.1027768740E-002 -1.3173138217E+002  +6.2941880011E-001 -9.3497139741E+001 
3137629.537 +1.2379118484E-001 +1.7602214205E+002  +2.4899418451E-002 -3.6664744153E+001  +2.1542683532E-002 -1.0037223775E+002  +1.8347121290E-001 -1.2084992123E+002 
3262774.718 +1.3612796996E-001 +1.6859429489E+002  +4.6521086955E-002 -2.7139682380E+001  +5.1769041874E-002 -1.1525551173E+002  +3.4304812212E-001 -6.2406610696E+001 
3387919.900 +9.2448165306E-002 +1.7194886400E+002  +6.6477847963E-002 -2.4387268585E+001  +4.8478394054E-002 -1.3297434886E+002  +3.0209893410E-001 -8.8720836825E+001 
3513065.081 +1.7401351593E-001 +1.4193197123E+002  +4.3974654364E-002 +9.6533456302E+001  +3.9668117285E-002 +2.5883948366E+001  +2.4821269680E-001 +1.4441268456E+002 
3638210.263 +1.6201129829E-001 +1.5258269278E+002  +3.1315262556E-002 +1.0415692485E+002  +3.3565430038E-002 +2.4601681937E+001  +3.8377296234E-001 +1.4912578292E+002 
3763355.444 +1.6144721629E-001 +1.5138230684E+002  +3.8066188608E-002 +1.5103522082E+002  +3.0979800821E-002 +6.5310935029E+001  +6.8402535369E-001 +1.6068993431E+002 
3888500.626 +1.6181975945E-001 +1.4689324633E+002  +3.7446245786E-002 +6.2334596381E+001  +4.1714874029E-002 -6.8408767429E+000  +9.2881679368E-002 +1.3189129783E+002 
4013645.807 +1.5118682024E-001 +1.5442420295E+002  +4.2339863207E-002 +7.2762963035E+001  +4.8257353192E-002 +9.9273875363E+000  +3.7528270746E-001 +1.4455647182E+002 
4138790.989 +1.8945274788E-001 +1.4858022760E+002  +4.6749110441E-002 +8.6048945997E+001  +4.0741267285E-002 +2.2180187008E+001  +3.0290715414E-001 +1.2878681935E+002 
4263936.170 +2.0311782303E-001 +1.4149021870E+002  +6.5526294241E-002 +1.1710763533E+002  +6.4637957266E-002 +5.0840213450E+001  +6.0082936843E-001 +1.3256528494E+002 
4389081.352 +2.0307591027E-001 +1.3967803663E+002  +1.1689515635E-001 +9.7556591364E+001  +9.2583791423E-002 +2.6009831343E+001  +7.7314282200E-001 +9.5163804140E+001 
4514226.533 +2.2459344776E-001 +1.3884134812E+002  +9.4380694785E-002 +1.0788219270E+002  +1.0482948602E-001 +5.5464167561E+001  +8.1137334112E-001 +1.1943526939E+002 
4639371.715 +3.1708122373E-001 +1.1500463659E+002  +4.3552987208E-001 +1.1567312919E+002  +5.1123490164E-001 +7.0015190169E+001  +2.6801837506E+000 +1.0202146934E+002 
4764516.896 +2.6271181254E-001 +1.1497041860E+002  +4.1218357297E-001 +4.4672341869E+001  +3.7990213133E-001 -7.2357084628E+000  +2.6179802302E+000 +1.5472119308E+001 
4889662.078 +3.8788127202E-001 +8.0113512579E+001  +2.8684241110E+000 +2.9627885848E+000  +3.0775286525E+000 -3.7400131580E+001  +2.4110078554E+001 -5.4426999068E+001 
5014807.259 +6.1778325174E-001 +1.3876894049E+002  +1.9455540723E+000 +1.6431699845E+002  +1.9128519081E+000 +1.2730204803E+002  +1.3674481217E+001 +1.3437139051E+002 
5139952.441 +3.6176498017E-001 +1.2879597018E+002  +2.0257263730E-001 +1.2096210672E+002  +2.0924833249E-001 +8.5173394071E+001  +1.6428343077E+000 +1.0963365132E+002 
5265097.622 +3.7372467404E-001 +1.2247083135E+002  +1.7571519323E-001 +1.0196903039E+002  +1.7336872503E-001 +6.0838137234E+001  +1.2410819452E+000 +9.6724667798E+001 
5390242.804 +3.3498824614E-001 +1.3369047243E+002  +1.1091555437E-001 +9.4760210232E+001  +1.1411277654E-001 +6.6069512141E+001  +9.3035963474E-001 +1.1287247491E+002 
5515387.985 +4.4712663342E-001 +1.1690072484E+002  +1.8191828190E-001 +1.0428781708E+002  +1.7387685973E-001 +7.1422506053E+001  +1.1244178817E+000 +1.1252633002E+002 
5640533.166 +4.2402771265E-001 +1.3073645350E+002  +1.6250282130E-001 +1.1311161707E+002  +1.8029665458E-001 +8.4890605012E+001  +1.8715169235E+000 +1.1109163578E+002 
5765678.348 +4.6826342958E-001 +1.1673183862E+002  +2.7755029076E-001 +9.0245309302E+001  +2.7035334136E-001 +6.1711575201E+001  +2.0061999552E+000 +8.5790911282E+001 
5890823.529 +5.8468604473E-001 +1.2359934564E+002  +2.2180655910E-001 +9.0927007006E+001  +2.0354794353E-001 +6.6677271493E+001  +1.3309572649E+000 +8.0157768320E+001 
6015968.711 +5.1416639896E-001 +1.2923849666E+002  +1.3433790137E-001 +6.4145588435E+001  +1.3341256863E-001 +4.9357089891E+001  +9.4763555105E-001 +6.7220095091E+001 
6141113.892 +5.9954107314E-001 +1.0823293456E+002  +2.5228752417E-001 +6.9280415702E+001  +2.2636195766E-001 +4.9353795951E+001  +1.6523874944E+000 +7.1459422097E+001 
6266259.074 +7.3105786712E-001 +1.0346729581E+002  +2.1955330386E-001 +4.7309217557E+001  +2.0556833585E-001 +2.6229745153E+001  +1.0859709616E+000 +2.9883274752E+001 
6391404.255 +6.9936235705E-001 +9.6154279211E+001  +2.0802839728E-001 +3.3977814100E+001  +2.1477110412E-001 +2.3074944853E+001  +1.2061171309E+000 +1.8269275538E+001 
6516549.437 +9.3646505816E-001 +9.3708368852E+001  +2.4903656199E-001 +4.6208021394E+001  +2.4622799000E-001 +3.0821822683E+001  +1.2505079777E+000 +2.3084807324E+001 
6641694.618 +1.4183248687E+000 +7.8044215884E+001  +2.9496979620E-001 +3.9943062940E+001  +3.2718218202E-001 +2.7694107889E+001  +1.1000044813E+000 +9.6474942665E+000 
6766839.800 +1.4509110268E+000 +4.0889783425E+001  +3.2779778029E-001 +1.6137292882E+001  +3.3665199826E-001 +7.7439133016E+000  +1.1183903089E+000 +7.4380699470E+000 
6891984.981 +1.4632278794E+000 +4.5116240755E+001  +3.0982544148E-001 +1.4515972967E+001  +2.9723750471E-001 +8.1746463887E+000  +1.3588741331E+000 -4.9442958985E-001 
7017130.163 +1.5479321965E+000 +1.0659824316E+001  +3.0758953678E-001 -3.4264319505E+000  +2.8737772488E-001 -6.2724358586E+000  +1.2564701671E+000 -9.2911987990E+000 
7142275.344 +1.2404606124E+000 +1.5549349171E+001  +2.1278859468E-001 +9.5747182659E-001  +2.1737945743E-001 +1.5780134948E+000  +1.0915701744E+000 -1.0319423434E+001 
7267420.526 +1.2807047176E+000 +5.1407358148E+000  +1.9686870137E-001 +4.9140181688E-001  +2.1390557197E-001 -1.7906528879E+000  +1.1379938462E+000 -4.2825980971E+000 
7392565.707 +1.0311634900E+000 -6.5475542687E+000  +1.5420419024E-001 +5.1028718733E+000  +1.5935239347E-001 +1.6787850083E+000  +1.1556352824E+000 -5.6719757621E+000 
7517710.889 +9.9468903187E-001 -2.7026115530E+000  +1.4721118766E-001 +2.3788353546E+000  +1.5018872711E-001 +5.0594737676E+000  +1.0826908725E+000 -3.0109947311E+000 
7642856.070 +8.5241086167E-001 +1.2336025150E-001  +1.3971881980E-001 +1.7520100041E+000  +1.4364741858E-001 +6.7725608641E+000  +9.2799132412E-001 -3.9255184482E+000 
7768001.252 +7.5264394840E-001 +1.1294421375E+001  +1.2735109414E-001 +2.9447597511E+000  +1.3812490422E-001 +6.7662898473E+000  +7.9691156300E-001 +5.1616458504E-002 
7893146.433 +7.9507726500E-001 +2.7290091554E+000  +1.3491180600E-001 -4.2921540198E-001  +1.2901821825E-001 +7.8782788993E+000  +7.7375971695E-001 -7.0076923830E+000 
8018291.615 +6.6854036147E-001 +5.0076631910E+000  +1.2195224306E-001 -2.2120620464E-001  +1.1921940336E-001 +6.3057254342E+000  +7.4945809249E-001 -2.6796859064E+000 
8143436.796 +6.5427941676E-001 +1.9022226814E+000  +1.1915265333E-001 -4.8898826002E-001  +1.2211790089E-001 +8.5840406996E+000  +7.5997477972E-001 +8.0914504182E+000 
8268581.977 +6.8833737471E-001 +6.2863131965E+000  +1.2005921576E-001 +1.2252162927E+000  +1.1769647161E-001 +7.1593225295E+000  +6.2730683836E-001 +3.2464953002E+000 
8393727.159 +5.8650100551E-001 +7.4411855379E+000  +1.1176862940E-001 -1.7836624082E+000  +1.1871362562E-001 +6.8116893541E+000  +6.0610564012E-001 -8.8871860812E-001 
8518872.340 +5.3802688168E-001 +8.3135217707E+000  +1.1115273408E-001 -2.0114538135E+000  +1.1058322609E-001 +7.9327553526E+000  +5.8639055858E-001 +6.9765491308E+000 
8644017.522 +5.4635810329E-001 +1.2578063612E+001  +1.1277419088E-001 -2.5125757295E+000  +1.1551302526E-001 +1.0886459169E+001  +5.5587046092E-001 +3.6851119813E+000 
8769162.703 +5.7198499698E-001 +9.7788403900E+000  +1.1130886498E-001 -1.7765465808E+000  +1.1218707945E-001 +1.2167363423E+001  +5.4503622055E-001 +4.6083405733E+000 
8894307.885 +5.0801796881E-001 +9.3800174932E+000  +1.1177442900E-001 -2.5312573037E+000  +1.1044932162E-001 +1.1436524544E+001  +5.4348237791E-001 -5.3456898480E+000 
9019453.066 +4.7039331539E-001 +7.3122221440E+000  +1.1046608093E-001 -4.5269711423E+000  +1.0742006943E-001 +1.0324648661E+001  +5.1625009001E-001 +5.3947524240E+000 
9144598.248 +4.4687212186E-001 +6.0082035584E+000  +1.0995112662E-001 -5.0069925682E+000  +1.0674659822E-001 +1.0696369009E+001  +5.0334300592E-001 +5.1226442314E+000 
9269743.429 +4.5186460454E-001 +5.9103557369E+000  +1.0946721090E-001 -5.3034911276E+000  +1.0755419830E-001 +1.1090120865E+001  +4.6538205198E-001 -6.1358200797E-001 
9394888.611 +4.2152966480E-001 +7.8022139754E+000  +1.0997414488E-001 -3.4599417407E+000  +1.0505180723E-001 +1.1139988365E+001  +4.8340458734E-001 -1.3008378663E+000 
9520033.792 +4.7577273797E-001 +6.4399062031E+000  +1.1252780626E-001 -3.9276579465E+000  +1.0788414279E-001 +1.2198398658E+001  +4.7257968853E-001 +3.1139858603E+000 
9645178.974 +4.3541894005E-001 +1.8037349207E+000  +1.1198830941E-001 -3.4321543096E+000  +1.1090786955E-001 +1.2576121504E+001  +4.8916680862E-001 -1.4202495690E+000 
9770324.155 +4.2166517302E-001 +2.8527462372E-001  +1.1365426501E-001 -2.9695292826E+000  +1.1129415773E-001 +1.2614199963E+001  +4.8022868490E-001 -8.4954416899E+000 
9895469.337 +4.0116071950E-001 +4.3895573765E+000  +1.1406119947E-001 -3.8962338225E+000  +1.1050842584E-001 +1.1386157928E+001  +3.8251346354E-001 -7.2499064208E+000 
10020614.518 +3.9109555194E-001 +4.7274980956E+000  +1.0901751662E-001 -2.0930848251E+000  +1.0997944442E-001 +1.2067074574E+001  +4.5755011145E-001 -2.2532887386E+000 
10145759.700 +4.3391320884E-001 +4.9729335804E+000  +1.1069223612E-001 -1.3159526075E+000  +1.0855179902E-001 +1.3321647944E+001  +4.6243700067E-001 -3.4294860456E+000 
10270904.881 +4.4853918791E-001 +3.4171757390E+000  +1.1014322072E-001 -1.5242362865E+000  +1.1350796847E-001 +1.3507431385E+001  +4.9835434492E-001 -1.2524472130E+000 
10396050.063 +4.1350195951E-001 +9.5768836310E-002  +1.1151300525E-001 -2.4830853232E+000  +1.1196566294E-001 +1.3188650625E+001  +4.8559162047E-001 -1.3201710500E+000 
10521195.244 +4.2602307231E-001 +4.5098289579E+000  +1.1413603146E-001 -2.1840987751E+000  +1.0822339849E-001 +1.4399625852E+001  +4.9409625061E-001 +4.5612131835E+000 
10646340.426 +4.3236546790E-001 +8.2354362892E+000  +1.1298177985E-001 -2.4621968449E+000  +1.1124059064E-001 +1.4789995870E+001  +4.8915441704E-001 +4.2520292772E+000 
10771485.607 +4.3672939817E-001 +7.1973196442E+000  +1.1308115179E-001 -5.4842475818E-001  +1.1311319805E-001 +1.3666576188E+001  +4.6670630178E-001 +5.2467106177E+000 
10896630.788 +4.4096280760E-001 +1.0226615053E+001  +1.1233585704E-001 -3.9949762537E-001  +1.1328050257E-001 +1.4263506978E+001  +5.0239096258E-001 +2.3176290768E+000 
11021775.970 +4.4862732529E-001 +6.1320694023E+000  +1.1442731480E-001 +3.2966146033E-001  +1.1566557821E-001 +1.3653470435E+001  +5.0655402161E-001 +4.0914631724E+000 
11146921.151 +4.8035978971E-001 +7.7958013419E+000  +1.1586916627E-001 -1.0111325816E-002  +1.1533168760E-001 +1.4006915039E+001  +5.2188982244E-001 +1.9582095460E+000 
11272066.333 +4.7706877268E-001 +7.5920411388E+000  +1.1727108821E-001 +1.0496128511E+000  +1.1596022314E-001 +1.3245384042E+001  +5.1277624639E-001 +3.5401989888E+000 
11397211.514 +4.5580581700E-001 +6.7685930615E+000  +1.1773147517E-001 +4.1027456642E-001  +1.1783651769E-001 +1.3530340077E+001  +5.0558240138E-001 +5.7090509465E+000 
11522356.696 +5.0957343239E-001 +8.6291870026E+000  +1.1936406075E-001 +1.2712188508E+000  +1.1749244494E-001 +1.3478171012E+001  +5.2532514619E-001 +2.4644184048E+000 
11647501.877 +5.0124880259E-001 +7.6568155808E+000  +1.2094509941E-001 +2.2454480368E+000  +1.1986614791E-001 +1.3764984651E+001  +5.2712589515E-001 +3.7390828689E+000 
11772647.059 +4.8922015543E-001 +8.4402919480E+000  +1.2113839331E-001 +2.2210808125E+000  +1.1990547108E-001 +1.3474765663E+001  +5.2793971790E-001 +3.6456283676E+000 
11897792.240 +5.3337710940E-001 +5.6799371532E+000  +1.2265820656E-001 +2.5253056659E+000  +1.2153943895E-001 +1.2359388706E+001  +5.5004141203E-001 +1.2957059797E+000 
12022937.422 +5.4398965129E-001 +3.4943265025E+000  +1.2767304312E-001 +3.9999700293E+000  +1.2342426763E-001 +1.3300155906E+001  +5.6544941811E-001 +1.6187767708E+000 
12148082.603 +5.5605823552E-001 +3.2464062849E+000  +1.2826608383E-001 +3.6100213418E+000  +1.2555625946E-001 +1.2392778127E+001  +5.6856599363E-001 +4.2164039694E+000 
12273227.785 +5.5545609699E-001 +6.3700968399E+000  +1.2917129634E-001 +4.3241023732E+000  +1.2417133980E-001 +1.1693955915E+001  +5.8675182811E-001 -1.0287449348E-002 
12398372.966 +5.8223629109E-001 +4.0609952705E+000  +1.2823297013E-001 +4.0547196812E+000  +1.2581489958E-001 +1.1723887104E+001  +6.1933173125E-001 +1.6540036579E+000 
12523518.148 +5.8434010684E-001 +1.5780630377E+000  +1.3100444608E-001 +4.1573935708E+000  +1.2801862321E-001 +1.1182839967E+001  +6.1798252409E-001 +1.3731267042E+000 
12648663.329 +5.9339974177E-001 +3.4694596027E+000  +1.3079458926E-001 +4.5712590015E+000  +1.2856790354E-001 +1.0589719629E+001  +6.1985455602E-001 +1.7025181806E+000 
12773808.511 +6.2844941667E-001 +2.6612918957E+000  +1.3326662149E-001 +4.8832610826E+000  +1.3297191537E-001 +1.0434006965E+001  +6.4166206161E-001 -7.4115201367E-002 
12898953.692 +6.2519272491E-001 +3.2025992920E+000  +1.3475334675E-001 +5.1738623839E+000  +1.3306818962E-001 +1.0662903769E+001  +6.5335243966E-001 -1.5467544706E+000 
13024098.874 +6.6728692569E-001 -1.5859179655E-001  +1.3651135176E-001 +4.4290598401E+000  +1.3418444313E-001 +9.6134334753E+000  +6.4876602494E-001 -1.5384963016E+000 
13149244.055 +6.6283340624E-001 +5.4616143773E-001  +1.3821731562E-001 +5.4618427128E+000  +1.3536663928E-001 +9.1523156642E+000  +6.7282449571E-001 +7.0143530536E-001 
13274389.237 +6.5753072102E-001 -7.2859927045E-001  +1.3773785333E-001 +4.5975765483E+000  +1.3731177954E-001 +9.0545909324E+000  +7.0842033893E-001 -4.9805632849E-001 
13399534.418 +6.9367765041E-001 -1.4221354111E+000  +1.4053386437E-001 +5.3295360971E+000  +1.3918322319E-001 +8.2622821283E+000  +7.0314180755E-001 -3.6577645751E+000 
13524679.599 +6.9210994078E-001 +4.5984444456E-001  +1.4030977579E-001 +4.5822483977E+000  +1.3904246333E-001 +8.2019783731E+000  +7.1680035775E-001 -2.7917113372E+000 
13649824.781 +7.2292960364E-001 -2.1303813820E+000  +1.4211108868E-001 +5.3440794984E+000  +1.4266279317E-001 +7.4377370198E+000  +7.5215507581E-001 -2.8003474147E+000 
13774969.962 +7.1999324998E-001 -1.8194918578E+000  +1.4375381812E-001 +5.0235287792E+000  +1.4019928455E-001 +6.9642979785E+000  +7.5296751801E-001 -2.3101182763E+000 
13900115.144 +7.5610743824E-001 -2.5726845774E+000  +1.4446847644E-001 +5.4846223898E+000  +1.4200973483E-001 +6.8369404971E+000  +7.7608407819E-001 -3.5823786570E+000 
14025260.325 +7.8137044898E-001 -3.6544902399E+000  +1.4630690310E-001 +4.4043744864E+000  +1.4369783978E-001 +6.5476725503E+000  +7.8459355693E-001 -2.5238391484E+000 
14150405.507 +7.8545020742E-001 -4.3061084045E+000  +1.4692037943E-001 +5.2648258257E+000  +1.4504059505E-001 +6.1923603119E+000  +8.0731643418E-001 -5.0557105645E+000 
14275550.688 +7.9954299164E-001 -6.0647299055E+000  +1.4894993363E-001 +4.4448658459E+000  +1.4500823337E-001 +5.8150855283E+000  +8.3137969301E-001 -5.1206384475E+000 
14400695.870 +8.1775857703E-001 -3.6518742467E+000  +1.4765791828E-001 +4.1710757380E+000  +1.4601189600E-001 +5.4447702967E+000  +8.4864192197E-001 -4.3419909185E+000 
