!  2-Port S-parameters saved by WinCal
! VAR MeasName=S-Parameters (CALIBRATED_DATA) read from VNA (P5004A)
! VAR MeasDate=27/08/2024 14:12:24
! VAR NAME=S2_r2c8_RESET1_9k-100M_3
! VAR FILENAME=S2_r2c8_RESET1_9k-100M_3.S2P
! VAR DATE=27/08/2024 14:12:24
! VAR PHYS_PORTS=1,2
! VAR ObjTypeName=DATASET
! VAR IndexType=Frequency
!
# Hz S MA R 50
9000.000 +7.4053039848E-002 -1.5578003433E+002  +1.7809473914E-002 +9.5111419459E+001  +1.5831322215E-002 -8.1119290272E+001  +2.7500362624E-001 -1.2595886064E+002 
134145.181 +1.1098491914E-001 +1.6949184787E+002  +1.1298035519E-004 +1.2369286955E+002  +9.0586065964E-004 -5.2876344452E+001  +2.4431789500E-001 -1.7038758493E+002 
259290.363 +1.1079565537E-001 +1.6999487222E+002  +4.6191835534E-005 -3.3573692061E+001  +5.8829280467E-004 +6.8091104968E+001  +2.5169693557E-001 -1.6894850404E+002 
384435.544 +1.1542941746E-001 +1.6978581152E+002  +2.3578238116E-004 +7.6265943598E+001  +1.5409171394E-004 -1.6896163278E+002  +2.4545778829E-001 -1.7001299496E+002 
509580.726 +1.1363243853E-001 +1.7266243208E+002  +6.9623538816E-004 -1.7878373469E+002  +2.4043760901E-003 +4.0478128719E+001  +2.4414067141E-001 -1.6168735234E+002 
634725.907 +1.1388538294E-001 +1.7086123988E+002  +3.9725629168E-004 +9.7965453659E+001  +5.5592077181E-004 -3.7512962068E+001  +2.4998193358E-001 -1.6551582771E+002 
759871.089 +1.1781227138E-001 +1.7116186099E+002  +5.9483584096E-004 +5.3205437633E+001  +8.4034297461E-004 -6.8693163573E+001  +2.4011269520E-001 -1.6378868688E+002 
885016.270 +1.1848991597E-001 +1.6872395381E+002  +5.4604465259E-004 -4.3886768151E+001  +3.3234963543E-004 +1.4893678373E+002  +2.3993469898E-001 -1.6607570868E+002 
1010161.452 +1.1750965369E-001 +1.7266771088E+002  +1.7280177842E-003 -1.6757679145E+002  +3.2052231806E-003 -8.2491590279E+001  +1.6865399852E-001 -1.5037058303E+002 
1135306.633 +1.1455863926E-001 +1.7005018203E+002  +2.6981406159E-003 +1.2687164098E+002  +3.0171514181E-003 -1.1018612023E+002  +1.8878544075E-001 -1.5994289446E+002 
1260451.815 +1.2360465675E-001 +1.7454546606E+002  +8.9677665454E-004 -1.7388618764E+002  +5.8157734707E-004 -1.3984033529E+000  +2.2580113942E-001 -1.5535125762E+002 
1385596.996 +1.2658596418E-001 +1.7202299870E+002  +3.5889943677E-004 +5.1582594826E-001  +3.2476221972E-004 +1.4271425708E+002  +2.6547580590E-001 -1.5761269202E+002 
1510742.178 +1.2732955500E-001 +1.7116596652E+002  +1.2350916460E-003 -8.5526900690E+001  +1.3052437533E-003 -1.7131824885E+002  +2.4442056896E-001 -1.5985022639E+002 
1635887.359 +1.3090791326E-001 +1.6979902488E+002  +7.5581016558E-004 +5.6035268364E+001  +1.3452742260E-003 +1.6388535144E+002  +2.4667259461E-001 -1.5937514153E+002 
1761032.541 +1.2728275000E-001 +1.7048513287E+002  +1.1161088852E-003 +1.3698040961E+002  +9.9420221391E-004 +1.0234869323E+002  +2.2849003403E-001 -1.6147884180E+002 
1886177.722 +1.2801578588E-001 +1.6773691405E+002  +3.5478275516E-003 +8.1169288758E+001  +1.0703380654E-003 -6.2729663727E+001  +2.2604900835E-001 -1.5848242410E+002 
2011322.904 +1.3349770200E-001 +1.6606098213E+002  +1.9476324377E-003 +8.8169941879E+001  +1.3380227391E-003 -2.1083058771E-001  +1.4931706077E-001 +1.7928909057E+002 
2136468.085 +1.3190762769E-001 +1.6675003700E+002  +4.8821282391E-003 -5.1547045069E+001  +3.0757808540E-003 -5.7157216375E+001  +1.6108150328E-001 -1.7487183789E+002 
2261613.267 +1.3378042547E-001 +1.6465787433E+002  +2.8504309709E-003 +1.5789554719E+002  +2.2627317233E-003 +1.3129954524E+001  +1.2028973823E-001 -1.6028796607E+002 
2386758.448 +1.3670854109E-001 +1.6317200192E+002  +1.9627424617E-003 +5.6171949836E+001  +2.9556953107E-003 +6.2900826786E+001  +1.7751769042E-001 +1.6687250685E+002 
2511903.630 +1.4265906301E-001 +1.6227671900E+002  +1.4489559044E-003 -1.5914551349E+002  +2.6064971763E-003 -2.1685724558E+001  +2.8394510882E-001 +1.6581857334E+002 
2637048.811 +1.2303067702E-001 +1.5371252531E+002  +1.5523629486E-002 +1.0230836155E+002  +8.1093573831E-003 -1.0865151939E+002  +2.0879661859E-001 +1.4178038978E+002 
2762193.992 +1.0148291827E-001 +1.7584697274E+002  +2.7429984847E-002 +4.3750334570E+001  +1.8778601028E-002 -6.5686753292E+001  +8.4021684100E-001 +1.1915658548E+002 
2887339.174 +8.6747410315E-002 +1.5415170863E+002  +2.1129332313E-002 -6.4257800407E+001  +1.5209582334E-002 -1.0163701340E+002  +4.3990866305E-001 -8.6967098840E+001 
3012484.355 +1.1565987706E-001 -1.7684561945E+002  +1.3958352275E-002 -3.2387151870E+001  +1.3009827553E-002 +4.4712682107E+001  +2.6543055899E-001 -7.4663282472E+001 
3137629.537 +8.2423808044E-002 +1.7426878050E+002  +1.2736294819E-002 -6.2653419657E+001  +1.6507585874E-002 +1.5640539952E+002  +4.9963052163E-001 -1.0901074829E+002 
3262774.718 +7.5989121500E-002 +1.7470930930E+002  +1.1474561267E-002 -1.6085991334E+002  +8.6082037561E-003 +5.0590367145E+001  +1.1787984161E-001 +4.7845722767E+001 
3387919.900 +1.6040429374E-001 +1.6075753433E+002  +8.0888565980E-003 +5.9421009855E+001  +4.2145567261E-003 -4.2296133666E+001  +1.7325909636E-001 +3.3295117185E+001 
3513065.081 +1.4567442355E-001 +1.5705003121E+002  +8.4865385737E-003 +1.7845223173E+000  +1.3087192580E-002 -5.9578910147E+000  +6.6453094890E-001 +9.8045995431E+001 
3638210.263 +1.3687529307E-001 +1.5073038880E+002  +6.8420851667E-003 +3.1781964805E+001  +6.4900663974E-003 -1.2255429694E+001  +5.9563820235E-001 +1.6351433541E+002 
3763355.444 +1.8328022671E-001 +1.4934829314E+002  +1.5310300145E-001 +7.4360819185E+001  +6.1266572252E-002 +3.7132712530E+000  +3.5266313100E+000 +3.7926396693E+001 
3888500.626 +1.8737039992E-001 +1.5374916142E+002  +2.1015695665E-003 +4.3999617721E+001  +1.1280306452E-002 +3.8402203791E+001  +6.0406368102E-001 +7.2366611733E+001 
4013645.807 +2.0211222007E-001 +1.5002944624E+002  +1.0027908142E-002 +8.0009914546E+001  +6.3353100788E-003 -4.4260421344E+001  +4.3104993669E-001 +1.2885832420E+002 
4138790.989 +1.6901999061E-001 +1.4531465462E+002  +5.0783612619E-003 +1.2071578198E+002  +9.2496633146E-003 +2.9717290392E+001  +4.5541646632E-001 +1.0779421692E+002 
4263936.170 +2.1036858242E-001 +1.4588812440E+002  +1.0572550015E-002 +2.7512378824E+001  +6.8372749983E-003 +5.5601513350E+001  +6.4210974254E-001 +1.4243391431E+002 
4389081.352 +2.1514996370E-001 +1.3928483994E+002  +1.7761524167E-002 +6.1134911723E+001  +5.3561600745E-003 -2.9563514429E+001  +4.1867283489E-001 +8.4276060948E+001 
4514226.533 +2.2532219461E-001 +1.4224851356E+002  +3.1567347318E-002 +6.0742686920E+001  +1.0109864715E-002 +3.9964189953E+001  +8.0257676495E-001 +9.6151207020E+001 
4639371.715 +2.5181402334E-001 +1.3580786592E+002  +1.3594855196E-002 -1.5416870250E+002  +2.0118788427E-002 -1.7088855676E+002  +1.3436756653E+000 +7.8944884984E+001 
4764516.896 +4.4511119664E-001 +1.2205335566E+002  +8.7766124555E-002 +1.6453376272E+002  +1.7283016178E-001 +1.2042024480E+002  +7.9121725629E+000 +7.1481427999E+001 
4889662.078 +4.8359349902E-001 +1.0151244895E+002  +9.7943669974E-002 +9.5226950453E+000  +5.2864322166E-002 +5.2849626575E+001  +1.9320572527E+000 -5.9711811524E+001 
5014807.259 +3.8862614347E-001 +1.2946452624E+002  +8.4981473596E-003 +1.7067225682E+002  +4.7607537172E-002 +4.1930250380E+001  +1.5825485725E+000 +1.1513537901E+002 
5139952.441 +4.0785992508E-001 +1.2033594302E+002  +4.5629889356E-002 +1.2912874103E+002  +4.0646328449E-003 -2.2732343186E+001  +1.5599509369E+000 +1.0093728396E+002 
5265097.622 +3.4339372521E-001 +1.3060732404E+002  +2.1310723343E-002 +7.1340409873E+001  +4.2747364161E-002 +1.2413453441E+002  +2.7812468339E+000 +1.5203144205E+002 
5390242.804 +3.9976772336E-001 +1.3591837952E+002  +1.2630904588E-002 +8.9568543278E+001  +1.1950278594E-002 +8.1755243185E+001  +1.2833615537E+000 +9.9466600710E+001 
5515387.985 +4.1823491723E-001 +1.3125622582E+002  +4.6831871507E-003 +4.2533169625E+001  +2.2645635837E-002 +8.1684703599E+001  +2.5142397183E+000 +4.9473029627E+001 
5640533.166 +4.8546133986E-001 +1.1894351437E+002  +2.0505801073E-002 +1.0661923889E+002  +3.5826085947E-002 +1.2454927724E+002  +3.4462401426E+000 +9.0248375607E+001 
5765678.348 +5.0946923505E-001 +1.2728349852E+002  +2.2047440173E-002 +7.6042344484E+001  +3.0143371070E-002 +7.3326492941E+001  +1.6312681316E+000 +3.5699870371E+001 
5890823.529 +5.2937833925E-001 +1.1140487631E+002  +2.8869500631E-002 +3.6723011572E+001  +6.1019687736E-002 +4.5772929927E+001  +3.0011694508E+000 +3.8342717508E+001 
6015968.711 +6.6585987896E-001 +1.1859021928E+002  +1.7810391707E-002 +2.0720887125E+001  +4.3957967858E-002 +8.4580435296E+001  +2.3623738197E+000 +4.8996127186E+001 
6141113.892 +6.3453832464E-001 +1.1419532618E+002  +6.1459019124E-003 +1.7995618460E+002  +2.7222809544E-002 +3.7637210441E+001  +1.4286300905E+000 +6.6038951540E+001 
6266259.074 +9.3487948367E-001 +1.1051334635E+002  +5.0761060817E-002 +5.8665427997E+001  +2.3339561432E-002 +4.9644329557E+001  +2.0801185432E+000 +2.1178168368E+001 
6391404.255 +1.0262191662E+000 +1.0552954109E+002  +1.5786807623E-002 +2.8725354586E+001  +2.3148787016E-002 +1.0261738306E+002  +1.9669876899E+000 +1.1841757971E+001 
6516549.437 +9.9792585176E-001 +8.7620714342E+001  +3.3565889458E-002 +9.9317346091E+001  +2.2020474841E-002 +9.3746384047E+000  +1.3583251810E+000 +1.9987817456E+001 
6641694.618 +1.7985964992E+000 +7.2860623430E+001  +3.1952747359E-002 +1.0826080347E+002  +1.8305462889E-002 +1.5372533842E+001  +1.4849499475E+000 +1.9616680846E-001 
6766839.800 +1.4614638750E+000 +6.1611779058E+001  +3.3355961072E-002 +7.8974896770E+000  +4.1580740117E-002 +6.3768694496E+001  +1.4004789457E+000 -1.0188310641E+001 
6891984.981 +1.7845008897E+000 +2.3859210228E+001  +2.5367189097E-002 +7.7888216314E+000  +1.1659284020E-002 +2.2988533783E+001  +1.3740515677E+000 +5.1989571401E+000 
7017130.163 +1.5739815958E+000 +2.8945282068E+001  +2.1521872359E-002 +4.7972553892E+001  +1.8491209001E-002 +1.3867487301E+001  +1.1610694848E+000 -2.6548431388E+000 
7142275.344 +1.6988087115E+000 +8.8142129329E+000  +1.9474941517E-002 +1.1892999893E+001  +6.5341259217E-003 +2.2645961272E+001  +1.3282099360E+000 -1.5513927514E+001 
7267420.526 +1.3642139406E+000 +1.1229742871E+000  +4.6332776789E-003 +6.4041709722E+001  +3.2534343248E-003 +4.0305185979E+001  +1.2676305206E+000 -8.0561169792E+000 
7392565.707 +1.3465930498E+000 -2.9273447106E+000  +1.8382653361E-002 +7.0977978898E+001  +8.1400091322E-003 +1.0930207805E+001  +1.3685758122E+000 -6.1266689775E+000 
7517710.889 +1.2015055199E+000 +2.8514483179E-001  +6.9660829144E-003 -7.4895504964E+000  +1.1817074694E-002 +2.4249737712E+001  +1.2188485830E+000 -8.9971737244E+000 
7642856.070 +1.0196708815E+000 +2.4726951052E+000  +1.2930147189E-002 -8.3946805968E+000  +9.2587335009E-003 +2.5486623464E+001  +1.0236853676E+000 -3.9765974550E+000 
7768001.252 +9.6881054468E-001 +4.0435607523E-001  +1.3073731630E-002 +2.6246911468E+001  +2.6869589782E-003 +2.1075118302E+001  +9.6873066057E-001 -3.6036328188E+000 
7893146.433 +9.0417644177E-001 +6.5242866307E-001  +9.2424157615E-003 +1.1527905035E+001  +1.1792533434E-002 +5.8890307381E+001  +8.4232034595E-001 +6.5922954514E-001 
8018291.615 +7.9419577893E-001 +4.4200112624E+000  +1.6343602059E-002 +5.0933852391E+001  +1.0796398926E-002 -8.7731790113E+000  +8.4932190583E-001 -8.0662716578E-001 
8143436.796 +8.2728399796E-001 +5.2047232163E+000  +1.2410640957E-002 +2.9760535555E+000  +1.1124898862E-002 +3.1766469448E+001  +8.2052227147E-001 -3.3900700292E+000 
8268581.977 +8.0054428530E-001 +9.6665485629E+000  +1.2344008022E-002 +2.7593984241E+001  +1.2479729600E-002 +1.1606671144E+001  +7.0183551680E-001 +6.7046685621E-002 
8393727.159 +7.8850367430E-001 +8.7654203038E+000  +9.3496833463E-003 +2.0062523034E+001  +1.0726037766E-002 +4.6204846891E+001  +6.9149296776E-001 +3.4553074162E+000 
8518872.340 +7.3433174973E-001 +1.1527583750E+001  +1.1220611478E-002 +8.9797453318E+000  +9.3901204343E-003 +1.8385359750E+001  +7.1321418506E-001 -8.1261157679E-001 
8644017.522 +6.4701686529E-001 +1.0565699435E+001  +7.2777209698E-003 -2.8589557611E+001  +1.0627740577E-002 +3.1637943430E+001  +7.2805001097E-001 -5.7664332674E+000 
8769162.703 +6.2836713290E-001 +7.8013424996E+000  +1.1224540064E-002 +7.5902723308E+000  +1.2020191105E-002 +3.7596254194E+001  +6.6500929449E-001 +3.6606476873E+000 
8894307.885 +6.3898462774E-001 +9.3461662278E+000  +5.0616795594E-003 +1.3796073613E+001  +9.9861852272E-003 +3.2583266856E+001  +6.4712681695E-001 -2.4488990668E+000 
9019453.066 +6.6947218533E-001 +5.9023884912E+000  +1.0975661596E-002 +4.7158434287E+001  +1.1998292485E-002 +3.0160105579E+001  +6.3889662446E-001 -9.0350017128E-001 
9144598.248 +5.6091680932E-001 +3.8498257526E+000  +8.4567376205E-003 +3.9621550555E+000  +6.6969429845E-003 +5.5429991485E+001  +6.5791592571E-001 -7.9763789954E-001 
9269743.429 +5.3606912182E-001 -1.0399594698E+000  +8.2691938141E-003 +1.1336043867E+001  +7.1225056013E-003 +2.5695805272E+001  +5.7723720071E-001 -8.3775382199E-001 
9394888.611 +5.8261689098E-001 +4.9813930046E-001  +7.7139830313E-003 +4.6544044911E+001  +8.7682565553E-003 +5.3886073551E+001  +6.1123179871E-001 -1.5441433788E+000 
9520033.792 +5.3220366643E-001 +1.3522493984E-001  +8.5647396888E-003 +2.6027905691E+001  +1.0728074222E-002 +4.1028089299E+001  +5.7354493410E-001 -4.8287210951E+000 
9645178.974 +5.3582503191E-001 +2.2375630902E+000  +1.0174389855E-002 +1.8315311480E+001  +1.0843251315E-002 +4.9351311686E+001  +6.5065892151E-001 -5.8691257938E+000 
9770324.155 +5.2747550350E-001 +1.4960201230E+000  +1.1588493490E-002 +2.2806836376E+001  +9.9693343951E-003 +3.8459546513E+001  +5.5288559177E-001 -7.4765648036E+000 
9895469.337 +5.2352700246E-001 -6.1538046059E-001  +9.7265989723E-003 +3.8136031031E+001  +9.5851412277E-003 +3.8961902807E+001  +5.8979669785E-001 -7.5104728332E+000 
10020614.518 +5.6574601629E-001 -2.8462708744E-001  +7.2925718751E-003 +1.6737460162E+001  +8.0250630214E-003 +4.8121701531E+001  +5.5569264217E-001 -5.4803028478E+000 
10145759.700 +5.6285865805E-001 -6.6096868823E-002  +1.0144345602E-002 +2.6028598890E+001  +8.8602323180E-003 +3.6505591049E+001  +6.0448443435E-001 -5.0874088896E+000 
10270904.881 +5.5007526594E-001 +4.2360915900E+000  +1.1870107081E-002 +2.2712286908E+001  +9.3513304813E-003 +4.0943071003E+001  +6.0304909238E-001 -3.9700816596E-001 
10396050.063 +5.5987509971E-001 +4.6065376665E+000  +8.7878984047E-003 +2.2789764429E+001  +8.7047190689E-003 +4.0481390536E+001  +5.5332894164E-001 -3.7625180683E+000 
10521195.244 +5.7560224135E-001 +5.3418763488E+000  +9.0202920231E-003 +3.7686258363E+001  +8.4495040693E-003 +2.8325684358E+001  +5.8698362247E-001 -8.4304705784E-001 
10646340.426 +5.6746495136E-001 +5.8089820295E+000  +8.2700865488E-003 +2.4483354187E+001  +6.6800704268E-003 +3.5372383889E+001  +5.9397061306E-001 -6.4594121291E-001 
10771485.607 +5.7006232572E-001 +6.6045597628E+000  +1.0234284231E-002 +2.1021765134E+001  +9.6081707628E-003 +5.1026189137E+001  +5.7670700509E-001 +3.2339310543E+000 
10896630.788 +5.6538488097E-001 +7.9911072324E+000  +7.6284599164E-003 +2.7463675105E+001  +8.9754633478E-003 +6.3730584165E+001  +6.0260991651E-001 +6.5107300175E-001 
11021775.970 +5.5460678040E-001 +1.0839556749E+001  +1.1279430589E-002 +2.0249405509E+001  +1.3663109677E-002 +4.2505419022E+001  +6.3458636839E-001 +1.4409130764E+000 
11146921.151 +5.7236041873E-001 +5.7210429814E+000  +9.1643476104E-003 +2.6706834959E+001  +9.9439636317E-003 +4.4198945740E+001  +6.1119127191E-001 +2.5023516268E+000 
11272066.333 +6.0055178081E-001 +4.8716680243E+000  +1.0233778882E-002 +3.1350292213E+001  +9.9488348083E-003 +3.5192677109E+001  +6.2749799590E-001 +1.3525972055E+000 
11397211.514 +5.9122118467E-001 +6.3244805140E+000  +1.1879271166E-002 +3.1108235320E+001  +9.9490505674E-003 +2.8646161343E+001  +6.2965800998E-001 +2.7347985522E+000 
11522356.696 +6.1047449335E-001 +6.6902980352E+000  +1.1435003952E-002 +3.5628911796E+001  +9.4599725791E-003 +4.4796927203E+001  +6.4134001423E-001 -4.8904540577E-001 
11647501.877 +6.0421837326E-001 +7.8615650857E+000  +9.5275678043E-003 +1.0985561039E+001  +1.1389514560E-002 +3.4597016221E+001  +6.7351693373E-001 +1.0212938055E+000 
11772647.059 +5.9719584168E-001 +4.6552367302E+000  +1.0397709547E-002 +2.3679964236E+001  +1.1444278216E-002 +3.4013927603E+001  +6.6818409106E-001 +4.9881006686E-001 
11897792.240 +6.4364411773E-001 +4.2954612756E+000  +9.7649261715E-003 +2.8001746167E+001  +1.1204933684E-002 +4.2785630109E+001  +6.6879769856E-001 -2.0578627034E+000 
12022937.422 +6.5312093598E-001 +4.8811345564E+000  +9.3568740147E-003 +2.2871275916E+001  +1.0727231640E-002 +4.7257018847E+001  +6.6643547547E-001 -8.8703904748E-001 
12148082.603 +6.6640829169E-001 +3.2578515844E+000  +1.1583603988E-002 +2.8150752292E+001  +1.0814223640E-002 +4.0630445776E+001  +6.8662365844E-001 +1.1242167819E+000 
12273227.785 +7.0502545310E-001 +4.4012115786E+000  +1.1550764053E-002 +3.2594857156E+001  +1.1613553980E-002 +3.6600506351E+001  +6.9561778297E-001 -1.4939109254E+000 
12398372.966 +6.7986431419E-001 +2.5336588545E+000  +1.2789422958E-002 +3.0662013005E+001  +1.1019546556E-002 +4.3156072571E+001  +7.1378414059E-001 +4.5506261283E-001 
12523518.148 +6.9179243081E-001 +3.6194106128E+000  +1.0060118504E-002 +4.0098106129E+001  +1.0348708528E-002 +3.5715152763E+001  +7.3444124745E-001 +8.5142044613E-001 
12648663.329 +7.1596280779E-001 +1.6256633912E+000  +1.0981888781E-002 +3.5025508106E+001  +1.2986584745E-002 +3.9700356553E+001  +7.4339720803E-001 -9.0724644907E-001 
12773808.511 +7.5150538464E-001 +1.9569054664E+000  +1.1952849797E-002 +3.5367689510E+001  +1.0266636364E-002 +4.5453754505E+001  +7.5891139527E-001 +7.3243001390E-002 
12898953.692 +7.5499374718E-001 +8.6220631849E-001  +1.2879348563E-002 +4.0344639636E+001  +1.2192466426E-002 +4.8096670256E+001  +7.8334706158E-001 -8.8050218201E-001 
13024098.874 +7.6894045390E-001 +1.4643447089E+000  +1.2090099414E-002 +3.4651106130E+001  +1.1349366923E-002 +3.6299044740E+001  +7.7216290947E-001 -1.3934308563E+000 
13149244.055 +7.9075234876E-001 -8.7272008380E-001  +1.2652263751E-002 +3.2703534467E+001  +1.1125275727E-002 +4.0585569915E+001  +8.0395525903E-001 -3.5302041418E+000 
13274389.237 +7.9923807660E-001 +3.2282963622E-001  +1.2377995649E-002 +3.5487083984E+001  +1.2706781657E-002 +3.9848764922E+001  +8.2608401694E-001 -2.0646863334E-001 
13399534.418 +8.1914587551E-001 -8.6338337621E-001  +1.2399486231E-002 +3.8926453353E+001  +1.2620987302E-002 +3.7462168172E+001  +8.4677603519E-001 -9.1067450484E-001 
13524679.599 +8.6256033673E-001 -1.2787607677E+000  +1.2323640197E-002 +3.6629055975E+001  +1.1982962690E-002 +4.0387418367E+001  +8.4023959823E-001 -1.8550914312E+000 
13649824.781 +8.4380024923E-001 -1.4639951648E+000  +1.3348191290E-002 +3.8592540700E+001  +1.2021591400E-002 +3.3235912534E+001  +8.7234146838E-001 -2.0281501361E+000 
13774969.962 +8.7157393254E-001 -2.9965827782E+000  +1.2155188243E-002 +3.6061084674E+001  +1.3560244544E-002 +3.5777375828E+001  +8.8547883646E-001 -3.4509169950E+000 
13900115.144 +8.8590196727E-001 -2.1064701197E+000  +1.2520718377E-002 +3.6962840822E+001  +1.1576076278E-002 +3.9484926995E+001  +9.1651219002E-001 -3.5506400598E+000 
14025260.325 +9.0774462837E-001 -3.5241206118E+000  +1.2461667190E-002 +4.1980315082E+001  +1.3601066314E-002 +3.8723888359E+001  +9.1169888207E-001 -3.3434357287E+000 
14150405.507 +9.3364737855E-001 -3.0456250688E+000  +1.3028618897E-002 +3.7106837432E+001  +1.2720696245E-002 +4.3910143506E+001  +9.6226614801E-001 -4.7724468803E+000 
14275550.688 +9.3799966534E-001 -5.6511978226E+000  +1.2930610539E-002 +3.6134266989E+001  +1.3542513664E-002 +3.8827821121E+001  +9.9008243750E-001 -3.2652495856E+000 
14400695.870 +9.7542125909E-001 -5.3301788930E+000  +1.2789526006E-002 +3.4083623658E+001  +1.2507692050E-002 +3.4766805028E+001  +9.7482731074E-001 -4.8930671324E+000 
