!  2-Port S-parameters saved by WinCal
! VAR MeasName=S-Parameters (CALIBRATED_DATA) read from VNA (P5004A)
! VAR MeasDate=27/08/2024 16:37:56
! VAR NAME=S2_r2c9_SET1_9k-100M_2
! VAR FILENAME=S2_r2c9_SET1_9k-100M_2.S2P
! VAR DATE=27/08/2024 16:37:56
! VAR PHYS_PORTS=1,2
! VAR ObjTypeName=DATASET
! VAR IndexType=Frequency
!
# Hz S MA R 50
9000.000 +5.4310107286E-002 -1.6800295740E+002  +2.5580363767E-002 -1.7014089060E+002  +5.0961407075E-003 +8.4965633343E+001  +2.2249464482E-001 -1.1915865789E+002 
134145.181 +1.1119951881E-001 +1.6984033453E+002  +2.0514194868E-004 +2.4258005027E+001  +4.6249573952E-004 +4.9575248760E+001  +2.3955749632E-001 -1.7087009252E+002 
259290.363 +1.1175909319E-001 +1.6974066200E+002  +7.8862104861E-004 +1.7249336249E+002  +6.5887288986E-004 +1.2487483292E+002  +2.4105292174E-001 -1.6877855169E+002 
384435.544 +1.1312886816E-001 +1.6993359042E+002  +7.0631305828E-004 -3.1572182917E+000  +1.3749556156E-003 +6.8451037638E+001  +2.4783464678E-001 -1.6528781277E+002 
509580.726 +1.1175910532E-001 +1.7083488677E+002  +1.4203812629E-003 -3.4436066247E+001  +8.6508671013E-004 +1.6169400821E+002  +2.5151615601E-001 -1.6621933762E+002 
634725.907 +1.1790255296E-001 +1.7086820783E+002  +7.3401187874E-004 -7.1954613555E+001  +1.8700871717E-003 +1.7259956658E+002  +2.5241511159E-001 -1.6188549339E+002 
759871.089 +1.1682596130E-001 +1.7061686060E+002  +7.0825179155E-004 -1.0704631807E+002  +2.1714664036E-004 +8.6485402137E+001  +2.5168067742E-001 -1.6475185599E+002 
885016.270 +1.1793209003E-001 +1.6998744786E+002  +8.4148298620E-004 -9.4511495032E+001  +3.8158883607E-004 +9.3531381760E+001  +2.3593340124E-001 -1.6523158307E+002 
1010161.452 +1.1659573801E-001 +1.7129984483E+002  +1.3421191288E-003 +1.1369397240E+002  +8.2195108707E-004 +6.5823001284E+001  +1.9126552554E-001 -1.6289701833E+002 
1135306.633 +1.1784046660E-001 +1.7255279943E+002  +1.0564843208E-003 +1.3628381195E+002  +6.7584688677E-003 -3.1965624477E+001  +1.5661303378E-001 -1.6060689514E+002 
1260451.815 +1.2113191388E-001 +1.7254836559E+002  +5.7053769679E-004 +4.0819866058E+000  +1.1708707677E-003 -2.0441408318E+001  +2.5260952731E-001 -1.5718221317E+002 
1385596.996 +1.2885064724E-001 +1.7334575869E+002  +3.0582903580E-004 -1.2421005585E+002  +4.3514096058E-005 -1.0827379639E+002  +2.7112937190E-001 -1.5916004968E+002 
1510742.178 +1.2635916587E-001 +1.7191230986E+002  +1.1476665167E-003 +1.3596078466E+002  +1.6594921351E-003 +3.8448845049E+001  +2.7271520112E-001 -1.5764853319E+002 
1635887.359 +1.2886274046E-001 +1.7094531943E+002  +4.6855305123E-004 -1.6317349208E+002  +5.2589459907E-004 -1.6283463986E+002  +2.4601591447E-001 -1.5582574120E+002 
1761032.541 +1.2792025957E-001 +1.7195701483E+002  +1.7423640749E-003 +1.1601302501E+001  +1.6755478974E-003 -8.7273009146E+001  +2.1214206492E-001 -1.6210951860E+002 
1886177.722 +1.3036652921E-001 +1.6889588882E+002  +6.9417899748E-004 +1.1167808493E+001  +6.9508709201E-004 +6.4388732442E+001  +2.1321099131E-001 -1.6607003307E+002 
2011322.904 +1.2800647037E-001 +1.6680266283E+002  +2.4652105739E-003 +2.2909634822E+001  +6.7310131849E-004 +1.5158123714E+002  +2.0228996376E-001 +1.7437167828E+002 
2136468.085 +1.2658458083E-001 +1.6623034011E+002  +4.3642328434E-003 -9.6945628829E+001  +8.1987096918E-003 -4.1401283375E+001  +1.0199232341E-001 -1.7144796690E+002 
2261613.267 +1.2768505365E-001 +1.6614522423E+002  +5.4754285681E-003 +7.7055516486E+001  +2.8962394791E-003 -6.7822511577E+001  +1.4346491982E-001 +1.7537693697E+002 
2386758.448 +1.3647472238E-001 +1.6570265733E+002  +1.8638343817E-003 +1.2702913145E+002  +2.1129273504E-003 +1.5236353972E+002  +2.1105283648E-001 -1.7892689312E+002 
2511903.630 +1.3907983763E-001 +1.6535113520E+002  +4.1281826011E-003 +1.6460873856E+002  +9.0022198580E-003 +1.6526775004E+002  +2.9982064980E-001 +1.0086720165E+002 
2637048.811 +1.1856867927E-001 +1.6823289829E+002  +3.9922818810E-003 +9.4907033876E+001  +1.1338082743E-002 +4.2654593041E+001  +4.7475040711E-001 +1.5653907043E+002 
2762193.992 +9.8916944488E-002 +1.5860872497E+002  +5.2012324813E-003 +9.5395462660E+001  +1.3128916870E-002 -1.7664269704E+002  +7.3217366503E-001 -9.1708331746E+001 
2887339.174 +1.1595129885E-001 +1.7265331531E+002  +5.0269426004E-003 -1.6450294557E+002  +1.1848319184E-002 -1.6409996021E+002  +2.9267449023E-001 -9.5457992384E+001 
3012484.355 +1.2656153783E-001 +1.6333831792E+002  +2.8224341726E-002 -1.2559305600E+002  +2.9390155633E-002 -1.0119568801E+002  +8.6091199183E-001 -4.7446968019E+001 
3137629.537 +8.6734375435E-002 +1.5632545105E+002  +5.6901457635E-003 -8.7529223452E+001  +1.2108917201E-002 +1.2620309723E+001  +1.5235203377E-001 -1.0211794970E+002 
3262774.718 +1.0410086225E-001 +1.7596385198E+002  +1.4755324020E-002 -1.9082559647E+001  +1.7765783859E-002 +6.2678014152E+001  +1.0469045012E+000 +1.1523922949E+001 
3387919.900 +1.2917771849E-001 +1.5212256977E+002  +9.0617834493E-003 +4.4372994301E+001  +9.3863911031E-003 -1.5242632500E+002  +5.5410981880E-002 -1.0981421709E+002 
3513065.081 +1.4750130664E-001 +1.5086468137E+002  +3.3699268105E-002 +5.3516868086E+001  +1.0570115488E-002 -8.9719423310E+001  +5.5014328335E-001 +3.7856051339E+001 
3638210.263 +1.4037864301E-001 +1.3957207833E+002  +1.2541000000E-002 +5.0057230498E+001  +2.4611362236E-002 +8.6974558607E+001  +7.4582305325E-001 +1.5917447155E+002 
3763355.444 +1.7261496306E-001 +1.4715171650E+002  +1.2521942601E-002 +7.0731283425E+001  +6.9238204211E-003 +4.2265739198E+000  +4.7062704700E-001 +8.0466235721E+001 
3888500.626 +2.0680484051E-001 +1.4625803075E+002  +4.7139919200E-003 +5.9514879036E+001  +1.1604469075E-002 -3.0892044176E+001  +3.8742933364E-001 +1.4175617616E+002 
4013645.807 +1.9660204703E-001 +1.5077262236E+002  +5.9762230841E-003 -5.0049596088E+001  +2.1138926617E-003 -1.3184570096E+002  +3.3089450879E-001 +1.1770596445E+002 
4138790.989 +1.9158878480E-001 +1.4918407748E+002  +5.4619015610E-003 +6.3123630073E+001  +3.4031518993E-003 -1.6036211359E+002  +5.2704129269E-001 +1.4786151302E+002 
4263936.170 +1.8964319870E-001 +1.4330297671E+002  +6.6043850769E-003 +5.6347389355E+001  +6.8676121605E-003 -9.0193166607E+001  +3.9100712260E-001 +8.0240821840E+001 
4389081.352 +1.9304052626E-001 +1.3972929192E+002  +6.7043955706E-003 +9.2116265560E+001  +3.8485457598E-003 +4.9176703648E+001  +3.6172257296E-001 +1.1359497466E+002 
4514226.533 +2.3113439184E-001 +1.3779691284E+002  +4.0910794550E-002 +1.6903301877E+002  +8.0002980481E-002 -1.7620247037E+000  +4.7238765475E+000 -1.2386340653E-001 
4639371.715 +2.5953019525E-001 +1.3345093204E+002  +2.5880064229E-002 +1.7308908098E+002  +1.9160721275E-002 -7.0628596697E+001  +1.3287876445E+000 +5.6578792186E+001 
4764516.896 +3.9822258473E-001 +1.3688899262E+002  +1.7757716989E-002 -1.2807280352E+002  +3.4989805943E-002 -3.3723101484E+001  +1.8167062254E+000 -1.2359967959E+002 
4889662.078 +3.9046380081E-001 +1.2418260632E+002  +5.5329629142E-002 +1.0184576845E+001  +3.9034564153E-002 -9.5248682990E+001  +3.0671618405E+000 -1.1086903427E+002 
5014807.259 +3.2044990518E-001 +1.2849859271E+002  +2.1901497127E-002 -1.2026271633E+002  +2.5610141724E-002 -2.4119266607E+001  +1.1948827075E+000 -1.9496047495E+001 
5139952.441 +4.8471408956E-001 +1.2616720758E+002  +3.7313531242E-002 -1.0784479175E+002  +2.7804923079E-002 +7.1712381786E+001  +1.3050140854E+000 +7.3630420216E+001 
5265097.622 +3.7258686670E-001 +1.3520125361E+002  +1.4794331674E-002 +1.1949706240E+002  +2.8633153708E-002 +9.5078461460E+001  +1.5618596777E+000 +8.6931185407E+001 
5390242.804 +3.9994375064E-001 +1.2823468208E+002  +1.8734752352E-002 +8.5790117402E+001  +3.6870933866E-002 +7.6084602267E+001  +1.6362335858E+000 +6.5574095191E+001 
5515387.985 +3.9996957542E-001 +1.3432981359E+002  +2.1485944351E-002 +1.2327607319E+002  +2.1295937180E-002 +2.8939245526E+001  +1.5773934885E+000 +6.4534249522E+001 
5640533.166 +4.3804905111E-001 +1.3310319928E+002  +1.4089820177E-002 +6.2269138066E+001  +4.3510676713E-002 +5.0034619949E+001  +1.9858769107E+000 +5.4775688315E+001 
5765678.348 +5.2193728096E-001 +1.2583220920E+002  +1.9941496008E-002 +1.2781897691E+002  +1.7612995380E-002 +1.8929032466E+001  +1.7068804334E+000 +8.4769174724E+001 
5890823.529 +6.0447988535E-001 +1.2005609440E+002  +3.9247344624E-002 +5.7963883392E+001  +6.9098198276E-002 -4.9500640995E+000  +2.5329283417E+000 +2.7883923088E+001 
6015968.711 +5.6773146633E-001 +1.2309422516E+002  +1.0613038945E-002 +1.3104882957E+002  +1.4834106255E-002 +6.0248361837E+001  +1.2657478535E+000 +3.3535708124E+001 
6141113.892 +6.5638958752E-001 +1.1343272660E+002  +5.3039242155E-002 +7.8927681416E+001  +2.9375787916E-003 +1.1970756353E+002  +1.9962376589E+000 +6.2970855323E+001 
6266259.074 +8.7066259279E-001 +1.0673555025E+002  +3.8903132108E-002 +7.1855694421E+001  +3.9372070550E-002 +6.5667423749E+001  +1.6258594739E+000 +2.4689627636E+001 
6391404.255 +1.0497732754E+000 +9.8407932882E+001  +1.1779079328E-002 +4.8310431324E+001  +7.6130095465E-003 +3.4249063825E+001  +1.9568636591E+000 +1.8641709930E+001 
6516549.437 +1.3608867398E+000 +8.9264182710E+001  +9.8882752523E-003 +4.5511970786E+001  +3.7041463244E-002 +4.8918374045E+001  +1.2066008033E+000 +1.0768991216E+001 
6641694.618 +1.5270800962E+000 +9.2800809280E+001  +1.3935290993E-002 +5.0238209696E+001  +2.9002195408E-002 +5.0027570814E+001  +1.4682910728E+000 +4.8807680417E+000 
6766839.800 +1.5990842439E+000 +5.4028746550E+001  +3.9478310617E-002 +1.0405193047E+002  +3.3673460582E-002 +1.7496485493E+001  +1.3689812046E+000 -4.8747969722E+000 
6891984.981 +2.0148144871E+000 +3.4761516146E+001  +5.3292834359E-002 +1.6341337755E+001  +2.5026469731E-002 +4.8200145056E+001  +1.3004082812E+000 -2.8230140691E+000 
7017130.163 +1.8627756020E+000 +3.1384550838E+001  +3.1529951673E-002 +4.3080365131E+001  +1.3193262689E-002 +2.0804887691E+001  +1.2444204348E+000 -8.2107966494E+000 
7142275.344 +1.7158816477E+000 +1.0190494786E+001  +2.3054552536E-002 +4.5250948877E+001  +6.6697283191E-003 -3.1536286189E+001  +1.3014172337E+000 -1.1136186209E+001 
7267420.526 +1.4794532763E+000 +5.8105596062E+000  +1.9556659513E-002 +2.3343233184E+001  +1.5003691990E-002 -1.1359270826E+001  +1.3638911434E+000 -7.3039115068E+000 
7392565.707 +1.3548593353E+000 -3.0301901517E+000  +1.7577732061E-002 -1.9111637971E+001  +1.0232844088E-002 +5.1319765934E+001  +1.3099181791E+000 -1.2039671221E+001 
7517710.889 +1.1162351702E+000 -3.9085062987E+000  +1.6548549252E-002 +9.0005604247E+000  +4.4439922844E-003 +6.9133352920E+001  +1.1546903631E+000 -9.4782854262E+000 
7642856.070 +1.1709673097E+000 -4.5930383702E+000  +9.7381304547E-003 -2.7641314153E+001  +8.5224057320E-003 +4.2215347167E+001  +1.0473657261E+000 -5.2543351209E+000 
7768001.252 +1.0296815857E+000 +6.3898157893E+000  +1.0257515317E-002 +3.1092998919E+001  +1.3579614147E-002 +1.1752309608E+001  +8.7279284100E-001 -2.3099737551E+000 
7893146.433 +8.8897920830E-001 +1.0620109315E+001  +9.5864014462E-003 +3.6852500710E+001  +1.0584358507E-002 +2.3913509002E+001  +9.0020021626E-001 -9.4391735724E-001 
8018291.615 +8.0625128131E-001 +1.3131897948E+001  +1.1890440298E-002 +3.7773287849E+001  +9.8172754053E-003 +4.5642112843E+001  +8.2521972268E-001 -4.8315269851E+000 
8143436.796 +8.4152122301E-001 +8.7487639678E+000  +1.1548199057E-002 +3.3797210608E+001  +5.0166272642E-003 +2.0678435668E+001  +7.7362635272E-001 -9.3045527511E-001 
8268581.977 +7.2906360174E-001 +4.6017442218E+000  +8.7989744481E-003 +2.9588445441E+001  +1.0959235196E-002 +6.0322531078E+001  +7.7928379970E-001 -1.0650228473E+000 
8393727.159 +7.4316853001E-001 +1.2514672674E+001  +9.4880423967E-003 +1.0221143028E+001  +7.5505799386E-003 +2.4134541175E+001  +7.5585555988E-001 +9.4450647695E-001 
8518872.340 +6.5631684705E-001 +8.2288018516E+000  +1.2738506503E-002 +2.1310271192E+001  +8.9633919362E-003 +2.1144718249E+001  +7.1482611386E-001 +1.5610805079E+000 
8644017.522 +6.8613914185E-001 +1.1395872681E+001  +9.6403484824E-003 +4.9578010404E+001  +7.4932203813E-003 +2.8744593855E+000  +6.9763020048E-001 -2.5419211734E+000 
8769162.703 +6.1095237634E-001 +8.1768656975E+000  +7.5843894859E-003 +3.7829905244E+001  +7.5274744938E-003 +2.5961803942E+001  +6.5869471061E-001 -9.9860498666E-001 
8894307.885 +6.0726668416E-001 +1.0699317278E+000  +9.8949354621E-003 +9.6878634059E+000  +9.7415791535E-003 +3.5149646350E+001  +6.6991081541E-001 +3.1991622398E+000 
9019453.066 +5.7838643463E-001 +1.2243912791E+001  +7.8911167334E-003 +3.0091269396E+001  +8.2667329651E-003 +7.1808347207E+000  +6.2371742557E-001 -2.0393745478E+000 
9144598.248 +5.6492907086E-001 +7.5296742691E+000  +6.6958173068E-003 +3.5170698976E+001  +8.4940977383E-003 +2.6787121489E+001  +5.8432433603E-001 +1.1745737721E-001 
9269743.429 +5.5759628608E-001 -3.5575847595E-001  +6.8314662664E-003 +3.9343078304E+001  +5.6174123204E-003 +1.7930784991E+001  +5.7669218778E-001 +2.6143677721E+000 
9394888.611 +5.7459366590E-001 +3.4744331954E+000  +6.2151416548E-003 +3.5705714606E+001  +6.4066473823E-003 +3.0556576281E+001  +6.2730530622E-001 +1.1373914767E+000 
9520033.792 +5.7880223192E-001 +3.9686927007E+000  +8.4632393210E-003 +3.0403959620E+001  +9.8944800919E-003 +3.2297907723E+001  +5.9053975091E-001 -9.7686200130E-001 
9645178.974 +5.0937164977E-001 +1.9651746140E+000  +9.9990254289E-003 +3.0318290189E+001  +6.7149751289E-003 +1.0741982696E+001  +6.0212528501E-001 -6.6964485138E+000 
9770324.155 +5.2016830999E-001 +2.0265104113E+000  +8.7973271350E-003 +2.5116716970E+001  +9.5063066765E-003 +2.4230040077E+001  +5.8385302507E-001 -5.3226785406E+000 
9895469.337 +5.0810332428E-001 +8.8285270618E+000  +1.0739183807E-002 +5.2344444351E+000  +7.3148041491E-003 +4.5686988690E+001  +5.9847982954E-001 -7.5344023848E+000 
10020614.518 +5.6201808506E-001 +2.5151935272E+000  +9.1010144495E-003 +2.1652957367E+001  +4.5922466414E-003 +5.2023174229E+001  +5.7201302229E-001 -5.6515484150E+000 
10145759.700 +5.8034944775E-001 +1.7998510238E-001  +7.7263003840E-003 +1.0960187399E+001  +8.5435323573E-003 +3.6357235075E+001  +5.4647627969E-001 -6.4920514078E+000 
10270904.881 +5.8450288378E-001 +1.5480555279E+000  +9.3920963162E-003 +4.4034920314E+001  +1.1652488859E-002 +4.2944329604E+001  +5.9401676609E-001 -1.5093076711E+000 
10396050.063 +5.1988641138E-001 +1.1636398812E+001  +6.0337718279E-003 +3.6443547014E+001  +7.1983643056E-003 +3.5373378988E+001  +5.6059177154E-001 -2.7790654904E+000 
10521195.244 +5.3999262527E-001 +7.2978108877E+000  +7.1473304526E-003 +2.8230450448E+001  +1.0231522639E-002 +4.2615552149E+001  +5.5468943269E-001 +4.6376321867E+000 
10646340.426 +5.4331888289E-001 +6.9880554207E+000  +9.4298979163E-003 +1.8939845603E+001  +1.0129961137E-002 +4.4665260061E+001  +5.7859452812E-001 -1.1429598782E+000 
10771485.607 +5.5353354393E-001 +7.3636963109E+000  +9.7113987104E-003 +2.4230682591E+001  +1.1260775389E-002 +3.9705870280E+001  +5.8445015359E-001 +7.6564477841E-001 
10896630.788 +5.5499511191E-001 +6.4079589407E+000  +8.0513433436E-003 +2.8946002522E+001  +9.9619953338E-003 +2.3500066043E+001  +5.7854155543E-001 +4.9322602618E-001 
11021775.970 +5.6711115607E-001 +8.0396861172E+000  +1.0017173044E-002 +2.3409402281E+001  +1.1614076601E-002 +4.1421476854E+001  +6.1350691106E-001 +1.9192224154E+000 
11146921.151 +6.1278768321E-001 +6.0628850522E+000  +8.0929106176E-003 +1.8716259123E+001  +8.7559244723E-003 +4.1675907543E+001  +5.9829358228E-001 +5.9082017988E-001 
11272066.333 +5.9099232127E-001 +8.8513274239E+000  +9.4313766073E-003 +3.0899583465E+001  +1.0478473861E-002 +4.7137872106E+001  +5.9148084569E-001 +5.4377349409E-001 
11397211.514 +5.9299294232E-001 +1.0466308797E+001  +1.0081806821E-002 +3.2109272224E+001  +9.0635573085E-003 +6.0985958773E+001  +6.2883273619E-001 +7.9659519510E-001 
11522356.696 +6.0703834304E-001 +6.3877399533E+000  +9.7394518700E-003 +4.1227885102E+001  +9.8917921241E-003 +3.3326568650E+001  +6.5315524271E-001 +1.1930617511E+000 
11647501.877 +6.2110720606E-001 +5.7654257089E+000  +9.6107302334E-003 +2.4005627374E+001  +8.8335838310E-003 +4.8112882947E+001  +6.3170006253E-001 +1.4891530679E+000 
11772647.059 +6.2685876411E-001 +6.6342112425E+000  +9.8361802814E-003 +3.3565318517E+001  +7.3415725659E-003 +4.6290870098E+001  +6.5120726480E-001 -5.1825709721E-001 
11897792.240 +6.4383816969E-001 +5.3992231255E+000  +1.0660193324E-002 +3.1338424755E+001  +1.1362112277E-002 +4.1491289942E+001  +6.9376873476E-001 +1.9859232242E-001 
12022937.422 +6.6532526931E-001 +7.5466793245E+000  +7.5526576101E-003 +3.1577387044E+001  +1.0181091638E-002 +5.5957219138E+001  +6.9638429616E-001 +9.7447429311E-001 
12148082.603 +6.5269699005E-001 +4.6100161584E+000  +1.1363331583E-002 +3.7882057278E+001  +1.1816863794E-002 +3.9598137090E+001  +6.9217861304E-001 -6.0392730314E-001 
12273227.785 +6.9077409832E-001 +3.8254188972E+000  +8.8104739378E-003 +2.8157025363E+001  +8.9332593972E-003 +4.7658080460E+001  +7.1232553586E-001 +8.0255668679E-001 
12398372.966 +6.9834785857E-001 +3.8933152969E+000  +1.0466446655E-002 +3.4517490963E+001  +8.3256100753E-003 +4.5761637245E+001  +7.2536284291E-001 -4.5934784314E-001 
12523518.148 +7.5712704990E-001 +3.6379169298E+000  +1.0538891828E-002 +4.4427502044E+001  +1.1049830778E-002 +5.2251433487E+001  +7.5380321126E-001 +1.9902236688E-001 
12648663.329 +7.4278379417E-001 +3.8329073422E+000  +8.7944215366E-003 +3.7719779497E+001  +8.9214186604E-003 +3.3773453239E+001  +7.2787863554E-001 -3.1884778149E-001 
12773808.511 +7.4320370189E-001 +1.4940658680E+000  +1.0929523527E-002 +3.2000055347E+001  +1.1138594951E-002 +4.1851518538E+001  +7.6068129732E-001 -1.9170065547E-001 
12898953.692 +7.7546893162E-001 +2.3312468562E+000  +9.5952194449E-003 +4.1044471020E+001  +1.1259433604E-002 +3.9991096265E+001  +7.7309345569E-001 -9.1305960877E-001 
13024098.874 +7.5564185334E-001 +1.1031196632E+000  +1.1930599876E-002 +4.1134146322E+001  +1.1793012051E-002 +4.1174349024E+001  +8.0540351460E-001 -1.7517224075E+000 
13149244.055 +8.2872033276E-001 +1.5614903166E+000  +1.1782718288E-002 +4.1802828048E+001  +1.1828798701E-002 +5.3574182753E+001  +7.8438457192E-001 -1.4761693087E+000 
13274389.237 +7.9984477302E-001 -9.4534947073E-001  +1.0950018800E-002 +3.2634980698E+001  +1.0698982870E-002 +4.3689705372E+001  +8.3520503439E-001 -1.4664410505E+000 
13399534.418 +7.9642812589E-001 +4.0735078166E-001  +1.0390443096E-002 +4.3820093970E+001  +1.1115474007E-002 +4.6236285672E+001  +8.0858776850E-001 -3.5618980095E+000 
13524679.599 +8.2640882000E-001 -1.0457414013E+000  +1.0448212054E-002 +3.6181908820E+001  +1.3343216682E-002 +3.9886428178E+001  +8.6195535079E-001 -4.5987540893E+000 
13649824.781 +8.4816288670E-001 -2.6451737107E+000  +1.3967857468E-002 +4.0188845832E+001  +1.2877075572E-002 +4.3656617913E+001  +8.7207349506E-001 -2.2157708500E+000 
13774969.962 +8.7908656481E-001 -2.0342933827E+000  +1.2009246715E-002 +3.7234074105E+001  +1.1743037203E-002 +4.2599355166E+001  +8.7945764204E-001 -2.9282710493E+000 
13900115.144 +9.1195183764E-001 -3.1532785300E+000  +1.0805386066E-002 +4.0045091515E+001  +1.2325872507E-002 +4.1729833502E+001  +8.9679622058E-001 -2.4983132847E+000 
14025260.325 +8.9698817150E-001 -3.4813626020E+000  +1.2495294671E-002 +4.3073281865E+001  +1.1775835026E-002 +3.9073228914E+001  +9.2037341990E-001 -3.1871473339E+000 
14150405.507 +9.1284835398E-001 -3.8349164228E+000  +1.2506066995E-002 +3.8139733060E+001  +1.1677397384E-002 +3.7708802784E+001  +9.3646964696E-001 -3.6910653838E+000 
14275550.688 +9.7018544306E-001 -5.8993984943E+000  +1.2789386448E-002 +3.9976968959E+001  +1.1748289848E-002 +4.2043811977E+001  +9.5645914219E-001 -4.0552893265E+000 
14400695.870 +9.6446053392E-001 -3.8948479490E+000  +1.2206962629E-002 +3.8112698724E+001  +1.2510900707E-002 +3.9547888111E+001  +9.9378687598E-001 -5.2486752253E+000 
