!  2-Port S-parameters saved by WinCal
! VAR MeasName=S-Parameters (CALIBRATED_DATA) read from VNA (P5004A)
! VAR MeasDate=27/08/2024 15:10:07
! VAR NAME=S2_r3c8_RESET3_9k-100M_3
! VAR FILENAME=S2_r3c8_RESET3_9k-100M_3.S2P
! VAR DATE=27/08/2024 15:10:07
! VAR PHYS_PORTS=1,2
! VAR ObjTypeName=DATASET
! VAR IndexType=Frequency
!
# Hz S MA R 50
9000.000 +5.8950961576E-002 -1.4309953283E+002  +2.4995734895E-002 -4.7548870529E+001  +3.9563513741E-002 +1.0180325086E+002  +3.1172740133E-001 -1.1690309693E+002 
134145.181 +1.1108753529E-001 +1.6975309449E+002  +5.5548978710E-004 +1.0320775273E+002  +4.3607690392E-004 -2.0541929722E+001  +2.4386553256E-001 -1.7144878918E+002 
259290.363 +1.1211009389E-001 +1.6943214272E+002  +2.3033998925E-004 +4.0233932189E+001  +3.2942984445E-004 -8.2624007669E+001  +2.4040852602E-001 -1.6908648259E+002 
384435.544 +1.1460724911E-001 +1.7013201940E+002  +9.7198885192E-004 -1.7737678900E+002  +4.5651209812E-004 +6.2439360602E+001  +2.3699493356E-001 -1.6838746332E+002 
509580.726 +1.1441933729E-001 +1.7162876566E+002  +3.5932173873E-004 +6.0884645971E+001  +1.3598249269E-003 +6.2110799881E+001  +2.4517291771E-001 -1.6413443013E+002 
634725.907 +1.1670068441E-001 +1.7034260468E+002  +2.6275834794E-004 -9.4745429244E+001  +7.2804741029E-004 +5.4317947048E+001  +2.4724734707E-001 -1.6299820781E+002 
759871.089 +1.1785928277E-001 +1.6917631545E+002  +2.6272809873E-004 +1.4343442373E+002  +2.3402456808E-004 -1.1401312631E+002  +2.4347913643E-001 -1.6510419316E+002 
885016.270 +1.1709859398E-001 +1.6931149938E+002  +6.4814981384E-004 +9.1318899145E+001  +2.7177999036E-004 -1.5095686208E+002  +2.3819669718E-001 -1.6546399307E+002 
1010161.452 +1.1775335860E-001 +1.7194452296E+002  +1.5757987276E-003 +7.0069833029E+001  +1.9277841754E-003 +4.8172652593E+001  +1.9893779158E-001 -1.6030813258E+002 
1135306.633 +1.1705544448E-001 +1.7180624036E+002  +5.0102954741E-003 +1.3155981828E+002  +8.0641274080E-003 -1.6090322540E+002  +1.7213682879E-001 -1.2255020630E+002 
1260451.815 +1.1927123931E-001 +1.7275807392E+002  +1.9716962494E-003 +2.9177254856E+000  +1.2546351886E-003 -5.1570926547E+001  +2.4515598574E-001 -1.6088192030E+002 
1385596.996 +1.2705721999E-001 +1.7240922481E+002  +1.0095373538E-003 -9.0245858923E+001  +9.7367416485E-004 -3.0036150789E+001  +2.6623965388E-001 -1.5668796450E+002 
1510742.178 +1.2669551231E-001 +1.7050313561E+002  +1.1099686562E-003 -8.1235778658E+001  +6.6055985655E-004 +1.5773752490E+002  +2.6137116978E-001 -1.5887925193E+002 
1635887.359 +1.2868878765E-001 +1.7061026593E+002  +8.4729430421E-004 +1.5552604649E+001  +1.5554574944E-004 -1.0778137780E+002  +2.0540110796E-001 -1.5693523416E+002 
1761032.541 +1.2795947600E-001 +1.6857136252E+002  +9.6413002719E-004 +6.6361078694E+001  +2.3614511154E-003 -8.9755546018E+001  +2.2142369901E-001 -1.6199935673E+002 
1886177.722 +1.2855769320E-001 +1.6872421101E+002  +1.1470184740E-003 -6.0842458680E+000  +4.0714755483E-004 +4.1116224840E+001  +2.3037219514E-001 -1.6147701411E+002 
2011322.904 +1.2015868403E-001 +1.6656199512E+002  +2.5037971824E-003 +6.2564544135E+001  +2.6634517713E-003 +3.6337824479E+001  +2.0623644337E-001 -1.7534182285E+002 
2136468.085 +1.2641199453E-001 +1.6698654882E+002  +3.6423096226E-003 -7.0118311140E+001  +1.8770564818E-003 -3.4839458220E+001  +1.5844818009E-001 -1.6197069862E+002 
2261613.267 +1.3905777409E-001 +1.6351019281E+002  +3.1107308961E-003 +1.7955770039E+001  +4.3297717585E-003 +1.1970770023E+001  +1.7645072728E-001 +1.6039220488E+002 
2386758.448 +1.3426559890E-001 +1.6255878783E+002  +6.6991192640E-003 +1.1784063946E+002  +5.8714453924E-003 -1.6120075112E+001  +1.0616552470E-001 +1.7092762292E+002 
2511903.630 +1.3982514920E-001 +1.6316808456E+002  +1.7608836046E-003 -5.1883085770E+001  +3.8277362327E-003 -1.1346078322E+001  +1.9800202435E-001 -1.7539872827E+002 
2637048.811 +1.3116653851E-001 +1.5532732276E+002  +1.3793373009E-002 +1.7271026859E+002  +1.4046387123E-002 -5.9661277855E+001  +3.4764403930E-001 +9.7403827900E+001 
2762193.992 +1.1716941712E-001 -1.7866136213E+002  +8.2093631696E-003 -1.7589575120E+002  +1.2709202780E-002 -1.3595568711E+002  +7.3989706888E-001 -7.5365184917E+001 
2887339.174 +1.0470396138E-001 -1.7388684588E+002  +9.4285066752E-004 +4.2373945168E+001  +3.3803442099E-003 +1.2667989360E+002  +4.0250498488E-001 -1.0413752728E+002 
3012484.355 +1.1964756789E-001 +1.7252855707E+002  +7.3986746728E-003 +1.3418796097E+002  +9.9964645728E-003 +6.4646387792E+001  +7.5274077807E-001 -1.3907707760E+002 
3137629.537 +1.0033815082E-001 +1.6733607513E+002  +3.2337233361E-002 -6.1763553519E+001  +6.7159924929E-003 -1.4299847574E+002  +6.5781765714E-001 -9.4547100639E+001 
3262774.718 +9.6717525121E-002 +1.6704575669E+002  +1.2587191046E-002 +1.6388822741E+001  +6.7446958901E-003 +1.4363264512E+002  +1.4577697510E-001 -8.6837857368E+001 
3387919.900 +1.3562186094E-001 +1.4601576268E+002  +8.8527274197E-003 -2.6832086881E+001  +1.4665205940E-002 -4.1063334607E+001  +1.4890271156E-001 -7.7098838892E+001 
3513065.081 +1.0883754356E-001 +1.5690032953E+002  +1.3303493675E-002 +6.4338573064E+001  +9.7965503334E-003 +2.1516455029E+001  +4.8775005599E-001 +7.5040888207E+001 
3638210.263 +1.8863080388E-001 +1.5012578155E+002  +4.9851252852E-003 -1.6538301611E+002  +5.7631290408E-003 +6.1353611143E+001  +4.3434527396E-001 +1.5117030461E+002 
3763355.444 +1.5094754627E-001 +1.5249460689E+002  +1.2526718670E-002 -1.4891661581E+002  +2.2282403679E-002 -1.3756507756E+001  +6.3840028860E-001 +1.0722219881E+002 
3888500.626 +2.0454787792E-001 +1.4332877216E+002  +5.2162598179E-003 +1.0605390466E+002  +1.8004756761E-002 -6.1437274634E+001  +5.4703652268E-001 +1.2640324504E+002 
4013645.807 +1.6621970687E-001 +1.4644871432E+002  +2.3667425804E-003 +6.4156583009E+001  +1.7099990701E-002 +8.2910608767E+001  +4.7033586254E-001 +1.4075035775E+002 
4138790.989 +1.7557839159E-001 +1.4618074833E+002  +1.1192583615E-002 -7.1925000516E+001  +1.6462609597E-002 +4.0875477417E+001  +7.4814036022E-001 +6.9012333078E+001 
4263936.170 +2.0023472055E-001 +1.3567878446E+002  +1.4334957380E-002 +3.2473716943E+001  +1.9667277833E-002 +4.9215865387E+001  +5.9907493466E-001 +8.2122345298E+001 
4389081.352 +2.2496277186E-001 +1.2787404599E+002  +9.9568204195E-003 -1.5461999986E+002  +3.1367635604E-002 +1.7789619336E+002  +6.1825886659E-001 +9.6731552280E+001 
4514226.533 +2.8850191533E-001 +1.1310103288E+002  +4.2911245200E-002 +1.0240199163E+002  +1.7774991481E-002 +6.8318684668E+001  +7.7122597888E-001 +6.0294953093E+001 
4639371.715 +2.9256980101E-001 +1.3414600733E+002  +7.4693393911E-003 -9.7317710303E+001  +5.3381019046E-002 +1.0694295165E+002  +1.8527325525E+000 +1.3926325585E+002 
4764516.896 +3.2231583148E-001 +1.2325591301E+002  +5.2925767748E-002 +6.6983461266E+001  +6.7045714490E-002 -1.6274003180E+002  +3.7476304110E+000 +1.6159900085E+002 
4889662.078 +4.6545211608E-001 +1.3453159541E+002  +5.5707979237E-002 +1.5822103038E+001  +1.2801151244E-001 -1.0804477490E+002  +4.4507799806E+000 -1.4267354087E+002 
5014807.259 +5.0546721808E-001 +1.1542565195E+002  +1.2412658197E-001 +1.3021359848E+002  +1.3774050674E-001 +3.6327667181E+001  +5.3089946048E+000 +5.7428206341E+001 
5139952.441 +4.2364271199E-001 +1.3102238899E+002  +5.2401755904E-002 -5.2782247993E+001  +1.7004421119E-002 +2.0612061986E-001  +2.5603492723E+000 -2.1073970825E+000 
5265097.622 +3.7834965802E-001 +1.2437634652E+002  +2.9442208051E-002 +9.8544383103E+001  +2.1869384966E-002 +3.2539803421E+001  +7.8655349891E-001 +5.1553733305E+001 
5390242.804 +3.9970479816E-001 +1.2837490891E+002  +5.9654285162E-003 +3.0969054400E+001  +3.5465464986E-003 -2.6108356712E+001  +8.1384142308E-001 +9.1645324753E+001 
5515387.985 +4.5163967049E-001 +1.2306936512E+002  +2.0793676018E-002 +9.2355901862E+001  +7.9511388905E-003 -1.0493325780E+002  +1.3806481286E+000 +1.0065943118E+002 
5640533.166 +5.2150770216E-001 +1.1773259406E+002  +2.2556374205E-002 +1.3614839928E+002  +1.3104666233E-002 +3.8919697087E+001  +1.5175992381E+000 +8.2356357248E+001 
5765678.348 +6.2223108804E-001 +1.2374575363E+002  +3.7487037563E-002 +1.1252553541E+002  +5.0626151241E-002 +5.6749563588E+001  +2.3720656116E+000 +5.4073345534E+001 
5890823.529 +5.0032426494E-001 +1.1246484277E+002  +3.9607248585E-002 +1.0747167894E+002  +1.1360250667E-002 +1.0746864970E+002  +1.4851745104E+000 +5.0436569701E+001 
6015968.711 +6.2937507750E-001 +1.1809708695E+002  +3.8676313057E-002 +1.1300707045E+002  +2.1810516635E-002 +8.8915129352E+001  +1.8172759683E+000 +5.4048731428E+001 
6141113.892 +7.6877504183E-001 +1.1372868609E+002  +2.6286518622E-002 +6.5909125035E+001  +2.3012904727E-002 +7.8473798292E+001  +1.2860949480E+000 +3.3685482969E+001 
6266259.074 +8.0686963991E-001 +1.0128081043E+002  +2.5107554318E-002 +3.6998557755E+001  +2.0243797323E-002 +1.1591103214E+000  +1.3908014449E+000 +1.6725255638E+001 
6391404.255 +1.1806772767E+000 +1.0432453057E+002  +2.4464515235E-002 +8.5394592529E+001  +3.8674514835E-002 +7.4142578416E+001  +1.1159735832E+000 +2.0360640999E+001 
6516549.437 +1.3165391899E+000 +8.0288943672E+001  +2.6431384522E-002 +8.2630902861E+001  +4.5151947082E-002 +5.1494479714E+001  +1.3188836321E+000 +4.4567839461E+000 
6641694.618 +1.8770014576E+000 +5.6361745082E+001  +6.8703838361E-002 +1.5215884716E+001  +6.6738333410E-002 +4.8125311293E+001  +1.5063075586E+000 +1.0591658110E+001 
6766839.800 +1.8139350170E+000 +6.3984830262E+001  +3.8545157145E-002 +5.0090016867E+000  +3.2937562277E-002 +3.8044989372E+001  +1.3465374257E+000 -9.3737662708E+000 
6891984.981 +2.2242102203E+000 +4.4007748331E+001  +6.1596924067E-002 +4.0120423071E+001  +4.8168825294E-002 +4.6573617881E+001  +1.2383753985E+000 -7.0287413070E+000 
7017130.163 +1.5830897552E+000 +2.6615433987E+001  +2.6166085023E-002 +2.0613169853E+001  +2.7425133729E-002 -3.6230172317E+000  +1.4237488430E+000 -1.3978999302E+001 
7142275.344 +1.6203682164E+000 +1.9153073640E+001  +2.4184034182E-002 +9.2984158802E+000  +1.8097590374E-002 +2.0342712270E+001  +1.2478953596E+000 -1.3819664863E+001 
7267420.526 +1.7890532282E+000 +2.3338997211E+000  +2.1053150574E-002 +1.1714345620E+001  +2.0821177330E-002 +2.4919033252E+001  +1.4139205450E+000 -7.6776688281E+000 
7392565.707 +1.3275501611E+000 -3.3320100700E+000  +4.6064187917E-003 +2.3218928370E+001  +1.7159300075E-002 +2.1648419422E+001  +1.3264550477E+000 -4.3890509197E+000 
7517710.889 +1.1060106963E+000 -2.0521122062E+000  +1.4324562663E-002 +3.7404388488E+001  +1.3100838276E-002 +4.2097577715E+001  +1.1693187723E+000 -6.4679515185E+000 
7642856.070 +1.0747328627E+000 +4.1993339579E+000  +8.2661949809E-003 +2.8376904659E+001  +1.6807409831E-002 +1.7365572815E+001  +1.0576501683E+000 +2.8816284713E+000 
7768001.252 +8.8335795940E-001 +3.0681182864E+000  +9.9938336952E-003 +3.2159138422E+001  +1.3672919666E-002 +1.2102890552E+001  +9.3373848020E-001 -8.8287494841E+000 
7893146.433 +1.0158643847E+000 +1.6807101469E+000  +1.1319685048E-002 +1.8544907303E+001  +1.3085999693E-002 +4.6636184898E+001  +1.0410285800E+000 -7.8049099250E+000 
8018291.615 +8.0931947322E-001 +1.6456992964E+000  +1.2912449984E-002 +1.6371311327E+001  +8.1051178764E-003 +4.0162788452E+001  +8.1283672044E-001 -2.8576650298E+000 
8143436.796 +7.9541121384E-001 +4.6577546583E+000  +1.3608934542E-002 +2.8826796689E+001  +1.3799557507E-002 +2.1293706756E+001  +8.3599546849E-001 +4.5077548311E+000 
8268581.977 +7.0216102284E-001 +6.1746709000E+000  +1.0217065392E-002 -2.7345715280E+000  +9.3552212335E-003 +3.3344066617E+001  +7.4424903047E-001 -1.1474151771E+000 
8393727.159 +6.2537367825E-001 +7.4991847843E+000  +1.0077537738E-002 +2.4090529662E+001  +1.0660420554E-002 +2.9142336936E+001  +6.7404188259E-001 -7.5459384611E+000 
8518872.340 +7.4450390283E-001 +9.6934930976E+000  +1.0189961828E-002 +3.5167983475E+000  +1.2363455423E-002 +1.4430714761E+001  +7.0753064791E-001 +2.8779514462E+000 
8644017.522 +6.6723008287E-001 +8.7217901846E+000  +1.2627884431E-002 +7.8926377013E+000  +1.0339443473E-002 +2.8451219440E+001  +7.4112243096E-001 -2.6538096718E+000 
8769162.703 +6.7240979846E-001 +9.6004087166E+000  +8.8429530774E-003 +7.7828570418E+000  +1.0155647906E-002 +3.6112671669E+001  +6.7573801546E-001 -3.9621672537E+000 
8894307.885 +5.9751878292E-001 +6.4726007486E+000  +1.1842393029E-002 +1.6230306679E+001  +8.9275501073E-003 +2.8726056125E+001  +6.4555112862E-001 -2.3451654367E-001 
9019453.066 +6.3070164821E-001 +5.9839028447E+000  +1.1147464205E-002 +1.4535467413E+000  +1.0952041035E-002 +3.0367810685E+001  +5.4833375475E-001 -5.3674789357E+000 
9144598.248 +5.9050008906E-001 +4.2638116905E+000  +1.0905688423E-002 +1.8533252385E+001  +1.2868666703E-002 +3.2529517123E+001  +6.1429212785E-001 -7.0884830961E-001 
9269743.429 +5.9615223440E-001 +6.7261774670E+000  +1.1354770824E-002 +1.0118331228E+001  +8.9539412923E-003 +3.2547667674E+001  +6.0947437480E-001 -6.1353166607E-001 
9394888.611 +5.4518199741E-001 +6.4753603428E-001  +1.1830288877E-002 +2.8801262033E+001  +8.5723270036E-003 +3.4317401414E+001  +5.9729059737E-001 -8.3076551696E-001 
9520033.792 +5.2428513151E-001 +4.6500477851E-002  +9.2136815652E-003 +1.7037460922E+001  +1.1786564123E-002 +4.6355106376E+001  +5.9625560674E-001 +1.0391165676E+000 
9645178.974 +5.8063689847E-001 +1.0597536856E-001  +6.4978764362E-003 +2.0514543362E+001  +1.0656894962E-002 +3.9409166203E+001  +5.3558377577E-001 -4.2792348038E+000 
9770324.155 +5.5795074635E-001 +1.8384563766E-001  +1.0895265600E-002 +2.1209812066E+001  +9.6409442283E-003 +2.8419449745E+001  +5.7780626156E-001 -4.7241279095E+000 
9895469.337 +5.6230648783E-001 +1.9214531815E+000  +1.2612539699E-002 +1.8958432096E+001  +1.1154031537E-002 +3.3249302844E+001  +5.7148278959E-001 -5.4615500948E+000 
10020614.518 +5.2218420114E-001 -1.0254659574E+000  +1.1855923121E-002 +2.6924196877E+001  +1.0914012115E-002 +3.8343483909E+001  +5.9951909710E-001 -7.2107633157E+000 
10145759.700 +5.6419321381E-001 +2.9104346644E+000  +9.3772554093E-003 +3.3740726937E+001  +8.5058472343E-003 +4.0941721310E+001  +5.5861294612E-001 -2.9520862511E+000 
10270904.881 +5.3004156258E-001 -6.5350456564E-002  +8.7413413479E-003 +3.0910778825E+000  +1.0489647116E-002 +3.1367238506E+001  +5.8670454429E-001 -6.0568883850E+000 
10396050.063 +5.6805457881E-001 +1.0394716521E+000  +9.5582597468E-003 +4.3599891426E+001  +1.1102750482E-002 +4.5012203730E+001  +5.5887732946E-001 -5.6086874310E+000 
10521195.244 +5.5943920363E-001 +5.6844758949E+000  +1.1644692668E-002 +3.6802130079E+001  +1.0735099683E-002 +5.6507421754E+001  +5.9787029527E-001 -3.5671910791E+000 
10646340.426 +5.6049932328E-001 +1.5106296039E+000  +1.0732235038E-002 +2.0608846114E+001  +1.1054506965E-002 +4.4562176165E+001  +5.8216280673E-001 -1.0608636824E+000 
10771485.607 +5.4832547788E-001 +3.2782599478E+000  +1.1198606899E-002 +2.2688077121E+001  +1.2729205049E-002 +3.3668110839E+001  +5.6033368788E-001 +8.6902908343E-001 
10896630.788 +5.7922296955E-001 +6.2091326345E+000  +1.0045672307E-002 +3.4561022456E+001  +6.8258188640E-003 +3.9704123926E+001  +6.1143620205E-001 +1.7514104511E+000 
11021775.970 +5.9661169744E-001 +4.6345268118E+000  +1.1439358888E-002 +3.3669186447E+001  +1.2028249328E-002 +4.2824499992E+001  +6.2299757658E-001 +9.1846489792E-001 
11146921.151 +5.5160940945E-001 +6.6356528629E+000  +1.0144676800E-002 +2.2759333601E+001  +1.1530749186E-002 +3.7110828472E+001  +6.2223566738E-001 +2.1055405639E+000 
11272066.333 +5.8247081181E-001 +6.3619766220E+000  +1.2252022217E-002 +7.4214279559E+000  +1.0626043526E-002 +3.4572551231E+001  +6.0532275885E-001 +7.6053637492E-001 
11397211.514 +6.1254432418E-001 +4.0818614535E+000  +9.7983837805E-003 +3.4223774018E+001  +8.5914530699E-003 +4.1825581121E+001  +6.0126553096E-001 +1.7833017857E+000 
11522356.696 +6.2298875055E-001 +5.2045040075E+000  +1.0477302283E-002 +3.7225575379E+001  +1.1374222601E-002 +3.4143230399E+001  +6.7048683785E-001 +3.7622057551E-001 
11647501.877 +6.2707694839E-001 +4.1396385982E+000  +1.0702163423E-002 +3.2783141834E+001  +1.1305918087E-002 +4.1449222005E+001  +6.2486228723E-001 +2.8158160647E+000 
11772647.059 +6.4098681078E-001 +5.8315713089E+000  +1.1008226844E-002 +2.8421440511E+001  +1.0859977338E-002 +4.1913152798E+001  +6.5271995045E-001 -2.4436325025E-001 
11897792.240 +6.4731146694E-001 +5.6688601450E+000  +1.2533342337E-002 +2.4881901645E+001  +9.5284204052E-003 +3.1901687636E+001  +6.6189469796E-001 -1.3839503404E+000 
12022937.422 +6.7938836136E-001 +3.4784646811E+000  +1.0056223400E-002 +3.4831922456E+001  +1.2543902449E-002 +4.2953268306E+001  +6.7965663745E-001 +1.2003362336E+000 
12148082.603 +6.8692848202E-001 +4.6711675045E+000  +1.2390654291E-002 +2.5426185111E+001  +1.1274118239E-002 +3.5837063978E+001  +7.2001351141E-001 +1.2833714257E+000 
12273227.785 +6.9753520838E-001 +4.2576963626E+000  +1.1739499300E-002 +3.8237298078E+001  +1.1806030154E-002 +3.9279677610E+001  +7.0860521153E-001 +2.4947291418E-001 
12398372.966 +6.8157607763E-001 +3.3530050083E+000  +1.1583992529E-002 +3.5815258548E+001  +1.2098424002E-002 +3.6355540664E+001  +6.9939450652E-001 +1.7430965416E+000 
12523518.148 +6.8131239968E-001 +2.5296976779E+000  +1.1375809071E-002 +2.3528065902E+001  +1.2073198427E-002 +3.9135840021E+001  +7.2002684386E-001 +1.0506356127E+000 
12648663.329 +7.3146472289E-001 +2.2896594792E+000  +1.2771002171E-002 +2.8712944810E+001  +1.0169134535E-002 +3.3815770469E+001  +7.4681478522E-001 +2.1347168992E-001 
12773808.511 +7.3417970196E-001 +2.2293012016E+000  +1.3693039226E-002 +2.4846399443E+001  +1.2515027235E-002 +2.8738550551E+001  +7.6621739399E-001 -1.2115243475E+000 
12898953.692 +7.4242723832E-001 +2.0743236204E+000  +1.4422758761E-002 +3.1664936821E+001  +1.3488553159E-002 +3.3100496561E+001  +7.6352167627E-001 -1.4646399801E+000 
13024098.874 +7.6568689983E-001 +7.6315672607E-001  +1.3619319878E-002 +3.5385997160E+001  +1.2170785538E-002 +3.0490758933E+001  +7.8856656521E-001 -2.2076598292E+000 
13149244.055 +7.9786750636E-001 -3.9087479156E-001  +1.3690710124E-002 +3.1775504962E+001  +1.3485861594E-002 +3.3716065378E+001  +8.1414312911E-001 -7.9449936263E-002 
13274389.237 +7.9236132879E-001 -2.6027664546E-001  +1.5277867440E-002 +3.5426435574E+001  +1.3535312463E-002 +3.8215749867E+001  +8.3720546082E-001 -1.2636302407E+000 
13399534.418 +8.2195687322E-001 -1.7811714152E+000  +1.3021653160E-002 +3.6593817497E+001  +1.4000555255E-002 +2.9634360441E+001  +8.4525888962E-001 -9.1289259366E-001 
13524679.599 +8.2729875344E-001 -1.1712356975E+000  +1.2932190512E-002 +3.7310638319E+001  +1.3024878921E-002 +2.6705907996E+001  +8.5950617771E-001 -2.7619318929E+000 
13649824.781 +8.6047748599E-001 -2.0135293050E+000  +1.3799403265E-002 +3.3183088656E+001  +1.4453882383E-002 +3.6754579743E+001  +8.6450585826E-001 -2.6938092466E+000 
13774969.962 +8.8583920253E-001 -3.1941526752E+000  +1.3228894538E-002 +2.7259992821E+001  +1.2062888114E-002 +4.0593749759E+001  +8.8775294996E-001 -3.2316613854E+000 
13900115.144 +8.8101818166E-001 -3.1476454238E+000  +1.3003660957E-002 +3.7880345486E+001  +1.4785515969E-002 +3.1573757918E+001  +9.2036532787E-001 -3.5861029124E+000 
14025260.325 +8.8710577324E-001 -5.0284636742E+000  +1.4095834660E-002 +2.8314837560E+001  +1.4100203263E-002 +2.5732620686E+001  +9.2872861134E-001 -3.3670678343E+000 
14150405.507 +9.3083598048E-001 -3.9468140031E+000  +1.5571005595E-002 +3.8791212765E+001  +1.4448881737E-002 +3.2811670652E+001  +9.5386200275E-001 -4.4749001532E+000 
14275550.688 +9.3918242811E-001 -4.7025826453E+000  +1.5379013134E-002 +3.6867582649E+001  +1.2904543610E-002 +3.2499637199E+001  +9.7226482069E-001 -5.7225145157E+000 
14400695.870 +9.3699745633E-001 -4.1617927814E+000  +1.5518203224E-002 +2.4780597051E+001  +1.4270348273E-002 +3.2841314047E+001  +9.7525116012E-001 -4.3913420326E+000 
