!  2-Port S-parameters saved by WinCal
! VAR MeasName=S-Parameters (CALIBRATED_DATA) read from VNA (P5004A)
! VAR MeasDate=27/08/2024 12:50:27
! VAR NAME=S2_r8c9_pristine_9k-100M_2
! VAR FILENAME=S2_r8c9_pristine_9k-100M_2.S2P
! VAR DATE=27/08/2024 12:50:27
! VAR PHYS_PORTS=1,2
! VAR ObjTypeName=DATASET
! VAR IndexType=Frequency
!
# Hz S MA R 50
9000.000 +3.7242386467E-002 -1.4099136989E+002  +1.9642426425E-002 +1.0246279798E+002  +1.4366158396E-002 -5.0247546615E+001  +1.1643252797E-001 -1.1478492199E+002 
134145.181 +1.1067207988E-001 +1.6966192999E+002  +5.0251432700E-004 -1.5990172584E+002  +2.9597590465E-004 +3.3009681551E+001  +2.3653251745E-001 -1.6986008811E+002 
259290.363 +1.0954117860E-001 +1.6977037485E+002  +1.0084079787E-003 -9.5604645373E+001  +1.0804560917E-003 +3.0087375691E+001  +2.5199181186E-001 -1.6690321691E+002 
384435.544 +1.1473619414E-001 +1.7008265067E+002  +4.4272155385E-004 +7.0593884722E+001  +7.5790046176E-004 +1.5793990638E+001  +2.4726856113E-001 -1.6893415741E+002 
509580.726 +1.1385208519E-001 +1.7074666279E+002  +9.9537533577E-004 -1.7265967053E+002  +2.1254389834E-003 -1.7851427448E+002  +2.5570392500E-001 -1.6433772353E+002 
634725.907 +1.1256196210E-001 +1.7112359463E+002  +4.5121987341E-004 +1.1691511290E+002  +9.0611049003E-004 -1.1825689297E+002  +2.2956819220E-001 -1.6567128354E+002 
759871.089 +1.1648215243E-001 +1.6986397190E+002  +5.4171777926E-004 -1.7615303763E+001  +2.3328185184E-004 +1.5703312085E+002  +2.4156152664E-001 -1.6705728657E+002 
885016.270 +1.1660681941E-001 +1.6892573042E+002  +8.1326224687E-004 -1.2766432842E+002  +9.6314858671E-004 +1.4354274454E+002  +2.4037940179E-001 -1.6431550629E+002 
1010161.452 +1.1604296633E-001 +1.7199206794E+002  +1.3165047202E-003 -9.9920913585E+001  +9.7225473436E-004 +1.2731284712E+002  +1.5495770785E-001 +1.7644169132E+002 
1135306.633 +1.1696951478E-001 +1.7085926876E+002  +1.4699228841E-003 +3.4106863955E+001  +1.7003005898E-003 -1.7884395714E+002  +1.4899280347E-001 -1.6696517806E+002 
1260451.815 +1.2231107621E-001 +1.7085704992E+002  +3.2560005195E-004 -1.5874018037E+001  +1.0333141096E-003 +2.0295535013E+001  +2.5500566620E-001 -1.5943306027E+002 
1385596.996 +1.2677779749E-001 +1.7166939284E+002  +1.6484808798E-004 -1.0028147355E+002  +1.4128908806E-003 +7.4528499754E+001  +2.6426899030E-001 -1.6014254547E+002 
1510742.178 +1.2788593063E-001 +1.7130049229E+002  +7.0194198516E-004 -2.7593185158E+001  +1.1204508639E-003 -5.2483156332E+001  +2.5429991459E-001 -1.5924982709E+002 
1635887.359 +1.2830587484E-001 +1.6895895696E+002  +1.2205602992E-004 -7.2718455426E+001  +2.9012200534E-004 +5.8367187499E+001  +2.2141537585E-001 -1.5644743569E+002 
1761032.541 +1.2947000612E-001 +1.6820294957E+002  +5.6281986803E-004 -1.2037223916E+002  +4.2229695268E-004 +1.4630510330E+002  +2.2823660050E-001 -1.6058052053E+002 
1886177.722 +1.3098559568E-001 +1.6689722185E+002  +2.1000780098E-003 +1.7662482951E+002  +1.2390586839E-003 +1.6894744535E+002  +2.1352449572E-001 -1.6610338765E+002 
2011322.904 +1.3359886396E-001 +1.6487871970E+002  +3.2565172855E-003 -3.3708215335E+001  +1.5594536124E-003 +1.7603501066E+002  +2.1138269538E-001 -1.7266518259E+002 
2136468.085 +1.3146244092E-001 +1.6236426650E+002  +8.5358539906E-003 +7.5988047284E+001  +1.4930566102E-003 -1.3845239774E+002  +9.7449033133E-002 -1.5550786714E+002 
2261613.267 +1.3603250565E-001 +1.6325898718E+002  +6.3128759758E-004 +1.2481637922E+000  +1.7012550160E-003 -1.5630419135E+002  +1.8096964256E-001 +1.7714623308E+002 
2386758.448 +1.2019626046E-001 +1.6162097526E+002  +6.9143425667E-003 -8.6791137677E+001  +1.2528139220E-002 -1.3476905718E+002  +2.8834258176E-001 +1.4622804151E+002 
2511903.630 +1.3334078831E-001 +1.5640091392E+002  +4.7321605453E-003 -1.1804007379E+002  +2.5729522622E-003 +1.5224021988E+002  +2.5686483278E-001 +1.7178908353E+002 
2637048.811 +1.1416502439E-001 +1.5479590830E+002  +1.5369968147E-002 +1.7047420937E+002  +3.5880212968E-003 -1.4319957145E+002  +5.2297403820E-001 +1.4501844007E+002 
2762193.992 +1.0167545527E-001 +1.7012589914E+002  +4.1185705900E-002 -9.4289856170E+001  +2.9017904701E-002 +8.0148201594E+001  +1.2535026182E+000 -1.4628722748E+002 
2887339.174 +1.0826754700E-001 +1.5416936065E+002  +6.1956236532E-003 +1.5320075696E+002  +8.9387069667E-003 -1.6795743143E+002  +4.9647784252E-001 -1.2229942672E+002 
3012484.355 +1.1187626165E-001 +1.0914733128E+002  +1.1513178624E-002 +1.4592633018E+002  +1.6146465314E-002 -1.3420610557E+002  +4.7965968817E-001 -1.2101061335E+002 
3137629.537 +6.9186229075E-002 +1.6380336400E+002  +1.4910609443E-003 +3.5957295241E+000  +1.4917518484E-002 -8.3850108575E+001  +1.9278061661E-001 -1.1512388203E+002 
3262774.718 +1.2702128760E-001 +1.7453938870E+002  +1.2243323430E-002 +9.5103509751E+001  +2.0034594920E-002 -1.3261196328E+002  +9.3622362883E-001 -4.6330518551E+001 
3387919.900 +1.3529310315E-001 +1.6111934199E+002  +7.7538641742E-005 +1.6732159818E+002  +9.7111220250E-003 -1.1715182927E+002  +2.0232042597E-001 -5.6785826934E+001 
3513065.081 +1.2324716246E-001 +1.5814281467E+002  +4.8123507065E-002 +1.3146716129E+002  +1.6189656481E-002 -1.6432910262E+002  +1.1508507396E+000 +1.0255795906E+002 
3638210.263 +1.6719965859E-001 +1.3633096165E+002  +1.4986518594E-002 -1.7399679829E+001  +8.4424243155E-003 -1.8001005945E+001  +6.2778519332E-001 +1.1495213408E+002 
3763355.444 +1.4864355637E-001 +1.4771961646E+002  +8.7106446562E-003 -4.1084854316E+001  +1.0872229871E-002 -1.5008715527E+002  +6.6910325926E-001 +1.0424711010E+002 
3888500.626 +1.8400953665E-001 +1.5204765100E+002  +6.4426301009E-003 -1.7192511868E+002  +2.6765956698E-003 +6.5069204752E+001  +2.5032591491E-001 +1.1343714485E+002 
4013645.807 +1.6794110465E-001 +1.4687081740E+002  +6.2971378973E-003 +1.4012962789E+002  +3.7711880673E-003 -7.2331064875E+001  +4.7683283950E-001 +1.3118123218E+002 
4138790.989 +2.1637721709E-001 +1.4528672749E+002  +9.7918446524E-003 -1.3724608578E+002  +8.0109092704E-003 -1.5109324038E+002  +5.4986570036E-001 +1.1166130491E+002 
4263936.170 +2.1579763522E-001 +1.3722051487E+002  +1.9089238991E-002 +3.2157635621E+001  +1.4663998417E-002 +9.4651830311E+001  +9.0579526564E-001 +4.6537514074E+001 
4389081.352 +1.5784938523E-001 +1.2834282055E+002  +8.4938785173E-003 +1.3686259373E+002  +9.4946342945E-003 -9.7501814155E+001  +5.4263166801E-001 +1.4558562180E+002 
4514226.533 +2.1124553730E-001 +1.3880856112E+002  +4.4129713431E-002 +1.7779392643E+002  +8.0733440843E-002 -5.0609824334E+000  +3.1978318852E+000 +1.3101077097E+002 
4639371.715 +3.4744985856E-001 +1.2096258542E+002  +3.1499121277E-002 -2.8541806653E+001  +9.2614184844E-002 +1.2622944565E+002  +2.5258521259E+000 +7.8565665190E+001 
4764516.896 +3.5649076287E-001 +1.2950290445E+002  +7.5160967653E-002 +3.4352428036E+001  +6.7576058275E-002 -1.2201283267E+002  +4.1896550779E+000 +1.3884469982E+002 
4889662.078 +5.2354066175E-001 +1.1622493634E+002  +7.7549149309E-002 -9.5849880589E+001  +1.8035847646E-002 -1.4615963304E+001  +2.5578768782E+000 -6.4905806548E+001 
5014807.259 +3.5800194485E-001 +1.3014452011E+002  +2.2913132003E-002 -2.7297875063E+001  +4.6013080922E-002 +3.6630674497E+001  +3.8193064140E+000 +1.6734968492E+002 
5139952.441 +3.6984988326E-001 +1.1634758761E+002  +7.6332524508E-002 +1.5517777208E+002  +4.8846144901E-002 -1.7244460093E+002  +8.5386374811E+000 -1.6917401361E+002 
5265097.622 +4.5063787445E-001 +1.3159683574E+002  +8.0423610554E-003 -1.1815392512E+002  +5.1057658032E-003 +8.7318304204E+001  +1.5920417077E+000 +9.4134860580E+001 
5390242.804 +4.6392843460E-001 +1.2395329050E+002  +9.7213732636E-002 +4.1863539361E+001  +5.4372072960E-002 -8.9388885185E+001  +7.3859598261E+000 +8.0287437524E+001 
5515387.985 +4.9152910821E-001 +1.3372884821E+002  +1.2654761374E-002 +9.8735140966E+001  +2.5645678679E-002 +1.6188855424E+002  +2.8615228929E+000 +2.7292673104E+001 
5640533.166 +4.5794906622E-001 +1.3298285982E+002  +1.7942035684E-002 -1.6623489509E+002  +1.8436396855E-002 -1.3378146169E+001  +2.8045134607E+000 +6.7078837562E+001 
5765678.348 +6.1168551552E-001 +1.2536392555E+002  +6.9336327638E-003 -1.1494973609E+002  +3.7562692217E-003 +1.5986837248E+002  +2.3303199448E+000 +7.6734068745E+001 
5890823.529 +6.7783775873E-001 +1.1509342062E+002  +3.7402777805E-002 -7.6754449940E+001  +2.0932719771E-002 +1.4077652705E+002  +2.6959207914E+000 +4.3188888628E+001 
6015968.711 +5.5918355706E-001 +1.0942249672E+002  +1.8465484495E-002 +1.1619829786E+002  +1.3109468130E-002 +1.4934178684E+002  +1.4414845769E+000 +4.3032379103E+001 
6141113.892 +8.2743419630E-001 +1.1081349596E+002  +1.4800597703E-002 -1.6750695758E+002  +2.0628866985E-002 -2.3125380857E+000  +1.7716820622E+000 +2.3831253192E+001 
6266259.074 +8.4841437549E-001 +1.0746317577E+002  +1.9980960969E-002 +3.6906072323E+001  +8.1073222048E-003 +4.6962078286E+000  +1.3656229023E+000 +2.2960678940E+001 
6391404.255 +1.1069864151E+000 +8.5567568857E+001  +1.8968611220E-002 -1.3299985561E+001  +1.4893644668E-002 +6.7507790089E+001  +1.6283943538E+000 +2.7430119925E+001 
6516549.437 +1.2656903167E+000 +9.4512780296E+001  +3.2125263860E-002 +1.5794495082E+002  +2.2466921353E-002 +6.9755318063E+001  +1.5435386289E+000 +2.3183850112E+000 
6641694.618 +1.6362022852E+000 +7.3413510145E+001  +1.4967275462E-002 +1.6246299679E+002  +1.2174900048E-002 +8.9821577963E+001  +1.5626167845E+000 +9.6979511730E-001 
6766839.800 +2.4478470772E+000 +6.0065663352E+001  +2.1830954966E-002 +2.0619118022E+001  +2.7593086138E-002 +5.4464385921E+001  +1.2183814218E+000 -1.4790427306E+000 
6891984.981 +1.7133590549E+000 +2.4164250929E+001  +3.2275362978E-002 -8.2728706246E+000  +2.8123476646E-002 +3.6366152599E+001  +1.3875288290E+000 -7.6934565439E+000 
7017130.163 +1.8099769092E+000 +2.4343513941E+001  +2.7994250606E-002 +1.0891813512E+002  +2.0338638148E-002 +9.0660353476E+001  +1.2772525471E+000 -1.6489627990E+001 
7142275.344 +1.8027317383E+000 +1.5057879001E+001  +1.0983458136E-002 +1.1852353433E+002  +1.3482935834E-002 -8.7612397830E+001  +1.3253270521E+000 -1.4987617849E+001 
7267420.526 +1.4730630629E+000 -1.3002106094E+000  +6.7751885953E-003 +1.6397596397E+002  +1.1664483210E-002 +1.4474616124E+002  +1.3933025914E+000 -1.2291366303E+001 
7392565.707 +1.4414992164E+000 -4.5711669942E+000  +1.0596380583E-002 +1.6090260081E+002  +9.5920486434E-003 +1.2320017088E+002  +1.5978071879E+000 -1.2043309084E+001 
7517710.889 +1.2081461093E+000 -1.3867050965E+000  +9.4609219489E-003 +4.8078096912E+001  +1.0205255826E-002 +1.2730095143E+002  +1.3774258801E+000 -1.3423012985E+000 
7642856.070 +1.1674714202E+000 -6.9625779386E-001  +4.5495083256E-003 +3.1648798856E+001  +1.2230237049E-002 +6.8898242613E+001  +1.1192346803E+000 -3.8313964450E+000 
7768001.252 +8.7577009964E-001 +1.4966583886E-001  +6.6479789203E-003 +1.3863163887E+002  +1.5171284597E-002 +1.2970773942E+002  +1.0065617956E+000 -2.7441252673E+000 
7893146.433 +8.9814626943E-001 +5.0942297450E+000  +3.2773440406E-003 +8.2427512735E+001  +6.9264513050E-003 +5.9923921077E+001  +9.9086897188E-001 -4.8353327952E+000 
8018291.615 +8.8700921345E-001 +1.8267700581E+000  +8.7390172457E-003 +5.8633419387E+001  +1.1855805546E-002 +1.5515549914E+002  +8.6488118188E-001 +1.0585619370E+000 
8143436.796 +8.1350142341E-001 +4.6919586562E+000  +5.3150701280E-004 +1.0465419904E+002  +6.3277966772E-003 +1.0836467856E+002  +7.7493883525E-001 +5.0134467067E+000 
8268581.977 +7.9728712686E-001 +7.6445364923E+000  +4.4495786951E-003 +1.1652854967E+002  +1.3554278612E-002 +8.5655346823E+001  +7.2562075499E-001 -3.1669617541E+000 
8393727.159 +7.2952705258E-001 +5.7308792481E+000  +9.8914667975E-003 +1.0109507286E+002  +9.7633827419E-003 +1.2698456304E+002  +8.2152078198E-001 +5.4832409104E+000 
8518872.340 +7.6283966038E-001 +9.4593197597E+000  +4.8298730509E-003 +1.0371619582E+002  +3.3942933946E-003 +1.2378968126E+002  +7.6211459351E-001 +1.1961284861E+000 
8644017.522 +6.8129785590E-001 +1.2971779855E+001  +4.6659799517E-003 +9.8219233081E+001  +7.0982237101E-003 +1.0134469246E+002  +6.8370559765E-001 -7.3292815133E-001 
8769162.703 +6.1850211521E-001 +2.2590517792E+000  +6.8387761699E-003 +1.0183395025E+002  +2.7861839070E-003 +1.0901085119E+002  +6.0786852493E-001 +2.9865150021E-001 
8894307.885 +6.8591626278E-001 +6.9651122595E+000  +4.7994548736E-003 +1.3149348530E+002  +5.7383255859E-003 +3.8418435775E+001  +6.5794783735E-001 -6.0578835582E-001 
9019453.066 +5.9936506138E-001 +2.5663053425E+000  +4.0976819880E-003 +3.1358525984E+001  +1.0791724735E-003 +7.2354056070E+001  +6.6100604520E-001 -1.0491650596E+000 
9144598.248 +6.0470622797E-001 +4.6298175999E+000  +5.6227028247E-003 +6.8387884702E+001  +2.2675983001E-003 +1.1188595838E+002  +5.5458463031E-001 -1.8042617389E-001 
9269743.429 +6.1097044419E-001 +8.4559250917E+000  +2.6026182958E-003 +1.0402976535E+002  +3.3564253761E-003 +8.6271756485E+001  +6.5114302795E-001 +1.8968627235E+000 
9394888.611 +5.8176607987E-001 +3.4719098483E+000  +3.4639397318E-003 +7.3852304305E+001  +2.9245259439E-003 +1.2783970431E+002  +5.7882425153E-001 -4.6077909342E+000 
9520033.792 +4.9960450500E-001 +4.8224072700E+000  +2.3725966041E-003 +8.9458068175E+001  +3.6946564230E-003 +1.4092629173E+002  +5.7542079838E-001 -1.1724068679E+000 
9645178.974 +5.3999663772E-001 +1.3084366999E+000  +3.3671809832E-003 +1.4461301769E+002  +6.5460375776E-003 +4.9508514228E+001  +5.7208258503E-001 -5.2634868268E+000 
9770324.155 +5.4648215219E-001 -3.0966058003E+000  +3.8546597254E-003 +7.2872155323E+001  +2.6754688423E-003 +9.7105447281E+001  +6.0229426740E-001 -9.0929270621E+000 
9895469.337 +5.5024577109E-001 -1.7108368814E-001  +3.1927488340E-003 +7.2618063974E+001  +8.6419671386E-003 +1.1854965501E+002  +5.8684054392E-001 -6.4371836874E+000 
10020614.518 +5.8953314350E-001 +2.1371717193E+000  +6.0984677499E-003 +8.5512895595E+001  +3.8442218345E-003 +1.3151792548E+002  +5.6618359540E-001 -7.7485138096E+000 
10145759.700 +5.2649767036E-001 -6.3480015048E-001  +5.6653851252E-003 +8.4326787118E+001  +2.7439855717E-003 -1.7280188318E+002  +6.0441427996E-001 -5.6488429835E-002 
10270904.881 +5.5102936579E-001 +9.6186987429E-001  +3.8576674399E-003 +6.0881123100E+001  +4.6403063644E-003 +1.1141576003E+002  +5.8493034964E-001 -2.8260352842E+000 
10396050.063 +5.3027403743E-001 +4.2473291797E+000  +2.7212751911E-003 +8.4023635042E+001  +8.3873891323E-003 +1.0738133047E+002  +6.0150255842E-001 -3.3883487408E+000 
10521195.244 +5.8739653565E-001 +3.7767952940E+000  +4.7300288728E-003 +9.9234236919E+001  +3.9474817014E-003 +9.2112339492E+001  +5.7854343273E-001 -6.5108542078E+000 
10646340.426 +5.6200027276E-001 +2.5692326147E+000  +4.7862597507E-003 +8.2116976002E+001  +2.7243794626E-003 +1.0406045985E+002  +6.0445019623E-001 -2.0954852958E+000 
10771485.607 +5.5509374003E-001 +4.9241835101E+000  +3.7383091892E-003 +1.0016511368E+002  +4.2270488157E-003 +1.1057522006E+002  +5.7874907439E-001 +2.6348455207E+000 
10896630.788 +5.7957661854E-001 +5.8348662708E+000  +5.5591250976E-003 +6.6556108079E+001  +3.7968276327E-003 +1.1351825365E+002  +6.3653687751E-001 +1.9356489051E+000 
11021775.970 +5.9888153559E-001 +8.9374754711E+000  +4.8053648704E-003 +7.4884719887E+001  +6.2075739658E-003 +1.1626363843E+002  +6.3924398746E-001 +2.4394847087E+000 
11146921.151 +5.7814808203E-001 +9.2097001155E+000  +4.0815247553E-003 +9.5202840461E+001  +5.2643177003E-003 +7.7885480800E+001  +6.2169836822E-001 +1.8440650287E+000 
11272066.333 +6.0234403518E-001 +7.1115128002E+000  +6.9913628949E-003 +9.6214929583E+001  +5.6825966721E-003 +1.0974078148E+002  +6.4533855123E-001 +2.5623142391E-001 
11397211.514 +6.1200684425E-001 +2.3047578207E+000  +4.4308970290E-003 +8.4088720113E+001  +5.5356455237E-003 +8.8328509854E+001  +6.4833777766E-001 +6.2393266641E-001 
11522356.696 +6.3759244059E-001 +8.5490878466E+000  +1.7609843969E-003 +1.1585222551E+002  +4.8858576978E-003 +8.7600002193E+001  +6.4613972002E-001 +4.7753505074E+000 
11647501.877 +6.5189609401E-001 +4.2916340939E+000  +3.7719089453E-003 +1.0963864875E+002  +4.2435915092E-003 +1.2253115756E+002  +6.5955408524E-001 +1.9100816923E+000 
11772647.059 +6.4270037615E-001 +5.3851256336E+000  +6.7198601803E-003 +8.7816490770E+001  +8.0020080948E-003 +1.0238915324E+002  +6.7355673411E-001 -1.0177699285E+000 
11897792.240 +6.6455023204E-001 +4.8333920943E+000  +8.1944277671E-003 +9.8337554137E+001  +5.8199730829E-003 +8.2312622510E+001  +6.7235275533E-001 -2.0098909212E-001 
12022937.422 +6.7541848979E-001 +5.4737324649E+000  +5.9569352882E-003 +8.1514696172E+001  +6.6804674904E-003 +9.5385286892E+001  +7.0703206915E-001 +2.8350906069E+000 
12148082.603 +6.8484151620E-001 +6.3594795987E+000  +5.6866955048E-003 +1.0093987096E+002  +7.3143406968E-003 +1.0702075040E+002  +6.9755684467E-001 +5.3587449221E-001 
12273227.785 +6.7087929600E-001 +4.9734324419E+000  +6.1959827856E-003 +8.2411185580E+001  +4.3917156358E-003 +8.5299685114E+001  +7.0458035635E-001 +1.3134411503E+000 
12398372.966 +6.9805480546E-001 +5.1856611446E+000  +6.8005373617E-003 +8.4490116671E+001  +5.6502578821E-003 +1.0505185334E+002  +7.3217230555E-001 +1.5283422806E+000 
12523518.148 +7.3373355358E-001 +1.4774236302E+000  +5.1029585829E-003 +1.1229965977E+002  +6.4986192614E-003 +8.5053561656E+001  +7.1801467454E-001 -1.4268692146E+000 
12648663.329 +7.2314751245E-001 +1.7890527050E+000  +5.7404690258E-003 +9.8559372646E+001  +5.1099827981E-003 +1.0828232717E+002  +7.4975375729E-001 -2.1935974808E+000 
12773808.511 +7.6034771425E-001 +4.4793417980E-001  +6.5590181567E-003 +9.2048915411E+001  +5.5201757726E-003 +9.5080829135E+001  +7.8999990612E-001 -1.9411393833E-001 
12898953.692 +7.8996537752E-001 +1.0894388605E+000  +6.6083745665E-003 +8.0811339697E+001  +6.5515258115E-003 +1.0834255388E+002  +7.7941980608E-001 -1.1128437318E+000 
13024098.874 +7.8090368371E-001 +1.3781491943E+000  +7.1257580779E-003 +8.1074228236E+001  +7.1965542659E-003 +9.8849789451E+001  +7.8219646104E-001 -2.4232227029E+000 
13149244.055 +8.2373354636E-001 -8.8151887150E-001  +5.4934915649E-003 +9.0327148941E+001  +6.7456404273E-003 +7.8254020504E+001  +8.2984605321E-001 -2.2154294700E+000 
13274389.237 +8.0977056889E-001 -7.3035489458E-001  +5.6958157993E-003 +9.9263311517E+001  +8.5900612430E-003 +9.3205381884E+001  +8.3125960892E-001 -1.8460257029E+000 
13399534.418 +8.1106521617E-001 -2.5002969696E+000  +7.1059481070E-003 +8.8055925334E+001  +8.0003525371E-003 +9.4140072014E+001  +8.3655984677E-001 -1.6936332188E+000 
13524679.599 +8.6528540106E-001 -1.5902287512E+000  +6.9194886593E-003 +9.7471343124E+001  +6.0931809200E-003 +8.9461746444E+001  +8.7382544379E-001 -1.7514700054E+000 
13649824.781 +8.3788132870E-001 -3.0906058254E+000  +7.6708865186E-003 +8.9862603291E+001  +6.5028023108E-003 +1.0559196270E+002  +8.7517055849E-001 -3.5621465709E+000 
13774969.962 +8.9079469754E-001 -2.5495778552E+000  +6.1505089172E-003 +1.0884714291E+002  +6.8159817219E-003 +1.0073139241E+002  +8.9198098060E-001 -2.7435071372E+000 
13900115.144 +9.0752256102E-001 -3.7055854756E+000  +7.1208782395E-003 +9.0353214530E+001  +7.0842255663E-003 +8.3950669973E+001  +9.3082751890E-001 -3.7801041932E+000 
14025260.325 +9.2602029434E-001 -3.7537557375E+000  +8.1848262716E-003 +8.6818962694E+001  +8.2209038532E-003 +8.4223577993E+001  +9.5656012367E-001 -3.8343146748E+000 
14150405.507 +9.3120488767E-001 -3.6739478356E+000  +6.0407057684E-003 +9.2743157523E+001  +6.5697869081E-003 +1.0993064491E+002  +9.4840750134E-001 -4.2754550123E+000 
14275550.688 +9.6595690486E-001 -4.3979415740E+000  +8.6972342157E-003 +9.6762168905E+001  +7.6895298528E-003 +8.2239640076E+001  +9.4851522333E-001 -4.7550450775E+000 
14400695.870 +9.7370452242E-001 -4.7925444253E+000  +7.0788261878E-003 +9.7798007677E+001  +8.2222374116E-003 +8.4759885956E+001  +9.9198955514E-001 -4.5250625520E+000 
