!  2-Port S-parameters saved by WinCal
! VAR NAME=S2_r2c8_formed(1)_9k-100M_2
! VAR DATE=30/08/2024 11:25:31
! VAR FILENAME=S2_r2c8_formed(1)_9k-100M_2.S2P
! VAR MeasName=S-Parameters (CALIBRATED_DATA) read from VNA (P5004A)
! VAR MeasDate=27/08/2024 13:54:58
! VAR PHYS_PORTS=1,2
! VAR ObjTypeName=DATASET
! VAR IndexType=Frequency
!
# Hz S MA R 50
9000.000 +8.2197957395E-002 -1.4540738433E+002  +9.7564704888E-003 +2.6425322264E-001  +1.8848700447E-002 -4.4271371704E+001  +2.4193088386E-001 -1.3022997065E+002 
134145.181 +1.1115439867E-001 +1.6953976492E+002  +2.7855869157E-004 +4.0376758690E+001  +8.1410747340E-004 +7.4185563813E+001  +2.4285008040E-001 -1.7047485384E+002 
259290.363 +1.1098993399E-001 +1.7022251141E+002  +1.7016325818E-004 -1.7734502034E+002  +3.9082767395E-004 -1.4826204220E+002  +2.4074406137E-001 -1.6967313610E+002 
384435.544 +1.1343138752E-001 +1.7019465911E+002  +2.8528015062E-004 +1.3714351985E+002  +1.6566450115E-004 +6.2864039733E+001  +2.3512021095E-001 -1.6819296715E+002 
509580.726 +1.1205880020E-001 +1.7015310373E+002  +6.8736871748E-004 +1.2752030281E+002  +1.6044489065E-003 +1.4653996318E+002  +2.3980139054E-001 -1.6369407003E+002 
634725.907 +1.1710385714E-001 +1.7076797491E+002  +8.4742365806E-004 -1.6001563294E+002  +7.7719102065E-004 +6.8695882299E+001  +2.4644541130E-001 -1.6657649412E+002 
759871.089 +1.1760005457E-001 +1.7227223004E+002  +4.3957096739E-004 +1.3397483498E+002  +1.5313052706E-003 +5.4298715127E+001  +2.4214181672E-001 -1.5991767265E+002 
885016.270 +1.1610843693E-001 +1.6907088135E+002  +5.8699727843E-004 +1.5633026999E+002  +1.0610946252E-003 -8.6674812949E+001  +2.3335229660E-001 -1.6416760755E+002 
1010161.452 +1.1871035920E-001 +1.7028586890E+002  +1.3108958399E-003 +7.0376973714E+001  +6.4304475037E-004 -1.1066307435E+002  +1.9137521390E-001 -1.6597766690E+002 
1135306.633 +1.1566776864E-001 +1.6875001850E+002  +1.2134339016E-003 -8.5030684274E+001  +6.5790142401E-004 -1.7217358501E+002  +1.9318619747E-001 -1.6463390500E+002 
1260451.815 +1.2236458767E-001 +1.7114023206E+002  +1.1009432065E-003 -7.5358841528E+001  +1.9280797965E-003 -1.1563649981E+002  +2.3141705411E-001 -1.6297522764E+002 
1385596.996 +1.2427901477E-001 +1.7158945567E+002  +7.3172616784E-004 -1.7229676881E+002  +7.7493201648E-004 -3.8043479195E+001  +2.6352948503E-001 -1.6164842224E+002 
1510742.178 +1.2909206496E-001 +1.6942083817E+002  +5.0924422361E-004 -9.2075990950E+001  +1.1170591851E-003 +5.2450626666E+001  +2.3774010107E-001 -1.5981551253E+002 
1635887.359 +1.2574543551E-001 +1.7016106649E+002  +1.3211426075E-003 -1.8489338170E+001  +9.5384713175E-004 -2.6541841949E+001  +2.4660818445E-001 -1.5922765267E+002 
1761032.541 +1.2442851698E-001 +1.7010487095E+002  +8.2583158713E-004 +1.7658702696E+002  +1.4857562413E-003 -9.1900309548E+001  +2.2695921938E-001 -1.6120619254E+002 
1886177.722 +1.2854102013E-001 +1.7005623700E+002  +2.0057598864E-003 -1.5261060512E+002  +1.2239460933E-003 -1.5085035979E+002  +2.0806693839E-001 -1.6268423835E+002 
2011322.904 +1.3251661552E-001 +1.6845474426E+002  +1.5725734549E-003 -7.1840127860E+000  +7.2851938218E-004 -1.5159856451E+002  +1.9314397690E-001 -1.6181211901E+002 
2136468.085 +1.2942259404E-001 +1.6408790198E+002  +3.0011093881E-003 +5.8195272086E+001  +4.2801636339E-003 +1.4113876851E+001  +1.9681965095E-001 -1.6290079435E+002 
2261613.267 +1.3441360913E-001 +1.6067524645E+002  +1.9159257864E-003 -7.0648459520E+001  +2.9880182630E-003 +1.5598566343E+002  +1.8875585392E-001 +1.6901575246E+002 
2386758.448 +1.3768768079E-001 +1.6417486167E+002  +2.1135304536E-003 +1.3277127084E+002  +2.3212900430E-003 +8.2607123283E+001  +1.9707613799E-001 -1.7828826348E+002 
2511903.630 +1.3780518721E-001 +1.6122873127E+002  +5.4556256721E-003 +1.4729020172E+001  +4.1407101959E-003 +7.9401305636E+001  +2.9713760410E-001 +1.4297843474E+002 
2637048.811 +1.2000972632E-001 +1.5361134640E+002  +3.1743145453E-002 -3.2395664412E+000  +1.0291914319E-002 +4.4363786907E+001  +5.9506313698E-001 +3.9365314824E+001 
2762193.992 +1.1911579323E-001 +1.6445154421E+002  +3.5866310814E-002 +1.6366098221E+002  +1.0345230213E-002 +1.3487287804E+002  +1.8471190899E+000 +1.0373830042E+002 
2887339.174 +1.0214648004E-001 +1.6446713451E+002  +1.8928073282E-002 -1.1609209303E+002  +1.0345512422E-002 +1.6360555743E+001  +5.7570677904E-001 -1.1689318943E+002 
3012484.355 +8.8910009855E-002 -1.7653465767E+002  +5.7456395632E-002 +8.0243486250E+001  +5.6182961714E-002 +2.7267975276E+001  +8.9718999600E-001 -9.6127915947E+000 
3137629.537 +7.4986514199E-002 +1.6494507922E+002  +1.6404497987E-002 +4.7161396502E+001  +3.1371880667E-002 -8.1264386728E+001  +6.1496099153E-001 -1.0016973109E+002 
3262774.718 +1.0251183920E-001 +1.6009206038E+002  +3.9818172464E-003 +1.5229025404E+002  +6.7306493130E-003 +1.6209474101E+002  +7.4602904081E-002 +1.1599507600E+002 
3387919.900 +1.2208333394E-001 +1.5290188507E+002  +1.5497004344E-002 +2.2504928009E+001  +5.0072604021E-003 +3.4826669725E+001  +6.0974749618E-001 +5.1670258939E+001 
3513065.081 +1.5238483199E-001 +1.4995584870E+002  +8.5262245994E-003 +7.9520617475E+001  +1.2418470565E-002 -1.5555466295E+002  +2.6977524574E-001 +8.9483966404E+001 
3638210.263 +1.8265316565E-001 +1.4619188543E+002  +1.2634777377E-002 -1.1973602683E+002  +8.5540258245E-003 -1.0306194643E+002  +2.9986004823E-001 +3.0593879197E+001 
3763355.444 +1.4845525420E-001 +1.4021801556E+002  +1.0634045564E-002 -4.7822613861E+001  +6.3632607962E-003 +1.9332115335E+001  +2.9334190099E-001 +1.3141891157E+002 
3888500.626 +1.8946819125E-001 +1.4368782214E+002  +1.5853377866E-003 -9.6157705404E+001  +8.9438831041E-003 +4.3302552721E+001  +4.9043496506E-001 +1.3603425534E+002 
4013645.807 +1.7461524028E-001 +1.4899150511E+002  +3.7753306244E-003 +1.1552326387E+002  +3.2816707625E-003 +1.3163982079E+002  +2.4993262533E-001 +9.6341933443E+001 
4138790.989 +2.2470425429E-001 +1.4632675961E+002  +7.6726520274E-003 -1.6677927341E+002  +9.6439261209E-003 +7.4565333418E+001  +3.1814786023E-001 +1.0393022441E+002 
4263936.170 +2.1585498385E-001 +1.4342228563E+002  +9.5462267509E-003 -1.5260547728E+002  +1.3106519321E-002 +1.3827027351E+002  +7.3209574182E-001 +1.2667088391E+002 
4389081.352 +2.2690897522E-001 +1.3860177524E+002  +1.7683283728E-002 +1.6884462112E+002  +1.7039213096E-002 +2.1386353564E+000  +7.8101705404E-001 +8.6667409786E+001 
4514226.533 +2.1145489493E-001 +1.4733244370E+002  +1.4588427586E-002 -1.3457204416E+002  +7.7686855619E-003 -1.1733389029E+002  +1.3621884361E+000 +7.7780149446E+001 
4639371.715 +3.3043950476E-001 +1.3843066913E+002  +3.2051332914E-002 +1.0100082727E+002  +3.0588524928E-002 -1.0809686879E+002  +3.2697080195E+000 +1.1970835859E+002 
4764516.896 +4.1175816616E-001 +1.2752220053E+002  +8.4647814880E-001 +8.4066008050E+001  +2.6335155721E-001 -1.4847307270E+002  +1.4383331213E+001 -1.1464711557E+002 
4889662.078 +3.8828622218E-001 +1.2181395926E+002  +1.3347485854E-002 -1.1445393507E+002  +1.7820128600E-002 -5.0319691216E+001  +2.5194246625E+000 -8.8674198433E+001 
5014807.259 +4.1080568986E-001 +1.3564179378E+002  +1.2839834147E-002 -7.2889460038E+001  +9.6515241795E-003 +4.2956292907E+001  +2.1347553141E+000 +1.0577134357E+002 
5139952.441 +3.4164401983E-001 +1.3231469883E+002  +3.7193169898E-002 -3.2075164226E+001  +2.3936845181E-002 +5.5651374659E+001  +3.2670907437E+000 +1.5153472101E+002 
5265097.622 +3.8812398221E-001 +1.3004071440E+002  +1.0290366335E-002 +1.4387429867E+002  +4.7001931090E-002 +5.7813438951E+001  +1.6415670575E+000 +1.0747599756E+001 
5390242.804 +3.9811414470E-001 +1.2937365794E+002  +1.4925057464E-002 -5.1198025714E+001  +1.1407395383E-002 +9.1269720295E+001  +1.1987886973E+000 +1.1838053052E+002 
5515387.985 +4.1519649209E-001 +1.2798403590E+002  +5.5559860382E-002 -7.6675910494E+001  +9.8184337529E-002 +1.0728010431E+002  +4.2373312328E+000 +5.6443885161E+001 
5640533.166 +4.0940546834E-001 +1.2584943974E+002  +9.8876967900E-003 -6.6797411805E+001  +8.1827534057E-003 +1.6560144095E+002  +2.1890190321E+000 +1.0883678045E+002 
5765678.348 +4.9079298427E-001 +1.2474085349E+002  +2.2186690651E-002 -1.3862939692E+002  +2.7699710670E-002 +4.0206056894E+001  +1.7676039499E+000 +4.4875823809E+001 
5890823.529 +6.4014424187E-001 +1.1725165762E+002  +2.3753228164E-002 +1.2718040589E+002  +1.3992923206E-002 +8.8146165170E+001  +1.9460589464E+000 +5.1317145005E+001 
6015968.711 +6.5382028028E-001 +1.1669161183E+002  +1.3281553218E-002 +1.4059556974E+002  +1.1755230421E-002 +6.4626696102E+001  +1.4814688719E+000 +4.0531097560E+001 
6141113.892 +6.9619367034E-001 +1.0925375849E+002  +9.7918730260E-003 +6.3518687346E+001  +1.2688050648E-002 +3.8399574962E+001  +1.4257080766E+000 +5.2117295000E+001 
6266259.074 +9.7473222869E-001 +1.0937451716E+002  +3.4362723213E-002 +1.2089967792E+002  +7.1533730507E-003 +1.7094964157E+002  +2.0062734828E+000 +2.3010932705E+001 
6391404.255 +1.3189578490E+000 +1.0125622212E+002  +2.5435693560E-002 +7.8668504445E+001  +1.3010176903E-002 -8.8667602424E+001  +1.6139530984E+000 +9.6747427427E+000 
6516549.437 +1.1092815482E+000 +8.4659030516E+001  +2.8387382177E-003 -2.7050449366E+001  +3.2403791075E-002 -1.4053726897E+002  +1.5592528931E+000 +5.3221716125E+000 
6641694.618 +1.6607926286E+000 +8.2909859107E+001  +2.0726043895E-003 -1.1598443416E+002  +3.1196629070E-002 +1.3117025955E+002  +1.4567616034E+000 -4.6964640161E+000 
6766839.800 +1.8750752259E+000 +6.4863897829E+001  +2.2339994038E-002 +7.9484192132E+001  +2.7431608514E-002 -1.1197407752E+002  +1.3030179740E+000 -2.2177215336E+000 
6891984.981 +2.5211346144E+000 +4.4837073587E+001  +1.6741894810E-002 +1.4288145922E+002  +4.7796573113E-003 -1.7417837022E+002  +1.3228046293E+000 -1.0733447752E+001 
7017130.163 +1.8116560435E+000 +1.9121683713E+001  +1.9592599619E-002 +1.1118873640E+002  +5.1999475755E-003 +1.7477479597E+002  +1.2491587427E+000 -7.0045013000E+000 
7142275.344 +1.4277696126E+000 +1.5665058606E+001  +2.6751527114E-003 +9.1584881593E+001  +5.5630123329E-003 +1.0693924521E+002  +1.3563110537E+000 -1.6478722778E+001 
7267420.526 +1.6606015386E+000 -1.9403591478E+000  +5.6719435067E-003 +1.5895051080E+002  +8.2320083151E-003 +3.1442518468E+001  +1.3846432779E+000 -1.0062733461E+001 
7392565.707 +1.4002236202E+000 +8.9751101919E-001  +7.5615900743E-003 +1.3767922754E+002  +1.1326019321E-002 +1.1376930440E+002  +1.3718602991E+000 -6.5009325998E+000 
7517710.889 +1.2849217508E+000 -4.0188914966E+000  +8.7994177002E-003 +7.3372155097E+001  +1.3445788076E-002 +8.7717944164E+001  +1.1917413432E+000 +1.2617511057E+000 
7642856.070 +1.1092657645E+000 +1.7288297929E+000  +6.4653504204E-003 +1.4422750047E+002  +5.5995004708E-003 +1.1739480338E+002  +1.1040314519E+000 -2.4816902352E+000 
7768001.252 +1.0072743374E+000 +1.2641064367E-001  +7.6841579077E-003 +5.7023753965E+001  +5.6152846154E-003 +1.7284211981E+002  +1.0244519005E+000 -3.2987761896E+000 
7893146.433 +8.9434699367E-001 +6.2342001362E+000  +6.2824031181E-003 +1.0617109641E+002  +6.0714495781E-004 +1.5420153426E+001  +1.0223349334E+000 -5.9008796779E+000 
8018291.615 +7.9494300289E-001 +8.3150343956E+000  +5.1696853128E-003 +1.2631365331E+002  +7.1625190641E-003 +9.2815004692E+001  +8.5450300777E-001 -6.1680819009E+000 
8143436.796 +8.3843496123E-001 +7.6886428571E+000  +7.0248937678E-003 +7.1949521028E+001  +7.1283147660E-003 +9.7766860240E+001  +7.2067066709E-001 -9.5356419371E-001 
8268581.977 +7.4496310577E-001 +3.7406583310E+000  +1.6847981498E-003 +3.6692065663E+001  +1.7262935632E-003 -1.8741127114E+001  +8.6715618492E-001 -2.3086493526E+000 
8393727.159 +7.3229597651E-001 +1.0068400559E+001  +4.0337906010E-003 +1.2054687018E+002  +7.5382171990E-003 +5.9490283042E+001  +8.5631515949E-001 -3.1942436993E+000 
8518872.340 +6.5799244794E-001 +6.0090839936E+000  +4.8528051658E-003 -3.0167151110E+001  +4.5179371608E-003 +9.9550794748E+001  +7.0574379578E-001 +5.6323909155E-001 
8644017.522 +6.4545950826E-001 +5.8099243866E+000  +4.0966605196E-003 +1.0355736579E+002  +1.6996183865E-003 +3.8753723535E+001  +7.6866353835E-001 -2.7386761161E+000 
8769162.703 +6.1651163299E-001 +8.9618198483E+000  +1.1917255208E-003 +6.5556452847E+001  +5.1787347475E-003 +6.9585673663E+001  +7.2066743107E-001 +1.0023511027E+000 
8894307.885 +6.3040394550E-001 +8.4928238643E+000  +6.1672359836E-003 +7.0528400697E+001  +4.1568524095E-003 +7.1512229690E+001  +6.6362679720E-001 -4.9666236018E+000 
9019453.066 +5.5631751532E-001 +1.7493783790E+000  +5.2485890215E-003 +7.5202549084E+001  +3.9495677255E-003 +7.8888501622E+001  +6.6458283277E-001 -2.3996837096E+000 
9144598.248 +5.7778757941E-001 +5.3516227183E+000  +2.5355998946E-003 +1.3061576186E+002  +6.5276532055E-003 +7.7493877884E+001  +5.5478079043E-001 +2.4487129061E+000 
9269743.429 +5.8094027108E-001 +5.8142304898E+000  +4.4657560250E-003 +7.9022686336E+001  +2.5895492031E-003 +3.6322904108E+001  +6.2311144050E-001 -7.2383638515E-001 
9394888.611 +5.7532613205E-001 +2.3641555719E+000  +3.2451702065E-003 +1.1012940170E+002  +2.4783042008E-003 +2.8295552271E+001  +5.9547963958E-001 -8.0397602498E-001 
9520033.792 +5.6916430566E-001 +5.6583549994E+000  +1.3539115377E-003 +2.5571237633E+001  +6.4915146085E-003 +9.3627792710E+001  +5.9520788124E-001 -6.5288356870E+000 
9645178.974 +5.7815012724E-001 +1.1490657486E+000  +2.5110694094E-003 +9.4003225426E+001  +1.6688790758E-003 +1.3773114843E+002  +5.9541625139E-001 -3.8664050112E+000 
9770324.155 +5.5096971788E-001 +2.0668923872E+000  +3.9129258573E-003 +8.9816076490E+001  +3.6656694609E-003 +7.1728084240E+001  +5.9942741482E-001 -7.3995753442E+000 
9895469.337 +5.2400895478E-001 +4.1752120125E-001  +6.3239729178E-003 +9.0698930214E+001  +4.9317939913E-003 +8.7490750368E+001  +5.4788554838E-001 -5.1494535119E+000 
10020614.518 +5.4867560945E-001 +1.8868725488E+000  +4.5883796742E-003 +7.1279002832E+001  +5.9542928462E-003 +1.0276872688E+002  +5.9825535951E-001 -4.8191321685E+000 
10145759.700 +5.3950214261E-001 +8.7562572636E-001  +5.9909754227E-003 +1.0497948845E+002  +3.8994050453E-003 +1.0965308489E+002  +5.9195952735E-001 -7.6775389864E+000 
10270904.881 +5.6156739828E-001 +2.2107586955E+000  +5.1061455482E-003 +7.4180234201E+001  +4.5511542935E-003 +1.1384237252E+002  +5.6018746241E-001 -6.4751736592E+000 
10396050.063 +5.3476428892E-001 +8.9657045567E-002  +5.6664115626E-003 +7.6316293925E+001  +5.6489913072E-003 +6.2763428460E+001  +6.0364332456E-001 -3.0929449328E+000 
10521195.244 +5.7382677569E-001 +6.2204016314E+000  +5.4450340797E-003 +1.0274772193E+002  +3.4697581847E-003 +8.1361188158E+001  +5.9700813312E-001 -4.8605240201E-001 
10646340.426 +5.7587322507E-001 +8.2828672324E+000  +4.2294164421E-003 +9.5585242747E+001  +4.2978133059E-003 +8.6514576898E+001  +6.1768016398E-001 +7.5618809384E-001 
10771485.607 +5.7662382955E-001 +5.4259515317E+000  +5.0378044056E-003 +1.0188478151E+002  +4.6786032721E-003 +7.7666749650E+001  +5.9532386649E-001 +9.7263847728E-001 
10896630.788 +5.7754412320E-001 +7.7332255060E+000  +5.1656045584E-003 +8.2988803262E+001  +2.4226237247E-003 +9.0497770414E+001  +6.2087755373E-001 -1.3256150455E+000 
11021775.970 +5.8304388791E-001 +4.8727326935E+000  +5.1274195676E-003 +1.2442828107E+002  +3.5517419593E-003 +1.1677676163E+002  +6.0422332757E-001 +3.1873200837E+000 
11146921.151 +6.1644343815E-001 +6.5588296061E+000  +3.3200130232E-003 +6.5329723003E+001  +5.3659656922E-003 +8.3484294991E+001  +6.0554854087E-001 +2.5604450430E+000 
11272066.333 +6.1115307331E-001 +8.1576668753E+000  +5.5868704223E-003 +8.3635392502E+001  +4.5149398363E-003 +9.5278279254E+001  +6.2288036982E-001 -7.6048736328E-001 
11397211.514 +6.1200877686E-001 +5.5232687986E+000  +6.9568978304E-003 +1.0570318252E+002  +5.7015881643E-003 +9.9127774563E+001  +6.1350894346E-001 -1.9573505121E-001 
11522356.696 +6.2167495034E-001 +6.1140875130E+000  +4.9486559760E-003 +9.6157127821E+001  +3.2159711396E-003 +1.3356012487E+002  +6.6761211876E-001 -1.0475551814E-001 
11647501.877 +6.3381366056E-001 +5.6861739781E+000  +3.4779527200E-003 +8.7819383488E+001  +5.4085133886E-003 +9.2783360185E+001  +6.6818603599E-001 +1.6954029985E+000 
11772647.059 +6.3638694781E-001 +2.5202585766E+000  +4.8751086061E-003 +8.6603841732E+001  +4.6765961921E-003 +8.5177421668E+001  +6.7803842005E-001 +2.1400438858E+000 
11897792.240 +6.7648043467E-001 +6.6182401419E+000  +5.8331674697E-003 +9.7050267903E+001  +2.5371059129E-003 +1.1114024439E+002  +6.6015497057E-001 +8.2690581421E-002 
12022937.422 +6.6835386379E-001 +6.2642129150E+000  +5.7719287558E-003 +1.0439979648E+002  +6.7660712015E-003 +9.9246862324E+001  +6.6144195064E-001 +1.1237884082E+000 
12148082.603 +6.9371473245E-001 +3.4756892182E+000  +4.8686147165E-003 +1.0503250468E+002  +8.0629294343E-003 +9.7326704807E+001  +6.8533956413E-001 +2.1848703920E+000 
12273227.785 +6.7966126236E-001 +3.3191335281E+000  +5.3526645743E-003 +9.7808306941E+001  +4.8341394244E-003 +1.1176181669E+002  +7.0570572556E-001 -8.0940551419E-001 
12398372.966 +7.2620880774E-001 +3.1488488647E+000  +5.0651470823E-003 +9.5259799483E+001  +4.4656069399E-003 +1.0588483620E+002  +7.3952835900E-001 +9.8220226584E-001 
12523518.148 +7.0654650701E-001 +1.6626030518E+000  +4.1224189083E-003 +9.3515748966E+001  +5.8557451447E-003 +9.3992585692E+001  +7.4316209126E-001 +2.1467841018E+000 
12648663.329 +7.4353457565E-001 +2.5635590055E+000  +4.8913641161E-003 +8.5253026605E+001  +8.7020091387E-003 +9.2979653512E+001  +7.5897193180E-001 -1.9447207221E+000 
12773808.511 +7.4856003520E-001 +2.3449209842E+000  +5.2642619012E-003 +9.4349100122E+001  +6.3731939200E-003 +1.0160582512E+002  +7.6941095218E-001 -1.7640507292E+000 
12898953.692 +7.8192645132E-001 +9.2429877796E-001  +5.8764162168E-003 +7.3182528354E+001  +7.3971423104E-003 +1.0367687870E+002  +7.6780632300E-001 -8.7424512438E-001 
13024098.874 +7.8593654820E-001 +7.4686291144E-001  +4.8445564959E-003 +8.6152415847E+001  +6.3478173571E-003 +8.6621784400E+001  +8.0890684748E-001 -2.3914809502E+000 
13149244.055 +7.8491953923E-001 +3.0341907970E-001  +5.9253964833E-003 +9.6690757254E+001  +5.4920691508E-003 +7.9267009459E+001  +8.1803297490E-001 -1.5603365952E+000 
13274389.237 +8.2949431773E-001 +1.4944503232E-001  +4.8874099032E-003 +9.8842015911E+001  +5.3890498266E-003 +1.0099939487E+002  +8.3790249110E-001 -1.2322622679E+000 
13399534.418 +8.1927466370E-001 -7.3273735713E-001  +6.7580526867E-003 +8.9029324911E+001  +4.9628569332E-003 +1.1308677843E+002  +8.5506807140E-001 -2.5462548800E+000 
13524679.599 +8.5349542779E-001 -1.6043328722E+000  +8.0317247543E-003 +8.9268527051E+001  +6.0669720087E-003 +9.9191748460E+001  +8.5429375553E-001 -3.6135106470E+000 
13649824.781 +8.5281920830E-001 -2.0249798038E+000  +6.8262247520E-003 +8.0004508199E+001  +7.2515423243E-003 +9.2159202120E+001  +8.7216181830E-001 -3.1009497104E+000 
13774969.962 +8.7290985056E-001 -2.5121077522E+000  +6.3323960084E-003 +8.1559936052E+001  +5.8463640960E-003 +9.6403139387E+001  +8.9670630575E-001 -2.5792972155E+000 
13900115.144 +8.9783322077E-001 -3.3233372287E+000  +6.6568066085E-003 +9.9831354439E+001  +6.8246203764E-003 +8.8389310376E+001  +9.3015695095E-001 -3.1306156772E+000 
14025260.325 +9.2140753566E-001 -3.6224274367E+000  +8.1314663060E-003 +1.0077488771E+002  +5.7128138478E-003 +9.0524646467E+001  +9.3886237868E-001 -3.8653971806E+000 
14150405.507 +9.4104631834E-001 -4.6886459190E+000  +8.0533284867E-003 +8.6642941975E+001  +5.8762421142E-003 +8.9045551284E+001  +9.5809455673E-001 -3.0760826196E+000 
14275550.688 +9.6302753925E-001 -3.8128490311E+000  +7.4988578552E-003 +8.4501540783E+001  +7.9369590965E-003 +7.6612863351E+001  +9.6253078543E-001 -5.7598569195E+000 
14400695.870 +9.7844796261E-001 -5.0587004522E+000  +8.1741873627E-003 +8.5370937436E+001  +7.3021517818E-003 +9.2986140427E+001  +9.8775156926E-001 -5.1659306642E+000 
