!  2-Port S-parameters saved by WinCal
! VAR MeasName=S-Parameters (CALIBRATED_DATA) read from VNA (P5004A)
! VAR MeasDate=28/08/2024 16:25:43
! VAR NAME=S2_r8c9_SET1_9k-100M_2
! VAR FILENAME=S2_r8c9_SET1_9k-100M_2.S2P
! VAR DATE=28/08/2024 16:25:43
! VAR PHYS_PORTS=1,2
! VAR ObjTypeName=DATASET
! VAR IndexType=Frequency
!
# Hz S MA R 50
9000.000 +1.0230703355E-001 -1.5606895832E+002  +4.3888372211E-002 +1.1847962875E+002  +3.7390956405E-002 +7.6894216152E+001  +5.5512480084E-001 -1.1239693322E+002 
134145.181 +1.1106121099E-001 +1.6935499873E+002  +5.9129933095E-004 +7.3669092740E+001  +1.3408902659E-004 -1.7177346944E+002  +2.4127497383E-001 -1.7072163156E+002 
259290.363 +1.1237178701E-001 +1.7045695234E+002  +1.6094243793E-004 -4.2932658389E+001  +6.0703494809E-004 -2.0685492632E+001  +2.4681212207E-001 -1.7012655906E+002 
384435.544 +1.1518653422E-001 +1.7016281685E+002  +4.5567995968E-004 +1.4739771511E+002  +1.7101921248E-003 -4.9677011529E+001  +2.5091051126E-001 -1.6797370029E+002 
509580.726 +1.1230570575E-001 +1.7112010276E+002  +6.7389277437E-004 +1.9891479342E+001  +1.7407309285E-003 +6.2673632499E+001  +2.6216084397E-001 -1.6445233146E+002 
634725.907 +1.1553340304E-001 +1.7102930005E+002  +1.4973668530E-003 -1.1809852160E+002  +9.5273668688E-004 -2.4105099441E+001  +2.5750088907E-001 -1.6616227858E+002 
759871.089 +1.1857377653E-001 +1.7129851225E+002  +5.5925227258E-004 +5.3647650672E+000  +7.2737458071E-004 +1.5551548187E+002  +2.4900197358E-001 -1.6649623559E+002 
885016.270 +1.2051248366E-001 +1.6872212022E+002  +8.7319425972E-004 -1.5122179589E+002  +2.9057184773E-004 +1.6853625434E+002  +2.4597871234E-001 -1.6580839876E+002 
1010161.452 +1.1602647613E-001 +1.7045515794E+002  +5.9571602569E-004 +3.6724099488E+000  +6.9729094647E-004 +1.1232180827E+002  +2.1576023252E-001 -1.6858315423E+002 
1135306.633 +1.1698886404E-001 +1.6964955728E+002  +8.0219378951E-004 -5.1910132020E+001  +8.2463278280E-004 -1.1434357102E+002  +2.0495265984E-001 -1.7507791494E+002 
1260451.815 +1.2126150625E-001 +1.7086665081E+002  +7.5696696613E-004 -2.4332634663E+001  +2.6608407636E-003 +1.6728367424E+002  +2.4439939784E-001 -1.5480112725E+002 
1385596.996 +1.2340001903E-001 +1.7226643834E+002  +9.7529867914E-004 -2.7007148129E+001  +1.8232914821E-003 +7.0197355727E+001  +2.7116719775E-001 -1.5682922191E+002 
1510742.178 +1.2867836340E-001 +1.7220053061E+002  +8.2044231302E-004 -1.6525137152E+002  +1.0018022702E-003 +2.3469030529E+001  +2.5854393725E-001 -1.5780236126E+002 
1635887.359 +1.2817705759E-001 +1.7044703658E+002  +2.2966956404E-003 -1.5170723590E+002  +1.1721811356E-003 -7.1410055082E+001  +2.3126646443E-001 -1.5782090883E+002 
1761032.541 +1.2838339190E-001 +1.6965407515E+002  +1.9038929879E-004 +1.3220857961E+002  +1.3730623281E-003 +1.5302126343E+001  +1.8707483440E-001 -1.7004263030E+002 
1886177.722 +1.2893815970E-001 +1.6968940010E+002  +5.5316855491E-004 -8.6268113268E+001  +2.9192410239E-003 +5.2811431661E+001  +1.8016270750E-001 -1.5339488977E+002 
2011322.904 +1.3354981080E-001 +1.6881524820E+002  +3.8555510672E-004 +1.7810100615E+002  +3.1862001500E-003 +6.3394204825E+001  +1.7040179810E-001 -1.6117260549E+002 
2136468.085 +1.3565287284E-001 +1.6620523010E+002  +3.2984584315E-003 -1.5446993472E+002  +2.7005563630E-003 +1.0804051951E+002  +1.7120101297E-001 +1.7855028638E+002 
2261613.267 +1.3183579207E-001 +1.6545784186E+002  +2.4076376315E-003 +1.1506091450E+002  +1.6276158750E-003 +3.9449101974E+001  +1.8363786572E-001 +1.7438010444E+002 
2386758.448 +1.3543001052E-001 +1.6529405480E+002  +1.9517262081E-003 -1.0280463325E+002  +1.6304642825E-003 +9.0040745613E+001  +2.2070065720E-001 +1.7426665575E+002 
2511903.630 +1.3340365364E-001 +1.6302961945E+002  +3.0858893051E-003 +7.2857982082E+001  +5.5909862462E-004 +2.4114523602E+001  +2.4837910447E-001 +1.5692003638E+002 
2637048.811 +1.0808892861E-001 +1.7886061473E+002  +1.0450969117E-002 -2.3194326591E+001  +1.1171804203E-002 -1.1963920188E+002  +2.3814521453E-001 +1.1870994401E+002 
2762193.992 +9.9354396016E-002 +1.7278384111E+002  +6.0627102846E-002 -1.3096827999E+001  +7.2484635099E-002 +6.1227040807E+001  +2.7624493119E+000 +1.5300798952E+002 
2887339.174 +1.1263314322E-001 +1.7882208452E+002  +1.0925739434E-003 -3.1341663982E+001  +6.2907056175E-003 -1.1099447217E+002  +1.3200395087E-001 -1.1644433476E+002 
3012484.355 +1.1632776138E-001 -1.7789061919E+002  +1.2341442786E-002 +1.5384689724E+002  +1.3389331683E-002 +9.7962529102E+001  +4.3824241172E-001 -1.0948815776E+002 
3137629.537 +1.3237212961E-001 +1.6848013695E+002  +1.1965754387E-002 +1.0362433356E+002  +1.0551515574E-002 +7.3088685466E+001  +3.2013049192E-001 -1.0822973864E+002 
3262774.718 +1.1097429498E-001 +1.6066482673E+002  +4.2573302725E-003 +4.2962842018E+001  +8.2582433412E-003 -1.0621913318E+002  +1.8214323405E-001 +1.4987928567E+002 
3387919.900 +1.0383334372E-001 +1.5000659016E+002  +1.4856051119E-002 +1.1904164524E+002  +7.5344957445E-003 +4.3917563326E+001  +1.8681855419E-001 +7.6842835496E+000 
3513065.081 +1.6188243041E-001 +1.5168900716E+002  +4.1347907453E-003 +1.1787291257E+002  +9.0654731712E-003 +1.0330241627E+002  +2.6592358741E-001 +1.1242115646E+002 
3638210.263 +1.6091379204E-001 +1.4912835843E+002  +2.6096134845E-003 +1.0093789382E+002  +3.2850019095E-003 -8.9964107332E+001  +5.4519730429E-001 +1.5675436689E+002 
3763355.444 +1.5961864511E-001 +1.4723893250E+002  +2.3825638399E-003 -1.5107107165E+002  +6.4754737091E-003 -1.0476864087E+002  +5.3093047000E-001 +1.4825137695E+002 
3888500.626 +1.8450214887E-001 +1.4941933150E+002  +8.2699602803E-003 -2.4767991745E+001  +1.7036701692E-002 -8.0409613444E+001  +1.2751881297E+000 +1.3269356362E+002 
4013645.807 +1.7939062580E-001 +1.4305733170E+002  +1.7090723525E-002 -4.9297755019E+001  +1.1494876110E-002 +1.5457280704E+001  +2.2880529878E-001 +1.2339137086E+002 
4138790.989 +1.8123020237E-001 +1.5009808255E+002  +1.3448346995E-002 -7.0974276967E+001  +3.2755794448E-003 -1.5328898695E+002  +6.6107473367E-001 +1.2670098143E+002 
4263936.170 +2.0879824593E-001 +1.4883680838E+002  +9.8250259133E-003 +2.6237127810E+001  +1.8740846332E-002 -1.6631659697E+002  +1.6058978450E+000 +9.6602382473E+001 
4389081.352 +2.2601299336E-001 +1.3847464099E+002  +8.1716682435E-003 -1.7330193374E+002  +2.2116996111E-003 +8.1270585593E+001  +2.5355777467E-001 +1.0826610890E+002 
4514226.533 +1.6507315697E-001 +1.0566009880E+002  +2.2757618785E-002 -1.1984865998E+002  +2.1361300535E-002 +1.4084873779E+002  +1.0408072694E+000 +1.0660095885E+002 
4639371.715 +3.1832091313E-001 +1.3065530414E+002  +8.1964504700E-002 -8.6867581159E+001  +9.8052246033E-002 -1.4364692272E+002  +4.7394366460E+000 +2.1932271495E+001 
4764516.896 +3.5366389017E-001 +1.2243002789E+002  +8.8476621363E-002 -1.7475221166E+002  +9.7682428060E-002 -4.6101927140E+001  +4.0535288933E+000 +1.4764781476E+002 
4889662.078 +4.3487427616E-001 +1.3560007698E+002  +1.4735275196E-001 +6.8452611483E+001  +1.9516964623E-002 -6.2337941981E+001  +5.1784152104E+000 -8.7703024646E+001 
5014807.259 +3.5384484549E-001 +1.2552338357E+002  +1.6137523126E-002 -9.7581739355E+001  +8.0536615147E-003 +1.3449846583E+002  +4.2302260457E+000 +1.7882828540E+002 
5139952.441 +3.1260794053E-001 +1.2764203506E+002  +1.7005245051E-002 -1.4338198222E+002  +2.0928680313E-002 +1.1207166060E+002  +2.1203850835E+000 +1.0633538991E+002 
5265097.622 +4.4562155269E-001 +1.2988707616E+002  +6.7465316461E-002 -1.6800699833E+002  +8.1732795436E-002 -1.7592972825E+002  +7.1876278649E+000 +3.3263846221E+001 
5390242.804 +4.1467979729E-001 +1.1905037262E+002  +2.9923695089E-002 +1.3286223763E+002  +1.7511537814E-002 +6.5947140408E+001  +2.5315196104E+000 +7.2841560640E+001 
5515387.985 +5.2616396534E-001 +1.2491862540E+002  +1.5693142024E-002 +1.6772685873E+002  +2.0872329957E-002 +3.7265066519E+001  +2.1014345613E+000 +2.4733477792E+001 
5640533.166 +4.9188943473E-001 +1.2359535065E+002  +1.1736038880E-002 -7.8167012400E+001  +6.8700568903E-003 +9.2879592682E+001  +1.4524505530E+000 +8.4875327711E+001 
5765678.348 +5.1342217408E-001 +1.2671078711E+002  +2.3958586460E-002 -1.3609728371E+002  +2.2807345238E-002 -2.7127111108E-001  +2.1394064565E+000 +4.5338784661E+001 
5890823.529 +5.9049760104E-001 +1.2698898814E+002  +6.4485016843E-003 +1.2621663954E+000  +1.4082164771E-002 +1.7396724549E+002  +2.8471808979E+000 +6.3744853555E+001 
6015968.711 +7.6414026789E-001 +1.1448737313E+002  +2.9757838753E-002 -1.6294711787E+002  +1.5878541699E-002 -1.7155440244E+002  +2.1976000916E+000 +7.6110745854E+001 
6141113.892 +6.8031481595E-001 +1.1651633787E+002  +3.2325886299E-002 +1.1939734272E+002  +2.3105651577E-002 +6.1667647930E+001  +2.4389594940E+000 +4.7639923838E+001 
6266259.074 +1.0094956017E+000 +9.7456994481E+001  +1.8440593579E-002 -1.6216915150E+002  +2.4964460605E-002 +1.6090035298E+001  +1.9963973419E+000 +2.6922219762E+001 
6391404.255 +9.7627888747E-001 +1.0484287041E+002  +4.4386738859E-003 -1.6457944450E+002  +2.3131124487E-002 +3.9416564048E+001  +1.5530918382E+000 +2.4400388211E+001 
6516549.437 +1.2449646914E+000 +8.7418948625E+001  +2.5296737182E-002 +9.8037718428E+001  +4.9472964095E-002 +1.0570240672E+002  +1.4042619323E+000 +1.1221374319E+001 
6641694.618 +1.4871971645E+000 +7.0116795542E+001  +1.4984583986E-002 +1.4941975431E+002  +2.6978085753E-002 -3.9663890116E+001  +1.2761115030E+000 -4.3277920448E+000 
6766839.800 +1.5406196146E+000 +4.8748597719E+001  +1.5752509625E-002 +8.5270214831E+001  +3.7434770032E-002 +5.6991466663E+001  +1.4069330854E+000 -9.9543282410E+000 
6891984.981 +1.5521913788E+000 +4.3097360922E+001  +6.5249389979E-003 +5.8757126529E+001  +7.6849714816E-003 +1.2149615633E+002  +1.2996181657E+000 -1.5482172582E+001 
7017130.163 +1.7405262154E+000 +2.5898079454E+001  +1.9099583488E-002 +1.2207305405E+002  +2.8313226715E-002 +1.8187887151E+001  +1.4324185908E+000 -1.1990838075E+001 
7142275.344 +1.5525050413E+000 +6.5687448383E+000  +8.2306059479E-003 +9.4998609752E+001  +1.0676437635E-002 -1.0385747374E+002  +1.3341474442E+000 -8.7182457420E+000 
7267420.526 +1.2845693634E+000 -1.8776580167E+000  +1.6310039729E-002 +5.5028005794E+001  +1.2253293450E-002 +2.2856729154E+001  +1.3275771370E+000 -9.2791100225E+000 
7392565.707 +1.2906259982E+000 -7.0980247404E+000  +4.3789126758E-003 +8.8626362458E+001  +1.0652498932E-002 +1.0398678660E+002  +1.2233323834E+000 -6.0435459046E+000 
7517710.889 +1.2237396903E+000 +8.4317502962E-001  +1.2158312490E-002 -7.3487505511E+001  +5.6797723547E-003 -1.5824385472E+002  +1.1562187791E+000 -4.1023197691E+000 
7642856.070 +1.1333649528E+000 +5.2646188349E+000  +3.3717344592E-003 -1.4786826687E+002  +2.7421941062E-003 +1.2575343602E+001  +1.0940091833E+000 +7.4615182888E-001 
7768001.252 +9.8074441082E-001 +9.1158291007E+000  +4.6906892656E-003 +1.5277406789E+002  +1.3722878619E-002 +1.6076719150E+002  +9.7152719548E-001 +2.5908702576E+000 
7893146.433 +8.8984530257E-001 +5.6273887835E+000  +3.8609115644E-003 +5.3495547976E+001  +6.1979561051E-003 +2.9192923006E+001  +9.1509664160E-001 -3.0142685238E+000 
8018291.615 +7.5391927820E-001 +6.1508618148E+000  +7.3359850644E-003 +6.5794079669E+001  +5.2148964690E-004 -8.4919798745E+001  +7.8430112385E-001 -2.4352225202E+000 
8143436.796 +6.7445553134E-001 +8.0363949274E+000  +2.5606377357E-003 +6.2397000471E+001  +4.5118809605E-003 +8.1807568344E+001  +7.8603305633E-001 +1.2432328463E+000 
8268581.977 +6.8596960262E-001 +5.3856102007E+000  +8.5970097403E-003 +1.0289900515E+001  +1.3369635807E-003 +2.5132572471E+001  +7.6919774614E-001 -7.4630436999E-001 
8393727.159 +6.9428445075E-001 +9.3101143548E+000  +9.9729558733E-004 +1.4104926074E+002  +4.7480575308E-003 +4.1491019113E+001  +7.6691472628E-001 -2.9516790847E+000 
8518872.340 +6.5954208064E-001 +8.6193058487E+000  +8.4346291754E-003 +6.6937901065E+001  +5.1697400539E-003 +1.5006224368E+002  +8.0182231673E-001 -9.8335028449E-001 
8644017.522 +7.1405508253E-001 +8.2695571680E+000  +7.5044318230E-003 +1.1962429275E+002  +4.2079691852E-003 +1.4530219823E+002  +7.4747575202E-001 +1.5673949694E+000 
8769162.703 +6.5870213039E-001 +3.9663971437E+000  +3.4253599268E-003 +9.5196471845E+001  +4.7951281293E-003 +7.7842850561E+001  +6.8874834415E-001 +1.8080180838E+000 
8894307.885 +6.2004855317E-001 +9.2445077793E+000  +8.5209144474E-003 +3.3517242719E+001  +1.2732657738E-003 -7.2082325690E+000  +6.0886048413E-001 -4.5901387257E+000 
9019453.066 +5.9226877965E-001 +8.1167658253E+000  +5.1472348910E-003 +4.8633724702E+001  +3.7682985700E-003 +1.2257828663E+002  +6.1961439425E-001 -2.4933456641E+000 
9144598.248 +5.8703163341E-001 +2.5653880009E+000  +6.8568219638E-003 +9.3949811763E+001  +4.2637460990E-003 +6.6109749807E+001  +6.2015505045E-001 +4.1457976802E+000 
9269743.429 +5.5264083910E-001 +8.2468434629E+000  +4.1140533926E-003 +1.0874277352E+002  +6.5606910655E-003 +9.7612926066E+001  +6.2044723515E-001 -3.4325126437E+000 
9394888.611 +5.4845924058E-001 +1.8145742040E-001  +3.0434590443E-003 +6.2369743372E+001  +3.2924904838E-003 +1.1291677707E+002  +6.0114780127E-001 -1.0085653299E+000 
9520033.792 +5.8356335396E-001 +4.4695684707E+000  +5.3742974181E-003 +4.0887593936E+001  +3.7992627189E-003 +1.2768596750E+002  +5.7305632698E-001 -6.6562478455E-001 
9645178.974 +5.7182320641E-001 +3.8060879017E+000  +6.0330329433E-004 +6.4460349862E+001  +2.9762911147E-003 +6.0638848255E+001  +5.8759033012E-001 -7.2181825694E+000 
9770324.155 +5.0033716939E-001 -7.1179899239E-001  +1.2688662035E-003 +1.1296849939E+001  +7.5401550645E-003 +1.0846235706E+002  +5.9388728604E-001 -6.1853295737E+000 
9895469.337 +5.5515986526E-001 +3.3600037397E+000  +3.4339342043E-003 +1.1570716734E+002  +7.6290576233E-003 +8.4757746663E+001  +5.4673942945E-001 -2.2123979562E+000 
10020614.518 +5.4773609960E-001 +2.5349896595E+000  +4.0097776694E-003 +8.7822824774E+001  +6.1890694860E-003 +1.0739922344E+002  +5.7683467482E-001 -5.7184090518E+000 
10145759.700 +5.8011237754E-001 +2.8786964457E+000  +2.1656050641E-003 +6.5352445114E+001  +5.8771896471E-003 +1.2078101074E+002  +5.5289471567E-001 -2.6480610288E-001 
10270904.881 +5.4576394804E-001 +3.6025481218E+000  +4.5953979057E-003 +1.4625072324E+001  +3.1452010797E-003 +6.8178526745E+001  +5.2057418637E-001 -3.9628213751E+000 
10396050.063 +5.7620447326E-001 +7.4950702249E+000  +4.5508558788E-003 +1.2807835804E+002  +2.3192339234E-003 +8.2322347111E+001  +5.8032121576E-001 -3.0877878561E-001 
10521195.244 +5.5040331902E-001 +6.9538632289E+000  +4.1953305491E-003 +7.8263812733E+001  +6.4502631432E-003 +8.6340855470E+001  +5.8567929764E-001 +8.8384227610E-001 
10646340.426 +5.8787837802E-001 +6.9952079325E+000  +2.6779870830E-003 +8.9547977590E+001  +3.3744165002E-003 +9.4529901592E+001  +5.7482871220E-001 -1.1329873509E+000 
10771485.607 +5.7619792100E-001 +8.1342405322E+000  +4.3899745657E-003 +6.1691809862E+001  +6.0524550725E-003 +1.1272424302E+002  +5.7126268596E-001 +1.6159231010E+000 
10896630.788 +5.7645023257E-001 +6.8950991096E+000  +4.7272295998E-003 +5.8914926159E+001  +3.6442872874E-003 +8.6673356216E+001  +6.1210452623E-001 +3.1021986902E+000 
11021775.970 +5.9916659187E-001 +7.6489681003E+000  +3.8015246264E-003 +9.2906813452E+001  +5.1120767132E-003 +8.3674989101E+001  +6.3039010811E-001 +3.6126013660E+000 
11146921.151 +5.9153739059E-001 +9.1968347737E+000  +4.7841209289E-003 +6.8909714469E+001  +3.8020593271E-003 +7.7477181129E+001  +6.2704567885E-001 +4.7202184235E+000 
11272066.333 +6.0896347537E-001 +7.5807447594E+000  +2.0131749253E-003 +5.0160758936E+001  +3.5892771151E-003 +1.0656231925E+002  +6.6330551379E-001 +2.4798635690E+000 
11397211.514 +6.2731102513E-001 +8.9229762012E+000  +4.3645672028E-003 +5.7480688975E+001  +6.1044461458E-003 +1.1362560627E+002  +6.0797900032E-001 -4.8071646522E-001 
11522356.696 +6.2049815678E-001 +5.8332685873E+000  +6.0568732311E-003 +8.4435464493E+001  +4.7888069728E-003 +7.9636402429E+001  +6.2428457429E-001 +1.5604422747E+000 
11647501.877 +6.1878511142E-001 +5.4814933170E+000  +5.5162589811E-003 +8.0497768581E+001  +5.0418887336E-003 +1.3516772046E+002  +6.2761320432E-001 +2.9749256611E+000 
11772647.059 +6.3434353373E-001 +7.7866680975E+000  +4.4073322451E-003 +1.0652526331E+002  +6.9261774284E-003 +9.8493856165E+001  +6.3525387044E-001 +5.0045183574E+000 
11897792.240 +6.6137916386E-001 +7.0075562266E+000  +5.5725961379E-003 +1.0377127416E+002  +4.9485016257E-003 +1.0591567506E+002  +6.5882959237E-001 +1.7449013754E+000 
12022937.422 +6.6218533539E-001 +4.8310478925E+000  +4.7983649128E-003 +7.3204679579E+001  +5.7609684426E-003 +9.1554235546E+001  +7.0745201233E-001 +5.3282270930E-001 
12148082.603 +7.0364682357E-001 +5.0074711815E+000  +7.4206716013E-003 +9.2114798876E+001  +4.9769281795E-003 +1.1244915179E+002  +7.1450049178E-001 +1.2642531083E+000 
12273227.785 +6.8287149211E-001 +3.9673627483E+000  +7.5723032179E-003 +9.5660414060E+001  +6.3937138782E-003 +9.6724502629E+001  +7.0265047845E-001 +2.3933662166E-001 
12398372.966 +7.2386281857E-001 +6.4305265279E+000  +8.3897531923E-003 +6.3579527709E+001  +6.3046342354E-003 +8.3815683682E+001  +7.1517855103E-001 -4.2816664180E-001 
12523518.148 +7.4125613356E-001 +3.6632967164E+000  +6.1772951946E-003 +7.1730121013E+001  +5.2187225448E-003 +1.0492201332E+002  +7.1932751590E-001 -6.4306455354E-001 
12648663.329 +7.3475081070E-001 +3.5318762028E+000  +6.3562683781E-003 +9.6969400259E+001  +5.7431560373E-003 +6.4459666551E+001  +7.7364073712E-001 -1.2357488958E+000 
12773808.511 +7.5842836076E-001 +2.8432971313E+000  +6.9197450143E-003 +8.6034810142E+001  +6.9283105455E-003 +9.4953241236E+001  +7.6655630399E-001 +1.8451437272E-001 
12898953.692 +7.7468084664E-001 +4.6843205729E+000  +4.8453338949E-003 +8.3219351138E+001  +6.5549714461E-003 +7.3969273482E+001  +7.9471075125E-001 -1.0166651668E+000 
13024098.874 +7.8424402111E-001 +1.1791707793E+000  +7.3876692091E-003 +8.4789084297E+001  +5.7326706629E-003 +9.3113201705E+001  +7.9033193969E-001 -1.3620890692E+000 
13149244.055 +7.9356208500E-001 -1.0604967924E+000  +7.8529611383E-003 +8.0346196353E+001  +6.3104554138E-003 +1.1081977269E+002  +8.1253214495E-001 -1.1315315865E+000 
13274389.237 +8.1219176175E-001 -2.1908998786E-001  +8.4011713516E-003 +8.4843809966E+001  +6.2078795441E-003 +9.7613875236E+001  +8.3182899184E-001 -6.7402776986E-001 
13399534.418 +8.2461672918E-001 +3.2603137991E-001  +6.2225321866E-003 +1.0101123224E+002  +8.0766111393E-003 +9.1843430632E+001  +8.5953868609E-001 -2.0198830871E+000 
13524679.599 +8.7173006064E-001 -2.2378951763E+000  +7.6576183411E-003 +9.1894125579E+001  +6.8405396538E-003 +7.3425509826E+001  +8.6345533730E-001 +1.8765881085E-001 
13649824.781 +8.7617978619E-001 -9.6630488910E-001  +7.4905408654E-003 +8.9469684223E+001  +6.5282730858E-003 +9.2116576381E+001  +8.6409932022E-001 -3.1371797220E+000 
13774969.962 +9.0445690066E-001 -2.8826309352E+000  +7.9339438523E-003 +9.0705247122E+001  +6.8433813773E-003 +8.0828194995E+001  +9.2154098933E-001 -3.3768889980E+000 
13900115.144 +9.0487315581E-001 -2.3625624509E+000  +7.4361397618E-003 +9.2711322720E+001  +5.3413900426E-003 +7.2553436230E+001  +9.0867590660E-001 -4.3184652942E+000 
14025260.325 +9.4259720458E-001 -3.2738475877E+000  +6.0370295041E-003 +9.3333211117E+001  +7.0231373078E-003 +9.0033162311E+001  +9.3509534786E-001 -4.2754867098E+000 
14150405.507 +9.4801949870E-001 -4.2566903673E+000  +7.5958101127E-003 +8.8184402696E+001  +5.6980643637E-003 +9.1196502458E+001  +9.5596794999E-001 -3.7468944595E+000 
14275550.688 +9.5054912347E-001 -5.0666931297E+000  +7.4580619504E-003 +7.9337048303E+001  +6.8579002146E-003 +7.7912994606E+001  +9.6256503134E-001 -3.6026413593E+000 
14400695.870 +9.8030267538E-001 -4.5826244785E+000  +8.2754992870E-003 +8.1535040333E+001  +7.3695819825E-003 +1.0093201023E+002  +9.9767279266E-001 -4.9578827118E+000 
