!  2-Port S-parameters saved by WinCal
! VAR MeasName=S-Parameters (CALIBRATED_DATA) read from VNA (P5004A)
! VAR MeasDate=27/08/2024 15:45:37
! VAR NAME=S2_r6c8_SET3_9k-100M_1
! VAR FILENAME=S2_r6c8_SET3_9k-100M_1.S2P
! VAR DATE=27/08/2024 15:45:37
! VAR PHYS_PORTS=1,2
! VAR ObjTypeName=DATASET
! VAR IndexType=Frequency
!
# Hz S MA R 50
9000.000 +7.8508998391E-002 -1.6111730312E+002  +7.4230103707E-003 +1.5229121079E+002  +7.9739484076E-003 -1.6537424280E+002  +2.0278224149E-001 -1.3997445515E+002 
134145.181 +1.1050893224E-001 +1.6930292723E+002  +6.1775900959E-004 -1.0494154941E+002  +4.9098680205E-004 -7.0545185859E+001  +2.4062915999E-001 -1.7018039937E+002 
259290.363 +1.1048832740E-001 +1.6951429817E+002  +1.4254930592E-004 +7.9505450215E+001  +8.3111624982E-004 -5.1883167000E+001  +2.3931874246E-001 -1.6919261651E+002 
384435.544 +1.1439485779E-001 +1.6968970102E+002  +4.6846843598E-004 -8.4688078995E+001  +2.8649499744E-004 -1.3872946031E+002  +2.3581989180E-001 -1.6929764016E+002 
509580.726 +1.1291556250E-001 +1.7073315936E+002  +4.1109102355E-004 +8.0547145854E+001  +1.3676616830E-003 -1.7825144306E+002  +2.3691688702E-001 -1.6540078566E+002 
634725.907 +1.1779714486E-001 +1.7104155978E+002  +6.7332955869E-004 +4.7972844286E+000  +8.2957553631E-004 -3.9562453265E+001  +2.3626504458E-001 -1.6470262073E+002 
759871.089 +1.1586105914E-001 +1.7177430312E+002  +1.3780504155E-003 +8.9793429842E+001  +4.9076215896E-004 +1.4439357659E+002  +2.4398195910E-001 -1.6482566185E+002 
885016.270 +1.1760572660E-001 +1.6946923235E+002  +4.9121342791E-004 +8.2457918645E+001  +6.0407755887E-004 -8.0295727440E+001  +2.4671791950E-001 -1.6645964676E+002 
1010161.452 +1.1649177604E-001 +1.6982885192E+002  +1.2210134641E-003 +2.1622791966E+001  +1.7076340976E-003 +8.8998406153E+001  +2.1723591524E-001 -1.6483412404E+002 
1135306.633 +1.1348373120E-001 +1.6943515151E+002  +1.6915238755E-003 -5.9701290025E+001  +1.8946685642E-003 +3.0139117138E+001  +1.3836801240E-001 -1.2334532359E+002 
1260451.815 +1.1913041942E-001 +1.7215380795E+002  +2.0224750054E-003 +1.3679204411E+002  +1.8922966044E-003 +8.1671629116E+001  +2.3295479628E-001 -1.6002662963E+002 
1385596.996 +1.2337354352E-001 +1.7107977953E+002  +1.3153406682E-003 -1.4725193896E+001  +1.6567553160E-003 +5.5787090512E+000  +2.5813304333E-001 -1.5771025181E+002 
1510742.178 +1.2767857426E-001 +1.7209889561E+002  +7.4220292724E-004 +3.6200471287E+001  +9.4323462833E-004 -8.7175325538E+001  +2.4918920447E-001 -1.6064190087E+002 
1635887.359 +1.2771960544E-001 +1.7059508779E+002  +9.9317396426E-004 -2.6271019785E+000  +1.3958930363E-003 -1.5244146868E+002  +2.4412456967E-001 -1.5663293037E+002 
1761032.541 +1.3179201994E-001 +1.6922457816E+002  +7.5656873950E-004 -2.1832790975E+001  +5.6382836760E-004 -1.5577854763E+002  +2.0175799430E-001 -1.6180702086E+002 
1886177.722 +1.2525497421E-001 +1.6794676278E+002  +3.6988935955E-003 -1.1805658081E+002  +2.5919545450E-003 -1.7656399034E+002  +2.1013666392E-001 -1.6308723667E+002 
2011322.904 +1.3004528909E-001 +1.6427836490E+002  +8.0598081855E-004 -1.4575820715E+002  +1.4691740866E-003 -1.4189024462E+002  +1.8200324059E-001 -1.6974743498E+002 
2136468.085 +1.3200760598E-001 +1.6593324362E+002  +1.2337529398E-003 -5.4839609777E+001  +2.0505594875E-003 -8.3854696873E+001  +1.8875845534E-001 -1.7108318385E+002 
2261613.267 +1.3701359956E-001 +1.6347381055E+002  +3.4642053747E-003 +9.8356116654E+001  +2.5615794596E-003 -1.1882890882E+002  +1.9007651722E-001 +1.4221162147E+002 
2386758.448 +1.3479509419E-001 +1.6093530911E+002  +1.0833826075E-003 +1.6269218953E+002  +5.5233509435E-003 -9.5109755482E+001  +2.4403598341E-001 +1.6736511746E+002 
2511903.630 +1.3321373359E-001 +1.5988682339E+002  +3.4498270013E-003 -2.4086842798E+000  +8.0482238233E-003 +2.8138489509E+001  +3.0880746511E-001 +1.5177264053E+002 
2637048.811 +1.3202993193E-001 +1.5251411371E+002  +7.8144018306E-003 +1.1398989569E+002  +1.0585982625E-002 -6.9341873247E+000  +3.2736948993E-001 +1.4811104687E+002 
2762193.992 +1.0216079824E-001 +1.6656095115E+002  +6.4412659416E-003 -4.9537052733E+000  +7.6787732622E-003 +4.1249239563E+000  +6.6153917129E-001 -1.4927208370E+002 
2887339.174 +1.2433448915E-001 -1.7865604811E+002  +1.2729244891E-002 -8.6237806182E+001  +4.1190226810E-003 +3.6156679617E+000  +3.8006254246E-001 -9.0816134587E+001 
3012484.355 +1.1456058694E-001 +1.7428340967E+002  +5.8497353368E-003 +4.3459875099E+000  +8.6893112559E-003 +5.4847848830E+001  +5.8095977581E-001 -1.2207863490E+002 
3137629.537 +1.1393806997E-001 +1.6830187487E+002  +1.7208240234E-002 +1.2747817337E+002  +8.0537001762E-003 -3.8393006351E+001  +4.7943336324E-001 -1.0725044313E+002 
3262774.718 +1.1641417551E-001 +1.6001377499E+002  +1.3934806941E-002 -1.1731232217E+002  +1.5485712403E-002 -1.3545765849E+002  +3.6312646311E-001 +1.4336019591E+001 
3387919.900 +1.2275768072E-001 +1.5452699147E+002  +9.3910275874E-003 -1.0049414579E+002  +5.8420393634E-003 +5.5418721529E+001  +5.0105659874E-001 -3.4128928096E+001 
3513065.081 +1.4630877062E-001 +1.4300187232E+002  +1.4410584934E-002 +1.0467839646E+002  +1.9672727969E-002 -8.7569109124E+001  +4.4479600412E-001 +6.2879867234E+001 
3638210.263 +1.3042215702E-001 +1.4678995587E+002  +1.6187178115E-002 -8.5924844112E+001  +1.4526683431E-002 +1.3443502198E+002  +7.2012674519E-001 +1.3464604167E+002 
3763355.444 +1.7888522584E-001 +1.3026685481E+002  +7.6295114799E-003 -1.7744246022E+002  +1.2172612983E-002 +2.9273231545E+001  +4.3824967469E-001 +1.6691288530E+002 
3888500.626 +1.5230515566E-001 +1.4258357971E+002  +1.2717156538E-002 +3.6416011079E+001  +1.0620940128E-002 -1.4575229290E+001  +2.2821030584E-001 +5.9980684523E+001 
4013645.807 +1.6929613341E-001 +1.5026223677E+002  +7.4208185024E-003 +1.1641422784E+002  +5.1726493376E-003 +3.0479705967E+001  +6.8467422676E-001 +4.4548442338E+001 
4138790.989 +1.5093746983E-001 +1.4574164676E+002  +1.0185966395E-002 +1.1636883647E+002  +7.5675785264E-003 -1.4383619557E+001  +5.5763842862E-001 +1.2900884102E+002 
4263936.170 +1.7714546161E-001 +1.5082172713E+002  +7.4309930974E-003 +3.5333634797E+001  +6.2489016725E-003 +1.7380045462E+001  +6.0858375732E-001 +1.0823621659E+002 
4389081.352 +2.2970643599E-001 +1.3841142556E+002  +1.6952566834E-002 +1.6476615764E+000  +7.4565470712E-003 +6.6057206052E+001  +8.4349624965E-001 +1.0872175904E+002 
4514226.533 +2.3213541286E-001 +1.3023327808E+002  +1.8822707271E-002 +1.0091891100E+002  +1.2713958472E-002 -1.5197827939E+001  +6.0552870488E-001 +9.8352828922E+001 
4639371.715 +2.3194303067E-001 +1.2868310313E+002  +2.2580264520E-002 +7.5937957845E+001  +3.3714655896E-002 +3.7231692699E+001  +1.1838839193E+000 +1.0416931484E+002 
4764516.896 +3.2116264549E-001 +1.2490934179E+002  +8.4625295223E-002 +9.2564435598E+001  +1.1964259293E-001 -1.0562774586E+001  +3.2899618109E+000 +1.7300443065E+001 
4889662.078 +5.7680083117E-001 +1.3274449386E+002  +6.9701684557E-002 -9.1676329632E+001  +1.0000139386E-001 -1.2838834380E+002  +3.5597965357E+000 -1.4314056005E+002 
5014807.259 +4.0463826960E-001 +1.2682874652E+002  +1.7800648209E-002 +1.0975945425E+002  +1.2822100448E-001 +8.6022094390E+001  +4.4629690176E+000 +6.2276340806E+001 
5139952.441 +4.1024521627E-001 +1.2334673209E+002  +1.1420794096E-001 +1.4564925818E+002  +1.5559813063E-001 +8.9523049733E+001  +3.6993724190E+000 +8.5425686802E+001 
5265097.622 +4.8825278110E-001 +1.3248410852E+002  +2.3552706266E-002 +1.7052877150E+002  +4.2262874536E-002 +1.0149657216E+002  +1.9936913757E+000 +7.7832820491E+001 
5390242.804 +4.1634554005E-001 +1.3349568429E+002  +4.9819913135E-002 +1.0933900518E+002  +2.9861548719E-002 +1.2196617420E+002  +2.0049397198E+000 +5.2444416577E+001 
5515387.985 +4.2756255555E-001 +1.3036021286E+002  +1.0940000982E-002 +1.7325458302E+002  +1.8425611734E-002 +7.2986237577E+001  +1.6883957956E+000 +6.7235429761E+001 
5640533.166 +5.5730263750E-001 +1.1805628729E+002  +6.8644088559E-002 +1.0501725673E+002  +5.1236770177E-002 +9.1847142593E+001  +3.5593622069E+000 +8.1403783261E+001 
5765678.348 +4.2391932184E-001 +1.2134723464E+002  +3.9295968269E-002 +8.1854200558E+001  +1.9230260405E-002 +6.6880146057E+001  +1.9727187716E+000 +5.5465328001E+001 
5890823.529 +5.2999914376E-001 +1.1921690357E+002  +8.0875790865E-002 +6.7697732497E+001  +3.8081105280E-002 +4.5799092923E+001  +3.5812620513E+000 +4.2089645215E+001 
6015968.711 +7.0096238629E-001 +1.0808632977E+002  +4.1140896865E-002 +1.3281162401E+002  +1.5594133922E-002 +2.0363174993E+000  +2.4369126467E+000 +4.9155273908E+001 
6141113.892 +9.1274236694E-001 +1.0428810676E+002  +6.8916657098E-003 +7.4652500496E+001  +4.8847285142E-002 +7.1814798579E+001  +2.0039575266E+000 +5.0864726127E+001 
6266259.074 +9.3984988661E-001 +1.0749909909E+002  +2.0592163426E-002 +9.8385605995E+001  +3.4456564991E-002 +3.3060420824E+001  +1.5522684873E+000 +4.2091548092E+001 
6391404.255 +1.0113996584E+000 +1.0067010181E+002  +1.3292782936E-002 +1.0136823605E+002  +2.1889899810E-002 +4.6224950705E+001  +1.6168915100E+000 +1.2848532211E+001 
6516549.437 +1.3443833734E+000 +9.6347222562E+001  +6.0576561739E-002 +7.7597288019E+001  +2.2785541074E-002 +9.4649579291E+000  +1.5658416556E+000 +3.8826008535E+000 
6641694.618 +1.2681282501E+000 +5.7934683980E+001  +2.7355387943E-002 +5.6260533092E+000  +4.6798995580E-002 +1.6582344670E+001  +1.2406823809E+000 -9.6772193946E+000 
6766839.800 +1.5588019408E+000 +2.8554868667E+001  +3.5202902097E-002 +5.0658714906E+000  +7.9714524208E-002 +1.7439835295E+001  +1.5727525668E+000 +4.2195051990E-001 
6891984.981 +1.7917821039E+000 +3.2963820832E+001  +3.1111557654E-002 +5.2185990636E+001  +2.7172635532E-002 +3.4743452724E+000  +1.1485465288E+000 -1.1353125124E+001 
7017130.163 +1.7851569211E+000 +2.9948403149E+001  +1.2037716354E-002 +1.6134465780E+001  +2.4561868904E-002 +9.0176648518E+000  +1.2714042731E+000 -9.2941198482E+000 
7142275.344 +1.6804445685E+000 +1.2803997824E+000  +2.7081187779E-002 -8.5530120330E+000  +1.4984975386E-002 -3.8967977949E+000  +1.3444904257E+000 -9.3669584377E+000 
7267420.526 +1.2987611278E+000 -2.8959059592E+000  +2.5318730615E-002 +5.5183519449E+001  +2.7282134428E-002 +2.7486271290E+001  +1.3972845070E+000 -1.5158178297E+001 
7392565.707 +1.1303893477E+000 +3.3244277630E+000  +1.9540665345E-002 +7.2683364699E+000  +6.8764712378E-003 -3.9942526913E+001  +1.2958154895E+000 -4.2129571268E+000 
7517710.889 +1.0611644732E+000 -1.1037872741E+000  +1.4479559987E-002 +2.7953330131E+001  +1.8398150552E-002 -9.1414461474E+000  +1.1706708593E+000 -1.0494880153E+001 
7642856.070 +9.2387288693E-001 +5.3970676235E+000  +1.2945518252E-002 +6.6770822074E+000  +2.0998633007E-002 +3.9532327800E+001  +1.1176657050E+000 +1.0896546881E+000 
7768001.252 +9.7729736869E-001 +5.0817692318E+000  +8.6878657674E-003 +4.1720536550E+000  +6.8262784561E-003 +1.1380489664E+001  +9.9596493632E-001 +2.9525730017E-001 
7893146.433 +8.6986234794E-001 +5.6233189064E+000  +8.8724864803E-003 +2.3296275752E+001  +1.2128834359E-002 +3.0491283125E+001  +8.6364267481E-001 -4.3981181665E+000 
8018291.615 +8.7992281695E-001 +1.5848362983E+000  +2.9445618912E-003 -6.8178334476E+001  +1.4202544838E-002 +5.8071161090E+001  +8.3608505410E-001 -9.1956354475E-001 
8143436.796 +8.2424487407E-001 +5.7160413365E+000  +1.3069957321E-002 +2.1922386027E+001  +1.0863961911E-002 +4.0849659597E+001  +8.6365799967E-001 -3.5697424525E+000 
8268581.977 +7.9068380337E-001 +4.8835173757E+000  +7.7196694952E-003 +8.2462443134E+000  +4.7728156440E-003 +3.9558680945E+001  +7.7664733877E-001 +1.3500801911E+000 
8393727.159 +7.2419656184E-001 +1.1790261733E+001  +1.2995413952E-002 +4.5668792224E+001  +4.8774825099E-003 +4.2198517097E+001  +6.5385619088E-001 +1.2805159889E+000 
8518872.340 +7.0178264912E-001 +6.5567282379E+000  +5.2164554228E-003 +1.3604844567E+001  +8.1741864139E-003 -6.1602845594E+000  +7.4091656054E-001 +3.8468736546E-001 
8644017.522 +6.5975513370E-001 +3.0135102332E+000  +7.4812537923E-003 +7.9761139258E+000  +1.5703681251E-002 +2.4430713015E+001  +6.5023330644E-001 -2.1931087633E+000 
8769162.703 +6.1706160953E-001 +4.5548542986E+000  +7.4509207747E-003 +2.2048909015E+001  +1.0027965722E-002 +3.4249930582E+001  +6.9216499014E-001 +4.0902152943E+000 
8894307.885 +5.7672900341E-001 +1.0218115740E+001  +9.5777846687E-003 +9.0766757040E+000  +1.1583578545E-002 +3.7297365050E+001  +6.3138657464E-001 -6.5513147610E+000 
9019453.066 +5.9226831413E-001 +1.0006743574E+000  +5.5201154595E-003 -4.5310815449E-001  +8.9609969735E-003 +3.9314669743E+001  +6.6154167486E-001 -9.4999303928E-001 
9144598.248 +5.1440284746E-001 +7.2922482087E+000  +8.0867135315E-003 +2.4131540745E+001  +1.0656389741E-002 +2.7313755217E+001  +6.2454317754E-001 -7.4501516050E-001 
9269743.429 +5.3352070540E-001 +3.5724081884E+000  +9.9523384235E-003 +2.2665676040E+001  +1.0478739993E-002 +5.6797690262E+001  +5.9397853632E-001 -2.1233185020E+000 
9394888.611 +5.4911891621E-001 +5.0321939853E+000  +5.2868277016E-003 +9.6345805192E+000  +6.8362888883E-003 +3.4197666111E+001  +5.3323480637E-001 -7.5637409408E-001 
9520033.792 +5.7366074018E-001 +3.5153393465E+000  +1.1184900330E-002 +2.5713335262E+001  +8.4309049065E-003 +3.8854130856E+001  +5.8071408211E-001 -8.1000578903E-001 
9645178.974 +5.2515804859E-001 -4.1353695433E+000  +1.0013266619E-002 +2.8766766967E+001  +1.0291856566E-002 +2.4378631401E+001  +5.6976538891E-001 -2.1983068484E+000 
9770324.155 +5.6082795710E-001 +2.6743427909E+000  +9.2981927394E-003 +2.0462646651E+001  +1.0112991164E-002 +1.9816927049E+001  +6.1745747318E-001 -9.1490825380E+000 
9895469.337 +5.4352045060E-001 -1.5046084320E+000  +1.0719302204E-002 +2.6036593087E+001  +1.1084040157E-002 +2.5140091178E+001  +6.0539899749E-001 -2.3910130642E+000 
10020614.518 +5.0936053685E-001 -5.1390983048E-001  +7.3826259024E-003 +2.9832611800E+001  +9.9102115087E-003 +4.5085239383E+001  +5.8704561153E-001 -9.5804499213E+000 
10145759.700 +5.2483922988E-001 -8.2650534527E-001  +7.2245941134E-003 +3.1498370200E+001  +1.1098434418E-002 +2.7432428507E+001  +6.1160779274E-001 -2.5855562830E+000 
10270904.881 +5.5405229069E-001 +3.1984703051E+000  +8.4202074433E-003 +3.7755712042E+001  +1.0410204219E-002 +2.7111052911E+001  +5.9679951555E-001 -4.1465472119E+000 
10396050.063 +5.2514195973E-001 +3.2977167888E+000  +1.0857295444E-002 +1.6331455770E+001  +1.0041550716E-002 +3.7504616474E+001  +6.0675718118E-001 -7.6243932452E-001 
10521195.244 +5.2004968797E-001 +6.8545836344E+000  +9.0093729596E-003 +2.9073352014E+001  +1.0382744641E-002 +2.6135352101E+001  +5.8816036594E-001 +8.5959434251E-001 
10646340.426 +5.2177749621E-001 -9.0282984633E-001  +8.6704334236E-003 +2.0143587235E+000  +9.1929876001E-003 +2.1326454681E+001  +6.0654291923E-001 -2.6715011132E+000 
10771485.607 +5.6853687983E-001 +3.4989051935E+000  +1.0257975898E-002 +3.5038034755E+001  +1.1693200048E-002 +4.6992370715E+001  +5.8345206847E-001 +1.6647071842E+000 
10896630.788 +5.8144623023E-001 +7.0362617395E+000  +9.9348868850E-003 +2.8310186787E+001  +9.8917266501E-003 +4.3687745162E+001  +5.9529311893E-001 +1.6524213515E+000 
11021775.970 +5.7646036706E-001 +8.7676085316E+000  +1.0030009460E-002 +1.5218309485E+001  +9.3916964940E-003 +3.3171730987E+001  +6.1978595386E-001 -1.9271954316E-001 
11146921.151 +5.8339482443E-001 +6.8887214675E+000  +1.0661656147E-002 +1.8584174477E+001  +8.6494901796E-003 +3.4436379114E+001  +6.0144303703E-001 +1.6277408756E+000 
11272066.333 +6.0236522443E-001 +7.0720089370E+000  +1.0049581777E-002 +2.7898832734E+001  +9.7006122777E-003 +4.1642790510E+001  +6.1352596412E-001 +1.7614008549E+000 
11397211.514 +6.3265255387E-001 +8.1338033200E+000  +9.2457971556E-003 +2.4638868078E+001  +9.6510340842E-003 +3.9915235707E+001  +6.5501510393E-001 +2.3618942493E+000 
11522356.696 +5.8688992883E-001 +7.7023999974E+000  +9.9505844785E-003 +2.9609929542E+001  +1.0351455256E-002 +4.1668838754E+001  +6.3494016898E-001 +3.6192247637E+000 
11647501.877 +6.4072355585E-001 +6.3234382363E+000  +9.3181336629E-003 +2.3876150891E+001  +1.0073872334E-002 +4.9488650933E+001  +6.4891624876E-001 +9.5808915761E-001 
11772647.059 +6.2677802083E-001 +8.5511438827E+000  +1.1468138958E-002 +3.5558100952E+001  +8.6392546851E-003 +4.5806430442E+001  +6.5325076118E-001 +3.0490642249E+000 
11897792.240 +6.4371702621E-001 +5.6195144229E+000  +1.0412055921E-002 +3.1760095742E+001  +9.8918257425E-003 +4.1937249581E+001  +6.5369764995E-001 +5.3531547082E-001 
12022937.422 +6.6224764299E-001 +4.3162485374E+000  +9.7152613239E-003 +3.2137611751E+001  +8.5430362367E-003 +4.3217099996E+001  +6.9357779952E-001 -2.1712890244E-001 
12148082.603 +6.9392118394E-001 +2.1625556602E+000  +1.1947581927E-002 +3.2358506562E+001  +1.2076937048E-002 +4.1775780585E+001  +7.0692104726E-001 -1.2399290608E+000 
12273227.785 +7.1353145588E-001 +2.3457478166E+000  +1.1024906009E-002 +2.9225274587E+001  +9.3480536346E-003 +3.5190611803E+001  +6.7465444838E-001 +2.6537328348E-001 
12398372.966 +7.0321317510E-001 +4.7131606180E+000  +1.0616235078E-002 +2.5500233019E+001  +1.0212761152E-002 +3.7534083364E+001  +7.2606953176E-001 +6.3006236638E-002 
12523518.148 +7.1010073830E-001 +8.3247275800E-001  +1.0175640624E-002 +3.9294424235E+001  +1.0153674776E-002 +5.1760967459E+001  +7.1833231134E-001 -1.0018581925E+000 
12648663.329 +7.1171745652E-001 +1.9130854044E+000  +1.2922927274E-002 +3.3749463399E+001  +1.1583575576E-002 +4.2741435992E+001  +7.5780140661E-001 +1.6336952924E+000 
12773808.511 +7.3743895365E-001 +7.1843475636E-001  +1.2126937223E-002 +3.6098279523E+001  +9.7439510764E-003 +3.8486004302E+001  +7.6375875721E-001 -1.2149330149E+000 
12898953.692 +7.6181237231E-001 +2.4695565624E-001  +1.0011952458E-002 +3.1195065591E+001  +1.0525471825E-002 +3.8491660834E+001  +7.7906227015E-001 -9.7488984367E-001 
13024098.874 +7.7738426590E-001 -5.2270763271E-001  +1.3112817015E-002 +3.4203841080E+001  +1.2110064583E-002 +3.8275096742E+001  +7.8122000381E-001 -1.0253612258E+000 
13149244.055 +7.9228667488E-001 +5.9622160362E-001  +1.1249306934E-002 +2.8776114929E+001  +1.2464005076E-002 +3.3654755726E+001  +8.1549615928E-001 -4.1576353495E-001 
13274389.237 +7.8359713467E-001 -7.8165709564E-001  +1.3589516603E-002 +3.3741997705E+001  +1.2210005709E-002 +3.7935089203E+001  +8.1553871314E-001 -1.1075288490E+000 
13399534.418 +8.1855102391E-001 +1.7050400719E+000  +1.2432978557E-002 +3.7841264449E+001  +1.2373915446E-002 +3.8675765315E+001  +8.5200909892E-001 -2.8453536414E+000 
13524679.599 +8.4549486835E-001 -1.5178196248E+000  +1.4122920355E-002 +2.8069056003E+001  +1.2519297446E-002 +4.3116836900E+001  +8.4939174171E-001 -2.5883539888E+000 
13649824.781 +8.7746311492E-001 -2.0654340792E+000  +1.3180665649E-002 +3.4755992143E+001  +1.2905362141E-002 +3.1162958466E+001  +8.7015144620E-001 -3.6944287273E+000 
13774969.962 +8.7790847385E-001 -3.3256436607E+000  +1.2467704852E-002 +3.9211648481E+001  +1.2756459377E-002 +4.4556328398E+001  +9.0290935580E-001 -2.3258428950E+000 
13900115.144 +8.9247623845E-001 -2.3534509508E+000  +1.3447647039E-002 +3.9683148821E+001  +1.2368674922E-002 +3.9045639302E+001  +9.0656272673E-001 -3.0967261692E+000 
14025260.325 +9.0239234110E-001 -4.1654120776E+000  +1.1607293851E-002 +3.4866593446E+001  +1.2072977225E-002 +3.3589680311E+001  +9.1516072798E-001 -3.2367531689E+000 
14150405.507 +9.2955508714E-001 -3.5447895723E+000  +1.2892899231E-002 +3.7461972850E+001  +1.3492633223E-002 +3.4959850485E+001  +9.5670739404E-001 -3.9761050226E+000 
14275550.688 +9.6926742227E-001 -5.6649324058E+000  +1.3458406542E-002 +3.3468373820E+001  +1.3318589152E-002 +3.6856193031E+001  +9.6471120395E-001 -5.6569532746E+000 
14400695.870 +9.5351284856E-001 -5.2732861663E+000  +1.3016921076E-002 +3.2939890802E+001  +1.2958554558E-002 +3.1125356131E+001  +9.7942365837E-001 -5.9085403026E+000 
