!  2-Port S-parameters saved by WinCal
! VAR MeasName=S-Parameters (CALIBRATED_DATA) read from VNA (P5004A)
! VAR MeasDate=27/08/2024 17:20:48
! VAR NAME=S2_r3c9_SET3_9k-100M_1
! VAR FILENAME=S2_r3c9_SET3_9k-100M_1.S2P
! VAR DATE=27/08/2024 17:20:48
! VAR PHYS_PORTS=1,2
! VAR ObjTypeName=DATASET
! VAR IndexType=Frequency
!
# Hz S MA R 50
9000.000 +6.7608800277E-002 -1.5717030025E+002  +1.1479679546E-002 +1.1291936371E+002  +2.7046236481E-002 +1.4919845319E+002  +1.5308778237E-001 -1.2841696363E+002 
134145.181 +1.1165498562E-001 +1.6968413752E+002  +2.2046894679E-004 +6.5243633954E+001  +6.9423784045E-004 +2.9415685997E+001  +2.3691036818E-001 -1.7011799966E+002 
259290.363 +1.1296307261E-001 +1.6950904981E+002  +4.0573643163E-004 +8.3307553988E+001  +1.2030949541E-004 +7.8290711893E+000  +2.3692279469E-001 -1.6924226313E+002 
384435.544 +1.1338646891E-001 +1.6978023599E+002  +5.4424272882E-004 -6.1495895826E+001  +2.1343639099E-004 +1.5513447443E+001  +2.4067235931E-001 -1.6901137085E+002 
509580.726 +1.1398361392E-001 +1.7166386826E+002  +1.3021649316E-003 +3.4238552936E+000  +9.7902871288E-004 +8.2010601267E+001  +2.3331798007E-001 -1.6679642921E+002 
634725.907 +1.1437795963E-001 +1.7028377730E+002  +1.6212129655E-003 -1.1527571936E+002  +8.5788397372E-004 -1.7316450965E+002  +2.4418060665E-001 -1.6499995359E+002 
759871.089 +1.1752750460E-001 +1.7219533008E+002  +3.3951302867E-004 +1.2350155545E+002  +1.1288625616E-003 +1.7000944541E+002  +2.4759443953E-001 -1.6425726836E+002 
885016.270 +1.1612507427E-001 +1.6842218629E+002  +5.7519854781E-004 -1.0289743044E+002  +3.5330464096E-004 +1.1113944731E+002  +2.3843211318E-001 -1.6708156066E+002 
1010161.452 +1.1671117021E-001 +1.7073340444E+002  +2.2625653816E-004 -1.0139148753E+002  +1.6116752487E-004 +2.8778294643E+001  +1.8231901449E-001 -1.7238916828E+002 
1135306.633 +1.1548607589E-001 +1.7089922368E+002  +3.1671166877E-003 -6.6451353147E+001  +3.1360167645E-003 +1.1654700207E+000  +1.7545888003E-001 -1.7908999251E+002 
1260451.815 +1.1912546940E-001 +1.7151052266E+002  +1.4024923121E-003 +1.5406742122E+002  +1.4388327515E-003 +1.0674924943E+002  +2.3819242673E-001 -1.5817517191E+002 
1385596.996 +1.2537712516E-001 +1.7236913178E+002  +4.8995521840E-004 -6.4753534841E+001  +6.8236805941E-004 -1.5357380047E+002  +2.6571302114E-001 -1.6076092584E+002 
1510742.178 +1.2811107721E-001 +1.7201281181E+002  +2.7171214022E-004 +7.0790574952E+001  +1.3462583661E-003 -1.2929594888E+002  +2.3625979156E-001 -1.5587768041E+002 
1635887.359 +1.2896576071E-001 +1.7113604236E+002  +1.9660534709E-003 +7.3063103910E+001  +8.2640489370E-004 +1.6962434070E+002  +2.4103997908E-001 -1.5472555432E+002 
1761032.541 +1.3022253620E-001 +1.6887423503E+002  +9.9413320887E-004 -6.4189080359E+001  +1.3818451301E-003 -1.0750872018E+002  +2.0286265063E-001 -1.5662123294E+002 
1886177.722 +1.2836768949E-001 +1.6822553845E+002  +1.6599856839E-003 -1.3324071796E+002  +3.3832657764E-003 -9.3176219246E+001  +1.7423684143E-001 -1.7136191810E+002 
2011322.904 +1.3093273103E-001 +1.6665638005E+002  +1.6340142763E-003 +8.3358068469E+001  +1.5547462911E-003 +5.8999882406E+001  +2.1967774089E-001 -1.6958137319E+002 
2136468.085 +1.2977562042E-001 +1.6757312541E+002  +2.8192024646E-003 +1.0898447803E+002  +1.5458542738E-003 +1.4716341807E+002  +1.8482960159E-001 -1.7442311586E+002 
2261613.267 +1.2627799618E-001 +1.6197179621E+002  +5.5953590208E-003 +1.5236706459E+002  +2.3421816030E-003 -4.5356509753E+001  +1.7532461760E-001 +1.7984524402E+002 
2386758.448 +1.3680817996E-001 +1.6161451573E+002  +1.2970930136E-003 +6.6604211374E+001  +2.0608453379E-003 -1.4138280948E+001  +2.3487656394E-001 +1.7740784873E+002 
2511903.630 +1.4222632183E-001 +1.6283479518E+002  +7.6825090001E-003 +1.0689548681E+002  +4.3002166343E-003 -1.2759303910E+002  +1.7987275805E-001 +1.0766281399E+002 
2637048.811 +1.2228544891E-001 +1.6513291851E+002  +7.5007294576E-003 +8.8941662246E+001  +6.3171655850E-003 -4.1102321652E+000  +1.7561894651E-001 +1.6369693911E+002 
2762193.992 +1.1297550361E-001 +1.5806694973E+002  +2.3279765867E-002 -1.4080204704E+002  +1.4431581281E-002 +1.4012239990E+002  +7.2051693162E-001 -1.3767058387E+002 
2887339.174 +1.2690407355E-001 -1.7605254880E+002  +2.9906232399E-003 +3.4421681101E+001  +1.7065876964E-002 +1.2737351214E+002  +3.7115604886E-001 +6.2260471018E+001 
3012484.355 +1.2449301982E-001 +1.7503249140E+002  +4.4117006151E-003 -6.6420706183E+001  +1.5108347428E-002 -1.6174109937E+002  +4.9357718044E-001 -1.2370981408E+002 
3137629.537 +1.0303138496E-001 +1.6514821712E+002  +3.5954367568E-003 +6.3373818371E+001  +1.3390187369E-002 -1.0223223986E+002  +2.0261049403E-001 -7.3605555529E+001 
3262774.718 +1.2332528484E-001 +1.7230952602E+002  +6.6264242354E-003 -1.0807278195E+001  +8.4755963403E-003 -8.3970785345E+001  +2.0798522728E-001 -1.0398353828E+002 
3387919.900 +1.2518776637E-001 +1.5335358317E+002  +1.2883230851E-002 -1.5393760709E+001  +1.4430132429E-002 -9.2712466511E+001  +5.8565296911E-002 +4.8520781120E+001 
3513065.081 +1.5897483761E-001 +1.3801620873E+002  +1.6006002802E-002 +1.4007711303E+002  +1.3574996658E-002 +4.9853214537E+001  +3.7768479974E-001 +1.2049746498E+002 
3638210.263 +1.7647687532E-001 +1.4378516631E+002  +2.0020842870E-002 +1.6518792720E+002  +1.6807046467E-002 +6.3938009812E+001  +6.7804065470E-001 +1.4207408006E+002 
3763355.444 +1.4314143075E-001 +1.4930795118E+002  +2.0011677568E-002 +1.1052277471E+002  +3.7449452263E-002 +2.0776343882E+001  +9.8371315598E-001 +9.7894683440E+001 
3888500.626 +2.0450100938E-001 +1.4820300125E+002  +1.2824408333E-002 +8.0634739695E+001  +9.1560996133E-003 +1.1168715110E+001  +5.0978903782E-001 +1.4852147447E+002 
4013645.807 +1.8288093246E-001 +1.3748769200E+002  +1.4030445650E-002 +4.3888581943E+001  +9.5790716631E-003 +3.5599427028E+001  +3.0104642701E-001 +1.3771907141E+002 
4138790.989 +1.8626979346E-001 +1.4788648567E+002  +1.3390879709E-002 +5.9322135989E+001  +7.6198932354E-003 -2.8694711880E+000  +2.9352834150E-001 +1.1781156535E+002 
4263936.170 +1.9411589739E-001 +1.4566123126E+002  +1.8915218183E-002 +3.1605092095E+001  +1.2396991198E-002 +1.8277710445E+001  +5.5566349985E-001 +1.0208468797E+002 
4389081.352 +2.1790376682E-001 +1.3962169848E+002  +1.4165947640E-002 +1.1554093594E+002  +4.6071755511E-003 -1.2315890905E+002  +4.1514703860E-001 +1.2649620785E+002 
4514226.533 +2.4856207579E-001 +1.2950770250E+002  +2.3872873633E-002 +9.3435463781E+001  +2.5673263851E-002 +7.2537588481E+001  +8.4560975888E-001 +1.3929616139E+002 
4639371.715 +3.5014099465E-001 +1.2525374952E+002  +5.2405142904E-002 -1.5724263377E+002  +5.4274499053E-002 +1.3669394043E+002  +1.7779375163E+000 +1.2195421368E+002 
4764516.896 +3.3573394960E-001 +1.3510587494E+002  +6.7173869254E-002 +8.2198626067E+001  +5.5240701464E-002 +5.7290013020E+001  +3.1607113194E+000 +9.5761026625E+001 
4889662.078 +4.6220517310E-001 +1.3155617013E+002  +6.3797929216E-002 -8.4009217041E+001  +2.1949277181E-002 -1.0856996339E+002  +2.5626947976E+000 -1.3174615423E+002 
5014807.259 +3.6163674690E-001 +1.3256103725E+002  +2.4498139613E-001 -1.5471586003E+002  +2.6952461126E-001 +1.7275929110E+002  +1.2068597753E+001 -1.7831270600E+002 
5139952.441 +4.8953107873E-001 +1.1735302122E+002  +1.1569017393E-001 +6.0567976036E+001  +1.1778438956E-001 +3.9754396667E+001  +2.1797608738E+000 +2.4425132579E+001 
5265097.622 +3.6635201426E-001 +1.3927900806E+002  +7.4427341576E-002 +7.9365977509E+001  +4.6103846475E-002 +7.2912292958E+001  +3.3724919284E+000 +6.9245012499E+001 
5390242.804 +4.0990016168E-001 +1.2109425987E+002  +3.1114635020E-002 +7.3657766177E+001  +1.4934887921E-002 +8.6160596949E+001  +1.4654921522E+000 +5.0855509090E+001 
5515387.985 +4.1494127403E-001 +1.2717076782E+002  +8.6245643328E-002 +1.1816723284E+002  +5.9639130681E-002 +9.5766300279E+001  +3.2087905126E+000 +8.8538059922E+001 
5640533.166 +4.5822768282E-001 +1.2119223547E+002  +5.8721284690E-002 +9.0502754284E+001  +5.6981016231E-002 +5.4119282615E+001  +3.1170185827E+000 +8.3072003883E+001 
5765678.348 +6.1221560464E-001 +1.2883990393E+002  +6.3111478896E-002 +1.3230111871E+002  +5.6169236826E-002 +1.0212414950E+002  +2.4122023104E+000 +9.6757312045E+001 
5890823.529 +5.6682289313E-001 +1.2653277718E+002  +1.5268131400E-002 +5.3773571351E+001  +3.1077642354E-002 +5.9562151327E+001  +1.9806564647E+000 +5.1065314986E+001 
6015968.711 +7.2087551847E-001 +1.2096949454E+002  +4.4469394084E-002 +8.7565273705E+001  +7.5113901103E-002 +5.7529526259E+001  +2.0996387012E+000 +5.7873916746E+001 
6141113.892 +7.2470290741E-001 +1.1295715593E+002  +4.7163221553E-002 +6.5202094753E+001  +3.9875383083E-002 +4.0924416496E+001  +2.2427172625E+000 +4.0114188961E+001 
6266259.074 +1.0883374148E+000 +9.3401080713E+001  +7.4638126264E-002 +4.3350002710E+001  +5.1160150048E-002 +1.0739776160E+002  +2.1646485435E+000 +2.8536488885E+001 
6391404.255 +9.5072723483E-001 +8.6750543253E+001  +2.2874884913E-002 +2.8956400345E+001  +1.1165906521E-001 +1.6256995728E+001  +2.1897885325E+000 +9.9726423944E+000 
6516549.437 +1.1606593121E+000 +8.9541317137E+001  +4.9285465923E-002 +3.7378246057E+001  +8.8464776825E-002 +2.9789307765E+001  +1.7212173094E+000 -1.0553613061E+000 
6641694.618 +1.4293838899E+000 +6.0334662093E+001  +7.2547733322E-002 +1.7481107050E+001  +5.5019230949E-002 +1.6104367854E+001  +1.4891093570E+000 -7.6125824441E+000 
6766839.800 +1.7175318105E+000 +6.7142377831E+001  +7.2943352009E-002 +2.6423139541E+001  +6.3829815977E-002 +3.8067107809E+001  +1.5381971715E+000 -7.7392064624E-001 
6891984.981 +1.7231117988E+000 +2.9126712855E+001  +5.3238237583E-002 -1.7246271267E+001  +7.9470948517E-002 +1.7133642099E+001  +1.5025647731E+000 -9.4036917183E+000 
7017130.163 +2.2909432030E+000 +7.6200427222E+000  +3.7635924065E-002 +1.1356700519E+001  +3.4703306876E-002 -6.8092663222E+000  +1.2789229507E+000 -9.7696323182E+000 
7142275.344 +1.7584118723E+000 -4.0631000160E+000  +4.8827218541E-002 -1.2186169658E+001  +4.5995741832E-002 -1.5122435453E+001  +1.2705020837E+000 -1.7837407419E+001 
7267420.526 +1.6867076094E+000 +1.8058183328E+000  +2.9393864717E-002 +3.8375371705E+000  +2.7296748365E-002 -1.1019298890E+001  +1.4351095690E+000 -8.7711809777E+000 
7392565.707 +1.1574716627E+000 -8.4392914478E+000  +1.6964421487E-002 +2.5614178667E+001  +3.1866357109E-002 +9.6270872675E+000  +1.3043744370E+000 -6.6842219462E+000 
7517710.889 +1.2860728266E+000 +2.7501969696E+000  +3.1377119090E-002 +2.4923117893E+001  +2.6534642663E-002 -3.1932514835E+000  +1.2530288022E+000 -3.6011324117E+000 
7642856.070 +9.9457778172E-001 -8.9840975060E-001  +2.6433086599E-002 +1.5705297145E+001  +2.7309874142E-002 +1.1105020136E+001  +1.1669224742E+000 -3.3357493022E+000 
7768001.252 +1.0168893134E+000 +1.6417922943E+000  +3.0215903624E-002 +9.3096693529E+000  +2.4552947894E-002 +9.7528463586E+000  +9.9367672888E-001 -4.3040827310E+000 
7893146.433 +8.5343947644E-001 +6.1117454533E+000  +1.9431136972E-002 +1.9283992135E+001  +2.5723638100E-002 +2.6489536756E+001  +9.8699604705E-001 -3.6092666128E+000 
8018291.615 +7.3640626662E-001 +1.7502406739E+000  +2.0052630557E-002 +3.8068501813E+000  +1.6662584719E-002 +1.3396445309E+001  +7.4227075291E-001 -9.6301646744E+000 
8143436.796 +6.9971562873E-001 +6.0398093007E-001  +2.0980342539E-002 +1.6993769555E+001  +1.9551804473E-002 +2.0752583307E+001  +7.7188937902E-001 +1.5896035550E-001 
8268581.977 +8.9504925918E-001 +3.1410565782E+000  +1.9609228248E-002 +1.7411909977E+001  +2.3917690193E-002 +2.1036308570E+001  +7.8863244683E-001 +1.7317283997E+000 
8393727.159 +7.0340175636E-001 +2.1226004952E+000  +1.8618857034E-002 +7.1502503307E+000  +2.2381814777E-002 +1.8062023803E+001  +7.6157098784E-001 -2.7904303362E+000 
8518872.340 +6.8313026780E-001 +1.0026719893E+001  +1.7290768455E-002 +1.5604383853E+001  +1.7086850314E-002 +1.5821690606E+001  +6.9937691950E-001 +3.9091718657E+000 
8644017.522 +6.3264857315E-001 +6.7802806462E+000  +2.0723243620E-002 +2.8186122585E+000  +2.1487919754E-002 +1.5375519398E+001  +6.6410366082E-001 +4.8101089149E+000 
8769162.703 +6.3244630297E-001 +8.9481803306E+000  +2.2493257666E-002 +6.9000860853E-002  +2.0216126010E-002 +2.5395722153E+001  +6.9350682427E-001 +5.3897449775E-001 
8894307.885 +5.1960842131E-001 +1.0028726414E+001  +1.6253890752E-002 -5.0440686397E-001  +1.9843778539E-002 +5.2215388872E+000  +6.2820976071E-001 +4.0868018688E+000 
9019453.066 +5.9529260770E-001 +3.5095005026E+000  +1.6476673122E-002 +8.4903337463E+000  +2.1685796799E-002 +1.0911712875E+001  +6.0223384236E-001 -2.6191917935E+000 
9144598.248 +5.5365060222E-001 +5.1147810522E+000  +1.9054154843E-002 +1.4397344838E+001  +1.8345424502E-002 +1.9892240967E+001  +5.6940556274E-001 -3.5154660394E+000 
9269743.429 +5.1851729770E-001 +9.6495383448E-001  +1.6485581351E-002 +9.1162095356E+000  +2.0548611903E-002 +1.8238456855E+001  +5.8702311499E-001 +1.0284643573E+000 
9394888.611 +4.9382892807E-001 +7.8218177042E+000  +1.6683069721E-002 +1.1331169288E+001  +1.9565461219E-002 +3.0728391015E+001  +5.8000361702E-001 -1.4666647687E+000 
9520033.792 +5.4049140601E-001 -7.8037143087E-001  +1.7718282481E-002 +8.5697911160E+000  +1.8863076054E-002 +2.1077448969E+001  +5.8652499405E-001 -3.2658947382E+000 
9645178.974 +5.4168163085E-001 +3.6652573393E+000  +1.9491104916E-002 +9.9736193437E+000  +1.8844415505E-002 +2.3159761199E+001  +5.8413785916E-001 -8.3352945287E-001 
9770324.155 +5.1349965552E-001 -6.0522660985E-001  +1.8665279369E-002 +1.5787834945E+001  +2.0587643661E-002 +2.3011745817E+001  +5.6630134669E-001 -3.3813089326E+000 
9895469.337 +4.9573892858E-001 -3.7441595730E-001  +2.0393856216E-002 +4.2931256872E+000  +1.8042212854E-002 +1.6632715046E+001  +5.8643304169E-001 -3.5636794815E+000 
10020614.518 +5.3568651186E-001 +2.6084873145E+000  +2.0465366735E-002 +1.3388667806E+001  +2.0931973367E-002 +2.0673496378E+001  +5.8560709282E-001 -3.5420040722E+000 
10145759.700 +5.4438249374E-001 +5.6052989712E+000  +2.2068554252E-002 +7.4402944397E+000  +1.5295600887E-002 +1.1781038429E+001  +5.7544743099E-001 -2.9004692835E+000 
10270904.881 +5.4325109149E-001 +3.3590793202E+000  +1.9570115002E-002 +1.0336158459E+001  +2.0240293769E-002 +2.8092772078E+001  +5.8314115049E-001 -3.2477238388E+000 
10396050.063 +5.4180592079E-001 +5.1862929773E+000  +1.9723399360E-002 +6.8064283758E+000  +2.0210643220E-002 +1.1282353537E+001  +5.9726294383E-001 +5.3719103527E-001 
10521195.244 +5.2153134465E-001 +7.5646347248E+000  +2.0291698938E-002 +6.0103217672E+000  +1.6948325001E-002 +1.9794443107E+001  +5.8195017656E-001 +2.7531820280E+000 
10646340.426 +5.2313456421E-001 +9.9553582461E+000  +2.1694234041E-002 +7.9706217895E+000  +1.7316946788E-002 +1.8104393419E+001  +5.8542220447E-001 -2.3184337011E+000 
10771485.607 +5.5111514683E-001 +6.3246732851E+000  +1.9013180685E-002 +5.2725832943E+000  +1.9536960467E-002 +2.9465273701E+001  +6.0001057213E-001 -7.2007326919E-001 
10896630.788 +5.6876200300E-001 +8.4730113834E+000  +1.8406375323E-002 +1.2677526168E+001  +2.0133119020E-002 +2.0466233085E+001  +5.7280866375E-001 -1.2947650145E+000 
11021775.970 +5.5656094844E-001 +5.0672820933E+000  +1.9162377265E-002 +1.3253210589E+001  +1.9566441624E-002 +2.6176544340E+001  +6.0343606946E-001 -6.6078802777E-001 
11146921.151 +5.8211841643E-001 +6.7379451354E+000  +2.0334397089E-002 +1.9297972361E+001  +1.8493483999E-002 +2.7023271478E+001  +6.1664861232E-001 +6.8295909267E-001 
11272066.333 +5.5128037465E-001 +4.8564918589E+000  +1.8582126669E-002 +9.6416810451E+000  +2.0643266507E-002 +2.4925988486E+001  +5.9803471848E-001 +1.6379571212E+000 
11397211.514 +5.8223013435E-001 +1.0881864138E+001  +2.0708725617E-002 +1.0400041681E+001  +2.0864268502E-002 +2.2779918899E+001  +6.2834644606E-001 +7.2590300680E-001 
11522356.696 +6.0616562665E-001 +7.4998206064E+000  +2.0581160854E-002 +1.4865710132E+001  +2.0586903770E-002 +2.3523681765E+001  +6.4238041809E-001 +3.0806919604E+000 
11647501.877 +6.0021884095E-001 +6.7069007301E+000  +2.2223901319E-002 +1.2645931251E+001  +2.0138008841E-002 +2.0787075874E+001  +6.2592663051E-001 +2.8098559798E-001 
11772647.059 +6.2861305827E-001 +7.0850746135E+000  +2.1785918650E-002 +1.7898776266E+001  +2.2164243177E-002 +2.2255362890E+001  +6.2165996404E-001 -3.1487303822E-001 
11897792.240 +6.3515602234E-001 +2.8637525772E+000  +2.0102264433E-002 +1.7837648711E+001  +2.0641235307E-002 +2.9307855046E+001  +6.5424214751E-001 +9.5002019219E-001 
12022937.422 +6.7078701212E-001 +3.8915780398E+000  +2.0672262659E-002 +1.2318417940E+001  +2.2756676557E-002 +2.4773315177E+001  +6.6567626393E-001 +8.6389470339E-001 
12148082.603 +6.4166089457E-001 +6.4694453009E+000  +2.4218189424E-002 +1.5859856201E+001  +2.2023126731E-002 +2.2524540606E+001  +6.7281164632E-001 +1.5720018087E+000 
12273227.785 +6.6033950718E-001 +3.6247352089E+000  +2.3946799318E-002 +1.6476690015E+001  +2.2789096631E-002 +2.4401420029E+001  +6.9256205917E-001 -2.9295894432E+000 
12398372.966 +6.8021950514E-001 +4.8222925400E+000  +2.1254207893E-002 +1.6427334503E+001  +2.0469200922E-002 +2.2658134424E+001  +7.0481747382E-001 +1.2137130020E+000 
12523518.148 +7.3677790772E-001 +3.6510414888E+000  +2.2639656216E-002 +1.7928329286E+001  +2.2349005834E-002 +2.3541423232E+001  +7.0239550264E-001 -9.2179787976E-001 
12648663.329 +7.0658009210E-001 +3.0546109501E+000  +2.2152844475E-002 +1.5386508738E+001  +2.0932678312E-002 +2.3356681817E+001  +7.0420582040E-001 -2.6720030271E+000 
12773808.511 +7.2755008670E-001 +3.0572757367E+000  +2.1957789997E-002 +1.8336558004E+001  +2.3351245190E-002 +2.7543852737E+001  +7.4641420945E-001 -5.2285587937E-001 
12898953.692 +7.4773324968E-001 +1.5220699131E+000  +2.2063295540E-002 +1.6137060937E+001  +2.3796183851E-002 +2.5070794734E+001  +7.8107940970E-001 -3.9976588342E-001 
13024098.874 +7.5596666798E-001 +1.7640856817E+000  +2.2914108393E-002 +1.8976442255E+001  +2.2741412366E-002 +2.7115506630E+001  +7.8234535389E-001 -1.6336533007E+000 
13149244.055 +8.0825285846E-001 -5.3889592300E-001  +2.2966328695E-002 +2.1060569443E+001  +2.3594263349E-002 +2.6627510391E+001  +8.0962367379E-001 -6.1294229262E-001 
13274389.237 +7.8761758412E-001 +2.8574881174E-001  +2.4099533537E-002 +1.6460120791E+001  +2.4349571134E-002 +2.1461517379E+001  +8.3441524890E-001 -2.6955688501E+000 
13399534.418 +8.2377161375E-001 -6.2767077799E-001  +2.4413318042E-002 +1.3119572140E+001  +2.4897031675E-002 +2.2987927822E+001  +7.9870185830E-001 -1.9267005025E+000 
13524679.599 +8.4814931478E-001 -2.2458692054E+000  +2.5385715776E-002 +1.6800161632E+001  +2.4305043674E-002 +2.4504194916E+001  +8.5015619302E-001 -2.4464390087E+000 
13649824.781 +8.4466960633E-001 -3.0068130169E+000  +2.4945068171E-002 +1.8219250909E+001  +2.4416033653E-002 +2.1803271860E+001  +8.5117108278E-001 -4.8430641973E+000 
13774969.962 +8.7545265066E-001 -2.6110952695E+000  +2.4883999701E-002 +2.0533858985E+001  +2.5131080328E-002 +2.1588658757E+001  +8.7810145337E-001 -2.8191735299E+000 
13900115.144 +8.8365864090E-001 -2.6246110813E+000  +2.5393288134E-002 +1.8971139983E+001  +2.4580041649E-002 +2.0817927289E+001  +8.6567131192E-001 -2.9537040887E+000 
14025260.325 +8.8879394143E-001 -3.4450636446E+000  +2.4900021946E-002 +1.5662562789E+001  +2.4727041324E-002 +1.9504044919E+001  +8.9505580918E-001 -3.7881385904E+000 
14150405.507 +9.0738697512E-001 -4.5138674071E+000  +2.4724026785E-002 +1.8776986439E+001  +2.4817107698E-002 +2.1091422486E+001  +9.2205785887E-001 -3.1734938327E+000 
14275550.688 +9.3755043518E-001 -4.7003549324E+000  +2.5534641768E-002 +1.9191010866E+001  +2.5486411270E-002 +2.0483875377E+001  +9.5040489963E-001 -5.2042172937E+000 
14400695.870 +9.6928400090E-001 -6.4101588236E+000  +2.5231994631E-002 +1.9263565020E+001  +2.4853252958E-002 +1.9872640816E+001  +9.6612868523E-001 -3.4064366978E+000 
