!  2-Port S-parameters saved by WinCal
! VAR MeasName=S-Parameters (CALIBRATED_DATA) read from VNA (P5004A)
! VAR MeasDate=28/08/2024 15:58:42
! VAR NAME=S2_r8c9_RESET1_9k-100M_3
! VAR FILENAME=S2_r8c9_RESET1_9k-100M_3.S2P
! VAR DATE=28/08/2024 15:58:42
! VAR PHYS_PORTS=1,2
! VAR ObjTypeName=DATASET
! VAR IndexType=Frequency
!
# Hz S MA R 50
9000.000 +9.3573912684E-002 -1.7370141692E+002  +8.9189052941E-003 -5.1164874068E+001  +4.4885405413E-003 -1.5445253032E+001  +2.8116560339E-001 -1.4977088218E+002 
134145.181 +1.1094666871E-001 +1.7024293795E+002  +6.4192494203E-004 -1.1968899166E+002  +2.8552999510E-004 -9.4442293634E+001  +2.3954375613E-001 -1.7100348302E+002 
259290.363 +1.1184519649E-001 +1.6949080125E+002  +3.9804015436E-004 -3.8451924119E+001  +5.5782519280E-004 +7.1942151647E+001  +2.4565740131E-001 -1.6933522317E+002 
384435.544 +1.1364653605E-001 +1.7020518755E+002  +7.8988910641E-004 -8.3669732751E+001  +6.7033173869E-004 +1.0650779233E+002  +2.4590476131E-001 -1.6924892384E+002 
509580.726 +1.1352470662E-001 +1.6999827862E+002  +1.4666317320E-003 -4.5079643935E+001  +7.5406768950E-004 +2.7068943179E+001  +2.4195946123E-001 -1.6405840793E+002 
634725.907 +1.1715127193E-001 +1.7098099484E+002  +1.0613751463E-003 -4.9336218137E+001  +1.7022285796E-003 +1.4405710747E+002  +2.2442048204E-001 -1.6711643828E+002 
759871.089 +1.1808335678E-001 +1.7131878504E+002  +4.7994328956E-004 -1.6026594667E+002  +1.4881171467E-003 +1.1402775896E+002  +2.4822925713E-001 -1.6571199949E+002 
885016.270 +1.2009665773E-001 +1.6941992686E+002  +3.9282117119E-004 -7.8904335741E+001  +9.6360297436E-004 +1.2391597557E+002  +2.4231191088E-001 -1.6726099318E+002 
1010161.452 +1.2059731422E-001 +1.6994595607E+002  +1.3095918909E-003 +7.0793686490E-001  +1.5562783679E-003 +1.5865936387E+002  +2.1405653246E-001 -1.6655382014E+002 
1135306.633 +1.1678614275E-001 +1.6923903619E+002  +2.9752612115E-003 -6.6003703556E+000  +1.9791285527E-003 -1.2782908057E+002  +1.9435469613E-001 -1.7504075930E+002 
1260451.815 +1.1556120830E-001 +1.7380536718E+002  +2.3017887043E-003 -4.0457659338E+001  +2.2883000863E-003 -1.5050775243E+002  +2.3734698343E-001 -1.6224802240E+002 
1385596.996 +1.2504669711E-001 +1.7248877375E+002  +6.1010107105E-004 -1.7774335896E+002  +9.0032095204E-004 +2.3106292151E+001  +2.6897255892E-001 -1.6041520015E+002 
1510742.178 +1.2546851182E-001 +1.7286201322E+002  +1.7451737056E-003 -1.0084804037E+002  +1.3439186437E-003 -1.7451435414E+002  +2.5856953747E-001 -1.5745068751E+002 
1635887.359 +1.2645491307E-001 +1.7103520870E+002  +4.5360659937E-004 -3.2879255360E+001  +3.0183395104E-003 +1.7583099649E+002  +2.6075636586E-001 -1.5308520003E+002 
1761032.541 +1.2930128047E-001 +1.7128894153E+002  +1.0262754454E-003 +5.7015606948E+001  +3.1129276766E-003 -1.3405626717E+002  +2.2875211908E-001 -1.6086811831E+002 
1886177.722 +1.3108771833E-001 +1.6795431640E+002  +4.1042110182E-003 +9.5206040626E+001  +5.4457099086E-003 -6.6115367480E+001  +1.6628789380E-001 -1.5571981904E+002 
2011322.904 +1.2924035671E-001 +1.6664848879E+002  +5.6750518135E-003 +8.7517351494E+001  +2.7274943771E-003 -4.3325149961E+001  +2.0763105624E-001 -1.6575569130E+002 
2136468.085 +1.2399613776E-001 +1.6964193713E+002  +7.1948863746E-003 +5.2811926325E+001  +9.3400432745E-003 -5.2324664328E+001  +1.9041838374E-001 -1.6523116264E+002 
2261613.267 +1.3128619600E-001 +1.6481751017E+002  +1.0140869353E-002 +7.9770812525E+001  +1.4029641677E-002 -6.7402985222E+001  +1.4596198635E-001 -1.6335374126E+002 
2386758.448 +1.4133359422E-001 +1.6589303522E+002  +1.0298585115E-002 +7.4037326638E+001  +9.6451965326E-003 -2.4631174938E+001  +1.7004548859E-001 -1.7719674037E+002 
2511903.630 +1.3116228870E-001 +1.6268840542E+002  +1.5463383498E-002 +1.0032238075E+002  +1.5292384541E-002 -3.5275238961E+001  +2.1499602248E-001 +1.7368985149E+002 
2637048.811 +1.2803287030E-001 +1.6863674280E+002  +1.8929084664E-002 +5.0666687272E+001  +1.8311668315E-002 -4.8573075174E+001  +2.0370848305E-001 -1.7607932042E+002 
2762193.992 +1.2085688023E-001 +1.7893088047E+002  +5.5893173618E-002 +2.0324302661E+001  +6.1259181442E-002 -1.0019903049E+002  +2.6531521144E-002 +3.7607951472E+001 
2887339.174 +1.0358733924E-001 -1.7846313822E+002  +6.5215067199E-002 -2.6694681738E+001  +9.3707300761E-002 -1.4083564095E+002  +2.9125452673E-001 -9.1109180957E+001 
3012484.355 +1.2425580813E-001 +1.7397971941E+002  +3.2534182414E-002 +9.4456172899E+000  +3.9416866289E-002 -9.6305526577E+001  +8.6149599607E-002 -1.3062372762E+002 
3137629.537 +9.7217488459E-002 +1.7464438904E+002  +7.7555566730E-002 -1.7713819207E+001  +1.1189795400E-001 -1.0926752906E+002  +3.6040529255E-001 -6.0695976111E+001 
3262774.718 +1.2830614129E-001 +1.6792957671E+002  +3.0038993872E-002 -1.6717705177E+001  +3.5500322259E-002 -9.5676282641E+001  +2.1830398683E-001 -1.1431393658E+002 
3387919.900 +1.4670015374E-001 -1.7927017625E+002  +2.9965223497E-001 -4.2306727368E+001  +2.6632265489E-001 -1.3373310403E+002  +1.6744703906E+000 -4.3495564316E+001 
3513065.081 +1.5448213425E-001 +1.5648051579E+002  +4.9423603162E-002 +5.7429502417E+001  +5.1611535370E-002 -2.7915546750E+001  +1.3267895432E-001 +6.0094780716E+001 
3638210.263 +1.7670677997E-001 +1.5253861586E+002  +4.0319617555E-002 +1.2159540959E+002  +4.7244227908E-002 +3.5538431180E+001  +3.6821716933E-001 +1.4244487674E+002 
3763355.444 +1.5856723099E-001 +1.4633565295E+002  +4.2119396998E-002 +1.1416351453E+002  +4.3717031291E-002 +3.1034287552E+001  +4.1840214188E-001 +1.5409060099E+002 
3888500.626 +1.3828147097E-001 +1.5115708587E+002  +6.4792687406E-002 +5.2694268011E+001  +5.8546206174E-002 -2.8208733197E+001  +1.4197241673E-001 +9.5036723556E+001 
4013645.807 +1.5880080404E-001 +1.5518871598E+002  +3.9243876275E-002 +5.7160151318E+001  +4.9111976750E-002 -1.6632370202E+001  +1.7345442082E-001 +1.4634862062E+002 
4138790.989 +1.5154249876E-001 +1.2787890330E+002  +1.0056919078E-001 +7.9760741303E+001  +1.1427925675E-001 +1.3749390288E+001  +3.9692056803E-001 +1.0738453675E+002 
4263936.170 +2.0934629555E-001 +1.4721954516E+002  +4.8534656031E-002 +8.1124349314E+001  +5.0149818187E-002 +1.5182324178E+001  +2.3009006604E-001 +1.3001635577E+002 
4389081.352 +1.9799645227E-001 +1.3018044148E+002  +1.2487745154E-001 +8.7462021283E+001  +1.1173445134E-001 +2.7722903623E+001  +5.5710830968E-001 +9.9796868599E+001 
4514226.533 +1.7487637237E-001 +1.3866051023E+002  +9.2358724926E-002 +8.8011315309E+001  +8.6340130424E-002 +3.3075778813E+001  +5.7259610727E-001 +1.2311180200E+002 
4639371.715 +2.8581367489E-001 +1.3098427986E+002  +1.4747362305E-001 +8.6026459670E+001  +1.5307678836E-001 +3.3757868089E+001  +6.7898879929E-001 +7.0563460158E+001 
4764516.896 +3.1955058013E-001 +1.2802396456E+002  +4.3442776927E-001 +1.4269029986E+002  +3.8872177803E-001 +8.1492732192E+001  +2.6208875346E+000 +1.1716953330E+002 
4889662.078 +2.6365602943E-001 +1.6298257582E+002  +1.3114395332E+000 -9.7183600168E+001  +1.3427177349E+000 -1.5271925690E+002  +8.2252891663E+000 -1.5038716725E+002 
5014807.259 +6.7960494937E-001 +1.3988867139E+002  +2.2360680648E+000 +1.6422431138E+002  +2.2244383552E+000 +1.1208829310E+002  +1.4326986271E+001 +1.2493436456E+002 
5139952.441 +3.1152061791E-001 +1.2850664969E+002  +2.8273719241E-001 +6.4539446324E+001  +3.2566160220E-001 +2.3936464993E+001  +2.0093987080E+000 +4.3726518119E+001 
5265097.622 +4.0934750586E-001 +1.2884253045E+002  +2.8356430655E-001 +1.5427483639E+002  +2.4083054198E-001 +1.1754371135E+002  +2.1767070237E+000 +1.4076076333E+002 
5390242.804 +3.4519972570E-001 +1.2666770605E+002  +2.1916606933E-001 +1.1169435002E+002  +2.5134365030E-001 +7.3648217861E+001  +1.8472306182E+000 +1.1018263773E+002 
5515387.985 +3.7931800535E-001 +1.3330244343E+002  +2.0439317482E-001 +1.1061935948E+002  +1.9351548723E-001 +8.1011998052E+001  +1.8390101364E+000 +1.0921075009E+002 
5640533.166 +4.5910432314E-001 +1.3163707838E+002  +1.6139974579E-001 +1.1870918816E+002  +1.5019918047E-001 +8.7144851351E+001  +1.3628788177E+000 +1.1317216570E+002 
5765678.348 +4.6824293412E-001 +1.1353807629E+002  +2.9073568632E-001 +8.9085788175E+001  +2.8966420096E-001 +6.5393281697E+001  +1.8729258786E+000 +9.2471781999E+001 
5890823.529 +4.5656787602E-001 +1.3110892868E+002  +1.8173135306E-001 +6.9893025496E+001  +1.7985776845E-001 +4.1472242269E+001  +1.3100650480E+000 +6.0644141334E+001 
6015968.711 +6.1083637293E-001 +1.1592199945E+002  +2.4605056554E-001 +8.3501830103E+001  +2.5789978789E-001 +5.8254343621E+001  +1.3717156772E+000 +7.3828543452E+001 
6141113.892 +6.4055146666E-001 +1.0958917149E+002  +3.0142011827E-001 +6.1905530168E+001  +3.0366977436E-001 +4.3601941682E+001  +1.7009230325E+000 +4.1328761205E+001 
6266259.074 +7.4649451465E-001 +1.0291346442E+002  +3.0354669863E-001 +6.3157494061E+001  +2.9419623436E-001 +4.1685568420E+001  +1.3535419973E+000 +5.2250025558E+001 
6391404.255 +7.1548838835E-001 +9.2845478778E+001  +2.7900141139E-001 +3.4685400182E+001  +2.5638605988E-001 +1.8641321484E+001  +1.1123296507E+000 +2.0415709153E+001 
6516549.437 +1.0144252855E+000 +8.0157413671E+001  +3.4070973718E-001 +3.4952173657E+001  +3.3932317751E-001 +1.9742188722E+001  +1.2613342863E+000 +1.5517630574E+001 
6641694.618 +1.1405282948E+000 +6.9082318185E+001  +3.3170217384E-001 +3.0647344675E+001  +3.2899998449E-001 +1.8760583965E+001  +1.0739972866E+000 +1.5301443191E+001 
6766839.800 +1.1721409635E+000 +4.3788932532E+001  +3.1977872403E-001 +1.4128102685E+001  +3.4041513241E-001 +7.5368747612E+000  +9.9898797901E-001 +1.0495410289E+001 
6891984.981 +1.1751471775E+000 +3.0850202338E+001  +3.1774241019E-001 +9.3895627562E+000  +3.0159087143E-001 -2.4785776210E+000  +1.0437495812E+000 -4.3433525923E+000 
7017130.163 +1.2523040321E+000 +1.7410580105E+001  +2.7583554660E-001 +3.8142764719E-001  +2.9240069736E-001 -5.3215701695E+000  +1.2003462915E+000 -6.0073544472E+000 
7142275.344 +1.1309158941E+000 +1.5646519762E+001  +2.4548122105E-001 -7.9549645036E-002  +2.5290263636E-001 -3.4776105982E+000  +1.0839285733E+000 -1.7837254131E+001 
7267420.526 +1.2272268509E+000 -4.6554215483E+000  +2.2157432431E-001 -6.2589266859E-001  +2.1478709082E-001 -4.7603771289E+000  +1.1255043005E+000 -9.5527303932E+000 
7392565.707 +1.0592823004E+000 +4.5986653901E+000  +1.8577867934E-001 +3.9648081583E+000  +1.8304032097E-001 +6.7390982819E+000  +1.0465392887E+000 -4.4018658660E+000 
7517710.889 +1.0806350477E+000 +5.2094605690E+000  +1.7680395854E-001 +3.5603073477E+000  +1.7012849592E-001 +3.6121276251E+000  +9.5941842891E-001 -7.9387016883E+000 
7642856.070 +8.3264759889E-001 +8.0554068657E-001  +1.5917550079E-001 +2.7706492544E+000  +1.6445195027E-001 +5.6081486903E+000  +9.2323042876E-001 -2.8901964914E+000 
7768001.252 +8.1735607222E-001 +1.7707449310E+000  +1.5092325897E-001 +4.9071283024E-001  +1.5850934475E-001 +6.3854406399E+000  +7.8897842476E-001 -2.6927200612E+000 
7893146.433 +7.4717827857E-001 +5.4865397806E+000  +1.4999464824E-001 +2.1184166435E+000  +1.3637759564E-001 +6.8751330667E+000  +6.9227916405E-001 -1.5634959441E+000 
8018291.615 +6.3459079497E-001 +7.9983838562E+000  +1.3792742220E-001 -8.2159444374E-001  +1.4445260606E-001 +5.2514887643E+000  +6.6094728304E-001 +6.8072344520E+000 
8143436.796 +6.3241557586E-001 +8.3732431451E+000  +1.3938987895E-001 -8.9468606053E-001  +1.3713138413E-001 +8.6184831391E+000  +7.1829682371E-001 -1.8032532075E+000 
8268581.977 +6.2768715776E-001 +9.7970874174E+000  +1.3320822453E-001 -1.2890347722E-001  +1.3923516399E-001 +7.8041693729E+000  +6.0328563729E-001 -9.5040875924E-001 
8393727.159 +5.8009699881E-001 +1.2211717535E+001  +1.3169351837E-001 -1.0787608818E+000  +1.3008892389E-001 +8.7288992633E+000  +6.3307866434E-001 +1.1370630622E+000 
8518872.340 +5.2169654787E-001 +1.2703898157E+001  +1.2986149879E-001 -1.9997749579E+000  +1.2689929932E-001 +9.1577546889E+000  +5.4608557659E-001 +5.1206220356E+000 
8644017.522 +5.2701828882E-001 +9.6606991238E+000  +1.3014370041E-001 -2.6940449035E+000  +1.2753787289E-001 +1.0284266014E+001  +5.6645003596E-001 +6.0556147144E+000 
8769162.703 +4.8989063791E-001 +1.4394028568E+001  +1.2613484483E-001 -2.3070545699E+000  +1.2467845972E-001 +1.1087773973E+001  +5.4925830111E-001 +3.7166817064E+000 
8894307.885 +4.9116764123E-001 +1.2101659186E+001  +1.2232819669E-001 -3.4198919626E+000  +1.2819363218E-001 +9.5904478003E+000  +4.7573181607E-001 +6.2725019934E+000 
9019453.066 +4.8101973478E-001 +7.1486532184E+000  +1.2352340766E-001 -3.0027816905E+000  +1.2687147645E-001 +1.2259946306E+001  +5.5799807813E-001 +3.1213274811E+000 
9144598.248 +4.3106974841E-001 +1.1391537741E+001  +1.2734880591E-001 -2.8346000408E+000  +1.2665482178E-001 +9.3072032223E+000  +4.5019421618E-001 -4.6532720888E+000 
9269743.429 +4.0811190382E-001 +9.1122207632E+000  +1.2816533078E-001 -3.1352283381E+000  +1.2408346452E-001 +1.0301786893E+001  +4.6273012257E-001 -6.0275733411E+000 
9394888.611 +4.2412201654E-001 +1.1228421309E+001  +1.2793099899E-001 -3.2383268930E+000  +1.2774151586E-001 +1.1931460722E+001  +4.5731464975E-001 -1.3568021078E+000 
9520033.792 +4.5162024712E-001 -7.0950890049E-001  +1.2431770561E-001 -3.6554473863E+000  +1.2831531470E-001 +1.1829737148E+001  +4.6427847672E-001 -6.9241469422E-001 
9645178.974 +4.1395731929E-001 +2.4901856364E+000  +1.2844495748E-001 -3.7542193983E+000  +1.2857491404E-001 +1.2683311370E+001  +4.5537783712E-001 -3.7107012488E+000 
9770324.155 +3.6908235102E-001 +4.6466155643E+000  +1.2546539382E-001 -4.0659621861E+000  +1.2848458322E-001 +1.1548962472E+001  +4.7275804504E-001 -6.8364969939E+000 
9895469.337 +4.1995971272E-001 +2.5360593217E+000  +1.2862396938E-001 -2.9154671602E+000  +1.2319613246E-001 +1.2505489859E+001  +4.1232898233E-001 -8.6321237452E+000 
10020614.518 +4.0998102166E-001 +6.5625912229E+000  +1.2690906005E-001 -4.1731839790E+000  +1.2808431406E-001 +1.2289354280E+001  +4.8006975006E-001 -2.8313153743E+000 
10145759.700 +4.1971725796E-001 +6.9828154927E+000  +1.3011606931E-001 -2.8757889981E+000  +1.2930224835E-001 +1.2399561220E+001  +4.2144882596E-001 -1.6801831355E+000 
10270904.881 +3.9619865756E-001 +2.2960256629E+000  +1.2923712251E-001 -2.9095840052E+000  +1.2922767612E-001 +1.2693603901E+001  +4.7264476036E-001 +3.2718132403E+000 
10396050.063 +4.4877137235E-001 +8.8804492157E+000  +1.3262467686E-001 -1.1623444981E+000  +1.2866042232E-001 +1.3619991757E+001  +4.4969030702E-001 +2.7055592362E+000 
10521195.244 +4.4204468442E-001 +6.8995227024E+000  +1.3109145293E-001 -2.7074933952E+000  +1.3102078479E-001 +1.3533601698E+001  +4.2649410877E-001 -7.8043807467E-001 
10646340.426 +4.4555761789E-001 +7.0131805452E+000  +1.3194475216E-001 -1.1415570834E+000  +1.3011542664E-001 +1.3990036085E+001  +4.8041703391E-001 +1.1051632652E+000 
10771485.607 +4.4085008386E-001 +1.1399373330E+001  +1.3055436474E-001 +4.1885218973E-001  +1.3111587432E-001 +1.3733256065E+001  +4.9113036806E-001 +3.4336947061E+000 
10896630.788 +4.7243200673E-001 +1.3063700093E+001  +1.3116938265E-001 +1.2293119031E-001  +1.3105509454E-001 +1.3930778218E+001  +4.6931209118E-001 +4.7035020411E+000 
11021775.970 +4.5462924127E-001 +1.0966325472E+001  +1.3306618413E-001 -5.2189429097E-001  +1.3007553170E-001 +1.3356762000E+001  +4.5907705365E-001 +8.0288771410E+000 
11146921.151 +4.6613646231E-001 +1.1897201028E+001  +1.3341804939E-001 +1.2623783980E-001  +1.3307825916E-001 +1.4081787758E+001  +4.7750586208E-001 +8.0828930005E+000 
11272066.333 +4.8472522856E-001 +1.2025142405E+001  +1.3434020354E-001 +1.9428219624E+000  +1.3583384877E-001 +1.4087144519E+001  +4.6365252883E-001 +8.0457759521E+000 
11397211.514 +4.4915287837E-001 +8.5043977114E+000  +1.3623072621E-001 +3.4032828803E-001  +1.3537275697E-001 +1.2433622424E+001  +4.9915912947E-001 +4.1808171436E+000 
11522356.696 +5.1863129706E-001 +6.7049549071E+000  +1.3968740729E-001 +2.3418468092E+000  +1.3573802751E-001 +1.2857299527E+001  +4.9999024091E-001 +8.1287575054E+000 
11647501.877 +5.0555049859E-001 +9.8139661108E+000  +1.3997856211E-001 +1.6519727548E+000  +1.3876971772E-001 +1.2847346795E+001  +5.1761257371E-001 +4.8857782685E+000 
11772647.059 +5.2109112195E-001 +6.9842445989E+000  +1.4307153294E-001 +1.9067136931E+000  +1.4011548967E-001 +1.3505635312E+001  +5.0638281844E-001 +6.4971026300E+000 
11897792.240 +5.1656942520E-001 +7.0429590780E+000  +1.4349049194E-001 +2.0071286822E+000  +1.4186552715E-001 +1.2056603427E+001  +5.2832436201E-001 +2.6474827194E+000 
12022937.422 +5.1734658023E-001 +6.2768951483E+000  +1.4440477428E-001 +1.8649914916E+000  +1.4313517603E-001 +1.2404815347E+001  +5.4689214117E-001 +4.9889317238E+000 
12148082.603 +5.5902094445E-001 +7.2973364062E+000  +1.4801377354E-001 +2.9455357261E+000  +1.4447008745E-001 +1.1647806625E+001  +5.4762119088E-001 +1.0839161058E+000 
12273227.785 +5.3690816301E-001 +3.9508804709E+000  +1.5010060147E-001 +2.9226033136E+000  +1.4675168983E-001 +1.1599141371E+001  +5.6635360635E-001 +2.2579879675E-001 
12398372.966 +5.8407764296E-001 +3.9349664813E+000  +1.4999307009E-001 +3.0482954816E+000  +1.4981756297E-001 +1.1726437123E+001  +5.6665214398E-001 +9.3373906174E-001 
12523518.148 +5.8025947825E-001 +3.9907332421E+000  +1.5126746014E-001 +3.6309652925E+000  +1.5181280470E-001 +1.0659617620E+001  +5.9345350786E-001 +4.4082488017E-001 
12648663.329 +5.9108367901E-001 +2.0535106518E+000  +1.5327720167E-001 +3.2855872635E+000  +1.5216807396E-001 +9.9643949228E+000  +5.9615905999E-001 +2.9135970536E-001 
12773808.511 +6.0281343720E-001 +4.3682181614E+000  +1.5385604635E-001 +4.2357013568E+000  +1.5152933851E-001 +9.9585250639E+000  +6.1968171804E-001 +1.5766544095E+000 
12898953.692 +5.8967152891E-001 +3.5787176409E+000  +1.5437772422E-001 +3.0950297328E+000  +1.5361538789E-001 +9.1502438888E+000  +6.2923400685E-001 +1.5349025966E+000 
13024098.874 +6.2686926142E-001 +2.6672674640E+000  +1.5787328416E-001 +4.2302000689E+000  +1.5577966702E-001 +9.2225790381E+000  +6.5132003728E-001 -1.3628144481E+000 
13149244.055 +6.4217341924E-001 +1.1358889735E+000  +1.5810394050E-001 +4.3366194176E+000  +1.5767490454E-001 +8.7820977985E+000  +6.7144247277E-001 -2.4069140933E-001 
13274389.237 +6.5430973009E-001 -1.5869952134E+000  +1.6009609073E-001 +4.0863195015E+000  +1.5724228780E-001 +7.7106854297E+000  +6.5254823134E-001 +1.2841548908E+000 
13399534.418 +6.7094206997E-001 +1.4497088228E+000  +1.6127665492E-001 +3.7807155144E+000  +1.5926333631E-001 +7.9148422201E+000  +6.8212658477E-001 -8.1228338424E-001 
13524679.599 +6.9710716914E-001 -8.8067519413E-001  +1.6479863713E-001 +4.2117912892E+000  +1.6093883716E-001 +7.2906039919E+000  +6.8240820462E-001 -2.0245824186E+000 
13649824.781 +6.9606192017E-001 -2.7613952264E+000  +1.6485678121E-001 +3.8205106288E+000  +1.6355451711E-001 +6.0871828361E+000  +7.1703871934E-001 -1.1282929220E+000 
13774969.962 +7.0284514330E-001 -1.6543033540E+000  +1.6576215765E-001 +4.0135130677E+000  +1.6471620906E-001 +6.4362960018E+000  +7.1741546445E-001 -2.2893902219E+000 
13900115.144 +7.6519186621E-001 -1.4923133023E+000  +1.6782437846E-001 +4.1514912527E+000  +1.6575983175E-001 +5.7627373716E+000  +7.4844338719E-001 -2.8807801759E+000 
14025260.325 +7.5289810405E-001 -4.4026513202E+000  +1.6981675658E-001 +4.1136366652E+000  +1.6583737487E-001 +4.9270516026E+000  +7.5374472225E-001 -2.6007099728E+000 
14150405.507 +7.5324237936E-001 -4.7349902915E+000  +1.6933872008E-001 +3.3522545077E+000  +1.6706298411E-001 +4.1268349143E+000  +7.7773157028E-001 -3.3589949336E+000 
14275550.688 +7.9067015200E-001 -4.5598072772E+000  +1.7113353786E-001 +3.3925458768E+000  +1.6711124999E-001 +4.4262138196E+000  +7.9974800850E-001 -4.1305063466E+000 
14400695.870 +8.0231607131E-001 -5.8059420318E+000  +1.7073356340E-001 +3.7223421485E+000  +1.6875994232E-001 +3.6207396852E+000  +8.2311113028E-001 -3.8119119171E+000 
