!  2-Port S-parameters saved by WinCal
! VAR MeasName=S-Parameters (CALIBRATED_DATA) read from VNA (P5004A)
! VAR MeasDate=27/08/2024 16:24:47
! VAR NAME=S2_r1c9_SET3_9k-100M_2
! VAR FILENAME=S2_r1c9_SET3_9k-100M_2.S2P
! VAR DATE=27/08/2024 16:24:47
! VAR PHYS_PORTS=1,2
! VAR ObjTypeName=DATASET
! VAR IndexType=Frequency
!
# Hz S MA R 50
9000.000 +8.6096756509E-002 -1.3971002923E+002  +2.7707145175E-002 -1.4792123405E+002  +2.8905607647E-002 -1.3155715381E+002  +3.8537308251E-001 -1.3882718852E+002 
134145.181 +1.1129789262E-001 +1.6965290184E+002  +4.8887621116E-004 +5.8852459268E+001  +5.2854970850E-004 +4.7609008912E+001  +2.4068573807E-001 -1.7026266366E+002 
259290.363 +1.1190600742E-001 +1.6969136216E+002  +3.5678087439E-004 -4.0925421972E+001  +3.4264403883E-004 +6.0026044526E+001  +2.3821029240E-001 -1.6862100481E+002 
384435.544 +1.1365800258E-001 +1.6951078768E+002  +3.8470376857E-004 +3.2817823832E+001  +6.0297696362E-004 +1.1132937233E+002  +2.3939024357E-001 -1.6813967779E+002 
509580.726 +1.1449688696E-001 +1.7096832209E+002  +9.2181988703E-004 +7.2751825291E+001  +8.0952885918E-004 +3.9889889764E+001  +2.4886775562E-001 -1.6871327399E+002 
634725.907 +1.1698448027E-001 +1.7016170163E+002  +2.1216398413E-004 +7.1113721434E+001  +5.9725796246E-004 +1.1851307639E+002  +2.4456463307E-001 -1.6334325069E+002 
759871.089 +1.1764536464E-001 +1.7058289229E+002  +6.2106758457E-004 -2.2404334309E+001  +8.7552516924E-005 +6.2448172211E+001  +2.4916717692E-001 -1.6493280261E+002 
885016.270 +1.1855126344E-001 +1.6961715444E+002  +2.3947610552E-004 -6.4069362300E+001  +4.9725036806E-004 +1.2097212625E+002  +2.4391952805E-001 -1.6614107870E+002 
1010161.452 +1.1852967806E-001 +1.7159332262E+002  +9.8809378516E-004 -1.2276874420E+002  +1.3324362821E-003 -4.0708460950E+001  +2.0234488016E-001 -1.6847995606E+002 
1135306.633 +1.1461379209E-001 +1.6919596655E+002  +5.6613053761E-003 +1.0595607602E+002  +9.2807774175E-003 -1.6785183880E+002  +2.9839740453E-001 -1.1828173580E+002 
1260451.815 +1.2100692441E-001 +1.7109171872E+002  +1.3364610304E-003 -1.4662136944E+002  +4.9651500952E-004 -9.0843753325E+001  +2.2001181545E-001 -1.5445587871E+002 
1385596.996 +1.2604219527E-001 +1.7283248084E+002  +1.4505026645E-003 -7.3772853394E+001  +6.6609303753E-004 -7.2717563225E+001  +2.5983098047E-001 -1.5838250117E+002 
1510742.178 +1.2834455102E-001 +1.7134363791E+002  +3.4834197422E-004 +1.5735394406E+002  +6.8674889213E-004 +1.7873024032E+002  +2.6553319997E-001 -1.5928766138E+002 
1635887.359 +1.2706942346E-001 +1.6970482736E+002  +9.4666360887E-004 -7.6274105090E+001  +1.0534859364E-003 +2.5159910639E+001  +2.3606884655E-001 -1.6030542713E+002 
1761032.541 +1.3250532852E-001 +1.7018517230E+002  +6.3265530220E-004 +5.6498681297E+001  +7.3450488531E-004 +1.7708819540E+002  +2.1051296950E-001 -1.6119422354E+002 
1886177.722 +1.2984118136E-001 +1.6976768251E+002  +1.9014696128E-003 +4.3261159322E+001  +2.0161215319E-003 -2.7335663557E+001  +1.9595464858E-001 -1.6537309498E+002 
2011322.904 +1.2897834378E-001 +1.6481267297E+002  +2.5063968710E-003 +1.0087607930E+002  +2.6385979213E-003 +5.5719719205E+000  +1.9814179845E-001 -1.7565952979E+002 
2136468.085 +1.3075237684E-001 +1.6408091713E+002  +4.8342152334E-003 +8.9430308291E+001  +3.8819577569E-003 +1.1945293986E+002  +1.7943971718E-001 +1.7525371480E+002 
2261613.267 +1.3492090317E-001 +1.6776572314E+002  +2.1730516846E-003 +9.1687957390E+001  +1.6001469387E-003 -6.6766764914E+001  +1.6573021005E-001 -1.7323027307E+002 
2386758.448 +1.2746286835E-001 +1.6573526055E+002  +3.8968174472E-003 -2.4616476428E+001  +1.2665932412E-003 -1.4416069226E+002  +2.0030604188E-001 -1.6982568116E+002 
2511903.630 +1.3506619928E-001 +1.6329255728E+002  +4.9089899236E-003 +1.1651629553E+002  +2.9582143851E-003 -7.5527925356E+001  +2.5716409699E-001 +1.4022565081E+002 
2637048.811 +1.2672129948E-001 +1.6651019532E+002  +4.4873710886E-003 +7.8937655694E+001  +2.2583481904E-003 -1.6668759712E+002  +1.5918411074E-001 -1.5053633194E+002 
2762193.992 +1.1071584516E-001 +1.7591939772E+002  +8.8940225262E-002 -1.7441099191E+002  +4.7485930099E-002 +6.8582954961E+001  +1.9375770164E+000 +1.6531539907E+002 
2887339.174 +1.2111512987E-001 +1.7191531959E+002  +1.1857385656E-002 -7.3889194509E+001  +7.7946371309E-003 +1.5912858349E+002  +4.1579639954E-001 -1.1699358159E+002 
3012484.355 +1.0049847501E-001 -1.7656646012E+002  +6.4982430284E-003 -8.1795301388E+001  +9.3673386723E-003 +1.7128383479E+002  +2.2145830766E-001 -1.2596745024E+002 
3137629.537 +6.6759193668E-002 +1.6741830300E+002  +2.1076019596E-002 +1.7099299458E+001  +5.4572123547E-003 +8.5875107804E+001  +2.3856219049E-001 -6.9317320932E+001 
3262774.718 +1.3939689285E-001 +1.6203771174E+002  +6.4727945025E-003 -2.9667491921E+001  +1.8616428653E-002 -1.0619999064E+002  +5.7903471924E-001 +1.3834225858E+001 
3387919.900 +7.0270321912E-002 -1.7225741617E+002  +2.2894697248E-004 +1.0144868996E+002  +2.0179695967E-003 +1.4923032269E+002  +1.0170901078E-001 -5.8995498636E+001 
3513065.081 +1.3865125877E-001 +1.5371007337E+002  +2.5804084031E-002 +6.6749505135E+001  +3.2182213423E-002 -3.4542700924E+001  +9.4911903199E-001 +9.7755719754E+001 
3638210.263 +1.7635308088E-001 +1.4668314499E+002  +1.1567681420E-001 -8.1318566973E+000  +1.0782581033E-001 -7.9305017853E+000  +4.5205798179E+000 -5.2340765194E+000 
3763355.444 +1.8147878264E-001 +1.5492623125E+002  +1.2397321936E-002 -1.6664761953E+002  +2.2734112871E-002 -2.4824159472E+000  +1.0000403469E+000 +1.0128787632E+002 
3888500.626 +1.8343527504E-001 +1.4989014550E+002  +8.3647638059E-003 +6.3548399526E+001  +8.1161014883E-003 -3.9613307597E+001  +9.1914805453E-003 +1.2038499513E+002 
4013645.807 +1.7337146307E-001 +1.5154068031E+002  +1.2486083362E-002 +1.2088799155E+002  +1.8558820118E-002 +3.8675199388E+001  +6.3195567614E-001 +1.2029199894E+002 
4138790.989 +1.7661376318E-001 +1.4901350895E+002  +1.4834572764E-002 +8.1515774788E+001  +1.5749141263E-002 -4.8450625223E+000  +3.6706611080E-001 +7.8903907688E+001 
4263936.170 +1.8988630601E-001 +1.4439904119E+002  +7.1818703705E-003 +7.3927135276E+001  +6.6999636963E-003 +1.1834420824E+001  +2.3858340363E-001 +1.5039213659E+002 
4389081.352 +2.5756398115E-001 +1.3894458406E+002  +2.4536077908E-002 +1.2285248436E+002  +2.5628432378E-002 +4.6030393070E+001  +7.6586365590E-001 +8.3272414082E+001 
4514226.533 +2.1092005638E-001 +1.4562182305E+002  +1.9724353779E-002 +1.7282954686E+002  +7.6445744195E-003 +1.7724985561E+002  +1.1678821110E+000 +1.6036943314E+002 
4639371.715 +2.5108172655E-001 +1.2198374781E+002  +1.7334454889E-002 +1.1726208100E+002  +3.1930317403E-002 +1.0906689929E+001  +4.7983391779E-001 +1.0123872017E+002 
4764516.896 +3.2306885234E-001 +1.2945367620E+002  +8.3733906302E-002 +7.3188879804E+001  +6.5471277664E-002 +1.5481279192E+001  +2.2872595473E+000 +2.0632320247E+001 
4889662.078 +3.8070402364E-001 +1.3391140468E+002  +4.1403903327E-002 -8.6295028375E+001  +1.1517363409E-001 -1.5468488203E+002  +9.3132806640E+000 -1.6164203606E+002 
5014807.259 +4.1569926434E-001 +1.3430495668E+002  +3.5223132738E-002 +3.2671030459E+001  +5.6089820405E-002 +5.2018056589E-001  +4.2941156863E+000 -4.6997930386E+001 
5139952.441 +3.5133835087E-001 +1.2539124840E+002  +3.7278336653E-002 +1.1356782307E+002  +4.8041043372E-002 +4.8375534275E+001  +1.7941341545E+000 +1.0121190500E+002 
5265097.622 +3.8270351995E-001 +1.3052903551E+002  +5.8108080846E-002 +1.4017528413E+002  +3.5075874031E-002 +1.3612744028E+002  +2.5908536778E+000 +1.1041311204E+002 
5390242.804 +4.1283218027E-001 +1.3115051366E+002  +5.4529050567E-002 +9.6776586040E+001  +3.4843190193E-002 +7.6902837451E+001  +2.2860469207E+000 +9.6814790743E+001 
5515387.985 +3.8744793555E-001 +1.2413767021E+002  +9.4194045307E-002 +1.3486700243E+002  +7.8121171588E-002 +1.0393946220E+002  +4.4530048167E+000 +1.2993214553E+002 
5640533.166 +4.5856550362E-001 +1.3303947682E+002  +2.6098769588E-002 +8.4586462563E+001  +3.4971905354E-002 +5.8329323328E+001  +1.3000097613E+000 +5.2234889146E+001 
5765678.348 +5.3925265642E-001 +1.3335359520E+002  +4.4715131176E-002 +9.3097094285E+001  +4.8116635318E-002 +8.7455889163E+001  +2.3134477062E+000 +6.9576667743E+001 
5890823.529 +5.8147358063E-001 +1.2828777449E+002  +4.4956318413E-002 +1.5448866831E+002  +6.1722922805E-002 +5.5943708561E+001  +2.1983633476E+000 +7.2102621540E+001 
6015968.711 +6.3611540600E-001 +1.2241054852E+002  +4.1780655531E-002 +5.7895471385E+001  +3.6432270132E-002 +4.1013970235E+001  +1.9622243258E+000 +4.6062029305E+001 
6141113.892 +6.5481327054E-001 +1.1770628804E+002  +2.2102362600E-002 +6.8435649485E+001  +3.3523692510E-002 +7.1449141449E+001  +1.4648982904E+000 +5.2265430639E+001 
6266259.074 +8.2589663393E-001 +1.1062771105E+002  +5.0783993548E-002 +8.1667173806E+001  +3.8610694014E-002 +3.0636392106E+001  +1.3961702681E+000 +3.4841877485E+001 
6391404.255 +9.4901767294E-001 +8.8872547783E+001  +5.4228452454E-002 +3.8495998935E+001  +4.8396129808E-002 +4.6599294729E+001  +1.8171823185E+000 +2.6066242806E+001 
6516549.437 +1.3112504330E+000 +9.9023775513E+001  +4.8882716180E-002 +7.1798158057E+001  +4.8624213099E-002 +1.7014171455E+001  +1.5194622532E+000 +5.0005248104E+000 
6641694.618 +1.9082194867E+000 +7.2087425868E+001  +4.5335354994E-002 +3.2020963789E+001  +5.6888444362E-002 +1.6648546041E+001  +1.2567610908E+000 +3.3860025529E+000 
6766839.800 +2.1541828300E+000 +6.1314850094E+001  +6.2000906927E-002 +3.1252328603E+001  +4.4472367130E-002 -8.5177259939E-001  +1.1249273122E+000 -1.2291563841E+001 
6891984.981 +2.1947540046E+000 +2.9411538013E+001  +7.6590913353E-002 +1.4017996930E+001  +3.8463341346E-002 +2.8042680181E+001  +1.2960821940E+000 -5.1946655254E+000 
7017130.163 +1.8041274723E+000 +2.4106464139E+001  +2.7604938397E-002 +5.4543843583E+000  +3.7100795667E-002 +3.3370579779E+000  +1.3113240430E+000 -4.5165968513E+000 
7142275.344 +1.5138271735E+000 +1.8193797286E+001  +3.0264242914E-002 +1.1703061750E+001  +4.3068182951E-002 +5.2218133505E+000  +1.1310745118E+000 -1.7178514358E+001 
7267420.526 +1.3405803721E+000 -2.8580691091E+000  +2.7431279410E-002 -2.5137956892E+000  +5.3591326152E-002 -6.7437689297E+000  +1.3228963309E+000 -1.3412996162E+001 
7392565.707 +1.3595651447E+000 +1.9578856211E+000  +2.1569302842E-002 +3.3999027794E+001  +2.7148006000E-002 +6.9432927737E+000  +1.2813478367E+000 -4.5103138349E+000 
7517710.889 +1.1956814170E+000 +4.9591468695E-001  +2.3686807287E-002 +1.6895933223E+001  +1.9003636867E-002 +7.0617525469E+000  +1.2277347376E+000 -6.6982860959E+000 
7642856.070 +1.0949055731E+000 +4.0428761316E-001  +2.1310629134E-002 +1.1652115151E+001  +2.1959599048E-002 +1.2488800805E+001  +1.1230659964E+000 -3.4108416083E+000 
7768001.252 +1.0865844191E+000 -3.2512613782E-001  +2.0435746806E-002 +1.9110049305E-001  +1.3921541190E-002 +3.6551209059E+001  +1.0323093254E+000 -3.0332585617E+000 
7893146.433 +9.8631240146E-001 +3.2438446283E-001  +2.2681726795E-002 +1.3545887212E+001  +1.4997618930E-002 +1.4862115858E+001  +9.1990010732E-001 -5.1961166029E+000 
8018291.615 +8.9615758033E-001 +5.4916442026E+000  +1.7612626351E-002 +7.3240426597E+000  +1.9432221423E-002 +6.1039010473E+000  +8.5062477663E-001 +6.7968989562E+000 
8143436.796 +7.0680952810E-001 +4.2538452192E+000  +1.4605699638E-002 -1.1594989762E+001  +2.1650533411E-002 +2.3751995773E+001  +8.3328810820E-001 +1.5259480241E-001 
8268581.977 +7.0719347931E-001 +1.3719347241E+001  +1.4438801315E-002 +1.9877688507E+001  +1.8023400245E-002 -1.4180292354E+000  +6.8528921783E-001 +3.8844775358E-001 
8393727.159 +7.3229432168E-001 +1.2328014911E+001  +1.3563741761E-002 +1.3337741996E+001  +1.5512090978E-002 +6.1791797431E+000  +7.4785053127E-001 -4.0593517345E-001 
8518872.340 +7.3438476264E-001 +8.2575227494E+000  +1.8403961989E-002 +9.2438934413E+000  +1.6753873005E-002 +2.2893656461E+001  +7.0835872432E-001 +1.7932562002E+000 
8644017.522 +6.8312095110E-001 +9.7706323936E+000  +1.4682091228E-002 +5.1999953573E+000  +1.6384073311E-002 +2.0051751114E+001  +6.5899541864E-001 -1.0910485474E+000 
8769162.703 +6.6254748857E-001 +7.8732286842E+000  +1.9461156583E-002 +2.5684092638E+000  +1.6749615144E-002 +1.5364722621E+001  +6.8521832277E-001 -2.5717772215E-001 
8894307.885 +5.8801614764E-001 +1.1973014145E+001  +1.7186839366E-002 +3.1495315229E+000  +1.5746759642E-002 +2.5646453771E+001  +6.3927522262E-001 -6.2855823074E+000 
9019453.066 +5.9695312761E-001 +8.7168296603E+000  +1.7671393041E-002 +1.0479662711E+001  +1.7480434057E-002 +2.9626623640E+001  +6.7708127461E-001 +5.8629968073E+000 
9144598.248 +5.6955148108E-001 +2.4370060950E+000  +1.5766373166E-002 +4.3885275286E+000  +1.7644041008E-002 +3.1339767584E+001  +6.3196559312E-001 -5.5454192288E+000 
9269743.429 +5.0255013071E-001 +6.2753384532E+000  +1.7217328631E-002 +1.3343990217E+001  +1.4772525734E-002 +2.6396988434E+001  +6.0239067778E-001 -2.0519492487E+000 
9394888.611 +5.3872071346E-001 +4.0960056145E+000  +1.5427833087E-002 +1.1478001094E+001  +1.2902751200E-002 +4.1677852941E+001  +5.8233214869E-001 -6.3554077459E+000 
9520033.792 +5.3835204004E-001 +4.8292340440E+000  +1.5450380126E-002 +1.2211163202E+001  +1.5935787047E-002 +1.3898342281E+001  +5.9465062784E-001 -4.9547146835E-001 
9645178.974 +5.0201426946E-001 +6.1679759697E+000  +1.8805549693E-002 +7.6554677675E+000  +1.3447517497E-002 +3.2089713353E+001  +5.9222064648E-001 -1.3235072134E+000 
9770324.155 +5.0934428822E-001 +1.3128340235E+000  +1.7806176710E-002 +9.5780806956E+000  +1.5731087166E-002 +2.7271748323E+001  +5.3648931344E-001 -4.6494565247E+000 
9895469.337 +5.3115810506E-001 +3.3481904118E+000  +1.4161866012E-002 +1.8496349781E+001  +2.1171825245E-002 +2.4302819409E+001  +5.5249155869E-001 -3.6799766167E+000 
10020614.518 +5.3693486982E-001 +1.7821430441E+000  +1.7652363874E-002 +1.4584406429E+001  +1.8226693189E-002 +3.4374105366E+001  +5.6545853605E-001 -5.7118503334E+000 
10145759.700 +5.3133614528E-001 +3.2414951164E+000  +1.3646214687E-002 +5.7190289941E+000  +1.7101236431E-002 +3.0255138955E+001  +5.3992632196E-001 -4.5279131431E+000 
10270904.881 +5.5353218825E-001 +5.5293922429E+000  +1.8059196880E-002 +2.0201252997E+001  +1.7485500013E-002 +2.4433842823E+001  +5.5633830189E-001 -5.8077323649E+000 
10396050.063 +5.3873562183E-001 +3.4974342796E+000  +1.7227470533E-002 +7.5492394417E-001  +1.5776224728E-002 +2.7840752644E+001  +5.6125505638E-001 -7.1652492567E-001 
10521195.244 +5.5413234210E-001 +6.4690493764E+000  +1.6864629027E-002 +1.7969281035E+001  +1.7292347820E-002 +2.3069789769E+001  +5.5637218749E-001 -1.7225960818E+000 
10646340.426 +5.4861370194E-001 +1.8672842383E+000  +2.0548188374E-002 +1.1244065359E+001  +1.7191061347E-002 +3.7792296297E+001  +5.8262119636E-001 -3.7845379312E+000 
10771485.607 +5.4511625687E-001 +8.5082356938E+000  +1.6815141438E-002 +1.1984680443E+001  +1.7593830286E-002 +2.8613204802E+001  +5.9474259289E-001 -6.9588682587E-001 
10896630.788 +5.9714948323E-001 +9.7254912964E+000  +1.5244988304E-002 +1.8752920305E+001  +1.6349492168E-002 +3.5104906915E+001  +5.9638002419E-001 +7.9843115033E-001 
11021775.970 +5.5652023145E-001 +8.4019071026E+000  +1.7759946829E-002 +1.2882813681E+001  +1.6140775200E-002 +3.0978658732E+001  +6.0406347231E-001 +4.6192150895E-001 
11146921.151 +5.7895242354E-001 +5.9212067687E+000  +1.7136268023E-002 +5.6343641937E+000  +1.7846582748E-002 +2.1497539750E+001  +5.7201707105E-001 -6.3906763452E-001 
11272066.333 +5.7141249487E-001 +8.0235261887E+000  +1.6647182682E-002 +1.9601741203E+001  +1.9204581339E-002 +2.6742853253E+001  +6.3850975351E-001 +1.2516631255E+000 
11397211.514 +6.0997930163E-001 +5.6830872742E+000  +1.7881601235E-002 +1.7574337042E+001  +1.6742308903E-002 +2.9511650690E+001  +6.0874158688E-001 -1.7952782458E+000 
11522356.696 +5.9407038859E-001 +6.4883553601E+000  +1.6724980277E-002 +1.9180610896E+001  +1.6231908636E-002 +2.7721064166E+001  +6.0190883783E-001 +1.3127821419E+000 
11647501.877 +5.9694050156E-001 +5.1705004360E+000  +1.9348702954E-002 +1.7294472465E+001  +1.6753918294E-002 +2.6130995932E+001  +6.3226752067E-001 +2.3643965087E+000 
11772647.059 +6.5030981029E-001 +6.2391128106E+000  +1.8061301507E-002 +2.1879322333E+001  +1.8581385152E-002 +2.3840194969E+001  +6.5467317492E-001 -1.2289272045E-001 
11897792.240 +6.5652861319E-001 +4.7566738303E+000  +1.9431574764E-002 +1.3943881793E+001  +1.5141151984E-002 +2.0674714019E+001  +6.8258322947E-001 +2.2337978963E+000 
12022937.422 +6.2538922227E-001 +6.7934541730E+000  +1.8670801766E-002 +2.2627265368E+001  +1.8852970093E-002 +2.7351732400E+001  +6.6329917192E-001 +1.1145648649E+000 
12148082.603 +6.8698642257E-001 +5.6069723082E+000  +1.8130562939E-002 +1.5026668483E+001  +1.9186652611E-002 +1.9513704162E+001  +7.0501670961E-001 +8.0022668450E-001 
12273227.785 +6.6485661192E-001 +2.5667537265E+000  +1.8766979172E-002 +1.8265039017E+001  +2.0327921449E-002 +3.1017491437E+001  +7.0465954332E-001 +1.1179473751E+000 
12398372.966 +6.8872390798E-001 +4.5706075138E+000  +2.1103437481E-002 +2.2985615071E+001  +1.8564109203E-002 +2.9554058981E+001  +6.8135428075E-001 -1.0302462708E+000 
12523518.148 +7.1753125788E-001 +2.8048644629E+000  +1.9226089944E-002 +1.6074352504E+001  +1.9295099163E-002 +2.9977698673E+001  +7.1809869794E-001 -8.7237049592E-002 
12648663.329 +7.2342508502E-001 +2.1586467036E+000  +1.9609808348E-002 +1.9228966963E+001  +1.7350282125E-002 +2.8048481907E+001  +7.5169307866E-001 +4.0247661681E-001 
12773808.511 +7.4541277870E-001 +2.8487955281E+000  +1.9247186912E-002 +2.6830589148E+001  +2.0649737967E-002 +2.7081343418E+001  +7.5028757003E-001 -2.6853371005E+000 
12898953.692 +7.5651566331E-001 +6.4878488762E-001  +2.0171317685E-002 +1.7581356013E+001  +2.0032978119E-002 +2.7448404935E+001  +7.6793232702E-001 -2.5834368545E+000 
13024098.874 +7.7169542755E-001 +8.1534026726E-001  +2.0994339546E-002 +1.7024622839E+001  +1.9717015689E-002 +2.6163043452E+001  +7.8099788589E-001 -1.3241844617E+000 
13149244.055 +7.8155336705E-001 +7.6004524631E-001  +2.0254051872E-002 +2.4202069750E+001  +1.9650631964E-002 +2.6912320283E+001  +7.9975410484E-001 -1.9738523102E+000 
13274389.237 +8.1584646935E-001 -2.3326808108E-001  +1.9905999733E-002 +1.8907579668E+001  +2.0645501076E-002 +2.7046949703E+001  +7.9084342082E-001 -1.2879134012E+000 
13399534.418 +8.1099496148E-001 +2.8526862292E-001  +2.1747233125E-002 +2.5803224494E+001  +2.0168942240E-002 +2.4372196574E+001  +8.2841964776E-001 -2.4944182267E+000 
13524679.599 +8.5589881653E-001 -1.3473771680E+000  +2.2736969495E-002 +2.1253444752E+001  +2.1341590336E-002 +2.5226119025E+001  +8.4815357822E-001 -3.5507877293E+000 
13649824.781 +8.4166596664E-001 -1.9812759391E+000  +2.0891870848E-002 +2.2323939295E+001  +2.1022534400E-002 +2.5513958205E+001  +8.6876866906E-001 -3.0607041894E+000 
13774969.962 +8.6864486384E-001 -3.5543886959E+000  +2.1789809762E-002 +2.3153118124E+001  +2.1414201513E-002 +2.5319670683E+001  +8.7040226894E-001 -3.3078660208E+000 
13900115.144 +8.8007929645E-001 -2.4345743568E+000  +2.0843010601E-002 +1.8328921092E+001  +2.1842634971E-002 +2.4523181629E+001  +8.9638005339E-001 -2.4392758367E+000 
14025260.325 +9.1540457904E-001 -2.8999494092E+000  +2.2969442860E-002 +2.1403066849E+001  +1.9751831314E-002 +2.4667765830E+001  +9.0549597251E-001 -4.4864032297E+000 
14150405.507 +8.9528034534E-001 -3.6335952063E+000  +2.2381688992E-002 +2.0640891662E+001  +2.2207676400E-002 +2.4395829730E+001  +9.4493850648E-001 -4.4779542125E+000 
14275550.688 +9.6191695848E-001 -4.4603505820E+000  +2.2772845755E-002 +2.4532953778E+001  +2.1536370103E-002 +2.4560649107E+001  +9.5625731368E-001 -2.7062394449E+000 
14400695.870 +9.4418449723E-001 -4.1937459334E+000  +2.3134619779E-002 +2.2504737455E+001  +2.2722335926E-002 +2.5027320166E+001  +9.7168311809E-001 -5.0079781635E+000 
