!  2-Port S-parameters saved by WinCal
! VAR MeasName=S-Parameters (CALIBRATED_DATA) read from VNA (P5004A)
! VAR MeasDate=28/08/2024 15:58:32
! VAR NAME=S2_r8c9_RESET1_9k-100M_2
! VAR FILENAME=S2_r8c9_RESET1_9k-100M_2.S2P
! VAR DATE=28/08/2024 15:58:33
! VAR PHYS_PORTS=1,2
! VAR ObjTypeName=DATASET
! VAR IndexType=Frequency
!
# Hz S MA R 50
9000.000 +1.1579393321E-001 -1.6018490734E+002  +6.5129764352E-003 +6.0804243168E+001  +4.0193021137E-003 -1.4607562061E+002  +2.1057086566E-001 -1.4152334183E+002 
134145.181 +1.1176098043E-001 +1.6945170540E+002  +1.4341260517E-004 +6.3715537479E+001  +4.4880370180E-004 +1.4092882802E+002  +2.4230500137E-001 -1.7127340017E+002 
259290.363 +1.1262906102E-001 +1.6951760619E+002  +2.8585591402E-004 +9.3939644257E+000  +3.6871337013E-004 +1.5044268690E+002  +2.4437795767E-001 -1.6970082220E+002 
384435.544 +1.1459960882E-001 +1.7031442736E+002  +7.0168515260E-004 -8.4191221152E+001  +1.6607328932E-003 +8.1021569558E+001  +2.4596505363E-001 -1.6919014981E+002 
509580.726 +1.1426988967E-001 +1.7060071805E+002  +1.6172760191E-003 -6.8601997807E+001  +7.5446534224E-004 +5.7344182290E+001  +2.4921458339E-001 -1.6780078569E+002 
634725.907 +1.1590680429E-001 +1.7166991587E+002  +8.3627257731E-004 -9.1830742733E+001  +5.4591526508E-004 +2.0592967248E+001  +2.4522413391E-001 -1.6732080917E+002 
759871.089 +1.1874605845E-001 +1.7111170480E+002  +6.1214029134E-004 -1.3374318436E+002  +1.5256936408E-003 +9.4603586815E+001  +2.5223848973E-001 -1.6662157684E+002 
885016.270 +1.2049635999E-001 +1.6978150664E+002  +5.6864135836E-004 -8.8080253726E+001  +1.1599195909E-003 +1.1069927452E+002  +2.4547109284E-001 -1.6662760632E+002 
1010161.452 +1.1625644749E-001 +1.7117015058E+002  +1.7466133526E-003 -8.9353037447E+001  +5.9323712295E-004 -1.6871062380E+002  +2.0034375817E-001 -1.7080978370E+002 
1135306.633 +1.1806065530E-001 +1.6863076933E+002  +1.4827919284E-003 +4.3511255318E+001  +3.3619823799E-003 -1.3776816256E+002  +1.6813315348E-001 -1.6973612515E+002 
1260451.815 +1.1988515378E-001 +1.7051127897E+002  +2.1598106630E-003 -7.3938550174E+001  +2.8955920849E-003 +1.6824486818E+002  +2.3384201001E-001 -1.5860242752E+002 
1385596.996 +1.2786738176E-001 +1.7207767943E+002  +4.6055083264E-004 -1.6955204415E+002  +3.3824145485E-003 +1.0759728481E+002  +2.6342070851E-001 -1.5714942798E+002 
1510742.178 +1.2459154268E-001 +1.7127588593E+002  +8.9317786940E-004 -1.3045505616E+002  +6.0559786689E-004 -1.5264167238E+002  +2.5836169104E-001 -1.5791411437E+002 
1635887.359 +1.2609228646E-001 +1.6990334402E+002  +1.3526220304E-003 -4.3720795791E+001  +1.7642032918E-003 -1.7129545837E+002  +2.4061696225E-001 -1.5795752839E+002 
1761032.541 +1.3083885117E-001 +1.6973318652E+002  +9.4558431308E-004 +1.4954640910E+001  +1.0469851361E-003 -1.1688954656E+002  +2.3582232235E-001 -1.6007310841E+002 
1886177.722 +1.2819430896E-001 +1.6707837042E+002  +3.0373343456E-003 +4.0908503419E+001  +2.8664279723E-003 -9.8574466438E+001  +2.1839947319E-001 -1.6138781962E+002 
2011322.904 +1.3195222252E-001 +1.6782612008E+002  +3.4610569658E-003 +9.8294634101E+000  +1.9698577388E-003 -1.0247461609E+002  +2.3795305850E-001 -1.5659343428E+002 
2136468.085 +1.3204289022E-001 +1.6760422748E+002  +3.1190632316E-003 +8.0710694576E+001  +4.7415567809E-003 -5.0818905778E+001  +2.2469643305E-001 -1.7426089344E+002 
2261613.267 +1.3423690250E-001 +1.6673448431E+002  +6.0827076835E-003 +7.8531339886E+001  +8.4534207854E-003 -5.7835716165E+001  +1.8371504429E-001 -1.7181203142E+002 
2386758.448 +1.3316524793E-001 +1.6029505502E+002  +1.5398318473E-002 +7.7853326356E+001  +1.3485694988E-002 -4.3173337925E+001  +1.7475970942E-001 -1.6631185007E+002 
2511903.630 +1.4085589375E-001 +1.6493692612E+002  +1.0498999470E-002 +7.6328829543E+001  +1.9421881811E-002 -3.2749586486E+001  +1.7385101325E-001 +1.6051024957E+002 
2637048.811 +1.3905821922E-001 +1.5636225872E+002  +2.3098710244E-002 +8.0871534484E+001  +2.3616037120E-002 -1.3107551136E+001  +1.7552552102E-001 +1.7670117905E+002 
2762193.992 +1.2278033539E-001 +1.7531878592E+002  +5.8884538973E-002 -2.0143340604E+001  +6.2349488026E-002 -1.2471862700E+002  +2.2355320850E-001 -7.3959269984E+001 
2887339.174 +1.2413768272E-001 +1.7297682652E+002  +5.5431825858E-002 +2.4875467067E+001  +6.0810284488E-002 -7.8557879049E+001  +1.3457583970E-001 +4.8087499502E+001 
3012484.355 +1.3035493654E-001 +1.7197912973E+002  +4.6488514978E-002 +3.2117006865E+001  +3.7536320430E-002 -7.1694198645E+001  +1.2651158615E-001 +8.8481423616E+001 
3137629.537 +1.3326493011E-001 +1.6642448647E+002  +1.9320320324E-002 +6.8651239558E+000  +2.0805472495E-002 -8.9691423718E+001  +1.8319983385E-001 -1.3613246438E+002 
3262774.718 +1.3174629421E-001 +1.6247502324E+002  +3.4441825772E-002 +3.7334079731E+001  +3.6196397228E-002 -6.8447289604E+001  +5.6891050534E-002 +1.3957552878E+002 
3387919.900 +1.1646806327E-001 +1.5565152239E+002  +3.9084400526E-002 +9.3323144609E+001  +4.1920637971E-002 -1.2624513156E+001  +3.0101542347E-001 +1.5766327301E+002 
3513065.081 +1.0179785787E-001 +1.4423066129E+002  +1.0372543207E-001 +5.3240895400E+001  +1.2977667458E-001 -2.6726094478E+001  +3.0470933432E-001 +6.7209195200E+001 
3638210.263 +1.6017360886E-001 +1.5508667700E+002  +5.3797379578E-002 +7.9922363309E+001  +5.4827813332E-002 +7.1033855059E-001  +3.3517481065E-001 +1.0725659032E+002 
3763355.444 +1.7553936978E-001 +1.4784498823E+002  +7.4293214140E-002 +9.2150436516E+001  +5.5877696728E-002 +1.8195217941E+001  +3.3993591513E-001 +1.1192367860E+002 
3888500.626 +1.7036668663E-001 +1.5628693032E+002  +3.6102717527E-002 +8.3401941517E+001  +3.9026984056E-002 +8.4110294587E+000  +3.5118364655E-001 +1.3694673266E+002 
4013645.807 +1.9282654603E-001 +1.5291663021E+002  +7.8553151324E-002 +1.2015574255E+002  +6.6127929664E-002 +4.9486474352E+001  +7.7116509836E-001 +1.2913866763E+002 
4138790.989 +1.8563708706E-001 +1.5328149869E+002  +4.9346413524E-002 +1.2209768006E+002  +5.0167903689E-002 +2.8232675875E+001  +5.9198757565E-001 +1.4317699282E+002 
4263936.170 +1.8158902437E-001 +1.4779445764E+002  +7.2471419683E-002 +1.0042362479E+002  +6.9633077972E-002 +2.8939974822E+001  +6.5497260954E-001 +1.1872594122E+002 
4389081.352 +2.0335692925E-001 +1.4234710753E+002  +7.1835327586E-002 +1.0081326949E+002  +7.5270922402E-002 +4.9181988748E+001  +5.4940595043E-001 +1.3083222583E+002 
4514226.533 +1.9775505900E-001 +1.1766256308E+002  +1.7434647554E-001 +9.5207320505E+001  +1.7519825139E-001 +3.5731528398E+001  +8.1299131929E-001 +1.1080952910E+002 
4639371.715 +2.5294128737E-001 +1.2720909183E+002  +1.9120343691E-001 +1.1443142138E+002  +1.6378434345E-001 +5.5660259695E+001  +1.0200580178E+000 +1.1473612538E+002 
4764516.896 +3.4086507867E-001 +1.3220668038E+002  +1.9390743304E-001 +1.4040957062E+002  +2.1377246395E-001 +8.5344021304E+001  +1.3463239246E+000 +1.2176441081E+002 
4889662.078 +4.2955657416E-001 +1.4121532515E+002  +5.5542857642E-001 -1.4764054706E+002  +4.5417279442E-001 +1.7331664239E+002  +3.4391316173E+000 +1.6330403717E+002 
5014807.259 +4.7499398368E-001 +1.3391617350E+002  +6.6875270427E-001 +1.5387728731E+002  +5.9025516292E-001 +1.1642542514E+002  +3.9833343114E+000 +1.1741315225E+002 
5139952.441 +3.2500064955E-001 +1.2949814822E+002  +1.9026080957E-001 +7.7881218435E+001  +1.9510905259E-001 +3.2638583003E+001  +1.0518291972E+000 +6.0550915846E+001 
5265097.622 +3.6691785925E-001 +1.3300043847E+002  +2.0229359515E-001 +1.0850419140E+002  +1.7864117215E-001 +7.4524730712E+001  +1.4182807174E+000 +9.8489283622E+001 
5390242.804 +3.6004385880E-001 +1.2649329193E+002  +1.5330927277E-001 +1.0674042935E+002  +1.7117538961E-001 +7.3806827371E+001  +1.1709683275E+000 +1.2141596543E+002 
5515387.985 +4.2418509188E-001 +1.2951635864E+002  +2.7377322108E-001 +7.8107233837E+001  +2.6828577266E-001 +4.5647880041E+001  +1.8110941659E+000 +5.5646463936E+001 
5640533.166 +4.3691002874E-001 +1.1625082723E+002  +3.6593889428E-001 +9.0216604762E+001  +3.2718851862E-001 +6.0634041314E+001  +2.1749245762E+000 +8.5576876653E+001 
5765678.348 +4.0219986960E-001 +1.1971072813E+002  +2.7919560880E-001 +6.0027079686E+001  +2.8417122916E-001 +3.0005588431E+001  +1.8381103995E+000 +5.4587805033E+001 
5890823.529 +4.6756266261E-001 +1.2100617535E+002  +2.3474673190E-001 +8.3193950566E+001  +2.4432345817E-001 +5.5366137907E+001  +1.5782403520E+000 +8.1622114769E+001 
6015968.711 +6.1423460817E-001 +1.1562976573E+002  +3.2922060971E-001 +8.2134020289E+001  +3.0685113727E-001 +6.0500803364E+001  +2.0683804697E+000 +7.2209475514E+001 
6141113.892 +6.3950957664E-001 +1.0488676197E+002  +3.1153578379E-001 +6.2924939277E+001  +2.9186510861E-001 +4.6547564437E+001  +1.6390583235E+000 +5.7401400339E+001 
6266259.074 +6.5436911051E-001 +1.0673712772E+002  +2.5166079413E-001 +4.3975490268E+001  +2.4789798042E-001 +3.1438019738E+001  +1.2139638006E+000 +2.7079035983E+001 
6391404.255 +9.1538639131E-001 +9.7087550671E+001  +3.1446234098E-001 +5.1581706847E+001  +3.1789471241E-001 +3.5098824709E+001  +1.2071700584E+000 +2.7473413794E+001 
6516549.437 +8.0877738657E-001 +8.1432849816E+001  +3.1267907043E-001 +2.8641136273E+001  +2.9771834839E-001 +1.0642666014E+001  +1.3303174822E+000 +9.0648110497E+000 
6641694.618 +1.1444008345E+000 +7.7409754847E+001  +3.2732463260E-001 +3.2543822637E+001  +3.1537683205E-001 +2.5356903066E+001  +1.2203436591E+000 +1.5350789960E+001 
6766839.800 +1.3175311413E+000 +4.8229534086E+001  +3.6288006801E-001 +2.0190720156E+001  +3.4648581146E-001 +1.4793938047E+001  +9.4395092911E-001 +1.7822521194E+001 
6891984.981 +1.3055745114E+000 +2.9735251696E+001  +3.3293988753E-001 +3.9513514969E+000  +3.1171867044E-001 +9.6677106765E-001  +1.0392651715E+000 +3.1439065516E+000 
7017130.163 +1.4661139466E+000 +2.1536284989E+001  +3.3382482497E-001 +6.0925820961E+000  +3.0035321513E-001 -2.0053972739E+000  +1.2542706170E+000 -3.4265913651E+000 
7142275.344 +1.6209717561E+000 +6.1088647516E+000  +2.8797350555E-001 +5.3203792041E+000  +3.0923488709E-001 -1.7203547966E+000  +1.1390185102E+000 +4.7963719774E-001 
7267420.526 +1.2395707764E+000 +2.5392910807E+000  +2.1679353828E-001 +9.7527296432E-002  +2.1673231215E-001 -3.4182940024E+000  +1.0535628772E+000 -1.1923273609E+001 
7392565.707 +9.9380548102E-001 +3.9246047413E+000  +1.8542217834E-001 +4.8024613676E+000  +1.8389771243E-001 +5.9028969611E+000  +1.0931562587E+000 -1.1499990191E+001 
7517710.889 +8.6773125744E-001 +4.0959995135E+000  +1.6860540554E-001 +2.8722291389E+000  +1.7222458213E-001 +4.6852548378E+000  +9.5604175888E-001 -8.8246841730E+000 
7642856.070 +7.9325797922E-001 +1.8137141370E+000  +1.6766909523E-001 +6.4704885424E-001  +1.6432919252E-001 +4.9325890043E+000  +9.4952822535E-001 -1.4334819646E+001 
7768001.252 +7.1629294980E-001 +3.1704462265E+000  +1.5826735289E-001 +1.3373825573E+000  +1.5182698519E-001 +4.8284409807E+000  +8.9631495753E-001 -3.2193517187E+000 
7893146.433 +6.3288646694E-001 +1.5236048747E+000  +1.5032643173E-001 +9.6541977541E-001  +1.4876164651E-001 +5.0967817714E+000  +7.3600102087E-001 -3.7396265055E+000 
8018291.615 +6.1955786814E-001 +4.8312121939E+000  +1.4108944875E-001 -1.9702612772E+000  +1.4954027298E-001 +6.4604071306E+000  +7.4486254986E-001 -1.4675218581E+000 
8143436.796 +5.6674275715E-001 +1.1871715168E+001  +1.4071183567E-001 -5.9981290652E-001  +1.4618583043E-001 +5.3111000648E+000  +6.2233063025E-001 -2.9746505250E-002 
8268581.977 +5.3101128329E-001 +1.5269184591E+001  +1.3888872678E-001 -2.0108523432E+000  +1.3506712766E-001 +8.0999965969E+000  +6.4592465197E-001 +3.0687101329E+000 
8393727.159 +5.6353528306E-001 +1.4263858199E+001  +1.3672082386E-001 -3.5307176168E+000  +1.3292216126E-001 +7.8740788524E+000  +5.5781873905E-001 -1.5324418977E-001 
8518872.340 +5.6321318383E-001 +1.1593084064E+001  +1.3319219146E-001 -2.3891358884E+000  +1.2920408933E-001 +6.5556771110E+000  +4.7277416886E-001 -3.4167012959E+000 
8644017.522 +4.9181282172E-001 +1.3960883192E+001  +1.2988388500E-001 -2.5069121123E+000  +1.2969599118E-001 +9.2986176268E+000  +4.9153678549E-001 +8.0645546285E+000 
8769162.703 +5.0870764808E-001 +8.5915197942E+000  +1.2853391298E-001 -4.7963561444E+000  +1.3248216368E-001 +1.0439585090E+001  +5.2777279431E-001 +1.1585669925E+000 
8894307.885 +5.1906223947E-001 +6.9887115607E+000  +1.2783748293E-001 -3.7122215190E+000  +1.2982380257E-001 +1.1980203383E+001  +4.8181231265E-001 +4.9798475851E+000 
9019453.066 +4.3671312750E-001 +3.0228939276E+000  +1.2898414589E-001 -6.6019174296E+000  +1.2628673885E-001 +8.7715657452E+000  +4.3856388020E-001 +8.8549687486E+000 
9144598.248 +4.5872523095E-001 +1.2787861138E+001  +1.3049840654E-001 -2.9999788011E+000  +1.2864050512E-001 +1.0895654208E+001  +4.4198820595E-001 +9.1864221953E-001 
9269743.429 +4.3156146949E-001 +8.4707425411E+000  +1.2694138165E-001 -4.1916568290E+000  +1.2516990079E-001 +1.0335474619E+001  +4.5183275416E-001 +3.8634795110E+000 
9394888.611 +4.4009744611E-001 +1.2285781742E+001  +1.2875120391E-001 -1.9019407094E+000  +1.2849449800E-001 +1.2134564686E+001  +4.7842968532E-001 -9.6404138617E-001 
9520033.792 +4.0607992295E-001 -1.9015116503E+000  +1.2956743216E-001 -3.7334664066E+000  +1.2585101121E-001 +1.1074794631E+001  +4.8761543837E-001 -4.5100097579E-002 
9645178.974 +4.1684306489E-001 +2.9453925430E+000  +1.3072217235E-001 -4.8389993725E+000  +1.3096760704E-001 +1.2651197753E+001  +4.5972986441E-001 -6.1325853566E+000 
9770324.155 +3.6666667351E-001 +5.6089777049E+000  +1.2713872170E-001 -3.2507934966E+000  +1.2749168815E-001 +1.2293031137E+001  +4.2447644073E-001 +2.3876024637E+000 
9895469.337 +3.9739474320E-001 +6.5405914282E+000  +1.2905553811E-001 -3.0664208559E+000  +1.2985905269E-001 +1.3047451728E+001  +4.3877031211E-001 -4.2024693981E+000 
10020614.518 +4.3486644143E-001 +8.3894184743E+000  +1.2813159828E-001 -2.2325641191E+000  +1.2886968087E-001 +1.2596624509E+001  +4.1820523044E-001 -2.2718701709E+000 
10145759.700 +4.4019315870E-001 +7.4984343162E+000  +1.2838283729E-001 -1.8061454211E+000  +1.2732972764E-001 +1.3114908712E+001  +4.2838743317E-001 +2.0211956647E+000 
10270904.881 +3.8733957492E-001 +3.4559410609E-001  +1.3327447487E-001 -2.7025504305E+000  +1.3482037341E-001 +1.3026987134E+001  +4.4254709857E-001 +1.2782919942E+000 
10396050.063 +4.1230468610E-001 +7.7957012300E+000  +1.3209969914E-001 -1.0358539367E+000  +1.3073958447E-001 +1.3399926807E+001  +4.3706914192E-001 +2.2701258919E+000 
10521195.244 +4.2653579912E-001 +9.5406800389E+000  +1.2941593794E-001 -1.6944276539E+000  +1.3047114400E-001 +1.3537109037E+001  +4.0608965944E-001 +5.4714082436E+000 
10646340.426 +4.2275731272E-001 +7.5984908676E+000  +1.3466080210E-001 -2.2468173636E+000  +1.3240810495E-001 +1.3777348336E+001  +4.2717314062E-001 -3.2713661861E+000 
10771485.607 +4.3158355918E-001 +8.5592443701E+000  +1.3370887967E-001 -8.8194774026E-001  +1.3375031460E-001 +1.3927574595E+001  +4.7608531800E-001 +1.5226116253E+000 
10896630.788 +4.3794842308E-001 +1.1095021151E+001  +1.3721017820E-001 -6.3650639891E-001  +1.3460177666E-001 +1.3127731613E+001  +4.6618326655E-001 +2.3679095864E+000 
11021775.970 +4.4159770942E-001 +9.2086818880E+000  +1.3571143141E-001 -4.1421251566E-001  +1.3436993868E-001 +1.2862411360E+001  +4.7721432537E-001 +4.1867036534E+000 
11146921.151 +4.5295456048E-001 +8.3276178051E+000  +1.3951495949E-001 +1.5313973588E-001  +1.3591511440E-001 +1.2749047810E+001  +4.5420645771E-001 +2.9020711894E+000 
11272066.333 +4.4565015787E-001 +1.0098003508E+001  +1.3672284568E-001 +4.4670268845E-001  +1.3577308136E-001 +1.2760620533E+001  +4.7660144882E-001 +6.3087425666E+000 
11397211.514 +5.1477452279E-001 +1.0409280576E+001  +1.3892903611E-001 +1.6881934471E+000  +1.3591840185E-001 +1.3905670996E+001  +4.9130249907E-001 +3.7591736106E+000 
11522356.696 +4.8734786163E-001 +9.6127518151E+000  +1.4161450178E-001 +2.1854089172E+000  +1.3892171347E-001 +1.3058434819E+001  +5.1218231322E-001 +3.3531493853E+000 
11647501.877 +4.7628128366E-001 +6.8524625063E+000  +1.4290804214E-001 +9.6363517867E-001  +1.3995175336E-001 +1.2184782795E+001  +4.9837168916E-001 +2.8680150454E+000 
11772647.059 +4.9083770408E-001 +6.6257158001E+000  +1.4137375275E-001 +2.0798177569E+000  +1.4210624369E-001 +1.2805590507E+001  +5.1877107774E-001 +3.6443879853E+000 
11897792.240 +4.9878795335E-001 +7.8071924554E+000  +1.4368053667E-001 +2.2916577595E+000  +1.4393929526E-001 +1.2014059397E+001  +5.2446302647E-001 +4.1906973059E+000 
12022937.422 +5.1503089245E-001 +7.1656547356E+000  +1.4500569067E-001 +2.7367919903E+000  +1.4521841688E-001 +1.1565792197E+001  +5.3699302262E-001 +3.0720536919E+000 
12148082.603 +5.3186718054E-001 +5.8574004800E+000  +1.4825397501E-001 +2.3857579887E+000  +1.4434033404E-001 +1.1427267909E+001  +5.3149437460E-001 +3.5564786958E+000 
12273227.785 +5.3279287111E-001 +5.5986109179E+000  +1.4666456400E-001 +2.8154129486E+000  +1.4706507079E-001 +1.0891206740E+001  +5.7729069562E-001 +3.3177967460E+000 
12398372.966 +5.4210001487E-001 +8.1292292533E+000  +1.4997362369E-001 +2.9578682689E+000  +1.4578379699E-001 +1.0948090295E+001  +5.4520910057E-001 +4.3973949071E+000 
12523518.148 +6.0709459703E-001 +4.2155004246E+000  +1.5191093027E-001 +4.2684476996E+000  +1.5116776996E-001 +1.0930450456E+001  +5.8409844948E-001 +4.6916275352E+000 
12648663.329 +5.7545103141E-001 +4.4496263857E+000  +1.5464731095E-001 +3.3403595336E+000  +1.5426750772E-001 +9.8291651259E+000  +6.1043089481E-001 +3.4343134838E-001 
12773808.511 +5.9489324346E-001 +3.9249067327E+000  +1.5576861255E-001 +3.5694170999E+000  +1.5471537001E-001 +9.6696276866E+000  +5.9785378555E-001 -9.3274569337E-001 
12898953.692 +6.1111329591E-001 +1.9686986504E+000  +1.5841666240E-001 +3.5827134412E+000  +1.5563360510E-001 +9.1009112053E+000  +6.2223033034E-001 +2.1881042151E+000 
13024098.874 +6.1064796484E-001 +3.6035335731E+000  +1.5760897401E-001 +3.5052349878E+000  +1.5728833206E-001 +8.4985630910E+000  +6.4191665591E-001 -3.4158508315E-001 
13149244.055 +6.6280889720E-001 +5.3182496440E-001  +1.6192676590E-001 +3.9404895973E+000  +1.5874197592E-001 +8.8189883656E+000  +6.2227483856E-001 -1.2375939661E+000 
13274389.237 +6.5933092272E-001 -1.5725887887E+000  +1.6208031604E-001 +4.3672366050E+000  +1.6147800316E-001 +8.1766649554E+000  +6.8685399678E-001 -5.4003828247E-001 
13399534.418 +6.6568182765E-001 +6.7316326679E-001  +1.6258410754E-001 +4.1616417820E+000  +1.6079059878E-001 +7.0902156272E+000  +6.5077815032E-001 -8.7032408313E-001 
13524679.599 +6.6603672572E-001 -4.7377044680E-001  +1.6380286829E-001 +3.5828574227E+000  +1.6163062973E-001 +6.7704423281E+000  +6.8528073306E-001 -7.9649003758E-001 
13649824.781 +7.1972684354E-001 -3.5444397119E+000  +1.6690701841E-001 +4.7145214646E+000  +1.6557348542E-001 +6.7922490113E+000  +6.8932575640E-001 -3.6377763643E+000 
13774969.962 +7.2104959358E-001 -3.5525980385E+000  +1.6828815076E-001 +3.7155642129E+000  +1.6513590144E-001 +6.6079656670E+000  +7.3271776747E-001 -1.2523179815E+000 
13900115.144 +7.3702493377E-001 -6.0741710798E+000  +1.7108330321E-001 +4.4462128462E+000  +1.6852431543E-001 +5.3924857250E+000  +7.5697610842E-001 -4.0362630075E+000 
14025260.325 +7.6894805797E-001 -3.3928047704E+000  +1.6888042672E-001 +3.4385590714E+000  +1.6692729052E-001 +5.0781274738E+000  +7.4064169544E-001 -4.6057085681E+000 
14150405.507 +7.9565161050E-001 -4.6615518139E+000  +1.7223988789E-001 +4.5382009542E+000  +1.6820320778E-001 +5.4548974025E+000  +7.8312775842E-001 -3.6550928438E+000 
14275550.688 +8.0600756890E-001 -3.9241951345E+000  +1.7248443775E-001 +4.4139521882E+000  +1.6836049373E-001 +4.2968714885E+000  +7.9659708515E-001 -3.4024730395E+000 
14400695.870 +7.9840645531E-001 -4.8863432414E+000  +1.7302414312E-001 +3.1240234520E+000  +1.6966218229E-001 +3.4674904716E+000  +8.1300063773E-001 -4.2556724487E+000 
