!  2-Port S-parameters saved by WinCal
! VAR MeasName=S-Parameters (CALIBRATED_DATA) read from VNA (P5004A)
! VAR MeasDate=28/08/2024 11:51:51
! VAR NAME=S2_r6c9_SET3_9k-100M_2
! VAR FILENAME=S2_r6c9_SET3_9k-100M_2.S2P
! VAR DATE=28/08/2024 11:51:51
! VAR PHYS_PORTS=1,2
! VAR ObjTypeName=DATASET
! VAR IndexType=Frequency
!
# Hz S MA R 50
9000.000 +9.4925628932E-002 -1.6252084896E+002  +4.6180549780E-003 -2.4239733641E+001  +7.7888239003E-003 +9.2123743363E+001  +3.0783060937E-001 -1.4090720932E+002 
134145.181 +1.1088088424E-001 +1.6968015378E+002  +3.3605827957E-005 +1.6646805279E+002  +3.8962782562E-004 +1.7492829728E+002  +2.4050829266E-001 -1.7080596223E+002 
259290.363 +1.1218284780E-001 +1.6984372772E+002  +5.8066670322E-004 -1.5097345941E+001  +5.2969642176E-004 +1.6687819636E+002  +2.3820748099E-001 -1.6868032412E+002 
384435.544 +1.1467047405E-001 +1.6998606395E+002  +1.3603414114E-003 -5.4396398593E+001  +8.6959549647E-004 +5.7184726635E+001  +2.4523950597E-001 -1.6714153308E+002 
509580.726 +1.1451596902E-001 +1.7160236957E+002  +4.3374261049E-004 -8.7179757105E+001  +1.5066715013E-003 +7.5317071101E+001  +2.4401499659E-001 -1.6607248570E+002 
634725.907 +1.1702051539E-001 +1.7175503444E+002  +6.9641502605E-004 -1.1324967456E+002  +2.1317854475E-003 +2.8104794492E+001  +2.5320240012E-001 -1.6244810031E+002 
759871.089 +1.1823069117E-001 +1.7002447723E+002  +7.1970076422E-004 -1.2661393532E+002  +1.1911652617E-003 +1.9001703130E+001  +2.5361487226E-001 -1.6608940743E+002 
885016.270 +1.2013668383E-001 +1.6913644936E+002  +1.4750069706E-004 +1.3422123329E+002  +1.1994153855E-003 +1.2315230487E+002  +2.4839063416E-001 -1.6554083521E+002 
1010161.452 +1.1776191299E-001 +1.6923586052E+002  +1.3808646643E-003 +1.4022434725E+000  +1.6088899800E-003 -1.6113231370E+002  +2.0052700833E-001 -1.7320461901E+002 
1135306.633 +1.1716683811E-001 +1.6909803629E+002  +6.2621733279E-004 +3.4880858036E+001  +1.6670277388E-003 +1.1295634571E+002  +2.0946107826E-001 -1.6695205457E+002 
1260451.815 +1.2176370366E-001 +1.7104376039E+002  +1.0925182968E-003 -1.3882624096E+002  +3.7132671309E-003 +1.4019936636E+002  +1.9168558861E-001 -1.5978537088E+002 
1385596.996 +1.2628382355E-001 +1.7254320987E+002  +1.2128679268E-003 -8.2609248789E+001  +1.2403840522E-003 +6.1802244412E+001  +2.7101893904E-001 -1.5876196595E+002 
1510742.178 +1.2823934543E-001 +1.7180531987E+002  +7.9626379744E-004 -2.2758207188E+001  +1.6039249576E-003 +1.2155766453E+002  +2.5380484906E-001 -1.5951197488E+002 
1635887.359 +1.2837406026E-001 +1.7160632608E+002  +1.5276713333E-003 -5.3221048429E+001  +1.2343592930E-003 -1.5549262521E+002  +2.4288316524E-001 -1.6059586699E+002 
1761032.541 +1.2822250973E-001 +1.6846282957E+002  +3.6235631162E-004 +1.3859653525E+002  +6.5435002356E-004 -1.3026032341E+001  +2.2217133940E-001 -1.5812698023E+002 
1886177.722 +1.2693813812E-001 +1.6794869526E+002  +2.2954401556E-003 +9.3014312853E+001  +5.1411472663E-003 -7.1692875058E+001  +2.0028198448E-001 -1.6480566265E+002 
2011322.904 +1.3200880489E-001 +1.6812961730E+002  +2.1683606698E-003 +7.1074697464E+001  +6.1041300406E-003 -3.8494679233E+001  +1.9750859680E-001 -1.7102582594E+002 
2136468.085 +1.3453596199E-001 +1.6675042275E+002  +3.4105079807E-003 +9.3010046068E+000  +5.0592013113E-003 -8.4410389778E+001  +2.1221988976E-001 -1.5373879370E+002 
2261613.267 +1.3308950240E-001 +1.6547710123E+002  +4.8737430497E-003 +5.2672225948E+001  +5.2939573489E-003 -1.2137075925E+001  +2.1150918117E-001 -1.7040279238E+002 
2386758.448 +1.3611806981E-001 +1.6311420679E+002  +8.4243695701E-003 +8.4659947594E+001  +1.1764838381E-002 -1.3314815063E+001  +2.0543349990E-001 +1.7512607212E+002 
2511903.630 +1.3181150478E-001 +1.6503924764E+002  +1.2132363641E-002 +8.3259403681E+001  +1.6796848649E-002 -3.2674740571E+001  +2.0322526426E-001 +1.6451401529E+002 
2637048.811 +1.3283573410E-001 +1.6329618169E+002  +2.2488807141E-002 +1.2325850839E+002  +1.7824681799E-002 -2.1877399197E+000  +2.9505826779E-001 +1.4506576621E+002 
2762193.992 +1.2206830687E-001 +1.7421942124E+002  +1.0394761965E-001 -8.4535555446E+000  +1.1485942938E-001 -1.2998624626E+002  +7.7764823444E-001 -3.6540811982E+001 
2887339.174 +1.2017918390E-001 +1.6828901756E+002  +4.5749672682E-002 -4.2619029335E+001  +4.0882094613E-002 -1.5113374465E+002  +3.6708342616E-001 -9.4985082156E+001 
3012484.355 +1.3876955474E-001 +1.7686924448E+002  +2.1567678561E-002 -5.8087833924E+001  +1.9303963112E-002 -1.5887052801E+002  +3.4464020376E-001 -1.0778512685E+002 
3137629.537 +1.2430802402E-001 +1.6652033176E+002  +3.1126426673E-002 +8.4933298627E+000  +3.3101234896E-002 -9.1767602461E+001  +3.2414609151E-002 -1.0766654071E+002 
3262774.718 +1.1362369937E-001 +1.6566996049E+002  +5.7304207111E-002 +3.2659075595E+001  +5.6241370338E-002 -6.5010087516E+001  +2.9486204069E-001 +2.5532171524E+001 
3387919.900 +1.5028389697E-001 +1.6216744602E+002  +9.8069837660E-002 +1.1338088564E+002  +8.7080078750E-002 +2.4307840413E+001  +1.3833806101E+000 +1.0510682239E+002 
3513065.081 +1.3443862665E-001 +1.4660500661E+002  +6.3334604649E-002 +5.1056839450E+001  +5.9689276886E-002 -3.3453781541E+001  +2.3451904485E-001 +5.3815080772E+001 
3638210.263 +1.3985561111E-001 +1.3559065259E+002  +6.2700449125E-002 +9.9148261737E+001  +5.7112018894E-002 +1.4591289222E+001  +4.9687529211E-001 +1.1820068105E+002 
3763355.444 +1.7739131565E-001 +1.4526879734E+002  +3.6968546823E-002 +1.0572462423E+002  +4.2659286057E-002 +4.3108487524E+001  +4.1081032942E-001 +1.4131352631E+002 
3888500.626 +1.6081415475E-001 +1.4469650930E+002  +2.9672269558E-002 +9.1844656969E+001  +2.9667161373E-002 +1.2308235098E+001  +2.9839284936E-001 +1.5019721290E+002 
4013645.807 +1.7274965987E-001 +1.5248327275E+002  +5.1384336013E-002 +5.6691779818E+001  +4.7244963336E-002 -1.7472685442E+001  +2.3665159581E-001 +7.0135373579E+001 
4138790.989 +1.7374146515E-001 +1.5695675812E+002  +3.0370563729E-002 +6.7135872348E+001  +3.0254333192E-002 -1.6430913614E+000  +2.6923687960E-001 +1.3341295240E+002 
4263936.170 +1.9693146434E-001 +1.4680091035E+002  +4.6899570274E-002 +5.9079378736E+001  +4.9180810463E-002 -1.9105868655E+000  +2.1454807197E-001 +7.7039657078E+001 
4389081.352 +1.9818101194E-001 +1.4851016279E+002  +1.1482163340E-001 +7.3830333160E+001  +1.1362853006E-001 +1.4371649121E+001  +1.2925088978E+000 +7.4086785544E+001 
4514226.533 +2.2719286213E-001 +1.3921097233E+002  +1.1172857389E-001 +7.9122410301E+001  +9.0423807947E-002 +2.4794770964E+001  +7.7558222468E-001 +7.3536871250E+001 
4639371.715 +2.5640376405E-001 +1.4336880653E+002  +2.6176659770E-001 +1.3742091804E+002  +2.2108011334E-001 +8.8346971493E+001  +3.1453287885E+000 +1.2697900254E+002 
4764516.896 +4.0119240715E-001 +1.3230836959E+002  +4.3007176334E-001 +1.7502094734E+002  +4.0161591610E-001 +1.2146224486E+002  +3.3396056186E+000 +1.3587834041E+002 
4889662.078 +3.4564896142E-001 +1.2778110263E+002  +1.9518060129E-001 -7.9171192274E+001  +1.6937240282E-001 -1.3075349591E+002  +2.1684892858E+000 -1.3027792757E+002 
5014807.259 +3.8842522395E-001 +1.2979955412E+002  +1.0547897038E-001 +1.0765695796E+002  +1.2363633636E-001 +5.9711483895E+001  +6.1202663411E-001 +7.9438032097E+001 
5139952.441 +3.6295106119E-001 +1.2730471703E+002  +1.7813174353E-001 +1.3299007079E+002  +1.9148198275E-001 +9.2391101693E+001  +1.8444215428E+000 +1.2762056903E+002 
5265097.622 +4.2545515823E-001 +1.2759060324E+002  +2.5091661351E-001 +1.2143409039E+002  +2.2105829667E-001 +8.7999988512E+001  +2.0479251269E+000 +1.0275360948E+002 
5390242.804 +5.4065365643E-001 +1.1628634550E+002  +2.1485212216E-001 +1.1608650482E+002  +2.3020528008E-001 +8.9601940456E+001  +1.4608761991E+000 +1.1040475108E+002 
5515387.985 +3.7976949974E-001 +1.2576231573E+002  +1.6600317407E-001 +9.4211357153E+001  +1.6187422386E-001 +5.6742951343E+001  +1.4125892146E+000 +8.4863784542E+001 
5640533.166 +3.5834988431E-001 +1.2174476596E+002  +1.2385805839E-001 +8.9908513917E+001  +1.2147414837E-001 +4.6836045172E+001  +9.4727898247E-001 +1.0755127965E+002 
5765678.348 +4.0050045333E-001 +1.1200801914E+002  +1.4609521128E-001 +6.6156908921E+001  +1.6908231560E-001 +4.1001969008E+001  +9.3611782114E-001 +7.8688232728E+001 
5890823.529 +5.9333913711E-001 +1.2233559899E+002  +2.2590069044E-001 +7.6552743710E+001  +1.9605194008E-001 +5.5091217020E+001  +1.7287167313E+000 +5.9724513411E+001 
6015968.711 +4.8586709230E-001 +1.0383770614E+002  +2.0926467242E-001 +6.3967201556E+001  +2.2082859648E-001 +4.2889217269E+001  +1.7292961075E+000 +6.8896037677E+001 
6141113.892 +5.6788044374E-001 +1.1489025839E+002  +1.4718118282E-001 +5.1566026394E+001  +1.6143366487E-001 +3.6762702053E+001  +1.0666441304E+000 +4.6511839954E+001 
6266259.074 +7.5277825733E-001 +1.0468400402E+002  +2.2061405515E-001 +4.6468550022E+001  +2.1467231005E-001 +3.3198270134E+001  +1.4658087574E+000 +2.6500532495E+001 
6391404.255 +9.0364504549E-001 +1.0125814317E+002  +2.0184158203E-001 +5.2761517315E+001  +2.0421649410E-001 +3.7832706122E+001  +1.1406522291E+000 +2.3180173582E+001 
6516549.437 +8.7795859430E-001 +9.0230287263E+001  +1.7623896254E-001 +3.6156309354E+001  +2.0373436167E-001 +2.5447955034E+001  +1.1276785699E+000 +1.6267802916E+001 
6641694.618 +1.1765691867E+000 +6.2373180958E+001  +2.5147354411E-001 +3.3574005364E+001  +2.5583565106E-001 +2.0053344978E+001  +1.1587910172E+000 +2.2882392473E+001 
6766839.800 +1.2872881258E+000 +4.6426908288E+001  +2.8826552670E-001 +1.2576403513E+001  +2.5811804370E-001 +8.9618606403E+000  +1.4124160244E+000 +6.0468975270E+000 
6891984.981 +1.5714505471E+000 +4.4337326465E+001  +2.3086205663E-001 +1.6697424590E+001  +2.4292094475E-001 +1.3605151306E+001  +1.1967501069E+000 -1.4134273654E+000 
7017130.163 +1.5705284771E+000 +2.3272472205E+001  +2.1740581663E-001 +1.3236867535E+000  +2.2098173533E-001 -2.5381073050E+000  +9.0970800809E-001 -7.4980462098E+000 
7142275.344 +1.2637108487E+000 +8.4708278599E+000  +1.8381397696E-001 -1.3449051796E+000  +1.8021709033E-001 -3.9536471076E+000  +1.0868252146E+000 -1.3680653632E+001 
7267420.526 +1.3317654935E+000 +6.9491370661E-001  +1.6617569984E-001 +4.3171949102E+000  +1.8503023647E-001 -3.8207217712E+000  +1.1858715351E+000 -7.9443117463E+000 
7392565.707 +1.1076934616E+000 -1.4567637375E+000  +1.3188036731E-001 +2.4570460104E+000  +1.4329238384E-001 +2.3754107690E+000  +1.3030374527E+000 -1.1682948194E+001 
7517710.889 +8.7721741659E-001 -1.1491662058E+000  +1.3044860603E-001 +5.0744045604E+000  +1.2029704603E-001 +6.7952727700E+000  +1.0445372464E+000 -7.4537968942E+000 
7642856.070 +1.0134447754E+000 +2.2437574362E+000  +1.2598788019E-001 +1.4768414465E+000  +1.1962227640E-001 +5.1924111427E+000  +9.3537832050E-001 -7.9100801669E+000 
7768001.252 +7.9249425375E-001 -7.3436541565E+000  +1.1588282705E-001 +1.8856885664E+000  +1.0793349521E-001 +4.4349144921E+000  +7.9429277526E-001 +6.5283808902E+000 
7893146.433 +7.9164158791E-001 +9.4331042793E+000  +1.0626499334E-001 -2.7462225128E+000  +1.0059593431E-001 +4.3829151279E+000  +7.7397400932E-001 -8.6629847003E+000 
8018291.615 +6.5794951144E-001 +1.0761534370E+001  +1.0548434349E-001 +2.6442638070E+000  +1.0543006810E-001 +6.2875232712E+000  +7.4362847446E-001 -1.6852801902E-002 
8143436.796 +6.9346869856E-001 +1.1109719357E+001  +9.9684625001E-002 -2.1401873140E+000  +8.9764004503E-002 +9.4542715584E+000  +6.9771146874E-001 -1.2131965490E+000 
8268581.977 +6.7716759726E-001 +1.1242057656E+001  +1.0060380790E-001 -7.7759944507E-001  +9.8351897767E-002 +9.0353172547E+000  +6.0638696790E-001 -1.0508763696E+000 
8393727.159 +6.5348276858E-001 +2.8649864498E+000  +1.0033272572E-001 -1.0972907454E+000  +9.7213867068E-002 +8.6604470878E+000  +6.0601901795E-001 +2.5646567346E+000 
8518872.340 +5.5475743678E-001 +7.6504695239E+000  +9.5246223424E-002 -4.9584480994E-001  +9.3537384418E-002 +1.2491550180E+001  +6.5802551216E-001 +1.7517105781E+000 
8644017.522 +5.6540461995E-001 +5.5941759507E+000  +9.5120658714E-002 -2.0975961150E+000  +8.8668774801E-002 +1.1967998307E+001  +5.7149438743E-001 +2.7808419787E+000 
8769162.703 +5.6049702361E-001 +1.1516308222E+001  +9.3710099885E-002 +4.4048914043E-001  +9.1992215296E-002 +1.2068658742E+001  +5.9610307540E-001 -1.3662175412E+000 
8894307.885 +5.4418529703E-001 +2.9538446533E+000  +9.3738064928E-002 -1.5681788067E+000  +9.0441865638E-002 +8.4462271821E+000  +5.3188107433E-001 +4.7073951258E+000 
9019453.066 +4.6490615436E-001 +4.4756567884E+000  +8.9925837823E-002 -5.0063147635E+000  +8.8283497611E-002 +1.3969051401E+001  +5.1205195116E-001 +7.3152794604E-001 
9144598.248 +4.5801441164E-001 +9.4346979930E+000  +8.8268029048E-002 -2.5117767090E+000  +9.3369486271E-002 +1.4008541505E+001  +5.4216797495E-001 +1.6219138713E+000 
9269743.429 +5.0376663038E-001 +1.1419908025E+001  +9.1375850169E-002 -1.9481863523E+000  +8.8575558622E-002 +1.4083776467E+001  +5.5220237302E-001 +6.1549169791E+000 
9394888.611 +4.7902696722E-001 +7.8119263591E+000  +9.2912751189E-002 -9.3975343172E-001  +9.0357586363E-002 +1.4443731377E+001  +5.5303428539E-001 -4.9259536722E+000 
9520033.792 +4.5216186158E-001 +9.2902717328E+000  +8.7259575658E-002 -3.3478163945E+000  +8.9214630015E-002 +1.3059750697E+001  +4.8469471578E-001 +3.4413335305E+000 
9645178.974 +4.5502222001E-001 +2.1530989599E+000  +9.2564439956E-002 -2.3589057577E+000  +8.9067708272E-002 +1.4222957309E+001  +4.9031899686E-001 -2.8933031020E+000 
9770324.155 +4.8124047673E-001 +5.8235056902E+000  +9.1087959849E-002 +1.3908123522E-001  +8.9928823576E-002 +1.3972140093E+001  +4.8887133291E-001 -7.6905080512E+000 
9895469.337 +4.5883753635E-001 +3.7394485943E+000  +9.0308716317E-002 -2.9962287006E+000  +9.3085301089E-002 +1.3107428252E+001  +4.9403900777E-001 -4.3038101689E+000 
10020614.518 +4.4931318605E-001 +1.6498116255E+000  +9.1588024835E-002 -1.6411779813E+000  +9.0249436743E-002 +1.4743317026E+001  +4.6825526023E-001 -4.3129174070E+000 
10145759.700 +4.8389689692E-001 +5.6239731794E+000  +9.2263861292E-002 +1.8824880874E-001  +9.0203393015E-002 +1.5219803660E+001  +4.8314093386E-001 -2.0505030371E+000 
10270904.881 +4.5583577465E-001 +2.6619431501E+000  +9.0773261956E-002 -2.0190703881E+000  +9.1482495782E-002 +1.4806342919E+001  +5.0587838350E-001 -1.5463281355E-001 
10396050.063 +4.1354522992E-001 +4.6158485579E-001  +9.2982090646E-002 -1.6246788395E+000  +9.1389938831E-002 +1.3453244183E+001  +4.6738617752E-001 +9.6117530385E-001 
10521195.244 +4.4541205431E-001 +7.4141382208E+000  +9.3718620830E-002 -1.0900506644E+000  +9.4740756580E-002 +1.4363483568E+001  +4.7403048427E-001 -1.7381677920E+000 
10646340.426 +4.7350994996E-001 +8.9645543273E+000  +9.3677157213E-002 -6.6278033168E-001  +9.4454138531E-002 +1.4746154666E+001  +4.9615978159E-001 +3.3730648745E+000 
10771485.607 +4.7218063453E-001 +6.6805826204E+000  +9.4593580558E-002 -8.5011259718E-001  +9.2418092699E-002 +1.5046303001E+001  +4.8856022511E-001 +4.7613777490E+000 
10896630.788 +4.9193290746E-001 +8.2503291058E+000  +9.4619741670E-002 +4.8647182263E-001  +9.2054033836E-002 +1.4510208148E+001  +4.9258696805E-001 +4.2212609358E+000 
11021775.970 +4.8501261056E-001 +1.0700297719E+001  +9.3056161219E-002 +7.3567114474E-001  +9.4860081291E-002 +1.3679343868E+001  +5.1952059994E-001 +5.1099595877E+000 
11146921.151 +4.7929606683E-001 +1.1450973617E+001  +9.7507908422E-002 +1.3197992422E+000  +9.4153375350E-002 +1.4690670568E+001  +5.1277779539E-001 +3.5748603984E+000 
11272066.333 +5.0208580797E-001 +5.5740501352E+000  +9.7815076529E-002 +2.1278209333E+000  +9.7157607503E-002 +1.5227356170E+001  +5.1601388972E-001 +7.3896868201E+000 
11397211.514 +5.1971270218E-001 +7.8814819444E+000  +9.9200412021E-002 +2.2397782945E+000  +9.7706606599E-002 +1.4155482256E+001  +5.4495917085E-001 +4.4781594348E+000 
11522356.696 +5.5148439752E-001 +7.6462963606E+000  +1.0031727697E-001 +2.8057782984E+000  +9.5220821849E-002 +1.3546109572E+001  +5.3037109690E-001 +4.3288741591E+000 
11647501.877 +5.7126668909E-001 +9.9246040539E+000  +1.0059392608E-001 +4.0695554205E+000  +9.8050636825E-002 +1.4405739387E+001  +5.8707621596E-001 +3.5308488720E+000 
11772647.059 +5.3202743586E-001 +6.4079439190E+000  +9.9317779085E-002 +2.5995395921E+000  +1.0131819047E-001 +1.2986125025E+001  +5.7099925312E-001 +2.8272762789E+000 
11897792.240 +5.5363716965E-001 +4.7279804580E+000  +1.0236231686E-001 +4.1376208332E+000  +1.0164061753E-001 +1.3801116104E+001  +5.7378280821E-001 +5.1846343337E+000 
12022937.422 +5.6152582894E-001 +8.0567473611E+000  +1.0402032055E-001 +4.3504806010E+000  +1.0048233428E-001 +1.1731484211E+001  +5.7200192822E-001 +1.5312380452E+000 
12148082.603 +6.0558710261E-001 +5.9956675859E+000  +1.0286289331E-001 +3.8324151390E+000  +1.0222968026E-001 +1.1549942762E+001  +5.7528014397E-001 +2.8023750194E+000 
12273227.785 +5.9681783060E-001 +4.0691808416E+000  +1.0474759460E-001 +3.8261088175E+000  +1.0558309821E-001 +1.2677277673E+001  +6.1021395231E-001 +4.0663449806E+000 
12398372.966 +6.0137947435E-001 +4.7732641360E+000  +1.0666386547E-001 +5.0226008024E+000  +1.0639585358E-001 +1.2500106514E+001  +6.3331341053E-001 -1.5300213095E-001 
12523518.148 +6.1126876692E-001 +4.8078085125E+000  +1.0768326960E-001 +4.3222815641E+000  +1.0806424605E-001 +1.1442869289E+001  +6.3355167584E-001 +2.2819779730E+000 
12648663.329 +6.3824669489E-001 +3.8782195982E+000  +1.0964309892E-001 +4.9465384274E+000  +1.0726046962E-001 +1.0666377117E+001  +6.4136962736E-001 -5.0609575701E-001 
12773808.511 +6.5408722620E-001 +3.3942697897E+000  +1.1112912619E-001 +4.2956273304E+000  +1.0993176477E-001 +1.1132363944E+001  +6.4533287652E-001 -7.6659263774E-001 
12898953.692 +6.5045104397E-001 +4.1818214797E-001  +1.1153231983E-001 +4.0473648794E+000  +1.1031759871E-001 +1.1510457794E+001  +6.5124074319E-001 -1.0815673010E+000 
13024098.874 +6.7656405617E-001 +1.1118945736E+000  +1.1430264848E-001 +5.2529918988E+000  +1.1048220451E-001 +1.0643734892E+001  +6.9225924552E-001 -9.5547607622E-001 
13149244.055 +6.9602329242E-001 +1.5314575521E+000  +1.1276938293E-001 +5.0154665311E+000  +1.1174745844E-001 +9.2813441256E+000  +6.8942010536E-001 +4.9060440345E-001 
13274389.237 +6.9579283356E-001 -6.1202886796E-002  +1.1540245559E-001 +4.5667752819E+000  +1.1244427888E-001 +9.3019239065E+000  +7.2569832973E-001 -1.5513393581E-001 
13399534.418 +7.4262850263E-001 -9.7982175838E-001  +1.1565105966E-001 +4.6854073595E+000  +1.1426379676E-001 +9.5915784436E+000  +7.2229205564E-001 -2.2351687556E+000 
13524679.599 +7.3471267113E-001 -1.3336710660E+000  +1.1596338450E-001 +5.1822759435E+000  +1.1554273907E-001 +8.4179506280E+000  +7.3102607170E-001 -2.3491690159E+000 
13649824.781 +7.6802641691E-001 -1.7749030679E+000  +1.1634068882E-001 +5.7156700448E+000  +1.1599710765E-001 +7.9000890661E+000  +7.8811881694E-001 -2.4315910428E+000 
13774969.962 +7.7436381779E-001 -2.8559362760E+000  +1.1829307992E-001 +5.1201892944E+000  +1.1577877313E-001 +7.3530279951E+000  +7.7533470524E-001 -2.9265431887E+000 
13900115.144 +7.7905930946E-001 -2.8932979577E+000  +1.1878544900E-001 +5.0855203374E+000  +1.1891660141E-001 +6.9376390731E+000  +8.0039556973E-001 -3.7138212042E+000 
14025260.325 +7.9563184808E-001 -4.3059588461E+000  +1.2083309308E-001 +4.9413697399E+000  +1.1875755504E-001 +6.5099837890E+000  +8.3467103252E-001 -4.0949218698E+000 
14150405.507 +8.0690347059E-001 -4.0234072257E+000  +1.2067580665E-001 +4.9211983348E+000  +1.1752632573E-001 +6.3142446135E+000  +8.2785949077E-001 -4.5545505595E+000 
14275550.688 +8.4911960493E-001 -4.9256705833E+000  +1.2140763736E-001 +4.8241090465E+000  +1.1950506890E-001 +5.7689149110E+000  +8.4369965510E-001 -5.0746154828E+000 
14400695.870 +8.6230621923E-001 -4.8285284044E+000  +1.2351813655E-001 +4.2228807653E+000  +1.2079968963E-001 +5.6178441103E+000  +8.7255710123E-001 -5.9909901450E+000 
