!  2-Port S-parameters saved by WinCal
! VAR NAME=S2_r8c9_formed(1)_9k-100M_3
! VAR DATE=30/08/2024 12:00:20
! VAR FILENAME=S2_r8c9_formed(1)_9k-100M_3.S2P
! VAR MeasName=S-Parameters (CALIBRATED_DATA) read from VNA (P5004A)
! VAR MeasDate=28/08/2024 16:04:05
! VAR PHYS_PORTS=1,2
! VAR ObjTypeName=DATASET
! VAR IndexType=Frequency
!
# Hz S MA R 50
9000.000 +1.0521912084E-001 -1.5573300560E+002  +1.2617626910E-002 -1.0309541319E+002  +9.5459041764E-003 -1.0073296453E+002  +2.2299599690E-001 -1.3913351659E+002 
134145.181 +1.1064877298E-001 +1.6978509878E+002  +9.0130276077E-005 +4.3350377103E+001  +5.9180866974E-004 +7.6510067473E+001  +2.3867840154E-001 -1.7099759553E+002 
259290.363 +1.1199520202E-001 +1.6965937060E+002  +6.1435252527E-004 +1.6160763602E+002  +9.0176487361E-004 +8.1376310558E+001  +2.4625155914E-001 -1.6778175171E+002 
384435.544 +1.1547057989E-001 +1.7007626218E+002  +3.8188564585E-004 -2.3310858273E+001  +1.4428402997E-004 +5.2474520360E+001  +2.4397983430E-001 -1.7020010313E+002 
509580.726 +1.1435529223E-001 +1.7067351044E+002  +1.8858981430E-004 -1.4716672927E+002  +1.1527123106E-003 -8.3344934878E+001  +2.4978399172E-001 -1.6076298594E+002 
634725.907 +1.1686059051E-001 +1.7223936900E+002  +4.4789307191E-004 -1.1181159829E+002  +2.1149882034E-003 +7.1995630542E+001  +2.4623975378E-001 -1.6299895746E+002 
759871.089 +1.1947478738E-001 +1.7088052598E+002  +1.2103967627E-003 -1.0977947285E+002  +2.2425501355E-004 +1.0090802988E+002  +2.5043071092E-001 -1.6598212931E+002 
885016.270 +1.2072402874E-001 +1.6914502057E+002  +2.7621599524E-004 +1.7063627036E+002  +5.2357101279E-004 -1.3900358043E+002  +2.4801665490E-001 -1.6742353839E+002 
1010161.452 +1.1917277460E-001 +1.6996298720E+002  +1.6287481173E-003 -4.5103596237E+000  +1.8892324639E-003 +9.0433874910E+001  +1.8646008917E-001 -1.6554505210E+002 
1135306.633 +1.1848545481E-001 +1.7021990525E+002  +1.1197264330E-003 +3.9198766310E+001  +1.0466576506E-003 +1.7074466038E+002  +1.8780603480E-001 -1.5846839259E+002 
1260451.815 +1.2048871675E-001 +1.7080228121E+002  +9.0789499129E-004 -1.3974609118E+002  +2.2762847278E-003 +7.4441923845E+001  +2.0502019674E-001 -1.5767455833E+002 
1385596.996 +1.2659409702E-001 +1.7235333540E+002  +2.3894973449E-005 -8.3637773456E+001  +2.3479527101E-003 +6.7439274340E+001  +2.5600112509E-001 -1.5651229480E+002 
1510742.178 +1.2718394910E-001 +1.7238871582E+002  +6.9958582196E-004 +1.6747066242E+002  +1.1781991864E-003 +1.0828617875E+002  +2.5959939439E-001 -1.5947409605E+002 
1635887.359 +1.2485324564E-001 +1.7081042733E+002  +7.7530892403E-004 -1.6834525489E+001  +1.6392068590E-003 +1.6938835279E+002  +2.4719584483E-001 -1.6022969741E+002 
1761032.541 +1.2980585078E-001 +1.7058741830E+002  +8.3301666393E-004 -1.0645026150E+002  +5.0451810687E-004 -6.0636806758E+001  +2.4966638512E-001 -1.5687901619E+002 
1886177.722 +1.2855365425E-001 +1.6891004877E+002  +6.0247969606E-004 +1.6506530122E+001  +2.5759929321E-003 -6.3483713912E+001  +2.1199055154E-001 -1.6400776426E+002 
2011322.904 +1.2935382993E-001 +1.6919866336E+002  +4.3490645211E-003 +2.6754674304E+001  +6.9408398095E-003 -4.1570896866E+001  +1.4928093563E-001 -1.3130525265E+002 
2136468.085 +1.3128865277E-001 +1.6760962293E+002  +2.1830707818E-003 +1.4098529008E+002  +5.1800292689E-003 -7.6530849254E+001  +1.3977390527E-001 +1.5845123593E+002 
2261613.267 +1.3706216564E-001 +1.6654647069E+002  +2.8996104851E-003 +6.6180242575E+001  +5.1011581494E-003 -1.0578073936E+002  +1.5909847897E-001 -1.7400375337E+002 
2386758.448 +1.3214139600E-001 +1.6401995629E+002  +4.3496570981E-003 +8.6905813151E+001  +1.6903500861E-002 +2.0428999868E+000  +1.9357071405E-001 +1.3887618954E+002 
2511903.630 +1.3355469540E-001 +1.6543639288E+002  +1.1211164501E-002 +6.6009557474E+001  +6.4413749227E-003 -1.9992739443E+001  +1.5522267277E-001 +1.6325924251E+002 
2637048.811 +1.0600656256E-001 +1.5928661521E+002  +9.0814905114E-003 +3.3148470212E+001  +1.6993725636E-002 -4.0183816269E+001  +5.8165352305E-002 -9.8271462110E+001 
2762193.992 +1.0292170813E-001 +1.5023969477E+002  +5.4838581469E-002 -3.8924258712E+000  +6.4071476727E-002 -1.3945556376E+002  +4.5477997028E-001 -5.4382260277E+001 
2887339.174 +1.0711037374E-001 +1.6766870917E+002  +1.3339982806E-001 +2.5108756073E+001  +1.1873039865E-001 -5.1984957921E+001  +1.4810971557E+000 +2.5752231891E+001 
3012484.355 +1.0686932822E-001 -1.6720274502E+002  +2.1905206090E-002 -2.5764066444E+001  +9.5847189957E-003 -1.2392130287E+002  +2.5707232942E-001 -1.0922549798E+002 
3137629.537 +1.2751756916E-001 +1.7152541287E+002  +3.4394304204E-002 -2.6301654071E+001  +2.9732549336E-002 -1.5906183797E+002  +5.8516016656E-001 -3.9753955505E+001 
3262774.718 +1.3867536685E-001 +1.6633843230E+002  +1.0125750382E-002 -2.1320859678E+001  +1.1377057061E-002 -6.9131426569E+001  +3.9394951197E-002 -1.3503184629E+002 
3387919.900 +1.3651466768E-001 +1.5874466952E+002  +1.3894667129E-002 +7.3997514325E+001  +8.9096326387E-003 -1.4647735320E+001  +2.2812351810E-001 +1.6058888700E+002 
3513065.081 +1.3061914243E-001 +1.5089990384E+002  +1.8721694598E-002 +4.3675395292E+001  +1.8779810649E-002 -2.3401741784E+001  +1.1209046689E-001 +1.4898976555E+002 
3638210.263 +1.4425613076E-001 +1.5861150783E+002  +3.6426095114E-002 +3.4635575107E+001  +3.6020382455E-002 -2.8949054591E+001  +4.0694657957E-001 +8.6097873418E+001 
3763355.444 +1.8956200328E-001 +1.4486266724E+002  +2.4909680260E-002 +8.7061440938E+001  +2.6944804082E-002 +2.7315830353E+001  +4.8212200600E-001 +1.1868885418E+002 
3888500.626 +1.7624489127E-001 +1.5003356587E+002  +6.5760129014E-003 +1.1539505033E+002  +1.3252837852E-002 +8.8753634239E+000  +3.2441039461E-001 +1.4721034773E+002 
4013645.807 +1.7006300383E-001 +1.5461879979E+002  +1.4378766154E-002 +6.1135303245E+001  +5.8952472796E-003 -1.3108428892E+001  +2.2796965747E-001 +1.5009867209E+002 
4138790.989 +1.5526917530E-001 +1.4701673994E+002  +2.3103755085E-002 +6.5000232050E+001  +2.2836917628E-002 -1.8291142974E+001  +1.6608537171E-001 +8.6835029776E+001 
4263936.170 +1.5984793748E-001 +1.3323226604E+002  +3.8174675059E-002 +5.8018322971E+001  +2.7168879307E-002 -6.5953494495E+000  +2.7996180760E-001 +7.9925039561E+001 
4389081.352 +1.7216112656E-001 +1.3567179346E+002  +2.9173360091E-002 +8.0195742188E+001  +2.7085223988E-002 +3.3607345390E+001  +4.7145169074E-001 +1.3809233221E+002 
4514226.533 +1.9777751441E-001 +1.3629744250E+002  +3.7810742921E-002 +1.1456240672E+002  +4.2216072424E-002 +4.7922924338E+001  +7.6556109696E-001 +1.2937519552E+002 
4639371.715 +3.0674372410E-001 +1.3622912164E+002  +6.3809828771E-002 +1.4432068164E+002  +5.4361890834E-002 +9.6065782236E+001  +1.1813801251E+000 +1.2472332369E+002 
4764516.896 +3.5192856933E-001 +1.2592934736E+002  +1.4885354852E-001 +1.5906990307E+002  +9.4761997758E-002 +8.8632955794E+001  +1.8089178937E+000 +1.1935620845E+002 
4889662.078 +4.7709758743E-001 +1.2806396545E+002  +3.5933842865E-001 +4.6662821128E-001  +5.6100415877E-001 -4.2604663115E+001  +6.3584471966E+000 -7.5452765607E+001 
5014807.259 +4.1676395412E-001 +1.2500978291E+002  +2.6675960993E-001 +1.4771969379E+002  +2.6764178439E-001 +1.1648043919E+002  +4.3033648078E+000 +1.3375389338E+002 
5139952.441 +4.4075428884E-001 +1.2981530774E+002  +4.2028411709E-001 +1.3032948234E+002  +4.8764813729E-001 +1.0352679333E+002  +7.0686327696E+000 +1.0023229753E+002 
5265097.622 +3.9300147389E-001 +1.2952087038E+002  +1.1294379709E-001 +9.6946061809E+001  +1.0839069777E-001 +8.3025707881E+001  +1.7935471498E+000 +8.4841500449E+001 
5390242.804 +3.7060025197E-001 +1.2911264519E+002  +9.0713864014E-002 +1.1272858235E+002  +7.9653303699E-002 +7.1878521601E+001  +1.8025570717E+000 +9.8504207012E+001 
5515387.985 +3.9861119717E-001 +1.3473384743E+002  +6.4016291845E-002 +9.4299961971E+001  +5.9665434238E-002 +5.3061600612E+001  +1.6592513162E+000 +7.2971131161E+001 
5640533.166 +4.5633207947E-001 +1.2656030511E+002  +6.9167187593E-002 +1.0346399612E+002  +9.4750155225E-002 +6.3009586955E+001  +1.1979671217E+000 +8.3738484768E+001 
5765678.348 +4.6681429313E-001 +1.2753661122E+002  +9.0853436710E-002 +9.9803193390E+001  +1.0038824045E-001 +7.8875793229E+001  +2.0809049860E+000 +1.0141665860E+002 
5890823.529 +5.5466414797E-001 +1.2408471303E+002  +8.3945428437E-002 +6.2558815945E+001  +1.1630766219E-001 +5.1568008266E+001  +1.7138744502E+000 +4.7529303854E+001 
6015968.711 +7.1753875478E-001 +1.1454112666E+002  +1.5582144243E-001 +8.6893931935E+001  +1.4798506248E-001 +6.8581694431E+001  +2.2811741440E+000 +6.5695054356E+001 
6141113.892 +7.4384521966E-001 +1.1134713446E+002  +1.0545285546E-001 +7.8013975699E+001  +9.8472264848E-002 +4.1105137656E+001  +1.2910279738E+000 +5.4264151574E+001 
6266259.074 +6.6621458831E-001 +1.0982633036E+002  +8.2940028729E-002 +4.4370789668E+001  +9.4311500904E-002 +3.7090206486E+001  +1.4920770040E+000 +2.5242130491E+001 
6391404.255 +1.0327438338E+000 +8.3531956458E+001  +1.4606603273E-001 +3.5563472950E+001  +1.7991599453E-001 +2.8969853941E+001  +1.5557495039E+000 +1.3577945943E+001 
6516549.437 +1.0286696327E+000 +7.3619465191E+001  +1.4150642781E-001 +2.5209030237E+001  +1.4827458034E-001 +9.1707661095E+000  +1.4029688337E+000 +8.1866259404E+000 
6641694.618 +1.5469726589E+000 +6.5752623989E+001  +1.6629689695E-001 +2.2209426356E+001  +1.9076129364E-001 +1.1145302046E+001  +1.6568727585E+000 +1.2124988954E+000 
6766839.800 +1.0961218878E+000 +4.0587524092E+001  +1.1325446267E-001 +1.3732091650E+001  +1.1798734096E-001 +2.4335142307E-001  +1.0312172491E+000 +7.8324594914E-001 
6891984.981 +2.0163653521E+000 +3.3931341301E+001  +1.7906611432E-001 +1.2966289062E+001  +1.5176263946E-001 +1.0913133252E+001  +1.2055975248E+000 -4.3174563475E+000 
7017130.163 +1.4998656406E+000 +2.6797907031E+001  +1.0638477380E-001 +3.4745319323E+000  +1.0683366867E-001 +5.1101141163E+000  +1.0377367171E+000 -9.1492909010E+000 
7142275.344 +1.2983252093E+000 +1.3638462057E+001  +9.5108250542E-002 +7.3705957964E+000  +8.2450175354E-002 +2.5669477978E+000  +1.2301151344E+000 -1.3952563802E+001 
7267420.526 +1.4146271827E+000 +3.2454194289E+000  +8.1081264721E-002 -1.6131819043E-001  +8.2108829309E-002 +5.7825112099E+000  +1.2553002634E+000 -1.0135429500E+001 
7392565.707 +1.2961312234E+000 -1.9820068205E+000  +7.2890120794E-002 +7.9170725689E+000  +8.4214633319E-002 +3.7094752032E+000  +1.2234023176E+000 -1.0886415903E+001 
7517710.889 +1.1873690882E+000 -7.8095252260E+000  +6.8326054741E-002 +1.4433938516E+000  +7.5292042136E-002 +4.8283288816E+000  +1.1570976494E+000 -6.7955483572E+000 
7642856.070 +1.0386585811E+000 -1.3875076603E+000  +6.4187587663E-002 +4.7686444546E+000  +6.9407306397E-002 +6.3764423848E+000  +1.0490654579E+000 +7.6084342066E-001 
7768001.252 +9.4168783999E-001 +6.6614097975E+000  +5.8533737964E-002 +2.9713780258E+000  +6.1385558446E-002 +1.1561810306E+001  +9.4098115760E-001 -1.8287918478E+000 
7893146.433 +8.6481940850E-001 +8.7990066740E+000  +6.1417869905E-002 -1.7262079273E+000  +6.3374895016E-002 +1.1846410124E+001  +8.2628215683E-001 -4.0494097662E-001 
8018291.615 +7.7790522481E-001 +1.2379599059E+001  +5.5264048161E-002 -1.2559488571E+000  +4.9524431404E-002 +5.9305693431E+000  +7.2226742724E-001 -2.3938282239E+000 
8143436.796 +6.7113857994E-001 +9.5256792642E+000  +4.7863652170E-002 -4.2849122268E-001  +5.2547881015E-002 +1.1060012243E+001  +7.6612240291E-001 +4.3662802270E+000 
8268581.977 +7.3217475963E-001 +3.5126013153E+000  +5.0162530429E-002 +4.1528553369E+000  +4.9733346218E-002 +1.6013425716E+001  +7.2279127331E-001 +1.5400576808E+000 
8393727.159 +7.0587253067E-001 +4.4464164688E+000  +5.0812850140E-002 -5.4022726202E+000  +5.2024834844E-002 +1.6349433031E+001  +7.0184353579E-001 -2.8925900595E+000 
8518872.340 +6.2857022332E-001 +5.7351285533E+000  +4.6413663825E-002 +4.4491211540E+000  +4.5322732705E-002 +8.6585061408E+000  +6.4086177125E-001 +2.0136363250E+000 
8644017.522 +7.0295834480E-001 +1.2048917695E+001  +4.8299412899E-002 +3.2687700736E+000  +4.7472381518E-002 +1.1643750683E+001  +6.4611365122E-001 +1.0360257074E+001 
8769162.703 +6.2928412164E-001 +1.0713550387E+001  +4.9177117972E-002 -2.4856074488E+000  +4.4800476175E-002 +9.7099949855E+000  +6.1138803422E-001 -1.2041257479E+000 
8894307.885 +5.4883603559E-001 +5.6182010757E+000  +4.9723057593E-002 -4.7767480786E-002  +4.6578206598E-002 +1.1793230069E+001  +5.5221607886E-001 +2.0303657156E+000 
9019453.066 +5.0232893120E-001 +1.0994698604E+001  +5.0408629094E-002 -6.5911468020E-001  +4.4993012876E-002 +1.3678674916E+001  +6.0800594702E-001 +2.1153161207E+000 
9144598.248 +5.4043640788E-001 +7.9048479802E+000  +4.7025190992E-002 -1.5838216959E+000  +4.4865093707E-002 +1.7625930186E+001  +5.7383978060E-001 +3.2620354516E+000 
9269743.429 +5.4304167908E-001 +9.7100258586E+000  +4.8267083284E-002 -4.3037145692E-001  +4.8757216571E-002 +1.6480684046E+001  +5.5465210233E-001 +4.3687868257E+000 
9394888.611 +4.8902555035E-001 +6.7002974013E+000  +4.3969199435E-002 +7.8476617299E-001  +4.8406820635E-002 +1.5301307934E+001  +5.6210505543E-001 -6.2714547146E-001 
9520033.792 +5.2206964823E-001 +1.7465770450E+000  +5.0153557718E-002 -1.3437020101E+000  +4.5548115831E-002 +1.7056892064E+001  +6.0939571386E-001 -4.3799371690E+000 
9645178.974 +5.1458904921E-001 +4.7487445045E+000  +4.5553434708E-002 +4.6170380960E-001  +4.9236846088E-002 +1.6772120101E+001  +5.4759151247E-001 -2.7927128110E+000 
9770324.155 +4.9394827962E-001 +2.3462113268E-001  +4.9250694000E-002 +2.0617396564E+000  +4.2961845530E-002 +1.9344475464E+001  +5.3518925060E-001 -3.9225294454E+000 
9895469.337 +4.7098067633E-001 +3.5796470698E+000  +4.7134693469E-002 +3.2677914717E+000  +4.7645029744E-002 +2.0412091118E+001  +5.2858848477E-001 -8.5171691763E+000 
10020614.518 +4.6670571657E-001 +4.5072006933E+000  +4.8282760588E-002 +2.9264158651E+000  +5.0673205549E-002 +1.4441707750E+001  +5.3079983810E-001 -4.7960958165E+000 
10145759.700 +5.3784260933E-001 +1.5635411937E+000  +4.9592652393E-002 +4.2862910753E+000  +4.7815738586E-002 +1.7079729131E+001  +5.5283972669E-001 -3.8763996805E+000 
10270904.881 +4.9949021922E-001 +3.6785428362E+000  +4.9791271748E-002 +1.9004478499E+000  +4.8846017207E-002 +1.5881963729E+001  +5.3666003279E-001 -3.9437823311E-001 
10396050.063 +5.2735966715E-001 +3.1940208981E+000  +4.8341026139E-002 +2.5297546880E+000  +4.8912945498E-002 +2.0240352861E+001  +5.2427832901E-001 +1.2483794883E+000 
10521195.244 +5.3158805959E-001 +7.9451037278E+000  +4.8311910756E-002 +4.0177491922E+000  +4.8775298099E-002 +1.8557176415E+001  +5.3066698725E-001 -1.8910265780E+000 
10646340.426 +5.0096301916E-001 +5.7852310456E+000  +4.9470909240E-002 +4.6921705169E+000  +5.0057641216E-002 +1.4387735082E+001  +5.8460066126E-001 +5.7539053545E-001 
10771485.607 +4.9782723018E-001 +6.0589728993E+000  +4.6903845372E-002 +2.3638642392E+000  +4.9448407752E-002 +1.4620909582E+001  +5.2336939134E-001 -5.4643579803E-001 
10896630.788 +5.1358263021E-001 +4.7354770544E+000  +4.9659237711E-002 +4.9813388117E+000  +5.1941082716E-002 +1.7497739818E+001  +5.6213135732E-001 +2.8494206923E+000 
11021775.970 +5.5570486136E-001 +7.8139317964E+000  +4.9877846945E-002 +2.3143885994E+000  +4.9325669969E-002 +1.5191721842E+001  +5.6928592164E-001 +3.4874262658E+000 
11146921.151 +5.5035675764E-001 +1.1673746172E+001  +5.1322487256E-002 +4.1276248230E+000  +5.0085321870E-002 +2.1368337574E+001  +5.7053893577E-001 +2.6275899253E+000 
11272066.333 +5.5078094845E-001 +8.8797067291E+000  +5.0431117393E-002 +5.0093984082E+000  +5.0350657751E-002 +1.9390410625E+001  +5.7287194626E-001 +2.8957400349E+000 
11397211.514 +5.6148324470E-001 +6.9064230959E+000  +5.1068419239E-002 +7.6253654173E+000  +5.1349278246E-002 +1.6826072440E+001  +6.0561295440E-001 +6.1502019653E-001 
11522356.696 +5.6704102762E-001 +6.3411464846E+000  +5.3559556367E-002 +4.9913977925E+000  +5.0880589606E-002 +1.8508549012E+001  +5.5735407901E-001 +2.9359498345E+000 
11647501.877 +5.9181709741E-001 +6.3300260513E+000  +5.2334736395E-002 +6.1934881743E+000  +5.2799668940E-002 +1.7208034797E+001  +5.9897344192E-001 +3.7810720886E+000 
11772647.059 +5.6248571760E-001 +6.4872948734E+000  +5.4933165349E-002 +4.4254595071E+000  +5.3091009843E-002 +1.7853776848E+001  +6.0837226240E-001 +2.4387978824E+000 
11897792.240 +6.1172974572E-001 +5.7252266198E+000  +5.1496078077E-002 +8.0381817710E+000  +5.0076548165E-002 +1.8933934998E+001  +6.3143151112E-001 +2.0068810990E+000 
12022937.422 +6.1134267650E-001 +5.5579010582E+000  +5.3202562042E-002 +7.0200593186E+000  +5.3364673043E-002 +1.6991574611E+001  +6.3781835372E-001 +4.3620326894E+000 
12148082.603 +6.2142319519E-001 +6.0857089293E+000  +5.4987497565E-002 +6.1898107347E+000  +5.3862612171E-002 +1.6274329649E+001  +6.4913135853E-001 +2.2205599739E+000 
12273227.785 +6.4221876589E-001 +5.0205914636E+000  +5.5354538209E-002 +8.1941445478E+000  +5.3374314240E-002 +1.3988435258E+001  +6.6891144517E-001 +6.0893604765E-001 
12398372.966 +6.3569094083E-001 +4.1063710352E+000  +5.5641371175E-002 +7.7374113011E+000  +5.4643983521E-002 +1.5055793265E+001  +6.7167553063E-001 +6.2687069117E-001 
12523518.148 +6.7761829262E-001 +4.7551223748E+000  +5.6480019367E-002 +8.9445513501E+000  +5.5639630381E-002 +1.7227530917E+001  +6.8714028437E-001 +1.7827422268E+000 
12648663.329 +7.0582506471E-001 +6.9235938451E-001  +5.8439097030E-002 +8.1870607315E+000  +5.7254279036E-002 +1.3824671606E+001  +6.8574984213E-001 +1.6395716271E+000 
12773808.511 +6.9752178188E-001 +1.0092863974E+000  +5.9057175612E-002 +8.9769281296E+000  +5.6231138179E-002 +1.3951687975E+001  +6.9847536858E-001 -5.3608127003E-002 
12898953.692 +7.2415481780E-001 +2.9001751977E+000  +5.9770149073E-002 +8.6189836945E+000  +5.7597296590E-002 +1.3146792703E+001  +7.1364223919E-001 +8.4411664059E-002 
13024098.874 +7.4627185061E-001 +1.5605949371E+000  +5.7670003661E-002 +8.8727425201E+000  +5.8318314170E-002 +1.3141560776E+001  +7.5616555830E-001 -4.0752786498E-001 
13149244.055 +7.3001886729E-001 -2.5114641800E+000  +5.9253649143E-002 +9.4082468422E+000  +6.0090028916E-002 +1.4247125650E+001  +7.5039649015E-001 -9.4160201867E-002 
13274389.237 +7.5500924676E-001 +1.4966429199E-001  +5.9873226554E-002 +9.0624919940E+000  +5.9508460694E-002 +1.3008982800E+001  +7.6404663796E-001 -5.3291988374E-001 
13399534.418 +7.7541924019E-001 -1.2626957389E+000  +6.0156249821E-002 +1.0468400099E+001  +6.0065730382E-002 +1.3707143491E+001  +7.8684582906E-001 -1.2163066868E+000 
13524679.599 +8.0626959698E-001 -2.6999022621E-001  +6.1338839268E-002 +7.9799222642E+000  +6.1662600769E-002 +1.2242213760E+001  +8.0624449375E-001 -1.7477958886E+000 
13649824.781 +8.0833588832E-001 -2.7630059724E+000  +6.0501099121E-002 +9.5005668760E+000  +6.1205074912E-002 +1.0044415327E+001  +8.0294009161E-001 -3.2308418221E+000 
13774969.962 +8.0814652569E-001 -1.6918907573E+000  +6.0463030193E-002 +7.7734400090E+000  +6.2871179969E-002 +1.1896165703E+001  +8.3888510670E-001 -2.9072864027E+000 
13900115.144 +8.4776766233E-001 -3.6080098308E+000  +6.1529658578E-002 +1.0088460693E+001  +6.3015772729E-002 +1.0486372255E+001  +8.4236961695E-001 -2.3896485071E+000 
14025260.325 +8.5626433250E-001 -4.8574731460E+000  +6.4825455112E-002 +8.0227479384E+000  +6.2778756740E-002 +8.4098408736E+000  +8.7761155592E-001 -3.8489320814E+000 
14150405.507 +8.8106170424E-001 -3.7644112582E+000  +6.2491842355E-002 +7.6921735935E+000  +6.1577724703E-002 +8.5770348218E+000  +8.8734763427E-001 -4.7813059230E+000 
14275550.688 +9.0777542057E-001 -4.9686843893E+000  +6.1971324228E-002 +8.1051371712E+000  +6.2186275214E-002 +1.0339700072E+001  +9.2152618542E-001 -3.6411859135E+000 
14400695.870 +9.0901512679E-001 -6.3124570838E+000  +6.3166912329E-002 +8.8019553574E+000  +6.3848354783E-002 +8.3833011533E+000  +9.2097838258E-001 -5.0381381640E+000 
