!  2-Port S-parameters saved by WinCal
! VAR MeasName=S-Parameters (CALIBRATED_DATA) read from VNA (P5004A)
! VAR MeasDate=28/08/2024 16:35:02
! VAR NAME=S2_r8c9_RESET4_9k-100M_3
! VAR FILENAME=S2_r8c9_RESET4_9k-100M_3.S2P
! VAR DATE=28/08/2024 16:35:02
! VAR PHYS_PORTS=1,2
! VAR ObjTypeName=DATASET
! VAR IndexType=Frequency
!
# Hz S MA R 50
9000.000 +8.5972513797E-002 -1.6522035809E+002  +6.8300714519E-003 +1.2199654450E+002  +3.9387259417E-003 +3.5175387314E+001  +2.6786733684E-001 -1.5087081174E+002 
134145.181 +1.1137925044E-001 +1.6986724971E+002  +1.8077704356E-004 -5.0705421472E+001  +3.9383449637E-004 +7.4597776559E+001  +2.3826734552E-001 -1.7165356684E+002 
259290.363 +1.1197508219E-001 +1.6978785944E+002  +4.2926441931E-004 -1.4712573623E+001  +1.9141990848E-004 -9.9795070563E+001  +2.3783421989E-001 -1.6869391813E+002 
384435.544 +1.1454773551E-001 +1.6981291358E+002  +4.1196867998E-004 -8.7737973186E+001  +2.2525091204E-004 +1.2609020642E+002  +2.4187498111E-001 -1.6883853494E+002 
509580.726 +1.1448718083E-001 +1.7230759389E+002  +1.2828177437E-003 -9.0229647628E+001  +1.4456879080E-003 -3.0129001172E+001  +2.4557595044E-001 -1.6478647293E+002 
634725.907 +1.1706912335E-001 +1.7189048280E+002  +2.6778595495E-004 +1.5385150025E+002  +7.6407113189E-004 +1.5086176044E+002  +2.4092295948E-001 -1.6720886065E+002 
759871.089 +1.1980038488E-001 +1.7040296928E+002  +3.8699290402E-004 -3.1052584437E+001  +8.0393592201E-004 +1.1882744831E+002  +2.5060461835E-001 -1.6595100697E+002 
885016.270 +1.2178233923E-001 +1.6920264146E+002  +3.3000515134E-004 -7.8383108657E+001  +5.4173798931E-004 -1.7720321252E+002  +2.4454131300E-001 -1.6621177911E+002 
1010161.452 +1.1324750088E-001 +1.7022521418E+002  +9.9181719827E-004 +1.2904542250E+002  +1.4357350475E-003 -1.1900394091E+002  +2.1378471523E-001 -1.6389201207E+002 
1135306.633 +1.1773075795E-001 +1.6922495473E+002  +1.4544377519E-003 -1.2351363672E+002  +3.5418835641E-003 +3.0715322247E+001  +2.0605028773E-001 -1.5998698892E+002 
1260451.815 +1.2082095250E-001 +1.7245471606E+002  +2.0384799519E-004 +4.3204387312E+001  +1.9320241181E-003 +7.5698083869E+001  +2.1246514206E-001 -1.5695574424E+002 
1385596.996 +1.2741045009E-001 +1.7198254349E+002  +1.0106322248E-003 +1.0569499641E+002  +6.3437030310E-004 +5.6219660539E+001  +2.8168817630E-001 -1.5818283642E+002 
1510742.178 +1.2882811966E-001 +1.7359885550E+002  +6.9982040697E-004 -5.8203360276E+001  +2.0623673218E-003 -1.7071835954E+002  +2.8059467912E-001 -1.5463799184E+002 
1635887.359 +1.3040580435E-001 +1.7116414942E+002  +3.2532798661E-004 +1.3591870204E+002  +7.3147486321E-004 -1.5027409043E+002  +2.4844700218E-001 -1.5561458567E+002 
1761032.541 +1.2835499565E-001 +1.7112388739E+002  +1.2358762911E-003 +6.7684602308E+000  +1.3286534202E-003 +4.8863085115E+001  +2.2866093449E-001 -1.6200203963E+002 
1886177.722 +1.3042025761E-001 +1.6843669407E+002  +8.3080071920E-004 -1.3960855073E+002  +5.2299780698E-004 -8.2654113321E+001  +1.9600007282E-001 -1.7852180629E+002 
2011322.904 +1.3357648088E-001 +1.6853668220E+002  +1.4069274773E-003 -2.3019807850E+001  +4.9896032315E-003 -2.3259774865E+001  +1.5563935222E-001 -1.5539583307E+002 
2136468.085 +1.2982336649E-001 +1.6604661133E+002  +4.0896812399E-004 +1.1350196093E+002  +1.3333564002E-003 -8.1622647599E+001  +2.1801694174E-001 -1.7068140780E+002 
2261613.267 +1.2647822884E-001 +1.6293816747E+002  +5.9871779793E-003 +1.0447465778E+002  +1.9469052050E-003 -1.1752126046E+002  +1.8150611873E-001 -1.5763411042E+002 
2386758.448 +1.3315831544E-001 +1.6132511673E+002  +7.1823766043E-003 -1.4849906258E+002  +5.2878889494E-003 -1.1561991514E+002  +1.9045063426E-001 -1.7801354379E+002 
2511903.630 +1.3022707439E-001 +1.6170291297E+002  +1.1365003184E-003 +5.4034734086E+001  +8.0235558714E-003 +1.2874784579E+002  +5.8186830448E-002 -1.7923991967E+002 
2637048.811 +1.2211762709E-001 +1.6053248579E+002  +7.2434871193E-003 +4.9006112194E+001  +2.7379155885E-003 -4.4444172228E+001  +1.4083563458E-001 +7.6620718266E+001 
2762193.992 +1.2570654234E-001 +1.7165272875E+002  +1.8460356212E-003 +7.3222120640E+001  +8.3925881105E-004 -1.3375917755E+002  +3.9784724225E-001 +1.4137034922E+002 
2887339.174 +1.2595207349E-001 +1.6611144347E+002  +5.6682202505E-003 -4.2739000185E+001  +1.3768666226E-002 +1.5442466274E+002  +1.7177740165E-001 +2.8806923239E+001 
3012484.355 +1.2465951769E-001 +1.7618615330E+002  +7.8073059202E-003 -1.7957199136E+002  +4.4204543441E-003 +9.1601793153E+001  +1.9352596815E-001 -9.9327341901E+001 
3137629.537 +1.2719416588E-001 +1.6252433543E+002  +5.4956722345E-003 -6.1165118993E+001  +3.0661964863E-003 +1.6582366268E+002  +4.4496860299E-001 -1.0875642267E+002 
3262774.718 +1.2142802301E-001 +1.7323450907E+002  +1.8560416094E-003 +8.0918267166E+001  +1.8260541073E-002 -9.7344301325E+001  +2.3041140720E-001 -8.8813599149E+001 
3387919.900 +1.3881729090E-001 +1.5548203779E+002  +2.5852158542E-002 +4.0346060946E+001  +1.4789765881E-002 +2.6008543132E+001  +8.6433069530E-001 -7.5706432900E+001 
3513065.081 +1.3023812490E-001 +1.6488368117E+002  +7.8023624777E-003 +4.8644683343E+001  +1.2298146857E-002 +1.7087322162E+002  +3.5631696445E-001 -7.1457844582E+001 
3638210.263 +1.6254172992E-001 +1.4628309637E+002  +1.0295236004E-002 -1.2424298911E+002  +1.8201591182E-002 -8.7305753917E+001  +9.4657688321E-001 +1.3473997818E+002 
3763355.444 +1.8479329928E-001 +1.4717938255E+002  +3.2269214898E-002 +1.3483110629E+002  +2.0252015515E-002 -1.5414027438E+002  +1.0713210896E+000 -2.6676695787E+001 
3888500.626 +1.7796996163E-001 +1.4854549509E+002  +4.6688299063E-003 -1.2744487910E+001  +2.8989505176E-004 -9.2184057950E+000  +5.0921368994E-001 +1.3456862344E+002 
4013645.807 +1.8452349556E-001 +1.4742130718E+002  +1.9609436368E-002 -1.1545306655E+002  +1.2358500079E-002 +9.8678712511E+001  +6.3594333801E-001 +1.1389307246E+002 
4138790.989 +1.9474581145E-001 +1.5213875238E+002  +2.2801087900E-003 +1.7327223043E+002  +3.5404321481E-003 +1.1209101153E+002  +3.4312892884E-001 +1.5459249979E+002 
4263936.170 +2.0802440950E-001 +1.4112751927E+002  +5.7926305802E-003 +7.3672973979E+001  +9.1753353825E-003 +1.5897066904E+002  +3.0652684026E-001 +1.3572356381E+002 
4389081.352 +1.6853883598E-001 +1.3029326292E+002  +8.9397005347E-003 +2.2211407254E+001  +1.4259117139E-002 +1.3798245359E+002  +4.6211786754E-001 +1.1254217485E+002 
4514226.533 +2.5470757330E-001 +1.4434282180E+002  +4.7923293579E-002 -1.1612387360E+002  +5.0451899169E-002 -1.7868503803E+002  +4.1793394628E+000 +1.1743789563E+002 
4639371.715 +2.6369186633E-001 +1.2323038570E+002  +2.0399938444E-002 +1.2165234852E+002  +5.7595360094E-002 -1.8954133171E+001  +2.8727038273E+000 +1.3113498536E+002 
4764516.896 +3.3036021690E-001 +1.2424329729E+002  +4.4494080854E-001 +9.1564742076E+000  +3.2813285464E-001 +7.9082034318E+001  +1.7443151097E+001 +4.7218519898E+001 
4889662.078 +4.1641457976E-001 +1.3201222883E+002  +2.5165154939E-002 -2.1560746838E+000  +1.3173976696E-002 +7.2921942751E+001  +2.1336859753E+000 -1.4403860733E+002 
5014807.259 +3.9923782114E-001 +1.3084897529E+002  +1.8797660383E-002 -1.2122708366E+002  +1.1670830929E-002 -1.2068443841E+002  +4.9237259431E+000 +8.7002698782E+001 
5139952.441 +3.9287342132E-001 +1.3004843340E+002  +1.0932080927E-002 +1.3154652248E+002  +1.2488284177E-002 +1.1719446831E+001  +1.7347930197E+000 +9.0075406826E+001 
5265097.622 +3.9259201342E-001 +1.3238917783E+002  +1.6943252111E-002 +1.5238711596E+002  +8.0619620980E-003 +5.9881201609E+001  +2.9076980779E+000 +1.4911024794E+002 
5390242.804 +3.6806206206E-001 +1.3277094570E+002  +1.5280137897E-002 +1.4014029832E+001  +6.4630224136E-003 +3.9779445554E+001  +1.6258562579E+000 +1.0287534580E+002 
5515387.985 +5.1130534250E-001 +1.3077427183E+002  +5.8732778560E-003 -1.6421170848E+002  +1.6941016316E-002 +1.5346759111E+002  +1.8437885546E+000 +1.1381493979E+002 
5640533.166 +5.1018787551E-001 +1.2017832862E+002  +8.3182058472E-003 +1.7755673308E+002  +9.5217251677E-003 -1.1406734396E+002  +1.4758454249E+000 +1.2204803885E+002 
5765678.348 +5.1863990413E-001 +1.2277956116E+002  +3.0507230887E-002 +1.1988270810E+002  +1.3956347046E-002 -1.0697400754E+002  +1.8866628609E+000 +5.7000173371E+001 
5890823.529 +5.3588071110E-001 +1.2202922610E+002  +8.2953177746E-003 -3.3543094891E-001  +3.3471562171E-002 -1.0892505460E+002  +1.9168819200E+000 +5.4839417967E+001 
6015968.711 +5.1602223328E-001 +1.0525389106E+002  +2.8575966564E-002 +1.2645987706E+002  +1.5012545766E-002 +1.0986987098E+002  +2.4335900561E+000 +2.9324844629E+001 
6141113.892 +9.2419903635E-001 +1.1276996304E+002  +1.9476457030E-002 -9.2151803751E+001  +4.6588050533E-002 -1.1778624985E+002  +1.5443573157E+000 +2.9878188798E+001 
6266259.074 +8.0178644476E-001 +1.0223278494E+002  +1.6811081924E-002 +1.0162730063E+002  +1.2736406504E-002 +8.6799035984E+001  +1.7431584660E+000 +1.8001806694E+001 
6391404.255 +9.5628617045E-001 +8.8207635609E+001  +1.7910723632E-002 -1.3001510928E+002  +1.3531725937E-002 +1.6806683403E+002  +1.3448994780E+000 +1.6759612475E+001 
6516549.437 +1.1786775570E+000 +9.2656303973E+001  +7.5117838116E-003 -1.6830989891E+002  +3.4384004857E-002 +1.6684734915E+002  +1.6270274023E+000 +8.1849762610E+000 
6641694.618 +1.8513044434E+000 +8.0959881559E+001  +1.2412198510E-002 -1.5439322527E+002  +1.2591126614E-002 -5.1464195978E+001  +1.6289559451E+000 -5.9786364497E+000 
6766839.800 +2.3600905372E+000 +5.0632706427E+001  +1.5677210052E-002 +1.7665131348E+002  +2.9748283245E-002 +8.7517073621E+001  +1.2452084549E+000 -7.4309478348E+000 
6891984.981 +2.2834053271E+000 +3.8150661488E+001  +4.1939895218E-002 +1.5337750509E+002  +2.3577593971E-002 +1.3974981037E+001  +1.3728758054E+000 -8.5041716130E+000 
7017130.163 +1.6221126540E+000 +2.2058795524E+001  +2.4847635368E-002 +8.0354132170E+001  +1.1770361248E-002 +2.2364212396E+001  +1.4125991552E+000 -8.2974503857E+000 
7142275.344 +1.4650570555E+000 +5.9401417597E+000  +2.9282591986E-002 +1.2142148301E+002  +8.1924881403E-003 +6.9580746668E+001  +1.1901841939E+000 -9.4250989600E+000 
7267420.526 +1.3840909337E+000 +6.7946896161E+000  +1.0075303159E-002 +8.9954785120E+000  +5.7409566105E-003 +1.9268369592E+001  +1.2886949341E+000 -1.2836223683E+001 
7392565.707 +1.3881605703E+000 -4.0161818224E+000  +9.5906235392E-003 +1.0232338732E+002  +2.2671101300E-003 +1.8674227789E+001  +1.2814489096E+000 -3.1014195393E+000 
7517710.889 +1.1297225880E+000 -1.2044606058E-001  +1.1991113995E-002 +2.1028301778E+001  +1.0060391758E-002 +1.1385647202E+002  +1.1726804278E+000 +3.6923228866E+000 
7642856.070 +1.0896498802E+000 -7.9762106912E-001  +7.1023366587E-003 +3.5479290695E+001  +5.5735646360E-003 +1.3762724250E+002  +1.1149002037E+000 -2.2745770375E+000 
7768001.252 +9.1807019342E-001 +3.3478595515E-001  +5.6322991176E-003 +3.0404763798E+001  +3.6937873831E-003 -9.0848840703E+001  +9.0341036102E-001 -2.7916091809E+000 
7893146.433 +9.5341450215E-001 +7.7858356676E+000  +3.9934141288E-003 -7.3175192941E+001  +3.7301519665E-003 +1.1375881626E+002  +9.6867720311E-001 +4.2801250518E+000 
8018291.615 +7.9247415973E-001 +6.6553230689E+000  +4.8292596167E-003 +4.4004227799E+000  +6.1731319797E-004 +1.2027223980E+002  +9.0285847248E-001 -2.1529565420E+000 
8143436.796 +7.6565770963E-001 +8.6359484557E+000  +6.1498220936E-003 +9.9057797491E+001  +4.3969751633E-003 +6.0859313807E+001  +7.0973599102E-001 -3.6608635938E-003 
8268581.977 +7.4770475173E-001 +4.0038341921E+000  +2.8840536651E-003 +7.3257397771E+001  +1.7775701062E-003 +1.0489565365E+002  +8.2035960452E-001 +4.0272667625E+000 
8393727.159 +7.2378221241E-001 +6.3908097551E+000  +5.4068082380E-003 +8.6941937236E+001  +3.6141775437E-003 +1.0104458207E+002  +7.9751315315E-001 +7.0862803776E+000 
8518872.340 +7.4418954969E-001 +7.8064435809E+000  +6.9327200549E-003 +7.9223248074E+001  +5.8414017088E-003 +1.1647744254E+002  +7.3649811273E-001 +9.8689078360E-001 
8644017.522 +6.6831871917E-001 +4.7442026836E+000  +2.0343083741E-003 +1.0322768949E+002  +4.4410816201E-003 +1.1498846116E+002  +6.7690811077E-001 +2.0766574298E+000 
8769162.703 +6.3085059706E-001 +5.2678624497E+000  +4.1838638948E-003 +9.7977886210E+001  +2.0245242263E-003 -2.7919476022E+000  +6.8089917281E-001 +3.9808428470E+000 
8894307.885 +6.5977712211E-001 +9.1782748319E+000  +3.7590884540E-003 +6.9057280176E+001  +3.2172714223E-003 +9.0667794650E+001  +6.4525841246E-001 +6.5192608542E-001 
9019453.066 +6.0545558809E-001 +8.4336046842E+000  +4.4774282333E-003 +1.3002778015E+002  +4.7328089257E-003 +1.1794702879E+002  +6.3358593938E-001 -2.8466854879E+000 
9144598.248 +5.7240513522E-001 +5.1767747825E+000  +4.8847352366E-003 +1.7299793851E+002  +3.7377345134E-003 +6.3726386570E+001  +6.4958242041E-001 +2.7630178494E+000 
9269743.429 +5.4661067713E-001 +5.4868657589E+000  +3.8540580399E-003 +5.3755043441E+001  +6.5696496313E-003 +1.0971747363E+002  +6.4510223988E-001 +1.1970400409E-001 
9394888.611 +5.6104176403E-001 +3.4477867178E+000  +6.6792517017E-003 -3.8128758101E+000  +6.0622029172E-003 +7.3057689754E+001  +5.9945790800E-001 -1.7526132937E+000 
9520033.792 +5.3815660732E-001 +3.1793183004E+000  +4.7589693929E-003 +1.0514971639E+002  +2.7148869902E-003 +1.0015367012E+002  +5.9836209091E-001 -8.9955165305E+000 
9645178.974 +5.4916998622E-001 +4.1080828173E+000  +2.0524319016E-003 +6.4124073680E+001  +4.5794597186E-003 +1.1032591412E+002  +6.0867432195E-001 -2.8177481448E+000 
9770324.155 +5.5440775888E-001 +4.0862241822E+000  +4.8830587050E-003 +9.0222010124E+001  +3.6449108984E-003 +1.0430608008E+002  +6.2475462199E-001 -6.7938665964E+000 
9895469.337 +5.1023475230E-001 +6.0940542005E+000  +5.2266663061E-003 +1.0336287771E+002  +5.1049056042E-003 +9.2182487359E+001  +5.8998956757E-001 -3.6313192615E+000 
10020614.518 +5.4661799385E-001 +5.7121985937E+000  +3.8518466834E-003 +1.5586682497E+002  +1.8006834811E-003 +1.0607763731E+002  +5.8349511407E-001 -1.1440458743E+001 
10145759.700 +5.5012950654E-001 +2.7653002138E+000  +4.2023555850E-003 +9.2130104690E+001  +2.9799714509E-003 +9.3403598141E+001  +6.1838577645E-001 -5.0202060670E+000 
10270904.881 +5.3830376303E-001 +5.0723361102E+000  +4.2182444539E-003 +1.3177939985E+002  +2.5522680349E-003 +1.3520895803E+002  +5.8802056914E-001 +1.5349782604E+000 
10396050.063 +5.3356359724E-001 +4.8621528689E+000  +3.0574124085E-003 +9.2855639753E+001  +2.0031189110E-003 +8.6031925455E+001  +6.2915634037E-001 -2.0427353257E+000 
10521195.244 +5.5971325378E-001 +6.1362966046E+000  +1.8374359831E-003 +9.9034241976E+001  +4.3720140864E-003 +1.1256807027E+002  +6.2287382299E-001 -1.0541612832E+000 
10646340.426 +5.6132964648E-001 +4.4011795901E+000  +1.5364827966E-003 +6.4196855380E+001  +8.3198431502E-003 +1.0057587437E+002  +5.9975135645E-001 +8.5260740296E-001 
10771485.607 +5.5592929031E-001 +5.9718307176E+000  +7.2062496538E-003 +8.9773149591E+001  +4.5973195582E-003 +9.4475110077E+001  +6.4242481446E-001 +2.0538296513E+000 
10896630.788 +5.7888530658E-001 +7.7106439105E+000  +4.5835142919E-003 +1.0645521496E+002  +5.0991872704E-003 +1.1783952412E+002  +5.7191682822E-001 -7.0587486311E-001 
11021775.970 +5.8890504383E-001 +8.3859262701E+000  +4.7596556834E-003 +7.0121736410E+001  +4.4747885317E-003 +8.3296203173E+001  +5.6301279660E-001 +4.7664358981E+000 
11146921.151 +6.1986658326E-001 +8.4444512555E+000  +4.2969757580E-003 +7.1046097677E+001  +5.1738855964E-003 +1.1425139820E+002  +6.1603455523E-001 +1.9998067870E+000 
11272066.333 +6.3420085117E-001 +5.6659211276E+000  +5.1492000155E-003 +1.0408429306E+002  +5.0564280590E-003 +6.6895393358E+001  +6.3716867949E-001 -2.9590765150E-001 
11397211.514 +6.4045381878E-001 +7.4600967645E+000  +5.5314906072E-003 +1.0759247881E+002  +5.9250500310E-003 +1.1087682770E+002  +6.4040878323E-001 -2.0156235706E-001 
11522356.696 +6.2605640541E-001 +2.6701160088E+000  +5.0904127186E-003 +9.8424425052E+001  +4.2824645276E-003 +9.7359168212E+001  +6.6173752217E-001 +5.1686143061E+000 
11647501.877 +6.2224140615E-001 +5.6121926683E+000  +6.0263969075E-003 +1.0536518954E+002  +6.9786660554E-003 +1.1102477435E+002  +6.4883653637E-001 +1.6034948765E+000 
11772647.059 +6.4246018936E-001 +4.9786803913E+000  +2.6863513914E-003 +7.6093257553E+001  +3.7927949283E-003 +7.9858166319E+001  +6.4074006973E-001 +3.0174936234E+000 
11897792.240 +6.3202821973E-001 +6.2115311004E+000  +5.4747552547E-003 +8.1643286493E+001  +5.0917568331E-003 +1.0742323783E+002  +6.7224361780E-001 +1.5321737813E+000 
12022937.422 +6.7980613167E-001 +4.6177928215E+000  +6.3508154926E-003 +9.6435090448E+001  +4.9694769684E-003 +9.5342611329E+001  +6.4559524989E-001 +2.8548929892E+000 
12148082.603 +6.8674953433E-001 +6.0679307391E+000  +4.2832097140E-003 +9.4209689352E+001  +4.3700158621E-003 +9.7324162408E+001  +6.8082751097E-001 +8.1487935177E-001 
12273227.785 +7.1178069540E-001 +4.0160006187E+000  +7.1194822869E-003 +6.9690998987E+001  +5.7009160676E-003 +1.2052361479E+002  +7.3416458691E-001 +1.1767819090E+000 
12398372.966 +7.1080471129E-001 +1.9825210170E+000  +5.5696744634E-003 +9.8653375907E+001  +4.9136100140E-003 +9.1846831655E+001  +7.4006708886E-001 -9.7383743381E-001 
12523518.148 +7.2861730366E-001 +3.3458467717E+000  +4.5305103602E-003 +8.4317067601E+001  +7.2374137177E-003 +9.6582967102E+001  +7.5553603908E-001 -1.8152731932E+000 
12648663.329 +7.4484682584E-001 +3.3963003405E+000  +5.7779936048E-003 +8.3509044324E+001  +3.7752084647E-003 +1.0739488762E+002  +7.4971780484E-001 +1.5077413521E-001 
12773808.511 +7.4187212179E-001 +1.1606912683E+000  +7.0350628779E-003 +9.3043949705E+001  +5.4190846207E-003 +1.0140090825E+002  +7.7330797215E-001 -4.4329974731E-002 
12898953.692 +7.7313358209E-001 +2.8019588819E-001  +5.5486417815E-003 +8.6944779424E+001  +6.4022474298E-003 +1.0543901731E+002  +7.8579434666E-001 -1.2857831544E+000 
13024098.874 +7.7986591413E-001 +2.1040127926E+000  +4.9522476397E-003 +9.8557431916E+001  +6.7674004640E-003 +9.7247147653E+001  +7.8108187983E-001 -1.2545122631E-001 
13149244.055 +8.1934836452E-001 -3.2525332018E-001  +5.0518231443E-003 +9.5658260386E+001  +7.3008092814E-003 +1.0759910062E+002  +8.2662614704E-001 -1.8927274660E+000 
13274389.237 +8.1191262563E-001 -5.6080616952E-001  +6.7856638753E-003 +9.4346924215E+001  +6.5883173611E-003 +9.7770985453E+001  +8.3724310909E-001 -5.3984211137E-001 
13399534.418 +8.2448982334E-001 -2.7717235677E-001  +4.3441749545E-003 +1.0396309512E+002  +7.0400847135E-003 +9.0703251610E+001  +8.3878642830E-001 -3.4188996038E+000 
13524679.599 +8.4000092072E-001 -2.2096439265E+000  +6.7369862861E-003 +8.4975141731E+001  +8.0908334577E-003 +9.7512964250E+001  +8.5954526806E-001 -2.9553675146E+000 
13649824.781 +8.7615441276E-001 -2.3583038649E+000  +7.8242625233E-003 +9.1106964646E+001  +6.1862733593E-003 +7.7418816367E+001  +8.8058960068E-001 -2.2376023406E+000 
13774969.962 +8.8516322214E-001 -3.3363014483E+000  +7.2508422554E-003 +9.4718273623E+001  +5.6778995488E-003 +8.2711036728E+001  +9.0165631871E-001 -1.9820869779E+000 
13900115.144 +8.9297089567E-001 -4.2240700097E+000  +8.0826014825E-003 +9.1953582779E+001  +7.1600673018E-003 +9.1509710197E+001  +9.1300607735E-001 -4.1592061647E+000 
14025260.325 +9.3532770437E-001 -2.8616290319E+000  +7.4429754918E-003 +9.6134839853E+001  +6.4089318280E-003 +8.3558948884E+001  +9.4078922260E-001 -2.8784349326E+000 
14150405.507 +9.4475436479E-001 -3.3231073577E+000  +7.6831951026E-003 +8.6712293589E+001  +7.2119698019E-003 +7.6472422517E+001  +9.4315421991E-001 -3.9950559705E+000 
14275550.688 +9.5897639896E-001 -5.0142340698E+000  +8.6215797707E-003 +9.0266032968E+001  +6.5389169076E-003 +8.8605456718E+001  +9.7217889981E-001 -4.7712554022E+000 
14400695.870 +9.7871502209E-001 -5.2743407722E+000  +7.0534163980E-003 +8.8245468388E+001  +8.0459432476E-003 +8.0281861305E+001  +9.8028378226E-001 -5.0651747906E+000 
