!  2-Port S-parameters saved by WinCal
! VAR MeasName=S-Parameters (CALIBRATED_DATA) read from VNA (P5004A)
! VAR MeasDate=28/08/2024 10:45:40
! VAR NAME=S2_r5c9_RESET1_9k-100M_3
! VAR FILENAME=S2_r5c9_RESET1_9k-100M_3.S2P
! VAR DATE=28/08/2024 10:45:40
! VAR PHYS_PORTS=1,2
! VAR ObjTypeName=DATASET
! VAR IndexType=Frequency
!
# Hz S MA R 50
9000.000 +8.6511792945E-002 -1.6988287097E+002  +2.4216027354E-003 -1.1749865912E+002  +3.4073940569E-003 -1.0329103405E+002  +2.0373198508E-001 -1.4647547492E+002 
134145.181 +1.1160620875E-001 +1.6960582646E+002  +4.9918215911E-004 -1.0219596898E+002  +7.8328061729E-004 -1.7146358701E+002  +2.4427967058E-001 -1.7145957600E+002 
259290.363 +1.1318219089E-001 +1.7068081262E+002  +1.3184469107E-004 -4.5626988010E+000  +4.5875884775E-004 +1.0219383167E+002  +2.3866448154E-001 -1.6943119525E+002 
384435.544 +1.1452482004E-001 +1.7043123964E+002  +6.8621490163E-004 -1.1272431168E+002  +8.8453575692E-004 -7.4852549391E+001  +2.5107179848E-001 -1.6769879049E+002 
509580.726 +1.1494834968E-001 +1.7149982656E+002  +1.0738159533E-003 -3.8577574862E+001  +9.2793944933E-004 +1.1921192905E+002  +2.5000698179E-001 -1.6563658998E+002 
634725.907 +1.1772063055E-001 +1.7096640499E+002  +1.6324692594E-004 +4.8280070468E+001  +4.2264649234E-004 +1.6074689740E+000  +2.5283515103E-001 -1.6675153421E+002 
759871.089 +1.1933619249E-001 +1.7113137557E+002  +8.3815269563E-004 -6.2742021348E+001  +7.3901215773E-004 +1.4972937795E+002  +2.4845913277E-001 -1.6237788419E+002 
885016.270 +1.2046910937E-001 +1.6981410669E+002  +1.7992421175E-004 +1.7227333623E+002  +4.5533706419E-004 -5.4418142698E+001  +2.4679322748E-001 -1.6646230131E+002 
1010161.452 +1.1533608405E-001 +1.7028246926E+002  +8.5579095287E-004 -1.0208633891E+001  +7.0274093675E-004 -1.2383643844E+002  +2.2350972001E-001 -1.6734734359E+002 
1135306.633 +1.1808416272E-001 +1.6943978001E+002  +1.5666123753E-003 -1.5633000440E+002  +9.1490368169E-004 +2.3875637711E+001  +2.0115750013E-001 -1.7614662098E+002 
1260451.815 +1.2294982604E-001 +1.7139364993E+002  +1.4057517609E-003 -1.6501661343E+002  +1.3330344108E-003 -4.6813083311E+001  +2.2995668432E-001 -1.5604048855E+002 
1385596.996 +1.2693269941E-001 +1.7171647832E+002  +2.5186599159E-004 -1.9061238253E+000  +9.4391417398E-005 -6.6378580188E+001  +2.6238563025E-001 -1.5896996608E+002 
1510742.178 +1.3006384101E-001 +1.7131553957E+002  +8.9782380173E-004 +1.2857246613E+002  +5.8137266099E-004 -1.7638783213E+002  +2.7070310612E-001 -1.5900892953E+002 
1635887.359 +1.2589565898E-001 +1.7031656268E+002  +6.1829209717E-004 +9.2500666152E+001  +9.2336344512E-004 +9.4275760628E+001  +2.5306082984E-001 -1.5822969514E+002 
1761032.541 +1.3037162106E-001 +1.6977601551E+002  +1.9656724990E-003 -1.5234784668E+002  +6.9809045596E-004 -1.3051736352E+002  +2.2203164225E-001 -1.5886338851E+002 
1886177.722 +1.2590025459E-001 +1.6825167258E+002  +1.4784929618E-003 +4.0094091960E+001  +2.0226362801E-003 -9.1686408673E+001  +1.9942540517E-001 -1.6236500279E+002 
2011322.904 +1.2575980960E-001 +1.6856011975E+002  +1.0272331256E-003 -1.1411680093E+002  +2.8775848887E-004 +1.2697230205E+001  +1.8824718246E-001 -1.7136992510E+002 
2136468.085 +1.3084247084E-001 +1.6931653258E+002  +1.1725500198E-003 +9.4366418495E+000  +1.7136071051E-003 +9.0874359987E+001  +1.9314036406E-001 -1.6706015442E+002 
2261613.267 +1.3273998209E-001 +1.6700943351E+002  +1.8919574076E-003 -1.6645229798E+002  +2.9668619416E-003 -1.0121253193E+002  +2.4471714405E-001 +1.7341551316E+002 
2386758.448 +1.3461540186E-001 +1.6227759104E+002  +1.9075318591E-003 +4.4870883064E+001  +2.0922885243E-003 +3.4665770211E+000  +2.2085055941E-001 +1.7608158347E+002 
2511903.630 +1.3965617585E-001 +1.6500939302E+002  +2.7407147350E-003 -1.6632194845E+002  +3.1412564498E-003 +1.2929452654E+002  +2.1202712988E-001 +1.7575538354E+002 
2637048.811 +1.1511506551E-001 +1.5255722508E+002  +1.2128151109E-002 -1.7359874491E+002  +5.7078578454E-003 +3.9092137035E+001  +1.6627226298E-001 +1.4414375309E+002 
2762193.992 +1.1608133424E-001 +1.7477570457E+002  +1.6992564988E-002 +3.7374691989E+001  +9.5423049232E-003 +1.7167889821E+002  +4.9182897653E-001 -9.2685331001E+001 
2887339.174 +1.2559117104E-001 +1.7973255739E+002  +8.2896204863E-003 -8.0534282405E+001  +3.9480752886E-003 +1.7323704487E+002  +2.3153787750E-001 -9.0534428711E+001 
3012484.355 +1.1206651134E-001 -1.7728614313E+002  +7.5662255799E-003 +1.1003840641E+002  +1.8168571254E-002 +1.0410450121E+002  +1.0008768144E-001 -1.9811587952E+001 
3137629.537 +1.2132170104E-001 +1.6624909696E+002  +1.3730578553E-002 -7.6640635964E+000  +1.1351299296E-002 +5.1731072433E+001  +1.9910977662E-001 -5.7459022233E+001 
3262774.718 +1.2991083560E-001 +1.6860165020E+002  +2.5464644702E-003 +5.0470896528E+000  +1.5181320909E-002 -9.8198851322E+001  +1.2609766591E-001 -9.2660170373E+001 
3387919.900 +1.3557838810E-001 +1.5252735153E+002  +7.5985601080E-003 -8.9563479223E+001  +5.7247209862E-003 -6.7564645651E+001  +1.2561334875E-001 -8.0449770186E+001 
3513065.081 +1.2728982781E-001 +1.4227422584E+002  +8.1311592840E-003 +8.8663604807E+001  +1.2589007754E-002 -1.7011352465E+002  +2.2488280014E-001 +1.1968852524E+002 
3638210.263 +1.7498434690E-001 +1.4468184780E+002  +1.5010197275E-002 +5.0586575792E+001  +1.0675468365E-002 +1.0926070483E+002  +6.1506972747E-001 +1.4297651918E+002 
3763355.444 +1.7790086029E-001 +1.4464228788E+002  +7.9214579732E-003 -9.4747906343E+001  +7.6891744024E-003 +1.0966561073E+002  +2.2662924529E-001 +1.1662469052E+002 
3888500.626 +1.5966451861E-001 +1.4070237730E+002  +4.2109063257E-003 -7.0395890918E+001  +1.1748935016E-002 -1.3329132625E+002  +4.0524475634E-001 +1.4725131131E+002 
4013645.807 +1.8641506736E-001 +1.5091178452E+002  +8.4608063191E-003 -6.2665386278E+001  +3.9298316673E-003 +1.5243010906E+002  +3.3594157499E-001 +1.4538189825E+002 
4138790.989 +1.8438670789E-001 +1.4549847100E+002  +7.9504007247E-003 +3.8653118678E+001  +7.2131063570E-003 +3.7092544987E+001  +2.1294784108E-001 +1.3516158441E+002 
4263936.170 +1.9537799408E-001 +1.4825816261E+002  +5.8688878237E-003 +6.5051082353E+001  +5.3223250340E-003 -1.4028057472E+002  +4.5089281884E-001 +1.4200690085E+002 
4389081.352 +1.9069788502E-001 +1.4712265154E+002  +8.1824982471E-003 -5.7679076747E+000  +1.6587809925E-003 +5.1183276025E+001  +5.5533654672E-001 +1.3833930032E+002 
4514226.533 +2.1245767799E-001 +1.3118589492E+002  +2.3622508116E-002 -1.4543605022E+002  +1.3967430479E-002 +8.8179228100E+000  +1.0918202573E+000 +1.3286048790E+002 
4639371.715 +2.4702603074E-001 +1.2499601479E+002  +2.5395511915E-002 +1.7295274355E+002  +4.5364472477E-003 -1.2287536543E+002  +8.0018041305E-001 +1.3523353512E+002 
4764516.896 +3.5715076274E-001 +1.3745687776E+002  +2.0198785313E-002 +1.0074461503E+002  +5.6102399617E-003 -1.2117612156E+002  +1.9320599986E+000 +1.7680551655E+002 
4889662.078 +4.1656088981E-001 +1.3726783275E+002  +2.8589342590E-002 -4.3469735413E+000  +4.7372900459E-002 -8.6562464829E+001  +2.5885177058E+000 -1.6142923765E+002 
5014807.259 +3.6604932099E-001 +1.2925348217E+002  +3.3724698961E-002 +2.8179024067E+001  +4.5923116869E-002 -1.1911324081E+001  +3.6528507851E+000 -4.3167070853E+000 
5139952.441 +3.4661931499E-001 +1.2204612884E+002  +2.4063972269E-002 -1.0241267755E+002  +1.7522156842E-002 -1.1096777557E+002  +3.1188362938E+000 +9.9454852295E+001 
5265097.622 +4.2944486955E-001 +1.3217853941E+002  +1.3715186544E-001 -5.8353331414E+001  +1.2410123636E-001 -1.6385687233E+001  +8.3933871555E+000 +1.7204269936E+002 
5390242.804 +4.8100239973E-001 +1.3114546567E+002  +3.7874730694E-002 -1.5441601189E+002  +1.7584780788E-002 -9.9498197745E+001  +3.8392401087E+000 +6.2131001428E+001 
5515387.985 +4.6460884172E-001 +1.3938488905E+002  +4.5877876555E-003 -6.4673282326E+000  +7.4166241283E-003 +7.5780967158E+001  +2.0749556033E+000 +9.2114788224E+001 
5640533.166 +6.1244350413E-001 +1.3709010295E+002  +1.1300208737E-002 +2.0961799125E+001  +1.5983260743E-002 +1.6175151173E+002  +2.3332466256E+000 +5.1690027393E+001 
5765678.348 +5.1621694049E-001 +1.1863009737E+002  +4.9433451293E-003 +3.8505268989E+001  +2.0692910621E-002 +1.2875963674E+002  +2.5110271906E+000 +7.7873759119E+001 
5890823.529 +5.7742498630E-001 +1.2728235983E+002  +1.3887076161E-002 +1.1005476502E+002  +1.6411589466E-002 -1.6488209646E+002  +1.6506584141E+000 +4.3698588015E+001 
6015968.711 +5.9327853081E-001 +1.0634314832E+002  +2.8318320188E-002 +1.2521273796E+002  +1.4007562586E-002 -7.0906362205E+001  +2.1447996416E+000 +5.3051240564E+000 
6141113.892 +7.2908279324E-001 +1.0418101975E+002  +5.0283460265E-003 +1.1278626883E+002  +1.5956700303E-002 +6.2108512502E+000  +1.7872202200E+000 +2.3770412026E+001 
6266259.074 +8.7538823499E-001 +1.1052928543E+002  +1.6047781515E-002 +1.3833961523E+002  +2.5759873303E-002 -1.2636410145E+002  +1.7735282263E+000 +1.9029767105E+001 
6391404.255 +1.0143142942E+000 +9.0975820187E+001  +2.2664264608E-002 -1.6591089427E+002  +4.1501524873E-002 +1.5157044000E+002  +2.0713068642E+000 +8.4877159147E+000 
6516549.437 +1.3888327062E+000 +9.0458575299E+001  +9.4894605717E-003 -1.7898248586E+002  +3.5974195212E-002 +1.3011964242E+002  +1.4127863122E+000 +1.1554675442E+001 
6641694.618 +1.7028226435E+000 +7.6667672357E+001  +1.0575005179E-002 -3.6365556136E+000  +2.1455373790E-002 +1.0045980818E+002  +1.3012881131E+000 -9.0139422505E+000 
6766839.800 +1.7705709211E+000 +4.3252731426E+001  +4.5814147873E-002 +6.9631771196E+001  +5.5879013588E-002 +1.1217934799E+002  +1.3466695889E+000 -1.2090694325E+001 
6891984.981 +1.4987310856E+000 +4.4790977993E+001  +2.2699266124E-002 +1.2028752217E+002  +1.2613293867E-002 -1.3724323872E+001  +1.4321947372E+000 -8.0279693623E+000 
7017130.163 +1.7282023561E+000 +2.0162452171E+001  +1.3888431230E-002 -7.8283670167E+000  +8.6312229535E-003 +3.8330692228E+001  +1.3388656279E+000 -1.0332709805E+001 
7142275.344 +1.5048493332E+000 +9.3326098246E+000  +1.2164772231E-002 +4.1214587865E+000  +7.1503811882E-003 -1.1954818755E+002  +1.2479214666E+000 -1.2961489795E+001 
7267420.526 +1.4096977111E+000 +4.8118640154E+000  +7.4293891739E-003 -1.5376562015E+002  +7.5275489428E-003 +3.5632313331E+001  +1.2918538668E+000 -1.2440475111E+001 
7392565.707 +1.3422686245E+000 +3.0094645509E-001  +1.3627753885E-002 +1.3406121941E+002  +1.2105928063E-002 +1.1413370086E+002  +1.3164981825E+000 -7.6378491204E+000 
7517710.889 +1.1517796304E+000 +2.0162628284E+000  +1.3242823162E-003 +9.6650961122E+001  +7.6037077583E-003 +6.2251840117E+001  +1.1928646887E+000 -1.0606636769E+001 
7642856.070 +1.0818975723E+000 -3.4343020958E-002  +3.9487832293E-003 +1.1664746224E+002  +5.8019410309E-003 +1.5034619642E+002  +9.9768377473E-001 -7.1348766499E+000 
7768001.252 +9.2381001366E-001 +4.7006827593E+000  +1.1093690761E-002 +1.2355486853E+002  +6.8376023890E-003 +8.9149074864E+001  +9.6859980065E-001 -2.1526640870E+000 
7893146.433 +8.0466837455E-001 +1.0028149559E+001  +9.3059834773E-003 +6.8083919331E+001  +2.8346371927E-003 -2.0639779229E+001  +9.9090983424E-001 +1.2141262395E-001 
8018291.615 +7.4061741539E-001 +5.6844882247E+000  +4.3414973241E-003 +1.1217704163E+002  +4.9398627638E-003 +1.5546175050E+002  +8.4488491189E-001 +3.1972312596E+000 
8143436.796 +7.2115512264E-001 +6.3533738923E+000  +1.0375656196E-002 +1.1404351379E+002  +3.3257287312E-003 +5.5101365657E+001  +8.3413395252E-001 -7.2504925126E-001 
8268581.977 +7.1627581496E-001 +8.9486036812E+000  +4.3578125176E-003 +7.9809394823E+001  +2.0681575968E-003 +2.4578927867E+001  +7.6555438858E-001 -1.1863889574E+000 
8393727.159 +7.1795059902E-001 +2.7112443029E+000  +6.0624931914E-003 +8.8452554452E+001  +3.4979716788E-003 +5.3547625808E+000  +7.2231859846E-001 +2.2166628818E+000 
8518872.340 +7.3918101122E-001 +1.1808210381E+001  +2.3815436632E-003 +3.7258074378E+001  +5.1476054922E-003 +9.8445212891E+001  +6.6765697467E-001 +4.0428990858E+000 
8644017.522 +6.4551078378E-001 +1.4318882337E+001  +4.8343197881E-003 +3.2197681807E+001  +3.2604670949E-003 +1.2998340047E+002  +7.3323340973E-001 +1.6756257453E+000 
8769162.703 +6.5807196044E-001 +8.7889859097E+000  +3.6900813836E-003 +7.3282812108E+001  +1.7673393470E-003 -1.4739644627E+002  +6.7325595319E-001 +3.0475658253E+000 
8894307.885 +6.4048777555E-001 +6.9705664186E+000  +3.8900523596E-003 -2.5154000142E+001  +3.0668254590E-003 +1.0619569389E+002  +6.2783814262E-001 +9.5987676058E-001 
9019453.066 +5.6455887562E-001 +3.1080369718E+000  +2.6532234006E-003 +5.5063976899E+001  +4.2382260767E-003 +5.7657048598E+001  +6.7093651552E-001 +1.1478556482E+000 
9144598.248 +6.0406075593E-001 +7.2331935930E+000  +3.5005143128E-003 +1.2851739055E+002  +4.9536623495E-003 +2.4184566128E+001  +6.4580998745E-001 -2.6717391555E+000 
9269743.429 +6.3364887293E-001 +3.5014391579E+000  +4.9027263520E-003 +6.4802109675E+001  +3.5143366402E-003 +3.0318215419E+001  +5.8274369866E-001 +2.9828317271E+000 
9394888.611 +6.0644630147E-001 +4.6950318826E+000  +1.4314255372E-003 +5.8574224264E+001  +2.9659177899E-003 +9.9453827154E+001  +6.3412378253E-001 -1.3359028758E+000 
9520033.792 +5.2041033231E-001 +6.1660265023E+000  +2.7857027952E-003 +9.0949946728E+001  +2.1739958530E-003 +7.2139524899E+001  +6.4502601576E-001 -1.5364593937E+000 
9645178.974 +5.8102296660E-001 +7.4975574289E+000  +2.0513438207E-003 +6.5532152137E+001  +5.6525561411E-003 +1.1362768070E+002  +6.1013061592E-001 -3.2872842595E+000 
9770324.155 +5.4451992350E-001 +9.1557538950E-001  +5.7639776652E-003 +5.4769692852E+001  +3.9913526331E-003 +1.1110021949E+002  +5.6941831246E-001 -8.0529354327E+000 
9895469.337 +5.2689751046E-001 +2.4330918030E+000  +4.0143998909E-003 +5.7355111660E+001  +5.9725234800E-003 +9.1160656615E+001  +5.8796754618E-001 -7.2749801036E+000 
10020614.518 +5.4608208438E-001 +4.0012148093E+000  +2.6840304537E-003 +5.4925211881E+001  +4.7622474129E-003 +3.9232678638E+001  +6.0388752390E-001 -7.6718918644E+000 
10145759.700 +5.3675499518E-001 +4.3913492966E-001  +3.3296219328E-003 +1.1540557883E+002  +2.8145563178E-003 +9.9887214352E+001  +6.0150728560E-001 -3.5179732606E+000 
10270904.881 +5.4293977227E-001 +4.5336077666E+000  +3.1028935132E-003 +3.5972868330E+001  +5.3213746040E-003 +9.3811111058E+001  +5.6791737731E-001 -4.7510432614E+000 
10396050.063 +5.3688444834E-001 +5.1619888386E+000  +6.5887746881E-003 +5.0545088594E+001  +7.5499268858E-003 +1.1812617925E+002  +5.5068069370E-001 -1.6822517938E+000 
10521195.244 +5.6754938240E-001 +6.9128965428E+000  +1.7036732857E-003 +5.1646701227E+001  +7.0411495730E-003 +1.0149368781E+002  +6.0308349582E-001 +1.3737325885E+000 
10646340.426 +5.7096584888E-001 +7.7367631500E+000  +1.9746121496E-003 +8.1988788494E+001  +3.2193685428E-003 +8.1104482734E+001  +6.1318456980E-001 -2.4951091364E-002 
10771485.607 +5.9222525540E-001 +4.0887679952E+000  +7.1862585810E-003 +7.3386071437E+001  +3.9846355197E-003 +7.2210741903E+001  +6.0242646943E-001 -1.7039110772E+000 
10896630.788 +5.7333157027E-001 +9.6491928864E+000  +6.3701974987E-003 +7.3593319860E+001  +5.5385736928E-003 +9.2051504040E+001  +5.6924565462E-001 +1.4763533928E+000 
11021775.970 +5.8414297584E-001 +6.7274664962E+000  +7.0181009885E-003 +7.2198173443E+001  +3.0311397186E-003 +7.0376077579E+001  +6.2157539297E-001 +1.5350838411E+000 
11146921.151 +6.1908839935E-001 +3.7602198614E+000  +4.1257533591E-003 +6.1692980362E+001  +4.0234021436E-003 +7.2054042346E+001  +6.0281360267E-001 +2.3927826725E+000 
11272066.333 +6.0271362865E-001 +7.2678448127E+000  +1.2888705927E-003 +3.4792770514E+001  +7.0443875850E-003 +1.0733908040E+002  +6.1137951536E-001 -3.5073979889E-001 
11397211.514 +6.0154804689E-001 +6.3839612034E+000  +3.8021954197E-003 +7.0953599327E+001  +5.3466585084E-003 +1.0305088658E+002  +6.3056629618E-001 +2.4667453196E+000 
11522356.696 +6.1595083792E-001 +6.3653025559E+000  +5.8694193958E-003 +9.4292368994E+001  +8.4312336994E-003 +1.0155536650E+002  +6.3786146376E-001 +2.2993786246E+000 
11647501.877 +6.2380509425E-001 +6.4785260560E+000  +5.1365444178E-003 +8.8620477483E+001  +3.4160512101E-003 +9.0592405162E+001  +6.5664673193E-001 +1.3896287169E+000 
11772647.059 +6.7226588941E-001 +8.2832334996E+000  +4.9459142377E-003 +8.4135733616E+001  +5.1519187892E-003 +1.1748327837E+002  +6.9261353147E-001 +8.1474532041E-001 
11897792.240 +6.7621972842E-001 +5.2384517293E+000  +4.4449192608E-003 +1.0705774300E+002  +5.8661711489E-003 +7.1021895944E+001  +6.7441611796E-001 +1.0890516351E+000 
12022937.422 +6.4680444550E-001 +2.9471943194E+000  +6.7430837752E-003 +9.1512940760E+001  +4.0286456118E-003 +9.0691773835E+001  +7.1311505964E-001 +1.5955229700E-001 
12148082.603 +6.8319272910E-001 +4.9569916597E+000  +5.5848793368E-003 +9.0613285430E+001  +3.9686059859E-003 +9.1147264024E+001  +7.2956955220E-001 -5.9498562897E-001 
12273227.785 +7.0123837623E-001 +3.3826771062E+000  +6.7608982669E-003 +6.7720949706E+001  +3.9081272080E-003 +1.0356964358E+002  +7.2969174392E-001 +8.0265225176E-004 
12398372.966 +7.1976025480E-001 +3.1676730038E+000  +5.0798215362E-003 +9.8934556573E+001  +4.9557642405E-003 +9.9102283173E+001  +7.2922635623E-001 -4.7650215018E-001 
12523518.148 +7.3640531595E-001 +4.6004993983E+000  +7.3172959545E-003 +8.6889568229E+001  +6.4630915661E-003 +9.1481487766E+001  +7.5512071128E-001 -7.9979693753E-001 
12648663.329 +7.4079610860E-001 +4.3264419331E-001  +6.4370010688E-003 +7.8546337062E+001  +7.0929455883E-003 +1.0098434043E+002  +7.5771175925E-001 -2.2823861300E+000 
12773808.511 +7.7041606250E-001 +3.2982242232E+000  +7.3468994065E-003 +8.6128272107E+001  +6.2382283992E-003 +8.6671912927E+001  +7.6653253154E-001 -2.0615696317E+000 
12898953.692 +7.7706594002E-001 +1.4736634877E-001  +7.7808800211E-003 +8.3908894767E+001  +6.3440989586E-003 +9.4326474964E+001  +7.8934580517E-001 -2.4013106385E+000 
13024098.874 +7.7064623928E-001 +1.3004950958E+000  +6.2982589212E-003 +7.5385614698E+001  +5.1413511520E-003 +9.3526244311E+001  +8.1881463321E-001 -3.6382989311E-001 
13149244.055 +7.9307301360E-001 -4.0064460729E-002  +5.7862612625E-003 +7.6234240367E+001  +5.9264527339E-003 +6.8163427691E+001  +8.2368788904E-001 -8.4409723178E-001 
13274389.237 +8.2061516193E-001 -1.2240724850E+000  +6.7566409545E-003 +7.8254024933E+001  +7.7785283991E-003 +8.9762472018E+001  +8.3830837460E-001 -5.9747021851E-001 
13399534.418 +8.5305056756E-001 +1.0607489136E+000  +8.0682999810E-003 +8.7530875168E+001  +5.9236055613E-003 +1.0766629670E+002  +8.3614192171E-001 -4.0347343624E+000 
13524679.599 +8.7117082881E-001 -2.2591575959E+000  +7.7433888373E-003 +8.5048253634E+001  +5.0097957210E-003 +8.6174564230E+001  +8.8276403051E-001 -2.9998362022E+000 
13649824.781 +8.9282124313E-001 -3.4239812251E+000  +7.4935481799E-003 +8.4372911975E+001  +5.9978193009E-003 +9.1946200423E+001  +8.6463425257E-001 -3.4129811620E+000 
13774969.962 +8.9090470017E-001 -3.1205833903E+000  +6.0902253254E-003 +6.4431871201E+001  +7.9318902766E-003 +7.9340895976E+001  +9.1154393105E-001 -2.1032117052E+000 
13900115.144 +9.1655640882E-001 -3.4896179776E+000  +6.9669927381E-003 +7.8624863133E+001  +7.7035742883E-003 +8.2264894542E+001  +9.0233426325E-001 -4.2442422679E+000 
14025260.325 +9.4670947589E-001 -2.7795490144E+000  +8.7550837779E-003 +7.3564106562E+001  +7.4558843587E-003 +7.6549020453E+001  +9.3941621006E-001 -4.1760919923E+000 
14150405.507 +9.5275490506E-001 -5.4859963226E+000  +7.5072248910E-003 +7.2922743946E+001  +8.6406141020E-003 +8.5456180458E+001  +9.5908522610E-001 -3.9890955032E+000 
14275550.688 +9.6197759489E-001 -4.9181503129E+000  +6.1520535733E-003 +9.2758211954E+001  +8.1937862267E-003 +7.8519147638E+001  +9.6536266119E-001 -3.8866223432E+000 
14400695.870 +9.8454098937E-001 -5.2694202608E+000  +7.9344878253E-003 +7.9297082348E+001  +8.1892536369E-003 +8.3527714171E+001  +1.0038650339E+000 -4.9653510703E+000 
