!  2-Port S-parameters saved by WinCal
! VAR MeasName=S-Parameters (CALIBRATED_DATA) read from VNA (P5004A)
! VAR MeasDate=28/08/2024 16:31:55
! VAR NAME=S2_r8c9_SET2_9k-100M_3
! VAR FILENAME=S2_r8c9_SET2_9k-100M_3.S2P
! VAR DATE=28/08/2024 16:31:55
! VAR PHYS_PORTS=1,2
! VAR ObjTypeName=DATASET
! VAR IndexType=Frequency
!
# Hz S MA R 50
9000.000 +1.0250669833E-001 -1.6305468829E+002  +3.6654512372E-003 +8.7686206370E+001  +2.8822145867E-003 -3.4201620607E+001  +2.6340347941E-001 -1.5375491189E+002 
134145.181 +1.1199287658E-001 +1.6968827029E+002  +4.7901506299E-004 +8.2636108609E+001  +1.9916704628E-004 -3.5895763599E+001  +2.4051336431E-001 -1.7122802948E+002 
259290.363 +1.1261460207E-001 +1.6994489713E+002  +2.6894882519E-004 -1.5822468941E+002  +4.9491299018E-004 -1.0376928589E+002  +2.4342428882E-001 -1.6896176796E+002 
384435.544 +1.1334114892E-001 +1.6960395913E+002  +3.5129276148E-004 +1.7766916256E+002  +2.1453550663E-004 +1.6920396612E+002  +2.4846565677E-001 -1.7016959014E+002 
509580.726 +1.1321153958E-001 +1.7014343356E+002  +4.9214150152E-004 +1.2083531638E+002  +9.3841538754E-004 +9.6676961845E+000  +2.3595413004E-001 -1.6533058668E+002 
634725.907 +1.1587532957E-001 +1.7166648103E+002  +1.1752806699E-003 -3.2278063336E+000  +9.8569630120E-004 +7.4657754977E+001  +2.4274384225E-001 -1.6655582551E+002 
759871.089 +1.1880062929E-001 +1.7113712705E+002  +2.9571843441E-004 +1.1678372644E+002  +3.8929463173E-004 +1.5255801079E+002  +2.5364373052E-001 -1.6666469139E+002 
885016.270 +1.1961946143E-001 +1.6905807836E+002  +5.6231414984E-004 +5.6611583552E+001  +4.6809428820E-004 +1.0481944203E+002  +2.5030708824E-001 -1.6710806464E+002 
1010161.452 +1.1696108482E-001 +1.6952329004E+002  +1.1602174438E-003 -4.0085422843E+001  +5.7660449431E-004 +4.5882201931E+001  +2.1322815364E-001 -1.6879066600E+002 
1135306.633 +1.1496940630E-001 +1.6976567032E+002  +2.8694371486E-003 -1.4776742043E+002  +1.9562485203E-003 -6.8708430402E+001  +1.5594808281E-001 -1.6754184090E+002 
1260451.815 +1.1818872283E-001 +1.7239285425E+002  +2.4258511545E-003 +2.5704040712E+001  +8.3598643568E-004 +1.4278693530E+002  +1.9042109426E-001 -1.5624289275E+002 
1385596.996 +1.2381127997E-001 +1.7288936919E+002  +1.6521741528E-003 -7.2816440032E+001  +1.3351295173E-003 +5.9011900172E+001  +2.6533610332E-001 -1.5747557276E+002 
1510742.178 +1.2795455496E-001 +1.7188977169E+002  +5.6713987611E-004 -1.7150771501E+002  +1.6403227210E-003 -7.0040606170E+001  +2.6260854103E-001 -1.5719505909E+002 
1635887.359 +1.3130139633E-001 +1.7063808461E+002  +5.7935487516E-004 -9.5338180504E+001  +5.8812974013E-004 -5.4816982816E+001  +2.5135877612E-001 -1.5988395216E+002 
1761032.541 +1.2749861492E-001 +1.6930554474E+002  +5.6105275027E-004 +2.0598051712E+001  +1.8430513966E-003 +6.9857588242E+000  +2.4427413476E-001 -1.5819191944E+002 
1886177.722 +1.2863044844E-001 +1.6742391043E+002  +7.5241880617E-004 +1.3384591825E+002  +9.7969885790E-004 +8.3662787365E+000  +2.0427905596E-001 -1.6098597297E+002 
2011322.904 +1.3111925637E-001 +1.6782199410E+002  +1.6214053648E-003 -1.3088354991E+002  +1.7143980159E-003 -1.4027710415E+002  +1.5441888259E-001 -1.6438588069E+002 
2136468.085 +1.2280536863E-001 +1.6494109003E+002  +5.2638641607E-003 -1.2174108381E+002  +2.3995093863E-003 -1.1762793620E+001  +1.8396671352E-001 -1.6518993028E+002 
2261613.267 +1.3276755253E-001 +1.6603001191E+002  +1.3979368927E-003 -8.3117525797E+001  +1.1459598722E-003 -1.3860187829E+002  +2.0047849990E-001 -1.6729883841E+002 
2386758.448 +1.3484020819E-001 +1.6554541080E+002  +7.6695531369E-004 -4.8581615427E+001  +1.3431022587E-003 -7.2591335251E+001  +1.8457307666E-001 -1.6692050427E+002 
2511903.630 +1.3451796655E-001 +1.6131681953E+002  +7.7086630152E-003 +9.9306493762E+001  +7.0958876840E-003 +1.2441749473E+002  +1.0521239180E-001 +1.3136738985E+002 
2637048.811 +1.1411000786E-001 +1.6975921391E+002  +9.2191014295E-003 +6.6100053155E+001  +2.4594099783E-002 +8.3032861856E+001  +1.5292156090E+000 +1.4482031521E+002 
2762193.992 +1.0879566153E-001 +1.7279799798E+002  +4.3855657370E-003 +1.6986676246E+001  +2.4537214753E-002 +1.4030153115E+002  +8.2963783098E-001 +1.2041438742E+002 
2887339.174 +1.1197618456E-001 -1.7341231290E+002  +6.0335574804E-003 +6.2698261755E+001  +3.0719962450E-003 +1.5881733139E+002  +2.3960228264E-001 -1.1402098753E+002 
3012484.355 +1.2490488839E-001 +1.7512602729E+002  +1.0606551949E-002 -7.9748112849E+001  +4.7152149258E-003 +7.8757670035E+001  +3.0320998712E-001 -1.0860407223E+002 
3137629.537 +1.1166496588E-001 +1.6956054043E+002  +1.1649741261E-002 -1.4141477740E+002  +1.2096045344E-002 -5.7537826532E+001  +3.2099190518E-001 -9.0522032489E+001 
3262774.718 +1.2278367856E-001 +1.5203383007E+002  +1.0241300971E-002 -1.6376738352E+002  +7.0431938000E-003 +1.5455617001E+002  +5.0668066610E-001 +8.0281632231E+001 
3387919.900 +1.2309401317E-001 +1.5834595123E+002  +2.4736353095E-002 +6.8713314111E+001  +1.5418114343E-002 +1.3914906572E+002  +5.4989951612E-001 -4.0920275914E+001 
3513065.081 +1.0227744418E-001 +1.3425444034E+002  +1.4591136932E-002 +5.4624286966E+001  +1.0036968927E-002 +1.1705316717E+002  +1.9157463731E-001 +1.0491753291E+002 
3638210.263 +1.8354276133E-001 +1.4725241889E+002  +7.2285068961E-003 +6.7389448299E+001  +1.5712259991E-002 +7.6500507784E+001  +1.0651320736E+000 +9.1689983018E+001 
3763355.444 +1.6115161315E-001 +1.4773595299E+002  +1.0406288711E-003 -1.0296912350E+002  +9.2201772867E-003 +8.9472244742E+001  +4.5547374034E-001 +1.1877274012E+002 
3888500.626 +1.9462494396E-001 +1.4657725456E+002  +4.8996154611E-003 -1.3680998225E+002  +1.2238860160E-002 -5.1911999352E+001  +2.7929406760E-001 +1.2816228911E+002 
4013645.807 +1.5612528263E-001 +1.5067373780E+002  +9.3193052696E-003 +3.4139348231E+000  +4.4991615585E-003 +1.0937896252E+002  +2.5925929411E-001 +1.2597522025E+002 
4138790.989 +1.9197285000E-001 +1.4054392825E+002  +2.2017894476E-002 +1.7607170468E+002  +7.3042930626E-003 +1.7383900759E+001  +4.4465286047E-001 +1.0906269017E+002 
4263936.170 +1.7379482587E-001 +1.4448746132E+002  +6.6751017660E-003 -6.9572935020E+001  +9.1734646359E-003 +1.0572875480E+002  +3.3534705651E-001 +9.3011459423E+001 
4389081.352 +1.9034074348E-001 +1.4450508173E+002  +4.3529302417E-003 +1.2493211333E+002  +1.5577299392E-002 -1.9549828578E+001  +1.0604977878E+000 +1.3651736733E+002 
4514226.533 +2.2680900542E-001 +1.1597476465E+002  +8.3571678084E-003 -7.1899784968E+001  +1.7184597360E-002 +1.6719740384E+002  +7.3382335670E-001 +1.3398692295E+002 
4639371.715 +2.2956483001E-001 +1.3071430435E+002  +5.1479484671E-002 -1.4629066343E+002  +6.0494257854E-002 +1.6729881316E+002  +1.9888069401E+000 +8.5294920749E+001 
4764516.896 +2.2506523620E-001 +1.3338678687E+002  +5.0730592174E-002 -8.4877081555E+001  +1.5570820622E-001 -9.1022475205E+001  +1.0538634854E+001 -3.6851320235E+001 
4889662.078 +4.2724526337E-001 +1.2667383229E+002  +3.9922024343E-002 +3.2128883119E+001  +4.8002908005E-002 +5.9399646461E+001  +4.1428715478E+000 -1.2994155076E+002 
5014807.259 +3.1882322206E-001 +1.2450878365E+002  +2.1309248563E-002 -4.2977368085E+001  +1.3144769916E-001 -1.1664884230E+002  +6.2051873507E+000 +7.4710458346E-002 
5139952.441 +3.4500033353E-001 +1.3713307654E+002  +2.8876182315E-002 +1.1934043173E+002  +6.6990366409E-003 -4.9979791331E+001  +2.5149364426E+000 -2.7568925830E+001 
5265097.622 +3.2467109423E-001 +1.2214422082E+002  +3.5659808425E-001 -2.4477076228E+001  +3.2225489436E-001 +8.0927969744E+001  +1.0143686505E+002 +2.0521766733E+001 
5390242.804 +3.8970120683E-001 +1.3167532793E+002  +2.4630169959E-002 +1.1769853932E+002  +5.2498784074E-003 -1.0445628843E+002  +2.6147097507E+000 +1.0215812923E+002 
5515387.985 +4.8611545249E-001 +1.2545331885E+002  +1.0648291213E-002 -7.1811069070E+001  +7.4379300567E-003 +1.1034687301E+002  +1.3129854162E+000 +1.0272832794E+002 
5640533.166 +4.6864475839E-001 +1.1130308725E+002  +2.1452330572E-002 +1.4741690433E+002  +1.6690598534E-002 -1.2323456501E+002  +1.5736676606E+000 +8.9585688748E+001 
5765678.348 +5.2530718167E-001 +1.1801753606E+002  +3.9104649014E-002 -1.1243713169E+002  +2.2837661684E-002 +1.1536485591E+002  +2.5100395626E+000 +9.8740137770E+001 
5890823.529 +5.0634025990E-001 +1.2583903827E+002  +3.9435344052E-003 +3.3667863571E+001  +6.9243721443E-003 +7.2799514338E+001  +1.4807872000E+000 +9.6883044130E+001 
6015968.711 +6.7497026154E-001 +1.1711779084E+002  +2.2768642968E-002 -1.2569508851E+002  +1.3946060809E-002 +7.5560139296E+001  +2.1262396493E+000 +2.7403411230E+001 
6141113.892 +8.8863354379E-001 +1.1548112846E+002  +1.7941526866E-002 -1.5117766298E+002  +9.7540507601E-003 -6.9409416287E+001  +1.7657588315E+000 +1.9945871360E+001 
6266259.074 +9.6599948319E-001 +1.0633471803E+002  +7.6909200153E-003 -1.3156461227E+002  +2.8106438424E-002 +8.2966208540E+001  +1.9622504777E+000 +2.9818392061E+001 
6391404.255 +9.5948585057E-001 +9.8444415837E+001  +1.1958043053E-002 +1.3200047883E+002  +2.9673328245E-002 +1.1793851948E+001  +1.4672942160E+000 +6.5453554379E+000 
6516549.437 +1.1884034103E+000 +9.4843792535E+001  +2.4551521813E-002 +7.7321059131E+001  +1.4271343579E-002 +1.3014575807E+002  +1.2300766580E+000 +1.2972252253E+001 
6641694.618 +1.8746784125E+000 +6.1378599948E+001  +3.4130985387E-002 +1.3419119119E+002  +1.7337943274E-002 +1.0095061544E+001  +1.3240071100E+000 -1.1066515257E+000 
6766839.800 +1.8923497920E+000 +5.5261603124E+001  +2.1891429209E-002 +2.5998176005E+001  +5.6064456389E-003 -1.4033201977E+002  +1.2739222145E+000 -6.9821165526E+000 
6891984.981 +2.6729281429E+000 +4.0531450543E+001  +3.9699582578E-003 +1.7629072089E+002  +6.4436179787E-003 +1.0765029765E+002  +1.3342599337E+000 -8.3660897513E+000 
7017130.163 +1.7750334942E+000 +2.3076896286E+001  +1.8203334039E-002 +1.5022167326E+002  +1.6263422644E-002 -1.2674201856E+002  +1.2414999841E+000 -1.0446207055E+001 
7142275.344 +1.5817734527E+000 +1.0214259004E+000  +1.0922542029E-002 +1.4707887389E+002  +8.6300716633E-003 +1.2323490992E+002  +1.3527761296E+000 -1.0475059792E+001 
7267420.526 +1.5799591130E+000 +7.2192419456E+000  +8.4981158129E-003 +1.1374197806E+002  +8.0072942463E-003 +7.6178072128E+001  +1.4295810233E+000 -9.0291201930E+000 
7392565.707 +1.2661651414E+000 +3.1157683106E+000  +6.8260699236E-003 +1.0659659889E+002  +1.0688737516E-002 +1.2326478201E+002  +1.4180093477E+000 -5.8490281116E+000 
7517710.889 +1.0455385960E+000 -1.7227784380E+000  +1.6059589417E-002 +1.8633399837E+001  +9.7582061779E-004 +4.6096508009E-001  +1.1584424917E+000 -6.7839334950E+000 
7642856.070 +9.6257897580E-001 +2.8196304100E+000  +1.0443728028E-002 +3.3034747635E+001  +7.7723209352E-003 -1.4150478327E+002  +1.0217112470E+000 -3.8313531240E+000 
7768001.252 +9.0261071647E-001 +6.5514487179E-001  +9.5811443190E-003 +7.6739948055E+001  +1.0787213754E-002 +1.0712807385E+002  +1.0203682006E+000 -2.1741818078E+000 
7893146.433 +8.7459639980E-001 -6.4046091069E-001  +8.5413706804E-003 +1.0467353722E+002  +6.0547568929E-003 +1.6658924195E+002  +9.8380277632E-001 -6.7967764453E+000 
8018291.615 +7.9511619350E-001 +7.9088049625E+000  +3.1228158770E-003 -1.5052117580E+002  +7.2867906925E-003 +6.7716913575E+001  +9.0161042399E-001 +2.5402073642E+000 
8143436.796 +7.9802863954E-001 +1.0630974987E+001  +3.8619470902E-003 +1.2610133584E+002  +1.0105298720E-002 +9.4522119506E+001  +7.9323209610E-001 -5.7472971594E+000 
8268581.977 +7.7438852601E-001 +7.5895938195E+000  +5.2389475163E-003 +7.1956299073E+001  +9.0291535371E-003 +4.9164433992E+001  +7.4834693478E-001 +3.1249458724E+000 
8393727.159 +7.2325737555E-001 +6.6034387193E+000  +5.6702921321E-003 +2.8604289809E+001  +7.3459858797E-003 +5.6085618038E+001  +7.0232250654E-001 +1.1143258531E+000 
8518872.340 +6.4093038389E-001 +1.1390908790E+001  +3.8771402914E-003 +4.2688014845E+001  +2.9265033843E-003 +8.9047908113E+001  +7.9782582971E-001 +1.6183752773E+000 
8644017.522 +7.0255913713E-001 +7.9079735819E+000  +2.4728156416E-003 -6.4420449614E+001  +5.2121638481E-003 +6.8023804473E+001  +6.2997561695E-001 -2.3135184393E+000 
8769162.703 +6.7764824779E-001 +7.6095984881E+000  +1.1449125150E-002 +7.2430862200E+001  +7.3435543507E-003 +1.0282580542E+002  +6.5778435405E-001 +1.9230185591E+000 
8894307.885 +6.3859465006E-001 +6.9730065879E+000  +3.4725218299E-003 +8.1066423824E+001  +1.2760351355E-003 +1.5987086346E+002  +6.6690891040E-001 +2.3389743018E+000 
9019453.066 +6.1541860929E-001 +4.1048088202E+000  +4.5714268756E-003 +5.0958832218E+001  +4.8405724939E-003 +1.0460001052E+002  +5.9739966073E-001 -1.6986033468E+000 
9144598.248 +5.7517369681E-001 +6.4627041486E+000  +5.7044284403E-003 +6.1141269349E+001  +3.9511955270E-003 +1.4305658860E+002  +5.5908401287E-001 -1.6415035733E+000 
9269743.429 +5.6119284091E-001 +6.1349372982E+000  +4.6202474348E-003 +6.6177219679E+001  +4.0843890207E-003 +1.2659191286E+002  +6.1745099847E-001 -8.9214614037E-001 
9394888.611 +5.5739975509E-001 -7.9250570519E-003  +5.4290193721E-003 +5.8308162919E+001  +1.4998515504E-003 -1.6909805982E+002  +5.8791200023E-001 +1.7785237347E+000 
9520033.792 +5.8168699295E-001 +5.1745322830E+000  +6.6574477189E-003 +7.8298683460E+001  +2.9948437761E-003 +1.3048760094E+002  +6.1396377267E-001 -3.0487294506E+000 
9645178.974 +5.4091491912E-001 +3.5333125383E+000  +4.2599045019E-003 +4.0081215780E+001  +5.5093837916E-003 +6.5771529103E+001  +6.0706670704E-001 -6.1847445777E+000 
9770324.155 +5.6356282869E-001 -3.4186730280E-001  +4.5279888376E-003 +7.9233097187E+001  +6.7245342828E-003 +1.0606588406E+002  +5.8335808102E-001 -4.8505062485E+000 
9895469.337 +5.6124740463E-001 +4.7487600884E+000  +2.5379143399E-003 +5.8337796770E+001  +2.8916074336E-003 +9.9582531617E+001  +5.8824145617E-001 -1.0511868295E+001 
10020614.518 +5.6512094996E-001 +4.8867114241E+000  +5.0840027618E-003 +1.0514685615E+002  +5.0161740329E-003 +1.1555240350E+002  +5.6313005202E-001 -2.9176055812E+000 
10145759.700 +5.3648046688E-001 +1.5655347674E+000  +2.6548374536E-003 +7.8364865840E+001  +5.2065779106E-003 +1.0670503720E+002  +5.8690055907E-001 -4.1902396720E+000 
10270904.881 +5.5028282269E-001 -1.4591710220E+000  +5.0429313096E-003 +9.5779366772E+001  +2.9873857621E-003 +1.0803321870E+002  +5.7202105633E-001 -2.2148932463E+000 
10396050.063 +5.6050913455E-001 +8.7191457420E+000  +4.3051464912E-003 +1.0251464557E+002  +7.3775197901E-003 +1.0040332966E+002  +5.7049871692E-001 +1.8186378067E+000 
10521195.244 +5.7980555347E-001 +5.4302655249E+000  +2.5151478433E-003 +3.7733523395E+001  +3.1512398007E-003 +9.3477136886E+001  +5.8621836672E-001 -1.0895323395E+000 
10646340.426 +5.9557078976E-001 +3.3883882796E+000  +3.8703545523E-003 +7.6786254619E+001  +5.1529650932E-003 +8.4821788035E+001  +6.2636830746E-001 +2.9301769379E+000 
10771485.607 +5.8042329969E-001 +2.3142040416E+000  +4.7701300653E-003 +7.5498707366E+001  +4.9187905101E-003 +7.1864299027E+001  +5.7735340851E-001 +1.8152262759E+000 
10896630.788 +5.4547743517E-001 +7.4889410575E+000  +3.6106601692E-003 +7.8463653614E+001  +4.8655243611E-003 +5.6061316210E+001  +6.1711133349E-001 -3.4004063053E+000 
11021775.970 +5.7412982551E-001 +3.6165355720E+000  +5.4150290403E-003 +7.6925218923E+001  +3.1021363634E-003 +8.6538170271E+001  +6.3141377628E-001 +4.0936852421E+000 
11146921.151 +5.8644084190E-001 +6.0015293757E+000  +5.4227233063E-003 +6.9132615553E+001  +5.7729765480E-003 +9.1787802740E+001  +6.1227036724E-001 +9.2208187826E-001 
11272066.333 +6.1293006019E-001 +8.6439659053E+000  +6.7507893090E-003 +8.9131195504E+001  +5.7802676739E-003 +1.0569883712E+002  +6.0430364932E-001 +1.5376601390E+000 
11397211.514 +6.0574812367E-001 +8.3026610101E+000  +4.7275256975E-003 +8.2003455715E+001  +5.6132040842E-003 +7.0741679134E+001  +6.5239603162E-001 +1.9608442670E+000 
11522356.696 +6.1725595611E-001 +8.3463727197E+000  +4.9878340577E-003 +9.0363933860E+001  +6.2720164780E-003 +1.0427949241E+002  +6.4513484803E-001 +1.1098940251E+000 
11647501.877 +6.3347616318E-001 +9.3194756680E+000  +5.0086827911E-003 +9.5501645121E+001  +4.4513501752E-003 +1.0632840846E+002  +6.5844506253E-001 +6.3854915119E-001 
11772647.059 +6.4137965387E-001 +2.8413710839E+000  +6.4524657127E-003 +1.0767298854E+002  +7.1880688008E-003 +9.1472031030E+001  +6.4881677041E-001 +2.9983021148E+000 
11897792.240 +6.8135212585E-001 +3.6622793528E+000  +5.6053418859E-003 +7.3243867302E+001  +4.9932591360E-003 +1.1805925287E+002  +7.0114919435E-001 +3.1055656234E+000 
12022937.422 +6.8500678568E-001 +6.1122136330E+000  +4.5420947342E-003 +8.5953223250E+001  +6.6856328274E-003 +1.0071001371E+002  +6.8193030978E-001 +1.5358439813E+000 
12148082.603 +6.7264835272E-001 +5.5624200006E+000  +5.1907216102E-003 +8.4359081899E+001  +4.6635568932E-003 +7.6860863064E+001  +7.1042789255E-001 +1.1217400487E+000 
12273227.785 +7.0773416275E-001 +4.1110713572E+000  +4.1904385765E-003 +9.4353725260E+001  +4.5864121912E-003 +8.4811333536E+001  +7.0439179858E-001 +1.1933906615E+000 
12398372.966 +6.9235225270E-001 +3.8516527870E+000  +5.4043112395E-003 +9.1176839506E+001  +6.0481221932E-003 +9.2737289030E+001  +7.3181164594E-001 -2.9072533096E-001 
12523518.148 +7.4008702132E-001 +2.4201195667E+000  +6.1086960497E-003 +7.0967282216E+001  +4.7637042225E-003 +1.0062414585E+002  +7.2613115327E-001 +2.3811347733E-001 
12648663.329 +7.2669326558E-001 +3.0502526216E+000  +5.4473351486E-003 +8.1113943511E+001  +5.7106433585E-003 +8.1464635743E+001  +7.3725636147E-001 -2.6517759640E+000 
12773808.511 +7.4815208569E-001 +2.7160336827E+000  +7.9964031981E-003 +9.0094000762E+001  +6.2949409880E-003 +1.0449105315E+002  +7.8508398536E-001 -1.7064815660E+000 
12898953.692 +7.7176865387E-001 +1.2960307042E+000  +6.1689064568E-003 +8.6276907476E+001  +6.7260727102E-003 +9.1029178399E+001  +7.9905932739E-001 -2.9767803189E-001 
13024098.874 +8.0827665207E-001 +1.0078479996E-001  +6.5387288292E-003 +1.0303513334E+002  +6.7583202688E-003 +8.4268610985E+001  +8.0089573921E-001 -2.4496323659E+000 
13149244.055 +8.0471247227E-001 +5.5961611784E-001  +8.2945195045E-003 +8.1560455679E+001  +7.9824469700E-003 +9.1952683740E+001  +8.1699209182E-001 -2.0833002225E+000 
13274389.237 +8.2518803116E-001 -6.4742610798E-001  +8.1970466922E-003 +1.0131097647E+002  +7.2630706635E-003 +9.3450753560E+001  +8.3073691843E-001 -1.7887656331E+000 
13399534.418 +8.2956143198E-001 -1.0257551878E+000  +4.6767214192E-003 +1.0088900759E+002  +7.9418741006E-003 +1.0210567007E+002  +8.2696381147E-001 -2.0132954172E+000 
13524679.599 +8.4532725627E-001 -2.0057257392E+000  +6.3902614814E-003 +7.9392327919E+001  +6.2090827941E-003 +8.6876736663E+001  +8.8627155533E-001 -2.4889476000E+000 
13649824.781 +8.6178361911E-001 -2.2403979189E+000  +7.3614694566E-003 +8.4919160474E+001  +5.9127547577E-003 +8.2398393500E+001  +8.8423371591E-001 -2.0274754825E+000 
13774969.962 +8.9999139995E-001 -2.0817259159E+000  +7.1815072834E-003 +8.7304979334E+001  +7.1306924999E-003 +7.6296541853E+001  +8.9585809352E-001 -3.3741485872E+000 
13900115.144 +9.1905140311E-001 -3.6449788014E+000  +7.1294440503E-003 +7.5270123584E+001  +8.6028232547E-003 +9.0512917564E+001  +9.0976630089E-001 -3.6392440598E+000 
14025260.325 +9.4987178453E-001 -3.5079925610E+000  +9.0109673593E-003 +8.1772149070E+001  +8.4359797287E-003 +9.0485553736E+001  +9.4913914547E-001 -3.6088855863E+000 
14150405.507 +9.4392783718E-001 -3.7381483037E+000  +7.9522723319E-003 +8.8173476823E+001  +8.2014558481E-003 +9.7882615691E+001  +9.4455267178E-001 -3.8537468470E+000 
14275550.688 +9.5011899689E-001 -6.2179443560E+000  +7.0564820591E-003 +8.1615019886E+001  +7.2043079679E-003 +8.0158503220E+001  +9.5897762767E-001 -3.4277151210E+000 
14400695.870 +9.7382762458E-001 -5.0814592251E+000  +8.6040479889E-003 +7.7923720544E+001  +6.7928353744E-003 +8.5404176010E+001  +1.0096940060E+000 -4.9532584101E+000 
