!  2-Port S-parameters saved by WinCal
! VAR MeasName=S-Parameters (CALIBRATED_DATA) read from VNA (P5004A)
! VAR MeasDate=27/08/2024 15:30:34
! VAR NAME=S2_r6c8_RESET1_9k-100M_1
! VAR FILENAME=S2_r6c8_RESET1_9k-100M_1.S2P
! VAR DATE=27/08/2024 15:30:34
! VAR PHYS_PORTS=1,2
! VAR ObjTypeName=DATASET
! VAR IndexType=Frequency
!
# Hz S MA R 50
9000.000 +6.2714867656E-002 -1.7234940468E+002  +1.6023567877E-002 -9.6678754050E+001  +4.7063911626E-003 -7.1000798315E+000  +1.9046494639E-001 -8.7980595968E+001 
134145.181 +1.1081577802E-001 +1.6947646085E+002  +2.3105932281E-004 -1.6407207775E+002  +3.3173820013E-004 -8.6915272968E+001  +2.3907005939E-001 -1.7109585615E+002 
259290.363 +1.1334064890E-001 +1.6963456071E+002  +4.7539287199E-004 -9.7549228989E+001  +1.4897836862E-003 +3.5454036797E+001  +2.3692736179E-001 -1.6727288221E+002 
384435.544 +1.1352932905E-001 +1.6977055210E+002  +2.7337452089E-004 -1.5868673047E+002  +2.3786819450E-004 -3.3406023147E+000  +2.3731961528E-001 -1.6776963803E+002 
509580.726 +1.1428050088E-001 +1.7058136248E+002  +2.0622033574E-003 -1.3037108513E+002  +5.3371927119E-004 -1.1773249171E+002  +2.5277054627E-001 -1.6149686084E+002 
634725.907 +1.1572554757E-001 +1.7044437019E+002  +5.5824206824E-004 +4.5352389148E+001  +5.5577867143E-004 +1.0399599056E+002  +2.4463319884E-001 -1.6627864374E+002 
759871.089 +1.1798541568E-001 +1.7052929146E+002  +8.4955935250E-004 -3.8545528233E+001  +5.0653833359E-004 +1.1733557593E+002  +2.3883548409E-001 -1.6377022230E+002 
885016.270 +1.1886515926E-001 +1.6982826258E+002  +6.9172041215E-004 -1.7004414325E+002  +1.2237686043E-004 -9.8627686663E+001  +2.2775089306E-001 -1.6506320032E+002 
1010161.452 +1.1499343566E-001 +1.7037158676E+002  +4.4074028281E-004 -6.5740038917E+000  +2.3062526904E-003 -1.6766440259E+002  +1.8795522121E-001 -1.6428585247E+002 
1135306.633 +1.1732734053E-001 +1.6916651445E+002  +1.6977412576E-003 -1.6638617261E+002  +2.2434329345E-003 +6.8777302790E+001  +1.7164058691E-001 -1.6093287643E+002 
1260451.815 +1.2180203035E-001 +1.7148024270E+002  +4.1704671566E-004 -1.2740057593E+002  +9.8098688969E-004 +1.0289276655E+002  +2.5134637828E-001 -1.5878619725E+002 
1385596.996 +1.2562562527E-001 +1.7199326151E+002  +1.9521294680E-004 -8.6883216044E+001  +9.7105767636E-004 +4.9268256208E+001  +2.6444730889E-001 -1.5858614170E+002 
1510742.178 +1.2915922554E-001 +1.7199790288E+002  +9.3357995903E-004 -1.7918967735E+001  +3.7155451817E-004 +1.2137267383E+002  +2.6987115089E-001 -1.5453873114E+002 
1635887.359 +1.2794519145E-001 +1.7022579379E+002  +9.9797456583E-004 +4.5126443205E+001  +5.6422757936E-004 -4.8713823366E+001  +2.4735283409E-001 -1.5990303728E+002 
1761032.541 +1.2994434591E-001 +1.6763585077E+002  +9.9714243166E-004 -1.5407764053E+002  +1.2953427133E-003 +7.3284204018E+001  +2.0988025210E-001 -1.5720888837E+002 
1886177.722 +1.2956710748E-001 +1.6816370137E+002  +1.2778416779E-003 +1.5706454500E+002  +6.5213247835E-004 -9.9663410319E+001  +1.8569437906E-001 -1.6276217328E+002 
2011322.904 +1.3330050344E-001 +1.6686653874E+002  +1.4233378808E-003 +1.4482062660E+002  +1.0276211811E-003 -1.0817249806E+002  +2.1277559767E-001 -1.7001679923E+002 
2136468.085 +1.2491820519E-001 +1.6732550157E+002  +6.6536096699E-003 -1.7174825024E+002  +8.1536616532E-003 +1.4004311581E+002  +1.4584807083E-001 +1.7213047502E+002 
2261613.267 +1.3892074449E-001 +1.6283978489E+002  +5.5944514688E-003 -1.4890508951E+002  +3.8889982636E-003 -1.4173447407E+000  +1.5960311476E-001 -1.7952008774E+002 
2386758.448 +1.2756756477E-001 +1.6628437303E+002  +2.0725561208E-003 -2.4913035596E+001  +1.4379187203E-003 -1.5273655111E+002  +2.0192673836E-001 -1.7172384015E+002 
2511903.630 +1.3625549915E-001 +1.6259820787E+002  +1.0125254902E-003 +6.0396129046E+001  +2.2700509604E-003 -8.3015633887E+001  +2.1592682209E-001 -1.7865427235E+002 
2637048.811 +1.1865675653E-001 +1.5366754986E+002  +6.7641785087E-003 -5.8918792036E+001  +2.1735860965E-003 -1.4664777632E+002  +3.3033812701E-001 +1.6073060416E+002 
2762193.992 +1.1258027380E-001 +1.6144799029E+002  +2.3286010525E-002 +1.1803477733E+002  +4.7905915420E-003 +6.6684552556E+001  +4.5055995038E-001 +8.0937780493E+001 
2887339.174 +1.2540384570E-001 -1.7161666858E+002  +1.1548384076E-002 -2.4736906103E+001  +1.3520986215E-002 +1.3933658609E+002  +4.6276711342E-001 -1.2305527817E+002 
3012484.355 +1.0004098625E-001 +1.7654443517E+002  +5.3748158089E-003 +2.1077563643E+001  +4.7363264246E-003 -1.2337890209E+002  +3.2675915233E-001 -1.2251841096E+002 
3137629.537 +1.2678135232E-001 -1.7581356664E+002  +1.3653474645E-002 -1.1881437007E+002  +1.6651102793E-002 -5.7040056673E+001  +6.3589650493E-001 -8.0345128887E+001 
3262774.718 +1.1767775987E-001 +1.6187961027E+002  +1.3957468739E-002 +1.5218496523E+002  +4.1629852873E-002 -9.2723604379E+000  +1.0141470999E+000 -4.5250793061E+001 
3387919.900 +1.1819662421E-001 +1.4198638344E+002  +3.4277449088E-003 -5.7718526821E+001  +1.4296629021E-002 +8.5119721665E+001  +1.7439043553E-001 +8.8965915375E+001 
3513065.081 +9.3650018077E-002 +1.4143451509E+002  +2.5476702715E-002 +1.1706221159E+002  +1.5906573695E-002 -9.3697459410E+001  +3.7362447146E-001 -4.1255086804E+001 
3638210.263 +1.4468357310E-001 +1.5093963715E+002  +1.6173107684E-002 -1.1419206871E+002  +1.5927904122E-002 -1.6285928371E+002  +1.2644410479E+000 +1.3993724884E+002 
3763355.444 +1.9422630681E-001 +1.4392722486E+002  +6.9062340863E-003 +9.5696879818E+001  +1.2263471955E-002 +1.4003460260E+002  +7.5099157833E-001 +1.4563991893E+002 
3888500.626 +1.5669774377E-001 +1.3978195942E+002  +1.2402549900E-002 +3.3235417086E+001  +8.5941019724E-003 +2.8427176625E+001  +5.2733422954E-001 +1.3425098145E+002 
4013645.807 +1.7586530774E-001 +1.4085120255E+002  +4.4604894200E-003 -1.7866652806E+002  +3.4921611795E-003 +8.4173025102E+001  +6.7243343729E-001 +1.4442513543E+002 
4138790.989 +2.2726771741E-001 +1.2002273436E+002  +6.8806785640E-003 +9.8594224887E+001  +1.2585759900E-002 +2.3714279698E+001  +4.7412836534E-001 +1.2826356889E+002 
4263936.170 +1.5052487311E-001 +1.2963444201E+002  +3.6318918469E-003 -9.4225082721E+001  +6.4349147179E-003 +3.1484642670E+001  +3.4775864771E-001 +1.4560492284E+002 
4389081.352 +1.9489033853E-001 +1.2772531722E+002  +4.4157267190E-003 +3.9057155636E+001  +1.0464517119E-002 +1.5651323964E+002  +9.3147684751E-001 +1.2545695097E+002 
4514226.533 +2.1306958245E-001 +1.3936161600E+002  +1.3985098313E-002 +1.4892725948E+002  +2.1110365289E-002 +1.7256830792E+001  +9.6683764134E-001 +1.2589972314E+002 
4639371.715 +2.2230417538E-001 +1.3352022733E+002  +2.5981849489E-002 +1.1471577229E+002  +1.1659396180E-002 -5.2985654666E-001  +1.0192551717E+000 +1.1730010540E+002 
4764516.896 +3.8844028325E-001 +1.2693286287E+002  +1.2310704798E-001 -9.6763362132E+001  +6.8177438698E-002 -7.7739339301E+001  +7.9707436731E+000 +1.6510652986E+002 
4889662.078 +5.4934692596E-001 +1.2081719598E+002  +2.3798780776E-002 -5.2694097016E+001  +8.4560029350E-002 -1.8438307694E+001  +2.8014073155E+000 -1.0935764307E+002 
5014807.259 +4.1930211307E-001 +1.3843277988E+002  +2.8111872313E-002 -1.3435329976E+002  +5.6991692244E-002 -2.9158516816E+001  +2.7221819489E+000 -5.7754339619E+001 
5139952.441 +3.9426636556E-001 +1.0829165576E+002  +2.6735946948E-001 -1.7591690360E+002  +1.5245638653E-001 -1.5789872764E+002  +1.0102991359E+001 +1.4139689363E+002 
5265097.622 +4.0685243053E-001 +1.2957979742E+002  +3.4536616567E-002 +1.3118014794E+002  +3.9992682224E-002 +4.7639175736E+001  +2.9281640200E+000 +1.0833164250E+002 
5390242.804 +4.3951609983E-001 +1.2306643647E+002  +1.0228190683E-001 +5.8250041732E+001  +1.9803710380E-001 +2.4254593442E+001  +9.8039770150E+000 -1.3860646976E+001 
5515387.985 +3.7139957390E-001 +1.2667820489E+002  +5.3959785961E-002 +3.1452681154E+001  +6.2547095935E-002 +1.0771930209E+001  +5.3101610950E+000 +5.1658865981E+001 
5640533.166 +5.6193373355E-001 +1.1943075195E+002  +5.1283631642E-002 +7.8002515011E+001  +1.0308984292E-002 +7.6332153944E+001  +1.5182339964E+000 +4.0159458736E+001 
5765678.348 +5.2994176645E-001 +1.1923040454E+002  +3.3742707944E-002 -1.2065779984E+002  +2.6131036497E-003 +3.7035815121E+000  +2.6151209756E+000 +6.9905368878E+001 
5890823.529 +6.0488261607E-001 +1.1709770466E+002  +1.7614233252E-002 +9.9597857047E+001  +1.5918041943E-002 +1.3154962954E+002  +1.5412676853E+000 +3.0698834947E+001 
6015968.711 +5.1338350978E-001 +1.0444706165E+002  +1.4432614180E-002 -1.5880690134E+002  +5.6585398718E-002 +3.2006489158E+001  +2.2790067497E+000 +2.7836430355E+001 
6141113.892 +7.9489053760E-001 +9.7361319727E+001  +7.1153391352E-003 +4.6207344013E+000  +1.5695752975E-002 +3.1201268832E+001  +1.5206617374E+000 +4.9563368492E+001 
6266259.074 +7.9633845792E-001 +9.7653893665E+001  +2.1697697370E-003 +6.8958930939E+001  +1.4023165607E-002 +1.2453748825E+002  +1.6425009160E+000 +3.8460992654E+001 
6391404.255 +9.6893130312E-001 +8.5797979975E+001  +2.8287972894E-002 +7.3824881065E+001  +8.6005190710E-003 +7.8261202435E+001  +1.7145571077E+000 +2.2538807217E+001 
6516549.437 +1.0444847613E+000 +8.3465013556E+001  +2.4372019761E-002 +6.6495625755E+001  +2.4611374635E-002 +1.0869577465E+002  +1.5534341802E+000 +6.7049763955E+000 
6641694.618 +1.8592491540E+000 +5.7306669462E+001  +2.6333491565E-002 +9.8376754547E+001  +5.7112673531E-002 +4.2778199387E+001  +1.1543687934E+000 -1.9516638390E+000 
6766839.800 +1.7273726100E+000 +5.9745119148E+001  +3.1975143842E-002 +5.0384207457E+001  +4.1262494188E-002 -1.7409716125E+001  +1.3360779411E+000 -1.4134767232E-001 
6891984.981 +2.1689129765E+000 +2.7152414118E+001  +2.8452339249E-002 +7.1291909576E+000  +1.8127689475E-002 +3.0308486470E+001  +1.2124942016E+000 -6.4744727815E+000 
7017130.163 +1.9771300816E+000 +2.4658064761E+001  +1.9333537046E-002 +3.4005820917E+001  +3.0128886127E-002 +3.4084068943E+001  +1.4220194298E+000 -1.4395142185E+001 
7142275.344 +1.7275210222E+000 +8.5421353291E+000  +3.0843237193E-002 +1.9912405496E+001  +1.0806065174E-002 +1.7785441661E+001  +1.2491383985E+000 -1.2427015244E+001 
7267420.526 +1.3100890088E+000 +6.6405188633E+000  +1.8718764632E-002 +5.5031091151E+001  +9.9517028821E-003 +8.7470387756E+001  +1.3380605536E+000 -8.9927749647E+000 
7392565.707 +1.3495172673E+000 -3.1060508125E-001  +1.6090996047E-002 +8.8637526528E-001  +6.7954528614E-003 -1.5956855241E+001  +1.4331011380E+000 -7.8051173042E+000 
7517710.889 +1.1432803578E+000 -3.5852020106E-001  +4.8122086598E-003 +1.3793752743E+002  +1.4513333653E-002 -3.0812886490E-001  +1.0862562270E+000 -1.6236897440E+000 
7642856.070 +1.0742288085E+000 +3.5989533415E+000  +6.0412397458E-003 +2.8531700826E+001  +8.7698420180E-003 -5.8834619409E+000  +1.0681519948E+000 -2.3096832441E+000 
7768001.252 +1.0031907415E+000 +5.7955267735E+000  +1.3135122162E-002 +5.3344811769E+001  +6.7834260870E-003 -1.5911523125E+001  +9.3746735585E-001 +1.3036970961E+000 
7893146.433 +8.8063176514E-001 +2.3169343567E+000  +2.2272490542E-003 +1.2864091252E+001  +6.6132462530E-003 +7.0582595601E+001  +9.4895645180E-001 -2.7039876664E+000 
8018291.615 +8.4619775501E-001 +4.9315672693E+000  +8.7059638254E-003 +2.7002012903E+001  +2.6283839175E-003 +6.8976160733E+001  +8.9925439983E-001 +3.1429662918E+000 
8143436.796 +7.5085098287E-001 +3.8073227686E+000  +4.7787876173E-003 +6.6356126697E+001  +6.3108854668E-003 +4.1082815988E+001  +7.9186988958E-001 -5.7141203662E+000 
8268581.977 +6.6905522639E-001 +4.2092848198E+000  +7.2308043693E-003 +1.0046145515E+002  +6.3313173522E-003 +2.2250426876E+001  +7.1588554457E-001 +1.4904368804E+000 
8393727.159 +7.0704111379E-001 +8.0831271170E+000  +4.8140786732E-003 +4.4818523107E+001  +1.0398542734E-002 +4.5050939661E+001  +7.2326264932E-001 -9.1895232675E-001 
8518872.340 +7.0906452457E-001 +7.6216236155E+000  +6.8065354067E-003 +2.5275301246E+001  +6.5530693240E-003 +4.7963597782E+001  +6.6219838135E-001 -6.0005853069E-001 
8644017.522 +6.1230632145E-001 +3.9424503038E+000  +5.8007259541E-003 +3.8178706914E+000  +4.4851112081E-003 +1.9624591459E+001  +6.3886948863E-001 +9.2222020020E-001 
8769162.703 +6.2261413767E-001 +3.0874302568E+000  +1.9036467965E-003 +1.8387948955E+001  +5.6063230149E-003 +4.8906445886E+001  +7.1648369755E-001 +2.4471882396E+000 
8894307.885 +5.9047553158E-001 +9.5473080442E+000  +6.4699304209E-003 +5.8839052929E+000  +5.2948394813E-003 -5.6199981924E+000  +6.5517530966E-001 +3.1758680768E+000 
9019453.066 +6.2577899773E-001 +6.2966429068E+000  +6.2392378481E-003 +2.5115072285E+001  +6.4828616328E-003 +5.5380680424E+001  +6.3140172878E-001 -7.7224965919E-001 
9144598.248 +5.9769901498E-001 +1.1962376110E+000  +9.1672824431E-003 +2.0796795290E+001  +7.0314640991E-003 +6.9046057122E+001  +6.2670976974E-001 -3.5338994431E+000 
9269743.429 +5.7128927924E-001 +1.0063739027E+001  +9.5627673484E-003 +1.6753492469E+001  +5.2870954590E-003 +4.7746777456E+001  +5.7871345010E-001 -4.8101460816E+000 
9394888.611 +5.5547362261E-001 -1.7062374794E+000  +7.2462926527E-003 +4.4103577279E+001  +7.3410736382E-003 +4.3886212394E+001  +5.8945679561E-001 -7.3130528470E+000 
9520033.792 +5.3754240722E-001 -4.9903774119E-001  +7.5535608128E-003 +3.4347663752E+001  +6.5085167941E-003 +6.2748170371E+001  +5.5757716698E-001 -4.4912858168E+000 
9645178.974 +4.9510328518E-001 +3.4732947167E+000  +4.9236801608E-003 +1.7382808209E+001  +7.4589701197E-003 +5.5538087764E+001  +5.8281603228E-001 -7.9053999197E+000 
9770324.155 +5.2026355594E-001 -2.0222295008E+000  +7.1123740353E-003 +1.8791505077E+001  +6.7731334255E-003 +7.8474002955E+001  +5.8304228985E-001 -7.5383850694E+000 
9895469.337 +5.2214392902E-001 -8.0865628140E-001  +7.9273847915E-003 +2.3492366924E+001  +1.1006449194E-002 +4.2218131270E+001  +6.4800601670E-001 -5.9421136583E+000 
10020614.518 +5.6599711104E-001 -1.6996506385E+000  +7.1826126534E-003 +3.8065698278E+001  +7.9133861061E-003 +3.5880889491E+001  +5.6158234433E-001 -4.9788518105E+000 
10145759.700 +5.1649486290E-001 +3.6400952914E-001  +7.7581747614E-003 +3.8465647601E+001  +6.6220315165E-003 +8.2225453429E+000  +5.5602165980E-001 -6.0601635257E+000 
10270904.881 +4.8461973588E-001 +1.9149108271E+000  +4.4260047338E-003 +3.2307091472E+001  +6.6310833632E-003 +1.4540663819E+001  +5.7655645679E-001 -3.1910428396E+000 
10396050.063 +5.2016027826E-001 +4.3514823430E+000  +4.9470232636E-003 +3.8911593319E+001  +9.5974001363E-003 +5.7285183684E+001  +5.6394409183E-001 -3.9454856420E+000 
10521195.244 +5.6765014579E-001 +4.1720840979E+000  +7.7979254896E-003 +3.3674888168E+001  +9.0380395675E-003 +5.5131194664E+001  +5.8551114530E-001 -5.3918017695E-001 
10646340.426 +5.7867937004E-001 +9.1058604699E+000  +5.6995441800E-003 +1.5716217027E+001  +4.1426011208E-003 +6.4596656696E+001  +5.9331503655E-001 +7.9679085966E-001 
10771485.607 +5.5735608410E-001 +4.7883832891E+000  +6.8673694988E-003 +2.7544272731E+001  +7.7041795544E-003 +4.6333128394E+001  +6.2261952937E-001 -3.2352612056E+000 
10896630.788 +5.4277885968E-001 +9.0127120854E+000  +9.6256570849E-003 +4.6464073637E+001  +5.1927798021E-003 +5.1989412755E+001  +6.1280873127E-001 +1.2293408830E+000 
11021775.970 +5.8161341946E-001 +5.6838339375E+000  +3.9674346401E-003 +3.9271747851E+001  +5.4563235827E-003 +5.5423086246E+001  +6.0103868232E-001 -1.5937389362E+000 
11146921.151 +5.9057446763E-001 +5.0261879188E+000  +8.0249322879E-003 +3.5287544175E+001  +6.3196186625E-003 +3.4992188982E+001  +6.3271386256E-001 +1.1662933272E+000 
11272066.333 +5.9456133054E-001 +8.6243887502E+000  +9.2330937420E-003 +3.0668505795E+001  +5.6016807739E-003 +5.2043464699E+001  +6.2855913149E-001 +4.6135341894E+000 
11397211.514 +5.7832881131E-001 +4.7809427419E+000  +7.7428714060E-003 +3.2190327649E+001  +7.4402664277E-003 +4.9782215394E+001  +6.2171756518E-001 -1.2694043145E+000 
11522356.696 +5.9678721498E-001 +6.2858265147E+000  +9.1282113305E-003 +4.6237545637E+001  +7.7005839727E-003 +5.8438063912E+001  +6.5711625769E-001 +2.0829419146E+000 
11647501.877 +6.0244218782E-001 +5.1703363492E+000  +9.2400420929E-003 +4.4768298867E+001  +6.8662656347E-003 +5.9954351893E+001  +6.6659970234E-001 +3.5869782442E-002 
11772647.059 +6.3014765717E-001 +1.7440307255E+000  +8.5420893815E-003 +3.3855213144E+001  +7.0382575470E-003 +5.3839040212E+001  +6.8071806179E-001 +3.0867913146E+000 
11897792.240 +6.2707584556E-001 +4.8726530682E+000  +8.5632795864E-003 +5.8139576542E+001  +9.8989780580E-003 +4.1386141892E+001  +7.0281109413E-001 +3.0487281402E+000 
12022937.422 +6.4174469264E-001 +5.3667826835E+000  +8.2352092279E-003 +4.4820641804E+001  +7.3407283900E-003 +4.3177303107E+001  +6.9165768516E-001 -4.4142136027E-001 
12148082.603 +6.7830068581E-001 +5.3869457543E+000  +7.0810107817E-003 +3.6452830663E+001  +7.8290923410E-003 +5.2942233000E+001  +6.9283839601E-001 -7.2103823821E-001 
12273227.785 +6.8858543221E-001 +3.5948795662E+000  +8.8269496356E-003 +3.6023389749E+001  +7.6767585051E-003 +4.7563278610E+001  +7.0758909906E-001 +3.5444444195E-001 
12398372.966 +6.9472506080E-001 +2.4395289885E+000  +8.2836768720E-003 +5.6521250510E+001  +1.0419914326E-002 +6.0078464207E+001  +7.2528927132E-001 +1.2240241559E-001 
12523518.148 +6.9534962902E-001 +2.5816987408E+000  +9.9925709113E-003 +3.8519925307E+001  +1.0811854251E-002 +5.5090037775E+001  +7.4217226197E-001 -6.0027240813E-001 
12648663.329 +7.3637170795E-001 +2.4161604636E+000  +8.4560706105E-003 +4.6557732037E+001  +7.6428025286E-003 +5.4424451477E+001  +7.5230469643E-001 +4.1992739693E-002 
12773808.511 +7.3051944978E-001 +1.6899179949E+000  +8.1601116205E-003 +4.9397787548E+001  +9.0205885332E-003 +5.3029990979E+001  +7.6224732540E-001 -1.8910836474E+000 
12898953.692 +7.6340056607E-001 +1.1341628814E+000  +8.8049252705E-003 +5.2084540291E+001  +7.1301813625E-003 +4.1512913131E+001  +7.6162252918E-001 -2.9420377570E+000 
13024098.874 +7.6095220434E-001 +7.8868754269E-001  +8.5794703061E-003 +4.1352014461E+001  +8.0865335445E-003 +4.9954062566E+001  +7.9318520200E-001 -1.1557899973E+000 
13149244.055 +7.9716052045E-001 +3.3546632393E-001  +8.6562430803E-003 +4.4364204444E+001  +8.8965479217E-003 +5.2046830634E+001  +7.9511974668E-001 -7.9053584771E-001 
13274389.237 +8.1595271681E-001 +5.7149547394E-001  +9.3385828259E-003 +4.8426939415E+001  +8.6835851614E-003 +5.3001271784E+001  +8.1823504824E-001 -1.4183772366E+000 
13399534.418 +8.0800150459E-001 -1.3292146118E+000  +8.3965998374E-003 +4.1753936463E+001  +8.4613738216E-003 +4.4765881536E+001  +8.4514042435E-001 -1.0979801205E+000 
13524679.599 +8.2117023017E-001 -2.6596333670E+000  +8.9186565563E-003 +5.4772960891E+001  +1.0067348583E-002 +5.2324073338E+001  +8.7661127397E-001 -1.6441258691E+000 
13649824.781 +8.5654210896E-001 -8.2314052594E-001  +9.1678843780E-003 +4.2154416859E+001  +9.0144715217E-003 +5.7938966857E+001  +8.7563494632E-001 -2.5298047879E+000 
13774969.962 +8.6133026537E-001 -2.6483139262E+000  +9.2643555611E-003 +5.0670907815E+001  +1.0099779406E-002 +4.8532518773E+001  +9.1602391924E-001 -4.1595475603E+000 
13900115.144 +8.7849760573E-001 -3.1533430853E+000  +8.9968085286E-003 +4.7847955854E+001  +1.0256802327E-002 +4.8497496120E+001  +9.1335675538E-001 -2.9052818113E+000 
14025260.325 +9.1064176683E-001 -5.8333007571E+000  +9.3673648430E-003 +5.4682953041E+001  +1.0427910349E-002 +4.4458580163E+001  +9.1915713666E-001 -3.3521373690E+000 
14150405.507 +9.3532952524E-001 -4.7755740528E+000  +9.0097062489E-003 +4.3016030244E+001  +8.8358194041E-003 +4.8057397859E+001  +9.3571560262E-001 -4.9417674877E+000 
14275550.688 +9.5357907064E-001 -3.5170179258E+000  +1.0733913338E-002 +4.4559557285E+001  +8.5560446383E-003 +4.8445364540E+001  +9.7032341508E-001 -4.4369275698E+000 
14400695.870 +9.5270727983E-001 -4.8302970048E+000  +1.0006123459E-002 +4.8281444421E+001  +1.0678862783E-002 +5.1477173443E+001  +9.7484317708E-001 -4.0717860044E+000 
