!  2-Port S-parameters saved by WinCal
! VAR MeasName=S-Parameters (CALIBRATED_DATA) read from VNA (P5004A)
! VAR MeasDate=27/08/2024 17:06:24
! VAR NAME=S2_r3c9_RESET1_9k-100M_2
! VAR FILENAME=S2_r3c9_RESET1_9k-100M_2.S2P
! VAR DATE=27/08/2024 17:06:24
! VAR PHYS_PORTS=1,2
! VAR ObjTypeName=DATASET
! VAR IndexType=Frequency
!
# Hz S MA R 50
9000.000 +7.9354463415E-002 -1.7216878336E+002  +1.0667382155E-003 -7.9238314179E+001  +7.7816910561E-003 -2.0547740943E+001  +2.3190196645E-001 -1.3393505062E+002 
134145.181 +1.1050638773E-001 +1.6985400414E+002  +2.8011817685E-004 +1.4564840540E+002  +8.1895140766E-005 +7.0208386192E+001  +2.4024739155E-001 -1.7156513249E+002 
259290.363 +1.1067571391E-001 +1.7012899962E+002  +7.6218177165E-004 +1.6375102255E+002  +9.6312038373E-004 -2.9480993486E+001  +2.4788659349E-001 -1.6802654146E+002 
384435.544 +1.1365130647E-001 +1.7061059353E+002  +2.6147133979E-004 +1.0674920882E+002  +6.9150013862E-004 -1.3610265617E+002  +2.4677988292E-001 -1.6800107421E+002 
509580.726 +1.1162925898E-001 +1.7059685728E+002  +1.6924340078E-003 +1.5280330239E+002  +7.9503461900E-004 -3.1848434547E+001  +2.4075167295E-001 -1.6578370375E+002 
634725.907 +1.1600715081E-001 +1.7054205105E+002  +8.7022512598E-004 -1.5593089769E+002  +1.6252300826E-004 +1.5026748641E+002  +2.4557214321E-001 -1.6486182196E+002 
759871.089 +1.1764940385E-001 +1.7025399297E+002  +7.0013018625E-004 +7.6721622117E+001  +3.8311855795E-004 +5.7671422015E+001  +2.3868143285E-001 -1.6511475355E+002 
885016.270 +1.1855326350E-001 +1.6947868940E+002  +1.1258972487E-004 -4.8633968118E+001  +6.7760381246E-004 +1.0674509656E+002  +2.4207570814E-001 -1.6571547030E+002 
1010161.452 +1.1542403584E-001 +1.7029105535E+002  +3.8413889062E-004 +1.4222027277E+002  +1.1483170571E-003 -1.2686714553E+002  +2.0565788540E-001 -1.7190371610E+002 
1135306.633 +1.1820218965E-001 +1.7054993795E+002  +2.6247357998E-003 -2.3726360597E+001  +2.3073746005E-003 +1.6006353153E+002  +1.8640230701E-001 -1.7120754833E+002 
1260451.815 +1.2188610128E-001 +1.7061708730E+002  +2.7455086120E-003 +4.8832256920E+001  +1.3920607720E-003 -1.3263402591E+002  +2.2116294398E-001 -1.5373077147E+002 
1385596.996 +1.2844170515E-001 +1.7241717814E+002  +4.7971002951E-004 +3.7703938571E+001  +7.5273371270E-004 +8.2132710271E+001  +2.6220696752E-001 -1.6084058155E+002 
1510742.178 +1.2689494950E-001 +1.7234785980E+002  +8.3596805962E-004 +1.3755950548E+002  +8.5247588243E-004 +7.2464072625E+001  +2.6063692244E-001 -1.5571992192E+002 
1635887.359 +1.2729329586E-001 +1.6939680807E+002  +1.5294254801E-003 +8.6608446128E+001  +4.6263103488E-004 +7.0480613171E+001  +2.4001000206E-001 -1.5862613810E+002 
1761032.541 +1.2704864523E-001 +1.6915100424E+002  +6.6602649947E-004 +9.9349384368E+001  +1.3114746891E-003 -5.8911598402E+001  +2.2138077439E-001 -1.6021173247E+002 
1886177.722 +1.2910703277E-001 +1.6827904913E+002  +1.3817865214E-003 -1.5788557437E+002  +1.5534898287E-003 +1.1866069115E+002  +2.1555426172E-001 -1.5497688518E+002 
2011322.904 +1.2995601963E-001 +1.6639558345E+002  +2.8101495113E-003 -1.6694161559E+002  +2.5528962854E-003 +8.6018408447E+001  +2.0026518400E-001 -1.6930754607E+002 
2136468.085 +1.1815555674E-001 +1.6402258332E+002  +3.3191288492E-003 -4.2477381402E+001  +4.7020861286E-003 -3.9732214635E+001  +1.7660328297E-001 -1.7552279241E+002 
2261613.267 +1.2806450131E-001 +1.6442952574E+002  +1.8089045601E-003 +1.7418781089E+002  +2.7568342667E-003 +3.0234661838E+001  +1.4140788205E-001 -1.6843987929E+002 
2386758.448 +1.4072370356E-001 +1.6308836523E+002  +1.7496453700E-003 -1.3585787983E+002  +5.2746562441E-003 -3.2148395268E+001  +1.8854794063E-001 +1.4817628590E+002 
2511903.630 +1.3513893987E-001 +1.6141513156E+002  +6.7756650880E-004 -1.4724500183E+001  +4.1949925303E-003 +1.5688532463E+002  +1.6553603270E-001 +1.4581272516E+002 
2637048.811 +1.1851957078E-001 +1.5520727899E+002  +1.4320144582E-002 +5.8816995635E+000  +1.0938031028E-002 -2.6366433720E+001  +2.7696892531E-001 +1.1526643543E+002 
2762193.992 +1.2838869294E-001 +1.6065098251E+002  +1.9572424999E-003 +1.7373815545E+002  +9.7861361978E-003 -4.6139983695E+001  +7.3904165588E-002 +1.3058611150E+000 
2887339.174 +1.1460833051E-001 +1.6876083268E+002  +1.6992058785E-002 +9.1259516214E+001  +1.6789661448E-002 +3.7180292967E+000  +2.9239695263E-001 -4.3478268276E+001 
3012484.355 +1.1139847674E-001 +1.7286883932E+002  +2.5323871292E-003 -7.3030120552E+001  +1.4261292159E-003 +9.6066744549E+001  +2.6472501053E-001 -1.2642427058E+002 
3137629.537 +1.2641196854E-001 +1.7752970033E+002  +2.1742917363E-002 +7.9690954128E+001  +1.8801057182E-002 +1.1569113462E+002  +6.4959290223E-001 -3.4804992931E+001 
3262774.718 +1.3699303305E-001 +1.7424551273E+002  +1.4781083446E-002 +1.4905332569E+002  +1.6960662175E-002 -7.3196845577E+001  +6.8217407772E-001 -6.0235135866E+001 
3387919.900 +1.4236510720E-001 +1.5663132961E+002  +3.6188695878E-003 +1.4726971468E+002  +1.0930089786E-002 -1.4985656464E+002  +3.1264531986E-001 -6.8180022870E+001 
3513065.081 +1.6563666681E-001 +1.3369938540E+002  +1.0866270569E-002 +5.6018567029E+001  +4.2301066147E-003 -6.3735030055E+001  +2.7605512071E-001 +6.9726851870E+001 
3638210.263 +2.0340964546E-001 +1.4318826619E+002  +5.8166658819E-003 +1.4098933126E+001  +1.0921487238E-002 +1.2292124563E+002  +5.0193182167E-001 +1.0239641628E+002 
3763355.444 +1.7614535676E-001 +1.5350892162E+002  +5.0861423822E-003 +1.0593602672E+002  +4.0540531003E-003 -4.4457303907E+001  +5.8879609503E-001 +1.3131154631E+002 
3888500.626 +1.8268782443E-001 +1.5361181193E+002  +4.9278576937E-003 -1.3844366200E+002  +5.5894738270E-003 -1.2106631658E+002  +3.5403568042E-001 +1.3272045073E+002 
4013645.807 +1.6645651679E-001 +1.5287970571E+002  +1.8386399470E-003 -1.0268635394E+001  +2.9846574687E-003 -1.5382311521E+002  +2.8346069316E-001 +6.6897271056E+001 
4138790.989 +1.9820946363E-001 +1.3408819104E+002  +6.1883832268E-003 -1.2491096115E+002  +1.9436275797E-002 -3.1782654078E+001  +9.2125609323E-001 +5.5830861649E+001 
4263936.170 +2.0347625948E-001 +1.3648318475E+002  +1.2920459463E-002 -1.0174934227E+002  +1.4660110085E-002 -1.0563077530E+002  +1.4077643240E-001 -3.6365444716E+000 
4389081.352 +2.0234530825E-001 +1.3993748409E+002  +3.9988193578E-003 +1.2382672900E+002  +1.4506339444E-002 -9.9854738692E+001  +1.1593745459E+000 +1.3488736618E+002 
4514226.533 +2.1673989287E-001 +1.3070717155E+002  +2.1339307061E-002 +6.6573035393E+000  +1.1203647078E-002 -8.6806224705E+001  +3.9401032482E-001 +2.7185997464E+001 
4639371.715 +2.7385547857E-001 +1.3802385469E+002  +2.2113515664E-002 +5.6509736381E+001  +3.5941559084E-002 -7.1085195520E+000  +1.1084841517E+000 -2.8519752484E+001 
4764516.896 +4.8967759141E-001 +1.3824483998E+002  +1.4454903242E-001 -7.9869022950E+001  +1.5555090004E-001 +2.2177047424E-001  +8.6833816281E+000 -1.3122412111E+001 
4889662.078 +5.3836855323E-001 +1.3929647772E+002  +2.3787697612E-002 -1.5342713795E+002  +1.3100335950E-002 -3.0496275958E+001  +2.7064322282E+000 -1.4146664454E+002 
5014807.259 +4.2618024210E-001 +1.2711132597E+002  +8.5176922923E-002 +7.5706005781E+001  +3.5386040055E-002 -5.6622277710E+001  +2.4842991526E+000 +9.1285837939E+001 
5139952.441 +3.7733697718E-001 +1.1824635255E+002  +4.5333048856E-002 +7.2433525310E+001  +3.7049370398E-002 +1.7041624571E+002  +1.3262793094E+000 +1.0043595168E+002 
5265097.622 +4.2814485060E-001 +1.2697609195E+002  +3.2913821448E-002 +4.0354319215E+001  +5.8520053017E-002 -4.2046686876E+001  +2.4391934117E+000 +5.9921047997E+000 
5390242.804 +4.1798564181E-001 +1.3031434709E+002  +1.2803722465E-002 +1.5603272174E+002  +2.5539813421E-002 +1.7916819771E+002  +2.0332445165E+000 +9.0233153177E+001 
5515387.985 +4.0152224036E-001 +1.2372506808E+002  +8.2207124298E-003 +1.0088178183E+002  +1.8111914672E-002 +1.5789348283E+002  +3.2103887796E+000 +1.0832463452E+002 
5640533.166 +5.0629434990E-001 +1.3002461332E+002  +3.5110006444E-002 +1.2026974817E+002  +2.5779008356E-002 +8.7074124583E+001  +3.0576991823E+000 +6.2748569256E+001 
5765678.348 +5.7808566905E-001 +1.2697978130E+002  +2.8605849340E-002 +1.6596035070E+002  +7.9271087207E-003 +1.4142069993E+002  +2.0381936573E+000 +7.1223685635E+001 
5890823.529 +5.9755042286E-001 +1.0881285213E+002  +6.6920611679E-002 +7.8334459046E+001  +3.2942180921E-002 +3.9719556288E+001  +1.7485193466E+000 +4.9337081520E+001 
6015968.711 +6.6788609326E-001 +1.0903181335E+002  +3.4016060411E-002 +8.9467273802E+001  +2.0325322825E-002 +1.4019747669E+002  +1.5640160571E+000 +5.3854162283E+001 
6141113.892 +7.5084702653E-001 +1.0929466589E+002  +1.3886165630E-002 +9.3841885739E+001  +3.5489202744E-002 +5.9403310231E+001  +1.7483336052E+000 +4.6105222800E+001 
6266259.074 +6.7011743541E-001 +1.0228360518E+002  +7.7321885582E-003 +1.0837770304E+002  +1.2132591909E-002 +9.9062677682E+001  +2.1651666911E+000 +2.1784396077E+001 
6391404.255 +9.3715697995E-001 +8.9340333927E+001  +2.4377727165E-002 -1.3449491786E+001  +4.1211268303E-002 +6.4021739480E+000  +2.0004897606E+000 -3.0672367801E+000 
6516549.437 +1.4802932585E+000 +9.4320871628E+001  +1.3980214559E-002 -1.3857843528E+002  +3.1024808648E-002 +5.5638211169E+001  +1.2202721231E+000 +4.4892960545E+000 
6641694.618 +1.8087211053E+000 +6.6402036471E+001  +3.9198527274E-002 +7.7701386089E+001  +2.9107499528E-002 +3.0448553814E+001  +1.3004403780E+000 -7.1046537639E+000 
6766839.800 +1.6100904486E+000 +6.6612423018E+001  +2.7560311351E-002 +1.1747080648E+002  +2.3883261986E-002 +1.0136969227E+002  +1.3722352017E+000 -4.2658971012E-002 
6891984.981 +1.9572153168E+000 +2.6845200659E+001  +1.7537150077E-002 -2.1060338091E+001  +5.9380255251E-002 +6.8006913747E+001  +1.4002434122E+000 -1.0321563424E+001 
7017130.163 +2.1698295452E+000 +1.6356827101E+001  +1.2294323108E-002 -9.0022631010E+000  +4.4761834068E-002 +3.1739328579E+000  +1.4565926829E+000 -5.1484930284E+000 
7142275.344 +1.4688229896E+000 +1.1376565882E+001  +4.3460441118E-003 +1.1020607078E+001  +8.0143367250E-003 -3.7834754022E+001  +1.2752678913E+000 -1.0626681602E+001 
7267420.526 +1.4062962742E+000 +3.7299836716E+000  +1.0850475080E-002 +3.6706282016E+001  +9.3359478454E-003 +2.9457194855E+001  +1.3464663828E+000 -7.6603770612E+000 
7392565.707 +1.2150671579E+000 -1.6008236379E+000  +1.8607204347E-002 +4.8452042954E+001  +6.5529729984E-003 +5.5288517352E+001  +1.3398358767E+000 -4.0132379474E+000 
7517710.889 +1.2545060672E+000 -7.0672104642E+000  +5.5996172966E-003 +8.4176395182E+001  +2.1130790236E-002 +3.7332851503E+001  +1.3072654350E+000 -1.2126546854E+001 
7642856.070 +1.1399539903E+000 -8.8478286063E-001  +5.1346586003E-003 +8.4803251104E+001  +7.5138347559E-003 +4.0932337031E+001  +1.0568581776E+000 -5.8995236048E+000 
7768001.252 +9.3247535692E-001 +1.9928900069E+000  +8.5839454119E-003 +4.1046055447E+001  +1.7267889207E-003 +4.4787508105E+001  +1.0160791237E+000 -8.0106408607E+000 
7893146.433 +8.9670580648E-001 +7.5077152690E+000  +9.2731452090E-003 +5.3543882876E+001  +4.3874310785E-003 +4.7155015990E+001  +9.7827408664E-001 +1.0658270747E+000 
8018291.615 +8.3057234831E-001 +6.5870093678E+000  +6.6885682865E-003 -1.6139822775E+001  +4.1283200917E-003 +1.3071793328E+001  +9.0115855834E-001 -3.7793776397E+000 
8143436.796 +8.0833249303E-001 +4.7596666696E+000  +5.8645295925E-003 +7.9320227161E+001  +5.6419272979E-003 +9.2940785899E+001  +8.6321060127E-001 -4.1956353164E+000 
8268581.977 +6.8574669581E-001 +4.2237807295E+000  +1.0781444056E-002 +3.4002593364E+001  +4.0101071943E-003 +4.9916798782E+001  +7.9161864545E-001 +3.1888168107E+000 
8393727.159 +6.2860723139E-001 +1.2002581250E+001  +1.0771702573E-002 +5.0261050002E+001  +4.1948892141E-003 +5.2583461606E+001  +7.9545472044E-001 +1.8733337215E+000 
8518872.340 +6.7802791476E-001 +6.9714709849E+000  +2.6817021213E-003 +5.3132329950E+001  +1.0798596047E-002 +3.8811504824E+001  +7.7678647736E-001 +1.5364506023E+000 
8644017.522 +6.5991551816E-001 +9.5955205743E+000  +8.5111886306E-003 +3.7395758278E+001  +5.5507996519E-003 +3.1010355553E+001  +7.2979979193E-001 -2.3755898824E+000 
8769162.703 +6.0327128621E-001 -5.2486961055E-001  +7.5338453713E-003 +5.4539060695E+001  +9.6567321765E-003 +6.7024789820E+001  +6.9371438435E-001 +7.1966060057E-001 
8894307.885 +5.9225267629E-001 +8.8793306455E+000  +5.8631300478E-003 +2.1937520772E+001  +3.4508056654E-003 +4.2821787687E+000  +6.9392398815E-001 -1.9721064663E+000 
9019453.066 +5.6173942379E-001 +3.1786643159E+000  +1.1770731847E-002 +4.7662538574E+000  +7.0227698989E-003 +6.4430949432E+001  +5.7219203735E-001 -2.8569164912E+000 
9144598.248 +5.7660341951E-001 +4.7882883052E+000  +5.1482983086E-003 +3.0888273236E+001  +6.3165573679E-003 +5.8688173771E+001  +5.9692902631E-001 -7.0636672009E+000 
9269743.429 +4.9421592677E-001 +3.1046677537E+000  +8.5830925318E-003 +4.1564158262E+001  +9.1029236312E-003 +4.6294590235E+001  +5.5305973848E-001 -4.0490153757E-001 
9394888.611 +5.4707408551E-001 -1.4177916561E-001  +8.0572485295E-003 -1.2322106058E+001  +8.3310507250E-003 +6.1224557025E+001  +6.1514370040E-001 -2.2380356079E-001 
9520033.792 +5.2952638377E-001 +2.9805076745E+000  +9.7695124686E-003 +1.7880595158E+001  +8.6394591364E-003 +1.6412502096E+001  +5.8410302654E-001 -4.0153303807E+000 
9645178.974 +5.1367199699E-001 +2.1857297182E+000  +6.7490154477E-003 +4.5163338546E+001  +8.4740819090E-003 +2.2110875464E+001  +5.7821467788E-001 -9.5181067926E+000 
9770324.155 +5.1964005740E-001 +2.5989560843E+000  +6.4087487214E-003 -6.3071354337E-003  +6.3185242856E-003 +5.3969084849E+001  +5.5851284826E-001 -8.0670155936E+000 
9895469.337 +5.1127339405E-001 -2.5681591107E-001  +6.1749184069E-003 -1.0434057365E+001  +5.3876392541E-003 +4.2730648323E+001  +5.7748302904E-001 -6.3664701134E+000 
10020614.518 +5.1722979536E-001 +4.8172625972E+000  +9.1545569466E-003 +2.5110452650E+001  +7.4993732616E-003 +1.9247133086E+001  +6.3303095597E-001 -5.2935279448E+000 
10145759.700 +5.4572512609E-001 -1.4251902434E+000  +7.0412859027E-003 +2.1329961475E+001  +8.0916288671E-003 +5.6324260907E+001  +5.6711362801E-001 -1.2274573649E-001 
10270904.881 +5.4963130414E-001 +1.9051271246E+000  +9.0246347211E-003 +2.9147203992E+001  +6.1038826267E-003 +5.3927222010E+001  +5.7846295724E-001 -3.2459515673E+000 
10396050.063 +5.5806534578E-001 +2.7920931153E+000  +3.7580340743E-003 +1.7612019692E+001  +6.0156813441E-003 +2.9701337163E+001  +5.7084855011E-001 -3.9171308937E+000 
10521195.244 +5.5665691085E-001 +8.7049823721E+000  +8.3120854861E-003 +2.9426323429E+001  +8.2869861448E-003 +4.2824783276E+001  +5.7754640140E-001 -1.3684914396E+000 
10646340.426 +5.4266420382E-001 +2.6123487514E+000  +6.3205180415E-003 +3.4176754232E+001  +6.2905156628E-003 +6.0227798175E+001  +5.7551095952E-001 -1.2464416822E+000 
10771485.607 +5.6854182192E-001 +5.2443545024E+000  +7.6843648911E-003 +3.6298311824E+001  +7.5397827798E-003 +4.1506683867E+001  +5.8354881874E-001 -3.0088520526E+000 
10896630.788 +5.6617631987E-001 +4.1263856381E+000  +6.9027379471E-003 +4.8754296752E+001  +7.8748962895E-003 +5.7521087812E+001  +6.0948031521E-001 +9.4265868629E-001 
11021775.970 +5.5523477772E-001 +8.0397653826E+000  +1.1199287317E-002 +3.3757881947E+001  +9.5799200306E-003 +6.3024909748E+001  +6.0391679646E-001 -1.7159417847E+000 
11146921.151 +5.8345825880E-001 +5.0915646425E+000  +8.4647956928E-003 +4.4725630954E+001  +6.9410465610E-003 +4.9338780240E+001  +5.9924546376E-001 +1.2143989300E-001 
11272066.333 +6.0750513019E-001 +5.2972526172E+000  +6.7103692065E-003 +2.5987299595E+001  +7.5266541420E-003 +4.4145950298E+001  +6.1809018211E-001 +1.0464468493E+000 
11397211.514 +5.9944239880E-001 +5.0798170689E+000  +7.1554383160E-003 +3.7938724352E+001  +7.8017868803E-003 +4.9487774396E+001  +6.2770557473E-001 -1.2349158169E+000 
11522356.696 +6.1851429801E-001 +5.3747544556E+000  +6.9919064710E-003 +3.5529536150E+001  +7.0050312793E-003 +3.4090759953E+001  +6.4870065560E-001 +2.9410494166E+000 
11647501.877 +6.4147093230E-001 +4.2310366305E+000  +8.0410107743E-003 +4.5524634258E+001  +7.8419327977E-003 +4.4259347709E+001  +6.5408436856E-001 -1.1662565884E-001 
11772647.059 +6.2616413553E-001 +7.4510674162E+000  +7.8267921928E-003 +3.4720435511E+001  +7.9489997197E-003 +5.4947259833E+001  +6.3952690093E-001 +2.1325324437E+000 
11897792.240 +6.2605967810E-001 +2.8631251921E+000  +8.0219080319E-003 +4.1006249326E+001  +9.4682984950E-003 +4.5518902902E+001  +6.7412109763E-001 +6.8879949923E-001 
12022937.422 +6.7011315725E-001 +4.5930871266E+000  +8.1586485014E-003 +4.8997813358E+001  +8.6766804731E-003 +5.7308213266E+001  +7.1438042378E-001 -5.0071818266E-001 
12148082.603 +6.8006920169E-001 +4.3224584032E+000  +8.0838962091E-003 +5.5330284982E+001  +8.8392555297E-003 +5.1001729443E+001  +6.9077400464E-001 -1.5854507020E+000 
12273227.785 +6.9600697808E-001 +3.8082109375E+000  +7.2809137340E-003 +3.4285894228E+001  +9.3439980543E-003 +5.4707938220E+001  +7.0262493115E-001 +2.6489575174E+000 
12398372.966 +6.9431495360E-001 +3.6439096445E+000  +7.4842003732E-003 +5.5897859821E+001  +8.1612315104E-003 +4.9782629841E+001  +7.6211751065E-001 -4.5664729287E-001 
12523518.148 +7.0510975713E-001 +3.1566965422E+000  +8.1633144715E-003 +4.2159562962E+001  +7.8176325615E-003 +4.0152820946E+001  +7.6317708987E-001 -2.3557378533E+000 
12648663.329 +7.0123773130E-001 +3.5106043156E+000  +9.3778126708E-003 +4.4139922100E+001  +1.1804594535E-002 +5.9214275229E+001  +7.3848788556E-001 -1.4522673641E+000 
12773808.511 +7.4075493743E-001 +2.7356023828E+000  +8.2567512294E-003 +4.1323080863E+001  +8.5480428494E-003 +4.8915523231E+001  +7.6031634263E-001 -8.3384623577E-002 
12898953.692 +7.5188163011E-001 +2.1270398182E+000  +8.2816684933E-003 +5.4160533943E+001  +9.4995882830E-003 +4.9002464618E+001  +7.7229944658E-001 -1.7081376055E+000 
13024098.874 +7.7286507974E-001 +2.2031022060E+000  +9.5496005598E-003 +3.9285803220E+001  +9.0885910996E-003 +4.7321026113E+001  +7.9833533747E-001 -1.8256042737E+000 
13149244.055 +7.9587117696E-001 +3.5036242668E-001  +9.0531303252E-003 +4.6767903147E+001  +1.1750938019E-002 +4.8186316430E+001  +8.0979918324E-001 -2.0147463149E+000 
13274389.237 +8.0183278476E-001 -8.7885718770E-002  +1.0014773318E-002 +4.9486526435E+001  +1.0118123041E-002 +5.5222545855E+001  +8.1584125913E-001 -1.8722528666E+000 
13399534.418 +8.2264465186E-001 -7.4381913162E-001  +1.0131136143E-002 +4.3740093061E+001  +9.4863559796E-003 +3.6402255510E+001  +8.2927244417E-001 -3.7476297351E+000 
13524679.599 +8.5758102605E-001 -1.6738182885E+000  +1.2672546657E-002 +5.1229311773E+001  +1.0728472381E-002 +4.4125162997E+001  +8.5960078302E-001 -3.9586924281E+000 
13649824.781 +8.7028106015E-001 -2.2442521003E+000  +1.1239329431E-002 +4.3611950336E+001  +1.1010502896E-002 +5.1902057202E+001  +8.5333255599E-001 -3.2960455711E+000 
13774969.962 +8.6228124937E-001 -3.0364579163E+000  +1.0237754468E-002 +5.1655053440E+001  +9.8743567199E-003 +4.7088281827E+001  +9.1181510942E-001 -2.9258785942E+000 
13900115.144 +8.8790871072E-001 -2.3279520348E+000  +1.1637887318E-002 +4.7871672208E+001  +1.0463597531E-002 +4.5161942448E+001  +9.2159387609E-001 -4.0269701311E+000 
14025260.325 +9.1991010284E-001 -4.0754048656E+000  +1.1796964558E-002 +4.9959639253E+001  +1.0364107546E-002 +4.3088237476E+001  +9.3197923777E-001 -3.1885405042E+000 
14150405.507 +9.4583626574E-001 -4.1793970018E+000  +1.0838067660E-002 +4.8524560661E+001  +8.4035712405E-003 +4.6630705012E+001  +9.3591114981E-001 -3.0984030538E+000 
14275550.688 +9.5727101969E-001 -4.8881605947E+000  +9.5659902163E-003 +4.8786749716E+001  +1.0347851763E-002 +5.3951380619E+001  +9.6980393757E-001 -3.6353161211E+000 
14400695.870 +9.4869859531E-001 -4.1381089534E+000  +1.1463071099E-002 +5.1710727432E+001  +1.0684492811E-002 +5.1231584612E+001  +9.9520069940E-001 -4.8770718436E+000 
