!  2-Port S-parameters saved by WinCal
! VAR MeasName=S-Parameters (CALIBRATED_DATA) read from VNA (P5004A)
! VAR MeasDate=27/08/2024 17:01:27
! VAR NAME=S2_r3c9_formed_9k-100M_2
! VAR FILENAME=S2_r3c9_formed_9k-100M_2.S2P
! VAR DATE=27/08/2024 17:01:27
! VAR PHYS_PORTS=1,2
! VAR ObjTypeName=DATASET
! VAR IndexType=Frequency
!
# Hz S MA R 50
9000.000 +6.9808409272E-002 -1.7462672059E+002  +1.6713238512E-002 -1.2176536923E+002  +2.3369619079E-002 +1.5556416900E+001  +2.7379931510E-001 -4.2359844819E+001 
134145.181 +1.1085532054E-001 +1.6963022206E+002  +3.8073394897E-004 +5.2604005023E+001  +4.4975536270E-004 -1.2107210506E+002  +2.4087110604E-001 -1.7066671169E+002 
259290.363 +1.1217429359E-001 +1.6965119341E+002  +2.6275438411E-004 +8.5280472659E+001  +4.4971736888E-004 -1.3663391127E+002  +2.3239422578E-001 -1.6887254967E+002 
384435.544 +1.1480302418E-001 +1.7000825187E+002  +9.8927249099E-004 -9.1334561306E+000  +2.1335507368E-004 +1.9036773612E+001  +2.3642743515E-001 -1.6921540040E+002 
509580.726 +1.1442861683E-001 +1.7045655455E+002  +1.1535068464E-003 -4.8683772348E+001  +1.3614420908E-003 +4.8649328735E+001  +2.4930212474E-001 -1.6474889534E+002 
634725.907 +1.1698124016E-001 +1.7053692609E+002  +1.2390895458E-003 -1.6898295876E+001  +4.1631119102E-004 +1.5182605535E+002  +2.5218542008E-001 -1.6620678360E+002 
759871.089 +1.1903143610E-001 +1.7123716310E+002  +4.3802888627E-004 -5.1245623629E+001  +9.7511171015E-005 -5.8117640948E+001  +2.3394423863E-001 -1.6693260152E+002 
885016.270 +1.1814129597E-001 +1.6968059930E+002  +6.9267273157E-004 -1.1201924332E+002  +1.0615852666E-003 -9.2326886858E+001  +2.4174577262E-001 -1.6589973442E+002 
1010161.452 +1.1502938527E-001 +1.7142565710E+002  +9.7967497221E-004 -9.2069141126E+001  +1.2511130260E-003 +5.8572407698E+001  +1.9093821984E-001 -1.7139589647E+002 
1135306.633 +1.1733335578E-001 +1.7013670014E+002  +1.1130976854E-003 -1.2248692767E+002  +1.8805494396E-004 +9.0741209247E+001  +1.8676682966E-001 -1.7232734899E+002 
1260451.815 +1.2202112025E-001 +1.7236645452E+002  +5.2754097557E-004 -2.1604538012E+001  +3.7816458776E-004 +2.6829524932E+001  +2.2297325224E-001 -1.6175065467E+002 
1385596.996 +1.2836809296E-001 +1.7137458726E+002  +2.8568716061E-004 -3.4678080905E+001  +2.8649898815E-004 +1.1624907933E+001  +2.5535403840E-001 -1.5883285651E+002 
1510742.178 +1.2804441304E-001 +1.7107386650E+002  +1.4536287852E-003 -1.7831049671E+002  +1.1411550629E-003 -7.7195905962E+001  +2.3048687103E-001 -1.5721115009E+002 
1635887.359 +1.2892889513E-001 +1.7011042277E+002  +7.9907529716E-004 -7.6991892908E+001  +8.5748582823E-004 -3.9423433719E+001  +2.4488599358E-001 -1.5835113487E+002 
1761032.541 +1.2807838975E-001 +1.6938641092E+002  +2.3013962560E-003 +3.1424767887E+001  +1.7343418601E-003 +1.1602817981E+002  +2.2334103184E-001 -1.4793548704E+002 
1886177.722 +1.3400662141E-001 +1.6738675316E+002  +3.8342981660E-004 +9.8223191077E+001  +7.6172413648E-004 +1.4100332196E+002  +1.9029739172E-001 -1.6075739491E+002 
2011322.904 +1.2875848439E-001 +1.6554151428E+002  +3.5978881456E-003 +4.5018942530E+001  +5.6587204924E-003 -4.4321788026E+001  +1.7413391718E-001 +1.7251742614E+002 
2136468.085 +1.3184311427E-001 +1.6629552358E+002  +1.9314400070E-003 -1.2312148369E+001  +5.4996275888E-003 -1.2267194991E+002  +1.4663856112E-001 +1.7858466753E+002 
2261613.267 +1.3619451793E-001 +1.6401465909E+002  +3.5256282189E-003 +5.7964219321E+001  +3.1877426818E-003 -4.1021969794E+001  +2.1099035226E-001 -1.7967140576E+002 
2386758.448 +1.3950168759E-001 +1.5978402274E+002  +3.1735807240E-003 +1.2931849444E+002  +5.4441367934E-003 -2.2111065150E+001  +1.9860042574E-001 +1.6905337025E+002 
2511903.630 +1.3075983013E-001 +1.6339423563E+002  +9.1715295154E-003 +5.1017036106E+001  +1.0487521754E-002 -9.5306674670E+000  +2.4368837220E-001 +1.2752220210E+002 
2637048.811 +1.1861616210E-001 +1.6052499747E+002  +1.2768031737E-002 +7.5241996772E+001  +1.0139295948E-002 -4.1496386411E+001  +1.6240304323E-001 +1.5502761806E+002 
2762193.992 +1.1259952938E-001 +1.4888259035E+002  +2.3230132848E-002 +3.7841682307E+001  +1.9591799865E-002 -4.4058204705E+001  +7.7133777612E-002 -4.6615730086E+001 
2887339.174 +1.3633396401E-001 +1.6699135612E+002  +1.4638367648E-002 -6.7517064552E+001  +6.6120873999E-003 -1.5922530243E+002  +2.4102534930E-001 -9.4191925914E+001 
3012484.355 +1.0569460136E-001 +1.7842062782E+002  +3.0985887162E-002 +1.0654866138E+001  +2.0583058119E-002 +1.7038660428E+002  +3.4006068587E-001 -9.0136032212E+001 
3137629.537 +1.3091760229E-001 +1.7248829699E+002  +1.2447995781E-002 -4.1559398758E+000  +1.6488657872E-002 -7.2582058996E+001  +9.8486356075E-002 -2.4946107159E+001 
3262774.718 +1.2158085816E-001 +1.6532382182E+002  +6.3942071621E-003 -6.6254270284E+000  +9.4545675307E-003 -8.9939896264E+001  +6.4861405080E-002 -1.0599285109E+002 
3387919.900 +1.2237531349E-001 +1.4210824613E+002  +1.7700521218E-001 +1.2016980829E+002  +2.7735906004E-001 +7.7143104773E+000  +3.5280704955E+000 +5.4976634791E+001 
3513065.081 +1.4134324230E-001 +1.4601311506E+002  +7.8586852871E-002 +5.6158235113E+001  +4.9130416774E-002 +4.8787390703E+001  +1.0841376176E+000 +5.0980227523E+001 
3638210.263 +1.6478826173E-001 +1.5299422471E+002  +4.9174255501E-002 +1.7892792094E+002  +3.7668365325E-002 +1.1465965432E+002  +2.1414637710E+000 +1.6089694078E+002 
3763355.444 +1.6541973412E-001 +1.5778242454E+002  +2.3705204539E-002 +1.4508330308E+002  +6.5195018887E-002 +5.6678228980E+001  +2.7684988670E+000 +1.6211219397E+002 
3888500.626 +1.6317692567E-001 +1.5719089705E+002  +1.4109578632E-002 +1.1588391337E+002  +2.5510211762E-002 +7.7035848636E+001  +8.2413873916E-001 +1.5562610743E+002 
4013645.807 +1.7770320490E-001 +1.4991631075E+002  +7.3053466390E-003 +1.2154813939E+002  +1.8097006488E-002 +3.1709963923E+001  +5.6516346678E-001 +1.5524213335E+002 
4138790.989 +1.9910614951E-001 +1.3176708223E+002  +3.9833382437E-003 -1.7478595846E+002  +1.8031541152E-002 +4.0686091336E+001  +3.5477206961E-001 +1.4394790367E+002 
4263936.170 +1.8309520877E-001 +1.5119121136E+002  +1.6651699568E-002 +1.2380745186E+002  +2.7669833656E-002 +2.8039009119E+001  +7.0657133908E-001 +1.2708912657E+002 
4389081.352 +2.0403741056E-001 +1.3098784881E+002  +5.8531249378E-002 +7.6168383775E+001  +6.4089056131E-002 -4.4847172759E-001  +1.1733192193E+000 +7.3974683780E+001 
4514226.533 +2.3814777918E-001 +1.3611575518E+002  +2.9665762055E-002 +1.3158007467E+002  +4.9046797739E-002 +7.1402324357E+001  +8.9909317057E-001 +1.1224134548E+002 
4639371.715 +2.7542334855E-001 +1.2930980647E+002  +6.6640126015E-002 +5.9666789104E+001  +6.4867268917E-002 +3.5533728390E+001  +1.7841990503E+000 +4.8763947222E+001 
4764516.896 +2.9285229619E-001 +1.3545950468E+002  +8.4381735259E-002 +1.2641932773E+002  +4.1003572513E-002 +8.8593826572E+001  +1.4469141828E+000 +1.1425948291E+002 
4889662.078 +3.6706890271E-001 +1.2491850259E+002  +2.4605575382E-001 -1.7962883384E+001  +2.2079351510E-001 -5.3557776735E+001  +5.2169867601E+000 -6.5317611604E+001 
5014807.259 +3.8939211265E-001 +1.2501626826E+002  +1.0652841034E-001 +1.0452776019E+002  +8.6306747153E-002 +5.9600936167E+001  +2.9734888678E+000 +7.5063181373E+001 
5139952.441 +3.8645330545E-001 +1.3781311117E+002  +7.5382358007E-002 +1.0115482941E+002  +1.0455838578E-001 +6.7540857832E+001  +2.5073730379E+000 +7.9423030946E+001 
5265097.622 +4.1682095743E-001 +1.3376815417E+002  +3.8106277727E-002 +1.1385081983E+002  +9.7128170740E-002 +5.7294876192E+001  +2.2956201574E+000 +7.1561693188E+001 
5390242.804 +4.2790317157E-001 +1.3330277595E+002  +5.3429482051E-002 -1.7418572216E+002  +5.3597601533E-002 +1.5223744163E+002  +2.6237735146E+000 +1.2880680690E+002 
5515387.985 +3.8808260239E-001 +1.2183514564E+002  +6.4955411661E-002 +6.5004738047E+001  +5.6119661592E-002 +6.5953681152E+001  +1.3136613079E+000 +7.5147750265E+001 
5640533.166 +4.2749853192E-001 +1.2417958445E+002  +7.2930554723E-002 +9.0326936763E+001  +6.2345787045E-002 +7.4975092294E+001  +1.8210112992E+000 +8.5147229236E+001 
5765678.348 +6.0857077517E-001 +1.2158161817E+002  +9.3675271327E-002 +8.7127265813E+001  +7.6559113988E-002 +4.5348112774E+001  +2.2664572536E+000 +5.8717369498E+001 
5890823.529 +5.1677754040E-001 +1.2813062782E+002  +7.7257449450E-002 +9.3335621737E+001  +1.1540135744E-001 +7.3954434331E+001  +3.4024064775E+000 +8.5074691744E+001 
6015968.711 +6.7175612859E-001 +1.0706558102E+002  +8.0084903956E-002 +8.0680513227E+001  +9.4684004782E-002 +4.1258504083E+001  +1.9902207849E+000 +4.8813642869E+001 
6141113.892 +8.0663859023E-001 +1.0580093769E+002  +8.6678442673E-002 +6.2491573863E+001  +1.0578109615E-001 +5.5660579652E+001  +1.8879437634E+000 +4.4360621805E+001 
6266259.074 +6.7163512650E-001 +1.0306696795E+002  +5.2716235552E-002 +5.5402217762E+001  +6.3636095979E-002 +2.5130276437E+001  +1.1015931687E+000 +2.0737580783E+001 
6391404.255 +1.0706638645E+000 +9.1006395147E+001  +1.1292125357E-001 +5.8675644870E+001  +1.3377700328E-001 +3.1138229650E+001  +2.1847742529E+000 +1.7555384158E+001 
6516549.437 +1.3312421678E+000 +7.8983649439E+001  +1.3788900665E-001 +4.2993708300E+001  +1.1398307908E-001 +2.4489078217E+001  +1.8950138759E+000 +1.6387152698E+001 
6641694.618 +1.2189706988E+000 +7.3462834423E+001  +7.2973133051E-002 +2.7750199849E+001  +8.8103121019E-002 +1.7799964605E+001  +1.3006428501E+000 -8.4009315590E+000 
6766839.800 +1.8226020027E+000 +5.0700908175E+001  +1.3186877198E-001 +2.2960052330E+001  +9.9150523163E-002 +2.3228799043E+001  +1.1544521096E+000 +1.2692616134E+001 
6891984.981 +1.5169207498E+000 +4.4345124907E+001  +9.0345875878E-002 +1.3695077476E+001  +7.9339467137E-002 +1.2510382344E+001  +1.5736127921E+000 -1.0964957791E+001 
7017130.163 +1.5958371268E+000 +1.6704051718E+001  +9.0435247145E-002 -1.7200857254E+000  +8.2798587362E-002 +1.2244378154E+001  +1.3629946109E+000 -1.2201641893E+001 
7142275.344 +1.4424817044E+000 +1.7601507769E+001  +5.7730161452E-002 +2.6799825661E+001  +5.4814746170E-002 +2.3237017106E+000  +1.2331172404E+000 -1.4402851895E+001 
7267420.526 +1.4916858851E+000 -5.5583568725E+000  +6.6330858877E-002 +2.0920842486E+000  +6.5822432298E-002 -4.3302984481E-001  +1.2484780952E+000 -1.4007340326E+001 
7392565.707 +1.3695047228E+000 +6.3036348647E-001  +4.5012176397E-002 +6.6331337969E+000  +4.8688902400E-002 +1.6473256774E+001  +1.1702528559E+000 -4.6183311457E+000 
7517710.889 +1.0626317604E+000 +2.5740748019E+000  +3.8782708684E-002 +1.9131045269E+001  +3.9253843163E-002 +4.4009762858E+000  +1.2150028468E+000 -3.2619971547E+000 
7642856.070 +1.0914962565E+000 +9.9911303412E+000  +3.3717281784E-002 +1.4340181621E+001  +3.2053741848E-002 +2.1504768076E+001  +1.1073263750E+000 -8.7889532271E+000 
7768001.252 +8.4825627230E-001 +9.5966438706E+000  +2.9976638332E-002 +1.6623487334E+000  +3.5051942614E-002 +1.1986811712E+001  +9.1921436760E-001 -4.7965520055E+000 
7893146.433 +8.4900330474E-001 +2.0686486782E+000  +3.9126957665E-002 +1.5757918729E-001  +3.8664975559E-002 +1.2561507550E+001  +1.0054240800E+000 -4.8801815142E+000 
8018291.615 +7.1988911464E-001 +1.8037023011E+000  +3.5077342704E-002 +8.9850068889E+000  +4.2924864677E-002 +8.7771696087E+000  +8.6569000354E-001 -3.1651852534E+000 
8143436.796 +7.2723022009E-001 +1.1949608339E+001  +2.7919486023E-002 +1.0257974886E+001  +3.2681565010E-002 +1.2075597844E+001  +7.8772279749E-001 -3.2532995106E+000 
8268581.977 +6.8370705140E-001 +4.9503175919E+000  +3.4982164199E-002 -2.0838719659E+000  +3.2570599376E-002 +9.1093720455E+000  +7.2708698265E-001 +4.5537064719E+000 
8393727.159 +7.0187466440E-001 +8.5067166159E+000  +3.1068600935E-002 -4.2511385346E-001  +2.9652941401E-002 +1.6412031955E+001  +7.0007798007E-001 +1.1178861486E+000 
8518872.340 +7.1186342455E-001 +1.3358834044E+001  +2.8323876742E-002 +4.7587581424E+000  +3.0753810119E-002 +1.3432176342E+001  +6.6195698177E-001 +3.8694746904E-001 
8644017.522 +5.6482180104E-001 +3.1903263474E+000  +3.1851234483E-002 -1.6714006746E+000  +3.1885728152E-002 +6.6350123215E+000  +6.9775664935E-001 +3.4829717321E-003 
8769162.703 +5.9604156830E-001 +3.9194208483E+000  +3.1385059828E-002 +5.2831141367E+000  +3.0706222000E-002 +1.4691618656E+001  +6.7647161023E-001 -8.0678233607E+000 
8894307.885 +5.6559761248E-001 +4.2685278381E+000  +2.6069071603E-002 +3.1438154747E+000  +2.9127248487E-002 +1.5096584971E+001  +6.2689812543E-001 -6.1054824592E+000 
9019453.066 +6.0271248292E-001 +6.5729784731E+000  +2.9916814868E-002 +9.3682086396E+000  +3.0453900645E-002 +1.5368746135E+001  +6.0307362022E-001 -2.2276558890E+000 
9144598.248 +5.7265755917E-001 +2.0497688201E+000  +3.4330362085E-002 -4.1385438221E-001  +3.2039393808E-002 +1.6034203377E+001  +6.0034678491E-001 -8.2324914921E-001 
9269743.429 +5.5272398903E-001 +1.1061629570E+001  +2.8869954801E-002 +4.8616518221E-001  +2.9322148492E-002 +1.7854609659E+001  +5.9146886205E-001 +2.0657444720E+000 
9394888.611 +5.4962164228E-001 +6.6928461076E+000  +3.0472538239E-002 +7.0386259215E+000  +3.3789276416E-002 +2.0353491601E+001  +5.7675481142E-001 -4.0978623936E+000 
9520033.792 +5.0317147523E-001 +4.2979119659E+000  +3.0960276923E-002 +1.7073331170E+000  +3.1697415124E-002 +1.4184397691E+001  +5.3898702267E-001 -2.6084882902E+000 
9645178.974 +4.8866871119E-001 -1.5325118999E+000  +2.8887256893E-002 +5.0648963110E-001  +3.1205424560E-002 +1.4590679972E+001  +5.5073207086E-001 -4.9610634812E+000 
9770324.155 +5.0481246339E-001 -3.1690714475E+000  +3.0524864423E-002 +8.9465666022E-001  +3.3060173670E-002 +1.5310047789E+001  +5.3037529912E-001 -8.7241890884E+000 
9895469.337 +5.0357350665E-001 +1.4676246898E+000  +3.0029045458E-002 +4.0779721650E+000  +3.1446213667E-002 +1.4520766187E+001  +5.3990259002E-001 -3.9673485761E+000 
10020614.518 +5.2485807781E-001 +3.5534185670E+000  +3.5165404593E-002 +6.9738416908E+000  +3.1222721109E-002 +1.9401353593E+001  +6.0816317737E-001 -3.4392060544E+000 
10145759.700 +5.3553271816E-001 +4.2817794238E+000  +2.9264635793E-002 +5.8684802076E+000  +3.3680095687E-002 +1.9040699482E+001  +5.5699503467E-001 -3.1956277078E+000 
10270904.881 +5.0903685688E-001 +4.2341526416E+000  +3.2310611857E-002 +1.1574918630E+000  +3.1966567565E-002 +1.9406874337E+001  +5.6885661656E-001 -3.7036583184E+000 
10396050.063 +5.3821062496E-001 +4.6053947334E+000  +3.0223531583E-002 +4.5532067523E+000  +2.9707053780E-002 +1.6348027132E+001  +5.6133472062E-001 +4.4170794668E-001 
10521195.244 +5.2615928171E-001 +7.1032652086E+000  +3.0120190474E-002 +4.5785442486E+000  +2.8169184046E-002 +2.0904466506E+001  +5.4581082853E-001 -5.9644696060E-001 
10646340.426 +5.3500482203E-001 +8.3674748118E+000  +3.1623399389E-002 +9.3291030627E+000  +3.1983388788E-002 +1.9190901553E+001  +5.9046913794E-001 +1.0698110567E-001 
10771485.607 +5.0963549372E-001 +8.8271726116E+000  +3.2823839318E-002 +7.0054832588E+000  +3.2374013652E-002 +2.0971260966E+001  +5.5602357047E-001 -4.6596730422E+000 
10896630.788 +5.3626307912E-001 +8.1046243665E+000  +3.3779938957E-002 +5.3733053384E+000  +3.0338402445E-002 +1.8124335296E+001  +5.9199605957E-001 +2.4254432051E+000 
11021775.970 +5.4000747382E-001 +6.4179307790E+000  +3.2404393872E-002 +6.9352235828E+000  +3.2863181675E-002 +1.7837010959E+001  +5.9275021832E-001 +2.0497985819E+000 
11146921.151 +5.3765240753E-001 +8.6630465590E+000  +3.4257000121E-002 +7.3883408061E+000  +3.1521827399E-002 +1.9212607973E+001  +5.5647610571E-001 -2.1730285833E+000 
11272066.333 +5.7500147622E-001 +1.0412764293E+001  +3.4757445609E-002 +2.7034068208E+000  +3.3229942015E-002 +1.8928077500E+001  +6.0138151954E-001 +3.3619053291E+000 
11397211.514 +5.8574631777E-001 +3.7112649228E+000  +3.6638344036E-002 +1.0816904783E+001  +3.3325055660E-002 +2.0985318551E+001  +6.0393287570E-001 +1.9527738981E+000 
11522356.696 +6.1478518450E-001 +6.3942545684E+000  +3.4039531993E-002 +8.0174883181E+000  +3.3407910891E-002 +1.9887750885E+001  +6.2264248736E-001 +2.1329354329E+000 
11647501.877 +6.0075777639E-001 +8.7283048068E+000  +3.4651591252E-002 +8.7068022803E+000  +3.5349370291E-002 +1.8356096984E+001  +6.2650929037E-001 +3.4339647788E+000 
11772647.059 +6.0362567478E-001 +6.5437087863E+000  +3.7027063631E-002 +9.9991781597E+000  +3.3015680233E-002 +2.1281220783E+001  +6.4578098285E-001 -1.0054109084E+000 
11897792.240 +6.1171467899E-001 +5.1042231093E+000  +3.6829016772E-002 +9.5740312238E+000  +3.5757030486E-002 +2.0533461347E+001  +6.1901924548E-001 +6.5159824755E-001 
12022937.422 +6.5673110319E-001 +5.5532031505E+000  +3.5974854320E-002 +1.1245354817E+001  +3.7302820125E-002 +1.8787483084E+001  +6.5418983983E-001 +1.2931388590E+000 
12148082.603 +6.5320556615E-001 +4.7674138383E+000  +3.6575424284E-002 +1.0958075980E+001  +3.6206101840E-002 +1.8068546040E+001  +6.7075187008E-001 +8.9795846890E-001 
12273227.785 +6.5334579009E-001 +3.1068949131E+000  +3.6406048185E-002 +8.2359132613E+000  +3.4900918201E-002 +1.9681001057E+001  +6.6449271978E-001 -2.5323710237E-001 
12398372.966 +6.7830803772E-001 +4.1526358923E+000  +3.7155454898E-002 +1.0995089098E+001  +3.6413355238E-002 +2.0315446831E+001  +6.8079453383E-001 +1.0687323046E+000 
12523518.148 +6.6415440959E-001 +3.2992325926E+000  +3.7400151349E-002 +1.1924305005E+001  +3.5513493017E-002 +1.7063823496E+001  +7.0684309339E-001 -6.9093455089E-001 
12648663.329 +7.0886740959E-001 +3.3332400504E+000  +3.8566332408E-002 +1.1256530770E+001  +3.6371853234E-002 +1.5831448837E+001  +7.2763973951E-001 -1.0647657583E-001 
12773808.511 +7.1928448106E-001 +2.9160809081E+000  +3.9200595694E-002 +1.3036458752E+001  +3.7948810047E-002 +1.7469779901E+001  +7.4289830748E-001 -2.2879269948E-001 
12898953.692 +7.5089566485E-001 -3.1859669537E-001  +3.9669036826E-002 +1.4137318784E+001  +3.8455014256E-002 +1.7676004209E+001  +7.4429820929E-001 -2.0971569073E+000 
13024098.874 +7.2232572342E-001 +2.5306437281E+000  +3.7938405849E-002 +8.9005231777E+000  +3.7896864294E-002 +1.5791804619E+001  +7.3688915617E-001 -9.6089110738E-001 
13149244.055 +7.4882707351E-001 -1.4964159034E+000  +3.9875685410E-002 +1.1675605536E+001  +3.9997121132E-002 +1.2465437030E+001  +7.6633090655E-001 -1.6952332865E+000 
13274389.237 +7.8476983034E-001 +3.9314789091E-001  +3.9135181176E-002 +1.4372556852E+001  +3.7925471695E-002 +1.6740443649E+001  +7.5730238515E-001 -1.7818669572E+000 
13399534.418 +8.0085011990E-001 -2.5536052294E-001  +3.9836595868E-002 +1.4788771402E+001  +3.9663877388E-002 +1.6411567641E+001  +8.1604055395E-001 -1.4534114618E+000 
13524679.599 +8.1224202419E-001 -5.0384142771E-001  +3.8521010061E-002 +1.2115389849E+001  +4.0637773020E-002 +1.6756728515E+001  +8.2345799580E-001 -1.7151679542E+000 
13649824.781 +8.1399985649E-001 -1.6831694751E+000  +4.0119682845E-002 +1.5274572820E+001  +3.9976528315E-002 +1.5401772585E+001  +8.5032084897E-001 -3.7706935625E+000 
13774969.962 +8.4620566479E-001 -2.0685345297E+000  +4.1292245945E-002 +1.3555194870E+001  +3.9958498763E-002 +1.5628504089E+001  +8.5480318873E-001 -3.3083433482E+000 
13900115.144 +8.6264086787E-001 -3.1681257770E+000  +4.1398549033E-002 +1.2898744007E+001  +4.1559678417E-002 +1.4500808099E+001  +8.5595551114E-001 -2.8926377531E+000 
14025260.325 +8.8634033011E-001 -3.1152795449E+000  +3.8721843179E-002 +1.2672665439E+001  +4.0701263265E-002 +1.4286480208E+001  +8.9539153396E-001 -4.5807899838E+000 
14150405.507 +8.7843658237E-001 -3.9128872184E+000  +4.2113025866E-002 +1.4107375534E+001  +4.1198285513E-002 +1.3089405131E+001  +9.0397636367E-001 -3.7191259952E+000 
14275550.688 +9.1240190705E-001 -5.5079564229E+000  +4.2148958522E-002 +1.2366033998E+001  +4.0328923554E-002 +1.6134476784E+001  +9.2731552834E-001 -5.5528875922E+000 
14400695.870 +9.1879590299E-001 -4.9069426983E+000  +4.2095189419E-002 +1.2037516926E+001  +4.2227233694E-002 +1.1658484038E+001  +9.4928845287E-001 -3.8594468553E+000 
