!  2-Port S-parameters saved by WinCal
! VAR MeasName=S-Parameters (CALIBRATED_DATA) read from VNA (P5004A)
! VAR MeasDate=27/08/2024 15:31:03
! VAR NAME=S2_r6c8_RESET1_9k-100M_3
! VAR FILENAME=S2_r6c8_RESET1_9k-100M_3.S2P
! VAR DATE=27/08/2024 15:31:03
! VAR PHYS_PORTS=1,2
! VAR ObjTypeName=DATASET
! VAR IndexType=Frequency
!
# Hz S MA R 50
9000.000 +5.7813527157E-002 -1.6453007308E+002  +2.0968538446E-002 -9.6535340759E+001  +1.1264374809E-002 -9.3752386906E+001  +2.8143751779E-001 -1.2011195328E+002 
134145.181 +1.1119536874E-001 +1.6974497632E+002  +4.2155741743E-004 -3.6184166666E+001  +6.2394143156E-004 -5.7688789977E+001  +2.3872322922E-001 -1.7142021066E+002 
259290.363 +1.1150127037E-001 +1.7009212942E+002  +2.1639727743E-004 -1.7607975777E+002  +5.9255908447E-004 +4.8987827221E+001  +2.4496581593E-001 -1.6894373814E+002 
384435.544 +1.1384455335E-001 +1.7015374336E+002  +8.2042925797E-005 +6.5846021325E+001  +3.0558773774E-004 +7.3809844934E+001  +2.4447189428E-001 -1.6827825641E+002 
509580.726 +1.1365292647E-001 +1.7032276726E+002  +6.2297279391E-004 +6.9102168621E+001  +7.3392679477E-004 +1.2039684169E+002  +2.3661735148E-001 -1.6155018359E+002 
634725.907 +1.1811365757E-001 +1.7076093709E+002  +8.9234083833E-004 +1.7455528937E+002  +5.6377639289E-004 +1.2508574606E+002  +2.4751901547E-001 -1.6592797080E+002 
759871.089 +1.1839712046E-001 +1.7082569925E+002  +3.2987653350E-004 +7.0325404317E+001  +2.7064093389E-004 +5.9177380795E+000  +2.4671159728E-001 -1.6564098172E+002 
885016.270 +1.1859326736E-001 +1.6934142789E+002  +2.6599444779E-004 +1.1033491038E+002  +8.5294483723E-004 +5.2713085259E+001  +2.3991353890E-001 -1.6448802597E+002 
1010161.452 +1.1404652039E-001 +1.7142009734E+002  +1.7052479549E-003 +1.9889180876E+001  +3.0887945439E-003 +1.6226239574E+002  +1.4705340210E-001 -1.7632592425E+002 
1135306.633 +1.1645537049E-001 +1.6986554482E+002  +1.2283467458E-003 +1.0205832194E+002  +7.9700434007E-004 -7.7088464480E+001  +1.9623851685E-001 -1.7094879142E+002 
1260451.815 +1.2126619548E-001 +1.7133664029E+002  +4.9714087771E-004 +1.5105609308E+002  +1.7407503585E-003 +1.4357308912E+002  +2.4045524397E-001 -1.5800659262E+002 
1385596.996 +1.2564006827E-001 +1.7257760277E+002  +7.5034164523E-004 -3.7753190456E+001  +1.5749441751E-003 +1.4054158958E+002  +2.7576092949E-001 -1.5825026648E+002 
1510742.178 +1.2928501730E-001 +1.7183979975E+002  +6.7981465207E-004 -1.1848690382E+002  +4.5494563623E-004 +5.3116625663E+001  +2.5945554471E-001 -1.5940420527E+002 
1635887.359 +1.2940413001E-001 +1.7072993094E+002  +8.9536604681E-004 +3.4980176452E+000  +3.3581850650E-004 -9.8830283239E+001  +2.4844337160E-001 -1.5784614806E+002 
1761032.541 +1.2762011604E-001 +1.6926660172E+002  +8.0772131525E-004 +1.6796938184E+002  +9.0712861212E-004 +1.3323889061E+002  +2.2070334525E-001 -1.6000584729E+002 
1886177.722 +1.2539085318E-001 +1.7050386732E+002  +5.8372099238E-003 +7.8316594185E+001  +1.1187295523E-003 -1.4435576203E+001  +1.5739854708E-001 -1.5767746658E+002 
2011322.904 +1.2979845127E-001 +1.6753813696E+002  +9.6849407675E-004 +1.2128840620E+001  +1.2812471068E-003 +1.0363116883E+002  +2.1396089569E-001 -1.6931640026E+002 
2136468.085 +1.3442234028E-001 +1.6634194832E+002  +2.8386130558E-003 +1.2697352473E+002  +2.1626082641E-003 -9.8634923599E+001  +1.7090906458E-001 -1.7699860654E+002 
2261613.267 +1.2590789469E-001 +1.6420870972E+002  +5.3088905290E-003 -1.5694844091E+002  +3.6794209660E-003 -1.1921431940E+002  +1.7825538054E-001 +1.5014564879E+002 
2386758.448 +1.2628073207E-001 +1.6665351836E+002  +9.6803299480E-004 -1.6672667386E+002  +5.6424241871E-003 +5.1951393428E+000  +1.9508592311E-001 +1.5657747875E+002 
2511903.630 +1.3108295123E-001 +1.6944971569E+002  +5.1869379022E-003 +1.3493874597E+002  +3.6949471417E-003 +1.1142409980E+001  +2.5180308945E-001 +1.5517516383E+002 
2637048.811 +1.4135634194E-001 +1.5530763301E+002  +5.8077272998E-003 +4.8807049165E+000  +1.3973777306E-002 +2.9791229286E+001  +3.4881118193E-001 +1.1971672492E+002 
2762193.992 +1.1514712326E-001 +1.7033004854E+002  +2.2369894986E-002 +1.6166581781E+002  +2.0818423407E-002 +1.3534320638E+002  +1.0406922870E+000 -9.9150103311E+001 
2887339.174 +1.2301101710E-001 +1.6743462007E+002  +6.2124597132E-003 -9.4104546671E+001  +7.3803219835E-003 +1.2916201542E+002  +3.4123217272E-001 -5.5081800125E+001 
3012484.355 +9.7350495201E-002 +1.6802680886E+002  +2.5336657056E-002 -1.1771180784E+001  +4.6550554645E-003 -1.4523019222E+002  +6.2230952359E-001 -1.0969349396E+002 
3137629.537 +1.2858085774E-001 -1.7623954490E+002  +8.0879466617E-003 -1.1442835282E+002  +5.6454743669E-003 -1.6719218437E+002  +3.4624781155E-001 -7.8030250970E+001 
3262774.718 +1.0910477331E-001 +1.6924781839E+002  +2.1626280812E-002 -5.4741737009E+000  +7.5520589449E-003 -1.3874177498E+002  +1.5713130336E+000 -9.3367598550E+001 
3387919.900 +1.2835675704E-001 +1.6332169453E+002  +7.4486843929E-003 +2.9573500574E+001  +3.5188512979E-003 +1.5401649575E+002  +3.8792530927E-001 +1.2929432081E+002 
3513065.081 +1.3363501135E-001 +1.1621296590E+002  +7.5382798830E-002 -8.4512654363E+001  +9.0303411476E-002 +8.1819665071E+001  +2.2097153074E+000 -1.1657665306E+002 
3638210.263 +1.8824680976E-001 +1.4565973791E+002  +4.6899379912E-004 -3.5368269163E+001  +1.2583330316E-002 +8.0018091661E+001  +3.3000373844E-001 +1.3388019816E+002 
3763355.444 +1.6452666640E-001 +1.4829824570E+002  +6.8988715946E-003 +8.8026110756E+001  +1.4417485494E-002 +1.0774470448E+002  +7.0885117290E-001 +1.3001699044E+002 
3888500.626 +1.8871710240E-001 +1.4693403611E+002  +3.5964798672E-002 +1.5942845168E+002  +8.5393326554E-003 +4.3918660123E+001  +9.0435467945E-001 +7.0436750092E+001 
4013645.807 +1.6860901324E-001 +1.4310022491E+002  +3.9379425809E-003 -2.1689012776E+001  +1.9754706751E-002 +9.6408895847E+001  +5.7870883057E-001 +7.0591796343E+001 
4138790.989 +1.1456072773E-001 +1.4621199086E+002  +1.8391155730E-002 +1.3512225459E+002  +1.1241492360E-002 -7.2266918676E+001  +1.1322428660E-001 +1.5652093523E+002 
4263936.170 +2.0488569484E-001 +1.5096814847E+002  +3.1505596130E-003 +4.7727151514E+001  +2.0413105101E-002 +7.6693247718E+001  +1.0639337428E+000 +1.4062669650E+002 
4389081.352 +2.2592985368E-001 +1.3663397013E+002  +1.7254165272E-002 +8.2269707407E+001  +5.6458152025E-003 +7.6550039935E+001  +8.7721837999E-001 +1.1145910895E+002 
4514226.533 +2.2664225838E-001 +1.1601597764E+002  +1.4795835701E-002 +1.4498926928E+002  +2.5890212850E-002 +2.7455373049E+000  +4.6926016702E-001 +1.0481114196E+002 
4639371.715 +3.1233407542E-001 +1.3812403410E+002  +4.3020077401E-003 -1.6348507585E+002  +8.6261753337E-003 +1.7935646030E+002  +9.7823087558E-001 +1.3716304000E+002 
4764516.896 +3.6466125605E-001 +1.3321493789E+002  +1.1287040871E-002 -4.9623465171E+001  +1.1324983577E-002 +5.4940325213E+001  +1.7485864866E+000 +1.4037160884E+002 
4889662.078 +4.9520970917E-001 +1.3536048232E+002  +4.0967619197E-002 +7.5701465363E+001  +1.5621798498E-001 -1.0459505569E+002  +8.3836422194E+000 +1.7023250485E+002 
5014807.259 +4.1057109788E-001 +1.3784609328E+002  +2.4136921671E-002 -3.3227315555E+001  +3.3073045229E-002 +1.3866177223E+002  +4.3547012417E+000 -1.7431267566E+002 
5139952.441 +3.8110516934E-001 +1.3473106616E+002  +1.9143986165E-002 -1.4055767974E+002  +3.1231384879E-002 -1.4366755919E+002  +2.3018778895E+000 +9.8496316087E+001 
5265097.622 +3.8888018559E-001 +1.1343602062E+002  +1.0625007392E-002 +4.6202610364E+001  +2.5395709047E-002 +7.6163843083E+001  +2.4320952236E+000 +8.0881316374E+001 
5390242.804 +4.1209346397E-001 +1.2846322887E+002  +3.1145040283E-002 +1.6415482914E+002  +2.3831452865E-002 +1.9132892650E+001  +1.7748091586E+000 +9.0541255801E+001 
5515387.985 +4.0634522725E-001 +1.2959964427E+002  +1.4184267141E-002 +2.0452607639E+001  +1.6073546277E-002 +1.2763290260E+001  +1.7677416169E+000 +1.2104598028E+001 
5640533.166 +4.9732069470E-001 +1.2868069248E+002  +1.9454102004E-002 +1.5387587361E+002  +2.5826572034E-003 -1.0213332852E+002  +9.6492040917E-001 +8.5795601629E+001 
5765678.348 +5.3579245160E-001 +1.2205109455E+002  +8.4760028036E-003 +6.0801876137E+001  +2.3706262517E-002 +1.9842555112E+001  +1.5275041458E+000 +7.4522043912E+001 
5890823.529 +5.7051223220E-001 +1.2391865244E+002  +9.5021249793E-003 +7.9656198400E+000  +3.7956869455E-002 +5.3098392482E+001  +2.9688189324E+000 +8.5755400584E+001 
6015968.711 +5.9523313864E-001 +1.2297637946E+002  +2.0216139528E-002 +1.1784988485E+002  +1.7106328111E-002 +4.4495363762E+001  +1.8653573555E+000 +6.6206809377E+001 
6141113.892 +6.3053391122E-001 +9.6433870331E+001  +1.4804827021E-002 +5.2351018092E+001  +4.3309236322E-002 -3.2820578007E+000  +2.0767993596E+000 +2.8029005054E+001 
6266259.074 +9.0360479385E-001 +1.0254115904E+002  +4.0393427915E-002 +8.3635908947E+001  +2.4642715630E-002 +5.9865111514E+001  +2.1216604400E+000 +1.3251400267E+001 
6391404.255 +1.0572083230E+000 +9.8042110179E+001  +3.8581568991E-002 +6.5547837053E+001  +2.0204116979E-002 -1.0723379415E+001  +1.4032791751E+000 +9.8261345733E+000 
6516549.437 +1.1769351135E+000 +8.5559445849E+001  +1.0445601072E-002 -1.7426796279E+002  +1.3369026099E-002 +5.2075872521E+001  +1.4039767749E+000 +2.5924587544E+000 
6641694.618 +1.8066837503E+000 +7.9525059094E+001  +1.2713258332E-002 +6.8113424172E+001  +2.8171405993E-003 -1.1599665759E+002  +1.6196442719E+000 -3.2176476205E+000 
6766839.800 +1.8138829512E+000 +5.3201565673E+001  +1.1415791151E-002 -1.0683940506E+002  +2.3589750159E-002 -5.0158516149E+000  +1.2460382211E+000 -9.0851775807E+000 
6891984.981 +2.0041476283E+000 +5.3763974221E+001  +2.4201413635E-002 +3.5860615182E+001  +4.0521840623E-002 +5.4831459123E+001  +1.3120507104E+000 -5.5777378923E+000 
7017130.163 +1.6357583811E+000 +1.9684561643E+001  +1.8491559105E-002 +6.2856020122E+001  +2.8020904990E-002 -8.3698592173E+000  +1.3865512427E+000 -4.8232248290E+000 
7142275.344 +1.5958292546E+000 +1.1896729066E+001  +2.2719564549E-002 -8.3890893214E+000  +1.5632286889E-002 -3.4253274757E+000  +1.3868747409E+000 -9.8580393418E+000 
7267420.526 +1.5538442965E+000 +8.7297716260E+000  +1.2652796266E-002 +6.1441847844E+001  +1.1776912421E-003 +1.4784281508E+002  +1.4643624099E+000 -1.0666397111E+001 
7392565.707 +1.3252817881E+000 -1.6612089570E+000  +1.0889617845E-002 -3.4635500027E+001  +9.8173309303E-003 -2.9514026967E+001  +1.3778259310E+000 -8.3000433073E+000 
7517710.889 +1.1400850020E+000 -1.5977274188E+000  +9.6908841558E-003 +4.3635223037E+001  +1.3651337638E-002 -1.5294449697E+001  +1.2137539300E+000 -4.4144933604E+000 
7642856.070 +1.1059012486E+000 -8.0519353009E-001  +1.1195385448E-002 +1.6330436153E+001  +6.6410129560E-003 -6.3041026725E+000  +1.0535642282E+000 -4.2410345991E+000 
7768001.252 +9.9815877607E-001 +6.3312294503E-001  +1.0137909475E-002 +6.7197447275E+001  +1.1187118400E-002 +3.3925052777E+001  +1.0164147464E+000 -1.0341758444E+000 
7893146.433 +8.3499265590E-001 -4.9112488871E-002  +6.8571263455E-003 +6.1610164203E+001  +3.8906133062E-003 +8.3499992303E+001  +8.2925090716E-001 -6.3294391719E+000 
8018291.615 +7.9873688745E-001 +8.2658325054E+000  +7.0033624867E-003 +3.4006143276E+001  +1.3231293302E-003 +1.5213169337E+002  +8.6633378892E-001 -1.7918395258E+000 
8143436.796 +7.6622400418E-001 +8.7603835732E+000  +7.9169708188E-003 +5.7484336739E+001  +1.0919167322E-002 +9.3218905095E+001  +8.6042286735E-001 -6.4564772852E+000 
8268581.977 +6.5248543912E-001 +1.0987813189E+001  +3.5427290571E-003 +7.0398494535E+001  +8.0031866723E-003 +7.0412798130E+001  +7.7143115346E-001 -4.9462821082E+000 
8393727.159 +6.8570505228E-001 +1.3015540132E+001  +5.1993802833E-003 +3.3032517186E+001  +1.3898078008E-002 +4.4240339294E+001  +7.3092513143E-001 -4.2057085701E+000 
8518872.340 +7.1947711662E-001 +8.4459247767E+000  +1.1074734366E-002 +2.2333877568E+001  +6.0250572859E-003 +9.4523489541E+001  +6.9924838157E-001 +2.2750664302E+000 
8644017.522 +6.7655836935E-001 +8.4330265473E+000  +7.8708332441E-003 +2.3592970676E+001  +1.0608594990E-002 +3.9762099676E+001  +7.4415247789E-001 +8.2392898188E-001 
8769162.703 +6.2636850438E-001 +2.3916214462E+000  +1.3591409395E-002 +2.2070638918E+001  +1.0955488324E-002 +3.4285637492E+001  +6.5298844731E-001 +7.0213355599E-002 
8894307.885 +5.8736585254E-001 +5.9852719416E+000  +7.8765727046E-003 +1.1109251406E+001  +7.6605181588E-003 +6.1914528184E+001  +6.4570886285E-001 +1.9217530448E+000 
9019453.066 +5.6335233932E-001 +9.4614471914E+000  +9.9045053244E-003 +4.4006306834E+000  +7.4777702242E-003 +8.2158505707E+001  +6.2017731843E-001 +2.1797649669E+000 
9144598.248 +5.8361471699E-001 +6.7790347212E+000  +5.0619879554E-003 +1.9371499929E+001  +7.1311420625E-003 +5.6545528259E+001  +6.0615497911E-001 -3.7286737100E+000 
9269743.429 +5.4092716581E-001 +5.1658793826E+000  +5.7131327594E-003 +1.7004286338E+001  +6.1818767255E-003 +7.7220452205E+001  +6.4532972141E-001 -7.0038433597E+000 
9394888.611 +5.5947921505E-001 +6.8954969474E+000  +4.5208915896E-003 +4.9245334792E+001  +6.8180770992E-003 +6.0665063000E+001  +5.8254803325E-001 -4.8015427390E+000 
9520033.792 +5.1762822781E-001 -3.4624111495E-002  +4.2764479809E-003 +4.5643908536E+001  +8.0104641751E-003 +4.9008177274E+001  +6.0886747199E-001 -3.7023393011E+000 
9645178.974 +5.5733896863E-001 -1.6924839560E+000  +5.0653723049E-003 +4.6370508918E+001  +7.2139090937E-003 +1.4432863847E+000  +5.6078788656E-001 -4.0254953466E+000 
9770324.155 +5.2691478311E-001 +1.9102056887E-001  +6.1119914908E-003 +1.9110244703E+001  +9.4841035171E-003 +5.4413850594E+001  +5.1444437826E-001 -4.1296041704E+000 
9895469.337 +5.5713869291E-001 +2.1911197034E+000  +2.7269564279E-003 -1.4127324765E+001  +9.8773804006E-003 +6.3074083802E+001  +6.0450357581E-001 -4.0703230172E+000 
10020614.518 +5.5419627936E-001 +2.0926175244E+000  +7.5906210438E-003 +3.1263436394E+001  +6.8610908358E-003 +7.8890208294E+001  +5.4755610479E-001 -5.3909244774E+000 
10145759.700 +5.4004097947E-001 +6.0292962496E+000  +6.5674755309E-003 +3.3909341821E+001  +4.4287332271E-003 +7.7811349462E+001  +5.5537957693E-001 -4.8003349131E+000 
10270904.881 +5.4541854864E-001 +6.0664138954E+000  +4.7032035320E-003 +3.8577270874E+001  +9.1198247242E-003 +2.3669614748E+001  +5.9274835544E-001 -2.8579735756E+000 
10396050.063 +5.7624682111E-001 +4.9122223510E+000  +7.4410078171E-003 +3.6283666607E+001  +8.8311748088E-003 +4.9623935984E+001  +5.7935197137E-001 -2.2520204871E+000 
10521195.244 +5.2978117394E-001 +4.5249627019E+000  +5.9832650246E-003 +1.9909392409E+001  +9.5481490689E-003 +3.6735043316E+001  +5.9650930468E-001 -1.7548183640E+000 
10646340.426 +6.0788195036E-001 +4.1365668422E+000  +6.7021722168E-003 +2.4643000187E+001  +9.7405925942E-003 +4.9766522591E+001  +5.6686780150E-001 -2.4277862812E+000 
10771485.607 +5.2628701380E-001 +3.9112364691E+000  +7.7648385553E-003 +3.2950793072E+001  +4.9576415260E-003 +3.3801190075E+001  +6.2676711509E-001 -1.4153738959E+000 
10896630.788 +5.6255908582E-001 +1.5037218119E+000  +8.7483006641E-003 +2.5124098874E+001  +7.0515134823E-003 +5.0444238716E+001  +6.1497241398E-001 +2.3571552850E+000 
11021775.970 +5.3142737934E-001 +6.2457487471E+000  +6.5662028838E-003 +2.7251231302E+001  +6.1286304040E-003 +2.9425728155E+001  +5.9514216688E-001 +7.4615864149E-001 
11146921.151 +5.8316022074E-001 +7.2795910731E+000  +6.6896375330E-003 +2.3193222144E+001  +1.0877627885E-002 +4.7120468854E+001  +6.0252481510E-001 +6.5620412039E-001 
11272066.333 +6.0406113863E-001 +5.9447704286E+000  +7.7291133935E-003 +2.4899161519E+001  +7.3526414716E-003 +3.6102688511E+001  +6.2592593205E-001 +1.3161630529E+000 
11397211.514 +6.1357651024E-001 +7.4725802127E+000  +7.8671007795E-003 +3.5343853779E+001  +7.1598578068E-003 +7.0385623464E+001  +6.4033572426E-001 -2.6508268686E+000 
11522356.696 +6.1662049923E-001 +4.4589118900E+000  +5.0550719464E-003 +5.1363065862E+001  +8.6715591783E-003 +5.7504093991E+001  +6.4788783664E-001 +7.8883749847E-001 
11647501.877 +6.2287943010E-001 +5.0315207711E+000  +8.0378271885E-003 +3.8290135494E+001  +6.8201617600E-003 +6.0824883779E+001  +6.3167606978E-001 +3.3824494903E+000 
11772647.059 +6.6252083216E-001 +5.6000760091E+000  +9.7492057113E-003 +3.8341646210E+001  +9.1499528140E-003 +4.7566699363E+001  +6.4474526029E-001 +5.1176891291E-001 
11897792.240 +6.3359271991E-001 +5.6174578300E+000  +8.8782898073E-003 +4.6327293677E+001  +8.4157145688E-003 +5.5564893441E+001  +6.7493953694E-001 +1.7388575764E+000 
12022937.422 +6.8412711054E-001 +6.9164308292E+000  +9.1289748229E-003 +4.0830649001E+001  +6.4940505234E-003 +6.2768929040E+001  +6.8023554574E-001 +8.1979100996E-002 
12148082.603 +6.6888678397E-001 +3.3773088138E+000  +7.0136915361E-003 +4.2252599226E+001  +9.5922222090E-003 +4.9998446599E+001  +7.0129985711E-001 +8.8897576506E-001 
12273227.785 +6.9594269110E-001 +4.0621789604E+000  +7.0479023247E-003 +4.0737502053E+001  +7.8059962201E-003 +5.7132306982E+001  +7.0959194592E-001 -1.4048357320E+000 
12398372.966 +6.9072113913E-001 +3.1558284853E+000  +8.7761509338E-003 +3.7829793296E+001  +8.7894674621E-003 +4.2775000174E+001  +7.2333432066E-001 -1.4251955307E+000 
12523518.148 +6.9999981349E-001 +4.2812289017E+000  +9.9011743870E-003 +4.7669500886E+001  +8.5707028634E-003 +4.0367928156E+001  +7.2587151531E-001 +1.4347906159E+000 
12648663.329 +7.3655854099E-001 +4.5891209389E+000  +8.0092202464E-003 +5.4398904893E+001  +6.8988713879E-003 +5.3957061032E+001  +7.5581354094E-001 -1.0846361026E+000 
12773808.511 +7.3986653620E-001 +1.4536308199E+000  +8.0668198445E-003 +5.1588304216E+001  +9.7178112746E-003 +4.8436977407E+001  +7.4289452877E-001 -1.8971735282E+000 
12898953.692 +7.5904164915E-001 -1.4485925782E-001  +1.1024841614E-002 +2.9376072796E+001  +8.6361144113E-003 +4.8035164363E+001  +7.7197109774E-001 -2.3108917475E+000 
13024098.874 +7.7687573196E-001 -3.7216680082E-001  +7.9310982367E-003 +4.5869307886E+001  +9.3002204276E-003 +4.5533646759E+001  +7.9765317763E-001 -1.5107302474E+000 
13149244.055 +7.8725327885E-001 +1.1386935498E+000  +1.0307104428E-002 +4.8996890549E+001  +9.9481068001E-003 +5.6177372287E+001  +8.0455701055E-001 -2.6925134052E+000 
13274389.237 +8.0579888420E-001 +1.5572456705E-001  +8.6345936956E-003 +3.8970690997E+001  +9.2925303841E-003 +4.4725271179E+001  +8.2870098347E-001 -2.8251761639E+000 
13399534.418 +8.1014107764E-001 -2.1740931697E-001  +1.0567404290E-002 +4.8459254613E+001  +1.0167800652E-002 +5.1557799870E+001  +8.4958772751E-001 -2.1934598121E+000 
13524679.599 +8.6009104277E-001 -1.2759892212E+000  +9.8229783056E-003 +4.6532029493E+001  +9.3093306857E-003 +4.3568962565E+001  +8.4640018664E-001 -2.2288200181E+000 
13649824.781 +8.9076600606E-001 -2.0006435017E+000  +9.2444862717E-003 +4.6438121423E+001  +1.0836348301E-002 +5.0149422348E+001  +8.6959059251E-001 -2.5010272968E+000 
13774969.962 +8.5120000170E-001 -8.7026352576E-001  +9.6110199061E-003 +3.7439827644E+001  +9.8086216827E-003 +4.9465154015E+001  +8.9494026189E-001 -3.2752542263E+000 
13900115.144 +8.9459545034E-001 -2.9322784107E+000  +8.9866472389E-003 +3.8946767240E+001  +1.0279767604E-002 +5.0151146077E+001  +9.3151374674E-001 -3.7576797899E+000 
14025260.325 +9.0960606819E-001 -5.1186986926E+000  +9.9386891216E-003 +4.2840079934E+001  +1.0465872648E-002 +4.5723843791E+001  +9.2499165949E-001 -4.1835751817E+000 
14150405.507 +9.3911922349E-001 -3.7472006617E+000  +1.0470912644E-002 +4.4453992850E+001  +1.0022995919E-002 +4.3296144989E+001  +9.4820358885E-001 -4.1717039411E+000 
14275550.688 +9.5225920982E-001 -5.1127523760E+000  +9.7332142846E-003 +3.9623048878E+001  +1.0857457790E-002 +5.1647610673E+001  +9.7853828933E-001 -5.1559080509E+000 
14400695.870 +9.5734543359E-001 -6.2833489431E+000  +1.0389107524E-002 +4.1210418804E+001  +9.5767181223E-003 +4.8091409964E+001  +9.5538735429E-001 -4.9615793988E+000 
