!  2-Port S-parameters saved by WinCal
! VAR MeasName=S-Parameters (CALIBRATED_DATA) read from VNA (P5004A)
! VAR MeasDate=28/08/2024 16:28:30
! VAR NAME=S2_r8c9_RESET3_9k-100M_1
! VAR FILENAME=S2_r8c9_RESET3_9k-100M_1.S2P
! VAR DATE=28/08/2024 16:28:30
! VAR PHYS_PORTS=1,2
! VAR ObjTypeName=DATASET
! VAR IndexType=Frequency
!
# Hz S MA R 50
9000.000 +8.8925367341E-002 -1.6903029272E+002  +2.8530587901E-003 -1.8806166979E+000  +6.4957682949E-003 +9.4055074555E+001  +2.6367588862E-001 -1.3756713431E+002 
134145.181 +1.1121949924E-001 +1.6943966088E+002  +7.8017900239E-005 -1.3611376104E+001  +3.6728128171E-004 +1.5360021830E+002  +2.4230595433E-001 -1.7110582798E+002 
259290.363 +1.1172425160E-001 +1.6962200932E+002  +6.5237684596E-004 +8.2747352990E+001  +8.9309869778E-004 -4.9468103468E+001  +2.4533800936E-001 -1.6602817310E+002 
384435.544 +1.1557686015E-001 +1.7032084397E+002  +1.2522948136E-004 -1.6586232364E+002  +2.2942203880E-004 -1.7802468801E+002  +2.4879405280E-001 -1.6898038785E+002 
509580.726 +1.1249769383E-001 +1.7172838974E+002  +1.1702844650E-003 -5.1226030442E+001  +4.7378525818E-004 -5.5014872173E+001  +2.3801340895E-001 -1.6275484365E+002 
634725.907 +1.1789922326E-001 +1.7233848153E+002  +4.7296920058E-004 -9.1356147649E+001  +1.3305610994E-003 -2.8830144783E+001  +2.5688324035E-001 -1.6691319766E+002 
759871.089 +1.2070855017E-001 +1.7145076139E+002  +1.0079898354E-003 -1.1926382979E+002  +1.3680893108E-004 +8.1718532511E+001  +2.5051628203E-001 -1.6586923432E+002 
885016.270 +1.2044278475E-001 +1.6917146682E+002  +8.2152529462E-004 -1.1978775777E+001  +4.8275037971E-004 -6.6257949415E+001  +2.4087402438E-001 -1.6731215607E+002 
1010161.452 +1.1552266874E-001 +1.7013627280E+002  +6.8101438932E-004 +1.7439197863E+002  +1.0286250510E-003 +8.0807659036E+001  +2.1727172550E-001 -1.6794794866E+002 
1135306.633 +1.0834284421E-001 +1.6974610994E+002  +6.3360263081E-004 -4.1892470235E+001  +1.1027366822E-003 -6.8697044563E+001  +2.0446725838E-001 -1.6561217430E+002 
1260451.815 +1.2098134535E-001 +1.7113714995E+002  +9.9589136265E-004 -3.9472739642E+001  +1.5886647883E-003 -1.0889535956E+002  +2.3084609473E-001 -1.6052369622E+002 
1385596.996 +1.2288404769E-001 +1.7178042038E+002  +8.0266896688E-004 +1.6940821097E+002  +1.0097697096E-003 -1.2543090679E+002  +2.7762008161E-001 -1.5770640436E+002 
1510742.178 +1.2874889517E-001 +1.7186503229E+002  +2.1103856360E-004 -6.3113724191E+001  +6.2201899649E-004 +1.6884306471E+002  +2.5616528940E-001 -1.5881694047E+002 
1635887.359 +1.2784409015E-001 +1.7088638107E+002  +4.0986269618E-004 -9.7415174366E+001  +1.6583129003E-003 -1.6933695368E+002  +2.2931590671E-001 -1.5998523442E+002 
1761032.541 +1.2693470545E-001 +1.6995506850E+002  +7.3973132014E-004 +4.6828073461E+001  +1.3486481773E-003 -2.3268386703E+001  +2.3347752163E-001 -1.5849285638E+002 
1886177.722 +1.3117600824E-001 +1.6858089706E+002  +1.6671075996E-003 -1.6696652056E+002  +1.0737239657E-003 +1.5685016258E+002  +2.2322913233E-001 -1.5568629791E+002 
2011322.904 +1.3376047013E-001 +1.6790489944E+002  +1.5101753841E-003 +1.5070303261E+002  +1.5317374826E-003 +9.1589809426E+001  +2.0084105375E-001 -1.6651534467E+002 
2136468.085 +1.2573295713E-001 +1.6675239888E+002  +6.0521478288E-003 +2.0398273705E+001  +1.4824031355E-003 +2.4808717712E+001  +1.6620033617E-001 -1.4424670122E+002 
2261613.267 +1.3105540105E-001 +1.6427926643E+002  +3.6733058878E-003 +7.6328721766E+001  +1.6344393077E-003 +9.1532035847E+001  +1.7297302792E-001 -1.7850876974E+002 
2386758.448 +1.3761556958E-001 +1.6348396207E+002  +2.9182166693E-003 +9.8950308566E+001  +2.2630335838E-003 -1.6813538651E+002  +2.2076601255E-001 +1.7438738995E+002 
2511903.630 +1.1236274621E-001 +1.6473709850E+002  +8.5709892016E-004 -9.5896104195E+001  +8.3867139891E-004 +1.4193265880E+002  +2.2492102525E-001 -1.7383397445E+002 
2637048.811 +1.1272768843E-001 +1.6095348974E+002  +5.1229697932E-003 +1.2329599249E+002  +1.1162648761E-002 +1.7596309419E+002  +2.4033210525E-002 -5.8689266040E+001 
2762193.992 +1.0414569183E-001 +1.7297439174E+002  +5.7342129297E-004 -6.4517839400E+001  +2.0005244819E-002 -8.3195948891E+001  +5.4110076620E-001 -9.9173091280E+001 
2887339.174 +1.3253157583E-001 +1.6760820083E+002  +5.8907775895E-003 -1.2026810404E+002  +3.1448837690E-003 -4.0251148624E+001  +4.8355666487E-001 -1.0420464448E+002 
3012484.355 +1.1087500540E-001 -1.7621962233E+002  +1.0770318776E-002 -4.8695260339E+001  +6.2560691743E-003 -9.5998203660E+001  +3.1112022026E-001 -1.0338056841E+002 
3137629.537 +1.0818412525E-001 +1.7134401174E+002  +1.4339763945E-002 -1.6125559630E+002  +9.1041575954E-003 -9.0489862355E+000  +1.5183962488E-001 -7.7273912763E+001 
3262774.718 +1.2222091963E-001 +1.6746052866E+002  +4.6847894560E-003 +1.4083405709E+002  +4.0330356493E-003 -1.6315046084E+002  +9.5694670448E-002 -5.3802502426E+001 
3387919.900 +1.0518183238E-001 +1.5199878510E+002  +2.9978087469E-002 +1.6664380047E+002  +2.1195931398E-002 +6.1936439987E+001  +1.1178577192E+000 +1.1276831632E+002 
3513065.081 +1.7471879720E-001 +1.5330539110E+002  +9.7303177906E-003 -1.6162735790E+002  +1.6838911146E-002 +4.3065848162E+001  +7.2301014170E-001 +7.5395102279E+001 
3638210.263 +1.7228012594E-001 +1.4482564530E+002  +1.3819582651E-002 -1.4551923909E+002  +1.5570312065E-002 -3.6785641249E+001  +6.6938871537E-001 +9.7523951717E+001 
3763355.444 +1.5837505717E-001 +1.4731796490E+002  +1.2924869183E-002 -1.1532215107E+002  +1.9217469259E-003 +1.9487128253E+001  +3.7579780587E-001 +1.4522986450E+002 
3888500.626 +1.8231203269E-001 +1.4590960717E+002  +3.0963949237E-003 +1.6367596447E+002  +9.4481505839E-003 +2.9080989768E+001  +5.3833221573E-001 +1.2803312291E+002 
4013645.807 +1.8962026598E-001 +1.4918916810E+002  +1.1900882662E-002 +9.1309725986E+001  +7.7827494377E-003 +5.5748983399E+001  +3.5288599256E-001 +1.3749759252E+002 
4138790.989 +1.8142934612E-001 +1.3864174967E+002  +1.1648360161E-002 -1.5914113032E+002  +1.2297686596E-002 -7.5367383071E+001  +4.0783387781E-001 +9.9510080754E+001 
4263936.170 +1.8755684116E-001 +1.5164992256E+002  +7.3265788387E-003 -4.6331117096E+001  +5.5198463927E-003 -1.0976906265E+002  +4.9341996475E-001 +1.1189664000E+002 
4389081.352 +1.5261311378E-001 +1.3326087963E+002  +1.2951698554E-002 -1.4334698155E+002  +2.2651542620E-002 -1.5785795598E+002  +1.1490670231E+000 +1.1335292401E+002 
4514226.533 +2.0542026719E-001 +1.3116963008E+002  +6.1966921095E-003 +8.2604525149E+001  +1.1419208658E-003 -1.2771133020E+002  +5.7652175927E-001 +1.2984392890E+002 
4639371.715 +2.3887743886E-001 +1.2346044901E+002  +9.8156168131E-003 -5.3070510470E+001  +1.5025655760E-002 +1.1622055968E+002  +1.9782110961E+000 +1.4675781385E+002 
4764516.896 +2.7831453264E-001 +1.2054632387E+002  +1.5166133427E-002 -1.6770771280E+002  +9.3198299538E-003 -1.1298252740E+002  +1.3981440764E+000 +5.3758407079E+001 
4889662.078 +4.1006387975E-001 +1.2364610573E+002  +9.9056332984E-002 +2.5301448813E+000  +9.0686349055E-002 -4.8941391814E+000  +6.6630410142E+000 -1.1314955802E+002 
5014807.259 +4.7289457654E-001 +1.2984365986E+002  +2.8700984245E-002 +1.2445228131E+002  +1.1116364817E-001 -3.0844116945E+001  +2.5975772667E+000 -4.0260182443E+001 
5139952.441 +4.0654533464E-001 +1.2398308366E+002  +8.0648381004E-002 +1.2339193805E+002  +9.2647684414E-002 -7.6408137841E+001  +4.7883643843E+000 +7.0229752784E+001 
5265097.622 +4.0586121114E-001 +1.3466007088E+002  +6.4705097286E-002 -1.7785325252E+002  +5.6641109407E-002 +1.6375781568E+002  +6.2727282652E+000 +1.0777628021E+002 
5390242.804 +3.7738904671E-001 +1.3162871959E+002  +5.4723157796E-003 +2.8368584148E+000  +1.2469213034E-002 -1.0365698046E+002  +8.1242747091E-001 +7.7002556629E+001 
5515387.985 +4.6462580156E-001 +1.2487163573E+002  +3.5110915106E-002 -7.7491126785E+001  +2.1262792874E-002 -1.3148519234E+002  +2.0893199359E+000 +9.8246561563E+001 
5640533.166 +4.3657843938E-001 +1.2289587560E+002  +2.2939643840E-002 -1.2219012437E+000  +4.9330236884E-003 +1.7718405581E+002  +1.7685452298E+000 +6.4229923774E+001 
5765678.348 +5.6643676842E-001 +1.2786713912E+002  +5.2942513963E-002 +1.5819831052E+002  +2.4825705292E-002 +1.2018002689E+002  +2.7247681623E+000 +1.7776360246E+001 
5890823.529 +6.6324971083E-001 +1.2155039491E+002  +3.5672242638E-002 +1.2275600908E+002  +2.7868556512E-002 -8.9414441390E+001  +2.8689788580E+000 +6.0547882272E+001 
6015968.711 +6.4743530354E-001 +1.2716218004E+002  +8.1740145159E-003 -1.0670505433E+002  +2.7473628778E-002 +1.3623939373E+002  +1.8902666210E+000 +3.2418070970E+001 
6141113.892 +7.4057262452E-001 +1.1737005814E+002  +1.7752570157E-002 +1.5045864533E+002  +2.8561015732E-002 -1.5483542817E+002  +1.5081308095E+000 +3.5172905981E+001 
6266259.074 +1.0575042373E+000 +1.0267002030E+002  +1.7606587374E-002 +5.5979179098E+001  +2.5099461839E-002 -1.5506343552E+002  +1.5194794390E+000 +1.4973633124E+001 
6391404.255 +9.9157984643E-001 +1.0790389042E+002  +3.3365869413E-002 -1.7824457489E+002  +9.7703901237E-003 +1.4995317830E+002  +1.1523952825E+000 +3.0649198623E+001 
6516549.437 +1.5009311828E+000 +8.5451291888E+001  +1.8249279359E-002 -2.6005231400E+001  +2.2874668190E-002 +1.6403940445E+002  +1.7379229001E+000 +2.8987386956E+000 
6641694.618 +1.6876136230E+000 +7.5406413997E+001  +6.9596612679E-003 +3.1377612144E+001  +4.3257574934E-002 +1.6162559336E+001  +1.4872045033E+000 +1.3760171725E+000 
6766839.800 +1.8586798983E+000 +5.1529249660E+001  +1.6970248055E-002 -6.2945635921E+001  +2.4525349527E-002 +5.0690390545E+001  +1.5588258845E+000 -1.0422136370E+000 
6891984.981 +1.8542880864E+000 +3.8547367438E+001  +2.4458418397E-002 +7.7298369442E+001  +3.4345575228E-002 +7.2772682024E+001  +1.5061012817E+000 -3.4374226138E+000 
7017130.163 +2.2252721187E+000 +1.6425941235E+001  +3.5550796568E-002 +7.2584699100E+001  +2.0745039677E-002 +1.4513959685E+002  +1.3559395362E+000 -5.6070449970E+000 
7142275.344 +1.6268299182E+000 +1.1034395719E+001  +4.9338632108E-003 +1.3986899431E+001  +9.8732610718E-003 +4.1898667268E+001  +1.2372772754E+000 -1.4163730265E+001 
7267420.526 +1.4662203524E+000 +7.2537373700E+000  +5.1492384053E-003 +1.1634468428E+002  +3.8713356094E-003 +3.8817346214E+001  +1.2280169696E+000 -9.6248219894E+000 
7392565.707 +1.4048988166E+000 -1.8610606761E+000  +1.0390578445E-002 +3.7671342739E+001  +1.5016890329E-002 +1.0329447374E+002  +1.2423749573E+000 -4.0221272807E+000 
7517710.889 +1.1500879705E+000 -1.6109549938E+000  +7.1791703325E-003 +5.8953507240E+001  +1.0607877518E-002 +1.2881358366E+002  +1.0536541266E+000 -1.4541391218E+000 
7642856.070 +1.0252981679E+000 -2.2079487082E+000  +1.0984424255E-002 +1.0293160631E+002  +8.6409728688E-003 -1.7778282536E+002  +1.0273382430E+000 -1.4763592374E+000 
7768001.252 +9.8141902204E-001 -2.2845355825E+000  +5.6406897409E-004 +1.5231863583E+000  +8.7237958410E-003 +8.7863189825E+001  +9.9619129406E-001 -3.3913301768E+000 
7893146.433 +9.0550065900E-001 +4.1424596490E+000  +5.9289268696E-003 +1.1544095842E+002  +9.3793142958E-003 -1.0689704701E+001  +8.0776268872E-001 -3.3021578043E+000 
8018291.615 +7.1516891432E-001 +5.4136016202E+000  +6.8744117884E-003 +1.3235073622E+002  +8.2339083326E-003 +9.3315006778E+001  +8.2918671238E-001 -3.1193260495E+000 
8143436.796 +7.4483334710E-001 +7.8978653417E+000  +2.9030288289E-003 +5.8189050158E+001  +1.2509032130E-002 +7.2192657225E+001  +7.6773771401E-001 -3.7387826767E+000 
8268581.977 +7.9995063262E-001 +1.1542068244E+001  +2.7078062185E-003 -1.3832091366E+002  +1.1439343230E-003 +5.1861342104E+001  +7.6328634951E-001 -2.4434219197E+000 
8393727.159 +7.3180445757E-001 +1.0747440991E+001  +6.7213918707E-003 +1.0832568971E+002  +5.4093335301E-003 +5.3783781698E+001  +7.3750904440E-001 +8.4403707106E-001 
8518872.340 +6.8479927882E-001 +1.1909877881E+001  +6.2193426040E-003 +8.7793293738E+001  +5.1568610738E-003 +1.1239292359E+002  +7.0610284920E-001 +2.0755556328E+000 
8644017.522 +6.5997767064E-001 +6.2508183310E+000  +3.8914022895E-003 +1.7563187690E+001  +2.8622949757E-003 +1.4562953163E+002  +6.4036231254E-001 -5.1952837034E+000 
8769162.703 +6.4975905016E-001 +8.9554302519E+000  +4.2026758285E-003 +9.8527265827E+001  +4.8884977572E-003 +1.0289865036E+002  +6.5048066385E-001 +7.1662316580E-001 
8894307.885 +5.9164028244E-001 +9.5143157569E+000  +3.8576721854E-003 +2.0948499072E+001  +2.8777861034E-003 +1.1593936201E+002  +6.7394497886E-001 +1.6698155563E+000 
9019453.066 +6.1206562841E-001 +4.0561634654E+000  +7.2377588020E-004 -1.6973318211E+002  +1.8110391789E-003 +7.9203479133E+001  +6.2585152258E-001 -1.9058205933E+000 
9144598.248 +5.5677889570E-001 +9.3763677353E-001  +4.3434628262E-003 +6.8333693711E+001  +2.5762341807E-003 +7.3894266491E+001  +6.0726212101E-001 +5.1825173684E-001 
9269743.429 +5.5283418440E-001 +4.6348812780E+000  +3.8407995043E-003 +1.2232352698E+002  +4.1133303821E-003 +7.8295926169E+001  +6.4121425505E-001 -6.0735722495E+000 
9394888.611 +5.6318225624E-001 +7.1016519569E+000  +2.0197011260E-003 +5.9387850737E+001  +5.3175015275E-003 +4.1594003206E+001  +5.8906693201E-001 -3.6162600660E+000 
9520033.792 +5.4261142846E-001 +4.3900493386E+000  +6.4911164553E-003 +7.4155397962E+001  +1.4288628081E-003 +1.2051600721E+002  +5.6142814484E-001 -9.6583978635E-001 
9645178.974 +5.1910083543E-001 +4.2891044535E+000  +3.5369262168E-003 +1.0756526082E+002  +2.6455056353E-003 +9.5652165789E+001  +5.7657041507E-001 +9.5342993144E-002 
9770324.155 +5.3457353234E-001 -4.7839162198E-001  +6.4342763215E-003 +8.8281987090E+001  +4.2889923471E-003 +8.1796621094E+001  +5.6842228551E-001 -6.5966304229E+000 
9895469.337 +5.5057213840E-001 -8.9768108410E-001  +3.3019641801E-003 +7.1203195309E+001  +2.8088958840E-003 +7.6846402144E+001  +5.6357562137E-001 -2.7426852047E+000 
10020614.518 +5.6575485279E-001 -1.6271524961E+000  +5.7890395996E-003 +9.7909041059E+001  +5.5413152775E-003 +9.9200511760E+001  +5.6316655388E-001 -3.4333913818E+000 
10145759.700 +5.1455083908E-001 +4.5056424119E+000  +3.2395485170E-003 +4.9742865376E+001  +6.0292853024E-003 +1.0628472936E+002  +6.0899845563E-001 -1.5329333648E+000 
10270904.881 +5.5647536640E-001 +1.7447621442E+000  +3.8159318555E-003 +1.0955376542E+002  +3.9734517846E-003 +8.7203218899E+001  +5.9808048161E-001 -3.9466668438E+000 
10396050.063 +5.0984369196E-001 +9.4186531552E+000  +3.2178046943E-003 +9.6936474240E+001  +5.0688947774E-003 +8.3222280773E+001  +6.1328142348E-001 +9.4582951211E-001 
10521195.244 +5.6327105219E-001 +6.0919499224E+000  +5.9847748693E-003 +6.5537654495E+001  +5.3197031707E-003 +1.2234600444E+002  +5.8366089149E-001 +1.1822866867E-001 
10646340.426 +5.5468675640E-001 +3.5079353420E+000  +3.9241302961E-003 +9.3863648757E+001  +4.8480515608E-003 +8.3506404492E+001  +5.9218651808E-001 -1.4125377172E+000 
10771485.607 +5.6554138555E-001 +8.7046921397E+000  +3.5869920291E-003 +7.5121306950E+001  +6.0189534800E-003 +1.1436737582E+002  +5.6724742442E-001 +5.4754575569E-001 
10896630.788 +6.3285275866E-001 +5.6531854622E+000  +6.6373468458E-003 +8.0816674995E+001  +3.3883875141E-003 +8.2781154990E+001  +6.0757109741E-001 +1.5391136360E+000 
11021775.970 +5.8073871170E-001 +9.4779900916E+000  +3.9713427551E-003 +6.7308706725E+001  +4.2949528214E-003 +9.7077740996E+001  +6.1485553936E-001 +1.7472549324E+000 
11146921.151 +5.9196069962E-001 +6.0207706988E+000  +6.4165333315E-003 +9.4458102952E+001  +4.5944227976E-003 +7.2729519135E+001  +6.2064071349E-001 +5.1785846953E-001 
11272066.333 +6.1629861909E-001 +5.5245616757E+000  +5.8384443226E-003 +9.6402791597E+001  +3.4345835943E-003 +9.8755460125E+001  +6.0498611928E-001 +3.5679473719E-001 
11397211.514 +6.0787967352E-001 +4.8934172892E+000  +5.2111385071E-003 +1.0895601433E+002  +4.0704299349E-003 +1.2940221598E+002  +6.4356352401E-001 +2.7698421234E+000 
11522356.696 +6.2126428308E-001 +6.2726193507E+000  +4.2315168511E-003 +9.2995016758E+001  +7.9243840089E-003 +1.0353790234E+002  +6.5720938055E-001 +3.2297781457E+000 
11647501.877 +6.4478006524E-001 +8.7215338980E+000  +5.0174100988E-003 +1.0995760266E+002  +4.5657520683E-003 +1.0116439928E+002  +6.1444648290E-001 -8.8270950220E-001 
11772647.059 +6.8214501116E-001 +4.7919008551E+000  +4.7710616139E-003 +7.3527035717E+001  +6.3914723337E-003 +9.8724313094E+001  +6.6215359154E-001 +3.4126657721E+000 
11897792.240 +6.4293233692E-001 +3.9458003835E+000  +6.1926878365E-003 +8.3679207729E+001  +2.8340661658E-003 +8.9168589923E+001  +6.9412516242E-001 +3.5147654072E+000 
12022937.422 +6.8349877899E-001 +5.0393713829E+000  +5.0498773551E-003 +8.6801716774E+001  +7.6710442759E-003 +1.0235884538E+002  +7.0116375186E-001 +1.7471390728E+000 
12148082.603 +6.9344587248E-001 +4.4657970364E+000  +5.3929213444E-003 +8.1078151377E+001  +5.1491759902E-003 +8.9643339894E+001  +7.1289009681E-001 +2.0916845743E+000 
12273227.785 +6.9919168685E-001 +4.1676946294E+000  +7.6803344753E-003 +9.9474028605E+001  +6.2738996068E-003 +7.6815935660E+001  +7.2089081415E-001 +2.6998439933E+000 
12398372.966 +7.2819958545E-001 +3.7861702200E+000  +5.2357312958E-003 +7.8722976217E+001  +6.1328166526E-003 +9.5602885767E+001  +7.2153002357E-001 +4.9789355838E-001 
12523518.148 +7.4873390401E-001 +2.3360519328E+000  +5.9492806464E-003 +8.3607086908E+001  +5.1967971675E-003 +9.8567691925E+001  +7.5807464425E-001 -1.0028301192E+000 
12648663.329 +7.5581690124E-001 +1.0492979237E+000  +7.0391214198E-003 +9.0871377636E+001  +5.1760744965E-003 +1.2078234949E+002  +7.6074470872E-001 +9.8402892534E-001 
12773808.511 +7.5668004464E-001 +3.2209591100E+000  +5.8326076163E-003 +8.3191681521E+001  +6.2860260374E-003 +1.0841036915E+002  +7.7868547369E-001 -8.6372304393E-001 
12898953.692 +7.6171971823E-001 +1.0152608936E+000  +6.6847260510E-003 +9.0051884288E+001  +6.5097294936E-003 +8.2364754733E+001  +8.0055132146E-001 -7.8713653386E-001 
13024098.874 +7.8836543826E-001 +8.6613465432E-001  +5.9041309460E-003 +8.7553930881E+001  +6.5432807392E-003 +1.1158369481E+002  +8.0721001050E-001 -2.8738351127E-002 
13149244.055 +8.0606650668E-001 -4.4391421916E-001  +7.0716078705E-003 +8.7400817479E+001  +5.9883382919E-003 +7.6080027293E+001  +8.4166456368E-001 -1.1219513329E+000 
13274389.237 +8.3785141304E-001 -1.8592294104E+000  +4.7904383455E-003 +7.3689120035E+001  +6.2533309550E-003 +8.4084641858E+001  +8.3853145760E-001 -1.9882261388E+000 
13399534.418 +8.0423280452E-001 -1.8669710591E+000  +8.0235858475E-003 +8.9928527896E+001  +5.7469350482E-003 +8.5947310340E+001  +8.4805605783E-001 -1.6834050651E+000 
13524679.599 +8.6473591901E-001 -2.1528696679E+000  +7.3284034429E-003 +8.3162884853E+001  +5.0617222458E-003 +8.4794343852E+001  +8.5883348925E-001 -3.0196257987E+000 
13649824.781 +8.7654755309E-001 -1.6167920616E+000  +5.7163952017E-003 +9.1170193989E+001  +5.0464754001E-003 +5.9551814558E+001  +8.5784979998E-001 -2.9368242405E+000 
13774969.962 +8.8660888979E-001 -4.1214363574E+000  +6.6550025362E-003 +1.0221935768E+002  +7.8512220450E-003 +9.4844920006E+001  +9.1126734160E-001 -1.9327944259E+000 
13900115.144 +9.0556898493E-001 -3.0927531999E+000  +7.2108820918E-003 +8.7030385342E+001  +8.3160295596E-003 +9.0734524098E+001  +9.1973628654E-001 -4.1915285468E+000 
14025260.325 +9.1974669513E-001 -3.7761076961E+000  +8.7325223214E-003 +8.6348007175E+001  +7.3448374013E-003 +9.9109417008E+001  +9.1386394152E-001 -4.0015818906E+000 
14150405.507 +9.3042361036E-001 -4.9715103199E+000  +7.0941489907E-003 +9.4203961050E+001  +8.6562983136E-003 +9.5619107726E+001  +9.7152263431E-001 -4.4504596425E+000 
14275550.688 +9.4823356616E-001 -4.0970517122E+000  +8.2086084965E-003 +8.6406944183E+001  +9.6278939211E-003 +1.0021918608E+002  +9.8449621777E-001 -4.2568151102E+000 
14400695.870 +9.7784805800E-001 -5.3454163345E+000  +8.1202153068E-003 +8.0518422082E+001  +6.4976360944E-003 +9.2559774127E+001  +9.8060609000E-001 -6.4092096446E+000 
