!  2-Port S-parameters saved by WinCal
! VAR MeasName=S-Parameters (CALIBRATED_DATA) read from VNA (P5004A)
! VAR MeasDate=27/08/2024 16:34:34
! VAR NAME=S2_r2c9_RESET1_9k-100M_2
! VAR FILENAME=S2_r2c9_RESET1_9k-100M_2.S2P
! VAR DATE=27/08/2024 16:34:34
! VAR PHYS_PORTS=1,2
! VAR ObjTypeName=DATASET
! VAR IndexType=Frequency
!
# Hz S MA R 50
9000.000 +9.3885973348E-002 -1.6605616264E+002  +2.1923618310E-002 +1.5979031114E+002  +1.3792452389E-002 -1.6936695774E+002  +3.8513606885E-001 -1.2341458581E+002 
134145.181 +1.1122718997E-001 +1.6966639879E+002  +2.2751669956E-004 -8.6567005479E+001  +6.0034220697E-004 +1.4346127010E+002  +2.3886028441E-001 -1.7076520557E+002 
259290.363 +1.1173940209E-001 +1.6939223264E+002  +4.4796068977E-004 +1.7516965124E+001  +1.2816649981E-003 -1.1016505654E+002  +2.4735128460E-001 -1.6845037253E+002 
384435.544 +1.1381692890E-001 +1.7069180508E+002  +8.8962165922E-004 +3.0484355209E+001  +6.5716064125E-004 -1.5993538312E+002  +2.5405856004E-001 -1.6968936767E+002 
509580.726 +1.1340521315E-001 +1.6968833548E+002  +1.2876689091E-003 +1.2527038172E+002  +3.0965892571E-004 -9.2026547668E+001  +2.4150857321E-001 -1.6563256336E+002 
634725.907 +1.1831781653E-001 +1.7059534525E+002  +4.2851180095E-004 +1.3013700216E+002  +2.4847323206E-004 -1.7852960451E+002  +2.4701004721E-001 -1.6748533381E+002 
759871.089 +1.1529169025E-001 +1.7030594612E+002  +7.2481226661E-005 +1.7911328646E+002  +3.4486296836E-004 -1.5683063662E+002  +2.5003246308E-001 -1.6717816669E+002 
885016.270 +1.1926447768E-001 +1.7002437815E+002  +1.7439950084E-004 +1.5637652615E+002  +4.8661905656E-004 -9.7182136689E+001  +2.4397470361E-001 -1.6406923421E+002 
1010161.452 +1.1459404262E-001 +1.7139798296E+002  +3.9754499689E-004 +1.4056147705E+002  +8.2889414699E-004 +7.7503993489E+001  +2.0276078740E-001 -1.7060706953E+002 
1135306.633 +1.1649219924E-001 +1.6942598739E+002  +2.0529005536E-003 +7.9354796619E+001  +9.7625522462E-004 +2.7061422722E+001  +1.8920250402E-001 -1.6081699836E+002 
1260451.815 +1.2142758328E-001 +1.7148600707E+002  +9.7037685681E-004 -1.1579504785E+002  +1.0278856435E-003 -9.6744570783E+000  +2.3274986460E-001 -1.5433668682E+002 
1385596.996 +1.2534043341E-001 +1.7212711124E+002  +4.4290470781E-004 -1.7607071471E+002  +4.4937165962E-004 +3.8115724439E-001  +2.6500473716E-001 -1.5991875904E+002 
1510742.178 +1.2789550432E-001 +1.7051524445E+002  +1.9129271075E-004 +6.6519384335E+001  +5.4002065321E-004 +3.1473923511E+001  +2.5954355541E-001 -1.5923153627E+002 
1635887.359 +1.2923070868E-001 +1.7062410767E+002  +4.0905761807E-004 +1.5717974229E+002  +1.1281356986E-003 -3.1351003790E+001  +2.4510752210E-001 -1.5955229834E+002 
1761032.541 +1.2264261784E-001 +1.6929537026E+002  +1.2302849404E-003 +3.8493803581E+001  +2.4737110693E-003 +1.2629860259E+002  +2.3005810806E-001 -1.5885053155E+002 
1886177.722 +1.2975113046E-001 +1.6941136836E+002  +1.4182785587E-003 -9.0696076879E+001  +9.0745450718E-004 -1.4309268834E+002  +2.1964240839E-001 -1.6594328257E+002 
2011322.904 +1.3262818063E-001 +1.6613375585E+002  +8.8699286169E-004 -4.5395715398E+000  +1.0740858345E-003 +1.1476522838E+002  +1.9992015353E-001 -1.6905757789E+002 
2136468.085 +1.2778957979E-001 +1.6303373215E+002  +1.0996134401E-003 -1.2463462296E+002  +1.7716643808E-003 -9.1772674217E+001  +1.9808825724E-001 +1.7078615020E+002 
2261613.267 +1.3295203087E-001 +1.6709943690E+002  +2.7843939865E-003 +1.6094585977E+001  +1.5681660142E-003 +1.3657476055E+002  +2.0709567425E-001 +1.7584435630E+002 
2386758.448 +1.3434445456E-001 +1.6632650878E+002  +4.4201360288E-003 -1.6164351088E+002  +3.6794175089E-003 -1.0291414702E+002  +1.3338200561E-001 +1.6371689827E+002 
2511903.630 +1.2111542752E-001 +1.6020867043E+002  +3.3502900324E-003 +1.0558907984E+001  +2.5902190355E-003 +1.3279654190E+002  +2.1731288247E-001 +1.7078053777E+002 
2637048.811 +1.1304729886E-001 +1.5913249685E+002  +7.6407852114E-003 -1.6843942938E+001  +9.7181984171E-003 +1.2826622718E+002  +1.9661894888E-001 +1.5227545523E+002 
2762193.992 +1.2734057737E-001 +1.7199467827E+002  +1.6407725018E-002 +2.0355664028E+001  +1.3069013678E-002 +1.7145292155E+002  +5.5888685284E-001 -6.2173632110E+001 
2887339.174 +1.2707787422E-001 -1.7210939134E+002  +1.5142568193E-002 -5.0186579125E+001  +2.4228620263E-002 +1.4556468558E+002  +1.0975576293E+000 -1.2773154856E+002 
3012484.355 +1.2509742656E-001 +1.6876036651E+002  +2.9094250784E-003 +1.4551062605E+002  +7.9837280900E-003 +1.3543106132E+002  +1.8494973918E-001 -9.9855554114E+001 
3137629.537 +1.2452873276E-001 +1.7364636431E+002  +1.2984736276E-002 -5.3650652434E+001  +6.0945901805E-003 -9.2263602265E+001  +4.8579804407E-001 -1.0168834944E+002 
3262774.718 +1.1495215586E-001 +1.5629105243E+002  +3.2252372443E-002 +1.8375446709E+001  +6.9786472025E-002 -1.2312083774E+002  +2.8008861275E+000 +1.2936307407E+001 
3387919.900 +1.0910026721E-001 +1.5257286974E+002  +1.4048250249E-002 -1.1464438761E+002  +1.4597532526E-002 -1.4297051453E+002  +3.1573326713E-001 +6.3254367201E+001 
3513065.081 +1.2873195821E-001 +1.3088891258E+002  +9.2726595945E-002 +1.2041800498E+002  +4.8335875208E-002 +4.1795950844E+001  +3.7162131569E+000 +1.6458958896E+002 
3638210.263 +1.7975973670E-001 +1.5554803202E+002  +3.7588550064E-003 -3.2053829514E+001  +3.1413893354E-003 -1.7420470245E+002  +5.4903633663E-001 +1.5654778599E+002 
3763355.444 +1.3785030513E-001 +1.4819877676E+002  +2.3327195706E-002 -1.6692489456E+002  +1.5615488303E-002 +1.2191225682E+002  +1.3438724797E+000 +1.0257252006E+002 
3888500.626 +1.7369464008E-001 +1.5365200167E+002  +1.9596787030E-003 -4.9722557887E+001  +2.3076093850E-003 +1.7798017724E+002  +2.9531673201E-001 +1.0399278145E+002 
4013645.807 +1.7475293026E-001 +1.5190336180E+002  +1.5684406096E-003 -1.2300066927E+002  +2.9557724879E-002 -1.7633924343E+002  +8.7403423231E-001 +8.3110976452E+001 
4138790.989 +2.2631342913E-001 +1.4740369512E+002  +9.1295176648E-003 +6.5507284286E+001  +9.5173403774E-003 -3.6154034888E+001  +3.6093592173E-001 +1.3513455582E+002 
4263936.170 +1.9850035245E-001 +1.4715423367E+002  +4.9253360691E-003 +1.3015351437E+002  +7.2321603855E-003 -2.3072783527E+001  +3.3746698397E-001 +1.0475872658E+002 
4389081.352 +1.6119995801E-001 +1.4161027973E+002  +1.3835276800E-002 -5.5957671692E+001  +8.8867483766E-003 -6.3615550376E+000  +2.6028397140E-001 +7.4805729744E+001 
4514226.533 +2.2998176141E-001 +1.4630261083E+002  +1.5590227433E-002 -7.6192130745E+001  +1.2558488364E-002 +1.2394722832E+002  +1.3716614739E+000 +1.4344647653E+002 
4639371.715 +2.9320995929E-001 +1.3828135665E+002  +4.8054239097E-003 -3.7342575719E+001  +1.3888440615E-002 -7.4941917670E+001  +1.2845350631E+000 +1.1091898066E+002 
4764516.896 +3.0279579975E-001 +1.2086939828E+002  +4.9015102579E-003 +1.3832299297E+002  +1.5078781350E-002 +1.5633324874E+002  +2.7090023235E+000 -1.6238846501E+002 
4889662.078 +4.4745168209E-001 +1.2449711568E+002  +2.7906331360E-002 +2.2722729094E+001  +5.5371609582E-002 -1.7992287453E+001  +2.4031820858E+000 -1.2871922714E+002 
5014807.259 +3.6930546327E-001 +1.3186454626E+002  +2.1404958926E-002 -1.1721709790E+002  +2.1426882907E-002 -9.7416944656E+000  +2.7025885669E+000 +1.0901072582E+002 
5139952.441 +3.1435692476E-001 +1.3348356218E+002  +6.0233550939E-002 -8.2205793332E+001  +6.5654740644E-002 -1.6941797436E+002  +9.2598119758E+000 +1.2577043948E+002 
5265097.622 +4.3659812725E-001 +1.2351774152E+002  +2.5839387714E-002 -2.4916902235E+001  +1.7563345756E-002 -6.3245501912E+001  +2.7391393523E+000 +1.1563573742E+002 
5390242.804 +4.2821217237E-001 +1.3107151499E+002  +1.7161836841E-002 -1.7347795097E+002  +6.8429308266E-003 +6.2780212398E+001  +1.3453399869E+000 +8.5393818446E+001 
5515387.985 +4.6752859276E-001 +1.3506059191E+002  +1.5810092423E-002 -1.5731935055E+002  +2.2957189087E-002 -1.0890546078E+002  +2.9317664493E+000 +7.5921392118E+001 
5640533.166 +4.5167974294E-001 +1.3172353705E+002  +2.3723446169E-002 -7.3906172526E+000  +4.2694774483E-002 -1.1414463619E+002  +1.9969760694E+000 +7.7776006601E+001 
5765678.348 +4.5869575541E-001 +1.1857279238E+002  +3.0967806378E-002 -8.7986956926E+001  +1.7789472924E-002 -1.7137613514E+002  +2.5967437065E+000 +2.3502963149E+001 
5890823.529 +5.4004543639E-001 +1.2636245887E+002  +1.2751723696E-002 -4.4976559130E+001  +2.4846511840E-002 -1.4384186925E+002  +2.0090512035E+000 +5.7168256513E+001 
6015968.711 +7.0249839020E-001 +1.2162081972E+002  +2.2770442962E-002 -1.3718515465E+002  +3.9648877813E-003 +4.7923976273E+001  +1.9612310851E+000 +1.2834693228E+001 
6141113.892 +8.3350614978E-001 +1.0858431820E+002  +2.9784310682E-002 +1.3571577812E+002  +2.0467745343E-002 +1.1648934581E+002  +2.0748156559E+000 +9.3300062993E+000 
6266259.074 +7.9496846903E-001 +1.0793402991E+002  +1.1346064582E-002 +7.6256613286E+001  +6.1471080842E-003 -7.5240649638E+001  +2.2155644701E+000 +2.0006226826E+001 
6391404.255 +1.0132514186E+000 +1.0227452193E+002  +1.9856905900E-002 -8.8071017396E+001  +1.4577529374E-002 +1.0467556394E+002  +1.8774532694E+000 +1.5231266298E+001 
6516549.437 +1.4711491673E+000 +9.7229723314E+001  +2.3336768539E-002 +1.5508760699E+002  +3.3289879019E-002 +9.6794492915E+001  +1.6017085224E+000 +1.8917187686E+001 
6641694.618 +1.5312612015E+000 +4.6713112087E+001  +2.3114031598E-002 +1.3840852419E+002  +1.3463384243E-002 +1.2484216070E+002  +1.5824173977E+000 +3.9683652976E+000 
6766839.800 +1.8710651191E+000 +6.4494876317E+001  +3.1604667469E-002 +1.9642166009E+001  +1.7108780579E-002 +2.5733575735E+001  +1.2998853938E+000 -2.1168051843E+000 
6891984.981 +1.9482033921E+000 +4.5712811644E+001  +1.6036465289E-002 +5.3985800992E+001  +1.6829770635E-002 +4.9214413976E+001  +1.3832497810E+000 -6.7819258121E+000 
7017130.163 +1.5900309453E+000 +3.1818394524E+001  +1.4016641217E-002 +8.3511016136E+001  +3.7677551121E-002 +4.6596055726E+001  +1.3503311648E+000 -1.0487709997E+001 
7142275.344 +1.6028333653E+000 +1.5106192547E+001  +2.1505964602E-002 +7.0670597704E+001  +1.6767216030E-002 +3.4927859918E+001  +1.3951833650E+000 -5.2737918611E+000 
7267420.526 +1.4922108723E+000 +5.9574834048E+000  +1.5756641202E-002 +1.0116256061E+002  +6.8171784506E-003 +9.0910911818E+000  +1.2264483846E+000 -1.1277427092E+001 
7392565.707 +1.3065867915E+000 +4.5440927629E+000  +1.4896769653E-002 +1.7474893366E+002  +1.7194074102E-002 +3.1411868424E+001  +1.3426091875E+000 -1.1562672096E+001 
7517710.889 +1.2080135427E+000 +2.9910617110E+000  +8.5515339841E-003 +5.2771843984E+001  +9.8160351061E-003 -1.1475983823E+002  +1.2343253000E+000 -7.6034471590E+000 
7642856.070 +1.0478485766E+000 +3.4360847971E+000  +3.4352419477E-003 -1.0384540863E+002  +1.1111686684E-002 +1.2192926309E+002  +1.0912277679E+000 -5.8746268126E+000 
7768001.252 +9.5743307067E-001 +7.6239686611E+000  +6.1310963012E-003 +1.6611035300E+002  +1.0957366278E-002 +3.8690132307E+001  +1.1020765986E+000 -5.3324340043E+000 
7893146.433 +9.5723885456E-001 +6.7541513877E+000  +7.1034786076E-003 +4.7005792807E+001  +7.9566805063E-003 +1.2574383443E+002  +8.9070544504E-001 +6.0918536277E-001 
8018291.615 +9.1677087124E-001 +5.8328916432E+000  +1.0189325653E-002 +8.0284130632E+001  +5.3701938784E-003 +1.4494384166E+002  +9.0625098089E-001 -4.0783955890E+000 
8143436.796 +7.3634991067E-001 +8.9703181848E+000  +5.4160001935E-003 +4.2839236682E+001  +7.1514499025E-003 +1.2364570348E+002  +7.7712065283E-001 -9.2145354404E-001 
8268581.977 +7.5534883992E-001 +1.6568306386E+001  +5.7202231135E-003 +1.3359492806E+002  +6.4852621491E-003 +1.3129603790E+002  +6.9619878067E-001 -1.9448463365E+000 
8393727.159 +7.2609909902E-001 +1.0170757551E+001  +4.4973226195E-003 -1.7746333228E+002  +2.8456939140E-003 -9.7809420786E+001  +6.8926574258E-001 -6.6094411886E+000 
8518872.340 +6.5030130694E-001 +4.6480271408E+000  +4.1834622595E-003 +7.7869089552E+001  +6.5530066771E-003 +4.5995281237E+001  +7.9937874515E-001 -8.5330536148E-002 
8644017.522 +6.4468006330E-001 +8.1424927741E+000  +7.1097962396E-003 +1.3166289385E+002  +2.7816748085E-004 +1.6355082351E+002  +6.6776328615E-001 +2.4880022462E+000 
8769162.703 +7.2245582811E-001 +1.0360321617E+001  +4.0849759378E-003 +5.4204693363E+001  +4.2141180066E-003 +6.6627171939E+001  +6.2118574245E-001 -1.2846211417E+000 
8894307.885 +6.2872954060E-001 +1.4250612327E+001  +8.4623170628E-003 +8.0370516790E+001  +8.0949262145E-004 +1.0906153703E+002  +7.0849627447E-001 -2.3122345861E+000 
9019453.066 +5.8525050685E-001 +5.3685121812E+000  +7.2426129849E-003 +8.9191895837E+001  +4.4559520004E-003 +8.9509213464E+001  +6.5205184047E-001 -2.3277046933E+000 
9144598.248 +5.8981429811E-001 +4.1674955342E+000  +8.0040256820E-003 +8.1490189231E+001  +7.8522417620E-003 +7.6175210265E+001  +6.3239574337E-001 -1.6320490832E+000 
9269743.429 +5.3006667827E-001 -7.3018144583E-001  +3.4627763529E-003 +4.4272160359E+001  +5.2398786803E-003 +1.0423110063E+002  +6.2235020696E-001 -3.0069545839E+000 
9394888.611 +5.9888136341E-001 +5.8941288415E+000  +1.1205901815E-003 -1.5455958454E+002  +6.0937137285E-003 +1.1138685200E+002  +6.6384971637E-001 -1.4358435937E+000 
9520033.792 +5.2437245307E-001 -1.5899134572E+000  +5.2479673527E-003 +1.1223893669E+002  +2.3983120462E-003 +7.8275892231E+001  +5.4301916195E-001 -2.4083129844E+000 
9645178.974 +5.6092536499E-001 +6.5076587664E-001  +3.0528986121E-003 +1.4106316413E+002  +4.3178003640E-003 +8.1051735489E+001  +5.8428694297E-001 -4.6395161978E+000 
9770324.155 +5.3673767579E-001 +8.2324236428E+000  +4.1028314325E-003 +3.0436462043E+001  +1.0119593682E-002 +7.2530586952E+001  +6.0604888737E-001 -6.2698987613E+000 
9895469.337 +4.9056910653E-001 +2.4723747865E+000  +5.1980900015E-003 +1.4457681521E+002  +2.9707044044E-003 +7.2597912307E+001  +6.0422096163E-001 -4.1453182092E+000 
10020614.518 +5.5044130267E-001 +1.5740342455E+000  +4.6907636015E-003 +8.0279619863E+001  +2.4608519958E-003 +5.5365238913E+001  +5.4896897112E-001 -5.8528521153E+000 
10145759.700 +5.5433574944E-001 +3.4519211069E+000  +4.9957694789E-003 +9.0485570858E+001  +3.7189406135E-003 +9.9922874463E+001  +6.0632226793E-001 -6.0709354135E+000 
10270904.881 +5.4787171934E-001 +8.6312700510E+000  +4.6671951684E-003 +8.2881411947E+001  +6.4086339707E-003 +1.1850701276E+002  +6.0264621422E-001 -2.5374647041E+000 
10396050.063 +5.7957166097E-001 +2.3217109575E+000  +6.7291090185E-003 +1.0880042605E+002  +5.1105643673E-003 +6.7916589546E+001  +5.6565450200E-001 -2.4512585587E+000 
10521195.244 +5.4205867853E-001 +8.8276172774E+000  +6.6123422812E-003 +1.0774668012E+002  +6.4771872061E-003 +8.0542419421E+001  +5.9570949130E-001 -2.9223071569E+000 
10646340.426 +5.8467712517E-001 +2.4982830528E+000  +5.1300051385E-003 +8.1731622662E+001  +3.6293833160E-003 +9.8461518913E+001  +5.9167488960E-001 -2.0481668493E-001 
10771485.607 +5.4627159341E-001 +8.1556340700E+000  +6.4381205479E-003 +8.5197488804E+001  +3.1867740695E-003 +9.2522103004E+001  +5.9158122239E-001 -1.2205568959E+000 
10896630.788 +5.6145257039E-001 +5.6474845534E+000  +4.3861970832E-003 +7.6318876648E+001  +2.8828323439E-003 +1.0225016785E+002  +6.0785872453E-001 +8.5562473908E-001 
11021775.970 +6.4246495330E-001 +4.0868995103E+000  +6.3453400752E-003 +6.3817797780E+001  +3.5354736104E-003 +1.0460026297E+002  +6.3231573217E-001 +5.5551621430E-001 
11146921.151 +5.7248607794E-001 +9.2129373047E+000  +3.8439190082E-003 +8.3794997731E+001  +5.7237761576E-003 +1.0771155779E+002  +6.1418660028E-001 -3.2645289783E-001 
11272066.333 +6.0658430924E-001 +6.7170162664E+000  +3.3995229357E-003 +8.7449318304E+001  +6.1122631759E-003 +8.4581772515E+001  +6.0337725701E-001 +1.2071222666E+000 
11397211.514 +6.3892995063E-001 +7.4114079456E+000  +5.2606350161E-003 +7.3373418802E+001  +4.4070967665E-003 +1.0100408626E+002  +6.3833388496E-001 -5.5225294322E-001 
11522356.696 +6.1357211152E-001 +6.7983339771E+000  +4.0518931800E-003 +8.9027511067E+001  +5.1842044227E-003 +6.8795795037E+001  +6.2613554671E-001 +1.0542744101E+000 
11647501.877 +6.2947700327E-001 +5.9638760336E+000  +5.6392058916E-003 +9.4942609588E+001  +4.2291467625E-003 +9.2806943099E+001  +6.6811926454E-001 -2.9916301394E+000 
11772647.059 +6.4666737444E-001 +6.0252961621E+000  +3.5483322800E-003 +8.3991412112E+001  +5.4812309409E-003 +7.7695827755E+001  +6.7980522709E-001 +1.8107372317E+000 
11897792.240 +6.3623528165E-001 +4.1208932663E+000  +6.3180188926E-003 +7.4222504976E+001  +3.9234843448E-003 +8.8859740812E+001  +6.7388426842E-001 +9.5087753650E-001 
12022937.422 +6.7179230299E-001 +5.9954232216E+000  +5.5622838513E-003 +6.6119572072E+001  +4.0824006189E-003 +1.0434182403E+002  +6.7866461190E-001 -3.9074906903E-001 
12148082.603 +6.6658711881E-001 +4.5907111328E+000  +6.3829457175E-003 +9.3293777246E+001  +5.8766014798E-003 +1.0627098983E+002  +7.0204223281E-001 +1.3944607337E+000 
12273227.785 +7.0018592010E-001 +4.2063304298E+000  +6.0578008719E-003 +8.6659319827E+001  +5.3721341529E-003 +9.7863057441E+001  +7.0017359999E-001 -2.2389457860E+000 
12398372.966 +7.2783309163E-001 +5.0246180463E+000  +6.7208986416E-003 +9.8805004788E+001  +5.2568921439E-003 +8.3806176918E+001  +7.2669071299E-001 -3.2327201726E-001 
12523518.148 +7.1421566523E-001 +2.6141165314E+000  +6.0301432476E-003 +9.3429744225E+001  +5.8325715677E-003 +9.7697728264E+001  +7.4677008382E-001 -1.6596901954E+000 
12648663.329 +7.2406486968E-001 +3.8374921367E+000  +7.3360988387E-003 +7.6334719906E+001  +4.2963130319E-003 +9.0357882743E+001  +7.5410491588E-001 -7.3714112076E-001 
12773808.511 +7.6037912733E-001 +1.7167190983E+000  +8.1538338732E-003 +8.8828360682E+001  +5.7805201677E-003 +8.5723828211E+001  +7.6557675149E-001 -1.7411916411E+000 
12898953.692 +7.6706555860E-001 +2.5937695735E+000  +6.6810932235E-003 +9.5329463124E+001  +6.0893338634E-003 +1.0023697051E+002  +7.8559666622E-001 -3.3101550545E-001 
13024098.874 +7.7566688851E-001 +1.2698363434E+000  +5.0644862851E-003 +8.6981791665E+001  +5.0182705971E-003 +1.0293396762E+002  +7.9843885559E-001 -1.5985298740E+000 
13149244.055 +7.8407094132E-001 +1.7680419102E+000  +8.1900180252E-003 +8.5963900794E+001  +7.6354858065E-003 +1.0490673565E+002  +8.1306847276E-001 +2.3464367833E-001 
13274389.237 +8.0590507743E-001 +6.6129364176E-001  +6.8715335031E-003 +7.5951155584E+001  +5.7916913204E-003 +9.3319997863E+001  +8.2773447808E-001 -1.7888920246E+000 
13399534.418 +8.4302693096E-001 -1.3956644439E+000  +8.2489622822E-003 +1.0021833109E+002  +7.9696143796E-003 +1.0150967783E+002  +8.6735730654E-001 -1.9676173041E+000 
13524679.599 +8.6032816944E-001 -1.8875068889E+000  +5.9929778315E-003 +8.2003113922E+001  +6.1305377429E-003 +7.3852733931E+001  +8.5485841636E-001 -2.9004845171E+000 
13649824.781 +8.6434836087E-001 -1.3859158201E+000  +8.3214173336E-003 +8.8416347298E+001  +6.5666423361E-003 +9.8745428611E+001  +8.6754165455E-001 -3.4533817965E+000 
13774969.962 +8.9258340563E-001 -2.6287549735E+000  +7.2597498677E-003 +8.1647208913E+001  +6.7801219742E-003 +8.1873914440E+001  +8.9886219859E-001 -3.6514596378E+000 
13900115.144 +9.0412536506E-001 -3.4611041512E+000  +7.0337046422E-003 +8.3435212213E+001  +6.3263337372E-003 +8.1908664438E+001  +9.0972037158E-001 -2.0280529245E+000 
14025260.325 +9.1549635254E-001 -4.5826785213E+000  +7.9378361450E-003 +8.2475236445E+001  +7.2868176552E-003 +8.2302542706E+001  +9.4437921005E-001 -4.3100729716E+000 
14150405.507 +9.2854136404E-001 -4.7562700394E+000  +7.3486680908E-003 +9.8183151365E+001  +6.9599439513E-003 +8.9027522518E+001  +9.6229054957E-001 -3.5548866108E+000 
14275550.688 +9.7119817616E-001 -4.1464450077E+000  +7.3266288089E-003 +8.4255958361E+001  +7.9960856516E-003 +9.6433177915E+001  +9.5192229019E-001 -3.8880296766E+000 
14400695.870 +9.8725413923E-001 -5.2971347395E+000  +7.6742444208E-003 +9.3335803094E+001  +7.1596458967E-003 +1.0565818845E+002  +9.8926658236E-001 -3.7093690348E+000 
