!  2-Port S-parameters saved by WinCal
! VAR MeasName=S-Parameters (CALIBRATED_DATA) read from VNA (P5004A)
! VAR MeasDate=27/08/2024 15:42:44
! VAR NAME=S2_r6c8_RESET3_9k-100M_1
! VAR FILENAME=S2_r6c8_RESET3_9k-100M_1.S2P
! VAR DATE=27/08/2024 15:42:44
! VAR PHYS_PORTS=1,2
! VAR ObjTypeName=DATASET
! VAR IndexType=Frequency
!
# Hz S MA R 50
9000.000 +8.2426683515E-002 -1.4916296818E+002  +3.1744170878E-002 -5.9546181646E+001  +2.1726008745E-002 +1.1944848468E+002  +2.4893938058E-001 -1.2475665311E+002 
134145.181 +1.1051451558E-001 +1.7027539399E+002  +5.0575062802E-004 +3.6323818353E+001  +3.3498488378E-004 +6.0474778358E+001  +2.4143021623E-001 -1.7049208874E+002 
259290.363 +1.1133614519E-001 +1.6977953924E+002  +1.3673460791E-003 -1.3665569864E+002  +5.0796990580E-004 -1.3113391508E+001  +2.4476294963E-001 -1.6932225934E+002 
384435.544 +1.1396354783E-001 +1.6976221406E+002  +2.9847537346E-004 -1.4877001244E+002  +5.5822914219E-004 -3.9516185605E+001  +2.4074203921E-001 -1.6921668821E+002 
509580.726 +1.1258795406E-001 +1.7023758906E+002  +1.4819261744E-004 -1.1499792241E+002  +1.6230584921E-003 +6.9897627580E+001  +2.4467445963E-001 -1.6663214359E+002 
634725.907 +1.1666913993E-001 +1.7179353254E+002  +6.6096924879E-004 +1.6524318753E+002  +6.2254776242E-004 +8.7841446913E+001  +2.4108626805E-001 -1.6175192872E+002 
759871.089 +1.1729622469E-001 +1.7150086279E+002  +2.0396143977E-004 +2.1049205149E+001  +7.4389288008E-004 +1.2834174893E+002  +2.4703452572E-001 -1.6655813916E+002 
885016.270 +1.1901466434E-001 +1.7000581114E+002  +7.2411269993E-004 +8.9906453037E+000  +2.7120327726E-004 +1.7837931973E+002  +2.4046543793E-001 -1.6586766454E+002 
1010161.452 +1.1801293278E-001 +1.7195090937E+002  +2.5009534473E-003 +1.5920977478E+002  +2.8038973867E-003 -1.7725644316E+002  +1.8059537319E-001 -1.6563543176E+002 
1135306.633 +1.1130135725E-001 +1.7272162936E+002  +5.3065216103E-003 +5.3165590975E+001  +2.7422677201E-003 +1.0855460500E+002  +1.2831184173E-001 -1.7074224402E+002 
1260451.815 +1.1655167264E-001 +1.7256897709E+002  +1.1795548645E-003 -1.7811308272E+002  +1.9138024446E-003 +1.4813159760E+002  +2.3163416946E-001 -1.5551596446E+002 
1385596.996 +1.2625092635E-001 +1.7175426433E+002  +7.4076815382E-004 +2.5570635036E+001  +1.2336658159E-003 +9.7761658698E+000  +2.7074501707E-001 -1.5847425265E+002 
1510742.178 +1.2787569928E-001 +1.7225466723E+002  +1.0163645279E-003 +1.4108999386E+002  +1.9860370627E-003 -8.1119327369E+001  +2.6715239397E-001 -1.5655783401E+002 
1635887.359 +1.2462582768E-001 +1.6896058635E+002  +1.0647714691E-003 +1.2583853490E+002  +3.9254306221E-004 +1.5507510229E+000  +2.5337756056E-001 -1.5916530914E+002 
1761032.541 +1.2696107529E-001 +1.6908221838E+002  +1.2139873851E-003 -8.3090572686E+001  +1.8104830004E-003 -1.4006997002E+002  +2.1977373217E-001 -1.5810069436E+002 
1886177.722 +1.2793102521E-001 +1.6743931727E+002  +1.6223730312E-003 +4.7783973859E+001  +3.3996334783E-003 -7.1918990355E+001  +2.1365558179E-001 -1.6622870294E+002 
2011322.904 +1.3130753424E-001 +1.6540446538E+002  +5.0880156803E-003 +1.5627430400E+002  +9.3380257267E-004 -8.0822405336E+001  +1.8079226549E-001 -1.7499968959E+002 
2136468.085 +1.3458338173E-001 +1.6376608969E+002  +5.1503178873E-003 -2.2340364670E+001  +3.3774715820E-003 +5.9522103986E+001  +2.8891565532E-001 +1.5476001079E+002 
2261613.267 +1.3514119707E-001 +1.6281491911E+002  +1.2566870524E-003 -1.6183621580E+002  +8.0178700072E-003 -1.0871235089E+002  +9.5367507859E-002 -1.7397822383E+002 
2386758.448 +1.3011695798E-001 +1.6248217929E+002  +1.7971456055E-003 -2.7755297109E+001  +1.9290964352E-003 +4.8492180749E+001  +1.5827107625E-001 +1.6713244555E+002 
2511903.630 +1.3009201528E-001 +1.5906725272E+002  +4.3462621104E-003 -8.0756530787E+001  +4.5061898585E-003 +1.3192356674E+002  +2.2380489092E-001 +1.5804289159E+002 
2637048.811 +1.2713493447E-001 +1.5320796939E+002  +9.3175262867E-003 -9.1330335120E+001  +4.8615137131E-003 +1.7775807677E+002  +3.3097701708E-001 +1.5587292130E+002 
2762193.992 +1.2003212070E-001 +1.6913044497E+002  +1.1547829035E-002 -7.2064428862E+001  +5.4278229434E-002 +1.0120281479E+002  +3.0546894360E+000 +4.4360406585E+001 
2887339.174 +9.0115095494E-002 +1.7219786743E+002  +7.3383916156E-003 +1.2261545247E+002  +2.2456776661E-002 +3.1880086536E+000  +5.7156552524E-001 -1.2425598853E+002 
3012484.355 +1.1752373076E-001 +1.7244122272E+002  +4.8064582019E-003 +1.7830818501E+002  +1.0828355929E-002 +3.3691925620E+001  +5.9186304157E-001 -1.0526525539E+002 
3137629.537 +1.1884567481E-001 +1.5963974999E+002  +2.0081329481E-002 +1.2901924236E+002  +1.8534344928E-002 +3.8042402759E+001  +6.5103859499E-001 -9.9907259825E+001 
3262774.718 +1.0299290143E-001 +1.5967766407E+002  +3.7685337006E-002 -3.3731192757E+001  +3.9534850924E-002 -1.2076416167E+002  +1.7407324983E+000 +5.7275155433E+001 
3387919.900 +1.3586453622E-001 +1.5953931885E+002  +2.3241923983E-002 -1.6301780855E+001  +2.4064224979E-002 +7.0907383090E+001  +6.9355202779E-001 +1.1313628656E+002 
3513065.081 +1.7041490525E-001 +1.3600090708E+002  +7.3568042103E-003 +1.1630873661E+002  +3.6149048959E-002 +1.3254616613E+002  +8.1042212640E-001 +4.1061051346E+001 
3638210.263 +1.9314461501E-001 +1.4498214819E+002  +3.2088981124E-002 +5.6085767230E+001  +2.7058934788E-002 +1.6129567623E+002  +1.6116314590E+000 +1.4041807463E+002 
3763355.444 +1.5210376681E-001 +1.4183156723E+002  +3.1679788296E-003 -1.0404708055E+002  +7.2872407262E-003 +1.3064312990E+002  +4.9839663517E-001 +1.2132144914E+002 
3888500.626 +1.6940844868E-001 +1.2829537543E+002  +3.1574931708E-002 -5.4263090571E+000  +5.3041895741E-002 -7.1149440817E+001  +9.5741915564E-001 +8.7318217263E+001 
4013645.807 +2.0558103371E-001 +1.4969293530E+002  +8.3585130344E-003 +4.2119858490E+001  +1.4978618070E-002 -1.0320851109E+002  +2.5505287162E-001 +1.1982245635E+001 
4138790.989 +2.0115626095E-001 +1.4826845328E+002  +7.4129886308E-003 +1.6521128480E+002  +1.2299907797E-002 +3.5973709619E+001  +2.6863395381E-001 +3.2495577514E+001 
4263936.170 +1.4326280065E-001 +1.3447516873E+002  +6.5821585665E-003 -9.7903196644E+001  +6.6043688170E-003 -3.4522043627E+001  +1.1257018892E-001 +7.8121147661E+001 
4389081.352 +2.0692684537E-001 +1.4320327395E+002  +2.0235130792E-003 -1.4441211741E+002  +6.0456401093E-003 -1.1799657834E+002  +8.8896802459E-001 +1.4454835840E+002 
4514226.533 +2.3805947369E-001 +1.3022431747E+002  +4.7715981133E-002 -1.0311862055E+002  +2.8282816659E-002 +1.2811340119E+002  +2.2848229169E+000 +6.7824495166E+001 
4639371.715 +2.9578711143E-001 +1.2857883377E+002  +3.4666668846E-002 +1.4213072098E+002  +2.4929169717E-002 +9.8597776427E+001  +2.0882053328E+000 +7.3730306449E+001 
4764516.896 +3.5410704979E-001 +1.2230584314E+002  +4.2278807221E-002 -2.2753805716E+001  +3.9244298535E-002 -1.3570624675E+002  +2.6835947146E+000 +1.5187048670E+002 
4889662.078 +3.9873603096E-001 +1.3444808736E+002  +9.5188873095E-002 -1.5994017673E+001  +7.3764331490E-003 -8.6247221265E+001  +5.5714489428E+000 -9.1738672867E+001 
5014807.259 +4.3838928661E-001 +1.2643461016E+002  +4.5951076797E-002 -4.3025299844E+001  +3.6116785995E-002 -3.7009873658E+000  +1.7233878010E+000 +1.1588615130E+001 
5139952.441 +4.0703308937E-001 +1.3607114815E+002  +1.2212650285E-001 +1.4260227667E+002  +8.2458931175E-002 +1.5815182916E+001  +7.6197611730E+000 +2.8505600635E+001 
5265097.622 +5.1332835184E-001 +1.2531426775E+002  +7.4384363742E-002 +7.0204886419E+001  +3.2920592426E-002 -6.8133202520E+001  +2.4111871243E+000 -1.7677782728E+001 
5390242.804 +4.0563938664E-001 +1.3084427158E+002  +2.2552153361E-002 -2.1547661359E+000  +8.5761289237E-002 +1.7091598047E+002  +8.9091040024E+000 +1.2861975774E+002 
5515387.985 +4.7740993716E-001 +1.2936844796E+002  +1.7506568089E-002 +3.2416829407E+001  +1.6023665418E-002 +6.6171380902E+001  +2.1478768815E+000 +1.1425607256E+002 
5640533.166 +4.4383206567E-001 +1.2592138225E+002  +1.1462404736E-002 -1.7223510398E+002  +8.3932996931E-003 +1.5125681791E+002  +1.6161188999E+000 +8.4181971044E+001 
5765678.348 +4.7704965149E-001 +1.2595454826E+002  +3.5509502124E-003 -1.0733024681E+002  +1.1851455457E-002 -9.5449654481E+001  +1.0617909912E+000 +3.3797233821E+001 
5890823.529 +5.8123422917E-001 +1.1954391324E+002  +7.4349917290E-003 -1.6167472675E+002  +2.7139716224E-002 -9.0114708431E+001  +1.3235707197E+000 +3.2707807668E+001 
6015968.711 +6.2968927307E-001 +1.1707283687E+002  +2.3132062525E-002 -2.5314659245E+001  +7.2096774777E-003 +1.1272225376E+002  +1.6313408561E+000 +5.9207078331E+001 
6141113.892 +7.9635246537E-001 +1.1176343045E+002  +1.1827604195E-002 +1.2475888982E+002  +2.4461702954E-002 +4.4875246763E+001  +2.4654654101E+000 +4.2487086682E+001 
6266259.074 +7.8689862998E-001 +1.0572549506E+002  +1.3445113260E-002 +1.0701002229E+002  +1.2306028834E-002 +1.2007585481E+002  +1.5032791168E+000 +4.6734894567E+001 
6391404.255 +9.3593934599E-001 +9.6016484232E+001  +1.9936684808E-002 -1.3022801020E+002  +1.3629370473E-002 +5.9173774078E+001  +1.4867710626E+000 +2.1025632593E+001 
6516549.437 +1.1810791419E+000 +8.5592336318E+001  +2.0136158249E-002 +1.1094734143E+002  +3.0005373770E-002 +7.2969441535E+001  +1.4001777732E+000 +5.5475511518E+000 
6641694.618 +1.3080249018E+000 +6.9580320711E+001  +2.8948542856E-002 +6.1759032804E+001  +1.3406741562E-002 +1.3007490960E+002  +1.5284604261E+000 -8.7195633082E+000 
6766839.800 +1.8108703946E+000 +2.9858235104E+001  +2.8853836114E-003 -6.7389643558E+001  +2.1092180700E-002 +8.1332621116E+001  +1.3206386108E+000 -5.9510362722E+000 
6891984.981 +1.7257438461E+000 +3.6930257628E+001  +8.8138926430E-003 -1.5887328003E+002  +8.6622748761E-003 +4.0450571306E+001  +1.3501895018E+000 -9.9990930829E+000 
7017130.163 +1.7275956461E+000 +3.3938031219E+001  +1.7014672037E-002 +8.1895559660E+001  +1.4697277307E-003 -1.6493878145E+002  +1.2716513618E+000 -9.7252528307E+000 
7142275.344 +1.5942552015E+000 +1.3045020631E+001  +9.1340906486E-003 +4.0439906219E+001  +1.3516465286E-002 +8.1755073228E+001  +1.4200491956E+000 -8.4070279729E+000 
7267420.526 +1.5332127337E+000 +4.8902142986E+000  +1.5744194643E-002 +8.2509186289E+000  +6.2532679914E-003 +8.5274453913E+001  +1.2534560358E+000 -1.1537046537E+001 
7392565.707 +1.2180849253E+000 +6.9540345387E+000  +7.2192279760E-003 +3.2895501474E+001  +1.5746242786E-002 +7.5994882057E+001  +1.3475656572E+000 -8.8141131266E+000 
7517710.889 +1.1514397982E+000 +7.0928492821E-001  +1.3652660786E-002 +1.5960778950E+002  +6.9041466808E-003 +2.6411531932E+001  +1.3270268579E+000 -6.1414481823E+000 
7642856.070 +1.0390424276E+000 +1.4951768220E+000  +7.8389337429E-003 +9.1750725083E+001  +7.2513836111E-003 +9.3469697318E+001  +1.0640324785E+000 -7.1895004514E+000 
7768001.252 +9.3796109952E-001 +3.9006908904E+000  +9.0779075785E-003 +5.6315363791E+001  +6.1585332135E-003 +3.4016370886E+001  +1.0024630881E+000 -1.6257160968E+000 
7893146.433 +1.0304264241E+000 +4.4463087214E+000  +6.5039820232E-003 -4.8564924310E+000  +3.9767311384E-003 +1.5498414757E+002  +8.8754994160E-001 -5.2963413039E+000 
8018291.615 +7.5350121443E-001 +1.1076834304E+001  +6.5285744367E-003 -3.2171973531E+001  +9.0228958945E-003 +4.3867755804E+001  +8.5901002861E-001 -6.3303011605E-002 
8143436.796 +7.3751472147E-001 +6.8893599893E+000  +1.6595048461E-003 -1.0669075402E+002  +1.7101345832E-003 +4.4942844090E+001  +7.6007922082E-001 -4.3998197374E+000 
8268581.977 +7.9804809162E-001 +4.8266223776E+000  +8.0183825341E-003 +4.5303109757E+001  +3.8493295049E-003 +5.3234292029E+001  +7.8870843830E-001 -6.5198402237E+000 
8393727.159 +7.4808857499E-001 +6.8784262951E+000  +3.8970713562E-003 +1.4382018485E+001  +1.1089052275E-002 +8.2994005155E+001  +6.9933982375E-001 +4.0442155977E-001 
8518872.340 +6.9918349852E-001 +7.8392921627E+000  +4.6253736335E-003 +1.0724663859E+002  +1.4754762343E-003 +5.3472373393E+001  +7.1541787455E-001 -2.9405723684E+000 
8644017.522 +6.7773240370E-001 +1.0920264157E+001  +4.6517574135E-003 -1.6506798463E+001  +2.4286190849E-003 +4.0617622296E+001  +6.4964684597E-001 -6.0790211254E-001 
8769162.703 +6.7940268714E-001 +5.0432965060E+000  +6.5673870907E-003 +3.2391299846E+001  +5.2002269106E-003 +4.3117540567E+001  +6.5338361435E-001 +5.0798133480E+000 
8894307.885 +6.1384962730E-001 +7.3540574413E+000  +4.1720428716E-003 +7.0675704182E+001  +1.8167505558E-003 +2.0785158916E+001  +6.6780926039E-001 -1.1496140960E+000 
9019453.066 +6.0937913082E-001 +1.0407888414E+001  +8.1568971419E-003 +1.1137435184E+002  +4.1270224020E-003 +3.1549434137E+001  +6.3498802715E-001 +2.5614707849E+000 
9144598.248 +5.8282973614E-001 +2.0600002390E+000  +8.2927527343E-003 +4.3564762641E+001  +2.1431955823E-003 +2.2817674524E+001  +6.3079540437E-001 -2.9021094505E+000 
9269743.429 +5.4922545641E-001 +5.2223189391E+000  +4.4543563916E-003 +4.1169535315E+001  +3.5650043433E-003 +4.6382350098E+001  +5.6434911082E-001 -6.1451864663E+000 
9394888.611 +5.8214716386E-001 +3.0611000328E+000  +3.5512978858E-003 +4.0313330267E+001  +4.0231139217E-003 +1.1401541441E+002  +5.9054542290E-001 -3.0432189447E+000 
9520033.792 +5.6293506482E-001 -2.5490485200E+000  +4.5213662502E-003 +1.9928240369E+001  +5.0779777992E-003 +1.1936649387E+002  +6.0332602407E-001 -8.0981590815E+000 
9645178.974 +5.8328515456E-001 +1.8948533617E+000  +3.9655805159E-003 -7.9622039151E+000  +4.3419542209E-003 +1.2095597984E+002  +5.6344414580E-001 -3.5882772101E+000 
9770324.155 +5.5625432850E-001 +1.2424238989E+000  +3.4287646372E-003 +9.2072815004E+001  +3.2413038140E-003 -4.1543985318E+000  +6.1302812887E-001 -5.5503760280E+000 
9895469.337 +5.3847032728E-001 -1.7717613098E+000  +5.4036471275E-003 +4.0071709786E+001  +4.2245022295E-003 +6.6271108042E+001  +5.6999072110E-001 -7.3947395474E+000 
10020614.518 +5.0601440443E-001 +4.6637023116E+000  +4.4440402247E-003 +6.2930206004E+001  +4.4790395507E-003 +9.9173444075E+001  +5.7310813907E-001 -9.2446986945E+000 
10145759.700 +5.5074708071E-001 +2.1227370590E+000  +3.7688479265E-003 +8.7599427845E+001  +5.0375602964E-003 +9.1116082909E+001  +6.1571009815E-001 -5.6826523009E+000 
10270904.881 +5.4948659785E-001 +4.2887531151E+000  +4.3225636282E-003 +5.7420800822E+001  +4.0334045838E-003 +9.8640508253E+001  +5.6695777688E-001 -5.3933143903E+000 
10396050.063 +5.6033685288E-001 +8.2131021353E+000  +6.1131863987E-003 +1.0257239760E+002  +4.2797836403E-003 +1.1136757524E+002  +6.0734694610E-001 +1.9865299267E+000 
10521195.244 +5.7048794511E-001 +8.9607731976E+000  +1.1012968106E-003 +1.3311849148E+002  +4.2777622269E-003 +1.1050410085E+002  +5.8038885653E-001 -3.3897524375E+000 
10646340.426 +5.6333440142E-001 +5.4913000924E+000  +2.4895320153E-003 +8.1516614084E+001  +1.5163951001E-003 +3.7205408242E+001  +5.7588132801E-001 +5.4894082984E-001 
10771485.607 +5.5407628158E-001 +7.9732864379E+000  +3.4384853512E-003 +7.1350333322E+001  +5.2691113195E-003 +1.0177320123E+002  +6.3060618395E-001 -3.5748405604E+000 
10896630.788 +5.8631801675E-001 +6.5197150297E+000  +6.4339305520E-003 +5.8670134812E+001  +2.1258871684E-003 +2.4015009290E+001  +5.8900974787E-001 +2.6171973887E+000 
11021775.970 +5.9113471807E-001 +6.6493076614E+000  +5.7672815218E-003 +9.0306112831E+001  +6.0339157498E-003 +1.0316565933E+002  +6.2310642401E-001 +2.7031197438E+000 
11146921.151 +5.7731735744E-001 +4.6348992334E+000  +5.3602384588E-003 +9.8610740379E+001  +4.8849886857E-003 +7.1210138414E+001  +6.4904143379E-001 +1.3100665895E+000 
11272066.333 +6.1816592682E-001 +6.3975077688E+000  +5.2979141973E-003 +9.0431143174E+001  +3.1089135156E-003 +7.9364578269E+001  +6.0337522884E-001 +3.4219622149E-001 
11397211.514 +6.1253069325E-001 +4.8092130452E+000  +5.5485643769E-003 +6.4725355740E+001  +3.8891211432E-003 +7.1230250456E+001  +6.3626014293E-001 +7.3187172720E-001 
11522356.696 +5.9677827191E-001 +4.3191712195E+000  +5.4409871804E-003 +8.4066490750E+001  +5.3210449948E-003 +1.0253227563E+002  +6.3941229312E-001 -7.3811317102E-001 
11647501.877 +5.9686510169E-001 +6.0761764465E+000  +3.8909169630E-003 +8.5861477073E+001  +6.1546192273E-003 +1.0183339645E+002  +6.7508306019E-001 +1.6094794141E+000 
11772647.059 +6.4129197386E-001 +6.8716401953E+000  +4.0603767086E-003 +5.7317875684E+001  +4.9472305058E-003 +8.1230375436E+001  +6.7137182946E-001 +6.2782067620E-001 
11897792.240 +6.6158273704E-001 +4.4470803510E+000  +4.7936224487E-003 +7.3470358652E+001  +2.8757575747E-003 +9.7226126559E+001  +6.7433492529E-001 +9.3012101289E-001 
12022937.422 +6.5511980887E-001 +5.8485431463E+000  +8.1139096079E-003 +7.4012720858E+001  +5.3058286434E-003 +9.5180230027E+001  +6.7011812766E-001 -4.3804544294E-001 
12148082.603 +6.7105818417E-001 +5.6308332322E+000  +5.9264439077E-003 +8.6104481309E+001  +6.4306289335E-003 +7.1573335250E+001  +6.8274409586E-001 +7.0664723572E-001 
12273227.785 +7.0598865732E-001 +4.4044398042E+000  +6.4836388903E-003 +7.8242506387E+001  +7.0964979661E-003 +7.8908228938E+001  +6.9424436109E-001 +7.2699906841E-001 
12398372.966 +6.9438977888E-001 +4.1532142047E+000  +6.7342876022E-003 +9.1067187623E+001  +6.1537577086E-003 +9.4486736296E+001  +7.4330965247E-001 -2.4574301500E+000 
12523518.148 +7.4455650843E-001 +3.8398782660E+000  +7.6746414154E-003 +5.8470810681E+001  +4.8314342643E-003 +7.5400088413E+001  +7.3851313366E-001 -7.7394604489E-001 
12648663.329 +7.4519321855E-001 +3.1220103622E+000  +7.3692205577E-003 +8.4091614715E+001  +7.8759240913E-003 +9.1567136764E+001  +7.7037649738E-001 -1.6545932101E+000 
12773808.511 +7.6612755200E-001 +2.7132575710E+000  +4.9979014527E-003 +8.5115208456E+001  +4.9853303971E-003 +7.2631035552E+001  +7.6017738082E-001 +3.0870454646E-001 
12898953.692 +7.5144394018E-001 +1.9567369950E+000  +6.8580557901E-003 +8.9664381043E+001  +6.5534085678E-003 +8.4424362402E+001  +8.0365099019E-001 -2.2534962928E+000 
13024098.874 +7.6932486921E-001 -1.9120613002E+000  +5.8805724261E-003 +9.0300881247E+001  +6.4911213664E-003 +8.9620363144E+001  +7.9131173428E-001 -1.2435654979E+000 
13149244.055 +7.9714534835E-001 +6.2618248317E-001  +6.3542303554E-003 +8.1717329474E+001  +7.2515062174E-003 +8.2241429455E+001  +8.1079588097E-001 -2.1515343769E+000 
13274389.237 +8.2291739998E-001 +8.2981844247E-001  +5.4055224057E-003 +7.3511590254E+001  +6.5694840259E-003 +9.1491147649E+001  +8.2809005714E-001 -9.1603700086E-002 
13399534.418 +8.3643143927E-001 -6.3319331404E-001  +7.4383888250E-003 +7.8787625240E+001  +6.2435891099E-003 +8.8087025379E+001  +8.4864228610E-001 -3.7351174384E+000 
13524679.599 +8.4241895110E-001 -1.9745139989E+000  +5.5835452905E-003 +7.5846953407E+001  +5.0448052953E-003 +7.5648092315E+001  +8.4641344539E-001 -2.5409662819E+000 
13649824.781 +8.7465643944E-001 -1.9170364667E+000  +6.5254320057E-003 +7.9351429256E+001  +6.5324148508E-003 +7.7268651548E+001  +8.8524317518E-001 -3.6271216470E+000 
13774969.962 +9.0180037711E-001 -1.9243609000E+000  +6.4882478516E-003 +7.4855387392E+001  +5.9781520715E-003 +8.1953397718E+001  +8.9208431642E-001 -2.4063849378E+000 
13900115.144 +8.9764074755E-001 -2.2436985813E+000  +5.5294630675E-003 +8.1161628400E+001  +6.6749305801E-003 +7.9055847021E+001  +9.1074400632E-001 -3.7178010777E+000 
14025260.325 +9.1721219423E-001 -3.8850905395E+000  +7.6190366753E-003 +7.6785223263E+001  +7.5668682619E-003 +7.4999947180E+001  +9.6970562143E-001 -3.3927771316E+000 
14150405.507 +9.4081510742E-001 -2.3660221010E+000  +7.1615172768E-003 +7.3735330620E+001  +6.4326835104E-003 +8.3354131283E+001  +9.3847251533E-001 -4.9153958718E+000 
14275550.688 +9.4401686538E-001 -4.8423481856E+000  +8.4959108712E-003 +8.1891379051E+001  +7.6441218758E-003 +7.3952568161E+001  +9.6842536018E-001 -4.3685898145E+000 
14400695.870 +9.7515217699E-001 -5.2207887911E+000  +7.7511390476E-003 +9.0466345750E+001  +7.1295907329E-003 +8.1407909961E+001  +9.8355980209E-001 -4.0423680187E+000 
