!  2-Port S-parameters saved by WinCal
! VAR MeasName=S-Parameters (CALIBRATED_DATA) read from VNA (P5004A)
! VAR MeasDate=27/08/2024 12:32:14
! VAR NAME=S2_r4c9_pristine_9k-100M_1
! VAR FILENAME=S2_r4c9_pristine_9k-100M_1.S2P
! VAR DATE=27/08/2024 12:32:15
! VAR PHYS_PORTS=1,2
! VAR ObjTypeName=DATASET
! VAR IndexType=Frequency
!
# Hz S MA R 50
9000.000 +2.4388607147E-002 +1.1397292034E+002  +4.6922778266E-002 -1.7331195376E+002  +4.3952838202E-002 -1.3438620028E+002  +3.2447106916E-001 -8.9000839875E+001 
134145.181 +1.1040339270E-001 +1.6935253827E+002  +3.6657685862E-004 +1.4784366267E+002  +2.0745478114E-004 -1.4694177230E+002  +2.4139769726E-001 -1.7036409638E+002 
259290.363 +1.1213601332E-001 +1.6963616472E+002  +6.1087919830E-004 -9.9434030871E+001  +7.1826480330E-004 +1.7464705895E+002  +2.4742795721E-001 -1.6901033633E+002 
384435.544 +1.1405826940E-001 +1.6991771845E+002  +1.5618642886E-004 +3.8485387171E+001  +9.0344291130E-004 -1.7908202666E+002  +2.4824492179E-001 -1.6535677381E+002 
509580.726 +1.1274806332E-001 +1.7086431143E+002  +4.1353806439E-004 +1.3572121158E+002  +1.9980801545E-003 -1.2731082843E+002  +2.5272010030E-001 -1.6774185213E+002 
634725.907 +1.1610271024E-001 +1.7033925948E+002  +9.9791276687E-004 +8.9633472178E+001  +1.8035860558E-004 -1.3214774967E+002  +2.5531242555E-001 -1.6581833554E+002 
759871.089 +1.1578980988E-001 +1.7096626361E+002  +3.2297062857E-004 +4.1948295962E+001  +8.3068130838E-004 -1.0977497505E+002  +2.4271612084E-001 -1.6723583971E+002 
885016.270 +1.1498025753E-001 +1.6884522948E+002  +3.5388385290E-004 +9.7176254277E+001  +8.1827334648E-004 +1.1835106771E+002  +2.4236511670E-001 -1.6590367948E+002 
1010161.452 +1.1516942650E-001 +1.7003105482E+002  +7.1110648486E-003 -1.9481014636E+001  +7.9261815653E-003 -7.3523271817E+001  +1.4443054424E-001 +1.4011919758E+002 
1135306.633 +1.1563150295E-001 +1.7068185624E+002  +1.6022350186E-003 -1.6595017841E+002  +2.8937608444E-003 -1.6573453463E+002  +1.9008597442E-001 -1.7500842533E+002 
1260451.815 +1.2371926692E-001 +1.7234242531E+002  +2.5854478202E-004 -8.1537952840E+001  +5.1723109329E-004 -4.5958992842E+001  +2.4001274316E-001 -1.5908005463E+002 
1385596.996 +1.2832400742E-001 +1.7184333012E+002  +6.7422947582E-004 -1.5424395937E+002  +8.9204050485E-004 -1.4845717115E+002  +2.5753560859E-001 -1.5858930715E+002 
1510742.178 +1.2498093219E-001 +1.7225789834E+002  +7.2416961778E-004 +9.8477135080E+001  +4.9533883344E-004 +1.4612319865E+002  +2.6060764228E-001 -1.5903041348E+002 
1635887.359 +1.2861341918E-001 +1.7113762982E+002  +3.7848730432E-004 +8.4106460646E+001  +4.0250890022E-004 -1.1736914231E+002  +2.2994222660E-001 -1.5934105787E+002 
1761032.541 +1.2623584429E-001 +1.6945467708E+002  +8.7175383013E-004 +9.9517518472E+001  +1.3031368330E-003 -1.4527895337E+002  +2.2227998341E-001 -1.6417936647E+002 
1886177.722 +1.2752220302E-001 +1.6728528462E+002  +2.6905419615E-003 -3.3719269609E+001  +5.1965049174E-003 -7.1709788353E+001  +1.5773180617E-001 -1.7109293294E+002 
2011322.904 +1.3330426701E-001 +1.6701794522E+002  +1.4648277576E-003 +1.5178630338E+002  +1.1189925138E-003 +5.0605713572E+001  +1.8838470332E-001 -1.7190332371E+002 
2136468.085 +1.2339204040E-001 +1.6253061460E+002  +2.5459160120E-003 +1.6022864745E+002  +3.8626030549E-003 -6.2628308972E+001  +1.1637245667E-001 +1.7060957240E+002 
2261613.267 +1.1896937188E-001 +1.6508852247E+002  +3.2233811006E-003 -5.7871445288E+001  +2.7878278278E-003 -1.4709023977E+002  +4.8193305661E-002 -4.4430840582E+001 
2386758.448 +1.3477312640E-001 +1.5913146004E+002  +1.9167943968E-003 -1.6853200313E+002  +7.2160143154E-003 -5.9424346973E+001  +2.5738382534E-001 +1.4308594150E+002 
2511903.630 +1.2108603632E-001 +1.6334340679E+002  +1.0335652446E-002 +3.6774726642E+001  +1.6176853685E-003 -1.7824240524E+002  +2.5458851008E-001 +1.4896332067E+002 
2637048.811 +9.8421926060E-002 +1.6666527643E+002  +5.1705761834E-003 +8.7070077429E+001  +1.6440789565E-002 -3.0571567944E+001  +5.2192621471E-002 +7.6058662439E+001 
2762193.992 +9.9901534394E-002 +1.7418806010E+002  +2.9032915887E-002 -1.0140169686E+002  +2.1547267786E-002 -2.8698449627E+001  +1.4840123935E+000 -1.5730236704E+002 
2887339.174 +1.1070401071E-001 -1.7106459759E+002  +2.1076966403E-002 +1.5339697200E+002  +2.3271953778E-002 +1.7266040951E+002  +3.6641800230E-001 -4.3019639190E+001 
3012484.355 +9.4567784871E-002 -1.7774384133E+002  +5.4623172994E-003 -1.7587277339E+002  +1.3245469325E-002 +1.5288928927E+002  +4.0585670793E-001 -1.2118787760E+002 
3137629.537 +1.1237076236E-001 +1.7592933212E+002  +3.1751171600E-003 +1.6348873010E+002  +1.4711528296E-002 -1.3906891992E+002  +2.9758323153E-001 -1.0781155863E+002 
3262774.718 +8.9538621146E-002 +1.4918348777E+002  +4.3004505464E-003 -5.9319104342E+001  +2.2057092171E-002 -2.0043647473E+001  +3.5057786979E-001 -9.1310369333E+001 
3387919.900 +9.7070803883E-002 +1.5866370375E+002  +1.9273417270E-002 +6.9436896531E+000  +1.1957029814E-002 -5.1664826052E+001  +4.4378510727E-001 -7.9928591185E+001 
3513065.081 +1.1791039837E-001 +1.5056528522E+002  +7.8653113562E-003 -1.1202649988E+002  +1.1256456222E-002 +6.9511420969E+001  +3.4461749538E-001 -4.2721615199E+001 
3638210.263 +1.6019815228E-001 +1.4866218484E+002  +1.5103623301E-002 +1.7535511547E+002  +2.4527009410E-003 -3.5836483761E+001  +1.3452196555E+000 +1.3388731020E+002 
3763355.444 +1.2866777359E-001 +1.4284047594E+002  +1.3998577916E-002 +8.5641187464E+001  +3.4530559931E-003 -4.8660334973E+001  +4.3141024200E-001 +1.3446798806E+002 
3888500.626 +1.5460209850E-001 +1.4858416116E+002  +9.0506278838E-003 -8.3284160769E+001  +2.2810394768E-003 -1.2801725141E+002  +2.0018184256E-001 +4.1346701676E+001 
4013645.807 +1.6400917447E-001 +1.5296645672E+002  +2.9378604725E-003 -1.6631308125E+002  +2.5998864007E-003 +1.0308646884E+002  +4.5855428191E-001 +9.6698451071E+001 
4138790.989 +1.8525004935E-001 +1.4668185080E+002  +7.1249980583E-003 -1.1960879019E+002  +1.1141751277E-002 +1.2553039311E+002  +4.9272542614E-001 +9.3908484782E+001 
4263936.170 +1.5282873026E-001 +1.3757574805E+002  +1.3313287389E-002 -9.2882968895E+001  +1.2969046934E-002 -1.3392456203E+002  +3.3532959862E-001 +1.0493036384E+002 
4389081.352 +1.9509160928E-001 +1.4177866788E+002  +1.0520256222E-002 +2.6594405989E+001  +1.0040092625E-002 +2.3941471585E+001  +3.2683246292E-001 +1.2592815076E+002 
4514226.533 +2.7889528214E-001 +1.2588335967E+002  +1.3507783998E-002 -1.7761511606E+002  +1.3960319513E-002 +7.2717716846E+001  +5.7369648588E-001 +1.0484523419E+002 
4639371.715 +2.7048008082E-001 +1.3797409533E+002  +8.3619824491E-002 +1.7840933772E+002  +5.7704340723E-002 +1.6975925100E+002  +9.1601544342E+000 +1.0669539472E+002 
4764516.896 +3.0694562791E-001 +1.2944552657E+002  +2.7246338175E-002 -9.9412968896E+001  +9.2849714516E-003 -3.1156547566E+001  +1.0209550906E+000 -3.2965425141E+001 
4889662.078 +4.4477921767E-001 +1.3497998220E+002  +1.8547915801E-002 +1.5262182032E+002  +2.4492817211E-002 +9.2106682143E+000  +3.0657055443E+000 -1.4679005889E+002 
5014807.259 +4.4892831576E-001 +1.3100552433E+002  +4.9780911304E-002 +1.0941159097E+001  +7.0667022945E-002 +1.3607514547E+002  +3.0791370746E+000 +1.0802810101E+002 
5139952.441 +4.1940224484E-001 +1.3055856243E+002  +1.6890272802E-001 +5.1800883749E+001  +1.4708626947E-001 +4.5025956864E+000  +8.9630340471E+000 -7.0675280667E+001 
5265097.622 +3.4894710714E-001 +1.3497627358E+002  +7.7785377511E-002 +9.4335494815E+001  +6.8440397824E-002 -1.1225775933E+002  +9.8467532275E+000 +1.6731139924E+002 
5390242.804 +4.5087906895E-001 +1.1409535393E+002  +1.2603032017E-002 +1.1686803540E+002  +3.0848840498E-002 -2.0183637555E+000  +2.2488604159E+000 +3.0867036859E+001 
5515387.985 +3.8254744239E-001 +1.2926796195E+002  +1.3890464416E-002 -1.4439947899E+002  +2.4831636655E-002 +1.5260278967E+002  +2.2135750569E+000 +9.3859103211E+001 
5640533.166 +4.9764998402E-001 +1.3410877702E+002  +1.1531149430E-002 -1.5782816449E+002  +1.7377233034E-002 +3.4434817882E+001  +1.4536333078E+000 +6.8223532571E+001 
5765678.348 +5.3735172952E-001 +1.2943243763E+002  +7.1065995714E-003 +1.0761115651E+002  +2.3381954262E-002 -2.7338657257E+001  +1.8227937496E+000 +8.7694407770E+001 
5890823.529 +6.6262482346E-001 +1.1933443948E+002  +1.9205053488E-002 -1.3541838862E+002  +1.7859967680E-002 -3.4796773388E+001  +1.8692918253E+000 +3.2881762400E+001 
6015968.711 +7.2410353307E-001 +1.1864714515E+002  +1.7674464030E-002 -1.1136223364E+002  +2.6671484693E-002 +1.0985527354E+002  +2.2458780685E+000 +3.7869259852E+001 
6141113.892 +8.4707476732E-001 +1.1114613377E+002  +2.0494600695E-002 +9.0064474302E+001  +2.2624105904E-002 +1.0499217572E+002  +2.0204229436E+000 +1.9067768381E+001 
6266259.074 +9.3268532247E-001 +1.0754492807E+002  +2.2019453937E-002 +1.7011724854E+002  +2.0494051182E-002 +5.0727002127E+001  +1.3853922457E+000 +3.7488196582E+001 
6391404.255 +9.7383367855E-001 +9.8694934833E+001  +8.4433502351E-003 +1.1636670455E+002  +6.2704389363E-003 -1.7149296809E+002  +1.7598844154E+000 +1.7200391354E+001 
6516549.437 +1.1104096145E+000 +7.8294062402E+001  +2.7182631754E-002 +1.5616762559E+002  +5.4894557299E-002 -1.5392781722E+001  +1.4044524413E+000 +1.7535639074E+001 
6641694.618 +1.3253087445E+000 +7.7267715134E+001  +1.2692056140E-002 +3.7564213118E+001  +1.9737928525E-002 +1.7913568210E+002  +1.5588130360E+000 +1.8588375401E+001 
6766839.800 +1.6336742193E+000 +5.4042832856E+001  +7.0471398558E-003 -4.3180116132E+001  +2.4376501954E-002 +5.2968840804E+001  +1.2706299765E+000 +1.1584339636E-001 
6891984.981 +1.9835930423E+000 +2.7355694984E+001  +3.1842120383E-002 +5.5432698793E+001  +1.3376156517E-002 +1.6164986708E+002  +1.2540171501E+000 -6.2889625006E+000 
7017130.163 +1.6633119444E+000 +1.7648679406E+001  +7.5134362823E-003 -3.6666012073E+001  +2.8775450021E-002 +5.3809756734E+001  +1.2987084770E+000 -1.7988603336E+001 
7142275.344 +1.7064069032E+000 +1.4566702813E+001  +1.6337423668E-002 +4.5673498461E+001  +2.6503952777E-003 +6.9267286266E+001  +1.3349517067E+000 -1.4927651169E+001 
7267420.526 +1.6347012182E+000 -4.0725889139E+000  +9.8182565418E-003 +7.3192307393E+001  +1.1261602068E-002 +1.1193234986E+002  +1.3233914796E+000 -8.4620978360E+000 
7392565.707 +1.4657598650E+000 +1.9492498308E+000  +4.6777110472E-003 +1.0762536919E+002  +4.5617045223E-003 +3.7349900133E+001  +1.4446823961E+000 -9.4269698678E+000 
7517710.889 +1.2157910788E+000 +1.3535466519E+000  +4.1325914590E-003 -1.6005694591E+002  +1.5489014242E-002 +7.1220884283E+001  +1.2626678555E+000 -8.0627139277E+000 
7642856.070 +1.0845491564E+000 +1.7011459859E+000  +9.4843403305E-003 +8.3960336365E+001  +3.2333807293E-003 +1.4820096606E+002  +9.9548409052E-001 -2.7947541572E+000 
7768001.252 +1.0143100965E+000 +2.2429445254E+000  +6.1447530242E-003 +4.3444139125E+001  +3.1067149381E-003 +5.4484992109E+001  +1.0658450969E+000 -4.7687689328E+000 
7893146.433 +9.3230861855E-001 +7.0208702766E+000  +6.6525011634E-003 +7.7102597618E+001  +1.0226989089E-002 +8.7935482124E+001  +9.5679031218E-001 -3.4982455765E+000 
8018291.615 +8.3920240522E-001 +5.7456673979E+000  +3.8201778913E-003 +1.2310373806E+002  +5.0669717865E-003 -1.6911322096E+002  +8.7181050330E-001 -1.3127809230E+000 
8143436.796 +7.3022057355E-001 +4.7760229825E+000  +2.8507744762E-003 -1.4728853492E+002  +1.2545137916E-002 +6.7232036877E+001  +8.5951430654E-001 -4.8101590155E-001 
8268581.977 +7.5523322321E-001 +8.5898114092E+000  +1.1828493692E-003 +1.4528777166E+002  +2.8833920489E-003 +8.5776575659E+001  +7.7626466714E-001 -3.1232794458E+000 
8393727.159 +6.9422114040E-001 +9.1247066418E+000  +4.9508360595E-003 +3.0923767552E+000  +3.8103313755E-003 +1.2287535591E+002  +7.1075010664E-001 -3.0424892370E+000 
8518872.340 +6.6230719373E-001 +8.2547946085E+000  +3.5745764601E-003 +7.5722996955E+001  +2.5030202616E-003 +7.5645355774E+001  +7.3030688223E-001 +1.7900623660E+000 
8644017.522 +6.7023310214E-001 +3.5461849033E+000  +5.7050774389E-003 +1.2227647154E+002  +6.0085798058E-003 +1.4154755284E+002  +7.0728443375E-001 +7.5956918176E-001 
8769162.703 +6.0162859772E-001 +5.8633855654E+000  +2.5650841673E-003 +6.1530800481E+001  +3.1784786485E-003 -1.7823853710E+002  +7.0462512936E-001 -1.5701982924E+000 
8894307.885 +6.3330156553E-001 +4.7456019626E+000  +3.7817530506E-003 +4.9133170725E+001  +3.2341629522E-003 +1.6913492657E+002  +5.8594459157E-001 -2.3469337086E+000 
9019453.066 +6.2211604698E-001 +7.9068268748E+000  +4.9085274236E-003 +6.3838675951E+001  +2.6717250148E-003 +1.5421409963E+002  +6.0311937544E-001 -3.5334801176E+000 
9144598.248 +6.0348401073E-001 +8.8333222347E+000  +1.8881835266E-003 +1.4890249477E+002  +4.5086124788E-003 +1.5030169180E+002  +5.9451611425E-001 +4.1022329923E+000 
9269743.429 +5.5010536124E-001 +5.1419065624E+000  +2.7576656999E-003 -1.6787881489E+002  +1.8960944584E-003 +5.8640844125E+001  +6.4196060811E-001 -3.3767044366E+000 
9394888.611 +5.7190208366E-001 +1.6165682509E+000  +5.6765947022E-003 +6.1346665236E+001  +1.1666431372E-003 +9.2586342327E+001  +5.9339271264E-001 -5.3791027590E+000 
9520033.792 +5.2873828127E-001 -3.0941754568E-001  +2.7803344551E-003 +3.4412158876E+001  +4.1970939012E-003 +1.0143166297E+002  +6.2866862149E-001 -1.3106061351E+000 
9645178.974 +5.9080133529E-001 +1.7621790928E+000  +7.9067375778E-004 -1.5660974577E+002  +4.2902009424E-003 +1.3107916704E+002  +5.8807809724E-001 -4.8516141696E+000 
9770324.155 +5.6114529289E-001 +4.6486649929E+000  +6.2757685465E-003 +7.7659891829E+001  +3.0362453996E-003 +1.2029592566E+002  +6.0813072530E-001 -7.7106578092E+000 
9895469.337 +5.3698992216E-001 -3.1586563515E+000  +4.1705445788E-003 +5.7440094447E+001  +4.8949763751E-004 +4.2834080561E+001  +5.6568454092E-001 -9.0403757666E+000 
10020614.518 +5.9730696032E-001 -2.0748262150E+000  +6.5848035243E-003 +6.6880137151E+001  +7.7316176144E-003 +1.1099496835E+002  +5.9607363696E-001 -4.2886155672E+000 
10145759.700 +5.5526399453E-001 +3.0000017713E+000  +4.0654163243E-003 +9.9621606821E+001  +4.0180961024E-003 +9.6601018116E+001  +5.8983325596E-001 -7.3324760386E+000 
10270904.881 +5.6881551047E-001 +4.2288686093E+000  +4.5456969095E-003 +9.5853204360E+001  +3.1533208677E-003 +9.3577708994E+001  +5.6698624062E-001 -6.4547886639E+000 
10396050.063 +5.8298004986E-001 +3.8340425958E+000  +4.7830436223E-003 +7.5727175181E+001  +3.8586278869E-003 +1.2653495184E+002  +5.4414600259E-001 -3.5940500831E+000 
10521195.244 +5.6713505760E-001 +5.3494508394E+000  +4.8732047089E-003 +9.6314056820E+001  +1.1033974728E-003 +1.3004890761E+002  +6.0870393748E-001 -1.2292987974E+000 
10646340.426 +5.4128479256E-001 +6.3427357134E+000  +5.1501765498E-003 +1.2326500027E+002  +5.1026002692E-003 +7.3733305108E+001  +5.8114447280E-001 +3.5328850985E-001 
10771485.607 +5.7931827714E-001 +3.5191948674E+000  +2.1007334200E-003 +1.3847543456E+002  +3.9845340307E-003 +9.9724459664E+001  +6.0840497532E-001 -7.4405807306E-001 
10896630.788 +6.1788553903E-001 +8.3626106448E-001  +5.4546423927E-003 +6.7294151554E+001  +5.1965483785E-003 +8.0485924660E+001  +5.8767343462E-001 +2.8193514392E+000 
11021775.970 +5.7355083734E-001 +9.1610706419E+000  +3.3669851804E-003 +9.6612611312E+001  +5.4798061396E-003 +8.6241795679E+001  +6.1013829507E-001 +9.5569303653E-001 
11146921.151 +5.9588505364E-001 +8.0055695095E+000  +4.0884668504E-003 +7.7075261358E+001  +5.9487033702E-003 +9.7599321620E+001  +5.9521719423E-001 +1.0943426559E+000 
11272066.333 +6.0542251455E-001 +5.0899765308E+000  +4.0286260800E-003 +1.1898567357E+002  +3.7813569574E-003 +9.8608089568E+001  +6.1641433747E-001 -5.2399661419E-001 
11397211.514 +5.9967583661E-001 +3.9339158866E+000  +4.5396787414E-003 +7.9026509174E+001  +3.6755944126E-003 +8.6020001501E+001  +6.3842839682E-001 -3.0435070910E-001 
11522356.696 +6.2316377350E-001 +9.7003470205E+000  +4.5913412280E-003 +8.8123023779E+001  +4.8051234530E-003 +1.0410199773E+002  +6.6962055918E-001 +3.9852578315E-001 
11647501.877 +6.2677238702E-001 +4.0728013964E+000  +4.3754745963E-003 +7.9705226874E+001  +3.8788041423E-003 +9.0052293945E+001  +6.5018668793E-001 -3.0097654411E-001 
11772647.059 +6.2842745332E-001 +6.9458014877E+000  +4.5098913797E-003 +9.3638053327E+001  +7.1454722904E-003 +8.1540319200E+001  +6.5227229580E-001 -2.8898767218E-001 
11897792.240 +6.5806858022E-001 +7.1554176988E+000  +5.3702977624E-003 +9.8302803248E+001  +5.0656099325E-003 +1.1389308361E+002  +7.0448058463E-001 -8.1983808595E-001 
12022937.422 +6.8157728745E-001 +3.8061363297E+000  +4.9551033496E-003 +8.8587719207E+001  +5.2905494344E-003 +1.0354582681E+002  +7.1696877116E-001 +1.0930775434E+000 
12148082.603 +6.7878142009E-001 +4.2515230212E+000  +4.7986771028E-003 +1.0751286529E+002  +6.7150398610E-003 +9.1817332281E+001  +7.0233866814E-001 +1.6146335113E+000 
12273227.785 +6.9233620833E-001 +4.1118901678E+000  +4.5979111271E-003 +9.0888412907E+001  +3.4817280715E-003 +1.0964012756E+002  +6.9383376105E-001 -1.2510667363E+000 
12398372.966 +6.8969357154E-001 +5.1146645928E+000  +7.3622735091E-003 +8.7730629112E+001  +4.3553403378E-003 +9.9381952593E+001  +7.1720554046E-001 -1.8714753903E+000 
12523518.148 +7.3067903281E-001 +1.6727448709E+000  +6.0099130857E-003 +8.9840389936E+001  +5.3330870841E-003 +9.0917166979E+001  +7.4869291510E-001 +4.5019973376E-001 
12648663.329 +7.4574835575E-001 +4.4007470285E+000  +4.3737958375E-003 +1.1497408428E+002  +7.3745457071E-003 +9.7083923755E+001  +7.6102303429E-001 +1.9218673216E-001 
12773808.511 +7.7650703703E-001 +1.1330547457E+000  +6.9397864252E-003 +1.0177611722E+002  +4.9571520221E-003 +1.0286967638E+002  +7.8003987528E-001 -1.3507336369E+000 
12898953.692 +7.7022850517E-001 +1.3711097095E-001  +6.0326621480E-003 +8.5178107358E+001  +6.1732256446E-003 +9.4535747897E+001  +7.6440552598E-001 -1.6859370171E+000 
13024098.874 +7.9307164303E-001 +1.2426553951E+000  +7.3519684166E-003 +9.2329728502E+001  +6.9703656876E-003 +9.1410770247E+001  +8.0703299156E-001 -4.1613101280E+000 
13149244.055 +7.9907578769E-001 -1.6611575122E+000  +7.3967986213E-003 +9.7014056653E+001  +8.4971010743E-003 +1.0935737414E+002  +8.2714957961E-001 -1.8987120788E+000 
13274389.237 +8.2233942979E-001 +7.5702743178E-001  +7.2020283872E-003 +9.2649089719E+001  +4.2434449866E-003 +9.1155382151E+001  +8.3537327751E-001 -8.8183009977E-001 
13399534.418 +8.3250297162E-001 -7.3594793075E-001  +6.7030614860E-003 +8.7836402443E+001  +5.7621509075E-003 +9.4060877664E+001  +8.6615196387E-001 -3.0206099239E+000 
13524679.599 +8.5309528057E-001 -1.2832833375E+000  +7.6302095661E-003 +1.0599869455E+002  +6.4456612454E-003 +8.6202301974E+001  +8.5812015516E-001 -3.0596922330E+000 
13649824.781 +8.7841456598E-001 -1.6508553578E+000  +6.0513398507E-003 +8.9757516325E+001  +7.4687677776E-003 +7.5144358549E+001  +8.7138729564E-001 -2.0732371244E+000 
13774969.962 +8.7984637728E-001 -3.2964685865E+000  +7.6400134254E-003 +8.3277197830E+001  +6.7648947614E-003 +7.9630140594E+001  +8.9934909740E-001 -3.6310842392E+000 
13900115.144 +8.9172843059E-001 -3.1582343373E+000  +7.6970637575E-003 +8.1100395622E+001  +5.8274738199E-003 +8.8320549914E+001  +9.1731168946E-001 -2.8100331073E+000 
14025260.325 +9.2286289184E-001 -2.4915548651E+000  +6.1493108344E-003 +9.4432537134E+001  +5.8649125232E-003 +9.7805716637E+001  +9.3771704459E-001 -4.0852566268E+000 
14150405.507 +9.2217926627E-001 -4.2470358102E+000  +7.8196258698E-003 +8.1497383428E+001  +7.7175846568E-003 +8.1268935684E+001  +9.6520080177E-001 -4.0021839843E+000 
14275550.688 +9.5759108084E-001 -4.5494640893E+000  +6.9715183288E-003 +1.0412909400E+002  +8.0856807928E-003 +8.6195209692E+001  +9.8468136171E-001 -3.8583569655E+000 
14400695.870 +9.6412265604E-001 -5.3698998287E+000  +7.0095599870E-003 +9.2690434982E+001  +7.3130545714E-003 +8.8276081565E+001  +9.9643813680E-001 -4.7939086752E+000 
