!  2-Port S-parameters saved by WinCal
! VAR NAME=S2_r6c9_formed(1)_9k-100M_3
! VAR DATE=30/08/2024 11:45:01
! VAR FILENAME=S2_r6c9_formed(1)_9k-100M_3.S2P
! VAR MeasName=S-Parameters (CALIBRATED_DATA) read from VNA (P5004A)
! VAR MeasDate=28/08/2024 11:43:16
! VAR PHYS_PORTS=1,2
! VAR ObjTypeName=DATASET
! VAR IndexType=Frequency
!
# Hz S MA R 50
9000.000 +1.0428231220E-001 -1.6246209033E+002  +5.0551679880E-003 -9.6936590555E+001  +1.4718927631E-002 -1.5981495868E+002  +3.5755180743E-001 -1.5562432654E+002 
134145.181 +1.1108806783E-001 +1.7015962452E+002  +5.0459092392E-004 -9.3860582588E+000  +1.2529410964E-003 -4.7542205211E+001  +2.3960902493E-001 -1.7093333929E+002 
259290.363 +1.1254176913E-001 +1.7011741274E+002  +1.0391403082E-003 -1.1574805908E+002  +9.0918652847E-004 -8.8621944618E+001  +2.4633789269E-001 -1.6901880246E+002 
384435.544 +1.1404279148E-001 +1.6995197323E+002  +7.0396762177E-004 -6.8617655270E+001  +1.0141927764E-003 +1.3404583898E+002  +2.4116576742E-001 -1.6860956363E+002 
509580.726 +1.1392285753E-001 +1.7068158720E+002  +1.0736295947E-003 -2.1671597095E+001  +1.0728948274E-003 +4.9513957205E+001  +2.4313974759E-001 -1.6548829915E+002 
634725.907 +1.1773408163E-001 +1.7161293292E+002  +2.0444540346E-003 -6.1947063336E+001  +1.0937627191E-003 +5.0599956315E+001  +2.3765655048E-001 -1.6464262082E+002 
759871.089 +1.1889004441E-001 +1.7010278003E+002  +1.7366543523E-004 +3.1350344021E+001  +8.2945029649E-004 +7.0800179216E+001  +2.4683657495E-001 -1.6763247854E+002 
885016.270 +1.2101500376E-001 +1.6890656895E+002  +7.4515951151E-004 -1.3497689421E+002  +5.1508163446E-004 +1.5445113630E+002  +2.4247057205E-001 -1.6717432882E+002 
1010161.452 +1.1594474025E-001 +1.7320031170E+002  +1.3855413159E-003 -9.9655444123E+001  +2.8097900855E-003 +1.5285546424E+002  +2.0094576015E-001 -1.6723118710E+002 
1135306.633 +1.1667143107E-001 +1.6762167741E+002  +2.4229156180E-004 -8.5688431728E+001  +7.2360496770E-004 -6.4925980002E+001  +2.1115763016E-001 -1.7296433967E+002 
1260451.815 +1.1964117936E-001 +1.7166116746E+002  +3.1901128784E-003 -3.2427635161E+001  +1.1466477022E-003 +1.6682491739E+002  +2.0643401511E-001 -1.6284404537E+002 
1385596.996 +1.2588182151E-001 +1.7184105294E+002  +1.2167117533E-003 -1.5899432807E+001  +2.7914478596E-003 +1.1169784276E+002  +2.4125582653E-001 -1.5761020622E+002 
1510742.178 +1.2820167217E-001 +1.7121503822E+002  +4.7223564556E-004 -1.3134997066E+002  +1.3600674107E-003 +5.9171622453E+001  +2.4967640596E-001 -1.5996813389E+002 
1635887.359 +1.2815803130E-001 +1.7268210558E+002  +6.4943730317E-004 -5.2052351575E+001  +1.8137852038E-003 +1.1886115110E+002  +2.4852348045E-001 -1.5753717168E+002 
1761032.541 +1.3119076658E-001 +1.7321693869E+002  +3.3114773601E-004 +1.0270995878E+002  +1.5353787058E-003 +1.4877970777E+002  +2.2908813805E-001 -1.5370990059E+002 
1886177.722 +1.2821929964E-001 +1.7123795372E+002  +2.3713216738E-003 +5.3085132633E+001  +2.2835190969E-003 -9.6192563365E+001  +2.1821028966E-001 -1.6435366904E+002 
2011322.904 +1.3385113543E-001 +1.6774958411E+002  +2.2897012807E-003 -3.6443194137E+001  +2.2013635476E-003 -7.0206604972E+001  +2.2390939298E-001 -1.5926607557E+002 
2136468.085 +1.2426621897E-001 +1.6775253633E+002  +5.9364163020E-003 +6.7055592396E+001  +1.0034558864E-002 -4.6845439220E+001  +1.8096743029E-001 -1.6864866152E+002 
2261613.267 +1.2701418479E-001 +1.6994166568E+002  +8.8038979205E-003 +6.2533747066E+001  +7.8796815651E-003 -7.0003972626E+001  +1.9264137257E-001 -1.7058437375E+002 
2386758.448 +1.3845499678E-001 +1.6405448975E+002  +7.1596196592E-003 +7.5653983223E+001  +7.8636462376E-003 -5.9039505457E+001  +1.8898079816E-001 -1.6561773510E+002 
2511903.630 +1.3018623862E-001 +1.6237368207E+002  +9.2689377625E-003 +9.5510024825E+001  +7.8939795519E-003 -2.3324344029E+001  +2.4094703642E-001 -1.7595316648E+002 
2637048.811 +1.3047147623E-001 +1.6712103878E+002  +1.9888774593E-002 +9.9370354199E+001  +2.6434947941E-002 -2.6808495518E+001  +3.0189323547E-001 +1.4764449565E+002 
2762193.992 +1.0038702186E-001 +1.6707080480E+002  +8.6598858987E-002 +2.5140532563E+001  +9.4946675463E-002 -8.2222994584E+001  +2.9994162661E-001 +1.1399127206E+001 
2887339.174 +1.2655077702E-001 +1.7026789813E+002  +5.0506948883E-002 -4.4702408019E+001  +5.0993074239E-002 -1.3564824872E+002  +3.5953863823E-001 -7.4200918812E+001 
3012484.355 +1.2903113052E-001 +1.7367372213E+002  +3.1843885809E-002 -4.6113089259E+001  +2.6409655555E-002 -1.5671861402E+002  +3.0642138076E-001 -1.0810386072E+002 
3137629.537 +1.2686755464E-001 +1.7237018305E+002  +3.0785461789E-002 -2.7480692186E+000  +2.9226645568E-002 -1.1205499305E+002  +1.6768419757E-001 -8.6091551810E+001 
3262774.718 +1.2406919699E-001 +1.6612532771E+002  +6.2076864771E-002 +3.5668963467E+001  +6.9500930440E-002 -4.6744957091E+001  +3.3309076696E-001 +4.3325550618E+001 
3387919.900 +1.3546040534E-001 +1.5241242496E+002  +4.2047280311E-002 +2.6811234538E+001  +3.9942391087E-002 -6.9056940638E+001  +1.6719662679E-001 -7.2607481121E+001 
3513065.081 +1.5926112481E-001 +1.5462068081E+002  +3.2002027950E-002 +1.2263810388E+002  +3.0280339190E-002 +2.6326835441E+001  +4.6114435953E-001 +1.4690990200E+002 
3638210.263 +1.7741609672E-001 +1.4676353515E+002  +4.8985249863E-002 +1.3302949755E+002  +5.5654652894E-002 +5.5325415183E+001  +5.7775278945E-001 +1.4837792854E+002 
3763355.444 +1.8124926120E-001 +1.4883225901E+002  +3.9348477693E-002 +9.9252946547E+001  +3.7727444269E-002 +4.7047777700E+000  +2.8766977874E-001 +1.3558466639E+002 
3888500.626 +1.6692376259E-001 +1.4781133678E+002  +4.8899237214E-002 +1.0980890131E+002  +4.3348525085E-002 +4.2812738308E+001  +5.2872465424E-001 +1.4410900790E+002 
4013645.807 +1.6714312211E-001 +1.5299545860E+002  +4.6877166128E-002 +1.1179745373E+002  +4.3985456191E-002 +3.7661535643E+001  +5.9754403345E-001 +1.4002600927E+002 
4138790.989 +1.8069673767E-001 +1.5160506751E+002  +4.3795453891E-002 +7.6626060307E+001  +4.4753967117E-002 +1.4231902365E+001  +2.7860746073E-001 +1.1450503448E+002 
4263936.170 +1.9457463606E-001 +1.4745743640E+002  +5.5183499733E-002 +9.2517498192E+001  +4.3438110509E-002 +2.6690793829E+001  +4.1957015486E-001 +1.2482384901E+002 
4389081.352 +2.2778970726E-001 +1.3574233563E+002  +7.8632862164E-002 +1.0324802964E+002  +7.5219674969E-002 +4.2900935923E+001  +4.9106912470E-001 +1.1584346433E+002 
4514226.533 +1.9908213922E-001 +1.4227303804E+002  +9.3944204356E-002 +8.4719295213E+001  +8.4726352739E-002 +2.9768603041E+001  +7.0573430842E-001 +1.0906894802E+002 
4639371.715 +1.8824694892E-001 +1.2867899316E+002  +1.6468549263E-001 +4.0346217206E+001  +1.4382089707E-001 -2.7870918221E+001  +7.8709581954E-001 +1.4532549137E+001 
4764516.896 +3.0040140772E-001 +1.3109617132E+002  +3.3189850107E-001 +1.1875468222E+002  +3.0027450742E-001 +5.4898757420E+001  +2.6969274469E+000 +8.5676114127E+001 
4889662.078 +4.3822894447E-001 +1.1974314191E+002  +3.7326429507E-001 +1.1577392904E+002  +3.8379367439E-001 +6.1425187614E+001  +2.0200780022E+000 +7.4810132827E+001 
5014807.259 +2.8931703321E-001 +1.1478532842E+002  +4.5788862025E-001 +4.3796837959E+001  +4.2753544475E-001 +2.5203424873E+000  +3.3108259228E+000 +1.8198358989E+001 
5139952.441 +4.0299826389E-001 +1.1561375631E+002  +2.9580600144E-001 +1.1422438657E+002  +3.0058345749E-001 +7.0144094296E+001  +1.7337147836E+000 +1.0137035248E+002 
5265097.622 +3.5791342378E-001 +1.2408341278E+002  +1.4870059915E-001 +1.0900592750E+002  +1.3985251398E-001 +7.3108885378E+001  +1.0765054682E+000 +1.1849930285E+002 
5390242.804 +3.5784560818E-001 +1.3047624903E+002  +1.5998304900E-001 +7.2283559420E+001  +1.6044893248E-001 +4.3093926005E+001  +1.2257263788E+000 +6.2284605343E+001 
5515387.985 +4.2791336138E-001 +1.1731722684E+002  +2.5011141579E-001 +1.1237983018E+002  +2.3743684273E-001 +6.5114400748E+001  +1.7956074152E+000 +1.0846185478E+002 
5640533.166 +4.4458344770E-001 +1.3098009786E+002  +1.3206058615E-001 +9.5333095127E+001  +1.4543300436E-001 +6.4324297942E+001  +1.1397236586E+000 +9.3977654761E+001 
5765678.348 +4.5458291968E-001 +1.2092697340E+002  +2.0773845767E-001 +6.3869161109E+001  +1.8838543677E-001 +3.7309350199E+001  +1.2747266830E+000 +4.7593363818E+001 
5890823.529 +4.7313600528E-001 +1.2417565120E+002  +2.3901714265E-001 +7.6492324317E+001  +2.6189497647E-001 +6.4024494102E+001  +2.4378994395E+000 +7.2637356952E+001 
6015968.711 +5.4738257741E-001 +1.1567258025E+002  +1.8492590614E-001 +5.0453465939E+001  +1.6174557585E-001 +2.8098135468E+001  +9.2023451646E-001 +2.7860684156E+001 
6141113.892 +7.0104694200E-001 +1.0985776391E+002  +2.3746133107E-001 +6.5982668452E+001  +2.1381813025E-001 +4.7440526828E+001  +1.3471857047E+000 +5.2092693601E+001 
6266259.074 +6.9825906497E-001 +1.1014884152E+002  +2.3739202684E-001 +4.5585103822E+001  +2.3034494612E-001 +3.2367138264E+001  +1.6529524036E+000 +2.5344839439E+001 
6391404.255 +7.2898802943E-001 +8.9427456156E+001  +2.4988628804E-001 +4.2055219790E+001  +2.4689133768E-001 +2.6392947886E+001  +1.2373436548E+000 +3.2594356462E+001 
6516549.437 +9.3457644290E-001 +8.5613681082E+001  +2.7072096551E-001 +4.0005073810E+001  +2.4953488629E-001 +2.7426982337E+001  +1.2629395570E+000 +3.4374509180E+001 
6641694.618 +1.2356837991E+000 +7.4029311240E+001  +2.9888608815E-001 +3.4781213758E+001  +2.8354773341E-001 +2.7461661048E+001  +1.1241751264E+000 +1.9741596711E+001 
6766839.800 +1.6456821435E+000 +6.7133468246E+001  +3.0110670741E-001 +3.4186606995E+001  +3.0957799684E-001 +2.6464476061E+001  +1.1142013967E+000 +9.1258801042E+000 
6891984.981 +1.5812400004E+000 +2.7906452314E+001  +3.1388791851E-001 +6.9406229824E+000  +3.2023689474E-001 +2.8935777557E+000  +8.8830742776E-001 -2.6174554975E+000 
7017130.163 +1.0035632272E+000 +1.2949466372E+001  +2.1427858823E-001 -4.4946095551E+000  +2.1480168102E-001 -1.1589440557E+001  +1.0998242354E+000 -1.6134006010E+001 
7142275.344 +1.4178193861E+000 +2.1070752618E+001  +2.1458023644E-001 +4.1704369381E+000  +2.0759240847E-001 +2.0853996642E+000  +1.1435447764E+000 -8.5255325331E+000 
7267420.526 +1.2497401640E+000 +6.2457053992E+000  +1.8977242068E-001 +6.3858767209E+000  +1.8737765917E-001 +3.1400919056E+000  +1.1887065616E+000 -8.0179604887E+000 
7392565.707 +1.1521349216E+000 +3.8253051090E+000  +1.5291895329E-001 +5.7776346103E+000  +1.5511832485E-001 +4.2522648549E+000  +1.0886443959E+000 -2.3504337585E+000 
7517710.889 +9.8250026623E-001 +2.8025321857E-001  +1.4201983227E-001 +2.5808897098E+000  +1.3506287622E-001 +6.1769558252E+000  +1.0899826220E+000 -1.0818361952E+001 
7642856.070 +8.1944821087E-001 +2.5104429261E+000  +1.3819934726E-001 +1.4544915073E+000  +1.3695947199E-001 +2.1758174923E+000  +8.2107253406E-001 -6.6477419981E+000 
7768001.252 +7.5652244188E-001 -1.0522574020E+000  +1.2724657492E-001 +1.2419622731E+000  +1.2682162026E-001 +5.3969510892E+000  +7.9861497272E-001 -2.1209431498E+000 
7893146.433 +8.0008025924E-001 +8.4361712938E+000  +1.2296857260E-001 +2.7290492900E+000  +1.1911182359E-001 +7.0741078633E+000  +8.6699409583E-001 +9.9883217120E-001 
8018291.615 +7.2653488012E-001 +7.5904260895E+000  +1.1517148368E-001 +2.1321368500E+000  +1.2394246510E-001 +7.6019830011E+000  +6.8760750927E-001 -1.1114743265E-001 
8143436.796 +7.2402584475E-001 +1.5031439361E+000  +1.1860798402E-001 -1.5080012058E-001  +1.1764039785E-001 +7.6906998411E+000  +6.2589761183E-001 +8.4912464905E+000 
8268581.977 +5.6441710472E-001 +7.7649131311E+000  +1.1855728658E-001 -3.0337374662E+000  +1.1444181091E-001 +9.9144892253E+000  +6.4347909999E-001 +5.9024674819E-001 
8393727.159 +5.4579157973E-001 +8.5717487845E+000  +1.1143948595E-001 -3.0089420803E+000  +1.1368399704E-001 +8.8713995335E+000  +5.7100628876E-001 +6.0826574286E-001 
8518872.340 +5.7224688448E-001 +6.5335920339E+000  +1.1295128589E-001 -2.3998207713E+000  +1.0872917914E-001 +8.4638167983E+000  +5.8133466502E-001 +2.4590430809E+000 
8644017.522 +5.8079867646E-001 +1.0758012955E+001  +1.1054209683E-001 -1.0368024700E+000  +1.0881334726E-001 +1.1779209496E+001  +5.5178556404E-001 +5.7194033451E+000 
8769162.703 +4.7533362113E-001 +8.5710760834E+000  +1.1214359587E-001 -3.1499348059E+000  +1.0571619609E-001 +9.1548901871E+000  +5.3446685537E-001 -9.4935723793E-001 
8894307.885 +5.0139256267E-001 +1.0098311068E+001  +1.0419677337E-001 -3.2375183475E+000  +1.0704653015E-001 +1.0565887739E+001  +6.1390952856E-001 -4.0140695931E-001 
9019453.066 +4.6900203391E-001 +1.2678031795E+001  +1.0334221065E-001 -3.2176477869E-001  +1.0277469035E-001 +1.1016453406E+001  +5.5118832499E-001 +4.7485273555E-001 
9144598.248 +4.3801295295E-001 +4.2225605529E+000  +1.0615767778E-001 -5.9353675034E+000  +1.0428496099E-001 +9.6453182421E+000  +4.7696672878E-001 +3.4080950116E+000 
9269743.429 +4.3209925709E-001 +1.2457563630E+001  +1.0655765578E-001 -2.1368693263E+000  +1.0012193347E-001 +1.2107167673E+001  +4.9123541271E-001 -3.3162163846E+000 
9394888.611 +4.1705005584E-001 +6.0180229076E+000  +1.0650096070E-001 -3.3356937440E+000  +1.0338615844E-001 +1.1455789276E+001  +5.0425503092E-001 -5.9759032554E+000 
9520033.792 +4.3980120519E-001 +7.7974227969E+000  +1.0760759490E-001 -4.7260333133E+000  +1.0643589225E-001 +1.4705236672E+001  +5.3531120857E-001 -3.3854093337E-001 
9645178.974 +4.5767151837E-001 +1.2517626236E+000  +1.0958630052E-001 -4.5409294498E+000  +1.0522827205E-001 +1.2178595975E+001  +4.9029100642E-001 -2.0508922700E+000 
9770324.155 +4.2545671514E-001 +8.1143880014E+000  +1.0542933108E-001 -1.9718633182E+000  +1.0620818511E-001 +1.4268949460E+001  +4.9090727254E-001 -2.2245427671E+000 
9895469.337 +4.3416341606E-001 +1.8726995865E+000  +1.0492762843E-001 -3.3307038606E+000  +1.0639288319E-001 +1.3484810522E+001  +4.6931096909E-001 -4.8941048570E+000 
10020614.518 +4.5991835279E-001 +3.0187170086E+000  +1.0725861689E-001 -2.2020523899E+000  +1.0574329778E-001 +1.4630550909E+001  +4.5854110445E-001 -3.8277411393E+000 
10145759.700 +4.7686806125E-001 +8.8480908366E-001  +1.1140804270E-001 -2.7364994536E+000  +1.0506718870E-001 +1.4410793269E+001  +4.6997342997E-001 +1.6960306479E+000 
10270904.881 +4.5668252873E-001 +7.8808935412E+000  +1.0681106180E-001 -2.7528790002E+000  +1.0736080287E-001 +1.3888933286E+001  +4.6533876380E-001 +2.0553980224E+000 
10396050.063 +4.6788248089E-001 +8.4170845141E+000  +1.0766118440E-001 -2.2736210630E+000  +1.0764853081E-001 +1.3917239202E+001  +4.6919502826E-001 +3.6358910732E+000 
10521195.244 +4.7233813634E-001 +1.0906896152E+001  +1.0639797957E-001 -2.0168049033E+000  +1.0981040402E-001 +1.4175941682E+001  +4.4310619393E-001 -6.2714105899E-001 
10646340.426 +4.5641924744E-001 +7.0835783527E+000  +1.0987292602E-001 +3.1474015430E-001  +1.0734242897E-001 +1.3438385469E+001  +4.9229446768E-001 -1.2093090767E+000 
10771485.607 +4.8567231522E-001 +6.5384199477E+000  +1.0852462306E-001 -7.4832766215E-001  +1.0817582541E-001 +1.4877561277E+001  +4.9175095128E-001 +4.6964945795E+000 
10896630.788 +4.6050802769E-001 +8.4901225202E+000  +1.1364302430E-001 +1.7423449965E-001  +1.1026407201E-001 +1.2764841417E+001  +5.0342079042E-001 +2.3960704900E+000 
11021775.970 +4.9269732725E-001 +1.1729542415E+001  +1.1182067636E-001 +1.4509574935E-001  +1.1039811305E-001 +1.5540829157E+001  +5.0894446610E-001 +2.4382135436E+000 
11146921.151 +4.9885159869E-001 +8.3307584095E+000  +1.1247039487E-001 +1.3525440223E+000  +1.1047319881E-001 +1.2911216788E+001  +5.0362098997E-001 +3.8045963712E+000 
11272066.333 +4.9605801890E-001 +8.5367797207E+000  +1.1270968435E-001 +1.7383137180E+000  +1.1149806814E-001 +1.2742551778E+001  +4.9335475688E-001 +5.2810919698E+000 
11397211.514 +5.0451338163E-001 +9.6057139604E+000  +1.1535240752E-001 +2.0320465749E+000  +1.1313683123E-001 +1.4178620027E+001  +5.2026791920E-001 +4.1785493513E+000 
11522356.696 +5.1961074119E-001 +9.7718965041E+000  +1.1525784664E-001 +2.4617210190E+000  +1.1564741802E-001 +1.5254810982E+001  +5.4248831782E-001 +2.6293085324E+000 
11647501.877 +5.3066688150E-001 +1.1157394148E+001  +1.1647228576E-001 +2.6771357247E+000  +1.1633169113E-001 +1.4171427548E+001  +5.4276565719E-001 +4.0154551834E+000 
11772647.059 +5.1830025099E-001 +9.1447729549E+000  +1.1722030837E-001 +2.1014957177E+000  +1.1911451027E-001 +1.4021322647E+001  +5.5006443096E-001 +4.5031034732E+000 
11897792.240 +5.3800203539E-001 +9.7786627195E+000  +1.1681211248E-001 +1.8970971716E+000  +1.1599712953E-001 +1.2037784972E+001  +5.1801513246E-001 +3.2766388656E+000 
12022937.422 +5.2940987815E-001 +5.8670354373E+000  +1.2276975949E-001 +2.7494229752E+000  +1.1917991101E-001 +1.1147774105E+001  +5.3835455782E-001 +3.2398155528E+000 
12148082.603 +5.5727824880E-001 +3.5566301635E+000  +1.2217144832E-001 +3.6895033348E+000  +1.2136950965E-001 +1.2681668918E+001  +5.7661254927E-001 +2.4266661515E+000 
12273227.785 +5.8565788078E-001 +7.2424520479E+000  +1.2281857442E-001 +2.9661162289E+000  +1.2154456197E-001 +1.1883103553E+001  +5.8095952343E-001 +2.7697493918E+000 
12398372.966 +5.6886140468E-001 +5.9138148758E+000  +1.2476036047E-001 +3.2123972022E+000  +1.2267178581E-001 +1.1428181153E+001  +5.7172977884E-001 +1.6658622599E+000 
12523518.148 +6.1041350461E-001 +3.0264193932E+000  +1.2505288853E-001 +4.1293952793E+000  +1.2262825871E-001 +1.0718457524E+001  +6.0550999694E-001 +3.7240656989E+000 
12648663.329 +6.5059748608E-001 +3.3033836925E+000  +1.2942191183E-001 +4.8194103555E+000  +1.2856719535E-001 +1.0674993946E+001  +6.2606921458E-001 -2.4297066387E-001 
12773808.511 +6.3199554959E-001 +9.8059624624E-001  +1.3031264490E-001 +3.4915250780E+000  +1.2943463800E-001 +1.0307653888E+001  +6.4373545490E-001 -3.5710858547E-001 
12898953.692 +6.4522751783E-001 +1.2981674555E+000  +1.3052274475E-001 +4.2144446302E+000  +1.2932989060E-001 +9.9140498614E+000  +6.5131735975E-001 -1.1168759952E+000 
13024098.874 +6.5036483928E-001 +9.1270948368E-001  +1.3201285760E-001 +4.0897845330E+000  +1.2974798073E-001 +9.2657407888E+000  +6.6294757662E-001 -2.3973465888E+000 
13149244.055 +6.8187984247E-001 -4.4193706471E-002  +1.3382178301E-001 +5.1051732720E+000  +1.3338296913E-001 +9.1418437772E+000  +6.8357145213E-001 -9.1077285759E-001 
13274389.237 +6.8040978891E-001 +2.8578035965E-001  +1.3288270536E-001 +4.5471995973E+000  +1.3278736868E-001 +7.7442078123E+000  +6.8234674539E-001 -2.8386197518E+000 
13399534.418 +7.0385183746E-001 -3.1695024408E+000  +1.3616475481E-001 +4.9438360267E+000  +1.3465793206E-001 +7.9384866347E+000  +7.2904321524E-001 -2.6678084401E+000 
13524679.599 +7.1299266007E-001 -1.8476066176E+000  +1.3504287464E-001 +4.0261919967E+000  +1.3401517475E-001 +6.7844696712E+000  +7.0665113794E-001 -2.8491119737E+000 
13649824.781 +7.3729705177E-001 -2.6545716134E+000  +1.3795512671E-001 +4.6455092922E+000  +1.3424023784E-001 +7.3286373460E+000  +7.4073418427E-001 -2.2618634418E+000 
13774969.962 +7.4449877984E-001 -1.7959759581E+000  +1.4015350009E-001 +4.7866311614E+000  +1.3722415925E-001 +7.3140252684E+000  +7.7596399878E-001 -3.2467809132E+000 
13900115.144 +7.7683808744E-001 -2.5728827340E+000  +1.3923241795E-001 +4.5949594656E+000  +1.3830192986E-001 +5.9787339419E+000  +7.6449010001E-001 -4.2473088651E+000 
14025260.325 +7.9806571236E-001 -3.8601540187E+000  +1.4067372332E-001 +4.8799007541E+000  +1.3717124233E-001 +5.6949692572E+000  +8.0740361292E-001 -3.5849404042E+000 
14150405.507 +7.9617277491E-001 -5.1331339996E+000  +1.4137265575E-001 +4.4798629081E+000  +1.3967225115E-001 +4.9243190914E+000  +8.1589396708E-001 -4.1465508817E+000 
14275550.688 +8.1422084728E-001 -6.5044545190E+000  +1.4315044858E-001 +3.7726727334E+000  +1.4053688176E-001 +4.8750425204E+000  +8.2802388015E-001 -5.1615791740E+000 
14400695.870 +8.4869211647E-001 -5.2820764139E+000  +1.4420393411E-001 +4.1231815825E+000  +1.4068967923E-001 +4.6303377167E+000  +8.6686100584E-001 -4.1736346308E+000 
