!  2-Port S-parameters saved by WinCal
! VAR MeasName=S-Parameters (CALIBRATED_DATA) read from VNA (P5004A)
! VAR MeasDate=27/08/2024 16:44:36
! VAR NAME=S2_r2c9_SET2_9k-100M_1
! VAR FILENAME=S2_r2c9_SET2_9k-100M_1.S2P
! VAR DATE=27/08/2024 16:44:36
! VAR PHYS_PORTS=1,2
! VAR ObjTypeName=DATASET
! VAR IndexType=Frequency
!
# Hz S MA R 50
9000.000 +4.9569664603E-002 -1.4744345615E+002  +1.7417113115E-002 -1.1123621002E+002  +2.0964698657E-002 +1.2836431869E+002  +1.7370525442E-001 -7.0678391221E+001 
134145.181 +1.1121413880E-001 +1.6971541518E+002  +1.7552067956E-004 -9.2454079404E+001  +2.8508256031E-004 +3.5165456117E+001  +2.3659760649E-001 -1.7148632203E+002 
259290.363 +1.1241738856E-001 +1.6946349872E+002  +3.5588890018E-004 -1.7542532155E+001  +7.8796482866E-004 +1.5037573172E+002  +2.4695199757E-001 -1.6891251358E+002 
384435.544 +1.1397362817E-001 +1.7001773812E+002  +3.1313428240E-004 +6.3745967054E+001  +2.4417449608E-004 +4.5388723246E+001  +2.3801315960E-001 -1.6792499244E+002 
509580.726 +1.1445237303E-001 +1.7157028131E+002  +1.5264644787E-003 +1.0829087224E+002  +1.4179207517E-003 -1.6729204229E+002  +2.6209354012E-001 -1.6499169643E+002 
634725.907 +1.1614350917E-001 +1.7068831638E+002  +2.9062929792E-004 +1.4016400018E+002  +7.2746820864E-004 +6.8633440758E+001  +2.4525568763E-001 -1.6474299886E+002 
759871.089 +1.1809559083E-001 +1.7196460637E+002  +1.3488100213E-003 -1.7665098123E+002  +2.0148934929E-003 +7.7863794638E+001  +2.3801129657E-001 -1.5980682402E+002 
885016.270 +1.1777826059E-001 +1.6945311979E+002  +9.4181851129E-005 +1.6384967945E+002  +5.4069280245E-004 +5.0917325305E+000  +2.4575663767E-001 -1.6551727958E+002 
1010161.452 +1.1718300477E-001 +1.7184410363E+002  +1.5084632158E-003 +1.6922150386E+002  +6.6541120902E-004 +9.4330300214E+001  +1.8603784122E-001 -1.6686950791E+002 
1135306.633 +1.2165347232E-001 +1.7155460834E+002  +1.3995538800E-003 +1.4398176035E+002  +2.8331324220E-003 +9.9004099488E+001  +1.1549396372E-001 -1.7032726071E+002 
1260451.815 +1.1932882829E-001 +1.7142714972E+002  +8.0729560090E-004 +9.7787036032E+001  +1.0027919241E-003 +1.4257502033E+002  +2.3589355470E-001 -1.6032536411E+002 
1385596.996 +1.2622862483E-001 +1.7114598197E+002  +6.4194574199E-004 -1.7625056310E+002  +1.6419322518E-003 +6.8580195298E+001  +2.3189193372E-001 -1.5949058669E+002 
1510742.178 +1.2720162992E-001 +1.7161739990E+002  +8.8499059550E-004 -8.8302572625E+001  +5.1316181690E-004 -9.3806125267E+001  +2.5165465444E-001 -1.5904295466E+002 
1635887.359 +1.2853880111E-001 +1.7179507720E+002  +7.2658670291E-004 -1.0070316096E+002  +7.6036320628E-004 -1.5911394236E+002  +2.4505302485E-001 -1.5801483118E+002 
1761032.541 +1.2969769857E-001 +1.6916825889E+002  +1.5542290492E-003 +1.6505190598E+002  +1.9267445403E-003 +8.9553044264E+001  +2.2032472385E-001 -1.6487554718E+002 
1886177.722 +1.2738059163E-001 +1.6785205891E+002  +2.4087253094E-003 +8.3329014538E+001  +1.1348654290E-003 -1.4920530147E+002  +2.1930962615E-001 -1.5946064859E+002 
2011322.904 +1.2801426439E-001 +1.6745259121E+002  +1.5589319521E-003 +8.2100076201E+001  +2.3418939482E-003 +1.6327744805E+001  +1.8964877641E-001 -1.7055206890E+002 
2136468.085 +1.2981445991E-001 +1.6603017603E+002  +5.4605572960E-003 +1.3235189434E+002  +4.2667341221E-003 -4.2967331574E+001  +1.2650670233E-001 +1.7646009355E+002 
2261613.267 +1.3272904521E-001 +1.6523114190E+002  +4.7571605327E-003 +9.2192897491E+001  +1.6267398135E-003 +1.7501668789E+002  +1.5884589320E-001 +1.7319369361E+002 
2386758.448 +1.3670540473E-001 +1.6311143313E+002  +2.8667395192E-003 +8.2813775658E+001  +5.3929182671E-003 -4.2213888781E+001  +2.0871036240E-001 +1.7907396807E+002 
2511903.630 +1.4609374940E-001 +1.6318502413E+002  +4.9743345459E-003 +1.3585715573E+002  +4.3652283448E-003 -4.4243952741E+001  +2.2827886063E-001 +1.2991873246E+002 
2637048.811 +1.4061212076E-001 +1.5479362159E+002  +5.9905540425E-003 +1.5489174230E+002  +4.2949422152E-003 +3.2654070734E+001  +3.1664887626E-001 +1.6793360053E+002 
2762193.992 +1.2067578493E-001 +1.5824297372E+002  +8.8924052300E-003 -7.4733660489E+001  +1.5500624499E-002 +1.4472779599E+002  +8.7684613809E-001 -1.5140841329E+002 
2887339.174 +1.1457357498E-001 +1.7733650068E+002  +1.6253154179E-002 -4.8661424293E+001  +4.2111574212E-002 +1.0987205059E+002  +8.4975960667E-001 -1.1400162633E+002 
3012484.355 +9.0056644221E-002 +1.7325382251E+002  +1.0061455925E-002 -5.2297307916E+000  +2.2961705517E-002 -1.3705110881E+002  +1.6370029995E-001 -8.5121507096E+001 
3137629.537 +1.1895344828E-001 +1.7452917632E+002  +1.0044755996E-002 +3.1317552440E+000  +2.7250984316E-002 -1.1290802726E+002  +1.9474153745E-001 -8.5599707723E+001 
3262774.718 +1.0220978258E-001 +1.6227083535E+002  +4.9028813145E-002 -1.6022857221E+001  +4.2305780051E-002 -1.2803499271E+002  +4.5549330148E-001 -6.1875469311E+001 
3387919.900 +1.4160110918E-001 +1.6049168434E+002  +5.2406673595E-003 +3.6835238889E+001  +5.7716373487E-003 -9.1517127864E+001  +3.7895798688E-001 -9.0000934975E+001 
3513065.081 +1.5176230029E-001 +1.5372310895E+002  +2.9312360930E-002 +1.1908471109E+002  +2.0381650671E-002 -9.3236712399E+000  +6.8677717552E-001 +1.0379458209E+002 
3638210.263 +1.6470340501E-001 +1.1450642520E+002  +6.2665781794E-002 +1.4025738189E+002  +7.0356096211E-002 +5.2249186110E+001  +8.4248785888E-001 +1.3342696014E+002 
3763355.444 +1.6575999297E-001 +1.4536541991E+002  +1.7561695261E-002 +1.4164510769E+002  +2.4047125259E-002 +7.4288442076E+001  +8.3614367884E-001 +1.4395734053E+002 
3888500.626 +1.8671777863E-001 +1.4168349935E+002  +1.7495335520E-002 +1.0791862102E+002  +1.3763835906E-002 +5.1447714487E+001  +4.1290877070E-001 +1.4273749581E+002 
4013645.807 +1.8515601078E-001 +1.5107437899E+002  +1.6475086827E-002 +9.3015694468E+001  +2.5448465631E-002 +1.9125016665E+001  +8.1357757818E-001 +1.2089271807E+002 
4138790.989 +1.9302476556E-001 +1.5375638123E+002  +8.5282441451E-003 +5.1993025463E+001  +1.4757745949E-002 -2.1327800294E+001  +2.8601611135E-001 +4.5031245466E+001 
4263936.170 +1.3348923083E-001 +1.4717045658E+002  +3.6059804027E-002 +7.1155305097E+001  +5.4747513382E-002 +1.2826673508E+001  +9.1236074821E-001 +8.3233520693E+001 
4389081.352 +2.1665172423E-001 +1.3732373248E+002  +1.6130008079E-002 +1.0662002816E+002  +2.9870551251E-002 +4.9959822665E+001  +3.8442449284E-001 +1.2009184230E+002 
4514226.533 +2.4316772028E-001 +1.3480384010E+002  +7.0064841313E-002 +1.0154516811E+002  +4.6054524312E-002 +6.8060088214E+001  +1.1577368034E+000 +9.2386056026E+001 
4639371.715 +2.2449500973E-001 +1.3899705828E+002  +3.6663062436E-002 +1.3315705766E+002  +4.0720288246E-002 +8.0400532522E+001  +1.1866226708E+000 +1.4123444460E+002 
4764516.896 +3.1493548574E-001 +1.2942218375E+002  +3.0045261883E-001 +1.7699743842E+002  +7.0089547921E-001 +1.2649909886E+002  +1.3789505014E+001 +1.3349122958E+002 
4889662.078 +4.1176521275E-001 +1.3985548136E+002  +8.0122103514E-002 -3.6528414312E+001  +8.2303026117E-002 -9.3420176737E+001  +3.2917813813E+000 -1.2963325421E+002 
5014807.259 +4.0092138299E-001 +1.2404238407E+002  +1.9262883556E-001 +1.3507445260E+002  +1.5581812086E-001 +8.8059429379E+001  +3.5587311772E+000 +9.2115836423E+001 
5139952.441 +3.8413967338E-001 +1.2799949738E+002  +2.8164707786E-001 +3.5475180987E+001  +2.2080756316E-001 +2.3568906340E+001  +6.4561077132E+000 -7.5736386706E+000 
5265097.622 +3.4601823163E-001 +1.2632490952E+002  +1.3160562854E-001 +1.1473138384E+002  +8.7252132349E-002 +6.5376859780E+001  +3.0628475042E+000 +1.0355779315E+002 
5390242.804 +4.7499952750E-001 +1.2844504002E+002  +1.2188771051E-001 +1.1083589785E+002  +1.1146730540E-001 +7.9632443503E+001  +2.4999117281E+000 +8.9195439026E+001 
5515387.985 +4.4618232359E-001 +1.2471676738E+002  +1.1241839488E-001 +9.1527039699E+001  +4.1109207377E-002 +8.4429641096E+001  +2.1724957144E+000 +6.8501872420E+001 
5640533.166 +4.3125758359E-001 +1.3004288541E+002  +5.0342684320E-002 +8.4715582352E+001  +4.2213270807E-002 +5.7413658947E+001  +1.2884272788E+000 +8.4047227948E+001 
5765678.348 +5.1248756766E-001 +1.1866830081E+002  +7.4624736956E-002 +8.8157099047E+001  +6.2786130183E-002 +6.0172449078E+001  +1.2128524821E+000 +5.8722410914E+001 
5890823.529 +5.0821742151E-001 +1.2251826465E+002  +6.8373397024E-002 +8.2987990522E+001  +5.0172240890E-002 +5.0983215849E+001  +1.6243100402E+000 +7.8785161658E+001 
6015968.711 +5.9016104568E-001 +1.0812811866E+002  +7.4453584646E-002 +2.4455812575E+001  +9.0483668106E-002 +4.1043091147E+001  +1.8890478601E+000 +1.9973979828E+001 
6141113.892 +7.2962399428E-001 +1.0429310210E+002  +7.8831003292E-002 +5.8804097128E+001  +8.8099594513E-002 +3.7869142319E+001  +2.1122711751E+000 +3.5643989764E+001 
6266259.074 +8.0497474517E-001 +1.0434673602E+002  +8.9644329061E-002 +3.9227885655E+001  +9.3177601709E-002 +4.1047721121E+001  +1.9685088637E+000 +1.1910831768E+001 
6391404.255 +8.6537235784E-001 +9.4833950203E+001  +7.4474074028E-002 +5.7964418212E+001  +9.5255962223E-002 +1.4770964708E+001  +1.3042027824E+000 +1.6878535103E+001 
6516549.437 +1.3361595915E+000 +7.9249013793E+001  +1.3249854083E-001 +3.9063347762E+001  +1.2412019295E-001 +2.5372895656E+001  +1.4713694992E+000 +1.2709543458E+001 
6641694.618 +1.6216782777E+000 +7.1654814539E+001  +1.4837595301E-001 +3.3746462895E+001  +9.7802737837E-002 +3.6036695823E+001  +1.2149053396E+000 +2.6578347764E-001 
6766839.800 +1.4059412387E+000 +3.5050414929E+001  +1.3392275743E-001 -6.3752962736E+000  +9.4573085003E-002 +3.2446974107E+000  +1.3949546379E+000 +2.7704133550E+000 
6891984.981 +1.6274585338E+000 +3.3041489615E+001  +8.1586207438E-002 -4.0721080776E+000  +9.8493926343E-002 +1.0500976783E+001  +1.2688502945E+000 -4.2772971836E+000 
7017130.163 +1.3238540683E+000 +2.6760631440E+001  +7.4083830581E-002 +1.2633187728E+001  +8.7448136234E-002 -2.1321867488E+000  +1.1223524075E+000 -3.1728723284E+000 
7142275.344 +1.6946717505E+000 +9.6810225391E+000  +6.6966033345E-002 -3.9045036664E+000  +5.0843363772E-002 -6.4944047928E+000  +1.1122444230E+000 -8.9322447710E+000 
7267420.526 +1.1584475644E+000 +1.9306657917E+000  +5.1973442521E-002 +2.4790098456E+000  +5.7284421649E-002 +6.4947374801E+000  +1.3159379790E+000 -9.6718978524E+000 
7392565.707 +1.2576308993E+000 +5.9630942453E+000  +5.3687567284E-002 -1.5349933803E+000  +5.6993871869E-002 +4.8009675462E+000  +1.1569561024E+000 -5.2654608142E+000 
7517710.889 +1.0273981466E+000 +1.3212196153E+000  +4.0295568130E-002 +1.0602475726E+001  +4.2410902239E-002 +5.9941669014E+000  +1.1497292783E+000 -6.0593787539E+000 
7642856.070 +9.8074793966E-001 -1.3231031368E+000  +3.1495937597E-002 +1.4269924580E+001  +4.7054111049E-002 +1.5205870604E+001  +1.0416475375E+000 -5.6246747583E+000 
7768001.252 +9.1824350312E-001 +7.2567018740E-001  +4.4195954823E-002 +4.9867441380E+000  +4.4167610725E-002 +4.4805043352E+000  +1.0017892563E+000 -7.0842014680E+000 
7893146.433 +8.1429469474E-001 +5.4420542341E+000  +4.3328960895E-002 +1.2065890023E+001  +3.9367357949E-002 +7.6347287563E+000  +8.4003315015E-001 -2.9408524466E+000 
8018291.615 +7.8448374619E-001 +8.7543150145E+000  +4.0245484863E-002 +4.6766870628E+000  +3.0547305183E-002 +5.5893978301E+000  +8.9876091364E-001 -3.6803520996E+000 
8143436.796 +5.9993677473E-001 +2.2810892426E+000  +3.8606913855E-002 +2.0426942543E+000  +3.6669767951E-002 +1.9299761647E+001  +7.7570955454E-001 -4.2005657126E-001 
8268581.977 +6.9517711863E-001 -1.3079215302E+000  +3.7943195529E-002 +4.6669838498E+000  +3.5882744742E-002 +2.8902884927E+000  +6.4932145393E-001 -3.3483773375E+000 
8393727.159 +7.3078402015E-001 +8.5547461767E+000  +3.4906932115E-002 -7.5984391952E-002  +2.6919071667E-002 +1.1851335933E+001  +7.8103499749E-001 -4.2520882354E+000 
8518872.340 +6.9928032112E-001 +4.5502769263E+000  +3.9404745547E-002 +9.6840660629E-001  +3.5144139835E-002 +1.3585610043E+001  +6.5198708631E-001 +1.2785127576E+000 
8644017.522 +6.4399877643E-001 +8.8937205984E+000  +3.5194453687E-002 +1.6055961986E+000  +3.5413115148E-002 +1.0990273825E+001  +6.9863661902E-001 -2.7444384919E-001 
8769162.703 +5.9208388472E-001 +4.3847628788E+000  +3.3896478464E-002 +2.6116135522E+000  +3.2321726953E-002 +1.1009219172E+001  +6.7861879899E-001 -8.6183156314E+000 
8894307.885 +5.2501435550E-001 +5.1410210913E+000  +3.1014024385E-002 +3.1565204456E+000  +3.1289529422E-002 +1.3254542701E+001  +5.6467760069E-001 +1.6153949555E+000 
9019453.066 +5.7221314839E-001 +1.3876948500E+000  +3.6066367861E-002 +1.4914519038E+000  +3.4219864839E-002 +1.7584082067E+001  +6.2801455790E-001 +9.9630210666E-001 
9144598.248 +5.3090041289E-001 +6.5679049108E+000  +3.8562259040E-002 +2.2065774636E+000  +3.1056109061E-002 +1.6193869634E+001  +6.2568460805E-001 -4.5303205614E+000 
9269743.429 +5.1527082039E-001 +1.1322287296E+000  +3.2021122826E-002 +6.6575485743E+000  +3.0059720296E-002 +1.3058954120E+001  +5.5845345270E-001 +6.1980710397E-001 
9394888.611 +5.0997596420E-001 -6.9414925428E-001  +3.3820219595E-002 +2.1254836480E+000  +3.2811200234E-002 +1.7165520808E+001  +5.5536929636E-001 -7.8553625865E+000 
9520033.792 +4.9916444252E-001 -3.1388835994E-001  +3.3915159605E-002 -6.0829669840E+000  +2.8942182261E-002 +2.0178717937E+001  +5.6659643721E-001 -1.3203189871E+000 
9645178.974 +5.1174552345E-001 +5.9355574387E+000  +3.3193680684E-002 +2.5233482648E+000  +3.4393194838E-002 +1.5537354916E+001  +5.5353206009E-001 -4.5348622189E+000 
9770324.155 +5.0750152583E-001 +8.7145064069E+000  +3.3750853184E-002 +6.5115624707E+000  +3.6629207633E-002 +1.9297082359E+001  +5.5856610672E-001 -5.9783129125E+000 
9895469.337 +4.8582413632E-001 -1.1139662483E+000  +3.3740751582E-002 +5.1896704008E+000  +3.2752673761E-002 +1.6703088049E+001  +5.2522729337E-001 -5.4009975930E+000 
10020614.518 +5.1081403621E-001 +5.4130765829E+000  +3.0958503981E-002 +3.8305190605E+000  +3.5260003848E-002 +1.8899462416E+001  +5.4774765581E-001 -7.0709713168E+000 
10145759.700 +5.3188477008E-001 +8.2078474494E+000  +3.2383644266E-002 +6.4336949880E+000  +3.3762172451E-002 +1.6873017250E+001  +5.3006015570E-001 -4.1665744950E+000 
10270904.881 +5.3953516175E-001 +4.8625044158E+000  +3.4685225436E-002 +5.1521842100E+000  +3.4943857455E-002 +2.2288322301E+001  +5.8798764101E-001 -9.2863194219E-001 
10396050.063 +4.8454620836E-001 +8.6320024989E+000  +3.3164702161E-002 +6.9447053542E-001  +3.4986043322E-002 +2.3991435904E+001  +5.3850142365E-001 -4.6979515101E-001 
10521195.244 +4.7171002403E-001 +8.7528635109E+000  +3.3866316718E-002 +2.0239168392E+000  +3.4410248243E-002 +1.9523086677E+001  +5.5062086907E-001 -7.0295248612E-001 
10646340.426 +5.6774978819E-001 +3.8875974206E+000  +3.6065568596E-002 +6.3696040708E+000  +3.2123916720E-002 +2.1123156158E+001  +5.3021004012E-001 +1.2712239024E+000 
10771485.607 +5.1563580747E-001 +3.1625824487E+000  +3.4883923458E-002 +9.0630862126E+000  +3.2540334544E-002 +1.8763418728E+001  +5.6641719176E-001 +4.9612595037E+000 
10896630.788 +5.3060700289E-001 +5.5770065211E+000  +3.6379606088E-002 +3.6411601867E+000  +3.1707613611E-002 +2.4786556669E+001  +5.9158298689E-001 +1.8844194910E+000 
11021775.970 +5.7002045338E-001 +9.7520416962E+000  +3.4279621548E-002 +6.7640615398E+000  +3.5332916528E-002 +1.6305240757E+001  +5.8508666514E-001 +1.9670552506E+000 
11146921.151 +5.5386886652E-001 +4.7577346899E+000  +3.5321977074E-002 +4.2036930607E+000  +3.4747293007E-002 +1.8036812560E+001  +5.9587687031E-001 +1.6375776298E+000 
11272066.333 +5.3108376836E-001 +1.0233254927E+001  +3.4865324353E-002 +2.7196153486E+000  +3.5184148555E-002 +1.7161137147E+001  +5.6299616572E-001 +6.4593738874E+000 
11397211.514 +5.8445995770E-001 +6.4066325664E+000  +3.7051210682E-002 +8.3554306176E+000  +3.7338285513E-002 +2.2670966292E+001  +6.3129830582E-001 +1.7302431987E+000 
11522356.696 +6.0026614515E-001 +6.8958053614E+000  +3.7510597018E-002 +8.1530014133E+000  +3.7607777036E-002 +1.5449218620E+001  +6.1716781377E-001 +1.9445499058E+000 
11647501.877 +5.6025421672E-001 +4.0495277599E+000  +3.7480874838E-002 +9.7459104848E+000  +3.8221965626E-002 +2.0024756882E+001  +6.2114257226E-001 +8.7317868825E-002 
11772647.059 +5.8239436590E-001 +7.9851890444E+000  +3.6890644011E-002 +9.6810185764E+000  +3.7416825644E-002 +1.9508399941E+001  +6.0784702686E-001 +1.0082276062E+000 
11897792.240 +5.8963480878E-001 +5.7080487126E+000  +3.7246231220E-002 +9.3396241732E+000  +3.9603272923E-002 +2.0431894001E+001  +6.4731397576E-001 +6.4135990218E-001 
12022937.422 +6.5153085690E-001 +6.6553811893E+000  +3.8484219372E-002 +1.1577954612E+001  +3.8726085837E-002 +2.1526414718E+001  +6.6806233850E-001 +1.1572557594E+000 
12148082.603 +6.3968537330E-001 +5.4797454369E+000  +3.8453739076E-002 +1.2294329993E+001  +3.7096242916E-002 +1.9875647728E+001  +6.6380583911E-001 +1.9473732770E+000 
12273227.785 +6.3361290466E-001 +3.9874461843E+000  +3.7932239045E-002 +1.0034580777E+001  +4.0009744332E-002 +1.9781193646E+001  +6.6761572213E-001 +8.2963035948E-001 
12398372.966 +6.7935104839E-001 +4.7645584532E+000  +4.0522365305E-002 +1.3382929790E+001  +3.7035166761E-002 +1.8138109918E+001  +6.9603096048E-001 +2.5068016225E-001 
12523518.148 +6.7353427802E-001 +2.1563761564E+000  +4.0507255245E-002 +1.2610054996E+001  +4.0497607962E-002 +1.8206804953E+001  +6.9592405201E-001 -5.0312049984E-001 
12648663.329 +7.0032628035E-001 +2.1230583578E+000  +4.0744912433E-002 +1.1908882501E+001  +3.9534111162E-002 +1.9240219136E+001  +7.0598889735E-001 -6.3281840001E-002 
12773808.511 +7.0976162973E-001 +1.6771497679E+000  +4.0622341799E-002 +1.0337184089E+001  +3.9671395065E-002 +1.7293690396E+001  +6.9931226453E-001 +1.1938700513E+000 
12898953.692 +7.3306981312E-001 +1.5449021338E+000  +4.0724749217E-002 +1.1200108486E+001  +4.2065123531E-002 +1.8628843881E+001  +7.4538270441E-001 -7.5183974783E-001 
13024098.874 +7.4903754754E-001 +9.6237966485E-002  +4.1889506514E-002 +1.1037197666E+001  +4.3122269173E-002 +1.7046286624E+001  +7.5383008468E-001 -6.7056669669E-001 
13149244.055 +7.5755766656E-001 +1.7839215050E-001  +4.1855677149E-002 +1.0470815400E+001  +4.2079538004E-002 +1.3373624038E+001  +7.7849462074E-001 -2.5490256203E+000 
13274389.237 +7.6713695383E-001 -2.7466226805E+000  +4.2574074622E-002 +9.8599322668E+000  +4.2785288249E-002 +1.4528428910E+001  +7.9058700798E-001 -2.1467415211E+000 
13399534.418 +7.9918438428E-001 +2.2894183645E-001  +4.2034057773E-002 +1.1594321563E+001  +4.2332990685E-002 +1.5928635968E+001  +7.9635963775E-001 -1.3939051675E+000 
13524679.599 +7.7597569934E-001 -1.3485641335E+000  +4.3810873084E-002 +1.0823344576E+001  +4.2698483547E-002 +1.4677799420E+001  +8.1109526634E-001 -2.9178044822E+000 
13649824.781 +8.2168803935E-001 -1.3708746195E+000  +4.2681268644E-002 +1.1868593769E+001  +4.3285916693E-002 +1.3559369929E+001  +8.2279017497E-001 -2.9929659060E+000 
13774969.962 +8.2118554002E-001 -2.5016519708E+000  +4.4504937259E-002 +1.2071024570E+001  +4.3234052297E-002 +1.4137333606E+001  +8.5168393755E-001 -2.4007280030E+000 
13900115.144 +8.4606554706E-001 -2.2572769155E+000  +4.3981936011E-002 +1.0622360978E+001  +4.2149754348E-002 +1.3625788413E+001  +8.6328238630E-001 -3.5048219033E+000 
14025260.325 +8.7942973769E-001 -4.3202058612E+000  +4.4660828650E-002 +1.2807584562E+001  +4.3851871973E-002 +1.3594887239E+001  +8.8031024608E-001 -4.3804778015E+000 
14150405.507 +9.0653387002E-001 -3.6638605154E+000  +4.4580955147E-002 +1.1251776149E+001  +4.3726210174E-002 +1.2843170429E+001  +9.0315611952E-001 -2.7502788397E+000 
14275550.688 +9.2303328208E-001 -4.8216794204E+000  +4.5392775777E-002 +1.2039769069E+001  +4.4848435555E-002 +1.0745818834E+001  +9.1805771942E-001 -5.3203595994E+000 
14400695.870 +9.1467709671E-001 -4.4701803049E+000  +4.5782011345E-002 +1.1020775783E+001  +4.6040555233E-002 +1.2598696922E+001  +9.4507106974E-001 -5.7351931469E+000 
