!  2-Port S-parameters saved by WinCal
! VAR MeasName=S-Parameters (CALIBRATED_DATA) read from VNA (P5004A)
! VAR MeasDate=28/08/2024 12:13:43
! VAR NAME=S2_r7c9_RESET2_9k-100M_3
! VAR FILENAME=S2_r7c9_RESET2_9k-100M_3.S2P
! VAR DATE=28/08/2024 12:13:43
! VAR PHYS_PORTS=1,2
! VAR ObjTypeName=DATASET
! VAR IndexType=Frequency
!
# Hz S MA R 50
9000.000 +8.4392649209E-002 -1.6520341617E+002  +3.4536626008E-003 -7.5050119661E+001  +4.2459821884E-003 +1.3756141354E+002  +2.1641205299E-001 -1.4108855963E+002 
134145.181 +1.1132806647E-001 +1.6966909674E+002  +2.1999672227E-004 +1.4597538230E+002  +2.2631313052E-004 -6.3175666343E+000  +2.4419354338E-001 -1.7089789119E+002 
259290.363 +1.1110279555E-001 +1.6955698369E+002  +4.9455317446E-004 +1.5487179779E+002  +6.4996776132E-004 +1.2845611207E+001  +2.4563693388E-001 -1.6946428838E+002 
384435.544 +1.1441172405E-001 +1.6999947847E+002  +4.0507172480E-004 +1.3171190206E+002  +8.5766579465E-004 -1.1997079149E+002  +2.4786127214E-001 -1.6747674496E+002 
509580.726 +1.1392766528E-001 +1.7079663578E+002  +3.9628370993E-004 -5.8184337933E+001  +4.3892682367E-004 +9.1899232668E+001  +2.4384553864E-001 -1.6725284068E+002 
634725.907 +1.1789723474E-001 +1.7139501109E+002  +1.0805262067E-003 +2.0602516953E+001  +7.5009376470E-004 +9.5192145106E+001  +2.5736701514E-001 -1.6344665164E+002 
759871.089 +1.2151563530E-001 +1.7159358067E+002  +8.1646572958E-004 -1.6195748202E+002  +3.9431408474E-004 +1.4273081878E+002  +2.5422606958E-001 -1.6529071683E+002 
885016.270 +1.2078878060E-001 +1.6940975180E+002  +1.9343007122E-004 -1.5659473911E+002  +8.6191478263E-004 +4.8378205361E+001  +2.4394966989E-001 -1.6503474246E+002 
1010161.452 +1.1387497302E-001 +1.7134800622E+002  +4.4270595031E-004 +6.4321503316E+000  +4.6993169191E-004 -3.6670698910E+001  +2.1017491138E-001 -1.6823641681E+002 
1135306.633 +1.1765092439E-001 +1.7030013913E+002  +7.3973908041E-004 -3.8723190697E+001  +4.4998872353E-004 -4.0368088567E+001  +1.9891961905E-001 -1.6686849169E+002 
1260451.815 +1.2032565912E-001 +1.7313108188E+002  +9.2123110796E-004 +1.3470899699E+002  +1.0191875556E-003 +1.7386722888E+002  +2.3015444452E-001 -1.6191535156E+002 
1385596.996 +1.2561232717E-001 +1.7207389774E+002  +8.0292672160E-004 -5.3085170970E+001  +1.3168232509E-003 +1.5932532805E+002  +2.6203722297E-001 -1.6032183938E+002 
1510742.178 +1.2830498537E-001 +1.7215078012E+002  +4.9086317051E-004 -1.1563082099E+002  +7.5471981614E-004 +1.4522354081E+002  +2.7458178747E-001 -1.5834288798E+002 
1635887.359 +1.2844874560E-001 +1.7140863429E+002  +1.2738918833E-003 -4.0649562285E+001  +1.2938133329E-003 -2.1285487706E+001  +2.5557254412E-001 -1.5784602103E+002 
1761032.541 +1.2744234028E-001 +1.6926324255E+002  +9.8918859776E-004 -1.0043328778E+002  +1.8985232364E-003 -1.1387707521E+002  +2.2657747844E-001 -1.5489179303E+002 
1886177.722 +1.2938202978E-001 +1.6978623850E+002  +1.7426150772E-003 +1.1627388238E+002  +1.5006205158E-003 +4.3904339934E+001  +2.2331048468E-001 -1.6082073975E+002 
2011322.904 +1.2936929618E-001 +1.6600752697E+002  +1.5982489100E-003 +1.2983910939E+002  +1.4942853242E-003 +3.2124232007E+001  +2.1518391550E-001 -1.7034594419E+002 
2136468.085 +1.2712606407E-001 +1.6570498767E+002  +3.5358818281E-003 +9.8673602675E+001  +2.2636594048E-003 -7.7652252103E+001  +2.0034223823E-001 -1.6420930330E+002 
2261613.267 +1.3243224185E-001 +1.6617513643E+002  +1.7319015967E-003 -5.4449589426E+001  +3.0717940655E-003 -1.5246276803E+002  +1.9354664423E-001 -1.7995270528E+002 
2386758.448 +1.3185974838E-001 +1.6460612933E+002  +7.2821853048E-003 +3.2490859774E+001  +3.5831913775E-003 -3.1903613385E+001  +1.6426975292E-001 +1.6149658134E+002 
2511903.630 +1.2487646461E-001 +1.6460482133E+002  +4.8698609033E-003 -1.0827517204E+002  +4.3571824627E-003 +5.5151424480E+001  +2.1745527986E-001 +1.6940893959E+002 
2637048.811 +1.2297069334E-001 +1.6859199713E+002  +3.3264203106E-003 -1.2290654001E+002  +2.2215783047E-003 -1.7360139521E+002  +1.4247041712E-001 -1.3240411526E+002 
2762193.992 +9.7293818850E-002 +1.6373709867E+002  +2.9348774996E-002 +1.5342408571E+002  +2.3934118988E-002 -1.5392749743E+002  +9.3283387983E-001 +1.5529171373E+002 
2887339.174 +1.2427899219E-001 +1.6872660850E+002  +2.8049752447E-002 +6.4920532613E+001  +2.6373421809E-002 -1.1467693313E+002  +1.1138813609E+000 -5.8268589498E+001 
3012484.355 +9.9815047638E-002 +1.7412723857E+002  +1.8148311863E-002 -1.7037004156E+002  +3.6289609724E-002 +1.5661605351E+002  +1.4380928420E+000 -1.1746300283E+002 
3137629.537 +1.3108299267E-001 +1.7256038988E+002  +1.2716649208E-002 +1.2177204837E+002  +1.6390235212E-002 +1.1119770127E+002  +8.5374872561E-001 -9.8007590102E+001 
3262774.718 +1.4006602254E-001 +1.7333346773E+002  +8.8418990895E-002 +1.7470414171E+001  +1.8464923015E-002 +1.7289758215E+001  +2.0006848214E+000 +1.6615576707E+001 
3387919.900 +9.9816376842E-002 +1.4572473328E+002  +1.3776520407E-002 +2.8234113673E+001  +2.8621152742E-003 +5.7166467966E+001  +2.2834119143E-001 -2.5722581673E+001 
3513065.081 +1.3455392537E-001 +1.5486230372E+002  +1.2525941969E-002 +1.6060560973E+002  +1.2322089902E-002 -9.8268703452E+001  +6.0815168101E-001 +9.6975804689E+001 
3638210.263 +1.9372068430E-001 +1.3977550130E+002  +2.7745346818E-003 -5.5278140951E+001  +4.3351854471E-003 -6.4517872453E+001  +9.7384097541E-001 +1.3905790709E+002 
3763355.444 +1.5797630309E-001 +1.4716637887E+002  +1.1987865271E-002 -1.2554701248E+001  +1.1374119320E-002 +6.4941440170E+001  +5.6829237601E-001 +1.2734060159E+002 
3888500.626 +1.5499009943E-001 +1.5096387911E+002  +5.6602571572E-003 -8.6572275062E+001  +9.9063876528E-003 +1.2622573293E+002  +2.8340418736E-001 +1.3940722591E+002 
4013645.807 +1.6766795275E-001 +1.5113621355E+002  +2.4697774084E-003 +6.1205939466E+001  +3.7814707384E-003 +6.2409038882E+001  +3.1772221546E-001 +1.2783049096E+002 
4138790.989 +1.9319317479E-001 +1.5007560058E+002  +4.1872392860E-003 -9.0183063327E+001  +6.3479293195E-003 -1.4986165073E+002  +6.9235003273E-001 +1.4266491438E+002 
4263936.170 +2.0657602299E-001 +1.4842511881E+002  +4.4232570664E-003 +1.3280318457E+002  +1.0089141341E-002 -5.7537851117E+001  +2.5243280575E-001 +5.7716066616E+001 
4389081.352 +2.3770392842E-001 +1.4004129988E+002  +2.7565081231E-002 +1.7504748747E+002  +1.9954772069E-002 +1.2998477829E+002  +1.0296615494E+000 +1.0178671647E+002 
4514226.533 +1.3228123065E-001 +1.1136768289E+002  +2.2853374333E-002 +1.4107531044E+002  +2.5744770923E-002 -1.4799395065E+002  +1.0002738659E+000 +1.0672767020E+002 
4639371.715 +2.2318698955E-001 +1.3933684408E+002  +3.3145501001E-002 +1.7607351221E+002  +2.2903878922E-002 +6.4823659724E+000  +1.7346258053E+000 +8.0304822014E+001 
4764516.896 +3.2094360436E-001 +1.3349790060E+002  +8.9714841890E-002 -4.6842604391E+001  +5.9405974234E-002 +4.9014874116E+001  +4.9181169877E+000 -1.1634567458E+002 
4889662.078 +3.9142106244E-001 +1.2719391979E+002  +5.9850624664E-002 +8.9114027756E+001  +6.6988970111E-002 +6.2381436478E+001  +4.2677377800E+000 -1.3410854942E+002 
5014807.259 +4.7963914543E-001 +1.2355804122E+002  +5.0101798967E-002 -6.1109236820E+001  +7.1163946333E-001 -6.8229407315E+001  +3.7617910703E+001 -1.5051906157E+002 
5139952.441 +4.0682413322E-001 +1.2768526001E+002  +1.2499059207E-001 -1.7314046442E+002  +6.4096926950E-002 +1.7309175998E+002  +4.6351871464E+000 +1.1147337770E+002 
5265097.622 +3.3615165766E-001 +1.2963057611E+002  +2.0230394932E-002 +1.5152480977E+001  +1.7877993923E-002 +8.2594613420E+001  +1.1226424178E+000 +1.1676254523E+002 
5390242.804 +4.5295895840E-001 +1.2738144752E+002  +5.3896634427E-002 +1.7397234204E+002  +3.2901747025E-002 -6.0323274199E+001  +4.1939270586E+000 +6.7527218470E+001 
5515387.985 +4.2487003815E-001 +1.2810413810E+002  +4.1464640640E-002 -1.0944702579E+002  +4.7298858147E-002 -1.4552381155E+002  +2.6270686820E+000 +1.0252052221E+002 
5640533.166 +4.7846912351E-001 +1.3314139168E+002  +4.6941713654E-003 +1.5385426017E+002  +2.3941542025E-002 +7.1628333769E+000  +2.3109808337E+000 +8.2538156587E+001 
5765678.348 +5.2593647972E-001 +1.3040721881E+002  +1.2373314353E-002 -8.9932858574E+001  +4.3206828136E-002 +3.0750509974E+001  +2.9406382330E+000 +3.3390316906E+001 
5890823.529 +6.5549732211E-001 +1.2293487244E+002  +6.8951990482E-002 +1.4764162588E+002  +1.7341478572E-002 +3.3289800631E+001  +5.3848839012E+000 +4.7830058322E+001 
6015968.711 +5.2990693242E-001 +1.1203038105E+002  +2.9986541056E-002 +1.5094485353E+002  +2.3052629459E-002 +1.5872048630E+002  +1.2266679755E+000 +4.7201980776E+001 
6141113.892 +5.7126426267E-001 +1.0589602961E+002  +2.6247492842E-002 -1.2931868498E+002  +5.0311039738E-002 +1.3378706230E+002  +2.8940567092E+000 +5.3401156023E+001 
6266259.074 +8.1568369756E-001 +1.0957364204E+002  +7.9032197643E-003 -4.8286266875E+001  +1.1240891138E-002 -1.8282452045E+001  +1.5046134748E+000 +7.0655892220E+000 
6391404.255 +1.2459852546E+000 +9.4136769869E+001  +3.9866195522E-003 -1.1685080807E+002  +1.8777484478E-002 +1.1235792364E+002  +1.2721394707E+000 +2.8915167737E+001 
6516549.437 +1.2141978133E+000 +7.8609596896E+001  +2.1847381489E-002 +8.5803167509E+001  +1.3207601337E-002 +7.8243708794E+001  +1.6345671812E+000 +2.1503067039E+000 
6641694.618 +1.3057015294E+000 +8.5410363507E+001  +1.9261474681E-002 +7.9864516944E+001  +2.4196492760E-002 +1.4974470514E+002  +1.3932296165E+000 +2.9090850677E+000 
6766839.800 +2.0604364565E+000 +6.0459079501E+001  +4.2314246930E-003 +1.5865816645E+002  +1.8263329973E-002 +1.2317019189E+002  +1.4315722696E+000 -6.9804405526E+000 
6891984.981 +1.7228257077E+000 +3.6265335693E+001  +1.1844943857E-002 -6.7519995105E+001  +8.5684561329E-003 +1.4734012214E+002  +1.2165523032E+000 -8.7762201169E+000 
7017130.163 +1.8992981649E+000 +1.9755826172E+001  +4.5747715643E-003 -2.8650249173E+001  +8.2840382115E-003 -1.5315629625E+002  +1.3251243386E+000 -1.1255356586E+001 
7142275.344 +1.5524879350E+000 +9.4345542215E+000  +2.9588708565E-003 +3.3669897825E+001  +1.1683019141E-002 -9.4201472583E+001  +1.2982421228E+000 -1.0721171648E+001 
7267420.526 +1.3581398129E+000 -4.9406228155E+000  +1.7115813038E-002 +8.2754211754E+001  +1.5075836113E-002 -1.6483320004E+002  +1.3678163791E+000 -1.1964049162E+001 
7392565.707 +1.3948339656E+000 -5.4314499464E+000  +4.4129862757E-003 +9.4758663279E+001  +7.0677152288E-003 -5.8182032412E+001  +1.3138551097E+000 -1.0375488500E+001 
7517710.889 +1.1105729579E+000 -9.8591177259E-001  +3.5515334230E-003 +1.3781385958E+002  +5.4087251125E-003 +7.2766580771E+001  +1.2143885770E+000 -4.3909757320E+000 
7642856.070 +1.0553572216E+000 +9.5872726154E+000  +1.1657819084E-002 +8.4484648752E+001  +2.8493956799E-003 +4.6394137393E+001  +1.0840281596E+000 +5.1144970039E-001 
7768001.252 +9.2994261569E-001 -7.0292763496E-001  +5.6772941541E-003 +1.5700109725E+002  +1.0168775805E-002 +4.6340210233E+001  +9.6208264887E-001 -1.5123257597E+000 
7893146.433 +9.1056832721E-001 +4.1889400347E+000  +3.6066324339E-003 -1.7943140766E+000  +6.0948364646E-003 +6.7789051485E+001  +9.1324454768E-001 +2.8144333741E+000 
8018291.615 +8.3019039032E-001 +8.2912675745E+000  +6.8511608576E-003 -1.2081093427E+001  +4.1201112342E-003 +4.7622948111E+001  +8.8626193647E-001 +3.4532473640E+000 
8143436.796 +7.6750979449E-001 +7.6920979516E+000  +2.4965472608E-003 +1.5733597788E+002  +6.2403941147E-003 +4.2358202917E+001  +8.2671777718E-001 -2.8732732859E+000 
8268581.977 +7.1357740332E-001 +9.3033440749E+000  +8.8144342250E-003 +4.4398496987E+001  +3.5764727279E-003 -5.3129351880E+001  +7.8665428289E-001 +1.2971243749E-001 
8393727.159 +7.2052835370E-001 +8.4152955643E+000  +3.5522732896E-003 +1.0686683119E+002  +2.5680889041E-003 +1.5223455380E+001  +8.3129822977E-001 -1.4512992595E+000 
8518872.340 +6.4041286295E-001 +9.4909070661E+000  +5.4446430669E-004 +6.0404930613E+000  +5.6956282345E-003 +1.2866788412E+002  +6.0022056549E-001 -3.4082492170E+000 
8644017.522 +6.9889020879E-001 +1.4234907545E+001  +1.2569137074E-003 +1.6309603629E+002  +2.1519981336E-003 +5.7586631776E+001  +7.1552637405E-001 +2.8363794497E+000 
8769162.703 +6.0037350611E-001 +1.5601525796E+000  +4.2645464826E-003 +4.2392919130E+001  +7.6664211759E-004 +1.3925123363E+001  +6.2648443212E-001 +1.9282409433E+000 
8894307.885 +6.5494806678E-001 +1.2141070703E+001  +5.3105227763E-003 +1.1770108988E+002  +3.5123364138E-003 +1.6342324616E+002  +7.0275614668E-001 -5.3211916284E+000 
9019453.066 +5.8346794540E-001 +8.8202829962E+000  +5.8466898821E-003 +7.3279177139E+001  +2.0839882402E-003 -1.5678623833E+002  +5.9985949004E-001 +6.3713581575E-001 
9144598.248 +5.8693005930E-001 +5.3646308409E+000  +5.6267056887E-003 +1.2905421460E+002  +4.9768608477E-003 +7.6030344095E+001  +5.6495611023E-001 +1.1046940608E+000 
9269743.429 +6.0632157992E-001 +8.0845105399E+000  +4.1795188874E-003 +7.1362460032E+001  +6.1741924646E-003 +7.8220313001E+001  +5.9692410409E-001 -4.2739846479E-001 
9394888.611 +5.6796368840E-001 +3.3003029597E+000  +7.2412964477E-003 +7.4058194390E+001  +5.0524973338E-003 +1.7209840161E+002  +5.8969755108E-001 -7.4893319405E-001 
9520033.792 +5.5321206423E-001 +3.6862377276E+000  +7.0298704942E-003 +6.1528578881E+001  +2.6780900382E-003 +1.2516890649E+002  +5.6849323545E-001 +1.4902062222E+000 
9645178.974 +5.9691272072E-001 +5.1417132911E+000  +6.4914990061E-003 +5.0266274729E+001  +3.5564664016E-003 +1.2250857745E+002  +5.3231764841E-001 -7.4759200409E+000 
9770324.155 +5.6537507093E-001 -2.2380862559E+000  +3.0026515336E-003 +8.9228820241E+001  +4.8143745333E-003 +1.0677451480E+002  +5.9139567973E-001 -7.5972001751E+000 
9895469.337 +5.1441707400E-001 +8.3948872031E-001  +4.7369197353E-003 +6.4778751511E+001  +6.6878402024E-003 +1.1910489412E+002  +5.5295179156E-001 -7.2735327325E+000 
10020614.518 +5.4867818465E-001 +3.5241507834E+000  +4.6455689117E-003 +7.4855168323E+001  +3.7286910826E-003 +1.3260555500E+002  +5.5851724190E-001 -4.8401119975E+000 
10145759.700 +5.5326178915E-001 +2.5491802110E+000  +5.7231763288E-003 +9.5477428722E+001  +2.9285892941E-003 +6.2562101526E+001  +5.8816464993E-001 -8.6454656543E+000 
10270904.881 +5.3921132519E-001 +6.3091050622E+000  +6.7840684385E-003 +9.0309125967E+001  +2.0654656339E-003 +5.6407543327E+001  +5.9052892570E-001 -4.5659321436E+000 
10396050.063 +5.4485762559E-001 +1.7175858919E-001  +5.1225786983E-003 +7.6213999072E+001  +4.7612629810E-003 +1.2994427422E+002  +5.9292195677E-001 -2.0395393216E+000 
10521195.244 +5.5899892400E-001 +5.2832407791E+000  +7.8185262255E-004 +3.4274241748E+001  +4.2095635590E-003 +1.3958011210E+002  +6.0246878563E-001 -5.7043912733E-001 
10646340.426 +5.7583343729E-001 +7.5856067689E+000  +4.6649949709E-003 +8.9477587733E+001  +5.0120523874E-003 +1.0923318259E+002  +6.1228976963E-001 -4.2433493722E-001 
10771485.607 +5.8757756821E-001 +7.4746625924E+000  +5.4630641819E-004 +9.5135472506E+001  +4.8765747674E-003 +1.2258227178E+002  +6.0990808182E-001 -2.8234409210E+000 
10896630.788 +5.9790463352E-001 +5.4371670714E+000  +4.8707048126E-003 +8.0410290855E+001  +3.0578661979E-003 +8.2227542764E+001  +5.9411886483E-001 +1.7066446553E+000 
11021775.970 +5.8878090889E-001 +6.3686682810E+000  +3.7410475818E-003 +9.4346247750E+001  +7.3585934898E-003 +8.4051428791E+001  +6.2344825057E-001 -4.4109755724E-001 
11146921.151 +5.8204763475E-001 +5.7786701982E+000  +4.4816979903E-003 +8.7566268460E+001  +5.0630161475E-003 +9.7737940008E+001  +5.8568896158E-001 +1.5705167150E+000 
11272066.333 +6.0013147126E-001 +6.3777746698E+000  +7.4037695112E-003 +8.6606316156E+001  +6.4724977278E-003 +9.6848239621E+001  +6.2523877856E-001 +2.4616522184E+000 
11397211.514 +6.2498467305E-001 +6.7920886944E+000  +5.8758541949E-003 +1.0358485764E+002  +5.5013455397E-003 +1.2917694823E+002  +6.2289087302E-001 +4.3802945901E+000 
11522356.696 +6.3553215387E-001 +5.4610864023E+000  +6.1597361676E-003 +1.0461689512E+002  +6.2568175935E-003 +1.1970323749E+002  +6.3302465176E-001 +4.7013856134E+000 
11647501.877 +6.4941533137E-001 +4.8404062652E+000  +4.6890197949E-003 +8.8213893598E+001  +5.3777210756E-003 +9.5369077450E+001  +6.5662145841E-001 +1.6572701766E+000 
11772647.059 +6.6106565001E-001 +5.8824839601E+000  +6.7899915757E-003 +6.8797854818E+001  +4.4433226364E-003 +6.6579062363E+001  +6.3155550534E-001 +7.2108951776E-001 
11897792.240 +6.5821837797E-001 +5.5315121382E+000  +3.8026967471E-003 +6.6275705002E+001  +4.1230873920E-003 +9.9812858852E+001  +6.6656926856E-001 +9.6149032042E-001 
12022937.422 +7.0819410099E-001 +5.7179379350E+000  +6.3989300529E-003 +9.8414896388E+001  +4.7980094888E-003 +1.0181616732E+002  +7.0404510443E-001 +1.7665370610E+000 
12148082.603 +7.1239765935E-001 +1.9592762570E+000  +5.3040583547E-003 +1.0890671386E+002  +5.0894904663E-003 +9.1559741057E+001  +6.9528022110E-001 +1.1753912301E+000 
12273227.785 +6.8950527479E-001 +3.3852942379E+000  +6.4986540160E-003 +1.0868092226E+002  +4.6178530180E-003 +1.0062753307E+002  +7.1991427502E-001 +6.5086385066E-001 
12398372.966 +7.0411628257E-001 +2.5888767635E+000  +4.1605246747E-003 +1.0233471262E+002  +5.8292835135E-003 +1.0724692209E+002  +7.2168779956E-001 -1.4947517867E+000 
12523518.148 +7.5902436644E-001 +3.1657988756E+000  +7.4171527092E-003 +8.9991935245E+001  +5.5568928984E-003 +1.0515157409E+002  +7.3805205883E-001 -3.8602193964E-002 
12648663.329 +7.4300013269E-001 +1.1807132677E+000  +5.5057287498E-003 +9.2052617938E+001  +5.5116156461E-003 +8.8799394383E+001  +7.6335207886E-001 -1.4842103451E+000 
12773808.511 +7.5880073087E-001 +2.8992399946E+000  +6.0578557626E-003 +9.1209024131E+001  +5.8555344503E-003 +9.7668248856E+001  +7.4737367779E-001 -1.5934266582E+000 
12898953.692 +7.6742649307E-001 +1.5697773410E+000  +4.5277539508E-003 +1.1630287789E+002  +5.5797450738E-003 +8.8569711674E+001  +7.9229015764E-001 -5.5921224000E-001 
13024098.874 +7.8968543373E-001 -8.3594645182E-001  +6.6866497104E-003 +9.8323648692E+001  +5.4605126390E-003 +8.9379972966E+001  +7.9386894351E-001 -9.3956002547E-001 
13149244.055 +8.0891928446E-001 +7.7626692298E-001  +7.0402175176E-003 +7.9694726269E+001  +8.1326572332E-003 +9.9122493480E+001  +8.1887870044E-001 -1.2776895587E+000 
13274389.237 +8.1514698971E-001 -1.6955896073E+000  +5.5097289346E-003 +8.6096864577E+001  +5.3873473787E-003 +1.0492077105E+002  +8.1037612408E-001 -3.3734077396E+000 
13399534.418 +8.3341653583E-001 -1.0365811125E+000  +8.2953846170E-003 +1.0147864420E+002  +8.2063385023E-003 +1.0700259557E+002  +8.3472192126E-001 -2.7497800083E+000 
13524679.599 +8.6485110972E-001 -1.3630762262E+000  +7.0327459636E-003 +9.7789434897E+001  +6.7763947008E-003 +8.3116332823E+001  +8.7414074170E-001 -2.8475240065E+000 
13649824.781 +8.7129641547E-001 -9.7008266398E-001  +6.7116019313E-003 +9.0072061220E+001  +7.0721202908E-003 +1.0098383260E+002  +8.9108139494E-001 -3.3881989486E+000 
13774969.962 +8.8501598015E-001 -2.6816712914E+000  +6.8827434557E-003 +9.3249725392E+001  +7.8449537897E-003 +1.0247596663E+002  +9.0007339732E-001 -3.2714701199E+000 
13900115.144 +9.0106600273E-001 -2.7553333659E+000  +8.8419220287E-003 +8.8482545453E+001  +6.5677076067E-003 +9.6399932341E+001  +9.1200723825E-001 -2.1302571532E+000 
14025260.325 +9.2294756513E-001 -4.3829912908E+000  +6.6601347648E-003 +9.5678730082E+001  +7.1338786431E-003 +8.9144242013E+001  +9.2886858390E-001 -3.5204099964E+000 
14150405.507 +9.3292289861E-001 -4.6846005591E+000  +7.7711980167E-003 +8.5889060483E+001  +6.0454214675E-003 +1.0089200926E+002  +9.6072095987E-001 -4.0919889493E+000 
14275550.688 +9.4078415939E-001 -4.9500692968E+000  +6.6501524592E-003 +8.3245064429E+001  +7.7124306953E-003 +9.0104986967E+001  +9.8956392082E-001 -4.2875024676E+000 
14400695.870 +9.7176660700E-001 -6.1565138632E+000  +7.4920973614E-003 +1.0041359106E+002  +7.0389885006E-003 +9.5189526157E+001  +1.0020384894E+000 -5.3272446064E+000 
