!  2-Port S-parameters saved by WinCal
! VAR MeasName=S-Parameters (CALIBRATED_DATA) read from VNA (P5004A)
! VAR MeasDate=27/08/2024 15:34:30
! VAR NAME=S2_r6c8_SET1_9k-100M_2
! VAR FILENAME=S2_r6c8_SET1_9k-100M_2.S2P
! VAR DATE=27/08/2024 15:34:30
! VAR PHYS_PORTS=1,2
! VAR ObjTypeName=DATASET
! VAR IndexType=Frequency
!
# Hz S MA R 50
9000.000 +6.7431656407E-002 -1.7195967863E+002  +9.8251686616E-003 +1.2946869361E+002  +1.7378755053E-002 -5.3795870218E+001  +3.0199212665E-001 -1.2722368691E+002 
134145.181 +1.0994053747E-001 +1.6960020899E+002  +3.3881870032E-005 +6.7893003736E+001  +5.0017205903E-004 +1.3032123701E+002  +2.4149308225E-001 -1.7145686594E+002 
259290.363 +1.1263238385E-001 +1.6995749610E+002  +8.8066734497E-004 -1.2306630096E+001  +8.1832710578E-004 +1.3071928977E+002  +2.4008508604E-001 -1.6983994737E+002 
384435.544 +1.1353550281E-001 +1.7046848455E+002  +8.3132094151E-004 +1.1525481330E+002  +5.1424980592E-004 +1.3613290476E+002  +2.5547386704E-001 -1.6876091598E+002 
509580.726 +1.1152418891E-001 +1.7065140987E+002  +3.0347538410E-004 +3.2074584001E+001  +9.0430279667E-004 +1.2648095776E+002  +2.4527917543E-001 -1.6479126561E+002 
634725.907 +1.1607733384E-001 +1.7119258741E+002  +6.7689232433E-004 +1.2547494186E+002  +1.2912471868E-003 -2.0191718877E-001  +2.5082214552E-001 -1.6289733685E+002 
759871.089 +1.1679624803E-001 +1.7002118704E+002  +8.0109266859E-004 +6.9250966798E+001  +5.8806150436E-004 -7.3557407291E+001  +2.4119763808E-001 -1.6509695914E+002 
885016.270 +1.1825724409E-001 +1.7055299444E+002  +1.3476063255E-004 +6.1168405194E+001  +6.7513720130E-004 -1.4259575870E+002  +2.4233401668E-001 -1.6640215721E+002 
1010161.452 +1.1646028714E-001 +1.7164933412E+002  +6.8899156413E-004 +1.6138257318E+002  +2.9148502476E-003 +1.3263399695E+002  +1.6919229315E-001 -1.6247784836E+002 
1135306.633 +1.1786651112E-001 +1.7136862369E+002  +9.1201428870E-004 -9.7986180264E+001  +1.6174428553E-003 -1.0615363423E+002  +1.9640985006E-001 -1.5049826244E+002 
1260451.815 +1.2213108187E-001 +1.6949198274E+002  +2.4838444928E-003 +5.9676914469E+001  +1.2055492862E-003 -2.9602493066E+001  +2.4020636721E-001 -1.5633371870E+002 
1385596.996 +1.2545354846E-001 +1.7158294746E+002  +1.4497872251E-003 -5.9677216397E+001  +3.7895982897E-004 -6.7478898548E+001  +2.6278873710E-001 -1.5859501731E+002 
1510742.178 +1.2737321233E-001 +1.7079765131E+002  +1.5870735568E-003 -7.7371350985E+001  +6.1337573070E-004 -1.6422421725E+001  +2.5183229440E-001 -1.5998333714E+002 
1635887.359 +1.2516380881E-001 +1.7158701027E+002  +3.8616526004E-004 +1.3312372823E+002  +3.8160075616E-004 +9.3238588195E+001  +2.5768583906E-001 -1.5759671203E+002 
1761032.541 +1.2903232384E-001 +1.6845801172E+002  +1.1942570785E-003 +5.9505409611E+001  +2.5466077647E-003 -1.7667438914E+002  +2.2545822695E-001 -1.5324524995E+002 
1886177.722 +1.2854962876E-001 +1.6813860126E+002  +4.6557677357E-004 -3.6094704042E+001  +1.2634229572E-004 +9.6736487466E+001  +2.2207025770E-001 -1.6700735448E+002 
2011322.904 +1.2992637091E-001 +1.6459976732E+002  +2.4329210099E-003 -1.7947052425E+002  +7.5684086375E-004 -8.4644723782E+001  +1.5361195588E-001 -1.6761868027E+002 
2136468.085 +1.2602014031E-001 +1.6746802917E+002  +3.9230819249E-003 +1.1159173918E+002  +7.3522764650E-003 -6.6295367572E+001  +1.0015949912E-001 -1.6258613926E+002 
2261613.267 +1.3313442492E-001 +1.6659515555E+002  +2.9515727772E-003 +7.7810336432E+001  +3.0557264501E-003 +6.9881699531E+000  +2.0792961998E-001 -1.7177091937E+002 
2386758.448 +1.3417366382E-001 +1.6413614274E+002  +1.7264380932E-003 +7.7505386338E+001  +1.9843523194E-003 -1.0031350312E+002  +2.8934597495E-001 +1.5557928273E+002 
2511903.630 +1.3425035573E-001 +1.6071203366E+002  +4.8261069244E-004 -7.4196210641E+001  +3.9059653236E-003 -8.8610168980E+001  +2.0178975816E-001 -1.7929214741E+002 
2637048.811 +1.1777195846E-001 +1.4871073865E+002  +4.3821223041E-003 -1.4589411350E+002  +1.1021286886E-002 +1.7364095322E+002  +6.7357422319E-002 +1.6307412396E+002 
2762193.992 +1.2235633302E-001 +1.4779205666E+002  +2.0659252516E-002 -3.6022326254E+001  +1.1794558494E-001 +1.0972754768E+002  +2.1450915329E+000 -1.2589533092E+002 
2887339.174 +1.1129695548E-001 +1.6865670861E+002  +1.4835211054E-002 -4.1168325948E+001  +2.8618507627E-002 +5.5450659437E+001  +1.1431126569E+000 -1.4374798118E+002 
3012484.355 +1.0130848837E-001 +1.7407132351E+002  +1.0913786942E-002 +6.6031643921E+001  +1.0674604793E-002 -9.7170751173E+001  +2.4200169761E-001 -9.2114375069E+001 
3137629.537 +6.9547750645E-002 +1.7309391302E+002  +3.0982571830E-002 -9.3941696511E+001  +2.6387260693E-002 +1.5068757842E+002  +6.6300549429E-001 -1.0020851989E+002 
3262774.718 +9.9569753011E-002 +1.5511600385E+002  +3.7330455020E-002 -1.0964203872E+000  +4.1420017810E-002 -3.4094427398E+001  +5.5782922821E-001 +7.0538078261E+000 
3387919.900 +1.4209891482E-001 +1.5640185132E+002  +2.3788750140E-002 +2.1942870123E+001  +1.4844694176E-002 -4.6478715188E+001  +6.4817743460E-001 -2.1342636876E+001 
3513065.081 +1.5023364749E-001 +1.4960524574E+002  +1.9700186963E-002 +5.3563044697E+001  +1.5989395879E-002 +6.7512780344E+000  +4.2370586825E-001 -3.2908039678E+001 
3638210.263 +1.8904260343E-001 +1.4727835196E+002  +2.7800792670E-002 +8.5708825270E+001  +1.1429236595E-002 +1.1041658651E+002  +8.2591126509E-001 +5.4209974776E+001 
3763355.444 +2.0303286617E-001 +1.4495382100E+002  +6.4324024822E-003 +1.3294518107E+002  +1.1843647734E-002 +2.5443166913E+001  +1.1712494862E+000 +6.4551996640E+000 
3888500.626 +1.5678636075E-001 +1.4772512335E+002  +2.6392681985E-002 +5.3223553451E+001  +4.1851912292E-003 -7.3133008632E+001  +6.0575345838E-001 +5.9119144729E+001 
4013645.807 +2.1183515213E-001 +1.4076459901E+002  +1.2759952623E-002 -1.5308022520E+002  +1.7512062783E-002 +5.2735990905E+001  +6.7516006000E-001 +1.2087302000E+002 
4138790.989 +1.7237455859E-001 +1.3881994615E+002  +1.1718189617E-002 -1.4514706424E+001  +5.5951922351E-003 +5.4165725228E+001  +5.0213723218E-001 +1.2232512312E+002 
4263936.170 +1.8367264431E-001 +1.3828247186E+002  +1.4959569199E-002 +1.4475900339E+001  +2.5336958220E-002 +7.1104935771E+001  +6.8039349170E-001 +1.2357139496E+002 
4389081.352 +1.9000177843E-001 +1.2599488325E+002  +1.1764503914E-002 +7.3456949105E+001  +1.7375582001E-002 +1.4396748162E+002  +1.3505310938E+000 +8.5970248909E+001 
4514226.533 +2.4427425293E-001 +1.3999506982E+002  +1.7936980630E-002 +1.2700393162E+002  +1.0649819475E-002 +2.8492168606E+001  +4.9966453702E-001 +8.0775411908E+001 
4639371.715 +2.1981909034E-001 +1.2225983691E+002  +4.1038345747E-002 +1.3641191970E+002  +2.7342817605E-002 +1.2098878048E+002  +2.3452726269E+000 +1.1920001174E+002 
4764516.896 +3.1662166630E-001 +1.1258610132E+002  +1.3782630236E-001 +1.2616238443E+002  +5.3272277348E-002 +5.8242609530E+001  +3.8757152439E+000 +1.0647720662E+002 
4889662.078 +4.9466385657E-001 +1.3322409530E+002  +7.0455898256E-002 -5.5064367515E+001  +4.5615473442E-002 -6.2875553227E+001  +1.9470149902E+000 -1.1741873681E+002 
5014807.259 +4.2310939685E-001 +1.3218780631E+002  +1.9106438582E-001 -3.2576957064E+001  +1.4172643451E-001 -1.1411563577E+002  +7.8718500941E+000 -1.3464753536E+002 
5139952.441 +5.1407497233E-001 +1.2374820539E+002  +2.3986554576E-002 +8.2338217771E+001  +8.4227284259E-002 +1.1226125972E+002  +2.4211653749E+000 +9.0353807835E+001 
5265097.622 +3.8484019077E-001 +1.3449416374E+002  +1.2348545189E-001 +1.1824188757E+002  +9.3876610179E-002 +1.0548897807E+002  +6.6050448931E+000 +5.3240274021E+001 
5390242.804 +4.1831355755E-001 +1.2979758248E+002  +4.7428000961E-002 +1.1118957142E+002  +5.8478137886E-002 +1.0876956305E+002  +3.6144413836E+000 +9.0830861551E+001 
5515387.985 +4.9858292166E-001 +1.1891501835E+002  +1.0845996119E-001 +1.5597225033E+002  +8.3040718598E-002 +1.2549090116E+002  +2.9094912781E+000 +9.8128829156E+001 
5640533.166 +4.1502210444E-001 +1.2085251244E+002  +4.9548777438E-002 +1.1819325879E+002  +2.5941246935E-002 +7.1488266903E+001  +2.2070082580E+000 +1.1461664184E+002 
5765678.348 +5.0710763586E-001 +1.1417198372E+002  +7.9248635360E-002 +9.0221920885E+001  +3.9524667819E-002 +1.6904483807E+002  +2.9685232792E+000 +7.7701424523E+001 
5890823.529 +6.1942136150E-001 +1.2347243869E+002  +4.9506983797E-002 +8.0531575140E+001  +5.4192653006E-002 +4.2275820707E+001  +3.0837174859E+000 +7.4554927897E+001 
6015968.711 +6.9002751384E-001 +9.4143672266E+001  +1.9181828539E-002 +6.7492710871E+000  +5.8720676191E-002 +5.8160439630E+001  +2.2619573149E+000 +6.6277874482E+001 
6141113.892 +7.5354157365E-001 +1.1706859338E+002  +4.5064478545E-002 +5.4804673425E+001  +3.9108507149E-002 +4.1110371368E+001  +1.9160622148E+000 +1.8078755147E+001 
6266259.074 +8.5413985355E-001 +1.0755470620E+002  +2.6511961343E-002 +6.3373185018E+001  +2.9649801136E-002 +5.2156399299E+001  +1.6622714873E+000 +1.3312626212E+001 
6391404.255 +9.9196841319E-001 +8.9816520297E+001  +4.2232672962E-002 +4.0155592470E+001  +2.8041995515E-002 +2.4376002155E+001  +1.4088419999E+000 +1.9724421862E+001 
6516549.437 +1.3369455022E+000 +9.7551912855E+001  +5.0913720862E-002 +8.5320773091E+001  +3.2312309664E-002 +5.1176297926E+001  +1.6071426792E+000 +1.4393177385E+001 
6641694.618 +1.4675632643E+000 +7.7849204784E+001  +4.8719977748E-002 +3.7083922576E+001  +4.3671608196E-002 +3.2231842619E+001  +1.2356726118E+000 +2.9923329097E+000 
6766839.800 +1.5175224128E+000 +4.0593804846E+001  +3.8389540081E-002 -1.0874188850E+001  +6.3491669678E-002 +1.0765455463E+001  +1.5884810992E+000 -9.9202087088E+000 
6891984.981 +2.2679495772E+000 +2.3112085059E+001  +3.4068083922E-002 -1.7134614938E+001  +5.0375839819E-002 -2.0878990087E+001  +1.3676417827E+000 -1.0589289771E+001 
7017130.163 +1.5594454394E+000 +1.7922302048E+001  +4.7101791963E-002 -8.4006563580E-001  +4.6414919691E-002 -2.3025578663E+001  +1.4290129283E+000 -9.0072730213E+000 
7142275.344 +1.6687939727E+000 +2.8810835327E+000  +2.5936765514E-002 +1.9711533508E+001  +3.6187958271E-002 -7.5634632783E+000  +1.3483614227E+000 -8.7267570876E+000 
7267420.526 +1.5064863073E+000 -5.6045607061E+000  +2.9139174931E-002 -2.2085227059E+000  +1.9389854542E-002 +7.0064308300E+000  +1.4845814852E+000 -1.2627068078E+001 
7392565.707 +1.4026369236E+000 -5.9070754514E-001  +2.0786499745E-002 +2.8176611256E+001  +2.4654089021E-002 +2.9457689389E+001  +1.2632402478E+000 -9.4288818819E+000 
7517710.889 +1.1520444661E+000 -1.3142838134E-001  +2.0344468910E-002 +1.1304202978E+001  +1.9020432089E-002 +4.4658215351E+001  +1.1264700950E+000 -7.7288025025E+000 
7642856.070 +1.0926450357E+000 -9.0243596892E-001  +1.5062901882E-002 +4.6088463880E+001  +1.2966292998E-002 +9.4817069944E+000  +1.0105359999E+000 +7.0481465388E-001 
7768001.252 +9.9685827527E-001 -6.3111976914E-001  +1.6839660878E-002 +3.9348142714E+000  +1.6489009554E-002 +3.9532576876E+001  +9.9407518345E-001 -9.8445403000E+000 
7893146.433 +8.3719818145E-001 +5.0972048708E+000  +1.1738461305E-002 +9.8244038479E+000  +1.7332050433E-002 +2.6316593006E+001  +9.6808902433E-001 -1.5530744280E-001 
8018291.615 +7.3520793928E-001 +9.4470794657E+000  +1.1222495399E-002 +3.1504034990E+001  +2.0403561373E-002 +2.0255207548E+001  +8.8132459002E-001 -5.7050624841E+000 
8143436.796 +7.3700822824E-001 +6.4992869091E+000  +1.2731656674E-002 +1.8949242539E+001  +8.4714379032E-003 +3.3687496809E+001  +8.8392416039E-001 -5.8213542107E+000 
8268581.977 +7.6411104741E-001 +6.6897321103E+000  +1.1503331248E-002 +2.1781416610E+001  +1.2126418129E-002 +1.5141331641E+000  +7.4642356200E-001 -4.6874547755E+000 
8393727.159 +7.0696081136E-001 +1.6694066835E+000  +1.2517373927E-002 +3.1295177343E+001  +1.4106279933E-002 +2.0626263813E+001  +6.8438137182E-001 +1.3683115001E+000 
8518872.340 +6.0084021629E-001 +9.7051233500E-001  +8.3083281896E-003 +1.8799273414E+001  +7.3030880734E-003 +1.6307119466E+001  +6.6314502037E-001 +1.8530553683E+000 
8644017.522 +6.7178760840E-001 +2.9815533940E+000  +1.6806543258E-002 +7.8023151256E+000  +1.5004591361E-002 +2.8865588135E+001  +6.6516199399E-001 -1.5020273351E+000 
8769162.703 +6.6180823039E-001 +3.1189162188E+000  +1.7903385369E-002 +2.1913402245E+001  +1.5933274032E-002 +6.1224929170E+000  +6.4207559631E-001 +2.2366783630E+000 
8894307.885 +6.0853269169E-001 +4.1313655222E+000  +1.3940862254E-002 +1.7280068832E+001  +1.4561157147E-002 +1.6799100367E+001  +6.6975603084E-001 +9.7220913916E-001 
9019453.066 +5.6693161727E-001 +1.0057339914E+001  +1.1746412541E-002 +9.0887804972E+000  +1.0291234538E-002 +2.8779950995E+001  +6.4448283590E-001 -2.1636633211E+000 
9144598.248 +5.1638751540E-001 +4.1564063798E+000  +1.1427114074E-002 +9.7455449579E+000  +1.1243230293E-002 +1.4759548910E+001  +5.6137161798E-001 -4.4230122862E+000 
9269743.429 +5.4658856508E-001 +8.2230630175E-001  +1.5871946157E-002 +2.1284481779E+001  +7.2540893375E-003 +3.5990939289E+000  +6.1898377035E-001 -1.9543967007E-001 
9394888.611 +5.3674714318E-001 +3.2436589848E+000  +1.2486788834E-002 +6.0174102580E-001  +1.0991547901E-002 +2.4741692004E+001  +5.9968416238E-001 -6.5375695435E+000 
9520033.792 +5.1283478933E-001 -5.0160793553E-003  +1.2333125178E-002 +1.5008421838E+001  +1.3523334102E-002 +3.2376009409E+001  +5.6771183865E-001 -4.3178221415E+000 
9645178.974 +5.6729186899E-001 +3.1165276348E+000  +1.3840702910E-002 +5.1101605755E+000  +1.0590546300E-002 +3.4248501900E+001  +5.5351192466E-001 -3.0563040528E-001 
9770324.155 +5.5575448712E-001 -3.6680651155E-001  +1.4411662919E-002 +2.4019206105E+001  +1.2122923937E-002 +2.0181417277E+001  +5.6046789223E-001 -2.1258996389E+000 
9895469.337 +5.3446276516E-001 -2.3800577691E+000  +1.2918358565E-002 +1.5045125279E+001  +1.3129992527E-002 +2.7264953285E+001  +5.6975922524E-001 -3.8177649952E+000 
10020614.518 +5.1189978811E-001 -2.0219743672E+000  +1.5728009835E-002 +3.6088347847E+000  +1.3711963109E-002 +3.1912068583E+001  +5.7205884399E-001 -7.1721870255E+000 
10145759.700 +5.5825346080E-001 +5.2722231198E+000  +1.0697933992E-002 +8.8250275713E+000  +1.3996632205E-002 +4.3151394205E+001  +5.7570181406E-001 -3.6778096185E+000 
10270904.881 +5.1538389007E-001 +2.6216261475E+000  +1.2532508564E-002 +1.1224771022E+001  +1.3272973370E-002 +3.0297518828E+001  +6.0225117776E-001 -1.3003485793E+000 
10396050.063 +5.4410186264E-001 +4.8570799050E+000  +1.0282555158E-002 +6.6844129481E+000  +1.1681817105E-002 +2.5190686278E+001  +5.2974693492E-001 -1.5887813480E+000 
10521195.244 +5.1793987285E-001 +5.2463716868E+000  +1.0951773320E-002 +4.4030005714E+000  +1.3839285952E-002 +2.9201984212E+001  +5.7374254304E-001 -2.1471979076E+000 
10646340.426 +5.6880279450E-001 +3.3866256618E+000  +1.1567179238E-002 +2.9732031961E+001  +1.1889639492E-002 +2.2078196211E+001  +5.8388023931E-001 -3.7634931597E+000 
10771485.607 +5.3714974165E-001 +6.8111201017E+000  +1.3348962439E-002 +8.1937344682E+000  +1.3746052741E-002 +2.8916085229E+001  +5.8798652450E-001 +1.0972639503E+000 
10896630.788 +5.2276363318E-001 +4.7549728112E+000  +1.3685424897E-002 +1.6156929322E+001  +1.3441269013E-002 +2.4369671119E+001  +6.2229169788E-001 +8.5713446179E-001 
11021775.970 +5.6322562682E-001 +8.0530430951E+000  +1.2168922223E-002 +1.4616963684E+001  +1.4344953014E-002 +3.3456434048E+001  +5.9226598058E-001 +2.6367647167E+000 
11146921.151 +5.8859354948E-001 +6.0296262394E+000  +1.5257806387E-002 +1.5910679413E+001  +1.1345904158E-002 +3.0047182452E+001  +5.7894592603E-001 +2.8150231962E+000 
11272066.333 +6.2243652162E-001 +6.9064678642E+000  +1.1928601369E-002 +1.3140540402E+001  +1.3302783689E-002 +4.2092384663E+001  +5.9891127271E-001 -5.0661314671E-001 
11397211.514 +5.9854871906E-001 +5.3813232908E+000  +1.3161023418E-002 +1.9984857207E+001  +1.2287061710E-002 +2.0724062913E+001  +6.3016784688E-001 +1.7435980132E+000 
11522356.696 +6.1906257478E-001 +3.7054534145E+000  +1.5209179751E-002 +1.5807466316E+001  +1.6077909289E-002 +3.2934179153E+001  +6.1263490820E-001 +3.6953554542E+000 
11647501.877 +6.1811374542E-001 +6.7033093194E+000  +1.3773973502E-002 +1.9596882046E+001  +1.6471810125E-002 +3.7636010648E+001  +6.2510129038E-001 +1.5823848190E+000 
11772647.059 +6.1702917105E-001 +5.2089598127E+000  +1.6551388698E-002 +2.0619605398E+001  +1.4186015815E-002 +2.5704301595E+001  +6.3457710265E-001 +1.0658612950E+000 
11897792.240 +6.5214558197E-001 +4.3600174668E+000  +1.5907936410E-002 +1.2785826284E+001  +1.5162050138E-002 +2.4117323992E+001  +6.4816542005E-001 -3.6905751117E-002 
12022937.422 +6.7366259844E-001 +5.3130831424E+000  +1.3094876941E-002 +2.3264855240E+001  +1.5067635662E-002 +3.4807062559E+001  +6.6000451081E-001 +1.2862756167E+000 
12148082.603 +6.5775367760E-001 +2.4556107613E+000  +1.4407347416E-002 +2.3453084863E+001  +1.3853890759E-002 +3.0738944974E+001  +6.7865389418E-001 -1.4998655094E+000 
12273227.785 +6.6032782783E-001 +4.8967875219E-001  +1.4657851963E-002 +2.2412374667E+001  +1.4875429871E-002 +3.1220030670E+001  +6.8443906759E-001 +1.6584462710E+000 
12398372.966 +6.9317378963E-001 +3.7320805795E+000  +1.4789695363E-002 +3.3348386961E+001  +1.5329164774E-002 +3.0893704876E+001  +7.0078293539E-001 +2.4196596386E+000 
12523518.148 +6.9632743272E-001 +4.0779804083E+000  +1.3267215254E-002 +3.1195397381E+001  +1.3555096783E-002 +2.7313973581E+001  +7.1269313028E-001 -1.4497749787E+000 
12648663.329 +7.1540872111E-001 +1.9893028132E+000  +1.4036457038E-002 +2.1897959900E+001  +1.3891704373E-002 +2.8368225046E+001  +7.4909239844E-001 -1.0499158047E+000 
12773808.511 +7.4803451674E-001 +7.1040727607E-001  +1.6440752457E-002 +2.8952302960E+001  +1.5551659960E-002 +3.0611989004E+001  +7.6202691585E-001 -1.9822096483E+000 
12898953.692 +7.6333641755E-001 +1.5937120231E+000  +1.6855196953E-002 +2.1949676941E+001  +1.3676169677E-002 +3.9660608210E+001  +7.5646702362E-001 -1.6010444692E+000 
13024098.874 +7.6502738069E-001 -6.1800033525E-001  +1.5836873955E-002 +2.0420763752E+001  +1.5262146856E-002 +2.5516963945E+001  +7.7874873239E-001 -2.6745253514E+000 
13149244.055 +7.9000217364E-001 +7.6943209302E-001  +1.5154173846E-002 +2.5495444951E+001  +1.5547783854E-002 +2.5398452613E+001  +8.0689021059E-001 -1.1290656583E+000 
13274389.237 +8.2170000222E-001 -3.1881861606E-001  +1.6068003244E-002 +2.4814566716E+001  +1.5705194994E-002 +3.0858088551E+001  +7.8007437013E-001 -2.1414744414E+000 
13399534.418 +8.1545195241E-001 -1.1952051628E+000  +1.8110383795E-002 +2.6305601643E+001  +1.4967669104E-002 +2.8235627474E+001  +8.1851997879E-001 -2.6815770213E+000 
13524679.599 +8.3477793961E-001 -1.1191839373E+000  +1.6277205049E-002 +2.1539651003E+001  +1.6536873448E-002 +2.6664541549E+001  +8.2920872419E-001 -2.7971387402E+000 
13649824.781 +8.3953677083E-001 -9.7223131259E-001  +1.7010252410E-002 +2.0748678359E+001  +1.5752323453E-002 +1.9286505836E+001  +8.6475698058E-001 -2.7894571441E+000 
13774969.962 +8.5983674199E-001 -3.2583626517E+000  +1.7720615222E-002 +2.9227693148E+001  +1.6571357324E-002 +3.6278502186E+001  +8.8741516784E-001 -2.0652488854E+000 
13900115.144 +8.9962884662E-001 -2.8255427379E+000  +1.5713447461E-002 +2.4156039934E+001  +1.5522871931E-002 +2.7609321615E+001  +8.7990188089E-001 -3.4912309211E+000 
14025260.325 +9.0186710038E-001 -4.1987065321E+000  +1.6660720535E-002 +2.6624070466E+001  +1.7143033788E-002 +2.5287843996E+001  +9.0873257191E-001 -3.6502327062E+000 
14150405.507 +9.2066726194E-001 -4.9093759468E+000  +1.7139951099E-002 +2.7034276000E+001  +1.7826062397E-002 +3.0626693782E+001  +9.3242610500E-001 -2.4024606471E+000 
14275550.688 +9.3302128343E-001 -5.2686495375E+000  +1.7602218964E-002 +1.9784414354E+001  +1.8454087083E-002 +2.5465037020E+001  +9.4022260759E-001 -4.8217422724E+000 
14400695.870 +9.5460923036E-001 -5.9495690112E+000  +1.6714490331E-002 +2.8054103448E+001  +1.5930312828E-002 +2.6686728277E+001  +9.6979918479E-001 -4.3187937212E+000 
