!  2-Port S-parameters saved by WinCal
! VAR MeasName=S-Parameters (CALIBRATED_DATA) read from VNA (P5004A)
! VAR MeasDate=27/08/2024 16:50:10
! VAR NAME=S2_r2c9_SET3_9k-100M_1
! VAR FILENAME=S2_r2c9_SET3_9k-100M_1.S2P
! VAR DATE=27/08/2024 16:50:10
! VAR PHYS_PORTS=1,2
! VAR ObjTypeName=DATASET
! VAR IndexType=Frequency
!
# Hz S MA R 50
9000.000 +6.3093749264E-002 -1.5326867891E+002  +1.1968030003E-002 +2.6731552535E+001  +7.6320385960E-003 -1.7391847756E+001  +2.3092778483E-001 -1.4456749482E+002 
134145.181 +1.1086187436E-001 +1.6911065031E+002  +2.0650367726E-004 +4.1504388798E+001  +1.6804101909E-004 +1.5307595781E+002  +2.3883101424E-001 -1.7123018668E+002 
259290.363 +1.1020246315E-001 +1.6969757779E+002  +1.0406703317E-003 -1.6198652129E+002  +6.9570661697E-004 -4.9511101608E+001  +2.3867891659E-001 -1.6813889894E+002 
384435.544 +1.1525617963E-001 +1.7022313247E+002  +6.1465705991E-004 -1.0288280484E+002  +4.8239281073E-004 +9.6771089469E+001  +2.3614486014E-001 -1.6786986922E+002 
509580.726 +1.1448496843E-001 +1.7030869868E+002  +1.0742903740E-003 -1.1140951554E+002  +4.7834208174E-004 +1.0366737962E+002  +2.4027073895E-001 -1.6690904713E+002 
634725.907 +1.1552086444E-001 +1.7151718026E+002  +8.4215071052E-004 -1.4268762192E+002  +8.9405811503E-004 +7.5626933117E+001  +2.3895591374E-001 -1.6490842416E+002 
759871.089 +1.1653533580E-001 +1.7170630223E+002  +1.3574606598E-003 +1.3785438128E+002  +3.2474988472E-004 +1.4562272522E+002  +2.3659549219E-001 -1.6184603691E+002 
885016.270 +1.1991427531E-001 +1.6944364201E+002  +6.7531033838E-004 -1.2222501299E+002  +8.2481612077E-004 +5.5092091170E+001  +2.3471657889E-001 -1.6520502049E+002 
1010161.452 +1.1773072351E-001 +1.7143628784E+002  +2.7561093716E-003 -9.8344616208E+001  +1.3448901980E-003 +1.6496473760E+002  +2.0071843416E-001 -1.7370410030E+002 
1135306.633 +1.1066932445E-001 +1.6891879852E+002  +3.2136028737E-003 -4.8974652018E+000  +6.5651538161E-003 -1.0180925860E+002  +1.7602335550E-001 -1.7497715532E+002 
1260451.815 +1.1983786788E-001 +1.7230870299E+002  +2.6148851529E-003 -9.6803619506E+000  +8.6254858325E-004 -1.7355496387E+002  +2.3147212390E-001 -1.5838369337E+002 
1385596.996 +1.2146016480E-001 +1.7182711641E+002  +9.0942063560E-004 -9.7405751171E+001  +1.5820528964E-003 +1.0120439657E+002  +2.7197105886E-001 -1.6125907383E+002 
1510742.178 +1.2944856729E-001 +1.7064149463E+002  +1.6620888025E-003 -6.2714902407E+001  +1.1896748373E-003 -1.7715980964E+002  +2.3414795895E-001 -1.5453933792E+002 
1635887.359 +1.2639166574E-001 +1.7048505004E+002  +1.1739840642E-003 +3.0440445829E-001  +1.8194067095E-003 +9.9567686206E+001  +2.3791229538E-001 -1.5575167277E+002 
1761032.541 +1.2781020853E-001 +1.6958908358E+002  +2.7116307496E-004 -5.7395015268E+001  +2.5210193316E-003 -1.3377732364E+002  +2.3708630688E-001 -1.5370163795E+002 
1886177.722 +1.3234531768E-001 +1.6726876023E+002  +1.0617934786E-003 +3.4360193730E+001  +1.4551160891E-003 -7.0618417308E+001  +2.0670010824E-001 -1.5876336325E+002 
2011322.904 +1.2907188763E-001 +1.6684042086E+002  +2.0002881595E-003 +1.3106627166E+001  +4.5812252346E-003 -5.6367077566E+001  +1.8103258816E-001 -1.7246766320E+002 
2136468.085 +1.2316363074E-001 +1.6504748936E+002  +8.2408101461E-003 +7.9156297311E+001  +1.6683962962E-003 -4.2847076973E+001  +1.9491248498E-001 -1.7595098399E+002 
2261613.267 +1.3391422299E-001 +1.6257596877E+002  +7.1436042650E-003 +9.6042227964E+001  +5.3996650247E-003 -6.3504911381E+001  +1.8586834587E-001 +1.7110968519E+002 
2386758.448 +1.3476929188E-001 +1.6562300902E+002  +6.8000083366E-003 +4.3237001501E+001  +8.8253578812E-003 -3.4511102632E+001  +1.2583697086E-001 +1.7493701004E+002 
2511903.630 +1.2483998522E-001 +1.6498329332E+002  +2.0763847938E-002 +1.3203160178E+002  +1.5480164449E-002 -4.4494299783E+001  +2.3431280410E-001 +1.2938712140E+002 
2637048.811 +1.1949312250E-001 +1.5920419159E+002  +1.9865802959E-002 +5.6031909093E+001  +2.9735460781E-002 -5.4097178735E+001  +7.6433094509E-002 +1.0691349782E+002 
2762193.992 +1.0837304683E-001 +1.4109972911E+002  +5.9242057861E-002 +1.6513086091E+002  +8.6737412482E-002 +4.0924935828E+001  +7.7036864136E-001 +1.5306943575E+002 
2887339.174 +1.2465715500E-001 +1.7670078981E+002  +2.3249018727E-002 -1.3105146279E+001  +3.3847921201E-002 -1.3983015303E+002  +2.1019435305E-001 -5.6298190455E+001 
3012484.355 +1.1308376350E-001 +1.7669618823E+002  +2.1334918229E-002 -3.2824263199E+001  +1.9894352211E-002 -9.9147014676E+001  +1.7788270831E-001 -1.0180982536E+002 
3137629.537 +1.2799862122E-001 +1.5768454752E+002  +3.0120629062E-002 +2.8574074051E+001  +3.0258809114E-002 -4.8864203150E+001  +7.0105409058E-002 +2.7724496616E+001 
3262774.718 +7.7178836721E-002 +1.6126289896E+002  +4.5110488114E-002 -1.2651441057E+001  +9.5103339616E-002 -9.5321137545E+001  +3.4825856585E-001 -1.8617423248E+001 
3387919.900 +1.1091949160E-001 +1.5377149844E+002  +4.5279958696E-002 +1.8889556729E+001  +2.8536940292E-002 -4.6180859222E+001  +1.6828136148E-001 +3.6682370159E+000 
3513065.081 +1.6172387729E-001 +1.4803830939E+002  +3.3583398640E-002 +1.1544079849E+002  +2.3779749295E-002 +2.8931958448E+001  +4.0463771146E-001 +1.4272895401E+002 
3638210.263 +2.2174225183E-001 +1.4066187584E+002  +3.2341824016E-002 -1.3397452126E+002  +4.2852030589E-002 +8.9131871053E+001  +9.0605400802E-001 +1.6970117563E+002 
3763355.444 +1.8376361610E-001 +1.4942150220E+002  +2.3002302900E-002 +8.7637415468E+001  +2.5600650925E-002 +8.3467006392E+000  +2.3371875670E-001 +1.1344266479E+002 
3888500.626 +1.6866966682E-001 +1.4974213820E+002  +1.6035190901E-002 +7.3662356231E+001  +1.9451160581E-002 +3.4555997315E+001  +3.8398666172E-001 +1.5561266183E+002 
4013645.807 +1.7970396517E-001 +1.5284298501E+002  +2.3636895925E-002 +6.6862446564E+001  +2.2169212580E-002 -2.5277736383E+001  +2.2460165603E-001 +1.3131613251E+002 
4138790.989 +1.5399784336E-001 +1.4442060861E+002  +4.4390794767E-002 +6.2234517472E+001  +3.9722430033E-002 -2.8045890796E+001  +2.1950372074E-001 +7.6947697730E+001 
4263936.170 +1.9088286342E-001 +1.4635140248E+002  +4.3472643023E-002 +9.6490576672E+001  +3.5315661495E-002 +1.5056881246E+001  +5.2953362441E-001 +1.0781290123E+002 
4389081.352 +2.3889552028E-001 +1.2463146230E+002  +1.6339089278E-001 +1.0717868460E+002  +1.3335669155E-001 +6.3641437660E+001  +1.6133973488E+000 +9.7579378825E+001 
4514226.533 +2.0742157081E-001 +1.4089528192E+002  +7.7675787568E-002 +9.9021437119E+001  +9.5035972915E-002 +4.2356003988E+001  +1.5588916731E+000 +1.1377325056E+002 
4639371.715 +2.6712012921E-001 +1.3004775172E+002  +1.2087426418E-001 +1.2329767718E+002  +1.2952349603E-001 +6.0568116774E+001  +1.6033767824E+000 +1.0186764709E+002 
4764516.896 +2.8999832950E-001 +1.2975234516E+002  +2.6941471496E-001 +9.1547650802E+001  +2.6033872092E-001 +3.4928670896E+001  +3.3297493570E+000 +6.8787937751E+001 
4889662.078 +4.0473861322E-001 +1.3150308526E+002  +3.4270110347E-001 -1.2028880949E+002  +4.2196239052E-001 -1.6487975084E+002  +4.2811735233E+000 -1.6500756084E+002 
5014807.259 +3.7728498336E-001 +1.1851671256E+002  +2.8119016596E-001 +5.0078378006E+001  +3.7649182760E-001 -4.6465852615E-001  +3.4470356662E+000 -4.1351865479E+000 
5139952.441 +4.2344750366E-001 +1.3195868006E+002  +1.9248216810E-001 +8.4661414278E+001  +2.7995687612E-001 +4.9843615205E+001  +2.9905887894E+000 +3.5854883685E+001 
5265097.622 +4.4044699334E-001 +1.3258529575E+002  +2.7872376302E-001 +9.6262533430E+001  +2.7402559557E-001 +6.3539822306E+001  +3.8548801679E+000 +5.2240395731E+001 
5390242.804 +3.5478030792E-001 +1.2833190090E+002  +1.3231076542E-001 +1.0728426365E+002  +1.0470223687E-001 +5.9548239361E+001  +1.8817665901E+000 +9.1557550157E+001 
5515387.985 +4.2855005351E-001 +1.3002612904E+002  +9.1961092604E-002 +1.1321226195E+002  +8.5082033385E-002 +6.6718942123E+001  +1.1070126013E+000 +9.2551005515E+001 
5640533.166 +4.5862018624E-001 +1.3250779283E+002  +1.3982005839E-001 +9.6327148534E+001  +1.0160184671E-001 +7.2497460376E+001  +1.7473804008E+000 +8.6878133382E+001 
5765678.348 +4.7003727427E-001 +1.2186524115E+002  +1.1248635877E-001 +1.0277132483E+002  +1.3152730230E-001 +7.4684542796E+001  +1.7281072782E+000 +9.9250134691E+001 
5890823.529 +5.3302083907E-001 +1.2752175602E+002  +1.6889562284E-001 +9.2305327136E+001  +1.5536531715E-001 +7.1623198224E+001  +2.7168980629E+000 +7.7187229963E+001 
6015968.711 +6.0776986447E-001 +1.1979856523E+002  +1.6976648388E-001 +7.0169836218E+001  +1.6172882822E-001 +4.6552883171E+001  +1.9761350969E+000 +4.3102178254E+001 
6141113.892 +7.2958406127E-001 +1.0588271887E+002  +1.4574408857E-001 +7.4710498777E+001  +1.5945424170E-001 +5.5367162955E+001  +1.5229560018E+000 +5.9271521644E+001 
6266259.074 +6.9440766125E-001 +1.0738178102E+002  +1.4445147411E-001 +5.2591739640E+001  +1.3490817562E-001 +2.6117854224E+001  +1.5304395908E+000 +3.2061360145E+001 
6391404.255 +1.4378208301E+000 +9.7294787901E+001  +2.0668778813E-001 +6.6712592898E+001  +1.9765378224E-001 +4.5907196990E+001  +1.3375124220E+000 +1.9450120769E+001 
6516549.437 +1.0948930878E+000 +7.8553227645E+001  +1.8930584891E-001 +3.5384616053E+001  +1.7316906793E-001 +2.1215648455E+001  +1.2428127654E+000 +5.8681827945E+000 
6641694.618 +1.4908769721E+000 +6.1220809073E+001  +2.3489891814E-001 +2.9601477391E+001  +2.4764608604E-001 +1.6176138931E+001  +1.4018945838E+000 +1.2034331626E+001 
6766839.800 +1.3882526807E+000 +4.6371948689E+001  +1.7265123872E-001 +1.3037714771E+001  +2.0939616821E-001 +4.1642794800E+000  +1.3116356183E+000 -2.1218413614E+000 
6891984.981 +1.5621039171E+000 +3.7759206799E+001  +1.7265936521E-001 +1.1718082079E+001  +1.6219856358E-001 -5.3143891750E+000  +1.2781904498E+000 -6.7040158835E+000 
7017130.163 +1.7708803366E+000 +2.1928920895E+001  +1.6726526040E-001 +4.8599562868E+000  +1.6836553665E-001 -1.4924410721E+000  +1.2962086310E+000 -1.3915764345E+001 
7142275.344 +1.6733061713E+000 +7.3705011434E+000  +1.4592574280E-001 +2.5113948513E+000  +1.4402397652E-001 -4.5078964288E+000  +1.2043913210E+000 -1.3467734456E+001 
7267420.526 +1.3774396095E+000 +5.4747947043E+000  +1.0721173950E-001 -1.8655640271E+000  +1.2334686231E-001 +2.9402949048E+000  +1.2680960812E+000 -1.2831922559E+001 
7392565.707 +1.3159940201E+000 -4.4083971263E+000  +1.0229851541E-001 +7.8416336005E+000  +9.0793513558E-002 +4.3997949048E+000  +1.2652861071E+000 -2.0668489247E+000 
7517710.889 +1.0685579856E+000 +2.0628624741E+000  +8.7121795802E-002 +5.3532644435E+000  +8.9396469334E-002 +8.9739379093E+000  +1.1495408321E+000 -3.9691700153E+000 
7642856.070 +8.7056876497E-001 -2.5640053604E+000  +9.2231624815E-002 +6.5596000249E+000  +8.6375273448E-002 +6.7080717389E+000  +1.0382491554E+000 -8.3236363577E+000 
7768001.252 +9.3232449789E-001 -5.6205097865E+000  +8.6064602450E-002 +3.1822732880E+000  +7.7093215028E-002 +1.1066851833E+001  +9.0598459252E-001 +1.6907142363E+000 
7893146.433 +8.6033093451E-001 +6.5141285088E+000  +7.4919344025E-002 +2.0464193459E-001  +7.5864560564E-002 +2.3811523772E+000  +7.9056591580E-001 -1.5579689437E+000 
8018291.615 +7.2633636751E-001 +8.0730059398E+000  +7.6366790134E-002 -2.2692618007E+000  +7.3003624043E-002 +6.0345844481E+000  +7.7541048255E-001 -6.7351122697E+000 
8143436.796 +7.7202515245E-001 +2.7634782068E+000  +6.6711410443E-002 -4.6182745636E+000  +6.7741062265E-002 +7.3781090628E+000  +6.9547762173E-001 +1.0969209355E+000 
8268581.977 +6.4501510902E-001 +6.6097497528E+000  +7.0840571413E-002 -1.9914331667E+000  +7.0297302125E-002 +1.1669337940E+001  +6.9651093769E-001 +2.7191946703E+000 
8393727.159 +6.0024497833E-001 +7.1599976911E+000  +6.1914635907E-002 -2.4446076597E+000  +7.1488917412E-002 +8.2702955642E+000  +7.0093085126E-001 -3.6162021537E+000 
8518872.340 +5.8850032354E-001 +8.0548867811E+000  +6.8376342351E-002 -1.2354241918E+000  +6.7004990813E-002 +1.7394078808E+001  +7.3760129845E-001 -6.4095189965E-001 
8644017.522 +5.9439703520E-001 +8.7874480864E+000  +6.6345551734E-002 -1.0933366454E+000  +6.2664536040E-002 +1.0034809751E+001  +6.3266714903E-001 +4.5556443869E+000 
8769162.703 +5.7857798950E-001 +4.2376884120E+000  +6.3050961576E-002 -4.9499605360E-001  +6.1852162319E-002 +1.1781136293E+001  +6.3533429854E-001 +1.1261240973E+000 
8894307.885 +5.6393158441E-001 +1.0030019994E+001  +6.8880845733E-002 +7.9931102414E-001  +5.8822914103E-002 +7.9382075381E+000  +5.6192557173E-001 +8.9598248684E-001 
9019453.066 +4.8257316099E-001 +5.7197311804E+000  +6.4336114828E-002 -2.2095565943E+000  +6.2579322301E-002 +1.0545836998E+001  +5.7272760016E-001 +1.5446588180E+000 
9144598.248 +4.8716893030E-001 +1.0521867822E+001  +6.1661487713E-002 -3.5533755398E+000  +6.2668118397E-002 +1.0617159224E+001  +5.3796762409E-001 +2.3681119674E+000 
9269743.429 +5.3676498674E-001 +9.0777729458E+000  +6.5435011979E-002 -1.1964071170E+000  +6.1935815310E-002 +1.4206310288E+001  +5.6391486524E-001 -2.8481171793E+000 
9394888.611 +4.6199717524E-001 +1.2453714964E+000  +5.8860498307E-002 -1.8359192053E+000  +6.1960302092E-002 +1.1350386070E+001  +5.5215075612E-001 +5.2769170009E+000 
9520033.792 +4.6787774348E-001 +3.0734706463E+000  +6.4590781629E-002 -1.3195404993E+000  +5.9465875940E-002 +1.2854240141E+001  +5.1524978351E-001 -2.4838874844E+000 
9645178.974 +5.2540565234E-001 +9.6729361051E+000  +6.3326935685E-002 -4.5535928995E-001  +6.7129215137E-002 +1.4877565767E+001  +5.0982785583E-001 -5.3152887596E-001 
9770324.155 +4.4963890069E-001 +1.2231697493E+000  +6.2937835318E-002 -2.3519778899E+000  +6.3656795429E-002 +1.3374296733E+001  +5.2026818444E-001 +6.3062950726E-001 
9895469.337 +4.7969733395E-001 +3.1520546597E-001  +6.3720907129E-002 -1.6289852149E+000  +6.3872077637E-002 +1.5729444681E+001  +5.0035859708E-001 -3.6581618785E+000 
10020614.518 +4.8648737788E-001 +2.7946963013E+000  +6.7120656646E-002 +3.1946722137E-001  +6.2695589515E-002 +1.3488250639E+001  +5.3067629962E-001 -7.6756225932E-001 
10145759.700 +5.0226168494E-001 +2.1660315635E+000  +6.4147937280E-002 -1.0129134124E+000  +6.5202960131E-002 +1.4535692658E+001  +5.0765454101E-001 -2.5952798811E+000 
10270904.881 +4.9775476728E-001 +3.7256616059E+000  +6.3686557883E-002 +2.6453057231E-001  +6.5195105554E-002 +1.6577899193E+001  +5.3302451319E-001 -1.7482050961E+000 
10396050.063 +4.9245160054E-001 +6.8584446399E+000  +6.6559678455E-002 +6.5616199282E-001  +6.4245876127E-002 +1.4337510715E+001  +5.1407422823E-001 -3.9648902707E+000 
10521195.244 +4.7449285424E-001 +5.7611346148E+000  +6.5695542940E-002 +6.4488712877E-001  +6.6862081224E-002 +1.4832561492E+001  +5.3236213625E-001 +1.9442046469E+000 
10646340.426 +4.7330120935E-001 +7.6875569466E+000  +6.5542396952E-002 +1.8990534476E+000  +6.3679106053E-002 +1.4862184684E+001  +5.6016242635E-001 +1.9166911811E+000 
10771485.607 +4.9758142823E-001 +5.4012572830E+000  +6.6129276506E-002 -4.0455293061E-001  +6.6016358933E-002 +1.5947046224E+001  +5.5445231794E-001 +1.8453616645E+000 
10896630.788 +5.1925436520E-001 +6.8651048876E+000  +6.6029329566E-002 +2.6341894816E+000  +6.6647445809E-002 +1.7194815558E+001  +5.5450190677E-001 -2.6616516459E+000 
11021775.970 +5.1839976252E-001 +8.9419752067E+000  +6.9458324041E-002 +1.4891234714E+000  +6.4716800580E-002 +1.6777323876E+001  +5.6613939381E-001 +2.8910485736E+000 
11146921.151 +5.1263641721E-001 +6.5360291574E+000  +6.5491451519E-002 +1.9621241888E+000  +6.7734645937E-002 +1.4133773677E+001  +5.7950141344E-001 +2.9443250985E+000 
11272066.333 +4.9185142739E-001 +6.5030812609E+000  +6.7998485676E-002 +2.5816752650E+000  +6.5703521968E-002 +1.5392388714E+001  +5.5437223205E-001 +1.7481214906E+000 
11397211.514 +5.2293089559E-001 +4.7359908490E+000  +6.9063613690E-002 +3.4843440757E+000  +6.7189822220E-002 +1.4965573826E+001  +5.8621055116E-001 +1.0725181892E+000 
11522356.696 +5.4350514603E-001 +8.3114445005E+000  +7.0089429446E-002 +4.4502442788E+000  +6.7495556116E-002 +1.3502452552E+001  +5.9332096931E-001 +1.5843990987E-001 
11647501.877 +5.8808605548E-001 +7.6288098318E+000  +7.0414718921E-002 +4.7805398351E+000  +6.9409501280E-002 +1.5158348070E+001  +5.8819895495E-001 +1.3353224674E+000 
11772647.059 +5.7233943889E-001 +4.1364850371E+000  +7.0479909997E-002 +3.5952629788E+000  +7.2616879987E-002 +1.5486088166E+001  +5.9224396095E-001 +3.5593660786E+000 
11897792.240 +6.2692140798E-001 +4.2302055480E+000  +6.9557419745E-002 +5.4748095542E+000  +7.0537700316E-002 +1.6524644935E+001  +6.2074621556E-001 -7.2308563809E-001 
12022937.422 +6.1787568175E-001 +7.5686344770E+000  +7.0758868588E-002 +6.0067201797E+000  +7.0542788786E-002 +1.4913418927E+001  +5.9857401963E-001 +2.7874006450E+000 
12148082.603 +5.7492652724E-001 +8.3760988736E+000  +7.1455595592E-002 +4.7009615408E+000  +7.1655146435E-002 +1.3408196274E+001  +6.2083478602E-001 +2.7640934601E+000 
12273227.785 +6.4047543148E-001 +5.2763290390E+000  +7.3749558450E-002 +5.3336761619E+000  +7.3023298197E-002 +1.4641642108E+001  +6.2367732077E-001 +1.6847390516E+000 
12398372.966 +6.3203863405E-001 +4.0639545619E+000  +7.7114945038E-002 +6.3423064481E+000  +7.3244640869E-002 +1.3680456682E+001  +6.4857419876E-001 +1.2256193721E+000 
12523518.148 +6.5473447506E-001 +4.6347883729E+000  +7.5127747679E-002 +7.1584153341E+000  +7.4740854161E-002 +1.2407032797E+001  +6.6846027927E-001 -1.6849165948E-001 
12648663.329 +6.4931246030E-001 +3.0265165636E+000  +7.5539201063E-002 +6.0814680610E+000  +7.4391012490E-002 +1.2097216917E+001  +6.8293076276E-001 +1.9254208319E+000 
12773808.511 +6.6862332929E-001 +4.3346365607E-001  +7.6462285234E-002 +6.2070222827E+000  +7.6604786588E-002 +1.1667120224E+001  +6.8680361191E-001 -1.0285375389E+000 
12898953.692 +6.8014471435E-001 -1.0600108310E+000  +7.7989273388E-002 +6.9885647053E+000  +7.6554891682E-002 +1.2797046229E+001  +6.9223452946E-001 -6.9248253621E-001 
13024098.874 +7.0004854260E-001 +1.2709899023E+000  +7.8644053457E-002 +7.7848544340E+000  +8.0598132717E-002 +1.1567648070E+001  +7.1726703037E-001 -2.0628959895E+000 
13149244.055 +7.2479525210E-001 +8.6959246177E-001  +7.9601316352E-002 +6.8337935627E+000  +7.9917657768E-002 +1.2109050785E+001  +7.3625271542E-001 -5.1852668802E-001 
13274389.237 +7.4227084487E-001 -2.5906114130E-001  +8.1110918989E-002 +7.6405236819E+000  +7.9942039987E-002 +1.1775577667E+001  +7.4005898639E-001 -5.4875765668E-001 
13399534.418 +7.5476342279E-001 -9.3331493744E-001  +8.0823570430E-002 +7.3647776204E+000  +8.0017302952E-002 +1.1425374157E+001  +7.6660220567E-001 -2.0144919992E+000 
13524679.599 +7.7349901328E-001 -8.6035414522E-001  +8.0750382283E-002 +7.9432739014E+000  +8.0003056710E-002 +9.7555106083E+000  +7.6264920871E-001 -3.3206150490E+000 
13649824.781 +7.7971633036E-001 -1.6225898927E+000  +8.1647182115E-002 +6.1486471879E+000  +8.2588060851E-002 +9.5256388703E+000  +8.0590832667E-001 -4.4019679168E+000 
13774969.962 +8.0232342594E-001 -3.6052631404E+000  +8.2470915768E-002 +7.2699990536E+000  +8.0699024386E-002 +8.7292657389E+000  +8.0445159086E-001 -3.2934667269E+000 
13900115.144 +8.0895338422E-001 -4.6524799195E+000  +8.4295314411E-002 +7.4077314053E+000  +8.3015202761E-002 +8.7081044280E+000  +8.2604307351E-001 -3.5972391476E+000 
14025260.325 +8.3818110216E-001 -4.3465777514E+000  +8.3745047615E-002 +6.8691284029E+000  +8.4273857806E-002 +8.8037211552E+000  +8.2841082464E-001 -4.1172182945E+000 
14150405.507 +8.5839051243E-001 -3.8650045373E+000  +8.4940648421E-002 +7.7198710868E+000  +8.3789290599E-002 +8.1249180238E+000  +8.6385359317E-001 -4.4366243299E+000 
14275550.688 +8.6811184914E-001 -5.3033792629E+000  +8.4699053935E-002 +6.9383316147E+000  +8.3440342342E-002 +7.6525246298E+000  +8.9889779007E-001 -4.3587009247E+000 
14400695.870 +8.9251924061E-001 -4.2708283474E+000  +8.5528489532E-002 +5.8193263380E+000  +8.4674553769E-002 +7.1478893485E+000  +9.0999125968E-001 -5.4022687291E+000 
