!  2-Port S-parameters saved by WinCal
! VAR MeasName=S-Parameters (CALIBRATED_DATA) read from VNA (P5004A)
! VAR MeasDate=28/08/2024 11:57:25
! VAR NAME=S2_r6c9_SET4_9k-100M_1
! VAR FILENAME=S2_r6c9_SET4_9k-100M_1.S2P
! VAR DATE=28/08/2024 11:57:25
! VAR PHYS_PORTS=1,2
! VAR ObjTypeName=DATASET
! VAR IndexType=Frequency
!
# Hz S MA R 50
9000.000 +9.0674854169E-002 -1.6705128696E+002  +5.7044204051E-003 -3.9993559876E+001  +3.4719849486E-003 +1.0667776657E+002  +2.5168869126E-001 -1.4802538308E+002 
134145.181 +1.1114784251E-001 +1.6961305203E+002  +6.4849893907E-004 +9.3429325310E+001  +4.2599637028E-004 +4.3369713827E+001  +2.3535178152E-001 -1.7052797943E+002 
259290.363 +1.1247341763E-001 +1.6969619487E+002  +6.3718524713E-004 -7.0837568451E+001  +2.0093294044E-004 -7.0144964183E+001  +2.4622188720E-001 -1.6954833074E+002 
384435.544 +1.1220603119E-001 +1.6921648083E+002  +7.4796434449E-004 -6.8012593528E+001  +5.4112741736E-004 +1.5327999377E+002  +2.4659769767E-001 -1.6712890659E+002 
509580.726 +1.1356920785E-001 +1.7081430226E+002  +7.7811317688E-004 -3.4047736763E+001  +1.0464052075E-003 -5.6364451423E+001  +2.4613529757E-001 -1.6603811626E+002 
634725.907 +1.1648615597E-001 +1.7167908051E+002  +5.7981069014E-004 +9.9190901423E+001  +5.6417579892E-004 -4.5693984211E+001  +2.4746810228E-001 -1.6709785645E+002 
759871.089 +1.1982158207E-001 +1.7070913650E+002  +3.2188231673E-004 -1.1999961659E+002  +6.9632896343E-004 +4.4957282880E+000  +2.5696275342E-001 -1.6665236306E+002 
885016.270 +1.2084305434E-001 +1.6949628168E+002  +3.0069146769E-004 -3.6580424539E+001  +3.0994426198E-004 +1.0928482574E+002  +2.4301592509E-001 -1.6664013444E+002 
1010161.452 +1.1837471360E-001 +1.7012473283E+002  +1.9444568633E-003 -4.0451648174E+001  +1.4928888608E-003 +1.6093480035E+002  +1.8432307287E-001 -1.6949382391E+002 
1135306.633 +1.2059511619E-001 +1.7090393222E+002  +1.6287130729E-003 -1.0379189039E+002  +8.3988193317E-004 +1.6755955650E+002  +2.1068291584E-001 -1.6730330694E+002 
1260451.815 +1.1624953967E-001 +1.7105936387E+002  +2.0743108206E-003 +1.1748621068E+002  +2.4528007021E-003 -1.5898566899E+002  +2.1875403657E-001 -1.5781694389E+002 
1385596.996 +1.2514396627E-001 +1.7206131137E+002  +9.4437960917E-004 -6.7391829397E+001  +1.1460909398E-003 +1.8011995703E+001  +2.6478035902E-001 -1.6095921024E+002 
1510742.178 +1.2803645213E-001 +1.7201484788E+002  +7.0905579194E-004 +1.7844886114E+002  +4.6168337303E-004 +1.0390482671E+002  +2.6178853648E-001 -1.5987566356E+002 
1635887.359 +1.2990908005E-001 +1.7012648202E+002  +7.0108832773E-004 +1.2343938788E+002  +1.5411084725E-003 -1.3184751631E+002  +2.4664439988E-001 -1.5895283613E+002 
1761032.541 +1.2831878135E-001 +1.6968949567E+002  +6.5454483159E-004 -1.4918630601E+001  +1.8194141229E-003 +1.3351788094E+002  +2.4860902498E-001 -1.5493868954E+002 
1886177.722 +1.3196287586E-001 +1.6904786952E+002  +1.6315934456E-003 +1.1867015613E+002  +1.2645648179E-003 +1.7171061576E+002  +2.1304473674E-001 -1.6804038331E+002 
2011322.904 +1.2260757745E-001 +1.6864543473E+002  +5.6806811820E-003 +1.0263305879E+002  +3.9391560866E-003 -7.9215380348E+001  +1.9985822355E-001 -1.6769555589E+002 
2136468.085 +1.3003272512E-001 +1.6622305435E+002  +4.4446407418E-003 +6.1426909623E+001  +2.2874960240E-003 -6.6401284852E+001  +2.1112919755E-001 -1.7331665783E+002 
2261613.267 +1.3100822328E-001 +1.6970808342E+002  +8.3258436557E-003 +6.8183668030E+001  +7.4568118604E-003 -8.1060579287E+001  +1.4314818815E-001 +1.6904894463E+002 
2386758.448 +1.3479014902E-001 +1.6831170807E+002  +5.4590450728E-003 +1.2213932599E+002  +4.7458118024E-003 -4.0939991302E+001  +2.0541787867E-001 +1.7368433590E+002 
2511903.630 +1.2201975546E-001 +1.6453208671E+002  +9.7219477852E-003 +7.3847890688E+001  +8.7579534107E-003 -6.0564556482E+001  +1.5175294306E-001 -1.7191543245E+002 
2637048.811 +1.2136633818E-001 +1.5829153337E+002  +1.9930969282E-002 +1.0572078347E+002  +2.1931240662E-002 +9.1723044320E+000  +3.4407831673E-001 +1.5586898666E+002 
2762193.992 +1.2238545995E-001 +1.6641856352E+002  +1.9882483051E-002 +4.2901831724E+001  +1.2011402130E-002 -9.9008503581E+001  +1.5869702742E-001 +1.2099357779E+002 
2887339.174 +1.1472076026E-001 +1.7679824262E+002  +1.4220882300E-002 -3.3291588495E+001  +4.1533611907E-002 -1.2863981184E+002  +4.5891468571E-001 -5.8212125866E+001 
3012484.355 +1.3709327067E-001 +1.6774457466E+002  +1.6379049084E-002 -3.5410361498E+001  +1.5735459620E-002 -1.3238241203E+002  +2.4708838997E-001 -9.9859091712E+001 
3137629.537 +1.3910233817E-001 +1.7848901463E+002  +1.2256365405E-002 +5.0780861675E+001  +1.9126996661E-002 -6.5479329284E+001  +1.7184524595E-001 +1.4236401596E+002 
3262774.718 +1.3162473938E-001 +1.6922523967E+002  +2.3901920468E-002 -1.1482982845E+001  +2.8132555608E-002 -7.9894230694E+001  +1.9168532823E-001 +2.7369253913E+001 
3387919.900 +1.2738160220E-001 +1.7063566217E+002  +3.0133213475E-002 +5.5650308520E+001  +2.9843334165E-002 -4.0859806216E+001  +4.9095357483E-001 +1.1610922003E+002 
3513065.081 +1.6832179676E-001 +1.4361872819E+002  +2.3240818408E-002 +1.2202450569E+002  +2.3538844632E-002 +6.7898051324E+001  +4.2087035648E-001 +1.3475477481E+002 
3638210.263 +1.6740960816E-001 +1.4853559838E+002  +4.7770064292E-002 +8.7873721010E+001  +6.3031886281E-002 -1.1139560950E+001  +7.0081929848E-001 +5.6984264493E+001 
3763355.444 +1.7852070492E-001 +1.5130595373E+002  +2.0101264197E-002 +6.4382117032E+001  +2.2352122194E-002 +2.4108053735E-001  +2.7909720044E-001 +5.5887937809E+001 
3888500.626 +1.7817410155E-001 +1.5590479492E+002  +9.5050052254E-003 +1.0514439523E+002  +1.5188926161E-002 -6.4333107108E-002  +3.4598492741E-001 +1.3338729522E+002 
4013645.807 +1.8758456815E-001 +1.4812622586E+002  +4.5813901647E-002 +1.0979266530E+002  +6.0984848993E-002 +6.2669944443E+001  +1.3304454014E+000 +1.2282993490E+002 
4138790.989 +1.8662332483E-001 +1.5070005847E+002  +2.5138954499E-002 +3.6215370260E+001  +2.7758341045E-002 -9.9085706448E+000  +1.6818568297E-001 +1.8432690580E+001 
4263936.170 +1.9101373154E-001 +1.5020435665E+002  +2.9216764592E-002 +6.5457272557E+001  +2.1348315820E-002 +4.7607343946E+000  +2.1697887594E-001 +1.2860090502E+002 
4389081.352 +1.9557262744E-001 +1.4658091857E+002  +3.6937964696E-002 +1.4059260494E+002  +3.9237627577E-002 +6.0420132408E+001  +8.3195499347E-001 +1.4563688869E+002 
4514226.533 +1.6231618552E-001 +1.3807057440E+002  +6.0873495552E-002 +4.8158828857E+001  +5.0177394483E-002 -1.3604187274E+001  +4.4412696702E-001 +5.0942236618E+001 
4639371.715 +2.6969354283E-001 +1.3246409492E+002  +1.3182172272E-001 +1.2015496708E+002  +1.1454279837E-001 +6.8372876601E+001  +1.6180230737E+000 +9.0290368791E+001 
4764516.896 +3.1382329017E-001 +1.2571231834E+002  +2.5103339816E-001 +1.4399405608E+002  +2.7779161960E-001 +1.0134275701E+002  +4.3644700476E+000 +1.2139908472E+002 
4889662.078 +3.6303022442E-001 +1.3620258675E+002  +1.5269554739E-001 -5.1360181097E+001  +1.3785128416E-001 -9.9229591661E+001  +2.6703058304E+000 -1.1635879704E+002 
5014807.259 +3.9624054658E-001 +1.1729680343E+002  +6.5769642173E-001 +8.7539027741E+001  +5.1156275172E-001 +5.0123154740E+001  +8.7635024015E+000 +4.8711752716E+001 
5139952.441 +3.1673155575E-001 +1.3775868186E+002  +1.1938764165E-001 +8.1441659530E+001  +1.1379782569E-001 +2.7525195101E+001  +2.2421798188E+000 +5.5169770841E+001 
5265097.622 +3.7540611555E-001 +1.2915009622E+002  +1.3437473557E-001 +1.5202133430E+002  +1.3917528548E-001 +1.1075718372E+002  +2.3143231326E+000 +1.2979855024E+002 
5390242.804 +3.4934219801E-001 +1.2615810924E+002  +1.7823959209E-001 +7.6662888279E+001  +1.6394833103E-001 +5.9592503507E+001  +2.2181773516E+000 +6.7401037541E+001 
5515387.985 +4.4224929455E-001 +1.2591986943E+002  +1.6839729129E-001 +1.0682416654E+002  +1.4557947955E-001 +7.7046477392E+001  +2.4188714846E+000 +9.9931165456E+001 
5640533.166 +4.5339054144E-001 +1.2202267115E+002  +1.2866789653E-001 +9.4267102016E+001  +1.1764661304E-001 +6.6825794786E+001  +1.8547109539E+000 +8.5737530266E+001 
5765678.348 +5.0173982989E-001 +1.3082739974E+002  +1.2646043032E-001 +8.0639313288E+001  +1.2467954712E-001 +4.4448468162E+001  +2.0887912721E+000 +5.6515080442E+001 
5890823.529 +5.1505313877E-001 +1.2738408118E+002  +1.0262951088E-001 +8.2713035092E+001  +9.1095910524E-002 +5.9600380373E+001  +1.5874753387E+000 +7.0455968914E+001 
6015968.711 +5.8642756277E-001 +1.1387309140E+002  +1.6364962660E-001 +6.8552893541E+001  +1.6013351747E-001 +4.1991852346E+001  +2.2717893798E+000 +4.2737976211E+001 
6141113.892 +6.2259170376E-001 +1.1758765368E+002  +1.1563369498E-001 +6.4860849390E+001  +1.1421101192E-001 +3.8593317763E+001  +1.6385290905E+000 +4.4956367172E+001 
6266259.074 +8.2544723718E-001 +1.0568218644E+002  +1.2000048721E-001 +4.4991890207E+001  +1.0584695477E-001 +3.1373614288E+001  +1.1857868798E+000 +1.1354235199E+001 
6391404.255 +7.3067648961E-001 +1.0668254187E+002  +1.2216982252E-001 +3.5313062784E+001  +1.1496763073E-001 +1.9421478220E+001  +1.6397332462E+000 +1.1543026221E+001 
6516549.437 +1.2293817293E+000 +7.4692946038E+001  +2.0652926576E-001 +2.7237250445E+001  +2.0333348354E-001 +1.2822801170E+001  +1.5029447875E+000 -7.8346634945E-001 
6641694.618 +1.5589813146E+000 +7.9940938671E+001  +1.4669101803E-001 +3.8979438917E+001  +1.8663929115E-001 +2.0691011078E+001  +1.3515801477E+000 -4.3342663077E+000 
6766839.800 +1.2359929203E+000 +4.8457641709E+001  +1.6057053291E-001 +1.0889350412E+001  +1.6268843388E-001 -1.4504441135E-001  +1.4105249089E+000 -4.4478937848E-001 
6891984.981 +9.8918477167E-001 +4.9904668583E+001  +1.0589236421E-001 +9.4806070445E+000  +1.1895593626E-001 +3.1512688777E+000  +1.0894962671E+000 -8.2520282822E+000 
7017130.163 +1.6913264025E+000 +1.3793988338E+001  +1.4913007129E-001 +5.3543667251E+000  +1.4145176375E-001 +2.6971344973E-001  +1.0821674413E+000 -6.4832266252E+000 
7142275.344 +1.5422994682E+000 +1.2210625324E+001  +1.1144542365E-001 +4.9792584696E+000  +1.0052847676E-001 +4.2609481558E+000  +9.7520572217E-001 -1.1547056469E+001 
7267420.526 +1.5282076100E+000 +7.3020788438E+000  +8.9297218422E-002 +2.0438556403E+000  +1.0037467365E-001 +7.2369629936E-001  +1.2368101068E+000 -1.0524423842E+001 
7392565.707 +1.2020729081E+000 +4.3606599687E+000  +8.6757581538E-002 +1.0202104055E+001  +7.2997914906E-002 +3.6923182436E+000  +1.1134426204E+000 -5.8075401777E+000 
7517710.889 +1.2223646279E+000 +5.8728514651E+000  +7.9463531853E-002 +8.5023741437E+000  +7.3241634947E-002 +1.3013290915E+001  +1.0815581197E+000 -5.6157302160E+000 
7642856.070 +9.7839666478E-001 -2.0754633611E+000  +7.4078473276E-002 +7.2469141096E+000  +7.2752522099E-002 +6.7196263093E+000  +1.0924994568E+000 -9.4646083028E+000 
7768001.252 +8.8534478184E-001 +2.4314347657E+000  +6.2522318488E-002 +2.8465915541E+000  +6.2570040210E-002 +3.6249680106E+000  +9.1317006388E-001 -7.6755651382E+000 
7893146.433 +6.9625826583E-001 +3.6981115191E-001  +6.1642777285E-002 -3.2013759960E+000  +6.3336389572E-002 +6.6217829094E+000  +8.7377630770E-001 -6.6419581751E-002 
8018291.615 +7.3965500884E-001 +1.4677418890E+001  +6.2222182500E-002 +6.2287609928E+000  +6.4157466303E-002 +9.1443098013E+000  +8.1398952592E-001 -3.1796747180E+000 
8143436.796 +7.2172532146E-001 +5.3865318441E+000  +6.4348809341E-002 +1.6460596088E+000  +5.5429296041E-002 +1.1002799984E+001  +8.0242079541E-001 +2.7024450377E+000 
8268581.977 +6.9772545676E-001 +7.8948172165E+000  +6.3896389942E-002 +2.3564736059E+000  +6.2453212757E-002 +8.5657692767E+000  +7.5249963679E-001 -2.7563303391E+000 
8393727.159 +6.0788206066E-001 +5.3969561101E+000  +5.5793869963E-002 -9.0249143323E-001  +5.7323035047E-002 +8.5912921538E+000  +6.6981990098E-001 -1.1557378187E+000 
8518872.340 +5.9178452027E-001 +7.1346243280E+000  +5.6513139103E-002 -5.9655546975E-001  +5.8176313480E-002 +8.3881803310E+000  +6.7489933895E-001 +1.7849234147E+000 
8644017.522 +6.0757101441E-001 +1.1942414059E+001  +5.4412619646E-002 +3.8066575989E-001  +5.6298443714E-002 +1.1314936445E+001  +5.9989560930E-001 -7.0791952822E-001 
8769162.703 +5.7462598076E-001 +8.7255444529E+000  +5.6329981454E-002 +2.2532350472E+000  +5.5093699270E-002 +9.2988283884E+000  +5.9400478120E-001 +3.6401912726E+000 
8894307.885 +5.5970677150E-001 +9.1319265337E+000  +5.2623115382E-002 -4.6548362715E+000  +5.8960979476E-002 +1.6776949194E+001  +6.0570483732E-001 +3.7488945257E+000 
9019453.066 +5.7131309660E-001 +9.3865150403E+000  +5.7374508807E-002 -2.7210833351E+000  +5.4587385123E-002 +1.2688178657E+001  +5.4088574049E-001 +3.7443556719E+000 
9144598.248 +5.1792547720E-001 +7.0375315037E+000  +5.2957667156E-002 -2.1591311621E+000  +5.3153677753E-002 +1.3342262947E+001  +5.8838037804E-001 +1.8150451624E+000 
9269743.429 +4.7640960810E-001 +1.1112146718E+001  +5.3507154955E-002 -1.7156222566E+000  +5.5657289272E-002 +1.7487599989E+001  +4.9155150495E-001 +2.2229815940E+000 
9394888.611 +5.0981272981E-001 +6.4226049482E+000  +5.5282655042E-002 +3.4044936134E+000  +5.5868317863E-002 +1.3807287200E+001  +5.7777647654E-001 -2.5623294752E+000 
9520033.792 +4.6983047754E-001 +6.3466893218E+000  +5.2938171886E-002 -2.6124677925E+000  +5.4210964170E-002 +1.5429654950E+001  +5.5511918389E-001 +8.4567727343E-001 
9645178.974 +4.2860178088E-001 +1.8974265454E+000  +5.6857942525E-002 -3.5546449053E-001  +5.1631221020E-002 +1.4462932748E+001  +5.3258559541E-001 -4.5748152909E+000 
9770324.155 +4.9672225874E-001 +7.5244662511E-001  +5.5118991794E-002 +3.6830951994E-001  +5.7548102517E-002 +1.6849331950E+001  +5.2250244007E-001 -6.0018434205E+000 
9895469.337 +4.5496951859E-001 +4.0626550371E-001  +5.8282713170E-002 +3.7139808884E-001  +5.8551205437E-002 +1.6684585140E+001  +4.9331662971E-001 -2.2877337359E+000 
10020614.518 +5.1363713826E-001 +1.1780268639E-001  +5.4311805100E-002 +3.7192846257E-001  +5.6786767385E-002 +1.6927442711E+001  +5.2352561270E-001 -2.7699572209E+000 
10145759.700 +4.9840745053E-001 +1.5660890746E+000  +5.8145763904E-002 +1.8651825233E+000  +5.4233342963E-002 +1.6124691365E+001  +5.3331843476E-001 -3.1900227968E+000 
10270904.881 +4.8840191100E-001 +4.2037329827E+000  +5.6073055300E-002 +1.6200001420E+000  +5.4329664527E-002 +1.7233972534E+001  +5.1581543197E-001 -2.1109700082E+000 
10396050.063 +4.8396399914E-001 +4.5645306156E+000  +5.7089130230E-002 -6.6452419932E-001  +5.4651334337E-002 +1.7733701224E+001  +5.0565280668E-001 +3.0462418135E+000 
10521195.244 +5.2645754577E-001 +6.6248973279E+000  +5.6738289862E-002 +1.5914273184E+000  +5.8377269288E-002 +1.6385753870E+001  +5.6466050087E-001 -5.1693014384E+000 
10646340.426 +5.1632151605E-001 +6.5624071053E+000  +5.8341481786E-002 +2.9138667942E+000  +5.8497020448E-002 +1.5259890044E+001  +5.0823026871E-001 +1.2530380415E+000 
10771485.607 +5.0891428323E-001 +9.4809962029E+000  +5.9536515293E-002 +5.9080364092E-001  +5.5642626232E-002 +1.5698493637E+001  +5.3423642981E-001 +1.7851389552E+000 
10896630.788 +5.2220853658E-001 +1.1650108609E+001  +5.6391516882E-002 +2.5952034499E+000  +5.8696765933E-002 +1.7075433444E+001  +5.5208224658E-001 +1.2022729628E+000 
11021775.970 +5.4258089064E-001 +8.2436551481E+000  +6.0026368025E-002 +2.3691869168E+000  +5.7259921462E-002 +1.8937240206E+001  +5.8036502054E-001 +4.5595389104E-001 
11146921.151 +5.3758308092E-001 +9.3237226034E+000  +6.1422060733E-002 +3.1186245996E+000  +5.8878125717E-002 +1.8155446973E+001  +5.5582406424E-001 -2.8341790059E+000 
11272066.333 +5.5319225813E-001 +7.0054000851E+000  +5.8065818889E-002 +4.8802063082E+000  +5.7486313641E-002 +1.7362272690E+001  +5.9322293892E-001 +1.5246193052E+000 
11397211.514 +5.5480815879E-001 +7.7704613425E+000  +5.9861642918E-002 +4.1508220926E+000  +6.0157725365E-002 +1.3886028878E+001  +5.6743779390E-001 +4.2380789308E-001 
11522356.696 +5.6873343661E-001 +7.3336833075E+000  +6.0539205519E-002 +5.5745187379E+000  +5.9685620811E-002 +1.4881703588E+001  +5.5014957369E-001 +2.1687243558E+000 
11647501.877 +5.5179489138E-001 +5.8893318409E+000  +6.1574589543E-002 +3.3765090648E+000  +5.9581738658E-002 +1.5999642792E+001  +5.6271093991E-001 +2.3845685716E+000 
11772647.059 +5.8609034025E-001 +6.9610591677E+000  +6.0258731644E-002 +4.2979685409E+000  +6.1659517037E-002 +1.3371646529E+001  +5.7843469120E-001 +2.2770449322E+000 
11897792.240 +5.9834765846E-001 +5.8080343480E+000  +6.4037642361E-002 +6.2776875811E+000  +6.0886007120E-002 +1.6241997622E+001  +6.2703592328E-001 +1.4868788084E+000 
12022937.422 +6.0606586961E-001 +3.8293154113E+000  +6.4097558519E-002 +5.2077128066E+000  +6.2806404686E-002 +1.5123423606E+001  +6.4015441780E-001 +2.0928371917E+000 
12148082.603 +6.1238177859E-001 +5.9138069723E+000  +6.4392050017E-002 +5.7999278892E+000  +6.1724799313E-002 +1.4373294253E+001  +6.4585627186E-001 +8.9710298971E-001 
12273227.785 +6.2966491845E-001 +7.1122211490E+000  +6.3960158183E-002 +7.0979459715E+000  +6.3426896559E-002 +1.6620141090E+001  +6.5007350779E-001 +1.5521354112E+000 
12398372.966 +6.4040615574E-001 +4.7027134519E+000  +6.5740443273E-002 +5.1268943856E+000  +6.5177666361E-002 +1.3838882044E+001  +6.7345458773E-001 +1.8052823547E-001 
12523518.148 +6.8938103350E-001 +3.2476168319E+000  +6.5558904504E-002 +6.8796912419E+000  +6.5503028124E-002 +1.4142162318E+001  +6.9956409947E-001 -1.2155548754E-003 
12648663.329 +6.8125780784E-001 +2.5686938444E+000  +6.4950245197E-002 +6.5850924833E+000  +6.5860282146E-002 +1.3200483790E+001  +7.0006851690E-001 -1.3001327870E+000 
12773808.511 +6.9829354692E-001 +1.7275132481E+000  +6.7886380982E-002 +6.8688876923E+000  +6.6773646725E-002 +1.3622651729E+001  +7.0606102665E-001 -3.0573236970E+000 
12898953.692 +7.2362455705E-001 +2.2873973593E+000  +6.8333832526E-002 +5.7380125586E+000  +6.8318156601E-002 +1.3489544537E+001  +7.2351988320E-001 -1.4603010137E+000 
13024098.874 +7.2909466091E-001 +5.9772000476E-001  +7.0153422561E-002 +8.8895747175E+000  +6.8880091166E-002 +1.1830928411E+001  +7.3028464387E-001 -2.4938693695E+000 
13149244.055 +7.1642908442E-001 -2.3960343973E+000  +6.9055695192E-002 +6.1362950871E+000  +6.9371172268E-002 +1.3221742948E+001  +7.6163849211E-001 -8.4404670263E-001 
13274389.237 +7.7080636046E-001 -5.4281974679E-002  +7.1370957603E-002 +8.6068116383E+000  +7.0869651626E-002 +1.1666201112E+001  +7.6209647145E-001 -1.3549641294E+000 
13399534.418 +7.7730406682E-001 -5.7039599199E-001  +7.1266989445E-002 +8.5768115316E+000  +7.0223817878E-002 +1.1909825492E+001  +7.7429766494E-001 -2.7734403311E+000 
13524679.599 +7.7579101602E-001 -2.4414332748E+000  +7.0090739039E-002 +8.1079542397E+000  +7.0424998417E-002 +9.4772358438E+000  +7.8676409997E-001 -1.9905672734E+000 
13649824.781 +7.9302923108E-001 -2.6637088840E+000  +7.1248141854E-002 +7.2858966553E+000  +7.1819318353E-002 +8.3979729058E+000  +7.9856056425E-001 -2.2353550744E+000 
13774969.962 +8.1319366909E-001 -1.9214203735E+000  +7.1736839138E-002 +8.9111425365E+000  +7.2545286714E-002 +9.7962399118E+000  +8.5057695792E-001 -3.5841805002E+000 
13900115.144 +8.2233532733E-001 -3.1753857040E+000  +7.1723991629E-002 +7.1805674179E+000  +7.2097862810E-002 +7.6990482829E+000  +8.5387823509E-001 -4.3286377871E+000 
14025260.325 +8.4190494388E-001 -4.0248544906E+000  +7.4429153966E-002 +6.6345800102E+000  +7.2769402425E-002 +8.3303350518E+000  +8.7163610430E-001 -3.5981155360E+000 
14150405.507 +8.6369290935E-001 -3.7404065282E+000  +7.3953067079E-002 +6.3938437241E+000  +7.0315078767E-002 +7.9248246188E+000  +8.9172922689E-001 -4.0461946004E+000 
14275550.688 +8.8501588715E-001 -5.7327092967E+000  +7.4903812803E-002 +7.6437297882E+000  +7.3800719525E-002 +7.3675811686E+000  +8.9933189885E-001 -5.3076224458E+000 
14400695.870 +9.2661251920E-001 -5.1755164156E+000  +7.4201900321E-002 +7.7133533559E+000  +7.4028323537E-002 +7.1206003924E+000  +9.2465252680E-001 -4.8464106656E+000 
