!  2-Port S-parameters saved by WinCal
! VAR MeasName=S-Parameters (CALIBRATED_DATA) read from VNA (P5004A)
! VAR MeasDate=27/08/2024 16:14:58
! VAR NAME=S2_r1c9_RESET2_9k-100M_3
! VAR FILENAME=S2_r1c9_RESET2_9k-100M_3.S2P
! VAR DATE=27/08/2024 16:14:58
! VAR PHYS_PORTS=1,2
! VAR ObjTypeName=DATASET
! VAR IndexType=Frequency
!
# Hz S MA R 50
9000.000 +9.2289950923E-002 -1.5194985720E+002  +1.1582591066E-002 +9.7543803687E+001  +1.6930626106E-002 -9.0127988927E+001  +3.8252672047E-001 -1.2913011324E+002 
134145.181 +1.1063925339E-001 +1.6972069166E+002  +4.2909140550E-004 -2.9451283690E+001  +8.0581426323E-004 -1.6066689178E+002  +2.3965852561E-001 -1.6944208785E+002 
259290.363 +1.1089049312E-001 +1.6979678645E+002  +1.2789192565E-003 +9.4088211920E+001  +1.5867823777E-003 -1.0547244836E+002  +2.4342504590E-001 -1.6906758455E+002 
384435.544 +1.1304876086E-001 +1.7001685348E+002  +1.6467368496E-004 +1.2964384067E+002  +8.1992500416E-004 -2.7161103226E+001  +2.4213665071E-001 -1.6949984672E+002 
509580.726 +1.1549129612E-001 +1.7004974725E+002  +5.2159235612E-004 +1.0040708969E+002  +9.6092319905E-004 -1.4038417052E+002  +2.3705903090E-001 -1.6553138153E+002 
634725.907 +1.1599500609E-001 +1.7003344853E+002  +9.6070257783E-004 +1.7823122899E+001  +4.7571713301E-004 -1.1555107212E+002  +2.5373489741E-001 -1.6222736547E+002 
759871.089 +1.1842684123E-001 +1.7152435066E+002  +1.2701716869E-003 -1.1729212937E+002  +5.0446633359E-004 +1.3818091311E+002  +2.4962433569E-001 -1.6369924910E+002 
885016.270 +1.1863522057E-001 +1.6897590021E+002  +2.0495147602E-004 +1.0309796437E+002  +2.2319881959E-004 +1.3138205199E+002  +2.4240541818E-001 -1.6618083797E+002 
1010161.452 +1.1683692366E-001 +1.7061893027E+002  +1.9191324165E-003 +1.5964899752E+002  +6.4583083880E-004 -5.4820089359E+001  +2.1343959925E-001 -1.6419300379E+002 
1135306.633 +1.1464461899E-001 +1.7054327468E+002  +2.3626402430E-003 +1.5665314210E+001  +3.8149121180E-004 +1.1853942459E+002  +1.6772838344E-001 -1.6313315486E+002 
1260451.815 +1.2127211298E-001 +1.7129781289E+002  +7.9699104999E-004 +1.4030880461E+002  +1.7362653049E-003 -1.0330088901E+002  +2.3753694985E-001 -1.5923989844E+002 
1385596.996 +1.2436531810E-001 +1.7256585250E+002  +4.9232827901E-004 -1.2304421137E+002  +1.7452071704E-003 +6.3869429276E+001  +2.6603595371E-001 -1.5774821464E+002 
1510742.178 +1.2516726293E-001 +1.7248381258E+002  +1.1190341689E-003 -1.7230783572E+002  +1.8253966052E-003 -4.6372894009E+001  +2.4408445870E-001 -1.5558123911E+002 
1635887.359 +1.2606353263E-001 +1.7116510465E+002  +1.3676928145E-003 -9.5031329396E+001  +1.3820863934E-003 -1.4007847170E+002  +2.4533430320E-001 -1.5625606162E+002 
1761032.541 +1.2540519005E-001 +1.7005847172E+002  +1.8744135365E-003 -6.3355596270E+001  +7.4821875477E-004 +1.0364724488E+002  +2.0974379980E-001 -1.5897785892E+002 
1886177.722 +1.2968698185E-001 +1.6875632838E+002  +1.5721875525E-003 +9.5530280364E+001  +2.9881073902E-003 +5.0816512058E+001  +2.0634719280E-001 -1.6541201772E+002 
2011322.904 +1.2824479252E-001 +1.6769293193E+002  +1.3363691128E-003 +1.2212143114E+002  +1.5637648293E-003 -1.2988871730E+002  +1.7958192822E-001 -1.7569444121E+002 
2136468.085 +1.3434728547E-001 +1.6774096445E+002  +1.5870480630E-003 +1.9367734893E+001  +4.6866373307E-003 +9.6502067597E+001  +1.7027681814E-001 +1.6552504833E+002 
2261613.267 +1.3386516362E-001 +1.6167481215E+002  +3.9405117846E-003 +1.2200312459E+002  +4.2881863819E-003 +5.8861788980E+001  +1.7195760198E-001 +1.6503563665E+002 
2386758.448 +1.3271410997E-001 +1.6446303559E+002  +9.8155327269E-004 -8.4618864124E+001  +3.1481588288E-003 -1.7591024076E+002  +2.2998425900E-001 -1.7274385769E+002 
2511903.630 +1.2964718266E-001 +1.6094850036E+002  +4.5001670436E-003 +1.5285225131E+002  +8.4058881105E-003 -1.6401958188E+002  +2.6615511787E-001 +1.6835198947E+002 
2637048.811 +1.0741422639E-001 +1.3995450954E+002  +2.9835778982E-002 -1.1483564780E+002  +3.5693290986E-003 -1.1820042436E+002  +2.6205497837E-001 +1.4311638555E+002 
2762193.992 +7.7749188760E-002 -1.6911014190E+002  +5.6669693915E-002 +5.0584441899E+000  +6.0838831247E-002 +7.9320468842E+001  +7.5091434540E-001 -4.7602983922E+001 
2887339.174 +1.1880902688E-001 -1.7410397549E+002  +5.5151303379E-002 -1.0396914612E+002  +3.9763740265E-002 -1.5651600865E+002  +8.9318333254E-001 -4.4881072673E+001 
3012484.355 +1.2110417146E-001 +1.6852480876E+002  +7.6922959509E-003 -5.8600973907E+001  +1.0086869859E-002 +4.4403379599E+001  +3.4731142749E-001 -1.2369689227E+002 
3137629.537 +9.9354622523E-002 +1.7348538778E+002  +7.2053998370E-003 +1.6120524234E+002  +2.0619083605E-002 -7.6930687506E+001  +5.1932047669E-001 -8.5020477307E+001 
3262774.718 +1.3126247193E-001 +1.6266545529E+002  +5.6856975478E-003 -2.5106868441E+001  +4.1212289325E-003 -1.7991073013E+002  +1.4091444204E-001 -1.0632113186E+002 
3387919.900 +1.4343625781E-001 +1.5307948129E+002  +1.1673425673E-002 -5.7284868999E+001  +9.7932675953E-003 +1.0733336875E+002  +2.4809140471E-001 +5.7910233785E+001 
3513065.081 +1.2459329289E-001 +1.5085675563E+002  +1.0822183215E-001 -1.3155497480E+002  +1.0284560878E-001 -1.2171243482E+001  +2.4687232320E+000 +1.4154007670E+001 
3638210.263 +1.6508762819E-001 +1.5043866849E+002  +1.7782059700E-002 +1.6718511794E+002  +7.1534467316E-003 +8.9907815948E+001  +5.4609089190E-001 +1.4354847433E+002 
3763355.444 +1.5743377709E-001 +1.4724890725E+002  +6.4235398237E-003 +5.0391967098E+000  +1.2826240822E-002 +8.1880673782E+001  +5.8359079942E-001 -1.1606970192E+001 
3888500.626 +1.9509874684E-001 +1.3983522157E+002  +2.7734905621E-003 +3.5026416161E+001  +1.4175100208E-002 -1.6501726727E+002  +7.0063479627E-001 +1.4150697604E+002 
4013645.807 +1.8863261320E-001 +1.4967418659E+002  +9.0259408511E-003 -3.1972252604E+000  +4.8693163149E-003 -2.4163587580E+001  +3.9946502783E-001 +1.2818417513E+002 
4138790.989 +1.2541605532E-001 +1.3609935374E+002  +1.0858870321E-002 +1.3083070508E+002  +5.2096562511E-003 -6.6881986962E+001  +3.1312595019E-001 +8.5859447129E+001 
4263936.170 +2.2052931942E-001 +1.3960035279E+002  +7.4159583540E-003 -2.0898697302E+001  +1.0435951732E-002 +1.6504429543E+002  +6.2315732037E-001 +1.3001691563E+002 
4389081.352 +2.1725747572E-001 +1.4174762479E+002  +8.0710625568E-003 -1.0152567718E+002  +2.1702162427E-002 +6.4392500929E+001  +1.4801898727E+000 +9.1823744904E+001 
4514226.533 +1.3091879691E-001 +1.3582053496E+002  +3.1725009842E-002 -7.0441570075E+001  +5.5406534520E-003 +1.6709797913E+002  +2.0050687781E+000 +1.0247427419E+002 
4639371.715 +2.8555109463E-001 +1.2827851339E+002  +3.6824590229E-002 -6.9096064970E+001  +2.7440495238E-002 -8.0098863537E+001  +1.6629316020E+000 +9.9700470217E+001 
4764516.896 +3.6441307143E-001 +1.2927705708E+002  +2.8494755739E-002 +4.5896087233E+001  +6.9331858727E-002 -2.0355830791E+001  +3.0960443147E+000 +1.2836398003E+002 
4889662.078 +5.5089679354E-001 +1.3073737093E+002  +2.1404619138E-002 -1.6728116721E+000  +5.4707865395E-002 -3.2823333216E+001  +4.1458145792E+000 -1.2697358283E+002 
5014807.259 +3.3260762819E-001 +1.3511884783E+002  +1.7200449306E-001 -9.2836479104E+001  +5.4313867293E-002 +9.4964947272E+001  +1.4280684846E+001 -9.7569025652E+001 
5139952.441 +4.0283106402E-001 +1.2351578535E+002  +1.9064863653E-002 -1.1003542646E+002  +2.9992231908E-002 -1.1778514726E+002  +1.7350988558E+000 +9.9019032820E+001 
5265097.622 +3.7836070939E-001 +1.3602321787E+002  +1.7947312983E-002 -1.2480985656E+002  +2.0455201443E-002 +1.7865101082E+002  +5.9144701716E+000 +1.1559986609E+002 
5390242.804 +4.4034155208E-001 +1.3313656758E+002  +4.0209075262E-003 +1.7832373405E+002  +3.2125323453E-002 +1.5860306938E+002  +1.9836372228E+000 +5.6698438738E+001 
5515387.985 +4.1975974111E-001 +1.3378265481E+002  +6.0675853356E-003 +1.3403681953E+002  +1.7231401496E-002 +1.4541072278E+002  +1.9024620093E+000 +8.1457402825E+001 
5640533.166 +4.6006624370E-001 +1.3375237964E+002  +5.0713663434E-003 +8.8905694128E+001  +5.4827438855E-003 -1.1254350815E+002  +1.2332368667E+000 +8.1601386890E+001 
5765678.348 +5.0733671845E-001 +1.2698511601E+002  +1.8131156888E-002 -1.0101640129E+002  +2.0932258042E-002 +1.3063806490E+002  +2.2140118863E+000 +8.5292860858E+001 
5890823.529 +5.8529813883E-001 +1.1422055336E+002  +2.0511512536E-002 -1.6071966240E+002  +2.5394245659E-002 -1.2725573484E+002  +1.7387162941E+000 +9.5535301998E+001 
6015968.711 +6.3558841231E-001 +1.2499898126E+002  +4.5828080556E-003 +7.8105014649E+001  +8.6703246883E-003 +1.1820332938E+002  +2.0105223632E+000 +2.3213443540E+001 
6141113.892 +8.4022732878E-001 +1.1042065163E+002  +4.2291019521E-003 -1.4294916026E+002  +3.7841164399E-003 +1.2937095020E+002  +2.3983442862E+000 +2.3469876519E+001 
6266259.074 +7.6434215454E-001 +1.0765813284E+002  +1.7125253197E-002 +1.1345392305E+002  +1.6161836218E-002 +1.5063111177E+002  +1.4296720536E+000 +3.0281709530E+001 
6391404.255 +1.2831889981E+000 +9.0904241614E+001  +1.2145375828E-002 -2.4468802591E+001  +1.7024432678E-002 +8.0125840677E+000  +1.9071618314E+000 +3.8998992370E+000 
6516549.437 +1.5251691032E+000 +9.2863401079E+001  +3.3744937336E-002 +9.8741982916E+001  +2.4561170760E-002 +1.4418859937E+002  +1.3665613968E+000 +1.5279267134E+001 
6641694.618 +1.6952755136E+000 +8.3919305091E+001  +3.9062096313E-002 +1.4419503395E+002  +1.8289093618E-002 +1.1346391582E+002  +1.6887377727E+000 +4.2941347654E+000 
6766839.800 +1.2147930500E+000 +4.7890285595E+001  +2.6158012457E-002 +3.3709181217E+001  +1.8917784709E-002 +7.7769500183E+001  +1.3652391510E+000 -8.9494034010E+000 
6891984.981 +1.5534965475E+000 +3.1818418851E+001  +2.1149865215E-002 +1.0618594549E+002  +3.0881700887E-002 +3.3852495365E+001  +1.4272572271E+000 -9.6171198007E+000 
7017130.163 +1.9989392357E+000 +2.3882921990E+001  +1.7097578684E-002 +6.1489436377E+000  +3.0852505233E-002 +5.9540576474E+001  +1.1844382196E+000 -1.3041931867E+001 
7142275.344 +1.5275845884E+000 +7.4706584593E+000  +6.3011237845E-003 +6.3373940595E+001  +7.3957240216E-003 +7.9060481545E+001  +1.2187674272E+000 -8.1508489465E+000 
7267420.526 +1.7710953835E+000 -1.2770349556E-001  +8.2198198166E-003 +5.7359286851E+001  +6.3876193004E-003 -1.7261786576E+002  +1.2397744327E+000 -6.2098810970E+000 
7392565.707 +1.3343985759E+000 +4.1356649370E+000  +9.1879813562E-003 -9.9322996048E+001  +7.6638671507E-003 +9.9519857639E+001  +1.5344764968E+000 -1.2065741993E+001 
7517710.889 +1.0890937535E+000 +2.5210671790E+000  +4.9692099071E-003 +8.1894990355E+001  +1.0777282392E-002 +1.1382562412E+002  +1.1621881340E+000 -1.1426034429E+001 
7642856.070 +1.0543988376E+000 +7.4241817421E-001  +1.4525771840E-002 +5.0463845287E+001  +7.6811799420E-003 +4.9846638451E+001  +1.1238562470E+000 -4.9630233189E+000 
7768001.252 +1.0675802039E+000 +4.5213704378E-001  +7.7672168815E-003 +4.9506354545E+001  +1.5710500390E-002 +9.2722018617E+001  +1.1077401816E+000 -7.5201154815E+000 
7893146.433 +9.2342934814E-001 +1.0156194768E+001  +3.7925467526E-003 +7.7139973627E+001  +5.1330233022E-003 +6.6556221035E+001  +8.7679994960E-001 -1.5179419091E+000 
8018291.615 +8.6514222281E-001 -2.6280511549E+000  +1.1446625807E-002 +2.6739826912E+001  +6.1980553701E-003 +1.3417268807E+002  +8.3917131916E-001 -3.9864917400E+000 
8143436.796 +7.3268191320E-001 +6.9502684597E+000  +5.9050209660E-003 +1.7379817144E+002  +4.9066786340E-003 +6.2914934796E+001  +8.0091512796E-001 -1.0759261607E+000 
8268581.977 +7.2875775429E-001 +6.9789573982E+000  +1.7206397409E-003 -1.1379312271E+002  +5.4759371922E-003 +2.0874541039E+001  +7.1215758266E-001 +2.5538098469E+000 
8393727.159 +7.4637650400E-001 +5.1899828420E+000  +8.4188895362E-003 +4.6264218079E+001  +5.2488958133E-003 +6.1005792685E+001  +7.3602437759E-001 -6.5054996920E-001 
8518872.340 +7.0759741114E-001 +1.1829947801E+001  +7.8289743151E-003 +8.0080643846E+001  +4.7236359483E-003 +3.4481389167E+001  +7.7739440523E-001 -3.0365876357E+000 
8644017.522 +6.6635703937E-001 +1.0766340860E+001  +6.0534011065E-004 +1.5711749739E+002  +4.9416167606E-003 +7.8992981919E+001  +7.4010748421E-001 -1.4746467989E-001 
8769162.703 +6.8143504474E-001 +9.0480834176E+000  +7.0213076478E-003 +1.0795496877E+001  +8.9520557826E-003 +3.3333508925E+001  +7.0048941758E-001 +8.4572791711E-001 
8894307.885 +6.0197127568E-001 +5.8517176277E+000  +5.0795673555E-003 +1.0015699023E+002  +9.8522871094E-004 +5.0588321920E+001  +6.5390228268E-001 -7.4449957115E+000 
9019453.066 +6.0107271944E-001 +7.7323080932E+000  +1.9812080235E-003 +1.1907061099E+002  +4.1233949184E-003 +1.2798006549E+002  +6.0812278235E-001 -3.9019712235E+000 
9144598.248 +5.8280296590E-001 +7.0011501390E+000  +4.4936172143E-003 +6.3626236151E+001  +6.0508044016E-003 +1.1300549852E+002  +6.9171387544E-001 +1.3254453048E+000 
9269743.429 +6.4305195801E-001 +9.8356652979E-001  +2.0888846240E-003 +6.5104493889E+001  +7.1314361928E-003 +6.8791344308E+001  +6.1356601619E-001 -5.6962983674E+000 
9394888.611 +5.6411593969E-001 +3.2130851461E+000  +1.7746811812E-003 +1.5565320863E+002  +3.7282975796E-003 +1.0693313628E+002  +5.4718900158E-001 -1.2108815860E+000 
9520033.792 +5.4999654656E-001 +6.5031110655E+000  +4.7127688422E-003 +5.6505099498E+001  +3.0776993883E-003 +1.0824309451E+002  +6.0672066347E-001 -4.9869460490E+000 
9645178.974 +5.2455398334E-001 -1.8965008414E-002  +2.3402242390E-003 +1.0446278758E+002  +6.0790502812E-003 +9.3188482809E+001  +5.9780524474E-001 -2.5697306862E+000 
9770324.155 +5.6766716819E-001 +4.5394518073E+000  +4.5114332515E-003 +8.1960790774E+001  +5.6664539262E-003 +9.7348962517E+001  +5.6815952797E-001 -3.7271465913E+000 
9895469.337 +5.3846391180E-001 +5.5198790100E+000  +2.8171477474E-003 +7.2654465823E+001  +4.4407402180E-003 +5.7405098117E+001  +5.8740858153E-001 -3.1135614295E+000 
10020614.518 +5.2600321875E-001 +2.0230740292E+000  +3.6749629014E-003 +7.4079141313E+001  +2.6253743539E-003 +5.4655895837E+001  +5.6165244574E-001 -8.2478719093E+000 
10145759.700 +5.7334866221E-001 +3.6268469879E+000  +9.9699837291E-003 +7.2392128640E+001  +3.5846505694E-003 +8.9478404739E+001  +5.8285455034E-001 -4.2325812681E+000 
10270904.881 +5.9684320175E-001 +2.9053973114E+000  +2.4474769057E-003 +7.4367799192E+001  +5.1444319594E-003 +8.8698180250E+001  +6.0746230507E-001 -7.4839339051E+000 
10396050.063 +5.6146757150E-001 +1.1218840482E+000  +4.5727206020E-003 +6.4660729235E+001  +4.7751023583E-003 +7.4283006162E+001  +5.9619424468E-001 -3.3453314763E+000 
10521195.244 +5.9045734778E-001 +6.7381796900E+000  +5.1011603437E-003 +4.6214187409E+001  +2.3439456006E-003 +1.1170708363E+002  +5.9500443153E-001 -9.5473680744E-001 
10646340.426 +5.5985226819E-001 +5.3449495508E+000  +4.3051030010E-003 +9.1978290310E+001  +8.2613825035E-003 +1.0101029136E+002  +5.8032201816E-001 -4.9805682193E-001 
10771485.607 +5.5020584013E-001 +7.3647541700E+000  +4.9470892328E-003 +5.7876795383E+001  +3.5122969062E-003 +9.7149794426E+001  +5.7935014323E-001 +1.7064227157E+000 
10896630.788 +5.8955922163E-001 +4.5367836077E+000  +5.6160301047E-003 +7.7453053735E+001  +6.2969859983E-003 +1.0011320772E+002  +6.1882394900E-001 -1.9814981061E+000 
11021775.970 +5.9861514295E-001 +8.7352526625E+000  +6.1621358987E-003 +1.0005772594E+002  +5.5211902263E-003 +8.3081282839E+001  +6.4442580527E-001 -2.5369782996E+000 
11146921.151 +6.0748696049E-001 +8.0976724885E+000  +3.9915075517E-003 +6.9150060037E+001  +3.2085231874E-003 +9.9242277388E+001  +6.3269281380E-001 +3.4272029888E+000 
11272066.333 +5.8638210470E-001 +6.7375854342E+000  +5.7756995641E-003 +1.0057709188E+002  +5.4883278977E-003 +8.8995182732E+001  +6.1646718162E-001 +2.1588768493E+000 
11397211.514 +6.1456418991E-001 +6.0783925983E+000  +5.5231499902E-003 +7.3147446278E+001  +5.1184235899E-003 +7.5657890640E+001  +6.3754631015E-001 +1.1367658338E+000 
11522356.696 +5.9886086929E-001 +6.4994554040E+000  +6.1843221682E-003 +7.2738063783E+001  +6.3661885226E-003 +8.7883137216E+001  +6.4371901938E-001 +1.5897729266E+000 
11647501.877 +6.2604166368E-001 +4.8359741946E+000  +4.9047269651E-003 +7.5685445392E+001  +4.9928143177E-003 +9.3200765584E+001  +6.5311420517E-001 +1.2601504874E+000 
11772647.059 +6.2862338189E-001 +4.2919592923E+000  +6.0110808857E-003 +7.4987748457E+001  +5.1032667560E-003 +1.1370191102E+002  +6.5671701428E-001 +1.5247563212E+000 
11897792.240 +6.5063479069E-001 +5.3192799702E+000  +5.0577749429E-003 +8.7096322006E+001  +5.7239163256E-003 +9.6399409109E+001  +6.8441758735E-001 +6.7536517410E-001 
12022937.422 +6.9094696710E-001 +6.4472793701E+000  +5.3215763428E-003 +8.7703409766E+001  +7.9221277709E-003 +7.9821962508E+001  +6.8074401809E-001 +1.9676941862E+000 
12148082.603 +6.8229581023E-001 +4.0307226511E+000  +7.0566485898E-003 +9.2892033661E+001  +3.1092449163E-003 +7.1532914602E+001  +6.9375731881E-001 -1.8441374265E+000 
12273227.785 +6.7744635728E-001 +4.4065946821E+000  +5.8514892865E-003 +8.3869000425E+001  +5.6598360148E-003 +7.6959916601E+001  +7.0388358453E-001 +2.3215145793E-001 
12398372.966 +7.1896328435E-001 +3.9839930033E+000  +4.8397182857E-003 +7.9454373069E+001  +6.7344975168E-003 +7.3661755992E+001  +7.2375011571E-001 -9.7137949438E-001 
12523518.148 +6.9546857627E-001 +3.6943574692E+000  +6.9653394672E-003 +8.2016921228E+001  +5.4843524088E-003 +8.1417430690E+001  +7.2726203182E-001 +6.2229073371E-002 
12648663.329 +7.4892169364E-001 +3.7881375831E+000  +5.6486872011E-003 +7.6192223442E+001  +5.2818062568E-003 +7.2560983823E+001  +7.6609408304E-001 -1.0054371790E+000 
12773808.511 +7.3366241542E-001 +1.4436184787E+000  +5.7103443037E-003 +7.3391152481E+001  +5.8861073477E-003 +9.6356864707E+001  +7.6086762361E-001 +6.4842691795E-001 
12898953.692 +7.8291755101E-001 -1.6996394829E+000  +6.1231359932E-003 +8.9315114141E+001  +7.2155968377E-003 +8.5456561986E+001  +7.7933190194E-001 -1.5891184778E+000 
13024098.874 +7.9357795455E-001 +1.0730254376E+000  +5.6602887382E-003 +8.7957265961E+001  +5.8768111821E-003 +8.5389753028E+001  +8.1408969094E-001 -1.0917869694E+000 
13149244.055 +7.8983941416E-001 +5.5623861620E-001  +6.6562247483E-003 +8.3943357902E+001  +6.6649936031E-003 +8.1186873855E+001  +7.9396747834E-001 -7.3996832454E-001 
13274389.237 +8.2047110906E-001 +6.3674047501E-001  +7.7726032244E-003 +8.3684553940E+001  +7.2381212886E-003 +8.1846249969E+001  +8.5316310545E-001 -2.0512086557E+000 
13399534.418 +8.3540077266E-001 -6.9030033263E-001  +7.2654886824E-003 +7.6939629180E+001  +6.4012003703E-003 +8.7682009627E+001  +8.6506390083E-001 -1.7494507805E+000 
13524679.599 +8.6345010652E-001 -1.2101291817E+000  +6.5370128058E-003 +9.5242775401E+001  +8.5400938942E-003 +9.1162074837E+001  +8.6065705366E-001 -2.5112687697E+000 
13649824.781 +8.6503996967E-001 -2.2673749757E+000  +7.4532210192E-003 +9.7288197100E+001  +6.0131864830E-003 +7.6339281361E+001  +9.0083439632E-001 -3.6225235495E+000 
13774969.962 +8.7152827847E-001 -2.9400643607E+000  +6.0999610906E-003 +7.5345772997E+001  +7.0592508026E-003 +8.9019732442E+001  +8.9882465687E-001 -3.7339584580E+000 
13900115.144 +9.0257157557E-001 -3.4925673844E+000  +8.7242762527E-003 +8.6055514960E+001  +7.1917468476E-003 +7.7484351402E+001  +9.1748306939E-001 -4.1981641096E+000 
14025260.325 +9.3493687424E-001 -2.8622973307E+000  +7.6051519970E-003 +8.4341818344E+001  +6.9652520749E-003 +7.3323320222E+001  +9.1938586113E-001 -3.3476108799E+000 
14150405.507 +9.4007267368E-001 -4.3160936988E+000  +7.9925231543E-003 +9.1643275786E+001  +7.5216884548E-003 +9.3625236392E+001  +9.4865052696E-001 -3.4677599447E+000 
14275550.688 +9.6122306457E-001 -3.3643668393E+000  +7.2425334652E-003 +8.8403405024E+001  +7.1700039051E-003 +8.6447920452E+001  +9.9240504388E-001 -4.7416441648E+000 
14400695.870 +9.6780548074E-001 -4.9562691664E+000  +8.8793381988E-003 +8.4295583474E+001  +6.2417925841E-003 +7.8304638267E+001  +1.0022849178E+000 -5.0529015720E+000 
