!  2-Port S-parameters saved by WinCal
! VAR MeasName=S-Parameters (CALIBRATED_DATA) read from VNA (P5004A)
! VAR MeasDate=28/08/2024 16:07:26
! VAR NAME=S2_r8c9_RESET2_9k-100M_1
! VAR FILENAME=S2_r8c9_RESET2_9k-100M_1.S2P
! VAR DATE=28/08/2024 16:07:26
! VAR PHYS_PORTS=1,2
! VAR ObjTypeName=DATASET
! VAR IndexType=Frequency
!
# Hz S MA R 50
9000.000 +9.0595269643E-002 -1.4728305692E+002  +1.7941928693E-002 +1.5170611362E+002  +1.4371686802E-002 -5.0129641785E+001  +2.7918617341E-001 -1.4164670975E+002 
134145.181 +1.1087219416E-001 +1.6973457532E+002  +4.8211097381E-004 +8.4837721719E+001  +2.7693704990E-004 +2.1468269675E+001  +2.4085281767E-001 -1.7038712959E+002 
259290.363 +1.1151084384E-001 +1.7044789856E+002  +7.9629546017E-004 -2.0972323723E+001  +1.3258582331E-003 +1.1370838160E+002  +2.4661614020E-001 -1.7008610701E+002 
384435.544 +1.1333835095E-001 +1.7018777760E+002  +3.6696282602E-004 +7.6603948907E+001  +7.0173911494E-004 -1.3689622816E+002  +2.4690207883E-001 -1.6960750199E+002 
509580.726 +1.1504058727E-001 +1.7091988690E+002  +6.9510349924E-004 -1.0387626577E+002  +1.1491701744E-003 -2.6474942157E+001  +2.4618581789E-001 -1.6578388469E+002 
634725.907 +1.1527675566E-001 +1.7251236411E+002  +6.0839464618E-004 +6.6246813625E+001  +8.6395335128E-004 -1.4063539265E+002  +2.6025031775E-001 -1.6544793811E+002 
759871.089 +1.1957953110E-001 +1.7101702571E+002  +2.5578897754E-004 +2.4159875419E+000  +5.7355658095E-004 +1.6371271768E+002  +2.5524582692E-001 -1.6699685213E+002 
885016.270 +1.2073001201E-001 +1.6961995383E+002  +1.1025016087E-004 +1.1718443727E+001  +4.0448116698E-004 +9.6616502295E+001  +2.4334480770E-001 -1.6530394680E+002 
1010161.452 +1.1761880547E-001 +1.7058736679E+002  +1.3370344625E-003 +1.0136092993E+001  +1.7342778553E-003 -9.7837060293E+001  +2.1194320623E-001 -1.6522980302E+002 
1135306.633 +1.1748907508E-001 +1.6921260505E+002  +1.0204385536E-003 +7.2807265176E+001  +1.1112725100E-003 +1.9164020946E+001  +2.0439518261E-001 -1.6564640982E+002 
1260451.815 +1.2149284424E-001 +1.7171452264E+002  +7.5089163899E-004 +1.0038780140E+002  +1.6717610826E-003 +7.8458313865E+001  +2.2660769807E-001 -1.5854148350E+002 
1385596.996 +1.2795815992E-001 +1.7274581162E+002  +3.3546034587E-004 +9.4057532666E+001  +4.3147679638E-004 -1.7055495047E+002  +2.9572032647E-001 -1.5665208832E+002 
1510742.178 +1.2945014992E-001 +1.7222830249E+002  +1.0140369365E-003 -5.0282237323E+001  +6.7362900509E-004 +1.7423965364E+002  +2.5398464728E-001 -1.5349297833E+002 
1635887.359 +1.3156984883E-001 +1.7067198988E+002  +2.4277494715E-004 -2.2991460460E+001  +6.0501194009E-004 +1.5225880352E+002  +2.4384036495E-001 -1.5869941790E+002 
1761032.541 +1.2986751948E-001 +1.6802132035E+002  +4.4273747088E-004 +7.2161900073E+001  +1.2327686590E-003 +8.7820266664E+001  +2.5103728017E-001 -1.5787228905E+002 
1886177.722 +1.2972786259E-001 +1.7076974340E+002  +9.0434658563E-004 +4.4865809102E+001  +8.5525105528E-004 +1.1619528381E+002  +2.1982658898E-001 -1.6419055002E+002 
2011322.904 +1.3250616446E-001 +1.6664486226E+002  +1.4198703459E-003 -9.4378578941E+001  +1.5172710062E-003 -3.6837361075E+001  +1.8007924914E-001 -1.7111377463E+002 
2136468.085 +1.2519451061E-001 +1.6302491155E+002  +1.8618634822E-003 -8.5957816959E+001  +2.3731245580E-003 -1.3835314202E+002  +2.2635830591E-001 -1.7291283030E+002 
2261613.267 +1.3679432602E-001 +1.6406611838E+002  +2.9623605122E-003 +8.6711515875E+001  +5.8353637766E-003 -1.4307269385E+002  +2.4111293257E-001 +1.5230115438E+002 
2386758.448 +1.3478641158E-001 +1.6415388691E+002  +2.0025890473E-003 -8.6746695605E+001  +1.1791548785E-003 -1.4062494029E+002  +1.7547292070E-001 -1.7394779633E+002 
2511903.630 +1.3668453630E-001 +1.5885770575E+002  +4.8998141174E-003 -7.1031947580E+001  +9.8660997300E-003 +1.0332117664E+002  +2.7388073367E-001 +1.5013553022E+002 
2637048.811 +1.1753661207E-001 +1.6031214852E+002  +8.7824267070E-003 +4.3858493544E+001  +1.9872647113E-003 +1.5165563711E+002  +1.8007247847E-001 +1.4689133740E+002 
2762193.992 +1.0897995909E-001 -1.7482371973E+002  +4.4571261642E-002 -4.2213313708E+001  +5.3464762141E-002 +1.8812354843E+001  +1.6765580826E+000 -5.0136075943E+001 
2887339.174 +1.1812473495E-001 -1.7937889277E+002  +9.6692640937E-003 -4.8401350832E+000  +1.1467123337E-002 -9.3666861698E+001  +4.8027624787E-001 -1.1562243706E+002 
3012484.355 +1.1550634942E-001 +1.7393729479E+002  +6.7770174194E-003 -7.6086315815E+001  +3.6573197988E-003 -1.7273307881E+002  +2.0910356443E-001 -1.0560903014E+002 
3137629.537 +1.2844826308E-001 +1.7672277393E+002  +1.4392254552E-002 -1.3542070142E+002  +1.7167724069E-002 -1.5539872537E+002  +2.7547808080E-001 -9.1683221196E+001 
3262774.718 +1.1620000545E-001 +1.6533742257E+002  +4.3737088106E-003 +1.7928167085E+002  +4.0022113928E-003 +1.0787542555E+002  +9.7088409217E-002 -1.1884022200E+002 
3387919.900 +1.2150514621E-001 +1.5956463853E+002  +8.6375498848E-003 -1.3480346984E+002  +7.0763118736E-003 +3.7541655543E+001  +7.7575166028E-002 -5.0522508497E+000 
3513065.081 +1.5663211244E-001 +1.4808750400E+002  +3.6949497668E-003 -5.8068145257E+000  +1.3044179214E-002 -1.0202816865E+002  +4.1972151434E-001 +7.2947393486E+001 
3638210.263 +1.7252964181E-001 +1.5116464493E+002  +9.4821533245E-003 -2.6027200141E+001  +7.3759819224E-003 +2.7242029572E+001  +5.2705107226E-001 -4.3359189417E+000 
3763355.444 +1.8477788800E-001 +1.4850509679E+002  +7.1552146240E-003 +1.4048857128E+002  +1.4163759925E-002 +7.5376846751E+001  +7.5619433595E-001 +1.1706583317E+002 
3888500.626 +1.7618542881E-001 +1.3947881380E+002  +3.1487495543E-003 -1.0489892858E+002  +1.4956870774E-002 +7.7981136526E+001  +4.9464125718E-001 +1.4916343507E+002 
4013645.807 +1.4492563607E-001 +1.4705165948E+002  +2.7202204848E-003 -1.4796034162E+002  +1.2510967271E-003 -1.3423053418E+002  +3.2262093094E-001 +1.5311200301E+002 
4138790.989 +1.9612839257E-001 +1.4743972239E+002  +2.6634029700E-003 -1.7044711397E+002  +5.1412582152E-003 -7.1800615145E+001  +3.3278526106E-001 +1.2678762180E+002 
4263936.170 +1.9252178972E-001 +1.4059059072E+002  +7.2717764262E-003 -1.5759751368E+002  +9.7281891737E-003 -1.4481206780E+002  +3.7683273149E-001 +1.2797956882E+002 
4389081.352 +2.0114166552E-001 +1.4662621077E+002  +5.0405850973E-003 -5.6367725848E+001  +1.2256615397E-002 -1.3906932472E+002  +1.5207887843E+000 +1.2447267258E+002 
4514226.533 +2.4680345100E-001 +1.4250725293E+002  +1.7573097000E-002 +1.1002820586E+002  +7.5484997602E-003 +5.2278672551E+001  +3.9779797001E-001 +6.0812809466E+001 
4639371.715 +2.9643063685E-001 +1.2856901750E+002  +3.1486210053E-002 -9.8235200760E+001  +1.5916859944E-002 +8.1998417492E+001  +1.5525644481E+000 +9.3637009854E+001 
4764516.896 +3.1192845890E-001 +1.3182039576E+002  +1.1775981052E-002 +1.5228080496E+002  +4.4310909236E-003 -1.0756571507E+001  +2.6440150377E+000 +1.2298077850E+002 
4889662.078 +4.6705215104E-001 +1.2791696551E+002  +7.4147675173E-002 -4.0974086185E+001  +3.6099149867E-002 +5.9687277791E+001  +3.8640915973E+000 -3.2833182484E+001 
5014807.259 +4.5155368727E-001 +1.3170310711E+002  +1.2823335477E-001 +7.6510401187E+000  +1.0121838203E-002 -2.4197353877E+001  +4.5897837146E+000 -1.6504172999E+002 
5139952.441 +4.1910286666E-001 +1.2092564541E+002  +3.0210966701E-002 +1.4088479660E+002  +9.1722141407E-003 +1.6139328119E+002  +5.6376262391E+000 -7.4966528289E+001 
5265097.622 +4.2683276572E-001 +1.3585230202E+002  +1.9761896983E-002 -1.6499821145E+002  +3.6653304992E-002 -6.4190550358E+001  +1.5246152486E+000 +1.2541926889E+002 
5390242.804 +3.0889089479E-001 +1.2908741156E+002  +8.5942195204E-003 -1.4863175963E+002  +2.6892594027E-002 +1.2916148470E+002  +1.7032883482E+000 +9.9649277792E+001 
5515387.985 +4.3632711367E-001 +1.3157415723E+002  +2.1467465735E-002 -4.1587328045E+001  +1.4037782847E-002 +2.0295003883E-001  +2.2479112991E+000 +1.0763295342E+002 
5640533.166 +4.4894579112E-001 +1.2168989056E+002  +2.1998385949E-002 -1.4894759816E+002  +2.9469910979E-002 -1.5395252194E+002  +2.4163188732E+000 +6.6057113897E+001 
5765678.348 +4.8254554865E-001 +1.2364484385E+002  +1.7878640871E-002 -1.9047504517E+001  +1.0562621874E-002 +5.8878921382E+001  +2.6716452926E+000 +7.1844568709E+001 
5890823.529 +5.5869679801E-001 +1.2065764255E+002  +2.8586227369E-002 +1.7558488168E+002  +4.5480130563E-002 +1.5815785187E+002  +2.4954829004E+000 +6.4145040793E+001 
6015968.711 +7.0692809288E-001 +1.1517186991E+002  +2.0144719837E-002 -1.7992563015E+002  +5.3053322793E-002 -1.6619033126E+001  +3.2049193595E+000 +2.2935620210E+001 
6141113.892 +8.2530011312E-001 +1.1436239910E+002  +2.4804362696E-002 +1.5984763559E+002  +9.6870364234E-003 +1.3397468515E+002  +1.9390655052E+000 +2.1919187011E+001 
6266259.074 +9.8868462512E-001 +8.3236072547E+001  +3.6878514982E-002 -1.4410066608E+002  +4.2651285189E-002 +1.0519768905E+002  +1.4752278297E+000 +2.9679909974E+001 
6391404.255 +1.0496225773E+000 +8.6623312736E+001  +4.1164170988E-002 +5.6119957252E+001  +1.6140769539E-002 -9.2195340195E+000  +2.4931577115E+000 +1.7108498874E+001 
6516549.437 +1.3893334872E+000 +9.3495477447E+001  +1.4158979917E-002 +7.9487066263E+001  +1.5455653347E-002 +1.3719156068E+002  +1.1760435852E+000 +8.8411046766E+000 
6641694.618 +1.2179769060E+000 +7.9959981506E+001  +2.3672437969E-002 +1.1135848062E+002  +6.4847741863E-003 +1.2276981674E+002  +1.2864969432E+000 +6.8502541532E+000 
6766839.800 +1.2650048290E+000 +5.9380037421E+001  +9.1196859797E-003 +1.6082949941E+002  +1.2812918331E-002 +2.8433128434E+001  +1.2095321811E+000 -4.9193087283E+000 
6891984.981 +2.1452283548E+000 +2.9633130438E+001  +2.1403205896E-002 +1.4658155952E+002  +2.7033894792E-002 +1.3870199133E+002  +1.2700389361E+000 -6.7924695631E+000 
7017130.163 +1.5173057325E+000 +1.0251307325E+001  +1.7315725886E-003 +9.7051805325E+001  +2.9817197753E-002 +9.2909297878E+001  +1.1054150268E+000 -1.2664391282E+001 
7142275.344 +1.6123625171E+000 +1.6777868759E+001  +1.7576803990E-002 -1.3672019562E+002  +3.0976997277E-002 -2.5972873876E+001  +1.4168693605E+000 -1.7452093778E+001 
7267420.526 +1.6407392750E+000 +2.7042721699E+000  +4.6816542902E-003 +2.4910425336E+001  +1.0257974894E-002 +1.0770452155E+001  +1.3550691416E+000 -1.5576599365E+001 
7392565.707 +1.5744161442E+000 -5.2525060653E+000  +9.0601433505E-003 +1.0879174227E+002  +7.3533815403E-003 +3.0557248111E+001  +1.2459573498E+000 -1.4389145839E+001 
7517710.889 +1.1909485204E+000 -3.7937706810E+000  +5.4835160966E-003 +1.0325343129E+002  +5.0692980132E-003 +1.2821627388E+002  +1.1680493667E+000 -1.0134408292E+001 
7642856.070 +9.2996550599E-001 +3.0576244632E-001  +4.6295286725E-003 +8.1999136796E+001  +5.4079601515E-003 +1.4949707016E+002  +1.0680629332E+000 -2.5772067720E+000 
7768001.252 +7.9590476114E-001 +6.0890995625E+000  +3.0320402532E-003 +1.7994626168E+002  +9.8176297262E-004 -6.8192171534E+000  +9.5782414876E-001 -1.1798248415E+001 
7893146.433 +8.5814475940E-001 -7.0438828774E-001  +7.8081846876E-003 +1.1983001749E+002  +1.2716423298E-002 +7.5180728019E+001  +9.7237893000E-001 -2.8671299067E+000 
8018291.615 +8.1773183791E-001 +2.0670007437E+000  +5.5448534781E-003 +7.2187163953E+001  +1.1631564956E-002 +1.3667325188E+002  +8.5039500970E-001 -2.4467237867E+000 
8143436.796 +7.3261504939E-001 +6.3607763028E+000  +1.1160810354E-002 +1.0104970675E+002  +2.2725905203E-003 +1.2195391908E+002  +8.4163958952E-001 +2.8243488208E+000 
8268581.977 +7.4070440852E-001 +6.8612700882E+000  +3.8778019603E-004 -1.7062884206E+002  +4.5440797769E-003 +5.6904983037E+001  +7.3581895623E-001 -3.4405017545E-001 
8393727.159 +7.4588064165E-001 +1.1064979866E+001  +3.4283721406E-003 +1.5587903827E+002  +6.0688641530E-003 +1.4362756792E+002  +7.2679037469E-001 -1.3956106243E+000 
8518872.340 +6.8683049096E-001 +7.4606129920E+000  +5.5346498209E-003 +8.1209439443E+001  +4.2167644690E-003 +9.8096705432E+001  +7.1396809924E-001 +4.8830733347E-001 
8644017.522 +6.6832254396E-001 +5.0977438913E+000  +2.7169106265E-003 +7.5675499014E+001  +6.0327755735E-003 +1.7261961858E+002  +7.0450480097E-001 -6.4598327104E-001 
8769162.703 +6.2769687025E-001 +5.9241028372E+000  +3.8747503820E-003 +9.3360793239E+001  +1.4921099954E-003 -9.7015621165E+001  +6.9550309092E-001 -4.2927914273E+000 
8894307.885 +5.8362150534E-001 +8.2483750026E+000  +3.0376695830E-003 +1.0258231089E+002  +5.9771169687E-003 +9.4273185879E+001  +6.6650126002E-001 -7.9433702746E-001 
9019453.066 +6.0143320932E-001 +9.8660032905E+000  +2.9241495372E-003 +1.3418536691E+002  +5.9882623413E-003 +9.0546261397E+001  +6.6112749401E-001 +1.1828929600E+000 
9144598.248 +5.3495460042E-001 +4.7483883729E+000  +6.1551424853E-003 +7.0430773106E+001  +4.4373993943E-003 +1.3162818811E+002  +6.2196738383E-001 +1.3299800560E+000 
9269743.429 +5.5034505208E-001 +4.7238602772E-001  +5.2057021740E-003 +1.1519598717E+002  +4.6235968324E-003 +1.1125885086E+002  +6.2249554765E-001 -1.3372241524E+000 
9394888.611 +5.4977742617E-001 +5.3304691061E+000  +3.1375432217E-003 +4.9536064853E+001  +2.9533941277E-003 +8.8871534233E+001  +5.4274410446E-001 -1.5632703041E+000 
9520033.792 +5.3821399185E-001 +2.3264107405E+000  +1.3986573091E-003 +4.3503426247E+001  +5.5788995880E-003 +8.3302256786E+001  +5.8412244722E-001 -2.4313828857E+000 
9645178.974 +5.6511148661E-001 +2.3206185674E+000  +6.2977387429E-003 +8.2559475750E+001  +4.7639865339E-003 +9.8216595148E+001  +5.4799035855E-001 -8.6911890744E+000 
9770324.155 +5.1769283295E-001 -4.4270304911E+000  +6.1020790268E-003 +9.0750089358E+001  +5.8603075846E-003 +1.1421633074E+002  +6.0457335352E-001 -5.1841424258E+000 
9895469.337 +5.1570164275E-001 +3.3162025215E+000  +4.5080471179E-003 +1.1842182336E+002  +7.1053064388E-003 +1.1226884419E+002  +5.4047677175E-001 -4.3022065837E+000 
10020614.518 +5.7329408278E-001 +2.5770907825E+000  +3.5112751376E-003 +1.0186165128E+002  +7.6433944233E-003 +8.3330762831E+001  +5.8640192758E-001 -4.8745793928E+000 
10145759.700 +5.4742777213E-001 +5.8132450227E+000  +3.7640897577E-003 +7.6787884428E+001  +4.8014077555E-003 +1.2113151163E+002  +5.9741886614E-001 -1.4458978733E+000 
10270904.881 +5.4443266699E-001 +4.4401345638E+000  +5.9334510890E-003 +7.5737587507E+001  +4.3452223018E-003 +7.0099011341E+001  +5.8115314799E-001 -3.8915360050E-001 
10396050.063 +5.5490887685E-001 +7.4798982953E+000  +2.4663817836E-003 +1.3591647367E+002  +6.5957604171E-003 +9.5792811689E+001  +5.6318387022E-001 -1.2555232609E+000 
10521195.244 +5.6905787387E-001 +8.9051659776E+000  +2.0920003130E-003 +6.2837956370E+001  +3.9342841252E-003 +9.8145025919E+001  +6.1433458100E-001 -6.7439624703E-001 
10646340.426 +5.6709980347E-001 +3.8217712737E+000  +4.0566636613E-003 +1.0263937179E+002  +4.0439838883E-003 +1.2422903018E+002  +5.2010234923E-001 +8.9873092373E-001 
10771485.607 +5.6151531172E-001 +5.5617019473E+000  +5.2175738487E-003 +9.5382576990E+001  +6.1812369238E-003 +9.7454838457E+001  +5.9437430941E-001 -8.8075807990E-001 
10896630.788 +5.6047581232E-001 +7.9869091441E+000  +3.8817733865E-003 +9.4083443739E+001  +4.5844086430E-003 +1.0285126554E+002  +5.7985658649E-001 +2.2377992555E-001 
11021775.970 +6.1240292277E-001 +6.1675238227E+000  +5.6379322393E-003 +1.1439629468E+002  +3.0956723927E-003 +9.7431619026E+001  +5.8602936688E-001 +2.1878688026E+000 
11146921.151 +5.9604938868E-001 +8.5278421547E+000  +4.6666372561E-003 +9.2802207808E+001  +6.7479861496E-003 +1.1998325994E+002  +5.9355565132E-001 +4.1985990601E-001 
11272066.333 +5.8212704727E-001 +6.2405415051E+000  +5.1414943479E-003 +1.0108139163E+002  +4.7557900197E-003 +9.6120704012E+001  +6.5065396174E-001 -2.5845002886E-001 
11397211.514 +6.3898428818E-001 +3.8706599084E+000  +7.4578011854E-003 +6.8498152935E+001  +7.0202891894E-003 +1.2706234109E+002  +6.1397522639E-001 +2.4457152954E+000 
11522356.696 +6.3969220837E-001 +6.0770341419E+000  +7.2238130647E-003 +8.2855566208E+001  +4.1078937237E-003 +6.5017938782E+001  +6.4269160464E-001 +2.1597965823E+000 
11647501.877 +6.3804348227E-001 +8.3344173416E+000  +3.8680518814E-003 +1.0884182215E+002  +4.9208103106E-003 +1.0283507068E+002  +6.5533531322E-001 +2.2510066515E+000 
11772647.059 +6.4213686000E-001 +5.0324958263E+000  +4.8794135203E-003 +8.8981120892E+001  +5.3555557659E-003 +1.0249294465E+002  +6.4859431129E-001 +5.4087825052E-001 
11897792.240 +6.5521666825E-001 +5.9935315064E+000  +5.9417378993E-003 +9.9208772226E+001  +5.7739561150E-003 +9.9430567720E+001  +6.6415183976E-001 +3.3745831432E+000 
12022937.422 +6.7622750624E-001 +5.4134781763E+000  +5.4184209176E-003 +1.0154672857E+002  +5.4363646560E-003 +9.5371258865E+001  +6.7417131767E-001 +4.1924975585E+000 
12148082.603 +7.2099130175E-001 +4.9233832739E+000  +5.3783818539E-003 +1.0753168667E+002  +5.7297563529E-003 +8.3537390687E+001  +6.9205558075E-001 +1.1942200140E+000 
12273227.785 +6.9150452709E-001 +5.3018609725E+000  +6.0413444217E-003 +7.4858605061E+001  +6.8850773379E-003 +1.1189459028E+002  +7.0344667453E-001 +1.0383000091E+000 
12398372.966 +7.2299093905E-001 +1.5904868344E+000  +6.4404456098E-003 +7.2638983590E+001  +5.0168022997E-003 +8.2886114471E+001  +7.1978902515E-001 +2.1493468007E+000 
12523518.148 +7.4090535167E-001 +4.7353484479E+000  +5.8637471206E-003 +7.6704127461E+001  +4.2909389480E-003 +1.0225487008E+002  +7.2548116270E-001 -2.4296789605E+000 
12648663.329 +7.4058626834E-001 +2.5301557035E+000  +4.8836310787E-003 +9.1258520608E+001  +5.0674073168E-003 +1.1505017669E+002  +7.4834808717E-001 -1.0098598299E-001 
12773808.511 +7.3034923523E-001 +1.0531507729E+000  +5.5227763672E-003 +7.9597554219E+001  +6.8143213061E-003 +9.3973066262E+001  +7.4948511666E-001 -6.3370754894E-002 
12898953.692 +7.9958413940E-001 +1.7554506683E+000  +6.3267488608E-003 +9.7990721528E+001  +5.8462856144E-003 +9.5668272095E+001  +7.7581723640E-001 -2.4784067559E+000 
13024098.874 +7.7820132904E-001 +2.9992836219E-002  +8.8299024219E-003 +9.5941288652E+001  +6.6594584580E-003 +1.0607562076E+002  +8.1612704284E-001 -1.9498124607E+000 
13149244.055 +8.0518589881E-001 +2.8553154395E-001  +5.9280598389E-003 +9.0156630225E+001  +5.3944475228E-003 +8.6103681138E+001  +8.2777961309E-001 -1.0213278362E+000 
13274389.237 +8.2366379924E-001 +1.7228312133E-001  +7.0606518960E-003 +8.6888522766E+001  +5.0300487776E-003 +9.3672951017E+001  +8.1976416628E-001 -3.1013698540E+000 
13399534.418 +8.4256201130E-001 -7.3839263855E-001  +7.6989689832E-003 +9.9313482281E+001  +5.7906943204E-003 +8.4855600411E+001  +8.6127245411E-001 -2.4844098867E+000 
13524679.599 +8.7881531821E-001 -1.0655053306E+000  +6.1775534106E-003 +8.8710063907E+001  +7.1557232226E-003 +9.3611367927E+001  +8.7583728522E-001 -2.0424594844E+000 
13649824.781 +8.8861421124E-001 -2.6468796326E+000  +6.3478097954E-003 +9.3853014702E+001  +8.3368299396E-003 +1.0387612172E+002  +9.0764493354E-001 -4.1238736641E+000 
13774969.962 +8.5372016900E-001 -2.2118886251E+000  +7.0137070074E-003 +9.5235499153E+001  +7.1760109840E-003 +9.8659319679E+001  +8.7985421834E-001 -3.3686030212E+000 
13900115.144 +9.1924687344E-001 -3.5280913286E+000  +7.6010626494E-003 +9.3135918428E+001  +6.9422829379E-003 +1.0138389133E+002  +9.1284140560E-001 -2.9947661151E+000 
14025260.325 +9.3716632806E-001 -3.9476466312E+000  +7.3703961501E-003 +1.0353518126E+002  +7.6362915345E-003 +8.2925086257E+001  +9.3852904287E-001 -3.6990412366E+000 
14150405.507 +9.3775346511E-001 -4.0821106768E+000  +8.5267745741E-003 +8.7079601720E+001  +7.0299260042E-003 +1.0005312545E+002  +9.6632118040E-001 -3.6985100258E+000 
14275550.688 +9.5727862405E-001 -5.1834713462E+000  +7.8944826051E-003 +9.3590023047E+001  +6.9717871105E-003 +9.7126057301E+001  +9.6072610238E-001 -3.2541848036E+000 
14400695.870 +9.5852662552E-001 -4.4333270372E+000  +8.1074953142E-003 +1.0063293561E+002  +8.3319330484E-003 +9.4187246420E+001  +1.0172795243E+000 -4.3910329349E+000 
