!  2-Port S-parameters saved by WinCal
! VAR NAME=S2_r4c9_formed(0)_9k-100M_1
! VAR DATE=30/08/2024 11:35:22
! VAR FILENAME=S2_r4c9_formed(0)_9k-100M_1.S2P
! VAR MeasName=S-Parameters (CALIBRATED_DATA) read from VNA (P5004A)
! VAR MeasDate=28/08/2024 09:58:47
! VAR PHYS_PORTS=1,2
! VAR ObjTypeName=DATASET
! VAR IndexType=Frequency
!
# Hz S MA R 50
9000.000 +8.2221786471E-002 -1.6676430230E+002  +7.4447959313E-003 -5.8087858064E+001  +1.4656635856E-002 +3.4722255362E+001  +3.7407748129E-001 -1.1302861347E+002 
134145.181 +1.1118704721E-001 +1.6995141272E+002  +6.1335794278E-005 +1.1379294288E+002  +5.8518912684E-004 +1.4440912783E+002  +2.3848234505E-001 -1.7091675878E+002 
259290.363 +1.1125374708E-001 +1.6964098284E+002  +4.0611165656E-004 -1.4142504354E+002  +1.6902895457E-003 -1.5953475647E+002  +2.3763321026E-001 -1.6621032674E+002 
384435.544 +1.1538461713E-001 +1.7006913953E+002  +2.4420027743E-004 +7.5664469753E+001  +1.0539883261E-003 -2.7977884651E+001  +2.4902634049E-001 -1.6857644889E+002 
509580.726 +1.1221226999E-001 +1.6994264594E+002  +3.9707353572E-004 +1.6775156410E+002  +5.0204066456E-004 -1.0297812708E+002  +2.3654076111E-001 -1.6777331426E+002 
634725.907 +1.1788487962E-001 +1.7119807521E+002  +8.2010229647E-004 -1.6527365530E+002  +6.9315723362E-004 +1.3886997090E+002  +2.5502659493E-001 -1.6207867104E+002 
759871.089 +1.2010761859E-001 +1.7224921656E+002  +9.6424809315E-004 -1.7901014441E+002  +1.5400656988E-004 -8.9368460090E+001  +2.5521924925E-001 -1.6706570220E+002 
885016.270 +1.1947589113E-001 +1.6896115303E+002  +3.0670481572E-004 -1.4909754373E+002  +5.4234132652E-004 +4.3535008667E+001  +2.4548553302E-001 -1.6523628278E+002 
1010161.452 +1.1835925883E-001 +1.7106885453E+002  +5.7966605721E-004 +3.1791486633E+001  +1.7795980390E-003 +1.6232556999E+002  +2.0874945752E-001 -1.6542486685E+002 
1135306.633 +1.1905677969E-001 +1.6869403949E+002  +1.6350555748E-003 +1.0233822274E+002  +8.8160260460E-004 -1.4902863210E+002  +1.9131372034E-001 -1.6222660214E+002 
1260451.815 +1.2049809254E-001 +1.7089648494E+002  +9.6475102017E-004 +4.7280769321E+001  +9.9509110465E-004 +5.5409529590E+001  +2.3729018490E-001 -1.5712392785E+002 
1385596.996 +1.2284411724E-001 +1.7043358648E+002  +2.1174047470E-004 +1.0066213509E+002  +9.5188868931E-004 -1.1134212633E+002  +2.6536644954E-001 -1.5759715098E+002 
1510742.178 +1.2681292918E-001 +1.7291863523E+002  +9.9902214939E-004 -1.2057047279E+002  +1.4316398290E-003 -3.2840705007E+000  +2.5395787815E-001 -1.5830107705E+002 
1635887.359 +1.2536963536E-001 +1.7093805840E+002  +8.8898518165E-004 -7.6879144508E+000  +2.5936325929E-003 +1.7093295673E+002  +2.3536411330E-001 -1.5173443629E+002 
1761032.541 +1.2812209058E-001 +1.6964775174E+002  +6.4952848260E-004 -4.3602329417E+001  +2.2207026665E-003 -7.8627024514E+001  +2.2573605539E-001 -1.5457457134E+002 
1886177.722 +1.3109196225E-001 +1.7057232013E+002  +1.8783782069E-003 +1.4707453189E+002  +2.4683898040E-003 -8.8772101686E+001  +2.0745426576E-001 -1.6303010611E+002 
2011322.904 +1.3211649885E-001 +1.6802434058E+002  +2.2942297960E-003 +1.7956121992E+002  +2.2774129496E-003 +1.6204449176E+002  +1.7406381449E-001 -1.7088590923E+002 
2136468.085 +1.3159253664E-001 +1.6697720486E+002  +1.7016880205E-003 -1.6632167734E+002  +5.0829992917E-003 -1.4419539961E+001  +1.7151464216E-001 -1.3635215837E+002 
2261613.267 +1.3247305928E-001 +1.6890471702E+002  +1.7078332788E-003 -1.5132847196E+002  +3.0813474290E-003 -3.2827252321E+001  +1.7255431491E-001 -1.6926741567E+002 
2386758.448 +1.4405124390E-001 +1.6095056110E+002  +5.5930048977E-005 +1.2992371644E+002  +3.1825520903E-003 -1.4757427025E+002  +2.3594361029E-001 -1.7736956657E+002 
2511903.630 +1.2800013030E-001 +1.6362395586E+002  +4.3342816578E-003 +2.9587111672E+001  +5.3548988474E-003 -3.1427393611E+001  +1.7104700263E-001 -1.6805738437E+002 
2637048.811 +1.1557077925E-001 +1.6397922200E+002  +1.5843036662E-002 -6.8312320828E+001  +4.5982397230E-003 -3.6064369974E-001  +2.2892859520E-001 -4.2083738618E+001 
2762193.992 +1.3024015614E-001 +1.6423337873E+002  +1.4102485645E-002 -2.7283760250E+001  +9.7888110695E-003 +1.3911512445E+002  +5.2859025221E-001 -8.9131490427E+001 
2887339.174 +1.3369942194E-001 -1.7535490797E+002  +5.0857049597E-003 -2.1259932360E+001  +6.2225086953E-003 -1.1280822651E+002  +2.2426738162E-001 -6.7002074531E+001 
3012484.355 +1.2060481945E-001 +1.7890596648E+002  +6.8416547592E-003 -1.3687475261E+002  +7.6808929454E-003 -6.1741859932E+001  +2.3184513970E-001 -1.2297394103E+002 
3137629.537 +1.3229326498E-001 +1.6336334378E+002  +6.2599564357E-003 -1.1710743613E+002  +9.4746858182E-003 -2.0415394318E+001  +1.2058400861E-001 -5.2282801162E+001 
3262774.718 +1.1924656521E-001 +1.6651160505E+002  +1.1778250842E-002 -6.1477470345E+001  +2.4022954512E-002 +3.7823161998E+001  +6.6890424154E-001 -8.2842434081E+001 
3387919.900 +1.0083616055E-001 +1.6624063565E+002  +8.8696582123E-003 -3.9907332272E+000  +1.3840169144E-002 -7.5684688666E+001  +1.2567716000E-001 +1.2104273048E+002 
3513065.081 +1.3356472244E-001 +1.5678464874E+002  +1.0979625429E-002 +1.3644417628E+002  +1.9069955766E-002 -8.2742492544E+001  +8.6349760865E-001 +1.5039183612E+002 
3638210.263 +1.4828277393E-001 +1.4733105620E+002  +2.2120461229E-002 -1.6968553090E+002  +2.6013530821E-002 +5.8441120885E+001  +7.7424096280E-001 +1.2273973302E+002 
3763355.444 +1.8139587396E-001 +1.4663025128E+002  +1.6679136613E-002 -3.8578917996E+001  +5.8714299240E-003 +1.5798661735E+002  +7.4420271929E-001 +1.1070466727E+002 
3888500.626 +1.7529296614E-001 +1.5232560345E+002  +8.4736771453E-003 +1.3954390252E+002  +1.0874709971E-002 -1.8389037014E+001  +7.8027338155E-001 +1.2565477223E+002 
4013645.807 +1.8718304871E-001 +1.4482537249E+002  +7.3888433614E-003 -1.0059132623E+002  +4.1428196681E-003 -2.6191209396E+001  +4.1778137386E-001 +7.9830669867E+001 
4138790.989 +1.7114215531E-001 +1.4543044144E+002  +3.4849373791E-003 -6.5175409554E+001  +2.9799054552E-003 -1.6202422965E+002  +4.2929306579E-001 +1.3973256734E+002 
4263936.170 +2.0347040233E-001 +1.4164022806E+002  +5.9643917185E-003 +1.1371455928E+002  +6.8039306904E-003 +7.3369140713E+001  +3.3585101198E-001 +1.2791788514E+002 
4389081.352 +1.8679407973E-001 +1.3878733056E+002  +1.5625737362E-002 -3.9237199908E+001  +9.3422665421E-003 +4.3512968305E+001  +8.7450924798E-001 +3.8558179767E+001 
4514226.533 +2.4793522183E-001 +1.3416897457E+002  +1.4551190878E-002 +1.1727361221E+002  +8.8361171414E-003 -3.1533537990E+000  +6.1129321195E-001 +7.2803322364E+001 
4639371.715 +2.7706359116E-001 +1.3186839376E+002  +2.6564524187E-002 -1.7467605141E+001  +2.3476065067E-002 +1.6566904594E+002  +2.3420783149E+000 +1.5266606218E+002 
4764516.896 +3.1363929313E-001 +1.3387644016E+002  +2.5458172129E-002 +2.2365859664E+000  +4.2224962387E-002 +6.6709521297E+001  +3.3905754542E+000 +7.5658404894E+001 
4889662.078 +5.4605012909E-001 +1.3630688651E+002  +3.9675726729E-002 -2.6630045874E+001  +5.8676826424E-002 +8.2993867788E+001  +4.2373080322E+000 +1.6003032146E+001 
5014807.259 +3.1042118162E-001 +1.3456833250E+002  +4.1824597129E-002 +3.5128855756E+001  +3.4231921510E-002 -4.3391390072E+001  +2.9325518957E+000 -1.4370986870E+001 
5139952.441 +4.1990221605E-001 +1.2058751912E+002  +2.3652337652E-002 -1.1738940075E+000  +9.6038252728E-002 -1.5168826505E+002  +4.9991710311E+000 +1.3589129897E+002 
5265097.622 +3.6381903631E-001 +1.2797513548E+002  +2.7357074987E-002 -1.2098920364E+002  +9.7935496644E-003 -1.1749912374E+002  +1.9637996007E+000 +1.3040659809E+002 
5390242.804 +4.3655204035E-001 +1.3173869254E+002  +1.5194246781E-002 +1.5909888656E+002  +4.9679163304E-002 +2.3550570056E+001  +2.3595490687E+000 +4.9952566414E+001 
5515387.985 +4.0866921161E-001 +1.2036128146E+002  +9.2832405742E-003 +1.6531554600E+002  +2.0610772327E-002 -1.3291053950E+001  +1.8014339164E+000 +9.2841059231E+001 
5640533.166 +4.5194803079E-001 +1.2464427043E+002  +1.7184298393E-002 -1.2049888261E+002  +1.6494419837E-002 +1.0716053620E+002  +1.2107956728E+000 +3.4442898751E+001 
5765678.348 +5.1900895718E-001 +1.3016948686E+002  +3.0060384882E-002 -1.0832541167E+002  +2.8026685324E-002 +1.0715617016E+002  +2.0904448896E+000 +9.9575249379E+001 
5890823.529 +5.1252986086E-001 +1.1316508426E+002  +4.9320820735E-002 -3.1196861600E+001  +4.2862292146E-002 -1.2716608740E+002  +3.9506208549E+000 +6.9506345762E+001 
6015968.711 +6.1850424741E-001 +1.0774813573E+002  +2.6245348853E-002 +4.1670999813E+001  +4.1692182594E-003 -1.3211420710E+002  +1.7088041462E+000 +3.7990986447E+001 
6141113.892 +5.8915183671E-001 +1.0673013758E+002  +2.6123154157E-002 +1.0692719173E+002  +2.4032372931E-002 -1.5779757484E+002  +1.9773300284E+000 +1.9881774725E+001 
6266259.074 +9.5187701987E-001 +9.9840865700E+001  +4.5170025240E-002 +1.3758454659E+002  +2.4603692180E-002 +8.1387546754E+001  +1.5070446312E+000 +7.4429235474E-001 
6391404.255 +8.6956002972E-001 +9.0284970064E+001  +2.9619744354E-002 +1.4047230282E+002  +2.7552640128E-002 +1.6927408182E+002  +1.6303338516E+000 +2.3114665472E+001 
6516549.437 +1.2921449611E+000 +8.0605755402E+001  +8.4725826906E-003 +1.6710474793E+002  +2.3414967260E-002 +1.0942464811E+002  +1.5679149234E+000 -5.1520374624E+000 
6641694.618 +1.4283888894E+000 +7.8602786239E+001  +2.0734026040E-002 +1.1426459651E+002  +6.9625923481E-003 -9.9745465333E+001  +1.7002411183E+000 +7.3803521391E+000 
6766839.800 +1.9331054791E+000 +2.5284978073E+001  +1.6883434213E-002 +1.7990784756E+002  +9.6018769569E-003 -1.7789112248E+002  +1.4088582184E+000 -1.2402639501E+001 
6891984.981 +1.9614737586E+000 +2.1976201363E+001  +1.2612081080E-002 +1.4445727474E+002  +7.7557211752E-003 +1.1649403441E+002  +1.3669841301E+000 -4.4839094292E+000 
7017130.163 +1.6984838022E+000 +8.3406600995E+000  +7.9527085213E-003 +2.2840128950E+001  +1.1619891487E-002 -1.0295033780E+002  +1.4041464220E+000 -1.2712790527E+001 
7142275.344 +1.9601417400E+000 +1.0668712490E+001  +2.2449156435E-002 +1.3820110758E+002  +1.0833512476E-002 +6.6003959984E+001  +1.5356438731E+000 -1.2289233127E+001 
7267420.526 +1.5258740112E+000 -8.9193833796E-001  +1.0171298331E-002 -1.4871079010E+000  +1.7684002035E-002 -4.1923068818E+001  +1.3072979572E+000 -4.5591653699E+000 
7392565.707 +1.2502376040E+000 +1.6053524413E-001  +8.5292459734E-003 +6.3566135342E+001  +1.8282114014E-003 -1.0694812129E+002  +1.2845774742E+000 -9.6742494014E+000 
7517710.889 +1.2118165612E+000 +5.2515572018E+000  +7.6764536637E-003 +3.6587722834E+001  +1.0630846712E-003 -1.3621104585E+002  +1.1679915186E+000 -8.8437266206E+000 
7642856.070 +1.1224606926E+000 +5.3019762210E+000  +3.3573679185E-003 +1.0790415064E+002  +1.9414210176E-003 -1.0839439568E+002  +1.1211528673E+000 -8.0693433452E+000 
7768001.252 +9.2512758771E-001 +1.3342691739E+000  +4.1835930395E-003 +6.0561894492E+000  +1.5517834668E-003 +1.5293062446E+002  +1.0208895627E+000 -1.0620906329E+001 
7893146.433 +9.3572897095E-001 +1.0942230224E+001  +5.4730255336E-003 -1.0210899789E+002  +4.6161091067E-003 -1.0807286190E+002  +1.0361509191E+000 -6.5350963307E+000 
8018291.615 +8.4069911923E-001 +8.3190645003E+000  +5.0400673981E-003 +5.2139685669E+001  +3.6439571509E-003 +1.5724429841E+002  +8.4009771772E-001 -1.9509285682E+000 
8143436.796 +8.0091795562E-001 +3.5424536399E+000  +5.9783810910E-003 +7.3633161550E+001  +5.4995220202E-003 +1.5441985099E+002  +8.5450485761E-001 -2.7702432378E-001 
8268581.977 +7.3987817603E-001 +1.3005459517E+001  +1.2658400901E-003 +3.7354971026E+001  +3.9187148388E-003 -2.0005697763E+001  +8.0604358842E-001 -2.4225850961E+000 
8393727.159 +7.1424663372E-001 +5.0155480981E+000  +4.8243329541E-003 +3.7958917910E+001  +9.9402737654E-003 +6.1412092616E+001  +7.2168091916E-001 +1.1150185741E+000 
8518872.340 +6.3592834660E-001 +9.1486232551E+000  +3.8481415027E-003 +6.1823118297E+001  +4.0459385908E-003 +1.2287518527E+002  +7.6537428866E-001 -6.7179927911E+000 
8644017.522 +6.6101112274E-001 +3.6617535509E+000  +4.4883757087E-003 +9.1622294590E+001  +4.0125335855E-003 +1.2351963497E+002  +7.3366204781E-001 -1.8830008214E+000 
8769162.703 +6.7585981896E-001 +4.9696838224E+000  +3.1141278048E-003 +1.2043087438E+002  +5.9607103662E-004 -1.3941016396E+002  +6.7983608048E-001 +3.4740441263E+000 
8894307.885 +5.8477450010E-001 +7.1126325998E+000  +5.7281694788E-003 +8.4838446115E+001  +2.3377111000E-003 +6.9272404113E+001  +6.3173030050E-001 +1.6826545564E-001 
9019453.066 +5.7022117481E-001 +3.4841645896E+000  +4.2478976090E-003 +7.8476899882E+001  +9.7712137216E-004 +1.5595101236E+001  +6.6937179109E-001 -1.3434791638E+000 
9144598.248 +5.9189281046E-001 +8.2564534082E+000  +3.9987443813E-003 +8.2144705634E+001  +5.3884114337E-003 +9.2721004047E+001  +6.1622575985E-001 +6.4774625402E-001 
9269743.429 +6.4491833099E-001 +4.3077245308E+000  +4.9772000931E-003 +6.1589239633E+001  +2.1376119055E-003 -7.2165407022E-001  +6.5788138791E-001 -6.6132465434E+000 
9394888.611 +5.3749822055E-001 +3.2530553444E+000  +6.6246724569E-003 +1.3607126909E+002  +6.0310826947E-003 +7.0675454460E+001  +5.5868109305E-001 -5.3155815971E-001 
9520033.792 +5.8979525695E-001 +7.7006948342E+000  +4.5788464232E-003 +9.2361510994E+001  +6.7701963004E-003 +9.9082731593E+001  +6.0887605936E-001 -4.3170678603E+000 
9645178.974 +5.3289132104E-001 +4.3641121771E+000  +4.7809752974E-003 +9.0330947426E+001  +2.9016985385E-003 +1.3363426791E+002  +5.6960588916E-001 -6.8659951738E+000 
9770324.155 +5.7300259908E-001 +3.9950108240E+000  +2.2160441746E-003 +6.6914621893E+001  +3.8294716718E-003 +9.5293726709E+001  +6.3442828347E-001 -5.0206442916E+000 
9895469.337 +5.7925552268E-001 -1.3218081540E+000  +3.1915759718E-003 +8.9426606895E+001  +3.4999365835E-003 +1.0854114004E+002  +6.2159990534E-001 -5.6342835118E+000 
10020614.518 +5.1274910846E-001 +5.8905915400E-002  +3.1596087136E-003 +6.9391860867E+001  +5.4751527722E-003 +1.1023280351E+002  +6.0701331557E-001 -6.1774006874E+000 
10145759.700 +5.5878690735E-001 +1.7085035936E+000  +3.5210971069E-003 +9.4020697177E+001  +4.0853004293E-003 +1.5228646110E+002  +5.9836451231E-001 -1.8829586840E+000 
10270904.881 +5.7758137388E-001 +3.3295859719E+000  +4.7739216995E-003 +8.7918761891E+001  +5.1666316827E-003 +1.1764745094E+002  +5.8559685918E-001 -2.8963186259E+000 
10396050.063 +5.5927539567E-001 +1.2283136420E+000  +6.8796911506E-003 +8.8730519802E+001  +3.4616297579E-003 +1.3709139000E+002  +5.7740600971E-001 -6.1431233656E+000 
10521195.244 +5.9223069583E-001 +6.0386556783E+000  +3.9489873782E-003 +9.2903400050E+001  +4.5430995429E-003 +9.1455308998E+001  +5.9614363522E-001 -1.6518971220E+000 
10646340.426 +5.7861001643E-001 +8.1405413540E+000  +5.0971603522E-003 +1.0323194735E+002  +7.5738156333E-003 +9.5015671686E+001  +6.5208722950E-001 +1.0431954266E+000 
10771485.607 +5.7708332919E-001 +7.0438389159E+000  +8.6111693317E-003 +9.5694857326E+001  +4.1976872479E-003 +1.0305657478E+002  +5.9560257228E-001 -1.8807021262E-003 
10896630.788 +6.2082940844E-001 +7.0443373727E+000  +6.7201381504E-003 +9.7216548158E+001  +3.2159882868E-003 +1.0770155764E+002  +6.1224821558E-001 +1.7682952436E+000 
11021775.970 +5.8244761841E-001 +5.1964060318E+000  +4.0495718530E-003 +6.6896660803E+001  +5.6080803894E-003 +1.1015265208E+002  +6.1759460500E-001 -3.6379703777E-002 
11146921.151 +6.0572356530E-001 +5.0476604449E+000  +7.0362262807E-003 +9.0864733718E+001  +5.5419550853E-003 +9.3336385421E+001  +6.3632301999E-001 +1.1665752409E+000 
11272066.333 +6.0902864218E-001 +6.3199640036E+000  +5.0849568382E-003 +9.4497884364E+001  +4.3708824226E-003 +8.7121324402E+001  +6.3606989320E-001 +1.1671335268E+000 
11397211.514 +6.2490015128E-001 +9.1031127674E+000  +4.6312220514E-003 +9.4672417635E+001  +6.7921713261E-003 +8.9472205184E+001  +6.5934101868E-001 +1.0682756623E+000 
11522356.696 +6.4483747642E-001 +7.6739345355E+000  +2.5886756981E-003 +9.6101316758E+001  +3.7963733028E-003 +7.8652693417E+001  +6.4750323292E-001 -7.9799096899E-001 
11647501.877 +6.3285312239E-001 +3.8350621265E+000  +4.2095620669E-003 +8.1910131260E+001  +5.6616376790E-003 +1.0837425695E+002  +6.2951088846E-001 +9.6119720170E-001 
11772647.059 +6.5138028722E-001 +5.2305725971E+000  +5.9708804864E-003 +9.1949317199E+001  +6.3068881082E-003 +9.5404161010E+001  +6.7899085912E-001 +2.7193724646E-001 
11897792.240 +6.6521365642E-001 +6.2137902474E+000  +4.6886944536E-003 +9.2424139775E+001  +6.1409943444E-003 +1.0691066905E+002  +6.7015182367E-001 +1.7021084054E+000 
12022937.422 +6.5511492596E-001 +1.3943751859E+000  +4.3680411674E-003 +9.4122387220E+001  +6.4247270142E-003 +1.0436931269E+002  +6.9255287012E-001 +6.3311279458E-002 
12148082.603 +6.8788292061E-001 +5.5950072803E+000  +7.2853998822E-003 +9.2664306028E+001  +5.5098833094E-003 +9.0964171122E+001  +7.3164943861E-001 -1.1227480092E+000 
12273227.785 +7.2712923113E-001 +4.5047322896E+000  +6.4252739923E-003 +9.3230224602E+001  +5.2731696917E-003 +9.2912636226E+001  +7.3676333239E-001 +1.8423330683E+000 
12398372.966 +7.0831326682E-001 +2.4898312548E+000  +5.0242292306E-003 +6.7323092057E+001  +5.8413221005E-003 +9.5661704026E+001  +7.5372443361E-001 -7.4173872369E-001 
12523518.148 +7.1359474538E-001 +3.1034495997E+000  +4.9468765368E-003 +1.0165959522E+002  +4.9783300521E-003 +1.0055285028E+002  +7.4999431093E-001 -1.9197730233E+000 
12648663.329 +7.2311731434E-001 +2.1863205606E+000  +5.0260495475E-003 +9.9766429592E+001  +6.0256789968E-003 +8.8272214698E+001  +7.5961389775E-001 -6.2796980843E-001 
12773808.511 +7.9271532301E-001 +1.5075146377E+000  +8.1424467694E-003 +9.4819704640E+001  +6.2540626343E-003 +8.0796748347E+001  +7.6054141028E-001 -8.3146064841E-001 
12898953.692 +7.9557892725E-001 +2.5800598721E+000  +6.5495830497E-003 +7.3628930219E+001  +7.0231234877E-003 +1.0594953527E+002  +7.8440847270E-001 -1.6188216705E+000 
13024098.874 +7.6867995907E-001 +1.9475806017E+000  +5.2252379888E-003 +9.8430381727E+001  +7.5828778117E-003 +9.6788540548E+001  +8.1345365320E-001 -1.4173730582E+000 
13149244.055 +8.2834046281E-001 -8.8635196263E-001  +7.1555100378E-003 +7.8788483500E+001  +4.6611530749E-003 +1.0331343512E+002  +8.2047586161E-001 -2.3940531987E+000 
13274389.237 +8.2906003691E-001 -1.0030861553E-001  +4.5512834948E-003 +9.5678651462E+001  +6.0222427282E-003 +1.0100471819E+002  +8.2564021781E-001 -1.0491677260E+000 
13399534.418 +8.3477012549E-001 -1.4212771769E+000  +7.0860430395E-003 +9.1310051683E+001  +5.1375216487E-003 +8.1641155677E+001  +8.4441912808E-001 -4.3831747615E+000 
13524679.599 +8.6887710630E-001 -2.0592374852E+000  +7.3464288996E-003 +8.2276079441E+001  +6.7210288395E-003 +8.3473605917E+001  +8.7958509976E-001 -3.6690667516E+000 
13649824.781 +8.7575683084E-001 -1.9061846149E+000  +6.5410177982E-003 +9.6325371979E+001  +6.1568256808E-003 +8.8068577055E+001  +8.9398919273E-001 -2.5026606680E+000 
13774969.962 +8.9784069277E-001 -3.5814348984E+000  +6.9530403292E-003 +8.9857145353E+001  +6.3438114828E-003 +9.7712842301E+001  +9.0513543509E-001 -3.5499155900E+000 
13900115.144 +9.1063560172E-001 -4.8023897877E+000  +6.0038324607E-003 +9.6187340079E+001  +6.3104010331E-003 +8.4651503520E+001  +9.0899681934E-001 -4.5870745845E+000 
14025260.325 +9.1261721479E-001 -5.2571375184E+000  +6.5339871271E-003 +9.3019880371E+001  +7.0973639147E-003 +6.6241758099E+001  +9.3877524087E-001 -4.2945016356E+000 
14150405.507 +9.2690123798E-001 -4.1113908813E+000  +6.9019636811E-003 +8.5860836896E+001  +6.4957113573E-003 +8.4051045194E+001  +9.7115428045E-001 -5.1414147424E+000 
14275550.688 +9.7915707364E-001 -4.5137210972E+000  +8.5275516851E-003 +9.8514841272E+001  +7.4896523706E-003 +1.0114063326E+002  +9.9514048852E-001 -3.6873612477E+000 
14400695.870 +9.9314961025E-001 -4.8551017232E+000  +7.4704464798E-003 +8.6702297430E+001  +8.5467074441E-003 +9.1308278198E+001  +9.9825877360E-001 -5.5744741569E+000 
