!  2-Port S-parameters saved by WinCal
! VAR MeasName=S-Parameters (CALIBRATED_DATA) read from VNA (P5004A)
! VAR MeasDate=27/08/2024 17:09:27
! VAR NAME=S2_r3c9_SET1_9k-100M_2
! VAR FILENAME=S2_r3c9_SET1_9k-100M_2.S2P
! VAR DATE=27/08/2024 17:09:27
! VAR PHYS_PORTS=1,2
! VAR ObjTypeName=DATASET
! VAR IndexType=Frequency
!
# Hz S MA R 50
9000.000 +9.2596943643E-002 -1.6108255765E+002  +4.6447737770E-002 +3.2250467276E+001  +8.2124022012E-002 +6.9514448792E+001  +8.7146108363E-001 -1.4153710034E+002 
134145.181 +1.1017279263E-001 +1.6985264486E+002  +6.7494287827E-004 -4.5646260506E+000  +2.3043734869E-004 +1.2638102812E+002  +2.3963889988E-001 -1.7002374089E+002 
259290.363 +1.1333148192E-001 +1.7018270544E+002  +6.2101623123E-004 -1.5164476842E+002  +5.8455541470E-004 -9.7609909580E+001  +2.4338440909E-001 -1.6927345582E+002 
384435.544 +1.1442553581E-001 +1.6971585075E+002  +4.5076842268E-004 -1.0698448940E+002  +6.3829643934E-004 +9.0319345369E+001  +2.4571406829E-001 -1.6838921880E+002 
509580.726 +1.1531456269E-001 +1.7073481215E+002  +5.0169777633E-004 -1.6895789050E+002  +3.5663619477E-004 +1.4741535872E+002  +2.2897856558E-001 -1.6666971224E+002 
634725.907 +1.1641295917E-001 +1.7035803972E+002  +1.5807252800E-004 -1.7282440456E+002  +7.8839246110E-004 +1.5307158828E+002  +2.3723824715E-001 -1.6592531326E+002 
759871.089 +1.1740907326E-001 +1.7075636105E+002  +1.1149904545E-003 +1.5984806167E+002  +1.1038713688E-003 +7.0148734396E+001  +2.4142388480E-001 -1.6027888241E+002 
885016.270 +1.1938789913E-001 +1.7023048354E+002  +4.0012412229E-004 +4.4745005279E+001  +1.0448853944E-003 -6.9672464040E+001  +2.5108163024E-001 -1.6453575338E+002 
1010161.452 +1.1786991755E-001 +1.7146637680E+002  +9.8799675566E-004 -1.5811065907E+002  +1.2301606510E-003 -4.2283052485E+000  +2.3134145652E-001 -1.5188494741E+002 
1135306.633 +1.1524599887E-001 +1.6844375957E+002  +2.4201146899E-003 +1.0281131680E+002  +1.6272459445E-003 -1.7145158777E+002  +1.7430999363E-001 -1.7341506208E+002 
1260451.815 +1.2049919046E-001 +1.7225103612E+002  +2.5756858543E-004 +8.3314246747E+001  +2.4979155117E-003 -1.1749593683E+001  +2.4464644342E-001 -1.5409815410E+002 
1385596.996 +1.2454940714E-001 +1.7274716825E+002  +1.1013819488E-003 -1.1564238222E+002  +1.4787973494E-003 +1.6509131082E+002  +2.6157743065E-001 -1.5651354943E+002 
1510742.178 +1.2616023557E-001 +1.7197150784E+002  +1.1288799152E-003 +8.8613125830E+001  +1.0741136282E-003 +8.6312905077E+001  +2.6130031993E-001 -1.5564604238E+002 
1635887.359 +1.2912256806E-001 +1.7075358439E+002  +1.3012884839E-003 -1.7097629661E+001  +2.6690380761E-003 +1.3527219568E+002  +2.3744818451E-001 -1.5825306802E+002 
1761032.541 +1.2657099473E-001 +1.6995661813E+002  +2.4629929774E-003 -6.1401557725E+001  +2.1454540677E-003 -1.2732895375E+002  +2.1067018387E-001 -1.5234561838E+002 
1886177.722 +1.3158546403E-001 +1.6834870237E+002  +2.0240988604E-003 -4.0550982366E+001  +1.0036738955E-003 +1.4713973116E+002  +1.9024806440E-001 -1.5859362713E+002 
2011322.904 +1.3315495876E-001 +1.6635138605E+002  +1.4323802257E-003 +1.5371965981E+002  +1.3830687591E-003 -1.4475712302E+002  +2.1489212607E-001 -1.6643584312E+002 
2136468.085 +1.2964852726E-001 +1.6062468991E+002  +3.1129032441E-003 +1.3364036342E+002  +4.8016412797E-003 -6.6899945894E+001  +1.7782472651E-001 -1.6128273922E+002 
2261613.267 +1.3353177145E-001 +1.6489744712E+002  +7.9727315375E-004 -6.1300416993E+000  +5.6814030579E-003 -7.9759421034E+001  +1.0836885381E-001 -1.7241737852E+002 
2386758.448 +1.4144356940E-001 +1.6227435740E+002  +2.1266353435E-003 +1.5682601286E+002  +3.6540206978E-003 +7.4271969730E+001  +2.6383952231E-001 +1.7196956732E+002 
2511903.630 +1.4003392994E-001 +1.6188109810E+002  +4.1069552732E-003 +1.3136346359E+002  +2.9667971859E-003 -2.4917072519E+001  +3.0206671555E-001 +1.6595198902E+002 
2637048.811 +1.1752289869E-001 +1.5550691655E+002  +1.9592491857E-002 +1.2449924839E+002  +2.1833469128E-002 -4.8599373268E+001  +1.3280032188E-001 +1.0184666544E+002 
2762193.992 +1.4388185649E-002 +1.1983921563E+002  +2.8596917485E-002 +4.6208704175E+001  +7.8201921086E-002 -7.6703788471E+001  +1.5737440985E-001 +5.8956265831E+000 
2887339.174 +9.6779214268E-002 +1.7784869287E+002  +5.8086742546E-003 +1.5601957610E+002  +8.7516363459E-003 -8.8131776310E+001  +3.4474646640E-001 -1.2522760516E+002 
3012484.355 +1.1985168817E-001 +1.7766536805E+002  +1.8452175595E-002 -1.5189287096E+002  +1.9076093816E-002 +1.7008655259E+002  +1.2721307306E+000 -8.3425502429E+001 
3137629.537 +1.1006953269E-001 +1.7752801259E+002  +1.1306905654E-002 -4.7532114203E+001  +2.1008451224E-002 -7.6848798875E+001  +4.0514490758E-001 -2.2970047189E+001 
3262774.718 +1.1619809566E-001 +1.5505533362E+002  +6.1027716544E-003 +1.5777623793E+002  +2.7996394304E-002 -3.4017001572E+001  +3.3357753249E-001 +7.0749118477E+001 
3387919.900 +1.3416426563E-001 +1.5359316444E+002  +1.6959279376E-002 +1.5703284068E+001  +1.5220057601E-002 -4.0056311110E+001  +8.3502199760E-002 -1.6210514544E+001 
3513065.081 +1.1138002365E-001 +1.6494551314E+002  +2.7745979810E-002 +5.4539340463E+001  +1.6129481423E-002 +4.4506755547E+001  +4.8805059719E-001 +8.6470463585E+001 
3638210.263 +1.5766384070E-001 +1.4447576893E+002  +2.5402663313E-002 +1.3329127749E+002  +1.9474438186E-002 +7.9355197427E+001  +8.8966306227E-001 +1.4937586109E+002 
3763355.444 +1.6254902576E-001 +1.4666084160E+002  +1.0694149040E-001 -1.7316983641E+002  +5.9417632505E-002 +1.4640315751E+002  +3.1287972471E+000 +1.5954806516E+002 
3888500.626 +1.4203425828E-001 +1.4247526881E+002  +2.6913724214E-002 +1.1785233345E+002  +1.4925142074E-002 +3.0904427774E+001  +6.4761255545E-001 +1.1370761285E+002 
4013645.807 +1.9295291930E-001 +1.5231679285E+002  +1.1704782415E-002 +8.2618666627E+001  +1.3828379517E-002 +2.5561931370E+000  +4.0517647028E-001 +1.3649124070E+002 
4138790.989 +1.9430433075E-001 +1.3759279927E+002  +1.5994227889E-002 +5.8617768066E+001  +1.0159305132E-002 -2.0808408814E+001  +4.2954352949E-002 +7.1272788816E+001 
4263936.170 +2.3513080594E-001 +1.4381588765E+002  +2.5769643557E-002 +1.5346388199E+002  +1.6547246059E-002 +7.0910531909E+001  +7.6066447901E-001 +1.1907324088E+002 
4389081.352 +2.2376491451E-001 +1.3503694049E+002  +3.9443856160E-002 +1.0923760116E+002  +1.4498936767E-002 -7.6565122693E+000  +3.4640626737E-001 +9.2644817770E+001 
4514226.533 +2.2264570552E-001 +1.3473473068E+002  +7.3371274792E-002 +9.7802832058E+001  +8.9791410297E-002 +5.2681202819E+001  +1.9666909668E+000 +7.5700136040E+001 
4639371.715 +2.2759722485E-001 +1.3349425960E+002  +1.1900828720E-002 +6.9665515697E+001  +5.1310485392E-002 +2.3810501657E+001  +1.0048929047E+000 +8.5095166220E+001 
4764516.896 +2.7029289405E-001 +1.2527377985E+002  +5.7037653745E-002 +1.0555619367E+002  +4.4681795892E-002 +7.0748290354E+001  +1.7695650766E+000 +9.2605754305E+001 
4889662.078 +4.1709267009E-001 +1.2305935475E+002  +1.4259742165E-001 +1.6018610338E+002  +1.5286287004E-001 +1.7483302149E+002  +9.2693944999E+000 +1.5698209201E+002 
5014807.259 +5.3573607778E-001 +1.1097716903E+002  +1.8498719653E-001 -1.7954490006E+002  +6.7877930415E-002 +1.5100440082E+002  +2.5512112012E+000 +1.6652364169E+002 
5139952.441 +3.8672991892E-001 +1.3311980125E+002  +1.4568235376E-001 +1.0822610383E+002  +1.8280629902E-001 +5.2543999523E+001  +7.8077348059E+000 +6.9451647755E+001 
5265097.622 +4.6664403583E-001 +1.2798980643E+002  +3.3062374147E-002 +1.1196831050E+002  +4.4075833771E-002 +4.9041176658E+001  +1.0510869125E+000 +6.7198284688E+001 
5390242.804 +4.3719709132E-001 +1.2501028508E+002  +4.1747192633E-002 +1.5589656583E+002  +5.6104973799E-002 +7.9609776669E+001  +1.9427911932E+000 +1.1796891374E+002 
5515387.985 +4.4311432300E-001 +1.2624496087E+002  +3.4290537495E-002 +8.8920376925E+001  +2.8091628774E-002 +8.2614250507E+001  +1.3361286422E+000 +1.0149526317E+002 
5640533.166 +4.3857084727E-001 +1.3148748969E+002  +5.6260303597E-002 +1.1729898843E+002  +5.5395855239E-002 +7.3451117459E+001  +2.0495413768E+000 +1.0943776618E+002 
5765678.348 +4.1117811284E-001 +1.0720020203E+002  +5.4132982612E-002 +1.0128186258E+002  +6.0493634037E-002 +9.3847621540E+001  +1.6760264011E+000 +1.1293070196E+002 
5890823.529 +5.7201145887E-001 +1.2686978660E+002  +4.9049022509E-002 +9.2261369358E+001  +7.2366188996E-002 +5.6698484749E+001  +2.2935404513E+000 +5.5608195451E+001 
6015968.711 +7.0588705291E-001 +1.1156824101E+002  +7.9794710099E-002 +7.8910546117E+001  +1.0590261077E-001 +4.3420828920E+001  +1.8134240668E+000 +4.2661619339E+001 
6141113.892 +8.2575275105E-001 +1.1231506047E+002  +4.6174871839E-002 +5.5803477182E+001  +7.0260627828E-002 +3.9224775414E+001  +1.2462152341E+000 +1.8340721850E+001 
6266259.074 +6.9493685204E-001 +1.0809817071E+002  +5.5568087503E-002 +6.4017548617E+001  +4.5937675753E-002 +3.8990974868E+001  +1.3998591568E+000 +3.5119779427E+001 
6391404.255 +1.0145466545E+000 +9.3524411321E+001  +7.9065417867E-002 +4.7418244669E+001  +4.5371347441E-002 +4.2678278766E+001  +1.4580530724E+000 +9.5235390776E+000 
6516549.437 +1.2024570292E+000 +8.5805592085E+001  +8.0518110759E-002 +3.4747580249E+001  +7.9696640940E-002 +4.9217475314E+001  +1.7039881645E+000 +1.0160297532E+001 
6641694.618 +1.9025013475E+000 +7.5858570598E+001  +6.1587509403E-002 +4.9341474977E+001  +7.6366479950E-002 +2.5024683945E+001  +1.3254142383E+000 -4.7609669782E+000 
6766839.800 +1.3245139853E+000 +4.0557186578E+001  +5.6835054721E-002 +1.7246905110E+001  +7.8529388988E-002 -6.6384758721E+000  +1.1246148583E+000 -1.5730273926E+000 
6891984.981 +1.7538525539E+000 +2.9068693597E+001  +6.2809659176E-002 -1.9551577463E+000  +1.0263782547E-001 +9.0460013149E+000  +1.4688146943E+000 -1.3574851396E+001 
7017130.163 +1.5854092696E+000 +1.2683245368E+001  +8.1655343255E-002 +9.1440252558E+000  +5.4463549075E-002 -1.4033375808E+001  +1.3125401414E+000 -6.4883314042E+000 
7142275.344 +1.6680069939E+000 +1.3911250761E+001  +5.3000126332E-002 +1.8690462309E+000  +5.9620345383E-002 -9.6242740567E+000  +1.4313336440E+000 -1.0155039263E+001 
7267420.526 +1.3217098147E+000 +7.4471057076E-001  +5.4613545777E-002 +1.3877555113E+001  +5.4074807438E-002 +2.7948210266E+000  +1.2321044800E+000 -1.1913221437E+001 
7392565.707 +1.3669221381E+000 +1.4822718343E+000  +4.9677216609E-002 +8.9214028098E+000  +3.8548011331E-002 +8.3927126765E+000  +1.3067287990E+000 -4.2169470195E+000 
7517710.889 +1.2194246096E+000 -2.1191708086E+000  +3.8579868906E-002 +3.9865346779E+000  +3.5255536838E-002 +1.1969783063E+001  +1.1109762367E+000 +6.0216596059E-002 
7642856.070 +9.8544456523E-001 +3.9378510376E+000  +3.6129668948E-002 +7.4663997954E+000  +2.6107593860E-002 -2.5946970400E-001  +1.0130672535E+000 -4.5285999181E+000 
7768001.252 +9.4300905858E-001 +1.0643408387E+000  +2.4666039389E-002 +2.3568901885E+001  +2.2891926212E-002 +1.0687272362E+001  +1.0609756444E+000 -5.9801392037E+000 
7893146.433 +8.9880244198E-001 +1.1166497943E+000  +2.5880304722E-002 -2.5084398084E+000  +3.5331348278E-002 -1.3949118491E+000  +8.9623980152E-001 -2.5854107579E+000 
8018291.615 +7.6298478817E-001 +1.2190695408E+001  +3.1150534785E-002 +5.5623050301E+000  +2.8139135145E-002 +2.4438914002E+001  +7.9650779600E-001 -5.4760819518E-001 
8143436.796 +7.1514513278E-001 +5.2678850646E+000  +2.7603139074E-002 -4.2055826273E+000  +2.4375966195E-002 +2.0451929310E+001  +7.5443208218E-001 +1.3093712163E+000 
8268581.977 +7.0621841862E-001 +3.9644105646E+000  +2.6597646204E-002 +1.0307760072E+001  +2.8247070818E-002 +8.3440353412E+000  +7.4641094708E-001 +2.5502477450E+000 
8393727.159 +6.7593310070E-001 +1.4776439221E+001  +2.7298982170E-002 +6.4172982464E+000  +2.5095235667E-002 +1.4752108159E+001  +6.8319243122E-001 -6.7227027053E-001 
8518872.340 +6.8334354082E-001 +4.1598714316E+000  +2.6201859435E-002 +4.7362096880E+000  +2.9659980492E-002 +1.7728665682E+001  +7.2725279938E-001 -1.3176408242E+000 
8644017.522 +6.5004148510E-001 +4.8729625655E+000  +2.2631251097E-002 +5.6076802178E+000  +2.4877330672E-002 +2.0967020086E+001  +6.4016203836E-001 +1.9573861041E+000 
8769162.703 +5.8285429385E-001 +5.3844304907E+000  +2.4530568801E-002 -3.0884873627E+000  +2.0596841921E-002 +1.1204757011E+001  +6.6871207731E-001 +4.8239808265E+000 
8894307.885 +5.8659214687E-001 +1.1333809092E+001  +2.3632909801E-002 +1.7855892540E+000  +2.1622615085E-002 +2.4896982261E+001  +6.3933730525E-001 +5.2357050897E+000 
9019453.066 +5.3013471818E-001 +1.1534499682E+001  +2.5810535131E-002 +4.6607307323E+000  +2.4661967129E-002 +1.6387533126E+001  +6.5962563870E-001 -2.3592607047E-001 
9144598.248 +5.2925267505E-001 +9.3134573637E+000  +2.4894050807E-002 +3.3234002561E+000  +2.0463816257E-002 +1.6049065038E+001  +5.7149178776E-001 +1.7741398874E+000 
9269743.429 +5.7938560662E-001 +6.8566085769E+000  +2.5183321101E-002 +4.2538604132E+000  +2.3625691265E-002 +2.8109942670E+001  +6.2168081152E-001 +1.1404950241E+000 
9394888.611 +5.3038989807E-001 -4.9335790614E-001  +2.5375098746E-002 +4.1327988167E+000  +2.1642763595E-002 +2.4089265240E+001  +5.7513282303E-001 +1.4284471344E+000 
9520033.792 +5.4813968071E-001 -8.6904531032E-001  +2.3640047174E-002 +5.0159857151E+000  +2.3812384112E-002 +1.6154844076E+001  +5.4591283479E-001 -6.0666096257E+000 
9645178.974 +5.1586582365E-001 +3.5202222631E-001  +2.1038754664E-002 +9.8433633847E+000  +2.7209171293E-002 +1.3463249051E+001  +5.3392841310E-001 -8.2289417082E+000 
9770324.155 +5.1842259120E-001 +1.6999095207E+000  +2.4133930364E-002 +9.7265724894E+000  +2.5527571191E-002 +2.2714015682E+001  +5.6572624618E-001 -6.7846303277E+000 
9895469.337 +5.3190993083E-001 -1.0483618861E+000  +2.3713083834E-002 +4.0054285346E+000  +2.6125041923E-002 +1.6969576218E+001  +5.3777844234E-001 -3.4213556351E+000 
10020614.518 +5.2408415947E-001 +4.0473281450E+000  +2.3051343471E-002 +4.6728258132E+000  +2.2206031444E-002 +2.5721825009E+001  +5.6347854793E-001 -4.4833621201E+000 
10145759.700 +5.1024272991E-001 +3.0380848243E+000  +2.1348762461E-002 +4.6135941985E-001  +2.3776980401E-002 +1.5625751079E+001  +5.5042505355E-001 -8.1171326310E+000 
10270904.881 +5.1809252830E-001 +2.7977080517E+000  +2.4752076728E-002 +7.2885194236E+000  +2.5037954122E-002 +2.5095095733E+001  +6.2422659491E-001 -2.0935445781E+000 
10396050.063 +5.4545962173E-001 +1.1066397936E+000  +2.1963407055E-002 +1.6475072215E+000  +2.7425943798E-002 +2.5169025636E+001  +5.7397686658E-001 -1.4596817797E+000 
10521195.244 +5.4394339037E-001 +6.8167351489E+000  +2.4639398299E-002 +8.1110105662E+000  +2.5620822823E-002 +2.4015027894E+001  +5.4713990715E-001 -1.7269586566E+000 
10646340.426 +5.4619050253E-001 +6.4953243494E+000  +2.5596838486E-002 +5.4841722267E+000  +2.3220029182E-002 +2.6794362943E+001  +5.8726475877E-001 -2.9526215078E+000 
10771485.607 +5.6554585752E-001 +6.2794315540E+000  +2.3914151674E-002 +4.9441254409E+000  +2.5280195356E-002 +2.4544822089E+001  +5.8669975257E-001 -1.0940701166E+000 
10896630.788 +5.8497472545E-001 +8.7722423836E+000  +2.4136564127E-002 +8.1830673081E+000  +2.5456081535E-002 +2.3702790980E+001  +5.9585571489E-001 +3.5427364817E+000 
11021775.970 +5.3418577705E-001 +4.7099702483E+000  +2.7154891141E-002 +9.0841374188E+000  +2.4312208837E-002 +2.1498680120E+001  +5.7867182509E-001 +1.3680195590E+000 
11146921.151 +5.7541589206E-001 +7.4923780152E+000  +2.5532747604E-002 +1.2161238242E+001  +2.6900299366E-002 +2.2828800199E+001  +6.0170068004E-001 +4.7182080429E-001 
11272066.333 +5.6703319545E-001 +8.2029235327E+000  +2.4378803706E-002 +8.2598521278E+000  +2.8075424459E-002 +2.5835931083E+001  +6.0210131899E-001 +1.6550046074E+000 
11397211.514 +5.6156928125E-001 +6.5385608598E+000  +2.4512884281E-002 +9.6571301012E+000  +2.7476203912E-002 +2.0548911552E+001  +6.1794278224E-001 +1.1988911499E+000 
11522356.696 +5.9761852821E-001 +5.3597568828E+000  +2.7249912718E-002 +1.2460519964E+001  +2.4325984648E-002 +2.0264315146E+001  +6.1550191987E-001 +1.7008589499E+000 
11647501.877 +6.1315566600E-001 +7.8474488076E+000  +2.6217652728E-002 +1.1106512747E+001  +2.8926492733E-002 +2.2294836357E+001  +6.1846766382E-001 +2.4427292481E+000 
11772647.059 +6.3011458648E-001 +4.9419882744E+000  +2.5721852611E-002 +1.0657796333E+001  +2.5746970592E-002 +2.1689160553E+001  +6.4444870521E-001 +4.8485533563E-001 
11897792.240 +6.5874745870E-001 +5.4456116029E+000  +2.6381774282E-002 +1.1169771678E+001  +2.7305346385E-002 +2.0234743460E+001  +6.7920557846E-001 +7.4940271133E-001 
12022937.422 +6.4722318042E-001 +4.0799938839E+000  +2.7896492132E-002 +1.1810919511E+001  +2.7018419945E-002 +2.4276679413E+001  +6.3018213981E-001 -9.5703510036E-001 
12148082.603 +6.6039535029E-001 +3.3198332726E+000  +2.7570772130E-002 +1.4091207257E+001  +2.6423112532E-002 +2.0789289616E+001  +6.7563146314E-001 +2.2707557054E+000 
12273227.785 +6.8943623835E-001 +3.1523744256E+000  +2.8572408147E-002 +1.1580281916E+001  +2.7981890463E-002 +2.0163435164E+001  +6.8968303861E-001 +4.4200682716E-001 
12398372.966 +6.8149429902E-001 +4.7180900460E+000  +2.8775060071E-002 +1.3763848122E+001  +2.7747817175E-002 +1.9243305915E+001  +6.7210553101E-001 +2.8720773491E-001 
12523518.148 +7.1565842190E-001 +1.9829359485E+000  +2.9913139527E-002 +1.0814702220E+001  +2.6943907806E-002 +2.1486990974E+001  +7.2247110724E-001 +1.9538223286E+000 
12648663.329 +7.1876290310E-001 +2.6332773437E+000  +2.8488169988E-002 +1.4842471434E+001  +3.0101239809E-002 +2.0190621315E+001  +7.0153570325E-001 -6.4163881203E-001 
12773808.511 +7.3491385951E-001 +1.3856596094E+000  +2.9069974326E-002 +1.2548242540E+001  +2.8085714741E-002 +2.0653578450E+001  +7.4173868190E-001 +1.4359515557E-001 
12898953.692 +7.0192302026E-001 +5.5882728800E-001  +2.9410683172E-002 +1.5694912393E+001  +3.1066094822E-002 +1.8560248558E+001  +7.3757399937E-001 -2.3726237790E+000 
13024098.874 +7.7307008599E-001 +2.0115945809E+000  +2.9091344224E-002 +1.9115905586E+001  +3.0090524893E-002 +2.0265338550E+001  +7.8892664375E-001 -1.4912208416E+000 
13149244.055 +7.5729023821E-001 -2.3171641070E-001  +3.1036459960E-002 +1.5523007167E+001  +3.0282379322E-002 +1.5713814076E+001  +7.6494884159E-001 -6.2270488255E-001 
13274389.237 +7.9015335286E-001 -1.3254922450E-001  +3.1581895740E-002 +1.6058786093E+001  +2.8785376797E-002 +1.8301502244E+001  +7.8437404646E-001 -9.9287195691E-001 
13399534.418 +7.9335794773E-001 -3.1138386228E+000  +3.1585551103E-002 +1.5511577137E+001  +3.0784763044E-002 +1.9455296577E+001  +8.1191338706E-001 -2.8298822703E+000 
13524679.599 +8.2808189536E-001 -1.7756123653E+000  +3.0802389986E-002 +1.4735009083E+001  +3.0198461821E-002 +1.7238039034E+001  +8.3888325957E-001 -1.5899599666E+000 
13649824.781 +8.2311481476E-001 -1.3306517428E+000  +3.1359589775E-002 +1.5418659934E+001  +2.9454058511E-002 +1.6782758127E+001  +8.5206079138E-001 -2.2848346852E+000 
13774969.962 +8.5813737327E-001 -3.2197943654E+000  +3.1337244809E-002 +1.6861292124E+001  +3.0167511955E-002 +1.8880079173E+001  +8.8639489500E-001 -4.2518431754E+000 
13900115.144 +8.6984792658E-001 -2.8373457231E+000  +3.1903011200E-002 +1.6137905725E+001  +3.2185664895E-002 +1.8528793285E+001  +8.7804288803E-001 -4.0510239624E+000 
14025260.325 +8.8264695759E-001 -2.5211445262E+000  +3.0278565347E-002 +1.6146496785E+001  +3.1314052515E-002 +1.7622089403E+001  +9.1562081996E-001 -3.8232495305E+000 
14150405.507 +9.0632184436E-001 -4.1223391281E+000  +3.2579232114E-002 +1.5660673043E+001  +3.0971264842E-002 +1.5647827753E+001  +9.2144142133E-001 -5.5428936832E+000 
14275550.688 +9.2664974960E-001 -5.9558396965E+000  +3.2612032611E-002 +1.4944134829E+001  +3.2797587903E-002 +1.4686314118E+001  +9.2542488901E-001 -4.5073133257E+000 
14400695.870 +9.5780448502E-001 -5.4661884978E+000  +3.2829230517E-002 +1.5081270438E+001  +3.1777658776E-002 +1.3695736693E+001  +9.4599115303E-001 -3.7833932020E+000 
