!  2-Port S-parameters saved by WinCal
! VAR MeasName=S-Parameters (CALIBRATED_DATA) read from VNA (P5004A)
! VAR MeasDate=27/08/2024 17:12:49
! VAR NAME=S2_r3c9_RESET2_9k-100M_3
! VAR FILENAME=S2_r3c9_RESET2_9k-100M_3.S2P
! VAR DATE=27/08/2024 17:12:49
! VAR PHYS_PORTS=1,2
! VAR ObjTypeName=DATASET
! VAR IndexType=Frequency
!
# Hz S MA R 50
9000.000 +8.1465449709E-002 -1.5540970173E+002  +8.3048808192E-003 +1.1199731761E+002  +1.2112924693E-002 +1.2675945339E+000  +2.3395331117E-001 -1.3731989435E+002 
134145.181 +1.1128282356E-001 +1.6975872235E+002  +2.5117590811E-004 -6.6628299155E+001  +8.0542475285E-004 -2.1401621610E+000  +2.4115918156E-001 -1.6934785911E+002 
259290.363 +1.1264793307E-001 +1.6960838015E+002  +7.1812915962E-004 +4.2502815733E+001  +9.7703783438E-004 -5.7759318253E+000  +2.4341002766E-001 -1.6809206996E+002 
384435.544 +1.1388540876E-001 +1.7023450040E+002  +5.3004473955E-004 -2.8104312171E+001  +7.0799379160E-004 +1.0517892787E+002  +2.4198250517E-001 -1.6905544975E+002 
509580.726 +1.1138501497E-001 +1.7067710305E+002  +8.4432070890E-004 +5.2548492769E+001  +5.3512251736E-004 -1.0635373492E+001  +2.4835552112E-001 -1.6506888354E+002 
634725.907 +1.1610357165E-001 +1.7192480984E+002  +5.0182743810E-004 -9.1964815466E+001  +9.9358066899E-004 -6.2806571506E+001  +2.4614283971E-001 -1.6288422141E+002 
759871.089 +1.1772356614E-001 +1.7133261107E+002  +6.2112942688E-004 -9.6458416285E+001  +1.0503687293E-003 +5.3864411039E+001  +2.5192405921E-001 -1.6421416966E+002 
885016.270 +1.1868672839E-001 +1.6995435635E+002  +2.5250080470E-004 +1.6458440794E+002  +9.0990716359E-004 +1.5808222872E+002  +2.4091760298E-001 -1.6501755804E+002 
1010161.452 +1.1655555812E-001 +1.7161959145E+002  +6.3126134053E-004 -1.6103007792E+002  +1.6136511943E-003 +6.1426227753E+001  +2.1882926969E-001 -1.5735589501E+002 
1135306.633 +1.1552480579E-001 +1.6998120775E+002  +1.1470977642E-003 -3.2449805668E+000  +7.8572412259E-004 -7.0287239461E+001  +1.7296402942E-001 -1.6351921708E+002 
1260451.815 +1.2265277294E-001 +1.7208836962E+002  +7.8717056324E-004 +1.6280652308E+002  +1.3557424963E-003 +1.7362639611E+002  +2.3732405772E-001 -1.5730377502E+002 
1385596.996 +1.2621234485E-001 +1.7041825089E+002  +5.3205168654E-004 +1.5899158735E+002  +6.9467978007E-004 +9.1069919863E+001  +2.5595165599E-001 -1.5883152108E+002 
1510742.178 +1.2678453478E-001 +1.7108807147E+002  +1.9710720967E-004 -1.4127296492E+002  +3.5402741362E-004 +1.5683698322E+002  +2.5639256805E-001 -1.5871269426E+002 
1635887.359 +1.2678744996E-001 +1.7225751095E+002  +6.8232814858E-004 +2.4704058285E+001  +8.7113643560E-004 +1.1636635873E+002  +2.3727018292E-001 -1.6032971927E+002 
1761032.541 +1.2911635220E-001 +1.7066013068E+002  +6.6874306881E-004 -1.3911480277E+002  +1.3204559512E-003 -5.9344687511E+001  +2.2840248793E-001 -1.5992635593E+002 
1886177.722 +1.2291164599E-001 +1.6833299462E+002  +2.6136479370E-003 +1.3128947282E+002  +2.0960117880E-003 -2.0842599421E+001  +2.2275242640E-001 -1.5684616307E+002 
2011322.904 +1.2633351205E-001 +1.6900140155E+002  +1.5922070421E-003 -8.4988553766E+001  +4.3220447449E-003 +7.7240419037E+001  +1.7311549479E-001 -1.6054798673E+002 
2136468.085 +1.3092829438E-001 +1.6782208252E+002  +2.7404864809E-004 +4.4571100759E+001  +2.3084998930E-003 -5.4392020351E+000  +1.9573863234E-001 +1.6859405640E+002 
2261613.267 +1.3259022705E-001 +1.6322944875E+002  +3.6742507775E-003 -1.3599333582E+002  +3.6358649585E-003 -1.6274652244E+002  +1.6672088773E-001 +1.7411395978E+002 
2386758.448 +1.3283052541E-001 +1.6291716956E+002  +2.4177019980E-003 +2.9598422132E+001  +2.4836525175E-003 +3.1794472171E+001  +2.2815718608E-001 +1.7516380400E+002 
2511903.630 +1.3412618867E-001 +1.6496873316E+002  +5.7347719559E-003 -1.6403125460E+002  +1.8205486289E-003 -9.8178788684E+001  +2.1394778123E-001 +1.5394761056E+002 
2637048.811 +1.2780503930E-001 +1.6546527434E+002  +1.0320739930E-002 +1.3125827590E+002  +1.0597356829E-002 -1.7305919992E+002  +4.6970064876E-001 +1.5354617298E+002 
2762193.992 +1.0636530883E-001 +1.6775287813E+002  +5.8978550518E-002 -1.7624078627E+002  +5.1119129885E-002 +1.7486747301E+002  +2.0568426769E+000 +3.2103614185E+001 
2887339.174 +1.1038693568E-001 +1.7609237415E+002  +1.1142209413E-002 -7.9953651965E+001  +3.9268249759E-003 +1.0607121536E+002  +8.0041870662E-001 -1.2673977455E+002 
3012484.355 +1.2150718682E-001 +1.7239846197E+002  +2.8456823462E-002 +7.5376599222E+001  +1.6049805954E-002 -7.4163745058E+001  +9.2923484290E-001 -7.8425499796E+001 
3137629.537 +1.3090694365E-001 +1.7210798739E+002  +6.4948005770E-004 -3.7563863209E+001  +2.7797407892E-003 +1.2354450894E+002  +3.2270855717E-001 -9.7534811310E+001 
3262774.718 +1.1039499055E-001 +1.6153905886E+002  +6.2864179274E-003 +9.1641159432E+001  +7.4644044210E-003 -3.8115137741E+001  +9.9613114444E-002 +1.3628943740E+001 
3387919.900 +1.1880208855E-001 +1.5933355075E+002  +3.3326289609E-002 +1.4313603563E+002  +3.8370381897E-002 +1.7267866898E+002  +2.7406604751E+000 -1.1563369841E+002 
3513065.081 +1.6076788477E-001 +1.4062795745E+002  +2.0966299524E-002 +8.8888141197E+001  +4.4443356173E-002 -1.7967614253E+002  +9.5128301681E-001 +1.1126885490E+002 
3638210.263 +1.9857946234E-001 +1.5124900447E+002  +1.3983226062E-002 -1.3645085710E+002  +1.4775864001E-002 -1.6310463841E+002  +1.2265386865E+000 +8.8766511143E+001 
3763355.444 +1.7432112359E-001 +1.4590839023E+002  +9.9062951436E-003 -1.2024452988E+002  +1.3863705879E-002 -1.8924656067E+001  +5.5188746373E-001 +1.1062555332E+002 
3888500.626 +2.0751006609E-001 +1.4631247889E+002  +5.4649603128E-003 +1.3333412806E+002  +3.5732414371E-003 -1.6190591003E+002  +3.0686968475E-001 +1.5664817884E+002 
4013645.807 +1.9199470751E-001 +1.4720872986E+002  +9.9936191891E-003 -2.4546739561E+001  +9.5321800725E-003 +1.4214954887E+002  +4.8898318317E-001 +7.0552266916E+001 
4138790.989 +1.7353904853E-001 +1.5085145320E+002  +4.8177147234E-003 -1.2663670468E+002  +4.4936231956E-003 -5.7713694519E+001  +6.4244684266E-001 +1.3069006019E+002 
4263936.170 +1.7085131327E-001 +1.3703865453E+002  +8.2804518193E-003 -1.5227911628E+002  +1.5761046045E-002 +8.0669300754E+001  +1.1402886012E+000 +9.5458832271E+001 
4389081.352 +1.9888047464E-001 +1.3920517371E+002  +9.1656673646E-003 +1.0781631243E+002  +4.6632439690E-002 +4.0524907144E+001  +1.4964254416E+000 +1.2619963237E+002 
4514226.533 +2.3141868018E-001 +1.1867839399E+002  +5.1478787449E-002 -1.5126888630E+000  +2.8182867629E-002 +1.9039475122E+001  +1.7205876909E+000 +1.3134732162E+002 
4639371.715 +2.7720233885E-001 +1.3521533686E+002  +1.9903257206E-002 +2.1275879541E+001  +1.8836551463E-002 -1.4246719214E+002  +2.1993380675E+000 +8.5769972397E+001 
4764516.896 +5.6734132680E-001 +1.2560163664E+002  +3.7555611700E-002 +8.3336570396E+001  +1.4668917892E-001 +5.0941106855E+001  +3.9071897072E+000 -9.3591501956E+001 
4889662.078 +4.0324870872E-001 +1.1492465161E+002  +3.9582236569E-002 -2.3886638047E+001  +3.8954042568E-002 -9.9934413573E+001  +2.8691691511E+000 -1.2187598651E+002 
5014807.259 +3.3519044585E-001 +1.2555136640E+002  +6.7988861908E-002 +7.2612069409E+001  +3.1867219813E-002 -1.2566028248E+002  +3.3970027887E+000 -1.1643112199E+002 
5139952.441 +4.8486805824E-001 +1.3043093168E+002  +2.7962719711E-002 -6.6136262061E+001  +4.7762826705E-002 +8.5541739312E+001  +3.0604792213E+000 -1.3037082703E+001 
5265097.622 +4.5558271896E-001 +1.3128081377E+002  +5.8625153683E-002 -1.2225958369E+002  +6.1771508632E-002 -7.1953767716E+001  +4.3112302388E+000 +1.1911030236E+002 
5390242.804 +4.2167233418E-001 +1.3295875143E+002  +1.7253615199E-001 +1.2081121215E+002  +4.8957131900E-002 +9.0925386450E+001  +9.6537849264E+000 +1.3773859175E+001 
5515387.985 +4.5147924895E-001 +1.2730497386E+002  +4.8332406272E-002 -1.1290650893E+002  +2.0544355123E-002 -6.7699126677E+001  +3.3051936567E+000 +5.4930553306E+001 
5640533.166 +4.1883099904E-001 +1.2748058942E+002  +1.8789399800E-002 +1.2808390686E+002  +2.3808176984E-002 +9.1771355173E+000  +3.0814710946E+000 +6.7742106184E+001 
5765678.348 +5.1583809259E-001 +1.3314357640E+002  +4.2263273769E-002 -8.8489707475E+001  +1.7975894809E-003 +1.6816330002E+002  +2.8639131526E+000 +6.2764257374E+001 
5890823.529 +6.3518551159E-001 +1.2159866783E+002  +1.4307430616E-002 +1.0809080492E+002  +2.2367529782E-002 +1.0504339342E+002  +1.7899236892E+000 +3.1355141034E+001 
6015968.711 +7.0864926231E-001 +1.1280289883E+002  +3.0692783244E-002 -1.2037911981E+002  +1.9023135144E-002 +1.6437274894E+002  +2.4387927739E+000 +2.5092088311E+001 
6141113.892 +7.1271447251E-001 +1.1524167485E+002  +4.3627904444E-002 +1.1038266573E+002  +2.4154204145E-002 +1.5633112435E+002  +2.6779662605E+000 +2.0908660562E+001 
6266259.074 +9.7914444356E-001 +1.0195905780E+002  +4.0512700005E-002 -1.7836822235E+002  +2.5153720209E-002 +1.0406439863E+002  +2.4851037128E+000 +1.4444359308E+001 
6391404.255 +1.0694794999E+000 +9.0523372972E+001  +1.9611682544E-002 +7.4352823816E+000  +1.5933322632E-002 +7.1065958082E+001  +1.3799847233E+000 +3.2201548988E+001 
6516549.437 +1.1546278302E+000 +8.8598072410E+001  +3.2071629956E-002 -1.5383811432E+002  +8.6526776211E-003 -5.7855509042E+001  +1.8844268517E+000 +7.6324313143E+000 
6641694.618 +1.0958396105E+000 +6.6864305244E+001  +6.4571376988E-003 +4.5633434684E+001  +1.5455551889E-002 +1.5997650219E+002  +1.5485766854E+000 -3.0236619351E+000 
6766839.800 +2.1308963127E+000 +6.2515429689E+001  +2.2589351765E-002 +1.3192361778E+002  +4.1754663911E-003 -2.1665475924E+000  +1.6526741829E+000 -2.6669418497E+000 
6891984.981 +2.3515279395E+000 +4.0234096650E+001  +1.2147819760E-002 -2.1485759307E+001  +2.1060739749E-002 +8.6986586547E+001  +1.2540697767E+000 -4.3931091434E+000 
7017130.163 +1.5726095154E+000 +1.8505025185E+001  +2.8121624978E-003 +6.9018743057E+001  +7.5299337891E-003 -4.0672448299E+001  +1.3112575919E+000 -4.9259433532E+000 
7142275.344 +1.9205204492E+000 +9.3282215186E+000  +7.2421425422E-003 +8.5413498844E+001  +1.3813166613E-002 +7.4308694855E+001  +1.3274626527E+000 -4.6662990272E+000 
7267420.526 +1.5357412720E+000 +4.5144519246E+000  +1.1774104551E-002 +2.4703730562E+001  +1.8958564076E-002 +1.3338193584E+001  +1.2913661460E+000 -7.5640592477E+000 
7392565.707 +1.4976224843E+000 -2.0939656430E+000  +1.0174669991E-002 +4.0924924926E+001  +5.7113534993E-003 +4.1849331277E+000  +1.2566710151E+000 -1.0492076933E+001 
7517710.889 +1.0902154151E+000 -5.3023361118E+000  +9.1170971402E-003 +1.0082206624E+002  +1.0369649302E-002 +4.9676551869E+001  +1.2987945668E+000 -9.4140970276E+000 
7642856.070 +1.0600208176E+000 -2.4168705674E-001  +1.3242347342E-002 +5.7396451052E+001  +1.5935643179E-002 +8.4762175835E+001  +1.1018929820E+000 -1.1147610419E+001 
7768001.252 +9.9219794743E-001 +6.1631240785E+000  +9.0849949005E-003 +6.9607084519E+001  +1.3211747193E-002 +7.2907102968E+001  +1.0480044456E+000 -5.5978707457E+000 
7893146.433 +9.4815544982E-001 -7.7807993979E-001  +6.0236321814E-003 +4.7136582364E+001  +3.8770900013E-003 +6.2799217166E+001  +9.5073895311E-001 -2.9416304754E+000 
8018291.615 +8.4670540593E-001 +5.6667278499E+000  +2.9312467719E-003 +3.0249776587E+001  +9.3430038861E-003 +8.1340987593E+001  +9.1298381889E-001 -1.5919064841E+000 
8143436.796 +7.6819228876E-001 +4.5930508158E+000  +5.7231773778E-003 +1.6923038113E+002  +5.2263899820E-003 +2.1700169460E+001  +8.4391273899E-001 -4.0253234475E+000 
8268581.977 +7.3946740443E-001 +6.4208848162E+000  +6.0363822790E-003 +6.5757633553E+001  +2.0101598397E-003 +9.8025682623E+001  +7.5735812265E-001 +7.0899715773E-001 
8393727.159 +7.6944659913E-001 +9.1016405003E+000  +5.8131259350E-003 +8.6171414724E+001  +5.1561484528E-003 +8.1780457437E+001  +7.4220965825E-001 -2.1504709166E+000 
8518872.340 +7.2748668519E-001 +7.9882895414E+000  +3.5920416057E-003 +8.0372774680E+001  +1.5000482632E-003 +1.4180227391E+002  +7.0632809345E-001 -1.3658584220E+000 
8644017.522 +6.3853967720E-001 +8.9630794079E+000  +6.9856145008E-003 +1.2612843793E+002  +5.9749720464E-003 +1.0917094036E+002  +6.8907422377E-001 -2.9023407256E+000 
8769162.703 +6.1276727605E-001 -5.2095395271E-001  +4.5992918740E-003 +6.5263069114E+001  +5.3975903758E-003 +8.6224515304E+001  +6.6276127159E-001 +4.2298851175E-001 
8894307.885 +6.0544701411E-001 +8.4021135485E+000  +6.3135367746E-003 +7.5290026743E+001  +2.3286658381E-003 +1.0681372428E+002  +6.2272259088E-001 +8.9422995441E-001 
9019453.066 +6.3242306918E-001 +2.7485895828E+000  +6.1801046494E-003 +1.0104048605E+002  +3.6552684735E-003 +5.0590593307E+001  +6.6365997177E-001 +2.3505407654E-001 
9144598.248 +5.9183954554E-001 +2.8096140202E+000  +4.5990927528E-003 +7.1057961084E+001  +1.7811037355E-003 -1.3660330248E+002  +6.4627546689E-001 -1.4506556142E+000 
9269743.429 +5.8820926102E-001 -3.2094700533E-001  +6.7110626998E-003 +7.0775856883E+001  +7.2434587777E-003 +8.0358308014E+001  +6.1750010411E-001 -3.0862277033E+000 
9394888.611 +5.4430014514E-001 +1.1862415825E+000  +1.7931054673E-003 +1.1070419983E+002  +2.0532742830E-003 +1.0957606243E+002  +6.0439243219E-001 -5.9875151067E+000 
9520033.792 +5.8980736290E-001 +3.3874850172E+000  +4.8743404247E-003 +9.2585204152E+001  +3.3833812096E-003 +8.9982925426E+001  +5.7262783849E-001 -5.5214719529E+000 
9645178.974 +5.3376100847E-001 -1.4309686987E+000  +6.8995547054E-003 +1.0725389572E+002  +5.3494427492E-003 +9.6077949297E+001  +6.1614090584E-001 -4.1358996867E+000 
9770324.155 +5.3122764648E-001 +4.5333301376E-001  +3.1681137664E-003 +3.9107308918E+001  +4.6124826196E-003 +1.1342474164E+002  +6.1984528032E-001 -7.6835318032E+000 
9895469.337 +5.5985328216E-001 -4.9051117605E+000  +4.6788379027E-003 +9.3494470597E+001  +3.2359431723E-003 +1.4573106529E+002  +5.8200538672E-001 -7.6721920732E+000 
10020614.518 +5.5388644388E-001 -2.0536359870E+000  +2.5749444897E-003 +6.5074885144E+001  +1.3397356477E-003 +2.7957362058E+001  +6.3023223884E-001 -5.0701925105E+000 
10145759.700 +5.3653105996E-001 +5.1167381203E+000  +5.1751402678E-003 +6.8153177081E+001  +3.8276885324E-003 +8.6544900804E+001  +6.0565322966E-001 -3.3898723612E+000 
10270904.881 +5.7950715686E-001 +3.5954525984E+000  +5.3197386242E-003 +7.7962143752E+001  +4.8368094535E-003 +6.5730381961E+001  +6.2478038348E-001 -6.9066104425E+000 
10396050.063 +5.5018406898E-001 +2.2262442609E+000  +5.7743205370E-003 +6.9606862713E+001  +5.6652132046E-003 +7.8891486599E+001  +6.0026955999E-001 -3.1813180976E+000 
10521195.244 +5.9457640917E-001 +2.3999698099E+000  +3.9649548362E-003 +8.4393140542E+001  +5.6689313773E-003 +7.1076389377E+001  +5.7162722524E-001 -8.3254441645E-001 
10646340.426 +5.5386806351E-001 +2.3095310665E+000  +5.4134212024E-003 +5.4873407491E+001  +3.4673870212E-003 +7.8313222832E+001  +5.7642101080E-001 -9.2262983144E-001 
10771485.607 +5.9686396742E-001 +7.7547675595E+000  +3.5372301204E-003 +8.1533374459E+001  +3.5470363213E-003 +8.7208079394E+001  +6.3464382295E-001 +3.6873841407E-001 
10896630.788 +5.9613915859E-001 +4.0418408367E+000  +5.6721062829E-003 +9.1293406587E+001  +5.5423672036E-003 +1.0074432236E+002  +6.0768340285E-001 +6.2249303543E-001 
11021775.970 +6.2470487280E-001 +6.4512580604E+000  +5.5360154479E-003 +5.4377250896E+001  +3.5195324559E-003 +1.0451993454E+002  +6.2520109357E-001 +9.2934961641E-001 
11146921.151 +6.2381104766E-001 +8.2019817794E+000  +5.8471999679E-003 +8.2728902749E+001  +6.1354504641E-003 +1.1505484487E+002  +6.3930385582E-001 +2.9770103311E+000 
11272066.333 +6.1413469097E-001 +6.0533287413E+000  +5.3801190366E-003 +7.3266834581E+001  +4.4979939319E-003 +8.5196339897E+001  +6.3446155490E-001 -1.4517122949E+000 
11397211.514 +6.3844635733E-001 +5.5877869773E+000  +5.4442521071E-003 +8.3163055660E+001  +6.3260449683E-003 +1.1453723697E+002  +6.4020191709E-001 +1.2858776013E+000 
11522356.696 +5.8797700142E-001 +8.6483458089E+000  +3.3024475051E-003 +7.1026709930E+001  +5.4835249398E-003 +1.0709914619E+002  +6.3602689058E-001 -3.1556668135E+000 
11647501.877 +6.2498392055E-001 +6.1918093265E+000  +4.4999135049E-003 +7.1274132946E+001  +6.1078087664E-003 +9.6415377198E+001  +6.5955704652E-001 +2.7274403371E+000 
11772647.059 +6.4777143405E-001 +7.0111662792E+000  +7.1445772148E-003 +7.5422402358E+001  +5.0438161066E-003 +6.8918831114E+001  +6.5394673405E-001 -6.2891960774E-002 
11897792.240 +6.4124060247E-001 +3.2072879422E+000  +7.3872216542E-003 +6.7988366712E+001  +4.0584432900E-003 +8.3009714963E+001  +6.6523265759E-001 +1.1589107579E+000 
12022937.422 +6.6258777538E-001 +4.4135169275E+000  +5.2247406844E-003 +8.6036496748E+001  +8.4062832136E-003 +9.7967172455E+001  +6.8427894234E-001 +5.9287936293E-001 
12148082.603 +6.8216352120E-001 +4.7877916654E+000  +5.0368964002E-003 +8.3917863265E+001  +7.0879938110E-003 +8.4077940459E+001  +7.0805382473E-001 +2.3322286838E+000 
12273227.785 +6.9594248979E-001 +6.7511661468E+000  +5.4569704385E-003 +7.6005423681E+001  +7.9755853324E-003 +9.5418059854E+001  +7.1346807103E-001 +2.0225217073E+000 
12398372.966 +7.2859074856E-001 +4.5153097314E+000  +6.4517505606E-003 +6.9458307594E+001  +7.4568994851E-003 +9.7269406780E+001  +7.1290363793E-001 +2.3930280246E-001 
12523518.148 +7.5800685466E-001 +1.7820584995E+000  +7.0384054192E-003 +9.3910727423E+001  +6.2791062027E-003 +8.8609825850E+001  +7.4819467212E-001 +9.0724676676E-001 
12648663.329 +7.4749640185E-001 +2.1463727170E+000  +7.2264375113E-003 +7.8954776030E+001  +4.8894733225E-003 +9.2263557729E+001  +7.5910035096E-001 -2.5542649876E-001 
12773808.511 +7.5418339472E-001 +2.0936656632E+000  +5.7288255557E-003 +1.0427813805E+002  +6.9946000903E-003 +9.4243969922E+001  +7.7110830571E-001 -1.5270628252E+000 
12898953.692 +7.6422040071E-001 +1.5933969783E+000  +5.9705528244E-003 +8.8458096154E+001  +4.8391951534E-003 +7.2335537750E+001  +7.6369965272E-001 -1.9195619421E+000 
13024098.874 +8.1011384081E-001 -2.7704858186E-001  +7.0622391340E-003 +8.7975863308E+001  +5.4679287385E-003 +9.6128726276E+001  +7.7855549250E-001 -9.2621508973E-001 
13149244.055 +8.0940346194E-001 +2.2926327645E-001  +6.0315003942E-003 +9.5146079412E+001  +5.6623249456E-003 +6.3715349171E+001  +8.0116603536E-001 -1.1576741939E+000 
13274389.237 +8.2429964142E-001 -7.1544144558E-001  +7.5763480730E-003 +9.0984665394E+001  +7.3766103078E-003 +9.3986900297E+001  +8.2336450409E-001 -1.6895016543E+000 
13399534.418 +8.2865888760E-001 +5.7830041885E-001  +4.9171705530E-003 +7.9344235733E+001  +7.0706624133E-003 +8.8526660907E+001  +8.4486146055E-001 -1.4861921514E+000 
13524679.599 +8.5500735674E-001 -1.3361055822E+000  +6.3542209646E-003 +7.8007255683E+001  +6.2415980735E-003 +8.5542831595E+001  +8.5906062695E-001 -2.6366262148E+000 
13649824.781 +8.6028967341E-001 -1.7347069447E+000  +7.9145983789E-003 +7.9032934878E+001  +7.0077159949E-003 +9.3715938957E+001  +8.7393184917E-001 -2.7488008476E+000 
13774969.962 +8.7614734152E-001 -2.4690422583E+000  +7.1414133280E-003 +8.7167441593E+001  +7.0883351395E-003 +9.6513188599E+001  +8.9705458099E-001 -4.1396400339E+000 
13900115.144 +9.1134075154E-001 -3.5557314710E+000  +7.8474525792E-003 +8.6865012162E+001  +7.7054118462E-003 +8.6353442608E+001  +9.3145211422E-001 -3.0368207057E+000 
14025260.325 +9.2007407170E-001 -3.6423987002E+000  +5.7842269197E-003 +6.9986846262E+001  +8.4485828993E-003 +7.8671547387E+001  +9.4349962894E-001 -3.4270993486E+000 
14150405.507 +9.3307910884E-001 -4.4435867717E+000  +6.6426618803E-003 +1.0230679903E+002  +8.2771855254E-003 +8.9714568251E+001  +9.6320927472E-001 -3.7025544136E+000 
14275550.688 +9.5821108394E-001 -4.4271873388E+000  +8.0060432881E-003 +7.2697384683E+001  +7.0357528846E-003 +9.5113423223E+001  +9.6960074402E-001 -4.3417523313E+000 
14400695.870 +9.8690235887E-001 -4.8136544944E+000  +5.9255831672E-003 +8.5520376093E+001  +6.9561269252E-003 +8.2615524327E+001  +9.8861688114E-001 -3.5949792642E+000 
