!  2-Port S-parameters saved by WinCal
! VAR MeasName=S-Parameters (CALIBRATED_DATA) read from VNA (P5004A)
! VAR MeasDate=27/08/2024 17:24:43
! VAR NAME=S2_thru_9k-100M
! VAR FILENAME=S2_thru_9k-100M.S2P
! VAR DATE=27/08/2024 17:24:43
! VAR PHYS_PORTS=1,2
! VAR ObjTypeName=DATASET
! VAR IndexType=Frequency
!
# Hz S MA R 50
9000.000 +8.3127573515E-002 -1.6755111443E+002  +1.6138552425E-002 +9.6675338053E+001  +7.5124761655E-003 -8.4194569052E+001  +3.5366452150E-001 -1.4344439368E+002 
134145.181 +1.1075688835E-001 +1.6931327770E+002  +1.0968217124E-004 -1.9104849425E+001  +6.8422542233E-004 +1.4289920880E+002  +2.3752798784E-001 -1.6980384238E+002 
259290.363 +1.1098059898E-001 +1.6937501500E+002  +7.7655191417E-004 -1.0347688760E+002  +1.4598446665E-003 +1.1509349087E+002  +2.4317380974E-001 -1.6897058051E+002 
384435.544 +1.1403761927E-001 +1.6928410624E+002  +8.6670917949E-004 -5.8584294650E+001  +4.3065658884E-004 +1.2911274348E+002  +2.4511187168E-001 -1.7055488746E+002 
509580.726 +1.1469348089E-001 +1.7026517963E+002  +9.0432889830E-004 -7.3638892873E+001  +1.5733749038E-003 +1.0369270453E+002  +2.4571519932E-001 -1.6851592397E+002 
634725.907 +1.1758544748E-001 +1.6979045344E+002  +1.4105339733E-003 -3.0987127334E+001  +9.3867198262E-004 +1.2865601400E+002  +2.4869462101E-001 -1.6607331734E+002 
759871.089 +1.1886853583E-001 +1.7048976432E+002  +1.7029594980E-003 -4.3546721853E+001  +2.2235128004E-003 +1.5006558335E+002  +2.3678814759E-001 -1.6602432421E+002 
885016.270 +1.1903418027E-001 +1.6934120854E+002  +1.5280905503E-003 -3.9062103120E+001  +6.9559106034E-004 +1.6939697551E+002  +2.4106858873E-001 -1.6572938610E+002 
1010161.452 +1.1648962143E-001 +1.7032701867E+002  +3.7052316116E-003 +2.0072604173E+001  +3.0532963336E-003 -1.3436415996E+002  +2.1721539776E-001 -1.6671076979E+002 
1135306.633 +1.1997376251E-001 +1.6980896681E+002  +5.7103335486E-003 +3.0624384149E+001  +4.8208126875E-003 -1.4379668686E+002  +1.7676923561E-001 -1.6077898649E+002 
1260451.815 +1.1970261410E-001 +1.7043519290E+002  +3.5975500944E-003 -1.1033434172E+001  +4.8163167277E-003 +1.7813320137E+002  +2.3133722491E-001 -1.5850648056E+002 
1385596.996 +1.2770510926E-001 +1.7210080092E+002  +2.5569264680E-003 -3.4194189252E+001  +2.1118924670E-003 +1.6094120560E+002  +2.6409104184E-001 -1.6126597318E+002 
1510742.178 +1.2770302219E-001 +1.7105221438E+002  +4.1500401854E-003 +1.1287311750E+001  +4.1804204013E-003 -1.4667926126E+002  +2.4065720095E-001 -1.5914528155E+002 
1635887.359 +1.2962814214E-001 +1.7105185857E+002  +4.1111124054E-003 +2.2748478039E+001  +4.7320653524E-003 -1.2371657249E+002  +2.4547673120E-001 -1.5802595708E+002 
1761032.541 +1.3043480157E-001 +1.7099613771E+002  +4.4737094961E-003 +4.2062457283E+001  +6.1016512697E-003 -9.3523288775E+001  +2.3381405527E-001 -1.6097189255E+002 
1886177.722 +1.2593639711E-001 +1.6895322969E+002  +1.6930259281E-002 +7.5710787713E+001  +1.6248456496E-002 -5.0724146280E+001  +1.8696750965E-001 -1.6178788887E+002 
2011322.904 +1.3129551952E-001 +1.6638731450E+002  +1.7718176801E-002 +8.6806945227E+001  +1.8247733747E-002 -4.8463638684E+001  +1.8958263833E-001 -1.5887094573E+002 
2136468.085 +1.3065014344E-001 +1.7002266558E+002  +1.8159924957E-002 +6.6682629284E+001  +2.0485523619E-002 -6.7865344021E+001  +2.0192187267E-001 -1.6014410846E+002 
2261613.267 +1.3737467616E-001 +1.6356943940E+002  +3.0349619720E-002 +1.2468208658E+002  +3.3360709014E-002 -4.0229309666E+000  +2.0268367043E-001 +1.7434263984E+002 
2386758.448 +1.3472181573E-001 +1.6768524148E+002  +3.4243262238E-002 +7.9410657339E+001  +3.0137454583E-002 -3.8877731387E+001  +1.7610404717E-001 -1.6854600582E+002 
2511903.630 +1.3183740366E-001 +1.6644992434E+002  +4.0772651733E-002 +6.4518838385E+001  +4.4466429634E-002 -5.1049384382E+001  +1.6905163720E-001 -1.4937022269E+002 
2637048.811 +1.0159952642E-001 +1.4693684308E+002  +1.5343427284E-001 +1.0786858110E+002  +1.6524008568E-001 -3.2923363282E+000  +3.2499897418E-001 +1.2059718279E+002 
2762193.992 +1.2636373685E-001 -1.6771985762E+002  +1.1651312019E-001 -7.7708652080E-001  +1.1900510842E-001 -1.1092423981E+002  +2.8626884260E-001 -1.0812641714E+002 
2887339.174 +1.3990992928E-001 -1.7720074894E+002  +5.8975898976E-002 -4.0959889858E+000  +6.4006262729E-002 -1.0868748399E+002  +2.6297826672E-001 -1.3429932592E+002 
3012484.355 +1.6844663611E-001 -1.7511416298E+002  +8.1523096295E-002 -4.2061831230E+001  +9.1795703833E-002 -1.4243913741E+002  +3.7454544013E-001 -1.2236881108E+002 
3137629.537 +1.2982436244E-001 -1.7964900025E+002  +1.0384266128E-001 +1.0422157525E+001  +9.8546252732E-002 -8.6544864846E+001  +2.4285134301E-001 -1.0494555198E+002 
3262774.718 +1.3394327375E-001 -1.3962361888E+002  +2.5207516850E-001 -6.8792737018E+000  +2.4817237176E-001 -9.8485275698E+001  +4.4583427033E-001 -7.7101435193E+001 
3387919.900 +9.7624517683E-002 -1.7407350248E+002  +1.5807924505E-001 +2.5016659208E+001  +1.5494192221E-001 -6.3432228266E+001  +1.6981633539E-001 -8.4084042468E+001 
3513065.081 +1.2907195553E-001 +3.8858956344E+001  +4.2966473557E-001 +5.3751816110E+001  +4.2102884008E-001 -3.3503548011E+001  +3.7525004062E-001 +8.8353937375E-002 
3638210.263 +2.3798683539E-001 +1.1314381664E+002  +3.4617153630E-001 +1.1771770221E+002  +3.3303931381E-001 +3.7424125067E+001  +5.4697051509E-001 +1.1984630496E+002 
3763355.444 +2.4184156826E-001 +1.4355444706E+002  +2.2052570740E-001 +1.4112482714E+002  +2.0899456713E-001 +6.3337416102E+001  +5.4023291747E-001 +1.4311979448E+002 
3888500.626 +1.7560529111E-001 +1.5259067540E+002  +1.1761423182E-001 +8.8674206427E+001  +1.0925580093E-001 +1.3877373167E+001  +1.9789248596E-001 +1.6046705045E+002 
4013645.807 +1.8002690195E-001 +1.4803544824E+002  +1.3613604346E-001 +9.4972453538E+001  +1.2972022753E-001 +2.3219935939E+001  +2.5576570980E-001 +1.5675424809E+002 
4138790.989 +1.7541247271E-001 +1.5605923030E+002  +1.0396541937E-001 +8.3576912014E+001  +1.0247000673E-001 +1.5148946087E+001  +2.6861730630E-001 +1.7334224149E+002 
4263936.170 +1.5214180201E-001 +1.5180019941E+002  +1.4173981929E-001 +6.9504898562E+001  +1.4120494339E-001 +6.8216567129E+000  +2.1064654665E-001 +1.6963651173E+002 
4389081.352 +1.7087188541E-001 +1.4662693508E+002  +1.8139331145E-001 +8.1902570366E+001  +1.7301350603E-001 +1.8007245200E+001  +2.6959691152E-001 +1.4415797022E+002 
4514226.533 +1.7385127651E-001 +1.4330421813E+002  +1.9921647188E-001 +7.7485555532E+001  +1.9401468468E-001 +1.9699809812E+001  +2.5601132361E-001 +1.4097976924E+002 
4639371.715 +1.7837105630E-001 +1.4011677847E+002  +2.3611236113E-001 +7.8867830130E+001  +2.2900648161E-001 +2.2544185498E+001  +3.1377506960E-001 +1.2790847010E+002 
4764516.896 +5.1706231826E-001 +1.1208498349E+002  +7.9197353221E-001 +1.2518532749E+002  +7.8567146444E-001 +7.5419443820E+001  +1.5023773022E+000 +1.3077123828E+002 
4889662.078 +6.5642112700E-001 +1.5035271821E+002  +7.2693150002E-001 -1.7670679913E+002  +7.0132665853E-001 +1.3581212241E+002  +1.5350132540E+000 -1.7571804991E+002 
5014807.259 +6.1511867397E-001 +1.0314888640E+002  +1.0453546605E+000 +1.1262209173E+002  +1.0135302252E+000 +6.9205140961E+001  +1.8804358955E+000 +1.1622464125E+002 
5139952.441 +3.3249010403E-001 +1.2552930927E+002  +3.8794074365E-001 +9.9557410092E+001  +3.6760379031E-001 +5.8159154640E+001  +6.1784802853E-001 +1.3095195170E+002 
5265097.622 +2.4667799294E-001 +1.2929382701E+002  +3.5482048867E-001 +8.4133580548E+001  +3.5081323882E-001 +4.5816955741E+001  +6.2766925489E-001 +1.2955934862E+002 
5390242.804 +3.4418893390E-001 +1.1785844259E+002  +5.2716044561E-001 +9.6552343132E+001  +5.0618575085E-001 +5.8903937778E+001  +9.6918743737E-001 +1.2470049272E+002 
5515387.985 +3.2713819412E-001 +1.4494544689E+002  +2.5367614343E-001 +1.0299829276E+002  +2.4451398334E-001 +6.8112381750E+001  +7.5608611283E-001 +1.5677068616E+002 
5640533.166 +3.0081110063E-001 +1.2889845172E+002  +4.2137533181E-001 +8.7439807237E+001  +4.1084218620E-001 +5.7290092353E+001  +8.9428748149E-001 +1.3550011917E+002 
5765678.348 +3.4954324793E-001 +1.2212771668E+002  +4.6866901226E-001 +8.9727772547E+001  +4.6277752483E-001 +6.1476049909E+001  +9.3833056092E-001 +1.3786772042E+002 
5890823.529 +4.0486755198E-001 +1.2660669321E+002  +4.3898432986E-001 +9.4843781166E+001  +4.2993156452E-001 +6.9498882751E+001  +9.6649435953E-001 +1.4621569538E+002 
6015968.711 +3.4571761693E-001 +1.2694463276E+002  +4.8290885361E-001 +7.2906541399E+001  +4.7351809415E-001 +4.9852427499E+001  +8.4956268740E-001 +1.2438721563E+002 
6141113.892 +4.3207977643E-001 +1.1813379596E+002  +6.2819577823E-001 +8.3010073055E+001  +6.1088052613E-001 +6.1967828569E+001  +1.2740157558E+000 +1.2644900179E+002 
6266259.074 +2.8626315861E-001 +9.9550156543E+001  +6.7886231278E-001 +5.6926484117E+001  +6.6519824323E-001 +3.8099943849E+001  +9.3654897564E-001 +1.1483192970E+002 
6391404.255 +3.9828621792E-001 +8.3539416032E+001  +9.2967028495E-001 +5.2684557224E+001  +9.1599547431E-001 +3.5949517589E+001  +1.2139281659E+000 +8.7862192215E+001 
6516549.437 +3.4636949124E-001 +1.0587616073E+002  +6.9640604756E-001 +4.7153094255E+001  +6.8774946337E-001 +3.3443191181E+001  +8.1070183801E-001 +1.0460070100E+002 
6641694.618 +1.7025737783E-001 +5.7179997046E+001  +9.4338643027E-001 +2.5162997079E+001  +9.3537585426E-001 +1.3468713477E+001  +9.1404515078E-001 +6.4208937590E+001 
6766839.800 +1.5074764449E-001 +8.7471659958E+001  +8.5842318042E-001 +1.9998338785E+001  +8.5748290484E-001 +1.0604477361E+001  +6.5902287046E-001 +6.1446753444E+001 
6891984.981 +1.3024987858E-001 +7.3536194076E+001  +9.1967152626E-001 +1.4562853587E+001  +9.0647020620E-001 +6.4433076702E+000  +6.4739309977E-001 +5.0295918286E+001 
7017130.163 +1.5153781726E-001 +4.3984167827E+001  +9.5166388423E-001 +8.8564846061E+000  +9.5067681010E-001 +3.2420571917E+000  +4.0769796093E-001 +3.1387502725E+001 
7142275.344 +1.2522851807E-001 +8.5951049156E-001  +9.8111158260E-001 +3.2426436937E+000  +9.7903228448E-001 -3.3461257919E-001  +2.8531333360E-001 +1.1295838167E+001 
7267420.526 +1.7210473271E-001 +1.3640796953E+002  +8.8295899235E-001 +1.3745544218E+000  +8.8195398735E-001 +1.0221864503E-001  +9.5716912256E-002 +4.5766415077E+001 
7392565.707 +3.7208125391E-002 +2.3663005783E+001  +1.0039691628E+000 +4.9377966703E-001  +9.9999699588E-001 +3.7669731591E-001  +1.5824935476E-001 -6.3532323412E+001 
7517710.889 +2.1216413282E-001 +1.0339852973E+002  +9.2994509363E-001 +3.0198335895E-001  +9.2993928872E-001 +1.9167288834E+000  +6.0489292642E-003 -6.5612596519E+001 
7642856.070 +1.1976845231E-001 +1.4244524195E+002  +8.9824755922E-001 -3.3886575663E+000  +8.9944455994E-001 -6.8061094165E-001  +1.9392101904E-001 +1.4999068427E+002 
7768001.252 +1.6785656291E-001 +1.3178323264E+002  +8.6203411483E-001 -3.6990854910E+000  +8.6371265747E-001 +1.0239134779E+000  +2.0461288572E-001 +1.4200862003E+002 
7893146.433 +2.6036584756E-001 +1.1820706008E+002  +8.1078735322E-001 -3.4674677606E+000  +8.1237246951E-001 +2.6899964681E+000  +2.7351969164E-001 +1.1923886356E+002 
8018291.615 +2.3672229417E-001 +1.2941626221E+002  +8.0150356270E-001 -5.4072005199E+000  +8.0907066294E-001 +2.6950210338E+000  +2.6313516889E-001 +1.3878014353E+002 
8143436.796 +2.7397749534E-001 +1.2209613197E+002  +7.8097244784E-001 -5.2944165458E+000  +7.8444036994E-001 +4.0013515657E+000  +2.1993181391E-001 +1.2444058681E+002 
8268581.977 +2.8326638340E-001 +1.3169983600E+002  +7.7057805128E-001 -6.4152931948E+000  +7.6489013611E-001 +3.7076530707E+000  +2.5253880900E-001 +1.2168110575E+002 
8393727.159 +2.2675033261E-001 +1.2759329534E+002  +7.6223365904E-001 -5.8233813128E+000  +7.6375670902E-001 +4.9848546686E+000  +2.8378127609E-001 +1.1191455821E+002 
8518872.340 +2.6444295831E-001 +1.3444825809E+002  +7.5601954838E-001 -7.0282015165E+000  +7.5283612383E-001 +4.7540991933E+000  +2.2280837849E-001 +1.2589654639E+002 
8644017.522 +2.9423490668E-001 +1.2659291093E+002  +7.3580434364E-001 -6.7885982743E+000  +7.2638240342E-001 +6.1333506961E+000  +2.7877390108E-001 +1.1780884817E+002 
8769162.703 +2.9996570023E-001 +1.2530507965E+002  +7.2352316841E-001 -7.1092026202E+000  +7.2284119554E-001 +5.7446107429E+000  +2.8560967965E-001 +1.2388034995E+002 
8894307.885 +2.7741074183E-001 +1.3424354932E+002  +7.2282812156E-001 -8.1020783265E+000  +7.1683717775E-001 +5.5224413573E+000  +2.9619981753E-001 +1.2237163341E+002 
9019453.066 +2.7457427002E-001 +1.3852618127E+002  +7.1793485968E-001 -8.3813870087E+000  +7.1754125167E-001 +5.8038031118E+000  +2.8057509217E-001 +1.2137351265E+002 
9144598.248 +2.4596970228E-001 +1.3891302529E+002  +7.2710128593E-001 -8.6724232935E+000  +7.2394363622E-001 +6.2893288491E+000  +2.1294067332E-001 +1.2639508587E+002 
9269743.429 +2.5702118522E-001 +1.4153925676E+002  +7.2253157851E-001 -9.3583277692E+000  +7.1193169242E-001 +5.7619859669E+000  +2.7021233918E-001 +1.3334977742E+002 
9394888.611 +2.9265474588E-001 +1.4681403018E+002  +7.1264173833E-001 -1.0358838848E+001  +7.1051218236E-001 +5.1616043939E+000  +3.0656713652E-001 +1.3805578008E+002 
9520033.792 +3.3498590158E-001 +1.4619555740E+002  +6.9859263067E-001 -1.0405276081E+001  +6.9503062229E-001 +5.5002780782E+000  +3.1417710641E-001 +1.2965144709E+002 
9645178.974 +2.8448203442E-001 +1.4581279847E+002  +7.0966620164E-001 -1.0122738577E+001  +7.0429146140E-001 +5.4740983143E+000  +3.1201887709E-001 +1.3932496050E+002 
9770324.155 +2.7227405193E-001 +1.5556019523E+002  +7.1680421775E-001 -1.0586265645E+001  +7.1099298228E-001 +5.5226788422E+000  +2.9131996851E-001 +1.3719141923E+002 
9895469.337 +2.6653639182E-001 +1.4668427831E+002  +7.1207519320E-001 -1.0030859250E+001  +7.0833915746E-001 +6.0080881673E+000  +2.9884352079E-001 +1.4203560881E+002 
10020614.518 +2.6851512399E-001 +1.3435361548E+002  +7.0742355284E-001 -8.8235765558E+000  +7.0671807311E-001 +6.9033495076E+000  +2.8321512117E-001 +1.3604359807E+002 
10145759.700 +2.8699608839E-001 +1.4168017438E+002  +7.0786173456E-001 -9.3022499566E+000  +7.0333666816E-001 +6.1307096475E+000  +2.9486847283E-001 +1.3603792100E+002 
10270904.881 +2.5659966392E-001 +1.3935247978E+002  +7.1250423276E-001 -8.8608041444E+000  +7.0776725612E-001 +6.6759259561E+000  +2.9858526773E-001 +1.3602807940E+002 
10396050.063 +2.6465971203E-001 +1.3033727715E+002  +7.1229601592E-001 -8.2363773450E+000  +7.0867336656E-001 +7.3469753523E+000  +2.8025133653E-001 +1.3568571250E+002 
10521195.244 +2.6062768660E-001 +1.4257004597E+002  +7.2313398305E-001 -8.8463285002E+000  +7.1881655567E-001 +6.4196331258E+000  +2.6016923859E-001 +1.4062001740E+002 
10646340.426 +2.6599823788E-001 +1.3427708200E+002  +7.1427007803E-001 -8.1137737170E+000  +7.0983829557E-001 +6.8400630939E+000  +2.9304841523E-001 +1.3146669956E+002 
10771485.607 +2.6180386183E-001 +1.4036671432E+002  +7.1691387420E-001 -8.1003476220E+000  +7.1464933203E-001 +6.6104200234E+000  +2.8285161113E-001 +1.2708365758E+002 
10896630.788 +2.6224431193E-001 +1.4420057030E+002  +7.2729382436E-001 -8.1812298949E+000  +7.2224636165E-001 +6.1935076102E+000  +2.6705379343E-001 +1.2999656233E+002 
11021775.970 +2.7419921018E-001 +1.3675450783E+002  +7.2853981547E-001 -7.5635676333E+000  +7.2487745179E-001 +6.0632201278E+000  +2.7560523264E-001 +1.3686511995E+002 
11146921.151 +2.4897309024E-001 +1.3239910643E+002  +7.3252658528E-001 -6.8573073153E+000  +7.2902855145E-001 +6.5182812077E+000  +2.7536902121E-001 +1.3067602980E+002 
11272066.333 +2.6414614684E-001 +1.3865477153E+002  +7.3204436229E-001 -6.7394931999E+000  +7.2541431742E-001 +6.2228603793E+000  +2.9537772973E-001 +1.2077831399E+002 
11397211.514 +2.7859978239E-001 +1.3191014436E+002  +7.3345333129E-001 -6.3466165455E+000  +7.2954235765E-001 +6.1069522400E+000  +2.8214059683E-001 +1.2532028321E+002 
11522356.696 +2.5198437781E-001 +1.3384258464E+002  +7.4726527616E-001 -6.1215336077E+000  +7.4412535981E-001 +5.8926284985E+000  +2.6123683465E-001 +1.3243194721E+002 
11647501.877 +2.4387553600E-001 +1.3730944408E+002  +7.5403062440E-001 -6.0598735798E+000  +7.4949836393E-001 +5.1513248070E+000  +2.7305304832E-001 +1.3288234543E+002 
11772647.059 +2.3261215184E-001 +1.3103904092E+002  +7.6005344934E-001 -5.3450974584E+000  +7.5555936697E-001 +5.5286954353E+000  +2.5792954114E-001 +1.3042351611E+002 
11897792.240 +2.3475781062E-001 +1.3075113517E+002  +7.6379130797E-001 -5.0215774353E+000  +7.5869646529E-001 +5.3860416295E+000  +2.5579447406E-001 +1.2898761462E+002 
12022937.422 +2.2703604599E-001 +1.3443833815E+002  +7.7677013324E-001 -4.8037346528E+000  +7.7189810443E-001 +4.7767165776E+000  +2.3237257268E-001 +1.3047084949E+002 
12148082.603 +2.1514268797E-001 +1.3680061175E+002  +7.8636649136E-001 -4.2915254785E+000  +7.8089935298E-001 +4.7565799904E+000  +2.1269839041E-001 +1.2747884098E+002 
12273227.785 +2.0316990815E-001 +1.2700235481E+002  +7.9086502848E-001 -3.5062866380E+000  +7.8790439014E-001 +4.9517496146E+000  +2.1059146718E-001 +1.2738725328E+002 
12398372.966 +1.9111256124E-001 +1.3586427516E+002  +8.0105353824E-001 -3.7635565633E+000  +7.9757225141E-001 +4.1334578723E+000  +2.2140562016E-001 +1.2951641316E+002 
12523518.148 +1.8009785891E-001 +1.3342447899E+002  +8.1028884801E-001 -3.3304665611E+000  +8.0450145456E-001 +3.8447935247E+000  +2.2425895120E-001 +1.3085095780E+002 
12648663.329 +1.9115992645E-001 +1.2931676452E+002  +8.1712272622E-001 -2.7962124171E+000  +8.1414478528E-001 +4.0874467005E+000  +1.7702826051E-001 +1.2736995222E+002 
12773808.511 +1.7704881478E-001 +1.3745329130E+002  +8.3037594236E-001 -2.7035732081E+000  +8.2526164186E-001 +3.4021063261E+000  +1.6850748401E-001 +1.2594754861E+002 
12898953.692 +1.7045322039E-001 +1.3144713443E+002  +8.3499399144E-001 -2.3779613843E+000  +8.2978141021E-001 +3.1767033847E+000  +1.8163770520E-001 +1.2528417748E+002 
13024098.874 +1.4639399415E-001 +1.3489396093E+002  +8.5516731106E-001 -2.0924602134E+000  +8.4867099677E-001 +3.1564294652E+000  +1.3907323941E-001 +1.3232826828E+002 
13149244.055 +1.3966768408E-001 +1.3164854795E+002  +8.5851158402E-001 -2.1892744676E+000  +8.5108477717E-001 +2.4730721034E+000  +1.7407056565E-001 +1.3338802238E+002 
13274389.237 +1.2398214896E-001 +1.3093067551E+002  +8.6943909327E-001 -1.3562577127E+000  +8.6690512818E-001 +2.4877487496E+000  +1.3910517915E-001 +1.3661821255E+002 
13399534.418 +1.3143797093E-001 +1.3023601101E+002  +8.8204967542E-001 -1.4974696018E+000  +8.7869867795E-001 +2.5800066566E+000  +1.6638753850E-001 +1.2349253125E+002 
13524679.599 +1.1623215813E-001 +1.3005713827E+002  +8.8994454851E-001 -1.3567559567E+000  +8.8624384327E-001 +2.3117885355E+000  +1.2946549134E-001 +1.3178746535E+002 
13649824.781 +1.2968766864E-001 +1.3593414549E+002  +9.0481074857E-001 -1.3160589285E+000  +8.8658566238E-001 +1.3787099252E+000  +1.1628257029E-001 +1.3047786250E+002 
13774969.962 +8.0260586833E-002 +1.3084955679E+002  +9.2267522021E-001 -1.0602802477E+000  +9.1273077875E-001 +1.2965288047E+000  +9.1361350306E-002 +1.4165079422E+002 
13900115.144 +8.2395384381E-002 +1.4243360624E+002  +9.2005067245E-001 -1.5263375018E+000  +9.1079757848E-001 +1.2125404228E+000  +7.7557335990E-002 +1.3558402107E+002 
14025260.325 +8.2982073722E-002 +1.3597091861E+002  +9.3040838393E-001 -8.8532188330E-001  +9.2114968156E-001 +2.9379814089E-001  +8.8861026460E-002 +1.4299951174E+002 
14150405.507 +6.5677403394E-002 +1.4558855127E+002  +9.4002519075E-001 -4.1848509940E-001  +9.3108527680E-001 +6.5180640904E-001  +7.4137995549E-002 +1.2910210199E+002 
14275550.688 +7.4316199375E-002 +1.3804329912E+002  +9.5213890477E-001 -4.3390357916E-001  +9.4377631772E-001 +7.4071092373E-001  +7.0123078113E-002 +1.4294310799E+002 
14400695.870 +3.6463938939E-002 +1.5245509511E+002  +9.5868029645E-001 +3.4608098129E-001  +9.4782855358E-001 +1.4983392265E-001  +5.3713478229E-002 +1.4540326322E+002 
