!  2-Port S-parameters saved by WinCal
! VAR MeasName=S-Parameters (CALIBRATED_DATA) read from VNA (P5004A)
! VAR MeasDate=27/08/2024 17:01:19
! VAR NAME=S2_r3c9_formed_9k-100M_1
! VAR FILENAME=S2_r3c9_formed_9k-100M_1.S2P
! VAR DATE=27/08/2024 17:01:19
! VAR PHYS_PORTS=1,2
! VAR ObjTypeName=DATASET
! VAR IndexType=Frequency
!
# Hz S MA R 50
9000.000 +5.2550256879E-002 -1.7819812147E+002  +4.8119528283E-003 +1.0233696637E+002  +4.7450434368E-003 -1.3040929609E+002  +2.7899014622E-001 -1.4208516729E+002 
134145.181 +1.1028604952E-001 +1.6958608737E+002  +4.1541637695E-004 -1.0755474637E+002  +6.2280124531E-004 -1.1817872396E+002  +2.4175040529E-001 -1.6944935672E+002 
259290.363 +1.1141144762E-001 +1.7039456470E+002  +3.9448477356E-004 -3.1017755997E+001  +1.0452146992E-003 -1.3184631355E+002  +2.3640464914E-001 -1.6908314527E+002 
384435.544 +1.1386082257E-001 +1.7003044885E+002  +4.4670046702E-004 -6.8185507832E+000  +7.7410364674E-004 -2.5447783189E+001  +2.4054353226E-001 -1.6725112491E+002 
509580.726 +1.1306507377E-001 +1.7003044559E+002  +4.7342650316E-004 -1.0011328657E+002  +1.1551251056E-003 +4.5511005255E+001  +2.4759768295E-001 -1.6586301021E+002 
634725.907 +1.1517618986E-001 +1.7034365425E+002  +1.0842702748E-003 -3.1159485695E+001  +1.7516699036E-003 +9.9446859193E+001  +2.5172769621E-001 -1.6587016959E+002 
759871.089 +1.1926187396E-001 +1.7059525478E+002  +6.9837670264E-004 -8.7727084271E+001  +1.2921212661E-003 +1.4421103531E+002  +2.3101941996E-001 -1.6663639166E+002 
885016.270 +1.1764499296E-001 +1.6910470331E+002  +3.6575969917E-004 -4.4669195838E+001  +9.4266896297E-004 +1.1137952479E+002  +2.3879146382E-001 -1.6596939308E+002 
1010161.452 +1.1661754571E-001 +1.6909453768E+002  +1.8472208325E-003 +1.6213414787E+002  +8.1226571017E-004 +1.2085209552E+002  +2.0424618681E-001 -1.5918057703E+002 
1135306.633 +1.1046573690E-001 +1.6905625476E+002  +1.9902642486E-003 +3.0192758381E+001  +3.3879511172E-003 -1.6107376301E+002  +2.3188442805E-001 -1.4931857097E+002 
1260451.815 +1.1554636267E-001 +1.7107745164E+002  +1.0313025777E-003 +1.5473349574E+002  +2.4566569262E-003 +1.6310992170E+002  +2.2633013744E-001 -1.5915910478E+002 
1385596.996 +1.2327282990E-001 +1.7347911138E+002  +1.2155133285E-003 +1.1062930283E+002  +1.0985272189E-003 -1.5704942407E+002  +2.6451156029E-001 -1.5924642108E+002 
1510742.178 +1.2809501766E-001 +1.7295048638E+002  +1.3897309744E-004 +8.6000960802E+001  +7.4190730801E-004 +1.4657006090E+002  +2.5599187784E-001 -1.6087064056E+002 
1635887.359 +1.2830899034E-001 +1.6916844337E+002  +4.0171991368E-004 -7.7869184240E+000  +9.3759375039E-004 -1.0020929539E+002  +2.2027889221E-001 -1.6299196815E+002 
1761032.541 +1.2764936475E-001 +1.6883496985E+002  +5.3422290247E-004 +1.7943918753E+001  +1.1279367892E-003 -1.3431653081E+002  +2.3454492139E-001 -1.5838916418E+002 
1886177.722 +1.2919475042E-001 +1.6607626522E+002  +1.3561965181E-003 +9.5358969383E+001  +2.0655581209E-003 -6.4620889060E+001  +2.1631133044E-001 -1.6275029504E+002 
2011322.904 +1.2697991749E-001 +1.6664892349E+002  +3.7773340229E-003 +1.3577051539E+002  +3.7816198424E-003 -3.0579916557E+001  +2.0157979195E-001 +1.7913157581E+002 
2136468.085 +1.3404276826E-001 +1.6680211896E+002  +1.6945862210E-003 +2.9531857314E+001  +4.0986668724E-003 -7.6474951806E+001  +2.2044553374E-001 +1.7612772030E+002 
2261613.267 +1.2906202187E-001 +1.6539663706E+002  +3.3011633847E-003 +5.2010392818E+001  +2.2662546594E-003 -4.9688017313E+001  +2.0240094696E-001 +1.7798179681E+002 
2386758.448 +1.3346825576E-001 +1.6169205775E+002  +4.3117062024E-003 +5.8031536370E+001  +5.3850412481E-003 -6.0082991629E+001  +1.8483733998E-001 +1.6378833361E+002 
2511903.630 +1.3338025938E-001 +1.6140730943E+002  +4.2178138739E-003 +4.7354899696E+001  +5.5658627889E-003 -2.9635834564E+001  +2.0698653386E-001 -1.7815897597E+002 
2637048.811 +1.3292781833E-001 +1.4785945565E+002  +1.2385867153E-002 +1.5523997775E+002  +1.0373365582E-002 +8.9933595765E+001  +4.7707608121E-001 +1.7183461109E+002 
2762193.992 +1.0926748495E-001 +1.7916548048E+002  +2.3859915143E-002 +1.9787479973E+001  +2.2588957683E-003 -3.3712774946E+001  +7.8658912038E-002 +1.4747072895E+002 
2887339.174 +1.2885788174E-001 +1.5949125283E+002  +1.5507255110E-002 -3.0961236673E+001  +1.2482441180E-002 -1.2857254722E+002  +3.1609765245E-001 -6.4655025790E+001 
3012484.355 +1.0793574970E-001 +1.7257121715E+002  +1.8544065872E-002 -6.2970470607E+001  +1.3440713983E-002 -1.1718495029E+002  +3.4596923848E-001 -9.2213155842E+001 
3137629.537 +1.1928179345E-001 +1.6199405646E+002  +1.9773927539E-002 -3.0787161779E+001  +3.3429992564E-002 -1.0215005232E+002  +5.8271645853E-001 -7.2934285626E+001 
3262774.718 +1.1417603369E-001 +1.5547997403E+002  +5.5790127967E-003 +2.7926647496E+001  +1.3425822912E-002 -3.1945702895E+001  +1.6048999433E-001 +1.2858318076E+002 
3387919.900 +1.3724893417E-001 +1.6031156474E+002  +3.8154819077E-002 +3.8040593971E-002  +1.4019233473E-002 -9.6431459757E+001  +4.7673664992E-001 -1.3518880512E+001 
3513065.081 +1.3191657038E-001 +1.4378004961E+002  +1.0791510629E-002 +8.1393020294E+001  +1.3263072194E-002 -8.8469681903E+001  +3.5292202267E-001 +7.4909985734E+001 
3638210.263 +1.5637387217E-001 +1.4449014201E+002  +2.2328330650E-002 +6.2044813177E+001  +1.9254233884E-002 -1.0974314613E+000  +4.2243053971E-001 +1.3673260107E+002 
3763355.444 +1.7345322531E-001 +1.4846077842E+002  +3.4913779350E-002 +1.3665966675E+002  +5.2783169535E-002 +4.2172933633E+001  +1.1723334769E+000 +1.2176580652E+002 
3888500.626 +1.5603811794E-001 +1.4481740119E+002  +1.8991702511E-002 +8.7744734606E+001  +2.9649364774E-002 -1.5075218710E+001  +6.3548053647E-001 +1.0960086984E+002 
4013645.807 +1.7801527012E-001 +1.5415136399E+002  +1.5686729006E-002 +1.2045526083E+002  +1.0058082357E-002 +2.8837866509E+001  +6.8378242210E-001 +1.2959676591E+002 
4138790.989 +1.5211290189E-001 +1.3812984788E+002  +3.1476523922E-002 +1.2319729381E+002  +2.4272068695E-002 +1.7721664819E+001  +4.4336132195E-001 +1.1321731794E+002 
4263936.170 +1.9726909625E-001 +1.4263650661E+002  +3.0662438074E-002 +8.7742771777E+001  +1.0460197034E-002 +9.3304611311E+001  +5.2305065600E-001 +1.2652268064E+002 
4389081.352 +1.8854463000E-001 +1.3738478153E+002  +3.6998445946E-002 +9.0764335057E+001  +4.4298987180E-002 +2.1571810602E+001  +4.9410023371E-001 +8.0648916069E+001 
4514226.533 +2.2301606369E-001 +1.4396294205E+002  +3.8945597897E-002 +1.5271590130E+002  +2.6682749250E-002 +7.5623923805E+001  +1.3001905924E+000 +1.4929780354E+002 
4639371.715 +2.6394712057E-001 +1.2380651744E+002  +6.9467582775E-002 +6.3504619387E+001  +4.4445094875E-002 -1.1280693163E+000  +6.9158439180E-001 -6.5604782599E+000 
4764516.896 +3.2134480441E-001 +1.2051756295E+002  +2.0224333612E-001 +9.0345345386E+001  +1.5163662169E-001 +3.4017134920E+001  +3.1723751800E+000 +6.5409651619E+001 
4889662.078 +4.8451066463E-001 +1.1092928887E+002  +6.1408621953E-002 -1.0586576642E+002  +4.1414064973E-002 -1.5356930319E+002  +1.9679504872E+000 -1.5264399641E+002 
5014807.259 +4.4504539938E-001 +1.1972842126E+002  +9.1985450380E-002 +9.2861516403E+001  +6.4712802211E-002 +3.2919963177E+001  +1.2743183446E+000 +3.0218116348E+001 
5139952.441 +5.3466428073E-001 +1.2071344705E+002  +2.4289616877E-001 +5.3798742859E+001  +1.7901688723E-001 +2.5401633140E+001  +2.8027659316E+000 +3.0722945097E+000 
5265097.622 +3.4408752251E-001 +1.4465179727E+002  +2.9406742302E-002 +1.5279119810E+002  +2.4327365397E-002 +1.3355469952E+002  +2.0882984275E+000 +1.4591301098E+002 
5390242.804 +4.5942792606E-001 +1.3495612139E+002  +2.1986675429E-001 +1.3467846017E+002  +2.3391544361E-001 +8.3697672746E+001  +5.8853952897E+000 +8.7012493349E+001 
5515387.985 +4.9816649466E-001 +1.2876309820E+002  +4.2789598681E-002 +1.1369207220E+002  +4.1771762109E-002 +8.7722680733E+001  +8.1793435842E-001 +9.7218967777E+001 
5640533.166 +4.3912760153E-001 +1.2784441418E+002  +1.1350081241E-001 +1.1952326457E+002  +8.6988923003E-002 +8.3552137596E+001  +2.4989121325E+000 +1.0342867127E+002 
5765678.348 +5.9096144316E-001 +1.1969252576E+002  +9.7584844448E-002 +1.1309971970E+002  +7.1186346915E-002 +6.7694386235E+001  +1.7064918796E+000 +9.3962563375E+001 
5890823.529 +4.9910769848E-001 +1.1613312453E+002  +7.2751743488E-002 +7.9315430703E+001  +6.0278786322E-002 +7.0022654418E+001  +1.8860007657E+000 +8.7545065352E+001 
6015968.711 +6.2585858970E-001 +1.2224344932E+002  +6.0741718494E-002 +5.9145078376E+001  +6.7706941304E-002 +4.7075669720E+001  +2.1379964490E+000 +5.5963957737E+001 
6141113.892 +7.7856738372E-001 +1.0623748096E+002  +9.1724474723E-002 +6.4237205772E+001  +8.4007461930E-002 +4.3305985672E+001  +2.0995159204E+000 +5.2138817299E+001 
6266259.074 +8.5735935104E-001 +1.1193108014E+002  +8.7380547092E-002 +4.4977095053E+001  +5.6637187061E-002 +4.8998646539E+001  +1.4334674837E+000 +1.1272927835E+001 
6391404.255 +8.1464759067E-001 +8.3487797947E+001  +1.0560961095E-001 +2.7442014618E+001  +1.1989675934E-001 +3.2625288309E+001  +1.4492195094E+000 +1.6884233429E+001 
6516549.437 +9.4630467511E-001 +8.6096567583E+001  +9.1457487248E-002 +3.6350821861E+001  +6.8703153599E-002 +3.3814633064E+001  +1.7231566830E+000 +2.4167588971E+001 
6641694.618 +1.5060136063E+000 +7.6562600083E+001  +9.3132064522E-002 +2.3254056049E+001  +9.8821937820E-002 +2.6202615496E+001  +1.2187308340E+000 -9.8073242697E+000 
6766839.800 +1.7781005415E+000 +5.1684692060E+001  +1.4086194147E-001 +2.4704900849E+001  +1.0525341443E-001 +1.1420737035E+001  +1.6083548470E+000 -5.4014885698E+000 
6891984.981 +1.7261535120E+000 +3.9617105986E+001  +8.5040958085E-002 +1.2870654528E+001  +8.1755975809E-002 +1.3032999343E+001  +1.2150235564E+000 -2.4188402973E+000 
7017130.163 +1.5642085205E+000 +1.3324744159E+001  +1.0424172118E-001 +3.1201087073E+000  +7.6223924980E-002 -1.0645188280E+001  +1.2465930113E+000 -1.7127067174E+001 
7142275.344 +1.4395290696E+000 +1.2513322860E+001  +7.1935557927E-002 +2.0224119423E-001  +5.6907208604E-002 -9.9502228015E-001  +1.2423644918E+000 -1.3546717067E+001 
7267420.526 +1.5099682083E+000 -4.3520043355E-001  +6.1949602154E-002 +6.5997394803E+000  +4.6703554067E-002 +1.5555923200E+001  +1.1507944663E+000 -8.7364029722E+000 
7392565.707 +1.2986235391E+000 +2.1519719087E+000  +4.5022010755E-002 +2.1820852173E+001  +5.0179023906E-002 +1.7685323500E+001  +1.2911196362E+000 -5.8810477910E+000 
7517710.889 +1.1863462384E+000 -6.0442630380E+000  +3.6075174380E-002 -1.6275839071E+000  +4.0751953499E-002 +1.3048606965E+001  +1.1988924339E+000 -1.3110049535E+001 
7642856.070 +1.0507883490E+000 -7.3463618734E-001  +5.1024639069E-002 +3.6020450550E+000  +3.9305295253E-002 +4.2333878338E+000  +1.0601418118E+000 -8.2813561983E+000 
7768001.252 +9.4239888393E-001 +3.6657458162E+000  +2.8087061338E-002 +6.1000851348E+000  +4.3583314344E-002 +1.2564742046E+001  +9.0223704841E-001 -8.2519944920E+000 
7893146.433 +8.4134383893E-001 +1.4922763079E+000  +3.4196993756E-002 +6.4566996425E+000  +3.3798778323E-002 +6.4207079852E+000  +9.7078636629E-001 -5.1632050203E+000 
8018291.615 +8.0499296978E-001 +6.9303000504E+000  +4.3535657591E-002 +3.0433537258E+000  +3.5878629344E-002 +6.0722489815E+000  +8.1963326324E-001 -1.7283953253E+000 
8143436.796 +7.8882191308E-001 +3.4091192931E+000  +3.7527875725E-002 +9.0195062187E+000  +3.2009894398E-002 +9.0890145133E+000  +7.8378736162E-001 -5.4899865744E+000 
8268581.977 +6.5215978057E-001 +7.0064328800E+000  +3.1827847497E-002 +6.7820224882E+000  +3.5529935176E-002 +3.3270684105E+000  +8.1083950687E-001 -1.0752737700E+000 
8393727.159 +6.8251780627E-001 +1.3212403532E+001  +3.0985676412E-002 +2.2198059783E+000  +3.5396293992E-002 +1.4544303174E+001  +7.0172690324E-001 +7.4084300547E+000 
8518872.340 +6.5301900193E-001 +5.6487718224E+000  +3.4213565876E-002 +5.7354952362E+000  +3.2796553212E-002 +8.0780498564E+000  +6.6197307906E-001 +1.6370701438E-001 
8644017.522 +6.1045296172E-001 +1.2386517675E+000  +3.7838253865E-002 +5.1457080352E+000  +3.1031972437E-002 +1.3360439575E+001  +6.2776191348E-001 +4.0385399145E+000 
8769162.703 +5.6052603351E-001 +8.1913810053E+000  +3.3429862595E-002 -4.2108112449E+000  +3.4898575664E-002 +9.7330117203E+000  +6.8105037870E-001 +3.1101013497E+000 
8894307.885 +5.5059936042E-001 +3.7469783307E+000  +3.3454770633E-002 +9.7063204652E-001  +3.0799412339E-002 +1.7091707204E+001  +6.2643481685E-001 +1.7826059153E+000 
9019453.066 +5.4752647875E-001 +6.8440742900E+000  +3.1478741311E-002 +1.9567540025E-001  +2.8665551864E-002 +1.4555710207E+001  +5.5333866615E-001 -3.7759247113E+000 
9144598.248 +5.6252965596E-001 +1.0096866255E+001  +2.6099643138E-002 +3.6730080507E+000  +3.0585110288E-002 +1.2709963610E+001  +5.4193410105E-001 -3.3581680881E+000 
9269743.429 +5.0937543946E-001 +5.4365491479E+000  +3.1327342040E-002 +1.0504762201E+000  +3.3189371916E-002 +1.5938352299E+001  +5.6942114674E-001 -1.5568642047E+000 
9394888.611 +5.1194201647E-001 +3.1876161661E+000  +3.1706466562E-002 -2.6266034642E+000  +2.8016259289E-002 +1.5996287584E+001  +5.4365090541E-001 -9.4618250118E-001 
9520033.792 +5.2660195880E-001 +2.4706768939E+000  +3.0363294683E-002 +2.6720519171E+000  +3.3429938556E-002 +1.7849026821E+001  +5.4972469055E-001 -7.7439819079E+000 
9645178.974 +5.1606383518E-001 -1.5029076788E+000  +3.5023197905E-002 +1.3583904305E+000  +3.0156277780E-002 +1.4419736299E+001  +5.4174741646E-001 -1.9253895929E+000 
9770324.155 +5.5578652914E-001 +4.3249287713E-001  +3.3833195671E-002 -4.8901877957E-002  +3.2327642448E-002 +1.4469678201E+001  +5.2078859828E-001 -5.1451733755E+000 
9895469.337 +4.7947419557E-001 -1.1849100574E+000  +3.4586047097E-002 +1.6765416261E+000  +3.1376072906E-002 +2.0008114007E+001  +4.9820117830E-001 -3.3163893626E+000 
10020614.518 +5.0625986159E-001 +3.9908017507E+000  +2.8368264242E-002 +3.1507327826E+000  +2.9902208363E-002 +1.6426053355E+001  +5.7476114536E-001 -2.6584429720E+000 
10145759.700 +5.2102069676E-001 +2.7675943189E+000  +3.6805311180E-002 +3.8079829969E+000  +3.2122674740E-002 +1.7572571785E+001  +5.3588335466E-001 -1.1101755613E+001 
10270904.881 +5.1409515892E-001 +6.4782652700E+000  +3.1827636479E-002 +3.5118933677E+000  +2.9754937209E-002 +1.7031376455E+001  +5.2397108341E-001 -2.9272094491E+000 
10396050.063 +5.2423842305E-001 +5.7509793059E+000  +3.2934540092E-002 +2.0750475277E+000  +3.0205413903E-002 +1.6088463897E+001  +5.6942924951E-001 -3.1157840159E+000 
10521195.244 +5.4850186154E-001 +7.2816587201E+000  +3.3928641119E-002 +1.3052650037E+000  +3.1393873392E-002 +2.1743697400E+001  +5.6079923472E-001 -5.6650586873E-001 
10646340.426 +5.2286722785E-001 +7.3195272800E+000  +3.1934374762E-002 +3.7527030347E+000  +3.0085920728E-002 +1.6330450254E+001  +5.7489901232E-001 -1.1224868315E+000 
10771485.607 +5.6633905991E-001 +8.3799070027E+000  +3.2862252514E-002 +3.6590702555E+000  +3.2943476527E-002 +1.8469286264E+001  +6.1808266175E-001 +7.8704352340E-001 
10896630.788 +5.3359935720E-001 +4.4472140917E+000  +3.2812814104E-002 +6.1147736219E+000  +3.3444505548E-002 +2.0559118954E+001  +5.5364163153E-001 +2.5946008891E-001 
11021775.970 +5.6451277374E-001 +9.4712687131E+000  +3.3203074913E-002 +5.6796032759E+000  +3.0258717827E-002 +1.7998485339E+001  +5.5271384923E-001 +1.0015254107E+000 
11146921.151 +5.8382791541E-001 +5.3602261297E+000  +3.4217741292E-002 +6.2396743981E+000  +3.5219010975E-002 +2.1666331072E+001  +6.0132722103E-001 -5.1318777792E-001 
11272066.333 +5.4381739710E-001 +3.1914240433E+000  +3.3629798290E-002 +9.0966388213E+000  +3.3510747885E-002 +1.6957652810E+001  +5.6588494458E-001 +3.0324333389E+000 
11397211.514 +5.8396780454E-001 +5.1319326510E+000  +3.5111070830E-002 +6.7470060369E+000  +3.4003644607E-002 +2.2045027859E+001  +6.1980373567E-001 +3.3794855748E+000 
11522356.696 +6.1186594087E-001 +6.1338238511E+000  +3.2998397345E-002 +6.9714989248E+000  +3.4203797793E-002 +1.8499568796E+001  +6.0343769130E-001 +3.3673506468E+000 
11647501.877 +5.9657805457E-001 +5.0493413140E+000  +3.4308599153E-002 +8.9386054439E+000  +3.5273081627E-002 +1.9340119055E+001  +6.1495894996E-001 +5.9436841476E-001 
11772647.059 +6.2305555989E-001 +5.5387820074E+000  +3.2692521546E-002 +8.4822689248E+000  +3.5655269970E-002 +1.7677010210E+001  +6.2059416508E-001 +2.2977397878E+000 
11897792.240 +6.2753000460E-001 +5.9999904815E+000  +3.6079208785E-002 +9.9373537115E+000  +3.3841052654E-002 +2.1446518205E+001  +6.3981397817E-001 +2.0808440105E+000 
12022937.422 +5.9710519437E-001 +5.6577308200E+000  +3.6310715091E-002 +7.8567425157E+000  +3.4170752712E-002 +1.9469823068E+001  +6.2693239385E-001 +1.2382452499E+000 
12148082.603 +6.4188922929E-001 +4.5961255803E+000  +3.7362238163E-002 +7.0222867653E+000  +3.7256669939E-002 +1.9976777786E+001  +6.6186351043E-001 -1.4404604720E+000 
12273227.785 +6.1248411646E-001 +3.3232806327E+000  +3.5502838705E-002 +1.2489285103E+001  +3.6395435950E-002 +1.9351772511E+001  +7.0035166115E-001 +8.8892120733E-001 
12398372.966 +6.7145133859E-001 +2.2342914994E+000  +3.5658380444E-002 +9.5392243215E+000  +3.7547443840E-002 +1.6509857267E+001  +6.6494087911E-001 -2.9388988616E-001 
12523518.148 +6.8657547374E-001 +3.5522526292E+000  +3.6803788882E-002 +1.0870025754E+001  +3.6607879367E-002 +2.1367529322E+001  +6.9948449749E-001 -7.6151262689E-001 
12648663.329 +7.1046461162E-001 +3.2610525051E+000  +3.9100192987E-002 +1.1126033836E+001  +3.7784204220E-002 +1.5845239143E+001  +7.0672429748E-001 +8.9859575973E-001 
12773808.511 +7.3158656583E-001 -2.6252246346E-001  +3.8287908502E-002 +1.2408558169E+001  +3.6824504058E-002 +1.7776691195E+001  +7.3199347134E-001 -1.4174183033E-001 
12898953.692 +7.2764883573E-001 +1.9389491556E+000  +3.7411371188E-002 +7.6896850671E+000  +3.7838656281E-002 +1.6966087845E+001  +7.2631251950E-001 -1.0601850568E+000 
13024098.874 +7.5485788407E-001 +1.1228281903E+000  +3.9930174895E-002 +8.5085058916E+000  +3.9053516088E-002 +1.7511738667E+001  +7.5215533061E-001 -1.6897592380E+000 
13149244.055 +7.5858100399E-001 +1.6176927921E+000  +3.9044213696E-002 +9.1917017292E+000  +3.8531523809E-002 +1.6235596924E+001  +7.7374705757E-001 -2.4829600314E+000 
13274389.237 +7.6961791715E-001 +4.0087372411E-001  +3.8601012809E-002 +1.2963130264E+001  +3.9869090084E-002 +1.6162700286E+001  +7.8151767373E-001 -2.0746765459E+000 
13399534.418 +7.8220996648E-001 -1.7994447501E+000  +4.0167024101E-002 +1.2616282722E+001  +3.9751445402E-002 +1.5055130453E+001  +8.1023837546E-001 -1.9692585347E+000 
13524679.599 +7.8737976726E-001 -3.0046810574E+000  +4.2221965217E-002 +9.4171961574E+000  +4.1810587229E-002 +1.4880389034E+001  +8.2061792996E-001 -3.6780834576E+000 
13649824.781 +8.2975611088E-001 -1.5348262676E-002  +3.9499562130E-002 +1.2296379604E+001  +4.1521199180E-002 +1.3295823734E+001  +8.3250640280E-001 -3.2125181369E+000 
13774969.962 +8.4583063061E-001 -2.6503240867E+000  +4.0973055789E-002 +1.1878694208E+001  +3.9609539592E-002 +1.5754747717E+001  +8.6108635430E-001 -2.2641921421E+000 
13900115.144 +8.5283965965E-001 -2.4825772000E+000  +4.2218044452E-002 +1.2022902027E+001  +4.1405276305E-002 +1.3319300675E+001  +8.6500071563E-001 -4.7235310010E+000 
14025260.325 +8.8285812604E-001 -3.7739986159E+000  +4.2401207592E-002 +1.0054339687E+001  +4.0594482861E-002 +1.1800192439E+001  +8.9149288455E-001 -3.2133921367E+000 
14150405.507 +8.8343779427E-001 -5.4150458655E+000  +4.2254499323E-002 +1.1005430457E+001  +4.1937335350E-002 +1.2462126765E+001  +9.4299504747E-001 -3.0614893133E+000 
14275550.688 +9.3250771281E-001 -4.9645703652E+000  +4.1217294281E-002 +1.1770312353E+001  +4.3545293706E-002 +1.3798714834E+001  +9.1311764492E-001 -5.3800988600E+000 
14400695.870 +9.3117673998E-001 -5.6608972872E+000  +4.1636381431E-002 +1.2092278359E+001  +4.1507080923E-002 +1.2053340951E+001  +9.3498397711E-001 -4.8329145690E+000 
