!  2-Port S-parameters saved by WinCal
! VAR MeasName=S-Parameters (CALIBRATED_DATA) read from VNA (P5004A)
! VAR MeasDate=27/08/2024 12:11:40
! VAR NAME=S2_r6c8_pristine_9k-100M_3
! VAR FILENAME=S2_r6c8_pristine_9k-100M_3.S2P
! VAR DATE=27/08/2024 12:11:40
! VAR PHYS_PORTS=1,2
! VAR ObjTypeName=DATASET
! VAR IndexType=Frequency
!
# Hz S MA R 50
9000.000 +2.6219284512E-002 -1.6499557405E+002  +5.1839005175E-003 +3.4883263284E+001  +1.5673711775E-002 +1.7769103147E+002  +8.7378283637E-002 -8.4180640311E+001 
134145.181 +1.1087292003E-001 +1.6952970842E+002  +3.1648613804E-004 +1.5640776123E+002  +4.9872961694E-004 -5.7409763761E+001  +2.3874498259E-001 -1.6912196336E+002 
259290.363 +1.1217715502E-001 +1.7018376332E+002  +2.1773752826E-004 +1.7773529829E+002  +6.7853302350E-004 +1.3282699863E+001  +2.4815715176E-001 -1.6947293523E+002 
384435.544 +1.1350198945E-001 +1.7044468780E+002  +4.8207014179E-004 -4.3667115937E+001  +5.8204768142E-004 -6.2899580542E-002  +2.4456974870E-001 -1.6913528030E+002 
509580.726 +1.1462742166E-001 +1.7031507449E+002  +1.1672383644E-003 +1.6098313717E+002  +5.0240556777E-004 +2.3329180411E+001  +2.4912040089E-001 -1.6653864613E+002 
634725.907 +1.1719314178E-001 +1.7100493207E+002  +2.2500028575E-004 -1.5492778522E+002  +6.6371671016E-004 -2.3145750857E+001  +2.4851230534E-001 -1.6574468706E+002 
759871.089 +1.1559426637E-001 +1.7065063524E+002  +6.9084861880E-004 +4.1234627942E+001  +2.5878835610E-004 +1.1668838497E+002  +2.4865200067E-001 -1.6307269888E+002 
885016.270 +1.1648411610E-001 +1.6884888100E+002  +2.6476293096E-004 +1.6457113234E+002  +1.0345933003E-003 +1.0687072903E+002  +2.3146304288E-001 -1.6532050075E+002 
1010161.452 +1.1803373850E-001 +1.7150555372E+002  +2.3549224930E-003 +6.6040148205E+001  +7.3011983514E-004 -2.1521968785E+001  +1.2423145663E-001 -1.7633070539E+002 
1135306.633 +1.1874628734E-001 +1.7046081331E+002  +1.2105982150E-003 +5.0729072373E+001  +1.5318650553E-003 +7.4662074093E+001  +1.8963462310E-001 -1.5821867717E+002 
1260451.815 +1.2040559769E-001 +1.7287410107E+002  +1.0809905178E-003 +8.1225977916E+001  +5.9958602445E-004 +1.0922342914E+002  +2.4484581798E-001 -1.6086026560E+002 
1385596.996 +1.2678955513E-001 +1.7230639858E+002  +3.0366678986E-004 +2.0844371905E+001  +3.0795553321E-004 +9.2133004066E+001  +2.7863526594E-001 -1.5638574126E+002 
1510742.178 +1.2297157181E-001 +1.7100640501E+002  +1.0928388286E-003 -3.4887604890E+001  +3.5006405543E-004 -8.1125057637E+001  +2.4342770066E-001 -1.5977029199E+002 
1635887.359 +1.2953517577E-001 +1.7092435993E+002  +4.4398222046E-004 +1.7623506636E+002  +1.5860260973E-003 +1.2971277198E+002  +2.5989179749E-001 -1.5710433519E+002 
1761032.541 +1.3087825020E-001 +1.6909853632E+002  +5.4131130796E-004 -1.0392502882E+002  +1.2166459328E-003 +1.0473733517E+002  +2.2565746769E-001 -1.5937237662E+002 
1886177.722 +1.2994457701E-001 +1.6794077883E+002  +1.1507102729E-003 -1.4005630660E+002  +2.1576510100E-003 -1.9600342651E+001  +2.0464850896E-001 -1.6203361412E+002 
2011322.904 +1.3079294802E-001 +1.6654119887E+002  +1.7254742274E-003 +6.1344089318E+001  +1.5583102964E-003 -1.1445615352E+002  +1.9354834702E-001 -1.6924680182E+002 
2136468.085 +1.3138305454E-001 +1.6227989067E+002  +5.5552250154E-003 -1.0943793559E+002  +1.2526674215E-003 +5.0010422694E+001  +1.7237553842E-001 -1.6994567356E+002 
2261613.267 +1.3335222900E-001 +1.6315014735E+002  +2.9859835776E-003 +7.6609014075E+001  +4.8846099479E-003 +1.3712190107E+002  +1.2118292027E-001 +1.6107295912E+002 
2386758.448 +1.3772588965E-001 +1.5792546337E+002  +3.1054889281E-003 +1.5681274297E+002  +1.7929611632E-003 -1.4001933700E+002  +1.9572236600E-001 +1.6971869584E+002 
2511903.630 +1.3568913749E-001 +1.6182479153E+002  +5.7673002872E-003 +1.5684753058E+002  +2.2157702970E-003 +1.2518875439E+002  +2.3219000950E-001 +1.5185134301E+002 
2637048.811 +1.0842899706E-001 +1.5594160651E+002  +2.3914036765E-002 -1.0270436028E+002  +5.5139695532E-003 -1.4724467795E+002  +5.8390008287E-001 +1.0938824491E+002 
2762193.992 +1.0397186398E-001 +1.5935902487E+002  +1.2214220488E-002 +4.0640517236E+001  +9.1715587024E-003 -3.3269942469E+001  +4.7274215765E-001 -2.4824368199E+001 
2887339.174 +1.0822991635E-001 -1.7755989208E+002  +9.6368905705E-003 -9.2702397325E+001  +2.5649819785E-002 -6.7707243072E+000  +7.4275920366E-001 -1.0314307656E+002 
3012484.355 +1.1275788219E-001 +1.7847636881E+002  +1.0764613053E-002 +1.6561626641E+002  +1.5701051426E-002 +1.0074899848E+002  +6.6591749957E-001 -1.0538427041E+002 
3137629.537 +1.3198772864E-001 +1.7636696027E+002  +5.2131818722E-003 -5.2417348896E+001  +4.6524715751E-003 -1.0062363215E+002  +3.8477932449E-001 -1.2056746510E+002 
3262774.718 +8.7154983395E-002 +1.6165248139E+002  +1.5792140371E-002 +1.5957819771E+002  +3.3180255874E-002 +1.4777862087E+002  +2.7492641273E-001 -5.8329595207E+001 
3387919.900 +1.2771311548E-001 +1.5922089343E+002  +3.7070584150E-003 +7.9674247213E+001  +7.2369825419E-003 -1.5263641867E+002  +1.0456692902E-001 -1.0064243276E+002 
3513065.081 +1.2373047154E-001 +1.4593455604E+002  +2.3986443961E-002 +1.5715813947E+002  +2.6900748457E-002 -1.7508111202E+001  +1.3310243668E+000 +1.1579437201E+002 
3638210.263 +1.4990886858E-001 +1.4911337221E+002  +8.6311729278E-003 +7.3937535136E+001  +1.0559467266E-002 -1.0835988007E+002  +3.9692586356E-001 -8.5229425260E+000 
3763355.444 +2.1433982477E-001 +1.3106399331E+002  +2.2397461441E-002 +1.0510571723E+002  +5.2237724257E-003 +1.0729697789E+002  +1.7331521345E-001 +6.2563122041E+001 
3888500.626 +1.6582254250E-001 +1.5188725614E+002  +6.4934697041E-003 +1.7557954822E+002  +6.2987544631E-003 +3.9194404161E+001  +8.3767125931E-001 +1.3803432284E+002 
4013645.807 +1.9216678978E-001 +1.3783489210E+002  +5.7718923585E-003 +1.2565851379E+002  +1.7796175183E-002 +1.0612759368E+002  +3.3227607078E-001 +1.1999552051E+002 
4138790.989 +1.4770260134E-001 +1.4479391460E+002  +1.5623362938E-002 -4.4084791869E+001  +1.1004566718E-003 +3.4957523829E+001  +1.1962073575E-001 +2.1894405137E+001 
4263936.170 +2.0933993119E-001 +1.4443852449E+002  +4.5966698971E-003 -1.3990003777E+002  +3.1105402584E-003 -9.7970273792E+000  +3.9542429672E-001 +1.2073883731E+002 
4389081.352 +2.0632312776E-001 +1.2912100105E+002  +1.1106416971E-002 +1.6125239632E+002  +3.1149072065E-003 +1.3583507236E+002  +4.1735945067E-001 +1.1274460943E+002 
4514226.533 +2.5388352213E-001 +1.2602738921E+002  +1.0383977717E-002 -1.2647236142E+002  +6.7294627096E-003 +1.0097310102E+002  +8.2216031689E-001 +1.2515902130E+002 
4639371.715 +3.1173592439E-001 +1.2242444430E+002  +1.0303058881E-002 +1.5896434548E+002  +5.4939215518E-003 -1.7561491654E+002  +1.8645954631E+000 +1.6705982637E+002 
4764516.896 +4.9281390309E-001 +1.0924637994E+002  +1.1693437115E-002 +5.5656645753E+000  +2.2277987139E-002 +6.1467863531E+000  +5.2168576216E-001 +6.3538410913E+000 
4889662.078 +5.3678235008E-001 +1.2361960833E+002  +1.0265073876E-001 +4.1759441978E+001  +4.6715785792E-001 -7.4182028826E+001  +1.7786327246E+001 -6.6669078614E+000 
5014807.259 +4.1170288528E-001 +1.3934567021E+002  +6.9332595954E-002 -9.6900705499E+001  +9.0461616657E-002 +1.5973358402E+002  +8.4284096406E+000 +1.1482921532E+002 
5139952.441 +3.7143991290E-001 +1.2746647256E+002  +3.8305635584E-002 +1.2881646034E+002  +4.3568041796E-002 -1.6433845618E+002  +2.9900146069E+000 +7.5624109570E+001 
5265097.622 +3.9307273096E-001 +1.2417004389E+002  +1.3642147778E-002 +9.4191091573E+000  +3.3104737439E-002 -8.3617608170E+001  +1.9981615795E+000 +8.7641642983E+001 
5390242.804 +4.4885272839E-001 +1.2911291673E+002  +5.5082434987E-002 -1.3562744279E+002  +5.1783716084E-002 -8.9591995651E+001  +3.4943085061E+000 +8.2823785378E+001 
5515387.985 +4.7016091253E-001 +1.2327725836E+002  +2.5028097773E-002 -1.6927201043E+002  +1.9840751624E-002 +1.4506206351E+002  +9.0182403869E-001 +6.7391666377E+001 
5640533.166 +4.1067068114E-001 +1.3128773018E+002  +5.5967984068E-003 +8.6823609856E+001  +1.3402468952E-002 +1.1901004876E+002  +1.2546213518E+000 +1.0337106845E+002 
5765678.348 +5.2507633111E-001 +1.2421251386E+002  +1.5238760794E-002 -1.0029229728E+002  +1.7236799645E-002 +5.1018989447E+001  +1.6298933586E+000 +6.0558184797E+001 
5890823.529 +5.6001141196E-001 +1.2271699230E+002  +1.9908222176E-002 -4.9739260240E+001  +8.9801766208E-003 -3.9276686278E+001  +1.5864332425E+000 +8.1520499518E+001 
6015968.711 +6.8705649711E-001 +1.2138059560E+002  +7.4508841723E-003 +3.6467851919E+001  +5.7489065620E-003 -1.4803835522E+002  +2.7250504505E+000 +5.1878919900E+001 
6141113.892 +6.5644693441E-001 +1.0773130805E+002  +9.6771532516E-003 +1.5676366812E+002  +1.1596569387E-002 -1.7577905590E+002  +2.1232052422E+000 +2.2781710572E+001 
6266259.074 +1.0535474572E+000 +1.1055149063E+002  +2.5717189862E-002 -1.7925818860E+002  +5.4882974143E-003 +1.3540382470E+002  +1.4000924087E+000 +3.5583087250E+001 
6391404.255 +1.0755214428E+000 +9.1016839016E+001  +5.1431716281E-003 +8.9530400150E+001  +2.8595307392E-002 +1.2000221132E+002  +1.2760566687E+000 +5.0467596824E+000 
6516549.437 +1.3629931727E+000 +7.9851458675E+001  +2.5909306036E-002 +1.3288801231E+002  +5.3779787035E-002 +1.3933438241E+002  +1.2106950599E+000 +4.0273479715E+001 
6641694.618 +1.9345261180E+000 +6.5483484239E+001  +2.3443923696E-002 +9.6030204331E+001  +1.1371363408E-002 -6.2018944128E+001  +1.6270486240E+000 +1.7966626261E-001 
6766839.800 +2.4060547238E+000 +6.6905766555E+001  +3.0125119189E-002 +6.1171810096E+000  +1.6786666878E-002 +8.6676980592E+001  +1.3432143385E+000 -4.5874236372E+000 
6891984.981 +1.9415908654E+000 +2.7208172662E+001  +1.9347595750E-002 -1.4473872745E+002  +3.1857688676E-002 +5.3162731552E+001  +1.2682860942E+000 -6.7663152406E-001 
7017130.163 +1.6359536863E+000 +1.9332912288E+001  +1.4456650705E-002 -4.4572269651E+001  +3.5214762057E-002 +4.8256000447E+001  +1.3529713344E+000 -1.0417123513E+001 
7142275.344 +1.7567500046E+000 +1.2300327679E+001  +1.3179727988E-002 +8.6904919253E+000  +9.1974715056E-003 +5.9238312488E-001  +1.1825187348E+000 -1.1810565950E+001 
7267420.526 +1.6219733988E+000 +1.1433733183E+001  +1.4328795352E-003 +9.0788825518E+001  +1.4086325154E-002 +7.1417589198E+001  +1.4064995442E+000 -9.2634644839E+000 
7392565.707 +1.3645960509E+000 -5.2387795874E+000  +6.6667761738E-003 +1.1783476297E+002  +1.3094199910E-002 +1.1085532114E+002  +1.2991746676E+000 -8.8125606635E+000 
7517710.889 +1.1230607035E+000 -4.1883513239E+000  +6.0698847780E-003 +1.3243016187E+002  +3.6100986895E-003 -1.1629556632E+002  +1.1664038620E+000 -7.9041556775E+000 
7642856.070 +1.1630684178E+000 -1.0476775894E+000  +1.8071169284E-002 +6.1136310349E+001  +6.8078456649E-003 +9.7844750373E+001  +1.1346210745E+000 -2.8784315782E+000 
7768001.252 +9.8854066060E-001 +4.2931172405E+000  +4.6743393542E-003 +6.7960707503E+001  +9.3720259756E-003 +1.7112540149E+002  +1.0026054311E+000 -5.0561655516E+000 
7893146.433 +7.9788942568E-001 +1.1375500505E+000  +3.7093794567E-003 +1.7087281131E+002  +7.4198117881E-003 +1.1828760907E+002  +1.0020132260E+000 -2.7521700933E+000 
8018291.615 +8.0742477037E-001 +7.9518298505E+000  +3.8232240142E-003 +1.3118941963E+002  +3.6862197123E-003 +5.1510421935E+001  +7.8172044440E-001 -6.6219692664E+000 
8143436.796 +8.2762788952E-001 +3.1253140031E+000  +8.3932082878E-003 +1.0807157367E+001  +8.1772993623E-003 +4.1978630519E+001  +7.2979251104E-001 +3.9173109664E+000 
8268581.977 +7.8157080848E-001 +2.4560380751E+000  +5.1895610523E-003 +1.5063475576E+002  +3.5701371509E-003 +1.4947658805E+002  +7.5483972681E-001 +1.8752239087E+000 
8393727.159 +7.3082856098E-001 -4.9285651019E-001  +2.6613462013E-003 +3.0573533206E+001  +4.1804808090E-003 +7.9062288218E+001  +7.1466981279E-001 +1.2186062731E+000 
8518872.340 +6.4017589842E-001 -1.4759369271E+000  +5.9890470835E-003 +1.0173300167E+002  +1.5623270896E-003 +1.4774040413E+002  +7.4614974427E-001 +2.2727651674E+000 
8644017.522 +6.9037443048E-001 +3.8744581736E+000  +3.9461969612E-003 +1.0679615335E+002  +5.2416390695E-003 +2.9417931100E+001  +7.1922951512E-001 -3.0524339029E+000 
8769162.703 +6.2280522509E-001 +5.2854613572E+000  +3.8522325525E-003 +7.0910184997E+001  +5.5118959205E-003 +9.6517734031E+001  +6.5634303385E-001 +1.3056213524E+000 
8894307.885 +6.4203694904E-001 -3.3073193790E+000  +6.4555953666E-003 +8.0739762064E+001  +7.5803617403E-003 +1.5686952764E+002  +6.7022118817E-001 -4.4598331070E-001 
9019453.066 +5.8898775407E-001 +3.4192545955E+000  +3.3333909135E-003 +9.3118133445E+001  +5.0918149496E-003 +1.1004341734E+002  +6.4740780993E-001 -1.8611119953E+000 
9144598.248 +5.7845072646E-001 +2.0375223695E+000  +2.4531420610E-003 +1.4156783743E+002  +4.0985636623E-003 +1.3003000875E+002  +6.6970074067E-001 -1.4913613997E+000 
9269743.429 +5.9683831032E-001 +7.5509517810E+000  +2.6923032950E-003 +1.6937420065E+001  +2.3860344739E-003 +7.8632966029E+001  +6.0976560115E-001 -1.2667544342E+000 
9394888.611 +5.8500304427E-001 +2.7853828567E+000  +3.2203988221E-003 +1.3289117973E+002  +6.2487021226E-003 +1.0427531428E+002  +5.8703369408E-001 +2.6341497564E-001 
9520033.792 +5.3481458204E-001 +1.4384969927E+000  +5.2132121948E-003 +9.9761805078E+001  +6.3492906112E-003 +8.7261012394E+001  +5.8115291375E-001 -1.5376540314E+000 
9645178.974 +5.3247994199E-001 -3.4491157086E+000  +1.3241781974E-003 +6.3361333162E+001  +5.8983277968E-003 +1.1092215770E+002  +5.5373104773E-001 -9.6333248676E+000 
9770324.155 +5.5817321613E-001 -4.9862209794E-001  +1.5417439284E-003 +1.1367355957E+002  +8.8724810538E-003 +1.2145931099E+002  +5.8194247591E-001 -7.0700948250E+000 
9895469.337 +5.2811688789E-001 -2.7026105354E+000  +4.6366890177E-003 +6.8527512939E+001  +6.4906640919E-003 +4.1270728534E+001  +5.7488769398E-001 -6.6997367542E+000 
10020614.518 +5.7580587232E-001 -1.0903969739E-001  +3.6974213074E-003 +8.4859350585E+001  +5.2434904104E-003 +6.9049922828E+001  +5.7498871331E-001 -4.7236823378E-001 
10145759.700 +5.6740261030E-001 +2.0961923766E+000  +4.8000478615E-003 +1.1294603082E+002  +3.0403679939E-003 +1.0614203763E+002  +5.9907624505E-001 -3.4865967085E+000 
10270904.881 +5.5232290074E-001 +4.2088865075E+000  +3.4385456629E-003 +5.0106493711E+001  +6.3798170812E-003 +7.5256012937E+001  +5.8803928082E-001 -6.1664305305E+000 
10396050.063 +4.9438377138E-001 +5.1747064158E+000  +6.1212992980E-003 +9.1331630788E+001  +4.8384333417E-003 +8.2958872863E+001  +5.8687027859E-001 -2.3353127329E+000 
10521195.244 +5.6191753365E-001 +5.5666159290E+000  +3.3612586753E-003 +1.1578833832E+002  +4.9276417700E-003 +1.0050151670E+002  +5.5443948929E-001 -2.1175466555E+000 
10646340.426 +5.9156590667E-001 +6.6055641606E+000  +3.8355528586E-003 +1.0991255557E+002  +4.4963990255E-003 +1.1418016418E+002  +6.1904763672E-001 +8.0060826484E-001 
10771485.607 +5.8640844802E-001 +3.8198411330E+000  +4.9694221244E-003 +1.0063115575E+002  +4.4134606338E-003 +6.9113502643E+001  +6.2005225578E-001 -3.7315840205E-001 
10896630.788 +5.7589180240E-001 +3.0156993653E+000  +4.3186088434E-003 +9.4160586412E+001  +4.8964387878E-003 +1.0490302912E+002  +6.3399505622E-001 +7.8566679313E-001 
11021775.970 +5.9683306444E-001 +6.3859802331E+000  +4.6269201929E-003 +7.5756782681E+001  +4.8660365423E-003 +7.6903927113E+001  +6.1844994408E-001 +2.3639803753E+000 
11146921.151 +6.2950413859E-001 +2.9375679873E+000  +3.8716769151E-003 +9.7064666155E+001  +4.8454512103E-003 +1.0851465148E+002  +6.1343776482E-001 +1.7835323864E+000 
11272066.333 +6.1261385023E-001 +8.0570983439E+000  +3.0364705517E-003 +9.6798222294E+001  +4.5217339419E-003 +1.0788627704E+002  +6.0834490426E-001 +1.4539340514E-001 
11397211.514 +6.1769088157E-001 +5.6091852300E+000  +4.8128893001E-003 +4.6391303254E+001  +5.5685701486E-003 +8.9793939758E+001  +6.4134297722E-001 +9.4246929767E-001 
11522356.696 +6.0472127600E-001 +5.2974452712E+000  +6.5776604465E-003 +8.0951205072E+001  +2.2286690934E-003 +1.0136953571E+002  +6.4109678838E-001 +2.4386924015E+000 
11647501.877 +6.6176671055E-001 +4.0883680958E+000  +5.7488151085E-003 +8.9592367888E+001  +3.9433429725E-003 +1.0154949852E+002  +6.7189632546E-001 -4.1925095413E-001 
11772647.059 +6.5551360841E-001 +5.5013152803E+000  +5.9200669097E-003 +1.1334138865E+002  +5.6096507678E-003 +1.1278837832E+002  +6.6827110496E-001 +2.1936932902E+000 
11897792.240 +6.5263721370E-001 +3.5276283489E+000  +5.7270717294E-003 +9.5916199760E+001  +4.2750991432E-003 +1.2800619992E+002  +6.6719807312E-001 +9.5662943103E-001 
12022937.422 +6.6487863217E-001 +4.9246464308E+000  +3.3927097528E-003 +8.7394716966E+001  +6.4302636678E-003 +1.0661436145E+002  +6.7781938919E-001 +8.0961750561E-001 
12148082.603 +6.4957312088E-001 +3.7397804713E+000  +4.6681322751E-003 +6.3990971602E+001  +7.0639709624E-003 +9.9386786611E+001  +6.8112850084E-001 +6.1950917557E-001 
12273227.785 +6.9261745606E-001 +4.0711457442E+000  +6.0794853028E-003 +9.2704833909E+001  +5.7071506227E-003 +1.0153903681E+002  +7.2006787579E-001 +6.8099047301E-001 
12398372.966 +6.9299013991E-001 +2.8572096600E+000  +5.8442852990E-003 +1.0360086300E+002  +3.7997168277E-003 +6.2232195873E+001  +7.3854459820E-001 -3.9887004307E-001 
12523518.148 +7.3572465710E-001 +2.1070283758E+000  +5.1334142115E-003 +1.0549365834E+002  +6.2273824736E-003 +9.8353055078E+001  +7.4318521961E-001 -4.5648853478E-002 
12648663.329 +7.4335738486E-001 +1.1494022384E+000  +6.7388624047E-003 +7.3286049178E+001  +6.8558588654E-003 +9.5832805296E+001  +7.6658938990E-001 -4.1092759282E-001 
12773808.511 +7.5102776689E-001 +2.7061053827E+000  +6.5372539785E-003 +7.9177088873E+001  +6.6086785873E-003 +9.0928680930E+001  +7.5697955332E-001 +2.2677215560E-001 
12898953.692 +7.5929821297E-001 +7.0272569419E-001  +6.0325069268E-003 +7.8027888392E+001  +6.8864074320E-003 +1.0486330814E+002  +7.8730033298E-001 -4.6912074919E-001 
13024098.874 +7.8293086118E-001 +1.8648825703E+000  +4.9806334621E-003 +9.9439605192E+001  +7.6220345723E-003 +8.8326122304E+001  +7.8788168977E-001 -1.2815241983E+000 
13149244.055 +8.1487547762E-001 +2.0311016243E-001  +5.6223548010E-003 +6.4372016725E+001  +4.8454381196E-003 +1.0641233509E+002  +8.0065579461E-001 -2.1551116118E+000 
13274389.237 +7.8457567948E-001 -4.5422837623E-001  +6.7309180811E-003 +9.5866440682E+001  +9.6764765530E-003 +1.0235290858E+002  +8.3682131586E-001 -3.3374930978E+000 
13399534.418 +8.3933479119E-001 -4.7948343318E-001  +7.0232948949E-003 +9.7266546604E+001  +6.2698323563E-003 +9.6912056998E+001  +8.3585942316E-001 -6.8905121144E-001 
13524679.599 +8.5857948630E-001 -1.1049422207E+000  +6.8108246685E-003 +9.7102265603E+001  +5.7390715913E-003 +9.5153753956E+001  +8.6127017201E-001 -3.9421668718E+000 
13649824.781 +8.6514014211E-001 -1.5412389511E+000  +7.4619786480E-003 +8.2067360871E+001  +7.1932126173E-003 +9.4474426769E+001  +8.7245305913E-001 -2.2059555545E+000 
13774969.962 +8.8342699301E-001 -2.9005733343E+000  +7.4533158261E-003 +8.6775219146E+001  +5.3787036534E-003 +9.0322648532E+001  +8.9216338022E-001 -3.5893629820E+000 
13900115.144 +8.9650088717E-001 -1.7432343259E+000  +6.9499027329E-003 +7.7213895780E+001  +7.9470645421E-003 +9.1840378452E+001  +9.0969086226E-001 -3.2317809858E+000 
14025260.325 +9.2320316829E-001 -3.2450965178E+000  +7.9748974136E-003 +8.4281514427E+001  +7.8262178525E-003 +8.7031832762E+001  +9.1664596272E-001 -3.1033123601E+000 
14150405.507 +9.3492031810E-001 -3.7136641236E+000  +8.5050709371E-003 +9.7317133470E+001  +6.3185334338E-003 +1.0815664268E+002  +9.6618666664E-001 -4.8737747996E+000 
14275550.688 +9.6044339964E-001 -5.6467295098E+000  +7.0720151267E-003 +9.6223859119E+001  +6.3933890784E-003 +9.1147511446E+001  +9.4548305553E-001 -4.5559298496E+000 
14400695.870 +9.7725847724E-001 -5.3016301084E+000  +8.6308825540E-003 +7.5604424287E+001  +8.9928765585E-003 +9.5623381392E+001  +9.8476411617E-001 -3.3154733524E+000 
