!  2-Port S-parameters saved by WinCal
! VAR MeasName=S-Parameters (CALIBRATED_DATA) read from VNA (P5004A)
! VAR MeasDate=27/08/2024 15:42:59
! VAR NAME=S2_r6c8_RESET3_9k-100M_3
! VAR FILENAME=S2_r6c8_RESET3_9k-100M_3.S2P
! VAR DATE=27/08/2024 15:42:59
! VAR PHYS_PORTS=1,2
! VAR ObjTypeName=DATASET
! VAR IndexType=Frequency
!
# Hz S MA R 50
9000.000 +8.0458191382E-002 -1.6385229440E+002  +7.5099702083E-003 -1.4561793525E+002  +7.8312990690E-003 +9.9507420128E+001  +1.8483388876E-001 -1.3180405785E+002 
134145.181 +1.1099517008E-001 +1.6952025423E+002  +3.6813853841E-004 +2.0944709755E+001  +1.9194177141E-004 +4.1610919035E+001  +2.3768016337E-001 -1.7095651457E+002 
259290.363 +1.1178431982E-001 +1.6994579247E+002  +4.3460880675E-004 +1.7832445651E+002  +2.5928127033E-004 +9.1427690323E+001  +2.3617912541E-001 -1.6766147577E+002 
384435.544 +1.1488082878E-001 +1.7013087050E+002  +4.1826715646E-004 -1.5337888462E+002  +1.9861366800E-004 +1.7548647430E+002  +2.3786463649E-001 -1.6728142179E+002 
509580.726 +1.1552638603E-001 +1.7154573478E+002  +8.1510028665E-004 -1.1973100171E+002  +1.4588277290E-003 -9.8751716895E+001  +2.4556959719E-001 -1.6336606801E+002 
634725.907 +1.1525179561E-001 +1.7071547429E+002  +5.7385994578E-004 -1.2902817365E+002  +2.7602738896E-004 -2.4771069230E+001  +2.3265637003E-001 -1.6589204434E+002 
759871.089 +1.1681134276E-001 +1.7205788990E+002  +1.2772932606E-003 -5.1959524615E+001  +1.8824598038E-003 -6.2179614796E+001  +2.5150726717E-001 -1.6108225622E+002 
885016.270 +1.1843419040E-001 +1.6932897399E+002  +7.8120952524E-004 +3.5693077978E+001  +1.1863493536E-003 +9.1012569862E+001  +2.4049583418E-001 -1.6343796119E+002 
1010161.452 +1.1721455943E-001 +1.7106871794E+002  +1.6921481485E-003 -7.0098560782E+000  +1.6801445395E-003 +2.7383597392E+001  +1.7231908235E-001 -1.6032987073E+002 
1135306.633 +1.1499492310E-001 +1.7047954562E+002  +4.2165079991E-003 -1.1834737881E+002  +2.4194220944E-003 +1.7359623645E+002  +1.9637261406E-001 -1.5014580619E+002 
1260451.815 +1.1807195746E-001 +1.7130147085E+002  +9.4665891210E-004 +1.5010474459E+002  +2.4413768183E-003 +1.6586262268E+002  +1.9882947350E-001 -1.5766720696E+002 
1385596.996 +1.2030437211E-001 +1.7244779880E+002  +1.3227275639E-003 +1.7004649913E+001  +1.8924341575E-003 +8.5070864075E+001  +2.5744028516E-001 -1.5891308397E+002 
1510742.178 +1.2603568182E-001 +1.7062419973E+002  +4.4088836027E-004 +8.5064162723E+001  +2.2110903402E-004 +1.5072680203E+002  +2.6082003453E-001 -1.6012709682E+002 
1635887.359 +1.2597661615E-001 +1.6994429969E+002  +3.7094923196E-004 +1.1865336835E+002  +2.4777102998E-003 +1.1361097485E+002  +2.1611647326E-001 -1.5399014671E+002 
1761032.541 +1.2569925039E-001 +1.6911684079E+002  +2.3917392986E-003 -1.1857187448E+002  +2.9525744957E-003 -1.6180269180E+002  +1.8710219369E-001 -1.5188513088E+002 
1886177.722 +1.2964836572E-001 +1.6722460068E+002  +8.8145145318E-004 -2.5639305920E+001  +2.2672343322E-003 +3.4249312873E+001  +1.7538347143E-001 -1.6353337634E+002 
2011322.904 +1.3173446209E-001 +1.6627305336E+002  +4.6565970090E-004 -1.2222297643E+001  +3.0143301585E-003 -5.8458751395E+001  +1.7789113881E-001 -1.7555433218E+002 
2136468.085 +1.3082291029E-001 +1.6435884120E+002  +5.9903670570E-003 +4.7377149684E+001  +8.2286068407E-003 -1.1902703957E+002  +1.8413275216E-001 +1.5560197334E+002 
2261613.267 +1.3467812650E-001 +1.6385679873E+002  +3.0230870050E-003 +1.3376630122E+002  +1.3791158468E-003 -8.1779040367E+001  +1.9509736374E-001 +1.7349060207E+002 
2386758.448 +1.3512976362E-001 +1.6114782474E+002  +9.8608253336E-004 -5.8108089609E+001  +7.0370261497E-003 +1.3521246304E+002  +1.2040050565E-001 +1.5077901782E+002 
2511903.630 +1.3690118824E-001 +1.5792847991E+002  +1.2565336640E-003 +4.8180893657E+001  +5.9736600922E-003 +1.5057205614E+002  +1.8173124978E-001 +1.6488832531E+002 
2637048.811 +1.2748626113E-001 +1.6186690667E+002  +5.1833942573E-003 +1.7230068727E+002  +3.2452018831E-003 -8.0763132375E+001  +1.6156062313E-001 +1.5829373219E+002 
2762193.992 +9.2757488092E-002 +1.6057533232E+002  +7.9882861292E-003 -1.1414210701E+002  +1.5654119866E-002 -8.7176030153E+000  +2.7984726869E-001 -5.8051113045E+001 
2887339.174 +1.0505462096E-001 -1.7628301506E+002  +1.0396581016E-002 -6.9102685354E+001  +3.9592736729E-004 -1.1187454535E+002  +4.2040473903E-001 -1.0474496868E+002 
3012484.355 +1.0514350872E-001 -1.7759814647E+002  +1.1732928787E-002 -1.1084855387E+002  +1.1186063217E-002 +2.7711852425E+001  +7.0070213370E-001 -1.1227892775E+002 
3137629.537 +1.2550941690E-001 -1.6947386833E+002  +4.0162605411E-002 -1.0738912394E+002  +2.3211354142E-002 +1.4714371503E+002  +6.9013661694E-001 -4.5592753082E+001 
3262774.718 +1.0172420965E-001 +1.6938813590E+002  +1.7473918821E-003 -5.5658712097E+001  +1.1331731694E-002 +1.0419915547E+002  +6.0157047667E-001 -9.3361394048E+001 
3387919.900 +6.2083942586E-002 +1.5373387630E+002  +1.3324533593E-002 +3.5924252085E+001  +6.2808672240E-003 -1.7188749339E+002  +2.3865146743E-001 -7.6805353023E+001 
3513065.081 +1.0747000584E-001 +1.3369009779E+002  +1.8982063148E-002 -8.6213470063E+001  +1.5514943648E-001 +1.8372652341E+001  +1.9915994817E+000 +8.0588356649E+001 
3638210.263 +1.7757041811E-001 +1.4901203381E+002  +3.4312081720E-001 +1.7225438696E+002  +2.3778538597E-001 +5.5883680745E+001  +1.3778411198E+001 -8.2653998142E+001 
3763355.444 +1.4133159407E-001 +1.4681277119E+002  +7.8550366729E-003 +5.3402050886E+001  +6.3131847966E-003 +1.5140808753E+002  +5.5892781700E-001 +1.5998317506E+002 
3888500.626 +1.6315862297E-001 +1.4454058655E+002  +8.6720757432E-003 +2.8228687442E+001  +3.3798499920E-003 +4.3797625456E+001  +9.2628338311E-002 +5.9068423703E+001 
4013645.807 +1.5826094893E-001 +1.4561996916E+002  +8.0625060420E-003 +7.9753851537E+001  +1.4607792133E-002 +2.4964903810E+001  +2.7287447309E-001 +9.8500320551E+001 
4138790.989 +1.6621441612E-001 +1.4504978468E+002  +1.5469840057E-003 -2.5701205708E+001  +2.3135248697E-003 -1.0031804743E+002  +3.3734296269E-001 +1.4083972369E+002 
4263936.170 +1.7854032709E-001 +1.3935175134E+002  +2.1712798124E-002 -1.6417346704E+002  +2.8488837449E-002 -4.2289492760E+001  +8.8768629816E-001 +1.0696316546E+002 
4389081.352 +2.2724123564E-001 +1.4274415407E+002  +1.2777929262E-002 +9.7427760523E+001  +1.5068632656E-002 +1.3260650879E+002  +1.5182413037E+000 +1.2967811814E+002 
4514226.533 +3.1168735935E-001 +1.1241936530E+002  +1.6031270672E-002 -6.5484729756E+001  +1.4009219714E-002 -6.3789112523E+001  +5.6008162952E-001 +8.3747804756E+001 
4639371.715 +3.3250450834E-001 +1.2944537028E+002  +2.1796709417E-002 -1.6961737054E+001  +4.7831344100E-002 -1.5289879668E+002  +3.1983658773E+000 +6.1136002408E+001 
4764516.896 +3.1622855525E-001 +1.3391316560E+002  +6.9440581686E-002 -1.4528372825E+002  +7.8064535983E-002 -3.6760333047E+001  +3.9837413433E+000 +2.9415789236E+001 
4889662.078 +4.2101372461E-001 +1.2484536633E+002  +6.9603925645E-002 +2.4075184173E+001  +2.5311730471E-002 -6.3298624731E+001  +2.2892154950E+000 -1.2305522776E+002 
5014807.259 +4.4555521364E-001 +1.2759557879E+002  +4.4007699127E-002 +1.3956872396E+002  +3.0991810267E-002 +1.0694298917E+001  +2.7192873687E+000 -5.4918462317E+001 
5139952.441 +3.3578608646E-001 +1.2549250543E+002  +8.9683471436E-002 +9.3178360247E+001  +1.0417628585E-001 +7.2298560352E+001  +7.4113766940E+000 +1.4679317214E+001 
5265097.622 +4.2240926455E-001 +1.2339002353E+002  +1.9977480195E-002 -1.6540957650E+002  +2.1872544529E-002 -1.6682251780E+002  +4.7888119399E+000 +1.0062943950E+002 
5390242.804 +4.3600984459E-001 +1.3074901730E+002  +4.8486904018E-003 +1.5923013207E+002  +1.6066091189E-002 +7.7613782509E+001  +1.4977488280E+000 +9.5807526016E+001 
5515387.985 +4.3723844924E-001 +1.3193545958E+002  +2.2494316429E-002 +1.3001125138E+002  +3.1305295968E-002 -1.6677878784E+002  +2.0841092377E+000 +4.3558996215E+001 
5640533.166 +4.6021926179E-001 +1.3182378338E+002  +7.0393815723E-003 -3.6890930795E+001  +1.8304449630E-002 +1.1443088463E+002  +1.5003209875E+000 +5.1651707197E+001 
5765678.348 +5.2326388403E-001 +1.1867470160E+002  +1.5419323154E-002 -1.1132727508E+002  +2.1436470043E-002 -1.3617563810E+002  +1.6099316587E+000 +7.9692821347E+001 
5890823.529 +6.0480237970E-001 +1.2056578860E+002  +1.7942131025E-002 +1.4077902098E+002  +1.2708692598E-002 +7.3792398977E+001  +2.0026284231E+000 +5.2952385293E+001 
6015968.711 +6.9860306051E-001 +1.1840491012E+002  +1.2726942368E-002 -5.6891574817E+001  +6.0045338777E-003 +1.5618242187E+002  +1.9849053181E+000 +7.0597521739E+001 
6141113.892 +6.2924236413E-001 +1.1056865939E+002  +1.8846334520E-002 +1.0667135800E+002  +3.8768968519E-002 +7.3493601682E+001  +1.6777049422E+000 +2.7167850984E+001 
6266259.074 +1.0249170920E+000 +1.0695094324E+002  +1.9801587553E-002 +1.1323306600E+002  +2.7062561459E-002 +1.6331160314E+002  +1.7160825801E+000 +3.8057380172E+001 
6391404.255 +9.7907478242E-001 +9.7388084429E+001  +8.4995299511E-003 +1.5527064564E+002  +2.3989978337E-002 +1.0164644637E+002  +1.2938791374E+000 +5.2532422816E+000 
6516549.437 +1.4148491465E+000 +8.3018562410E+001  +1.8038015816E-002 +4.1253812194E+001  +1.8132925733E-002 +1.5209168607E+002  +1.5875103433E+000 +1.7913007457E+001 
6641694.618 +1.4598610206E+000 +7.9611234837E+001  +1.1152277142E-002 +4.0423885299E+001  +9.8546150203E-003 -8.5194557383E+001  +1.5600907117E+000 +6.9954788335E-001 
6766839.800 +2.2044939290E+000 +4.5066846643E+001  +2.5927213618E-002 +1.0973354201E+002  +2.3456250271E-002 +9.4250927886E+001  +1.2035786756E+000 -6.0057437391E+000 
6891984.981 +2.8168529235E+000 +3.2351781093E+001  +3.4753810437E-002 -1.7835645666E+002  +3.2452828885E-002 +7.4212859347E+001  +1.1957054207E+000 -5.6919378059E+000 
7017130.163 +2.0151669321E+000 +2.3217504201E+001  +1.1624399000E-002 +1.2213511374E+002  +2.5461462431E-002 +1.4342098025E+002  +1.1855626260E+000 -8.5010317420E+000 
7142275.344 +1.4145923425E+000 +7.8098932676E+000  +8.3657884294E-003 +5.4829561353E+001  +1.6090865544E-002 -2.7482882820E+001  +1.3383906090E+000 -5.5640654326E+000 
7267420.526 +1.4156985644E+000 +6.4731943089E+000  +1.0792053395E-002 +1.2819140139E+002  +1.0749860785E-002 +4.1966866133E+001  +1.3090616128E+000 -6.6802590651E+000 
7392565.707 +1.3515287091E+000 -1.1281208093E+000  +1.1927994919E-002 +7.0316729164E+001  +1.2492965130E-003 +4.3831678665E+001  +1.3279429291E+000 -6.1227399275E+000 
7517710.889 +1.1824905610E+000 -2.2721428494E+000  +3.0627530159E-003 +4.2445878761E+001  +3.0933417726E-003 -5.1924400927E+001  +1.2615042681E+000 -1.4626177351E+000 
7642856.070 +1.1248311950E+000 -8.6848020298E-001  +1.2253575093E-002 +1.0050950498E+002  +6.1681242714E-003 +1.1105787149E+002  +9.9058466258E-001 -3.8196593130E+000 
7768001.252 +9.8207739360E-001 +5.0767528927E+000  +7.1001909008E-003 +1.0973971757E+002  +9.1849511894E-003 +8.0684632652E+001  +1.0257928148E+000 -1.1244047985E+001 
7893146.433 +8.0524219176E-001 +1.9674621496E+000  +2.3845588526E-003 +2.1210541623E+001  +7.5419305021E-003 +7.1969375280E+001  +1.0329005867E+000 -2.0978202315E+000 
8018291.615 +8.9280988269E-001 +1.0093577424E+000  +8.3706062360E-003 +1.3913965892E+001  +4.6636998020E-003 +1.0022489125E+001  +8.3639710553E-001 -2.2006209290E+000 
8143436.796 +7.4422563247E-001 +4.1188080281E+000  +1.1518980362E-002 +7.4130079114E+001  +7.8681024099E-003 +2.2698231119E+001  +8.7203729164E-001 -3.4615286247E-001 
8268581.977 +7.4012946300E-001 +5.6890411809E+000  +3.8280448548E-003 +7.6739267956E+001  +4.6325548308E-003 +1.3801135213E+002  +8.4731586059E-001 -2.3855255130E-001 
8393727.159 +6.8494612712E-001 +7.9860066510E+000  +2.6549392365E-003 +5.8179457330E+001  +4.4603216524E-003 +5.9658949822E+001  +7.0908824560E-001 -2.3096702160E-001 
8518872.340 +7.6443351768E-001 +2.9328319228E+000  +2.5016379411E-003 +6.2489823475E+001  +1.5731200226E-003 +2.9148301438E+001  +7.7064068870E-001 -8.1851379328E-001 
8644017.522 +6.2166333466E-001 +5.5997678604E+000  +2.8551763052E-003 +1.4750314316E+002  +6.2296338048E-003 +1.2043254801E+002  +7.2726123451E-001 +3.5348797682E+000 
8769162.703 +6.4408018894E-001 +8.7707290038E+000  +1.7835009397E-003 +8.2847198815E+001  +8.8562574643E-003 +3.8313177171E+001  +6.8697691195E-001 -1.0482941127E+000 
8894307.885 +6.0550214846E-001 +3.6135896496E+000  +6.3694781300E-003 +1.1479648639E+001  +2.2450411560E-003 +4.6555532937E+001  +6.5047179196E-001 -2.4390636854E+000 
9019453.066 +5.9964060192E-001 +4.5787499724E+000  +4.2108109517E-003 +5.9989115053E+001  +6.2506524982E-003 +4.8420397669E+001  +6.3662494344E-001 -5.2351162037E+000 
9144598.248 +5.2965892856E-001 -6.5646197862E-001  +5.7699411046E-003 +7.9742420479E+001  +2.9541669656E-003 +1.4032551045E+002  +6.5111464555E-001 +2.2609144216E-001 
9269743.429 +5.7365908512E-001 -1.0396485996E+000  +7.3560849788E-003 +6.9536110990E+001  +3.3375009383E-003 +1.7781172565E+002  +5.4234607661E-001 -2.4988430803E+000 
9394888.611 +5.5236986639E-001 +3.7759735702E+000  +5.1798304283E-003 +9.9114102354E+001  +6.0980870047E-003 +9.5459399133E+001  +6.2391805834E-001 -3.2308917875E+000 
9520033.792 +5.8125521249E-001 +1.0216473869E+000  +9.4914588299E-004 +1.6796259877E+002  +1.6133301394E-003 +7.1668117746E+001  +6.2142951560E-001 -2.4149097365E+000 
9645178.974 +5.6022520789E-001 -7.6525267370E-001  +4.1728989275E-003 +3.4535126347E+001  +5.8662433025E-003 +1.2623465394E+002  +5.7658943935E-001 -7.8014049564E+000 
9770324.155 +5.1552400895E-001 -9.6222401920E-001  +6.0674303241E-003 +8.9162661299E+001  +6.2057761821E-003 +8.5663133023E+001  +6.0320842334E-001 -3.4668165494E+000 
9895469.337 +5.8992290769E-001 -5.7854351584E-002  +3.4813728309E-003 +7.4026204905E+001  +5.9330757725E-003 +1.4785065084E+002  +6.0895700562E-001 -1.2417315609E+000 
10020614.518 +5.9010641641E-001 +3.9318104341E+000  +1.4479399294E-003 +7.7006480855E+001  +6.6710249885E-003 +9.3581170521E+001  +5.7824349920E-001 -5.8095898035E+000 
10145759.700 +5.6553197816E-001 -8.0744560896E-001  +2.2544415816E-003 +6.2316149865E+001  +2.6999465944E-003 +7.0079955123E+001  +5.8869577178E-001 -4.5810926645E+000 
10270904.881 +5.3112338295E-001 +2.1355289932E+000  +2.3964533157E-003 +7.7893432017E+001  +5.4757490227E-003 +6.9184606150E+001  +5.8223481290E-001 -3.2178309205E+000 
10396050.063 +5.7228515966E-001 +3.3868643300E+000  +4.2120971945E-003 +5.4724188528E+001  +3.1236518136E-003 +6.5614519247E+001  +5.7497922594E-001 -1.4065666449E+000 
10521195.244 +5.2851520823E-001 +6.0543015194E+000  +3.5539604545E-003 +7.7401033995E+001  +3.7519657817E-003 +6.7606279423E+001  +5.8333308241E-001 +1.9385529620E+000 
10646340.426 +5.3683383296E-001 +5.6766878767E+000  +5.4526196754E-003 +6.4171390405E+001  +5.7966587131E-003 +7.8177374225E+001  +5.9419167234E-001 -3.3734478119E+000 
10771485.607 +5.8305123387E-001 +7.3929019650E+000  +6.3218303765E-003 +8.1134597519E+001  +5.8060595849E-003 +1.0618779202E+002  +6.2780643272E-001 -2.9297717768E+000 
10896630.788 +5.9257531032E-001 +5.7334194699E+000  +5.0328205059E-003 +8.8396604640E+001  +3.5916926283E-003 +6.8030818366E+001  +5.7288218310E-001 -1.2638281200E+000 
11021775.970 +5.8426347590E-001 +8.5696157902E+000  +3.6439264727E-003 +9.1643607004E+001  +5.1776254842E-003 +7.5622801317E+001  +6.0320938128E-001 +1.9427506833E+000 
11146921.151 +5.9564679331E-001 +8.6886565955E+000  +3.5825448902E-003 +5.3954657745E+001  +4.7926475583E-003 +6.8164261782E+001  +6.1800458173E-001 +3.2328541639E+000 
11272066.333 +5.9923686298E-001 +6.9642200484E+000  +4.4749098751E-003 +4.7696560358E+001  +3.7836672538E-003 +7.5400480396E+001  +6.0369411136E-001 +1.5358317854E+000 
11397211.514 +6.1081290511E-001 +6.5647787162E+000  +6.0759929397E-003 +6.7080709496E+001  +4.8195747738E-003 +8.5618936796E+001  +6.3388265677E-001 -1.3186165678E+000 
11522356.696 +6.1598567636E-001 +2.1859949422E+000  +5.0420679236E-003 +5.7242593647E+001  +3.0367906549E-003 +9.0489784123E+001  +6.4726822893E-001 +1.6397528267E+000 
11647501.877 +6.2929871677E-001 +5.6802846132E+000  +5.2526999889E-003 +7.1570827213E+001  +5.6906859424E-003 +9.5447089419E+001  +6.6066804803E-001 +1.9905529507E+000 
11772647.059 +6.5212869293E-001 +6.1002923163E+000  +4.2380309377E-003 +6.5683256669E+001  +6.1623828747E-003 +7.7975988852E+001  +6.3814007087E-001 -7.4490475987E-001 
11897792.240 +6.6317758323E-001 +6.2065092151E+000  +5.1866323472E-003 +7.6664228602E+001  +5.9050677173E-003 +9.6745047558E+001  +6.7383729598E-001 +6.9172016665E-001 
12022937.422 +6.5021102284E-001 +4.1230729503E+000  +4.9469875321E-003 +7.8127823637E+001  +5.8771495572E-003 +8.9826942283E+001  +6.8347703424E-001 +6.9592285058E-001 
12148082.603 +7.0388740678E-001 +2.6278984114E+000  +6.4530080962E-003 +7.6355524060E+001  +5.9213338977E-003 +7.0814165881E+001  +6.7384597784E-001 +3.9416418958E-001 
12273227.785 +6.7811708560E-001 +5.2069946883E+000  +6.6923695780E-003 +7.0107967531E+001  +7.7765037838E-003 +8.2940230860E+001  +7.1060455832E-001 -1.2973626940E+000 
12398372.966 +7.0102541101E-001 +3.7945014428E+000  +6.0411317000E-003 +7.3245296315E+001  +5.8951785221E-003 +9.5553676623E+001  +7.0486159218E-001 +6.0404686718E-001 
12523518.148 +7.1087412571E-001 +2.7153418736E+000  +4.7994906719E-003 +8.2241837325E+001  +5.9757767762E-003 +7.7213620472E+001  +7.3965066200E-001 -1.9728966606E+000 
12648663.329 +7.2501073148E-001 +1.7871491562E+000  +6.2902983459E-003 +8.2041590090E+001  +4.6238725571E-003 +7.5716373502E+001  +7.5023376969E-001 -4.6806650573E-001 
12773808.511 +7.6251320788E-001 +1.8835140453E+000  +5.5528902744E-003 +8.0278759912E+001  +5.1778885734E-003 +8.8850680561E+001  +7.4424017853E-001 -1.7983932672E+000 
12898953.692 +7.5640062500E-001 +2.1930331517E+000  +5.8575277608E-003 +7.7024755828E+001  +6.6278809338E-003 +8.9241885712E+001  +7.7763744874E-001 -5.1324767394E-001 
13024098.874 +7.9963788681E-001 +1.3827324896E+000  +6.6744946848E-003 +8.5011322973E+001  +6.1773846342E-003 +9.3053262181E+001  +8.1994228109E-001 -2.2408695977E+000 
13149244.055 +8.0159248734E-001 -1.2362375899E-001  +5.7296991517E-003 +8.8822972730E+001  +4.9130717235E-003 +7.2645807554E+001  +8.2352085807E-001 +9.2726182563E-001 
13274389.237 +8.1169759741E-001 +2.1279239353E-001  +6.3781772710E-003 +9.2189134737E+001  +6.5140482320E-003 +9.5354555399E+001  +8.4732691438E-001 -3.2860571637E+000 
13399534.418 +8.2538523516E-001 -6.9179581503E-001  +5.2915216143E-003 +7.8696355305E+001  +7.5942488593E-003 +7.9574571474E+001  +8.5234312102E-001 -2.1822255641E+000 
13524679.599 +8.4317159639E-001 -4.7052109251E-001  +7.2282444063E-003 +7.3134826206E+001  +5.9556517880E-003 +8.7416667985E+001  +8.6990966706E-001 -2.6770244849E+000 
13649824.781 +8.6334506163E-001 -2.9900855067E+000  +6.7160732147E-003 +8.5648461304E+001  +6.0321458951E-003 +9.6984085806E+001  +8.7820441916E-001 -3.1842678722E+000 
13774969.962 +8.6409135156E-001 -3.6626900299E+000  +6.1697307530E-003 +7.2085260886E+001  +7.1411235647E-003 +7.3112790976E+001  +8.8807189651E-001 -2.7889750470E+000 
13900115.144 +9.0921342748E-001 -2.6053816574E+000  +7.5583142231E-003 +7.2983441437E+001  +6.4960705533E-003 +7.7270009976E+001  +9.0595610506E-001 -3.1293120131E+000 
14025260.325 +9.2997477926E-001 -4.4284671302E+000  +7.9329208769E-003 +8.8089495225E+001  +5.7627033409E-003 +7.8898242486E+001  +9.5088235988E-001 -3.4428143011E+000 
14150405.507 +9.3709724440E-001 -3.9010385477E+000  +8.4166870421E-003 +7.8994972550E+001  +6.1129881240E-003 +6.5277351870E+001  +9.3341898793E-001 -3.5527970444E+000 
14275550.688 +9.5366896926E-001 -4.3367940064E+000  +6.0157259960E-003 +7.4174108277E+001  +5.4152176666E-003 +7.3313544657E+001  +9.5860422783E-001 -4.5967482806E+000 
14400695.870 +9.6582547135E-001 -5.2812537579E+000  +7.1769008584E-003 +6.8241220128E+001  +7.4971351508E-003 +7.8782541309E+001  +9.9704855174E-001 -4.0136312402E+000 
