!  2-Port S-parameters saved by WinCal
! VAR MeasName=S-Parameters (CALIBRATED_DATA) read from VNA (P5004A)
! VAR MeasDate=28/08/2024 12:22:10
! VAR NAME=S2_r7c9_RESET3_9k-100M_2
! VAR FILENAME=S2_r7c9_RESET3_9k-100M_2.S2P
! VAR DATE=28/08/2024 12:22:10
! VAR PHYS_PORTS=1,2
! VAR ObjTypeName=DATASET
! VAR IndexType=Frequency
!
# Hz S MA R 50
9000.000 +9.1672443591E-002 -1.6548682839E+002  +8.5972225861E-003 -1.6551026536E+002  +6.7441421740E-003 +9.1685875400E+001  +2.7765352152E-001 -1.5232652209E+002 
134145.181 +1.1085038572E-001 +1.6985027493E+002  +2.8666820849E-004 +7.1904571325E-001  +4.8952861372E-004 +1.1317537348E+002  +2.4424559494E-001 -1.7014318116E+002 
259290.363 +1.1154748262E-001 +1.6972526265E+002  +2.0538754716E-004 -1.6304368485E+002  +7.7060493033E-004 +1.2139185633E+002  +2.4665265064E-001 -1.6822758902E+002 
384435.544 +1.1284651340E-001 +1.6981898106E+002  +3.4780499151E-004 +1.2906395743E+002  +1.9228959282E-004 +1.4048653025E+002  +2.4327159615E-001 -1.6918783681E+002 
509580.726 +1.1249874550E-001 +1.7098671061E+002  +8.9465600359E-004 -7.3112433561E+001  +8.4815464864E-004 +1.4711140242E+002  +2.4838758808E-001 -1.6545258179E+002 
634725.907 +1.1269067160E-001 +1.7209854697E+002  +1.0208448794E-003 +1.7016961540E+002  +2.6238301011E-003 +6.6390668155E+001  +2.5390131822E-001 -1.6485444742E+002 
759871.089 +1.1912786988E-001 +1.7092474144E+002  +5.2990669700E-005 -8.6311028184E+001  +4.2121826519E-004 +9.8831084608E+001  +2.4767744877E-001 -1.6648195356E+002 
885016.270 +1.1982308448E-001 +1.6906158931E+002  +6.2747820621E-004 -6.8381592093E+001  +3.9858135550E-004 -1.5674210073E+002  +2.4382888703E-001 -1.6719962820E+002 
1010161.452 +1.1763013713E-001 +1.7043609291E+002  +1.5532990434E-003 -6.8660277586E+001  +1.6545443787E-003 +3.5313906752E+001  +2.0486781373E-001 -1.6490599111E+002 
1135306.633 +1.2012994032E-001 +1.7109757169E+002  +1.7890913885E-003 -1.6446529552E+002  +1.0431424442E-003 -9.6918409610E+001  +2.1502883147E-001 -1.5655797747E+002 
1260451.815 +1.1987486729E-001 +1.7092972695E+002  +1.1452240463E-003 +6.3585404145E+001  +9.3958212395E-004 +1.5435664656E+002  +2.3498578416E-001 -1.5823063274E+002 
1385596.996 +1.2410740546E-001 +1.7120869941E+002  +2.8390977186E-004 +1.6203533699E+002  +1.0602078285E-003 +4.1303536694E+001  +2.6799573199E-001 -1.5654138950E+002 
1510742.178 +1.2892890832E-001 +1.7170730407E+002  +6.1371561747E-004 +1.2429440651E+002  +5.1765275700E-004 +3.6467755997E+001  +2.7642930705E-001 -1.5680352808E+002 
1635887.359 +1.2766746552E-001 +1.7046800950E+002  +1.2545917060E-003 -2.4760493308E+001  +9.3436277774E-004 +1.0186341367E+002  +2.3594608307E-001 -1.5941154658E+002 
1761032.541 +1.3042075646E-001 +1.7070543263E+002  +1.0754364100E-003 +2.5528557107E+001  +7.6009618752E-004 +1.1249929060E+002  +2.3380291525E-001 -1.5881309391E+002 
1886177.722 +1.2879107929E-001 +1.6725633540E+002  +1.2334855197E-003 -1.1540233515E+002  +4.1647887770E-003 +8.1091554618E+001  +1.7670086077E-001 -1.6121009880E+002 
2011322.904 +1.3279559807E-001 +1.6697835778E+002  +9.9443406626E-004 +1.5883012150E+002  +2.8641015781E-003 +2.1531490672E+001  +1.7319224396E-001 -1.6926861201E+002 
2136468.085 +1.3859500978E-001 +1.6516780296E+002  +9.9943202664E-004 -1.6534589639E+002  +3.0178291896E-003 +1.6205563135E+001  +1.8261846630E-001 -1.6038796915E+002 
2261613.267 +1.2964512689E-001 +1.6672744210E+002  +1.6112154036E-003 -6.4146222414E+001  +2.2536979456E-003 +1.8982079839E+001  +1.7854898555E-001 -1.7649629444E+002 
2386758.448 +1.3564141897E-001 +1.6372640546E+002  +2.9364374949E-003 +7.6325645345E+001  +2.2023398494E-003 +1.4588355206E+002  +2.0438418172E-001 +1.6592788922E+002 
2511903.630 +1.3271146935E-001 +1.6754649992E+002  +5.0090699670E-003 +1.4230541680E+002  +4.3082461671E-003 -1.3396923835E+002  +1.0345463486E-001 -1.5660036017E+002 
2637048.811 +1.2823931052E-001 +1.6119601783E+002  +4.6413129017E-003 +1.6060694719E+002  +7.1342978976E-003 +2.2633900484E+001  +2.3480802308E-001 +1.5229532384E+002 
2762193.992 +9.6081941449E-002 +1.6111275936E+002  +6.4075266438E-003 +2.0531262987E+001  +3.9385687208E-003 +2.1196952537E+001  +9.0446896235E-002 -1.3056697135E+002 
2887339.174 +1.2980967853E-001 +1.7937876254E+002  +9.4705681732E-003 -4.1440814153E+001  +2.1294516568E-002 -1.6965606615E+002  +9.9896735946E-001 -1.6294419023E+002 
3012484.355 +1.2115270351E-001 +1.6748423884E+002  +1.2619197639E-002 -1.5927071834E+002  +8.8207242721E-003 +1.3149800394E+002  +1.6576158050E-001 -9.0173212804E+000 
3137629.537 +1.2564244164E-001 +1.7732619889E+002  +7.8908471695E-003 -2.8179930567E+001  +9.2480885661E-003 -5.6231386140E+001  +3.2037659210E-001 -9.6027555225E+001 
3262774.718 +1.1389263590E-001 +1.7407471519E+002  +2.1108054890E-002 -1.2466262277E+002  +1.8212762798E-002 +1.6953395523E+002  +5.8924462466E-001 +9.9465961465E+001 
3387919.900 +1.3039745340E-001 +1.6235739848E+002  +7.3189441580E-003 -6.0712740603E+000  +9.2989066463E-003 -1.5027348890E+002  +3.2462553042E-001 -9.8838475138E+001 
3513065.081 +1.6491304651E-001 +1.4568524926E+002  +2.8996018503E-003 +4.9985566053E+001  +1.4496000835E-002 -9.8432259201E+001  +2.4035914415E-001 +9.3627152883E+001 
3638210.263 +1.8854210367E-001 +1.5054447509E+002  +3.5416681530E-003 -1.1691505955E+002  +2.8770354244E-003 -1.2434344653E+002  +8.0697852285E-001 +1.6551710516E+002 
3763355.444 +1.9787722151E-001 +1.3979557845E+002  +1.3260847973E-002 +1.7234701344E+002  +6.5544522096E-003 +3.8976031198E+001  +6.5129293052E-001 +1.4724664451E+002 
3888500.626 +1.7258723718E-001 +1.5328757680E+002  +1.0059712897E-002 +7.4329860776E+001  +1.9188414189E-002 -1.3836509073E+002  +5.9317306527E-001 +1.2981354633E+002 
4013645.807 +1.8208818643E-001 +1.5226724328E+002  +2.3225128519E-003 -1.6610513614E+002  +7.0344933505E-003 +3.7761112630E+001  +2.9293916639E-001 +1.2219228533E+002 
4138790.989 +2.1082398381E-001 +1.3242291223E+002  +7.5535863053E-003 -9.2793643255E+001  +8.4967755422E-003 +1.2744122371E+002  +2.5272277392E-001 +7.6571023901E+001 
4263936.170 +1.7072405376E-001 +1.4492634421E+002  +9.7672408896E-003 -1.3909730062E+002  +3.4274274486E-003 -9.7060453937E+001  +1.9488686843E-001 +1.2873969309E+002 
4389081.352 +1.9581693903E-001 +1.4541342318E+002  +8.3285132392E-003 +5.6368819081E+001  +1.2973819723E-002 +1.4415385052E+002  +7.9008587452E-001 +1.5504542182E+002 
4514226.533 +2.4036017498E-001 +1.4197408217E+002  +1.7956407362E-002 +1.1319015240E+002  +1.0199989195E-002 +1.6084665749E+002  +1.6242072851E+000 +3.2535891009E+001 
4639371.715 +2.2021099726E-001 +1.2952018244E+002  +4.5145063962E-003 +1.9974755909E+001  +8.6416194352E-003 -1.3452220002E+002  +1.0023697480E+000 +8.4694059976E+001 
4764516.896 +3.0141839832E-001 +1.3787654302E+002  +4.0172700138E-002 -7.4311506276E+001  +1.3345711827E-002 +1.2731734177E+002  +1.6404643170E+000 +9.0389571658E+001 
4889662.078 +3.7653142702E-001 +1.3246772752E+002  +3.0681441269E-002 -1.0084078912E+002  +2.9667024821E-002 -1.2553597164E+001  +2.6264130100E+000 -9.5839169691E+001 
5014807.259 +3.8726109537E-001 +1.1967137719E+002  +2.0901938155E-001 +1.6247387791E+002  +1.6595319912E-001 +2.6675821539E+001  +1.1606261695E+001 +1.3041428869E+002 
5139952.441 +4.9560276189E-001 +1.2718480489E+002  +9.1608356860E-002 +9.6625718975E+001  +9.2169415066E-002 +7.4376757048E+000  +8.1932522840E+000 +1.2932419996E+002 
5265097.622 +4.0741867301E-001 +1.3972924237E+002  +1.5490240787E-002 +3.6445815590E+001  +5.1205728405E-002 +9.6501157085E+001  +7.0054124434E+000 +1.3603898566E+002 
5390242.804 +4.3305579341E-001 +1.3603489510E+002  +8.5808823195E-003 +1.2931224719E+002  +1.0449709677E-002 +1.4922342965E+002  +1.3859738903E+000 +9.3682380601E+001 
5515387.985 +4.3019202333E-001 +1.2289291069E+002  +6.8203860425E-003 +1.5646629498E+002  +3.2886859421E-002 +1.1995796187E+002  +3.4271313955E+000 +4.6575933633E+001 
5640533.166 +4.4428786964E-001 +1.2966154643E+002  +2.7990163914E-002 +3.6789408801E+001  +1.9920038598E-002 +4.7936707799E+000  +2.6779908022E+000 +5.8772120499E+001 
5765678.348 +4.8250741194E-001 +1.2874732689E+002  +1.3925089410E-002 -1.0217259695E+002  +1.2409749099E-002 +6.9533299782E+001  +1.7237099344E+000 +9.2607838578E+001 
5890823.529 +4.7502744224E-001 +1.2532965097E+002  +9.8906064812E-003 -1.6242603855E+002  +1.9064131173E-002 -1.7336231700E+002  +1.4593793887E+000 +7.2328780932E+001 
6015968.711 +5.8974774044E-001 +1.1944933848E+002  +5.0455961442E-003 +1.3352643822E+002  +2.1298701864E-002 +1.7392301417E+002  +1.6139388474E+000 +6.5631529047E+001 
6141113.892 +7.3866912997E-001 +1.2163938643E+002  +1.0744699651E-002 +1.5889260570E+002  +7.5013002080E-003 +1.5343972392E+002  +2.2483872563E+000 +1.1220650508E+001 
6266259.074 +8.1676617100E-001 +1.1217880388E+002  +5.0496270429E-003 +1.5069062154E+002  +3.7002799138E-004 -1.6788065365E+002  +1.4619965711E+000 +3.1334885685E+001 
6391404.255 +1.3351026887E+000 +8.5526990323E+001  +3.7195677859E-002 +9.0514623120E+001  +7.1364123487E-003 -3.6621325629E+001  +1.8182388056E+000 +9.7136987603E+000 
6516549.437 +1.7057352893E+000 +7.4232436293E+001  +3.3740671057E-002 +1.2066921962E+002  +5.1019419156E-002 +1.7935119989E+002  +1.6635421044E+000 +8.2344125808E+000 
6641694.618 +1.2394297961E+000 +6.4363515417E+001  +3.2191430543E-002 +8.7270268732E+001  +4.4346755215E-003 -1.1759065012E+002  +1.4936901166E+000 -3.8871998774E+000 
6766839.800 +2.2209568684E+000 +4.6396364897E+001  +1.3933673851E-002 -1.0678839176E+002  +2.2736416659E-002 +1.6093317131E+002  +1.5139338586E+000 -6.3765436838E+000 
6891984.981 +1.6993095715E+000 +4.1891190424E+001  +2.5760242540E-002 +3.8392039248E+000  +1.3682551103E-002 +1.2645900949E+002  +1.3801024714E+000 -4.5698029547E+000 
7017130.163 +1.6985746348E+000 +1.4495997182E+001  +1.7518521990E-002 +2.9446873916E+001  +1.9845331451E-002 +8.4136946157E+001  +1.3859298320E+000 -1.1088633087E+001 
7142275.344 +1.6689812434E+000 -5.2775499791E+000  +3.8397153918E-003 +4.7022746675E+000  +8.6604744249E-003 +1.7521445757E+001  +1.3404993257E+000 -1.5032151804E+001 
7267420.526 +1.5983571164E+000 +7.6502177464E+000  +4.7126023481E-003 -1.7749568686E+002  +1.0791843998E-002 +4.6285796699E+001  +1.3613256794E+000 -1.7069928916E+001 
7392565.707 +1.2650887152E+000 +3.5017839123E+000  +1.6827477883E-002 +1.2857184052E+002  +9.2307317305E-003 +7.6094745571E+001  +1.2492074262E+000 -7.0621190364E+000 
7517710.889 +1.1920112843E+000 -2.1899859877E+000  +5.3222690001E-003 -1.5338213702E+002  +1.1047983696E-002 +6.1560477573E+001  +1.3567029225E+000 -7.7377506030E+000 
7642856.070 +9.1904233609E-001 -4.2903467842E+000  +7.9377696853E-003 +1.0617928448E+002  +4.2473611236E-003 -1.7267883959E+002  +1.0652413429E+000 -8.2053727794E+000 
7768001.252 +8.4883069827E-001 +5.1347191887E+000  +4.0649819947E-003 +6.7587218333E+001  +1.1945144584E-002 +8.7835961140E+001  +9.1800608099E-001 -6.2836535771E+000 
7893146.433 +8.0458084132E-001 +2.2510390029E+000  +2.7921758460E-003 -1.3387521666E+002  +2.9734364382E-003 +1.5652970956E+002  +9.1594143141E-001 +2.7980288667E-001 
8018291.615 +7.8056125875E-001 +3.2233219680E+000  +9.7892663810E-003 -9.8039362390E-001  +3.7668124172E-003 -1.2870775630E+002  +7.6613365225E-001 -3.6517464104E+000 
8143436.796 +7.1557443552E-001 +6.6450496212E+000  +3.0646903685E-003 +1.0388301926E+002  +7.3416438242E-003 +5.4798521327E+001  +7.7434344494E-001 -5.0304367492E+000 
8268581.977 +7.6283788919E-001 +7.8641664097E+000  +5.5281528278E-003 +1.5581921693E+002  +2.7772325152E-003 +1.0708381146E+002  +7.8182200689E-001 -2.0283716590E+000 
8393727.159 +6.7395035303E-001 +9.9664660331E+000  +5.5012402227E-003 +1.2543769829E+002  +5.2684676624E-003 -1.7704840556E+002  +7.3650318206E-001 +1.4689843319E+000 
8518872.340 +6.3073126402E-001 +1.0833002535E+001  +3.1440122740E-003 +9.4395736095E+001  +3.7654405442E-003 +8.8817019275E+001  +7.5209529990E-001 -3.4587075650E-002 
8644017.522 +6.2979406483E-001 +9.3206151089E+000  +3.7137271780E-003 +6.6574828731E+001  +2.6047718939E-003 +1.5168244800E+002  +6.9841245843E-001 +3.1098607653E+000 
8769162.703 +6.3916804788E-001 +5.6828671152E+000  +2.4118790561E-003 +9.8825890326E+001  +4.3310915005E-003 +3.5112062679E+001  +6.8803514039E-001 +4.3175915176E+000 
8894307.885 +6.2006017438E-001 +2.1920491638E+000  +3.0745907500E-003 +7.1359034809E+001  +3.1601215702E-003 +8.9724693159E+000  +6.9428902360E-001 -2.4624342593E+000 
9019453.066 +5.5472684683E-001 +4.6510632647E+000  +1.8835212462E-003 +1.0970239791E+002  +5.0963637146E-003 +9.0021089959E+001  +6.3292637566E-001 -6.6119892708E+000 
9144598.248 +5.5562711558E-001 +7.0675241503E+000  +3.4980322056E-003 +1.3658994440E+002  +3.7398651354E-003 +1.1831248857E+002  +6.3791952991E-001 -3.4013968919E+000 
9269743.429 +5.7309210361E-001 +1.0394139259E+001  +8.3909195115E-003 +6.3185184484E+001  +4.4807442874E-003 -1.7276666929E+002  +6.0868107591E-001 -4.2479438447E+000 
9394888.611 +5.7383697582E-001 +7.3969473615E+000  +7.1389168381E-003 +7.4656503359E+001  +5.3307136845E-003 +8.1477807456E+001  +6.0749334116E-001 -7.6650699608E+000 
9520033.792 +5.5440071997E-001 +4.4131797604E+000  +2.1547489007E-003 +7.1279627710E+001  +4.9143788609E-003 +1.0615980126E+002  +6.4853671242E-001 -7.6534034562E+000 
9645178.974 +5.4101361871E-001 +5.0843017700E+000  +3.4296552981E-003 +2.7023864667E+000  +5.7492070177E-003 +7.6428441326E+001  +5.7789589550E-001 -3.1788331104E+000 
9770324.155 +5.4459503985E-001 +3.8032248849E+000  +3.1385353570E-003 +3.5295524502E+001  +3.6340491084E-003 +1.3552649625E+002  +5.6415221656E-001 -6.4786730553E+000 
9895469.337 +5.4543877975E-001 +3.3377748041E+000  +2.1451007712E-003 +7.5820969201E+001  +9.3569910120E-003 +1.0129473724E+002  +5.5956765560E-001 -2.2809751014E+000 
10020614.518 +5.3972345682E-001 +2.6455569665E+000  +5.0078539283E-003 +1.1214362348E+002  +3.1591129869E-003 +1.5276832456E+002  +5.8373815998E-001 -8.3864438761E+000 
10145759.700 +5.6687505513E-001 +3.2805763580E+000  +4.1509551492E-003 +1.1864912992E+002  +6.8938270676E-003 +1.1271289634E+002  +5.7679339313E-001 -3.2099166310E+000 
10270904.881 +5.8984112991E-001 +1.7879817188E+000  +1.8151711739E-003 +9.4540104697E+001  +5.8596820940E-003 +1.0700872287E+002  +6.1323687452E-001 +3.0926975301E+000 
10396050.063 +5.8650366476E-001 +5.8352348923E+000  +3.5385052481E-003 +5.6543041705E+001  +5.1799009979E-003 +1.0469783341E+002  +5.6422754474E-001 -1.1221285398E+000 
10521195.244 +5.5111228377E-001 +7.0228226927E+000  +2.7232502267E-003 +9.1277819759E+001  +4.6274257968E-003 +1.0839115227E+002  +6.3028654580E-001 -4.3111033381E+000 
10646340.426 +6.2237871662E-001 +5.1225933449E+000  +3.4808902233E-003 +1.0573738456E+002  +2.9315738866E-003 +1.0535780142E+002  +5.9609162276E-001 +1.4125087756E+000 
10771485.607 +5.5873577639E-001 +9.9631225070E+000  +3.6002988826E-003 +8.0793284154E+001  +5.2768616497E-003 +6.8357310355E+001  +5.5671547834E-001 +5.9865413289E-001 
10896630.788 +5.8475182097E-001 +6.2107300748E+000  +5.5074987935E-003 +6.5745447219E+001  +3.9471539139E-003 +1.3576765204E+002  +6.1136941636E-001 +2.2594491587E-001 
11021775.970 +6.1018475814E-001 +5.7074538671E+000  +4.7264112984E-003 +7.4351519709E+001  +2.6683924872E-003 +1.0190725384E+002  +6.1832084562E-001 +1.9184164651E+000 
11146921.151 +5.7684868953E-001 +8.8914880120E+000  +5.2384524853E-003 +6.2653645031E+001  +3.7738996696E-003 +6.1735012246E+001  +6.2404358720E-001 +5.9474835903E-001 
11272066.333 +6.1775085534E-001 +5.2605755722E+000  +4.7914676601E-003 +8.6514599176E+001  +3.9376919494E-003 +8.7539343561E+001  +6.2847697157E-001 +3.2526270866E-001 
11397211.514 +6.1945617601E-001 +5.8812938789E+000  +5.1640445509E-003 +1.0075366634E+002  +4.8826981778E-003 +1.1998598579E+002  +6.2909653310E-001 -9.7636743072E-001 
11522356.696 +6.3748415085E-001 +7.0424596647E+000  +3.9786015046E-003 +7.7017973952E+001  +3.7808959916E-003 +1.1938366824E+002  +6.3634819571E-001 +3.4818338716E-001 
11647501.877 +6.1672690458E-001 +4.8973682437E+000  +4.9379452932E-003 +9.0395607794E+001  +4.3277223591E-003 +8.5625456712E+001  +6.5382141652E-001 +1.3807728215E+000 
11772647.059 +6.6110619707E-001 +5.3490906977E+000  +6.7696648209E-003 +8.5518397870E+001  +4.2700188015E-003 +8.7831369727E+001  +6.6115759160E-001 +8.2386949928E-001 
11897792.240 +6.5764619635E-001 +5.7973648545E+000  +6.6001818332E-003 +8.5808478493E+001  +5.5906228918E-003 +8.3280409797E+001  +6.7636040016E-001 +1.8817722373E+000 
12022937.422 +6.8352100297E-001 +4.4124674372E+000  +4.7128997608E-003 +8.6083301914E+001  +5.8909715525E-003 +7.4596257341E+001  +6.6113490536E-001 +3.4502671770E-001 
12148082.603 +6.9460805430E-001 +4.0092790951E+000  +6.6753438648E-003 +8.8613381292E+001  +6.7671231218E-003 +1.1222626365E+002  +7.0041358761E-001 +3.9838011246E-001 
12273227.785 +6.8804530776E-001 +4.8372913038E+000  +5.8627743121E-003 +9.7798434489E+001  +6.2250033495E-003 +9.9423046926E+001  +7.0068947718E-001 -1.2213286378E-001 
12398372.966 +7.0732724312E-001 +3.4279725581E+000  +7.3984172558E-003 +9.4575607126E+001  +6.6679969610E-003 +1.0084769046E+002  +7.4494627132E-001 -1.0130428911E+000 
12523518.148 +7.1490621203E-001 +2.4858521797E+000  +2.9406268580E-003 +8.3797334625E+001  +4.3075016311E-003 +8.7140313616E+001  +7.3272717723E-001 -1.3040994757E+000 
12648663.329 +7.5246358373E-001 +4.2320022534E+000  +6.9934230393E-003 +1.0054811322E+002  +5.3737588920E-003 +9.8049268771E+001  +7.4132275158E-001 +3.3289772965E-001 
12773808.511 +7.4870817728E-001 +4.1023518037E+000  +6.8021271940E-003 +9.1142089886E+001  +7.5518460413E-003 +9.9044629130E+001  +7.6734482813E-001 -9.8850161040E-001 
12898953.692 +7.9109171022E-001 +5.8148006817E-001  +6.7333741394E-003 +8.9106585697E+001  +4.2198839170E-003 +9.0632236203E+001  +7.9379449189E-001 -1.1138889653E+000 
13024098.874 +7.9650610905E-001 +1.5262744527E+000  +8.4099077932E-003 +9.4880909640E+001  +6.0988756685E-003 +1.0344852191E+002  +7.9034391605E-001 -3.6132891205E+000 
13149244.055 +7.8194337825E-001 -2.5232944982E+000  +5.7419426061E-003 +1.0495650087E+002  +7.3445207859E-003 +8.3346079234E+001  +8.0914956803E-001 -2.2214412101E+000 
13274389.237 +8.1635475634E-001 -1.0468632459E+000  +6.4607129527E-003 +1.1118458034E+002  +6.5852458350E-003 +9.5875889620E+001  +8.3008903569E-001 -1.3280728074E+000 
13399534.418 +8.2788817704E-001 -8.5949519807E-001  +6.7468203444E-003 +8.9155344048E+001  +7.3305375634E-003 +8.7215651920E+001  +8.3413538788E-001 -2.8053672598E+000 
13524679.599 +8.6553766394E-001 -2.1310758255E+000  +7.7696765396E-003 +9.1192263138E+001  +8.4934109923E-003 +9.5975775635E+001  +8.5621568319E-001 -2.8994586251E+000 
13649824.781 +8.7763668132E-001 -1.9088973013E+000  +8.3898008240E-003 +9.4812982350E+001  +5.6459988298E-003 +1.0211290600E+002  +8.8904986306E-001 -2.3556432891E+000 
13774969.962 +8.9336651014E-001 -3.0415003284E+000  +7.9442962419E-003 +9.0206007241E+001  +7.5086246734E-003 +9.2853897252E+001  +9.2225607025E-001 -4.1337237981E+000 
13900115.144 +9.0916067337E-001 -4.6150399504E+000  +7.0576553261E-003 +9.4922739449E+001  +5.5197632679E-003 +8.5447041894E+001  +9.3506282422E-001 -4.9379038301E+000 
14025260.325 +9.2113873584E-001 -2.8181117469E+000  +7.7524836622E-003 +8.7789296172E+001  +8.4607045944E-003 +8.2957430790E+001  +9.1951132077E-001 -4.1746138568E+000 
14150405.507 +9.6169945666E-001 -4.0416969523E+000  +8.8677246383E-003 +8.4449935052E+001  +5.7477353399E-003 +8.7830721730E+001  +9.4349567704E-001 -5.0039341616E+000 
14275550.688 +9.7047476237E-001 -3.4733688893E+000  +9.5553723271E-003 +8.5393862917E+001  +5.8949334728E-003 +9.7906482538E+001  +9.8098240643E-001 -5.5109456436E+000 
14400695.870 +9.6479732591E-001 -6.3960882229E+000  +6.7830935006E-003 +9.3969883917E+001  +6.6915795702E-003 +9.4354004047E+001  +9.9305282810E-001 -5.2778553989E+000 
