!  2-Port S-parameters saved by WinCal
! VAR MeasName=S-Parameters (CALIBRATED_DATA) read from VNA (P5004A)
! VAR MeasDate=27/08/2024 17:06:16
! VAR NAME=S2_r3c9_RESET1_9k-100M_1
! VAR FILENAME=S2_r3c9_RESET1_9k-100M_1.S2P
! VAR DATE=27/08/2024 17:06:16
! VAR PHYS_PORTS=1,2
! VAR ObjTypeName=DATASET
! VAR IndexType=Frequency
!
# Hz S MA R 50
9000.000 +7.3665800197E-002 -1.4695718956E+002  +8.2981796111E-003 +1.4448294784E+002  +1.6382591435E-002 +8.6284088067E+001  +1.6865023163E-001 -1.1530923702E+002 
134145.181 +1.1059087175E-001 +1.6953590311E+002  +6.1516812851E-004 -5.1220336689E+001  +2.9295319990E-004 -1.5366955718E+001  +2.3899686604E-001 -1.7044256443E+002 
259290.363 +1.1231191037E-001 +1.7019905189E+002  +1.2706120588E-003 +8.2565411512E+001  +9.6523208211E-004 -9.9504236897E+000  +2.4843378408E-001 -1.7052240814E+002 
384435.544 +1.1285229364E-001 +1.6944428334E+002  +4.7770569666E-004 +2.4164347833E+001  +9.2720774771E-004 +1.1142219548E+002  +2.4599577017E-001 -1.6705186494E+002 
509580.726 +1.1443200529E-001 +1.7147750265E+002  +8.6675765562E-004 -6.4598852286E+001  +5.6026616517E-004 -1.6276214884E+001  +2.3186679877E-001 -1.6531525390E+002 
634725.907 +1.1622175841E-001 +1.7031672424E+002  +1.0444974798E-003 +1.7593207261E+002  +8.1101795581E-004 +6.7881170621E+001  +2.5212009595E-001 -1.6502837288E+002 
759871.089 +1.1695527964E-001 +1.7099806400E+002  +4.6449461825E-004 +1.2229112253E+002  +1.3116856300E-003 +6.3357891695E+001  +2.6103105336E-001 -1.6231382837E+002 
885016.270 +1.1693251801E-001 +1.6925710470E+002  +6.7057968251E-004 +1.4955166140E+002  +6.8031072051E-004 +1.1742016632E+002  +2.4773865223E-001 -1.6547736969E+002 
1010161.452 +1.1849727058E-001 +1.6989929595E+002  +2.0172965729E-003 -4.4643337582E+001  +4.0876498179E-004 +1.4418705683E+002  +1.9792280141E-001 -1.6990030017E+002 
1135306.633 +1.1679563629E-001 +1.7084940869E+002  +3.2541370495E-003 +1.6966870611E+001  +3.6841660999E-003 +3.5247257346E+001  +1.2988137600E-001 -1.4632895986E+002 
1260451.815 +1.2315594891E-001 +1.7239638237E+002  +9.4521614197E-004 -1.8083890391E+000  +1.0141172529E-003 -1.0019796115E+001  +2.0990106228E-001 -1.5762802993E+002 
1385596.996 +1.2651840936E-001 +1.7264036566E+002  +3.3684723155E-004 -1.6938911254E+002  +7.7649860810E-004 +8.6237462601E+001  +2.6836283286E-001 -1.5900733500E+002 
1510742.178 +1.2951713503E-001 +1.7188695996E+002  +1.3314398881E-003 +1.6917972230E+002  +3.4596953051E-004 +6.0752873471E+001  +2.4754340690E-001 -1.5877380964E+002 
1635887.359 +1.2603867083E-001 +1.7194959636E+002  +6.6653084675E-004 -8.9479911862E+001  +1.1167891071E-003 +1.6273582311E+002  +2.5992767258E-001 -1.5836756770E+002 
1761032.541 +1.3016914822E-001 +1.6935998510E+002  +3.0999254486E-003 -1.4618457124E+001  +4.7561913567E-004 -1.1309681869E+002  +1.9433262022E-001 -1.4850009483E+002 
1886177.722 +1.3014187888E-001 +1.6744774018E+002  +2.4512884101E-003 -2.3937687420E+001  +5.6117146056E-004 -1.5346549757E+002  +2.1482904774E-001 -1.6519535897E+002 
2011322.904 +1.1501822087E-001 +1.6630874287E+002  +3.5694785319E-003 +4.0766671693E+001  +5.3401324594E-003 -1.5882669708E+002  +1.5548837949E-001 -1.6238706437E+002 
2136468.085 +1.3195604253E-001 +1.6555459761E+002  +1.4783183074E-003 +8.2270110430E+001  +4.7068600259E-004 -1.4328939488E+002  +1.6445561320E-001 -1.6595472229E+002 
2261613.267 +1.3278936491E-001 +1.6353124777E+002  +5.7193858056E-003 +1.0522615069E+002  +2.0168010191E-003 +1.6457766262E+002  +1.2730378057E-001 -1.6805621107E+002 
2386758.448 +1.3570915057E-001 +1.6368171491E+002  +4.2518679410E-003 +1.5630315432E+002  +3.2602024836E-003 -6.8442668816E+001  +1.7521505900E-001 -1.6975292030E+002 
2511903.630 +1.3523926227E-001 +1.5814605157E+002  +2.5422353974E-003 -3.8056217405E+001  +5.2281216586E-003 +9.3828628391E+001  +2.0545565209E-001 +1.6417639085E+002 
2637048.811 +1.2320006662E-001 +1.5990209795E+002  +1.9913571027E-003 -1.6405144349E+002  +8.4272994537E-003 -2.5504457214E+001  +9.3892826595E-002 +9.8231087707E+001 
2762193.992 +1.1404243088E-001 +1.6354426785E+002  +6.4067164241E-003 +1.8704661615E+001  +3.1595232565E-002 -4.2119024484E+001  +8.1552596562E-001 -4.4287291440E+001 
2887339.174 +1.1285240246E-001 +1.7774101596E+002  +1.9656995258E-002 +2.4021133872E+001  +5.3442030322E-003 +9.3531706661E+001  +4.4539730256E-001 +1.1697551880E+002 
3012484.355 +1.0551740823E-001 +1.7319712485E+002  +3.4082160481E-003 -1.7218044957E+002  +7.6839796477E-003 -5.5900623741E+001  +2.8521846913E-001 -1.1447700868E+002 
3137629.537 +8.5367305594E-002 +1.7343073345E+002  +2.0065922609E-002 -1.0708173468E+002  +1.2605441363E-002 -1.2110919464E+002  +1.7949186162E-001 +8.4777202439E+000 
3262774.718 +1.1883302827E-001 +1.5874788259E+002  +7.9277537693E-003 -1.2458224255E+002  +1.4942700664E-002 -8.7272909364E+001  +6.2350022062E-001 -9.3523941177E+001 
3387919.900 +1.2260599634E-001 +1.4812593821E+002  +1.1611068818E-002 -1.1720187044E+002  +2.9754670728E-002 -6.7403134488E+001  +4.1158289400E-001 +5.2568181632E+000 
3513065.081 +1.0985583630E-001 +1.3518975883E+002  +1.7792032866E-002 +1.5456600672E+001  +7.3273049185E-003 +8.7946157680E+001  +3.0103134252E-001 +1.1884646771E+002 
3638210.263 +1.5440408915E-001 +1.4938047270E+002  +9.9200544182E-003 +1.2860479568E+002  +2.0646376253E-002 -1.6167440779E+002  +6.4487369599E-001 +1.4991838384E+002 
3763355.444 +1.9185454218E-001 +1.4443467200E+002  +3.0460222166E-002 +1.3658230242E+002  +2.6372580606E-002 +2.2943715947E+001  +1.3117789799E+000 +1.1683629660E+002 
3888500.626 +1.7386394407E-001 +1.4072959536E+002  +8.7564361140E-003 +7.5636070018E+001  +5.0820400162E-003 +6.1023087539E+001  +6.2322023011E-001 +1.0856161773E+002 
4013645.807 +1.6065063337E-001 +1.4783044608E+002  +8.0642930512E-003 +5.5608696029E+000  +1.1982027331E-002 +1.7172992165E+002  +4.5089886776E-001 +1.4012443979E+002 
4138790.989 +1.8130885806E-001 +1.5236712381E+002  +7.2889263196E-003 +1.5421705490E+002  +5.0090500065E-003 -6.3523904446E+001  +5.0114948881E-001 +1.2233341926E+002 
4263936.170 +2.0619355833E-001 +1.4361044064E+002  +4.5360310338E-003 +9.9322332649E+001  +5.0274035139E-003 +5.4883026687E+000  +2.5605043862E-001 +1.5094945005E+002 
4389081.352 +2.0464263501E-001 +1.4004549551E+002  +1.6752314384E-002 +1.4857181480E+002  +1.0067928786E-002 +2.2317196623E+001  +6.6281235838E-001 +1.0832490995E+002 
4514226.533 +2.5967027251E-001 +1.3613636098E+002  +1.3528980376E-002 +7.1053128747E+001  +7.3711704794E-003 -7.8847618848E+000  +7.4895567160E-001 +1.2344905422E+002 
4639371.715 +3.8280753075E-001 +1.2783496775E+002  +6.2132327221E-002 +5.8598492131E+001  +8.2465708135E-002 +7.7788101520E+001  +2.3711916451E+000 +5.1225048406E+000 
4764516.896 +3.4334141397E-001 +1.2950037793E+002  +3.2202124018E-002 -1.2222059328E+002  +1.7141357961E-002 -1.5688599083E+002  +2.0327073244E+000 +1.5239697875E+002 
4889662.078 +5.1642339794E-001 +1.3712074697E+002  +2.6447693033E-002 +7.2466748593E+001  +3.7040319021E-002 -4.4394027398E+001  +2.8769203700E+000 -1.2934527402E+002 
5014807.259 +4.0807161310E-001 +1.2862908599E+002  +2.7358933019E-002 +8.3736201029E+001  +9.1134629082E-002 -1.2356999915E+002  +6.9829706793E+000 +1.7013061613E+002 
5139952.441 +4.2073360839E-001 +1.2813095101E+002  +1.6200584213E-002 -1.2913407673E+002  +1.0219071011E-002 +1.6092847389E+002  +1.3713123741E+000 +1.2848296418E+002 
5265097.622 +3.8174728008E-001 +1.3225179480E+002  +2.6102784361E-002 -1.6292367234E+002  +2.3283944486E-002 +5.7863177552E+001  +2.5937251678E+000 +1.0383192117E+002 
5390242.804 +4.5953140986E-001 +1.3095988967E+002  +2.4264820995E-002 +6.9389611407E+001  +2.2972434493E-002 +1.1234745420E+002  +1.8262493721E+000 +1.1112830257E+002 
5515387.985 +4.1861826164E-001 +1.3103916446E+002  +1.5315004248E-002 +1.3407680813E+002  +1.2572966666E-002 -6.5777054991E+001  +2.4542117284E+000 +1.1511058249E+002 
5640533.166 +5.1187223132E-001 +1.2605321046E+002  +1.9650574304E-002 +1.5123471541E+002  +1.5525332072E-002 +5.2528941673E+001  +1.6160699555E+000 +1.0446326371E+002 
5765678.348 +5.1010635026E-001 +1.2766209446E+002  +1.2335636452E-002 +1.0690344049E+002  +3.5128561332E-002 +7.7025645427E+001  +2.6281121376E+000 +1.0175707762E+002 
5890823.529 +6.7383316606E-001 +1.2592132478E+002  +1.3036832664E-002 +1.2867354536E+002  +3.4688614895E-002 +1.4146094903E+002  +2.3260909684E+000 +6.4061293606E+001 
6015968.711 +6.3848143262E-001 +1.2037130559E+002  +5.1966097583E-002 +7.8320052663E+001  +2.8641522044E-002 +6.7804321119E+001  +3.4262947194E+000 +7.0013386223E+001 
6141113.892 +8.4785978461E-001 +1.1572300096E+002  +6.5832992198E-002 +3.8619763892E+001  +3.0693946804E-002 +1.5890015950E+002  +4.9489312737E+000 +3.5630347723E+001 
6266259.074 +9.1612065519E-001 +1.1542437540E+002  +3.1304226805E-002 +7.0274363117E+001  +2.8195573613E-002 -2.0333023957E+001  +2.3025187557E+000 -2.8031488880E+000 
6391404.255 +9.7309309532E-001 +1.0238278659E+002  +3.5465977212E-002 +5.1797376096E+001  +8.5404234058E-003 +8.1269308014E+001  +1.5012496686E+000 +1.2774201705E+001 
6516549.437 +1.4593427202E+000 +8.5845669327E+001  +2.6219275866E-002 +1.5670955227E+002  +5.1913015010E-002 +6.6098800009E+000  +1.3499450906E+000 +1.3376922680E+001 
6641694.618 +1.9167201749E+000 +7.0365034528E+001  +3.0417293522E-002 +2.5331965394E+001  +5.5499157539E-002 -3.2732053125E+001  +1.3072299423E+000 +2.1343432601E+000 
6766839.800 +1.9226005336E+000 +4.6305078800E+001  +4.2878460897E-002 +4.6386875377E+001  +2.4868383610E-002 +8.3903916644E+001  +1.5054402944E+000 -2.4236236756E+000 
6891984.981 +1.6743533921E+000 +4.2259660682E+001  +9.2965894282E-003 -5.5103719124E+001  +2.4940330639E-002 +4.8975073780E+001  +1.1255919283E+000 -6.6375950758E+000 
7017130.163 +1.9513511321E+000 +2.3102392702E+001  +2.1094269037E-002 +9.4597371611E+000  +3.1236443675E-002 +6.5279846657E+001  +1.3263409674E+000 -7.4314210147E+000 
7142275.344 +1.4124251099E+000 +9.7570708809E+000  +2.0164761970E-002 +1.4878925540E+001  +1.5427370303E-002 +1.0423711899E+001  +1.3490565335E+000 -1.6897987229E+001 
7267420.526 +1.3741133577E+000 -4.9809711378E+000  +2.7090278204E-002 +3.8299832792E+001  +1.2449849557E-003 +6.0449890991E+001  +1.3048880236E+000 -9.4703538281E+000 
7392565.707 +1.2816803538E+000 +2.7260685888E+000  +1.8342537483E-002 +2.4231520129E+001  +9.4566125380E-003 +7.3296393609E+001  +1.3482096441E+000 -3.2983108352E+000 
7517710.889 +1.0621355741E+000 +3.7279428119E+000  +5.4863042448E-003 +2.9073437466E+001  +1.5144778601E-002 +3.7513897503E+001  +1.2311525831E+000 -5.9150346276E+000 
7642856.070 +1.0532753333E+000 +3.4158029856E+000  +1.6589905908E-002 +1.6499415712E+001  +4.4001147499E-003 +5.8232483121E+001  +1.1072489700E+000 -5.2206195710E-001 
7768001.252 +8.9573084788E-001 +7.8982899808E+000  +7.6888313850E-003 +2.5414354562E+001  +1.0130190221E-002 -3.8568051524E+000  +9.8176479780E-001 -3.5927778949E+000 
7893146.433 +9.1935263474E-001 -1.6727429307E-001  +1.0318168571E-002 +4.7005853579E+001  +1.1227650284E-002 +5.9130551080E+001  +9.1461545767E-001 -7.4880915414E+000 
8018291.615 +7.9118382438E-001 +3.8552790982E+000  +9.3645184884E-003 -4.3531292754E+001  +1.2712894449E-002 +1.6892144544E+001  +8.1045105825E-001 -9.5207149593E+000 
8143436.796 +8.6106230517E-001 -4.0389846242E+000  +4.7960488823E-003 +1.0089103697E+002  +6.7573745589E-003 +9.5735643277E+000  +9.0648409805E-001 +8.4777885759E+000 
8268581.977 +7.7484653537E-001 +4.6095447872E+000  +5.1783520820E-003 +3.5580861570E+001  +7.7811137501E-003 +3.3992647773E+001  +7.4150025900E-001 -3.0991256108E+000 
8393727.159 +7.1932410566E-001 +4.5560174831E+000  +9.5892607157E-003 +3.2613090802E+001  +5.4435859995E-003 +4.1203379957E+001  +8.0328546703E-001 -1.4766909017E+000 
8518872.340 +6.4689641865E-001 +6.5552390955E+000  +1.2858152272E-002 +3.7678379547E+001  +4.8835789460E-003 +3.5538873676E+001  +7.1801166351E-001 -1.5054093597E+000 
8644017.522 +6.7484182901E-001 +1.0396715743E+001  +1.0107093559E-002 +2.3308352023E+001  +6.4353549289E-003 +5.4978015168E+001  +6.8732265263E-001 +3.8546035171E+000 
8769162.703 +6.6916252416E-001 +6.0756544844E+000  +7.9237939723E-003 +6.9758452809E+001  +6.7947669930E-003 +5.9316260726E+001  +6.9034668141E-001 -2.5526139418E+000 
8894307.885 +6.3773113448E-001 +6.1722747844E+000  +8.1587342741E-003 +1.2587822880E+001  +3.5670943035E-003 +7.5570974942E+001  +6.3044104916E-001 -8.0193049320E+000 
9019453.066 +5.9069824053E-001 +8.2911720709E+000  +6.4910965466E-003 +2.8224480161E-002  +6.8994774281E-003 +6.6186131971E+001  +5.9310201821E-001 +2.6262969972E+000 
9144598.248 +5.8924024693E-001 +4.3003602654E+000  +4.5885955345E-003 +6.1581034156E+001  +5.6878444850E-003 +2.2727715062E+001  +5.9138640487E-001 +1.0731974528E+000 
9269743.429 +5.9821796509E-001 +3.3610003357E+000  +8.3105482725E-003 +1.8257856940E+001  +8.1089570127E-003 +2.9931905593E+001  +6.2148785698E-001 -1.0470538698E+000 
9394888.611 +5.4054312454E-001 +6.0870642104E+000  +6.2915287585E-003 +3.1315007314E+001  +6.4791794925E-003 +6.1910674483E+001  +6.0174820937E-001 -6.0384589790E+000 
9520033.792 +5.3633670769E-001 +1.5587661621E+000  +9.2926396628E-003 +3.8236057604E+001  +7.7563336956E-003 +5.5731298106E+001  +6.1411208466E-001 -6.6790270941E+000 
9645178.974 +6.2452771938E-001 +2.3897407374E+000  +6.9069306441E-003 +5.0804794018E+000  +8.1161750083E-003 +2.4249012423E+001  +5.7170440282E-001 -7.0533651331E+000 
9770324.155 +5.1749398748E-001 +3.9699191182E-001  +6.5937480623E-003 +1.9355486111E+001  +5.1056612710E-003 +4.1898388207E+001  +6.5272766431E-001 -7.6293290528E+000 
9895469.337 +5.2132912488E-001 -4.0802784216E+000  +9.1518000999E-003 +3.2448177226E+001  +9.9936200716E-003 +3.9117743015E+001  +5.8788637490E-001 -8.7286716042E+000 
10020614.518 +5.6620727375E-001 -1.9465688414E+000  +5.6766455398E-003 +3.4865008673E+001  +8.9327819334E-003 +7.1241995323E+001  +6.1748235590E-001 -6.8263913876E+000 
10145759.700 +5.5441048907E-001 +4.1602169754E+000  +5.5939423091E-003 +2.0475076130E+001  +5.9262732804E-003 +2.3621547705E+001  +6.0106645646E-001 -4.7217530038E+000 
10270904.881 +5.3103997453E-001 +4.1353176642E+000  +8.2319847101E-003 +3.1952046663E+001  +7.4639931614E-003 +3.1462171013E+001  +5.4068298726E-001 -2.6818575167E+000 
10396050.063 +5.3744387670E-001 +2.7513406217E+000  +6.1082063211E-003 +1.9309313843E+001  +7.8868472554E-003 +6.4587451901E+001  +5.6067766591E-001 +3.0208377128E-002 
10521195.244 +5.4954185951E-001 +2.5061596428E+000  +8.1835599732E-003 +4.1156675661E+001  +7.9697200012E-003 +5.7593051841E+001  +6.3252504366E-001 -2.7849281492E+000 
10646340.426 +5.2110506736E-001 +5.4855984778E+000  +7.5012379757E-003 +3.2028314719E+001  +7.5891934316E-003 +2.3661658859E+001  +5.9096525320E-001 -3.3566403311E-002 
10771485.607 +5.6043206389E-001 +5.5300915102E+000  +6.1848362931E-003 +2.5656057930E+001  +6.6185355581E-003 +4.9238451319E+001  +6.0932296790E-001 +3.6997348733E+000 
10896630.788 +5.6930870397E-001 +8.4452416560E+000  +6.4907235338E-003 +1.9552627753E+001  +7.8676393767E-003 +5.6405732964E+001  +5.8791888204E-001 +3.0454173725E+000 
11021775.970 +5.7361626054E-001 +6.9587660468E+000  +7.5761456761E-003 +3.0783517170E+001  +7.5254266958E-003 +5.6003113071E+001  +6.1734517124E-001 +3.4511598691E+000 
11146921.151 +5.7787357301E-001 +7.4703193702E+000  +9.4908604964E-003 +3.2907354446E+001  +6.5151722047E-003 +3.9293301828E+001  +6.3284444047E-001 +7.7564038766E-001 
11272066.333 +5.8818041917E-001 +5.1264533361E+000  +8.6504026323E-003 +3.0621241105E+001  +7.9954826695E-003 +5.3572786898E+001  +5.9739617936E-001 +4.6402109609E+000 
11397211.514 +6.1678676420E-001 +6.4052341145E+000  +8.2846381748E-003 +4.3521606250E+001  +8.2891509680E-003 +4.9580593770E+001  +6.0468608869E-001 +3.0743825917E+000 
11522356.696 +6.3909627226E-001 +6.8829241457E+000  +8.2131334941E-003 +2.1972120978E+001  +8.6529751931E-003 +7.3700574178E+001  +6.3295775109E-001 -1.8186165992E+000 
11647501.877 +6.0851021793E-001 +6.4333135279E+000  +6.9417731367E-003 +4.4249932212E+001  +8.8894944172E-003 +4.8116981308E+001  +6.7597828967E-001 +1.6255041589E+000 
11772647.059 +6.3660615055E-001 +5.8637459549E+000  +8.2310780949E-003 +5.1263541572E+001  +7.7916871102E-003 +5.6756836775E+001  +6.6510605003E-001 +1.4018691447E+000 
11897792.240 +6.3466437661E-001 +5.8804133172E+000  +8.2254437358E-003 +4.2557358622E+001  +8.7370931652E-003 +6.1720996366E+001  +6.6591285361E-001 +2.5509033689E+000 
12022937.422 +6.4793193394E-001 +4.1018466469E+000  +7.9713848521E-003 +3.8629650588E+001  +9.6820117756E-003 +5.6061097225E+001  +7.0237555773E-001 -5.7356754395E-001 
12148082.603 +6.7301178666E-001 +4.0512592908E+000  +9.0552501831E-003 +4.1003174083E+001  +8.3267972766E-003 +3.3242212393E+001  +6.7737933400E-001 -3.4110847906E-001 
12273227.785 +7.0188516436E-001 +5.9529707024E+000  +8.3537039416E-003 +4.3937261043E+001  +6.7503868577E-003 +5.0597952754E+001  +7.3556560224E-001 -1.0567748034E-001 
12398372.966 +6.9935594688E-001 +5.8530032338E+000  +8.6637531145E-003 +5.0298669251E+001  +9.2304596673E-003 +5.8514806570E+001  +7.2490599017E-001 -7.6582634870E-001 
12523518.148 +6.9863890269E-001 +1.7067098441E+000  +9.2735355514E-003 +4.9346202518E+001  +1.0588329462E-002 +5.8202808236E+001  +7.2509942412E-001 -8.0465841487E-001 
12648663.329 +7.3594022689E-001 +2.3990809632E+000  +1.0157875341E-002 +4.3180350221E+001  +9.1408267023E-003 +4.3567151495E+001  +7.3946425171E-001 -1.3736883131E+000 
12773808.511 +7.1927934832E-001 +3.2854392791E+000  +9.6408706434E-003 +4.6493006742E+001  +9.4776275415E-003 +5.6662582173E+001  +7.9132558893E-001 +6.1882200509E-001 
12898953.692 +7.5902786544E-001 +2.7680746033E+000  +8.0529139191E-003 +4.0103523167E+001  +8.6143377339E-003 +5.2973814387E+001  +7.6267129557E-001 -1.3441750207E+000 
13024098.874 +7.8261039733E-001 -2.6522909060E-001  +1.0282586123E-002 +3.0205799534E+001  +9.4903459315E-003 +4.5575188238E+001  +8.1568648771E-001 -1.1843153155E+000 
13149244.055 +8.0979406613E-001 -6.0681922631E-001  +1.0127188221E-002 +6.0275001581E+001  +8.0016958673E-003 +4.7307227868E+001  +8.0380410354E-001 -1.2681484939E+000 
13274389.237 +8.2357151027E-001 -1.0949707459E+000  +1.1432950028E-002 +4.5450009630E+001  +9.7928302739E-003 +5.8203729030E+001  +8.1724047005E-001 -4.1152505477E+000 
13399534.418 +8.2491516401E-001 -3.0716958948E-001  +1.1790074696E-002 +4.9618275557E+001  +9.8485966877E-003 +4.1542571300E+001  +8.4400790788E-001 -1.8627764269E+000 
13524679.599 +8.0443713539E-001 -2.6243277105E+000  +9.9077927391E-003 +4.6512922918E+001  +9.8137803639E-003 +4.0964149175E+001  +8.4528688935E-001 -1.9013312556E+000 
13649824.781 +8.7360835548E-001 -1.0271358163E+000  +1.0108037138E-002 +4.6658884110E+001  +1.1263801735E-002 +4.8719353547E+001  +8.7959033679E-001 -2.1367759658E+000 
13774969.962 +8.6447609091E-001 -2.7489849887E+000  +1.0845663146E-002 +4.7112534704E+001  +1.1514207086E-002 +4.0990315657E+001  +8.7894276921E-001 -2.6477410454E+000 
13900115.144 +8.6314491662E-001 -2.7511539350E+000  +9.3968895940E-003 +4.9055349303E+001  +1.0184715597E-002 +3.9360123684E+001  +9.1097659335E-001 -4.4099751746E+000 
14025260.325 +9.0106116384E-001 -2.3214519782E+000  +1.0163988231E-002 +4.7700628673E+001  +9.4268762647E-003 +4.6656053651E+001  +9.4099736567E-001 -3.5909950718E+000 
14150405.507 +9.2267043423E-001 -4.7759297227E+000  +1.0629543315E-002 +4.7843915686E+001  +1.0087769575E-002 +3.5403791412E+001  +9.4144405476E-001 -5.1948790060E+000 
14275550.688 +9.4628753392E-001 -4.5641125351E+000  +1.0022013446E-002 +4.6836845110E+001  +1.0629650656E-002 +4.4350782227E+001  +9.7453282298E-001 -3.8892556099E+000 
14400695.870 +9.6543835545E-001 -5.6442053692E+000  +1.2071715845E-002 +4.6274724948E+001  +1.0365482228E-002 +5.7072841209E+001  +9.8950407355E-001 -4.5595568587E+000 
