!  2-Port S-parameters saved by WinCal
! VAR MeasName=S-Parameters (CALIBRATED_DATA) read from VNA (P5004A)
! VAR MeasDate=28/08/2024 11:13:26
! VAR NAME=S2_r6c9_RESET1_9k-100M_3
! VAR FILENAME=S2_r6c9_RESET1_9k-100M_3.S2P
! VAR DATE=28/08/2024 11:13:26
! VAR PHYS_PORTS=1,2
! VAR ObjTypeName=DATASET
! VAR IndexType=Frequency
!
# Hz S MA R 50
9000.000 +9.6787864652E-002 -1.7406746032E+002  +4.2719348362E-003 -1.6435179130E+002  +8.1547323818E-003 -3.4900575592E+000  +1.4574860813E-001 -1.2973388819E+002 
134145.181 +1.1149095169E-001 +1.6963163642E+002  +9.9436647321E-004 -1.2256249081E+002  +3.3286623129E-005 +1.3830287909E+002  +2.3937433988E-001 -1.7012411102E+002 
259290.363 +1.1249995326E-001 +1.6950452351E+002  +1.1096688620E-004 +5.3908524099E+001  +3.8222473910E-004 -1.1494327575E+002  +2.4316530830E-001 -1.7012432253E+002 
384435.544 +1.1426709253E-001 +1.7014743417E+002  +3.4331116309E-004 -4.8998194298E+001  +4.3177108954E-004 -1.3406689552E+002  +2.4197071999E-001 -1.6978609347E+002 
509580.726 +1.1427362419E-001 +1.7039720528E+002  +7.6082462998E-004 +1.0688629828E+002  +1.1313564932E-003 -1.0093225438E+002  +2.3883236981E-001 -1.6397855739E+002 
634725.907 +1.1809694666E-001 +1.7168590800E+002  +3.3686280049E-004 +3.1286217790E+001  +9.5924505326E-004 -8.9684699087E+001  +2.3965170850E-001 -1.6455648473E+002 
759871.089 +1.1943219655E-001 +1.7085622905E+002  +2.2018756305E-004 +3.3494398389E+001  +5.0342063989E-004 +5.2494071333E+000  +2.4341277782E-001 -1.6654732947E+002 
885016.270 +1.2043073318E-001 +1.6860943950E+002  +2.1980771295E-004 -1.7606889962E+002  +3.9989483353E-004 +3.1023473822E+001  +2.4009092253E-001 -1.6720947712E+002 
1010161.452 +1.1893993063E-001 +1.7119467757E+002  +1.4383275871E-003 -1.8640888693E+001  +1.2047619347E-004 -1.3194334496E+001  +2.0531944487E-001 -1.6794554420E+002 
1135306.633 +1.1719076857E-001 +1.6960030125E+002  +3.3098983352E-003 +1.4629485125E+002  +3.3579255594E-003 +1.2489404443E+002  +1.8431870610E-001 -1.5618861047E+002 
1260451.815 +1.1886436460E-001 +1.7187693139E+002  +5.3598448619E-004 -8.2273927613E+001  +3.9826745857E-003 -1.1433510381E+002  +2.2624467704E-001 -1.5633731441E+002 
1385596.996 +1.2577154767E-001 +1.7208335364E+002  +7.4509328746E-004 -5.7951929865E+001  +5.2685566460E-004 +1.7251202842E+002  +2.6145094870E-001 -1.5746300246E+002 
1510742.178 +1.2911635303E-001 +1.7109680367E+002  +4.3270597890E-004 +7.9930884331E+001  +6.7384003740E-004 +5.1318480221E+001  +2.6486371738E-001 -1.6127518706E+002 
1635887.359 +1.2905165137E-001 +1.7198351065E+002  +3.5520689912E-004 -1.0358048659E+002  +2.4539830647E-004 -9.0372969161E+000  +2.4277819838E-001 -1.5757342658E+002 
1761032.541 +1.2916616641E-001 +1.6941744235E+002  +6.1467545719E-004 -1.0714456568E+002  +1.6353160190E-003 +5.7492341732E+001  +2.3154409032E-001 -1.6201691976E+002 
1886177.722 +1.3004094796E-001 +1.7078675555E+002  +3.8539765471E-004 +1.7048105113E+001  +1.2784702252E-003 +2.2264549068E+001  +2.0461603035E-001 -1.6850208380E+002 
2011322.904 +1.2579841852E-001 +1.6812841280E+002  +7.0497615831E-004 -3.9008389808E+001  +1.5142547767E-003 -1.4398400214E+001  +2.0845217313E-001 -1.6826445182E+002 
2136468.085 +1.2716455000E-001 +1.6614597108E+002  +1.5389569370E-003 -1.0588715125E+002  +3.6646218412E-003 +1.4139661286E+002  +1.8261976776E-001 -1.5607265866E+002 
2261613.267 +1.2937888216E-001 +1.6456954516E+002  +1.3017101432E-003 -1.0968136663E+002  +4.4429833894E-003 +1.5331441593E+002  +1.8651408869E-001 +1.7795079622E+002 
2386758.448 +1.3436179787E-001 +1.6260920908E+002  +3.2393185842E-003 +9.3051679537E+001  +4.4371829648E-003 -2.9708327236E+001  +9.1590790187E-002 -1.7679141898E+002 
2511903.630 +1.3156282159E-001 +1.6512948493E+002  +1.7417650940E-003 +6.1808800201E+001  +4.6927254962E-003 +3.8440713415E+001  +1.6231225932E-001 -1.7147407421E+002 
2637048.811 +1.0857972188E-001 +1.7004410918E+002  +5.0934911318E-003 -1.4374656805E+002  +7.0559911587E-003 -7.2353734692E+001  +1.3711393478E-001 +8.4302199112E+001 
2762193.992 +1.2663646555E-001 +1.6626109648E+002  +8.4294392789E-003 -5.6989332792E+000  +5.0220470756E-003 +6.5729901093E+001  +5.7874254398E-001 -9.1989283410E+001 
2887339.174 +1.1100844146E-001 +1.7907567216E+002  +3.7133863723E-002 +1.1080291353E+002  +2.6313419429E-002 +1.3821935384E+002  +7.7442224169E-001 -1.0319158084E+002 
3012484.355 +1.2546774264E-001 +1.6605158777E+002  +5.2332213586E-003 -1.9717146909E+001  +8.4367772587E-003 -1.4499970966E+002  +2.7742493057E-001 -8.7210035301E+001 
3137629.537 +1.1258471563E-001 +1.7921320060E+002  +3.1624154940E-003 -2.1816350334E+001  +2.1628808581E-002 -1.1150588885E+002  +3.3766227670E-001 +9.8968703638E-002 
3262774.718 +1.3241289208E-001 +1.6731555958E+002  +5.3029871864E-003 +1.4354087475E+002  +9.5814676408E-003 -7.5731381579E+001  +7.6086428052E-002 +1.5796787696E+002 
3387919.900 +1.3220368554E-001 +1.5991841525E+002  +5.1342425979E-001 +9.9717544970E+001  +2.0383765183E-001 -1.1421196013E+002  +2.8203885472E+001 +1.7081680561E+002 
3513065.081 +1.1813124731E-001 +1.5686542206E+002  +3.3479797910E-003 +3.7422549799E+001  +7.6995450428E-003 +2.8715028718E+001  +2.4687698677E-001 +1.4743999154E+002 
3638210.263 +1.5435148570E-001 +1.4653780484E+002  +5.2177343558E-003 +1.1791100426E+002  +5.3574503408E-003 +3.0048543036E+001  +6.6597589033E-001 +1.5654610481E+002 
3763355.444 +1.5756244455E-001 +1.4483506249E+002  +8.4821521488E-004 +7.4633722328E+000  +1.1139591642E-002 -1.1248459957E+002  +5.1992332794E-001 +1.1328517780E+002 
3888500.626 +1.9283606909E-001 +1.5112673650E+002  +7.7269729440E-003 -7.7855586733E+001  +5.9984076957E-003 +1.0417285365E+002  +4.8125416517E-001 +1.4888930760E+002 
4013645.807 +1.6810010047E-001 +1.4507794777E+002  +9.1682889025E-004 +6.0084051765E+001  +4.8380514151E-003 -1.2439688760E+002  +3.3594667846E-001 +1.4800287621E+002 
4138790.989 +1.6533593536E-001 +1.5723951790E+002  +1.7337194430E-002 -7.2665870355E+001  +7.4816415634E-003 +1.0313592750E+002  +5.2367408155E-001 +9.1934287322E+001 
4263936.170 +2.0370052661E-001 +1.4293837352E+002  +7.2467834023E-003 -5.2478992107E+001  +1.0754052238E-002 +1.0595705558E+002  +1.7104589318E-001 +7.6256933375E+001 
4389081.352 +1.9496715076E-001 +1.4536810165E+002  +9.4103093478E-003 -1.1299725894E+001  +1.6985990843E-002 -1.1248096592E+001  +1.0837386216E+000 +1.2244765268E+002 
4514226.533 +2.1963876769E-001 +1.3348566905E+002  +1.4003066065E-002 +1.5347302013E+002  +2.6369197397E-002 +1.6027811199E+002  +8.4664557875E-001 +1.1185518683E+002 
4639371.715 +2.8992528792E-001 +1.3485559914E+002  +2.8653293078E-002 +7.0412523221E+001  +1.3739197808E-002 -8.2141659504E+001  +1.3638868529E+000 +6.4328928188E+001 
4764516.896 +2.9328884579E-001 +1.2158913209E+002  +1.5162598927E-001 +9.0759463372E+001  +7.6157015738E-002 -1.6974814064E+000  +4.4702021540E+000 -9.1628279275E+001 
4889662.078 +4.2388318138E-001 +1.2684650344E+002  +1.0400586037E-001 -2.5104581193E+001  +1.5717306489E-001 +9.7810550743E+001  +7.0600518225E+000 +1.2136284353E+001 
5014807.259 +6.9463255418E-001 +1.1790886646E+002  +4.7548273278E-002 -6.9059997930E+001  +2.1943223799E-001 -1.0550372373E+002  +4.9969614584E+000 +1.5212657390E+002 
5139952.441 +3.9127486644E-001 +1.3580470377E+002  +3.0299948749E-002 +3.1725417573E+001  +2.9641093073E-002 +1.1249032732E+002  +4.0881990534E+000 +7.7080705632E+001 
5265097.622 +3.1784429045E-001 +1.2475904829E+002  +4.1411094162E-002 -2.8285423719E+001  +1.5017507953E-002 +1.6785707525E+002  +3.1284564149E+000 +7.4511963697E+001 
5390242.804 +4.3085794625E-001 +1.3347661277E+002  +2.1249104776E-002 -7.2369742072E+001  +7.1802854929E-002 -1.6100670675E+002  +3.9534350344E+000 +1.2860918662E+002 
5515387.985 +4.2056986499E-001 +1.2205590407E+002  +2.5218913606E-002 +8.5053500446E+001  +2.2037682137E-002 +1.0788417118E+001  +3.3629070406E+000 +2.0043786040E+001 
5640533.166 +4.9285573389E-001 +1.2378294305E+002  +1.7402932033E-002 +1.2850915734E+002  +1.8490739123E-002 -1.5044514794E+002  +1.5310660290E+000 +8.9178932467E+001 
5765678.348 +5.3523194866E-001 +1.3016762680E+002  +2.2791590204E-002 +1.6310350038E+002  +1.1275553589E-002 -3.6382987379E+001  +2.3305565458E+000 +7.5130331727E+001 
5890823.529 +6.0167140147E-001 +1.2672104972E+002  +4.3767941698E-002 +6.4707076113E+001  +1.6577969422E-002 -9.6637512885E+001  +2.1056007928E+000 +5.6926991001E+001 
6015968.711 +5.7575634392E-001 +1.1717902539E+002  +1.2774556827E-002 -1.3388413053E+002  +2.2058492831E-002 -2.1055836713E+001  +1.9942065608E+000 +5.0032102598E+001 
6141113.892 +8.0838813702E-001 +1.1046318571E+002  +1.1578272063E-002 -1.7481448716E+002  +9.7270981066E-003 +1.1947780210E+002  +1.4167542514E+000 +1.7766476031E+001 
6266259.074 +7.6707352784E-001 +1.0598756065E+002  +1.8208202294E-002 +1.2256496214E+002  +1.7341220523E-002 -1.3314647844E+002  +1.4371485649E+000 +1.7322373451E+001 
6391404.255 +9.5679687517E-001 +1.0414963753E+002  +1.1534466921E-002 -7.3546676614E+001  +5.5014471549E-003 -1.0068781386E+002  +1.3636027618E+000 -7.1835681525E-001 
6516549.437 +1.0974415772E+000 +9.3600321315E+001  +1.8863919866E-002 +5.9199153138E+001  +1.3015541541E-002 +1.6433463973E+002  +1.4086730450E+000 +4.8848231238E+000 
6641694.618 +1.9166351671E+000 +7.4321379050E+001  +3.7185787458E-002 +9.8338734413E+001  +2.4261247399E-002 +7.1059119460E-002  +1.5155172079E+000 -5.0587433478E+000 
6766839.800 +1.8516311288E+000 +5.0181156474E+001  +2.1749389983E-002 -1.1205897807E+001  +1.1377081828E-002 +1.0778497573E+001  +1.5054008815E+000 -5.7997015688E+000 
6891984.981 +1.5141788882E+000 +3.1148762747E+001  +1.6975348823E-002 +4.5680568483E+001  +1.4096055190E-002 +1.0260580482E+002  +1.4227871080E+000 -5.6292618490E+000 
7017130.163 +1.6223639031E+000 +2.3565071885E+001  +1.9730302873E-002 +8.9940573734E+001  +3.6032620424E-003 -1.0971561238E+002  +1.3028978156E+000 -1.2639718025E+001 
7142275.344 +1.5022206584E+000 +5.4901355232E+000  +2.4357697937E-002 +7.9007481481E+001  +6.1819829731E-004 +1.7381871998E+002  +1.2526846286E+000 -1.2256227042E+001 
7267420.526 +1.5753702913E+000 +8.3022346995E+000  +3.2311327096E-003 +1.3473920363E+002  +1.0843969035E-002 +2.0719796856E+001  +1.3472618808E+000 -6.9955887945E+000 
7392565.707 +1.3305432596E+000 +1.2697793587E+000  +3.4342353824E-003 -1.7350745098E+002  +9.0771105087E-003 -3.1142432553E+001  +1.1730295807E+000 -9.9233687090E+000 
7517710.889 +1.1851734256E+000 -2.0931001647E+000  +3.9290464887E-003 +1.0386738610E+002  +7.6628065767E-003 +9.6215151248E+001  +1.2332707612E+000 -4.7979552314E+000 
7642856.070 +9.9880121818E-001 +4.6243159504E-001  +9.8985535232E-003 +1.3732896930E+001  +6.0007662046E-003 -7.4691109335E+001  +9.0915712281E-001 -4.2240786664E+000 
7768001.252 +9.7818976961E-001 +1.7134551820E+000  +2.8172439104E-003 -1.3126264863E+002  +3.5216605033E-003 +8.3133774250E+001  +1.0062396332E+000 +2.7302877964E-001 
7893146.433 +8.1315389607E-001 +1.4668439820E+000  +3.7862226256E-003 +1.5749353789E+002  +7.6143022831E-003 +9.3337328929E+001  +8.8553512104E-001 -3.5106628324E+000 
8018291.615 +8.6045550798E-001 +6.7200449002E-001  +7.4316717653E-003 +7.3486845985E+000  +7.2197095697E-003 -1.5969304175E+002  +7.8582560154E-001 -4.5321825786E+000 
8143436.796 +8.1655800564E-001 +8.2492563245E+000  +5.4311393865E-003 +7.2671915392E+001  +6.8205098659E-003 -9.7723932292E-001  +7.5892031491E-001 -2.9837489159E+000 
8268581.977 +7.1848894405E-001 +2.0415292836E+000  +4.2746434975E-003 +9.1839578906E+001  +2.4008010854E-003 +8.9146832202E+001  +7.8883685777E-001 +4.1542248822E+000 
8393727.159 +6.8228556411E-001 +3.4350853858E+000  +2.3880664276E-003 -8.2604247754E+001  +7.6352943076E-003 -1.7713702202E+002  +7.1164485155E-001 +3.6848047087E+000 
8518872.340 +6.1778410096E-001 +3.8436396344E+000  +3.2751307334E-003 -1.4230804922E+002  +3.5736388729E-003 +8.3006113892E+001  +6.8516102251E-001 +7.9569517227E-001 
8644017.522 +6.3313092562E-001 +8.3206527412E+000  +2.4947082995E-003 +9.6479465903E+001  +5.4652199667E-003 +9.4748504260E+001  +7.2364014466E-001 +3.7209029607E-001 
8769162.703 +6.8481379669E-001 +9.7274370289E+000  +3.9538409053E-003 +6.8287576534E+001  +5.8910551019E-003 +9.2947165071E+001  +7.3675983563E-001 -2.8311531900E-001 
8894307.885 +6.0702569845E-001 +3.3959482734E+000  +5.3946774962E-003 +5.9267671597E+001  +7.8919270102E-003 +8.8192321162E+001  +6.7587862597E-001 -2.2145185697E-001 
9019453.066 +5.7791329721E-001 +5.8561417635E+000  +5.6529935548E-003 +5.0432084506E+001  +4.1480742252E-003 +9.1536426272E+001  +6.7022801686E-001 +8.4428625455E-002 
9144598.248 +5.7213828591E-001 +2.4913077727E+000  +3.0969746184E-003 +7.5988962536E+001  +3.7021267133E-003 +7.1271030611E+001  +6.0793923097E-001 +1.3614148373E-001 
9269743.429 +5.6722362297E-001 +7.5957370060E-001  +4.4612607818E-003 +1.1059863924E+002  +1.5127511995E-003 +1.4752283420E+002  +5.9286628368E-001 -1.2477979870E+000 
9394888.611 +5.6616435277E-001 +4.9213398634E+000  +4.0698674541E-004 -1.0878615705E+002  +1.7072817716E-003 +1.2385772651E+002  +5.6830928167E-001 -4.1894893723E+000 
9520033.792 +5.8112149137E-001 +1.2725975668E+000  +5.0916733134E-003 +1.0748293430E+002  +4.5831262809E-003 +1.0264810442E+002  +6.0168166407E-001 +3.9446934558E-001 
9645178.974 +5.1962735962E-001 +3.6966906048E-001  +4.2419687726E-003 +8.7484146665E+001  +3.9762670147E-003 +1.1069989585E+002  +6.0505085104E-001 -2.5005499803E+000 
9770324.155 +5.5897076782E-001 -1.7413032346E-001  +2.6453490966E-003 +8.4854834492E+001  +6.2190461211E-003 +1.2688636054E+002  +5.7543030705E-001 -5.7923197671E+000 
9895469.337 +4.9921686174E-001 +4.0847082771E+000  +4.1333836830E-003 +1.1819976005E+002  +4.4134001158E-003 +1.2792109309E+002  +6.2962903121E-001 -6.6974399738E+000 
10020614.518 +5.4115821960E-001 +1.6261231928E+000  +3.1960282962E-004 +1.7573197272E+002  +2.2087318000E-003 +8.8808010880E+001  +5.7190743374E-001 -6.5648451686E+000 
10145759.700 +5.5729484175E-001 +8.2699726426E-001  +2.7955110541E-003 +4.8584646827E+001  +3.0083181912E-003 +1.0711342044E+002  +5.7087051133E-001 +1.5145251137E+000 
10270904.881 +5.4085241442E-001 +2.6817769102E+000  +6.4964172230E-003 +7.4979596634E+001  +1.8547344865E-003 +9.7845711291E+001  +5.8391515748E-001 -3.2779169544E+000 
10396050.063 +5.6602414923E-001 +5.3703281509E+000  +4.4514547240E-003 +6.1873242037E+001  +4.5269876675E-003 +1.4751072640E+002  +5.8190009048E-001 -3.3335984713E+000 
10521195.244 +5.7454924276E-001 +4.4536926440E+000  +4.2289363079E-003 +6.9414499426E+001  +4.3391732075E-003 +1.0254728350E+002  +5.9760605354E-001 -2.1645405190E+000 
10646340.426 +5.7438325342E-001 +5.5347002460E+000  +4.4714518246E-003 +1.0454538941E+002  +4.3418560758E-003 +1.1438175056E+002  +5.9410646150E-001 -1.2234865805E+000 
10771485.607 +5.7332462403E-001 +5.3128058050E+000  +4.8690849302E-003 +5.2968737966E+001  +3.7445512678E-003 +8.6041556703E+001  +5.8776285418E-001 -5.0032113800E+000 
10896630.788 +5.7339031851E-001 +8.7378230578E+000  +3.3408413907E-003 +8.4136774166E+001  +4.3852830211E-003 +1.0951776185E+002  +6.1862257428E-001 -5.2911256614E-001 
11021775.970 +6.0330597574E-001 +6.7703419490E+000  +5.5334861438E-003 +8.2678587938E+001  +2.0974323196E-003 +8.1383845307E+001  +6.1093505515E-001 -5.3293087265E-001 
11146921.151 +5.8783669679E-001 +5.2412515809E+000  +5.1813172546E-003 +1.0497634116E+002  +4.3171627679E-003 +1.0991374893E+002  +6.5019000614E-001 +3.9278108987E+000 
11272066.333 +6.3797214854E-001 +7.6416960029E+000  +6.0502846825E-003 +8.8643839460E+001  +5.6276822907E-003 +1.0391692182E+002  +6.0782551064E-001 +2.8620348648E+000 
11397211.514 +6.0684736879E-001 +1.0899829223E+001  +6.0194982791E-003 +8.2085627138E+001  +3.5282785907E-003 +8.0933146252E+001  +6.3176911051E-001 +1.7306353113E+000 
11522356.696 +6.2749811099E-001 +6.0436121687E+000  +3.9184391998E-003 +8.0782616937E+001  +5.9662144081E-003 +1.3401341279E+002  +6.5969837223E-001 +6.0405268185E-001 
11647501.877 +6.3514860531E-001 +4.6811457299E+000  +4.8604022442E-003 +9.7583810862E+001  +6.8684096614E-003 +1.1768270207E+002  +6.7142251009E-001 -5.0669168661E-001 
11772647.059 +6.4946617943E-001 +5.3353297786E+000  +4.9976458946E-003 +1.1494404407E+002  +5.7155048707E-003 +1.1193700080E+002  +6.8652290578E-001 +8.2979332819E-002 
11897792.240 +6.5017598551E-001 +3.8865959553E+000  +7.0823194467E-003 +8.9883942287E+001  +3.4412375352E-003 +9.8742090708E+001  +6.8807314965E-001 +2.3114720611E+000 
12022937.422 +6.7624758004E-001 +1.9195657763E+000  +7.4467288981E-003 +9.5301515359E+001  +5.4003478681E-003 +1.0291822907E+002  +6.8426316925E-001 -4.1362154363E-002 
12148082.603 +6.9174556294E-001 +4.0771197678E+000  +5.2378936662E-003 +8.7206777264E+001  +3.7264181196E-003 +9.5598907991E+001  +7.2230314253E-001 +6.3908658210E-001 
12273227.785 +6.9465151848E-001 +3.8190304142E+000  +3.2724225737E-003 +8.2089716753E+001  +7.3890887960E-003 +9.1902983700E+001  +7.1541983177E-001 -1.4140174652E+000 
12398372.966 +6.9702772569E-001 +3.5444765311E+000  +5.6432341201E-003 +1.1214626972E+002  +6.2488530024E-003 +9.8473067792E+001  +7.6239724822E-001 +3.4158438527E-001 
12523518.148 +7.1286106414E-001 +1.0261506530E+000  +6.8186203324E-003 +9.7253816969E+001  +6.3045331585E-003 +9.7098454956E+001  +7.3166501789E-001 +3.5305457451E-001 
12648663.329 +7.4081802065E-001 +3.1219514451E+000  +5.5108074534E-003 +7.8385613701E+001  +7.1978359425E-003 +1.1268436746E+002  +7.6579301984E-001 -1.3099829634E+000 
12773808.511 +7.8376239313E-001 +1.4761754373E+000  +6.6363908953E-003 +9.3977511163E+001  +5.8157890657E-003 +1.0056723409E+002  +7.5438868646E-001 -2.5661438828E-001 
12898953.692 +7.6889906540E-001 -1.0013897165E-001  +6.1484123706E-003 +9.5323745520E+001  +7.3495463357E-003 +8.0802955515E+001  +7.9064963815E-001 +2.6207007508E-001 
13024098.874 +7.9116058470E-001 +1.2214359847E+000  +5.4291760771E-003 +8.8745209670E+001  +5.3185224622E-003 +8.2835004665E+001  +7.9784273178E-001 -1.8772309866E-001 
13149244.055 +8.0840146491E-001 -8.6090377061E-001  +6.5516765912E-003 +8.0851965747E+001  +7.1712519051E-003 +7.4012927030E+001  +8.1538639673E-001 -1.3638963275E+000 
13274389.237 +8.1346091139E-001 +6.9927530802E-001  +5.5391090732E-003 +8.9693534911E+001  +5.5025325889E-003 +9.9060635826E+001  +8.4680403365E-001 -3.1052632655E+000 
13399534.418 +8.3738782102E-001 -1.5039046618E+000  +8.0502522086E-003 +9.0790408769E+001  +5.6763569082E-003 +8.3977505618E+001  +8.6763692648E-001 -1.8773294238E+000 
13524679.599 +8.4218890118E-001 -2.9587293331E+000  +8.3027832100E-003 +8.7719688418E+001  +8.2332376962E-003 +8.5158798095E+001  +8.6934863817E-001 -3.6563798832E+000 
13649824.781 +8.6755213590E-001 -2.9165716728E-001  +6.6110188532E-003 +9.1196378395E+001  +7.3390453499E-003 +9.0083858902E+001  +8.9360133397E-001 -3.6068729169E+000 
13774969.962 +8.9110899442E-001 -3.5707076401E+000  +6.9424217073E-003 +9.8460661765E+001  +7.7607218588E-003 +9.1756192229E+001  +8.8759367437E-001 -3.5561109947E+000 
13900115.144 +9.2021492758E-001 -3.6239738533E+000  +8.7781483706E-003 +8.7599084396E+001  +7.5847561633E-003 +8.4222176953E+001  +8.9594234693E-001 -5.1249752797E+000 
14025260.325 +9.4003859216E-001 -4.1620557317E+000  +7.8927555129E-003 +8.0403986997E+001  +6.8252476983E-003 +9.1965667025E+001  +9.5075086337E-001 -2.6571140408E+000 
14150405.507 +9.4748121736E-001 -4.9620401858E+000  +7.8588584224E-003 +8.9539981540E+001  +8.1315132838E-003 +9.5198985446E+001  +9.3663842137E-001 -3.8650761996E+000 
14275550.688 +9.3813800526E-001 -5.1211653748E+000  +7.5842557492E-003 +9.2889292404E+001  +7.4802550680E-003 +1.0073046711E+002  +9.6198484724E-001 -6.0012937620E+000 
14400695.870 +9.8474951560E-001 -5.8818445127E+000  +7.7504077883E-003 +1.0126961577E+002  +6.2751463387E-003 +8.2448835723E+001  +9.8629122777E-001 -4.1450840460E+000 
