!  2-Port S-parameters saved by WinCal
! VAR MeasName=S-Parameters (CALIBRATED_DATA) read from VNA (P5004A)
! VAR MeasDate=27/08/2024 12:23:39
! VAR NAME=S2_r2c9_pristine_9k-100M_2
! VAR FILENAME=S2_r2c9_pristine_9k-100M_2.S2P
! VAR DATE=27/08/2024 12:23:39
! VAR PHYS_PORTS=1,2
! VAR ObjTypeName=DATASET
! VAR IndexType=Frequency
!
# Hz S MA R 50
9000.000 +2.0166650007E-002 -1.5118468989E+002  +7.9101381044E-002 -1.1135834839E+002  +5.7214154955E-003 -2.3688016604E+001  +2.5118331274E-001 -4.9281720593E+001 
134145.181 +1.1016770647E-001 +1.6953457399E+002  +5.5242834858E-004 +1.1489525833E+002  +6.8611121044E-005 -1.4795921113E+002  +2.3981150350E-001 -1.6971714195E+002 
259290.363 +1.1218937587E-001 +1.6976525548E+002  +1.0126129204E-003 +1.2826206469E+002  +2.5705256923E-004 -4.9600939965E+001  +2.3873043140E-001 -1.6880014789E+002 
384435.544 +1.1389015142E-001 +1.6998083967E+002  +5.6889325880E-004 -1.6580062466E+001  +2.2309458423E-004 -1.2978851421E+002  +2.4109136327E-001 -1.6911610071E+002 
509580.726 +1.1430251443E-001 +1.7097355258E+002  +7.0320039702E-004 +1.7718886619E+002  +2.0670888340E-004 -1.5189285782E+002  +2.5028214985E-001 -1.6677974319E+002 
634725.907 +1.1759898916E-001 +1.7044202657E+002  +5.8145683304E-004 +1.3660335275E+002  +2.6801046802E-004 +1.1838250958E+001  +2.3298834794E-001 -1.6488518361E+002 
759871.089 +1.1674270481E-001 +1.7017580021E+002  +7.8649536589E-004 -1.4175215060E+002  +6.9069462497E-004 +1.4188544675E+002  +2.4174878887E-001 -1.6380483966E+002 
885016.270 +1.1590271547E-001 +1.6991339748E+002  +8.9182802390E-004 -1.7559968018E+002  +8.5644508899E-004 +1.5396397414E+002  +2.3492548984E-001 -1.6601239035E+002 
1010161.452 +1.1808648833E-001 +1.7235740638E+002  +1.2167022104E-003 +1.5949618696E+002  +5.8023782175E-003 +7.3146394078E+000  +1.3029869704E-001 -1.6517317500E+002 
1135306.633 +1.1408647933E-001 +1.7286245729E+002  +1.3152190036E-003 -1.5629218966E+002  +2.0006502893E-003 -7.4122491269E+001  +1.8298748254E-001 +1.7161213122E+002 
1260451.815 +1.2031348001E-001 +1.7071992642E+002  +7.4327209242E-004 +7.1600854544E+001  +7.0536829587E-004 -7.2642341368E+001  +2.4909813064E-001 -1.5951139476E+002 
1385596.996 +1.2508672124E-001 +1.7105145955E+002  +6.4175960930E-004 +3.6532611100E+001  +4.5080051713E-004 -3.8204714363E+001  +2.4588775847E-001 -1.5602129710E+002 
1510742.178 +1.2778490305E-001 +1.7276801605E+002  +9.2867778806E-004 -8.2064582438E+001  +1.6702598826E-003 +1.3287184349E+001  +2.4715761995E-001 -1.5796871011E+002 
1635887.359 +1.2891834452E-001 +1.7086062324E+002  +1.2612248556E-003 +3.5066400779E+000  +2.1472031731E-003 -4.6120455045E+001  +2.4341780249E-001 -1.5864904918E+002 
1761032.541 +1.2645076035E-001 +1.7043944443E+002  +1.4241605890E-004 -1.0912679097E+002  +2.3233729009E-003 -5.3181569635E+001  +2.2389643405E-001 -1.5756651485E+002 
1886177.722 +1.2845489445E-001 +1.6844997664E+002  +1.2449303337E-003 +1.5236881513E+002  +4.4663225784E-004 -5.5655444615E+001  +1.9886273920E-001 -1.5897922130E+002 
2011322.904 +1.2970568039E-001 +1.6553776956E+002  +1.4039233201E-003 -8.6130378373E+001  +2.7871018864E-003 +1.4125485503E+002  +1.9839365344E-001 +1.7956330714E+002 
2136468.085 +1.2652129608E-001 +1.6913082992E+002  +8.7553253129E-004 +8.8544909700E+001  +4.3131969454E-003 -1.4703674467E+002  +2.2541179605E-001 +1.7966694914E+002 
2261613.267 +1.2862722762E-001 +1.6591953395E+002  +5.3341885762E-003 -1.2295648764E+002  +6.0248509747E-003 -1.2707678290E+001  +5.7602096295E-002 -1.6933599752E+002 
2386758.448 +1.4067469278E-001 +1.6123609498E+002  +1.1803759694E-003 +6.5231384926E+001  +7.0494110333E-004 +5.3102184915E+001  +1.2445441985E-001 -1.6956718887E+002 
2511903.630 +1.3199504002E-001 +1.5947017213E+002  +1.9837082037E-003 -1.5824829478E+002  +5.8419056760E-003 -1.5578203658E+002  +1.4984706185E-001 -1.6234554248E+002 
2637048.811 +1.1657990342E-001 +1.6420003603E+002  +9.6595409757E-003 -1.1406477469E+002  +9.8185666299E-003 +1.2656299496E+002  +2.5501576981E-001 +1.4136558487E+002 
2762193.992 +1.0224798858E-001 +1.7782039342E+002  +1.9496527530E-002 -3.4184029314E+001  +7.9165085725E-003 +9.0861272736E+001  +6.7206971554E-001 +1.5904490079E+002 
2887339.174 +1.2108412871E-001 +1.7450558137E+002  +1.2323787432E-002 -4.1185351654E+001  +4.8828119582E-003 -6.5065633574E+001  +1.0625595986E+000 -1.5639952086E+002 
3012484.355 +9.7990933819E-002 -1.7683782017E+002  +1.0924461572E-002 -1.0647491818E+002  +7.4691483806E-003 +1.5687476652E+002  +5.0503569672E-001 -9.6122158613E+001 
3137629.537 +1.0688924007E-001 +1.7015062963E+002  +1.0153208042E-002 +7.8625235115E+001  +1.3517321892E-002 -9.2001838156E+001  +4.6711844540E-001 -1.2193603140E+002 
3262774.718 +1.0348843352E-001 +1.7766545768E+002  +1.7163352761E-002 -1.2949895367E+002  +2.0176095278E-003 -5.6511281391E+001  +2.7401695635E-001 -9.5726032044E+001 
3387919.900 +1.3162795083E-001 +1.5545629716E+002  +1.8129693641E-002 +1.1690406556E+002  +1.1309517475E-002 +8.1421070745E+001  +3.5361803290E-001 +1.0569450178E+002 
3513065.081 +1.3239027099E-001 +1.5869234508E+002  +1.8948974426E-002 -1.0046758615E+002  +1.1073082667E-002 +5.6312479094E+000  +3.8241086491E-001 +1.0458787891E+002 
3638210.263 +2.5914924775E-001 +1.2972244834E+002  +4.9249717664E-002 -1.0810498030E+002  +2.1073379475E-002 -1.6612933380E+002  +7.4946490097E-001 +7.0640400642E+001 
3763355.444 +1.7181672838E-001 +1.4719188678E+002  +8.8405349964E-003 +4.5895138585E+000  +8.5225509535E-003 +5.0667273638E+001  +4.8426570479E-001 +1.4308670367E+002 
3888500.626 +1.4558988208E-001 +1.5668437218E+002  +9.8424197711E-003 +1.2194101102E+002  +1.1969893596E-002 -1.6070592370E+002  +7.4092978756E-001 +1.0007044537E+002 
4013645.807 +1.7594060373E-001 +1.5163045149E+002  +9.2758260036E-003 -1.0599118887E+002  +1.2700873069E-002 -4.3738434722E+001  +7.7510117224E-001 +8.7361144107E+001 
4138790.989 +1.8359662647E-001 +1.5479692178E+002  +3.6313992074E-003 -1.3485116723E+002  +2.0928858700E-003 -1.7775678567E+002  +5.1744101759E-001 +1.4121141795E+002 
4263936.170 +1.6374166940E-001 +1.4025636183E+002  +9.2703313827E-003 +7.1449433401E+001  +8.7915818092E-003 +9.5048338143E+001  +1.0211876231E+000 +1.3200065197E+002 
4389081.352 +1.9148905365E-001 +1.3741454161E+002  +1.4685526174E-002 +8.5780394330E+001  +1.7708995712E-002 +3.0137269585E+001  +1.3038436611E+000 +1.3394459504E+002 
4514226.533 +1.8801346639E-001 +1.2700532564E+002  +7.1715304447E-003 +1.2642448465E+002  +1.8592770323E-002 -8.2858852908E+001  +7.1733541610E-001 +1.1268144525E+002 
4639371.715 +2.0092307846E-001 +1.2457038515E+002  +1.2050843977E-003 +1.4173689324E+002  +2.9280154140E-002 -8.3412342102E+001  +9.0062112022E+000 -1.2668027701E+002 
4764516.896 +3.0196497461E-001 +1.3258848185E+002  +1.3923823649E-002 +5.4980943335E+001  +1.6565239959E-002 -1.0680929011E+002  +2.6503318933E+000 +1.3756065031E+002 
4889662.078 +6.3212499645E-001 +1.0777440168E+002  +1.4785344020E-001 +1.4710077561E+001  +4.4377820563E-002 -1.2576565798E+002  +3.5124476853E+000 -1.5275925500E+002 
5014807.259 +3.7500703756E-001 +1.2274582909E+002  +1.0790017306E-001 -4.0062521436E+001  +8.6428435642E-002 -1.6170770528E+002  +5.0537050779E+000 +1.3249282223E+002 
5139952.441 +4.0953877603E-001 +1.3799156349E+002  +1.1762178745E-002 +2.4395164135E+001  +5.8782765956E-003 +1.5466187048E+002  +1.5214618277E+000 +1.4202823241E+002 
5265097.622 +4.6232797969E-001 +1.3669257433E+002  +2.6824246670E-002 +7.6946447561E+001  +2.3826704544E-002 -1.4977975543E+002  +2.0226313594E+000 +5.7455795937E+001 
5390242.804 +4.5768843563E-001 +1.2958031387E+002  +1.2197916779E-001 +1.1734604459E+002  +8.1999013117E-002 +4.8588395063E+001  +8.3276688787E+000 +7.4106793143E+001 
5515387.985 +4.5599875444E-001 +1.2799863479E+002  +3.7894251138E-003 +1.6238443275E+002  +1.8571147256E-002 +7.2198138490E+001  +1.8475622012E+000 +9.9401924736E+001 
5640533.166 +5.1555874732E-001 +1.3291778229E+002  +1.3339087482E-002 +1.2412858545E+002  +1.0805290545E-002 +1.7037976317E+002  +1.3607674210E+000 +5.8792738226E+001 
5765678.348 +4.9385624179E-001 +1.1491051709E+002  +2.1951480783E-002 -1.6614451273E+002  +2.8055684277E-002 -1.1961087827E+002  +1.8286113092E+000 +9.5641269584E+001 
5890823.529 +5.5073796009E-001 +1.1979712231E+002  +2.9565903192E-002 -1.2980061900E+002  +1.8943246452E-002 -1.1594474213E+002  +1.8384732625E+000 +2.8373899542E+001 
6015968.711 +6.9653645865E-001 +1.2366734463E+002  +2.5677473515E-002 -1.1993984901E+002  +4.2732782157E-003 -3.0043272901E+001  +1.5133271177E+000 +4.7695461750E+001 
6141113.892 +7.5312437051E-001 +1.1216931179E+002  +4.8491841304E-002 +9.8375747309E+001  +8.6987841588E-003 -5.5445309873E+001  +2.0748719804E+000 +2.6411672034E+001 
6266259.074 +8.4346155342E-001 +1.0112540481E+002  +2.7497713906E-002 -1.5296750430E+002  +1.9345821592E-002 -1.4724122246E+002  +2.3860366628E+000 +1.8522549558E+001 
6391404.255 +1.1642055189E+000 +1.0605267966E+002  +5.2570470768E-003 +1.3306791398E+002  +2.5355507770E-002 +1.0201783942E+002  +1.6073049290E+000 +7.7521240901E+000 
6516549.437 +1.1335102515E+000 +9.2626662566E+001  +1.5464546062E-002 +1.1217688544E+002  +8.8095005543E-003 +1.7452989500E+002  +1.3495528588E+000 +7.4603964024E+000 
6641694.618 +1.4211199728E+000 +7.2256144597E+001  +3.6857733045E-002 +1.3618435492E+002  +2.1682586410E-002 +5.7543539655E+001  +1.3809886369E+000 +2.2468536112E+000 
6766839.800 +1.7166920312E+000 +3.7563807279E+001  +4.2733997651E-002 +1.0293913239E+002  +1.4362348103E-002 +7.5102772910E+001  +1.3785472112E+000 -6.5372062903E+000 
6891984.981 +1.9356402983E+000 +3.8318796209E+001  +2.9977322238E-002 +1.8792398871E+001  +2.6999980910E-002 +1.4092666834E+002  +1.6094617800E+000 -1.1191820689E+001 
7017130.163 +1.6434990299E+000 +1.5832997454E+001  +1.1883909332E-002 +9.6452017750E+001  +1.0098900702E-002 +7.2081347417E+001  +1.3496902633E+000 -9.9506159758E+000 
7142275.344 +2.1488218807E+000 +4.8767280500E+000  +8.7504235504E-003 +9.4329997342E+001  +5.2725782352E-003 -1.9470312166E+001  +1.4150911843E+000 -8.2957722228E+000 
7267420.526 +1.3673336027E+000 -3.8816118955E+000  +1.2677713505E-002 +9.6969611821E+001  +8.7378449957E-003 +1.1615480489E+002  +1.2981405776E+000 -3.6785244902E+000 
7392565.707 +1.4271972124E+000 +4.6751750892E+000  +3.2822515806E-003 +3.5760210009E+001  +3.7207608911E-003 +1.2662857737E+002  +1.3204199644E+000 -2.3595776351E+000 
7517710.889 +1.2145358072E+000 -2.4901587163E+000  +7.4259969413E-003 +5.3123886456E+000  +2.0224289784E-003 +1.0010138464E+002  +1.2448296088E+000 -4.3729769064E+000 
7642856.070 +1.0245086447E+000 +3.1954615490E+000  +3.5707801798E-003 +1.8478958022E+001  +1.0442954526E-002 -1.7676954640E+002  +1.0815879701E+000 -2.4946370790E+000 
7768001.252 +9.3174570879E-001 +2.8472339489E-001  +9.6197393366E-003 +9.6862554716E+001  +1.1666989501E-002 +4.4034853908E+001  +1.0966046015E+000 -2.7210874110E+000 
7893146.433 +9.2996788806E-001 +6.8725023272E+000  +9.1959728066E-003 +1.0709882371E+002  +3.9571172561E-003 +1.5915550544E+002  +8.6118252566E-001 +1.9578273951E+000 
8018291.615 +7.7868994030E-001 +7.1350010688E+000  +5.3266744378E-003 -1.5672126047E+002  +8.6078304292E-003 +1.2868412739E+002  +9.7957466302E-001 -4.0563296231E+000 
8143436.796 +7.8729097126E-001 +4.8484553335E+000  +3.9020044080E-003 +1.0663361940E+002  +4.3786531969E-003 +4.0762752358E+001  +9.2429987373E-001 -2.2222694271E+000 
8268581.977 +7.6538571448E-001 +7.9810725348E+000  +5.1466491924E-003 +2.0587161572E+001  +7.6279358800E-003 +6.8100395718E+001  +8.1474960185E-001 +1.7239474216E+000 
8393727.159 +6.9701341698E-001 +1.3789325511E+001  +6.1548408605E-003 +5.1099967757E+000  +5.6378450455E-003 +5.2641822702E+001  +7.0017741211E-001 -4.1642700420E+000 
8518872.340 +7.0395211276E-001 +1.1470598514E+001  +2.8067628753E-003 +1.3800580177E+002  +3.2474309090E-003 -1.6965938294E+002  +6.6135917342E-001 +1.7223105470E+000 
8644017.522 +6.3630216655E-001 +6.2419120132E+000  +8.3287145955E-003 +6.1356158127E+001  +4.0294624299E-003 +4.2759290058E+001  +7.3235339573E-001 +6.6919173197E+000 
8769162.703 +5.5884188561E-001 +4.8115057419E+000  +1.9453079989E-003 +7.1242520603E+001  +5.8479898390E-003 +7.9786336685E+001  +6.7653548967E-001 -2.2259963507E+000 
8894307.885 +5.8830844422E-001 +4.0397954079E+000  +3.0984206974E-003 +9.4723126296E+001  +3.6104888044E-003 +1.4185479877E+002  +6.5412917679E-001 -3.6600218189E+000 
9019453.066 +6.4616854982E-001 +8.2351786083E+000  +1.2499714150E-003 +1.6823171542E+002  +4.8967063883E-003 -1.7724773025E+002  +6.6872731034E-001 -2.4255088624E-001 
9144598.248 +6.0022224314E-001 +4.4117957595E+000  +5.2661640006E-003 +7.9030926354E+001  +7.1085893809E-003 +1.0906669345E+002  +5.9444293840E-001 +1.0845260068E+000 
9269743.429 +5.9775729075E-001 +6.8702478885E+000  +4.9551560480E-003 +1.3339121676E+002  +5.9200537705E-003 +8.5842239339E+001  +6.1536819006E-001 -3.2299151467E-001 
9394888.611 +5.4034932240E-001 -3.1259995152E+000  +5.1903154210E-003 +5.3906036194E+001  +6.3169324018E-003 +9.1851212517E+001  +6.0042152482E-001 -1.2495869762E+000 
9520033.792 +6.1033067070E-001 +2.2299710391E+000  +2.0846851604E-003 +1.5471868070E+002  +2.2958758668E-003 +8.5033930357E+001  +5.9469462459E-001 -2.6893851746E+000 
9645178.974 +5.5666431058E-001 -1.5359063306E+000  +3.8196131234E-003 +6.6851265887E+001  +3.0165207163E-003 +1.3049561165E+002  +6.4905572183E-001 -5.5123732259E+000 
9770324.155 +5.3346050197E-001 -2.6958477562E+000  +3.6689324201E-003 +6.2137367660E+001  +5.5488664836E-003 +7.1589560994E+001  +5.9770323239E-001 -3.6209291823E+000 
9895469.337 +5.7001114302E-001 -1.6501793497E+000  +3.7492480646E-003 +1.0684378265E+002  +4.2711844627E-003 +1.0599799406E+002  +6.0386105467E-001 -4.2215684428E+000 
10020614.518 +5.3211799685E-001 +2.9723793268E+000  +2.7494437747E-003 +1.0180922428E+002  +4.4115368071E-003 +7.7347991962E+001  +5.7831498701E-001 -7.9737450243E+000 
10145759.700 +5.5306484072E-001 +3.1564882875E+000  +5.7135243138E-003 +6.9455326777E+001  +2.1045825114E-003 +7.4952860493E+001  +5.6278672309E-001 -4.2424337419E+000 
10270904.881 +5.6178726382E-001 +5.6094880826E+000  +5.7424675191E-003 +8.6435769069E+001  +7.5477776474E-003 +9.5600046938E+001  +5.9610871639E-001 -3.3351255740E-002 
10396050.063 +5.6823843577E-001 +8.0745782484E+000  +4.0529169928E-003 +7.4461987577E+001  +3.9491046282E-003 +7.8812470069E+001  +6.1258570362E-001 -4.6251402235E+000 
10521195.244 +5.9697499021E-001 +4.2751194759E+000  +4.1159097166E-003 +1.0354061203E+002  +4.3787843868E-003 +1.0599176019E+002  +5.8943940869E-001 -1.9145150936E+000 
10646340.426 +5.8423090086E-001 +6.0473979924E+000  +3.4113871488E-003 +7.4552516058E+001  +2.5272513250E-003 +1.0037329683E+002  +5.9095131117E-001 -6.3128809539E-001 
10771485.607 +5.6892699723E-001 +7.1529039353E+000  +5.1322531144E-003 +1.1532600986E+002  +5.2306136105E-003 +8.6316314642E+001  +5.8530857081E-001 +5.2427476344E+000 
10896630.788 +5.9764247896E-001 +5.5156379856E+000  +4.7797395201E-003 +9.2828328200E+001  +3.0189385645E-003 +1.0152332133E+002  +6.1568353525E-001 +9.5859871232E-001 
11021775.970 +5.9526278892E-001 +5.3072977560E+000  +3.2041607607E-003 +1.1323566592E+002  +2.6843836505E-003 +5.4799876261E+001  +6.1936533572E-001 -1.6757442142E+000 
11146921.151 +6.2383786081E-001 +4.1504616038E+000  +4.7590876724E-003 +8.4276646868E+001  +4.7106457993E-003 +7.8673235137E+001  +6.1777876207E-001 +2.4897034785E+000 
11272066.333 +5.8845028692E-001 +8.0526419055E+000  +6.4237323292E-003 +8.0714002645E+001  +5.8820040267E-003 +1.2083871946E+002  +6.1726908552E-001 +9.6925302340E-001 
11397211.514 +6.4110506644E-001 +3.7573918779E+000  +4.8776266476E-003 +1.0107047414E+002  +6.2035073341E-003 +1.0584651947E+002  +6.6656356463E-001 +9.5176779095E-001 
11522356.696 +6.3048278757E-001 +3.6364906042E+000  +6.2674630504E-003 +1.0288758841E+002  +6.2735135129E-003 +8.8130015713E+001  +6.4203913538E-001 +9.3663548702E-001 
11647501.877 +6.2449461784E-001 +5.0438473683E+000  +5.3545927177E-003 +9.4397673913E+001  +5.0064925371E-003 +1.1922128571E+002  +6.5323397420E-001 +3.3117593631E+000 
11772647.059 +6.7101461582E-001 +4.9155494079E+000  +2.7249842868E-003 +8.9923639667E+001  +4.8701285494E-003 +1.0291801983E+002  +6.7464286994E-001 +2.4783585887E+000 
11897792.240 +6.7525955107E-001 +4.3636622907E+000  +5.6687914371E-003 +9.8167811937E+001  +3.8188956639E-003 +8.6166958254E+001  +6.7406839621E-001 +1.2174923692E+000 
12022937.422 +6.5955317250E-001 +9.8677362237E-001  +7.0000793750E-003 +8.2520808093E+001  +4.9938570843E-003 +9.8556132943E+001  +6.8576405401E-001 +1.0466667647E+000 
12148082.603 +6.8415467350E-001 +2.9649100670E+000  +5.4089155549E-003 +8.3591438023E+001  +6.7847436477E-003 +1.0768835366E+002  +7.1234134980E-001 -4.8074710668E-001 
12273227.785 +6.9469260522E-001 +4.5696001547E+000  +6.4136652189E-003 +9.1088441577E+001  +6.6333846849E-003 +1.0195188673E+002  +6.8294696065E-001 +7.1199833212E-001 
12398372.966 +7.0870690661E-001 +3.6640792234E+000  +4.5232537410E-003 +5.3238065081E+001  +6.0414876877E-003 +9.8809638756E+001  +7.0497989614E-001 -1.1518474450E+000 
12523518.148 +7.1170656384E-001 +2.8585695712E+000  +5.7751444639E-003 +7.8643301578E+001  +5.9103278609E-003 +1.0176388214E+002  +7.3894173060E-001 -3.2753295206E-002 
12648663.329 +7.3986634738E-001 -6.3072971959E-002  +4.7493931793E-003 +8.2959755080E+001  +6.4682366167E-003 +9.8569759928E+001  +7.6264318248E-001 +9.7759537045E-001 
12773808.511 +7.6768803764E-001 +1.7557928823E+000  +6.1366661708E-003 +9.7173438728E+001  +5.5308375512E-003 +1.0377437358E+002  +7.7601919936E-001 -5.6174075288E-001 
12898953.692 +7.7036664277E-001 +1.7891070897E+000  +6.9357019419E-003 +8.8521074221E+001  +6.5423793704E-003 +1.0038407461E+002  +7.8370317559E-001 -1.4625504802E+000 
13024098.874 +7.7608292780E-001 +7.2796426309E-001  +7.0653794327E-003 +9.0496554588E+001  +5.2362053965E-003 +9.3215968962E+001  +7.9515389839E-001 -1.6864873268E+000 
13149244.055 +7.8113919984E-001 +3.7123176844E-001  +6.8513407074E-003 +1.0137276225E+002  +6.3093659080E-003 +1.0056713920E+002  +8.3017613813E-001 -1.4846138757E+000 
13274389.237 +8.0247765225E-001 -1.0952850599E+000  +6.5996464835E-003 +1.0335060262E+002  +5.0110331850E-003 +9.8538467617E+001  +8.5084111070E-001 -1.7646883695E+000 
13399534.418 +8.4460982694E-001 -7.5814378015E-001  +7.2508446544E-003 +9.9888684768E+001  +7.2588936739E-003 +9.1107198775E+001  +8.5006226660E-001 -2.6402379325E+000 
13524679.599 +8.1978411665E-001 -8.4117237539E-001  +6.7696346118E-003 +9.9987477710E+001  +6.6396831618E-003 +9.9158008555E+001  +8.8352460200E-001 -2.4612229254E+000 
13649824.781 +8.6354560187E-001 -2.5714062014E+000  +7.0662622650E-003 +9.2088764972E+001  +5.8712874163E-003 +9.2086036650E+001  +8.8309572086E-001 -3.8106900851E+000 
13774969.962 +9.0895700147E-001 -2.5564321212E+000  +7.8657819536E-003 +1.0785967842E+002  +7.4825232627E-003 +1.0479215002E+002  +8.9243799235E-001 -1.8653183324E+000 
13900115.144 +9.0506668423E-001 -3.0374325358E+000  +8.0397449725E-003 +9.8521242499E+001  +8.8171200896E-003 +9.2742032138E+001  +9.3182155190E-001 -3.3243239998E+000 
14025260.325 +9.1774899691E-001 -1.7436186630E+000  +8.2289319074E-003 +9.9133188004E+001  +6.8615455895E-003 +9.4212808843E+001  +9.2710708610E-001 -3.2945560479E+000 
14150405.507 +9.5125704523E-001 -3.7328633998E+000  +7.3595311322E-003 +1.0117438268E+002  +6.7675833943E-003 +9.3413044732E+001  +9.5960247711E-001 -5.0006016106E+000 
14275550.688 +9.6723285196E-001 -5.1934769526E+000  +8.0529475267E-003 +8.7783634703E+001  +5.7896865912E-003 +8.5408612824E+001  +9.7412660012E-001 -5.2836379658E+000 
14400695.870 +9.8228520301E-001 -5.0076374765E+000  +8.7528246901E-003 +8.6974950445E+001  +7.7430069020E-003 +9.6303942470E+001  +9.9088392806E-001 -4.9396204132E+000 
