!  2-Port S-parameters saved by WinCal
! VAR MeasName=S-Parameters (CALIBRATED_DATA) read from VNA (P5004A)
! VAR MeasDate=27/08/2024 15:26:34
! VAR NAME=S2_r6c8_formed_9k-100M_2
! VAR FILENAME=S2_r6c8_formed_9k-100M_2.S2P
! VAR DATE=27/08/2024 15:26:34
! VAR PHYS_PORTS=1,2
! VAR ObjTypeName=DATASET
! VAR IndexType=Frequency
!
# Hz S MA R 50
9000.000 +7.1923361282E-002 -1.6635494824E+002  +1.8318413738E-002 +1.4332905460E+002  +9.3324211619E-003 -2.3586405183E+001  +2.8708029073E-001 -1.3724865334E+002 
134145.181 +1.1128727557E-001 +1.6936853175E+002  +3.4846373636E-004 -1.1308821176E+002  +3.6630107255E-004 +1.3680754367E+002  +2.4034573295E-001 -1.7093699358E+002 
259290.363 +1.1247266548E-001 +1.7020183308E+002  +8.9113488491E-004 -7.2735202963E+001  +5.5629420688E-005 +4.1628170763E+001  +2.2646388218E-001 -1.6702766609E+002 
384435.544 +1.1434775818E-001 +1.7010930342E+002  +5.4330868579E-004 -8.3130962319E+001  +5.0565508527E-004 +9.4483117584E+000  +2.4472447296E-001 -1.6924883907E+002 
509580.726 +1.1449702956E-001 +1.7044405675E+002  +4.2084543171E-004 -6.5604870546E+001  +4.1835784945E-004 -1.0620070339E+002  +2.5221314804E-001 -1.6547070198E+002 
634725.907 +1.1601045483E-001 +1.7128765301E+002  +4.1409339047E-004 -1.1397798322E+002  +9.7699488992E-004 +8.9296283006E+000  +2.4910244967E-001 -1.6398005644E+002 
759871.089 +1.1798441796E-001 +1.7078978689E+002  +4.2916695875E-004 +7.4352384676E+000  +5.7104733458E-004 -1.5340459681E+001  +2.4546323890E-001 -1.6358374628E+002 
885016.270 +1.1817775863E-001 +1.6900805038E+002  +7.0228985204E-004 -6.7402298195E+001  +5.5824248144E-004 -3.9343273244E+001  +2.3729055522E-001 -1.6530111327E+002 
1010161.452 +1.1705778519E-001 +1.7068189421E+002  +2.4571149399E-004 +2.4479885879E+000  +2.6336304434E-003 +7.6968843518E+001  +1.8281506681E-001 -1.7509859616E+002 
1135306.633 +1.1786584946E-001 +1.7132951482E+002  +6.5339436031E-004 -5.8351696800E+000  +8.9857427078E-004 -2.2566663810E+001  +1.7536640889E-001 -1.6425886884E+002 
1260451.815 +1.1756339012E-001 +1.7209437284E+002  +8.4435190808E-004 -1.6535004689E+002  +8.7291593921E-004 -1.0844415936E+002  +2.0518031174E-001 -1.5931470186E+002 
1385596.996 +1.2349819869E-001 +1.7100382541E+002  +1.4466559464E-003 +1.6080883579E+002  +9.3490619572E-004 +2.5486040809E+000  +2.7342286530E-001 -1.5763454166E+002 
1510742.178 +1.2504669532E-001 +1.7078713227E+002  +8.7463199311E-004 -1.1551654498E+002  +6.1054650132E-004 -1.4168978713E+002  +2.4826869317E-001 -1.6100607115E+002 
1635887.359 +1.2653829329E-001 +1.7117936605E+002  +6.1441961000E-004 +1.7996921253E+002  +2.4096639727E-004 +1.5776525964E+002  +2.4271037347E-001 -1.5784701357E+002 
1761032.541 +1.2715363479E-001 +1.6831474685E+002  +9.7335375180E-004 +2.6187512933E+001  +1.6328668349E-003 -1.1678248592E+002  +2.1737501764E-001 -1.6021803179E+002 
1886177.722 +1.2989921024E-001 +1.6822727801E+002  +2.3787666611E-003 -6.0260822553E+001  +1.5257438457E-003 -1.7350350273E+002  +1.5954447779E-001 -1.6120761728E+002 
2011322.904 +1.3035973430E-001 +1.6820902246E+002  +1.4051743388E-003 -3.4465559201E+001  +2.2920015004E-003 +6.3600620488E+001  +2.1406787490E-001 -1.6662437014E+002 
2136468.085 +1.3500844249E-001 +1.6205888001E+002  +1.9392895008E-003 -8.2455630034E+000  +1.0874983433E-003 -1.0614242294E+002  +1.9030241893E-001 -1.6898664598E+002 
2261613.267 +1.3433699671E-001 +1.6777332449E+002  +3.7010869478E-003 +1.2610778374E+002  +3.5104109240E-003 -4.1552634477E+001  +1.4549167633E-001 +1.7800854515E+002 
2386758.448 +1.3220220483E-001 +1.6258612486E+002  +5.0225660952E-003 +1.1649571787E+002  +1.7009627359E-003 -4.2203090913E+001  +2.4680133183E-001 +1.5292335040E+002 
2511903.630 +1.3032240875E-001 +1.6161078103E+002  +4.6625457857E-003 +1.0736640690E+002  +7.1458271516E-003 +4.6015064160E+001  +2.7971304502E-001 +1.5320656766E+002 
2637048.811 +9.4719246747E-002 +1.4462708083E+002  +2.5410585290E-002 +1.4279444509E+002  +7.4697148874E-003 -3.2200537719E+001  +2.6654791839E-001 +1.4673279783E+002 
2762193.992 +1.0959422089E-001 +1.6922522609E+002  +6.2011865891E-002 +1.4341742052E+002  +5.3612882484E-002 -7.5217058604E+001  +1.4465486763E+000 +1.7812055772E+002 
2887339.174 +1.1650402797E-001 -1.7698755659E+002  +4.3396273950E-002 -1.4096461756E+002  +2.4202732121E-002 -3.5706910039E+001  +2.0867853382E+000 -1.2882787876E+002 
3012484.355 +7.0605870745E-002 +1.3569132383E+002  +1.1963915040E-002 -3.9412969748E+001  +2.4193803068E-002 -6.9569851339E+001  +2.5010811849E-001 -1.1183587679E+002 
3137629.537 +1.0188607079E-001 +1.5539807498E+002  +3.4654008899E-002 -1.4766199474E+001  +1.1492912865E-002 -6.3163919502E+001  +4.0314967794E-001 -4.4040108347E+000 
3262774.718 +9.1718980383E-002 +1.6224426750E+002  +4.4747506840E-003 -1.1236899179E+002  +4.2539675240E-002 -1.4022249975E+002  +3.1610407544E-001 -7.1435389827E+001 
3387919.900 +1.3271206447E-001 +1.5422139199E+002  +1.5156399760E-002 +1.7491956980E+001  +2.3683491196E-002 -7.1300964384E+001  +2.7388096946E-001 +5.3154972305E+001 
3513065.081 +1.5321808190E-001 +1.4394314385E+002  +4.1641150419E-003 +1.4637503363E+002  +2.3929894887E-002 -1.1963844189E+001  +2.0543521136E-001 -3.5992878950E+001 
3638210.263 +1.8088500582E-001 +1.4184296216E+002  +7.4895555886E-003 +9.3966979814E+001  +1.2928406297E-002 +3.0031592246E+001  +4.2421967579E-001 +1.0022802064E+002 
3763355.444 +1.7371472883E-001 +1.3602744301E+002  +2.2271298703E-002 +1.2182941025E+002  +8.5448392987E-003 -1.4310717892E+002  +4.5600180879E-001 +1.3058333589E+002 
3888500.626 +1.7054326156E-001 +1.4392457468E+002  +7.0093449975E-003 +1.5633725521E+002  +1.6201503905E-002 +5.0671106870E+001  +8.2267390889E-001 +1.2152689285E+002 
4013645.807 +2.2352552424E-001 +1.4062719571E+002  +2.6238206247E-002 +7.4310436540E+001  +7.3571558225E-003 +9.5526534040E+000  +5.7706564388E-001 +1.0184230488E+002 
4138790.989 +1.9146387678E-001 +1.4113221799E+002  +1.1621450058E-002 +4.6741582228E+001  +1.2832932428E-002 -2.9026389185E+001  +1.6541932459E-001 +3.2157653166E+001 
4263936.170 +2.1289001981E-001 +1.4576713022E+002  +6.4481845304E-003 +8.5248697158E+001  +8.0974774869E-003 +4.5859688776E+001  +5.0350617834E-001 +9.9459619867E+001 
4389081.352 +2.3606119493E-001 +1.3149304958E+002  +2.0523043416E-002 +9.1325658024E+001  +1.7488688107E-002 +3.6794481397E+001  +3.5526200137E-001 +1.1351781848E+002 
4514226.533 +3.5471945796E-001 +1.2375816267E+002  +1.5384058129E-002 +1.6476235037E+002  +3.0259130091E-002 +6.1697568297E+001  +9.1970991806E-001 +1.2726943479E+002 
4639371.715 +2.5918680201E-001 +1.2987280043E+002  +2.8819826413E-001 +6.9779122116E+001  +1.4737355925E-001 -1.4825018437E+001  +8.4588635417E+000 +2.5679109582E+001 
4764516.896 +3.2486360889E-001 +1.3122778504E+002  +4.1674772516E-002 +1.6808580441E+002  +3.4682693643E-002 +1.4433137480E+002  +1.6056929909E+000 +1.5708081617E+002 
4889662.078 +5.8787321803E-001 +1.1605565798E+002  +5.8258361446E-001 -1.7631209051E+002  +6.6616737046E-001 +1.4123158092E+002  +1.6654637097E+001 +1.5377137822E+002 
5014807.259 +4.1706032896E-001 +1.2610070997E+002  +6.7199166149E-002 -1.6997239287E+002  +8.3884165224E-002 +1.3529998234E+002  +2.2426704086E+000 +1.2486917951E+002 
5139952.441 +4.3265498057E-001 +1.2339518380E+002  +5.2412835056E-002 +1.0528477844E+002  +4.8666161705E-002 +1.0580250669E+002  +1.1629672053E+000 +8.9053893335E+001 
5265097.622 +3.6518696384E-001 +1.2170616616E+002  +1.9150853036E-001 +1.5054190212E+002  +7.7680269776E-002 +4.9537395470E+001  +4.9001257605E+000 +9.9296819318E+001 
5390242.804 +4.2769330098E-001 +1.2750555702E+002  +8.8802834114E-002 +1.3533302386E+002  +1.2056026773E-001 +5.0625091839E+001  +4.2373976163E+000 +7.3602789233E+001 
5515387.985 +4.9704057596E-001 +1.3363618539E+002  +2.4470133288E-002 +1.4647963834E+002  +1.8526616205E-002 +1.1012908427E+002  +1.6816471283E+000 +1.2903019642E+002 
5640533.166 +4.6440901794E-001 +1.2790057553E+002  +1.8892258955E-002 +1.0311674379E+002  +9.7083891108E-003 +4.6592610265E+001  +1.8419466887E+000 +7.0014390224E+001 
5765678.348 +5.6259432572E-001 +1.2731061146E+002  +2.4625866281E-002 +1.1463637993E+002  +3.7053888617E-002 +5.5175554224E+001  +2.2789076203E+000 +8.9395862706E+001 
5890823.529 +5.5138434627E-001 +1.2784515782E+002  +3.4228818061E-002 +5.7915942920E+001  +7.3783532057E-002 +6.2095038263E+001  +2.2276706838E+000 +4.8810601832E+001 
6015968.711 +6.3577808147E-001 +1.1728860607E+002  +5.1851853351E-002 +5.7822117986E+001  +2.1109441941E-002 +8.7559968801E+001  +1.8733038566E+000 +2.9490097028E+001 
6141113.892 +8.5995545648E-001 +1.1763946867E+002  +3.0972174091E-002 +9.0449781603E+001  +4.0812697729E-002 +7.0327412356E+001  +1.5143728848E+000 +5.3350630311E+001 
6266259.074 +9.8084481901E-001 +1.1076790252E+002  +5.0023567890E-002 +9.7146032409E+001  +4.1742908385E-002 +6.1975568630E+001  +1.6901478469E+000 +4.2083959930E+001 
6391404.255 +1.0877516695E+000 +1.0481370987E+002  +5.5446382404E-002 +7.3510926072E+001  +3.1001628956E-002 +8.6918621971E+001  +1.4580977524E+000 +2.3661932774E+001 
6516549.437 +1.2509035781E+000 +8.5415040983E+001  +4.9523913100E-002 +7.6389090123E+001  +4.0723338469E-002 +4.8931411960E+001  +1.3128854678E+000 +1.7857552164E+001 
6641694.618 +1.5770153905E+000 +6.8903397161E+001  +5.1863598423E-002 +3.4617036339E+001  +6.5783544088E-002 +9.7114402558E+000  +1.2786403658E+000 +1.0844427647E+001 
6766839.800 +1.1387008490E+000 +3.9130615325E+001  +5.8935170707E-002 +3.3936524796E+001  +4.5955360602E-002 +6.5443768326E+000  +1.2574811037E+000 -6.1468339911E+000 
6891984.981 +2.0429249639E+000 +2.9410844478E+001  +5.0413908617E-002 +3.6836143938E+001  +6.3566015512E-002 +4.2394408598E+000  +1.3993454575E+000 -8.5069169145E+000 
7017130.163 +1.7951500226E+000 +1.2476526447E+001  +5.4104755930E-002 -1.3217255709E+001  +5.2987204331E-002 +6.8494841274E-001  +1.1910248473E+000 -5.9060886935E+000 
7142275.344 +1.8156093201E+000 +1.3626383860E+001  +4.1388487077E-002 +2.3810737487E+000  +3.5294019822E-002 +1.5593574591E+001  +1.1764745540E+000 -1.3272807767E+001 
7267420.526 +1.7165486077E+000 +5.3464651422E+000  +3.3056210994E-002 +5.5571308815E+000  +4.0377471335E-002 +2.2303010911E+001  +1.4375606587E+000 -9.4712876543E+000 
7392565.707 +1.3419464735E+000 -7.8662988968E-001  +2.3122005109E-002 +4.9034132216E+000  +2.1499057471E-002 +1.8034268168E+001  +1.4099431974E+000 -1.3842049528E+001 
7517710.889 +1.2471377536E+000 -5.3732875770E+000  +2.0149601756E-002 -3.9799513375E+000  +1.8262599028E-002 +9.9072108744E+000  +1.1800016242E+000 -6.6097081421E+000 
7642856.070 +1.0722613620E+000 -4.0709999129E+000  +1.5133710343E-002 +1.8721637010E-001  +1.4466310194E-002 +1.5025935556E+001  +1.0693800398E+000 -7.1241306507E+000 
7768001.252 +1.0187495816E+000 +5.7936930087E+000  +2.4100321149E-002 +1.5635670555E+001  +2.5218348913E-002 +2.3689827431E+001  +9.5465994133E-001 -4.0564017743E+000 
7893146.433 +9.6064725328E-001 +6.0217585954E+000  +2.0308707812E-002 +2.3127347130E+001  +1.0601289573E-002 +1.5272476952E+001  +9.2503834134E-001 -7.6423692359E+000 
8018291.615 +7.4090687268E-001 +8.1568516856E-001  +1.6409671821E-002 +9.6717748009E+000  +1.7463112339E-002 +1.6603143565E+001  +8.3855400851E-001 -5.2861470093E+000 
8143436.796 +7.2195630730E-001 +5.8733979409E+000  +1.2649342757E-002 -3.2827852854E+000  +1.0792814934E-002 +2.2273025220E+001  +8.2227360130E-001 +2.5497408283E+000 
8268581.977 +7.3331474076E-001 +1.1686039475E+001  +1.6544170984E-002 +3.8104608078E+000  +1.3874699539E-002 +3.9538339591E+001  +7.4704873601E-001 +4.1925206085E+000 
8393727.159 +6.8416185884E-001 +3.1371331039E+000  +1.4687825043E-002 +6.8507015569E+000  +1.7736507383E-002 +3.3686723184E+001  +7.6820306778E-001 -5.7711709504E-001 
8518872.340 +5.9792231410E-001 +3.3086007565E+000  +1.2579689077E-002 +7.3798453448E+000  +1.9515770956E-002 +3.3070826384E+001  +8.0160211117E-001 -1.7535107537E+000 
8644017.522 +6.6955426132E-001 +1.0787133911E+001  +1.2116954741E-002 +1.2012360533E+001  +1.8060666774E-002 +1.6578662797E+001  +6.6986473668E-001 +2.1950393180E+000 
8769162.703 +5.7446354402E-001 +6.9015811042E+000  +1.8159644488E-002 -1.9051716437E-001  +1.5817221628E-002 +2.3061161359E+001  +6.5458461230E-001 -4.9089753861E+000 
8894307.885 +5.9244793661E-001 +6.0282615913E+000  +1.3247000420E-002 +2.0686371170E+001  +1.7304331470E-002 +2.1174135770E+001  +6.1700190823E-001 -5.7165638325E+000 
9019453.066 +6.0606002066E-001 +1.5419401693E+000  +1.5576934734E-002 +4.8003380462E+000  +1.6508494294E-002 +1.5335611985E+001  +6.3603829357E-001 -2.1476895200E+000 
9144598.248 +5.8206678313E-001 +1.0300797471E+000  +1.4998370121E-002 +2.3222254452E+001  +1.3297420653E-002 +1.9084228317E+001  +6.0256455468E-001 -1.6466558312E+000 
9269743.429 +5.5537975536E-001 +1.5091722020E+000  +1.5962424564E-002 +8.2399431373E+000  +1.5766447633E-002 +1.9897566899E+001  +5.8401917248E-001 +9.2629978026E-002 
9394888.611 +5.4639739194E-001 +7.8984564059E+000  +1.7721313817E-002 +1.3891344129E+001  +1.7426379612E-002 +6.9567624159E+000  +5.8343708281E-001 -4.4948819284E+000 
9520033.792 +5.4475779325E-001 +2.7245295525E+000  +1.1166534905E-002 +5.0723496886E+000  +1.6970964883E-002 +2.5267588200E+001  +6.0252169594E-001 -6.7892933752E+000 
9645178.974 +5.2302416621E-001 -8.7079016837E-001  +1.5067729063E-002 +1.2892792631E+000  +1.7544865752E-002 +2.5819809227E+001  +5.8902885863E-001 -8.2731868570E+000 
9770324.155 +5.1339434399E-001 -8.1051227437E-001  +1.7749348191E-002 +9.3945653453E+000  +1.4143204789E-002 +2.4675528525E+001  +6.2293107942E-001 -9.1215819547E+000 
9895469.337 +5.2738886537E-001 -5.8798365220E-001  +1.4442571244E-002 +4.0248208562E+000  +1.3901845753E-002 +2.7181210614E+001  +5.6473052143E-001 -7.4309472180E+000 
10020614.518 +5.3122805393E-001 +1.1121010979E+000  +1.6949378413E-002 +8.7960848159E+000  +1.7037669693E-002 +2.1326779693E+001  +5.4688673296E-001 -1.5221935661E+000 
10145759.700 +5.3161640465E-001 +7.0621394923E+000  +1.4674488941E-002 +9.1957603823E+000  +1.5913576728E-002 +3.0929204439E+001  +5.7672963895E-001 -2.4872605775E+000 
10270904.881 +5.5697422598E-001 +4.2914410092E+000  +1.6194900907E-002 +1.5879849754E+001  +1.5032466435E-002 +2.1441159452E+001  +5.1764072129E-001 +1.5136000446E+000 
10396050.063 +5.4743927942E-001 +6.0618306756E+000  +1.6131517202E-002 +1.1011705918E+001  +1.8202116774E-002 +3.3277276882E+001  +5.9293681645E-001 -2.9010731335E+000 
10521195.244 +5.1328502088E-001 +1.0429021388E+001  +1.6677042457E-002 +1.6740596167E+001  +1.7778325451E-002 +2.3984942923E+001  +6.0452913952E-001 +2.4825327089E-002 
10646340.426 +5.3911860403E-001 +7.1835783953E+000  +1.7059249962E-002 +2.2889878248E+001  +1.4029959131E-002 +3.5127503614E+001  +5.8975829999E-001 +1.5955700321E+000 
10771485.607 +5.2847687721E-001 +5.6679356924E+000  +1.7617585623E-002 +1.2083485199E+001  +1.7042385585E-002 +2.3582080354E+001  +6.2179186924E-001 -5.6516308130E-001 
10896630.788 +5.6515339628E-001 +6.9688639197E+000  +1.5857640061E-002 +1.7626937521E+001  +1.4498785548E-002 +2.6423705204E+001  +6.1283510934E-001 +1.0699422249E-003 
11021775.970 +6.0951427412E-001 +6.8345633281E+000  +1.7247059057E-002 +1.9419731239E+001  +1.7513126924E-002 +3.2999536472E+001  +5.9361677172E-001 -1.1692721483E+000 
11146921.151 +5.7539162607E-001 +6.2398315318E+000  +1.7075985862E-002 +1.1910484517E+001  +1.5990512220E-002 +2.2838418493E+001  +6.1444023449E-001 +1.7391389030E+000 
11272066.333 +5.8403986376E-001 +7.1653156121E+000  +1.5470981114E-002 +8.2799912753E+000  +1.5698447380E-002 +2.8318659415E+001  +6.0583825761E-001 +2.4225772406E+000 
11397211.514 +6.0137494591E-001 +4.0753359315E+000  +1.6019823491E-002 +1.5174657337E+001  +1.7421108468E-002 +2.2435372608E+001  +6.1503285790E-001 +3.6650308566E-001 
11522356.696 +6.0474314648E-001 +8.3317062708E+000  +1.7530019099E-002 +2.1036883913E+001  +1.4085748553E-002 +2.6002041228E+001  +6.0944163501E-001 +3.3723600039E+000 
11647501.877 +6.0801610646E-001 +6.8128899341E+000  +1.4679280471E-002 +1.6474075517E+001  +1.7129089472E-002 +2.6018858366E+001  +6.3577952267E-001 +1.9063157039E+000 
11772647.059 +6.1021532696E-001 +3.8352538204E+000  +1.7432055443E-002 +1.9045993723E+001  +1.6615478573E-002 +2.7800090338E+001  +6.7544658645E-001 +1.8530711445E+000 
11897792.240 +6.4830854969E-001 +6.3172108932E+000  +1.8178690356E-002 +1.4125369695E+001  +1.5525257506E-002 +2.8778446912E+001  +6.5098417454E-001 +2.5576737559E+000 
12022937.422 +6.5532024881E-001 +4.8452679717E+000  +1.8262966696E-002 +1.9610227901E+001  +1.7102295774E-002 +3.1106668124E+001  +6.5826120817E-001 +1.7072702045E+000 
12148082.603 +6.6578034491E-001 +5.3068696470E+000  +1.8016278234E-002 +2.0894686579E+001  +1.7026545415E-002 +2.2047828396E+001  +6.6257403507E-001 +2.1953187568E+000 
12273227.785 +6.7699137319E-001 +3.9781666138E+000  +1.7529948815E-002 +1.9798986849E+001  +1.6346806796E-002 +3.0742046102E+001  +7.2681355195E-001 +2.0470741307E+000 
12398372.966 +6.7684423600E-001 +2.4664572740E+000  +1.8216559951E-002 +2.0793830660E+001  +1.9210794510E-002 +2.8200272642E+001  +6.7294405284E-001 -8.3806379479E-001 
12523518.148 +7.0210374150E-001 +4.2006922019E+000  +2.0016825616E-002 +2.2186411173E+001  +1.8291555302E-002 +2.6877328791E+001  +7.2358683278E-001 -6.7905439803E-001 
12648663.329 +6.9001208103E-001 +3.7050522391E+000  +1.8724774540E-002 +2.5144906192E+001  +2.0824275766E-002 +1.9844583248E+001  +7.2002018165E-001 -1.9327293922E+000 
12773808.511 +7.4180428875E-001 +9.9849149691E-001  +1.9851521314E-002 +2.0627039945E+001  +1.8286743871E-002 +2.4052302805E+001  +7.6965989802E-001 -4.0547991776E-001 
12898953.692 +7.3516455745E-001 +1.0815928004E+000  +2.2022304481E-002 +1.7162608037E+001  +1.9189180550E-002 +2.7928027978E+001  +7.3924655338E-001 -1.3887670344E+000 
13024098.874 +7.6791467243E-001 -1.4687221613E-001  +2.2385791753E-002 +2.0323735064E+001  +2.0827841050E-002 +2.7016631793E+001  +7.8828274984E-001 -1.7609761571E+000 
13149244.055 +7.9528755366E-001 +2.9931956947E-001  +1.9582003129E-002 +1.8703418346E+001  +2.3074035583E-002 +2.5896553547E+001  +7.8313959602E-001 -1.9331968867E+000 
13274389.237 +7.8718509657E-001 -1.1420325053E+000  +2.0392718619E-002 +2.1271591948E+001  +1.8881797326E-002 +2.4293763499E+001  +8.0623418444E-001 +6.0939174182E-001 
13399534.418 +8.2140890312E-001 +8.7134619482E-001  +2.0324094763E-002 +2.4021304009E+001  +2.1239947650E-002 +2.3859754293E+001  +8.1980695782E-001 -1.5698628118E+000 
13524679.599 +8.1857966419E-001 -1.9951849560E+000  +2.2539761971E-002 +2.0722364784E+001  +2.0125155664E-002 +2.4123493968E+001  +8.5124855418E-001 -3.4449467805E+000 
13649824.781 +8.5262122440E-001 -2.6319308353E+000  +2.2537348000E-002 +2.4706151027E+001  +2.1654156127E-002 +2.1893020761E+001  +8.7649682064E-001 -3.6286890880E+000 
13774969.962 +8.5186667432E-001 -2.6749780233E+000  +2.1321235514E-002 +1.7718461159E+001  +2.1169202712E-002 +2.5880295653E+001  +8.5390529119E-001 -3.6394100684E+000 
13900115.144 +8.9762399184E-001 -2.4904015475E+000  +2.0232873836E-002 +2.1379785226E+001  +2.0189160288E-002 +2.4913951019E+001  +8.8776312518E-001 -2.5982334103E+000 
14025260.325 +9.0625528494E-001 -5.2146669235E+000  +2.2162250254E-002 +1.6024681020E+001  +2.3128592209E-002 +2.2309937077E+001  +9.1242142188E-001 -4.5637205595E+000 
14150405.507 +9.3034809935E-001 -3.8352793871E+000  +2.1661504363E-002 +2.0989105091E+001  +2.1627325325E-002 +2.0330632051E+001  +9.3094627256E-001 -3.4642260432E+000 
14275550.688 +9.3334075621E-001 -4.4732651654E+000  +2.0802379474E-002 +2.2138177965E+001  +2.1314612664E-002 +2.2620824746E+001  +9.3657131880E-001 -5.0117584599E+000 
14400695.870 +9.5451761161E-001 -5.0323862443E+000  +2.2584897415E-002 +2.1766888670E+001  +2.1387642833E-002 +2.3919755724E+001  +9.7224178029E-001 -4.4281272336E+000 
