!  2-Port S-parameters saved by WinCal
! VAR NAME=S2_r4c9_formed(2)_9k-100M_1
! VAR DATE=30/08/2024 11:38:32
! VAR FILENAME=S2_r4c9_formed(2)_9k-100M_1.S2P
! VAR MeasName=S-Parameters (CALIBRATED_DATA) read from VNA (P5004A)
! VAR MeasDate=28/08/2024 10:07:46
! VAR PHYS_PORTS=1,2
! VAR ObjTypeName=DATASET
! VAR IndexType=Frequency
!
# Hz S MA R 50
9000.000 +9.8932226274E-002 -1.6466323753E+002  +3.2355634415E-003 -4.7960909164E+000  +6.1453804026E-003 -1.3299841363E+002  +2.4666867972E-001 -1.4119532874E+002 
134145.181 +1.1094893618E-001 +1.6999398348E+002  +3.7981585108E-004 -8.8690892795E+001  +5.8084453630E-004 +7.5329159932E+001  +2.3696180215E-001 -1.7067142005E+002 
259290.363 +1.1273044486E-001 +1.6932574093E+002  +5.5872733858E-004 -6.3317950478E+001  +8.5546920352E-004 +1.1698754032E+002  +2.4009483390E-001 -1.6961926289E+002 
384435.544 +1.1458750228E-001 +1.6985294406E+002  +7.5323368524E-004 -6.2821835480E+001  +1.5299343848E-004 +7.4356531218E+001  +2.4922921309E-001 -1.6872001688E+002 
509580.726 +1.1257388841E-001 +1.7069485914E+002  +2.1802167139E-003 -1.3354973517E+002  +1.2527874822E-003 +1.4182199479E+002  +2.4294497743E-001 -1.6221977810E+002 
634725.907 +1.1763024466E-001 +1.7121307752E+002  +1.4083051884E-003 -1.0741268656E+002  +1.4230606961E-003 +3.1400742138E+001  +2.4955664213E-001 -1.6237352968E+002 
759871.089 +1.1811422195E-001 +1.7060151171E+002  +7.5012312705E-004 -5.4720462170E+001  +1.1228070006E-003 +6.1488557017E+001  +2.4469241562E-001 -1.6722124950E+002 
885016.270 +1.1984533321E-001 +1.6888264134E+002  +1.0051950461E-003 -8.0542675166E+001  +8.0789958871E-004 +1.1523636118E+002  +2.3804864699E-001 -1.6487290771E+002 
1010161.452 +1.1750613202E-001 +1.7160473451E+002  +1.7800432603E-003 +4.0380230820E+001  +3.1268342791E-003 +1.1238905403E+002  +1.9340371354E-001 -1.6634548665E+002 
1135306.633 +1.1813837730E-001 +1.7040797581E+002  +2.9108869573E-003 +1.0828957971E+001  +5.0532325699E-003 +1.6867906257E+002  +1.9182409204E-001 -1.5792585334E+002 
1260451.815 +1.1999418914E-001 +1.7294508244E+002  +3.6594310491E-003 -2.5656444086E+001  +3.4664481027E-003 +1.2376779403E+002  +2.0673487359E-001 -1.5711914160E+002 
1385596.996 +1.2556138339E-001 +1.7180164766E+002  +1.2081838195E-003 -8.1110932431E+001  +2.1250370139E-003 +1.1411886622E+002  +2.7827807555E-001 -1.5477169756E+002 
1510742.178 +1.2739219653E-001 +1.7133920398E+002  +1.6335929164E-003 -8.5309248785E+001  +1.0359767841E-003 -1.7321660185E+002  +2.5590580290E-001 -1.5651876598E+002 
1635887.359 +1.2921048580E-001 +1.7184264370E+002  +1.2864177562E-003 -1.6504683477E+000  +1.0777863407E-003 +1.6393970191E+002  +2.3169950629E-001 -1.5696436506E+002 
1761032.541 +1.2858932248E-001 +1.6926370056E+002  +1.7384749825E-003 +4.0817334410E+001  +1.9730798807E-003 -1.0743617817E+002  +2.2983164374E-001 -1.5580018127E+002 
1886177.722 +1.3170524766E-001 +1.6906836865E+002  +2.2746610913E-003 +5.6873455850E+001  +2.2528869949E-003 -8.5487425082E+001  +2.3625861316E-001 -1.6109707769E+002 
2011322.904 +1.3110448934E-001 +1.6721168721E+002  +8.2488185510E-003 +8.0382639472E+001  +8.9973097392E-003 -6.6017156536E+001  +1.7035625251E-001 -1.7056392245E+002 
2136468.085 +1.3467507012E-001 +1.6822446191E+002  +6.1125620312E-003 +4.2760015347E+001  +8.0693210168E-003 -8.6236033465E+001  +1.9180303879E-001 -1.4465680700E+002 
2261613.267 +1.2956541934E-001 +1.6835724135E+002  +9.0909542885E-003 +8.2592108949E+001  +1.3207498279E-002 -4.6270233158E+001  +1.7692227973E-001 +1.7986862988E+002 
2386758.448 +1.3435800260E-001 +1.6675856954E+002  +1.3721963809E-002 +7.2342206243E+001  +1.1999344406E-002 -5.1445809541E+001  +1.8426303596E-001 -1.7801209421E+002 
2511903.630 +1.3489060496E-001 +1.6448288056E+002  +1.1642517178E-002 +5.4281688206E+001  +1.4142888082E-002 -5.2815826524E+001  +2.1900518776E-001 -1.6041549986E+002 
2637048.811 +1.2272003096E-001 +1.6681407594E+002  +4.4897551068E-002 +7.6618702793E+001  +5.0852490358E-002 -3.7537934018E+001  +1.6917312751E-001 +1.3575251901E+002 
2762193.992 +1.1407043333E-001 +1.7011524625E+002  +7.5201497478E-002 +8.9010179164E+001  +7.9263122345E-002 -9.0067249520E+000  +4.8762423995E-001 +1.3051229060E+002 
2887339.174 +1.4028820225E-001 +1.7608692778E+002  +3.0428753434E-002 -7.0039764130E+000  +3.7209450325E-002 -1.2101451817E+002  +1.6062657482E-001 -1.2252044446E+002 
3012484.355 +1.3021819641E-001 +1.7562349275E+002  +1.7819449923E-001 -2.1441628938E+001  +2.1222723975E-001 -1.1810306623E+002  +1.0497451380E+000 -4.8196910981E+001 
3137629.537 +1.4148840712E-001 +1.6666481128E+002  +4.8512025999E-002 -2.9174677176E-001  +3.9546780106E-002 -9.1853288298E+001  +2.1897711834E-001 -7.9622261321E+001 
3262774.718 +1.2981873410E-001 +1.5828007665E+002  +6.1193365045E-002 +3.9665202686E+001  +6.9508146714E-002 -5.5737030729E+001  +5.7412864827E-002 -2.7157583486E+001 
3387919.900 +1.4635987015E-001 +1.7361546464E+002  +6.1693059996E-002 -1.9241194257E+001  +5.8208556692E-002 -1.1891324297E+002  +3.1393839431E-001 -7.0992385886E+001 
3513065.081 +1.4790550983E-001 +1.5905009861E+002  +4.3659977072E-002 +1.0752253204E+002  +4.5235143742E-002 +1.4819867241E+001  +4.1657074171E-001 +1.5212535783E+002 
3638210.263 +1.7234154628E-001 +1.4974926121E+002  +3.9972140842E-002 +1.0760869601E+002  +4.0394422346E-002 +2.6848225942E+001  +2.9408509443E-001 +1.5950853290E+002 
3763355.444 +1.5580693888E-001 +1.6301023558E+002  +4.8620008531E-002 +6.4363441302E+001  +4.4770751409E-002 -1.6939074051E+001  +2.3760768673E-001 +1.2882747328E+002 
3888500.626 +1.7508243789E-001 +1.5182925365E+002  +4.2057024965E-002 +7.1071487642E+001  +4.0205017233E-002 +8.2033714293E+000  +2.2158469461E-001 +1.5807583189E+002 
4013645.807 +1.8129872809E-001 +1.5629914004E+002  +4.6531909300E-002 +6.1071018664E+001  +5.0445028632E-002 -5.3608678190E+000  +1.2480346737E-001 +1.3924192996E+002 
4138790.989 +1.9915291408E-001 +1.5856568413E+002  +4.0342971319E-002 +5.5484643881E+001  +3.5574911228E-002 -1.0857497155E+001  +1.0853091919E-001 +1.5924040237E+002 
4263936.170 +2.1435050181E-001 +1.4740712024E+002  +7.0411250714E-002 +1.1436176354E+002  +6.7998352053E-002 +5.2079683118E+001  +4.9758745764E-001 +1.3316514328E+002 
4389081.352 +2.0946448444E-001 +1.5248306073E+002  +5.7140737430E-002 +1.1192215289E+002  +6.3318804829E-002 +5.2786382495E+001  +5.9333105173E-001 +1.4710222256E+002 
4514226.533 +2.3575001035E-001 +1.3973861019E+002  +1.9883378746E-001 +1.1709598530E+002  +1.8530412621E-001 +6.1255337089E+001  +1.2164072637E+000 +1.1374749187E+002 
4639371.715 +2.4794135329E-001 +1.2840281313E+002  +1.9632543326E-001 +9.1160361857E+001  +2.0150973805E-001 +3.2886438088E+001  +7.6727743501E-001 +8.1364069678E+001 
4764516.896 +3.3482834512E-001 +1.3808513376E+002  +3.4367278338E-001 +1.6908431132E+002  +3.1949127221E-001 +1.1963953893E+002  +2.0360232645E+000 +1.4601729226E+002 
4889662.078 +3.4919091549E-001 +1.3743264234E+002  +3.1618838573E-001 +1.7584331702E+002  +3.0469568003E-001 +1.2297567810E+002  +2.0273115365E+000 +1.5162712983E+002 
5014807.259 +2.7113884494E-001 +1.2357708974E+002  +3.8603911964E-001 +3.0579954910E+001  +4.2205093787E-001 -1.8985268818E+001  +2.1551373679E+000 -1.1283566313E+001 
5139952.441 +3.8870297385E-001 +1.3165938090E+002  +3.3186479546E-001 +1.5032564653E+002  +3.0686635515E-001 +1.1197476881E+002  +2.0177131862E+000 +1.3811702350E+002 
5265097.622 +3.9895593317E-001 +1.2905921107E+002  +2.9959290193E-001 +1.1553694772E+002  +2.8656459875E-001 +6.9213514930E+001  +1.4848350423E+000 +9.8631810117E+001 
5390242.804 +2.9180355193E-001 +1.2328482639E+002  +1.9509178419E-001 +8.9271933218E+001  +2.0355465171E-001 +5.1613246782E+001  +9.5362999775E-001 +1.1447758720E+002 
5515387.985 +3.8640655575E-001 +1.3060720361E+002  +1.8841295440E-001 +1.0772132473E+002  +1.8608700195E-001 +7.6795332661E+001  +1.1614936902E+000 +1.1976719987E+002 
5640533.166 +4.1092515161E-001 +1.3450906997E+002  +2.0146361682E-001 +1.0331347727E+002  +2.0235945931E-001 +7.1834772321E+001  +1.3595329625E+000 +1.0349649987E+002 
5765678.348 +4.6879400475E-001 +1.2446816129E+002  +2.0912698329E-001 +1.0111880211E+002  +2.0780074122E-001 +6.9344783418E+001  +1.0332696042E+000 +1.1266197821E+002 
5890823.529 +5.2822558996E-001 +1.2340477409E+002  +3.5206167492E-001 +9.1486493608E+001  +3.5216328308E-001 +6.7858328311E+001  +2.0570693903E+000 +8.0633875658E+001 
6015968.711 +5.4770624240E-001 +1.1827625148E+002  +3.6195519386E-001 +7.7403997675E+001  +3.6394859251E-001 +5.2600799566E+001  +2.0698842655E+000 +6.9181852568E+001 
6141113.892 +5.3640087973E-001 +1.1250393393E+002  +3.0279445913E-001 +6.3699958314E+001  +2.8646433951E-001 +4.2877998176E+001  +1.2717677368E+000 +6.4959598071E+001 
6266259.074 +6.5040598854E-001 +1.1094453558E+002  +3.7351653964E-001 +6.0437768244E+001  +3.4246335478E-001 +4.3690830589E+001  +1.7749889669E+000 +5.2707900947E+001 
6391404.255 +8.2662141069E-001 +9.6069726984E+001  +3.8229403166E-001 +4.5762745050E+001  +3.7553232624E-001 +2.9904058241E+001  +1.1634980847E+000 +2.3203722057E+001 
6516549.437 +8.0461076657E-001 +9.0078366610E+001  +3.5896034856E-001 +3.8098539876E+001  +3.4722949344E-001 +2.6534380680E+001  +1.1690090536E+000 +2.9706864989E+001 
6641694.618 +8.9112139763E-001 +6.5798160297E+001  +3.9768242671E-001 +2.4774333570E+001  +3.9594691833E-001 +1.2367646841E+001  +1.1108379175E+000 +1.5642915999E+001 
6766839.800 +1.0302370634E+000 +5.5264980825E+001  +3.6708194142E-001 +2.1046901124E+001  +3.8431481766E-001 +1.2374494987E+001  +9.3801748329E-001 +1.3434050730E+001 
6891984.981 +9.6381466686E-001 +4.7376766417E+001  +3.5091128930E-001 +5.7707097843E+000  +3.5569412348E-001 +1.6610667777E+000  +1.1725870789E+000 -8.7721738654E+000 
7017130.163 +1.0943628670E+000 +2.3500963579E+001  +3.5340126763E-001 +4.7379601555E+000  +3.5451651384E-001 -9.8259952511E-001  +9.0907494115E-001 -1.7439240533E-001 
7142275.344 +1.3645221728E+000 +1.4774978935E+000  +3.5684795420E-001 -1.7323158402E+000  +3.6160399568E-001 -6.2503365378E+000  +1.0030944543E+000 -1.1825874102E+001 
7267420.526 +1.1464544565E+000 +3.0585520532E-001  +3.0504944259E-001 +8.5467523114E-001  +2.8576738181E-001 +2.1282338876E+000  +1.0497500229E+000 -9.5956434817E+000 
7392565.707 +1.0603502921E+000 +5.5609252544E-001  +2.4778942756E-001 +2.8908156868E+000  +2.4066400445E-001 +3.5529832360E+000  +9.7765464884E-001 -9.0105424765E+000 
7517710.889 +8.8933319999E-001 +5.2594955930E+000  +2.1809223248E-001 +5.9269710282E+000  +2.2598153340E-001 +6.4572694109E+000  +9.4908207730E-001 -2.0124553573E+000 
7642856.070 +8.7883577679E-001 +1.6631934012E+000  +2.0987650928E-001 +2.3565282183E+000  +2.2083423084E-001 +7.4470847875E+000  +8.5173427337E-001 -8.1093751319E+000 
7768001.252 +6.4567236718E-001 +2.2822692272E+000  +2.0063893066E-001 +6.3760268739E-001  +2.0428777805E-001 +5.9344534254E+000  +8.4630167261E-001 +2.2533244129E+000 
7893146.433 +6.8994766316E-001 +1.1163975215E-001  +1.9425864539E-001 -2.2698795197E+000  +1.9562519522E-001 +5.6448604490E+000  +6.6608473486E-001 +2.5866900765E+000 
8018291.615 +5.5695318603E-001 +1.9116459494E+001  +1.8286478628E-001 -1.1308246640E+000  +1.8663965652E-001 +6.7108329195E+000  +6.1721244980E-001 +3.3233633738E+000 
8143436.796 +6.4473143971E-001 +5.4835745631E+000  +1.8868104838E-001 -7.7583325655E-001  +1.9088354529E-001 +8.1067636160E+000  +6.1604811802E-001 +4.9302725343E+000 
8268581.977 +4.6020494166E-001 +2.4119103802E+001  +1.8057181657E-001 -2.0575031960E+000  +1.7406265537E-001 +7.8063305619E+000  +6.1955499555E-001 -2.5628419059E-001 
8393727.159 +5.6168737296E-001 +1.4615600811E+001  +1.7542498361E-001 -4.3696768516E-001  +1.7141739592E-001 +1.0227214824E+001  +5.7040766026E-001 +5.1466035292E+000 
8518872.340 +5.1328677864E-001 +1.0539808845E+001  +1.7139902253E-001 -2.6020614857E+000  +1.7314259084E-001 +8.8311910862E+000  +5.3216690866E-001 +1.1887900016E+001 
8644017.522 +4.8703752729E-001 +1.5134268765E+001  +1.7162819118E-001 -2.1515691733E+000  +1.7471919471E-001 +9.6653070404E+000  +5.2662706668E-001 +3.3640917345E+000 
8769162.703 +5.1591558249E-001 +2.0349415335E+001  +1.7299434595E-001 -2.7954440933E+000  +1.7230300044E-001 +1.0632008848E+001  +4.8707781646E-001 -2.5777137423E+000 
8894307.885 +4.0135871264E-001 +1.2916349166E+001  +1.6713707834E-001 -3.6271912800E+000  +1.6778535390E-001 +1.0912604924E+001  +4.4869559275E-001 +4.7232656828E+000 
9019453.066 +4.1724222359E-001 +9.4158154916E+000  +1.6944333989E-001 -4.7088635700E+000  +1.6837697388E-001 +9.5661437467E+000  +4.3552247247E-001 +2.4740846783E+000 
9144598.248 +3.8888244911E-001 +1.0674186067E+001  +1.6649438759E-001 -4.8549657864E+000  +1.7042218461E-001 +1.1170956339E+001  +4.4568424700E-001 +6.1936560890E-001 
9269743.429 +3.9575877523E-001 +1.2423894582E+001  +1.6868715644E-001 -4.0696657494E+000  +1.6321383637E-001 +1.0983866702E+001  +5.1363284350E-001 -3.7780346155E+000 
9394888.611 +3.2857526839E-001 +1.3422345554E+001  +1.6495289469E-001 -5.3508390963E+000  +1.6496879502E-001 +1.0494821937E+001  +4.0379713015E-001 -2.0962610856E+000 
9520033.792 +3.8128057511E-001 +8.7310302683E+000  +1.6905786910E-001 -3.8038526340E+000  +1.6915889543E-001 +1.1321249217E+001  +4.7355458205E-001 +4.9792339396E-001 
9645178.974 +3.4943733175E-001 +4.1574818754E+000  +1.6953252815E-001 -5.2688699279E+000  +1.6806642025E-001 +1.1727895988E+001  +4.2456959834E-001 -2.2250109572E+000 
9770324.155 +3.7702173448E-001 +4.9638699582E+000  +1.7091085946E-001 -3.5005273437E+000  +1.6539789097E-001 +1.2462769137E+001  +4.0499832438E-001 -8.5477291640E+000 
9895469.337 +3.5986402851E-001 +7.3760916187E+000  +1.7058530559E-001 -4.6077545449E+000  +1.6907030201E-001 +1.1047926028E+001  +3.9983725730E-001 -3.5396451209E+000 
10020614.518 +3.7165008508E-001 +8.7823971726E+000  +1.6930427098E-001 -2.4840368856E+000  +1.6907138668E-001 +1.3829539169E+001  +4.3656902019E-001 -5.7910873054E+000 
10145759.700 +3.9623145524E-001 +3.7979989930E+000  +1.7316854801E-001 -2.8960019853E+000  +1.7025621313E-001 +1.2341681347E+001  +3.8014444243E-001 -4.8967695459E-001 
10270904.881 +3.8294453043E-001 +1.0649799767E+001  +1.6995686026E-001 -2.5554940474E+000  +1.6981417944E-001 +1.2674944018E+001  +4.0956647116E-001 +1.3993084955E+000 
10396050.063 +3.8401404264E-001 +1.3417987866E+001  +1.7158201185E-001 -1.7490789263E+000  +1.6943202300E-001 +1.2165364100E+001  +4.0820998297E-001 -3.3355945095E-001 
10521195.244 +3.6142067315E-001 +1.1923351264E+001  +1.7106821962E-001 -2.1040433993E+000  +1.7010712138E-001 +1.2314856179E+001  +4.1009203284E-001 +3.1122351030E+000 
10646340.426 +3.7034262014E-001 +9.1699394240E+000  +1.7317120785E-001 -2.5594376437E+000  +1.7450798142E-001 +1.2242737781E+001  +4.1873522112E-001 +1.0047914782E+000 
10771485.607 +4.0865711018E-001 +1.2178194364E+001  +1.7289239257E-001 -7.3090740693E-001  +1.7388876706E-001 +1.3217710253E+001  +4.4908027669E-001 +1.5561732501E+000 
10896630.788 +3.9672931906E-001 +1.0233934000E+001  +1.7580805994E-001 -1.1648475154E+000  +1.7398811514E-001 +1.3080964045E+001  +4.3382252369E-001 +5.0290381839E+000 
11021775.970 +4.2975730156E-001 +1.3789350412E+001  +1.7739378101E-001 -1.0785393788E+000  +1.7305073841E-001 +1.3028348064E+001  +4.0501658218E-001 +3.0746818359E+000 
11146921.151 +4.0446403161E-001 +1.0682098192E+001  +1.7999769716E-001 -4.0446719761E-001  +1.8014430075E-001 +1.2725039739E+001  +4.2609231474E-001 +1.4335052672E+000 
11272066.333 +4.1114277939E-001 +1.2831517448E+001  +1.7850211273E-001 +1.9588291414E-001  +1.7766500736E-001 +1.3042693429E+001  +4.4311671286E-001 +7.1416491235E+000 
11397211.514 +4.4389518448E-001 +1.2550748119E+001  +1.8044300378E-001 +4.4003340356E-004  +1.7876082676E-001 +1.3256333027E+001  +4.6800702943E-001 +4.1963803686E+000 
11522356.696 +4.0587134541E-001 +1.3587710525E+001  +1.8497947682E-001 +3.5520459440E-001  +1.7995359380E-001 +1.1456711504E+001  +4.6154292480E-001 +4.0466443304E+000 
11647501.877 +4.5840744911E-001 +9.5035689918E+000  +1.8396799499E-001 +2.4854086243E-001  +1.8411339665E-001 +1.2224416581E+001  +4.6164915269E-001 +5.9527235310E+000 
11772647.059 +4.6862564261E-001 +1.0293416963E+001  +1.8578993811E-001 +5.5583029824E-001  +1.8493959193E-001 +1.1213675284E+001  +4.4937254676E-001 +6.1584930067E+000 
11897792.240 +4.5058235901E-001 +6.9987290169E+000  +1.8876537890E-001 +4.4270481545E-001  +1.8805389973E-001 +1.0574950970E+001  +4.5885705876E-001 +4.8707514041E+000 
12022937.422 +4.9958889154E-001 +6.6930888720E+000  +1.8970902284E-001 +1.4836405886E+000  +1.9122314030E-001 +1.1390379641E+001  +4.8543088817E-001 +6.1677543142E+000 
12148082.603 +4.9861106027E-001 +8.0107155622E+000  +1.9222932909E-001 +1.7878535635E+000  +1.9189910580E-001 +1.0967506048E+001  +5.2538363342E-001 +4.3537727587E+000 
12273227.785 +5.0442784216E-001 +4.8597680162E+000  +1.9338960458E-001 +2.0680056686E+000  +1.9439642137E-001 +1.0996761646E+001  +5.1290100547E-001 +5.7306811840E+000 
12398372.966 +5.2114968104E-001 +5.2155400664E+000  +1.9936177754E-001 +2.3975248395E+000  +1.9636568102E-001 +1.0602833545E+001  +5.2462513797E-001 +1.9628104832E+000 
12523518.148 +5.1499500911E-001 +8.1048973113E+000  +1.9933624751E-001 +2.5350028455E+000  +1.9380288912E-001 +1.0710758386E+001  +5.3932557239E-001 +2.1758185646E+000 
12648663.329 +5.3720803618E-001 +5.4652590169E+000  +2.0157688775E-001 +2.4557850035E+000  +2.0031155980E-001 +9.8429338216E+000  +5.6036600269E-001 -9.2057740213E-001 
12773808.511 +5.4534804648E-001 +3.9495386672E+000  +2.0412660122E-001 +3.1415331526E+000  +2.0185338345E-001 +9.3815881251E+000  +5.8506104593E-001 -3.0441513217E-001 
12898953.692 +5.8903215891E-001 +1.2990142069E+000  +2.0752869382E-001 +2.8935981254E+000  +2.0681609500E-001 +8.2197888387E+000  +5.5344451784E-001 -7.7537104684E-001 
13024098.874 +5.8213581933E-001 +2.3007814441E+000  +2.0955880932E-001 +2.4052258613E+000  +2.0674450224E-001 +8.3366912833E+000  +5.7576169343E-001 -2.1066734564E-001 
13149244.055 +5.9123813823E-001 +1.1645814902E+000  +2.0910286104E-001 +3.3126543425E+000  +2.0785839143E-001 +7.6995373174E+000  +5.9711404618E-001 -1.7044926907E-001 
13274389.237 +6.2769916603E-001 +8.8248818610E-002  +2.1149344585E-001 +3.1354592163E+000  +2.1103385834E-001 +7.4081462329E+000  +6.2076460130E-001 -1.3965971769E+000 
13399534.418 +6.1117686322E-001 -1.2670733815E+000  +2.1405578210E-001 +3.5076144887E+000  +2.1280071842E-001 +7.3056027766E+000  +6.4436806667E-001 -1.4110483264E+000 
13524679.599 +6.4603983807E-001 -2.8267020422E+000  +2.1579473592E-001 +3.4173827695E+000  +2.1444651043E-001 +6.3187742643E+000  +6.7480895082E-001 -1.6396517785E+000 
13649824.781 +6.5449878100E-001 -1.6297280247E-001  +2.1717710424E-001 +3.3638212122E+000  +2.1504438592E-001 +6.0095568900E+000  +6.7138138596E-001 -3.8134436657E+000 
13774969.962 +6.7618738513E-001 -1.8920268934E+000  +2.1975672927E-001 +3.5030002840E+000  +2.1835451873E-001 +5.3193714480E+000  +6.8825578384E-001 -1.5862467417E+000 
13900115.144 +7.1779761711E-001 -6.5364918068E-001  +2.2139713482E-001 +3.9058296251E+000  +2.1809595022E-001 +5.3031102751E+000  +7.1522227398E-001 -3.8665259500E+000 
14025260.325 +6.9856372013E-001 -3.7942959266E+000  +2.2294104968E-001 +3.2701251276E+000  +2.1883015109E-001 +4.6152140682E+000  +7.1206444162E-001 -2.9494229853E+000 
14150405.507 +7.2560629983E-001 -4.4512859413E+000  +2.2502071109E-001 +3.3908482193E+000  +2.2237611036E-001 +4.0424019037E+000  +7.2847103607E-001 -3.9644542393E+000 
14275550.688 +7.5342082198E-001 -4.1779738470E+000  +2.2397913257E-001 +3.2312115917E+000  +2.2160457143E-001 +3.8857275451E+000  +7.2592744232E-001 -3.5673311456E+000 
14400695.870 +7.5688546846E-001 -5.8115982768E+000  +2.2639478682E-001 +2.6884247996E+000  +2.2304529375E-001 +3.2519102285E+000  +7.5816410520E-001 -4.5616289663E+000 
