!  2-Port S-parameters saved by WinCal
! VAR MeasName=S-Parameters (CALIBRATED_DATA) read from VNA (P5004A)
! VAR MeasDate=28/08/2024 10:25:40
! VAR NAME=S2_r4c9_RESET2_9k-100M_2
! VAR FILENAME=S2_r4c9_RESET2_9k-100M_2.S2P
! VAR DATE=28/08/2024 10:25:40
! VAR PHYS_PORTS=1,2
! VAR ObjTypeName=DATASET
! VAR IndexType=Frequency
!
# Hz S MA R 50
9000.000 +9.7690479765E-002 -1.6832204298E+002  +3.6835065548E-003 -1.5316135956E+002  +7.3322635889E-003 -1.4519274113E+002  +2.6287754594E-001 -1.3568868042E+002 
134145.181 +1.1148134482E-001 +1.6925587084E+002  +3.0411688631E-004 -1.0710809628E+001  +6.6904267312E-004 +1.5802393733E+002  +2.4381209872E-001 -1.7087275675E+002 
259290.363 +1.1259677292E-001 +1.6986767404E+002  +1.0017523806E-003 -3.3479063755E+001  +1.6386599550E-004 -1.3710907168E+002  +2.3933483277E-001 -1.6888168813E+002 
384435.544 +1.1422755295E-001 +1.7011683156E+002  +2.0037842222E-004 +1.4169161954E+002  +6.2394648526E-004 -1.3852728632E+002  +2.3629756539E-001 -1.6870031343E+002 
509580.726 +1.1485947323E-001 +1.7055743771E+002  +1.4548609467E-003 -2.6059657898E+001  +2.7444492989E-004 +9.7023427571E-001  +2.3151023956E-001 -1.6176256655E+002 
634725.907 +1.1859842580E-001 +1.7271551438E+002  +1.1976696975E-003 -5.5757670392E+000  +5.2014565543E-004 -1.7492834252E+002  +2.4903776988E-001 -1.6589367419E+002 
759871.089 +1.2035518457E-001 +1.7046838036E+002  +4.3739767528E-004 +3.8973224574E+001  +5.0461846890E-004 -8.1979395014E+001  +2.5028936912E-001 -1.6450172046E+002 
885016.270 +1.2089482054E-001 +1.6962851737E+002  +4.0840105765E-004 -4.1103401181E+001  +2.0880821055E-004 -1.2143067577E+002  +2.4544561263E-001 -1.6577846253E+002 
1010161.452 +1.1794856067E-001 +1.7050357281E+002  +8.4823654468E-004 +5.3586574608E+001  +6.7865199461E-004 +2.2394224381E+001  +2.2245481970E-001 -1.6714824282E+002 
1135306.633 +1.1570164613E-001 +1.6949109593E+002  +1.5086230849E-003 -1.0944331395E+002  +3.4226370300E-003 +2.0555276549E+001  +1.9426147224E-001 -1.5862021630E+002 
1260451.815 +1.2012172249E-001 +1.7180811873E+002  +1.2391763815E-003 -5.8917500056E+001  +6.5574936915E-004 +3.5793341632E+001  +2.3501540458E-001 -1.6138271594E+002 
1385596.996 +1.2545079765E-001 +1.7130357063E+002  +8.4153537378E-004 +7.7930353352E+001  +8.2864259297E-004 -3.1380958432E+001  +2.6924327594E-001 -1.5983734727E+002 
1510742.178 +1.2855779183E-001 +1.7153813276E+002  +7.5888930235E-004 -1.0058504678E+002  +2.1873971749E-004 +1.6890779823E+002  +2.5475827895E-001 -1.5956297060E+002 
1635887.359 +1.2870845268E-001 +1.7049464684E+002  +6.3028824597E-004 +9.2370168877E+001  +3.4289706449E-004 +1.5881782051E+002  +2.4929050176E-001 -1.5656881135E+002 
1761032.541 +1.2933326353E-001 +1.7057188231E+002  +9.3609555019E-004 -9.7174991047E+001  +1.5298653054E-003 +1.1231475375E+001  +2.3705890092E-001 -1.5815088196E+002 
1886177.722 +1.2674922961E-001 +1.6932543238E+002  +1.0632877429E-003 -5.4555142992E+001  +7.1186847725E-004 -8.2927099649E+001  +2.3592983709E-001 -1.5946244925E+002 
2011322.904 +1.2741120305E-001 +1.6684368952E+002  +2.7177303765E-003 +4.6048797999E+001  +4.8910606670E-003 -1.2289209970E+002  +1.5068723413E-001 -1.6700031015E+002 
2136468.085 +1.2889691591E-001 +1.6793960001E+002  +3.6735412051E-003 +1.0305263352E+002  +3.2489222492E-003 -8.1090328757E+001  +1.8294925446E-001 +1.6705603446E+002 
2261613.267 +1.3337543306E-001 +1.6502061653E+002  +7.1101200696E-004 +1.2763169157E+002  +1.9277927847E-003 +3.5015087510E+001  +1.4641509417E-001 +1.7366478725E+002 
2386758.448 +1.3484711832E-001 +1.6360840455E+002  +7.3666426492E-003 +5.4063735158E+001  +7.7390068909E-003 -6.2305550809E+001  +2.1640850545E-002 -1.3361258579E+002 
2511903.630 +1.1606793715E-001 +1.5940252671E+002  +5.2506266970E-003 -5.6122173773E+000  +5.4448200567E-003 -2.5093344565E+001  +2.1163509762E-001 +1.5229178660E+002 
2637048.811 +1.2558581656E-001 +1.6115626261E+002  +1.8222924242E-002 +8.9675447895E+001  +7.2765137194E-003 -1.3265851494E+002  +3.2785073632E-001 -2.7698400537E+001 
2762193.992 +1.0844089186E-001 +1.7790978729E+002  +2.9692758232E-002 +8.3137026432E+001  +1.6939121092E-002 +1.7269873742E+002  +2.5465827186E-001 +4.6394263319E+001 
2887339.174 +1.1523431563E-001 +1.6747099621E+002  +2.5541060440E-002 -3.5712309180E+001  +1.4278749207E-002 -1.7619577260E+002  +7.4635209929E-001 -9.5178499611E+001 
3012484.355 +9.6641812773E-002 +1.6272207399E+002  +1.9204784371E-002 -9.6425710419E+000  +1.1819322944E-002 +4.3034264496E+001  +7.2208712030E-001 -1.2598586558E+002 
3137629.537 +1.0957126500E-001 +1.7429116337E+002  +8.3992869791E-003 +1.3433082377E+002  +5.9734613146E-003 -1.4677276768E+002  +2.2767126686E-001 -6.3171132378E+001 
3262774.718 +1.3746500824E-001 +1.7179830014E+002  +4.8985931481E-002 +2.1897865414E+001  +1.3909094648E-002 +1.1407340269E+002  +1.6769135027E+000 -5.1012771721E+001 
3387919.900 +1.4847682761E-001 +1.6363296130E+002  +3.8341173611E-003 +8.8638995325E+001  +1.9102711327E-003 -6.0287810724E+001  +2.2595427476E-001 -9.3540715242E+001 
3513065.081 +1.3876350516E-001 +1.5591078664E+002  +4.1432290941E-003 -1.5629977346E+001  +7.5280699578E-003 +9.1572743805E+001  +3.4391153129E-001 +1.3044392469E+002 
3638210.263 +1.8152781452E-001 +1.4382160464E+002  +6.1319623162E-003 +1.1211489788E+002  +6.9326448795E-003 -7.1285615661E+001  +2.9613912916E-001 +1.3503697816E+002 
3763355.444 +1.3265259234E-001 +1.4063372146E+002  +1.4129954124E-002 +1.5492830422E+001  +2.1111019605E-002 +7.7227597656E+001  +8.4471984838E-001 +1.3024681318E+002 
3888500.626 +1.9438389823E-001 +1.4132801619E+002  +7.6518746637E-003 +1.5562057745E+002  +1.4075093571E-002 +6.7162421071E+001  +2.7667154752E-001 +9.9835327415E+001 
4013645.807 +1.9222723581E-001 +1.4624022480E+002  +3.0548175152E-002 +1.5702457656E+001  +3.5621087445E-002 +2.0397465400E+001  +1.3320754711E+000 +6.5701679360E+001 
4138790.989 +1.8848519719E-001 +1.5193274415E+002  +6.4019454435E-003 +1.0203138524E+002  +4.2542607275E-003 +1.3678452253E+000  +3.1959473404E-001 +1.2047611450E+002 
4263936.170 +1.8622411651E-001 +1.4247066929E+002  +1.7620873521E-003 +4.7551088761E+001  +1.4486242323E-002 +2.8238675465E+001  +3.9911259945E-001 +1.0647435115E+002 
4389081.352 +2.1756577042E-001 +1.3473145603E+002  +1.8434151890E-002 -1.4191332516E+002  +4.1997837201E-003 +4.3896446024E+001  +6.0186107548E-001 +7.3971468589E+001 
4514226.533 +2.3731674587E-001 +1.4308195262E+002  +2.1290410969E-002 -6.7856449400E+001  +4.0524983795E-002 +1.0844969245E+001  +2.5263379677E+000 +6.0713669400E+001 
4639371.715 +2.7034858490E-001 +1.2112187380E+002  +1.3973251648E-002 +1.4378560968E+002  +3.9298302672E-002 +7.3839047882E+001  +1.7180629401E+000 +1.2620414172E+002 
4764516.896 +3.5673371089E-001 +1.1666785118E+002  +1.5676561751E-001 -1.5990832229E+002  +1.4849353256E-001 -1.7056739632E+002  +6.0879153577E+000 -1.2312035510E+002 
4889662.078 +4.2087878581E-001 +1.3189193247E+002  +4.4703553658E-002 -7.6438862933E+000  +3.9596822087E-002 -9.2232947411E+001  +2.4865574333E+000 -1.1103365316E+002 
5014807.259 +4.5489877823E-001 +1.3266077990E+002  +3.0385181190E-002 -1.5968811702E+002  +2.2794828551E-002 -1.5374297911E+002  +1.6816879134E+000 +8.9613067331E+001 
5139952.441 +3.4153025075E-001 +1.3095633867E+002  +2.7123887469E-002 -7.3949915478E+001  +2.0928541990E-002 -3.4474760156E+001  +3.0548281967E+000 -9.1447043650E+001 
5265097.622 +3.4249040014E-001 +1.3348050340E+002  +1.5259787407E-001 -5.9842025503E+001  +2.6044736915E-001 -8.4420056870E+001  +2.1080976744E+001 -7.0563522725E+001 
5390242.804 +3.6843469586E-001 +1.3081238894E+002  +1.2567564916E-002 +8.1485229948E+001  +2.1108122084E-002 +1.0812308447E+002  +1.1977393374E+000 +5.6929873066E+001 
5515387.985 +3.8115959412E-001 +1.2595281556E+002  +3.8151527571E-002 +6.5131394258E+001  +2.4135777815E-002 -2.8942394070E+001  +1.7388933649E+000 +3.1465119212E+001 
5640533.166 +4.0502685601E-001 +1.2942146194E+002  +2.5750716969E-002 +4.7482987059E+001  +3.2018403634E-002 +1.0892993550E+002  +2.4155508947E+000 +7.7302529584E+001 
5765678.348 +4.7639362768E-001 +1.1779430391E+002  +1.9543639011E-002 +1.4945107547E+002  +1.7188094367E-002 +4.5268034174E+001  +3.0417440892E+000 +4.7358726204E+001 
5890823.529 +5.7205802524E-001 +1.1783624409E+002  +4.5369834667E-002 +9.0150933461E+001  +3.7419644868E-002 +4.8115124938E+001  +2.4899613367E+000 +5.5067841902E+001 
6015968.711 +6.4914172317E-001 +1.1098735984E+002  +1.4351140584E-002 +1.1345752438E+002  +2.3526138030E-002 +6.6647961997E+001  +2.5825341248E+000 +5.0015541049E+001 
6141113.892 +7.8392435906E-001 +1.0445074613E+002  +3.5209208006E-002 +6.5742641758E+001  +4.6526020295E-003 +1.8935653643E+001  +1.6741100896E+000 +3.0645145264E+001 
6266259.074 +8.5309369206E-001 +1.0640279137E+002  +5.8488693449E-002 +5.4182478932E+001  +1.4902715800E-002 -1.2666407643E+002  +1.5946176394E+000 +1.4143759030E+001 
6391404.255 +1.2204958358E+000 +1.1065191622E+002  +1.9837472553E-002 +3.4660357490E+001  +4.7584070526E-002 +5.6696987174E+001  +1.3605464916E+000 +7.3296003513E+000 
6516549.437 +1.3040663011E+000 +7.1874010094E+001  +1.2286860957E-002 +1.1336239942E+002  +1.8479113460E-002 +9.3059468926E+001  +1.2957363761E+000 +1.4920156073E+001 
6641694.618 +1.6581077558E+000 +7.7747776741E+001  +5.4140212834E-002 +1.0243090469E+002  +1.9391106595E-002 +4.1926636779E+001  +1.2370830498E+000 +3.0782522547E-001 
6766839.800 +1.8672597206E+000 +4.0781231253E+001  +6.2478370617E-002 +4.6091073036E+001  +1.0383107379E-002 +1.1935331913E+002  +1.2199782792E+000 -1.1618398210E+001 
6891984.981 +2.0060176094E+000 +4.1315216197E+001  +2.7910092630E-002 +1.2847220394E+001  +2.5937504831E-002 +1.3105369287E+001  +1.3921661170E+000 -8.0977277164E+000 
7017130.163 +1.4512273814E+000 +1.1617547538E+001  +1.9897604606E-002 +9.7650490700E+000  +2.4019874003E-002 +1.5371537648E+001  +1.2861114740E+000 -1.3109671458E+001 
7142275.344 +1.5846668641E+000 +1.5417859737E+001  +1.2287242637E-002 +2.6474917785E+001  +1.1815801908E-002 +3.4221165705E+001  +1.2406946734E+000 -1.1888707019E+001 
7267420.526 +1.3759938079E+000 +4.6621137847E+000  +1.9232343944E-002 +3.0574117936E+001  +1.1464012098E-002 -3.0580201267E+000  +1.2898897187E+000 -1.1096444331E+001 
7392565.707 +1.2142818889E+000 +1.6492715332E+000  +7.8235815542E-003 +5.3414832732E+001  +2.1800109423E-002 +1.0639755209E+001  +1.4228024881E+000 -8.8035185787E+000 
7517710.889 +1.1358014345E+000 +2.8462888843E+000  +5.7781012727E-003 -4.2129343799E+001  +1.8968868562E-002 +2.7777404307E+001  +1.2880988577E+000 -6.0599418378E+000 
7642856.070 +1.1710996748E+000 +2.8589236176E+000  +1.0193989460E-002 +5.1850986333E+001  +1.1152731903E-002 +1.7383841879E+001  +1.0749465171E+000 -6.7211312312E+000 
7768001.252 +1.0412866841E+000 +2.4334101441E+000  +4.3525766376E-003 +1.1788717932E+001  +1.7196736782E-002 +3.8699179709E+001  +9.8559067189E-001 -5.4888748116E+000 
7893146.433 +8.6339038954E-001 -6.6069746217E-001  +1.3556129606E-002 +1.1482843383E+001  +7.7110372604E-003 -1.0840037279E+001  +9.1500291752E-001 -5.2453963042E+000 
8018291.615 +8.7508679843E-001 +3.1293285158E+000  +1.3616150805E-002 +2.9837333142E+001  +8.9010152214E-003 +2.3916814726E+001  +8.4019417964E-001 +6.2447254662E-001 
8143436.796 +8.3314588293E-001 +7.1039544261E+000  +8.4143239101E-003 -2.1398874557E+000  +1.2756979162E-002 +1.5214964323E+001  +7.4060982157E-001 -1.2533872624E+000 
8268581.977 +7.1786427797E-001 +6.7814641822E+000  +9.8537319393E-003 +1.1378636311E+001  +1.2851539694E-002 +4.4370390616E+001  +7.3114666019E-001 +1.8166692500E+000 
8393727.159 +7.1197722644E-001 +6.7333891145E+000  +1.1515373997E-002 +2.6211121252E+001  +1.0849071677E-002 +2.4467763057E+001  +7.4964444877E-001 -1.4334418353E+000 
8518872.340 +6.8805556654E-001 +2.5487786625E+000  +5.4176603763E-003 +4.9597712503E+000  +8.1745645380E-003 +4.8478377547E+001  +6.8497060580E-001 +2.0736810546E+000 
8644017.522 +6.5467117210E-001 +1.1689555673E+001  +8.5375002783E-003 +3.7551325685E+001  +5.2337339106E-003 +9.8696112152E+001  +6.6910013754E-001 +1.4710164030E+000 
8769162.703 +6.2515164215E-001 +3.0451710373E-001  +1.0342774418E-002 +2.1314517552E+001  +7.3038130139E-003 +5.9846132370E+001  +6.1176037929E-001 -4.2549975277E-001 
8894307.885 +5.8283745913E-001 +7.2500104499E+000  +4.1307652513E-003 +1.4712675995E+001  +8.0957885513E-003 +1.7479792212E+001  +6.4514848229E-001 +8.0354813756E-001 
9019453.066 +5.8517310866E-001 +7.1286436708E+000  +1.3443622400E-002 +2.5994609841E+001  +6.6141615178E-003 +1.8154219069E+001  +6.1583125610E-001 -3.2404831302E+000 
9144598.248 +5.6165519082E-001 +7.2678058136E+000  +1.1238685061E-002 +4.0164586337E+001  +5.6879153419E-003 +2.6830046751E+001  +6.1674594923E-001 -2.1609232518E-003 
9269743.429 +5.8574220905E-001 +3.8830489598E+000  +8.9202601277E-003 +5.2557982370E+000  +1.1105435004E-002 +4.3454472185E+001  +6.4747989810E-001 -1.1476540328E+000 
9394888.611 +5.6549391827E-001 +6.4611619859E+000  +8.4153394684E-003 +4.4863834519E+001  +9.0942826523E-003 +3.2543518523E+001  +6.0360841560E-001 -3.1730877774E+000 
9520033.792 +5.4790968081E-001 +6.3006109132E+000  +7.3602841199E-003 +3.3749062728E+001  +8.9464959634E-003 +4.2848334586E+001  +5.9991717792E-001 -4.2157066060E+000 
9645178.974 +5.3355839367E-001 +5.5661773901E+000  +8.0935736128E-003 +2.2447888057E+001  +7.3952978364E-003 +3.0514547397E+001  +6.2350746409E-001 -3.1997717894E+000 
9770324.155 +5.3971377869E-001 +7.7374067900E-001  +7.4258249453E-003 +2.4926898021E+001  +5.3976621033E-003 +1.4148831326E+000  +6.1183488089E-001 -8.1964430432E+000 
9895469.337 +5.4654786280E-001 -2.8358879254E+000  +1.0189812758E-002 +1.2421252467E+001  +8.8035611254E-003 +5.0050626565E+001  +5.7779842367E-001 -4.0715709402E+000 
10020614.518 +5.5552719285E-001 +3.9682513359E+000  +7.8680919595E-003 +3.1279492690E+001  +1.0018035703E-002 +4.4368761125E+001  +6.0066220907E-001 -6.8835193883E+000 
10145759.700 +5.6427055249E-001 +5.7075859555E+000  +1.1630155108E-002 +2.3717591396E+001  +1.0074172570E-002 +4.5358568352E+001  +5.8066355045E-001 -2.9203757204E+000 
10270904.881 +5.4114425576E-001 +8.2938254575E+000  +8.2385984618E-003 +1.9977129385E+001  +9.1964855340E-003 +6.6722444926E+001  +5.4857799429E-001 -5.8338776045E+000 
10396050.063 +5.6822710375E-001 +6.8206862537E+000  +1.0201096451E-002 +3.4075179445E+001  +8.8246202591E-003 +5.5670246283E+001  +5.8403227898E-001 -2.3114861404E+000 
10521195.244 +5.7857627450E-001 +6.1658090130E+000  +9.6098280320E-003 +1.9552364313E+001  +9.4121251258E-003 +4.2775209358E+001  +5.9491681302E-001 -2.5889776072E+000 
10646340.426 +5.3510789002E-001 +3.8158629496E+000  +8.1995203918E-003 +2.1113059576E+001  +7.2770519011E-003 +1.8169921670E+001  +5.7281423050E-001 -1.7429134428E+000 
10771485.607 +5.7970837250E-001 +5.0954524827E+000  +1.0339547038E-002 +4.1025196536E+001  +1.0024096975E-002 +3.3230968235E+001  +6.0482146711E-001 +2.5412757573E+000 
10896630.788 +5.8093999359E-001 +8.1417718751E+000  +7.8164289243E-003 +2.5451867542E+001  +7.6071723211E-003 +5.8252742881E+001  +5.9873854166E-001 +1.5943482226E+000 
11021775.970 +5.7216232004E-001 +7.1406351435E+000  +9.2237070007E-003 +1.9882669399E+001  +7.4308419914E-003 +5.6909206044E+001  +5.9463911255E-001 -1.9172392575E+000 
11146921.151 +5.8346460973E-001 +7.8221886755E+000  +8.3215913131E-003 +2.9188126516E+001  +8.6352589399E-003 +4.0554209792E+001  +6.0698558922E-001 +1.3546962865E+000 
11272066.333 +5.9293830772E-001 +6.2778395096E+000  +1.0586292581E-002 +2.2827077044E+001  +9.7711353514E-003 +4.6850325274E+001  +6.4251052756E-001 +1.8947802235E+000 
11397211.514 +6.1521838999E-001 +5.5049773081E+000  +9.1588289389E-003 +2.9949534247E+001  +1.0963239088E-002 +4.2034643672E+001  +6.2873942793E-001 +2.5081254458E+000 
11522356.696 +6.3721825690E-001 +8.2847711953E+000  +8.3282340241E-003 +2.1430525998E+001  +1.0516401756E-002 +4.1530310372E+001  +6.4880665321E-001 +4.5376341302E-001 
11647501.877 +6.0934944840E-001 +8.7287851960E+000  +8.2413688254E-003 +2.7388851400E+001  +1.0499622419E-002 +5.5502837007E+001  +6.3947576890E-001 +8.6375327758E-001 
11772647.059 +6.4760166899E-001 +5.6582247690E+000  +8.5706613422E-003 +3.5045391641E+001  +1.0700269208E-002 +4.4825952863E+001  +6.4541437429E-001 -9.7549684904E-001 
11897792.240 +6.6670303036E-001 +4.9497233530E+000  +9.0793288742E-003 +4.4348544467E+001  +1.0706926581E-002 +4.6512510684E+001  +6.7497477690E-001 -1.6617229641E-001 
12022937.422 +6.6730954868E-001 +3.9636311035E+000  +9.7608691896E-003 +4.3312541991E+001  +9.8797940312E-003 +3.1980450008E+001  +6.7805770928E-001 +1.8473713962E+000 
12148082.603 +7.0001484376E-001 +2.3762901301E+000  +9.1219672371E-003 +2.9134699039E+001  +1.0018737888E-002 +4.0458883466E+001  +6.8036322072E-001 -1.9588953270E-001 
12273227.785 +7.0704645886E-001 +4.3201453495E+000  +1.0876743572E-002 +2.8770384009E+001  +9.2819792022E-003 +3.0714298163E+001  +7.1438009642E-001 +7.6245022541E-001 
12398372.966 +6.9231344786E-001 +3.0360873576E+000  +1.0502587932E-002 +2.9666887382E+001  +1.0361203095E-002 +3.4918218901E+001  +7.1952567120E-001 -1.6258756879E-001 
12523518.148 +7.1254368605E-001 +2.4609405521E+000  +8.7549923655E-003 +4.0762300209E+001  +9.9593947430E-003 +4.0583578028E+001  +7.3199896998E-001 +2.7600921316E+000 
12648663.329 +7.5029340280E-001 +1.7059845951E+000  +1.0990412565E-002 +3.5367530641E+001  +1.1026515264E-002 +3.8444005625E+001  +7.2569442966E-001 +2.5400461782E-002 
12773808.511 +7.5765870467E-001 +1.4479320404E+000  +1.0979456511E-002 +3.5960396790E+001  +1.1625461345E-002 +4.0196802304E+001  +7.6777456285E-001 -7.0122152452E-001 
12898953.692 +7.7319180925E-001 +7.7911559301E-002  +1.0721663978E-002 +3.1788946426E+001  +1.1055917801E-002 +4.2229153130E+001  +7.7949764396E-001 -3.0089972670E-001 
13024098.874 +7.7197713511E-001 -4.6040386426E-001  +1.0336846102E-002 +3.4983181932E+001  +9.9775710049E-003 +3.6942029366E+001  +7.9541965092E-001 -2.0543665815E+000 
13149244.055 +8.0852119758E-001 +5.9595658221E-001  +1.0981378572E-002 +3.9022098044E+001  +1.2504476588E-002 +4.0633546130E+001  +8.1503070371E-001 -1.1694472392E+000 
13274389.237 +8.0443285508E-001 +8.9885908172E-001  +1.0909689451E-002 +3.3214620007E+001  +1.1844389303E-002 +4.2677585866E+001  +8.3091772205E-001 -3.2445006172E+000 
13399534.418 +8.2478623340E-001 -1.2688037368E+000  +1.1633319861E-002 +3.2228204679E+001  +1.1612306135E-002 +4.1441063238E+001  +8.5083604961E-001 -3.1275365454E+000 
13524679.599 +8.5291625454E-001 -1.2450241794E+000  +1.0084545895E-002 +4.0593877781E+001  +1.1594339403E-002 +4.1974744767E+001  +8.7165167190E-001 -1.8150757343E+000 
13649824.781 +8.8298064962E-001 -1.6660068491E+000  +1.1881551526E-002 +3.1510359851E+001  +1.1823488216E-002 +4.6061614120E+001  +8.6761839970E-001 -2.8248819834E+000 
13774969.962 +8.8867178223E-001 -3.7043733289E+000  +1.2229620715E-002 +4.3470771512E+001  +1.2662829078E-002 +3.9159193574E+001  +9.1485836868E-001 -3.7929352198E+000 
13900115.144 +8.9035608541E-001 -3.5672450777E+000  +1.2814991276E-002 +3.0113105189E+001  +1.3094139662E-002 +4.0487775571E+001  +9.0597635258E-001 -3.1351890608E+000 
14025260.325 +9.0882686885E-001 -3.1371224119E+000  +1.4428909389E-002 +2.9763246890E+001  +1.1939446585E-002 +4.1491034103E+001  +9.2370858943E-001 -4.2095948978E+000 
14150405.507 +9.0655346228E-001 -5.4286735521E+000  +1.3570024461E-002 +3.9782844770E+001  +1.1881644192E-002 +3.5899456741E+001  +9.6050045619E-001 -5.0355693720E+000 
14275550.688 +9.6217619348E-001 -4.0322905103E+000  +1.0776766014E-002 +4.1667828674E+001  +1.1668657382E-002 +3.5707517737E+001  +9.6914259516E-001 -4.2518539405E+000 
14400695.870 +9.6072720215E-001 -5.2776742063E+000  +1.2933469922E-002 +3.7510425897E+001  +1.1276511009E-002 +3.4276488805E+001  +9.6903543757E-001 -4.9812969383E+000 
