!  2-Port S-parameters saved by WinCal
! VAR MeasName=S-Parameters (CALIBRATED_DATA) read from VNA (P5004A)
! VAR MeasDate=28/08/2024 10:40:47
! VAR NAME=S2_r5c9_formed_9k-100M_3
! VAR FILENAME=S2_r5c9_formed_9k-100M_3.S2P
! VAR DATE=28/08/2024 10:40:47
! VAR PHYS_PORTS=1,2
! VAR ObjTypeName=DATASET
! VAR IndexType=Frequency
!
# Hz S MA R 50
9000.000 +9.1696242849E-002 -1.7538885671E+002  +4.9319796009E-003 +5.0906436585E+001  +6.3518429601E-003 -7.8697223210E+001  +2.4520096039E-001 -1.3788646398E+002 
134145.181 +1.1131496000E-001 +1.6940474150E+002  +4.0453916387E-004 -4.7090774708E+001  +4.8474730934E-004 -1.6146713202E+002  +2.3902070277E-001 -1.7091468818E+002 
259290.363 +1.1175869335E-001 +1.6963616047E+002  +6.5920127186E-004 +1.3822398023E+002  +7.7474205045E-004 -1.7023362626E+001  +2.4464991760E-001 -1.6723914333E+002 
384435.544 +1.1459069266E-001 +1.6994695439E+002  +4.8173509931E-004 +1.4536970595E+002  +5.1781336504E-004 +5.4569546535E+001  +2.3998733523E-001 -1.6833747851E+002 
509580.726 +1.1609873948E-001 +1.7088395943E+002  +1.2086803890E-003 -8.0286745398E+001  +9.0890173255E-004 +1.5281832246E+002  +2.5342394324E-001 -1.6485757239E+002 
634725.907 +1.1808601561E-001 +1.7158125324E+002  +4.1837408808E-004 -3.9384200689E+001  +2.5327347886E-004 +8.0992076087E+001  +2.5670410732E-001 -1.6748716825E+002 
759871.089 +1.1952675667E-001 +1.7104863210E+002  +5.7252614115E-004 -1.1259723691E+002  +5.8862709069E-004 -1.6263721050E+002  +2.5195173032E-001 -1.6563459087E+002 
885016.270 +1.2254326131E-001 +1.7005899187E+002  +2.4010137565E-004 +1.6338178517E+002  +2.5182824115E-004 +1.1179192208E+002  +2.4565577877E-001 -1.6540471676E+002 
1010161.452 +1.1753786386E-001 +1.6962267737E+002  +3.6285996700E-004 -5.5109946142E+001  +5.6656577214E-004 -7.3899008057E+001  +2.0676060315E-001 -1.6946434503E+002 
1135306.633 +1.1764910106E-001 +1.6891954109E+002  +1.4000959664E-003 -5.0558158393E+001  +1.0677266100E-003 -1.5142494253E+002  +2.0678700894E-001 -1.6559687570E+002 
1260451.815 +1.1973209612E-001 +1.7084709435E+002  +2.3630787978E-003 -8.5985712738E+001  +2.1860990447E-003 +1.1849333811E+002  +2.2859977624E-001 -1.6233717652E+002 
1385596.996 +1.2724001945E-001 +1.7221323229E+002  +8.1614873225E-004 +2.2171426481E+001  +8.1569609757E-004 -4.8891716381E+001  +2.4939560772E-001 -1.5617305343E+002 
1510742.178 +1.2951725738E-001 +1.7160655706E+002  +9.8952509868E-004 +1.0576629576E+002  +1.3531357700E-003 +6.1454279918E+001  +2.5850993017E-001 -1.5769809462E+002 
1635887.359 +1.2982706015E-001 +1.7194595381E+002  +1.0538833936E-003 -1.0398892628E+002  +1.6910879419E-004 -1.3355011281E+002  +2.4984605718E-001 -1.5478177808E+002 
1761032.541 +1.2751703304E-001 +1.6956594361E+002  +9.3322643472E-004 -1.2847663566E+002  +8.3124392222E-004 -8.4449724330E+001  +2.1957037215E-001 -1.6014619468E+002 
1886177.722 +1.2702595366E-001 +1.6739661857E+002  +1.7876861602E-003 +6.4464607278E+001  +1.0076327366E-003 -9.9497767136E+001  +2.4113004681E-001 -1.5865157473E+002 
2011322.904 +1.2877560662E-001 +1.6943783058E+002  +1.5240738121E-003 +1.4095034209E+002  +4.7028488079E-003 -1.1667154572E+002  +1.9602142800E-001 -1.6546721567E+002 
2136468.085 +1.2628541195E-001 +1.6551440125E+002  +1.9375184216E-003 +1.0238536388E+002  +3.0205146042E-003 -5.7648354779E+000  +1.3604824456E-001 +1.7655953396E+002 
2261613.267 +1.1837610460E-001 +1.6979930942E+002  +4.8519676620E-003 +1.3507673564E+002  +4.4128631771E-003 -1.0681414615E+002  +2.8798017660E-001 +1.6099949669E+002 
2386758.448 +1.2569688863E-001 +1.6749184875E+002  +3.8167971347E-003 +8.8524583292E+001  +1.4472432328E-003 +6.5433035865E+001  +2.7408672634E-001 +1.6917113357E+002 
2511903.630 +1.3715059925E-001 +1.6289661518E+002  +3.6983831200E-003 +4.5056102169E+001  +9.7829214025E-004 +3.0876774655E+000  +2.2344502451E-001 +1.7693982783E+002 
2637048.811 +1.1274366404E-001 +1.5657323282E+002  +2.4194893219E-003 -3.9624976534E-001  +1.0049792051E-002 +1.7849306248E+002  +1.6543826291E-001 +1.7318766225E+002 
2762193.992 +1.0862901986E-001 +1.7380427168E+002  +9.9811709830E-003 -1.2774364130E+002  +3.0353429623E-003 -1.6874873301E+002  +2.8026837560E-001 -8.4801006936E+001 
2887339.174 +1.0962639491E-001 +1.6291765314E+002  +4.4175796127E-003 +1.6351474341E+002  +1.0915254994E-002 -1.1700751735E+002  +1.0428494576E-001 -1.2762883114E+002 
3012484.355 +1.3549744640E-001 +1.7463902185E+002  +9.1800456078E-003 -8.9408131621E+001  +1.1984157440E-002 -9.2489944141E+001  +3.6852585085E-001 -9.7536034611E+001 
3137629.537 +1.1880003900E-001 +1.7043438208E+002  +1.2769935682E-003 -3.5942394251E+001  +1.6691970550E-002 -6.5376797144E+001  +1.5681453327E-001 +4.2388266737E+001 
3262774.718 +1.3255763434E-001 +1.6458469278E+002  +3.7942939902E-003 +4.6271920835E+001  +4.3679682270E-003 -7.2964273233E+001  +9.8075391837E-002 -1.0351388220E+002 
3387919.900 +1.2566073437E-001 +1.5946175794E+002  +2.3075024253E-002 -1.5511662438E+001  +1.0849289647E-002 -9.6290412178E+000  +4.2945726895E-001 +6.8416247792E+000 
3513065.081 +1.5260841664E-001 +1.5049504436E+002  +8.3859394876E-003 +1.0160992250E+002  +1.2998997268E-002 -7.2683251552E+001  +2.5725251163E-001 +7.9012793036E+001 
3638210.263 +1.5525854047E-001 +1.4731869758E+002  +6.1961276733E-003 +6.0536931392E+001  +7.2971829882E-003 +1.5301846828E+001  +3.4360026932E-001 +1.4279765878E+002 
3763355.444 +1.5194093306E-001 +1.5163274206E+002  +1.6998083604E-002 +1.2097996964E+002  +1.1829879958E-003 -2.5873497014E+001  +5.0158489803E-001 +1.3488281471E+002 
3888500.626 +1.4980383489E-001 +1.5497559015E+002  +5.7852361823E-003 +1.3428079370E+002  +9.4892418551E-003 +3.5777142126E+001  +2.0784464138E-001 +1.3992692419E+002 
4013645.807 +1.4601210507E-001 +1.4573273279E+002  +1.7021762839E-002 -1.3334347615E+002  +2.2387131851E-002 -9.8999136788E+000  +1.7607830741E-001 +8.4025584862E+001 
4138790.989 +1.8795843160E-001 +1.4481243937E+002  +9.3237777760E-003 +6.6473688645E+001  +9.8279145107E-003 +4.3270410507E+001  +3.4296064404E-001 +1.3623115139E+002 
4263936.170 +1.6346248952E-001 +1.5071812970E+002  +9.2877047355E-003 +4.3900342792E+001  +4.4115025181E-003 -3.4981026323E+001  +3.4836681755E-001 +1.1384240271E+002 
4389081.352 +1.8907617265E-001 +1.4034088215E+002  +2.7428032086E-002 +1.4172213927E+002  +4.0844072690E-002 +5.3692554993E+001  +1.0290897125E+000 +1.2713584524E+002 
4514226.533 +2.1359930753E-001 +1.1966407659E+002  +3.9273969132E-002 +9.7437957198E+001  +2.2614017456E-002 -9.3639680806E+000  +1.0404826374E+000 +1.0709969915E+002 
4639371.715 +2.9946362897E-001 +1.4065531640E+002  +9.4710680331E-002 +1.2728339118E+002  +5.0133781944E-002 +1.0458771275E+002  +2.9708178877E+000 +9.6003050087E+001 
4764516.896 +2.4661471478E-001 +1.2376705660E+002  +8.6763786503E-002 +1.3743951616E+001  +5.9345061605E-002 -1.1484068556E+002  +3.3304186583E+000 -3.6643863855E+001 
4889662.078 +3.9045397873E-001 +1.3586459981E+002  +8.8833940288E-002 -4.0966983679E+001  +4.4865171548E-002 +3.9366834504E+001  +4.1150393527E+000 -1.2749597702E+002 
5014807.259 +4.1244923982E-001 +1.1527656962E+002  +5.1594439324E-001 -5.7277091416E+001  +2.1767112483E-001 -1.6051903013E+002  +1.4517172534E+001 -1.5330330295E+002 
5139952.441 +4.3056570492E-001 +1.2968284667E+002  +9.2485791101E-002 -1.2018807166E+002  +6.7506900008E-002 +1.5708386929E+002  +5.4732621447E+000 -1.7126596128E+002 
5265097.622 +3.9482756234E-001 +1.3571006389E+002  +8.7555875664E-002 +7.6228199886E+001  +4.7945263264E-002 +9.9676834180E+001  +4.1445441602E+000 +1.0422851115E+002 
5390242.804 +3.9938118930E-001 +1.3258168946E+002  +2.7558010907E-002 +1.7409784816E+002  +2.6739475396E-002 +4.4492616008E+001  +1.1162879360E+000 +8.7166202333E+001 
5515387.985 +3.9677013715E-001 +1.3357706226E+002  +4.0815988473E-002 +1.3005149978E+002  +2.3375149222E-002 +5.4287009478E+001  +1.8484542938E+000 +1.1084042049E+002 
5640533.166 +4.8917576629E-001 +1.3647289303E+002  +3.0293977007E-002 +1.3088240708E+002  +9.8698389664E-003 +1.1747966972E+002  +1.6293189398E+000 +9.7802161481E+001 
5765678.348 +5.3319160027E-001 +1.2448100485E+002  +5.8876889799E-002 +1.0044514250E+002  +4.3173274345E-002 +6.7017018455E+001  +2.0502071805E+000 +7.3024267344E+001 
5890823.529 +4.9968376687E-001 +1.2077885952E+002  +4.3076191495E-002 +1.0097387037E+002  +6.3453963340E-002 +2.6679009186E+001  +1.9706509633E+000 +7.0515924940E+001 
6015968.711 +6.6294072262E-001 +1.1670358056E+002  +5.2655850048E-002 +9.5044006004E+001  +4.2901848756E-002 +1.6124726315E+000  +2.1139611510E+000 +3.2724821992E+001 
6141113.892 +7.3557769696E-001 +1.1604448557E+002  +6.3546811768E-002 +7.4180364235E+001  +6.2927375908E-002 +5.1448723112E+001  +2.2196900499E+000 +1.7203162117E+001 
6266259.074 +7.6170585016E-001 +1.1148963065E+002  +4.6449291784E-002 +6.0344317443E+001  +2.6292953544E-002 +7.2807993215E+001  +2.0263988849E+000 +4.1812825044E+001 
6391404.255 +1.1144095788E+000 +9.7798858598E+001  +4.3587079924E-002 +6.0671409278E+001  +4.6233267260E-002 +2.1524274367E+001  +1.6494763607E+000 +1.0436663891E+001 
6516549.437 +1.0386985106E+000 +8.6177413708E+001  +3.6414064517E-002 +5.8862098694E+001  +5.3577580779E-002 +4.6601977920E+000  +1.4017826208E+000 +1.4944782342E+000 
6641694.618 +1.0870234426E+000 +7.9949276491E+001  +4.5850114048E-002 +3.1820605304E+001  +3.9663987608E-002 +8.2892334050E+000  +1.3149573772E+000 -5.0353499880E-001 
6766839.800 +2.1600827542E+000 +5.0782343355E+001  +7.3278825151E-002 +3.5104808705E+001  +4.2436129515E-002 -1.5418579839E+001  +1.6659661472E+000 +5.3649823600E+000 
6891984.981 +1.4176213087E+000 +4.0155936449E+001  +4.6607267474E-002 +1.6677761901E+001  +3.8243939972E-002 +6.1398320020E+001  +1.1334411302E+000 -4.8335484701E-001 
7017130.163 +1.7574729014E+000 +1.8823026775E+001  +4.3422828045E-002 +1.7246335089E+001  +3.9273310629E-002 +3.2720200232E+000  +1.2005550980E+000 -1.8072176176E+001 
7142275.344 +1.6216382421E+000 +9.3838113357E+000  +4.5690334109E-002 +5.8012187843E-001  +4.0826427848E-002 -2.2435432902E+000  +1.2069719705E+000 -6.6389393053E+000 
7267420.526 +1.5099276821E+000 -5.7796652449E+000  +2.3218157916E-002 -2.3019035162E+000  +2.4884435081E-002 -1.1186067505E+001  +1.3682922313E+000 -8.1159632231E+000 
7392565.707 +1.4454033038E+000 +1.4062341664E+000  +3.3540267121E-002 +1.3815741427E+001  +3.0366854280E-002 +1.8298099726E+001  +1.3723200610E+000 -1.4014923195E+001 
7517710.889 +1.1731625631E+000 -4.3999548001E+000  +1.7003279785E-002 -1.0344305206E+001  +2.5508480105E-002 +7.5973391735E+000  +1.1537714930E+000 -9.7019419233E+000 
7642856.070 +1.0121365451E+000 +3.8100325523E-001  +1.4653974815E-002 +1.9989691682E+001  +2.8154626198E-002 +6.7139715495E+000  +1.0814827934E+000 -3.7082526687E+000 
7768001.252 +9.3362901688E-001 +7.3852540649E+000  +1.8663295448E-002 +1.8030128786E+001  +1.4894872355E-002 +3.3315291492E+001  +9.5064525973E-001 -5.4095692071E-001 
7893146.433 +8.9167938503E-001 -1.0266763771E+000  +1.5929610831E-002 -1.1270779034E+001  +1.3631706826E-002 +4.0034947569E+001  +8.5742483190E-001 +3.4124807069E+000 
8018291.615 +7.8953419368E-001 +4.5524073580E+000  +1.3555322500E-002 -1.0622748138E+001  +1.9889554675E-002 +2.0107700209E+001  +8.6856400186E-001 -6.6331423222E+000 
8143436.796 +7.3394180890E-001 +4.0013466506E+000  +1.6720722100E-002 +2.4495696555E+001  +1.9536331184E-002 +7.3725511085E+000  +8.0644032793E-001 +7.3725892009E+000 
8268581.977 +7.0639837409E-001 +1.0889887019E+001  +1.4615051371E-002 +1.5532908262E+001  +1.3536086970E-002 +2.1313225815E+001  +7.2250104580E-001 -9.2951827603E-001 
8393727.159 +7.3166043983E-001 +8.4612757469E+000  +1.6228672113E-002 +5.0871103392E+000  +1.2785671931E-002 +3.9456999757E+001  +6.5532592717E-001 -1.8686203649E+000 
8518872.340 +6.3956850534E-001 +4.3923696923E+000  +1.5881817926E-002 +4.9722928933E-001  +1.7326093181E-002 +3.1979487265E+001  +7.1993407138E-001 -3.1927863831E+000 
8644017.522 +5.7498311260E-001 +6.6525266502E+000  +1.5968967651E-002 +2.1528782663E+001  +1.9608263180E-002 +1.3320668678E+001  +6.9147858267E-001 +9.1619342333E+000 
8769162.703 +5.9226144103E-001 +6.4100826442E+000  +1.4778424844E-002 +5.4110446952E+000  +1.6903799735E-002 +1.5334829860E+001  +6.4322110393E-001 -3.3110659504E+000 
8894307.885 +5.8084322065E-001 +1.4653905693E+001  +1.4686156084E-002 -1.4595652136E+001  +1.4440477714E-002 +1.2177414276E+001  +6.1680891603E-001 +2.9952758026E+000 
9019453.066 +5.8745447769E-001 +4.0245351037E+000  +2.0130299192E-002 +1.1494092446E+001  +1.3844117471E-002 +1.0753015913E+001  +6.5987921728E-001 +9.8098434501E-003 
9144598.248 +5.3319455034E-001 +1.1645275754E+001  +1.6439497515E-002 +6.7026113988E+000  +1.3790786494E-002 +3.4265559258E+001  +5.8655111975E-001 -1.2422391730E+000 
9269743.429 +5.1973865226E-001 +7.1335673965E+000  +1.6529740297E-002 +1.7990424127E+001  +1.4528435442E-002 +2.6675769051E+001  +6.1631673400E-001 -2.4749129185E+000 
9394888.611 +5.4377525739E-001 +9.2190920008E-001  +1.4830933474E-002 +1.0317096883E+001  +1.3426612563E-002 +1.3721365732E+001  +5.9524083418E-001 -1.8498196159E-001 
9520033.792 +4.7786172963E-001 +9.6112029256E-001  +1.5134033904E-002 +1.3528322374E+001  +1.5150292865E-002 +3.3561123548E+001  +5.5493497071E-001 +1.6556249350E-001 
9645178.974 +5.8575901480E-001 +4.1092083549E+000  +1.4283910854E-002 +7.6862905839E+000  +1.5884367812E-002 +1.5319500117E+001  +5.9569047047E-001 -2.0750764923E+000 
9770324.155 +5.0209193954E-001 -1.5766005654E+000  +1.7607741467E-002 -3.0627049198E+000  +1.8132323927E-002 +2.2613909509E+001  +5.8060852505E-001 -9.3044481478E+000 
9895469.337 +5.1291541612E-001 +2.6477308158E+000  +1.5588101398E-002 +2.1275047572E+000  +1.6147655151E-002 +2.1499195465E+001  +6.0764765837E-001 -8.6597565487E+000 
10020614.518 +5.1908446606E-001 +2.0430920174E+000  +1.4086561914E-002 +4.7789042617E+000  +1.4030843820E-002 +2.2900295752E+001  +5.8275713945E-001 -4.7013581457E+000 
10145759.700 +5.2319354234E-001 -3.8490747375E-001  +1.7671929642E-002 +6.9685256588E+000  +1.6636809231E-002 +3.5571375069E+001  +5.5175973756E-001 -5.0203153628E+000 
10270904.881 +5.5925996075E-001 +8.9710683656E+000  +1.4870411577E-002 +9.3194379911E+000  +1.6288793886E-002 +3.0424907716E+001  +5.5793607551E-001 -2.7402186407E-001 
10396050.063 +5.2360896938E-001 +3.6482048026E+000  +1.5766967352E-002 +3.3242403817E+000  +1.7469425174E-002 +2.3410229464E+001  +5.6110454263E-001 -5.3027267367E+000 
10521195.244 +5.4817561968E-001 +5.7457663222E+000  +1.4541466410E-002 +1.0790413334E+001  +1.6403382530E-002 +2.6693869774E+001  +5.7253814090E-001 +5.1435746909E-001 
10646340.426 +5.7765737478E-001 +1.6389070127E+000  +1.8551346502E-002 +1.4019801810E+001  +1.5763688159E-002 +2.7180734112E+001  +5.8639827625E-001 -8.3412683691E-001 
10771485.607 +5.8937509008E-001 +8.4317612922E+000  +1.7335494720E-002 +2.0445679363E+001  +1.5160018443E-002 +2.5548876231E+001  +6.0290708980E-001 +1.5802789300E-001 
10896630.788 +6.0360828054E-001 +1.1458740019E+001  +1.4912742579E-002 +1.9516597528E+001  +1.4650730588E-002 +3.5072771520E+001  +6.1918341618E-001 +1.5147083061E+000 
11021775.970 +6.0720252922E-001 +5.5734656220E+000  +1.5498278258E-002 +1.7131253949E+001  +1.5916377318E-002 +2.7025434983E+001  +5.5867620355E-001 +2.4169608892E+000 
11146921.151 +5.8840322436E-001 +3.7334376921E+000  +1.4393536364E-002 +1.7937526179E+001  +1.9575350756E-002 +2.5817955403E+001  +6.2738514568E-001 +4.1198290265E-001 
11272066.333 +6.1838377059E-001 +7.2380599264E+000  +1.6417154588E-002 +2.1587727975E+001  +1.5838211282E-002 +2.7055498002E+001  +6.0180799755E-001 +2.4626409219E+000 
11397211.514 +6.0702725702E-001 +6.4642053028E+000  +1.6013299996E-002 +1.5257940187E+001  +1.6510837625E-002 +2.6766447524E+001  +6.1576605728E-001 +8.1383857433E-001 
11522356.696 +5.9465852437E-001 +8.6362224246E+000  +1.9011515720E-002 +1.5731677565E+001  +1.9377609734E-002 +2.6029654743E+001  +6.2313644032E-001 +1.5052588820E+000 
11647501.877 +6.0997229285E-001 +6.5400180057E+000  +1.4914779679E-002 +1.3432515267E+001  +1.6513265410E-002 +2.6401559860E+001  +6.2772613248E-001 +2.5496787795E+000 
11772647.059 +6.0080932261E-001 +6.4480082455E+000  +1.6664951283E-002 +1.6463653100E+001  +1.7604143339E-002 +2.7543650201E+001  +6.6527664161E-001 +1.3293219687E+000 
11897792.240 +6.6546416762E-001 +6.5319358776E+000  +1.6683614167E-002 +1.9391611371E+001  +1.7091308554E-002 +2.6473655562E+001  +6.8713350176E-001 +3.0074170710E+000 
12022937.422 +6.4897820992E-001 +5.5122406385E+000  +1.8743734960E-002 +2.1043682873E+001  +1.9157666045E-002 +2.5155104965E+001  +6.8708491465E-001 +4.2475770424E+000 
12148082.603 +6.4788996914E-001 +6.3701178805E+000  +1.8229731401E-002 +1.8231787827E+001  +1.7124243410E-002 +2.0774950214E+001  +6.9218447190E-001 +1.1239678259E+000 
12273227.785 +6.7575217448E-001 +2.9704898838E+000  +1.8400973922E-002 +1.7023602515E+001  +1.7411142128E-002 +2.6803736250E+001  +6.9430737350E-001 -4.2719366682E-001 
12398372.966 +6.9115399101E-001 +4.7778796702E+000  +1.9260388162E-002 +1.6720298599E+001  +1.8874723348E-002 +2.5236771145E+001  +7.0540441427E-001 -6.4169521455E-001 
12523518.148 +6.9794726209E-001 +9.3645260642E-001  +1.8831316596E-002 +1.9663454062E+001  +1.7966726883E-002 +2.7572807535E+001  +7.4098781832E-001 -1.3707745474E+000 
12648663.329 +7.1317952842E-001 +3.0588187416E+000  +1.8970121654E-002 +1.7940615459E+001  +1.7983834692E-002 +2.7429341550E+001  +7.3393311660E-001 -8.9565219832E-001 
12773808.511 +7.2169798260E-001 +2.0176873552E+000  +1.9075981451E-002 +2.3168326028E+001  +1.9981938250E-002 +3.0933900871E+001  +7.6289732625E-001 -5.3127289611E-001 
12898953.692 +7.4279179606E-001 +1.4359288497E+000  +2.0194683062E-002 +1.8460106750E+001  +2.0045738340E-002 +2.5952546578E+001  +7.6550323675E-001 -5.0159713997E-001 
13024098.874 +7.7583702661E-001 +9.6276642326E-002  +2.0885944735E-002 +2.2821211051E+001  +2.0609748181E-002 +2.2158644329E+001  +7.6273337072E-001 -2.0333612960E+000 
13149244.055 +7.9325108238E-001 -1.8282332315E-001  +1.7869250414E-002 +2.0811368798E+001  +2.1910464431E-002 +2.0615160782E+001  +7.9294716756E-001 -9.2186019482E-001 
13274389.237 +8.3408987587E-001 -1.7680362254E+000  +1.8677466357E-002 +1.9956064008E+001  +1.9118177580E-002 +2.2766273197E+001  +8.0342081399E-001 -9.9965730843E-001 
13399534.418 +8.2208144719E-001 +5.6644126484E-001  +1.9629266013E-002 +1.7470713128E+001  +1.9499262137E-002 +2.6912889065E+001  +8.4388611117E-001 -5.8761028412E-001 
13524679.599 +8.2173711826E-001 -1.6573192574E+000  +2.0625354100E-002 +2.6074341904E+001  +2.0270815742E-002 +1.9850170386E+001  +8.6454664627E-001 -3.5541070093E+000 
13649824.781 +8.4210232555E-001 -1.7429634267E+000  +2.1661060160E-002 +2.0316815302E+001  +2.0995525406E-002 +2.3291924651E+001  +8.7694121419E-001 -2.6340767330E+000 
13774969.962 +8.8117100414E-001 -1.3247245209E+000  +2.0637682456E-002 +1.8772788771E+001  +2.0049538798E-002 +2.4066306822E+001  +8.7931760031E-001 -3.7158827010E+000 
13900115.144 +9.0162520297E-001 -2.9276292276E+000  +2.1657694723E-002 +2.1031867621E+001  +1.9745563257E-002 +2.1890169965E+001  +9.2483323722E-001 -2.3301773167E+000 
14025260.325 +8.8728519422E-001 -5.4842904519E+000  +2.1283631133E-002 +2.1347848125E+001  +2.1089859587E-002 +1.8891154107E+001  +9.0379190403E-001 -4.0876302479E+000 
14150405.507 +9.1133925110E-001 -4.5175094900E+000  +2.1949136481E-002 +2.2319574243E+001  +2.1187036849E-002 +2.0677355374E+001  +9.3685748388E-001 -2.6702429572E+000 
14275550.688 +9.3230918102E-001 -4.8761527580E+000  +2.0910910882E-002 +1.9584370813E+001  +2.1059799084E-002 +2.2390081474E+001  +9.4114149503E-001 -4.5352276954E+000 
14400695.870 +9.6437967050E-001 -5.3092825032E+000  +2.1829736993E-002 +2.0891263760E+001  +2.0300252950E-002 +2.2923393433E+001  +9.8869607525E-001 -5.3143682465E+000 
