!  2-Port S-parameters saved by WinCal
! VAR MeasName=S-Parameters (CALIBRATED_DATA) read from VNA (P5004A)
! VAR MeasDate=27/08/2024 14:24:16
! VAR NAME=S2_r2c8_SET2_9k-100M_2
! VAR FILENAME=S2_r2c8_SET2_9k-100M_2.S2P
! VAR DATE=27/08/2024 14:24:16
! VAR PHYS_PORTS=1,2
! VAR ObjTypeName=DATASET
! VAR IndexType=Frequency
!
# Hz S MA R 50
9000.000 +7.1732672670E-002 -1.3996434223E+002  +1.3203063093E-002 -6.8839608031E+001  +1.2204247446E-002 +8.0428434869E+001  +1.8568605246E-001 -1.2546082765E+002 
134145.181 +1.1080336289E-001 +1.6967831351E+002  +1.3325018857E-004 +1.5493748118E+002  +2.8612761383E-004 -1.6041318841E+002  +2.3758779291E-001 -1.7027872805E+002 
259290.363 +1.1279718708E-001 +1.7020033858E+002  +3.3547762528E-004 -5.5052750033E+000  +1.2123094693E-003 +8.7479454738E+001  +2.4025331994E-001 -1.6357303143E+002 
384435.544 +1.1360399819E-001 +1.6963530631E+002  +5.0191757222E-004 -2.1582673039E+001  +4.3031702548E-004 -7.9657643724E+001  +2.4185480675E-001 -1.7086831883E+002 
509580.726 +1.1281826145E-001 +1.7186252053E+002  +1.2192338803E-004 -1.2332429965E+002  +1.8491713404E-004 -8.3134717672E+001  +2.4424518847E-001 -1.6760419972E+002 
634725.907 +1.1728691954E-001 +1.7097920218E+002  +7.8763970728E-004 -7.1417333031E+001  +1.4268885039E-003 +3.4609620604E+001  +2.3855138583E-001 -1.6509184428E+002 
759871.089 +1.1653369779E-001 +1.7121189452E+002  +4.5398173694E-004 -1.1827325522E+002  +1.2447657973E-003 +1.5691249194E+002  +2.4488304965E-001 -1.6365208777E+002 
885016.270 +1.1888714253E-001 +1.6993811250E+002  +2.7090661532E-004 -9.7395901623E+001  +7.9544440595E-004 +1.6131834303E+002  +2.3803973662E-001 -1.6687806265E+002 
1010161.452 +1.1931375791E-001 +1.7101427538E+002  +1.6078733223E-003 -6.7208913609E+001  +1.9330307677E-003 -1.6276171358E+002  +1.9863774416E-001 -1.6843836283E+002 
1135306.633 +1.1502890096E-001 +1.7080054326E+002  +1.0969244610E-003 +6.0123908418E+001  +4.0241730838E-003 -1.7266268724E+002  +1.5725978540E-001 -1.6067508954E+002 
1260451.815 +1.1777194813E-001 +1.7114900894E+002  +1.0411138976E-003 -2.4015355283E+001  +5.8882232847E-004 +7.0219607822E+000  +2.4479628271E-001 -1.5713023963E+002 
1385596.996 +1.2635864623E-001 +1.7224103747E+002  +7.5963795320E-004 -1.8370073026E+001  +7.6966781403E-005 +1.4166640146E+002  +2.5331556763E-001 -1.5847453998E+002 
1510742.178 +1.2918672982E-001 +1.7296376072E+002  +5.7871979005E-004 -8.4908223390E+001  +7.8038866219E-004 +5.9411379638E+000  +2.5303177148E-001 -1.5915238364E+002 
1635887.359 +1.2695695789E-001 +1.6988806983E+002  +1.3594008210E-003 +6.8760062748E+001  +5.2712905032E-004 -1.4211851321E+002  +2.4237326668E-001 -1.5996192467E+002 
1761032.541 +1.2738377000E-001 +1.7022170692E+002  +1.7256282820E-003 -8.5283426806E+001  +1.8436508402E-003 -1.3730695203E+002  +2.1864750957E-001 -1.4986307022E+002 
1886177.722 +1.2913039403E-001 +1.6914116164E+002  +6.3267282315E-004 +4.3269939188E+001  +4.1364362633E-004 +4.3307348603E+001  +2.2013240270E-001 -1.5916442449E+002 
2011322.904 +1.2950283974E-001 +1.6657375726E+002  +1.0816290656E-003 -1.5501240498E+002  +2.0999143537E-003 -6.7424187898E+001  +1.7039566090E-001 -1.7127294051E+002 
2136468.085 +1.2911911223E-001 +1.6626316706E+002  +3.8368139145E-003 +5.1382001147E+001  +3.6788330591E-004 +9.6304556907E+001  +2.1620003077E-001 -1.7603151962E+002 
2261613.267 +1.3241621665E-001 +1.6386528655E+002  +1.3264459079E-003 +1.3700803592E+002  +5.8840849728E-003 -1.0114252121E+002  +1.9494323033E-001 +1.7570470642E+002 
2386758.448 +1.3104848473E-001 +1.6458547235E+002  +1.9169665053E-002 +9.8925185872E+001  +1.4173396842E-002 -7.1984983684E+000  +3.9680109069E-001 +1.2895426250E+002 
2511903.630 +1.2838157117E-001 +1.6408554914E+002  +6.9760923852E-003 +6.8733110070E+001  +7.4275630300E-003 -1.3784804130E+001  +2.5932257957E-001 +1.6909046258E+002 
2637048.811 +1.2531636102E-001 +1.6795621885E+002  +1.0826923036E-002 +1.0365467578E+002  +1.0358290828E-002 -3.0799805964E+001  +2.9409857217E-001 +1.4786372025E+002 
2762193.992 +8.1177699918E-002 +1.7706700745E+002  +1.6590653052E-002 -1.6727654731E+002  +2.7293584991E-002 +8.5381833061E+001  +5.6465898722E-001 -1.2514921414E+002 
2887339.174 +9.5102143377E-002 -1.7811359364E+002  +2.1907905265E-002 -8.0661082426E+001  +1.0077277090E-002 -1.2095900347E+002  +2.5616105374E-001 -1.0007279490E+002 
3012484.355 +1.2564131854E-001 +1.7608128027E+002  +3.7295977948E-002 -7.0245379914E+001  +1.8084160213E-002 +1.4301890001E+002  +5.8985098627E-001 -6.0753844444E+001 
3137629.537 +1.3930404118E-001 +1.6796394224E+002  +3.1181454194E-002 -7.7217304447E+001  +2.2326422128E-002 -1.6395058852E+002  +6.5325724404E-001 -6.9696509233E+001 
3262774.718 +1.0003907825E-001 +1.6601378283E+002  +1.7383959279E-002 -2.9678149167E+001  +2.6131682392E-002 -1.0588784564E+002  +1.8691134515E-001 -7.7922358200E+000 
3387919.900 +1.2638644134E-001 +1.5346764258E+002  +1.2732048696E-002 +3.2221946394E+001  +8.7042860301E-003 -1.4824478682E+002  +1.3617045502E-001 -1.0128022593E+002 
3513065.081 +1.2243505379E-001 +1.6320483823E+002  +6.3360659333E-002 -2.2863233987E+000  +4.3727932032E-002 -9.6648156133E+001  +6.3797986558E-001 +5.4496785503E+000 
3638210.263 +1.6880554823E-001 +1.4842526362E+002  +4.2039603299E-002 +8.4039712169E+001  +2.8478355053E-002 -1.3529600407E+000  +6.4931045350E-001 +9.7702320303E+001 
3763355.444 +1.7144447412E-001 +1.4596381365E+002  +2.7115220251E-002 +9.6041921037E+001  +2.0191996103E-002 +5.4623109676E+000  +6.4943115308E-001 +9.0227291807E+001 
3888500.626 +1.4071832615E-001 +1.4366016210E+002  +1.2046473751E-001 +1.2990937048E+002  +9.5041670705E-002 +6.5496857787E+001  +2.7133913763E+000 +1.2109613449E+002 
4013645.807 +1.6113813033E-001 +1.5145426554E+002  +6.5508205622E-003 +9.0004233714E+001  +1.4624127767E-002 -4.7905113807E+000  +4.0137728920E-001 +1.3857329658E+002 
4138790.989 +1.4659042817E-001 +1.3539290501E+002  +6.3438360168E-002 +1.3540728210E+002  +7.8301535389E-002 +4.1697342692E+001  +1.3212992344E+000 +1.2038649164E+002 
4263936.170 +1.9914982292E-001 +1.4052510429E+002  +1.5235694586E-002 +7.1629361769E+001  +1.4678226746E-002 +3.1069767198E+001  +3.0995798773E-001 +1.5068428610E+002 
4389081.352 +1.8405873631E-001 +1.4344931809E+002  +1.7183263005E-002 +1.3209797705E+002  +3.2380105469E-002 +3.1211025590E+001  +9.5519303530E-001 +1.0918687932E+002 
4514226.533 +2.5398375536E-001 +1.3978190968E+002  +2.6385734691E-002 +1.1861405501E+002  +2.6553889435E-002 +4.9326383944E+001  +7.0951806142E-001 +1.3259340557E+002 
4639371.715 +2.7252362934E-001 +1.3485057650E+002  +4.7119558699E-002 +8.1732555683E+001  +5.6045734248E-002 +6.1367125541E+001  +1.0350932423E+000 +6.1021336000E+001 
4764516.896 +3.3089513340E-001 +1.3566314860E+002  +1.1795718028E-001 -1.0704391249E+002  +1.0821469687E-001 +1.7428048343E+002  +3.7128052269E+000 -1.6415989689E+002 
4889662.078 +5.3068392395E-001 +1.3122894948E+002  +1.8094919293E-001 +3.3343710963E+001  +7.4093267450E-002 +4.3464851121E+000  +2.3814643306E+000 -4.2841346563E+001 
5014807.259 +3.8808655011E-001 +1.2211897068E+002  +1.5115303012E-001 -1.6356720325E+002  +1.2149982064E-001 +1.5518378353E+002  +4.3218175010E+000 +1.7672743043E+002 
5139952.441 +3.3739375155E-001 +1.3890325567E+002  +5.6863178300E-002 +1.0796488998E+002  +5.3538387853E-002 +6.6854294995E+001  +1.4050671274E+000 +7.8633633689E+001 
5265097.622 +3.6252309684E-001 +1.3302418149E+002  +7.1114948526E-002 +1.4348867608E+002  +4.9897823887E-002 +8.7097317920E+001  +1.9661047240E+000 +1.3017940680E+002 
5390242.804 +3.8286926374E-001 +1.2308096183E+002  +6.1966169275E-002 +1.1758886579E+002  +4.9802912920E-002 +8.3331630237E+001  +1.4646673498E+000 +1.1674398885E+002 
5515387.985 +4.3593147250E-001 +1.2485237412E+002  +6.3907310934E-002 +6.4415616058E+001  +5.3106875966E-002 +4.6987973181E+001  +9.6022370520E-001 +4.5823210234E+001 
5640533.166 +5.8122066166E-001 +1.2481935788E+002  +1.4633383972E-001 +1.1972756855E+002  +7.7509489998E-002 +6.2833577233E+001  +2.3390157052E+000 +9.4257381795E+001 
5765678.348 +4.7405452844E-001 +1.1907539999E+002  +1.1005077455E-001 +7.4087109007E+001  +1.0384724864E-001 +5.6369153126E+001  +2.9184857045E+000 +6.0989892670E+001 
5890823.529 +6.8015568149E-001 +1.0201075303E+002  +1.2388602682E-001 +8.3804403633E+001  +1.1199019685E-001 +5.2854905963E+001  +1.7293525611E+000 +8.7937099745E+001 
6015968.711 +6.5932715276E-001 +1.2041942276E+002  +5.6589591725E-002 +6.7624303330E+001  +5.3932570299E-002 +5.5020019027E+001  +1.2134017484E+000 +4.5040411739E+001 
6141113.892 +6.3298650767E-001 +1.2006372579E+002  +8.7903783294E-002 +4.2536082902E+001  +6.2941560142E-002 +1.6440830765E+001  +2.2867295089E+000 +1.0468962272E+001 
6266259.074 +8.0467510994E-001 +1.0571556565E+002  +1.0572715442E-001 +5.2666635851E+001  +6.3674883799E-002 +2.6246391088E+001  +2.0710552818E+000 +8.7693226912E+000 
6391404.255 +8.1255973134E-001 +1.0530639338E+002  +7.3899923785E-002 +6.6156206354E+001  +7.5044606480E-002 +3.1737693936E+001  +1.9185362541E+000 +1.0134516009E+001 
6516549.437 +1.0241589766E+000 +6.8341827960E+001  +9.7682841679E-002 +3.7701779577E+001  +1.0601841632E-001 +2.4170551317E+001  +1.3228329876E+000 +1.1373166773E+001 
6641694.618 +1.2784166779E+000 +8.0242633729E+001  +7.4914586188E-002 +3.5351937146E+001  +9.6682464702E-002 +2.2302752964E+001  +1.2915161735E+000 -4.9193879200E+000 
6766839.800 +1.5541116905E+000 +6.5376994551E+001  +6.2806383127E-002 +2.0286527446E+001  +6.9963273904E-002 +3.4025788047E+001  +1.1212418880E+000 -1.0626602519E+000 
6891984.981 +1.8919451868E+000 +3.4517338011E+001  +1.1210691686E-001 +2.7352843664E+001  +1.2042475191E-001 -1.5871041535E+000  +1.2596782013E+000 -3.6462632246E+000 
7017130.163 +1.6973898747E+000 +2.1203411387E+001  +8.0836636406E-002 +5.6380962828E+000  +8.0355490214E-002 -9.5126973164E+000  +1.1610064865E+000 -8.9765873844E+000 
7142275.344 +1.3220024928E+000 +2.2027017244E+001  +5.4103832352E-002 +1.1216570466E+000  +6.1757061429E-002 -6.9330546186E+000  +1.1277136941E+000 -1.2869207745E+001 
7267420.526 +1.3426506419E+000 +6.9576900365E+000  +6.0593052486E-002 -6.3770753635E+000  +4.2954181281E-002 -2.3250329059E+000  +1.3104896613E+000 -2.0330754163E+000 
7392565.707 +1.2939837619E+000 +1.8644490733E+000  +4.0246751583E-002 +2.2453054555E+001  +4.9982890838E-002 +1.2997676946E+001  +1.2808468159E+000 -6.3177706349E+000 
7517710.889 +1.1239730641E+000 +5.0583371816E-001  +3.7055867927E-002 +4.2665307177E+000  +4.4783036593E-002 +7.0289783395E+000  +1.0753556958E+000 -5.7054324289E+000 
7642856.070 +1.0414812742E+000 +6.1116626825E+000  +3.8223260409E-002 +1.0404631912E+001  +4.0915271428E-002 +1.7447945204E+001  +1.0440830903E+000 -5.6553960379E+000 
7768001.252 +9.4002618562E-001 -2.1852627222E+000  +4.0302631777E-002 +1.7692169253E+000  +3.9052917966E-002 +1.6366062604E+001  +9.7040379498E-001 -7.6655543581E+000 
7893146.433 +9.7039534829E-001 -3.6024345710E+000  +4.0093329476E-002 -3.5777945353E+000  +4.0038650998E-002 +1.3507559967E+001  +9.4308278628E-001 -2.0662533958E+000 
8018291.615 +7.1296097583E-001 -8.9897187909E-001  +3.7261284702E-002 -1.0995899773E+001  +3.6824820048E-002 +1.9424892223E+001  +8.3772441011E-001 -2.2396643037E-001 
8143436.796 +7.5390164527E-001 +6.5624138009E+000  +3.6145749113E-002 -1.9518687206E+000  +3.7844679801E-002 +1.7683255734E+001  +6.7760456209E-001 -4.5018862452E+000 
8268581.977 +6.9909400422E-001 +6.1306639329E+000  +3.1351130109E-002 +1.0435802797E+001  +3.6301292427E-002 +8.9932829800E+000  +7.0948084905E-001 -2.4794327307E-001 
8393727.159 +6.4358601171E-001 +6.0526288347E+000  +3.1670375847E-002 -6.0617692874E+000  +3.7790666453E-002 +2.0662463265E+000  +6.4245858660E-001 -7.6965900456E-001 
8518872.340 +5.8775338158E-001 +1.6359781797E+000  +3.5500149462E-002 +3.1647003261E+000  +3.3142604994E-002 +2.1079817389E+001  +6.5929369957E-001 -6.0311675183E-001 
8644017.522 +6.0278021413E-001 +5.8542185086E+000  +3.0794547833E-002 -3.1137600341E+000  +3.2235407806E-002 +1.4116628045E+001  +6.4148226465E-001 -3.5921608520E-001 
8769162.703 +6.2826653172E-001 +1.0270729352E+001  +3.2172661367E-002 +4.0969276570E+000  +3.5008926236E-002 +2.0134477037E+001  +6.4180712122E-001 +7.2318060299E-001 
8894307.885 +5.4858496561E-001 +1.0683906126E+001  +3.3393188785E-002 +4.3732563203E+000  +3.0186265926E-002 +2.0852610336E+001  +6.2867174456E-001 -2.0897427941E+000 
9019453.066 +5.9330599672E-001 +3.9236346448E+000  +3.2246805515E-002 +1.3514734461E+000  +3.5346327754E-002 +1.3956734160E+001  +5.7991267803E-001 +3.4528121114E+000 
9144598.248 +5.7381405284E-001 +2.7271701639E+000  +3.5157105861E-002 +2.5571663062E+000  +3.1971410621E-002 +1.7509366933E+001  +6.3824880798E-001 -4.2525256026E+000 
9269743.429 +5.8065348411E-001 +8.4630429573E+000  +3.1390918829E-002 -1.8806007552E+000  +3.1117874844E-002 +1.8502639975E+001  +6.0061660383E-001 -8.0132725730E-001 
9394888.611 +5.0939589045E-001 +2.5349150666E+000  +3.4702911926E-002 +5.4729865771E-001  +3.1440534955E-002 +1.5038828389E+001  +5.5447166929E-001 -4.2069668156E+000 
9520033.792 +5.2667661221E-001 +2.5259119041E+000  +3.0459803472E-002 +4.5864599375E+000  +2.9365301696E-002 +1.0916374582E+001  +5.7659941847E-001 -3.1779991723E+000 
9645178.974 +5.7576667156E-001 -9.7018688165E-001  +3.4659258087E-002 +7.5155854309E+000  +3.0161754853E-002 +1.8574827579E+001  +5.7075290459E-001 -1.6427934457E+000 
9770324.155 +4.7335419655E-001 -2.3987767479E-001  +3.4763992008E-002 +3.4770137307E+000  +3.0332837281E-002 +1.2388891456E+001  +5.5194470064E-001 -8.0213564369E-001 
9895469.337 +4.7594411017E-001 +1.3761644606E+000  +3.3196431745E-002 -2.1995088685E+000  +3.4751436000E-002 +1.8011413669E+001  +5.1967818301E-001 -5.2419735676E+000 
10020614.518 +5.0757075676E-001 +3.9223334493E+000  +3.4268614567E-002 -4.2843718064E-001  +3.4680535836E-002 +2.0758399737E+001  +5.9266966408E-001 -4.0231021966E+000 
10145759.700 +5.2479415704E-001 +1.0365977767E+000  +3.1811979881E-002 -2.0668104640E+000  +3.1777077272E-002 +2.1213497053E+001  +5.6310364772E-001 -4.8329713932E+000 
10270904.881 +4.9043648710E-001 +2.2965676708E+000  +3.3788322443E-002 +6.4327783625E+000  +3.1196367581E-002 +2.0784746738E+001  +5.3953859097E-001 +2.3118273685E+000 
10396050.063 +5.2054130032E-001 +3.3546564431E+000  +3.2692881673E-002 +7.9409981143E+000  +3.2668152310E-002 +1.8737846300E+001  +5.5542862954E-001 -2.2433857961E+000 
10521195.244 +5.4201163604E-001 +4.7657906829E+000  +3.1627272016E-002 +3.0882083501E+000  +3.3705160248E-002 +1.4171109112E+001  +5.8141170357E-001 -1.4147349237E-001 
10646340.426 +5.2141819549E-001 +7.3006038885E+000  +3.3777027748E-002 +5.8418381378E+000  +3.2674725125E-002 +1.7018843999E+001  +5.5180381409E-001 +1.4301367511E+000 
10771485.607 +5.3077453347E-001 +8.3788316313E+000  +3.3855915148E-002 +6.6735789147E+000  +3.2882998102E-002 +1.9454576847E+001  +5.7013590114E-001 +1.1552132343E+000 
10896630.788 +5.7619404697E-001 +7.3118901769E+000  +3.4811236542E-002 +5.0945213820E+000  +3.2303256155E-002 +2.4916510695E+001  +5.6867289971E-001 +1.3420359896E+000 
11021775.970 +5.7298636457E-001 +6.3768213588E+000  +3.4109602401E-002 +3.6705601678E+000  +3.0999061160E-002 +2.3339080418E+001  +5.7521220212E-001 +2.9081525419E+000 
11146921.151 +5.6158788477E-001 +6.8364244001E+000  +3.5529333001E-002 +6.8959516481E+000  +3.4733580306E-002 +1.6599755550E+001  +5.6514315448E-001 -1.2830564399E-001 
11272066.333 +5.7927272278E-001 +5.6727330830E+000  +3.5154085521E-002 +4.3263346237E+000  +3.4047703059E-002 +1.8934261962E+001  +5.6974326253E-001 +1.7210072782E+000 
11397211.514 +5.7613844723E-001 +4.7782144663E+000  +3.3081600474E-002 +4.6847449917E+000  +3.3224247371E-002 +1.6233438651E+001  +6.0272118875E-001 +2.7493473755E+000 
11522356.696 +5.4936979080E-001 +8.4323580029E+000  +3.6737530403E-002 +9.8659813395E+000  +3.5131772998E-002 +2.0850646011E+001  +5.9551881099E-001 +2.9002983657E+000 
11647501.877 +6.2131381222E-001 +6.0795983691E+000  +3.6540413129E-002 +7.0083628740E+000  +3.6019615142E-002 +1.7540287771E+001  +5.9629888566E-001 +1.8614400574E+000 
11772647.059 +5.6905959100E-001 +7.7438670397E+000  +3.6232551023E-002 +8.0330162016E+000  +3.5437707416E-002 +1.9294356806E+001  +5.8791568084E-001 +1.5924307830E+000 
11897792.240 +6.1940738712E-001 +7.4929472291E+000  +3.4887329551E-002 +8.9380964202E+000  +3.7246673705E-002 +1.9568701326E+001  +6.1181202712E-001 -6.4630440863E-002 
12022937.422 +6.4727569772E-001 +5.7797246358E+000  +3.7134355418E-002 +1.0263540696E+001  +3.7035232275E-002 +1.8424501338E+001  +6.2361669898E-001 +2.3782747771E+000 
12148082.603 +6.3420515498E-001 +3.9394766324E+000  +3.6998582035E-002 +9.0238340966E+000  +3.6797858179E-002 +1.7636780874E+001  +6.5316665865E-001 +1.9901786150E+000 
12273227.785 +6.6444663223E-001 +4.3737291472E+000  +3.8313178354E-002 +9.9328560340E+000  +3.7718203840E-002 +1.9010045684E+001  +6.8653099053E-001 +8.9516119796E-001 
12398372.966 +6.5163463157E-001 +4.2922424967E+000  +3.7754079541E-002 +1.1014142865E+001  +3.7781830868E-002 +2.0701365745E+001  +6.7118232171E-001 -2.9552518609E-001 
12523518.148 +7.0275575838E-001 +2.7341843036E+000  +3.7675282064E-002 +1.3496019028E+001  +3.7757172995E-002 +1.7062568034E+001  +7.0958619795E-001 +4.0085792538E-002 
12648663.329 +6.8065442642E-001 +2.5358059143E+000  +3.9892178989E-002 +1.0197773463E+001  +3.9466305392E-002 +1.9096014532E+001  +7.1194532239E-001 -3.6051919908E-001 
12773808.511 +7.1336469170E-001 +2.1789358030E+000  +3.9967228654E-002 +9.2206902348E+000  +3.7413419169E-002 +1.7030200178E+001  +7.3527495510E-001 -7.9341628750E-001 
12898953.692 +7.1900393363E-001 +2.3187866814E+000  +3.9236230493E-002 +1.3069195072E+001  +3.9179641825E-002 +2.0644702272E+001  +7.4967120235E-001 -8.6390787483E-001 
13024098.874 +7.4761682700E-001 +7.0888321668E-001  +4.0604685562E-002 +1.2231710984E+001  +3.9103986293E-002 +1.8851729524E+001  +7.6801312927E-001 +7.6621933795E-001 
13149244.055 +7.4225159819E-001 +8.2098906874E-001  +4.0350182551E-002 +1.1387159399E+001  +4.0864531002E-002 +1.2919245857E+001  +7.7093071521E-001 -2.4640713142E+000 
13274389.237 +7.8174278067E-001 +4.4998653672E-001  +4.0717959640E-002 +1.2520279662E+001  +4.0421907581E-002 +1.3535629820E+001  +7.7975012285E-001 -1.4519393564E+000 
13399534.418 +7.8079970574E-001 -1.2519943719E+000  +4.1152887214E-002 +1.0088083378E+001  +4.0926748907E-002 +1.4716695501E+001  +8.2242955577E-001 -3.5870775916E+000 
13524679.599 +8.0567877410E-001 -5.8883404646E-001  +4.2172635586E-002 +1.1023629643E+001  +4.0787838294E-002 +1.5426444262E+001  +8.3159278176E-001 -1.9512376005E+000 
13649824.781 +8.4457953448E-001 -2.5098874623E+000  +4.2346277173E-002 +1.4294295968E+001  +4.1419597499E-002 +1.6399825403E+001  +8.5963258486E-001 -1.4919980794E+000 
13774969.962 +8.2907235675E-001 -1.3279910051E+000  +4.2655718306E-002 +1.1452035581E+001  +4.1768465456E-002 +1.3175049583E+001  +8.5167778484E-001 -2.6503273107E+000 
13900115.144 +8.6211169363E-001 -3.1586141573E+000  +4.3901021963E-002 +1.3752022218E+001  +4.3484372470E-002 +1.3533358139E+001  +8.9186414857E-001 -2.7053324813E+000 
14025260.325 +9.0282307794E-001 -3.7710054680E+000  +4.4539369551E-002 +1.3083519868E+001  +4.2408092419E-002 +1.5288286248E+001  +8.7985099316E-001 -3.5535120913E+000 
14150405.507 +9.1284018409E-001 -3.2208674919E+000  +4.3174138951E-002 +1.3170419034E+001  +4.3643504509E-002 +1.6199090837E+001  +9.1772519788E-001 -3.6955519795E+000 
14275550.688 +9.1849639168E-001 -4.3285577116E+000  +4.4819934639E-002 +9.2214111481E+000  +4.3275335313E-002 +1.0966217808E+001  +9.2044557867E-001 -4.4205240259E+000 
14400695.870 +9.4022896438E-001 -5.7062095122E+000  +4.3210149436E-002 +1.0752593439E+001  +4.2138321355E-002 +1.1567170628E+001  +9.6024735005E-001 -4.5817397281E+000 
