!  2-Port S-parameters saved by WinCal
! VAR MeasName=S-Parameters (CALIBRATED_DATA) read from VNA (P5004A)
! VAR MeasDate=28/08/2024 09:53:16
! VAR NAME=S2_thru_9k-100M_nextday
! VAR FILENAME=S2_thru_9k-100M_nextday.S2P
! VAR DATE=28/08/2024 09:53:16
! VAR PHYS_PORTS=1,2
! VAR ObjTypeName=DATASET
! VAR IndexType=Frequency
!
# Hz S MA R 50
9000.000 +7.8893211664E-002 -1.6448908404E+002  +8.4784763398E-003 +6.3236109512E+001  +1.8064171427E-002 -1.4875641319E+002  +2.5100792163E-001 -1.4279958286E+002 
134145.181 +1.1186061512E-001 +1.6968023840E+002  +2.8069738806E-004 +1.2800328062E+002  +3.0434884804E-004 +8.0532835405E+001  +2.3834276679E-001 -1.7159612096E+002 
259290.363 +1.1185017969E-001 +1.6972038940E+002  +6.6996243426E-004 -1.5939682262E+001  +7.0399797752E-004 +7.0147620564E+001  +2.5318456439E-001 -1.7051379831E+002 
384435.544 +1.1361882846E-001 +1.7007578798E+002  +3.2117302651E-004 +1.2589725510E+001  +3.7367251772E-004 +4.4022770349E+001  +2.4407990888E-001 -1.7008001491E+002 
509580.726 +1.1552548569E-001 +1.7104442358E+002  +1.2520301652E-003 -2.4015594502E+001  +2.1088286292E-003 +1.3249458652E+002  +2.4034343571E-001 -1.6606746182E+002 
634725.907 +1.1728320747E-001 +1.7093194658E+002  +1.5746676935E-003 -6.0290204421E+001  +1.5441258919E-003 +1.5199950996E+002  +2.5390663564E-001 -1.6576651826E+002 
759871.089 +1.1894666912E-001 +1.7046194169E+002  +5.4255713628E-004 -6.9067018340E+001  +1.2864824404E-003 +1.6267801637E+002  +2.5197816271E-001 -1.6727200863E+002 
885016.270 +1.2055685822E-001 +1.6899717044E+002  +6.6583362739E-004 -7.4718169668E+000  +1.1603044013E-003 +1.4227649007E+002  +2.4803983275E-001 -1.6612920876E+002 
1010161.452 +1.2027093695E-001 +1.6955433569E+002  +2.7122619706E-003 +9.2259841969E+000  +2.7876245387E-003 -1.5426403196E+002  +2.1655063179E-001 -1.6685945290E+002 
1135306.633 +1.1829427058E-001 +1.6943132488E+002  +3.4041300532E-003 +4.1623263203E+001  +5.1241076619E-003 -1.3634302985E+002  +2.0577997685E-001 -1.6710153998E+002 
1260451.815 +1.2014059723E-001 +1.7020780235E+002  +2.9207197504E-003 +9.6146839693E+000  +4.1123827141E-003 -1.6205588270E+002  +2.3340221971E-001 -1.6114320316E+002 
1385596.996 +1.2504040723E-001 +1.7079987312E+002  +3.0103350398E-003 -4.1736206002E+001  +3.6609650553E-003 -1.7529624906E+002  +2.6488299092E-001 -1.6126594237E+002 
1510742.178 +1.2804185958E-001 +1.7125709567E+002  +3.7487318300E-003 -4.6883572368E+000  +4.3844646900E-003 -1.4977314695E+002  +2.3575826494E-001 -1.5924815971E+002 
1635887.359 +1.2932358707E-001 +1.7135809979E+002  +3.8563944554E-003 +1.6005447356E+001  +3.4097251272E-003 -1.2679682571E+002  +2.5176866990E-001 -1.6108864926E+002 
1761032.541 +1.2970226939E-001 +1.6883923245E+002  +5.2754024539E-003 +3.5219896097E+001  +5.6081899780E-003 -1.0798989193E+002  +2.4824836096E-001 -1.5744965436E+002 
1886177.722 +1.3070159852E-001 +1.7099693839E+002  +8.8427204385E-003 +5.0157940649E+001  +1.0065745044E-002 -8.9652796315E+001  +2.1874837789E-001 -1.5736863203E+002 
2011322.904 +1.3236321208E-001 +1.6902539065E+002  +1.0282546602E-002 +7.2267850119E+001  +1.0454118697E-002 -6.5700457829E+001  +2.3206611900E-001 -1.6104406823E+002 
2136468.085 +1.2865190576E-001 +1.6866610259E+002  +2.3856570833E-002 +6.6042104928E+001  +2.0267663538E-002 -5.6421604194E+001  +2.0083239675E-001 -1.5765393269E+002 
2261613.267 +1.3416690099E-001 +1.7052869863E+002  +1.9952872785E-002 +6.1735542760E+001  +2.0519961878E-002 -5.7202934416E+001  +2.2060597918E-001 -1.6237290566E+002 
2386758.448 +1.3148979390E-001 +1.6490958218E+002  +2.7767345470E-002 +8.8431995376E+001  +2.8321838121E-002 -3.3642472424E+001  +2.1134498653E-001 -1.6541043374E+002 
2511903.630 +1.2134311165E-001 +1.6908553168E+002  +4.5297201132E-002 +7.3369754159E+001  +4.1976517766E-002 -4.5912339872E+001  +1.9758669605E-001 -1.6744845632E+002 
2637048.811 +1.3127290964E-001 +1.7109880768E+002  +5.7176759798E-002 +4.4366436686E+001  +5.7001331654E-002 -6.6185518030E+001  +1.5415753836E-001 -1.3701829334E+002 
2762193.992 +1.4017671752E-001 -1.7383462153E+002  +7.4076403032E-002 +5.5300908187E+000  +7.0151469133E-002 -1.0021985766E+002  +2.0008691106E-001 -1.3352624429E+002 
2887339.174 +1.4754791581E-001 +1.7986615863E+002  +5.3692221749E-002 -1.8399688925E+001  +5.4267590624E-002 -1.2241394807E+002  +3.0901530166E-001 -1.3452066528E+002 
3012484.355 +1.5015557716E-001 -1.7933475718E+002  +6.0281113170E-002 -6.1233482046E+000  +5.5982804202E-002 -1.0273505928E+002  +2.5238955055E-001 -1.3114120777E+002 
3137629.537 +1.4802437458E-001 +1.7820313953E+002  +4.4551212241E-002 -3.3759104349E+000  +4.5291383408E-002 -9.6859645882E+001  +2.8984665855E-001 -1.4010399453E+002 
3262774.718 +1.4568884383E-001 -1.7717439691E+002  +6.8574890423E-002 -5.8872019067E+000  +6.6547445868E-002 -9.7446328897E+001  +2.8665010466E-001 -1.3249676972E+002 
3387919.900 +9.9930247254E-002 -1.7874961736E+002  +1.2657305017E-001 +2.9701087584E+001  +1.2733396571E-001 -6.0342739962E+001  +1.5522401519E-001 -1.1360259139E+002 
3513065.081 +1.2555060278E-001 +1.6558935550E+002  +1.1325266168E-001 +4.4333969545E+001  +1.1168973301E-001 -4.2691394541E+001  +1.2257876715E-001 -1.1888698096E+002 
3638210.263 +9.6920117846E-002 -1.7724519669E+002  +1.6365754298E-001 +3.2454688645E+001  +1.5685463736E-001 -4.6322076147E+001  +8.0260215658E-002 -9.4626964130E+001 
3763355.444 +1.5059648810E-001 +1.2189362527E+002  +2.4853108764E-001 +9.5994003539E+001  +2.3825626515E-001 +1.8251982074E+001  +3.3718924280E-001 +1.1914112470E+002 
3888500.626 +1.6203986937E-001 +1.5189055599E+002  +1.1263874577E-001 +9.7947272721E+001  +1.1204019889E-001 +2.2609476504E+001  +3.0937343380E-001 +1.6491048249E+002 
4013645.807 +1.6766170170E-001 +1.6119406146E+002  +8.5332043835E-002 +8.4481014285E+001  +8.2420556804E-002 +1.0722221986E+001  +2.9668380347E-001 +1.7675574109E+002 
4138790.989 +1.6119771644E-001 +1.4802803652E+002  +1.3261078480E-001 +8.5332482690E+001  +1.2634578875E-001 +1.7539596471E+001  +2.7395625796E-001 +1.6883233116E+002 
4263936.170 +1.9301963529E-001 +1.5365284702E+002  +1.0867595598E-001 +9.3765142925E+001  +1.0526586628E-001 +3.0476042692E+001  +3.2179751809E-001 +1.7147515181E+002 
4389081.352 +1.5146743672E-001 +1.4445053457E+002  +1.8906976385E-001 +6.6760239674E+001  +1.9111562335E-001 +5.4081169967E+000  +1.4506878833E-001 +1.4080040688E+002 
4514226.533 +1.9427447568E-001 +1.3884524892E+002  +2.0960203337E-001 +1.0033449737E+002  +2.0208438017E-001 +4.3421084811E+001  +4.7344374406E-001 +1.5209913739E+002 
4639371.715 +2.4002275649E-001 +1.2855185265E+002  +2.9357572777E-001 +9.8030026568E+001  +2.9026818675E-001 +4.2816573236E+001  +4.6832821852E-001 +1.2902705062E+002 
4764516.896 +1.2968391393E-001 +6.2302015048E+001  +6.5484514592E-001 +5.4830782957E+001  +6.4209428249E-001 +3.8478246028E+000  +9.9848768135E-001 +5.3978928782E+001 
4889662.078 +1.3504352283E+000 +6.1900184004E+001  +2.8830164190E+000 +9.8043846326E+001  +2.9134982281E+000 +4.9377013421E+001  +5.6954309431E+000 +9.8783617586E+001 
5014807.259 +3.4129268029E-001 +9.3893865255E+001  +7.9195731480E-001 +9.3863265254E+001  +7.7154201947E-001 +4.8704710267E+001  +1.5388288351E+000 +1.0690469183E+002 
5139952.441 +2.3890543156E-001 +1.3392545268E+002  +3.0955267630E-001 +8.7030468408E+001  +3.0085565582E-001 +4.3150993321E+001  +5.5238707036E-001 +1.3327870355E+002 
5265097.622 +3.3869903596E-001 +1.3486771644E+002  +3.3959403279E-001 +1.1573843241E+002  +3.2617991941E-001 +7.7279280044E+001  +8.4821384853E-001 +1.5298927022E+002 
5390242.804 +3.4546059698E-001 +1.3343324988E+002  +3.8601581617E-001 +1.0984891471E+002  +3.8073538328E-001 +7.3520448376E+001  +9.5062584786E-001 +1.4453583812E+002 
5515387.985 +3.3959156473E-001 +1.3724744337E+002  +2.9813679076E-001 +1.0366742305E+002  +2.9601302858E-001 +7.0578402309E+001  +7.7261912654E-001 +1.5528395233E+002 
5640533.166 +3.3832306787E-001 +1.3852267383E+002  +3.0892946073E-001 +9.7411460167E+001  +3.0426791316E-001 +6.5108406245E+001  +7.8609326758E-001 +1.5147998244E+002 
5765678.348 +3.7814220067E-001 +1.3109227589E+002  +4.1919151109E-001 +9.4462101271E+001  +4.0501340918E-001 +6.6069812746E+001  +9.0370022887E-001 +1.3935875856E+002 
5890823.529 +3.4846036668E-001 +1.1793861928E+002  +5.8500283196E-001 +8.7274675648E+001  +5.7633433858E-001 +6.1226854378E+001  +1.2685291421E+000 +1.3073076673E+002 
6015968.711 +3.5178852387E-001 +1.2614731293E+002  +4.8738993433E-001 +7.1762497300E+001  +4.7434972756E-001 +4.7416119020E+001  +7.8926581720E-001 +1.2099312511E+002 
6141113.892 +4.4451555655E-001 +1.2171091291E+002  +5.6952582713E-001 +8.0039165181E+001  +5.5239189464E-001 +5.9357679953E+001  +1.0345298153E+000 +1.2431088239E+002 
6266259.074 +4.3151842419E-001 +1.0220002478E+002  +7.9309525893E-001 +6.8711623744E+001  +7.8258320985E-001 +4.9208824979E+001  +1.2828206812E+000 +1.0684919855E+002 
6391404.255 +3.0779690882E-001 +1.0174196426E+002  +6.8276337139E-001 +4.9633920875E+001  +6.7065557900E-001 +3.3210154511E+001  +7.7116310496E-001 +1.0641504150E+002 
6516549.437 +3.4814242963E-001 +9.6630737727E+001  +7.4328136505E-001 +4.5993217997E+001  +7.2645349235E-001 +3.2305779026E+001  +7.6954991654E-001 +1.0175159627E+002 
6641694.618 +4.6175340595E-001 +5.6880559680E+001  +1.0894277682E+000 +3.7662263585E+001  +1.0823310692E+000 +2.6729936959E+001  +1.0865411555E+000 +7.4953935119E+001 
6766839.800 +1.8133765294E-001 +4.7981984582E+001  +1.0113564389E+000 +1.6942268826E+001  +9.9904309118E-001 +7.7869618763E+000  +8.9785987239E-001 +3.9624696434E+001 
6891984.981 +9.1301430448E-002 +4.8586575592E+001  +9.5591591625E-001 +1.1729268548E+001  +9.4942557074E-001 +4.8886222792E+000  +7.1266460148E-001 +4.7136099755E+001 
7017130.163 +1.0335080549E-001 +5.2869213060E+001  +9.3213615311E-001 +7.6651399472E+000  +9.3619336645E-001 +1.6900321163E+000  +4.5647291925E-001 +2.5240647207E+001 
7142275.344 +1.3166415927E-001 +7.4182226960E+001  +9.1889499077E-001 +6.1201351885E+000  +9.1204491384E-001 +2.3017252768E+000  +2.8543566237E-001 +2.8087907415E+001 
7267420.526 +8.3722349785E-002 -1.5397710778E+001  +9.9120987246E-001 +8.6317740997E-001  +9.8652775037E-001 -4.6970299790E-001  +2.1999535895E-001 -1.2515544113E+001 
7392565.707 +9.9290553603E-002 -1.1908724453E+002  +1.0014868089E+000 -7.6369078616E-001  +1.0030870955E+000 -5.6934608758E-001  +1.9507033503E-001 -1.3360623036E+001 
7517710.889 +1.6774140264E-001 +1.2042947077E+002  +9.2749538545E-001 -1.1734536172E+000  +9.2478707248E-001 +3.4080352313E-001  +7.4877715856E-002 -1.5898693172E+002 
7642856.070 +1.3802478277E-001 +1.5286732753E+002  +9.0473903083E-001 -2.3327680503E+000  +9.0213322909E-001 +1.1371918865E+000  +1.0111640045E-001 +8.1750937044E+001 
7768001.252 +2.3998736321E-001 +1.3307539501E+002  +8.4778330802E-001 -4.1444828877E+000  +8.4543114685E-001 +7.2098178826E-001  +2.0230339500E-001 +1.4284657798E+002 
7893146.433 +1.6889632230E-001 +1.4602235394E+002  +8.3735310111E-001 -4.3100145887E+000  +8.3293943395E-001 +2.0209161918E+000  +2.2529915906E-001 +1.1028929278E+002 
8018291.615 +2.3475546709E-001 +1.2633797468E+002  +8.1166089789E-001 -4.2522616293E+000  +8.0606229874E-001 +3.4657066587E+000  +1.8678265656E-001 +1.1821916328E+002 
8143436.796 +2.8350257730E-001 +1.2501200398E+002  +7.8492013033E-001 -5.7314319543E+000  +7.7879564130E-001 +3.3567099725E+000  +2.5288012480E-001 +1.3640371572E+002 
8268581.977 +2.7759823581E-001 +1.2960551992E+002  +7.6379285985E-001 -6.6033952871E+000  +7.6467172291E-001 +3.3649764800E+000  +3.0265143323E-001 +1.3118942759E+002 
8393727.159 +3.0574724516E-001 +1.2946238201E+002  +7.4254511419E-001 -6.1785177410E+000  +7.3994675024E-001 +4.7984525015E+000  +3.3614336346E-001 +1.1777355335E+002 
8518872.340 +2.8299312779E-001 +1.3071117407E+002  +7.5177549317E-001 -6.8571147601E+000  +7.4923134814E-001 +4.7499159248E+000  +2.1658046006E-001 +1.3329440304E+002 
8644017.522 +2.7597221336E-001 +1.2894698307E+002  +7.4061618226E-001 -6.9341980319E+000  +7.3622047861E-001 +5.5936326003E+000  +2.4647716652E-001 +1.2381946052E+002 
8769162.703 +2.6839253520E-001 +1.3977630999E+002  +7.3519374520E-001 -8.2667600082E+000  +7.2807154093E-001 +4.8174427832E+000  +2.8544815779E-001 +1.2770292173E+002 
8894307.885 +2.6249908597E-001 +1.2736686822E+002  +7.2106976993E-001 -8.0049268634E+000  +7.1713607894E-001 +6.0483628754E+000  +3.3190569373E-001 +1.2760669525E+002 
9019453.066 +2.7753249627E-001 +1.3219230787E+002  +7.1569718234E-001 -8.2053601570E+000  +7.1161942536E-001 +5.7441045067E+000  +3.1256867579E-001 +1.2916772424E+002 
9144598.248 +2.8615777216E-001 +1.4352908974E+002  +7.1903747646E-001 -9.3845469552E+000  +7.1298975273E-001 +5.3223024244E+000  +2.9436478013E-001 +1.3554546646E+002 
9269743.429 +2.8742450082E-001 +1.3907990696E+002  +7.1098328676E-001 -9.2109120423E+000  +7.0572272766E-001 +6.0105707981E+000  +2.9903793683E-001 +1.3292894202E+002 
9394888.611 +2.5301720102E-001 +1.3537220814E+002  +7.0691002755E-001 -8.5736655527E+000  +6.9981523032E-001 +6.5939785549E+000  +3.3160177275E-001 +1.2615009576E+002 
9520033.792 +2.5996892736E-001 +1.4932712841E+002  +7.1523129655E-001 -9.8377629282E+000  +7.1342342144E-001 +5.7685912242E+000  +2.9393054654E-001 +1.3903925210E+002 
9645178.974 +2.7372467878E-001 +1.4164058604E+002  +7.0855712189E-001 -9.4567817719E+000  +7.0491945202E-001 +6.5941533426E+000  +2.8411687084E-001 +1.3559094947E+002 
9770324.155 +2.8591216132E-001 +1.5360712765E+002  +7.2020364370E-001 -1.0101347307E+001  +7.1362367676E-001 +5.8752466761E+000  +2.4193211562E-001 +1.4259184026E+002 
9895469.337 +2.9074810887E-001 +1.4419707352E+002  +7.1367424680E-001 -9.7906603175E+000  +7.1209207164E-001 +6.1858412463E+000  +2.3886092606E-001 +1.4516258707E+002 
10020614.518 +2.7246850763E-001 +1.4420559217E+002  +7.0946580034E-001 -9.2489079781E+000  +7.0762801124E-001 +6.6098718596E+000  +2.7634020215E-001 +1.3599902531E+002 
10145759.700 +2.5984639654E-001 +1.4086070083E+002  +7.1161038229E-001 -9.3282755688E+000  +7.1070946992E-001 +6.6752836172E+000  +2.9949190266E-001 +1.3898582863E+002 
10270904.881 +2.4397630456E-001 +1.3890213573E+002  +7.1786386287E-001 -8.5318305116E+000  +7.1096981100E-001 +6.9183671234E+000  +2.8936120596E-001 +1.3696205233E+002 
10396050.063 +2.5399561768E-001 +1.3863407066E+002  +7.1896761201E-001 -8.1415461386E+000  +7.1137787313E-001 +7.3040751727E+000  +2.4227634408E-001 +1.2899916496E+002 
10521195.244 +2.6961629256E-001 +1.3812915288E+002  +7.1617390574E-001 -8.3988918241E+000  +7.1334525658E-001 +6.4717631609E+000  +2.8853447119E-001 +1.3856465933E+002 
10646340.426 +2.9210354500E-001 +1.3648793775E+002  +7.0960804646E-001 -8.2230129939E+000  +7.0624116689E-001 +6.6772599451E+000  +3.0629325313E-001 +1.3112439545E+002 
10771485.607 +2.6462287650E-001 +1.3125194637E+002  +7.1851973202E-001 -7.6799803534E+000  +7.1695306901E-001 +6.8396431077E+000  +2.9660666350E-001 +1.3615251343E+002 
10896630.788 +2.5820482161E-001 +1.4073463866E+002  +7.3175995428E-001 -7.5458869500E+000  +7.2568102015E-001 +6.6102796948E+000  +2.5294456643E-001 +1.3050247538E+002 
11021775.970 +2.5266446883E-001 +1.3843647724E+002  +7.2783693597E-001 -7.3318689005E+000  +7.2325322431E-001 +6.3245542424E+000  +3.0012240402E-001 +1.3015880586E+002 
11146921.151 +2.6801649879E-001 +1.3792266348E+002  +7.3184636636E-001 -7.1118244116E+000  +7.2872583609E-001 +6.3315862047E+000  +2.8364331644E-001 +1.2715128079E+002 
11272066.333 +2.2659105144E-001 +1.3606365156E+002  +7.4134201935E-001 -6.1638476433E+000  +7.3680659653E-001 +6.4508255303E+000  +2.6712722991E-001 +1.2605647477E+002 
11397211.514 +2.7727475599E-001 +1.3222448686E+002  +7.3807060314E-001 -6.6058513621E+000  +7.3499512561E-001 +5.8390939527E+000  +2.7284006766E-001 +1.3142324175E+002 
11522356.696 +2.3953125514E-001 +1.3668027897E+002  +7.5534373402E-001 -6.1197190758E+000  +7.5070698865E-001 +6.0102976096E+000  +2.5558977961E-001 +1.3319856325E+002 
11647501.877 +2.3457700900E-001 +1.3409307691E+002  +7.6004364601E-001 -5.5610486980E+000  +7.5479538595E-001 +5.9212245838E+000  +2.4092041020E-001 +1.3021986021E+002 
11772647.059 +2.4282022775E-001 +1.2829436477E+002  +7.5860093510E-001 -5.0633323293E+000  +7.5488790624E-001 +5.6642071771E+000  +2.5786043914E-001 +1.2711125902E+002 
11897792.240 +2.3164368124E-001 +1.2837016505E+002  +7.6718865640E-001 -4.5564903562E+000  +7.6276949736E-001 +5.7306620692E+000  +2.2575473964E-001 +1.2542398914E+002 
12022937.422 +2.2999814769E-001 +1.3451213545E+002  +7.8061193890E-001 -4.6610043703E+000  +7.7479264313E-001 +5.0214945430E+000  +2.2179718391E-001 +1.2858937436E+002 
12148082.603 +2.3562302827E-001 +1.3360226783E+002  +7.8408546354E-001 -4.3707683668E+000  +7.7875767965E-001 +4.7164533933E+000  +2.1867439928E-001 +1.2713060837E+002 
12273227.785 +1.9176880217E-001 +1.3121582879E+002  +7.9767414030E-001 -3.7070646443E+000  +7.9233458856E-001 +4.6823320343E+000  +2.1547233458E-001 +1.2990798993E+002 
12398372.966 +1.9146701331E-001 +1.3576630745E+002  +8.0780116949E-001 -3.9840361521E+000  +8.0405547113E-001 +3.8869688014E+000  +2.2334650105E-001 +1.3690664029E+002 
12523518.148 +1.7679008067E-001 +1.2921744907E+002  +8.1473451419E-001 -3.1573476262E+000  +8.0931733079E-001 +4.0825159503E+000  +2.0313416260E-001 +1.3244136022E+002 
12648663.329 +1.8088298784E-001 +1.2768972736E+002  +8.1944185070E-001 -2.8830398414E+000  +8.1217055598E-001 +3.8643460618E+000  +2.0129309927E-001 +1.2706980585E+002 
12773808.511 +1.7255370241E-001 +1.2944028669E+002  +8.3172222629E-001 -2.5649875086E+000  +8.2709130739E-001 +3.4966462989E+000  +1.7386638187E-001 +1.3112883368E+002 
12898953.692 +1.4838564437E-001 +1.3224783674E+002  +8.4337501454E-001 -2.0013111682E+000  +8.3727052356E-001 +3.5529048225E+000  +1.6205607533E-001 +1.2129080921E+002 
13024098.874 +1.6219748437E-001 +1.3776030683E+002  +8.5091506217E-001 -2.4194091396E+000  +8.4550703809E-001 +2.6305815761E+000  +1.6756711714E-001 +1.3118100938E+002 
13149244.055 +1.3629672687E-001 +1.2945988061E+002  +8.5975637489E-001 -1.8931766499E+000  +8.5717032975E-001 +2.4365655446E+000  +1.6321821294E-001 +1.3628218554E+002 
13274389.237 +1.4519984744E-001 +1.3018954838E+002  +8.6839295512E-001 -1.5251301237E+000  +8.6229210220E-001 +2.4996011659E+000  +1.3819836989E-001 +1.2379732189E+002 
13399534.418 +1.2930407111E-001 +1.2934762426E+002  +8.7653384080E-001 -1.7092953041E+000  +8.7633306068E-001 +2.0778481045E+000  +1.1856176339E-001 +1.3052402712E+002 
13524679.599 +8.6231205666E-002 +1.2779288932E+002  +9.0429232486E-001 -1.2572935032E+000  +8.8822871442E-001 +1.7924881542E+000  +1.3188861421E-001 +1.2595718621E+002 
13649824.781 +1.0266118377E-001 +1.3590562919E+002  +9.0914992601E-001 -1.1391687396E+000  +8.9057157091E-001 +1.6053768317E+000  +1.2736712011E-001 +1.2809737940E+002 
13774969.962 +9.0513466639E-002 +1.2842510450E+002  +9.1075229404E-001 -1.2143860038E+000  +9.0981059521E-001 +1.1100992737E+000  +8.2847367314E-002 +1.4790942078E+002 
13900115.144 +7.5026887694E-002 +1.2391031822E+002  +9.1641184029E-001 -6.4836288168E-001  +9.2784825061E-001 +1.0271801950E+000  +9.0587882610E-002 +1.3456031202E+002 
14025260.325 +7.3433707145E-002 +1.3627209852E+002  +9.2920133009E-001 -8.8303888799E-001  +9.2598597771E-001 +6.4118128408E-001  +6.9175251078E-002 +1.3571853701E+002 
14150405.507 +5.7427822282E-002 +1.3238348446E+002  +9.5057653763E-001 -9.9875059054E-001  +9.3706491654E-001 +1.1074277689E+000  +6.8546970216E-002 +1.3741007454E+002 
14275550.688 +5.2672205395E-002 +1.3931133797E+002  +9.4261191980E-001 -1.2508936462E+000  +9.6470065995E-001 +3.9537431829E-001  +5.6992075404E-002 +1.4983370328E+002 
14400695.870 +4.4824535004E-002 +1.1236600036E+002  +9.5876286130E-001 +9.1734393660E-002  +9.5792393076E-001 -5.2149754744E-001  +5.8233980793E-002 +1.3884924821E+002 
