!  2-Port S-parameters saved by WinCal
! VAR NAME=S2_r4c9_formed(1)_9k-100M_2
! VAR DATE=30/08/2024 11:37:08
! VAR FILENAME=S2_r4c9_formed(1)_9k-100M_2.S2P
! VAR MeasName=S-Parameters (CALIBRATED_DATA) read from VNA (P5004A)
! VAR MeasDate=28/08/2024 10:03:39
! VAR PHYS_PORTS=1,2
! VAR ObjTypeName=DATASET
! VAR IndexType=Frequency
!
# Hz S MA R 50
9000.000 +8.5880474249E-002 -1.5992065127E+002  +7.1011396893E-003 -8.5725943546E+001  +1.3803754007E-002 -1.6016430686E+002  +2.7052137951E-001 -1.5001901483E+002 
134145.181 +1.1102709205E-001 +1.6994642256E+002  +6.4211626795E-004 +1.9496757374E+001  +4.5029904194E-004 +1.0778734518E+002  +2.3769612334E-001 -1.7105446191E+002 
259290.363 +1.1176135361E-001 +1.6928448430E+002  +4.8008932591E-004 +8.3026073497E+001  +4.6895485018E-004 +1.6410182592E+002  +2.4070586032E-001 -1.6878116992E+002 
384435.544 +1.1356438809E-001 +1.7103779295E+002  +5.3090455939E-004 -1.1718504946E+002  +6.6028844836E-004 -2.1674023582E+001  +2.4783504592E-001 -1.6999906709E+002 
509580.726 +1.1603528475E-001 +1.7165389690E+002  +2.4240184878E-004 -1.5106158258E+002  +2.3277501624E-004 +4.5305181991E+001  +2.4714147593E-001 -1.6599561792E+002 
634725.907 +1.1456438570E-001 +1.7307021691E+002  +6.1029826565E-004 -1.6687051114E+002  +9.5132864453E-004 -5.3257598413E+001  +2.4572810730E-001 -1.6492447525E+002 
759871.089 +1.2058151599E-001 +1.7099472768E+002  +6.8671839754E-004 +2.8214262972E+001  +6.0349050528E-004 +5.8662700161E+001  +2.5017271386E-001 -1.6467366438E+002 
885016.270 +1.2105915006E-001 +1.6919914769E+002  +2.2444035019E-004 -3.6918823776E+001  +7.7424644290E-004 -3.5505688854E+001  +2.4444766369E-001 -1.6677018677E+002 
1010161.452 +1.1575636549E-001 +1.7167028573E+002  +8.1618755235E-004 +2.1395165545E+001  +2.4561021903E-003 -8.2973450130E+001  +1.9805569488E-001 -1.6625421275E+002 
1135306.633 +1.1603844611E-001 +1.6758835663E+002  +6.8860537123E-004 -7.9245129355E+000  +1.5675597637E-003 +8.4812301194E+001  +2.0337635457E-001 -1.6276492295E+002 
1260451.815 +1.2135327961E-001 +1.7048869728E+002  +1.1420709668E-003 +1.4643248607E+002  +1.0975218233E-003 -1.3128068028E+002  +2.2585953534E-001 -1.5564823774E+002 
1385596.996 +1.2758234970E-001 +1.7121816915E+002  +8.8484081862E-004 -1.4156687783E+002  +1.6333871617E-004 +1.3716698505E+002  +2.7506045979E-001 -1.5675526621E+002 
1510742.178 +1.2783019538E-001 +1.7345612717E+002  +1.9421714578E-004 -1.7847026379E+002  +7.8301264465E-004 -3.6396579600E+001  +2.6203908403E-001 -1.5627968072E+002 
1635887.359 +1.2610969189E-001 +1.7092811408E+002  +1.5526950657E-003 +1.1889570514E+001  +1.1266993843E-003 -2.7807450976E+001  +2.5345518651E-001 -1.5569758507E+002 
1761032.541 +1.3311096065E-001 +1.7011026155E+002  +2.6471587038E-004 +1.4937823125E+002  +1.1743463505E-003 +2.8583769752E+001  +2.1858152664E-001 -1.5747461669E+002 
1886177.722 +1.3006039715E-001 +1.6681237450E+002  +1.4103642212E-003 -1.7747060824E+002  +2.3023367017E-003 +4.4012868345E+001  +2.0731184069E-001 -1.6272785161E+002 
2011322.904 +1.3190264306E-001 +1.6575803353E+002  +1.1115892310E-003 +2.4368644201E+001  +5.2143989115E-004 -1.5792923611E+002  +2.1392088772E-001 -1.6919466055E+002 
2136468.085 +1.2886601994E-001 +1.6777661274E+002  +3.9324616797E-003 -8.5999046103E+001  +1.4764700048E-003 +6.7616417177E+001  +2.0591574670E-001 -1.7546907616E+002 
2261613.267 +1.2731966924E-001 +1.6468185092E+002  +2.5195146313E-003 +6.4860724666E+001  +1.0470773154E-003 +6.1716894016E+001  +2.1655498974E-001 -1.7575580497E+002 
2386758.448 +1.3702707184E-001 +1.6349128232E+002  +3.7227540205E-003 +5.1421893195E+001  +7.5288884821E-003 -5.7142036458E+001  +1.3430685414E-001 +1.4011114613E+002 
2511903.630 +1.2973184253E-001 +1.5840845453E+002  +2.0850004420E-003 -1.7432852571E+002  +6.1229638436E-003 -1.3361244088E+001  +2.1622192662E-001 +1.7274123110E+002 
2637048.811 +1.0840168276E-001 +1.6625342851E+002  +1.8606481112E-002 -1.7487717215E+002  +1.8462054236E-002 -1.5285021385E+002  +2.4942220320E-001 +1.1963925079E+002 
2762193.992 +1.1618223384E-001 +1.5603482177E+002  +1.1923520035E-002 +6.0918278111E+000  +1.5285375541E-002 -2.3985205448E+001  +5.6142924825E-001 -6.2975661257E+001 
2887339.174 +1.0988771006E-001 +1.7906762738E+002  +6.5497461254E-003 -5.2490019131E+001  +2.5903341308E-003 +6.9953063543E+001  +3.7797959960E-001 -1.1946277953E+002 
3012484.355 +1.2512380457E-001 +1.7852603945E+002  +1.6688495442E-002 -1.6578688514E+002  +1.2694916190E-002 +1.7905131884E+002  +3.7998709675E-001 -6.0555588770E+001 
3137629.537 +1.2619197015E-001 +1.6488502711E+002  +8.9110495546E-003 +1.0027860980E+002  +8.0923822552E-003 +1.1512215526E+002  +1.4369788272E-001 -8.3319558188E+001 
3262774.718 +1.3240710254E-001 +1.5915964661E+002  +2.2611535173E-003 +1.9491136917E+001  +4.4480626710E-003 -8.7887828323E+001  +2.2357857439E-001 -1.2359670168E+002 
3387919.900 +1.0548716649E-001 +1.5738250431E+002  +1.1827369571E-002 -9.6283338315E+001  +1.4129169471E-002 +4.0301368629E+001  +1.9765916531E-001 -9.1986408368E+001 
3513065.081 +1.5710249854E-001 +1.4812205372E+002  +5.4670770993E-003 +1.3654567784E+002  +1.7463624121E-002 +8.2270687851E+001  +2.9201979199E-001 +7.6663501482E+001 
3638210.263 +1.6667193582E-001 +1.4075110161E+002  +5.0282503032E-002 -1.3628418023E+002  +2.6015163743E-002 -8.3774952572E+000  +1.7256760105E+000 +3.8590467994E+001 
3763355.444 +1.5281101964E-001 +1.3494282559E+002  +1.3198558475E-002 +8.9003060097E+001  +1.7330838121E-002 -1.5298570737E+002  +3.9962915295E-001 -7.2314553310E+000 
3888500.626 +1.6160116151E-001 +1.5081141868E+002  +1.3604719872E-002 +9.8334866131E+001  +1.2928969363E-002 +1.4927616211E+002  +9.3204335013E-001 +1.2598545206E+002 
4013645.807 +1.6279525312E-001 +1.4328650082E+002  +5.4161335045E-003 +1.0360240697E+002  +5.4991314297E-003 +8.3958265170E+001  +5.2378416988E-001 +1.0153916812E+002 
4138790.989 +2.0366315112E-001 +1.4363220678E+002  +7.2477764593E-003 +1.0193851579E+002  +5.6661855517E-003 +4.7053157027E+001  +1.3330574751E-001 +1.0335860345E+002 
4263936.170 +1.8423857223E-001 +1.3611820310E+002  +9.7939418850E-003 +1.0884405633E+002  +6.3502919271E-003 -5.7537490369E+001  +1.0935966206E+000 +1.1404101538E+002 
4389081.352 +1.8121078475E-001 +1.3733567280E+002  +1.1665049943E-002 -1.1563473099E+002  +6.8824938269E-003 -1.3329996957E+002  +7.1318005413E-001 +6.3167039484E+001 
4514226.533 +2.8332942504E-001 +1.1991178466E+002  +1.1283350529E-002 +1.7505858609E+002  +6.6658078939E-002 +7.3492997906E+001  +1.5662364975E+000 +8.9326383566E+001 
4639371.715 +2.3617743564E-001 +1.3411606004E+002  +3.7171778564E-002 +1.2665477864E+002  +2.4247459804E-001 +1.1867730063E+002  +7.8170321253E+000 -4.8435806928E+001 
4764516.896 +3.5417785108E-001 +1.3063400641E+002  +2.5161664669E-002 -7.4470705587E+001  +2.6092211231E-002 +1.0627625488E+002  +1.7642744750E+000 +6.6651764010E+001 
4889662.078 +5.5967561047E-001 +1.3672057776E+002  +5.7344066864E-002 +8.4520559130E+001  +8.9173573226E-003 +1.3133930750E+002  +2.1856929572E+000 -1.0103102926E+002 
5014807.259 +3.9717237161E-001 +1.3404548794E+002  +1.8939967881E-002 -1.7109082955E+002  +4.6704067388E-003 -1.2214393884E+002  +2.7631104125E+000 -1.6750359174E+002 
5139952.441 +3.9563092298E-001 +1.3269602120E+002  +3.4640709967E-002 -8.9782861922E+001  +2.2944035580E-002 +1.2566343646E+002  +4.4485991122E+000 +1.0936690736E+002 
5265097.622 +4.2531871952E-001 +1.3035972569E+002  +8.2145925883E-002 -1.5165218134E+002  +7.5880077107E-002 +9.8591548148E+001  +6.5904949191E+000 +9.7545934745E+001 
5390242.804 +4.0043371301E-001 +1.2134345280E+002  +1.4195303016E-002 +1.5711352463E+002  +2.1238754844E-002 +1.2679561416E+002  +1.5369440853E+000 +9.2306626765E+001 
5515387.985 +4.2096971255E-001 +1.3230076402E+002  +3.0508375902E-002 +7.6802958889E+001  +8.7270901313E-003 +2.2352805197E+001  +3.1020303602E+000 +8.1103135385E+001 
5640533.166 +5.7479488273E-001 +1.2194536875E+002  +4.0961568266E-002 +1.2827960559E+002  +5.3230699093E-003 -3.7242771128E+000  +2.9373402106E+000 +7.9804488123E+001 
5765678.348 +5.6957376252E-001 +1.2495129296E+002  +8.9932090326E-003 +1.0635433009E+002  +3.9461215117E-002 +7.1079741102E+001  +2.7469736794E+000 +4.0832520939E+001 
5890823.529 +4.8518638255E-001 +1.2138999446E+002  +1.4876655809E-002 -1.2155279629E+002  +1.6963819833E-002 -1.4003621334E+001  +1.8117591999E+000 +1.6963540656E+001 
6015968.711 +7.7765336995E-001 +1.1921345352E+002  +4.0435262163E-002 -1.3237849045E+001  +1.1870698333E-002 +8.1398034858E+001  +2.6275495484E+000 +6.1867177782E+001 
6141113.892 +6.8656159817E-001 +1.0947471074E+002  +2.2473459915E-002 +1.4633442945E+002  +2.8349439361E-003 -9.3596622546E+001  +2.3211482181E+000 -7.7441340392E-001 
6266259.074 +8.8214471459E-001 +9.7726979735E+001  +3.1021756518E-002 +1.5852771080E+002  +1.5854694679E-002 +1.3694998895E+002  +2.1163445357E+000 +1.3785897982E+001 
6391404.255 +9.6577101838E-001 +9.4524348452E+001  +2.8207022183E-002 +7.0162327553E+001  +6.1395649824E-003 -1.4375668865E+002  +1.2871192476E+000 +2.5109581047E+001 
6516549.437 +1.0317311901E+000 +9.7341543530E+001  +4.8050132809E-003 +5.8173360806E+001  +2.0061988899E-002 +6.0386599466E+001  +1.9016232660E+000 +5.3075245074E+000 
6641694.618 +1.5632456704E+000 +7.2402383547E+001  +2.6340542401E-002 -1.0495083086E+002  +2.9898339411E-002 +1.0873261487E+002  +1.1834690018E+000 -1.0750625940E+000 
6766839.800 +1.7889981965E+000 +6.5947858206E+001  +1.7332692177E-002 +2.6133383623E+001  +1.9973432344E-002 +5.4940450645E+001  +1.3192741744E+000 -5.4753242701E+000 
6891984.981 +1.8210969545E+000 +3.1987633266E+001  +2.6398304127E-002 +4.8785250774E+001  +8.5355610910E-003 +4.1970857018E+001  +1.1645146794E+000 -4.6170178339E+000 
7017130.163 +1.6993214198E+000 +2.7970971966E+001  +1.1765969993E-002 +1.8219451279E+001  +3.0246239563E-002 -5.5912036195E+001  +1.2639920862E+000 -1.3769657194E+001 
7142275.344 +1.6797271407E+000 +1.2547436858E+001  +9.5842581511E-003 +4.5516744626E+001  +2.3524133306E-002 +1.4723514801E+002  +1.2958734840E+000 -1.0100280579E+001 
7267420.526 +1.7463171078E+000 -6.3810545627E+000  +4.2388088430E-003 -1.3156989564E+002  +1.8985045605E-003 -1.2658191435E+002  +1.2579556545E+000 -1.4125416680E+001 
7392565.707 +1.2619484874E+000 +8.2291471778E+000  +4.9361524771E-003 +9.3814377299E+001  +8.0871650566E-003 -8.9211939678E+001  +1.2645912681E+000 -7.7821918785E+000 
7517710.889 +1.1208639409E+000 -2.8962628890E+000  +3.4622080343E-003 +6.1430476734E+001  +7.2066709948E-003 -1.4792844196E+002  +1.2830953273E+000 -2.3068464846E+000 
7642856.070 +1.0437098260E+000 +9.8505360335E+000  +3.4490230836E-003 +2.0722302948E+001  +1.0227760357E-002 +1.4110883190E+002  +1.1952277321E+000 -3.5848887950E+000 
7768001.252 +1.0263504552E+000 +2.5212927410E+000  +1.9238852653E-003 -1.3437802527E+002  +4.6329832930E-003 -3.9359177583E+001  +1.0484310671E+000 -3.2048920027E+000 
7893146.433 +9.4874425769E-001 +6.3841740020E+000  +3.7187687318E-003 +2.5649802701E+001  +8.0565148006E-003 +7.7735495499E+001  +9.0428159855E-001 +4.4548920965E+000 
8018291.615 +7.9678959945E-001 +9.6382822130E+000  +8.2825831602E-003 +1.4956434450E+002  +4.0555212220E-003 +6.4435761985E+001  +9.1333979059E-001 -3.0897437819E+000 
8143436.796 +7.7884569775E-001 +8.4922924064E+000  +1.3488251972E-003 -3.6430815869E+001  +3.5410682155E-003 +9.4168643036E+001  +8.3791141466E-001 +1.4545526667E+000 
8268581.977 +7.1811467972E-001 +8.0039329850E+000  +3.3438889531E-003 +5.7464664703E+001  +2.5524815631E-003 +1.5124443875E+002  +7.8193935481E-001 +7.8442382077E-001 
8393727.159 +7.4198483322E-001 +8.3583110584E+000  +5.7653534917E-003 +7.7695991580E+001  +8.7533186274E-003 +8.3148630708E+001  +8.0351165565E-001 +2.9411009249E-001 
8518872.340 +6.8875790253E-001 +8.7091376146E+000  +6.3562459349E-003 +2.9543784672E+001  +1.3972318046E-003 -2.2497805374E+001  +6.8563543857E-001 +5.3360235926E-001 
8644017.522 +7.2517540467E-001 +7.3465051574E+000  +9.7169478390E-004 +4.4186022745E+001  +6.3268782889E-003 +3.9818742712E+001  +6.7082288683E-001 -3.1008816894E+000 
8769162.703 +6.7561309778E-001 +5.1250561477E+000  +7.6628719580E-003 +1.2759896702E+002  +1.2566337109E-003 +6.2399048447E+000  +6.8151648823E-001 -1.6928557520E+000 
8894307.885 +6.2721897564E-001 +7.1935384058E+000  +7.4345174215E-003 +9.7448727307E+001  +1.9470148773E-003 +1.0181500447E+002  +6.4292592617E-001 -2.6724316484E+000 
9019453.066 +6.2782539920E-001 +4.2566804607E+000  +4.8425730919E-003 +8.5742033937E+001  +5.6664307383E-003 +1.2917119909E+002  +6.6407320474E-001 +6.8987329698E-001 
9144598.248 +5.9887761570E-001 +5.0949762275E+000  +8.7581980340E-003 +9.1257691538E+001  +3.9524907684E-003 +9.2222045170E+001  +6.4041652286E-001 +2.5125654113E+000 
9269743.429 +5.7734188651E-001 +7.9262693516E+000  +2.7310718266E-003 +7.5559301943E+001  +5.1515346233E-003 +1.1663049700E+002  +6.7495093733E-001 +2.4634437759E-001 
9394888.611 +5.3599175515E-001 +2.4360252467E+000  +3.5229529560E-003 +1.1359883556E+002  +5.5096881440E-003 +1.0627005252E+002  +5.7653214007E-001 -2.8676330061E+000 
9520033.792 +5.5418458659E-001 +7.2260893069E+000  +2.5014493431E-003 +1.6255462532E+002  +7.2415468764E-003 +8.4318013940E+001  +5.9085221653E-001 -8.8910348795E+000 
9645178.974 +5.8425732795E-001 +1.5125453001E+000  +5.4403100289E-003 +5.2721676231E+001  +2.1292336105E-003 +1.2134473541E+002  +5.9821025855E-001 -1.9011914818E+000 
9770324.155 +5.1963223144E-001 +4.8989646250E+000  +3.8353352640E-003 +5.1196995004E+001  +3.2334384545E-003 +9.4556585684E+001  +5.7735665259E-001 -4.3000979691E+000 
9895469.337 +5.2131523509E-001 +1.3226451113E+000  +3.0500386424E-003 +1.4928323236E+002  +2.6855495578E-003 +1.4710851232E+002  +5.7514300138E-001 -4.3211622377E+000 
10020614.518 +5.3570780447E-001 +1.0466464149E+000  +3.6644373487E-003 +9.0434508654E+001  +5.6434947781E-003 +9.0304147225E+001  +6.0986620349E-001 -1.1374064995E+000 
10145759.700 +5.9412008757E-001 +2.1010480153E+000  +3.4101971371E-003 +6.1877198257E+001  +1.8262562540E-003 +1.2340186132E+002  +5.7587694943E-001 +2.5670361354E-001 
10270904.881 +5.9486370451E-001 +4.6672681030E+000  +6.2639776520E-003 +7.6356542953E+001  +3.4370815508E-003 +1.1187960175E+002  +5.7759935956E-001 -2.4956585624E+000 
10396050.063 +5.2461314053E-001 +3.7209420678E+000  +5.5468676914E-003 +9.2386174910E+001  +4.9729970066E-003 +8.3371834966E+001  +6.0211939636E-001 -5.4372169193E+000 
10521195.244 +5.6359658777E-001 +6.4450555949E+000  +4.1429932737E-003 +8.9631200977E+001  +6.5891100449E-003 +9.6933301808E+001  +5.9809920783E-001 +1.4813536395E+000 
10646340.426 +5.7217369292E-001 +3.1321090463E+000  +3.8159502100E-003 +6.8437719295E+001  +2.5661819295E-003 +7.7624375817E+001  +6.0918215251E-001 -1.9501572200E+000 
10771485.607 +5.9085876237E-001 +3.4213308112E+000  +6.0337110689E-003 +9.1198966685E+001  +6.0005110601E-003 +1.1740715374E+002  +6.1117753516E-001 +1.8966456595E+000 
10896630.788 +6.0786212695E-001 +5.2020660101E+000  +6.0348054645E-003 +6.9592558195E+001  +3.2026162841E-003 +7.3651529530E+001  +6.2813744004E-001 +1.0051147113E+000 
11021775.970 +5.8801795138E-001 +8.8242474241E+000  +6.9128943120E-003 +9.4298346350E+001  +4.8835453229E-003 +1.2683342335E+002  +6.4907679504E-001 +7.0851372743E-001 
11146921.151 +6.1123839683E-001 +5.6530078427E+000  +2.7205549628E-003 +6.1540859584E+001  +3.6708381858E-003 +1.2041879315E+002  +6.1955350186E-001 -2.6252292144E+000 
11272066.333 +5.9809608321E-001 +5.4700031322E+000  +4.2965417767E-003 +8.6535018124E+001  +4.5525514247E-003 +9.4469718547E+001  +6.2410271338E-001 +4.4515774206E-001 
11397211.514 +6.0457634726E-001 +6.4688687951E+000  +5.9484241178E-003 +8.1390589057E+001  +4.2785718475E-003 +7.2106806683E+001  +6.4217428364E-001 -1.2700175156E+000 
11522356.696 +6.4020229672E-001 +6.6316390977E+000  +4.5115308141E-003 +1.0578322373E+002  +5.5184844324E-003 +1.0112899666E+002  +6.6367031431E-001 +1.3518779611E+000 
11647501.877 +6.7921945477E-001 +6.2550335855E+000  +5.7765331002E-003 +9.5578195628E+001  +4.2552507696E-003 +8.8421785401E+001  +6.6159547957E-001 +2.6843039164E+000 
11772647.059 +6.8374423728E-001 +6.1985923399E+000  +4.7867746515E-003 +8.6037337374E+001  +5.5940837469E-003 +9.2989199319E+001  +6.7093148688E-001 +1.3304245474E+000 
11897792.240 +6.6895594225E-001 +6.8927469036E+000  +3.6499794553E-003 +9.0346332441E+001  +7.1225126274E-003 +1.1387986851E+002  +6.7588013755E-001 +1.4325327370E+000 
12022937.422 +6.6704826240E-001 +3.9625072638E+000  +5.0551682241E-003 +8.3099402916E+001  +3.6600899947E-003 +1.1063404276E+002  +6.7798012755E-001 -8.1723644936E-001 
12148082.603 +7.0241183313E-001 +5.7302380973E+000  +4.2401142459E-003 +8.9802659440E+001  +4.7919637056E-003 +1.1904018455E+002  +6.8759602413E-001 -3.1613151156E-003 
12273227.785 +6.8630648822E-001 +4.5801767684E+000  +4.7282708862E-003 +1.0936512485E+002  +4.2893808874E-003 +1.1246452561E+002  +7.2750853219E-001 +8.9310461281E-001 
12398372.966 +7.1279433602E-001 +1.3451439586E+000  +6.3299524925E-003 +7.7564898088E+001  +6.0205751964E-003 +7.8671899494E+001  +7.2814519578E-001 -1.4145207626E-001 
12523518.148 +7.3738141557E-001 +3.7877362771E+000  +6.3369946991E-003 +8.4219023122E+001  +5.4541791995E-003 +1.0900505926E+002  +7.3305047389E-001 -2.4663392133E-002 
12648663.329 +7.2711974753E-001 -1.0719790593E+000  +6.6894807771E-003 +1.0874524311E+002  +7.2942433563E-003 +1.0463328143E+002  +7.3674529240E-001 -1.1477412864E+000 
12773808.511 +7.7588611162E-001 +1.2366407511E+000  +7.1996671164E-003 +8.8496712505E+001  +5.5324019606E-003 +8.8983487603E+001  +7.7314856527E-001 -7.6807175865E-001 
12898953.692 +7.6491176443E-001 +4.5905549907E-001  +5.6311125865E-003 +9.8925297546E+001  +6.7325083979E-003 +8.9972259523E+001  +7.8766175189E-001 -1.9864453548E+000 
13024098.874 +7.9917420531E-001 +5.5906063494E-001  +7.1960793738E-003 +9.6135847047E+001  +6.9727039582E-003 +9.5262767955E+001  +7.9667803717E-001 -3.1113611350E+000 
13149244.055 +8.0443117462E-001 +1.6311163190E+000  +5.9068484595E-003 +9.3186116181E+001  +7.3023652894E-003 +9.5858594363E+001  +7.9692569988E-001 -1.6848877834E+000 
13274389.237 +8.2795813774E-001 -1.1116701491E+000  +5.5796227041E-003 +1.0599811601E+002  +6.7842994522E-003 +8.7473764934E+001  +8.2338453114E-001 -2.2459267914E-001 
13399534.418 +8.5835356029E-001 -5.8712679516E-001  +7.1630727774E-003 +9.3259538805E+001  +6.8112674144E-003 +9.2167930851E+001  +8.5477515908E-001 -3.9770318497E+000 
13524679.599 +8.5251588270E-001 -8.3397299819E-001  +6.2874846066E-003 +9.5157474004E+001  +5.9985070608E-003 +9.9475880510E+001  +8.7807853101E-001 -1.1657622695E+000 
13649824.781 +8.9373127745E-001 -1.5361326595E+000  +7.4743781968E-003 +9.6494704722E+001  +6.6575622845E-003 +1.0428429985E+002  +8.8910897711E-001 -3.7245074875E+000 
13774969.962 +8.7474698062E-001 -2.8067951300E+000  +6.5150715399E-003 +1.0218643058E+002  +6.8103165276E-003 +9.5713430057E+001  +9.2816066530E-001 -5.4357382531E+000 
13900115.144 +9.0926533317E-001 -4.1400019841E+000  +7.0439257402E-003 +8.6283222129E+001  +7.1089401961E-003 +8.1781355133E+001  +9.2027909894E-001 -4.3009140163E+000 
14025260.325 +9.2374648716E-001 -4.2051152830E+000  +5.1169602932E-003 +9.6763015662E+001  +8.6060720881E-003 +9.7388160147E+001  +9.5061830331E-001 -3.1163890645E+000 
14150405.507 +9.4166257992E-001 -4.4852801789E+000  +8.0764767015E-003 +8.7772666691E+001  +6.0703806552E-003 +8.9954039030E+001  +9.7098483725E-001 -4.4471255014E+000 
14275550.688 +9.5376278948E-001 -4.3597241757E+000  +8.1026211431E-003 +8.2806248436E+001  +6.1250811552E-003 +9.7023028544E+001  +9.7504460966E-001 -4.7482097491E+000 
14400695.870 +1.0084860737E+000 -4.9206752414E+000  +6.8815049373E-003 +8.9797467507E+001  +8.8537394057E-003 +8.8401337424E+001  +1.0208245221E+000 -5.8450296865E+000 
