!  2-Port S-parameters saved by WinCal
! VAR MeasName=S-Parameters (CALIBRATED_DATA) read from VNA (P5004A)
! VAR MeasDate=28/08/2024 11:48:20
! VAR NAME=S2_r6c9_RESET3_9k-100M_3
! VAR FILENAME=S2_r6c9_RESET3_9k-100M_3.S2P
! VAR DATE=28/08/2024 11:48:20
! VAR PHYS_PORTS=1,2
! VAR ObjTypeName=DATASET
! VAR IndexType=Frequency
!
# Hz S MA R 50
9000.000 +1.1154216786E-001 -1.6560155668E+002  +6.3271768351E-003 +4.1555014477E+000  +1.6540645727E-002 -1.3169449145E+002  +2.8447463731E-001 -1.4118884311E+002 
134145.181 +1.1058712349E-001 +1.6943884880E+002  +1.8876810298E-004 +6.5885917431E+001  +9.3793472908E-005 -3.8332549815E+001  +2.4271291467E-001 -1.7001709520E+002 
259290.363 +1.1253162647E-001 +1.6995713128E+002  +7.6593093200E-004 -4.7159815417E+001  +6.1629591717E-004 +2.7983927758E+001  +2.4056853797E-001 -1.6824058392E+002 
384435.544 +1.1390954581E-001 +1.7035211130E+002  +1.8846521113E-004 -8.5594167849E+001  +2.5125450019E-004 +1.0506720903E+002  +2.5161940322E-001 -1.7013861820E+002 
509580.726 +1.1292544196E-001 +1.7157841120E+002  +1.0995748043E-004 +1.4104972510E+002  +1.8976085624E-003 +1.6899527777E+002  +2.3110206205E-001 -1.6473672483E+002 
634725.907 +1.1643047289E-001 +1.7119841687E+002  +8.5315083067E-004 -1.1956361663E+002  +8.4641532279E-004 -6.7887216266E+001  +2.3929139747E-001 -1.6518262350E+002 
759871.089 +1.1880684754E-001 +1.7017952944E+002  +3.6830427329E-004 -1.4445374187E+002  +7.0788197371E-004 +1.3893337764E+002  +2.4684270395E-001 -1.6600176938E+002 
885016.270 +1.2103112433E-001 +1.6981912415E+002  +5.2588577233E-004 -1.3624830631E+002  +2.5298620242E-004 -1.7190024856E+001  +2.4821830594E-001 -1.6722845461E+002 
1010161.452 +1.1454446350E-001 +1.6847503190E+002  +1.1129213412E-003 -3.4496515327E+001  +1.9218161435E-003 -1.4417417125E+002  +2.1837650438E-001 -1.6256097504E+002 
1135306.633 +1.1493201532E-001 +1.6757593630E+002  +2.3455852142E-003 -1.3694686288E+002  +2.0081372577E-003 +1.1690039803E+002  +2.0334141834E-001 -1.6410399974E+002 
1260451.815 +1.1946872756E-001 +1.7125192439E+002  +3.9886933027E-004 +1.4272804247E+002  +8.0868255557E-004 +8.2217897257E+001  +2.3459246135E-001 -1.5802514699E+002 
1385596.996 +1.2764835101E-001 +1.7267530668E+002  +7.1017226763E-004 -8.8344159893E+001  +1.1362690804E-003 +2.2907421549E+001  +2.8185331154E-001 -1.5929029521E+002 
1510742.178 +1.2855105427E-001 +1.7144499883E+002  +4.9674445131E-004 -8.1025661107E+001  +7.6301644037E-004 -1.7396502811E+002  +2.7044667029E-001 -1.5752494789E+002 
1635887.359 +1.2889432873E-001 +1.7124057366E+002  +1.3751610213E-003 -9.8372003120E+001  +3.6040752989E-004 +1.1904287405E+002  +2.4799880592E-001 -1.5819669440E+002 
1761032.541 +1.2819685547E-001 +1.6851311361E+002  +2.2451393307E-003 -3.1224657544E+001  +1.5849142720E-003 -3.2664098374E+001  +2.0086719960E-001 -1.5476485234E+002 
1886177.722 +1.3138192345E-001 +1.6990894000E+002  +1.4727640895E-003 -4.9852477446E+000  +3.4571679722E-003 +4.2242493703E+001  +1.8207238080E-001 -1.6463398927E+002 
2011322.904 +1.2883396826E-001 +1.6867245259E+002  +2.2268991309E-003 +2.6687517669E+001  +2.0265034352E-003 -2.5194432261E+001  +1.9297870970E-001 -1.6890241098E+002 
2136468.085 +1.3404735134E-001 +1.6859038259E+002  +1.9123100059E-003 -9.5463193720E+001  +8.9987858406E-004 -9.3688740240E+001  +2.1872447890E-001 -1.7649557662E+002 
2261613.267 +1.3201858070E-001 +1.6806708862E+002  +5.4377393799E-003 +7.1297785384E+001  +4.7128753524E-003 -3.1630576675E+001  +2.0045858543E-001 +1.6194122136E+002 
2386758.448 +1.3932876647E-001 +1.6509316159E+002  +3.6412498445E-003 +1.0300894122E+002  +3.6657537701E-003 -1.1739565340E+001  +1.5834733445E-001 +1.6307896392E+002 
2511903.630 +1.2895500458E-001 +1.6631604760E+002  +2.2572346327E-003 +8.1099127234E+001  +2.7684171134E-003 -4.2468421164E+001  +1.9592246474E-001 -1.7958072119E+002 
2637048.811 +1.3023907166E-001 +1.6959086800E+002  +5.7708432578E-003 +1.4989673489E+002  +4.5834541885E-003 +9.9064853664E+000  +3.8868996991E-001 +1.6030857515E+002 
2762193.992 +1.1272881821E-001 +1.7318860619E+002  +4.0091595463E-002 -3.0081104262E+001  +4.5822612592E-002 -1.1725387380E+002  +8.6753364177E-001 -5.9369726564E+001 
2887339.174 +1.1413220895E-001 +1.7499112405E+002  +1.3143561625E-002 +8.0239804646E+001  +5.3714924169E-003 -6.2769863678E+001  +9.3634659946E-002 -8.7027031119E+001 
3012484.355 +6.2976936994E-002 +1.6972920442E+002  +1.6696343253E-002 -5.3816556113E+001  +1.1461012123E-002 +1.2628193059E+002  +2.4978998204E-001 -2.2705627792E+001 
3137629.537 +1.0945228671E-001 +1.6156324493E+002  +2.1632955627E-002 -1.3690354965E+001  +1.6928238836E-002 -1.0091361979E+002  +5.2960404741E-001 -6.5413646379E+001 
3262774.718 +9.6739936182E-002 +1.6339197292E+002  +2.9691295961E-003 +4.6787332730E+001  +2.7425625440E-003 -3.8612011367E+001  +1.5329574783E-001 -1.4654355338E+002 
3387919.900 +9.8166276493E-002 +1.7982766869E+002  +2.0849775854E-002 +6.0434467821E+001  +1.0755747048E-002 -1.3038324331E+002  +4.8600579701E-001 -4.6546367251E+000 
3513065.081 +1.5668215737E-001 +1.5474495180E+002  +1.8072930999E-002 +1.2407082856E+002  +1.3084021569E-002 +2.5135186881E-001  +3.5853982119E-001 +9.7952157811E+001 
3638210.263 +1.8416055213E-001 +1.4837318003E+002  +3.7702534554E-002 +1.3781095841E+002  +1.1487453700E-003 -7.8143108147E+001  +8.9298051125E-001 +1.0240675458E+002 
3763355.444 +1.4619512767E-001 +1.4356562738E+002  +3.9254733849E-003 -1.7094479487E+002  +2.0160819563E-002 -1.2335023492E+001  +3.4963096583E-001 +1.2659536724E+002 
3888500.626 +1.8247325076E-001 +1.4886006050E+002  +1.9876147416E-002 +1.8044014545E+001  +1.7124434418E-002 +3.8570412025E+001  +6.7817790508E-001 +7.3086080495E+001 
4013645.807 +1.7290919189E-001 +1.4424319701E+002  +8.6622613946E-003 +7.6545221922E+001  +7.7340563069E-003 +9.7058557404E+001  +4.8123150719E-001 +1.3748522339E+002 
4138790.989 +1.8046133322E-001 +1.4166986966E+002  +7.9768645063E-003 +6.9247241997E+001  +1.7627979070E-003 +1.6412221818E+002  +2.1976061755E-001 +1.3615948257E+002 
4263936.170 +1.9825347529E-001 +1.4054150142E+002  +8.0974217999E-003 -1.3391514475E+002  +1.0009650661E-002 +5.9735670288E+001  +5.8884252322E-001 +1.3384355544E+002 
4389081.352 +2.0819200330E-001 +1.5067339708E+002  +1.4739009463E-002 +1.0217143075E+002  +6.7079343841E-003 -3.1227013354E+001  +5.8216093671E-001 +9.9687144065E+001 
4514226.533 +2.1988134078E-001 +1.3375139942E+002  +9.7422891188E-003 +7.8141607399E+000  +7.5368883447E-003 +5.4419026795E+001  +7.4644224887E-001 +3.9771657391E+001 
4639371.715 +2.5956883914E-001 +1.3352721308E+002  +8.3290522745E-002 +1.2526885582E+002  +3.3784355631E-002 -1.6907010655E+002  +2.7340251595E+000 +1.0908063691E+002 
4764516.896 +4.3064073314E-001 +1.2644124069E+002  +1.2735372505E-001 -1.1514553205E+002  +2.0814591399E-001 -1.4386778780E+002  +7.3227133749E+000 -1.7968984558E+002 
4889662.078 +4.4644245754E-001 +1.2248399164E+002  +1.0774858979E-001 -6.7430941579E+001  +1.0161790467E-001 -4.7417284676E+001  +3.9112876116E+000 -1.0650781546E+002 
5014807.259 +3.5123035877E-001 +1.2590970970E+002  +7.9262780384E-002 -5.8058848191E+001  +1.0626916641E-001 -8.0683622224E+001  +5.3497883947E+000 -1.0717499421E+002 
5139952.441 +3.6018418177E-001 +1.3302747654E+002  +6.3946511896E-002 +9.3467147053E+001  +1.0381376081E-001 +6.9652897941E+001  +5.6252264429E+000 +7.5478173431E+001 
5265097.622 +4.3031181269E-001 +1.3379782704E+002  +1.1512338867E-002 -5.4330722155E+001  +3.4025756588E-002 +4.1871497038E+001  +1.5588314412E+000 +9.2575800878E+001 
5390242.804 +4.3588296962E-001 +1.2868815243E+002  +3.3520859708E-002 +1.1951420195E+002  +5.0548085861E-002 +1.4046319321E+002  +1.8560255762E+000 +1.0265695566E+002 
5515387.985 +3.6353160656E-001 +1.2868543462E+002  +8.4773157046E-003 +1.2677714432E+002  +2.9416567019E-002 +2.7834923467E+001  +1.1563443636E+000 +8.0416751014E+001 
5640533.166 +4.6937709321E-001 +1.2425395887E+002  +2.4702610916E-002 +8.0566287938E+001  +2.9526929454E-002 +8.2769219795E+001  +1.3619641072E+000 +5.6068720082E+001 
5765678.348 +3.9200995427E-001 +1.2022927086E+002  +1.6285680327E-002 +6.8111568938E+001  +1.3046979986E-002 +3.4608727723E+001  +1.3474284054E+000 +6.9782811448E+001 
5890823.529 +6.4410727893E-001 +1.1730207319E+002  +4.7558283774E-002 +1.0149652720E+002  +1.1885324402E-002 +5.6148450641E+001  +1.7950302394E+000 +6.1978774775E+001 
6015968.711 +5.9475494972E-001 +1.0393255547E+002  +2.8911699656E-002 +8.0061091798E+001  +1.8218220433E-002 +4.2927895954E+001  +1.0193478563E+000 +4.0807395813E+001 
6141113.892 +8.8326088856E-001 +1.0838281607E+002  +6.1905891701E-002 +7.5041945089E+001  +3.1811915032E-002 +8.8910111592E+001  +2.1539144942E+000 +2.7849842431E+001 
6266259.074 +1.0346745710E+000 +1.1700539053E+002  +4.3601234716E-002 +7.3471056296E+001  +2.6409490251E-002 +2.8375376132E+001  +1.5912878881E+000 +2.6003038826E+001 
6391404.255 +1.0467375816E+000 +8.2597646268E+001  +4.7395863048E-002 +4.4240572121E+001  +4.4384567896E-002 +5.9767687501E+001  +1.5673441945E+000 +6.1741982339E+000 
6516549.437 +1.2614783003E+000 +7.2891742040E+001  +4.2934629532E-002 +4.4726703449E+001  +1.8650272875E-002 +5.3640840256E+001  +1.3413835549E+000 +9.2247031467E+000 
6641694.618 +1.3931996196E+000 +7.7845276514E+001  +3.2240761437E-002 +4.1762236587E+001  +4.7247936344E-002 +6.4008803240E+000  +1.5417545162E+000 -2.3385606687E+000 
6766839.800 +1.6950215191E+000 +5.3009546726E+001  +5.1509860255E-002 +4.4525728261E+001  +7.2799727674E-002 +3.0458886385E+001  +1.5229442192E+000 +4.7310629859E+000 
6891984.981 +1.9045445397E+000 +2.5681889993E+001  +3.8421822641E-002 +7.1233681513E+000  +1.5695087983E-002 -5.1787705439E+001  +1.2853903664E+000 -1.1758161040E+001 
7017130.163 +2.0673684577E+000 +5.3039983133E+000  +3.8126817241E-002 -6.2644144102E+000  +5.3528401256E-002 +1.4249711307E+001  +1.2638249336E+000 -8.5597578581E+000 
7142275.344 +1.6181294382E+000 +9.8385742303E+000  +3.5758097043E-002 +1.1964795827E+001  +3.1747703568E-002 +7.0785614656E+000  +1.0715541005E+000 -1.5681783877E+001 
7267420.526 +1.2924376841E+000 -5.7201206315E+000  +3.2001525725E-002 -9.7823105078E+000  +3.6268268334E-002 +1.0593915444E+000  +1.3291348240E+000 -8.4665373816E+000 
7392565.707 +1.3272310966E+000 -7.7031393965E+000  +2.3982714396E-002 +4.7410420048E+000  +2.3400036823E-002 +3.7956834136E+001  +1.4494774663E+000 -6.8010820538E+000 
7517710.889 +1.1446429663E+000 +2.4261611475E+000  +2.3359057174E-002 +2.6327235459E+001  +2.1391413168E-002 +3.2319510331E+001  +1.2576811222E+000 -8.6725338559E+000 
7642856.070 +9.7876171332E-001 +3.6905398982E+000  +1.5242899566E-002 +8.4954062402E+000  +9.2110487853E-003 +1.1159733287E+001  +1.0895131947E+000 -2.2265450235E+000 
7768001.252 +1.0612320423E+000 +2.8892924525E+000  +2.6357713763E-002 +3.5017711076E+001  +1.2842312046E-002 +2.7205087389E+001  +1.0188083863E+000 -4.2131308576E+000 
7893146.433 +8.9080129419E-001 +2.3502559410E+000  +1.0018884535E-002 +2.6559956353E+001  +1.2422575379E-002 +3.0176870442E+001  +9.2603310740E-001 -3.7665495092E+000 
8018291.615 +8.3805659371E-001 +6.0956473013E+000  +1.9179660105E-002 -1.3287765837E+001  +1.2445762185E-002 +3.7714199975E+001  +8.8043135532E-001 +1.8673190846E+000 
8143436.796 +8.0034969880E-001 +8.4341506283E+000  +1.5071441857E-002 +2.0425307957E+001  +1.1104582908E-002 +4.0072799729E+001  +7.8431195349E-001 -1.0705951843E+000 
8268581.977 +7.4535000397E-001 +6.0645659781E+000  +1.6203691459E-002 +2.8385464509E+001  +1.7585846380E-002 +3.3990734093E+001  +7.7003506964E-001 +3.0718139800E+000 
8393727.159 +6.7822940968E-001 +8.7241188662E+000  +1.7235202308E-002 +1.9072821159E+001  +1.3864606603E-002 +1.5856638705E+001  +6.8963116611E-001 -3.2403349774E+000 
8518872.340 +6.4367940474E-001 +4.9107165810E+000  +1.1967858966E-002 +1.4521023924E+001  +1.0702888219E-002 +1.6187633570E+001  +7.1912526757E-001 +2.2069280635E+000 
8644017.522 +6.8245369265E-001 +8.3082366088E+000  +1.2947804639E-002 +2.0238343081E+001  +1.1246315540E-002 +2.8536368013E+001  +6.4686055338E-001 +7.3181676945E-001 
8769162.703 +5.5037151358E-001 +2.4118602943E+000  +1.4992372473E-002 -4.3668322842E+000  +1.8336621029E-002 +1.9799642406E+001  +6.2259562100E-001 +2.0418644343E+000 
8894307.885 +6.0342630011E-001 -1.5202296316E+000  +1.4725242745E-002 +6.1174562778E+000  +1.2675536687E-002 +1.2651190100E+001  +6.8321761118E-001 -2.1418909011E+000 
9019453.066 +5.5545508060E-001 +2.4134009796E+000  +1.5127571001E-002 +2.2364223515E+001  +1.5247729945E-002 +1.6542333118E+001  +6.3114030016E-001 +1.6810343525E+000 
9144598.248 +5.6618407792E-001 +8.8404016533E+000  +1.3937389699E-002 +3.0645132125E+001  +1.5533795209E-002 +6.3457159122E+000  +6.4141559012E-001 -6.4888694662E-002 
9269743.429 +5.8676352774E-001 +5.1414515842E+000  +9.1871583437E-003 +2.7720544707E+000  +1.0072571866E-002 +2.4267201319E+001  +6.1773327913E-001 -2.2886055446E+000 
9394888.611 +5.5857218744E-001 +1.0768989104E+000  +1.6748323279E-002 +9.7348318177E+000  +1.4314805913E-002 +2.4386293513E+001  +5.6158637790E-001 -3.8616858605E+000 
9520033.792 +5.3167754877E-001 -2.6314677641E-001  +1.4098024716E-002 +3.4779845422E+000  +8.2531261433E-003 +4.9539558744E+000  +5.8739361338E-001 -2.3466724500E+000 
9645178.974 +5.3218169299E-001 +7.9736007804E+000  +1.0188024585E-002 +2.0324171531E+001  +1.4318490914E-002 +1.7456797319E+001  +5.8370785844E-001 -9.2848540292E-001 
9770324.155 +5.0304492998E-001 +8.9534775922E-001  +1.2454224432E-002 +1.9850766525E+001  +1.1271626019E-002 +3.4439983576E+001  +5.7782517582E-001 -5.0050193502E+000 
9895469.337 +5.6697575663E-001 +9.6985418105E-001  +1.4104787398E-002 +1.3897152198E+001  +1.3047912244E-002 +2.5145057392E+001  +5.5658028774E-001 -7.0206956723E+000 
10020614.518 +5.7292301581E-001 +1.5913503093E+000  +1.3479996927E-002 +1.5126616299E+001  +1.0925624210E-002 +2.6637588328E+001  +5.8371917060E-001 -4.3263797089E+000 
10145759.700 +5.4293089201E-001 +2.8538355935E+000  +1.5200904514E-002 +2.2873085487E+001  +1.1662328541E-002 +2.3381400743E+001  +5.7921295715E-001 -2.8335268507E+000 
10270904.881 +5.3457563840E-001 +7.0176796536E+000  +1.4717498524E-002 +1.6780527126E+001  +1.1739654281E-002 +2.0445003288E+001  +5.6716520368E-001 -2.3362393417E+000 
10396050.063 +5.5837591208E-001 +8.7174944263E+000  +1.1039480327E-002 +1.5012447220E+001  +1.1947256070E-002 +1.1097396620E+001  +5.6725576935E-001 -3.1471688222E-001 
10521195.244 +5.5224045910E-001 +1.3340959247E+000  +1.7289417144E-002 +2.4888158588E+001  +1.2665871057E-002 +1.9468902246E+001  +6.0101805867E-001 +3.2255934411E-001 
10646340.426 +5.4625171211E-001 +9.2783526959E+000  +1.4717432007E-002 +1.5154557631E+001  +1.1856998584E-002 +3.0504503868E+001  +5.5413865752E-001 -1.7617876216E-001 
10771485.607 +5.6019402456E-001 +1.0333792789E+001  +1.5242533653E-002 +1.7700596990E+001  +1.3338485736E-002 +4.0750465100E+001  +5.5388315915E-001 +2.6775815470E+000 
10896630.788 +5.8967326391E-001 +8.6160481904E+000  +1.3743626026E-002 +1.2331766505E+001  +1.3310245370E-002 +2.9804499317E+001  +5.8680406890E-001 +3.3893682772E+000 
11021775.970 +5.6331703379E-001 +6.8685394036E+000  +1.3873683712E-002 +9.1323360855E+000  +1.2507997175E-002 +4.2210187353E+001  +6.3422232665E-001 +1.3700753688E+000 
11146921.151 +5.7334088467E-001 +7.4996093145E+000  +1.3355020242E-002 +1.5620769004E+001  +1.4524610507E-002 +2.8267851946E+001  +6.1028895340E-001 +2.4245024598E+000 
11272066.333 +6.0330277091E-001 +5.3705820771E+000  +1.6496806983E-002 +1.8015761919E+001  +1.3955209237E-002 +2.8833326235E+001  +6.0037532718E-001 -4.8073238002E-001 
11397211.514 +5.8823621803E-001 +7.6677642534E+000  +1.6581118652E-002 +1.3605619850E+001  +1.4849647959E-002 +2.7126283375E+001  +6.2608934193E-001 -1.2156341111E+000 
11522356.696 +6.2848243267E-001 +7.0007474771E+000  +1.6729014779E-002 +2.2087880420E+001  +1.7386071962E-002 +2.8580542373E+001  +6.5119536638E-001 +2.8957451600E+000 
11647501.877 +6.3873251697E-001 +5.6679405108E+000  +1.6442987777E-002 +1.5472681528E+001  +1.3621863440E-002 +3.0119123775E+001  +6.1007702695E-001 +1.2109801811E+000 
11772647.059 +6.1222945506E-001 +5.5246118190E+000  +1.4759304988E-002 +1.7332863062E+001  +1.5048794222E-002 +2.9728825180E+001  +6.6432132940E-001 +1.5045423959E+000 
11897792.240 +6.4734300701E-001 +4.8187985747E+000  +1.3963369477E-002 +2.1895008643E+001  +1.6556231590E-002 +3.7349542149E+001  +6.7880213268E-001 -1.1527868064E+000 
12022937.422 +6.5852522133E-001 +2.8398272517E+000  +1.6575319556E-002 +2.1173152210E+001  +1.5204178630E-002 +2.5627674875E+001  +6.7681594061E-001 -5.4155876757E-001 
12148082.603 +6.8154652701E-001 +4.6040927153E+000  +1.5532513583E-002 +2.6718238274E+001  +1.5098766362E-002 +4.0254495038E+001  +6.8876734878E-001 +5.1035481392E-002 
12273227.785 +6.8477353398E-001 +2.5011311253E+000  +1.6902256553E-002 +2.1898023570E+001  +1.7184364701E-002 +3.2362942835E+001  +6.9683975064E-001 +2.7635994313E+000 
12398372.966 +6.9681816829E-001 +7.4081858604E+000  +1.5596516685E-002 +1.8725436391E+001  +1.6105777925E-002 +2.7788734970E+001  +7.3341580433E-001 -1.2530247030E+000 
12523518.148 +7.2453578791E-001 +3.1609045136E+000  +1.5906670678E-002 +2.3378593001E+001  +1.4617432958E-002 +2.6345110156E+001  +7.2556544873E-001 +3.7249676414E-001 
12648663.329 +7.6286911818E-001 +1.8792812955E+000  +1.6208353460E-002 +2.9360578453E+001  +1.5272515979E-002 +2.1602525190E+001  +7.2478590161E-001 -2.5684258116E+000 
12773808.511 +7.5072973664E-001 +2.9389462868E+000  +1.7047047159E-002 +2.0192419702E+001  +1.5344983793E-002 +3.1199266680E+001  +7.6694001872E-001 -1.3045624177E-001 
12898953.692 +7.9564809300E-001 +1.1341047171E+000  +1.7576466875E-002 +2.5164937662E+001  +1.5655121539E-002 +3.3901333912E+001  +7.5395617417E-001 -1.0714283374E+000 
13024098.874 +7.8252407171E-001 +1.7752679420E+000  +1.6390226981E-002 +2.9084831891E+001  +1.6797744857E-002 +2.4015013936E+001  +7.7919383205E-001 +2.3635167412E-001 
13149244.055 +8.0224627440E-001 -2.6781097769E-001  +1.7768976052E-002 +2.5139701282E+001  +1.5458849551E-002 +2.5817816798E+001  +7.9248882586E-001 -1.7969181954E+000 
13274389.237 +8.0048753349E-001 -2.4357889289E+000  +1.7998548555E-002 +2.4530055099E+001  +1.6560114902E-002 +2.8476626949E+001  +8.3511207200E-001 -2.5973318893E+000 
13399534.418 +8.1782018702E-001 -5.2588002789E-001  +1.8070281605E-002 +2.4219254162E+001  +1.6492428240E-002 +2.6960933725E+001  +8.3335829939E-001 -2.9274884438E+000 
13524679.599 +8.3942923583E-001 -2.0150338403E+000  +1.8413106551E-002 +2.0289284851E+001  +1.8518227255E-002 +2.3598090856E+001  +8.4857131054E-001 -2.5914260013E+000 
13649824.781 +8.7310359535E-001 -2.7595617896E+000  +1.8860959350E-002 +2.3744223866E+001  +1.6748063364E-002 +2.7201116043E+001  +8.5505066143E-001 -5.0474882880E+000 
13774969.962 +8.8631057529E-001 -3.9309561871E+000  +1.7411240244E-002 +2.9508523374E+001  +1.8754968773E-002 +2.3249482674E+001  +8.8507726666E-001 -3.0836393422E+000 
13900115.144 +8.7304589055E-001 -3.7411098575E+000  +1.7071155967E-002 +2.8855879061E+001  +1.8499621809E-002 +2.1256432466E+001  +9.1721564736E-001 -3.4111526662E+000 
14025260.325 +8.9816923081E-001 -3.4430388769E+000  +1.6159455163E-002 +2.5891573769E+001  +1.9101112767E-002 +2.5373968830E+001  +9.1100897963E-001 -5.0811278564E+000 
14150405.507 +9.1500160753E-001 -4.9876402486E+000  +1.9013022463E-002 +2.2983990363E+001  +1.7173344897E-002 +2.5945548647E+001  +9.2952566938E-001 -4.1970191196E+000 
14275550.688 +9.7403915267E-001 -4.3663878594E+000  +1.8798059662E-002 +2.5594446650E+001  +1.8257453428E-002 +3.0646687439E+001  +9.5680544264E-001 -4.9086143552E+000 
14400695.870 +9.4185965832E-001 -5.6213745057E+000  +1.9395863243E-002 +2.8933837025E+001  +1.9048040828E-002 +2.1570387170E+001  +9.6669543647E-001 -4.7392750947E+000 
