!  2-Port S-parameters saved by WinCal
! VAR MeasName=S-Parameters (CALIBRATED_DATA) read from VNA (P5004A)
! VAR MeasDate=28/08/2024 12:13:34
! VAR NAME=S2_r7c9_RESET2_9k-100M_2
! VAR FILENAME=S2_r7c9_RESET2_9k-100M_2.S2P
! VAR DATE=28/08/2024 12:13:34
! VAR PHYS_PORTS=1,2
! VAR ObjTypeName=DATASET
! VAR IndexType=Frequency
!
# Hz S MA R 50
9000.000 +6.5254130487E-002 -1.6439413162E+002  +1.2736858207E-002 +5.2086492994E+001  +4.7720548173E-003 -1.5441915346E+002  +2.4601269881E-001 -1.4407620265E+002 
134145.181 +1.1123852473E-001 +1.6956211903E+002  +2.7663358262E-004 -8.0289221837E+000  +1.7475487223E-004 +2.2017386859E+001  +2.4131841466E-001 -1.7118170395E+002 
259290.363 +1.1217963119E-001 +1.6990276859E+002  +3.0966461351E-004 +1.0486720579E+002  +8.2070589721E-004 +1.7758065135E+002  +2.4110611758E-001 -1.6846125210E+002 
384435.544 +1.1430403127E-001 +1.7010473200E+002  +6.1614990927E-004 -1.6807895609E+002  +3.2685542725E-004 -1.7381412196E+002  +2.4736392311E-001 -1.7014831607E+002 
509580.726 +1.1466483202E-001 +1.7031926741E+002  +8.4290244634E-004 -1.1321007527E+002  +7.2251116546E-004 +1.0241577936E+002  +2.4314195717E-001 -1.6352178668E+002 
634725.907 +1.1831809389E-001 +1.7150040480E+002  +1.5999991165E-003 -8.8224591105E+001  +7.1568781314E-005 -7.0760849399E+001  +2.3934357185E-001 -1.6469629907E+002 
759871.089 +1.1970738662E-001 +1.7103032770E+002  +6.3935355569E-004 -1.0417935581E+002  +2.6877588841E-004 +9.4907779734E+000  +2.5445930586E-001 -1.6523351293E+002 
885016.270 +1.2076955165E-001 +1.6906957040E+002  +5.5150987688E-004 +8.6495050705E+001  +3.6990703353E-004 -1.3529144126E+002  +2.4657681023E-001 -1.6604318221E+002 
1010161.452 +1.1601409258E-001 +1.7096189825E+002  +2.6734045003E-004 -1.0236926969E+002  +4.9160719991E-004 +1.4241615074E+002  +1.8758117336E-001 -1.6595157281E+002 
1135306.633 +1.1758630314E-001 +1.7103968314E+002  +2.6712722711E-003 -7.0633629723E+001  +3.7441184202E-004 +1.5582660841E+002  +2.0518470356E-001 -1.6309064369E+002 
1260451.815 +1.1914591780E-001 +1.7131430803E+002  +8.0795292555E-004 -6.6435830802E+001  +1.0627210245E-003 -2.5172529501E+001  +2.0480514954E-001 -1.6096091986E+002 
1385596.996 +1.2436668305E-001 +1.7164098071E+002  +1.4540844067E-004 -1.7964951214E+002  +9.8548655195E-004 -1.7551560353E+002  +2.7061836654E-001 -1.5879665820E+002 
1510742.178 +1.2840603938E-001 +1.7269145677E+002  +1.7574798553E-004 -4.9670716921E+001  +5.9134465151E-004 -6.5729141893E+001  +2.7091800311E-001 -1.5944933844E+002 
1635887.359 +1.3089122183E-001 +1.7147352017E+002  +1.3221035602E-003 -1.2386033773E+002  +1.3167389716E-003 -2.7358604418E+001  +2.3362178705E-001 -1.5059975491E+002 
1761032.541 +1.2719690135E-001 +1.6966044796E+002  +5.3946873826E-004 +1.1262913906E+002  +2.0982468243E-003 +1.1712643965E+001  +2.2533345312E-001 -1.5559770892E+002 
1886177.722 +1.3118011058E-001 +1.6822914198E+002  +5.9400156810E-004 -5.1444382137E+001  +6.1103301189E-004 +1.5628860910E+002  +2.2050469547E-001 -1.6260263823E+002 
2011322.904 +1.3341393467E-001 +1.6799881697E+002  +2.3589574407E-003 -1.2088667356E+002  +2.8205199519E-004 +6.7405029647E+001  +1.6797954846E-001 -1.6066876907E+002 
2136468.085 +1.1900217335E-001 +1.6836814338E+002  +1.7413965132E-003 +8.4127925964E+001  +1.0641432128E-003 -1.4038898914E+002  +1.6938103850E-001 -1.6581142267E+002 
2261613.267 +1.3334281653E-001 +1.6341495254E+002  +4.3930100211E-003 +3.0855072788E+000  +3.2267725116E-003 -1.1283195260E+002  +1.5989582039E-001 -1.7316645130E+002 
2386758.448 +1.2703897444E-001 +1.6408582610E+002  +4.5670465540E-003 +1.6251338103E+002  +5.9864305448E-003 +7.3248836644E+001  +1.7077377011E-001 +1.6823229431E+002 
2511903.630 +1.2085824303E-001 +1.6572611987E+002  +1.2902953440E-003 -1.3695180840E+002  +6.2089625406E-003 -1.5726844322E+002  +2.0365607434E-001 +1.6925105328E+002 
2637048.811 +1.0918088381E-001 +1.5908171663E+002  +2.1672326790E-003 -8.2004655071E+001  +9.1542431073E-003 +2.4236228325E+001  +2.7391364506E-001 +1.3767339698E+002 
2762193.992 +1.2043575033E-001 +1.6954899443E+002  +1.1853661069E-002 -1.3528539483E+002  +4.3059801841E-003 -1.6617044224E+002  +9.0170586471E-001 -1.3961174490E+002 
2887339.174 +1.2309865433E-001 +1.7271389089E+002  +7.6123575367E-003 +1.7932403171E+001  +4.5806616661E-003 +1.4092030565E+002  +3.4673288113E-001 -1.1282040842E+002 
3012484.355 +1.0814210085E-001 -1.7758577786E+002  +3.9925520827E-003 +4.8184670527E+001  +1.3823170385E-002 +5.6114864184E+001  +2.7131644425E-001 -7.7182227978E+000 
3137629.537 +1.2303431245E-001 -1.7088982170E+002  +1.1693823980E-002 +4.4346603093E+001  +1.5619592655E-002 +6.6973782332E+001  +2.3296732175E-001 -1.0371537789E+002 
3262774.718 +1.3694667356E-001 +1.6943055174E+002  +3.8432281766E-003 +2.5924717755E+001  +2.4062691932E-003 -1.0154959705E+002  +2.8260981866E-001 -9.8494456890E+001 
3387919.900 +1.1789160885E-001 +1.6453090562E+002  +1.3052549166E-002 -9.7333449290E+001  +5.5281048915E-003 -1.1204336342E+002  +2.4484530552E-001 +1.2059779506E+002 
3513065.081 +1.2291713239E-001 +1.4759727425E+002  +1.5660547058E-002 +9.3808176528E+001  +1.4454276881E-002 -2.2699849345E+001  +4.2114819100E-001 +3.1620913096E+000 
3638210.263 +1.7961096197E-001 +1.4729819812E+002  +2.7648832303E-003 +7.1746518405E+001  +6.2018926620E-003 -1.5896304030E+002  +5.4005407484E-001 +1.5864666974E+002 
3763355.444 +1.9708401065E-001 +1.4677756066E+002  +5.2488770779E-003 -7.2908698114E+001  +1.5710021504E-002 +3.1821773199E+001  +5.0689246614E-001 +1.0739313756E+002 
3888500.626 +1.9353699062E-001 +1.5108626588E+002  +1.2580796268E-002 +1.3711760111E+002  +6.0449992862E-003 +1.5090402472E+002  +3.3539654972E-001 +9.2544467072E+001 
4013645.807 +1.8824035223E-001 +1.4985619781E+002  +5.5410192679E-003 -7.7658054987E+001  +1.2081721744E-002 +5.0195217208E+001  +8.4989791777E-001 +1.2477775674E+002 
4138790.989 +1.8270716425E-001 +1.4466343636E+002  +5.8017778987E-003 +3.2631554196E+001  +1.0470588217E-002 +8.3495646455E+001  +2.1028623419E-001 +1.2654214468E+002 
4263936.170 +1.9806160253E-001 +1.4571370453E+002  +2.3678660698E-003 +1.5508767138E+002  +1.1113983906E-003 +5.8902293250E-001  +3.0421663488E-001 +1.3700713352E+002 
4389081.352 +2.2974917501E-001 +1.4279535680E+002  +1.3429534989E-002 +1.2755915931E+002  +1.2142348942E-002 -7.6179676689E+001  +1.2377586291E+000 +1.2468077085E+002 
4514226.533 +2.6321021865E-001 +1.3129132189E+002  +1.5743558797E-002 +1.7023472737E+002  +2.3284205802E-002 +4.7295412446E+001  +8.7585616893E-001 +1.4888962109E+002 
4639371.715 +2.5173388103E-001 +1.3998210020E+002  +1.1898976433E-002 -1.7449436413E+002  +6.1921520340E-003 -3.3849318870E+001  +8.0656619279E-001 +5.9561957934E+001 
4764516.896 +4.0158322983E-001 +1.1912757983E+002  +5.4204154370E-002 -1.4461590466E+002  +4.3241381734E-002 -1.6352241246E+002  +3.9003973883E+000 -1.6020101200E+002 
4889662.078 +6.3136694652E-001 +1.2897162320E+002  +4.3084235082E-002 +1.2674796141E+002  +2.2159433792E-002 -1.1277371829E+002  +1.6524598503E+000 -7.3609887075E+001 
5014807.259 +4.3280031686E-001 +1.2258848230E+002  +7.5639551773E-002 -7.9498675183E+001  +5.9498598903E-002 -1.4086161650E+000  +4.6867036042E+000 -1.4773351037E+002 
5139952.441 +4.7842106134E-001 +1.2977169057E+002  +4.1134969637E-002 -1.2191186918E+002  +3.4687147381E-002 -2.4810066566E+001  +2.7107251714E+000 +1.3860586118E+002 
5265097.622 +4.1157530401E-001 +1.3303245076E+002  +1.1064033815E-002 -1.5878570352E+002  +2.2888486630E-002 -1.4509595251E+002  +2.3599163081E+000 +1.0133931988E+002 
5390242.804 +4.9784582938E-001 +1.2758888072E+002  +1.7131399357E-002 -1.6039841950E+002  +1.4190562451E-002 -1.5833198279E+002  +1.0865216213E+000 +8.6541249978E+001 
5515387.985 +4.6237299622E-001 +1.2466919964E+002  +1.7575982867E-002 +2.5237747809E+001  +2.4544125591E-002 -1.1934036074E+002  +1.7595009103E+000 +7.9720071523E+001 
5640533.166 +4.8466933968E-001 +1.3066851044E+002  +2.2477973654E-002 -1.6561067552E+002  +4.4641199411E-002 +1.6795168095E+002  +3.1488395665E+000 +6.3435616222E+001 
5765678.348 +5.4864731557E-001 +1.2029295293E+002  +2.4646237991E-002 +9.2183047371E+001  +1.5370412881E-002 +8.1240392488E+001  +1.5450990332E+000 +8.7474300360E+001 
5890823.529 +5.7317091360E-001 +1.2454903536E+002  +2.1442191750E-002 -8.8204020449E+000  +1.6154031219E-002 -1.6220059576E+002  +2.2947321284E+000 +4.2189055337E+001 
6015968.711 +8.2084196789E-001 +1.1132849668E+002  +3.5193106446E-002 +1.6524340285E+002  +2.4106769644E-002 -1.6709535781E+002  +2.0329044991E+000 +4.2306867792E+001 
6141113.892 +7.3408836691E-001 +1.0215594097E+002  +1.4918439671E-002 -1.2676622363E+002  +2.1406181333E-002 +5.1491759952E-001  +1.3721531659E+000 +4.1053201658E+001 
6266259.074 +7.2069968929E-001 +1.1128251494E+002  +2.6471352564E-002 +1.5112130030E+002  +2.7752524893E-003 +5.0815990819E+001  +1.8719135704E+000 +1.5239805331E+001 
6391404.255 +7.7878068611E-001 +7.5530714342E+001  +1.2537715089E-002 +4.6052753405E+000  +4.8858569644E-002 -7.8332620822E+001  +1.8884447806E+000 +1.5152452561E+001 
6516549.437 +1.1911175752E+000 +8.4597723011E+001  +4.1667009380E-002 +1.0820582029E+002  +3.4572518895E-002 +2.3077173698E+001  +1.6007271715E+000 +4.9302717858E+000 
6641694.618 +1.4254315912E+000 +7.9411253197E+001  +1.6546314635E-002 -4.1428977373E+001  +5.4220045497E-003 +6.1816153699E+001  +1.3913998979E+000 +1.0952140248E+000 
6766839.800 +1.8605513959E+000 +4.6826319131E+001  +3.1741547038E-002 +1.0316314563E+002  +7.7424272363E-003 -3.9322756983E+001  +1.2606067545E+000 +3.6078506879E+000 
6891984.981 +2.2418124473E+000 +4.2387587263E+001  +3.5016289116E-003 -1.0392753020E+002  +1.8598455957E-002 +1.4625875807E+002  +1.2531050172E+000 -8.2068944883E+000 
7017130.163 +1.9333200897E+000 +1.4435420282E+001  +9.6508549704E-003 +8.4627899616E+001  +1.6531849852E-003 +1.5920200482E+002  +1.2509166905E+000 -1.1316252203E+001 
7142275.344 +1.4192976557E+000 +1.4158549159E+001  +1.1748188319E-002 +6.4778502724E+001  +1.1121891992E-002 +6.7607023149E+001  +1.2908443305E+000 -8.2706348694E+000 
7267420.526 +1.5186047847E+000 +4.4881882310E+000  +2.0608649003E-003 +1.6206180173E+002  +2.0944135402E-002 +1.0656469673E+002  +1.3379833025E+000 -1.0254334978E+001 
7392565.707 +1.3684214317E+000 -8.0837606782E+000  +6.8447425371E-003 +1.1180672493E+002  +7.1339039810E-003 -1.3022781586E+002  +1.3128285352E+000 -5.3223076061E+000 
7517710.889 +1.1160019294E+000 -4.3344529831E+000  +7.7326890498E-003 +7.4090969358E+001  +1.0940512476E-002 +3.0457343971E+001  +1.2238867620E+000 -4.1707756425E+000 
7642856.070 +1.1163893317E+000 -7.2294534224E-001  +4.9593867559E-003 +1.0851900442E+002  +1.1233101596E-002 +9.8444457743E+001  +1.0923488505E+000 -6.4079024407E+000 
7768001.252 +9.1895491318E-001 +1.7999366529E+000  +1.7721552037E-003 +7.5116029114E+001  +4.6988813730E-003 +6.6754522521E+001  +9.2778363433E-001 -2.7886148935E+000 
7893146.433 +9.3068258900E-001 -4.2230027582E+000  +8.6852765313E-003 +9.2423274058E+001  +8.7379752349E-004 +1.2811943609E+002  +9.2010896102E-001 -1.9319541140E+000 
8018291.615 +8.2427840515E-001 +5.9359881683E+000  +4.6525445595E-003 +4.0902015079E+001  +7.1097813531E-003 +1.1514752037E+002  +9.0286666167E-001 -3.4837722601E+000 
8143436.796 +6.8077417740E-001 +1.0729775820E+001  +1.5892508754E-003 +7.2806446265E+001  +7.4833313446E-003 +1.5153822391E+002  +7.5205844281E-001 -6.5260687577E+000 
8268581.977 +6.5551652589E-001 +5.2462990170E+000  +1.6774145218E-003 +1.1956340647E+002  +1.0404863159E-002 +9.1852933385E+001  +8.7085073880E-001 +1.3679455497E+000 
8393727.159 +7.0262825989E-001 +4.8832363807E+000  +3.0792544317E-003 +9.9954518541E+001  +8.1729547277E-003 +8.2317362266E+001  +7.4943505220E-001 +3.2916528721E+000 
8518872.340 +7.1627809492E-001 +1.5337166791E+001  +8.3630405174E-003 +1.1710370039E+002  +7.1760040815E-003 +7.0882182396E+001  +6.7196736114E-001 -5.2210605832E+000 
8644017.522 +6.4419465596E-001 +8.1181392176E+000  +7.3632084501E-003 +1.1470542961E+002  +4.6627132261E-003 +1.1921822639E+002  +6.7454235726E-001 -4.6356922992E+000 
8769162.703 +5.9012861663E-001 +1.4153389045E+001  +2.3846696316E-003 +9.8500858881E+001  +4.5875651344E-003 +6.6835368028E+001  +6.7877299080E-001 -1.4312954551E+000 
8894307.885 +6.4007754189E-001 +6.1115848206E+000  +5.4396361677E-003 +1.5300731298E+002  +2.5857996638E-003 -1.3813247701E+002  +6.6072111337E-001 +7.8138757282E-001 
9019453.066 +5.6081776728E-001 +7.5845221818E+000  +5.3172950393E-003 +1.1914556874E+002  +5.9588602923E-003 +8.2771427690E+001  +6.0881363025E-001 -3.3810813003E-002 
9144598.248 +5.4110796483E-001 +7.2534428391E+000  +3.2209704090E-003 +7.0596933594E+001  +4.4110800751E-003 +8.6599621662E+001  +6.1092127022E-001 +2.4237120360E+000 
9269743.429 +5.8287701102E-001 +3.3207040360E+000  +6.5471220561E-003 +1.3284381790E+002  +3.0492198770E-003 +1.7012308294E+002  +6.0379382534E-001 -1.7149615946E+000 
9394888.611 +5.4084338371E-001 +4.4061190693E+000  +3.8368676302E-003 +8.6347719451E+001  +3.2352389645E-003 +7.5115500153E+001  +5.7202404048E-001 +2.7579378692E+000 
9520033.792 +5.6202611266E-001 +2.4680270094E+000  +2.2112267767E-003 +6.2772220431E+001  +3.4547274740E-003 +1.3673887724E+002  +5.9851870795E-001 -9.0922306279E-002 
9645178.974 +5.4419921018E-001 +2.9481293734E+000  +4.2569265302E-003 +6.6915821984E+001  +5.4997442811E-003 +8.6245738350E+001  +5.4696175109E-001 -1.5073489514E+000 
9770324.155 +5.1218592338E-001 +3.3312435011E+000  +4.1285672833E-003 +1.0104896004E+002  +5.1976608806E-003 +9.5743740485E+001  +6.2795124250E-001 -2.4424064264E+000 
9895469.337 +5.4301219906E-001 -3.0720842881E-001  +4.9765454789E-003 +8.3495827103E+001  +4.3691411573E-003 +7.6340350965E+001  +5.8773413792E-001 -4.6056171718E+000 
10020614.518 +5.4364679741E-001 +4.7856804686E+000  +6.3799328637E-003 +1.0519659326E+002  +4.4874406094E-003 +9.2447144015E+001  +5.6553862912E-001 -6.9105582015E+000 
10145759.700 +5.3815666230E-001 -2.3129165333E-001  +1.9872986743E-003 +1.4998210402E+002  +3.7274984064E-003 +1.0537354577E+002  +6.0371095191E-001 -2.7565737806E+000 
10270904.881 +5.2762390552E-001 +1.5560342421E+000  +3.1682930295E-003 +6.1274855401E+001  +4.6478993405E-003 +4.8485278204E+001  +5.5860163148E-001 -3.2544527383E+000 
10396050.063 +5.5827475758E-001 +5.3879118211E+000  +5.6405456926E-003 +8.3386840299E+001  +2.9640659743E-003 +7.3831995216E+001  +5.7373200786E-001 -1.9247589503E+000 
10521195.244 +5.7412010926E-001 +3.0820287887E+000  +7.1565798055E-003 +7.2985880964E+001  +5.1111722419E-003 +1.0637169900E+002  +6.1691437348E-001 -1.2033650511E+000 
10646340.426 +5.5049718034E-001 +7.8668603058E+000  +1.4372984878E-003 +6.7096906900E+001  +3.1891905634E-003 +1.1328452366E+002  +5.8304009245E-001 +3.7087562961E+000 
10771485.607 +6.0477527561E-001 +6.9674604334E+000  +4.5676962919E-003 +4.9514316068E+001  +5.8483186392E-003 +8.8847057994E+001  +6.0912517658E-001 -8.1057528974E-001 
10896630.788 +5.4774651925E-001 +7.7154022039E+000  +2.5435267656E-003 +6.5528948138E+001  +4.3386511663E-003 +1.1097046813E+002  +6.1582358270E-001 +7.0099731523E-001 
11021775.970 +5.8979574682E-001 +5.8581296776E+000  +3.1860826114E-003 +9.1643698362E+001  +7.2056370207E-003 +7.8154062958E+001  +6.0367487360E-001 -1.4257977560E+000 
11146921.151 +5.8925903228E-001 +6.3926610716E+000  +4.9059624789E-003 +1.1380757232E+002  +4.5965417560E-003 +1.0511613811E+002  +6.2584910502E-001 +3.5251153922E+000 
11272066.333 +5.6405666799E-001 +6.7008488836E+000  +5.4937610850E-003 +9.0149378689E+001  +3.7007854384E-003 +7.1487102132E+001  +6.5623997609E-001 +3.5457645939E-001 
11397211.514 +6.1025601209E-001 +6.1879242056E+000  +5.4665981241E-003 +8.1020170322E+001  +7.6281678905E-003 +1.0244376922E+002  +6.3510424535E-001 +3.5153681148E+000 
11522356.696 +6.0804175230E-001 +4.9722118409E+000  +4.6350310993E-003 +9.7647295385E+001  +6.5321257897E-003 +1.1476996756E+002  +6.2888753790E-001 +3.0608415444E+000 
11647501.877 +6.3897840200E-001 +7.1549166084E+000  +4.8023339509E-003 +1.1228421758E+002  +4.7083744842E-003 +1.0556059242E+002  +6.5171422435E-001 +1.9184028364E+000 
11772647.059 +6.4984342729E-001 +6.7720496581E+000  +6.2616136424E-003 +7.6972042712E+001  +5.7693784149E-003 +1.0963443791E+002  +6.6701596147E-001 +2.7013927150E+000 
11897792.240 +6.7139276016E-001 +4.7509108667E+000  +5.8563629186E-003 +1.0289498280E+002  +5.6700505672E-003 +1.0110127030E+002  +6.6059090093E-001 +2.6721847698E+000 
12022937.422 +6.9815877091E-001 +2.9347080023E+000  +4.1403564775E-003 +1.1269991721E+002  +5.5512432928E-003 +9.0232556192E+001  +6.8574071351E-001 +1.1980659190E+000 
12148082.603 +6.6167153088E-001 +4.8715362243E+000  +7.0930179197E-003 +9.1817619849E+001  +5.0575365203E-003 +1.1817466489E+002  +6.9887542763E-001 +2.2267683728E+000 
12273227.785 +6.7440011102E-001 +4.7357005704E+000  +6.1201830877E-003 +1.0289848955E+002  +4.6605451933E-003 +8.6614509340E+001  +7.1247127247E-001 -2.4850746013E-001 
12398372.966 +7.1162776008E-001 +3.0040755034E+000  +6.6655883041E-003 +7.1246103717E+001  +6.0170968209E-003 +9.6510567664E+001  +7.2399877501E-001 -3.9030559390E-001 
12523518.148 +7.0552570768E-001 +4.1827349374E+000  +7.1831574834E-003 +8.9774721345E+001  +5.0972689133E-003 +1.1963005776E+002  +7.2823855757E-001 +6.3822134770E-002 
12648663.329 +7.4382502025E-001 +2.6011585174E+000  +6.5861463540E-003 +9.7293509259E+001  +5.2540923651E-003 +9.4531505134E+001  +7.6887958216E-001 -3.5372420984E-001 
12773808.511 +7.4750344463E-001 +2.7463157321E+000  +7.2154440795E-003 +8.0664786388E+001  +8.1946749268E-003 +1.1076283733E+002  +7.8854732092E-001 -4.7765699625E-001 
12898953.692 +7.4104919896E-001 +1.5604165179E+000  +6.9452642981E-003 +9.8400474842E+001  +6.8627997756E-003 +8.9289446489E+001  +7.9067362663E-001 +1.3014149730E-001 
13024098.874 +7.7770768109E-001 +1.5373801223E+000  +5.5300401659E-003 +9.5239524782E+001  +8.7197842489E-003 +8.7574954319E+001  +8.0671591791E-001 -1.4293278164E+000 
13149244.055 +7.9011345802E-001 +8.3098170574E-001  +4.9940031309E-003 +8.4934595504E+001  +8.0825668715E-003 +8.8261860902E+001  +7.8796107222E-001 -2.1447769613E+000 
13274389.237 +8.4152907112E-001 -1.0538191324E+000  +6.2021691843E-003 +8.8173657439E+001  +7.1835860662E-003 +1.0147679060E+002  +8.2414933003E-001 -2.7641319910E+000 
13399534.418 +8.2725304928E-001 -1.9396349354E+000  +5.5421300323E-003 +9.0572737646E+001  +7.3428406282E-003 +9.7944773774E+001  +8.5315401746E-001 -8.4517101330E-001 
13524679.599 +8.4760353806E-001 -2.1384738381E+000  +8.0861728396E-003 +8.8383116781E+001  +7.2621821822E-003 +9.9422102670E+001  +8.3956167210E-001 -3.4003155657E+000 
13649824.781 +8.7448456601E-001 -2.8179933938E+000  +7.0603996670E-003 +8.6553048817E+001  +6.9243547436E-003 +9.7482776067E+001  +8.8876588577E-001 -2.7522823880E+000 
13774969.962 +8.9382469132E-001 -1.6271700585E+000  +6.2534367640E-003 +9.1773690143E+001  +6.5943435695E-003 +8.4114964836E+001  +8.8069721612E-001 -3.0930930123E+000 
13900115.144 +9.1231626190E-001 -3.7639618064E+000  +5.6889419281E-003 +9.1753633812E+001  +6.0699423261E-003 +9.3037288114E+001  +9.2077477511E-001 -4.2481000866E+000 
14025260.325 +9.4532913575E-001 -3.5632225189E+000  +7.8818497395E-003 +1.0153910645E+002  +6.5297163889E-003 +8.9090875194E+001  +9.2757151122E-001 -3.7413218062E+000 
14150405.507 +9.3931431198E-001 -4.8306122802E+000  +7.5316198324E-003 +8.4227129980E+001  +7.3658328362E-003 +8.9136449164E+001  +9.4954989327E-001 -3.2637171777E+000 
14275550.688 +9.6890419432E-001 -5.9023489041E+000  +6.4746676726E-003 +1.1488806036E+002  +6.1509967159E-003 +8.5134485685E+001  +9.7585175635E-001 -4.5223828004E+000 
14400695.870 +9.7656822506E-001 -5.6415000483E+000  +6.2680419914E-003 +8.6928029019E+001  +6.5105927607E-003 +9.0441186106E+001  +9.7574124146E-001 -5.0431023184E+000 
