!  2-Port S-parameters saved by WinCal
! VAR MeasName=S-Parameters (CALIBRATED_DATA) read from VNA (P5004A)
! VAR MeasDate=27/08/2024 12:32:39
! VAR NAME=S2_r4c9_pristine_9k-100M_3
! VAR FILENAME=S2_r4c9_pristine_9k-100M_3.S2P
! VAR DATE=27/08/2024 12:32:39
! VAR PHYS_PORTS=1,2
! VAR ObjTypeName=DATASET
! VAR IndexType=Frequency
!
# Hz S MA R 50
9000.000 +3.4614388660E-002 +1.6835934678E+002  +2.4290710086E-003 -9.4979204449E+001  +3.7519556118E-002 -1.7184857791E+002  +1.8458805900E-001 -7.3623819534E+001 
134145.181 +1.1092843484E-001 +1.6974385071E+002  +1.7290820428E-004 -1.4699517526E+002  +8.8533608569E-004 -5.1524445722E+001  +2.4008996774E-001 -1.7074866598E+002 
259290.363 +1.1254870855E-001 +1.7010470104E+002  +2.4283907864E-004 +1.0414372788E+002  +3.2616531342E-004 +5.5669109202E+001  +2.4655944294E-001 -1.6879586559E+002 
384435.544 +1.1381166309E-001 +1.7111571780E+002  +4.1660664371E-004 -9.5411685621E+001  +3.6906087892E-004 +3.5219840538E+001  +2.3784105661E-001 -1.7016282438E+002 
509580.726 +1.1450761103E-001 +1.7007004905E+002  +6.4284890169E-004 +7.8089639436E+001  +6.4709103452E-004 +5.3926806044E+001  +2.4501730669E-001 -1.6403812576E+002 
634725.907 +1.1666422889E-001 +1.7051224351E+002  +7.9500180413E-004 -3.8448866199E+001  +2.2284180107E-004 +1.3581019676E+002  +2.4240892755E-001 -1.6638055288E+002 
759871.089 +1.1747104197E-001 +1.7033878492E+002  +4.3412865146E-004 -1.7090587091E+002  +1.6969686925E-003 -1.5319916079E+001  +2.2914497602E-001 -1.6370976654E+002 
885016.270 +1.1406196019E-001 +1.6985674273E+002  +1.9980580381E-004 -8.8410202295E+001  +1.1761448823E-003 -3.3022163382E+001  +2.4076478461E-001 -1.6512506032E+002 
1010161.452 +1.1764586646E-001 +1.7064886554E+002  +1.5186734528E-003 -3.5450231207E+001  +3.8194177960E-003 +3.0181004829E+001  +1.1599126903E-001 +1.5187134756E+002 
1135306.633 +1.1758349873E-001 +1.7042110805E+002  +2.7237695206E-003 +2.2590751486E+000  +3.4215549989E-003 -5.0725804669E+001  +1.8188530185E-001 -1.4443932744E+002 
1260451.815 +1.2279001321E-001 +1.7145726466E+002  +1.2555990238E-003 -1.3176314084E+002  +1.0514140640E-003 +1.4016898858E+002  +2.3945357153E-001 -1.6109419828E+002 
1385596.996 +1.2219217458E-001 +1.7237237257E+002  +4.3539226491E-004 +3.9180453048E+000  +2.0672165083E-003 -5.0256710879E+001  +2.6637745402E-001 -1.6100659034E+002 
1510742.178 +1.2865525325E-001 +1.7170213694E+002  +7.4847202084E-004 +2.4708656639E+001  +5.0346852214E-004 +1.3359125274E+002  +2.4002849215E-001 -1.5785408071E+002 
1635887.359 +1.2830159095E-001 +1.7016462375E+002  +8.4193161006E-004 -1.4672110646E+002  +2.9918285611E-004 +3.3328250562E+001  +2.6123240567E-001 -1.5754194196E+002 
1761032.541 +1.2464434205E-001 +1.6848478742E+002  +1.6562163833E-003 +5.3380078646E+001  +3.6705314899E-003 +1.7010363607E+002  +2.2321824661E-001 -1.5941287798E+002 
1886177.722 +1.2874394154E-001 +1.6557941267E+002  +8.9920487015E-004 -3.6589918988E+001  +1.0435017933E-003 +7.4232619830E+001  +1.9833961918E-001 -1.7413438887E+002 
2011322.904 +1.2799022362E-001 +1.6749824914E+002  +8.2523531859E-004 -8.1154987307E+000  +2.2352778965E-003 +1.7273328074E+001  +2.0733269737E-001 -1.6606126213E+002 
2136468.085 +1.3039773685E-001 +1.6400054319E+002  +2.8996458208E-003 +1.2163936028E+002  +2.8766017519E-003 -7.3695284468E+001  +1.1869727553E-001 -1.7490924272E+002 
2261613.267 +1.3020017355E-001 +1.6116927716E+002  +1.7706556553E-003 -7.6323120164E+001  +7.2622801174E-004 -1.5024766372E+002  +1.5725127075E-001 -1.7759515467E+002 
2386758.448 +1.3253441205E-001 +1.5287530809E+002  +5.1243736091E-003 -4.3791582460E+001  +7.4686921499E-003 -1.5365263909E+002  +1.4359176351E-001 -1.6609153917E+002 
2511903.630 +1.3811513640E-001 +1.6239971560E+002  +4.3987440132E-003 +1.7754800021E+002  +2.4835046018E-003 +1.1285771645E+002  +1.4494892961E-001 +1.6961139961E+002 
2637048.811 +1.2656393316E-001 +1.5552618225E+002  +1.2200604826E-002 -5.5078935282E+001  +7.5565330399E-003 -6.9049223953E+001  +3.4563616685E-001 +1.4680841034E+002 
2762193.992 +7.7568395724E-002 -1.7853268403E+002  +1.2885511962E-002 +2.4293737721E+000  +3.7460790307E-002 -1.1146877685E+002  +7.9341953206E-001 +1.4679121185E+002 
2887339.174 +9.5004130145E-002 +1.6851308795E+002  +9.6851487367E-003 -9.4886159601E+001  +6.4842812080E-003 -3.0265078442E+001  +5.5465590994E-001 -1.2142142416E+002 
3012484.355 +8.5817450230E-002 +1.6002670051E+002  +1.1675284328E-002 -2.3499222721E+001  +1.6527004101E-002 -3.1510564237E+001  +6.2848045848E-001 -1.0938739057E+002 
3137629.537 +1.0638153226E-001 +1.7850787727E+002  +6.3744377255E-003 +5.9413734324E+000  +6.2811885038E-003 -1.0027997593E+002  +4.2373077940E-001 -1.0786852815E+002 
3262774.718 +1.0534690252E-001 +1.5749357867E+002  +5.8261129644E-004 -1.7890529464E+002  +4.2347888401E-003 -1.0419248641E+002  +1.6030128675E-001 -7.3237376016E+001 
3387919.900 +1.2638566950E-001 +1.3934907376E+002  +1.9934549789E-002 +7.2356614051E+001  +1.2019697706E-002 -3.2277222763E+001  +2.6351684409E-001 -4.3836476213E+001 
3513065.081 +1.1463617501E-001 +1.5363185544E+002  +1.2972193412E-002 -2.6470158841E+001  +1.4518732444E-002 +1.5716577658E+002  +7.1749345622E-001 -4.5666310677E+001 
3638210.263 +1.6351088320E-001 +1.2982320867E+002  +3.7586877948E-002 +9.5695947642E+001  +5.1175534423E-002 +6.9519003958E+001  +2.0191705075E+000 +1.2669999328E+002 
3763355.444 +1.2387533049E-001 +1.4402642482E+002  +6.9474939182E-003 +5.9052244281E+001  +2.5830465656E-002 -1.2339249112E+002  +9.5117741933E-001 +7.7206748169E+001 
3888500.626 +1.7081579170E-001 +1.4845850291E+002  +3.9324685231E-003 -7.6789678811E+001  +4.1131791555E-003 -4.9698757446E+001  +4.2003138074E-001 +8.4921239932E+001 
4013645.807 +1.6141758313E-001 +1.4048084221E+002  +7.3269380660E-003 +3.9903601814E+001  +6.8311102726E-003 -1.0146197340E+002  +3.7839420290E-001 +1.1700094337E+002 
4138790.989 +1.6501494845E-001 +1.4908405136E+002  +1.2470524491E-002 -1.7168626546E+002  +6.6288077253E-003 +1.4235529033E+002  +2.1692565759E-001 +7.0760306788E+001 
4263936.170 +2.0158903945E-001 +1.2729304218E+002  +8.4071423332E-003 +9.3841811387E+001  +6.2656345739E-003 +1.3190233822E+002  +5.7255535632E-001 +1.1940760012E+002 
4389081.352 +1.9175771393E-001 +1.3480121334E+002  +1.0560897250E-002 +2.3865188642E+001  +5.9804617492E-003 +4.3962202709E+001  +8.4883221897E-002 +1.0284918670E+002 
4514226.533 +2.2085654369E-001 +1.3476467046E+002  +7.5499006927E-003 +3.8464822516E+001  +8.6724219312E-003 +1.3939210130E+002  +9.4509988472E-001 +8.0915151003E+001 
4639371.715 +3.1433487825E-001 +1.2724189023E+002  +6.5738169269E-002 +4.0002238322E+001  +3.2045948518E-002 -1.6222727784E+002  +2.6104956642E+000 +1.1930003953E+002 
4764516.896 +3.8267389910E-001 +1.2482458702E+002  +1.7295843348E-002 -7.7415141062E+001  +4.8562654009E-002 -7.6381927317E+001  +2.2252523466E+000 +1.0380051328E+002 
4889662.078 +5.1889610779E-001 +1.3421654629E+002  +3.4959121287E-002 -9.1112415203E+001  +1.7586531210E-002 +1.6458942934E+002  +1.7448171055E+000 -9.8456494699E+001 
5014807.259 +4.1710092575E-001 +1.1761362442E+002  +3.1211242627E-001 +1.4107001392E+002  +3.0321973846E-001 +4.5322208482E+001  +1.8035239727E+001 -1.4925820640E+002 
5139952.441 +4.2374163085E-001 +1.3112211250E+002  +9.9210397521E-002 -1.4734773668E+002  +1.0382056521E-001 +3.2464842227E+001  +6.7687292606E+000 +1.3553953165E+002 
5265097.622 +3.7669255618E-001 +1.3353224437E+002  +2.3237929067E-002 +1.1534005770E+002  +2.3453369334E-002 +9.7019097228E+001  +2.4617830926E+000 +1.2637436225E+002 
5390242.804 +4.8401098479E-001 +1.3583406713E+002  +4.0362866323E-002 +8.2646089567E+001  +3.3074310130E-002 -1.2024204906E+002  +3.5160114189E+000 +1.2804300212E+002 
5515387.985 +4.3605449941E-001 +1.2995467216E+002  +1.9958988264E-002 -1.5753460781E+002  +1.6676086438E-002 +1.2547160103E+002  +1.7481693579E+000 +1.0718056328E+002 
5640533.166 +5.0211272759E-001 +1.2675792394E+002  +1.2569609471E-002 -1.0529634842E+002  +1.5384535241E-002 +1.2668083775E+002  +1.3925723258E+000 +6.5223671429E+001 
5765678.348 +5.4179287672E-001 +1.1934836014E+002  +3.3128577511E-002 -2.7248565173E+001  +2.3308139222E-002 +1.2261069823E+002  +2.7962203128E+000 +6.9259503548E+001 
5890823.529 +6.5338017012E-001 +1.1734260731E+002  +1.6668068997E-002 -3.0287511837E+001  +1.8035704905E-002 +1.7838436327E+002  +1.5108663474E+000 +4.2286147207E+001 
6015968.711 +6.5742220042E-001 +1.1426918981E+002  +9.3612298895E-003 -8.6771096233E+001  +1.2527078982E-002 -1.7846392381E+002  +2.6540073001E+000 +6.1985043006E+001 
6141113.892 +7.3985146729E-001 +1.1708581151E+002  +2.3704712522E-002 -1.6013642944E+002  +3.0584101408E-002 +9.9351938362E+001  +1.8552952056E+000 +2.5865332941E+001 
6266259.074 +8.4164688825E-001 +9.5999150174E+001  +1.2918963745E-002 +1.5998021659E+002  +1.4985692675E-002 +6.6477291486E+001  +1.4948862081E+000 +3.3307300716E+001 
6391404.255 +9.5898744682E-001 +9.6280319634E+001  +1.3626569642E-002 +1.6288929748E+002  +1.0625071325E-002 +1.3606496690E+002  +1.9934851864E+000 +2.7796822875E+001 
6516549.437 +1.2609214229E+000 +8.3221532482E+001  +8.5833008865E-003 -1.6584584492E+002  +3.2057936663E-002 -1.2188725575E+002  +1.3793696909E+000 +7.8676435174E+000 
6641694.618 +1.5362587771E+000 +4.7653608360E+001  +1.3202099115E-002 -1.7695061254E+002  +1.6977731090E-002 -6.2551432737E+001  +1.1680062048E+000 +2.3853948200E+000 
6766839.800 +1.6572608978E+000 +5.4852399654E+001  +1.1677060388E-002 -1.1945424450E+001  +1.6119599689E-002 -1.7599771085E+002  +1.3098289357E+000 -4.6831881911E+000 
6891984.981 +1.7763748295E+000 +1.9456690319E+001  +3.0004904801E-002 +1.3132577523E+002  +3.2439632912E-002 +1.0469948031E+002  +1.2470375648E+000 -1.0384816680E+001 
7017130.163 +2.1734206349E+000 +1.3559437979E+001  +9.8942026336E-003 +1.0432911172E+000  +3.3303666246E-002 +5.1501999468E+001  +1.4485576693E+000 -1.0807950333E+001 
7142275.344 +1.6710873778E+000 +8.2762801999E+000  +1.3847460659E-002 -1.6958951389E+002  +1.4320919871E-002 -2.3663441715E+000  +1.2534746062E+000 -1.6092916099E+001 
7267420.526 +1.5813012508E+000 -2.7755630585E+000  +8.2953656328E-003 +4.9519664375E+001  +3.6028687609E-003 -1.5957411579E+002  +1.2621536869E+000 -6.3990306604E+000 
7392565.707 +1.4433276276E+000 -6.9659854158E+000  +4.6155783930E-003 +1.2464475229E+002  +1.4398430923E-002 +1.2304866558E+002  +1.3111845821E+000 -4.8308646838E+000 
7517710.889 +1.4124954792E+000 -3.9990725792E+000  +7.9892838330E-003 +1.1988256395E+002  +5.4765868202E-003 -1.5486715647E+002  +1.1552675055E+000 -5.4925558291E+000 
7642856.070 +1.1550355851E+000 +7.0801100929E-001  +5.1209790490E-003 +1.3530643469E+002  +1.0116923947E-002 +1.8648498528E+000  +1.1375008184E+000 +1.7262374501E+000 
7768001.252 +1.0253396539E+000 +5.3427239513E+000  +6.6361253029E-003 +1.0130791002E+002  +5.9813007574E-003 +1.0565552257E+002  +1.0733465974E+000 +8.0598955000E-001 
7893146.433 +9.5724166419E-001 +3.3188484279E+000  +1.1039251206E-003 +1.8875421766E+001  +5.0819304734E-003 +3.6176449991E+001  +9.2201324981E-001 -3.3168356876E+000 
8018291.615 +8.2066088845E-001 +1.2040367933E+000  +7.8689163814E-003 +1.4760696721E+002  +5.6081717077E-003 -1.7245662580E+001  +9.4461219945E-001 +1.0420358115E+000 
8143436.796 +7.3144914689E-001 +7.5050920950E+000  +6.1361216085E-003 +6.6196880030E+001  +4.1886991100E-003 +8.5579468207E+001  +8.6827360239E-001 -6.7329002323E-001 
8268581.977 +8.0998323693E-001 +1.9314754796E+000  +2.8500426388E-003 +2.9815772129E+001  +8.6123151698E-003 +1.1353574478E+002  +7.6567396637E-001 -4.7718888504E-001 
8393727.159 +6.9021690571E-001 +6.9138131997E+000  +1.6963544941E-003 +1.1558183826E+001  +3.1885626060E-003 -4.2229434284E+001  +7.8733797176E-001 -2.1462174142E+000 
8518872.340 +6.9201930596E-001 +2.6937747665E+000  +2.6852430978E-003 +1.0853904562E+002  +7.4451350878E-003 +8.5331358937E+001  +7.2252490497E-001 +4.4924301377E+000 
8644017.522 +6.4150989206E-001 +1.0167068696E+001  +5.9243361857E-003 +1.0883968125E+001  +3.8156735895E-003 +1.2079254186E+002  +7.6921196379E-001 -8.5194039127E-002 
8769162.703 +6.6597061540E-001 +1.0186723616E+000  +5.9617906760E-003 +5.3241939494E+001  +4.2621349980E-003 +6.0347051000E+001  +7.0676450959E-001 +1.1699246868E+000 
8894307.885 +6.2479059518E-001 +3.0154399410E+000  +7.1387625915E-003 +8.4592492096E+001  +5.8348944876E-003 +1.3583869708E+002  +7.3235129837E-001 +1.0265225291E+000 
9019453.066 +5.8513393043E-001 +2.2499779193E+000  +4.5400465946E-003 +6.5172468002E+001  +3.1905959397E-003 -1.7539460414E+002  +6.3144666126E-001 -3.0185883450E+000 
9144598.248 +6.2669745078E-001 +2.9762809131E+000  +6.4594213200E-003 +5.2125954255E+001  +3.0217837303E-003 +1.2361123799E+002  +6.8322483311E-001 -4.2125052490E+000 
9269743.429 +5.2866130206E-001 +3.0766070187E+000  +4.8586185566E-003 +8.7818485747E+001  +7.5636748512E-003 +1.2096833238E+002  +6.0122204328E-001 +6.3171680994E-001 
9394888.611 +5.7367789754E-001 -3.6658866252E-001  +3.5945427972E-003 +7.8535694258E+001  +5.2885053554E-003 +1.4464952297E+002  +5.4853951311E-001 -6.0464619665E+000 
9520033.792 +5.3741240211E-001 +5.4046818092E+000  +4.3586912145E-003 +5.5400701297E+001  +4.3360829531E-003 +5.6109861756E+001  +6.1126499518E-001 -2.3867813433E+000 
9645178.974 +5.3079317453E-001 -2.0543680208E+000  +3.5348881826E-003 +1.1843364171E+002  +8.2513546455E-004 +1.5645351556E+002  +5.6361813482E-001 -2.3888753672E-001 
9770324.155 +5.4290068036E-001 +1.8909376211E+000  +1.1820482636E-003 +9.9261614280E+001  +3.1771854414E-003 +1.1576369058E+002  +6.0539936250E-001 -4.3226247640E+000 
9895469.337 +5.5643543326E-001 +3.9875571129E+000  +4.2436854797E-003 +1.0102130441E+002  +2.8162028443E-003 +6.3868762663E+001  +5.9283387136E-001 -6.4428029322E+000 
10020614.518 +5.1783087691E-001 +8.7689882577E-001  +6.2045177053E-003 +9.5616664003E+001  +2.7767199026E-003 +1.7950106407E+002  +6.3223292432E-001 -5.4187145479E+000 
10145759.700 +5.4821680846E-001 +2.7781333708E+000  +2.9330977373E-003 +1.1928697680E+002  +4.6952931043E-003 +5.0905753294E+001  +5.9589192284E-001 -3.6694201163E+000 
10270904.881 +5.5194774662E-001 +1.0141520920E+000  +5.8596135644E-003 +1.0626679494E+002  +4.5674518104E-003 +9.6523459210E+001  +5.7466583846E-001 -1.3835766137E+000 
10396050.063 +5.7704366743E-001 +6.1322084189E+000  +4.0703305747E-003 +4.0545790331E+001  +4.1858970690E-003 +8.9563795781E+001  +5.6498147296E-001 -2.7405694795E+000 
10521195.244 +5.4368377589E-001 +3.6537147170E+000  +6.2034669002E-003 +6.2084804891E+001  +5.7108876343E-003 +1.0034186027E+002  +6.1201713159E-001 -1.1848993848E+000 
10646340.426 +5.6690999432E-001 +3.5251879428E+000  +3.8608423560E-003 +9.5696351790E+001  +6.1101995870E-003 +9.0879451175E+001  +5.6413965420E-001 +7.5551532752E-001 
10771485.607 +6.2681318724E-001 +5.9194786906E+000  +3.5332594060E-003 +8.8395004385E+001  +4.3097690338E-003 +9.1471591876E+001  +6.0288201321E-001 +2.7356237235E+000 
10896630.788 +5.6648066889E-001 +6.5679541677E+000  +6.9081385943E-003 +8.1358354736E+001  +4.1715329422E-003 +1.1795370420E+002  +6.0985122889E-001 -9.4086450496E-002 
11021775.970 +5.8591339412E-001 +3.3951893659E+000  +3.8911360257E-003 +9.7501521013E+001  +4.6728104420E-003 +1.1271255039E+002  +6.1252346382E-001 -8.9597247031E-001 
11146921.151 +6.1373847413E-001 +6.2416178976E+000  +4.6617692848E-003 +9.6553707747E+001  +5.5357472704E-003 +1.0986078838E+002  +6.3375024909E-001 -8.7780625811E-001 
11272066.333 +6.0812897612E-001 +3.2273231490E+000  +4.9848190016E-003 +8.6017771676E+001  +4.5720091142E-003 +8.8370223328E+001  +6.1736509302E-001 +1.7023653427E+000 
11397211.514 +6.0996014253E-001 +6.1925481525E+000  +5.4072237422E-003 +8.9024033354E+001  +4.7639361779E-003 +9.8400111652E+001  +6.3794117203E-001 +1.8385499314E+000 
11522356.696 +6.3228500305E-001 +7.3603868904E+000  +5.0524504012E-003 +7.8386851145E+001  +5.6814051313E-003 +1.2163167427E+002  +6.4036065861E-001 +1.5147124727E+000 
11647501.877 +6.5083224431E-001 +2.9183625667E+000  +6.9667102432E-003 +9.8925883274E+001  +5.0236917010E-003 +1.0121178858E+002  +6.6579086376E-001 -1.5791180788E+000 
11772647.059 +6.6922059228E-001 +6.5009655010E+000  +4.7647255405E-003 +7.9667882112E+001  +4.1353324208E-003 +8.9609029489E+001  +6.5764932469E-001 +1.5003687813E+000 
11897792.240 +6.5818818366E-001 +3.1532168794E+000  +6.8530933939E-003 +5.4143958719E+001  +6.2028901637E-003 +9.1557170318E+001  +6.7784828813E-001 -1.4485187903E+000 
12022937.422 +6.7394498705E-001 +4.8459650782E+000  +5.3338214350E-003 +9.1906765745E+001  +3.7855890110E-003 +1.1699282026E+002  +6.9847960898E-001 -9.8004475666E-001 
12148082.603 +6.6245364441E-001 +4.4934071949E+000  +4.1706178632E-003 +9.3701114581E+001  +5.8134959586E-003 +1.2070901465E+002  +7.0571330733E-001 +2.0107921857E+000 
12273227.785 +6.8436631355E-001 +2.6157702099E+000  +5.4885024489E-003 +8.4928493494E+001  +4.7772254068E-003 +9.1286854437E+001  +7.3512530983E-001 +3.3918385250E-001 
12398372.966 +6.9487766740E-001 +3.7724614745E+000  +5.9110146067E-003 +9.6051990758E+001  +6.3724701633E-003 +8.5717084271E+001  +7.1378565105E-001 -7.1676519496E-001 
12523518.148 +7.1568363612E-001 +2.5650945885E+000  +5.6544760590E-003 +8.3440392967E+001  +5.5916321652E-003 +9.0948007439E+001  +7.2279820947E-001 -1.0975138813E+000 
12648663.329 +7.5477317822E-001 +1.5978159737E+000  +4.7447249500E-003 +9.6166489906E+001  +4.1913907950E-003 +9.8554160737E+001  +7.5616760474E-001 -2.0658260116E+000 
12773808.511 +7.7352062653E-001 +1.4143303612E+000  +6.8738427748E-003 +9.9353673240E+001  +5.7330223501E-003 +1.0074821748E+002  +7.7760488976E-001 -1.1271115991E+000 
12898953.692 +7.7634553721E-001 +2.1158050494E+000  +5.7239087692E-003 +6.2136963755E+001  +8.3413408245E-003 +9.2657393770E+001  +7.9397106117E-001 -1.6266563700E+000 
13024098.874 +7.8271764274E-001 +1.8366042033E+000  +6.1665966546E-003 +8.9516002929E+001  +5.9796243269E-003 +1.0288892878E+002  +7.9082381642E-001 -1.9367075311E+000 
13149244.055 +7.9141833306E-001 -5.7357705014E-001  +6.3814240296E-003 +1.0868838008E+002  +5.1358592178E-003 +8.1604752863E+001  +8.3567571461E-001 -1.7611740678E+000 
13274389.237 +8.0379674175E-001 -9.3029571999E-001  +6.3692786347E-003 +8.2631271378E+001  +7.1943854778E-003 +8.0597016530E+001  +8.4315027011E-001 -2.2574539084E+000 
13399534.418 +8.5996635030E-001 -3.3062422081E-001  +5.7197870449E-003 +9.5046669470E+001  +6.0180825631E-003 +9.8068168348E+001  +8.3133799454E-001 -2.3668834217E+000 
13524679.599 +8.4668388727E-001 -1.7232636697E+000  +4.9352051504E-003 +9.5788471772E+001  +6.0817824691E-003 +9.6763378142E+001  +8.7767137092E-001 -3.0636534816E+000 
13649824.781 +8.6781856055E-001 -3.1868337631E+000  +7.2856820018E-003 +1.0218390288E+002  +6.3340110794E-003 +9.6974570266E+001  +8.8153261877E-001 -3.3622831074E+000 
13774969.962 +8.9769660736E-001 -2.1742594055E+000  +7.2904234180E-003 +9.2646160165E+001  +6.3667591016E-003 +1.0598719647E+002  +9.1676690073E-001 -3.6861120591E+000 
13900115.144 +8.9875330234E-001 -2.9088497996E+000  +6.0033499132E-003 +9.0635807957E+001  +7.4037316790E-003 +9.5155883472E+001  +9.2838072089E-001 -3.9358574352E+000 
14025260.325 +9.1198788085E-001 -4.2422011957E+000  +7.4331617447E-003 +9.4830583085E+001  +9.5890649887E-003 +9.8653452816E+001  +9.4296788682E-001 -3.6586443055E+000 
14150405.507 +9.2506217067E-001 -3.4897035070E+000  +6.9847921543E-003 +8.0575824104E+001  +7.1226172847E-003 +9.4133505241E+001  +9.3172264162E-001 -3.5354078360E+000 
14275550.688 +9.6616922513E-001 -4.3054103884E+000  +7.7611729237E-003 +9.1086381326E+001  +7.5232442580E-003 +1.0569458955E+002  +9.6536133033E-001 -4.5682646496E+000 
14400695.870 +9.8551558941E-001 -4.3302732899E+000  +7.6178094447E-003 +8.6933834133E+001  +6.5473988447E-003 +8.7022381231E+001  +9.8108051044E-001 -4.9272264575E+000 
