!  2-Port S-parameters saved by WinCal
! VAR MeasName=S-Parameters (CALIBRATED_DATA) read from VNA (P5004A)
! VAR MeasDate=28/08/2024 10:28:41
! VAR NAME=S2_r4c9_SET2_9k-100M_1
! VAR FILENAME=S2_r4c9_SET2_9k-100M_1.S2P
! VAR DATE=28/08/2024 10:28:41
! VAR PHYS_PORTS=1,2
! VAR ObjTypeName=DATASET
! VAR IndexType=Frequency
!
# Hz S MA R 50
9000.000 +1.0728690130E-001 -1.6457267913E+002  +7.3069730504E-003 +4.3467660672E+001  +5.6699721008E-003 -9.0042634782E+001  +2.8507566962E-001 -1.4011447331E+002 
134145.181 +1.1129159407E-001 +1.6964789786E+002  +3.3929461668E-004 -6.2017125036E+001  +9.7670512348E-005 -2.3048926066E+001  +2.4106602943E-001 -1.7105544574E+002 
259290.363 +1.1183072508E-001 +1.6988256294E+002  +2.4058319930E-004 +4.2457544843E+001  +6.0180913942E-004 -1.3168759748E+002  +2.4325035718E-001 -1.6938466229E+002 
384435.544 +1.1451906079E-001 +1.6990064911E+002  +5.0521030388E-004 +5.8945460140E+001  +5.4014500957E-004 -1.1865051334E+002  +2.5022713225E-001 -1.6863313731E+002 
509580.726 +1.1225736799E-001 +1.7086640941E+002  +3.3354720467E-004 -1.4819602809E+002  +1.1793631046E-003 +1.5320472632E+002  +2.3936591057E-001 -1.6506588672E+002 
634725.907 +1.1761542988E-001 +1.7153263826E+002  +6.0925297687E-004 -3.6159801506E+001  +1.2857249752E-003 -1.7624914660E+002  +2.6549127659E-001 -1.6224902323E+002 
759871.089 +1.1927467454E-001 +1.7068610348E+002  +4.4017554222E-004 +1.7108828676E+002  +6.1588902031E-004 +3.7350865651E+001  +2.5451525519E-001 -1.6650213345E+002 
885016.270 +1.2111645709E-001 +1.6910803708E+002  +3.2171762866E-004 +1.3913374972E+002  +8.3160893700E-004 +7.4881298419E+001  +2.4695568420E-001 -1.6524699181E+002 
1010161.452 +1.1912130178E-001 +1.7012582629E+002  +9.7415959040E-004 +1.3599882383E+002  +2.0750429014E-003 +1.4472510977E+002  +1.9633145973E-001 -1.7201885170E+002 
1135306.633 +1.1505652887E-001 +1.6969836986E+002  +1.1107611202E-003 -3.4990497374E+001  +1.4555018557E-003 +1.5937959339E+002  +1.8952464516E-001 -1.7121576858E+002 
1260451.815 +1.1943732002E-001 +1.6972641696E+002  +9.2410186196E-004 -1.7090581291E+002  +8.3459862069E-004 +3.0624092709E+001  +2.1802884635E-001 -1.6049125613E+002 
1385596.996 +1.2665383080E-001 +1.7276796881E+002  +4.9234049734E-004 -3.5133953105E+001  +2.5859732995E-003 +9.5531120855E+001  +2.7338432815E-001 -1.5662686079E+002 
1510742.178 +1.2859037219E-001 +1.7053834690E+002  +1.0356006825E-003 -1.1785225674E+002  +1.1876352979E-003 -5.8772933388E+000  +2.6965366390E-001 -1.5698526567E+002 
1635887.359 +1.3010127418E-001 +1.7041489237E+002  +1.2563313561E-004 -1.7676726321E+002  +1.1391262226E-003 -3.5751031644E+001  +2.5714646146E-001 -1.5323763065E+002 
1761032.541 +1.3113592997E-001 +1.7125230623E+002  +4.0567533233E-004 +1.8493494269E+000  +9.2085369857E-004 -7.1112788666E+001  +2.3144656553E-001 -1.6209610279E+002 
1886177.722 +1.3157593095E-001 +1.7034654982E+002  +1.6753537083E-003 +2.6304389069E+001  +3.5979662781E-004 +1.2361671133E+002  +1.7598061606E-001 -1.4836150229E+002 
2011322.904 +1.3469675675E-001 +1.6790903508E+002  +1.0660525237E-003 -1.2813380420E+002  +1.1370818735E-003 -1.1652990092E+002  +1.5598619335E-001 -1.5650700928E+002 
2136468.085 +1.3372257647E-001 +1.6549714245E+002  +1.9209176418E-003 -6.2286871408E+001  +7.5405033647E-004 -5.7241308315E+001  +1.8403716005E-001 -1.5752992511E+002 
2261613.267 +1.3348060608E-001 +1.6688444447E+002  +1.2706741164E-003 -3.2234980973E+001  +2.0318137598E-003 +1.5158161982E+001  +2.1421608919E-001 +1.7793747542E+002 
2386758.448 +1.3768288495E-001 +1.6550771882E+002  +2.3623747274E-003 +1.5523346544E+002  +1.1059094079E-003 +5.1424239764E+001  +2.1967563961E-001 +1.6118036089E+002 
2511903.630 +1.2698676903E-001 +1.6634121804E+002  +8.7535232454E-003 +1.1954737974E+002  +4.7719439962E-003 +9.7570793313E+001  +5.2254573441E-001 -7.5358175829E+001 
2637048.811 +1.3109206715E-001 +1.5898295061E+002  +9.4598958396E-003 +7.6725902969E+001  +7.9462211739E-003 -4.6686979176E+001  +2.2842069165E-001 +1.5978735620E+002 
2762193.992 +1.1326945834E-001 +1.7471704431E+002  +7.7948782491E-003 -8.0864045866E+001  +1.2881224799E-002 -3.2155020149E+001  +3.6891480414E-001 +1.4103641743E+002 
2887339.174 +1.2138435332E-001 +1.6585996648E+002  +1.2340267145E-002 -7.9688313655E+001  +1.4554753482E-002 +3.8550751293E+000  +3.9576045539E-001 -5.2975587781E+001 
3012484.355 +1.0933043953E-001 -1.7744451506E+002  +1.3434301548E-002 +3.0123095415E+000  +2.2172901601E-003 +8.2704264093E+001  +1.8087744776E-001 -1.1967795023E+002 
3137629.537 +1.2425914516E-001 +1.6790346099E+002  +1.2708790008E-002 +5.3845085019E+001  +1.2257937019E-002 +1.6298072938E+002  +2.0258603694E-001 -1.5674488006E+001 
3262774.718 +1.1893179406E-001 +1.7280243201E+002  +6.9663957402E-003 -1.1137872127E+002  +7.4034294608E-003 -9.9068067840E+001  +1.7626906971E-001 -8.9499663757E+001 
3387919.900 +1.1232225284E-001 +1.6037827292E+002  +8.3613412568E-003 -1.7326072948E+001  +1.3819624408E-002 +3.5748479414E+001  +9.9913206750E-002 +5.2558296508E+001 
3513065.081 +1.3931492971E-001 +1.5976953904E+002  +4.3756813302E-003 -1.5668801166E+002  +8.1805428169E-003 -3.2513942270E+001  +1.7076587530E-001 +1.2746058555E+002 
3638210.263 +1.7537377310E-001 +1.4852539029E+002  +1.4189186616E-002 +8.4005603298E+001  +3.7126709920E-003 -2.0723823236E+001  +5.4668222309E-001 +1.4226273443E+002 
3763355.444 +1.6592081658E-001 +1.4484776585E+002  +2.2278168770E-002 +6.0128589874E+001  +3.7582061452E-002 -1.3005700769E+001  +8.1683125209E-001 +5.1493929143E+001 
3888500.626 +1.7828133923E-001 +1.4908040350E+002  +6.6936694709E-003 -1.1061015148E+001  +8.5309989327E-003 -1.4234957353E+002  +1.6908070741E-001 +7.0868302011E+001 
4013645.807 +1.6400378605E-001 +1.5590306844E+002  +2.0495625230E-002 +4.7530380835E+001  +4.2071564855E-003 -1.2417515364E+000  +7.1608560158E-001 +9.0637143050E+001 
4138790.989 +1.5892853430E-001 +1.5025482785E+002  +6.3119668595E-003 +1.7247403922E+002  +5.5443514081E-003 -6.5180625487E+001  +5.3810792577E-001 +1.4157369158E+002 
4263936.170 +2.0035460263E-001 +1.4308385773E+002  +1.1446416778E-002 -1.7760127208E+002  +3.6918522003E-002 +2.2398533628E+001  +8.2176375549E-001 +9.5840359939E+001 
4389081.352 +2.1487241216E-001 +1.4487012537E+002  +6.1222160029E-003 -1.6581854450E+002  +2.2470792271E-003 +1.1447141205E+002  +5.7036230101E-001 +1.1800235078E+002 
4514226.533 +2.1525448181E-001 +1.4713807033E+002  +1.2301439296E-001 +9.3311947580E+001  +5.8315485677E-002 -1.1661294071E+001  +5.7822895562E+000 +6.2715304270E+001 
4639371.715 +2.4496409133E-001 +1.2464386899E+002  +1.2370195202E-002 +1.0378074598E+002  +2.7481640321E-002 +1.3761480880E+002  +1.8343843115E+000 +1.5042247227E+002 
4764516.896 +3.3266272327E-001 +1.2548677220E+002  +1.7258180611E-002 +1.3979331989E+002  +4.8754855756E-002 +1.6832648259E+001  +1.7049309031E+000 +1.0936123105E+002 
4889662.078 +4.4449295493E-001 +1.2903971334E+002  +1.3800403689E-001 +2.1413454632E+001  +4.3172505223E-002 -9.2610878918E+001  +4.3800022367E+000 -9.0934772651E+001 
5014807.259 +3.2773733190E-001 +1.3013121427E+002  +3.5050371060E-001 -1.0067151536E+002  +9.2548878095E-002 +1.4939343699E+002  +1.5403195954E+001 -1.0754839189E+002 
5139952.441 +4.2017245889E-001 +1.2644861895E+002  +5.3816434712E-002 -1.2882798285E+001  +8.2947683759E-003 +3.9335963202E+001  +3.3233597538E+000 -6.2258202636E+001 
5265097.622 +3.4325746444E-001 +1.3511800792E+002  +7.9544633141E-003 -3.5336757553E+001  +2.8065511171E-003 +6.7358270509E+001  +3.5167093172E+000 +6.7058358710E+001 
5390242.804 +4.1553402517E-001 +1.3048151817E+002  +2.9728195838E-002 +1.6322778082E+002  +3.2513946778E-002 +1.1052357915E+002  +1.5678415395E+000 +8.1870306115E+001 
5515387.985 +4.3094833641E-001 +1.2889898611E+002  +3.0872089073E-002 -4.3547892290E+001  +2.0049079341E-002 +1.3585213410E+002  +1.7106904510E+000 +7.1460329631E+001 
5640533.166 +4.1929302719E-001 +1.2553206952E+002  +2.6912844846E-002 +1.1674652765E+002  +4.5001886090E-002 +7.4872973962E+001  +2.1422180555E+000 +3.7940510859E+001 
5765678.348 +4.7398003201E-001 +1.2359146002E+002  +1.5373907010E-002 +1.3447698393E+002  +3.1485324421E-002 +1.0915561853E+002  +1.6410058919E+000 +9.8972096316E+001 
5890823.529 +6.1080430562E-001 +1.1526832718E+002  +2.2730148744E-002 +8.2901590654E+001  +4.5172065047E-002 +1.2018529086E+002  +2.5052478370E+000 +6.0929686503E+001 
6015968.711 +6.7241700938E-001 +1.1656854220E+002  +2.6666030856E-002 +5.3358458970E+001  +4.4069332334E-002 +6.1084057807E+001  +2.2359510964E+000 +9.3130258302E+001 
6141113.892 +7.6132559743E-001 +1.1433320110E+002  +1.3981377798E-002 +6.4055724669E+001  +3.5948989502E-002 +4.2831803552E+001  +1.7021953779E+000 +4.6800045090E+001 
6266259.074 +8.5393618705E-001 +1.0292401414E+002  +3.3780324193E-002 +4.0472917701E+001  +3.8932292276E-002 +2.8920428282E+001  +1.7414691804E+000 +1.5202149119E+001 
6391404.255 +9.7979347447E-001 +9.4809847442E+001  +6.1203384318E-002 +4.0739250075E+001  +1.2196909221E-002 +6.5354065450E+001  +1.6156166119E+000 +1.3853084777E+001 
6516549.437 +1.0313324952E+000 +7.8524749879E+001  +5.3735928860E-002 +3.3637452941E+001  +6.5076096498E-002 +1.8503735746E+001  +1.8316269637E+000 +1.2547093795E+001 
6641694.618 +1.5435165862E+000 +7.3437492036E+001  +3.5025201066E-002 +6.0470036409E+001  +2.2570983786E-002 +2.3684571869E+001  +1.4821150427E+000 +2.4674331286E+000 
6766839.800 +1.4048656680E+000 +6.4848128840E+001  +4.4514329920E-002 +2.3112090475E+001  +1.5582167566E-002 -3.9605618251E+000  +1.2124957477E+000 -1.5012008320E+001 
6891984.981 +1.7083064901E+000 +4.3844567516E+001  +5.1622901122E-002 +9.2492857037E+000  +2.5353349537E-002 +4.6461117062E+001  +1.4711555011E+000 -1.5546130744E+001 
7017130.163 +1.6582623785E+000 +3.0932652736E+001  +1.7562105426E-002 +3.0491672075E+001  +2.4161791012E-002 +4.2392155283E+001  +1.2310236760E+000 -5.7545439074E+000 
7142275.344 +1.6496896127E+000 +1.1690957599E+001  +1.7835131270E-002 +2.9016108209E+001  +1.6055997342E-002 -8.3457373622E+001  +1.3690652110E+000 -8.2198432494E+000 
7267420.526 +1.5010174712E+000 -3.2092088567E+000  +2.8959358862E-002 +3.9486579441E+001  +1.5049657570E-002 -5.1299361328E+001  +1.4010738295E+000 -1.6871730858E+001 
7392565.707 +1.3888666116E+000 -4.5072324874E+000  +1.7558140913E-002 +5.4280347140E+000  +1.5676789968E-002 -2.7155225443E-001  +1.3071534642E+000 -3.7364477793E+000 
7517710.889 +1.2169925366E+000 +2.3612780448E+000  +1.5644130877E-002 +4.5493352040E+001  +1.5360323172E-002 +1.7876406373E+001  +1.2920809641E+000 -5.1742553465E+000 
7642856.070 +1.1119457781E+000 +4.4416990597E+000  +1.2373716875E-002 +1.6014549186E+001  +1.2899904566E-002 +1.8140810983E+000  +1.1167970620E+000 -5.8418104022E+000 
7768001.252 +8.6406447592E-001 +2.2254354681E-001  +1.8062739333E-002 +2.2710980539E+001  +1.7056945634E-002 +2.9513618927E+001  +8.6609577510E-001 -3.4999519353E+000 
7893146.433 +9.3621286499E-001 +1.3754096686E+000  +1.2409857165E-002 +2.2477773069E+001  +6.9844627261E-003 +4.0760977003E+001  +9.5614006427E-001 +1.7330833781E-001 
8018291.615 +9.2215609695E-001 +3.7131250664E+000  +1.3685002221E-002 +5.5917986998E+000  +1.2438349060E-002 +4.7268351464E+001  +7.5914000389E-001 -2.2807995472E+000 
8143436.796 +8.1152366951E-001 +2.6705494189E-001  +1.1569267091E-002 +1.9975607900E+000  +1.0682011534E-002 -4.0703414266E+000  +8.2422228568E-001 -8.5876556091E+000 
8268581.977 +6.4997632522E-001 +1.0436101884E+001  +1.1522505061E-002 +5.7983834900E+000  +7.2583395482E-003 -7.8402679577E+000  +7.4299894440E-001 -3.1112202876E-001 
8393727.159 +6.9027753823E-001 +7.6474392312E+000  +1.5492688967E-002 +1.1238013280E+001  +9.1449248737E-003 +3.3711623064E+001  +7.2393569618E-001 +4.4461446434E+000 
8518872.340 +6.5650685669E-001 +4.0016342448E+000  +8.8832409211E-003 +2.8039261640E+001  +1.3506345457E-002 +3.9236148919E+001  +6.9411313060E-001 -1.1683160506E+000 
8644017.522 +6.4266435493E-001 +5.2728279815E+000  +1.1027484643E-002 +2.7025191726E+001  +1.0475241204E-002 +3.2493617413E+001  +6.8489940432E-001 -1.0381717947E+000 
8769162.703 +6.2378544044E-001 +1.0802289398E+001  +1.2182064431E-002 +3.1624017613E+000  +1.3443218696E-002 +2.4713629819E+001  +6.6560680613E-001 +5.4606186370E-001 
8894307.885 +5.7088135279E-001 +5.4671644858E+000  +9.9106474449E-003 +2.7124228730E+001  +7.1415372929E-003 +3.2570155552E+001  +6.7826576307E-001 -3.4582924946E+000 
9019453.066 +5.8697947680E-001 -5.4005979982E-001  +1.1934403211E-002 +1.5357298218E+000  +1.3463295850E-002 +2.1400614342E+001  +7.1135023535E-001 -6.4129578376E-001 
9144598.248 +5.7067742553E-001 +3.4739548914E+000  +1.0140663787E-002 +3.0800627277E+001  +9.9698689340E-003 +1.5799713193E+001  +5.8120236974E-001 -1.4458895467E+000 
9269743.429 +5.6300088148E-001 +7.1154934809E+000  +1.1863972629E-002 +5.8499346564E+000  +8.3442228649E-003 +1.4855870603E+001  +6.0891995891E-001 +4.1846122689E+000 
9394888.611 +5.7860879152E-001 -1.2989769624E+000  +7.2068876531E-003 +9.3031059430E+000  +1.1680771648E-002 +2.7663051817E+001  +6.1712140092E-001 -5.7455351234E+000 
9520033.792 +5.6467149129E-001 +1.7364803382E+000  +1.1751314966E-002 +1.7340474483E+001  +9.3257354160E-003 +4.5901167870E+001  +6.2215647553E-001 -1.1387664813E+000 
9645178.974 +5.1562202596E-001 -6.7880647813E-001  +1.0752212274E-002 +9.5579453480E+000  +7.8139715127E-003 +2.5867273199E+001  +5.6491900040E-001 -4.5892119479E+000 
9770324.155 +5.3935140368E-001 +7.3522921021E-001  +9.9347595079E-003 +5.5615439598E+000  +1.0011342445E-002 +8.3551854649E+000  +5.7376717346E-001 -5.8286953269E+000 
9895469.337 +5.4240025861E-001 +4.4940687507E+000  +1.0027590088E-002 +2.5301501304E+001  +1.1055700727E-002 +3.4416784826E+001  +5.9631975926E-001 -5.3168857151E+000 
10020614.518 +5.6620233719E-001 +4.8199633848E+000  +1.0800461521E-002 +2.3581847395E+001  +1.1613541031E-002 +4.1835285869E+001  +5.9287531225E-001 -7.3004913564E+000 
10145759.700 +5.4667109823E-001 +3.4955127956E+000  +1.2039441523E-002 +2.9897098178E+001  +9.9905812600E-003 +2.8420504095E+001  +5.7241618199E-001 -4.7407371629E+000 
10270904.881 +5.2347978590E-001 -3.6421172713E-001  +8.9446284001E-003 +1.9088980815E+001  +9.7744566791E-003 +3.9633583823E+001  +5.4348568105E-001 -1.7288562749E+000 
10396050.063 +5.3303038727E-001 +8.8507429291E+000  +1.1135502374E-002 +1.7728431949E+001  +1.0016340867E-002 +4.3085005203E+001  +5.9120525308E-001 -3.2674345798E+000 
10521195.244 +5.5741346999E-001 +8.1434951889E+000  +1.0003551439E-002 +1.9975266131E+001  +1.0458846299E-002 +4.0994545008E+001  +5.8971694261E-001 -5.1683721919E-001 
10646340.426 +5.7957225306E-001 +6.0903583930E+000  +1.2665079286E-002 +2.0070132349E+001  +1.2159365540E-002 +4.2167717026E+001  +5.7147502862E-001 +5.0199646749E-001 
10771485.607 +5.5366119702E-001 +3.2548806461E+000  +1.1108530756E-002 +2.3830680557E+001  +1.1362899194E-002 +4.5515094197E+001  +6.2317542101E-001 +6.0176711936E-001 
10896630.788 +5.6488231168E-001 +9.2360034996E+000  +9.8952724983E-003 +2.2509825541E+001  +9.8859847514E-003 +4.3976133372E+001  +5.9893899193E-001 +3.0010415499E-001 
11021775.970 +5.5212463571E-001 +7.2847753396E+000  +1.1459133393E-002 +1.2117479127E+001  +1.1445594524E-002 +2.7503405890E+001  +6.0890499310E-001 +9.0722070435E-001 
11146921.151 +5.8573506721E-001 +4.4543171051E+000  +1.1642949518E-002 +1.9203606726E+001  +1.0966390986E-002 +4.4838743808E+001  +6.3018492606E-001 +1.9080205661E-001 
11272066.333 +6.1298949247E-001 +6.7843416635E+000  +1.2680230539E-002 +2.0711704143E+001  +1.2485827017E-002 +4.1150623886E+001  +6.1706955677E-001 +1.2258110050E+000 
11397211.514 +6.0223022107E-001 +4.5528869358E+000  +1.1517953959E-002 +2.8665796775E+001  +1.1330366339E-002 +1.6064430489E+001  +6.2673445469E-001 +3.0952217897E+000 
11522356.696 +6.1835035558E-001 +6.3116275196E+000  +1.2291643026E-002 +2.1673229308E+001  +1.0623140906E-002 +4.7190267736E+001  +6.2125037118E-001 +9.2274979434E-001 
11647501.877 +6.3487515310E-001 +6.6831123458E+000  +1.2043811397E-002 +3.6477215635E+001  +1.2134446234E-002 +4.1480336498E+001  +6.5879062501E-001 +8.9439638440E-001 
11772647.059 +6.1921588493E-001 +5.9013792438E+000  +1.3597373074E-002 +3.2582313515E+001  +1.0050322145E-002 +4.2459640441E+001  +6.4746313366E-001 +2.8066173948E+000 
11897792.240 +6.3586992971E-001 +6.2028288916E+000  +1.2452727679E-002 +2.9664716764E+001  +1.3783433318E-002 +3.0582943892E+001  +6.6997973418E-001 +4.0812859978E+000 
12022937.422 +6.8635340078E-001 +4.4772420872E+000  +1.3334689923E-002 +2.1779553380E+001  +1.3297041895E-002 +4.1077103679E+001  +6.8253358162E-001 +1.0394405746E+000 
12148082.603 +6.9138380585E-001 +5.3630528799E+000  +1.1000370738E-002 +1.9824529032E+001  +1.1917731677E-002 +3.3268938867E+001  +6.7883496658E-001 +1.9887266458E+000 
12273227.785 +6.8865038382E-001 +2.9246119952E+000  +1.2832973770E-002 +3.7448155171E+001  +1.5034969219E-002 +3.1661198190E+001  +6.9707928186E-001 -3.6374703706E-001 
12398372.966 +6.9293269509E-001 +3.0017115829E+000  +1.3434039985E-002 +2.5665779681E+001  +1.3533562789E-002 +3.8733683461E+001  +7.1598292776E-001 +6.7075312426E-002 
12523518.148 +6.9107996517E-001 +1.7112387148E+000  +1.2126806397E-002 +2.4253723364E+001  +1.3298424059E-002 +3.9855828854E+001  +7.4212751696E-001 -1.7130776730E-001 
12648663.329 +7.3660032730E-001 +3.7817757798E+000  +1.4404858040E-002 +3.1490210906E+001  +1.1787965024E-002 +3.5509027696E+001  +7.5358808830E-001 -6.0859535953E-002 
12773808.511 +7.5642935608E-001 +1.8404467065E+000  +1.4868464142E-002 +2.3467053940E+001  +1.1250909541E-002 +3.4004106494E+001  +7.6121042994E-001 -1.5321345818E+000 
12898953.692 +7.5465467662E-001 +5.8348238229E-001  +1.4737658808E-002 +2.3056898600E+001  +1.4045317091E-002 +3.7406906066E+001  +7.8124152842E-001 -3.8171181131E-001 
13024098.874 +7.8127494831E-001 +4.0629925979E-001  +1.3029460117E-002 +3.2218541586E+001  +1.3389411319E-002 +3.2838901362E+001  +8.0724522617E-001 -1.0924047652E+000 
13149244.055 +7.9589397084E-001 +6.8276456028E-001  +1.3038134903E-002 +2.8653435660E+001  +1.3487978320E-002 +3.1478542478E+001  +7.9741395409E-001 -1.4232199312E+000 
13274389.237 +8.0167347344E-001 -5.4435721935E-001  +1.5880200588E-002 +3.0862190890E+001  +1.3708672841E-002 +2.8461192227E+001  +8.0135624512E-001 -3.6957242388E+000 
13399534.418 +8.1209611919E-001 -8.7726592099E-001  +1.2538275574E-002 +3.8239463526E+001  +1.5150305387E-002 +3.6663117670E+001  +8.2504649847E-001 -4.1061712031E+000 
13524679.599 +8.2470224798E-001 +2.4813227093E-001  +1.4530165353E-002 +3.0693000103E+001  +1.3270289502E-002 +3.9927045522E+001  +8.5931252474E-001 -2.5558804906E+000 
13649824.781 +8.7143493448E-001 -1.8079565656E+000  +1.3760900771E-002 +3.0018416523E+001  +1.5530219405E-002 +2.8093952143E+001  +8.7943194559E-001 -3.5795473582E+000 
13774969.962 +8.8186387596E-001 -2.3325428482E+000  +1.4571420368E-002 +2.8010186569E+001  +1.4224537438E-002 +3.2900406495E+001  +8.9082681773E-001 -2.8725133648E+000 
13900115.144 +9.0509513702E-001 -4.3515217001E+000  +1.4572075383E-002 +3.0020958326E+001  +1.4303132725E-002 +3.8080395203E+001  +8.9629159092E-001 -4.0083249069E+000 
14025260.325 +9.2306610658E-001 -3.8690944316E+000  +1.5200020002E-002 +3.4160288809E+001  +1.5666495051E-002 +3.2639789086E+001  +9.0046212456E-001 -3.7659584463E+000 
14150405.507 +9.5259956008E-001 -4.3821956837E+000  +1.5895354396E-002 +2.3095735787E+001  +1.3607426227E-002 +2.7845967199E+001  +9.6618333592E-001 -4.2824233082E+000 
14275550.688 +9.4303609835E-001 -5.6437882351E+000  +1.4749167783E-002 +3.0448110502E+001  +1.4808644203E-002 +2.6085168877E+001  +9.5270067348E-001 -4.5841345513E+000 
14400695.870 +9.5140440688E-001 -6.0967553257E+000  +1.3493040627E-002 +2.7546309304E+001  +1.4547082141E-002 +2.8859025184E+001  +9.7766853788E-001 -4.8855737228E+000 
