!  2-Port S-parameters saved by WinCal
! VAR MeasName=S-Parameters (CALIBRATED_DATA) read from VNA (P5004A)
! VAR MeasDate=27/08/2024 14:27:34
! VAR NAME=S2_r2c8_RESET3_9k-100M_1
! VAR FILENAME=S2_r2c8_RESET3_9k-100M_1.S2P
! VAR DATE=27/08/2024 14:27:34
! VAR PHYS_PORTS=1,2
! VAR ObjTypeName=DATASET
! VAR IndexType=Frequency
!
# Hz S MA R 50
9000.000 +7.6338283436E-002 -1.6593573601E+002  +5.8233742827E-003 +1.2563248755E+001  +6.3739172074E-003 +1.4522063512E+002  +3.3241224192E-001 -1.2532039886E+002 
134145.181 +1.1073149931E-001 +1.6978035329E+002  +6.4631035275E-004 -1.7875593388E+002  +4.9223354166E-004 -4.5964545978E+001  +2.4334902723E-001 -1.7023274631E+002 
259290.363 +1.1350002634E-001 +1.6988935677E+002  +4.6957691293E-004 +5.6683851382E+001  +1.3691198133E-004 -2.7071127014E+001  +2.4952049767E-001 -1.6817890625E+002 
384435.544 +1.1444001331E-001 +1.6954660857E+002  +2.6963517247E-004 +1.6111918354E+002  +1.7668873356E-004 -5.9013628768E+001  +2.4453639674E-001 -1.6805435014E+002 
509580.726 +1.1425383939E-001 +1.7109332262E+002  +7.5783643330E-004 -7.3469965807E+001  +6.5731353244E-004 -5.4405948756E+001  +2.4152335266E-001 -1.6815894830E+002 
634725.907 +1.1706652481E-001 +1.7064288887E+002  +1.6912943418E-004 -1.2345926273E+002  +9.9593466963E-004 -4.7342172360E+001  +2.4073878539E-001 -1.6099546339E+002 
759871.089 +1.1497139869E-001 +1.7012188014E+002  +5.5778093006E-004 -1.4886094440E+002  +4.7168265439E-004 -6.6060278308E+001  +2.3466335939E-001 -1.6431283979E+002 
885016.270 +1.1652613909E-001 +1.6960059826E+002  +1.4527053833E-003 +2.4864256330E+001  +8.2743645460E-004 +6.4593582180E+001  +2.3405786593E-001 -1.6478047821E+002 
1010161.452 +1.1819784699E-001 +1.7223146660E+002  +6.1938638123E-004 -7.7354618569E+001  +1.5475965605E-003 -1.7563003181E+002  +2.1408083073E-001 -1.5353038189E+002 
1135306.633 +1.1617105859E-001 +1.6921779063E+002  +1.7430952361E-003 -1.6678770526E+002  +1.4768401635E-003 -7.0054299738E+001  +2.0743878278E-001 -1.6000838707E+002 
1260451.815 +1.2020728188E-001 +1.7076963213E+002  +1.0694699791E-003 +1.4537304960E+002  +1.7898714939E-003 +1.3365132188E+002  +2.2845244283E-001 -1.5789121211E+002 
1385596.996 +1.2585731246E-001 +1.7403864602E+002  +1.1865252871E-003 +6.3367562698E+001  +5.3331610373E-004 +1.2780786041E+002  +2.7543036718E-001 -1.5973679520E+002 
1510742.178 +1.2874219014E-001 +1.7128198703E+002  +3.5035213064E-004 -1.0891897062E+002  +1.3152464300E-003 -1.3957841608E+002  +2.5206655346E-001 -1.5726693249E+002 
1635887.359 +1.2842839495E-001 +1.7098775272E+002  +4.0061842372E-004 -1.0752750225E+002  +3.8331988193E-005 -9.4756149028E+001  +2.5146593056E-001 -1.5824754527E+002 
1761032.541 +1.2549302294E-001 +1.6819425186E+002  +1.0336735650E-003 +1.7935460138E+002  +1.2262230543E-003 -1.6910170367E+002  +2.2800426644E-001 -1.5748914246E+002 
1886177.722 +1.2971025005E-001 +1.6734889781E+002  +3.5893035979E-004 +1.6224362515E+002  +1.7033342664E-003 +1.5841711695E+002  +1.8741640251E-001 -1.7292709156E+002 
2011322.904 +1.2502072911E-001 +1.6780929482E+002  +2.1888394913E-003 +1.2384254000E+002  +2.0897595507E-003 +1.4355491837E+001  +1.9815174553E-001 -1.7677936252E+002 
2136468.085 +1.3353203748E-001 +1.6481591433E+002  +1.1043094781E-003 -1.5949486130E+002  +1.0936775385E-003 +1.5899770326E+002  +1.5119669748E-001 +1.7284300426E+002 
2261613.267 +1.3233657909E-001 +1.6407915611E+002  +3.7042761693E-003 +1.5919390992E+001  +2.3292064290E-003 -1.4418771102E+002  +1.2558824620E-001 -1.5179693598E+002 
2386758.448 +1.3372784222E-001 +1.5997478446E+002  +2.4301298905E-003 -1.7936977002E+002  +5.7799440373E-003 -1.1582830842E+002  +2.0136302270E-001 -1.7987203117E+002 
2511903.630 +1.3796745886E-001 +1.6435249320E+002  +1.4749115985E-003 +1.1683677287E+002  +2.6176562883E-003 -1.0026658210E+001  +2.0230007762E-001 -1.7675160023E+002 
2637048.811 +1.1244530838E-001 +1.3466509601E+002  +2.6172344839E-002 -1.4290230097E+001  +2.5607325790E-002 -2.8813957974E+001  +3.1048560153E-001 -9.5100276777E+000 
2762193.992 +1.2073985263E-001 +1.7417262140E+002  +1.7362943070E-002 +6.1628992150E+001  +4.3803699672E-002 +4.0641672619E+001  +5.3649470622E-001 +4.8301130744E+001 
2887339.174 +7.5510862101E-002 +1.5202723480E+002  +8.2565118634E-003 -2.6519303690E+001  +1.2030905239E-002 -3.7530857989E+000  +3.4937203469E-001 -8.6737457671E+001 
3012484.355 +1.4330431421E-001 -1.7813986706E+002  +4.9482935495E-003 -1.2950629234E+001  +1.0602905368E-002 -3.2489128945E+001  +5.1735529524E-001 -6.7742785878E+001 
3137629.537 +1.1467711454E-001 +1.6371234177E+002  +2.2617725374E-003 +1.4180601154E+002  +5.5994460631E-003 +8.0334048776E+001  +5.3439358810E-001 -1.2773736691E+002 
3262774.718 +1.3096463803E-001 +1.7350409916E+002  +1.1108843647E-002 -1.5343627639E+002  +1.2555059919E-002 +1.0817833123E+002  +5.7694632376E-001 -1.0851972983E+002 
3387919.900 +1.2289000839E-001 +1.6364659922E+002  +1.7678006790E-002 -1.0312404457E+002  +1.8999471529E-002 -1.4319726140E+002  +5.9669145525E-001 -1.4477699227E+001 
3513065.081 +1.4238657806E-001 +1.5008594748E+002  +9.4856353052E-003 +8.6217778586E+001  +2.8117355603E-002 +5.0554067856E+001  +6.4373943160E-001 +1.1958469616E+002 
3638210.263 +1.7490646732E-001 +1.3676372226E+002  +2.4747873640E-002 +2.0858601942E+000  +1.4372752736E-002 +1.8352025778E+001  +5.3212507615E-001 +1.1275050616E+002 
3763355.444 +1.4800539841E-001 +1.5672541878E+002  +8.3305029179E-003 +1.0801898318E+002  +1.0457369082E-002 -1.0646317128E+002  +5.4732270781E-001 +1.1807877300E+002 
3888500.626 +1.6148450532E-001 +1.4958591275E+002  +1.6434550608E-002 -1.3433595450E+001  +7.8002910122E-003 +1.0335291339E+002  +5.7550426744E-001 +9.3562165081E+001 
4013645.807 +1.6820925739E-001 +1.5266829474E+002  +9.5469327202E-003 -1.1874723658E+002  +1.1019974092E-002 +1.6977067649E+002  +4.3958071025E-001 +1.0694274145E+002 
4138790.989 +1.9647506741E-001 +1.4097845196E+002  +7.5216067640E-003 +9.3478658021E+001  +1.5360131268E-002 -5.8378591428E+001  +5.9096743656E-001 +1.0383674783E+002 
4263936.170 +1.7809322209E-001 +1.4548267471E+002  +1.0881782912E-002 +1.6536539110E+002  +9.3229550379E-003 +8.0368516632E+001  +7.2761583859E-001 +1.2208782783E+002 
4389081.352 +1.8996020348E-001 +1.4551164452E+002  +1.1733188614E-002 -1.3855170644E+002  +6.2904535605E-003 -4.8776787197E+001  +5.9962438779E-001 +1.0603134534E+002 
4514226.533 +2.3466207681E-001 +1.4068044819E+002  +2.1575575155E-002 +1.5269151531E+002  +1.4608244395E-002 -1.1543894914E+001  +1.2779634808E+000 +1.1852729090E+002 
4639371.715 +2.2675113816E-001 +1.0663673722E+002  +2.6715034581E-002 +3.5129000422E+001  +8.7125992680E-003 -1.1263238719E+001  +9.0162512160E-001 +1.0595835691E+002 
4764516.896 +3.9528126133E-001 +1.1267117987E+002  +2.3327341266E-002 +4.5571731946E+001  +3.1913320670E-002 -8.5381563807E+001  +1.9970559480E+000 +1.5604148786E+002 
4889662.078 +3.7550669417E-001 +1.3052325203E+002  +1.6368211472E-002 -1.3754393408E+002  +1.1223231948E-002 +1.6806214241E+002  +2.4892122879E+000 -1.6570072443E+002 
5014807.259 +3.5086571315E-001 +1.3432825514E+002  +1.3944655055E-002 +1.4073620296E+002  +2.2020548381E-002 +7.7391954907E+001  +1.8125110646E+000 +2.7688822964E+001 
5139952.441 +3.8624558510E-001 +1.2784795100E+002  +1.0974876790E-001 +1.2169408929E+002  +2.5211998376E-002 -6.2883536631E+001  +4.8907902569E+000 +5.5455917032E+001 
5265097.622 +4.4611938476E-001 +1.3444020207E+002  +5.8136592943E-002 +1.7993293271E+001  +4.3372637031E-002 -1.6867809958E+002  +5.0438819898E+000 +1.3647118580E+002 
5390242.804 +3.9979824211E-001 +1.3327926845E+002  +3.2275217040E-002 -1.2718594151E+002  +1.3519076157E-002 +1.4534375461E+002  +2.0991333262E+000 +8.4727701407E+001 
5515387.985 +5.0928026387E-001 +1.2767326541E+002  +3.5406101924E-002 -2.4267625547E+001  +3.4704696327E-003 -1.2481909353E+002  +2.5341803010E+000 +7.6966641535E+001 
5640533.166 +5.4213565145E-001 +1.1829310282E+002  +3.7103884992E-002 -8.6942033784E+001  +5.0038317653E-002 +1.7659785141E+002  +3.2347704403E+000 +9.2955996751E+001 
5765678.348 +5.4436380773E-001 +1.2309577178E+002  +1.0945402088E-002 +1.7510422742E+002  +4.3112768948E-003 -1.4443114085E+002  +1.9146952097E+000 +9.2388624274E+001 
5890823.529 +5.9473285090E-001 +1.1323350318E+002  +3.9560875228E-002 +1.3157880944E+002  +4.3983852716E-002 +1.5001626173E+001  +1.7902125911E+000 +6.2940259330E+001 
6015968.711 +6.1627110551E-001 +1.2366098308E+002  +2.4168991284E-002 -1.7374186705E+002  +1.9603587319E-002 +9.6504911599E+000  +4.5545698833E+000 +5.9046398167E+001 
6141113.892 +6.9476610264E-001 +1.2100038759E+002  +2.4350746717E-002 +8.9156521931E+001  +2.1210787605E-002 -1.5106661514E+000  +2.2296197329E+000 +5.0201437604E+001 
6266259.074 +9.2691530150E-001 +1.0839836705E+002  +2.1339880289E-003 -6.3790837012E+001  +2.5776920931E-002 +1.7197300292E+002  +2.6172768362E+000 +3.2186661110E+001 
6391404.255 +1.1577981127E+000 +9.3074278984E+001  +2.0265822651E-002 +1.2448021869E+000  +1.8125981364E-002 +1.6361200055E+002  +1.6763444537E+000 +2.0315877848E+001 
6516549.437 +9.8471740835E-001 +8.5316130687E+001  +1.6739505053E-002 -3.6049815320E+001  +1.0915649645E-002 +3.2613641732E+001  +1.4261036717E+000 +6.8563514778E+000 
6641694.618 +1.6658468485E+000 +7.5651512654E+001  +9.5242458025E-003 -1.5421291575E+002  +2.3808259838E-002 -1.6227791240E+002  +1.2652807903E+000 +1.0684397457E+001 
6766839.800 +1.5720000512E+000 +5.4893357578E+001  +3.3444677855E-002 +8.0881303271E+001  +3.8476741537E-002 +4.0971443750E+001  +1.6061212478E+000 +2.6187668156E+000 
6891984.981 +1.7987905973E+000 +3.2844665537E+001  +1.2013587907E-002 +4.5532966738E+001  +3.7998008370E-003 -1.3629017050E+002  +1.2719950995E+000 -1.0148936597E+001 
7017130.163 +2.0960379334E+000 +8.5926273043E+000  +1.3038176576E-002 +4.8528950684E+001  +2.4709909994E-002 +1.6720104388E+002  +1.3348172633E+000 -1.3247710172E+001 
7142275.344 +1.8304206385E+000 +8.0414119031E+000  +3.9107501882E-003 -3.3567219679E+000  +2.5933315047E-002 +1.5719082152E+002  +1.3724644885E+000 -1.0911180636E+001 
7267420.526 +1.6625899983E+000 +1.4229311706E+000  +8.8450268683E-003 +1.3367477588E+002  +8.0363963643E-003 -2.1670759967E+001  +1.3417769947E+000 -1.0373702885E+001 
7392565.707 +1.2892453434E+000 -1.8423860596E+000  +1.0655160719E-002 -2.2812047773E+001  +1.0032915160E-002 +8.3328201006E+001  +1.4074621619E+000 -8.2343238967E+000 
7517710.889 +1.1559627137E+000 -2.9098844027E+000  +5.7709626601E-003 +8.0003176740E+001  +7.0688748806E-003 +1.2850120226E+002  +1.2433879165E+000 -4.9923935322E+000 
7642856.070 +1.0567349639E+000 +9.0080216321E+000  +1.4405903876E-002 +6.6110034375E+001  +8.3158249990E-003 +1.2779668530E+002  +1.0667079760E+000 -4.6732566158E+000 
7768001.252 +9.2337199235E-001 +2.2055571062E+000  +1.1018280511E-002 +4.2754932477E+001  +1.3964293150E-002 +4.4100919475E+001  +1.0157587902E+000 -4.0802711333E+000 
7893146.433 +8.9938028306E-001 +4.3011383574E+000  +6.0077595377E-003 -1.5921588136E+002  +1.1200326280E-002 +8.8818521455E+001  +9.6540058154E-001 -4.7852172269E+000 
8018291.615 +8.3227152741E-001 +6.5448194690E+000  +4.5739346178E-003 +1.7434390059E+002  +7.5272528757E-003 +4.0263238865E+001  +7.9261645970E-001 +2.0431587871E-001 
8143436.796 +7.4155173171E-001 +3.6308751621E+000  +4.7446773549E-003 +8.9379224399E+001  +4.2524787497E-003 +1.6066025820E+002  +9.0132913694E-001 -4.6765376209E+000 
8268581.977 +7.5835567076E-001 +5.6048730322E+000  +3.6407763303E-003 +4.4815969324E+001  +3.1728805320E-003 +1.3403127208E+002  +7.5550881950E-001 +2.1236526809E+000 
8393727.159 +7.5575172325E-001 +6.7414222585E+000  +3.8433693561E-003 +1.3951703554E+002  +2.4900650656E-003 +6.8351339366E+001  +6.9572577911E-001 +1.1829407117E+000 
8518872.340 +6.6324368515E-001 +4.8399710941E+000  +2.9487375878E-003 +1.0943804179E+002  +9.1182627821E-003 +1.1220994447E+002  +7.8412386449E-001 -2.8475353179E+000 
8644017.522 +6.4443011425E-001 +4.7624832601E+000  +7.6079567713E-003 +8.8387135781E+001  +2.9219207746E-003 +1.2381469287E+002  +7.3365700438E-001 -1.3257776140E+000 
8769162.703 +6.5870811632E-001 +5.9229875207E+000  +5.3930229266E-004 +6.0091215497E+001  +1.8346055498E-003 -6.6184454194E+001  +6.5354724332E-001 +7.4493081937E-002 
8894307.885 +6.4555471558E-001 +3.7200119550E+000  +1.2037954525E-003 -5.6314830101E+000  +6.5367286745E-003 +8.8775826700E+001  +6.6881688451E-001 -1.9240688109E+000 
9019453.066 +6.2182856966E-001 +2.2740871145E+000  +5.6209002803E-003 +6.2288485910E+001  +4.9694834643E-003 +1.0065030118E+002  +6.7566116877E-001 -4.3076564120E-001 
9144598.248 +5.7583246172E-001 -2.6788070876E-001  +5.9959469096E-003 +7.8713668793E+001  +7.9142118426E-003 +9.0101215410E+001  +6.0873700463E-001 -3.1321337060E+000 
9269743.429 +5.5899080796E-001 -1.8602398924E+000  +2.5621967875E-003 +1.5035464650E+002  +6.0638888891E-003 +1.0949227273E+002  +5.7432058531E-001 -2.2701887483E+000 
9394888.611 +5.7817245037E-001 +1.4593046030E+000  +4.4777958660E-003 +3.5537105665E+001  +1.8506612908E-003 +1.0992924913E+002  +5.8832664170E-001 -2.8196737535E+000 
9520033.792 +5.4660217780E-001 +5.1679033742E+000  +7.8881184686E-004 +6.5070572159E+001  +6.2459442699E-003 +1.0826140511E+002  +5.8485489019E-001 -1.7147113579E+000 
9645178.974 +6.2582058035E-001 +4.4739481820E+000  +3.8716470081E-003 +1.0130220216E+002  +3.0119576377E-003 +7.3611163956E+001  +5.5270802217E-001 -3.3253102053E+000 
9770324.155 +5.2626886273E-001 -5.5121003378E+000  +9.2017020762E-004 -1.7584828176E+002  +3.8139502608E-003 +8.7991708371E+001  +6.0414698245E-001 -3.1529876381E+000 
9895469.337 +5.2570514010E-001 -6.2616006862E-001  +4.5574798922E-003 +8.3444151489E+001  +4.0109743042E-003 +8.7023833411E+001  +5.7171355255E-001 -1.0033838938E+001 
10020614.518 +5.3926475974E-001 +2.3437306362E+000  +6.0936129027E-003 +8.4205879829E+001  +5.2305538270E-003 +1.0081604499E+002  +5.6778104272E-001 -5.1054259484E+000 
10145759.700 +5.4259294280E-001 +4.8278103243E+000  +3.0724593764E-003 +2.9125840555E+001  +3.7747582385E-003 +1.0024007654E+002  +6.0965636240E-001 -5.2408008170E+000 
10270904.881 +5.8496709288E-001 +2.8991792913E+000  +4.2004743717E-003 +7.2223585651E+001  +4.0919185478E-003 +7.1364890601E+001  +6.1118788302E-001 -4.7959783977E+000 
10396050.063 +5.8708931518E-001 +2.5367367091E+000  +2.8607651239E-003 +4.2493632122E+001  +6.2275067813E-003 +9.5294308929E+001  +5.8313358547E-001 -2.4809333637E+000 
10521195.244 +5.8069769783E-001 +4.7596593415E+000  +6.6251625624E-003 +7.6532793447E+001  +6.5155772487E-003 +8.6536035848E+001  +5.9824537156E-001 +3.5881696471E-001 
10646340.426 +5.3480352498E-001 +5.8240472096E+000  +5.9625783645E-003 +5.0358248069E+001  +1.4316502150E-003 +9.2506287756E+001  +5.8804991959E-001 +1.1960496090E+000 
10771485.607 +5.8116989636E-001 +8.3193134039E+000  +2.8626876459E-003 +8.4314031607E+001  +2.9997130419E-003 +9.1691704268E+001  +5.9653690044E-001 +2.2023147702E+000 
10896630.788 +5.6501461414E-001 +4.0133173478E+000  +6.3645794311E-003 +8.3849311198E+001  +4.9547433909E-003 +1.1604184073E+002  +6.0974497139E-001 +2.4483056534E+000 
11021775.970 +5.8141560359E-001 +5.9667432751E+000  +3.6580746608E-003 +8.3350513908E+001  +5.4360051211E-003 +9.4128355909E+001  +6.3208443811E-001 -3.7332631459E+000 
11146921.151 +6.0883366915E-001 +9.9210108630E+000  +5.0365819991E-003 +8.0486181184E+001  +5.1529793812E-003 +1.0744294391E+002  +6.2514126285E-001 +2.8084693582E-001 
11272066.333 +5.6735519436E-001 +7.4410342898E+000  +2.8937502505E-003 +8.0654605985E+001  +5.0181038388E-003 +1.0291989707E+002  +6.1038906439E-001 +7.1041704094E-001 
11397211.514 +6.3392220632E-001 +6.7563086608E+000  +4.0707976131E-003 +4.5401066314E+001  +5.4086133524E-003 +1.0603757315E+002  +6.4527046976E-001 +3.4949396961E+000 
11522356.696 +6.0752309644E-001 +6.4431461190E+000  +5.4815022059E-003 +8.3014398733E+001  +5.2456555331E-003 +7.0344490245E+001  +6.5415583101E-001 -1.3630923459E+000 
11647501.877 +6.8614963386E-001 +3.5814788356E+000  +4.3348229204E-003 +8.3004054008E+001  +6.6167526399E-003 +1.0007656773E+002  +6.5738006104E-001 +1.1816103692E+000 
11772647.059 +6.8063805233E-001 +3.0215881484E+000  +6.1908842469E-003 +8.6728766803E+001  +5.6826904546E-003 +1.2310013453E+002  +6.6835188560E-001 +2.3702550674E-001 
11897792.240 +6.3848708451E-001 +5.6895870067E+000  +5.2681835291E-003 +6.4034994495E+001  +4.0349511136E-003 +9.8074600830E+001  +6.7255732229E-001 -3.3724997370E-001 
12022937.422 +6.9167936341E-001 +4.4319264685E+000  +6.2344446260E-003 +8.3677229009E+001  +6.3050153881E-003 +1.0285595325E+002  +6.8433150363E-001 +1.8899313998E+000 
12148082.603 +6.7270214897E-001 +3.6491280898E+000  +4.1359302662E-003 +8.7346040769E+001  +6.8443901242E-003 +8.4317587893E+001  +7.1691658991E-001 +1.7511814523E+000 
12273227.785 +6.8595081074E-001 +3.2889083173E+000  +6.1138139003E-003 +8.1904683231E+001  +6.5308838840E-003 +9.7718851349E+001  +7.3364226614E-001 +2.1882212071E-001 
12398372.966 +7.0956068934E-001 +4.2524612195E+000  +6.2086369419E-003 +9.2548039161E+001  +6.4001473733E-003 +8.2619331333E+001  +7.1732502805E-001 +3.9496291355E-001 
12523518.148 +7.2255073244E-001 +3.4519017872E+000  +6.5656178403E-003 +8.5286895902E+001  +5.9364995387E-003 +1.0439886132E+002  +7.2696439052E-001 -7.1535857248E-001 
12648663.329 +7.2307618549E-001 +1.2291390233E+000  +5.3697340333E-003 +9.3897916470E+001  +7.9602332273E-003 +9.8143803913E+001  +7.6071059114E-001 -7.3632721529E-001 
12773808.511 +7.4289674839E-001 +2.0200059135E+000  +6.3814241270E-003 +8.2028513513E+001  +6.3157720187E-003 +9.7499308754E+001  +7.8065500583E-001 -4.4366421918E-001 
12898953.692 +7.5829336442E-001 +1.0717306263E+000  +6.9806457624E-003 +7.2802850392E+001  +6.6578811814E-003 +9.6274039498E+001  +7.6964287709E-001 -2.5300311270E+000 
13024098.874 +7.5838547077E-001 -2.3260888054E-001  +5.9260419771E-003 +9.0336321047E+001  +5.4773707427E-003 +9.6522707576E+001  +7.6661540712E-001 -2.9482459860E-001 
13149244.055 +8.0381186790E-001 -2.5092986045E-001  +6.2440738394E-003 +8.8846471957E+001  +5.4054061093E-003 +8.6941637531E+001  +8.2205755986E-001 -2.2770575064E+000 
13274389.237 +8.0291188709E-001 -1.1505311893E-001  +5.8484912486E-003 +7.6207993135E+001  +7.0175222217E-003 +9.8432940255E+001  +8.3185627299E-001 -1.3694709743E+000 
13399534.418 +8.4481856293E-001 -8.4612781935E-001  +7.7779938787E-003 +9.6075310614E+001  +6.6352212847E-003 +1.0128223368E+002  +8.4113478348E-001 -3.9075572416E+000 
13524679.599 +8.7074862750E-001 -1.8958735036E+000  +6.5944238038E-003 +9.3368868873E+001  +6.9863470404E-003 +9.7275096650E+001  +8.6192553632E-001 -2.5384462739E+000 
13649824.781 +8.6142665447E-001 -1.8886525510E+000  +7.3113196127E-003 +8.0835225766E+001  +6.3686729161E-003 +8.9098482073E+001  +8.8353639316E-001 -2.0234498177E+000 
13774969.962 +8.9980954768E-001 -2.4080638419E+000  +8.0479376827E-003 +7.4322301097E+001  +7.8139824127E-003 +8.9716471085E+001  +8.9422884170E-001 -2.4788285867E+000 
13900115.144 +8.9309152198E-001 -3.8894474752E+000  +7.6092456331E-003 +9.4116302962E+001  +7.0179217729E-003 +8.8434779068E+001  +9.2634198122E-001 -4.2035533003E+000 
14025260.325 +9.2007165015E-001 -4.3517603368E+000  +6.7501646563E-003 +7.9237959821E+001  +7.2476788478E-003 +8.8423570721E+001  +9.1391311447E-001 -3.4768315853E+000 
14150405.507 +9.3062085765E-001 -4.2116818881E+000  +5.8294768978E-003 +9.6510998363E+001  +7.9686527781E-003 +9.6639286839E+001  +9.4307132914E-001 -2.7426262076E+000 
14275550.688 +9.4732493321E-001 -4.0395628458E+000  +6.8610384157E-003 +8.6035354342E+001  +8.4828921652E-003 +9.4613136924E+001  +9.7263531724E-001 -5.0812221956E+000 
14400695.870 +9.6648304135E-001 -5.7065898296E+000  +6.9623509346E-003 +8.5879013267E+001  +7.6347113675E-003 +7.7194116197E+001  +9.9047166854E-001 -4.2880493795E+000 
