!  2-Port S-parameters saved by WinCal
! VAR MeasName=S-Parameters (CALIBRATED_DATA) read from VNA (P5004A)
! VAR MeasDate=27/08/2024 17:09:20
! VAR NAME=S2_r3c9_SET1_9k-100M_1
! VAR FILENAME=S2_r3c9_SET1_9k-100M_1.S2P
! VAR DATE=27/08/2024 17:09:20
! VAR PHYS_PORTS=1,2
! VAR ObjTypeName=DATASET
! VAR IndexType=Frequency
!
# Hz S MA R 50
9000.000 +6.1358908284E-002 -1.5446288186E+002  +2.0174206090E-002 +7.9830817057E+001  +1.4377224420E-002 -2.3211932715E+001  +3.2080622057E-001 -1.4410990131E+002 
134145.181 +1.1140294834E-001 +1.6986528811E+002  +2.2792176320E-004 +3.2431662731E+001  +3.0959057262E-004 -2.4150496352E+001  +2.4019430343E-001 -1.7016784365E+002 
259290.363 +1.1264310764E-001 +1.7014822774E+002  +4.5012213280E-004 -9.4007116829E+001  +7.2578114918E-004 -6.4766884279E+001  +2.3643404535E-001 -1.6804422836E+002 
384435.544 +1.1415416252E-001 +1.6974601441E+002  +8.5135122420E-004 -1.6917110091E+002  +2.2354882479E-004 +1.9327769720E+001  +2.4119269495E-001 -1.7014811178E+002 
509580.726 +1.1226846519E-001 +1.7149010785E+002  +6.6963628599E-004 -7.2509817743E+001  +5.5403028800E-004 +1.5236983969E+002  +2.4533555816E-001 -1.6684369304E+002 
634725.907 +1.1737994710E-001 +1.7051195616E+002  +6.9652323080E-004 +1.7022881126E+002  +6.5412515867E-004 -2.0725854967E+001  +2.3851569619E-001 -1.6626148399E+002 
759871.089 +1.1879596450E-001 +1.7077247849E+002  +3.2423683546E-004 +8.2076473290E+001  +3.9618097919E-004 +1.0636514243E+002  +2.5606785676E-001 -1.6536773802E+002 
885016.270 +1.1853192533E-001 +1.6948853196E+002  +5.2541018664E-004 -5.3627018718E+001  +5.8157223440E-004 -2.7962943191E+001  +2.3600032430E-001 -1.6737943186E+002 
1010161.452 +1.1700884960E-001 +1.7077021558E+002  +9.5282720642E-004 -8.1283815732E+001  +2.2935943494E-003 -1.5165876212E+002  +1.8425334307E-001 -1.6846609608E+002 
1135306.633 +1.1368377405E-001 +1.6778811741E+002  +1.3583023094E-003 -3.3298273248E+001  +2.1842949523E-003 -4.7258015348E+000  +2.0678237242E-001 -1.4093897741E+002 
1260451.815 +1.2009997597E-001 +1.7069716256E+002  +5.1815603822E-004 -1.3479679244E+002  +1.3685233925E-003 -1.6507885067E+002  +2.3131584225E-001 -1.5449655100E+002 
1385596.996 +1.2410899590E-001 +1.7202159076E+002  +5.2460826080E-004 -3.1739942270E+001  +9.9802054199E-004 -4.3308661771E+000  +2.8125993157E-001 -1.5364815505E+002 
1510742.178 +1.2800539603E-001 +1.7219008288E+002  +1.0357928597E-003 -7.9973684971E+001  +9.9825067708E-004 -1.6250518110E+001  +2.6347160132E-001 -1.5604396082E+002 
1635887.359 +1.2557655627E-001 +1.7063041121E+002  +3.3443980428E-004 -9.5781780154E+000  +5.9861932619E-004 +9.2934735746E+001  +2.4914063626E-001 -1.5415439942E+002 
1761032.541 +1.2675235402E-001 +1.6914829829E+002  +1.6142668875E-003 -4.7801829096E+001  +7.3911555856E-004 -1.2131814021E+002  +2.1704628506E-001 -1.6005723149E+002 
1886177.722 +1.3268297516E-001 +1.6684035923E+002  +7.6823577215E-004 +1.7531790664E+002  +1.7517959250E-003 +1.3350240834E+001  +2.1488270908E-001 -1.6790705500E+002 
2011322.904 +1.3258368598E-001 +1.6789846411E+002  +1.4189427551E-003 -1.6707824391E+002  +1.9050203977E-003 -1.8110129176E+001  +1.9980611598E-001 -1.7069159807E+002 
2136468.085 +1.3012309486E-001 +1.6518189731E+002  +2.1036449274E-003 +1.5568429978E+002  +2.4225791503E-003 -1.3295020582E+002  +1.8353449051E-001 +1.6908288162E+002 
2261613.267 +1.2972555288E-001 +1.6450569320E+002  +2.1814138823E-003 +5.5197309368E+001  +4.6791030296E-003 +2.7044207252E+001  +2.3028275583E-001 +1.7342456814E+002 
2386758.448 +1.4046690159E-001 +1.6225798318E+002  +1.7769903449E-003 +1.6124990565E+002  +1.7226933882E-003 -1.9276438574E+001  +2.1354655232E-001 +1.7773478026E+002 
2511903.630 +1.3483681009E-001 +1.5671817999E+002  +1.0439920213E-002 +9.0164091212E+001  +1.2787574824E-002 -1.7275814784E+001  +2.3087230893E-001 +1.4378671006E+002 
2637048.811 +9.6754628726E-002 +1.6471513139E+002  +1.9371202539E-002 +6.7866825835E+001  +2.3383475734E-002 -8.8158153545E+001  +3.0838215418E-001 +8.4648519499E+001 
2762193.992 +9.7758810511E-002 +1.7801538661E+002  +3.0067962405E-002 -1.3933325549E+002  +2.7163927428E-002 +1.3276179337E+002  +1.0751782707E+000 -1.5559662886E+002 
2887339.174 +1.1475216110E-001 +1.7567578604E+002  +1.5331623472E-002 -5.6535628250E+001  +2.1580165710E-002 +1.3438024664E+002  +4.1992925219E-001 -6.4087745524E+001 
3012484.355 +1.1115150088E-001 +1.6705967365E+002  +8.8998061392E-003 -3.5839362811E+001  +2.1567007034E-002 -1.1301977861E+002  +6.9431892616E-001 -7.2848887563E+001 
3137629.537 +1.2912845319E-001 +1.6718817348E+002  +1.8121274771E-003 -9.2040313282E+001  +7.4187484490E-003 -1.3132800259E+002  +1.4447282280E-001 -1.1430688819E+002 
3262774.718 +1.0966759704E-001 +1.7899291380E+002  +1.8282407851E-002 -3.2220023016E+001  +1.6698662132E-002 -1.0839165802E+002  +2.2950683354E-001 -5.8005291116E+001 
3387919.900 +7.0593772692E-002 +1.4648924137E+002  +1.9417245179E-002 +3.5383333983E+001  +2.7016776203E-002 -8.9580763365E+001  +2.6949024795E-001 -6.3131354039E+001 
3513065.081 +1.3260324795E-001 +1.4672918741E+002  +6.6702495884E-002 -2.2523651827E+001  +7.1521748006E-002 -1.2189999177E+002  +1.7486912711E+000 -3.5168774105E+001 
3638210.263 +1.6862461878E-001 +1.4405739602E+002  +2.5840814509E-002 +1.0719201288E+002  +3.3605511862E-002 +5.8683560733E+001  +7.5170379053E-001 +1.1250831859E+002 
3763355.444 +1.7156356499E-001 +1.4968955248E+002  +8.5415285964E-003 +9.1964515631E+001  +2.1835430471E-002 +9.4068175665E+001  +6.5860360040E-001 +1.4865944425E+002 
3888500.626 +1.7067877868E-001 +1.4798115519E+002  +9.3405393695E-003 +1.3833985353E+002  +1.3702835975E-002 +2.8394959945E+001  +4.5745610790E-001 +1.3667300637E+002 
4013645.807 +1.5905480011E-001 +1.4076637695E+002  +7.7133714334E-003 +6.9126693965E+001  +1.0058391220E-002 -2.3418785027E+001  +2.2352929082E-001 +1.6627940620E+002 
4138790.989 +2.0001565535E-001 +1.3577887157E+002  +1.1598024248E-002 +4.5984479937E+001  +2.0986547086E-002 +2.1813849538E+001  +2.6985811890E-001 +1.4191404427E+002 
4263936.170 +1.5908239456E-001 +1.2878398897E+002  +3.1090112409E-003 +5.3623298936E+001  +1.5108949357E-002 +5.2673813914E+001  +4.1068801465E-001 +1.0253166609E+002 
4389081.352 +2.5522408440E-001 +1.3696106498E+002  +1.9319583861E-002 +1.1794400713E+002  +4.5680317105E-002 +6.0066442939E+001  +8.6662896527E-001 +1.0331513941E+002 
4514226.533 +2.4060938535E-001 +1.2582071490E+002  +3.7120706684E-002 +1.3458279115E+002  +6.5656544723E-002 +2.3229613583E+001  +1.4081378009E+000 +1.2891479729E+002 
4639371.715 +3.1638282071E-001 +1.3470130668E+002  +3.2340218238E-002 +1.4817934052E+002  +3.1549267788E-002 +8.4408172151E+001  +9.8130231925E-001 +1.1332314002E+002 
4764516.896 +4.2207118429E-001 +1.3587770225E+002  +3.4710696681E-001 -1.1440079494E+002  +3.2629137927E-001 +1.5704134633E+002  +1.1099352345E+001 +1.7331195225E+002 
4889662.078 +4.7898542480E-001 +1.2829897984E+002  +1.4222815255E-001 +7.1009735949E+001  +9.4220996362E-002 +6.0373792753E-001  +4.1030939405E+000 -1.2470964524E+001 
5014807.259 +5.7105965356E-001 +1.1052914029E+002  +1.1832774030E-001 +5.2048205456E+001  +1.4339018860E-001 +4.1786019253E+001  +3.1772549858E+000 +2.0064484076E+001 
5139952.441 +3.8082906015E-001 +1.3316404599E+002  +1.0294922824E-001 -1.6208485851E+002  +1.5284667588E-001 +1.7695125505E+002  +6.1782865854E+000 -1.7991261563E+002 
5265097.622 +4.1362636822E-001 +1.2150891908E+002  +9.0939353384E-002 +8.0075302236E+001  +7.4277618603E-002 +7.3739440576E+001  +2.2018736060E+000 +5.3354727928E+001 
5390242.804 +4.2723299792E-001 +1.3136631142E+002  +4.4831961473E-002 +1.3182917030E+002  +7.5227096773E-002 +8.6643828703E+001  +2.6542941319E+000 +8.5103316035E+001 
5515387.985 +4.8976401464E-001 +1.3307867580E+002  +5.3392443011E-002 +1.1461752142E+002  +3.2499423596E-002 +1.1554578646E+002  +1.5333461002E+000 +1.0322245949E+002 
5640533.166 +4.7670335455E-001 +1.2688414108E+002  +5.2684366320E-002 +1.4505553882E+002  +9.1555199238E-002 +1.0774028057E+002  +3.0951144238E+000 +1.1482153839E+002 
5765678.348 +5.0194496372E-001 +1.2038305902E+002  +6.0792432925E-002 +7.4549562475E+001  +6.5481489326E-002 +5.9689493737E+001  +2.9900853593E+000 +6.0701578672E+001 
5890823.529 +5.5864922480E-001 +1.3054177754E+002  +5.2968828365E-002 +8.6822146264E+001  +5.1990611892E-002 +5.5468722262E+001  +2.5847621831E+000 +7.5268377364E+001 
6015968.711 +5.7668392451E-001 +1.1334520593E+002  +4.6701730915E-002 +3.9246303436E+001  +3.7435560280E-002 +6.3633541181E+001  +1.3784490746E+000 +6.0711123929E+001 
6141113.892 +7.9635062715E-001 +1.1464363602E+002  +5.8511096069E-002 +5.6858838049E+001  +5.3130218328E-002 +5.9041978472E+001  +1.7271788283E+000 +3.3245935242E+001 
6266259.074 +1.1005881285E+000 +9.8257514107E+001  +1.1627684734E-001 +5.9922016487E+001  +8.6185364303E-002 +3.1230543756E+001  +2.0492247322E+000 +3.0086569764E+001 
6391404.255 +8.2022676991E-001 +8.9278289891E+001  +5.8468571633E-002 +5.2088333157E+001  +7.4834101282E-002 +2.7622334685E+001  +1.5347690589E+000 +1.6393546979E+001 
6516549.437 +1.3702650746E+000 +8.1689422354E+001  +7.3140457713E-002 +2.8604973168E+001  +9.1133810400E-002 +3.7023011368E+001  +1.8474478513E+000 +9.1042323038E+000 
6641694.618 +1.6620039414E+000 +6.0667667197E+001  +9.2337499151E-002 +4.3317924590E+001  +7.5869480282E-002 +2.6890426797E+001  +1.4280455359E+000 -4.8002895320E+000 
6766839.800 +1.7810586369E+000 +4.5655795080E+001  +6.6641019829E-002 +2.9942003278E+001  +9.3246142971E-002 +1.5146878736E+001  +1.3494178790E+000 +2.0010058656E+000 
6891984.981 +2.0471635819E+000 +3.0263216413E+001  +7.2979164310E-002 +1.9402359927E+001  +8.0887717211E-002 +5.0762087569E+000  +1.2983844986E+000 -3.8605564067E+000 
7017130.163 +1.7454497473E+000 +2.7639786220E+001  +5.3744350758E-002 +6.4787466575E+000  +6.4235257388E-002 +1.1080929643E+000  +1.1343487778E+000 -1.9388473895E+001 
7142275.344 +1.7146204171E+000 +9.4962228961E+000  +5.4229577364E-002 +1.6049978274E+001  +6.4375739132E-002 +2.2349230502E+000  +1.3796779989E+000 -9.9994082734E+000 
7267420.526 +1.4768878990E+000 +3.1833222417E+000  +4.7362133745E-002 +1.3614600590E+001  +3.3062210715E-002 -1.3828012825E+000  +1.3604441588E+000 -1.8750609753E+001 
7392565.707 +1.1091810658E+000 +5.0596851816E+000  +3.1799021260E-002 +9.6709869844E+000  +2.7105080542E-002 -1.4349233143E+000  +1.3161117028E+000 -4.5957746137E-001 
7517710.889 +1.1811938880E+000 +5.2911049070E-001  +2.9951458921E-002 +1.9000865776E+001  +3.5569855477E-002 +1.1824528463E+001  +1.2366127621E+000 -1.0125670467E+001 
7642856.070 +1.0612880616E+000 +1.5197306681E+000  +3.4325970480E-002 +5.4201228846E+000  +2.2819840353E-002 +1.5383388015E+001  +1.0312142461E+000 -8.4259359090E+000 
7768001.252 +8.7060250538E-001 +6.4410325913E+000  +2.6520484071E-002 -5.0331474023E+000  +2.1743706876E-002 +1.4806770562E+001  +9.4592081993E-001 +6.6717797921E-001 
7893146.433 +9.1039562490E-001 +5.4491214712E+000  +3.2738798451E-002 -6.1675269547E+000  +2.8837872501E-002 +1.1924408362E+001  +8.5250758049E-001 -9.0947079403E-001 
8018291.615 +9.0189747145E-001 +1.0538498927E+001  +2.7403132145E-002 +2.0173628706E+001  +2.8244224600E-002 +2.0445262215E+001  +9.4423865950E-001 +1.0215644032E+000 
8143436.796 +8.3561471062E-001 -9.8568004126E-001  +2.2556128670E-002 -8.3306060336E+000  +2.5359969829E-002 +9.1177498223E+000  +8.4688596416E-001 +5.4794801802E-001 
8268581.977 +8.3256153984E-001 +8.8320647788E+000  +2.4504314821E-002 +1.2030968005E+001  +2.3543378236E-002 +2.0724650667E+001  +7.6148855116E-001 +7.4452521294E+000 
8393727.159 +7.4020793096E-001 +1.0954962872E+001  +2.4688931159E-002 +1.6393275663E+000  +2.8498339181E-002 +2.2299638024E+001  +7.0277632046E-001 +5.7212039984E+000 
8518872.340 +6.9973394103E-001 +4.6028491832E+000  +2.6510961624E-002 -5.4163476467E+000  +2.5895145861E-002 +2.1344352122E+001  +6.6510171336E-001 +2.7590566879E+000 
8644017.522 +5.6049979608E-001 +3.3081623400E+000  +2.1841282232E-002 +1.4598361679E+001  +2.3154939353E-002 +2.0662380264E+001  +6.6148596870E-001 -2.4052017908E-002 
8769162.703 +5.9132392440E-001 +1.7325918756E+001  +2.2329149035E-002 -1.5238650061E+001  +2.3744659554E-002 +1.8695559923E+001  +6.0821967157E-001 -5.7350952309E+000 
8894307.885 +6.1942912240E-001 +6.0423157285E+000  +2.0297745992E-002 +8.4207104794E+000  +2.5604238234E-002 +1.7722570620E+001  +6.2313221770E-001 +2.1161737905E+000 
9019453.066 +5.6825676784E-001 +5.2217937053E+000  +2.7358546772E-002 -2.6677965806E+000  +2.4866708516E-002 +1.7833603296E+001  +6.1945178470E-001 -8.9833999200E-001 
9144598.248 +5.2362452464E-001 +3.6268683316E+000  +2.6159197397E-002 +3.6033975579E+000  +2.2499423547E-002 +2.2664900477E+001  +5.7669404122E-001 -3.2927950477E+000 
9269743.429 +5.1167505352E-001 +7.3655696587E+000  +2.2775451776E-002 +7.1336803666E+000  +2.4418414138E-002 +1.4493725192E+001  +5.8288352558E-001 -3.0307399121E-001 
9394888.611 +5.2197908125E-001 +1.9650216194E+000  +2.5936967798E-002 +5.4940949520E+000  +2.4745091157E-002 +1.6394378945E+001  +5.6186786133E-001 -3.4659842473E+000 
9520033.792 +4.8843560102E-001 +1.4593341952E-001  +2.4990025295E-002 +6.1200278142E+000  +2.1916040369E-002 +2.2447512230E+001  +5.5218501779E-001 -6.1771720464E+000 
9645178.974 +5.1005126703E-001 +1.1105115068E+000  +2.5168673734E-002 +1.6236027203E+000  +2.5271974523E-002 +1.6742689966E+001  +5.3138248871E-001 -3.7143412691E+000 
9770324.155 +4.6759026501E-001 +3.4172058273E+000  +2.2346068135E-002 +1.1500804483E+001  +2.4587030512E-002 +1.2056788291E+001  +5.6237332220E-001 -1.0715440359E+001 
9895469.337 +4.8596947713E-001 +1.7827504532E+000  +2.4948545641E-002 +8.3209630464E+000  +2.4567813866E-002 +2.1118947197E+001  +5.9354282979E-001 -3.4493609500E+000 
10020614.518 +4.8254846246E-001 -2.0861611152E+000  +2.2752924252E-002 +2.3714048809E+000  +2.5706210496E-002 +2.0289000386E+001  +5.8473652208E-001 -3.3662718639E+000 
10145759.700 +4.9932229793E-001 -1.5204688763E+000  +2.5330569861E-002 +6.8849898246E+000  +2.6944069638E-002 +2.2205336544E+001  +5.5797974134E-001 -5.0041340826E+000 
10270904.881 +5.5760460431E-001 +3.0576216153E+000  +2.6194591502E-002 +6.9927387027E+000  +2.4218595970E-002 +1.6609267536E+001  +5.7300297524E-001 -2.3983062526E+000 
10396050.063 +5.3392142906E-001 +8.6194833978E+000  +2.1952670846E-002 +9.7794014492E+000  +2.3885865817E-002 +2.5963816618E+001  +5.3828014439E-001 -9.0045968193E-001 
10521195.244 +5.5242271035E-001 +6.2442957792E+000  +2.3705638317E-002 +6.8380534808E+000  +2.3265245248E-002 +2.2374233782E+001  +5.9413386682E-001 -2.4930024750E+000 
10646340.426 +5.0730457928E-001 +6.5292841447E+000  +2.2688049698E-002 +8.1680057240E+000  +2.3145730923E-002 +3.0546248786E+001  +5.8071849095E-001 +1.1619922726E+000 
10771485.607 +5.1606990526E-001 +8.0349725105E+000  +2.5665047446E-002 +1.1792210243E+001  +2.2115752011E-002 +2.2154129206E+001  +5.6908141626E-001 +1.3886023483E+000 
10896630.788 +5.6587920371E-001 +4.5412839565E+000  +2.5796712943E-002 +6.2412549335E+000  +2.2781215164E-002 +2.0043757418E+001  +5.5456736539E-001 +2.4070780794E+000 
11021775.970 +6.0276636236E-001 +1.0223767669E+001  +2.5221329211E-002 +1.0638447931E+001  +2.4657903820E-002 +2.1430825766E+001  +6.1425393911E-001 +3.1273559398E-003 
11146921.151 +5.7260541210E-001 +5.4167493473E+000  +2.4959352386E-002 +8.2036650076E+000  +2.6101224028E-002 +1.9387338560E+001  +5.8902387179E-001 +1.9277179762E+000 
11272066.333 +5.6574099755E-001 +5.3516789823E+000  +2.6155835827E-002 +1.2193597390E+001  +2.3821621145E-002 +2.4412129334E+001  +5.8666586271E-001 +2.1201631664E+000 
11397211.514 +5.7249123667E-001 +5.6749491530E+000  +2.4243488045E-002 +9.3718694495E+000  +2.4899052322E-002 +2.2268182377E+001  +6.2919151899E-001 +2.2184878437E+000 
11522356.696 +5.6244248601E-001 +4.5249556578E+000  +2.5765212300E-002 +9.4415061058E+000  +2.5184875576E-002 +1.8008376017E+001  +6.1507189459E-001 +2.3698913080E+000 
11647501.877 +6.0096376295E-001 +6.6035971960E+000  +2.7973679715E-002 +9.9352862329E+000  +2.8177130074E-002 +2.1674415688E+001  +5.9734251773E-001 +3.1394722759E-001 
11772647.059 +5.9823811050E-001 +3.3530456698E+000  +2.7083804116E-002 +1.2177273141E+001  +2.6600627696E-002 +2.5153992566E+001  +6.1860441152E-001 +3.5111874554E+000 
11897792.240 +6.1645258688E-001 +5.5573884460E+000  +2.5340508366E-002 +1.3091147733E+001  +2.8224705766E-002 +2.3253523021E+001  +6.3055828578E-001 -9.3233265466E-001 
12022937.422 +6.3611963064E-001 +5.0591584079E+000  +2.6905094214E-002 +1.0157239046E+001  +2.7076910110E-002 +2.2689985708E+001  +6.8806770927E-001 -9.5531799648E-001 
12148082.603 +6.5153208359E-001 +5.0917264998E+000  +2.7798605626E-002 +9.6151111407E+000  +2.7747461427E-002 +2.4746156863E+001  +6.8368079057E-001 -5.0938310341E-001 
12273227.785 +6.5864355905E-001 +4.3240264229E+000  +2.9252570856E-002 +2.0409272974E+001  +2.6123702182E-002 +2.2641166355E+001  +7.0249538572E-001 -2.0934001373E+000 
12398372.966 +6.8995966862E-001 +1.3756716134E+000  +2.7129218540E-002 +1.6179136491E+001  +2.8029531005E-002 +2.3661818848E+001  +6.8213405207E-001 -1.4893770279E+000 
12523518.148 +7.0217175014E-001 +3.1972598460E+000  +2.7203991205E-002 +1.3165124654E+001  +2.8979330407E-002 +1.8947340597E+001  +7.2393329973E-001 +3.8650083024E-001 
12648663.329 +7.2460170433E-001 +2.3526829427E+000  +2.9065916614E-002 +1.2679380845E+001  +2.7758230096E-002 +2.2933254340E+001  +7.4558156484E-001 -2.1608524689E-001 
12773808.511 +7.3737244562E-001 +1.9242053540E+000  +2.9697739603E-002 +1.2683298688E+001  +2.9877940634E-002 +2.2134273227E+001  +7.5753622310E-001 -2.6097829137E-001 
12898953.692 +7.3602801187E-001 +1.3233463630E-001  +2.8829136641E-002 +1.5893094299E+001  +2.8787189375E-002 +2.0848638602E+001  +7.4269123463E-001 -7.6349515189E-001 
13024098.874 +7.6079562639E-001 -3.2674713313E-001  +3.0248080573E-002 +1.1977436741E+001  +2.9198387257E-002 +2.0803400773E+001  +7.8803225213E-001 -1.2285743019E+000 
13149244.055 +7.6500500661E-001 -8.9167898892E-001  +2.9523601189E-002 +1.4104112705E+001  +3.0547061224E-002 +2.2391256630E+001  +7.8842186643E-001 -2.3126790064E+000 
13274389.237 +7.8739051513E-001 -6.7831540790E-001  +2.9533143939E-002 +1.9379902468E+001  +2.9843191160E-002 +1.8732212750E+001  +8.1800657065E-001 -5.1941148278E-001 
13399534.418 +8.2354546586E-001 -1.0545408485E+000  +3.0815758432E-002 +1.3710532801E+001  +2.9484491053E-002 +1.9997862635E+001  +8.1631098303E-001 -2.5602427264E+000 
13524679.599 +8.1650196878E-001 -1.4164598486E+000  +3.1980192298E-002 +1.6791620622E+001  +3.0224501331E-002 +1.8879062304E+001  +8.4034792055E-001 -2.5658179149E+000 
13649824.781 +8.4358184459E-001 -2.5113290668E+000  +2.9979365081E-002 +1.6727950219E+001  +3.0862150863E-002 +1.7831413811E+001  +8.7468853183E-001 -1.4424775001E+000 
13774969.962 +8.5250203182E-001 -3.1026873395E+000  +3.1555784447E-002 +1.4388233036E+001  +3.1664003332E-002 +1.6330092201E+001  +8.6227687468E-001 -4.0214866352E+000 
13900115.144 +8.7324205142E-001 -2.1899751060E+000  +3.1508851722E-002 +1.6178784195E+001  +3.1166069179E-002 +1.6105107262E+001  +8.8824379497E-001 -3.3297439696E+000 
14025260.325 +8.8684196961E-001 -2.0676598780E+000  +3.2907722001E-002 +1.3713705209E+001  +2.9188829723E-002 +1.5513987264E+001  +9.0644480335E-001 -3.7970895241E+000 
14150405.507 +9.2095727168E-001 -3.3545831597E+000  +3.2327837157E-002 +1.5526229937E+001  +3.0138060384E-002 +1.7208712929E+001  +9.2552790292E-001 -3.9896000191E+000 
14275550.688 +9.3306691060E-001 -3.6183140455E+000  +3.2885745777E-002 +1.5668911021E+001  +3.2375035027E-002 +1.4863856288E+001  +9.3571305795E-001 -4.0531684149E+000 
14400695.870 +9.1622978777E-001 -4.0645176477E+000  +3.2643287731E-002 +1.3668482764E+001  +3.1285734274E-002 +1.6613367303E+001  +9.4646822057E-001 -4.5034847161E+000 
