!  2-Port S-parameters saved by WinCal
! VAR MeasName=S-Parameters (CALIBRATED_DATA) read from VNA (P5004A)
! VAR MeasDate=28/08/2024 12:34:24
! VAR NAME=S2_r7c9_SET3_9k-100M_3
! VAR FILENAME=S2_r7c9_SET3_9k-100M_3.S2P
! VAR DATE=28/08/2024 12:34:24
! VAR PHYS_PORTS=1,2
! VAR ObjTypeName=DATASET
! VAR IndexType=Frequency
!
# Hz S MA R 50
9000.000 +8.8606268349E-002 -1.7387178123E+002  +1.2341158608E-002 +8.4892493157E+001  +5.1813743428E-003 +5.2125365679E+001  +2.6273648002E-001 -1.2576134027E+002 
134145.181 +1.1121390511E-001 +1.6973105395E+002  +1.7046988870E-004 +4.1209591529E+001  +6.7968170840E-004 -1.7437071409E+002  +2.4164103620E-001 -1.7078256199E+002 
259290.363 +1.1194134190E-001 +1.6976256954E+002  +5.7628414379E-005 +1.1694069237E+002  +1.3968973220E-004 +4.1308779562E+001  +2.4015411856E-001 -1.6951666732E+002 
384435.544 +1.1435112349E-001 +1.6997099387E+002  +4.4957009254E-004 +3.1912756248E+001  +7.3920004308E-004 -1.0178996620E+002  +2.4831888658E-001 -1.6861518902E+002 
509580.726 +1.1449310810E-001 +1.7138938233E+002  +1.1141654048E-003 +4.4504043453E+001  +1.0468877391E-003 -8.6976230045E+001  +2.3659260639E-001 -1.6665972040E+002 
634725.907 +1.1630418328E-001 +1.7061674457E+002  +8.6926844729E-004 +2.9891980369E+001  +1.0211299040E-003 +3.5598898022E+001  +2.4709293116E-001 -1.6487985576E+002 
759871.089 +1.2176782942E-001 +1.7097826524E+002  +5.9672282597E-004 -1.3462794382E+002  +1.3545549257E-003 +1.2143590510E+002  +2.5407857229E-001 -1.6533946966E+002 
885016.270 +1.2114480192E-001 +1.6976063307E+002  +1.2287725050E-004 +3.4916148618E+001  +4.2955123471E-004 +9.7447486049E+001  +2.4713937470E-001 -1.6667629738E+002 
1010161.452 +1.1742334712E-001 +1.6944936458E+002  +1.8182306437E-003 +6.7339551156E+001  +1.2174090996E-003 -1.7682434722E+002  +1.9529468859E-001 -1.6357624204E+002 
1135306.633 +1.1687776842E-001 +1.6992112300E+002  +1.2120403626E-003 +1.2110465678E+002  +1.0893466523E-003 -2.5312347043E+001  +1.9479369080E-001 -1.6106005016E+002 
1260451.815 +1.2035821349E-001 +1.7023366567E+002  +1.3333513497E-003 -1.5910476341E+002  +6.2284417599E-004 -5.4114937017E+001  +2.1056866415E-001 -1.5924097294E+002 
1385596.996 +1.2839960588E-001 +1.7175383507E+002  +6.2373429972E-004 +1.3213909644E+002  +6.1249990784E-004 -8.5363650660E+001  +2.6227450729E-001 -1.5904070462E+002 
1510742.178 +1.2660057121E-001 +1.7284865157E+002  +1.2309886327E-003 -7.7256611549E+001  +1.2133940175E-003 -1.8265133363E+001  +2.6587613165E-001 -1.5944220563E+002 
1635887.359 +1.2817446974E-001 +1.7190604758E+002  +1.8425467413E-003 -7.5539083580E+001  +9.7017709833E-004 -2.9389899487E+001  +2.3966031987E-001 -1.5664036065E+002 
1761032.541 +1.2886185574E-001 +1.6923297114E+002  +6.7022219541E-004 -3.1132568501E+000  +3.1102638700E-004 +1.4737986153E+000  +2.1175620527E-001 -1.6029857942E+002 
1886177.722 +1.3264232956E-001 +1.6801990886E+002  +1.0044125667E-003 +1.3251163806E+002  +9.5254156146E-004 -8.5812923849E+001  +2.2625908474E-001 -1.6986030051E+002 
2011322.904 +1.2804238283E-001 +1.6841272430E+002  +3.3298124712E-004 -9.8985583161E+001  +1.4820923616E-003 +3.9723030196E+001  +2.2259874249E-001 -1.6385305487E+002 
2136468.085 +1.2529980123E-001 +1.6998136446E+002  +4.8094610052E-004 -1.4069688291E+002  +1.8704771110E-003 +1.1471269784E+001  +2.0864374974E-001 -1.7055736538E+002 
2261613.267 +1.3862285550E-001 +1.6631590135E+002  +2.5369568655E-003 +2.0732607516E+000  +2.7189323282E-003 -1.3819519314E+002  +1.7197838445E-001 -1.7547752305E+002 
2386758.448 +1.2852862214E-001 +1.6431305627E+002  +6.2829221734E-003 -1.6815284162E+002  +2.5470142129E-003 -7.4698328817E+001  +1.7440096715E-001 -1.6706514611E+002 
2511903.630 +1.3036187841E-001 +1.6185302723E+002  +2.7591224746E-003 -1.5718187167E+002  +1.4102793382E-003 -1.1978541278E+002  +2.6341373209E-001 +1.7126445475E+002 
2637048.811 +1.3087789795E-001 +1.6759553173E+002  +1.5274480193E-002 +1.1001098810E+002  +5.0791793693E-003 -7.6098255506E+000  +2.3282631649E-002 +5.8242489773E+001 
2762193.992 +7.2751711194E-002 -1.6461309801E+002  +8.7951970150E-003 -1.2271035872E+002  +5.2782974309E-003 -6.0728155467E+001  +4.4769167631E-001 -9.7521425892E+001 
2887339.174 +1.1205176351E-001 +1.6760144177E+002  +2.5793071729E-002 -1.5894729256E+002  +2.4065958641E-002 -2.6919884034E+001  +2.7078074060E-001 -3.6354789649E+000 
3012484.355 +1.1654187445E-001 -1.7768577388E+002  +3.3315814606E-002 +1.1872686538E+002  +2.6416878293E-002 -1.7246899871E+002  +7.9789579578E-001 +5.3032027498E+001 
3137629.537 +9.7847591603E-002 +1.7695422714E+002  +1.5016652947E-002 +1.0530668934E+002  +8.4030387152E-003 -1.1501135618E+002  +1.6350029241E-001 -5.6903003589E+001 
3262774.718 +1.0591654772E-001 +1.6228664545E+002  +6.1896939162E-003 -4.5794337840E+001  +9.4301990450E-003 +6.1226707399E+001  +4.3221141416E-001 -1.0674216470E+002 
3387919.900 +1.2503206423E-001 +1.5957625022E+002  +2.0349085239E-002 +9.6040283829E+001  +8.7933115585E-003 -1.6197161723E+002  +2.8093966123E-001 -4.2120227953E+001 
3513065.081 +1.6872165221E-001 +1.4897446469E+002  +6.0610326770E-003 +8.5536465638E+001  +7.7107485405E-003 -1.2040480402E+002  +1.3985887533E-001 +9.6516058572E+001 
3638210.263 +1.6039754309E-001 +1.5425427471E+002  +2.3210272949E-002 -1.2210675572E+002  +1.0996215403E-002 -1.6829332616E+001  +7.4081818775E-001 +2.7586048558E+001 
3763355.444 +1.6870693717E-001 +1.5005609395E+002  +5.0056662666E-003 -2.9410977176E+001  +8.2945512119E-003 +2.9272416045E+001  +3.5206152416E-001 +1.3889545159E+002 
3888500.626 +1.7965634902E-001 +1.4972557003E+002  +3.8218832684E-003 +3.5529894093E+001  +9.2626876617E-003 +1.1419248165E+002  +3.7390649458E-001 +1.0807135128E+002 
4013645.807 +1.9768514153E-001 +1.4886373715E+002  +9.4022085585E-003 -1.7424821262E+001  +3.8352004854E-003 +1.5489329184E+002  +3.4305566497E-001 +1.0958232196E+002 
4138790.989 +1.5375145339E-001 +1.3464016094E+002  +6.6848232835E-003 +1.1199018493E+002  +1.0463922329E-002 +7.8524554450E+001  +3.6923431428E-001 +1.1404820454E+002 
4263936.170 +1.9632906722E-001 +1.5055699870E+002  +2.8832414358E-002 +9.4550112174E+001  +1.3254535185E-002 +2.0361600882E+001  +6.5157960821E-001 +5.2062677988E+001 
4389081.352 +2.0308423085E-001 +1.2957820341E+002  +1.2619406471E-002 +7.2248843256E+000  +1.0213380299E-002 -9.1370820934E+001  +5.6446700193E-001 +6.8018654011E+001 
4514226.533 +2.6009853662E-001 +1.3553541795E+002  +9.2810601509E-003 +2.9484619455E+001  +9.3061976443E-003 +7.9175583612E+001  +9.7712991562E-001 +1.4063174897E+002 
4639371.715 +3.0923161426E-001 +1.1976134922E+002  +4.7311922919E-002 +3.3725317450E+001  +5.8445391830E-002 +1.4664687604E+001  +3.1411536423E+000 -1.3402194003E+002 
4764516.896 +3.3581152776E-001 +1.3758563292E+002  +7.9855041905E-002 +1.7513231752E+002  +1.8208878913E-001 +2.4394602514E+001  +6.3996367033E+000 -6.9309125970E+001 
4889662.078 +3.5571069658E-001 +1.2630132433E+002  +7.0511722700E-002 +1.0109173997E+002  +2.2735977708E-002 +2.4104278317E+001  +3.0542808314E+000 -1.0410358471E+002 
5014807.259 +4.3668208602E-001 +1.2255331950E+002  +8.3983307847E-002 +1.1127265419E+002  +9.1403415252E-002 -1.0148021053E+001  +3.6642444583E+000 -6.5870348918E+001 
5139952.441 +3.5565200611E-001 +1.2230580414E+002  +3.5091939533E-002 -1.6891172195E+002  +1.0615954474E-002 -9.5530778774E+001  +1.6565513473E+000 +1.4324576922E+001 
5265097.622 +2.9812245560E-001 +1.2387008935E+002  +3.7382676603E-002 +6.1351515433E+001  +2.7211131792E-002 +1.2504623601E+002  +1.5387222293E+000 +9.3612641191E+001 
5390242.804 +4.5165164464E-001 +1.1787666102E+002  +4.4943214284E-002 +8.2949003595E+001  +1.8655620797E-002 -1.0713824660E+002  +2.0510649281E+000 +1.1220380802E+002 
5515387.985 +3.6874514209E-001 +1.3496029465E+002  +1.8517340191E-002 +1.2601669774E+002  +2.8638813656E-002 -1.6345695083E+002  +1.5972941750E+000 +9.1166255241E+001 
5640533.166 +4.3013442331E-001 +1.2439688023E+002  +2.3118121308E-002 -7.2415467290E+001  +6.1707871653E-002 -1.5851203763E+002  +3.9322780449E+000 +1.2648171307E+002 
5765678.348 +6.0337765872E-001 +1.1504679687E+002  +2.9967704343E-002 -1.7251526853E+002  +4.3172057414E-002 -1.6037790584E+002  +1.5888559883E+000 +6.2441696647E+001 
5890823.529 +6.2573580300E-001 +1.2626661893E+002  +4.4081711022E-003 +1.1209820544E+002  +1.8562618887E-002 -9.4837022228E+001  +1.3116743737E+000 +5.5770527207E+001 
6015968.711 +6.5474244551E-001 +1.2006318039E+002  +1.0452787393E-002 -1.3576944594E+002  +4.1570302326E-002 +1.0223838563E+002  +2.2455050126E+000 +5.3209996100E+001 
6141113.892 +7.3207244815E-001 +1.0526344930E+002  +8.1478857207E-003 -7.3737768756E+001  +2.9542068022E-002 +1.2404961880E+002  +1.8370446231E+000 +3.9726583282E+001 
6266259.074 +8.9202054765E-001 +9.5531809908E+001  +1.8839441031E-002 +1.5469487824E+002  +1.0990156484E-002 -1.7909204171E+002  +1.2519812004E+000 +2.1327449971E+001 
6391404.255 +9.5051737160E-001 +9.7607607203E+001  +2.7039634808E-002 +1.1421275705E+002  +2.7928860792E-002 +5.4574450343E+001  +1.9457760414E+000 +2.3642921725E+001 
6516549.437 +1.3039594439E+000 +8.3546437245E+001  +2.2246517270E-002 +1.1184884051E+002  +2.9672845907E-002 -5.5963362770E+001  +1.3918472660E+000 +1.1204217382E+001 
6641694.618 +1.2788570195E+000 +7.8084954136E+001  +3.4829016416E-002 +4.4614054380E+000  +4.1765924965E-002 +8.6343641699E+001  +1.5654622369E+000 +1.6392184135E+000 
6766839.800 +2.2854463835E+000 +3.1700631873E+001  +1.0497327113E-002 -1.6644947236E+001  +4.8808449978E-002 -7.3789290888E-001  +1.1487252700E+000 +2.3338301976E+000 
6891984.981 +1.6837756519E+000 +4.4327136348E+001  +2.6747451787E-002 +1.6422502023E+002  +1.5918226807E-002 +5.6241496962E+001  +1.3185092924E+000 -1.0079931584E+000 
7017130.163 +2.3669220887E+000 +2.0458037335E+001  +7.9266378800E-003 -1.4779604110E+001  +2.7141349407E-002 +7.4002073662E+001  +1.3039840859E+000 -1.3532599749E+001 
7142275.344 +1.6951537509E+000 +1.3753510538E+001  +1.7542577295E-002 +7.9643565583E+001  +6.1962432971E-003 +4.8393735166E+001  +1.3996805594E+000 -1.1544585157E+001 
7267420.526 +1.5678261368E+000 -3.7136344297E+000  +1.3565037720E-002 -5.2752413974E-001  +2.3814481286E-003 +2.3588370037E+000  +1.3716762505E+000 -1.3899438258E+001 
7392565.707 +1.2357783286E+000 +4.7526952286E+000  +1.3621474747E-002 +3.0648228121E+001  +4.1008209253E-003 +1.5525263870E+002  +1.3501330375E+000 -9.0492858325E+000 
7517710.889 +1.0384505057E+000 -4.6930587126E-001  +6.7190446841E-003 +1.4219068995E+002  +9.4104604527E-003 +6.1829076782E+001  +1.2955620367E+000 -9.6168515344E+000 
7642856.070 +1.0046287869E+000 +5.5772615466E+000  +2.1537023123E-003 +4.0925109121E+001  +8.2060310892E-003 +1.4550304004E+002  +1.0254746285E+000 +1.5204393305E+000 
7768001.252 +9.6877522685E-001 +2.1292706487E+000  +8.4739134080E-003 +3.7429283730E+001  +6.3028878589E-003 +7.1346446706E+001  +9.6109734838E-001 -6.0132059307E+000 
7893146.433 +9.9722432026E-001 +1.7954536916E-002  +1.2260141123E-003 -7.8291135537E+001  +9.7924284480E-003 +1.0333050223E+002  +9.3252165422E-001 -1.0719845667E+000 
8018291.615 +8.7729933202E-001 +5.2558093136E+000  +3.8431118209E-003 -5.9682686323E+001  +6.0604203704E-003 +1.5170224918E+002  +8.8221432134E-001 -3.7837568083E-002 
8143436.796 +7.4606663715E-001 +9.4031924696E+000  +7.6630043810E-003 +8.1125963106E+000  +6.7350986675E-003 +4.7802932034E+001  +8.1397032643E-001 -1.4907330023E+000 
8268581.977 +7.5159770838E-001 +7.4543713725E+000  +1.1596987486E-002 +6.4839238215E+001  +6.2297338851E-003 +9.4870942304E+000  +7.8998168917E-001 +3.2420699040E+000 
8393727.159 +6.7732557350E-001 +9.9339966791E+000  +1.9970905439E-003 +9.3843375470E+001  +5.6174336011E-003 +9.4878145619E+001  +7.0700815734E-001 -1.8310185235E-001 
8518872.340 +7.1534977614E-001 +3.5323312549E+000  +1.3674544980E-003 +9.7875815851E+001  +7.3067554889E-003 +3.9678172754E+001  +7.5044418184E-001 +1.0589182793E+001 
8644017.522 +6.5752702870E-001 +6.8890014846E+000  +2.0259101374E-003 +2.8480758066E+001  +5.5918717690E-003 +2.3020291883E+001  +7.1516989577E-001 +1.1667824307E+000 
8769162.703 +6.3970571990E-001 +8.4532443961E+000  +2.7103217363E-003 +7.7445105850E+001  +6.5412833359E-003 +7.8277522072E+001  +7.2022667840E-001 +4.7851517195E+000 
8894307.885 +5.8490713385E-001 +6.9043872348E+000  +2.9583000498E-003 +1.2549262646E+002  +5.8390782918E-003 +1.5305302363E+002  +6.0466746691E-001 +3.1976538078E+000 
9019453.066 +5.8743649781E-001 +2.5004945651E+000  +1.3120662431E-003 +1.3982007570E+001  +4.1051249630E-003 +7.3358929002E+001  +6.0602216113E-001 -2.3417220974E+000 
9144598.248 +5.5361391718E-001 +9.7517827374E-001  +3.4352335245E-003 +7.4006279789E+001  +3.7159890259E-003 +1.5437812085E+002  +6.1657235739E-001 -2.5101472765E+000 
9269743.429 +5.7811773060E-001 +2.4343423526E+000  +5.1944570715E-003 +5.5260957795E+001  +4.8408093098E-003 +6.3986294084E+001  +6.2289077930E-001 -2.2215111433E+000 
9394888.611 +5.3074644793E-001 +4.1953146683E+000  +7.7491592606E-003 +5.5936276731E+001  +8.6378033997E-003 +8.3444507415E+001  +6.3194628072E-001 -5.1899978945E+000 
9520033.792 +6.0747202990E-001 +1.0478857866E+000  +4.7950713150E-003 +7.3938026249E+001  +2.5073032000E-003 +5.3437558827E+001  +5.6175750578E-001 +3.1399604560E-003 
9645178.974 +5.7057994309E-001 +4.5468537280E+000  +4.5350440446E-003 +2.1895930903E+001  +5.4851061455E-003 +9.7399467961E+001  +5.5117877454E-001 -2.0420227722E+000 
9770324.155 +5.5616721057E-001 +5.8296758779E+000  +4.4581771724E-003 +5.6635254380E+001  +4.2532985785E-003 +3.2382185621E+001  +6.1360391338E-001 -1.0112793654E+001 
9895469.337 +5.2044652702E-001 +4.4028346977E-001  +5.4531571028E-003 +5.8860202586E+001  +4.8921768809E-003 +1.1025395575E+002  +6.0232175116E-001 -5.1298249980E+000 
10020614.518 +5.6085091997E-001 +3.8372923277E-001  +5.1216913345E-003 +4.5977826122E+001  +5.2470050978E-003 +1.0291587431E+002  +5.8186294501E-001 -9.7446258192E+000 
10145759.700 +5.8651414583E-001 +5.5439156826E+000  +2.5939961217E-003 -1.1886209042E+001  +1.4531391070E-003 +5.2237213091E+001  +5.6567186565E-001 -2.2500494277E+000 
10270904.881 +5.8591505278E-001 +2.0003696500E+000  +5.2402861838E-003 +6.1036097785E+001  +2.6683786696E-003 +1.5115342347E+002  +5.6049252463E-001 -2.5103293823E+000 
10396050.063 +5.8597340006E-001 +6.3255711824E+000  +4.3668773821E-003 +6.1925417069E+001  +4.2751605536E-003 +1.0583841336E+002  +5.6671713198E-001 -3.2910722176E+000 
10521195.244 +5.5591408555E-001 +1.8742607907E+000  +5.2008218927E-003 +7.6353926266E+001  +4.6557934151E-003 +7.1806812207E+001  +6.1771116373E-001 +2.0076144112E-001 
10646340.426 +5.6226447250E-001 +8.5826319129E+000  +1.8328505036E-003 +6.8831506845E+001  +3.1320918505E-003 +7.3671895752E+001  +5.9846580804E-001 -1.8764422131E+000 
10771485.607 +5.4659159055E-001 +6.5102721935E+000  +4.2669647312E-003 +7.1962558461E+001  +3.8821649353E-003 +8.0472999377E+001  +5.8814412290E-001 +1.5752338494E+000 
10896630.788 +6.3465054709E-001 +7.2645111797E+000  +5.2689598970E-003 +9.4932687790E+001  +4.1279822582E-003 +1.1926201198E+002  +6.0563236333E-001 +1.3649097628E+000 
11021775.970 +6.0157488443E-001 +7.1515270588E+000  +4.7879443443E-003 +5.6469775573E+001  +3.6304197280E-003 +9.5873685002E+001  +6.1092212717E-001 +2.9606280323E+000 
11146921.151 +5.6844160381E-001 +8.4197680298E+000  +5.2846662205E-003 +5.1900495260E+001  +4.1914357709E-003 +5.4316746281E+001  +6.2819304444E-001 +3.5195738131E+000 
11272066.333 +6.0344466462E-001 +9.1889306406E+000  +4.1602439473E-003 +7.8956790812E+001  +4.9890986807E-003 +9.6937687095E+001  +5.9952382614E-001 +2.0132519629E+000 
11397211.514 +6.1901735715E-001 +6.4037273261E+000  +3.5524356495E-003 +5.9199375359E+001  +4.3580878647E-003 +6.7472118403E+001  +6.1896072092E-001 -7.0661492359E-001 
11522356.696 +6.1369197133E-001 +6.0139831495E+000  +4.7436904112E-003 +7.0870898943E+001  +6.0128348906E-003 +6.0546781945E+001  +6.1986636531E-001 -4.9038431418E-001 
11647501.877 +6.5696740978E-001 +6.0404942471E+000  +5.1446342816E-003 +6.8278727293E+001  +5.6812539646E-003 +7.8526946766E+001  +6.4084775204E-001 -2.4854390598E-001 
11772647.059 +6.4625969517E-001 +5.9539448048E+000  +3.3104694202E-003 +7.1722854865E+001  +5.7634276545E-003 +1.0087568888E+002  +6.5887552512E-001 +9.6690498387E-001 
11897792.240 +6.5596800549E-001 +4.7182820539E+000  +4.4385553577E-003 +3.5715128337E+001  +5.6075263426E-003 +7.1760586161E+001  +6.8053011756E-001 -9.3209234146E-001 
12022937.422 +6.5782192723E-001 +5.5267508764E+000  +5.5616275382E-003 +6.7834798744E+001  +6.3710163591E-003 +7.8094947506E+001  +6.9180131934E-001 +2.1749357199E+000 
12148082.603 +6.7502408194E-001 +5.3741318679E+000  +6.5388930742E-003 +9.9274609540E+001  +6.1832224164E-003 +8.9347126419E+001  +6.9087864920E-001 +2.0313945042E+000 
12273227.785 +7.0688248383E-001 +3.8569146680E+000  +6.9759062907E-003 +7.7891331699E+001  +7.0483117984E-003 +7.5744399629E+001  +7.5159593284E-001 +1.6542445936E+000 
12398372.966 +7.2969265813E-001 +4.0095780082E+000  +5.5642953115E-003 +6.5541688450E+001  +5.5094040135E-003 +7.5191892733E+001  +7.4992066666E-001 -1.4295621384E+000 
12523518.148 +7.1228849509E-001 +4.0983053903E+000  +4.9957881681E-003 +6.8017405163E+001  +6.4112340449E-003 +8.4881327935E+001  +7.3217221591E-001 -2.3510633412E-001 
12648663.329 +7.4843333032E-001 +3.6661769410E+000  +6.2964246556E-003 +9.4220649410E+001  +7.1105806971E-003 +7.8584738732E+001  +7.5954897570E-001 -5.3917368343E-001 
12773808.511 +7.7002071346E-001 +7.2800946735E-001  +5.8505096591E-003 +8.5274169819E+001  +8.2786577150E-003 +7.8771671645E+001  +7.7306241414E-001 -3.9556992833E-001 
12898953.692 +7.7878103048E-001 +2.0860127023E+000  +5.9563267877E-003 +6.2401524316E+001  +6.6660122680E-003 +9.0712661821E+001  +7.8901451674E-001 -2.0626507339E+000 
13024098.874 +7.8910091273E-001 +7.3774877532E-001  +7.2838163073E-003 +7.0946027214E+001  +5.2857266852E-003 +9.5073111619E+001  +8.0096179967E-001 -7.0008550741E-001 
13149244.055 +8.2169759260E-001 -1.4272577608E+000  +5.6956032761E-003 +6.9131449626E+001  +8.6051805245E-003 +8.4240498600E+001  +8.1186992936E-001 -1.8877306876E+000 
13274389.237 +8.1014041253E-001 -7.2185339470E-001  +6.5157189915E-003 +6.7406909550E+001  +5.2856768615E-003 +7.8459362196E+001  +8.2095096469E-001 -1.6313769989E+000 
13399534.418 +8.4279771137E-001 -1.5291121235E+000  +6.5207223508E-003 +9.2348989913E+001  +5.1860632952E-003 +1.1008434517E+002  +8.4569297901E-001 -3.0194664031E+000 
13524679.599 +8.2938851719E-001 -1.0693223444E+000  +5.0915324203E-003 +8.9806094191E+001  +7.2496478686E-003 +8.7656918086E+001  +8.5655455363E-001 -3.2952639599E+000 
13649824.781 +8.7047435818E-001 -2.2413965001E+000  +7.7237970143E-003 +8.1993626341E+001  +6.2467789166E-003 +7.1135152183E+001  +8.6055898811E-001 -3.5985053184E+000 
13774969.962 +8.7528595671E-001 -1.8317019418E+000  +7.7006781098E-003 +7.0329910221E+001  +5.4866852544E-003 +7.6398501188E+001  +8.8649865773E-001 -2.6870147312E+000 
13900115.144 +9.1905258466E-001 -3.6050604167E+000  +6.8565106871E-003 +8.5148490912E+001  +7.3325027055E-003 +7.5115475358E+001  +9.2607387091E-001 -2.9068502628E+000 
14025260.325 +9.1554825860E-001 -4.6299641515E+000  +8.0436334881E-003 +8.2554487792E+001  +6.0611270232E-003 +7.4922015897E+001  +9.3226851246E-001 -2.7959591180E+000 
14150405.507 +9.5108772695E-001 -2.7688246289E+000  +7.2178979058E-003 +7.0255445299E+001  +7.7011166380E-003 +9.7323361153E+001  +9.4313789917E-001 -5.7338569472E+000 
14275550.688 +9.4610989935E-001 -4.8720592186E+000  +8.8134566542E-003 +7.5396163937E+001  +8.0357042475E-003 +7.8661879007E+001  +9.5691751685E-001 -4.2998975988E+000 
14400695.870 +9.7661920691E-001 -5.5605712101E+000  +8.3066777207E-003 +6.2645572731E+001  +8.4691032543E-003 +7.1665209712E+001  +9.8209984818E-001 -5.8684595838E+000 
