!  2-Port S-parameters saved by WinCal
! VAR MeasName=S-Parameters (CALIBRATED_DATA) read from VNA (P5004A)
! VAR MeasDate=27/08/2024 16:18:28
! VAR NAME=S2_r1c9_SET2_9k-100M_3
! VAR FILENAME=S2_r1c9_SET2_9k-100M_3.S2P
! VAR DATE=27/08/2024 16:18:28
! VAR PHYS_PORTS=1,2
! VAR ObjTypeName=DATASET
! VAR IndexType=Frequency
!
# Hz S MA R 50
9000.000 +7.9879721979E-002 -1.6476166617E+002  +1.6236805579E-002 +3.0769118968E+001  +2.0982443139E-003 -1.6411349887E+002  +3.3292982528E-001 -1.4763537346E+002 
134145.181 +1.1055575634E-001 +1.6958531528E+002  +5.8523653229E-005 +2.3069706098E+001  +6.8944426064E-004 +1.2088279711E+002  +2.3575220779E-001 -1.7088051406E+002 
259290.363 +1.1261188558E-001 +1.7017422244E+002  +6.8169677875E-004 +5.9347324918E+001  +2.7988213441E-004 +4.4669752044E+001  +2.4203133906E-001 -1.7098927889E+002 
384435.544 +1.1343385466E-001 +1.6937329910E+002  +4.3481172220E-004 -7.0895630902E+001  +2.9475662401E-004 -9.4255189084E+001  +2.4719605352E-001 -1.6930096340E+002 
509580.726 +1.1433491159E-001 +1.7125472694E+002  +1.4597101859E-004 +7.4983911767E-001  +2.4810319469E-004 +8.3622598835E+001  +2.4805975170E-001 -1.6660751747E+002 
634725.907 +1.1660211212E-001 +1.7187659398E+002  +6.4943232323E-004 -1.5203310002E+002  +4.2346127359E-004 +1.1678654021E+002  +2.5235840665E-001 -1.6633396032E+002 
759871.089 +1.1953887904E-001 +1.7049513949E+002  +3.6121679252E-004 +3.1918642940E+001  +3.9610245838E-004 +1.7360304621E+002  +2.3317687546E-001 -1.6615158278E+002 
885016.270 +1.1843845566E-001 +1.6984397042E+002  +1.2741900489E-003 -8.3957970482E+001  +6.0054427418E-004 +8.4958896211E+001  +2.4072443777E-001 -1.6365921615E+002 
1010161.452 +1.1397057510E-001 +1.7138834910E+002  +3.0561269493E-003 +1.3845033945E+001  +2.9591083950E-003 -1.6955986665E+002  +1.8747079666E-001 -1.5735680054E+002 
1135306.633 +1.1686693066E-001 +1.6861022091E+002  +7.2765268297E-004 +1.6658980357E+002  +1.8829504365E-003 +1.5571000993E+002  +1.7386355176E-001 -1.6673562408E+002 
1260451.815 +1.2092028001E-001 +1.7072333397E+002  +1.0692779420E-003 -1.1328138923E+002  +1.3519188023E-003 +2.8139107858E+001  +2.1868265620E-001 -1.5307587877E+002 
1385596.996 +1.2731741714E-001 +1.7283302133E+002  +8.6727786623E-004 +7.6401634814E+001  +1.1576038470E-003 +8.1940113231E+000  +2.7053605530E-001 -1.5988412738E+002 
1510742.178 +1.2740462984E-001 +1.7256249832E+002  +1.1375370991E-003 -3.9530481335E+000  +3.3374000372E-004 +6.1759439863E+000  +2.6310595936E-001 -1.5716417112E+002 
1635887.359 +1.2916770709E-001 +1.7059184545E+002  +2.0897777376E-004 +3.5342625764E+001  +3.4144689187E-004 -1.5372616830E+002  +2.4758288651E-001 -1.6014581182E+002 
1761032.541 +1.2768208133E-001 +1.6970685433E+002  +1.2552760062E-003 -8.3590192897E+001  +2.3216142014E-003 -5.8545885965E+001  +2.2352048388E-001 -1.5713016766E+002 
1886177.722 +1.1918661411E-001 +1.7146875462E+002  +1.7854704812E-003 -1.4418016647E+002  +7.8262045786E-004 -1.0241591489E+002  +2.1292404675E-001 -1.7010693600E+002 
2011322.904 +1.2911265674E-001 +1.6599120232E+002  +1.1531906683E-003 +1.5042477186E+001  +1.6437314242E-003 -1.3005691135E+002  +1.8682398742E-001 -1.7191942760E+002 
2136468.085 +1.3191639624E-001 +1.6476762418E+002  +2.1164651282E-003 -6.5500378624E+001  +3.4355962009E-003 +4.2330193286E+001  +1.8369786303E-001 +1.6821252366E+002 
2261613.267 +1.3212695258E-001 +1.6558070590E+002  +4.1018928964E-003 -1.5605303329E+002  +5.2854671570E-003 -1.0074088500E+002  +1.0768713332E-001 +1.4453377173E+002 
2386758.448 +1.3370807269E-001 +1.6528316233E+002  +2.8423247211E-003 -4.6838754566E+000  +1.4887055066E-003 +6.0907749816E+001  +2.1806832960E-001 +1.6613223183E+002 
2511903.630 +1.3652110067E-001 +1.6159955522E+002  +6.7225408141E-003 +8.9190883421E+001  +3.7957394276E-003 +3.7481144523E+001  +1.8535820968E-001 +1.6801057245E+002 
2637048.811 +1.1615086336E-001 +1.6383371606E+002  +2.3752183761E-002 +1.0643742276E+002  +4.3648763145E-002 -5.0836817946E+001  +8.0625469783E-001 -2.0925929898E-001 
2762193.992 +1.1902375757E-001 +1.7536762016E+002  +2.1140848550E-002 -2.1523534573E+001  +2.5995250855E-002 +1.1525239692E+002  +8.7307639619E-001 +1.0681776274E+002 
2887339.174 +1.2484813947E-001 +1.7491751520E+002  +6.7064288713E-003 -1.4559867389E+002  +8.7477264304E-003 +1.4276286712E+002  +5.5296799478E-001 -9.2441780215E+001 
3012484.355 +1.1447253383E-001 -1.7628089496E+002  +6.8224656129E-003 +1.3060443564E+002  +1.0425100018E-002 -4.6818579818E+001  +2.1125586196E-001 +1.2795307455E+001 
3137629.537 +1.1476708996E-001 +1.7647989566E+002  +6.7529294424E-003 -9.4995365174E+001  +5.7308490112E-003 +1.4938903635E+002  +2.8403385924E-001 -1.1502798450E+002 
3262774.718 +1.0505601132E-001 +1.5028652227E+002  +2.8670045686E-002 +6.6021576123E+001  +1.4755500458E-002 -3.4872916936E+001  +2.7906115310E-001 +2.0659806564E+001 
3387919.900 +1.1465356305E-001 +1.5685875728E+002  +1.8663184116E-002 +1.5006118205E+001  +4.2033965362E-002 -8.4321018697E+001  +9.0108109464E-001 +3.0061503712E+001 
3513065.081 +1.3980604066E-001 +1.5842300761E+002  +1.9820624599E-002 -8.2162352133E+000  +3.4894580323E-002 +7.6345651706E+000  +1.3948955292E+000 +1.5104628221E+002 
3638210.263 +1.5438257534E-001 +1.4908273833E+002  +1.7920113340E-002 +1.2658123894E+001  +4.4558154935E-002 +5.1660026288E+001  +1.8009341913E+000 +1.6428659519E+002 
3763355.444 +1.9735192864E-001 +1.4073475109E+002  +1.7423288998E-002 +1.4265259142E+002  +1.0707439238E-002 +1.2459326530E+002  +8.6742066676E-001 +1.0526813372E+002 
3888500.626 +1.8523815426E-001 +1.3557180504E+002  +1.1780627766E-002 +9.1957510568E+001  +1.3054499414E-002 +8.6973795628E+001  +4.6356541509E-001 +1.1577424393E+002 
4013645.807 +1.8917280301E-001 +1.4171860966E+002  +1.0435714343E-002 -1.3126862230E+002  +1.5609106372E-002 +5.8658631697E+001  +1.1303083066E-001 +1.0943522723E+002 
4138790.989 +1.8681844585E-001 +1.4682542678E+002  +1.1602595441E-002 +7.2628024251E+001  +4.8933263992E-003 -5.4219820383E+001  +5.5084978787E-001 +1.0491975366E+002 
4263936.170 +2.0093364322E-001 +1.4635855319E+002  +9.8960124507E-003 +7.7668925891E+001  +1.7245221430E-002 +7.6145010260E+001  +5.3711303120E-001 +1.0212797351E+002 
4389081.352 +2.1478505887E-001 +1.4523196577E+002  +1.0427273663E-002 +1.3418529853E+002  +1.6391814218E-002 -1.8007709315E+001  +4.2063497256E-001 +5.2861770002E+001 
4514226.533 +2.5382869709E-001 +1.3034970590E+002  +6.4302095849E-002 +1.1783820233E+002  +2.0165657462E-002 -1.5336599070E+002  +2.3156678312E+000 +1.3762481823E+002 
4639371.715 +2.9265577204E-001 +1.3646351792E+002  +3.1599727576E-003 +7.5947886176E+001  +1.7970952171E-002 +5.3184705706E+001  +6.4861503379E-001 +4.1325311539E+001 
4764516.896 +3.8873229305E-001 +1.3487609995E+002  +5.5040034876E-002 -2.3649555024E-001  +4.7498437874E-002 -5.5026077819E+001  +2.8003958233E+000 -9.0764073761E+001 
4889662.078 +3.7956706522E-001 +1.3213957488E+002  +1.0622897769E-002 -5.5707021518E+001  +1.4892093436E-002 -8.5763447906E+001  +1.8677564888E+000 -1.1536509356E+002 
5014807.259 +4.1074427736E-001 +1.2892969822E+002  +9.4190789048E-002 -1.7776028334E+002  +4.0857982125E-002 +9.5086261451E+001  +4.3667485002E+000 +1.4204980338E+002 
5139952.441 +3.9771854110E-001 +1.2529556031E+002  +4.3401477806E-002 +5.5371866903E+001  +1.4111251565E-001 +1.0433744632E+002  +8.0719824430E+000 +1.1555221498E+002 
5265097.622 +4.1071200069E-001 +1.2943023214E+002  +1.5235500474E-001 +8.1421674272E+001  +5.8616649054E-002 +7.6214264577E+000  +4.9115012724E+000 +2.0313632340E+001 
5390242.804 +4.3299117212E-001 +1.3458130918E+002  +1.2145088167E-002 +7.7311822233E+001  +7.2187575132E-002 +1.0861394021E+002  +2.8537610374E+000 +9.8580880164E+001 
5515387.985 +4.7126261742E-001 +1.3013280897E+002  +3.9710845355E-002 +1.2895315234E+002  +2.3126113415E-002 +7.3302750137E+001  +1.5487691725E+000 +9.2378765878E+001 
5640533.166 +4.4472373479E-001 +1.3156789554E+002  +1.7081689038E-002 +8.9476372391E+001  +4.0427405004E-002 +9.0387272121E+001  +2.2414445569E+000 +8.3010809688E+001 
5765678.348 +5.7378776486E-001 +1.2493889000E+002  +1.7420678929E-002 +7.4391870126E+000  +2.5387004497E-002 +7.6793654973E+001  +1.7205920684E+000 +3.2706719008E+001 
5890823.529 +6.4573311128E-001 +1.2150144537E+002  +4.7667470251E-002 +9.0867350286E+001  +8.5614873561E-003 +8.8200606352E+001  +2.2526316634E+000 +3.3770264037E+001 
6015968.711 +6.3325702471E-001 +1.2070633508E+002  +2.0027895078E-002 +9.9025663669E+001  +3.3320357485E-003 +4.2839004580E+001  +2.1313461775E+000 +5.5282373016E+001 
6141113.892 +6.6376196655E-001 +1.2083939913E+002  +2.0577652418E-002 +4.2024478398E+001  +8.9451318103E-003 +4.1412612728E+001  +2.0685380618E+000 +2.4070646159E+001 
6266259.074 +6.4507986808E-001 +9.7754126585E+001  +5.2110773038E-002 +4.4256298927E+001  +2.7948082432E-002 +5.9904718755E+001  +1.9361529616E+000 +2.9606487013E+001 
6391404.255 +9.4917406758E-001 +9.6093121261E+001  +8.8211962687E-003 +4.3480419492E+001  +3.3521006761E-002 +5.0875593413E+001  +1.5688621996E+000 +1.7869872256E+001 
6516549.437 +1.2575026264E+000 +9.4782235522E+001  +4.3459486918E-002 +6.9642217411E+001  +1.7800291870E-002 +4.5800440499E+001  +1.7461711453E+000 +2.7312227718E+000 
6641694.618 +1.6410018743E+000 +7.2708858933E+001  +5.1636691260E-002 +5.4252679030E+001  +2.9711772024E-002 +2.7551174870E+001  +1.6377969728E+000 -3.7702785409E+000 
6766839.800 +1.6503930615E+000 +4.9158972698E+001  +3.0017209976E-002 +2.1619029895E+001  +5.3288202857E-002 -2.6742848060E+001  +1.3317642958E+000 -5.3551510130E+000 
6891984.981 +2.0439762014E+000 +3.8708270446E+001  +2.9553535472E-002 +3.7647801180E+001  +4.2186814283E-002 +1.4254667378E+001  +1.2167741456E+000 -5.4282661845E+000 
7017130.163 +1.5370378441E+000 +1.8790406409E+001  +3.3923530164E-002 +2.5375713497E+001  +4.3612475185E-002 +3.6990333477E+001  +1.3673898974E+000 -2.1183876538E+001 
7142275.344 +1.7280546941E+000 +1.9676970424E+001  +3.0782859785E-002 +6.2714445428E+000  +2.2572981774E-002 +4.7293688845E+001  +1.3461964509E+000 -1.1551236724E+001 
7267420.526 +1.7311599304E+000 +8.3787076059E+000  +2.1005998272E-002 +2.8673075726E+001  +6.0591770429E-003 +1.2128021111E+001  +1.3637025141E+000 -1.4337490688E+001 
7392565.707 +1.3046524118E+000 -1.2411447299E+000  +1.1242893263E-002 -2.8605987117E+000  +1.6723572325E-002 +2.8024222858E+000  +1.2743999348E+000 -9.9374188893E+000 
7517710.889 +1.2643159698E+000 +6.2604848534E+000  +1.4530869707E-002 +1.8989083274E+001  +1.0034826714E-002 +2.9945161272E+001  +1.1901876873E+000 -1.0894935687E+000 
7642856.070 +1.1248904656E+000 +3.6193697954E+000  +1.5372892298E-002 +3.3936206217E+000  +1.0287431746E-002 +2.5993102441E+001  +1.1647400548E+000 -4.3262732671E+000 
7768001.252 +1.0721993247E+000 -1.8215125782E+000  +1.3709353854E-002 +3.3375623054E+001  +1.5231964245E-002 +3.6360308300E+001  +9.7785581372E-001 -1.2756860401E+000 
7893146.433 +8.4101525237E-001 +5.0165191218E+000  +1.5347302479E-002 +9.0459185052E+000  +1.8958166635E-002 +3.2474988233E+001  +9.7401766405E-001 -1.7068738274E+000 
8018291.615 +8.1801821711E-001 +2.6920019752E+000  +1.6872388433E-002 -2.8554008222E+001  +1.2007357202E-002 +1.4513402832E+001  +8.4737031937E-001 +2.0837674483E+000 
8143436.796 +6.7971392584E-001 +9.2125642283E+000  +1.7837556990E-002 +7.1499997890E+000  +1.0323680660E-002 +6.1917389397E+001  +8.0032684710E-001 +2.1762365832E+000 
8268581.977 +7.7187496061E-001 +1.1881257540E+001  +1.3287530338E-002 +3.3627612349E+001  +1.7047993918E-002 +3.8898225345E+001  +7.2691913112E-001 -3.6807176262E+000 
8393727.159 +7.2932999598E-001 +6.4488097101E+000  +1.0214609726E-002 -8.7802168299E+000  +1.1180936690E-002 +3.6614945882E+001  +6.9278418665E-001 -1.7901956111E+000 
8518872.340 +6.8900396115E-001 +1.0509549021E+001  +8.4438847663E-003 +1.8103468363E+001  +1.0811748927E-002 +4.0586325090E+001  +7.5706198510E-001 -2.3567533778E-001 
8644017.522 +6.3684152940E-001 +1.1139170387E+001  +6.2049654763E-003 +3.5740164408E+000  +1.3501621945E-002 +2.2969937025E+001  +6.5455012900E-001 -1.4412062984E+000 
8769162.703 +6.0746614369E-001 +7.0119437733E+000  +8.7227248900E-003 -1.3364175710E+001  +1.2614036640E-002 +3.3737939187E+001  +6.0436966526E-001 +5.9319198149E-001 
8894307.885 +6.1622297448E-001 +8.0295849523E+000  +1.1531780404E-002 +2.8129090364E+001  +1.2305397713E-003 -3.6679850122E+001  +6.6562334044E-001 -2.1353775216E-001 
9019453.066 +6.0134453574E-001 +8.1080158455E+000  +1.1383924278E-002 +2.9431609886E+001  +9.3770309209E-003 +3.1276326966E+001  +6.1412848524E-001 +7.7477416883E+000 
9144598.248 +5.6855101989E-001 +9.4070990780E+000  +1.1531502720E-002 -5.5663310303E+000  +1.1156174555E-002 +4.2305634390E+001  +6.1084776861E-001 +5.2544801676E-001 
9269743.429 +5.1684493662E-001 +3.0898773669E+000  +7.9926180870E-003 +1.6856589323E+001  +1.1660924390E-002 +2.1282788123E+001  +5.9050055041E-001 -3.7536882998E+000 
9394888.611 +5.4680731256E-001 +6.7642091913E-002  +8.6119558448E-003 +3.8395539438E+001  +8.2681921986E-003 +2.3043706493E+001  +5.5545492244E-001 -1.6348261100E+000 
9520033.792 +5.1235295929E-001 +5.0766898360E+000  +8.2693292952E-003 +1.0730041394E+001  +1.0410386822E-002 +3.6044300227E+001  +5.7492111072E-001 -2.4184898705E+000 
9645178.974 +5.8595488768E-001 +4.2284811993E-001  +8.5192723251E-003 +2.6679910717E+001  +6.3177375623E-003 +4.2516251146E+001  +6.0291790972E-001 -1.5589421436E+000 
9770324.155 +5.6881385029E-001 -3.1988023359E+000  +9.1181650092E-003 +1.0299237502E+001  +1.0030252035E-002 +3.0178334720E+001  +5.6375855913E-001 -7.5890484950E+000 
9895469.337 +5.4480639629E-001 -1.8783954726E+000  +1.1976059911E-002 +2.0864710329E+001  +1.0771419294E-002 +3.3242241244E+001  +5.4330519517E-001 -7.2444961515E+000 
10020614.518 +5.6463904484E-001 -2.5211193123E+000  +8.7602743423E-003 +3.5842480980E+001  +9.8606207135E-003 +4.3733140201E+001  +5.6258605636E-001 -9.6851506565E+000 
10145759.700 +5.7072152390E-001 +2.6722549318E+000  +1.0162687307E-002 +1.1137096393E+000  +1.1121279614E-002 +3.0589849411E+001  +5.5079481482E-001 -4.8938391560E+000 
10270904.881 +5.2544881326E-001 +1.7946715216E+000  +1.0135491891E-002 +2.9857451846E+001  +1.3285440088E-002 +4.5084799383E+001  +5.4073777772E-001 -1.0926345840E-001 
10396050.063 +5.4850376229E-001 +5.1943518226E+000  +1.0181416343E-002 +2.8907972957E+001  +1.1612478261E-002 +2.5611893920E+001  +6.0274234040E-001 -1.6449824959E+000 
10521195.244 +5.6367873966E-001 +5.7519014348E+000  +7.6959959791E-003 +7.8483307559E+000  +1.2088886028E-002 +2.8832087693E+001  +5.8676010838E-001 -3.9364256751E+000 
10646340.426 +5.7645135098E-001 +4.5098503970E+000  +9.8903713380E-003 +1.5025070837E+001  +1.0314289784E-002 +4.0199676713E+001  +5.9272859139E-001 -1.3301329590E+000 
10771485.607 +5.3913279721E-001 +4.6554194192E+000  +1.0388238495E-002 +1.0572267724E+001  +8.7077063246E-003 +3.6391825115E+001  +6.0297847828E-001 +3.1504565359E+000 
10896630.788 +5.7580262932E-001 +7.4775797903E+000  +1.0932137284E-002 +4.5016630854E+001  +1.2736607050E-002 +3.8504497469E+001  +6.0199725925E-001 +3.9043048460E+000 
11021775.970 +5.6616343484E-001 +6.0912732047E+000  +1.0113185083E-002 +1.4298145255E+001  +1.0152794237E-002 +3.8607991021E+001  +5.9052602230E-001 +2.5466315262E+000 
11146921.151 +5.8340298208E-001 +9.3705577279E+000  +1.2281927236E-002 +3.1574786768E+001  +1.1719176380E-002 +4.4400455256E+001  +6.1345133000E-001 +2.4573614326E+000 
11272066.333 +6.0895317491E-001 +4.7063391113E+000  +1.2640184202E-002 +2.3948488174E+001  +1.1571114187E-002 +3.7891634878E+001  +6.2417171045E-001 -2.0197241229E+000 
11397211.514 +5.8944868745E-001 +7.9100728233E+000  +1.1060550570E-002 +3.4258135193E+001  +1.1214170100E-002 +2.7516349120E+001  +6.1863604328E-001 +2.1393915187E+000 
11522356.696 +5.8906611800E-001 +3.6691274214E+000  +1.2218707277E-002 +1.4378496677E+001  +1.0512370438E-002 +2.9030210194E+001  +6.3423559739E-001 +6.5089438668E-001 
11647501.877 +6.1101182759E-001 +6.0742380043E+000  +1.1220936365E-002 +2.7029753455E+001  +1.2103473837E-002 +4.5791813754E+001  +6.2030871851E-001 +1.1253640645E+000 
11772647.059 +6.5463338700E-001 +4.2671922658E+000  +1.4356687706E-002 +3.0988164809E+001  +1.3737973960E-002 +3.5279607727E+001  +6.6960979547E-001 +2.5554749842E+000 
11897792.240 +6.5260385837E-001 +2.9350893894E+000  +1.2817310799E-002 +2.8268311846E+001  +9.2577766947E-003 +3.4970362425E+001  +6.6831179331E-001 +2.4595936600E-001 
12022937.422 +6.5162564716E-001 +5.7037679094E+000  +1.0266755937E-002 +2.3879364582E+001  +1.2942258273E-002 +3.6296207257E+001  +6.6134331464E-001 +8.5509466049E-001 
12148082.603 +6.8075497041E-001 +3.7528808737E+000  +1.2933852065E-002 +3.2517104891E+001  +1.0629206208E-002 +4.3665581830E+001  +6.9361895723E-001 +7.3598845876E-001 
12273227.785 +7.0231180443E-001 +3.1048219144E+000  +1.3506918155E-002 +2.8562698977E+001  +1.2221223881E-002 +3.7836830074E+001  +7.0288740057E-001 -4.6102185590E-001 
12398372.966 +7.0681572687E-001 +4.2676135174E+000  +1.0290100525E-002 +2.6546755853E+001  +1.1701367797E-002 +3.2923216416E+001  +7.4146500413E-001 -2.0568126007E+000 
12523518.148 +7.1006707500E-001 +2.4738642881E+000  +1.2361044176E-002 +3.0145923882E+001  +1.2056760926E-002 +3.7751499350E+001  +7.2635894996E-001 +3.4271091967E-001 
12648663.329 +7.1580197832E-001 +4.2845230721E+000  +1.2750901539E-002 +2.3929546197E+001  +1.1576218969E-002 +3.6336876010E+001  +7.3957801960E-001 +1.0559491919E+000 
12773808.511 +7.2766153747E-001 +2.5198639293E+000  +1.3584231790E-002 +3.2401521205E+001  +1.2208092310E-002 +4.2261709107E+001  +7.5839397977E-001 +8.6429182507E-001 
12898953.692 +7.8112752878E-001 +1.4995770366E+000  +1.3756651550E-002 +2.9464692291E+001  +1.4233334351E-002 +3.8449955944E+001  +7.7059779273E-001 -1.1974976235E+000 
13024098.874 +7.7761554221E-001 +3.9044294675E-001  +1.2511154466E-002 +3.1656960401E+001  +1.4133999964E-002 +3.1866583911E+001  +7.8983981757E-001 -2.6358511975E-001 
13149244.055 +7.9547652436E-001 +4.2576243673E-001  +1.3501837465E-002 +3.6894960397E+001  +1.4976245159E-002 +4.5568393519E+001  +7.7728727350E-001 -1.6759474031E+000 
13274389.237 +8.0084240552E-001 +3.3744323312E-001  +1.2016783636E-002 +3.4893065948E+001  +1.5753040004E-002 +3.6834069104E+001  +8.1285619503E-001 -2.3191364235E+000 
13399534.418 +8.3506931040E-001 -8.3512265501E-001  +1.3314453518E-002 +3.3608059245E+001  +1.3930047290E-002 +3.8219100397E+001  +8.4085095794E-001 -2.8217949098E+000 
13524679.599 +8.4218844684E-001 -2.6259787379E+000  +1.3938104759E-002 +3.1609937339E+001  +1.3695932679E-002 +2.7981747196E+001  +8.5246014951E-001 -2.8036508087E+000 
13649824.781 +8.5978583569E-001 -2.6292855517E+000  +1.3718205755E-002 +3.4805328629E+001  +1.3878536220E-002 +3.9492838868E+001  +8.5925049243E-001 -3.1653106267E+000 
13774969.962 +8.5795572298E-001 -3.0117549455E+000  +1.3771167423E-002 +3.6349448125E+001  +1.3232566412E-002 +4.0205109851E+001  +8.9318576597E-001 -2.5625034238E+000 
13900115.144 +8.8740853584E-001 -3.1081215326E+000  +1.3000713808E-002 +3.8943740827E+001  +1.3483677785E-002 +3.2368103776E+001  +9.0912679259E-001 -2.4056836692E+000 
14025260.325 +8.9348034186E-001 -3.4775201791E+000  +1.5104334840E-002 +2.9846390507E+001  +1.5688161162E-002 +2.9431980746E+001  +9.6276997013E-001 -4.2281699505E+000 
14150405.507 +9.2538719235E-001 -3.7347731066E+000  +1.3636426013E-002 +3.2997637886E+001  +1.5449409997E-002 +3.4573519463E+001  +9.4778106034E-001 -4.2666161240E+000 
14275550.688 +9.4658802202E-001 -4.5375288889E+000  +1.4369369859E-002 +3.6968401618E+001  +1.4306676577E-002 +4.1455055526E+001  +9.7495192842E-001 -4.1714961649E+000 
14400695.870 +9.6436314504E-001 -4.8336794869E+000  +1.3682523774E-002 +3.6537633647E+001  +1.4201980452E-002 +3.4932595280E+001  +9.7703889806E-001 -5.4455076976E+000 
