!  2-Port S-parameters saved by WinCal
! VAR MeasName=S-Parameters (CALIBRATED_DATA) read from VNA (P5004A)
! VAR MeasDate=28/08/2024 12:04:03
! VAR NAME=S2_r7c9_formed_9k-100M_3
! VAR FILENAME=S2_r7c9_formed_9k-100M_3.S2P
! VAR DATE=28/08/2024 12:04:03
! VAR PHYS_PORTS=1,2
! VAR ObjTypeName=DATASET
! VAR IndexType=Frequency
!
# Hz S MA R 50
9000.000 +1.0784622556E-001 -1.7012344813E+002  +1.1547737847E-002 -8.5275527085E+001  +1.2031721216E-002 +1.2809617508E+002  +2.1422707820E-001 -1.2340956430E+002 
134145.181 +1.1131093790E-001 +1.6956228207E+002  +2.5161480979E-004 +1.6727027293E+001  +5.0872267959E-004 -1.4839740071E+002  +2.4379421626E-001 -1.7046181907E+002 
259290.363 +1.1279999630E-001 +1.6950584635E+002  +4.0065752583E-004 -1.5475507706E+002  +7.6801304414E-004 +6.0905836106E+001  +2.3946240472E-001 -1.7048603613E+002 
384435.544 +1.1401638209E-001 +1.7044408494E+002  +3.2893160014E-004 -8.5213589730E+001  +5.4935708571E-004 -1.7223024927E+002  +2.4271786560E-001 -1.7042829672E+002 
509580.726 +1.1293024353E-001 +1.7104025178E+002  +9.3593818160E-004 -4.5772127989E+001  +2.3014504048E-003 +2.4651143621E+001  +2.4206343697E-001 -1.6635574830E+002 
634725.907 +1.1653966531E-001 +1.7048457129E+002  +3.2094437098E-004 +1.0618648661E+002  +3.3580275408E-004 +1.4175106380E+001  +2.5395152089E-001 -1.6748917508E+002 
759871.089 +1.1864772510E-001 +1.7118586634E+002  +1.3542984315E-004 +6.1405884135E+001  +3.7359973972E-004 -1.2760423701E+002  +2.4072217878E-001 -1.6568197962E+002 
885016.270 +1.2136118657E-001 +1.6967394745E+002  +2.2510619875E-004 -1.6670555029E+002  +1.9779445090E-004 -3.1160481788E+001  +2.5037083943E-001 -1.6586846814E+002 
1010161.452 +1.1731757980E-001 +1.6934248624E+002  +1.1310996386E-003 -3.5222332420E+001  +7.3152187925E-004 +1.3352369423E+002  +2.0532426442E-001 -1.6681676736E+002 
1135306.633 +1.1688459421E-001 +1.7095364590E+002  +2.0838411296E-003 +1.2687853488E+002  +3.7395734288E-003 -1.3580677507E+002  +1.6849507288E-001 -1.6525389214E+002 
1260451.815 +1.2076827744E-001 +1.7053248440E+002  +5.5872911670E-004 +1.9527017852E+001  +1.2416514129E-003 +5.2649304865E+001  +2.2675414218E-001 -1.6019528802E+002 
1385596.996 +1.2528784593E-001 +1.7297245274E+002  +6.9224528452E-004 +6.0355154937E+001  +2.2840160006E-003 -8.1151869549E+001  +2.5980385031E-001 -1.5785848969E+002 
1510742.178 +1.2793879582E-001 +1.7430307634E+002  +7.2700349176E-004 -1.7605347372E+002  +1.0592298454E-003 +4.5146007807E+001  +2.5682710900E-001 -1.6064840017E+002 
1635887.359 +1.2597692541E-001 +1.7074690378E+002  +2.2406980470E-003 -3.5797664276E+001  +1.6715812019E-003 +1.6240685562E+002  +2.5136430131E-001 -1.5669286303E+002 
1761032.541 +1.2835627547E-001 +1.7122059140E+002  +1.3397330330E-003 +4.7731333024E+001  +1.1981949345E-003 +9.2498980944E+001  +2.3498333373E-001 -1.5676729680E+002 
1886177.722 +1.2971017277E-001 +1.6928119466E+002  +9.1112356566E-004 +1.3914970265E+002  +7.1699792207E-004 -1.3720754831E+002  +2.1409500980E-001 -1.6182870219E+002 
2011322.904 +1.3093312484E-001 +1.6862002396E+002  +1.2439686590E-003 -4.9459556118E+001  +2.2135043326E-003 -1.6382936955E+002  +2.0874152475E-001 -1.5704144325E+002 
2136468.085 +1.3263304164E-001 +1.6295099689E+002  +4.8118858191E-003 +1.6162567888E+002  +2.5246879039E-003 +4.5057983427E+001  +1.5346915048E-001 -1.6934088408E+002 
2261613.267 +1.3713571728E-001 +1.6627016671E+002  +4.2681032409E-003 -1.2529245448E+002  +2.0932909170E-003 +9.4485026544E+001  +1.2318583147E-001 -1.7669281520E+002 
2386758.448 +1.3685574587E-001 +1.6394622149E+002  +1.7531109242E-003 +1.5434103513E+002  +1.0495427964E-003 -1.2390459233E+002  +2.3562885892E-001 -1.7139539448E+002 
2511903.630 +1.3954450969E-001 +1.6171552396E+002  +1.7860495742E-003 +1.3255675713E+002  +2.5720154872E-003 +9.6801722326E+001  +2.4842214867E-001 +1.6644491651E+002 
2637048.811 +1.3399664274E-001 +1.5994397006E+002  +5.2834636455E-003 -1.0651394692E+001  +3.4946849515E-003 +2.4181223483E+001  +1.7855079039E-001 +1.4417944633E+002 
2762193.992 +1.1198363269E-001 +1.6955181848E+002  +1.6330308740E-002 +5.5247400923E+001  +2.3474506922E-002 -8.3821006310E+001  +4.1541905297E-001 +8.2727555519E+001 
2887339.174 +1.3213668682E-001 +1.7487166424E+002  +6.3375797612E-003 +1.2951809143E+002  +9.2422846433E-003 -1.6144426710E+002  +3.0546048322E-001 -9.7669351005E+001 
3012484.355 +1.3517892554E-001 +1.7241907271E+002  +1.7967810723E-002 -1.2117541386E+002  +2.7912097263E-002 -1.1966257108E+001  +1.7918732123E+000 -1.1006009922E+002 
3137629.537 +1.1802805056E-001 -1.7237667716E+002  +9.0870477628E-003 +8.3994520203E+001  +6.8834195021E-003 -6.8102836076E+001  +1.2157664723E-001 -1.2338023744E+002 
3262774.718 +1.4140428487E-001 +1.6150138468E+002  +4.7554670895E-003 +8.3131561910E+001  +1.1262704297E-002 +3.3880108859E+001  +4.1983311665E-001 +1.1406072527E+002 
3387919.900 +1.2759035409E-001 +1.7174122348E+002  +3.7904365509E-003 +2.3574598053E+001  +1.3321562483E-003 -5.8776822703E+001  +2.1182914208E-001 -1.0812384100E+002 
3513065.081 +1.5204581241E-001 +1.5670910896E+002  +3.3173743874E-002 +1.5661627481E+002  +5.4782348028E-002 +1.6691846623E+002  +2.1596122427E+000 +1.5022132660E+002 
3638210.263 +1.6124260965E-001 +1.5006783524E+002  +1.0389865354E-002 -3.2618542986E+001  +7.1292880061E-003 -4.3268057469E+000  +6.1959197284E-002 -3.7906158852E+001 
3763355.444 +1.7735958151E-001 +1.4777493527E+002  +1.1384908112E-002 +1.5634399429E+002  +3.0262533413E-003 +1.4563832910E+002  +5.5150834268E-001 +1.3123146956E+002 
3888500.626 +1.5561375496E-001 +1.5443455600E+002  +3.2285936794E-003 -1.5929587718E+002  +1.2574225151E-002 -5.2770818228E+001  +4.2944805433E-001 +1.5329105967E+002 
4013645.807 +1.8906925834E-001 +1.4595899330E+002  +1.4767271573E-002 +1.3229344405E+002  +7.3745827314E-003 +1.4712513001E+002  +5.0962117156E-001 +1.2840416675E+002 
4138790.989 +1.7592225995E-001 +1.4580607781E+002  +1.2240149247E-002 +1.4162065885E+002  +5.4674594888E-003 -1.7874153442E+001  +4.6582634075E-001 +1.1289545658E+002 
4263936.170 +1.8164875455E-001 +1.4194000843E+002  +1.0443381507E-002 +1.4279576909E+002  +2.6719407502E-002 +3.0070431223E+001  +1.0801306096E+000 +1.1637079056E+002 
4389081.352 +1.8320284478E-001 +1.4428070849E+002  +2.5772685603E-002 +9.3442563907E+001  +1.2936894336E-002 +4.0059652664E-001  +5.7454783483E-001 +8.1423828321E+001 
4514226.533 +2.6840514488E-001 +1.3586768647E+002  +1.5580167903E-002 +7.1544735225E+001  +2.2925430545E-002 +1.2099290765E+002  +8.9183736543E-001 +8.0447875032E+001 
4639371.715 +2.5142374228E-001 +1.3115602376E+002  +2.5381729282E-002 +6.6501321746E+001  +1.8885320426E-002 +7.5953423740E+001  +7.2170213241E-001 +7.9449319511E+001 
4764516.896 +3.2783957918E-001 +1.2919087044E+002  +2.3237221178E-002 +1.7691066149E+001  +9.4341623743E-002 -5.6542541640E+001  +4.0691486727E+000 -5.8539202217E+001 
4889662.078 +5.2250247784E-001 +1.2941354231E+002  +1.8385182505E-001 +6.8464688950E+001  +2.1374343775E-001 +4.5825315085E+001  +1.2924899889E+001 +1.4565840934E+001 
5014807.259 +5.2271077323E-001 +1.2628872073E+002  +6.7290156192E-002 -1.7895473785E+002  +2.9839295651E-002 +8.7307539730E+001  +2.8458005373E+000 +8.7208024935E+001 
5139952.441 +4.4330322510E-001 +1.1805747868E+002  +9.8548986205E-002 +1.0902654021E+002  +1.5204097016E-001 +9.4436820151E+001  +4.4819132539E+000 +8.3635290696E+001 
5265097.622 +3.4168803187E-001 +1.3377850652E+002  +1.3965858777E-002 +1.3892728031E+002  +2.7362576210E-002 +1.1170194701E+002  +1.9491546430E+000 +1.4268696421E+002 
5390242.804 +4.1048020358E-001 +1.3359266744E+002  +2.1228099529E-002 +6.0724111916E+001  +4.1804254352E-002 +6.9511789240E+001  +1.9354267552E+000 +7.0016487651E+001 
5515387.985 +4.3432926838E-001 +1.2878472474E+002  +3.2105789252E-002 +1.1094041154E+002  +3.8063349136E-002 +6.2791457056E+001  +1.4770117394E+000 +6.4124666588E+001 
5640533.166 +5.3664075676E-001 +1.2224354563E+002  +3.4730860645E-002 +1.4058266426E+002  +4.9978038588E-002 +7.3744120360E+001  +4.4362685902E+000 +8.9135683438E+001 
5765678.348 +5.5594878576E-001 +1.1781661242E+002  +3.9382811174E-002 +1.5075214693E+002  +3.5332379177E-002 +4.7705071842E+001  +2.1190181220E+000 +4.5985049533E+001 
5890823.529 +5.6394628754E-001 +1.2281546592E+002  +3.3316381184E-002 +5.3231393332E+001  +4.4246499399E-002 +6.6633135319E+001  +2.4910420104E+000 +7.3803254287E+001 
6015968.711 +6.1571431289E-001 +1.1606246405E+002  +4.6982488264E-002 +5.3392701997E+001  +3.9218000322E-002 +1.0402852017E+002  +3.1069748553E+000 +1.5499831927E+001 
6141113.892 +7.2302632216E-001 +1.1536895371E+002  +3.6580477111E-002 +6.5286076834E+001  +2.8283644214E-002 -2.9817013816E+001  +2.1250584510E+000 +3.3625379566E+001 
6266259.074 +7.8785502745E-001 +1.0845393911E+002  +4.6338195231E-002 +6.7577036701E+001  +4.8167092347E-002 +8.8051980031E+001  +1.6270453653E+000 +3.7510347412E+001 
6391404.255 +8.2967949434E-001 +9.6438080900E+001  +3.1109163716E-002 +7.7299208720E+001  +4.8794838898E-002 +1.9676635888E+001  +1.5971446309E+000 +1.6593166327E+001 
6516549.437 +1.4531597574E+000 +9.6324311811E+001  +3.4267154605E-002 +8.9702171479E+001  +4.9784170017E-002 +6.0618627026E+001  +1.5401477167E+000 +1.6556803829E+001 
6641694.618 +1.2227518289E+000 +5.9073022591E+001  +5.8131027151E-002 +2.0287360531E+001  +5.9998137054E-003 +1.3044886641E+002  +1.4296868383E+000 -3.8598135998E+000 
6766839.800 +1.5731489629E+000 +4.9905998116E+001  +3.1481201453E-002 +1.1242591679E+001  +6.0731687638E-002 +1.9499852372E+001  +1.4408134555E+000 +3.3581054588E+000 
6891984.981 +2.0225892985E+000 +2.9333886568E+001  +4.4915110471E-002 +2.2966962392E+001  +5.3895398484E-002 +1.1788920667E+001  +1.3502799585E+000 -1.1372827313E+001 
7017130.163 +1.4711395312E+000 +1.8834262845E+001  +4.7356847167E-002 +2.4698439385E+001  +3.0556252407E-002 -1.7590376647E+001  +1.3745472770E+000 -1.3073559585E+001 
7142275.344 +1.6951536353E+000 +1.0063515016E+001  +4.0657382544E-002 -5.7839607714E+000  +4.0685139671E-002 -2.9607577873E+001  +1.4187486272E+000 -9.7500577992E+000 
7267420.526 +1.5861210839E+000 +6.7084147961E+000  +9.3576032358E-003 +2.4111076047E+001  +3.1400109918E-002 -4.9300438061E+000  +1.2879428541E+000 -1.1798910484E+001 
7392565.707 +1.3519972625E+000 +2.0982689743E-001  +1.7088342092E-002 +2.9460578872E+001  +1.2670488476E-002 -3.7760873831E+001  +1.2408031944E+000 -5.6084812190E+000 
7517710.889 +1.0879360618E+000 +7.4532446277E-001  +2.0550350907E-002 +3.3880130868E+001  +1.3407571101E-002 +3.3040656796E+001  +1.1107906222E+000 -1.3366715923E+001 
7642856.070 +1.0773081889E+000 +2.4415791813E+000  +1.6518777394E-002 +1.9653258875E+001  +2.5962967991E-002 +1.5499582167E+001  +9.4973898795E-001 -8.4019382995E+000 
7768001.252 +9.0306818223E-001 -4.9177500801E+000  +1.7560501644E-002 -5.7719243455E+000  +1.2935595592E-002 +2.1615494613E+001  +9.3612132414E-001 -4.6348625941E+000 
7893146.433 +8.6601277653E-001 +4.6162873167E+000  +1.3466334545E-002 +1.6208327480E+001  +1.1230972639E-002 +5.0356412657E+001  +1.0313705906E+000 -4.7202470796E+000 
8018291.615 +7.8785844593E-001 +1.1518631878E+001  +9.6379528183E-003 +3.4602312113E+001  +1.2947119028E-002 +6.8611969761E+001  +8.1874209493E-001 -2.6556331468E+000 
8143436.796 +7.2647793621E-001 +5.3929646537E+000  +1.6209948577E-002 +4.9906747010E+000  +1.4900092024E-002 +2.4349966654E+001  +7.4618666957E-001 -5.1282023210E+000 
8268581.977 +6.3222530203E-001 +9.6507102572E+000  +9.5342343671E-003 -3.0104967015E+000  +7.8219307810E-003 +1.0728959724E+001  +7.5382981822E-001 -2.7335246039E+000 
8393727.159 +7.4100417891E-001 +9.9583607069E+000  +1.1490773585E-002 +2.1921179726E+001  +1.2749794982E-002 +3.3952590962E+001  +7.1778305734E-001 -3.7615263033E+000 
8518872.340 +6.8166934300E-001 +7.4913915759E+000  +1.2532895130E-002 +2.5961907754E+001  +1.1423416477E-002 +1.9446656592E+001  +6.3794333721E-001 +1.9307316875E+000 
8644017.522 +7.3433296828E-001 +9.4004843978E+000  +8.6836091510E-003 +2.5891946866E+001  +1.1353969631E-002 +1.8036642709E+001  +6.9229011311E-001 +2.9446528233E+000 
8769162.703 +5.9685841195E-001 +4.7923570598E+000  +1.5317745963E-002 +7.9921979862E+000  +1.7359924917E-002 +2.3247393718E+001  +6.6779111587E-001 +3.6983399330E+000 
8894307.885 +5.9407398360E-001 +6.7760912269E+000  +1.1340413483E-002 +1.6146167520E+001  +8.0663691973E-003 +2.7983627784E+001  +5.8861047484E-001 +2.5083699795E+000 
9019453.066 +6.3760556935E-001 +5.1729454020E-002  +1.6408340429E-002 +1.1469070465E+001  +1.1205881403E-002 +3.2382313694E+001  +6.2297021296E-001 +3.6748957565E+000 
9144598.248 +5.3097338615E-001 +6.8124357210E+000  +1.1166211668E-002 +1.9540963554E+001  +1.3651346879E-002 +2.4496289878E+001  +5.9579612331E-001 +5.8569442121E-001 
9269743.429 +5.9632039470E-001 +2.8771294228E+000  +1.0770258539E-002 +3.2680017241E+000  +1.3931074658E-002 +2.5800035779E+001  +6.1115415990E-001 -3.0950517152E+000 
9394888.611 +5.6386992307E-001 +1.6764496407E-001  +9.5603257867E-003 +7.9855189676E+000  +1.2540357121E-002 +1.1414290057E+001  +6.1979307859E-001 -4.0310800402E-001 
9520033.792 +5.3566431370E-001 -1.4427164175E+000  +1.0822200629E-002 +2.1470547809E+001  +1.5676315359E-002 +1.9056314791E+001  +5.9751638430E-001 -4.1791104964E+000 
9645178.974 +5.6212166613E-001 +3.2823862107E+000  +1.2222212989E-002 +9.8296789698E+000  +1.2660206099E-002 +3.6243112701E+001  +5.6231699976E-001 -2.9723284153E+000 
9770324.155 +5.5942682765E-001 +4.7144616376E-001  +1.2081008397E-002 +8.8177935511E+000  +1.0984345747E-002 +2.7562537585E+001  +5.8191982524E-001 -5.6487269580E+000 
9895469.337 +5.1735002156E-001 +1.0673042704E-001  +1.1824782280E-002 -2.6344757927E+000  +1.6383889257E-002 +3.4010363740E+001  +5.8582391281E-001 -5.4851323277E+000 
10020614.518 +5.4983436760E-001 -1.9856247278E+000  +1.2301620152E-002 +1.8073803137E+001  +1.2309373399E-002 +3.6683096212E+001  +5.9496301334E-001 -7.8294901324E+000 
10145759.700 +5.7424361342E-001 +3.2880823588E+000  +1.1604091631E-002 +1.2882708714E+001  +1.4006784644E-002 +3.0918670259E+001  +5.7009266780E-001 -5.7525632593E+000 
10270904.881 +5.2552452747E-001 +2.6388347038E-001  +1.5172471298E-002 +2.6211313455E+001  +1.4028584287E-002 +3.9968140948E+001  +5.9242184157E-001 -3.4649440307E+000 
10396050.063 +5.9360889324E-001 +5.9865337322E+000  +1.2893221538E-002 +6.4426062802E+000  +1.3877615080E-002 +3.6692615835E+001  +5.9000159415E-001 -3.5533844878E+000 
10521195.244 +5.0701402426E-001 +7.0929714122E+000  +1.1743105614E-002 +1.7885408168E+001  +1.3628131246E-002 +2.0747943148E+001  +5.6184597409E-001 +1.2792168236E+000 
10646340.426 +5.6428241309E-001 +6.0129688147E+000  +1.4262184615E-002 +1.5185895963E+001  +1.2465425422E-002 +3.7674589429E+001  +5.8956500196E-001 -1.5054991206E+000 
10771485.607 +5.6167229614E-001 +1.1124186064E+001  +1.3925681019E-002 +3.3287606554E+001  +1.3517630574E-002 +2.6166456101E+001  +5.9472879449E-001 -1.7473025701E+000 
10896630.788 +5.6456402853E-001 +3.7888090533E+000  +1.3860077937E-002 +2.0457850309E+001  +1.3046690900E-002 +2.7311904724E+001  +5.6813610541E-001 +3.1593526611E+000 
11021775.970 +6.1309355955E-001 +9.9881748621E+000  +1.4973986712E-002 +1.9825277369E+001  +1.5013742579E-002 +2.5725636832E+001  +5.9227116232E-001 -2.7108842381E-001 
11146921.151 +5.9161157640E-001 +6.9305648879E+000  +1.3872377241E-002 +2.1656810459E+001  +1.4778754364E-002 +3.9875256664E+001  +6.1864297265E-001 +8.5986034883E-001 
11272066.333 +5.7672719886E-001 +9.5408478202E+000  +1.3149814996E-002 +1.7716727079E+001  +1.2371723295E-002 +3.4608891650E+001  +6.3204801670E-001 +1.9584515954E+000 
11397211.514 +5.9096951603E-001 +6.2493557725E+000  +1.4391539372E-002 +1.4692501529E+001  +1.3921291331E-002 +3.3354264055E+001  +6.3061614390E-001 +1.6732447443E+000 
11522356.696 +6.3304372258E-001 +5.6809523980E+000  +1.3197255538E-002 +1.6854493263E+001  +1.5010502189E-002 +2.8538273525E+001  +6.3715815575E-001 +5.2514746748E-001 
11647501.877 +6.2785200142E-001 +7.5418961013E+000  +1.3006559130E-002 +2.7711240471E+001  +1.3896244208E-002 +2.9285927750E+001  +6.5820500267E-001 +2.3552316440E+000 
11772647.059 +6.3364676734E-001 +7.5533852443E+000  +1.3532223168E-002 +1.8498046417E+001  +1.6183189108E-002 +3.2317168046E+001  +6.5271964129E-001 +2.8296863482E+000 
11897792.240 +6.6296774715E-001 +3.0977931597E+000  +1.5219161071E-002 +2.1805177926E+001  +1.6195407102E-002 +3.3839904437E+001  +6.9755686498E-001 +3.0839124438E+000 
12022937.422 +6.7893677117E-001 +2.4879164172E+000  +1.5128810270E-002 +2.2252475716E+001  +1.3472540350E-002 +3.1261029044E+001  +6.7901584087E-001 +7.5247414742E-001 
12148082.603 +6.5186847686E-001 +3.8568012792E+000  +1.4420357870E-002 +2.0296561990E+001  +1.6318340914E-002 +2.9627239876E+001  +6.8120037965E-001 +6.3320125274E-001 
12273227.785 +7.0120220825E-001 +4.4146929762E+000  +1.4719687348E-002 +2.0422096335E+001  +1.5334827883E-002 +3.6856329535E+001  +7.1339172775E-001 +1.1356830752E+000 
12398372.966 +7.0328903980E-001 +1.5964810396E+000  +1.3511665696E-002 +2.3333916918E+001  +1.4126472277E-002 +3.2143570982E+001  +7.1324629756E-001 +1.1630303492E+000 
12523518.148 +7.1535251192E-001 +1.2411156820E+000  +1.4734499788E-002 +2.4410276962E+001  +1.5474998315E-002 +3.6417866657E+001  +7.3807452772E-001 -7.5587219486E-002 
12648663.329 +7.3850758117E-001 +3.3110792495E+000  +1.3245063274E-002 +1.9580658903E+001  +1.4515449517E-002 +2.9567887872E+001  +7.5091442316E-001 +4.1688371201E-001 
12773808.511 +7.5090605640E-001 +8.2662248145E-001  +1.6551838318E-002 +2.5486380121E+001  +1.5933815626E-002 +2.6184839281E+001  +7.5345857334E-001 -1.0801441910E+000 
12898953.692 +7.7164578547E-001 +6.3417998191E-001  +1.4810193292E-002 +2.6016466862E+001  +1.7772969921E-002 +2.8003466196E+001  +7.8435750803E-001 -8.9161706033E-001 
13024098.874 +7.6935180790E-001 +2.5760608283E-001  +1.7702867877E-002 +2.4404735138E+001  +1.5659743268E-002 +3.0433177523E+001  +7.8153735979E-001 +6.9806178101E-003 
13149244.055 +7.6766492249E-001 +1.1426743823E+000  +1.6827457296E-002 +2.7432095669E+001  +1.7159127521E-002 +3.1722630553E+001  +7.6101020319E-001 -2.2356864340E+000 
13274389.237 +7.9664350118E-001 -5.1221946049E-001  +1.5440422535E-002 +2.3990058830E+001  +1.5552112954E-002 +3.0716015477E+001  +8.4275607728E-001 -2.4151787537E+000 
13399534.418 +8.3351288454E-001 -8.0397987138E-001  +1.6356202937E-002 +2.9831843854E+001  +1.6280385523E-002 +2.8418000565E+001  +8.2381671151E-001 -2.4044743697E+000 
13524679.599 +8.4666620831E-001 -2.3295089408E+000  +1.5063405210E-002 +2.7095506803E+001  +1.6526592653E-002 +2.8934696479E+001  +8.4150781637E-001 -1.6628551575E+000 
13649824.781 +8.7837909748E-001 -1.2224092597E+000  +1.5880333539E-002 +2.3939771491E+001  +1.7416409542E-002 +2.9213259424E+001  +8.6129855581E-001 -1.5310619839E+000 
13774969.962 +8.6504712773E-001 -2.4484474469E+000  +1.6955625884E-002 +2.5815655695E+001  +1.6578217934E-002 +2.7648808289E+001  +8.7711043301E-001 -4.2601996784E+000 
13900115.144 +9.1875998392E-001 -3.8919379892E+000  +1.7006957934E-002 +2.9348334054E+001  +1.5802279114E-002 +2.5040551227E+001  +8.9154856267E-001 -3.6773896205E+000 
14025260.325 +9.2147143544E-001 -4.1307025614E+000  +1.7595718120E-002 +2.5976249266E+001  +1.6487935813E-002 +2.9504319182E+001  +9.4610136714E-001 -4.5883416360E+000 
14150405.507 +9.3072924091E-001 -4.5910950338E+000  +1.7377946126E-002 +2.5342106807E+001  +1.7036520009E-002 +2.7062656957E+001  +9.3651714428E-001 -4.7252786693E+000 
14275550.688 +9.5467780840E-001 -4.9774533159E+000  +1.7422151475E-002 +2.6254931114E+001  +1.8145626657E-002 +3.0919474690E+001  +9.7794139863E-001 -4.6084704062E+000 
14400695.870 +9.7401844662E-001 -6.1557524326E+000  +1.7139823870E-002 +2.5606444449E+001  +1.6610890045E-002 +2.8077955011E+001  +9.8051523863E-001 -4.5240017436E+000 
