!  2-Port S-parameters saved by WinCal
! VAR MeasName=S-Parameters (CALIBRATED_DATA) read from VNA (P5004A)
! VAR MeasDate=27/08/2024 16:24:37
! VAR NAME=S2_r1c9_SET3_9k-100M_1
! VAR FILENAME=S2_r1c9_SET3_9k-100M_1.S2P
! VAR DATE=27/08/2024 16:24:37
! VAR PHYS_PORTS=1,2
! VAR ObjTypeName=DATASET
! VAR IndexType=Frequency
!
# Hz S MA R 50
9000.000 +6.2126918900E-002 -1.7356146670E+002  +3.0039054585E-003 -6.9445530737E+001  +6.1117792953E-003 +1.3241302750E+002  +3.2081905209E-001 -1.4125915646E+002 
134145.181 +1.1065664791E-001 +1.7015845754E+002  +6.1697213601E-004 +7.8877948080E+001  +5.7742173445E-004 +4.4829975254E+001  +2.3815213357E-001 -1.7016206719E+002 
259290.363 +1.1347117140E-001 +1.6985697769E+002  +6.6342774118E-004 -1.6009527961E+002  +2.9999467641E-004 -1.1714474546E+002  +2.4252974463E-001 -1.7051740889E+002 
384435.544 +1.1495237075E-001 +1.7001866070E+002  +2.2559356733E-004 -1.6593512350E+002  +8.8668435075E-004 +1.2939112322E+002  +2.3533238941E-001 -1.6810865764E+002 
509580.726 +1.1367069138E-001 +1.7093055981E+002  +6.1130311987E-004 -9.3600184250E+001  +8.1162310034E-004 -1.2327883345E+002  +2.4633898984E-001 -1.6602046286E+002 
634725.907 +1.1833899481E-001 +1.7116507331E+002  +3.8161454022E-004 +4.0249758491E+001  +9.8406574305E-004 +9.3321553460E+001  +2.4812828329E-001 -1.6467324855E+002 
759871.089 +1.1725509202E-001 +1.7162373121E+002  +1.8662098850E-004 -1.3253191629E+002  +1.3124290595E-004 +2.3604664484E+001  +2.4524933740E-001 -1.6631122943E+002 
885016.270 +1.1901856180E-001 +1.6989671710E+002  +4.4871380597E-004 -8.5470522152E+001  +1.2212256217E-003 +5.1537450366E+001  +2.5041003495E-001 -1.6541179651E+002 
1010161.452 +1.1896047666E-001 +1.7044704086E+002  +1.0644261801E-003 +7.0436923520E+001  +1.4776264144E-003 +1.6706032203E+002  +1.9405293318E-001 -1.7142180176E+002 
1135306.633 +1.1632795937E-001 +1.6787672114E+002  +1.6533297229E-003 -3.5629348603E+001  +4.9845257857E-003 +9.9370639814E+001  +1.7864889672E-001 -1.4926845043E+002 
1260451.815 +1.1948630246E-001 +1.7402803421E+002  +9.7600076602E-004 -6.0163523443E+001  +3.2624769203E-003 +3.4006357775E+001  +2.3953085477E-001 -1.5771425929E+002 
1385596.996 +1.2808014500E-001 +1.7312378230E+002  +8.5293495212E-004 -6.6694144925E+001  +1.6145952500E-003 +3.4215591449E+001  +2.6777639066E-001 -1.6153724804E+002 
1510742.178 +1.2476980947E-001 +1.7084689538E+002  +2.0786006470E-003 +7.3489403404E+001  +4.8309391047E-004 -6.1892294907E+001  +2.3449055358E-001 -1.6178905552E+002 
1635887.359 +1.2888252117E-001 +1.7044798114E+002  +2.8759765300E-003 -1.3716313974E+001  +9.0702433891E-004 -8.7710735258E+001  +2.5351887524E-001 -1.5439960418E+002 
1761032.541 +1.2690285645E-001 +1.6947874930E+002  +1.1181268138E-003 -1.4356193672E+002  +1.6742183708E-003 -8.3853802414E+001  +2.2699236785E-001 -1.5653406111E+002 
1886177.722 +1.2806108274E-001 +1.6765636630E+002  +2.8258993430E-003 +4.4324913225E+001  +1.1737995611E-003 -1.1408404388E+001  +1.8930261146E-001 -1.5920796209E+002 
2011322.904 +1.3117652592E-001 +1.6528005482E+002  +1.5089299587E-003 +1.3071975158E+002  +1.2000555146E-003 -6.6609990470E+001  +1.9043473277E-001 -1.7298062287E+002 
2136468.085 +1.3990400036E-001 +1.6392092078E+002  +5.5945095210E-004 +7.6312379358E+001  +6.5371766762E-004 -7.5853978664E+001  +2.0428391379E-001 -1.6995751553E+002 
2261613.267 +1.3543728684E-001 +1.6271566288E+002  +1.0159320064E-003 -7.1382975940E+000  +2.2911282259E-003 -8.0524205854E+001  +2.0003527372E-001 +1.7418949727E+002 
2386758.448 +1.3707339866E-001 +1.6341000795E+002  +1.8413723595E-003 -1.0414098736E-001  +5.8555389868E-003 -4.0005729443E+001  +1.4469784023E-001 +1.7307368587E+002 
2511903.630 +1.3537112630E-001 +1.6798350482E+002  +4.1297636297E-003 -1.6559611698E+002  +2.2251379396E-003 -1.3457945240E+002  +2.4477186202E-001 +1.6580748303E+002 
2637048.811 +1.1753210209E-001 +1.5964294321E+002  +8.4193356798E-003 +1.0884135200E+002  +1.1542562554E-002 +1.7214638361E+002  +4.4872635040E-001 +1.5569261811E+002 
2762193.992 +1.0495874819E-001 +1.7166493678E+002  +3.5850616671E-002 +1.3872001228E+002  +4.5108955753E-002 +4.8371281359E+001  +1.3540161463E+000 +1.7533670712E+002 
2887339.174 +1.1604075448E-001 +1.7420521301E+002  +3.8590890272E-003 -1.0404273020E+002  +1.9629942771E-002 -1.1504191976E+000  +6.6295431435E-001 -1.0161571615E+002 
3012484.355 +1.1869771663E-001 +1.6100290695E+002  +2.0400122939E-002 -3.0242422500E+001  +1.5224618334E-002 -8.4489197740E+001  +2.8784723200E-001 -8.3508556817E+001 
3137629.537 +1.3414190461E-001 +1.7584267258E+002  +4.2576340568E-003 -7.4813577829E+000  +3.1087138043E-003 +1.5896081095E+002  +7.4037976436E-002 -1.2928995250E+002 
3262774.718 +1.1273980864E-001 +1.6464373374E+002  +8.9283844148E-003 -3.4419485013E+001  +2.7655592484E-003 +1.0470280044E+002  +1.4700349128E-001 -7.4978730724E+001 
3387919.900 +1.1217250388E-001 +1.5090599111E+002  +2.5790295603E-002 +2.3061527298E+001  +6.5575420859E-003 +1.9361174849E-001  +1.0511683094E-001 +8.7417294019E+001 
3513065.081 +1.4839335728E-001 +1.4452697050E+002  +3.9039556189E-002 +1.0723742200E+002  +2.3586024990E-002 +1.0083523246E+001  +1.3567727186E+000 +1.4227396297E+002 
3638210.263 +1.5109679209E-001 +1.4550629322E+002  +1.1114920723E-002 +1.1168844134E+002  +1.8558275885E-002 -1.4468932406E+001  +2.6526423610E-001 +1.2086201965E+002 
3763355.444 +1.6124809321E-001 +1.5515272847E+002  +1.1190630388E-002 +1.3679790935E+002  +2.4233214316E-002 -1.3182893095E+001  +5.5032612700E-001 +9.1818164024E+001 
3888500.626 +1.8093313237E-001 +1.5439759524E+002  +8.4114623851E-003 +6.1172645913E+001  +8.6632191739E-003 +3.8791862232E+000  +9.4819993891E-001 +1.2099647843E+002 
4013645.807 +1.8059237459E-001 +1.5095550997E+002  +1.5794429402E-002 +1.5662520725E+001  +1.8314881241E-002 -1.5804468751E+001  +3.3382352868E-001 -2.4223081430E+001 
4138790.989 +1.6108259299E-001 +1.5412458979E+002  +1.3327997210E-002 +7.5890805814E+001  +6.2931762827E-003 +9.9148368258E+001  +4.8281562767E-001 +1.1805389365E+002 
4263936.170 +1.9784264931E-001 +1.4440031061E+002  +1.1727576880E-002 +1.5611327625E+002  +3.3102373309E-003 +1.3487498943E+002  +3.5164141490E-001 +1.3952145418E+002 
4389081.352 +1.9399053822E-001 +1.3980542196E+002  +7.5254557935E-003 +9.4155768072E+001  +2.0011349285E-002 +6.4950856115E+001  +7.2903088296E-001 +1.4104422400E+002 
4514226.533 +2.5686980836E-001 +1.3545011106E+002  +4.1758415497E-002 +1.0284648622E+002  +3.5406283578E-002 +9.4830088558E+001  +9.4244794319E-001 +9.4630239363E+001 
4639371.715 +2.7619634589E-001 +1.3431437126E+002  +2.9590485569E-002 +1.4882328659E+002  +2.9821347673E-002 +9.8599721787E+001  +1.3323999634E+000 +1.2672368612E+002 
4764516.896 +4.1506017888E-001 +1.3895590959E+002  +3.2224348313E-002 -1.7564709125E+002  +1.2669622798E-002 +1.6805549040E+002  +1.9687326628E+000 +1.3641072614E+002 
4889662.078 +4.6832937560E-001 +1.3443905758E+002  +1.1133457005E-001 -4.3961896760E+001  +1.3104239777E-001 -2.8044641725E+001  +9.7630107604E+000 -1.3219454933E+002 
5014807.259 +3.7581594802E-001 +1.3166048984E+002  +1.0283509300E-001 +1.5884573623E+002  +2.9330749854E-001 +1.6891457620E+002  +8.4769490252E+000 +1.3294909513E+002 
5139952.441 +4.3470543616E-001 +1.3537115061E+002  +5.2175493122E-002 +7.2828630699E+001  +3.7509834781E-002 +3.7906605801E+001  +1.6037553261E+000 +4.8294887465E+001 
5265097.622 +3.8757009576E-001 +1.3833048516E+002  +2.2920149914E-002 -1.6313537068E+002  +5.3931954311E-002 +1.1057317554E+002  +2.6703605384E+000 +1.0364740120E+002 
5390242.804 +3.6121352856E-001 +1.2832006794E+002  +4.8192462959E-002 +9.0054115489E+001  +2.3014907992E-002 +3.8071128290E+001  +2.2306372146E+000 +8.7590976851E+001 
5515387.985 +4.4441562762E-001 +1.2944972666E+002  +2.0611581561E-002 +9.5016016865E+001  +3.9939393618E-002 +1.3398654613E+002  +1.2784405063E+000 +1.2919657873E+002 
5640533.166 +4.9224095633E-001 +1.3170810591E+002  +6.2391015651E-002 +1.1716742899E+002  +4.0949594340E-002 +1.4004337033E+002  +3.3553351873E+000 +9.4444894619E+001 
5765678.348 +5.3202773713E-001 +1.2537516292E+002  +3.9148742535E-002 +1.0214290806E+002  +2.1195724802E-002 +6.2291650028E+001  +1.5369649930E+000 +8.3926572774E+001 
5890823.529 +6.5266071040E-001 +1.2475173549E+002  +3.1887094202E-002 +5.3558421016E+001  +2.4726152913E-002 +3.4359406984E+001  +1.6434150556E+000 +4.0359020829E+001 
6015968.711 +6.1901518641E-001 +1.1817125602E+002  +3.4809771183E-002 +8.1947787890E+001  +3.5212677044E-002 +6.2468425497E+001  +1.1868193827E+000 +7.1425742060E+001 
6141113.892 +7.4737726690E-001 +1.1602051160E+002  +5.0556076650E-002 +5.8035578036E+001  +4.9689238070E-002 +5.0371301860E+001  +1.5504247795E+000 +4.1917964367E+001 
6266259.074 +6.9386086443E-001 +1.0671506589E+002  +2.7760373086E-002 +4.3384777096E+001  +6.5018662814E-002 +4.8649539297E+001  +1.7761174119E+000 +1.6176472095E+001 
6391404.255 +1.0328022054E+000 +8.6681701374E+001  +4.9507072375E-002 +4.7229394309E+001  +5.9694384998E-002 +2.1997547095E+001  +1.7039518086E+000 +6.1398015267E+000 
6516549.437 +8.7133674585E-001 +9.7470473331E+001  +3.3280862976E-002 +4.0084190926E+001  +3.4778098566E-002 -2.4540260684E+000  +1.3678684213E+000 +7.1655369144E+000 
6641694.618 +1.5994385439E+000 +8.4180968309E+001  +6.3643812554E-002 +6.8185696064E+001  +3.6362050507E-002 +4.8376534776E+001  +1.3207090704E+000 +7.8122919877E+000 
6766839.800 +1.5972444323E+000 +4.1845457341E+001  +5.5635643825E-002 +3.5334871316E+000  +3.0289860753E-002 +3.6242102069E+001  +1.4909903709E+000 -7.7150160901E+000 
6891984.981 +1.3180916882E+000 +2.5020345466E+001  +4.1739833219E-002 +2.3925291721E+001  +5.1921040547E-002 -1.0349812466E+001  +1.2504402602E+000 -4.3506796774E+000 
7017130.163 +1.7305679859E+000 +1.5211435143E+001  +4.9817947594E-002 +1.8527292588E+001  +4.8368858743E-002 -1.0749717981E+001  +1.4752584484E+000 -2.5970638589E+000 
7142275.344 +1.4766902514E+000 +3.2691713215E+000  +4.1614662693E-002 +6.9251722225E-001  +2.8408391253E-002 +9.4717313000E+000  +1.4642517801E+000 -1.4894927483E+001 
7267420.526 +1.3908638166E+000 +8.8953054705E+000  +2.2427685119E-002 -5.4138566239E+000  +2.6427238630E-002 +2.6412072585E+001  +1.2780852771E+000 -1.1567327229E+001 
7392565.707 +1.4639152946E+000 +2.8429061389E+000  +2.2604474796E-002 +1.6875365572E+001  +2.5339933838E-002 +3.0037002280E+001  +1.4251808433E+000 -7.7752502343E+000 
7517710.889 +1.1649235399E+000 +1.4357465031E+000  +2.1108493008E-002 -1.2009022920E-001  +1.5142631661E-002 +2.3029296128E+001  +1.1951834618E+000 -1.1444031179E+001 
7642856.070 +9.9623388160E-001 -2.4966942548E+000  +1.6073858005E-002 +3.4491623502E+001  +2.2704444956E-002 +1.8474943959E+001  +1.0566738685E+000 -7.9907431403E+000 
7768001.252 +9.7279472130E-001 +3.0864985774E+000  +1.8027111564E-002 +1.4936625970E+001  +1.7975773148E-002 +2.2760728942E+001  +1.0171692865E+000 -2.9279731693E-001 
7893146.433 +9.1400954175E-001 +5.0438773339E+000  +2.0263467856E-002 +1.1722008662E+001  +1.3374483025E-002 +2.8829005546E+001  +9.6705321757E-001 -6.7514770700E+000 
8018291.615 +9.0218223442E-001 +3.0489798391E+000  +2.0120908938E-002 +2.2918304741E+001  +7.2624152685E-003 +1.3494405519E+001  +8.8033825862E-001 -1.3986074515E+000 
8143436.796 +7.8970595595E-001 +6.6328676762E+000  +1.4666905852E-002 -2.0301812365E+000  +2.1503499784E-002 +2.4283598732E+001  +8.4411659270E-001 -9.4505085874E-001 
8268581.977 +7.6050845080E-001 +1.0898857531E+001  +1.5895202018E-002 +6.9193177040E+000  +1.7633580751E-002 +3.3881525610E+000  +8.0821009904E-001 -3.3771468208E+000 
8393727.159 +7.0059828686E-001 +4.3552056446E+000  +2.1461137992E-002 +9.7485801649E+000  +1.6719548332E-002 -2.1998436508E-001  +7.7229330621E-001 -4.5166361939E+000 
8518872.340 +6.0771683705E-001 +5.4961416998E+000  +1.8932581947E-002 -1.0788891089E+001  +1.8013817962E-002 +2.6758739730E+001  +7.5940330086E-001 +1.1430246213E+000 
8644017.522 +6.5593226981E-001 +1.6458357897E+001  +1.1518468447E-002 +2.1887117944E+001  +1.6764751179E-002 +1.9236770785E+001  +6.6635377951E-001 +4.7215141850E+000 
8769162.703 +6.4923344686E-001 +7.3076698207E+000  +1.7054932359E-002 -2.7955504569E-002  +1.8270305305E-002 +7.9367505981E+000  +6.4400462823E-001 +3.6527635069E+000 
8894307.885 +5.8058812129E-001 +1.0764394125E+001  +1.8755042854E-002 +1.6541485507E+000  +1.4966983699E-002 -8.2659246451E-001  +6.0417696041E-001 -3.9755827650E+000 
9019453.066 +6.1072228894E-001 +9.2434809663E+000  +1.6603212294E-002 +7.5297038352E-001  +1.5533793001E-002 +3.2595262186E+000  +6.0703951257E-001 -9.2702778331E-001 
9144598.248 +5.8792842835E-001 +6.9862093628E+000  +1.6951429427E-002 +5.8936972983E+000  +1.3931857263E-002 +2.7691636529E+001  +6.7167976021E-001 -1.0616421193E+000 
9269743.429 +6.2748826422E-001 +6.2014301834E+000  +1.1374719817E-002 +1.4732649511E-002  +1.4972084533E-002 +3.1697374195E+001  +6.0560109434E-001 -1.1669768068E+000 
9394888.611 +5.5968101893E-001 +3.4476656352E+000  +1.7862975766E-002 +5.7613557612E+000  +1.1093098474E-002 +2.5301633902E+001  +5.9601142329E-001 -2.9158927770E+000 
9520033.792 +4.9004484493E-001 +5.1001946584E+000  +1.7238927481E-002 +8.2784469393E+000  +1.6161564655E-002 +3.1417422460E+001  +5.9162746669E-001 -6.1136745031E+000 
9645178.974 +5.8630599659E-001 +2.2681310868E+000  +1.5498194774E-002 +1.8531710173E+001  +2.0019287313E-002 +2.6950603628E+001  +6.2787532200E-001 -6.4057142540E+000 
9770324.155 +6.0595673011E-001 -1.0459547715E+000  +1.5166001140E-002 +1.1621127989E+001  +1.6479494826E-002 +2.5350037602E+001  +5.5395523539E-001 -4.5088602680E+000 
9895469.337 +5.3620074601E-001 +1.3679205586E+000  +1.7150828535E-002 +1.0747332946E+001  +1.3571607320E-002 +2.6199590510E+001  +5.8935980871E-001 -3.9383528631E+000 
10020614.518 +5.5460425061E-001 +5.2199913686E+000  +1.7849938256E-002 +4.1951777438E+000  +1.9816016342E-002 +1.5219168311E+001  +5.8778429582E-001 -7.2740770291E+000 
10145759.700 +5.3326428534E-001 +7.4104132655E+000  +1.6076831764E-002 +8.1218635552E+000  +1.6899114313E-002 +2.9566594017E+001  +5.7084971113E-001 -6.4136493813E+000 
10270904.881 +5.2559154755E-001 +6.4493382298E+000  +1.3879439281E-002 +2.2937058847E+001  +1.6437893788E-002 +2.1540833924E+001  +5.8203326509E-001 -5.6202782241E+000 
10396050.063 +5.2965141159E-001 +3.6044636972E+000  +1.7061918526E-002 +1.0992289868E+001  +1.4189046352E-002 +2.9742847539E+001  +5.4733309744E-001 -1.6389439282E+000 
10521195.244 +5.4460024689E-001 +6.2223757416E+000  +1.5636392892E-002 +1.3610484160E+001  +1.9416766839E-002 +3.0020421461E+001  +5.6783554444E-001 -3.5355187392E+000 
10646340.426 +5.5148647118E-001 +7.9732519407E+000  +1.6319396000E-002 +7.4411488762E+000  +1.8231041496E-002 +2.4427064418E+001  +5.9595122609E-001 -7.9952433389E-001 
10771485.607 +5.3206014623E-001 +8.9056772723E+000  +1.8418770641E-002 +1.2954653972E+001  +1.7158947452E-002 +2.7927986198E+001  +6.0014602061E-001 +7.4160731061E-001 
10896630.788 +5.6915024509E-001 +5.9166182290E+000  +1.8445880570E-002 +1.7022826154E+001  +1.4948180131E-002 +2.6423058307E+001  +5.9329787935E-001 +4.6134372031E-001 
11021775.970 +5.8263484894E-001 +5.9163312632E+000  +1.5937634329E-002 +2.2355632953E+001  +1.7382206026E-002 +3.2135919780E+001  +6.1724546464E-001 +2.1062656535E+000 
11146921.151 +5.8934887063E-001 +1.0337541165E+001  +1.6282212370E-002 +1.4074472551E+001  +1.6149626665E-002 +2.9389248333E+001  +6.2877689396E-001 +5.5660055400E-001 
11272066.333 +5.6538774157E-001 +5.6831423241E+000  +1.4719408805E-002 +1.9322972350E+001  +1.5717211370E-002 +3.2243337163E+001  +6.0350626988E-001 +3.9810276595E+000 
11397211.514 +5.8049727705E-001 +7.0161154729E+000  +1.7390590129E-002 +1.4437253664E+001  +1.7071778611E-002 +2.7475134010E+001  +6.3005841163E-001 +1.4386507809E+000 
11522356.696 +5.9961238301E-001 +6.4242659123E+000  +1.7113529102E-002 +1.1311075979E+001  +1.7668530960E-002 +2.6375173457E+001  +6.1601757572E-001 +2.5118225256E+000 
11647501.877 +6.3037907857E-001 +4.7157060849E+000  +1.6472503490E-002 +2.6488086124E+001  +1.7286057707E-002 +2.7929741327E+001  +6.4056805016E-001 +1.8070418801E+000 
11772647.059 +6.3446002295E-001 +8.1247151595E+000  +1.7704328341E-002 +1.1804176921E+001  +1.9091998731E-002 +2.9141566692E+001  +6.5537088343E-001 -1.6057693926E+000 
11897792.240 +6.2379567495E-001 +7.3555697388E+000  +1.8154302398E-002 +2.2839360741E+001  +1.8312478854E-002 +2.4166065656E+001  +6.9459626165E-001 -1.1033079888E+000 
12022937.422 +6.4761870396E-001 +5.9136673323E+000  +1.9121527126E-002 +1.6354243845E+001  +1.9372594881E-002 +2.9251385151E+001  +6.8113644514E-001 -6.4730025904E-001 
12148082.603 +6.7986611327E-001 +4.5585175425E+000  +1.8089370400E-002 +1.4063315820E+001  +1.7698261411E-002 +2.2806336756E+001  +6.6646334691E-001 +2.2851068458E+000 
12273227.785 +6.6601903426E-001 +1.7609748133E+000  +2.0739413194E-002 +2.1622547989E+001  +1.6984427452E-002 +3.2774639472E+001  +7.1386236291E-001 -2.7310579814E-001 
12398372.966 +7.0060711056E-001 +4.6276931854E+000  +1.7536989890E-002 +2.0342526680E+001  +1.8005239202E-002 +3.0842624786E+001  +6.8743303821E-001 -3.8366339838E-001 
12523518.148 +7.0775623504E-001 +4.7447756522E+000  +2.0287015336E-002 +2.1984164830E+001  +1.9589435644E-002 +2.4224928170E+001  +7.0365689018E-001 -6.1480531115E-001 
12648663.329 +7.1729425930E-001 -7.9976629848E-002  +2.0982027158E-002 +1.7632181092E+001  +1.8937793085E-002 +2.9539848479E+001  +7.3079443505E-001 +2.3495164893E+000 
12773808.511 +7.2941711440E-001 +1.0840918235E+000  +1.9363561519E-002 +2.0737689824E+001  +1.8975890563E-002 +2.3491854601E+001  +7.4586939222E-001 -7.5447435263E-001 
12898953.692 +7.3269444823E-001 -1.8919880980E-001  +1.9332174456E-002 +1.8761129044E+001  +1.9873771576E-002 +2.5370805436E+001  +7.5271561415E-001 -1.0108770132E+000 
13024098.874 +7.7118418798E-001 +5.2429840998E-001  +1.8842545774E-002 +2.1102103490E+001  +1.9107492624E-002 +2.6386033422E+001  +7.7322488235E-001 -2.0554637712E+000 
13149244.055 +7.8562008659E-001 +7.6948535305E-002  +2.0198980522E-002 +1.9183329868E+001  +2.0485452340E-002 +2.3997600427E+001  +8.0565277808E-001 -3.0053112567E+000 
13274389.237 +8.1479871118E-001 +3.0790598290E-002  +2.0210398993E-002 +2.1521671192E+001  +2.1014893725E-002 +2.5267243523E+001  +7.9703173061E-001 +9.2704169820E-002 
13399534.418 +8.1656244307E-001 -1.0672269573E+000  +2.1220463059E-002 +2.3992593308E+001  +2.2011468874E-002 +2.1509201390E+001  +8.2540230990E-001 -3.7810161183E+000 
13524679.599 +8.4709746954E-001 -1.9841794438E-001  +1.8715317724E-002 +2.1556790555E+001  +2.0346882891E-002 +2.6949202355E+001  +8.4857583690E-001 -2.4676727264E+000 
13649824.781 +8.3938032723E-001 -8.4267508143E-001  +2.2009632461E-002 +2.3896490242E+001  +2.1672650169E-002 +2.9051938132E+001  +8.5821870024E-001 -2.7189697674E+000 
13774969.962 +8.7158096848E-001 -3.6164744630E+000  +2.1938442469E-002 +2.2039183273E+001  +2.0021398113E-002 +2.5285796925E+001  +8.8173447854E-001 -2.1042971743E+000 
13900115.144 +8.9147943544E-001 -2.4264404562E+000  +2.2619413488E-002 +2.3301980592E+001  +2.1674558368E-002 +1.9885837534E+001  +8.9269413439E-001 -4.0126094931E+000 
14025260.325 +9.0530421961E-001 -4.2818940879E+000  +2.2980846027E-002 +2.1751641489E+001  +2.1010868487E-002 +2.5410717444E+001  +9.1494217033E-001 -3.6535978102E+000 
14150405.507 +9.2231866176E-001 -4.8372524237E+000  +2.1531474779E-002 +2.4757851298E+001  +2.1343455581E-002 +2.1990421172E+001  +9.3021417505E-001 -3.1255447348E+000 
14275550.688 +9.4669644069E-001 -4.9625813715E+000  +2.2119560437E-002 +2.2603755425E+001  +2.0033222251E-002 +2.2624200499E+001  +9.6112137174E-001 -3.7526133552E+000 
14400695.870 +9.5602784498E-001 -5.0433224453E+000  +2.1730687538E-002 +2.6058478096E+001  +2.1772793223E-002 +2.1470903726E+001  +9.7360491427E-001 -4.5353367894E+000 
