!  2-Port S-parameters saved by WinCal
! VAR MeasName=S-Parameters (CALIBRATED_DATA) read from VNA (P5004A)
! VAR MeasDate=27/08/2024 12:10:57
! VAR NAME=S2_r6c8_pristine_9k-100M_1
! VAR FILENAME=S2_r6c8_pristine_9k-100M_1.S2P
! VAR DATE=27/08/2024 12:10:57
! VAR PHYS_PORTS=1,2
! VAR ObjTypeName=DATASET
! VAR IndexType=Frequency
!
# Hz S MA R 50
9000.000 +4.2569803036E-002 -1.3166142560E+002  +2.7358563889E-002 -1.3082105347E+002  +1.6276602297E-002 -1.1793788529E+002  +2.3400533190E-001 -1.2307236362E+002 
134145.181 +1.1050883089E-001 +1.6944115146E+002  +2.8958604833E-004 -1.3180611950E+002  +2.2649622543E-004 -1.3273286110E+002  +2.3710544977E-001 -1.7059201658E+002 
259290.363 +1.1139951925E-001 +1.6995749672E+002  +4.5864774404E-004 +1.7694511343E+002  +7.2769498305E-004 -1.1662889203E+002  +2.4068996735E-001 -1.6925073109E+002 
384435.544 +1.1299419514E-001 +1.7077175798E+002  +1.3642812262E-004 +9.9070983036E+001  +4.9822373623E-004 +1.8493251130E+001  +2.4286336226E-001 -1.6964728215E+002 
509580.726 +1.1376110032E-001 +1.6994169882E+002  +1.2673095717E-004 +1.5728530577E+002  +1.1178486118E-003 +4.6483675698E+001  +2.5857241285E-001 -1.6614765605E+002 
634725.907 +1.1639373838E-001 +1.6991227971E+002  +8.9140034899E-004 -1.1118360083E+002  +2.0179507616E-004 +1.4203344873E+002  +2.3774373297E-001 -1.6809155830E+002 
759871.089 +1.1540580761E-001 +1.6991616539E+002  +1.2559836402E-004 -1.2071963152E+002  +1.3945474549E-003 -1.7961146757E+002  +2.4785333772E-001 -1.6239517020E+002 
885016.270 +1.1734014736E-001 +1.6946547208E+002  +5.4127569576E-004 +4.6194113357E+001  +1.1408560203E-003 +2.3396465285E+001  +2.3996940321E-001 -1.6536927414E+002 
1010161.452 +1.1680832904E-001 +1.7089724227E+002  +4.4852840650E-003 -4.9291766545E+001  +1.2530112022E-002 +1.6109368936E+002  +2.4871177429E-001 -5.9677587711E+000 
1135306.633 +1.1298647473E-001 +1.7029589563E+002  +2.5481132896E-003 -9.9993043229E+001  +1.3195205019E-003 -8.1857989752E+001  +1.9898345917E-001 -1.4250611410E+002 
1260451.815 +1.2016238025E-001 +1.7243066760E+002  +7.8857598220E-004 -3.3726017353E+001  +1.0887272211E-003 +1.2311392016E+002  +2.3668220496E-001 -1.6027671895E+002 
1385596.996 +1.2229600101E-001 +1.7163576595E+002  +8.9364614790E-004 +2.4341012055E+001  +5.1409065597E-004 -4.4202426867E+001  +2.6418543666E-001 -1.6124353629E+002 
1510742.178 +1.2833891975E-001 +1.7187750640E+002  +3.1524734096E-004 +4.4233342940E+001  +8.1056002089E-004 -1.8847122057E+001  +2.4870166411E-001 -1.5850083958E+002 
1635887.359 +1.2864383667E-001 +1.7077470103E+002  +7.9605240091E-004 +1.7879945096E+001  +1.6953754668E-003 +1.3715996703E+001  +2.2272731685E-001 -1.6166410561E+002 
1761032.541 +1.2830499324E-001 +1.6825060685E+002  +1.7821586055E-003 -3.9950993728E+001  +1.2774915433E-003 +1.1999575328E+002  +2.1371300743E-001 -1.6236358458E+002 
1886177.722 +1.2776439201E-001 +1.6796862158E+002  +1.6463320340E-003 -1.1303378272E+002  +3.2848677968E-004 -1.1150416889E+001  +2.1168559096E-001 -1.6345146707E+002 
2011322.904 +1.3077128174E-001 +1.6613135447E+002  +1.1527687216E-003 -4.1465603087E+001  +1.1396784927E-003 -5.2708679388E+001  +2.1105674908E-001 -1.7967513574E+002 
2136468.085 +1.3178815780E-001 +1.6352051925E+002  +3.5441157073E-003 -1.2695414756E+002  +3.2705844379E-004 +1.0590714626E+002  +2.1524035185E-001 +1.7761013904E+002 
2261613.267 +1.3148958519E-001 +1.5452896018E+002  +3.1350704121E-003 -1.7214372371E+002  +6.1133577468E-003 -1.7805858615E+002  +2.0628598151E-001 +1.6861339716E+002 
2386758.448 +1.3840654082E-001 +1.6527729785E+002  +3.9842914473E-003 +1.3521427439E+002  +3.3322320411E-003 +1.4419020357E+002  +2.4170495658E-001 +1.6678403859E+002 
2511903.630 +1.2675918450E-001 +1.5275595249E+002  +4.1604806631E-003 +1.4992850294E+002  +5.3330562845E-003 -9.2459853995E+001  +2.0890177167E-001 +9.8040338264E+001 
2637048.811 +1.3632660228E-001 +1.5961823182E+002  +8.0863189385E-003 -2.0223840678E+001  +6.6187060775E-003 -7.1672457803E+001  +2.6345240352E-001 +1.3892026853E+002 
2762193.992 +1.1826317657E-001 +1.6544158526E+002  +7.1609121163E-003 -7.9496357232E+000  +7.7639060764E-003 -3.6768821403E+001  +1.0384027979E+000 +1.7740741945E+002 
2887339.174 +9.2189439419E-002 +1.7320727324E+002  +8.0314579188E-003 +7.9680677833E+001  +2.6264777041E-002 +3.0005952310E+001  +8.4631400743E-001 -1.1190700753E+002 
3012484.355 +1.0486042194E-001 -1.7452067720E+002  +1.2856701524E-002 -8.9961321871E+001  +1.6413103988E-002 +8.1108079895E+001  +4.5924655924E-001 -9.6600626532E+001 
3137629.537 +1.2022783912E-001 +1.6374427081E+002  +9.1162420163E-003 +3.6293490700E+001  +5.0365269167E-003 -1.3806186116E+002  +4.1920947345E-001 -1.0557809899E+002 
3262774.718 +1.2497342499E-001 +1.7261563315E+002  +3.4352587699E-002 +1.2006255445E+002  +2.2933444136E-002 -1.1516937217E+002  +6.9513001247E-001 -5.7717314136E+001 
3387919.900 +1.3248419203E-001 +1.5357681820E+002  +4.7170973243E-003 -1.4141353826E+002  +1.8321027003E-002 +9.7490618138E+001  +6.4687754922E-001 -9.2329189633E+001 
3513065.081 +1.3183312519E-001 +1.2406132511E+002  +1.7991380947E-002 +3.1667770884E+001  +1.8519611106E-002 +3.7043950138E+000  +5.2546539433E-001 -4.3071433069E+001 
3638210.263 +1.7796685209E-001 +1.4323875144E+002  +2.9340391099E-002 +6.6848613300E+001  +1.7569274267E-002 +6.1402335263E+001  +6.8395324918E-001 +9.8146134752E+001 
3763355.444 +1.3916213798E-001 +1.4100678339E+002  +5.8435708037E-003 +9.5693248886E+001  +1.1216203973E-002 +5.2722792131E+001  +8.0889920819E-001 +9.1907317557E+001 
3888500.626 +1.5321900451E-001 +1.5456981734E+002  +2.6887375840E-003 +2.6228894603E+001  +6.5756697425E-003 -1.4055181016E+002  +3.2752022163E-001 +1.3750026776E+002 
4013645.807 +1.7755814930E-001 +1.4897490986E+002  +6.4686907371E-003 +7.3604128547E+001  +1.8271531274E-002 +1.7192253254E+002  +3.5263121148E-001 +1.1004546246E+002 
4138790.989 +1.4626057261E-001 +1.4100700263E+002  +1.8642227168E-003 -1.1606338292E+002  +1.1784418249E-002 +9.1047319585E+000  +3.3198969705E-001 +1.1200301804E+002 
4263936.170 +1.7200262618E-001 +1.3471856590E+002  +5.8352948014E-003 -6.3656991208E+001  +5.7669682417E-003 -1.4563439702E+002  +3.7746544690E-001 +1.4749717701E+002 
4389081.352 +2.2784735156E-001 +1.4091015334E+002  +1.3570693039E-002 -2.2135992534E+001  +3.0884358221E-003 -3.7187003116E+000  +6.5589969676E-001 +1.2297540599E+002 
4514226.533 +2.5853667172E-001 +1.3814602005E+002  +1.5240597478E-002 +1.1516727173E+002  +9.3766698536E-003 +1.2080905158E+002  +5.9915642679E-001 +9.3219349887E+001 
4639371.715 +2.4663016630E-001 +1.2671731638E+002  +1.3110366882E-002 +1.2303016221E+002  +2.6799369654E-002 +1.7726624651E+002  +1.7389745706E+000 +5.3153289988E+001 
4764516.896 +4.6478529211E-001 +1.2720796646E+002  +1.4045371397E-001 +9.7767604215E+001  +1.7460806869E-002 -5.4967751418E+001  +3.5649792997E+000 -1.2744419980E+002 
4889662.078 +4.9267565028E-001 +1.2087446233E+002  +7.3444384434E-002 +8.8191818732E+001  +1.5183898181E-002 -1.4500320925E+002  +3.2719958168E+000 +1.2287734666E+001 
5014807.259 +3.7658595092E-001 +1.2808234115E+002  +4.4665142569E-002 -2.1930980222E+001  +8.3222792378E-002 +6.6769823993E+001  +3.2817064872E+000 +1.7089630795E+002 
5139952.441 +4.3058276252E-001 +1.2966656282E+002  +5.7451757785E-002 -1.4526874310E+002  +1.3395563486E-001 -1.5916537483E+002  +6.6210608503E+000 +1.1535360839E+002 
5265097.622 +4.0184015567E-001 +1.3784515428E+002  +1.5075424776E-002 +6.4527260932E+001  +2.0020345000E-002 -1.7481566910E+002  +4.7734011833E+000 +5.0572042086E+001 
5390242.804 +4.0995586456E-001 +1.3376485343E+002  +3.1125058234E-002 +9.0465881796E+001  +3.6965776521E-002 +1.0518429819E+002  +5.2790309522E+000 +8.6666839553E+001 
5515387.985 +4.9419840496E-001 +1.2956186678E+002  +2.5533444270E-002 -8.4847152002E+001  +7.9373133452E-003 -4.9981870387E+001  +1.6902564255E+000 +1.1736938577E+002 
5640533.166 +4.9584249997E-001 +1.3243130916E+002  +2.1541927832E-002 +6.1256237512E+001  +5.1989834005E-003 -1.4674398528E+002  +1.9959515337E+000 +6.8725838448E+001 
5765678.348 +4.7850167564E-001 +1.2274935925E+002  +2.2868320763E-002 +8.4380596834E+000  +1.9853111317E-002 +2.5846368277E+000  +1.8201882418E+000 +8.0595887050E+001 
5890823.529 +5.5170157197E-001 +1.2079125762E+002  +2.0325548210E-002 -1.4210918170E+001  +3.2755896185E-002 +1.1974189245E+002  +2.3139843826E+000 +6.2713086615E+001 
6015968.711 +5.9481480493E-001 +1.1929485731E+002  +1.8777786544E-002 -9.5892540897E+001  +6.3954106747E-003 +9.0431150013E+001  +1.9658912004E+000 +2.4069411517E+001 
6141113.892 +6.2789381778E-001 +1.2145340707E+002  +1.3240026062E-002 +2.5089773829E+001  +1.1561548048E-002 -2.8716581188E+001  +1.7514845797E+000 +4.5868229412E+001 
6266259.074 +8.2920000880E-001 +1.1162650505E+002  +7.4785716633E-003 +2.8138293016E+001  +1.8588350194E-002 -1.1083433702E+002  +1.6156777866E+000 +2.1182114120E+001 
6391404.255 +1.0608109717E+000 +1.0348724775E+002  +2.0309184379E-002 +7.4122320273E+001  +3.8085741688E-003 -6.4277103500E+001  +1.3304170167E+000 +1.1348308493E+001 
6516549.437 +1.1037804363E+000 +9.4209423367E+001  +2.4794492337E-002 +1.4259445210E+002  +5.8435467340E-003 +9.0470473759E+001  +1.5531994364E+000 +6.9733079362E+000 
6641694.618 +1.4409381837E+000 +6.3072532787E+001  +2.2745475418E-002 +7.3251437307E+001  +1.3964742587E-002 -3.9920311939E+001  +1.3903028717E+000 +7.7323635674E+000 
6766839.800 +2.0168601822E+000 +5.6150509058E+001  +1.5307468430E-002 +1.5848986791E+002  +3.1726802869E-002 -4.0072802004E+001  +1.3226157011E+000 -7.9314256741E+000 
6891984.981 +1.9561637528E+000 +4.0517984582E+001  +1.4311090748E-002 +1.3037533036E+002  +1.2015443634E-002 +1.0458803934E+001  +1.2534679823E+000 -9.0494764138E+000 
7017130.163 +2.0253487058E+000 +2.6514577521E+001  +1.0391398778E-002 +3.2989470561E+001  +7.6910554680E-003 +1.3854592325E+002  +1.3267834079E+000 -1.3272231532E+001 
7142275.344 +1.6203262402E+000 +1.2610073422E+001  +5.1759187697E-003 +1.0541005416E+002  +2.3156011928E-003 +1.3668945011E+002  +1.3182620163E+000 -1.3362489661E+001 
7267420.526 +1.6588706897E+000 -9.0199449069E+000  +1.6714421749E-002 +4.5331419019E+001  +1.2146858255E-002 +1.4915186504E+002  +1.3492653649E+000 -1.3834142676E+001 
7392565.707 +1.3303045105E+000 -2.1127584992E+000  +8.4912341042E-003 +1.3321959694E+002  +6.1798367761E-003 +4.6020776421E+000  +1.2576780481E+000 -1.2314066457E+001 
7517710.889 +1.1472120497E+000 -3.8933396000E-001  +2.9156590097E-003 +3.1764907483E+001  +6.2605260271E-003 +4.3124469773E+001  +1.2379408528E+000 -7.3292326712E+000 
7642856.070 +1.1040166164E+000 +3.5981548814E-001  +3.9935990270E-003 +1.0796625508E+002  +5.4490765472E-003 +2.7282610930E+001  +1.0638525504E+000 -3.4886768919E+000 
7768001.252 +1.0387005938E+000 +1.0237712409E+001  +4.5646120222E-003 +4.2771012870E+001  +2.8996077291E-003 -7.4791446799E+001  +1.0185503284E+000 -5.2208109004E+000 
7893146.433 +9.1307718951E-001 +7.5956728502E+000  +3.6904501839E-003 +8.7623823401E+001  +7.3791957584E-003 +1.1173171156E+002  +8.8404886259E-001 -6.6424617435E-001 
8018291.615 +8.9619777427E-001 +5.6971083941E+000  +9.0441732594E-003 +6.3519020329E+000  +5.8044427644E-003 -1.1326763201E+002  +7.6995156890E-001 +5.5161507496E+000 
8143436.796 +8.4289255608E-001 +1.1717631609E+001  +1.7036521570E-003 +8.5897845960E+001  +2.4844575343E-003 -1.3591708653E+002  +8.5629954931E-001 +6.4648562006E-001 
8268581.977 +7.9683257203E-001 +9.5551111084E+000  +5.1842505029E-003 +5.6734743809E+001  +7.9318778778E-003 +6.7685431762E+001  +6.9272346257E-001 -3.6338265566E+000 
8393727.159 +7.1587449541E-001 +7.9950225786E+000  +6.0113994873E-003 +5.1228372533E+001  +5.3450175681E-003 +1.0953511801E+002  +7.4373623739E-001 +1.9260513885E+000 
8518872.340 +6.9300190139E-001 +9.7255566712E+000  +5.1481988398E-003 +4.7086841267E+001  +3.6079577327E-003 +8.4041941354E+001  +7.3977124621E-001 +1.2407465044E+000 
8644017.522 +6.3465719641E-001 +7.0223472733E+000  +5.9209830266E-003 +8.2677821992E+001  +4.3193086692E-003 +9.1305508100E+001  +6.7286141660E-001 +1.5576333148E+000 
8769162.703 +6.7412935045E-001 +4.7455020334E+000  +4.0266654929E-003 +1.0993570938E+001  +3.1831543312E-003 +3.0675134649E+001  +6.3754168564E-001 +3.6739819615E+000 
8894307.885 +6.7614192702E-001 +8.0209594985E+000  +4.1337890795E-003 +1.5388699279E+002  +3.6895329155E-003 +9.5336083831E+001  +6.6881329779E-001 -2.9280525391E+000 
9019453.066 +5.7565038524E-001 +6.7807859974E+000  +3.6300559850E-003 +1.5013842613E+002  +5.5523461344E-003 +1.1543150501E+002  +6.5302177735E-001 -2.6794955254E+000 
9144598.248 +5.5547742306E-001 +4.0030136145E+000  +4.5383708325E-003 +3.8892428205E+001  +6.3389804250E-003 +1.3303230549E+002  +6.0244552780E-001 -4.1079860520E+000 
9269743.429 +5.7377255834E-001 +2.3622131623E+000  +7.0522076308E-003 +1.1092915749E+002  +3.8146804692E-003 +1.0472899624E+002  +6.2588999566E-001 -1.2231408118E+000 
9394888.611 +5.9940014924E-001 -2.5265736149E-001  +8.0501683849E-004 +8.7155844579E+001  +3.4754536064E-003 +1.4856810514E+002  +6.5193449094E-001 -1.8082702645E+000 
9520033.792 +5.5209145383E-001 +3.3432964448E+000  +3.5644974782E-003 +6.5576840410E+001  +5.4783133341E-003 +7.8189720074E+001  +6.0870272331E-001 -3.9678059149E+000 
9645178.974 +6.1045774321E-001 +3.6813697920E+000  +3.4336820607E-003 +4.5961606124E+001  +3.9688643406E-003 +1.0278225088E+002  +5.7400970232E-001 -3.0589655456E+000 
9770324.155 +5.8260528013E-001 -2.3689667287E+000  +2.1048868085E-003 +8.0507141805E+001  +3.7971275905E-003 +1.6172077514E+002  +5.7919065277E-001 -6.8973629788E+000 
9895469.337 +5.1521381817E-001 -4.2330181145E+000  +1.2733363475E-003 +1.4927387553E+000  +4.5089127073E-003 +1.1933630867E+002  +5.7990445647E-001 -3.6833533329E+000 
10020614.518 +5.7943519042E-001 -2.4164262758E+000  +4.1125781406E-003 +1.1202615082E+002  +5.3134192423E-003 +1.1800668063E+002  +5.4250285155E-001 -1.0448992071E+001 
10145759.700 +5.5071427874E-001 +7.5540907987E+000  +4.6571928933E-003 +1.2685031925E+002  +4.5584892586E-003 +9.8056388742E+001  +6.1336765219E-001 -4.8633269006E+000 
10270904.881 +5.2384360398E-001 +5.9430512796E+000  +5.6670709035E-003 +9.1624633748E+001  +4.4903403772E-003 +1.0545862336E+002  +5.7225172248E-001 -5.0718506079E+000 
10396050.063 +5.5955007143E-001 +5.2043357188E+000  +4.8483670062E-003 +1.0835403594E+002  +4.6935829274E-003 +9.2459566007E+001  +6.0828587825E-001 -4.6046673549E-001 
10521195.244 +5.6461738922E-001 +4.6516108015E+000  +3.2997684703E-003 +1.0064098965E+002  +4.3513466869E-003 +1.0539949908E+002  +6.0231175362E-001 -3.2253069343E+000 
10646340.426 +5.7878572482E-001 +4.7885163290E+000  +4.0510792630E-003 +6.3222939045E+001  +3.0758148287E-003 +1.0622730514E+002  +6.0889778561E-001 +7.3286863165E-001 
10771485.607 +5.7463792020E-001 +6.3672399484E+000  +5.7640923101E-003 +8.7003012114E+001  +3.0860470334E-003 +1.0215566945E+002  +6.0609443847E-001 -1.4192141800E+000 
10896630.788 +5.7102815227E-001 +5.4213810848E+000  +5.4173743110E-003 +9.6688676581E+001  +4.1647518398E-003 +1.2990627600E+002  +6.0158608359E-001 +7.8805798613E-001 
11021775.970 +5.8210000774E-001 +5.3673362989E+000  +5.5079693423E-003 +9.0912821386E+001  +1.4761710206E-003 +8.7894777656E+001  +5.7421554265E-001 +2.9787136533E-001 
11146921.151 +6.0171325986E-001 +6.3032438197E+000  +3.0230207204E-003 +5.6477404178E+001  +5.3102216202E-003 +1.2193076868E+002  +6.2613011474E-001 -7.4967250335E-001 
11272066.333 +6.0862226161E-001 +7.2362831168E+000  +4.4636204285E-003 +1.0276879372E+002  +2.8527819261E-003 +1.0235881216E+002  +6.1718586175E-001 +1.2905320567E+000 
11397211.514 +6.4726392849E-001 +5.2560650662E+000  +5.2182130112E-003 +7.1431372348E+001  +4.2199832282E-003 +1.0165207441E+002  +6.1927016728E-001 +4.2465300257E-001 
11522356.696 +6.3425378615E-001 +6.8006662252E+000  +4.8491924783E-003 +1.0169058178E+002  +4.9297429285E-003 +1.1478945240E+002  +6.3040431706E-001 -2.5302421626E+000 
11647501.877 +6.5111650405E-001 +5.7659302216E+000  +6.2475484429E-003 +1.0814858436E+002  +4.6781871013E-003 +1.1017234781E+002  +6.4823134772E-001 +1.9597834959E+000 
11772647.059 +6.2788620481E-001 +6.0590360392E+000  +5.8687664191E-003 +9.5817656669E+001  +4.7248522817E-003 +9.0181686984E+001  +6.8343145212E-001 +4.6221084659E-001 
11897792.240 +6.7231753040E-001 +4.1878283580E+000  +5.8474666273E-003 +9.5613627695E+001  +4.5249804196E-003 +9.5819842431E+001  +6.6557146999E-001 +1.8699223790E+000 
12022937.422 +6.6660506612E-001 +5.9201341607E+000  +7.5032637890E-003 +8.1951794923E+001  +5.8428863177E-003 +9.7290877849E+001  +7.0355090578E-001 -1.2845829600E+000 
12148082.603 +6.5112423257E-001 +3.7982599655E+000  +3.7510085993E-003 +9.4685829878E+001  +3.1867928930E-003 +8.3525374368E+001  +7.1834023022E-001 -2.7039307744E-001 
12273227.785 +7.1243430467E-001 +2.8704897671E+000  +4.9926283482E-003 +8.0611688411E+001  +5.5911793588E-003 +1.1771248426E+002  +7.0715585492E-001 +3.5562023965E-001 
12398372.966 +6.8930009780E-001 +3.4481999352E+000  +5.6168924330E-003 +8.2245442593E+001  +7.1850929369E-003 +8.0392426456E+001  +7.3115204152E-001 +1.9695464993E+000 
12523518.148 +7.0404583652E-001 +2.4438492077E+000  +5.1573718934E-003 +9.7479937065E+001  +7.4974569354E-003 +9.4716555035E+001  +7.2535898325E-001 +7.9258247734E-001 
12648663.329 +7.4484716304E-001 +2.9789687084E+000  +7.2517250288E-003 +1.0134469013E+002  +4.1430003886E-003 +9.7201843556E+001  +7.5070603520E-001 +1.0538629244E-001 
12773808.511 +7.6201355661E-001 +1.2142934052E+000  +3.8494805658E-003 +1.0978131727E+002  +4.2515734684E-003 +9.3288421934E+001  +7.5498043091E-001 -2.8239492223E+000 
12898953.692 +7.6817347425E-001 +1.0023984464E+000  +5.7216689425E-003 +9.4952371787E+001  +4.9747545716E-003 +9.3184924719E+001  +7.9964885245E-001 -2.1182573897E+000 
13024098.874 +7.8329327246E-001 +1.9325240922E+000  +7.6220528914E-003 +8.9336665972E+001  +6.9694000232E-003 +9.2220141795E+001  +7.9505396513E-001 -3.4018139380E-001 
13149244.055 +7.8912298341E-001 -3.0350256494E-001  +5.8906981194E-003 +8.5273474036E+001  +5.7306528910E-003 +8.2570969043E+001  +7.9454195586E-001 -2.6788487193E-003 
13274389.237 +8.0198227861E-001 -6.0854726390E-001  +6.2804714006E-003 +9.5585596984E+001  +6.6639747046E-003 +8.5446665654E+001  +8.0653785374E-001 -2.9007378807E+000 
13399534.418 +8.4272464782E-001 -9.9582836803E-001  +6.7494750930E-003 +8.8495547254E+001  +6.2394257408E-003 +9.3850283929E+001  +8.5194025714E-001 -8.4915549104E-001 
13524679.599 +8.6400067303E-001 -7.6821365605E-001  +8.0902578239E-003 +9.8800557398E+001  +6.3373883119E-003 +9.9917396781E+001  +8.3362069827E-001 -1.3769394527E+000 
13649824.781 +8.7505335981E-001 -1.6856730021E+000  +5.1660399889E-003 +8.9288489169E+001  +6.2602715357E-003 +1.0304785079E+002  +8.6433160812E-001 -1.4491669339E+000 
13774969.962 +8.6297038472E-001 -3.4653235389E+000  +5.6126466573E-003 +9.3561559223E+001  +6.9399862648E-003 +9.0757947028E+001  +8.9979573590E-001 -3.5864817695E+000 
13900115.144 +9.0810045163E-001 -3.0594722463E+000  +7.8037631436E-003 +9.2722461493E+001  +7.2049624323E-003 +9.4020791724E+001  +8.8675194427E-001 -3.3231168453E+000 
14025260.325 +9.1515430944E-001 -2.4827586258E+000  +7.0115858743E-003 +1.0480224840E+002  +7.8897138659E-003 +8.2922818822E+001  +9.2739762730E-001 -2.7960639306E+000 
14150405.507 +9.3830114413E-001 -3.3493109120E+000  +7.7549507097E-003 +9.6370892788E+001  +6.5295149594E-003 +9.6728143940E+001  +9.4873833186E-001 -4.1587556201E+000 
14275550.688 +9.7448106186E-001 -4.2484543546E+000  +7.1169567888E-003 +9.7761357160E+001  +7.7430159777E-003 +9.1590368819E+001  +9.5576680448E-001 -4.2223092717E+000 
14400695.870 +9.8355029433E-001 -6.1599537621E+000  +7.5985631520E-003 +9.1548499755E+001  +5.9596573747E-003 +9.3272736441E+001  +9.8351220293E-001 -4.7993672280E+000 
