!  2-Port S-parameters saved by WinCal
! VAR MeasName=S-Parameters (CALIBRATED_DATA) read from VNA (P5004A)
! VAR MeasDate=28/08/2024 11:18:17
! VAR NAME=S2_r6c9_SET1_9k-100M_3
! VAR FILENAME=S2_r6c9_SET1_9k-100M_3.S2P
! VAR DATE=28/08/2024 11:18:17
! VAR PHYS_PORTS=1,2
! VAR ObjTypeName=DATASET
! VAR IndexType=Frequency
!
# Hz S MA R 50
9000.000 +7.7242625306E-002 +1.7990694460E+002  +7.9583186338E-003 +6.8410174322E+001  +3.9962503483E-003 +9.7994768809E+001  +2.6676637664E-001 -1.3334662108E+002 
134145.181 +1.1116463455E-001 +1.7004498501E+002  +4.6212951489E-004 +1.4506031304E+002  +1.1644838874E-004 -1.7867681163E+002  +2.3658500674E-001 -1.7019222285E+002 
259290.363 +1.1314760534E-001 +1.6981081876E+002  +5.0680372877E-004 +1.6099135677E+002  +2.1475675799E-004 +1.7924477345E+002  +2.3485349416E-001 -1.6941321974E+002 
384435.544 +1.1500049087E-001 +1.7061969106E+002  +5.1297051116E-004 -5.0760982054E+001  +5.2197808045E-004 -1.2663301838E+002  +2.4372697584E-001 -1.6891511610E+002 
509580.726 +1.1728113248E-001 +1.7183609569E+002  +7.0119823369E-004 -1.5879309596E+002  +6.5056329274E-004 -9.3898295771E+001  +2.4712076823E-001 -1.6545286064E+002 
634725.907 +1.1952602290E-001 +1.7096233239E+002  +5.3124247011E-004 -1.1259481541E+002  +6.9987156111E-004 -9.8305249492E+001  +2.5373533124E-001 -1.6663928059E+002 
759871.089 +1.1978546790E-001 +1.7078672919E+002  +2.8005478344E-004 +8.0402770058E+001  +6.3721003165E-004 +8.8469585460E+001  +2.4241949263E-001 -1.6610244945E+002 
885016.270 +1.1820669014E-001 +1.6929348854E+002  +2.1520898853E-004 +8.9120308258E+001  +4.8952734915E-004 -7.1316945751E+000  +2.4651880345E-001 -1.6666496887E+002 
1010161.452 +1.1874416940E-001 +1.6955620378E+002  +3.9388912801E-004 +7.1473847602E+001  +2.3855183980E-004 -1.1124662353E+002  +2.1696010332E-001 -1.6737128791E+002 
1135306.633 +1.1698904739E-001 +1.6914614316E+002  +1.4736100920E-003 +3.9526921915E+001  +2.7851282971E-003 -9.1791349690E+001  +1.9727181583E-001 -1.7189831750E+002 
1260451.815 +1.2019588599E-001 +1.7208942755E+002  +1.2957112662E-003 -3.6618513687E+001  +2.7569260123E-003 +4.6061146058E+001  +2.0857973476E-001 -1.5771593360E+002 
1385596.996 +1.2652572168E-001 +1.7229653483E+002  +1.2026583786E-003 +1.7024351878E+002  +3.0797892571E-004 -1.0186365135E+002  +2.7443934381E-001 -1.5661904353E+002 
1510742.178 +1.2712562194E-001 +1.7118428120E+002  +9.0888792355E-004 -1.7788406030E+002  +1.5440033807E-003 -1.4053899010E+002  +2.6596709723E-001 -1.5670181288E+002 
1635887.359 +1.2935859232E-001 +1.7145947550E+002  +4.8474935089E-004 -7.1929023893E+001  +5.6358663217E-004 +9.4314033922E+001  +2.4434162371E-001 -1.6079570853E+002 
1761032.541 +1.2984927106E-001 +1.7011836640E+002  +4.7982324108E-004 -1.0585179086E+002  +9.7421423598E-004 +1.1640280308E+002  +2.1887304521E-001 -1.5745314190E+002 
1886177.722 +1.2847838467E-001 +1.6954675614E+002  +2.3408783192E-003 -4.9319763684E+001  +2.5711387949E-003 -4.1272663297E+001  +2.1125462073E-001 -1.5930615302E+002 
2011322.904 +1.2448228692E-001 +1.6805460635E+002  +2.2095549594E-003 +1.2776918083E+002  +1.4471721838E-003 -1.3662024279E+001  +1.5084939228E-001 -1.7297660578E+002 
2136468.085 +1.2638497497E-001 +1.6703638770E+002  +1.4388150869E-003 -1.5208887790E+002  +1.8420710331E-004 +7.4605723350E+001  +2.2723544448E-001 -1.7006418053E+002 
2261613.267 +1.3745227433E-001 +1.6714013924E+002  +3.7947221847E-004 -1.0010495605E+002  +2.6710059195E-003 -6.3571992932E+001  +1.9221596124E-001 -1.6563485881E+002 
2386758.448 +1.3423784567E-001 +1.6375326254E+002  +1.1698822082E-003 -1.7041834698E+002  +3.5324828675E-003 +1.3759344001E+002  +1.8744276687E-001 +1.7428439148E+002 
2511903.630 +1.2272331630E-001 +1.6953503643E+002  +7.3349407992E-004 +4.5819335246E+001  +6.8405049593E-003 +9.8719606321E+001  +1.6444546673E-001 +1.4978566349E+002 
2637048.811 +1.1014654430E-001 +1.6371573990E+002  +1.5463635274E-002 +1.5501723444E+002  +2.3159287428E-002 +1.5812459435E+002  +3.4630898134E-001 +3.6151514190E+000 
2762193.992 +1.1409877018E-001 +1.7702294304E+002  +1.1144459352E-002 -3.7652628895E+001  +1.7815070862E-002 -1.5514049932E+002  +5.6807796797E-001 +1.2117966534E+002 
2887339.174 +1.3342676254E-001 +1.7304990927E+002  +7.6235331005E-003 -1.7800746971E+002  +2.0092497535E-003 +4.1210837878E+001  +1.6965434631E-001 -1.1967700089E+002 
3012484.355 +1.2745170837E-001 +1.7947258966E+002  +2.5683159006E-002 -1.0226497631E+002  +1.8123736966E-002 -9.4068561383E+001  +7.9775815670E-001 +4.1203978649E+001 
3137629.537 +1.2490854754E-001 +1.6799933816E+002  +5.3863642243E-003 +1.7302893880E+002  +6.4769392039E-003 +1.0931591757E+002  +1.0559946576E-001 -1.7994567069E+002 
3262774.718 +1.4683928087E-001 +1.5703688919E+002  +2.4742937978E-003 +5.7192521283E+001  +6.1233911984E-003 -1.6414002957E+002  +2.7560258870E-001 -9.6521956394E+001 
3387919.900 +1.3250527385E-001 +1.5220054156E+002  +1.2933245272E-002 -5.9563522837E+001  +7.8220345434E-003 -1.7591231076E+002  +1.5183382554E-001 +1.7597056792E+001 
3513065.081 +1.0493505107E-001 +1.5057918243E+002  +5.2031342097E-003 +1.0182320519E+002  +1.1033206230E-002 -1.1260560765E+002  +1.9028472740E-001 +1.1372564730E+002 
3638210.263 +1.9544266637E-001 +1.3921131183E+002  +9.3268209177E-003 -6.9386317995E+001  +2.6347753158E-003 -1.3096512988E+002  +6.3381663933E-001 +1.2767808876E+002 
3763355.444 +1.6682731773E-001 +1.4995496524E+002  +1.8272072614E-003 +6.0715276473E+001  +1.0737834869E-002 -2.3425799466E+000  +5.8931437421E-001 +1.2078063434E+002 
3888500.626 +1.9348871381E-001 +1.4806877440E+002  +4.6308776227E-003 +6.6755327622E-001  +1.1694474382E-002 +9.0097694266E+001  +4.7760917715E-001 +1.4643377515E+002 
4013645.807 +1.7769213083E-001 +1.4729270814E+002  +4.1996835499E-002 +1.3305881629E+002  +7.9602795294E-002 -4.7097189841E+001  +2.9413961682E+000 +1.1009328008E+002 
4138790.989 +1.8797149093E-001 +1.5018533004E+002  +7.0211121372E-003 +1.5295665726E+002  +5.8118376072E-003 +1.2917229993E+002  +3.6721081032E-001 +1.2964729635E+002 
4263936.170 +1.5645927933E-001 +1.3971401675E+002  +1.3577014656E-002 +1.0347891252E+002  +8.4196229878E-003 -7.6808734833E+001  +5.3155705764E-001 +1.3515779044E+002 
4389081.352 +1.9684059735E-001 +1.4597027186E+002  +2.4677530074E-003 -1.5523800148E+002  +1.3808210355E-002 -4.8004188377E+001  +5.5702325760E-001 +1.5385177196E+002 
4514226.533 +2.6372629330E-001 +1.3073191379E+002  +3.9874039822E-002 -7.4167901004E+001  +6.6118967325E-002 -1.0442033810E+002  +5.3294097061E+000 +1.7178497440E+002 
4639371.715 +2.8456110610E-001 +1.2227259997E+002  +1.2260951779E-002 +1.7040816644E+002  +2.6824026718E-002 +4.6925761004E+001  +6.2740099785E-001 +7.9899010513E+001 
4764516.896 +2.9446405453E-001 +1.2041134534E+002  +2.5429708849E-002 -5.8067655438E+000  +2.1163145558E-002 +1.7656275681E+002  +2.5922753509E+000 -1.7897027908E+002 
4889662.078 +4.1627386763E-001 +1.3396833012E+002  +4.7460144890E-002 -7.1841063407E+001  +8.2803357195E-002 +5.2312622590E+001  +4.8843496662E+000 -5.8201974929E+001 
5014807.259 +4.8267595573E-001 +1.3122545000E+002  +1.0514336518E-001 +1.5756704363E+002  +4.5527535602E-002 -6.2985399702E+001  +5.2089825833E+000 +7.6422202231E+001 
5139952.441 +3.3665015435E-001 +1.3651719464E+002  +2.9375498935E-002 -9.3552457769E+001  +1.2485316541E-002 -1.6959780821E+002  +7.5650065848E+000 -1.4604770416E+002 
5265097.622 +4.2614979755E-001 +1.2881510589E+002  +1.3590395839E-001 +1.1545446241E+002  +1.0128253961E-001 +1.5560538900E+002  +6.8790221885E+000 +9.0572492510E+001 
5390242.804 +3.9289107795E-001 +1.3221525127E+002  +6.1872118646E-002 +1.6784172337E+002  +4.5884703189E-002 +7.3980224826E+000  +5.3030936851E+000 +4.3195051287E+001 
5515387.985 +4.2101984828E-001 +1.1400932627E+002  +2.8811112489E-002 +1.6234620686E+002  +1.4836746033E-002 -7.3638559441E+001  +1.8716103570E+000 +9.8020382404E+001 
5640533.166 +5.6062776150E-001 +1.1227591778E+002  +1.4533996997E-002 +7.9402243763E+001  +3.3876069315E-002 -1.4253711712E+002  +1.3028171000E+000 +8.4603039792E+001 
5765678.348 +5.6025363658E-001 +1.1661386102E+002  +1.4650194018E-002 -3.0287935818E+001  +2.4739020153E-002 +2.6587654102E+001  +1.5388995946E+000 +1.8195244437E+001 
5890823.529 +4.2798126189E-001 +1.2016253862E+002  +8.5695577897E-003 +1.7748068446E+002  +9.4859619095E-003 -1.2370209575E+001  +2.0871356295E+000 +4.0972123803E+001 
6015968.711 +6.8024190086E-001 +1.1845338323E+002  +3.4135257974E-002 +1.3521990128E+002  +2.7012312915E-002 -1.3084331556E+002  +3.1060244016E+000 +4.9822196189E+001 
6141113.892 +6.4641177168E-001 +1.1949628489E+002  +3.6084748669E-003 -9.4172427149E+001  +1.6199648252E-002 +9.6023726174E+001  +2.1006887617E+000 +2.5947244575E+001 
6266259.074 +7.3335531711E-001 +1.1092932211E+002  +1.8992656282E-002 -1.3084398713E+002  +1.5599731695E-002 -8.2326950096E+001  +1.9462217722E+000 +3.4839269104E+001 
6391404.255 +1.5120935983E+000 +9.3273959929E+001  +4.8592215175E-002 +1.7887408134E+002  +3.8042702215E-002 -1.6259030472E+002  +1.6951249274E+000 +2.2080036730E+000 
6516549.437 +1.1969024861E+000 +8.0356737098E+001  +7.0120047495E-003 -7.1431691074E+001  +2.9159900280E-002 +7.0466787156E+000  +1.3286088196E+000 +1.4290784440E+001 
6641694.618 +1.3729984211E+000 +7.8526794177E+001  +1.3539083305E-002 +1.6641707988E+002  +4.6813423796E-003 +1.5591907406E+002  +1.3221627543E+000 +1.7780135123E+001 
6766839.800 +1.7454877692E+000 +5.4847483048E+001  +2.0045972183E-002 +1.1503900378E+002  +2.3436275099E-002 -1.2989520147E+002  +1.3211936808E+000 +7.5017617130E+000 
6891984.981 +1.2936422538E+000 +3.2856109665E+001  +1.3056378633E-002 +5.7059167163E+001  +1.7733555557E-002 +9.3864358282E+001  +1.4108660562E+000 -1.0409015497E+001 
7017130.163 +1.5992931347E+000 +2.8626120055E+001  +1.7908324221E-002 +7.0185087220E+001  +1.0424173564E-002 -2.7725897990E+001  +1.1128617815E+000 -1.2153952682E+001 
7142275.344 +1.9193749640E+000 +1.2258866652E+001  +1.4018926940E-002 +1.0489338335E+002  +8.1724909782E-003 +1.6701495771E+002  +1.3968263609E+000 -1.1924905327E+001 
7267420.526 +1.5075681884E+000 -4.4818859974E+000  +1.8483432057E-002 +2.2504648238E+001  +9.7895574555E-003 +7.6828793435E+001  +1.3834559994E+000 -1.1817235098E+001 
7392565.707 +1.1370115114E+000 -4.7546996431E+000  +9.4788204662E-003 +8.1684630135E+001  +4.9285695397E-003 +1.0728728503E+002  +1.3575787838E+000 -7.0773261141E+000 
7517710.889 +1.2315779496E+000 -2.3218350870E+000  +4.1664506631E-003 +1.6518559837E+002  +1.1428322581E-002 +1.8048863141E+001  +1.2750889549E+000 -9.1078101756E+000 
7642856.070 +1.2224992643E+000 -6.4217033830E-001  +8.5860564899E-003 +6.2175691245E+001  +1.0542851774E-003 -1.0585749439E+002  +1.0689860760E+000 +7.9451371948E-001 
7768001.252 +1.0181783875E+000 -4.8766211265E-001  +2.9387513442E-003 +1.1128306635E+002  +8.1882068541E-003 +1.7833519423E+002  +9.0767849779E-001 -4.2141663723E+000 
7893146.433 +8.0738650636E-001 +2.5182906914E+000  +8.7196733106E-003 +1.2330881719E+002  +3.0519381973E-003 -1.7093066664E+002  +1.0454118745E+000 -8.3596840710E-001 
8018291.615 +8.2066784195E-001 +9.0191672661E+000  +8.0408973858E-004 -9.2996645832E+001  +2.7385941415E-003 -7.2739353177E+000  +7.8618161277E-001 -1.1221747784E+000 
8143436.796 +8.3443846734E-001 +5.1966039908E+000  +3.8296724537E-003 +4.0741112643E+001  +2.6299635244E-003 +2.1763875853E+001  +8.5646636563E-001 -2.1809053985E+000 
8268581.977 +7.1568886138E-001 +9.3749280369E+000  +1.6679161580E-003 -3.6446220747E+001  +7.0833130915E-003 +1.3191935612E+002  +7.1500734099E-001 +1.0666312660E+000 
8393727.159 +7.3898106506E-001 +7.3146020219E+000  +4.9247948936E-003 +3.8141081127E+001  +4.1510323843E-003 +4.5996158530E+000  +7.2191065205E-001 +1.0228545074E+000 
8518872.340 +6.5447029209E-001 +1.2130808847E+001  +2.4191696773E-003 -7.7900109959E+001  +9.7655044985E-003 +1.0355657047E+002  +7.1144117835E-001 -4.5280932409E+000 
8644017.522 +5.6145525994E-001 +1.1030705612E+001  +3.1019301717E-003 -5.8854192855E+000  +1.8955934136E-003 +1.4938459834E+002  +7.4149850002E-001 -1.6156302191E+000 
8769162.703 +6.9911114586E-001 +9.4909574243E+000  +3.6484927770E-003 +1.0962352282E+002  +2.5129025708E-003 +4.6894122648E+001  +7.5505343826E-001 +5.5974402190E+000 
8894307.885 +6.7477673520E-001 +8.2011008533E+000  +2.8532975021E-003 -1.0209864015E+002  +4.3314353489E-003 +6.4765104403E+001  +7.0583470294E-001 -7.0059513387E-001 
9019453.066 +5.6213915601E-001 +1.3271621270E+001  +3.0012548422E-003 +9.7589983225E+001  +6.6861153734E-003 +6.4451108424E+001  +6.7263182350E-001 +4.5727128936E-001 
9144598.248 +5.6166613459E-001 +9.8131676461E+000  +6.4874283996E-003 +5.9977218056E+001  +4.5314030113E-003 +5.6950835474E+001  +6.0667585674E-001 -1.6853260166E+000 
9269743.429 +5.8264516803E-001 +2.1050763909E+000  +1.6867178391E-003 +3.4295512766E+001  +1.2887928387E-003 +1.6018600798E+002  +6.1934628690E-001 -2.7007134271E-001 
9394888.611 +6.0653126650E-001 +4.6578553921E+000  +5.0708887050E-003 +1.0049481245E+002  +3.6973364642E-003 +7.9651048105E+001  +5.6517513886E-001 -2.4505492308E+000 
9520033.792 +5.5128954058E-001 +5.2103841149E+000  +5.2205180778E-003 +6.6287778168E+001  +5.3570092306E-003 +1.2180839938E+002  +6.4956638468E-001 -2.4057957706E+000 
9645178.974 +5.7556417817E-001 +2.9070498728E+000  +4.6878086671E-003 +7.4746544542E+001  +3.6596445601E-003 +1.3719477788E+002  +5.6370192603E-001 -4.7556104299E+000 
9770324.155 +5.3281517302E-001 +2.5887857374E-001  +5.9004961869E-003 +6.1853793751E+001  +4.1664892278E-003 +1.3178600765E+002  +6.1564139369E-001 -4.1007083565E+000 
9895469.337 +5.6154602247E-001 +2.0510661937E+000  +1.6050986682E-003 +7.0117348102E+001  +4.1067641186E-003 +8.1663108373E+001  +6.0281193299E-001 -4.9378015913E+000 
10020614.518 +5.4529549102E-001 +8.1001796036E-001  +5.5539571467E-003 +9.8312566365E+001  +2.7384884414E-003 +9.1378764793E+001  +5.9270482370E-001 -2.0583013262E+000 
10145759.700 +5.8086579572E-001 +4.8743760564E+000  +3.4800943889E-003 +7.4322253442E+001  +6.0051353968E-003 +6.2435019705E+001  +5.8808460534E-001 -4.8296473148E+000 
10270904.881 +5.8106018927E-001 +4.4415442726E+000  +1.8414270019E-003 +1.3696422559E+002  +4.9405352142E-003 +7.8987379517E+001  +5.6872247797E-001 +5.4005590627E-001 
10396050.063 +5.8600242789E-001 +4.7812911447E+000  +6.9976101385E-003 +7.8099844276E+001  +2.6575170773E-003 +8.8419570507E+001  +5.8025091258E-001 +2.5164624115E-001 
10521195.244 +5.7864980307E-001 +3.4557443047E+000  +5.2685690538E-003 +5.0554243988E+001  +5.3764297294E-003 +9.3560819368E+001  +6.2927203484E-001 +1.0582872541E+000 
10646340.426 +5.8475361396E-001 +7.0988600319E+000  +5.5325390337E-003 +5.7899056374E+001  +7.3650538637E-003 +9.1919692968E+001  +5.8054584366E-001 +1.5916690073E+000 
10771485.607 +5.5418963191E-001 +6.5217827635E+000  +6.3670843841E-003 +7.0525126047E+001  +5.5418036633E-003 +7.3092199481E+001  +6.2985708547E-001 -1.3724188408E+000 
10896630.788 +5.7038294713E-001 +7.4050009354E+000  +3.1950621902E-003 +4.9556623295E+001  +4.0365506980E-003 +1.0164236618E+002  +5.8752353182E-001 +3.1418641138E-001 
11021775.970 +6.0285915909E-001 +8.5518311183E+000  +3.5368427428E-003 +5.5532996698E+001  +5.2896790143E-003 +9.4095465773E+001  +6.1472832089E-001 +1.5785206794E+000 
11146921.151 +5.8639729155E-001 +6.1219961991E+000  +6.9281667673E-003 +8.2870944569E+001  +4.1751352851E-003 +1.2598023558E+002  +6.1390880334E-001 +8.0422264321E-001 
11272066.333 +5.9227062183E-001 +5.3722921874E+000  +6.0578517994E-003 +6.6971562192E+001  +3.8748950205E-003 +8.6699462203E+001  +6.3315461802E-001 +1.2534329746E+000 
11397211.514 +6.2775956973E-001 +8.9236164858E+000  +4.5202803764E-003 +8.1513480929E+001  +4.5260914393E-003 +7.4412910027E+001  +6.6726514917E-001 +2.9696663531E+000 
11522356.696 +6.0279842068E-001 +6.7673146480E+000  +4.5854674963E-003 +9.4081264428E+001  +6.8829207262E-003 +1.2314425641E+002  +6.5167216767E-001 -5.0976162487E-001 
11647501.877 +6.4931471744E-001 +4.7030794079E+000  +6.0093359070E-003 +7.8614383025E+001  +4.3508225406E-003 +1.0886368403E+002  +6.8625936954E-001 -6.5121950135E-001 
11772647.059 +6.4670370265E-001 +7.0594718835E+000  +6.9831825106E-003 +8.5810162684E+001  +4.7975329608E-003 +8.0824402852E+001  +6.7452630594E-001 -3.0231788551E-001 
11897792.240 +6.6019237646E-001 +5.2932220762E+000  +6.8405305459E-003 +8.1436553167E+001  +4.7604015687E-003 +8.6444367373E+001  +6.7971121140E-001 +1.6351872326E+000 
12022937.422 +6.9322677576E-001 +4.5262113942E+000  +6.7220570531E-003 +9.2173937816E+001  +4.6237571050E-003 +9.2182485589E+001  +6.8872441495E-001 +3.3843037481E+000 
12148082.603 +6.7247735691E-001 +4.4595139260E+000  +3.8187875454E-003 +7.8849760221E+001  +5.4586644231E-003 +9.3320038268E+001  +7.0570406700E-001 -2.9932249015E-001 
12273227.785 +6.8365815956E-001 +3.3377454561E+000  +5.0251453365E-003 +8.1767548388E+001  +7.2803051447E-003 +8.3535887741E+001  +7.2429971712E-001 +1.3259398715E+000 
12398372.966 +6.9533086710E-001 +4.4708309633E-001  +5.5319063342E-003 +1.1135773686E+002  +5.8150098608E-003 +1.0512408045E+002  +7.2647171736E-001 -9.6395760333E-001 
12523518.148 +7.3175485093E-001 +4.9963696316E+000  +6.0098020529E-003 +6.6428625317E+001  +5.8893328745E-003 +9.1793844383E+001  +7.3564468356E-001 -1.3597354337E-001 
12648663.329 +7.6261790439E-001 +2.2098485613E+000  +4.5932559943E-003 +8.6821515564E+001  +5.6474992575E-003 +8.9906040909E+001  +7.6457749691E-001 +6.8577781229E-001 
12773808.511 +7.5447997955E-001 +1.7202126833E+000  +5.4123616311E-003 +8.1640730927E+001  +6.8936513897E-003 +9.6979958906E+001  +7.5372238303E-001 +1.7386949909E-001 
12898953.692 +7.5072917781E-001 +2.9710345550E+000  +5.1460717258E-003 +8.2564538657E+001  +7.2925787616E-003 +8.6643514569E+001  +7.6949898730E-001 +4.3886893260E-001 
13024098.874 +7.9703486193E-001 +2.1940005408E-001  +5.0968542682E-003 +8.2073712090E+001  +6.9589235024E-003 +7.7318614528E+001  +8.0841223720E-001 -1.1792763640E+000 
13149244.055 +8.2790044574E-001 -1.4009009785E+000  +6.6529596956E-003 +7.9789319267E+001  +7.0601054890E-003 +8.6345735828E+001  +8.3091092015E-001 -1.0820717945E+000 
13274389.237 +8.0516225577E-001 +6.1298564953E-001  +6.9912757480E-003 +9.1258283023E+001  +5.5171089074E-003 +7.1145979850E+001  +8.3735246005E-001 -2.5656261894E+000 
13399534.418 +8.4931230277E-001 -7.0705402062E-001  +5.8757964865E-003 +7.6464457640E+001  +6.6943950786E-003 +9.8956233660E+001  +8.5877244815E-001 -1.7555804642E+000 
13524679.599 +8.5326130044E-001 -1.0926779041E+000  +1.0303136884E-002 +9.5329506382E+001  +7.4846224982E-003 +8.9172963783E+001  +8.8216722574E-001 -3.7484900031E+000 
13649824.781 +8.9165096401E-001 -2.1298876729E+000  +8.5557749055E-003 +8.1994217353E+001  +8.3010760413E-003 +9.6198025299E+001  +8.7650507731E-001 -3.0347801040E+000 
13774969.962 +8.8850953109E-001 -3.5102029612E+000  +6.6762974700E-003 +9.4382894244E+001  +6.2224369355E-003 +8.3961891817E+001  +9.0089225914E-001 -2.8304428181E+000 
13900115.144 +9.1900906388E-001 -2.6605210742E+000  +6.8709016322E-003 +8.8791527715E+001  +8.0380088707E-003 +9.0138748033E+001  +9.2135276775E-001 -2.3686683061E+000 
14025260.325 +9.2390233355E-001 -3.1279433769E+000  +7.6364866973E-003 +9.1832549752E+001  +7.9229578781E-003 +8.7845969950E+001  +9.3823796704E-001 -4.3549030557E+000 
14150405.507 +9.4701196586E-001 -4.2070902357E+000  +5.5710907696E-003 +8.8063260518E+001  +6.6667073662E-003 +9.9625482798E+001  +9.6522543532E-001 -4.2548992272E+000 
14275550.688 +9.4919118437E-001 -6.4329985500E+000  +6.8715106597E-003 +7.9528449044E+001  +7.1876740986E-003 +7.5435394388E+001  +9.7193978717E-001 -4.5596790467E+000 
14400695.870 +9.9706634398E-001 -6.0295069587E+000  +7.2335593591E-003 +9.6944050747E+001  +8.5483209553E-003 +7.4956853603E+001  +1.0126302379E+000 -5.1858332090E+000 
