!  2-Port S-parameters saved by WinCal
! VAR NAME=S2_r1c9_formed_9k-100M_1_0
! VAR DATE=27/08/2024 16:02:04
! VAR FILENAME=S2_r1c9_formed_9k-100M_1_0.S2P
! VAR MeasName=S-Parameters (CALIBRATED_DATA) read from VNA (P5004A)
! VAR MeasDate=27/08/2024 16:01:39
! VAR PHYS_PORTS=1,2
! VAR ObjTypeName=DATASET
! VAR IndexType=Frequency
!
# Hz S MA R 50
9000.000 +8.9142821261E-002 -1.5510527022E+002  +8.9170927880E-003 +3.2470803093E+001  +1.8805953476E-002 -5.9112939802E+001  +2.6549497077E-001 -9.1706263127E+001 
134145.181 +1.1092164827E-001 +1.6918777864E+002  +4.6064301613E-004 -1.0358120829E+001  +5.1684791362E-004 -3.8357124363E+001  +2.3867120983E-001 -1.7080065080E+002 
259290.363 +1.1121639129E-001 +1.6994037378E+002  +6.2715657683E-004 -4.6368744156E+001  +3.7865134826E-004 +2.8450372269E+001  +2.3884769738E-001 -1.6861700678E+002 
384435.544 +1.1417927150E-001 +1.6965904467E+002  +2.1136472814E-004 -2.7642362165E+001  +1.1897959993E-003 +8.7271333085E+000  +2.3613533794E-001 -1.6738051259E+002 
509580.726 +1.1431762207E-001 +1.7096278639E+002  +1.2402744260E-003 -1.1758619746E+002  +5.7142303878E-004 -1.6538484529E+002  +2.3737475506E-001 -1.6649822269E+002 
634725.907 +1.1652578475E-001 +1.7067720477E+002  +8.2481117242E-004 -1.0188666221E+002  +1.2280532809E-003 -1.3592775602E+002  +2.3983840490E-001 -1.6656225045E+002 
759871.089 +1.1628113474E-001 +1.7108194922E+002  +4.7489156139E-004 +1.2568372919E+002  +1.0357116720E-003 +2.6155607097E+001  +2.4320738949E-001 -1.6410500688E+002 
885016.270 +1.1813194331E-001 +1.6884777693E+002  +2.6277987308E-004 -2.7211025571E+001  +2.5679937047E-004 -9.0852722154E+001  +2.2248686169E-001 -1.6565361486E+002 
1010161.452 +1.1463753475E-001 +1.7219651261E+002  +2.8206916278E-004 -8.4814896068E+001  +1.4721595288E-003 +8.5647269624E+001  +1.9500053711E-001 -1.7334175314E+002 
1135306.633 +1.1897077431E-001 +1.6974846570E+002  +9.0952907783E-004 -1.2495037009E+002  +1.5432235695E-003 +1.0662418437E+002  +1.3502278856E-001 -1.5965074628E+002 
1260451.815 +1.2096547821E-001 +1.7084270370E+002  +6.6116179995E-004 +1.4867530174E+002  +1.2702606052E-003 -1.5119966913E+002  +2.4775620723E-001 -1.5601788916E+002 
1385596.996 +1.2675374570E-001 +1.7270267327E+002  +1.3649139885E-003 -4.0454503094E+001  +8.2184041719E-004 -7.1581526976E+001  +2.6412007302E-001 -1.5723637873E+002 
1510742.178 +1.2759549281E-001 +1.7023179562E+002  +3.8328727725E-004 -8.5221116272E+001  +6.2539515200E-004 +2.6160119690E+001  +2.4838396410E-001 -1.6264061651E+002 
1635887.359 +1.2731894498E-001 +1.7273931588E+002  +1.2539085098E-003 -5.8482448007E+001  +2.2264798206E-003 +5.6734993598E+001  +2.3053279770E-001 -1.5811708753E+002 
1761032.541 +1.2879188988E-001 +1.6939400784E+002  +1.2068453991E-003 -1.1292729735E+002  +1.5480962675E-003 +1.5204453968E+002  +2.1959241064E-001 -1.6628523217E+002 
1886177.722 +1.2963343475E-001 +1.6830437581E+002  +5.0534668417E-004 +1.0565546618E+002  +1.9091593338E-004 -4.6295868630E+000  +2.1355085188E-001 -1.6413753572E+002 
2011322.904 +1.3234234626E-001 +1.6811836590E+002  +1.0647398239E-003 -8.6816471673E+001  +1.9367686575E-003 +1.4786133055E+002  +1.8015258257E-001 -1.7364118792E+002 
2136468.085 +1.2800302309E-001 +1.6870276707E+002  +2.8721089498E-003 -1.3898604015E+002  +1.9033546246E-003 -1.6742879725E+001  +2.2343737597E-001 -1.7820212619E+002 
2261613.267 +1.1612503970E-001 +1.6276490576E+002  +4.2300460110E-003 +2.0645671160E+001  +3.0062815521E-003 +2.7837751369E+001  +1.3792564469E-001 +1.5393752718E+002 
2386758.448 +1.1572229038E-001 +1.6034089822E+002  +8.9843437825E-003 -3.3658263687E+001  +2.8004781544E-003 +5.9782754563E+001  +1.8138894001E-001 +1.4601281071E+002 
2511903.630 +1.3893460535E-001 +1.5854873100E+002  +1.2111849422E-003 -9.2065815163E+000  +3.2322583794E-003 -2.4410577541E+001  +1.9397639603E-001 +1.7583326369E+002 
2637048.811 +1.2254203052E-001 +1.5997316274E+002  +9.3090383161E-003 +1.0836462368E+002  +7.5908009423E-003 +1.2649235223E+002  +2.7100092434E-001 +1.5957023961E+002 
2762193.992 +1.0950537694E-001 +1.7115288756E+002  +1.7755831547E-002 -3.6422531614E+001  +2.1187952378E-002 -8.7111596273E+001  +3.4454683648E-001 +5.6600743455E+001 
2887339.174 +1.0725535857E-001 +1.6509397963E+002  +8.4166403678E-003 -1.6464350562E+002  +1.0005074448E-002 +1.1337969720E+002  +6.4084923603E-001 -1.4990170910E+002 
3012484.355 +1.2285558987E-001 +1.7419120043E+002  +4.9563124099E-004 -1.4174335590E+002  +8.3553480492E-003 +1.1446850106E+002  +4.3297026853E-001 -8.9483440252E+001 
3137629.537 +7.5127577647E-002 +1.7359093845E+002  +5.5033029693E-003 +1.0418191614E+002  +2.0482808962E-002 -3.9758007383E+001  +6.1329493494E-002 -3.0494787883E+001 
3262774.718 +1.1872241745E-001 +1.6063366290E+002  +7.8713026792E-003 -1.2125996594E+002  +2.1230201179E-002 -1.6961019392E+002  +4.2177180078E-001 +9.2688318292E+001 
3387919.900 +1.1418893373E-001 +1.5314938977E+002  +3.6597265720E-002 -1.3473617414E+002  +2.6387034427E-002 +1.4866778280E+002  +8.1815049071E-001 -1.2552554083E+001 
3513065.081 +1.5554776264E-001 +1.5590155183E+002  +2.4990994158E-002 +1.3671611195E+002  +2.0411895808E-002 +1.0937283866E+002  +6.6336827080E-001 +2.5258252617E+001 
3638210.263 +1.6060565492E-001 +1.4790282634E+002  +1.4045012776E-002 +4.9822017877E+001  +5.5723429536E-003 +5.7677671104E+001  +7.6463456006E-001 +1.3157113462E+002 
3763355.444 +1.6613848553E-001 +1.3834222597E+002  +1.2520089639E-002 -1.3166654437E+002  +1.9886250321E-002 -7.2854337381E+001  +8.2885680236E-001 +1.0951178886E+002 
3888500.626 +9.5695029745E-002 +1.4530948304E+002  +4.1283463620E-003 +2.7307046117E+001  +1.0706084509E-002 -6.6888111380E+001  +4.3182529150E-001 +1.4696068441E+002 
4013645.807 +1.8034920112E-001 +1.3959699813E+002  +6.3000813718E-003 +1.4290273410E+002  +5.2286856899E-003 -4.0482025459E+000  +3.1958943226E-001 +1.3266391104E+002 
4138790.989 +1.8741748159E-001 +1.5298978144E+002  +7.5111364903E-003 -2.0849939060E+001  +6.3851637742E-003 +4.9798163310E+001  +5.5869026790E-001 +1.4653890736E+002 
4263936.170 +1.9292264462E-001 +1.4582402956E+002  +9.4159732344E-003 -1.2228538517E+002  +1.9383744543E-003 -1.7896729718E+001  +8.6314059517E-001 +1.3785496360E+002 
4389081.352 +2.2733439639E-001 +1.3659272306E+002  +5.1807632718E-003 +9.1111500942E+001  +1.6077153850E-002 +8.1449568652E+001  +3.9872155572E-001 +9.3183116256E+001 
4514226.533 +2.5064128613E-001 +1.4004090420E+002  +3.1501790484E-003 -1.4289214104E+002  +2.2681853436E-002 +5.5168283454E+001  +6.4714501075E-001 +7.2017188489E+001 
4639371.715 +2.7300696374E-001 +1.3840745788E+002  +3.0722372205E-002 +5.9402339232E+001  +1.1653343803E-002 +1.6002068560E+001  +1.1734322915E+000 +7.7752256975E+001 
4764516.896 +3.1260780529E-001 +1.2182730479E+002  +4.9460964774E-002 +1.4000189476E+002  +6.7952593525E-002 +4.9838047565E+000  +5.0518928232E+000 +1.7711562103E+002 
4889662.078 +5.3566457540E-001 +1.2164789561E+002  +6.1442498526E-002 -6.4569939700E+001  +8.2244232883E-002 +6.7779097397E+000  +4.2919388091E+000 -1.1587595677E+002 
5014807.259 +3.8475728174E-001 +1.3363667407E+002  +4.8111703006E-002 -2.0765290202E+001  +1.1790997034E-001 -8.1245523240E+001  +7.9521441063E+000 -1.3658514926E+002 
5139952.441 +4.1410790656E-001 +1.3236358929E+002  +1.5431657792E-002 +1.4511516678E+002  +9.9723827481E-003 +2.0083479590E+000  +1.4935031819E+000 +3.2974833286E+000 
5265097.622 +4.5338544604E-001 +1.3384229111E+002  +3.2116652257E-002 +2.6640769894E-001  +2.2112169101E-002 +1.1599062927E+002  +2.0504351578E+000 +7.3003650765E+001 
5390242.804 +4.1590121426E-001 +1.3386070487E+002  +2.4805097554E-002 +1.2896555779E+002  +2.8939672778E-002 -5.6573363796E+001  +2.1459765193E+000 +1.2187093919E+002 
5515387.985 +5.3568031679E-001 +1.2976772406E+002  +7.0439563584E-003 -5.4012161802E+001  +3.5218351105E-002 +7.2944809425E+001  +2.0542181048E+000 +8.3250626138E+001 
5640533.166 +4.5198045060E-001 +1.3002095808E+002  +1.5899339100E-002 -1.5664102827E+002  +1.8234048400E-002 +5.0689962624E+001  +2.8132759837E+000 +9.7869839377E+001 
5765678.348 +5.2963446313E-001 +1.2759061786E+002  +2.1152839415E-002 -1.3266478083E+002  +5.4739115302E-003 +1.7053894585E+002  +1.2891424259E+000 +8.4245164931E+001 
5890823.529 +5.9007785443E-001 +1.2785071986E+002  +3.2335230725E-002 -1.0181538657E+002  +1.9861009206E-002 +1.3847516988E+002  +3.0084151398E+000 +5.8908687412E+001 
6015968.711 +7.1750106238E-001 +1.1278101199E+002  +1.8891210601E-002 +8.6709539777E+001  +1.3896360040E-002 -1.2406808014E+002  +1.5173313695E+000 +6.3117548354E+001 
6141113.892 +7.9567582791E-001 +1.0264532410E+002  +2.7287558759E-002 -1.4955609826E+002  +1.4052801616E-002 -6.7079603575E+001  +1.8959478576E+000 +3.2937946866E+001 
6266259.074 +8.2537855707E-001 +1.0434799786E+002  +2.1523465919E-002 +5.2084098974E+001  +7.7831894404E-003 +1.5121764267E+002  +1.2823982329E+000 +9.6498831391E+000 
6391404.255 +9.2851277624E-001 +8.8965439986E+001  +4.8647375977E-002 +6.6502854865E+001  +2.9213661487E-002 +2.6208098885E+001  +1.5579069875E+000 +1.0442367161E+001 
6516549.437 +1.2220417109E+000 +8.6477344004E+001  +1.3575410280E-002 +1.0030963049E+002  +4.6524310072E-003 -1.2576811050E+002  +1.4689566177E+000 +1.9575480791E+001 
6641694.618 +1.2153460654E+000 +6.8289835046E+001  +1.7549153024E-002 -2.4378679785E+001  +1.8326174752E-002 +6.8227988885E+001  +1.4443944674E+000 +5.4601500821E+000 
6766839.800 +2.0700877266E+000 +5.1797095826E+001  +3.8029170651E-003 -6.6022403979E+001  +1.0880606787E-002 +1.7936629363E+002  +1.2077696038E+000 -1.4410862912E+001 
6891984.981 +1.8436455203E+000 +2.5216691780E+001  +2.9273171359E-002 +1.4260747352E+002  +2.6962423354E-002 +1.0081253458E+002  +1.4858025952E+000 -7.0577448980E+000 
7017130.163 +1.6577904883E+000 +2.6309496718E+001  +1.5557335269E-002 +1.1678952092E+002  +2.1819050714E-003 -4.2866308158E+001  +1.3153074158E+000 -1.1237797589E+001 
7142275.344 +1.7481301913E+000 +1.6456940215E+001  +5.2515498423E-003 +6.5120637493E+001  +1.5462485554E-002 +1.4215080852E+002  +1.3118059609E+000 -4.3405408308E+000 
7267420.526 +1.6009658888E+000 +1.0432584749E-001  +1.4366713947E-002 -2.6613001404E+000  +4.6464849627E-003 +1.4499926643E+002  +1.4023919107E+000 -9.1479315011E+000 
7392565.707 +1.4351960261E+000 +4.0008693587E+000  +1.1361621450E-003 -2.5891756912E+001  +2.4975868572E-003 +8.5064097600E+000  +1.2651087892E+000 -8.5347949434E+000 
7517710.889 +1.0618478503E+000 +1.4737278558E+000  +4.0153447351E-003 +8.9696267752E+001  +1.0203534385E-002 +8.4466569644E+001  +1.2440389568E+000 -1.4612670211E+001 
7642856.070 +1.1446198875E+000 +1.9040714889E+000  +9.1261398230E-003 +4.0125864709E+001  +5.7424756875E-003 +4.0090898281E+001  +1.1431202756E+000 -4.9940412678E+000 
7768001.252 +1.0035242327E+000 +1.5538206105E+000  +4.9861419171E-003 +1.0602623911E+002  +7.6839911975E-003 +8.7451340987E+000  +9.6230968614E-001 -1.9599864114E+000 
7893146.433 +9.4568985284E-001 +1.1926046789E+000  +4.4297069745E-003 +9.8077145896E+001  +4.1560365383E-003 +1.4032838687E+002  +9.2381173941E-001 -2.8440326757E+000 
8018291.615 +8.1973542748E-001 +5.2015610120E+000  +7.7181263493E-003 +7.5712015590E+001  +5.1169396130E-004 +3.1049464488E+001  +8.9339371333E-001 +1.1536631352E+000 
8143436.796 +8.1917376908E-001 +2.0010896076E+000  +9.6684947666E-003 +9.9863536581E+001  +1.6532375291E-003 +5.9119589484E+001  +8.2091708593E-001 -1.1599376346E+000 
8268581.977 +7.5222109570E-001 +4.4411149643E+000  +5.7267578545E-003 -3.4498616583E+001  +3.4380585758E-003 -2.1352310968E+001  +7.9248684034E-001 +5.8970655971E+000 
8393727.159 +7.1849367811E-001 +1.3612213071E+001  +6.6588957122E-003 +6.7170750790E+000  +4.1899721975E-003 +8.6782034154E+001  +7.9082543808E-001 +4.7617086345E-001 
8518872.340 +6.8682815582E-001 +1.4604751228E+000  +3.0838287557E-003 +4.8852888221E+001  +3.2875199206E-003 +4.4482565151E+001  +6.8191161043E-001 -6.7519710315E-001 
8644017.522 +6.7942036048E-001 +4.8002408275E+000  +2.2912179186E-003 +1.2631150813E+002  +4.7056268823E-003 +1.2473761666E+002  +7.2348228162E-001 +2.8588842792E-002 
8769162.703 +5.4416485332E-001 +8.9154023384E+000  +8.1835089762E-003 +8.1954512927E+001  +5.3729458516E-003 +3.6608632499E+001  +6.7022963305E-001 +7.8051033871E-001 
8894307.885 +6.1274689303E-001 +7.9717537885E+000  +4.5290055092E-003 +5.7510604785E+001  +4.5999139689E-003 +4.9207689025E+001  +6.7077015699E-001 -3.9992313978E+000 
9019453.066 +6.1439649985E-001 +4.6658514295E+000  +3.2008199905E-003 +1.0084400911E+002  +6.1815586156E-003 +8.7777469569E+001  +6.2823672011E-001 -4.3207779968E+000 
9144598.248 +6.0553117543E-001 +3.6128758141E+000  +2.1661114112E-003 +3.4368893049E+001  +5.4955818200E-003 +9.4842972314E+001  +6.5356164334E-001 +3.2908319775E-001 
9269743.429 +5.3027154340E-001 +7.4894139261E+000  +4.2867103840E-003 +6.5684503861E+001  +2.4465606204E-003 +7.1620183618E+001  +6.0311821756E-001 -7.1874327721E+000 
9394888.611 +5.5003298473E-001 +8.0178126413E+000  +4.2135123860E-003 +5.7672363782E+001  +5.9965890130E-003 +1.1204614837E+002  +5.9662468104E-001 -1.5416401824E+000 
9520033.792 +5.5252148680E-001 +2.9177897727E+000  +4.6127964616E-003 +1.0074538731E+002  +4.8363316459E-003 +3.0872835770E+001  +6.3906075322E-001 -4.5196408484E+000 
9645178.974 +5.4101155579E-001 -1.4023883066E+000  +4.2852225735E-003 +3.1901456310E+001  +8.1043322361E-003 +2.8144429438E+001  +5.9432512353E-001 -4.3199254308E+000 
9770324.155 +4.8650337624E-001 +1.7491530016E+000  +3.4543716669E-003 +9.4423783253E+001  +6.8069295972E-003 +6.1593996867E+001  +6.0395022632E-001 -3.0257145451E+000 
9895469.337 +5.4565699646E-001 -1.9965094925E+000  +2.7221568985E-003 +8.3800662030E+001  +2.8334470500E-004 -2.6868679970E+000  +5.7701114792E-001 -1.3187670338E+001 
10020614.518 +5.8722477183E-001 -1.4555305905E+000  +6.0261593024E-003 +9.3786225955E+001  +5.7129442491E-003 +1.1643114487E+002  +5.7832842093E-001 -7.0869749239E+000 
10145759.700 +5.1530183636E-001 +2.2406925277E+000  +4.7946461145E-003 +9.9654249839E+001  +8.5599844243E-003 +5.6480472063E+001  +5.9686569926E-001 -6.5467856064E+000 
10270904.881 +5.4917093153E-001 +1.4043196815E+000  +5.9925292609E-003 +5.5285765289E+001  +2.9044937503E-003 +9.4957537563E+001  +5.7627945075E-001 -3.7586079886E+000 
10396050.063 +5.4165890364E-001 +7.0515647093E+000  +5.6309089280E-003 +7.3795164121E+001  +4.8361447585E-003 +7.5718899865E+001  +6.1304489774E-001 -3.8737882344E+000 
10521195.244 +5.0242393779E-001 +5.2633921632E+000  +4.3364251552E-003 +9.8021256310E+001  +3.3918668284E-003 +5.8128180769E+001  +5.5469583707E-001 -8.9480464199E-001 
10646340.426 +5.6239796838E-001 +6.1890136592E+000  +5.8236665130E-003 +7.8232027079E+001  +7.4457231429E-003 +7.3417686452E+001  +5.7526508115E-001 -9.2301645475E-002 
10771485.607 +5.9450040507E-001 +4.0678905783E+000  +4.5108524490E-003 +6.1235797836E+001  +6.2373090161E-003 +7.6678132128E+001  +5.9056161415E-001 -1.3812060215E+000 
10896630.788 +5.7334618774E-001 +7.6822354022E+000  +3.7418886093E-003 +5.7966618179E+001  +5.3298418014E-003 +5.4294034172E+001  +5.9518176092E-001 +1.3527471194E+000 
11021775.970 +5.9329850610E-001 +6.2929230450E+000  +7.1107777549E-003 +6.4284426313E+001  +6.3016489175E-003 +6.2604189891E+001  +5.8624197293E-001 -2.8079739666E+000 
11146921.151 +5.9440970040E-001 +6.7946693208E+000  +3.8644979056E-003 +5.2440402687E+001  +5.6358685147E-003 +6.9530530525E+001  +6.1124442273E-001 -7.9239868474E-001 
11272066.333 +5.8893898201E-001 +3.8023927554E+000  +7.3761916701E-003 +8.8003678250E+001  +4.6846631182E-003 +7.9799340516E+001  +6.1623583255E-001 +3.4173124314E+000 
11397211.514 +6.2016113476E-001 +7.2809242253E+000  +5.5834666655E-003 +7.7456032857E+001  +3.5719481231E-003 +7.9877695916E+001  +6.1939754687E-001 +5.0424496113E-001 
11522356.696 +6.4007266802E-001 +6.0446012400E+000  +3.9997819632E-003 +6.0368556996E+001  +6.3486469766E-003 +8.7687648957E+001  +6.6055886589E-001 -2.3855957879E+000 
11647501.877 +6.0927715653E-001 +4.9403989060E+000  +6.1247649921E-003 +7.0442299588E+001  +6.6207240658E-003 +9.2685935864E+001  +6.3980654316E-001 -1.4770354457E+000 
11772647.059 +6.1575738087E-001 +7.6606079137E+000  +3.7463349319E-003 +7.9980601396E+001  +6.7257783924E-003 +8.9066952064E+001  +6.6087663282E-001 +1.6313590878E+000 
11897792.240 +6.5240411770E-001 +6.6207918207E+000  +5.1257919904E-003 +1.0745673094E+002  +5.7924806624E-003 +7.6038885780E+001  +6.7865586214E-001 +8.9813757633E-002 
12022937.422 +6.7313706728E-001 +5.5303823803E+000  +4.9448616989E-003 +6.5030375674E+001  +6.5723014183E-003 +5.9250654276E+001  +6.8804093667E-001 +5.6608950258E-001 
12148082.603 +6.7828020605E-001 +3.3327230375E+000  +5.1381362308E-003 +6.4819371269E+001  +5.9018356885E-003 +7.2177004150E+001  +6.8915827464E-001 +1.6377066232E-001 
12273227.785 +6.9606333392E-001 +3.3342248589E+000  +6.5234591435E-003 +6.6763575253E+001  +7.6060230565E-003 +8.2562550533E+001  +7.1701891768E-001 -1.7592633105E+000 
12398372.966 +7.1169696506E-001 +3.9386342679E+000  +6.4794780436E-003 +6.8891443637E+001  +5.6140387224E-003 +7.8021995591E+001  +7.2037652574E-001 -3.4141831191E-001 
12523518.148 +7.4110557607E-001 +1.5240326627E+000  +5.0743396209E-003 +5.9423799416E+001  +7.3778585675E-003 +7.0047796115E+001  +7.5308397529E-001 -4.3997862997E-001 
12648663.329 +7.2928327637E-001 +4.2388087643E+000  +5.2874303992E-003 +7.6533157377E+001  +6.7411700745E-003 +7.5145983439E+001  +7.6825267795E-001 -1.5034490252E+000 
12773808.511 +7.3202552708E-001 +1.7961759193E+000  +6.0822988855E-003 +7.7110235668E+001  +9.0244890835E-003 +7.1171394102E+001  +7.8113073502E-001 -7.0072262156E-001 
12898953.692 +7.5883179502E-001 +5.2474672101E-001  +7.6433111303E-003 +7.1154659972E+001  +5.7340261569E-003 +8.2356919470E+001  +7.7990514464E-001 -1.4396170423E+000 
13024098.874 +7.8626638667E-001 -5.5640455629E-001  +6.0065884383E-003 +7.2735963651E+001  +7.4801206536E-003 +8.4449511033E+001  +8.0615380962E-001 -2.7394549154E-001 
13149244.055 +8.0294785719E-001 +1.6318365344E-001  +7.8848598831E-003 +7.6751563620E+001  +7.7799629969E-003 +7.0000669516E+001  +8.0664983818E-001 -7.3896640936E-001 
13274389.237 +8.1317970158E-001 -4.6536659959E-002  +8.4418960964E-003 +7.3755080122E+001  +7.1267598832E-003 +7.0659565966E+001  +8.2767203305E-001 -2.8856455875E+000 
13399534.418 +8.0758303485E-001 -3.8214999367E-002  +6.8159312575E-003 +7.5974950750E+001  +6.6508290877E-003 +5.8282785748E+001  +8.4875518612E-001 -1.8310688149E+000 
13524679.599 +8.5159140845E-001 -2.2442712175E+000  +8.2548814361E-003 +8.0513978498E+001  +8.2908626781E-003 +6.6167778936E+001  +8.5849268069E-001 -2.8753548340E+000 
13649824.781 +8.3264034686E-001 -2.5775196357E+000  +8.6347227253E-003 +8.1522317040E+001  +9.0801666089E-003 +7.9760032180E+001  +8.8335216996E-001 -3.1067366654E+000 
13774969.962 +8.7443387020E-001 -8.4380487244E-001  +8.5009395448E-003 +7.3523963065E+001  +6.0940096709E-003 +7.5004285455E+001  +9.0062569316E-001 -3.1146125952E+000 
13900115.144 +8.7335890421E-001 -2.6778150150E+000  +6.2712626913E-003 +6.3534646325E+001  +6.8985040675E-003 +7.7866905366E+001  +9.1017387431E-001 -2.5023949900E+000 
14025260.325 +9.1480712450E-001 -4.4164946182E+000  +8.6410652290E-003 +7.3648338121E+001  +8.3183437022E-003 +7.9891123717E+001  +9.5682776021E-001 -3.2637989281E+000 
14150405.507 +9.5781617826E-001 -4.8030648730E+000  +8.6798434301E-003 +7.0184271927E+001  +8.4526611657E-003 +6.7263819199E+001  +9.3697060701E-001 -4.6069939182E+000 
14275550.688 +9.5503024246E-001 -4.8241112850E+000  +8.5065131452E-003 +7.9282724790E+001  +7.8957089929E-003 +7.5902876008E+001  +9.7503019939E-001 -4.8522239210E+000 
14400695.870 +9.8587249745E-001 -4.7079647299E+000  +7.4620063287E-003 +6.9691658629E+001  +7.0970221289E-003 +6.3881139559E+001  +9.8273201003E-001 -3.1333353390E+000 
