!  2-Port S-parameters saved by WinCal
! VAR MeasName=S-Parameters (CALIBRATED_DATA) read from VNA (P5004A)
! VAR MeasDate=28/08/2024 12:26:05
! VAR NAME=S2_r7c9_SET2_9k-100M_1
! VAR FILENAME=S2_r7c9_SET2_9k-100M_1.S2P
! VAR DATE=28/08/2024 12:26:05
! VAR PHYS_PORTS=1,2
! VAR ObjTypeName=DATASET
! VAR IndexType=Frequency
!
# Hz S MA R 50
9000.000 +8.2911785959E-002 -1.7905845330E+002  +7.0276703885E-003 +8.0332325389E+001  +4.8870378139E-003 -1.2375641026E+002  +2.7525191423E-001 -1.5284990557E+002 
134145.181 +1.1129123929E-001 +1.7009158242E+002  +1.6557947996E-004 -8.9897463552E+001  +5.1558691952E-004 -8.5663443251E+001  +2.4305725606E-001 -1.7172833821E+002 
259290.363 +1.1175666420E-001 +1.6984446591E+002  +1.0629433793E-003 -1.3958229561E+002  +2.5425540598E-004 -1.4081306423E+002  +2.5346162658E-001 -1.6852707037E+002 
384435.544 +1.1461371088E-001 +1.7024204256E+002  +5.3798480331E-004 +9.4120235403E+001  +3.2640119352E-004 -1.0468389548E+002  +2.4906564390E-001 -1.6971564247E+002 
509580.726 +1.1402616908E-001 +1.7078473463E+002  +3.1620442540E-004 -1.5422348548E+002  +6.3187313781E-004 +3.7511421231E+001  +2.4985385487E-001 -1.6575220095E+002 
634725.907 +1.1828414406E-001 +1.7172320049E+002  +7.4831182608E-004 -1.2377593100E+002  +1.5766677493E-003 +3.3494052360E+000  +2.5173919898E-001 -1.6479781776E+002 
759871.089 +1.2083690964E-001 +1.7068502670E+002  +1.9760604900E-004 -1.0590644920E+002  +2.1068429543E-004 +8.6024265083E+001  +2.4735528741E-001 -1.6712304246E+002 
885016.270 +1.2023431315E-001 +1.6893614368E+002  +3.1995585050E-004 -1.1322585887E+002  +3.8593369129E-004 +5.7063983455E+001  +2.4942582685E-001 -1.6695492187E+002 
1010161.452 +1.1892206742E-001 +1.7057572451E+002  +1.0590562996E-003 +1.1327045009E+002  +1.4765564254E-003 +1.7016185981E+002  +2.1812285393E-001 -1.6142465583E+002 
1135306.633 +1.1874243803E-001 +1.6999109658E+002  +8.3924982167E-004 +9.2029273589E+001  +1.0775769246E-003 +1.4605323975E+002  +2.1324539858E-001 -1.6530156986E+002 
1260451.815 +1.1918401498E-001 +1.7082376405E+002  +8.3474959894E-004 +1.0370372763E+002  +1.8439224321E-003 +8.8610860678E+001  +2.2500315067E-001 -1.5829303786E+002 
1385596.996 +1.2653345004E-001 +1.7266468600E+002  +9.2375413670E-004 -1.0649106689E+002  +5.9380278711E-004 +6.0631033821E+001  +2.6387058271E-001 -1.5970701552E+002 
1510742.178 +1.2680186973E-001 +1.7193484114E+002  +1.2564861685E-003 -9.0543172602E+001  +5.2805366382E-004 +1.0296137019E+001  +2.5527937483E-001 -1.5635903094E+002 
1635887.359 +1.2807918566E-001 +1.7099889737E+002  +5.1299445039E-004 -1.5040771118E+002  +1.0685508535E-003 -1.6491196769E+002  +2.4285086924E-001 -1.5682146754E+002 
1761032.541 +1.3155665339E-001 +1.6993083399E+002  +8.7571631968E-004 -2.8646898262E+001  +1.2801514723E-003 +1.6036990497E+002  +2.2956952816E-001 -1.5603084547E+002 
1886177.722 +1.3097979954E-001 +1.6874478947E+002  +1.4370974362E-003 +1.0240207950E+002  +5.8890277500E-004 +7.3521595074E+001  +2.1469990355E-001 -1.6240566534E+002 
2011322.904 +1.2925331572E-001 +1.6772037246E+002  +1.1785543849E-003 +8.9722101474E+001  +2.9173484615E-003 -1.0230386749E+002  +2.1092489732E-001 -1.6816190582E+002 
2136468.085 +1.3210055931E-001 +1.6504807312E+002  +1.5084904829E-003 -1.0527773886E+002  +2.2384419333E-003 +1.5997618273E+002  +1.1719974426E-001 -1.4426563401E+002 
2261613.267 +1.2969109308E-001 +1.6726528912E+002  +3.2559582952E-003 +1.0006581417E+002  +3.4929140806E-003 -8.1947815311E+001  +1.7433165846E-001 -1.7260259278E+002 
2386758.448 +1.3196356944E-001 +1.6339952284E+002  +5.5843576047E-003 +8.5145614782E+001  +4.2845725488E-003 -1.5174189980E+002  +1.5721431132E-001 -1.4657116952E+002 
2511903.630 +1.3979415729E-001 +1.6088954460E+002  +1.5498181380E-003 -1.7298770102E+002  +5.4017221943E-003 +3.3241337145E+001  +2.1346499899E-001 +1.7399301792E+002 
2637048.811 +1.1934606067E-001 +1.6435549119E+002  +2.7415096889E-002 +1.8356425278E+000  +2.3115583246E-002 +6.0746797373E+001  +4.1273022622E-001 +4.1825409556E+001 
2762193.992 +1.1954202787E-001 +1.7685842931E+002  +1.2643488596E-002 -4.0283809162E+001  +1.0763831744E-002 +1.7095755888E+002  +3.1001151378E-001 -8.3641714853E+001 
2887339.174 +1.2448897716E-001 +1.7805689077E+002  +1.0131746211E-002 -3.6374065497E+001  +3.3043002904E-002 -1.7736511932E+002  +4.0312108943E-001 -5.1899979874E+001 
3012484.355 +1.2083252949E-001 +1.7966964386E+002  +6.7317478494E-003 +3.7035562897E+001  +4.3334403856E-003 +1.5511341758E+002  +2.2049853991E-001 -1.0998880867E+002 
3137629.537 +1.0527129712E-001 +1.7681029919E+002  +1.3989953891E-002 -1.6145145590E+001  +1.0772557941E-002 +1.4821304122E+002  +3.9540369496E-001 -1.1153541848E+002 
3262774.718 +1.1252660429E-001 +1.6754280042E+002  +5.9410159188E-003 -8.2023710955E+001  +1.9269417760E-002 +6.1079609109E+000  +5.1706463391E-001 +7.3707254894E+001 
3387919.900 +1.3446117737E-001 +1.5083039784E+002  +2.0495597735E-003 -1.4687247394E+001  +1.8478308240E-002 -8.3766983371E+001  +1.1344557081E-001 +7.5421953605E+001 
3513065.081 +1.4726836289E-001 +1.5198485021E+002  +7.6033039512E-003 +9.2896849913E+001  +4.6745506236E-003 +9.3785678577E+001  +4.4884630212E-001 +1.4266635581E+002 
3638210.263 +1.6045750893E-001 +1.5420495662E+002  +3.8418728295E-002 +7.2329313418E+001  +1.9091996874E-002 -3.2966342619E+001  +1.8859919347E+000 +9.4380938662E+001 
3763355.444 +1.6474964397E-001 +1.5427538160E+002  +1.1695449414E-002 +1.6565577050E+002  +7.8347482008E-003 +2.7272279712E+001  +4.1823287749E-001 +1.2177578558E+002 
3888500.626 +1.6634277630E-001 +1.5207582576E+002  +4.4066958130E-003 +1.1125153313E+002  +1.1927019159E-002 -1.6391855192E+001  +4.0299713118E-001 +1.2892748971E+002 
4013645.807 +1.7183645497E-001 +1.5430461423E+002  +7.6876927150E-003 +7.1768655062E+001  +2.4168060847E-003 -1.6784028665E+001  +2.0301242318E-001 +1.1353101042E+002 
4138790.989 +1.7429447789E-001 +1.3376476566E+002  +6.4775330361E-003 +7.0463401723E+001  +1.5556111448E-002 +5.9240112652E+001  +1.6136102461E-001 +1.0989427581E+002 
4263936.170 +1.9888705636E-001 +1.3312912806E+002  +2.6672940229E-002 +7.4745378816E+001  +2.7829540327E-002 +6.2401298840E+001  +4.5659765592E-001 +8.6503954803E+001 
4389081.352 +1.9909981927E-001 +1.2611036179E+002  +3.6678317738E-002 +7.3631253226E+001  +2.9253196993E-002 +6.9795090303E+001  +1.0656455325E+000 +8.0697098318E+001 
4514226.533 +2.1058499692E-001 +1.3496535162E+002  +6.0252544913E-003 +1.6220064864E+002  +3.0736709170E-002 +8.0953498808E+001  +1.0257203242E+000 +1.3489057048E+002 
4639371.715 +3.0706734189E-001 +1.3645812747E+002  +2.0915475683E-002 -1.6650192766E+002  +7.8909178205E-003 -1.0081209416E+000  +2.0926702858E+000 +1.5570096380E+002 
4764516.896 +3.8461808980E-001 +1.1909560971E+002  +1.6614963265E-002 +1.4793583057E+002  +1.8484796532E-002 +9.6354921318E+001  +2.2486293694E+000 -1.5758428705E+002 
4889662.078 +4.2640958081E-001 +1.3612255765E+002  +3.6499752136E-002 -6.5713614545E+001  +3.0844873141E-002 -9.1277673241E+001  +2.1405843449E+000 -1.1220192040E+002 
5014807.259 +4.3552881211E-001 +1.1540584399E+002  +9.1143211476E-002 -1.5056423319E+002  +1.1918436694E-001 +5.5615713485E+001  +4.0300811090E+000 +1.2090625486E+002 
5139952.441 +4.8793975449E-001 +1.2879849221E+002  +2.8748090972E-002 -1.4600132543E+002  +8.0681892512E-002 +5.7264582985E+001  +3.8448226815E+000 +3.6993546033E+001 
5265097.622 +3.9327264718E-001 +1.1313179116E+002  +2.8363485342E-002 -4.4492493558E+001  +2.2108742508E-002 +5.6073035765E+001  +2.5563154734E+000 +9.6373245184E+001 
5390242.804 +3.9353315559E-001 +1.1724808675E+002  +5.7357202937E-002 +3.4844566465E+001  +3.4556244725E-002 -3.0655768444E+000  +2.8063496864E+000 +4.6189393089E+001 
5515387.985 +4.3186826413E-001 +1.3095167687E+002  +1.5372951156E-003 +8.9123683381E+001  +5.2370138211E-002 +6.5655835565E+001  +2.4120871592E+000 +9.9778020302E+001 
5640533.166 +4.9812208385E-001 +1.2662571373E+002  +3.5764837193E-002 +7.3766472827E+001  +2.2181305379E-003 +1.4596233697E+002  +1.5353632773E+000 +4.8240639630E+001 
5765678.348 +5.2394372124E-001 +1.1918502953E+002  +8.2883697687E-003 -1.1000240224E+001  +1.4186639427E-002 +1.0707629925E+002  +1.9637583671E+000 +6.2315765586E+001 
5890823.529 +4.9736952157E-001 +1.2761156526E+002  +1.0526022454E-002 -2.9618172639E+001  +1.8743877579E-002 +5.3711146448E+001  +1.8831391833E+000 +2.9495456419E+001 
6015968.711 +6.1835296782E-001 +1.1911299885E+002  +1.5566973064E-002 +1.6494915661E+002  +1.4677765379E-002 +6.7417000590E+001  +1.4838574222E+000 +5.1919837865E+001 
6141113.892 +6.5588306294E-001 +1.1045338940E+002  +8.6830576387E-003 -1.1758490655E+002  +2.5816739908E-002 +5.5390716612E+001  +1.4089312389E+000 +3.6189329877E+001 
6266259.074 +7.1276869309E-001 +1.0422625506E+002  +1.8249648677E-002 +2.6467758592E+001  +2.5565586372E-002 +7.1565771935E+001  +1.7335409444E+000 +1.8603210105E+001 
6391404.255 +1.4569042151E+000 +9.3444185789E+001  +5.8786035947E-002 +5.3551682236E+001  +1.9479489552E-002 +9.5811044903E+001  +1.9074783333E+000 +9.9246083843E+000 
6516549.437 +1.1317544699E+000 +7.0059023868E+001  +4.1332481699E-002 +1.0576575708E+001  +3.9191431559E-002 +1.2872801482E+001  +1.1976641992E+000 +9.0066506232E+000 
6641694.618 +1.3630951581E+000 +8.0200000373E+001  +2.3392252484E-002 +6.3738017573E+001  +1.7396822300E-002 +3.6043682312E+001  +1.5851830839E+000 -7.4670399737E+000 
6766839.800 +1.4822667208E+000 +5.0914557226E+001  +3.8667057416E-002 +3.1698317178E+001  +3.3109155935E-002 -1.1407533466E+001  +1.5969878229E+000 +1.1621851511E+000 
6891984.981 +2.1745109100E+000 +3.8002751940E+001  +4.6529395619E-003 +3.1137282890E+001  +2.4468897013E-002 +4.0113414356E+001  +1.3840137892E+000 -8.4303995321E+000 
7017130.163 +1.6449367124E+000 +1.9312267918E+001  +2.1356451312E-002 +6.7108960972E+001  +2.4939062088E-002 -3.3071800255E+001  +1.3162752210E+000 -7.6606644421E+000 
7142275.344 +1.6412302567E+000 +8.3861615021E+000  +3.3255977788E-002 -4.9563111693E+000  +1.9590107425E-002 +2.3700285566E+001  +1.2663689793E+000 -4.3271291359E-001 
7267420.526 +1.5458846297E+000 +7.7805672810E+000  +5.9400285605E-003 -5.3844715671E+000  +5.9704117660E-003 +3.0037622591E+001  +1.2443838110E+000 -8.8237627571E+000 
7392565.707 +1.3277790996E+000 +6.6348086369E+000  +9.1676436914E-003 +1.6973289883E+001  +1.5144345170E-002 +1.5765076788E+001  +1.4113336231E+000 -9.3924609543E+000 
7517710.889 +1.1500761683E+000 +4.6487098638E+000  +7.5555698436E-003 +6.0526401375E+001  +1.5201450153E-002 +4.9180632299E+001  +1.1968876298E+000 -2.6855752282E+000 
7642856.070 +9.5419575071E-001 +4.2246725374E+000  +1.4435899834E-002 +7.5860275182E+001  +7.3743741935E-003 +5.1216399736E+001  +1.1559748486E+000 -6.4495426108E+000 
7768001.252 +9.8592284574E-001 +2.6119376624E+000  +5.3401580095E-003 -1.9959334222E+001  +9.4104213216E-003 +7.6059560914E+001  +9.0375152835E-001 -4.2275927440E+000 
7893146.433 +9.5359026032E-001 +2.9480332702E-001  +6.3135241746E-003 +7.9919054355E+000  +6.9438980160E-003 +6.4981715422E+001  +9.1210362170E-001 +2.2260065242E+000 
8018291.615 +8.1403033490E-001 +1.7267571874E+000  +1.9717816182E-003 -8.9833059497E+000  +7.3961314473E-003 +8.3149157714E+001  +8.4801388183E-001 -5.5403767359E-003 
8143436.796 +7.6464982012E-001 +5.4286362417E+000  +1.1511706147E-002 +2.1443454166E+001  +1.0108860886E-002 +2.0876755151E+001  +8.4539771605E-001 +5.2968367249E-001 
8268581.977 +6.9337429392E-001 +9.6396047194E+000  +1.2676336346E-002 -4.1890973122E+000  +7.0841799326E-003 +4.4724343667E+001  +7.6278618207E-001 -6.0546784849E-001 
8393727.159 +6.8528184076E-001 +6.3341426088E+000  +8.9535326052E-003 +4.2370860338E+001  +8.7544407695E-003 +3.4666960953E+001  +7.8772594116E-001 +3.1156031839E+000 
8518872.340 +7.1444414384E-001 +8.9753517421E+000  +9.3690157467E-003 +3.4310187205E+001  +8.1441857961E-003 +2.6244140763E+001  +7.3488187835E-001 +9.7743147592E-001 
8644017.522 +6.0323869375E-001 +6.4544201938E+000  +7.1299237446E-003 -3.3772054895E+001  +7.1364149773E-003 +4.6713630469E+001  +6.5579523389E-001 +4.2331683242E-001 
8769162.703 +6.4761996891E-001 +6.8343191622E+000  +4.8510693706E-003 -1.0245475472E+001  +6.0687282452E-003 +2.9575683692E+001  +6.7173967126E-001 -5.4866741856E+000 
8894307.885 +6.3970903826E-001 +1.8819016937E+000  +1.1062433719E-002 +1.7824570959E+001  +8.6443402354E-003 +8.5599041181E+001  +6.5854828798E-001 -4.0324319597E+000 
9019453.066 +5.4757668603E-001 +9.1060842729E+000  +7.4276780312E-003 +4.4697739794E+001  +7.6258619447E-003 +3.2552090334E+001  +5.9399139608E-001 +1.4956651863E-001 
9144598.248 +6.0330976743E-001 +8.9754844466E+000  +8.8499578157E-003 +3.9142287303E+001  +6.1480635335E-003 +2.7630857604E+001  +6.4608709670E-001 -8.4102977551E+000 
9269743.429 +5.5644300589E-001 +4.7885711858E+000  +4.9771199760E-003 +2.2392562297E+001  +1.1279124414E-002 +5.3679972730E+001  +5.5968699601E-001 +1.9589277359E+000 
9394888.611 +6.0339338050E-001 +5.6524081068E+000  +5.7581068045E-003 -1.4632414602E+000  +1.7293679051E-003 +1.5141103149E+002  +6.0216768256E-001 -8.8980866197E-001 
9520033.792 +6.1751022188E-001 -7.6621773388E-001  +7.3801225110E-003 +4.0636947043E+001  +8.6957621629E-003 +3.6817356379E+001  +5.4533404836E-001 -4.1825864436E+000 
9645178.974 +5.7370686010E-001 +1.6723815922E+000  +7.4108741534E-003 +2.1909895779E+001  +7.1766829563E-003 +5.7876854236E+001  +5.4786973668E-001 -5.5877518659E+000 
9770324.155 +5.4801350426E-001 +4.3189624795E+000  +8.0021843936E-003 +3.9645281857E+001  +8.6858936430E-003 +2.6981993344E+001  +5.3519290610E-001 -3.8516678947E+000 
9895469.337 +5.4091822599E-001 +2.5268400340E+000  +9.6774717267E-003 +1.3360384750E+001  +9.4058812982E-003 +6.2105498679E+001  +6.0241676820E-001 -5.8274900835E+000 
10020614.518 +5.5932522153E-001 +4.0503887479E+000  +9.5555321769E-003 +2.7095779849E+001  +1.0378467771E-002 +4.1254301307E+001  +5.7343648234E-001 -3.5554824619E+000 
10145759.700 +5.4693390523E-001 +5.6341774667E+000  +8.6130138435E-003 +1.6762713825E+001  +6.5065318816E-003 +4.9710858130E+001  +5.7690700895E-001 -5.8837742299E+000 
10270904.881 +5.5691142751E-001 +1.9287186281E+000  +6.6114569639E-003 +2.7895986352E+001  +9.8269101814E-003 +5.7384585212E+001  +6.4381053566E-001 -1.2241999198E+000 
10396050.063 +5.6485531245E-001 +1.7219727684E+000  +8.8643430548E-003 +2.1137484115E+001  +9.4649793330E-003 +2.8892196164E+001  +5.6479408750E-001 -2.2880288702E+000 
10521195.244 +5.5986730056E-001 +6.7760307129E+000  +8.0633265112E-003 +5.2359421569E+001  +9.4254004069E-003 +4.7664950361E+001  +6.1844227650E-001 +1.0736622623E+000 
10646340.426 +5.6688946989E-001 +5.8141939178E+000  +8.4307676358E-003 +3.8724634141E+001  +1.0018739644E-002 +4.6083893141E+001  +5.6275637323E-001 +1.8750258829E+000 
10771485.607 +6.0207259338E-001 +6.6938218560E+000  +6.0278877133E-003 +4.0198398219E+001  +8.3599416613E-003 +4.5001148662E+001  +6.0546376051E-001 -2.4556579381E+000 
10896630.788 +6.1313582342E-001 +8.3781519411E+000  +8.3626070927E-003 +2.6837915308E+001  +7.5301840582E-003 +5.6664917885E+001  +6.0242989689E-001 +1.9660800941E-001 
11021775.970 +5.8805688031E-001 +7.0581322684E+000  +9.3550387288E-003 +2.9086080106E+001  +1.1045334003E-002 +4.1492306292E+001  +6.1994383345E-001 -2.8045536601E-001 
11146921.151 +6.0294242478E-001 +6.0236039824E+000  +8.0817254018E-003 +1.4171761919E+001  +8.7506798549E-003 +2.5052147584E+001  +5.9494547159E-001 +5.1784885276E-001 
11272066.333 +6.1062132148E-001 +7.3477430117E+000  +1.0434612627E-002 +3.4114985718E+001  +7.2596638534E-003 +5.1927040725E+001  +6.2541155481E-001 +1.4908289169E+000 
11397211.514 +6.2998180268E-001 +7.2525497452E+000  +9.6060223398E-003 +4.2753357089E+001  +1.0008807105E-002 +4.9805841808E+001  +6.4633536970E-001 +2.9559803776E+000 
11522356.696 +6.3558194673E-001 +5.4230474586E+000  +8.6369539346E-003 +3.1211569807E+001  +1.0195278157E-002 +5.5265150267E+001  +6.2919904334E-001 +3.3852943417E-001 
11647501.877 +6.2785981934E-001 +5.3599538663E+000  +9.6843191531E-003 +3.1887139850E+001  +8.1280099505E-003 +4.3586985638E+001  +6.5672525484E-001 +1.5138129497E+000 
11772647.059 +6.5963695813E-001 +5.7871878013E+000  +8.3790957506E-003 +3.6843502825E+001  +9.4834372681E-003 +5.2593946498E+001  +6.6260498711E-001 +3.5027146284E+000 
11897792.240 +6.7481880658E-001 +6.7434890270E+000  +9.9968838292E-003 +4.1025554423E+001  +8.9884926692E-003 +5.8635992595E+001  +6.9277750813E-001 -1.5428926435E+000 
12022937.422 +6.8913627087E-001 +4.2485481873E+000  +8.7752671573E-003 +3.1970831244E+001  +8.9394631859E-003 +4.2541557944E+001  +6.9854735428E-001 +1.0097248548E+000 
12148082.603 +7.0097849926E-001 +3.1496251961E+000  +8.5429438885E-003 +3.9846087661E+001  +1.0436961562E-002 +5.5265373956E+001  +7.0141620572E-001 +9.2005615815E-001 
12273227.785 +7.1415676258E-001 +5.4280106130E+000  +8.8013062712E-003 +2.8242592100E+001  +8.7632723122E-003 +3.8918848195E+001  +6.9737868504E-001 -2.7302106866E-001 
12398372.966 +6.9608914658E-001 +3.2833362683E+000  +7.5343489287E-003 +3.5407866644E+001  +9.6441254850E-003 +3.9453210833E+001  +7.2737932047E-001 -1.0368071754E+000 
12523518.148 +7.4354653094E-001 +3.0933890191E+000  +9.7519263198E-003 +4.7718865575E+001  +8.0743989843E-003 +5.7021504331E+001  +7.3979773535E-001 -1.2273089421E+000 
12648663.329 +7.2883436284E-001 +2.2740205839E+000  +1.1587401414E-002 +3.4169791107E+001  +8.8988118491E-003 +4.6473608708E+001  +7.3068875597E-001 -8.7731860635E-001 
12773808.511 +7.5450778705E-001 +1.5045495433E+000  +9.4109754046E-003 +3.7086932420E+001  +9.6330560483E-003 +4.5065359546E+001  +7.7321608608E-001 -1.3828831204E+000 
12898953.692 +7.6912674446E-001 +2.0063353268E+000  +1.1560247145E-002 +5.3745232561E+001  +1.0781397303E-002 +3.7822151874E+001  +7.6737691180E-001 -1.9721908122E+000 
13024098.874 +7.7017872021E-001 -1.1460359277E+000  +9.9399091991E-003 +3.7471858996E+001  +9.8038686298E-003 +4.0384714031E+001  +7.9999923348E-001 -3.0159188614E-001 
13149244.055 +8.0389181620E-001 -2.0266852492E+000  +9.9517278198E-003 +4.3879594241E+001  +9.9197234854E-003 +4.2228462975E+001  +7.9257669447E-001 -1.2800602568E+000 
13274389.237 +8.3549988697E-001 +1.1671174024E+000  +9.7903362077E-003 +4.6216264873E+001  +1.2339883570E-002 +3.9248480463E+001  +7.9674971538E-001 -2.8698873372E+000 
13399534.418 +8.2412912077E-001 -1.2084531053E+000  +1.0773410048E-002 +4.3518391058E+001  +1.2259167045E-002 +3.9922016651E+001  +8.4720977987E-001 -2.8449520801E+000 
13524679.599 +8.5346757186E-001 -1.6329253650E+000  +1.0073372732E-002 +4.4997692649E+001  +1.0079743132E-002 +4.3237412026E+001  +8.3665196269E-001 -1.5454176215E+000 
13649824.781 +8.8232622529E-001 -1.9974575475E+000  +1.2650056544E-002 +3.4432695141E+001  +1.1956904417E-002 +4.1150912462E+001  +8.8476782147E-001 -3.3570972497E+000 
13774969.962 +8.9160718702E-001 -2.3213348570E+000  +1.0891520199E-002 +4.4778001709E+001  +1.0153848847E-002 +4.5041333202E+001  +9.0596823541E-001 -2.8082839121E+000 
13900115.144 +8.9585171579E-001 -3.7750134127E+000  +1.1865621928E-002 +3.5403105482E+001  +1.0413182029E-002 +4.1984659197E+001  +9.0232367295E-001 -3.2686725220E+000 
14025260.325 +9.4510076660E-001 -3.1504991300E+000  +9.8126148394E-003 +4.8924840484E+001  +1.0309339021E-002 +3.9205208931E+001  +9.4083271039E-001 -2.8421868233E+000 
14150405.507 +9.2983714126E-001 -3.8368024951E+000  +1.0555205404E-002 +3.9216059600E+001  +1.1428969317E-002 +4.3128561407E+001  +9.3088944790E-001 -4.4133218681E+000 
14275550.688 +9.5266535454E-001 -4.1733139231E+000  +1.3563637786E-002 +4.1476929669E+001  +1.2011795269E-002 +4.3139046444E+001  +9.7390655395E-001 -5.7720437369E+000 
14400695.870 +9.5432961276E-001 -4.4335350142E+000  +1.1113130656E-002 +4.1662240076E+001  +1.0641067442E-002 +3.2111643453E+001  +9.9190283797E-001 -5.1567773540E+000 
