!  2-Port S-parameters saved by WinCal
! VAR MeasName=S-Parameters (CALIBRATED_DATA) read from VNA (P5004A)
! VAR MeasDate=27/08/2024 16:34:25
! VAR NAME=S2_r2c9_RESET1_9k-100M_1
! VAR FILENAME=S2_r2c9_RESET1_9k-100M_1.S2P
! VAR DATE=27/08/2024 16:34:25
! VAR PHYS_PORTS=1,2
! VAR ObjTypeName=DATASET
! VAR IndexType=Frequency
!
# Hz S MA R 50
9000.000 +8.4401733577E-002 -1.5437001192E+002  +1.1346282593E-002 +6.3942735245E+001  +1.3971981056E-002 -6.6573601552E+001  +3.1201317359E-001 -1.1948528785E+002 
134145.181 +1.1096598126E-001 +1.6953927088E+002  +1.0038070828E-004 +1.8425847288E+000  +4.9440590275E-004 -6.5634614280E+000  +2.4067716936E-001 -1.7146464084E+002 
259290.363 +1.1159709042E-001 +1.6979700052E+002  +3.4085993904E-004 -9.2188462869E+001  +4.3068534446E-004 -5.3282511216E+001  +2.3930490991E-001 -1.6921304823E+002 
384435.544 +1.1400239937E-001 +1.6966024996E+002  +8.6692972433E-004 -4.4389402619E+001  +5.8971031622E-004 +1.2114266215E+002  +2.4247425276E-001 -1.6941843517E+002 
509580.726 +1.1353374515E-001 +1.7059114816E+002  +6.2457182930E-004 -2.3795464423E+001  +1.5853935335E-003 +2.6388254997E+001  +2.3814043350E-001 -1.6663999965E+002 
634725.907 +1.1535810268E-001 +1.7144539725E+002  +3.6571855189E-004 +1.3395144895E+002  +5.3430557658E-004 -5.6324004344E+001  +2.4622296692E-001 -1.6709083873E+002 
759871.089 +1.2095749679E-001 +1.7063614912E+002  +3.7985535946E-004 +1.2809541119E+002  +9.8218991285E-005 -1.0210833384E+002  +2.4645236370E-001 -1.6615693181E+002 
885016.270 +1.1809765925E-001 +1.6892143813E+002  +1.7047660049E-004 +4.1945461582E+001  +1.1023980968E-003 +1.4277609859E+002  +2.3335109507E-001 -1.6642974758E+002 
1010161.452 +1.1527722950E-001 +1.7076398524E+002  +2.3642180819E-003 +7.3397890986E+001  +9.4916679411E-003 +1.4695535577E+002  +2.5179518044E-001 -9.2622441583E+001 
1135306.633 +1.1609877673E-001 +1.7241313169E+002  +2.8004551683E-003 +3.5312803630E+001  +3.2240422705E-003 -1.5899644516E+002  +1.6038873397E-001 -1.6938744059E+002 
1260451.815 +1.1793295695E-001 +1.7192425980E+002  +4.2955291670E-004 -1.6022161565E+002  +2.4049659571E-003 +9.1525749244E+001  +2.4329253517E-001 -1.6061245851E+002 
1385596.996 +1.2651943816E-001 +1.7221460190E+002  +9.0078401388E-004 +8.3332385238E+001  +3.8273599555E-004 +9.0923747300E+000  +2.6541034740E-001 -1.5909481259E+002 
1510742.178 +1.2611989422E-001 +1.7094050449E+002  +3.0056330233E-004 -1.7226226872E+002  +1.5546101954E-003 -1.3640424975E+002  +2.6037387248E-001 -1.5984677236E+002 
1635887.359 +1.2734634991E-001 +1.7070942527E+002  +7.4001940284E-004 -2.3575057977E+001  +1.4583043903E-003 -1.7792103867E+002  +2.3020141225E-001 -1.6161382856E+002 
1761032.541 +1.2799727233E-001 +1.7044847847E+002  +1.7047208522E-004 -1.5496956437E+002  +2.3160819716E-003 -1.8999479043E+001  +2.3180594919E-001 -1.5950033991E+002 
1886177.722 +1.2868034882E-001 +1.6693388012E+002  +1.3867695114E-003 -7.1595365418E+001  +8.7396708518E-004 -3.7338887041E+001  +2.0305272077E-001 -1.6774623604E+002 
2011322.904 +1.2785740701E-001 +1.6764021105E+002  +2.8619542535E-004 -1.1160259547E+002  +1.4642559192E-003 +1.2776928043E+002  +2.0823211211E-001 -1.7191928980E+002 
2136468.085 +1.2602932437E-001 +1.6470640399E+002  +2.5088025092E-003 +1.5056941901E+002  +2.0460223729E-003 -1.1095460674E+002  +2.0233694613E-001 +1.7821126845E+002 
2261613.267 +1.3131424491E-001 +1.6263591964E+002  +2.3836857455E-003 -1.2562831768E+002  +2.9176096988E-003 -4.9464485897E+001  +1.6339302446E-001 +1.7910885334E+002 
2386758.448 +1.3291623700E-001 +1.6542256746E+002  +2.8909276564E-003 -6.4962312586E+001  +3.0003928239E-003 -6.7268725610E+001  +2.0028374511E-001 +1.6865479886E+002 
2511903.630 +1.3652046737E-001 +1.5903657159E+002  +3.2809761160E-003 -8.1941380205E+001  +8.5701672743E-004 +2.9249526947E+000  +2.2072780461E-001 +1.6608486402E+002 
2637048.811 +1.2837656178E-001 +1.4791993338E+002  +4.9123213646E-003 +7.3080902946E+001  +6.1371655313E-003 +1.6623706549E+002  +1.0086697171E-001 +1.4957458345E+002 
2762193.992 +9.2403612104E-002 +1.6706377268E+002  +1.6408837415E-002 -1.2285995358E+002  +2.0466622411E-002 -1.4431776478E+002  +4.4844340296E-001 -4.5142439129E-002 
2887339.174 +8.6782489269E-002 -1.6322013197E+002  +1.3019487158E-002 +3.3674618801E+001  +2.8535261650E-003 -8.4026311087E+001  +4.5814062096E-001 -1.1902094365E+002 
3012484.355 +1.1422035362E-001 -1.7920969297E+002  +5.7409330348E-003 -3.7691370909E+001  +8.7194489889E-003 +9.8541294048E+001  +2.6232534683E-001 -8.0901107245E+001 
3137629.537 +1.1218426519E-001 +1.6943031185E+002  +5.8227548089E-002 +1.1959124176E+002  +7.1705319874E-002 +1.2488265341E+002  +2.0729036208E+000 +9.5768407267E+001 
3262774.718 +1.3331954747E-001 +1.6009928833E+002  +8.1032831150E-003 +1.3518898579E+002  +2.7180767701E-002 +5.2898182922E+001  +9.2339616036E-001 -9.2651016950E+001 
3387919.900 +1.4746635960E-001 +1.6040175967E+002  +1.7290279430E-002 -7.9197248469E+000  +9.0018338252E-003 -1.5836320505E+002  +3.0526734985E-001 -3.2619461489E+001 
3513065.081 +1.3847294983E-001 +1.4589180873E+002  +3.7153890646E-002 +1.0575543456E+002  +4.0130489813E-002 -1.2730382116E+002  +1.0763968885E+000 +8.1888548970E+001 
3638210.263 +1.6569773469E-001 +1.4472936489E+002  +6.9456536652E-003 +1.7136888374E+002  +3.4600211766E-003 -6.6134907166E+001  +7.2453717988E-001 +1.3869306579E+002 
3763355.444 +1.7171437382E-001 +1.3705043165E+002  +9.0814862812E-003 -6.2561743811E+001  +1.6626596298E-002 +2.2092070381E+001  +4.6761037525E-001 +1.0629922546E+002 
3888500.626 +1.8615260484E-001 +1.4544521029E+002  +5.7519869429E-003 +1.6830457856E+002  +7.1448499471E-003 -1.2350485139E+002  +5.4422221267E-001 +1.3588503977E+002 
4013645.807 +2.0245550638E-001 +1.4166332332E+002  +6.5366902829E-003 +1.4929552488E+002  +5.3712935147E-003 +3.1272862399E+001  +3.8630045677E-001 +1.4134250089E+002 
4138790.989 +1.7189039217E-001 +1.5459345950E+002  +1.0039608021E-002 +5.9577198036E+001  +1.1453423782E-002 -1.7612871345E+002  +7.9018791507E-001 +9.3636662977E+001 
4263936.170 +2.4762424922E-001 +1.3915956134E+002  +1.2517880211E-002 +1.3221585311E+002  +1.9182707840E-003 -6.6815317113E+001  +4.1096613827E-001 +1.3425994438E+002 
4389081.352 +2.3783434718E-001 +1.3541381970E+002  +5.9502113119E-003 +2.7279810242E+001  +1.0590421276E-002 +1.7817527898E+002  +7.9337575419E-001 +1.2745189733E+002 
4514226.533 +2.4831204763E-001 +1.0671946874E+002  +2.8862094740E-002 +1.2928661529E+002  +1.1671055038E-002 -4.4095152999E+001  +1.6755105685E+000 +9.0524254149E+001 
4639371.715 +2.8293243636E-001 +1.1377459501E+002  +6.0263144600E-002 -9.7958142629E+001  +1.0716244768E-002 +1.3464075603E+002  +8.8156956218E-001 +1.0349751507E+002 
4764516.896 +3.3207646545E-001 +1.2986785155E+002  +3.4765706322E-002 -1.7751243079E+002  +3.8904574672E-002 +7.8804041704E+001  +2.7384247340E+000 +1.7216686087E+002 
4889662.078 +4.6770267657E-001 +1.3643073882E+002  +2.3170754873E-001 +3.2386692291E+001  +1.8135475916E-001 -1.6283724873E+000  +1.0172830310E+001 -1.1548455377E+002 
5014807.259 +4.3942359497E-001 +1.3218542690E+002  +5.7753887134E-002 -1.4963101572E+002  +3.4618414348E-002 +1.6960961408E+002  +3.7907482581E+000 +1.3374299233E+002 
5139952.441 +4.0936356469E-001 +1.2725526579E+002  +4.1585678393E-002 +3.8855181005E+001  +1.8458630941E-003 +4.6233773128E+001  +2.9881533725E+000 +1.7151083174E+002 
5265097.622 +4.2593004335E-001 +1.2268035964E+002  +3.7654710520E-002 -2.3882174838E+001  +8.0312303542E-003 -1.2012859780E+002  +3.1962304394E+000 +8.9867002435E+001 
5390242.804 +4.8577402580E-001 +1.3181072042E+002  +1.4039909710E-002 +1.3956606149E+000  +7.9974045854E-003 -1.3325995283E+002  +2.1183011460E+000 +1.1518209881E+002 
5515387.985 +4.3934735476E-001 +1.3127951566E+002  +2.4355146809E-002 -1.2435561980E+002  +1.6412669272E-002 -1.6215384494E+002  +1.7793682948E+000 +1.2605390701E+002 
5640533.166 +4.2796617649E-001 +1.2784222836E+002  +9.6203714011E-003 +1.1559232371E+001  +1.5926699864E-002 +1.4488076297E+002  +1.4890874250E+000 +8.3066712105E+001 
5765678.348 +5.2090262108E-001 +1.1883446294E+002  +6.1418652362E-003 -4.2507728929E+001  +3.3879620813E-002 -1.7283059243E+002  +1.5834321891E+000 +7.2341784678E+001 
5890823.529 +7.9501364225E-001 +1.1991060668E+002  +3.3240068643E-002 -1.5127659300E+002  +2.8983687912E-002 +1.6021226268E+002  +1.7486897953E+000 +7.2949408164E+001 
6015968.711 +7.0418633346E-001 +1.1348367529E+002  +6.0739154742E-002 +1.0819328055E+002  +1.6805462753E-002 +1.2663939147E+002  +2.7562801452E+000 +4.9566317408E+001 
6141113.892 +6.5748758023E-001 +1.0900329979E+002  +1.7124942670E-002 -1.5103906582E+002  +5.4750453152E-002 +1.3179035490E+001  +3.4763640633E+000 +4.5708091205E+001 
6266259.074 +1.0362963653E+000 +1.1197010747E+002  +9.4064786148E-003 -1.5104000402E+002  +9.7676569743E-003 -5.0906656794E+001  +1.6709696937E+000 +4.7038305667E+001 
6391404.255 +1.1047696772E+000 +1.0297091369E+002  +1.4146936388E-002 +1.3362996912E+001  +2.9128090688E-003 -5.5039576892E+001  +1.2543919911E+000 +1.3554061472E+001 
6516549.437 +1.2112580912E+000 +1.0163741041E+002  +1.6641599532E-002 +5.6896285528E+001  +1.5997340428E-002 +6.9737155229E+001  +1.4839096640E+000 -2.5945349895E+000 
6641694.618 +1.3708188978E+000 +7.4175128849E+001  +9.0766504206E-003 -1.4017911298E+002  +2.3067904918E-002 -1.1646134863E+001  +1.2749388681E+000 +8.7043531596E+000 
6766839.800 +2.0885286377E+000 +4.0653821246E+001  +2.8709462578E-002 +1.1579651620E+002  +4.9989777346E-002 +1.1919657243E+002  +1.2651846107E+000 +1.2863321308E-001 
6891984.981 +2.1549509179E+000 +5.4032035438E+001  +1.1276609048E-002 +1.1693568719E+002  +1.9150302862E-002 +1.2093890024E+002  +1.2808569836E+000 -9.1347778641E+000 
7017130.163 +2.0497952182E+000 +8.4918155520E+000  +3.3220051285E-002 +9.7196612685E+001  +9.7458339891E-003 +6.6072901072E+001  +1.2237263270E+000 -1.2920460280E+001 
7142275.344 +1.7967855965E+000 -4.9313370216E+000  +9.2469437972E-003 -1.2947997374E+002  +2.3165882785E-002 +1.0360384137E+002  +1.3556191048E+000 -1.6443747092E+001 
7267420.526 +1.3303160521E+000 +4.1572854284E+000  +1.8896124656E-003 +3.4486173455E+001  +7.3443514170E-003 -1.7832532341E+002  +1.3085238526E+000 -8.4149705206E+000 
7392565.707 +1.4201459832E+000 +1.3104827105E+000  +4.4156767374E-003 -1.5741309621E+002  +8.7717365323E-003 +5.4475102111E+001  +1.3283509498E+000 -5.6323258070E+000 
7517710.889 +1.2916067719E+000 -2.2422651900E+000  +4.9632846729E-003 -5.7817597674E-001  +9.2126450761E-003 +1.1907397688E+002  +1.1837222929E+000 -1.1402666565E+001 
7642856.070 +1.0856671386E+000 +3.5940831043E+000  +1.1654039397E-002 +9.2444860931E+001  +1.0259055328E-002 +7.2487769932E+001  +1.0642153718E+000 -6.7009912087E+000 
7768001.252 +8.9201605851E-001 +4.5614214771E+000  +8.0476931810E-003 +1.0893741486E+002  +2.7450731599E-003 +6.9087453988E+001  +9.3362374178E-001 -3.7534208774E+000 
7893146.433 +8.8486500879E-001 +7.0536244839E+000  +2.1570299098E-003 -1.1056477406E+002  +3.8578916601E-003 +7.5839951937E+001  +1.0134979462E+000 -7.1066702291E-001 
8018291.615 +8.2123011385E-001 +4.3580608589E+000  +7.0023468967E-003 +1.0846013113E+002  +2.0577706133E-003 +3.2288662828E+001  +8.7067157941E-001 +2.3845836587E+000 
8143436.796 +7.7245695141E-001 +7.3620094294E+000  +2.2772718801E-003 +1.7750563517E+002  +6.1275025302E-003 +1.0118348595E+002  +8.3495136977E-001 -1.5269815745E+000 
8268581.977 +7.9386397178E-001 +1.2129457250E+001  +8.9635405890E-004 -1.2314916663E+002  +1.6048678749E-003 +1.2665890412E+002  +7.8265450322E-001 -1.2134388194E+000 
8393727.159 +7.6664680936E-001 +6.0591437411E+000  +6.1396743594E-003 +4.2824365108E+001  +6.5005708963E-003 +9.7083762167E+001  +7.5823728410E-001 +6.5293982714E+000 
8518872.340 +7.0447604865E-001 +4.7271729467E+000  +1.9293631605E-003 +1.5752663031E+001  +4.0661454815E-003 +1.4843500709E+002  +7.0992345240E-001 +7.6840655935E-001 
8644017.522 +6.3084780396E-001 +3.8571494945E+000  +4.2237367636E-003 +3.0619456099E+001  +4.2094005810E-003 +1.2254479676E+002  +7.5678024495E-001 -1.9353597625E+000 
8769162.703 +6.8864296958E-001 +1.1923837517E+001  +7.6709865339E-003 +3.0177325254E+001  +5.1804730922E-003 +8.9778337797E+001  +6.6784481863E-001 -1.1641641479E+000 
8894307.885 +6.3095022875E-001 +9.3245284265E+000  +5.9849768164E-003 +2.4394799266E+001  +6.9857810890E-003 +1.0348320942E+002  +6.7819336776E-001 +2.9436854308E+000 
9019453.066 +6.3471360113E-001 +5.3684485688E+000  +4.2512318830E-003 +1.0843821601E+002  +3.8220419910E-003 +1.2093136814E+002  +6.8896776685E-001 +1.5619796225E+000 
9144598.248 +5.9275646650E-001 +1.4597045312E-001  +2.6059187066E-003 +3.3546337169E+001  +4.9083798384E-003 +8.0961188219E+001  +6.0432534859E-001 -9.6530344618E-001 
9269743.429 +5.7507206528E-001 +6.4816040474E+000  +8.1830896928E-004 +1.6397687812E+002  +3.3387818570E-003 +6.2640563720E+001  +5.9212600735E-001 +4.5766713534E-001 
9394888.611 +5.7675913182E-001 +3.2267471632E-002  +2.4280154391E-003 +9.3736638343E+001  +5.5360614715E-003 +1.0263823994E+002  +6.1877074093E-001 -3.5039982383E+000 
9520033.792 +5.3752747678E-001 +2.0827722463E-001  +4.4884304859E-003 +8.9720028397E+001  +6.0331977300E-003 +7.6698678343E+001  +5.5842393260E-001 -4.3918428789E+000 
9645178.974 +5.4867007317E-001 +1.4887712450E+000  +5.6525971854E-003 +9.7404045889E+001  +5.0354605869E-003 +9.9381016137E+001  +5.9231564844E-001 -5.6751438863E+000 
9770324.155 +5.0526891627E-001 -1.9027871374E-001  +5.9098258775E-003 +8.2062393585E+001  +2.8797198850E-003 +1.0175135998E+002  +5.4532326336E-001 -8.5491022094E+000 
9895469.337 +5.5123562324E-001 +3.2809933569E+000  +3.2851774470E-003 +1.1012770301E+002  +3.6935880605E-003 +1.4037636262E+002  +6.1543722067E-001 -4.7928874188E+000 
10020614.518 +5.5701421135E-001 +7.1061260112E-001  +4.1845631083E-003 +7.3142984655E+001  +2.4110771705E-003 +4.1274285935E+001  +6.1066178048E-001 -3.2605310327E+000 
10145759.700 +5.6126755903E-001 +6.1035652190E+000  +3.3338378769E-003 +8.3784572095E+001  +3.7595278571E-003 +6.1341033937E+001  +6.1409204174E-001 -4.0283477575E+000 
10270904.881 +5.6726849977E-001 +3.8638969511E+000  +3.8399872206E-003 +5.9797904148E+001  +7.1785588154E-003 +1.0411693302E+002  +5.4728770935E-001 -3.8213392701E+000 
10396050.063 +5.5794476654E-001 +4.0617815007E+000  +3.4184949416E-003 +3.6801781077E+001  +5.4313641366E-003 +8.9310860565E+001  +6.2233074059E-001 -5.5208624179E+000 
10521195.244 +5.6438152557E-001 +3.7107928494E+000  +2.1014829299E-003 +3.2255407142E+001  +2.3820250673E-003 +6.9404508393E+001  +5.7617888275E-001 -2.3366384017E+000 
10646340.426 +5.7598111228E-001 +4.2585587221E+000  +4.0235757092E-003 +4.6098170571E+001  +5.8084048714E-003 +7.3061540098E+001  +6.1369081458E-001 -5.3589687298E-001 
10771485.607 +5.4844420136E-001 +5.2359918864E+000  +3.7071397539E-003 +1.0348528117E+002  +3.4433037831E-003 +9.4526191989E+001  +6.3653262688E-001 -8.2437606977E-001 
10896630.788 +5.4565603377E-001 +6.5318297836E+000  +4.3474712374E-003 +1.1409139440E+002  +4.3844773921E-003 +1.1937659548E+002  +6.0405094256E-001 -1.1474262626E+000 
11021775.970 +5.6824914759E-001 +5.8552367264E+000  +5.8730264156E-003 +8.0587124105E+001  +4.4782658485E-003 +1.0486723363E+002  +6.3546276317E-001 -1.2066125760E+000 
11146921.151 +5.7368658223E-001 +5.5865681722E+000  +4.3745248434E-003 +7.0401372755E+001  +5.9089546591E-003 +9.3902683277E+001  +6.4462066227E-001 +9.3177679528E-001 
11272066.333 +6.1809297444E-001 +5.8501343634E+000  +4.8906668763E-003 +6.0206828458E+001  +5.4803961841E-003 +9.2685083002E+001  +6.0603617276E-001 -1.4187052337E+000 
11397211.514 +5.8913026340E-001 +5.3735898233E+000  +5.5512214678E-003 +8.2991296411E+001  +7.5454261155E-003 +1.1972460119E+002  +6.2386160164E-001 +2.2103911290E+000 
11522356.696 +6.1108265508E-001 +7.0960511230E+000  +5.9607901227E-003 +9.0953715998E+001  +5.3125043125E-003 +9.4175400132E+001  +6.3314142503E-001 +3.6829188505E-001 
11647501.877 +6.4039474240E-001 +5.7517814086E+000  +4.6795453155E-003 +8.9027662323E+001  +3.3795239871E-003 +1.0406165990E+002  +6.4576431393E-001 +5.4291283421E-001 
11772647.059 +6.7598293000E-001 +4.3628723400E+000  +5.4624059783E-003 +8.8287779870E+001  +6.1136771061E-003 +1.1515888764E+002  +6.5734394786E-001 +9.0818308493E-001 
11897792.240 +6.4682507074E-001 +5.3241049440E+000  +5.5970396935E-003 +9.8953826988E+001  +4.9966050231E-003 +1.0329144320E+002  +6.9931151772E-001 +3.5118270718E-001 
12022937.422 +6.5062234536E-001 +4.2630588143E+000  +6.1574949821E-003 +7.6729739141E+001  +8.4846108657E-003 +1.1100599286E+002  +7.0337836025E-001 +2.1646245671E+000 
12148082.603 +6.9054609666E-001 +3.8009746045E+000  +5.7036594849E-003 +1.0041259606E+002  +3.5725277260E-003 +9.2598705963E+001  +7.0701629776E-001 -4.6291357598E-001 
12273227.785 +6.8462335065E-001 +4.2619144942E+000  +6.3078673878E-003 +7.9655124339E+001  +5.4429137509E-003 +8.9197923358E+001  +7.0509701031E-001 -1.0887907710E+000 
12398372.966 +6.9150141894E-001 +6.3675476845E+000  +5.5029741629E-003 +8.8032197624E+001  +4.6930834929E-003 +7.5565291395E+001  +7.3363300292E-001 -1.0856191057E+000 
12523518.148 +7.2119388274E-001 +2.1906189720E+000  +5.4004416142E-003 +9.1198953470E+001  +5.3427967783E-003 +9.1631233945E+001  +7.3491114034E-001 -9.2137420909E-002 
12648663.329 +7.3592960025E-001 +3.2556480882E+000  +6.2495816223E-003 +9.3241793141E+001  +4.2177091459E-003 +8.9967883861E+001  +7.4841244219E-001 +4.2238888056E-001 
12773808.511 +7.5040169551E-001 +8.8779996363E-001  +5.6101724659E-003 +9.1934678312E+001  +7.4532546150E-003 +1.0166400614E+002  +7.4275750211E-001 -8.3807137727E-001 
12898953.692 +7.8278132877E-001 +9.1658500192E-001  +4.1227052209E-003 +9.0194566880E+001  +4.7407436188E-003 +1.1499413939E+002  +7.5713280338E-001 +4.3469606823E-001 
13024098.874 +7.9508875195E-001 +8.1989099816E-001  +6.1711837685E-003 +9.4834739111E+001  +6.3387008600E-003 +9.5586335423E+001  +7.9815728912E-001 -1.0442766044E-001 
13149244.055 +8.1985521599E-001 +4.7580252197E-003  +5.0504654797E-003 +8.6582003285E+001  +7.0275963485E-003 +9.9736323592E+001  +7.9747875325E-001 -5.9080759711E-001 
13274389.237 +8.0334480945E-001 -1.8938949436E+000  +5.9643589810E-003 +9.7434499197E+001  +6.0412808560E-003 +7.9132645669E+001  +8.2733489582E-001 -2.7488316124E+000 
13399534.418 +8.4278971848E-001 -9.5695833352E-001  +7.0235773466E-003 +9.2428687689E+001  +6.4977501664E-003 +8.9989572553E+001  +8.3295609234E-001 -1.2540686292E+000 
13524679.599 +8.5269111681E-001 -9.5039606756E-001  +7.5428368398E-003 +1.0733457808E+002  +6.4974472219E-003 +9.3739366386E+001  +8.7476582153E-001 -2.5152323256E+000 
13649824.781 +8.4912732413E-001 -2.1735481215E+000  +5.5082750255E-003 +9.0338589854E+001  +7.9433865435E-003 +8.7645370674E+001  +9.1141343958E-001 -3.8560933110E+000 
13774969.962 +8.7633148013E-001 -2.2547110554E+000  +7.6019651216E-003 +8.7043854922E+001  +6.0953789440E-003 +9.1662749573E+001  +9.0645269949E-001 -3.5366031526E+000 
13900115.144 +9.1565048228E-001 -3.9355725361E+000  +9.1768798590E-003 +1.0433966376E+002  +7.3441638881E-003 +8.9718864103E+001  +9.2902785851E-001 -3.7916506347E+000 
14025260.325 +9.0343855728E-001 -3.6405632623E+000  +8.0136157653E-003 +8.4658327923E+001  +8.3602583924E-003 +8.5538337231E+001  +8.9861013006E-001 -3.9803628365E+000 
14150405.507 +9.4392900138E-001 -4.2751799547E+000  +6.9370764215E-003 +8.2326984311E+001  +8.6242206603E-003 +8.4162659462E+001  +9.4609937307E-001 -5.1073328045E+000 
14275550.688 +9.5765304811E-001 -5.5007776403E+000  +7.7327881502E-003 +8.4162530851E+001  +6.9261266281E-003 +8.3733350012E+001  +9.8422384653E-001 -3.5831252545E+000 
14400695.870 +9.9027141124E-001 -4.8011430329E+000  +5.5510548991E-003 +8.7571014814E+001  +9.0830060004E-003 +8.2021226189E+001  +1.0023880032E+000 -5.1724416323E+000 
