!  2-Port S-parameters saved by WinCal
! VAR MeasName=S-Parameters (CALIBRATED_DATA) read from VNA (P5004A)
! VAR MeasDate=27/08/2024 17:01:34
! VAR NAME=S2_r3c9_formed_9k-100M_3
! VAR FILENAME=S2_r3c9_formed_9k-100M_3.S2P
! VAR DATE=27/08/2024 17:01:34
! VAR PHYS_PORTS=1,2
! VAR ObjTypeName=DATASET
! VAR IndexType=Frequency
!
# Hz S MA R 50
9000.000 +5.6164453251E-002 -1.6225403389E+002  +1.9984177485E-003 -1.3574092163E+002  +7.5827691194E-003 -1.4395706721E+002  +2.5264812733E-001 -1.4115507243E+002 
134145.181 +1.1037787284E-001 +1.6942021973E+002  +5.6926068651E-004 -1.1270806394E+002  +1.6932167246E-004 -3.4133632788E+001  +2.3904554934E-001 -1.7055743418E+002 
259290.363 +1.1191758981E-001 +1.6934607918E+002  +4.0215672693E-004 +5.7146478845E+001  +5.0613632539E-004 -1.2395608410E+002  +2.4583520054E-001 -1.7020033424E+002 
384435.544 +1.1234398778E-001 +1.7029538308E+002  +6.8686578310E-004 -4.9452710079E+001  +6.6560811923E-004 -2.8889182115E+001  +2.4298639044E-001 -1.6969299975E+002 
509580.726 +1.1120314953E-001 +1.7127383954E+002  +4.4522890350E-004 +1.1315335291E+002  +5.8800779758E-004 -8.5973554072E+001  +2.4447785931E-001 -1.6545418992E+002 
634725.907 +1.1658870880E-001 +1.7179534734E+002  +6.6152117848E-004 +1.7973967161E+002  +8.3125537369E-004 +1.2698126792E+002  +2.4504622018E-001 -1.6682954860E+002 
759871.089 +1.1851414773E-001 +1.7068319859E+002  +5.2596464855E-004 -1.3379123396E+002  +8.1261597438E-005 +5.1937505719E+001  +2.3499269382E-001 -1.6590055751E+002 
885016.270 +1.1798042778E-001 +1.6979576337E+002  +4.1036924788E-004 -1.2242371155E+002  +4.4258048374E-004 -3.8365877947E+000  +2.3634082901E-001 -1.6549277126E+002 
1010161.452 +1.1525032125E-001 +1.7126694568E+002  +1.0260213545E-003 -9.3896635820E+001  +6.6051867923E-004 -8.7576875622E+001  +1.8925820313E-001 -1.6891324791E+002 
1135306.633 +1.1548278417E-001 +1.6881399805E+002  +2.1361713777E-003 +1.2464163916E+002  +3.0220374930E-003 -1.4763967776E+002  +1.7876586484E-001 -1.5476079443E+002 
1260451.815 +1.2115308340E-001 +1.7010319839E+002  +1.4633211810E-003 -1.7218818214E+002  +2.8546373806E-004 +1.1235742630E+002  +2.3457742613E-001 -1.5341941090E+002 
1385596.996 +1.2596135059E-001 +1.7229610458E+002  +4.0588086603E-004 -7.3707136685E+001  +1.1122963338E-003 -4.4257662657E+001  +2.6629515836E-001 -1.5973132068E+002 
1510742.178 +1.2771748802E-001 +1.7194922669E+002  +4.9014295826E-004 -2.6911849332E+001  +7.4068881025E-004 +5.6642816337E+001  +2.6163883937E-001 -1.5742018075E+002 
1635887.359 +1.2499010089E-001 +1.7030804316E+002  +8.0670807274E-004 +9.3184594961E+001  +1.7663449774E-003 -2.7163552726E+001  +2.1939054354E-001 -1.6150499556E+002 
1761032.541 +1.2849469999E-001 +1.6819873218E+002  +8.6435822699E-004 +1.4839519712E+002  +1.3922683744E-003 -5.5769691005E+001  +2.2971017288E-001 -1.6371545241E+002 
1886177.722 +1.3005474826E-001 +1.7022904286E+002  +1.8611789948E-003 +2.5149343128E+001  +2.7928170508E-003 -1.3894432513E+002  +2.1079590171E-001 -1.6024025389E+002 
2011322.904 +1.2603042771E-001 +1.6783158671E+002  +2.9436962058E-003 +6.2569046004E+001  +3.2171273467E-003 -8.5943913907E+001  +1.8432592383E-001 -1.6117713390E+002 
2136468.085 +1.2678778171E-001 +1.6739238546E+002  +2.0737554275E-003 +9.3576604431E+001  +3.0797179015E-003 -2.1932007810E+001  +1.7227810429E-001 -1.6375351152E+002 
2261613.267 +1.2951615069E-001 +1.6460018809E+002  +3.9021372242E-003 +6.5515403994E+001  +2.7661993015E-003 -4.0907226406E+001  +2.3146215743E-001 -1.7584757222E+002 
2386758.448 +1.4373648492E-001 +1.6279631148E+002  +1.0313521147E-003 -7.4818493676E+000  +2.2657569010E-003 -8.0133877802E+001  +1.9909199714E-001 -1.6011068503E+002 
2511903.630 +1.3145837159E-001 +1.6437822270E+002  +3.3971774062E-003 +1.6920754104E+002  +6.1626686990E-003 -1.7399250486E+001  +2.5970905949E-001 +1.5629788302E+002 
2637048.811 +1.0835474095E-001 +1.4533072297E+002  +1.3383081070E-002 +1.1550113877E+002  +1.7228046745E-002 -3.4406270560E+001  +3.0232294190E-001 +1.5242841319E+002 
2762193.992 +1.3014086503E-001 -1.7086911773E+002  +5.3116817636E-001 -5.6285431364E+001  +5.1561566150E-001 -1.6794783323E+002  +4.7982176327E+000 -7.2393739630E+001 
2887339.174 +1.0752357622E-001 +1.6893219822E+002  +1.6762438007E-002 -4.9518633876E+001  +2.8762122073E-002 -1.4162271062E+002  +2.6542060440E-001 -5.1621709625E+001 
3012484.355 +1.2984433537E-001 +1.7249945182E+002  +3.0622727037E-003 -1.3280100109E+002  +2.3172861329E-002 -1.6218372348E+002  +6.9076892999E-001 -9.4282726137E+001 
3137629.537 +1.1265426072E-001 +1.6501743792E+002  +2.3763715545E-002 -1.3717793237E+001  +1.9858757509E-002 -1.0442070502E+002  +5.5631693118E-001 +4.9431702286E+000 
3262774.718 +1.1955222842E-001 +1.6141248751E+002  +3.0041470226E-002 +9.2049622722E+001  +1.1257007953E-002 -2.1359776696E+001  +6.6096854281E-001 +1.0228224619E+002 
3387919.900 +1.4372022751E-001 +1.5416792127E+002  +2.2068783741E-002 -1.3690676323E+001  +3.1731937363E-002 -1.0834375718E+002  +5.6898900390E-001 -6.9410281131E+001 
3513065.081 +1.6372567881E-001 +1.4699815061E+002  +2.8556157679E-002 -4.1683524746E+001  +1.1283791999E-002 -7.3781780146E+001  +4.2757716998E-001 -6.4488281709E+001 
3638210.263 +1.9542141720E-001 +1.3849085735E+002  +2.3482029713E-002 +1.1440114207E+002  +1.2143053744E-002 +1.0949255485E+001  +4.5049697912E-001 +1.4311964095E+002 
3763355.444 +1.9730908180E-001 +1.4331105539E+002  +2.9412047272E-002 +1.1754391293E+002  +2.4328438516E-002 +1.6745139433E+001  +7.1591583655E-001 +1.2890636180E+002 
3888500.626 +1.6600734298E-001 +1.5280036894E+002  +8.4181970911E-003 +4.0935363488E+001  +9.6595704011E-003 +1.0597522902E-001  +1.7780873555E-001 +1.5334265100E+002 
4013645.807 +1.9604907464E-001 +1.4359144080E+002  +2.7622025780E-002 +9.8713264670E+001  +3.1443113570E-002 -2.5832647600E+001  +4.2424921252E-001 +5.9661134444E+001 
4138790.989 +1.8076178805E-001 +1.4662221868E+002  +2.1541820937E-002 +7.6879218079E+001  +2.6145418173E-002 +5.8471914289E+001  +5.9100435967E-001 +1.2156032011E+002 
4263936.170 +1.8942339060E-001 +1.2812839143E+002  +3.2455377467E-002 +1.5224660568E+002  +2.2190155939E-002 +3.9424063794E+001  +7.5063705294E-001 +1.4138274062E+002 
4389081.352 +2.2208363500E-001 +1.4868414704E+002  +4.5817457327E-002 +1.2817001974E+002  +3.9845550318E-002 +6.9315137097E+001  +2.1498923670E+000 +1.2033394305E+002 
4514226.533 +2.5029008323E-001 +1.2795431630E+002  +1.0456605837E-001 +1.4467461733E+002  +5.5505776473E-002 +4.3305921640E+001  +2.6842527496E+000 +9.2843711449E+001 
4639371.715 +2.7962776525E-001 +1.2614408392E+002  +5.9961486889E-002 +1.7755558430E+002  +2.9842321788E-002 +6.7420696162E+001  +1.4902204712E+000 +1.5545185126E+002 
4764516.896 +3.3287423846E-001 +1.2393701204E+002  +7.9793876375E-002 +1.4776864360E+002  +2.1375257706E-001 +7.2864622149E+001  +5.6043176164E+000 +9.7713032293E+001 
4889662.078 +4.7964020331E-001 +1.1355320711E+002  +3.7459166031E-001 -8.0182468465E+001  +2.6081585337E-001 -1.6533508648E+002  +5.7775936791E+000 -1.5521539654E+002 
5014807.259 +4.2663650643E-001 +1.3705329374E+002  +9.2581315672E-002 -1.5022720288E+002  +1.8566741151E-001 +1.4473096334E+002  +5.8863863028E+000 +1.3978134921E+002 
5139952.441 +3.2365356180E-001 +1.3111011973E+002  +5.9612010235E-002 +2.8138683622E+001  +6.2293042940E-002 -1.3117107131E+001  +1.9618410198E+000 -2.0085511702E+001 
5265097.622 +3.8987255718E-001 +1.2863950293E+002  +4.6294675775E-002 +9.0947277831E+001  +4.9590196445E-002 +4.7095508492E+001  +8.8565447771E-001 +7.1349377423E+001 
5390242.804 +3.2488255662E-001 +1.2623254781E+002  +4.2603971145E-002 +1.3127642104E+002  +4.4665698298E-002 +9.7554143680E+001  +1.5250148699E+000 +1.3831531200E+002 
5515387.985 +4.5199092020E-001 +1.2211212635E+002  +8.8012589133E-002 +7.6681568485E+001  +7.8344640764E-002 +3.8762945227E+001  +1.8738731588E+000 +6.4055947765E+001 
5640533.166 +4.1759741249E-001 +1.3136975740E+002  +3.2360534436E-002 +1.0452777792E+002  +4.5770200620E-002 +6.3312355444E+001  +1.2771187186E+000 +9.7000455117E+001 
5765678.348 +5.0764197786E-001 +1.2213710138E+002  +8.5278648390E-002 +1.1115131790E+002  +8.5149702757E-002 +7.5754012223E+001  +2.2216888235E+000 +8.7712083370E+001 
5890823.529 +5.5092227983E-001 +1.2079666560E+002  +1.0021790752E-001 +9.2368362491E+001  +1.0313267545E-001 +4.1080472729E+001  +2.1611207393E+000 +6.0496933857E+001 
6015968.711 +6.2487447672E-001 +1.2733531025E+002  +7.6359922482E-002 +5.2885092585E+001  +8.2396744975E-002 +3.9548677609E+001  +2.3166499602E+000 +3.0039055593E+001 
6141113.892 +7.2304775130E-001 +1.0862793864E+002  +8.3701653817E-002 +6.8568545968E+001  +7.3569791258E-002 +5.2757022670E+001  +1.6136290850E+000 +5.0623910911E+001 
6266259.074 +7.9360706848E-001 +1.1156691771E+002  +7.1622811903E-002 +5.8810790120E+001  +1.0047759559E-001 +4.1402311582E+001  +2.0733451006E+000 +3.6851486547E+001 
6391404.255 +8.6482373997E-001 +1.0556451340E+002  +7.4266493381E-002 +5.2545413007E+001  +1.0662136825E-001 +3.4422560486E+001  +2.2104137010E+000 +1.7557598267E+001 
6516549.437 +1.3482572165E+000 +9.0703805845E+001  +7.5357843129E-002 +5.6142795238E+001  +1.1036976549E-001 +2.7101527004E+001  +1.3957710515E+000 -5.3250788917E+000 
6641694.618 +1.5312694630E+000 +5.1160871716E+001  +1.1480968612E-001 +2.8220728848E+001  +7.6719509476E-002 +1.4864920078E+001  +1.2732508023E+000 +1.9303407514E+001 
6766839.800 +1.9110722858E+000 +5.4832856384E+001  +1.2086526545E-001 +2.6855184129E+001  +1.1359050565E-001 +1.3114199784E+001  +1.3034147054E+000 -7.3936864105E+000 
6891984.981 +1.7025382338E+000 +3.2104593291E+001  +9.6649292155E-002 +8.4455505274E+000  +8.9823060785E-002 +3.2884489704E+000  +1.2998116237E+000 -1.4693092814E+001 
7017130.163 +1.6322673602E+000 +1.0154866838E+001  +7.9637772418E-002 -8.1688999411E+000  +8.7231426510E-002 -7.2983043828E+000  +1.4656884608E+000 -1.2085984946E+001 
7142275.344 +1.4391392164E+000 +1.3287183372E+001  +6.8215789018E-002 +3.6352477508E+000  +7.1015944655E-002 -9.7008543244E+000  +1.2172251487E+000 -9.0612892047E+000 
7267420.526 +1.4806382317E+000 -3.9669985635E+000  +5.6082496094E-002 -6.1899457642E+000  +7.1267887927E-002 -5.7698622060E+000  +1.2426194055E+000 -1.2603025711E+001 
7392565.707 +1.3508167218E+000 -2.6449770052E+000  +5.3598950202E-002 +1.1383792096E+001  +4.5363188368E-002 -7.6534981863E+000  +1.3399385208E+000 -7.8460514804E+000 
7517710.889 +1.2005261497E+000 -2.5084829185E+000  +5.4147841677E-002 +1.1408017025E+001  +4.4832085805E-002 +1.1238315368E+001  +1.1080455094E+000 -5.8372006492E+000 
7642856.070 +1.0649900706E+000 -4.1513230783E+000  +3.9596293993E-002 +3.8037865097E-001  +4.2219157262E-002 +1.0915861086E+001  +1.0660772321E+000 -9.1579427877E+000 
7768001.252 +8.9543401447E-001 +1.3332176919E+000  +3.0239835896E-002 +1.2418038000E+001  +4.0735594511E-002 +5.8319070624E+000  +1.1197841723E+000 -2.7468026594E+000 
7893146.433 +8.6680983954E-001 +2.0058522843E+000  +4.2427985929E-002 +6.8968521444E+000  +3.3615169047E-002 +1.2532819804E+001  +8.8333800272E-001 +8.9510630290E-001 
8018291.615 +8.2409404889E-001 +6.6046744744E+000  +3.6169839716E-002 -1.9952250133E+000  +3.4366723195E-002 +7.3693365965E+000  +8.5472414786E-001 -6.0081448108E+000 
8143436.796 +7.2249012542E-001 +2.2422513767E+000  +3.1727460673E-002 -2.3807594588E+000  +3.1500220577E-002 +1.8875382959E+000  +7.7401908997E-001 -8.8995069727E-001 
8268581.977 +6.5475955142E-001 +6.2418522099E+000  +3.8261864962E-002 +7.5133097703E+000  +4.0260522194E-002 +1.4512063932E+001  +7.2461460765E-001 +1.3766173386E+000 
8393727.159 +6.4040971150E-001 +4.7529494174E+000  +3.4141562713E-002 -5.7848636283E+000  +2.7629655437E-002 +1.7977265570E+001  +7.2700145570E-001 -2.6081093022E+000 
8518872.340 +6.6277912757E-001 +6.5550829525E+000  +3.2739305147E-002 +5.3483589471E+000  +3.1730480995E-002 +1.0022959530E+001  +6.5953994148E-001 +1.2685732837E+000 
8644017.522 +6.4983384899E-001 +7.6755671202E+000  +3.6280758910E-002 +3.1164122490E-001  +2.9207108306E-002 +2.2946913316E+001  +6.6869274249E-001 -2.1228665264E+000 
8769162.703 +6.1661259616E-001 +1.0484519794E+001  +3.0091006477E-002 +1.8503961545E+000  +2.5990197923E-002 +1.8327320987E+001  +5.8695620999E-001 -3.1571409601E+000 
8894307.885 +5.8112038986E-001 +8.5298291960E+000  +3.1468743011E-002 -3.6471679329E+000  +3.0562279352E-002 +1.5507776861E+001  +6.2740051510E-001 +3.7898958597E+000 
9019453.066 +6.0718132895E-001 +7.7062461475E+000  +2.6754189129E-002 +5.1202684883E+000  +2.7372371104E-002 +1.8979257940E+001  +6.2157918736E-001 +5.1684580748E-001 
9144598.248 +5.3678289381E-001 +8.4700529091E+000  +2.9319772508E-002 +1.6466396018E-001  +3.3475360007E-002 +1.8701322095E+001  +5.5365496695E-001 +5.0860694416E-001 
9269743.429 +5.5653937854E-001 +2.4791544410E+000  +2.8383437945E-002 +3.8574051431E+000  +2.9819625587E-002 +1.5684808937E+001  +6.0186077025E-001 -1.0245673300E-001 
9394888.611 +5.1564268276E-001 +3.3777412937E+000  +3.3380712824E-002 +5.9730820039E+000  +2.9386303005E-002 +1.8176530298E+001  +5.7092509102E-001 -1.2636737829E+000 
9520033.792 +4.8648684474E-001 +4.6229130029E+000  +3.1318479020E-002 -2.4932105917E+000  +3.1802152854E-002 +1.3522901684E+001  +5.7117911216E-001 -5.9957533446E+000 
9645178.974 +5.1048142151E-001 +1.7307091173E-001  +3.1121747636E-002 +4.9241060379E-001  +3.0391144984E-002 +1.5342172668E+001  +5.5126474566E-001 -3.9013959794E+000 
9770324.155 +4.8828939231E-001 -4.1517299640E+000  +3.1462744008E-002 +5.2067238178E-003  +3.2424033737E-002 +1.4962689414E+001  +5.5844978240E-001 -7.5237415382E+000 
9895469.337 +4.7621398769E-001 +2.8345812818E+000  +3.1416088866E-002 -4.7935509111E-001  +3.3133380913E-002 +2.3823402403E+001  +5.4182763252E-001 -5.8379861786E+000 
10020614.518 +5.3188801080E-001 +2.5664969966E+000  +3.2580384018E-002 +2.2589264332E+000  +3.3600234742E-002 +2.0523903115E+001  +5.5627796867E-001 -3.7225283652E+000 
10145759.700 +5.2481646469E-001 +6.2108759912E+000  +2.8648813559E-002 +6.1546255704E+000  +2.8185711824E-002 +1.5720332337E+001  +5.3849000544E-001 -5.5880767172E+000 
10270904.881 +5.3393567107E-001 +5.1921405530E+000  +3.2814499644E-002 +4.3510728052E+000  +3.2991298259E-002 +2.0835118895E+001  +5.2697727692E-001 -1.4357264176E+000 
10396050.063 +5.2246048997E-001 +5.0554454436E+000  +3.2752783713E-002 +1.2440624181E+000  +3.1058210702E-002 +1.9251868222E+001  +5.8074683352E-001 -3.5693823879E-001 
10521195.244 +5.3473124785E-001 +4.9108442947E+000  +3.0548564663E-002 +5.7233774555E+000  +3.2585487754E-002 +2.1124224925E+001  +5.5826639861E-001 -1.1958456105E+000 
10646340.426 +5.4158726428E-001 +1.1210540822E+001  +3.2850467893E-002 +2.4377550214E+000  +3.1352936500E-002 +2.3460128752E+001  +5.4726109203E-001 +1.7962262582E+000 
10771485.607 +5.2269924745E-001 +6.0924406740E+000  +3.3087059368E-002 +4.6271644292E+000  +3.0503977425E-002 +1.8516766352E+001  +5.8277980320E-001 +3.7133027885E+000 
10896630.788 +5.4780407395E-001 +1.0075291011E+001  +3.3022542994E-002 +5.0445646185E+000  +3.3850705788E-002 +1.6101123685E+001  +5.8059356319E-001 -1.6341307389E-001 
11021775.970 +5.5770495354E-001 +8.4793769725E+000  +3.0681877523E-002 +6.3422757745E+000  +3.3995578038E-002 +1.6846847058E+001  +5.6208958698E-001 +8.2450868373E-001 
11146921.151 +5.4642014611E-001 +7.2745684776E+000  +3.1576449901E-002 +6.6846014014E+000  +3.2007964092E-002 +2.1360160000E+001  +5.8972905843E-001 +1.6506882258E+000 
11272066.333 +5.5429141703E-001 +8.5539026525E+000  +3.3784876212E-002 +8.1886390010E+000  +3.1303900168E-002 +2.2795253828E+001  +5.7823146913E-001 +3.3770802401E+000 
11397211.514 +5.6075162718E-001 +8.2113278588E+000  +3.3357480215E-002 +6.7099825018E+000  +3.3844644610E-002 +1.8265580752E+001  +6.0636346411E-001 +1.8126869330E+000 
11522356.696 +5.7119269220E-001 +7.3199909168E+000  +3.4281083956E-002 +7.6115974228E+000  +3.2607503663E-002 +2.0231879124E+001  +6.0287311682E-001 +8.1310982630E-001 
11647501.877 +6.0923769742E-001 +4.7583441509E+000  +3.6411781101E-002 +8.8123966378E+000  +3.5791265922E-002 +2.3331981138E+001  +5.9850514242E-001 +1.3775480660E+000 
11772647.059 +5.7863061922E-001 +3.4636402669E+000  +3.4882579251E-002 +8.4562004131E+000  +3.4038084102E-002 +1.7813052264E+001  +6.2767945251E-001 +8.2730359577E-001 
11897792.240 +6.3282980701E-001 +8.2653628263E+000  +3.4441332803E-002 +9.9398413708E+000  +3.6056710467E-002 +1.9858642098E+001  +6.1862073863E-001 +1.9765078391E-001 
12022937.422 +6.3622374293E-001 +4.6288707520E+000  +3.5921292223E-002 +8.9046798448E+000  +3.7070269291E-002 +1.9859282633E+001  +6.4008800958E-001 +1.3445546435E+000 
12148082.603 +6.4741061832E-001 +5.4185755010E+000  +3.6800322854E-002 +9.8433248329E+000  +3.5689487202E-002 +2.0377218739E+001  +6.7869101206E-001 +1.3610916705E+000 
12273227.785 +6.8155843937E-001 +4.4171046894E+000  +3.5220970721E-002 +1.1969899236E+001  +3.6181156133E-002 +1.7410674330E+001  +6.6957352331E-001 -4.1567371284E-001 
12398372.966 +6.7096034712E-001 +3.5385059013E+000  +3.7820980419E-002 +1.0459531156E+001  +3.5943238841E-002 +1.8827019234E+001  +7.0438052123E-001 +1.2813651048E+000 
12523518.148 +6.9257590548E-001 +2.0357495268E+000  +3.7370571883E-002 +9.4750631047E+000  +3.7129854702E-002 +1.8730885297E+001  +7.1299172155E-001 +1.5634393787E+000 
12648663.329 +6.8205888089E-001 +1.6730565246E+000  +3.8446569736E-002 +1.0897614942E+001  +3.4643338672E-002 +1.7127292497E+001  +7.0870075680E-001 -1.4589886712E+000 
12773808.511 +7.0571623222E-001 +2.1411791543E+000  +3.5700237380E-002 +1.0188098730E+001  +3.7254038070E-002 +1.5433014215E+001  +7.3200208377E-001 -1.2565137022E+000 
12898953.692 +7.2494518780E-001 +2.4920971324E+000  +3.9430162053E-002 +1.2936334240E+001  +3.9449765118E-002 +1.8948679481E+001  +7.6126317836E-001 -8.1016088805E-001 
13024098.874 +7.3765324902E-001 +1.8978460206E-001  +3.6540698639E-002 +1.3962531944E+001  +3.7056028752E-002 +1.5626953122E+001  +7.7361221172E-001 -2.3793903534E+000 
13149244.055 +7.5624161782E-001 +2.4178532040E-001  +4.0047518696E-002 +9.7213523989E+000  +3.9183110724E-002 +1.5640058524E+001  +7.6204658134E-001 -2.1155475676E+000 
13274389.237 +7.4944403500E-001 -7.4414448845E-001  +3.8315530273E-002 +1.2748094669E+001  +3.8785599703E-002 +1.6243882552E+001  +7.9294541022E-001 -1.6607944970E+000 
13399534.418 +7.9699707437E-001 -1.4611986309E+000  +3.9104682886E-002 +1.3354857656E+001  +3.8609383319E-002 +1.5837009617E+001  +8.2104819419E-001 -2.8686029412E+000 
13524679.599 +8.0851361450E-001 -6.3059869388E-001  +4.0456961281E-002 +9.6151621803E+000  +3.9740879272E-002 +1.4557238513E+001  +8.1926971756E-001 -1.5044399735E+000 
13649824.781 +8.3995772528E-001 -3.5080813985E+000  +4.0700083902E-002 +1.2114821039E+001  +3.9539419191E-002 +1.5151926741E+001  +8.4328721721E-001 -3.5082094121E+000 
13774969.962 +8.3821189980E-001 -1.7816071149E+000  +4.2144050262E-002 +1.3401136820E+001  +3.9279805168E-002 +1.4921174784E+001  +8.6037571505E-001 -3.7624446002E+000 
13900115.144 +8.7102425913E-001 -3.5943135632E+000  +3.9016201021E-002 +1.2184610310E+001  +4.2442828209E-002 +1.2236110148E+001  +8.7924994005E-001 -3.6941983516E+000 
14025260.325 +8.8731518722E-001 -3.5617381545E+000  +4.3104982851E-002 +1.6422110816E+001  +4.0574968159E-002 +1.3454877753E+001  +9.0826645042E-001 -3.1305767163E+000 
14150405.507 +8.8257942415E-001 -3.9342816258E+000  +4.2307155788E-002 +1.1784004354E+001  +4.3383078869E-002 +1.3364191563E+001  +8.9918155929E-001 -4.1270820496E+000 
14275550.688 +9.2093336741E-001 -4.8315937204E+000  +4.1475187226E-002 +1.1984323139E+001  +4.1139386982E-002 +1.3749843717E+001  +9.1803030925E-001 -5.0231895480E+000 
14400695.870 +9.2664332864E-001 -4.3760554572E+000  +4.2009203358E-002 +1.3062665732E+001  +4.0896682868E-002 +1.1789387927E+001  +9.5719524106E-001 -4.8754687341E+000 
