!  2-Port S-parameters saved by WinCal
! VAR MeasName=S-Parameters (CALIBRATED_DATA) read from VNA (P5004A)
! VAR MeasDate=27/08/2024 12:23:53
! VAR NAME=S2_r2c9_pristine_9k-100M_3
! VAR FILENAME=S2_r2c9_pristine_9k-100M_3.S2P
! VAR DATE=27/08/2024 12:23:53
! VAR PHYS_PORTS=1,2
! VAR ObjTypeName=DATASET
! VAR IndexType=Frequency
!
# Hz S MA R 50
9000.000 +6.6792134644E-002 -8.2908755961E+001  +1.5014447219E-001 -1.1337426234E+001  +9.8973423624E-002 -1.7709229265E+001  +6.2717666664E-001 -2.8893131826E+001 
134145.181 +1.1126608040E-001 +1.6935225964E+002  +5.2210751812E-004 +1.4343722325E+002  +4.5862017652E-004 -3.9561196195E+001  +2.3803803945E-001 -1.6909919294E+002 
259290.363 +1.1115077134E-001 +1.6982284782E+002  +2.9374215392E-004 -1.0493122017E+002  +2.4942307546E-004 +1.4059517387E+001  +2.3892678318E-001 -1.6999572239E+002 
384435.544 +1.1257680491E-001 +1.7051317091E+002  +8.9113409157E-004 -1.6128748693E+002  +1.2881546208E-003 -1.4592487713E+002  +2.4635152913E-001 -1.6910289605E+002 
509580.726 +1.1484849477E-001 +1.7032754286E+002  +1.3693648840E-003 +3.7186504127E+001  +8.5209250122E-004 +1.6175324573E+001  +2.4445957430E-001 -1.6565875796E+002 
634725.907 +1.1629265008E-001 +1.7100147125E+002  +6.2495732934E-004 -1.5248094791E+002  +1.8840102852E-004 -1.2227531879E+002  +2.4764474854E-001 -1.6541560879E+002 
759871.089 +1.1715865533E-001 +1.6949980344E+002  +2.4321956323E-004 -1.2373858025E+002  +6.3309253478E-004 +7.7255658564E+001  +2.4031015923E-001 -1.6524699218E+002 
885016.270 +1.1824762769E-001 +1.7241802580E+002  +7.5601608760E-004 -9.9714375326E+001  +1.0567557493E-003 -3.0035975243E+001  +2.3197352822E-001 -1.6484491549E+002 
1010161.452 +1.2048946478E-001 +1.7127629561E+002  +7.9929501355E-004 -3.3437117436E+001  +7.4513990334E-004 +4.8024453935E+000  +1.8331721225E-001 -1.6991728429E+002 
1135306.633 +1.1654144474E-001 +1.7079761036E+002  +2.3338175177E-003 -1.3545885762E+001  +1.9149953245E-003 +5.0719214514E+000  +1.9390109309E-001 -1.5903394255E+002 
1260451.815 +1.2379311078E-001 +1.7238303840E+002  +6.0513251877E-004 -1.7673195271E+002  +7.7376005372E-004 +1.6617611968E+002  +2.4027428348E-001 -1.6091796859E+002 
1385596.996 +1.2449992382E-001 +1.7317139463E+002  +1.2997502732E-003 +4.1451589422E+001  +1.7035590747E-003 -1.3539989186E+002  +2.5959863410E-001 -1.5915982864E+002 
1510742.178 +1.2570541768E-001 +1.7072928493E+002  +1.1158776554E-003 -1.6758632619E+002  +4.8181237932E-004 -1.5804422400E+002  +2.4893660102E-001 -1.5779862554E+002 
1635887.359 +1.2679358442E-001 +1.7063882152E+002  +4.8642467183E-004 -8.7551690554E+000  +4.1360887163E-004 +2.2619433872E+001  +2.4614942199E-001 -1.5478903384E+002 
1761032.541 +1.2988636756E-001 +1.7117019066E+002  +2.0804679977E-003 -4.3956007928E+001  +1.7559349407E-003 +1.7283526022E+002  +2.2821524219E-001 -1.5765972447E+002 
1886177.722 +1.2698029024E-001 +1.6820758377E+002  +6.4075729357E-004 -1.4598367329E+002  +8.1282708306E-004 +5.9473816076E+001  +2.2155472059E-001 -1.7006121398E+002 
2011322.904 +1.2580351692E-001 +1.6556287972E+002  +8.7035188435E-004 -6.1286002190E+001  +1.5033695443E-003 +1.6735849832E+002  +2.0803526077E-001 -1.5930261842E+002 
2136468.085 +1.2354980453E-001 +1.6650781383E+002  +2.5450492452E-003 -1.4736202196E+002  +2.2369639887E-003 +2.5706230732E+001  +1.3518463230E-001 +1.6700527646E+002 
2261613.267 +1.2701915836E-001 +1.6514174159E+002  +4.7953764110E-003 -1.4476010849E+002  +4.3734855985E-003 +1.4666540471E+002  +1.7390892983E-001 +1.6155821879E+002 
2386758.448 +1.2963941677E-001 +1.6075653230E+002  +5.4700956989E-003 -1.7148875286E+002  +4.1894388914E-003 +6.4184504631E+001  +1.8484234195E-001 +1.6172119602E+002 
2511903.630 +1.3338639985E-001 +1.6299578111E+002  +2.1588381298E-003 -7.5728906181E+001  +2.3397214467E-003 +1.5656004809E+002  +2.3870624915E-001 +1.5908800610E+002 
2637048.811 +1.2719434731E-001 +1.6709117735E+002  +3.2178067092E-003 -1.7969440309E+002  +2.3619440649E-003 -6.8605602096E+001  +2.3983046471E-001 +1.6133874911E+002 
2762193.992 +7.2651268685E-002 -1.6762850231E+002  +2.5639705577E-002 -8.2951724167E+001  +4.3770017590E-002 +1.6256411435E+002  +8.5982749024E-001 -1.2920843683E+002 
2887339.174 +9.8502220779E-002 +1.7735900928E+002  +6.1688156763E-003 +4.7879607919E+001  +1.3206209509E-002 -2.2751406720E+001  +4.7418257138E-001 -1.3126532367E+002 
3012484.355 +8.4316678076E-002 +1.7408303960E+002  +1.1541150152E-002 -6.5131062366E+001  +1.8993284736E-002 +6.4303819827E+001  +5.7511972166E-001 -1.0987822437E+002 
3137629.537 +1.2756216533E-001 +1.7005906769E+002  +1.8082305209E-003 -1.6143747849E+002  +8.2322934633E-003 -9.8089382014E+001  +4.8935211148E-001 -1.0696860963E+002 
3262774.718 +9.9638434791E-002 +1.7689676348E+002  +2.0199779631E-002 -1.2524058409E+002  +1.4233939287E-002 +1.4058022283E+002  +7.9562613584E-001 -1.2140292651E+002 
3387919.900 +1.4531370545E-001 +1.5265188532E+002  +1.8127782148E-002 +1.7545285676E+002  +7.6763576330E-003 +1.1702617205E+002  +8.2105044588E-001 +7.7458795746E+001 
3513065.081 +9.6924033375E-002 +1.6211729193E+002  +2.6339136086E-002 +1.0095318950E+002  +1.2937384579E-002 +9.3372111836E+001  +1.1196769252E+000 -1.1218378499E+002 
3638210.263 +1.2283248086E-001 +1.3466349465E+002  +1.4869678329E-003 -1.8335571074E+001  +1.4790255381E-002 +9.0294505095E+001  +4.6092149285E-001 +1.3612376480E+002 
3763355.444 +1.8948425226E-001 +1.3138344794E+002  +9.3072945979E-003 -4.7978716578E+001  +1.4422003702E-002 -1.2771902911E+002  +3.2126401837E-001 +1.3592475816E+002 
3888500.626 +1.7647169659E-001 +1.4747595792E+002  +7.2830773936E-003 -1.0805259334E+001  +5.1822378665E-003 +8.0003320027E+001  +7.7870182914E-001 +9.5702319258E+001 
4013645.807 +1.7389562950E-001 +1.4684055215E+002  +1.2676431610E-002 -1.2080814315E+002  +6.8356958080E-003 -5.2639029750E+001  +5.8344037701E-001 +1.0484874728E+002 
4138790.989 +1.7862523597E-001 +1.4141809932E+002  +1.4562629580E-002 -1.4814651938E+002  +6.0250528375E-003 -1.4196329888E+002  +3.6216143517E-001 +8.3901852254E+001 
4263936.170 +1.9015955982E-001 +1.4227543569E+002  +1.3564024636E-002 +2.6288627961E+000  +1.4005794246E-002 -1.5914000058E+002  +2.9115475327E-001 +3.8717313304E+001 
4389081.352 +1.8311319986E-001 +1.3948021066E+002  +1.3159746608E-002 +1.6874632037E+002  +5.8749579768E-003 +1.7164838941E+002  +3.9033899832E-001 +1.1018787730E+002 
4514226.533 +2.1345636157E-001 +1.4016338799E+002  +1.1180886825E-002 +1.7378482241E+002  +6.8496534004E-003 -3.7225354942E+001  +7.6116544080E-001 +1.2956441092E+002 
4639371.715 +2.7754101485E-001 +1.3035990518E+002  +5.9039652846E-002 -1.2319297503E+002  +4.0525600450E-002 -1.6434360120E+002  +3.3432133932E+000 +1.3336793939E+002 
4764516.896 +4.0537690588E-001 +1.1801815032E+002  +3.8435242390E-002 -1.7312451723E+002  +2.8132857817E-002 -1.1380725852E+002  +2.8794051519E+000 -6.7692827193E+001 
4889662.078 +4.5390872002E-001 +1.3212097482E+002  +2.6284715796E-002 +3.4561551061E+001  +3.9203272326E-002 -1.7257538061E+002  +3.2768743099E+000 -1.7354433039E+002 
5014807.259 +3.7785272550E-001 +1.3239355698E+002  +1.4889966026E-002 +6.0227636340E+001  +4.5780232168E-002 +7.3685500553E+001  +1.9441499631E+000 +4.6800388231E+001 
5139952.441 +4.2436603202E-001 +1.3866025782E+002  +1.9517588016E-002 -7.5061931429E+000  +1.1134799004E-002 -1.7118566150E+002  +1.4999572656E+000 +1.2745359045E+002 
5265097.622 +4.3085748644E-001 +1.2888267850E+002  +8.8370630223E-002 +1.1838018194E+002  +2.2257926025E-002 +1.4107884670E+002  +4.3053847084E+000 +7.6700690820E+001 
5390242.804 +4.1572530461E-001 +1.2671948966E+002  +1.1362003911E-002 -1.9198834295E+001  +3.2654368643E-002 +5.9641741603E+001  +1.5473353260E+000 +9.3632852564E+001 
5515387.985 +4.3454073702E-001 +1.2907586426E+002  +2.1116607829E-002 +1.6047770680E+002  +9.6519918395E-003 +5.7983924897E+001  +1.6920816201E+000 +1.0458962943E+002 
5640533.166 +5.1749244171E-001 +1.2522042363E+002  +1.2152828661E-002 -7.7272494249E+001  +1.5923051531E-002 +1.5401333485E+001  +2.7573655433E+000 +1.2083253389E+002 
5765678.348 +4.8204192272E-001 +1.2546986560E+002  +1.3150969441E-002 +1.5754569873E+002  +2.1395555220E-002 -1.0838912195E+002  +2.4654054883E+000 +5.6826487389E+001 
5890823.529 +6.1055337223E-001 +1.2047016375E+002  +7.5434044046E-003 +7.7053572658E+001  +1.4339750668E-002 -5.7726625289E+000  +1.4088847627E+000 +6.9251010563E+001 
6015968.711 +6.1628861199E-001 +1.1328235270E+002  +8.1996076152E-002 +1.4747724937E+002  +2.2952906518E-002 -1.7020043523E+002  +3.8847640760E+000 +3.8724534445E+001 
6141113.892 +7.1175539055E-001 +1.1375504011E+002  +4.6194655722E-003 +9.4881593129E+001  +2.2113339086E-002 -1.5571409507E+002  +1.9338934553E+000 +4.1036779686E+001 
6266259.074 +9.6079316039E-001 +1.0701966878E+002  +6.2418320387E-003 -1.5857788890E+002  +1.9811633644E-002 -1.7514801695E+002  +1.7970315764E+000 +3.2030120803E+001 
6391404.255 +1.0912264531E+000 +9.0409639037E+001  +1.4845749527E-002 +1.7507212272E+002  +2.1892193964E-002 +2.9273344562E+001  +1.7796302807E+000 +1.3775077504E+001 
6516549.437 +1.1717557260E+000 +7.6698077379E+001  +1.3969410047E-002 -1.7065424111E+002  +2.2846618263E-002 +8.7652136238E+001  +1.5958380086E+000 -6.1477970721E+000 
6641694.618 +2.3340320038E+000 +7.7550552788E+001  +1.3240376081E-002 -4.6589201207E+001  +2.5195068374E-002 +1.4438645409E+002  +1.3267242554E+000 +1.1420956048E+001 
6766839.800 +1.9968341816E+000 +6.0164783969E+001  +2.0698866921E-002 +3.8291058279E+001  +1.4257788710E-002 +9.2203400639E+001  +1.6937734265E+000 -2.5193454114E+000 
6891984.981 +1.8392599461E+000 +4.1545347006E+001  +9.6470876025E-003 +1.0322686030E+002  +2.0056070331E-002 +1.6099371008E+002  +1.3575370755E+000 -4.8584250691E+000 
7017130.163 +1.8644384305E+000 +1.9497405218E+001  +4.3918793015E-003 +1.6220316241E+002  +2.5079407119E-002 +1.3382176867E+002  +1.4447490438E+000 -1.2758122137E+001 
7142275.344 +1.9389486183E+000 +5.9008151457E+000  +1.9293608701E-002 +9.9735140136E+001  +5.1870535188E-003 +5.0334418331E+001  +1.2260473030E+000 -1.2504700887E+001 
7267420.526 +1.6481459563E+000 -8.5860681955E-001  +3.3024990036E-003 -1.2550348105E+002  +7.8739532861E-003 -7.3143031513E+001  +1.2810789326E+000 -9.6121036050E+000 
7392565.707 +1.2063643849E+000 -5.7857602070E+000  +4.5789590955E-003 -1.3427719246E+002  +2.0322862982E-002 +7.9929598613E+001  +1.3622687356E+000 -1.0028038490E+001 
7517710.889 +1.1803761739E+000 -4.7142706663E+000  +6.2915405915E-003 +8.2308844059E+001  +5.2160915738E-003 +6.8805299770E+001  +1.1590875700E+000 -9.4105519775E+000 
7642856.070 +1.0451653672E+000 +4.8750725032E+000  +1.5777270947E-003 -1.4084785512E+002  +7.9746017479E-003 +6.4842827278E+001  +1.1648987527E+000 -6.9384797054E+000 
7768001.252 +1.0802135144E+000 +1.9546167215E-001  +5.2406974321E-003 -9.4799366189E+001  +1.1874088456E-003 -1.1834375603E+002  +1.0419045653E+000 -3.9249096489E+000 
7893146.433 +9.6918661422E-001 +4.5968319285E+000  +5.7319534978E-003 +1.0986416053E+002  +7.0600610633E-003 +1.3441228960E+002  +8.9805402090E-001 -4.4164040431E+000 
8018291.615 +8.2982593006E-001 +7.5637603620E+000  +3.6020703393E-003 +5.9852923915E+001  +1.1733661055E-002 -1.6970064952E+002  +9.3247454191E-001 -1.4939554935E+000 
8143436.796 +8.2262788414E-001 +9.5018290234E+000  +6.0103249591E-003 +7.6964682844E+001  +3.4749785454E-003 +1.7564450358E+001  +8.4976558435E-001 -2.5643609853E+000 
8268581.977 +7.3444206259E-001 +1.0985301389E+001  +5.5869829260E-003 +6.8625702384E+001  +3.6885309038E-003 -6.7520592338E+001  +8.2862636255E-001 -7.3840090090E-001 
8393727.159 +7.3345633550E-001 +9.5208484474E+000  +7.0825163957E-003 +5.3114744710E+001  +4.2877613438E-003 -1.4745545337E+002  +7.3923542790E-001 -1.1678970463E+000 
8518872.340 +6.7807314898E-001 +7.3995436768E+000  +8.4712087995E-003 +1.0204346342E+002  +3.2463680821E-003 -1.6739905670E+002  +7.6212481780E-001 +2.3959196417E+000 
8644017.522 +6.5803959515E-001 +1.0472408069E+001  +4.2715888792E-003 +5.7553655441E+001  +4.3873056493E-003 +9.2756206528E+001  +6.9025146720E-001 +4.0961879414E-002 
8769162.703 +6.0918673273E-001 +1.2508589729E+001  +6.8395232059E-003 +8.7912080063E+001  +3.8739485346E-003 +1.2014503749E+002  +6.8800412146E-001 -2.3151418305E+000 
8894307.885 +6.6304863334E-001 +1.0283900126E+001  +6.4346690115E-003 +1.1138553909E+002  +5.1135950756E-003 +5.6605569396E+001  +6.7649573177E-001 +2.3892935582E+000 
9019453.066 +5.5661864593E-001 +1.0374248200E+001  +2.4360126975E-003 +7.5978916443E+001  +2.3175267724E-003 +1.7627277110E+002  +6.4651298614E-001 -6.7056652709E+000 
9144598.248 +5.7622241118E-001 +1.0447320593E+001  +5.6901852179E-003 +6.3444592547E+001  +6.1627151706E-003 +6.4269301541E+001  +6.6837240231E-001 +3.0623067316E-001 
9269743.429 +5.8171952481E-001 +7.6760153262E+000  +2.0387404923E-003 +2.9572660712E+001  +3.2281554673E-003 +6.3988872798E+001  +6.0278462178E-001 -7.4190210534E-001 
9394888.611 +5.1082837907E-001 +4.5505646399E+000  +4.8576710253E-003 +1.0390226768E+002  +3.8962113381E-003 +6.2994370445E+001  +6.0004170802E-001 -2.1606710699E+000 
9520033.792 +5.6660163234E-001 +3.7660837722E+000  +6.3649626960E-003 +8.8918865037E+001  +1.8555818527E-003 +5.7366535603E+001  +6.2452695296E-001 -2.6407149657E+000 
9645178.974 +5.7890505374E-001 +7.4209027092E+000  +4.0538236560E-003 +1.3031602825E+002  +1.2548691981E-003 +1.0393904652E+002  +5.6214352055E-001 -6.4048621320E+000 
9770324.155 +5.5051302265E-001 -1.9234389624E+000  +4.9136078027E-003 +8.8885996900E+001  +5.1664860667E-003 +1.0514726859E+002  +6.1142956855E-001 -4.7532075114E+000 
9895469.337 +5.4792381851E-001 +2.2387102642E+000  +5.7041290445E-003 +1.0900342392E+002  +3.9171267338E-003 +9.3933587725E+001  +5.8613567151E-001 -7.7451816255E+000 
10020614.518 +5.4678656241E-001 +1.1433017184E-001  +5.3146246618E-003 +7.5024427211E+001  +3.5596771407E-003 +5.7773391949E+001  +5.9524781301E-001 -6.5376397527E+000 
10145759.700 +5.9071651010E-001 +3.2916463640E+000  +4.5764555343E-003 +6.7448626460E+001  +5.6374745506E-003 +1.2075144752E+002  +5.8361638213E-001 -3.5548825423E+000 
10270904.881 +5.5990680981E-001 +8.7101867706E+000  +7.0529950694E-003 +1.0991777544E+002  +5.7126763386E-003 +8.6530507807E+001  +6.0374580271E-001 -1.8278069955E+000 
10396050.063 +5.6091211541E-001 +6.2577481096E+000  +5.1750752386E-003 +7.6404843454E+001  +3.8116389293E-003 +1.1616969609E+002  +6.2193137693E-001 +5.7588178634E-001 
10521195.244 +5.6176793891E-001 +3.4527506569E+000  +1.9471975151E-003 +1.0385773508E+002  +3.5551759148E-003 +7.6573096037E+001  +5.7072004853E-001 +2.1302917343E+000 
10646340.426 +5.8289741159E-001 +7.3090928882E+000  +4.8934293014E-003 +1.0575457967E+002  +5.9324473349E-003 +1.0772372328E+002  +5.9692321585E-001 -8.8687850106E-001 
10771485.607 +5.5752654322E-001 +3.5106821436E+000  +3.8600989977E-003 +8.2685845396E+001  +4.2758895768E-003 +1.1068244668E+002  +6.2740016556E-001 +1.3468515887E+000 
10896630.788 +6.0501134589E-001 +9.0794215843E+000  +3.2375201998E-003 +9.3925071673E+001  +3.6081761406E-003 +1.1097746157E+002  +6.0444346466E-001 -1.6833802346E+000 
11021775.970 +6.0272805897E-001 +4.8235255525E+000  +6.0089235382E-003 +7.7048314852E+001  +4.3555829827E-003 +6.3882562475E+001  +6.2514297358E-001 +1.7097814976E-001 
11146921.151 +5.7936660745E-001 +7.2899455823E+000  +6.2687551613E-003 +9.5449976583E+001  +5.3945445883E-003 +1.1206048652E+002  +6.1489656873E-001 +1.0388146289E+000 
11272066.333 +6.2104406981E-001 +6.5817351811E+000  +4.0484778585E-003 +9.3787038650E+001  +5.6113592590E-003 +1.1685874089E+002  +6.3511651176E-001 -1.4831712948E+000 
11397211.514 +6.0926584766E-001 +5.4324287401E+000  +3.7152957880E-003 +9.0151664351E+001  +3.7559858187E-003 +1.1452376666E+002  +6.0452978320E-001 +3.2530425956E+000 
11522356.696 +6.3654038901E-001 +5.5528056442E+000  +5.9611090870E-003 +6.9427878971E+001  +5.6880782345E-003 +9.0423069004E+001  +6.4480194197E-001 +7.9667671508E-002 
11647501.877 +6.4058362020E-001 +6.6923326584E+000  +5.8303631514E-003 +9.3547358878E+001  +6.3086415122E-003 +9.2053052101E+001  +6.5956736678E-001 +2.9578569718E+000 
11772647.059 +6.5433684494E-001 +6.9598692061E+000  +6.7664523479E-003 +9.3027729538E+001  +4.4398677861E-003 +1.2216909917E+002  +6.7459707096E-001 +3.1152224259E+000 
11897792.240 +6.8336405006E-001 +4.7753966518E+000  +5.8729483997E-003 +6.7592244501E+001  +4.9369374127E-003 +9.4778489732E+001  +6.6924444637E-001 +5.9066471079E-001 
12022937.422 +6.6198281150E-001 +2.7638931568E+000  +5.2059878932E-003 +8.2504502654E+001  +4.1882547954E-003 +9.4478966163E+001  +6.5841850418E-001 +2.0895906193E-001 
12148082.603 +6.6335541374E-001 +3.4010114643E+000  +7.6948632513E-003 +7.8858063045E+001  +6.4808936088E-003 +1.1393012857E+002  +6.7833398959E-001 +1.1941970418E+000 
12273227.785 +7.0036533754E-001 +3.2882548401E+000  +5.4761037817E-003 +9.0103874402E+001  +6.7685236016E-003 +9.3738324203E+001  +6.8892569445E-001 -2.3079899224E+000 
12398372.966 +7.2289940673E-001 +3.0272417121E+000  +5.6102242519E-003 +9.4780083341E+001  +4.7509062747E-003 +1.1048798513E+002  +7.3371548417E-001 +4.1057538736E-002 
12523518.148 +6.9707296844E-001 +2.9309878731E+000  +5.7894295038E-003 +9.1179243886E+001  +6.1363340162E-003 +9.6476680968E+001  +7.4809536084E-001 -9.3676311305E-001 
12648663.329 +7.1254131383E-001 +1.6120846136E+000  +6.8393032276E-003 +9.1197329413E+001  +7.8357679611E-003 +9.2819879741E+001  +7.3957268080E-001 -1.6749688898E+000 
12773808.511 +7.6632607542E-001 +3.1056257763E+000  +6.9407890566E-003 +9.1280286991E+001  +4.8137033251E-003 +9.5837845992E+001  +7.8003551220E-001 -1.7869507974E+000 
12898953.692 +7.7339408079E-001 +1.6915337414E-001  +5.8846062273E-003 +8.4052000731E+001  +4.8340176147E-003 +9.9317003819E+001  +7.9197533633E-001 -1.5964173515E+000 
13024098.874 +7.8772127050E-001 +7.2290650845E-001  +4.9665580545E-003 +1.0077816319E+002  +5.9657192250E-003 +1.0648232924E+002  +7.6314151581E-001 -1.0139679950E-001 
13149244.055 +7.9708896302E-001 +1.4066036941E+000  +6.9559496525E-003 +8.2357407160E+001  +5.2141579289E-003 +9.5253875434E+001  +8.1414995994E-001 -6.7245227172E-001 
13274389.237 +8.0270563026E-001 -4.0698266932E-001  +5.9901055730E-003 +8.8268616014E+001  +6.3322433926E-003 +9.1327209267E+001  +8.2874556646E-001 -2.2267742164E+000 
13399534.418 +8.3431411589E-001 -1.1540195958E+000  +7.2363282146E-003 +9.4932987779E+001  +6.0568681894E-003 +9.0052184238E+001  +8.2755707880E-001 -1.1156224062E+000 
13524679.599 +8.4542735344E-001 -8.4604468098E-001  +6.8985183830E-003 +9.9660878931E+001  +5.9962162786E-003 +8.6891336688E+001  +8.7445081659E-001 -2.4174144788E+000 
13649824.781 +8.5736066977E-001 -2.0154316414E+000  +5.3972925476E-003 +9.6895626932E+001  +7.4928496104E-003 +8.8671373414E+001  +8.7751103269E-001 -2.5892252086E+000 
13774969.962 +8.7736154655E-001 -2.2523617674E+000  +7.1022876295E-003 +9.3810270678E+001  +5.9286158959E-003 +8.6509545954E+001  +8.9357704005E-001 -3.1708631639E+000 
13900115.144 +9.0746029093E-001 -1.9273892885E+000  +7.4242570570E-003 +9.9155614835E+001  +8.5574162526E-003 +8.4059566812E+001  +9.2670616945E-001 -4.7572730205E+000 
14025260.325 +9.3258661366E-001 -2.8973825024E+000  +5.6759550083E-003 +7.9129323497E+001  +8.4803600336E-003 +9.6630942624E+001  +9.5188860053E-001 -4.5308677299E+000 
14150405.507 +9.4250768319E-001 -4.2253405276E+000  +7.6599294507E-003 +7.9232651434E+001  +7.5441982548E-003 +9.7851110552E+001  +9.4953801272E-001 -3.1826710877E+000 
14275550.688 +9.5486349070E-001 -5.2857285800E+000  +7.2543405059E-003 +8.3815891295E+001  +6.1611504855E-003 +1.0759418526E+002  +9.8251115856E-001 -3.7158230638E+000 
14400695.870 +9.7114460220E-001 -4.3128714530E+000  +7.9725122039E-003 +9.3803880273E+001  +8.0421489146E-003 +9.5107345771E+001  +9.9091425147E-001 -5.3812193709E+000 
