!  2-Port S-parameters saved by WinCal
! VAR NAME=S2_r4c9_formed(0)_9k-100M_3
! VAR DATE=30/08/2024 11:35:41
! VAR FILENAME=S2_r4c9_formed(0)_9k-100M_3.S2P
! VAR MeasName=S-Parameters (CALIBRATED_DATA) read from VNA (P5004A)
! VAR MeasDate=28/08/2024 09:59:07
! VAR PHYS_PORTS=1,2
! VAR ObjTypeName=DATASET
! VAR IndexType=Frequency
!
# Hz S MA R 50
9000.000 +8.5126972568E-002 -1.6804118856E+002  +1.2993466006E-002 -9.6157697806E+001  +1.0883965013E-002 +1.5840918411E+002  +3.2653517257E-001 -1.4229236735E+002 
134145.181 +1.1046866992E-001 +1.6922846463E+002  +5.0242259559E-004 +1.0018784771E+002  +4.6155733094E-004 +1.5307475082E+002  +2.4125080947E-001 -1.7147733606E+002 
259290.363 +1.1172263208E-001 +1.7005379549E+002  +9.4645745106E-004 -1.7344796090E+002  +6.5086894685E-004 +1.3709758416E+002  +2.3947328131E-001 -1.7015616453E+002 
384435.544 +1.1409167549E-001 +1.6977457456E+002  +9.1154972696E-005 -1.2023054924E+002  +5.4142609743E-004 +2.1034680438E+001  +2.5003997540E-001 -1.6854376801E+002 
509580.726 +1.1369384543E-001 +1.7084750114E+002  +8.5839608513E-004 +1.6447360673E+002  +1.6323073535E-003 +9.6013691580E+001  +2.4975517498E-001 -1.6424984483E+002 
634725.907 +1.1652105175E-001 +1.7259407017E+002  +1.0176924998E-003 +1.4100890941E+002  +8.5524593986E-004 -2.4850355418E+001  +2.6285769067E-001 -1.6535085608E+002 
759871.089 +1.1893531828E-001 +1.7112086250E+002  +8.2709569589E-004 -3.9010369738E+001  +5.6767823377E-004 +1.0887741481E+001  +2.6485351273E-001 -1.6498606458E+002 
885016.270 +1.1990625127E-001 +1.6985677154E+002  +7.3694655131E-005 -1.2588991683E+002  +7.3615580821E-004 -1.2149264424E+002  +2.4320864590E-001 -1.6560065795E+002 
1010161.452 +1.1684695893E-001 +1.6948779438E+002  +1.1865457381E-003 +4.7370086831E+001  +1.2314727333E-003 +1.0221527810E+002  +1.9783150446E-001 -1.7106859694E+002 
1135306.633 +1.1775004020E-001 +1.6949614061E+002  +2.3518670139E-003 -3.8194407266E+001  +1.2551849707E-003 +1.2445153037E+002  +2.0775468021E-001 -1.6799074361E+002 
1260451.815 +1.2212016405E-001 +1.7100189160E+002  +7.0563842574E-004 +1.0239130541E+002  +8.9042737374E-004 -3.9294613671E+001  +2.4161274094E-001 -1.5727898958E+002 
1385596.996 +1.2416571646E-001 +1.7237054625E+002  +1.2303474878E-003 -1.2213134218E+002  +5.4113519939E-004 -1.1970477600E+002  +2.5898013678E-001 -1.5504682144E+002 
1510742.178 +1.2344672348E-001 +1.7262502746E+002  +2.5304252409E-004 -1.6078706612E+002  +1.6535757919E-003 -5.2773768515E+001  +2.5279458506E-001 -1.5793679438E+002 
1635887.359 +1.2906716860E-001 +1.7091539997E+002  +3.0678785100E-004 +1.3003036965E+002  +1.3100598380E-003 -4.9895418294E+001  +2.5861180983E-001 -1.5591464377E+002 
1761032.541 +1.2656999016E-001 +1.6870455256E+002  +1.8208208264E-003 -1.4970647541E+002  +2.6421253834E-003 +5.2581427241E+001  +2.3068116138E-001 -1.5298489870E+002 
1886177.722 +1.2347663121E-001 +1.6593651448E+002  +1.9259627254E-003 -1.6746139223E+002  +1.1047482707E-003 +7.4834121591E+001  +2.2803762369E-001 -1.5968472714E+002 
2011322.904 +1.2272297840E-001 +1.6841213240E+002  +1.9024241096E-003 -7.2499533347E+001  +9.3177746946E-004 -4.4113920693E+001  +1.9107285301E-001 -1.7590343374E+002 
2136468.085 +1.3305118796E-001 +1.6660126730E+002  +1.3503598840E-003 -1.3879607029E+002  +2.3745161344E-003 +5.3255810706E+000  +1.9392754023E-001 -1.6971328815E+002 
2261613.267 +1.3670950374E-001 +1.6642224913E+002  +1.8819882115E-003 +1.2461123709E+002  +1.7458095213E-003 +1.5341748651E+002  +1.9513966882E-001 -1.7360645406E+002 
2386758.448 +1.3977530219E-001 +1.6503736961E+002  +3.5489396216E-003 -1.0456226533E+001  +5.6889751198E-003 -2.0412674339E+001  +1.1840979341E-001 +1.3562228851E+002 
2511903.630 +1.3340258520E-001 +1.6371471454E+002  +5.9000636400E-003 -7.1148306504E+001  +5.4494923635E-003 +1.1755302012E+002  +3.1864694585E-001 +1.2532420778E+002 
2637048.811 +1.2847295464E-001 +1.6697057636E+002  +7.6617188985E-004 -3.9562398798E+001  +3.6136957909E-003 -1.5181030870E+001  +2.6598323617E-001 +1.6452338526E+002 
2762193.992 +1.0179480573E-001 +1.6379856644E+002  +1.6980952428E-002 -1.0427029812E+002  +6.7962564154E-003 +1.1255980091E+002  +5.7150227615E-001 -7.7616711448E+001 
2887339.174 +1.2292397494E-001 +1.7073074448E+002  +2.7919953399E-002 +2.1366002375E+001  +5.6193764082E-003 -5.4088229695E+001  +6.6643728207E-001 -8.0586672410E+001 
3012484.355 +1.2659027489E-001 +1.6936996992E+002  +1.4437276711E-002 -3.2076914455E+001  +2.3515727305E-003 -3.7973342944E+001  +4.2343528002E-001 -1.0319272080E+002 
3137629.537 +1.2915339841E-001 +1.6863861078E+002  +2.7606115637E-002 +1.1112880532E+002  +1.4371436832E-002 +2.7246267031E+001  +5.8729794791E-001 -5.7536270368E+001 
3262774.718 +1.3635004892E-001 +1.6478972388E+002  +8.0435342100E-003 -8.3901889751E+001  +5.4145583578E-003 +9.4778555025E+001  +5.3356590324E-002 -6.8266403342E+001 
3387919.900 +1.2560505431E-001 +1.6576035047E+002  +2.0741441056E-002 +3.9491605293E+001  +2.1483281873E-002 +1.2095225780E+002  +7.6010371723E-001 +3.6827773706E+001 
3513065.081 +1.8502696017E-001 +1.3902829319E+002  +8.6274928520E-003 -7.9419818611E+001  +3.8244230638E-002 +6.5862839249E+001  +4.7488723332E-001 +1.0136397922E+002 
3638210.263 +2.0530598080E-001 +1.3357843844E+002  +1.2712990089E-002 -1.2633261654E+002  +3.1799416646E-002 +7.4322805179E+001  +8.7170654063E-001 +4.4571603287E+001 
3763355.444 +1.8068975824E-001 +1.5068201551E+002  +4.8634970891E-003 +1.3103731097E+001  +5.6825859135E-003 -1.0621268144E+002  +5.0703127436E-001 +1.4322717401E+002 
3888500.626 +1.8237211179E-001 +1.4458955156E+002  +8.7960519473E-003 -1.7741728012E+002  +1.5287459689E-003 -9.0852009691E+001  +3.9508244880E-001 +7.4861641830E+001 
4013645.807 +1.6925107484E-001 +1.4922827598E+002  +4.5185488447E-003 +1.3452574450E+002  +1.5219385568E-003 -1.0129660540E+002  +3.5537348610E-001 +1.3556182826E+002 
4138790.989 +1.8555786505E-001 +1.4741679535E+002  +7.5071993555E-003 -1.1899649172E+002  +6.9603572330E-003 +1.7271206109E+002  +3.9353665832E-001 +1.1339518338E+002 
4263936.170 +1.9755558471E-001 +1.4090233397E+002  +6.8538053343E-003 +1.1191672913E+002  +1.7038856776E-002 +8.9352807039E+001  +5.3286266742E-001 +1.1450402018E+002 
4389081.352 +2.8480376484E-001 +1.2285100062E+002  +1.0822727789E-002 -1.3231847621E+002  +2.1397982116E-002 +1.0013652058E+002  +9.7408751570E-001 +1.4058758818E+002 
4514226.533 +2.9265352692E-001 +1.3125815599E+002  +7.7151668965E-003 -1.4621991940E+002  +5.5304077504E-003 +2.4454051945E+001  +6.8904925478E-001 +1.1366271042E+002 
4639371.715 +3.1053249186E-001 +1.1963927709E+002  +4.8253495485E-002 +5.5502877585E+001  +3.0000207778E-002 -5.7398167280E+001  +4.7462919082E+000 +1.2849200403E+002 
4764516.896 +3.3518551794E-001 +1.3062962652E+002  +1.3361259414E-001 +1.5495607058E+002  +1.7926272808E-001 -1.7648955764E+001  +1.1137480810E+001 -1.0500676583E+002 
4889662.078 +5.2454209999E-001 +1.3713698005E+002  +4.9742307182E-001 +5.6146426154E+001  +4.0643497774E-001 -2.1655784614E+001  +3.6504981973E+001 -1.7324098138E+002 
5014807.259 +3.8215867395E-001 +1.3562915443E+002  +1.2948748803E-001 +1.5382449810E+002  +5.3042832005E-002 -8.7942031042E+001  +9.5628212472E+000 +9.0024322260E+000 
5139952.441 +4.2194675077E-001 +1.2364092091E+002  +9.9669151611E-002 +1.7921796033E+002  +1.4334967961E-001 -1.4625505423E+002  +7.0039912922E+000 +1.3932165046E+002 
5265097.622 +4.0800180979E-001 +1.1685761261E+002  +4.2962526856E-002 +1.7585646151E+002  +1.6272791664E-002 +1.1779098581E+002  +2.3742188431E+000 +1.0135967428E+002 
5390242.804 +3.6547206203E-001 +1.2763517405E+002  +3.3683381791E-002 +1.3157898571E+002  +2.3466260010E-002 +1.0605489465E+002  +1.3679579274E+000 +8.8496089708E+001 
5515387.985 +6.2232206158E-001 +1.1429061259E+002  +2.2729465103E-002 +2.9201555486E+001  +4.3525876307E-002 -3.1382275278E+001  +2.0815826214E+000 +1.3212022882E+002 
5640533.166 +4.3747574879E-001 +1.2056258106E+002  +4.1155821280E-002 -1.3660259163E+002  +1.5566479241E-002 +9.2022257764E+001  +2.5339455545E+000 +8.2694953253E+001 
5765678.348 +5.6099837963E-001 +1.2883309631E+002  +5.3522973173E-002 +5.6665427083E+001  +6.7188348844E-002 -1.5763909458E+002  +5.8594401470E+000 +7.0925646656E+001 
5890823.529 +6.1811901501E-001 +1.2622591519E+002  +2.3434473241E-002 +5.6101740924E+001  +4.2693987079E-002 +1.4632506004E+002  +2.8432641445E+000 +5.1910732779E+001 
6015968.711 +6.0486531125E-001 +1.1987736271E+002  +4.7582326172E-002 +2.0470403964E+001  +2.3818698370E-002 -1.1775239701E+002  +2.9271768820E+000 +2.7785348667E+001 
6141113.892 +7.9262411400E-001 +1.0120029122E+002  +1.3352249223E-002 -8.6728078397E+001  +2.0017061644E-002 +3.6085278798E+001  +1.5396354027E+000 +4.2724017770E+001 
6266259.074 +9.2978136751E-001 +1.1212827989E+002  +2.7598838289E-002 +1.5932993170E+002  +2.1948142210E-002 +8.2088930943E+001  +2.4078578587E+000 +3.0505609866E+001 
6391404.255 +9.8225822429E-001 +7.3794519242E+001  +2.4647396658E-002 +8.2465324275E+001  +1.7830598096E-002 +1.6785390436E+002  +1.8283916791E+000 +2.6457154207E+000 
6516549.437 +1.4021517646E+000 +9.8268144542E+001  +1.5790922221E-002 -1.6816850743E+002  +2.1264094340E-002 +1.4207450722E+002  +1.2343444115E+000 +6.1807034364E+000 
6641694.618 +1.6550906189E+000 +7.0638189019E+001  +2.2200157990E-002 +1.4631514564E+002  +6.0452172837E-003 +1.1043832664E+002  +1.5312320965E+000 +1.4686920948E+000 
6766839.800 +1.9582775891E+000 +4.5979200299E+001  +1.7504743069E-002 +1.2606749226E+002  +4.1390934588E-002 +1.2076250346E+002  +1.4764329160E+000 -1.3535909550E+001 
6891984.981 +1.6924876862E+000 +3.5733339967E+001  +2.5737775689E-002 +1.4073951837E+002  +1.8835381422E-002 -4.6721454242E+001  +1.2968788772E+000 -1.1252359903E+001 
7017130.163 +1.6529598978E+000 +2.3134614079E+001  +3.1696176328E-002 +1.0970491055E+002  +4.0232685705E-003 +3.6465722431E+001  +1.2415374638E+000 -8.8752114757E+000 
7142275.344 +1.8812145400E+000 -6.1727446169E+000  +6.0096947360E-003 +2.2373834465E+001  +2.5617379124E-002 +1.0638725563E+002  +1.3966463479E+000 -6.2305310062E+000 
7267420.526 +1.6262570188E+000 -8.5745696942E-001  +6.5975227444E-003 +1.4916152905E+002  +4.8393152586E-003 +1.3384921020E+002  +1.4630028424E+000 -1.5096544909E+001 
7392565.707 +1.3456735577E+000 -2.0201761517E+000  +7.5538781499E-003 +5.5975030952E+001  +2.5422421261E-003 +1.9070734248E+001  +1.4441921771E+000 -4.5311938164E+000 
7517710.889 +1.1132682726E+000 +9.4149624683E+000  +9.0981814861E-004 +6.9397117239E+001  +7.9476758524E-003 +1.5215153737E+002  +1.2453216588E+000 -6.9248227257E+000 
7642856.070 +1.0225844489E+000 -3.3324242022E-001  +2.1983268749E-003 +7.5586650136E+001  +7.4017600461E-003 +1.0243032698E+002  +1.0813287840E+000 -3.9027612971E+000 
7768001.252 +9.8986928054E-001 +3.4628925904E+000  +1.0179055897E-002 +1.2299572902E+002  +5.0500322298E-003 +9.1845568576E+001  +9.8292989178E-001 -4.3383657133E+000 
7893146.433 +9.1566342441E-001 +1.9399291336E-001  +4.7732043823E-003 +2.9873848088E+001  +5.1518892354E-003 +1.2292766344E+002  +9.6069900512E-001 -2.8307957521E-001 
8018291.615 +8.5255562842E-001 +6.1391785340E+000  +2.6174174891E-003 -5.4169440362E+000  +8.2478757674E-003 +3.7338562232E+001  +9.1704096655E-001 -4.9873494709E+000 
8143436.796 +7.6330055680E-001 +4.4969487381E+000  +4.2944106568E-003 -1.7219054728E+002  +5.3182113524E-003 -1.0296677695E+001  +8.6023938782E-001 -7.6458605215E-001 
8268581.977 +7.9897482062E-001 +5.2044908511E+000  +2.9438946028E-003 +1.2000043942E+002  +4.9019007684E-003 +1.6171293063E+002  +7.4522107935E-001 -5.8931189359E+000 
8393727.159 +7.7049347517E-001 +1.2233193174E+001  +4.4057590547E-003 +2.3176162446E+001  +2.2747747600E-003 +1.2730056701E+002  +7.6920664141E-001 -2.9707531993E+000 
8518872.340 +6.6648544996E-001 +1.2344928269E+001  +4.2948210944E-003 +6.9233675716E+001  +3.8628574540E-003 +8.3182631132E+001  +7.4463178532E-001 +4.8322316343E-001 
8644017.522 +7.2387022083E-001 +1.2520935917E+001  +2.0973133370E-003 +1.0944016820E+000  +4.5804407146E-003 +9.6877354229E+001  +6.9435940707E-001 +6.0047372200E-001 
8769162.703 +5.8861519434E-001 +8.8198769492E+000  +3.2046446189E-003 +7.6474582125E+001  +4.2241263725E-003 +1.2887430089E+002  +6.4455455082E-001 -2.2300528650E+000 
8894307.885 +5.5459919777E-001 +8.3847082545E+000  +5.2154965423E-003 +7.1997284428E+001  +2.3894453624E-003 +2.8208513782E+001  +5.9016149349E-001 -1.3660075406E+000 
9019453.066 +5.9953566313E-001 +6.0991588039E+000  +4.1043652751E-003 +7.4610795210E+001  +3.9157692484E-003 +1.3848618771E+002  +6.4987158966E-001 -1.8368856839E-001 
9144598.248 +6.2949124098E-001 +1.0491542063E+000  +4.8834571703E-003 +8.9426460027E+001  +1.5687090563E-003 -1.6775330933E+002  +6.3021062567E-001 -1.4036748260E+000 
9269743.429 +5.8341734443E-001 +4.8255698909E+000  +4.4576774290E-003 +5.4671161359E+001  +5.7522952953E-003 +4.8154153621E+001  +6.3479612395E-001 -1.6319294978E+000 
9394888.611 +5.4491279399E-001 +3.5547772076E+000  +5.2779936033E-003 +3.3046840311E+001  +3.9122804087E-003 -1.7329290071E+002  +5.2978978801E-001 -4.4333482825E+000 
9520033.792 +5.5180367317E-001 +4.5173932778E+000  +4.0576375838E-003 +6.6772381118E+001  +5.0259823033E-003 +8.7586558573E+001  +5.9785600797E-001 -2.7087687382E+000 
9645178.974 +5.7386807026E-001 +1.4564761036E+000  +3.3032243904E-003 +1.3771842302E+002  +4.1772014935E-003 +9.0890695665E+001  +6.1889315509E-001 -5.1806396836E+000 
9770324.155 +5.4720821016E-001 -4.6422661235E-001  +5.0017547903E-003 +3.3646629550E+001  +1.0152949247E-003 -1.2575113208E+001  +5.6665968223E-001 -1.0054329939E+001 
9895469.337 +5.5238236949E-001 +5.5916499967E-001  +4.5595802644E-003 +2.7929270407E+001  +3.0406125750E-003 +8.1304687845E+001  +5.5408087715E-001 -5.3047775437E+000 
10020614.518 +5.6858604875E-001 -5.7415419055E-001  +3.0691407288E-003 +3.5975242151E+001  +3.8115183650E-003 +1.0453588941E+002  +6.0566473506E-001 -6.4928904746E+000 
10145759.700 +5.5946788165E-001 +1.8616233809E-002  +5.3360382665E-003 +6.2471860756E+001  +4.8894002225E-003 +1.6169709374E+002  +5.7568396733E-001 -3.8365264726E+000 
10270904.881 +5.7371294499E-001 +2.6450675040E+000  +2.7030009507E-003 +3.4515234426E+001  +4.7627575816E-003 +8.3840255854E+001  +6.0009656640E-001 +3.8295113038E+000 
10396050.063 +5.6792247575E-001 +5.0094109823E+000  +5.2858037449E-003 +6.5707605799E+001  +4.0798553893E-003 +8.0100104740E+001  +5.7896267677E-001 -1.8426705331E+000 
10521195.244 +5.5211146568E-001 +2.3313954069E+000  +5.3081374442E-003 +9.5289684149E+001  +3.4653142610E-003 +1.3395000834E+002  +6.1608475213E-001 -2.4190351477E+000 
10646340.426 +5.5341474014E-001 +6.4649562599E+000  +3.3202045843E-003 +9.7140913963E+001  +3.1173772050E-003 +1.0486945316E+002  +5.9986801005E-001 -2.2412982379E+000 
10771485.607 +5.9948162389E-001 +6.0518741477E+000  +6.0677373631E-003 +5.4882301808E+001  +8.1327672528E-003 +7.8150404066E+001  +6.3474970283E-001 +5.3420464400E-001 
10896630.788 +5.8117715087E-001 +5.9703656743E+000  +4.1830263508E-003 +7.5927396898E+001  +4.4323496821E-003 +9.7271784165E+001  +6.2112209332E-001 +5.4505684344E-001 
11021775.970 +5.9890033269E-001 +3.2340632061E+000  +3.2344916081E-003 +1.0322044547E+002  +4.2114032125E-003 +8.3692447212E+001  +6.5940839592E-001 +2.4065369681E+000 
11146921.151 +5.9423148668E-001 +6.0374229745E+000  +3.2204789020E-003 +9.1060342067E+001  +2.7114436907E-003 +1.1052365948E+002  +6.2300253226E-001 -1.2035810452E+000 
11272066.333 +6.3140380527E-001 +7.8412224090E+000  +7.6933644517E-003 +9.4129461711E+001  +2.5834831723E-003 +6.8728131584E+001  +6.2573513936E-001 +6.8606420042E-001 
11397211.514 +6.6815782699E-001 +5.1140795471E+000  +6.3306595170E-003 +7.8641361100E+001  +2.9707845229E-003 +1.0509322559E+002  +6.5111631740E-001 +2.6415668115E-001 
11522356.696 +6.2192473190E-001 +6.5666117620E+000  +4.5887090559E-003 +9.9147707551E+001  +2.6955975664E-003 +7.0110514906E+001  +6.5272949180E-001 -1.1913582619E-001 
11647501.877 +6.5868682621E-001 +2.7572047080E+000  +7.9432328271E-003 +9.3518770386E+001  +4.4099105671E-003 +8.9975984103E+001  +6.4745040657E-001 -5.6708108459E-002 
11772647.059 +6.2618333635E-001 +8.0525428280E+000  +7.0149311274E-003 +8.8409908317E+001  +5.9454754888E-003 +8.7774610018E+001  +7.0843541879E-001 +3.2368894652E+000 
11897792.240 +6.8488414157E-001 +5.2601215234E+000  +5.5521569512E-003 +9.5839434511E+001  +4.4949655979E-003 +7.6487961190E+001  +6.8246680626E-001 +4.1623649672E-002 
12022937.422 +6.7800069983E-001 +6.0784661545E+000  +5.6373276704E-003 +1.0200769934E+002  +3.9835310964E-003 +9.6313442465E+001  +6.7604420966E-001 +5.9410226442E-001 
12148082.603 +6.9879064954E-001 +5.0589354886E+000  +6.0471846888E-003 +8.8295769968E+001  +4.9452486753E-003 +1.1176246631E+002  +6.9950948738E-001 -1.1414339402E+000 
12273227.785 +7.3632676682E-001 +3.5725192252E+000  +7.5034930087E-003 +9.0940869988E+001  +7.5364218904E-003 +1.0359679274E+002  +7.0816650390E-001 +4.9309514429E-002 
12398372.966 +7.0212058513E-001 +2.8934761324E+000  +6.1754078591E-003 +1.0906970890E+002  +4.5761012904E-003 +7.7024238149E+001  +7.4096222499E-001 +1.3458752056E-001 
12523518.148 +7.2064266656E-001 +3.8850422735E+000  +6.4870688482E-003 +9.2099125845E+001  +6.0580285950E-003 +9.6098165068E+001  +7.4504364217E-001 +3.9438217988E-001 
12648663.329 +7.4982225089E-001 +2.8580583390E+000  +6.3105958796E-003 +9.3170159904E+001  +5.2496750585E-003 +1.0548593840E+002  +7.6399100599E-001 +1.1411417082E+000 
12773808.511 +7.5041008476E-001 +3.0152836103E+000  +6.3803478564E-003 +9.0802423489E+001  +6.1721260109E-003 +1.0119105060E+002  +7.5615602984E-001 -1.4467428860E+000 
12898953.692 +7.6312343144E-001 +1.1805496212E+000  +5.4068068657E-003 +8.6462419449E+001  +6.7090805580E-003 +8.4438115488E+001  +8.1103976113E-001 -1.1064851741E+000 
13024098.874 +7.9961351365E-001 +3.0624967293E-001  +5.2879714812E-003 +7.4575571597E+001  +5.7202049725E-003 +1.1018443406E+002  +7.8211658369E-001 -1.5908871131E+000 
13149244.055 +8.2169383482E-001 +4.9523080681E-001  +7.4136369863E-003 +9.4611151380E+001  +5.8097957425E-003 +9.7513381279E+001  +8.4548947905E-001 -3.3922546793E-001 
13274389.237 +8.2392226429E-001 -1.2874894003E+000  +5.3558310807E-003 +9.0582147111E+001  +6.1265054545E-003 +1.0155513938E+002  +8.3626906214E-001 -1.7362856655E+000 
13399534.418 +8.1655282712E-001 -1.9087341533E+000  +5.7897725535E-003 +8.6383281836E+001  +6.0649372817E-003 +9.2117502799E+001  +8.5646510027E-001 -2.7717167234E+000 
13524679.599 +8.7142622601E-001 -1.9023768000E+000  +5.2986240416E-003 +8.3140717297E+001  +4.9929205790E-003 +8.6291554364E+001  +8.8036177383E-001 -3.6831469381E+000 
13649824.781 +8.9000474632E-001 -1.2151268166E+000  +6.9568845509E-003 +9.1007751418E+001  +5.4291393537E-003 +7.9116753635E+001  +8.6172050746E-001 -3.9322103657E+000 
13774969.962 +9.1628321670E-001 -1.1455446405E+000  +6.9044474986E-003 +1.0555410343E+002  +7.2780574749E-003 +1.0286738558E+002  +9.1236348498E-001 -3.4336286437E+000 
13900115.144 +8.9910560825E-001 -3.8821740963E+000  +6.7370889016E-003 +8.4677577832E+001  +5.7779682822E-003 +9.6123467730E+001  +9.2349971900E-001 -3.3687158847E+000 
14025260.325 +9.4675050375E-001 -3.1064240105E+000  +6.5581356721E-003 +7.8615953861E+001  +7.1005845080E-003 +8.6179584202E+001  +9.2912487080E-001 -4.7528957898E+000 
14150405.507 +9.3891026104E-001 -4.8616647606E+000  +6.6731997298E-003 +9.5237902215E+001  +7.4232394097E-003 +9.0570504844E+001  +9.5056338823E-001 -4.1416160456E+000 
14275550.688 +9.6444548645E-001 -6.0314435680E+000  +7.0992142587E-003 +9.8476664291E+001  +7.9798144038E-003 +9.4459194063E+001  +9.7813293177E-001 -4.7392436842E+000 
14400695.870 +9.6289081748E-001 -5.2581489681E+000  +7.6498767875E-003 +9.0589772430E+001  +7.4593875687E-003 +8.8236180174E+001  +9.9409024644E-001 -3.8418880221E+000 
