!  2-Port S-parameters saved by WinCal
! VAR MeasName=S-Parameters (CALIBRATED_DATA) read from VNA (P5004A)
! VAR MeasDate=28/08/2024 12:10:21
! VAR NAME=S2_r7c9_RESET1_9k-100M_3
! VAR FILENAME=S2_r7c9_RESET1_9k-100M_3.S2P
! VAR DATE=28/08/2024 12:10:21
! VAR PHYS_PORTS=1,2
! VAR ObjTypeName=DATASET
! VAR IndexType=Frequency
!
# Hz S MA R 50
9000.000 +9.0629971952E-002 -1.6449964149E+002  +4.6581984359E-003 +7.6432251082E+001  +9.2523038847E-003 +1.7014633275E+002  +3.1368895952E-001 -1.4168883642E+002 
134145.181 +1.1144539973E-001 +1.6974470746E+002  +3.4847094980E-004 -1.2759023909E+002  +7.1912744802E-005 +1.7435115111E+002  +2.3626416172E-001 -1.6999068037E+002 
259290.363 +1.1061702237E-001 +1.6965556073E+002  +7.1459481519E-004 +1.2725300971E+002  +2.5626718977E-004 -1.6189962151E+002  +2.4582635745E-001 -1.7006468614E+002 
384435.544 +1.1415805014E-001 +1.6972086941E+002  +4.3744072978E-004 -9.4943965246E+001  +3.8923234096E-004 -1.0417201095E+002  +2.4334539117E-001 -1.6756452474E+002 
509580.726 +1.1227346374E-001 +1.7156449343E+002  +9.7806717563E-004 -1.6351405970E+002  +9.3436831075E-004 +6.5911600481E+001  +2.4835712452E-001 -1.6754745323E+002 
634725.907 +1.1812740585E-001 +1.7172950202E+002  +5.1256100095E-004 -8.4085940429E+001  +1.5610075556E-004 +1.4304461449E+002  +2.5053321323E-001 -1.6337308902E+002 
759871.089 +1.1949258883E-001 +1.7089121474E+002  +7.3947559966E-004 +1.9621117275E+001  +3.9481502437E-004 -1.7402273515E+002  +2.5007669506E-001 -1.6810293243E+002 
885016.270 +1.2005370517E-001 +1.6906261972E+002  +3.0245489477E-004 +5.8288768263E+001  +6.4772102084E-004 -1.6848332080E+002  +2.5126367812E-001 -1.6658597090E+002 
1010161.452 +1.1276893628E-001 +1.7016312002E+002  +2.6699699427E-004 +7.3949058593E+001  +1.3184399505E-003 -1.5988725113E+002  +2.1370196552E-001 -1.6585562925E+002 
1135306.633 +1.1921431933E-001 +1.6923017527E+002  +9.3957356333E-004 +2.7416492056E+001  +1.2448834745E-003 -1.5133520890E+002  +1.9036407553E-001 -1.5646256687E+002 
1260451.815 +1.1973017399E-001 +1.7018321169E+002  +1.8292092960E-003 +8.8623968320E+001  +4.3586201160E-003 -1.3298895893E+002  +1.7667844792E-001 -1.4693935309E+002 
1385596.996 +1.2696230337E-001 +1.7174987332E+002  +4.0005437359E-004 +6.2938704797E+001  +4.5847280392E-004 -4.5942823078E+001  +2.7074023535E-001 -1.5984530010E+002 
1510742.178 +1.2690778058E-001 +1.7181350781E+002  +7.4143429803E-004 -4.3174570681E+001  +4.7968366357E-004 +4.2531211177E+001  +2.5193301153E-001 -1.6019583834E+002 
1635887.359 +1.2795913848E-001 +1.7157842903E+002  +8.2616954008E-004 -1.3180867888E+002  +1.4028848615E-003 -1.3576097738E+002  +2.4563326820E-001 -1.5337128411E+002 
1761032.541 +1.2996441178E-001 +1.6955177304E+002  +1.1215508490E-003 -1.6530338980E+002  +1.6563772317E-003 -1.4577402571E+002  +2.3381044169E-001 -1.6062511481E+002 
1886177.722 +1.2662491428E-001 +1.7218815994E+002  +2.3626377488E-003 +1.1626935926E+002  +1.8730278551E-003 -6.3986069338E+001  +2.2296781347E-001 -1.6221304180E+002 
2011322.904 +1.2655322855E-001 +1.6768142242E+002  +1.2064858549E-003 +7.5755953692E+001  +7.1532190934E-004 -1.4018457330E+002  +2.2407777161E-001 -1.6338184427E+002 
2136468.085 +1.3152194824E-001 +1.6466768113E+002  +2.0837014277E-003 -2.2453968006E+000  +2.4080445929E-003 -8.9357743074E+001  +1.9691336798E-001 -1.7763001172E+002 
2261613.267 +1.2345327726E-001 +1.6396464255E+002  +7.2113007765E-004 -1.2813945459E+002  +5.3155991911E-003 +1.1066885838E+002  +1.6732238552E-001 -1.7541658249E+002 
2386758.448 +1.2958407378E-001 +1.6414609020E+002  +1.5601411309E-003 +5.7119255593E+001  +3.2544021322E-003 -1.1683331511E+002  +1.9407038164E-001 -1.7732498035E+002 
2511903.630 +1.3528076555E-001 +1.5819027585E+002  +2.5656615818E-003 +1.3403243752E+002  +3.9824122852E-003 -5.2691425349E+001  +1.7632243489E-001 -1.7001874167E+002 
2637048.811 +1.3395506055E-001 +1.6428291603E+002  +5.5456781528E-003 +6.7257515311E+000  +2.2164261766E-003 +1.5754004814E+002  +1.3101518924E-001 -1.6724110702E+002 
2762193.992 +1.3309817264E-001 +1.7533559168E+002  +1.0735575116E-002 -2.4100693785E+001  +1.5159868672E-002 -7.2297281769E+001  +5.1075660296E-001 -9.0654366640E+001 
2887339.174 +1.3084630008E-001 +1.7563767416E+002  +4.3332656737E-003 -1.2790664905E+002  +4.3639119799E-003 -1.5259865296E+002  +2.7848383868E-001 -1.2140224688E+002 
3012484.355 +1.2777793521E-001 +1.7760586046E+002  +1.1796546897E-002 -5.7351071430E+001  +2.4012376474E-002 +1.7633379425E+002  +7.5307416437E-001 -1.0101657175E+002 
3137629.537 +6.2971720214E-002 -1.7295758137E+002  +1.3923987728E-002 +2.5106169677E+001  +2.6827758036E-002 -1.6036392288E+002  +1.3038467236E-001 -1.1993715589E+002 
3262774.718 +1.1894553449E-001 +1.5567764659E+002  +5.5329893738E-003 +2.1258372579E+001  +2.4824618634E-003 +1.7912141104E+002  +1.9568195562E-001 -7.3850171552E+001 
3387919.900 +1.2415534448E-001 +1.5153981605E+002  +2.9597831101E-002 -1.6714420666E+002  +1.8855211787E-002 +1.1506110645E+002  +6.4674925228E-001 +3.3443654057E+001 
3513065.081 +1.4722511314E-001 +1.5293805546E+002  +2.3726788931E-003 +8.3351315219E+001  +1.3064373068E-002 +1.3456996542E+002  +7.2514092241E-001 +1.4161525136E+002 
3638210.263 +1.7509760189E-001 +1.4973621540E+002  +5.3831177799E-003 +8.6304870506E+001  +9.7116130065E-003 +1.1646715495E+002  +5.3111793475E-001 +1.3051448726E+002 
3763355.444 +1.7964634336E-001 +1.4927385848E+002  +4.0437809309E-003 +2.6379183934E+001  +6.3811766813E-003 -1.7768846508E+002  +8.3878885155E-001 +1.2619266222E+002 
3888500.626 +1.8245397390E-001 +1.5322546195E+002  +2.6479779026E-002 +1.3545016554E+002  +7.7866879135E-003 -7.6286993147E+001  +1.1960686395E+000 +1.3500022613E+002 
4013645.807 +1.6650987274E-001 +1.3451626519E+002  +9.4040228783E-003 -1.1202812926E+002  +1.3829823079E-002 +1.4548893025E+002  +4.5893993767E-001 +1.2832998388E+002 
4138790.989 +1.6519048380E-001 +1.3494235560E+002  +4.5289619570E-003 +4.7036940495E+000  +9.2080359811E-003 -7.9652115004E+001  +3.6839566437E-001 +1.4744172343E+002 
4263936.170 +1.8146599028E-001 +1.4106763914E+002  +7.3329280293E-003 +8.0160826311E+001  +5.4147758886E-003 +4.4293101322E+001  +2.0183315818E-001 +1.3633228842E+002 
4389081.352 +1.7265709810E-001 +1.4547132070E+002  +1.3847686816E-002 +9.0135370516E+001  +4.5073641348E-003 +1.7487672689E+002  +6.3343033301E-001 +1.3380781232E+002 
4514226.533 +1.9524616837E-001 +1.3137190131E+002  +9.2611808402E-003 +1.5928104958E+002  +1.0975052509E-002 +5.2133008653E+001  +1.3932694186E+000 +1.3130831027E+002 
4639371.715 +2.9166228729E-001 +1.3425046696E+002  +1.3721399519E-002 +1.2746464382E+002  +7.1205104128E-002 -1.6093963725E+002  +2.0689527465E+000 +1.6267252770E+002 
4764516.896 +3.0836327847E-001 +1.3227020995E+002  +1.0641179084E-002 -1.5498684269E+002  +7.5560420191E-003 +1.3860204087E+002  +1.2477704659E+000 +6.6355040139E+001 
4889662.078 +4.5375548896E-001 +1.2158287446E+002  +5.5183312278E-002 -8.8633533637E+001  +3.9225748209E-002 -7.6889862193E+001  +3.5508080522E+000 -1.3412844007E+002 
5014807.259 +5.2352036434E-001 +1.2533532197E+002  +5.7687438647E-002 +1.2033028617E+002  +8.1999489013E-002 +9.9911153561E+001  +2.9150899126E+000 +5.1345533845E+001 
5139952.441 +4.3645594695E-001 +1.2439156524E+002  +1.3938329597E-001 +1.0513533940E+002  +1.0222884864E-001 +1.6307983989E+002  +5.3144427416E+000 +5.9573440725E+001 
5265097.622 +4.1971925029E-001 +1.3216528350E+002  +3.0522080761E-003 +1.2661290539E+002  +1.5817708049E-002 +4.6851851639E+001  +1.1979959210E+000 +7.2890438329E+001 
5390242.804 +3.6418143809E-001 +1.2378036670E+002  +1.8114024653E-002 +1.1451620454E+002  +1.5523368453E-002 +5.9477153910E+001  +1.2705715198E+000 +1.1516415854E+002 
5515387.985 +4.4720605891E-001 +1.2622718231E+002  +3.2392713591E-002 -1.5571565546E+002  +2.0639802207E-002 +4.8380440892E+001  +2.9460882829E+000 +1.2014743608E+002 
5640533.166 +4.9976378904E-001 +1.2445122381E+002  +3.1094314218E-002 +1.6636614780E+002  +4.6924879515E-002 +1.0638868657E+002  +2.8565378378E+000 +1.0123145127E+002 
5765678.348 +4.3512813507E-001 +1.1130912385E+002  +1.1555175783E-002 -1.3746914694E+002  +1.9290649533E-002 +8.3473616221E+001  +2.7177175915E+000 +6.1751729127E+001 
5890823.529 +4.8033442687E-001 +1.1061279858E+002  +2.4218185929E-002 +5.0718892937E+001  +1.1124595624E-002 +1.0557910906E+002  +1.7934703262E+000 +7.7513333809E+001 
6015968.711 +5.4870223941E-001 +1.1253893827E+002  +2.3454569089E-002 +3.9518004046E+001  +2.2484664475E-002 +9.7471442025E+001  +1.7850227161E+000 +1.9085667507E+001 
6141113.892 +7.3069050727E-001 +1.0256438870E+002  +1.8087281526E-002 +1.4567518062E+002  +3.2703779583E-003 +1.2022763829E+002  +1.9607935485E+000 +3.6814649139E+001 
6266259.074 +7.1241933761E-001 +1.0248757332E+002  +4.6977071993E-002 +6.3595549850E+001  +3.0105103794E-002 +2.1187274899E+001  +1.7166423899E+000 +4.8822969199E+001 
6391404.255 +9.3783415376E-001 +8.4207139763E+001  +5.4955812653E-002 +1.0789119008E+002  +2.7487942883E-002 +1.6414375838E+001  +1.8586647949E+000 +1.6263629165E+001 
6516549.437 +1.4285776445E+000 +7.9113432082E+001  +4.2078078370E-002 -1.2233250210E+001  +4.4682378902E-002 +2.7314906134E+001  +1.9248396758E+000 +4.0787293057E+000 
6641694.618 +2.5636485767E+000 +6.8386765428E+001  +6.6969774286E-002 +5.7958463697E+001  +1.0938254018E-002 -4.4543815710E+001  +1.3026508658E+000 -4.7880450625E+000 
6766839.800 +1.5477021111E+000 +4.2952674490E+001  +4.5313024409E-002 +5.6893280191E+000  +2.5686046301E-002 -2.4937616427E+001  +1.2083409399E+000 -3.8389913886E+000 
6891984.981 +1.7082526473E+000 +3.3367348082E+001  +2.0230780664E-002 +5.7855640703E+001  +1.4468400441E-002 +7.7852691911E+001  +1.3839964137E+000 -4.2035696343E+000 
7017130.163 +1.4078101078E+000 +9.7244822807E+000  +2.6464729923E-002 +2.6352494334E+001  +2.0007933573E-002 -3.1626061177E+001  +1.3161567140E+000 -2.0269773392E+001 
7142275.344 +1.4198417857E+000 +8.5887744026E-001  +2.1933682538E-002 -1.8068672238E+001  +2.5219256599E-002 -2.5096103478E+001  +1.3032979210E+000 -1.2251144684E+001 
7267420.526 +1.3267072154E+000 +3.3732806088E+000  +1.6626401140E-002 +1.4873972693E+001  +2.0601088481E-002 +2.0817556959E+001  +1.3826221883E+000 -9.3710942075E+000 
7392565.707 +1.4540929462E+000 -1.1398490100E+000  +8.7382371870E-003 +1.2558420600E+001  +2.1469361712E-002 +2.8329059677E+001  +1.4571028283E+000 -7.9544493712E+000 
7517710.889 +1.2678162459E+000 +3.8014344137E+000  +2.1594274245E-002 +3.9933747344E+001  +5.8163587965E-003 +6.5171027346E+001  +1.1385710694E+000 -6.8203755466E+000 
7642856.070 +1.0486017842E+000 +5.1591780239E+000  +1.1641071197E-002 +4.5215920759E+001  +1.1501352350E-002 +1.6637949139E+001  +1.0555623924E+000 -8.9960733463E+000 
7768001.252 +8.6511711162E-001 -2.7946032554E-001  +9.7326839733E-003 -1.3169450742E+001  +1.3509554125E-002 +2.0455113889E+001  +1.0384910011E+000 -6.7617868356E+000 
7893146.433 +8.7239441845E-001 +3.4248664477E+000  +1.3952962910E-002 +4.5400519236E+001  +6.0957256749E-003 +6.5895771518E+001  +9.7067375971E-001 -4.0706140125E+000 
8018291.615 +8.3804994395E-001 +2.3336693173E+000  +1.2421215272E-003 +4.9510998441E+001  +5.8554508450E-003 +1.5229678500E+001  +8.5413642912E-001 -2.5564107081E+000 
8143436.796 +7.9228393909E-001 +5.2012789024E+000  +5.9639925639E-003 +2.7207478694E+001  +1.2504844852E-002 +3.5712978939E+001  +8.9244441813E-001 -4.3784202493E+000 
8268581.977 +7.9397781325E-001 +6.4247775663E+000  +1.5775510650E-002 -2.2477897831E+000  +1.0649602766E-002 +2.7193515883E+001  +8.2042983053E-001 -2.2229628757E+000 
8393727.159 +7.0032563957E-001 +7.2817156469E+000  +1.3098846732E-002 -1.7044038513E+000  +5.5154856787E-003 +3.3926861678E+001  +7.1884437779E-001 -3.5107177259E-001 
8518872.340 +7.0989220588E-001 +5.8470354291E+000  +5.9224316869E-003 -4.9250667509E+000  +6.7346056252E-003 +3.9050786037E+001  +6.9071809910E-001 -2.5204581766E+000 
8644017.522 +6.4016477377E-001 +1.6529653673E+001  +8.9920313928E-003 +3.8217204767E+001  +1.3192133522E-002 +3.9819087668E+001  +7.1059240337E-001 +9.2489260704E-001 
8769162.703 +5.7325191673E-001 +5.2417784638E+000  +8.1545312034E-003 +3.6716921982E+001  +8.1703711739E-003 +3.7851045132E+001  +7.0771059138E-001 +9.5793910982E-001 
8894307.885 +6.4268244100E-001 +9.0508312684E+000  +6.3573204743E-003 +3.6389105326E+001  +1.1096256260E-002 +3.8663585534E+001  +6.7322627869E-001 -6.1820614710E+000 
9019453.066 +5.5705505863E-001 +4.7636620555E+000  +5.3291513564E-003 -7.1978803693E+000  +7.8841400904E-003 +3.1757344542E+001  +6.0856407667E-001 -4.6618106943E+000 
9144598.248 +6.0411583011E-001 +2.8094175749E+000  +1.2924103246E-002 +6.7318545056E+000  +1.0097653327E-002 +4.4705098961E+001  +5.7853123768E-001 +3.0942129193E-001 
9269743.429 +5.5170561750E-001 +5.6719005812E+000  +7.9449176431E-003 +2.1649704250E+001  +9.3316506026E-003 +2.5460112414E+001  +6.0339327297E-001 +4.5219140695E-001 
9394888.611 +5.5482439435E-001 +3.0056230469E+000  +8.5181377720E-003 +1.7419094318E+001  +9.5080380637E-003 +2.9378751585E+001  +5.4612477996E-001 -5.7313129040E-001 
9520033.792 +5.2004442126E-001 +2.9922627213E+000  +6.4782119362E-003 +3.2437297486E+001  +6.9818510428E-003 +2.7088307359E+001  +5.8827504569E-001 -6.3021395221E+000 
9645178.974 +5.5581860390E-001 +2.4010396703E+000  +7.8028148170E-003 +3.4774071592E+001  +6.5740834519E-003 +4.6875434494E+001  +5.6893218204E-001 +5.1401438527E-001 
9770324.155 +5.3828088917E-001 -6.4246961633E-001  +8.2671749302E-003 +2.0301688659E+001  +9.0273337096E-003 +6.2239249532E+001  +6.0098339847E-001 -4.0018752711E+000 
9895469.337 +5.6369145169E-001 +1.2705740273E+000  +6.7893933719E-003 +1.8576686132E+001  +8.8505335259E-003 +2.9610676038E+001  +5.9648278066E-001 -5.9237270628E+000 
10020614.518 +5.2436940688E-001 +4.7732197039E+000  +8.2498635539E-003 +1.8747359054E+001  +5.5052934719E-003 +3.3246245476E+001  +5.8261071559E-001 -6.1786829051E+000 
10145759.700 +5.5376408533E-001 +3.1931879239E+000  +9.4819540320E-003 +3.4418874542E+001  +1.1417273591E-002 +3.9934496428E+001  +5.7675184253E-001 -2.6028929130E+000 
10270904.881 +5.2329947653E-001 +6.7968559570E+000  +9.5331208491E-003 +2.0233210792E+001  +8.4747011984E-003 +2.3415504307E+001  +5.8661115284E-001 -1.2743052473E+000 
10396050.063 +5.1807712949E-001 +6.1823181763E+000  +8.6815020501E-003 +3.7093122497E+001  +7.0628023899E-003 +4.1789909799E+001  +5.6352088451E-001 -2.0003973935E+000 
10521195.244 +5.4576758588E-001 +6.8757669656E+000  +9.2247747584E-003 +2.9422708815E+001  +9.1367570253E-003 +3.3579182227E+001  +6.0210868852E-001 -1.4175472259E+000 
10646340.426 +5.5323309393E-001 +6.0053085481E+000  +9.3603650647E-003 +3.3150747643E+001  +9.3736576429E-003 +3.5361987615E+001  +6.0878410986E-001 +1.9725825273E+000 
10771485.607 +5.3840279723E-001 +6.2854131881E+000  +9.1532871262E-003 +3.5151349653E+001  +9.0224752308E-003 +5.7634180756E+001  +5.8745103654E-001 -9.6122291204E-001 
10896630.788 +5.3151741326E-001 +3.3686893716E+000  +8.1294093170E-003 +2.5954210751E+001  +8.2513848047E-003 +4.0014607929E+001  +6.2763679496E-001 +2.7795087549E+000 
11021775.970 +5.4989559213E-001 +9.6502005939E+000  +9.1088943093E-003 +4.2891795131E+001  +1.0248642754E-002 +3.7191696959E+001  +6.0953273954E-001 -4.8371292312E-001 
11146921.151 +5.9745616686E-001 +6.3038475510E+000  +8.4531018735E-003 +3.1009862760E+001  +9.7364756261E-003 +4.9795072408E+001  +5.9392542473E-001 +4.6285732981E-001 
11272066.333 +6.0301685289E-001 +7.6533021036E+000  +8.2475833972E-003 +3.3990076368E+001  +7.1727029075E-003 +4.0926513780E+001  +6.2338628641E-001 +1.0890933011E+000 
11397211.514 +6.0740599781E-001 +7.1365523424E+000  +7.4031838413E-003 +3.3642385203E+001  +9.7920096278E-003 +4.1672650553E+001  +6.1653402895E-001 +2.2567534918E+000 
11522356.696 +6.1063917983E-001 +8.2118602739E+000  +9.8138839017E-003 +2.6481865210E+001  +8.6258648371E-003 +5.5313118000E+001  +6.5414718321E-001 +1.1914037789E+000 
11647501.877 +6.3429214424E-001 +8.1083834034E+000  +9.6842190747E-003 +2.5207133965E+001  +1.0447148846E-002 +5.4631152949E+001  +6.6910371252E-001 -1.1212637142E+000 
11772647.059 +6.5479244558E-001 +7.3839899550E+000  +9.7221237935E-003 +4.1719402029E+001  +1.0093043788E-002 +4.2383596819E+001  +6.6098525679E-001 +2.6132428994E+000 
11897792.240 +6.5380968071E-001 +3.2877679169E+000  +1.1449818724E-002 +3.5550518628E+001  +8.4164805718E-003 +4.4548191976E+001  +7.0018914364E-001 +1.1722304510E+000 
12022937.422 +6.5915985237E-001 +6.5310125819E+000  +1.0633982129E-002 +3.7486442698E+001  +1.2474574023E-002 +4.3888577559E+001  +6.6603424302E-001 -4.8258606172E-001 
12148082.603 +6.6351302028E-001 +2.0582914622E+000  +8.4154070042E-003 +4.2580914143E+001  +9.9055792950E-003 +3.0102766871E+001  +6.8669448437E-001 +2.8155750467E+000 
12273227.785 +6.9623887539E-001 +4.4246959580E+000  +1.0290002854E-002 +2.6081663049E+001  +9.8833936740E-003 +3.9146178364E+001  +6.9139306863E-001 -1.5768930125E+000 
12398372.966 +7.0483435166E-001 +3.7458928785E+000  +1.0870540152E-002 +3.3380229824E+001  +9.5353315985E-003 +3.8752208892E+001  +7.3305304906E-001 -4.2500099548E-001 
12523518.148 +7.2724312159E-001 +2.6671194634E+000  +1.1940241911E-002 +2.2513783378E+001  +1.0114028752E-002 +5.0325903765E+001  +7.5025928753E-001 +2.0186517242E-001 
12648663.329 +7.2770704040E-001 +3.8260049010E-001  +1.0399050100E-002 +3.6399305163E+001  +1.0759438325E-002 +3.2016870284E+001  +7.4088571624E-001 +6.2210704205E-001 
12773808.511 +7.3802154540E-001 -4.4466062879E-001  +1.0356791225E-002 +3.6233252058E+001  +1.1412073309E-002 +4.6464450196E+001  +7.6845694604E-001 +2.4413628853E-002 
12898953.692 +7.7615482881E-001 +5.5967127489E-002  +1.0119727100E-002 +4.0194452449E+001  +1.1913703637E-002 +4.4022276923E+001  +7.7239628455E-001 -1.7312613516E+000 
13024098.874 +7.7467813549E-001 +2.1133277871E-001  +1.0039701627E-002 +3.4526148276E+001  +1.2025447560E-002 +4.4294798355E+001  +8.0296602365E-001 -4.1911588194E-001 
13149244.055 +7.8047512648E-001 +1.1802150630E-001  +1.1367128486E-002 +4.0417511572E+001  +1.2733970568E-002 +4.3228614530E+001  +8.0796272362E-001 -1.8780232974E+000 
13274389.237 +7.9925856720E-001 -1.1816468235E+000  +1.1963794819E-002 +3.9084162890E+001  +1.0963342360E-002 +4.9317026713E+001  +8.2302314950E-001 -1.6671891918E+000 
13399534.418 +8.2287470356E-001 -1.4075464981E+000  +1.1786342583E-002 +3.9542454553E+001  +1.0980380959E-002 +4.4403620349E+001  +8.2901229923E-001 -3.3092571084E+000 
13524679.599 +8.3995689825E-001 -7.5987610494E-001  +1.0446449837E-002 +3.7646294002E+001  +1.0720544041E-002 +4.0558897400E+001  +8.5473689747E-001 -2.6389399003E+000 
13649824.781 +8.5889725628E-001 -3.4712514528E+000  +1.2059622392E-002 +4.4809125721E+001  +1.1654990183E-002 +5.0799591585E+001  +8.8689003428E-001 -2.8039810047E+000 
13774969.962 +8.8857321890E-001 -2.4087184363E+000  +1.0998039399E-002 +3.4487417864E+001  +1.1351509075E-002 +4.6646099020E+001  +8.9130010474E-001 -3.3600704506E+000 
13900115.144 +9.0519213530E-001 -3.7054503776E+000  +9.9321412630E-003 +3.9843706330E+001  +1.3312086153E-002 +4.7022378359E+001  +9.0527196119E-001 -3.7662122604E+000 
14025260.325 +9.1655270696E-001 -3.6112182505E+000  +1.1902994148E-002 +4.5614223220E+001  +1.2232239423E-002 +4.2905498565E+001  +9.1913298140E-001 -3.4177365222E+000 
14150405.507 +9.0389938744E-001 -4.9608402539E+000  +1.1728025964E-002 +3.5717312668E+001  +1.2224823339E-002 +3.5414248965E+001  +9.2732962018E-001 -3.8854255179E+000 
14275550.688 +9.5063277206E-001 -5.4426722683E+000  +1.1384229191E-002 +4.2842814217E+001  +1.2890155953E-002 +3.7119338567E+001  +9.5414811714E-001 -3.6609350434E+000 
14400695.870 +9.6939255451E-001 -6.1039190620E+000  +1.2157665720E-002 +4.2695455274E+001  +1.3292310441E-002 +3.1265519001E+001  +9.8305384071E-001 -4.5846823298E+000 
