!  2-Port S-parameters saved by WinCal
! VAR MeasName=S-Parameters (CALIBRATED_DATA) read from VNA (P5004A)
! VAR MeasDate=27/08/2024 15:26:23
! VAR NAME=S2_r6c8_formed_9k-100M_1
! VAR FILENAME=S2_r6c8_formed_9k-100M_1.S2P
! VAR DATE=27/08/2024 15:26:23
! VAR PHYS_PORTS=1,2
! VAR ObjTypeName=DATASET
! VAR IndexType=Frequency
!
# Hz S MA R 50
9000.000 +5.8959082965E-002 -1.6490325609E+002  +1.5298225252E-002 -1.2345402588E+002  +1.4740506290E-002 -7.2584197319E+001  +1.9150497603E-001 -1.3575743509E+002 
134145.181 +1.1096793942E-001 +1.6958010597E+002  +2.2596935820E-004 -3.0693470503E+001  +5.5973231657E-004 -1.7850643946E+002  +2.3564603792E-001 -1.7067467684E+002 
259290.363 +1.1156585845E-001 +1.6966268726E+002  +8.3459097509E-004 +1.0736024310E+002  +5.9795943094E-004 -4.8162198676E+001  +2.3389361037E-001 -1.6642593363E+002 
384435.544 +1.1327869313E-001 +1.6994056526E+002  +4.0573847092E-004 -4.0182130865E+001  +7.0532630623E-004 -1.0397049934E+001  +2.4575700687E-001 -1.6878714813E+002 
509580.726 +1.1363584224E-001 +1.7002115257E+002  +1.4896956803E-003 +1.0538016427E+002  +4.4378301877E-004 +6.2286748809E+001  +2.6076117851E-001 -1.6474409792E+002 
634725.907 +1.1524246581E-001 +1.6976733187E+002  +5.2921046660E-004 -1.1545881681E+002  +5.0363830150E-004 +1.2192876240E+002  +2.3241530361E-001 -1.6636872540E+002 
759871.089 +1.1743159481E-001 +1.7140382592E+002  +1.7622526502E-004 +1.1505776209E+002  +8.2565358026E-004 +1.4128553655E+002  +2.5037635762E-001 -1.6484971540E+002 
885016.270 +1.1835938518E-001 +1.7087064274E+002  +5.3491808728E-004 +8.8479739250E+001  +1.0933421483E-003 +1.2404405350E+002  +2.3310425507E-001 -1.6528193476E+002 
1010161.452 +1.1475102151E-001 +1.7130222374E+002  +1.1038415085E-003 -7.9790236046E+001  +3.5513208948E-003 -1.3517591125E+002  +9.0368529309E-002 +1.6335017437E+002 
1135306.633 +1.1911532064E-001 +1.7084268331E+002  +1.3473259405E-003 -1.3315972390E+002  +2.1087325820E-003 -1.0712578957E+002  +1.8854479785E-001 -1.6221696707E+002 
1260451.815 +1.2369950853E-001 +1.7073155492E+002  +7.5767799605E-004 +2.3944310177E+001  +6.9242676243E-004 -8.9452452853E+001  +2.2194579581E-001 -1.6277403499E+002 
1385596.996 +1.2638736581E-001 +1.7233351754E+002  +8.9108926912E-004 +3.4613638628E+001  +9.9040002710E-004 -7.6767575449E+001  +2.5804119083E-001 -1.5867150553E+002 
1510742.178 +1.2512397318E-001 +1.7163809517E+002  +8.1510632931E-004 -1.6073471422E+002  +1.7525371389E-003 -1.1286441401E+002  +2.5365305170E-001 -1.5900507510E+002 
1635887.359 +1.2468294518E-001 +1.6973780661E+002  +1.4380079665E-004 -1.6437584681E+002  +6.8943101226E-004 -1.4942445448E+002  +2.4045027991E-001 -1.5505685417E+002 
1761032.541 +1.3014473770E-001 +1.6857640646E+002  +6.9119859454E-003 +8.1763826845E+001  +4.5758276952E-003 -1.6872628162E+002  +1.6760378471E-001 -1.1549434512E+002 
1886177.722 +1.2580601698E-001 +1.6806694589E+002  +2.4215987331E-003 -8.1508173786E+001  +2.8955834827E-003 -1.5999506405E+002  +1.8063417334E-001 -1.5642189459E+002 
2011322.904 +1.2921339075E-001 +1.6530443654E+002  +1.7026214121E-003 +1.7992103018E+001  +4.4329378169E-003 -6.7474308890E+001  +2.0730013023E-001 -1.7092147739E+002 
2136468.085 +1.3095142982E-001 +1.6313649673E+002  +7.7248013650E-004 +1.2420497979E+002  +2.0689723620E-003 -5.1697876047E+001  +2.0002213838E-001 -1.6790427434E+002 
2261613.267 +1.3699891839E-001 +1.6359563239E+002  +1.8324191616E-003 +1.6611841316E+002  +5.2100088577E-004 +3.7520396979E+001  +2.6117108981E-001 +1.7611870552E+002 
2386758.448 +1.3674025679E-001 +1.6275405217E+002  +3.1994871389E-003 +1.0785898367E+002  +5.6968974214E-003 -6.2480398168E+001  +2.0045992221E-001 +1.7707521847E+002 
2511903.630 +1.3701022441E-001 +1.5938331403E+002  +3.4917552228E-003 +9.7405015020E+001  +3.7581821655E-003 -3.7464674096E+001  +2.3052531089E-001 +1.6359459578E+002 
2637048.811 +1.3277787144E-001 +1.6688839900E+002  +4.6278328384E-003 +3.9161245806E+001  +8.2355182920E-003 -1.3415699250E+002  +3.4283854461E-001 -7.7043574249E+001 
2762193.992 +4.4535124781E-002 -1.7779366215E+002  +7.7660026461E-002 +2.5951720497E+000  +1.3953586069E-001 -6.4648332366E+001  +1.8052587955E+000 +4.5376486633E+001 
2887339.174 +2.1990073752E-002 -7.6566731420E+001  +4.5314917923E-002 -7.4238148168E+001  +1.4588008453E-002 -7.3880370107E+001  +3.9062201530E-001 -1.2542366855E+002 
3012484.355 +1.0784218037E-001 +1.7125647997E+002  +1.0389241946E-002 -8.3507113087E+001  +1.3438890966E-002 -1.3932532991E+002  +3.0041297522E-001 -9.2296612662E+001 
3137629.537 +1.2388888491E-001 +1.6740018108E+002  +1.3787924175E-002 +5.0562826210E+000  +1.8195514343E-003 +1.5491827131E+002  +3.3196861875E-001 -9.3251200381E+001 
3262774.718 +1.3084952147E-001 +1.6241360254E+002  +1.4007040104E-002 -4.8157220807E+001  +6.0551622897E-003 +1.1036314559E+002  +5.3529000694E-001 -5.8446637071E+001 
3387919.900 +1.4361604090E-001 +1.5647291260E+002  +1.8462959233E-002 -2.7486397395E+001  +1.1094058125E-002 -1.1560251703E+002  +7.8532968077E-001 -1.0846697680E+002 
3513065.081 +1.3343737237E-001 +1.5739241759E+002  +1.4952095758E-002 -1.4890227255E+002  +3.6983502488E-002 -1.6802372822E+001  +1.1356186165E+000 +4.3901329772E+001 
3638210.263 +1.5343043149E-001 +1.3566534241E+002  +2.2866376100E-002 +1.4977763741E+002  +1.6589291184E-002 -2.1648951311E+000  +6.3005976265E-001 +1.4450741959E+002 
3763355.444 +1.6385956260E-001 +1.4513577869E+002  +7.7754294908E-002 +5.5099933623E+001  +2.7844652053E-002 +1.0803820437E+002  +1.5391599241E+000 +9.1648577144E+001 
3888500.626 +1.4406911081E-001 +1.5162623964E+002  +2.1721564092E-002 +1.1504848918E+002  +8.1004948284E-003 +1.7575420067E+001  +5.6694355426E-001 +1.3322583820E+002 
4013645.807 +1.8522037232E-001 +1.5179152314E+002  +7.9704304130E-003 +2.1832822737E+001  +1.6199279014E-002 +6.5584216768E+001  +8.4146117755E-001 +1.3546887534E+002 
4138790.989 +1.8661652995E-001 +1.3865238681E+002  +2.0151005586E-002 +9.1623682450E+001  +1.1718781907E-002 +1.0740781917E+001  +3.7575220042E-001 +1.2395371922E+002 
4263936.170 +2.0827510052E-001 +1.3283521451E+002  +1.6794875549E-002 +6.1766987103E+001  +1.3428882764E-002 +7.5284149100E+001  +4.8607206731E-001 +1.4790411731E+002 
4389081.352 +2.0722218507E-001 +1.3652379058E+002  +1.5420605552E-002 -1.6843770975E+002  +2.9883011660E-002 +2.0315024192E+001  +9.5351739410E-001 +1.3015792442E+002 
4514226.533 +2.6875275552E-001 +1.3777298533E+002  +4.2332734214E-003 +1.3627908155E+002  +1.9562268897E-002 +5.3064218604E+001  +5.4683972327E-001 +1.1667457400E+002 
4639371.715 +2.7680010455E-001 +1.3437593847E+002  +3.5611178340E-002 +1.2923562554E+002  +9.3646863648E-002 +9.4871045478E+001  +1.9797912385E+000 +1.2703460559E+002 
4764516.896 +3.6089534135E-001 +1.3065138115E+002  +6.4197758536E-002 +4.2787811257E+001  +5.3852309680E-002 +2.6144814396E+001  +1.3361315182E+000 +1.8778769650E+001 
4889662.078 +5.4588652372E-001 +1.3245488042E+002  +4.8522069152E-002 +1.2277211041E+002  +7.2909576729E-002 +7.3624775510E+001  +3.6115294876E+000 +8.1809116331E+001 
5014807.259 +3.3499018383E-001 +1.2520029077E+002  +2.3611067227E-001 +2.6281890498E+000  +1.8604485633E-001 -2.0344902305E+001  +9.7843624416E+000 -2.2207521230E+001 
5139952.441 +4.1210657242E-001 +1.2480019511E+002  +2.0521400445E-001 +8.3745128825E+001  +1.4524762982E-001 +4.9104738626E+001  +8.4853228747E+000 +1.6629812489E+001 
5265097.622 +4.2418505463E-001 +1.2959462122E+002  +4.2607083424E-002 +8.3739760170E+001  +8.4829844396E-002 +1.2479644709E+002  +3.6050769242E+000 +6.7813368405E+001 
5390242.804 +4.5401189428E-001 +1.2933129373E+002  +6.5017629660E-002 +1.0566580962E+002  +2.0873493017E-002 +5.5850480304E+001  +2.4855399869E+000 +6.4412142635E+001 
5515387.985 +4.3216487146E-001 +1.3048709133E+002  +4.3396685680E-002 +6.8001029321E+001  +1.5922333168E-002 +7.5208285562E+000  +1.7025399900E+000 +4.6356221602E+001 
5640533.166 +4.3695039687E-001 +1.2134041316E+002  +3.1266708206E-002 +1.1375902317E+002  +3.0312759612E-002 +5.7078990157E+001  +1.6162446625E+000 +9.2964510309E+001 
5765678.348 +4.7016364941E-001 +1.2617946714E+002  +2.7991023661E-002 +1.4489336182E+002  +3.0815251951E-002 +9.5933087948E+001  +1.9764128951E+000 +9.2748848463E+001 
5890823.529 +5.6546068187E-001 +1.2436379705E+002  +6.3564203101E-002 +6.3186694890E+001  +6.1711897943E-002 +2.9911023746E+001  +3.0682188952E+000 +4.1236490865E+001 
6015968.711 +6.6790382867E-001 +1.1116980084E+002  +4.3906967257E-002 +6.3477679266E+001  +9.2222829284E-002 +4.8679424550E+001  +3.3397359228E+000 +4.9678091919E+001 
6141113.892 +6.7791828684E-001 +1.0350846874E+002  +3.0918365224E-002 +7.0295960831E+001  +5.4918570982E-002 +4.3544470286E+001  +1.3243688098E+000 +5.2651620562E+001 
6266259.074 +9.0379466576E-001 +1.0208762834E+002  +3.1239082832E-002 +4.4303877978E+001  +3.6353584172E-002 +2.6133234840E+001  +1.4296926170E+000 +1.3349534344E+001 
6391404.255 +9.8853116163E-001 +1.0744641387E+002  +3.2948604852E-002 +7.5892301588E+001  +4.8844716931E-002 +3.5667675360E+001  +1.1054328594E+000 +2.8146989371E+001 
6516549.437 +1.5429883350E+000 +8.4114267942E+001  +4.7653206459E-002 +1.1014061795E+002  +6.0772823968E-002 +2.0573838637E+001  +1.7280300511E+000 +1.7373852350E+001 
6641694.618 +1.1548530828E+000 +7.2564593943E+001  +4.4691373636E-002 +4.9199401570E+001  +6.8966151297E-002 +1.7968058837E+001  +1.2674461424E+000 +1.3524446486E+000 
6766839.800 +1.6838169981E+000 +4.1301194095E+001  +4.7624562813E-002 +1.7388906736E+001  +6.4727679615E-002 +3.4250866463E+000  +1.4174348939E+000 -7.1006271816E+000 
6891984.981 +1.2963096720E+000 +2.1833258746E+001  +2.3406925537E-002 -3.7945765773E+001  +5.9185050500E-002 -7.9617463578E+000  +1.2340732333E+000 -8.2043270902E+000 
7017130.163 +2.3104465565E+000 +2.8452945555E+001  +5.7270518645E-002 +1.8051117298E+001  +5.1295177220E-002 +2.7472017201E+001  +1.3256531025E+000 -7.5891097152E+000 
7142275.344 +1.7132941011E+000 +1.1664100893E+001  +2.9367719755E-002 +3.1127401564E+001  +3.2708343125E-002 -2.7778430494E+000  +1.1908180683E+000 -1.6328152260E+001 
7267420.526 +1.4235039892E+000 -1.3787022253E+000  +3.3656254848E-002 -3.3636392606E+000  +3.2371358820E-002 +2.3532430025E+001  +1.1901824164E+000 -1.2192383654E+001 
7392565.707 +1.3946665364E+000 -2.6153111790E+000  +2.4421832256E-002 +2.5584229977E+001  +2.4175084667E-002 +3.2415316723E+001  +1.3016843823E+000 -4.4416663485E+000 
7517710.889 +1.2503995221E+000 +1.0142542134E-001  +1.3641136607E-002 +1.5308452413E+001  +2.6423408753E-002 +1.8688856747E+001  +1.1193479683E+000 -8.3384565437E+000 
7642856.070 +1.0072304902E+000 -5.6489036442E+000  +1.7668688966E-002 +4.9898580694E+000  +2.7736826741E-002 +9.7403019918E+000  +1.0852610378E+000 -2.6642293547E+000 
7768001.252 +9.2524756979E-001 +8.6140754467E-001  +9.9076465877E-003 -1.6852031251E+001  +2.0650266886E-002 +2.7887484702E+001  +1.0224394783E+000 -1.2311568194E+000 
7893146.433 +9.8989152731E-001 +4.3980743489E+000  +2.2091368491E-002 +7.9810727756E+000  +1.4797734382E-002 +2.9895984193E+001  +9.3620940663E-001 -4.9091752708E+000 
8018291.615 +8.1074137699E-001 -1.2785035640E+000  +1.4031765291E-002 +2.6005928187E+001  +2.3152940607E-002 +1.3774554085E+001  +7.4699754859E-001 +2.1861173293E-001 
8143436.796 +7.9473676568E-001 +4.2449410641E+000  +1.9081449432E-002 +2.6851430021E+001  +2.2379197822E-002 +1.0734890628E+001  +8.1294102809E-001 -2.4801806807E+000 
8268581.977 +7.1607438839E-001 +9.9853248965E+000  +1.7688601871E-002 +1.1985993253E+001  +1.4778614017E-002 +2.9237432185E+001  +7.4758250613E-001 +2.4703582410E+000 
8393727.159 +7.2728134311E-001 +1.2396019815E+001  +1.6119210611E-002 +1.5798000177E+001  +1.5496940463E-002 +1.4920899037E+001  +7.6325753170E-001 -2.0344234100E+000 
8518872.340 +6.5516514246E-001 +4.4588147280E+000  +1.5442862562E-002 +1.9183644521E+001  +1.4918379152E-002 +2.0184641581E+001  +7.0799015981E-001 -1.7817419812E+000 
8644017.522 +7.2118996688E-001 +3.5710094934E+000  +1.8968858715E-002 +6.1306353038E+000  +1.7163765449E-002 +3.6007533961E+001  +7.1376414142E-001 +6.7994466850E+000 
8769162.703 +6.0121010204E-001 +8.3278225006E+000  +1.6300695672E-002 +4.2198300518E+000  +1.7989356876E-002 +2.3244438608E+001  +6.8674823208E-001 +1.5249111674E+000 
8894307.885 +5.7104567908E-001 +3.8728950993E+000  +1.8573709348E-002 +1.6214687017E+001  +1.6330217140E-002 +1.7283545507E+001  +6.5147697934E-001 -9.2130646844E-001 
9019453.066 +5.7410507512E-001 +1.5068574622E+000  +1.5133249831E-002 +1.0836974517E+001  +1.4676748938E-002 +4.2248428966E+001  +5.8142724397E-001 -2.1549226154E+000 
9144598.248 +5.8068395734E-001 +1.7369134142E+000  +1.5043788883E-002 -1.7232367049E+000  +1.5205742783E-002 +2.3428641826E+001  +6.3578405862E-001 +2.9521146380E+000 
9269743.429 +5.3128902292E-001 +1.2554733917E+001  +1.3206006658E-002 +1.3784243081E+001  +1.0683256149E-002 +2.7681517660E+001  +5.3443113032E-001 -9.0136770445E-001 
9394888.611 +5.2263886479E-001 +9.6577391400E-003  +1.4408435484E-002 +4.1263998395E+000  +1.9078750990E-002 +2.8595316550E+001  +5.7241872586E-001 -5.0264923107E+000 
9520033.792 +5.7324807788E-001 +3.2574214103E+000  +1.6488095088E-002 +1.9065444250E+001  +1.3212473980E-002 +2.7898850249E+001  +5.8963857101E-001 -2.0440625364E+000 
9645178.974 +5.3242781189E-001 -3.7736492110E+000  +1.6822052303E-002 -3.9031921988E-001  +1.8147963293E-002 +2.2025693512E+001  +5.9457686495E-001 -2.5206115711E+000 
9770324.155 +4.9797097011E-001 +3.2438407645E+000  +1.8114644798E-002 +1.5775148176E+001  +1.5127125625E-002 +1.2757078043E+001  +6.1056972730E-001 -4.3522498244E+000 
9895469.337 +5.1087653090E-001 +6.2864884005E-001  +1.8354868812E-002 -1.0743041047E+000  +1.3136342729E-002 +2.3137591373E+001  +5.7114810597E-001 -2.9295928866E+000 
10020614.518 +5.0097840509E-001 +3.2622257943E+000  +1.5781760988E-002 +1.3980363289E+001  +1.9373882566E-002 +2.8739922584E+001  +5.2493338068E-001 -5.1983443153E+000 
10145759.700 +5.3447117531E-001 +3.4546169365E+000  +1.8561370708E-002 -4.8729110775E+000  +1.3369970857E-002 +2.7954412825E+001  +5.8000017694E-001 -3.6735889044E+000 
10270904.881 +5.0453058701E-001 +4.5385749948E+000  +1.7695155381E-002 +6.9034556915E+000  +1.5101854432E-002 +2.8550443192E+001  +5.8157466896E-001 -5.4018108119E+000 
10396050.063 +5.5519956657E-001 +2.6809422231E+000  +1.5894550649E-002 +1.0878524966E+001  +1.4280423836E-002 +2.8957936343E+001  +5.5206001536E-001 -2.1170967368E+000 
10521195.244 +5.4712401174E-001 +2.2025794499E+000  +1.5114899922E-002 +1.1826995679E+001  +1.8917257977E-002 +3.5759604141E+001  +5.9440983351E-001 +1.0385323744E+000 
10646340.426 +5.4678701319E-001 +4.9978243313E+000  +1.6564182618E-002 +6.0155734961E+000  +1.5779114775E-002 +2.5689053716E+001  +5.5166059206E-001 +1.6552285662E+000 
10771485.607 +5.4875494115E-001 +7.1139610297E+000  +1.8658344977E-002 +1.2520724858E+001  +1.5957934782E-002 +3.1763761063E+001  +5.6962493407E-001 +2.8220228033E+000 
10896630.788 +5.4273600306E-001 +5.3840754215E+000  +1.5691911199E-002 +7.9375356449E+000  +1.6184499459E-002 +3.0306190612E+001  +6.0116118397E-001 +3.9693698053E-001 
11021775.970 +5.6345501109E-001 +3.6645474154E+000  +1.7554620702E-002 +1.5986905820E+001  +1.9976883989E-002 +2.9579260070E+001  +5.9839151488E-001 +1.2451784569E+000 
11146921.151 +5.8117139434E-001 +7.2236335514E+000  +1.8215947945E-002 +1.0614924072E+001  +1.6585571499E-002 +2.7659817362E+001  +6.1709400950E-001 +1.0033744182E+000 
11272066.333 +5.9048512725E-001 +6.8680428248E+000  +1.8572560955E-002 +1.0821589356E+001  +1.8592532499E-002 +2.4443412275E+001  +5.6631231310E-001 -4.1481130261E-001 
11397211.514 +5.6797399753E-001 +1.9008191154E-001  +1.8827444146E-002 +1.7627044882E+001  +1.6226127102E-002 +2.8592427037E+001  +6.1831964517E-001 +1.1841035398E+000 
11522356.696 +5.9380856723E-001 +5.0576350479E+000  +1.8562533036E-002 +1.6438644636E+001  +1.7107902139E-002 +2.9587286506E+001  +6.4366317207E-001 +1.2674454810E+000 
11647501.877 +6.1559219485E-001 +4.0268638105E+000  +1.8480212900E-002 +1.6888001396E+001  +1.7469723161E-002 +2.9607233714E+001  +6.2352654809E-001 +2.2675786756E+000 
11772647.059 +6.3565485336E-001 +6.0899141134E+000  +1.7227114785E-002 +1.9694840744E+001  +1.8195623628E-002 +3.3082685029E+001  +6.5674946172E-001 +1.5023495972E+000 
11897792.240 +6.5579131668E-001 +7.8466380546E+000  +1.6222254360E-002 +2.1408182488E+001  +1.6714272707E-002 +2.6658459927E+001  +6.4837039275E-001 +2.0576724866E+000 
12022937.422 +6.4457957698E-001 +6.6938886548E+000  +1.7949287741E-002 +2.0197150708E+001  +1.6828754058E-002 +2.4419529395E+001  +6.3455741443E-001 +6.8498624795E-001 
12148082.603 +6.6984950915E-001 +7.3416883734E+000  +1.7102565066E-002 +1.5485008206E+001  +1.6978093138E-002 +2.9113640144E+001  +6.7358484391E-001 -4.6888910594E-001 
12273227.785 +6.7687160943E-001 +2.8598508988E+000  +1.9462248148E-002 +2.2209297756E+001  +1.9359292240E-002 +2.3517781761E+001  +7.0076670502E-001 +6.3162088080E-001 
12398372.966 +7.0592709567E-001 +3.8274260753E+000  +1.9303903959E-002 +1.4064440395E+001  +1.8785065016E-002 +3.0701807380E+001  +7.2333661665E-001 +6.4235442207E-001 
12523518.148 +6.8565084457E-001 +2.7962192501E+000  +1.8076057121E-002 +1.8274304113E+001  +1.7379042352E-002 +2.3448135579E+001  +7.1118807486E-001 -1.4815856631E+000 
12648663.329 +7.2442107947E-001 +2.1068559741E+000  +1.9780182707E-002 +1.6573601755E+001  +1.8794694619E-002 +2.0318813923E+001  +7.3267650852E-001 -1.1388243744E+000 
12773808.511 +7.3328007931E-001 +1.6592442810E+000  +1.9263547245E-002 +1.8147338253E+001  +2.0332947362E-002 +2.6434165971E+001  +7.4225950857E-001 -1.8500263973E+000 
12898953.692 +7.4767599952E-001 +4.7975684005E-001  +1.9276671881E-002 +2.0386915325E+001  +1.8380333555E-002 +2.0171205995E+001  +7.7350955289E-001 +8.8207532959E-001 
13024098.874 +7.5063017787E-001 +1.1129122483E+000  +1.9618521145E-002 +1.5754064977E+001  +2.0235994020E-002 +2.7758594025E+001  +7.8662474387E-001 -1.3500086422E+000 
13149244.055 +7.9014006974E-001 +4.7711878721E-001  +1.9880342219E-002 +1.9279476573E+001  +1.8807478310E-002 +1.8922686240E+001  +8.0384100587E-001 -1.1952100351E+000 
13274389.237 +7.9942193105E-001 -3.7116073375E-001  +1.9312696598E-002 +1.8037750851E+001  +1.9296401502E-002 +2.1911364254E+001  +8.1809545599E-001 -1.2736780123E+000 
13399534.418 +8.1408264455E-001 -1.2300581502E+000  +2.0008182746E-002 +2.2041241522E+001  +1.9754795842E-002 +2.8417692114E+001  +8.0953382628E-001 -2.7917102594E+000 
13524679.599 +8.4037683175E-001 -7.7103849938E-001  +2.0697666235E-002 +2.1957453308E+001  +2.1555006325E-002 +2.5579329670E+001  +8.5337536563E-001 -2.8872002836E+000 
13649824.781 +8.5102685769E-001 -2.7806785308E+000  +2.0487961765E-002 +2.1028294842E+001  +1.9636436763E-002 +2.9778137032E+001  +8.4661026561E-001 -3.4938106222E+000 
13774969.962 +8.7030406872E-001 -1.5815574936E+000  +2.2213619437E-002 +2.3695244690E+001  +2.1575406209E-002 +2.3255509213E+001  +8.8487555527E-001 -2.0310217297E+000 
13900115.144 +8.7065278003E-001 -4.0909343359E+000  +2.1216120449E-002 +2.0759132355E+001  +2.0357154057E-002 +2.2765145152E+001  +8.8809557026E-001 -4.1347833341E+000 
14025260.325 +8.7734943832E-001 -3.3147378473E+000  +2.1158005125E-002 +2.0718481103E+001  +2.0603735542E-002 +2.3161393447E+001  +9.0965635054E-001 -4.7046507201E+000 
14150405.507 +9.1543141150E-001 -5.1319900818E+000  +2.1187624859E-002 +2.5542475379E+001  +2.0677921239E-002 +2.3823175008E+001  +9.4350755335E-001 -5.0284197749E+000 
14275550.688 +9.4773551128E-001 -3.4096475784E+000  +2.2959349845E-002 +2.1777817009E+001  +2.2031625563E-002 +2.2379524305E+001  +9.6326282673E-001 -3.7326595796E+000 
14400695.870 +9.6309023082E-001 -4.7937048752E+000  +2.3437281581E-002 +1.9330295474E+001  +2.1930974540E-002 +2.1595524428E+001  +9.8153384918E-001 -4.9935266119E+000 
