!  2-Port S-parameters saved by WinCal
! VAR MeasName=S-Parameters (CALIBRATED_DATA) read from VNA (P5004A)
! VAR MeasDate=27/08/2024 15:06:55
! VAR NAME=S2_r3c8_SET2_9k-100M_3
! VAR FILENAME=S2_r3c8_SET2_9k-100M_3.S2P
! VAR DATE=27/08/2024 15:06:55
! VAR PHYS_PORTS=1,2
! VAR ObjTypeName=DATASET
! VAR IndexType=Frequency
!
# Hz S MA R 50
9000.000 +9.6056905494E-002 -1.4917400280E+002  +4.1694717000E-003 +4.8124664188E+001  +1.0099768411E-002 +6.2812592489E+001  +2.2528940596E-001 -1.2998509144E+002 
134145.181 +1.1041142779E-001 +1.6921468597E+002  +2.8329114988E-004 +1.1949381692E+002  +3.2024952133E-004 +8.6944539399E+001  +2.3778814950E-001 -1.7032977375E+002 
259290.363 +1.1082965157E-001 +1.6983828964E+002  +6.3896866112E-004 -1.2807861039E+002  +9.4030739403E-004 -1.5130773856E+001  +2.3849834125E-001 -1.6888085991E+002 
384435.544 +1.1353353987E-001 +1.6957095610E+002  +5.2848689627E-004 -1.3859026524E+002  +6.6930032464E-004 +1.4385651730E+002  +2.4737138550E-001 -1.6959421360E+002 
509580.726 +1.1169406507E-001 +1.7101627193E+002  +2.5140732613E-004 -1.7841503374E+002  +1.5430082958E-003 +5.3004720486E+001  +2.5174039588E-001 -1.6707912382E+002 
634725.907 +1.1699690099E-001 +1.7192902479E+002  +4.6456892131E-004 -1.4730788245E+002  +9.6303528251E-004 +6.0979543094E+001  +2.3756218621E-001 -1.6617344928E+002 
759871.089 +1.1408886497E-001 +1.7196406381E+002  +5.7328186199E-004 -1.4547375118E+002  +7.6804110706E-004 +1.5495759443E+002  +2.4621856544E-001 -1.6493667468E+002 
885016.270 +1.1741028348E-001 +1.6952346367E+002  +5.9271397890E-004 -1.4416225772E+002  +1.2355475120E-003 +1.5864914349E+001  +2.3339639149E-001 -1.6661752927E+002 
1010161.452 +1.1418059578E-001 +1.7140880495E+002  +2.6172616263E-003 +1.5584323661E+002  +2.4746952599E-003 +1.2319444043E+002  +1.7104673298E-001 -1.4720497116E+002 
1135306.633 +1.1726326540E-001 +1.7074263441E+002  +7.7187365524E-004 -2.5919039272E+001  +6.1166343674E-004 +1.7545090896E+002  +2.0214716176E-001 -1.5480627089E+002 
1260451.815 +1.1720512105E-001 +1.7160907849E+002  +1.3685859671E-003 -9.8965579623E+001  +8.6047949797E-004 -1.7632694771E+002  +2.5326285943E-001 -1.5579122496E+002 
1385596.996 +1.2544773311E-001 +1.7314273731E+002  +7.8102802155E-004 -1.0283911116E+002  +2.3564350421E-004 +1.6327606337E+002  +2.6169284561E-001 -1.5927854680E+002 
1510742.178 +1.2761039726E-001 +1.7319961057E+002  +2.8134278891E-003 -1.4396802530E+002  +2.3071390566E-003 +9.4689570625E+001  +2.4122873430E-001 -1.5157170723E+002 
1635887.359 +1.2726281783E-001 +1.6877790454E+002  +2.7165291747E-003 -7.9432088789E+001  +5.1152340715E-004 -1.0415772810E+002  +2.1841124975E-001 -1.5319656993E+002 
1761032.541 +1.2824568778E-001 +1.6863353397E+002  +1.0925981746E-003 -1.7557430002E+002  +2.1979067726E-003 -8.1173008933E+001  +1.9911228092E-001 -1.6036310306E+002 
1886177.722 +1.2927359805E-001 +1.6682922548E+002  +2.0693031758E-003 +1.0710190580E+002  +1.4167262653E-003 -5.0005679077E+001  +2.0645729294E-001 -1.6327424196E+002 
2011322.904 +1.2855089454E-001 +1.6743000273E+002  +1.4593387940E-003 +1.1237327591E+002  +1.2370087517E-003 -8.4294973698E+001  +1.7105807231E-001 -1.7694409755E+002 
2136468.085 +1.2895958034E-001 +1.6506434560E+002  +2.1775729242E-003 +6.1457905684E+001  +1.9915745691E-003 -9.2167800328E+001  +1.7130823550E-001 +1.7953532365E+002 
2261613.267 +1.3590395242E-001 +1.6235544944E+002  +3.7150349129E-004 +1.0371598702E+002  +4.9893765776E-003 -6.1710923647E+001  +2.1129898143E-001 +1.6586607615E+002 
2386758.448 +1.3096576413E-001 +1.6372159590E+002  +6.0169697711E-003 +9.8161838758E+001  +3.8875444723E-003 +5.0048825418E-002  +2.2504876711E-001 +1.7614695083E+002 
2511903.630 +1.2266670093E-001 +1.6849156657E+002  +5.1000885065E-003 +4.6745773045E+001  +1.5841071060E-002 -8.0800538753E+001  +1.3962777477E-001 +1.2954745021E+002 
2637048.811 +1.1646656774E-001 +1.4761284723E+002  +7.4822039352E-003 +1.3904074271E+002  +5.5979120702E-003 -3.3261429093E+001  +1.9345847317E-001 +1.5390536750E+002 
2762193.992 +1.0840925311E-001 +1.6205668660E+002  +6.3214739917E-002 -1.2273290824E+002  +4.1452450295E-002 -1.4475695401E+002  +8.1484035506E-001 -1.1013018944E+002 
2887339.174 +1.1000640008E-001 +1.6959746396E+002  +3.2631387193E-002 -9.7412102857E+001  +3.1893433986E-002 +1.2225459244E+002  +9.6546335371E-001 -1.2094684597E+002 
3012484.355 +8.4945846898E-002 +1.7502819322E+002  +3.0880329268E-002 -7.1259610051E+001  +2.1232788383E-002 +1.7808560289E+002  +3.1273324543E-001 -9.8251535271E+001 
3137629.537 +1.2561707056E-001 +1.6553424506E+002  +3.8892122006E-002 -9.7369770443E+000  +5.0643440108E-002 -1.1785467354E+002  +8.8998577039E-001 -3.7757065295E+001 
3262774.718 +1.2866911258E-001 +1.6916527214E+002  +2.2282916280E-002 -3.2114873021E+001  +3.2814370312E-002 -1.0532460752E+002  +1.7865960427E-001 -4.4952368164E+001 
3387919.900 +1.3476976519E-001 +1.6718278340E+002  +1.9642681492E-002 +2.5345396521E+001  +1.9503325970E-002 -6.1441048671E+001  +4.1247952092E-002 +1.6414123224E+002 
3513065.081 +1.0452176668E-001 +1.2831191866E+002  +6.7118261906E-002 +4.5886585234E+001  +5.9731255938E-002 -7.7044029593E+001  +5.4197698341E-001 -3.4710233988E+001 
3638210.263 +1.8393505597E-001 +1.4530110143E+002  +2.3191065295E-002 +1.0837442028E+002  +1.4249672440E-002 +2.8922192396E+001  +3.2298211139E-001 +6.7105386257E+001 
3763355.444 +1.5140156237E-001 +1.5364706608E+002  +5.2541181916E-002 +1.5378829119E+002  +5.0338639704E-002 +2.9440887046E+001  +1.5246293799E+000 +1.2644661301E+002 
3888500.626 +1.7919868281E-001 +1.4972789282E+002  +2.4832602798E-002 +4.6408261838E+001  +2.8758152589E-002 -1.3674273687E+001  +2.4194547450E-001 +9.0156983506E+001 
4013645.807 +1.6556010092E-001 +1.5397221074E+002  +1.4184860316E-002 +5.7549722107E+001  +2.0879427288E-002 -1.5402897494E+001  +3.8443800412E-001 +8.2207278082E+001 
4138790.989 +1.8531147294E-001 +1.4978350741E+002  +1.8145469677E-002 +6.5705867297E+001  +2.7337838578E-002 -3.2974459538E+000  +3.8656210871E-001 +8.1824788996E+001 
4263936.170 +2.0834151038E-001 +1.4454633590E+002  +1.8939998194E-002 +7.6296335396E+001  +7.7495665042E-003 -3.2734766837E+001  +7.4979151002E-002 +8.0655910772E+001 
4389081.352 +1.8109588089E-001 +1.2048722362E+002  +2.9020861697E-002 +8.5355646257E+001  +1.0059540077E-002 -1.7313988635E+001  +2.8973032223E-001 +1.4290731170E+002 
4514226.533 +2.0806896006E-001 +1.3116767510E+002  +5.0229208412E-002 +7.8880420618E+001  +6.0480291345E-002 +3.0734652568E+001  +8.3207120528E-001 +9.6023234849E+001 
4639371.715 +2.5747486371E-001 +1.2974833181E+002  +1.4934399557E-001 +1.3913251626E+002  +2.1725054215E-001 +9.9139559011E+001  +3.9484248464E+000 +1.2649732649E+002 
4764516.896 +3.0281350157E-001 +1.1966639291E+002  +1.7815523818E-001 -1.6846518513E+002  +1.1243348290E-001 +1.4485544196E+002  +2.7885277259E+000 +1.6319892043E+002 
4889662.078 +3.2953403628E-001 +1.2015219355E+002  +2.1797457700E-001 -6.1532492306E+001  +2.0539938373E-001 -1.1514128366E+002  +3.8250570337E+000 -1.0906592455E+002 
5014807.259 +3.7383131269E-001 +1.3430317221E+002  +1.6230684610E-001 +1.5721378607E+002  +2.7258258355E-001 +1.3228731784E+002  +5.2626142940E+000 +1.2637892922E+002 
5139952.441 +3.5715589876E-001 +1.3753283195E+002  +1.9957671741E-001 -1.7840446253E+002  +1.7159563242E-001 +1.3972457459E+002  +6.4214801220E+000 +1.4954337775E+002 
5265097.622 +3.7940707722E-001 +1.4067513399E+002  +8.5973312349E-002 +1.0646455534E+002  +8.1122672123E-002 +6.3450563264E+001  +1.5485360611E+000 +7.6433811782E+001 
5390242.804 +3.5240563031E-001 +1.3667906281E+002  +6.7898458827E-002 +1.0029515977E+002  +5.5754318094E-002 +4.9529629315E+001  +1.4595777568E+000 +9.4152679920E+001 
5515387.985 +4.7973037787E-001 +1.2364948188E+002  +1.0638987070E-001 +9.8787060221E+001  +6.9004937190E-002 +7.3308934627E+001  +1.3741649016E+000 +9.0796092019E+001 
5640533.166 +4.0873696077E-001 +1.2204548914E+002  +1.2599627175E-001 +1.0721077478E+002  +1.3277850197E-001 +9.1374642256E+001  +2.9832872283E+000 +1.0865816030E+002 
5765678.348 +4.9664974628E-001 +1.2762215981E+002  +9.8101578870E-002 +8.4750207728E+001  +9.1837232700E-002 +5.2721643654E+001  +2.0375755098E+000 +5.7526894918E+001 
5890823.529 +5.5640948271E-001 +1.2249814821E+002  +8.4684389783E-002 +9.3001106030E+001  +9.2680492106E-002 +6.0805170390E+001  +1.4906402961E+000 +6.8040827102E+001 
6015968.711 +5.2416910752E-001 +1.1567137865E+002  +8.5315096908E-002 +7.2259105301E+001  +7.7275249506E-002 +4.6570909702E+001  +1.2284189986E+000 +7.1899165304E+001 
6141113.892 +6.6662944349E-001 +1.1048845724E+002  +8.7669073282E-002 +7.4712441387E+001  +1.0375893855E-001 +3.6191908178E+001  +1.6573462665E+000 +4.6209703723E+001 
6266259.074 +6.5946105917E-001 +9.8536535033E+001  +1.0767806673E-001 +4.9768141984E+001  +1.2051725425E-001 +1.8908811465E+001  +1.5329821418E+000 +3.5607778451E+001 
6391404.255 +9.7304028370E-001 +1.0315148302E+002  +1.0869733248E-001 +6.3048385755E+001  +9.2448039386E-002 +4.6208055803E+001  +1.5874343020E+000 +2.8556591615E+001 
6516549.437 +1.2848091285E+000 +9.3167172631E+001  +1.2377919957E-001 +5.3621794970E+001  +1.3939620960E-001 +4.6990121915E+001  +1.4879384669E+000 +2.1152809314E+001 
6641694.618 +1.7572738757E+000 +7.0809655681E+001  +1.6837176449E-001 +2.6697898578E+001  +1.6026502754E-001 +2.2760791226E+001  +1.4766535490E+000 +5.1210441499E-001 
6766839.800 +2.7071354248E+000 +5.8257730306E+001  +2.1036887082E-001 +4.0844212368E+001  +1.7263609888E-001 +1.4943932693E+001  +1.2306029558E+000 +3.1269555136E+000 
6891984.981 +1.6738320336E+000 +1.9116090570E+001  +1.3396321878E-001 +1.1878798808E+001  +1.3833905345E-001 -2.4333235997E-001  +1.3023438888E+000 -7.1514496046E+000 
7017130.163 +1.5099324204E+000 +2.3724871251E+001  +9.0936042707E-002 +3.1610977215E+000  +1.0523002573E-001 -2.2610085547E-001  +1.1676288290E+000 -9.1173497941E+000 
7142275.344 +1.4981096576E+000 +1.1351584801E+001  +8.4819259435E-002 -1.6880195401E+000  +7.7194369245E-002 -4.8164859423E+000  +1.2256281903E+000 -1.7858455796E+001 
7267420.526 +1.4675667458E+000 -2.7669056007E+000  +7.6378167769E-002 +8.9695921643E-001  +8.2074381069E-002 +2.6987849186E+000  +1.1820323417E+000 -1.1662599868E+001 
7392565.707 +1.3265146895E+000 +2.0188105387E+000  +6.7126724296E-002 +7.0198668277E+000  +5.7991880823E-002 +6.1496852824E+000  +1.4053454461E+000 -8.7187676891E+000 
7517710.889 +1.0629708850E+000 +4.6383641895E+000  +4.7961253654E-002 +1.5447526708E+001  +5.1682880463E-002 +7.6533737628E+000  +1.1045071645E+000 -4.2447261694E+000 
7642856.070 +1.0398200867E+000 -7.8098099730E+000  +5.5572662477E-002 -3.0959149176E+000  +5.3643149110E-002 -1.6839525321E-001  +1.0352140544E+000 -2.7645769543E+000 
7768001.252 +9.2984429271E-001 +6.6495162442E+000  +4.6767877352E-002 +8.7663973630E+000  +5.0879149737E-002 -4.6065564605E+000  +9.6146942272E-001 -5.0951020654E+000 
7893146.433 +8.4830915387E-001 +1.1472335441E+000  +4.9132149265E-002 -1.5114865993E-001  +4.8060113117E-002 +1.9972122630E+001  +8.6489786925E-001 +1.9996262801E-001 
8018291.615 +8.4018956574E-001 +8.0616545815E+000  +5.4130626825E-002 +3.2223773184E+000  +4.6493877225E-002 +5.0975843284E+000  +8.0621796356E-001 -2.1519219995E+000 
8143436.796 +7.2489908606E-001 +7.6589326589E+000  +4.4771021271E-002 +4.1132817210E+000  +4.3648865446E-002 +9.2097199360E+000  +7.4695647490E-001 -5.0261423894E+000 
8268581.977 +6.8309224083E-001 +4.0668233801E+000  +4.7326504648E-002 -1.0672431509E+000  +4.1233352244E-002 +5.5926332527E+000  +7.3641551338E-001 +2.4965859108E+000 
8393727.159 +7.2259278465E-001 +7.5024063244E+000  +4.2171280479E-002 +2.8497128660E+000  +4.3893306564E-002 +1.0545675033E+001  +5.9533338066E-001 +4.0875583306E+000 
8518872.340 +6.0656666022E-001 +5.1023289328E+000  +4.6431894996E-002 +4.4484778873E+000  +4.1833841595E-002 +7.7211247646E+000  +7.4795818692E-001 -7.3125734948E+000 
8644017.522 +6.3104441368E-001 +1.0182800626E+001  +4.2606930474E-002 +1.7495719138E+000  +4.5845946474E-002 +1.2095357333E+001  +6.9445504815E-001 +1.0147792296E+000 
8769162.703 +6.1211618636E-001 +8.8033397826E+000  +3.9541612387E-002 +4.1552908002E+000  +4.2279636230E-002 +1.2529830712E+001  +5.7241822244E-001 -2.3256449361E+000 
8894307.885 +5.4737273280E-001 +9.5516826857E+000  +4.2587317417E-002 +4.3099195793E+000  +4.1320528921E-002 +1.1897944217E+001  +5.9356012359E-001 -1.4046437950E+000 
9019453.066 +5.5589785224E-001 +6.0730950649E+000  +4.4199507967E-002 +2.9736700329E+000  +4.6426194608E-002 +1.8032593195E+001  +5.9114118635E-001 -4.6539441003E+000 
9144598.248 +6.0803852260E-001 +6.0885145271E+000  +3.9435289443E-002 -6.8968116537E-001  +4.3627161001E-002 +1.7566073306E+001  +5.4837978719E-001 +8.9448126521E-001 
9269743.429 +5.2148194364E-001 +5.8227310266E+000  +4.2974866422E-002 -1.3025394951E+000  +4.1293416308E-002 +2.2822531765E+001  +5.5513532715E-001 +1.2589643404E+000 
9394888.611 +4.9074714654E-001 +4.3554456594E-002  +4.3359897213E-002 +3.5399344719E+000  +4.1642163770E-002 +1.2932744112E+001  +5.8024262449E-001 -8.6001115394E+000 
9520033.792 +5.2669162546E-001 -2.8920262668E+000  +4.6095247982E-002 -2.4427623200E+000  +4.2330576344E-002 +1.7810661179E+001  +5.1794942514E-001 -1.7263941588E+000 
9645178.974 +5.3035351646E-001 +3.3291077461E-002  +4.3607491998E-002 -3.1658759160E+000  +4.3777963056E-002 +1.5789719390E+001  +5.6908566271E-001 -6.8773626849E+000 
9770324.155 +5.3183130736E-001 +1.3958457759E+000  +4.1922959878E-002 -2.6332679904E-001  +4.1955022945E-002 +1.6422704895E+001  +5.2226160351E-001 -3.1922072560E+000 
9895469.337 +4.7037438611E-001 -3.2885026945E+000  +4.4704482259E-002 +1.2394958465E-001  +4.5741408536E-002 +1.3743208394E+001  +4.9324093980E-001 -5.0339350112E+000 
10020614.518 +4.8324278121E-001 +4.7361493331E+000  +4.2761255824E-002 +1.7209035269E+000  +4.0414218234E-002 +1.5883962886E+001  +5.1234844724E-001 -2.5353988058E+000 
10145759.700 +5.1731038497E-001 +5.1163389298E+000  +4.4708416562E-002 -2.1714188679E-001  +4.4143772145E-002 +1.6577956287E+001  +5.3766752927E-001 -4.8698495875E+000 
10270904.881 +5.0827154142E-001 +2.5209017878E+000  +4.6369480538E-002 +1.6019733673E-001  +4.3448519052E-002 +2.0091218181E+001  +5.3460456026E-001 -3.1245110985E+000 
10396050.063 +5.0802018003E-001 +5.5082234277E+000  +4.3958262020E-002 +1.6530402364E-001  +4.0363531362E-002 +1.5267551073E+001  +5.3893047357E-001 -4.9263424361E+000 
10521195.244 +5.2537332134E-001 +2.2745668870E+000  +4.5651479352E-002 +2.1260582006E+000  +4.4144792356E-002 +1.7687936982E+001  +5.4620863355E-001 -1.4275511986E+000 
10646340.426 +5.1795069631E-001 +8.4303549946E+000  +4.3486460894E-002 +4.4807587952E-001  +4.5164259054E-002 +1.5865480233E+001  +5.4272432599E-001 -2.4661468815E+000 
10771485.607 +5.1393871432E-001 +5.4693210660E+000  +4.3480990992E-002 +3.8647588761E+000  +4.4141305626E-002 +1.6764468210E+001  +5.6695602738E-001 -4.3626367995E-001 
10896630.788 +5.5975761647E-001 +7.9417559559E+000  +4.5974626757E-002 +4.5083968203E+000  +4.4989519041E-002 +1.9423759855E+001  +5.8063539898E-001 +4.3866661519E-001 
11021775.970 +5.5019799151E-001 +6.5754332351E+000  +4.3983932856E-002 +5.7303564232E+000  +4.6092065913E-002 +1.9880957686E+001  +5.7893111170E-001 -1.3555759803E+000 
11146921.151 +5.3936180957E-001 +6.5366653638E+000  +4.4529642137E-002 +4.6631392169E+000  +4.6067501324E-002 +1.4838182178E+001  +5.5730673952E-001 +1.1100308891E-001 
11272066.333 +5.6476452749E-001 +4.6087208528E+000  +4.7194742649E-002 +3.8618448491E+000  +4.5761057515E-002 +1.8817977935E+001  +5.9594519234E-001 +2.1774373823E+000 
11397211.514 +5.7869214272E-001 +9.0686667892E+000  +4.6215371655E-002 +5.8793564128E+000  +4.5116343078E-002 +1.5969888949E+001  +5.6053701635E-001 -7.0583869312E-001 
11522356.696 +5.8526395047E-001 +5.9127669646E+000  +4.7271648668E-002 +7.0241079506E+000  +4.7126527376E-002 +2.0694964338E+001  +6.1434768003E-001 +1.7515333533E+000 
11647501.877 +5.9928443946E-001 +5.0919210121E+000  +4.7577936032E-002 +6.4259978689E+000  +4.4885498793E-002 +1.6014070887E+001  +6.0719208078E-001 -1.0841688912E+000 
11772647.059 +5.9072438720E-001 +4.3769806438E+000  +4.8146615230E-002 +7.5082755524E+000  +4.6402820145E-002 +1.8389468385E+001  +6.2688756495E-001 +6.1409269995E-001 
11897792.240 +6.0530975112E-001 +3.7397140052E+000  +4.7932052817E-002 +6.0101106536E+000  +4.8754250713E-002 +1.5532891239E+001  +6.1672254377E-001 +2.0474019008E+000 
12022937.422 +5.9301244798E-001 +6.0417668809E+000  +4.8940667428E-002 +6.4154740370E+000  +4.7734615816E-002 +1.9883987084E+001  +6.3393987067E-001 +5.4215460107E-001 
12148082.603 +6.3276079156E-001 +4.7365529214E+000  +4.7729697032E-002 +9.4235429724E+000  +4.8925731437E-002 +1.6436042906E+001  +6.5118038342E-001 +1.6435398109E-001 
12273227.785 +6.3734142258E-001 +6.6618058475E+000  +5.0750176117E-002 +7.5171469047E+000  +4.9595142249E-002 +1.7062371118E+001  +6.5894626575E-001 -9.4944460826E-001 
12398372.966 +6.5402047894E-001 +2.6637125149E+000  +5.1027121915E-002 +8.0237906072E+000  +4.8297366602E-002 +1.8703464494E+001  +6.9705367767E-001 -2.4292655661E-001 
12523518.148 +6.7674530278E-001 +3.0591030920E+000  +4.9954694175E-002 +8.4651280247E+000  +5.1755413748E-002 +1.5337694504E+001  +6.8788595231E-001 +3.9424384243E-001 
12648663.329 +6.9260396609E-001 +1.7760728975E+000  +5.0567552792E-002 +1.0133577639E+001  +5.0214725179E-002 +1.5876305766E+001  +7.2683976645E-001 -6.0006072191E-001 
12773808.511 +7.1044977478E-001 +2.9878743087E+000  +5.1251294436E-002 +9.6424793300E+000  +5.2168203784E-002 +1.4966114359E+001  +6.9878996258E-001 +6.4858569602E-001 
12898953.692 +7.1793383457E-001 +1.8132130887E+000  +5.2905151237E-002 +1.1202591534E+001  +5.2686729856E-002 +1.3846473352E+001  +6.9709417192E-001 -1.5893800162E+000 
13024098.874 +7.2398072522E-001 +8.8776558707E-001  +5.1291771668E-002 +8.0809149651E+000  +5.2125967552E-002 +1.4062928753E+001  +7.2122552081E-001 -3.8929453949E+000 
13149244.055 +7.4589533713E-001 +1.8869969312E+000  +5.4199405174E-002 +1.0146070000E+001  +5.2636763236E-002 +1.3273294766E+001  +7.6545442733E-001 -2.7348024903E+000 
13274389.237 +7.5164613083E-001 -1.8142574946E+000  +5.3421018130E-002 +8.8143846542E+000  +5.2985494748E-002 +1.1564595858E+001  +7.9350971859E-001 -1.5788127717E+000 
13399534.418 +7.7137310616E-001 -1.4533549364E+000  +5.6073672116E-002 +8.1653641921E+000  +5.4402538450E-002 +1.1688251705E+001  +7.6649047350E-001 -3.6326911373E+000 
13524679.599 +8.0497269744E-001 -1.9735450162E+000  +5.5665162340E-002 +7.6564546190E+000  +5.4442241703E-002 +1.2772984959E+001  +8.0048422822E-001 -2.3921935163E+000 
13649824.781 +8.1842381093E-001 -1.7431341233E+000  +5.5730199370E-002 +9.6337176267E+000  +5.5560365691E-002 +1.2929240661E+001  +8.2853432074E-001 -3.8303278119E+000 
13774969.962 +8.3819500379E-001 -2.1272987089E+000  +5.5887418408E-002 +8.6676986860E+000  +5.5329796753E-002 +1.1020710545E+001  +8.5909054051E-001 -2.8892523393E+000 
13900115.144 +8.4177474690E-001 -1.4001661505E+000  +5.6057142120E-002 +1.0615540754E+001  +5.5657260133E-002 +1.1600942698E+001  +8.6175231431E-001 -1.8813874571E+000 
14025260.325 +8.5879462743E-001 -3.5179193007E+000  +5.6677734327E-002 +1.0554876405E+001  +5.6609524638E-002 +1.2406081157E+001  +8.8849194033E-001 -4.7180102019E+000 
14150405.507 +8.7214145654E-001 -4.7565999510E+000  +5.7897411521E-002 +1.0424732588E+001  +5.6498484641E-002 +1.0552466661E+001  +8.8785658867E-001 -4.3796609298E+000 
14275550.688 +9.0439691890E-001 -5.4606894835E+000  +5.7841427369E-002 +8.0823384603E+000  +5.6237497540E-002 +9.8984021665E+000  +8.9385795406E-001 -4.3090591291E+000 
14400695.870 +9.1961320913E-001 -4.4967981390E+000  +5.6826956916E-002 +8.8015580675E+000  +5.5728797805E-002 +8.1340241649E+000  +9.2851133658E-001 -4.7201571589E+000 
