!  2-Port S-parameters saved by WinCal
! VAR MeasName=S-Parameters (CALIBRATED_DATA) read from VNA (P5004A)
! VAR MeasDate=28/08/2024 11:57:34
! VAR NAME=S2_r6c9_SET4_9k-100M_2
! VAR FILENAME=S2_r6c9_SET4_9k-100M_2.S2P
! VAR DATE=28/08/2024 11:57:34
! VAR PHYS_PORTS=1,2
! VAR ObjTypeName=DATASET
! VAR IndexType=Frequency
!
# Hz S MA R 50
9000.000 +9.3645915056E-002 -1.6612404163E+002  +5.1727390543E-003 -8.1424343798E+001  +2.5439165831E-002 +6.4538567344E+001  +2.4363418182E-001 -1.3529782409E+002 
134145.181 +1.1078606438E-001 +1.6990490973E+002  +3.8288451460E-004 +1.1418040695E+002  +9.7959025055E-005 +1.3008575333E+002  +2.4150199835E-001 -1.7125702951E+002 
259290.363 +1.1236171235E-001 +1.6993080501E+002  +4.8386254454E-004 +1.3600329906E+002  +3.4598852969E-004 +7.2050327378E+001  +2.4250010614E-001 -1.6900594036E+002 
384435.544 +1.1358778424E-001 +1.7049588977E+002  +9.2278574574E-005 +4.3899742548E+001  +3.7476201057E-004 -4.7236578656E+001  +2.4277921718E-001 -1.6850308799E+002 
509580.726 +1.1220235503E-001 +1.7033089595E+002  +6.0681966921E-004 -8.9018195856E+001  +1.1471011467E-003 -7.3001239231E+001  +2.3859680505E-001 -1.6019691833E+002 
634725.907 +1.1609285549E-001 +1.7062878293E+002  +1.0942055251E-003 -1.3541898664E+002  +6.0673817624E-004 +7.8924776278E+001  +2.5077783863E-001 -1.6581142716E+002 
759871.089 +1.1978752520E-001 +1.7123430924E+002  +1.1143479019E-003 -7.3225318588E+001  +1.1451032828E-003 +1.2986926404E+002  +2.5497035154E-001 -1.6563608479E+002 
885016.270 +1.1970432459E-001 +1.6917679437E+002  +3.7427993062E-004 +1.0573477434E+002  +9.7912531749E-004 +1.3335682075E+001  +2.4864165349E-001 -1.6529549866E+002 
1010161.452 +1.1684457118E-001 +1.7039351444E+002  +3.6234893079E-004 -7.2554248763E+001  +5.3492189009E-004 -3.9729046122E+001  +2.1526345168E-001 -1.6954384357E+002 
1135306.633 +1.1793001140E-001 +1.6889191983E+002  +5.0657470804E-004 -3.1172629359E+001  +1.0379667509E-003 -6.4108181284E+001  +1.9822753698E-001 -1.6670640332E+002 
1260451.815 +1.1944798637E-001 +1.6994547051E+002  +2.8470339206E-004 +3.4496211874E+001  +9.8126086011E-004 +1.3142737175E+002  +2.1272679883E-001 -1.6365217773E+002 
1385596.996 +1.2520108121E-001 +1.7182047999E+002  +8.2249594071E-004 +6.6241621862E+001  +6.7992851798E-004 +4.8059422460E+001  +2.9206448358E-001 -1.5789524240E+002 
1510742.178 +1.2739121394E-001 +1.7184344587E+002  +1.3279514808E-003 -1.3745200344E+002  +2.5517415236E-003 +9.5545052976E+001  +2.4747960563E-001 -1.5691405024E+002 
1635887.359 +1.2599058977E-001 +1.6923727478E+002  +1.3599350626E-003 -1.2060400763E+002  +5.1022209730E-004 +1.0106479856E+002  +2.6025114511E-001 -1.5741178378E+002 
1761032.541 +1.2971147731E-001 +1.7108911300E+002  +3.4872670568E-003 -1.2589008773E+001  +1.9099055101E-003 -9.6223668924E+001  +2.2831356305E-001 -1.5128382211E+002 
1886177.722 +1.2858614418E-001 +1.6944051792E+002  +5.0256316881E-004 +4.4170125419E+001  +1.1550872870E-003 -1.7780937528E+002  +2.1476308340E-001 -1.6393620993E+002 
2011322.904 +1.3172090111E-001 +1.6796744378E+002  +9.4884074756E-004 +1.0154173210E+002  +8.5783123104E-004 -3.3321981508E+001  +1.8902630017E-001 -1.5985453359E+002 
2136468.085 +1.2984166824E-001 +1.6623373677E+002  +5.1213456437E-003 +1.0202708678E+002  +7.9000341173E-003 -1.0989807078E+002  +1.2865338386E-001 -1.6984805143E+002 
2261613.267 +1.2966344258E-001 +1.6810275152E+002  +6.4698582203E-003 +7.5344142542E+001  +3.7155232083E-003 -1.0570868395E+002  +1.5759354216E-001 +1.7588657198E+002 
2386758.448 +1.3669737535E-001 +1.6569984543E+002  +3.8146501108E-003 +8.4333515414E+001  +1.1905694233E-003 -5.2932739388E+001  +2.0987596419E-001 +1.7210012677E+002 
2511903.630 +1.3281290527E-001 +1.6685127741E+002  +5.3204979704E-003 +1.0413734514E+002  +1.5507868967E-003 -7.3961456870E+001  +2.5273226209E-001 -1.7990161400E+002 
2637048.811 +1.3299795035E-001 +1.6474274814E+002  +2.0035172010E-002 +9.5113499176E+001  +1.1643813964E-002 -2.5080219067E+001  +2.0872042920E-001 +1.3815574343E+002 
2762193.992 +1.2705170264E-001 +1.6424802734E+002  +2.4741573550E-002 -2.8814787372E+001  +1.9573786412E-002 -1.2981402744E+002  +3.1613306293E-001 -1.0007719094E+002 
2887339.174 +1.3926784983E-001 +1.7919641968E+002  +1.2261309368E-002 -6.8561253696E+001  +1.3920393448E-002 -1.1832547992E+002  +1.8841193741E-001 -9.9227920358E+001 
3012484.355 +1.3734747280E-001 +1.7073171255E+002  +2.0578764681E-002 -5.6222054855E+001  +3.0023410759E-002 -1.5276842057E+002  +2.8929314167E-001 -7.4080698875E+001 
3137629.537 +1.2512993895E-001 +1.7153881018E+002  +1.4845019856E-002 -1.1662489030E+001  +2.0342247944E-002 -1.0619078596E+002  +1.4916934044E-001 -1.0614123440E+002 
3262774.718 +1.1284751427E-001 +1.6070279870E+002  +1.9709801028E-002 -2.8492245472E+001  +1.7074400726E-002 -1.2160226156E+002  +2.8055098079E-001 -7.8428646675E+001 
3387919.900 +1.3936500678E-001 +1.4823481720E+002  +1.5859217162E-002 +3.2353163139E+001  +4.9598473712E-002 -7.5590425766E+001  +4.2309611360E-001 +1.2031807158E+001 
3513065.081 +1.5005215087E-001 +1.5014646172E+002  +2.1833091751E-002 +1.0598339001E+002  +2.0814285143E-002 -8.0694764725E+000  +4.3774817046E-001 +1.4991610804E+002 
3638210.263 +1.8142709066E-001 +1.4569124896E+002  +2.3117792467E-002 +5.8087264208E+001  +3.2989789297E-002 +3.1741932560E+001  +3.1615096116E-001 +7.8832855479E+001 
3763355.444 +1.5978513333E-001 +1.4786504206E+002  +2.6487986222E-002 +7.6928700833E+001  +2.3294081414E-002 +2.5591173307E+001  +3.4089840401E-001 +1.4809316681E+002 
3888500.626 +1.4709031277E-001 +1.3589583815E+002  +2.2646322533E-002 +8.9444786919E+001  +1.8856061064E-002 +1.8005723926E+001  +3.2466816346E-001 +1.6134597555E+002 
4013645.807 +1.4810474097E-001 +1.4950463844E+002  +7.0012897875E-002 +7.5364241935E+001  +6.4041326333E-002 -1.4690196057E+001  +1.0539459651E+000 +7.4015482367E+001 
4138790.989 +2.2105944964E-001 +1.5200288441E+002  +1.5500228336E-002 +9.8437909775E+001  +2.2825287035E-002 +3.6419589650E+001  +4.3132228846E-001 +1.3272468251E+002 
4263936.170 +2.0016664394E-001 +1.3677697842E+002  +4.1557241335E-002 +1.1472455597E+002  +2.9314905914E-002 +2.6988033622E+001  +5.0521549412E-001 +1.2464559588E+002 
4389081.352 +1.7523826052E-001 +1.3895650623E+002  +4.2347917661E-002 +1.1884609637E+002  +6.9076785480E-002 +5.7338501572E+001  +1.2856253906E+000 +1.3082571469E+002 
4514226.533 +2.5513029279E-001 +1.4407029841E+002  +8.1423681935E-002 +1.7124399348E+002  +9.8989124901E-002 +1.2062439591E+002  +1.8220796655E+000 +1.5131383862E+002 
4639371.715 +2.7550870221E-001 +1.3668281489E+002  +4.9984500654E-002 +1.1623392664E+002  +5.9715320851E-002 +6.0480140028E+001  +9.6224988489E-001 +1.0169285435E+002 
4764516.896 +2.9631190285E-001 +1.2593788666E+002  +1.4550309124E-001 +1.5594643764E+002  +1.1864270594E-001 +8.8426779688E+001  +2.4193758662E+000 +1.3391954684E+002 
4889662.078 +3.6495184399E-001 +1.3348005721E+002  +1.4468833259E-001 -1.1556339343E+002  +1.1587648358E-001 +1.7141699184E+002  +2.5333917220E+000 -1.5714762202E+002 
5014807.259 +3.7906805038E-001 +1.3654667031E+002  +2.3944221987E-001 +1.7341387061E+002  +2.4727739777E-001 +1.1298803800E+002  +4.9493147716E+000 +1.3833843309E+002 
5139952.441 +3.7373071063E-001 +1.2482421976E+002  +2.2310459433E-001 -1.5051892095E+002  +3.4264749640E-001 +1.6774060036E+002  +5.6654378416E+000 +1.7908130187E+002 
5265097.622 +3.5058040485E-001 +1.2518294126E+002  +1.2525372217E-001 +1.0302989277E+002  +1.4870435795E-001 +7.2162671560E+001  +1.7973022219E+000 +9.4440361463E+001 
5390242.804 +4.0606535632E-001 +1.3035688726E+002  +7.8966880050E-002 +1.1977581703E+002  +7.9192209579E-002 +8.7133705255E+001  +1.1798201550E+000 +1.2152563271E+002 
5515387.985 +4.3001593767E-001 +1.2868193394E+002  +1.4226634827E-001 +1.2197765019E+002  +1.5185222287E-001 +7.9340757477E+001  +2.3043662058E+000 +8.6708383056E+001 
5640533.166 +4.3247093599E-001 +1.2079940643E+002  +1.1584017117E-001 +9.5764734152E+001  +9.6292664495E-002 +6.0143500066E+001  +1.7601457067E+000 +9.3303705092E+001 
5765678.348 +4.8575639141E-001 +1.2692301424E+002  +1.1416252785E-001 +8.4029832956E+001  +8.7782392169E-002 +6.5772627639E+001  +1.5132338098E+000 +6.6074930216E+001 
5890823.529 +5.1174053334E-001 +1.1351227247E+002  +1.7242938629E-001 +8.0578485826E+001  +1.5838190101E-001 +5.9059825116E+001  +2.2763885234E+000 +8.4923470731E+001 
6015968.711 +6.1383379258E-001 +1.1760799126E+002  +1.4422980530E-001 +4.9881145685E+001  +1.5660950103E-001 +2.9511078910E+001  +2.1576123186E+000 +1.6330125001E+001 
6141113.892 +6.3224719248E-001 +1.1032418149E+002  +1.4966333162E-001 +5.4858879518E+001  +1.8133533383E-001 +2.7022796046E+001  +1.9983198179E+000 +3.6245496729E+001 
6266259.074 +7.7498152506E-001 +1.0833831519E+002  +1.3170344438E-001 +6.8615612590E+001  +1.3570988314E-001 +4.8675999665E+001  +1.6216108706E+000 +3.9763435399E+001 
6391404.255 +8.5049887378E-001 +8.2100969616E+001  +1.7334561258E-001 +3.2886810434E+001  +1.8260917528E-001 +2.4095382879E+001  +2.0103603779E+000 +2.2801030656E+001 
6516549.437 +1.1540264073E+000 +8.7874066952E+001  +1.7842164618E-001 +3.8265331564E+001  +1.4130171751E-001 +2.9275434672E+001  +1.4918870192E+000 +9.3463628353E+000 
6641694.618 +1.4011985406E+000 +6.7919091667E+001  +1.7035180608E-001 +3.0174273879E+001  +1.6598591926E-001 +1.7355493808E+001  +1.4179570669E+000 +7.4652045586E+000 
6766839.800 +1.5671729964E+000 +3.4110487978E+001  +1.8087133839E-001 +3.7094004731E+000  +1.7233176928E-001 +3.0051879126E+000  +1.1938454095E+000 -5.8405066236E+000 
6891984.981 +1.9034607042E+000 +4.4241747943E+001  +1.5172354884E-001 +1.3462627009E+001  +1.8337714412E-001 +8.6244765384E+000  +1.2901734644E+000 -1.3202811099E+001 
7017130.163 +1.4063655306E+000 +1.6400943026E+001  +1.4552835642E-001 +6.3910288537E+000  +1.5265158157E-001 -3.0237167627E+000  +1.2830689414E+000 -3.5566498753E+000 
7142275.344 +1.4363252263E+000 +9.7209385139E+000  +1.0082200937E-001 +5.3277608793E+000  +1.0530384524E-001 +1.4006338873E+000  +1.1033475707E+000 -1.5073230327E+001 
7267420.526 +1.2585743499E+000 -4.5621034366E+000  +8.8044886530E-002 +1.0330196509E+000  +1.0287771209E-001 -3.4173981778E+000  +1.1893204485E+000 -7.4714618972E+000 
7392565.707 +1.1452713486E+000 -1.5553356629E-001  +8.6812350520E-002 -1.2678262782E+000  +7.6766863480E-002 +7.3862592195E+000  +1.2781765542E+000 -1.2937156066E+001 
7517710.889 +1.0689480538E+000 -2.8315866132E+000  +8.1632618094E-002 +4.5028757989E+000  +8.1010584942E-002 +1.0483282543E+001  +1.0143199182E+000 -1.0222313431E+000 
7642856.070 +9.6559920371E-001 -5.4598357981E+000  +6.8056837043E-002 +3.5023091713E+000  +6.9965687949E-002 +2.9423373878E+000  +9.9570981132E-001 -7.8368874631E+000 
7768001.252 +9.1404283234E-001 +7.0393943672E+000  +6.9853040811E-002 +5.9311662857E+000  +7.1639453114E-002 +1.2330237092E+001  +9.2598824356E-001 -9.9843892087E+000 
7893146.433 +8.1147941192E-001 +8.7749109395E+000  +6.2851127268E-002 +1.5012418837E+000  +6.8995550344E-002 +1.1083826713E+001  +9.1000949965E-001 -4.3620266253E+000 
8018291.615 +7.5397988910E-001 +8.5676273269E+000  +6.7106201468E-002 -1.2973668632E+000  +5.7037883558E-002 +6.6805722437E+000  +7.4016802517E-001 +2.5058837483E+000 
8143436.796 +6.9118877415E-001 +7.7936355047E+000  +6.2210622696E-002 +3.9889002159E+000  +6.4009636150E-002 +8.2918465594E+000  +7.2040617433E-001 +4.0033358354E+000 
8268581.977 +5.7675129568E-001 +1.5591668349E+001  +5.7345643269E-002 -8.7325955225E-001  +5.5991551783E-002 +1.1212582733E+001  +6.5155829953E-001 +3.6390910296E+000 
8393727.159 +5.8535475676E-001 +5.3551105654E+000  +5.9261773381E-002 -1.2655055853E+000  +5.6799088967E-002 +1.3825748602E+001  +7.1957405370E-001 +2.4779273581E+000 
8518872.340 +6.9180299962E-001 +5.0483644693E+000  +6.0267121478E-002 +5.7943970171E+000  +5.9813356910E-002 +1.2214374629E+001  +6.1800075644E-001 +1.1327371493E+000 
8644017.522 +5.4940607301E-001 +6.0497410727E+000  +6.0480928882E-002 -5.1868613944E+000  +5.7663199587E-002 +1.0173157414E+001  +6.4010008355E-001 -3.1699822063E-001 
8769162.703 +5.7799817645E-001 +8.9216913086E+000  +5.6601373153E-002 -4.0330825959E-001  +5.3924722417E-002 +1.5880340915E+001  +5.8397457765E-001 +3.4698271116E+000 
8894307.885 +5.3619969179E-001 +6.4649592044E+000  +5.8945897527E-002 +1.0561392347E-001  +5.3487642477E-002 +1.7971479844E+001  +6.0074146028E-001 +5.0805253537E+000 
9019453.066 +4.9346607431E-001 +4.2165992335E+000  +5.4023797461E-002 -4.2161268226E+000  +5.3062312508E-002 +1.4574409333E+001  +5.9920790556E-001 +8.4652067745E+000 
9144598.248 +5.2832354648E-001 +6.4051792675E+000  +5.3545834613E-002 +2.7076927064E+000  +5.6213482161E-002 +1.0196940093E+001  +5.9117149291E-001 +1.1140602388E+000 
9269743.429 +4.9058922678E-001 +9.8171174245E+000  +5.3506952467E-002 -3.3930343163E+000  +5.4828369108E-002 +1.1539990004E+001  +5.6330704291E-001 +5.2031777852E+000 
9394888.611 +4.9362436489E-001 +2.8090422289E+000  +5.8663114300E-002 -1.0451492811E+000  +5.2693889805E-002 +1.6231637887E+001  +5.4728907715E-001 -1.4963302338E+000 
9520033.792 +4.9778487347E-001 +8.0184971100E+000  +5.4160486693E-002 -1.1222849486E+000  +5.5207918582E-002 +1.3097744894E+001  +5.4599760666E-001 +8.3501446239E-001 
9645178.974 +5.1607056024E-001 +2.5398174686E+000  +5.6182343475E-002 +5.9675171567E-001  +5.3319124632E-002 +1.5134447189E+001  +5.5082362178E-001 -4.3144375942E+000 
9770324.155 +4.8877250458E-001 +3.5822165031E+000  +5.4464008798E-002 +9.9481421267E-002  +5.7736531415E-002 +1.3661192523E+001  +4.6500389797E-001 -3.7367587097E+000 
9895469.337 +5.0648890900E-001 -4.1685497897E+000  +5.5201665021E-002 -6.8212510830E-001  +5.5047112037E-002 +1.6082988942E+001  +5.5900199355E-001 -2.4973289197E+000 
10020614.518 +4.8256428416E-001 +1.4303816495E-001  +5.8828380842E-002 -2.5075745181E-001  +5.5585501237E-002 +1.5281455182E+001  +5.3875850030E-001 -5.5585224062E+000 
10145759.700 +5.1602906064E-001 +4.6410814036E+000  +5.6661338924E-002 +1.6865969066E+000  +5.6795019347E-002 +1.6643517455E+001  +4.9254474493E-001 -3.5551426581E-001 
10270904.881 +5.0739139763E-001 +5.8387354619E+000  +5.5863174458E-002 +9.7714502457E-001  +5.5151217613E-002 +1.6584712991E+001  +5.0918208433E-001 -2.4295211384E+000 
10396050.063 +4.9390686243E-001 +3.7816184215E+000  +5.7740679680E-002 +4.0524166339E-001  +5.4030841725E-002 +1.5693493906E+001  +5.1166791150E-001 -1.4429285792E+000 
10521195.244 +5.1003231163E-001 +3.3669400643E+000  +5.6470458359E-002 +1.7103274082E+000  +5.7238270406E-002 +1.9612342828E+001  +5.5135134296E-001 +2.8446792649E+000 
10646340.426 +4.9168468467E-001 +5.4161658260E+000  +5.5592763167E-002 +8.4469888200E-001  +5.8430998279E-002 +1.7027164505E+001  +5.5284715546E-001 -1.2169672801E+000 
10771485.607 +5.1730621962E-001 +5.7060244497E+000  +5.7189106116E-002 +3.3330334546E+000  +5.5935970429E-002 +1.5518406074E+001  +5.2868003266E-001 +8.2213815478E-001 
10896630.788 +5.2478284503E-001 +6.8017968830E+000  +5.6925731938E-002 +2.8093129117E+000  +5.7232131504E-002 +1.6901188603E+001  +5.7962341649E-001 +3.9719393492E+000 
11021775.970 +5.2301379109E-001 +7.3704435743E+000  +6.0626921123E-002 +3.2917485726E+000  +6.0134407164E-002 +1.5649334395E+001  +5.8267300656E-001 +1.7420062674E+000 
11146921.151 +5.4632470008E-001 +7.1621639256E+000  +5.8602157277E-002 +2.6879537465E+000  +5.6973949396E-002 +1.7026587719E+001  +5.6702309785E-001 +2.7286532357E+000 
11272066.333 +5.1758447347E-001 +5.7076961573E+000  +5.9156639876E-002 +2.9119086617E+000  +5.7573368766E-002 +1.7095035730E+001  +5.4060816485E-001 +4.1373902937E+000 
11397211.514 +5.5548025456E-001 +7.3690199018E+000  +5.9397198860E-002 +5.4618394760E+000  +5.7436864597E-002 +1.4011373999E+001  +5.8909924506E-001 +1.5555480855E+000 
11522356.696 +5.8625318263E-001 +1.0091634353E+001  +6.1029437364E-002 +5.5478577754E+000  +5.7695554005E-002 +1.6146628599E+001  +5.9881175874E-001 +3.6347966888E+000 
11647501.877 +6.0326445871E-001 +5.3117159868E+000  +6.1620884589E-002 +5.4455842345E+000  +6.1029811038E-002 +1.6166443998E+001  +5.6931382634E-001 +2.4641418864E+000 
11772647.059 +5.7597990885E-001 +7.4413612634E+000  +6.3907645345E-002 +5.5627617237E+000  +6.0091449134E-002 +1.4711225862E+001  +5.9263754172E-001 +1.8116798431E+000 
11897792.240 +6.0060924657E-001 +5.7827718148E+000  +6.3107369105E-002 +5.8236245784E+000  +6.3255247333E-002 +1.5751975324E+001  +6.0683136682E-001 +2.7295620248E+000 
12022937.422 +6.0663109690E-001 +6.2629581070E+000  +6.2830454910E-002 +6.2878454774E+000  +6.3008335937E-002 +1.5282893467E+001  +6.3568498643E-001 +4.5772538261E-001 
12148082.603 +6.2001961754E-001 +4.9919373598E+000  +6.3432641662E-002 +6.0944572269E+000  +6.3229520720E-002 +1.4613459736E+001  +6.5007796230E-001 +4.3525817195E+000 
12273227.785 +6.3672629185E-001 +5.4407247283E+000  +6.4298788891E-002 +5.3418349164E+000  +6.3628741010E-002 +1.5637490523E+001  +6.2545991717E-001 +1.4363402483E+000 
12398372.966 +6.6335756895E-001 +6.0464516250E+000  +6.4215665564E-002 +9.4251529453E+000  +6.4401054271E-002 +1.6174789336E+001  +6.5661747304E-001 +5.4434916983E-001 
12523518.148 +6.7999427447E-001 +4.1402784142E+000  +6.6655202033E-002 +7.2616415079E+000  +6.5282479194E-002 +1.6315331447E+001  +6.9601560506E-001 -1.2747851808E+000 
12648663.329 +6.7438788014E-001 +1.8170381463E+000  +6.6384705298E-002 +6.8435785864E+000  +6.6287133235E-002 +1.4187248599E+001  +6.9386563931E-001 -1.3720640715E+000 
12773808.511 +6.8931210742E-001 +1.6269564671E+000  +6.7236100255E-002 +7.8685439282E+000  +6.8176816978E-002 +1.2959236997E+001  +6.7658946807E-001 -5.3651059147E-001 
12898953.692 +7.3574051023E-001 -1.3631808699E+000  +6.7569802267E-002 +8.8783954577E+000  +6.8688069693E-002 +1.3495569932E+001  +7.2145206385E-001 +1.0834776874E+000 
13024098.874 +7.2551310827E-001 -1.3386687583E+000  +6.9698860737E-002 +6.5243328632E+000  +6.7700947861E-002 +1.4342510791E+001  +7.3254255585E-001 -4.8904704454E-001 
13149244.055 +7.4298759111E-001 +8.8658323068E-001  +6.8910223675E-002 +7.4274833950E+000  +6.9066613648E-002 +1.1875727425E+001  +7.4624146723E-001 -1.0574666380E+000 
13274389.237 +7.7727209002E-001 +9.0362229895E-001  +7.0249328485E-002 +8.4549078694E+000  +6.9623721632E-002 +1.1403598802E+001  +7.6848511156E-001 -2.6472041288E+000 
13399534.418 +7.5135902471E-001 -1.0798254780E+000  +7.0459988437E-002 +6.5827376686E+000  +6.9275923220E-002 +1.1346073334E+001  +7.6358474420E-001 -2.6565046386E+000 
13524679.599 +7.9521432344E-001 -2.1849219023E+000  +7.1168148957E-002 +7.8425519569E+000  +7.1859758102E-002 +1.1327394947E+001  +8.0793742019E-001 -3.2739053234E+000 
13649824.781 +8.0915610750E-001 -2.6645032021E+000  +7.4023353260E-002 +6.9688164212E+000  +7.1671119402E-002 +1.0574967802E+001  +8.2270805010E-001 -3.2849063990E+000 
13774969.962 +8.3249273251E-001 -2.9715079062E+000  +7.2871711224E-002 +7.5962148960E+000  +7.0879266211E-002 +8.9406362438E+000  +8.2478106115E-001 -3.8744179203E+000 
13900115.144 +8.4385602277E-001 -2.1342304719E+000  +7.3042865395E-002 +8.5565069752E+000  +7.2734604495E-002 +8.2023918204E+000  +8.3806433269E-001 -3.8341031800E+000 
14025260.325 +8.5714117146E-001 -4.3976025525E+000  +7.2793360327E-002 +7.6603256238E+000  +7.2977034543E-002 +8.4515502347E+000  +8.5865149200E-001 -4.0496272202E+000 
14150405.507 +8.8030267593E-001 -4.6790554506E+000  +7.4514679029E-002 +7.9192856433E+000  +7.3865510523E-002 +8.8094562528E+000  +8.9538203144E-001 -5.4593537027E+000 
14275550.688 +8.8703626282E-001 -5.4240486648E+000  +7.5852195604E-002 +6.2911007013E+000  +7.3200575114E-002 +7.6446336793E+000  +9.1075552788E-001 -4.9805769299E+000 
14400695.870 +8.9247910510E-001 -5.2314238338E+000  +7.4818264657E-002 +6.7773897500E+000  +7.2760688923E-002 +8.2264210356E+000  +9.1001779448E-001 -4.0191644804E+000 
