!  2-Port S-parameters saved by WinCal
! VAR MeasName=S-Parameters (CALIBRATED_DATA) read from VNA (P5004A)
! VAR MeasDate=28/08/2024 11:48:03
! VAR NAME=S2_r6c9_RESET3_9k-100M_1
! VAR FILENAME=S2_r6c9_RESET3_9k-100M_1.S2P
! VAR DATE=28/08/2024 11:48:03
! VAR PHYS_PORTS=1,2
! VAR ObjTypeName=DATASET
! VAR IndexType=Frequency
!
# Hz S MA R 50
9000.000 +7.4581562957E-002 -1.7041408514E+002  +1.9676021708E-003 +1.6107059657E+002  +6.9745046186E-003 +7.0450692202E+001  +2.2408158240E-001 -1.5067515031E+002 
134145.181 +1.1097321608E-001 +1.6945450413E+002  +9.5141016996E-005 -7.7300727431E+001  +4.0688030919E-004 -1.2143309314E+002  +2.4228788731E-001 -1.7023568963E+002 
259290.363 +1.1271761954E-001 +1.6973449060E+002  +5.9402957846E-004 +1.5976422438E+002  +1.2497066999E-003 +6.3193875347E+001  +2.4912191575E-001 -1.6854622652E+002 
384435.544 +1.1572511406E-001 +1.6978342489E+002  +3.7854136844E-004 -1.6821441274E+002  +3.7459320907E-004 +1.5522236499E+002  +2.3953112025E-001 -1.6913264305E+002 
509580.726 +1.1579723155E-001 +1.7133460706E+002  +2.0556632661E-003 +8.1287954714E+001  +1.6319830880E-003 +5.7596483186E+001  +2.4034528363E-001 -1.6536516870E+002 
634725.907 +1.1833881763E-001 +1.7037414357E+002  +2.4585213122E-004 +1.3958101947E+002  +8.0261487541E-004 -1.0614039856E+002  +2.6432603959E-001 -1.6363508554E+002 
759871.089 +1.1975054069E-001 +1.7129416151E+002  +9.2646845891E-004 +5.0046541889E+001  +8.8940799482E-004 -1.0932626314E+002  +2.5195946405E-001 -1.6510976593E+002 
885016.270 +1.1977209563E-001 +1.6896747783E+002  +1.1482833269E-004 +1.6394110669E+002  +4.0842524519E-004 -1.6643869572E+002  +2.3659982817E-001 -1.6555623258E+002 
1010161.452 +1.1858888125E-001 +1.7045385539E+002  +3.0471536529E-004 -1.3574790976E+002  +1.4903600277E-003 +1.3796945737E+002  +2.1282691538E-001 -1.6806874719E+002 
1135306.633 +1.1415911930E-001 +1.6962291928E+002  +1.6834153934E-003 +8.2156679017E+001  +1.8635631124E-003 +4.0376522944E+001  +9.9465009999E-002 -1.6207338321E+002 
1260451.815 +1.1857536846E-001 +1.7123111211E+002  +8.9148141743E-004 +1.6527841360E+002  +1.0155174273E-003 -1.1678437720E+002  +2.3015942342E-001 -1.5611088381E+002 
1385596.996 +1.2624634331E-001 +1.7191839710E+002  +7.4487133791E-004 +6.1619992107E+001  +1.0598805345E-003 +4.3376675525E+001  +2.4987702868E-001 -1.5918048916E+002 
1510742.178 +1.2741002295E-001 +1.7185869271E+002  +4.4997834511E-004 +1.5114813741E+002  +6.5344244325E-004 +1.4845061815E+002  +2.4586478004E-001 -1.5859087208E+002 
1635887.359 +1.2798782591E-001 +1.7171186721E+002  +8.6150203864E-004 -1.5468496858E+002  +1.7895586279E-003 +1.1485690938E+002  +2.4262012851E-001 -1.5651095819E+002 
1761032.541 +1.2715713898E-001 +1.6917290193E+002  +1.7191098862E-003 +8.2816706923E+001  +1.2401606422E-003 -9.3044616119E+001  +2.1342691287E-001 -1.5725198812E+002 
1886177.722 +1.2711390205E-001 +1.7005174766E+002  +1.4008589443E-003 +6.7058736494E+001  +9.9301931271E-004 -1.3026746488E+002  +2.2323455911E-001 -1.6154303710E+002 
2011322.904 +1.2910558268E-001 +1.6692764715E+002  +2.0468753879E-003 +1.3229484182E+002  +2.1901822381E-003 -7.5948929235E+001  +1.8810176277E-001 -1.4697091401E+002 
2136468.085 +1.2784103092E-001 +1.6646011978E+002  +2.9572823980E-003 +5.9264212800E+001  +3.6652012081E-003 +4.4526004963E+001  +1.8194681861E-001 -1.7977243741E+002 
2261613.267 +1.3115327784E-001 +1.6369587538E+002  +4.5325597372E-003 +9.1283703012E+001  +3.7146241537E-003 -1.7380293926E+002  +2.1109930180E-001 +1.7294768052E+002 
2386758.448 +1.3159872829E-001 +1.6294657751E+002  +4.5834582267E-003 +1.5177860867E+002  +3.0256376463E-003 +1.6870319694E+002  +2.8342711446E-001 +1.5705229163E+002 
2511903.630 +1.3473810194E-001 +1.6506053835E+002  +2.8608706246E-003 +1.5263290218E+002  +8.3041548469E-004 +5.8014044000E+001  +2.4488422511E-001 +1.6855429000E+002 
2637048.811 +1.1792447455E-001 +1.6725691930E+002  +2.7916055446E-003 -7.7238928793E+001  +5.2847756613E-003 +4.9487087261E+000  +1.5905111416E-001 +1.5528219245E+002 
2762193.992 +8.1734568707E-002 +1.7451187263E+002  +6.5031423789E-002 +7.9558711370E+001  +4.1516013276E-002 +3.8478223165E+001  +6.1265887976E-001 +9.3300907537E+001 
2887339.174 +1.0468581910E-001 +1.5831506644E+002  +8.9344938269E-003 -4.3342713900E+001  +4.9659537259E-003 -1.5941720338E+002  +2.9434279856E-001 -1.2000732721E+002 
3012484.355 +1.3236506035E-001 +1.7849265141E+002  +7.2000142399E-003 -1.3054140512E+002  +3.6177458399E-003 +2.4285446620E+001  +3.5594814258E-001 -1.2323818569E+002 
3137629.537 +1.3434774491E-001 +1.7124245036E+002  +7.7468716611E-003 +4.7799790562E+001  +1.0412354079E-002 -7.1535690901E+001  +1.0643271506E-001 +6.3438751491E+001 
3262774.718 +1.0781786762E-001 +1.7116873150E+002  +3.1555737290E-003 +1.1592398721E+001  +1.1166474864E-002 -1.0062292544E+002  +2.9422378062E-001 +2.0789072814E+001 
3387919.900 +1.4242995304E-001 +1.5330301825E+002  +8.1614014834E-003 -1.1237961743E+002  +2.6440798792E-002 -1.1374769648E+002  +1.8503668782E+000 -1.0449864355E+002 
3513065.081 +1.3409613963E-001 +1.3728466577E+002  +1.9836457353E-002 +6.5705402899E+001  +1.4290250537E-002 -4.6557118191E+001  +5.3142220399E-001 +8.8923334333E+001 
3638210.263 +1.6086307753E-001 +1.5183206030E+002  +8.6010739184E-003 +7.2435776534E+001  +2.8601498580E-003 +1.7090262044E+002  +4.0239463511E-001 +1.4552585923E+002 
3763355.444 +1.7143464411E-001 +1.4530640606E+002  +1.6180814882E-003 -1.3229764781E+002  +2.0414162376E-002 -2.3962390776E+001  +3.9867179092E-001 +8.9126798271E+001 
3888500.626 +1.6670574583E-001 +1.4723207566E+002  +1.3656558295E-002 +4.8707926999E+001  +1.2316828493E-002 +4.8385633466E+001  +2.7659717465E-001 +1.1790783301E+002 
4013645.807 +1.7062318027E-001 +1.5255066365E+002  +8.2227805385E-004 +1.0753352547E+002  +4.8927710164E-003 -4.8284860329E+001  +4.2058159184E-001 +7.8146711464E+001 
4138790.989 +1.9831358196E-001 +1.4969741172E+002  +9.1498469373E-003 +1.1064433575E+002  +2.2185607974E-003 +3.8799406339E+001  +5.3188314643E-001 +1.4161955121E+002 
4263936.170 +1.9771715319E-001 +1.5336452984E+002  +1.9256568553E-003 +7.0708008357E+001  +4.1660540499E-003 +1.5191499314E+002  +6.8240693290E-001 +1.5299652389E+002 
4389081.352 +1.9922060348E-001 +1.4016920412E+002  +1.0715250600E-002 +4.5053958947E+001  +1.7324803982E-003 +9.2458702519E+000  +5.2121827720E-001 +8.3650181343E+001 
4514226.533 +2.6927023176E-001 +1.4106504234E+002  +6.3828324762E-003 -1.4949258566E+002  +2.5017616830E-002 -1.9841739261E+001  +7.4931949422E-001 +9.5434866650E+001 
4639371.715 +3.6184646078E-001 +1.1612971716E+002  +6.0327994317E-002 +8.4025259650E+001  +1.9732563129E-002 +9.5119665325E+001  +8.5996636053E-001 +1.0737286353E+002 
4764516.896 +3.2580195305E-001 +1.1994164557E+002  +8.4122583078E-002 +1.5968176871E+002  +1.6043053516E-002 +1.8370058151E+001  +2.3589462222E+000 +1.3691252342E+002 
4889662.078 +4.6138354606E-001 +1.3621539024E+002  +5.3214477373E-002 -1.7312300100E+001  +7.6055151901E-002 +5.7513767889E+000  +3.0151068260E+000 -6.3282410762E+001 
5014807.259 +4.2580921471E-001 +1.3298451834E+002  +1.5912266915E-001 +1.5649046001E+002  +8.6423389309E-002 +1.0584002249E+001  +9.1957653396E+000 +8.2898804814E+001 
5139952.441 +3.9097240527E-001 +1.2825542820E+002  +4.2432683150E-002 +1.1752848118E+002  +2.2066603807E-002 +5.2575842786E+001  +2.7993672195E+000 +6.0614483136E+001 
5265097.622 +4.1072601894E-001 +1.3263094200E+002  +1.6612738344E-002 +5.6506525354E+001  +5.3948530780E-002 +6.9408728518E+001  +3.1008965609E+000 +4.7412605303E+001 
5390242.804 +3.7074041935E-001 +1.2021436190E+002  +4.6330878219E-002 +1.3211985904E+002  +2.6523388097E-002 +1.2590033449E+002  +1.7042273311E+000 +1.2624656143E+002 
5515387.985 +5.7873824196E-001 +1.2562668749E+002  +6.3576544420E-002 +6.7236824811E+001  +7.8459661051E-002 +1.0300256029E+002  +3.0932707150E+000 +1.0604057140E+002 
5640533.166 +5.0190035086E-001 +1.2628817749E+002  +6.6066378713E-002 +1.0678846768E+002  +2.9975973007E-002 +1.1994992823E+002  +2.3942270416E+000 +7.6323242131E+001 
5765678.348 +4.9074716255E-001 +1.2657813602E+002  +4.4375290790E-002 +7.1740320495E+001  +1.1607730289E-002 +1.0003756967E+002  +2.9209423297E+000 +7.1116096681E+001 
5890823.529 +5.7358933688E-001 +1.2922082605E+002  +3.0494114128E-002 +9.3871557876E+001  +2.1792105661E-002 +7.7493402775E+001  +1.9754435674E+000 +8.1171037097E+001 
6015968.711 +6.5413399939E-001 +1.1661932611E+002  +4.2918056337E-002 +9.2836198701E+001  +1.8337510465E-002 +2.3802400328E+001  +1.5939295341E+000 +4.9226407089E+001 
6141113.892 +8.5760103970E-001 +9.9950492575E+001  +6.6863593809E-002 +8.4370570050E+001  +2.8442935085E-002 +1.0149484280E+002  +1.8061522857E+000 +4.4425243546E+001 
6266259.074 +7.6298961198E-001 +9.9072497787E+001  +2.6285125537E-002 +3.5324700870E+001  +3.1351596338E-002 +5.9196217957E+001  +1.7698435335E+000 +2.9545583402E+001 
6391404.255 +1.1547749227E+000 +1.0420905490E+002  +5.9945085124E-002 +6.6074547338E+001  +2.8844034421E-002 +4.3454785161E+001  +1.6870417627E+000 +1.0510894166E+001 
6516549.437 +1.1402450350E+000 +8.5289995502E+001  +3.6307351043E-002 +4.7378383065E+001  +5.3800818037E-002 +4.2482908975E+001  +1.2878484773E+000 +8.3653777696E+000 
6641694.618 +1.6223873525E+000 +8.2101489217E+001  +5.1729859194E-002 +9.7389792218E+000  +3.6227693368E-002 +4.8525657390E+001  +1.4534632609E+000 -3.7448510803E+000 
6766839.800 +1.9177512551E+000 +3.7459345059E+001  +9.7877714527E-002 +2.2965481202E+001  +7.2636018486E-002 +1.3649474362E+001  +1.1601847598E+000 +8.5947815317E+000 
6891984.981 +1.7947496555E+000 +3.0319867490E+001  +3.9489729605E-002 +1.8774860471E+001  +4.6965686631E-002 +4.1597779352E+001  +1.2978129634E+000 -2.6335400409E+000 
7017130.163 +1.4781858336E+000 +1.1815327643E+001  +2.0308542985E-002 +3.5974321426E+001  +2.6414375383E-002 +1.4419355451E+001  +1.2748998085E+000 -1.3918012577E+001 
7142275.344 +1.7129468120E+000 +2.9232722901E+000  +2.5185063821E-002 +6.2069259328E+000  +2.8369235543E-002 -5.4886302104E+000  +1.2944575936E+000 -9.1010228914E+000 
7267420.526 +1.6036795992E+000 +3.1221984192E+000  +3.3830480847E-002 +1.6817303346E+001  +2.7920799442E-002 +4.3171562316E+001  +1.3464646754E+000 -1.1236256957E+001 
7392565.707 +1.2754722673E+000 -2.2323333966E+000  +1.3166782870E-002 +3.0965359967E+001  +2.5502746068E-002 +4.1516114136E+001  +1.2023506218E+000 -1.2351084024E+001 
7517710.889 +1.2342310007E+000 +5.7537493611E-001  +1.3090604127E-002 +3.1782764821E+001  +2.2796839698E-002 +4.2056721828E+001  +1.2151192376E+000 -2.9208305228E+000 
7642856.070 +1.1011866935E+000 -1.1717040002E+000  +2.3366891012E-002 +3.1621390905E+001  +1.4809511871E-002 +6.9138273295E+000  +1.0076156848E+000 -1.0110623145E+000 
7768001.252 +9.0614372126E-001 +3.1913834523E+000  +2.2457179580E-002 +1.9384691589E+001  +1.2620623659E-002 +4.9729892977E+000  +1.0247074388E+000 -3.2914772351E+000 
7893146.433 +7.9179687114E-001 +2.4753134495E+000  +1.0881193422E-002 -9.6521394403E+000  +1.8130509175E-002 +2.4570665361E+001  +9.2322527736E-001 -4.3140379719E+000 
8018291.615 +8.0784567068E-001 +4.1580784442E+000  +1.7373176041E-002 +2.9110483189E+001  +1.1873624610E-002 +1.6869576855E+001  +7.8297574493E-001 -1.6458300701E-001 
8143436.796 +7.1440955614E-001 +7.4975541143E+000  +1.4551729314E-002 +1.7150709683E+001  +1.3842257742E-002 +1.9895920723E+001  +8.1512315581E-001 +4.8167492973E-001 
8268581.977 +7.5461278280E-001 +3.5303837140E+000  +1.4523905310E-002 +5.9489080793E-001  +1.6956719486E-002 +2.1099340935E+001  +7.6850938458E-001 -3.2545455187E+000 
8393727.159 +6.9102001507E-001 +1.5196522996E+001  +1.8608716575E-002 +2.4610370883E+001  +1.4633430783E-002 +2.0997021905E+001  +7.7883283364E-001 -1.5747029167E+000 
8518872.340 +6.7332298884E-001 +1.3643762737E+001  +1.1205509068E-002 +9.4315927510E+000  +1.0656596411E-002 +7.7887036479E+000  +7.1942112290E-001 -1.0445072103E+000 
8644017.522 +6.4613640517E-001 +9.2729503673E+000  +1.3447627639E-002 -2.5204965596E+000  +1.0837244318E-002 +2.0214120022E+001  +7.0771229271E-001 -2.9276321872E-001 
8769162.703 +6.5400155548E-001 +7.2759419245E+000  +1.0994778083E-002 +6.7457610921E+000  +1.4660351457E-002 +2.8766137443E+001  +6.7333189738E-001 -1.6270717698E+000 
8894307.885 +6.2666981369E-001 +6.4247453954E+000  +1.7025385707E-002 +2.8951315324E+001  +1.2750422566E-002 +6.6854695429E-001  +6.2614611227E-001 -7.0011179270E+000 
9019453.066 +6.0802090576E-001 +6.8220196122E+000  +1.7195330307E-002 +2.0414462284E+001  +1.2189243262E-002 +3.6357735797E+001  +6.1105977599E-001 -3.6196263773E+000 
9144598.248 +4.9875976775E-001 +2.0794363222E+000  +1.1536615967E-002 +1.5768478765E+001  +1.6517134726E-002 +4.0405917672E+001  +5.5016876243E-001 +2.2479336310E+000 
9269743.429 +5.8246366448E-001 +2.1295050677E+000  +1.6922013606E-002 +1.1995971346E+001  +1.6828988258E-002 +3.3393077738E+001  +5.9841281212E-001 -1.1438246487E-001 
9394888.611 +5.4345720126E-001 +4.0023952063E+000  +1.5469561353E-002 +9.8405621211E+000  +1.5202191974E-002 +2.1357002240E+001  +5.4112158561E-001 -1.9465425348E+000 
9520033.792 +5.4498520379E-001 +3.7854649706E+000  +1.5062876855E-002 +1.5798278903E+000  +1.0207936542E-002 +3.3206576160E+001  +6.0834482036E-001 -4.3515023325E+000 
9645178.974 +5.5870897064E-001 +2.4506790906E+000  +1.1890787190E-002 +3.6719316264E+000  +1.4016652190E-002 +2.0053899297E+001  +5.5644119834E-001 -5.0684478588E+000 
9770324.155 +5.4856650777E-001 +4.1456549645E+000  +1.1821153765E-002 +3.8823770537E+000  +1.3377055813E-002 +1.2175860574E+001  +5.0446714432E-001 -5.9114646827E+000 
9895469.337 +5.3897307789E-001 -2.3936312115E+000  +1.5332046058E-002 +9.8386784909E-001  +1.1952710471E-002 +5.3855839795E+001  +5.6393197092E-001 -6.0159108552E+000 
10020614.518 +5.3382490550E-001 +3.0463043483E+000  +1.4042731178E-002 +6.8400253630E+000  +1.2578854060E-002 +2.2498005093E+001  +5.7405930313E-001 -6.0253672854E+000 
10145759.700 +5.6690620519E-001 -1.8736763723E-001  +1.2073607078E-002 +1.0698887761E+001  +1.4946738214E-002 +3.6221912436E+001  +5.3697448728E-001 -4.0359107821E+000 
10270904.881 +5.5321018786E-001 +7.2824641409E+000  +1.3932688779E-002 +6.9449541145E+000  +1.4485471437E-002 +4.0455102726E+001  +5.6784941874E-001 -2.3967551187E-001 
10396050.063 +5.2744232731E-001 +5.2116203291E+000  +1.1004469285E-002 +1.3403134373E+001  +1.2171452755E-002 +3.2716742706E+001  +5.8446898152E-001 -1.1130905854E+000 
10521195.244 +5.0822233448E-001 +6.5463701824E+000  +1.3462916819E-002 +2.0475802962E+001  +1.1744761118E-002 +2.7340298133E+001  +5.6369981941E-001 -5.8421746119E-001 
10646340.426 +5.6510929089E-001 +5.7819623718E+000  +1.1239341155E-002 +9.6931498869E+000  +1.4277878744E-002 +2.7753123386E+001  +6.0359405183E-001 -1.6216499084E+000 
10771485.607 +5.7836844710E-001 +5.0170404294E+000  +1.5820249412E-002 +1.2291538529E+001  +1.4244645292E-002 +3.1155357151E+001  +6.0159003036E-001 -8.9155165674E-001 
10896630.788 +5.8151705536E-001 +8.4098267697E+000  +1.4874736970E-002 +1.9422027206E+001  +1.3890670459E-002 +2.2109594152E+001  +5.9523660646E-001 +3.5400367055E+000 
11021775.970 +5.5582422586E-001 +7.5465458170E+000  +1.3998012102E-002 +2.3908678138E+001  +1.4329470901E-002 +3.7291439451E+001  +5.9111733805E-001 +2.5944017113E+000 
11146921.151 +5.7893318787E-001 +7.6613353557E+000  +1.5732933279E-002 +1.5927390061E+001  +1.5932327038E-002 +2.8537356249E+001  +6.0193374229E-001 +1.8459458548E-001 
11272066.333 +5.9353943580E-001 +9.3476010390E+000  +1.0882161623E-002 +1.9125314755E+001  +1.5560006762E-002 +3.3065438424E+001  +6.1765911076E-001 +1.2208414414E+000 
11397211.514 +6.1380572958E-001 +7.1585471684E+000  +1.4667969499E-002 +2.0827673408E+001  +1.5639910029E-002 +3.2272889301E+001  +6.0804632840E-001 +4.7306416351E+000 
11522356.696 +6.0845024259E-001 +5.7350377760E+000  +1.5999025095E-002 +1.4002577086E+001  +1.5133476802E-002 +3.0496688507E+001  +6.1079240291E-001 +7.2839768225E-001 
11647501.877 +5.9478924162E-001 +4.6931541365E+000  +1.6306060612E-002 +1.4327124642E+001  +1.5731435436E-002 +3.6887295835E+001  +6.0897920943E-001 +2.4066481919E+000 
11772647.059 +6.3676473824E-001 +7.5073027071E+000  +1.6296782734E-002 +1.7724338059E+001  +1.5401069937E-002 +3.0220919873E+001  +6.8551153756E-001 +2.4962002949E+000 
11897792.240 +6.3775459216E-001 +3.1373327405E+000  +1.6753765660E-002 +2.0089766357E+001  +1.5776523784E-002 +3.6185805523E+001  +6.3798611614E-001 +1.7316043429E+000 
12022937.422 +6.3588985784E-001 +1.7627264433E+000  +1.4636341336E-002 +1.8741914111E+001  +1.5874579898E-002 +2.6476783937E+001  +6.7226628660E-001 +2.6635051465E+000 
12148082.603 +6.6623647369E-001 +5.3014782250E+000  +1.7011560401E-002 +2.1142371643E+001  +1.8631294611E-002 +2.9755547052E+001  +6.8023333112E-001 +1.2826402398E+000 
12273227.785 +6.7986708306E-001 +6.2332679618E+000  +1.4944189797E-002 +1.8390334537E+001  +1.6942360808E-002 +3.0411838267E+001  +7.2443619440E-001 +1.6624419536E-002 
12398372.966 +6.8878914624E-001 +3.2325923378E+000  +1.6924973238E-002 +1.9427754388E+001  +1.6795434936E-002 +3.1909691978E+001  +7.2415950537E-001 +1.9825415897E+000 
12523518.148 +7.1235152400E-001 +1.9394649233E+000  +1.7275864521E-002 +2.0428713703E+001  +1.6042951223E-002 +2.5822184762E+001  +7.2985430903E-001 +2.6754524943E+000 
12648663.329 +7.4513696624E-001 +1.0887189996E+000  +1.8351021575E-002 +2.4210406558E+001  +1.8273124564E-002 +3.0891775507E+001  +7.5962014763E-001 -3.8805280310E-001 
12773808.511 +7.3372331625E-001 +3.6973424003E+000  +1.8304582921E-002 +2.2992277920E+001  +1.6550635316E-002 +3.2269357010E+001  +7.5322210657E-001 -3.8071663716E-001 
12898953.692 +7.3738745292E-001 +7.9556533043E-001  +1.8701668094E-002 +2.2024584602E+001  +1.5493449696E-002 +2.5484468719E+001  +7.6148824776E-001 -6.4032317394E-001 
13024098.874 +7.7785090226E-001 +1.0746926138E+000  +1.5914742806E-002 +2.0099080489E+001  +1.7539482778E-002 +2.9530352613E+001  +7.8153181472E-001 -2.3065274372E+000 
13149244.055 +7.7049917727E-001 -7.9615447350E-003  +1.8919664242E-002 +2.1002849812E+001  +1.7994620618E-002 +3.0578894638E+001  +7.6943888809E-001 -6.5999021166E-001 
13274389.237 +8.0109066860E-001 -2.1305776632E+000  +1.6469120933E-002 +2.1034301069E+001  +1.8242174843E-002 +2.1960424700E+001  +8.4674642662E-001 -7.3463054205E-001 
13399534.418 +8.0829083561E-001 -2.1442000847E+000  +1.7753177489E-002 +2.8179387979E+001  +1.7729128082E-002 +2.5428319515E+001  +8.2943531433E-001 -2.9369157752E+000 
13524679.599 +8.4290982112E-001 -5.1853659663E-001  +1.6544075336E-002 +2.0953662952E+001  +1.8700082598E-002 +2.3841817816E+001  +8.4989463192E-001 -3.1925685807E+000 
13649824.781 +8.7565998077E-001 -1.2511699666E+000  +1.8786317718E-002 +2.1434123077E+001  +1.8673151648E-002 +3.2069746235E+001  +8.5429963714E-001 -2.7253712099E+000 
13774969.962 +8.9887233550E-001 -3.5396071069E+000  +1.7537596242E-002 +2.2357885832E+001  +1.6579279438E-002 +3.7164764268E+001  +8.7296347367E-001 -1.8580842923E+000 
13900115.144 +8.7910934763E-001 -4.0278910372E+000  +2.0466764587E-002 +2.0380684894E+001  +1.7897478186E-002 +2.7175512822E+001  +8.8521327734E-001 -3.6455769973E+000 
14025260.325 +9.0975327210E-001 -2.5723654567E+000  +2.0057053648E-002 +2.1389459345E+001  +1.7925297982E-002 +2.7378483620E+001  +9.1836735520E-001 -4.6201529103E+000 
14150405.507 +9.3347323924E-001 -4.0543102968E+000  +2.0411248806E-002 +2.5973605555E+001  +1.7500382223E-002 +2.4064705694E+001  +9.3376470888E-001 -4.6447573637E+000 
14275550.688 +9.3488129247E-001 -3.7937695078E+000  +1.9044335431E-002 +2.5699361646E+001  +1.7244856451E-002 +2.9173967338E+001  +9.4706927089E-001 -5.0982342306E+000 
14400695.870 +9.5874477671E-001 -5.8854855565E+000  +1.8905056791E-002 +2.2846865769E+001  +1.8166598593E-002 +2.6161800618E+001  +9.8913500317E-001 -4.0179356055E+000 
