!  2-Port S-parameters saved by WinCal
! VAR MeasName=S-Parameters (CALIBRATED_DATA) read from VNA (P5004A)
! VAR MeasDate=27/08/2024 16:30:23
! VAR NAME=S2_r2c9_formed_9k-100M_2
! VAR FILENAME=S2_r2c9_formed_9k-100M_2.S2P
! VAR DATE=27/08/2024 16:30:23
! VAR PHYS_PORTS=1,2
! VAR ObjTypeName=DATASET
! VAR IndexType=Frequency
!
# Hz S MA R 50
9000.000 +7.1123371410E-002 -1.7179427713E+002  +2.0846308908E-002 +6.8968411394E+001  +1.8841590389E-002 -7.5829534602E+001  +3.2270369545E-001 -1.2541245048E+002 
134145.181 +1.1078745653E-001 +1.6961391813E+002  +4.1076344535E-004 +1.7316110602E+002  +2.5430536132E-004 -8.2210077694E+001  +2.4394887151E-001 -1.7091715648E+002 
259290.363 +1.1274162758E-001 +1.7033541206E+002  +8.8350072056E-004 +5.7460402193E+001  +9.7267150722E-005 -9.5408893301E+001  +2.5008913993E-001 -1.6753327277E+002 
384435.544 +1.1429446061E-001 +1.6990348720E+002  +5.5773063412E-004 -1.1876087917E+002  +5.4499707047E-004 -1.6391915510E+002  +2.4041448794E-001 -1.6889088992E+002 
509580.726 +1.1247048522E-001 +1.7133308239E+002  +9.9551653759E-004 -3.9230810207E+001  +1.3616123065E-003 +1.3662663518E+002  +2.4230589528E-001 -1.6409542641E+002 
634725.907 +1.1710479828E-001 +1.7085966195E+002  +3.8245281008E-004 +2.3614174823E+001  +2.3817495531E-004 +1.4161418602E+002  +2.5326988783E-001 -1.6607437713E+002 
759871.089 +1.1744623275E-001 +1.7038094972E+002  +8.7596947686E-004 +2.0194078164E+001  +5.1379484627E-004 +1.5242659110E+002  +2.5055727969E-001 -1.6423273970E+002 
885016.270 +1.1864402238E-001 +1.6949796506E+002  +2.0147549442E-004 -1.6338029183E+001  +3.8458570702E-004 +7.5340315486E+001  +2.4011463625E-001 -1.6570190714E+002 
1010161.452 +1.1843705509E-001 +1.7053635226E+002  +1.7450454196E-003 +7.1334445942E+001  +1.9054629793E-003 +1.7847342046E+002  +1.8728752780E-001 -1.6801702622E+002 
1135306.633 +1.1596600684E-001 +1.6968702729E+002  +2.7612113591E-003 +4.6555023308E+001  +6.4686328886E-004 +1.3633274655E+002  +1.7414209972E-001 -1.5333184085E+002 
1260451.815 +1.2146591094E-001 +1.7067311665E+002  +9.7902590623E-004 -2.2061845748E+001  +8.2562489542E-004 -1.6622203814E+002  +2.4445171132E-001 -1.5644351301E+002 
1385596.996 +1.2679365826E-001 +1.7359518566E+002  +8.1596954824E-004 -1.3574021441E+002  +1.8032451634E-003 -1.5928821318E+002  +2.6061363710E-001 -1.5736524986E+002 
1510742.178 +1.2596650396E-001 +1.7126048221E+002  +1.3180011469E-003 -1.2701882224E+002  +1.3283380930E-003 -1.2604298121E+002  +2.4097351446E-001 -1.5850334144E+002 
1635887.359 +1.2230324127E-001 +1.7080811218E+002  +8.6177607248E-004 +1.7431037739E+002  +7.6680254784E-004 +9.9379337638E+001  +2.5205605947E-001 -1.5940835471E+002 
1761032.541 +1.3042501454E-001 +1.6967588151E+002  +1.1765227990E-003 +1.4529372733E+002  +4.4240652564E-004 -9.4281297256E+001  +2.2027688279E-001 -1.6121414435E+002 
1886177.722 +1.3132306228E-001 +1.6736231419E+002  +2.3621836169E-003 -1.7219070169E+002  +1.8690779317E-003 -1.6558234947E+002  +2.1498600247E-001 -1.6623743980E+002 
2011322.904 +1.2873003229E-001 +1.6859566012E+002  +4.3868362496E-004 -1.3700082902E+002  +2.2733264795E-003 +2.8575703750E+000  +1.9599386487E-001 -1.6863618151E+002 
2136468.085 +1.3376307278E-001 +1.6746323494E+002  +1.4564207259E-003 +7.2574439410E+000  +1.5995195681E-003 -3.7664554748E+001  +1.0128574245E-001 -1.7868445591E+002 
2261613.267 +1.3028929494E-001 +1.6588888078E+002  +3.2539481636E-003 +1.6651566974E+001  +5.5858029431E-003 -7.8133803431E+001  +2.0397463915E-001 +1.4931796558E+002 
2386758.448 +1.3470451265E-001 +1.6558619863E+002  +3.5116224248E-003 +1.0387062834E+002  +6.4259368753E-004 -6.1378831242E+001  +2.1938968421E-001 +1.7818058247E+002 
2511903.630 +1.0476943836E-001 +1.6283652326E+002  +6.3758002807E-003 -1.3608825659E+002  +5.7179851642E-003 +3.7001192116E+001  +1.7159003646E-001 +1.5832901914E+002 
2637048.811 +1.2890206114E-001 +1.6293125602E+002  +6.5028265044E-003 +1.1772281997E+002  +1.1081045395E-002 +5.7320218574E+001  +1.0892386984E-001 +1.3558249494E+002 
2762193.992 +1.1414627521E-001 +1.7452497461E+002  +6.8775880030E-003 +3.2124015581E+001  +5.9961884766E-003 +9.2483514377E+001  +7.8744483073E-001 -1.7901404095E+002 
2887339.174 +1.1374989463E-001 +1.6700911661E+002  +2.4348069759E-003 -1.2133955461E+002  +1.0241045101E-002 -1.6520511014E+002  +5.6435143602E-001 -8.9921255120E+001 
3012484.355 +1.1151379543E-001 +1.7607919875E+002  +3.5960197333E-003 +7.6881591011E+001  +1.2628590211E-002 -1.6155580182E+001  +3.4555668984E-001 -1.1445242570E+002 
3137629.537 +1.1327310965E-001 +1.6692834182E+002  +1.1535277025E-003 +2.8000826533E+001  +6.1358666751E-003 -1.1079406746E+002  +3.5694048324E-001 -1.0096562777E+002 
3262774.718 +1.2235456560E-001 +1.5351712975E+002  +6.6690914559E-003 +1.5436893220E+002  +1.0484658991E-002 +1.6657920356E+002  +2.6650704738E-001 +7.2443926601E+001 
3387919.900 +1.2513074702E-001 +1.5873177746E+002  +4.7756518704E-002 +8.2121930000E+001  +2.5302843733E-002 -9.9570513850E+001  +3.5750795870E+000 -1.4434737799E+002 
3513065.081 +9.6378352989E-002 +1.4943367746E+002  +5.8716457534E-002 +6.9762744554E+001  +5.3556600315E-002 -1.3911986472E+002  +2.0288422362E+000 -7.8113016695E+001 
3638210.263 +1.5018835002E-001 +1.3936736374E+002  +9.9409511556E-003 -1.1760232084E+002  +1.1871170811E-002 -1.4724842266E+002  +6.0861102557E-001 +1.3887499982E+002 
3763355.444 +1.7501718227E-001 +1.5170038707E+002  +1.9968640622E-003 +1.3612050125E+002  +1.7171446191E-002 +1.2885590513E+002  +5.1224538633E-001 +1.3768312561E+002 
3888500.626 +1.8106993199E-001 +1.4982948756E+002  +3.1884725429E-003 +9.2726235147E+001  +1.6482404696E-002 -1.3586309080E+002  +4.9768386544E-001 +1.1434478755E+002 
4013645.807 +1.9865181448E-001 +1.3455765241E+002  +1.5754311954E-003 +5.4049280700E+001  +2.4443717026E-002 +1.4504068267E+002  +3.2919161820E-001 +1.0119015491E+002 
4138790.989 +1.7631898720E-001 +1.4842629192E+002  +1.6209871372E-002 -1.4846431485E+002  +3.5547458213E-003 +1.0578475758E+002  +4.4384001355E-001 +1.2381537851E+002 
4263936.170 +2.3647127850E-001 +1.4834727060E+002  +6.1993406778E-003 +6.7595947080E+000  +1.1098481033E-002 +7.7068619322E+001  +4.3105401376E-001 +1.3158156922E+002 
4389081.352 +2.3457113743E-001 +1.4238873807E+002  +1.7286852779E-002 +4.0388107417E+001  +2.2753972436E-002 +1.6553372754E+001  +9.6283984486E-001 +7.9465166422E+001 
4514226.533 +2.6394287561E-001 +1.2946218091E+002  +4.6463235111E-002 +1.2058416191E+002  +1.1321672543E-002 -6.3725540424E+001  +1.4645765378E+000 +1.0155249559E+002 
4639371.715 +2.4469760118E-001 +1.3567057817E+002  +2.4100103144E-002 -8.4527261775E+001  +7.0990997235E-003 -4.0125293773E+001  +1.2252247765E+000 +3.8293562909E+001 
4764516.896 +3.7727774716E-001 +1.1910312770E+002  +4.1570098335E-002 +1.4082360597E+002  +4.7071951699E-002 +7.5785645366E+001  +1.3581048923E+000 -2.6541671006E+000 
4889662.078 +3.3517236979E-001 +1.2613373546E+002  +1.0369418360E-002 -1.1869854311E+001  +7.8402992453E-002 -1.0482542131E+002  +4.4369748274E+000 -1.7465387707E+002 
5014807.259 +3.9136457738E-001 +1.2240199417E+002  +6.9203801455E-002 +1.5505384931E+002  +2.7242456358E-002 +8.8159242935E+000  +6.2556481950E+000 -6.3774025304E+001 
5139952.441 +4.7548869261E-001 +1.3662032796E+002  +1.0965433515E-001 +3.7334916534E+001  +6.2074641609E-002 +8.8489173248E+001  +6.0222640598E+000 -6.9697175550E+001 
5265097.622 +4.2770225236E-001 +1.3606389633E+002  +1.2902346160E-002 +1.2762040684E+002  +2.1523409215E-002 -1.6528186524E+002  +2.5354240296E+000 +1.0850392828E+002 
5390242.804 +4.4177664041E-001 +1.4209605736E+002  +4.1594997046E-002 +1.5693523267E+002  +2.2819983448E-001 +6.5072466118E+001  +1.7858596991E+001 -3.5284032974E+001 
5515387.985 +4.1042069732E-001 +1.2775279153E+002  +2.4063601205E-002 -9.3049622526E+001  +4.0931217343E-002 -1.3271608597E+002  +2.4784661354E+000 +8.9552952993E+001 
5640533.166 +4.1541652560E-001 +1.3158378665E+002  +6.4284435401E-003 -8.0876719582E+001  +3.6597908402E-002 -1.6227600120E+001  +3.3301039812E+000 +5.9561828909E+001 
5765678.348 +4.7145345579E-001 +1.3030277445E+002  +2.3985943633E-002 +1.5682175754E+002  +1.3163127480E-002 -1.2900711086E+002  +1.8458083393E+000 +8.3149086208E+001 
5890823.529 +6.0341200729E-001 +1.2477863791E+002  +2.0642106625E-002 -1.4172621938E+002  +1.6319220932E-002 -1.5929189176E+002  +2.0075190780E+000 +5.0238088959E+001 
6015968.711 +5.9111109047E-001 +1.2140555109E+002  +4.3634477771E-002 +1.1497868517E+002  +7.2121919657E-003 -1.6838405154E+002  +1.3224958902E+000 +3.7801873824E+001 
6141113.892 +7.4027007028E-001 +1.0847031260E+002  +1.4338775984E-002 +7.7225197434E+001  +8.1920423817E-003 +6.2440716799E+001  +1.6995765878E+000 +2.8554422822E+001 
6266259.074 +8.4964605712E-001 +1.0855617207E+002  +1.5740076981E-002 +1.4642830084E+000  +1.2193906128E-002 -9.4117217956E+001  +1.9568686580E+000 +4.2001703604E+001 
6391404.255 +1.2883563073E+000 +8.1761822859E+001  +1.9359246516E-002 +1.1133125317E+002  +5.0231734207E-002 -4.0391542801E+001  +1.4367618010E+000 +6.2127499360E-001 
6516549.437 +1.3340409706E+000 +9.1278005870E+001  +3.6049023437E-003 -9.5556211132E+001  +3.0940864254E-002 -1.3404545524E+002  +1.6834349913E+000 +2.1295809608E+001 
6641694.618 +1.6467595101E+000 +8.4100217490E+001  +3.2323725312E-002 +4.8592290142E+001  +2.3364029034E-002 +1.4357958183E+002  +1.1864441125E+000 -1.6157504293E-001 
6766839.800 +1.8009684858E+000 +5.8874828422E+001  +1.4764168141E-002 -6.5612160290E+001  +8.0997123752E-003 +1.7984471915E+002  +1.1817855779E+000 -1.3157753638E+000 
6891984.981 +1.9940125995E+000 +5.7388336363E+001  +4.1205332798E-002 +3.8042486872E+001  +1.8070241930E-002 +1.5564016310E+002  +1.2394778949E+000 +1.8542089018E+000 
7017130.163 +1.5978532797E+000 +2.4612513958E+001  +8.9720815445E-003 +2.3036927330E+001  +1.5795878807E-002 +6.9187485845E+001  +1.1510634151E+000 -9.7288728020E+000 
7142275.344 +1.8615807326E+000 +1.7750932107E+001  +1.7534199404E-002 +1.2209011747E+002  +6.1500582040E-003 +3.9910365451E+001  +1.4794351050E+000 -1.5743630489E+001 
7267420.526 +1.7387557297E+000 +1.5548300527E+000  +1.6125999230E-002 +1.0260638014E+002  +1.2874712256E-002 +1.1254239328E+002  +1.3429309207E+000 -4.8281805590E+000 
7392565.707 +1.3162191088E+000 +8.8413168400E-002  +8.3450650070E-003 +1.2928815029E+002  +1.0654069568E-002 +6.6075270814E+001  +1.3830148372E+000 -7.6335636671E+000 
7517710.889 +1.1691792860E+000 +8.8376794545E-001  +2.7405828760E-003 +9.3257173328E+001  +4.1781590558E-003 +1.2353035917E+002  +1.2373111893E+000 -7.7484762535E+000 
7642856.070 +1.0185770404E+000 -4.0180962301E+000  +9.2710952125E-003 +7.1315058040E+001  +5.3338429037E-003 +1.2072447178E+002  +1.1649235573E+000 -5.3609953416E+000 
7768001.252 +9.5449518049E-001 +5.2148031163E+000  +1.2354948632E-002 +6.0299080746E+001  +1.7676311703E-003 +1.5520230779E+002  +1.0035310914E+000 -3.0936121306E+000 
7893146.433 +8.7668353641E-001 +9.7134987500E+000  +7.4144486113E-003 +7.7160654997E+001  +5.0812689699E-003 +1.0459029741E+002  +1.0036665389E+000 -2.6698713761E+000 
8018291.615 +8.5636521029E-001 +5.3237796306E+000  +1.4292375854E-002 +1.0489978532E+002  +5.4783858191E-003 +6.7899506583E+001  +9.3001973528E-001 -3.4824511030E+000 
8143436.796 +7.9815615254E-001 +7.5716036691E+000  +3.8431164386E-003 +7.7225545172E+001  +1.0694716149E-002 +6.2622481099E+001  +8.0579372257E-001 -3.3664338472E+000 
8268581.977 +7.5221322817E-001 +1.2628445620E+001  +2.3773279561E-003 +6.5184064343E+001  +4.0125356786E-003 +1.4253938818E+002  +8.4031420121E-001 -7.4565317960E-001 
8393727.159 +6.4990399548E-001 +9.3123795088E+000  +3.8454089065E-003 +7.0283802400E+001  +3.8457455306E-003 +1.0703012858E+002  +6.9621012186E-001 +2.3564799636E+000 
8518872.340 +6.8587287778E-001 +7.2694678203E+000  +6.3052237665E-003 +9.7855778113E+001  +6.1059827700E-003 +5.3182835023E+001  +7.1760642695E-001 -7.4363964211E-001 
8644017.522 +6.9393218214E-001 +1.2487449236E+001  +5.0692398155E-003 +6.6522851967E+001  +7.3884054259E-003 +3.7612945633E+001  +7.0578302266E-001 +1.8816963472E+000 
8769162.703 +6.2245079970E-001 +5.2747900847E+000  +4.3346834860E-003 +1.1605513878E+002  +3.7969893670E-003 +7.7643868740E+000  +6.7320585678E-001 -1.1324541022E+000 
8894307.885 +5.8788490241E-001 +2.3305212977E+000  +4.0523769587E-003 +1.1954192175E+002  +7.1193516149E-003 +8.0745300063E+001  +6.4347062003E-001 -6.0765327337E+000 
9019453.066 +6.6705177357E-001 +4.1416638104E+000  +6.7186294924E-003 +8.7125253085E+001  +4.7587518415E-003 +5.6401187192E+001  +5.8049847784E-001 -4.1894516210E-001 
9144598.248 +6.2104799236E-001 +7.1160547973E+000  +1.3100008981E-003 +1.2333872245E+002  +7.0820058457E-003 +1.0846630435E+002  +6.6375277877E-001 +9.2294124352E-001 
9269743.429 +5.8246695650E-001 +4.7469144325E+000  +3.1055359395E-003 +3.2873916423E+001  +4.2425904662E-003 +1.2395950601E+002  +6.3018142030E-001 -5.8189596209E+000 
9394888.611 +5.5407476814E-001 +5.4242334266E+000  +2.0939894129E-003 -3.5517062545E+000  +4.0593069680E-003 +3.6615783490E+001  +6.3203759678E-001 +1.1913736995E+000 
9520033.792 +5.4047442409E-001 +4.2831049978E+000  +1.8850769284E-003 +1.5328865655E+002  +2.6929673475E-003 +1.9846750466E+001  +6.0763393989E-001 -4.4506542741E+000 
9645178.974 +5.6625090727E-001 +3.2287038695E+000  +5.9581698183E-003 +5.5264851288E+001  +3.3287896958E-003 +1.0216035814E+002  +5.9689559980E-001 -8.0146814222E+000 
9770324.155 +5.5532190313E-001 +2.4487236843E+000  +2.2045617803E-003 +5.0733870074E+001  +6.4240995596E-003 +6.4055868156E+001  +5.8419815834E-001 -5.4954739483E+000 
9895469.337 +5.8132894690E-001 +2.8399384381E+000  +3.7900965730E-003 +4.1500592214E+001  +2.9777597216E-003 -1.5580166847E+002  +5.4151833599E-001 +1.7850309884E-001 
10020614.518 +5.1634140399E-001 -1.8725493538E-001  +5.4132485163E-003 +9.8129716027E+001  +6.1606560609E-003 +1.2448415250E+002  +5.6373957771E-001 -4.1638669777E+000 
10145759.700 +5.3351392621E-001 +1.2779485046E+000  +1.9489575919E-003 +7.5111635672E+001  +4.5912777449E-003 +1.1350489039E+002  +5.8891435798E-001 -5.4942036770E+000 
10270904.881 +5.3801915581E-001 +4.3230751260E+000  +6.6414691111E-003 +9.8456612440E+001  +5.8124720139E-003 +1.2583996588E+002  +5.5727207800E-001 -5.4463439848E+000 
10396050.063 +5.3293385816E-001 +4.0442425436E+000  +2.5882808054E-003 +9.1863854302E+001  +3.9629800737E-003 +7.2611143069E+001  +5.9891689158E-001 -3.5820026242E+000 
10521195.244 +5.6870642183E-001 +7.1196066391E+000  +5.7348731378E-003 +6.6395542586E+001  +5.3223657692E-003 +1.0669978200E+002  +5.5814661834E-001 +1.3359472283E+000 
10646340.426 +5.7230033931E-001 +5.5621903242E+000  +1.6858118283E-003 +8.4265723970E+001  +2.7571934034E-003 +1.1025839777E+002  +5.5827604788E-001 +1.7622376012E+000 
10771485.607 +5.4165968369E-001 +3.5627887818E+000  +5.5804303686E-003 +1.0536385145E+002  +5.0747927992E-003 +9.6950832216E+001  +5.7922197579E-001 -2.5693368849E+000 
10896630.788 +5.8363151585E-001 +5.4415644555E+000  +5.2862061377E-003 +7.9399434239E+001  +5.0734552406E-003 +1.2652862506E+002  +6.0911376103E-001 +1.7102211826E+000 
11021775.970 +5.8236932641E-001 +8.8163507749E+000  +3.2108278496E-003 +8.3007673083E+001  +3.9822487308E-003 +5.8227113823E+001  +6.0495496813E-001 -2.3610006128E-001 
11146921.151 +5.9823491650E-001 +7.2831434687E+000  +6.3921134526E-003 +8.3714951052E+001  +5.8363077054E-003 +8.1375856036E+001  +6.2420059045E-001 +1.1329108337E+000 
11272066.333 +5.9803337249E-001 +8.2499188941E+000  +4.5492088498E-003 +9.8146288388E+001  +3.4050957352E-003 +1.1058536300E+002  +6.2320550671E-001 +5.0765224009E-001 
11397211.514 +6.0894118698E-001 +6.3440498474E+000  +6.1158314198E-003 +8.0438061704E+001  +6.9151405810E-003 +1.1852240693E+002  +6.0158609779E-001 -1.1937220815E-001 
11522356.696 +6.1301079254E-001 +8.4996180367E+000  +5.4755849243E-003 +9.0062910367E+001  +2.9934179672E-003 +1.2373441946E+002  +6.7744602769E-001 +4.8448876830E-001 
11647501.877 +6.2892975952E-001 +5.0566280441E+000  +3.4971276553E-003 +6.4068213746E+001  +4.2948121145E-003 +1.0964252038E+002  +6.5324749124E-001 +1.0924928891E+000 
11772647.059 +6.3706032897E-001 +4.2833214433E+000  +4.0811040475E-003 +1.1026592880E+002  +4.6946766516E-003 +1.1020057451E+002  +6.6185731384E-001 +3.4484103954E-001 
11897792.240 +6.7787955828E-001 +5.5631889919E+000  +4.5238954697E-003 +1.1572272463E+002  +5.7837061954E-003 +1.0157107219E+002  +6.8073494956E-001 +4.3472874406E-002 
12022937.422 +6.4610947079E-001 +3.5864257613E+000  +4.2384151250E-003 +9.9135932379E+001  +6.7489997789E-003 +1.0529739801E+002  +6.7035799577E-001 -1.9908324079E-001 
12148082.603 +6.7542500378E-001 +3.1905939358E+000  +6.9963851715E-003 +9.1315631137E+001  +5.4939339852E-003 +7.5792547196E+001  +6.9648986322E-001 +1.6337145459E+000 
12273227.785 +7.1600414414E-001 +2.2537554638E+000  +5.8046398600E-003 +9.5811647018E+001  +5.6596728438E-003 +9.0819730099E+001  +6.8525562152E-001 +1.8160529422E-002 
12398372.966 +7.0748894692E-001 +1.8370995844E+000  +6.0684402729E-003 +9.7477153105E+001  +4.3875244911E-003 +1.0454408332E+002  +7.2561807093E-001 +2.4461842057E-002 
12523518.148 +7.4956851985E-001 +2.4637763868E+000  +6.1578300281E-003 +8.5461310403E+001  +6.8350546558E-003 +8.6893070579E+001  +7.4271666052E-001 +5.6964192406E-001 
12648663.329 +7.2984869360E-001 -1.3338253185E-001  +6.4076034504E-003 +7.9923440109E+001  +6.7210996333E-003 +9.8334783796E+001  +7.6075917495E-001 +2.6352678478E-001 
12773808.511 +7.7369079102E-001 +1.0676546003E+000  +4.6780984285E-003 +9.4763235316E+001  +7.1433478546E-003 +1.0990055171E+002  +7.7038765512E-001 -9.9810836187E-001 
12898953.692 +7.7681439719E-001 +4.6916758770E-001  +3.8575250165E-003 +8.8811420991E+001  +7.9764826566E-003 +1.0771030853E+002  +7.7207074143E-001 -1.7383539104E-002 
13024098.874 +7.7104003884E-001 +6.2810045935E-001  +7.4568002085E-003 +9.0950947083E+001  +7.9942939786E-003 +1.0009977443E+002  +8.0468164596E-001 -3.0460621535E-001 
13149244.055 +7.6735447552E-001 +1.1016792461E+000  +4.6745801547E-003 +1.2384031334E+002  +5.7958493123E-003 +1.0224782549E+002  +8.2188355651E-001 -2.0624980426E+000 
13274389.237 +8.3286192573E-001 -5.0763513018E-001  +4.9445688049E-003 +1.0428594409E+002  +6.8008441869E-003 +9.5902133371E+001  +8.1841646770E-001 -3.7547990764E+000 
13399534.418 +8.0944800086E-001 -8.9773692642E-001  +7.5480540173E-003 +9.6211499113E+001  +4.6913303840E-003 +8.9378712074E+001  +8.6057872160E-001 -2.9939402062E+000 
13524679.599 +8.6515215784E-001 -2.0786010715E+000  +7.1750082786E-003 +9.4279712301E+001  +7.3593436490E-003 +1.0627148283E+002  +8.8304930833E-001 -2.9544596568E+000 
13649824.781 +8.5655231958E-001 -1.0092267493E+000  +7.3119218019E-003 +8.9453028206E+001  +6.9986126095E-003 +9.6361569512E+001  +8.8375355835E-001 -2.0011266119E+000 
13774969.962 +8.7994014862E-001 -2.6090120278E+000  +6.6921469721E-003 +8.6535849135E+001  +7.3787068920E-003 +8.8613636945E+001  +8.9087883502E-001 -3.4127285906E+000 
13900115.144 +9.2104070995E-001 -3.0096073255E+000  +7.2186794229E-003 +9.0463401986E+001  +7.0920119937E-003 +9.1677207013E+001  +9.0901333685E-001 -3.7031302955E+000 
14025260.325 +9.2034550208E-001 -2.7729831700E+000  +7.6975678984E-003 +8.0325113024E+001  +7.2163871795E-003 +8.3163767682E+001  +9.5697174859E-001 -3.9793696017E+000 
14150405.507 +9.2628320010E-001 -3.5940523590E+000  +7.5434163548E-003 +8.4818368136E+001  +8.3992939050E-003 +8.9234861244E+001  +9.5259018980E-001 -4.2977382056E+000 
14275550.688 +9.6583308608E-001 -4.3915636604E+000  +7.6977830772E-003 +8.7139999419E+001  +8.2264275478E-003 +9.4782024004E+001  +9.8570699325E-001 -4.9428795203E+000 
14400695.870 +9.6168371156E-001 -5.8314985367E+000  +8.3145356927E-003 +9.6489583112E+001  +7.1576479832E-003 +1.0412436599E+002  +9.9363938872E-001 -5.2777856139E+000 
