!  2-Port S-parameters saved by WinCal
! VAR MeasName=S-Parameters (CALIBRATED_DATA) read from VNA (P5004A)
! VAR MeasDate=28/08/2024 10:50:53
! VAR NAME=S2_r5c9_RESET2_9k-100M_2
! VAR FILENAME=S2_r5c9_RESET2_9k-100M_2.S2P
! VAR DATE=28/08/2024 10:50:53
! VAR PHYS_PORTS=1,2
! VAR ObjTypeName=DATASET
! VAR IndexType=Frequency
!
# Hz S MA R 50
9000.000 +8.5233593201E-002 -1.5189174783E+002  +3.8646739741E-002 -7.8495236878E+001  +1.3542247188E-002 -4.1350395927E+001  +3.5484766969E-001 -1.0750814450E+002 
134145.181 +1.1139559227E-001 +1.6959151117E+002  +3.5542389258E-004 -3.3569965094E+001  +1.6656499046E-004 -6.3782243166E+001  +2.4143938427E-001 -1.7141596368E+002 
259290.363 +1.1139206356E-001 +1.6978560694E+002  +3.6098282415E-004 +7.7460742245E+001  +6.0799508300E-004 -6.4298239622E+001  +2.3805117585E-001 -1.6919719207E+002 
384435.544 +1.1441220518E-001 +1.7044138163E+002  +2.9267580564E-004 +9.0250526578E+000  +2.6679279085E-004 -5.9923701172E+001  +2.4602876622E-001 -1.6885009855E+002 
509580.726 +1.1520028129E-001 +1.7143555701E+002  +2.0169215619E-004 +9.3646088879E+001  +1.1582770928E-003 +1.4262653922E+002  +2.5569759803E-001 -1.6559121215E+002 
634725.907 +1.1587891308E-001 +1.7078419061E+002  +3.4952012844E-004 -3.1914584116E+001  +1.8260795984E-003 +9.0637294687E+001  +2.5145023661E-001 -1.6539398215E+002 
759871.089 +1.1950303523E-001 +1.7118427912E+002  +9.1172568102E-004 +1.1246512418E+002  +5.9141243133E-004 +5.1251485635E+001  +2.4651753929E-001 -1.6775864506E+002 
885016.270 +1.1910937132E-001 +1.6927801411E+002  +1.3381264907E-004 +4.8547149357E+001  +3.4493848284E-004 +2.1590388023E+001  +2.4038110983E-001 -1.6624813249E+002 
1010161.452 +1.1333585411E-001 +1.7308669315E+002  +7.1496219805E-004 -3.7913725860E+000  +6.6481663414E-004 +5.5110146370E+000  +2.1058702176E-001 -1.6597235157E+002 
1135306.633 +1.1998783931E-001 +1.6867687271E+002  +1.1517502349E-003 -6.4208996230E+001  +5.2122584909E-004 -1.2938978520E+002  +1.9426225974E-001 -1.5648168821E+002 
1260451.815 +1.2129869015E-001 +1.7226801673E+002  +8.8827733575E-004 +1.4725939054E+002  +1.5966879392E-003 -9.6383646947E+001  +2.1569809472E-001 -1.5990119873E+002 
1385596.996 +1.2717734657E-001 +1.7318115776E+002  +1.5643279105E-003 +1.4071286628E+002  +5.1713798401E-004 +2.2190820430E+001  +2.6985927541E-001 -1.5711472806E+002 
1510742.178 +1.2755280648E-001 +1.7247861508E+002  +9.8482063566E-004 -1.3705384377E+002  +1.5542961117E-004 +1.3994709054E+002  +2.6992899247E-001 -1.5998029006E+002 
1635887.359 +1.2970803207E-001 +1.7032649584E+002  +4.4974998699E-005 -1.1597883038E+002  +6.4198430777E-004 -8.6729682794E+000  +2.4008203857E-001 -1.5985968355E+002 
1761032.541 +1.3130554524E-001 +1.7055813115E+002  +8.4900885572E-004 -1.7255433602E+002  +1.2132201700E-003 -7.2760847831E+001  +1.9778457468E-001 -1.5651175552E+002 
1886177.722 +1.2973759655E-001 +1.6923898516E+002  +8.0322546327E-004 -1.3060892457E+002  +2.5134998880E-003 -1.1768736008E+002  +1.8178735044E-001 -1.5622526264E+002 
2011322.904 +1.3025528489E-001 +1.7114127723E+002  +9.1951095350E-004 -1.5421457273E+002  +3.5054657371E-003 +1.7133634784E+002  +2.0826034546E-001 -1.5205317112E+002 
2136468.085 +1.2062150826E-001 +1.6514948021E+002  +6.0685556635E-003 -1.8629165273E+001  +6.2635052391E-003 -3.4523787716E+001  +1.3245568417E-001 -1.6992719766E+002 
2261613.267 +1.3438660991E-001 +1.6521870507E+002  +1.3001911340E-003 -3.9782430562E+001  +5.5445252031E-004 +1.3587313537E+002  +1.7590402205E-001 -1.7537521363E+002 
2386758.448 +1.3116590538E-001 +1.6740027651E+002  +1.4857994835E-003 +3.7820126909E+001  +4.9583148108E-003 +9.2605771314E+001  +1.8343971563E-001 +1.7986157327E+002 
2511903.630 +1.2799827679E-001 +1.6091633330E+002  +7.4508563134E-003 +6.9582001290E+001  +7.0283886579E-003 -1.0004310110E+002  +1.6508501041E-001 +1.3491112489E+002 
2637048.811 +1.1551573086E-001 +1.6257341151E+002  +1.0083638053E-002 -1.7624901007E+001  +6.0951303733E-003 -2.1744746470E+001  +1.5446653491E-001 +1.5570650807E+002 
2762193.992 +1.2299142004E-001 +1.7638274369E+002  +6.2077611542E-002 +1.0648469024E+002  +2.8378829043E-002 -1.1075665366E+002  +1.6277379172E+000 +7.7740422489E+001 
2887339.174 +1.1607210188E-001 +1.6339248431E+002  +8.8993932397E-003 +7.3279663236E+001  +1.4829724524E-002 -5.4367427604E+001  +2.5523173020E-001 -9.0728229433E+001 
3012484.355 +1.3085788194E-001 +1.7782427888E+002  +6.9064646933E-003 +7.9090437437E+001  +5.8780968566E-003 -8.2501621807E+000  +3.2889115958E-001 -1.1003242220E+002 
3137629.537 +1.3660256589E-001 +1.6977608722E+002  +6.4878670633E-003 -1.0517035349E+002  +1.7502290309E-003 -8.7461545238E+001  +2.4130495844E-001 -1.0264541274E+002 
3262774.718 +1.3315895358E-001 +1.7025443299E+002  +5.1814063865E-003 -3.7442775106E+001  +2.4957243882E-002 -1.7367618739E+002  +7.8988589257E-001 +9.1001702454E+001 
3387919.900 +1.2538031225E-001 +1.6752740599E+002  +2.1753033629E-002 -1.2214614608E+002  +2.4839322401E-002 -3.9524068056E+001  +4.5205414014E-001 +6.6394912366E+000 
3513065.081 +1.0968064137E-001 +1.4620315381E+002  +1.7625350598E-002 -8.1222483139E+001  +2.5764823384E-002 -1.1448778107E+001  +4.2033042069E-001 +4.6540524950E+001 
3638210.263 +1.6513728672E-001 +1.3721572481E+002  +8.5459747276E-003 +4.5424895430E+000  +3.1298116312E-002 +1.7629175137E+002  +8.1318410979E-001 +1.2969059442E+002 
3763355.444 +1.3553011773E-001 +1.5191359818E+002  +1.1780764597E-002 -3.1972895071E+001  +1.5391333523E-002 -3.7667662501E+001  +4.5063946931E-001 +1.3711796808E+002 
3888500.626 +1.7911633189E-001 +1.5300337066E+002  +8.6233930465E-003 -3.2751105679E+001  +7.4331529216E-003 +1.0573935521E+002  +2.3355008908E-001 +1.4699019088E+002 
4013645.807 +1.6850555151E-001 +1.4891228060E+002  +1.0727384792E-002 -1.5625516416E+002  +1.4635759524E-002 +5.6681129352E+001  +6.8851507764E-001 +9.1184690176E+001 
4138790.989 +1.7944915865E-001 +1.5299746221E+002  +4.8093662662E-003 -8.7787924481E+001  +7.8180075892E-003 +1.7058724395E+002  +2.4880926763E-001 +1.1276237537E+002 
4263936.170 +1.7804016637E-001 +1.4301054626E+002  +1.0835030115E-002 -1.1995036164E+002  +4.8671784943E-003 +8.2325450379E+001  +4.0705307347E-001 +1.0822252617E+002 
4389081.352 +2.1458837433E-001 +1.4517027976E+002  +2.1701534401E-002 +1.7017094486E+002  +2.3901379975E-002 +1.5240390312E+002  +1.7304016749E+000 +1.3147059766E+002 
4514226.533 +2.6078690019E-001 +1.3230438312E+002  +1.0972293932E-002 -7.6346805768E+001  +9.3938445021E-003 -4.5549587080E+001  +6.4026570075E-001 +1.0490483196E+002 
4639371.715 +3.3673585277E-001 +1.4043923628E+002  +2.3676244223E-002 +1.6493141215E+002  +2.5044930792E-002 -1.2549192476E+002  +1.7927853710E+000 +1.5579148400E+002 
4764516.896 +3.4835421964E-001 +1.1592990305E+002  +1.2011901057E-002 -1.2349318179E+002  +2.7106678925E-002 -1.7373617912E+002  +1.8807253554E+000 -1.0683548047E+002 
4889662.078 +3.8460201798E-001 +1.3516276224E+002  +2.2489644630E-002 +5.0225576018E+001  +1.4530341601E-002 -1.6931902064E+002  +1.9365626506E+000 -1.1249609198E+002 
5014807.259 +4.0264184780E-001 +1.3788176565E+002  +3.0146690014E-002 +1.9506584211E+000  +4.6658626735E-002 -4.6794213507E+001  +3.9593450128E+000 +1.7068132721E+002 
5139952.441 +3.2275152573E-001 +1.2225719638E+002  +3.7295361585E-003 -4.4312167228E+001  +1.8344442596E-002 +7.8660958806E+001  +2.0052747964E+000 +1.1406591402E+002 
5265097.622 +4.0263322717E-001 +1.2426245656E+002  +2.6121458545E-002 +3.7784394821E+001  +9.3282729102E-003 -1.6888826490E+002  +1.6966024722E+000 +1.1830494058E+002 
5390242.804 +3.1612335863E-001 +1.3046909570E+002  +9.5382651604E-003 -1.6435130621E+001  +1.4146433329E-002 +8.8888494279E+001  +1.6914756309E+000 +4.0426745777E+001 
5515387.985 +4.5749405723E-001 +1.2987114442E+002  +6.3715145948E-003 +1.3251458159E+002  +2.5036013672E-002 +1.1186945195E+002  +2.5120645076E+000 +6.0427595062E+001 
5640533.166 +4.5899137300E-001 +1.2600793188E+002  +1.3929898264E-002 +5.7635395561E+001  +4.6261715316E-003 +1.7313988256E+002  +3.5436094468E+000 +6.6185761724E+001 
5765678.348 +5.0976010200E-001 +1.2725396192E+002  +5.9547093269E-002 +1.1188715933E+001  +2.9306202951E-002 -6.3543164548E+001  +4.9089208240E+000 +5.8640105449E+001 
5890823.529 +4.8499938489E-001 +1.1986945118E+002  +1.3180984028E-002 -1.3205418831E+002  +2.0539376047E-002 -4.5488732356E+001  +1.6210364239E+000 +1.5436875865E+001 
6015968.711 +5.6543888513E-001 +1.1410228630E+002  +7.4981857464E-003 -1.5729675754E+002  +1.7677479250E-002 -3.7087915584E+001  +1.2765355172E+000 +3.4918300029E+001 
6141113.892 +7.5092200138E-001 +1.1061379153E+002  +2.5679063054E-002 +8.0714324763E+001  +1.4760732208E-002 +1.4132861905E+002  +2.2429302339E+000 +4.9524670997E+001 
6266259.074 +7.0953750359E-001 +9.8579156190E+001  +1.5873934731E-002 +1.1480075461E+002  +1.7955424951E-002 +1.5402368682E+002  +1.4778800282E+000 +4.3292574171E+001 
6391404.255 +1.0399464769E+000 +9.2929884188E+001  +9.0579453648E-003 -1.6261310463E+002  +6.9096778615E-003 +7.7754881605E+001  +1.2004636315E+000 +1.1902003022E+001 
6516549.437 +1.3028809914E+000 +7.9918951877E+001  +2.0516576398E-002 -6.0523287750E+000  +5.9154241510E-003 +1.3537855048E+002  +1.1441357240E+000 +5.3454330855E+000 
6641694.618 +1.4763441042E+000 +7.3986971661E+001  +2.5258702876E-002 -1.5924640714E+002  +1.9810337270E-002 +9.6421034891E+001  +1.3453253057E+000 -2.7069329663E+000 
6766839.800 +1.5412495981E+000 +4.6489296135E+001  +1.4978927424E-002 +1.2822502287E+002  +1.1403568318E-002 +5.5760856060E+001  +1.4126882045E+000 +7.8641471638E+000 
6891984.981 +1.7046551033E+000 +2.0986272154E+001  +3.8671507140E-002 +6.6151701621E+001  +3.8682710053E-002 +1.1184997642E+002  +1.3356649600E+000 -9.0852574906E+000 
7017130.163 +1.7609443633E+000 +2.3877639157E+001  +1.6830605143E-002 +1.0214552392E+002  +1.0370996849E-002 -3.2788476524E+001  +1.3193749170E+000 -2.4463704430E+000 
7142275.344 +1.6273041183E+000 +1.0186516478E+001  +1.6227052042E-002 +2.3243457677E+001  +1.3535778847E-002 -8.6605520128E+000  +1.3249788859E+000 -1.3927999899E+001 
7267420.526 +1.2579850163E+000 +1.3937793683E+000  +1.2910119089E-002 +3.5456189066E+001  +1.0774063126E-002 +5.1533585537E+001  +1.2074291271E+000 -6.5369839055E+000 
7392565.707 +1.1624441707E+000 -3.3465283629E+000  +9.7899696366E-003 +9.2039388018E+000  +1.3023335449E-002 +2.0229843880E+001  +1.2294596537E+000 -6.1123113874E+000 
7517710.889 +1.2007087752E+000 +3.2737637465E+000  +3.3727214390E-003 +4.2303655799E+001  +3.7527978041E-003 +8.0439600720E+001  +1.2068133907E+000 -5.1183194372E+000 
7642856.070 +9.9620677789E-001 +6.3988238552E-001  +3.0331540545E-003 +6.8157711182E+001  +8.4882906520E-003 +1.2393131081E+002  +1.0570983655E+000 -3.9523680044E+000 
7768001.252 +9.0368126779E-001 -6.6162274877E-001  +4.1827713740E-003 -9.8452261253E+001  +6.7882503797E-003 -1.7394083329E+001  +1.0205659331E+000 -4.9782891382E+000 
7893146.433 +9.5993237069E-001 +4.2946503656E+000  +5.2053836417E-003 +1.7584742290E+002  +1.6274258241E-003 +1.0741498650E+002  +8.5485780890E-001 -3.2886141415E+000 
8018291.615 +9.2819991528E-001 +4.5018898495E+000  +9.2973564261E-003 +1.1122237692E+002  +6.0633516317E-003 -1.2101694856E+002  +9.5538725036E-001 -9.4654965104E-001 
8143436.796 +8.0629308150E-001 +1.2681883496E+001  +6.8680328648E-003 +5.6338200984E+001  +4.6836489562E-003 +1.5907200357E+001  +7.8078198104E-001 +9.7509153993E-001 
8268581.977 +7.2348550963E-001 +5.4215989246E+000  +6.6877293045E-004 +2.1461009012E+001  +3.8104000882E-003 +1.6923210881E+002  +7.7025738109E-001 -2.1041632451E+000 
8393727.159 +7.5562817380E-001 +8.1772462422E+000  +4.6691931025E-003 +5.0856678954E+001  +2.6737535864E-003 +1.7318180675E+002  +7.1130867886E-001 -1.4025508992E+000 
8518872.340 +6.5821092546E-001 +4.0892146518E+000  +3.1811559135E-003 -7.8565496059E+000  +7.3348317690E-003 +9.2812573837E+001  +7.8608552435E-001 +4.1324920798E+000 
8644017.522 +6.2897179515E-001 +1.0626612265E+001  +5.7730430076E-003 +7.2506846053E+001  +2.9198001847E-003 +1.3120548468E+002  +6.9372917379E-001 -8.2938859932E-002 
8769162.703 +6.7514066138E-001 +7.4042452494E+000  +7.8347424949E-003 +8.5817448438E+001  +1.5609518862E-003 +1.6573762727E+002  +6.6915606803E-001 -1.2183123394E+000 
8894307.885 +5.9761689930E-001 +3.5984614011E+000  +5.7624199349E-003 +7.0602650557E+001  +4.4730800842E-003 +7.8794040873E+001  +6.0613212460E-001 -1.4565039794E+000 
9019453.066 +6.1650326769E-001 +7.9718138840E+000  +8.6187439352E-003 +6.3138395060E+001  +6.9970757009E-003 +1.5496663244E+002  +6.5970606466E-001 -2.5241919891E+000 
9144598.248 +6.0697593840E-001 +6.3268930475E+000  +5.8626568999E-003 +5.5946001211E+001  +3.3087081350E-003 +4.2436330450E+001  +6.2514860452E-001 -4.7573361981E+000 
9269743.429 +5.5091696764E-001 +1.1309584933E+001  +4.0178659775E-003 +9.6292297307E+001  +2.5015974318E-003 +3.1920265916E+001  +6.3560536984E-001 -1.8727173593E+000 
9394888.611 +5.3087734095E-001 +3.8248916439E+000  +5.5776877751E-003 +4.3980593917E+001  +3.8046988382E-003 +7.5869649807E+001  +5.4366440277E-001 -3.4439141690E+000 
9520033.792 +5.1436699001E-001 +5.2123592196E-001  +5.4867920323E-003 +7.1907841322E+001  +4.7411063853E-003 +1.3728819674E+002  +5.7447742809E-001 -4.6123107413E+000 
9645178.974 +5.6627780390E-001 -1.2084369769E+000  +4.6268171107E-003 +4.3149025036E+001  +6.5710072905E-003 +9.4965809413E+001  +5.3727220938E-001 -3.0918265842E+000 
9770324.155 +5.8122170781E-001 -6.7969544454E-001  +1.1034095549E-003 +4.0643679248E+001  +5.1061956147E-003 +8.6174489796E+001  +5.7920089395E-001 -3.7526902404E+000 
9895469.337 +5.1399409363E-001 -2.1226174360E+000  +1.1024673996E-003 -4.6954562313E+000  +5.5287531434E-003 +1.1210956990E+002  +6.0512204960E-001 -6.8183413257E+000 
10020614.518 +5.6679850975E-001 +9.4837252372E-002  +5.3673780507E-003 +6.4100890629E+001  +7.4798514266E-004 -5.9920374826E+001  +5.8501760962E-001 -4.0265270082E+000 
10145759.700 +5.6066229016E-001 +4.1885454450E-001  +3.9454554221E-003 +8.5241254725E+001  +2.0376125278E-003 +1.0501781667E+002  +6.2526577111E-001 -3.2535791558E+000 
10270904.881 +5.3782091681E-001 +1.6845719364E+000  +4.4367654068E-003 +6.8119152369E+001  +3.8076579645E-003 +7.8981897856E+001  +5.7463212502E-001 -2.1619357220E+000 
10396050.063 +5.5446805608E-001 +5.2481804246E+000  +5.4874211965E-003 +5.7319706051E+001  +3.7926266360E-004 +1.5345606482E+002  +5.6763644063E-001 -2.3723375970E+000 
10521195.244 +5.8891079264E-001 +3.6367627647E+000  +5.9218036995E-003 +7.3701293103E+001  +5.2776307318E-003 +1.1116005211E+002  +5.8278941925E-001 -1.1313236214E+000 
10646340.426 +5.7745966928E-001 +4.9783213133E+000  +1.9859826741E-003 +9.2055725026E+001  +4.8531631655E-003 +7.7544720832E+001  +6.0636159205E-001 +4.2464801059E-001 
10771485.607 +5.6113113978E-001 +6.5819775592E+000  +6.2141426454E-003 +6.7567574439E+001  +2.0829339167E-003 +7.5397637390E+001  +6.3970755820E-001 +7.3408858085E-001 
10896630.788 +5.9938946741E-001 +8.0971527912E+000  +5.3676317889E-003 +8.0774216369E+001  +6.1102706988E-003 +1.0604140101E+002  +6.0736064677E-001 +2.5357494803E+000 
11021775.970 +5.9915427369E-001 +4.8562351260E+000  +4.9622243618E-003 +7.8590171193E+001  +3.3744198721E-003 +7.2370576566E+001  +6.2844654142E-001 +1.1417570149E+000 
11146921.151 +5.8501726015E-001 +5.6912091733E+000  +7.7610563176E-003 +8.4832422492E+001  +2.7119549987E-003 +7.5699148360E+001  +6.4157474451E-001 +2.0442055002E+000 
11272066.333 +5.7199566562E-001 +5.2979261525E+000  +5.0753324820E-003 +8.6433438813E+001  +7.4194790165E-003 +8.7894607411E+001  +6.3872791504E-001 -4.7237671531E-001 
11397211.514 +6.3622604289E-001 +6.2568248984E+000  +4.8820125210E-003 +1.1181383562E+002  +3.4711403380E-003 +8.8729654205E+001  +6.6257032274E-001 -8.1167933646E-001 
11522356.696 +6.4787490122E-001 +4.8794204582E+000  +3.4814766605E-003 +7.1192012205E+001  +3.7656801030E-003 +9.3940501548E+001  +6.4778655779E-001 +1.5984341214E+000 
11647501.877 +6.2239722115E-001 +7.3955732872E+000  +4.3808211269E-003 +5.8356933802E+001  +3.4314896764E-003 +7.9468166161E+001  +6.8009399314E-001 +1.4480495389E+000 
11772647.059 +6.5805635316E-001 +6.6586446890E+000  +5.4329169245E-003 +8.4923368079E+001  +4.3008970470E-003 +7.4382071422E+001  +6.8900796250E-001 +4.7867585209E-001 
11897792.240 +6.5604719235E-001 +7.8561909408E+000  +5.7449765885E-003 +7.1093316512E+001  +6.6663673594E-003 +9.0836828860E+001  +6.8136862730E-001 +1.9985481005E+000 
12022937.422 +6.7888371023E-001 +4.0287224627E+000  +4.5205529265E-003 +7.5701386235E+001  +5.6044113760E-003 +1.1448041156E+002  +6.9434990084E-001 -2.3890241756E-001 
12148082.603 +7.0382191460E-001 +5.1204013252E+000  +6.3158188957E-003 +7.7355923109E+001  +5.7136831087E-003 +9.7574088967E+001  +7.1162353440E-001 +6.3088213655E-001 
12273227.785 +7.0964296699E-001 +1.1045627718E+000  +5.4304286848E-003 +8.7242640306E+001  +5.5019601242E-003 +8.6821052700E+001  +7.1675636656E-001 -1.4853035876E+000 
12398372.966 +7.4610228558E-001 +4.5441144310E+000  +5.1523125349E-003 +8.7792129207E+001  +4.9108814213E-003 +9.4910223740E+001  +7.3697239923E-001 -2.7951181408E-001 
12523518.148 +7.0965786522E-001 +4.1651113031E+000  +5.8406880325E-003 +8.3371007321E+001  +6.0106180585E-003 +9.5285354942E+001  +7.4512458334E-001 -1.7093738717E+000 
12648663.329 +7.4190790950E-001 +3.8169648586E+000  +6.5760248356E-003 +7.8950087425E+001  +6.1016646729E-003 +9.4728041652E+001  +7.5975611448E-001 -1.3331764005E+000 
12773808.511 +7.5632567929E-001 +2.5106535106E+000  +3.8128493786E-003 +7.7112087000E+001  +6.1023853846E-003 +9.5705816362E+001  +7.8264849942E-001 -5.2912893039E-001 
12898953.692 +7.7343652224E-001 +1.3505282928E+000  +6.7498102765E-003 +6.9323613720E+001  +6.3143309213E-003 +7.8410440611E+001  +8.0464523329E-001 -2.5405527049E+000 
13024098.874 +8.0697779670E-001 -8.5539579489E-001  +7.7724705429E-003 +9.4307444413E+001  +5.5334006809E-003 +9.2784653250E+001  +7.7919721485E-001 -2.3806587144E+000 
13149244.055 +8.2091617649E-001 +8.5487952746E-001  +6.5203620783E-003 +8.5614398250E+001  +9.0391443670E-003 +8.3673632278E+001  +8.2213461344E-001 -1.3550041916E+000 
13274389.237 +8.1422600813E-001 -2.9381398175E-001  +7.5422111099E-003 +7.2701583679E+001  +5.7184743265E-003 +8.3263371730E+001  +8.2926101819E-001 -3.9176283700E-001 
13399534.418 +8.4399067776E-001 -1.8564269521E+000  +6.0054959484E-003 +6.8782163731E+001  +6.7126634863E-003 +8.1117654083E+001  +8.4081239045E-001 -3.5790554553E+000 
13524679.599 +8.3968387606E-001 -1.9992321869E-001  +6.8900602240E-003 +9.1134923883E+001  +4.8209493705E-003 +1.0118735299E+002  +8.8275972127E-001 -2.7403744596E+000 
13649824.781 +8.6951603763E-001 -2.0542654285E+000  +6.1443496329E-003 +7.0602293609E+001  +5.8764976723E-003 +9.8640673293E+001  +8.7525436219E-001 -1.9886974860E+000 
13774969.962 +9.1357292334E-001 -2.4773722021E+000  +5.1203598580E-003 +8.6571528561E+001  +6.2154640532E-003 +8.4511267128E+001  +8.8788778005E-001 -2.8635259879E+000 
13900115.144 +8.9796312824E-001 -3.7235859315E+000  +5.8372294009E-003 +9.0169244907E+001  +7.4467899806E-003 +7.2878825774E+001  +9.1118240904E-001 -2.1610126909E+000 
14025260.325 +9.1376632106E-001 -3.9427844473E+000  +8.2531067947E-003 +8.3604289281E+001  +6.7678161059E-003 +8.8543854337E+001  +9.3545873215E-001 -2.6131591229E+000 
14150405.507 +9.3273222611E-001 -4.8351392391E+000  +7.7910605755E-003 +8.4009047017E+001  +7.6753101889E-003 +7.7221045096E+001  +9.5170143091E-001 -3.3824674069E+000 
14275550.688 +9.5722530450E-001 -5.7509340543E+000  +6.6049208606E-003 +7.5421573978E+001  +8.5478502193E-003 +7.5505474718E+001  +9.7402684368E-001 -4.6620955323E+000 
14400695.870 +1.0008500582E+000 -5.7904077459E+000  +6.1006275845E-003 +7.6927385922E+001  +6.2057856050E-003 +8.6255765557E+001  +9.9281450689E-001 -4.4133462604E+000 
