!  2-Port S-parameters saved by WinCal
! VAR MeasName=S-Parameters (CALIBRATED_DATA) read from VNA (P5004A)
! VAR MeasDate=28/08/2024 16:25:50
! VAR NAME=S2_r8c9_SET1_9k-100M_3
! VAR FILENAME=S2_r8c9_SET1_9k-100M_3.S2P
! VAR DATE=28/08/2024 16:25:50
! VAR PHYS_PORTS=1,2
! VAR ObjTypeName=DATASET
! VAR IndexType=Frequency
!
# Hz S MA R 50
9000.000 +8.5935082519E-002 -1.6520110630E+002  +1.0192604555E-002 -1.3714515694E+002  +6.1154441545E-003 +1.5588329940E+002  +2.7850233360E-001 -1.5177196363E+002 
134145.181 +1.1085616005E-001 +1.6955291668E+002  +3.1651633264E-004 -7.8958927143E+001  +3.2554089321E-004 -2.4023346158E+001  +2.4402016163E-001 -1.6959692594E+002 
259290.363 +1.1254099520E-001 +1.6974136024E+002  +3.3417147662E-004 +1.7017872852E+002  +7.1559272438E-004 -8.4813996975E+000  +2.4000942504E-001 -1.6884195994E+002 
384435.544 +1.1292032113E-001 +1.7007031041E+002  +6.6278054763E-004 +9.8066133414E+001  +1.1348205669E-003 -6.3084959608E+001  +2.3939218249E-001 -1.6911806329E+002 
509580.726 +1.1254018996E-001 +1.7006237394E+002  +8.0964786456E-004 +2.1366845473E+001  +9.8079511112E-004 +2.0838639610E+001  +2.4399875531E-001 -1.6712081539E+002 
634725.907 +1.1774007622E-001 +1.7193121276E+002  +1.0638893422E-004 +4.3875314337E+001  +8.2990080222E-004 +2.7043537960E+001  +2.5356882006E-001 -1.6632340688E+002 
759871.089 +1.1797400696E-001 +1.7153699376E+002  +4.8595065898E-004 -1.7596492628E+002  +4.0564104025E-004 +8.1669658778E+001  +2.4677806844E-001 -1.6526367952E+002 
885016.270 +1.1964216307E-001 +1.6947702040E+002  +4.6528407083E-004 +1.6702101650E+001  +1.0607739571E-004 +9.1344262550E+000  +2.4931952603E-001 -1.6564950665E+002 
1010161.452 +1.1671653998E-001 +1.6968195303E+002  +8.4250408111E-004 -9.3249075638E+001  +9.3984740043E-004 -1.7902385021E+001  +2.0450158086E-001 -1.6722297669E+002 
1135306.633 +1.1664371693E-001 +1.6903661375E+002  +1.8196892627E-003 +1.0184491823E+002  +1.7452986881E-003 -1.1811204976E+002  +1.7741873175E-001 -1.5468996967E+002 
1260451.815 +1.1962646589E-001 +1.7153718193E+002  +1.7212747636E-003 -5.4592286319E+001  +2.3838463377E-003 +8.2688163814E+001  +2.1903704548E-001 -1.5654448575E+002 
1385596.996 +1.2834851973E-001 +1.7327979275E+002  +6.1256431877E-004 +2.4835784679E+001  +1.4501446851E-003 -3.1205446862E+001  +2.7340701376E-001 -1.5443241129E+002 
1510742.178 +1.2849993803E-001 +1.7123675307E+002  +6.7929214464E-004 +3.5070387256E+001  +1.3574443085E-003 +4.4621311962E+001  +2.5947744461E-001 -1.6009371204E+002 
1635887.359 +1.2767839333E-001 +1.7032403143E+002  +9.7302099895E-004 +1.0068506406E+002  +9.3958140715E-004 +1.5719363707E+001  +2.4699470404E-001 -1.5834772329E+002 
1761032.541 +1.2454230012E-001 +1.6887082584E+002  +1.8581467334E-003 +1.7494139973E+002  +1.5408421753E-003 -2.8695211836E+001  +2.3245405786E-001 -1.5786184645E+002 
1886177.722 +1.2816762819E-001 +1.6999652433E+002  +1.4703229795E-003 -6.7478181577E+001  +4.1820063317E-003 +4.6838897830E+001  +2.0032213125E-001 -1.5892531636E+002 
2011322.904 +1.3090318025E-001 +1.6937054833E+002  +1.9354405425E-003 -1.7710391356E+002  +1.5243169986E-003 +1.2474882517E+002  +1.7361946298E-001 -1.7148483252E+002 
2136468.085 +1.3154314803E-001 +1.6570704254E+002  +1.4751979983E-003 +9.7002939119E+001  +3.7256868238E-003 -5.9658230527E+001  +1.1104253638E-001 -1.3718644710E+002 
2261613.267 +1.2507222249E-001 +1.6513616318E+002  +3.6081377365E-003 +4.1740176712E+001  +7.5776580058E-004 -4.1510860186E+001  +1.7501350529E-001 +1.7975943420E+002 
2386758.448 +1.3567763406E-001 +1.6278009966E+002  +3.0714753228E-003 +1.1376117786E+002  +2.9886406716E-003 +4.9582220597E+000  +2.2538800533E-001 +1.5929223669E+002 
2511903.630 +1.3918659822E-001 +1.6221132686E+002  +9.2919969785E-004 -5.8264021978E+001  +2.6538921174E-003 -9.0725135163E+001  +2.2897732443E-001 -1.7296705712E+002 
2637048.811 +1.3426773592E-001 +1.5792077441E+002  +3.1504144322E-003 -1.2264482515E+002  +1.0961704280E-002 -9.3520579962E+001  +1.3246899445E-001 +1.7841910740E+002 
2762193.992 +1.0738255876E-001 +1.6089070349E+002  +6.6319983008E-003 -1.5525296869E+002  +1.1877165335E-002 +2.9149506140E+001  +3.6252927574E-001 +1.1659085691E+002 
2887339.174 +1.1311407239E-001 +1.6475295614E+002  +3.8268747082E-003 -2.1933878617E+001  +8.3471595453E-003 -1.7775321854E+001  +2.4021049308E-001 -1.2870023226E+002 
3012484.355 +1.0946806150E-001 +1.7332260280E+002  +1.7608501150E-003 -1.4495405611E+002  +1.2969256140E-002 +6.2097533065E+000  +2.9396608048E-001 -1.0397247951E+002 
3137629.537 +1.2873627180E-001 +1.7741490319E+002  +7.3492658373E-003 -1.6624840422E+002  +2.0121714169E-002 +1.5847353979E+002  +5.5642129687E-001 -7.7814700816E+001 
3262774.718 +1.0050151976E-001 +1.5573617372E+002  +1.5970157248E-002 +1.4764925742E+002  +9.3123095403E-003 -1.5341070409E+002  +4.5775407414E-002 -7.5190388632E+001 
3387919.900 +1.3750291151E-001 +1.6246118629E+002  +1.9530574091E-003 +3.6645210905E+001  +1.2056134154E-002 -1.4256300668E+002  +1.2462856060E-001 +2.8836441020E+001 
3513065.081 +1.2733359228E-001 +1.2809503010E+002  +4.0243285969E-003 -3.8446553008E+001  +1.4464730672E-002 +1.5090199554E+002  +1.9821299429E-001 +1.4051928580E+002 
3638210.263 +1.8275773107E-001 +1.3690739290E+002  +1.3183838526E-002 -1.3943963310E+002  +7.1438031429E-003 +4.6881168420E+001  +5.4677016481E-001 +1.4751461681E+002 
3763355.444 +1.8367459332E-001 +1.4947597125E+002  +2.7374574873E-003 +1.4328521009E+002  +4.8989690607E-003 -1.0663263227E+002  +4.1716730948E-001 +1.2919396602E+002 
3888500.626 +1.5939936850E-001 +1.3774357460E+002  +5.8421229544E-003 -7.7893334307E+001  +1.0171836364E-002 +1.4013555903E+002  +6.1827732563E-001 +1.3507181699E+002 
4013645.807 +1.5698641635E-001 +1.5291211778E+002  +3.8224311657E-003 +8.7837781942E+001  +5.0832623904E-003 +1.3541369982E+002  +3.2735127183E-001 +8.7874107938E+001 
4138790.989 +1.8989003142E-001 +1.4754214211E+002  +9.8138308672E-003 -1.1656460132E+002  +1.3515649344E-002 +1.0864603500E+002  +4.6605520207E-001 +8.7085868392E+001 
4263936.170 +2.0356062979E-001 +1.4092849400E+002  +2.6938944934E-003 -1.5934761473E+002  +1.0499488181E-002 +1.7528276596E+002  +2.1637181161E-001 +4.3430435363E+001 
4389081.352 +2.0358680051E-001 +1.4259532589E+002  +1.6692236070E-002 +7.2056646813E+001  +2.9776570339E-003 +6.2384087009E+001  +6.8189680098E-001 +1.1334291853E+002 
4514226.533 +2.3045038667E-001 +1.3859527496E+002  +7.6103573627E-003 -1.4604605822E+002  +5.9286628337E-003 +1.1422416941E+002  +8.5905061291E-001 +7.9578640836E+001 
4639371.715 +2.0094568636E-001 +1.2906189092E+002  +3.4795040798E-002 -1.4154763558E+002  +3.9723818586E-002 -1.5911678318E+002  +2.6684165386E+000 +7.3030468010E+001 
4764516.896 +3.4409782851E-001 +1.1997806430E+002  +1.3123895477E-002 +1.3230921446E+002  +4.0448388181E-002 +1.6799535753E+002  +1.0879159405E+000 +8.6148485600E+000 
4889662.078 +6.0866203226E-001 +1.0924528169E+002  +5.0644680777E-002 -4.6930846196E+001  +2.4616077607E-003 -1.1467004101E+002  +2.1437769701E+000 -1.3025480759E+002 
5014807.259 +5.2979671841E-001 +1.1846020598E+002  +1.5454204547E-001 -9.7447484752E+001  +7.9768268066E-002 -6.3222090407E+001  +4.8795793007E+000 -1.1224330246E+002 
5139952.441 +4.1183748164E-001 +1.3418425063E+002  +1.8659845086E-002 -4.7177773627E+001  +3.4314134326E-002 +1.3629970667E+002  +2.8852655302E+000 +1.0352530545E-001 
5265097.622 +3.8847012887E-001 +1.2151548929E+002  +5.1579517316E-002 +6.8690152528E+001  +2.5080562106E-002 +7.7569087340E+001  +2.1981925006E+000 +6.0157800455E+001 
5390242.804 +4.5697111667E-001 +1.3933203786E+002  +6.3827936153E-004 -1.6232024310E+002  +1.5820891979E-002 +8.5557869969E+001  +1.6097870726E+000 +9.6256710123E+001 
5515387.985 +4.2215414900E-001 +1.2999222694E+002  +2.7108244519E-002 +1.4186985978E+002  +2.9338093799E-002 -1.5231400610E+002  +1.8674904043E+000 +7.8743909311E+001 
5640533.166 +4.4034834364E-001 +1.2820847318E+002  +9.1399395958E-003 +3.7354561538E+001  +1.9546115399E-002 +1.5666276822E+002  +2.3559404598E+000 +5.2682823920E+001 
5765678.348 +5.3907864876E-001 +1.2511921004E+002  +1.1676616394E-002 +2.1163568233E+001  +2.4786896088E-002 +1.3841896557E+002  +2.3582791058E+000 +8.8752760407E+001 
5890823.529 +5.5539116523E-001 +1.2833340259E+002  +1.7869228479E-002 -1.0072860366E+002  +9.1774879336E-003 +2.3315483593E+001  +2.0671647084E+000 +6.0180635424E+001 
6015968.711 +5.9958683143E-001 +1.1637926461E+002  +1.4650612210E-002 +1.1882004778E+002  +1.2759108969E-002 -5.9658130390E+000  +2.6247341139E+000 +3.7628842436E+001 
6141113.892 +6.4918165195E-001 +1.1648018044E+002  +3.3840177128E-002 +1.7397502185E+002  +1.8897879269E-002 +1.3014609131E+002  +1.4480765115E+000 +3.9681541813E+001 
6266259.074 +7.4231349691E-001 +8.6152573009E+001  +8.6387479463E-003 -6.5563348392E+000  +1.4651860567E-002 -1.7008186901E+002  +1.8078418092E+000 +1.6216148245E+001 
6391404.255 +1.2082645418E+000 +9.5105414852E+001  +2.6382128226E-002 +1.5224523541E+002  +6.4688918879E-003 -1.5290320187E+001  +1.7112933266E+000 +1.0496339854E+001 
6516549.437 +1.4313583027E+000 +7.7132470379E+001  +9.2075453377E-003 -1.6472609494E+001  +2.5275877578E-002 -6.7440059927E+000  +1.4408898118E+000 -7.4418630817E+000 
6641694.618 +1.5728931313E+000 +5.9715897720E+001  +2.3420974764E-002 +1.5552824917E+002  +3.7800994526E-002 +8.5080441501E+001  +1.5072252582E+000 -1.1434744595E+000 
6766839.800 +1.8350894384E+000 +5.0207843379E+001  +2.7619571378E-002 -1.2811689004E+001  +1.6242324754E-002 +4.6260798384E+001  +1.3804393743E+000 -1.0853097687E+001 
6891984.981 +1.9736202334E+000 +2.4819441178E+001  +7.3790306380E-003 +1.3445153767E+002  +2.3360292260E-002 +6.0689619688E+001  +1.3813867118E+000 -1.2588113008E+000 
7017130.163 +1.8684204440E+000 +1.0302610182E+001  +2.3151653749E-002 +3.4518053598E+001  +1.0992772663E-002 -5.1133212430E+001  +1.1739244320E+000 -8.2207935694E+000 
7142275.344 +1.7099582414E+000 +7.0600875141E+000  +1.7087090486E-002 +8.9826926865E+001  +2.5755336109E-002 +5.2945864364E+001  +1.2426284707E+000 -8.3837582064E+000 
7267420.526 +1.3729886676E+000 +6.3067000115E-001  +8.2652845816E-003 +7.3471067845E+001  +7.1274655806E-003 +1.2804067509E+002  +1.3319135565E+000 -5.6834065859E+000 
7392565.707 +1.3155612535E+000 -5.6399590745E-001  +1.2798507176E-002 -8.4412533700E+001  +4.3453704195E-003 +5.9752087888E+001  +1.4284449908E+000 -9.8789559095E+000 
7517710.889 +1.1050982903E+000 +2.3327570980E+000  +2.1104995728E-002 +5.7286625636E+001  +3.9140664529E-003 +1.7972233046E+002  +1.2291740624E+000 -4.5891228481E+000 
7642856.070 +9.1898716859E-001 +5.1250708666E+000  +4.2746046856E-003 +5.5722435611E+001  +7.2897401976E-003 +9.1386821192E+000  +1.1537340526E+000 -5.9663427351E+000 
7768001.252 +9.3964233157E-001 +4.3595099263E+000  +4.2965291879E-003 +1.9608923575E+001  +8.1319514526E-003 +4.5654564553E+001  +9.5437079856E-001 +3.5978302870E-003 
7893146.433 +8.5586106479E-001 +1.9746694189E+000  +1.3245858452E-003 -7.0227344591E+000  +2.4351046408E-003 +1.5328274448E+002  +9.2819091230E-001 +4.0448301131E+000 
8018291.615 +8.1430958238E-001 +1.4876417003E+000  +5.0069997763E-003 +6.7436081119E+001  +6.8553250144E-003 +8.4818724989E+001  +7.7196282730E-001 +4.2174119479E+000 
8143436.796 +7.6516852362E-001 +5.5329065104E+000  +4.0024437293E-003 +9.6735555606E+001  +4.1868114507E-003 +1.0437881658E+002  +7.7504259165E-001 +1.4752444310E+000 
8268581.977 +8.3943600046E-001 +7.7303921943E+000  +5.0906907631E-003 +7.3226795237E+001  +6.1517831053E-003 +1.4317482661E+002  +6.7894910806E-001 -1.0679983337E+000 
8393727.159 +6.5549539075E-001 +6.7623508313E+000  +9.0051690730E-004 +1.2351646033E+002  +5.3757342821E-003 +6.3816652088E+001  +7.2057212184E-001 +1.9893412037E+000 
8518872.340 +5.8873733356E-001 +5.1962276533E+000  +3.1873849689E-003 -3.0394703161E+001  +3.7779436092E-003 +6.0684476728E+000  +7.3638153675E-001 +3.9644278548E+000 
8644017.522 +5.6379364588E-001 +1.5575452076E+000  +5.8081083817E-003 +1.0900454133E+002  +3.5875224854E-003 +9.2938858009E+001  +7.3009616759E-001 -1.7660199030E+000 
8769162.703 +5.9816553856E-001 +3.1815009968E+000  +4.5389110364E-003 +4.9342342395E+001  +2.6140620953E-003 +1.3309696468E+002  +6.9312833899E-001 -1.7969804336E+000 
8894307.885 +5.6329326555E-001 +6.3309104486E+000  +4.5097171378E-003 +3.0568295581E+001  +3.0818197544E-003 +8.4056663326E+001  +6.5467626103E-001 +1.8375193869E+000 
9019453.066 +6.4484155181E-001 +1.3707734916E+001  +9.5109619144E-003 +6.6955271454E+001  +6.0289593170E-003 +7.5328555379E+001  +6.6000719019E-001 -1.2533393424E+000 
9144598.248 +5.4874431132E-001 +5.9228322639E+000  +5.5810886229E-003 +8.1899011568E+001  +5.4439508374E-003 +1.2278281708E+002  +6.4465658148E-001 +2.8500284149E+000 
9269743.429 +5.6481093313E-001 +8.3697174083E-001  +2.1657629111E-003 +1.2414354443E+002  +4.7334250850E-003 +1.0734519905E+002  +5.9978560106E-001 -1.8788019459E+000 
9394888.611 +5.0948454452E-001 +4.0661811550E-001  +5.3061777161E-003 +6.4059821986E+001  +3.7284734960E-003 +8.7581528616E+001  +5.7816569221E-001 -4.6742894791E+000 
9520033.792 +5.7773285644E-001 +7.3940123399E+000  +4.8350358525E-003 +1.0130186753E+002  +1.7905970829E-003 +3.1671907960E+001  +5.9702445172E-001 -5.2368366469E-002 
9645178.974 +5.3843719654E-001 +2.7283766446E+000  +2.9062904375E-003 +9.8601957586E+001  +5.3359699250E-003 +5.4867947370E+001  +6.0281045398E-001 -7.3686440664E+000 
9770324.155 +5.6567255847E-001 +9.9210359222E-001  +3.8250437855E-003 +8.2656069615E+001  +5.4137210098E-003 +8.1352886642E+001  +5.4981141786E-001 -6.1426611792E+000 
9895469.337 +5.3306025353E-001 +2.5274691282E-001  +5.2234587335E-003 +4.7061770064E+001  +4.7436358033E-003 +1.0024835045E+002  +5.8825746497E-001 -5.3633655403E+000 
10020614.518 +5.6014094612E-001 +2.2424446734E+000  +2.0624866490E-003 +9.0320634561E+001  +4.3238518891E-003 +8.9032703013E+001  +6.0212827087E-001 -6.0249107294E+000 
10145759.700 +5.2640213457E-001 +5.6427060032E+000  +1.2522374294E-003 +1.2696720206E+002  +3.9060121998E-003 +1.1908407525E+002  +6.0082026569E-001 -5.3675635411E+000 
10270904.881 +5.2882002278E-001 +6.1591659046E+000  +7.6592846654E-003 +7.8055916925E+001  +3.1714060224E-003 +6.7300175826E+001  +6.0438652084E-001 -4.1330554926E+000 
10396050.063 +5.6031029426E-001 +5.7476060525E+000  +4.6556144658E-003 +7.6236574778E+001  +5.5107477687E-003 +7.4707346772E+001  +5.8032968026E-001 -1.7906293002E+000 
10521195.244 +5.4759701946E-001 +5.9732285570E+000  +4.8754876491E-003 +7.6995018500E+001  +4.2110128220E-003 +1.0810843952E+002  +5.6040600224E-001 -1.6984234941E+000 
10646340.426 +5.5937726368E-001 +9.4564516594E+000  +6.0712208895E-003 +9.7921693529E+001  +2.4933658969E-003 +6.2351551885E+001  +6.0415064489E-001 -2.1894922363E+000 
10771485.607 +5.8322739527E-001 +1.0358461663E+001  +5.8280305646E-003 +3.2829935214E+001  +3.2912021944E-003 +5.4660358530E+001  +5.8864950574E-001 +1.3980631704E+000 
10896630.788 +5.7841770761E-001 +7.2798317272E+000  +3.5688184657E-003 +8.2717644170E+001  +6.0157237691E-003 +1.0936474274E+002  +6.3016391930E-001 +1.4671987040E+000 
11021775.970 +6.3454153169E-001 +5.1579241918E+000  +5.5027953091E-003 +7.7008261432E+001  +6.0010619794E-003 +8.8102777282E+001  +6.2513458000E-001 +1.5409495732E+000 
11146921.151 +5.9817981696E-001 +9.0483641815E+000  +5.7706209202E-003 +5.9754342433E+001  +6.3067392141E-003 +8.1447032550E+001  +6.5519398346E-001 +1.2743974008E+000 
11272066.333 +5.9830410668E-001 +4.8652460549E+000  +4.0604807190E-003 +8.5613167422E+001  +3.8494576504E-003 +8.7503602971E+001  +5.8503661524E-001 +1.7430518336E+000 
11397211.514 +6.5314284391E-001 +5.2552151253E+000  +4.5175260607E-003 +1.0021426394E+002  +3.4315938325E-003 +7.9376240855E+001  +6.3727618878E-001 +3.4361424651E-001 
11522356.696 +6.2676312124E-001 +7.7386808988E+000  +5.0056953741E-003 +7.5732470506E+001  +7.2779452488E-003 +9.3037177513E+001  +6.3782547617E-001 +2.8927635366E+000 
11647501.877 +6.3117248686E-001 +7.0264990640E+000  +7.3469387688E-003 +8.5862030749E+001  +5.2416550314E-003 +8.9137125567E+001  +6.4481003197E-001 +1.0921193799E+000 
11772647.059 +6.5718369138E-001 +6.7435658532E+000  +4.5714192390E-003 +8.4535595969E+001  +5.9641730297E-003 +8.3590704658E+001  +6.5788061565E-001 +4.3396524553E+000 
11897792.240 +6.4256845838E-001 +8.1208611862E+000  +4.9833478326E-003 +9.4910055623E+001  +4.7805980275E-003 +7.7406438501E+001  +6.5782230765E-001 +1.3432770858E+000 
12022937.422 +6.7133154530E-001 +6.2452525260E+000  +7.4324905324E-003 +7.9199693473E+001  +2.5707407945E-003 +8.5306705568E+001  +6.7921992463E-001 +9.2480626077E-001 
12148082.603 +6.9160281100E-001 +4.9356892175E+000  +5.9307089698E-003 +9.9511130071E+001  +4.9394008664E-003 +1.1103758025E+002  +6.7423942485E-001 +8.4681788962E-001 
12273227.785 +7.0799703378E-001 +4.6262075892E+000  +4.0407373729E-003 +8.9349974026E+001  +5.2717429849E-003 +7.8057088670E+001  +6.9057093996E-001 +1.0939787689E+000 
12398372.966 +7.4557026439E-001 +3.7268528259E+000  +4.5011246333E-003 +6.4390498111E+001  +6.3686004774E-003 +8.7641088865E+001  +7.0411680092E-001 +8.5252368413E-001 
12523518.148 +7.3510155601E-001 +2.8912149024E+000  +5.6280501144E-003 +6.8125547622E+001  +4.6409139314E-003 +9.8284206065E+001  +7.4213558057E-001 -3.1058950525E-001 
12648663.329 +7.4715794447E-001 +1.4214115534E+000  +5.9029578166E-003 +8.1290888605E+001  +8.0086169119E-003 +1.0087257108E+002  +7.4100195581E-001 -5.4473739896E-001 
12773808.511 +7.5972650492E-001 +7.6519166436E-001  +6.3885863396E-003 +8.8738593135E+001  +5.2369349574E-003 +9.8872759561E+001  +7.7037114876E-001 -6.4394512263E-002 
12898953.692 +7.7970658746E-001 +1.7802301163E+000  +6.7847734020E-003 +1.0358953365E+002  +6.7945936726E-003 +9.5747493183E+001  +7.7300638290E-001 +1.4061318017E-001 
13024098.874 +8.0535502016E-001 +6.8019693373E-001  +6.9924517184E-003 +8.8622633677E+001  +5.2237322077E-003 +7.5776863143E+001  +7.7994148185E-001 +7.6676038730E-001 
13149244.055 +8.1206794552E-001 -5.7090282484E-001  +7.5589152995E-003 +7.5985169389E+001  +7.0622572626E-003 +8.8093638884E+001  +8.3572094199E-001 -1.1604786360E-001 
13274389.237 +8.1789321780E-001 -1.0871768556E+000  +7.5352554637E-003 +8.3345969110E+001  +7.6820663163E-003 +9.4721795180E+001  +8.1863837887E-001 -2.0910727973E+000 
13399534.418 +8.4979450825E-001 -3.1759872745E+000  +6.2350758518E-003 +8.5855578914E+001  +7.5980244414E-003 +9.6522468131E+001  +8.3715673786E-001 -1.7429897209E+000 
13524679.599 +8.6290036539E-001 -2.2952636253E+000  +7.8646641386E-003 +9.4551067279E+001  +6.7554319962E-003 +7.6822084946E+001  +8.6433649130E-001 -2.9369545463E+000 
13649824.781 +8.7563203869E-001 -2.4510218377E+000  +7.0472524282E-003 +8.0008440508E+001  +7.4496709647E-003 +9.1037071671E+001  +8.8752145585E-001 -2.0337297566E+000 
13774969.962 +8.9434522728E-001 -3.4081248020E+000  +6.5236055257E-003 +8.1165084600E+001  +6.4245988689E-003 +8.4350351496E+001  +8.9454040470E-001 -2.5279733194E+000 
13900115.144 +9.1476889612E-001 -2.9381195315E+000  +6.8496753391E-003 +1.0005321089E+002  +6.9468954832E-003 +8.8239667337E+001  +9.2026433626E-001 -4.1404201373E+000 
14025260.325 +9.3163629599E-001 -3.3546022075E+000  +7.0407643394E-003 +9.7078529962E+001  +7.2602022122E-003 +1.0111275051E+002  +9.3499066949E-001 -4.0505654763E+000 
14150405.507 +9.3615494916E-001 -5.6589062092E+000  +6.8722211973E-003 +9.2853270141E+001  +6.8814908783E-003 +7.8216434909E+001  +9.4387189075E-001 -3.8839488204E+000 
14275550.688 +9.7231008363E-001 -4.6233819501E+000  +7.7811430571E-003 +9.5369836917E+001  +7.4036659666E-003 +9.8183847278E+001  +9.7639044283E-001 -3.7282319797E+000 
14400695.870 +9.8509897224E-001 -6.1733303584E+000  +7.7494178143E-003 +8.9979765249E+001  +7.9455689487E-003 +8.0059144509E+001  +9.6578353925E-001 -5.1046837882E+000 
