!  2-Port S-parameters saved by WinCal
! VAR NAME=S2_r2c8_formed(0)_9k-100M_3
! VAR DATE=30/08/2024 11:23:56
! VAR FILENAME=S2_r2c8_formed(0)_9k-100M_3.S2P
! VAR MeasName=S-Parameters (CALIBRATED_DATA) read from VNA (P5004A)
! VAR MeasDate=27/08/2024 13:44:49
! VAR PHYS_PORTS=1,2
! VAR ObjTypeName=DATASET
! VAR IndexType=Frequency
!
# Hz S MA R 50
9000.000 +6.5875012167E-002 -1.6919496863E+002  +1.6663906987E-002 -1.3694662636E+002  +1.2884416719E-002 -1.6002014166E+002  +2.9943295699E-001 -1.1457381510E+002 
134145.181 +1.1123159758E-001 +1.6998071484E+002  +6.0952206097E-004 +6.1873320522E+001  +4.0434905001E-004 +7.5753677614E+001  +2.4009665501E-001 -1.7060330571E+002 
259290.363 +1.1148294343E-001 +1.6986928793E+002  +2.1449815544E-004 -1.4143792262E+002  +1.2237371481E-003 +9.7650171460E+001  +2.3541074725E-001 -1.6734993429E+002 
384435.544 +1.1428492103E-001 +1.6980019219E+002  +3.3801234501E-004 +7.1109959301E+001  +3.4281226431E-004 -1.4772790103E+002  +2.4725853296E-001 -1.6970945076E+002 
509580.726 +1.1432871966E-001 +1.7073994711E+002  +8.3745817373E-004 -6.9901168317E+001  +7.9543023212E-004 -4.7248989999E+001  +2.4282631223E-001 -1.5768114558E+002 
634725.907 +1.1507092127E-001 +1.7163252896E+002  +1.1939043817E-003 +1.4673224087E+002  +3.7288024236E-004 -2.6094164439E+001  +2.3480028416E-001 -1.6583604663E+002 
759871.089 +1.1643875253E-001 +1.7084186268E+002  +3.6218162429E-004 +4.5364629942E+001  +2.1513347124E-003 -1.3968889518E+002  +2.3577033051E-001 -1.6634368581E+002 
885016.270 +1.1961812966E-001 +1.6913911695E+002  +4.8186351465E-004 +5.5136134790E+000  +9.7114053095E-004 +1.4151436117E+002  +2.2245747301E-001 -1.6481108262E+002 
1010161.452 +1.1321473293E-001 +1.7059124210E+002  +2.9370727835E-003 -1.7639526818E+002  +3.6893608277E-003 -2.4206343338E+001  +1.3202772658E-001 -1.6891783534E+002 
1135306.633 +1.1506582133E-001 +1.7021333645E+002  +3.0981070455E-004 -7.1687075776E+001  +1.2949373531E-003 +3.4721866526E+001  +1.4691369256E-001 -1.5935028343E+002 
1260451.815 +1.2154967910E-001 +1.7120141999E+002  +1.5993821036E-003 -7.7719939681E+001  +7.0581078167E-004 -2.5393754238E+001  +2.3294477017E-001 -1.5753680025E+002 
1385596.996 +1.2648614027E-001 +1.7295707461E+002  +2.3502348159E-004 +7.5627199666E+001  +1.1348713765E-003 -1.2906898751E+002  +2.6392722940E-001 -1.6061040961E+002 
1510742.178 +1.2659771782E-001 +1.7066777834E+002  +7.9059697207E-004 +4.8959671246E+001  +1.1094062825E-003 -7.8859973285E+000  +2.5808138086E-001 -1.5427382401E+002 
1635887.359 +1.2786018285E-001 +1.7250599736E+002  +2.2618710723E-003 +4.6232817437E+001  +2.2021426145E-003 +1.0884988623E+002  +2.3803401030E-001 -1.5853019308E+002 
1761032.541 +1.2633352993E-001 +1.6985535268E+002  +5.5919623273E-004 -7.1429256733E+001  +1.5413982252E-003 +1.5575594932E+002  +2.2478529100E-001 -1.5776485382E+002 
1886177.722 +1.2953511211E-001 +1.6681967540E+002  +1.4932159656E-003 +7.0910409359E+001  +3.1229555096E-003 -9.5521308179E+001  +2.1393452562E-001 -1.5612369799E+002 
2011322.904 +1.2759958693E-001 +1.6781247496E+002  +1.6551533359E-003 +4.2753674503E+001  +2.2870711682E-003 -1.6208907706E+002  +1.7032447009E-001 -1.6314646687E+002 
2136468.085 +1.2658409401E-001 +1.6242528016E+002  +2.3478489908E-003 -1.0802013647E+002  +1.1889634825E-003 +2.9266656826E+001  +2.1784045277E-001 +1.7961893918E+002 
2261613.267 +1.3378566723E-001 +1.6503816045E+002  +1.3149541770E-003 +1.0551291847E+002  +2.1463370511E-003 -1.9119837065E+001  +2.1829601936E-001 +1.7055877133E+002 
2386758.448 +1.3456868327E-001 +1.6014344994E+002  +2.1273685163E-004 -3.6296793322E+001  +3.1191437798E-003 +1.0301801177E+002  +2.2949168271E-001 +1.6740883797E+002 
2511903.630 +1.3725954822E-001 +1.6316749007E+002  +2.0191451138E-003 -4.7405580004E+001  +5.1131862787E-003 +1.0989728125E+002  +2.0401623149E-001 +1.6405672997E+002 
2637048.811 +1.1776314702E-001 +1.4837194821E+002  +1.3364487219E-002 -1.2066949969E+002  +3.8449063253E-002 +9.7418473331E+001  +6.4259993809E-001 -2.9753168569E+000 
2762193.992 +1.0085667858E-001 +1.5934527466E+002  +1.4741817911E-002 -6.2337011657E+001  +2.7890318949E-003 +9.1748551167E+001  +6.2051644351E-001 -1.2088412071E+002 
2887339.174 +1.2538941800E-001 +1.7085915566E+002  +1.5608696800E-002 -5.5040626731E+001  +1.4075216754E-002 +5.9762316717E+001  +9.6405725514E-001 -1.7844129223E+002 
3012484.355 +1.1581106724E-001 -1.7335632741E+002  +8.0382616215E-003 -3.3843002754E+001  +3.9493077650E-003 -1.6366077385E+002  +3.7729282706E-001 -9.6722885907E+001 
3137629.537 +1.2105933610E-001 +1.7810042721E+002  +2.2973709825E-003 +2.7943355055E+001  +1.0429558705E-002 +1.1181751438E+001  +2.8194406231E-001 -1.0843457728E+002 
3262774.718 +1.2926933304E-001 +1.7272032975E+002  +8.4180870677E-003 +1.5954389380E+002  +2.7571602938E-003 -8.2094855824E+001  +2.5181069084E-001 -8.0621323083E+001 
3387919.900 +9.2768193393E-002 +1.5805343045E+002  +1.9658330343E-002 +1.6904092333E+002  +1.7018341563E-002 +2.9777398434E+001  +2.3034313338E-001 -7.6240773823E+001 
3513065.081 +1.3532137298E-001 +1.5301661017E+002  +5.7494187506E-003 -1.2691084023E+002  +3.0169406449E-002 -4.4474448186E+001  +7.2299774256E-001 +3.4634298499E+001 
3638210.263 +1.7826888327E-001 +1.5141434970E+002  +5.2590722806E-003 +1.3395211053E+002  +8.7722589231E-003 -4.3472127454E+001  +5.5438163566E-001 +1.5461732707E+002 
3763355.444 +1.7298723629E-001 +1.5059296287E+002  +4.7532276543E-003 +1.1896058723E+002  +9.2635408802E-003 -4.8542134542E+000  +4.5584535064E-001 +1.2575689702E+002 
3888500.626 +2.0830200727E-001 +1.3695360365E+002  +1.6091613665E-002 -1.1352573177E+002  +1.0430553228E-002 +1.0470048794E+002  +3.9834102828E-001 +9.4166974158E+001 
4013645.807 +1.7013505154E-001 +1.5859029258E+002  +6.1531414112E-003 +1.6762502226E+001  +4.1186330677E-003 -1.5096740773E+002  +6.7046334451E-001 -2.1614213681E+001 
4138790.989 +1.8600388026E-001 +1.4007545480E+002  +1.0992684703E-002 -1.6996070018E+002  +1.3514542707E-002 -5.7591776849E+001  +3.0291192238E-001 +2.5207334928E+001 
4263936.170 +1.7315610357E-001 +1.3765562056E+002  +1.1262668702E-002 +1.0701229809E+002  +7.5368123545E-003 -1.3691367006E+002  +4.7720794664E-001 +1.2363242407E+002 
4389081.352 +2.0448644627E-001 +1.2603301990E+002  +2.1200870866E-002 +6.4804008975E+001  +6.8348443497E-003 +4.8530249890E+001  +3.8559902999E-001 +1.2755802471E+002 
4514226.533 +2.6695078370E-001 +1.3025374420E+002  +2.4089490093E-002 +9.7433294481E+001  +2.9315859123E-002 +9.5514776557E+001  +1.0509066060E+000 +1.0239154315E+002 
4639371.715 +2.8551982388E-001 +1.3726385052E+002  +2.2395472244E-002 -1.1870302898E+002  +3.6293674974E-002 -7.1746451696E+000  +2.1195469407E+000 +1.1814396261E+002 
4764516.896 +3.3851323958E-001 +1.2973201707E+002  +3.8219802155E-002 +1.5062554206E+002  +3.4983649434E-002 +6.9323706032E+001  +4.2696044327E+000 -1.4059105634E+002 
4889662.078 +4.4940086270E-001 +1.1897635594E+002  +8.0253958142E-002 -9.3761637135E+001  +1.6620372644E-002 +6.0857397670E+001  +2.8629521701E+000 -1.4220898566E+002 
5014807.259 +4.2390188264E-001 +1.3683133539E+002  +1.5352028936E-001 +1.2485922221E+002  +2.3805608119E-001 -7.5551393494E+001  +1.4515280704E+001 -1.6077008404E+002 
5139952.441 +4.1046358852E-001 +1.2747084807E+002  +2.6823629297E-002 -1.3443223880E+002  +1.7026688328E-002 -9.1232741776E+001  +2.2214952977E+000 +1.2948441130E+002 
5265097.622 +4.0366408583E-001 +1.3355832482E+002  +1.8468665362E-002 +2.9675086387E+001  +8.0554016778E-002 +3.5746453351E+001  +3.8703896989E+000 +6.4127995426E+001 
5390242.804 +4.1395614203E-001 +1.3199153900E+002  +2.1737027196E-002 +5.3365527750E+001  +2.2498940801E-003 -1.2932920139E+002  +2.5356405167E+000 +1.1092178820E+002 
5515387.985 +4.7727459473E-001 +1.3086265859E+002  +1.5016646519E-002 -7.0656956327E+001  +2.6792619895E-002 -5.9871099713E+001  +2.3542910321E+000 +1.1444574966E+002 
5640533.166 +4.7139458648E-001 +1.3047794297E+002  +3.5343878442E-002 +4.8365204699E+000  +1.0816431153E-002 +1.1547480905E+002  +2.1496512498E+000 +7.2966260508E+001 
5765678.348 +5.2704013022E-001 +1.2737603714E+002  +4.2475318008E-003 +1.1128687610E+002  +4.1381652760E-003 -1.7188267243E+002  +1.2501581640E+000 +8.4888882578E+001 
5890823.529 +5.9524916615E-001 +1.2323228322E+002  +3.0650268920E-002 +1.2100359499E+002  +2.2666104511E-002 -1.5659351613E+002  +2.1109651638E+000 +9.0486846869E+001 
6015968.711 +5.4126796579E-001 +1.2601046686E+002  +1.4050217805E-002 +1.2419635819E+002  +1.0336451775E-002 -6.3784838113E+001  +2.0135931059E+000 +3.3939604350E+001 
6141113.892 +6.2650890875E-001 +1.1336229480E+002  +3.9386111297E-003 +5.9014058815E+001  +2.0942881100E-002 +1.4006818374E+002  +2.7199958680E+000 +1.4613302404E+001 
6266259.074 +1.0201369520E+000 +1.0296041710E+002  +2.4464583969E-002 +4.5643758814E+001  +2.2623152480E-002 -1.3952600902E+002  +1.8995048063E+000 +2.7008174579E+001 
6391404.255 +1.2590775695E+000 +8.5259290188E+001  +1.3321990085E-002 -8.4845773728E+001  +1.3658542229E-002 +1.3358118325E+002  +1.7480007134E+000 +2.3986215376E+001 
6516549.437 +1.1868631254E+000 +8.3157497537E+001  +1.0164673499E-002 +1.7002496250E+002  +1.7697541276E-002 +1.7928871842E+002  +1.8609795941E+000 +1.5443484762E+001 
6641694.618 +1.6513803250E+000 +6.7930567585E+001  +1.9179209454E-002 +1.5619182714E+002  +2.1100950248E-002 -5.6929183988E+001  +1.5740070158E+000 +2.0659913823E+000 
6766839.800 +1.6989752410E+000 +5.8281844657E+001  +1.5910174143E-002 +1.5822088241E+002  +2.1077792988E-002 +7.6888107699E+001  +1.2983931783E+000 -6.1461579948E+000 
6891984.981 +1.8605998672E+000 +3.7009201202E+001  +3.5806714744E-003 +4.4265285183E+001  +2.8099520882E-003 +6.7988057523E+001  +1.2498837566E+000 -1.2491655669E+001 
7017130.163 +1.7068639760E+000 +1.8426574290E+001  +9.4165833322E-003 -4.0015941228E+001  +1.5399259361E-002 +1.5347867883E+002  +1.4079186515E+000 -1.0037867096E+001 
7142275.344 +1.5930180648E+000 +7.0496696851E+000  +6.8593437482E-003 +1.0495252330E+002  +8.6361613346E-003 -1.1290132374E+001  +1.4482707303E+000 -9.3650239000E+000 
7267420.526 +1.5259860545E+000 -2.4677985680E+000  +1.9348488372E-002 +4.1075734297E+001  +5.8902348093E-003 -1.6454170202E+002  +1.2651280547E+000 -9.7159138192E+000 
7392565.707 +1.2990876808E+000 +1.5096096455E+000  +8.2038789078E-003 +1.2896257629E+002  +1.0789262130E-002 -1.2805397950E+002  +1.2457732014E+000 -6.3938443820E+000 
7517710.889 +1.1880395577E+000 -4.3173846778E+000  +2.7468698053E-003 -1.2953724973E+002  +2.2800395628E-003 +8.7957383077E+001  +1.1856177106E+000 -5.0008518453E+000 
7642856.070 +1.0661943456E+000 -3.2660851310E+000  +4.4473934270E-003 +1.7312360120E+002  +5.8303597899E-003 +2.4101655305E+001  +1.0424559261E+000 -2.9666059552E+000 
7768001.252 +1.1030045748E+000 +3.2143778883E+000  +4.5777969209E-003 -1.6869730249E+002  +8.4419383929E-003 +5.3285474022E+001  +1.1079301953E+000 +3.1905684978E-001 
7893146.433 +9.2429580041E-001 +3.1080704737E+000  +5.6615669372E-003 -1.0503347414E+002  +9.4718015221E-003 -9.9247545889E+001  +8.9900034170E-001 -5.2780647264E+000 
8018291.615 +7.8028979921E-001 +4.8065443971E+000  +9.9756867901E-003 +4.7657602683E+001  +7.2901375518E-003 +1.0261601585E+002  +8.4615428384E-001 -3.2647857110E+000 
8143436.796 +8.1167095877E-001 +4.4581673840E+000  +1.0388498180E-002 +1.5884842349E+001  +1.3715023271E-002 +7.8734324203E+001  +7.7755982097E-001 +4.5267234048E+000 
8268581.977 +8.1873274248E-001 +1.0944423510E+001  +5.2821608615E-003 +4.3860011328E+001  +3.6174956479E-003 +9.7538722230E+001  +8.8260515337E-001 -1.1548512611E-002 
8393727.159 +6.7266780104E-001 +1.4284745696E+001  +6.2071406669E-003 +9.7547742573E+001  +5.1569975736E-003 -2.0553642542E+000  +7.0435762116E-001 +6.4485094731E+000 
8518872.340 +7.8271568526E-001 +9.6911675553E+000  +1.5672806002E-003 +5.4888705803E+000  +3.0650312382E-003 +6.4466221114E+001  +6.8305907991E-001 -3.1570016656E+000 
8644017.522 +6.4898935239E-001 +2.1047250864E+000  +4.6776864131E-003 +1.0100383915E+002  +2.7636418303E-003 +4.5934403887E+001  +7.2558087853E-001 +4.6447192524E+000 
8769162.703 +6.2857748051E-001 +3.3932852950E+000  +8.6389299220E-003 +9.8390131498E+001  +2.8175886487E-003 +1.1194285308E+002  +6.7045016178E-001 -1.4738280792E+000 
8894307.885 +6.1807097810E-001 +6.9031950783E+000  +4.3884477333E-003 +1.0468334263E+002  +1.9264265814E-003 +6.9984990728E+001  +6.0410212486E-001 -7.3721992012E+000 
9019453.066 +7.0232618138E-001 +3.5615261163E+000  +1.9609278043E-003 +2.4583584454E+001  +5.1584641442E-003 +7.8433079325E+001  +6.5293186197E-001 -2.9621125738E+000 
9144598.248 +5.7149986623E-001 +6.3437008592E+000  +6.2782703779E-003 +4.1650234281E+001  +7.0050044567E-003 +1.3013626326E+002  +6.0992963199E-001 +3.9419248641E-001 
9269743.429 +5.6264198325E-001 -9.3396300876E-001  +6.7261677455E-003 +8.8923742938E+001  +3.9335955900E-003 +1.3599856701E+002  +6.4967263498E-001 -5.0952040549E+000 
9394888.611 +5.8960020063E-001 +8.8975930472E+000  +4.9886525754E-003 +7.0427018989E+001  +3.1612279918E-003 +1.4539219226E+002  +6.2905568281E-001 -2.4369990189E+000 
9520033.792 +5.1814075125E-001 +2.3660936147E+000  +2.8055036506E-003 +9.4227961110E+001  +2.7108237961E-003 -1.7993475369E+002  +5.4615692607E-001 -2.6996881638E+000 
9645178.974 +5.8639764795E-001 +1.3258649365E+000  +2.7880548823E-003 +8.8380781940E+001  +2.9714688956E-003 +1.6528382163E+002  +6.1498425189E-001 -4.6499293525E+000 
9770324.155 +5.6422977803E-001 +3.2431689457E+000  +4.0232268461E-003 +7.1381387222E+001  +5.1776652510E-003 +5.7635684409E+001  +6.0575026438E-001 -6.3862595258E+000 
9895469.337 +5.2941607384E-001 -2.0077614285E+000  +2.8999767465E-003 +9.4659058754E+001  +3.8741003620E-003 +9.6558674550E+001  +5.5384596145E-001 -8.1797482473E+000 
10020614.518 +5.9548266876E-001 -2.0028556790E+000  +2.9363345531E-003 +5.2468617497E+001  +6.3697253204E-003 +1.0956329102E+002  +5.8135240122E-001 -3.1732469137E+000 
10145759.700 +5.8909612069E-001 +1.2031157218E+000  +5.1575620645E-003 +9.4098326223E+001  +2.9232649594E-003 +1.3147301838E+002  +5.6893369268E-001 -3.2857758471E+000 
10270904.881 +5.6574961155E-001 -2.3691844047E+000  +5.1580366197E-003 +6.6138413294E+001  +3.0455216454E-003 +1.2293621478E+002  +6.0492976420E-001 -4.7988000619E+000 
10396050.063 +5.7452126884E-001 +7.8357501079E+000  +3.4535692562E-003 +7.1329108010E+001  +4.5767756556E-003 +9.2086428231E+001  +5.3863725154E-001 -5.5349310783E+000 
10521195.244 +5.9135097969E-001 +4.0854799706E+000  +6.7904133067E-003 +7.6805160653E+001  +6.9694221642E-003 +1.2261043822E+002  +5.6064467790E-001 -1.2352459772E+000 
10646340.426 +5.8970999081E-001 +4.2919963235E+000  +3.5724028714E-003 +5.4346967879E+001  +7.5799274076E-003 +9.8842565046E+001  +5.9606671771E-001 -1.2051414159E+000 
10771485.607 +5.7745519965E-001 +4.5739764980E+000  +3.8035652012E-003 +1.1488040589E+002  +5.7916499717E-003 +1.2517016462E+002  +5.9989442346E-001 +1.6999052085E+000 
10896630.788 +6.1840554801E-001 +5.7225513835E+000  +3.9155038687E-003 +7.4967112598E+001  +4.3221579971E-003 +1.3357097724E+002  +6.1355501171E-001 -2.7423956943E+000 
11021775.970 +5.9478166888E-001 +7.2298475676E+000  +7.2866437960E-003 +7.9413910186E+001  +5.6270517867E-003 +1.0616738059E+002  +6.3101178264E-001 +1.6095490206E+000 
11146921.151 +5.9534743984E-001 +7.2770792512E+000  +6.2329355302E-003 +9.6961695485E+001  +4.5757288656E-003 +1.1109672862E+002  +6.2481764836E-001 -6.3443850459E-001 
11272066.333 +5.7794474559E-001 +3.5808824730E+000  +5.4674765110E-003 +8.8320756937E+001  +3.6542988941E-003 +8.3926932698E+001  +6.3060649564E-001 -1.6499356735E+000 
11397211.514 +6.1311710498E-001 +6.6643229231E+000  +4.0067608663E-003 +1.3233443810E+002  +5.1341523425E-003 +9.7660314215E+001  +6.1307302426E-001 -7.4716656648E-001 
11522356.696 +6.2585370883E-001 +6.3001188073E+000  +5.0246062375E-003 +1.1816191909E+002  +3.6854427318E-003 +1.2753790606E+002  +6.1286452967E-001 +1.5607486415E+000 
11647501.877 +6.5036920027E-001 +4.3429587027E+000  +6.1926377918E-003 +1.0427463956E+002  +5.9083964370E-003 +1.1191398868E+002  +6.5781934105E-001 +7.4108685937E-001 
11772647.059 +6.1326821788E-001 +5.6807612640E+000  +5.5427875838E-003 +8.9693149837E+001  +6.8606253529E-003 +9.7487034712E+001  +6.5662072706E-001 -2.8023703397E-001 
11897792.240 +6.3628270904E-001 +4.1216133756E+000  +3.9030382509E-003 +1.0361397715E+002  +5.0783904390E-003 +1.1799739152E+002  +6.8237270176E-001 +2.6342423921E-002 
12022937.422 +6.8394178020E-001 +5.2629192478E+000  +4.9644179528E-003 +7.3619838411E+001  +4.5140467109E-003 +1.0627998987E+002  +6.8073857008E-001 -1.0033208213E+000 
12148082.603 +6.8721640373E-001 +5.6738646608E+000  +6.0609953569E-003 +8.2697977474E+001  +3.9886148301E-003 +8.9349446518E+001  +6.8579356556E-001 +1.3168618773E+000 
12273227.785 +6.8518064387E-001 +2.8410933841E+000  +6.8269205978E-003 +8.9891369825E+001  +3.8345985753E-003 +1.0673976099E+002  +6.7458879566E-001 -6.6875911800E-001 
12398372.966 +6.8933932896E-001 +3.8068241730E+000  +6.8774721501E-003 +8.3344217964E+001  +6.4386875670E-003 +1.1457498395E+002  +7.3416392108E-001 +1.2788870536E-001 
12523518.148 +7.1977347312E-001 +2.9615479527E+000  +6.7229955577E-003 +9.2655023272E+001  +5.6340495824E-003 +1.0583160129E+002  +7.7624828295E-001 +1.3545193800E+000 
12648663.329 +7.3636331027E-001 +2.3004352171E+000  +6.5563915778E-003 +9.6436970079E+001  +5.8273879127E-003 +1.2043601804E+002  +7.4122894383E-001 +1.1510758406E-001 
12773808.511 +7.8936512720E-001 +1.4404906350E+000  +7.1170557675E-003 +8.9853614781E+001  +6.3401093782E-003 +1.1009009531E+002  +7.5191575596E-001 +1.9230035746E-001 
12898953.692 +7.7240226596E-001 +3.1725320607E-001  +3.4057988240E-003 +9.1363948509E+001  +6.2706926492E-003 +9.2788577201E+001  +8.0329228492E-001 +5.5055268494E-001 
13024098.874 +7.9415101595E-001 -3.0285603138E-001  +7.4055241255E-003 +9.6741287911E+001  +5.0489526434E-003 +1.0748212415E+002  +8.1439031489E-001 -1.7645743034E+000 
13149244.055 +8.0124073470E-001 -7.2456584646E-001  +5.6917589447E-003 +8.2372574953E+001  +5.7901111906E-003 +1.0770634858E+002  +8.0791312178E-001 -1.4920914043E+000 
13274389.237 +8.2103285825E-001 +1.7548273242E-001  +5.4630768715E-003 +9.6312803466E+001  +5.3756803372E-003 +8.8521634579E+001  +8.5346891280E-001 -1.7490648331E+000 
13399534.418 +8.4136275900E-001 -1.2758893897E+000  +5.6895837650E-003 +8.9545686717E+001  +6.3048063895E-003 +9.6437609140E+001  +8.4465365220E-001 -1.5162445742E+000 
13524679.599 +8.6006576565E-001 -3.0140020963E+000  +9.3585967270E-003 +9.4415925019E+001  +6.1090297930E-003 +9.0874366661E+001  +8.5468600000E-001 -2.5007184307E+000 
13649824.781 +8.8114209676E-001 -1.7939079559E+000  +6.0298156942E-003 +8.3845526931E+001  +7.8255026448E-003 +9.8133616854E+001  +8.7491131872E-001 -3.5490601627E+000 
13774969.962 +8.7892571068E-001 -3.0893728161E+000  +6.3015907200E-003 +8.8539374234E+001  +7.3321182801E-003 +9.5687569024E+001  +9.0386140390E-001 -2.1903001334E+000 
13900115.144 +8.8773028883E-001 -3.1335725302E+000  +6.1127663562E-003 +8.4826892349E+001  +7.8700708055E-003 +9.1405164348E+001  +9.1238949350E-001 -4.2901265885E+000 
14025260.325 +9.3255950522E-001 -3.4281051409E+000  +7.3407605911E-003 +8.9599910643E+001  +5.7285478199E-003 +9.6866534670E+001  +9.2726949287E-001 -4.2444651532E+000 
14150405.507 +9.1976182937E-001 -3.8462338307E+000  +7.7452623665E-003 +9.2774068920E+001  +7.7025655795E-003 +9.5232495917E+001  +9.4157330124E-001 -3.8632590091E+000 
14275550.688 +9.6491742782E-001 -5.8789936768E+000  +8.7104018080E-003 +9.7366506527E+001  +5.7168139100E-003 +8.8622015946E+001  +9.7356242696E-001 -3.8357730725E+000 
14400695.870 +9.7622236530E-001 -4.9322356031E+000  +8.8587192435E-003 +8.6208555419E+001  +6.5919487787E-003 +8.6783979184E+001  +9.8767363441E-001 -4.2053635436E+000 
