!  2-Port S-parameters saved by WinCal
! VAR MeasName=S-Parameters (CALIBRATED_DATA) read from VNA (P5004A)
! VAR MeasDate=27/08/2024 16:11:58
! VAR NAME=S2_r1c9_SET1_9k-100M_3
! VAR FILENAME=S2_r1c9_SET1_9k-100M_3.S2P
! VAR DATE=27/08/2024 16:11:58
! VAR PHYS_PORTS=1,2
! VAR ObjTypeName=DATASET
! VAR IndexType=Frequency
!
# Hz S MA R 50
9000.000 +1.0407090613E-001 -1.4619118592E+002  +7.1929331156E-003 -4.3460076570E+001  +1.8029677811E-002 -6.9622636031E+001  +2.3600604373E-001 -1.4266971682E+002 
134145.181 +1.1153500936E-001 +1.6967462324E+002  +3.9018278771E-004 -7.3046694849E+001  +6.7923135817E-004 +1.7074850020E+002  +2.4145469477E-001 -1.7123678184E+002 
259290.363 +1.1185779913E-001 +1.6926004612E+002  +1.7296616339E-004 +1.2426432638E+002  +3.5703628495E-004 +5.2780368977E+001  +2.4340507232E-001 -1.6829816613E+002 
384435.544 +1.1260705598E-001 +1.6977635490E+002  +1.8757861514E-004 +1.5423878516E+002  +1.1073949415E-003 +1.1232813125E+002  +2.3967283823E-001 -1.6895282274E+002 
509580.726 +1.1461879750E-001 +1.7057732837E+002  +6.5559040491E-004 +2.2241941230E+001  +1.1759646916E-003 +9.1578603619E+001  +2.3957718180E-001 -1.6493427851E+002 
634725.907 +1.1754558397E-001 +1.7050021454E+002  +1.0256616916E-003 -1.4557532736E+002  +1.1755881381E-003 +1.1115652342E+002  +2.4129596184E-001 -1.6364754936E+002 
759871.089 +1.1859621665E-001 +1.7044678437E+002  +1.8512713638E-003 -1.0418527135E+002  +9.8861524790E-004 +7.1641025244E+001  +2.3146421437E-001 -1.6249946063E+002 
885016.270 +1.1806737076E-001 +1.6844428723E+002  +3.0651290168E-004 +1.0703770982E+002  +1.0682735269E-003 +1.0631398748E+002  +2.3756707806E-001 -1.6527175549E+002 
1010161.452 +1.1805249844E-001 +1.7116162821E+002  +1.4020092861E-003 +1.3356540707E+001  +1.2009797829E-003 +1.6263804761E+002  +1.8639578428E-001 -1.7423605029E+002 
1135306.633 +1.1750473056E-001 +1.6963434793E+002  +1.0409919736E-003 +8.1952582224E+000  +1.7779795264E-003 +1.1832782565E+002  +1.6358188878E-001 -1.5283733415E+002 
1260451.815 +1.2374084541E-001 +1.6961624547E+002  +1.0014502597E-003 -5.1787909473E+001  +1.4616492991E-003 +1.3501500471E+002  +2.1133430696E-001 -1.6179264652E+002 
1385596.996 +1.2510945437E-001 +1.7191563674E+002  +5.4726844665E-004 -5.9965268723E+001  +4.6155513113E-004 -1.7558784818E+002  +2.5565164097E-001 -1.6176635822E+002 
1510742.178 +1.2838069764E-001 +1.7052155643E+002  +2.7311399090E-004 -9.3219215511E+001  +1.0380217901E-003 -3.6441805825E+001  +2.4466638415E-001 -1.6148154895E+002 
1635887.359 +1.2819532490E-001 +1.7034715270E+002  +7.8292631960E-004 -5.2370110483E+001  +2.3105042885E-003 -1.6568808998E+002  +2.3529428474E-001 -1.5545236758E+002 
1761032.541 +1.3192187044E-001 +1.6857929028E+002  +1.2475394963E-003 -2.5476139823E+000  +1.8107776602E-003 -1.0119941883E+002  +2.2227423862E-001 -1.6401589443E+002 
1886177.722 +1.3067595579E-001 +1.6825969625E+002  +3.6155317789E-003 +1.6193169705E+001  +1.8050458340E-003 -1.0166712949E+002  +1.8941554761E-001 -1.6006649745E+002 
2011322.904 +1.3366698989E-001 +1.6675843517E+002  +2.5727234603E-003 +1.0430143364E+002  +5.0740280087E-003 -8.2475866353E+001  +1.5259517503E-001 -1.6426109086E+002 
2136468.085 +1.2858752976E-001 +1.6483466444E+002  +5.4670566113E-003 +8.6484093234E+001  +6.7245493460E-003 +1.2011164789E+001  +2.1280938190E-001 +1.7659377174E+002 
2261613.267 +1.3406733028E-001 +1.6931542107E+002  +4.5850125746E-003 +6.0075762802E+001  +2.2637617864E-003 -3.1947166403E+001  +2.1326081892E-001 +1.7701790589E+002 
2386758.448 +1.4113977742E-001 +1.6391672045E+002  +6.3558149719E-003 +1.0169088171E+002  +1.4723183898E-002 -1.8928536103E+001  +2.1696246217E-001 +1.3549520009E+002 
2511903.630 +1.3539975056E-001 +1.6550714812E+002  +1.3989091702E-002 +8.7146305849E+001  +1.3952314013E-002 -1.3785858752E+001  +2.7917971289E-001 +1.4983353373E+002 
2637048.811 +9.7817998179E-002 +1.6565012201E+002  +2.3319124372E-002 +4.2274477112E+001  +3.5183118629E-002 -5.6426786329E+001  +1.5456008035E-001 +1.4342244085E+002 
2762193.992 +1.0808990984E-001 +1.7422731986E+002  +6.4871528126E-002 -9.3099517908E+001  +9.8773564180E-002 +1.7768654177E+002  +6.6602810953E-001 -9.8655480464E+001 
2887339.174 +1.1216865499E-001 +1.6612975115E+002  +2.6493616889E-001 -7.4819311224E+001  +1.6468766644E-001 +1.4005028143E+002  +2.2397063453E+000 -6.9066301865E+001 
3012484.355 +1.0766370667E-001 -1.7330801147E+002  +3.4004651701E-002 -4.8028795091E+001  +6.2869308819E-002 -1.2014036667E+002  +1.5399263937E-001 -5.0588696497E+001 
3137629.537 +9.2157134648E-002 +1.7724211524E+002  +1.5710686666E-001 -2.9001281932E+000  +2.5366703035E-001 -8.4987140650E+001  +2.1127855047E+000 -1.2200242355E+001 
3262774.718 +1.2097971258E-001 +1.7444197639E+002  +1.8930050980E-002 -1.8579333833E+001  +2.7175082733E-002 -1.0435449934E+002  +1.1800646654E-001 -9.6146530043E+001 
3387919.900 +1.3796005240E-001 +1.5823601147E+002  +7.2748058611E-002 +2.9265116975E+001  +5.3177877879E-002 -7.0383853198E+001  +5.9681562979E-001 -1.8428418904E+000 
3513065.081 +1.3164551200E-001 +1.4990370391E+002  +4.7325322908E-002 +5.5632772464E+001  +4.4522061345E-002 -3.7313771915E+001  +1.5301916626E-001 +7.0349104745E+001 
3638210.263 +1.7152283555E-001 +1.5189744215E+002  +2.7146786090E-002 +1.0566514428E+002  +3.5949863723E-002 +5.9249369758E+001  +4.9691301846E-001 +1.3353150497E+002 
3763355.444 +1.7849493090E-001 +1.5018113777E+002  +2.7889252536E-002 +1.0902191990E+002  +2.1968283653E-002 +5.2591512372E+001  +4.6830682012E-001 +1.4200447623E+002 
3888500.626 +1.8015842221E-001 +1.5578113624E+002  +2.6653971895E-002 +1.0732031835E+002  +1.6865117099E-002 +3.1125812775E+001  +4.2082975227E-001 +1.4461738355E+002 
4013645.807 +1.8103148175E-001 +1.5220741848E+002  +3.0530117157E-002 +1.2004598552E+002  +3.5915212731E-002 +2.0358621661E+001  +5.6922878484E-001 +1.3101212037E+002 
4138790.989 +1.9495653909E-001 +1.3910998934E+002  +4.4358938235E-002 +1.0796342965E+002  +3.1994431357E-002 +3.4631380788E+001  +4.0474107062E-001 +1.4352571254E+002 
4263936.170 +2.0620498498E-001 +1.4291228965E+002  +5.4567117869E-002 +8.2021099156E+001  +5.5780926395E-002 +1.7879314976E+001  +3.8134599636E-001 +8.5569883480E+001 
4389081.352 +2.1722234606E-001 +1.3895869891E+002  +4.1030662173E-002 +1.0358281308E+002  +3.7093519320E-002 +5.4071630878E+001  +4.4477600078E-001 +1.4303566233E+002 
4514226.533 +2.2075842931E-001 +1.3942400573E+002  +1.0029952274E-001 +6.7970399300E+001  +8.8231510186E-002 +3.1654038481E+000  +7.6966814538E-001 +5.1297679424E+001 
4639371.715 +2.6057391645E-001 +1.3275104353E+002  +1.2826863772E-001 +1.0846683844E+002  +9.6502992352E-002 +5.0854675914E+001  +1.0539412121E+000 +9.2092904280E+001 
4764516.896 +3.2087868411E-001 +1.3256796272E+002  +2.5307875051E-001 +1.6311696510E+002  +1.7294948079E-001 +1.1728615982E+002  +3.0254340377E+000 +1.3580299390E+002 
4889662.078 +4.0918475418E-001 +1.3357672894E+002  +4.9462929763E-001 +1.5244536568E+002  +5.0001590696E-001 +1.0240872900E+002  +4.5325706602E+000 +1.1062837209E+002 
5014807.259 +3.4603150680E-001 +1.3579698703E+002  +3.2685619089E-001 +1.3957663458E+002  +2.7310247311E-001 +9.1582785070E+001  +3.7614528412E+000 +1.1103135797E+002 
5139952.441 +3.5373308792E-001 +1.3035629333E+002  +1.9818007924E-001 +1.3438649173E+002  +2.1772033423E-001 +7.5020380338E+001  +2.5027196893E+000 +1.0116846275E+002 
5265097.622 +3.7618150884E-001 +1.2622005786E+002  +1.5148826766E-001 +1.1785211070E+002  +1.5185278073E-001 +8.2233215405E+001  +1.4783764815E+000 +1.1384320854E+002 
5390242.804 +3.4099403826E-001 +1.2970699199E+002  +1.1801615499E-001 +9.7815025129E+001  +1.2855767689E-001 +5.8231686101E+001  +1.3933657420E+000 +8.7754914990E+001 
5515387.985 +4.4315813414E-001 +1.3861750465E+002  +1.8945483538E-001 +1.2914200842E+002  +1.6724696698E-001 +8.9768062253E+001  +2.8991083959E+000 +1.0539324396E+002 
5640533.166 +4.1784107316E-001 +1.3716770654E+002  +1.0765152974E-001 +8.2653875229E+001  +9.2101177795E-002 +6.2739333240E+001  +1.2651734523E+000 +8.9207526327E+001 
5765678.348 +5.1077659370E-001 +1.2598980338E+002  +1.6424760630E-001 +1.0070686659E+002  +1.6300448479E-001 +6.6608272007E+001  +1.6611215994E+000 +8.6936699875E+001 
5890823.529 +5.2850061236E-001 +1.2515962347E+002  +1.8397486774E-001 +7.8901442392E+001  +1.5096719330E-001 +5.6904973979E+001  +2.0343426649E+000 +5.9213791814E+001 
6015968.711 +6.7273025871E-001 +1.1655261920E+002  +2.2950260504E-001 +6.8371939228E+001  +1.9167482627E-001 +5.4789066732E+001  +1.8341829706E+000 +4.6943347938E+001 
6141113.892 +8.0698860271E-001 +1.1499123829E+002  +2.3482063131E-001 +6.7593693892E+001  +2.1456238159E-001 +4.3142746744E+001  +1.9243895009E+000 +2.3212412643E+001 
6266259.074 +6.7425023664E-001 +1.0410735472E+002  +1.8451520903E-001 +4.6580299215E+001  +1.9093704052E-001 +2.8646301660E+001  +1.6225530827E+000 +3.3825733377E+001 
6391404.255 +7.9451962408E-001 +9.9247891572E+001  +1.8298452784E-001 +4.5596522536E+001  +1.8176293016E-001 +2.2765660229E+001  +1.5300226558E+000 +2.2642290576E+001 
6516549.437 +9.1017867680E-001 +9.5998354101E+001  +1.6940573155E-001 +3.4622055190E+001  +1.7245188060E-001 +2.6161127616E+001  +1.2883076440E+000 +1.2919205272E+001 
6641694.618 +1.5548126578E+000 +6.9848259549E+001  +2.3949954731E-001 +3.2676553334E+001  +2.2447165561E-001 +2.4540681796E+001  +1.0915492064E+000 +9.9056672101E-001 
6766839.800 +1.6709861553E+000 +4.5394961515E+001  +2.6782587520E-001 +1.9665924366E+001  +2.4686727721E-001 +9.7635918880E+000  +1.1650819189E+000 +1.2580555588E+001 
6891984.981 +1.7104903547E+000 +3.4824667664E+001  +2.4208344580E-001 +3.8974564265E+000  +2.2659693623E-001 +3.6682468829E+000  +1.2732862998E+000 -9.6197269481E+000 
7017130.163 +1.5317911720E+000 +1.0372489939E+001  +2.0690934150E-001 -3.6249573905E+000  +1.8675904074E-001 -1.1213418614E+001  +1.1179166386E+000 -5.5413492519E+000 
7142275.344 +1.6073186996E+000 +1.4300919537E+001  +1.7616390628E-001 +5.8341682550E+000  +1.7140813542E-001 +2.7587308947E+000  +1.2321100818E+000 -1.6667269220E+001 
7267420.526 +1.3091472486E+000 -4.8430736172E+000  +1.4928051638E-001 -9.3499203994E-001  +1.3158189055E-001 -2.6578596147E+000  +1.1950308574E+000 -1.4470541799E+001 
7392565.707 +1.2448938996E+000 -8.0147336662E+000  +1.2591593785E-001 +4.6762079526E+000  +1.1204350345E-001 +5.2925505707E+000  +1.2027277739E+000 -2.3453875135E+000 
7517710.889 +1.0285572780E+000 +8.5239540095E-001  +1.1037339532E-001 +8.5951525303E+000  +1.0435690056E-001 +9.1929254162E+000  +1.1359842824E+000 -5.2815528858E+000 
7642856.070 +9.2522453981E-001 -3.6090838976E-001  +1.0130155439E-001 -9.2620835711E-001  +9.6738914212E-002 +3.2936537516E+000  +9.3218352802E-001 -5.8720779529E+000 
7768001.252 +9.0464013048E-001 +3.9143146129E+000  +9.9578762734E-002 +6.0991762489E+000  +1.0085050512E-001 +1.0245520630E+001  +9.3319203731E-001 -8.3700384689E+000 
7893146.433 +7.5739299624E-001 +3.5027966314E+000  +9.1335120473E-002 -2.8353730103E+000  +9.2197763257E-002 +3.9125225196E+000  +7.1719067219E-001 -1.0262919916E+001 
8018291.615 +7.4413782734E-001 +1.3592043702E+001  +9.0027778655E-002 +1.6875761811E+000  +9.0856896209E-002 +1.2216439687E+001  +7.8988726091E-001 -2.0202597734E+000 
8143436.796 +6.9569599530E-001 +3.9445833809E+000  +9.1092682085E-002 -3.1927895628E-001  +8.7197126418E-002 +9.4106599046E+000  +7.7635524588E-001 +1.1305750040E+000 
8268581.977 +6.8120859238E-001 +1.5860561031E+001  +8.4633162409E-002 +2.7597790291E-001  +8.4088043909E-002 +9.7889939965E+000  +7.1853955015E-001 -7.2543276003E-001 
8393727.159 +6.1724047031E-001 +4.9857341899E+000  +8.9607689959E-002 -3.4462584231E-001  +8.5678577596E-002 +8.1973073461E+000  +6.3900808962E-001 +2.4705363676E+000 
8518872.340 +5.7436359666E-001 +9.9026723413E+000  +7.8141097234E-002 -1.9764714804E+000  +8.2309518538E-002 +1.3038297686E+001  +6.3391978042E-001 +6.9178894194E+000 
8644017.522 +6.0913812744E-001 +7.7621171924E+000  +8.2579300062E-002 -7.9358625142E+000  +8.0949289320E-002 +1.4264727108E+001  +6.3081329323E-001 +2.6879171563E+000 
8769162.703 +5.7821880472E-001 +1.1396903443E+001  +7.6937099964E-002 -3.8963984825E+000  +8.2769768277E-002 +1.0398369003E+001  +6.0407573441E-001 +2.9093862572E+000 
8894307.885 +4.7667948546E-001 +7.7477434411E+000  +7.7461128799E-002 -1.1597356719E+000  +7.6405659682E-002 +9.5235984368E+000  +5.2524641607E-001 +1.2758177578E+000 
9019453.066 +5.3281313102E-001 +3.4822877789E+000  +8.0327981980E-002 -6.9546735354E-001  +8.1421895393E-002 +1.2766718992E+001  +4.5822228403E-001 -3.0537074242E+000 
9144598.248 +5.0497123313E-001 +8.0524764548E+000  +7.6775767483E-002 -1.0816144961E+000  +8.0186508943E-002 +1.1952040492E+001  +5.1490118957E-001 -5.4616513221E-001 
9269743.429 +4.9746270974E-001 +8.7656023763E+000  +7.8389445860E-002 -3.4220676785E+000  +8.1800319936E-002 +1.0540724581E+001  +4.8769857224E-001 -1.3155742111E+000 
9394888.611 +5.3224349106E-001 +6.1895747859E+000  +7.9610984058E-002 -3.7611793379E+000  +8.1073619368E-002 +1.3988730727E+001  +5.3336710369E-001 -1.5676263422E+000 
9520033.792 +4.3890177376E-001 +3.4784390327E+000  +7.7782161867E-002 -2.3700115575E+000  +7.6713750060E-002 +1.2480541751E+001  +5.0091169636E-001 -5.8936765923E+000 
9645178.974 +4.9239752595E-001 +1.3451723389E+000  +8.0805333520E-002 +2.2587246812E-001  +8.0653309017E-002 +1.5380932476E+001  +5.1096442251E-001 -5.8709990069E+000 
9770324.155 +5.2636872106E-001 -4.1969756295E+000  +8.2431795949E-002 -4.0008526327E+000  +8.0489711937E-002 +1.4238539060E+001  +5.0530523609E-001 -4.6325539970E+000 
9895469.337 +4.4143061384E-001 +4.0848508912E+000  +8.1822662488E-002 -2.6764627770E+000  +7.8370192011E-002 +1.4942229063E+001  +5.0496955164E-001 -1.7375163873E+000 
10020614.518 +4.3905702232E-001 +2.3689901677E+000  +8.0008395250E-002 -1.9771511678E+000  +8.3259752994E-002 +1.4559222247E+001  +5.1664064656E-001 -5.1482920689E+000 
10145759.700 +4.6133418964E-001 -4.8722780178E-001  +8.2996326334E-002 +3.4105596385E-001  +7.8843311446E-002 +1.3630560154E+001  +5.4277154702E-001 -1.6905320127E+000 
10270904.881 +4.9305791071E-001 +5.5738512655E+000  +8.0624664359E-002 -8.7894846348E-001  +8.0568626387E-002 +1.4624434584E+001  +4.9709801842E-001 +2.0096958877E+000 
10396050.063 +4.7576926982E-001 +6.7989633915E+000  +8.1284688587E-002 -7.8437529246E-002  +8.1806641480E-002 +1.7209268633E+001  +5.0378131790E-001 +4.5274904664E+000 
10521195.244 +4.9972649979E-001 +8.5005184132E+000  +8.0564495687E-002 +2.6143859976E-001  +8.0502151477E-002 +1.6315984872E+001  +4.8539524331E-001 +9.7242243018E-001 
10646340.426 +4.9456382136E-001 +7.3576489966E+000  +7.9286896246E-002 +3.2009855447E-001  +8.1223815212E-002 +1.4456502646E+001  +4.8931552002E-001 +2.7903153792E+000 
10771485.607 +5.2483888009E-001 +9.7718582532E+000  +8.1155099806E-002 +2.0665266806E+000  +8.2373726734E-002 +1.7323514198E+001  +5.1397677463E-001 +2.7613174966E+000 
10896630.788 +4.9176586753E-001 +1.0660231391E+001  +8.0618939494E-002 +7.5075806296E-001  +8.2635404554E-002 +1.3772764221E+001  +5.2599297060E-001 +2.9962437767E+000 
11021775.970 +4.8618143035E-001 +7.2436284400E+000  +8.4536811414E-002 +1.4960698611E+000  +8.3724969461E-002 +1.6677162323E+001  +4.9689527472E-001 +1.1811512977E+000 
11146921.151 +5.3120554002E-001 +1.0427975353E+001  +8.5502267067E-002 +2.2180448959E+000  +8.1177822347E-002 +1.5827381062E+001  +5.1163122694E-001 +4.9935515677E+000 
11272066.333 +5.0716741385E-001 +6.7435656232E+000  +8.5154614440E-002 +2.5451902288E+000  +8.5279420441E-002 +1.4486731544E+001  +5.3863811646E-001 +3.3680580667E+000 
11397211.514 +5.2073876463E-001 +8.8899283539E+000  +8.6271115317E-002 +1.9664572353E+000  +8.5091340501E-002 +1.4735012420E+001  +5.3347276669E-001 +1.1768237323E+000 
11522356.696 +5.3857931243E-001 +6.3423005149E+000  +8.6182707768E-002 +2.8217692734E+000  +8.5521914659E-002 +1.4398657194E+001  +5.3885258824E-001 +2.9306993393E-001 
11647501.877 +5.7325063402E-001 +9.5236420628E+000  +8.4179673653E-002 +3.4688558547E+000  +8.8014704400E-002 +1.5124059129E+001  +5.5782456928E-001 +3.5433894677E+000 
11772647.059 +5.5380072160E-001 +4.3003900873E+000  +8.7686611596E-002 +4.9412742619E+000  +8.8061932035E-002 +1.4925456608E+001  +5.7975599597E-001 +3.5766746280E+000 
11897792.240 +5.3258752492E-001 +4.4935622824E+000  +8.9782105578E-002 +3.9141635332E+000  +8.7312116957E-002 +1.4310180007E+001  +5.9672686763E-001 +3.3478513596E+000 
12022937.422 +5.8910786756E-001 +7.1135865368E+000  +8.9122491878E-002 +4.0988933710E+000  +9.1703463258E-002 +1.4814282347E+001  +5.8580422332E-001 +2.0327953209E+000 
12148082.603 +6.0969344759E-001 +6.3785559843E+000  +8.9832730640E-002 +6.4970583051E+000  +8.7867082170E-002 +1.3856943415E+001  +6.1478632698E-001 -5.0586065432E-001 
12273227.785 +5.9723472477E-001 +3.6580817228E+000  +9.1486239908E-002 +4.5939957745E+000  +9.1750125231E-002 +1.2709555084E+001  +5.9781058579E-001 +1.1531688620E+000 
12398372.966 +6.0303627814E-001 +3.5571545526E+000  +9.2286456870E-002 +5.3450108077E+000  +9.1882091615E-002 +1.2516540731E+001  +6.2314629773E-001 -2.1995388688E-001 
12523518.148 +6.2045299555E-001 +3.6796962516E+000  +9.3197760748E-002 +5.8818069181E+000  +9.2087906451E-002 +1.1929420777E+001  +6.2649710469E-001 +1.3961224339E+000 
12648663.329 +6.3437906199E-001 +1.8848611932E+000  +9.4284455374E-002 +5.8900995501E+000  +9.4660341057E-002 +1.2910307282E+001  +6.5361614417E-001 +1.5340458844E+000 
12773808.511 +6.5121403566E-001 +2.8277660002E+000  +9.5527242579E-002 +4.5150802560E+000  +9.6010346206E-002 +1.2237272647E+001  +6.8067398174E-001 -1.2189828943E+000 
12898953.692 +6.6328804300E-001 +1.2616463736E+000  +9.7180367774E-002 +5.4673759057E+000  +9.5178519307E-002 +1.0188345899E+001  +6.7464403160E-001 -5.9662242847E-001 
13024098.874 +6.9033668035E-001 +1.4826572697E+000  +9.9821236818E-002 +6.5155363560E+000  +9.8084448849E-002 +1.1051130221E+001  +6.9762699079E-001 -1.8294292948E+000 
13149244.055 +7.1328429501E-001 +1.8454192291E+000  +9.8831242907E-002 +6.5337247922E+000  +9.7622790492E-002 +1.0697165645E+001  +7.2466782348E-001 -1.6683186629E+000 
13274389.237 +7.0537621001E-001 -1.0003316190E-001  +9.8501024497E-002 +6.6481944457E+000  +9.8327846822E-002 +9.7611350891E+000  +7.2177136314E-001 -2.3743424879E+000 
13399534.418 +7.3560645882E-001 -3.1069533480E-001  +1.0113787896E-001 +6.5803225207E+000  +9.9848155660E-002 +1.0126335628E+001  +7.5600645537E-001 -1.9652738392E+000 
13524679.599 +7.5258943196E-001 -7.9107522183E-001  +1.0001129098E-001 +6.5664539096E+000  +1.0113182965E-001 +9.4567699672E+000  +7.4198239170E-001 -9.5822408626E-001 
13649824.781 +7.6892888055E-001 -1.4072508950E+000  +1.0328720061E-001 +6.5572590064E+000  +1.0131114710E-001 +8.0516548478E+000  +7.7241140868E-001 -2.0143685900E+000 
13774969.962 +7.8729236764E-001 -3.4796515889E+000  +1.0385436038E-001 +6.0764500208E+000  +1.0259873164E-001 +7.6953775127E+000  +7.9489050135E-001 -3.5453253206E+000 
13900115.144 +7.9764189366E-001 -2.3267893188E+000  +1.0478758385E-001 +5.8193547691E+000  +1.0247136812E-001 +7.5316054697E+000  +8.2354995893E-001 -4.0985592817E+000 
14025260.325 +7.9782264411E-001 -4.0311164511E+000  +1.0558205086E-001 +5.3927627550E+000  +1.0381331886E-001 +6.9013888723E+000  +8.3572580164E-001 -4.2450188537E+000 
14150405.507 +8.1575672704E-001 -3.8773177854E+000  +1.0562106157E-001 +5.6560279271E+000  +1.0459937069E-001 +6.2961753904E+000  +8.4537672612E-001 -5.8335892892E+000 
14275550.688 +8.4551004761E-001 -5.2692689844E+000  +1.0688388471E-001 +4.7883749116E+000  +1.0546447848E-001 +6.3770576256E+000  +8.7045385086E-001 -3.8138494804E+000 
14400695.870 +8.6177665450E-001 -5.0573808674E+000  +1.0721141772E-001 +5.4794269982E+000  +1.0406080203E-001 +7.1583444237E+000  +8.8631929625E-001 -3.7952398871E+000 
