!  2-Port S-parameters saved by WinCal
! VAR MeasName=S-Parameters (CALIBRATED_DATA) read from VNA (P5004A)
! VAR MeasDate=27/08/2024 15:04:07
! VAR NAME=S2_r3c8_RESET2_9k-100M_2
! VAR FILENAME=S2_r3c8_RESET2_9k-100M_2.S2P
! VAR DATE=27/08/2024 15:04:07
! VAR PHYS_PORTS=1,2
! VAR ObjTypeName=DATASET
! VAR IndexType=Frequency
!
# Hz S MA R 50
9000.000 +6.5918602170E-002 -1.4346685727E+002  +1.0009131520E-002 -7.1084445309E+001  +1.0853567493E-002 -2.8093609621E+000  +4.4530218502E-001 -1.3842185507E+002 
134145.181 +1.1122497564E-001 +1.6943791067E+002  +3.6549198029E-004 +5.2217313079E+001  +5.7077678244E-004 -8.1447253208E+001  +2.4178359196E-001 -1.7081017589E+002 
259290.363 +1.1098878700E-001 +1.6987246981E+002  +2.4876415495E-004 +1.6849461261E+002  +8.0074469631E-004 +1.4591993240E+002  +2.4502604882E-001 -1.6831344891E+002 
384435.544 +1.1472361835E-001 +1.6971003293E+002  +6.6078575844E-004 -1.0616884370E+000  +5.3003999874E-004 -1.2155090858E+002  +2.3506330731E-001 -1.6896688150E+002 
509580.726 +1.1235643442E-001 +1.7050411836E+002  +1.4721126338E-003 -8.7223432483E+001  +7.1270184985E-004 -1.6063755524E+002  +2.4543003612E-001 -1.6678254686E+002 
634725.907 +1.1486783930E-001 +1.7109385159E+002  +8.3934526310E-004 -5.8256882757E+001  +8.6628254707E-004 -1.3791568419E+002  +2.5293918140E-001 -1.6676896121E+002 
759871.089 +1.1567296743E-001 +1.7141475576E+002  +6.5631059402E-004 -1.6671493837E+002  +1.0404997080E-003 +1.5019491414E+001  +2.5376167207E-001 -1.6562790207E+002 
885016.270 +1.1901491477E-001 +1.6858299182E+002  +3.6029430549E-004 +1.6240300925E+002  +3.9595511691E-004 +7.2174466260E+001  +2.4309829045E-001 -1.6676548517E+002 
1010161.452 +1.1810288797E-001 +1.7140456838E+002  +7.0622180698E-004 +1.4810393931E+002  +9.2133336464E-004 -1.4454896090E+002  +1.7363952111E-001 -1.6263629289E+002 
1135306.633 +1.1706239080E-001 +1.6999536316E+002  +1.0257639230E-003 -1.3987898759E+002  +2.1004964249E-003 -1.4458884469E+002  +2.1105569242E-001 -1.6727760428E+002 
1260451.815 +1.2035700262E-001 +1.7221871742E+002  +6.8998547310E-004 +1.3005044299E+002  +1.7291387876E-003 +3.1103621165E+001  +2.3635886678E-001 -1.5865514100E+002 
1385596.996 +1.2206578133E-001 +1.7165446427E+002  +6.9985870939E-004 +1.4318863769E+002  +1.1505737026E-003 +2.5431977940E+001  +2.5760841545E-001 -1.6063048196E+002 
1510742.178 +1.2519580273E-001 +1.7138263997E+002  +1.1311985373E-003 -1.7102627170E+002  +8.9673673167E-004 -3.4039162906E+001  +2.6781737813E-001 -1.5752064387E+002 
1635887.359 +1.2803023802E-001 +1.6905900100E+002  +1.0794520704E-003 -6.6169810529E+001  +7.6921163080E-004 +2.7515680563E+001  +2.3930032632E-001 -1.5780249347E+002 
1761032.541 +1.2840397125E-001 +1.6945647209E+002  +6.7825844488E-004 -8.3667728195E+001  +9.4980135055E-004 -1.1654037535E+002  +2.1649369112E-001 -1.5545223912E+002 
1886177.722 +1.2306483032E-001 +1.6895500128E+002  +1.0609108607E-003 +1.5115238820E+002  +1.3444263509E-003 -1.1574204626E+002  +2.2984004333E-001 -1.7120388133E+002 
2011322.904 +1.3134523895E-001 +1.6612490870E+002  +4.8657572303E-004 -1.7465966015E+002  +1.8431782375E-003 +1.4102452925E+002  +1.7714563277E-001 -1.7266220596E+002 
2136468.085 +1.3192307660E-001 +1.6664203731E+002  +2.7965468051E-003 +8.0170247380E+001  +2.4251616181E-003 +1.5857116500E+002  +1.4259081253E-001 -1.6551926819E+002 
2261613.267 +1.3392801514E-001 +1.6549527301E+002  +5.5772774766E-003 +1.0522451744E+002  +4.5001961299E-003 -4.2495885321E+001  +1.2029818063E-001 +1.3842252806E+002 
2386758.448 +1.3672335613E-001 +1.6320374668E+002  +6.3397432860E-004 -1.2858685496E+002  +1.1408229949E-003 +1.1723643395E+002  +2.4174298007E-001 +1.7277909872E+002 
2511903.630 +1.3065194531E-001 +1.6105612514E+002  +1.7959954101E-003 -8.3411333402E+001  +4.1026914968E-003 +1.1056286881E+002  +1.7893748657E-001 +1.6507755244E+002 
2637048.811 +1.0396315187E-001 +1.7716747065E+002  +1.0586385509E-002 -1.6374094048E+001  +9.0408856341E-003 -9.9221214754E+001  +1.5733574435E-001 +1.1964526624E+002 
2762193.992 +3.9623759769E-002 -1.4379446012E+002  +4.0295287106E-002 +1.5785616726E+002  +1.8772620875E-002 -1.6093409680E+002  +5.8790970286E-001 +1.3916782704E+002 
2887339.174 +1.1101466047E-001 +1.7771288694E+002  +2.5138652338E-002 -8.9507196799E+001  +2.9657676039E-002 -1.3797007990E+002  +1.4054855289E+000 -1.1192203117E+002 
3012484.355 +9.3229975713E-002 -1.6186951414E+002  +4.5723233546E-003 +6.3832417336E+001  +8.3133656940E-003 -1.3009240959E+002  +2.9488366761E-001 -1.1558216746E+002 
3137629.537 +1.1722443536E-001 +1.7164891171E+002  +3.2210584178E-003 -9.5181228032E+000  +1.5368769037E-002 -1.2769215297E+002  +4.5702127478E-001 -9.0641539323E+001 
3262774.718 +1.2145495513E-001 +1.5420114885E+002  +1.4971595287E-002 +1.5520827681E+002  +2.9623425402E-003 -1.1213607276E+002  +1.9250342206E-001 -1.2543909111E+001 
3387919.900 +1.2292948127E-001 +1.5462078070E+002  +2.1044036714E-003 -4.4964133404E+001  +3.7556706503E-002 +4.0102365449E+001  +9.7651329499E-001 +7.8006630822E+000 
3513065.081 +1.2995687037E-001 +1.3539443499E+002  +2.3072041770E-002 +1.5467620217E+002  +1.9487439598E-002 -1.1707225926E+002  +4.6843574548E-001 -6.9431813348E+000 
3638210.263 +1.6879394850E-001 +1.4788875119E+002  +7.9573313887E-003 -1.0600442282E+002  +6.8743577189E-003 -9.3163179348E+001  +6.2207738811E-001 +1.5656706459E+002 
3763355.444 +2.0538458746E-001 +1.3408395615E+002  +5.0901944751E-002 -1.1367486630E+002  +7.8467204415E-002 +2.2840045765E+001  +2.0511198901E+000 +1.5567590397E+001 
3888500.626 +2.0490039077E-001 +1.3372099926E+002  +2.8568916876E-002 -7.3429739369E+001  +2.2742206934E-002 -9.8709302180E+001  +1.1515467788E+000 +1.1508132659E+002 
4013645.807 +1.6424001723E-001 +1.4992709362E+002  +3.2239708635E-003 -5.1311461493E+001  +8.1747698334E-003 +1.4318984536E+002  +3.4490880761E-001 +1.3617336049E+002 
4138790.989 +1.5666015539E-001 +1.5200323035E+002  +3.7914279205E-003 -8.1594005694E+001  +9.9644154947E-003 +9.9197449756E+001  +1.4300286884E-001 +6.1591511766E+001 
4263936.170 +1.9615925597E-001 +1.3857079465E+002  +1.7095900017E-002 +1.3976347930E+002  +3.0427352184E-002 -1.7716795204E+002  +1.1642673644E+000 +1.0895582485E+002 
4389081.352 +2.1065388712E-001 +1.3395192011E+002  +1.2940512783E-002 -9.4426871479E+001  +1.1058424898E-003 -1.1623702785E+002  +6.9358815291E-001 +1.2429118149E+002 
4514226.533 +2.0377083167E-001 +1.2327911263E+002  +3.4281084472E-002 +1.4420432168E+001  +1.8831376346E-002 +6.2025684172E+001  +1.4785374844E+000 +1.0542043182E+002 
4639371.715 +2.5745759524E-001 +1.2973819677E+002  +4.8711996957E-002 +9.7333876077E+001  +8.3774148329E-002 +7.8774186041E+001  +5.6981384850E+000 +5.1135910263E+001 
4764516.896 +4.9756488823E-001 +1.0825899049E+002  +9.8668264650E-002 -1.6040590277E+002  +4.6245833110E-002 +1.7914930107E+002  +4.1674723084E+000 -1.5035510199E+002 
4889662.078 +4.0980530186E-001 +1.3203849436E+002  +1.6492271869E-002 -2.0226775476E+001  +3.4379986139E-002 +8.2656126476E+001  +2.6107738284E+000 -1.2362772475E+002 
5014807.259 +3.5250839834E-001 +1.3126591738E+002  +2.0481903236E-002 -1.0346602918E+002  +5.1391833849E-002 +1.1740705826E+001  +3.3912768531E+000 -5.4503269226E+000 
5139952.441 +5.3799177416E-001 +1.3216155580E+002  +2.5919077990E-002 -3.4164765115E+000  +2.5656436811E-002 -1.7226996081E+002  +2.5153292737E+000 +1.4207675446E+002 
5265097.622 +4.1261535996E-001 +1.2519179054E+002  +2.4478520606E-002 -1.6358598728E+002  +5.9717624993E-002 -1.2075781153E+002  +7.4496891079E+000 +1.2509603737E+002 
5390242.804 +4.3833156672E-001 +1.3093218791E+002  +6.6875648774E-002 -1.6465667004E+002  +1.3127908965E-002 -1.0545263146E+002  +4.5697987499E+000 +1.1692137848E+002 
5515387.985 +4.2278704714E-001 +1.2846693947E+002  +4.2561928093E-002 +1.6245010949E+002  +2.9837672048E-002 +7.2007506410E+001  +2.4586445217E+000 +8.2779726606E+001 
5640533.166 +5.0621816061E-001 +1.2869285580E+002  +1.9772693848E-002 +6.6281929380E+001  +1.2458947138E-002 +9.3642368847E+001  +3.4072933018E+000 +1.0914411424E+002 
5765678.348 +5.7290974634E-001 +1.2488098012E+002  +3.0404654209E-002 +1.2577190450E+002  +2.2853128686E-002 +1.3914216848E+002  +1.8144538129E+000 +5.9427904224E+001 
5890823.529 +6.4977062968E-001 +1.1036282553E+002  +3.7885865425E-002 +1.0639767244E+002  +3.4980448209E-002 +4.5813455853E+001  +2.0622681675E+000 +4.0363505460E+001 
6015968.711 +6.6124306091E-001 +1.1958961768E+002  +6.2536751499E-003 -1.1947855414E+002  +4.3227297545E-002 +3.7197284714E+001  +2.3786206047E+000 +4.1806737725E+001 
6141113.892 +6.8121853282E-001 +1.1722342465E+002  +5.3778769745E-003 +1.3327133806E+002  +2.1159685387E-002 +1.3068826473E+002  +1.9973372467E+000 +6.8613858724E+001 
6266259.074 +8.2251147205E-001 +9.5847353004E+001  +1.0447742183E-002 +1.0877820677E+002  +1.7534603517E-002 +1.3507979920E+002  +1.5642405870E+000 +4.6794686790E+000 
6391404.255 +9.8962648282E-001 +9.7519955116E+001  +2.1721237022E-002 +1.3110808436E+002  +1.3963218771E-002 +1.6436640808E+002  +1.4603657749E+000 +4.2799724774E+000 
6516549.437 +1.3116906916E+000 +9.2387570509E+001  +4.5924290406E-002 +1.2507246567E+002  +1.6198594923E-002 +7.7279510441E+001  +1.1551815822E+000 +2.0881756983E+001 
6641694.618 +1.1315686455E+000 +6.2322962137E+001  +1.3823379749E-002 +9.4616562174E+001  +1.4619063019E-002 -1.4904639944E+002  +1.3382647811E+000 +4.8887518194E-001 
6766839.800 +1.4025739529E+000 +4.9487567990E+001  +3.3867146254E-002 +5.0806466602E+001  +4.3562289678E-002 +4.8013019496E+001  +1.4511750788E+000 +4.8606052671E+000 
6891984.981 +1.6698496069E+000 +4.4119942846E+001  +2.2629161665E-002 +1.7179501794E+002  +9.8017562273E-003 +9.5976883121E+001  +1.3188403406E+000 -3.6691042895E+000 
7017130.163 +1.6604128783E+000 +2.1016617214E+001  +1.6473544539E-002 +5.9575507631E+001  +1.2393118694E-002 +1.3824654814E+002  +1.1911265418E+000 -1.5681480003E+001 
7142275.344 +1.4451139825E+000 +7.1897815897E+000  +1.2446271608E-002 +9.9689953079E+001  +8.6289114440E-003 -4.3460026836E+000  +1.2993015790E+000 -1.7913181537E+001 
7267420.526 +1.5720031025E+000 +2.5491014155E+000  +9.8324636499E-003 -1.5468084085E+001  +1.3929801963E-002 +1.7376297796E+002  +1.2014279818E+000 -1.4066970682E+001 
7392565.707 +1.2743497904E+000 -4.1812856373E-002  +4.1991169131E-003 +2.3168334932E+001  +7.0866889616E-003 +5.2261724106E+001  +1.2958880719E+000 -7.1987111126E+000 
7517710.889 +1.2989606376E+000 -3.1014646944E-002  +7.2396518705E-003 +5.6759335179E+001  +1.2215909494E-003 -1.7139676121E+002  +1.2961891482E+000 -4.9354216069E+000 
7642856.070 +9.8595573795E-001 +4.1180237286E+000  +1.3162950564E-002 +7.6520023595E+001  +7.2062645062E-003 +8.9552413278E+001  +1.1151745622E+000 -2.4940383915E+000 
7768001.252 +9.4476129237E-001 -6.7264238241E-001  +2.2334664485E-003 -9.5375165569E+000  +1.2915196516E-002 -4.2558202628E+001  +1.0099305784E+000 -6.2834907673E+000 
7893146.433 +9.0373770107E-001 +3.9868283187E+000  +5.1917595907E-003 +4.7318370855E+001  +3.1370527095E-003 +8.5068388794E+001  +8.9382724404E-001 -7.2148713873E+000 
8018291.615 +8.4905606584E-001 -3.8164762477E-001  +4.2767926209E-003 +5.7021373942E+001  +1.8603389980E-003 +1.1221058902E+002  +8.8475546843E-001 +3.3070311364E+000 
8143436.796 +8.3588203576E-001 +5.7854955557E+000  +3.4661705987E-003 +1.1583087980E+002  +6.7754761843E-003 +4.7693749516E+001  +7.8355793618E-001 -3.4408841754E+000 
8268581.977 +7.5999518089E-001 +4.9716875977E+000  +1.9873791385E-003 +1.6540187340E+002  +4.5622275192E-003 +8.5074410343E+001  +7.5553220249E-001 -2.7627285431E+000 
8393727.159 +6.8487855347E-001 +1.0849958364E+001  +4.3880647436E-003 +9.0998280773E+001  +7.0754971958E-003 +4.5373889391E+001  +8.1507164273E-001 +4.4262715471E+000 
8518872.340 +7.5115699219E-001 +1.3570280921E+001  +3.0189336184E-003 +7.0307613586E+001  +7.7523205376E-003 +1.0372411394E+002  +6.6967154418E-001 +9.2291026932E-003 
8644017.522 +6.4604972030E-001 +9.9780344624E+000  +9.3671121223E-003 +6.7640327626E+001  +2.6778142767E-003 +5.4324440931E+001  +6.6214534071E-001 -4.2065997670E-001 
8769162.703 +5.7892642443E-001 +1.5387877082E+000  +5.1120282797E-003 +3.6675266934E+001  +2.6473334045E-003 +5.5948519466E+001  +6.8432021895E-001 -2.9054281645E+000 
8894307.885 +6.0642543971E-001 +4.1854212164E+000  +4.0893963171E-003 +7.1633382124E+001  +9.0539802578E-003 +1.0936712240E+002  +5.5701983697E-001 +9.0320349195E-001 
9019453.066 +6.0034333809E-001 +3.6776105784E+000  +4.2731029711E-003 +8.7238044259E+001  +3.3359450561E-003 +2.1189288329E+001  +6.6035452360E-001 -3.8324132460E+000 
9144598.248 +5.8313795720E-001 +5.8980534823E+000  +4.0845914193E-003 +1.2103493443E+002  +6.4455752174E-003 +7.3743644050E+001  +6.2062270680E-001 -2.7347307886E+000 
9269743.429 +5.7070733796E-001 +4.8028473976E+000  +3.3288263210E-003 +4.3675359676E+001  +3.8869923292E-003 +5.5304933293E+001  +6.0696470645E-001 -1.6233493239E+000 
9394888.611 +5.7045229071E-001 +6.2439384849E-001  +2.0086043508E-003 +4.5062829107E+001  +5.1161687658E-003 +5.8521249019E+001  +5.9010703684E-001 -9.0361753743E-001 
9520033.792 +5.6165117137E-001 +6.5305972520E+000  +7.4983390893E-003 +7.3964632877E+001  +3.6138519091E-003 +8.9002799837E+001  +6.0737274582E-001 -4.9167724082E+000 
9645178.974 +5.8719787140E-001 -2.4764269112E+000  +6.3011774273E-003 +4.8511517715E+001  +7.0826783951E-003 +1.1897362372E+002  +5.9334411353E-001 -7.7884658416E+000 
9770324.155 +5.3988906475E-001 -5.6311099419E-001  +7.8587696174E-003 +7.0579752994E+001  +4.2881670456E-003 +7.5665941441E+001  +5.6588542028E-001 -3.0099872686E+000 
9895469.337 +5.2936116335E-001 -3.5441416439E+000  +5.2787729926E-003 +5.2737164958E+001  +5.6240641390E-003 +7.4468407319E+001  +6.0807537520E-001 -1.0178648918E+001 
10020614.518 +5.6898962619E-001 -3.2363829430E+000  +3.6554100375E-003 +5.8492675259E+001  +3.7151231835E-003 +1.0994313441E+002  +5.8724826810E-001 -6.4696948564E+000 
10145759.700 +5.3896086467E-001 +4.8361627956E+000  +4.2709981948E-003 +9.5006657051E+001  +4.7194166457E-003 +9.0114039077E+001  +5.8412794652E-001 -8.5091537915E-001 
10270904.881 +5.6785635083E-001 +2.7231922536E+000  +5.6250156182E-003 +8.8215241669E+001  +3.0241225821E-003 +1.1368787596E+002  +6.0428623676E-001 -1.5997919756E+000 
10396050.063 +5.6452785050E-001 +3.6976629711E+000  +5.4425847739E-003 +1.0544567500E+002  +5.2111952909E-003 +1.0356541227E+002  +5.9828083288E-001 -3.2583639563E+000 
10521195.244 +5.9081277676E-001 +8.0542585671E+000  +4.6297064572E-003 +7.1130557992E+001  +2.9463485432E-003 +8.5478518856E+001  +5.8916707094E-001 -2.5545894818E+000 
10646340.426 +5.5668009541E-001 +4.8553354732E+000  +5.6440152168E-003 +2.6363755255E+001  +5.5373087336E-003 +9.0311695093E+001  +6.0808380621E-001 +5.8642977521E-001 
10771485.607 +5.6943212617E-001 +5.0694241313E+000  +5.6142978015E-003 +7.5565604459E+001  +5.8670053981E-003 +4.2897931641E+001  +5.7435525413E-001 -1.8497295704E+000 
10896630.788 +5.7595190145E-001 +7.1619026789E+000  +5.8170482970E-003 +9.4404304214E+001  +6.8202366817E-003 +9.5904579206E+001  +5.9695118765E-001 +3.4732619524E-001 
11021775.970 +5.8808176307E-001 +4.4508093236E+000  +5.0156486204E-003 +5.8823908940E+001  +6.6700959074E-003 +6.3407956755E+001  +6.3088130611E-001 +2.2407509026E-001 
11146921.151 +6.0809948128E-001 +4.6980283739E+000  +4.1523251581E-003 +4.7363310844E+001  +6.7940661682E-003 +7.5921256662E+001  +6.2607728934E-001 +7.6282011650E-001 
11272066.333 +6.0911068714E-001 +4.1973750008E+000  +4.3983549319E-003 +4.6285159484E+001  +5.7445424713E-003 +8.8709704818E+001  +6.4637861437E-001 +2.1397703918E+000 
11397211.514 +5.8579362222E-001 +8.2043752780E+000  +5.2889276780E-003 +7.1675081102E+001  +5.4221614723E-003 +9.5454449744E+001  +6.4641950315E-001 +1.5644655081E+000 
11522356.696 +6.0287459829E-001 +5.8905522697E+000  +5.9348880688E-003 +7.9430571757E+001  +6.2480724002E-003 +7.6480952282E+001  +6.5176527218E-001 +1.3675844725E+000 
11647501.877 +6.3182679018E-001 +7.4636596862E+000  +6.3810015393E-003 +7.1351558335E+001  +4.8454826858E-003 +9.3860404348E+001  +6.6893476439E-001 +2.8966229487E+000 
11772647.059 +6.1626995017E-001 +7.2860451051E+000  +5.5296298572E-003 +7.0706456224E+001  +5.9417863519E-003 +7.9888859441E+001  +6.5573869271E-001 -5.4718022290E-001 
11897792.240 +6.3104034993E-001 +4.1905573492E+000  +4.9746096617E-003 +6.7308846189E+001  +6.9170179280E-003 +7.8678927108E+001  +6.6639608289E-001 -7.6724796518E-002 
12022937.422 +6.7702562587E-001 +5.5341765237E+000  +6.9402376646E-003 +7.2606060988E+001  +5.7471972809E-003 +8.5805046857E+001  +6.8210276123E-001 +1.7821683510E-001 
12148082.603 +6.6911520218E-001 +4.6757662355E+000  +5.1478657976E-003 +5.9154196409E+001  +6.4282117394E-003 +7.7580791666E+001  +7.0771988028E-001 -1.2041929518E+000 
12273227.785 +6.9945099789E-001 +4.6420063267E+000  +5.6596257680E-003 +7.4234715918E+001  +6.3467299673E-003 +8.2023853123E+001  +7.0636032021E-001 +1.5203096209E+000 
12398372.966 +7.1822662220E-001 +4.7758278608E+000  +7.9334606382E-003 +7.2547854471E+001  +5.7538930394E-003 +8.4428435327E+001  +7.2737474000E-001 +2.7652582364E-001 
12523518.148 +6.8628954534E-001 +2.1817947717E+000  +5.9609724801E-003 +7.6925005963E+001  +6.4527069483E-003 +8.5040953664E+001  +7.3006297152E-001 -3.0290586697E-001 
12648663.329 +7.5444574809E-001 +1.5601590328E+000  +6.0202242876E-003 +7.3094606503E+001  +6.4658388522E-003 +6.3790743516E+001  +7.7237461456E-001 -1.0370940882E+000 
12773808.511 +7.5200999796E-001 +5.2526076788E-001  +5.5239931635E-003 +7.7356100405E+001  +6.0169912031E-003 +7.7842538482E+001  +7.8691452340E-001 -8.0897359892E-001 
12898953.692 +7.5183457618E-001 +2.3662151813E+000  +7.4713731038E-003 +7.5555161881E+001  +6.4193375592E-003 +9.7810145915E+001  +7.7236500101E-001 -1.7745375523E+000 
13024098.874 +7.8311010192E-001 +6.3674821012E-001  +5.8593396531E-003 +8.6061642815E+001  +6.8118502432E-003 +8.9578938921E+001  +7.8270128262E-001 +2.2190061950E-001 
13149244.055 +7.9237331149E-001 -5.7832626197E-001  +6.8183555997E-003 +7.4051741664E+001  +6.4129060525E-003 +5.9348505783E+001  +7.9421629602E-001 -2.6203589052E-001 
13274389.237 +7.9405333006E-001 -7.2184053212E-001  +7.4332149763E-003 +6.8773492139E+001  +6.8140254639E-003 +7.8173824102E+001  +8.1259474811E-001 -1.1366494176E+000 
13399534.418 +8.1139669029E-001 -6.0365706188E-001  +7.3575902112E-003 +8.4784901472E+001  +5.3840234475E-003 +7.6347612458E+001  +8.4770249728E-001 -3.6508323194E+000 
13524679.599 +8.4469613609E-001 -5.6109101651E-001  +7.8196418504E-003 +7.9889871534E+001  +8.4016107281E-003 +9.1084787764E+001  +8.5388553833E-001 -1.6299002417E+000 
13649824.781 +8.6299464401E-001 -5.2185461516E-001  +7.0254961991E-003 +6.8981389618E+001  +7.7649884301E-003 +7.3365338657E+001  +8.6588258318E-001 -2.2609498620E+000 
13774969.962 +8.8659956352E-001 -2.3146647034E+000  +6.8880998995E-003 +8.1567016625E+001  +6.2108602015E-003 +7.8599757465E+001  +8.9290343348E-001 -2.7863583058E+000 
13900115.144 +9.1556671579E-001 -3.2257336104E+000  +4.9189170053E-003 +6.9119723674E+001  +7.4081358723E-003 +7.9729770241E+001  +9.1538770962E-001 -3.1150038603E+000 
14025260.325 +9.2823526801E-001 -3.8597856968E+000  +7.2321684903E-003 +6.8061773662E+001  +8.0282121940E-003 +8.0715415885E+001  +9.1806004852E-001 -2.4048039281E+000 
14150405.507 +9.3157791810E-001 -3.1398182680E+000  +6.2697716065E-003 +7.5697990943E+001  +7.9552722201E-003 +8.0452634026E+001  +9.5157155864E-001 -3.3468109943E+000 
14275550.688 +9.3874088263E-001 -3.8959971725E+000  +7.0990236759E-003 +7.7195145141E+001  +7.4763214886E-003 +8.0476425081E+001  +9.6166429353E-001 -3.9911237609E+000 
14400695.870 +9.8393894781E-001 -4.7082130214E+000  +7.9553043517E-003 +7.8030895685E+001  +8.0357449748E-003 +7.9688920442E+001  +9.8197828602E-001 -5.0743067302E+000 
