!  2-Port S-parameters saved by WinCal
! VAR MeasName=S-Parameters (CALIBRATED_DATA) read from VNA (P5004A)
! VAR MeasDate=28/08/2024 10:28:49
! VAR NAME=S2_r4c9_SET2_9k-100M_2
! VAR FILENAME=S2_r4c9_SET2_9k-100M_2.S2P
! VAR DATE=28/08/2024 10:28:49
! VAR PHYS_PORTS=1,2
! VAR ObjTypeName=DATASET
! VAR IndexType=Frequency
!
# Hz S MA R 50
9000.000 +8.9357360125E-002 -1.6839071786E+002  +5.4296197919E-003 -1.1557133833E+002  +1.6434266039E-002 +1.5105482315E+002  +2.4566639743E-001 -1.4366930754E+002 
134145.181 +1.1038570781E-001 +1.6958483425E+002  +4.4548289023E-004 +3.1642677981E+001  +5.2027163234E-004 +3.4196885539E+001  +2.3994383341E-001 -1.7037936295E+002 
259290.363 +1.1166493627E-001 +1.7000851149E+002  +1.0649206498E-003 -1.1253227452E+002  +4.2296666403E-004 +1.0029862812E+002  +2.4341955030E-001 -1.7020243961E+002 
384435.544 +1.1397462169E-001 +1.6941761194E+002  +7.3972850690E-004 -1.5161262670E+002  +4.8624706870E-004 -2.6580476790E+001  +2.4595834249E-001 -1.6934154663E+002 
509580.726 +1.1440444708E-001 +1.7081796561E+002  +1.1210584926E-003 -5.8658229067E+001  +1.7771365146E-003 -3.9247854852E+001  +2.6216697966E-001 -1.5923345453E+002 
634725.907 +1.1895331040E-001 +1.7082201737E+002  +8.4274548514E-004 +1.0321331601E+002  +2.4067944505E-004 -7.9211007621E+001  +2.6677559459E-001 -1.6385984156E+002 
759871.089 +1.1951357370E-001 +1.7088758235E+002  +3.8196687931E-004 +1.4072948565E+001  +3.1970394033E-004 +7.1747543898E+001  +2.4835619050E-001 -1.6645987167E+002 
885016.270 +1.1963809786E-001 +1.6952109956E+002  +4.3661575695E-004 -1.0125987979E+002  +4.6240165692E-004 -6.3993964383E+001  +2.4722830519E-001 -1.6561590402E+002 
1010161.452 +1.1909659797E-001 +1.7032665942E+002  +9.2197105370E-004 +2.8416040698E+001  +5.6725222126E-004 -1.3566891678E+002  +1.9542621270E-001 -1.6717527365E+002 
1135306.633 +1.1224459116E-001 +1.6966825660E+002  +1.3292889887E-003 -4.8981880663E+001  +1.8635402571E-003 -3.6678068664E+001  +2.0536903161E-001 -1.6814549873E+002 
1260451.815 +1.1880958198E-001 +1.7034153016E+002  +2.0126124594E-003 +1.2513066679E+001  +1.7968484709E-003 +1.4416263527E+002  +2.0911666674E-001 -1.5038524625E+002 
1385596.996 +1.2664437995E-001 +1.7127070182E+002  +9.0804792763E-004 -5.6410296440E+001  +1.3170433699E-003 +1.1259421777E+002  +2.8692678854E-001 -1.5695113159E+002 
1510742.178 +1.2731348060E-001 +1.7289478349E+002  +2.0502933027E-003 -1.1266585107E+002  +1.4883887824E-003 -1.1731355435E+002  +2.7945852075E-001 -1.5861766792E+002 
1635887.359 +1.2515169209E-001 +1.7107226978E+002  +6.5999273877E-004 -6.0281150482E+000  +1.4510823900E-004 -7.1726218946E+000  +2.5256944199E-001 -1.5843843006E+002 
1761032.541 +1.2802863237E-001 +1.7080047055E+002  +2.3469348292E-003 -1.0285074205E+002  +2.4028748398E-003 -8.2208510100E+001  +2.0474925385E-001 -1.6311723113E+002 
1886177.722 +1.2377976775E-001 +1.6841318219E+002  +1.4954885900E-003 -5.3924711063E+001  +3.7716121709E-003 -1.7499634775E+002  +1.9140741389E-001 -1.6205339044E+002 
2011322.904 +1.3266666057E-001 +1.6716417891E+002  +9.9867668539E-004 +1.6976380465E+002  +2.9675637543E-003 -1.6708499081E+002  +2.2694513516E-001 -1.5590521431E+002 
2136468.085 +1.3187443834E-001 +1.6931053664E+002  +2.2395857041E-003 +1.3265829575E+002  +1.9527643336E-003 +1.2101049923E+002  +1.7467755354E-001 -1.7840599935E+002 
2261613.267 +1.2589413672E-001 +1.6711107379E+002  +1.8625895636E-003 +1.7019752049E+002  +2.7526651454E-003 -9.7733158193E+001  +1.6836947505E-001 +1.7104048835E+002 
2386758.448 +1.3276861397E-001 +1.6696273595E+002  +6.5484793645E-003 +3.6820841517E+001  +3.9002992654E-003 -6.0926529895E+001  +1.7337610581E-001 -1.7749059170E+002 
2511903.630 +1.3236350082E-001 +1.6260826731E+002  +8.4116873921E-004 -1.0215568423E+002  +9.5059828412E-003 -9.6225955382E+001  +1.8074117573E-001 +1.6958410615E+002 
2637048.811 +1.2342120047E-001 +1.6063872479E+002  +6.4592705599E-003 +9.8132688094E+001  +4.5882154543E-003 +9.9717663463E+001  +2.5929231393E-001 +1.6876815991E+002 
2762193.992 +1.1628770327E-001 +1.7841266465E+002  +3.1850719261E-002 -1.4331043648E+002  +3.6347025195E-002 +7.3822041709E+001  +1.6051125481E+000 -1.4738607780E+002 
2887339.174 +1.2445311583E-001 +1.6894563956E+002  +1.4031259059E-002 -1.5396067751E+002  +1.2016896990E-002 -1.6326090826E+002  +4.3315871750E-001 -9.2077540332E+001 
3012484.355 +1.2394884087E-001 +1.7723636503E+002  +3.7307122858E-003 -7.1883644872E+001  +7.3304961368E-003 -4.8645740266E+001  +3.8356923241E-001 -1.1313644678E+002 
3137629.537 +1.1922640152E-001 +1.7211511459E+002  +1.3072526858E-002 +4.6836947881E+001  +4.7538153274E-003 -9.1584131654E+001  +1.8565721564E-001 -1.1044622753E+002 
3262774.718 +1.3562282610E-001 +1.6161158822E+002  +8.5324854799E-003 +1.1819183285E+002  +1.5629261402E-002 +1.0899305230E+001  +3.6804521499E-001 +2.3234613537E+001 
3387919.900 +1.3219003717E-001 +1.6523935715E+002  +3.5414515874E-003 -1.2167639500E+000  +3.5258487584E-003 -1.7578972437E+002  +7.9444804098E-002 -1.0406228602E+002 
3513065.081 +1.2773252492E-001 +1.4832351764E+002  +7.6539488689E-003 -6.7062791043E+001  +2.2744539355E-003 -8.2149526948E+001  +1.1817018755E-001 -9.2874353913E+001 
3638210.263 +1.6435961058E-001 +1.5197051307E+002  +1.0617317974E-002 +1.7588157991E+002  +5.4086329975E-003 -4.2365953322E+001  +6.0847908969E-001 +1.4609329809E+002 
3763355.444 +1.6249912082E-001 +1.4202949610E+002  +7.3763504418E-003 +6.7038022777E+001  +2.4147884431E-002 +1.2547468808E+002  +8.3252859412E-001 +1.4283136904E+002 
3888500.626 +1.8035194734E-001 +1.4736708368E+002  +6.1787822205E-003 -1.5859355283E+002  +5.3008852726E-003 +8.2851541618E+000  +6.4035597133E-001 +1.1861894416E+002 
4013645.807 +1.6283339881E-001 +1.4629826824E+002  +3.1193118349E-003 +1.7508600096E+002  +1.3496536720E-002 -2.0169319012E+001  +3.4125404633E-001 +1.4343861158E+002 
4138790.989 +1.9726665731E-001 +1.4089273877E+002  +9.6173333941E-003 +1.6481999442E+002  +5.6774824812E-003 +1.1614493783E+002  +4.3861930212E-001 +1.2486932107E+002 
4263936.170 +1.7716236559E-001 +1.4895945652E+002  +4.5281004224E-003 +8.4123335994E+001  +1.0742118635E-002 +6.2301046175E+001  +5.3260281356E-001 +1.1660899672E+002 
4389081.352 +1.8837256860E-001 +1.3884949930E+002  +1.9809797740E-002 +1.1221612471E+002  +6.2941257037E-002 -1.0934476953E+001  +2.2817226010E+000 +3.6388188349E+001 
4514226.533 +2.4935430975E-001 +1.3957577319E+002  +2.1619406993E-002 +1.5426363814E+002  +1.7123708291E-002 +5.2927479307E+001  +7.1823585212E-001 +1.0897585781E+002 
4639371.715 +2.6037584896E-001 +1.2696212428E+002  +2.9039555865E-002 -1.4961096914E+001  +3.9267065337E-002 +1.5541381258E+001  +8.1575122604E-001 -1.6425249857E+001 
4764516.896 +3.9542151931E-001 +1.4179507871E+002  +1.2620892024E-001 -1.6759127389E+002  +1.5795425684E-001 +5.4352010241E+001  +1.1441511794E+001 +9.0238440388E+000 
4889662.078 +4.2494039895E-001 +1.2523953286E+002  +6.7543974366E-002 -1.7156985310E+002  +2.7448235980E-002 -6.9100216636E+001  +3.1650310683E+000 +1.6339055476E+002 
5014807.259 +3.9184190538E-001 +1.3209187781E+002  +3.7113563541E-002 +1.4638209164E+002  +2.7576390371E-002 +1.5375888512E+002  +3.7230681064E+000 -1.6890122573E+002 
5139952.441 +3.7207587336E-001 +1.2740633405E+002  +1.1767061656E-002 +6.1166558286E+001  +2.5347349182E-002 +7.6833295226E+001  +2.7433068837E+000 +1.5810723716E+002 
5265097.622 +4.2191798010E-001 +1.3059309995E+002  +1.8024750686E-002 +1.7667491445E+001  +2.6588650519E-002 +2.7376027988E+000  +1.7034992994E+000 +8.8096201292E+001 
5390242.804 +3.9520231973E-001 +1.1096043559E+002  +1.0454433792E-002 -1.1426968650E+002  +2.5483663993E-002 +2.4064049311E+001  +1.7061445272E+000 +6.9133181705E+001 
5515387.985 +4.6370349946E-001 +1.3300572399E+002  +5.7579933734E-002 +4.2370304803E+001  +7.8870980246E-002 +1.0091332462E+002  +5.1700281557E+000 +4.2872841344E+001 
5640533.166 +4.5643997623E-001 +1.1540441007E+002  +6.9220578365E-002 +1.2229000278E+002  +5.0582340633E-002 +1.7410476266E+002  +4.1585296262E+000 +1.1464747859E+002 
5765678.348 +5.2617502554E-001 +1.2898762086E+002  +5.7388433582E-002 +1.0826710424E+002  +1.9439120087E-002 +9.6581313318E+001  +1.7891855452E+000 +4.4957552409E+001 
5890823.529 +4.6535011816E-001 +1.1925483803E+002  +4.3307003615E-002 +1.1502898340E+002  +1.7394878740E-002 +4.4911212976E+001  +2.3025712798E+000 +4.4530474861E+001 
6015968.711 +6.2123538329E-001 +1.1591151436E+002  +2.0155607597E-002 +8.1935520220E+001  +1.1106548771E-002 +6.0131615069E+001  +1.7376298177E+000 +5.6182282096E+001 
6141113.892 +7.3045815139E-001 +1.0696899187E+002  +3.8201281843E-002 +4.6451130043E+001  +3.2687736717E-002 -1.5764576165E+001  +1.9068318856E+000 +6.2387500898E+000 
6266259.074 +8.2147013001E-001 +1.0674283026E+002  +2.0620433853E-002 +5.1256773757E+001  +4.0421496099E-002 +5.4611411604E+001  +2.0999990432E+000 +2.7857042457E+001 
6391404.255 +8.7595267440E-001 +1.0248071554E+002  +2.1261365883E-002 +5.6518870768E+001  +4.1910840970E-002 +2.2370228561E+001  +2.1215696403E+000 -3.6508979860E+000 
6516549.437 +1.1521575671E+000 +9.7794148078E+001  +3.4258894962E-002 +7.0220742996E+001  +3.7745146856E-002 +6.2711562348E+001  +1.7077213587E+000 +1.7933364604E+001 
6641694.618 +1.4407371475E+000 +6.5603091685E+001  +6.0024765007E-002 +3.0577504424E+001  +2.8600899367E-002 +6.0604422887E+001  +1.3617259757E+000 -5.0188700220E+000 
6766839.800 +1.9543452485E+000 +5.2653920375E+001  +3.8612210638E-002 +1.0304130166E+001  +1.9424750590E-002 -5.9555906615E+001  +1.2099837890E+000 +4.1768462397E+000 
6891984.981 +1.8672372278E+000 +4.7303132305E+001  +2.2742158171E-002 +5.7519561204E+001  +4.5612971561E-002 -4.6878271500E-001  +1.5443486118E+000 -4.5712727850E+000 
7017130.163 +1.4897216491E+000 +1.5638942925E+001  +1.1546378840E-002 -2.0136234150E+001  +2.0659360175E-002 +1.1484889815E+001  +1.2283819809E+000 -8.5302971125E+000 
7142275.344 +1.6489071936E+000 +1.2710547069E+001  +3.9575436777E-002 +4.3975723688E+000  +2.9697295909E-002 +4.4472486694E+001  +1.1733738629E+000 -1.2522184593E+001 
7267420.526 +1.6925141781E+000 -7.0463205286E+000  +1.7123754435E-002 +2.0220762831E+001  +2.5041444821E-002 +1.0662850527E+001  +1.3306670723E+000 -8.3604297654E+000 
7392565.707 +1.2865080037E+000 -2.4388494114E+000  +1.4826998083E-002 -1.3825988248E+001  +1.8321578688E-002 -1.3174191687E+001  +1.3105301151E+000 -6.0340446480E+000 
7517710.889 +1.2194725895E+000 +1.1553021758E+000  +1.2640531261E-002 +7.0787577326E+001  +1.0616897415E-002 +7.7429328207E+001  +1.2634015991E+000 -6.7532196322E+000 
7642856.070 +9.7265992498E-001 -1.4201762098E+000  +1.9151509906E-002 -5.3365182868E+000  +1.3045096933E-002 +2.1187929470E+001  +1.0257031906E+000 -4.4772856198E+000 
7768001.252 +9.4631762851E-001 +3.9377829501E+000  +1.6386315420E-002 +1.5857379709E+001  +8.5429637560E-003 -1.6100250434E+001  +1.0471611192E+000 -3.8040080849E+000 
7893146.433 +8.0592936024E-001 +6.8972891746E+000  +1.2182724105E-002 -1.1069309509E+001  +1.0692574505E-002 +4.1380009940E+001  +9.4275014657E-001 -4.4837264353E-002 
8018291.615 +8.3284220045E-001 -2.5784630910E-001  +1.6153039073E-002 +8.3104947978E+000  +3.8493701315E-003 -1.0533069561E+002  +8.1762910067E-001 -6.4038287988E+000 
8143436.796 +7.9155455272E-001 +6.5416541911E+000  +1.7340097403E-002 +1.7688558751E+001  +1.0472508209E-002 +6.6031618287E+000  +7.3460070566E-001 -4.7129749559E+000 
8268581.977 +6.9574582225E-001 +7.0128997771E+000  +1.2538337577E-002 +4.3524760540E+001  +8.6576842883E-003 +3.2669158529E+001  +7.6026187041E-001 +1.2100853455E+000 
8393727.159 +6.9272884336E-001 +6.3080944194E+000  +1.1525831540E-002 +4.4791328978E+001  +1.0899279904E-002 +2.1566421013E+001  +7.0765424309E-001 +2.9096481661E-001 
8518872.340 +6.9970969715E-001 +2.7760944311E+000  +1.2018481218E-002 +1.5077981504E+001  +1.1025203712E-002 +3.2140322031E+001  +7.1074465251E-001 -3.9796640839E+000 
8644017.522 +6.3020076830E-001 +1.1048186692E+001  +1.0680846731E-002 +1.3446502045E+001  +1.2803767862E-002 +4.0707017942E+001  +6.5059362926E-001 -4.8055096186E+000 
8769162.703 +5.8000708485E-001 +9.3275546301E+000  +9.6082770649E-003 +2.3775134529E+001  +1.0258920810E-002 +2.5029830587E+001  +7.0408426442E-001 -1.7208978412E+000 
8894307.885 +6.2908088777E-001 +4.7676333344E+000  +1.3350511915E-002 +2.2922069355E+001  +7.7256386474E-003 +1.0705859256E+001  +6.6646444305E-001 +3.8999902944E+000 
9019453.066 +5.7299604728E-001 +6.6560260869E+000  +9.7580272232E-003 +2.4292447188E+000  +1.3886952921E-002 +2.1982950497E+001  +6.4098948589E-001 -1.4950919030E+000 
9144598.248 +5.5316236103E-001 +9.9771273828E+000  +1.0913840590E-002 +1.1903804590E+001  +1.0463566198E-002 +2.6587043455E+001  +6.1706665287E-001 -3.3203114955E+000 
9269743.429 +5.4092091101E-001 +1.0972401957E+001  +1.2022801547E-002 +1.1260929606E+001  +1.0482752942E-002 +3.0238155442E+001  +6.6075623679E-001 +4.5406203628E-001 
9394888.611 +5.5172658002E-001 +2.0325882365E+000  +5.1770162734E-003 -1.3870268852E+001  +1.2694089278E-002 +2.1729110178E+001  +5.8620806664E-001 -4.5570740945E+000 
9520033.792 +5.6201240298E-001 +6.0266480056E+000  +1.0030383761E-002 +4.1549640589E+001  +1.5035711825E-002 +3.3001955036E+001  +5.7219843186E-001 -4.1268308367E+000 
9645178.974 +5.6395541139E-001 +1.3858920732E+000  +1.2667468565E-002 +3.5780438047E+001  +1.1640635962E-002 +3.4193452873E+001  +6.0572048082E-001 -3.5565808251E+000 
9770324.155 +5.6217926491E-001 -4.1931628038E+000  +1.3885378913E-002 +3.2218046372E+001  +1.0794036477E-002 +2.5716789493E+001  +5.3488019482E-001 -5.8320117251E+000 
9895469.337 +5.3699245734E-001 +5.8925444115E-001  +9.9909229292E-003 +1.1615496146E+001  +7.0694854909E-003 +3.7870429367E+001  +5.6606073785E-001 -1.3615277607E+000 
10020614.518 +5.7995823026E-001 +3.4150465849E+000  +1.1016490570E-002 +3.5351758538E+001  +1.1174063018E-002 +4.9141383869E+001  +5.4304170853E-001 -8.6685525653E+000 
10145759.700 +5.7923789520E-001 +4.7799402598E+000  +9.4587121856E-003 +1.4889116405E+001  +9.1159540830E-003 +3.8276087390E+001  +5.7724974831E-001 -1.3554004132E+000 
10270904.881 +5.2298650813E-001 +4.5076092643E+000  +1.3694602230E-002 +3.0000024348E+001  +8.7131761657E-003 +2.7594160815E+001  +5.7996556689E-001 -4.9784832466E+000 
10396050.063 +5.3320947624E-001 +3.6421984259E+000  +1.1028717508E-002 +1.3077112908E+001  +1.1609360838E-002 +4.1455980273E+001  +5.9209378681E-001 +9.0689890242E-001 
10521195.244 +5.3401396349E-001 +5.0747914841E+000  +1.2285447211E-002 +2.4827296846E+001  +1.2041428821E-002 +3.9621198749E+001  +5.8875921457E-001 -2.1268278670E+000 
10646340.426 +5.9302254712E-001 +7.2500215650E+000  +1.0578593426E-002 +2.8729061480E+001  +1.1923572247E-002 +2.7615210436E+001  +5.8823589295E-001 -1.9329559447E+000 
10771485.607 +5.6906323440E-001 +5.6030969940E+000  +1.2276584703E-002 +3.2570383931E+001  +1.3098330673E-002 +3.7886982916E+001  +5.8006184455E-001 -2.4079738040E-002 
10896630.788 +5.9129534424E-001 +7.6957933870E+000  +1.3901545193E-002 +2.4831710930E+001  +1.1969256184E-002 +4.0100826691E+001  +6.3951429165E-001 -1.1846792179E+000 
11021775.970 +5.3639838476E-001 +5.1148781205E+000  +1.2790896790E-002 +1.9984955270E+001  +1.0562543441E-002 +4.0967200572E+001  +6.2100006473E-001 +7.7383383395E-001 
11146921.151 +5.5724089964E-001 +3.9890347654E+000  +1.2897718862E-002 +1.7765737553E+001  +1.3402806847E-002 +3.1109037803E+001  +6.0955893722E-001 +3.0188729797E-001 
11272066.333 +6.0825249838E-001 +4.4808961337E+000  +1.0925103427E-002 +1.1152736235E+001  +1.2387016250E-002 +4.2117102294E+001  +6.5794858210E-001 +3.2983356031E+000 
11397211.514 +5.7548104742E-001 +8.6724414353E+000  +1.3116750733E-002 +2.9778218389E+001  +1.0836864454E-002 +3.4719021216E+001  +6.2597365980E-001 +2.6405892588E+000 
11522356.696 +6.3795206123E-001 +3.0025926110E+000  +1.2392048909E-002 +2.6508215271E+001  +1.0958129194E-002 +4.2588975631E+001  +6.3837630115E-001 +8.2753787136E-001 
11647501.877 +6.2709663672E-001 +5.0872433786E+000  +9.9435005450E-003 +1.9683547078E+001  +1.3440413382E-002 +3.2477310587E+001  +6.6579622558E-001 +7.2169800746E-003 
11772647.059 +6.4271781554E-001 +7.3996547775E+000  +1.1304795827E-002 +3.6763850828E+001  +1.1282140903E-002 +3.2989678631E+001  +6.5771782583E-001 +9.1920303680E-001 
11897792.240 +6.5693005811E-001 +5.8520037987E+000  +1.1165143523E-002 +2.6330176178E+001  +1.0908993760E-002 +4.3367298374E+001  +6.3947631567E-001 +2.7000171756E+000 
12022937.422 +6.7656849524E-001 +4.1659937510E+000  +1.1874334552E-002 +3.1478407680E+001  +1.2325545465E-002 +5.0658088808E+001  +6.9105463406E-001 +6.6327901178E-001 
12148082.603 +6.7159603330E-001 +6.4284790822E+000  +1.2738591663E-002 +2.0462905640E+001  +1.4241146985E-002 +4.0273105259E+001  +6.9663539495E-001 +4.1072877268E+000 
12273227.785 +6.7655073861E-001 +3.6273885644E+000  +1.2771969950E-002 +2.5191498108E+001  +1.3586162178E-002 +3.0765559473E+001  +7.0816444408E-001 -3.3727032094E-001 
12398372.966 +7.1298605229E-001 +2.9998725386E+000  +1.3539750907E-002 +4.0366226873E+001  +1.1453925021E-002 +3.8535609285E+001  +6.9980966495E-001 +4.1089013970E-001 
12523518.148 +7.1406194210E-001 +2.9932579797E+000  +1.3079305038E-002 +3.3286568193E+001  +1.2881962457E-002 +3.1085941401E+001  +7.2812322750E-001 -1.9684479877E+000 
12648663.329 +7.3418965201E-001 +5.7572986395E+000  +1.3062739230E-002 +2.8827476204E+001  +1.3111987031E-002 +3.5426144350E+001  +7.5096039877E-001 +6.2468248587E-001 
12773808.511 +7.4500631077E-001 +1.7273508890E+000  +1.3699877338E-002 +2.6009269357E+001  +1.3373282908E-002 +3.7469380923E+001  +7.5709203315E-001 -1.1323647275E+000 
12898953.692 +7.5334411107E-001 +1.0273895864E+000  +1.3327910085E-002 +2.5592260298E+001  +1.2686643639E-002 +3.6821892975E+001  +7.8143697207E-001 +4.8663489680E-001 
13024098.874 +7.7320988350E-001 +1.1073746801E-001  +1.3668416031E-002 +3.2377852405E+001  +1.4102052692E-002 +3.5443059903E+001  +7.8685973513E-001 -1.6769200713E+000 
13149244.055 +8.0263653593E-001 +1.5851128629E-001  +1.4323115329E-002 +3.2869934575E+001  +1.3143522810E-002 +3.7249144049E+001  +8.2153553233E-001 -7.7322002863E-001 
13274389.237 +8.0584341680E-001 -4.3467528907E-001  +1.3574337195E-002 +2.9188164848E+001  +1.3749317957E-002 +3.8003834656E+001  +8.2602167637E-001 -4.0081622283E+000 
13399534.418 +8.2919828038E-001 -1.4888643030E+000  +1.3330619124E-002 +2.7354541237E+001  +1.5435525370E-002 +3.0619469381E+001  +8.5169149815E-001 -1.2743621741E+000 
13524679.599 +8.3631756752E-001 -1.7735429092E+000  +1.4724323834E-002 +3.2688530053E+001  +1.3556975635E-002 +3.5662511016E+001  +8.3553063622E-001 -3.1897164468E+000 
13649824.781 +8.7628831435E-001 -3.3643838935E+000  +1.4980448670E-002 +2.9712683525E+001  +1.3421687152E-002 +3.2221584614E+001  +8.9209764629E-001 -2.6156083339E+000 
13774969.962 +9.0299432260E-001 -2.3763028650E+000  +1.5094662455E-002 +3.3192987256E+001  +1.4271157319E-002 +3.7549615153E+001  +8.8460134801E-001 -3.4832751130E+000 
13900115.144 +9.0942511351E-001 -2.2610198892E+000  +1.6101942484E-002 +3.3299737602E+001  +1.5878323525E-002 +3.5464831628E+001  +9.1628419879E-001 -3.6079696472E+000 
14025260.325 +8.9795974690E-001 -1.6031179116E+000  +1.4267111015E-002 +3.1511858524E+001  +1.4091257334E-002 +3.9179544521E+001  +9.2021335074E-001 -3.6975365129E+000 
14150405.507 +9.2393116636E-001 -5.3551089129E+000  +1.5121260511E-002 +2.6757938428E+001  +1.3871264689E-002 +2.7496214562E+001  +9.4923054202E-001 -4.9024023387E+000 
14275550.688 +9.4615776330E-001 -5.1025354869E+000  +1.6247746306E-002 +3.5084019668E+001  +1.4005311891E-002 +2.6325638418E+001  +9.7683851707E-001 -4.7694689584E+000 
14400695.870 +9.5779642899E-001 -6.1841820536E+000  +1.5025733717E-002 +3.5413804761E+001  +1.3621617139E-002 +3.0205121647E+001  +9.7726256976E-001 -4.9770715270E+000 
