!  2-Port S-parameters saved by WinCal
! VAR MeasName=S-Parameters (CALIBRATED_DATA) read from VNA (P5004A)
! VAR MeasDate=27/08/2024 16:02:14
! VAR NAME=S2_r1c9_formed_9k-100M_2_0
! VAR FILENAME=S2_r1c9_formed_9k-100M_2_0.S2P
! VAR DATE=27/08/2024 16:02:14
! VAR PHYS_PORTS=1,2
! VAR ObjTypeName=DATASET
! VAR IndexType=Frequency
!
# Hz S MA R 50
9000.000 +8.7121147005E-002 -1.5939176237E+002  +1.3416163899E-002 -6.9159550011E+001  +2.5644095492E-002 -6.7846646893E+001  +2.8310878636E-001 -1.1576127115E+002 
134145.181 +1.1131096136E-001 +1.6945895269E+002  +5.0010395594E-004 +1.2119631398E+002  +2.2376450977E-004 +9.2255491252E+001  +2.3846488240E-001 -1.6994817123E+002 
259290.363 +1.1208352612E-001 +1.6957083906E+002  +1.0614426087E-003 +1.2885790787E+002  +3.4344320824E-004 +1.3414453442E+002  +2.3915710793E-001 -1.6703587312E+002 
384435.544 +1.1350153412E-001 +1.7001967288E+002  +1.5658749042E-004 -6.6854607985E+001  +1.0678482305E-003 -1.2606241192E+001  +2.4640209973E-001 -1.6969500586E+002 
509580.726 +1.1478591116E-001 +1.7051064120E+002  +1.0843268114E-003 -1.6717633466E+002  +1.0029559222E-003 +1.0425105456E+002  +2.4583689425E-001 -1.6471045557E+002 
634725.907 +1.1751183602E-001 +1.7103480590E+002  +1.8072864979E-004 -1.1419126699E+002  +1.0793524776E-003 +1.2756570906E+002  +2.3593527808E-001 -1.6523509279E+002 
759871.089 +1.1695819377E-001 +1.7082894906E+002  +6.4818754342E-004 +8.6139548530E+001  +1.7088366494E-004 +1.2251391047E+002  +2.3560255475E-001 -1.6277144398E+002 
885016.270 +1.1945306406E-001 +1.6962336879E+002  +5.2895043636E-005 -1.2780647492E+002  +3.4344953019E-004 +9.6904507942E+001  +2.4056089951E-001 -1.6408725431E+002 
1010161.452 +1.1712258339E-001 +1.7232142190E+002  +9.6494840861E-004 -5.0917310812E+001  +2.1219700722E-003 +4.2892478707E+001  +1.6339645366E-001 -1.7238481610E+002 
1135306.633 +1.1723792407E-001 +1.6921718228E+002  +7.3739218716E-004 +7.4463942910E+001  +1.4396613849E-003 +1.2696011541E+002  +1.9115947442E-001 -1.6219258946E+002 
1260451.815 +1.1592994886E-001 +1.7052056326E+002  +1.6386766629E-003 +5.1179062373E+001  +8.0955995229E-004 +1.8837161595E+001  +2.5048946003E-001 -1.5771968189E+002 
1385596.996 +1.2585700862E-001 +1.7243656800E+002  +4.5437572318E-004 -1.2825415117E+002  +3.8024348403E-004 -1.7758750833E-002  +2.6600261007E-001 -1.5572302612E+002 
1510742.178 +1.2547516760E-001 +1.7129827826E+002  +2.9465242786E-004 +7.3333065414E+001  +2.0254772692E-003 -1.4410258082E+002  +2.3509909113E-001 -1.5069627470E+002 
1635887.359 +1.2619544107E-001 +1.7114876864E+002  +3.4543663690E-004 +1.7752327102E+002  +2.4925460604E-004 -1.2311078722E+001  +2.4916553886E-001 -1.5910896301E+002 
1761032.541 +1.2955931667E-001 +1.7080916260E+002  +8.2293251288E-004 -1.3632519024E+002  +8.4980528766E-004 +1.7418331107E+002  +2.3231054776E-001 -1.6058968308E+002 
1886177.722 +1.2805312583E-001 +1.6675755176E+002  +9.5257557137E-005 +2.3479833071E+001  +1.0032610642E-003 -1.5253224417E+002  +1.8756793255E-001 -1.7237739609E+002 
2011322.904 +1.2769078749E-001 +1.6484293754E+002  +2.5023861594E-003 +1.1082721254E+002  +8.8304502317E-004 -2.1420397131E+001  +1.8565023001E-001 -1.6411208102E+002 
2136468.085 +1.2617576437E-001 +1.6298290061E+002  +1.9617979574E-003 +8.1649380266E+001  +8.5510590073E-004 -5.3224440345E+001  +1.9180429473E-001 -1.6433522207E+002 
2261613.267 +1.3024250458E-001 +1.6385282354E+002  +1.7443722600E-003 +7.2433814857E+001  +4.2465996582E-003 -6.3054050367E+001  +1.7476181897E-001 -1.7753739388E+002 
2386758.448 +1.3804455463E-001 +1.6161383948E+002  +4.8296025154E-003 +2.3900326900E+001  +5.3085455737E-003 -1.3553831345E+002  +3.7870448178E-001 +1.3375416827E+002 
2511903.630 +1.4135524301E-001 +1.5767779037E+002  +3.5388467894E-003 -3.1176095562E+001  +4.9152017511E-003 -1.4438380636E+002  +2.6024673619E-001 +1.7419490200E+002 
2637048.811 +1.1809267996E-001 +1.5454030694E+002  +1.4991353157E-002 +2.8072832306E+001  +1.1515416303E-002 +1.0178923331E+001  +3.2858440882E-002 +9.4331884961E+001 
2762193.992 +1.0587798588E-001 -1.7855171011E+002  +1.0197925130E-002 +6.6480333570E+000  +1.0683150124E-001 -3.5660647859E+001  +2.2372747083E+000 +1.2094414468E+002 
2887339.174 +9.9127103386E-002 +1.7374002093E+002  +8.5064860505E-002 -1.6834133192E+002  +5.4775949151E-002 +7.3566586801E+001  +2.2295552396E+000 +2.4708105048E+001 
3012484.355 +1.0431811862E-001 +1.7710192937E+002  +1.2171353522E-002 +7.9147195982E+001  +3.7805329860E-003 +8.7552464969E+001  +5.4577044565E-001 -1.0025854730E+002 
3137629.537 +1.2606172188E-001 +1.7582720094E+002  +1.8320041552E-003 -6.3396790761E+001  +3.6042651965E-003 +4.3665332116E+001  +1.7488638754E-001 -1.2521127322E+002 
3262774.718 +1.4846563960E-001 +1.6065484725E+002  +1.1623137678E-002 -3.4376197872E+000  +1.6621985703E-002 +1.1400934214E+000  +3.1490059599E-001 -1.9129934407E+001 
3387919.900 +1.3709833430E-001 +1.6008594313E+002  +1.6408675385E-002 -1.2458943317E+002  +8.6164277105E-003 -9.1087283564E+001  +9.9350244801E-001 +1.2215623962E+002 
3513065.081 +1.7637808070E-001 +1.4730872967E+002  +5.0833354889E-003 -1.6478057873E+001  +1.8242118080E-002 +1.1808874318E+002  +8.2358645381E-001 +1.1785475287E+002 
3638210.263 +1.9165125072E-001 +1.4054783899E+002  +1.3272475113E-002 +3.2601338724E+001  +3.5571043012E-002 -1.0357898098E+002  +1.5303901271E+000 +1.3138546135E+002 
3763355.444 +1.6209139092E-001 +1.4782240648E+002  +1.1040151152E-002 -1.5773348440E+001  +1.7197237247E-002 -1.5009561157E+002  +6.1916493321E-001 +6.1859886524E+001 
3888500.626 +1.8173845486E-001 +1.4427175353E+002  +7.3002864214E-003 +1.5296361799E+002  +5.1293693923E-003 +6.2662311795E+001  +5.4675012913E-001 +1.5669736055E+002 
4013645.807 +1.8054311185E-001 +1.4359330685E+002  +1.2788223290E-002 -1.6586133725E+002  +2.1859196176E-003 -3.0253352699E+001  +2.3299899076E-001 +1.1273710819E+002 
4138790.989 +2.0110453811E-001 +1.3610986649E+002  +2.4774769069E-003 +9.1214977154E+001  +9.2213216008E-003 +1.7762842244E+002  +3.5705405255E-001 +1.4801933801E+002 
4263936.170 +1.9472753716E-001 +1.3970768859E+002  +1.0027523562E-002 -5.8416707806E+000  +1.8153258632E-003 +3.5591669547E+000  +4.0127563909E-001 +1.0227355566E+002 
4389081.352 +2.2619845795E-001 +1.2200058812E+002  +1.4649269921E-002 +7.2025235157E+001  +1.8634468487E-002 +6.3363068192E+000  +7.4145936039E-001 +8.8044041977E+001 
4514226.533 +2.2143328178E-001 +1.1756370714E+002  +1.2935360042E-002 +1.0834665498E+002  +4.1810267314E-003 +6.8221176223E+001  +6.6938980067E-001 +1.2090506212E+002 
4639371.715 +3.4263572711E-001 +1.3893818087E+002  +2.8568312651E-002 -1.0238654921E+002  +6.9271592342E-003 +7.1652043092E+001  +2.0612724885E+000 +1.5957060072E+002 
4764516.896 +4.1927111071E-001 +1.2362683408E+002  +4.2302471174E-002 -1.1872829773E+002  +2.3613013005E-002 +9.3612387046E+001  +1.7723807986E+000 +1.6226464817E+002 
4889662.078 +3.7454035166E-001 +1.2463384303E+002  +3.2716173909E-002 -1.7089621259E+002  +4.6716661299E-002 -8.1784573021E+001  +2.8884747564E+000 -1.6798408052E+002 
5014807.259 +5.9529402915E-001 +1.1276627316E+002  +4.9351276499E-002 -1.3633027592E+002  +2.3783460869E-002 +4.7628632335E+001  +2.4526329332E+000 -3.5404076145E+001 
5139952.441 +4.1383641414E-001 +1.3231728168E+002  +7.8536519160E-002 -1.5372511925E+002  +4.8008463491E-002 -1.3604478101E+002  +3.9861017856E+000 +1.1456240182E+002 
5265097.622 +4.2442049167E-001 +1.2458263910E+002  +2.9908884620E-002 +1.4493254294E+002  +9.3738017790E-002 +1.0441730693E+001  +5.3317845976E+000 +9.9824962581E+001 
5390242.804 +3.8963855689E-001 +1.2862971183E+002  +4.3472311055E-002 +1.7269732573E+001  +4.5766462259E-002 +9.1388855457E+000  +2.1440990198E+000 +2.1490768555E+001 
5515387.985 +4.3516533518E-001 +1.3120725571E+002  +2.0985047783E-002 +2.7956179622E+001  +2.1750192920E-002 +1.4175523236E+002  +1.9402599335E+000 +1.1076445691E+002 
5640533.166 +5.0522766995E-001 +1.3341493066E+002  +2.5084089863E-002 +1.4483716854E+002  +1.0745446705E-002 -5.6004350148E+001  +2.0199541198E+000 +4.8456706308E+001 
5765678.348 +6.2357106624E-001 +1.2153446091E+002  +2.0394430348E-002 -5.8674638855E+000  +5.4542162046E-002 +6.6536156571E+001  +2.6131916705E+000 +7.0953562883E+001 
5890823.529 +6.0707902646E-001 +1.2478478290E+002  +1.4363116890E-002 -1.2681799355E+002  +2.4064938220E-002 +1.0779652258E+002  +1.8994411711E+000 +5.4711931393E+001 
6015968.711 +7.0932528063E-001 +1.0647013111E+002  +1.5554466363E-002 -3.4055145961E+001  +1.5509280355E-002 +1.7073000949E+002  +1.9264833780E+000 +6.2433052667E+001 
6141113.892 +8.0216552155E-001 +1.1646945039E+002  +1.6626089980E-002 -1.4909808963E+002  +5.4967710639E-003 -8.4855213739E+001  +1.9021501432E+000 +5.9618524504E+001 
6266259.074 +8.9992021932E-001 +1.0871086800E+002  +2.8709873229E-002 -1.1411084066E+001  +1.0291522330E-002 -1.0731047542E+002  +2.2819820177E+000 +8.9819737234E+000 
6391404.255 +9.3912504653E-001 +1.0138431962E+002  +1.0696095389E-002 +9.3465275397E+000  +7.8944465990E-003 +4.9766929968E+001  +1.7689385045E+000 +1.8655034368E+001 
6516549.437 +1.5069340002E+000 +8.7343706418E+001  +1.2002218326E-002 +1.7777686663E+002  +9.0518551742E-003 +4.4219030926E+001  +1.8356313030E+000 +1.9655854947E+001 
6641694.618 +1.3992843458E+000 +6.8522840053E+001  +1.5732139257E-002 +5.7945965004E+001  +2.0983110263E-002 +7.6892259302E+001  +1.1885014778E+000 -1.5077905821E+000 
6766839.800 +2.0630898593E+000 +5.6567894875E+001  +3.0588077269E-002 +1.4424648244E+001  +1.4419919652E-002 +9.8879673937E+001  +1.4457422876E+000 -1.3342688751E+001 
6891984.981 +1.9806190061E+000 +2.7337129194E+001  +2.3279912028E-002 -8.8522809587E+001  +1.0063250004E-002 -1.7525240013E+002  +1.5120311733E+000 +4.5605410634E-001 
7017130.163 +1.8408241473E+000 +2.7391183966E+001  +1.5441995491E-002 +8.5370540368E+001  +1.1179382969E-002 +1.6590420078E+002  +1.3460920857E+000 -5.5714539904E+000 
7142275.344 +1.5365024402E+000 -2.5754065227E+000  +3.1050855022E-003 +3.9295993001E+001  +1.3472149937E-002 -1.5405084318E+001  +1.4223984681E+000 -1.1187215532E+001 
7267420.526 +1.6979577083E+000 -4.7860219063E+000  +7.1441105168E-003 +1.6130746849E+002  +2.1632716069E-002 +6.2764896778E+001  +1.2906987292E+000 -1.0182411129E+001 
7392565.707 +1.3464052085E+000 -8.5601397615E-001  +1.2051821681E-002 +1.2557384216E+002  +1.2483564955E-002 +1.7960982155E+002  +1.4305629777E+000 -5.5294824717E+000 
7517710.889 +1.1737367085E+000 +1.3914005804E+000  +1.3517742926E-002 +6.9242205775E+001  +3.8315875848E-003 +7.3230179217E+001  +1.1588729440E+000 -1.7152498571E+000 
7642856.070 +1.0918703147E+000 +5.7239267893E-001  +2.1363844942E-003 -4.2761476144E+001  +5.7276862888E-003 +6.2024727485E+001  +1.0779586705E+000 -1.6303841037E+000 
7768001.252 +1.0607596648E+000 +2.8016690130E+000  +7.1216977023E-003 +1.3079502096E+001  +2.2820480274E-003 +4.8943239107E+001  +1.0610578210E+000 -6.8988579874E+000 
7893146.433 +8.5999419770E-001 -4.1313853951E+000  +1.1091349630E-002 +9.0998937045E+001  +2.1638442736E-002 +7.1480257731E+001  +9.8437468830E-001 +3.5256969941E+000 
8018291.615 +8.1724719267E-001 +4.2469878438E+000  +3.7328270290E-003 +6.2881216641E+001  +8.0720252841E-003 +7.7948173403E+001  +8.8488387349E-001 -1.4249306557E+000 
8143436.796 +7.8337469738E-001 +8.5403611222E+000  +6.7147759895E-003 +9.7400273581E+001  +5.2965794839E-003 +8.3163413509E+001  +8.2265083298E-001 -1.6481327702E+000 
8268581.977 +7.6156501362E-001 +6.9403714323E+000  +6.3141875482E-003 +1.1988717867E+002  +9.0958289064E-003 +7.6382147730E+001  +8.2404663502E-001 +3.5070251530E+000 
8393727.159 +6.9794160554E-001 +4.8525251769E+000  +7.1051456746E-003 +6.0666343767E+001  +4.7200999183E-003 +3.1190229820E+001  +7.4118093609E-001 +7.9104955042E+000 
8518872.340 +6.7842086714E-001 +1.2392969928E+000  +1.6028375061E-003 +1.0108582647E+002  +5.1152629608E-003 +9.4837738940E+001  +7.2380795843E-001 +4.7223559280E-001 
8644017.522 +6.7242591329E-001 +6.0820834704E+000  +1.1470340852E-003 +1.3785463288E+002  +2.0414755808E-003 -3.3906021911E+001  +6.8292341217E-001 -2.0500921403E+000 
8769162.703 +6.8083591060E-001 +6.7381840783E+000  +6.2455236577E-003 +1.0892252773E+002  +3.4488361565E-003 +7.9299976206E+001  +6.5366540552E-001 +1.2538083493E+000 
8894307.885 +6.5993050694E-001 +5.7631623369E+000  +3.0010246657E-003 +9.1308633022E+001  +6.8062649684E-003 +7.3929733908E+001  +6.3301509826E-001 -2.8030837187E+000 
9019453.066 +5.9233942710E-001 +2.9753431371E+000  +5.4408074288E-003 +4.9402048801E+001  +2.2517978187E-003 +7.8266261239E+001  +6.0061009533E-001 -2.2963942634E+000 
9144598.248 +5.8178623402E-001 +2.0636966872E-001  +6.4557521686E-003 +7.1620900708E+001  +8.4246998662E-003 +1.2913509212E+002  +5.5860658645E-001 -6.5418105324E+000 
9269743.429 +5.1526002069E-001 +7.2971894806E+000  +7.8355345605E-003 +5.2709982899E+001  +7.8620118410E-004 +4.1322603117E+001  +5.8198423623E-001 +1.1440037818E+000 
9394888.611 +5.2471552122E-001 +1.6593594266E+000  +5.5391078767E-003 +6.5241792906E+001  +5.6382270335E-003 +9.6444729555E+001  +6.0523190937E-001 -5.4743289659E-001 
9520033.792 +5.7005758524E-001 +1.3117139123E+000  +2.7778921588E-003 +6.9653851397E+001  +2.4782803079E-003 -1.7919591928E+001  +5.6141846882E-001 -4.0282078798E+000 
9645178.974 +5.3030565810E-001 -2.9952411693E-001  +5.5102387508E-003 +4.8279224980E+001  +6.5050869691E-003 +5.6239236407E+001  +5.8956146165E-001 -4.2638919265E+000 
9770324.155 +5.5606394332E-001 +9.9222930152E-001  +3.6899627589E-003 +5.3359092746E+001  +3.1907919890E-003 +1.1086289352E+002  +5.6393085315E-001 -1.8237893703E+000 
9895469.337 +5.4496181833E-001 +3.0409179011E+000  +5.5312473317E-003 +6.1736652358E+001  +8.8054585819E-003 +9.3055267260E+001  +5.4608134231E-001 -6.7692201413E+000 
10020614.518 +5.3824234433E-001 +2.3884636781E+000  +3.2500458322E-003 +1.0258464582E+002  +4.0919138733E-003 +1.3540305165E+002  +5.5436341218E-001 -9.1142187227E-001 
10145759.700 +5.3369959900E-001 +2.9946540170E+000  +6.7809175931E-003 +1.0177682096E+002  +5.8546478347E-003 +6.0570506193E+001  +6.0153794233E-001 -3.7201037804E+000 
10270904.881 +5.5641208971E-001 +5.3620757415E+000  +5.3506772502E-003 +8.0308712721E+001  +4.4226949460E-003 +8.2408570022E+001  +6.2025084636E-001 -3.1719521850E+000 
10396050.063 +5.8070435250E-001 +4.7586855445E+000  +3.2836690142E-003 +5.4888945413E+001  +3.7663478453E-003 +9.3437932328E+001  +6.1335558738E-001 -1.7003676778E+000 
10521195.244 +5.6700835949E-001 +6.9218046233E+000  +4.4861356965E-003 +8.9859292521E+001  +5.6916488536E-003 +1.2962913375E+002  +5.6844045314E-001 +9.0218831175E-001 
10646340.426 +5.6066344171E-001 +6.9314920002E+000  +2.3940101687E-003 +1.0830089194E+002  +3.0326603143E-003 +8.8215791640E+001  +5.6914561110E-001 -2.0433822924E+000 
10771485.607 +6.1328477779E-001 +6.5097645024E+000  +4.7800351309E-003 +8.1609623695E+001  +3.1730096811E-003 +6.4712807910E+001  +5.9913467443E-001 -4.4695930912E-001 
10896630.788 +5.4733654746E-001 +6.1998873450E+000  +5.0028997522E-003 +7.7007909368E+001  +4.2862154695E-003 +9.9890809435E+001  +5.9910355842E-001 +2.1101332903E+000 
11021775.970 +5.7564270786E-001 +5.8877830256E+000  +5.1070302472E-003 +9.2256455578E+001  +4.4811131822E-003 +8.6141642940E+001  +6.1166650890E-001 -1.0284446911E+000 
11146921.151 +5.7594359092E-001 +5.8747251445E+000  +4.1383655315E-003 +8.7173418425E+001  +4.7281422948E-003 +8.0494065377E+001  +5.8469969590E-001 -7.8996371526E-003 
11272066.333 +6.3643982872E-001 +3.9899229944E+000  +7.8756832236E-003 +5.3151135209E+001  +3.6436483776E-003 +1.0426305832E+002  +6.2249225585E-001 -8.9285446032E-001 
11397211.514 +6.0947313602E-001 +5.0796185886E+000  +5.4586975234E-003 +6.6644551196E+001  +2.5923518682E-003 +6.9989318316E+001  +6.2071329837E-001 +3.3734502182E+000 
11522356.696 +6.0051611210E-001 +4.5210215137E+000  +6.9009683949E-003 +6.8842980637E+001  +5.5144395457E-003 +6.5179901478E+001  +6.5264805804E-001 +1.7391342320E-001 
11647501.877 +6.4308779914E-001 +5.4923192710E+000  +4.5357033592E-003 +9.4161582824E+001  +4.6221895253E-003 +1.0877619731E+002  +6.4696235566E-001 +1.9126476043E+000 
11772647.059 +6.3354456885E-001 +7.0495536827E+000  +6.6922606907E-003 +5.7610343557E+001  +7.2635869826E-003 +8.2031273421E+001  +6.5689827684E-001 +2.0107904619E+000 
11897792.240 +6.5967085825E-001 +7.1446621266E+000  +5.0706835512E-003 +8.0985690577E+001  +6.5598010106E-003 +7.3533710934E+001  +6.7854092363E-001 -1.4288297830E+000 
12022937.422 +7.0269935138E-001 +3.2080381429E+000  +5.1914263568E-003 +9.5658881166E+001  +6.2932720634E-003 +1.0450260397E+002  +6.8775816126E-001 -1.4748431868E-001 
12148082.603 +6.5365211176E-001 +5.5161252334E+000  +4.2687869543E-003 +9.0899702541E+001  +5.6917123932E-003 +8.6045821698E+001  +6.7832584560E-001 +1.8104967648E+000 
12273227.785 +7.1090266093E-001 +2.5501218884E+000  +4.5640563493E-003 +6.4555311364E+001  +6.6000759305E-003 +8.9397307219E+001  +7.2278488513E-001 -1.6801809223E-001 
12398372.966 +6.8257342459E-001 +1.8243754950E+000  +5.2509310432E-003 +9.7438961199E+001  +6.1869825492E-003 +9.6646491238E+001  +7.1160245063E-001 -1.0700590999E+000 
12523518.148 +7.0508712172E-001 +3.5820845071E+000  +6.2405810284E-003 +8.4487539758E+001  +6.7649305303E-003 +8.8925053750E+001  +7.4859840515E-001 -6.6390454519E-001 
12648663.329 +7.1017374506E-001 +3.6152315271E+000  +6.7192705945E-003 +7.7694180314E+001  +6.1751215177E-003 +6.9248899000E+001  +7.3899146058E-001 -1.6002396211E-001 
12773808.511 +7.5275289805E-001 +1.0288273038E+000  +5.5767231156E-003 +9.6302771190E+001  +7.0839932685E-003 +9.0663397290E+001  +7.6879729094E-001 -2.2950462670E+000 
12898953.692 +7.5348241852E-001 -1.6161138246E-001  +7.5793108381E-003 +7.6333707635E+001  +6.3144813808E-003 +7.7332677145E+001  +7.8331360591E-001 -1.9463013207E+000 
13024098.874 +7.7485783078E-001 +1.3352910201E+000  +8.4874422168E-003 +7.5907417099E+001  +7.1179188611E-003 +6.5236185768E+001  +7.8650589242E-001 -5.3963012988E-001 
13149244.055 +8.0048224633E-001 +2.4377051652E-001  +7.9457802987E-003 +8.1217861364E+001  +7.9132303054E-003 +9.2443444936E+001  +8.1579308813E-001 -1.5833611931E+000 
13274389.237 +8.0703766697E-001 -1.1814174934E+000  +6.7245668656E-003 +8.2881800509E+001  +7.7281741482E-003 +8.6678051027E+001  +8.3373161553E-001 -2.2919065042E+000 
13399534.418 +8.3074638694E-001 +8.4635255259E-001  +7.9448524637E-003 +8.5131781654E+001  +8.3724001360E-003 +9.0118395988E+001  +8.5525483104E-001 -2.4713810796E+000 
13524679.599 +8.4016510128E-001 -2.5571017374E-001  +9.3217703068E-003 +7.1264179784E+001  +8.2522613623E-003 +7.8723104483E+001  +8.6532917108E-001 -3.4082790511E+000 
13649824.781 +8.9776086427E-001 -1.8835365229E+000  +6.8137585392E-003 +7.0153551133E+001  +7.7798244127E-003 +7.7581927953E+001  +8.7140763238E-001 -4.0975790317E+000 
13774969.962 +8.6895990739E-001 -3.2226176770E+000  +7.2797159611E-003 +8.0992320012E+001  +4.6790413276E-003 +7.9229004806E+001  +8.9887937811E-001 -2.8950020810E+000 
13900115.144 +9.1063635116E-001 -1.9108493909E+000  +8.3311315972E-003 +6.5188354574E+001  +7.4318103849E-003 +8.8171860090E+001  +9.0751366708E-001 -4.5057287790E+000 
14025260.325 +9.2704777943E-001 -3.2010956472E+000  +6.5221466173E-003 +8.1635742017E+001  +8.3403661405E-003 +8.0964523879E+001  +9.1963904476E-001 -5.1991949215E+000 
14150405.507 +9.3345608980E-001 -4.1445362978E+000  +6.6885191907E-003 +7.3883918398E+001  +6.2533144322E-003 +7.1363059833E+001  +9.5364344670E-001 -3.2790316942E+000 
14275550.688 +9.4926743931E-001 -6.1529444413E+000  +8.5168066582E-003 +8.4745879461E+001  +8.8651876957E-003 +8.3495545943E+001  +9.7159540037E-001 -3.9237053668E+000 
14400695.870 +9.8837875321E-001 -3.3843635254E+000  +8.0843885084E-003 +7.9402599039E+001  +6.9802814376E-003 +8.0152617311E+001  +9.9524862766E-001 -4.1387241630E+000 
