!  2-Port S-parameters saved by WinCal
! VAR MeasName=S-Parameters (CALIBRATED_DATA) read from VNA (P5004A)
! VAR MeasDate=27/08/2024 16:41:38
! VAR NAME=S2_r2c9_RESET2_9k-100M_2
! VAR FILENAME=S2_r2c9_RESET2_9k-100M_2.S2P
! VAR DATE=27/08/2024 16:41:38
! VAR PHYS_PORTS=1,2
! VAR ObjTypeName=DATASET
! VAR IndexType=Frequency
!
# Hz S MA R 50
9000.000 +8.1735729097E-002 -1.6280865077E+002  +1.8842694040E-002 -6.6448773131E+001  +1.1339111318E-002 +3.4869301876E+001  +2.4552660310E-001 -1.3789593687E+002 
134145.181 +1.1150863698E-001 +1.6972125339E+002  +3.2107441889E-004 +1.7952317423E+002  +6.3127723020E-004 -1.0745821747E+002  +2.3900252826E-001 -1.7035245713E+002 
259290.363 +1.1219701202E-001 +1.7031796809E+002  +9.2773214020E-004 -1.3178118806E+002  +8.1728370778E-004 -9.6979712652E+001  +2.4328473442E-001 -1.6981473950E+002 
384435.544 +1.1511564388E-001 +1.6985653932E+002  +5.0768467980E-004 -1.7831926213E+002  +1.7258695873E-004 -1.2223745240E+002  +2.3694649651E-001 -1.6909424861E+002 
509580.726 +1.1414649298E-001 +1.7071386819E+002  +4.2704589410E-004 +7.0069142683E+001  +5.9269965771E-004 +1.4799885396E+002  +2.5443209535E-001 -1.6521715395E+002 
634725.907 +1.1736075908E-001 +1.7059021600E+002  +5.4871056980E-004 +7.3085534625E+001  +9.0299621633E-004 +1.2826207177E+002  +2.4605386331E-001 -1.6472846436E+002 
759871.089 +1.1700748696E-001 +1.7097810693E+002  +4.3938735072E-004 -3.8132650663E+001  +5.1435422544E-004 +1.0079882066E+002  +2.4439370515E-001 -1.6560036731E+002 
885016.270 +1.1744496148E-001 +1.6915058223E+002  +1.1512574374E-003 -7.8444395742E+001  +7.5284884654E-004 +1.6169558911E+002  +2.3117286036E-001 -1.6437370277E+002 
1010161.452 +1.1700786666E-001 +1.7041505491E+002  +5.8149330015E-004 +1.5161334420E+002  +3.1958473429E-004 -1.1756023643E+002  +2.0242893538E-001 -1.6703772147E+002 
1135306.633 +1.1751528114E-001 +1.6862051928E+002  +9.3801459762E-004 -1.1535084673E+002  +6.4046090057E-004 +1.4592206160E+002  +2.0901824061E-001 -1.6439391231E+002 
1260451.815 +1.2127915038E-001 +1.7133682868E+002  +2.0376237876E-003 -4.7088124996E+001  +1.1961308185E-003 +1.2434122455E+002  +2.2658331022E-001 -1.5790733858E+002 
1385596.996 +1.2628683679E-001 +1.7214621455E+002  +1.1345847664E-003 -4.3203183946E+001  +2.6051005049E-003 -1.9912061872E+001  +2.4264164441E-001 -1.5607721613E+002 
1510742.178 +1.2602949719E-001 +1.7128079991E+002  +3.3757262671E-004 +1.1391574467E+002  +1.1865238016E-003 -1.2147619901E+002  +2.5590734510E-001 -1.5809465874E+002 
1635887.359 +1.2744393463E-001 +1.7102750233E+002  +2.1298088112E-003 -1.2396857782E+002  +1.4813138327E-003 +1.6466342692E+002  +2.4857263858E-001 -1.5764310913E+002 
1761032.541 +1.3065287812E-001 +1.6893134074E+002  +1.4347275036E-003 +5.3071198068E+001  +9.9348255209E-004 -1.6968297196E+002  +2.3055571054E-001 -1.5983889612E+002 
1886177.722 +1.2742431939E-001 +1.6694420994E+002  +1.1194342125E-003 -1.5822894372E+001  +2.5921189769E-003 +2.3025611367E+001  +2.2275351299E-001 -1.6652118853E+002 
2011322.904 +1.3273525227E-001 +1.6474267496E+002  +3.0804102007E-003 -1.2901418031E+002  +1.6898709433E-003 -8.9272502173E+000  +2.0698229848E-001 -1.6923089105E+002 
2136468.085 +1.3149336937E-001 +1.6648202821E+002  +1.5119261354E-003 -3.3685641856E+001  +6.6522697825E-004 -1.2594587874E+002  +1.7710177650E-001 +1.7400543453E+002 
2261613.267 +1.3071696434E-001 +1.6491470738E+002  +2.3787868429E-003 +1.4929943163E+002  +1.4320006640E-003 +1.2665275358E+002  +1.8231899999E-001 -1.6688118725E+002 
2386758.448 +1.4352176715E-001 +1.6268776865E+002  +1.6347948726E-003 -1.5694515585E+002  +2.7458293752E-003 -1.2265569034E+002  +2.2018247899E-001 +1.7307522049E+002 
2511903.630 +1.2679658552E-001 +1.6587118629E+002  +1.5775329792E-003 +9.6578115498E+001  +2.0506914296E-003 +1.8232054361E+001  +1.8834499881E-001 -1.7360761791E+002 
2637048.811 +9.1343509483E-002 +1.6703056671E+002  +8.1929297883E-003 -6.4833746124E+000  +5.7401156396E-003 -6.1963376437E+001  +1.3172461336E-001 +1.3897952371E+002 
2762193.992 +1.1884908664E-001 +1.6784120863E+002  +3.2660270508E-002 +8.7385144185E+001  +1.1736474263E-002 -2.9449530730E+001  +6.6951913242E-001 +1.3110618170E+002 
2887339.174 +6.9440975414E-002 +1.6682239615E+002  +2.2945167855E-002 +5.9254221477E+001  +2.0657147431E-002 +1.7214034366E+002  +6.0065390123E-001 -1.3183524705E+002 
3012484.355 +8.5417486005E-002 +1.6795050718E+002  +1.7232676643E-003 +1.1091695607E+002  +9.1141509631E-003 +5.0234248768E+001  +2.0960629397E-001 -8.7948676595E+001 
3137629.537 +1.3090421551E-001 +1.6117114436E+002  +2.5383075395E-003 +1.1271100358E+002  +7.1306975804E-003 +1.0997179072E+002  +3.7912600225E-001 -9.2952244114E+001 
3262774.718 +1.1950915334E-001 +1.5398465649E+002  +1.2017704580E-002 -7.8028937786E+001  +2.5751461743E-002 -3.2045987678E+000  +2.9510985913E-001 +1.2361649865E+001 
3387919.900 +1.2522449587E-001 +1.4799938951E+002  +1.5450102782E-002 -1.6860996869E+002  +6.4169926588E-003 -9.0541223842E+001  +2.0125320316E-001 +1.3561210447E+002 
3513065.081 +1.8031509956E-001 +1.4640801266E+002  +1.0743769106E-002 +7.8130542640E+000  +1.8294580171E-002 -1.4401264363E+002  +7.0441558460E-001 +1.9932272904E+001 
3638210.263 +1.6949277243E-001 +1.3460200551E+002  +2.0258997168E-002 -1.5714787618E+002  +3.8888617421E-003 +6.6783458542E+001  +7.1502615591E-001 +1.3064365764E+002 
3763355.444 +1.6179770004E-001 +1.4940462940E+002  +1.8101278499E-002 -5.5421401632E+001  +3.0998335773E-003 +8.3381195605E+001  +6.1148753819E-001 +8.2825812220E+001 
3888500.626 +1.6014471904E-001 +1.4269789701E+002  +3.9920329423E-003 +1.4167594986E+002  +6.1530903692E-003 +1.7795800638E+001  +5.1439952310E-001 +1.4811597684E+002 
4013645.807 +1.9463610391E-001 +1.4783685993E+002  +5.8600637595E-003 -1.6454231650E+002  +5.8439416176E-003 -5.1507711294E+001  +4.6053388675E-001 +1.3860985135E+002 
4138790.989 +1.7135687146E-001 +1.3506114183E+002  +4.4919439652E-003 -1.7240354828E+002  +1.5000289327E-002 +1.1532805024E+002  +1.0561087965E-001 +1.1611234812E+002 
4263936.170 +2.0709408912E-001 +1.4620414493E+002  +1.5970289780E-002 -4.7563728079E+001  +5.2541014821E-003 +8.7044976669E+001  +6.3116629209E-001 +5.6446974440E+001 
4389081.352 +2.4771414085E-001 +1.3675063403E+002  +6.2381680057E-003 +1.0865340707E+002  +1.3984032097E-002 -1.2552587124E+001  +7.5715223344E-001 +1.1072372271E+002 
4514226.533 +2.5135148545E-001 +1.4269122194E+002  +1.3419691105E-002 +4.2063626069E+001  +1.0764173743E-002 +2.6169314745E+001  +8.8391563911E-001 +7.4249570994E+001 
4639371.715 +2.5671576534E-001 +1.3483209568E+002  +2.1675221797E-002 +6.7452369142E+001  +4.0733904798E-002 -1.7803753471E+002  +9.3755131605E-001 -8.7027574187E+000 
4764516.896 +4.1051368525E-001 +1.3189166098E+002  +1.9923731279E-002 -1.3108869341E+002  +1.6832699181E-002 -2.9890997322E+001  +4.2356003435E+000 +5.0754844966E+001 
4889662.078 +4.0416579801E-001 +1.3038365316E+002  +6.7577903997E-002 -9.7203974265E+001  +2.0778332878E-002 -1.5189876333E+002  +3.1410790030E+000 -1.7237019635E+002 
5014807.259 +4.2532889540E-001 +1.2337822258E+002  +4.7420615973E-002 +3.8973229338E+001  +6.0436619458E-002 +1.7261938414E+002  +3.5416753925E+000 -8.0935280896E+001 
5139952.441 +4.0240384708E-001 +1.2156946818E+002  +4.5889172173E-002 +5.7258007519E+001  +8.2255663317E-002 +2.4221166224E+001  +5.2410044298E+000 +2.3784611285E+001 
5265097.622 +4.8284736378E-001 +1.2354299473E+002  +3.5099749088E-002 -1.7106963633E+002  +2.6835696377E-002 -1.0324188859E+002  +2.8175847647E+000 +1.0755697020E+001 
5390242.804 +5.2986731760E-001 +1.2778573601E+002  +2.6437156914E-002 -1.7622333747E+002  +5.0037633839E-002 +1.6517263927E+002  +1.6148751529E+000 +9.4250234493E+001 
5515387.985 +4.4541651872E-001 +1.2206274587E+002  +1.2219548198E-002 +8.7516973710E+001  +8.5335150701E-003 +3.9100984923E+001  +9.6369980009E-001 +6.8881363060E+001 
5640533.166 +4.8264448052E-001 +1.3258797334E+002  +4.8844136275E-002 -1.6393322019E+002  +4.0085514137E-002 -1.0386172840E+002  +2.8350152335E+000 +6.3980636378E+001 
5765678.348 +5.6287187222E-001 +1.2226367053E+002  +6.8329397471E-002 +6.9061826769E+001  +4.3946284957E-002 +1.2401853429E+001  +2.6747057556E+000 +4.8122299551E+001 
5890823.529 +5.8624700708E-001 +1.2271685277E+002  +9.9072795668E-003 -1.7444619673E+001  +1.4510145592E-002 -1.5919509757E+002  +2.4850670959E+000 +5.6368070419E+001 
6015968.711 +6.0427858846E-001 +1.0717472400E+002  +1.7319122326E-002 -1.6251459518E+002  +1.7837980636E-002 -6.7308016552E+001  +1.6678513930E+000 +3.8390869032E+001 
6141113.892 +7.8446260848E-001 +1.0842977804E+002  +4.0365190365E-002 +1.3179362630E+002  +2.4993407379E-002 +7.3827145573E+001  +2.7399414802E+000 +3.9276275960E+001 
6266259.074 +7.4710300850E-001 +1.0427249483E+002  +2.0687377407E-002 +1.1545012218E+002  +2.6042575831E-002 -1.7766756558E+002  +2.6929039790E+000 +3.5428385787E+001 
6391404.255 +1.1549867012E+000 +9.2043012664E+001  +2.1651025300E-003 +7.8912609991E+001  +3.3311910901E-002 +1.7893594186E+002  +1.3935292305E+000 +1.7777588230E+001 
6516549.437 +1.1853922566E+000 +9.7968916963E+001  +1.6001773510E-002 +5.5542203263E+001  +6.4490854536E-003 +9.6991199961E+001  +1.7598240076E+000 +1.7816220735E+001 
6641694.618 +2.0147597990E+000 +8.4368187498E+001  +9.6142972192E-003 +2.2290644938E+001  +2.5419304621E-002 +3.4264226799E+001  +1.2489196743E+000 -1.3567481328E+001 
6766839.800 +2.1017592179E+000 +5.1393969153E+001  +1.6805953247E-002 +1.0300505464E+002  +2.5653161325E-002 +1.2788797162E+002  +1.1919961900E+000 -6.5507514206E+000 
6891984.981 +1.8338473472E+000 +2.9397410077E+001  +2.6982294906E-002 +5.1710864367E+001  +1.5004840407E-002 +1.0457580838E+002  +1.5095216441E+000 -1.5838887582E+001 
7017130.163 +2.3068820661E+000 +6.5385669766E+000  +1.6781759476E-002 +8.8708572575E+001  +1.1424719344E-002 -1.5778558238E+002  +1.4676923859E+000 -9.1598652625E+000 
7142275.344 +1.7386578724E+000 +7.6659740886E+000  +2.0210277585E-002 -1.6684240701E+002  +2.0781210187E-002 +8.1576951080E+001  +1.4706467108E+000 -8.9714174436E+000 
7267420.526 +1.5541290756E+000 +7.3127382985E+000  +7.0720120368E-003 +1.3348769705E+002  +6.9392378594E-003 +7.4681942028E+001  +1.2210692246E+000 -1.2195379357E+001 
7392565.707 +1.2251049461E+000 -3.8554544318E+000  +2.9872673683E-003 -1.0350699525E+002  +8.4815635615E-003 +1.0308329071E+002  +1.5336363477E+000 -7.2510663944E+000 
7517710.889 +1.1264157906E+000 +1.1600077895E+000  +7.1281851117E-003 +1.2069455281E+002  +1.9788925917E-003 +1.1251722856E+002  +1.2313012664E+000 -1.0005697267E+001 
7642856.070 +1.0702370584E+000 -1.6795831535E+000  +9.2358923491E-003 +9.0522842356E+001  +1.1305820478E-002 +1.5553724082E+002  +1.1066778183E+000 +2.7302479968E-001 
7768001.252 +1.0022277173E+000 +6.1532468953E+000  +9.1992288288E-003 +1.1433306197E+002  +3.2302202568E-003 +1.1076422038E+002  +1.0135312571E+000 -3.8260678686E+000 
7893146.433 +8.9823221562E-001 +1.8799113161E+000  +3.8811095620E-004 -1.6437339906E+002  +4.8943122820E-003 +1.1227512857E+002  +9.0368837572E-001 -5.3856594698E+000 
8018291.615 +8.7393120174E-001 -4.0013149356E-001  +6.6807894559E-003 +1.0973728078E+002  +8.0240989614E-003 -1.3316921223E+002  +8.7629449224E-001 -6.5995192024E+000 
8143436.796 +7.9201109680E-001 +6.0698298514E+000  +1.8500837859E-003 +1.3317849382E+002  +6.0235612356E-003 +1.2333455016E+002  +8.5768344308E-001 -2.6382831624E+000 
8268581.977 +6.8635637649E-001 +3.2759652693E+000  +3.0201001735E-003 +5.2907295818E+001  +1.4120329955E-003 -1.3741127816E+002  +7.9432834985E-001 -5.2399096854E-001 
8393727.159 +7.6377225123E-001 +9.6509062226E+000  +5.1531163301E-003 +3.5325991234E+001  +1.0634331166E-003 +1.0408738305E+002  +7.3809758735E-001 -2.6117367290E-001 
8518872.340 +7.1195597723E-001 +1.0935950976E+001  +5.7933034744E-003 +5.7245327024E+001  +3.3940462711E-003 -7.5467931267E+000  +7.1036903112E-001 +8.7371650361E-001 
8644017.522 +6.5106701136E-001 +7.8603058618E-001  +6.3179608375E-003 +9.5576943010E+001  +5.5994438011E-003 +9.5788105424E+001  +7.8215168001E-001 -1.2293991225E+000 
8769162.703 +6.6886671500E-001 +1.1045389867E+001  +3.8097714314E-003 +7.1339032038E+001  +3.3527486839E-003 +1.2913506013E+002  +6.5750630718E-001 -2.1267278925E+000 
8894307.885 +6.1472099776E-001 +6.8773915382E-001  +5.0803285044E-003 +4.4662164114E+001  +7.4899038884E-003 +7.5830243109E+001  +6.2086499774E-001 +4.2249906437E+000 
9019453.066 +5.8321222685E-001 +9.0569756654E+000  +3.8112165207E-003 +1.0184267297E+002  +2.5135165110E-003 +1.4693415453E+002  +6.3599269016E-001 -5.8728158220E+000 
9144598.248 +5.9999311350E-001 +1.0854440031E-001  +5.9682002208E-003 +1.0365183133E+002  +7.8981384015E-003 +1.0309866221E+002  +6.5153643857E-001 -3.2024972727E+000 
9269743.429 +5.5035356395E-001 +7.5356470069E+000  +3.4104103844E-003 +5.0490413338E+001  +5.4522001812E-003 +8.1134140332E+001  +6.0849981710E-001 +3.0447994309E+000 
9394888.611 +5.2301289242E-001 +5.2520522141E+000  +4.9204166623E-003 +3.8148036430E+001  +4.7818889249E-003 +8.9886150752E+001  +6.2062185098E-001 -5.8971596853E+000 
9520033.792 +5.6408486920E-001 +2.8996384915E+000  +2.6168535742E-003 +4.9291967045E+001  +4.7702450904E-003 +6.1551277606E+001  +5.6968611913E-001 -9.9116136687E-001 
9645178.974 +5.7950377864E-001 +1.5244350606E+000  +4.3779997267E-003 +4.1775791471E+001  +5.3167741502E-003 +5.0258552667E+001  +5.8560032981E-001 -5.4570617962E+000 
9770324.155 +5.3974315496E-001 -5.3177785893E+000  +6.1250976639E-003 +9.5364342582E+001  +3.3734909576E-003 +1.5170964611E+002  +5.6708078721E-001 -5.3118185517E+000 
9895469.337 +5.3444973702E-001 +4.3589930293E+000  +2.1529512587E-003 +7.2223351526E+001  +6.7924065279E-003 +1.0904033052E+002  +5.8768590298E-001 -9.3001511463E+000 
10020614.518 +5.6660715368E-001 +9.1100758335E-001  +5.2370132351E-004 -1.3087354739E+002  +3.1884473727E-003 +1.2167409076E+002  +5.4345928127E-001 -3.3292225064E+000 
10145759.700 +5.9817276040E-001 +3.9762938862E+000  +5.1396825446E-003 +8.0013564515E+001  +3.2714458436E-003 +8.1520757045E+001  +6.0924673645E-001 -6.4427578160E+000 
10270904.881 +5.2903582474E-001 +7.6610434583E+000  +3.8781878038E-003 +7.2601781498E+001  +6.2004956939E-003 +1.0264811136E+002  +5.7023781652E-001 +1.0521448406E+000 
10396050.063 +5.4734222687E-001 +9.7359824308E+000  +7.6238840156E-003 +1.2973172413E+002  +5.4734760218E-003 +1.1231120299E+002  +5.9561621718E-001 -2.7621754360E+000 
10521195.244 +5.6332774239E-001 +4.7164770476E-001  +4.8917458229E-003 +7.6644924810E+001  +5.6099958304E-003 +8.1787913574E+001  +6.3268416410E-001 -1.2148333794E+000 
10646340.426 +5.4761069724E-001 +6.6730644388E+000  +7.1108832334E-003 +9.7232348194E+001  +5.3044734355E-003 +7.4010012298E+001  +5.9289956263E-001 -1.5385337819E+000 
10771485.607 +5.7319526635E-001 +4.3794677923E+000  +4.7086136547E-003 +7.4431514112E+001  +3.5127923688E-003 +1.2197546158E+002  +6.0441547202E-001 -1.5360586083E+000 
10896630.788 +5.6088884066E-001 +5.6345440727E+000  +5.8515235866E-003 +8.1339008080E+001  +3.6219507311E-003 +9.5616455201E+001  +5.9284183536E-001 +1.6556417616E-001 
11021775.970 +5.8659875691E-001 +8.7688062088E+000  +5.6271532859E-003 +9.7550522142E+001  +4.0799874398E-003 +1.4215812470E+002  +6.1850940258E-001 -1.0625840956E-001 
11146921.151 +6.2899911084E-001 +5.6946455988E+000  +6.2277538673E-003 +8.7921914737E+001  +2.6422034377E-003 +9.7418566981E+001  +6.1861468808E-001 +3.4324789749E-001 
11272066.333 +6.1799742179E-001 +8.8276562363E+000  +6.4721216673E-003 +9.0681597053E+001  +3.8780484389E-003 +8.7967851848E+001  +6.4876136647E-001 +2.0243009943E+000 
11397211.514 +6.2446992424E-001 +8.5443382415E+000  +3.9285014044E-003 +8.6702190336E+001  +4.7707587765E-003 +9.4401278044E+001  +6.1442565659E-001 +3.3468662763E+000 
11522356.696 +6.4198541724E-001 +4.9213890433E+000  +4.7669123339E-003 +9.6532168587E+001  +4.4250250523E-003 +7.0341253571E+001  +6.2530304523E-001 +5.9214398766E-001 
11647501.877 +6.2630123775E-001 +7.5771925340E+000  +5.0356182748E-003 +9.6605511012E+001  +2.7370799258E-003 +1.1433599230E+002  +6.7582865318E-001 +4.2388362569E-001 
11772647.059 +6.5905149601E-001 +4.8847532319E+000  +2.7071338952E-003 +8.1900765963E+001  +5.4715638932E-003 +1.0446185295E+002  +6.6126643295E-001 +2.3724970736E+000 
11897792.240 +6.2714358734E-001 +4.2903429551E+000  +5.3911776629E-003 +9.6208739711E+001  +5.8797293809E-003 +9.8295685842E+001  +6.9267279526E-001 -2.4400968180E+000 
12022937.422 +6.6138156982E-001 +2.5441661033E+000  +6.1927241814E-003 +7.6090802176E+001  +5.9537186303E-003 +1.0038659174E+002  +6.9889954349E-001 -5.4763809641E-001 
12148082.603 +7.1407737607E-001 +3.1779375632E+000  +5.5563474546E-003 +7.9356363519E+001  +5.0343060821E-003 +9.4639490462E+001  +6.7617110580E-001 -9.5224036884E-001 
12273227.785 +7.1533657563E-001 +6.6405173918E+000  +5.0538454412E-003 +9.8277416410E+001  +6.0519677915E-003 +1.1945577386E+002  +7.1238350046E-001 +7.7766141677E-001 
12398372.966 +6.8805896677E-001 +2.5934771010E+000  +5.0903035829E-003 +8.7451269158E+001  +6.8664413721E-003 +8.2106018609E+001  +7.4944772184E-001 +7.1874704593E-001 
12523518.148 +7.2485495678E-001 +4.2439909544E+000  +4.7323161149E-003 +8.8847050418E+001  +7.5456389874E-003 +1.0235678042E+002  +7.2526831928E-001 -5.7617729622E-001 
12648663.329 +7.3854966510E-001 +1.1608884281E+000  +5.7595436302E-003 +9.6427622739E+001  +4.2301298382E-003 +1.0420910162E+002  +7.7034756726E-001 +4.2352452939E-002 
12773808.511 +7.6790327971E-001 +2.3199007619E+000  +5.5748374669E-003 +9.6804899619E+001  +7.8520240620E-003 +1.0638783717E+002  +7.6258225396E-001 -1.8754270988E+000 
12898953.692 +7.9236914588E-001 +1.4720586510E+000  +6.1627549089E-003 +8.2951461445E+001  +6.4784892946E-003 +8.9106452180E+001  +7.9323964897E-001 +8.5764633412E-001 
13024098.874 +7.7468650537E-001 -1.3640571158E-001  +5.7413856401E-003 +9.0988735051E+001  +5.9730624983E-003 +8.6642196582E+001  +8.0334464480E-001 -1.1316141541E+000 
13149244.055 +8.0179685148E-001 +8.5465047264E-002  +6.1594779177E-003 +8.6777767362E+001  +6.7867167273E-003 +9.4421619272E+001  +8.0518294650E-001 +5.3103806508E-001 
13274389.237 +8.0313501654E-001 -6.7989035322E-001  +6.3911277027E-003 +9.6954132063E+001  +5.9244393611E-003 +8.3633411527E+001  +8.1641486171E-001 -3.8010615650E+000 
13399534.418 +8.2178260925E-001 -1.2519709482E+000  +6.4851576550E-003 +9.9954291571E+001  +8.3682893117E-003 +1.0052614694E+002  +8.6494224902E-001 -1.5441876557E+000 
13524679.599 +8.6235139545E-001 -2.5298226428E+000  +5.2199869864E-003 +1.0023216222E+002  +7.7923923180E-003 +9.1440176306E+001  +8.5166288922E-001 -3.5224745438E+000 
13649824.781 +8.6555832650E-001 -2.1565393564E+000  +6.7875486304E-003 +9.1922506344E+001  +5.4366177474E-003 +9.4805139365E+001  +8.8418013131E-001 -2.8985404521E+000 
13774969.962 +9.0227587129E-001 -2.3272087509E+000  +6.4233542381E-003 +9.1791471882E+001  +7.9178579602E-003 +8.8027568313E+001  +9.1427329269E-001 -3.8822626755E+000 
13900115.144 +8.7431114784E-001 -3.0858917943E+000  +6.9530889842E-003 +9.7567507423E+001  +8.2365392461E-003 +9.5570925280E+001  +9.4598168427E-001 -3.5696517949E+000 
14025260.325 +9.2766890499E-001 -3.8638610334E+000  +7.2960995609E-003 +9.2467410411E+001  +6.8759434589E-003 +8.9329474620E+001  +9.1890583550E-001 -4.1200700948E+000 
14150405.507 +9.5653607517E-001 -3.7638029697E+000  +6.9381831446E-003 +8.6160601097E+001  +7.7985350938E-003 +9.1503359808E+001  +9.6222648052E-001 -4.9270525479E+000 
14275550.688 +9.5356615121E-001 -5.6868369858E+000  +7.3572546325E-003 +9.5553050690E+001  +8.4507948113E-003 +7.6985116727E+001  +9.6914208050E-001 -5.4274057429E+000 
14400695.870 +9.7377113329E-001 -6.1347423984E+000  +6.7034546144E-003 +9.2490839183E+001  +7.3349792282E-003 +9.4415790679E+001  +9.8033501618E-001 -4.7644971425E+000 
