!  2-Port S-parameters saved by WinCal
! VAR MeasName=S-Parameters (CALIBRATED_DATA) read from VNA (P5004A)
! VAR MeasDate=27/08/2024 15:39:59
! VAR NAME=S2_r6c8_SET2_9k-100M_3
! VAR FILENAME=S2_r6c8_SET2_9k-100M_3.S2P
! VAR DATE=27/08/2024 15:39:59
! VAR PHYS_PORTS=1,2
! VAR ObjTypeName=DATASET
! VAR IndexType=Frequency
!
# Hz S MA R 50
9000.000 +5.9829833022E-002 -1.5564850930E+002  +1.4635237814E-002 +1.6674422383E+002  +2.5169054996E-002 +1.5228863604E+002  +4.3972539041E-001 -1.2788686275E+002 
134145.181 +1.1138095165E-001 +1.7027648099E+002  +2.4808040167E-004 +1.7926116182E+002  +1.7214465568E-004 -5.7927095687E+001  +2.4010818114E-001 -1.7078482391E+002 
259290.363 +1.1128785689E-001 +1.6988879920E+002  +7.9536684832E-005 -8.6382095158E+001  +4.7847034233E-004 +7.3134824620E+001  +2.4801321162E-001 -1.6796517897E+002 
384435.544 +1.1409160349E-001 +1.7002227912E+002  +6.3767178785E-004 -2.7146486217E+001  +5.3061224864E-004 +1.7012438122E+002  +2.4082143834E-001 -1.6960161969E+002 
509580.726 +1.1380199076E-001 +1.7069392883E+002  +1.0834564646E-003 +9.8881030754E+001  +1.8228963006E-003 -5.7682487042E+001  +2.4437388667E-001 -1.6556429496E+002 
634725.907 +1.1699344054E-001 +1.7101536556E+002  +8.0005882623E-004 -1.0242407996E+002  +8.6859784032E-004 +7.7604797546E+001  +2.4302332639E-001 -1.6614940034E+002 
759871.089 +1.1625300099E-001 +1.7055569436E+002  +3.2098196167E-004 -3.0497032794E+001  +8.1055598616E-004 -9.9582693947E+001  +2.3477225488E-001 -1.6616558284E+002 
885016.270 +1.1950763434E-001 +1.7011748589E+002  +4.4025710442E-004 -1.1002233618E+002  +5.0276946073E-004 +8.6600615290E+000  +2.3244125739E-001 -1.6591512675E+002 
1010161.452 +1.1897341560E-001 +1.7156897414E+002  +3.5269649750E-003 -1.6654410413E+002  +5.7823867471E-004 +8.4797064738E+001  +1.6772642318E-001 -1.5753563375E+002 
1135306.633 +1.1694585265E-001 +1.7006520817E+002  +7.9055485813E-004 -1.5940046308E+002  +2.3092604929E-003 +1.2198953516E+002  +1.9015567964E-001 -1.4802190538E+002 
1260451.815 +1.2296087459E-001 +1.7113634787E+002  +3.7967286917E-004 +1.6294095978E+002  +1.4454094921E-003 -1.0626562733E+002  +2.4890793240E-001 -1.5825612458E+002 
1385596.996 +1.2792751258E-001 +1.7145889921E+002  +5.9772885639E-004 -5.6174569058E+001  +4.7783238381E-004 +3.8680366615E+001  +2.5796729022E-001 -1.6069232158E+002 
1510742.178 +1.3015892555E-001 +1.7071984046E+002  +5.4497331077E-004 -3.4737658046E+001  +3.8082619495E-004 +7.7565359745E+001  +2.5799596328E-001 -1.6033800926E+002 
1635887.359 +1.2307793274E-001 +1.6988599083E+002  +1.2690095678E-004 +1.4151874678E+002  +7.7322635114E-004 -1.5094546754E+002  +2.3961727224E-001 -1.6201571052E+002 
1761032.541 +1.2831372518E-001 +1.6800375845E+002  +3.4454536523E-004 +3.4156998304E+000  +4.5139263142E-004 +5.1753629944E+001  +2.2079640419E-001 -1.5857715708E+002 
1886177.722 +1.3062117823E-001 +1.6798525604E+002  +1.5528522296E-003 +4.4615851605E+001  +3.0586583525E-003 -4.5949528430E+000  +2.0327617903E-001 -1.6538226859E+002 
2011322.904 +1.2447602787E-001 +1.6576723250E+002  +9.3905411008E-004 +6.8161759553E+001  +1.8469403326E-003 -9.0991755237E+001  +2.1095961300E-001 -1.6960172599E+002 
2136468.085 +1.3008997720E-001 +1.6780897725E+002  +4.9572890903E-003 -1.1716886953E-001  +3.6789749542E-003 +2.0397784027E+001  +1.8902304946E-001 -1.7537305666E+002 
2261613.267 +1.3610582573E-001 +1.6234863897E+002  +4.1642261119E-003 +7.5002339002E+001  +1.2548763580E-003 +1.2788435005E+002  +1.9355740041E-001 +1.7874714607E+002 
2386758.448 +1.3686631370E-001 +1.6532339587E+002  +1.0298155515E-003 +5.5752315714E+001  +2.3313793747E-003 -1.2815157526E+002  +1.9307681649E-001 +1.7875969333E+002 
2511903.630 +1.2219403524E-001 +1.6040363587E+002  +9.1669854996E-003 -1.4012080589E+001  +5.8932077789E-003 -8.9710687296E+001  +1.6125658091E-001 +1.6771790732E+002 
2637048.811 +1.2649094096E-001 +1.6055089203E+002  +5.1204271028E-003 -9.0255667538E+001  +3.8079902738E-003 +3.1658197701E+001  +3.7021404079E-001 +1.4224116844E+002 
2762193.992 +1.0503456028E-001 +1.7858349673E+002  +2.4667464503E-002 -1.5170237495E+001  +2.1623592256E-002 -1.3368937469E+002  +6.2733811903E-001 -6.5182909470E+001 
2887339.174 +8.6844516618E-002 +1.6469582096E+002  +1.9135432273E-002 -7.3364641970E+001  +1.9518006714E-002 -1.4599160528E+002  +2.3830309420E-001 -9.2887195354E+001 
3012484.355 +1.0945152817E-001 -1.7727401700E+002  +2.4014925392E-003 -7.1117029593E+001  +1.2605000989E-002 -1.0925352644E+002  +2.3921326782E-001 -8.9658195160E+001 
3137629.537 +1.0534637180E-001 +1.7177199965E+002  +6.4324987385E-002 -1.6431655410E+002  +3.9041273653E-002 +9.4986199342E+001  +2.5514773207E+000 -7.0155745702E+001 
3262774.718 +9.7441492527E-002 +1.6346902759E+002  +2.4595274367E-002 -1.9606075336E+001  +4.2926758300E-002 -9.8677198519E+001  +8.9050864241E-001 +8.2472904016E+001 
3387919.900 +1.3171183238E-001 +1.5628525706E+002  +9.1644501963E-003 +4.1883303493E+001  +8.7921837567E-003 +1.2055382306E+002  +1.0884512221E-001 +7.0908347559E+001 
3513065.081 +1.7064297745E-001 +1.4644231939E+002  +4.6599715312E-002 +1.4464433084E+002  +1.4271266036E-002 +4.5996274913E+001  +9.3507667581E-001 +1.0808105189E+002 
3638210.263 +1.6980887521E-001 +1.4821017470E+002  +1.6646677321E-002 -1.2331565619E+002  +1.5390922101E-002 +8.6774818579E+001  +1.5250606591E+000 -1.7071926867E+002 
3763355.444 +1.4314680049E-001 +1.4652626004E+002  +7.6972164791E-003 +6.1563378881E+001  +6.9289128497E-003 +1.6979966401E+001  +3.7272800987E-001 +1.0189154323E+002 
3888500.626 +1.6461016952E-001 +1.5163525212E+002  +4.8627511670E-002 +4.5902518791E+001  +5.2326942131E-002 -1.9009811935E+001  +2.1585374876E+000 +4.5466156153E+001 
4013645.807 +1.8046988883E-001 +1.4548113843E+002  +8.7988248123E-003 +1.4210981397E+002  +2.5452626927E-002 -1.1183634176E+000  +2.7640891592E-001 +1.5239747482E+001 
4138790.989 +1.9289786102E-001 +1.5340671883E+002  +6.5690526072E-003 +1.5540830503E+002  +6.6917073632E-003 +1.3219117949E+002  +7.6689377872E-001 +1.4115421768E+002 
4263936.170 +2.2516544393E-001 +1.3869496942E+002  +2.2933526005E-002 -3.9743685365E+001  +1.0205117030E-002 +5.7763792159E+001  +5.8296115224E-001 +6.5817726470E+001 
4389081.352 +1.9634925232E-001 +1.3333557008E+002  +1.6873026225E-002 +4.4134153584E+001  +1.9783731625E-002 -1.2709561388E+000  +7.1267602430E-001 +6.8614643880E+001 
4514226.533 +2.6451804285E-001 +1.3094658283E+002  +1.5683600854E-002 +3.5425181469E+001  +1.5784200554E-002 +3.8619888531E+001  +4.6446829787E-001 -4.7373470673E+000 
4639371.715 +2.9465941638E-001 +1.3440579996E+002  +3.0862714078E-002 +1.4804679331E+002  +1.9086719053E-002 +7.4570421002E+001  +1.0546454996E+000 +9.9140756432E+001 
4764516.896 +3.1986111526E-001 +1.2752163239E+002  +1.0257270244E-001 -1.6043636277E+002  +1.5268160506E-001 -1.5254513967E+002  +5.2619147661E+000 -1.6590256402E+002 
4889662.078 +4.8018000289E-001 +1.2480137949E+002  +7.9760019903E-002 +7.6016265364E+001  +1.0611241971E-001 +1.1766931860E+002  +3.9136129422E+000 +1.6742238371E+001 
5014807.259 +4.0088218004E-001 +1.3617091967E+002  +1.5258600460E-001 -3.8175832175E+000  +4.8253641378E-002 -1.0654331530E+002  +4.9387755370E+000 -7.2778373413E+001 
5139952.441 +3.7248672135E-001 +1.2607396253E+002  +4.6147079532E-002 +3.7446206819E+001  +3.3015494615E-002 -6.8764710035E+001  +2.2400402344E+000 -4.1337447293E+001 
5265097.622 +4.1705646982E-001 +1.3916123429E+002  +1.6710820465E-002 +4.6313531157E+001  +1.4728356543E-002 -1.2031040257E+002  +2.6699129161E+000 +5.0283356048E+001 
5390242.804 +3.8193170861E-001 +1.2626358524E+002  +2.8139556904E-002 +2.9044657963E+001  +3.4770357813E-002 +7.5998803917E+001  +1.6331513027E+000 +2.5952296356E+001 
5515387.985 +4.1535856417E-001 +1.3286774563E+002  +5.1389822647E-002 +1.7558143544E+002  +3.2433040693E-002 +1.0318660047E+002  +3.4477693036E+000 +1.0457835810E+002 
5640533.166 +4.7040979490E-001 +1.3018711545E+002  +2.3926642535E-002 +8.2104462308E+001  +3.3762328624E-003 +3.9495497852E+001  +9.8753813071E-001 +8.2048812442E+001 
5765678.348 +4.8761392732E-001 +1.3033227693E+002  +1.0793090268E-002 -1.6599158626E+002  +2.1279692858E-002 +9.0211874713E+001  +1.6297804705E+000 +9.3250818457E+001 
5890823.529 +5.6430458381E-001 +1.2552894119E+002  +2.4805566204E-002 +1.3089197037E+002  +1.8602352850E-002 +5.1047369008E+001  +1.9014004779E+000 +4.4509564126E+001 
6015968.711 +7.0874076351E-001 +1.1138104786E+002  +5.8917417377E-002 +8.6760033482E+001  +2.2036365289E-002 +2.6200798725E+001  +1.9939596306E+000 +6.3945388838E+001 
6141113.892 +7.6875604141E-001 +1.1312835868E+002  +7.6842286268E-003 +7.4395481505E+001  +4.7718677188E-002 +5.9349381569E+001  +2.3130965483E+000 +5.3050748470E+001 
6266259.074 +9.5991211320E-001 +1.1675531831E+002  +7.0439195753E-002 +4.3431357260E+001  +3.5575394755E-002 +6.3475534440E+001  +1.8062998276E+000 +1.0682579958E+001 
6391404.255 +9.1565628945E-001 +1.0296274384E+002  +2.4944894865E-002 +8.2952727138E+001  +3.8557245806E-002 +5.2695931260E+001  +1.3949765729E+000 +2.6883003224E+001 
6516549.437 +1.2004134610E+000 +9.0717684141E+001  +6.0738844716E-002 +5.1823202747E+001  +3.5930453193E-002 +4.7103981132E+001  +1.5431206766E+000 +1.7535986999E+001 
6641694.618 +1.3942937025E+000 +7.4955934414E+001  +2.9953742136E-002 +2.3839543735E+001  +6.2595318396E-002 +6.4261006817E+001  +1.5662916023E+000 -2.4682920314E+000 
6766839.800 +1.6689819472E+000 +5.7472184034E+001  +5.3068515629E-002 +4.6028630570E+001  +2.3939192768E-002 +1.8086732923E+001  +1.5101477533E+000 -3.7358163770E+000 
6891984.981 +1.9194954639E+000 +3.6295831969E+001  +3.8635178675E-002 +3.0483240023E+001  +3.5217188343E-002 +3.8534974120E+000  +1.1857597434E+000 -1.2864874779E+001 
7017130.163 +1.9935798582E+000 +9.1163731933E+000  +2.0644667949E-002 +1.8569989132E+001  +5.3688335765E-002 +4.1336021484E+001  +1.2320587484E+000 -7.8646178791E+000 
7142275.344 +1.6413484653E+000 +1.3131333491E+001  +3.0338041961E-002 +1.8337908173E+001  +3.1512092517E-002 +8.9030805750E+000  +1.2292458813E+000 -9.6939909901E+000 
7267420.526 +1.4967414985E+000 -6.0566160033E+000  +2.1002917858E-002 -2.8268992925E+000  +2.2782703945E-002 -3.1706164574E+000  +1.3912558930E+000 -1.1624369826E+001 
7392565.707 +1.3123099843E+000 +2.2519969930E-001  +1.6821244891E-002 +4.4426049331E+001  +1.3971562221E-002 +1.4700277187E+001  +1.2338954122E+000 -5.1676340681E+000 
7517710.889 +1.1255440234E+000 +2.5541096523E+000  +1.8449018769E-002 -1.0312835930E+001  +1.4146698478E-002 +2.0822042883E+001  +1.3117239232E+000 -2.0430640992E+000 
7642856.070 +1.0953228085E+000 +1.0314002740E+000  +1.9129961758E-002 +1.3096698159E+001  +2.4255122506E-002 +5.6943565601E+001  +1.0562731766E+000 -6.3210425455E+000 
7768001.252 +9.8885806257E-001 +8.2031063570E-001  +1.5716764545E-002 +7.7290906256E+000  +8.6789725488E-003 +2.5756878581E+001  +1.0226917047E+000 -3.2594159080E-001 
7893146.433 +8.7530725868E-001 +6.1353793380E-001  +1.8650421982E-002 +1.0334826787E+001  +1.1145397241E-002 +1.6691003802E+001  +9.5361033968E-001 -5.8193694923E+000 
8018291.615 +7.7159820879E-001 +9.2528155667E+000  +1.5577283911E-002 +3.7469158834E+001  +9.7378328440E-003 +2.1250925712E+001  +8.3080118092E-001 -3.8557586174E+000 
8143436.796 +7.6994250038E-001 +7.8780156493E+000  +1.0642026686E-002 -1.8344736270E+001  +1.4441406895E-002 +2.7836292513E+001  +8.3645373245E-001 -7.6472468331E-001 
8268581.977 +8.2282157110E-001 +5.3170095079E+000  +1.7710431617E-002 +2.2039312447E+001  +1.5147598088E-002 +3.6869713759E+001  +8.4849582055E-001 +4.2539600012E+000 
8393727.159 +7.2594517009E-001 +6.5935540749E+000  +9.9128077389E-003 +2.4574938940E+001  +1.3149784120E-002 +2.2825956224E+001  +7.5708177546E-001 +7.3794116086E-001 
8518872.340 +7.3670475698E-001 +1.2603622888E+001  +2.0696783795E-002 +1.2423898712E+001  +1.0904881267E-002 +2.6345882995E+001  +7.2741529062E-001 +3.0984769303E-001 
8644017.522 +6.6671341947E-001 +5.7768267432E+000  +1.4646640992E-002 +1.7627621208E+001  +1.4129324326E-002 +1.1686054243E+001  +7.0137101714E-001 -1.9093339117E+000 
8769162.703 +6.3448793804E-001 -1.0707695800E-002  +1.3989762348E-002 +1.7929641758E+001  +7.5131632115E-003 +4.8141234147E+001  +6.5381719581E-001 +2.4116267789E+000 
8894307.885 +6.2182467632E-001 +3.7474088548E+000  +1.5050039057E-002 +2.7587772530E+001  +1.5576351493E-002 +2.1918177039E+001  +6.4058229431E-001 -4.5141469199E+000 
9019453.066 +5.8425552322E-001 +4.6168850955E+000  +1.3179000428E-002 +4.8933504634E+000  +1.2430457487E-002 +3.4770694577E+001  +6.4737725197E-001 -3.9039928388E+000 
9144598.248 +5.2214457113E-001 +7.0354687951E+000  +1.2734971720E-002 +2.0258928194E+001  +1.1798770231E-002 +3.4858892439E+001  +6.2078610533E-001 +9.7649709496E-001 
9269743.429 +5.1342392072E-001 +6.2001509161E+000  +1.2796715717E-002 -1.9295324851E+000  +1.2125148081E-002 +3.1893344788E+001  +5.8345089922E-001 +1.6422699902E+000 
9394888.611 +5.4493131257E-001 +8.2712800029E+000  +1.3241685203E-002 +1.2873729528E+001  +1.2179189815E-002 +1.9046873869E+001  +5.8393203176E-001 -1.8027385768E+000 
9520033.792 +5.1449884076E-001 +6.8943391804E+000  +1.3160814804E-002 +2.5669815173E+001  +1.1876501007E-002 +1.8183919967E+001  +6.2631471214E-001 -4.0609520986E+000 
9645178.974 +5.3771397072E-001 +4.2644083022E+000  +9.3326608940E-003 -3.1021663613E+000  +1.1211905409E-002 +4.1484950805E+001  +5.6314569728E-001 -5.6045349751E-001 
9770324.155 +5.3981294485E-001 +3.7532476293E+000  +1.3508883716E-002 +9.8316554981E+000  +1.4119168794E-002 +3.2367972299E+001  +5.9772348140E-001 -2.7527874275E+000 
9895469.337 +5.4580617114E-001 +3.6814719382E-001  +1.3629156293E-002 +2.4032288779E+001  +1.0241308883E-002 +3.0332472480E+001  +6.0636374624E-001 -4.0014042785E+000 
10020614.518 +5.8418938390E-001 +1.7753090922E+000  +1.5136874864E-002 +1.3996024638E+001  +1.5092813151E-002 +3.5671700970E+001  +5.7405910069E-001 -3.2285385375E-002 
10145759.700 +5.0111836618E-001 +1.9895308808E+000  +1.2623187901E-002 +1.4316516841E+001  +1.0500271445E-002 +3.2400590479E+001  +5.7001267395E-001 -6.0641061997E+000 
10270904.881 +5.1896224229E-001 +3.1751201732E+000  +1.4055526918E-002 +1.4324484372E+001  +1.2079140771E-002 +2.1682259169E+001  +5.8087740485E-001 -6.4693995593E+000 
10396050.063 +5.6246277303E-001 +3.0083365714E+000  +1.3063513455E-002 +1.7677898549E-001  +1.2334400727E-002 +2.7320138965E+001  +5.9569758130E-001 -3.9845813989E+000 
10521195.244 +5.4546517349E-001 +9.3920113463E+000  +1.3734399032E-002 +1.6975854319E+001  +1.2953261491E-002 +2.8352446039E+001  +5.5068134664E-001 -8.2420914378E-001 
10646340.426 +5.5484802039E-001 +4.4567355783E+000  +1.2837408761E-002 +1.5051165069E+001  +1.1651300426E-002 +2.3664897838E+001  +5.8843803940E-001 -4.2593050693E+000 
10771485.607 +5.6067773931E-001 +4.2655138087E+000  +1.4561037204E-002 +1.1064487438E+001  +1.4189966639E-002 +3.7074410140E+001  +5.7870237172E-001 +3.3540319731E+000 
10896630.788 +5.4256605222E-001 +5.2583283339E+000  +1.3216183172E-002 +2.1867465664E+001  +1.3132221393E-002 +2.2941129395E+001  +5.9160430607E-001 +1.1308650068E+000 
11021775.970 +5.8885043242E-001 +4.3463974009E+000  +1.3116025929E-002 +1.8748109569E+001  +1.1294556954E-002 +3.5921836489E+001  +5.9728177751E-001 +2.0300894357E+000 
11146921.151 +5.9391426637E-001 +7.0621525878E+000  +1.4703080937E-002 +1.5508845596E+001  +1.2221862660E-002 +2.7367349525E+001  +5.9353659740E-001 -2.3066783885E-001 
11272066.333 +5.7711049462E-001 +6.1396136833E+000  +1.2538105264E-002 +2.1854999721E+001  +1.4171852999E-002 +2.6694654474E+001  +6.1068813668E-001 +1.7127558061E-001 
11397211.514 +5.9868886550E-001 +7.7772132183E+000  +1.4181489686E-002 +1.0125640547E+001  +1.3742117883E-002 +2.7883590009E+001  +6.1032391288E-001 +1.0991526517E+000 
11522356.696 +6.1459403124E-001 +8.1577274734E+000  +1.4522797580E-002 +2.0828074149E+001  +1.2941733187E-002 +3.9338584532E+001  +6.4615752004E-001 -8.8537558427E-001 
11647501.877 +6.3481002060E-001 +5.7783794241E+000  +1.3965409576E-002 +2.4418150240E+001  +1.5209768959E-002 +3.4652212793E+001  +6.5004367734E-001 +4.6347115004E+000 
11772647.059 +6.1559536325E-001 +3.3192857080E+000  +1.3847726300E-002 +2.2647287535E+001  +1.3995605515E-002 +3.3388221568E+001  +6.4972099261E-001 +5.8048366429E-001 
11897792.240 +6.2814100922E-001 +4.6736930300E+000  +1.4989036740E-002 +2.6257700853E+001  +1.2712721218E-002 +2.5767313140E+001  +6.5377781207E-001 +7.5233690981E-001 
12022937.422 +6.5764264811E-001 +4.2213785477E+000  +1.4435350331E-002 +2.2036500162E+001  +1.4189947159E-002 +2.2545310741E+001  +6.7678064789E-001 +3.4569767925E+000 
12148082.603 +6.6289426429E-001 +4.4392020686E+000  +1.5344561086E-002 +2.3701260647E+001  +1.4146112546E-002 +3.6335656431E+001  +6.8688314767E-001 +1.5198033247E+000 
12273227.785 +6.6978492432E-001 +5.4521188223E+000  +1.5499708857E-002 +2.4980748747E+001  +1.6315001333E-002 +3.3125227503E+001  +6.9269743183E-001 +1.5702492733E-002 
12398372.966 +6.9962910753E-001 +1.9653327439E+000  +1.4678616671E-002 +1.9694351380E+001  +1.5939889582E-002 +3.0954744093E+001  +7.1073955298E-001 +1.4333306802E+000 
12523518.148 +7.2757604820E-001 +3.6405411210E+000  +1.5789683769E-002 +1.9032695498E+001  +1.5699779458E-002 +3.3428354440E+001  +7.1294789020E-001 -9.4554239854E-001 
12648663.329 +7.3056857678E-001 +2.7191947890E+000  +1.5085107515E-002 +2.1292225584E+001  +1.5339893085E-002 +3.9104264286E+001  +7.1868267981E-001 +1.8546765463E+000 
12773808.511 +7.2328443667E-001 +1.9053697395E+000  +1.5601980884E-002 +2.3697354078E+001  +1.7219605767E-002 +2.3642559336E+001  +7.5694100092E-001 -8.4824057019E-001 
12898953.692 +7.5900019085E-001 +2.6764877713E+000  +1.6085728922E-002 +2.2186357754E+001  +1.5465316281E-002 +3.4436444034E+001  +7.5598969371E-001 -1.1746468985E+000 
13024098.874 +7.4558764382E-001 +5.6488894388E-001  +1.5172080070E-002 +2.3192526944E+001  +1.7658239470E-002 +3.0543181152E+001  +7.8016497915E-001 -1.9780433625E+000 
13149244.055 +7.9397130254E-001 -2.0108965426E-001  +1.4359290472E-002 +2.4081976000E+001  +1.5386780017E-002 +3.0498204306E+001  +7.9562879400E-001 -1.1571361601E+000 
13274389.237 +8.1458852651E-001 +9.6009159657E-001  +1.5060309653E-002 +3.2634590316E+001  +1.5085800890E-002 +3.1559395275E+001  +8.2074878165E-001 -1.6047501121E+000 
13399534.418 +8.1079507328E-001 -8.4435970288E-001  +1.7181052723E-002 +2.4113295735E+001  +1.6306323928E-002 +3.3573673048E+001  +8.2455958276E-001 -6.4927762624E-001 
13524679.599 +8.1417587671E-001 -1.3528548826E+000  +1.8674851383E-002 +1.8126799709E+001  +1.4450468394E-002 +2.3403617739E+001  +8.4800194170E-001 -3.8103155757E+000 
13649824.781 +8.5610689894E-001 -3.1632665801E+000  +1.8521889657E-002 +2.4684297654E+001  +1.7330724332E-002 +2.9429997643E+001  +8.6776391584E-001 -2.0006662482E+000 
13774969.962 +8.5122030412E-001 -2.4106062858E+000  +1.8373505440E-002 +2.1911208941E+001  +1.7428180406E-002 +2.8486062934E+001  +8.6023486950E-001 -4.2235582491E+000 
13900115.144 +8.6837247074E-001 -3.5442749379E+000  +1.8385430382E-002 +2.5690124492E+001  +1.7666771368E-002 +2.9886329933E+001  +9.1070060768E-001 -4.6419488004E+000 
14025260.325 +9.1155244100E-001 -3.4364028052E+000  +1.7907984306E-002 +2.9649858368E+001  +1.7293392265E-002 +2.3193277829E+001  +9.0844891954E-001 -4.4787760731E+000 
14150405.507 +9.0474735865E-001 -4.9156008074E+000  +1.8135970815E-002 +2.6419652754E+001  +1.7790396743E-002 +3.0334806702E+001  +9.2765376981E-001 -3.5252187098E+000 
14275550.688 +9.2747937031E-001 -5.6274249753E+000  +1.9228827692E-002 +2.2454770490E+001  +1.7855425499E-002 +2.5389742670E+001  +9.5644645295E-001 -4.6028030716E+000 
14400695.870 +9.5309994267E-001 -4.5789398661E+000  +1.8140022472E-002 +2.3019883120E+001  +1.7624282306E-002 +2.7439995828E+001  +9.7904570443E-001 -6.1890403686E+000 
