!  2-Port S-parameters saved by WinCal
! VAR MeasName=S-Parameters (CALIBRATED_DATA) read from VNA (P5004A)
! VAR MeasDate=27/08/2024 16:14:41
! VAR NAME=S2_r1c9_RESET2_9k-100M_1
! VAR FILENAME=S2_r1c9_RESET2_9k-100M_1.S2P
! VAR DATE=27/08/2024 16:14:41
! VAR PHYS_PORTS=1,2
! VAR ObjTypeName=DATASET
! VAR IndexType=Frequency
!
# Hz S MA R 50
9000.000 +7.6328963477E-002 -1.6904605235E+002  +4.4281634470E-003 -7.7536976563E+001  +4.1705570623E-003 -1.7595864758E+002  +2.5138090948E-001 -1.3603963475E+002 
134145.181 +1.1001624728E-001 +1.6974176920E+002  +1.1946675511E-004 +1.3277306435E+002  +5.5224358492E-004 +8.7471835162E+001  +2.4117690763E-001 -1.7111957563E+002 
259290.363 +1.1153405498E-001 +1.7009431738E+002  +7.1401004499E-004 -1.2759288363E+002  +5.3257836406E-004 +9.5528514254E+001  +2.3981897833E-001 -1.6882892543E+002 
384435.544 +1.1407176201E-001 +1.6943310576E+002  +5.1383628309E-004 -1.7080758384E+001  +3.9039916065E-004 +1.6338515274E+002  +2.3733771619E-001 -1.6809403273E+002 
509580.726 +1.1529777089E-001 +1.7127427053E+002  +8.4151673875E-004 -3.2737712746E+001  +4.7304116916E-004 -1.7564194325E+002  +2.4118855241E-001 -1.6759621186E+002 
634725.907 +1.1576742326E-001 +1.7109765419E+002  +5.4752177663E-004 +7.7654645758E+001  +9.5041567966E-004 -2.9572586079E+000  +2.2653705264E-001 -1.6376214731E+002 
759871.089 +1.1640411081E-001 +1.7099329474E+002  +1.0441992924E-003 -1.5242190511E+002  +1.0885565547E-003 +4.8084050711E+001  +2.4704886474E-001 -1.6289032278E+002 
885016.270 +1.1776981237E-001 +1.6881505778E+002  +7.8159701846E-004 +1.6936179594E+002  +4.0278396338E-004 +4.5689351776E+001  +2.4035899753E-001 -1.6521839051E+002 
1010161.452 +1.1528086024E-001 +1.7085435652E+002  +2.0964246486E-003 +8.6046258427E+001  +2.7613673925E-003 +1.7823722676E+002  +1.6470370005E-001 -1.4580750516E+002 
1135306.633 +1.1421291705E-001 +1.7015084376E+002  +2.5958406810E-003 +1.0604002739E+002  +2.4621132765E-003 -1.2771195360E+002  +1.2628010462E-001 -1.5445549897E+002 
1260451.815 +1.2119092420E-001 +1.7084398300E+002  +1.4142437841E-003 +6.8608822167E+001  +2.0359879945E-003 -1.4487357539E+002  +2.3077157549E-001 -1.5813792706E+002 
1385596.996 +1.2444244439E-001 +1.7211484963E+002  +4.9910089961E-004 -3.5572589049E+001  +7.3785853980E-004 -9.1600467146E+001  +2.6004179424E-001 -1.6000601272E+002 
1510742.178 +1.3020354755E-001 +1.7115856502E+002  +2.8453715850E-004 -7.7621797687E+001  +2.4077458849E-004 -1.5392431816E+002  +2.6355966792E-001 -1.5880008842E+002 
1635887.359 +1.2602425616E-001 +1.7004631420E+002  +7.7404286306E-004 -1.7060986252E+002  +1.1847553089E-004 -1.5311184256E+002  +2.2041753748E-001 -1.5426712523E+002 
1761032.541 +1.2903954277E-001 +1.6823346534E+002  +5.6799722459E-005 +1.5037834557E+002  +1.4954895737E-003 -1.3044129813E+001  +2.0766348356E-001 -1.6060657349E+002 
1886177.722 +1.2889056227E-001 +1.6851369852E+002  +1.4986657704E-003 +1.0742205108E+002  +8.3204467301E-004 +1.4164935116E+002  +2.1458237337E-001 -1.6642521643E+002 
2011322.904 +1.3434747045E-001 +1.6695780371E+002  +9.0423565520E-004 -1.5583576260E+002  +2.4458933004E-003 -1.0094511779E+002  +2.0169961777E-001 -1.7102623981E+002 
2136468.085 +1.2155976197E-001 +1.6676233927E+002  +3.0392208236E-003 -1.1052319598E+002  +3.4133588936E-003 -9.7726676839E+001  +1.9776262966E-001 +1.7570440327E+002 
2261613.267 +1.2820616188E-001 +1.6615177417E+002  +4.3380220146E-003 -8.7599886287E+001  +1.4107874744E-003 +2.7506764881E+001  +2.2565557539E-001 +1.6380142167E+002 
2386758.448 +1.3631558148E-001 +1.6326055839E+002  +5.0813262578E-003 +3.6418032952E+001  +3.9579896095E-003 -8.4971927819E+001  +1.6795919619E-001 +1.7272217017E+002 
2511903.630 +1.4070579329E-001 +1.6139175263E+002  +4.9582102330E-003 +8.6035316629E+001  +2.3047502048E-003 +1.2168342687E+002  +1.4283062944E-001 +1.7192472640E+002 
2637048.811 +1.0991261778E-001 +1.5174652444E+002  +7.8019432214E-003 -6.1813356246E+001  +1.1023035805E-002 -1.7601829809E+002  +2.1622015295E-001 +1.6523843634E+002 
2762193.992 +9.2804124903E-002 -1.7155357497E+002  +2.9534769901E-003 +4.6729600174E+001  +2.0474356622E-002 +8.7014152145E+001  +1.2568856458E-001 -3.6240642082E+001 
2887339.174 +1.1871997800E-001 +1.7690109442E+002  +1.2104438622E-002 -1.0193224688E+002  +5.8763623320E-003 +1.7685791340E+002  +5.7810221663E-001 -1.0277020043E+002 
3012484.355 +1.2705687195E-001 +1.7802555177E+002  +6.2982727577E-003 -1.5106276060E+002  +7.4339602656E-003 +1.5081753562E+002  +1.7039267204E-001 -7.9277207901E+001 
3137629.537 +1.2206318148E-001 +1.7678538167E+002  +8.8875521961E-003 +1.0920326290E+002  +8.7860088474E-003 -8.2666707701E+001  +8.9818394600E-002 -7.5767722655E+001 
3262774.718 +1.3136340985E-001 +1.6425046113E+002  +2.4793702562E-003 -1.2232293215E+002  +2.0240157033E-002 -5.3638020239E+001  +3.8624775324E-001 -4.5589143270E+001 
3387919.900 +1.1554110917E-001 +1.4988153918E+002  +4.9793832731E-003 -2.0630779387E+001  +2.2616192985E-002 -1.0272239283E+002  +2.7059015798E-001 +1.3139473926E+001 
3513065.081 +1.2434405542E-001 +1.5157002766E+002  +4.5281430518E-002 -6.8400131858E+001  +4.3956724774E-002 -9.6973831647E+001  +1.9115790466E+000 +6.6419018111E+001 
3638210.263 +2.2105682787E-001 +1.0649100360E+002  +2.1681188684E-002 -1.3073840145E+002  +3.3968162237E-002 +1.7556521717E+002  +1.0010706790E+000 +1.2147580917E+002 
3763355.444 +1.5903027643E-001 +1.5442801480E+002  +1.3582056420E-002 +3.9836189413E+001  +1.2217200898E-002 +6.7449228780E+001  +5.8145386484E-001 +1.1997961516E+002 
3888500.626 +1.3747303795E-001 +1.6250630526E+002  +8.1155941476E-003 -1.0747063255E+001  +6.7177716363E-003 +4.4450631744E+001  +5.1906003557E-001 +1.2144430535E+002 
4013645.807 +1.7507609826E-001 +1.4502925906E+002  +1.3310652508E-002 +1.0579344895E+002  +1.8741676313E-002 +7.5618925579E+001  +8.1147705970E-001 +1.1504407410E+002 
4138790.989 +1.9463082648E-001 +1.3076979314E+002  +5.3564035129E-003 +1.5766678478E+002  +4.0470328197E-003 +1.2282358482E+001  +3.1650112549E-001 +1.3570236057E+002 
4263936.170 +1.9326142605E-001 +1.4139809835E+002  +7.1044693029E-003 -2.8965186229E+001  +8.8719556119E-003 +1.1226234692E+002  +4.5129320292E-001 +1.5083980779E+002 
4389081.352 +2.3044692079E-001 +1.4131679887E+002  +5.7488683762E-003 +8.5014392991E+001  +1.3210260857E-002 -1.0529532264E+002  +8.9371338379E-001 +1.2427016871E+002 
4514226.533 +1.9669482282E-001 +1.2584627664E+002  +1.5337860278E-001 +2.9571642518E+001  +8.2900355940E-003 +3.6114195970E+001  +6.8321420178E+000 -1.4792343325E+002 
4639371.715 +2.7718940748E-001 +1.3158703661E+002  +1.8558685436E-002 +1.7013493332E+002  +1.9851746278E-002 +7.4186991643E+001  +9.1876225406E-001 +1.3935247808E+002 
4764516.896 +3.1956823291E-001 +1.2493047660E+002  +4.0057676142E-002 -1.1942172813E+002  +6.9967212018E-002 -1.5101921109E+002  +7.5232887102E+000 -1.4914758258E+002 
4889662.078 +5.2728973908E-001 +1.2244746030E+002  +3.7232386111E-002 +1.5308589113E+002  +6.8261472996E-002 -1.3354180505E+002  +2.4897212601E+000 -2.6967294649E+001 
5014807.259 +3.6959774240E-001 +1.2483332821E+002  +3.2329711836E-002 +1.4821011161E+002  +6.9716654370E-003 +4.7683855028E+001  +1.2625769502E+000 +2.7333006219E+001 
5139952.441 +3.6577977251E-001 +1.3073488261E+002  +3.9906641373E-002 -1.5523516783E+002  +3.0720333749E-002 +1.3267407212E+002  +3.1408991438E+000 +1.0149182075E+002 
5265097.622 +3.6163519182E-001 +1.2494686399E+002  +2.5859501664E-002 +1.0190123837E+002  +3.5109909931E-002 +1.6346580394E+002  +2.0418855068E+000 +1.0173661930E+002 
5390242.804 +3.9607669642E-001 +1.3236132052E+002  +2.7608400948E-002 -2.8863315505E+001  +4.6191191893E-002 +2.9473649377E+001  +3.1776598244E+000 +1.0456231061E+002 
5515387.985 +4.3470030725E-001 +1.3149049299E+002  +5.1817720916E-003 -1.0861775974E+002  +1.7275843070E-002 -1.1114745667E+002  +1.6012061127E+000 +1.1402691214E+002 
5640533.166 +4.2714659471E-001 +1.2475669942E+002  +1.7506836458E-002 -6.1639419290E+001  +1.2361178409E-002 +1.7882148765E+001  +3.7151817072E+000 +9.2658694248E+001 
5765678.348 +6.1001685831E-001 +1.3380384398E+002  +4.9966356577E-002 +4.2157869092E+001  +1.5358716400E-002 +1.0341038692E+002  +4.4440091893E+000 +4.2702122844E+001 
5890823.529 +6.0847273523E-001 +1.1970208596E+002  +2.5700724963E-002 +1.2138582399E+002  +4.0819768331E-002 +1.5648528963E+002  +1.8983471856E+000 +5.2861040409E+001 
6015968.711 +6.3738155650E-001 +1.1913808348E+002  +3.2171563331E-002 +1.4347412637E+002  +2.3194466657E-002 -2.1211779419E+001  +2.5712295329E+000 +6.2269684732E+001 
6141113.892 +6.4367723925E-001 +1.1140916037E+002  +1.2191262396E-002 -8.3653911847E+000  +4.9807757082E-003 -4.4295238100E+001  +1.5122146423E+000 +3.3340540328E+001 
6266259.074 +8.2887491852E-001 +1.1552470633E+002  +2.7208399568E-002 +1.3716181777E+002  +1.7756870130E-002 -6.8474456930E+001  +1.8629543872E+000 +2.5790717877E+001 
6391404.255 +1.3031760392E+000 +8.9863666118E+001  +2.7570253885E-002 -1.0592654097E+002  +4.8451070641E-002 -1.6024337365E+002  +1.3531305538E+000 +5.7911181920E+000 
6516549.437 +1.1846824540E+000 +9.6421496463E+001  +6.1485201257E-003 +5.0689797906E+001  +1.2342232481E-002 +1.7525438867E+002  +1.3462252052E+000 +1.0509014972E+001 
6641694.618 +1.6934740468E+000 +8.3219145961E+001  +1.0006197212E-002 -6.6986289705E+001  +4.6595478635E-002 +1.2114605528E+002  +1.3628614339E+000 -5.2192998720E+000 
6766839.800 +1.6448793248E+000 +5.2626466792E+001  +1.7837857678E-002 +2.2561919284E+000  +2.4088821119E-002 -9.1679389687E+000  +1.2129228986E+000 +2.5093598257E+000 
6891984.981 +1.3530318978E+000 +2.8318486592E+001  +2.0436970985E-002 +8.4814319653E+001  +1.3169740494E-002 -2.4600291677E+001  +1.4233536444E+000 -9.9573811083E+000 
7017130.163 +1.4132529441E+000 +2.2479818758E+001  +1.1429746466E-002 +1.3423999643E+002  +1.2792099382E-002 +1.0088668128E+002  +1.2752718172E+000 -9.1609342080E+000 
7142275.344 +1.8756079814E+000 +2.1268013898E+001  +1.7630817064E-002 +5.5213196009E+001  +1.2543157476E-002 -1.6758712152E+000  +1.3531211176E+000 -9.0888941671E+000 
7267420.526 +1.5036135343E+000 +6.7412760797E+000  +6.1071598525E-003 -3.6095812485E+001  +4.3420112124E-003 +1.3364154372E+002  +1.4640639566E+000 -8.8057607510E+000 
7392565.707 +1.1903695891E+000 -1.0835934229E-001  +1.3478304944E-002 +2.7310122208E+001  +4.2367094278E-003 +1.2091593457E+002  +1.2785922708E+000 -9.2247572627E+000 
7517710.889 +1.2728345794E+000 -2.9182403762E+000  +2.9113674265E-003 +1.2006739840E+002  +5.8984298222E-003 +1.0280916168E+002  +1.2580311577E+000 -5.6616070161E+000 
7642856.070 +1.0372054207E+000 -2.5800233779E+000  +2.2526573010E-003 -1.6113472230E+002  +6.7431345148E-003 +4.4975365411E+001  +1.0835385462E+000 -4.3666349675E+000 
7768001.252 +9.0939850503E-001 +7.8081953706E+000  +9.4921674069E-003 +5.5280947841E+001  +3.8416948310E-003 -1.5257030999E+002  +1.1009528883E+000 -3.0653541382E+000 
7893146.433 +8.6589346480E-001 +3.4061244326E+000  +7.1615205262E-003 +5.3459544927E+001  +4.7889616985E-003 +8.4189312533E+001  +9.4427638075E-001 -3.5671103112E+000 
8018291.615 +8.2420528057E-001 +7.7783041938E+000  +7.4634747313E-003 +4.0770185762E+001  +1.0131164445E-002 +6.4525264815E+001  +8.6749609725E-001 +1.0052976723E-001 
8143436.796 +6.1562058785E-001 +1.1361383916E+001  +2.2948722341E-003 +1.3459296142E+002  +9.0790153950E-003 +8.9582706325E+001  +7.4826391031E-001 -6.3263567029E-001 
8268581.977 +6.8804378588E-001 +8.3308739934E+000  +8.4606737963E-003 +8.5156823747E+001  +2.1490276610E-003 -3.8503380738E+001  +7.8962910474E-001 -1.1704331519E+000 
8393727.159 +7.5480790401E-001 +1.0181156160E+001  +1.1025368824E-002 +9.8670502828E+001  +3.7709017844E-003 +9.8037974637E+001  +7.3306002251E-001 -8.9645694807E-001 
8518872.340 +6.9531508999E-001 +7.3703408302E+000  +2.9339163792E-003 +2.4160991795E+001  +5.4351192950E-003 +2.4893357755E+001  +6.6944162794E-001 -8.0872238611E-001 
8644017.522 +6.8271318735E-001 +1.1415531467E+001  +3.6523873451E-003 +8.2280976860E+001  +7.2265536580E-003 +6.9361777570E+001  +7.2811221644E-001 -2.1629027553E+000 
8769162.703 +6.1910691186E-001 +6.8628322865E+000  +7.8504984652E-003 +1.3338909458E+002  +6.1789763147E-003 +9.3091549572E+001  +6.6673715014E-001 +4.3553766713E-001 
8894307.885 +6.3824322173E-001 +9.9483364848E+000  +1.4866948012E-003 +1.2996999609E+002  +2.6705115176E-003 +8.7134269758E+001  +6.8324713358E-001 -1.8938959234E+000 
9019453.066 +5.9111978257E-001 +8.1266677308E+000  +4.4704940000E-003 +6.1980949476E+001  +3.5751480934E-003 +3.6444440279E+001  +6.4593339311E-001 +4.0299431570E-001 
9144598.248 +5.2630523408E-001 +6.4871756509E+000  +7.5567181257E-003 +6.5317852312E+001  +4.8452415909E-003 +1.5160516155E+002  +6.6452830423E-001 -2.9225737332E+000 
9269743.429 +5.3963902659E-001 +4.9356657706E+000  +1.5464350383E-003 +1.3072870836E+002  +4.2457440100E-003 +6.9783886137E+001  +6.0675083235E-001 +3.1658779551E+000 
9394888.611 +5.9348678849E-001 +9.9720535607E-001  +1.5324511595E-003 +1.1950101034E+002  +1.1285146153E-002 +6.8542203034E+001  +5.9833292926E-001 +1.1885575104E+000 
9520033.792 +6.2708800796E-001 +7.2741135800E+000  +3.0493164201E-003 +4.2852105983E+001  +4.6897643776E-003 +8.8834860914E+001  +6.5522259949E-001 -4.8080747061E+000 
9645178.974 +5.4774222897E-001 +2.2966588155E+000  +4.2468738394E-003 +3.2169400593E+001  +5.0396675409E-003 +6.7796072129E+001  +5.6499439042E-001 -7.9319434204E+000 
9770324.155 +5.5104479625E-001 +2.0148210204E+000  +6.7596733416E-003 +6.0675437052E+001  +6.3648092447E-003 +6.7948324693E+001  +5.6825383008E-001 -6.7219671934E+000 
9895469.337 +5.1495024189E-001 +1.8234388405E-002  +3.6343905824E-003 +7.9810895377E+001  +3.5049514687E-003 +1.1445097256E+002  +5.6546906527E-001 -7.1706355225E+000 
10020614.518 +5.3153678784E-001 -5.2439526316E-001  +3.3788178226E-003 +6.1455576450E+001  +2.9444302081E-003 +8.0634268167E+001  +6.1298754003E-001 -1.1043753123E+000 
10145759.700 +5.5365376021E-001 +5.6415117620E+000  +5.6189000548E-003 +6.3659263237E+001  +4.4260447518E-003 +9.5295729664E+001  +5.8202536182E-001 -3.9803305347E+000 
10270904.881 +5.4788223300E-001 +6.4125506524E+000  +4.0621659404E-003 +6.4707773249E+001  +3.9216937953E-003 +1.1056606144E+002  +5.9749490000E-001 +3.7872997774E-001 
10396050.063 +5.7250912440E-001 +1.4377781535E-001  +3.1705673679E-003 +8.4072522324E+001  +4.5963999300E-003 +7.8590180940E+001  +6.0107515284E-001 -1.2149350949E-001 
10521195.244 +5.5748988203E-001 +6.6380938506E+000  +3.3481464715E-003 +5.6728553576E+001  +6.2663872325E-003 +1.1202777111E+002  +5.9151370011E-001 -4.3493457674E+000 
10646340.426 +5.5250141126E-001 +7.5909995817E+000  +2.2888392230E-003 +7.1326726917E+001  +6.1641707514E-003 +1.0342684541E+002  +5.6814424084E-001 -1.5857955803E+000 
10771485.607 +5.8505132173E-001 +6.9182864654E+000  +2.8400341118E-003 +4.6419256418E+001  +6.3223381088E-003 +9.3412191605E+001  +6.1256113593E-001 +9.7057518340E-001 
10896630.788 +5.8775255485E-001 +7.4368179482E+000  +5.2449255152E-003 +8.8173637588E+001  +2.8707077084E-003 +7.4607271296E+001  +6.1514281776E-001 +1.5326624310E-001 
11021775.970 +5.7756256482E-001 +6.1119625518E+000  +3.1525979681E-003 +9.5118625286E+001  +6.3668181434E-003 +9.1886663661E+001  +6.2423559197E-001 -1.1063442164E+000 
11146921.151 +5.8757362524E-001 +5.6177245809E+000  +5.8230709975E-003 +8.5316444065E+001  +5.1287474808E-003 +8.1605881982E+001  +6.0717745977E-001 +6.4296041349E-001 
11272066.333 +5.7670127233E-001 +5.5591197682E+000  +6.4436230808E-003 +9.0437932108E+001  +4.7823591798E-003 +1.1495197879E+002  +6.4545366362E-001 -1.3440925368E+000 
11397211.514 +6.1535084491E-001 +4.6031536297E+000  +5.8309679615E-003 +8.6098042746E+001  +4.8853780981E-003 +9.8566838497E+001  +6.1268314705E-001 -2.2248668596E-001 
11522356.696 +6.2631741290E-001 +7.1235879632E+000  +5.2021787357E-003 +6.9981755268E+001  +2.5853484822E-003 +8.3497896883E+001  +6.4837010943E-001 +2.1817429116E+000 
11647501.877 +6.2473515404E-001 +6.7868703954E+000  +5.9344537032E-003 +9.1596056338E+001  +4.4660433560E-003 +7.5467754941E+001  +6.6681237187E-001 +6.5103634554E-001 
11772647.059 +6.1242211358E-001 +5.2875781039E+000  +4.0802555881E-003 +9.8914827240E+001  +5.7720513944E-003 +1.0352153571E+002  +6.7398206706E-001 +6.4690256595E-001 
11897792.240 +6.6804979940E-001 +6.9367929586E+000  +5.2566242431E-003 +8.7897623237E+001  +5.1728681731E-003 +1.2260936775E+002  +7.0540381217E-001 +2.1245441100E+000 
12022937.422 +6.7133200227E-001 +5.6178432650E+000  +6.2211227053E-003 +8.2244154560E+001  +6.5076061792E-003 +8.4426199153E+001  +7.1042204311E-001 +4.1113024614E-002 
12148082.603 +6.7306123881E-001 +3.4427450926E+000  +4.5723800925E-003 +9.4157883722E+001  +4.7943059869E-003 +6.1193460465E+001  +7.0612773026E-001 +1.7695243805E+000 
12273227.785 +6.6906518507E-001 +3.1057689378E+000  +5.9303908176E-003 +8.1976336422E+001  +4.2722383333E-003 +8.2827167244E+001  +7.1133769977E-001 -1.5201605591E+000 
12398372.966 +6.9333254758E-001 +4.3639607305E+000  +6.6515667757E-003 +7.4256406213E+001  +6.3127367451E-003 +7.3898680531E+001  +6.9831009460E-001 -5.7952833447E-001 
12523518.148 +7.2637237479E-001 +4.1481368953E+000  +5.8798440867E-003 +8.2722309837E+001  +7.6920276238E-003 +9.2813368010E+001  +7.6711108625E-001 -3.8722855785E+000 
12648663.329 +7.3750097243E-001 +2.7231297172E+000  +4.9807630644E-003 +6.8796973112E+001  +4.9877835973E-003 +1.1149254796E+002  +7.4707414183E-001 -3.1651334639E-001 
12773808.511 +7.6280537388E-001 +1.5990172847E+000  +6.2301345848E-003 +9.2011495737E+001  +6.2839523464E-003 +9.9543541141E+001  +7.7146438422E-001 -1.4687890554E+000 
12898953.692 +7.6221432195E-001 +2.2103186298E+000  +4.6769573075E-003 +8.9953271742E+001  +6.5686372454E-003 +9.4106394879E+001  +7.8904677014E-001 -1.2826685673E+000 
13024098.874 +7.7379123293E-001 +1.3944569581E+000  +6.0134026712E-003 +8.1336430235E+001  +6.4526324101E-003 +9.9906603561E+001  +8.1909894593E-001 -5.6954415645E-001 
13149244.055 +8.0987923425E-001 +1.6517607346E+000  +7.0731777770E-003 +8.5266097852E+001  +5.8486102325E-003 +9.1072622039E+001  +8.0039789373E-001 -3.4163617251E+000 
13274389.237 +8.0056678992E-001 -1.3656329804E+000  +8.0393492579E-003 +7.3467760127E+001  +5.9161927780E-003 +8.6101712338E+001  +8.4776910451E-001 -3.1881469326E+000 
13399534.418 +8.4239303334E-001 +1.3248109080E+000  +6.9260126965E-003 +9.0139384501E+001  +6.6370038203E-003 +9.6613073098E+001  +8.4752829873E-001 -1.3091066702E+000 
13524679.599 +8.4249316500E-001 -2.2906716075E+000  +7.3725600959E-003 +7.9461418476E+001  +6.5789239062E-003 +8.3186748058E+001  +8.3177553567E-001 -1.2200821512E+000 
13649824.781 +8.3843448451E-001 -3.2216209436E+000  +6.8276601686E-003 +8.6605775861E+001  +7.5015581750E-003 +8.9925782003E+001  +8.6860907890E-001 -3.1322048257E+000 
13774969.962 +8.9340305131E-001 -2.8556614651E+000  +6.3721713018E-003 +8.3719084657E+001  +6.5378623723E-003 +9.3007808464E+001  +8.8561878817E-001 -2.7572865308E+000 
13900115.144 +9.1203731227E-001 -2.8775095153E+000  +7.8504543676E-003 +8.3763161489E+001  +6.8176532943E-003 +8.2881615207E+001  +9.2017880073E-001 -4.3158342658E+000 
14025260.325 +9.4756046842E-001 -3.3048676732E+000  +9.3823968946E-003 +8.5604704002E+001  +6.8960241163E-003 +8.5613286098E+001  +9.1719958567E-001 -3.3428873108E+000 
14150405.507 +9.4780748453E-001 -4.4062900685E+000  +7.9596422503E-003 +8.5824723520E+001  +7.0711423817E-003 +8.0547318507E+001  +9.5529808209E-001 -3.4473250009E+000 
14275550.688 +9.6113702286E-001 -5.4468123908E+000  +7.8594711120E-003 +8.0507491654E+001  +7.0135586989E-003 +7.8726779133E+001  +9.7104721643E-001 -5.1203359194E+000 
14400695.870 +9.6107379918E-001 -5.6591400973E+000  +6.8730905855E-003 +8.0713581774E+001  +8.6225202672E-003 +8.0801953287E+001  +9.9208146204E-001 -4.5882007152E+000 
