!  2-Port S-parameters saved by WinCal
! VAR MeasName=S-Parameters (CALIBRATED_DATA) read from VNA (P5004A)
! VAR MeasDate=28/08/2024 12:03:53
! VAR NAME=S2_r7c9_formed_9k-100M_2
! VAR FILENAME=S2_r7c9_formed_9k-100M_2.S2P
! VAR DATE=28/08/2024 12:03:53
! VAR PHYS_PORTS=1,2
! VAR ObjTypeName=DATASET
! VAR IndexType=Frequency
!
# Hz S MA R 50
9000.000 +9.7062210153E-002 -1.4619016082E+002  +1.0430350458E-002 -1.7576556331E+002  +9.8636906573E-003 -1.4717444337E+002  +2.4904459354E-001 -1.3599295886E+002 
134145.181 +1.1103943091E-001 +1.6942270418E+002  +4.2687877873E-004 +2.6008202077E+001  +2.8263969821E-004 +3.1049100443E+001  +2.4313957112E-001 -1.7158105583E+002 
259290.363 +1.1206332478E-001 +1.7022532827E+002  +2.1195407966E-004 +1.4814883876E+002  +9.1421572089E-004 -1.3226328960E+002  +2.5615886254E-001 -1.6926789617E+002 
384435.544 +1.1506599625E-001 +1.6975133919E+002  +4.5147987111E-004 -1.4198057132E+002  +3.9951297781E-004 +1.4863062771E+002  +2.3997279065E-001 -1.6831491774E+002 
509580.726 +1.1547610197E-001 +1.7022102581E+002  +1.3765274659E-003 +7.1210396268E+001  +5.2856374350E-004 +1.0741200452E+002  +2.3536584399E-001 -1.6491490686E+002 
634725.907 +1.1728962150E-001 +1.7149984164E+002  +9.9721431121E-004 +1.2541520811E+002  +7.1265155681E-004 +1.6868089201E+002  +2.5310795910E-001 -1.6261402029E+002 
759871.089 +1.1877394509E-001 +1.7007206134E+002  +3.2001317736E-004 +1.1628925397E+002  +2.9391842770E-004 +1.2108136968E+002  +2.5575407128E-001 -1.6753343746E+002 
885016.270 +1.1949144706E-001 +1.6904924408E+002  +3.6916917464E-004 +4.3769542341E+001  +6.1607507778E-004 +6.6074846314E+000  +2.4864421606E-001 -1.6717225172E+002 
1010161.452 +1.1914965884E-001 +1.7043820479E+002  +7.8919290145E-004 +1.1154795165E+002  +1.5821752254E-003 -6.6131310051E+001  +1.8541006726E-001 -1.6200879523E+002 
1135306.633 +1.1935728993E-001 +1.6915272003E+002  +1.1391796142E-003 -1.1634400581E+002  +5.2784956138E-004 +1.5895105844E+002  +1.9527040244E-001 -1.6333423736E+002 
1260451.815 +1.1665639736E-001 +1.7156089488E+002  +2.0817963048E-003 +1.4152433203E+002  +1.0940231054E-003 +1.3051278590E+002  +2.2914799051E-001 -1.5414079599E+002 
1385596.996 +1.2366364175E-001 +1.7436251719E+002  +1.6271329548E-003 +3.5850566793E+001  +5.6365012120E-004 -1.7375201180E+001  +2.5259766191E-001 -1.5694786108E+002 
1510742.178 +1.2837733078E-001 +1.7101677735E+002  +7.0422694945E-004 -1.7177764049E+002  +5.6879165346E-004 -3.7917933399E+001  +2.5140138894E-001 -1.5633023885E+002 
1635887.359 +1.3019387911E-001 +1.7204631680E+002  +1.4281444206E-004 +1.7951011274E+002  +6.6991291202E-004 -4.8390303087E+001  +2.4037026259E-001 -1.6118771693E+002 
1761032.541 +1.2954374042E-001 +1.6937444391E+002  +1.3528991850E-003 +2.2898355878E+001  +1.3340434329E-003 -1.3824236818E+002  +2.0119747859E-001 -1.5067966092E+002 
1886177.722 +1.2817835527E-001 +1.6997584160E+002  +1.1649474035E-003 +4.6278651143E+001  +3.0354685957E-003 +1.7799014991E+002  +2.0123777270E-001 -1.6550058710E+002 
2011322.904 +1.3013883446E-001 +1.6673246778E+002  +9.9911446026E-004 +1.6898865819E+002  +1.8631646961E-003 -8.6176490764E+001  +1.9095906565E-001 -1.7271349326E+002 
2136468.085 +1.2990712502E-001 +1.6765227994E+002  +1.1545110318E-003 -8.2663035230E+001  +2.0973715045E-003 +7.7511661464E+000  +1.7937779100E-001 -1.7308394049E+002 
2261613.267 +1.3247280059E-001 +1.6305280533E+002  +1.6896809747E-003 +1.7566772174E+002  +2.3707660925E-003 -4.6112645777E+001  +2.0418872439E-001 +1.7024092204E+002 
2386758.448 +1.3087272412E-001 +1.6420476705E+002  +8.4167292065E-003 +1.2443066707E+002  +1.5660143695E-002 -2.4270685228E+001  +3.0281960531E-001 +8.4683800573E+001 
2511903.630 +1.2208112856E-001 +1.6368018665E+002  +6.1985092572E-003 -5.4316939087E+001  +1.7035668410E-003 -9.7829199568E+001  +2.1660269705E-001 +1.7260142996E+002 
2637048.811 +1.2066823927E-001 +1.6360725010E+002  +5.9832898560E-003 -6.0898393112E+001  +3.9874166571E-003 -9.4406017774E+001  +1.5315491409E-001 -1.6913975181E+002 
2762193.992 +1.1548646030E-001 +1.7223798376E+002  +2.4631197140E-002 -1.5788857216E+002  +1.6213567068E-002 -4.0997771428E+001  +5.4959239092E-001 -4.7365346239E+001 
2887339.174 +9.8820728922E-002 +1.7899786842E+002  +1.8564186652E-002 +3.5487730250E+001  +2.7992665511E-002 -1.3193733987E+001  +1.6460267011E-001 +9.0748349390E+001 
3012484.355 +1.2764843197E-001 +1.7645987787E+002  +9.9284324132E-003 -4.1492741963E+001  +1.1459805552E-002 +1.2496349517E+000  +7.4534705264E-001 -1.1862827239E+002 
3137629.537 +1.3167246372E-001 +1.7460998241E+002  +9.1228624902E-003 -7.6711801013E+000  +3.4025171064E-003 -1.4799773457E+002  +1.0951712895E-001 -6.4488524861E+001 
3262774.718 +1.4823972414E-001 +1.5168131709E+002  +5.6446556249E-003 -5.4989899154E+001  +1.3676888280E-002 -1.1237927611E+002  +5.4292473052E-001 -4.0449877498E+001 
3387919.900 +1.3011685139E-001 +1.5052326347E+002  +1.6298406812E-002 +1.3013727097E+002  +2.4048699520E-002 -6.8550340074E+001  +3.9891583450E-001 +7.1143954877E+001 
3513065.081 +1.4403726669E-001 +1.5488764201E+002  +1.6920577669E-002 +1.2491001669E+002  +7.7111092559E-003 -6.0382178920E+001  +6.0591614499E-001 +1.1208745022E+002 
3638210.263 +1.6359641920E-001 +1.5378366735E+002  +2.0181354999E-002 +4.8657248799E+001  +2.2558540611E-002 +2.7913403163E+001  +8.5623854326E-001 +8.6174901333E+001 
3763355.444 +1.4645692441E-001 +1.4035858050E+002  +8.7854698171E-003 -3.0885074547E+001  +1.9387288025E-002 -1.5359319862E+001  +4.0621037361E-001 -1.7400517151E+001 
3888500.626 +1.7754471987E-001 +1.3013244376E+002  +1.4832438841E-002 +1.6468852538E+002  +4.5441064500E-003 -6.5088119441E+001  +7.6703502936E-001 +1.1772401150E+002 
4013645.807 +1.1671512980E-001 +1.4561066645E+002  +2.9447428074E-002 +5.0102499676E+001  +3.4707887289E-002 +4.1325360413E+000  +9.1526792860E-001 +1.0283476493E+002 
4138790.989 +1.6186784306E-001 +1.5114171620E+002  +5.4636615363E-003 +5.3615361614E+001  +1.1100020866E-002 +6.3097160851E+000  +2.9603791274E-001 +1.2797290121E+002 
4263936.170 +1.9071249295E-001 +1.4434005041E+002  +1.3300024552E-002 +1.2111014781E+002  +3.3389596791E-002 -2.5155637330E+001  +8.2765613775E-001 +5.1068785448E+001 
4389081.352 +1.9582147938E-001 +1.3511013869E+002  +1.1510207403E-001 +7.8083162787E+001  +2.7357423435E-002 +2.4072787870E+001  +2.9701643186E+000 +6.7992547112E+001 
4514226.533 +2.0908645352E-001 +1.3358788306E+002  +3.2241490339E-002 +8.9270673445E+001  +4.3187819121E-002 +3.1542694102E+001  +1.2036982811E+000 +5.6314131313E+001 
4639371.715 +3.3089879702E-001 +1.3681151971E+002  +3.6938380087E-002 -1.2290169459E+002  +2.8475335998E-002 +1.1010778675E+002  +1.9471239505E+000 +1.4108109712E+002 
4764516.896 +4.3088073123E-001 +1.2378700916E+002  +1.5760659700E-001 +8.2030222653E+001  +5.2308716112E-001 +1.3381501465E+002  +1.7974476942E+001 +1.1091115222E+002 
4889662.078 +4.8586926080E-001 +1.2368450283E+002  +1.4340651274E-001 -1.0791057407E+002  +1.2605534847E-001 -1.2713454025E+002  +9.5951471722E+000 -1.5375313104E+002 
5014807.259 +3.8582034994E-001 +1.3401575106E+002  +1.3479481946E-001 +1.5568872506E+002  +6.8313989603E-002 +8.2448811391E+001  +4.8837581686E+000 +5.7965049382E+001 
5139952.441 +3.3387775691E-001 +1.3669238429E+002  +1.5177407872E-002 +9.4628199565E+001  +2.3165382396E-002 +2.0757439905E+001  +1.0034218567E+000 +1.0152629677E+002 
5265097.622 +4.5861293011E-001 +1.3465685967E+002  +3.3701574527E-002 +9.2254971216E+001  +1.7488111744E-002 -1.1148739768E+001  +1.3834021876E+000 +7.6288510919E+001 
5390242.804 +4.5089053912E-001 +1.2087234619E+002  +9.4488684882E-002 +7.5208050366E+001  +7.8417232221E-002 +5.3117744954E+001  +3.1016033312E+000 +4.3517477206E+001 
5515387.985 +4.4034272216E-001 +1.3252745428E+002  +1.4282009899E-002 +1.2421525130E+002  +9.1077298977E-003 +7.2305039044E+001  +2.4463890025E+000 +9.8722714734E+001 
5640533.166 +4.5433823844E-001 +1.3177784382E+002  +4.1951930926E-002 +1.0862526028E+002  +1.5694480090E-002 +7.9019505667E+001  +2.7724740088E+000 +1.0770778014E+002 
5765678.348 +4.4949426079E-001 +1.1641588394E+002  +4.7645499146E-002 +7.1725538081E+001  +2.4889871880E-002 +8.1005926672E+001  +2.5303868225E+000 +5.6505764853E+001 
5890823.529 +4.8694903339E-001 +1.1521300162E+002  +2.0218894441E-002 +5.1637970288E+001  +8.4086497675E-003 -5.9068587527E+000  +1.5363407712E+000 +6.1942231901E+001 
6015968.711 +6.1718490197E-001 +1.1848130911E+002  +4.1711779421E-002 +7.3239856927E+001  +3.0233136379E-002 +5.5490725079E+001  +1.5592151227E+000 +3.5152009788E+001 
6141113.892 +6.9427853335E-001 +1.0163025037E+002  +7.4516235074E-002 +4.5963347141E+001  +5.3337503833E-002 +1.1167922115E+001  +2.6769573778E+000 +2.9780629919E+001 
6266259.074 +8.6171124243E-001 +1.0439727102E+002  +3.3357533952E-002 +5.2306881714E+001  +6.0237146824E-002 +4.8260153703E+001  +2.1916989042E+000 +2.8445409662E+001 
6391404.255 +8.4317818499E-001 +9.4830055564E+001  +2.6001331162E-002 +4.0021775185E+001  +4.1711160381E-002 +1.6823217305E+001  +1.8418962798E+000 +2.7651342796E+000 
6516549.437 +1.2510705270E+000 +7.5510077406E+001  +4.6015911042E-002 +4.7742867877E+001  +2.9287464851E-002 +3.8485634203E+001  +1.6529046452E+000 -1.7226015913E+000 
6641694.618 +1.5831663161E+000 +8.3748278039E+001  +2.6102160559E-002 +5.0029664826E+001  +3.5937709735E-002 +3.1676515455E+001  +1.4033113775E+000 -1.2226844804E+001 
6766839.800 +2.4575318684E+000 +5.9182822616E+001  +5.3104674481E-002 +5.9198502305E+001  +5.3625037376E-002 +1.6269540249E+001  +1.2514963931E+000 -5.3396275902E+000 
6891984.981 +2.2975095060E+000 +4.0695939056E+001  +4.6473614159E-002 +1.5195388415E+001  +3.2847532370E-002 +2.7809907773E+001  +1.2687503530E+000 -9.8355778589E+000 
7017130.163 +1.5852155819E+000 +2.7612445709E+001  +3.7715883008E-002 +9.8819093263E+000  +3.7052609074E-002 +4.0209660427E+001  +1.3519039621E+000 -1.1232067387E+001 
7142275.344 +1.8985335110E+000 +4.6542133775E+000  +3.2159577566E-002 -2.6827004148E+001  +2.7971313780E-002 -1.6859988965E+001  +1.2178579512E+000 -1.7567114114E+001 
7267420.526 +1.4384450387E+000 +9.3526417955E-001  +2.9608156008E-002 +9.6972726043E+000  +1.5780600073E-002 +5.5197123064E+001  +1.1676116155E+000 -9.2975622648E+000 
7392565.707 +1.3769089268E+000 -3.5070222715E+000  +2.5440791787E-002 +1.1813203044E+001  +1.7788716710E-002 +1.8462656164E+001  +1.3291038903E+000 -9.0769627323E+000 
7517710.889 +1.1132025922E+000 +4.7246721512E+000  +1.7314084679E-002 +4.3421587606E+001  +1.7790895272E-002 +1.4250751661E+001  +1.2913926838E+000 -7.9168805357E+000 
7642856.070 +9.6150620334E-001 +6.5588249016E+000  +1.6546659185E-002 +1.7998402923E+001  +1.2603980354E-002 +7.9805543607E+000  +9.1830871179E-001 -6.4514076929E+000 
7768001.252 +1.0582729416E+000 +5.5595361590E+000  +1.4431574004E-002 +1.9918993465E+001  +1.4328827664E-002 +2.2170929069E+001  +1.0199908845E+000 -1.6627365751E+000 
7893146.433 +9.1716932060E-001 +5.9248387814E+000  +2.1024436830E-002 +1.1316083924E+001  +1.3582310663E-002 +1.4064132442E+001  +9.3840005423E-001 -1.9096072261E+000 
8018291.615 +7.6995826109E-001 +1.7745331390E+000  +1.6680752204E-002 +3.6950548784E+000  +1.2290822768E-002 +4.3634969876E+001  +8.0356883004E-001 -8.8047918479E-001 
8143436.796 +7.6042707946E-001 +5.2923470059E+000  +1.2988071318E-002 +2.7390090706E+001  +8.4023549705E-003 +1.1160733569E+001  +7.8427262942E-001 +1.2135549306E+000 
8268581.977 +7.0679403273E-001 +1.0153814464E+001  +9.7972667041E-003 +2.6346829312E+001  +1.7216324465E-002 +2.7187135169E+001  +7.6824937691E-001 +3.4060045618E-001 
8393727.159 +5.9427514075E-001 +9.1449632386E+000  +1.3263033617E-002 +1.6376446100E+001  +1.0102248732E-002 +2.8288344794E+001  +7.3121381739E-001 +1.8958308645E-001 
8518872.340 +6.4070435749E-001 +9.2403215854E+000  +1.4500483314E-002 +1.3694927412E+001  +1.3069601842E-002 +1.6893830710E+001  +7.0058242655E-001 +1.0304104518E+000 
8644017.522 +6.6454556633E-001 +3.9016944735E-001  +1.0489385827E-002 +2.5253533881E+000  +1.0096940041E-002 +1.7995736018E+001  +6.7193330451E-001 -4.0386707062E+000 
8769162.703 +6.1661028402E-001 +3.0793222440E+000  +9.6633325011E-003 +3.0398597847E+001  +1.3927399859E-002 +1.6075593949E+000  +6.9368591935E-001 -2.7822253794E+000 
8894307.885 +6.0951626197E-001 +7.6135962057E+000  +9.7181117315E-003 -9.8893165882E+000  +1.5731027154E-002 +2.5634394352E+001  +6.0259006921E-001 +3.3947201509E+000 
9019453.066 +6.4440556240E-001 +4.9630108851E+000  +1.3424990755E-002 +2.4411306307E+001  +1.2262890445E-002 +1.8969472402E+001  +6.0862018985E-001 +3.0364072929E-001 
9144598.248 +5.7839952838E-001 +7.2453845965E+000  +1.2994280509E-002 +1.7133672539E+001  +1.2824130972E-002 +3.1325821460E+001  +5.7224284827E-001 -3.9087172849E+000 
9269743.429 +5.9361624748E-001 +4.9233814030E+000  +9.2509753531E-003 +2.8718534492E+000  +1.0499616252E-002 +2.2114637363E+001  +6.2138044054E-001 -6.1567567000E-001 
9394888.611 +5.8318529940E-001 +5.2687947381E+000  +1.3291955726E-002 +1.4182411142E+001  +7.3358577829E-003 +2.9692104245E+001  +5.9082602317E-001 +1.5413991255E+000 
9520033.792 +5.5196109059E-001 +2.9432406037E+000  +1.4045394436E-002 +7.9758306350E+000  +1.1132888909E-002 +1.6646959156E+001  +6.0981481418E-001 -5.0841639656E+000 
9645178.974 +5.5636485469E-001 +5.7436379836E+000  +1.2324404188E-002 -1.1782956883E+000  +1.1355425170E-002 +3.3136970065E+001  +5.7594312162E-001 -3.4777090133E+000 
9770324.155 +5.6251068695E-001 +4.1785617595E+000  +1.4366724656E-002 +1.1820202374E+001  +1.3708463044E-002 +2.1667895796E+001  +5.4950125690E-001 -4.8856595959E+000 
9895469.337 +5.3458528419E-001 -3.2740157230E+000  +1.4574966883E-002 +1.2004417431E+001  +1.2882383498E-002 +5.0907050496E+001  +5.5385429581E-001 -3.0165205066E+000 
10020614.518 +5.9281327562E-001 +7.7693322770E-001  +1.4667744379E-002 +2.7293829286E+001  +1.7291354981E-002 +3.6982157192E+001  +5.7081749147E-001 -7.2855603968E+000 
10145759.700 +5.4706614298E-001 +3.3539589591E+000  +1.4107401923E-002 +1.2885581007E+001  +1.5242755051E-002 +3.4126955000E+001  +5.3470611471E-001 -4.5170425484E+000 
10270904.881 +5.2536133298E-001 +4.7203566773E+000  +1.1934574512E-002 +1.2529988103E+001  +9.9326328955E-003 +4.3726835115E+001  +5.4833428514E-001 -1.7859331671E+000 
10396050.063 +5.0964303845E-001 +8.3807392703E+000  +1.3416703862E-002 +1.8432342240E+001  +1.2126243050E-002 +3.3965571150E+001  +5.4950266564E-001 -2.8455007319E+000 
10521195.244 +5.4665784065E-001 +6.2624967599E+000  +1.2179655199E-002 +2.8372322884E+001  +9.7316774356E-003 +2.6140175009E+001  +5.7433467146E-001 -2.6261528098E+000 
10646340.426 +5.5751191787E-001 +7.1370566948E+000  +1.0611267504E-002 +2.5884396034E+001  +1.2303760856E-002 +1.9018016864E+001  +6.0584828077E-001 -2.0373754182E+000 
10771485.607 +5.7587775526E-001 +6.2624104563E+000  +1.4979238076E-002 +2.0074447662E+001  +1.4046530674E-002 +3.0015739165E+001  +5.6658017521E-001 -3.2506189229E-001 
10896630.788 +5.5758232705E-001 +5.3081536302E+000  +1.3291028952E-002 +2.0727671149E+001  +1.3210180778E-002 +3.6434150887E+001  +5.7540022473E-001 +4.4769435041E+000 
11021775.970 +5.4584102134E-001 +6.7859828615E+000  +1.2220528156E-002 +1.6021420940E+001  +1.2528195329E-002 +3.9222185802E+001  +5.9500195056E-001 +8.7319313859E-001 
11146921.151 +5.8929944196E-001 +6.4286686270E+000  +1.2312558548E-002 +1.3881876618E+001  +1.1697469974E-002 +3.4082874684E+001  +6.1338019490E-001 +9.3697932880E-001 
11272066.333 +5.8085916838E-001 +9.7305961795E+000  +1.4046928241E-002 +2.5360351670E+001  +1.4361920827E-002 +2.7805598714E+001  +6.1841608578E-001 -4.3878614092E-001 
11397211.514 +5.9630289213E-001 +7.5153514012E+000  +1.2835407745E-002 +3.0250468319E+001  +1.1895171297E-002 +2.4978473956E+001  +6.3897273914E-001 +3.3668816925E+000 
11522356.696 +5.9435750958E-001 +6.2916687377E+000  +1.3344051983E-002 +2.1966586468E+001  +1.5115657041E-002 +2.2288102519E+001  +6.2298632702E-001 -3.9003401176E-001 
11647501.877 +6.2762658428E-001 +5.6998235929E+000  +1.4325668278E-002 +1.4934043541E+001  +1.3901307423E-002 +4.1076965240E+001  +6.2321392520E-001 +3.3541049012E+000 
11772647.059 +6.3428263503E-001 +2.0810894224E+000  +1.3169768924E-002 +2.0677947812E+001  +1.4108300142E-002 +3.4521264127E+001  +6.5653842644E-001 +1.2777680896E+000 
11897792.240 +6.7473666774E-001 +3.5047521461E+000  +1.2447277345E-002 +2.3136146988E+001  +1.2014737504E-002 +3.3442653042E+001  +6.6314514216E-001 +2.6488262911E+000 
12022937.422 +6.7497904182E-001 +6.9430497845E+000  +1.3744581024E-002 +1.8150643683E+001  +1.4572907769E-002 +3.0786967106E+001  +6.5259287641E-001 -1.6732756702E+000 
12148082.603 +7.0003013190E-001 +5.1962207967E+000  +1.4389210134E-002 +1.8101338100E+001  +1.4312250950E-002 +2.4026387742E+001  +6.7330278937E-001 -1.7805766975E+000 
12273227.785 +6.7863491847E-001 +5.2992217672E+000  +1.5562877489E-002 +1.9354384796E+001  +1.3572907346E-002 +2.9886750498E+001  +6.9203738147E-001 +1.8966306482E+000 
12398372.966 +7.0502219626E-001 +1.2830597479E+000  +1.5561607343E-002 +2.9545556167E+001  +1.5253074677E-002 +2.9848695612E+001  +7.0683583013E-001 +9.5068470698E-001 
12523518.148 +7.0637430543E-001 +2.9131012204E+000  +1.6253270270E-002 +2.2650461273E+001  +1.5023311401E-002 +2.3811833449E+001  +7.1230734285E-001 -4.5880612106E-001 
12648663.329 +7.1483860178E-001 +2.2640061961E+000  +1.6018112913E-002 +2.3872903080E+001  +1.4411206123E-002 +3.3339378193E+001  +7.7256313177E-001 -1.4380933345E+000 
12773808.511 +7.3552685842E-001 +2.6702599805E+000  +1.5997719534E-002 +2.3866499907E+001  +1.3923654532E-002 +2.8885927665E+001  +7.6301262743E-001 -6.9680578892E-001 
12898953.692 +7.4707680210E-001 +1.5496184914E+000  +1.4926365527E-002 +1.8562258504E+001  +1.5953761410E-002 +3.0660848744E+001  +7.6582458056E-001 -2.2609629794E+000 
13024098.874 +8.0190590899E-001 -8.2410821710E-001  +1.6090442790E-002 +2.2883691902E+001  +1.6657843758E-002 +2.9602488150E+001  +7.8586029797E-001 -1.1806234908E+000 
13149244.055 +8.0053941694E-001 -1.4833347931E+000  +1.5629912725E-002 +2.3056217050E+001  +1.6454575389E-002 +3.1177014485E+001  +8.0776432202E-001 -4.8549131797E-001 
13274389.237 +7.9514858249E-001 -2.1648735119E+000  +1.8219655425E-002 +2.6418251129E+001  +1.6617918985E-002 +2.6580373533E+001  +8.0650253827E-001 -1.5524016430E+000 
13399534.418 +7.9266847236E-001 -9.4300720883E-001  +1.7325272197E-002 +2.4243851615E+001  +1.5926584013E-002 +2.7624175260E+001  +8.2858565090E-001 -1.9506285400E+000 
13524679.599 +8.3463437681E-001 -7.1102712364E-001  +1.7425021274E-002 +2.8636307317E+001  +1.6436141231E-002 +2.9750073527E+001  +8.4474858115E-001 -2.5266711190E+000 
13649824.781 +8.5512694793E-001 -1.6948740472E+000  +1.7280872078E-002 +2.5281974431E+001  +1.5792435823E-002 +2.7851333575E+001  +8.7814879197E-001 -2.8545528014E+000 
13774969.962 +8.8621705588E-001 -1.2309046376E+000  +1.5680810333E-002 +2.2742093140E+001  +1.6075561420E-002 +2.5279869839E+001  +8.7907299587E-001 -4.1592969833E+000 
13900115.144 +8.9486759879E-001 -2.9174634734E+000  +1.6514931837E-002 +2.2395089969E+001  +1.6531545035E-002 +2.6595359430E+001  +9.0405012958E-001 -4.0110951160E+000 
14025260.325 +8.9871670381E-001 -2.8723618139E+000  +1.7318271344E-002 +2.5671341822E+001  +1.7415444094E-002 +2.8830379462E+001  +9.1300432783E-001 -4.1967230557E+000 
14150405.507 +9.3687040314E-001 -4.4998853062E+000  +1.7950982615E-002 +2.9520536502E+001  +1.9396275406E-002 +2.6745808186E+001  +9.6044741637E-001 -4.5584373672E+000 
14275550.688 +9.2224140631E-001 -4.6200423675E+000  +1.7263134972E-002 +2.5484804873E+001  +1.7430586450E-002 +2.7588451445E+001  +9.5778791251E-001 -5.0675482938E+000 
14400695.870 +9.6538613777E-001 -5.1490273329E+000  +1.7742970531E-002 +2.8119320861E+001  +1.6169321094E-002 +2.9350586312E+001  +9.8328699157E-001 -4.9238614351E+000 
