!  2-Port S-parameters saved by WinCal
! VAR MeasName=S-Parameters (CALIBRATED_DATA) read from VNA (P5004A)
! VAR MeasDate=28/08/2024 10:54:07
! VAR NAME=S2_r5c9_SET2_9k-100M_3
! VAR FILENAME=S2_r5c9_SET2_9k-100M_3.S2P
! VAR DATE=28/08/2024 10:54:07
! VAR PHYS_PORTS=1,2
! VAR ObjTypeName=DATASET
! VAR IndexType=Frequency
!
# Hz S MA R 50
9000.000 +7.4172137892E-002 -1.7129034126E+002  +6.9508598130E-003 -2.5344249859E+001  +4.0349969036E-003 +1.2585212161E+002  +2.8831765228E-001 -1.3619945000E+002 
134145.181 +1.1185556169E-001 +1.6963403221E+002  +7.4621674090E-004 -1.0927674671E+001  +5.5079701941E-004 -1.4833263812E+002  +2.3761532609E-001 -1.6935827960E+002 
259290.363 +1.1204234713E-001 +1.6935673920E+002  +2.8050723980E-004 +2.7072600280E+001  +1.3621858192E-003 +8.1554411589E+001  +2.4843250087E-001 -1.6923811259E+002 
384435.544 +1.1287796367E-001 +1.7033953506E+002  +1.8974183629E-004 +4.1796298243E+001  +7.6663405962E-004 +1.4083128445E+002  +2.4783661833E-001 -1.6817385675E+002 
509580.726 +1.1490726258E-001 +1.7072530337E+002  +7.4176369523E-004 +4.0188865971E+001  +1.1020453719E-003 +9.1663930263E+001  +2.3573476984E-001 -1.6603009015E+002 
634725.907 +1.1810869321E-001 +1.7110624277E+002  +2.5412393367E-004 +7.5270603019E+001  +2.8682500568E-004 -3.8486746511E+001  +2.5342082214E-001 -1.6669008359E+002 
759871.089 +1.2022446816E-001 +1.7080289958E+002  +6.5477084716E-004 +7.0143307041E+001  +5.2351320479E-004 -5.8994440313E+001  +2.4932675064E-001 -1.6369919796E+002 
885016.270 +1.2054197921E-001 +1.6948999873E+002  +4.9941142507E-004 -5.5491355432E+001  +4.0421756352E-004 +5.2032299180E+001  +2.4196364627E-001 -1.6704024859E+002 
1010161.452 +1.1402699023E-001 +1.7171711870E+002  +1.1412367490E-003 -6.1360990889E+001  +2.7552878111E-003 +1.1638367756E+002  +2.1397128540E-001 -1.5299508509E+002 
1135306.633 +1.1868924080E-001 +1.6805525500E+002  +1.1644706200E-003 +1.6787065276E+002  +8.6828206945E-004 -1.2883299055E+002  +1.8536681710E-001 -1.7710076172E+002 
1260451.815 +1.1664456936E-001 +1.7328848687E+002  +5.8495404640E-004 -1.2456230638E+002  +1.4105733046E-003 +8.8780953239E+001  +2.2399152370E-001 -1.6258561904E+002 
1385596.996 +1.2545937622E-001 +1.7161985388E+002  +1.8399156378E-003 +2.0306694971E+001  +1.8782292030E-003 +1.6369717900E+002  +2.6342749725E-001 -1.5700970314E+002 
1510742.178 +1.2949989325E-001 +1.7168135774E+002  +5.0654673711E-004 -4.7167342811E+001  +1.4014667504E-003 -9.3375343870E+001  +2.6108547487E-001 -1.5751226099E+002 
1635887.359 +1.2723196688E-001 +1.7088139706E+002  +7.5431499636E-004 +1.0880977901E+002  +5.1472740336E-004 -1.7716124790E+002  +2.2566356106E-001 -1.5842782217E+002 
1761032.541 +1.3130962850E-001 +1.6983744330E+002  +1.7010426076E-003 -7.1813863669E+001  +1.1487254196E-003 -1.0069341175E+002  +2.1403499894E-001 -1.5757740468E+002 
1886177.722 +1.3102874422E-001 +1.6905846257E+002  +1.8756693104E-003 -1.1189195477E+002  +2.8191694866E-004 +1.6919408569E+002  +2.1217688638E-001 -1.5987231590E+002 
2011322.904 +1.3445432142E-001 +1.6881970835E+002  +8.5427582230E-004 +3.2483171320E+001  +5.8311069321E-004 +5.1528822004E+001  +1.9448209880E-001 -1.6119504223E+002 
2136468.085 +1.3443683560E-001 +1.6773161902E+002  +8.0441317105E-004 +3.1258811745E+001  +1.2922012448E-003 -1.0691374210E+002  +2.1708064098E-001 -1.6106190139E+002 
2261613.267 +1.2442884691E-001 +1.6805346726E+002  +2.9770020540E-003 -1.1509934699E+002  +9.9356064725E-004 -1.3101077617E+002  +1.9013964092E-001 -1.7891039200E+002 
2386758.448 +1.3913895833E-001 +1.6429707049E+002  +2.4450706618E-003 -1.7828199833E+002  +4.4879283373E-003 +1.6201216234E+001  +1.3014935760E-001 +1.6569175594E+002 
2511903.630 +1.4334171649E-001 +1.6218186020E+002  +1.0991403280E-003 +6.2518748393E+001  +2.4246264124E-003 +4.7285806637E+000  +2.8588888498E-001 +1.6548877846E+002 
2637048.811 +1.3851061437E-001 +1.5531716157E+002  +6.1603945331E-003 +4.9159896752E+001  +6.3322096021E-003 +7.4484415003E+001  +1.9212898652E-001 +1.4735287789E+002 
2762193.992 +1.1006228405E-001 +1.7693426061E+002  +1.5299394563E-002 +6.3928875066E+001  +1.4528870505E-002 -7.3576296165E+001  +6.2235140879E-001 +1.0335909681E+002 
2887339.174 +1.2500435243E-001 +1.7553847470E+002  +2.2190188696E-002 -8.4153764872E+001  +1.2271262258E-002 -1.1715716089E+002  +1.0571831181E+000 -1.1199650246E+002 
3012484.355 +1.2648510409E-001 +1.7484658414E+002  +1.0234911408E-002 -8.7257223713E+001  +1.2133955929E-002 -7.5611918523E+001  +3.5400875152E-001 -7.6163359798E+001 
3137629.537 +1.2045463823E-001 -1.7591685643E+002  +4.0752153248E-003 -3.1400969897E+001  +8.2563319668E-003 -8.1780515269E+001  +2.6669845032E-001 -1.1574966102E+002 
3262774.718 +1.3856067722E-001 +1.6515159422E+002  +1.2533320147E-002 +1.2747481723E+002  +2.9193623669E-002 +6.8723553333E+001  +1.3524703204E+000 +1.4225141309E+002 
3387919.900 +1.3438201082E-001 +1.6344579022E+002  +1.8980254384E-002 +3.1947924566E+001  +7.3224611803E-003 +1.8762250427E+001  +3.8591074063E-001 +5.9058427203E+001 
3513065.081 +1.4764470907E-001 +1.5113941709E+002  +1.0513463905E-001 -1.4877231690E+002  +7.8363624235E-002 +1.2505177723E+002  +2.0344666852E+000 +1.0763607552E+002 
3638210.263 +1.6052740177E-001 +1.5163255383E+002  +4.8165645328E-003 -9.1203980671E+001  +3.0136814203E-003 +1.0918916942E+001  +4.0966778712E-001 +1.6131711081E+002 
3763355.444 +1.7035617255E-001 +1.4699199404E+002  +1.4441442097E-002 -4.6681355275E+001  +1.9610886031E-002 -6.6635825264E+000  +7.0409935350E-001 +1.1358953439E+002 
3888500.626 +1.6772092350E-001 +1.4110021113E+002  +1.2410382862E-002 +4.3623340080E+001  +2.6070907320E-003 +8.3891179956E+001  +1.7169248541E-001 +1.3240074602E+002 
4013645.807 +1.7303228341E-001 +1.5323742366E+002  +9.9983569985E-003 -1.3865196724E+002  +4.2596191117E-003 +1.1409176699E+001  +3.4343901819E-001 +7.6670268963E+001 
4138790.989 +1.9391529539E-001 +1.5222971194E+002  +6.7342855222E-003 +1.4206343944E+002  +8.0624412498E-003 -8.2722446325E+001  +9.0274343003E-001 +1.3735035297E+002 
4263936.170 +2.0957594132E-001 +1.5141220876E+002  +5.9800087980E-003 -1.0211924394E+001  +6.2661795159E-003 -6.7391821221E+000  +8.7916353952E-001 +1.1486375919E+002 
4389081.352 +2.1509553121E-001 +1.4255507790E+002  +2.4910236479E-003 +1.3682694178E+002  +2.6159173204E-003 -1.4784429234E+002  +1.0031346556E+000 +1.2386173021E+002 
4514226.533 +2.4784276418E-001 +1.3555113783E+002  +2.7993038427E-002 +1.7492051404E+002  +1.8842311155E-002 +1.0087736596E+002  +1.0479904331E+000 +1.3548873367E+002 
4639371.715 +2.6124273068E-001 +1.3674112700E+002  +5.1450536302E-003 -1.5027023841E+002  +2.8301674152E-002 +9.7282744667E+000  +1.2346697840E+000 +8.4231259068E+001 
4764516.896 +3.5330307742E-001 +1.2962299269E+002  +2.4024053900E-002 -1.1364803995E+002  +1.0411037549E-001 -7.7288235986E+001  +3.5325608791E+000 -1.0279234048E+002 
4889662.078 +4.9783393095E-001 +1.2935076110E+002  +2.3449747509E-002 +8.0207723539E+001  +2.3743289619E-002 -3.6062075229E+001  +1.9528494853E+000 -1.0386361812E+002 
5014807.259 +4.0017592512E-001 +1.3984636721E+002  +2.7309644059E-002 +7.6357112498E+001  +1.3491249927E-002 +1.5978312556E+001  +1.0976137819E+000 -2.9069662019E+001 
5139952.441 +3.6169074320E-001 +1.2883647966E+002  +3.4337891617E-002 -5.3715678351E+001  +1.5577669190E-002 +1.0846447115E+002  +4.1883940423E+000 +1.7469795400E+002 
5265097.622 +4.2403043341E-001 +1.2960868413E+002  +2.6964724684E-002 +1.6157293547E+002  +3.1697070528E-002 +1.7603422099E+002  +2.7457325949E+000 +6.8589083146E+001 
5390242.804 +4.1040969326E-001 +1.3369083318E+002  +2.0510689323E-002 +1.1959923974E+002  +2.9346414830E-003 +2.7213206212E+001  +1.8272989043E+000 +1.0277801856E+002 
5515387.985 +4.1044721087E-001 +1.3288383533E+002  +1.9525699153E-002 +1.4553819839E+002  +3.8699941460E-002 +4.6251969240E+001  +1.1867512129E+000 +6.4125161337E+001 
5640533.166 +4.4155219517E-001 +1.2680849817E+002  +3.1847288341E-002 +1.4578911121E+002  +2.2716459003E-002 +6.2725183811E+001  +2.0207194865E+000 +9.8430711236E+001 
5765678.348 +5.0487993521E-001 +1.1805545923E+002  +3.5134629442E-002 +9.1132490004E+001  +4.5287732473E-002 +4.6939808274E+001  +4.2064013196E+000 +5.8343737496E+001 
5890823.529 +5.9397551542E-001 +1.2184824629E+002  +1.0426803643E-002 +8.6973824587E+001  +8.9874598125E-003 +5.0071833993E+000  +1.2799564007E+000 +4.7412169290E+001 
6015968.711 +5.2943084765E-001 +1.2195759340E+002  +3.2417310987E-002 +5.7839209621E+001  +2.1350393907E-002 -1.2163146677E+001  +2.2073148491E+000 +4.4957591581E+001 
6141113.892 +7.4829890135E-001 +1.1323511497E+002  +4.3412207021E-002 +3.7848547042E+001  +2.0318959629E-002 +6.2820927423E+001  +1.6960149013E+000 +2.2254463572E+001 
6266259.074 +8.7486151073E-001 +1.0709274836E+002  +1.7779882296E-002 +7.7989336929E+001  +1.4018323765E-002 +4.9735760868E+001  +1.3980325384E+000 +2.1323679172E+000 
6391404.255 +7.0574982958E-001 +9.1024099255E+001  +2.8143522109E-002 +8.6974500769E+001  +1.9032576303E-002 -3.1416355796E+000  +1.9011789097E+000 +5.2690304201E+000 
6516549.437 +1.3427668465E+000 +8.3208228261E+001  +8.4947417550E-003 +9.3539770446E+001  +4.1048751046E-002 +1.5035216543E+001  +1.8519438272E+000 +7.2215924345E+000 
6641694.618 +1.2849782007E+000 +6.3159923944E+001  +1.3182345250E-002 +8.9718829516E+001  +5.6711759210E-002 +3.3343080902E+001  +1.4700411218E+000 -1.3739256658E+001 
6766839.800 +1.9119672250E+000 +4.0846331771E+001  +2.0705771112E-002 +4.1012449870E+001  +2.6814756928E-002 -3.2240193788E+000  +1.3409870933E+000 +2.9418891246E+000 
6891984.981 +1.9434505812E+000 +4.4615320704E+001  +3.4997023578E-002 +5.6267535091E+001  +3.0290271615E-002 -1.1990536619E+001  +1.1542281965E+000 -4.2681004563E+000 
7017130.163 +1.5687082913E+000 +2.4080922666E+001  +2.4253328624E-002 -3.4715607336E+000  +1.6685336795E-002 +1.8773821249E+001  +1.2625944870E+000 -4.3569680835E+000 
7142275.344 +1.7114006724E+000 +1.7900786804E+001  +3.3380620924E-002 +1.2054846638E+000  +1.2417128446E-002 +1.3948095121E+001  +1.2851180707E+000 -1.4659367010E+001 
7267420.526 +1.3432404233E+000 -4.0789883915E+000  +8.6102292168E-003 +2.1579138134E+001  +5.9657337901E-003 -2.3544153112E+001  +1.3006236202E+000 -8.9840170798E+000 
7392565.707 +1.3621032829E+000 -4.5529584996E+000  +1.6211348671E-002 +5.1127525676E+001  +1.4829141736E-002 +4.9615837327E+001  +1.2751358926E+000 -1.1081231312E+001 
7517710.889 +1.1934046444E+000 +6.4383098781E+000  +6.8405309659E-003 +1.2805366851E+002  +3.8147842267E-003 +8.8372128946E+001  +1.2179353015E+000 -4.1270383391E+000 
7642856.070 +1.1036577477E+000 +1.4172595816E+000  +1.4468439030E-002 +2.9626807669E+001  +1.3748193249E-002 +4.0634864072E+001  +1.1212335356E+000 -1.1799971679E+000 
7768001.252 +9.3606741015E-001 +5.5842878487E+000  +1.6986521272E-002 +3.3746133840E+001  +9.9924846227E-003 +1.5691184355E+001  +8.8969826538E-001 -7.6259701217E+000 
7893146.433 +7.8276512921E-001 -5.5928014145E-001  +8.2548743890E-003 +5.0681642448E+001  +9.1088613682E-003 +4.3749398421E+001  +8.7483211665E-001 -2.3372766006E+000 
8018291.615 +8.2048747283E-001 +7.1498962739E+000  +5.9065776445E-003 -1.3203309835E+001  +6.9808584363E-003 +6.3153937628E+001  +8.0823995126E-001 -6.3714739699E+000 
8143436.796 +7.3205895017E-001 +1.8604349958E+000  +7.8662209029E-003 +9.1725309042E+000  +1.0319579742E-002 +5.8701247365E+000  +7.6642369526E-001 -1.6432401307E-001 
8268581.977 +6.9459490581E-001 +5.9972427317E+000  +6.1376370091E-003 +2.9213351361E+001  +5.9174096872E-003 +8.6043648625E+000  +7.4811031485E-001 +9.7744298568E-001 
8393727.159 +6.6310736796E-001 +9.0800150560E+000  +8.7851953770E-003 +9.7221122523E+000  +1.2405934451E-002 +3.2838251414E+001  +6.9936231674E-001 +4.4542493399E+000 
8518872.340 +6.5776166408E-001 +5.6141307206E+000  +7.7487688209E-003 +2.0289512710E-001  +7.8995034546E-003 +2.1101591192E+001  +6.9986365772E-001 -3.2492366030E+000 
8644017.522 +6.2855787255E-001 +4.6523432213E+000  +6.8998721716E-003 +3.3957472877E+001  +8.8654934395E-003 +2.7180265331E+001  +7.4104109039E-001 -3.1159321294E+000 
8769162.703 +6.1161853178E-001 +8.1029087260E+000  +6.3258908684E-003 +4.4025848687E+001  +1.0989375952E-002 +4.3134520779E+001  +6.5370307762E-001 +2.2788674774E+000 
8894307.885 +6.5877353599E-001 +7.6501900997E+000  +7.1569352565E-003 +1.4340675430E+001  +8.5862223910E-003 +3.2717249036E+001  +6.5129922196E-001 -1.9911613047E+000 
9019453.066 +5.0081497989E-001 +4.3823201843E+000  +6.7658434804E-003 +1.0234074979E+001  +6.5864622433E-003 +3.2733454645E+001  +6.4512141287E-001 -1.8669476585E+000 
9144598.248 +5.5446059751E-001 +9.0665092266E+000  +1.0572335425E-002 +1.6592601433E+001  +6.4582575185E-003 +3.9040624830E+001  +5.8862577512E-001 -4.9245929817E-001 
9269743.429 +5.3421600810E-001 +3.4039363479E+000  +1.2133668633E-002 +2.8786843256E+001  +8.7393805818E-003 +4.0014268095E+001  +6.2114206266E-001 -2.1633702758E+000 
9394888.611 +5.6873776413E-001 +4.3479699781E+000  +5.5198081137E-003 +1.0826024695E+001  +8.2335776766E-003 +4.3197166395E+001  +6.4471140714E-001 -4.4930400810E+000 
9520033.792 +5.3526796823E-001 -7.3159704668E-002  +7.3860194678E-003 +2.3899603111E+001  +7.8912981002E-003 +1.7637301607E+001  +5.6702854368E-001 -4.1080043193E+000 
9645178.974 +5.9282416024E-001 +1.4978467715E-001  +8.7230071235E-003 +1.6170109750E+001  +7.0612182777E-003 +2.6160871243E+001  +6.0045251524E-001 -8.6680889056E+000 
9770324.155 +5.4999555731E-001 -2.1975567030E+000  +6.7063141592E-003 +1.7732447292E+001  +9.3533124674E-003 +3.5893421037E+001  +6.2267102857E-001 -3.5142705091E+000 
9895469.337 +5.4833223100E-001 +2.9263501024E+000  +5.8580369735E-003 +2.6364110971E+001  +8.8647670050E-003 +5.0648910845E+001  +5.8237532711E-001 -5.5979153000E+000 
10020614.518 +5.3860798470E-001 +3.6065920948E+000  +7.7681238060E-003 +1.7981603184E+001  +9.2906599031E-003 +1.7129633804E+001  +5.6947066555E-001 -3.2582582625E+000 
10145759.700 +5.6317571287E-001 +3.7588508240E+000  +8.1364430916E-003 +1.8336652055E+001  +8.6998141955E-003 +4.9826791939E+001  +5.9292638355E-001 -8.1276196103E+000 
10270904.881 +5.5583580459E-001 +7.5903753743E+000  +1.0218794302E-002 +2.9772496484E+001  +7.8600520672E-003 +2.3320815258E+001  +5.6881789692E-001 -5.1315040499E+000 
10396050.063 +5.1855586664E-001 +4.2838659676E+000  +1.0018147254E-002 +2.1419067745E+001  +9.0479483656E-003 +4.2612966753E+001  +6.0695280127E-001 -1.7119662765E+000 
10521195.244 +5.4291166705E-001 +4.2626699267E+000  +7.4009504312E-003 +1.2671834894E+001  +9.9079808690E-003 +3.8410448936E+001  +6.1281879566E-001 -1.2388662630E+000 
10646340.426 +5.4118239807E-001 +1.1645754451E+001  +9.6212200984E-003 +2.6868889248E+001  +1.2922575050E-002 +5.2139707784E+001  +6.1158612346E-001 -3.7028763881E+000 
10771485.607 +5.9226126703E-001 +7.0968056598E+000  +9.6114967507E-003 +3.0763817794E+001  +8.8667913847E-003 +4.6475262120E+001  +6.1553395261E-001 +3.0334569745E+000 
10896630.788 +5.7042947743E-001 +2.8948507212E+000  +1.0107211515E-002 +4.1802450805E+001  +8.1404310252E-003 +3.8426845102E+001  +6.2689814999E-001 +1.3872460192E+000 
11021775.970 +5.5183137360E-001 +8.7292993644E+000  +1.0312896527E-002 +2.3406648258E+001  +9.8293695562E-003 +3.0468473958E+001  +6.3483168517E-001 -1.3728554620E-002 
11146921.151 +6.2501971263E-001 +8.5060998572E+000  +1.1014168050E-002 +3.1911831714E+001  +9.4036529308E-003 +3.5545526579E+001  +6.2961349319E-001 -1.1537569242E+000 
11272066.333 +5.9711912272E-001 +5.9017434758E+000  +8.9265425593E-003 +3.3668717452E+001  +8.7911923233E-003 +5.1583902930E+001  +6.3123247998E-001 -1.5280589777E-001 
11397211.514 +6.1052521290E-001 +7.2227677147E+000  +7.1161298778E-003 +4.3169789829E+001  +7.7453167329E-003 +5.3482069935E+001  +6.1792496068E-001 -8.9420337220E-001 
11522356.696 +6.1527330489E-001 +8.1985806551E+000  +1.0964283216E-002 +2.9878028088E+001  +8.1800889967E-003 +4.5806544760E+001  +6.2491353604E-001 +6.7961603916E-002 
11647501.877 +6.3432456652E-001 +5.1786432784E+000  +8.3601546869E-003 +4.6265307277E+001  +8.9017684493E-003 +4.6957987430E+001  +6.5152366878E-001 +2.5032101840E-001 
11772647.059 +6.3435699586E-001 +4.7619383169E+000  +9.0080228511E-003 +2.3278313622E+001  +8.2533444141E-003 +3.8346049894E+001  +6.3494581374E-001 +1.3139550097E+000 
11897792.240 +6.8541408649E-001 +5.7029839057E+000  +9.2853042517E-003 +3.1708216405E+001  +1.0749988425E-002 +4.2742813948E+001  +6.5627035780E-001 +1.3924897442E+000 
12022937.422 +6.5745667476E-001 +6.2603126074E+000  +1.1142591645E-002 +3.6199621922E+001  +9.7384582452E-003 +4.3308174959E+001  +6.5833080540E-001 +1.4129110021E+000 
12148082.603 +6.7512596139E-001 +1.5252361584E+000  +9.7587853660E-003 +3.0783723047E+001  +8.8782614069E-003 +5.4116259180E+001  +6.9733048462E-001 +2.2992895904E+000 
12273227.785 +6.8503802257E-001 +3.9073387052E+000  +1.0498412696E-002 +3.0266491856E+001  +1.2286726562E-002 +4.2462360697E+001  +6.9648099215E-001 -2.2811733321E+000 
12398372.966 +7.3018860311E-001 +2.9277263877E+000  +1.0727542267E-002 +3.2212569128E+001  +9.6502415889E-003 +3.4644684368E+001  +7.2419188428E-001 +1.1580574044E+000 
12523518.148 +7.4025168407E-001 +2.7549085082E+000  +9.2771365612E-003 +3.6823029130E+001  +9.4578901267E-003 +3.2521061210E+001  +7.2880642279E-001 -2.7723340922E+000 
12648663.329 +7.4386326230E-001 +2.6962271948E+000  +1.0825434789E-002 +3.3422196346E+001  +1.2415949965E-002 +3.5813027264E+001  +7.4672251069E-001 +3.6474616291E-001 
12773808.511 +7.5310524646E-001 +6.7829692581E-001  +1.1105392209E-002 +4.2758526085E+001  +1.1281298034E-002 +3.8433636503E+001  +7.4609599814E-001 -7.9128795490E-001 
12898953.692 +7.5448637042E-001 -2.0441147882E-002  +1.0247447995E-002 +3.6888837395E+001  +1.1870701144E-002 +4.2075150511E+001  +7.8674346393E-001 -2.5820457125E-001 
13024098.874 +7.9144459969E-001 -1.5927225519E+000  +1.0568276638E-002 +4.4631050739E+001  +8.9880215164E-003 +3.2981084592E+001  +7.9541218881E-001 -1.1945269712E+000 
13149244.055 +7.7934473338E-001 -1.3649163331E+000  +1.1217372462E-002 +3.6962017618E+001  +1.1234889386E-002 +3.4961126075E+001  +8.0580924970E-001 -1.5932907448E+000 
13274389.237 +8.0423533061E-001 -2.4333688251E+000  +1.2556346221E-002 +4.0942214597E+001  +1.1169786100E-002 +3.8718318174E+001  +8.2916284160E-001 -6.4119811898E-001 
13399534.418 +8.2361935428E-001 -8.5536567095E-001  +1.2922234313E-002 +4.0508766328E+001  +1.0154348119E-002 +4.9130942443E+001  +8.4965395961E-001 -1.6194966031E+000 
13524679.599 +8.3656347564E-001 -5.4679428463E-001  +1.2975344087E-002 +3.5799758887E+001  +1.1500726684E-002 +3.9264089386E+001  +8.5270290130E-001 -1.8108841867E+000 
13649824.781 +8.7208647043E-001 -1.1350841104E+000  +1.0967784692E-002 +3.9574373902E+001  +9.4429344782E-003 +3.7735432313E+001  +9.0455834099E-001 -2.0790207283E+000 
13774969.962 +8.9560803409E-001 -3.5239206403E+000  +1.1298493224E-002 +3.9772826786E+001  +1.0548557467E-002 +3.3907670715E+001  +8.8392496940E-001 -2.4958739660E+000 
13900115.144 +8.9717006142E-001 -4.3735689662E+000  +1.1728446994E-002 +3.7160937406E+001  +1.1521625047E-002 +4.7274726003E+001  +9.0185718446E-001 -3.7916238243E+000 
14025260.325 +9.1496307577E-001 -3.2769762047E+000  +1.3672082772E-002 +3.7165436360E+001  +1.1709933686E-002 +4.7084115308E+001  +9.2537683672E-001 -4.0098467857E+000 
14150405.507 +9.4175281655E-001 -4.5664963445E+000  +1.2990522593E-002 +4.0263153236E+001  +1.2986743400E-002 +3.8177479363E+001  +9.3971123846E-001 -4.2448263357E+000 
14275550.688 +9.5441882436E-001 -5.1980154064E+000  +1.2994764923E-002 +4.2011060669E+001  +1.3475162085E-002 +4.0387716482E+001  +9.6461438763E-001 -4.7851251453E+000 
14400695.870 +9.7045359451E-001 -4.7869042259E+000  +1.2617869893E-002 +4.1191472905E+001  +1.4406062398E-002 +4.2866631249E+001  +1.0142753123E+000 -4.9312362635E+000 
