!  2-Port S-parameters saved by WinCal
! VAR MeasName=S-Parameters (CALIBRATED_DATA) read from VNA (P5004A)
! VAR MeasDate=28/08/2024 11:32:58
! VAR NAME=S2_r6c9_SET2_9k-100M_2
! VAR FILENAME=S2_r6c9_SET2_9k-100M_2.S2P
! VAR DATE=28/08/2024 11:32:58
! VAR PHYS_PORTS=1,2
! VAR ObjTypeName=DATASET
! VAR IndexType=Frequency
!
# Hz S MA R 50
9000.000 +7.7721996699E-002 -1.7922640887E+002  +8.1190178858E-003 +5.7222604883E+001  +2.6795646945E-003 +7.7400265930E+001  +2.4912021009E-001 -1.4189711823E+002 
134145.181 +1.1110094802E-001 +1.6943524167E+002  +3.9762885911E-004 +1.5054994312E+002  +4.3047262497E-004 +6.8038660201E+001  +2.3907845806E-001 -1.7079807229E+002 
259290.363 +1.1272350336E-001 +1.6960473795E+002  +8.0211244657E-004 -8.8719571525E+001  +5.2537251442E-004 +5.2605679025E+001  +2.4684528430E-001 -1.6906064310E+002 
384435.544 +1.1435721480E-001 +1.7017426839E+002  +7.2566298439E-004 +6.5583154783E+001  +6.7973180252E-004 +1.4061332431E+002  +2.3077835565E-001 -1.6799008925E+002 
509580.726 +1.1430113759E-001 +1.7187378659E+002  +1.2680584106E-003 -6.4092245656E+001  +1.4281402438E-003 +3.2438067913E+001  +2.3840906660E-001 -1.6680073805E+002 
634725.907 +1.1762606751E-001 +1.7241310460E+002  +2.4790856800E-004 -8.6901644015E+001  +8.5257429304E-004 +1.6021195959E+002  +2.4622780659E-001 -1.6594335541E+002 
759871.089 +1.1985870149E-001 +1.7232615104E+002  +4.3240714895E-004 +1.0282366831E+001  +1.1328606288E-003 +9.3110081985E+001  +2.5072037705E-001 -1.6642660215E+002 
885016.270 +1.2013413882E-001 +1.6907210925E+002  +4.2443339068E-004 -1.5036595093E+002  +3.5162552948E-004 +5.2716494918E+001  +2.3870648028E-001 -1.6367060365E+002 
1010161.452 +1.1537877562E-001 +1.7105631626E+002  +3.1353687388E-003 +1.2585194257E+002  +4.8054596185E-003 +1.2370056025E+002  +1.8204088054E-001 -1.6315550028E+002 
1135306.633 +1.1590798104E-001 +1.6942817310E+002  +8.7844025943E-004 -5.7398175892E+001  +1.0259071542E-003 +1.5487359368E+002  +1.8872771156E-001 -1.6072960839E+002 
1260451.815 +1.2014699382E-001 +1.7307981577E+002  +2.2530787724E-003 -1.7744344158E+002  +1.4780087940E-003 +2.4167634379E+001  +2.1324126844E-001 -1.5713022250E+002 
1385596.996 +1.1910106349E-001 +1.7219105249E+002  +1.0521247450E-003 -1.2370047317E+002  +2.8324601015E-003 -5.6963276898E+001  +2.7710720072E-001 -1.5737724316E+002 
1510742.178 +1.2929195959E-001 +1.7196585769E+002  +3.6088546409E-004 -9.5458106578E+001  +1.6795781378E-003 +1.5345962661E+002  +2.5817651614E-001 -1.5692647773E+002 
1635887.359 +1.2918495856E-001 +1.7140018751E+002  +4.3432354205E-004 +9.7818763252E+001  +2.0881472873E-004 +9.8706921837E+001  +2.4201527322E-001 -1.6012973106E+002 
1761032.541 +1.2625053832E-001 +1.7032775679E+002  +1.2883712660E-003 +1.2717040452E+001  +8.1369406398E-004 +2.2767827911E+001  +2.6228569575E-001 -1.5377975985E+002 
1886177.722 +1.2781334300E-001 +1.6863028416E+002  +1.8239173161E-003 +7.8549573783E+001  +2.7385818238E-003 +1.3352278854E+002  +2.1135260300E-001 -1.5263750801E+002 
2011322.904 +1.3232870093E-001 +1.6928892139E+002  +7.0236562598E-004 -7.1216476421E+001  +1.7880199474E-003 -7.2855203310E+001  +1.4678315538E-001 -1.6923989118E+002 
2136468.085 +1.3233153221E-001 +1.6673722243E+002  +6.2586926705E-003 +1.0017375562E+002  +6.3265279688E-003 -1.0367960435E+002  +1.5589062235E-001 -1.7857013147E+002 
2261613.267 +1.3227995470E-001 +1.6773980045E+002  +1.9728296824E-003 -8.8852943822E+001  +2.1298752129E-003 -1.7077182779E+002  +2.1704933980E-001 -1.6686785784E+002 
2386758.448 +1.3012100218E-001 +1.6318405167E+002  +3.4317839599E-003 +5.2031848752E+001  +2.4619486544E-003 +4.7813459719E+000  +2.0676329796E-001 +1.7799889146E+002 
2511903.630 +1.4117924270E-001 +1.6528461519E+002  +9.7443347628E-004 +4.6683724610E+000  +1.7379002589E-003 +1.6214801253E+002  +2.4533363448E-001 +1.6666620488E+002 
2637048.811 +9.9776251252E-002 +1.5956684433E+002  +4.5674764251E-003 -1.0594791456E+002  +2.6098325478E-003 +4.4118044735E+001  +2.7806851583E-001 +1.5140056234E+002 
2762193.992 +1.0638572057E-001 +1.7708129503E+002  +7.6826680281E-003 -1.1417480204E+002  +1.9867579392E-002 +2.1487781920E+001  +4.0779560348E-001 +1.3795564753E+002 
2887339.174 +1.0518592552E-001 +1.7589872955E+002  +1.2382335682E-002 -1.1709819823E+002  +3.1887176491E-003 -1.1141366546E+002  +2.3597217338E-001 +1.3715472187E+002 
3012484.355 +1.3329635866E-001 +1.7532748672E+002  +4.4751797995E-003 +1.4664070698E+002  +1.6082285719E-003 +3.2043917897E+001  +4.5875645022E-001 -1.2444134301E+002 
3137629.537 +1.0679176323E-001 +1.6995186322E+002  +6.2234027506E-003 -2.7818067547E+001  +8.4280516621E-003 +2.3974711483E+001  +5.0610217234E-001 -1.0853433255E+002 
3262774.718 +1.3470675326E-001 +1.5387036379E+002  +9.9772075512E-003 +3.2514591640E+001  +6.4062618888E-003 -2.8922556983E+001  +2.6098517003E-001 +1.0915232275E+002 
3387919.900 +1.3490212784E-001 +1.6314607642E+002  +7.2501644560E-003 -5.0125324367E+001  +6.5180003401E-003 -5.0131405970E+001  +1.5497651796E-001 -7.7081974686E+001 
3513065.081 +1.1685457231E-001 +1.6163704952E+002  +3.4550838263E-002 -2.3644338468E+001  +7.5717040092E-002 +3.2360509588E+001  +4.3055554263E+000 -1.5882592481E+002 
3638210.263 +1.6104840197E-001 +1.4786268455E+002  +1.4774194351E-002 -5.8608149722E+001  +2.1491214434E-002 -6.1698694337E+001  +1.7648268436E+000 +1.5283339651E+002 
3763355.444 +1.6392717231E-001 +1.5368217322E+002  +7.8732767968E-003 +1.1683016689E+002  +9.8243869924E-003 -2.6624814962E+001  +6.3140478345E-001 +9.4904643973E+001 
3888500.626 +1.8834113358E-001 +1.4824715308E+002  +1.1229085252E-002 -3.8550833681E+001  +9.1120059620E-003 -1.7306042666E+002  +3.7300286002E-001 +1.3340717704E+002 
4013645.807 +1.6846343935E-001 +1.5143105725E+002  +1.3041673839E-002 -5.3554447323E+001  +2.2978424711E-002 +1.5553095470E+002  +1.1618895392E+000 +1.3416402284E+002 
4138790.989 +1.9031487560E-001 +1.4610615813E+002  +4.6938265143E-003 +1.1158980034E+002  +3.4830301731E-003 +1.0944838255E+002  +6.4159301478E-001 +1.3855825137E+002 
4263936.170 +1.9954363326E-001 +1.4522370206E+002  +3.0254352646E-002 -1.3808488650E+001  +1.3782208262E-002 -5.2785641084E+001  +1.6396568932E+000 +3.4517465460E+001 
4389081.352 +2.3954327562E-001 +1.4191661607E+002  +7.5396960845E-003 +1.1409188381E+002  +7.3418032558E-003 +9.7463010436E+001  +7.6171308388E-001 +1.1533099471E+002 
4514226.533 +2.6131503252E-001 +1.3773107708E+002  +5.9792435916E-003 +1.0558848235E+002  +5.2945347962E-003 +2.7019707244E+001  +1.7013952767E+000 +1.2756557308E+002 
4639371.715 +2.5424791540E-001 +1.2738614087E+002  +1.2342129803E-002 -1.2486922294E+002  +1.0888002073E-002 +1.1728282404E+002  +8.6734797685E-001 +5.8660201595E+001 
4764516.896 +3.9593390950E-001 +1.1988509720E+002  +2.6863698945E-002 -1.0001983453E+002  +1.1927079022E-001 +1.6725059889E+002  +4.3260171005E+000 -1.7821377010E+002 
4889662.078 +4.5531944862E-001 +1.2963174873E+002  +4.7040278913E-002 -1.6437615637E+002  +6.9291028129E-002 -1.6396006543E+002  +3.2748154204E+000 +9.4142897432E+001 
5014807.259 +3.8416525470E-001 +1.3161129675E+002  +1.4876782151E-002 -1.5959532065E+002  +2.7858723336E-002 +6.9624215084E+001  +1.3719503571E+000 +8.8957021400E+001 
5139952.441 +3.9841480033E-001 +1.3133098111E+002  +1.2619515024E-002 -2.1590479949E+001  +4.5071867767E-002 +8.4861856728E+001  +2.9488801858E+000 -2.4180189346E+001 
5265097.622 +3.4125706753E-001 +1.2535120457E+002  +5.8524315067E-002 -3.8791934339E+001  +9.8595738066E-002 +4.7330913942E+001  +5.5469017084E+000 +3.9555226282E+001 
5390242.804 +5.0146491308E-001 +1.2495707678E+002  +2.3601791183E-002 +1.7544584339E+002  +2.2941530883E-002 -8.2636449446E+001  +2.5317619920E+000 +5.2743725811E+001 
5515387.985 +3.7515466612E-001 +1.2282640663E+002  +5.0765615864E-002 -7.6246510652E+001  +4.4448725551E-002 -1.3266248037E+002  +3.8595118410E+000 +1.1306114200E+002 
5640533.166 +4.6391571936E-001 +1.2943405547E+002  +2.1294836043E-002 -1.7155186207E+002  +1.3813964296E-002 +1.1483437185E+001  +2.1857623508E+000 +8.7281170433E+001 
5765678.348 +4.9704314117E-001 +1.1678820684E+002  +2.5203570968E-002 +1.3190896002E+002  +5.6806508643E-003 -3.5707565716E+001  +1.7926321902E+000 +5.3174583519E+001 
5890823.529 +5.3671369313E-001 +1.2173322393E+002  +1.2658268633E-002 -9.0584175336E+001  +1.6903547680E-002 -5.3287076804E+001  +3.2110498982E+000 +5.5592273970E+001 
6015968.711 +5.9510963707E-001 +1.1038335852E+002  +3.0228697607E-002 +1.1296850871E+002  +3.0393067716E-002 +3.0613436040E+001  +1.4516664130E+000 +4.9571459039E+001 
6141113.892 +8.6472658627E-001 +9.6334279117E+001  +4.4283000669E-002 +2.6489518074E+001  +3.4075256090E-002 +5.3926006255E+001  +2.1352816880E+000 +1.2712955283E+000 
6266259.074 +8.6950096081E-001 +1.1264235678E+002  +1.2372716503E-002 -1.0417063624E+002  +2.2828272137E-002 -1.1790922997E+002  +1.6602132483E+000 +3.1392299773E+001 
6391404.255 +9.1742106533E-001 +9.9587572023E+001  +3.2529016986E-002 +1.3807317533E+002  +1.0626004641E-002 -1.2107606207E+002  +2.0222780035E+000 +3.6068001981E+001 
6516549.437 +1.0109355540E+000 +9.2607756430E+001  +3.2991943996E-002 +1.3602912983E+002  +1.9556286842E-002 +8.4585422639E+001  +1.4323900837E+000 -3.2685868715E+000 
6641694.618 +1.6455184850E+000 +3.9372555887E+001  +4.0477288459E-002 +1.3902041441E+002  +3.8272514572E-002 +1.3926241284E+002  +1.2232213353E+000 -8.8061748016E+000 
6766839.800 +1.7310268625E+000 +6.0764479643E+001  +3.0766778568E-003 -1.4273237349E+002  +1.8961924035E-002 -9.9471156244E+001  +1.4293954765E+000 -7.4466098924E+000 
6891984.981 +1.7912889062E+000 +3.4085822031E+001  +1.6764001610E-002 +1.1236302136E+002  +1.6590111899E-002 +1.4126305782E+001  +1.2843467341E+000 -1.1931696858E+001 
7017130.163 +2.1012774300E+000 +2.9419919190E+001  +6.4881015758E-003 -5.9178115676E+000  +2.1318110216E-002 +1.4447052077E+002  +1.1607938087E+000 -1.0416881990E+001 
7142275.344 +1.6081545605E+000 +2.2694741203E+001  +2.1629769885E-003 -5.9239683443E+001  +1.7735626343E-002 +1.0797122980E+002  +1.1893411420E+000 -7.1783242823E+000 
7267420.526 +1.7589079762E+000 +7.9217996084E+000  +1.2099398327E-002 +6.4964798760E+001  +1.6322238565E-002 +6.2465103389E+001  +1.2838564268E+000 -6.9044952143E+000 
7392565.707 +1.4565379193E+000 -7.2175448420E+000  +1.9379062966E-003 -1.7285965871E+000  +6.4263368735E-003 +1.5259767425E+002  +1.3170476201E+000 -9.4105933277E+000 
7517710.889 +1.1936524666E+000 -4.5851871488E-001  +1.2094587293E-002 +3.7184382955E+001  +6.1681299350E-003 +1.5516429687E+002  +1.1385290476E+000 -4.9013337504E+000 
7642856.070 +1.0801121003E+000 -2.3926326720E+000  +9.9286811615E-003 +8.8221561359E+001  +4.6346976635E-003 -5.7608004528E+001  +9.9112391456E-001 -2.5086381374E+000 
7768001.252 +9.2840089838E-001 -5.4274343398E+000  +4.0217099900E-003 +1.6073311234E+002  +4.0808990988E-003 -2.3399437032E-001  +9.5829192771E-001 -4.7781325242E+000 
7893146.433 +9.8705763207E-001 -3.4115030310E+000  +9.9848588422E-003 +7.3260975829E+001  +7.6794811333E-003 -3.0532418346E+001  +9.5331425518E-001 -1.6874672765E+000 
8018291.615 +8.4570116140E-001 +5.2148070728E+000  +1.0129963582E-002 +1.3925585695E+002  +7.3050958829E-003 +9.8998082719E+001  +7.7330406533E-001 -6.5868974129E-001 
8143436.796 +7.1886204484E-001 +8.1588283006E+000  +4.0579758154E-003 +7.8379042593E+001  +2.4834330325E-003 +5.6083044664E+001  +7.1785393640E-001 -2.1772548270E+000 
8268581.977 +6.9016909214E-001 +1.1613757445E+001  +7.3300071604E-003 +1.0699658350E+002  +3.9746055034E-003 +5.0074873113E+001  +7.4211087971E-001 -3.0584728161E+000 
8393727.159 +6.8609601625E-001 +1.2081315926E+001  +6.5622048932E-003 +9.2039236589E+001  +3.2726602817E-003 +1.2316383385E+002  +7.2977666050E-001 -3.6557389606E+000 
8518872.340 +7.4953262428E-001 +8.9046283359E+000  +9.1287943899E-003 +1.5015729111E+002  +5.4347616884E-003 +7.4031613394E+001  +7.2793603897E-001 +1.1023191868E+000 
8644017.522 +6.8908759586E-001 +7.1021324681E+000  +1.3416350844E-003 -1.7337428377E+002  +4.5410089043E-003 +8.1958561886E+001  +7.1272543394E-001 +3.2935631069E+000 
8769162.703 +6.7244437029E-001 +7.3308558977E+000  +7.2957610556E-003 +7.1540865443E+001  +6.5153414337E-004 +7.4585791196E+001  +6.2892152015E-001 -2.6239623920E+000 
8894307.885 +6.2548284498E-001 +1.0920107893E+001  +4.4097575969E-003 +5.1928650274E+001  +7.7080323853E-003 +1.0288386146E+002  +6.1054660189E-001 +1.8926690958E+000 
9019453.066 +6.0972907094E-001 +4.0356236661E+000  +2.4564496900E-003 +1.3340680800E+002  +2.5310020534E-003 +7.3199168267E+001  +6.2740431549E-001 -3.6311487552E+000 
9144598.248 +5.8672272342E-001 +2.6237055636E+000  +4.5894335652E-003 +8.5960156705E+001  +5.7489986544E-003 +5.3068643137E+001  +5.8606527491E-001 -4.2898388624E+000 
9269743.429 +5.5353553064E-001 +2.9704952822E+000  +3.5958538033E-003 +9.7843030043E+001  +2.3364021353E-003 +9.5670521023E+001  +6.0694937368E-001 -1.7367458520E+000 
9394888.611 +5.5188698825E-001 +6.9365526192E+000  +1.1326537344E-003 -9.4025017806E+000  +2.7666299486E-003 +8.6182657434E+001  +5.7771706453E-001 -8.4936522690E-001 
9520033.792 +5.5996252413E-001 -1.1917668892E+000  +1.3463329004E-003 +5.1962189308E+001  +7.3480681747E-003 +9.2656769878E+001  +6.5545080121E-001 -5.1290298688E+000 
9645178.974 +5.5212385555E-001 +5.8883976668E-001  +5.2798886143E-003 +9.5220356627E+001  +4.4457734988E-004 +1.7760240496E+002  +6.1248870117E-001 -9.4179984840E+000 
9770324.155 +5.5288224116E-001 +1.7089550089E+000  +8.1021454890E-004 +2.7001326974E+001  +5.2530290104E-003 +9.0695417242E+001  +5.4274808510E-001 -5.6121419841E+000 
9895469.337 +5.7428887315E-001 +5.3016473973E-001  +2.9420961219E-003 +4.8640562154E+001  +4.4876136874E-003 +1.4724045374E+002  +5.6289046461E-001 -3.0157937265E+000 
10020614.518 +5.6157470390E-001 +2.8325442049E+000  +4.3419551969E-003 +8.4314523796E+001  +2.6773369699E-003 +8.5158033571E+001  +6.0925156742E-001 -3.1823125951E+000 
10145759.700 +5.6455607192E-001 -3.1502109010E-001  +2.9524230195E-003 +4.5629508312E+001  +2.3902034425E-003 +1.2792996719E+002  +5.8065415621E-001 -1.5987428842E+000 
10270904.881 +5.7742153390E-001 +4.1363455687E+000  +5.4150109249E-003 +8.2314125628E+001  +5.1120029712E-003 +7.5848599618E+001  +6.0822757706E-001 -3.9548403607E+000 
10396050.063 +5.7155247548E-001 +5.5523802072E+000  +5.9569401650E-003 +9.2040754380E+001  +4.5590330519E-003 +8.9297959899E+001  +6.2031060491E-001 -2.2319104228E+000 
10521195.244 +5.6098762294E-001 +8.9127423334E+000  +4.2071856009E-003 +6.9888686838E+001  +5.0754238663E-003 +1.1040364502E+002  +5.5492113920E-001 +2.3188778562E+000 
10646340.426 +5.8592820065E-001 +4.4838224798E+000  +3.2351157516E-003 +8.7873989162E+001  +5.2744754048E-003 +9.7514979583E+001  +6.2629081894E-001 +1.4750066064E-002 
10771485.607 +5.5640438962E-001 +5.1419668004E+000  +4.4012858456E-003 +7.8199243930E+001  +3.9920238467E-003 +9.8758844858E+001  +5.9252445662E-001 -1.8178124335E+000 
10896630.788 +5.6698416216E-001 +6.2169478327E+000  +4.9699019244E-003 +8.9768503182E+001  +4.3185812020E-003 +1.2139072621E+002  +5.8030131285E-001 +1.9234382723E+000 
11021775.970 +5.8363787532E-001 +8.4308794988E+000  +1.7364592898E-003 +8.5894831881E+001  +1.9722542360E-003 +1.4418601685E+002  +6.1621403448E-001 +2.3684887581E+000 
11146921.151 +6.2227964945E-001 +9.1058180674E+000  +3.9208433085E-003 +9.2101671141E+001  +4.1697131733E-003 +7.0241993633E+001  +6.0841270855E-001 -9.6256374333E-001 
11272066.333 +5.9761790663E-001 +5.4234697019E+000  +3.1406193746E-003 +6.9727477177E+001  +4.6135160308E-003 +1.2107491781E+002  +6.3398161014E-001 +2.6381861358E+000 
11397211.514 +6.2216439074E-001 +6.8879344745E+000  +6.1795477724E-003 +7.9670087476E+001  +4.7517733290E-003 +1.0019929887E+002  +6.5896094801E-001 +1.9851589025E+000 
11522356.696 +5.9248126544E-001 +5.8304618162E+000  +4.8445803449E-003 +1.1104054255E+002  +2.9601501929E-003 +1.0651479384E+002  +6.3148199836E-001 -1.7758215305E-001 
11647501.877 +6.6868384395E-001 +7.3260734231E+000  +4.8323360148E-003 +8.4806858753E+001  +5.8022149598E-003 +1.0447886836E+002  +6.4017279390E-001 +1.2348285127E+000 
11772647.059 +6.4486351449E-001 +7.6548722016E+000  +4.7716427691E-003 +7.2185381833E+001  +4.7358915989E-003 +9.9018891309E+001  +6.7016670258E-001 +2.4468847000E+000 
11897792.240 +6.6577522267E-001 +5.6375884433E+000  +5.5346126738E-003 +9.0671481195E+001  +6.1175753804E-003 +1.2807651166E+002  +6.6505236542E-001 +2.9449327251E+000 
12022937.422 +7.0974264319E-001 +4.9778663770E+000  +5.0570331456E-003 +1.1075749076E+002  +6.8785518897E-003 +1.0815297359E+002  +6.9597680118E-001 +1.7511361271E+000 
12148082.603 +7.0129435543E-001 +4.7301632807E+000  +5.7453727396E-003 +7.7708021285E+001  +5.2348680235E-003 +1.0995849293E+002  +6.9424942221E-001 +2.9466007186E+000 
12273227.785 +6.9277189428E-001 +3.8975047121E+000  +3.7316058542E-003 +9.4559516289E+001  +4.4296982064E-003 +9.7725415527E+001  +7.2814600923E-001 +1.5557033802E+000 
12398372.966 +7.1748809394E-001 +2.9400884549E+000  +6.1370100113E-003 +8.3297848102E+001  +6.3004668666E-003 +9.1565561293E+001  +7.3279746900E-001 -9.9140200432E-001 
12523518.148 +7.3951003676E-001 +3.7394257913E+000  +5.6803214906E-003 +8.2749824534E+001  +6.0573969487E-003 +1.0660882023E+002  +7.6508506809E-001 -1.1191156247E+000 
12648663.329 +7.3951048636E-001 +1.9786077932E+000  +5.7316481750E-003 +1.0339022140E+002  +6.7320558277E-003 +1.2331784128E+002  +7.4657356848E-001 -3.6989428538E-001 
12773808.511 +7.5360685645E-001 +1.9082997449E+000  +7.7930046729E-003 +1.1331991467E+002  +5.4676117984E-003 +1.0102872180E+002  +7.5839826236E-001 -6.6362610939E-001 
12898953.692 +7.7989198017E-001 +2.6524495016E-001  +8.1861888062E-003 +9.1871031837E+001  +6.1926907148E-003 +9.2535467442E+001  +7.8525968803E-001 -2.2590505465E-001 
13024098.874 +7.6922010005E-001 +1.5039671125E+000  +5.6803465759E-003 +8.1934057686E+001  +7.3324478889E-003 +1.0189397621E+002  +7.8924743351E-001 -1.3560955666E+000 
13149244.055 +8.0086873680E-001 -1.1696795335E+000  +5.3356729060E-003 +8.8030282344E+001  +6.3488681834E-003 +1.0778346058E+002  +8.0982031006E-001 -1.1025080272E+000 
13274389.237 +8.2180829729E-001 -1.4657361516E+000  +5.8755607870E-003 +8.7347996162E+001  +5.8343385940E-003 +1.0998821353E+002  +8.3627239906E-001 -2.1176257693E+000 
13399534.418 +8.4299228026E-001 -9.8161261648E-001  +5.9152891435E-003 +9.1074013712E+001  +6.1125966076E-003 +8.3307882795E+001  +8.4798419539E-001 -1.6155295342E+000 
13524679.599 +8.2038202327E-001 -2.5341604521E+000  +8.2081099217E-003 +9.7930784485E+001  +6.8740297718E-003 +1.0599725189E+002  +8.4604552876E-001 -1.7402226268E+000 
13649824.781 +8.8110413099E-001 -3.1102815442E+000  +7.3217794447E-003 +8.8305889510E+001  +7.8415149914E-003 +1.0227615691E+002  +8.7601890679E-001 -2.0852364964E+000 
13774969.962 +8.7992114183E-001 -1.5412837847E+000  +6.1142444984E-003 +8.1771427207E+001  +6.5637307792E-003 +9.2895997061E+001  +9.0149816946E-001 -3.6195853617E+000 
13900115.144 +9.1276222022E-001 -3.1194540893E+000  +7.0035560333E-003 +9.4025820543E+001  +7.4118874783E-003 +9.6924151528E+001  +9.4217735221E-001 -2.6649213420E+000 
14025260.325 +9.2498127415E-001 -3.9310274202E+000  +8.0432999334E-003 +9.4511680478E+001  +6.5499605216E-003 +8.9764203534E+001  +9.2809861504E-001 -5.0867665164E+000 
14150405.507 +9.3732468075E-001 -5.1252107784E+000  +8.4682296801E-003 +8.9792927815E+001  +6.7948054929E-003 +9.6652873181E+001  +9.6876458842E-001 -4.1890347533E+000 
14275550.688 +9.8049005198E-001 -5.6782875461E+000  +6.9349285594E-003 +9.6481710831E+001  +7.3330139033E-003 +9.2752075749E+001  +9.7119696127E-001 -4.9837011913E+000 
14400695.870 +9.7098649573E-001 -5.0976787751E+000  +7.0395568520E-003 +8.6025992145E+001  +7.7517335041E-003 +8.5018510242E+001  +9.6359981906E-001 -4.0044921564E+000 
