!  2-Port S-parameters saved by WinCal
! VAR MeasName=S-Parameters (CALIBRATED_DATA) read from VNA (P5004A)
! VAR MeasDate=27/08/2024 16:44:51
! VAR NAME=S2_r2c9_SET2_9k-100M_3
! VAR FILENAME=S2_r2c9_SET2_9k-100M_3.S2P
! VAR DATE=27/08/2024 16:44:51
! VAR PHYS_PORTS=1,2
! VAR ObjTypeName=DATASET
! VAR IndexType=Frequency
!
# Hz S MA R 50
9000.000 +6.8024225328E-002 -1.7555220787E+002  +1.0899717238E-002 -1.2023976081E+002  +3.1605345486E-003 +5.8062527175E+001  +2.2759091236E-001 -1.3040522923E+002 
134145.181 +1.1074908539E-001 +1.6965884352E+002  +6.6062556493E-004 +1.2622290177E+001  +5.4291093451E-005 -1.7226727062E+002  +2.4199121918E-001 -1.7067845784E+002 
259290.363 +1.1185630277E-001 +1.6962099960E+002  +7.3404237255E-004 -6.4049411312E+001  +2.3744901669E-004 +1.6667916834E+002  +2.3941793999E-001 -1.7085410075E+002 
384435.544 +1.1308516948E-001 +1.6993779942E+002  +2.5776570826E-004 +5.0978283793E+001  +2.7392779416E-004 +7.4232186437E+001  +2.4038561702E-001 -1.6857061946E+002 
509580.726 +1.1370628751E-001 +1.7091269309E+002  +1.3505756452E-003 -1.3534220950E+002  +7.5130592009E-004 +6.1575669562E+001  +2.4006236665E-001 -1.6597069332E+002 
634725.907 +1.1724646707E-001 +1.7032764945E+002  +6.4493432110E-004 -1.5498022086E+001  +8.9062931957E-004 +1.2938001180E+001  +2.5341418079E-001 -1.6398787802E+002 
759871.089 +1.1793025980E-001 +1.7056170715E+002  +3.5520354220E-004 -6.5242043110E+001  +6.2143723771E-004 -1.0420629002E+002  +2.4297531296E-001 -1.6564181694E+002 
885016.270 +1.1853709075E-001 +1.6933527308E+002  +9.5198193818E-004 +1.6071297865E+002  +1.5376686715E-004 -1.4361084196E+002  +2.3920409614E-001 -1.6378390094E+002 
1010161.452 +1.2012035826E-001 +1.7059738534E+002  +3.3729491740E-004 +1.8825325250E+001  +1.1977100334E-003 -4.7108917345E+001  +1.9189238275E-001 -1.7233940527E+002 
1135306.633 +1.1291878235E-001 +1.7117502072E+002  +3.5767089818E-003 -8.6279875074E+001  +1.2460122749E-003 -1.1553544339E+002  +1.6284476279E-001 -1.7490079586E+002 
1260451.815 +1.2060559273E-001 +1.7028463771E+002  +1.2029960029E-003 +1.7424782145E+002  +1.3873553924E-003 +1.2471604017E+002  +2.2370163722E-001 -1.5522065536E+002 
1385596.996 +1.2901122846E-001 +1.7217163901E+002  +4.5750736773E-004 +4.7193304166E+001  +1.0520055833E-003 +3.8355664009E+001  +2.5284672151E-001 -1.5891922121E+002 
1510742.178 +1.2396940604E-001 +1.7108666586E+002  +1.8846432070E-003 -1.6952616869E+002  +1.2562553369E-003 +1.0909053076E+002  +2.6320488280E-001 -1.5254117343E+002 
1635887.359 +1.2721639565E-001 +1.7037299098E+002  +4.8140230219E-004 +1.7834870276E+002  +7.5779296165E-005 +7.5057374891E+001  +2.2728006159E-001 -1.5783098642E+002 
1761032.541 +1.2545396440E-001 +1.6856877525E+002  +4.8610354218E-004 +9.4498453418E+001  +5.6265635481E-004 +1.0650709778E+001  +2.2960507065E-001 -1.6075572867E+002 
1886177.722 +1.3484010884E-001 +1.6836096662E+002  +8.1131675268E-004 +5.2306477939E+001  +1.2273296460E-003 +2.3451844565E+001  +2.2836148841E-001 -1.6826156718E+002 
2011322.904 +1.2772083678E-001 +1.6541480245E+002  +2.7375575827E-003 +9.8066114223E+001  +2.2685549386E-003 +7.1803681238E+001  +1.8777325970E-001 -1.5280465360E+002 
2136468.085 +1.3295582329E-001 +1.6650807626E+002  +2.5221790517E-003 +6.3577647922E+001  +4.7650472736E-003 -1.4250167368E+002  +1.6278459852E-001 -1.6746928157E+002 
2261613.267 +1.2888954553E-001 +1.6487493624E+002  +6.5594869153E-003 +7.4918421603E+001  +3.1589504710E-003 +7.9434634048E+001  +1.9707294804E-001 +1.7218910002E+002 
2386758.448 +1.2620435626E-001 +1.6228764017E+002  +8.7579770699E-003 +1.2717333228E+002  +1.2296406544E-002 -9.2291708199E+001  +1.5212339329E-001 +1.3027071302E+002 
2511903.630 +1.3117223277E-001 +1.6084523045E+002  +5.5017854931E-003 +1.3177478206E+002  +9.4744348331E-003 -3.1531859978E+001  +2.3874175456E-001 +1.5644838357E+002 
2637048.811 +1.1240970726E-001 +1.7039691570E+002  +3.6964003664E-002 +4.6350210299E+001  +5.2232084439E-002 -8.9588048085E+001  +4.2747629732E-001 +1.9269892469E+001 
2762193.992 +9.9373040636E-002 +1.6785632604E+002  +4.2145866242E-002 -1.3766445602E+002  +3.2541305211E-002 +7.4340079787E+001  +1.1648598306E+000 -1.5516588124E+002 
2887339.174 +1.0686931508E-001 +1.7263039874E+002  +5.9046551593E-003 -9.9398074026E+001  +1.5689701477E-002 -1.7632030645E+002  +4.6088203135E-001 -1.2089630875E+002 
3012484.355 +1.2656265200E-001 +1.7310233297E+002  +5.1981088061E-002 -3.9144093358E+001  +6.7340230365E-003 -1.6178776313E+002  +5.8818302736E-001 -1.3751151251E+001 
3137629.537 +1.0370704607E-001 +1.7279779750E+002  +2.3360677646E-002 -1.3011695946E+001  +1.8108837958E-002 -1.0837117689E+002  +1.9895786335E-001 -3.0377997274E+001 
3262774.718 +1.0284764614E-001 +1.6143535396E+002  +2.4814469742E-002 -4.4386723237E+001  +2.8515190893E-002 -4.8708767586E+001  +2.7854200869E-001 -7.6076980709E+001 
3387919.900 +1.4068062860E-001 +1.5795916214E+002  +4.1833780293E-002 +5.9706320913E+001  +3.9730437721E-002 -8.0126726989E+000  +1.0199521443E+000 +1.0645313831E+002 
3513065.081 +1.3638574638E-001 +1.5244826464E+002  +4.3759420194E-002 +8.4882399406E+000  +4.5692100606E-002 -5.6933903021E+000  +8.9823690636E-001 +1.0067231840E+002 
3638210.263 +1.6309569896E-001 +1.3965663572E+002  +1.6777290862E-002 +1.3366083884E+002  +3.0419282350E-002 -1.3278529619E-001  +4.2418028523E-001 +1.2581490718E+002 
3763355.444 +1.6001175091E-001 +1.4853422202E+002  +1.4285002742E-002 +1.2298735578E+002  +6.6226101504E-003 +6.9312775303E+001  +5.8914127429E-001 +1.4090085558E+002 
3888500.626 +1.6183442582E-001 +1.5289835613E+002  +1.7448314436E-002 +9.6844021906E+001  +1.1518602756E-002 -2.0578713875E+000  +3.6866315686E-001 +1.4602955428E+002 
4013645.807 +1.6774027360E-001 +1.4410449922E+002  +3.5626421007E-002 +4.0242954798E+001  +2.8264480605E-002 -2.2423694240E+001  +5.0765238827E-001 +2.8797908893E+000 
4138790.989 +1.9904913586E-001 +1.5095986497E+002  +5.7356014697E-003 +8.6549305489E+001  +1.2981862555E-002 +1.9377673781E+001  +3.4948188870E-001 +1.2513032102E+002 
4263936.170 +1.8554896581E-001 +1.4128579093E+002  +1.6940175358E-002 +7.8410259846E+001  +1.5759744141E-002 +5.6333630122E+001  +5.2470282071E-001 +1.4612497192E+002 
4389081.352 +2.0003108208E-001 +1.4071086672E+002  +1.1668009447E-002 +1.1170377394E+002  +1.6142137711E-002 +4.6552096988E+001  +5.5815553393E-001 +1.4517580806E+002 
4514226.533 +2.3155575365E-001 +1.3237221549E+002  +4.2812537157E-002 +1.1208420357E+002  +4.3875952838E-002 +1.7543143804E+001  +1.3966145406E+000 +1.2263300830E+002 
4639371.715 +2.5652331721E-001 +1.3104105828E+002  +1.0741267699E-001 +1.2951995788E+002  +6.1506195086E-002 +8.1776152246E+001  +3.9517450670E+000 +1.2051586816E+002 
4764516.896 +3.4584742195E-001 +1.3199422229E+002  +8.3193472646E-002 +1.7600692253E+002  +7.0303844388E-002 +1.3733121297E+002  +2.2000659025E+000 +1.4091453347E+002 
4889662.078 +4.4282901188E-001 +1.3735970905E+002  +7.3406860708E-001 +2.3755859295E+001  +5.9112230050E-001 -3.0505547833E+001  +1.5874577337E+001 -5.2327137323E+001 
5014807.259 +3.9289050813E-001 +1.3203938543E+002  +6.8633823752E-002 +1.1427961583E+002  +7.3911452000E-002 +6.7832634986E+001  +1.4822439497E+000 +7.6583670948E+001 
5139952.441 +3.3518583783E-001 +1.3172947123E+002  +2.7064846518E-001 +3.5487643672E+001  +2.5857704412E-001 +3.4067194377E+001  +8.2713768513E+000 +2.5072088676E+001 
5265097.622 +4.5148875983E-001 +1.2930997504E+002  +1.4579533597E-001 -1.2220117362E+002  +1.2543125204E-001 -1.6820364371E+002  +4.4059503615E+000 -1.7239917184E+002 
5390242.804 +3.8490658199E-001 +1.2804090537E+002  +7.7303418439E-002 +6.2380117171E+001  +7.0595567886E-002 +2.7128441163E+001  +1.5731869479E+000 +2.6883259462E+001 
5515387.985 +4.5078308161E-001 +1.2102552363E+002  +8.8922242223E-002 +1.1662394570E+002  +5.5341936966E-002 +1.0264706318E+002  +1.5829611608E+000 +1.0463578211E+002 
5640533.166 +4.3385217756E-001 +1.2879337771E+002  +7.3810324592E-002 +5.4114685955E+001  +6.6128554936E-002 +4.0656320276E+001  +1.9791382430E+000 +2.8178735477E+001 
5765678.348 +5.3284592363E-001 +1.1737156979E+002  +1.0400837645E-001 +9.1942616968E+001  +1.0004098639E-001 +5.7135007512E+001  +1.7419894014E+000 +5.6696064000E+001 
5890823.529 +6.3147079350E-001 +1.2459941575E+002  +6.9460959345E-002 +1.0021205310E+002  +8.0227292538E-002 +6.3030590399E+001  +2.5612618133E+000 +5.6731442716E+001 
6015968.711 +6.2899594120E-001 +1.1782071238E+002  +6.9376141824E-002 +9.4691967913E+001  +6.8490057669E-002 +8.6126898840E+001  +1.6692256823E+000 +8.0479511040E+001 
6141113.892 +7.6874286401E-001 +1.2307837237E+002  +7.1315945691E-002 +5.8654824363E+001  +6.3057761477E-002 +3.7963092994E+001  +1.0351632599E+000 +1.3394076574E+001 
6266259.074 +9.0215006215E-001 +9.9510848659E+001  +7.6840487741E-002 +5.8461188340E+001  +8.1055911296E-002 +4.5140405345E+001  +1.3307272170E+000 +3.3770770606E+001 
6391404.255 +9.0513472499E-001 +1.1018213716E+002  +6.3202173071E-002 +5.1287787019E+001  +6.1031694557E-002 +4.0253721380E+001  +1.1287917954E+000 +2.8158776146E+001 
6516549.437 +1.3886628061E+000 +8.7245202437E+001  +9.8133401624E-002 +4.9601560535E+001  +1.2784423958E-001 +2.4752476014E+001  +1.5372772289E+000 +2.2973734327E+000 
6641694.618 +1.3239208984E+000 +5.9581018015E+001  +5.5685806271E-002 +2.0548036489E+001  +1.1280570142E-001 -1.4151510871E+000  +1.4277650751E+000 -6.0273735973E+000 
6766839.800 +1.8011851399E+000 +5.5999713793E+001  +1.3773807724E-001 +2.4317871394E+001  +1.1678465920E-001 +2.6321687209E+001  +1.4859911435E+000 +4.5806240823E+000 
6891984.981 +1.4338633521E+000 +3.6512513778E+001  +6.7003080338E-002 +2.1947830451E+001  +7.0757409771E-002 -9.6188859809E+000  +1.2728289694E+000 -1.0750619995E+001 
7017130.163 +1.4947864980E+000 +3.1096278819E+001  +9.4091609334E-002 +1.9680150454E+000  +7.9058184235E-002 +8.3128915243E+000  +1.4753559473E+000 -1.2522775479E+001 
7142275.344 +1.5184699868E+000 +3.7037577534E+000  +7.1078437209E-002 +6.7868192489E+000  +8.1290339745E-002 -5.3092349015E+000  +1.3152627230E+000 -4.9989663931E+000 
7267420.526 +1.6798609146E+000 +8.9598211607E+000  +5.8443552943E-002 +6.3373087837E+000  +5.8942939373E-002 +5.1177732038E+000  +1.1679917694E+000 -1.4072954780E+001 
7392565.707 +1.3429987454E+000 +4.3789161835E-001  +4.6163490583E-002 +5.7755535822E+000  +4.6092921552E-002 +5.9794076337E+000  +1.3545139345E+000 -7.6171045449E+000 
7517710.889 +1.2255828816E+000 -7.5954971002E-001  +4.3903198424E-002 +8.5952794886E-001  +4.0022573863E-002 +2.1793453372E+000  +1.0452054301E+000 -6.4087219631E+000 
7642856.070 +1.0616759311E+000 +9.9338113680E+000  +4.1020621573E-002 +8.9386833725E+000  +4.3255428723E-002 +1.0711763548E+001  +1.0839580795E+000 -5.7161686325E+000 
7768001.252 +9.5447481146E-001 -1.0340367903E-001  +4.4172020582E-002 +1.1538853281E+000  +3.6531376994E-002 +8.4025169623E+000  +9.0850596870E-001 -5.1484421492E+000 
7893146.433 +8.2292620256E-001 +8.2454132942E+000  +3.7672998294E-002 +3.8823942983E+000  +3.2208075656E-002 +1.8227379846E+001  +9.1663994997E-001 -2.3986411836E+000 
8018291.615 +7.9861348213E-001 +1.1533152473E+001  +3.0850221322E-002 -7.3037055091E-002  +3.7654342604E-002 +4.6075779037E+000  +8.1743729684E-001 -7.4989170740E+000 
8143436.796 +7.6082996265E-001 +1.4422171577E+000  +3.1215210855E-002 +1.2758982542E+001  +3.4803224867E-002 +1.1319405811E+001  +8.0450228156E-001 +3.9974911084E+000 
8268581.977 +7.5537938096E-001 +1.5881959558E+001  +3.5755511640E-002 +1.0099450698E+001  +3.1809864582E-002 +1.2161382948E+001  +7.3328468023E-001 -3.3175672094E+000 
8393727.159 +6.4102261803E-001 +5.1387050397E+000  +3.4472119073E-002 +6.6289533058E+000  +3.6203696388E-002 +9.2557497269E+000  +7.8808582979E-001 +1.2784289516E+000 
8518872.340 +5.9449411500E-001 +6.5904686188E+000  +3.4877508903E-002 +1.7404181144E+000  +3.2975541256E-002 +2.0356938371E+001  +6.8433219920E-001 -2.4584187757E+000 
8644017.522 +6.6664499820E-001 +1.4019875253E+001  +3.1515687270E-002 -2.7066492912E+000  +2.8368021752E-002 +1.4807686556E+001  +6.8768747622E-001 +2.5304632412E+000 
8769162.703 +5.5705517854E-001 +9.2673464906E+000  +3.4591410875E-002 -1.5988186878E-001  +3.3560623800E-002 +1.5192813460E+001  +7.0946501465E-001 +1.8312483605E-001 
8894307.885 +6.6071672920E-001 +6.1713039710E+000  +3.2908734700E-002 -7.8030053203E-001  +3.5086407640E-002 +2.1200687996E+001  +6.0843779999E-001 -1.3513747377E-001 
9019453.066 +5.9085308509E-001 +5.3912450850E-001  +2.6789974935E-002 -6.1540552956E+000  +3.3863847502E-002 +2.0760773154E+001  +6.0173164858E-001 -3.5779653637E-001 
9144598.248 +5.3501598302E-001 +8.9378172466E+000  +3.0202354408E-002 +8.2049144026E-001  +2.9477007322E-002 +1.9410936327E+001  +6.4766268526E-001 -2.5061290658E+000 
9269743.429 +4.7504311216E-001 +9.0373399743E+000  +3.4050512259E-002 +2.9840557736E+000  +3.1623320439E-002 +1.6280684890E+001  +5.6993884789E-001 +8.6240950514E-001 
9394888.611 +5.4178558211E-001 +6.6576881963E+000  +3.5540326197E-002 -1.1135285129E+000  +3.6509374820E-002 +1.8881022678E+001  +6.2059411096E-001 -6.4571118019E+000 
9520033.792 +4.8108538423E-001 -4.1429417917E+000  +3.0445039746E-002 +1.0269183597E+000  +3.3037317229E-002 +1.6247874637E+001  +5.9295876054E-001 -5.5495729228E+000 
9645178.974 +4.8592744053E-001 +3.7841216017E+000  +3.4163848176E-002 +1.3885973041E+000  +3.1947712564E-002 +1.9352335358E+001  +5.7152549626E-001 -2.5544057714E+000 
9770324.155 +5.4293835466E-001 -2.4461088460E+000  +3.2723527415E-002 +3.6417750151E+000  +3.1166854176E-002 +1.9053585796E+001  +5.6842529464E-001 -2.5900065838E+000 
9895469.337 +4.9905555850E-001 +4.4562627931E+000  +3.0648783158E-002 +1.9526008756E+000  +3.3342668821E-002 +2.0062123600E+001  +5.3192780305E-001 -5.5933963618E+000 
10020614.518 +5.2658247043E-001 +2.3312455731E+000  +3.2483373650E-002 +3.0156764957E+000  +3.4171884564E-002 +2.0667762794E+001  +5.3759440242E-001 -8.8562198503E+000 
10145759.700 +5.4480033355E-001 +8.1809583972E+000  +3.4088386895E-002 +3.1440826772E+000  +3.3624096130E-002 +1.7121958551E+001  +5.7418998376E-001 -7.2775463881E+000 
10270904.881 +5.3717598443E-001 +1.0504061050E+001  +3.5491953774E-002 +3.2375396185E+000  +3.2861654308E-002 +2.2787967521E+001  +5.6075845137E-001 -3.3382393087E+000 
10396050.063 +4.9896864027E-001 +3.1951307395E+000  +3.5152846040E-002 +4.3758924352E+000  +3.1493816699E-002 +1.5354968562E+001  +5.7677197196E-001 +1.6445867274E+000 
10521195.244 +5.5253380496E-001 +9.4966592887E+000  +3.0847267073E-002 +4.1947277931E+000  +3.1473510037E-002 +2.3604982615E+001  +5.3165178391E-001 -1.4084436928E+000 
10646340.426 +5.5503610467E-001 +5.1958094404E+000  +3.4358115517E-002 +4.9241915180E-002  +3.4471668931E-002 +1.9061538866E+001  +5.9851296443E-001 +2.5231919250E+000 
10771485.607 +5.5175156516E-001 +5.5801701756E+000  +3.7364527744E-002 +7.9272719206E+000  +3.2266097971E-002 +1.8098965701E+001  +5.4169604825E-001 +1.1919734018E+000 
10896630.788 +5.4057932814E-001 +6.9926403601E+000  +3.3879745359E-002 +4.9357230013E+000  +3.4273142009E-002 +1.9906653666E+001  +5.7015314943E-001 +5.5609734320E-001 
11021775.970 +5.4839268648E-001 +9.3126518467E+000  +3.5672442795E-002 +6.2674225213E+000  +3.3878761329E-002 +1.9829217873E+001  +5.6089734337E-001 +2.6726250470E+000 
11146921.151 +5.4995068312E-001 +9.1443823421E+000  +3.4322136411E-002 +5.1487083687E+000  +3.2863936640E-002 +1.9420019432E+001  +5.8985080909E-001 +4.0207906325E+000 
11272066.333 +5.5394856408E-001 +3.6378658969E+000  +3.7914038983E-002 +1.0550224125E+001  +3.4358206093E-002 +1.5378885920E+001  +6.1054542268E-001 +5.8254099526E-001 
11397211.514 +5.7484753336E-001 +8.4291473292E+000  +3.6431186609E-002 +7.6343540969E+000  +3.6759061096E-002 +2.2569400195E+001  +6.0900127623E-001 -1.3220842043E+000 
11522356.696 +5.4868860040E-001 +4.8913875241E+000  +3.5629098071E-002 +7.5267503617E+000  +3.5906283822E-002 +1.5478989498E+001  +6.2626579903E-001 +9.4780690443E-001 
11647501.877 +5.7740629535E-001 +5.1685283909E+000  +3.5390081028E-002 +7.2860379776E+000  +3.6073198859E-002 +1.9441642336E+001  +6.0959731532E-001 +3.1324471369E+000 
11772647.059 +6.2381052370E-001 +4.3647924547E+000  +3.5008037340E-002 +9.6801958988E+000  +3.6900891239E-002 +1.7967374051E+001  +6.3883749120E-001 +1.5162124860E+000 
11897792.240 +6.2160212984E-001 +4.0162137840E+000  +3.5879444407E-002 +8.4963504223E+000  +3.5553062585E-002 +1.7122857667E+001  +6.5993314529E-001 +1.1380297572E+000 
12022937.422 +6.2275933912E-001 +6.0480626338E+000  +3.7189797571E-002 +3.9499961131E+000  +3.7310729916E-002 +1.9203392934E+001  +6.7506444919E-001 -2.3158334607E+000 
12148082.603 +6.6105370844E-001 +2.9586030898E+000  +3.9296014795E-002 +1.1075296673E+001  +3.6927858504E-002 +1.7824796690E+001  +6.5384054813E-001 -1.9180593657E+000 
12273227.785 +6.7267734290E-001 +4.1591246204E+000  +3.8082240495E-002 +1.0558759914E+001  +3.6962078719E-002 +2.0444097641E+001  +6.5988130591E-001 -8.8618924450E-001 
12398372.966 +6.9661747051E-001 +2.3633135757E+000  +3.7752097453E-002 +1.0542131930E+001  +3.6588253686E-002 +1.7380756443E+001  +6.7942351140E-001 +7.0708494242E-001 
12523518.148 +6.8485498619E-001 +3.6502554343E+000  +3.8675588613E-002 +9.8906158293E+000  +3.7599199981E-002 +1.8265488228E+001  +6.9466712624E-001 -2.3725333212E+000 
12648663.329 +6.7679774314E-001 +3.3344119549E+000  +3.9543015081E-002 +9.6073366105E+000  +3.8877882680E-002 +1.5368845527E+001  +7.3544659446E-001 +5.9992482458E-001 
12773808.511 +6.9262105300E-001 -3.1445956049E-001  +4.0351738210E-002 +1.3043452704E+001  +3.9543405272E-002 +1.9285859425E+001  +7.3062153064E-001 -1.0978725155E+000 
12898953.692 +7.3697729355E-001 +2.2551539582E+000  +3.9173374485E-002 +1.1724255019E+001  +3.9168234619E-002 +1.9702422517E+001  +7.4338051831E-001 -1.7997048224E-001 
13024098.874 +7.3976164692E-001 +9.5885757197E-001  +4.0828672935E-002 +1.1764436009E+001  +4.0588440882E-002 +1.7543848211E+001  +7.6332312290E-001 -6.6126823166E-001 
13149244.055 +7.7049733237E-001 +1.0142121384E+000  +4.0960253230E-002 +8.8322028889E+000  +4.0515029010E-002 +1.7058701688E+001  +7.5933124168E-001 -1.5081835648E+000 
13274389.237 +7.9063954011E-001 -2.5778226533E-002  +4.0327079056E-002 +1.3377366559E+001  +4.2292304887E-002 +1.6245038889E+001  +7.9079171120E-001 -2.4196878220E+000 
13399534.418 +7.8838366731E-001 -5.4029093182E-001  +4.0424378207E-002 +1.2889130874E+001  +4.2278981733E-002 +1.4367187779E+001  +8.0061875942E-001 -8.8349194242E-001 
13524679.599 +8.1372422845E-001 -2.5608796244E+000  +3.9603133540E-002 +1.0281684303E+001  +4.1125502310E-002 +1.4912272147E+001  +8.0552431108E-001 -2.6792767246E+000 
13649824.781 +8.6013194876E-001 -2.8703426246E+000  +4.3395340329E-002 +1.2470964326E+001  +4.2037931227E-002 +1.6641050120E+001  +8.5385203973E-001 -2.5509785618E+000 
13774969.962 +8.1235493340E-001 -3.3122257417E+000  +4.2118847648E-002 +1.0745812484E+001  +4.0830271623E-002 +1.1873320320E+001  +8.7467310550E-001 -2.9325181254E+000 
13900115.144 +8.4073010849E-001 -3.5823874708E+000  +4.3143305788E-002 +1.3645641956E+001  +4.1295348394E-002 +1.1041760032E+001  +8.6999044270E-001 -3.7953041274E+000 
14025260.325 +8.7002137503E-001 -2.4145685665E+000  +4.2131810312E-002 +1.1061749781E+001  +4.1181377917E-002 +1.1004640930E+001  +8.7716445209E-001 -4.5590021684E+000 
14150405.507 +8.9896619455E-001 -3.9875454972E+000  +4.3777774315E-002 +1.0878462351E+001  +4.2205730614E-002 +9.9819203641E+000  +9.0910680298E-001 -5.4534265669E+000 
14275550.688 +9.2149585990E-001 -4.4142388470E+000  +4.2460318891E-002 +1.2424698150E+001  +4.3403921177E-002 +1.2956954242E+001  +9.1512959620E-001 -4.4307731278E+000 
14400695.870 +9.2185132008E-001 -4.4308107194E+000  +4.3441646440E-002 +1.0894638374E+001  +4.3498764862E-002 +1.3152532486E+001  +9.3390950653E-001 -4.5280664362E+000 
