!  2-Port S-parameters saved by WinCal
! VAR MeasName=S-Parameters (CALIBRATED_DATA) read from VNA (P5004A)
! VAR MeasDate=28/08/2024 11:21:17
! VAR NAME=S2_r6c9_RESET2_9k-100M_3
! VAR FILENAME=S2_r6c9_RESET2_9k-100M_3.S2P
! VAR DATE=28/08/2024 11:21:17
! VAR PHYS_PORTS=1,2
! VAR ObjTypeName=DATASET
! VAR IndexType=Frequency
!
# Hz S MA R 50
9000.000 +1.0202343998E-001 -1.6792717096E+002  +1.0826523485E-002 +4.6395440341E+001  +8.5674309460E-003 +1.6813658517E+002  +2.3314294149E-001 -1.3352879947E+002 
134145.181 +1.1192494407E-001 +1.6960635700E+002  +2.2290936598E-004 -1.2685051290E+001  +2.6022210269E-004 -1.2576038607E+002  +2.4126741772E-001 -1.7144415625E+002 
259290.363 +1.1090769750E-001 +1.7035488486E+002  +1.0523218168E-004 -1.1321202896E+001  +3.0513978859E-004 +4.9270446316E+001  +2.4715702423E-001 -1.7008113045E+002 
384435.544 +1.1438528320E-001 +1.7018724488E+002  +4.1486800048E-004 -1.5746429205E+002  +1.0858489003E-003 +2.2676335328E+001  +2.5441201492E-001 -1.6827414441E+002 
509580.726 +1.1243921664E-001 +1.7057186414E+002  +1.9227485951E-003 +5.7201234010E+001  +1.6759058919E-003 +7.2149999326E+000  +2.5422679911E-001 -1.6348597651E+002 
634725.907 +1.1878010907E-001 +1.7092144685E+002  +3.1226887652E-004 +1.3228680914E+002  +1.0414108014E-003 -7.1188702914E+001  +2.5034684274E-001 -1.6669747885E+002 
759871.089 +1.1889330693E-001 +1.7058645459E+002  +6.4997924051E-004 +8.4613224576E+001  +1.9774826956E-003 +5.5019465153E+001  +2.5351657962E-001 -1.6039436910E+002 
885016.270 +1.2137224034E-001 +1.6910273001E+002  +1.5229828192E-004 -1.5160589073E+002  +7.4130691221E-004 -1.4670766848E+002  +2.4309599886E-001 -1.6616300448E+002 
1010161.452 +1.1652368703E-001 +1.7088055844E+002  +5.2473781450E-004 +1.3914445088E+002  +5.8074092343E-004 +4.9636026242E+001  +1.9307499745E-001 -1.7263842781E+002 
1135306.633 +1.2034540826E-001 +1.6870686683E+002  +6.1520595577E-004 +4.5320166284E+001  +1.5540873972E-003 +1.0140965789E+002  +2.0299444126E-001 -1.7002263479E+002 
1260451.815 +1.1178422978E-001 +1.7237462207E+002  +1.0200427800E-003 -1.3037982120E+002  +1.5122922303E-003 +1.3518332419E+002  +2.2680105571E-001 -1.5756052301E+002 
1385596.996 +1.2811753774E-001 +1.7360370214E+002  +2.3827124433E-003 -1.0074348890E+002  +6.6214886749E-004 -8.5578772108E+001  +2.6237101121E-001 -1.6030861465E+002 
1510742.178 +1.2694979678E-001 +1.7281562167E+002  +6.8326495347E-004 +1.2851541692E+002  +1.2675986478E-003 -1.2135097464E+002  +2.5642954518E-001 -1.6037899073E+002 
1635887.359 +1.3139771845E-001 +1.7029011335E+002  +1.9988772390E-003 +4.6958982103E+001  +4.3212132726E-004 +5.2974042185E+000  +2.2590945736E-001 -1.6003575045E+002 
1761032.541 +1.2896647928E-001 +1.7084216714E+002  +8.6314329373E-004 +2.8464484167E+001  +1.5175777064E-003 +6.3329438875E+001  +2.3450732283E-001 -1.5884748450E+002 
1886177.722 +1.3044986169E-001 +1.6702475909E+002  +2.3668674366E-003 +1.3950871182E+002  +2.1630424825E-003 +2.7680118033E+001  +1.8419941941E-001 -1.6057454169E+002 
2011322.904 +1.2728122678E-001 +1.6679660790E+002  +4.3852410330E-003 -4.2781835969E+001  +8.0140036721E-004 -1.2240928447E+002  +2.0959013629E-001 -1.5776210990E+002 
2136468.085 +1.3124907117E-001 +1.6546750171E+002  +1.6397646825E-003 +7.0055526013E+001  +1.7598190664E-003 -1.1592845254E+002  +1.9838080558E-001 -1.4984316651E+002 
2261613.267 +1.2921335468E-001 +1.6669765196E+002  +4.0944544985E-003 +3.8215430250E+001  +4.5357609146E-003 +9.4538429579E+001  +1.6931481127E-001 +1.5755403406E+002 
2386758.448 +1.3021097491E-001 +1.6989706239E+002  +4.1988160789E-003 -1.4633085519E+002  +1.7691833819E-003 +5.2184159104E+001  +1.7762782227E-001 +1.6722502346E+002 
2511903.630 +1.2528502465E-001 +1.6351225583E+002  +1.1352575290E-003 -7.5126469795E+001  +2.6116136886E-003 +5.4758575070E+001  +2.2919295165E-001 -1.7779741744E+002 
2637048.811 +1.0214709492E-001 +1.7199955854E+002  +1.4693480031E-002 +4.8118615756E+001  +9.4214091962E-003 +1.3201094137E+002  +3.0437581400E-001 +1.2727195426E+002 
2762193.992 +1.1132993718E-001 +1.7032627461E+002  +9.0381673449E-003 +3.5894203322E+001  +2.5990906127E-002 +3.2718606966E+001  +1.0381367275E+000 +1.2944117300E+002 
2887339.174 +1.3186071269E-001 +1.7124258110E+002  +5.7130138743E-003 -8.0731092384E+001  +3.4963054594E-003 +6.0371945475E-001  +4.4986149779E-001 -1.0603101349E+002 
3012484.355 +1.1743101954E-001 +1.6690851272E+002  +1.5713872529E-002 +2.8884331822E+001  +1.1126395726E-002 +1.2162679295E+002  +3.2668714167E-001 -1.0179470775E+002 
3137629.537 +1.2537608701E-001 +1.7138345392E+002  +3.8580363663E-003 -1.5018723472E+002  +9.9973663331E-003 -3.2723087183E+001  +3.8894695030E-002 +3.0753719657E+001 
3262774.718 +8.9979256001E-002 +1.6599444341E+002  +8.1554920602E-003 +4.7458210474E+001  +3.2559617470E-002 +1.2873222719E+002  +1.8032088624E-001 +4.7887531668E+000 
3387919.900 +1.3712903925E-001 +1.6402875843E+002  +7.0435437728E-003 -1.0272738413E+001  +1.2095405269E-002 +1.5416375700E+001  +2.2650765182E-001 -2.1667791152E+001 
3513065.081 +1.4996072922E-001 +1.4098479676E+002  +9.2184973002E-003 +1.7087392850E+002  +4.7626044369E-003 -1.6969256090E+002  +2.3419105568E-001 +1.2262533197E+002 
3638210.263 +1.7586897079E-001 +1.4514596109E+002  +7.7008175682E-003 +4.9382221655E+001  +2.9076639214E-003 -8.1475265449E+001  +4.8349211825E-001 +1.2701158379E+002 
3763355.444 +1.7958417383E-001 +1.3388454753E+002  +6.8368994974E-003 +3.9665006521E+001  +1.8840319864E-002 +1.6558224319E+002  +5.3766896117E-001 +1.1892013577E+002 
3888500.626 +1.4780802419E-001 +1.4878733955E+002  +6.9798873635E-003 -1.5456965591E+002  +6.6187624739E-003 +7.3658941037E+001  +5.1746205160E-001 +1.4719827000E+002 
4013645.807 +1.8558147130E-001 +1.5326007807E+002  +8.4678825667E-004 -7.7361520816E+001  +2.0151767236E-003 -8.6281626539E+001  +3.1689170632E-001 +1.4035728959E+002 
4138790.989 +1.7057731693E-001 +1.4637982106E+002  +8.9536989957E-003 +1.5505865985E+002  +3.8009838138E-003 +8.1357482861E+001  +4.0969654399E-001 +1.0717672104E+002 
4263936.170 +2.1312452979E-001 +1.4276255312E+002  +7.5134961678E-003 +1.4673314394E+002  +1.4037911751E-002 -1.6913172702E+002  +6.5240794989E-001 +9.2717955882E+001 
4389081.352 +1.5705352590E-001 +1.4094133506E+002  +2.2474255637E-002 +3.8953462583E+001  +9.7181553527E-003 -6.7873036676E+001  +1.0757453620E+000 +1.3008986499E+002 
4514226.533 +2.3288646749E-001 +1.3858725916E+002  +5.6866861762E-003 -1.4374061940E+002  +3.1616192998E-003 +4.8060269434E+001  +5.5291746794E-001 +1.2582522504E+002 
4639371.715 +2.5092383920E-001 +1.3000455293E+002  +9.0580958769E-003 +9.5497467588E+000  +1.4334724673E-002 -1.0656440554E+002  +1.1523991178E+000 +1.4311683729E+002 
4764516.896 +3.0893112954E-001 +1.2866857377E+002  +6.5159767216E-003 +2.0816922541E+001  +2.7583983671E-002 +5.8906343369E+001  +1.7413094660E+000 +1.2537617310E+002 
4889662.078 +4.7176173285E-001 +1.2234900595E+002  +2.3416012725E-002 +8.5233037238E+001  +1.2549116296E-002 +3.7101539807E+001  +2.1854608257E+000 -1.5440179812E+002 
5014807.259 +3.6979956190E-001 +1.3207002840E+002  +2.7532809872E-002 +4.9022394228E+001  +3.2965465789E-002 +1.0524821165E+002  +2.4843102909E+000 +9.8591192908E+001 
5139952.441 +4.2070653847E-001 +1.2631882305E+002  +2.8536464746E-002 +1.5471444001E+002  +2.3874102555E-002 -2.9277396092E+001  +2.6852214989E+000 +6.7032526589E+001 
5265097.622 +3.5004053555E-001 +1.2560855421E+002  +1.9130990649E-002 -1.0411337231E+001  +1.2661530693E-002 -3.6624834402E+000  +2.2837319644E+000 +1.0561117636E+002 
5390242.804 +4.2411592625E-001 +1.3390841589E+002  +4.4944871621E-003 +1.6040349941E+001  +8.6670602367E-003 +1.2115461735E+001  +7.4789949692E-001 +8.5304379964E+001 
5515387.985 +4.7307497089E-001 +1.2379642890E+002  +9.0532908662E-003 -1.6868019015E+002  +2.1213738200E-002 +1.4138618799E+002  +1.4822913202E+000 +1.1656110906E+002 
5640533.166 +4.4083450022E-001 +1.1637548136E+002  +4.7220501605E-002 -3.7418282514E+001  +2.4754076855E-002 +8.9532272883E+001  +2.6886813772E+000 +1.0065478143E+002 
5765678.348 +4.8259203555E-001 +1.2271132636E+002  +1.5700706195E-002 -1.3234837779E+002  +3.9228622840E-002 +1.4289065142E+002  +4.3760166086E+000 +8.5443708729E+001 
5890823.529 +5.5107720206E-001 +1.2169701860E+002  +2.2007292086E-002 +1.7719966289E+002  +2.6326140369E-002 +1.4895126699E+002  +3.9233487571E+000 +4.9155746081E+001 
6015968.711 +7.3097161028E-001 +1.1827638374E+002  +1.0422653084E-002 -6.8534017882E+000  +2.7897865039E-002 +1.0796556162E+002  +2.3695922991E+000 +4.8107402697E+001 
6141113.892 +6.7016496305E-001 +1.1865392218E+002  +5.2047601627E-003 +6.6051547920E+001  +6.5748252636E-003 +1.7287869671E+002  +2.0328828445E+000 +6.3507215057E+001 
6266259.074 +1.0388048552E+000 +1.0860958366E+002  +5.6270542536E-002 -2.0336633934E+001  +4.3180135884E-002 -1.0718846894E+002  +3.1689659408E+000 +2.5797661024E+001 
6391404.255 +1.1482815550E+000 +1.0844485031E+002  +1.8266646881E-002 +1.0033186384E+002  +1.1058084259E-002 -1.7929353766E+002  +1.6736504386E+000 +2.3031486679E+001 
6516549.437 +1.0705271482E+000 +9.3090613333E+001  +2.2224255523E-002 +1.1763353179E+002  +7.0058291350E-003 +1.5124587165E+002  +1.3052693492E+000 +6.4051806607E+000 
6641694.618 +1.6398795566E+000 +7.0081886569E+001  +1.9920709289E-002 -1.4939059970E+002  +1.6356219967E-002 +1.0881591452E+002  +1.2413099555E+000 +4.8830089458E+000 
6766839.800 +1.7180957662E+000 +4.9288110543E+001  +1.1856857654E-002 -1.0315871829E+002  +4.6799106312E-002 +1.6624948068E+002  +1.2332742844E+000 -7.9611579303E+000 
6891984.981 +1.4556517318E+000 +2.6373841648E+001  +1.6885682405E-002 +7.7142334185E+001  +1.4263288883E-002 +2.0484929124E+001  +1.3576129256E+000 -8.4306575705E+000 
7017130.163 +1.3201855940E+000 +1.5239315268E+001  +2.3039392719E-002 +1.2225480420E+002  +3.1796518693E-002 +8.0047295521E+001  +1.3453643591E+000 -1.4994352818E+001 
7142275.344 +1.5645818214E+000 +1.1624672123E+001  +5.0952319873E-003 +2.9925713357E+000  +2.6687440386E-002 +6.5351688793E+001  +1.2669065338E+000 -1.0277911372E+001 
7267420.526 +1.5467656714E+000 +2.1478565327E+000  +4.9199233301E-003 -1.4767911228E+002  +5.0409577671E-003 +1.1756988833E+002  +1.2221144771E+000 -8.6459054591E+000 
7392565.707 +1.3659894024E+000 -3.1061610482E+000  +1.6974922646E-002 +1.3829533377E+002  +8.0670555810E-003 +8.8632791630E+001  +1.3580564726E+000 -8.3652118939E+000 
7517710.889 +1.2159501446E+000 +1.4857224576E+000  +7.3888042888E-003 +9.0335722587E+001  +5.4522123023E-003 -1.5807608344E+002  +1.2731440441E+000 -1.5089042494E+000 
7642856.070 +1.0123052837E+000 +1.8929717696E+000  +5.5518630424E-003 +1.2852242211E+002  +1.2079859965E-002 +7.2393903691E+001  +1.0351343100E+000 -8.7098316872E+000 
7768001.252 +8.9495108808E-001 +3.6227460228E+000  +6.7943995093E-003 +9.2953006041E+001  +3.3077769502E-003 +1.7382043105E+002  +1.0364578300E+000 -1.8396895381E+000 
7893146.433 +8.9062942404E-001 +5.7767443553E+000  +4.1058106142E-003 +4.4789832047E+001  +6.8005261941E-003 +4.9033871369E+001  +9.7312809585E-001 -1.7612814180E+000 
8018291.615 +7.6052601083E-001 +7.8432956225E+000  +7.2828097926E-003 -1.8588094386E+001  +1.8742226256E-003 -3.8789476842E+001  +8.2093665060E-001 -9.8142837178E-001 
8143436.796 +8.3399402011E-001 +1.5891856693E+000  +3.3557896628E-003 -1.6603837195E+002  +6.3338162304E-003 +1.5671180802E+002  +7.5560252900E-001 -2.9158804023E+000 
8268581.977 +7.0796197826E-001 +1.3868925940E+001  +7.2046112148E-003 +6.6424914176E+001  +9.2979789357E-004 +2.7471509937E+001  +7.7844372658E-001 +5.9344572538E+000 
8393727.159 +7.1246807022E-001 +1.2757442608E+001  +4.2759464628E-003 +4.4727337707E+001  +4.2412586405E-003 +1.7730701723E+002  +7.1743405426E-001 +9.4210196258E-001 
8518872.340 +7.4144010083E-001 +1.1013069469E+001  +4.0497417741E-003 -3.0442804888E+001  +9.3596758410E-003 +7.8064513691E+001  +7.2393751248E-001 -4.2774558054E+000 
8644017.522 +6.8243213379E-001 +1.1101564697E+001  +5.5083359729E-003 +5.4293825558E+001  +5.8015147559E-003 +1.3843536856E+002  +6.9063414584E-001 +2.4065501649E+000 
8769162.703 +6.1609453160E-001 +6.3665482895E+000  +2.4056363850E-003 +8.9743420470E+001  +5.7829686877E-003 +1.0019717610E+002  +6.4707197327E-001 -3.7573838410E+000 
8894307.885 +5.9059719704E-001 +3.6526081433E+000  +1.7727496031E-003 +7.1599450391E+001  +3.3875179172E-003 +9.0800694533E+001  +6.2876407637E-001 +3.5869738056E-001 
9019453.066 +6.0361914421E-001 +4.8517684303E+000  +6.8215749108E-003 +3.2319772125E+001  +1.5663459607E-003 +1.0591152893E+002  +6.8969683217E-001 +1.4545899153E+000 
9144598.248 +5.5796678967E-001 +3.1657324719E+000  +9.3093575284E-004 +5.9533102599E+001  +4.9010925373E-003 +1.0842298029E+002  +5.4200808170E-001 -3.2968414922E+000 
9269743.429 +5.1439945665E-001 +3.6071915445E+000  +6.6211526706E-003 +7.9052659119E+001  +4.0457755129E-003 +8.9847543322E+001  +5.7567711485E-001 -1.9201732882E+000 
9394888.611 +5.8740675143E-001 +5.1490035798E-001  +3.9480525095E-003 +6.4497592083E+001  +2.6345968297E-003 +4.5438558817E+001  +5.8408313231E-001 -1.7860812751E+000 
9520033.792 +5.3891620429E-001 +1.2220376221E-001  +5.7929547438E-003 +9.8540222787E+001  +3.3813947030E-003 +1.1273076132E+002  +5.7761110059E-001 -1.6707118664E-001 
9645178.974 +5.6814092619E-001 -1.3896842400E-001  +4.8107716710E-003 +6.5416380227E+001  +3.6734166559E-003 +9.1206433486E+001  +6.1970616685E-001 -3.9480586243E+000 
9770324.155 +5.2658762220E-001 +3.1230881010E+000  +3.2089210009E-003 +7.7128200485E+001  +5.1048095160E-003 +9.0329212928E+001  +5.9693193740E-001 -7.7452184112E+000 
9895469.337 +5.2399543196E-001 +2.0964987425E+000  +3.6392226005E-003 +7.6095260650E+001  +3.8086711813E-003 +8.7114557071E+001  +5.5907946928E-001 -5.9810074006E+000 
10020614.518 +5.2852505345E-001 +2.5765109917E+000  +3.1126440863E-003 +7.2286544395E+001  +5.3216802035E-003 +1.5021371701E+002  +5.9404306058E-001 -5.7304019213E+000 
10145759.700 +5.7748509639E-001 +3.4379404667E+000  +2.9858542600E-003 +9.2091401387E+001  +1.1666052674E-003 -1.5704080044E+002  +5.5535350458E-001 -8.1724868527E+000 
10270904.881 +5.4667768653E-001 +4.2275240709E+000  +4.0097530400E-003 +6.4872572868E+001  +3.1778356706E-003 +6.7241874415E+001  +5.6535814004E-001 +1.0840372983E+000 
10396050.063 +5.7687336543E-001 +2.8244293441E+000  +5.5772894372E-003 +7.6932195556E+001  +5.8697800422E-003 +9.9067479989E+001  +5.7543889495E-001 -2.3713722363E+000 
10521195.244 +5.8204005165E-001 +6.7025633492E+000  +5.2537430806E-003 +9.9454755708E+001  +4.7688437850E-003 +9.5420830767E+001  +5.6706777407E-001 +1.8336292132E+000 
10646340.426 +5.8570956839E-001 +6.1090643910E+000  +4.9073448564E-003 +9.9232218634E+001  +5.3203371127E-003 +1.1888334344E+002  +5.9027453934E-001 +2.2512709938E-001 
10771485.607 +5.3893383709E-001 +4.0604978120E+000  +5.3388779702E-003 +1.0719057950E+002  +3.6964291594E-003 +1.3080677404E+002  +5.7918472950E-001 -1.5608239213E+000 
10896630.788 +5.5377854271E-001 +7.0077151330E+000  +4.3755840135E-003 +6.9218055911E+001  +3.6285222326E-003 +1.2008109748E+002  +6.0674752244E-001 -1.1398208652E+000 
11021775.970 +6.1577956108E-001 +6.6820185774E+000  +3.4308436698E-003 +5.6980437291E+001  +4.8638775989E-003 +8.3634593645E+001  +6.0149483090E-001 +1.7160142315E+000 
11146921.151 +6.1449450259E-001 +2.9734604258E+000  +7.3308272630E-003 +1.1041324140E+002  +5.3595814086E-003 +1.0954222221E+002  +6.4804208798E-001 -1.8446187085E+000 
11272066.333 +5.9163440326E-001 +6.5257279463E+000  +5.6421210899E-003 +6.3972821617E+001  +4.1631785562E-003 +1.1535999324E+002  +6.2409163695E-001 +1.5271824997E+000 
11397211.514 +6.0661927842E-001 +5.0240133539E+000  +5.2545818999E-003 +8.1432240889E+001  +3.6747177204E-003 +9.7055718327E+001  +6.1576698971E-001 +2.4145083783E+000 
11522356.696 +6.5890325952E-001 +5.1509970776E+000  +3.9853516422E-003 +9.6046080750E+001  +2.8188190203E-003 +1.2745073963E+002  +6.0715062223E-001 +1.7454172105E+000 
11647501.877 +6.3547734809E-001 +5.2190629100E+000  +4.4191568203E-003 +9.1100033123E+001  +3.8220177518E-003 +9.3036291381E+001  +6.4104487606E-001 +2.5147376337E+000 
11772647.059 +6.3445932079E-001 +3.9817241589E+000  +7.6677799866E-003 +8.6844371689E+001  +6.5184343647E-003 +1.0361365435E+002  +6.5531991441E-001 +8.3777524389E-002 
11897792.240 +6.5911153526E-001 +5.7178558968E+000  +6.1092988715E-003 +9.0554064414E+001  +5.5775759567E-003 +1.0005497722E+002  +6.7084158855E-001 +1.1928948884E+000 
12022937.422 +6.6290657827E-001 +5.5122750265E+000  +5.1423663063E-003 +9.9873730746E+001  +4.7627367504E-003 +9.3168391540E+001  +6.9331298170E-001 +1.1000098828E+000 
12148082.603 +6.7385570103E-001 +3.6637624570E+000  +5.3621878917E-003 +7.1513634626E+001  +5.1006727735E-003 +8.7639904040E+001  +6.9145579442E-001 +2.7371734047E+000 
12273227.785 +6.7137346636E-001 +1.8014030712E+000  +5.9099100823E-003 +8.6316935765E+001  +5.7486382725E-003 +9.0942915481E+001  +7.1627032731E-001 -1.1434504949E+000 
12398372.966 +7.0631430474E-001 +2.6722143056E+000  +7.7875981147E-003 +9.4328442157E+001  +5.4525780864E-003 +1.1325466519E+002  +7.4552508199E-001 -8.6619873244E-001 
12523518.148 +7.2369507537E-001 +3.2434111674E+000  +6.0845753694E-003 +8.5449625995E+001  +6.2557216626E-003 +9.4591655811E+001  +7.4488067886E-001 +2.8906308147E-001 
12648663.329 +7.5542441140E-001 +2.2761472106E+000  +5.5475287719E-003 +7.5708985148E+001  +6.7750643239E-003 +9.4869027740E+001  +7.2566562710E-001 -1.4241984302E+000 
12773808.511 +7.5542499001E-001 +1.9218684450E+000  +5.8933164830E-003 +9.4728106475E+001  +5.9726138784E-003 +1.0141944113E+002  +7.8315569133E-001 -4.5785007768E-002 
12898953.692 +7.6695184724E-001 +1.4070494672E+000  +6.0536628365E-003 +8.9301536044E+001  +5.3396512604E-003 +1.0824146217E+002  +7.6604466461E-001 -5.0175196633E-001 
13024098.874 +7.9033313978E-001 +1.8105604332E+000  +4.9271074551E-003 +1.0181870695E+002  +6.4522425823E-003 +1.0138415553E+002  +8.2385155706E-001 -1.4377564522E+000 
13149244.055 +8.0521694092E-001 +1.9785180507E-001  +5.5898360431E-003 +9.6903536645E+001  +7.2327163879E-003 +9.5472113970E+001  +8.1649537201E-001 -1.1690246283E+000 
13274389.237 +8.4583074073E-001 -1.3773371873E+000  +6.3470146492E-003 +8.4564637479E+001  +7.2124342956E-003 +1.0241527650E+002  +8.2673798371E-001 -7.6729028131E-001 
13399534.418 +8.3501853400E-001 -8.8291801095E-001  +6.5540079417E-003 +9.5096672618E+001  +6.9743091785E-003 +9.2461191167E+001  +8.5007199051E-001 -1.9735179853E+000 
13524679.599 +8.4041300457E-001 -8.8750849123E-001  +6.4088363799E-003 +8.5852174175E+001  +5.8084547393E-003 +9.9814456855E+001  +8.5734241226E-001 -3.7104458882E+000 
13649824.781 +8.9341564044E-001 -2.7167037161E+000  +8.2998815769E-003 +8.1467001149E+001  +7.0990780415E-003 +8.4745053585E+001  +8.9237571015E-001 -2.4895742102E+000 
13774969.962 +8.9105865188E-001 -2.4886286118E+000  +6.8283005072E-003 +8.9795192199E+001  +7.3243813367E-003 +9.3684213840E+001  +8.9967755970E-001 -3.1595914349E+000 
13900115.144 +8.9304277299E-001 -2.2107270833E+000  +6.3284389277E-003 +1.0115557957E+002  +7.2996113050E-003 +8.6418598879E+001  +9.2709407751E-001 -4.0437333727E+000 
14025260.325 +9.2077274329E-001 -4.1282993841E+000  +6.1952351701E-003 +8.7486941801E+001  +6.1281128208E-003 +1.0437053769E+002  +9.3760637396E-001 -4.2380352156E+000 
14150405.507 +9.5842743148E-001 -3.5568021297E+000  +7.3666376996E-003 +9.4352217412E+001  +7.9098833732E-003 +9.4981972579E+001  +9.5512375359E-001 -4.7202885156E+000 
14275550.688 +9.5846433307E-001 -5.2243482084E+000  +9.6906441569E-003 +1.0599882525E+002  +7.2157024958E-003 +7.5579388608E+001  +9.8284496851E-001 -4.2977223770E+000 
14400695.870 +9.8554397692E-001 -5.8614421999E+000  +6.8582161483E-003 +7.8765076778E+001  +6.6962102549E-003 +9.1763265815E+001  +9.7510412802E-001 -5.8481940819E+000 
