!  2-Port S-parameters saved by WinCal
! VAR MeasName=S-Parameters (CALIBRATED_DATA) read from VNA (P5004A)
! VAR MeasDate=27/08/2024 15:09:57
! VAR NAME=S2_r3c8_RESET3_9k-100M_2
! VAR FILENAME=S2_r3c8_RESET3_9k-100M_2.S2P
! VAR DATE=27/08/2024 15:09:57
! VAR PHYS_PORTS=1,2
! VAR ObjTypeName=DATASET
! VAR IndexType=Frequency
!
# Hz S MA R 50
9000.000 +1.1261073585E-001 -1.4371036902E+002  +1.8355279536E-002 +3.6256531818E+001  +4.6401198453E-002 -7.0957135017E+001  +2.6479933281E-001 -1.0734474994E+002 
134145.181 +1.1020835995E-001 +1.6985253289E+002  +2.8313181375E-004 -1.2632147659E+002  +5.1888647357E-004 +1.5309710995E+002  +2.3976130278E-001 -1.7023390468E+002 
259290.363 +1.1185600491E-001 +1.6938548223E+002  +7.9875678542E-004 +3.5570168176E+001  +6.1085816525E-004 +1.4784614291E+002  +2.4830894516E-001 -1.6463794759E+002 
384435.544 +1.1447727685E-001 +1.6987302549E+002  +1.6151428999E-004 -1.5361153316E+002  +5.7642034178E-004 +1.1618612620E+002  +2.4261483230E-001 -1.6790567218E+002 
509580.726 +1.1353860380E-001 +1.7139660299E+002  +2.4310223764E-004 -2.6381172741E+001  +1.0353652738E-003 -1.7887611758E+001  +2.3417356836E-001 -1.6561150280E+002 
634725.907 +1.1588091763E-001 +1.7118560531E+002  +5.5474156584E-004 -3.3752533431E+001  +4.2886737704E-004 +4.4603492244E+001  +2.3961006809E-001 -1.6537676142E+002 
759871.089 +1.1530427559E-001 +1.6982176480E+002  +4.8216615328E-004 +6.7123330066E-001  +4.9242258716E-004 -1.0221539367E+002  +2.4704667026E-001 -1.6767328577E+002 
885016.270 +1.1838754963E-001 +1.6907687176E+002  +5.4080025196E-004 -1.3311097233E+002  +6.9933405689E-004 -1.4436124634E+002  +2.4239873596E-001 -1.6508851180E+002 
1010161.452 +1.1895977959E-001 +1.7218154900E+002  +5.5799369678E-004 +8.1721880612E+001  +1.4013505722E-003 +1.6541309103E+001  +1.8825772815E-001 -1.5804451678E+002 
1135306.633 +1.1666324866E-001 +1.6811932351E+002  +8.0963734677E-004 +1.4714445849E+002  +2.3746289979E-003 +2.5586986854E+001  +1.6576307477E-001 -1.7211702077E+002 
1260451.815 +1.2034132960E-001 +1.7264716496E+002  +8.5027124283E-004 +1.2208069115E+002  +1.0961186554E-003 +1.3327478791E+001  +2.2833572388E-001 -1.5472100422E+002 
1385596.996 +1.2472955424E-001 +1.7138954925E+002  +1.5227848718E-004 -3.0745626715E+001  +3.4865915090E-004 +1.1385333394E+002  +2.5944671401E-001 -1.6135891005E+002 
1510742.178 +1.2707385001E-001 +1.7112796405E+002  +4.3593717301E-004 -2.7023851859E+001  +1.2017860304E-003 +6.0473635228E+001  +2.5691664372E-001 -1.5597647935E+002 
1635887.359 +1.2522198149E-001 +1.7169679634E+002  +6.8640973189E-004 +7.8586030975E+001  +1.3220789445E-003 -7.0495486822E+001  +2.4304884933E-001 -1.5700483605E+002 
1761032.541 +1.3049734357E-001 +1.7036192768E+002  +1.0177992331E-003 -1.2579209136E+002  +6.5057042821E-004 +1.7496044913E+002  +2.2760966350E-001 -1.6100531705E+002 
1886177.722 +1.2705484427E-001 +1.6856231439E+002  +4.9787666271E-004 +7.1598543122E+001  +6.9392160408E-004 -1.0675437047E+002  +2.1495302024E-001 -1.6748406458E+002 
2011322.904 +1.2952064669E-001 +1.6767057764E+002  +1.0500300336E-003 +3.4150986985E+001  +2.8453567643E-003 +4.7608791379E+001  +1.7382757752E-001 -1.7142983366E+002 
2136468.085 +1.3147859778E-001 +1.6269151393E+002  +3.6591315110E-003 -9.6331663994E+001  +5.8514459897E-003 -9.1453389613E+001  +9.0772768770E-002 -1.7893142501E+002 
2261613.267 +1.3279422649E-001 +1.6589804619E+002  +1.8480307222E-003 -2.8095224149E+000  +1.2227790546E-003 +1.3400765061E+002  +1.3612354009E-001 +1.7785211482E+002 
2386758.448 +1.2742762389E-001 +1.6154220102E+002  +1.3326573178E-003 -9.4927358247E+001  +6.6653639281E-003 -1.7661753094E+000  +1.6865151585E-001 -1.7641436903E+002 
2511903.630 +1.1582202349E-001 +1.5638926204E+002  +2.5613210333E-003 -3.2920397884E+001  +4.4233488001E-003 -1.0891164055E+002  +1.9713685823E-001 +1.7825950091E+002 
2637048.811 +1.2479117109E-001 +1.5975226780E+002  +5.0117708038E-003 +1.5039043655E+002  +6.5307709280E-003 +5.3952219522E-001  +1.3768801894E-001 +1.5486498342E+002 
2762193.992 +9.8841327518E-002 +1.7209200692E+002  +1.2585545230E-002 -1.7901268881E+002  +3.9669487653E-002 +1.4649765597E+002  +8.0072411787E-001 -1.0330140086E+002 
2887339.174 +6.6239459840E-002 +1.6988302957E+002  +4.8314730160E-002 -5.4347447996E+001  +1.6786402186E-002 +5.9770510275E+001  +6.3563268242E-001 +1.3318080441E+000 
3012484.355 +1.2505074709E-001 -1.7521793409E+002  +1.3981425305E-002 -1.3726388697E+002  +1.3118361467E-002 +1.2779951436E+002  +6.2176559164E-001 -1.0278703316E+002 
3137629.537 +1.1234067071E-001 +1.5374163756E+002  +4.3721553204E-003 +9.8637878895E+001  +3.6918258720E-003 -2.0791823552E+001  +2.9466480721E-001 -1.2342498612E+002 
3262774.718 +9.5053849723E-002 +1.6873380419E+002  +1.8684490112E-002 -1.3028748462E+002  +8.2949460456E-003 -1.4837534322E+002  +6.0680104494E-001 -9.7373342004E+001 
3387919.900 +1.1967917919E-001 +1.6305068046E+002  +7.1371301567E-003 -1.6027888585E+002  +1.1401003882E-002 -7.4025648798E+001  +2.4706462889E-001 -7.2876478662E+001 
3513065.081 +1.2999522102E-001 +1.5563677686E+002  +2.6799581663E-002 +4.3812819648E+001  +2.7807663061E-002 +5.3435754205E+001  +3.0421374480E+000 +9.1118744118E+001 
3638210.263 +1.5986007156E-001 +1.3552086563E+002  +1.3002185684E-002 +1.4318612102E+002  +1.0649217029E-002 -1.6686646778E+002  +6.3120136061E-001 +1.3371334762E+002 
3763355.444 +1.7948219507E-001 +1.2515683114E+002  +1.9253056555E-002 -6.5998671629E+000  +2.6584034618E-002 +6.2627882404E+001  +4.2418339080E-001 +8.1811990811E+001 
3888500.626 +1.4276524056E-001 +1.3427345239E+002  +1.3101113036E-002 +9.7414200531E+001  +1.9187116908E-002 -6.8537927461E+000  +9.5873300395E-002 +1.5211276584E+002 
4013645.807 +1.5751295077E-001 +1.4414775845E+002  +2.5293262993E-002 +3.0578806320E+001  +2.0383959761E-002 +7.7647368219E+001  +6.7268023772E-001 +1.0693507867E+002 
4138790.989 +1.7925702314E-001 +1.4976367024E+002  +1.2976980254E-002 +1.1889854782E+002  +3.4960758389E-003 -1.5628237338E+002  +4.5659852367E-001 +1.4028156864E+002 
4263936.170 +2.0727972573E-001 +1.3735165431E+002  +1.4630345320E-002 +9.6871440033E+001  +1.6048472004E-002 +1.9693360412E+001  +7.5598437745E-001 +6.7504834895E+001 
4389081.352 +2.5484284193E-001 +1.4139790004E+002  +9.6260406093E-003 -5.7451450992E+001  +2.8538774177E-002 +5.1636490605E+001  +6.3950354627E-001 +9.4925534485E+001 
4514226.533 +2.0570731140E-001 +1.4148335138E+002  +3.8358286213E-002 +4.9184463504E+001  +1.4458912618E-002 +1.5443531042E+002  +1.1284488646E+000 +8.6928432985E+001 
4639371.715 +2.8725163431E-001 +1.3232493459E+002  +4.8360460540E-002 +8.5809730087E+001  +1.7607008226E-002 +2.5030059856E+001  +9.7717095154E-001 +3.3756729563E+001 
4764516.896 +3.2008270632E-001 +9.9427228675E+001  +8.2934555418E-002 -2.6433854830E+001  +9.7474375714E-002 -7.5079633515E+001  +2.7812302515E+000 -7.1335744339E+001 
4889662.078 +4.7109534147E-001 +1.2033667749E+002  +9.7400726389E-002 +1.2075902094E+001  +1.9588068189E-002 +7.0896432843E+001  +4.0896240242E+000 -5.7716249641E+001 
5014807.259 +4.3393675596E-001 +1.3630824153E+002  +4.1019872636E-002 +9.6094917743E+001  +6.1700117955E-002 +3.2565338187E+001  +3.4431164919E+000 -3.8099654304E+001 
5139952.441 +3.6354735271E-001 +1.3226055631E+002  +7.3421054053E-002 +1.5343949138E+002  +4.9182872971E-002 +2.1955709644E-001  +4.0177241833E+000 +1.1412478328E+002 
5265097.622 +3.6851003808E-001 +1.3220176080E+002  +5.4301414843E-002 +3.8114925540E+001  +2.8183256869E-002 +6.4651195991E+000  +2.5347716152E+000 -1.1826619033E+001 
5390242.804 +3.3973912011E-001 +1.1963224622E+002  +3.9713747363E-002 +1.0882490286E+002  +4.4610571751E-002 +6.9199019288E+001  +1.6027139612E+000 +9.3815459989E+001 
5515387.985 +4.5903756746E-001 +1.2823972610E+002  +4.7779685002E-002 +1.3720693517E+002  +3.3404619251E-002 +7.6884303453E+001  +2.6067205609E+000 +8.0358301307E+001 
5640533.166 +5.1760206370E-001 +1.2850844538E+002  +3.6270484963E-002 +1.1002956270E+002  +2.0480299358E-002 +5.9565544261E+001  +1.8931347378E+000 +9.3988836529E+001 
5765678.348 +5.0933826677E-001 +1.2970881834E+002  +3.5128684175E-002 +1.4880834611E+002  +2.2587470277E-002 +4.6093573173E+001  +2.8147057819E+000 +6.3628516346E+001 
5890823.529 +5.4144926582E-001 +1.2177412258E+002  +9.1289314564E-003 +4.5516020057E+001  +1.2997978550E-002 +1.5568748895E+002  +1.8434940249E+000 +5.8381307320E+001 
6015968.711 +7.5173949678E-001 +1.1971823206E+002  +4.7440333694E-003 +5.2033267774E+001  +5.4680639676E-002 +9.4957919555E+001  +2.0647710555E+000 +6.8679400058E+001 
6141113.892 +7.0133837265E-001 +1.0186697076E+002  +2.6870961915E-002 +5.9560315015E+001  +2.9680966655E-002 +8.3224538586E+000  +2.6388743626E+000 +3.9376674556E+001 
6266259.074 +7.0816496749E-001 +9.5445780406E+001  +4.4246727800E-002 +3.4402512527E+001  +8.9593642372E-003 +1.5816518085E+001  +1.3781969445E+000 +1.6277625446E+001 
6391404.255 +1.0243325573E+000 +9.2678438852E+001  +3.5583706179E-002 +3.7086877564E+001  +3.2919663946E-002 +3.3825909215E+001  +2.1636193234E+000 +1.4509552181E+001 
6516549.437 +1.1673392608E+000 +7.8181630631E+001  +3.3999660728E-002 +5.3096910315E+001  +4.5209966421E-002 -3.5860186396E+000  +1.3015185077E+000 -4.7713323155E-001 
6641694.618 +2.1132644416E+000 +5.9197537414E+001  +7.4840189653E-002 +4.0214686094E+001  +4.9699209036E-002 +2.1154844415E+001  +1.2812397602E+000 -1.9633557447E-001 
6766839.800 +1.3078658926E+000 +3.3295188768E+001  +3.2865195642E-002 +9.9470512610E+000  +3.0945163330E-002 +5.7979763873E+001  +1.1040380013E+000 -1.2523308988E+001 
6891984.981 +1.3052894358E+000 +3.3255397618E+001  +4.9250599892E-002 +2.9178530073E+001  +1.7849558442E-002 +5.3008344462E+000  +1.4772223651E+000 -7.4635662802E-001 
7017130.163 +1.9539245382E+000 +1.6439007660E+001  +3.1545718121E-002 +1.7785373609E+001  +2.0972474586E-002 +2.8339872515E+000  +1.1929562372E+000 -6.2754273639E-001 
7142275.344 +1.5337094645E+000 +9.8940595280E+000  +3.2673473672E-002 +4.8613853577E+001  +2.6600035126E-002 +1.1198797416E+001  +1.1869803418E+000 -9.6713598935E+000 
7267420.526 +1.3887767648E+000 +2.4390197670E+000  +3.1519297736E-002 +1.7112991418E+001  +1.5171065550E-002 +1.1581835139E+001  +1.3002937235E+000 -1.1178635662E+001 
7392565.707 +1.4123968600E+000 +3.5171166215E+000  +3.2779399996E-003 +8.9322203848E+001  +1.4883026989E-002 +4.4679670127E+001  +1.4089880596E+000 -5.8978174734E+000 
7517710.889 +1.3025496753E+000 +2.6907179062E+000  +1.1041352642E-002 +9.2081070261E+000  +7.6069860761E-003 +2.1428582812E+001  +1.1736954641E+000 -7.2520067106E+000 
7642856.070 +1.1082262986E+000 +2.7598794960E+000  +1.4641511475E-002 +3.8618240917E+001  +1.5714270451E-002 +3.3073521881E+000  +1.0865820410E+000 -1.2251743920E+000 
7768001.252 +9.1772695528E-001 +5.1192212159E+000  +1.1883041483E-002 +4.8865942627E+001  +1.3211738793E-002 +9.8950293981E+000  +9.4840229455E-001 -9.3745547654E+000 
7893146.433 +8.2641110023E-001 +1.0387378673E+001  +9.6050029081E-003 +2.5445796457E+001  +1.7118069856E-002 +1.2013366188E+001  +9.2222592654E-001 -2.5508692956E+000 
8018291.615 +8.3760439458E-001 +1.2332243930E+001  +1.2179612596E-002 -3.8823750958E+000  +8.1633224256E-003 +3.7781458128E+001  +9.4616388319E-001 -1.5912903548E+000 
8143436.796 +8.0164676104E-001 +4.3181206305E+000  +1.0005360499E-002 +2.3254078108E+001  +1.5885827150E-002 +4.3228319336E+001  +8.8413964556E-001 +3.2038060322E+000 
8268581.977 +7.5988570994E-001 +7.5431989506E+000  +1.2963083056E-002 +8.6171730473E+000  +1.2283358498E-002 +4.3729439903E+001  +8.3746769256E-001 +4.0762851285E+000 
8393727.159 +6.6697052144E-001 +1.0585616912E+001  +6.5180779250E-003 +7.1453912717E+001  +7.9514100431E-003 +1.7330372340E+001  +7.7571306245E-001 -2.0659489208E-001 
8518872.340 +7.3177226056E-001 +7.4042127440E+000  +1.1222200852E-002 +3.4815666393E+001  +9.2393584660E-003 +2.5511465482E+001  +7.1464123876E-001 +2.2441263991E+000 
8644017.522 +6.0171535550E-001 +8.5608154488E+000  +1.4405082391E-002 +4.0233214429E+001  +9.1908119209E-003 +2.0787197032E+000  +7.0507660273E-001 +3.1384190912E-001 
8769162.703 +6.2116889841E-001 +1.2182838235E+000  +1.1841238500E-002 +2.1886366608E+001  +1.4259474955E-002 +4.3825875185E+001  +6.5477092742E-001 -3.2168405156E+000 
8894307.885 +6.1162479838E-001 +6.7845095751E+000  +7.5349800342E-003 +8.8860516488E+000  +1.1185606905E-002 +3.8513464178E+001  +6.7482691179E-001 -2.6723931814E+000 
9019453.066 +5.5682149737E-001 +4.5810789826E+000  +1.0100276047E-002 +2.6184520204E+001  +7.3858281000E-003 +7.7751959730E+001  +6.4278697640E-001 -2.8324534334E+000 
9144598.248 +5.5055543070E-001 +1.2786925199E+001  +1.2971945213E-002 +1.7918109881E+001  +9.7711318069E-003 +3.1007600942E+001  +5.1405098094E-001 +2.2214383403E+000 
9269743.429 +5.8479444705E-001 -3.1928513334E+000  +1.1320899437E-002 +2.3294207894E+001  +8.9505783757E-003 +2.4579239527E+001  +6.3596268782E-001 -4.0412475578E+000 
9394888.611 +5.8451076687E-001 +6.0458584302E+000  +8.7819894697E-003 +2.3788734539E+001  +7.8779072128E-003 +3.8484143602E+001  +5.8340918443E-001 -3.8366303393E+000 
9520033.792 +5.1561264788E-001 +1.8429764225E+000  +9.5243017610E-003 +3.0828333981E+001  +1.0223601606E-002 +3.0323631344E+001  +5.9536906247E-001 -9.7841773585E-001 
9645178.974 +5.2050096786E-001 -8.4832939885E-001  +9.2185308117E-003 +2.3552754976E+001  +1.2292522098E-002 +5.2040694170E+001  +5.9401246207E-001 -1.4597798357E+000 
9770324.155 +5.7227470820E-001 -1.8856940774E+000  +8.2536674944E-003 +1.8712502460E+001  +9.8369913447E-003 +3.8248790258E+001  +6.1142432111E-001 -7.9911566920E+000 
9895469.337 +5.3760819741E-001 -1.0315783429E+000  +8.6800775561E-003 +2.1570936853E+001  +9.8701718405E-003 +3.4608040975E+001  +5.9778917020E-001 -3.8763354210E+000 
10020614.518 +5.7356167422E-001 +2.9804166832E+000  +1.0392926650E-002 +2.3890803648E+001  +1.2553151833E-002 +3.4450988746E+001  +5.9851963931E-001 -8.4099336927E+000 
10145759.700 +5.6734104343E-001 -1.3487756503E+000  +1.2143635070E-002 +1.4124891415E+001  +1.2802938863E-002 +3.5411217582E+001  +5.5910261940E-001 -4.2913104792E+000 
10270904.881 +5.8261590915E-001 +1.8736506051E+000  +7.7943054703E-003 +3.4700198268E+001  +1.1100679180E-002 +4.3754722684E+001  +5.7598847462E-001 -2.7698806213E+000 
10396050.063 +5.3731661716E-001 +5.4118392799E+000  +7.1256736570E-003 +1.8137024938E+001  +9.6639898506E-003 +2.9175673857E+001  +5.8730095763E-001 +2.2358626511E-001 
10521195.244 +5.2059783926E-001 +3.1304686423E+000  +9.7686341447E-003 +1.7251411785E+001  +1.0163113707E-002 +3.1106821412E+001  +6.0597777660E-001 -8.7850955230E-001 
10646340.426 +5.5252132491E-001 +6.5448472825E+000  +1.0716158761E-002 +1.7424765774E+001  +1.0245815813E-002 +3.2220532787E+001  +5.6384537996E-001 +2.6906257248E+000 
10771485.607 +5.7421084305E-001 +3.1028717015E+000  +1.2602923895E-002 +1.7401691971E+001  +9.3274754667E-003 +3.2891017749E+001  +5.5138577876E-001 -1.1771502301E+000 
10896630.788 +5.5048966642E-001 +5.8320722882E+000  +1.1963012357E-002 +1.7166495563E+001  +1.0032560174E-002 +2.7384869894E+001  +5.7881510311E-001 +7.9424431532E-001 
11021775.970 +5.8625981936E-001 +5.8780593268E+000  +9.8197093621E-003 +2.4176643154E+001  +1.0367141132E-002 +4.2775639857E+001  +6.1016018635E-001 +1.2431039098E-002 
11146921.151 +6.1797421482E-001 +6.7288766282E+000  +1.0164075956E-002 +1.5473378297E+001  +1.1204687814E-002 +3.4284054832E+001  +6.3552531231E-001 +1.5863447893E+000 
11272066.333 +5.6092346721E-001 +7.1621916651E+000  +1.0851522947E-002 +2.0407284596E+001  +9.5731951295E-003 +4.0383414874E+001  +6.2603541900E-001 +1.0845032366E+000 
11397211.514 +6.0875943619E-001 +7.4336686462E+000  +1.1609447732E-002 +2.1882911857E+001  +9.0658850167E-003 +3.5853468467E+001  +6.4452632928E-001 +1.6784401110E+000 
11522356.696 +6.2352264587E-001 +3.8420257735E+000  +1.1439527805E-002 +2.1687428545E+001  +1.1093573294E-002 +5.5970242119E+001  +6.2821267755E-001 +9.8384157005E-001 
11647501.877 +6.1214661103E-001 +5.2747589466E+000  +9.8510893546E-003 +3.6329395839E+001  +1.2452205846E-002 +3.6040447665E+001  +6.1825627506E-001 +2.9131290934E-001 
11772647.059 +6.3150009427E-001 +5.4824281772E+000  +1.0445122262E-002 +3.1796475289E+001  +1.1365931792E-002 +4.1707193615E+001  +6.4099017843E-001 +4.1762928049E-001 
11897792.240 +6.3029848925E-001 +2.4565408700E+000  +1.3177268007E-002 +2.8999683052E+001  +9.4320673109E-003 +4.1536787766E+001  +6.7363873299E-001 +3.1574307318E+000 
12022937.422 +6.5033697498E-001 +4.8383812765E+000  +1.1591939546E-002 +3.1506054066E+001  +1.0952309321E-002 +4.2427339535E+001  +6.7424485490E-001 -8.9451430330E-001 
12148082.603 +7.0999971180E-001 +1.7890578518E+000  +1.2369600008E-002 +2.9991913616E+001  +1.0098146509E-002 +3.9550181992E+001  +6.7311948079E-001 +6.3442019112E-002 
12273227.785 +6.6814273553E-001 +3.3193414290E+000  +1.2248846521E-002 +3.2107993870E+001  +1.2876675596E-002 +4.0839254532E+001  +7.2366490240E-001 +5.8247305936E-001 
12398372.966 +6.9349828481E-001 +2.1985337642E+000  +1.3321780152E-002 +3.1039685797E+001  +1.2853587745E-002 +3.6148825575E+001  +7.0870418783E-001 -6.6350157580E-001 
12523518.148 +6.7590039935E-001 +1.6428219623E+000  +1.1584750858E-002 +2.9600996217E+001  +1.0808669729E-002 +4.0042076931E+001  +7.2450384608E-001 -1.3846902149E+000 
12648663.329 +7.3205783196E-001 +2.8502098962E+000  +1.3551607242E-002 +2.7907535412E+001  +1.2173103826E-002 +3.3509516347E+001  +7.5113370996E-001 -1.6984489073E+000 
12773808.511 +7.4566554463E-001 +3.1039246644E+000  +1.1582791273E-002 +3.6086357966E+001  +1.2758807384E-002 +3.3625853584E+001  +7.5701756507E-001 -1.1327931103E+000 
12898953.692 +7.7611618901E-001 +3.8461113664E+000  +1.0820766910E-002 +3.3385038720E+001  +1.1269842772E-002 +4.5349326026E+001  +7.8879918693E-001 -1.2819496127E+000 
13024098.874 +7.5291287457E-001 +9.6778513023E-001  +1.3063858737E-002 +2.2232565575E+001  +1.2252617166E-002 +3.5470154408E+001  +7.7823166242E-001 -4.4494484404E-001 
13149244.055 +8.1504686070E-001 -5.5140354011E-001  +1.3388918428E-002 +3.0038409531E+001  +1.2993837277E-002 +3.6126061334E+001  +7.9904002037E-001 -1.1713430965E-001 
13274389.237 +8.0768367049E-001 -4.2648607999E-001  +1.2746042624E-002 +2.6682032794E+001  +1.3035479721E-002 +3.8225844317E+001  +8.2942276633E-001 -2.4209240620E+000 
13399534.418 +8.1737535892E-001 -7.3682912349E-001  +1.1462749709E-002 +3.0306362190E+001  +1.3426925074E-002 +3.7102320332E+001  +8.3387906359E-001 -4.8738782301E-001 
13524679.599 +8.3981892581E-001 -2.4661663739E-001  +1.2274883383E-002 +4.0439043134E+001  +1.3907571509E-002 +4.1499765669E+001  +8.4194831016E-001 -3.8088149284E+000 
13649824.781 +8.8080141950E-001 -3.2803434767E+000  +1.3223685927E-002 +2.8512903111E+001  +1.3520940880E-002 +3.3321602088E+001  +8.7498092164E-001 -3.4668042516E+000 
13774969.962 +8.5932784889E-001 -1.2838011335E+000  +1.4186940789E-002 +3.6310478728E+001  +1.3381768431E-002 +4.4039079545E+001  +8.8505977802E-001 -2.8464239962E+000 
13900115.144 +8.8663109465E-001 -3.7321980868E+000  +1.2955637920E-002 +3.3662281445E+001  +1.3834933626E-002 +3.9027714601E+001  +8.8968385648E-001 -2.5995367552E+000 
14025260.325 +9.1707067912E-001 -3.4616089981E+000  +1.3758189373E-002 +3.4650663352E+001  +1.3779057611E-002 +2.9404381190E+001  +9.1226324305E-001 -3.9496503184E+000 
14150405.507 +9.4280723952E-001 -3.9990459137E+000  +1.4434976642E-002 +3.9978564125E+001  +1.3492958324E-002 +3.7546939866E+001  +9.5373435110E-001 -3.4420460575E+000 
14275550.688 +9.2047042344E-001 -3.4529450141E+000  +1.3948390122E-002 +3.4882423752E+001  +1.3994541919E-002 +3.0605561675E+001  +9.6323916886E-001 -3.5826006569E+000 
14400695.870 +9.7587839517E-001 -4.8007896932E+000  +1.5297435017E-002 +3.2125627741E+001  +1.3056796828E-002 +3.2323764108E+001  +9.8486063479E-001 -5.3014957238E+000 
