!  2-Port S-parameters saved by WinCal
! VAR MeasName=S-Parameters (CALIBRATED_DATA) read from VNA (P5004A)
! VAR MeasDate=28/08/2024 10:45:33
! VAR NAME=S2_r5c9_RESET1_9k-100M_2
! VAR FILENAME=S2_r5c9_RESET1_9k-100M_2.S2P
! VAR DATE=28/08/2024 10:45:33
! VAR PHYS_PORTS=1,2
! VAR ObjTypeName=DATASET
! VAR IndexType=Frequency
!
# Hz S MA R 50
9000.000 +9.6002967718E-002 -1.5777034537E+002  +1.5981617942E-002 -1.2999184129E+002  +4.6847256569E-003 +1.2832647538E+002  +2.5933933101E-001 -1.4385275681E+002 
134145.181 +1.1014146573E-001 +1.6975061157E+002  +5.0786653760E-004 -2.9385948353E+001  +7.4110335274E-004 +1.4547777248E+001  +2.4081757466E-001 -1.7031238631E+002 
259290.363 +1.1226849288E-001 +1.6986289476E+002  +7.8906705167E-004 +1.4931509119E+002  +8.3419655166E-004 -7.0379838372E+001  +2.4165814892E-001 -1.6848757226E+002 
384435.544 +1.1430616851E-001 +1.6963559929E+002  +3.0718398977E-004 -4.3221208597E+001  +2.9274981637E-004 -3.4266238967E+001  +2.4194336142E-001 -1.6961847755E+002 
509580.726 +1.1470511662E-001 +1.7110087237E+002  +1.3487839640E-003 -1.6608228304E+002  +7.1519473393E-004 -6.9023423160E+001  +2.5051496797E-001 -1.6658295016E+002 
634725.907 +1.1672881085E-001 +1.7085499882E+002  +7.5033045406E-004 -1.0408592390E+002  +3.7706610560E-004 +4.1980880510E+001  +2.5710503161E-001 -1.6466997242E+002 
759871.089 +1.1891323120E-001 +1.7096449069E+002  +4.9464518547E-004 +1.0680734064E+002  +5.5000464412E-004 +1.1888818085E+002  +2.4861102855E-001 -1.6705199593E+002 
885016.270 +1.1933713075E-001 +1.6858088956E+002  +3.5842068520E-004 -2.9020006517E+001  +5.1777332428E-004 -8.7111697649E+001  +2.5371670148E-001 -1.6499302052E+002 
1010161.452 +1.1590651236E-001 +1.6968799853E+002  +1.8130102084E-003 +1.6777171788E+002  +1.2749151539E-003 +1.0322247503E+002  +2.1109500589E-001 -1.6377032738E+002 
1135306.633 +1.1896142136E-001 +1.7055909015E+002  +1.0792844091E-003 -1.6890731829E+002  +1.6474674743E-004 +9.6908037117E+001  +1.8129769434E-001 -1.6876099027E+002 
1260451.815 +1.1942282286E-001 +1.7036836744E+002  +5.8737267489E-004 -8.5178523830E+001  +2.5881281249E-003 -7.3262988400E+001  +2.2699267891E-001 -1.5856611313E+002 
1385596.996 +1.2675383401E-001 +1.7244231138E+002  +6.2854539532E-004 +7.5424928731E+001  +1.4047863370E-004 -1.1788850993E+001  +2.8267246204E-001 -1.5834622558E+002 
1510742.178 +1.2423925104E-001 +1.7309545733E+002  +4.8637744801E-004 +1.1368350540E+002  +7.4161015635E-004 +1.0233062495E+002  +2.6470983124E-001 -1.5862229848E+002 
1635887.359 +1.2587259158E-001 +1.7009610980E+002  +2.1990020241E-003 -1.2360423943E+002  +1.3524698817E-003 -8.8749742081E+001  +2.4816806310E-001 -1.5714741979E+002 
1761032.541 +1.2715932240E-001 +1.7090869962E+002  +1.6748114160E-003 -6.7202907160E+001  +6.9821374412E-004 -1.1544126353E+002  +2.2972750080E-001 -1.5898344926E+002 
1886177.722 +1.2958123457E-001 +1.6927754358E+002  +1.3306628901E-003 +1.0707828136E+002  +1.2456234214E-003 +1.1378806996E+002  +2.3077470596E-001 -1.5956510193E+002 
2011322.904 +1.2629488714E-001 +1.6649914610E+002  +3.0194684200E-003 +4.6484459209E+001  +1.4143142509E-003 -1.6062090320E+002  +1.6144359440E-001 -1.7292317766E+002 
2136468.085 +1.2619368919E-001 +1.6366474454E+002  +6.5207463918E-004 +4.0077536411E+001  +6.8100130099E-003 -1.2643002287E+002  +2.5889834288E-001 +1.6812150092E+002 
2261613.267 +1.2907366933E-001 +1.6388770028E+002  +1.2300959430E-003 +1.5997532710E+002  +3.1466228319E-003 +6.9408428356E+001  +1.8990628869E-001 -1.6303799383E+002 
2386758.448 +1.3610418540E-001 +1.6695894231E+002  +7.8739571406E-004 +1.4975742890E+001  +3.9335399084E-003 -1.2221613127E+002  +1.9863320298E-001 +1.7076339190E+002 
2511903.630 +1.1971776950E-001 +1.6334564464E+002  +5.2464728795E-003 +1.3465595264E+002  +3.7574956357E-003 -7.7104104771E+001  +1.7125362155E-001 +1.7611724438E+002 
2637048.811 +1.2143416844E-001 +1.6415057899E+002  +1.5299533465E-002 -1.1033292794E+002  +2.2590649498E-002 -4.8280553029E+001  +2.0434838054E-001 +2.1294367322E+001 
2762193.992 +1.0140428119E-001 +1.7808337211E+002  +2.3733950054E-002 -1.4664410483E+002  +5.4335364753E-003 +6.2876053995E+001  +7.4586347105E-001 -1.4088554421E+002 
2887339.174 +1.1325830850E-001 -1.7689384696E+002  +4.1866056343E-002 +6.4310612529E-001  +2.1318370538E-002 +1.3090294341E+002  +1.2746603188E+000 -7.4317662118E+001 
3012484.355 +1.2814631564E-001 +1.7332133764E+002  +4.9920427202E-003 -1.5224307539E+001  +1.9317611849E-003 -3.1206370401E+001  +3.8118771300E-001 -9.8992163653E+001 
3137629.537 +1.3499109470E-001 +1.6652670170E+002  +9.2907685904E-003 +7.1308089479E+001  +4.0177333665E-003 +6.1165231933E+001  +4.7778403705E-001 -7.7952798117E+001 
3262774.718 +1.1610013823E-001 +1.5558145467E+002  +1.1138131902E-002 +1.2767150949E+002  +7.8568623188E-003 -8.0787494039E+001  +6.1295165669E-001 -1.9149329815E+001 
3387919.900 +9.7625346505E-002 +1.6627502664E+002  +4.1601666492E-003 -4.0792505166E+001  +1.6326434926E-002 +1.2776529528E+002  +2.7401239391E-001 +1.0234443341E+002 
3513065.081 +1.3884458106E-001 +1.4652342360E+002  +1.2300942753E-002 +6.0804174913E+000  +2.3045609417E-002 +3.6684825617E+001  +2.7596915619E-001 +1.2240957969E+002 
3638210.263 +1.8435641485E-001 +1.4827891497E+002  +2.8290989361E-003 +1.5651869454E+002  +1.3300198278E-002 +1.2063336153E+002  +4.5957196351E-001 +5.4135316362E+001 
3763355.444 +1.7126167003E-001 +1.4123476061E+002  +6.9624379350E-003 -1.1896093202E+002  +1.7889087945E-002 +1.4473519089E+002  +6.3664860890E-001 +1.5733519688E+002 
3888500.626 +1.7015796115E-001 +1.4384201867E+002  +1.3593211596E-002 -1.7899846425E+002  +1.0262789617E-002 +8.6800343828E+001  +5.3150754737E-001 +1.1909085567E+002 
4013645.807 +1.4947320361E-001 +1.4219626617E+002  +6.8816924783E-003 +1.6029020410E+002  +4.8864581802E-003 +1.7478744765E+002  +5.5370544012E-001 +1.3218868545E+002 
4138790.989 +1.4871350433E-001 +1.4337736957E+002  +7.9166702306E-003 +1.6288863451E+001  +6.7027848529E-003 +1.2518886304E+002  +4.6136173784E-001 +1.5509649771E+002 
4263936.170 +1.4278734583E-001 +1.3823768125E+002  +9.5981726706E-003 -1.7070017280E+002  +1.6771793683E-002 +2.3816645908E+001  +4.9194276791E-001 +1.3408903772E+002 
4389081.352 +2.0358268350E-001 +1.3845512922E+002  +2.0544591885E-002 +1.3647448970E+002  +5.7859816762E-003 +1.5227589088E+002  +8.2477703847E-001 +1.0878925136E+002 
4514226.533 +2.1440425448E-001 +1.4333978770E+002  +7.1268534474E-003 +1.1018856075E+002  +7.9043278872E-003 -6.1086906334E+001  +9.2256540451E-001 +1.2856446677E+002 
4639371.715 +2.1300310478E-001 +1.3611841881E+002  +8.5232408289E-003 +1.7908885923E+002  +1.5664494087E-002 +1.2141572847E+002  +9.3826246624E-001 +1.0518525807E+002 
4764516.896 +2.8050933319E-001 +1.1361960137E+002  +2.6164960114E-002 -1.0010771840E+002  +2.2667141306E-002 +1.4989391596E+002  +1.4661295532E+000 +1.4923991844E+002 
4889662.078 +4.8213850485E-001 +1.2282384066E+002  +2.2937449321E-002 +1.1739082435E+002  +2.2489124348E-003 -6.0857429223E+001  +1.4102025233E+000 -3.7100206292E+001 
5014807.259 +4.4885587648E-001 +1.3408373387E+002  +7.6128323894E-002 -5.6876485792E+001  +1.2324868882E-001 -3.0798844940E-001  +7.5943949665E+000 +1.3935577449E+002 
5139952.441 +4.8222418323E-001 +1.2965709335E+002  +2.0112272108E-002 +7.9508957883E+001  +6.0902086282E-002 -1.3039703094E+002  +1.4544286680E+000 +7.2740677114E+001 
5265097.622 +4.8429982281E-001 +1.3021604703E+002  +3.4671113994E-002 +1.2921023594E+002  +5.6489435596E-003 +2.8585193551E+001  +5.6448272627E+000 +4.9647467080E+001 
5390242.804 +4.1820501770E-001 +1.1906462607E+002  +4.7079540436E-002 -1.5623326881E+002  +3.5773031454E-002 +1.0667573057E+002  +2.9969329185E+000 +1.0289868782E+002 
5515387.985 +4.5635940496E-001 +1.2986526492E+002  +1.5204342415E-002 -1.4830437896E+002  +2.4102650668E-002 +1.6521695667E+002  +2.5863508304E+000 +9.7189557141E+001 
5640533.166 +5.1599954114E-001 +1.2392586036E+002  +1.6828505727E-002 +1.5272237484E+002  +1.1568234264E-002 -1.7815908249E+002  +1.7949359748E+000 +1.1722056370E+002 
5765678.348 +5.3670812874E-001 +1.1383856612E+002  +6.5371256047E-003 -1.2837514934E+002  +3.8146526651E-002 -5.3912735201E+001  +2.2441434784E+000 +8.7980895681E+001 
5890823.529 +5.5387080600E-001 +1.1444521673E+002  +3.0916161240E-002 +6.9638846817E+001  +2.5075174698E-002 +1.6236385428E+002  +2.0763879643E+000 +3.3976547120E+001 
6015968.711 +7.6733238945E-001 +1.1667561640E+002  +3.3542980825E-002 -1.5862199720E+002  +1.7721750171E-002 -1.2658650909E+002  +2.1921453671E+000 +5.6950996855E+001 
6141113.892 +6.3064537262E-001 +1.0579222398E+002  +4.6344629253E-002 +1.0284555416E+002  +3.5182295051E-002 +6.1673156746E+001  +2.4960212717E+000 +6.0710245380E+001 
6266259.074 +9.0404069904E-001 +9.4395582523E+001  +3.4577685997E-002 -1.5159793941E+002  +5.5714273588E-002 +5.7849081630E+001  +1.9871256490E+000 +2.2945346634E+001 
6391404.255 +1.1590000236E+000 +1.0289092107E+002  +7.9760032382E-003 -1.1777861619E+002  +1.9668174836E-002 +6.5539262195E+001  +1.9265886857E+000 +1.7375727989E+001 
6516549.437 +1.1995415761E+000 +8.8115888966E+001  +1.2836386920E-002 +1.5677287784E+002  +1.8328301045E-002 +1.8416100095E+001  +1.7667413681E+000 +6.4996057751E+000 
6641694.618 +1.4100131042E+000 +7.7484762111E+001  +1.6750379488E-002 +1.2295505834E+002  +2.5723685628E-002 -1.5109445057E+002  +1.6636683012E+000 -4.2460489554E-001 
6766839.800 +1.6014084666E+000 +5.4088134181E+001  +4.3758453395E-002 +1.3411522584E+002  +4.1818015084E-002 +9.4737113200E+001  +1.3573857078E+000 -5.8756615412E+000 
6891984.981 +1.4950039832E+000 +3.6224925828E+001  +2.1845533366E-002 +1.1511400549E+002  +2.0090294898E-002 +5.3965966896E+001  +1.3652072002E+000 -2.3466631630E+000 
7017130.163 +1.8645973186E+000 +2.0825329137E+001  +1.8434930044E-002 +7.5282082981E+001  +1.1363030366E-002 +1.3202994441E+002  +1.3784413368E+000 -4.3085265176E+000 
7142275.344 +1.8370493994E+000 +5.7682927457E+000  +2.3732561100E-002 +8.9061636879E+001  +9.7258735653E-003 -1.0755041028E+002  +1.4327087304E+000 -1.3307624460E+001 
7267420.526 +1.6705260068E+000 +1.1723948972E+001  +9.4732073785E-003 +2.3470676178E+001  +1.2420051063E-002 +6.9770735257E+001  +1.3513501833E+000 -1.6528248282E+001 
7392565.707 +1.1014095912E+000 +3.0918678026E+000  +9.0371011472E-003 +9.4396058498E+001  +1.4980288103E-003 -1.4383274207E+002  +1.4383930423E+000 -5.3787932167E+000 
7517710.889 +1.1024788227E+000 -4.3183250783E-001  +5.0042911258E-003 +9.6235634956E+001  +1.0512027487E-002 +1.6832944407E+002  +1.3343630195E+000 +5.5243913963E-001 
7642856.070 +1.0691235980E+000 +9.7585144406E-001  +1.2529427002E-002 +8.7180770114E+001  +9.5778266765E-003 +5.1094534747E+001  +1.1176448926E+000 -6.6782488307E+000 
7768001.252 +9.1358933574E-001 -2.1643618019E+000  +1.2068071221E-002 +7.3659402495E+001  +8.7039619571E-003 +1.0272962375E+002  +1.0700702730E+000 -5.7039105821E+000 
7893146.433 +9.0637134973E-001 +8.5832296167E+000  +8.1970691634E-003 +9.7748255295E+001  +8.7640409130E-003 +5.0720072196E+001  +8.7943661517E-001 -1.1935801776E+001 
8018291.615 +7.2126652471E-001 +2.5583652655E+000  +6.3287462076E-003 +5.0938312524E+001  +8.7621892668E-003 +7.3517664673E+001  +8.9307013881E-001 -5.3521048358E+000 
8143436.796 +7.6089390433E-001 +5.1049904377E+000  +4.5926939034E-003 +3.9083219636E+001  +5.1339276386E-003 +4.4838674503E+001  +8.9132491747E-001 +2.8310217344E+000 
8268581.977 +7.6471777391E-001 +8.1977452733E+000  +1.5464556038E-003 +1.7736944725E+001  +6.0532553212E-003 +1.1689918201E+002  +8.2500747667E-001 +4.1709290217E+000 
8393727.159 +6.9332925079E-001 +6.4040952586E-001  +7.1895410439E-003 +8.2986410211E+001  +7.3408301151E-003 +7.7154534141E+001  +7.8646886372E-001 -6.6510651316E-001 
8518872.340 +6.2096408810E-001 +1.1649199620E+001  +4.3079748153E-003 +7.0664337039E+001  +8.2548468451E-003 +8.9728777159E+001  +6.6499064474E-001 -1.6812315853E+000 
8644017.522 +6.2958141503E-001 +5.3416476793E+000  +3.1959722460E-003 +4.5361610029E+001  +3.2612761129E-003 +2.3145758465E+001  +7.1280928671E-001 -2.0899951306E+000 
8769162.703 +6.8171528864E-001 +1.0171510822E+001  +4.0285226642E-003 +9.6734626605E+001  +7.9634714936E-003 +5.5273592829E+001  +6.4225610657E-001 +3.5840351429E+000 
8894307.885 +6.1636018285E-001 +1.3099960831E+001  +5.8319213987E-003 +5.5710534476E+001  +6.0574112143E-003 +1.1984864055E+002  +6.8197680702E-001 +1.9043465405E-001 
9019453.066 +5.8704644785E-001 +2.4026112574E+000  +4.1660563617E-003 +3.8833344264E+001  +4.7722802364E-003 +1.1994402715E+002  +5.6445332219E-001 -4.0275710070E+000 
9144598.248 +6.0258513573E-001 +4.7463875718E+000  +6.3504664325E-003 +6.5474911054E+001  +5.2202092891E-003 +4.9974508477E+001  +6.3705267811E-001 +1.5425825029E+000 
9269743.429 +5.2782366559E-001 +5.2258715609E+000  +3.4334702138E-003 +7.9733480871E+001  +3.3908426585E-003 +1.2513042262E+002  +5.8229523607E-001 -1.4662962542E+000 
9394888.611 +5.7192169783E-001 +5.5396189657E+000  +1.9767572022E-003 +1.0245170700E+002  +7.1010460205E-003 +4.6365838669E+001  +6.1414003559E-001 -7.8173475589E+000 
9520033.792 +5.4534450203E-001 -3.2424172555E-001  +5.6887652674E-003 +6.9791423940E+001  +6.0117922768E-003 +1.1509023186E+002  +6.1851361622E-001 -1.9558773757E+000 
9645178.974 +5.3512970676E-001 +4.0968802352E+000  +4.4123859283E-003 +7.4676128944E+001  +2.6353044514E-003 +1.0071333952E+002  +5.9007521690E-001 -5.1622938132E+000 
9770324.155 +4.9781597575E-001 -9.9734693828E-002  +4.0749905780E-003 +7.6112971685E+001  +3.9022057431E-003 +1.0535822884E+002  +5.7477030463E-001 -3.0671502270E+000 
9895469.337 +5.7973503103E-001 -2.1018588273E+000  +5.0628338478E-003 +1.1962799106E+002  +1.6007577583E-003 +8.6342645247E+001  +5.4045524460E-001 -1.0897526642E+001 
10020614.518 +5.5487162852E-001 +1.3584155204E-001  +5.3394960190E-003 +6.4578103174E+001  +7.2320796080E-003 +1.2339031745E+002  +6.0276874019E-001 -4.0266432256E+000 
10145759.700 +5.5906419641E-001 +4.4648144356E-001  +4.2116044727E-003 +9.3521538397E+001  +4.6246549615E-003 +7.3260906272E+001  +5.8455891305E-001 -3.5542812095E+000 
10270904.881 +5.5210115037E-001 +2.9190128481E+000  +5.0009463488E-003 +7.0194276466E+001  +2.6482292373E-003 +5.9908816122E+001  +5.9134006994E-001 -3.2274889678E+000 
10396050.063 +6.3129704669E-001 +6.0797957953E+000  +4.2598788898E-003 +6.4541232285E+001  +3.2160601845E-003 +1.4678208506E+002  +5.6248183850E-001 +1.4926801519E+000 
10521195.244 +5.4864248343E-001 +3.8688463775E+000  +2.6753265239E-003 +1.1287560914E+002  +4.1691284435E-003 +1.1535211787E+002  +6.0034528627E-001 -1.5392708925E+000 
10646340.426 +5.2856595271E-001 +7.4064258904E+000  +4.5839191946E-003 +7.3966378160E+001  +5.2955063005E-003 +8.7532723095E+001  +5.8405662475E-001 +1.4737089481E+000 
10771485.607 +6.0033413781E-001 +6.5598591527E+000  +4.4917603500E-003 +4.3650451738E+001  +5.1000207734E-003 +9.5372128761E+001  +5.7649293835E-001 -1.6328872719E+000 
10896630.788 +5.7449999883E-001 +4.4508837624E+000  +3.8291631184E-003 +9.3139194879E+001  +6.1049139005E-003 +9.2000800350E+001  +5.8824703317E-001 -1.9901738340E-001 
11021775.970 +5.6491715631E-001 +5.9619474612E+000  +2.8990955864E-003 +6.7956765490E+001  +1.7930567853E-003 +1.3588585801E+002  +5.8379433416E-001 +1.9842038021E+000 
11146921.151 +6.2134051213E-001 +6.0476207413E+000  +6.4732898747E-003 +7.5450198044E+001  +5.8931245986E-003 +8.8029616426E+001  +6.4095817568E-001 -2.1121275449E+000 
11272066.333 +5.8945888184E-001 +4.6848792181E+000  +7.1495651931E-003 +6.5063652577E+001  +3.0154769233E-003 +7.3452190069E+001  +6.4046340333E-001 +1.5605840440E-001 
11397211.514 +6.0678181211E-001 +7.4280475210E+000  +4.2095757654E-003 +6.9917537963E+001  +3.8173118684E-003 +9.4680717707E+001  +6.2586965810E-001 +4.5710978897E+000 
11522356.696 +6.2664606080E-001 +7.6517033595E+000  +5.5035395114E-003 +7.8125796061E+001  +5.2461501020E-003 +1.0119690807E+002  +6.4724323195E-001 +1.9595420035E-001 
11647501.877 +6.2439308670E-001 +5.6650300412E+000  +4.2364306651E-003 +8.3951715378E+001  +5.0380691960E-003 +9.7696636101E+001  +6.4420158070E-001 +4.0997242805E+000 
11772647.059 +6.3556784189E-001 +6.1877661374E+000  +3.9731006093E-003 +8.7688144468E+001  +4.2425534431E-003 +1.0469922488E+002  +6.7582586486E-001 +2.8050569025E+000 
11897792.240 +6.5092886205E-001 +6.0384735583E+000  +2.6789139635E-003 +5.8452169931E+001  +6.3362843925E-003 +9.8183853502E+001  +6.7500002732E-001 +2.0742400675E+000 
12022937.422 +6.7497539891E-001 +3.1920094335E+000  +5.0798604124E-003 +7.5969817486E+001  +5.9657683644E-003 +8.4700752863E+001  +7.0873947607E-001 +1.6989981235E-001 
12148082.603 +6.8524778553E-001 +5.4030714607E+000  +5.3379003709E-003 +7.5645375110E+001  +6.6317297385E-003 +1.0626250241E+002  +7.1747498387E-001 +8.6026633406E-001 
12273227.785 +7.1005292697E-001 +5.2932731725E+000  +6.3767428553E-003 +8.3752121985E+001  +5.3813213492E-003 +9.3801100368E+001  +6.8918443907E-001 +1.0431244965E+000 
12398372.966 +7.0595025544E-001 +3.2822704063E+000  +4.8259643029E-003 +8.2773814009E+001  +6.2598838128E-003 +9.6958119644E+001  +7.5391794584E-001 +8.3780658849E-001 
12523518.148 +7.2645477100E-001 +1.5567748027E+000  +5.2570351047E-003 +9.2813983988E+001  +5.9014081515E-003 +1.0127742713E+002  +7.5365884919E-001 +2.6012235058E-002 
12648663.329 +7.3516901397E-001 +1.9494125788E+000  +5.6430211193E-003 +9.1131881159E+001  +5.5039163493E-003 +1.0085414800E+002  +7.4001174314E-001 +4.3925925835E-001 
12773808.511 +7.6566331339E-001 +2.3501599150E+000  +5.6623241805E-003 +6.2824755696E+001  +8.0102396059E-003 +8.3054971410E+001  +7.6206915200E-001 -3.0225910874E+000 
12898953.692 +7.8002797136E-001 +2.2609458344E+000  +5.3019520267E-003 +7.3436321455E+001  +5.6717087723E-003 +1.0204362922E+002  +7.6415753355E-001 -1.4353985975E+000 
13024098.874 +8.0041452378E-001 +2.2403387939E+000  +6.3315224839E-003 +8.3183004753E+001  +6.6847904524E-003 +8.2518244002E+001  +7.8536107108E-001 -1.3496345365E+000 
13149244.055 +7.9571569289E-001 -2.6801323313E-001  +5.6215147165E-003 +8.8388618446E+001  +5.2090371097E-003 +1.0139642397E+002  +8.2113202536E-001 -2.6712347039E+000 
13274389.237 +8.2768269972E-001 +1.0062445348E+000  +6.8695517814E-003 +8.5024016316E+001  +7.4932334084E-003 +8.3963838887E+001  +8.3181547321E-001 -2.5217679168E+000 
13399534.418 +8.3744345603E-001 +3.7922722238E-001  +7.7342130759E-003 +7.1688588426E+001  +8.4072400317E-003 +8.6918662253E+001  +8.6786307926E-001 -1.8197726176E+000 
13524679.599 +8.4398582457E-001 -1.6696143477E+000  +6.7739189574E-003 +8.4175284516E+001  +5.3691049089E-003 +9.8204015224E+001  +8.6704633832E-001 -1.6079069392E+000 
13649824.781 +8.7851564123E-001 -4.5101510047E+000  +7.2770546509E-003 +7.8447429640E+001  +5.8567141140E-003 +9.6365606413E+001  +9.1295566829E-001 -4.8858728989E+000 
13774969.962 +8.9312929683E-001 -3.0561539569E+000  +7.0420051700E-003 +7.9348176381E+001  +7.8711798950E-003 +7.8948050273E+001  +8.9032068474E-001 -3.3288591613E+000 
13900115.144 +8.9725720655E-001 -2.8278470276E+000  +8.2471768743E-003 +8.6914094957E+001  +6.4246649001E-003 +8.0126986902E+001  +9.0828025727E-001 -4.7229873853E+000 
14025260.325 +9.3656411811E-001 -4.0423051806E+000  +6.0710689384E-003 +7.9117616367E+001  +7.6492452487E-003 +9.1372399753E+001  +9.2810995728E-001 -4.2303211354E+000 
14150405.507 +9.3420479007E-001 -3.2914954483E+000  +7.8873198148E-003 +9.1878467480E+001  +7.4505237323E-003 +8.1518480142E+001  +9.5378504489E-001 -4.1676754402E+000 
14275550.688 +9.3974718216E-001 -4.2822880715E+000  +7.9639987216E-003 +8.2369353092E+001  +7.9069425804E-003 +7.0724636008E+001  +9.6434370436E-001 -3.4677450071E+000 
14400695.870 +9.7689060225E-001 -5.7371152127E+000  +7.0576571751E-003 +8.9662221727E+001  +6.7543304522E-003 +8.9956401516E+001  +9.8793941557E-001 -3.6268343258E+000 
