!  2-Port S-parameters saved by WinCal
! VAR MeasName=S-Parameters (CALIBRATED_DATA) read from VNA (P5004A)
! VAR MeasDate=28/08/2024 10:20:34
! VAR NAME=S2_r4c9_SET1_9k-100M_3
! VAR FILENAME=S2_r4c9_SET1_9k-100M_3.S2P
! VAR DATE=28/08/2024 10:20:34
! VAR PHYS_PORTS=1,2
! VAR ObjTypeName=DATASET
! VAR IndexType=Frequency
!
# Hz S MA R 50
9000.000 +1.0059896134E-001 -1.6656738245E+002  +1.4145439555E-002 -1.7558744754E+002  +3.0747214248E-002 -1.0282717322E+002  +3.4178728679E-001 -1.2282835613E+002 
134145.181 +1.1104120814E-001 +1.6950918360E+002  +3.8956357202E-004 +7.9900322446E+001  +3.5995311846E-005 -1.3717555252E+002  +2.3823368206E-001 -1.7087662602E+002 
259290.363 +1.1201381451E-001 +1.7020726748E+002  +2.4483936778E-004 +1.4602939717E+002  +4.4546784200E-004 +1.7705224236E+002  +2.5446909368E-001 -1.6984850102E+002 
384435.544 +1.1461892629E-001 +1.7071807122E+002  +2.6756233425E-005 +4.3316058862E+001  +8.9431404128E-004 -1.4675303164E+002  +2.4662325407E-001 -1.6776638500E+002 
509580.726 +1.1463233602E-001 +1.7201215179E+002  +1.0980069921E-003 -1.3241405356E+002  +5.5855436709E-004 +1.7043991486E+002  +2.4327688089E-001 -1.6292452843E+002 
634725.907 +1.1658904730E-001 +1.7077376405E+002  +6.6473935343E-004 -5.3822357409E+001  +7.7081389973E-004 +5.6989841932E+001  +2.4101248942E-001 -1.6416829380E+002 
759871.089 +1.1937905515E-001 +1.7196518542E+002  +7.9206729125E-004 +1.5603633535E+002  +1.8635120426E-004 +4.3168246126E+001  +2.4627656341E-001 -1.6699676814E+002 
885016.270 +1.2044316151E-001 +1.6921652257E+002  +2.5901251671E-004 +2.0865138024E+001  +2.8210077688E-004 +5.8720087006E+001  +2.4510384510E-001 -1.6771956308E+002 
1010161.452 +1.1764284433E-001 +1.6965411472E+002  +1.2349781652E-003 +2.6667787575E+000  +4.7684016921E-004 +3.6424762606E+001  +1.9598062612E-001 -1.7111192203E+002 
1135306.633 +1.1874206411E-001 +1.6833328784E+002  +2.7506087384E-003 +9.9834411316E+001  +1.7942872660E-003 -1.7489632352E+002  +1.9370484301E-001 -1.6481008193E+002 
1260451.815 +1.2033953421E-001 +1.7084618275E+002  +3.2478103870E-004 +9.5742371593E+001  +5.7567005843E-004 -1.4417713332E+002  +2.2322796091E-001 -1.5790148912E+002 
1385596.996 +1.2670013521E-001 +1.7147499424E+002  +8.7131845599E-004 -3.1350537064E+001  +6.3996926630E-004 +1.2245244101E+002  +2.6443792814E-001 -1.6018649411E+002 
1510742.178 +1.2776679123E-001 +1.7176294383E+002  +2.3843595185E-004 +1.4686511948E+001  +1.1299048456E-003 -1.5857410217E+002  +2.6509269319E-001 -1.5833237345E+002 
1635887.359 +1.3046670185E-001 +1.7141445539E+002  +1.3702269882E-003 +7.6103941776E+001  +9.7488516392E-004 -1.7771986279E+002  +2.5072974074E-001 -1.5750637394E+002 
1761032.541 +1.3167272010E-001 +1.6962872047E+002  +4.6084532780E-004 +5.5623401667E+001  +1.4050788285E-003 +5.7572735058E+001  +2.2227221950E-001 -1.6015220367E+002 
1886177.722 +1.2912928782E-001 +1.6820075896E+002  +1.3923185401E-003 +1.3943489809E+002  +3.5670096176E-003 +1.3148696433E+002  +1.6424431949E-001 -1.6603735518E+002 
2011322.904 +1.2786835072E-001 +1.6762490752E+002  +1.2862685989E-003 +9.2233931673E+001  +2.0327797919E-003 -6.0993020701E+001  +2.2433208368E-001 -1.6068845278E+002 
2136468.085 +1.3080913569E-001 +1.6807642158E+002  +4.6989099949E-003 +3.9457019749E+001  +1.9462429729E-003 -6.0156180653E+001  +2.0347285023E-001 -1.5564610159E+002 
2261613.267 +1.2451589447E-001 +1.6251862749E+002  +4.3450047891E-003 -1.7461449192E+002  +2.9738449680E-003 -1.0640406525E+002  +1.3030411171E-001 +1.5306612000E+002 
2386758.448 +1.2876854322E-001 +1.6470739637E+002  +5.2030455829E-003 +7.9995736272E+001  +2.3833684442E-003 +4.3749677277E+001  +1.2648456538E-001 +1.5751697371E+002 
2511903.630 +1.3513799270E-001 +1.6073293527E+002  +2.7399051449E-003 +5.1884692193E+001  +2.4766554633E-003 -4.6038877561E+001  +1.7358858933E-001 -1.7953295093E+002 
2637048.811 +1.3463003304E-001 +1.6669784398E+002  +8.9417186967E-003 +4.5971692632E+001  +2.1617643057E-003 +1.5572047170E+002  +1.9431516706E-001 +1.5642991854E+002 
2762193.992 +1.1331101013E-001 +1.5731161258E+002  +3.3693387520E-003 +3.0817851235E+001  +6.3634989458E-003 -6.6640287467E+001  +4.1782222851E-002 +5.2827382976E+001 
2887339.174 +1.3309614043E-001 +1.7503633630E+002  +7.1458761085E-003 -1.1723607520E+002  +1.3413185002E-002 -1.3742284195E+002  +4.2348666403E-001 -1.2294913222E+002 
3012484.355 +1.3125721909E-001 -1.7798108777E+002  +1.2112103440E-002 +1.3681061944E+001  +3.6690138065E-003 -1.2086354171E+002  +2.8355977679E-001 -3.8494513411E+001 
3137629.537 +1.2735835166E-001 +1.7091812997E+002  +6.9335065791E-003 -3.2783606922E+001  +1.1429750702E-002 -8.1882930924E+001  +1.2779879518E-001 -9.9394313628E+001 
3262774.718 +7.0762490807E-002 +1.6479420112E+002  +2.5539918787E-002 -2.9080865923E+001  +1.9093772748E-002 -9.1198931684E+001  +1.9409178666E-001 -2.4845225707E+001 
3387919.900 +1.4285668489E-001 +1.5106406522E+002  +1.6239042419E-002 +7.0084669396E+001  +1.0688322946E-002 -7.5675009825E+001  +1.3306302274E-001 -6.1059680327E+001 
3513065.081 +1.2663543683E-001 +1.5120273737E+002  +2.0837167025E-002 +1.1297719562E+002  +2.8130513479E-002 -5.6281254423E+001  +3.5549072818E-001 +7.4850166651E+001 
3638210.263 +1.6935591514E-001 +1.4467956680E+002  +3.2094610856E-002 +1.2516132228E+002  +2.2622257550E-002 +1.8372290822E+001  +5.9044020072E-001 +1.2863227097E+002 
3763355.444 +1.3708725616E-001 +1.1717657060E+002  +1.7687693766E-002 +1.0581654573E+002  +2.0044585963E-002 +7.8694983197E+000  +4.8457287454E-001 +1.4730385238E+002 
3888500.626 +1.5073813846E-001 +1.4601436675E+002  +1.1915709134E-002 +1.3744188861E+002  +1.1213077894E-002 +7.6485413759E+001  +5.3722113028E-001 +1.4316867513E+002 
4013645.807 +1.7539987126E-001 +1.5174630262E+002  +1.2668839168E-002 +6.9736090800E+001  +1.6686452492E-002 +7.3997331945E+001  +6.5428791398E-001 +1.2888460338E+002 
4138790.989 +1.7762625852E-001 +1.4099267427E+002  +6.6368290571E-003 +5.9779595479E+001  +1.0492427885E-002 -3.9921459808E+001  +2.9193565437E-001 +1.2887407745E+002 
4263936.170 +1.8652698188E-001 +1.4305123238E+002  +1.3347541907E-002 +1.0806275706E+002  +2.2491829627E-002 +4.9548404537E+001  +4.1161694767E-001 +1.0359753336E+002 
4389081.352 +2.1318094145E-001 +1.4335743210E+002  +1.3567461373E-002 +1.6849854405E+002  +1.2968635454E-002 +5.2412716495E+001  +6.9606444826E-001 +1.3789139909E+002 
4514226.533 +2.2211165858E-001 +1.3905109840E+002  +3.0562243402E-002 +8.8370965776E+001  +3.3863010739E-002 -3.8904408149E+001  +6.4937573932E-001 +6.2275029627E+001 
4639371.715 +2.1775997906E-001 +1.3163740092E+002  +3.5939167315E-002 +1.4086776016E+002  +3.3323238171E-002 +9.7837844219E+001  +1.7711257414E+000 +1.4331428333E+002 
4764516.896 +3.5703065262E-001 +1.2844600429E+002  +4.8563675811E-002 +1.4752560366E+002  +1.1507191990E-002 +9.8372685424E+001  +1.1634487999E+000 +8.3687944800E+001 
4889662.078 +4.9834305155E-001 +1.3345554139E+002  +6.0987762185E-002 -8.0214601147E+001  +7.4887967973E-002 -1.0172659872E+002  +3.4685158735E+000 -1.5877659719E+002 
5014807.259 +5.6961825882E-001 +1.2232117681E+002  +1.3824866998E-001 +1.5632374764E+002  +1.6271116945E-001 +1.2872396135E+002  +2.8336631972E+000 +9.2886928834E+001 
5139952.441 +4.1460360554E-001 +1.2197880539E+002  +1.8005436522E-001 +1.6194683221E+002  +8.7100692146E-002 +1.1438433697E+002  +6.6553821318E+000 +1.1152009329E+002 
5265097.622 +4.1202169568E-001 +1.3356273088E+002  +5.7741281389E-002 +1.1121940492E+002  +7.2006805898E-002 +8.3378557632E+001  +2.8668431079E+000 +1.0152537606E+002 
5390242.804 +4.5077541828E-001 +1.2705238668E+002  +1.9180661060E-002 +7.8378786285E+001  +6.2547760554E-002 +3.0136927706E+001  +1.8530860593E+000 +2.7204029856E+001 
5515387.985 +4.3842527164E-001 +1.2773863059E+002  +3.7453617376E-002 +1.1804237342E+002  +2.7185071421E-002 +9.5030813032E+001  +1.8488689770E+000 +1.0247911695E+002 
5640533.166 +5.0807755278E-001 +1.2723938863E+002  +2.0656736722E-002 +1.0656968916E+002  +2.3464379247E-002 +1.0339540864E+002  +2.3311136315E+000 +7.5676681277E+001 
5765678.348 +4.4420344909E-001 +1.2275212316E+002  +3.7849233762E-002 +1.1038547584E+002  +7.2555370161E-002 +7.3274809228E+001  +2.1551944808E+000 +1.0079900924E+002 
5890823.529 +5.5229816518E-001 +1.2039653869E+002  +4.3672685323E-002 +6.8774619769E+001  +2.2617751916E-002 +4.1021531434E+001  +1.3722860257E+000 +5.5913158049E+001 
6015968.711 +5.9813486415E-001 +1.1199071667E+002  +7.2958369572E-002 +1.1002539350E+002  +9.6812755904E-002 +3.4394263191E+001  +3.6840399922E+000 +5.8429884843E+001 
6141113.892 +7.4513575611E-001 +1.0943079785E+002  +6.3354601516E-002 +8.4593582800E+001  +5.8979006346E-002 +7.6149919839E+001  +2.5835977184E+000 +4.9964054219E+001 
6266259.074 +7.9411895934E-001 +1.0605721894E+002  +5.2261705719E-002 +4.5314192120E+001  +6.8605842044E-002 +3.5034510029E+001  +1.7723461906E+000 +1.6916611234E+001 
6391404.255 +1.3515184203E+000 +9.7590810940E+001  +9.7769238318E-002 +7.0161599535E+001  +1.0816017323E-001 +3.6360245077E+001  +2.3483415165E+000 +6.3165012750E+000 
6516549.437 +1.5327573921E+000 +7.1944071668E+001  +5.6485038580E-002 +2.5059239796E+001  +1.0141715781E-001 +5.5455573113E+000  +1.3482086987E+000 +1.7293649032E+001 
6641694.618 +1.5002541640E+000 +5.7382457037E+001  +6.5762275237E-002 +1.0561525043E+001  +5.3815357424E-002 +2.2448584811E+001  +1.4358851005E+000 -5.4189096331E+000 
6766839.800 +1.6564735533E+000 +5.6076425713E+001  +5.9723968715E-002 +4.9719966966E+001  +8.3225504667E-002 +9.7050236946E+000  +1.3273297937E+000 -5.5344426335E+000 
6891984.981 +2.2357044876E+000 +3.0731133208E+001  +5.3063489245E-002 -7.6151012368E+000  +5.0879912568E-002 +7.4901808882E+000  +1.2741156845E+000 -4.5597515118E+000 
7017130.163 +2.0183491877E+000 +1.8813282025E+001  +5.8237687525E-002 +8.1926323852E+000  +7.7139053048E-002 -6.9896642931E+000  +1.3253273328E+000 -1.7479965465E+001 
7142275.344 +1.8623318111E+000 +2.4716294910E+000  +5.5133347362E-002 +4.9942551120E+000  +6.3214699304E-002 -3.5894479525E+000  +1.1926408424E+000 +5.3950056075E-001 
7267420.526 +1.4800393185E+000 -2.8132232265E+000  +5.1988332549E-002 +3.1161469223E+000  +3.0141413820E-002 +3.4659480917E+001  +1.2568911161E+000 -1.0831429727E+001 
7392565.707 +1.2267028405E+000 -5.2668035344E+000  +2.4028488930E-002 +1.9461626782E+001  +2.8923249177E-002 +4.5712204140E+000  +1.3832683320E+000 -4.8268918941E+000 
7517710.889 +1.1894295333E+000 -1.6478136088E+000  +2.6620681215E-002 +7.0520450322E+000  +2.6333669652E-002 +2.3742849124E+001  +1.2258123666E+000 -6.9271807316E+000 
7642856.070 +1.0925065445E+000 +4.8349558214E+000  +3.2944898312E-002 -9.6310547597E+000  +2.7542233627E-002 +1.4203237163E+001  +1.0632247487E+000 -5.6067719377E+000 
7768001.252 +8.7767288996E-001 +2.8792607041E+000  +2.6985907065E-002 +1.3252866298E+000  +2.1872748142E-002 +1.7906665621E+001  +9.6149212386E-001 -3.5488904591E+000 
7893146.433 +8.6711864005E-001 +4.0988237444E+000  +2.7524294434E-002 +4.7002717557E+000  +1.9830189601E-002 +1.2010060620E+001  +8.5310524948E-001 -4.3992629916E+000 
8018291.615 +8.7539333432E-001 +7.2125745397E+000  +2.1041864136E-002 +6.6873475515E+000  +2.0865643265E-002 +1.6148212751E+001  +7.8573442004E-001 -5.2681050129E+000 
8143436.796 +7.9955421643E-001 +8.7768202778E+000  +1.7221577531E-002 -7.8481508155E+000  +1.6964043353E-002 +1.8880116674E+001  +7.8097710571E-001 -2.5393693142E+000 
8268581.977 +6.7372644479E-001 +8.5016665805E+000  +1.6113603289E-002 +9.1004053943E+000  +2.1983045237E-002 +1.3839766452E+001  +7.6061649176E-001 -8.1379934569E-001 
8393727.159 +6.7834033777E-001 +1.5758104815E+001  +1.9609293482E-002 +5.2488687350E+000  +1.9810664039E-002 +1.9293009041E+001  +7.3128873726E-001 -3.8794539190E+000 
8518872.340 +6.9049400931E-001 +8.8186998940E+000  +2.5501015936E-002 +1.2649324679E+001  +2.3544612393E-002 +1.1752972272E+001  +7.3251774563E-001 +2.8783416988E+000 
8644017.522 +6.0013199006E-001 +7.9278210634E+000  +1.8790066878E-002 -2.7338585893E+000  +2.5052385777E-002 +1.7239223784E+001  +7.2795114025E-001 -3.7067530922E+000 
8769162.703 +6.1376958662E-001 +7.2828673295E+000  +1.5124713860E-002 +6.0786093928E+000  +1.8110393592E-002 +1.0183125183E+001  +6.4918387101E-001 +1.7194382001E+000 
8894307.885 +5.9803992866E-001 +6.9416681990E+000  +1.8380091599E-002 +9.1866836781E+000  +2.0392550303E-002 +1.7117053379E+001  +6.4142140205E-001 +1.4831851418E+000 
9019453.066 +5.8261834646E-001 +8.3705355525E+000  +2.1424953189E-002 +1.7026634246E+001  +1.6338205054E-002 +2.6950909984E+001  +6.3362266107E-001 -7.1695406934E-001 
9144598.248 +5.7371196782E-001 +7.7988986127E+000  +1.8067708061E-002 +1.2721887308E+001  +1.7985291460E-002 +1.6756592141E+001  +5.5996188307E-001 -2.9462035714E+000 
9269743.429 +5.4134679570E-001 +2.4018686772E+000  +1.6899185648E-002 +1.5943148896E+000  +2.3015433192E-002 +1.8930628385E+001  +5.6505604212E-001 -1.6304758819E+000 
9394888.611 +5.0383201999E-001 +5.9849215716E+000  +1.6257352912E-002 -6.5589513488E-001  +2.0312530427E-002 +1.8849155794E+001  +5.9027913368E-001 -3.7267451048E+000 
9520033.792 +6.2403283032E-001 +1.9678827208E+000  +2.0261567748E-002 +2.7242207796E+000  +2.0701642926E-002 +2.4205083121E+001  +6.0813264873E-001 -5.3937628408E+000 
9645178.974 +5.2718296973E-001 +2.3172476812E+000  +2.2895018565E-002 +6.1105790664E+000  +2.0381226228E-002 +1.7759498935E+001  +5.8898023055E-001 +8.7593772326E-002 
9770324.155 +5.5999433791E-001 -1.7214062796E+000  +2.0622128474E-002 +2.0619887545E+000  +1.7432165823E-002 +2.4152261588E+001  +6.0408093180E-001 -9.5990495148E+000 
9895469.337 +5.2617073480E-001 +2.2334732277E-001  +1.9378979957E-002 +8.8660825317E+000  +1.9625654229E-002 +2.6058701135E+001  +5.2879517478E-001 -2.4291061268E+000 
10020614.518 +5.1056886430E-001 -3.9651039410E-001  +2.0619998800E-002 +7.6491949235E+000  +1.9682510127E-002 +2.3554694616E+001  +5.7803255873E-001 -6.0238420315E+000 
10145759.700 +5.1904837113E-001 +4.0472529341E+000  +2.0023425836E-002 -2.1019083999E+000  +1.8151818094E-002 +2.6679459326E+001  +5.6388945307E-001 -2.1646891707E+000 
10270904.881 +5.3472047127E-001 +3.7859304223E-001  +2.0442972770E-002 +4.1090746248E+000  +1.8478597303E-002 +1.9618487927E+001  +5.5071581307E-001 +2.2799363282E-001 
10396050.063 +5.2495679670E-001 +5.5057964432E+000  +2.0219341976E-002 +8.8242064495E+000  +1.7757958238E-002 +1.8292023303E+001  +5.9413978027E-001 -1.2126352136E+000 
10521195.244 +5.4776396331E-001 +8.7747663131E+000  +2.3595840147E-002 +2.5901584063E+000  +2.1641279417E-002 +2.2090546473E+001  +5.9672419180E-001 -6.8659373259E+000 
10646340.426 +5.7059030399E-001 +6.7785929560E+000  +2.1308942951E-002 +1.2293616082E+001  +2.1797352378E-002 +2.6427498428E+001  +5.9758142710E-001 +1.3463652604E-001 
10771485.607 +5.2383903280E-001 +6.5188890222E+000  +2.2280949993E-002 +1.1696889551E+001  +1.9335437311E-002 +1.6774318978E+001  +5.5587024839E-001 -5.4971204028E-001 
10896630.788 +5.7259780151E-001 +8.5241289261E+000  +1.9921979826E-002 +9.3367028669E+000  +2.1764445708E-002 +2.7783945281E+001  +5.7379061437E-001 +1.9608713588E+000 
11021775.970 +5.6841341984E-001 +6.4607881348E+000  +2.1009496323E-002 +8.6426736952E+000  +2.3657960537E-002 +2.0982343157E+001  +6.0343767503E-001 +2.1084576678E+000 
11146921.151 +5.7861097296E-001 +6.5356789390E+000  +1.9558347521E-002 +9.0864645524E+000  +2.3461108748E-002 +2.2481269618E+001  +6.0422478883E-001 +2.4123504664E+000 
11272066.333 +5.6428564616E-001 +8.6698665661E+000  +2.3029527414E-002 +1.7181329905E+001  +2.1497951513E-002 +1.9538012788E+001  +6.1294730657E-001 +3.1441053468E+000 
11397211.514 +5.8915804797E-001 +7.0484799194E+000  +2.2163192964E-002 +1.3533654149E+001  +2.2961769805E-002 +2.9307249847E+001  +6.3413499103E-001 +3.9286148577E+000 
11522356.696 +6.2981527202E-001 +6.9279711887E+000  +2.0081868292E-002 +6.7882519929E+000  +2.3185008966E-002 +2.6097883784E+001  +6.0679911287E-001 +2.9634190538E+000 
11647501.877 +6.1555228498E-001 +5.8045783040E+000  +2.1829728219E-002 +1.1394143355E+001  +2.2909452917E-002 +2.0602797815E+001  +6.2305800351E-001 +1.9479517268E+000 
11772647.059 +6.4566549285E-001 +8.0473135496E+000  +2.1163538072E-002 +7.9786638387E+000  +2.1845450674E-002 +2.3707900708E+001  +6.5688245356E-001 +3.9520918605E+000 
11897792.240 +6.4767612947E-001 +3.2533362269E+000  +2.2478240508E-002 +1.2726136448E+001  +2.3687848398E-002 +2.1904439272E+001  +6.3772936562E-001 -1.6144743817E+000 
12022937.422 +6.6928240023E-001 +5.7026141638E+000  +2.2931039051E-002 +1.0277132530E+001  +2.2646886015E-002 +2.4154721552E+001  +6.6547519119E-001 +4.7211422520E-001 
12148082.603 +6.7672564454E-001 +3.7094606163E+000  +2.3768037018E-002 +1.3868718531E+001  +2.4824406084E-002 +2.0496243768E+001  +6.3389131980E-001 +1.9807778416E+000 
12273227.785 +6.8976947463E-001 +3.3676241915E+000  +2.2668964476E-002 +1.5040082390E+001  +2.3541546090E-002 +2.5198596667E+001  +7.0173936288E-001 +1.6308424782E+000 
12398372.966 +7.0216053779E-001 +3.4985159959E+000  +2.3861266072E-002 +1.9305037164E+001  +2.2997396403E-002 +2.8518944558E+001  +6.9548708173E-001 -1.5422761692E+000 
12523518.148 +7.0455619459E-001 +2.9356732602E+000  +2.3462419816E-002 +1.8938077730E+001  +2.2835229594E-002 +2.1035939516E+001  +7.3132619050E-001 +1.0759779745E+000 
12648663.329 +7.2699122893E-001 +1.2160205562E+000  +2.3933030124E-002 +1.6240505831E+001  +2.5427862495E-002 +2.6469256089E+001  +7.4020645446E-001 +1.0925178450E+000 
12773808.511 +7.3569626669E-001 +1.3527852717E+000  +2.4184234819E-002 +1.7077023416E+001  +2.4072351616E-002 +2.4063900797E+001  +7.4733953870E-001 -1.5900480338E+000 
12898953.692 +7.5306700479E-001 +1.5792141408E+000  +2.4640445827E-002 +1.5807018790E+001  +2.4312554768E-002 +2.5676811954E+001  +7.8758201682E-001 -1.8730078543E+000 
13024098.874 +7.5674711759E-001 -9.0532543020E-002  +2.5721560076E-002 +1.6184714696E+001  +2.5207322603E-002 +2.2694076886E+001  +7.9399156761E-001 -1.1752057023E+000 
13149244.055 +7.9721105376E-001 -1.5411295037E+000  +2.5725630519E-002 +1.8759116495E+001  +2.5407089919E-002 +2.2224089689E+001  +7.8037997430E-001 -1.6020020511E+000 
13274389.237 +8.0535304632E-001 -8.8286227661E-001  +2.6027875625E-002 +1.5757860067E+001  +2.5520961739E-002 +2.3795088998E+001  +7.9286394350E-001 -1.8891059547E+000 
13399534.418 +8.3085699135E-001 -4.2540176974E-001  +2.5169313242E-002 +1.6508070841E+001  +2.6020648423E-002 +1.8879670970E+001  +8.3552668064E-001 -1.4610905921E+000 
13524679.599 +8.6395867674E-001 -5.3051246102E-001  +2.6761769566E-002 +1.6499008857E+001  +2.5927826395E-002 +1.9229736876E+001  +8.4272844509E-001 -2.3631532060E+000 
13649824.781 +8.7238134761E-001 -3.5902137080E+000  +2.6612201412E-002 +1.9866694551E+001  +2.5559722573E-002 +1.9845414648E+001  +8.7225820700E-001 -2.7096825661E+000 
13774969.962 +8.9024221072E-001 -3.6952402789E+000  +2.5676534995E-002 +1.8203276712E+001  +2.6216231798E-002 +1.7163856667E+001  +8.7278014786E-001 -3.5206576342E+000 
13900115.144 +9.0683094995E-001 -3.3507028694E+000  +2.7612679339E-002 +1.8511790124E+001  +2.6111394001E-002 +1.9512786686E+001  +8.9694450727E-001 -3.1617108366E+000 
14025260.325 +9.0447521155E-001 -3.9048768302E+000  +2.4318872238E-002 +1.6589162290E+001  +2.6886960606E-002 +1.7278470850E+001  +9.3521051972E-001 -2.2193100507E+000 
14150405.507 +9.0374547478E-001 -4.1764188162E+000  +2.7251355130E-002 +1.4558603821E+001  +2.6583717491E-002 +1.6477452368E+001  +9.2832648846E-001 -2.5983705651E+000 
14275550.688 +9.3875946308E-001 -5.8609370004E+000  +2.7821323354E-002 +1.5279686654E+001  +2.7583534226E-002 +1.8696112466E+001  +9.4648131776E-001 -5.4037759236E+000 
14400695.870 +9.6417960537E-001 -5.1687791690E+000  +2.7455056348E-002 +1.5764529288E+001  +2.7839754203E-002 +1.6322055708E+001  +9.7180869977E-001 -4.7878555654E+000 
