!  2-Port S-parameters saved by WinCal
! VAR MeasName=S-Parameters (CALIBRATED_DATA) read from VNA (P5004A)
! VAR MeasDate=27/08/2024 15:09:46
! VAR NAME=S2_r3c8_RESET3_9k-100M_1
! VAR FILENAME=S2_r3c8_RESET3_9k-100M_1.S2P
! VAR DATE=27/08/2024 15:09:46
! VAR PHYS_PORTS=1,2
! VAR ObjTypeName=DATASET
! VAR IndexType=Frequency
!
# Hz S MA R 50
9000.000 +3.5161248466E-002 -1.6723736397E+002  +3.3380736767E-002 -1.3666204687E+002  +3.6602334291E-002 +1.5183493708E+002  +3.9333337319E-001 -1.1870754225E+002 
134145.181 +1.1157765729E-001 +1.6952080096E+002  +1.6092715812E-004 +4.3395036905E+001  +2.4416355600E-004 +4.4726201530E+001  +2.3681530237E-001 -1.7111086070E+002 
259290.363 +1.1132867091E-001 +1.6961382518E+002  +7.9257686611E-004 -1.6279952118E+002  +1.0621170165E-004 +1.1086931126E+002  +2.3195879742E-001 -1.6813719047E+002 
384435.544 +1.1508388934E-001 +1.7021707406E+002  +3.0160564197E-004 -1.2528373216E+002  +3.6951434773E-004 -3.5698890529E+001  +2.4560894791E-001 -1.6933034965E+002 
509580.726 +1.1327508992E-001 +1.7104718143E+002  +3.8545905322E-005 -1.3486758149E+002  +1.3618911552E-003 -1.0888933236E+001  +2.3380050183E-001 -1.6729254462E+002 
634725.907 +1.1709550195E-001 +1.7191703956E+002  +1.6183029745E-003 -1.0291387831E+002  +3.4773477241E-004 -8.8569482447E+001  +2.5018045866E-001 -1.5764648742E+002 
759871.089 +1.1695900260E-001 +1.7055305795E+002  +2.2537995365E-004 -4.0407091946E+001  +1.1730574100E-003 -5.1317747100E+001  +2.4487696764E-001 -1.6550368961E+002 
885016.270 +1.1903992369E-001 +1.6942407187E+002  +9.5249085109E-004 -6.1267106232E+001  +7.8929695221E-005 -3.7156808339E+001  +2.3995638606E-001 -1.6339650645E+002 
1010161.452 +1.1943637057E-001 +1.7083145177E+002  +2.0872951134E-003 -1.6294847998E+002  +3.0098511070E-003 +8.4486663481E+001  +1.1590119968E-001 +1.7112206251E+002 
1135306.633 +1.1070571077E-001 +1.6976298883E+002  +5.0267584327E-003 +1.5991470526E+002  +1.4459157850E-003 -1.2364120353E+001  +1.9340116964E-001 -1.5928248256E+002 
1260451.815 +1.2184484120E-001 +1.7163763405E+002  +6.1883946139E-004 +9.9331576918E+001  +5.9933542532E-004 -1.0580590624E+001  +2.4882239494E-001 -1.6032279914E+002 
1385596.996 +1.2500843696E-001 +1.7204683820E+002  +3.2068807223E-004 +1.2048447932E+002  +8.8639766679E-004 -9.2750467677E+001  +2.7417634613E-001 -1.5931557175E+002 
1510742.178 +1.2803221695E-001 +1.7173512591E+002  +1.2108595516E-003 +5.3469001574E+001  +8.9543269466E-004 +3.6111515646E+001  +2.6233465163E-001 -1.5919688630E+002 
1635887.359 +1.2278025418E-001 +1.7027201458E+002  +4.0733531575E-004 -1.4156951815E+002  +9.9651949756E-004 -1.2860103957E+002  +2.3669993777E-001 -1.5825343046E+002 
1761032.541 +1.2648525167E-001 +1.6816868351E+002  +2.1698506684E-003 +1.1904219841E+002  +2.1112172596E-003 +1.3976459139E+002  +2.1249868359E-001 -1.4806684166E+002 
1886177.722 +1.3067276218E-001 +1.6516094367E+002  +1.8842559995E-003 +4.6795838883E+001  +1.7869603970E-003 -9.8625667704E+001  +1.6147900202E-001 -1.5700994063E+002 
2011322.904 +1.2801379324E-001 +1.6566712953E+002  +1.8991597593E-003 -1.4733535550E+002  +7.9660879042E-004 -1.7581040479E+001  +2.0166435549E-001 -1.6073947968E+002 
2136468.085 +1.2766390894E-001 +1.6470229782E+002  +5.1975948418E-003 +9.3300330234E+001  +3.7092013981E-003 -7.0887777198E+001  +1.9740071735E-001 +1.5619440727E+002 
2261613.267 +1.3086934387E-001 +1.6535255709E+002  +7.7766062579E-004 -5.6740285085E+001  +2.3312049088E-003 -9.8174478671E+001  +2.5087011043E-001 +1.6709683756E+002 
2386758.448 +1.3613035626E-001 +1.6449479968E+002  +1.8493835040E-003 +9.8425212577E+001  +3.3618942321E-003 -7.7662362738E+001  +2.8841355415E-001 +1.7334911845E+002 
2511903.630 +1.4439594797E-001 +1.6511403554E+002  +1.2912886095E-003 +1.6530991992E+002  +2.7000724372E-003 +6.2900757677E+001  +2.5990734388E-001 +1.7235771229E+002 
2637048.811 +1.1448299956E-001 +1.6044236969E+002  +1.1143402889E-002 -1.0970290835E+002  +7.9988288519E-003 -7.9251470920E+000  +3.9076025243E-001 +1.5610372552E+002 
2762193.992 +1.0561161669E-001 +1.5228582550E+002  +1.8054282752E-002 +1.5240337991E+002  +3.1314382641E-002 -1.5361712004E+002  +1.3304384204E+000 -1.3684752237E+002 
2887339.174 +1.0820938647E-001 -1.7813771841E+002  +4.3878895599E-002 +2.2963567297E+001  +2.9446046964E-002 +1.2933757339E+002  +1.8422286765E+000 -1.3750471429E+002 
3012484.355 +1.2660890348E-001 +1.6948677302E+002  +9.8334418882E-003 -1.3803591133E+001  +1.1438916761E-002 +8.3774400400E+001  +3.0057018508E-001 -6.5606116166E+001 
3137629.537 +1.0106752689E-001 +1.6759874054E+002  +1.1677957646E-002 -9.2269896777E+000  +7.9690012781E-003 -5.8775829312E+001  +3.1386803227E-001 -9.6923431710E+001 
3262774.718 +1.2161116614E-001 +1.6048640378E+002  +1.2663977673E-002 +7.1050063624E-001  +1.1580462431E-002 -9.0511684922E+001  +3.0720005440E-001 -5.1442512337E+001 
3387919.900 +1.2727617188E-001 +1.5650363223E+002  +1.2501806592E-002 +5.7944982090E+001  +3.3984111314E-003 -4.5654220716E+001  +3.2350560684E-001 -8.4082427974E+001 
3513065.081 +1.5126574335E-001 +1.5495770994E+002  +2.4285284111E-002 +7.1854174968E+001  +6.2746662633E-003 +2.9014371366E+001  +6.2846856776E-001 +6.4278209413E+001 
3638210.263 +1.6609803220E-001 +1.4821067689E+002  +1.8185397316E-002 +1.3559587416E+002  +1.8634755998E-001 -1.4618741015E+001  +4.8507574137E+000 -8.3644972793E+001 
3763355.444 +1.5708610946E-001 +1.4083493233E+002  +1.2269907767E-002 +3.8690454204E+001  +1.0680954982E-002 +8.0122979788E+001  +3.6971088946E-001 +1.2677588412E+002 
3888500.626 +1.8600115404E-001 +1.5177270607E+002  +2.1885686883E-002 -1.3258360235E+002  +9.9259515679E-003 +3.4479191660E+001  +1.5933140359E+000 +1.4531268427E+002 
4013645.807 +1.8035292681E-001 +1.5707037155E+002  +2.9822586803E-003 -1.6176190812E+001  +2.3596616676E-003 +8.8428326605E+001  +3.0751222681E-001 +1.0381107898E+002 
4138790.989 +1.9621809385E-001 +1.4655609805E+002  +5.7114014234E-003 +4.4792290924E+001  +5.3734505103E-003 +5.8794902491E+001  +2.7991466775E-001 +1.5965324330E+002 
4263936.170 +1.5547753141E-001 +1.3676571602E+002  +3.2367002364E-002 -9.6309635364E+000  +7.2931537677E-002 +8.5583585487E+001  +9.5524460732E-001 +3.1212957180E+001 
4389081.352 +2.3117153689E-001 +1.3657105759E+002  +9.1303264879E-003 +9.9516442963E+001  +1.4194000667E-002 +1.2584216383E+002  +7.1571297004E-001 +1.2488985724E+002 
4514226.533 +2.5472550897E-001 +1.3877381162E+002  +5.3005309521E-003 +5.2167520694E+001  +3.2980056397E-002 +6.3958088286E+001  +1.4764581252E+000 +7.7408374682E+001 
4639371.715 +2.3363725197E-001 +1.3102466384E+002  +1.6938958961E-002 +2.2305013044E+001  +2.4298956003E-002 +1.4496330100E+001  +6.3483751738E-001 +8.2686869068E+001 
4764516.896 +2.7869366329E-001 +1.2007772758E+002  +1.7869446124E-002 +1.3573988279E+002  +1.4386217274E-002 -4.6950528484E+001  +1.3803832024E+000 +1.3798470456E+002 
4889662.078 +4.1170361520E-001 +1.1991812998E+002  +7.4166138319E-002 -2.3666489445E+001  +9.6262417081E-002 -4.5490317628E+001  +2.3371388684E+000 -2.6674514602E+001 
5014807.259 +4.7977739515E-001 +1.3166829480E+002  +1.3370213972E-001 -5.6150831072E+001  +1.4275764517E-001 -2.8419247707E+001  +6.3983322600E+000 -1.1290846301E+002 
5139952.441 +3.8035508961E-001 +1.2752274863E+002  +4.3452617982E-002 +3.4443623011E+001  +2.8116561819E-002 -1.1755106782E+002  +3.0325817491E+000 +3.3276626233E+001 
5265097.622 +4.0621508377E-001 +1.2522053383E+002  +1.1025745585E-001 +1.1578513147E+002  +9.4787057065E-002 +3.0936852638E+001  +6.3913031362E+000 +6.7714017496E+001 
5390242.804 +3.9508209006E-001 +1.3367447309E+002  +2.6099397621E-002 +1.2645798542E+002  +6.6321375611E-003 +1.3934861384E+002  +1.6531327534E+000 +9.4126309748E+001 
5515387.985 +4.7402080020E-001 +1.3132223466E+002  +4.4198744231E-002 +1.1856689137E+002  +3.4648026053E-002 +1.0357731216E+002  +1.8761139372E+000 +8.6062200713E+001 
5640533.166 +4.8536571381E-001 +1.2923222518E+002  +1.3235877854E-002 -9.0433955130E+001  +1.5008564030E-002 +3.1351090557E+001  +2.0923935481E+000 +6.3078569664E+001 
5765678.348 +5.7610613453E-001 +1.2796436617E+002  +3.1279218040E-002 +1.1844551530E+002  +2.5981516257E-002 +8.2525499080E+001  +1.7285004770E+000 +9.6479116397E+001 
5890823.529 +5.7971020621E-001 +1.2878409276E+002  +4.3629039211E-002 +1.4397097818E+002  +1.6608207055E-002 +9.2903105466E+001  +2.5809252390E+000 +8.0952921408E+001 
6015968.711 +6.3653757478E-001 +1.1883820666E+002  +1.9309075812E-002 +1.0177717580E+002  +2.6635084029E-002 +3.3970533538E+001  +1.3449342266E+000 +3.8133782022E+001 
6141113.892 +8.2709902264E-001 +1.0951108315E+002  +2.3368842646E-002 +6.5172280172E+001  +5.5352631270E-002 +6.2131563591E+001  +2.2132380686E+000 +5.3186417434E+001 
6266259.074 +8.4207568450E-001 +9.4781102907E+001  +6.7478917729E-002 +4.1324746248E+001  +3.8814167236E-002 +2.2128721914E+001  +2.8394094532E+000 +2.9706530637E+001 
6391404.255 +1.1041703717E+000 +9.3637056062E+001  +4.7245446107E-002 +8.4647293640E+001  +5.2018345594E-002 +3.8767095246E+001  +1.6402118847E+000 +2.1189925528E+001 
6516549.437 +1.0167780655E+000 +8.3001427035E+001  +3.7895763769E-002 +4.9791130723E+001  +4.2469125477E-002 +7.1062668066E+001  +1.4956748182E+000 -2.7049799852E+000 
6641694.618 +2.1377812975E+000 +7.1741256032E+001  +5.3350309463E-002 +5.2152527378E+001  +7.4249109414E-002 -2.1345860896E+001  +1.8624753598E+000 +5.2570359883E+000 
6766839.800 +2.2802336536E+000 +5.0441993243E+001  +3.9437169479E-002 +1.5771243839E+001  +3.7952987552E-002 +6.8808876961E+001  +1.2982292362E+000 -3.3648924544E+000 
6891984.981 +1.5348791631E+000 +3.1711067698E+001  +2.8980362727E-002 -1.3147849461E+001  +1.0882918211E-002 -9.1060193288E+001  +1.2545598324E+000 -5.6833343025E+000 
7017130.163 +1.7008940435E+000 +2.1275176112E+001  +2.9998435653E-002 +1.6650242106E+001  +3.5693067837E-002 +3.7566652877E+001  +1.4832078746E+000 -7.9256136316E+000 
7142275.344 +1.7061861037E+000 +1.8714843737E+000  +1.1887746430E-002 -3.7348731596E+000  +1.2959570456E-002 +3.3721272273E+001  +1.2951980487E+000 -7.3945791103E+000 
7267420.526 +1.5201678538E+000 +6.4364215706E+000  +2.6833527141E-002 +2.0731592381E+001  +2.0096811375E-002 +2.1963289488E+001  +1.2273352002E+000 -1.3638183611E+001 
7392565.707 +1.3026650704E+000 -5.6017632659E+000  +1.5182713842E-002 +3.0937232419E+001  +1.3218540307E-002 +2.1190308569E+001  +1.3309244558E+000 -1.5892348745E+000 
7517710.889 +1.1320584062E+000 +1.6886668853E+000  +1.0335797288E-002 +1.3477043304E+001  +2.2482885974E-002 -8.1855247697E+000  +1.1908649044E+000 -6.7156984923E+000 
7642856.070 +1.0171775877E+000 +2.1929452688E+000  +1.8357522461E-002 -1.0762198961E+001  +1.6244424096E-002 +2.3679362226E+001  +1.1809892213E+000 -6.3059889448E+000 
7768001.252 +9.0415739080E-001 +6.0659152632E+000  +1.5969816159E-002 +1.8127395173E+001  +1.8535805272E-002 +6.0340047366E+001  +1.0016408082E+000 -9.4540554025E+000 
7893146.433 +8.9900956840E-001 +4.6968849982E+000  +1.1697535746E-002 +2.7916209547E+001  +1.1265264095E-002 +2.2594158550E+001  +9.8477983086E-001 -7.0105339905E+000 
8018291.615 +8.4391489785E-001 +8.1323055424E+000  +1.6725450905E-002 +1.6917213779E+001  +1.4272520369E-002 +2.4841056129E+001  +9.0293071320E-001 -4.1311926796E+000 
8143436.796 +6.4939141479E-001 +9.8404655097E+000  +9.1485746729E-003 +2.2868054108E+001  +1.3605476574E-002 +4.0425713943E+001  +8.6547374572E-001 -3.4226034868E+000 
8268581.977 +6.3571495120E-001 +3.1010794544E+000  +7.5057407927E-003 +4.2301050939E+001  +9.3414204489E-003 -5.7311936392E+000  +8.2865392137E-001 +2.0492046887E+000 
8393727.159 +6.7702380410E-001 +7.3095222578E+000  +9.2145696785E-003 +4.1063761531E+000  +1.0102975794E-002 +2.2826659664E+001  +6.8999048227E-001 -5.4701851756E+000 
8518872.340 +6.7497666960E-001 +8.2796120103E+000  +1.2594938906E-002 +2.0584361760E+000  +1.5064249726E-002 +2.5209662127E+001  +7.2137250788E-001 -2.1696673210E+000 
8644017.522 +6.1489759675E-001 +1.6541119952E+000  +1.4816726943E-002 +2.9663006924E+001  +1.4443671978E-002 +4.7264999887E+001  +7.0941270303E-001 -4.4741778111E+000 
8769162.703 +6.2149567716E-001 +4.6936490634E+000  +1.1868146311E-002 +1.7929640078E+001  +9.9061368394E-003 +2.8527121148E+001  +6.5239060948E-001 -1.5004981020E+000 
8894307.885 +6.4547972504E-001 +4.8387736554E+000  +1.0707433984E-002 +1.6782578993E+000  +1.3010662987E-002 +6.0235888380E+000  +6.8175987440E-001 +1.4139346199E+000 
9019453.066 +6.2515486679E-001 +4.8003319527E+000  +6.1246516720E-003 +3.4977766898E+001  +8.8832553980E-003 +4.1115658910E+001  +6.6660396145E-001 +5.8885708687E-001 
9144598.248 +5.8658110804E-001 +2.0301281165E+000  +6.2445681602E-003 +4.1295469424E+001  +1.0141056017E-002 +1.6334419105E+001  +6.4917445808E-001 -4.7372024445E+000 
9269743.429 +5.4804211873E-001 -1.7006476018E+000  +8.4605861009E-003 +1.1419573168E+001  +6.4031924641E-003 +2.9818170048E+001  +5.9579115830E-001 -4.3979149059E+000 
9394888.611 +5.4200089623E-001 +1.7088547829E+000  +5.6501950657E-003 +1.1910322294E+001  +7.9798216795E-003 +4.7781864891E+001  +5.8626330108E-001 +1.1849608093E-001 
9520033.792 +5.4151445588E-001 +4.7186123007E+000  +1.0079355137E-002 +8.9065782897E+000  +1.1614273363E-002 +3.6081542845E+001  +6.2003347450E-001 -7.0170339041E+000 
9645178.974 +5.6363231569E-001 +5.3717413825E+000  +8.4680271909E-003 +1.1889496695E+001  +8.2422725242E-003 +4.9715159862E+001  +5.8213649467E-001 -5.1549590333E+000 
9770324.155 +4.7160373505E-001 +4.2273826304E+000  +1.0556568317E-002 +3.3989466434E+001  +1.2742952660E-002 +3.3821878749E+001  +5.9079087043E-001 -1.1709977203E+001 
9895469.337 +5.2831506941E-001 +2.3790856193E+000  +8.5363215072E-003 +1.3830179407E+001  +1.3807163444E-002 +4.4745925215E+001  +5.9076995450E-001 -6.1637407996E+000 
10020614.518 +5.3443001764E-001 +2.1235936521E+000  +1.3246179345E-002 +1.5694362045E+001  +1.1017535726E-002 +3.5618590854E+001  +5.7579064473E-001 -2.8127328882E+000 
10145759.700 +5.7252513259E-001 +4.3302805138E+000  +8.8289850135E-003 +1.8825184953E+001  +8.9171295034E-003 +2.2154936098E+001  +5.7752628136E-001 -6.3382606133E+000 
10270904.881 +5.6033608460E-001 +7.7412236727E+000  +1.1518529644E-002 +1.6219768507E+001  +1.0621281377E-002 +2.6309002607E+001  +5.4508522490E-001 -2.6456472662E+000 
10396050.063 +5.4671737106E-001 +6.1352747220E+000  +9.8543993909E-003 +6.6326377621E+000  +9.4291400737E-003 +4.1618019406E+001  +5.7179091388E-001 -1.3960936768E+000 
10521195.244 +5.4061204687E-001 +3.2109434682E+000  +1.0040111392E-002 +2.7952058603E+001  +1.0011882313E-002 +2.7337943865E+001  +5.7632618624E-001 -4.4266081847E+000 
10646340.426 +5.7160595314E-001 +5.9031836254E+000  +1.0378572009E-002 +2.0385099831E+001  +8.6017412285E-003 +2.2305665452E+001  +5.7975337429E-001 -3.5361354706E+000 
10771485.607 +5.5633483461E-001 +5.2559628428E+000  +1.0020387805E-002 +2.5852993353E+001  +1.0167055222E-002 +2.0839143920E+001  +6.0987086733E-001 -3.2939484779E+000 
10896630.788 +5.5987648419E-001 +4.2274895896E+000  +1.1286747734E-002 +1.7125759891E+001  +8.8118319334E-003 +2.7259037853E+001  +6.0434435219E-001 +1.3672540321E+000 
11021775.970 +5.6883488769E-001 +4.2305137552E+000  +1.1904199821E-002 +1.2560906011E+001  +1.1914339527E-002 +3.4289915031E+001  +5.9214813044E-001 +3.1805908709E+000 
11146921.151 +5.7883284733E-001 +3.7103945108E+000  +1.1823085306E-002 +1.4630300142E+001  +1.0818191581E-002 +4.8423970277E+001  +6.0756656743E-001 +1.2296888497E+000 
11272066.333 +5.6239724530E-001 +5.7664453109E+000  +9.8508607845E-003 +1.9939031925E+001  +1.1072432369E-002 +3.5431379741E+001  +6.2757424449E-001 +1.3521089644E+000 
11397211.514 +6.0419419986E-001 +4.0377530076E+000  +1.0236237918E-002 +2.4056985895E+001  +1.0598590716E-002 +4.0336906929E+001  +6.3354496780E-001 +1.0576130987E+000 
11522356.696 +5.9043701193E-001 +7.5832930153E+000  +9.7121544548E-003 +2.6462253584E+001  +1.1865508266E-002 +5.0369085951E+001  +6.4043744727E-001 +1.9576825106E+000 
11647501.877 +6.2148150766E-001 +4.2294047636E+000  +1.0728333120E-002 +2.9107895901E+001  +1.0473331248E-002 +3.9255552578E+001  +6.5127892514E-001 -3.1980024904E-001 
11772647.059 +6.3708271376E-001 +6.1079933861E+000  +1.2369817275E-002 +3.1109544328E+001  +1.1636859765E-002 +4.7614813640E+001  +6.6098015785E-001 +2.4945716855E+000 
11897792.240 +6.3516238917E-001 +5.0445480686E+000  +1.0046750251E-002 +3.0233777501E+001  +1.1489883396E-002 +3.5570167326E+001  +6.6466845672E-001 +1.7662788003E+000 
12022937.422 +6.7574816742E-001 +5.2171286180E+000  +1.2028979251E-002 +2.2259826257E+001  +1.3175669137E-002 +2.9293269957E+001  +6.8026336721E-001 +2.7061395222E+000 
12148082.603 +6.5810741064E-001 +4.6912433244E+000  +1.2790628725E-002 +2.8114673635E+001  +1.1166265716E-002 +3.2146357424E+001  +6.7193632654E-001 +3.5757782945E+000 
12273227.785 +6.7326236687E-001 +3.1888814890E+000  +1.0695330110E-002 +2.9750908709E+001  +1.0852380242E-002 +5.1176417211E+001  +6.9370822089E-001 +2.1724807789E-001 
12398372.966 +6.7924431918E-001 +2.8718062504E+000  +1.3413123975E-002 +3.3514897345E+001  +1.3058622976E-002 +4.4637326493E+001  +7.0827110769E-001 -3.4575414843E-001 
12523518.148 +7.2151518616E-001 +3.2815124202E+000  +1.2691054644E-002 +3.9198267496E+001  +1.2467724395E-002 +4.2551928761E+001  +7.4080512636E-001 -2.9243390292E-002 
12648663.329 +7.3579039278E-001 +2.5369805211E+000  +1.2559905004E-002 +3.1410838769E+001  +1.1472494906E-002 +3.4388593213E+001  +7.5155731205E-001 -3.4331898397E-001 
12773808.511 +7.5799926973E-001 +1.2159010221E+000  +1.1457833035E-002 +2.9397776877E+001  +1.2068882756E-002 +3.8874098565E+001  +7.6787904256E-001 -4.2588672102E-002 
12898953.692 +7.6229511920E-001 +1.8669560419E+000  +1.3724027809E-002 +2.7842676128E+001  +1.3183988658E-002 +4.0100693440E+001  +7.7860178113E-001 -2.9230146412E+000 
13024098.874 +7.7218450598E-001 -1.2840586653E+000  +1.2056711367E-002 +2.7692444971E+001  +1.4308809576E-002 +3.3749569926E+001  +7.9320730360E-001 -2.1893527104E+000 
13149244.055 +8.1241942781E-001 -1.4896088330E+000  +1.3174350595E-002 +3.4647373986E+001  +1.4379020928E-002 +3.3752728408E+001  +7.9775647278E-001 -1.6521056587E+000 
13274389.237 +7.9401895657E-001 -8.6112968091E-001  +1.3474897906E-002 +4.0518115073E+001  +1.3764986053E-002 +4.4740270152E+001  +8.0125482318E-001 -2.5479713704E+000 
13399534.418 +8.1641500703E-001 -2.5520349311E+000  +1.3201793452E-002 +2.8009139504E+001  +1.2374409985E-002 +3.4629979928E+001  +8.2450645220E-001 -2.6656272332E+000 
13524679.599 +8.4295659279E-001 -1.7523413470E+000  +1.2325504938E-002 +4.5073332981E+001  +1.4742278644E-002 +3.5449962020E+001  +8.6153615531E-001 -3.4561051367E+000 
13649824.781 +8.7400383193E-001 -2.9051358815E+000  +1.3190141673E-002 +2.4438015105E+001  +1.2976923166E-002 +3.2612164359E+001  +8.5420462367E-001 -2.0630790833E+000 
13774969.962 +8.8138174325E-001 -3.0288561126E+000  +1.3882154214E-002 +3.5902234323E+001  +1.2231440053E-002 +3.6400545807E+001  +9.0809000683E-001 -2.6793387677E+000 
13900115.144 +8.9538259596E-001 -4.1410098259E+000  +1.3694926107E-002 +4.0113358546E+001  +1.4151100387E-002 +3.8225897629E+001  +8.9948397712E-001 -3.2044722411E+000 
14025260.325 +9.1414244186E-001 -4.0324099333E+000  +1.4063758172E-002 +3.7452232410E+001  +1.3141865697E-002 +3.2578991738E+001  +9.3501004421E-001 -3.8804074310E+000 
14150405.507 +9.0415175626E-001 -2.7262255209E+000  +1.3336776990E-002 +3.5808938144E+001  +1.3056005248E-002 +3.2209048453E+001  +9.4013039313E-001 -4.7157096531E+000 
14275550.688 +9.2344584467E-001 -5.4064245237E+000  +1.4028069129E-002 +3.4191833837E+001  +1.5689822528E-002 +3.3131880601E+001  +9.5505718919E-001 -3.4067561273E+000 
14400695.870 +9.5202280714E-001 -4.6340726919E+000  +1.5671653576E-002 +3.4810034967E+001  +1.3747940992E-002 +3.2729428464E+001  +9.9049812162E-001 -5.6029960025E+000 
