!  2-Port S-parameters saved by WinCal
! VAR MeasName=S-Parameters (CALIBRATED_DATA) read from VNA (P5004A)
! VAR MeasDate=27/08/2024 14:45:30
! VAR NAME=S2_r3c8_formed_9k-100M_2
! VAR FILENAME=S2_r3c8_formed_9k-100M_2.S2P
! VAR DATE=27/08/2024 14:45:30
! VAR PHYS_PORTS=1,2
! VAR ObjTypeName=DATASET
! VAR IndexType=Frequency
!
# Hz S MA R 50
9000.000 +5.5764423161E-002 -1.2143689310E+002  +2.1897043380E-002 -1.0862847751E+002  +1.2225602051E-002 -4.5182460508E+000  +3.0518849328E-001 -1.3878790053E+002 
134145.181 +1.1118843513E-001 +1.6931345098E+002  +1.7006762050E-004 +9.1357458946E+001  +3.9482907526E-004 +4.0715567536E+001  +2.3728327705E-001 -1.7093640409E+002 
259290.363 +1.1254365939E-001 +1.6943755981E+002  +8.2742927061E-004 -2.7895213329E+001  +5.6122533167E-004 +1.3020082010E+002  +2.3957192212E-001 -1.6978608293E+002 
384435.544 +1.1287864636E-001 +1.7008669997E+002  +2.3873419448E-004 -1.1700249131E+002  +5.7695167572E-004 +5.6531210309E+001  +2.3964606275E-001 -1.6933460388E+002 
509580.726 +1.1141293634E-001 +1.7027606716E+002  +1.8239858510E-003 -7.7030118238E+001  +1.2134354650E-003 +9.4777889227E+001  +2.4732697687E-001 -1.6771286075E+002 
634725.907 +1.1633682519E-001 +1.7012396516E+002  +7.3813766128E-004 -1.3772872691E+002  +9.5518748566E-004 +6.1174353092E+001  +2.3462950429E-001 -1.6443701551E+002 
759871.089 +1.1487648920E-001 +1.6974366397E+002  +9.3370583509E-004 -7.6922301404E+001  +9.0180906500E-004 +9.9447133720E+001  +2.4704935046E-001 -1.6473314932E+002 
885016.270 +1.1830719576E-001 +1.6918553570E+002  +6.9134683398E-004 -6.1280401026E+001  +1.9851705006E-004 -6.4305446037E+001  +2.3695233451E-001 -1.6668465789E+002 
1010161.452 +1.1775904023E-001 +1.7124846499E+002  +3.0241259543E-003 -3.6841093689E+000  +3.7984608055E-003 +1.4160099687E+002  +1.6709587340E-001 -1.6761442355E+002 
1135306.633 +1.1436242290E-001 +1.6807202829E+002  +3.9344463000E-003 +2.1353423664E+000  +1.6977391364E-003 +1.3348048825E+002  +1.7452344863E-001 -1.4998451078E+002 
1260451.815 +1.2176151437E-001 +1.6923158605E+002  +1.3438088571E-003 -6.9551643166E+001  +1.7786319174E-003 +1.1424286848E+002  +2.1968646236E-001 -1.5423633367E+002 
1385596.996 +1.2477958871E-001 +1.7117770699E+002  +1.3864012459E-003 -9.8671474395E+001  +9.4829149302E-004 +1.6291650566E+002  +2.7888966620E-001 -1.5963962516E+002 
1510742.178 +1.2545195551E-001 +1.7142493580E+002  +1.6640646370E-003 -2.0361375789E+001  +1.7010458355E-003 +1.4449520518E+002  +2.5443956353E-001 -1.5603146956E+002 
1635887.359 +1.2161489076E-001 +1.7136927688E+002  +1.7351518119E-003 -6.2623516900E+001  +2.3439928979E-003 -1.6971820640E+002  +2.3857788517E-001 -1.5662896312E+002 
1761032.541 +1.2930414419E-001 +1.6817812979E+002  +9.3184098204E-004 +8.4587081982E+001  +2.2590164835E-003 -3.4103135382E+001  +1.7823509685E-001 -1.7057377467E+002 
1886177.722 +1.2823603936E-001 +1.6717952525E+002  +2.1308821961E-003 -6.5124599908E+000  +2.6369052815E-003 -7.1030218333E+001  +2.2710821492E-001 -1.6138177548E+002 
2011322.904 +1.2671800188E-001 +1.6506608794E+002  +8.7311053705E-003 +7.8706915659E+001  +1.0209826714E-002 -6.9385467083E+001  +1.4530314861E-001 -1.5459365573E+002 
2136468.085 +1.3074847933E-001 +1.6862875539E+002  +4.9906486042E-003 +5.2688261243E+001  +5.4761499233E-003 -7.3844600952E+001  +2.1033161719E-001 -1.6217667483E+002 
2261613.267 +1.3874794857E-001 +1.6393568790E+002  +4.7195903238E-003 +9.3192478010E+001  +4.2826512452E-003 -4.4512147480E+001  +2.1067823440E-001 -1.7209233198E+002 
2386758.448 +1.3952610269E-001 +1.6666402522E+002  +8.6573460565E-003 +8.8258716507E+001  +8.1826772874E-003 -4.3703801227E+001  +1.8420016853E-001 +1.7245207054E+002 
2511903.630 +1.3132733273E-001 +1.6295795905E+002  +1.7682390891E-002 +1.0851692978E+002  +1.5180963056E-002 -5.4813749138E+000  +2.4419330269E-001 +1.5992911653E+002 
2637048.811 +1.2358844631E-001 +1.6529186515E+002  +3.2603196954E-002 +9.9187400600E+001  +3.2719147466E-002 -7.2154346334E+000  +3.1734762695E-001 +1.5320125167E+002 
2762193.992 +1.1945459477E-001 +1.6648183602E+002  +7.3549595343E-002 -3.7072607451E+001  +6.5788111066E-002 -1.4191466410E+002  +5.0972098588E-001 -8.1604115006E+001 
2887339.174 +1.2658208534E-001 +1.7318955562E+002  +3.4983750062E-002 -4.4590435507E+001  +4.2825937348E-002 -1.5165261675E+002  +2.1924378765E-001 -8.8141749788E+001 
3012484.355 +1.1457188924E-001 +1.7622478543E+002  +5.3839295493E-002 +2.7168827152E+001  +6.1148626643E-002 -7.5106042147E+001  +1.3495891434E-001 +5.7126770743E+001 
3137629.537 +1.2131841590E-001 +1.7516125532E+002  +2.2031224926E-002 +3.0179496268E+001  +1.9816769727E-002 -1.0433404211E+002  +1.2063117382E-001 -1.6308033148E+002 
3262774.718 +1.4839494983E-001 +1.6579049346E+002  +1.6805631045E-001 -4.5337884968E+001  +1.7883299864E-001 -1.3551140396E+002  +2.3208156544E+000 -7.4166710026E+001 
3387919.900 +1.2574198564E-001 +1.6595415081E+002  +4.3657966070E-002 +3.3957076753E+000  +5.1833592547E-002 -8.1029610814E+001  +2.7051137035E-001 -5.8517395307E+001 
3513065.081 +1.4709585288E-001 +1.6489946782E+002  +5.9406440450E-002 +1.0292782307E+001  +5.9680764257E-002 -9.3092649978E+001  +3.8283177529E-001 -2.4753838115E+001 
3638210.263 +1.5707643267E-001 +1.5518967446E+002  +9.0302379916E-002 +9.3912304110E+001  +7.7715137508E-002 +2.1688508607E+000  +8.7355149533E-001 +9.8909440254E+001 
3763355.444 +1.7566653725E-001 +1.5438540554E+002  +5.8904542219E-002 +9.8579591664E+001  +5.0706372719E-002 +3.1626893766E+001  +5.6766578765E-001 +1.1075359791E+002 
3888500.626 +1.7541017748E-001 +1.5245726590E+002  +1.2236670608E-001 +3.2492458683E+001  +1.4370085191E-001 -2.7474969504E+001  +1.3278089408E+000 +8.7864695181E+000 
4013645.807 +1.7792093579E-001 +1.5156997741E+002  +4.4813518018E-002 +4.6102525334E+001  +3.7526036712E-002 -2.7547840707E+001  +7.3486113509E-002 +7.6104503886E+001 
4138790.989 +1.6823174212E-001 +1.4142969304E+002  +5.6119424835E-002 +8.0288604456E+001  +7.4516920266E-002 +1.6963283825E+001  +3.2199894588E-001 +1.1786568121E+002 
4263936.170 +1.7762630023E-001 +1.4719683752E+002  +5.6497207119E-002 +9.1778111821E+001  +6.4143306441E-002 +4.6367344252E+001  +5.7178900079E-001 +1.3527973984E+002 
4389081.352 +1.9462551130E-001 +1.4617747942E+002  +6.1953795975E-002 +1.1732307968E+002  +6.3659547915E-002 +5.7033572192E+001  +7.4545322283E-001 +1.4477892311E+002 
4514226.533 +2.1464455702E-001 +1.4600196937E+002  +6.4434401789E-002 +1.0476296400E+002  +7.4332250505E-002 +5.5812757880E+001  +7.5716883729E-001 +1.2737903147E+002 
4639371.715 +2.7613904968E-001 +1.3274476599E+002  +2.1439883583E-001 +9.3827820821E+001  +1.8730294060E-001 +3.5238208284E+001  +1.4046041953E+000 +6.3242581323E+001 
4764516.896 +3.6080444991E-001 +1.3620047870E+002  +2.3440216156E-001 +1.7980641990E+002  +2.0913070770E-001 +1.4299157278E+002  +1.9476168449E+000 +1.4981788822E+002 
4889662.078 +3.5442070874E-001 +1.3917409650E+002  +1.6370437818E-001 -6.1794870490E+001  +1.6200984381E-001 -1.0444002514E+002  +2.2270249345E+000 -1.2926756823E+002 
5014807.259 +3.7275259957E-001 +1.3540118727E+002  +2.5550130157E-001 +1.6363826934E+002  +2.4355194691E-001 +1.1250021913E+002  +2.2918141784E+000 +1.3204385443E+002 
5139952.441 +4.0359913795E-001 +1.3143671544E+002  +2.9211323367E-001 +1.4369585696E+002  +2.7760113401E-001 +9.8281816888E+001  +2.3712953503E+000 +1.1633036225E+002 
5265097.622 +3.1854647979E-001 +1.2265233226E+002  +1.7591709224E-001 +8.1353144039E+001  +1.2669751909E-001 +3.7308988740E+001  +8.3543594529E-001 +8.1278102173E+001 
5390242.804 +3.9458938669E-001 +1.1857143988E+002  +2.5930146102E-001 +7.2767070045E+001  +2.4589723610E-001 +3.9149840144E+001  +1.4685618300E+000 +5.3419750948E+001 
5515387.985 +4.1149415082E-001 +1.3020155184E+002  +1.6674766634E-001 +9.7641589165E+001  +1.5612440272E-001 +7.3227559507E+001  +1.2274843407E+000 +9.8590495128E+001 
5640533.166 +4.6448912574E-001 +1.3466039750E+002  +1.8933095494E-001 +9.4142132591E+001  +1.9089450105E-001 +6.6316687328E+001  +1.7514725480E+000 +6.6216253166E+001 
5765678.348 +4.4519554521E-001 +1.2772752281E+002  +1.3204140333E-001 +8.8243520848E+001  +1.3039371979E-001 +5.9592534406E+001  +8.8727575928E-001 +9.5199284475E+001 
5890823.529 +4.5608670660E-001 +1.2046838649E+002  +1.8664387353E-001 +7.1251979984E+001  +1.8762291382E-001 +5.3035378684E+001  +1.3316241921E+000 +7.3689341026E+001 
6015968.711 +6.2484610664E-001 +1.1206430318E+002  +2.5027843518E-001 +7.3097680425E+001  +2.1266200608E-001 +4.3483751262E+001  +1.3096136132E+000 +5.5647136590E+001 
6141113.892 +6.2432938402E-001 +1.1542806147E+002  +2.4474025000E-001 +5.8755306886E+001  +2.3658797652E-001 +4.5478598232E+001  +1.7562192697E+000 +4.4067114995E+001 
6266259.074 +7.9687058953E-001 +1.0330523589E+002  +3.1547315660E-001 +5.2557139479E+001  +2.8764863129E-001 +3.7435475423E+001  +1.7526634588E+000 +3.4266342618E+001 
6391404.255 +1.0218022873E+000 +8.9773727342E+001  +3.4632350227E-001 +4.7434357018E+001  +3.0307259529E-001 +3.0320882358E+001  +1.6116372103E+000 +2.6834910321E+001 
6516549.437 +8.8759162915E-001 +8.0366993943E+001  +2.7064309475E-001 +3.6258092146E+001  +2.6893201486E-001 +2.0641486669E+001  +1.2705370957E+000 +1.6923695009E+001 
6641694.618 +9.6228209918E-001 +6.8780086502E+001  +2.8098102884E-001 +1.9401025023E+001  +2.6587285722E-001 +9.8704772847E+000  +1.2861523997E+000 +3.2657920967E+000 
6766839.800 +1.2819778575E+000 +3.7886406165E+001  +3.2622221066E-001 +6.8818248299E+000  +3.2628967639E-001 +1.3218964576E+000  +1.3660955097E+000 -2.7517340883E+000 
6891984.981 +1.5194736222E+000 +3.6879612461E+001  +3.0897876816E-001 +1.4868749451E+001  +3.2117564255E-001 +1.9536521692E+000  +1.1378693396E+000 -2.5504073318E+000 
7017130.163 +1.5248100242E+000 +2.3372636217E+001  +2.5729132656E-001 +6.8569730797E+000  +2.7797987166E-001 +1.2292779959E+000  +1.2664741203E+000 -2.4715603341E+000 
7142275.344 +1.1647458358E+000 +8.0886895440E+000  +2.3878807484E-001 -3.6605992053E+000  +2.0889341680E-001 -6.4384521813E+000  +1.1314498630E+000 -1.1362630015E+001 
7267420.526 +1.2558283042E+000 +7.7271294305E+000  +1.9589200458E-001 +1.4166078205E+000  +1.8631302103E-001 +5.2364170304E+000  +1.2599983277E+000 -2.9420318117E+000 
7392565.707 +1.1561036775E+000 -1.7805466662E+000  +1.7389082710E-001 +4.9843403574E+000  +1.6672597574E-001 +4.4031822019E+000  +1.1549869876E+000 -1.0960562515E+001 
7517710.889 +1.1478630159E+000 +4.4666563010E+000  +1.5225578736E-001 +7.6239110471E+000  +1.5454780702E-001 +8.4951954386E+000  +9.5258291480E-001 -1.0306434297E+001 
7642856.070 +8.3913053953E-001 +3.4082336614E+000  +1.4550075995E-001 +5.1395925847E+000  +1.4176805429E-001 +4.6175882979E+000  +9.6666451102E-001 -7.8662136993E+000 
7768001.252 +7.7450018801E-001 +6.5882482803E+000  +1.3568867087E-001 +4.3703896821E+000  +1.3049290455E-001 +5.8206017169E+000  +9.2258502797E-001 +4.3412030264E-001 
7893146.433 +7.6640144712E-001 +4.6897575152E+000  +1.3422927164E-001 +4.0345878721E+000  +1.2582637006E-001 +5.8617889982E+000  +8.1928030065E-001 -5.9465932201E+000 
8018291.615 +6.9595800552E-001 +7.3378016660E+000  +1.2478539864E-001 -4.4480093837E-001  +1.2513727136E-001 +6.0363110682E+000  +6.9137189954E-001 +1.7274814837E+000 
8143436.796 +6.3453232394E-001 +1.1751414942E+001  +1.1802087945E-001 +2.0703481002E+000  +1.1925828962E-001 +9.5518477414E+000  +6.3762646360E-001 +5.8347063563E+000 
8268581.977 +6.0060851343E-001 +1.7164553991E+001  +1.1650095014E-001 -2.7402992008E-001  +1.1731096896E-001 +5.2523228043E+000  +6.2738980564E-001 -1.1018409699E+000 
8393727.159 +6.3711579276E-001 +5.4279502866E+000  +1.1888636066E-001 -6.4695792885E-001  +1.1929812518E-001 +7.6405365129E+000  +6.0418014696E-001 +2.7559482104E+000 
8518872.340 +6.5680201467E-001 +9.6669045678E+000  +1.2033393379E-001 -1.5512473611E-001  +1.1326092062E-001 +8.9443231998E+000  +5.6048524513E-001 +4.8599933802E+000 
8644017.522 +4.8352739263E-001 +3.0722693344E+000  +1.1506129278E-001 -4.2534117203E+000  +1.1440551224E-001 +8.8606897821E+000  +5.9443779122E-001 +1.3751304322E+000 
8769162.703 +5.2823048217E-001 +9.5402874211E+000  +1.0640362550E-001 -4.2674537163E+000  +1.1409067144E-001 +9.2016018611E+000  +5.1257902466E-001 -4.4100379035E+000 
8894307.885 +4.5913203656E-001 +3.3089597823E+000  +1.0975003900E-001 -5.9403228629E+000  +1.1350480719E-001 +9.6943705881E+000  +5.3945767595E-001 +3.7492185389E+000 
9019453.066 +4.5135947580E-001 +1.1071139073E+001  +1.1174015905E-001 -5.5781178926E+000  +1.0763176229E-001 +1.0615493410E+001  +4.5681444229E-001 -3.9135740466E+000 
9144598.248 +4.7160009307E-001 +1.3491502895E+001  +1.0811678431E-001 -3.3459071578E+000  +1.0872391820E-001 +1.1232639950E+001  +5.0292548451E-001 +6.4624797094E+000 
9269743.429 +4.3351698341E-001 +9.1081683833E+000  +1.0999511098E-001 -4.5108976971E+000  +1.1128791582E-001 +1.2255341995E+001  +4.4984589610E-001 -4.7724592522E+000 
9394888.611 +4.7864804033E-001 +7.7909886341E+000  +1.1267375267E-001 -2.4978727849E+000  +1.1158222230E-001 +1.0329072838E+001  +4.7292285607E-001 -4.4974700297E+000 
9520033.792 +4.7122974044E-001 +8.9988930817E+000  +1.0765767251E-001 -4.4671315744E+000  +1.0858319332E-001 +1.2399674119E+001  +4.6503554102E-001 -3.7996976191E+000 
9645178.974 +3.9214380003E-001 -3.0203706647E+000  +1.0618239116E-001 -3.9822796053E+000  +1.1137578248E-001 +1.2794030134E+001  +4.8451416423E-001 -8.8426379076E+000 
9770324.155 +4.5345758154E-001 +1.1961407840E+000  +1.1113744075E-001 -2.4612606840E+000  +1.0995415883E-001 +1.4397861700E+001  +4.5926343579E-001 -7.8892123809E+000 
9895469.337 +3.8707944061E-001 +1.8694243792E+000  +1.1405749602E-001 -3.7994166433E+000  +1.1171606806E-001 +1.1313869792E+001  +4.2901325938E-001 -5.3000001197E+000 
10020614.518 +4.4447506188E-001 +2.8310372231E+000  +1.1300686697E-001 -3.5320569818E+000  +1.0992311926E-001 +1.3666583787E+001  +4.6937570657E-001 -5.2981401429E+000 
10145759.700 +4.4912298831E-001 +6.1962464291E+000  +1.1007081769E-001 -1.9216178398E+000  +1.1090051062E-001 +1.5108022641E+001  +4.8138852461E-001 -6.1952253527E+000 
10270904.881 +4.6098418166E-001 +5.7551406068E+000  +1.1242687669E-001 -1.8601743086E+000  +1.1187562404E-001 +1.3156450499E+001  +4.5024726407E-001 -1.4188684991E+000 
10396050.063 +4.4679197013E-001 +8.9715969265E+000  +1.1171787488E-001 -1.2214832061E+000  +1.1051499528E-001 +1.3013505423E+001  +4.9559113370E-001 +1.7591090914E+000 
10521195.244 +4.7482027847E-001 +1.2937525514E+001  +1.1073297455E-001 -1.1823277941E+000  +1.1158387559E-001 +1.5040613309E+001  +4.3906753221E-001 -2.4236221410E+000 
10646340.426 +4.2742426534E-001 +8.0164111222E+000  +1.1489388883E-001 -9.6799188231E-001  +1.1215786978E-001 +1.2107673819E+001  +4.6684408055E-001 +9.1075032385E-001 
10771485.607 +4.5496473381E-001 +1.5021186630E+001  +1.1108478410E-001 -3.9165714807E-001  +1.1166622533E-001 +1.3557406120E+001  +4.5568763627E-001 +2.8732383040E+000 
10896630.788 +4.7253937311E-001 +7.8635639800E+000  +1.1426875375E-001 -3.2220632612E-001  +1.1287607834E-001 +1.4326358061E+001  +4.9727286202E-001 +4.2342551572E+000 
11021775.970 +4.5915588580E-001 +9.9333541559E+000  +1.1322646350E-001 +7.1036309800E-002  +1.1437238926E-001 +1.3597159975E+001  +4.8192303996E-001 +3.9910998570E+000 
11146921.151 +4.9747445559E-001 +1.2651004886E+001  +1.1435415630E-001 +1.5323856300E+000  +1.1260441006E-001 +1.5060313581E+001  +5.1096424325E-001 +1.2436851115E+000 
11272066.333 +4.7044220702E-001 +7.9240723125E+000  +1.1714689036E-001 +1.6596068699E+000  +1.1508450056E-001 +1.4038887526E+001  +5.1007106357E-001 +4.2571014062E+000 
11397211.514 +4.8925931838E-001 +6.3411685759E+000  +1.1862557402E-001 +1.3223229711E+000  +1.1850634562E-001 +1.3807825725E+001  +5.2244082699E-001 +3.4467807960E-001 
11522356.696 +5.0544386458E-001 +8.9858977523E+000  +1.1829109267E-001 +1.3385849064E+000  +1.1907625891E-001 +1.2874743140E+001  +5.0925956719E-001 +1.7501709695E+000 
11647501.877 +5.1149238522E-001 +6.1596357134E+000  +1.1914206350E-001 +2.1153377421E+000  +1.1943855726E-001 +1.3115042613E+001  +5.2298926746E-001 +3.9196382998E+000 
11772647.059 +5.2536088775E-001 +6.4030871779E+000  +1.2239809397E-001 +2.9449222771E+000  +1.2210113833E-001 +1.1565187325E+001  +5.0668577886E-001 +2.3777058335E+000 
11897792.240 +5.2347806685E-001 +5.4669357669E+000  +1.2378273902E-001 +1.7235040111E+000  +1.2373583768E-001 +1.2972361473E+001  +5.5663332297E-001 -1.0436403313E-001 
12022937.422 +5.2635169377E-001 +7.2139237978E+000  +1.2409470274E-001 +2.7131956708E+000  +1.2241137744E-001 +1.2521855811E+001  +5.6119632866E-001 +2.4179808779E+000 
12148082.603 +5.5106265910E-001 +4.9603161310E+000  +1.2530908680E-001 +3.2874558326E+000  +1.2661443238E-001 +1.2172773960E+001  +5.4862218019E-001 +4.5691196196E+000 
12273227.785 +5.8402949164E-001 +4.6131876978E+000  +1.2706133580E-001 +3.6140908269E+000  +1.2532986500E-001 +1.2079552636E+001  +5.7144328687E-001 +2.7378553939E-001 
12398372.966 +5.7694287737E-001 +2.6225947420E+000  +1.2969047985E-001 +3.0714881153E+000  +1.2930019415E-001 +1.2487214411E+001  +5.8131029680E-001 +3.2087806633E+000 
12523518.148 +5.9993704634E-001 +2.1234063577E+000  +1.2915802333E-001 +4.2340746351E+000  +1.2994523763E-001 +1.1366361551E+001  +6.1347489045E-001 +2.3387879354E-001 
12648663.329 +6.0663838579E-001 +2.7787671865E+000  +1.3324929973E-001 +4.0298659779E+000  +1.2810841986E-001 +1.0531602646E+001  +6.1244584988E-001 -1.0093367311E+000 
12773808.511 +6.0655264720E-001 +7.5253671357E-002  +1.3486314480E-001 +4.1132793720E+000  +1.3174956654E-001 +1.0552213702E+001  +6.3001218892E-001 -6.5400571376E-001 
12898953.692 +6.3412989231E-001 +2.1082143318E+000  +1.3338560052E-001 +4.5701110076E+000  +1.3383702961E-001 +1.0315189394E+001  +6.4447081915E-001 -7.6436021598E-001 
13024098.874 +6.4716985308E-001 +2.1310644975E+000  +1.3560957461E-001 +4.9968894012E+000  +1.3553787601E-001 +9.9387394504E+000  +6.6969735703E-001 -1.8507639984E+000 
13149244.055 +6.5243826979E-001 +1.2873308231E+000  +1.3564848916E-001 +4.8168755341E+000  +1.3649818588E-001 +9.1929286364E+000  +6.8307700604E-001 -1.4226351951E+000 
13274389.237 +6.8512333976E-001 +1.9600398330E-001  +1.3891617098E-001 +5.0083474791E+000  +1.3717905064E-001 +9.3187329038E+000  +6.7021473340E-001 -8.1850641172E-001 
13399534.418 +7.0256833299E-001 -1.4883524424E+000  +1.4107715572E-001 +5.3685548298E+000  +1.3776205915E-001 +8.3429344124E+000  +6.9936733992E-001 -2.1406082644E+000 
13524679.599 +7.0689788305E-001 -9.5211962889E-001  +1.4101169557E-001 +5.3298022579E+000  +1.3672712764E-001 +7.7829611787E+000  +7.2047566204E-001 -2.1656835117E+000 
13649824.781 +7.3091851187E-001 -1.2274234460E+000  +1.4216176836E-001 +4.7193386854E+000  +1.4041703374E-001 +7.5339106418E+000  +7.3542280471E-001 -4.2085721705E+000 
13774969.962 +7.3902954500E-001 -4.4817044922E-001  +1.4210768780E-001 +5.6073653308E+000  +1.4259929467E-001 +7.2822195448E+000  +7.5340400449E-001 -4.1950241521E+000 
13900115.144 +7.3719158428E-001 -1.3721271594E+000  +1.4247570529E-001 +4.5029149065E+000  +1.4307877031E-001 +5.7923218290E+000  +7.6128745669E-001 -3.1505242612E+000 
14025260.325 +7.6658033027E-001 -1.9021437621E+000  +1.4468486831E-001 +5.1522625548E+000  +1.4269635329E-001 +6.0777328836E+000  +7.9776735319E-001 -2.1546870715E+000 
14150405.507 +7.9584876863E-001 -4.7425241901E+000  +1.4753578377E-001 +4.7253393620E+000  +1.4556058879E-001 +5.7065253762E+000  +8.0815282713E-001 -4.6263646667E+000 
14275550.688 +7.8787987948E-001 -4.1155563975E+000  +1.4659898968E-001 +4.0717885973E+000  +1.4312102148E-001 +5.1334992838E+000  +8.2710403914E-001 -3.7049355457E+000 
14400695.870 +8.2974925500E-001 -4.5440096287E+000  +1.4773716098E-001 +4.2913686284E+000  +1.4681471275E-001 +5.0886646041E+000  +8.2995449969E-001 -5.9706009548E+000 
