!  2-Port S-parameters saved by WinCal
! VAR NAME=S2_r8c9_formed(0)_9k-100M_1
! VAR DATE=30/08/2024 11:58:42
! VAR FILENAME=S2_r8c9_formed(0)_9k-100M_1.S2P
! VAR MeasName=S-Parameters (CALIBRATED_DATA) read from VNA (P5004A)
! VAR MeasDate=28/08/2024 15:54:06
! VAR PHYS_PORTS=1,2
! VAR ObjTypeName=DATASET
! VAR IndexType=Frequency
!
# Hz S MA R 50
9000.000 +8.9191048268E-002 -1.7681881428E+002  +7.6191754737E-003 +1.2384487664E+002  +5.2849018277E-003 +1.6532803545E+002  +2.3178662069E-001 -1.4879316737E+002 
134145.181 +1.1068867590E-001 +1.6971859746E+002  +2.1029622490E-004 +6.0748333425E+001  +4.3263484461E-004 -1.1575079441E+002  +2.4060789189E-001 -1.7005332621E+002 
259290.363 +1.1170591465E-001 +1.6972396893E+002  +1.0083107269E-003 -7.9432928667E+001  +7.5427037922E-004 +1.0500391545E+002  +2.3762987135E-001 -1.6899608197E+002 
384435.544 +1.1467617962E-001 +1.6964525134E+002  +6.8371508977E-004 -3.0908537171E+001  +4.8692658209E-004 +1.1279760623E+002  +2.3965335390E-001 -1.6874113582E+002 
509580.726 +1.1572965072E-001 +1.7039063443E+002  +1.6491181270E-003 -1.5465705033E+001  +7.7156658672E-004 +1.1927502446E+002  +2.3701939583E-001 -1.6703164696E+002 
634725.907 +1.1672466722E-001 +1.7072246620E+002  +1.2664428874E-003 -5.9987390764E+001  +9.9777855104E-004 +1.1783531225E+002  +2.4805945118E-001 -1.6687025121E+002 
759871.089 +1.2056575517E-001 +1.7101493471E+002  +1.6272413667E-003 -8.5028828852E+001  +1.2481403731E-003 +1.1665099771E+002  +2.4425369926E-001 -1.6679517081E+002 
885016.270 +1.2048173377E-001 +1.6939085898E+002  +9.5061536072E-004 -6.1713310432E+001  +8.9398080519E-004 +1.4043117483E+002  +2.4414614868E-001 -1.6800477974E+002 
1010161.452 +1.1646857560E-001 +1.6956379119E+002  +2.1023845500E-003 +2.2338338575E+000  +2.1253236367E-003 -1.3629935080E+002  +2.1548457323E-001 -1.7089927547E+002 
1135306.633 +1.1804477277E-001 +1.6867865480E+002  +2.7077104186E-003 +1.5202894427E+001  +4.3357118477E-003 -1.4445736450E+002  +2.0067160229E-001 -1.6754325426E+002 
1260451.815 +1.2207797021E-001 +1.7047291909E+002  +2.0019178358E-003 -3.4198941689E+001  +3.5966430411E-003 +1.6779320816E+002  +2.3172224959E-001 -1.5620013417E+002 
1385596.996 +1.2457388589E-001 +1.7186066541E+002  +2.6054771188E-003 -8.3802193738E+001  +3.1820594210E-003 +1.5206454659E+002  +2.5866094098E-001 -1.5842787459E+002 
1510742.178 +1.2812479325E-001 +1.7271069375E+002  +1.9402730168E-003 -1.3308387368E+001  +3.1771166503E-003 +1.4723598408E+002  +2.5056225093E-001 -1.5836767928E+002 
1635887.359 +1.2788318907E-001 +1.7166852433E+002  +3.2817665498E-003 -2.2668148416E+001  +3.6537330140E-003 -1.7015821935E+002  +2.3579667640E-001 -1.5368758537E+002 
1761032.541 +1.3206166095E-001 +1.7133794922E+002  +3.3744463164E-003 +5.1179263127E+001  +3.2605131524E-003 -9.5928536896E+001  +2.2223158096E-001 -1.6257241882E+002 
1886177.722 +1.3366663131E-001 +1.6913018707E+002  +4.1315899832E-003 +6.0811832207E+001  +5.2740785699E-003 -8.3602770991E+001  +2.2466496122E-001 -1.6172092855E+002 
2011322.904 +1.3017218577E-001 +1.6865667358E+002  +1.0156076618E-002 +5.7544957927E+001  +1.0791555749E-002 -7.7518943588E+001  +2.0389017811E-001 -1.5744994611E+002 
2136468.085 +1.3405013506E-001 +1.6547537207E+002  +1.3026269900E-002 +7.3027273307E+001  +1.1859033446E-002 -5.3689366853E+001  +1.9915553620E-001 -1.6133596458E+002 
2261613.267 +1.3624886719E-001 +1.6876022575E+002  +1.4503853352E-002 +6.8735197607E+001  +1.4317025902E-002 -4.4973015615E+001  +1.9995764603E-001 -1.7118722821E+002 
2386758.448 +1.3925093735E-001 +1.6330167277E+002  +2.2665882912E-002 +9.7177264606E+001  +2.0793184750E-002 -2.9497680766E+001  +1.7290328487E-001 -1.7050197000E+002 
2511903.630 +1.3077830781E-001 +1.6679982883E+002  +3.4912097721E-002 +6.3810224073E+001  +3.5546619661E-002 -4.2164736520E+001  +1.4340275793E-001 -1.7165370501E+002 
2637048.811 +1.2850670539E-001 +1.6437745387E+002  +7.1697166319E-002 +8.9655676579E+001  +7.3253793509E-002 -2.1389798946E+001  +2.0311124693E-001 +1.2071969110E+002 
2762193.992 +1.2824038704E-001 +1.7554673722E+002  +6.4976412083E-002 -4.1812993042E+000  +5.7972393478E-002 -1.1312220610E+002  +2.4549190936E-001 -1.2636189041E+002 
2887339.174 +1.0258385065E-001 -1.7585418222E+002  +1.0610898952E-001 -6.0027293478E+000  +1.1624074319E-001 -1.0552178672E+002  +2.5216714255E-001 -1.0922189851E+002 
3012484.355 +1.4177880431E-001 +1.7492630002E+002  +5.4896520486E-002 +1.3745632047E+000  +5.3042348280E-002 -9.8687827661E+001  +1.7480768806E-001 -1.1690509975E+002 
3137629.537 +1.3615953527E-001 +1.7619219053E+002  +9.3262583558E-002 -1.0449482322E+001  +9.0934793975E-002 -1.0392909296E+002  +2.9047861171E-001 -9.2496896786E+001 
3262774.718 +1.3379941810E-001 +1.7425174288E+002  +7.1449833810E-002 +3.4369423404E+001  +7.4600978972E-002 -6.2779926202E+001  +6.9233532564E-002 -1.7052692785E+002 
3387919.900 +1.3649707599E-001 +1.7488698391E+002  +5.8317022762E-002 +3.8945866551E+000  +6.2662395817E-002 -8.7075372288E+001  +2.0929146003E-001 -1.2678863284E+002 
3513065.081 +1.5059878889E-001 +1.5410373861E+002  +1.2317850911E-001 +7.2045647261E+001  +1.2007401308E-001 -9.0071508043E+000  +2.2994088263E-001 +7.4133553691E+001 
3638210.263 +1.6352840947E-001 +1.4791287005E+002  +1.2176884330E-001 +1.0261511656E+002  +1.2479138886E-001 +2.5954330008E+001  +3.8717320014E-001 +1.2468846308E+002 
3763355.444 +1.4529791124E-001 +1.4233389991E+002  +1.3343771427E-001 +7.8874506196E+001  +1.3555470272E-001 -8.1403184816E-001  +1.9245993303E-001 +1.1294022652E+002 
3888500.626 +1.8559270899E-001 +1.5324193087E+002  +8.8854609038E-002 +1.0599907639E+002  +8.5375872557E-002 +3.1307446906E+001  +3.4856129304E-001 +1.3872159529E+002 
4013645.807 +1.5544469721E-001 +1.5221302261E+002  +8.4994764817E-002 +8.2453205509E+001  +8.3932632371E-002 +8.9124880937E+000  +2.8280208082E-001 +1.6015292036E+002 
4138790.989 +1.4169405087E-001 +1.5167455705E+002  +1.1659146109E-001 +7.1592994325E+001  +1.1460163354E-001 +6.7900307704E+000  +2.7981051941E-001 +1.4333535837E+002 
4263936.170 +1.8636656114E-001 +1.4937983009E+002  +1.1745651941E-001 +8.9801957102E+001  +1.1857717076E-001 +2.2533712606E+001  +3.5069346899E-001 +1.2957846950E+002 
4389081.352 +1.4969638409E-001 +1.4328108951E+002  +1.5671016400E-001 +7.7249009696E+001  +1.5071354460E-001 +1.8312610139E+001  +3.6648507060E-001 +1.3273411151E+002 
4514226.533 +2.1306555509E-001 +1.3413805109E+002  +2.2166259156E-001 +1.1220426845E+002  +2.2285009570E-001 +5.3462958189E+001  +7.5593548794E-001 +1.3496393408E+002 
4639371.715 +2.6423489753E-001 +1.2136777852E+002  +2.9878726510E-001 +1.0488845493E+002  +2.8275573183E-001 +5.1852595251E+001  +6.7381345146E-001 +1.1759380585E+002 
4764516.896 +2.9920512262E-001 +1.3182776840E+002  +2.6402678159E-001 +1.1998564904E+002  +2.6499856001E-001 +7.2318407253E+001  +8.0889218713E-001 +1.3074641217E+002 
4889662.078 +5.9433667732E-001 +1.3907532872E+002  +1.0463103092E+000 +1.6726596942E+002  +1.0028457201E+000 +1.1953476078E+002  +3.1519983929E+000 +1.5452963149E+002 
5014807.259 +4.8452656911E-001 +1.3223501023E+002  +7.7075782422E-001 +1.5142927645E+002  +7.6966758936E-001 +1.0708514395E+002  +2.6280806614E+000 +1.4441890135E+002 
5139952.441 +3.4069917868E-001 +1.2740973646E+002  +3.7925190246E-001 +1.2095052833E+002  +3.6745888088E-001 +7.7377253807E+001  +1.2337518007E+000 +1.3225133853E+002 
5265097.622 +3.5348752801E-001 +1.2261559349E+002  +2.9839362536E-001 +1.1080588672E+002  +2.9379449897E-001 +6.9084183221E+001  +8.1055575333E-001 +1.3593613534E+002 
5390242.804 +2.9430796649E-001 +1.3568343214E+002  +2.4657923407E-001 +1.0126010810E+002  +2.3426640025E-001 +6.1992308723E+001  +9.0929265753E-001 +1.3477079920E+002 
5515387.985 +3.4240337446E-001 +1.3383740370E+002  +3.1640044040E-001 +9.4527260462E+001  +3.1323459190E-001 +6.2174627100E+001  +1.1009397001E+000 +1.1261250705E+002 
5640533.166 +3.8213084615E-001 +1.3718314686E+002  +2.6501129802E-001 +1.0723735558E+002  +2.5637648814E-001 +7.6684262883E+001  +1.0973076358E+000 +1.3286008184E+002 
5765678.348 +3.3240629616E-001 +1.3259143769E+002  +2.7713678159E-001 +7.6643815123E+001  +2.7853588020E-001 +4.7626783727E+001  +8.3261621208E-001 +1.1382214952E+002 
5890823.529 +4.1123932678E-001 +1.2363767433E+002  +3.5066577016E-001 +8.0313066850E+001  +3.4314427855E-001 +5.4291277626E+001  +9.1316068674E-001 +1.0699386024E+002 
6015968.711 +5.2120441207E-001 +1.1892979469E+002  +4.6434202571E-001 +9.3820816812E+001  +4.4311291388E-001 +7.1892941962E+001  +1.3785453384E+000 +1.1138539299E+002 
6141113.892 +5.1776393394E-001 +1.0630267897E+002  +5.2886421441E-001 +7.4760297415E+001  +5.1548071739E-001 +5.2486604625E+001  +1.2434008442E+000 +9.5752734743E+001 
6266259.074 +5.2348200603E-001 +1.1322263727E+002  +4.9377135604E-001 +5.6281526070E+001  +4.8172641557E-001 +3.9318154962E+001  +1.1485593498E+000 +5.9947023439E+001 
6391404.255 +5.6989474757E-001 +1.0130028240E+002  +5.4512051843E-001 +5.8469703368E+001  +5.2378810521E-001 +4.1559400194E+001  +1.1585794805E+000 +7.7383383395E+001 
6516549.437 +5.8696692037E-001 +7.7711990605E+001  +6.5611019635E-001 +3.2572198080E+001  +6.3766941296E-001 +1.9504779570E+001  +1.0271148027E+000 +3.4375671960E+001 
6641694.618 +6.9405742109E-001 +7.1180610928E+001  +6.7033069681E-001 +3.4518023511E+001  +6.5196229520E-001 +2.3105857653E+001  +1.0109859628E+000 +4.8903119282E+001 
6766839.800 +6.5768452858E-001 +3.6633905640E+001  +7.0708373068E-001 +1.2036155931E+001  +7.0661847865E-001 +2.7721091550E+000  +9.0849336543E-001 +1.8645568578E+001 
6891984.981 +7.0105661083E-001 +3.9362693096E+001  +6.4945829132E-001 +1.1323922696E+001  +6.5923650128E-001 +6.0712661803E+000  +8.0726397340E-001 +2.1260968835E+001 
7017130.163 +8.5434665177E-001 +1.7615804499E+001  +6.4914509097E-001 +5.1213350976E+000  +6.4002687002E-001 +1.7055451064E+000  +6.0443892095E-001 +1.0177773450E+001 
7142275.344 +6.5951288083E-001 +8.4782129528E+000  +5.6867324916E-001 +1.8904813904E+000  +5.6688684527E-001 -2.5848647984E+000  +6.4747562666E-001 +8.7018616733E+000 
7267420.526 +5.8198254059E-001 +1.0009007675E+000  +5.2422747299E-001 -7.8265979082E-001  +5.1985858736E-001 -2.4315331647E+000  +7.3718926478E-001 -1.5274439618E+001 
7392565.707 +7.3602724520E-001 +6.6074942969E+000  +4.8162191423E-001 +3.7727417404E+000  +4.9249508792E-001 +4.3695484338E+000  +8.0438093496E-001 -7.0800875301E+000 
7517710.889 +6.7517964192E-001 +3.0949102929E+000  +4.6513760293E-001 +2.8622057697E+000  +4.5962053772E-001 +3.8029502552E+000  +5.6279015915E-001 -4.6194850122E+000 
7642856.070 +4.7195240758E-001 +1.0233251532E+001  +4.2874418202E-001 +6.4391497823E-001  +4.2534351190E-001 +4.8162590338E+000  +6.2934733608E-001 -5.8728487016E+000 
7768001.252 +5.0499454949E-001 +1.1544525360E+001  +4.1447171285E-001 -3.6221305140E-001  +4.1288531860E-001 +4.4808082666E+000  +5.1621456360E-001 -1.6841692497E+000 
7893146.433 +4.7504859434E-001 +1.6416695848E+001  +4.0088800657E-001 -3.6991921458E-001  +3.9464586743E-001 +5.0883169178E+000  +4.6130220723E-001 +6.3178119314E+000 
8018291.615 +3.1146514490E-001 +2.3044232643E+001  +3.8621817264E-001 -2.8597973240E+000  +3.7914236262E-001 +5.7356685829E+000  +4.3823995140E-001 +1.0352274427E+001 
8143436.796 +3.8159026058E-001 +2.3808561930E+001  +3.7636286749E-001 -2.4250891727E+000  +3.6883043955E-001 +6.5560680565E+000  +4.3273021905E-001 +1.4376445232E+001 
8268581.977 +3.8649891263E-001 +2.8759573328E+001  +3.6425880894E-001 -3.3599055348E+000  +3.5784550822E-001 +5.8872619615E+000  +2.8459695701E-001 +1.6218983377E+001 
8393727.159 +3.0640307644E-001 +3.0374818634E+001  +3.6339452972E-001 -3.9907805067E+000  +3.6320378164E-001 +6.0052780948E+000  +3.3220632386E-001 +4.3283699999E+000 
8518872.340 +2.7608207131E-001 +3.5572495987E+001  +3.5273489552E-001 -5.2418435525E+000  +3.5310199677E-001 +6.6966774835E+000  +3.2231217415E-001 +1.6876288028E+001 
8644017.522 +2.1971956118E-001 +2.9387404261E+001  +3.4985692606E-001 -6.4275902185E+000  +3.4399941158E-001 +5.9987518327E+000  +2.7917751790E-001 +2.0549834378E+001 
8769162.703 +2.8947295888E-001 +1.4847862601E+001  +3.4941424101E-001 -4.4912084390E+000  +3.4738984481E-001 +8.5158703474E+000  +3.3571379192E-001 +2.4516303123E+001 
8894307.885 +2.0344829643E-001 +3.7657752531E+001  +3.4267983070E-001 -5.9932026612E+000  +3.3642724897E-001 +7.9123662121E+000  +3.0668003263E-001 +2.3309441802E+001 
9019453.066 +2.1152430835E-001 +2.0043941774E+001  +3.4473217845E-001 -6.7827601916E+000  +3.4283346347E-001 +7.6943340211E+000  +2.7014883324E-001 +1.8271418663E+001 
9144598.248 +2.0193850634E-001 +2.9464674003E+001  +3.4160952536E-001 -6.4282906005E+000  +3.3575509749E-001 +8.6884564364E+000  +2.6573779400E-001 +2.7272424723E+001 
9269743.429 +2.2736694201E-001 +2.2276137401E+001  +3.4330270419E-001 -6.0253642092E+000  +3.3897644115E-001 +9.1540037419E+000  +2.5510751156E-001 +2.5497596015E+001 
9394888.611 +2.1955108512E-001 +2.7266981267E+001  +3.4192691509E-001 -6.3877460361E+000  +3.3939902691E-001 +8.9549653148E+000  +1.9754287357E-001 +1.2039437593E+001 
9520033.792 +1.7198050700E-001 +3.3175861555E+001  +3.4153656700E-001 -6.6276064204E+000  +3.3516782624E-001 +8.8296584752E+000  +2.2274119184E-001 +7.1525522377E+000 
9645178.974 +1.9432520793E-001 +1.5050749692E+001  +3.4078082752E-001 -6.2942621796E+000  +3.4398212405E-001 +9.1958683051E+000  +1.8802438142E-001 +8.0865223700E+000 
9770324.155 +2.2604386847E-001 +8.2735367886E+000  +3.4780650142E-001 -5.8297613325E+000  +3.4533045981E-001 +9.7890241215E+000  +2.4166793584E-001 +1.1136712786E+001 
9895469.337 +1.9040214807E-001 +2.3242599269E+001  +3.4319675541E-001 -6.5107656143E+000  +3.4053117028E-001 +9.2588922633E+000  +1.7340190007E-001 +1.6217125945E+001 
10020614.518 +2.2206708584E-001 +2.5528950775E+001  +3.4449574194E-001 -5.3566427135E+000  +3.3972548775E-001 +1.0011422806E+001  +2.2387774763E-001 +3.5417417556E+000 
10145759.700 +2.0846833847E-001 +2.5096784300E+001  +3.4635365606E-001 -4.8652654986E+000  +3.4419526793E-001 +1.0739475774E+001  +2.4771375403E-001 +7.6917189354E+000 
10270904.881 +2.2698458480E-001 +1.3627160354E+001  +3.4613274779E-001 -4.9479887226E+000  +3.4712760701E-001 +1.0652372227E+001  +2.2717495686E-001 +1.9532082294E+001 
10396050.063 +2.2127802080E-001 +2.0549670142E+001  +3.4993023943E-001 -4.7275279292E+000  +3.4237369986E-001 +1.1106998892E+001  +2.4227804153E-001 +1.7108945203E+001 
10521195.244 +2.0850902091E-001 +2.5178922860E+001  +3.4821003122E-001 -4.6818358507E+000  +3.4627046921E-001 +1.0361393726E+001  +2.2902257201E-001 +1.8760889358E+001 
10646340.426 +2.1285947452E-001 +2.5219220456E+001  +3.4936371840E-001 -4.4263869806E+000  +3.4467936362E-001 +1.0402957434E+001  +2.4413108870E-001 +2.6034477919E+001 
10771485.607 +2.0235161858E-001 +2.1018992610E+001  +3.5293181012E-001 -4.3177455278E+000  +3.4982380609E-001 +1.0083656245E+001  +2.5396112866E-001 +2.6425928812E+001 
10896630.788 +2.5482416892E-001 +3.0566148358E+001  +3.5032134908E-001 -3.4134812361E+000  +3.4969277753E-001 +1.0966492581E+001  +2.5147360007E-001 +2.4273790535E+001 
11021775.970 +1.9805064781E-001 +1.0630013273E+001  +3.6168441892E-001 -3.6698783587E+000  +3.6045765274E-001 +9.5215827019E+000  +2.6563047725E-001 +1.8833848561E+001 
11146921.151 +2.5464272049E-001 +2.5238446046E+001  +3.5708909320E-001 -3.0889444833E+000  +3.5533501732E-001 +1.0459494512E+001  +2.4451696610E-001 +2.2014993094E+001 
11272066.333 +2.5266560047E-001 +2.8802131800E+001  +3.6072594525E-001 -2.6070886995E+000  +3.5774594528E-001 +1.0352844278E+001  +2.7331437687E-001 +2.3660038048E+001 
11397211.514 +2.6073397926E-001 +2.6360154638E+001  +3.6480529991E-001 -1.9046268291E+000  +3.6312924127E-001 +1.0549639738E+001  +2.8223429819E-001 +1.6880447990E+001 
11522356.696 +2.6119516958E-001 +2.2578296644E+001  +3.6868237586E-001 -1.9499634215E+000  +3.6507685085E-001 +9.9674951377E+000  +2.8221549639E-001 +1.9924911714E+001 
11647501.877 +2.7540524874E-001 +2.5841904630E+001  +3.7083081213E-001 -1.8816199252E+000  +3.6581061124E-001 +9.1677264052E+000  +2.5135564347E-001 +2.1749510365E+001 
11772647.059 +2.8864180997E-001 +1.9009007716E+001  +3.7345870572E-001 -8.0367736096E-001  +3.7143322402E-001 +9.7712782452E+000  +3.0458277510E-001 +2.0189369920E+001 
11897792.240 +2.8438959959E-001 +1.7860174936E+001  +3.7766802077E-001 -1.3483555564E+000  +3.7517422976E-001 +8.9476737461E+000  +2.8555338070E-001 +2.0793691085E+001 
12022937.422 +3.0223932740E-001 +1.4211209953E+001  +3.8671692767E-001 -8.5028365711E-001  +3.8255561287E-001 +8.8300781627E+000  +2.7122800485E-001 +1.4676802124E+001 
12148082.603 +3.1193221246E-001 +1.6203468746E+001  +3.8614783390E-001 -5.4735293394E-001  +3.8346327422E-001 +8.8196025954E+000  +3.0322190621E-001 +1.5957907278E+001 
12273227.785 +3.2060464850E-001 +1.2415246564E+001  +3.8952646689E-001 -9.5997573547E-002  +3.8745875966E-001 +8.1782125819E+000  +2.9204381201E-001 +1.9567696107E+001 
12398372.966 +3.0365557943E-001 +1.0383488483E+001  +3.9566992225E-001 -3.1723382145E-001  +3.9154834006E-001 +7.2855661503E+000  +3.0469370212E-001 +1.5631076274E+001 
12523518.148 +3.2018999392E-001 +1.3300225536E+001  +3.9988215169E-001 +4.0876344256E-001  +3.9424093825E-001 +7.5883738161E+000  +3.4122926917E-001 +1.1109662619E+001 
12648663.329 +3.3520787695E-001 +5.0316938928E+000  +4.0849698740E-001 +1.6140328832E-001  +4.0287995810E-001 +6.9962079824E+000  +3.1877990315E-001 +8.4953601392E+000 
12773808.511 +3.2946335614E-001 +7.0298682309E+000  +4.0983928011E-001 +4.2831854840E-001  +4.0488308356E-001 +6.4320492939E+000  +3.3693516399E-001 +7.4521104033E+000 
12898953.692 +3.5266227217E-001 +7.0933421644E+000  +4.1507162858E-001 +8.1781617405E-001  +4.1097148529E-001 +6.2878284030E+000  +3.5578981158E-001 +6.4072908008E+000 
13024098.874 +3.6591935385E-001 +5.2647724769E+000  +4.1678182476E-001 +6.0568439669E-001  +4.1314702387E-001 +5.9092135842E+000  +3.4484383648E-001 +7.6021612854E+000 
13149244.055 +3.7372196257E-001 +6.4664164983E+000  +4.2021861736E-001 +1.2281184537E+000  +4.1629664529E-001 +5.3898064949E+000  +3.7424982554E-001 +3.9200794226E+000 
13274389.237 +3.6424867582E-001 +3.2596741263E+000  +4.2529591439E-001 +7.9907979374E-001  +4.2087232278E-001 +4.9064805231E+000  +3.8255133010E-001 +6.2894010561E+000 
13399534.418 +4.1454046731E-001 +4.5152545124E+000  +4.3160513633E-001 +1.4758486773E+000  +4.2487602634E-001 +4.9862188053E+000  +3.8991587368E-001 +2.5401545348E+000 
13524679.599 +4.1808945196E-001 +3.9482448708E+000  +4.3371442077E-001 +1.3798424079E+000  +4.2928601894E-001 +4.4017651451E+000  +4.0269808681E-001 +1.2997436786E+000 
13649824.781 +4.3125633378E-001 +4.9620803840E+000  +4.3382072086E-001 +1.5080517471E+000  +4.3036137796E-001 +4.0479009168E+000  +4.1361596179E-001 +1.5937168523E+000 
13774969.962 +4.2571680491E-001 -1.8343982624E+000  +4.4302665527E-001 +1.1165881355E+000  +4.3937732751E-001 +3.5005019674E+000  +4.3016963496E-001 +4.9687822170E-001 
13900115.144 +4.3113800951E-001 +1.7178601524E-001  +4.4518081451E-001 +1.2382663243E+000  +4.4088667950E-001 +3.0126169722E+000  +4.5117857013E-001 -1.5222277734E+000 
14025260.325 +4.7145929235E-001 -7.8659062094E-001  +4.5050036200E-001 +1.4280163105E+000  +4.4428391949E-001 +2.8841659126E+000  +4.7067245680E-001 -2.2699640121E+000 
14150405.507 +4.8031329031E-001 -9.6348111047E-001  +4.5247268283E-001 +1.2623687528E+000  +4.4742306452E-001 +2.4984000010E+000  +4.6853843727E-001 -4.5799225464E+000 
14275550.688 +4.9758737151E-001 -3.5454464927E+000  +4.5570714997E-001 +1.2501258786E+000  +4.5001072862E-001 +1.9092172427E+000  +4.8608922300E-001 -1.3400467311E+000 
14400695.870 +5.1030869247E-001 -5.2412747299E+000  +4.5995957027E-001 +1.0751372529E+000  +4.5467293163E-001 +1.7924406145E+000  +5.0338387604E-001 -3.2464158909E+000 
