!  2-Port S-parameters saved by WinCal
! VAR MeasName=S-Parameters (CALIBRATED_DATA) read from VNA (P5004A)
! VAR MeasDate=27/08/2024 16:44:44
! VAR NAME=S2_r2c9_SET2_9k-100M_2
! VAR FILENAME=S2_r2c9_SET2_9k-100M_2.S2P
! VAR DATE=27/08/2024 16:44:44
! VAR PHYS_PORTS=1,2
! VAR ObjTypeName=DATASET
! VAR IndexType=Frequency
!
# Hz S MA R 50
9000.000 +6.4111374137E-002 -1.5889896445E+002  +2.0547242464E-002 -3.0404693214E+001  +5.6288795934E-003 +1.2032667320E+002  +3.4959389789E-001 -1.3648060077E+002 
134145.181 +1.1081505460E-001 +1.7006629701E+002  +3.2322129136E-004 -7.6212092837E+001  +4.2259105868E-004 -3.5942309143E+001  +2.3726687760E-001 -1.7167837163E+002 
259290.363 +1.1194077133E-001 +1.6949227205E+002  +3.9911205822E-004 -5.5511062938E+001  +5.6433386349E-004 +4.4653100999E+001  +2.4429773232E-001 -1.7009883133E+002 
384435.544 +1.1301155833E-001 +1.7044216882E+002  +9.0070667030E-004 -6.8921617702E+001  +1.0054455644E-003 -1.3493555126E+002  +2.4751534174E-001 -1.6852202413E+002 
509580.726 +1.1377389003E-001 +1.6990459565E+002  +1.8252172559E-003 -1.1649364019E+002  +5.9661678120E-004 +1.4607444158E+001  +2.4825410994E-001 -1.6503026177E+002 
634725.907 +1.1572746878E-001 +1.7073402632E+002  +4.5198384682E-004 -1.3088531737E+002  +1.9430730380E-004 -6.7422592376E+001  +2.4599361699E-001 -1.6798893602E+002 
759871.089 +1.1705906238E-001 +1.6979069092E+002  +5.1745075037E-004 +1.5562873865E+002  +3.6207675987E-004 -3.2287013046E+001  +2.4585962521E-001 -1.6543442385E+002 
885016.270 +1.1752619059E-001 +1.6888733007E+002  +7.7286569522E-004 -2.8715831482E+001  +4.2353649826E-004 -1.2474034872E+002  +2.4457592434E-001 -1.6556192237E+002 
1010161.452 +1.1939980975E-001 +1.7155586090E+002  +9.8640887018E-004 +6.0799860188E+001  +1.3277031834E-003 +2.6405572844E+001  +1.8027245525E-001 -1.5888718197E+002 
1135306.633 +1.1247578845E-001 +1.6940483664E+002  +2.0855044445E-003 -6.9499044360E+000  +1.0738407463E-003 +9.6198962782E+001  +2.2677101698E-001 -1.5880372152E+002 
1260451.815 +1.1977490650E-001 +1.7086154055E+002  +1.8318635133E-003 -5.0706964960E+001  +1.3326806890E-003 +9.4214330422E+001  +2.2100034890E-001 -1.5335371301E+002 
1385596.996 +1.2270394889E-001 +1.7194959701E+002  +1.0759921470E-003 -1.7364851583E+002  +5.7889778150E-004 -6.2796419992E+001  +2.5327909130E-001 -1.5966886884E+002 
1510742.178 +1.2866826696E-001 +1.7128888841E+002  +1.3983196701E-003 -1.0218859788E+002  +9.3221073095E-004 +1.5047894216E+002  +2.6722530855E-001 -1.5876217443E+002 
1635887.359 +1.3071098723E-001 +1.7009814349E+002  +3.3780023488E-004 +1.2314411353E+002  +8.9448424516E-004 +1.2612132881E+002  +2.4543228405E-001 -1.5588540016E+002 
1761032.541 +1.3110425100E-001 +1.6912132217E+002  +4.3363241457E-004 +3.9017004869E+001  +2.4963417846E-004 +1.0022885990E+001  +2.1867462056E-001 -1.6272919892E+002 
1886177.722 +1.3152161266E-001 +1.6839177907E+002  +1.5081652601E-003 -2.8833297074E+001  +2.0094894549E-003 +3.2902438430E+001  +1.7167828823E-001 -1.6283334916E+002 
2011322.904 +1.3006326171E-001 +1.7023588995E+002  +2.7617957391E-003 +8.1032334826E+001  +1.7618551871E-003 -9.3442966868E+000  +1.4196960128E-001 -1.7049643538E+002 
2136468.085 +1.3606611858E-001 +1.6449311042E+002  +3.0279779456E-003 +1.0506677496E+002  +2.4809555188E-003 -9.1650822630E+000  +2.0140747316E-001 -1.7073243546E+002 
2261613.267 +1.3723259501E-001 +1.6447607766E+002  +3.5991526787E-003 +8.1851156765E+001  +3.0955598895E-003 -4.8389055887E+001  +1.9967347672E-001 -1.7735514511E+002 
2386758.448 +1.2871607848E-001 +1.6709803156E+002  +5.9588670024E-003 +9.8725882333E+001  +1.2224884157E-003 +4.5077879549E+001  +2.3124739498E-001 +1.7441063433E+002 
2511903.630 +1.3790602347E-001 +1.6405844428E+002  +4.4729406357E-003 +2.8620779888E+001  +6.6038045644E-003 -6.2899571073E+001  +1.5864368144E-001 -1.5953766411E+002 
2637048.811 +1.2902218431E-001 +1.5419704160E+002  +1.2113289138E-002 +1.7236259702E+002  +1.6063090699E-002 +2.9005348447E+001  +4.3409970843E-001 +1.6161617335E+002 
2762193.992 +1.1982033419E-001 -1.7741862417E+002  +1.5166238683E-002 +1.0214160295E+001  +1.2909110440E-002 -1.4767199182E+002  +1.0164689902E-001 -1.3662258099E+002 
2887339.174 +1.2906976783E-001 +1.7884643340E+002  +1.1911983472E-002 -1.4020174515E+002  +1.5785371313E-002 -1.7394550465E+002  +3.3408547548E-001 -1.1050619517E+002 
3012484.355 +1.3450461172E-001 +1.7106233260E+002  +5.2715643383E-003 -4.7845859777E+001  +1.0984730149E-002 +1.6785049082E+002  +3.7023652487E-001 -1.1711154536E+002 
3137629.537 +1.2884059938E-001 +1.7882236567E+002  +2.8611183977E-002 -1.5159949148E+002  +1.6969043218E-002 +7.2580712028E+001  +1.1216838700E+000 -1.2460322327E+002 
3262774.718 +1.1458618063E-001 +1.7184664098E+002  +1.3485417126E-002 -3.0747751050E+001  +1.4635582546E-002 -1.4409844294E+002  +3.3120706861E-001 -1.0718023047E+002 
3387919.900 +1.3428390838E-001 +1.6462328330E+002  +3.5192337327E-002 +6.5664441705E+001  +3.9733698770E-002 -1.7822208677E+000  +9.2421538099E-001 +9.6646988661E+001 
3513065.081 +1.4439393428E-001 +1.5411543009E+002  +1.3680880931E-002 +1.2617401401E+002  +1.7980352354E-002 +6.3807286866E+001  +6.6025879548E-001 +1.4105116328E+002 
3638210.263 +1.5843152254E-001 +1.4766926778E+002  +2.9129050252E-002 +1.5429149507E+002  +2.1929115653E-002 +4.9815992262E+001  +1.0644221039E+000 +1.0051936685E+002 
3763355.444 +1.7977063667E-001 +1.4992527007E+002  +1.5871471276E-002 +1.0654500727E+002  +1.3511200316E-002 +1.0997944857E+002  +7.8026263861E-001 +1.5645992923E+002 
3888500.626 +1.5709278942E-001 +1.4302235665E+002  +1.5394818416E-002 +6.7172961615E+001  +4.1730769955E-002 -3.5271517137E+001  +5.0448481882E-001 +2.1089222058E+000 
4013645.807 +1.6464389092E-001 +1.5368894942E+002  +2.5672232190E-002 +3.7043147010E+001  +6.7369937744E-003 +8.2150004609E+000  +3.1612334974E-001 +8.2785688494E+001 
4138790.989 +1.5370410522E-001 +1.4963148478E+002  +1.1963329309E-002 +5.4800542572E+001  +2.0888920128E-002 -1.8092223403E+000  +2.0632861680E-001 +1.1653095684E+002 
4263936.170 +2.0447419205E-001 +1.4289794285E+002  +1.5607322200E-002 +1.0465678185E+002  +2.8934507667E-002 +5.3444401106E+001  +5.8611903951E-001 +1.3089387762E+002 
4389081.352 +1.7596255341E-001 +1.3415471848E+002  +2.7834903643E-002 +6.4400994639E+001  +2.4451696480E-002 +2.4423443113E+001  +2.2982876513E-001 +9.2317250410E+001 
4514226.533 +1.9875910714E-001 +1.4237547372E+002  +3.9353321784E-002 +9.7805659567E+001  +1.8038556457E-002 +4.2047565488E+001  +9.5382003911E-001 +8.6817285386E+001 
4639371.715 +2.2098409134E-001 +1.3825711151E+002  +6.3576273316E-002 +1.7771903832E+002  +1.1165043292E-001 +1.6767066040E+002  +3.7637851109E+000 -1.5121925146E+002 
4764516.896 +2.9213892742E-001 +1.3422342579E+002  +6.4389769202E-002 -1.4587562140E+002  +8.4165555555E-002 +1.6844611785E+002  +2.5465557095E+000 -1.7289175856E+002 
4889662.078 +5.1472162941E-001 +1.3708372541E+002  +2.3600311001E-001 +1.1796675632E+002  +2.2956035021E-001 +6.2053731466E+001  +2.8572698120E+000 +3.5400230852E+001 
5014807.259 +3.9990958301E-001 +1.2107597338E+002  +7.7351051058E-002 -5.4334944870E+001  +6.0511168972E-002 -8.5134785515E+001  +2.4275376774E+000 -1.0299893235E+002 
5139952.441 +3.8891400550E-001 +1.3091849077E+002  +3.5574572946E-001 +1.3633188859E+002  +2.4532662654E-001 +9.9891905054E+001  +1.1335834870E+001 +1.0150927325E+002 
5265097.622 +3.4028573958E-001 +1.3792218640E+002  +1.1791650563E-001 +1.6674139046E+001  +7.3970289453E-002 -3.4660831159E+001  +4.0551723313E+000 -3.0545757236E+001 
5390242.804 +3.7923490371E-001 +1.3040970385E+002  +3.3551810087E-002 +1.1327390172E+002  +3.4825135047E-002 +8.2792040209E+001  +1.1203096750E+000 +1.2612121835E+002 
5515387.985 +4.4844833858E-001 +1.2951951900E+002  +9.0982981475E-002 +8.1524765135E+001  +1.2193667584E-001 +7.1577795864E+001  +2.0979770806E+000 +6.7181696134E+001 
5640533.166 +4.4175205380E-001 +1.3610578531E+002  +7.9005978920E-002 +8.8894721353E+001  +6.5076219682E-002 +9.4849807744E+001  +2.1476091897E+000 +9.1540539973E+001 
5765678.348 +4.9996135497E-001 +1.2943834444E+002  +1.2356127741E-001 +9.6154950502E+001  +1.4754233279E-001 +6.5413182583E+001  +4.1047675977E+000 +6.1372623486E+001 
5890823.529 +5.6592942154E-001 +1.1356577082E+002  +9.4271318445E-002 +9.2714944740E+001  +6.7136293985E-002 +7.6804024616E+001  +1.8801191643E+000 +7.5407738770E+001 
6015968.711 +6.1193237355E-001 +1.2316911434E+002  +7.6411229296E-002 +9.5003998052E+001  +8.6321362013E-002 +6.8149558028E+001  +2.2629982192E+000 +5.7348352084E+001 
6141113.892 +7.0111537014E-001 +1.0432436145E+002  +9.9216537545E-002 +2.8263211429E+001  +7.2753989968E-002 +3.7435233573E+001  +1.8341634437E+000 +2.1169352253E+001 
6266259.074 +7.8489651424E-001 +8.5791312842E+001  +1.3607073186E-001 +3.4184485712E+001  +1.1847604324E-001 +1.6588521684E+001  +1.7993473856E+000 +1.9213704264E+001 
6391404.255 +1.0829326330E+000 +1.0485919483E+002  +7.7738730427E-002 +6.8637023320E+001  +9.3340068135E-002 +3.2782025625E+001  +1.7529710107E+000 +2.0917995794E+001 
6516549.437 +1.0824490185E+000 +9.0404688260E+001  +7.2162235223E-002 +4.0843366652E+001  +7.9408142509E-002 +2.4531268002E+001  +1.1405000571E+000 +1.5466751316E+001 
6641694.618 +1.5630685379E+000 +7.1257740318E+001  +7.4049549573E-002 +4.4287278473E+001  +7.9596711195E-002 +2.9508756170E+001  +8.3260152659E-001 -2.6521749265E+000 
6766839.800 +1.2994047600E+000 +6.3792213166E+001  +9.7163722897E-002 +2.1407326186E+001  +7.3528307904E-002 +4.3223253592E+000  +1.2867195551E+000 -3.0702221531E+000 
6891984.981 +2.3111039231E+000 +4.2788460782E+001  +1.1742510045E-001 +1.6922750019E+001  +1.1386265773E-001 +1.6261513307E+001  +1.2250839942E+000 -6.4551248743E+000 
7017130.163 +1.8575920797E+000 +3.3422250348E+001  +7.8732610497E-002 +2.4292869307E+001  +9.5568171849E-002 -4.2463926297E+000  +1.3072933052E+000 -1.2918848387E+001 
7142275.344 +1.2619414406E+000 +1.8252496058E+001  +6.1476462251E-002 +5.0386248311E+000  +7.6227508743E-002 -3.7382939281E+000  +1.4770569759E+000 -1.0445652784E+001 
7267420.526 +1.4474140026E+000 +7.7149005738E-001  +5.3040055683E-002 -8.3984491146E-001  +5.1416040852E-002 -2.7774584395E+000  +1.2376781785E+000 -1.5938291633E+001 
7392565.707 +1.2960879758E+000 -6.5983314841E-001  +4.3740006115E-002 +1.2982069004E+001  +5.0439048799E-002 +1.0043034364E+001  +1.2840253840E+000 -8.3670150622E+000 
7517710.889 +1.2185522498E+000 +6.4730549859E+000  +4.5325070159E-002 +8.8548463199E+000  +4.2115455173E-002 +9.9715559811E+000  +1.1868811947E+000 -6.1278301584E+000 
7642856.070 +1.0778779739E+000 -2.4827860113E+000  +4.2395392520E-002 +4.9663770714E-001  +4.7674410193E-002 +1.5844954281E+001  +1.0904187664E+000 -4.5241370545E+000 
7768001.252 +9.0622626389E-001 +6.8885014036E+000  +4.3485734647E-002 +7.0075434041E+000  +3.6428376425E-002 +5.7210161945E+000  +9.4867551784E-001 -6.5613675087E+000 
7893146.433 +9.3911704522E-001 +1.0016425390E+001  +3.2523323389E-002 +6.0038303971E+000  +3.6622111986E-002 +1.8038773565E+001  +9.0537527809E-001 +5.4079348978E-001 
8018291.615 +7.9452294090E-001 +1.1308829454E+001  +3.6208705702E-002 +3.8977728728E+000  +2.9902050680E-002 +1.3133142727E+001  +7.6388617793E-001 -4.1194492734E+000 
8143436.796 +7.0251605462E-001 +1.2231446169E+000  +3.3582850198E-002 -8.1263587837E-001  +3.8130932776E-002 +1.0936446012E+001  +8.1067999493E-001 -1.7142905156E+000 
8268581.977 +7.2359686607E-001 +7.1616340108E+000  +3.1566783747E-002 +5.8078858936E+000  +3.6875352325E-002 +1.6576130102E+001  +6.8080179525E-001 +1.6753904531E+000 
8393727.159 +6.6205887657E-001 -8.9686542427E-001  +3.4194336496E-002 -6.1129361618E+000  +3.8741437015E-002 +1.6718782100E+001  +6.9176598330E-001 +3.2914643287E+000 
8518872.340 +6.2115827972E-001 +1.1518512007E+001  +3.7063631093E-002 -3.8342644604E+000  +3.5408432412E-002 +1.2607305408E+001  +6.8143812060E-001 -8.6688621588E-001 
8644017.522 +5.8000591885E-001 +6.9073042918E+000  +3.2706246185E-002 -7.7015080835E+000  +3.2552998573E-002 +1.8549262385E+001  +6.8335284027E-001 +1.7780756119E+000 
8769162.703 +5.7834811499E-001 +7.5042119016E+000  +3.3995174645E-002 -4.9395464854E+000  +3.1883063001E-002 +7.8234222541E+000  +6.4675292232E-001 +4.2836421084E+000 
8894307.885 +5.2397364522E-001 +1.1107554365E+001  +3.1874135400E-002 -2.3110191535E+000  +3.2822800185E-002 +1.4283510583E+001  +5.9678561528E-001 -4.2727894997E+000 
9019453.066 +5.5993901041E-001 +1.2572081749E+001  +2.8671994847E-002 +4.0494290979E+000  +3.1025239096E-002 +2.1082523504E+001  +5.7928247905E-001 -3.3508981666E+000 
9144598.248 +4.5957440068E-001 -2.8222511061E+000  +3.5239300892E-002 -2.3761947099E+000  +3.0806212572E-002 +1.7188328761E+001  +5.5456513274E-001 -1.1868378856E+000 
9269743.429 +5.6452299028E-001 +3.2272405604E+000  +3.4425408851E-002 +1.4822882504E+000  +2.7252699381E-002 +1.3020149248E+001  +5.7957826681E-001 -7.8060524931E+000 
9394888.611 +5.7945326949E-001 +5.6961315254E+000  +3.1839007038E-002 +1.2461482115E+000  +3.3534908188E-002 +1.6460474968E+001  +5.5994745671E-001 -6.5376656247E+000 
9520033.792 +5.2417286500E-001 +4.2672018882E+000  +3.3166896950E-002 +5.1575935798E+000  +3.2340471708E-002 +2.2281455372E+001  +6.1411460414E-001 -2.9478185136E-001 
9645178.974 +4.8375504046E-001 +3.5736635743E+000  +3.1333998908E-002 +1.7377434496E+000  +3.4850157382E-002 +1.7242742231E+001  +6.0105233706E-001 -8.7482642954E+000 
9770324.155 +5.1475579193E-001 +5.0802649128E+000  +3.4284650291E-002 +2.2804605520E+000  +3.3170607882E-002 +2.5207984568E+001  +5.2300079099E-001 -6.9720541164E+000 
9895469.337 +5.1023595936E-001 +2.1611621784E+000  +3.3778043788E-002 +3.8704766683E+000  +3.5501187297E-002 +1.8166537521E+001  +5.0638002817E-001 -6.2168230090E+000 
10020614.518 +5.5662283400E-001 +3.4183656160E+000  +3.5563812272E-002 +8.3433961818E-001  +3.2302243530E-002 +1.3045731775E+001  +5.2147156924E-001 -2.5477679860E+000 
10145759.700 +5.4475302142E-001 +2.9528931313E+000  +3.2812038404E-002 +6.6205340588E+000  +3.2476624541E-002 +1.6969418359E+001  +5.5766594592E-001 -2.9864952019E+000 
10270904.881 +5.3929801376E-001 +1.1613463998E+001  +3.1372826911E-002 +4.5287130188E+000  +3.2398438351E-002 +1.9519410233E+001  +5.4268073374E-001 +3.7101950755E-001 
10396050.063 +5.2725242549E-001 +2.1362616085E+000  +3.3542569269E-002 +2.6511019764E+000  +3.3437692930E-002 +1.7027571867E+001  +5.4241464122E-001 -5.4626384997E-001 
10521195.244 +5.2646069655E-001 +4.0055001549E+000  +3.5843459976E-002 +2.5288898003E+000  +3.3825194773E-002 +2.2991092878E+001  +5.7266469922E-001 -1.4402690134E+000 
10646340.426 +5.3798792943E-001 +6.1458451811E+000  +3.6060846903E-002 +7.3021427787E+000  +3.5176081413E-002 +2.1574195749E+001  +5.2640376767E-001 +1.3239554210E+000 
10771485.607 +5.2648637801E-001 +4.9051441557E+000  +3.3209882637E-002 +3.8243331822E+000  +3.3931012739E-002 +2.5904590945E+001  +5.8139494907E-001 +3.6286039458E+000 
10896630.788 +5.5088284411E-001 +5.0203584085E+000  +3.2664047933E-002 +9.6077634971E+000  +3.5720733278E-002 +1.5006183991E+001  +5.9566165537E-001 -2.5322074866E+000 
11021775.970 +5.8335783176E-001 +5.9327240897E+000  +3.2131243520E-002 +6.1671975906E+000  +3.3231805131E-002 +2.2744172195E+001  +5.5617413106E-001 +1.2019097383E-001 
11146921.151 +5.6238076140E-001 +6.6762934203E+000  +3.5255192852E-002 +8.7887613373E+000  +3.4558408614E-002 +2.2125680457E+001  +5.8588089461E-001 +3.5135714837E+000 
11272066.333 +5.5394052842E-001 +6.3108648879E+000  +3.4703195658E-002 +5.4365628428E+000  +3.6128713746E-002 +2.1646751228E+001  +5.7271306779E-001 +2.4019010854E-002 
11397211.514 +6.0868724090E-001 +8.1574218820E+000  +3.7329557511E-002 +5.4092951428E+000  +3.4946836458E-002 +1.9768462822E+001  +5.7114367691E-001 +6.6881967268E-001 
11522356.696 +5.7539395563E-001 +6.7148120031E+000  +3.3409421322E-002 +7.9631287467E+000  +3.5822856424E-002 +2.1066104456E+001  +6.2860160629E-001 +2.6300506829E+000 
11647501.877 +5.7594443406E-001 +5.9562551769E+000  +3.5671802395E-002 +5.2766327891E+000  +3.3530926376E-002 +1.8322749352E+001  +5.9660095787E-001 +1.9528039344E-001 
11772647.059 +6.0236983155E-001 +3.6461787400E+000  +3.6533725170E-002 +1.0503748317E+001  +3.8028799488E-002 +1.9801964677E+001  +6.1296057315E-001 +1.7935167262E+000 
11897792.240 +5.9900449576E-001 +8.0932108603E+000  +3.8363510441E-002 +7.5574328402E+000  +3.6159331823E-002 +1.6521034028E+001  +6.2830769018E-001 +7.6875780730E-001 
12022937.422 +6.3602949408E-001 +6.1795469715E+000  +3.6172971378E-002 +9.6632715923E+000  +3.5886787215E-002 +1.6695427628E+001  +6.1236055451E-001 -5.0070353513E-001 
12148082.603 +6.4968686029E-001 +3.2639796995E+000  +3.7877821196E-002 +1.0970842749E+001  +3.6525741717E-002 +1.7720001926E+001  +6.7738478200E-001 -3.9334017656E-001 
12273227.785 +6.9319750274E-001 +3.5517561940E+000  +3.6793663200E-002 +9.1775204724E+000  +3.7658693751E-002 +1.8158101170E+001  +6.4995564762E-001 +1.1447258368E+000 
12398372.966 +6.9246056829E-001 +9.2395094446E-001  +3.7412214093E-002 +1.1384339269E+001  +3.7133725211E-002 +1.6961461723E+001  +7.0136856095E-001 +2.4374028059E+000 
12523518.148 +6.8499665831E-001 +2.5938752155E+000  +3.8282685931E-002 +1.0035071071E+001  +3.6995954939E-002 +1.9395566410E+001  +7.2679925284E-001 -1.1499968447E+000 
12648663.329 +6.9502979207E-001 +2.7092833327E+000  +3.9987215774E-002 +1.1303227809E+001  +4.0099053834E-002 +1.5831385222E+001  +6.9815410771E-001 -3.6082433913E-001 
12773808.511 +6.9790702388E-001 +4.2682163780E-001  +3.9158667583E-002 +8.8953488090E+000  +3.7913927177E-002 +1.3612707918E+001  +7.3485772303E-001 +1.8853727964E-001 
12898953.692 +7.2787615163E-001 +6.7099972078E-001  +3.7938264762E-002 +1.1105035503E+001  +3.8593993788E-002 +1.6669806137E+001  +7.4033445936E-001 -6.0486954176E-001 
13024098.874 +7.6020503813E-001 +2.0561791642E-001  +4.1495647279E-002 +1.1047451543E+001  +3.9683325432E-002 +1.6850975309E+001  +7.7495380598E-001 +7.9109347484E-002 
13149244.055 +7.4348772283E-001 +4.6575065027E-001  +3.9414853803E-002 +1.3387578720E+001  +3.8523299823E-002 +1.8571867367E+001  +7.8867235005E-001 -2.5094822062E+000 
13274389.237 +7.8596440358E-001 +1.5560458739E+000  +4.1963771689E-002 +1.2419114194E+001  +4.2863519181E-002 +1.7093764086E+001  +7.8527199181E-001 -2.0051234516E+000 
13399534.418 +7.9066609171E-001 -9.9006189661E-002  +4.1704194543E-002 +1.0365865600E+001  +4.1556953104E-002 +1.5886330872E+001  +7.9682569485E-001 -2.3618629543E+000 
13524679.599 +7.9466994163E-001 +5.5519956681E-002  +4.1780932169E-002 +1.1434253498E+001  +4.0581235694E-002 +1.4021001949E+001  +8.1264439385E-001 -1.6820133967E+000 
13649824.781 +8.0868881446E-001 -1.9702456246E+000  +4.1440476053E-002 +1.1125625593E+001  +3.9706931178E-002 +1.5495138223E+001  +8.6023103380E-001 -4.1901034192E+000 
13774969.962 +8.4818029678E-001 -2.9032106683E+000  +4.1413722392E-002 +1.0503301237E+001  +4.1958748623E-002 +1.4605028992E+001  +8.3897743917E-001 -3.7991910587E+000 
13900115.144 +8.5020204729E-001 -2.6314721677E+000  +4.2978037572E-002 +1.2466988831E+001  +4.2117192993E-002 +1.5138338544E+001  +8.9308509762E-001 -3.9062930857E+000 
14025260.325 +8.7044790295E-001 -4.2328673580E+000  +4.2002113966E-002 +9.0410141658E+000  +4.2232339407E-002 +1.1977789104E+001  +8.9737580828E-001 -4.6708375876E+000 
14150405.507 +8.8805299463E-001 -4.3873852612E+000  +4.4459645954E-002 +1.1076154949E+001  +4.2964359773E-002 +1.0128296343E+001  +9.0598242599E-001 -4.2548316098E+000 
14275550.688 +9.0177746001E-001 -3.6928900981E+000  +4.3975611380E-002 +1.0694170898E+001  +4.2881755415E-002 +1.2355452201E+001  +9.3525649029E-001 -4.4153414138E+000 
14400695.870 +9.2155150108E-001 -6.1757013843E+000  +4.3318601608E-002 +1.1771493693E+001  +4.1910567461E-002 +1.2648865329E+001  +9.5066991307E-001 -5.0387776306E+000 
