!  2-Port S-parameters saved by WinCal
! VAR MeasName=S-Parameters (CALIBRATED_DATA) read from VNA (P5004A)
! VAR MeasDate=28/08/2024 10:20:19
! VAR NAME=S2_r4c9_SET1_9k-100M_1
! VAR FILENAME=S2_r4c9_SET1_9k-100M_1.S2P
! VAR DATE=28/08/2024 10:20:19
! VAR PHYS_PORTS=1,2
! VAR ObjTypeName=DATASET
! VAR IndexType=Frequency
!
# Hz S MA R 50
9000.000 +8.4331033278E-002 -1.5719394482E+002  +1.0665154486E-002 -9.9429634638E+001  +9.8284555512E-003 +6.8273336062E+001  +2.5097717902E-001 -1.3357719569E+002 
134145.181 +1.1071708751E-001 +1.6979600381E+002  +4.9805403618E-004 -1.1525700556E+002  +2.3433284544E-004 +1.0922025803E+002  +2.3857084193E-001 -1.7140410790E+002 
259290.363 +1.1203404564E-001 +1.6941165420E+002  +2.7831006574E-004 -7.2914929736E+001  +4.8761714396E-004 +1.6050615561E+002  +2.4792258548E-001 -1.7005108715E+002 
384435.544 +1.1434905943E-001 +1.7041519506E+002  +1.3992557041E-003 +1.5619423106E+002  +1.3699332788E-004 -1.6887941070E+002  +2.4542763482E-001 -1.6900564069E+002 
509580.726 +1.0957338609E-001 +1.7157921175E+002  +1.4014390507E-003 +1.3828372679E+002  +9.5432497057E-004 -4.8830768160E+001  +2.4405686880E-001 -1.6681019959E+002 
634725.907 +1.1647442285E-001 +1.7197101086E+002  +7.3708077534E-004 -1.5404279260E+002  +1.2181828805E-003 +9.1705820906E+001  +2.5138952474E-001 -1.6674765713E+002 
759871.089 +1.2000378215E-001 +1.7100810834E+002  +2.1644600708E-004 -1.7101347860E+002  +7.5904226321E-004 +5.4073356245E+001  +2.3700290975E-001 -1.6494195206E+002 
885016.270 +1.2100234053E-001 +1.6898770077E+002  +1.6233283958E-004 -1.1931029197E+002  +1.9512015725E-004 -2.7891772457E+001  +2.4328173420E-001 -1.6651970497E+002 
1010161.452 +1.1830394495E-001 +1.7094074689E+002  +3.0571487753E-003 -3.6676877237E+001  +4.5149167483E-004 +1.1508047055E+002  +1.7857621014E-001 -1.6010948706E+002 
1135306.633 +1.1644030662E-001 +1.7048479780E+002  +1.3161325711E-003 +1.4730170735E+002  +1.3581575391E-004 +9.2680844832E+001  +1.8361622009E-001 -1.6685219056E+002 
1260451.815 +1.2192845400E-001 +1.7210092169E+002  +1.0016811503E-003 +1.1714472168E+002  +1.3838623512E-003 -5.5842862853E+001  +2.3577629808E-001 -1.5802151797E+002 
1385596.996 +1.2266513906E-001 +1.7328739554E+002  +3.7377307061E-004 -1.6440573850E+002  +3.6254471417E-004 -1.1347752833E+002  +2.6579979748E-001 -1.5889149280E+002 
1510742.178 +1.2835176433E-001 +1.7180479378E+002  +5.5093937894E-004 -2.4015986143E+001  +5.3089611908E-005 +2.5697522872E+001  +2.6693270882E-001 -1.5371144952E+002 
1635887.359 +1.3044668063E-001 +1.7003126924E+002  +5.6242638158E-004 -1.1469638129E+002  +1.2354479463E-003 +1.1777395672E+002  +2.5975700080E-001 -1.5864521703E+002 
1761032.541 +1.2852574223E-001 +1.7099202761E+002  +1.6500072939E-003 +8.4624952908E+001  +2.1319152308E-003 +4.4214066553E+001  +2.0730531413E-001 -1.5135133902E+002 
1886177.722 +1.3279310224E-001 +1.6865173901E+002  +1.0174909595E-003 -1.4385695688E+002  +1.6405376887E-003 -8.2819687535E+001  +2.1367920436E-001 -1.6348288496E+002 
2011322.904 +1.3052058000E-001 +1.6695894641E+002  +2.2904508906E-003 +2.9293661186E+001  +1.7927010793E-003 -7.8484449098E+001  +1.6529819607E-001 -1.6048252744E+002 
2136468.085 +1.3131428313E-001 +1.6706724474E+002  +2.7357803205E-003 +8.8157796329E+001  +2.3585656204E-003 -1.5686775742E+002  +1.7749128794E-001 -1.5588747146E+002 
2261613.267 +1.3622130272E-001 +1.6365039494E+002  +1.0611367596E-003 +9.3568609648E+001  +3.6941045835E-003 -4.1445810874E+001  +1.6062089596E-001 -1.5880296488E+002 
2386758.448 +1.4054078000E-001 +1.6605496640E+002  +9.6368874587E-004 -1.6623378133E+002  +5.1841815672E-003 -1.8835413407E+000  +2.7709260603E-001 +1.6743378412E+002 
2511903.630 +1.2778963418E-001 +1.6712861708E+002  +7.6871822029E-003 +8.6655880435E+001  +5.0903331300E-003 -1.1489933313E+002  +2.4822773909E-001 +1.6205087693E+002 
2637048.811 +9.8761747145E-002 +1.7633935007E+002  +1.3928217603E-002 +5.6128538497E+001  +1.3073904851E-002 -1.0081975761E+002  +1.7661918851E-001 +1.3234840385E+002 
2762193.992 +9.7256337082E-002 -1.7531498850E+002  +5.6890701304E-002 -1.5269338528E+001  +5.5063921552E-002 -1.5624983983E+002  +3.8585632265E-001 -2.5678982278E+001 
2887339.174 +1.2979020295E-001 +1.6988621880E+002  +1.0003986881E-002 -1.5667718454E+002  +1.5295911526E-002 +1.4864495262E+002  +6.5516394440E-001 -1.2222605856E+002 
3012484.355 +1.4069486144E-001 +1.7936038556E+002  +1.8905602849E-002 -5.0469890290E+001  +2.2077233628E-002 +1.3569857928E+002  +6.6630590330E-001 -6.7276156874E+001 
3137629.537 +9.3929877916E-002 +1.5948450263E+002  +2.9399771664E-003 -4.7319284568E+001  +1.8177842950E-002 -1.2640055824E+002  +6.3917382841E-002 +2.0693938036E+000 
3262774.718 +1.3945804938E-001 +1.6002343912E+002  +1.0138067508E-002 +1.0518550527E+002  +2.2249493939E-002 +6.7147832598E+001  +8.5466038416E-001 +9.8469947667E+001 
3387919.900 +1.2669538192E-001 +1.6828566857E+002  +1.7560988782E-002 +7.1380814083E+001  +1.2881535065E-002 +5.8475513128E+000  +2.3763835601E-001 +7.8240056418E+001 
3513065.081 +1.4801619723E-001 +1.5801474657E+002  +4.8743995598E-003 +3.6964101321E+001  +9.7735735388E-003 -5.0179962893E+001  +4.1607737675E-001 +1.4308286462E+002 
3638210.263 +1.9610157394E-001 +1.4711487468E+002  +1.1218538372E-002 -1.6432004073E+002  +7.7858339039E-003 -1.3664820468E+001  +5.0047376239E-001 +1.2636029457E+002 
3763355.444 +1.7575526748E-001 +1.4971096959E+002  +1.5048025705E-002 +1.2420242439E+002  +9.2436881220E-003 +7.2095027099E+001  +4.0821764000E-001 +1.0924497237E+002 
3888500.626 +1.8320744939E-001 +1.4853514367E+002  +1.3689090920E-002 +1.1168576372E+002  +9.7648734641E-003 +3.7712375366E+001  +4.8765478971E-001 +1.3482054641E+002 
4013645.807 +1.7913327211E-001 +1.4936004027E+002  +1.6367278474E-002 +1.0886114158E+002  +7.9535412989E-003 +1.0935562527E+001  +6.0346217356E-001 +1.4914893677E+002 
4138790.989 +2.1067871751E-001 +1.5196827183E+002  +6.1464403092E-003 +1.2368095807E+002  +8.6043019948E-003 +4.0126190897E+001  +4.0967348555E-001 +1.4577913687E+002 
4263936.170 +2.1261242332E-001 +1.4279819471E+002  +2.1748857533E-002 +7.6552079184E+001  +1.2747069115E-002 +1.4730931670E+001  +3.2432628430E-001 +1.1539519334E+002 
4389081.352 +2.0194038362E-001 +1.4603662836E+002  +2.0310990821E-002 +9.2223110149E+001  +1.5913705577E-002 +1.8694499259E+001  +5.8800852376E-001 +1.0672925640E+002 
4514226.533 +2.1246819005E-001 +1.3814232704E+002  +1.4057752654E-002 +1.5510087968E+002  +1.1533404457E-002 +3.2493756013E+000  +1.0439902878E+000 +1.3483566214E+002 
4639371.715 +2.4714188780E-001 +1.3141845058E+002  +3.0074917247E-002 +1.6193699772E+002  +3.1760998503E-002 +8.8983350198E+001  +1.3891265508E+000 +1.4801680593E+002 
4764516.896 +2.9829503532E-001 +1.3080324757E+002  +1.4779087737E-002 -1.4193011854E+002  +3.9460576369E-002 +1.3857522807E+002  +2.1907984532E+000 +1.4876589842E+002 
4889662.078 +4.3874381766E-001 +1.3196487582E+002  +9.1160660085E-002 -1.1257880943E+002  +1.0798066933E-001 +1.5988808591E+002  +3.8113237956E+000 +1.4624313620E+002 
5014807.259 +3.6664491437E-001 +1.2002620133E+002  +1.0943877088E-001 -1.7825303308E+002  +5.1466689357E-002 +1.7972063214E+002  +3.3047529714E+000 +1.6622631518E+002 
5139952.441 +3.4953764006E-001 +1.2702097921E+002  +1.5686900656E-001 +2.7032754364E+001  +3.8465308569E-001 -1.5792994545E+001  +1.1318763334E+001 -1.4545801781E+001 
5265097.622 +3.9622530425E-001 +1.3148077416E+002  +1.0400568330E-001 +5.5777034324E+001  +3.2571157742E-002 +7.7074185577E+001  +2.5254029646E+000 +4.3875820584E+001 
5390242.804 +4.4017296082E-001 +1.2584839520E+002  +2.3443365231E-002 +1.0473273673E+002  +5.6955207526E-002 +7.7897112712E+001  +1.8294351778E+000 +9.4603206430E+001 
5515387.985 +4.0012435251E-001 +1.2528186333E+002  +5.6582823009E-002 +1.1216967371E+002  +4.7853939412E-002 +5.2752106168E+001  +2.3536594547E+000 +8.2147052086E+001 
5640533.166 +4.7002410697E-001 +1.3061789605E+002  +4.4897092363E-002 +7.1189059058E+001  +2.5701673569E-002 +9.4996165367E+001  +2.1322132773E+000 +5.9918164079E+001 
5765678.348 +4.8439173155E-001 +1.2874826643E+002  +4.1361560086E-002 +4.9274281828E+001  +4.4707704303E-002 +8.2751160392E+001  +1.6313637492E+000 +5.9518492333E+001 
5890823.529 +5.7052373518E-001 +1.2894120591E+002  +3.7535636288E-002 +9.9549443652E+001  +4.8090892267E-002 +4.7265524604E+001  +1.8522051478E+000 +6.6996025093E+001 
6015968.711 +5.8944615137E-001 +1.2416189276E+002  +4.7809545778E-002 +8.3448076039E+001  +3.3481085843E-002 +8.1302603664E+001  +1.6690453480E+000 +5.9999433331E+001 
6141113.892 +6.8969029608E-001 +1.1778130770E+002  +3.9267576115E-002 +5.5168244080E+001  +4.4410217428E-002 +4.1713584958E+001  +1.8853153265E+000 +4.8517892802E+001 
6266259.074 +7.7675270851E-001 +1.0669103722E+002  +5.5845859722E-002 +6.3275517890E+001  +5.1621558383E-002 +3.8276868174E+001  +1.4285611021E+000 +2.3885213905E+001 
6391404.255 +1.0145271187E+000 +9.7231233078E+001  +4.6110741656E-002 +5.8342714799E+001  +5.3272999016E-002 +4.8172575686E+001  +1.3208675783E+000 +1.5984959040E+001 
6516549.437 +9.7247027646E-001 +8.1506419291E+001  +5.6129265482E-002 +2.5369588784E+001  +7.5461214584E-002 +2.9361064088E+001  +1.9981202943E+000 +1.1960527149E+001 
6641694.618 +1.2391930385E+000 +8.5792004132E+001  +5.5506185552E-002 +6.9567760097E+001  +5.5408829045E-002 +4.8724530992E+001  +1.4716159854E+000 -7.0998821353E+000 
6766839.800 +1.8306456808E+000 +7.7792240662E+001  +6.5428533715E-002 +5.6176489694E+001  +7.4605076745E-002 +1.4069236497E+001  +1.2101329692E+000 +5.9893020208E+000 
6891984.981 +1.9553239296E+000 +2.3244328599E+001  +6.6837346953E-002 +2.2595152853E+001  +6.1126015613E-002 +2.7480260333E+001  +1.0191244910E+000 -4.0571273438E+000 
7017130.163 +1.7124843362E+000 +2.3281608246E+001  +3.8160404728E-002 +4.5442498251E+001  +4.6916396606E-002 +1.8336326128E+001  +1.3164929194E+000 -2.3471781094E+001 
7142275.344 +1.4712227769E+000 +1.3257350226E+001  +5.0048288502E-002 -7.6282037894E+000  +3.1581722707E-002 +2.5197987408E+000  +1.3815533834E+000 -7.4672649359E+000 
7267420.526 +1.5893555486E+000 +1.8167505203E-002  +4.8729063305E-002 +2.0603014523E+001  +2.3505113039E-002 +2.5145077501E+000  +1.2292924965E+000 -8.6036062943E+000 
7392565.707 +1.1683628833E+000 -4.3948486979E+000  +3.2715705639E-002 +1.2886221745E+001  +2.5725791320E-002 -4.8458095938E+000  +1.2906592307E+000 -1.0434079311E+001 
7517710.889 +1.1893197774E+000 +3.4056722340E+000  +2.7557881444E-002 -5.7593098015E+000  +3.0222267458E-002 +6.8078525616E+000  +1.1886908005E+000 -6.9370768516E+000 
7642856.070 +1.0131697251E+000 +6.1408067142E+000  +3.7732892755E-002 +9.6181395638E+000  +2.3161500554E-002 +3.7613396884E+000  +1.0124795276E+000 -1.4572361404E+000 
7768001.252 +9.4570206110E-001 +1.0614826423E+001  +2.7688834323E-002 +1.6095828869E+001  +2.5113401547E-002 +1.2354344549E+001  +1.0153794859E+000 +1.1872199604E+000 
7893146.433 +9.4429209227E-001 +5.8664913810E+000  +2.7987619096E-002 -4.6695052588E+000  +2.4597757217E-002 +1.7628900372E+001  +8.6298470269E-001 -1.0790747273E+001 
8018291.615 +8.4545987055E-001 +1.2259274330E+001  +2.3779340891E-002 +1.1336467382E+001  +2.0681727234E-002 +3.4907367008E+001  +8.7047014591E-001 -8.6197869267E-001 
8143436.796 +7.4375289827E-001 +6.0692568116E+000  +1.6750750249E-002 +7.1512461655E+000  +2.8469223840E-002 +2.7684255563E+001  +8.3909570613E-001 +4.8537116951E+000 
8268581.977 +7.5641159024E-001 +8.9184986249E+000  +2.1244124324E-002 +1.2725801011E+001  +2.5295959094E-002 +3.1520923888E+001  +7.4465925434E-001 +6.0006362219E+000 
8393727.159 +7.0473451951E-001 +9.0842870674E+000  +2.2122098677E-002 +1.0218728231E+001  +2.0620651141E-002 +1.2598510447E+001  +7.2607420249E-001 -4.3229689818E-001 
8518872.340 +6.7317895605E-001 +1.1378472860E+001  +2.0482708329E-002 -2.2491164336E+000  +1.8459703953E-002 +2.3476962269E+001  +7.2496847554E-001 +4.4727425314E+000 
8644017.522 +6.0804077827E-001 +5.5734077865E+000  +2.7303579523E-002 +1.4729593148E+000  +2.2282221014E-002 +1.7689661924E+001  +6.5662686554E-001 +7.2820957948E-001 
8769162.703 +6.3586477694E-001 +1.0408668846E+001  +1.4654139055E-002 +2.1901281942E+000  +2.0515226560E-002 +1.4993656894E+001  +6.5300577986E-001 +9.3573262143E-001 
8894307.885 +6.0728373619E-001 +4.6419457783E+000  +1.9372132457E-002 +7.6697070827E+000  +1.8681733713E-002 +1.9511855545E+001  +6.7774912152E-001 +2.8179217779E+000 
9019453.066 +5.7294867218E-001 +6.3447849827E+000  +2.6241973366E-002 +1.2282754078E+000  +2.3063356404E-002 +1.2179329056E+001  +5.1938603467E-001 -3.0896277315E-001 
9144598.248 +5.5244826413E-001 +8.5038845850E+000  +2.0765351529E-002 +1.1180914859E+001  +1.7173558242E-002 +2.5391260087E+001  +6.2350459341E-001 -1.2325243245E+000 
9269743.429 +5.2159832318E-001 +1.0758727417E+001  +2.2331598093E-002 +1.6340231588E+001  +1.9624403655E-002 +3.0705262091E+001  +5.9762355467E-001 +8.1665795831E-001 
9394888.611 +5.6629232937E-001 +6.4877442971E+000  +1.8475820796E-002 -2.2401901273E+000  +2.1293216014E-002 +2.3019745618E+001  +5.6929178439E-001 -4.6715426418E+000 
9520033.792 +5.2947915032E-001 +3.0252780409E+000  +2.0058270814E-002 +1.1791237804E+001  +1.9770092395E-002 +2.4332341475E+001  +5.8072938958E-001 -1.5213508649E+000 
9645178.974 +5.4055847051E-001 +5.6339642502E+000  +1.7647235558E-002 -4.4723506145E+000  +1.4828282793E-002 +2.9652061279E+001  +5.4884692043E-001 -7.1502590341E+000 
9770324.155 +5.3012268416E-001 +2.3261360740E+000  +2.1013722839E-002 +1.0926501912E+001  +2.0410772841E-002 +2.2713687084E+001  +5.7992275891E-001 -4.6918631099E+000 
9895469.337 +5.2945872813E-001 +3.6430094267E+000  +1.9504066926E-002 +4.6652614886E+000  +2.3533326105E-002 +2.7391707823E+001  +5.2521880558E-001 -5.2050815942E+000 
10020614.518 +5.1630694907E-001 +2.8874259285E+000  +2.2409516797E-002 +1.1585761688E+001  +1.8246439070E-002 +2.7659763749E+001  +5.7594516679E-001 -2.9675341085E+000 
10145759.700 +5.2676539468E-001 +5.1156636363E+000  +2.0436522615E-002 +1.2464813901E+001  +1.7690503882E-002 +2.1778610231E+001  +5.6793782861E-001 -2.6296281384E+000 
10270904.881 +5.5478660858E-001 +4.4167735019E+000  +2.1035411270E-002 +1.3799259467E+001  +2.2598440150E-002 +2.1139576559E+001  +5.6564508672E-001 -1.0091031990E+000 
10396050.063 +5.6785500744E-001 +6.3144510832E+000  +1.7741340442E-002 +3.4665286923E+000  +2.2042857717E-002 +2.3659012704E+001  +5.6279732466E-001 +2.0396609215E+000 
10521195.244 +5.4757883960E-001 +9.0314459496E+000  +2.1848908674E-002 +4.3760711678E+000  +2.0853617444E-002 +2.5671161442E+001  +5.6889075630E-001 -8.2482267887E-003 
10646340.426 +5.6813821563E-001 +6.5348950021E+000  +2.1545578261E-002 +7.4261431691E+000  +2.0393486977E-002 +2.1135706960E+001  +5.7194858753E-001 -8.5324303369E-001 
10771485.607 +5.7332298243E-001 +9.5232127487E+000  +1.9987221619E-002 +9.2554347338E+000  +2.2359569288E-002 +1.6309570659E+001  +5.7617801356E-001 +2.8980599235E+000 
10896630.788 +5.7331858114E-001 +8.5230074123E+000  +2.2551911281E-002 +2.9130505917E+000  +2.2786487749E-002 +2.6714451283E+001  +5.9147753717E-001 -1.8752322745E+000 
11021775.970 +5.7755856423E-001 +3.4338329318E+000  +2.1601991296E-002 +1.2590527146E+001  +2.0953198706E-002 +2.5474420178E+001  +5.7370690146E-001 +3.4072782046E+000 
11146921.151 +5.7107701474E-001 +6.2032844767E+000  +2.0931549490E-002 +1.1992882643E+001  +1.9479015376E-002 +2.6016799294E+001  +6.0614656741E-001 +1.1498716468E+000 
11272066.333 +5.9470071545E-001 +4.6070024175E+000  +2.4264589134E-002 +1.0842822360E+001  +2.3590184971E-002 +3.2567758501E+001  +6.2599242988E-001 -5.1860310283E-001 
11397211.514 +5.6235936690E-001 +6.2391221406E+000  +2.0281088111E-002 +1.5488097960E+001  +2.1765963689E-002 +1.5200983172E+001  +6.2873202320E-001 +1.3363398975E+000 
11522356.696 +6.0872882224E-001 +7.5807269822E+000  +2.1512036363E-002 +1.2257114845E+001  +2.0126620672E-002 +2.2163068030E+001  +6.1840237316E-001 +3.5063799516E+000 
11647501.877 +5.9199323586E-001 +6.8288225325E+000  +2.3100799869E-002 +1.2532042249E+001  +2.0496837330E-002 +2.5631476261E+001  +6.5509137009E-001 +3.2062010506E+000 
11772647.059 +6.0937186066E-001 +4.3610353392E+000  +2.2366357760E-002 +1.2079482530E+001  +2.2471277898E-002 +2.6895043595E+001  +6.6186894352E-001 +2.0085237861E-001 
11897792.240 +6.3929960565E-001 +5.2993121468E+000  +2.1639386320E-002 +1.5115958636E+001  +2.4115716855E-002 +2.6918310761E+001  +6.3881980619E-001 +6.9913043612E-001 
12022937.422 +6.3766041140E-001 +4.8281737958E+000  +2.4358359622E-002 +1.0316566920E+001  +2.4523185392E-002 +2.5320128639E+001  +6.8632612946E-001 -7.6215469342E-001 
12148082.603 +6.6362377393E-001 +4.7244849910E+000  +2.4159483500E-002 +1.5808734423E+001  +2.3346047573E-002 +2.4314092964E+001  +6.9280805746E-001 -3.7157467207E-001 
12273227.785 +6.7138820635E-001 +5.4717801668E+000  +2.6053089198E-002 +1.5004831583E+001  +2.3061870153E-002 +2.4079361670E+001  +6.9276135098E-001 +8.3249271335E-001 
12398372.966 +6.9959020608E-001 +4.6212626560E+000  +2.4927238681E-002 +1.4461142009E+001  +2.2387618346E-002 +2.6693760551E+001  +6.9281118776E-001 +3.1255307737E-001 
12523518.148 +7.1814396674E-001 +2.9559217427E+000  +2.3250393349E-002 +1.7436105728E+001  +2.4843854359E-002 +2.3882041904E+001  +7.1783864749E-001 -1.9853010167E+000 
12648663.329 +6.9989902577E-001 +6.7303987382E-001  +2.4649847727E-002 +1.7183559646E+001  +2.2099272244E-002 +2.4179792701E+001  +7.3961728668E-001 -1.5812033965E+000 
12773808.511 +7.2620794367E-001 +8.0232365939E-001  +2.3368538444E-002 +1.3850901440E+001  +2.4247972957E-002 +2.1660397929E+001  +7.3492599154E-001 +7.4465853036E-003 
12898953.692 +7.5785123954E-001 +2.6171403486E+000  +2.5628155734E-002 +1.3507147026E+001  +2.7393976193E-002 +1.9988681616E+001  +7.7931187577E-001 -9.1100306455E-001 
13024098.874 +7.7648127079E-001 -1.0644287252E+000  +2.3526295877E-002 +1.6740418398E+001  +2.5632253223E-002 +2.1841417206E+001  +7.8746457928E-001 -3.3612415043E-001 
13149244.055 +7.6537246995E-001 -6.2797262505E-001  +2.5320541516E-002 +1.9929799197E+001  +2.4898412219E-002 +1.8790121767E+001  +7.7918048727E-001 -9.8413700960E-001 
13274389.237 +7.7926113946E-001 -1.7072441298E+000  +2.6087640098E-002 +1.5656054580E+001  +2.5737528923E-002 +2.0781897730E+001  +8.0688282554E-001 -3.2547817243E+000 
13399534.418 +8.2620277550E-001 -1.4840416574E+000  +2.5685796479E-002 +1.4186573712E+001  +2.5810377090E-002 +2.2255430032E+001  +8.2902420612E-001 -1.1489035111E+000 
13524679.599 +8.4684239558E-001 -3.0944992995E+000  +2.4909711396E-002 +1.7266097875E+001  +2.5996705528E-002 +1.7294451525E+001  +8.4437694169E-001 -1.5988568681E+000 
13649824.781 +8.4047627094E-001 -3.6438748375E+000  +2.6987591875E-002 +1.7498971103E+001  +2.4992704990E-002 +1.7101457178E+001  +8.6633707052E-001 -2.3925270311E+000 
13774969.962 +9.0497327712E-001 -2.2466962035E+000  +2.5837340520E-002 +1.6823518360E+001  +2.5872188142E-002 +2.0590696018E+001  +8.7983912715E-001 -2.7403416390E+000 
13900115.144 +8.8966779906E-001 -2.8772834518E+000  +2.6056304998E-002 +1.7956064245E+001  +2.6103002002E-002 +2.1133479891E+001  +9.0674666020E-001 -3.3765894443E+000 
14025260.325 +8.9396616518E-001 -4.1801986555E+000  +2.6809564937E-002 +1.5927043388E+001  +2.5868330896E-002 +1.9015692521E+001  +8.9823844185E-001 -3.7394318756E+000 
14150405.507 +9.2110223358E-001 -3.8725420682E+000  +2.6489714087E-002 +1.8228879826E+001  +2.6652772391E-002 +1.6960878958E+001  +9.1178075711E-001 -2.9711996411E+000 
14275550.688 +9.5590862325E-001 -4.6419840196E+000  +2.8045545717E-002 +1.6788493423E+001  +2.6611809674E-002 +1.5832326243E+001  +9.4887993418E-001 -5.0306243420E+000 
14400695.870 +9.6781540902E-001 -5.4027246246E+000  +2.5924690570E-002 +1.5299873579E+001  +2.6260550962E-002 +1.5573281130E+001  +9.5304023321E-001 -5.0383162227E+000 
