!  2-Port S-parameters saved by WinCal
! VAR MeasName=S-Parameters (CALIBRATED_DATA) read from VNA (P5004A)
! VAR MeasDate=28/08/2024 12:34:15
! VAR NAME=S2_r7c9_SET3_9k-100M_2
! VAR FILENAME=S2_r7c9_SET3_9k-100M_2.S2P
! VAR DATE=28/08/2024 12:34:15
! VAR PHYS_PORTS=1,2
! VAR ObjTypeName=DATASET
! VAR IndexType=Frequency
!
# Hz S MA R 50
9000.000 +8.1155560086E-002 -1.7302833952E+002  +1.2726601337E-003 -1.0508860412E+002  +8.5916785501E-003 +6.8792734434E+001  +2.9002488238E-001 -1.4480126353E+002 
134145.181 +1.1127850124E-001 +1.6965564339E+002  +2.2677296110E-004 -6.0683403304E+001  +8.2977900698E-005 -1.0911512434E+002  +2.3898036136E-001 -1.7183202782E+002 
259290.363 +1.1111126178E-001 +1.6994341660E+002  +4.1338805824E-004 -5.2148154443E+001  +3.7989522146E-004 -1.4713138079E+002  +2.3924555445E-001 -1.6547297431E+002 
384435.544 +1.1288971264E-001 +1.7019035987E+002  +3.0286313122E-004 +1.9213855624E+001  +3.1628473547E-004 +6.3589147689E+001  +2.4317150096E-001 -1.6950445839E+002 
509580.726 +1.1308355238E-001 +1.7103536444E+002  +7.9575519342E-004 -9.4181557388E+001  +1.9464296972E-003 -2.6139285839E+001  +2.3137543118E-001 -1.6769672460E+002 
634725.907 +1.1399659450E-001 +1.7313701693E+002  +7.9112485083E-004 +1.3601390904E+001  +6.5896692331E-004 +6.0684427342E+001  +2.5034643353E-001 -1.6690537404E+002 
759871.089 +1.1755338556E-001 +1.7006645119E+002  +2.3991998690E-004 +1.7806010959E+002  +4.2076188691E-004 +1.4068799063E+002  +2.4619691045E-001 -1.6669884760E+002 
885016.270 +1.2110009820E-001 +1.6931240004E+002  +3.0472509831E-004 +2.5004291400E+001  +4.5358858213E-005 -1.6094471103E+002  +2.4641327109E-001 -1.6624613153E+002 
1010161.452 +1.1918022126E-001 +1.6990092203E+002  +4.0723239325E-004 -9.2944674490E+001  +4.1168647940E-004 +1.0483664704E+002  +2.1484552212E-001 -1.6631927504E+002 
1135306.633 +1.1456111480E-001 +1.6861113738E+002  +1.4096843372E-003 +6.1296243055E+001  +3.0357113084E-003 -6.6901557404E+001  +2.2011334529E-001 -1.4494655971E+002 
1260451.815 +1.1480199156E-001 +1.7129705143E+002  +2.5824016781E-003 +6.1697618723E+001  +1.6553736338E-003 -5.0441128372E+001  +2.4133475140E-001 -1.5599069425E+002 
1385596.996 +1.2658330347E-001 +1.7221194244E+002  +6.1118064039E-004 +2.0211501057E+001  +6.6035455460E-004 -2.7755011353E+001  +2.5358832019E-001 -1.6153499565E+002 
1510742.178 +1.2815032163E-001 +1.7298666057E+002  +2.7465405133E-004 +4.3592998635E+001  +4.8951781450E-004 +1.6655930964E+002  +2.6231214103E-001 -1.5738513067E+002 
1635887.359 +1.2518877178E-001 +1.7022041614E+002  +2.3807232540E-003 -1.7468503705E+002  +1.1036623454E-003 -1.1356331490E+002  +2.2241783516E-001 -1.5962314773E+002 
1761032.541 +1.2897231602E-001 +1.7008299338E+002  +9.2720442232E-004 +7.0248481291E+001  +6.5687661933E-004 -1.2484826613E+001  +2.3192107565E-001 -1.5673592601E+002 
1886177.722 +1.3061422969E-001 +1.6868097317E+002  +2.9257656013E-003 -1.6329671277E+002  +1.7970285724E-003 -8.7182275662E+001  +2.1145207945E-001 -1.6150379812E+002 
2011322.904 +1.3389780261E-001 +1.6586038808E+002  +1.5062554425E-003 +9.8950686048E+001  +1.6688158721E-003 -7.3666194095E+001  +1.9106539442E-001 -1.7130747436E+002 
2136468.085 +1.3008410142E-001 +1.6473583894E+002  +1.5108916477E-003 +1.1237402514E+002  +3.9527263270E-003 +1.2232824466E+002  +2.0208164161E-001 -1.6527393256E+002 
2261613.267 +1.2821502480E-001 +1.6385067571E+002  +1.8453096453E-003 -9.3789351443E+001  +3.3121238195E-003 +4.7272882233E+000  +1.3118524478E-001 -1.7519036840E+002 
2386758.448 +1.3120492857E-001 +1.6428379979E+002  +1.6423573373E-003 +1.1452473583E+002  +3.9077767664E-003 +3.0948704482E+001  +1.9748714867E-001 +1.7906511713E+002 
2511903.630 +1.2082583940E-001 +1.6538329849E+002  +4.9400643000E-003 +1.7207767361E+002  +2.4609838142E-003 +1.6293894092E+002  +1.9890570580E-001 +1.3436488742E+002 
2637048.811 +1.3728848180E-001 +1.5691432477E+002  +5.6457714494E-003 +1.4626835694E+002  +8.8456923480E-003 -5.2840012719E+001  +1.5613790707E-001 +7.0200738966E+001 
2762193.992 +9.3235925169E-002 -1.7508023924E+002  +1.8885396218E-002 +6.7612702884E+001  +6.5583684662E-004 -4.4918428120E+001  +5.0907642016E-001 +1.6574981474E+002 
2887339.174 +1.0920272059E-001 +1.6450569496E+002  +6.1893398698E-004 +1.2382510110E+001  +1.3057360620E-002 +1.6035207992E+002  +1.3251438826E-001 +4.4667923554E+001 
3012484.355 +1.2477524268E-001 +1.7153946979E+002  +1.2977771423E-003 -6.6749690991E+001  +7.7174360123E-004 +9.4444230360E+001  +3.7182278506E-001 -1.3159396858E+002 
3137629.537 +7.3767049387E-002 -1.6342939662E+002  +1.0581551366E-002 +9.8361702017E+001  +3.3782075328E-002 -1.1521387570E+002  +1.7612250866E-001 +6.1995431979E+001 
3262774.718 +1.1949627771E-001 +1.6374733546E+002  +9.7394957262E-003 +1.2077049049E+002  +3.8008817530E-003 -3.1446787002E+001  +2.2114505842E-001 -1.1571630596E+002 
3387919.900 +1.4491332874E-001 +1.5902588237E+002  +8.3327660902E-003 -1.1717338063E+002  +6.7767688211E-003 +1.3503243533E+002  +1.2917553461E-001 -1.9300785060E+001 
3513065.081 +1.2612040035E-001 +1.5475059415E+002  +1.8011678501E-002 +3.5744237168E+001  +1.4823860601E-002 +2.2053476690E+001  +5.5407471098E-001 +1.0105289908E+002 
3638210.263 +1.5289459848E-001 +1.5419084960E+002  +9.5223051833E-003 -1.2124310922E+002  +4.5578010645E-004 +1.4651521866E+002  +7.0706360929E-001 +1.3943832222E+002 
3763355.444 +1.7876272823E-001 +1.3844345086E+002  +8.7160286338E-003 -9.0848610282E+001  +9.8761886825E-003 +1.4240523215E+002  +5.8173819615E-001 +9.7897703178E+001 
3888500.626 +1.8356141448E-001 +1.4939401561E+002  +2.4016346172E-002 +1.3876527327E+002  +1.2425308838E-002 -1.4770416248E+002  +5.1539890371E-001 -7.4113928421E+000 
4013645.807 +1.7307890277E-001 +1.5368634126E+002  +3.2332845889E-003 +1.1666270258E+002  +9.6968864468E-003 -2.0505583443E+001  +2.0496257693E-001 +1.4041962223E+002 
4138790.989 +1.8936175623E-001 +1.4736609265E+002  +1.1909517548E-002 -1.6647293329E+002  +1.4767707448E-002 +1.1217119578E+002  +6.1320675661E-001 +1.0389237614E+002 
4263936.170 +1.7841106305E-001 +1.5426772465E+002  +3.5155506201E-003 +9.1719103804E+001  +3.6119559514E-003 -5.0804644917E+001  +7.7280580588E-002 +5.0086678190E+001 
4389081.352 +2.7284189957E-001 +1.3074841872E+002  +4.8316785750E-003 -1.7498575799E+002  +4.1289847096E-002 -9.7985334472E+001  +1.3515244135E+000 +1.2086085391E+002 
4514226.533 +2.3590873904E-001 +1.3633666943E+002  +8.5575235674E-002 -1.3337952694E+002  +2.5252909158E-002 -9.5140137290E+000  +3.5067914920E+000 +9.8673908126E+001 
4639371.715 +3.3784138505E-001 +1.2907191725E+002  +3.6888692677E-002 +3.7453650743E+001  +4.5506266713E-002 -7.5303468517E+000  +1.1842681209E+000 -1.4104846644E+001 
4764516.896 +3.2074075479E-001 +1.2337540149E+002  +4.7366333798E-002 +2.2292477865E+001  +4.0127808086E-002 -9.9312132116E+001  +3.4250652199E+000 +9.7184148199E+001 
4889662.078 +4.0082537628E-001 +1.3127033730E+002  +2.0851437979E+000 -1.6535279377E+002  +9.4405677779E-001 -4.3459108195E+001  +5.8121962977E+001 +1.3011926309E+002 
5014807.259 +3.7792468249E-001 +1.1788067679E+002  +3.7644089642E-002 +6.5051840859E+001  +3.1934278231E-002 +1.3730235165E+002  +3.2675980340E+000 -1.3407653649E+002 
5139952.441 +3.7083726111E-001 +1.3476516902E+002  +7.1255155096E-002 +1.1676216586E+002  +2.6973370251E-002 -3.8353596276E+001  +4.3256942245E+000 +1.1484291344E+001 
5265097.622 +3.8748412293E-001 +1.2654763882E+002  +3.7700121000E-002 -9.4646028286E+001  +1.2539467510E-002 -7.5367148006E+001  +3.9309344339E+000 +1.6131842756E+002 
5390242.804 +4.1434790927E-001 +1.3308037379E+002  +2.1824104547E-002 +4.9998588486E+001  +3.3823406654E-002 +8.9866655357E+001  +2.8436398269E+000 +1.3235336040E+002 
5515387.985 +5.0240856444E-001 +1.2245020079E+002  +1.7314672907E-002 -1.0429057423E+002  +3.1252860002E-002 +8.7256783039E+001  +2.4535656125E+000 +7.2879335903E+001 
5640533.166 +4.8760429904E-001 +1.2913824565E+002  +8.1193773516E-003 -1.4258603791E+002  +3.8932840021E-003 -1.4769280630E+002  +1.7685248080E+000 +8.3812772182E+001 
5765678.348 +5.1149230096E-001 +1.1865957545E+002  +9.4920459143E-002 +6.8136181260E+001  +3.6642928000E-002 +8.6740649322E+001  +6.6711853071E+000 +8.3836978290E+001 
5890823.529 +5.5653874551E-001 +1.2724316776E+002  +2.0238902508E-002 +5.8815550532E+001  +2.3635729329E-002 +1.2043967775E+002  +1.7276159994E+000 +6.7327793291E+001 
6015968.711 +5.7007063900E-001 +1.1054459189E+002  +2.2037054976E-002 +1.1538087252E+002  +3.5900903451E-003 -1.7753804063E+002  +1.6827565320E+000 +1.6874711053E+001 
6141113.892 +7.5722949372E-001 +1.0741421069E+002  +5.6425656767E-003 -3.6353565990E+001  +4.3686445838E-002 +4.1019421957E+001  +2.0599422555E+000 +5.0457348158E+001 
6266259.074 +7.2503047076E-001 +9.4110429883E+001  +1.4900635368E-002 +1.6129019952E+002  +1.8068212526E-002 +1.2196673008E+002  +1.7412289179E+000 +2.0798209660E+001 
6391404.255 +1.4077516140E+000 +9.7433435793E+001  +2.9421632764E-002 +1.1449080853E+002  +2.4864387586E-002 +1.3940412761E+002  +1.6115859214E+000 +1.5982352351E+001 
6516549.437 +1.4077252209E+000 +9.6070737990E+001  +9.6431110073E-003 +3.2911140794E+001  +2.5530148410E-002 +5.6002245242E+001  +1.9831254415E+000 +2.0595937166E+001 
6641694.618 +1.9939127274E+000 +4.3378381122E+001  +5.1310940059E-003 +3.2130291745E+001  +4.4484548139E-002 -6.4121810472E+000  +1.2129853094E+000 -5.7176850675E+000 
6766839.800 +2.2186260951E+000 +5.2201131140E+001  +1.8277979553E-002 -1.7719698015E+002  +2.2201334650E-002 -1.6747883107E+002  +1.4828867392E+000 -2.9857845764E+000 
6891984.981 +1.9950771171E+000 +4.2590661731E+001  +1.9514743307E-002 +9.2364254091E+000  +1.6089120274E-002 -1.0738616337E+001  +1.3427437071E+000 -1.7629936263E+001 
7017130.163 +1.9896972579E+000 +1.9530843052E+001  +8.5917766069E-003 +1.1625452603E+002  +1.0003759316E-002 -3.5689363003E+001  +1.3811410569E+000 +3.8992960458E+000 
7142275.344 +1.4598159471E+000 +9.9166453399E+000  +1.5307575370E-002 +8.7870796284E+001  +8.2257660811E-003 +9.2877214472E+001  +1.3042646178E+000 -1.0222282733E+001 
7267420.526 +1.5403167049E+000 +4.7258150325E+000  +1.4327339895E-002 +9.5988182386E+001  +2.3851657862E-002 +5.8990599054E+001  +1.1502294002E+000 -9.8265808950E+000 
7392565.707 +1.4162586697E+000 -1.8190190209E+000  +2.1947529076E-003 -9.4359491076E+001  +1.3736222817E-003 +1.1174886373E+002  +1.3887293906E+000 -1.4710965159E+001 
7517710.889 +1.1548646802E+000 +2.3587745021E-001  +1.0796654627E-002 +3.2243526145E+001  +5.5854701829E-003 -8.9010446388E+001  +1.1927925626E+000 -7.7723290756E+000 
7642856.070 +9.8748177918E-001 +2.7370016113E+000  +8.7069337990E-003 +1.0716735777E+002  +3.0466973851E-003 +2.5031502510E+001  +1.1783744126E+000 -6.0053427930E+000 
7768001.252 +1.0122292592E+000 +1.8748941082E-001  +1.1692567254E-002 +8.5749130678E+001  +9.0124645995E-003 -1.4917827861E+002  +9.3863119282E-001 -2.0405851264E+000 
7893146.433 +8.9234308020E-001 +6.3408084211E+000  +4.0872685608E-003 +5.0572079930E+001  +5.5454325400E-003 +2.0033841478E+001  +9.2664802491E-001 -2.0247092601E-001 
8018291.615 +8.5617010711E-001 +5.2158944807E+000  +7.1154616439E-003 -5.0891617470E+001  +8.8153702164E-003 +1.0741654320E+002  +9.0920573254E-001 +1.0110687556E+000 
8143436.796 +8.3259876084E-001 +6.7138436469E+000  +2.3633780015E-003 +1.8663490928E+001  +4.7801972214E-003 +1.1437373261E+002  +7.4827684262E-001 -2.4808406686E+000 
8268581.977 +7.4312083605E-001 +7.8701364545E+000  +6.5556716907E-003 +8.2679302298E+001  +7.0583416377E-003 +3.8262969244E+001  +7.4423831779E-001 +2.4924007314E+000 
8393727.159 +6.6143618609E-001 +8.5959826123E+000  +5.2749192197E-003 +9.3815935328E+001  +4.3587157990E-003 +6.9743633125E+001  +7.1918511169E-001 +1.3904754615E+000 
8518872.340 +6.3585076548E-001 +1.1094263113E+001  +6.0071370573E-003 +2.6074305186E+001  +2.1580125616E-003 -1.3044456856E+002  +7.0035309173E-001 +8.0374765901E-001 
8644017.522 +7.3280086435E-001 +9.9017374961E+000  +6.8676944574E-003 +6.0747238728E+001  +3.3821994813E-003 +5.7997338968E+001  +6.5171642178E-001 -1.7817090216E+000 
8769162.703 +5.7884066891E-001 +4.8597653131E+000  +5.0951828731E-003 +7.8573786183E+001  +4.1737777390E-003 +2.8406332663E+001  +6.7119717751E-001 +3.2398169458E-001 
8894307.885 +6.2558561644E-001 +6.8897720595E+000  +5.7379811045E-003 +8.1655472939E+001  +2.3524146161E-003 +4.4846570890E+001  +6.8633014847E-001 +1.8087444399E+000 
9019453.066 +6.1889704700E-001 +5.3576571011E+000  +1.7661204336E-003 +1.0450106110E+002  +1.5765713018E-003 +1.2405226742E+002  +6.6760985605E-001 +4.3765398256E-001 
9144598.248 +5.6281691221E-001 +2.1830200400E+000  +2.9747758113E-003 +6.5558415289E+001  +4.9968410319E-003 +9.1038151700E+001  +5.9860220663E-001 +4.7522232585E+000 
9269743.429 +5.4846779424E-001 -1.2713500991E-001  +2.3403724631E-003 -3.6933121804E+000  +3.5106448220E-003 +1.0311470547E+002  +6.5603368848E-001 -2.3454785953E+000 
9394888.611 +6.2058477557E-001 +1.4536662624E+000  +3.4054183179E-003 -1.0274298924E+002  +8.9966699488E-003 +7.5430900156E+001  +6.2057787605E-001 -3.1626138117E+000 
9520033.792 +5.1127846641E-001 +7.7636340394E+000  +3.2886805923E-003 +1.4556229495E+002  +1.2155209510E-003 -2.6434477849E+001  +5.6049515953E-001 -6.7220145284E+000 
9645178.974 +5.4266479969E-001 +1.5479662092E+000  +5.7730631037E-003 +3.6905652634E+001  +6.7250461737E-003 +8.1897041648E+001  +5.6887564538E-001 -8.0401694706E+000 
9770324.155 +5.5964289882E-001 +9.2810347725E-001  +4.1969605204E-003 +5.8685594726E+001  +5.0626778796E-003 +3.9175957959E+001  +6.3498169252E-001 -8.4599735130E+000 
9895469.337 +5.1468798527E-001 -2.8095542863E+000  +4.8663048652E-003 +6.8168415531E+001  +1.0906501826E-003 +8.2306035960E+001  +5.9616013237E-001 -4.9485367424E+000 
10020614.518 +5.4547140882E-001 +2.8261546963E+000  +4.4485362167E-003 +6.6009294189E+001  +4.6970090630E-003 +4.3982824119E+001  +5.9119883344E-001 -2.2701546236E+000 
10145759.700 +5.6082493440E-001 +1.8154907824E+000  +5.2674596755E-003 +6.3842980475E+001  +5.5233074190E-003 +9.5497363327E+001  +5.8011571519E-001 -1.9321780070E+000 
10270904.881 +5.4998049022E-001 +5.9232491213E+000  +3.3583111402E-003 +9.8580277362E+001  +5.5565162908E-003 +9.7458886968E+001  +5.3971604622E-001 -3.0100442171E+000 
10396050.063 +5.7221678931E-001 +3.3185864293E+000  +6.3952896473E-003 +5.7236994596E+001  +4.0038782438E-003 +7.4077303174E+001  +5.6306888713E-001 -7.6877112943E-001 
10521195.244 +5.6955979503E-001 +9.3677591043E+000  +6.2422969933E-003 +5.7381879259E+001  +3.8232116999E-003 +7.5207673505E+001  +5.9607198071E-001 +1.2564287303E+000 
10646340.426 +5.6273625143E-001 +4.7992897547E+000  +4.0883395669E-003 +9.6208811311E+001  +4.9935352770E-003 +6.6945468499E+001  +5.9347365576E-001 -1.4973055869E+000 
10771485.607 +5.8560673546E-001 +4.7522718266E+000  +5.9256897851E-003 +5.4949937570E+001  +4.2437480170E-003 +9.3227203810E+001  +6.0032797551E-001 -2.0602862465E-001 
10896630.788 +5.8820008933E-001 +7.9553947214E+000  +5.1381738451E-003 +5.7092422285E+001  +4.0061890882E-003 +9.8501466594E+001  +5.8584349736E-001 -4.4683688542E-001 
11021775.970 +5.8695191019E-001 +3.9701248532E+000  +6.0664914371E-003 +6.9759926566E+001  +5.1295964175E-003 +6.0879750202E+001  +6.1828346448E-001 -2.7586446217E-001 
11146921.151 +5.7407464283E-001 +8.2339784104E+000  +5.4897396809E-003 +7.4100644568E+001  +4.2067647474E-003 +7.2217447674E+001  +6.2769473600E-001 +2.5830660707E+000 
11272066.333 +5.9588130915E-001 +5.3454869349E+000  +3.8416392157E-003 +6.7617832118E+001  +2.7583236378E-003 +1.1612083214E+002  +6.2352738938E-001 +9.0526361249E-001 
11397211.514 +6.1432508227E-001 +6.8686927726E+000  +4.1380259368E-003 +6.6321216552E+001  +5.7748234596E-003 +6.7529026324E+001  +6.4192157727E-001 +1.5850741368E+000 
11522356.696 +5.9366957010E-001 +8.5592338727E+000  +4.4636870471E-003 +8.9327162084E+001  +5.7953117653E-003 +1.0897673244E+002  +6.4675816568E-001 +1.0044726090E+000 
11647501.877 +6.2368195971E-001 +4.9842445704E+000  +4.6619112578E-003 +8.7537333277E+001  +6.4151735564E-003 +1.0241889683E+002  +6.3794112340E-001 +1.7253022920E+000 
11772647.059 +6.5760801855E-001 +8.9616525224E+000  +4.6298897268E-003 +7.1022123774E+001  +4.2038634950E-003 +7.0870058825E+001  +6.4521248890E-001 +3.8834603113E+000 
11897792.240 +6.5483288600E-001 +4.0852767946E+000  +6.8286762168E-003 +7.7836688519E+001  +4.9966548013E-003 +9.2499715369E+001  +6.8115096055E-001 +6.5852542904E-001 
12022937.422 +6.4045351761E-001 +5.9251900705E+000  +3.7068327765E-003 +6.4298257712E+001  +3.9244752560E-003 +1.0780838454E+002  +6.8133921305E-001 -4.8802522753E-002 
12148082.603 +6.8291887921E-001 +4.2534807754E+000  +3.7591890569E-003 +8.0986603045E+001  +7.6298688156E-003 +5.5792569315E+001  +6.8745966314E-001 +5.6069606096E-001 
12273227.785 +6.8541447963E-001 +3.1476762588E+000  +6.1644965405E-003 +8.5324640896E+001  +6.5552158748E-003 +7.0636734518E+001  +7.0562360460E-001 -1.0724153258E+000 
12398372.966 +7.1084371400E-001 +3.9527817340E+000  +5.7452947942E-003 +9.5893598090E+001  +5.2113325930E-003 +7.5864576290E+001  +7.1532146095E-001 +3.8145937512E-002 
12523518.148 +7.2973097916E-001 +2.0423612859E+000  +5.7625698384E-003 +8.4105915562E+001  +6.4018312667E-003 +8.7260550178E+001  +7.5029669253E-001 +7.7907683357E-001 
12648663.329 +7.3017269601E-001 +2.0440760293E+000  +5.5540036779E-003 +9.1367315780E+001  +7.7972862318E-003 +8.4453884689E+001  +7.5987244151E-001 -9.6338507961E-001 
12773808.511 +7.6684508938E-001 +1.2754744265E+000  +5.4897038086E-003 +7.1781613090E+001  +5.8370398344E-003 +7.9679686489E+001  +7.5449437730E-001 +1.4192282121E+000 
12898953.692 +7.6119591232E-001 +1.5576821223E+000  +6.0781384706E-003 +7.8283765764E+001  +7.6499102848E-003 +7.3754824535E+001  +7.7528323858E-001 +6.6926577138E-001 
13024098.874 +8.0042946873E-001 +1.4037325164E+000  +4.8722278708E-003 +9.3792918821E+001  +7.4852329216E-003 +8.4557500771E+001  +7.9537928151E-001 -5.1450105211E-001 
13149244.055 +7.9112464246E-001 +1.7372176536E-001  +7.1199315563E-003 +7.0191336587E+001  +3.8397576564E-003 +7.5359862762E+001  +8.2708689928E-001 -2.7268834495E+000 
13274389.237 +8.1819498499E-001 -8.2500095862E-001  +7.6262052355E-003 +7.2962843957E+001  +6.8629391248E-003 +7.8481901784E+001  +8.2020710530E-001 -2.2243689350E+000 
13399534.418 +8.5177260605E-001 -1.2163304304E+000  +6.3055737211E-003 +7.4721705250E+001  +5.0505791761E-003 +8.0925256361E+001  +8.4014874298E-001 -4.3638451874E+000 
13524679.599 +8.5521811983E-001 -1.7247114093E+000  +6.8385484135E-003 +8.3560201383E+001  +6.8677055956E-003 +8.0659105737E+001  +8.6143698352E-001 -2.4205534181E+000 
13649824.781 +8.9099714813E-001 -2.0797288989E+000  +7.0117106276E-003 +7.7594668149E+001  +6.8908460631E-003 +8.1701499854E+001  +8.7788575883E-001 -2.6821484377E+000 
13774969.962 +9.1367905640E-001 -2.3015617396E+000  +8.2621417352E-003 +7.5117500540E+001  +8.4600411788E-003 +8.3343502836E+001  +8.9620235914E-001 -3.5400812434E+000 
13900115.144 +9.0619131434E-001 -3.6944945273E+000  +6.3524844108E-003 +8.5864791852E+001  +7.9060813726E-003 +8.4974379973E+001  +9.2965388446E-001 -3.8685863088E+000 
14025260.325 +9.4654469809E-001 -2.6021549646E+000  +8.6235754626E-003 +8.3057109544E+001  +8.3710823324E-003 +8.4916390083E+001  +9.3561495469E-001 -3.4740200223E+000 
14150405.507 +9.3271978231E-001 -4.4164070862E+000  +7.3182660800E-003 +7.9425117678E+001  +7.7238690982E-003 +7.8563691397E+001  +9.5853913821E-001 -4.4222189651E+000 
14275550.688 +9.5049632421E-001 -4.1820041486E+000  +7.5939375356E-003 +6.9928599409E+001  +6.0485266146E-003 +7.9902287492E+001  +9.6617052209E-001 -3.8785041952E+000 
14400695.870 +9.7062562295E-001 -3.3351549130E+000  +6.5064377307E-003 +7.1380617628E+001  +7.0451778909E-003 +7.2507906233E+001  +9.7686825439E-001 -4.0507777551E+000 
