!  2-Port S-parameters saved by WinCal
! VAR MeasName=S-Parameters (CALIBRATED_DATA) read from VNA (P5004A)
! VAR MeasDate=27/08/2024 16:50:17
! VAR NAME=S2_r2c9_SET3_9k-100M_2
! VAR FILENAME=S2_r2c9_SET3_9k-100M_2.S2P
! VAR DATE=27/08/2024 16:50:17
! VAR PHYS_PORTS=1,2
! VAR ObjTypeName=DATASET
! VAR IndexType=Frequency
!
# Hz S MA R 50
9000.000 +8.7784465415E-002 -1.6092714289E+002  +2.0236982316E-003 -1.3868925639E+002  +1.4536213305E-002 +1.5601370785E+002  +3.6495278683E-001 -1.2233529932E+002 
134145.181 +1.1182153611E-001 +1.6954703042E+002  +5.1967954984E-004 +4.8338051446E+001  +1.4351644793E-004 +1.0587272018E+002  +2.4100280091E-001 -1.7067814532E+002 
259290.363 +1.1276810650E-001 +1.7032532660E+002  +3.0320662814E-004 -1.6976989827E+002  +5.2475865837E-004 -1.4533276378E+002  +2.3363074321E-001 -1.6851896176E+002 
384435.544 +1.1340930674E-001 +1.7009073232E+002  +3.3982359744E-004 -6.9576857083E-001  +1.1014443153E-003 +6.1602132726E+001  +2.4159123870E-001 -1.6644474291E+002 
509580.726 +1.1437759877E-001 +1.7004282705E+002  +1.3030744154E-003 -4.1983104905E+001  +3.4056837114E-004 -7.8589091530E+001  +2.4524792673E-001 -1.6677019563E+002 
634725.907 +1.1681127002E-001 +1.7093766889E+002  +9.8291185229E-004 +1.7150278615E+002  +1.7605913903E-003 +4.6666821304E+001  +2.5301788668E-001 -1.6323317646E+002 
759871.089 +1.1882372543E-001 +1.7044277533E+002  +8.6266548675E-004 -6.1660319314E+001  +1.2310174132E-003 +1.0086788959E+002  +2.3553816099E-001 -1.6445511344E+002 
885016.270 +1.1965696524E-001 +1.6928546340E+002  +7.1965641460E-004 -7.4228153020E+001  +6.3302836854E-004 +8.7095824201E+001  +2.4017175291E-001 -1.6421619454E+002 
1010161.452 +1.1866000029E-001 +1.7212291650E+002  +1.9838257543E-003 -1.2288814880E+001  +1.4510768667E-003 -1.0318147792E+002  +1.9214464965E-001 -1.7771519647E+002 
1135306.633 +1.1924433075E-001 +1.6855428283E+002  +2.0542593823E-004 +9.4192295121E+001  +2.2555522162E-003 -4.4571342829E+001  +1.9431926562E-001 -1.7030728826E+002 
1260451.815 +1.2108362676E-001 +1.6999591129E+002  +7.8780597848E-004 -7.3749950744E+001  +1.1847951211E-003 +1.3714089928E+002  +2.5646855961E-001 -1.5391385603E+002 
1385596.996 +1.2378248907E-001 +1.7098130374E+002  +8.1923719823E-004 -9.8159358935E+001  +9.3006006478E-004 -6.2857922267E+001  +2.5270505639E-001 -1.5939259817E+002 
1510742.178 +1.2736088409E-001 +1.7048868785E+002  +1.3202354153E-004 +1.3577342808E+002  +3.1925125090E-004 -1.5200772212E+002  +2.7017825046E-001 -1.6025552854E+002 
1635887.359 +1.2848603739E-001 +1.7120557808E+002  +6.8556232569E-004 -5.1420852407E+001  +6.8989750369E-004 -1.0003043891E+002  +2.2701852291E-001 -1.5869380868E+002 
1761032.541 +1.3000721705E-001 +1.6945749711E+002  +1.3120053550E-003 -2.4386415553E+001  +1.1369381437E-003 -9.3824084719E+001  +2.2022188599E-001 -1.5363979344E+002 
1886177.722 +1.3301706340E-001 +1.6781561549E+002  +1.6495995653E-003 -2.6572018537E+001  +9.0078561432E-004 -4.7843639164E+001  +2.1394135100E-001 -1.6603481476E+002 
2011322.904 +1.2907531321E-001 +1.6608522326E+002  +2.7196956391E-003 -1.1095677150E+001  +3.3303692015E-004 -1.1435331943E+002  +1.7668510314E-001 -1.6942420347E+002 
2136468.085 +1.2754486221E-001 +1.6452914186E+002  +5.8058962684E-003 +1.1386634477E+002  +5.1023393618E-003 -5.4890041692E+001  +2.1359422182E-001 +1.7561714658E+002 
2261613.267 +1.2692074848E-001 +1.6502600658E+002  +4.6266517079E-003 +1.4327984060E+001  +1.0955763484E-002 -3.5370985901E+001  +1.5167196504E-001 -1.7969178104E+002 
2386758.448 +1.3452470153E-001 +1.6347568923E+002  +4.9152259830E-003 +1.0341163173E+002  +4.4006250069E-003 -3.2146828371E+001  +1.9204152247E-001 -1.7579852923E+002 
2511903.630 +1.3719386046E-001 +1.6553793045E+002  +8.1453469319E-003 +1.0162807674E+002  +7.4817188476E-003 -6.1328540215E+001  +2.1874007693E-001 +1.7290981065E+002 
2637048.811 +1.2304707648E-001 +1.5928587304E+002  +1.8900120557E-002 +1.1546958199E+002  +1.2153325599E-002 -4.6677800086E+001  +2.8540244886E-001 +1.4029845956E+002 
2762193.992 +1.0074413158E-001 +1.5931175913E+002  +5.4083697319E-002 -1.6925219767E+002  +6.9458516392E-002 +1.0106549927E+002  +1.0061102182E+000 -1.5862366614E+002 
2887339.174 +1.2714070118E-001 +1.5927235342E+002  +2.0963407653E-002 -1.4470912695E+001  +3.1775298953E-002 -1.3825490222E+002  +3.8730206185E-001 -1.0039500307E+002 
3012484.355 +1.1554688471E-001 +1.5614027483E+002  +1.5738963174E-002 +7.3236726795E+001  +2.4239740221E-002 -3.5686571480E+001  +2.3672440483E-001 +1.2859390812E+002 
3137629.537 +1.1012058254E-001 +1.7437266674E+002  +3.5062201609E-002 -2.8995617751E+001  +2.9128337012E-002 -1.2970305093E+002  +2.1114615227E-001 -5.1308796503E+001 
3262774.718 +1.2451822994E-001 +1.7489930552E+002  +2.1824201245E-002 -4.1610515431E+001  +1.9957645673E-002 -1.4880488453E+002  +2.5548938452E-001 -1.0069730498E+002 
3387919.900 +1.4323031529E-001 +1.6517734989E+002  +1.8518849520E-002 +2.5207526256E+001  +2.8326229479E-002 -6.4619398021E+001  +1.9578321967E-001 +8.7375125157E+001 
3513065.081 +1.0325728233E-001 +1.4586508270E+002  +6.4218037639E-002 +5.2511959695E+001  +4.0816249177E-002 -2.5561435011E+001  +3.7813432353E-001 +9.0047963685E+001 
3638210.263 +1.5983320365E-001 +1.4643775637E+002  +4.4674809865E-002 +1.0090783919E+002  +3.1908376025E-002 +1.9409639248E+001  +5.8756454946E-001 +1.1692080616E+002 
3763355.444 +1.6547558006E-001 +1.5102476039E+002  +2.2019901766E-002 +1.0800993278E+002  +2.3057123055E-002 +3.0297939117E+001  +3.6833998519E-001 +1.3890517804E+002 
3888500.626 +1.6471615863E-001 +1.5289568750E+002  +2.5289357480E-002 +7.1982503013E+001  +2.0861115726E-002 +3.8479637934E+000  +3.8280286644E-001 +1.3964674011E+002 
4013645.807 +1.5898078012E-001 +1.4865402050E+002  +4.5593956541E-002 +9.0979525218E+001  +2.9886928793E-002 +1.3670664023E+001  +4.6382700820E-001 +1.3649983386E+002 
4138790.989 +1.4892465240E-001 +1.4861930700E+002  +3.1948261640E-002 +5.2843782145E+001  +2.9773833715E-002 -2.6307235542E+000  +2.3460357961E-001 +1.2531050752E+002 
4263936.170 +1.9200202780E-001 +1.4623372745E+002  +4.9792300810E-002 +1.0200788148E+002  +5.6719257151E-002 +3.8736685541E+001  +7.4944499792E-001 +1.0649007214E+002 
4389081.352 +1.9711864574E-001 +1.4243374642E+002  +3.4983670078E-002 +6.8407120889E+001  +3.5728213705E-002 +2.5952171964E+001  +2.5211264812E-001 +1.1921570391E+002 
4514226.533 +2.4486843543E-001 +1.4069688265E+002  +6.2589334803E-002 +1.0100592001E+002  +6.3235943866E-002 +6.0095609654E+001  +8.5669286916E-001 +1.1489674511E+002 
4639371.715 +2.6539333285E-001 +1.3406996896E+002  +1.4064404460E-001 +1.5752607834E+002  +1.4952050740E-001 +1.1149893647E+002  +2.2803775999E+000 +1.4493971484E+002 
4764516.896 +3.2853248693E-001 +1.2879859223E+002  +3.9710609051E-001 +1.3665134701E+002  +4.4407552111E-001 +1.0347860837E+002  +5.2017301207E+000 +1.1130025607E+002 
4889662.078 +3.2175663767E-001 +1.3343601279E+002  +1.6837786490E-001 -9.0538591763E+001  +1.7394071810E-001 -1.3553642482E+002  +3.0359985070E+000 -1.3458956634E+002 
5014807.259 +4.1789750850E-001 +1.2671946407E+002  +2.6454624166E-001 +1.2407464291E+002  +2.3313256616E-001 +8.9448152067E+001  +2.5728064439E+000 +9.7381540298E+001 
5139952.441 +4.0971811715E-001 +1.3260874698E+002  +1.2914527898E-001 +1.1802702466E+002  +1.3136791788E-001 +9.1247547803E+001  +1.7056290455E+000 +1.0845699063E+002 
5265097.622 +4.0059689611E-001 +1.2531798209E+002  +1.3888975460E-001 +9.6800209078E+001  +1.2035152610E-001 +5.2533806185E+001  +1.7592067920E+000 +7.4440819972E+001 
5390242.804 +4.2445833698E-001 +1.3479586469E+002  +1.2295058202E-001 +9.1587495864E+001  +1.2933081607E-001 +6.0197918145E+001  +2.0458239569E+000 +6.5954389521E+001 
5515387.985 +3.6575613231E-001 +1.2325927939E+002  +1.0402528020E-001 +8.5842043840E+001  +1.2752861669E-001 +5.2118271827E+001  +1.2085671550E+000 +9.5581933460E+001 
5640533.166 +4.9823088467E-001 +1.2522178100E+002  +1.3212894800E-001 +1.2660988820E+002  +1.1530487444E-001 +9.4555110722E+001  +1.5522927335E+000 +1.1156762668E+002 
5765678.348 +4.8709273124E-001 +1.2947184414E+002  +1.2251507036E-001 +9.2378055747E+001  +1.0818050274E-001 +6.5103454586E+001  +1.5799688637E+000 +8.1823362824E+001 
5890823.529 +5.5080029887E-001 +1.2076579020E+002  +1.3169629226E-001 +7.7264099332E+001  +1.2217376850E-001 +5.1070296065E+001  +1.3774403240E+000 +5.7259869436E+001 
6015968.711 +5.8151060784E-001 +1.2000701867E+002  +1.2512536352E-001 +6.2473175260E+001  +1.5272803260E-001 +3.6049811534E+001  +1.9539924690E+000 +3.6211544764E+001 
6141113.892 +7.2209133921E-001 +1.1491235475E+002  +1.4768176916E-001 +6.5088459115E+001  +1.6893435800E-001 +4.5625221017E+001  +1.5834921134E+000 +3.6559192786E+001 
6266259.074 +8.3517896386E-001 +1.0681275089E+002  +1.7022026619E-001 +5.0055755225E+001  +1.4083391484E-001 +3.5161502085E+001  +1.3533888126E+000 +3.0127881034E+001 
6391404.255 +9.6236387476E-001 +1.0266448120E+002  +1.5371649135E-001 +5.2421272123E+001  +1.8886046682E-001 +4.2362772299E+001  +1.7381244146E+000 +2.2215528162E+001 
6516549.437 +8.8854042264E-001 +9.1388251932E+001  +1.6836703312E-001 +3.6545743227E+001  +1.6477453325E-001 +1.5825340815E+001  +1.5757168434E+000 +1.7833445462E+001 
6641694.618 +1.3512175274E+000 +7.6681706121E+001  +1.8119843568E-001 +3.8554175205E+001  +1.9706404478E-001 +2.8002427345E+001  +1.2708656140E+000 +1.1468205311E+000 
6766839.800 +1.5861176918E+000 +6.2654083884E+001  +1.9180189958E-001 +2.5790547498E+001  +1.7560457653E-001 +1.5637080510E+001  +1.3940340374E+000 +7.2029971070E-001 
6891984.981 +2.0159497808E+000 +2.8886926293E+001  +2.3320497575E-001 +7.4110970361E+000  +2.1179286827E-001 -2.2013114248E+000  +1.1260562766E+000 +1.2847695874E+000 
7017130.163 +1.2790883289E+000 +3.0798212895E+001  +1.5285357541E-001 +9.6052079466E+000  +1.3421726482E-001 -2.0527547741E+000  +1.1551541535E+000 +2.2519013696E+000 
7142275.344 +1.4713628504E+000 +8.2256850070E+000  +1.6099694535E-001 -3.6071003168E-001  +1.3178376624E-001 -1.7365811527E+000  +1.2392691325E+000 -7.5441200783E+000 
7267420.526 +1.3622725045E+000 +6.3915560520E-001  +1.0881721448E-001 +4.3936626368E+000  +1.1975799301E-001 -3.6731746406E+000  +1.2502279241E+000 -1.3020641856E+001 
7392565.707 +1.0905399404E+000 -4.9946607315E+000  +8.8462531864E-002 +2.2823646883E+000  +9.3060380086E-002 +4.5494365289E+000  +1.1746319262E+000 -9.5774268711E+000 
7517710.889 +1.0434959002E+000 +3.9964349985E+000  +8.3789358254E-002 +3.6308508615E+000  +8.9404375140E-002 +1.0158931258E+001  +1.2349982003E+000 -9.8210924259E+000 
7642856.070 +9.2509647954E-001 +4.9510412452E-001  +8.2511656204E-002 +7.6347478182E+000  +8.2540637170E-002 +9.2463673396E+000  +1.0767278551E+000 -9.3198760203E-001 
7768001.252 +9.3717100411E-001 -2.7436435760E+000  +8.1456833997E-002 +7.5964773068E+000  +8.0507389967E-002 +1.2536988531E+001  +9.9071073996E-001 +1.6840470101E+000 
7893146.433 +7.8371358536E-001 -1.6317851145E+000  +7.1211142642E-002 +9.7462938742E-001  +7.9981302021E-002 +8.5340175597E+000  +8.4390049729E-001 +2.2515856527E+000 
8018291.615 +7.3340071245E-001 +2.8801064083E+000  +7.1758931872E-002 +2.1470950258E+000  +7.3232730969E-002 +5.5719291422E+000  +8.0979298481E-001 +8.0346771585E-001 
8143436.796 +6.2910246558E-001 +5.1993695216E+000  +7.2279612755E-002 -4.3795484813E-001  +6.6436210225E-002 +1.1025876525E+001  +7.2204358796E-001 -3.7775592135E+000 
8268581.977 +7.0976010055E-001 +9.7595128767E+000  +6.8164277122E-002 +1.2251287427E+000  +6.9967349040E-002 +1.2320571262E+001  +7.0746982703E-001 -8.0004240274E-001 
8393727.159 +6.4165657912E-001 +3.5148863475E-002  +7.0812351302E-002 +5.7518189745E-001  +6.3032772601E-002 +1.1061989817E+001  +6.7441780802E-001 +7.3220823619E-002 
8518872.340 +6.2153693477E-001 +9.8257574255E+000  +6.8418188882E-002 -1.1302013478E-001  +6.3143816612E-002 +1.0987898085E+001  +6.3669915443E-001 +1.3771001996E+000 
8644017.522 +5.6598823965E-001 +1.6019019937E+001  +5.8707681182E-002 -9.7017425730E-001  +6.3962208967E-002 +1.3987490818E+001  +5.6587869261E-001 -4.1667945805E-001 
8769162.703 +5.5356052138E-001 +1.0212214600E+001  +6.6998880624E-002 -9.5631075435E-001  +6.7877111740E-002 +7.2700717935E+000  +6.1055074087E-001 -2.4382325308E+000 
8894307.885 +5.2699023762E-001 +1.9585499630E+000  +6.6212188098E-002 -3.7904965336E+000  +6.3187237293E-002 +1.0693819981E+001  +6.2531186119E-001 +5.4477695106E+000 
9019453.066 +4.8701753235E-001 +7.7263000700E+000  +6.1198423595E-002 -5.5624642383E+000  +5.9454805949E-002 +1.2940736807E+001  +5.6071820761E-001 -5.6629461176E-001 
9144598.248 +4.8945535194E-001 +7.3611514514E+000  +6.7169584468E-002 -2.5458260368E+000  +6.1537922484E-002 +1.0678771473E+001  +4.9507094604E-001 -8.8442211583E+000 
9269743.429 +4.6920721896E-001 -8.8914392104E-001  +6.7495059730E-002 -2.6264848750E+000  +6.7040229138E-002 +1.4266297294E+001  +5.8123101831E-001 -4.3614954653E+000 
9394888.611 +5.2139212480E-001 +8.1847299487E+000  +6.2767289537E-002 -2.7368201496E+000  +6.3461067516E-002 +1.3752561114E+001  +5.3966870324E-001 -2.7636220966E+000 
9520033.792 +4.6807042929E-001 +4.5193259491E+000  +6.4108773460E-002 -4.6790168706E-001  +6.2625919764E-002 +1.6307010045E+001  +5.4636097188E-001 -4.0774869083E+000 
9645178.974 +4.5232227778E-001 +4.5279261541E+000  +6.3938247851E-002 -2.1666620442E-001  +6.3429226572E-002 +1.5137103763E+001  +5.0182981988E-001 -2.6200542929E+000 
9770324.155 +4.9793349595E-001 +5.6966397689E+000  +6.5987686028E-002 -1.1575056263E+000  +6.4769067382E-002 +1.4283338524E+001  +5.0124772422E-001 -1.0743475784E+000 
9895469.337 +4.8507429503E-001 +4.7622364375E+000  +6.1197974434E-002 -1.6711495856E+000  +6.3482466950E-002 +1.4020818977E+001  +4.9640504657E-001 -4.3427431519E+000 
10020614.518 +4.6900940821E-001 +2.5985386914E+000  +6.5116004617E-002 -3.1170583377E+000  +6.2696153621E-002 +1.7371279575E+001  +5.4753210989E-001 -6.4261994859E+000 
10145759.700 +4.9135263957E-001 +4.4521024944E-001  +6.2903540740E-002 -1.4791658399E+000  +6.5196963766E-002 +1.7759374320E+001  +5.0561113840E-001 -5.9397921767E+000 
10270904.881 +4.7774724238E-001 +1.7753965326E+000  +6.7794405577E-002 -6.2599792950E-001  +6.3442202917E-002 +1.3674781077E+001  +5.1104548539E-001 -9.3818240154E-002 
10396050.063 +4.8508880016E-001 +6.1481266851E+000  +6.7132651400E-002 -4.0215162512E-001  +6.5357432012E-002 +1.7599744476E+001  +5.0012493192E-001 -2.5154378112E+000 
10521195.244 +4.5523083368E-001 +5.9403494541E+000  +6.2908333463E-002 +2.5798211052E-001  +6.1406272209E-002 +1.3556122723E+001  +5.2144844553E-001 +9.3313373310E-001 
10646340.426 +4.7652684704E-001 +7.6622194155E+000  +6.2648370982E-002 +1.9131375530E+000  +6.2625572647E-002 +1.5519748874E+001  +5.6379592958E-001 +2.2999899401E+000 
10771485.607 +4.9308334590E-001 +6.0511221101E+000  +6.4563967963E-002 +4.1802137267E+000  +6.5728041367E-002 +1.6052981386E+001  +5.5320589027E-001 +2.2588201087E+000 
10896630.788 +5.0020597293E-001 +1.0752169362E+001  +6.7087782309E-002 +8.5379528844E-001  +6.5087458499E-002 +1.5899378953E+001  +5.4151306713E-001 -1.4204247777E+000 
11021775.970 +5.3958398683E-001 +8.9106370457E+000  +6.6485430544E-002 +4.2494888590E-001  +6.6149648761E-002 +1.5350059801E+001  +5.4036407113E-001 +5.0686334948E-001 
11146921.151 +5.3722316385E-001 +7.7572278630E+000  +6.8669355092E-002 +1.5126542224E+000  +6.7588338435E-002 +1.6498782575E+001  +5.3938823402E-001 +2.3419993495E+000 
11272066.333 +5.4321943506E-001 +8.2800684225E+000  +6.9685112834E-002 +3.8211733357E+000  +6.8226313670E-002 +1.5874470472E+001  +5.4185234012E-001 +4.9778671038E+000 
11397211.514 +5.5018705579E-001 +7.8765565978E+000  +7.2375425825E-002 +2.9860411310E+000  +6.7600875751E-002 +1.5210506016E+001  +5.9126439567E-001 +2.0904103022E+000 
11522356.696 +5.4352660736E-001 +8.3734273869E+000  +6.8395416608E-002 +2.7910303503E+000  +6.8405893335E-002 +1.6847818280E+001  +5.6048572912E-001 +3.1657655800E+000 
11647501.877 +5.4823129895E-001 +3.1554309104E+000  +7.1816561196E-002 +3.7708201225E+000  +6.8921807229E-002 +1.4867792844E+001  +5.6652365827E-001 +1.9928680375E+000 
11772647.059 +5.5963634201E-001 +6.2243829280E+000  +7.0856844421E-002 +4.7053935494E+000  +7.0951651279E-002 +1.4528241425E+001  +5.7930968647E-001 +1.8464884015E+000 
11897792.240 +5.7939343538E-001 +4.5480808682E+000  +7.1800331666E-002 +5.2033995747E+000  +7.0583556842E-002 +1.4015198617E+001  +5.9541488400E-001 +1.9842996153E+000 
12022937.422 +6.1161854033E-001 +4.2366282612E+000  +7.2871231703E-002 +6.4921282230E+000  +7.2065048799E-002 +1.7429390905E+001  +6.3103590121E-001 +4.0509930464E-001 
12148082.603 +5.8895607187E-001 +5.9924421874E+000  +7.4218058309E-002 +4.6979566959E+000  +7.3852521211E-002 +1.3322395816E+001  +6.2826114629E-001 +1.0720298970E+000 
12273227.785 +6.1671340434E-001 +4.9027056815E+000  +7.2971947239E-002 +6.2196183636E+000  +7.4199359879E-002 +1.3623169699E+001  +6.4823731707E-001 +4.8862819788E-001 
12398372.966 +6.3953600857E-001 +2.6677862788E+000  +7.4653988131E-002 +5.6725887898E+000  +7.5200766125E-002 +1.3278538225E+001  +6.5021102043E-001 -3.5274316561E-001 
12523518.148 +6.7242714136E-001 +3.7088460896E+000  +7.4869805169E-002 +8.1340147414E+000  +7.4915888145E-002 +1.3452729297E+001  +6.6377325050E-001 +9.1247357588E-001 
12648663.329 +6.5751587226E-001 +2.0897885270E+000  +7.7436801801E-002 +7.4339386804E+000  +7.5928269075E-002 +1.3767235564E+001  +7.0440585810E-001 +1.5676162373E-001 
12773808.511 +6.6954292593E-001 +4.2316827726E+000  +7.6517574864E-002 +6.5730669561E+000  +7.5369192768E-002 +1.2329439097E+001  +6.7479772091E-001 +2.1610844740E+000 
12898953.692 +7.0097448084E-001 +1.0321742028E+000  +7.9172561249E-002 +6.5472921786E+000  +7.5631087546E-002 +1.1062409018E+001  +7.1059745317E-001 +1.2277458005E+000 
13024098.874 +6.8125632207E-001 +2.0836965214E+000  +7.7697364487E-002 +7.5994263439E+000  +7.6911733527E-002 +1.1263567001E+001  +6.8896276805E-001 -2.0374054237E+000 
13149244.055 +7.3129667395E-001 +1.1870948741E+000  +8.0083380732E-002 +7.4562396457E+000  +8.0173468758E-002 +1.3088130969E+001  +7.4731510206E-001 -2.2001703951E+000 
13274389.237 +7.2642101105E-001 -5.0650515088E-001  +7.9285017413E-002 +5.9992735803E+000  +7.8062672469E-002 +1.1087051403E+001  +7.3826972783E-001 -1.3321482539E+000 
13399534.418 +7.4114359681E-001 -1.8708714494E+000  +8.0902458948E-002 +6.7696239287E+000  +7.9561731510E-002 +8.7050255435E+000  +7.5047628245E-001 -2.0858656226E+000 
13524679.599 +7.7195725122E-001 -1.8573753034E+000  +8.2466283234E-002 +8.2775228602E+000  +8.0927476957E-002 +8.6957031065E+000  +7.7892240603E-001 -2.6964770209E+000 
13649824.781 +8.1280546093E-001 -2.6224880501E+000  +8.1831047690E-002 +6.8588390076E+000  +8.1295223463E-002 +9.4269540168E+000  +8.0218156733E-001 -2.3448904482E+000 
13774969.962 +7.9852966921E-001 -3.4040743009E+000  +8.2501656071E-002 +7.1145936682E+000  +8.2947565883E-002 +9.0731908440E+000  +8.2845986064E-001 -4.0384136835E+000 
13900115.144 +8.0720843459E-001 -2.0046510147E+000  +8.3991973157E-002 +7.9837576510E+000  +8.3623454315E-002 +7.7345077436E+000  +8.5010201514E-001 -3.6004254238E+000 
14025260.325 +8.4317040129E-001 -3.6326174215E+000  +8.5386168636E-002 +7.5603828355E+000  +8.2433461106E-002 +8.2643682913E+000  +8.4920317615E-001 -3.1509428395E+000 
14150405.507 +8.5067077136E-001 -4.3341227259E+000  +8.4887230862E-002 +6.7852328159E+000  +8.2893743665E-002 +8.2297783725E+000  +8.6133053927E-001 -4.0514084877E+000 
14275550.688 +8.6820068633E-001 -5.5076083410E+000  +8.3486703628E-002 +6.3174401044E+000  +8.3660782354E-002 +7.1537252645E+000  +8.7447492400E-001 -3.8974814884E+000 
14400695.870 +8.9843547141E-001 -5.4100225856E+000  +8.4381983620E-002 +6.2853491049E+000  +8.4364688092E-002 +6.2222497179E+000  +8.9856722633E-001 -4.7465027494E+000 
