!  2-Port S-parameters saved by WinCal
! VAR MeasName=S-Parameters (CALIBRATED_DATA) read from VNA (P5004A)
! VAR MeasDate=28/08/2024 10:54:00
! VAR NAME=S2_r5c9_SET2_9k-100M_2
! VAR FILENAME=S2_r5c9_SET2_9k-100M_2.S2P
! VAR DATE=28/08/2024 10:54:00
! VAR PHYS_PORTS=1,2
! VAR ObjTypeName=DATASET
! VAR IndexType=Frequency
!
# Hz S MA R 50
9000.000 +8.0826928532E-002 -1.6903873774E+002  +7.4377115280E-003 -1.3551645279E+002  +8.2342812210E-003 +1.7206985223E+002  +2.6474002872E-001 -1.4911577506E+002 
134145.181 +1.1057201921E-001 +1.6950530011E+002  +6.1499238068E-004 +1.1930549577E+002  +3.9557936638E-004 -1.2037089672E+002  +2.4238958314E-001 -1.7083600748E+002 
259290.363 +1.1224621758E-001 +1.6997601296E+002  +4.8657832653E-004 +1.4108297148E+002  +9.5798119245E-004 +1.6161006787E+002  +2.4064606346E-001 -1.6995163263E+002 
384435.544 +1.1272548681E-001 +1.7102561692E+002  +1.6269085932E-003 -1.4506732339E+002  +8.7009891237E-004 -1.2302670672E+002  +2.4531994778E-001 -1.6771256902E+002 
509580.726 +1.1457623127E-001 +1.7069920396E+002  +9.2638911939E-004 -1.1088848293E+002  +1.5751915138E-003 +6.2536482908E+001  +2.5519446801E-001 -1.6096843357E+002 
634725.907 +1.1637442582E-001 +1.7034739723E+002  +3.9573788900E-004 -1.4974181759E+002  +4.4223065424E-004 +1.2714106676E+002  +2.5006713611E-001 -1.6642955354E+002 
759871.089 +1.1949966059E-001 +1.7047732067E+002  +5.9177782753E-004 -2.1849932951E+001  +2.6010509347E-004 +6.7582508675E+001  +2.5310109788E-001 -1.6582564889E+002 
885016.270 +1.2115158834E-001 +1.6894146284E+002  +4.1040737506E-004 +1.4715042040E+002  +1.2442705651E-004 -1.7536290033E+002  +2.5003859128E-001 -1.6646417511E+002 
1010161.452 +1.1624683346E-001 +1.6995710695E+002  +5.6166091302E-004 -5.2269799159E+001  +1.2026405053E-003 -1.0881855957E+001  +2.1173158507E-001 -1.6513385359E+002 
1135306.633 +1.1819671051E-001 +1.7073412641E+002  +5.3125240534E-004 +7.3228945922E+001  +6.7111177144E-004 +9.8625480912E+001  +2.2430296175E-001 -1.5990321258E+002 
1260451.815 +1.2200931386E-001 +1.7210375192E+002  +1.5094983688E-003 -8.6864091987E+001  +5.8852974158E-004 +2.4670998455E+001  +2.3169851993E-001 -1.6033603312E+002 
1385596.996 +1.2185827309E-001 +1.7198381723E+002  +1.9375614824E-004 -1.4468184129E+002  +1.0903887166E-003 -1.6545044175E+002  +2.5504745495E-001 -1.5995589360E+002 
1510742.178 +1.2756071089E-001 +1.7296821431E+002  +1.2048410948E-003 +1.2224728518E+002  +1.1829820151E-003 -1.5861956582E+002  +2.5528727530E-001 -1.6064154111E+002 
1635887.359 +1.2903365762E-001 +1.7156672592E+002  +7.6177946651E-004 +8.9359533054E+000  +2.2563691017E-004 -1.2474124193E+002  +2.6375945524E-001 -1.5437741902E+002 
1761032.541 +1.2893164183E-001 +1.6841843128E+002  +3.4220070335E-005 +1.1445311958E+001  +5.1663388517E-004 -1.6001678207E+002  +2.3482271783E-001 -1.5546652269E+002 
1886177.722 +1.3236409141E-001 +1.6883514930E+002  +1.4054298328E-003 -4.2177052111E+001  +8.9712586329E-004 -5.5147167676E+001  +2.2512002031E-001 -1.5813061057E+002 
2011322.904 +1.3357944016E-001 +1.6866280283E+002  +4.1573518802E-003 +1.2362220034E+002  +2.2788770505E-003 -8.1892569419E+001  +1.4373517980E-001 +1.7893745451E+002 
2136468.085 +1.2999220339E-001 +1.6844361622E+002  +1.5550210939E-003 +1.0500882598E+002  +2.4408957596E-003 -6.1435062497E+000  +2.1346408441E-001 -1.6842465321E+002 
2261613.267 +1.2753628134E-001 +1.5951845537E+002  +9.2090328595E-004 -2.2293443257E+001  +3.6396176430E-003 -5.7189110034E+001  +2.0021835756E-001 -1.7715159716E+002 
2386758.448 +1.3229537344E-001 +1.6743719350E+002  +3.8388477465E-003 +4.9944723249E+001  +2.4885408420E-003 +6.6477869543E+001  +1.9452783650E-001 +1.6398156678E+002 
2511903.630 +1.3694245426E-001 +1.6174827073E+002  +6.6880159574E-003 +3.8463286100E+001  +3.2180493447E-003 -4.3987162969E+001  +9.5330318786E-002 +1.6519229872E+002 
2637048.811 +1.2731749922E-001 +1.5403953095E+002  +1.1356872399E-002 +1.5517454774E+002  +3.2981970336E-003 -2.9812924094E+001  +1.1995913358E-001 +1.6357074380E+002 
2762193.992 +1.0974827012E-001 +1.7373043827E+002  +1.0244597895E-002 -1.6870754477E+000  +8.2690199137E-003 -1.7652772103E+002  +1.0345893282E+000 -7.7713231539E+001 
2887339.174 +1.3075284539E-001 +1.7665416214E+002  +8.7370138458E-003 +7.9078007445E+000  +4.4154488054E-003 +3.6121999461E+001  +1.3994987559E-001 -1.1042966761E+002 
3012484.355 +1.1703790952E-001 -1.7926108446E+002  +4.0120388365E-003 +7.4657541081E+001  +1.0147813615E-002 +1.3976478418E+002  +2.8331369492E-001 -8.6300272559E+001 
3137629.537 +1.2460083943E-001 +1.6249416246E+002  +8.3547631690E-003 +1.5269833481E+002  +7.5258374350E-003 +1.1571719968E+001  +1.0894204180E-001 +1.2573495977E+002 
3262774.718 +1.3998264967E-001 +1.7245913218E+002  +6.8391765193E-003 -8.7184751867E+001  +1.1503783336E-002 -6.5692817314E+001  +1.1616684961E-001 -9.8084701978E+001 
3387919.900 +1.4089243440E-001 +1.5752728005E+002  +7.6466563420E-003 +1.6060302783E+002  +9.8727529989E-003 -6.9272025757E+001  +2.8542349224E-001 -1.1096078650E+001 
3513065.081 +1.4257723170E-001 +1.5194153995E+002  +1.3358260943E-002 +4.6494874700E+001  +2.0126126269E-002 +3.1697448289E+001  +4.4221340645E-001 +6.6550640654E+001 
3638210.263 +1.6323035523E-001 +1.4535025010E+002  +1.7202681570E-002 +6.2317975811E+001  +8.9203940292E-003 +6.1207168117E+001  +7.6038481934E-001 +1.1848877122E+002 
3763355.444 +1.9712700614E-001 +1.3906699935E+002  +1.9512975932E-002 +1.7439105807E+002  +1.7969126325E-002 -3.6823792796E+000  +5.4450216294E-001 +5.9007912936E+001 
3888500.626 +1.8564212393E-001 +1.5011303094E+002  +4.6501168753E-003 -1.2893311782E+002  +3.6056404785E-003 +1.5083637342E+002  +4.1957556821E-001 +1.2807953614E+002 
4013645.807 +1.7873269966E-001 +1.4399862234E+002  +1.7902282330E-002 +8.5254613258E+001  +1.1973369408E-002 +9.9528767623E+001  +4.2238168063E-001 +7.8120681329E+001 
4138790.989 +1.9256516859E-001 +1.4258180654E+002  +2.2676372713E-002 +7.3437996499E+001  +1.3793627763E-002 +1.6650571663E+001  +7.1920883650E-001 +2.0535931199E+001 
4263936.170 +1.7858489257E-001 +1.5003145905E+002  +3.6969148347E-003 +8.8167617771E+001  +1.3230127025E-002 -1.7002861086E+001  +2.0932589990E-001 +1.0250869532E+002 
4389081.352 +1.9896056658E-001 +1.4581252711E+002  +4.7938887763E-003 +1.7599616040E+002  +4.7675264958E-003 -3.0969873048E+001  +1.2080702518E+000 +1.3739734531E+002 
4514226.533 +2.2764988256E-001 +1.3991394768E+002  +1.9524038481E-002 +1.3437918621E+002  +8.7578831192E-003 -4.9782786697E+001  +1.1630867802E+000 +1.0921157072E+002 
4639371.715 +2.9677516778E-001 +1.3027605046E+002  +2.8729015170E-002 +1.3467432982E+002  +1.5390127399E-002 +1.5266233669E+001  +2.3139966585E+000 +1.4667864111E+002 
4764516.896 +2.8911965761E-001 +1.1968490433E+002  +2.1467413428E-002 -7.1618586740E+000  +1.2182901052E-001 +1.2069195930E+002  +7.2589449554E+000 +1.7081095608E+002 
4889662.078 +5.1832469585E-001 +1.1978621923E+002  +7.5921125437E-002 +2.5232524072E+001  +5.7654565394E-002 -1.2048333704E+002  +3.2281089611E+000 -1.0767710902E+002 
5014807.259 +3.3597624748E-001 +1.3512913472E+002  +2.0750716250E-002 -4.9198189103E+001  +1.1203437299E-002 +7.5835438657E+001  +1.3683909053E+000 +7.5593612783E+001 
5139952.441 +3.9833685465E-001 +1.3495563004E+002  +6.1158084067E-002 -1.3351092361E+002  +3.7996548936E-002 -1.6723689937E+002  +4.3540701971E+000 +1.5868522572E+002 
5265097.622 +3.7537349734E-001 +1.2601531785E+002  +1.2693400327E-002 +3.0663977541E+001  +4.2805246853E-002 +1.4044067384E+002  +2.5725526802E+000 +5.5168454400E+001 
5390242.804 +3.5617707587E-001 +1.3225892851E+002  +1.6149028013E-002 +7.5999343714E+001  +2.0711131322E-002 +1.4376565352E+002  +2.7906521955E+000 +1.4327213919E+002 
5515387.985 +3.8471429013E-001 +1.2929272745E+002  +2.7666330097E-002 +7.8306714319E+001  +6.0855100683E-003 +8.0563896963E+000  +2.3104234474E+000 +5.0162856333E+001 
5640533.166 +3.7561890810E-001 +1.3348558008E+002  +4.0611046151E-002 +4.7575655473E+001  +2.1622147000E-002 -4.4164998599E+001  +2.4930981250E+000 +6.3442503430E+001 
5765678.348 +5.7034647648E-001 +1.2403186740E+002  +3.6755002387E-002 +9.3544436361E+001  +1.4202241168E-002 +1.0063770483E+002  +2.0507013443E+000 +6.1529529875E+001 
5890823.529 +5.0181374156E-001 +1.3153773373E+002  +1.9576008182E-002 +7.1435372643E+001  +2.2103757508E-002 +8.4052119273E+001  +1.9801396589E+000 +8.6140178100E+001 
6015968.711 +6.9018423832E-001 +1.2515090544E+002  +9.9380953468E-003 -1.0029936013E+002  +3.7379855572E-002 +1.6341267635E+002  +2.7465491192E+000 +7.0924806036E+001 
6141113.892 +7.5573136971E-001 +1.1403279146E+002  +3.5352872352E-002 +5.2000245097E+001  +2.3697610921E-002 +1.4248022371E+002  +1.3724402688E+000 +5.8249271550E+001 
6266259.074 +9.5744420219E-001 +1.0647049096E+002  +2.2781466101E-002 +8.9670309997E+001  +3.9476386178E-002 +4.6812526456E+001  +1.7688273120E+000 +1.3297483382E+001 
6391404.255 +8.2539672450E-001 +9.7939383283E+001  +3.7338031483E-002 +9.7442170170E+001  +3.1379962075E-002 +9.1954073660E+001  +1.6044982155E+000 +2.0133582073E+001 
6516549.437 +1.1634027435E+000 +7.9303317096E+001  +3.9960136840E-002 +2.3191852185E+001  +2.4809293413E-002 +3.9815805575E+001  +1.5450791763E+000 +4.0483821691E-001 
6641694.618 +1.4244793409E+000 +7.0126305345E+001  +2.3260384909E-002 +1.7579663575E+002  +5.6409185750E-002 +2.7893825119E+001  +1.5833794924E+000 -1.0100611807E+000 
6766839.800 +1.6302142166E+000 +5.6287358929E+001  +3.6944088914E-002 +5.8465787032E+001  +2.9142105741E-002 +2.4177225779E+001  +1.4285881757E+000 -7.5693341684E+000 
6891984.981 +1.9476198597E+000 +3.9563406505E+001  +2.0905701962E-002 +1.4405628669E+001  +2.9970960787E-002 -5.4880204675E+001  +1.2666444513E+000 +1.0087611298E+000 
7017130.163 +2.0278331514E+000 +2.3438137158E+001  +1.3818120815E-002 +5.4051010668E+001  +1.2802641994E-002 +6.0762695835E+001  +1.5458785422E+000 -1.5479869927E+001 
7142275.344 +1.7588038711E+000 +1.6661981150E+001  +1.7419323591E-002 +2.1252714977E+001  +2.3338608633E-002 +5.7180784410E+000  +1.2263147776E+000 -1.1962376244E+001 
7267420.526 +1.5200497190E+000 -7.1546126432E+000  +3.0758675738E-002 +3.7393709021E+001  +1.8686497737E-002 -8.8558367293E+000  +1.1609288401E+000 -3.0401533049E+000 
7392565.707 +1.3757403365E+000 -3.8346863399E+000  +2.1092100219E-002 +2.7566404261E+001  +1.2894204603E-002 +5.0228905497E+000  +1.2952200244E+000 -3.2524644274E-001 
7517710.889 +1.1751925169E+000 +5.1047224675E+000  +5.5812246469E-003 -3.4231782587E+001  +1.6479704160E-002 -8.6445428830E+000  +1.1614121438E+000 -3.9278275869E+000 
7642856.070 +1.0536607179E+000 +1.8323858834E+000  +1.6261539585E-002 +2.2826619215E+000  +1.1445087164E-002 +7.5433135067E+000  +1.1506323051E+000 -5.9796112978E+000 
7768001.252 +9.5588428707E-001 +1.1755186244E+000  +1.0580948112E-002 +1.1537023088E+001  +1.1345968188E-002 +3.8347996753E+001  +9.7260033741E-001 -8.2295955717E+000 
7893146.433 +8.0053563875E-001 +9.0053541037E+000  +1.4115693289E-002 +3.1813457630E+001  +8.7888702622E-003 -1.1391583692E+001  +9.5256032472E-001 -2.7490304907E+000 
8018291.615 +8.1864849584E-001 +9.6044069489E+000  +8.9074767048E-003 +7.6363674568E+000  +1.2974814376E-002 +4.6385949526E+001  +8.0232717397E-001 -2.6540789358E+000 
8143436.796 +8.4447211204E-001 +7.1197595419E+000  +1.5064676853E-002 +2.5931177612E+000  +1.3416560379E-002 +5.6167501691E+001  +8.0365918176E-001 +3.9578244253E-001 
8268581.977 +6.7974210937E-001 +6.3552874109E+000  +1.0000531943E-002 -1.1197172039E+001  +8.2317574509E-003 +1.8976048970E+001  +7.3412654243E-001 -3.1705407671E-001 
8393727.159 +7.1171820263E-001 +1.1403932511E+001  +7.2270338897E-003 +6.7886172396E+000  +7.9457122341E-003 +8.3521884326E+000  +7.6498964978E-001 +4.6973558038E+000 
8518872.340 +6.9513508779E-001 +1.1456617121E+001  +5.4470360989E-003 +3.3994932147E+001  +7.6094266239E-003 +3.1941561739E+001  +7.3335470303E-001 -6.6380533801E-002 
8644017.522 +6.7518568730E-001 +5.3853192029E+000  +9.4714141016E-003 +4.5196614774E+001  +7.4394949396E-003 +3.9680577652E+001  +6.5354501923E-001 -1.6197153794E+000 
8769162.703 +6.2011999697E-001 +5.3229861919E+000  +4.5498313446E-003 -1.6694553696E+001  +6.3900505344E-003 +9.1243511517E+000  +6.8230873138E-001 -3.8117515703E+000 
8894307.885 +6.4440744712E-001 +8.5636358406E+000  +5.7556037184E-003 +2.6222393242E+001  +8.8405014986E-003 +4.9175479369E+001  +6.6173903070E-001 +5.0429625802E+000 
9019453.066 +5.9066551211E-001 +3.9302916963E+000  +1.0517838010E-002 +2.2648553669E+001  +8.7926526467E-003 +6.6733116699E+001  +6.1605878926E-001 -5.7770161839E-001 
9144598.248 +5.2501889808E-001 +1.8661029217E+000  +1.2917407509E-002 +2.8376211767E+001  +6.0549217482E-003 +2.2542080045E+001  +5.5400733149E-001 -3.4639867247E+000 
9269743.429 +5.6303201475E-001 +7.7616751806E-001  +1.3732822005E-002 +4.7930148379E+001  +7.4370843261E-003 +5.3237732699E+001  +5.6591482752E-001 -3.1951502493E+000 
9394888.611 +5.6252695118E-001 +1.0672205583E+001  +7.0925254029E-003 +3.9847464086E+001  +1.1474071936E-002 +6.0333431598E+001  +5.6084097544E-001 -3.0294085522E+000 
9520033.792 +5.0618565210E-001 +8.5655910342E+000  +9.9360915420E-003 +3.0392923681E+001  +1.1144311483E-002 +2.8654045322E+001  +5.4945985905E-001 -1.8905293134E+000 
9645178.974 +5.4982027793E-001 +2.6493226504E+000  +6.9061438952E-003 +3.0738870756E+001  +9.2523155623E-003 +5.6932960740E+001  +5.9128009142E-001 -8.0323878221E-001 
9770324.155 +5.3838633388E-001 -5.1706698542E-001  +9.7841127799E-003 +1.8963589125E+001  +7.3690873639E-003 +3.2537676260E+001  +5.2239542054E-001 -8.9609775075E+000 
9895469.337 +5.5574695154E-001 -6.0666020527E-001  +1.0698421424E-002 +3.3259309712E+001  +1.1178626820E-002 +3.4921039635E+001  +5.8227300981E-001 -4.2934908580E+000 
10020614.518 +5.2185880978E-001 +6.6824602410E+000  +5.9701675775E-003 +2.2857517238E+001  +9.0220129606E-003 +5.7769758777E+001  +5.8476683502E-001 -3.8831787688E+000 
10145759.700 +5.0463327332E-001 +3.8988796012E+000  +9.8092597443E-003 +9.8005592721E+000  +9.6259995009E-003 +3.8050643089E+001  +5.6228183827E-001 -5.4540423939E+000 
10270904.881 +5.6473836412E-001 +2.6564351034E+000  +9.2269383616E-003 +8.2600010664E+000  +1.0387146898E-002 +5.2090477370E+001  +5.3852290308E-001 -1.3835646822E+000 
10396050.063 +5.5071708234E-001 +4.1451616086E+000  +9.4710943404E-003 +1.4568926070E+001  +6.2393907671E-003 +4.9446356847E+001  +6.0634393807E-001 +4.3724604466E-001 
10521195.244 +5.7767541055E-001 +5.1957986904E+000  +5.4264059461E-003 +3.5283716926E+001  +4.3561460087E-003 +3.0643185062E+001  +5.8497368715E-001 +5.1103212110E-002 
10646340.426 +5.6981513965E-001 +9.6265229465E+000  +9.9080923364E-003 +2.8667100654E+001  +8.0388976401E-003 +5.2600588311E+001  +6.1792376923E-001 -2.0758774392E+000 
10771485.607 +5.5018701436E-001 +4.1131104797E+000  +8.5135121586E-003 +4.3070176121E+001  +9.5949394246E-003 +4.9486659047E+001  +5.7260064184E-001 +8.5301991129E-001 
10896630.788 +5.6558431075E-001 +5.2602447444E+000  +7.7624922809E-003 +4.7744168502E+001  +7.2916169502E-003 +4.5177548902E+001  +5.9473166186E-001 +4.9909348816E-001 
11021775.970 +5.6958757655E-001 +4.7723512804E+000  +9.2437221987E-003 +1.9116552521E+001  +5.5485217569E-003 +3.8675252737E+001  +6.1515220129E-001 +3.6339789362E+000 
11146921.151 +5.7642953263E-001 +6.8989584093E+000  +8.5134411906E-003 +2.7422200479E+001  +1.0390048102E-002 +3.9381555256E+001  +6.1921422385E-001 +8.7006284883E-001 
11272066.333 +5.9468779912E-001 +4.0956462287E+000  +9.1791941069E-003 +3.7862305601E+001  +9.6593168650E-003 +2.9648497079E+001  +6.4631110229E-001 +2.3458307164E+000 
11397211.514 +6.0996935863E-001 +7.3379170992E+000  +9.9772480265E-003 +2.0362946943E+001  +8.9999818319E-003 +4.0626299266E+001  +6.2130694385E-001 -4.0685300208E-001 
11522356.696 +6.0364976998E-001 +6.4090171232E+000  +8.8261298963E-003 +2.8918697015E+001  +8.4347640993E-003 +4.2263196145E+001  +6.1811292197E-001 +1.0493011859E+000 
11647501.877 +6.0740230632E-001 +4.8955457193E+000  +1.0691308586E-002 +2.9346871010E+001  +9.1117555708E-003 +4.5556278157E+001  +6.5373876317E-001 +3.1133751820E+000 
11772647.059 +6.5970301800E-001 +4.1928348367E+000  +9.8626844104E-003 +4.7988940597E+001  +1.1382182222E-002 +4.6283804172E+001  +6.5650542450E-001 -9.9125100302E-001 
11897792.240 +6.4655913776E-001 +3.7121803982E+000  +8.8741784089E-003 +2.5008181197E+001  +8.6201602449E-003 +2.9356137662E+001  +6.8031120739E-001 +2.0069122848E+000 
12022937.422 +6.8733752218E-001 +5.0208680944E+000  +9.2486365722E-003 +3.2635804847E+001  +1.0519759954E-002 +3.9206454650E+001  +6.6372084588E-001 +3.4596187743E-001 
12148082.603 +6.7549368249E-001 +4.9394395300E+000  +1.1653313225E-002 +3.1679266990E+001  +7.1237048662E-003 +6.0758351644E+001  +6.8192124616E-001 +1.6507559088E+000 
12273227.785 +6.8635028671E-001 +4.2121497082E+000  +1.0471657030E-002 +3.5789012584E+001  +1.0361182206E-002 +5.1093212616E+001  +7.3125423032E-001 +3.9065956617E-001 
12398372.966 +7.1238518238E-001 +3.6507838194E+000  +9.4240681511E-003 +3.3295185154E+001  +9.4543224020E-003 +3.6049874397E+001  +7.0548543734E-001 -1.4435683286E-001 
12523518.148 +7.2322594821E-001 +3.1585031659E+000  +1.1982286065E-002 +3.3201257856E+001  +1.0567528748E-002 +4.2897670737E+001  +7.3663648276E-001 -1.1839359314E-001 
12648663.329 +7.5312488450E-001 +2.4705963330E+000  +9.6902100528E-003 +4.0319527673E+001  +1.0202848668E-002 +3.5567464294E+001  +7.4187399070E-001 -1.4917215969E+000 
12773808.511 +7.6180921679E-001 +2.8817638689E+000  +1.1020629694E-002 +3.2484156929E+001  +1.0635887111E-002 +4.4923921801E+001  +7.5984620309E-001 -4.8295401276E-001 
12898953.692 +7.8531811321E-001 +4.1500328256E-001  +1.1549115048E-002 +3.2624960582E+001  +1.0692675489E-002 +4.0804819747E+001  +7.7688911426E-001 -1.9303283438E+000 
13024098.874 +7.9399021389E-001 +3.9171901337E-001  +1.1902340960E-002 +4.1198799390E+001  +1.0168950235E-002 +4.1276478409E+001  +8.1230887306E-001 -7.6047902693E-001 
13149244.055 +8.1800632118E-001 +6.0850222570E-002  +1.1327034455E-002 +3.5270550098E+001  +9.7190500020E-003 +5.4667393185E+001  +7.9726426227E-001 -2.5907492656E+000 
13274389.237 +8.1909766728E-001 -5.4051258636E-001  +1.1011173036E-002 +3.8742727126E+001  +1.3388905390E-002 +4.0605531019E+001  +8.1217769759E-001 -2.7388191728E+000 
13399534.418 +8.3260541236E-001 -1.5943520848E+000  +1.0096956606E-002 +3.4965645665E+001  +1.0005964534E-002 +4.4552153791E+001  +8.3554290661E-001 -3.3818663557E+000 
13524679.599 +8.4823073052E-001 -1.4162363411E+000  +1.1003108699E-002 +3.3262815170E+001  +1.1342113170E-002 +3.9879274185E+001  +8.6637954147E-001 -2.6926726252E+000 
13649824.781 +8.8308044461E-001 -8.0281919520E-001  +1.2487789793E-002 +3.6441563905E+001  +1.1264348249E-002 +2.7798308983E+001  +8.7068752894E-001 -4.5428907000E+000 
13774969.962 +8.7831384455E-001 -1.3412098248E+000  +1.2374217107E-002 +4.2638572732E+001  +1.1181043953E-002 +4.3282722320E+001  +9.1209194817E-001 -4.7840028292E+000 
13900115.144 +9.0971861690E-001 -4.6092224011E+000  +1.0907702624E-002 +4.0968009832E+001  +1.1075979346E-002 +4.2875300592E+001  +9.1460906893E-001 -3.4287633002E+000 
14025260.325 +8.8565546515E-001 -3.6823042919E+000  +1.1941243895E-002 +3.4637799286E+001  +1.1106253364E-002 +3.1988043609E+001  +9.0556370357E-001 -2.3935211761E+000 
14150405.507 +9.1663983625E-001 -4.1556499562E+000  +1.2453578580E-002 +3.5531599531E+001  +1.1403199577E-002 +3.9052272765E+001  +9.2421028482E-001 -3.5151818817E+000 
14275550.688 +9.5167457848E-001 -4.4490224256E+000  +1.3539487578E-002 +4.0352536983E+001  +1.2275605741E-002 +3.8288699257E+001  +9.7631737352E-001 -4.5171644581E+000 
14400695.870 +9.5685849308E-001 -4.8075440336E+000  +1.1736365680E-002 +3.2362112183E+001  +1.1635507709E-002 +3.7395295009E+001  +9.8467825302E-001 -4.5616678770E+000 
