!  2-Port S-parameters saved by WinCal
! VAR MeasName=S-Parameters (CALIBRATED_DATA) read from VNA (P5004A)
! VAR MeasDate=28/08/2024 11:18:02
! VAR NAME=S2_r6c9_SET1_9k-100M_1
! VAR FILENAME=S2_r6c9_SET1_9k-100M_1.S2P
! VAR DATE=28/08/2024 11:18:02
! VAR PHYS_PORTS=1,2
! VAR ObjTypeName=DATASET
! VAR IndexType=Frequency
!
# Hz S MA R 50
9000.000 +8.8502718429E-002 -1.6334022012E+002  +9.8922623419E-003 +1.4462742252E+002  +5.1643830997E-003 -1.1737788578E+002  +2.8375195421E-001 -1.5110819411E+002 
134145.181 +1.1135353569E-001 +1.6938632070E+002  +2.0871639615E-004 +1.4812636710E+002  +2.5606787716E-004 +7.5087017118E+000  +2.4191852320E-001 -1.7164874984E+002 
259290.363 +1.1265501116E-001 +1.7023978113E+002  +9.4007279997E-005 -2.1371874095E+001  +4.0070227631E-004 -1.7799913349E+002  +2.4257721892E-001 -1.6989894446E+002 
384435.544 +1.1419546038E-001 +1.7039996130E+002  +5.1184935726E-004 -1.4647599423E+002  +5.2380202892E-004 -8.9001180264E+001  +2.3872893520E-001 -1.6813571482E+002 
509580.726 +1.1656467882E-001 +1.7115251753E+002  +1.3840207778E-003 +3.7554058011E+001  +9.2679265196E-004 -2.0560046347E+001  +2.4611909106E-001 -1.6432986276E+002 
634725.907 +1.1940953641E-001 +1.7155928604E+002  +5.7809916706E-004 +1.6126054287E+002  +1.0277839620E-003 +1.3123175482E+002  +2.6765483492E-001 -1.6548653422E+002 
759871.089 +1.2005674283E-001 +1.7093169664E+002  +4.4230867910E-004 -8.7527311307E+001  +6.1714661668E-004 -2.6891824817E+001  +2.5277023598E-001 -1.6688188327E+002 
885016.270 +1.1999303469E-001 +1.6908832119E+002  +1.5914558278E-004 +2.8473423606E+001  +4.2920331821E-004 -1.4155569198E+002  +2.4723009338E-001 -1.6720830398E+002 
1010161.452 +1.1779767310E-001 +1.7058081061E+002  +7.4248320119E-004 +1.0034203391E+002  +1.4728291229E-003 -5.9097309004E+001  +2.0157157106E-001 -1.6798531007E+002 
1135306.633 +1.1758756106E-001 +1.7033197041E+002  +8.0692620213E-004 -1.1862080293E+001  +5.4305983759E-004 +1.8479828568E+001  +2.0431197643E-001 -1.6029499476E+002 
1260451.815 +1.2182450214E-001 +1.7023693366E+002  +1.6554222538E-003 -1.0477514439E+002  +8.3210923426E-004 -6.2285947550E+001  +2.3571386973E-001 -1.4812054707E+002 
1385596.996 +1.2517175345E-001 +1.7316592423E+002  +3.1054719078E-004 +5.2530325152E+001  +7.8796592149E-004 -8.3312104284E+000  +2.6091556627E-001 -1.5688101698E+002 
1510742.178 +1.2796451968E-001 +1.7217589230E+002  +5.7782371778E-004 -1.0344425399E+002  +6.4014539609E-004 -2.2895978572E+001  +2.5672895166E-001 -1.6010976194E+002 
1635887.359 +1.3220494504E-001 +1.7079398232E+002  +8.8269210470E-004 -1.0830365503E+002  +1.0515618180E-003 -2.4635201379E+000  +2.4322578096E-001 -1.5766103563E+002 
1761032.541 +1.2925831458E-001 +1.7015279855E+002  +1.4417993912E-003 +1.5748898551E+002  +1.8801288954E-003 -1.2060196750E+002  +2.1078384509E-001 -1.5917372061E+002 
1886177.722 +1.3075557865E-001 +1.6854392115E+002  +2.0561269650E-003 -8.7022336092E+001  +7.4026080700E-004 +7.0523305987E+001  +2.1466328185E-001 -1.6145376024E+002 
2011322.904 +1.2877405167E-001 +1.6741919661E+002  +1.8347188439E-003 +1.7319262076E+002  +5.7916609455E-003 +4.7227777870E+001  +1.6943784199E-001 -1.5203955768E+002 
2136468.085 +1.3294419193E-001 +1.6372316707E+002  +6.7270597457E-004 -1.1384533466E+002  +2.8334435411E-003 -1.2203749526E+002  +2.1215354442E-001 -1.7663745143E+002 
2261613.267 +1.3262625214E-001 +1.6457815046E+002  +3.6565688548E-003 -1.7759105782E+002  +1.1214818820E-003 -4.2734603926E+001  +1.4318333900E-001 -1.6016448756E+002 
2386758.448 +1.3763973026E-001 +1.6728831607E+002  +1.3271700423E-003 -1.0613387180E+000  +3.4757218186E-003 +1.4901828429E+002  +1.5331292176E-001 +1.5869640446E+002 
2511903.630 +1.2111530326E-001 +1.6996795260E+002  +3.0247306892E-003 +1.5532117873E+002  +7.2377805595E-003 -5.1128137164E+001  +1.9042733789E-001 +1.5854821081E+002 
2637048.811 +1.2568562029E-001 +1.6665068325E+002  +2.0703021773E-003 -1.4965721405E+001  +1.9100204464E-002 -1.4395436107E+002  +1.7463042921E-001 +1.0040611057E+002 
2762193.992 +1.2492039759E-001 -1.7850150545E+002  +3.8529500358E-002 -1.0777942816E+002  +2.3937807071E-002 +2.2361767446E+001  +1.0905655347E+000 +1.3911825904E+002 
2887339.174 +1.3041331070E-001 +1.7914732785E+002  +5.9217044163E-003 +8.9617482030E+001  +1.2996484719E-003 -1.2488059935E+002  +2.4724485249E-001 -1.2343457262E+002 
3012484.355 +1.0289536442E-001 +1.6610287650E+002  +1.2704954022E-002 -3.1387727290E+001  +1.3547513197E-002 +6.2735982526E+001  +4.7220677426E-001 -9.3796078996E+001 
3137629.537 +1.2243125060E-001 +1.7373175793E+002  +9.3323670651E-003 +8.7745147867E+001  +5.2084890651E-003 +1.3961817010E+002  +2.4878317473E-001 -8.1004822362E+001 
3262774.718 +1.2879630424E-001 +1.7558107476E+002  +3.0753695900E-003 +2.1741041151E+001  +7.5513083243E-003 -1.1642977206E+002  +3.0823199749E-001 -1.0287202918E+002 
3387919.900 +1.1700856688E-001 +1.5862775875E+002  +8.4088092951E-003 +5.9690000266E+001  +8.2077371721E-004 -3.6690018123E+001  +2.2939647012E-001 -1.0698534809E+002 
3513065.081 +1.1032551459E-001 +1.5490787586E+002  +7.1269682343E-003 -8.6501426391E+001  +1.5919059681E-002 +1.4631622641E+002  +9.5490319406E-001 +1.6199587649E+002 
3638210.263 +1.7525933849E-001 +1.4279637533E+002  +1.3400475178E-002 +1.3142129397E+002  +1.2629420324E-002 +1.0361491154E+002  +8.3501054767E-001 +9.5409084357E+001 
3763355.444 +1.4116907711E-001 +1.4918885457E+002  +9.8981176650E-003 -9.7591123133E+000  +9.1454611865E-003 -3.6962320207E+001  +7.6166046192E-001 +1.4004929196E+002 
3888500.626 +1.5152417129E-001 +1.4653891640E+002  +1.2897281518E-002 +1.2147963512E+002  +1.4914925355E-002 +2.7064004085E+001  +1.9156511009E-001 +7.2252590737E+001 
4013645.807 +1.6389824803E-001 +1.4654348492E+002  +1.3746237563E-002 -6.2093369625E+001  +3.3152826211E-003 -8.2976812599E+000  +3.4048586803E-001 +1.4250501645E+002 
4138790.989 +1.9003086214E-001 +1.4548203299E+002  +1.2274527785E-002 +1.0647085263E+002  +5.2297229873E-002 +6.0253011017E+001  +2.2769436398E+000 +9.9795572595E+001 
4263936.170 +1.7838095277E-001 +1.4401908787E+002  +2.7626937726E-002 -1.1714809797E+002  +6.9309727905E-003 -4.7654863968E+001  +8.3000649389E-001 +5.3212584912E+001 
4389081.352 +1.8592861376E-001 +1.3767753023E+002  +1.1132704198E-002 +6.9381941020E+001  +9.4071295228E-003 -1.0202085548E+002  +9.2635587059E-001 +1.3610007751E+002 
4514226.533 +2.8598498214E-001 +1.1814364610E+002  +2.7758681079E-002 -9.7595525782E+001  +3.2880203065E-002 -9.8160817567E+001  +1.0028682483E+000 +5.4374634156E+001 
4639371.715 +2.3033829701E-001 +1.2465803374E+002  +9.3137463646E-003 +4.4647154720E+001  +2.0185833546E-002 +6.2587994398E+001  +1.1079559522E+000 +2.6961201281E+001 
4764516.896 +3.2099054299E-001 +1.1801862501E+002  +3.9599885281E-002 +7.6713189742E+001  +1.3318644508E-002 -6.4425718423E+001  +2.9846763615E+000 -1.0573751146E+002 
4889662.078 +4.0607204922E-001 +1.2745132608E+002  +2.7306668781E-002 -1.5560281291E+002  +1.4503026711E-002 +9.4320063989E+001  +2.7837676733E+000 -1.6307912002E+002 
5014807.259 +4.7164341808E-001 +1.3046128139E+002  +6.5877793418E-002 +2.3068524697E+001  +2.2836444967E-002 +1.3299093012E+002  +1.3735634595E+000 -1.6421832303E+001 
5139952.441 +4.2715575995E-001 +1.3864322877E+002  +3.2520879507E-002 +9.5452549911E+001  +2.8173991396E-002 +1.3956018914E+002  +2.4099551805E+000 +1.0345796514E+002 
5265097.622 +3.8776426943E-001 +1.2319600321E+002  +3.5812520497E-002 -1.5741583696E+002  +3.8106338834E-002 +6.2395897729E+001  +3.4157189475E+000 +9.7481867333E+001 
5390242.804 +4.2273995339E-001 +1.2760335202E+002  +4.8608658284E-002 +1.6934414743E+002  +5.4813537039E-003 -1.7765298664E+002  +2.5744126388E+000 +6.6113930704E+001 
5515387.985 +4.1144275445E-001 +1.2897043141E+002  +2.9649180109E-002 +1.3759202338E+002  +1.8360944073E-002 -9.0441605210E+001  +2.6442153389E+000 +6.8282616603E+001 
5640533.166 +4.9022174863E-001 +1.0880603040E+002  +2.1051116168E-002 +1.3059325155E+002  +2.3264498010E-002 +9.1524723127E+001  +1.5849578005E+000 +8.9349955589E+001 
5765678.348 +4.3214386069E-001 +1.2513736225E+002  +6.2865563356E-003 -1.6967166262E+002  +2.7079702023E-002 -1.1577977536E+002  +2.2597670628E+000 +8.2637546229E+001 
5890823.529 +4.8273919509E-001 +1.1784458216E+002  +1.8038947060E-002 +1.6317055047E+002  +1.8102025362E-002 +1.2708777357E+002  +2.9344365318E+000 +5.7064628303E+001 
6015968.711 +5.8037227388E-001 +1.0602938986E+002  +1.8622827168E-002 -1.2515680016E+002  +5.6276484047E-002 +1.0367976730E+002  +2.8684278054E+000 +3.5484786005E+001 
6141113.892 +7.3381293412E-001 +1.1563690974E+002  +2.9382058635E-002 -1.1612433355E+002  +2.9641476826E-003 +1.7436795586E+002  +2.4940593353E+000 +2.5561609067E+001 
6266259.074 +9.8768741352E-001 +9.6178344640E+001  +4.1509906092E-002 +1.1548752341E+002  +4.2369723731E-002 +4.2299917416E+001  +2.5207589603E+000 +3.7184508151E+001 
6391404.255 +9.4323679766E-001 +9.5055895307E+001  +1.6323826253E-002 -1.0106147140E+002  +2.7984701952E-002 +8.2333473094E+001  +2.0628871558E+000 +1.6506450599E+001 
6516549.437 +1.1034621175E+000 +8.3964338418E+001  +1.0408551253E-002 +9.4313965898E+001  +2.1591730454E-002 +8.5685379204E+001  +1.2394482293E+000 +1.7744265129E+001 
6641694.618 +1.8512303362E+000 +6.2007977627E+001  +4.0518589765E-002 +4.1259414553E+001  +9.9665275154E-003 +3.8096428232E+001  +1.4636397705E+000 -1.5527255568E+000 
6766839.800 +1.4140698536E+000 +6.2773487486E+001  +1.1095332091E-002 +1.3880782282E+002  +2.3113577643E-002 +1.2962044886E+002  +1.3750978923E+000 -4.0075490331E+000 
6891984.981 +2.4083326668E+000 +2.4635088980E+001  +8.0131210360E-003 -2.6607915598E+000  +1.1408366947E-002 +1.3459533852E+002  +1.5008554512E+000 -1.3877457166E+001 
7017130.163 +1.6139400643E+000 +1.2200457883E+001  +1.4848842994E-002 +9.4766667200E+001  +4.7915765944E-003 -1.5591571844E+002  +1.1868395267E+000 -1.2902905508E+001 
7142275.344 +1.4732385122E+000 +5.9964795356E+000  +1.2644242725E-002 +8.2328611699E+001  +4.8602808711E-003 +6.1289698886E+001  +1.3460213048E+000 -1.2779951658E+001 
7267420.526 +1.4803798274E+000 -7.9359873580E+000  +4.0074988700E-003 -5.9330833706E+001  +1.3389471913E-002 +3.8928601278E+001  +1.2784664915E+000 -9.9428954350E+000 
7392565.707 +1.2711298171E+000 +4.1298626001E+000  +6.6774908119E-003 +1.0388086749E+002  +4.8175666007E-003 +1.0271610121E+002  +1.2560506233E+000 -6.0981044074E+000 
7517710.889 +1.1033767254E+000 -4.5341992591E-001  +1.1033962103E-002 +5.3325923327E+001  +3.4405862737E-003 +3.2645498884E+001  +1.2118376673E+000 -8.3103864760E+000 
7642856.070 +1.0198336341E+000 -1.3985825555E+000  +7.2534938978E-003 -1.5826553944E+002  +9.0877851279E-003 +3.9165905652E+001  +1.1016430820E+000 -2.1566759528E+000 
7768001.252 +8.9729299572E-001 +5.4598029917E+000  +7.8273781108E-003 +1.2965386324E+002  +5.4968286516E-003 +3.3056335540E+000  +1.0196652026E+000 +9.0525677106E-002 
7893146.433 +9.0457016270E-001 +8.3346234451E+000  +7.1424637501E-003 +6.8044891556E+001  +7.6175235349E-003 +7.8704308984E+001  +9.3011728130E-001 -3.3738001140E+000 
8018291.615 +8.6137190240E-001 +4.3367854587E+000  +4.3784998728E-003 +7.8934573397E+001  +5.0710842922E-003 +1.7760098611E+002  +8.8510753456E-001 +1.5014275507E+000 
8143436.796 +7.4128057063E-001 +5.8876250612E+000  +8.8377998063E-004 +6.0139320704E+001  +5.3011185145E-003 +1.5570328481E+002  +7.8008862583E-001 +1.9085577434E+000 
8268581.977 +8.0039159997E-001 +5.8606589739E+000  +4.2963837565E-003 +7.8713550761E+001  +6.1697385550E-003 +1.1790544766E+002  +7.6413167658E-001 -5.0633502025E+000 
8393727.159 +6.5624516781E-001 +1.1755653247E+001  +2.1773610123E-003 -7.9504023298E+001  +5.0465752575E-003 +1.0885899445E+002  +7.5185641621E-001 +4.9117291448E-001 
8518872.340 +6.5785660248E-001 +6.0441608979E+000  +4.6044018683E-003 +7.1165487384E+001  +3.6451047839E-003 +5.8332363326E+001  +7.4563404320E-001 -3.9904632023E-001 
8644017.522 +7.3262837505E-001 +8.4423259518E+000  +6.7534303270E-004 +5.0215318367E+001  +6.2639995609E-003 +1.2554022577E+002  +7.4369526218E-001 -1.9824648708E+000 
8769162.703 +6.3419857750E-001 +5.6357355453E+000  +7.5398569208E-003 +5.6621235769E+001  +2.9151009470E-003 +1.1244419604E+002  +6.9245330060E-001 +3.2530368676E+000 
8894307.885 +5.8156754618E-001 +9.4945832908E+000  +4.3553551890E-003 +9.0221750111E+001  +5.7925972561E-003 +1.3828200424E+002  +6.2207801220E-001 +1.7185073124E+000 
9019453.066 +5.2453815942E-001 +5.8374242718E+000  +6.5018200002E-003 +6.0304681449E+001  +2.7182054212E-003 +1.5921859629E+002  +5.9077812305E-001 +2.5943697927E+000 
9144598.248 +5.9432173652E-001 +3.7554725139E+000  +3.4455548671E-003 +3.6531129730E+001  +7.7081210728E-003 +1.1880208012E+002  +6.6605788669E-001 -1.9425794039E+000 
9269743.429 +5.5930204656E-001 -7.4453846313E-001  +1.1651261330E-003 +4.3635748283E+001  +2.0054727217E-003 -8.7802960320E+001  +5.6985243880E-001 -7.6734754335E+000 
9394888.611 +5.5088069931E-001 +6.5774139119E+000  +3.4931066305E-003 +5.3543304613E+001  +6.1136099265E-003 +1.0776989608E+002  +5.6304544005E-001 -4.0273111312E+000 
9520033.792 +5.8181202638E-001 +1.2405847350E+000  +3.2231957066E-003 +8.4486141805E+001  +6.5347748788E-003 +1.0144963816E+002  +6.0721121757E-001 -9.1349494673E-001 
9645178.974 +5.1409350558E-001 +5.9810201884E+000  +4.4849297068E-003 +4.9205795399E+001  +6.7177395678E-003 +1.3001295406E+002  +6.3551773308E-001 -8.4611207897E+000 
9770324.155 +5.7997380696E-001 +1.7393064579E-001  +5.2267508911E-003 +6.6217910356E+001  +3.2032452140E-003 +1.2929776906E+002  +5.7197984321E-001 -5.7427322981E+000 
9895469.337 +5.5969787335E-001 +3.1046449238E+000  +5.1069865342E-003 +6.2669257679E+001  +4.5335252129E-003 +8.7228308901E+001  +5.7653338927E-001 -1.5098419705E+000 
10020614.518 +5.5151818522E-001 -6.3715898570E-002  +2.3485998451E-003 +9.6443144428E+001  +2.9664855913E-003 +1.4630125607E+002  +6.3251378361E-001 -4.0836118277E+000 
10145759.700 +5.4141096731E-001 +5.7221007194E+000  +1.1631859693E-003 +8.7714040231E+001  +5.8467064621E-003 +9.3857568702E+001  +6.0274564322E-001 -4.8056343574E+000 
10270904.881 +5.7148896989E-001 +5.3287318043E+000  +3.9156104640E-003 +5.2258360548E+001  +4.7174691863E-003 +1.1078617452E+002  +5.5681526209E-001 +6.3621953814E-001 
10396050.063 +5.1747936299E-001 +8.6291446195E+000  +6.3554611429E-003 +8.8210415629E+001  +7.5568805782E-003 +9.9241273858E+001  +5.7499898862E-001 -1.4153616289E+000 
10521195.244 +5.6490514833E-001 +3.9527396154E+000  +2.0368909182E-003 +9.1896670502E+001  +5.7201731634E-003 +1.0310081651E+002  +5.8506507191E-001 -2.2151606813E+000 
10646340.426 +5.7301791631E-001 +5.3179785812E+000  +5.6475845181E-003 +8.5879897894E+001  +7.3917417357E-003 +9.3176425203E+001  +5.9742396206E-001 +2.9843982503E+000 
10771485.607 +5.7940334892E-001 +9.4163749528E+000  +6.0004080116E-003 +9.4795207203E+001  +4.7951577017E-003 +6.0603944073E+001  +6.3149831204E-001 +1.2204767687E+000 
10896630.788 +5.7713040540E-001 +4.7968227390E+000  +6.4691576055E-003 +6.9303615301E+001  +4.5868264916E-003 +5.1257343462E+001  +5.9086578121E-001 +3.2832023426E+000 
11021775.970 +5.7598820338E-001 +4.7949185038E+000  +7.5314630494E-003 +7.6671372054E+001  +5.0686925847E-003 +1.0289117172E+002  +6.1301431726E-001 +2.2024581336E+000 
11146921.151 +6.0219999452E-001 +6.4494226136E+000  +4.8611076926E-003 +7.1981875437E+001  +4.2684410899E-003 +1.1131438773E+002  +6.5061153996E-001 +5.3925309820E+000 
11272066.333 +6.0150033881E-001 +5.7546396441E+000  +3.5256241386E-003 +8.8085980157E+001  +4.2074371487E-003 +9.5671553243E+001  +6.3032544847E-001 +3.8904454045E+000 
11397211.514 +6.1647241832E-001 +7.3208382897E+000  +3.5402149476E-003 +4.7002969361E+001  +4.2588425806E-003 +9.2620475025E+001  +6.4978884576E-001 -5.0760204920E-001 
11522356.696 +6.4666420113E-001 +4.8827370486E+000  +5.7459119769E-003 +7.1227917942E+001  +6.3516297710E-003 +1.0088540759E+002  +6.4248304552E-001 +1.9243200091E+000 
11647501.877 +6.4472351252E-001 +6.1034417352E+000  +3.8642139924E-003 +8.9934871659E+001  +5.3747732959E-003 +1.0191110137E+002  +6.4281889536E-001 +3.0209785340E+000 
11772647.059 +6.6943977537E-001 +4.1763694563E+000  +4.1713719554E-003 +6.2407227167E+001  +4.0730912452E-003 +1.0587027715E+002  +6.5952965402E-001 -8.0143952531E-001 
11897792.240 +6.5913061341E-001 +4.2571381306E+000  +4.2890435175E-003 +8.4912298978E+001  +3.4024756647E-003 +9.7554084700E+001  +6.6779846067E-001 +2.2488659478E+000 
12022937.422 +6.6377856669E-001 +6.0659517156E+000  +3.5254643808E-003 +6.3911623916E+001  +4.9716076216E-003 +7.2078076915E+001  +6.8166244699E-001 +1.1179961344E+000 
12148082.603 +6.6737674197E-001 +2.5599283768E+000  +4.9626518437E-003 +7.9730561250E+001  +5.2758635595E-003 +1.0623168909E+002  +7.1706304059E-001 +1.6052919478E+000 
12273227.785 +7.0035056535E-001 +2.3945234848E+000  +6.4941125772E-003 +7.8014295200E+001  +5.0786538191E-003 +8.2333562295E+001  +7.0154286911E-001 -4.4138627868E-001 
12398372.966 +7.1479610039E-001 +4.6844142518E+000  +6.0924825999E-003 +7.8402626838E+001  +5.9416957881E-003 +8.1236786594E+001  +6.9914922460E-001 -2.0565125203E-001 
12523518.148 +7.6326717926E-001 +2.5879353262E+000  +5.2764724429E-003 +9.4317676517E+001  +6.2664864302E-003 +8.1618585298E+001  +7.5410078606E-001 +1.9566503393E-001 
12648663.329 +7.3588530570E-001 +3.5221838845E+000  +6.8532203609E-003 +9.7251297929E+001  +4.2110966600E-003 +9.5119387775E+001  +7.4417246198E-001 -1.1473353059E+000 
12773808.511 +7.4906980636E-001 +3.0393680223E+000  +5.0455854074E-003 +8.0737647969E+001  +6.5878788100E-003 +7.1878123516E+001  +7.6687753593E-001 -2.3685647295E+000 
12898953.692 +7.7560048489E-001 +9.8218329529E-001  +6.0401406550E-003 +8.9005144445E+001  +6.1227699671E-003 +8.5075150275E+001  +7.7574534016E-001 -1.3093257884E+000 
13024098.874 +7.9772353507E-001 +1.1712024738E+000  +6.9722809628E-003 +8.1991027180E+001  +5.6619134550E-003 +9.2035958852E+001  +7.8747799313E-001 -2.5117822736E+000 
13149244.055 +7.9788506996E-001 -2.1145331997E-001  +5.5387475755E-003 +8.8380893086E+001  +7.2636114495E-003 +9.2860064305E+001  +8.4466615843E-001 -2.5804413738E+000 
13274389.237 +8.0741443681E-001 +1.7391996413E-001  +6.5616425752E-003 +8.3847041972E+001  +6.1031493286E-003 +7.8795594539E+001  +8.2821731188E-001 -1.6828047262E+000 
13399534.418 +8.6478812749E-001 -1.9960218663E+000  +4.4058804933E-003 +8.5463142261E+001  +6.9567657109E-003 +8.4275874627E+001  +8.3363233587E-001 -1.6973678856E+000 
13524679.599 +8.2136538627E-001 -1.4264615954E+000  +6.0309086456E-003 +8.3152376943E+001  +7.9490288161E-003 +8.9818763766E+001  +8.6033702139E-001 -2.8161043927E+000 
13649824.781 +8.8927878605E-001 -3.4204122617E+000  +7.3201046575E-003 +9.7106885534E+001  +6.4251534481E-003 +8.4366480548E+001  +8.6774125164E-001 -2.2498498972E+000 
13774969.962 +8.9660968247E-001 -3.7443419836E+000  +7.0408085169E-003 +8.2127451186E+001  +8.3247440864E-003 +8.5362547432E+001  +9.1110357372E-001 -3.4997784050E+000 
13900115.144 +8.9777232352E-001 -4.4406389207E+000  +7.3887826245E-003 +8.2689559907E+001  +8.7858242899E-003 +9.4598476160E+001  +9.3432981705E-001 -5.2850555640E+000 
14025260.325 +8.9941748929E-001 -3.1354829565E+000  +5.9900885019E-003 +8.1607396895E+001  +6.6981240012E-003 +8.7805457252E+001  +9.3850777332E-001 -4.4878026134E+000 
14150405.507 +9.3414862800E-001 -4.6473273287E+000  +8.3532975116E-003 +7.2988646324E+001  +7.4839622440E-003 +8.6200622494E+001  +9.4383914681E-001 -3.9509932534E+000 
14275550.688 +9.5530608862E-001 -5.9640149737E+000  +5.5833562136E-003 +7.2043121660E+001  +7.1010281819E-003 +9.0467632196E+001  +9.9875483517E-001 -4.4719089211E+000 
14400695.870 +1.0114905147E+000 -6.5743561911E+000  +7.0306186595E-003 +9.4511066695E+001  +8.5872694344E-003 +8.0238600977E+001  +9.9359752366E-001 -5.3370378483E+000 
