!  2-Port S-parameters saved by WinCal
! VAR MeasName=S-Parameters (CALIBRATED_DATA) read from VNA (P5004A)
! VAR MeasDate=28/08/2024 12:16:53
! VAR NAME=S2_r7c9_SET1_9k-100M_1
! VAR FILENAME=S2_r7c9_SET1_9k-100M_1.S2P
! VAR DATE=28/08/2024 12:16:53
! VAR PHYS_PORTS=1,2
! VAR ObjTypeName=DATASET
! VAR IndexType=Frequency
!
# Hz S MA R 50
9000.000 +9.5633047786E-002 -1.6775132887E+002  +1.0348359591E-002 -1.3609871320E+002  +7.5629339213E-003 -1.2926226711E+002  +2.8358193635E-001 -1.4006997618E+002 
134145.181 +1.1118421731E-001 +1.6958920404E+002  +2.1170730360E-004 +1.5378211873E+002  +4.9520177565E-004 +1.5304996776E+002  +2.3822360014E-001 -1.7115370558E+002 
259290.363 +1.1222960013E-001 +1.7000769015E+002  +3.8539341861E-004 -5.6490994745E+000  +1.7259259726E-003 -5.1393080897E+001  +2.3982434983E-001 -1.6805875697E+002 
384435.544 +1.1365693531E-001 +1.7096726134E+002  +5.5276381178E-004 +2.2375132196E+001  +1.0567215667E-003 -1.6239370313E+001  +2.3666737702E-001 -1.6624138411E+002 
509580.726 +1.1362693825E-001 +1.7195707843E+002  +1.3995299882E-003 -1.5482562118E+002  +9.4669125727E-004 -1.2913351171E+002  +2.4522738810E-001 -1.6584264554E+002 
634725.907 +1.1872774709E-001 +1.7089407213E+002  +4.4996685168E-004 -1.3802125332E+001  +9.7503231139E-004 -1.4487877726E+002  +2.4453253531E-001 -1.6620271530E+002 
759871.089 +1.1922350053E-001 +1.7090031091E+002  +4.9292124502E-004 +8.3547514422E+001  +3.7447724443E-004 +6.4390045092E+001  +2.4668319497E-001 -1.6569162431E+002 
885016.270 +1.2057832966E-001 +1.6956915151E+002  +8.0013851249E-004 +1.2591054826E+002  +3.9690664405E-004 -1.0175923503E+002  +2.4540921476E-001 -1.6585241256E+002 
1010161.452 +1.1447292779E-001 +1.6955655328E+002  +3.1667135790E-004 +1.1925101917E+002  +1.9584824993E-003 -1.5479560452E+002  +2.1523076256E-001 -1.7043416369E+002 
1135306.633 +1.1682754153E-001 +1.6870463130E+002  +1.8239585216E-003 +7.1543940621E+001  +1.4335848591E-003 +1.6304326816E+002  +1.5959784099E-001 -1.6359994343E+002 
1260451.815 +1.1923173350E-001 +1.7028910901E+002  +9.0432658667E-004 -1.7722987730E+002  +1.5638534533E-003 +1.4768008764E+002  +2.3529803077E-001 -1.5700876055E+002 
1385596.996 +1.2673861955E-001 +1.7204850447E+002  +1.0344179601E-003 -4.5330017299E+001  +9.2861138467E-004 +8.5536721899E+001  +2.6877110472E-001 -1.5830151961E+002 
1510742.178 +1.2480942202E-001 +1.7305180598E+002  +9.4267514858E-004 +1.2330499426E+002  +1.2930421457E-003 +1.5010615756E+002  +2.6377494762E-001 -1.5958604229E+002 
1635887.359 +1.2408896374E-001 +1.7098442499E+002  +2.5485335827E-003 +1.7763886478E+001  +1.3285075946E-003 -9.6143977799E+001  +2.5886569057E-001 -1.5631862811E+002 
1761032.541 +1.2729746810E-001 +1.7093725384E+002  +5.1019279853E-004 +1.4072031861E+002  +1.1122007764E-003 +1.7402249940E+002  +2.2485204147E-001 -1.6095451988E+002 
1886177.722 +1.2832746995E-001 +1.6793006359E+002  +6.2579520478E-004 -2.2525812517E+001  +1.5062379574E-003 -9.3728150908E+001  +1.9957149873E-001 -1.5826003782E+002 
2011322.904 +1.2799859806E-001 +1.6736679551E+002  +4.2714854890E-004 +1.3882813477E+002  +3.3911118329E-003 -2.7075907929E+001  +1.5179904748E-001 -1.6598198513E+002 
2136468.085 +1.2973513713E-001 +1.6803196550E+002  +2.0797757317E-003 -7.1164472557E+001  +2.8698835716E-003 -1.7142547746E+002  +1.8540913682E-001 -1.6311615831E+002 
2261613.267 +1.3115221464E-001 +1.6762510344E+002  +1.4800438809E-003 +1.3799223514E+002  +3.5339758103E-003 +4.8945447009E+001  +1.5830614125E-001 -1.4951806136E+002 
2386758.448 +1.3085255548E-001 +1.6257079947E+002  +3.5202169627E-003 -6.0576722655E+001  +7.1400866772E-003 +5.8368230489E+001  +1.8417610193E-001 +1.7329415246E+002 
2511903.630 +1.1369981790E-001 +1.6931883736E+002  +4.3467959147E-003 +1.3281168600E+001  +7.9968546413E-003 +1.7235557796E+002  +2.4616532501E-001 +1.5493754921E+002 
2637048.811 +1.3274066650E-001 +1.6082219375E+002  +1.0670378694E-002 +1.7774710134E+002  +4.3364367827E-003 +6.8811531299E+001  +3.6766661203E-001 +8.8395286117E+001 
2762193.992 +1.3215916218E-001 +1.6982720395E+002  +1.3508451693E-002 -1.6938629105E+002  +9.5227790675E-003 -1.2808744289E+002  +3.9344015719E-001 +4.1385507661E+001 
2887339.174 +9.0366763064E-002 +1.7700962862E+002  +1.0773124302E-002 -1.5789035046E+002  +1.0804499888E-002 -6.0361964012E+001  +1.7016036732E-001 -1.0277453638E+002 
3012484.355 +1.1472907115E-001 +1.7415854315E+002  +6.7246965406E-003 +2.1666054465E+001  +4.1840306294E-003 -4.1845922685E+001  +3.1630675214E-001 -9.4033022765E+001 
3137629.537 +1.4004715925E-001 +1.7560729014E+002  +2.7160837612E-002 +8.4429906191E+001  +8.1055894471E-003 +1.6763579749E+002  +5.0398897864E-001 -6.7736773390E+001 
3262774.718 +1.2060319089E-001 +1.7038625802E+002  +6.2972545530E-003 +1.5998608903E+002  +1.2217611098E-002 +2.1343978056E-001  +4.3589145243E-001 -7.9837905347E+001 
3387919.900 +1.2465901687E-001 +1.6132884473E+002  +3.1694580788E-002 +5.2646667666E+001  +1.2656329419E-002 +1.7444919487E+002  +7.4009855361E-001 -4.7070685235E+001 
3513065.081 +1.4120759520E-001 +1.6015663899E+002  +5.2807261625E-002 -6.8437097354E+001  +1.8080749316E-002 -7.9486298792E+001  +3.0559782633E+000 +1.3297110521E+002 
3638210.263 +1.9791743734E-001 +1.4258482197E+002  +5.1786230364E-003 -3.0386697314E+001  +3.2888779564E-003 +2.2567592903E+001  +6.3852010329E-001 +1.4076986816E+002 
3763355.444 +1.3017298136E-001 +1.2357333933E+002  +4.8780638499E-002 -1.6698729784E+001  +9.3860050175E-003 -1.7052056339E+001  +4.5395047497E-001 +6.2563889016E+001 
3888500.626 +1.7123936542E-001 +1.3727387125E+002  +1.1623685384E-002 +2.0382119072E+001  +7.7726328023E-003 +1.5957173844E+002  +4.1710780354E-001 +1.1502693011E+002 
4013645.807 +1.7850955465E-001 +1.4741711620E+002  +8.0716569028E-003 -5.3366558770E+001  +9.3190121561E-003 -1.0812762540E+002  +3.0035614312E-001 +1.2043066845E+002 
4138790.989 +1.5828541811E-001 +1.5701079812E+002  +1.4275463595E-002 -6.6859911060E+001  +1.1698858950E-002 +1.5300659453E+002  +5.9445476164E-001 +9.2066306467E+001 
4263936.170 +2.0202772579E-001 +1.3858311791E+002  +1.1232949427E-002 +1.4521835959E+002  +1.6235225103E-002 -1.0865613115E+002  +1.0246863369E+000 +9.8090980040E+001 
4389081.352 +2.2831875092E-001 +1.3386319190E+002  +1.3946340981E-002 -9.5848089921E+001  +1.6845451186E-002 +1.3429857019E+002  +8.2394334356E-001 +7.9411166781E+001 
4514226.533 +1.9787605666E-001 +1.3451978770E+002  +1.1463301694E-002 +1.0953616905E+002  +5.1329884494E-003 -7.6724011110E+001  +1.1767508075E+000 +1.0293682487E+002 
4639371.715 +2.5128003838E-001 +1.3240677926E+002  +1.6702840306E-002 +3.4588018403E+001  +1.3164177627E-002 +1.3774470703E+002  +1.3979065609E+000 +1.5079255807E+002 
4764516.896 +3.3979877963E-001 +1.1787974167E+002  +2.3331837418E-002 +1.7323503216E+002  +3.7671680731E-002 +6.0486105691E+001  +9.5779512147E-001 +2.6192734290E+001 
4889662.078 +4.9220481006E-001 +1.2749528881E+002  +1.9807059445E-002 -5.4338100988E+001  +5.2177429889E-003 -1.0463435346E+002  +1.5561316144E+000 -1.1080043200E+002 
5014807.259 +4.8665483119E-001 +1.3091412761E+002  +4.0731668478E-002 -1.7571156499E+002  +9.7388096157E-002 +7.9026793446E+001  +5.3786185456E+000 -7.6988520685E+001 
5139952.441 +3.3341996280E-001 +1.2819375447E+002  +5.4414199192E-003 -1.0731232803E+002  +7.3761655077E-002 -1.1426725899E+002  +4.9063927129E+000 -1.7223216585E+002 
5265097.622 +3.9897906698E-001 +1.3057431716E+002  +1.8331136101E-002 -1.5149404672E+002  +3.2330602814E-002 -1.4292389024E+002  +3.2704364369E+000 +6.9872791852E+001 
5390242.804 +4.4610403550E-001 +1.2525599889E+002  +3.3973219297E-002 -1.7569764517E+002  +6.0689134895E-002 +9.8519554526E+001  +3.6211384134E+000 +1.1116948387E+002 
5515387.985 +5.3909349128E-001 +1.2462188726E+002  +1.3263213235E-002 -2.1730564077E+001  +2.6093611691E-002 +1.0029899797E+002  +2.5110956227E+000 +7.7568476657E+001 
5640533.166 +4.2967913160E-001 +1.3296447727E+002  +1.2307641756E-002 +6.6435578948E+001  +6.7376195368E-003 +1.0550016945E+002  +1.6100122396E+000 +7.1608077045E+001 
5765678.348 +5.3866996760E-001 +1.2658010057E+002  +3.4462774581E-002 +1.4576065864E+002  +3.6674064995E-002 -1.6895434172E+002  +2.7432324701E+000 +9.5654118075E+001 
5890823.529 +6.0311842067E-001 +1.2460699639E+002  +1.7712811598E-002 +8.9347676208E+001  +3.6870336151E-002 +7.0933623838E+001  +2.0367944161E+000 +2.2376045622E+001 
6015968.711 +6.8183020134E-001 +1.1404502698E+002  +5.4749036640E-002 -1.7883582778E+002  +3.7398763686E-002 +5.5990177631E+001  +4.2054688114E+000 +3.5914607277E+001 
6141113.892 +7.0087980350E-001 +1.0947668889E+002  +7.9170855244E-002 +1.0672150043E+002  +2.5482532410E-002 -1.5773597202E+002  +3.8719065437E+000 +2.5255054215E+001 
6266259.074 +9.6107441040E-001 +1.1231150645E+002  +2.5381123101E-002 +1.7465224531E+002  +8.3604628867E-003 +7.0155042941E+001  +1.4585103752E+000 +3.1775909680E+001 
6391404.255 +9.1690588598E-001 +9.1454150574E+001  +2.5748830068E-002 +1.1732273703E+002  +2.8398866062E-002 +2.4961081625E+001  +1.4271080205E+000 +1.0179121517E+001 
6516549.437 +1.2185673290E+000 +8.9737055527E+001  +3.6392677059E-002 +7.7198284812E+001  +3.6872382932E-002 +1.3730535616E+002  +1.3688485232E+000 +7.8234433982E+000 
6641694.618 +1.5987311638E+000 +7.5221854664E+001  +1.6889087721E-002 +1.2180046716E+002  +1.6817352368E-002 +7.8363907289E+001  +1.2512115045E+000 -7.7031444829E+000 
6766839.800 +1.4880643361E+000 +5.4462995579E+001  +1.0417890364E-002 +1.2502270111E+002  +1.6974108198E-002 +9.6058928878E+001  +1.2715947357E+000 -1.9357571156E+001 
6891984.981 +1.9927772744E+000 +4.4660848246E+001  +1.1305846291E-002 +4.7637706223E+001  +3.0037752545E-002 +6.4698571488E+000  +1.4240410858E+000 -1.1848993110E+001 
7017130.163 +1.6856523027E+000 +1.3673080874E+001  +1.1403076688E-002 -1.7359374748E+002  +1.1373315723E-002 -1.5785502370E+002  +1.3058879501E+000 -1.0565283490E+001 
7142275.344 +2.2581175903E+000 +1.4874091697E+001  +1.6223589594E-002 +1.0547631607E+002  +1.3373407662E-002 -9.2034871443E+001  +1.3319518264E+000 -5.2808601317E+000 
7267420.526 +1.6096272999E+000 -9.9652561416E+000  +1.5942708410E-002 +9.6304704992E+001  +1.1911198386E-002 +3.1995951393E+001  +1.2590281202E+000 -8.9895158142E+000 
7392565.707 +1.3735092740E+000 -3.8500764723E+000  +1.6716980211E-002 +7.7880157156E+001  +4.5221546783E-003 +1.5627376417E+002  +1.3060589933E+000 -8.4770968366E+000 
7517710.889 +1.3135322732E+000 +6.3094166635E+000  +5.6085592932E-003 -1.6884722605E+002  +9.7982741751E-003 +8.9412124532E+001  +1.2999544607E+000 -6.2602182839E+000 
7642856.070 +1.0933262612E+000 +4.3393068371E+000  +3.3993202383E-003 +9.1603081209E+001  +1.1135784049E-002 +3.8602225381E+001  +1.0652108076E+000 -1.7276512909E+000 
7768001.252 +9.5175637624E-001 +5.2019044372E+000  +1.7733667397E-003 +7.2931144913E+000  +6.9643383789E-003 -1.6421474441E+002  +9.4083272675E-001 -8.0685813367E+000 
7893146.433 +9.0341478708E-001 -9.5219483884E-001  +3.7178334301E-003 +1.9407300406E+001  +7.7607533782E-003 +9.5156270390E+001  +8.9799830586E-001 +1.3041371310E+000 
8018291.615 +8.1824637762E-001 +1.2130680051E+001  +7.5418422746E-003 +1.9209029631E+001  +2.5550685418E-003 +9.6242056103E+001  +8.0284902119E-001 +1.0614722186E+000 
8143436.796 +8.2626377144E-001 +6.8196868402E+000  +3.8714207251E-003 +1.4015685921E+002  +5.7284908479E-003 +9.8872792752E+001  +8.5722990016E-001 -1.8763304380E+000 
8268581.977 +7.0979818165E-001 +7.4756720399E+000  +4.5926579803E-003 +7.6818873053E+001  +2.7572611892E-003 -4.0669902003E+001  +8.0887773060E-001 +4.2378733501E+000 
8393727.159 +6.4666865056E-001 +4.2181026755E+000  +3.8185886748E-003 +5.0537638465E+001  +9.8343738510E-003 +7.2443123993E+001  +7.6797055701E-001 -2.3159205708E+000 
8518872.340 +7.3304702202E-001 +8.3958256792E+000  +8.3868446569E-003 +4.4568769059E+001  +4.7169319976E-003 +5.9055729814E+001  +8.2960283614E-001 +1.7234174250E+000 
8644017.522 +6.9696098562E-001 +7.4510088810E+000  +6.6651673545E-003 +4.4757978229E+001  +3.7342075801E-003 +2.4996607277E+001  +6.5013869842E-001 +2.2019998274E+000 
8769162.703 +5.7631994522E-001 +1.0058820097E+001  +2.9324106461E-003 +4.4181099104E+001  +9.0518463268E-004 +7.4517292079E+001  +7.2228574470E-001 +1.4977289064E+000 
8894307.885 +5.8307811356E-001 +4.8027364387E+000  +6.3765725970E-003 +5.5323691143E+001  +8.3384355317E-003 +9.7969263158E+001  +6.2302867552E-001 +1.5184785169E+000 
9019453.066 +5.8607539070E-001 +2.9687773097E+000  +6.5262575868E-003 +6.8064030445E+001  +5.9027496359E-003 +1.0106616538E+002  +6.0792671629E-001 +2.2042516492E+000 
9144598.248 +5.8858274660E-001 +7.0265052674E+000  +4.2999257163E-003 +7.7111357876E+001  +2.4022609154E-003 +4.9001741451E+001  +6.2279725026E-001 -4.4966311979E+000 
9269743.429 +5.9755013374E-001 +9.7023974208E+000  +2.7487020739E-003 +1.4457214482E+002  +3.8526531737E-003 +5.6178972777E+001  +6.3134155789E-001 -1.1591807069E+000 
9394888.611 +5.1542398833E-001 -3.5050407515E+000  +3.0953186207E-003 +4.8527388507E+001  +8.0672992202E-003 +8.2659371010E+001  +5.7077210031E-001 -6.4972571779E+000 
9520033.792 +5.8583022129E-001 +3.5951378860E+000  +4.4219447100E-003 +5.8869380797E+001  +3.9619501093E-003 +3.0320768164E+001  +5.2156707557E-001 +1.4619520798E-001 
9645178.974 +5.4121676730E-001 -1.6501545189E+000  +5.1116326287E-003 +1.0299695786E+002  +6.3507051172E-003 +1.1257095324E+002  +5.7034158322E-001 -4.3595000588E+000 
9770324.155 +5.4802787381E-001 -1.3888708721E-001  +5.1916422888E-003 +4.9871880978E+001  +5.4637671200E-003 +9.3427213423E+001  +6.3082072084E-001 -3.7104392993E+000 
9895469.337 +5.2677915560E-001 +4.3635326663E+000  +3.4082245535E-003 +6.3443021896E+001  +4.3512124107E-003 +8.8666538131E+001  +5.8617093362E-001 -2.8594253992E+000 
10020614.518 +5.5341368392E-001 +3.2081493915E+000  +6.1247437602E-003 +3.3227689794E+001  +3.1777915631E-003 +1.1753255652E+002  +5.8254353927E-001 -1.8054370672E+000 
10145759.700 +5.5456193806E-001 +1.8049836813E+000  +2.2311950885E-003 +5.4596121914E+001  +5.1431766411E-003 +9.2578848982E+001  +5.8862020513E-001 -3.0420991781E+000 
10270904.881 +5.3372095585E-001 +1.4739432531E+000  +5.2072261160E-003 +6.5613213011E+001  +4.8348589570E-003 +8.8344925363E+001  +5.3593123528E-001 -3.4424585493E+000 
10396050.063 +5.8053851594E-001 +7.4941192892E+000  +4.4545537122E-003 +7.8151829345E+001  +2.2222131678E-003 +9.9348443437E+001  +6.0199518769E-001 -9.0047196264E-001 
10521195.244 +5.4319400322E-001 +5.0559771857E+000  +8.1753386606E-003 +8.5110455924E+001  +5.2263678483E-003 +8.0485801155E+001  +6.0758680886E-001 -2.5091410650E+000 
10646340.426 +5.5987399468E-001 +7.5334066546E+000  +6.6125596486E-003 +6.9250682155E+001  +4.1402571127E-003 +6.7300080376E+001  +6.0269125085E-001 +2.3076735916E+000 
10771485.607 +5.5217365070E-001 +5.9517494239E+000  +4.6151750636E-003 +5.6585064075E+001  +4.2026203727E-003 +5.4478308040E+001  +6.0496282454E-001 -6.0828279346E-001 
10896630.788 +5.8183157828E-001 +8.1096528945E+000  +5.6636330382E-003 +7.3706466338E+001  +5.4438203579E-003 +8.8617061905E+001  +6.1996009574E-001 -2.3524105456E+000 
11021775.970 +5.9324380417E-001 +8.2491137065E+000  +4.3817417872E-003 +7.6980677912E+001  +2.8530293485E-003 +1.3247353770E+002  +5.9070830290E-001 +4.1565996754E-001 
11146921.151 +5.9734343365E-001 +6.2025498833E+000  +5.9696095033E-003 +6.2092129198E+001  +4.1037903981E-003 +6.5777339052E+001  +6.2906786578E-001 +3.6752587135E+000 
11272066.333 +5.9376725112E-001 +5.6902741014E+000  +6.8813971747E-003 +8.7886066811E+001  +4.1422610045E-003 +6.4156907352E+001  +6.7017683305E-001 +2.6538000341E+000 
11397211.514 +6.0334072251E-001 +6.1983473666E+000  +6.8194077344E-003 +6.4936358157E+001  +6.5057312078E-003 +7.0951574263E+001  +6.2146463520E-001 +2.0452939470E+000 
11522356.696 +6.3877405711E-001 +6.3440264133E+000  +4.7453169040E-003 +7.9317538012E+001  +7.1781510419E-003 +7.1106164769E+001  +6.5766191840E-001 -1.3812033015E-001 
11647501.877 +6.3678447721E-001 +6.3825821711E+000  +4.3493129109E-003 +7.7244728326E+001  +6.0874026444E-003 +7.5471240016E+001  +6.6272162430E-001 +2.5444241102E+000 
11772647.059 +6.4148174257E-001 +4.9005495478E+000  +6.0098756012E-003 +5.0982868642E+001  +6.1045659988E-003 +9.6976102290E+001  +6.5414500751E-001 +1.5673581358E+000 
11897792.240 +6.6138230420E-001 +5.1900448075E+000  +3.8449354567E-003 +7.7211285781E+001  +4.3496389216E-003 +6.8464673894E+001  +6.6484428612E-001 -3.4241848814E-001 
12022937.422 +6.8086662329E-001 +5.0705356519E+000  +4.4100083602E-003 +7.2086708806E+001  +4.1480269289E-003 +9.7974666354E+001  +6.7862264865E-001 +7.8212328965E-001 
12148082.603 +6.7969393950E-001 +3.3202018065E+000  +5.7663825123E-003 +5.7599215701E+001  +5.2647320228E-003 +6.6012272170E+001  +7.0738938523E-001 -7.0934159200E-001 
12273227.785 +6.8902218873E-001 +3.9507282048E+000  +6.3668608509E-003 +7.8494022013E+001  +6.3556889839E-003 +8.6623436450E+001  +6.9188581616E-001 +4.2529530516E-001 
12398372.966 +7.3077033210E-001 +4.1911476983E+000  +5.0436183773E-003 +6.8819769697E+001  +5.4937943179E-003 +1.0629392529E+002  +7.3865986714E-001 -5.0383544278E-001 
12523518.148 +7.0827523274E-001 +3.3584156566E+000  +7.0187518654E-003 +7.6481299608E+001  +5.8954022484E-003 +8.1816670440E+001  +7.3558822819E-001 -2.9410989555E-001 
12648663.329 +7.5370893648E-001 +2.9637574737E+000  +6.3121232294E-003 +7.4290064292E+001  +5.7791636731E-003 +1.0109107857E+002  +7.3089191302E-001 +1.3392340014E-001 
12773808.511 +7.8287653615E-001 +1.7558044586E+000  +5.6889600214E-003 +8.4094609222E+001  +7.0448869574E-003 +8.2235894227E+001  +7.6380167496E-001 +3.0677581545E-001 
12898953.692 +7.7954774306E-001 +7.0671082603E-001  +6.3215882816E-003 +7.2978686672E+001  +6.1729157215E-003 +7.3978476898E+001  +7.9176924354E-001 +5.2708937395E-002 
13024098.874 +7.7583187322E-001 +2.4491521014E-001  +6.2808538698E-003 +7.9605096520E+001  +5.7865213479E-003 +7.8781760553E+001  +7.9145020322E-001 -1.4681547303E+000 
13149244.055 +8.0322197336E-001 -4.1503235146E-001  +6.1106260794E-003 +8.1660017211E+001  +6.5886114319E-003 +8.7325893991E+001  +8.2369633362E-001 -6.1701512997E-001 
13274389.237 +8.3554578537E-001 -1.3687979244E+000  +6.6675265187E-003 +6.2643042080E+001  +6.3811601263E-003 +8.0810004528E+001  +8.3080389522E-001 -2.6024103609E+000 
13399534.418 +8.4276036822E-001 -4.7099890032E-001  +5.9657594031E-003 +6.5842890294E+001  +6.0904027934E-003 +8.9870497218E+001  +8.4869685411E-001 -3.5283117080E+000 
13524679.599 +8.4938749068E-001 -2.7081576621E+000  +7.2759462044E-003 +7.5014452896E+001  +7.4204334678E-003 +8.2820591212E+001  +8.5696293626E-001 -1.2585278202E+000 
13649824.781 +8.7096569915E-001 -3.8545253308E-001  +6.1836105354E-003 +7.9683635889E+001  +6.8443017238E-003 +6.7168016056E+001  +9.0768269783E-001 -2.6175340717E+000 
13774969.962 +8.9947846523E-001 -1.5653367946E+000  +7.4363798171E-003 +7.8818887565E+001  +8.1442208746E-003 +7.4642113146E+001  +9.1157703971E-001 -3.5993569548E+000 
13900115.144 +8.9596198414E-001 -4.0981459510E+000  +7.3647300821E-003 +8.6900473544E+001  +6.5328622794E-003 +6.7600910893E+001  +9.1715026418E-001 -4.3734738521E+000 
14025260.325 +9.2675738976E-001 -3.7533548782E+000  +7.3514469095E-003 +8.0332620949E+001  +6.4175436314E-003 +7.3637771644E+001  +9.2768607452E-001 -4.6682176978E+000 
14150405.507 +9.4412324563E-001 -4.1772482279E+000  +7.9664393039E-003 +7.8533897854E+001  +8.9807411837E-003 +8.0805410433E+001  +9.3771252065E-001 -4.2363581429E+000 
14275550.688 +9.5751841971E-001 -5.2160429228E+000  +8.0950420593E-003 +8.4902727700E+001  +7.5379827723E-003 +7.7607176977E+001  +9.9407608765E-001 -5.0571863447E+000 
14400695.870 +9.7929872994E-001 -6.7117583836E+000  +7.0689899228E-003 +7.8862133057E+001  +7.4276593084E-003 +8.0056053168E+001  +9.9859624926E-001 -5.6067748349E+000 
