!  2-Port S-parameters saved by WinCal
! VAR MeasName=S-Parameters (CALIBRATED_DATA) read from VNA (P5004A)
! VAR MeasDate=28/08/2024 10:25:48
! VAR NAME=S2_r4c9_RESET2_9k-100M_3
! VAR FILENAME=S2_r4c9_RESET2_9k-100M_3.S2P
! VAR DATE=28/08/2024 10:25:48
! VAR PHYS_PORTS=1,2
! VAR ObjTypeName=DATASET
! VAR IndexType=Frequency
!
# Hz S MA R 50
9000.000 +7.6498990232E-002 -1.6570187427E+002  +1.0944893975E-002 -1.7306192600E+002  +9.9621553010E-003 +4.1973947639E+001  +3.2048213398E-001 -1.4521739797E+002 
134145.181 +1.1078570185E-001 +1.6964447686E+002  +4.4328344047E-004 +9.7202737987E+001  +1.8189408181E-004 +8.8425702716E+001  +2.4012700270E-001 -1.7051253224E+002 
259290.363 +1.1257047132E-001 +1.6972680637E+002  +7.4034912056E-004 -1.4338618659E+002  +6.3811505378E-004 +3.5650966470E+000  +2.4387574219E-001 -1.6944819851E+002 
384435.544 +1.1390549443E-001 +1.7010204896E+002  +7.2677703347E-004 +4.8026440445E+001  +1.3454826360E-004 -4.9207852160E+001  +2.4497104115E-001 -1.6805285450E+002 
509580.726 +1.1401141002E-001 +1.7199887074E+002  +1.3668073172E-003 -1.3531505633E+002  +8.4678868406E-004 +1.2425438920E+002  +2.4925466479E-001 -1.6471038370E+002 
634725.907 +1.1805088915E-001 +1.7049320954E+002  +2.1326113991E-004 -4.8234234924E+001  +3.5662542831E-004 -1.2784745078E+001  +2.5133587016E-001 -1.6584421974E+002 
759871.089 +1.1850680640E-001 +1.7187509994E+002  +7.2913003351E-004 -1.0497533170E+002  +1.3570807862E-003 +1.6458435752E+001  +2.5017007539E-001 -1.6702186339E+002 
885016.270 +1.2033125832E-001 +1.6894883398E+002  +4.3847591113E-004 +4.3893092670E+001  +4.0733796017E-004 +1.6242279843E+002  +2.5113217162E-001 -1.6597780188E+002 
1010161.452 +1.1788168213E-001 +1.6946665111E+002  +6.5219121386E-004 +4.3562663892E+000  +1.3460436501E-003 +1.4726684807E+002  +2.0157108961E-001 -1.7075073783E+002 
1135306.633 +1.1893472002E-001 +1.6756861482E+002  +3.8801781004E-004 +1.5042430979E+002  +7.8425613411E-004 -3.3842402059E+001  +2.0511705657E-001 -1.6588709328E+002 
1260451.815 +1.2352083616E-001 +1.7109382811E+002  +8.1698293030E-004 -1.3374657527E+002  +9.0558572365E-004 -1.4648175693E+002  +2.2368600589E-001 -1.5938162693E+002 
1385596.996 +1.2592771153E-001 +1.7213059712E+002  +6.2769844277E-004 +9.4512059185E+000  +1.4298849947E-003 +1.6116314117E+002  +2.6090585080E-001 -1.5986589390E+002 
1510742.178 +1.2760013562E-001 +1.7263700412E+002  +1.6508492811E-003 -1.3801591685E+002  +4.2605104505E-004 +1.7071186910E+002  +2.6331269406E-001 -1.5871959520E+002 
1635887.359 +1.3074882741E-001 +1.7173652498E+002  +1.6226406588E-003 -3.3599924638E+000  +2.8857295736E-004 +8.7276415222E+001  +2.5236758401E-001 -1.5737690007E+002 
1761032.541 +1.3004516001E-001 +1.6918744471E+002  +2.2113224302E-004 +1.3598821867E+002  +2.3894259154E-004 +1.4029193077E+002  +2.2927482049E-001 -1.5906270106E+002 
1886177.722 +1.2990039134E-001 +1.6725985605E+002  +1.3859613986E-003 +5.1867935716E+001  +2.9117460880E-003 -6.0257702898E+001  +1.7894978363E-001 -1.6322557891E+002 
2011322.904 +1.2900346571E-001 +1.6611070620E+002  +2.2544765068E-003 +7.7416249363E+000  +3.0529072104E-003 -6.4119779521E+001  +1.8972151426E-001 -1.6132358364E+002 
2136468.085 +1.2908483448E-001 +1.6772895553E+002  +5.2859642905E-003 +3.8062184848E+001  +2.2245755351E-003 -1.2077496874E+002  +1.6970176398E-001 -1.5517206692E+002 
2261613.267 +1.3259505110E-001 +1.6448273379E+002  +3.1902646264E-004 -1.1669583025E+002  +1.0058415181E-003 -2.7205488222E+001  +2.1026466835E-001 +1.7744677530E+002 
2386758.448 +1.3895579629E-001 +1.6496504029E+002  +1.6779527242E-003 -1.5220098742E+000  +3.4930833840E-003 -5.6736770581E+001  +2.0317203728E-001 -1.7690726320E+002 
2511903.630 +1.3452987004E-001 +1.6606172306E+002  +2.8044021472E-003 +1.2561920891E+001  +7.2592517790E-004 -1.1107519039E+002  +2.2451987489E-001 -1.7584981578E+002 
2637048.811 +1.0170867590E-001 +1.6006466282E+002  +7.2967094158E-003 +1.6069945172E+002  +3.1914416402E-003 -1.6935879179E+002  +2.0354382570E-001 +1.4811151658E+002 
2762193.992 +1.0743582128E-001 +1.6796248945E+002  +1.2229617978E-002 -1.4446089388E+002  +2.2256693919E-002 -7.4344249119E+001  +5.2316433201E-001 +1.1633786728E+002 
2887339.174 +1.2561922224E-001 +1.7509900141E+002  +9.9771961910E-003 -3.6315314990E+001  +1.6444991782E-002 -1.0684785974E+002  +1.2729409473E-001 -2.7407855288E+001 
3012484.355 +1.3210688175E-001 +1.7411451857E+002  +6.0266583570E-003 -1.2944844958E+002  +1.4640178482E-002 +1.6000781606E+002  +2.0731890631E-001 -7.9795703576E+001 
3137629.537 +1.3298344993E-001 +1.6939382328E+002  +7.1677558548E-003 -4.2763893249E+001  +1.3083635326E-003 -7.0660063656E+001  +1.0382255692E-001 -7.7411579549E+001 
3262774.718 +1.2080566665E-001 +1.7647639149E+002  +4.5855009492E-003 +1.1214090930E+002  +6.8414224386E-003 +3.0523091146E+001  +5.7522028691E-002 -8.4285623257E+001 
3387919.900 +1.0560275672E-001 +1.5560511301E+002  +1.6245065617E-002 -8.0331244055E+001  +1.0863451757E-002 -1.1577972915E+001  +3.6013836287E-001 -5.4834292913E+001 
3513065.081 +1.2902584396E-001 +1.5362210665E+002  +9.0185751826E-003 -8.6203070793E+001  +1.7539077044E-003 -1.3214217347E+002  +3.6813351326E-001 +1.4588993803E+002 
3638210.263 +1.6770890820E-001 +1.4744600030E+002  +7.4968236141E-003 -1.4873511024E+002  +1.5255768118E-002 +3.1750781376E+001  +4.5180585194E-001 +1.3824453449E+002 
3763355.444 +1.5792861345E-001 +1.5067182597E+002  +5.8626933084E-003 +1.2686729909E+002  +4.8775372849E-003 +7.7676578454E+001  +3.2937439215E-001 +9.6537216515E+001 
3888500.626 +1.6950224138E-001 +1.4743485385E+002  +1.1578697470E-002 +2.9133555008E+001  +1.3185869330E-003 +8.4695238818E+001  +3.8718228602E-001 +1.3136355657E+002 
4013645.807 +2.2379934036E-001 +1.3241517314E+002  +2.3658303423E-003 -3.6212551756E-001  +1.4265833016E-002 +1.2114240480E+002  +3.9713272978E-001 +1.4342689317E+002 
4138790.989 +1.9561351349E-001 +1.4235420215E+002  +8.3268290636E-003 +1.2003183005E+001  +1.2304754461E-002 +2.3034130370E+001  +6.8693845032E-001 +1.2593787973E+002 
4263936.170 +1.9739641340E-001 +1.4408080171E+002  +6.8466584133E-003 +2.2523593731E+001  +8.2883671248E-003 +1.2282096175E+001  +3.8164695737E-001 +1.1287599598E+002 
4389081.352 +2.1419702694E-001 +1.3469399099E+002  +6.8092667014E-003 +1.4938616340E+002  +2.0248266818E-002 +3.0815334257E+001  +1.0389267375E+000 +8.6723401150E+001 
4514226.533 +2.5611521594E-001 +1.1463345695E+002  +1.2081712969E-001 -8.4028230553E+001  +9.6018032105E-002 +3.9689544063E+001  +3.5915241551E+000 +1.2488284527E+002 
4639371.715 +3.0178185094E-001 +1.3674607081E+002  +9.9721426609E-003 +1.4265157044E+002  +1.2380656162E-002 -1.4045337469E+002  +1.2123134149E+000 +1.2451458776E+002 
4764516.896 +3.5928698422E-001 +1.3069567712E+002  +9.3679784465E-002 +1.5341339081E+001  +8.7524817079E-002 -1.3296238678E+002  +5.8090157992E+000 -4.0733039355E+001 
4889662.078 +3.7479354766E-001 +1.3213075300E+002  +1.9535186344E-003 -1.6665408592E+002  +2.7224135062E-002 -8.3889809003E+001  +2.0919677183E+000 -1.5261376464E+002 
5014807.259 +4.1693848263E-001 +1.2986818898E+002  +3.4156501702E-001 +3.0878442116E+001  +1.3189317846E-001 +4.5518489135E+001  +1.1486162478E+001 -1.3193906999E+001 
5139952.441 +4.2098540630E-001 +1.3305897933E+002  +6.9659327200E-002 +8.8821815007E+001  +2.1187522941E-002 +8.8573810506E+001  +3.2036765860E+000 +9.9181927705E+001 
5265097.622 +3.9998733266E-001 +1.2718930870E+002  +8.3960520951E-002 +6.3227923258E+001  +1.0020928330E-001 +2.4618991277E+001  +5.0352161487E+000 +3.1086168725E+001 
5390242.804 +3.8405472045E-001 +1.1814573600E+002  +6.2156550629E-002 +8.0950487379E+001  +3.2007351993E-002 +5.9496865344E+001  +3.2995312385E+000 +8.3458604956E+001 
5515387.985 +5.8862089801E-001 +1.1207962457E+002  +6.3528777889E-002 +1.1111694987E+002  +8.6320934261E-002 -1.8135540681E+001  +2.0578126752E+000 +4.4311107937E+001 
5640533.166 +4.6020366110E-001 +1.2860841740E+002  +1.3654935852E-002 +1.2956030851E+002  +1.0796284029E-002 +8.0008748365E+001  +1.3719166242E+000 +8.0123950615E+001 
5765678.348 +5.4869645170E-001 +1.2828639046E+002  +1.9064433847E-002 +9.0207292460E+001  +3.4621553250E-002 +4.1575828534E+001  +2.2924046892E+000 +8.7590040791E+001 
5890823.529 +5.5716991349E-001 +1.2148825675E+002  +1.5944093948E-002 +1.0288308203E+002  +3.9395185053E-002 +6.4848201720E+001  +1.9238017525E+000 +9.2338941648E+001 
6015968.711 +7.6200695265E-001 +1.2118828874E+002  +2.3512404003E-002 +7.1944560100E+001  +2.8086947089E-002 +1.3720773904E+002  +3.2941875043E+000 +5.2387710891E+001 
6141113.892 +1.0096775163E+000 +1.1157092037E+002  +3.4044398480E-002 -1.4390274815E+002  +3.7492075875E-002 +3.3909080308E+001  +2.3749024649E+000 +4.1815835893E+001 
6266259.074 +8.0528286825E-001 +1.0483171241E+002  +4.4437895319E-002 +6.7923857052E+001  +3.5253713112E-002 +6.1828661996E+001  +2.0279726301E+000 +4.3149657622E+001 
6391404.255 +8.7051716993E-001 +9.0849592223E+001  +4.4888285132E-002 +5.7630433887E+001  +1.3387426977E-002 -1.0117889438E+002  +1.5711453349E+000 +1.6059670062E+001 
6516549.437 +1.5084898285E+000 +8.1943694672E+001  +4.0671598958E-002 +4.7623448728E+001  +4.2479369380E-002 +6.2554207325E+000  +1.3369156058E+000 -5.2013554367E+000 
6641694.618 +1.2751613174E+000 +7.6954422881E+001  +4.5029860504E-002 +4.7236203850E+001  +1.8941286108E-002 +6.0709756472E+001  +1.5577444211E+000 +6.2110802116E+000 
6766839.800 +1.6562370805E+000 +6.7626050230E+001  +3.7941889962E-003 +1.7128474640E+001  +3.2917722465E-002 +2.5226023710E+001  +1.0883460236E+000 -1.1543502737E+001 
6891984.981 +1.6935608509E+000 +3.7625113271E+001  +1.8473789782E-002 -2.8383076696E+001  +4.1000210542E-002 +4.3418492456E+001  +1.2574508362E+000 +3.4155699409E+000 
7017130.163 +1.9037775268E+000 +1.5579107228E+001  +3.4492984895E-002 +3.5132959019E+001  +1.2669428433E-002 -1.4015474190E+001  +1.3704965447E+000 -4.3177109015E+000 
7142275.344 +1.5317394817E+000 +1.2000237001E+001  +7.9072255157E-003 +5.1304145649E+001  +2.4381253039E-002 +2.0935142638E+001  +1.3574334448E+000 -1.0955535644E+001 
7267420.526 +1.2527760202E+000 +6.5416332188E-001  +2.4429018624E-002 -1.9592865397E+000  +2.5152860877E-002 -7.7801753191E+000  +1.3737996599E+000 -1.8085125803E+001 
7392565.707 +1.3555963414E+000 -2.0418719758E+000  +7.3955347085E-003 -4.3220161031E+000  +1.4665983166E-002 +1.3773223072E+001  +1.2854070999E+000 -8.2865983656E+000 
7517710.889 +1.3115542190E+000 -3.4069825274E+000  +1.3923879325E-002 +1.9609248780E+001  +1.5530883136E-002 +4.5647064325E+001  +1.1601978685E+000 -6.6967114178E+000 
7642856.070 +1.0160265311E+000 +6.6105807283E+000  +8.2996060558E-003 -6.7949659964E+000  +1.5812575825E-002 +1.9725545556E+001  +1.2206196824E+000 -2.4777707074E+000 
7768001.252 +9.6155569149E-001 +9.3206586640E-001  +8.3525241287E-003 +5.5965424530E+001  +8.6635098781E-003 +3.4207170414E+001  +1.0029548342E+000 -1.4763702183E+000 
7893146.433 +8.7038577723E-001 +1.6843182635E+000  +3.4615684928E-003 +4.0864536063E+001  +1.7577292881E-002 +5.2216875038E+000  +9.0746820991E-001 -3.3059227907E+000 
8018291.615 +7.9690095973E-001 +2.9418491398E+000  +4.2771453446E-003 +9.8514226645E+000  +9.1648165278E-003 +4.7929573321E+001  +8.3440649490E-001 -6.2654588059E-001 
8143436.796 +7.5447178722E-001 +1.0245733477E+001  +1.3725631796E-002 +8.4256656121E+000  +9.8567693926E-003 +3.7818776782E+001  +7.6594060795E-001 +2.7704973543E+000 
8268581.977 +6.9750856147E-001 +6.9789160545E+000  +1.1818719152E-002 +3.6437221936E+000  +9.8976298869E-003 +2.1778669210E+001  +7.3815694358E-001 -2.4736044735E+000 
8393727.159 +6.7396518938E-001 +2.8368149334E+000  +6.3689574439E-003 +1.6286272024E+001  +8.7899912437E-003 +2.5505970982E+001  +6.9934256605E-001 +1.1781252384E+000 
8518872.340 +6.9708012779E-001 +7.3499862143E+000  +9.7801937367E-003 +1.2146136378E+001  +8.3641940101E-003 +3.9824080548E+001  +6.6488950249E-001 +1.9739986028E+000 
8644017.522 +6.9341935714E-001 +8.2174062693E+000  +7.0780169142E-003 +1.5795526306E+001  +5.6185216163E-003 +4.0724110992E+001  +7.6850111557E-001 +5.1050687014E+000 
8769162.703 +6.0790987335E-001 +7.7674447655E+000  +1.0964640438E-002 +1.9251261030E+000  +8.3181106001E-003 +3.4177416789E+001  +6.1987434123E-001 -4.5621862700E+000 
8894307.885 +6.1128681070E-001 +4.8848252994E+000  +1.0162517882E-002 +1.0825620390E+001  +7.9806442459E-003 +1.2204662383E+001  +6.4249678979E-001 -2.1767776033E+000 
9019453.066 +5.7912830973E-001 +9.6684624434E+000  +1.2096859876E-002 +2.0171635325E+001  +4.6570596621E-003 +4.1492307136E+001  +6.7150098019E-001 -1.5964583514E+000 
9144598.248 +5.1857055385E-001 +3.3329801935E+000  +8.2285437468E-003 +2.6552190630E+001  +8.1463145623E-003 +3.5882497572E+001  +6.3138843066E-001 +1.8476984232E-001 
9269743.429 +6.1202831292E-001 +1.0486561713E+001  +8.4945913575E-003 +1.7292232290E+001  +9.8354452497E-003 +4.9209781271E+001  +6.1315973012E-001 +2.5668724697E-001 
9394888.611 +5.5010844989E-001 +6.3013125972E+000  +8.9333062486E-003 +3.8168616843E+001  +1.2641486256E-002 +4.7732059101E+001  +5.9112924237E-001 -2.3222623708E+000 
9520033.792 +5.7461496533E-001 +4.5418570333E+000  +8.8580577596E-003 +2.6820743238E+001  +1.0034181847E-002 +5.4790344031E+001  +5.8945697436E-001 -1.0623973408E+001 
9645178.974 +5.3628881549E-001 +1.6716855979E-001  +1.0305574930E-002 +5.2421090900E+001  +1.0917820140E-002 +2.8802954188E+001  +5.8496537437E-001 -6.1010717797E+000 
9770324.155 +5.8182777815E-001 +2.0583336959E+000  +9.2044052716E-003 +2.4634060264E+001  +8.2992705285E-003 +4.1610487739E+001  +5.9855752207E-001 -3.7217923413E+000 
9895469.337 +5.2068969189E-001 +3.3287524585E-001  +6.2829923365E-003 +4.5248083446E+001  +7.4960445744E-003 +4.9126291494E+001  +5.5058777210E-001 -7.8039627896E+000 
10020614.518 +5.3830540538E-001 +4.8653750769E+000  +7.9244615055E-003 +4.1475515375E+000  +7.6087591416E-003 +5.7047257396E+001  +5.6764982078E-001 -8.7030680993E-001 
10145759.700 +5.1426877665E-001 +4.6232516710E+000  +1.0799471840E-002 +1.7872341841E+001  +9.5333023796E-003 +2.5309849644E+001  +5.9269600825E-001 -1.8048167418E+000 
10270904.881 +5.5028828535E-001 +2.9142115882E+000  +6.6250980532E-003 -2.6795471157E+000  +6.9211096261E-003 +3.6475263307E+001  +5.9393300577E-001 -3.4822902659E+000 
10396050.063 +5.8454329067E-001 +7.4649039522E+000  +7.3286411064E-003 +2.9736151570E+001  +6.6822228611E-003 +4.6394468851E+001  +5.8349265748E-001 -2.0316014317E+000 
10521195.244 +5.5150728342E-001 +5.6485951841E+000  +7.9452621295E-003 +3.5118086487E+001  +1.0150146657E-002 +4.2052649730E+001  +5.9572673851E-001 +2.0556830418E+000 
10646340.426 +5.5233775658E-001 +7.8070107793E+000  +8.4017622551E-003 +2.3497365839E+001  +7.1865587030E-003 +3.7302009372E+001  +6.2175104168E-001 +9.0614996903E-001 
10771485.607 +5.7699210183E-001 +6.6947634211E+000  +1.0256242301E-002 +3.3603356882E+001  +9.8140770438E-003 +5.4757262976E+001  +5.8523315314E-001 -1.6459262741E+000 
10896630.788 +6.0637851037E-001 +1.0526781495E+001  +8.4686552335E-003 +2.7639041144E+001  +7.3549576194E-003 +3.2587243996E+001  +5.8445297033E-001 -4.1999081175E+000 
11021775.970 +5.9365191758E-001 +6.5565308426E+000  +1.0435535435E-002 +1.4320024339E+001  +1.0662346890E-002 +4.2986666321E+001  +5.9986656313E-001 +7.6202037762E-002 
11146921.151 +5.9401363107E-001 +4.2964968360E+000  +8.6989009553E-003 +3.0029308193E+001  +1.0634900592E-002 +3.8705722832E+001  +6.3245553720E-001 -3.2543319651E-001 
11272066.333 +6.1749300452E-001 +7.7258437444E+000  +9.1572612208E-003 +2.6556698990E+001  +8.9056522964E-003 +4.2277004712E+001  +6.4722127188E-001 +2.7283814520E+000 
11397211.514 +6.1039734560E-001 +7.5632983628E+000  +9.2923911347E-003 +2.0463232211E+001  +7.3943224222E-003 +4.4223193326E+001  +6.4522959382E-001 +2.3998437490E+000 
11522356.696 +6.1876672825E-001 +6.1144330559E+000  +8.0165836278E-003 +2.9673673770E+001  +8.3922717776E-003 +4.8100757009E+001  +6.3832558690E-001 +3.1310059445E+000 
11647501.877 +6.2817428428E-001 +6.9740083263E+000  +9.9815145290E-003 +2.4448477355E+001  +9.5867424842E-003 +4.6487752789E+001  +6.4442562903E-001 +3.3549861700E+000 
11772647.059 +6.4084322532E-001 +8.8008320945E+000  +9.8156379944E-003 +3.7624618496E+001  +8.9949940320E-003 +4.7023130476E+001  +6.6606824056E-001 +2.5043079037E-001 
11897792.240 +6.4074392997E-001 +2.5280434389E+000  +1.1040645365E-002 +4.1726978785E+001  +1.0225715387E-002 +5.3077137643E+001  +6.6262450223E-001 -3.6485673106E-001 
12022937.422 +6.4970214892E-001 +6.4623394655E+000  +8.5290164645E-003 +3.2935954562E+001  +9.4622785444E-003 +3.2309197385E+001  +6.8767695442E-001 +1.4744086904E+000 
12148082.603 +6.7778527460E-001 +3.2828142052E+000  +9.7253657263E-003 +3.1608603243E+001  +1.1238608659E-002 +3.9258194245E+001  +6.9160689913E-001 +2.2265665424E+000 
12273227.785 +7.3862519739E-001 +3.4702428473E+000  +1.0024105853E-002 +2.8928964817E+001  +9.5515613077E-003 +2.6061303138E+001  +7.1489811402E-001 +1.4958027987E+000 
12398372.966 +7.1112874900E-001 +4.0354286255E+000  +9.7362122758E-003 +3.8353972657E+001  +9.9690923965E-003 +4.2700283551E+001  +7.1458047816E-001 +4.1554798025E-003 
12523518.148 +7.2403464701E-001 +2.5323543724E+000  +9.2049546631E-003 +2.8381883339E+001  +1.1690689589E-002 +5.3601894782E+001  +7.5667402591E-001 -3.8565511116E-001 
12648663.329 +7.4323508680E-001 +2.3470537574E+000  +1.0504292849E-002 +3.3247329026E+001  +1.0886883552E-002 +3.8942258811E+001  +7.6666998588E-001 +2.2812644854E-001 
12773808.511 +7.2522728841E-001 +1.9137952034E+000  +9.9930026648E-003 +3.4699281314E+001  +8.5777529317E-003 +2.6487879994E+001  +7.7562192566E-001 -2.4970601115E-001 
12898953.692 +7.4786356557E-001 +3.6729241357E-002  +1.1605914772E-002 +2.9183899445E+001  +1.1188898773E-002 +3.7762318013E+001  +7.7138708012E-001 -1.7397754690E-001 
13024098.874 +7.8642522584E-001 -5.8519192090E-002  +1.3144624062E-002 +3.5810971066E+001  +1.1070539800E-002 +3.2712799715E+001  +8.0595145383E-001 -3.0503627465E-001 
13149244.055 +8.0377835324E-001 +2.8001943257E-001  +1.1580687128E-002 +3.7914134974E+001  +1.1947020652E-002 +3.6647604208E+001  +8.0889891730E-001 -3.0225971893E+000 
13274389.237 +8.2102281152E-001 +1.1501189410E+000  +1.2518033097E-002 +2.6553622634E+001  +1.0380989617E-002 +4.2094339312E+001  +8.5183671364E-001 -1.2539566912E+000 
13399534.418 +8.2994748571E-001 -1.1122552554E-001  +1.1700283767E-002 +3.5839976247E+001  +1.1795843010E-002 +4.3662860180E+001  +8.4076827158E-001 -1.9059668838E+000 
13524679.599 +8.5444856617E-001 -1.3281281259E+000  +1.2118394743E-002 +3.3414012988E+001  +9.9324915610E-003 +4.1964972152E+001  +8.7146445576E-001 -2.0063730176E+000 
13649824.781 +8.5784609020E-001 -1.7065010981E+000  +1.0276933886E-002 +3.5267492497E+001  +1.1582678295E-002 +3.8558411517E+001  +8.8889176014E-001 -1.5513283332E+000 
13774969.962 +8.8290079282E-001 -2.6519013739E+000  +1.1812075167E-002 +3.8176059485E+001  +1.3115706279E-002 +3.5054905303E+001  +8.9570595041E-001 -2.7988671478E+000 
13900115.144 +9.0337066396E-001 -3.1256517571E+000  +1.1498470110E-002 +3.9382403777E+001  +1.0709941609E-002 +3.8326202834E+001  +9.1211196569E-001 -3.0062637968E+000 
14025260.325 +9.0988622691E-001 -2.9674888743E+000  +1.2066822545E-002 +3.7181857149E+001  +1.1688388391E-002 +3.7161885565E+001  +9.2629347505E-001 -4.2914318477E+000 
14150405.507 +9.4119879638E-001 -4.4235569960E+000  +1.1760963274E-002 +4.3266353758E+001  +1.2063619878E-002 +3.7252905842E+001  +9.6729935854E-001 -4.6231860727E+000 
14275550.688 +9.5736863525E-001 -5.4534756224E+000  +1.3044144497E-002 +3.4381398085E+001  +1.2461377679E-002 +4.7043342939E+001  +9.6633884959E-001 -4.8233904307E+000 
14400695.870 +9.7132887358E-001 -5.9609927404E+000  +1.2543998863E-002 +3.4068916980E+001  +1.3165615108E-002 +3.8753417743E+001  +9.9183820622E-001 -3.9986141072E+000 
