!  2-Port S-parameters saved by WinCal
! VAR MeasName=S-Parameters (CALIBRATED_DATA) read from VNA (P5004A)
! VAR MeasDate=27/08/2024 14:20:57
! VAR NAME=S2_r2c8_RESET2_9k-100M_1
! VAR FILENAME=S2_r2c8_RESET2_9k-100M_1.S2P
! VAR DATE=27/08/2024 14:20:57
! VAR PHYS_PORTS=1,2
! VAR ObjTypeName=DATASET
! VAR IndexType=Frequency
!
# Hz S MA R 50
9000.000 +7.7359563946E-002 -1.3937561149E+002  +2.6901666289E-002 +1.0086255932E+001  +1.2827001490E-002 -2.8397351911E+001  +1.2590062591E-001 -1.2716881323E+002 
134145.181 +1.1148941421E-001 +1.6986239070E+002  +1.5992402664E-004 +1.7152957653E+002  +3.0178955328E-004 +1.3396503722E+002  +2.4511240513E-001 -1.7128061987E+002 
259290.363 +1.1132362721E-001 +1.6950164622E+002  +3.6115237864E-004 -7.2401259850E+001  +1.0075302492E-003 -1.4833828997E+002  +2.3580472233E-001 -1.6778895578E+002 
384435.544 +1.1403852446E-001 +1.6973808514E+002  +3.4892358119E-004 +5.0112742613E+001  +1.1565489071E-003 +2.8480768093E+001  +2.4232419926E-001 -1.6810805613E+002 
509580.726 +1.1373871261E-001 +1.7048720597E+002  +3.4778310417E-004 -1.4013918873E+002  +8.5674250994E-004 +7.6269977271E+001  +2.2616777688E-001 -1.6525221872E+002 
634725.907 +1.1515454389E-001 +1.7066702358E+002  +1.1953400845E-003 -1.5209109267E+002  +9.4457527095E-004 -1.5230160218E+002  +2.5016946137E-001 -1.6582208283E+002 
759871.089 +1.1816212458E-001 +1.7174656244E+002  +6.5534970990E-004 +1.4672497427E+002  +5.9939929254E-004 +7.7259218406E+001  +2.3824848746E-001 -1.6481484236E+002 
885016.270 +1.1769787957E-001 +1.6980867225E+002  +2.9065333624E-004 -1.7923739615E+002  +7.3249496417E-004 -5.2778934157E+001  +2.4852415795E-001 -1.6569170045E+002 
1010161.452 +1.1722010709E-001 +1.7093641509E+002  +1.3112501878E-003 +1.7592179547E+002  +1.5309145929E-003 -8.4721739447E+001  +1.8307931769E-001 -1.7323543886E+002 
1135306.633 +1.1482650791E-001 +1.7018591901E+002  +2.0257902425E-003 -9.2396356059E+001  +4.4121688880E-003 -1.7131638924E+002  +1.5048551909E-001 -1.4502134036E+002 
1260451.815 +1.2116810892E-001 +1.7115746324E+002  +1.0549707767E-003 -1.6334322402E+002  +2.4835975447E-003 +6.3728733038E+001  +2.4539727632E-001 -1.5487910998E+002 
1385596.996 +1.2443384091E-001 +1.7252107966E+002  +7.0187127305E-004 +8.2275795952E+001  +1.2838761449E-003 -3.6362052612E+001  +2.5060281007E-001 -1.5420701532E+002 
1510742.178 +1.2632818744E-001 +1.7072108807E+002  +1.4068348035E-004 -1.5395851475E+002  +9.1465017261E-004 +1.4570349654E+002  +2.6752669413E-001 -1.5929165395E+002 
1635887.359 +1.2932788612E-001 +1.7083961826E+002  +1.5358277490E-003 -1.9857128793E+001  +1.3277004464E-003 -7.8720403837E+001  +2.2564251481E-001 -1.5790129397E+002 
1761032.541 +1.2764227582E-001 +1.6923059908E+002  +1.3864675378E-003 -8.0321565122E+001  +2.0406543639E-003 -1.7587162711E+002  +2.0821251266E-001 -1.6315721415E+002 
1886177.722 +1.3130035748E-001 +1.6898112742E+002  +2.4910806529E-003 -5.0073731741E+001  +1.3729555317E-003 -7.8178289438E+001  +1.9256367885E-001 -1.6353467123E+002 
2011322.904 +1.2638370155E-001 +1.6612836137E+002  +6.6679665959E-004 -9.0150242125E+001  +1.7711831735E-003 +1.2792810315E+002  +1.9102479761E-001 -1.7047914370E+002 
2136468.085 +1.3342180971E-001 +1.6206651629E+002  +2.0783097995E-003 -1.4776855209E+002  +4.3462077203E-003 +2.9639967772E+000  +1.3045532591E-001 +1.7329227742E+002 
2261613.267 +1.3577893984E-001 +1.6300243824E+002  +2.8905496724E-003 +1.5801164226E+002  +3.0668385724E-004 +9.8220002771E+001  +1.6570192162E-001 +1.6836384559E+002 
2386758.448 +1.3493613767E-001 +1.6462537064E+002  +1.9362548824E-003 -6.4429621072E+001  +2.6347594310E-003 +1.2635009721E+002  +2.1884760287E-001 +1.7961823309E+002 
2511903.630 +1.2051311543E-001 +1.6443734449E+002  +3.3665120519E-003 -1.1213573382E+002  +3.9257534938E-003 -1.1709436641E+002  +1.8787885161E-001 +1.5585336446E+002 
2637048.811 +1.1179486240E-001 +1.6237373511E+002  +1.0297783105E-002 +1.2741046591E+002  +9.5076621295E-003 -1.5425843456E+002  +2.0497918627E-001 +1.2879710810E+002 
2762193.992 +1.0767014454E-001 +1.6626987270E+002  +1.9680618017E-002 -1.3265056738E+002  +1.2928854700E-002 -1.6612686426E+002  +5.4775314194E-001 +1.3472490754E+002 
2887339.174 +1.0829309349E-001 +1.6984881101E+002  +2.0508738356E-002 +1.7710303686E+002  +8.1162835905E-003 -1.1496260496E+002  +2.5441073004E-001 -7.9960602321E+001 
3012484.355 +1.3030281664E-001 +1.6679129704E+002  +2.1401214293E-002 -3.8332299199E+001  +1.1471313532E-002 +8.7109841367E+001  +8.5022176431E-001 -1.0014436281E+002 
3137629.537 +1.1907161807E-001 +1.7930136879E+002  +1.9682196055E-003 +1.0610925599E+002  +1.8383268195E-003 +1.7858780282E+001  +1.1766945487E-001 -1.2046131459E+002 
3262774.718 +1.3166393615E-001 +1.5457854134E+002  +1.9197644475E-003 -1.6515652253E+002  +2.2691944138E-002 -6.6381286421E+001  +2.2080428470E-001 -5.8895095716E+001 
3387919.900 +1.0086243432E-001 +1.4947209396E+002  +6.9150673627E-003 +7.0852635045E+001  +4.8991108376E-002 -1.4726464075E+002  +8.6062761579E-001 +8.9866140482E+001 
3513065.081 +1.5037953067E-001 +1.4670189982E+002  +8.5958931221E-003 +1.0107742419E+002  +3.5997565550E-002 -1.0017719677E+002  +5.9240227884E-001 +8.1257519385E+001 
3638210.263 +1.7582308159E-001 +1.4047266171E+002  +1.2587928132E-002 -7.5799125415E+001  +1.0741421887E-002 -6.7933591205E+001  +9.7722705153E-001 +1.7762761564E+002 
3763355.444 +1.4906502845E-001 +1.5036760435E+002  +6.6212274592E-003 -8.9128268487E+001  +2.9916441654E-002 +1.6630283011E+002  +1.0632926234E+000 +1.3094239004E+002 
3888500.626 +1.5347883876E-001 +1.5461369491E+002  +8.2585214341E-003 +1.6182675447E+001  +1.3793343613E-002 +1.1708878519E+001  +7.8854537218E-001 +5.6003576883E+001 
4013645.807 +1.8351677802E-001 +1.4308753946E+002  +1.2642203083E-002 -6.3560807999E+001  +7.1049465538E-003 +3.7948071156E+001  +2.9180653945E-001 +1.2101633645E+002 
4138790.989 +1.8450496934E-001 +1.3889698166E+002  +1.9532956253E-002 -1.1840146588E+002  +5.5729211348E-003 +1.0181266002E+002  +2.9073973414E-001 +3.1126338871E+001 
4263936.170 +1.7502134066E-001 +1.3817116579E+002  +9.8730105521E-003 -1.6282642300E+002  +4.0046532601E-002 +1.3367794106E+002  +8.6397913371E-001 +8.6993102797E+001 
4389081.352 +2.0904507367E-001 +1.4050822883E+002  +2.5250704801E-002 +9.4420826608E+001  +1.4078940586E-002 -2.3606327003E+001  +5.0408814644E-001 +8.8762443167E+001 
4514226.533 +2.9417801492E-001 +1.1244438842E+002  +2.7856882711E-003 +1.5692010979E+002  +2.0299924637E-002 +5.3329735124E+001  +7.2050979342E-001 +1.1772563947E+002 
4639371.715 +2.4888804860E-001 +1.1976645221E+002  +1.9003939327E-002 -1.6650958080E+002  +2.1655200912E-002 -1.4717441534E+002  +1.4926628386E+000 +1.3130366224E+002 
4764516.896 +4.0019250799E-001 +1.3557045434E+002  +6.8408795655E-002 +6.5934369498E+001  +2.3623901988E-002 +1.6707874205E+002  +4.5056287816E+000 -6.0053956277E+001 
4889662.078 +3.5701185591E-001 +1.2795021299E+002  +1.1936926298E-002 -5.4573800043E+001  +1.8456084580E-002 -1.4202588228E+002  +2.0916473203E+000 -1.6431138998E+002 
5014807.259 +5.2475664174E-001 +1.3688664607E+002  +4.0624575647E-002 +2.2069138625E+001  +5.7089883624E-002 -1.2370959718E+002  +4.4816843067E+000 -1.1193211836E+002 
5139952.441 +3.4996029208E-001 +1.2764961284E+002  +4.8486409068E-002 +7.6015107341E+001  +8.7490808270E-002 +8.6681256272E+001  +4.4925175328E+000 +2.7135337003E+000 
5265097.622 +3.7428964586E-001 +1.2693951350E+002  +4.2996849575E-002 -1.7508851944E+002  +2.4928430024E-002 -1.7019711359E+002  +4.3270347170E+000 +1.2271765653E+002 
5390242.804 +4.4063372910E-001 +1.3104942736E+002  +2.8211679935E-002 +3.9623613741E+001  +1.8333154061E-002 +1.3530016369E+002  +1.5140320463E+000 +9.9040559754E+001 
5515387.985 +4.2635093469E-001 +1.3056746135E+002  +1.9629927131E-002 +7.0665455300E+001  +1.3206020956E-002 -1.0147978025E+002  +2.1992756768E+000 +8.5761473546E+001 
5640533.166 +5.4107089815E-001 +1.1631728858E+002  +3.8675386066E-002 +1.0222320045E+002  +6.7567208294E-003 -2.8974561680E+001  +2.4218144037E+000 +9.1892538943E+001 
5765678.348 +4.6166724115E-001 +1.3299219028E+002  +2.3698351658E-002 +1.4625128060E+002  +4.0156940449E-002 -1.4803746269E+002  +3.3662684986E+000 +1.0964815907E+002 
5890823.529 +5.6438261889E-001 +1.1374750664E+002  +1.2599518604E-002 +6.9043577338E+001  +1.2363308738E-002 -2.6136545918E+001  +2.7167478635E+000 +9.2142192127E+001 
6015968.711 +6.6722294095E-001 +1.1774503661E+002  +1.3173865305E-003 -1.0330117014E+002  +2.0144489073E-002 +1.0553647305E+002  +2.1134104942E+000 +5.6759081484E+001 
6141113.892 +7.5529509641E-001 +1.0883123196E+002  +2.2359055910E-002 -1.0725708794E+002  +4.5852708517E-002 -1.7891626608E+002  +2.2864797160E+000 +4.5212415047E+001 
6266259.074 +7.5409902693E-001 +9.6756453777E+001  +5.3964747762E-002 -1.5060183475E+002  +2.8511037647E-002 +8.0258623215E+001  +2.1361283736E+000 +1.4371412699E+001 
6391404.255 +1.0476282997E+000 +1.0414998773E+002  +1.5152982542E-002 +6.0702388063E+001  +2.9304744357E-002 +9.3075828381E+001  +1.8284459085E+000 +4.1132705257E+000 
6516549.437 +1.2588371894E+000 +8.4514961234E+001  +2.0857428526E-002 -3.3405259537E+001  +7.5459702571E-003 +4.6747844802E+001  +1.7045473283E+000 -1.1766978935E+000 
6641694.618 +1.5954235337E+000 +6.8986647638E+001  +1.1177056097E-002 +5.4570210638E+001  +3.0806515581E-002 +1.1597903839E+002  +1.4061870827E+000 +3.1558000859E+000 
6766839.800 +1.9734596197E+000 +4.3546074059E+001  +4.1715512333E-003 +8.7260482244E+001  +7.6230260761E-003 -3.5815663573E+001  +1.3035795979E+000 -1.4089676005E+001 
6891984.981 +2.1318641398E+000 +2.7903978011E+001  +1.3273929253E-002 -1.0231112464E+002  +6.2346540145E-003 -2.4746537315E+001  +1.3371423151E+000 -6.0496462268E+000 
7017130.163 +1.7736061437E+000 +2.4203477194E+001  +4.8743205822E-003 +5.8857828294E+001  +1.6800614684E-002 +1.7117358421E+002  +1.2798410764E+000 -1.3708695685E+001 
7142275.344 +1.8624624556E+000 +1.7373549176E+001  +1.0507871691E-002 +1.2518575527E+001  +9.8001521384E-003 -1.6542169826E+002  +1.2959587882E+000 -1.5721048322E+001 
7267420.526 +1.4357885423E+000 +3.4036292207E+000  +7.4640369868E-003 +1.7978073063E+002  +5.2431797306E-003 -1.0327499121E+002  +1.2713323725E+000 -1.3262755926E+001 
7392565.707 +1.2241683119E+000 +1.0314946125E+000  +3.6451698987E-003 +9.4763962935E+001  +8.6392943423E-003 +6.2532285879E+001  +1.2581839621E+000 -1.0512070922E+001 
7517710.889 +1.2536454748E+000 -1.5509135961E+000  +9.1357309060E-003 +7.6380634796E+001  +6.5099657867E-003 +3.5789277189E+001  +1.3075500407E+000 -7.7530635172E+000 
7642856.070 +1.1177284593E+000 -2.6842520869E-001  +2.5919570389E-003 -1.6001182199E+002  +2.7815423563E-003 +1.4123903622E+002  +1.0528477596E+000 -3.4831498483E+000 
7768001.252 +1.0308646844E+000 +1.4851062629E+000  +2.2985614409E-003 +7.7666332028E+001  +1.3045991545E-003 +1.2136227667E+002  +1.0685649208E+000 -9.8152323272E-001 
7893146.433 +9.3853534905E-001 +3.0858153440E+000  +2.3624042903E-004 -1.0278046080E+002  +5.1371700604E-003 +1.0651163494E+002  +8.2814365294E-001 -1.9264669479E+000 
8018291.615 +9.0259923525E-001 +8.6350001082E+000  +3.5967711967E-003 +9.1296478108E+001  +4.5894963468E-003 -7.5795717208E+001  +8.5689330689E-001 -8.0066435160E+000 
8143436.796 +7.1782292317E-001 +3.7136048111E+000  +1.2581913845E-003 +1.2085163495E+002  +6.4911510043E-003 +7.4728612693E+001  +8.5293907999E-001 -4.1797508835E+000 
8268581.977 +7.1744813363E-001 +7.6912571376E+000  +1.7461360435E-003 +8.5372116856E+001  +1.5979329846E-003 -1.0825969165E+001  +7.8561588200E-001 +1.6278570222E+000 
8393727.159 +7.1325466565E-001 +9.9563583452E+000  +4.5863666984E-003 +1.2405309031E+002  +3.0712220637E-003 +7.9933694214E+001  +8.0725924620E-001 +1.0846494895E+000 
8518872.340 +7.9159842177E-001 +6.4822048308E+000  +2.2429193646E-003 +1.5466084989E+002  +6.3311220217E-003 +1.0108399694E+002  +6.8523003290E-001 -1.9803483839E+000 
8644017.522 +6.9182340728E-001 +8.7645674581E+000  +2.8801262840E-003 +7.6269847648E+001  +6.6823844953E-003 +4.3379447366E+001  +6.9935880171E-001 +5.0325560845E+000 
8769162.703 +6.2471523529E-001 +8.0224459988E+000  +6.4236910843E-003 +1.1536067747E+002  +4.9563649235E-003 +1.4252793426E+002  +7.1268316125E-001 -3.2313342659E+000 
8894307.885 +6.0892107811E-001 +8.2633487014E-001  +1.9477346402E-003 +1.0330564381E+002  +7.5972946399E-003 +1.2065352081E+002  +6.2239308031E-001 +1.3541288580E+000 
9019453.066 +6.0906459792E-001 +7.2952512589E+000  +8.3066426821E-004 -3.0071338379E+001  +2.1978419092E-003 +1.4838196391E+002  +6.2213009539E-001 -3.9150145625E+000 
9144598.248 +5.4912900312E-001 +6.4828033755E-002  +2.4539178760E-003 +8.3446691081E+001  +2.6945744874E-003 +7.1442476713E+001  +6.2095554575E-001 -9.4378308568E-001 
9269743.429 +5.4942453557E-001 +3.7277007951E+000  +5.8457291532E-003 +1.0604516351E+002  +5.2948010167E-003 +3.9332384600E+001  +6.0596962170E-001 -1.5093218963E+000 
9394888.611 +5.4950371533E-001 +2.2331411517E+000  +4.7153872805E-003 +9.1129071655E+001  +1.3041756512E-003 +9.7002378686E+001  +6.4736327020E-001 +1.3334750596E-001 
9520033.792 +5.7777892554E-001 +1.6484785039E+000  +6.4877334426E-003 +6.8559638209E+001  +5.2126501326E-003 +1.0876687937E+002  +6.0576839197E-001 -2.6362784387E+000 
9645178.974 +5.6315918421E-001 -1.8804721900E+000  +1.9145736000E-003 +7.4488842373E+001  +3.9410256322E-003 +9.9466272966E+001  +6.3194823014E-001 -5.3128430713E+000 
9770324.155 +5.3932241543E-001 -5.0218961680E+000  +4.0841694730E-003 +1.0767578617E+002  +6.3640190762E-003 +9.9241522185E+001  +5.9084778294E-001 -6.3370337904E+000 
9895469.337 +5.4798318204E-001 -1.0453832277E+000  +6.9131989794E-003 +5.1582297083E+001  +5.7352330102E-003 +1.0854907744E+002  +5.5407310035E-001 -1.0858356313E+001 
10020614.518 +5.7471430875E-001 +1.2091647662E+000  +5.6533946160E-003 +8.7575874047E+001  +3.3778096242E-003 +9.8400712622E+001  +5.9835167840E-001 -6.5727164804E+000 
10145759.700 +5.6967098746E-001 +5.6548450655E+000  +6.4364342186E-003 +7.7886005545E+001  +3.9951264036E-003 +9.7204844593E+001  +6.0615941001E-001 -5.6227937481E+000 
10270904.881 +5.2079181871E-001 +4.7808730094E+000  +3.0339946716E-003 +3.8899340315E+001  +5.9333431440E-003 +7.0197564458E+001  +5.6364944646E-001 -2.9545934775E+000 
10396050.063 +5.5277423286E-001 +3.3281805453E+000  +7.1089513814E-003 +8.7607391287E+001  +3.4383710340E-003 +1.0462731312E+002  +6.0309180728E-001 -4.7653327350E+000 
10521195.244 +5.3911638392E-001 +5.0218696607E+000  +2.6788128785E-003 +9.0336737619E+001  +2.0654903394E-003 +1.1689079452E+002  +6.2737108312E-001 -1.6596041491E+000 
10646340.426 +5.6912919120E-001 +7.6273010405E+000  +3.2804749857E-003 +7.6934919047E+001  +5.8490118249E-003 +1.0585025530E+002  +5.8698501087E-001 -1.1765720906E+000 
10771485.607 +6.0811714592E-001 +5.1347309831E+000  +6.1814329519E-003 +9.2813154144E+001  +5.7276086247E-003 +9.4296467145E+001  +5.9400901325E-001 -2.2716042575E+000 
10896630.788 +5.6596174219E-001 +4.5469518909E+000  +3.7970957884E-003 +8.2701782484E+001  +4.9727194622E-003 +9.4452596580E+001  +6.2250099534E-001 -7.7924403018E-002 
11021775.970 +5.9542693113E-001 +6.2657535446E+000  +4.7595833044E-003 +7.5660628285E+001  +4.2922622233E-003 +1.3199721492E+002  +5.9734517037E-001 -1.1969949260E+000 
11146921.151 +5.5517564874E-001 +4.5890400378E+000  +5.7244350595E-003 +7.8044910822E+001  +2.4875271373E-003 +1.0640319837E+002  +6.4342425620E-001 -8.9661108862E-001 
11272066.333 +6.1300026273E-001 +7.2771966513E+000  +5.2805041076E-003 +7.5267376812E+001  +3.6046820770E-003 +1.1511666302E+002  +5.8829446244E-001 +2.4517938812E+000 
11397211.514 +5.9560781742E-001 +4.1660054321E+000  +5.2159434655E-003 +9.2609735097E+001  +4.6161669530E-003 +9.5115163461E+001  +6.5874807875E-001 +3.7769892372E+000 
11522356.696 +6.1081752763E-001 +7.8581664394E+000  +3.4358694032E-003 +9.0931148329E+001  +4.6292803516E-003 +1.0918352757E+002  +6.6548749666E-001 -9.2959516404E-001 
11647501.877 +6.5771463464E-001 +4.9861849776E+000  +6.1894482571E-003 +9.2263189028E+001  +4.3278157265E-003 +1.0639548184E+002  +6.6518106951E-001 -1.4650377497E-001 
11772647.059 +6.6919667915E-001 +4.7519252078E+000  +5.6437186331E-003 +1.1030319095E+002  +6.1671935301E-003 +9.1560410245E+001  +6.5989743672E-001 +1.3739883737E-001 
11897792.240 +6.3162662577E-001 +3.0538173239E+000  +3.7202484899E-003 +9.8970419788E+001  +4.7940944178E-003 +9.7770385243E+001  +6.7567121795E-001 +1.4105299721E+000 
12022937.422 +6.7576383714E-001 +4.7170196817E+000  +3.9758309814E-003 +7.4256092088E+001  +5.1342443416E-003 +1.0415610805E+002  +6.7262464985E-001 -1.5639015616E-001 
12148082.603 +6.9083875439E-001 +3.2349588142E+000  +6.6183200154E-003 +7.2734041305E+001  +2.8594325446E-003 +6.2136699505E+001  +6.8528356512E-001 +3.3146533374E-001 
12273227.785 +7.1690614389E-001 +5.2515998706E-001  +6.8475705034E-003 +9.6812859845E+001  +7.6444610481E-003 +9.7771772991E+001  +6.7887928193E-001 -4.8398656238E-001 
12398372.966 +6.9856698191E-001 +1.1408251484E+000  +6.0753011286E-003 +8.2889646254E+001  +6.0447114033E-003 +9.7073718928E+001  +7.1904811674E-001 -5.8256291440E-001 
12523518.148 +7.1420450575E-001 +1.9287065975E+000  +6.6053217370E-003 +8.7558787813E+001  +5.5620703227E-003 +7.8445088907E+001  +7.2528967007E-001 -1.5435578734E+000 
12648663.329 +7.7294440995E-001 +2.0655993642E+000  +6.2286976472E-003 +8.7550260153E+001  +7.3525787344E-003 +9.4695590546E+001  +7.4698828669E-001 -1.3835849153E+000 
12773808.511 +7.3705566140E-001 +1.7135929963E+000  +5.6593212051E-003 +8.6127399413E+001  +6.7517835721E-003 +9.2728101115E+001  +7.7736716229E-001 +1.1141655877E+000 
12898953.692 +7.6971314793E-001 +1.6548211114E+000  +6.0333856289E-003 +7.9016819704E+001  +5.6560426059E-003 +9.9472562625E+001  +7.9795504553E-001 -1.7497366647E+000 
13024098.874 +7.6742867151E-001 -1.2409117395E+000  +4.9561884440E-003 +8.8697595006E+001  +6.3474566229E-003 +9.8789131642E+001  +7.8440036661E-001 -2.0524117192E+000 
13149244.055 +7.9332335140E-001 -4.9175786426E-001  +7.5700990452E-003 +7.5522950929E+001  +5.8630007515E-003 +9.9096036587E+001  +8.2172820167E-001 -2.1570186628E+000 
13274389.237 +8.0941730545E-001 -7.1520484564E-001  +6.3390369861E-003 +9.4436629712E+001  +5.4658253116E-003 +9.5432158755E+001  +8.5552003028E-001 -3.1597184448E+000 
13399534.418 +8.3226171438E-001 -4.2356964629E-001  +6.5140478267E-003 +8.8985177641E+001  +6.6844797153E-003 +1.0196337019E+002  +8.4877258106E-001 -2.6623865960E+000 
13524679.599 +8.6133146965E-001 -9.7706306116E-001  +6.3527255581E-003 +8.7295945085E+001  +8.7431648646E-003 +1.0445940701E+002  +8.6926171897E-001 -3.6648535060E+000 
13649824.781 +8.6821013784E-001 -2.7272724183E-001  +7.3946754799E-003 +8.1789463318E+001  +7.1744889887E-003 +8.2973301115E+001  +9.0148029877E-001 -3.0632015774E+000 
13774969.962 +8.9935242691E-001 -2.7575604293E+000  +6.0738756724E-003 +8.1176142832E+001  +6.4724115913E-003 +9.0874800018E+001  +9.0082580614E-001 -3.6974224191E+000 
13900115.144 +8.8317148002E-001 -3.3017540745E+000  +6.9659786791E-003 +8.6398750097E+001  +7.1246674587E-003 +8.8828172213E+001  +9.4350653650E-001 -5.4049387555E+000 
14025260.325 +9.3379728330E-001 -4.3338915255E+000  +7.6248162173E-003 +8.3606469678E+001  +7.9502280456E-003 +9.0243929607E+001  +9.3894350843E-001 -3.5288834976E+000 
14150405.507 +9.4212388290E-001 -3.7131038510E+000  +7.2477889790E-003 +9.6640349804E+001  +6.9760424506E-003 +8.2027510128E+001  +9.4204396982E-001 -3.8515419989E+000 
14275550.688 +9.7395763125E-001 -4.4356266688E+000  +7.8138912059E-003 +8.3596171970E+001  +6.9528949265E-003 +7.9718430343E+001  +9.5344074769E-001 -4.6731149033E+000 
14400695.870 +9.7754176708E-001 -3.4830929674E+000  +7.2689836186E-003 +8.5444901919E+001  +8.0341770447E-003 +9.5500873908E+001  +9.7857602738E-001 -3.6225857831E+000 
