!  2-Port S-parameters saved by WinCal
! VAR MeasName=S-Parameters (CALIBRATED_DATA) read from VNA (P5004A)
! VAR MeasDate=27/08/2024 14:12:15
! VAR NAME=S2_r2c8_RESET1_9k-100M_2
! VAR FILENAME=S2_r2c8_RESET1_9k-100M_2.S2P
! VAR DATE=27/08/2024 14:12:15
! VAR PHYS_PORTS=1,2
! VAR ObjTypeName=DATASET
! VAR IndexType=Frequency
!
# Hz S MA R 50
9000.000 +7.1002966148E-002 -1.4709388976E+002  +1.4223843568E-002 -9.2046856318E+001  +3.7805368143E-002 -3.9770978538E+001  +1.0368980196E-001 -4.1281471466E+001 
134145.181 +1.1094966238E-001 +1.6929226058E+002  +6.2662120406E-004 +1.3934678458E+002  +5.6965075677E-005 +6.2281525685E+001  +2.3946510455E-001 -1.7036678675E+002 
259290.363 +1.1192612992E-001 +1.6979083239E+002  +9.6354748563E-004 +1.4187566093E+002  +2.6800449283E-004 -1.0428881459E+001  +2.3547243053E-001 -1.6777554411E+002 
384435.544 +1.1325629572E-001 +1.7015391118E+002  +1.2546247435E-003 -5.1990443943E+001  +5.5845336239E-004 +1.1910159339E+002  +2.3492982534E-001 -1.6861465335E+002 
509580.726 +1.1382097692E-001 +1.6947540154E+002  +9.5978092854E-004 -1.3243730732E+002  +1.5114948063E-003 +1.6895555777E+002  +2.1624256184E-001 -1.6247070927E+002 
634725.907 +1.1503005872E-001 +1.7119155618E+002  +3.5104299055E-004 -1.2756866748E+002  +1.6238672870E-003 +9.0019180178E+001  +2.4437800329E-001 -1.6562924632E+002 
759871.089 +1.1880953697E-001 +1.7113457862E+002  +5.0162081335E-004 +1.6007056213E+002  +4.1370910751E-004 +5.9488756786E+001  +2.2538210666E-001 -1.6425948637E+002 
885016.270 +1.1841110613E-001 +1.6963073693E+002  +7.7112520353E-004 +6.2396140459E+001  +6.6893641569E-004 +1.0921244252E+002  +2.4654943344E-001 -1.6444230507E+002 
1010161.452 +1.1660562274E-001 +1.7076427165E+002  +1.3180391483E-003 -2.2398353495E+000  +4.0671881803E-003 +1.5827261638E+002  +1.7483523767E-001 -1.7115511104E+002 
1135306.633 +1.2041118563E-001 +1.7232431754E+002  +8.3580493631E-004 +2.2988264481E+001  +3.0902849626E-003 -6.4323427552E+001  +1.7948235459E-001 -1.6699813880E+002 
1260451.815 +1.2160334481E-001 +1.7060671814E+002  +6.5481749632E-004 -2.6073347821E+001  +7.7565203876E-004 +1.1919213682E+002  +2.4553648303E-001 -1.6072990237E+002 
1385596.996 +1.2625118534E-001 +1.7204394263E+002  +5.7000406519E-004 +6.1373024604E+001  +1.2748272726E-003 +1.5357895081E+002  +2.5795858794E-001 -1.6239324717E+002 
1510742.178 +1.2726066169E-001 +1.7179270333E+002  +2.2192447712E-004 +1.7925074891E+002  +5.9015325205E-004 +1.0764644568E+002  +2.6408230767E-001 -1.5579770348E+002 
1635887.359 +1.2609852137E-001 +1.7091956262E+002  +1.4013914006E-003 +2.4284120312E+001  +6.7283751650E-004 -3.3133195146E+001  +2.4383269922E-001 -1.5944814925E+002 
1761032.541 +1.3053774661E-001 +1.6983419774E+002  +3.8222882218E-004 +8.6694476964E+001  +5.0211782931E-004 +1.3522346875E+002  +2.2066025607E-001 -1.6249478025E+002 
1886177.722 +1.2971277784E-001 +1.6940775028E+002  +1.8456957077E-003 -6.4546376205E+001  +2.6826131194E-003 -1.3908911102E+002  +2.1218508527E-001 -1.6753960331E+002 
2011322.904 +1.3228556216E-001 +1.6772198073E+002  +2.1384198113E-003 -6.9784670338E+001  +2.3707871344E-003 +6.9783002713E+000  +1.5840428729E-001 -1.6672630607E+002 
2136468.085 +1.3151412119E-001 +1.6549440351E+002  +4.0815130807E-003 +1.4893880912E+002  +3.1724410543E-003 -4.6956652483E+001  +1.9830552011E-001 -1.7028480506E+002 
2261613.267 +1.2910069956E-001 +1.5792005720E+002  +4.9610827987E-003 -1.4307930766E+002  +9.2406998217E-003 -3.7065265954E+001  +1.9049181294E-001 +1.5706973926E+002 
2386758.448 +1.3350675693E-001 +1.6256832210E+002  +5.5042496028E-003 +8.6023109309E+001  +1.2758614199E-003 +5.1189839215E+001  +1.7948530830E-001 -1.7502351972E+002 
2511903.630 +1.3364600791E-001 +1.6298053206E+002  +6.1768008513E-003 +1.7085305574E+002  +6.6539950365E-003 +1.0952734467E+002  +3.5243377469E-001 +1.3660645904E+002 
2637048.811 +9.9070928224E-002 +1.6196445290E+002  +1.6835632894E-002 -8.8429424086E+001  +8.8556761635E-003 -7.0444578095E+001  +2.3887556087E-001 +1.2434114784E+002 
2762193.992 +8.5115209019E-002 +1.3537077051E+002  +4.9122797252E-002 +1.7740507156E+002  +5.0288325062E-002 +9.4303175091E+001  +1.3493881912E+000 +1.3033547304E+002 
2887339.174 +5.5597486704E-002 -1.3906074364E+002  +2.9350454064E-002 +4.7820216167E+001  +3.6921024705E-002 -1.6010591899E+001  +7.5725029990E-001 -1.2366045458E+002 
3012484.355 +1.2258533150E-001 +1.6097965536E+002  +1.1118479206E-002 -1.0943790489E+002  +5.1431790609E-003 -5.5014395292E+001  +2.4258613407E-001 -9.4604257093E+001 
3137629.537 +1.2620348249E-001 +1.6581686998E+002  +3.5099907589E-003 +1.2137768922E+002  +1.1406560862E-002 -1.2049958275E+002  +3.3112981601E-001 -1.0114448414E+002 
3262774.718 +1.1699836785E-001 +1.7648584147E+002  +4.1544601095E-003 +1.0443493884E+002  +1.8767889381E-002 +1.2298402439E+002  +2.8306436782E-001 -1.0209000545E+002 
3387919.900 +1.0771828998E-001 +1.6784810458E+002  +3.5714796562E-003 -2.3027958935E+001  +8.9461978592E-003 +1.6914035794E+002  +2.3275898870E-001 +4.0623972087E+001 
3513065.081 +1.4743190443E-001 +1.5079134511E+002  +6.5268489217E-003 +7.9901735070E+000  +8.5691149977E-003 -2.5863367039E+001  +1.4374087876E-001 -8.8097724560E+001 
3638210.263 +1.7262732308E-001 +1.5006775225E+002  +3.2467369257E-003 +9.3628702428E+001  +4.5924438789E-003 -6.0641326476E+001  +3.2825142700E-001 +1.1904910765E+002 
3763355.444 +1.5035946370E-001 +1.4301376413E+002  +1.6643364632E-002 +1.2519337115E+002  +9.0687181624E-003 +2.2997756300E+001  +3.0785505522E-001 +1.5284872896E+002 
3888500.626 +2.1030803928E-001 +1.3216683745E+002  +5.5788795682E-003 -5.6083987156E+001  +8.7307413405E-003 +2.7874680410E+001  +2.7030407769E-001 +1.6756971513E+002 
4013645.807 +1.8617682878E-001 +1.4901887918E+002  +1.2144717908E-002 +6.7320848484E+001  +7.4181766529E-003 -1.1426686876E+002  +1.0993197572E-001 +4.7919100200E+001 
4138790.989 +1.8455623108E-001 +1.3930613731E+002  +1.0349137695E-002 +2.6249169336E+001  +9.4671870090E-003 +5.6735477879E+000  +8.4953507287E-002 +1.1104920395E+002 
4263936.170 +2.3095902278E-001 +1.3868090688E+002  +5.7468701980E-003 +6.5631675782E+001  +6.3705589427E-003 -1.6033419548E+002  +5.1906636441E-001 +1.1637887785E+002 
4389081.352 +1.6760689306E-001 +1.3616777595E+002  +2.2176907409E-002 -3.3359455872E+001  +5.4294890735E-002 +7.0441915013E+001  +1.0959557666E+000 +3.7760014066E+001 
4514226.533 +3.1255401260E-001 +1.3419425470E+002  +3.6988231507E-002 +1.3862242720E+002  +2.1994528439E-002 +5.9730563072E+000  +1.0415042009E+000 +7.9896959695E+001 
4639371.715 +3.0692018678E-001 +1.3378262051E+002  +2.0582594582E-002 +1.1861256493E+002  +1.2048681533E-002 +7.8312866357E+001  +9.5974159394E-001 +9.6979962317E+001 
4764516.896 +4.0346279743E-001 +1.4435060130E+002  +1.7772227652E-002 -4.6704932284E+001  +7.4316710915E-003 +5.3197818796E+001  +2.4172198688E+000 -1.7830103236E+002 
4889662.078 +5.4323284011E-001 +1.3500528991E+002  +4.3006357891E-002 -1.5803253125E+002  +8.4041605756E-002 +1.4453648667E+001  +3.4835844823E+000 -1.1614981372E+002 
5014807.259 +3.9724159305E-001 +1.3451978888E+002  +2.4466941293E-002 -1.0149190771E+002  +3.1351766380E-002 -1.3724273231E+002  +4.4017148389E+000 +1.3131865095E+002 
5139952.441 +3.4551375804E-001 +1.2567319432E+002  +2.2103601104E-002 -1.3426804910E+002  +3.2814748421E-002 +1.0191863757E+002  +3.3500485587E+000 +1.2023447271E+002 
5265097.622 +3.8699637965E-001 +1.3074745471E+002  +5.4698772623E-002 +9.3133142947E+001  +1.8784804691E-002 +1.2426387966E+002  +2.9073893186E+000 +1.0505700549E+002 
5390242.804 +3.9999345295E-001 +1.2790223738E+002  +2.9495084111E-002 +1.1280972354E+002  +4.5408429900E-002 +4.4802860025E+001  +2.4132587833E+000 +8.3179985884E+001 
5515387.985 +3.9108466921E-001 +1.2329680838E+002  +3.0657505576E-002 +1.6982061124E+002  +1.7726181916E-002 +7.6909372589E+001  +1.9433614708E+000 +1.2693070491E+002 
5640533.166 +4.9601232648E-001 +1.2315661393E+002  +5.0101461269E-002 +1.2284357058E+002  +2.8095919187E-002 +7.6286181073E+001  +2.2009888930E+000 +8.9396252605E+001 
5765678.348 +5.6518770150E-001 +1.1866010256E+002  +4.0784997224E-002 +7.1123856298E+001  +2.3645347153E-002 +9.1996368408E+001  +1.3442688552E+000 +9.0696623174E+001 
5890823.529 +5.8303101023E-001 +1.2899724338E+002  +2.5162362640E-002 +1.6559303705E+002  +1.8821058721E-002 +1.6628670325E+002  +2.0622417015E+000 +7.9212053922E+001 
6015968.711 +6.2540788894E-001 +1.1519562972E+002  +4.0665860205E-002 +9.0547142315E+001  +2.4420526289E-002 +1.0533109211E+002  +2.1362120602E+000 +6.1693733878E+001 
6141113.892 +8.2550029112E-001 +1.0809250863E+002  +2.0317004041E-002 +4.4428872736E+001  +2.9557877930E-002 +1.0916922209E+001  +2.3162645569E+000 +2.9562936432E+001 
6266259.074 +8.1098362384E-001 +1.1322847130E+002  +8.9168908381E-003 +1.1119856060E+002  +1.6778758689E-002 +6.3700467998E+001  +1.2254893704E+000 +2.3528093438E+001 
6391404.255 +1.1018006784E+000 +9.3411631203E+001  +3.7194920344E-002 +6.7669536831E+001  +2.7010470771E-002 +4.2092760192E+001  +1.7448814609E+000 +6.3410435433E+000 
6516549.437 +1.1266364581E+000 +7.7111739600E+001  +5.5588889427E-002 +8.1540274263E+001  +1.8075075495E-002 -1.5925510763E+001  +1.2582115861E+000 +1.5036933114E+001 
6641694.618 +2.0149668202E+000 +7.0320573650E+001  +6.0316933991E-002 +8.4380829678E+001  +4.1628620780E-002 +3.4446941711E+001  +1.5050909538E+000 +1.0462402785E+001 
6766839.800 +1.6016450676E+000 +4.4371257991E+001  +5.0545121234E-002 +5.1803066065E+001  +3.1548575162E-002 +1.7137039526E+001  +1.5401003494E+000 +4.1757713553E-001 
6891984.981 +2.0250073381E+000 +4.5847262177E+001  +2.0723331723E-002 -7.3938559781E+000  +1.2385461013E-002 -6.1615580168E+001  +1.1957813703E+000 -7.2332018981E+000 
7017130.163 +1.9108441353E+000 +2.1544187568E+001  +1.3002240633E-002 +4.0604599353E+001  +2.1482212800E-002 -1.1208428241E+001  +1.3112396858E+000 -1.4097256056E+001 
7142275.344 +1.7044727657E+000 +4.9767312439E+000  +5.9846612476E-003 -1.5563268711E+001  +3.3838649774E-002 +3.9589226859E+001  +1.4252140982E+000 -1.5792487048E+001 
7267420.526 +1.2587849475E+000 +1.0719646452E-001  +2.6051388809E-002 +2.5634855670E+001  +1.1969986641E-002 +7.5392380151E+000  +1.1930983176E+000 -8.4290647820E+000 
7392565.707 +1.3523127565E+000 +1.5499696240E+000  +1.0975101627E-002 -3.1928866704E+001  +1.1221220967E-002 +9.8724163470E+000  +1.4130766708E+000 -1.2479373996E+001 
7517710.889 +1.2028313796E+000 -4.0242664416E+000  +1.2571450188E-002 +6.0972975495E+001  +1.3915497166E-002 +3.5763416258E+001  +1.1852439201E+000 -3.5062977002E+000 
7642856.070 +9.9984556064E-001 -8.6778242922E-001  +1.8355910788E-002 +2.7638059926E+001  +1.4202543314E-002 +6.0436359443E+000  +9.9393588690E-001 -1.7399939247E+001 
7768001.252 +9.0935848500E-001 +8.3515776983E-001  +1.0881270159E-002 +3.6776064082E+001  +1.7570721694E-002 +4.6725708941E+001  +9.0296687093E-001 -7.7215721179E+000 
7893146.433 +8.6016264047E-001 +4.4201001141E+000  +6.7229578167E-003 +4.4446343732E+001  +8.9851288390E-003 +1.6957182679E+001  +9.8423460674E-001 -5.3823528384E-001 
8018291.615 +8.2407473614E-001 +1.9111802253E+000  +5.5422268714E-003 +5.1087477864E+001  +1.2788371273E-002 +8.5727466899E+001  +8.4579061582E-001 +6.0654469751E+000 
8143436.796 +7.9504933409E-001 +2.8140178243E+000  +9.5458058712E-003 -6.9487647221E+000  +7.6947747885E-003 +1.2432541519E+000  +8.0211543051E-001 -2.6896393657E+000 
8268581.977 +7.4624850723E-001 +2.4950804950E+000  +1.3778226939E-002 +3.9487866120E+000  +1.3669390625E-002 +1.6234191088E+001  +7.7799766434E-001 +5.4100366331E-001 
8393727.159 +6.7974489811E-001 +6.7799869736E+000  +8.1470990384E-003 +2.5239702437E+001  +9.3402398167E-003 +3.1555647669E+001  +7.1133171118E-001 -1.1827760448E+000 
8518872.340 +7.6099110436E-001 +6.5310460552E+000  +9.4746937207E-003 +2.0123895159E+001  +6.2143653446E-003 +4.2744806820E+001  +6.7405325533E-001 -4.2291139476E-001 
8644017.522 +7.0396510920E-001 +6.1782759231E+000  +1.0494919459E-002 +1.5895529091E+001  +6.2827816328E-003 +5.3528044589E+001  +7.5610342267E-001 +3.8852162541E+000 
8769162.703 +6.5460270665E-001 +3.2856630782E+000  +1.2622963369E-002 +7.1288518233E+000  +7.6886916324E-003 +6.5067705944E+001  +6.6784391182E-001 +2.3931835239E+000 
8894307.885 +5.8622970089E-001 +2.9102078667E+000  +1.0505415856E-002 +2.4684717071E+001  +1.2928071971E-002 +4.0792305119E+001  +6.3287857774E-001 +3.4059270266E+000 
9019453.066 +6.0329120544E-001 +2.4023710208E+000  +7.8856157036E-003 +2.1916387992E+001  +1.0381826298E-002 +2.3759597643E+001  +5.5808035837E-001 -1.0923948770E+000 
9144598.248 +5.8844889723E-001 +3.9326477414E+000  +1.4533637843E-002 +1.0115232866E+001  +7.7850725229E-003 +1.6955060074E+001  +6.1051206162E-001 +1.1565672666E+000 
9269743.429 +5.8157199851E-001 +2.4613862445E+000  +9.7351571710E-003 +2.3860871970E+001  +5.7345681448E-003 +4.8107421423E+001  +6.2510941075E-001 -5.1542799381E+000 
9394888.611 +5.9772696733E-001 +7.2613331403E+000  +9.8778390277E-003 -1.5783152838E+000  +7.4145870849E-003 +4.6544868007E+000  +5.9383753014E-001 -5.2328367278E-001 
9520033.792 +5.5674018590E-001 -1.5884498065E+000  +8.5410373482E-003 +4.5711806274E+001  +1.1590172225E-002 +3.4890771271E+001  +5.6894863454E-001 -6.9247178950E-001 
9645178.974 +5.2426088827E-001 +7.7091803128E-001  +7.0549138441E-003 +4.7953686656E+001  +7.5189719287E-003 +7.8907472095E+000  +6.1005078341E-001 -3.5034381382E+000 
9770324.155 +5.4501168031E-001 +6.2653419131E-001  +6.5603250444E-003 +2.7373153353E+001  +9.0381875314E-003 +1.6755542585E+001  +5.5445820382E-001 -1.7938995260E+000 
9895469.337 +5.0166953769E-001 +1.7138732915E+000  +8.5676858073E-003 -1.6282675396E+000  +8.3809108700E-003 +4.3456393859E+001  +5.7108048309E-001 -9.7353413055E+000 
10020614.518 +5.5065017647E-001 -3.9602141691E+000  +9.4917912802E-003 +1.1402370576E+001  +8.7890492025E-003 +5.0441224321E+001  +5.9806565247E-001 -2.6703538060E+000 
10145759.700 +5.3096754656E-001 +1.2286836134E+000  +9.4535907531E-003 +3.3852028563E+001  +9.5759649508E-003 +3.4923680685E+001  +5.9862096674E-001 -3.5058526135E+000 
10270904.881 +5.5778578436E-001 +1.6235106842E+000  +9.0494727254E-003 +2.3945127997E+001  +9.5496968406E-003 +3.9231045020E+001  +5.8394459604E-001 -3.8934235888E+000 
10396050.063 +5.3921877788E-001 +6.2700987738E+000  +7.8529299359E-003 +9.8154946441E+000  +7.8426634463E-003 +2.8814392972E+001  +5.7750713571E-001 -1.6579096052E+000 
10521195.244 +5.5203899886E-001 +1.0440223576E+000  +7.0969217024E-003 +1.8744721148E+001  +1.2046712771E-002 +4.8022390170E+001  +5.9163032196E-001 +9.3361139876E-001 
10646340.426 +5.6089905747E-001 +3.7156227622E+000  +8.3396714899E-003 +2.6519848570E+001  +6.5930941312E-003 +3.8284162174E+001  +5.7794257317E-001 -1.2453694039E+000 
10771485.607 +5.6501045280E-001 +4.5433092848E+000  +8.9252688072E-003 +1.7803394551E+001  +1.0498590273E-002 +3.7716671545E+001  +5.9030777563E-001 +4.1441753943E-001 
10896630.788 +5.6375798622E-001 +1.3436008042E+000  +9.9863514994E-003 +1.4471395884E+001  +9.2347290211E-003 +3.2076062871E+001  +6.0317440584E-001 -3.3569656359E+000 
11021775.970 +5.6729290618E-001 +4.8463290574E+000  +1.0125121156E-002 +3.7618304762E+001  +8.6867135561E-003 +2.2321863483E+001  +5.9547891931E-001 -2.3385578056E+000 
11146921.151 +6.3147029867E-001 +6.1512896911E+000  +1.2730095718E-002 +2.2199715580E+001  +9.5208762665E-003 +3.6031805085E+001  +5.9987954045E-001 +2.1662830773E+000 
11272066.333 +6.0026592944E-001 +6.0755787992E+000  +1.0136287472E-002 +2.7099766263E+001  +1.1234101048E-002 +3.0566741637E+001  +5.9319442427E-001 +7.0668488930E-001 
11397211.514 +5.9627981667E-001 +6.2690885055E+000  +1.1733389037E-002 +3.2383221567E+001  +1.1234382445E-002 +3.7924336284E+001  +6.2445643260E-001 +1.1465154281E+000 
11522356.696 +6.0722692278E-001 +5.3135163942E+000  +1.1003219150E-002 +3.3817857397E+001  +8.6640625778E-003 +5.2380221029E+001  +6.1440484686E-001 +3.5765339697E-001 
11647501.877 +6.0239456975E-001 +4.1463682380E+000  +1.0654343871E-002 +2.7600647573E+001  +9.4205558695E-003 +5.4200531499E+001  +6.3478488356E-001 +2.4092724365E+000 
11772647.059 +6.1811212141E-001 +2.1020920319E+000  +9.5791471972E-003 +3.2911096131E+001  +9.3416906602E-003 +4.9110561182E+001  +6.5197283980E-001 +2.1296574286E+000 
11897792.240 +6.6256359092E-001 +4.5530743365E+000  +9.9699076690E-003 +3.4086444878E+001  +1.0314281341E-002 +5.1569757072E+001  +6.7796442146E-001 +7.3013780103E-001 
12022937.422 +6.7429583442E-001 +4.0796855918E+000  +1.0843127372E-002 +3.6504035836E+001  +9.9103459301E-003 +4.5957940645E+001  +6.7678583358E-001 -8.1796457113E-003 
12148082.603 +6.6141549163E-001 +6.0924335248E+000  +1.1466045464E-002 +2.3359829195E+001  +1.0472650037E-002 +4.8454552558E+001  +7.0052032218E-001 -1.7519389925E+000 
12273227.785 +6.7893358424E-001 +4.4636905397E+000  +9.6741978375E-003 +3.9416249038E+001  +1.0814630229E-002 +4.8292110524E+001  +6.8862060023E-001 +1.6085308818E+000 
12398372.966 +7.0661715819E-001 +3.7195109577E+000  +1.2016218039E-002 +3.9958803044E+001  +1.1816341193E-002 +4.2131518539E+001  +7.1396207751E-001 -3.9314966174E-001 
12523518.148 +7.0266144124E-001 +3.6217208447E+000  +9.6531565092E-003 +3.9387765426E+001  +1.1831702717E-002 +4.6838193288E+001  +7.4989443393E-001 -1.5357013055E+000 
12648663.329 +7.0077988585E-001 +2.7209838087E+000  +1.0078320225E-002 +3.0124960403E+001  +9.2921614744E-003 +4.0621466250E+001  +7.3336421348E-001 +1.2613751809E-001 
12773808.511 +7.5331225552E-001 -3.2747129399E-001  +1.1506982369E-002 +3.3266972423E+001  +1.0216696125E-002 +3.1687064300E+001  +7.5883200749E-001 -6.0062015130E-001 
12898953.692 +7.5339546714E-001 +4.3091983576E-001  +1.2173166618E-002 +3.5124040924E+001  +1.0657348955E-002 +4.4885965541E+001  +7.8763516472E-001 -1.3186044735E+000 
13024098.874 +7.5763519238E-001 +2.0535391493E+000  +1.3527084170E-002 +3.2401089812E+001  +1.0902014130E-002 +4.6348691027E+001  +8.1366109574E-001 -1.7526118117E+000 
13149244.055 +7.9169525134E-001 -8.8744884226E-001  +1.1554669193E-002 +2.7598444242E+001  +1.2031252214E-002 +2.5219117173E+001  +7.7775836178E-001 -2.7830293426E+000 
13274389.237 +8.1060275081E-001 -5.1690484868E-001  +1.2859592834E-002 +3.8983870858E+001  +1.1810640094E-002 +4.3994809313E+001  +7.8859277669E-001 -1.9168392703E+000 
13399534.418 +8.3817183731E-001 -6.1760888993E-001  +1.1419727417E-002 +3.7013748446E+001  +1.1504518739E-002 +3.3257925515E+001  +8.5995543646E-001 -1.6213316074E+000 
13524679.599 +8.4663558503E-001 -1.8132010566E+000  +1.2295749842E-002 +4.3565545345E+001  +1.2107652137E-002 +3.4057772408E+001  +8.5556746836E-001 -3.0862055181E+000 
13649824.781 +8.5791835389E-001 -2.0139142338E+000  +1.2034179464E-002 +4.0054480895E+001  +1.2144694710E-002 +3.0321705427E+001  +8.6310451578E-001 -2.0525696980E+000 
13774969.962 +8.7612382229E-001 -1.6440286869E+000  +1.2079584000E-002 +3.9433237021E+001  +1.0484625891E-002 +4.1670761492E+001  +8.9025800239E-001 -1.8951574528E+000 
13900115.144 +8.9645365721E-001 -3.2163195523E+000  +1.2243915567E-002 +3.7706049368E+001  +1.1245073780E-002 +4.1512012319E+001  +9.1540122039E-001 -3.7589786228E+000 
14025260.325 +9.1996279437E-001 -2.1879817924E+000  +1.3667249993E-002 +3.9042341995E+001  +1.1046517024E-002 +3.5157778707E+001  +9.3008600007E-001 -3.7895295850E+000 
14150405.507 +9.2786032810E-001 -3.6638776563E+000  +1.3607162031E-002 +3.7535336125E+001  +1.1820414344E-002 +4.9045639552E+001  +9.2945099728E-001 -4.3827698030E+000 
14275550.688 +9.3386118578E-001 -4.1282929393E+000  +1.2521678036E-002 +2.8064851120E+001  +1.1397553304E-002 +3.9570596280E+001  +9.6575941031E-001 -4.2817396954E+000 
14400695.870 +9.3657289694E-001 -6.0258932904E+000  +1.3661727443E-002 +3.6922337787E+001  +1.4472455406E-002 +3.4658208718E+001  +9.8764309748E-001 -3.5043795876E+000 
