!  2-Port S-parameters saved by WinCal
! VAR MeasName=S-Parameters (CALIBRATED_DATA) read from VNA (P5004A)
! VAR MeasDate=27/08/2024 17:15:32
! VAR NAME=S2_r3c9_SET2_9k-100M_3
! VAR FILENAME=S2_r3c9_SET2_9k-100M_3.S2P
! VAR DATE=27/08/2024 17:15:32
! VAR PHYS_PORTS=1,2
! VAR ObjTypeName=DATASET
! VAR IndexType=Frequency
!
# Hz S MA R 50
9000.000 +1.0026570775E-001 -1.6072696100E+002  +1.0254015078E-002 +8.8110602129E+001  +2.2603898277E-002 -4.2289876333E+001  +3.9153756887E-001 -1.4059670788E+002 
134145.181 +1.1122886483E-001 +1.6963296507E+002  +4.9944689115E-004 -1.4116743829E+002  +1.2273981590E-004 +1.5224015655E+002  +2.4155210943E-001 -1.7117973035E+002 
259290.363 +1.1134325160E-001 +1.7010146117E+002  +5.9956184036E-004 +5.5826919300E+001  +1.2159084170E-003 +1.2770446313E+002  +2.3721712832E-001 -1.7016576350E+002 
384435.544 +1.1380352316E-001 +1.6943310293E+002  +5.5524291644E-004 +1.0431161529E+001  +6.4428481986E-004 +1.5413067945E+001  +2.4125328558E-001 -1.6902674455E+002 
509580.726 +1.1439192998E-001 +1.6969173661E+002  +4.3973671626E-004 +1.1861478570E+001  +3.7275008068E-004 +2.1375429275E+001  +2.4972120733E-001 -1.6852424657E+002 
634725.907 +1.1582808559E-001 +1.7084284779E+002  +3.7607528727E-004 -2.6920843286E+001  +3.6492421221E-004 +9.1949102689E+001  +2.4743880609E-001 -1.6650374888E+002 
759871.089 +1.1762524168E-001 +1.7074101326E+002  +7.4645711207E-004 -2.5648714511E+001  +4.1541624705E-004 -5.6142601157E+001  +2.2921918644E-001 -1.6205345814E+002 
885016.270 +1.1776795140E-001 +1.6952465785E+002  +3.9527718917E-004 -3.8041403982E+001  +4.3038489687E-004 +1.3908478857E+002  +2.2895728352E-001 -1.6552609083E+002 
1010161.452 +1.2045688111E-001 +1.7217595864E+002  +9.2383343878E-004 -2.6359300620E+001  +1.0281601435E-003 +9.9473438068E+001  +1.8617870877E-001 -1.6587325121E+002 
1135306.633 +1.1683942354E-001 +1.6913809236E+002  +3.7029318034E-004 +9.8534591559E+001  +1.2066304674E-003 -1.6362350228E+001  +1.9147515266E-001 -1.6492610184E+002 
1260451.815 +1.1679140812E-001 +1.7165905149E+002  +1.9731207154E-003 -9.4828587808E+000  +9.2282440027E-004 -1.4610740063E+000  +2.2610288817E-001 -1.6114821915E+002 
1385596.996 +1.2440130704E-001 +1.7176269775E+002  +5.8779168917E-004 +1.5076040018E+002  +7.5313338553E-004 -1.6217322030E+002  +2.6668606937E-001 -1.6165263856E+002 
1510742.178 +1.2611872874E-001 +1.7014923494E+002  +3.8493988793E-004 +1.4962211929E+002  +3.1770855747E-004 -1.6584554557E+002  +2.5824594807E-001 -1.5965211548E+002 
1635887.359 +1.2772646900E-001 +1.6900048335E+002  +5.1446735087E-004 -9.5781433319E+001  +7.5668452933E-004 +1.0145404999E+002  +2.3869190000E-001 -1.5829494566E+002 
1761032.541 +1.2958606913E-001 +1.6915791627E+002  +1.3874453265E-003 -3.0790455354E+001  +5.9133104853E-004 +1.0214737497E+002  +2.2792447939E-001 -1.6315695533E+002 
1886177.722 +1.3007652830E-001 +1.6721833363E+002  +2.6660570487E-003 -6.8470429909E+001  +9.1532712420E-004 -3.5225921004E+001  +2.0467283807E-001 -1.6040960456E+002 
2011322.904 +1.2784430628E-001 +1.6616278187E+002  +1.8014944265E-003 -1.4166130498E+002  +1.8421004260E-003 -1.7426605431E+002  +1.9199076068E-001 -1.7563219042E+002 
2136468.085 +1.3231878839E-001 +1.6749029342E+002  +4.1552827542E-003 +1.4088367901E+002  +2.4648421960E-003 -1.7099756933E+002  +1.7690984752E-001 +1.5239919916E+002 
2261613.267 +1.3054376513E-001 +1.6748150433E+002  +3.3275307991E-003 -2.7621140698E+001  +8.0514062165E-003 -4.0045752303E+001  +1.0872701408E-001 -1.7332348117E+002 
2386758.448 +1.3266810784E-001 +1.6460075141E+002  +2.6343965236E-003 +8.8579348233E+001  +2.8905951683E-003 -8.2766508992E+001  +1.9162392084E-001 +1.7290119169E+002 
2511903.630 +1.3517733018E-001 +1.6357735811E+002  +1.6079366060E-003 +1.2459035127E+002  +4.6330618212E-003 -3.1224804820E+001  +2.4544480241E-001 +1.7101379463E+002 
2637048.811 +1.3295262643E-001 +1.6493711465E+002  +2.5373535863E-002 +1.2244822391E+002  +1.1644675748E-002 +8.1200736535E+001  +9.9957708056E-001 +1.6561186888E+002 
2762193.992 +1.2373022252E-001 +1.6175147264E+002  +1.5542108859E-002 +4.4074453848E+001  +6.4980394606E-003 -1.0912386120E+002  +4.6797214195E-001 -1.0624129622E+002 
2887339.174 +1.1701741165E-001 +1.7731353108E+002  +1.8020084322E-003 -1.7755370996E+002  +7.6661130241E-003 +5.0591607528E+001  +8.7227505989E-001 -1.6933432674E+002 
3012484.355 +1.2081629004E-001 +1.7914039273E+002  +1.2654998523E-002 -8.5778191657E+001  +1.7088654924E-003 -1.6027755558E+002  +3.8230872737E-001 -1.2186851912E+002 
3137629.537 +1.2585134294E-001 +1.7166308777E+002  +2.5125958734E-002 +1.1238534852E+002  +3.3435659877E-002 -7.9366555994E+000  +9.1211393416E-001 +1.3319141159E+002 
3262774.718 +1.3193263664E-001 +1.6128296967E+002  +2.6455482167E-002 -2.3810669408E+000  +1.0559047563E-002 -7.8218252233E+001  +5.7949671035E-001 -8.0537868364E-001 
3387919.900 +1.3093747591E-001 +1.5970116946E+002  +2.1863646588E-002 +1.1794514100E+001  +1.4572805912E-002 -9.0241678471E+001  +4.4010724723E-001 -6.1013846942E+001 
3513065.081 +1.4172126662E-001 +1.5484944216E+002  +1.7347586030E-002 +8.7953500453E+001  +1.2311207231E-002 +2.7360842418E+001  +4.5263545011E-001 +1.4383329146E+002 
3638210.263 +1.5799022736E-001 +1.4853529161E+002  +1.8773876188E-002 +1.2081852333E+002  +1.5536691908E-002 -2.5182959330E+001  +6.4262626899E-001 +1.2399705169E+002 
3763355.444 +1.8857390161E-001 +1.5267245585E+002  +1.1109334589E-003 -1.6671919978E+002  +1.0450621971E-002 +1.3266312060E+002  +9.4502119566E-001 +1.5573781329E+002 
3888500.626 +1.9844255574E-001 +1.5091844097E+002  +1.0546389006E-002 +1.2088534544E+002  +1.0669933017E-002 +8.2538442131E+001  +1.0573301760E+000 +1.5250222795E+002 
4013645.807 +1.8287962118E-001 +1.5136041223E+002  +8.2278938328E-003 +1.2078984797E+002  +1.1026517407E-002 -1.6420618938E+002  +4.8165692014E-001 +6.7545999612E+001 
4138790.989 +1.9371007085E-001 +1.4818640747E+002  +1.2128548680E-002 +1.0235165053E+002  +1.4442259079E-002 +1.6057334705E+001  +3.0497515498E-001 +1.3652658457E+002 
4263936.170 +1.9401173821E-001 +1.3984113227E+002  +2.5359982592E-002 +7.1006161793E+001  +1.8528581402E-002 +3.8386974286E+001  +5.1679582667E-001 +8.3319623463E+001 
4389081.352 +2.0591688646E-001 +1.4079821336E+002  +2.3315494175E-002 +9.4567037135E+001  +3.4649807357E-002 +3.8898320992E+001  +8.9877579368E-001 +1.2636149250E+002 
4514226.533 +2.2797372762E-001 +1.4447840460E+002  +2.7857426558E-002 +1.0375787181E+002  +2.5025531687E-002 +6.4277810949E+001  +1.4617575716E+000 +1.0010606061E+002 
4639371.715 +2.8014867173E-001 +1.1137705942E+002  +4.3848775742E-002 +1.1032397470E+002  +4.6930632073E-002 +6.7381831129E+001  +9.7887664580E-001 +9.3889328579E+001 
4764516.896 +2.9494806338E-001 +1.3370948407E+002  +3.0134590755E-002 +8.9205622782E+000  +2.5243862212E-002 -5.2662401232E+001  +1.4922501175E+000 -6.1083917639E+001 
4889662.078 +4.6891545454E-001 +1.1997354315E+002  +5.8585956889E-001 -6.3259485997E+001  +4.1741950064E-001 -7.8751245224E+001  +9.7111688186E+000 -1.0682276814E+002 
5014807.259 +4.9273663104E-001 +1.2435538868E+002  +8.3236373918E-002 -9.3587727787E+001  +2.6491631005E-001 -7.0587324437E+001  +7.2225799996E+000 -8.9696793557E+001 
5139952.441 +3.5766679823E-001 +1.3590433836E+002  +5.2356965324E-002 +3.5387230396E+001  +2.8755757039E-002 +1.5609332741E+001  +1.5442397514E+000 +3.3218101450E+000 
5265097.622 +3.4009050840E-001 +1.2752197802E+002  +2.2396771188E-002 +1.5542974322E+002  +1.7055526796E-002 +1.0122814995E+002  +9.3760422750E-001 +1.0265019257E+002 
5390242.804 +4.0303314175E-001 +1.3472443063E+002  +3.0084434804E-002 +1.0726480921E+002  +2.6516159069E-002 +6.2019594151E+001  +1.5173538517E+000 +7.2562117733E+001 
5515387.985 +4.2382558529E-001 +1.3200882070E+002  +4.4470159378E-002 +1.2575704705E+002  +4.7614060813E-002 +7.9254823167E+001  +1.9047352142E+000 +1.0157852362E+002 
5640533.166 +3.9062014330E-001 +1.3473953044E+002  +3.5548327249E-002 +6.9786835200E+001  +4.8439772182E-002 +5.3198015060E+001  +1.7196950381E+000 +3.0507573588E+001 
5765678.348 +5.1546845216E-001 +1.2648566350E+002  +5.1930706236E-002 +7.5947988204E+001  +5.0928477083E-002 +8.8452053418E+001  +2.2756418938E+000 +1.2206006008E+002 
5890823.529 +5.7701677967E-001 +1.2056897233E+002  +9.0280739187E-002 +8.6510663468E+001  +1.4573034453E-001 +7.8830803295E+001  +4.3401224669E+000 +8.0682580770E+001 
6015968.711 +6.5271202358E-001 +1.1947586029E+002  +6.0094359470E-002 +8.6503995241E+001  +4.9989997897E-002 +5.1511677742E+001  +2.2815696186E+000 +4.4537577684E+001 
6141113.892 +7.1844258550E-001 +1.1450517647E+002  +6.5512912016E-002 +6.9842271374E+001  +4.9715260991E-002 +4.3017031457E+001  +1.6447256185E+000 +2.5592040192E+001 
6266259.074 +9.3855086143E-001 +1.1058253260E+002  +5.7903655746E-002 +6.7735363625E+001  +4.4548996903E-002 +8.4657997613E+001  +1.1215699326E+000 +2.5922128998E+001 
6391404.255 +1.1511760669E+000 +8.3373256167E+001  +9.6894528072E-002 +3.9494884464E+001  +7.6342100922E-002 +8.3619307206E+000  +1.4994673349E+000 +1.8036186841E+000 
6516549.437 +1.3766281675E+000 +9.9494836094E+001  +6.8302878348E-002 +6.1864747782E+001  +6.3790714461E-002 +3.8725209365E+001  +1.4402265430E+000 +4.4845407920E+000 
6641694.618 +1.8976602077E+000 +6.1702375258E+001  +7.0283581231E-002 +4.6149112420E+001  +9.0017752776E-002 +8.2750969167E+000  +1.4268881543E+000 -4.2201957103E+000 
6766839.800 +1.8446389827E+000 +7.4099538627E+001  +4.0254061563E-002 +4.2760943189E+001  +5.9038309618E-002 +2.9661968159E+001  +1.3086049459E+000 -1.6204329573E+000 
6891984.981 +1.6941156088E+000 +2.6038053838E+001  +4.1711655497E-002 +3.2802744009E+001  +6.1186779774E-002 -2.0580678705E+001  +1.0547144686E+000 -6.7453043879E+000 
7017130.163 +1.5812432988E+000 +3.1047862051E+001  +4.2714748848E-002 +6.4079083713E-001  +5.7654065509E-002 -1.3436343176E+000  +1.2352488521E+000 -1.1370643860E+001 
7142275.344 +1.6628008425E+000 +1.5003791993E+001  +3.7852233779E-002 +9.9207806241E+000  +3.4048275242E-002 +2.1930519800E+000  +1.1571752304E+000 -6.9126282686E+000 
7267420.526 +1.6128387791E+000 -1.7750613457E+000  +4.8187809308E-002 -2.8895667470E+000  +3.7344517812E-002 +5.8900703638E+000  +1.2766046099E+000 -9.2176433529E+000 
7392565.707 +1.3137480292E+000 -5.2590052992E-001  +3.1239377436E-002 +2.2028573358E+001  +2.3041221191E-002 +1.4556233844E+001  +1.2865648192E+000 -9.7773567365E+000 
7517710.889 +1.1992127537E+000 +2.0529249899E+000  +3.3200008798E-002 +2.1148066051E+001  +2.0005848986E-002 -1.0332389258E+000  +1.2251381804E+000 -4.0299535756E+000 
7642856.070 +8.9254565343E-001 -6.0984309256E-001  +3.1960734713E-002 +3.2332181074E+000  +1.9175959392E-002 +1.6166707216E+001  +1.1098099316E+000 +1.9433341463E+000 
7768001.252 +8.5520528334E-001 +2.3426869907E+000  +2.7618493051E-002 +5.0655955372E+000  +2.5599864393E-002 +1.8025641401E+001  +9.3101917597E-001 -1.8552454012E+000 
7893146.433 +8.6585661938E-001 +9.3474468816E+000  +2.2956563261E-002 -2.7605785019E-001  +1.9190263861E-002 +2.4453745714E+001  +9.9187005798E-001 -1.9478276060E+000 
8018291.615 +8.3034559945E-001 +3.8906417340E+000  +1.9868734326E-002 +4.9526652651E+000  +2.6296067141E-002 +1.7012653026E+001  +8.8625757264E-001 +3.4394604296E+000 
8143436.796 +8.0193708103E-001 +1.3606614437E+001  +2.0467838849E-002 +7.8411984250E+000  +1.7258568573E-002 +8.1742874494E+000  +7.7395577130E-001 +1.8892294834E+000 
8268581.977 +6.8452959493E-001 +8.7582156912E+000  +1.8378928854E-002 +1.4930417729E+001  +2.3732846838E-002 +2.0252852494E+001  +7.5731285364E-001 +7.9806157763E-002 
8393727.159 +7.1234855675E-001 +7.5926576725E+000  +2.4313635280E-002 +8.3059025465E-001  +2.3835865050E-002 +3.0309460199E+001  +6.7154776882E-001 +2.9568728010E+000 
8518872.340 +6.7050313806E-001 +8.6492664515E+000  +2.5991001095E-002 +2.8871982089E+000  +2.3461636425E-002 +1.7662397767E+001  +7.0762768981E-001 +3.2872830274E+000 
8644017.522 +6.2648044995E-001 +9.6741393255E+000  +1.8808618932E-002 +9.0165145410E+000  +2.1134179792E-002 +1.7212770139E+001  +6.8058189270E-001 +3.0209319762E+000 
8769162.703 +5.8927988629E-001 +1.2069879765E-001  +1.8885213994E-002 +6.3271151096E+000  +2.0259771891E-002 +5.3319680295E+000  +5.9259788683E-001 -4.4008104707E+000 
8894307.885 +5.9104271476E-001 +5.3596030528E+000  +2.1050900309E-002 -6.1474609180E+000  +2.1528827574E-002 +2.2814091175E+001  +6.1282023758E-001 +2.5281862002E+000 
9019453.066 +6.1291977298E-001 +6.3141201682E+000  +2.2370129697E-002 +8.2004272808E+000  +2.1197638951E-002 +1.7176196178E+001  +5.4072940332E-001 -1.5822553774E+000 
9144598.248 +5.9294820277E-001 +3.4875256245E+000  +2.0568995638E-002 +1.1374380388E+001  +2.4077211169E-002 +1.1853433439E+001  +5.7477864733E-001 -2.7443341662E+000 
9269743.429 +6.1774135211E-001 +7.9095013996E+000  +1.8215766333E-002 +1.8734473562E+001  +1.7840942680E-002 +1.6416938504E+001  +5.9413007847E-001 +1.0041108005E+000 
9394888.611 +4.9790932889E-001 +3.8412617419E+000  +2.1263891651E-002 +6.4117717502E+000  +2.3330745789E-002 +2.8180027859E+001  +5.9231886057E-001 -8.5153173121E+000 
9520033.792 +5.3410380037E-001 +1.7919557113E-001  +1.8791537805E-002 +5.0851445256E+000  +1.9444585670E-002 +2.2834812618E+001  +5.4257440008E-001 -6.4955074818E+000 
9645178.974 +5.1432541069E-001 -6.1092009949E-001  +2.2541559331E-002 +8.0948488067E+000  +1.9996695206E-002 +3.0246264903E+001  +6.3564726833E-001 -6.3710238465E+000 
9770324.155 +5.5790721236E-001 +3.6381815106E+000  +1.9715402363E-002 +2.1171172789E+000  +2.3229502562E-002 +1.5393272910E+001  +5.7911119011E-001 -1.1672369976E+001 
9895469.337 +5.3953027186E-001 +1.8155272831E+000  +2.1281618021E-002 +2.7721671584E+000  +2.1914805948E-002 +1.6087651233E+001  +5.5793595940E-001 -8.9749014380E+000 
10020614.518 +5.3466772527E-001 +6.2179935674E+000  +2.1660405063E-002 -4.5058102514E+000  +1.5311527574E-002 +1.7457499869E+001  +5.2591198550E-001 -5.4327244967E+000 
10145759.700 +5.3469534288E-001 +2.2479130382E+000  +1.8320163543E-002 +4.6890897281E+000  +2.4162225802E-002 +3.2547800889E+001  +5.7707122373E-001 -3.9904493548E+000 
10270904.881 +5.1276322160E-001 -5.6503872231E-001  +1.8352942850E-002 +4.6905373544E+000  +2.1378049395E-002 +2.0328981149E+001  +5.6113997651E-001 -7.7529691437E+000 
10396050.063 +5.3675133970E-001 +6.0257396256E+000  +2.0937232329E-002 +4.7191370695E+000  +2.3162002235E-002 +2.8606524607E+001  +5.3902837634E-001 -5.2212964334E-001 
10521195.244 +5.9248180115E-001 +3.5121292421E+000  +2.3107674076E-002 +5.8399868976E+000  +2.0714624958E-002 +2.5974263209E+001  +5.5202547090E-001 -1.5803062525E+000 
10646340.426 +5.0986263271E-001 +5.6793594251E+000  +2.0879716332E-002 +1.0709983010E+001  +2.2578599751E-002 +2.1828751830E+001  +5.1320092116E-001 -2.1677557584E+000 
10771485.607 +5.5305818787E-001 +5.5710569430E+000  +2.2852286364E-002 +1.7176851848E+001  +2.1582005796E-002 +3.0533437464E+001  +5.8084584056E-001 -8.4514399523E-001 
10896630.788 +5.4072255976E-001 +6.2752061180E+000  +2.0147422876E-002 +5.8115802680E+000  +1.8058693728E-002 +2.3535399899E+001  +5.4512781077E-001 +1.5549976731E+000 
11021775.970 +5.7502286342E-001 +9.7041622879E+000  +2.1666449495E-002 +6.4430457341E+000  +2.0057643899E-002 +2.3714140813E+001  +5.9886948198E-001 +9.4364676454E-001 
11146921.151 +5.7474602775E-001 +6.2880723964E+000  +2.1641214642E-002 +1.2833289021E+001  +2.2007715830E-002 +2.9577830247E+001  +5.8326073609E-001 +1.3661069913E+000 
11272066.333 +5.5946892438E-001 +6.4647637318E+000  +2.2053402839E-002 +1.3113238729E+001  +2.2005976959E-002 +2.1328764080E+001  +6.1740802995E-001 -5.7293759147E-001 
11397211.514 +5.8319087333E-001 +8.4374907889E+000  +2.0396244256E-002 +8.8601034798E+000  +2.4347097666E-002 +2.7806416351E+001  +6.0776673787E-001 -2.3234429300E-001 
11522356.696 +5.9609723479E-001 +5.8393693867E+000  +2.2498157415E-002 +1.1735661118E+001  +2.1901220566E-002 +2.2543330947E+001  +6.2465254091E-001 +9.4804593278E-001 
11647501.877 +6.2210666013E-001 +7.2733968352E+000  +2.3731387326E-002 +1.4857977480E+001  +2.1691522958E-002 +2.7514380691E+001  +6.5674419062E-001 +2.5081083446E+000 
11772647.059 +6.0412302369E-001 +4.1792890821E+000  +2.0685479937E-002 +1.6212010020E+001  +2.2613045506E-002 +2.4002441931E+001  +6.4036337762E-001 +1.5703046457E+000 
11897792.240 +6.4315600888E-001 +4.9724276720E+000  +2.2649888428E-002 +1.2971242441E+001  +2.3954335951E-002 +2.2004975964E+001  +6.7630232425E-001 +4.1120662233E+000 
12022937.422 +6.4036689984E-001 +5.4120818020E+000  +2.3664380268E-002 +1.9146954398E+001  +2.4142454619E-002 +2.3556381282E+001  +6.7335344997E-001 +1.3277665096E+000 
12148082.603 +6.5166706532E-001 +5.7800571285E+000  +2.2009473781E-002 +1.3136317226E+001  +2.4367773788E-002 +2.5761194187E+001  +6.7329062836E-001 +6.3342970523E-001 
12273227.785 +6.8321189601E-001 +2.7104703289E+000  +2.3763559595E-002 +1.5782745338E+001  +2.3503618815E-002 +2.2873595900E+001  +6.6364580440E-001 +1.7630859140E+000 
12398372.966 +6.7786897876E-001 +3.7477143240E+000  +2.3625916641E-002 +2.0222577262E+001  +2.3320151821E-002 +2.4004320017E+001  +7.1685332760E-001 -6.3349488626E-001 
12523518.148 +7.2497975840E-001 +1.0803121389E+000  +2.4135253048E-002 +1.6648414503E+001  +2.4281958142E-002 +2.0642098490E+001  +7.2817877217E-001 -1.0587047701E+000 
12648663.329 +7.3408892000E-001 +2.7805811246E+000  +2.6055587919E-002 +1.3349410924E+001  +2.5593159193E-002 +2.3316249009E+001  +7.2410749094E-001 +5.7029271322E-001 
12773808.511 +7.1939255814E-001 +1.3450006415E+000  +2.6342946752E-002 +1.7512359496E+001  +2.4590316012E-002 +2.0003081923E+001  +7.6842843184E-001 +8.6763069603E-002 
12898953.692 +7.4083562054E-001 +1.2279177383E+000  +2.5939634846E-002 +1.7650432875E+001  +2.4387140127E-002 +2.0623592753E+001  +7.5954243394E-001 -6.6390789900E-001 
13024098.874 +7.5426601576E-001 +1.7385016672E+000  +2.5992219682E-002 +1.5416337501E+001  +2.5801103080E-002 +2.3326800913E+001  +7.7224641913E-001 -2.2865661771E+000 
13149244.055 +7.9044219246E-001 +2.5505750489E-001  +2.7337828508E-002 +1.6213705946E+001  +2.5255750069E-002 +2.6775832108E+001  +8.0554645618E-001 -1.5587252591E+000 
13274389.237 +7.7880846742E-001 +4.0404064671E-001  +2.6108857471E-002 +1.5706329764E+001  +2.6785135291E-002 +2.2838830142E+001  +7.9284337352E-001 -1.6684794069E+000 
13399534.418 +7.7439185937E-001 -1.3029973805E+000  +2.6753432000E-002 +1.7283418787E+001  +2.8094028252E-002 +2.0228485575E+001  +8.2554366008E-001 -2.1512310427E+000 
13524679.599 +8.2372080756E-001 -7.0187753072E-001  +2.7304101850E-002 +1.5279458197E+001  +2.6556287968E-002 +2.1930325636E+001  +8.3127671794E-001 -2.3223792878E+000 
13649824.781 +8.5431153646E-001 -5.8032031787E-001  +2.6079481412E-002 +1.7747215434E+001  +2.6263236607E-002 +1.7945008056E+001  +8.5395656235E-001 -3.1473774299E+000 
13774969.962 +8.4279818530E-001 -2.6546521545E+000  +2.7648321254E-002 +1.6677543628E+001  +2.6801355939E-002 +1.7240924485E+001  +8.8012976993E-001 -1.8581182211E+000 
13900115.144 +8.8248178369E-001 -2.4721524078E+000  +2.7447809250E-002 +1.7114927065E+001  +2.8098463960E-002 +1.7341415818E+001  +8.7904069413E-001 -3.9966326107E+000 
14025260.325 +9.0374150150E-001 -3.7238397551E+000  +2.7730146234E-002 +1.6880126941E+001  +2.7704080901E-002 +1.7779586631E+001  +9.2349828206E-001 -4.1022407737E+000 
14150405.507 +9.1519701346E-001 -3.4127168101E+000  +2.6881925247E-002 +1.7252115096E+001  +2.7354449686E-002 +2.0416331265E+001  +9.3134779304E-001 -5.6839279245E+000 
14275550.688 +9.4130084499E-001 -6.1088399036E+000  +2.8067527126E-002 +1.6435352593E+001  +2.7619898736E-002 +1.4957908808E+001  +9.4478307786E-001 -2.8199123613E+000 
14400695.870 +9.6721055790E-001 -4.7570946125E+000  +2.8730742668E-002 +1.7396432344E+001  +2.7202064100E-002 +1.7781018451E+001  +9.5681638058E-001 -5.6580721081E+000 
