!  2-Port S-parameters saved by WinCal
! VAR MeasName=S-Parameters (CALIBRATED_DATA) read from VNA (P5004A)
! VAR MeasDate=27/08/2024 17:18:07
! VAR NAME=S2_r3c9_RESET3_9k-100M_2
! VAR FILENAME=S2_r3c9_RESET3_9k-100M_2.S2P
! VAR DATE=27/08/2024 17:18:07
! VAR PHYS_PORTS=1,2
! VAR ObjTypeName=DATASET
! VAR IndexType=Frequency
!
# Hz S MA R 50
9000.000 +8.1883542685E-002 -1.5084820578E+002  +1.0328742701E-002 -1.0447190175E+002  +1.1800139643E-002 -9.6256744791E+001  +3.3066849590E-001 -1.3829295607E+002 
134145.181 +1.1146538942E-001 +1.6961891668E+002  +5.1141495819E-004 +1.5852929051E+002  +2.1534785743E-005 +6.3937988896E+001  +2.3712014700E-001 -1.7043413957E+002 
259290.363 +1.1197463682E-001 +1.6983304667E+002  +2.4490417944E-004 +8.8976512594E+001  +8.4500853815E-004 -1.4742612448E+001  +2.4026092953E-001 -1.7004950585E+002 
384435.544 +1.1393143473E-001 +1.7013530583E+002  +9.5525070402E-004 +9.5200718786E+001  +7.6423908230E-004 -1.3699537071E+002  +2.4515163150E-001 -1.6976754141E+002 
509580.726 +1.1586870565E-001 +1.7077281811E+002  +9.2354097893E-004 -3.8778131140E+001  +7.1755184098E-004 -1.2624165103E+002  +2.4691245985E-001 -1.6443141904E+002 
634725.907 +1.1743225859E-001 +1.7019362342E+002  +8.4643530548E-004 -8.2010892800E+001  +7.0254876555E-004 +1.5870227690E+002  +2.5026538339E-001 -1.6433275485E+002 
759871.089 +1.1641398611E-001 +1.7118459403E+002  +2.1449157166E-004 -1.2090654658E+002  +5.3078058130E-004 -1.7974550669E+002  +2.5404748629E-001 -1.6682247434E+002 
885016.270 +1.1836429484E-001 +1.6910194073E+002  +2.8285277009E-004 -8.7280154920E+001  +4.1198094226E-004 +3.6729350886E+001  +2.4506517904E-001 -1.6528069921E+002 
1010161.452 +1.1697055436E-001 +1.7149823840E+002  +8.1109967568E-004 -5.0709253294E+000  +3.8727047883E-005 +1.0424178582E+002  +1.8554408394E-001 -1.6343255232E+002 
1135306.633 +1.1587515689E-001 +1.7036950436E+002  +1.5964460905E-003 +5.0999009673E+001  +1.1138589727E-003 -4.4852186868E+001  +1.9009603843E-001 -1.6086975321E+002 
1260451.815 +1.2131703529E-001 +1.7067258665E+002  +1.6404908063E-003 +1.6549701962E+002  +2.1131322838E-003 +1.3173237646E+002  +2.2778894156E-001 -1.5851708173E+002 
1385596.996 +1.2545456776E-001 +1.7295420603E+002  +6.5642020086E-004 -1.8653024555E+001  +1.4234075222E-003 -1.3609720064E+002  +2.4975417983E-001 -1.6122071153E+002 
1510742.178 +1.2938530384E-001 +1.7167944497E+002  +9.4276712439E-004 -7.5872879080E+001  +6.8977546831E-004 +1.5279909633E+002  +2.3865247605E-001 -1.5867627786E+002 
1635887.359 +1.2872306449E-001 +1.7036752239E+002  +1.2265873003E-003 -1.3491512308E+001  +1.5834685191E-003 +1.2828025627E+002  +2.4159219647E-001 -1.5896002165E+002 
1761032.541 +1.3002721764E-001 +1.6950066508E+002  +1.0532402261E-003 -1.2253769315E+002  +4.7447804296E-004 -1.2096053860E+002  +2.1990950058E-001 -1.6240364161E+002 
1886177.722 +1.3061123225E-001 +1.6690824190E+002  +3.6202684436E-004 +5.8048695693E+001  +2.0586156103E-003 -6.7979636773E+001  +2.0004235771E-001 -1.6877143415E+002 
2011322.904 +1.2815813028E-001 +1.6859902752E+002  +9.9062301233E-004 +1.4396276868E+002  +2.0402824852E-003 -1.0495234122E+002  +1.6856884344E-001 -1.7020101261E+002 
2136468.085 +1.2987818773E-001 +1.6682054276E+002  +2.9974726850E-003 +1.6052286477E+002  +5.5767494314E-004 +4.8671635106E+001  +2.0077285295E-001 -1.7159213296E+002 
2261613.267 +1.2487592443E-001 +1.6421148986E+002  +6.9613690144E-004 -1.3884011426E+002  +2.1594872870E-003 -8.6541156270E+001  +1.8939172594E-001 -1.7111676675E+002 
2386758.448 +1.3697401645E-001 +1.6246037051E+002  +3.6971381153E-003 -1.5236139532E+002  +4.1274309027E-003 +3.0184046027E+001  +2.2520962672E-001 +1.5965842189E+002 
2511903.630 +1.3452140182E-001 +1.6324313942E+002  +5.1888138603E-003 +4.7382297440E+000  +6.8236520875E-003 +7.4046828273E+001  +4.6470453370E-001 +1.3546137873E+002 
2637048.811 +9.9853215460E-002 +1.6051224917E+002  +4.6586597273E-003 +1.4060400313E+002  +9.8868887407E-003 -5.1715122255E+001  +3.4330727800E-001 +1.6379626383E+002 
2762193.992 +8.8404551213E-002 -1.7858407219E+002  +2.8895775953E-002 +1.2547563712E+002  +8.9397959851E-003 +2.2838348767E+001  +3.3217017658E-001 +1.2216671480E+002 
2887339.174 +1.1138612766E-001 +1.7369813835E+002  +7.8579905636E-003 -2.9723504738E+000  +8.2811800192E-003 -1.3515316135E+002  +1.6234323143E-001 -9.7033692059E+001 
3012484.355 +1.2582469974E-001 +1.7654711121E+002  +2.6905610399E-002 -2.2128274373E+001  +1.6445125650E-002 -5.8258388030E+001  +3.4165250549E-001 -4.9510395183E+001 
3137629.537 +1.0938413256E-001 +1.7114293422E+002  +1.4119197229E-002 +5.5043285629E+001  +1.3181993193E-003 +1.3705446514E+002  +7.5347071801E-001 -1.1387443671E+002 
3262774.718 +1.3877524673E-001 +1.4102816286E+002  +1.4778019097E-002 +2.1442208682E+001  +6.8776374778E-003 +9.8861575778E+001  +2.8204484541E-001 -8.5128290799E+001 
3387919.900 +1.0732116846E-001 +1.5656296162E+002  +1.2151018861E-002 +2.1802791326E+000  +8.9241935955E-003 -9.4237589941E+001  +3.6968757489E-001 -9.5266488827E+001 
3513065.081 +1.5793753195E-001 +1.5149663639E+002  +1.4184727081E-002 -5.5154335439E+001  +7.8921051252E-003 +3.4019953715E+000  +1.0412455657E+000 -1.0916712509E+002 
3638210.263 +1.5059139050E-001 +1.4831906272E+002  +1.4620764185E-002 +2.5139277608E+001  +1.7146403203E-002 +1.8132535035E+001  +6.0429120380E-001 +1.1303710712E+002 
3763355.444 +1.8006062607E-001 +1.4760792069E+002  +2.7392658402E-003 -1.2621505596E+002  +1.5337500220E-002 -2.3327237933E+001  +3.8783291498E-001 +1.1642209068E+002 
3888500.626 +1.6130823799E-001 +1.5103463458E+002  +1.5917754780E-002 +5.4372846977E+001  +5.1863205590E-003 +5.2568093013E+001  +5.7474483665E-001 +2.0808400684E+001 
4013645.807 +1.8906001684E-001 +1.4213842370E+002  +2.8013428903E-002 -1.5078100169E+002  +4.5389684976E-002 +6.3859717936E+001  +1.8069391929E+000 +1.1984076086E+002 
4138790.989 +1.8557174403E-001 +1.5437193153E+002  +5.2152135505E-003 +1.2208874075E+002  +1.7670596092E-002 +2.4910605498E+001  +7.3573583537E-001 +8.0229934590E+001 
4263936.170 +1.9062480678E-001 +1.5183909222E+002  +2.1958313421E-002 +8.2140950958E+001  +4.6705040756E-003 +8.9530921225E+001  +5.2231506478E-001 +8.1097673610E+001 
4389081.352 +2.0941191962E-001 +1.3963324140E+002  +1.9201675523E-002 +8.6055255703E+001  +1.2653731589E-002 -1.8027620717E+001  +3.5935144553E-001 +9.0705332747E+001 
4514226.533 +2.4561773127E-001 +1.2915535542E+002  +1.7718116995E-002 +8.4173644381E+001  +3.2351445617E-002 +7.2277828251E+001  +8.1825256042E-001 +7.1140180743E+001 
4639371.715 +2.3055114237E-001 +1.3947073268E+002  +3.1524996086E-002 -7.0419968469E+001  +5.6604737661E-002 -7.0574260112E+001  +2.0181937767E+000 -5.8869908729E+001 
4764516.896 +2.7486271331E-001 +1.3177494930E+002  +7.0941290413E-002 -1.7035736577E+001  +2.2871800654E-002 -7.0288136269E+001  +2.7942844332E+000 -7.9274305953E+001 
4889662.078 +4.3061390667E-001 +1.4299187308E+002  +3.4646089018E-002 +7.0698077617E+001  +9.9987242434E-002 -2.2689974309E+001  +5.0014201314E+000 -7.1724906498E+001 
5014807.259 +4.2634249879E-001 +1.3259953054E+002  +3.1653577233E-002 +1.5324029846E+002  +2.7229525601E-002 +2.7421550667E+000  +2.1323002457E+000 +6.8333065403E+001 
5139952.441 +3.3999974304E-001 +1.3450055894E+002  +2.4715867555E-002 +7.3840473192E+001  +6.0056301717E-002 +8.4283834530E+001  +2.8901493608E+000 +7.3488703052E+001 
5265097.622 +3.5398204358E-001 +1.3359419248E+002  +3.6840367963E-002 +6.9164704342E+001  +7.3011648479E-003 +6.2556852462E+001  +1.9609302484E+000 +9.2640047971E+001 
5390242.804 +4.0583685501E-001 +1.3609193067E+002  +1.8825112357E-002 +7.5665637284E+001  +1.2945989098E-002 +3.9728292583E+001  +1.9936682427E+000 +5.3418438277E+001 
5515387.985 +4.7498857448E-001 +1.2475708674E+002  +6.5151406458E-002 +1.4053993920E+002  +4.2117427597E-002 +6.7692947994E+001  +2.9630395287E+000 +1.0526218264E+002 
5640533.166 +4.1812175279E-001 +1.2984802507E+002  +4.2920230051E-002 +4.1155765089E+001  +2.7818852814E-002 +3.4932568596E+001  +1.6544037492E+000 +5.0888321874E+001 
5765678.348 +4.9013659166E-001 +1.2191161972E+002  +1.0470537910E-002 +1.5833799795E+002  +5.7320578409E-002 +6.2458841209E+001  +2.5738966037E+000 +8.6572235357E+001 
5890823.529 +6.0572313761E-001 +1.1588517972E+002  +3.5015113032E-003 -1.5062429340E+002  +2.3328851936E-002 +9.3794427140E+001  +1.9191705910E+000 +6.5258645557E+001 
6015968.711 +5.9483696908E-001 +1.2191354342E+002  +2.5433016070E-002 +7.9897939251E+001  +2.5530108326E-002 +8.5894451870E+001  +1.4588523716E+000 +4.0871021998E+001 
6141113.892 +7.8771529399E-001 +1.1639630147E+002  +4.8586693157E-002 +7.0152937856E+001  +7.2012237065E-002 +3.7985701017E+001  +2.8134951077E+000 +3.5952942795E+001 
6266259.074 +9.0675442206E-001 +1.0404779506E+002  +3.7571457161E-002 +9.2112480862E+001  +3.3890340853E-002 +3.3795243959E+001  +2.3457318080E+000 +2.1558092960E+001 
6391404.255 +8.7263678255E-001 +1.0723965133E+002  +2.7297052595E-002 +2.5890989062E+001  +4.9400393826E-002 +5.0324425400E+001  +2.4688445709E+000 -1.5720862246E+000 
6516549.437 +1.0266870015E+000 +7.4708915980E+001  +3.8668027795E-002 +3.1807901401E+001  +6.1915952905E-002 +1.3798889574E+001  +1.9632340215E+000 +3.2481192819E+000 
6641694.618 +1.5723324850E+000 +6.3726376783E+001  +4.3775443624E-002 +2.5061677678E+001  +3.2027654901E-002 +6.0339317282E+001  +1.1928835357E+000 -2.7090715267E+000 
6766839.800 +1.7737867648E+000 +5.8623924356E+001  +5.3857299066E-002 +4.4957883399E+001  +4.8379925974E-002 +4.0096247600E+001  +1.4439655791E+000 -2.9214209164E+000 
6891984.981 +1.6237400561E+000 +2.7735458389E+001  +3.5175871927E-002 +1.2368718121E+001  +1.2840845221E-002 +1.3175775029E+001  +1.2972360677E+000 -1.2161458801E+001 
7017130.163 +1.8375831245E+000 +1.2027552215E+001  +3.9552849690E-002 -4.9202798571E+001  +2.8878996738E-002 -2.9556738219E+001  +1.2974242343E+000 -1.2002073660E+001 
7142275.344 +1.5660195191E+000 +6.0586110113E+000  +3.0969519660E-002 +5.3716449673E+000  +2.6920210155E-002 +6.6640005256E+000  +1.4122953940E+000 -3.1867929619E+000 
7267420.526 +1.4871637278E+000 +8.1464904207E+000  +2.0161498045E-002 +2.0106323562E+001  +9.3818788474E-003 +5.5300233884E+000  +1.3533311349E+000 -9.8844901300E+000 
7392565.707 +1.2760260162E+000 +4.6353647348E+000  +2.4074283684E-002 +2.1438966141E+001  +1.3389943206E-002 +8.2058212192E+000  +1.1835245124E+000 -1.6221519915E+001 
7517710.889 +1.2260316045E+000 -3.1022265624E+000  +1.5102875764E-002 +2.8220533297E+001  +1.8772822249E-002 +2.8384618675E+001  +1.2198994915E+000 -5.9169802792E+000 
7642856.070 +1.1163502956E+000 +1.0565083059E+000  +1.7277312289E-002 +1.9883566457E+001  +1.3591678318E-002 +3.4573911327E+001  +1.0171788609E+000 -1.9475223463E+000 
7768001.252 +1.0642722827E+000 +1.5472267882E+000  +1.9995616186E-002 +5.3523263024E+000  +1.2953627742E-002 +3.9858801114E+001  +9.5973346873E-001 -2.3591898550E+000 
7893146.433 +8.7613368496E-001 +5.1758815968E+000  +1.8823031089E-002 +4.1639415396E+000  +1.3196983542E-002 +6.1386130554E+000  +8.6070692778E-001 -5.1663682977E-001 
8018291.615 +7.3630019386E-001 +8.0031717617E+000  +1.2269143360E-002 +5.4780566406E+000  +1.2461803884E-002 +1.2615125163E+001  +8.7714882449E-001 -8.5128926881E-001 
8143436.796 +7.8880101097E-001 +6.5031208146E+000  +1.2567682073E-002 +2.1527896685E+001  +1.2070397968E-002 +1.6191675701E+001  +7.9782407550E-001 -3.8441745470E+000 
8268581.977 +7.8837346639E-001 +5.7525060982E+000  +1.1955768218E-002 +4.6940479312E+001  +1.4861578810E-002 +2.7753979642E+001  +7.6092419736E-001 +3.5149729007E+000 
8393727.159 +7.1126413415E-001 +1.0485242747E+001  +1.2686029162E-002 +1.2623652402E+001  +1.4259979357E-002 +1.0197415844E+001  +7.8609211590E-001 +3.1955094214E+000 
8518872.340 +6.7615426763E-001 +2.9418867850E+000  +8.4352968368E-003 +1.4078584345E+001  +1.2822870136E-002 +3.9748938145E+001  +7.1517056381E-001 -8.4602846973E-001 
8644017.522 +6.9954195878E-001 +1.0787206219E+001  +6.6788992412E-003 +3.3220547923E+000  +1.1710364540E-002 +3.0816778470E+001  +6.8171232682E-001 +6.5145765967E+000 
8769162.703 +6.4332149441E-001 +1.1253249575E+001  +1.2310041508E-002 -1.4960222280E+000  +1.7190877389E-002 +1.8421058516E+001  +6.4612931663E-001 +2.4893860417E+000 
8894307.885 +5.9865976936E-001 +7.2992055329E+000  +1.3833968325E-002 +1.6019682319E+001  +1.0080240481E-002 +3.5151526162E+001  +6.4660858233E-001 -1.4128095055E+000 
9019453.066 +5.7087164982E-001 -2.8797905220E-001  +1.3637525862E-002 +3.8743025228E+001  +1.3245968666E-002 +5.8960845821E+001  +6.6715141532E-001 -4.7619319259E+000 
9144598.248 +6.1341854404E-001 +3.3011885514E+000  +1.7627320596E-002 +2.2953110005E+001  +1.1579456884E-002 +3.9531361716E+001  +6.0408755111E-001 -1.8822380235E+000 
9269743.429 +6.0235031479E-001 +3.2919269014E+000  +1.5208261039E-002 +1.9074481341E+001  +1.0901842241E-002 +3.4226272007E+001  +5.8972084900E-001 -2.8215093438E+000 
9394888.611 +5.5943480619E-001 +4.1139266428E+000  +1.4313034132E-002 +1.1809763512E+001  +2.1685679457E-002 +2.3784776474E+001  +6.0769551321E-001 -6.1496029051E+000 
9520033.792 +5.8949914475E-001 +3.3031981261E+000  +1.3574637575E-002 +7.6579122869E+000  +1.5635927127E-002 +2.0201753384E+001  +5.7991915354E-001 -2.5269428080E+000 
9645178.974 +5.3426010043E-001 -6.5354736451E-001  +1.1679352126E-002 +1.6227808121E+001  +1.2426277653E-002 +2.8647347008E+001  +5.5375919459E-001 -2.4330907796E+000 
9770324.155 +5.3757009449E-001 -2.2017395144E-001  +1.3957159671E-002 +1.5124542420E+001  +1.2606312815E-002 +3.2940732424E+001  +5.8397876622E-001 -7.5128746240E+000 
9895469.337 +5.8916702236E-001 +5.4230036809E+000  +9.1504893482E-003 +1.1556696392E+001  +1.3952144242E-002 +1.9147180474E+001  +5.6346598247E-001 -3.5121919365E+000 
10020614.518 +5.0886033843E-001 +3.9069894997E+000  +1.1946272437E-002 +1.0088444992E+000  +1.0748769096E-002 +2.7649095876E+001  +5.9157564475E-001 -5.9601163516E+000 
10145759.700 +5.4054953907E-001 +5.5906086231E+000  +1.0419158653E-002 +1.3810528717E+001  +1.3165114319E-002 +3.9116691694E+001  +5.6032733962E-001 -5.3543447784E+000 
10270904.881 +5.2719796056E-001 +4.6172944165E+000  +1.3681300414E-002 +1.8193451298E+001  +1.1334993033E-002 +2.4069227008E+001  +5.8121841507E-001 -4.1103735072E+000 
10396050.063 +5.4970606495E-001 +3.1769098769E+000  +1.1295501768E-002 +2.7552825325E+001  +1.3560005140E-002 +3.0611186358E+001  +5.5983400240E-001 -1.3403648120E+000 
10521195.244 +5.5125231450E-001 +1.8982211612E+000  +1.1778801292E-002 +1.6761392259E+001  +1.0656159366E-002 +3.1645955481E+001  +6.1700957316E-001 +4.2055245503E+000 
10646340.426 +5.5697657518E-001 +5.0995847456E+000  +1.2958246671E-002 +2.2543084968E+001  +1.0246116853E-002 +2.5877595178E+001  +5.9284520286E-001 +2.1386361315E+000 
10771485.607 +5.5800212236E-001 +5.5515849637E+000  +1.2483216497E-002 +1.7020711546E+001  +1.2624053492E-002 +2.8815749470E+001  +5.7501058133E-001 -2.1456462366E+000 
10896630.788 +5.6625552634E-001 +5.4153646776E+000  +1.3974873385E-002 +2.7803427791E+001  +1.3449581799E-002 +3.3488991552E+001  +5.9291613494E-001 +2.5752275798E+000 
11021775.970 +5.7907332244E-001 +3.9326762981E+000  +1.2490216656E-002 +2.4543988843E+001  +1.1220440954E-002 +3.6127872518E+001  +5.6599973058E-001 +2.8696541551E+000 
11146921.151 +5.9684129959E-001 +6.2242732899E+000  +1.2558939795E-002 +2.6074663683E+001  +1.2466563412E-002 +2.5148729524E+001  +6.0095037212E-001 +3.5067631793E+000 
11272066.333 +5.9028137678E-001 +6.6423894499E+000  +1.2568573511E-002 +2.1987312325E+001  +1.2793912050E-002 +3.0828757551E+001  +6.1043848883E-001 +4.5366006829E+000 
11397211.514 +5.9832225324E-001 +8.3856252178E+000  +1.3253487217E-002 +2.7487202776E+001  +1.3288227813E-002 +2.4125075361E+001  +6.4189673889E-001 +2.2295176879E+000 
11522356.696 +6.0486793277E-001 +4.9693137331E+000  +1.4438284202E-002 +2.3337175221E+001  +1.4193041422E-002 +3.3277654435E+001  +6.1729467581E-001 +2.0317070807E-001 
11647501.877 +6.2031601736E-001 +8.1171062519E+000  +1.3996153255E-002 +2.2322391874E+001  +1.4532255318E-002 +4.2446277705E+001  +6.4774640379E-001 +1.7081841433E+000 
11772647.059 +6.3497695681E-001 +5.1006323889E+000  +1.3081852486E-002 +2.3548928881E+001  +1.5783755955E-002 +2.7974254273E+001  +6.4160007922E-001 +2.8469039030E+000 
11897792.240 +6.7453453097E-001 +3.9433018975E+000  +1.4557004311E-002 +2.8227790603E+001  +1.2429265296E-002 +3.2099493979E+001  +6.7023905362E-001 -8.9907108852E-001 
12022937.422 +6.5460595659E-001 +5.4053723223E+000  +1.2369314523E-002 +2.0536027478E+001  +1.4329785102E-002 +2.5490129689E+001  +6.8171206070E-001 -3.7920581769E-001 
12148082.603 +6.8737525854E-001 +4.6420842651E+000  +1.3610999864E-002 +1.9723739425E+001  +1.3855076429E-002 +3.4397470100E+001  +6.7435790155E-001 +2.0445011257E+000 
12273227.785 +6.6124704048E-001 +4.8439058685E+000  +1.5189877481E-002 +2.5563907635E+001  +1.2281599988E-002 +3.3477113170E+001  +7.0674310455E-001 -4.8209079706E-001 
12398372.966 +6.8193040940E-001 +3.7170790060E+000  +1.5005682317E-002 +2.9433226278E+001  +1.3612462515E-002 +3.3658239382E+001  +6.9786985525E-001 +2.1099822278E+000 
12523518.148 +7.0422498768E-001 +2.2898953223E+000  +1.6100416898E-002 +2.1304142361E+001  +1.2608929241E-002 +2.7447936266E+001  +6.9531082590E-001 -8.6647515317E-001 
12648663.329 +7.3024976093E-001 +2.5636479045E+000  +1.5055655744E-002 +2.8370138737E+001  +1.4391972272E-002 +3.5903661871E+001  +7.4111303494E-001 -3.9499465679E-001 
12773808.511 +7.5360244540E-001 +1.8629943771E+000  +1.4552518542E-002 +2.5913420004E+001  +1.5707842275E-002 +3.1470584693E+001  +7.5512947903E-001 +3.7777406472E-001 
12898953.692 +7.8067030216E-001 +1.9732038420E+000  +1.5548793886E-002 +3.1211731747E+001  +1.5984766475E-002 +3.2519177310E+001  +7.4916108106E-001 +2.8110919387E-001 
13024098.874 +7.8659057680E-001 +4.9927802446E-002  +1.4997306116E-002 +2.3289300106E+001  +1.4605417525E-002 +3.6815554789E+001  +7.6274379821E-001 +7.9649128735E-001 
13149244.055 +7.8776977029E-001 +2.5077581631E-001  +1.7618417065E-002 +2.7190026290E+001  +1.4151340615E-002 +3.3890021903E+001  +8.1470840479E-001 -1.6459878042E+000 
13274389.237 +8.1102591465E-001 -1.2035666554E+000  +1.6021968728E-002 +2.6381047412E+001  +1.5995050885E-002 +3.3643914449E+001  +8.0139814089E-001 -2.1921546672E+000 
13399534.418 +8.0789067997E-001 -1.1134760500E+000  +1.5335908885E-002 +3.0365553936E+001  +1.7228266671E-002 +3.0286432070E+001  +8.4867468957E-001 -3.7688460758E+000 
13524679.599 +8.3389454247E-001 -1.4015958577E-001  +1.7016611704E-002 +2.6647285170E+001  +1.7093868927E-002 +2.7304246140E+001  +8.4726122612E-001 -1.7743463015E+000 
13649824.781 +8.3569234918E-001 -1.6966949794E+000  +1.6747563349E-002 +2.9967402688E+001  +1.5973057165E-002 +2.8452623007E+001  +8.6773354937E-001 -2.7965135536E+000 
13774969.962 +8.9464688657E-001 -1.0530574458E+000  +1.6892833389E-002 +2.7501429841E+001  +1.6041663803E-002 +2.5092339112E+001  +8.8456305419E-001 -3.9305865171E+000 
13900115.144 +8.7554057301E-001 -2.9825364784E+000  +1.7347156370E-002 +2.4519507714E+001  +1.6402263693E-002 +2.4539068272E+001  +9.1005270407E-001 -4.7365836093E+000 
14025260.325 +9.2404357377E-001 -3.9960454772E+000  +1.7253998894E-002 +2.8661163494E+001  +1.6171602635E-002 +3.0931503196E+001  +9.1268196747E-001 -3.6777782056E+000 
14150405.507 +9.3890230797E-001 -3.9155417669E+000  +1.6211589401E-002 +2.8521422440E+001  +1.5710006576E-002 +2.7631883512E+001  +9.3462186389E-001 -4.7562069366E+000 
14275550.688 +9.2650941704E-001 -3.3245867609E+000  +1.7427004924E-002 +2.3824560768E+001  +1.7476146665E-002 +2.7569685487E+001  +9.6952061362E-001 -4.3234043481E+000 
14400695.870 +9.5014689330E-001 -5.1166313592E+000  +1.7145804145E-002 +2.7087122096E+001  +1.8967765897E-002 +2.7839507104E+001  +9.7633075659E-001 -5.0249300683E+000 
