!  2-Port S-parameters saved by WinCal
! VAR MeasName=S-Parameters (CALIBRATED_DATA) read from VNA (P5004A)
! VAR MeasDate=27/08/2024 17:15:25
! VAR NAME=S2_r3c9_SET2_9k-100M_2
! VAR FILENAME=S2_r3c9_SET2_9k-100M_2.S2P
! VAR DATE=27/08/2024 17:15:25
! VAR PHYS_PORTS=1,2
! VAR ObjTypeName=DATASET
! VAR IndexType=Frequency
!
# Hz S MA R 50
9000.000 +8.9100559840E-002 -1.2550618309E+002  +1.2698115610E-002 +1.0867545428E+002  +3.6236500595E-002 -5.6058948512E+000  +2.2522424963E-001 -1.3330693658E+002 
134145.181 +1.1056399884E-001 +1.6949096907E+002  +5.2636118024E-004 -1.1731178598E+002  +5.8494721140E-004 +5.7771561408E+001  +2.4654720635E-001 -1.7061898251E+002 
259290.363 +1.1140226209E-001 +1.6950329687E+002  +2.8910719010E-004 +1.9693728335E+000  +7.0239541018E-004 +1.3439553170E+002  +2.3635679100E-001 -1.6975312458E+002 
384435.544 +1.1430039196E-001 +1.7065893802E+002  +4.6551895566E-004 -1.5707785753E+002  +4.7785237073E-004 +5.4155720187E+001  +2.4259349785E-001 -1.6655847416E+002 
509580.726 +1.1652945947E-001 +1.7126763067E+002  +7.6770845815E-004 -1.4902845579E+002  +4.6882302629E-004 +4.2227744156E+001  +2.4435875015E-001 -1.6696266568E+002 
634725.907 +1.1376628522E-001 +1.7133631120E+002  +6.7923966597E-004 -4.5853539525E+001  +4.8307015966E-004 +5.0420077150E+001  +2.3202796243E-001 -1.6612122381E+002 
759871.089 +1.1830437900E-001 +1.7033415706E+002  +5.7467236667E-005 -1.1021716110E+002  +6.8454482806E-004 +1.3317904908E+002  +2.5059782152E-001 -1.6460508767E+002 
885016.270 +1.1915762211E-001 +1.6952765754E+002  +3.6878757939E-004 -1.0664305875E+001  +7.3316782146E-004 +9.3439699932E+001  +2.4116136727E-001 -1.6374876489E+002 
1010161.452 +1.1351737874E-001 +1.6958145813E+002  +4.8226384603E-004 +3.0694407439E+001  +1.7593386862E-003 -1.5061041590E+002  +1.8474630727E-001 -1.7289430813E+002 
1135306.633 +1.1486916544E-001 +1.6821542373E+002  +2.5482350956E-004 +1.1813479594E+002  +3.7901533083E-003 +4.0907378013E+001  +1.4436482835E-001 -1.6876600617E+002 
1260451.815 +1.2036695909E-001 +1.7149484580E+002  +2.5704691591E-004 +2.0170486389E+001  +9.0917471495E-004 +3.0088557829E+001  +1.9801195251E-001 -1.6518858502E+002 
1385596.996 +1.2684877817E-001 +1.7286080985E+002  +7.6784111999E-004 +3.5263367735E+001  +1.4525059923E-003 +7.6285643974E+001  +2.6292611752E-001 -1.5445069845E+002 
1510742.178 +1.2689289790E-001 +1.7110061756E+002  +1.8887905953E-004 +1.2631031282E+002  +1.3914379344E-003 +1.4982853201E+002  +2.6780782764E-001 -1.5823030268E+002 
1635887.359 +1.2779423305E-001 +1.6923610417E+002  +5.4999837107E-004 +6.4047982794E+001  +1.0734282353E-003 +2.1969011417E+001  +2.3262158552E-001 -1.6109281217E+002 
1761032.541 +1.2995096655E-001 +1.7038747569E+002  +1.2130728659E-003 -1.3879589893E+002  +1.9609292813E-003 -5.6382306917E+001  +2.2155289982E-001 -1.5848643558E+002 
1886177.722 +1.3057911668E-001 +1.6828011223E+002  +2.7800644466E-003 -3.4456229350E+001  +1.2406673718E-003 -2.3030345286E+001  +2.0415327118E-001 -1.7339411819E+002 
2011322.904 +1.2751748112E-001 +1.6622624466E+002  +7.9769969175E-004 -1.3772150731E+001  +1.2770954886E-003 -1.3088060066E+002  +2.2391121613E-001 -1.6536326370E+002 
2136468.085 +1.3265704842E-001 +1.6254473052E+002  +3.4510297160E-003 +1.0222527415E+001  +1.5170487254E-003 -1.2233405060E+002  +1.9133200889E-001 +1.6927055573E+002 
2261613.267 +1.3129527072E-001 +1.6780765870E+002  +2.2311721559E-002 +9.5551194805E+001  +8.2788715771E-003 -4.1519334106E+001  +3.1074035792E-001 +6.9925787455E+001 
2386758.448 +1.3545839583E-001 +1.6251444946E+002  +1.8123441478E-003 -4.4348425116E+000  +7.0794555270E-004 -6.5195096028E+001  +1.7541061012E-001 -1.7329048038E+002 
2511903.630 +1.2912207071E-001 +1.6094436708E+002  +1.2477811627E-003 -4.4984421176E+001  +4.8619577759E-003 -2.6751934188E+000  +2.7327162876E-001 +1.7008341799E+002 
2637048.811 +1.2610582508E-001 +1.5668945553E+002  +1.8669407077E-002 +1.3337464320E+001  +1.6554652521E-002 +1.0628793283E+001  +1.1008825454E-001 +8.1831649878E+001 
2762193.992 +1.0410646406E-001 +1.7522613911E+002  +1.8823200947E-002 +2.6502346710E+001  +1.0355706024E-002 -1.2811114384E+002  +2.3204197944E-001 -8.7365811448E+001 
2887339.174 +8.6355843192E-002 +1.6517128870E+002  +5.6774125337E-002 +3.0139456233E+001  +7.9547730846E-002 -9.1960041876E+001  +1.1176661405E+000 +2.6608711821E+001 
3012484.355 +1.2119878536E-001 -1.7759054255E+002  +1.1809626212E-002 -1.3138551033E+002  +1.8192058385E-002 +1.7694282483E+002  +5.4594826520E-001 -8.5392507906E+001 
3137629.537 +1.2896929965E-001 +1.7395442871E+002  +1.4781070317E-002 -3.7521202675E+001  +1.0340858498E-002 +1.7654216479E+002  +3.5472776133E-001 -8.0923251809E+001 
3262774.718 +1.2638445006E-001 +1.6689225000E+002  +1.1636650693E-002 -3.9217745130E+001  +2.8128415897E-003 -7.8787806002E+001  +1.9437813457E-001 -1.2156912542E+002 
3387919.900 +1.0252997865E-001 +1.5752120238E+002  +3.1800352502E-002 -9.5295615551E+001  +2.0335146185E-002 -9.1126617461E+001  +4.0809375376E-001 -6.3066491215E+001 
3513065.081 +1.6976137926E-001 +1.5248184911E+002  +1.5851712146E-002 +1.2782547134E+002  +1.4402482109E-002 -1.3790772544E+001  +5.3900071979E-001 +5.5289959439E+001 
3638210.263 +1.5239687052E-001 +1.4462423931E+002  +1.4164026214E-002 +5.8464887725E+001  +1.2589905146E-002 +9.8114469454E+001  +5.9205822822E-001 +1.5129218493E+002 
3763355.444 +1.6532154750E-001 +1.4739517056E+002  +1.8099276802E-002 +7.3216331208E+001  +2.9408310435E-002 +4.8361663283E+000  +6.8933773604E-001 +1.1062873184E+002 
3888500.626 +1.7194616617E-001 +1.4730700365E+002  +1.3522943123E-002 +1.0225758308E+002  +3.7051919579E-002 +4.0676630230E+001  +1.5237232695E+000 +8.3955968127E+001 
4013645.807 +1.8115609103E-001 +1.5389511103E+002  +1.0027388785E-002 +9.3220497514E+001  +9.8310828438E-003 +7.0794371936E+000  +5.7874266473E-001 +1.4275104082E+002 
4138790.989 +1.8960774636E-001 +1.5304588677E+002  +1.4077652192E-002 +8.5347915669E+001  +2.3161905794E-002 +2.1845686856E+000  +5.2007807806E-001 +9.2883476260E+001 
4263936.170 +2.1735105302E-001 +1.4890649688E+002  +1.8161686248E-002 +1.0605078681E+002  +5.8496721452E-003 +3.1400204575E+001  +4.9947458873E-001 +1.1473920045E+002 
4389081.352 +2.0711463708E-001 +1.4584312127E+002  +5.9129915215E-002 -1.5906959464E+002  +7.4745785608E-002 +5.9439399271E+001  +4.6292147178E+000 +1.1202658828E+002 
4514226.533 +1.9292047219E-001 +1.2759232914E+002  +2.4239540538E-002 +2.0912225876E+001  +4.7202617902E-002 +2.6579752827E+001  +8.7094113628E-001 +8.9233195876E+001 
4639371.715 +2.3007274042E-001 +1.3358286285E+002  +4.8753362988E-002 +1.5560217717E+002  +3.6600619907E-002 +3.7399553129E+001  +1.5782173540E+000 +1.0443987953E+002 
4764516.896 +3.6727215986E-001 +1.3171050200E+002  +1.0561970658E-001 -1.7509159259E+002  +1.4197732595E-001 +9.7579661347E+001  +3.8649025190E+000 +8.7328866623E+001 
4889662.078 +3.7707062638E-001 +1.2261699857E+002  +3.9113892000E-002 -5.6973586941E+001  +3.0417724042E-002 -1.6052974226E+002  +2.0158662738E+000 -1.5009125715E+002 
5014807.259 +3.0740698137E-001 +1.2741781959E+002  +1.3566272756E-001 -1.7829842565E+002  +3.4635358286E-002 +1.1634817332E+002  +4.3537467751E+000 +1.4316564525E+002 
5139952.441 +3.8655846587E-001 +1.3299402040E+002  +5.8067241042E-002 +1.3928053331E+002  +3.9477738270E-002 +1.1699919401E+002  +3.7570391111E+000 +1.3457244136E+002 
5265097.622 +4.2938343818E-001 +1.3318296420E+002  +5.1048436179E-002 +1.3298191437E+002  +5.6276585768E-002 +9.6725454095E+001  +1.9950634296E+000 +1.1198213754E+002 
5390242.804 +4.4748301214E-001 +1.3616000299E+002  +2.0940182307E-002 -1.5534430172E+002  +6.2867816068E-002 +1.7847098080E+002  +3.7693483417E+000 +1.4840276406E+002 
5515387.985 +4.8150553701E-001 +1.3688254046E+002  +4.6156485849E-002 +9.3125770127E+001  +6.9000582352E-002 +7.9152038618E+001  +2.0895784899E+000 +6.5548686159E+001 
5640533.166 +4.4394976592E-001 +1.2729241186E+002  +4.3529301835E-002 +7.5183756664E+001  +3.9380778728E-002 +6.4436695473E+001  +1.7388524881E+000 +6.1031559314E+001 
5765678.348 +5.0610507322E-001 +1.3171350222E+002  +5.0763851829E-002 +9.7050585944E+001  +2.9101393332E-002 +1.1340600333E+002  +1.4554189817E+000 +7.0686124795E+001 
5890823.529 +6.1800010578E-001 +1.2293992510E+002  +7.9559195594E-002 +8.8597168521E+001  +6.6335897293E-002 +3.8017802782E+001  +2.5496716262E+000 +4.5273486664E+001 
6015968.711 +6.0197751352E-001 +1.2954906159E+002  +2.9693581500E-002 +7.7128821070E+001  +3.0542285889E-002 +5.8339873284E+001  +1.4548997082E+000 +4.5482604637E+001 
6141113.892 +7.5926906414E-001 +1.2145787499E+002  +4.9381425746E-002 +9.3898599992E+001  +3.6626671366E-002 +7.3785367596E+001  +1.2852987225E+000 +3.3505893346E+001 
6266259.074 +7.2016424806E-001 +9.6105227807E+001  +6.9236664607E-002 +2.9992308389E+001  +6.1570634636E-002 +2.6167248833E+001  +1.3754972539E+000 +1.0727989534E+001 
6391404.255 +1.0222272683E+000 +8.7561055584E+001  +4.8419136022E-002 +6.1405496257E+001  +6.9888055862E-002 +1.5648261613E+001  +1.9174318191E+000 -7.1599930483E-001 
6516549.437 +8.7530778852E-001 +8.8103282450E+001  +5.5016538101E-002 +2.8707416964E+001  +3.0936700895E-002 -2.0320088025E+001  +1.5380806366E+000 +1.9072089285E+001 
6641694.618 +1.7094537992E+000 +7.4000174751E+001  +6.4790736842E-002 +5.1463158311E+001  +8.3720946010E-002 +3.8396364927E+001  +1.4954065629E+000 +6.3699305855E+000 
6766839.800 +1.7808157045E+000 +5.3569089714E+001  +5.1886482051E-002 +1.2680420414E+001  +1.0244607716E-001 +2.1539369357E+001  +1.5012025444E+000 -8.7072519217E+000 
6891984.981 +2.0883923973E+000 +3.1571533002E+001  +5.8097440661E-002 +3.5609962055E+000  +6.5901178765E-002 +1.1168901691E+000  +1.1555293447E+000 -1.0620680677E+001 
7017130.163 +1.7294521398E+000 +2.5809626766E+001  +5.3177067813E-002 +5.2901552204E-001  +4.6440009720E-002 -5.0754613841E+000  +1.2375093572E+000 -7.8383945582E+000 
7142275.344 +1.3418138547E+000 +6.4811123341E+000  +4.3562577770E-002 -9.8134392672E+000  +4.6317950755E-002 +8.0561411083E+000  +1.3545717360E+000 -1.3731107931E+001 
7267420.526 +1.4351731044E+000 +7.0166132556E+000  +4.5954634285E-002 +2.5070571792E+001  +3.5140387581E-002 +4.3225054903E+000  +1.3330776507E+000 -1.1834948540E+001 
7392565.707 +1.1709347782E+000 -6.3003731799E-001  +3.2711711940E-002 +3.0056398112E+000  +2.9962414136E-002 -6.8934024069E+000  +1.3558164747E+000 -7.2090448360E+000 
7517710.889 +1.1738110285E+000 +3.8315153077E+000  +2.6861866321E-002 +7.0738137245E+000  +2.8222520774E-002 +1.2490336751E+001  +1.1719129672E+000 +1.1787879055E+000 
7642856.070 +9.9931699480E-001 +4.4713724606E+000  +2.3016591099E-002 +8.0190709768E-001  +1.6999245592E-002 +1.9638247733E+001  +1.0351053665E+000 -5.5075664496E-001 
7768001.252 +1.0505952820E+000 +4.7832233223E+000  +2.6030364381E-002 +2.6869979297E+001  +2.6455588145E-002 +2.5134765047E+001  +9.2306661311E-001 -2.7303821147E+000 
7893146.433 +9.1961622638E-001 +9.5127738265E+000  +2.2284228225E-002 +2.0406094357E+000  +1.9505402190E-002 +2.6169543981E+001  +9.3978898420E-001 -6.2741805003E+000 
8018291.615 +8.2096512100E-001 +4.7748056528E+000  +2.6998768541E-002 +1.9226931210E+001  +2.2312957918E-002 +1.7150316618E+001  +8.8194384524E-001 +3.4316370793E-001 
8143436.796 +7.3996189704E-001 +7.5004527564E+000  +2.1754211476E-002 +8.9832505224E-002  +1.9025412076E-002 +1.9509132915E+001  +8.1208457705E-001 -2.2616827484E+000 
8268581.977 +7.0796379824E-001 +1.0295291117E+001  +2.6737163457E-002 +4.7423857263E+000  +2.1928006378E-002 +2.5112464308E+001  +8.0626586943E-001 +3.5218743172E+000 
8393727.159 +6.5335333845E-001 +1.6046056319E+001  +2.1848381731E-002 -1.3539853157E+001  +2.5645288088E-002 +2.4738300129E+001  +6.8693922263E-001 +1.5197003699E+000 
8518872.340 +7.1339457800E-001 +9.1322878568E+000  +2.1692988396E-002 -2.4867389792E+000  +1.9897700201E-002 +2.7277614015E+001  +7.4176626683E-001 -3.3050480797E+000 
8644017.522 +6.8817850337E-001 +9.3841671034E+000  +1.7764557250E-002 +1.8017190152E+001  +1.8664270232E-002 +2.0416467555E+001  +6.7185264766E-001 +1.3148657278E+000 
8769162.703 +6.1957270866E-001 +7.5638764285E+000  +2.3864310072E-002 +1.2985794115E+001  +2.0592093515E-002 +1.3309943186E+001  +6.5604676836E-001 -1.5074662967E+000 
8894307.885 +5.2849708801E-001 +7.0210024469E+000  +1.9083512260E-002 +1.1169985484E+001  +2.1816654074E-002 +2.1036751364E+001  +6.3958177621E-001 -6.1672342701E-001 
9019453.066 +5.0832870761E-001 +6.4029228333E-001  +2.1014948766E-002 +9.8162779008E+000  +1.9563492435E-002 +9.6603410090E+000  +6.5378864740E-001 -2.0817704728E+000 
9144598.248 +5.6794212166E-001 +3.3622634332E+000  +2.0579984471E-002 -2.4436104565E+000  +2.3751258159E-002 +1.6129519982E+001  +6.5746442356E-001 -6.8939470852E+000 
9269743.429 +5.7747054310E-001 -2.9002012614E+000  +2.1625125709E-002 +6.2259117078E+000  +2.1206222007E-002 +2.8431983522E+001  +5.9982735316E-001 +2.9024076281E+000 
9394888.611 +5.7253273232E-001 +3.8412954316E+000  +1.6951848429E-002 +3.7054778851E-001  +2.2304895970E-002 +3.1336094718E+001  +6.0890062996E-001 +1.8279208040E+000 
9520033.792 +5.1740242128E-001 +5.4776110658E+000  +1.7682632650E-002 +1.2229371143E+001  +2.3458621245E-002 +1.6857832899E+001  +5.9033547117E-001 -8.4582072498E+000 
9645178.974 +4.8523740277E-001 +4.4334834612E-001  +1.8426344096E-002 -6.7004142266E+000  +2.2627353411E-002 +2.3696934356E+001  +5.7973512395E-001 -5.2116637556E+000 
9770324.155 +5.2525141268E-001 -1.7368009547E-002  +1.9984547643E-002 +8.5725710310E+000  +2.0409102758E-002 +2.5103289627E+001  +5.7792143539E-001 -3.0612326211E+000 
9895469.337 +5.4240397032E-001 +2.5154488998E+000  +1.9830196570E-002 +5.0277411762E+000  +2.1791504829E-002 +2.9110963329E+001  +5.6437494830E-001 -3.5560977276E+000 
10020614.518 +5.4291982444E-001 +3.6346215767E+000  +2.3634554560E-002 +9.4939218849E+000  +2.0700933843E-002 +1.9961155075E+001  +5.3864460671E-001 -7.5504691827E+000 
10145759.700 +5.2021421422E-001 +3.2781494243E+000  +1.9475085382E-002 +3.7956868977E+000  +2.0400177470E-002 +2.4532868759E+001  +5.6019735168E-001 -4.7767711607E+000 
10270904.881 +5.4871788146E-001 +6.1974891015E+000  +2.0551916972E-002 +4.3011039360E+000  +1.9113067344E-002 +2.4661320118E+001  +5.6580967376E-001 -2.3487743347E+000 
10396050.063 +5.4428858007E-001 +1.0437836656E+001  +2.2141737462E-002 +3.0350420464E+000  +2.0384365656E-002 +2.3139422652E+001  +5.8084097970E-001 +9.5074053006E-001 
10521195.244 +5.1897262100E-001 +7.8093034296E+000  +1.9486530084E-002 +9.8032892369E+000  +1.9962628288E-002 +2.1145910023E+001  +5.6217923810E-001 -3.0220367677E+000 
10646340.426 +5.4682341924E-001 +6.2196039148E+000  +1.8496524290E-002 +1.1502148513E+001  +1.8573427258E-002 +2.4163090112E+001  +5.9990284732E-001 -1.1523805845E+000 
10771485.607 +5.6092810688E-001 +8.2430877810E+000  +2.3595519905E-002 +6.2118897504E+000  +2.1730948453E-002 +3.0508253645E+001  +5.7932860636E-001 +7.4660069344E-001 
10896630.788 +5.6869914642E-001 +8.6268217077E+000  +2.2010723999E-002 +9.7186453333E+000  +2.2041451208E-002 +3.0623759224E+001  +5.7164389481E-001 +1.2244892342E+000 
11021775.970 +5.5126224193E-001 +8.6636680140E+000  +2.4467700688E-002 +1.3200751337E+001  +2.2690110720E-002 +2.2423856784E+001  +6.0213842856E-001 +3.7714342757E+000 
11146921.151 +6.0115160949E-001 +1.0113172569E+001  +1.9843604360E-002 +1.4629736257E+001  +2.3509196851E-002 +2.8205387582E+001  +6.0820373982E-001 +2.5752805524E+000 
11272066.333 +5.7273893539E-001 +7.0350943493E+000  +2.1159387360E-002 +1.3647696777E+001  +2.1699226692E-002 +2.6225477547E+001  +6.1323168870E-001 -3.7426810783E-001 
11397211.514 +6.1554537404E-001 +7.5388182882E+000  +2.3389858198E-002 +1.1518484166E+001  +2.0342023423E-002 +1.8213188061E+001  +5.7028261838E-001 +1.7737972601E+000 
11522356.696 +5.9300789529E-001 +4.2340849686E+000  +2.4130169094E-002 +1.4346790675E+001  +2.2781483469E-002 +2.1454205278E+001  +6.0272454234E-001 +1.6055310090E+000 
11647501.877 +6.2534768153E-001 +7.3792942623E+000  +2.2108779802E-002 +1.3269346503E+001  +2.3624003436E-002 +2.5003721339E+001  +6.2721219234E-001 -2.0735631225E+000 
11772647.059 +6.2163770164E-001 +6.0287810257E+000  +2.3086495475E-002 +1.5726387635E+001  +2.1669058005E-002 +2.2292096481E+001  +6.3085957188E-001 +4.4435789926E-001 
11897792.240 +6.1782962020E-001 +5.8291997765E+000  +2.3393544224E-002 +1.2041472142E+001  +2.4252518618E-002 +2.6465418477E+001  +6.7107230820E-001 +1.6028150490E+000 
12022937.422 +6.4147186959E-001 +4.7680743956E+000  +2.4805221958E-002 +1.7351627185E+001  +2.2736459084E-002 +2.4386722399E+001  +6.6276675813E-001 -5.8947860076E-003 
12148082.603 +6.7298620672E-001 +6.8916441078E+000  +2.4004489915E-002 +1.3530227464E+001  +2.3941360598E-002 +2.7947526645E+001  +6.7546943818E-001 +8.1507378201E-001 
12273227.785 +6.6224305269E-001 +2.9608291390E+000  +2.3920816044E-002 +1.2434454790E+001  +2.3334817478E-002 +2.2802692188E+001  +7.0032058834E-001 -1.3039888501E+000 
12398372.966 +6.6898382476E-001 +4.3887499763E+000  +2.4115430141E-002 +1.8841944480E+001  +2.3521621190E-002 +2.1707742612E+001  +6.9533102866E-001 -4.3477203879E-001 
12523518.148 +7.1737477797E-001 +4.0976032159E+000  +2.5846334709E-002 +1.7803684202E+001  +2.4674220124E-002 +2.0548589970E+001  +7.1330835034E-001 +3.8076966155E-001 
12648663.329 +7.4598944908E-001 +3.5750807489E+000  +2.6392558485E-002 +1.7658252710E+001  +2.5049156626E-002 +1.8240381554E+001  +7.3248562696E-001 +2.8079734236E-001 
12773808.511 +7.2617473928E-001 +1.7203512565E+000  +2.6912785808E-002 +1.3375884783E+001  +2.4668299042E-002 +2.5287353202E+001  +7.3541589659E-001 -1.8173869468E+000 
12898953.692 +7.3443472514E-001 +1.0961829799E+000  +2.6626518388E-002 +1.9780142844E+001  +2.4963324790E-002 +1.8264062086E+001  +7.4319245393E-001 -2.6838084379E+000 
13024098.874 +7.5079620530E-001 +1.3439558765E+000  +2.4957023504E-002 +1.3853426242E+001  +2.5436173772E-002 +1.9554706993E+001  +7.6515744589E-001 -1.3330311136E-001 
13149244.055 +7.8507394841E-001 +3.6290796104E-001  +2.4924985607E-002 +1.5023774257E+001  +2.6077327765E-002 +1.9722909419E+001  +7.9477791587E-001 -4.1321336411E-001 
13274389.237 +7.7642653376E-001 +4.8489920599E-002  +2.6342076489E-002 +1.6622365946E+001  +2.7267534637E-002 +2.1682120194E+001  +8.0679996349E-001 -2.6657048244E+000 
13399534.418 +8.0976920117E-001 -1.6207022830E+000  +2.7038783260E-002 +1.8482428327E+001  +2.6490623722E-002 +1.9316167194E+001  +8.2983458334E-001 -2.9539607340E+000 
13524679.599 +8.3639396000E-001 -1.1179605517E+000  +2.7109858480E-002 +1.7179774856E+001  +2.6727813793E-002 +1.9881845360E+001  +8.2779011021E-001 -3.1164907622E+000 
13649824.781 +8.5568577429E-001 -1.5158657696E+000  +2.7779312572E-002 +1.5190153249E+001  +2.6695094959E-002 +2.0655522370E+001  +8.7676536162E-001 -2.6756018539E+000 
13774969.962 +8.3806040442E-001 -2.3543289302E+000  +2.5447994722E-002 +1.6752122095E+001  +2.6254397424E-002 +2.0605316511E+001  +8.7057139322E-001 -3.0907199409E+000 
13900115.144 +8.5858756867E-001 -3.1536159370E+000  +2.6794268657E-002 +1.5690457044E+001  +2.6494719135E-002 +1.7329444872E+001  +8.9707234389E-001 -4.3218624784E+000 
14025260.325 +9.0705642053E-001 -2.9536668884E+000  +2.7041154252E-002 +1.8449973319E+001  +2.7257198280E-002 +1.9261494446E+001  +9.1395499278E-001 -4.0000214113E+000 
14150405.507 +9.1745723018E-001 -3.4279341361E+000  +2.5543501623E-002 +1.7270420264E+001  +2.7334478884E-002 +1.5573119580E+001  +9.2528353244E-001 -4.1087774518E+000 
14275550.688 +9.2573149261E-001 -4.6486556943E+000  +2.7377407936E-002 +1.7792683706E+001  +2.8943343026E-002 +1.8647566281E+001  +9.2764334660E-001 -4.9734385000E+000 
14400695.870 +9.5394813709E-001 -4.9086219584E+000  +2.8127476778E-002 +1.8886461480E+001  +2.8492278840E-002 +1.8255244854E+001  +9.6399833106E-001 -3.8865691341E+000 
