!  2-Port S-parameters saved by WinCal
! VAR MeasName=S-Parameters (CALIBRATED_DATA) read from VNA (P5004A)
! VAR MeasDate=27/08/2024 11:59:59
! VAR NAME=S2_r2c8_pristine_9k-100M_3
! VAR FILENAME=S2_r2c8_pristine_9k-100M_3.S2P
! VAR DATE=27/08/2024 11:59:59
! VAR PHYS_PORTS=1,2
! VAR ObjTypeName=DATASET
! VAR IndexType=Frequency
!
# Hz S MA R 50
9000.000 +1.7117295644E-002 -7.6593773776E+001  +1.4990123486E-001 -1.3211026609E+002  +1.4547485938E-001 +1.0208750697E+002  +1.6455744015E+000 -2.2816718122E+001 
134145.181 +1.1117556377E-001 +1.6966151429E+002  +3.1565416008E-004 +2.0539017832E+001  +8.0966002489E-004 -2.7587890232E+000  +2.4028975438E-001 -1.7098271161E+002 
259290.363 +1.1329209336E-001 +1.6955693650E+002  +1.5480454231E-004 -3.3247416483E+001  +2.3052896048E-004 +6.4152802365E+001  +2.3937968045E-001 -1.6854202919E+002 
384435.544 +1.1261544863E-001 +1.7017037575E+002  +3.2251522426E-004 -1.4666819533E+002  +4.9093963131E-004 -1.3624839937E+002  +2.4292893335E-001 -1.6870235634E+002 
509580.726 +1.1249791898E-001 +1.7085389529E+002  +5.0447282647E-004 -1.2294889839E+002  +5.8175060328E-004 +5.9229590637E+001  +2.4054995808E-001 -1.6442195747E+002 
634725.907 +1.1717909916E-001 +1.7072893174E+002  +8.3250040777E-005 -1.6533145481E+002  +4.3160963275E-004 -1.7351076368E+001  +2.4892525022E-001 -1.6543964109E+002 
759871.089 +1.1617367272E-001 +1.7105834651E+002  +4.3660247942E-004 -1.2362794915E+002  +1.1200826301E-003 -1.6689580170E+001  +2.3347329700E-001 -1.6531486906E+002 
885016.270 +1.1633024184E-001 +1.7019252598E+002  +1.3237384122E-003 -4.7991869402E+001  +1.6884680144E-003 -1.0671752484E+002  +2.4413396952E-001 -1.6372715756E+002 
1010161.452 +1.1949057031E-001 +1.7208042609E+002  +1.1192643088E-003 -3.9684283069E+001  +2.8605361983E-003 -1.6485387658E+002  +1.6921352005E-001 -1.5611804670E+002 
1135306.633 +1.1000180676E-001 +1.7086381550E+002  +2.6695842360E-003 +9.3806111123E+001  +4.3282436771E-004 +1.6366125132E+002  +1.8668376233E-001 -1.6398562924E+002 
1260451.815 +1.2045424031E-001 +1.7221963758E+002  +1.3277856915E-003 -4.5757383993E+001  +1.8306948490E-003 +7.3845438304E+001  +2.3601917083E-001 -1.5830212540E+002 
1385596.996 +1.2562497773E-001 +1.7116489331E+002  +7.7654450662E-004 -1.4498171506E+002  +1.8695683504E-003 -1.1477934051E+002  +2.6361594676E-001 -1.5670708878E+002 
1510742.178 +1.2781932899E-001 +1.7109754015E+002  +9.9345798620E-004 -2.7915138511E+001  +9.8040845693E-004 -9.7539285997E+001  +2.7077575568E-001 -1.5442943348E+002 
1635887.359 +1.2849364621E-001 +1.7025641231E+002  +3.7846321974E-004 +2.3568204074E+001  +6.6794507764E-004 -5.9180129158E+001  +2.2767326766E-001 -1.5971252096E+002 
1761032.541 +1.2728591986E-001 +1.6965488395E+002  +8.5753437293E-004 -3.3978543328E+001  +9.7189476173E-004 -3.7588952261E+001  +2.1859506404E-001 -1.6511263195E+002 
1886177.722 +1.3009030628E-001 +1.6518765232E+002  +2.0708485236E-003 -1.1318937779E+002  +5.8601232783E-004 +1.5927434338E+002  +2.0969197658E-001 -1.6501399025E+002 
2011322.904 +1.2515747283E-001 +1.6813951433E+002  +3.4685922503E-003 -1.3435600618E+002  +3.4045960211E-003 +2.0619134165E+001  +1.7447712792E-001 -1.5793737936E+002 
2136468.085 +1.2695516568E-001 +1.6323786531E+002  +3.3544281141E-003 +1.5458858691E+002  +1.3195657976E-003 -1.6028605242E+002  +1.9128757806E-001 -1.6950488071E+002 
2261613.267 +1.2921742637E-001 +1.6165778455E+002  +3.4060113414E-003 -1.0661553221E+002  +3.9607554482E-003 +4.9662795405E+001  +1.8591379778E-001 +1.5817516065E+002 
2386758.448 +1.3839228652E-001 +1.6206748273E+002  +1.2367804265E-002 +1.2648457220E+002  +6.3954292968E-003 +1.3019333998E+002  +2.8208542134E-001 -2.2369910417E+001 
2511903.630 +1.0349524974E-001 +1.6896832502E+002  +6.7350270387E-003 +1.0070938485E+002  +4.2219907696E-003 -6.8083465383E+001  +1.4519078438E-001 +1.5054446735E+002 
2637048.811 +1.3291893590E-001 +1.5133915728E+002  +1.5486472487E-002 -1.5524066499E+002  +1.6254364233E-002 -3.0365683699E+001  +2.4887860127E-001 +7.4607079732E+001 
2762193.992 +8.0447030098E-002 -1.6725939637E+002  +1.8712967855E-002 -1.6089065640E+002  +1.8654762423E-002 +9.8079602754E+001  +8.0377268941E-001 -1.6107884812E+002 
2887339.174 +1.2594825734E-001 +1.7957140858E+002  +1.9094470436E-003 -5.0431013670E+001  +3.3297711305E-003 +4.3823566801E+001  +3.8898207189E-001 -1.2898914786E+002 
3012484.355 +1.3020220802E-001 -1.6488596801E+002  +1.5762000541E-003 +1.2415534058E+002  +1.2688721409E-002 -1.6317984317E+002  +1.1396722750E-001 -9.6522089767E+001 
3137629.537 +1.1882747034E-001 -1.7076312037E+002  +1.1458245028E-002 -6.5856314869E+001  +7.5766190984E-003 -6.7362453210E+001  +3.0766410684E-001 -7.9888169877E+001 
3262774.718 +1.0685100574E-001 +1.7490805296E+002  +4.8882723452E-003 +1.6658178034E+002  +5.2782494698E-003 +2.6544568157E+001  +3.3861953998E-001 -1.0859171818E+002 
3387919.900 +7.7855190642E-002 +1.6182214283E+002  +1.9820180405E-002 +1.5422592435E+002  +6.5090362606E-003 +1.4338232177E+002  +6.7096481033E-002 -3.6019356371E+001 
3513065.081 +1.1405793016E-001 +1.6616704777E+002  +4.5288285056E-003 +4.3869241314E+001  +9.7978123724E-003 -7.1708732219E+000  +1.5599044006E-001 +1.3026980029E+002 
3638210.263 +1.3046356063E-001 +1.4929428546E+002  +6.7912173415E-003 +5.7604588139E+001  +1.7202758741E-002 -1.7955164227E+002  +2.8865251555E-001 +1.1622137384E+002 
3763355.444 +1.7394544810E-001 +1.4986196990E+002  +3.8311434678E-003 -6.7640858610E+001  +2.8878807352E-003 -1.3151850857E+002  +4.5110694600E-001 +1.5253473466E+002 
3888500.626 +1.3981774458E-001 +1.4797884088E+002  +9.7393233467E-003 +1.1404263608E+002  +4.5333472495E-003 -1.0771155141E+002  +1.4909154842E-001 +6.0808329017E+001 
4013645.807 +1.5910602919E-001 +1.3961304543E+002  +3.2382597838E-003 +7.8173501172E+001  +4.4756875160E-003 +2.1363735500E+001  +4.0516919571E-001 +1.4695439904E+002 
4138790.989 +1.5591900912E-001 +1.4255201753E+002  +1.4412022766E-003 +9.5775828946E+001  +1.5419420611E-003 -1.4818638443E+002  +5.5637891893E-001 +1.1096202049E+002 
4263936.170 +2.0830792728E-001 +1.4571577287E+002  +5.1359517074E-003 -1.4229208414E+002  +4.2603179623E-003 +1.2090292310E+002  +4.5700618529E-001 +1.1709050146E+002 
4389081.352 +1.6161912642E-001 +1.3786055572E+002  +5.8773675233E-003 +2.1014557886E+001  +1.5244622584E-002 +1.1385726620E+002  +2.4879209282E-001 +8.3391007494E+001 
4514226.533 +2.2420318753E-001 +1.3486823322E+002  +8.6390517706E-003 +1.5932213620E+002  +2.1030293688E-002 +1.5914722048E+002  +9.8241656013E-001 +4.4315016423E+001 
4639371.715 +3.4526117794E-001 +1.1367984073E+002  +1.0820023287E-001 -5.8627703029E+001  +1.5569696754E-002 -6.6622014994E+001  +3.4966760446E+000 +1.2474271023E+002 
4764516.896 +3.7397737702E-001 +1.3175150461E+002  +2.5711671401E-002 -3.3130862683E+001  +6.3561514969E-002 -9.6595653873E+001  +2.9130186498E+000 -1.5441734680E+002 
4889662.078 +4.0537644067E-001 +1.2678198204E+002  +4.4327352386E-002 +8.0379480301E+001  +4.4731247484E-002 +1.1340807706E+002  +3.3998986485E+000 -1.0520256536E+002 
5014807.259 +3.5267750182E-001 +1.3762674130E+002  +1.7905098580E-002 -8.7477632921E+001  +1.4392148344E-002 +1.0457933223E+002  +1.9298579417E+000 +1.2463310041E+002 
5139952.441 +3.7422245873E-001 +1.2415658242E+002  +6.8749257105E-002 +8.8608507602E+001  +8.6836603182E-002 +2.2959349621E+001  +4.8318005091E+000 +8.9217038529E+001 
5265097.622 +4.2658004594E-001 +1.3463241963E+002  +6.6548143470E-003 -5.1395571749E+001  +1.0266158372E-002 +1.7937796608E+002  +1.1477486159E+000 +7.4731659835E+001 
5390242.804 +3.4921062395E-001 +1.3165693610E+002  +8.4028386141E-003 -1.0728450073E+002  +1.5243393175E-002 +1.1726568645E+002  +3.1841451551E+000 +1.1545943811E+002 
5515387.985 +4.6990173107E-001 +1.2290954051E+002  +9.3822858425E-003 -7.5901872580E+001  +9.1318877390E-003 -1.4160633098E+001  +1.2875303973E+000 +8.8780391165E+001 
5640533.166 +6.0148344454E-001 +1.2408280076E+002  +2.1776074656E-002 +3.4058915256E+001  +1.2375760936E-003 -2.5445327842E+001  +1.7270397272E+000 +1.1306911962E+002 
5765678.348 +4.7569664380E-001 +1.2076970591E+002  +1.6917292338E-002 -1.6063504216E+002  +1.2788580451E-002 +1.1361791297E+002  +1.4317232603E+000 +4.8001239717E+001 
5890823.529 +5.8730073657E-001 +1.2511213493E+002  +9.8405648587E-003 -1.6097984011E+002  +2.0761738162E-002 +1.7981153256E+002  +2.1233474796E+000 +4.6012685126E+001 
6015968.711 +5.7945457464E-001 +1.1564432490E+002  +4.3518557495E-002 -1.7781187962E+002  +1.4039000670E-002 +9.1220006596E+001  +2.5060519303E+000 +7.0184591166E+001 
6141113.892 +7.0649067656E-001 +1.1318976632E+002  +1.6202990275E-002 -4.6798243653E-001  +1.8719669925E-002 -1.2434241246E+002  +1.8736693174E+000 +4.1033293027E+001 
6266259.074 +8.0292462340E-001 +1.1308356031E+002  +2.9795892013E-003 +1.7196605713E+002  +1.2462472890E-002 +1.2013709265E+002  +1.6896555080E+000 +2.1084573505E+001 
6391404.255 +1.2324197768E+000 +9.8636674904E+001  +3.1049055690E-002 +6.5675026241E+001  +1.1819250184E-002 +6.7707461108E+001  +2.1200637879E+000 +2.2453579642E+001 
6516549.437 +1.1739765602E+000 +7.9181340200E+001  +3.3538904108E-002 +1.0872101953E+002  +3.2475220024E-002 +1.2922561586E+002  +1.5289075642E+000 +5.8529502089E+000 
6641694.618 +1.3585813978E+000 +7.7713666471E+001  +2.7023031562E-002 +7.5826759023E+001  +5.2688450132E-003 +3.6877879222E+001  +1.3162401525E+000 +8.5448958983E+000 
6766839.800 +1.8378077437E+000 +6.0274026915E+001  +7.6125117009E-003 +1.0823719882E+002  +2.5990816029E-002 +8.6986377298E+001  +1.3021547245E+000 -4.3342570464E-001 
6891984.981 +1.9341591280E+000 +2.8159692780E+001  +2.6911852703E-002 +1.0035878191E+002  +3.4946683416E-002 +1.3286941198E+002  +1.2439375726E+000 -4.8824960916E+000 
7017130.163 +1.8545427254E+000 +1.5336422052E+001  +2.6674559948E-002 +1.4029404665E+002  +1.1750240948E-002 +1.5500515568E+002  +1.1927178240E+000 -1.1981138365E+001 
7142275.344 +1.5325247542E+000 +1.7289649645E+001  +1.4378184875E-002 +6.6328131502E+001  +5.2883230181E-003 +1.4700563768E+002  +1.3333561430E+000 -1.0379829607E+001 
7267420.526 +1.5571070768E+000 -5.7912210216E+000  +5.8559077264E-003 +2.5305345463E+001  +1.0202012968E-002 +6.6535613902E+001  +1.1866239484E+000 -5.6345242600E+000 
7392565.707 +1.2799830374E+000 +1.2611453048E+000  +5.0424039142E-003 +1.1783091502E+002  +6.0679606575E-004 -9.4908224419E+001  +1.3738688756E+000 -3.7547749892E+000 
7517710.889 +1.2027728111E+000 +9.9834958803E-001  +6.0200017072E-003 +6.3135390733E+001  +1.1774371994E-002 +9.3909971450E+001  +1.2386607266E+000 -9.6215393742E+000 
7642856.070 +1.0818611066E+000 +4.6418520355E+000  +7.2047883583E-003 +1.8734756793E+001  +3.9267224677E-003 +1.0014082277E+002  +1.0727151310E+000 +1.0113190841E+000 
7768001.252 +9.9972665562E-001 -6.1047406880E-001  +1.0048699113E-002 +9.9615743730E+001  +4.6062062636E-003 +1.4229141023E+002  +9.8437423923E-001 -6.1661481918E+000 
7893146.433 +8.7508625359E-001 +2.2785646233E+000  +6.7294013287E-003 +7.2633342021E+001  +6.9413239209E-003 -1.6584813026E+002  +9.3858651033E-001 -2.5931986539E+000 
8018291.615 +8.7759220866E-001 -3.4508326747E-001  +5.7341062629E-003 +5.2495442936E+001  +3.3448126331E-003 +3.1846147571E+001  +7.2374617675E-001 +1.0849604476E+000 
8143436.796 +7.3434574657E-001 +2.4351946586E+000  +7.2360680214E-003 +8.8752062033E+001  +6.7888671554E-003 +7.1224664462E+001  +7.4129798555E-001 +2.2477707666E+000 
8268581.977 +8.2400431860E-001 +6.1634919616E+000  +4.4759132865E-003 +3.7808386952E+001  +3.1694570872E-003 +9.6599483102E+001  +8.1141669169E-001 +1.9655262868E-001 
8393727.159 +7.1415895771E-001 +8.7511434070E+000  +3.5971740830E-003 +1.6756335938E+002  +4.4427162593E-003 +1.3716171052E+002  +7.6867658466E-001 +2.2745978928E+000 
8518872.340 +7.2801825346E-001 +6.9002264316E+000  +2.4839949391E-003 -4.6497609648E+001  +2.4355254454E-003 +4.7990562394E+001  +8.0110789366E-001 +9.5044223667E-001 
8644017.522 +7.1223440236E-001 +5.3094651727E+000  +4.1842613965E-003 +1.1816956807E+002  +5.3611864658E-003 +8.5507468824E+001  +7.2661977283E-001 +8.2177998532E-001 
8769162.703 +5.8556698900E-001 +1.6047043481E+000  +5.0793080381E-003 +5.1797990702E+001  +7.9278233251E-003 +4.6504165355E+001  +6.8072398642E-001 +6.4066989866E+000 
8894307.885 +6.4364599459E-001 +5.5518662124E+000  +3.8365431367E-003 +8.4191730553E+001  +6.3731336275E-003 +1.5967107431E+002  +6.4592404566E-001 +3.4847592307E+000 
9019453.066 +5.5877733405E-001 +1.5661440353E+000  +5.8693952900E-003 +6.1352306233E+001  +7.9562426564E-003 +1.3240027773E+002  +6.3572844529E-001 +4.6092180330E+000 
9144598.248 +5.7984320652E-001 +4.9290942666E+000  +3.2327408993E-003 +9.6995473339E+001  +3.8691624397E-003 +1.1256561493E+002  +6.0119816783E-001 +9.8369314334E-001 
9269743.429 +5.5548197586E-001 +1.9028558854E+000  +6.5563249869E-003 +5.0647023351E+001  +7.6387525973E-003 +7.9089379149E+001  +5.7584218527E-001 -9.5205919640E-001 
9394888.611 +5.7226314267E-001 +4.0901687678E+000  +2.6927325784E-003 +3.9335399867E+001  +6.1905416038E-003 +1.1984537048E+002  +5.9975295683E-001 -3.8296869013E+000 
9520033.792 +5.8054836546E-001 +3.4656524021E+000  +4.5244030051E-003 +8.6112441060E+001  +1.3780954111E-003 +5.6878245319E+001  +5.6125445728E-001 -3.6242772940E+000 
9645178.974 +5.7256315471E-001 +2.6334449684E+000  +5.1934093213E-003 +1.0892430570E+002  +5.3558119423E-003 +1.1597606216E+002  +5.6889282230E-001 -5.7202698227E+000 
9770324.155 +5.2167929709E-001 +3.3299201091E+000  +2.0690903217E-003 +8.3908839655E+001  +3.6714941335E-003 +2.4718119098E+001  +6.3701179687E-001 -3.1600393974E+000 
9895469.337 +5.7984534979E-001 +2.3689133819E+000  +4.1594839483E-003 +1.0760182368E+002  +2.7020658417E-003 +8.1619665358E+001  +5.8728973461E-001 -4.2517704145E+000 
10020614.518 +5.4430023577E-001 +1.0483706740E+000  +4.1783627649E-003 +6.4145711429E+001  +4.3530830478E-003 +1.2612037407E+002  +5.9527594683E-001 -8.0223373263E+000 
10145759.700 +5.8336629254E-001 +3.7648306141E+000  +3.5492359432E-003 +7.1004427749E+001  +6.2289177479E-003 +8.7213068496E+001  +5.6615397075E-001 -7.5424700250E+000 
10270904.881 +5.6595584415E-001 -2.7680123373E+000  +7.0303527443E-003 +8.1877727545E+001  +4.2983427304E-003 +8.2681294595E+001  +5.8085990098E-001 -1.0428048421E+000 
10396050.063 +5.7399088828E-001 +4.3771567101E+000  +3.6800909634E-003 +6.2290075648E+001  +2.9628052094E-003 +1.1337539314E+002  +5.5028998902E-001 +2.4540311431E+000 
10521195.244 +5.4471832496E-001 +2.8254827976E+000  +2.4308585998E-003 +8.2393554432E+001  +4.7031902546E-003 +5.9743047512E+001  +6.0046542280E-001 +1.2265045640E+000 
10646340.426 +5.8973747929E-001 +2.6906812449E+000  +3.7063858082E-003 +9.2651269009E+001  +5.7698300180E-003 +1.0801585092E+002  +6.3398996441E-001 -7.7122741518E-001 
10771485.607 +5.8553053193E-001 +7.1547377482E+000  +5.5665103675E-003 +9.2879387749E+001  +3.9285562994E-003 +1.3286516756E+002  +6.3005995284E-001 +3.4285557097E+000 
10896630.788 +6.0426482605E-001 +7.4692611679E+000  +5.2376028373E-003 +7.3005211711E+001  +3.5277271043E-003 +1.1114480676E+002  +6.1439404812E-001 +2.5570742133E-001 
11021775.970 +6.0078896958E-001 +4.1199480510E+000  +5.0499808569E-003 +8.4341954268E+001  +5.4134247415E-003 +1.3196222095E+002  +6.1486743250E-001 -1.8034482553E+000 
11146921.151 +5.6730106188E-001 +4.5017229010E+000  +2.3887897155E-003 +1.0533002018E+002  +4.6429522904E-003 +1.0173999427E+002  +5.9160511055E-001 +1.6894840197E+000 
11272066.333 +5.8176877792E-001 +8.4883643756E+000  +2.4009112295E-003 +7.9384414984E+001  +4.8101949336E-003 +1.0377634139E+002  +6.2629033078E-001 +3.2798516665E-001 
11397211.514 +6.2790204559E-001 +5.4462682732E+000  +4.4567108773E-003 +1.0574915195E+002  +5.6817874586E-003 +1.0975585121E+002  +6.4704480260E-001 +1.2613377653E+000 
11522356.696 +6.3882948371E-001 +2.6886457392E+000  +7.1789718742E-003 +7.4055605182E+001  +5.1956678940E-003 +1.0511810220E+002  +6.2760731444E-001 +1.7815080080E+000 
11647501.877 +6.2604990874E-001 +6.0010416071E+000  +6.3928244385E-003 +1.0132985575E+002  +6.1199828326E-003 +9.4982644852E+001  +6.7354157899E-001 +2.2580635019E+000 
11772647.059 +6.3707886622E-001 +3.4798965354E+000  +6.6400085571E-003 +9.8902929026E+001  +4.2834502503E-003 +8.8180985095E+001  +6.5981659555E-001 +6.4228921874E-001 
11897792.240 +6.6809063978E-001 +2.8633581389E+000  +7.7923652585E-003 +8.3181692528E+001  +4.8208415021E-003 +1.1549985966E+002  +6.8486874123E-001 +1.0479354535E+000 
12022937.422 +6.6715903354E-001 +5.7573770583E+000  +5.1697555410E-003 +8.9103995491E+001  +6.9412250779E-003 +1.0329580790E+002  +6.9416430554E-001 -1.7202813630E-001 
12148082.603 +6.6317813428E-001 +5.9229924451E+000  +4.5328149265E-003 +1.0311417714E+002  +4.9009001569E-003 +8.9327502715E+001  +7.0548863641E-001 +3.5969434075E-001 
12273227.785 +7.0496906930E-001 +2.1962808109E+000  +4.7863762938E-003 +8.3019915032E+001  +7.4341958237E-003 +9.8359483708E+001  +6.8847366935E-001 +3.8329430181E-001 
12398372.966 +6.9453031946E-001 +3.4687159811E+000  +6.2208450809E-003 +8.5204531875E+001  +6.5440055194E-003 +1.0395760916E+002  +7.3026825709E-001 -1.0881006648E+000 
12523518.148 +7.3397617600E-001 +9.1721958199E-001  +5.3802017487E-003 +1.1037904745E+002  +5.5946147358E-003 +9.1069408057E+001  +7.2156211113E-001 +6.7479599540E-002 
12648663.329 +7.2901766909E-001 +2.1194138140E+000  +6.2828764464E-003 +1.0044386460E+002  +4.5048861078E-003 +9.3684511633E+001  +7.5689575883E-001 -2.9564612584E+000 
12773808.511 +7.4708549919E-001 +1.5129878729E+000  +5.9441061344E-003 +9.7747705860E+001  +6.9637824213E-003 +1.0081984873E+002  +7.7960176776E-001 -1.4114056934E+000 
12898953.692 +7.4778245894E-001 -1.9523574903E-001  +6.4262503186E-003 +9.5649658382E+001  +7.0099721557E-003 +9.8719349676E+001  +7.4606188358E-001 -1.2225677562E+000 
13024098.874 +7.9463294644E-001 +3.3698358173E-001  +5.4132399824E-003 +8.6311111704E+001  +5.7181441655E-003 +9.2928476175E+001  +7.9336770171E-001 -2.5254473121E-001 
13149244.055 +7.9477560181E-001 -9.6468365078E-001  +6.3619280317E-003 +8.6095518763E+001  +4.9719261979E-003 +1.1853149297E+002  +7.7293099964E-001 -1.1480995115E+000 
13274389.237 +8.1081508271E-001 -1.5778359451E+000  +6.6491845096E-003 +1.0075245155E+002  +5.5030528636E-003 +8.4243837381E+001  +8.2334671110E-001 -2.2899961998E+000 
13399534.418 +8.2479810190E-001 -1.0125769634E+000  +5.6193781781E-003 +9.5350515654E+001  +6.3988961329E-003 +1.1469418871E+002  +8.3711985018E-001 -1.9773094096E+000 
13524679.599 +8.5118900896E-001 -1.5205902518E+000  +7.3417435712E-003 +8.3230374842E+001  +5.9431315394E-003 +9.4931727643E+001  +8.4047998849E-001 -2.0038866016E+000 
13649824.781 +8.7670045067E-001 -2.6694332115E+000  +7.3842487990E-003 +9.1972537033E+001  +8.1647734894E-003 +7.8913036118E+001  +9.0769528651E-001 -3.4333284289E+000 
13774969.962 +9.0657952766E-001 -1.2623747237E+000  +7.1456690128E-003 +9.0984086599E+001  +5.5931595622E-003 +9.7304881680E+001  +8.9415404281E-001 -3.3702743840E+000 
13900115.144 +9.1032303881E-001 -2.4979383418E+000  +7.9022786123E-003 +9.3572236374E+001  +7.4671670865E-003 +1.0301868709E+002  +9.1697643728E-001 -2.6121781060E+000 
14025260.325 +9.2856326253E-001 -3.7714881399E+000  +6.7605475776E-003 +1.0299169457E+002  +5.7278241709E-003 +9.5603426965E+001  +9.3192949204E-001 -4.3079315704E+000 
14150405.507 +9.4419164959E-001 -4.8721184840E+000  +6.6765046855E-003 +9.9155388957E+001  +6.7163620451E-003 +9.5187634151E+001  +9.4966272042E-001 -3.1659823138E+000 
14275550.688 +9.5555987631E-001 -3.2075681237E+000  +8.2409111140E-003 +8.7117584468E+001  +7.5760641917E-003 +9.8203323326E+001  +9.6372377751E-001 -5.0232260827E+000 
14400695.870 +9.6842986113E-001 -4.6369460928E+000  +7.0745271119E-003 +8.4084164154E+001  +8.5984342886E-003 +9.0642521429E+001  +9.9184272113E-001 -5.0192411829E+000 
