!  2-Port S-parameters saved by WinCal
! VAR MeasName=S-Parameters (CALIBRATED_DATA) read from VNA (P5004A)
! VAR MeasDate=28/08/2024 12:29:21
! VAR NAME=S2_r7c9_RESET4_9k-100M_1
! VAR FILENAME=S2_r7c9_RESET4_9k-100M_1.S2P
! VAR DATE=28/08/2024 12:29:21
! VAR PHYS_PORTS=1,2
! VAR ObjTypeName=DATASET
! VAR IndexType=Frequency
!
# Hz S MA R 50
9000.000 +9.8492819796E-002 -1.7314813867E+002  +4.2647932583E-003 +1.1149708002E+002  +3.5909378987E-003 -1.4160521006E+001  +2.3581025896E-001 -1.4630122328E+002 
134145.181 +1.1095869966E-001 +1.6978945345E+002  +2.6975459461E-004 +1.7030943069E+002  +8.9735007129E-004 +7.6253465618E+000  +2.4293371132E-001 -1.7113532460E+002 
259290.363 +1.1262898560E-001 +1.6985561425E+002  +8.3096513874E-004 -7.1043224504E+001  +1.0734092692E-003 +1.7661473007E+002  +2.4887602839E-001 -1.6981058373E+002 
384435.544 +1.1556130410E-001 +1.7003118716E+002  +6.5751501809E-004 -1.6379858930E+002  +2.5534385489E-004 -6.9519337723E+001  +2.4481656244E-001 -1.6833464404E+002 
509580.726 +1.1477520660E-001 +1.6985209552E+002  +7.3504354790E-004 +4.8634126988E+001  +6.4007302948E-004 -8.9591915967E+001  +2.5910941042E-001 -1.6804342381E+002 
634725.907 +1.1671144497E-001 +1.7037989865E+002  +5.8860126043E-004 +1.2499891702E+002  +1.2263290833E-003 +3.2181664578E+001  +2.4635586523E-001 -1.6267186802E+002 
759871.089 +1.1981519063E-001 +1.7103836909E+002  +6.2951021021E-004 -9.7548865372E+000  +2.3371936651E-004 -1.3907959719E+002  +2.4440317935E-001 -1.6719623391E+002 
885016.270 +1.2072362955E-001 +1.6927730191E+002  +2.1988701340E-004 +8.1912394438E+001  +5.7258912803E-004 -1.9854745369E+001  +2.4241822320E-001 -1.6727657678E+002 
1010161.452 +1.1393267437E-001 +1.7112093557E+002  +1.3654341153E-003 +9.2716551296E+001  +4.9738895586E-004 +2.7651926215E+001  +1.8527204662E-001 -1.6382419535E+002 
1135306.633 +1.1717733826E-001 +1.6874496078E+002  +1.4699243667E-003 +1.3456775180E+002  +1.7713502342E-003 +1.6338752247E+002  +2.0092451573E-001 -1.7084204060E+002 
1260451.815 +1.1716221030E-001 +1.7146405076E+002  +1.7463298934E-003 +1.0261489666E+002  +2.1275118146E-003 +1.6135170746E+002  +2.3553233061E-001 -1.5728565728E+002 
1385596.996 +1.2668104248E-001 +1.7226275473E+002  +2.2030709018E-003 +1.4567455141E+002  +1.8352873115E-004 +5.3012934841E+001  +2.8126492412E-001 -1.5737929819E+002 
1510742.178 +1.2719722741E-001 +1.7204681846E+002  +2.7254570375E-004 -2.7600841450E+001  +1.1047315593E-003 -1.0835630106E+002  +2.6370249640E-001 -1.5848859542E+002 
1635887.359 +1.2391343098E-001 +1.7036848733E+002  +1.5994407541E-003 -1.5401649483E+002  +9.5300414271E-004 -1.0774284006E+002  +2.6030980174E-001 -1.5393691929E+002 
1761032.541 +1.3011130236E-001 +1.6924418960E+002  +4.1593237090E-004 -1.5162759439E+002  +2.2448322445E-003 -6.5265260233E+001  +1.7414963939E-001 -1.5747994984E+002 
1886177.722 +1.2953490889E-001 +1.6919129046E+002  +2.8920269499E-003 -2.6511275832E+001  +3.1176799521E-003 +1.9824758978E+001  +1.9978869328E-001 -1.5848000773E+002 
2011322.904 +1.1957396685E-001 +1.7152638351E+002  +7.9858898012E-004 +1.6951719471E+001  +2.8936388548E-003 +1.1283049489E+002  +2.0948575749E-001 -1.5726067690E+002 
2136468.085 +1.2976946582E-001 +1.6573065578E+002  +2.3351194613E-003 -1.3680491028E+002  +1.0521135396E-003 -5.6026575039E+001  +2.0733901632E-001 -1.5826239790E+002 
2261613.267 +1.2995086712E-001 +1.6777408744E+002  +1.9539187161E-003 +4.7509582155E+000  +3.5682294991E-003 +1.2789366464E+002  +2.1405941530E-001 -1.7891952805E+002 
2386758.448 +1.2762325399E-001 +1.6346917247E+002  +4.0261346175E-003 -2.0479055590E+000  +1.2461545316E-003 -1.5225883912E+002  +1.7926349980E-001 -1.6100690542E+002 
2511903.630 +1.2954004011E-001 +1.6212769800E+002  +3.1448748607E-003 -1.2457065215E+002  +2.0205476556E-003 +9.5874456323E+001  +1.4699508434E-001 -1.2271771133E+002 
2637048.811 +1.2491203421E-001 +1.6058899365E+002  +2.7209528985E-003 -3.4452730597E+001  +8.0618090687E-003 -3.2384872696E+001  +2.4528273019E-001 +1.3023543647E+002 
2762193.992 +1.0461841001E-001 -1.7887798885E+002  +3.1463227153E-002 -7.8699963813E-001  +2.0723377077E-002 +1.5588723077E+002  +8.9440483864E-001 +1.7054923919E+002 
2887339.174 +1.2411742974E-001 +1.7864745400E+002  +7.9057421226E-003 +1.3888220298E+002  +1.5935412732E-003 -8.9311839661E+001  +1.2487497540E-001 -9.5690895111E+001 
3012484.355 +1.4256695528E-001 +1.7461143578E+002  +5.5862602293E-003 +1.4629577797E+002  +3.7944652885E-003 +1.0277639370E+002  +4.0208718393E-001 -1.1289117775E+002 
3137629.537 +1.1247437770E-001 +1.6921893890E+002  +8.6049695717E-003 +1.9212711078E+001  +1.1989591261E-002 +7.5308427612E+001  +4.5077200963E-001 -1.0410980770E+002 
3262774.718 +1.1770336428E-001 +1.6830179531E+002  +3.8281961928E-003 -1.4351001689E+002  +1.6227807341E-002 -7.9146292002E+001  +1.1945842084E+000 +1.2728480787E+002 
3387919.900 +9.4091776431E-002 +1.4969649037E+002  +1.0188861881E-003 +1.5191250432E+002  +2.6682949281E-002 +2.3335893728E+001  +3.5048626584E-001 -4.2892175031E+001 
3513065.081 +1.1791179117E-001 +1.4454201539E+002  +2.4359142930E-002 +1.4794241641E+002  +2.9660683802E-002 -4.9132516410E+000  +6.6160728581E-001 +8.7987531283E+001 
3638210.263 +1.5302543295E-001 +1.4240257487E+002  +1.0325082802E-002 +1.4824307485E+002  +3.4936920602E-003 +1.7598803009E+002  +6.3780703888E-001 +1.6220961908E+002 
3763355.444 +1.5561807092E-001 +1.4597771390E+002  +3.6238720638E-003 -3.1994334920E+000  +6.6083141630E-003 +7.1391189078E+001  +4.4509898348E-001 +1.2598455524E+002 
3888500.626 +1.6343522423E-001 +1.4613939456E+002  +4.7128562947E-003 +9.3200521512E+001  +8.0313272805E-003 -3.2003012981E+001  +2.4959549466E-001 +1.4262700958E+002 
4013645.807 +1.8137217760E-001 +1.5111331995E+002  +5.1895172235E-003 +5.4071542406E+001  +1.0016989171E-002 -8.1661556439E+001  +1.8442346994E-001 +1.2344822849E+002 
4138790.989 +1.6266438884E-001 +1.4237844854E+002  +2.1351104091E-002 -1.5649801892E+002  +1.8876091087E-002 +2.3386594876E+001  +4.8553927442E-001 +1.0065897723E+002 
4263936.170 +2.0189871319E-001 +1.4344703404E+002  +4.9392198752E-003 -2.5871454796E+001  +4.3660564009E-003 +8.5350857675E+001  +5.7204157133E-001 +1.5077678839E+002 
4389081.352 +1.8522755930E-001 +1.4393534071E+002  +1.1260187852E-002 -1.4590650773E+002  +4.7104627365E-002 +5.7369875938E+001  +2.3644467411E+000 -1.1319118198E+001 
4514226.533 +2.7357517198E-001 +1.4003482222E+002  +2.6708590049E-002 -1.4888564952E+002  +1.7892446719E-002 +1.0321516397E+002  +8.9656599034E-001 +8.6237704932E+001 
4639371.715 +2.8268081878E-001 +1.1842404038E+002  +3.0073857330E-002 +1.7826017726E+002  +4.2592657863E-002 +5.5841424769E+001  +1.9636143836E+000 +1.7474034823E+002 
4764516.896 +2.8748083085E-001 +1.2928851796E+002  +3.0829789453E-002 -4.8577008639E+001  +7.7016014770E-002 +2.2769379597E+001  +3.4572271020E+000 +1.3161278160E+002 
4889662.078 +4.4145014954E-001 +1.2394780522E+002  +1.0711307415E-002 +7.0348456013E+001  +3.1818214781E-002 -1.2632638056E+002  +2.2674760084E+000 -1.0349900048E+002 
5014807.259 +3.7406985126E-001 +1.3347328531E+002  +1.4082667515E-001 -4.9860822811E+001  +1.3659747801E-001 -2.6030133088E+001  +1.8516761476E+001 +1.6377390889E+002 
5139952.441 +4.2646262773E-001 +1.2713901085E+002  +4.1225081780E-001 +1.9252754746E+001  +3.4347023807E-001 -1.1312442567E+001  +2.7187068130E+001 -1.0281668336E+002 
5265097.622 +3.8641674254E-001 +1.2345206711E+002  +1.0348210103E-001 +1.5471912603E+002  +4.4044316035E-002 -6.8049552183E+001  +6.3588741697E+000 +1.0377627851E+002 
5390242.804 +4.3574897097E-001 +1.2964302238E+002  +1.6834000435E-002 +7.3616586341E+001  +1.1260880930E-002 +1.2674696869E+002  +1.5376614020E+000 +7.0501921853E+001 
5515387.985 +4.2853814304E-001 +1.2861280062E+002  +2.5959981368E-002 -1.7956435222E+002  +1.9533303118E-002 +7.8624937991E+001  +2.3060630525E+000 +8.7688455295E+001 
5640533.166 +4.4057171854E-001 +1.2404588589E+002  +3.3813431081E-003 -1.6046583283E+002  +2.1801700127E-002 -1.6098756983E+002  +1.9520819135E+000 +8.5163689652E+001 
5765678.348 +5.0471369398E-001 +1.2474137606E+002  +4.3479394377E-003 +1.3928186549E+002  +1.3767585556E-002 -1.1837785506E+002  +1.7457447984E+000 +6.5025142232E+001 
5890823.529 +5.1857321381E-001 +1.2836601167E+002  +1.9545640283E-002 +1.6157483262E+002  +1.8365754721E-002 -1.0278068505E+002  +2.0341709219E+000 +6.4550155912E+001 
6015968.711 +6.3803669894E-001 +1.2171513423E+002  +1.5616163935E-002 +1.9116353376E+001  +1.6515718005E-002 +1.4558109886E+002  +2.5813538127E+000 +2.5740633534E+001 
6141113.892 +9.2331694701E-001 +1.1150093976E+002  +1.6558188300E-002 +1.7825921389E+002  +2.6191145664E-002 -1.2091948485E+002  +1.8454228312E+000 +2.7138306301E+001 
6266259.074 +6.4527636173E-001 +9.5285813847E+001  +8.2564173683E-003 +1.3187923618E+002  +1.6981959681E-002 +1.4272973904E+002  +1.9158100299E+000 +3.4291474855E+001 
6391404.255 +9.7144212915E-001 +9.3716197590E+001  +1.4323284754E-002 -9.5774644458E+001  +1.2886616711E-002 +5.2156476475E+001  +1.5335378066E+000 +1.9597347612E+001 
6516549.437 +1.3016284034E+000 +7.9985096109E+001  +1.4838844501E-002 -1.1078334277E+002  +4.3151487191E-002 +9.8453175955E+001  +1.3068221959E+000 +1.3408767820E+001 
6641694.618 +1.5191694951E+000 +7.3512609914E+001  +1.4554805441E-002 -3.6622453190E+001  +3.4482397449E-002 -5.5357253028E+001  +1.4799091135E+000 -1.5735408068E+000 
6766839.800 +2.2633655454E+000 +3.1107496472E+001  +2.6872394429E-002 +1.0734055080E+001  +6.9608808149E-003 -1.2161291526E+002  +1.5301930940E+000 -9.1141641368E+000 
6891984.981 +1.9246736463E+000 +3.9980968158E+001  +8.7198529294E-003 -1.7655912396E+002  +2.8161333261E-002 -3.0924578685E+001  +1.4886919204E+000 +2.0373955848E-001 
7017130.163 +1.6829608049E+000 +2.1986096919E+001  +2.5408575193E-002 +9.6025639242E+001  +2.3401101148E-002 +7.0678099576E+001  +1.3544439415E+000 -1.5013125620E+001 
7142275.344 +1.7020826397E+000 +5.7955618630E+000  +2.0807443480E-002 -1.1950112650E+002  +1.6060370947E-002 -1.2928117507E+002  +1.3895319034E+000 -1.0728741178E+001 
7267420.526 +1.3788022998E+000 +3.6034448463E+000  +1.2524928099E-002 +9.9315323669E+001  +1.6853781586E-002 +5.9439880009E+001  +1.2788740491E+000 -9.6319705044E+000 
7392565.707 +1.3433461106E+000 +2.2765340405E+000  +2.4057511591E-002 +1.4845743703E+002  +1.0060201936E-002 +6.6015660765E+001  +1.2328873720E+000 -1.1265160435E+001 
7517710.889 +1.1206040683E+000 -1.0618385679E+000  +5.2743918958E-003 -1.1493513738E+002  +7.9670869985E-003 +3.7015772204E+001  +1.1441278375E+000 -6.8654531923E+000 
7642856.070 +9.8993427028E-001 +5.7439197525E+000  +7.6388087023E-003 +1.1066220774E+002  +5.6181697064E-003 +7.5422359767E+001  +9.9551751934E-001 -4.6354199008E+000 
7768001.252 +8.3553838060E-001 +6.4827949034E+000  +3.6654891994E-003 -6.1767365254E+000  +8.4349788413E-003 +1.0773596345E+002  +9.7424134561E-001 -3.8996338513E+000 
7893146.433 +8.3320653586E-001 +6.2998472078E+000  +1.3352728525E-003 +1.0135347256E+002  +1.1613168114E-003 -9.5463360187E+001  +9.6839209045E-001 -2.0329900187E-001 
8018291.615 +8.2072070067E-001 +1.2368151950E+001  +4.6186711480E-003 +4.6922512755E+001  +4.6921493837E-003 -1.4866061405E+002  +8.4537289287E-001 +5.4669494919E-001 
8143436.796 +8.3996003579E-001 +6.7414271115E+000  +1.7597053087E-003 +7.6964313606E+001  +9.5633222471E-003 +9.9512643428E+001  +7.2988458999E-001 -2.1022095553E+000 
8268581.977 +6.8568953989E-001 +7.6866287232E+000  +5.5970191213E-003 +7.7502472866E+001  +9.9469443434E-003 +1.5491805958E+002  +7.9404986350E-001 -5.7252020225E-001 
8393727.159 +7.9693912240E-001 +8.8456609994E+000  +6.2861941446E-003 +7.1035319085E+001  +4.5505208952E-003 +1.5607711069E+002  +7.8668496513E-001 +2.1500453319E+000 
8518872.340 +6.8979954449E-001 +1.1311819257E+001  +9.6562021185E-003 +4.1686655792E+001  +8.5185192463E-003 +1.1756432141E+002  +7.3278132096E-001 -1.5691996076E+000 
8644017.522 +6.6747463345E-001 +8.2470949490E+000  +3.3590446335E-003 +4.0484231935E+001  +7.7565476399E-004 -7.4750103451E+001  +6.5856092408E-001 -4.6020223844E+000 
8769162.703 +5.7478927933E-001 +6.0946092790E+000  +4.5857055711E-003 +1.1619849934E+002  +8.3009991470E-004 +1.6132590297E+002  +6.7744040721E-001 -2.9036655986E+000 
8894307.885 +5.8657225423E-001 +7.7205101859E+000  +5.9135838072E-003 +1.2636898041E+002  +1.6704295428E-003 +1.2310465570E+002  +6.1547280676E-001 +3.2412059260E-001 
9019453.066 +5.7408100178E-001 +9.4146306587E+000  +7.5657430209E-003 +8.2845767569E+001  +1.4914173370E-003 +1.0065507494E+002  +5.8842613378E-001 -4.7924819476E-001 
9144598.248 +5.5040449848E-001 +6.5253844539E+000  +4.8110588069E-003 +8.0687938185E+001  +2.0447778402E-003 +7.0703047226E+001  +6.2168371379E-001 +1.2761329680E+000 
9269743.429 +5.2671209916E-001 +5.1570471747E+000  +2.7259421729E-003 +1.3521812408E+002  +1.7706210666E-003 +1.0870698813E+002  +6.0948755941E-001 -5.4066217549E+000 
9394888.611 +5.6787091717E-001 +1.4858754250E-001  +4.8750595886E-003 +1.1464470800E+002  +4.5412587147E-003 +1.1377369028E+002  +6.0750388442E-001 +1.1890970429E+000 
9520033.792 +5.4440531503E-001 +4.8204018512E+000  +5.5150841186E-003 +1.0497333548E+002  +4.2213155797E-003 +1.2543178739E+002  +6.3469832686E-001 -5.7521122571E+000 
9645178.974 +5.5648694271E-001 +1.9813112550E+000  +4.9927373552E-003 +7.3277807839E+001  +4.0708386451E-003 +1.0867318244E+002  +6.0408503068E-001 -5.4844141924E+000 
9770324.155 +4.9708418975E-001 +3.3297734742E+000  +1.6576957856E-003 +4.1237779371E+001  +5.0878580542E-004 +6.6621223614E+001  +5.5644379298E-001 -7.1003931002E+000 
9895469.337 +5.0893733594E-001 -6.0028272364E-001  +2.4299229986E-003 -1.2809911908E+002  +2.2728629243E-003 +6.3798626886E+001  +5.9173251341E-001 -5.6812435992E+000 
10020614.518 +5.5343434328E-001 +5.1982158642E+000  +5.6547406242E-003 +1.4424962334E+002  +3.6761985750E-003 +1.3627654439E+002  +6.0557131676E-001 -4.3768085792E+000 
10145759.700 +5.6164098137E-001 +6.8536929306E+000  +5.1895171764E-003 +9.5327955578E+001  +2.5930614135E-003 +1.0033609862E+002  +6.1704879440E-001 -5.3024823065E+000 
10270904.881 +5.6240572749E-001 +7.7464526896E-001  +4.0769432023E-003 +7.7604672237E+001  +2.1250864801E-003 +4.9954563746E+001  +5.5649752194E-001 -3.8663310218E+000 
10396050.063 +6.1932585746E-001 +1.5248819125E+000  +3.9038819362E-003 +5.9297095674E+001  +2.0278510526E-003 -9.9676995771E-001  +5.8714704711E-001 +1.3590004803E+000 
10521195.244 +5.4315920374E-001 +1.7500076274E+000  +5.2172444856E-003 +6.6279354728E+001  +4.1462958385E-003 +1.0576599574E+002  +5.6272320216E-001 -2.4431499037E+000 
10646340.426 +5.7707971628E-001 +5.1815970954E+000  +4.4300170098E-003 +8.5768322286E+001  +6.7468681668E-003 +8.3281517473E+001  +6.0520400121E-001 +1.4997529622E+000 
10771485.607 +5.7043066104E-001 +5.7497569928E+000  +1.7600483977E-003 +9.1197615070E+001  +4.7173760374E-003 +5.4488427083E+001  +5.9325396044E-001 -4.9526209423E-001 
10896630.788 +5.7731019687E-001 +9.0654613778E+000  +3.6545886309E-003 +1.3548643718E+002  +4.2278053317E-003 +8.3456286185E+001  +5.9042601293E-001 -2.2467286241E+000 
11021775.970 +6.0617021289E-001 +7.1155064110E+000  +5.5387503202E-003 +9.6590560401E+001  +4.6237578954E-003 +9.5545762664E+001  +6.4072154784E-001 +1.6169073701E-001 
11146921.151 +6.1037926277E-001 +7.8026512215E+000  +5.8448272114E-003 +7.2173949961E+001  +6.4795091928E-003 +8.4894866105E+001  +6.1869415480E-001 +8.5187768044E-002 
11272066.333 +5.9670208790E-001 +5.7759709308E+000  +3.0582623856E-003 +7.7226443427E+001  +4.1323796697E-003 +9.3678981063E+001  +6.2083536073E-001 -2.7156036285E+000 
11397211.514 +6.3782087030E-001 +8.4146579750E+000  +4.2195298381E-003 +5.5837217151E+001  +6.0666436716E-003 +1.1190626598E+002  +6.2588713890E-001 +2.4584288535E+000 
11522356.696 +6.3317133569E-001 +8.2262280759E+000  +4.8630267727E-003 +9.4468658789E+001  +6.8799596975E-003 +9.9390782786E+001  +6.5562243796E-001 +6.0699551342E-001 
11647501.877 +6.2498589342E-001 +5.7035416892E+000  +7.1154051202E-003 +9.4995795303E+001  +5.7138629189E-003 +1.0487916245E+002  +6.5116016663E-001 +5.2508666184E-001 
11772647.059 +6.3752873745E-001 +5.4167259570E+000  +6.1430598764E-003 +8.7185363528E+001  +5.2162820647E-003 +1.2898371068E+002  +6.7982103262E-001 -1.0563252586E+000 
11897792.240 +6.3341636461E-001 +4.8726409236E+000  +5.3961308302E-003 +1.0062249515E+002  +4.3271667412E-003 +8.4575858828E+001  +7.0081998102E-001 -5.7699468123E-001 
12022937.422 +6.7379089997E-001 +3.6929179781E+000  +6.8242143423E-003 +7.5940250752E+001  +6.7016852775E-003 +1.1154221509E+002  +6.7417110678E-001 -6.0374602136E-002 
12148082.603 +6.8448843519E-001 +3.3623421004E+000  +7.1464253641E-003 +1.1931874821E+002  +5.0499891823E-003 +9.0527261347E+001  +7.0341692354E-001 +1.0372125264E+000 
12273227.785 +6.8683974323E-001 +6.6967329014E+000  +4.6514157240E-003 +8.2989656968E+001  +5.2664730695E-003 +8.6002540931E+001  +6.9356717776E-001 +2.3557258864E-001 
12398372.966 +7.2278337472E-001 +3.6804707911E+000  +7.7768625451E-003 +8.7869986415E+001  +5.9040447521E-003 +8.9604172407E+001  +7.1214933750E-001 +1.0237709715E+000 
12523518.148 +7.2412184235E-001 +3.4835601805E+000  +4.4368717761E-003 +8.4814238841E+001  +6.2401697782E-003 +9.2225706608E+001  +7.4862249264E-001 +1.4900916523E+000 
12648663.329 +7.6883174537E-001 +2.1328730017E+000  +6.5741722659E-003 +9.6051455238E+001  +5.4676075953E-003 +8.1399025912E+001  +7.6137279422E-001 +7.9150409190E-001 
12773808.511 +7.7717557370E-001 +3.0608594489E+000  +6.3189760621E-003 +9.1803604268E+001  +6.2398949853E-003 +9.4884414832E+001  +7.8147616615E-001 +8.1286423342E-001 
12898953.692 +7.8484236051E-001 +1.7696817169E-001  +5.6492968320E-003 +9.4965881630E+001  +6.9013372026E-003 +9.7847175580E+001  +7.8466092599E-001 -1.8568806568E+000 
13024098.874 +7.8993575792E-001 +1.6528133216E+000  +6.1595443646E-003 +8.7183735376E+001  +7.4865865481E-003 +8.4181350014E+001  +8.2304559752E-001 -3.0502270332E+000 
13149244.055 +8.0197068738E-001 -1.2110473440E+000  +7.8894313869E-003 +8.3375580522E+001  +6.6001857211E-003 +6.8721024028E+001  +8.1962558613E-001 -2.3449932450E+000 
13274389.237 +7.9746199980E-001 +9.4564128583E-002  +7.2662985071E-003 +8.1148860719E+001  +5.0607493102E-003 +1.1200595968E+002  +8.3749649725E-001 -6.9025709311E-001 
13399534.418 +8.4186599882E-001 -1.9449182094E+000  +6.2244118588E-003 +8.3910012335E+001  +8.0434110015E-003 +1.0690804932E+002  +8.6251009910E-001 -3.7815745805E+000 
13524679.599 +8.7431771077E-001 -2.0402628797E+000  +4.7097654213E-003 +9.7660664836E+001  +6.8834691362E-003 +9.5598259278E+001  +8.4944549465E-001 -3.1251117527E+000 
13649824.781 +8.7937320687E-001 -2.5204152446E+000  +7.7864146725E-003 +8.8179792083E+001  +9.1032235102E-003 +8.8096653450E+001  +8.6488388683E-001 -1.9608630805E+000 
13774969.962 +8.9306776444E-001 -2.3758604368E+000  +6.4268266084E-003 +8.1278033569E+001  +5.8493229279E-003 +9.9552127119E+001  +8.9044998240E-001 -3.2785193044E+000 
13900115.144 +8.9708374364E-001 -3.9782922920E+000  +7.0206767249E-003 +9.5687947441E+001  +7.5507236011E-003 +1.0047779227E+002  +9.0001332295E-001 -1.6233092130E+000 
14025260.325 +9.1401558786E-001 -2.9586186685E+000  +6.1015214370E-003 +1.0284808092E+002  +7.6813320824E-003 +9.0227507742E+001  +9.5163468197E-001 -3.3433808457E+000 
14150405.507 +9.4184183588E-001 -3.7975839756E+000  +6.7651965880E-003 +9.6451745492E+001  +7.8081719607E-003 +9.4724273499E+001  +9.6275845491E-001 -4.4768866527E+000 
14275550.688 +9.6223438480E-001 -3.7930247643E+000  +6.8154401653E-003 +8.5524401598E+001  +7.0081459039E-003 +7.5210290653E+001  +9.5950640674E-001 -4.7640868299E+000 
14400695.870 +9.7253269391E-001 -5.0555859497E+000  +7.6790626592E-003 +1.0604565822E+002  +6.6546692978E-003 +8.4751639604E+001  +1.0013115758E+000 -4.7854007829E+000 
