!  2-Port S-parameters saved by WinCal
! VAR MeasName=S-Parameters (CALIBRATED_DATA) read from VNA (P5004A)
! VAR MeasDate=28/08/2024 12:13:25
! VAR NAME=S2_r7c9_RESET2_9k-100M_1
! VAR FILENAME=S2_r7c9_RESET2_9k-100M_1.S2P
! VAR DATE=28/08/2024 12:13:25
! VAR PHYS_PORTS=1,2
! VAR ObjTypeName=DATASET
! VAR IndexType=Frequency
!
# Hz S MA R 50
9000.000 +8.4127836656E-002 -1.6458337988E+002  +6.1693188985E-003 +3.7072530817E+001  +4.0569906458E-003 -1.6573833273E+002  +2.0611657087E-001 -1.3380493190E+002 
134145.181 +1.1139033816E-001 +1.6997206454E+002  +6.7568133316E-005 +1.0902225728E+002  +4.4738319329E-004 -1.0580067926E+002  +2.3673633345E-001 -1.7038029866E+002 
259290.363 +1.1123903898E-001 +1.6965616586E+002  +6.8869535463E-004 +1.5807040974E+002  +3.5813032822E-004 -4.6528340051E+001  +2.4131772250E-001 -1.6799264646E+002 
384435.544 +1.1236650370E-001 +1.7092310836E+002  +6.5541085609E-004 +6.3191686398E+001  +6.0903403497E-004 +9.7680609245E+001  +2.4446130401E-001 -1.6945333235E+002 
509580.726 +1.1608628046E-001 +1.7185987936E+002  +5.7746999415E-004 +3.2177992818E+001  +1.1169429235E-003 +8.8136413011E+001  +2.3868257682E-001 -1.6519418945E+002 
634725.907 +1.1678316712E-001 +1.7189633079E+002  +8.9134892318E-004 -1.7986920922E+002  +1.3865488290E-003 -1.0012460350E+002  +2.5350676129E-001 -1.6443195386E+002 
759871.089 +1.2009000093E-001 +1.7078918442E+002  +3.4679100695E-004 +4.6778525717E+001  +2.3696106245E-004 +3.8077818917E+001  +2.5324165321E-001 -1.6522711815E+002 
885016.270 +1.1972156170E-001 +1.6964203831E+002  +2.1343932245E-004 +9.2750835746E+000  +9.5415208571E-005 -1.6238889506E+002  +2.4390163699E-001 -1.6590639438E+002 
1010161.452 +1.1630835866E-001 +1.7035516770E+002  +1.3260076225E-003 -1.3521673671E+002  +1.9198593121E-003 +1.3094722361E+002  +2.1032693159E-001 -1.6819635140E+002 
1135306.633 +1.1621722522E-001 +1.6797031674E+002  +8.0394299062E-004 -1.3250508872E+002  +8.6024650961E-004 -1.7918653233E+002  +2.0439558581E-001 -1.6691242219E+002 
1260451.815 +1.1630342495E-001 +1.7190161688E+002  +1.1121836617E-003 -1.1351472441E+002  +2.8825176202E-003 +1.7588817253E+002  +2.2403671764E-001 -1.5945507827E+002 
1385596.996 +1.2156773746E-001 +1.7070982199E+002  +6.5440560135E-004 -4.9287934130E+001  +1.8899962687E-004 +8.9262442184E+000  +2.6351770380E-001 -1.6047960412E+002 
1510742.178 +1.2875619385E-001 +1.7091545814E+002  +4.7035323325E-004 +8.7797796673E+001  +1.4626354443E-003 +6.5319063469E+000  +2.5706832209E-001 -1.6047636262E+002 
1635887.359 +1.2405969021E-001 +1.7194234440E+002  +1.5804480175E-003 +2.8530056774E+001  +1.4795983152E-003 -8.3288183820E+001  +2.4540788944E-001 -1.5757797217E+002 
1761032.541 +1.2810059464E-001 +1.6917710184E+002  +1.0568123442E-003 -2.2173071812E+001  +8.0602633485E-004 -1.0657550435E+002  +2.1079827486E-001 -1.6227573641E+002 
1886177.722 +1.3165933209E-001 +1.6825479945E+002  +1.6705108578E-003 +1.2060369239E+001  +2.4701276023E-004 -1.6591606027E+002  +2.0151809251E-001 -1.6235028134E+002 
2011322.904 +1.2834293697E-001 +1.6727771896E+002  +1.3285256351E-003 -1.6400577734E+001  +4.1866201492E-004 +1.1006113738E+002  +2.1692782258E-001 -1.6246863729E+002 
2136468.085 +1.2616586177E-001 +1.6472591741E+002  +3.3156829853E-003 -1.0346650540E+002  +5.3818565548E-003 -8.5349342998E+001  +1.5652668749E-001 -1.6455974129E+002 
2261613.267 +1.2577836539E-001 +1.6643148905E+002  +3.3033808236E-003 -9.2750388152E+001  +3.4684059132E-003 +1.2623326853E+002  +1.7027854712E-001 +1.5582938631E+002 
2386758.448 +1.3494752056E-001 +1.6457627663E+002  +2.6717280336E-003 +1.0277174709E+002  +1.1236919990E-003 +3.5988310316E+001  +2.0794652419E-001 +1.5981759611E+002 
2511903.630 +1.3607543216E-001 +1.5853673193E+002  +3.6297675883E-003 +2.7745556155E+001  +1.2917466012E-003 -1.3327034363E+002  +2.0602033613E-001 +1.7242741577E+002 
2637048.811 +1.2012683417E-001 +1.5847040059E+002  +1.7489212442E-003 +2.2896491499E+001  +4.2900676179E-003 +4.8945965782E+001  +2.8680685257E-001 +1.5269437644E+002 
2762193.992 +1.1991863285E-001 +1.6973220701E+002  +7.9622933945E-002 +1.5630207408E+002  +4.4746190621E-002 +8.3762763229E+001  +3.7113583885E+000 +9.3252541999E+001 
2887339.174 +1.1733098484E-001 +1.6836880527E+002  +2.0055705682E-002 -8.4868974700E+001  +3.1797726759E-002 +7.9634216585E+001  +7.7740935224E-001 -5.7625067865E+001 
3012484.355 +1.2486524336E-001 +1.6812202829E+002  +6.7296551493E-003 -1.0682488180E+002  +1.6804875599E-003 +2.4363983247E+001  +3.6290196754E-001 -9.0474396564E+001 
3137629.537 +1.1494579091E-001 +1.5968339179E+002  +1.1106427466E-002 -1.7890050752E+002  +5.0588091930E-003 +1.5636475941E+002  +1.1710626883E-001 -1.0017595032E+002 
3262774.718 +1.0075362079E-001 +1.7172389231E+002  +1.5300839858E-002 +6.2690547674E+001  +1.5962683828E-002 +4.5611254145E+001  +2.2878166216E-001 -7.4519034999E+001 
3387919.900 +1.5061125557E-001 +1.5382334392E+002  +1.4768128553E-002 -1.1170361866E+002  +9.9281486497E-003 +1.6025262501E+002  +3.9253731238E-001 +3.9100301359E+001 
3513065.081 +1.6507061277E-001 +1.5160302172E+002  +2.7883514180E-002 -8.4103513484E+001  +2.7462471494E-002 +8.8844514470E+001  +1.3055790646E+000 +2.3458686241E+001 
3638210.263 +1.8190202080E-001 +1.4353009810E+002  +8.8711511132E-003 +3.6057039213E+001  +1.5608700945E-002 +1.3652901790E+002  +7.3027736770E-001 +1.5327736007E+002 
3763355.444 +1.8692972578E-001 +1.4218620564E+002  +2.2138022930E-003 +1.5014055753E+002  +4.3130241705E-003 +6.2716430854E+001  +3.7960882752E-001 +1.5273441407E+002 
3888500.626 +1.5473214397E-001 +1.5307834918E+002  +5.8678712343E-003 +1.6196507272E+002  +3.9377107285E-003 +1.3665944733E+002  +1.9389257331E-001 +1.2381408219E+002 
4013645.807 +1.5092160401E-001 +1.3622307691E+002  +1.2818056620E-002 -1.2354215361E+002  +1.0775631667E-002 -1.4985772495E+002  +3.8366714390E-001 +1.2306493278E+002 
4138790.989 +1.6785372923E-001 +1.4098864751E+002  +4.4122368824E-003 -1.5638396241E+002  +2.1031276310E-003 -1.7813019680E+001  +4.5648415473E-001 +1.3396337922E+002 
4263936.170 +2.0725778011E-001 +1.4093937147E+002  +5.6796287942E-003 -8.7270556148E+001  +1.1386237456E-002 +1.2705855415E+002  +6.7201211528E-001 +1.5235931585E+002 
4389081.352 +2.3614177040E-001 +1.3740841273E+002  +6.9824343026E-003 +1.4632922411E+002  +1.2588357840E-002 +1.5915985681E+002  +8.8934050043E-001 +1.3076892591E+002 
4514226.533 +2.6716014240E-001 +1.4116620310E+002  +2.8918585003E-002 -1.3186388602E+002  +3.5653215320E-002 +4.2986939317E+001  +2.1035673310E+000 +1.2620977962E+002 
4639371.715 +2.9487877738E-001 +1.3453050085E+002  +2.0856645252E-002 +1.5096339571E+002  +5.1319091629E-002 -3.2226845531E+001  +2.5213138396E+000 -1.7552624503E+002 
4764516.896 +2.7025232396E-001 +1.1626969885E+002  +2.5282481226E-002 -8.6111033036E+001  +1.8725604380E-001 +1.2074056931E+001  +5.8393569868E+000 -9.7519538672E+001 
4889662.078 +5.6910111342E-001 +1.3418564470E+002  +2.8400273219E-002 +5.0529285825E+000  +1.0650127683E-002 -1.5021653801E+002  +1.8047375122E+000 -1.2553350179E+002 
5014807.259 +5.4605534075E-001 +1.2804740207E+002  +4.1085063591E-002 +9.3420056941E+000  +3.3427743612E-002 -1.7648218212E+002  +1.8573197122E+000 +3.2657629969E+001 
5139952.441 +3.6524174838E-001 +1.2167638870E+002  +4.2785500637E-002 -1.5482505898E+002  +3.6531892283E-002 +1.1502950130E+001  +1.3752373079E+000 +4.7623788139E+001 
5265097.622 +5.2316450850E-001 +1.2116231186E+002  +5.1686346420E-002 -1.7714742248E+002  +6.2297182561E-003 +4.9889732933E+001  +3.0744878282E+000 +6.2016790148E+001 
5390242.804 +3.6589000124E-001 +1.2905915135E+002  +1.7989155141E-002 +7.1134235270E+001  +2.1067494393E-002 -1.2788089051E+002  +2.2299850396E+000 +6.0744329576E+001 
5515387.985 +4.1537455361E-001 +1.3121124548E+002  +3.5354040634E-002 +1.1637578844E+002  +1.4357472281E-002 +9.8533868627E+001  +1.5708147683E+000 +8.2399212598E+001 
5640533.166 +4.6161085130E-001 +1.2723572540E+002  +2.5411637311E-002 +1.6242148566E+002  +4.6242641418E-003 -1.2518682325E+002  +1.7390818899E+000 +5.2483194504E+001 
5765678.348 +5.1212144218E-001 +1.2958484644E+002  +1.3748782934E-002 +1.1685437720E+002  +2.0864825725E-002 +7.3903630993E+001  +1.3004434629E+000 +8.0500995214E+000 
5890823.529 +5.6759770827E-001 +1.2451542816E+002  +1.6068230916E-002 -5.3706610227E+001  +1.6561150680E-002 -1.5459680291E+002  +1.8583207171E+000 +8.2359518827E+001 
6015968.711 +5.6309902610E-001 +1.1592686521E+002  +3.1054188417E-003 -9.8271943620E+001  +2.0867307900E-002 +1.4769995112E+002  +1.7199421867E+000 +7.2257098540E+001 
6141113.892 +8.4887938031E-001 +1.0662951569E+002  +2.4856483250E-002 -4.0505651110E+001  +8.1556167853E-003 +5.5387220396E+000  +2.2651460612E+000 +2.7224253837E+001 
6266259.074 +8.1765967439E-001 +9.9908327058E+001  +1.3712997924E-002 +1.0807563755E+002  +1.5060295395E-002 +5.5070993946E+001  +1.1622205924E+000 +2.6027875091E+001 
6391404.255 +1.0501763825E+000 +8.8099672292E+001  +1.4792383427E-002 -1.7063111123E+002  +3.0650135169E-002 +1.7318257524E+002  +1.9462999945E+000 +9.2303887667E+000 
6516549.437 +1.2160371856E+000 +7.4043476061E+001  +2.8117954709E-002 +2.4832170022E+001  +1.8800565069E-002 +2.7824226910E+001  +1.5473180461E+000 -3.2004666177E+000 
6641694.618 +1.0015391061E+000 +6.8021660709E+001  +2.6099691021E-002 +1.2674016166E+002  +1.6133547209E-002 +7.1299349161E+001  +1.3835385547E+000 +1.0648275967E+001 
6766839.800 +2.1707306105E+000 +3.0005355267E+001  +1.3402010964E-002 +7.8852712230E+000  +4.3621163849E-002 +1.2210790135E+002  +1.2457295221E+000 -6.5907608403E+000 
6891984.981 +1.5679715680E+000 +2.1268568792E+001  +1.4419477558E-002 -1.4960659473E+002  +3.5393174080E-002 +5.9190627083E+001  +1.4823261306E+000 -6.9197166192E-001 
7017130.163 +1.8315089626E+000 +2.3417575571E+001  +1.4437576249E-002 -1.6479199021E+001  +1.8482051481E-002 -5.5284064311E+001  +1.2396931029E+000 -2.0655260238E+001 
7142275.344 +1.5877605406E+000 -1.2535814283E+000  +1.0642030397E-002 -1.2283410664E+001  +1.7842139613E-002 +1.0584658710E+002  +1.3687800994E+000 -1.3390953108E+001 
7267420.526 +1.7506385356E+000 -6.2924763643E+000  +8.7876468839E-003 +1.0714415325E+002  +1.4592703756E-002 +1.0478736584E+002  +1.3924524879E+000 -7.5723603433E+000 
7392565.707 +1.2674572204E+000 +4.4877747665E+000  +7.5938627984E-003 +1.0675569018E+002  +5.3348202239E-003 -1.7134435082E+001  +1.2729069122E+000 -7.2112740697E+000 
7517710.889 +1.1155817405E+000 -2.0458185467E+000  +6.0914671519E-003 +1.3501669959E+002  +2.3078511632E-003 -1.6052040220E+002  +1.2620846261E+000 -8.6441311000E+000 
7642856.070 +1.0751739545E+000 +2.4222658758E+000  +8.2247427234E-003 +3.2060655513E+001  +8.4087698685E-003 -1.2626328853E+001  +9.7196642470E-001 -6.7042202855E+000 
7768001.252 +9.2611324412E-001 +2.8792859140E+000  +9.4207288613E-003 +9.3942826276E+001  +1.1930666955E-002 +1.2037697218E+002  +1.0306663689E+000 -4.3438994224E+000 
7893146.433 +8.6635404335E-001 -4.3006207740E+000  +5.9881434305E-003 +8.1346844596E+001  +1.3299323005E-003 +9.3967956641E+001  +8.3525259277E-001 +5.9584849004E+000 
8018291.615 +8.6065312043E-001 +5.4298921067E+000  +5.3584954773E-003 +7.8537513385E+001  +7.5844228194E-003 +9.5640002925E+001  +9.0503137322E-001 +2.9978227055E-001 
8143436.796 +7.8060015296E-001 +3.6904756557E+000  +3.5844614983E-003 -1.2075074420E+002  +4.8107151453E-003 +1.0445040054E+002  +8.1752743313E-001 +2.7555659483E+000 
8268581.977 +7.4324020532E-001 +2.9854297363E+000  +4.1720329534E-003 +4.9836745433E+001  +4.1560414353E-003 +6.7872488293E+001  +7.8181467113E-001 -5.6715418382E-001 
8393727.159 +7.7022968379E-001 +3.1219914655E+000  +3.2657475284E-003 +1.0295079223E+002  +1.1263453281E-003 -1.1621881902E+002  +7.6993613395E-001 +1.6627162258E+000 
8518872.340 +6.9123432775E-001 +3.1871571526E+000  +2.5859779242E-003 +7.6007007951E+001  +1.9189741794E-003 -7.4391439349E+001  +7.6402451889E-001 +1.9233335439E+000 
8644017.522 +6.3672256988E-001 +8.7303999594E+000  +6.1811124307E-003 +7.8021534309E+001  +4.4796550517E-003 +8.2229620186E+001  +6.8932745812E-001 -4.5033856377E+000 
8769162.703 +6.6074731619E-001 +8.4849434971E+000  +6.5357774355E-004 -8.1385934933E+001  +2.9695411365E-003 +7.4947233828E+001  +6.9730633194E-001 +1.5989015992E+000 
8894307.885 +5.6507198999E-001 +9.2642776512E+000  +1.6892376233E-003 +1.5872624175E+002  +2.5031655685E-003 +4.7092882809E+001  +6.4781746226E-001 +2.9748163753E-001 
9019453.066 +5.2343312024E-001 +5.3224763559E+000  +4.6611602528E-003 +4.2927540500E+001  +5.4109390371E-003 +6.1802162971E+001  +6.9297214563E-001 -9.8022182258E-001 
9144598.248 +5.6352087175E-001 +3.4855950605E+000  +2.5596079495E-003 +7.2449066301E+001  +4.0083905509E-003 +1.0164885250E+002  +6.0533844917E-001 -2.8879141408E+000 
9269743.429 +6.2039780631E-001 +6.2688742734E-001  +1.8702069628E-003 -1.6118820370E+002  +5.9153900977E-003 +9.3996386623E+001  +5.7972722878E-001 +6.6643969846E-001 
9394888.611 +5.6813108576E-001 -1.5951985713E-001  +3.2650644622E-003 +1.0926806187E+002  +3.8382656718E-003 +7.5850992972E+001  +5.8824227155E-001 +3.7669355915E+000 
9520033.792 +5.3311921391E-001 +1.9694077559E+000  +4.6525291364E-003 +7.8843311534E+001  +4.5523424557E-003 +1.2661653213E+002  +6.0300097097E-001 -4.4388202287E+000 
9645178.974 +5.6190493366E-001 -2.9863579012E+000  +5.6563138864E-003 +9.0392889000E+001  +5.7184645621E-003 +1.4394029741E+002  +6.1854179057E-001 -6.9054759251E+000 
9770324.155 +5.1621144843E-001 +2.6159203721E+000  +4.5537570361E-003 +5.1896021178E+001  +2.5249429892E-003 +9.1610455727E+001  +5.8372861433E-001 -2.8236310227E+000 
9895469.337 +5.4840060616E-001 +6.3464912988E-001  +4.5578665399E-003 +9.5419224984E+001  +4.6634181096E-003 +1.1672791946E+002  +6.3370846530E-001 -8.8719759567E+000 
10020614.518 +5.6138536932E-001 +6.1436739429E+000  +4.5936834484E-003 +6.4086844169E+001  +3.8041265308E-003 +7.1544757031E+001  +6.0312000535E-001 -3.3054043312E+000 
10145759.700 +5.5627437027E-001 -5.3197472482E-001  +3.8522855449E-003 +9.4333640683E+001  +5.1004935497E-003 +1.1958169389E+002  +5.7214081373E-001 -5.6641153213E+000 
10270904.881 +5.2048543544E-001 +4.0194366266E+000  +6.0947578944E-003 +8.0876313442E+001  +3.4858582899E-003 +7.7309539769E+001  +5.9006388465E-001 -7.5314214625E-001 
10396050.063 +5.1874284660E-001 +3.4780207170E+000  +5.3526537406E-003 +1.0260794717E+002  +9.7538789247E-004 +1.4830902804E+002  +5.9139838215E-001 +6.5074085952E-002 
10521195.244 +5.2834046920E-001 +9.4481098691E+000  +6.8391144890E-003 +8.4944291771E+001  +6.0774576901E-003 +9.3394560920E+001  +5.9989247719E-001 +6.8708871618E-001 
10646340.426 +5.2667442078E-001 +6.6730179209E+000  +4.1495563166E-003 +1.0472746319E+002  +4.7526372297E-003 +1.0131496992E+002  +5.5115065157E-001 +1.0435052526E+000 
10771485.607 +5.6975300605E-001 +7.5713827421E+000  +4.1449942460E-003 +1.0673795751E+002  +3.8994549139E-003 +1.2473757813E+002  +6.0034676444E-001 +4.3857575514E+000 
10896630.788 +6.1594357713E-001 +9.9057037346E+000  +3.4273120597E-003 +6.0162888181E+001  +3.4198205523E-003 +1.0744284689E+002  +5.9854475984E-001 +2.6657401054E+000 
11021775.970 +5.7088348536E-001 +6.2752876445E+000  +5.5383903155E-003 +6.9420531612E+001  +4.3524285684E-003 +9.2830257320E+001  +6.0073965674E-001 +1.8616955991E+000 
11146921.151 +6.2274350045E-001 +7.7403156508E+000  +4.6818563815E-003 +7.4880071052E+001  +4.4932840050E-003 +1.3228676191E+002  +6.5751947831E-001 +2.7361587349E+000 
11272066.333 +6.0793742467E-001 +6.2023017199E+000  +6.5626238138E-003 +7.5217770075E+001  +5.8921515068E-003 +1.0466545124E+002  +6.1679172581E-001 +3.1327344632E+000 
11397211.514 +5.9984457834E-001 +7.9218383265E+000  +5.3129406804E-003 +1.1682173452E+002  +4.7424543348E-003 +1.0822963109E+002  +6.6211016191E-001 -5.4590437521E-001 
11522356.696 +6.3498720411E-001 +7.9279593103E+000  +6.1628444572E-003 +1.0270068889E+002  +4.9670378978E-003 +1.0747337134E+002  +6.5296874945E-001 +3.1682043822E+000 
11647501.877 +5.9393476888E-001 +6.2357689925E+000  +5.8607125108E-003 +7.1795696146E+001  +3.5479682059E-003 +8.1523111942E+001  +6.4165307069E-001 +1.9273585560E+000 
11772647.059 +6.5517592839E-001 +5.6545143963E+000  +5.0878742366E-003 +6.1875906674E+001  +6.3049847666E-003 +1.2396438481E+002  +6.5646905972E-001 +2.3805795634E+000 
11897792.240 +6.3521513693E-001 +4.9555069757E+000  +6.5661601798E-003 +1.0246413355E+002  +5.0637042465E-003 +1.1334048722E+002  +6.5675679682E-001 +1.1166819677E+000 
12022937.422 +6.6388572435E-001 +5.1317271829E+000  +4.9010825309E-003 +1.1438512606E+002  +6.6188977943E-003 +1.0351745515E+002  +6.5413458182E-001 -1.4717047239E+000 
12148082.603 +6.9318707677E-001 +2.2607912565E+000  +7.4002677627E-003 +9.4951880140E+001  +5.1574820352E-003 +8.5973191049E+001  +7.1566596655E-001 -1.0340887790E+000 
12273227.785 +7.0114950178E-001 +6.2423602500E+000  +5.3939393501E-003 +9.0774603073E+001  +5.8805671585E-003 +1.0311355216E+002  +7.0876522543E-001 -1.8862515437E+000 
12398372.966 +7.3267673204E-001 +5.0150572980E+000  +6.6570701638E-003 +1.0481019738E+002  +4.6191784996E-003 +7.8145216125E+001  +7.3659099169E-001 -9.5392927966E-003 
12523518.148 +7.0806721649E-001 +3.8803264213E+000  +6.0886032152E-003 +8.2530346295E+001  +4.3368480181E-003 +1.1866041942E+002  +7.4519904383E-001 +1.4561291027E+000 
12648663.329 +7.2952517503E-001 +2.4446806874E+000  +5.7866006850E-003 +8.4928600270E+001  +7.6179725281E-003 +1.0864496973E+002  +7.7238861806E-001 -1.9062956854E+000 
12773808.511 +7.4556754414E-001 +1.5150368675E+000  +6.2951201117E-003 +9.8260716061E+001  +7.7503978604E-003 +9.5747230948E+001  +7.7091472456E-001 -2.0791854502E-002 
12898953.692 +7.5479676186E-001 +1.7016231248E+000  +6.6909459285E-003 +8.1808203127E+001  +6.5373341047E-003 +9.4979689800E+001  +7.7539468291E-001 -1.2548963374E+000 
13024098.874 +8.0387567739E-001 +1.2225086642E+000  +5.6888947978E-003 +9.9827917860E+001  +7.0969317384E-003 +9.2479857764E+001  +8.0547133117E-001 +4.4276990164E-001 
13149244.055 +8.0597134724E-001 +3.8570092455E-001  +6.0414069421E-003 +9.2340886110E+001  +3.7552927354E-003 +9.2218354281E+001  +8.2066865281E-001 -2.7511465099E+000 
13274389.237 +8.4308316989E-001 +2.0715229085E-001  +6.2249804613E-003 +9.1509605767E+001  +7.5375173528E-003 +1.0258980943E+002  +8.3099165212E-001 -1.8878763385E+000 
13399534.418 +8.4414774950E-001 -3.4926392532E-001  +5.5964763899E-003 +9.2784663818E+001  +6.2590297095E-003 +1.0151768197E+002  +8.5169682454E-001 -2.3506216797E+000 
13524679.599 +8.4929920414E-001 -1.5598605640E+000  +5.2276616177E-003 +9.6661234958E+001  +6.9446094797E-003 +9.8192637208E+001  +8.6343181239E-001 -2.9655278457E+000 
13649824.781 +8.7419563134E-001 -2.5138087250E+000  +7.4035688660E-003 +9.2689356832E+001  +8.1269503959E-003 +1.0833205652E+002  +8.7777279595E-001 -2.9514748649E+000 
13774969.962 +8.8857637206E-001 -2.7231666044E+000  +5.5067584772E-003 +9.5617082200E+001  +6.8475362413E-003 +1.0123523491E+002  +9.0409844311E-001 -3.7078021249E+000 
13900115.144 +9.1346188445E-001 -2.1249246112E+000  +6.7396234115E-003 +9.8691527683E+001  +5.5170761880E-003 +9.6483632116E+001  +9.0757190617E-001 -2.4268658758E+000 
14025260.325 +9.2945148306E-001 -3.3459086689E+000  +8.4248123898E-003 +9.2927243046E+001  +8.1964790493E-003 +9.7453191362E+001  +9.4491436893E-001 -4.0559429336E+000 
14150405.507 +9.2896881703E-001 -3.5945542480E+000  +6.7091627376E-003 +8.6614714354E+001  +7.5455722536E-003 +7.6588690456E+001  +9.5472091151E-001 -4.3234400099E+000 
14275550.688 +9.6771998193E-001 -5.6512967542E+000  +7.6554915851E-003 +9.2141416892E+001  +6.5839727461E-003 +1.0463732447E+002  +9.6687077125E-001 -3.9873343642E+000 
14400695.870 +9.7183094761E-001 -4.1621305292E+000  +7.4128467607E-003 +9.9693358476E+001  +6.7267647116E-003 +8.1289876023E+001  +9.8219420160E-001 -4.3642368531E+000 
