!  2-Port S-parameters saved by WinCal
! VAR MeasName=S-Parameters (CALIBRATED_DATA) read from VNA (P5004A)
! VAR MeasDate=27/08/2024 16:02:22
! VAR NAME=S2_r1c9_formed_9k-100M_3_0
! VAR FILENAME=S2_r1c9_formed_9k-100M_3_0.S2P
! VAR DATE=27/08/2024 16:02:22
! VAR PHYS_PORTS=1,2
! VAR ObjTypeName=DATASET
! VAR IndexType=Frequency
!
# Hz S MA R 50
9000.000 +8.1685966360E-002 -1.7138574964E+002  +2.2706301011E-003 -7.5336070339E+001  +5.3952597565E-003 +1.5337519955E+002  +1.9592224331E-001 -1.3435056249E+002 
134145.181 +1.0996636213E-001 +1.6927093510E+002  +3.1118582373E-004 +8.6466257904E+001  +4.9567506723E-005 -1.8854453786E+000  +2.4151927470E-001 -1.7074234618E+002 
259290.363 +1.1127803791E-001 +1.6970264697E+002  +2.1922701075E-004 -2.5095676421E+001  +6.8579192380E-004 +9.7696887441E+001  +2.4267198467E-001 -1.6852816008E+002 
384435.544 +1.1324030294E-001 +1.7014485255E+002  +8.1656597066E-004 -1.1213920776E+002  +2.7490678118E-004 +1.5041838817E+002  +2.4303850996E-001 -1.6718764868E+002 
509580.726 +1.1398537993E-001 +1.7094038359E+002  +1.1347831106E-003 +1.4090913058E+002  +5.2105289086E-004 +3.1577905347E+001  +2.4876273770E-001 -1.6304524964E+002 
634725.907 +1.1715393901E-001 +1.7095568123E+002  +3.7685603279E-004 +1.7717926584E+002  +2.5338037147E-004 +1.6214434127E+002  +2.3285087678E-001 -1.6544784932E+002 
759871.089 +1.1778498845E-001 +1.7153207943E+002  +1.3924954802E-003 +5.5288686129E+001  +5.1874049682E-004 -1.0304028279E+002  +2.4200747215E-001 -1.6467492518E+002 
885016.270 +1.1442793672E-001 +1.6898032434E+002  +3.1995843908E-004 +1.4722486678E+002  +7.5893803923E-004 -1.1971384116E+001  +2.4317593412E-001 -1.6675061473E+002 
1010161.452 +1.2171434952E-001 +1.7207989369E+002  +8.0346562663E-004 +1.6548163610E+002  +1.7783155303E-003 -1.7866054219E+002  +2.0492242295E-001 -1.6131491226E+002 
1135306.633 +1.1980065721E-001 +1.6954769102E+002  +6.8714388659E-004 +7.3325169925E+001  +3.0391898189E-003 +9.4435263096E+001  +1.5994207528E-001 -1.7630735256E+002 
1260451.815 +1.1994130989E-001 +1.7115494307E+002  +1.2747678773E-003 +1.4259593161E+002  +1.2094539713E-003 +6.5109293253E+001  +2.2896569516E-001 -1.6195842403E+002 
1385596.996 +1.2735671996E-001 +1.7234907178E+002  +7.0880561042E-004 -1.1752955010E+002  +6.0615877749E-004 +9.7512534505E+001  +2.6446195399E-001 -1.6010453952E+002 
1510742.178 +1.2799652784E-001 +1.7155273048E+002  +8.2942861655E-004 +1.4712199686E+002  +8.9043972139E-004 -1.3151504133E+002  +2.5020639864E-001 -1.5852641152E+002 
1635887.359 +1.2907192681E-001 +1.6998374341E+002  +1.8835218189E-003 +4.1468106356E+001  +4.7456208465E-004 +1.7428830026E+002  +2.3588492310E-001 -1.5998302965E+002 
1761032.541 +1.2954181049E-001 +1.7018929115E+002  +1.8313072936E-003 +8.5096870330E+001  +1.2369793353E-003 -1.6498608803E+001  +2.0626659491E-001 -1.6175709595E+002 
1886177.722 +1.2815121208E-001 +1.6876711855E+002  +5.1151427502E-004 +1.4257257883E+002  +2.3844729543E-003 -4.0089268294E+001  +1.4837840688E-001 -1.6351249306E+002 
2011322.904 +1.3209788908E-001 +1.6880712706E+002  +2.7217652372E-003 -1.5070217134E+002  +3.0569487567E-003 +1.0456879925E+002  +1.7057717848E-001 +1.6735942827E+002 
2136468.085 +1.2471574122E-001 +1.6389175443E+002  +2.6913461772E-003 +1.1643358112E+001  +4.1524836480E-003 -1.0056874827E+002  +3.2458156348E-001 +1.3920956404E+002 
2261613.267 +1.3606668665E-001 +1.6453835983E+002  +1.3114238056E-003 +3.2918856776E+001  +3.1757177289E-003 +4.5397265106E+001  +2.6990050838E-001 +1.4998011755E+002 
2386758.448 +1.3174721870E-001 +1.6437030352E+002  +3.6643894394E-003 +1.1919371961E+002  +1.8832036554E-003 +2.9378102458E+001  +2.2638481838E-001 +1.7739821783E+002 
2511903.630 +1.4203732054E-001 +1.6446593659E+002  +1.4057542359E-003 +1.4154554807E+002  +2.3982441210E-003 -6.8898764004E+001  +2.3822176887E-001 +1.7184477302E+002 
2637048.811 +1.0439848836E-001 +1.5941307901E+002  +1.3142719645E-002 +1.2947325721E+002  +2.5896401048E-003 +1.7700387380E+002  +2.2803748732E-001 +1.2428126218E+002 
2762193.992 +1.1712563774E-001 +1.7805790230E+002  +3.9140324786E-002 +1.3887341969E+002  +6.3848549535E-002 -5.5762101177E+001  +9.6857468318E-001 +2.6900521904E+001 
2887339.174 +1.2040747135E-001 +1.7086509506E+002  +2.7907426272E-002 -6.3001647355E+001  +1.3810369799E-002 +3.8184204905E+001  +6.5862378567E-001 -4.6905750294E+001 
3012484.355 +8.7553880129E-002 -1.7231767284E+002  +6.5407216631E-003 +6.4622696556E+001  +7.6561403559E-003 +1.0780866955E+002  +1.9080396998E-001 -1.3733838815E+002 
3137629.537 +1.0807512426E-001 +1.5465491788E+002  +2.1608628235E-002 -2.1283568039E+001  +8.8602196648E-003 -8.2769601820E+001  +7.1316741589E-001 -1.0507372908E+002 
3262774.718 +1.1618537337E-001 +1.6665271952E+002  +8.0572011456E-003 -8.2712738567E+001  +7.1935956633E-003 -1.4291167499E+002  +3.1642494519E-001 -6.6864026767E+001 
3387919.900 +1.4149585098E-001 +1.6019092234E+002  +5.1773367304E-003 -1.7389947439E+002  +4.9799563275E-003 +1.2004552123E+002  +4.1886868437E-001 -7.7622802139E+001 
3513065.081 +1.1144289066E-001 +1.5690784434E+002  +1.1941798239E-002 -9.6037660132E+001  +8.7344155637E-003 -1.3561907995E+002  +5.8911453435E-001 +1.2606655493E+002 
3638210.263 +1.6471400809E-001 +1.4604119077E+002  +4.7833000101E-003 -8.9049124171E+001  +1.3790529979E-002 +4.3320292770E+001  +4.6012513427E-001 +1.0982812204E+002 
3763355.444 +1.8511461690E-001 +1.4861596559E+002  +4.8357509942E-003 -1.7088708797E+002  +2.4968928701E-002 +3.1271545521E+001  +1.0167086378E+000 +1.2311920327E+002 
3888500.626 +1.7637573648E-001 +1.3713293669E+002  +1.2844604312E-002 +1.1576228443E+002  +3.6792015349E-003 +7.2754669302E+001  +5.6092797902E-001 +1.3275359218E+002 
4013645.807 +1.8264473277E-001 +1.3515388848E+002  +3.2312351933E-002 +7.7453400274E+001  +1.8247542893E-002 -1.5931342947E+002  +1.0303945871E+000 +3.7220972185E+000 
4138790.989 +1.7135530939E-001 +1.4977369595E+002  +5.0989986340E-003 +1.7388344883E+002  +9.5846490385E-003 +1.4602083132E+002  +1.5747021383E-001 +9.1290922999E+001 
4263936.170 +1.8976071810E-001 +1.4310029058E+002  +1.3736606874E-002 +1.7219819834E+002  +1.3834439456E-002 +3.8725953013E+001  +3.8846780515E-001 +1.3065234043E+002 
4389081.352 +1.7868398264E-001 +1.3766228009E+002  +1.7546753445E-003 +1.1308319585E+002  +1.1975662115E-002 +5.9123333564E+001  +7.0755092445E-001 +1.4329353169E+002 
4514226.533 +2.4427025833E-001 +1.4110627264E+002  +1.9471280410E-003 -1.5699741959E+002  +3.2024521627E-003 -1.0988374978E+002  +3.8927727101E-001 +9.7492121646E+001 
4639371.715 +2.5604522218E-001 +1.1920071934E+002  +3.1582446160E-002 -1.2527388401E+002  +2.6308327533E-002 +1.2520150734E+002  +1.3441319318E+000 +9.7232605364E+001 
4764516.896 +3.6924721717E-001 +1.2471626378E+002  +7.0393303932E-003 -1.6972334510E+001  +8.9560027431E-002 -1.5018050442E+002  +6.9729095157E+000 +1.6846283593E+002 
4889662.078 +4.7255737576E-001 +1.3571926408E+002  +2.7083747717E-002 +1.2844355532E+001  +2.2580613757E-002 -5.9867521487E+000  +2.2400281551E+000 -1.0951780927E+002 
5014807.259 +4.5590646074E-001 +1.2721328376E+002  +4.1292824342E-002 +2.2161344571E+001  +3.7653775385E-002 +6.4414566228E+001  +3.4098772660E+000 +1.6765976029E+002 
5139952.441 +3.8839826201E-001 +1.3612683768E+002  +2.5168583890E-002 -8.3172567326E+001  +1.9826193318E-002 -1.2191762873E+002  +2.2569348876E+000 +1.0502574142E+002 
5265097.622 +3.1771271568E-001 +1.3210785061E+002  +1.4487465957E-002 -1.6853495314E+002  +3.8755936519E-002 +1.5820947658E+002  +3.3505922809E+000 +9.7242467006E+001 
5390242.804 +3.7853069569E-001 +1.3296744143E+002  +3.2016389857E-002 -1.5375871431E+001  +2.6467337850E-002 -4.6788593730E+001  +2.0616282926E+000 +6.3728921661E+001 
5515387.985 +4.2599429286E-001 +1.3373537900E+002  +1.8180513240E-002 -1.2525699553E+002  +1.6532331889E-002 +2.3433339699E+001  +1.9453490874E+000 +3.3841054188E+001 
5640533.166 +4.6991082752E-001 +1.1668795213E+002  +4.3956004284E-002 +1.5279149064E+002  +1.1132623634E-002 -2.5048811506E+000  +2.5550249864E+000 +9.7318234362E+001 
5765678.348 +4.9792933086E-001 +1.2627042923E+002  +1.6985025773E-002 +1.7386584110E+002  +1.5486175488E-002 -7.4149682265E+001  +2.5098717310E+000 +8.7028638687E+001 
5890823.529 +5.8981394410E-001 +1.1978553187E+002  +1.5927051657E-002 -1.3492285456E+002  +2.4075251953E-002 +1.4479524797E+002  +1.8419595728E+000 +3.6657860002E+001 
6015968.711 +6.5020828254E-001 +1.2004187809E+002  +1.6211285736E-002 +7.9199571862E+001  +7.2406566305E-002 +1.0759563715E+002  +3.1076480684E+000 +5.9851419666E+001 
6141113.892 +6.6532178814E-001 +9.5299353843E+001  +3.4778985592E-002 +1.4323197398E+002  +3.4354158294E-002 +2.0849366247E+001  +2.8073008007E+000 +2.0672140573E+001 
6266259.074 +9.2359620424E-001 +9.9666055717E+001  +1.8800257312E-002 -8.1146776864E+001  +1.2211973793E-002 -1.3157897591E+001  +1.4476485358E+000 +1.6266721951E+001 
6391404.255 +1.0491260989E+000 +9.9181968647E+001  +1.3249517187E-002 -1.2396951965E+001  +8.0190386394E-003 -1.6888118004E+002  +1.5563078711E+000 +2.7415759281E+000 
6516549.437 +1.2869609501E+000 +8.0387889508E+001  +2.3945768601E-002 -1.5595622432E+002  +3.9125733243E-003 -8.4658353092E+001  +1.3117350931E+000 +3.9178849422E+000 
6641694.618 +1.5385596753E+000 +5.9840932209E+001  +2.9668937751E-002 +2.2289977181E+001  +3.0490573778E-002 +1.5974167801E+002  +1.3909029221E+000 -1.4424565552E+000 
6766839.800 +1.9148709547E+000 +5.2928121593E+001  +1.2079847771E-002 +1.0435686888E+002  +1.4850417491E-002 -3.0748167679E+001  +1.2921195061E+000 -7.0653284053E+000 
6891984.981 +1.7657575126E+000 +3.4719041880E+001  +2.4800386764E-002 +7.7645696590E+001  +1.1970601998E-002 -1.6649617529E+002  +1.2289110217E+000 -1.8362676103E+000 
7017130.163 +2.0226450860E+000 +2.2971173838E+001  +2.6458214045E-002 +1.4780271033E+002  +1.6400970793E-002 +1.0997643073E+002  +1.2127178472E+000 -9.6011858339E+000 
7142275.344 +1.6894344937E+000 +3.5594982885E+000  +1.4299793537E-002 +1.5157111702E+002  +3.1643810109E-002 +6.1158675876E+001  +1.3423975401E+000 -1.3311919028E+001 
7267420.526 +1.4301322791E+000 +7.9340781015E+000  +1.9237567873E-002 -1.2478621699E+001  +6.2994238800E-003 +2.2798847327E+001  +1.3594543145E+000 -1.7806397430E+001 
7392565.707 +1.3848594471E+000 +2.7510990340E+000  +2.5686131016E-003 +1.7494077483E+002  +4.3786895070E-003 -2.6539038499E+001  +1.2577947749E+000 -1.0613767256E+001 
7517710.889 +1.2680448247E+000 +1.5177723294E+000  +3.3024628682E-003 +2.5625066778E+001  +1.7701014975E-003 +3.3730068155E+001  +1.2608464185E+000 -4.9237553997E+000 
7642856.070 +1.0046240195E+000 +6.0225873327E+000  +3.0178501351E-003 +3.7714616091E+001  +6.8596021107E-003 +1.1765158290E+002  +1.1241212764E+000 -4.2617485098E+000 
7768001.252 +9.6265955619E-001 -2.2489757791E+000  +3.1471516101E-003 +1.1367340900E+002  +1.0330063144E-002 +1.0428911860E+002  +1.0581625602E+000 -1.4097906086E+000 
7893146.433 +9.2379760671E-001 +7.5243748867E+000  +4.5184634860E-003 -9.2800122222E+001  +7.1545595921E-003 +6.8344477690E+001  +9.0113713811E-001 -9.7532723221E-001 
8018291.615 +7.3814050329E-001 +9.9647889284E+000  +8.7704680329E-003 +1.4407949812E+000  +1.0329456682E-002 +1.4581286006E+002  +8.3424824435E-001 -2.7050991660E-001 
8143436.796 +8.2847957253E-001 +5.2958593929E-001  +7.3106884364E-003 +7.9335281222E+001  +4.0180517540E-003 +7.7524204679E+001  +8.4229300152E-001 -2.5649417322E+000 
8268581.977 +7.5309285192E-001 +1.3491972559E+001  +3.3236755640E-003 +6.1232858955E+001  +4.8484255225E-003 +1.1454571402E+002  +7.3673805789E-001 -9.1482797941E-001 
8393727.159 +6.4245876438E-001 +1.1604462256E+001  +3.7325561954E-003 -1.6680446581E+002  +8.2405679412E-003 +8.8855100773E+001  +7.6632051185E-001 -1.2408142551E+000 
8518872.340 +6.8790941055E-001 +8.2403869617E+000  +6.1208645019E-003 +3.3646788894E+000  +6.5635149666E-003 +3.7718370380E+001  +7.2248545063E-001 +2.2703021604E+000 
8644017.522 +6.3683836835E-001 +1.0046991743E+001  +4.0946353430E-003 +1.0912397662E+002  +1.3388854094E-003 -1.5308326684E+001  +7.3181824432E-001 -4.1661089618E+000 
8769162.703 +6.6424956493E-001 +2.8044919948E+000  +3.7940894048E-003 +1.2320225655E+002  +8.6795373709E-004 -7.4461436953E+001  +6.4737124054E-001 -5.0261655230E+000 
8894307.885 +5.6710477819E-001 +6.8220432031E+000  +4.8563843638E-003 +3.2207129758E+001  +3.6648805211E-003 +5.9176141808E+001  +6.6355017578E-001 +3.3186212064E+000 
9019453.066 +5.9481034124E-001 +6.3852524060E+000  +1.2129356124E-003 -1.5606344180E+002  +4.2885978503E-003 +7.0382506838E+001  +6.1099352478E-001 -1.7364559776E+000 
9144598.248 +5.8674729138E-001 +3.8812241307E+000  +5.2465285799E-003 +4.9189409843E+001  +9.3198538795E-004 -7.9892443327E+001  +6.1135108308E-001 +2.2639825282E+000 
9269743.429 +5.6648592654E-001 +1.8351571882E-001  +3.8188177492E-003 +1.7564993495E+001  +5.1008144410E-003 +7.0755705136E+001  +6.6697842635E-001 +1.1346441914E+000 
9394888.611 +5.2901364773E-001 +3.2756003407E+000  +5.2852006043E-003 +8.2470045079E+001  +4.6712047248E-003 +7.6560022039E+001  +6.0462816552E-001 -1.9653726681E+000 
9520033.792 +4.8973934657E-001 +4.9141083184E+000  +5.4159040804E-003 +6.3755089265E+001  +4.8735478981E-003 +7.3052471499E+001  +5.8972697260E-001 -1.9854540548E+000 
9645178.974 +5.6556957800E-001 +3.9092069937E+000  +3.4104287626E-003 +3.3551563343E+001  +5.9183832671E-003 +9.9174643966E+001  +5.8558957120E-001 -1.0909021794E+000 
9770324.155 +5.1665057353E-001 +1.2296939927E+000  +4.2492825461E-003 +6.6946026234E+001  +4.6360817921E-003 +1.0913344389E+002  +5.6016220644E-001 -6.5484984619E+000 
9895469.337 +5.3254723490E-001 -1.5544515556E+000  +4.9687328145E-003 +6.4515459229E+001  +2.7628439097E-003 +5.4481639149E+001  +5.5610904839E-001 -5.0695764622E+000 
10020614.518 +5.5807407877E-001 -3.2070464683E+000  +1.7428426503E-003 +3.4416412084E+001  +4.0481409872E-003 +1.1379049362E+002  +5.7344000568E-001 -5.8717806977E+000 
10145759.700 +5.5171446183E-001 +6.0887700067E+000  +6.3146189952E-003 +8.6984797477E+001  +5.7048009578E-003 +6.9014375985E+001  +5.6565887727E-001 -4.4610574538E+000 
10270904.881 +5.5239632715E-001 +1.8194708849E+000  +4.8886256276E-003 +8.3167728396E+001  +5.3190524657E-003 +9.0148165610E+001  +5.4753114807E-001 -9.9543582147E-001 
10396050.063 +5.4471358426E-001 +1.9246322754E+000  +6.3563863443E-003 +6.4031609675E+001  +3.0256449482E-003 +9.6724119195E+001  +5.7956652195E-001 -1.9568901211E+000 
10521195.244 +5.4333233034E-001 +6.5919355897E+000  +3.7823515547E-003 +9.0773994365E+001  +4.9279635019E-003 +1.0633086767E+002  +5.8532084955E-001 +7.2276758862E-001 
10646340.426 +5.4435250971E-001 +7.9100914115E+000  +5.0214809015E-003 +8.9008334386E+001  +5.8637488520E-003 +8.1495255162E+001  +5.8144391159E-001 +1.5414525629E+000 
10771485.607 +5.9250051768E-001 +3.7621220589E+000  +4.2476982503E-003 +6.4976244781E+001  +3.1268164345E-003 +8.1426365341E+001  +5.6412292608E-001 +1.8546884711E+000 
10896630.788 +6.2684502700E-001 +6.1656414046E+000  +6.0683194595E-003 +7.5199725934E+001  +4.2530703173E-003 +5.3386794407E+001  +5.9035714414E-001 -9.7444905322E-002 
11021775.970 +5.6737995213E-001 +6.5491647227E+000  +4.5819933832E-003 +8.7942471829E+001  +7.6104577372E-003 +8.4002178630E+001  +6.1577885821E-001 +6.9265377665E-001 
11146921.151 +6.0820993260E-001 +7.1421679263E+000  +5.9900894179E-003 +6.1078107809E+001  +5.3556711062E-003 +1.0328534345E+002  +6.2328648655E-001 +2.2413984753E-001 
11272066.333 +5.8831896096E-001 +8.8896719120E+000  +5.7396826041E-003 +7.2037248151E+001  +4.7418742360E-003 +8.9031961051E+001  +6.2951671038E-001 -2.1422893089E-001 
11397211.514 +6.4387629369E-001 +8.1012308859E+000  +3.6979208046E-003 +9.5072588305E+001  +4.4895019205E-003 +6.8959804677E+001  +6.3144836012E-001 +2.0748428330E+000 
11522356.696 +6.1031795624E-001 +6.0162238658E+000  +4.4577764363E-003 +8.2479958909E+001  +8.0100605906E-003 +8.1719490905E+001  +6.7421363173E-001 +3.1762783489E+000 
11647501.877 +6.1533687462E-001 +4.0008584572E+000  +5.1282682742E-003 +6.1923574988E+001  +3.5054633608E-003 +5.0098322084E+001  +6.4589884705E-001 +1.4194925633E+000 
11772647.059 +6.5151542824E-001 +3.5237264248E+000  +6.4582244790E-003 +8.9105675800E+001  +4.9934527241E-003 +6.7969276511E+001  +6.5016802157E-001 +1.1267941176E+000 
11897792.240 +6.8047617011E-001 +5.3590420279E+000  +8.2738073610E-003 +9.2153269778E+001  +4.5436239971E-003 +9.4544799399E+001  +6.7736506599E-001 +3.5976034596E-001 
12022937.422 +6.6931829497E-001 +5.8314995458E+000  +6.5553039562E-003 +9.1881436663E+001  +5.7680478680E-003 +9.5072346614E+001  +6.7124314146E-001 +4.9322870505E-002 
12148082.603 +6.6255525871E-001 +3.1858858276E+000  +3.6952709352E-003 +9.0692678769E+001  +6.9777648045E-003 +9.6123773188E+001  +7.0995295327E-001 -4.5163997777E-001 
12273227.785 +7.0263260094E-001 +2.1859022268E+000  +5.3498791249E-003 +7.0758728298E+001  +4.1938831648E-003 +8.0768463143E+001  +7.0246632882E-001 +6.8127734071E-002 
12398372.966 +6.9423786978E-001 +3.6800593544E+000  +5.8608153612E-003 +8.8143674700E+001  +5.2661030622E-003 +1.0436032723E+002  +7.1841565075E-001 -1.2962685622E+000 
12523518.148 +7.4634269483E-001 +4.4577432145E+000  +6.4019702690E-003 +7.6389728490E+001  +6.2203915500E-003 +9.4291388794E+001  +7.3013742515E-001 +4.1238748496E-001 
12648663.329 +7.3510692955E-001 +3.0128196130E+000  +5.5598140878E-003 +1.0915281815E+002  +5.2329083718E-003 +8.5472243991E+001  +7.2638669407E-001 +1.2135528606E+000 
12773808.511 +7.4088996676E-001 +2.6145017572E+000  +6.9294221375E-003 +7.7863335647E+001  +7.4951167382E-003 +8.5451571127E+001  +7.6870851337E-001 -9.9477466749E-001 
12898953.692 +7.7344774322E-001 +1.6982824036E+000  +5.4341266496E-003 +7.7893836723E+001  +5.2547420982E-003 +8.4705543444E+001  +7.9327149150E-001 -9.3502450893E-001 
13024098.874 +7.9625252904E-001 +1.0320099132E-001  +6.5616138296E-003 +8.5307302362E+001  +7.2934588512E-003 +8.1276375745E+001  +7.8700876431E-001 -4.2837228227E-001 
13149244.055 +7.8501374581E-001 +2.4360430296E+000  +7.1202595893E-003 +9.2786013038E+001  +7.7829146467E-003 +9.2892922921E+001  +7.9994820064E-001 -2.1095535865E+000 
13274389.237 +8.0725883111E-001 -1.3627775691E+000  +7.6166751004E-003 +7.6600410542E+001  +5.8410779256E-003 +7.6608274518E+001  +8.3865360024E-001 -2.5409117280E+000 
13399534.418 +8.2368485863E-001 -9.2189490065E-001  +6.5441876824E-003 +8.4170145950E+001  +6.8391742195E-003 +8.7873034945E+001  +8.4609734772E-001 -2.4835967726E+000 
13524679.599 +8.4194283147E-001 -2.8580915085E-001  +6.4786135925E-003 +7.6538365010E+001  +4.1429911488E-003 +7.7261086338E+001  +8.8552285056E-001 -2.7772804163E+000 
13649824.781 +8.7575304552E-001 -2.6331346811E+000  +8.2558741815E-003 +8.4941633432E+001  +5.9168254741E-003 +9.2374166233E+001  +9.0362912819E-001 -3.2934527653E+000 
13774969.962 +9.0208881623E-001 -2.8335388766E+000  +7.9489128757E-003 +8.2794402191E+001  +7.9720448306E-003 +8.3124815648E+001  +8.9627200548E-001 -3.8710216952E+000 
13900115.144 +9.1025275682E-001 -2.4670139341E+000  +7.9597280300E-003 +7.4700088065E+001  +7.5106276517E-003 +8.9994728414E+001  +9.2216683319E-001 -3.8175504472E+000 
14025260.325 +9.3846734755E-001 -2.7354286491E+000  +7.7560813205E-003 +7.9868724080E+001  +7.0246266288E-003 +7.9426607545E+001  +9.1884318154E-001 -4.9754360963E+000 
14150405.507 +9.2231713962E-001 -4.7778985559E+000  +7.7245826673E-003 +8.3367455096E+001  +7.9206751699E-003 +8.1077308952E+001  +9.4851235270E-001 -3.7105314716E+000 
14275550.688 +9.5556866746E-001 -4.6932457162E+000  +7.6154757979E-003 +7.9647388060E+001  +7.7491515321E-003 +8.9856489059E+001  +9.6408308436E-001 -3.5954393730E+000 
14400695.870 +9.7762793385E-001 -4.4098979691E+000  +7.1415607940E-003 +6.8723200064E+001  +7.8111910109E-003 +8.7715249289E+001  +9.8841088927E-001 -4.4196557435E+000 
