!  2-Port S-parameters saved by WinCal
! VAR MeasName=S-Parameters (CALIBRATED_DATA) read from VNA (P5004A)
! VAR MeasDate=28/08/2024 10:59:25
! VAR NAME=S2_r5c9_SET3_9k-100M_1
! VAR FILENAME=S2_r5c9_SET3_9k-100M_1.S2P
! VAR DATE=28/08/2024 10:59:25
! VAR PHYS_PORTS=1,2
! VAR ObjTypeName=DATASET
! VAR IndexType=Frequency
!
# Hz S MA R 50
9000.000 +8.5868349535E-002 -1.6073749317E+002  +8.9296536906E-003 -9.5409334104E+001  +4.3437081363E-003 -1.4597813700E+002  +2.5010623970E-001 -1.4603439542E+002 
134145.181 +1.1165308853E-001 +1.6933580155E+002  +6.6000282064E-004 +6.4230395968E+001  +3.0313537210E-004 +1.6975817815E+001  +2.3899429247E-001 -1.7075509218E+002 
259290.363 +1.1194006423E-001 +1.7009420072E+002  +2.8068065910E-004 -2.2378559138E+001  +1.3866658336E-003 -2.3720346196E+001  +2.4377890145E-001 -1.6870090649E+002 
384435.544 +1.1348499251E-001 +1.7007483570E+002  +1.4518566997E-003 -1.9613691824E+001  +8.8377847345E-004 +1.0917119325E-001  +2.3273622320E-001 -1.6826445902E+002 
509580.726 +1.1496891031E-001 +1.7076788205E+002  +7.8499089571E-004 -1.2921645984E+002  +6.1551738031E-004 +9.2432953894E+001  +2.4538940555E-001 -1.6625343949E+002 
634725.907 +1.1425473316E-001 +1.7170363567E+002  +1.3515405696E-003 +8.6581768467E+000  +1.5674753536E-003 +1.0331359626E+002  +2.5288302609E-001 -1.6493987468E+002 
759871.089 +1.1833453205E-001 +1.7109763369E+002  +2.7342040209E-004 +1.3972048305E+002  +3.9097032276E-004 -1.4806437304E+002  +2.5632594564E-001 -1.6535224912E+002 
885016.270 +1.2018073799E-001 +1.6918707711E+002  +4.7822899743E-004 +2.6185978892E+000  +8.7740393292E-004 -1.9553524498E+001  +2.4567603611E-001 -1.6528868078E+002 
1010161.452 +1.1911257313E-001 +1.7170813389E+002  +2.4677939332E-004 +5.6663528218E+001  +6.3284095648E-004 -1.6056107937E+002  +2.0865158494E-001 -1.6456725402E+002 
1135306.633 +1.1427581716E-001 +1.6720969372E+002  +1.4309245154E-003 +7.8360143574E+001  +2.2979904488E-003 -7.5113717811E+001  +1.7842599170E-001 -1.6168112759E+002 
1260451.815 +1.1884896176E-001 +1.7160883737E+002  +3.1110423480E-003 +1.1269308358E+002  +2.4643254012E-003 +1.0590433643E+002  +1.9748230678E-001 -1.5865371642E+002 
1385596.996 +1.2119306749E-001 +1.7224862888E+002  +2.9585001246E-004 -1.8333759731E+001  +1.0727225144E-003 +8.6067883596E+001  +2.6448248182E-001 -1.5874109081E+002 
1510742.178 +1.2729454103E-001 +1.7120825006E+002  +1.6782996461E-003 +6.1959899715E+001  +1.4156417774E-003 -8.5813364743E+001  +2.5111337832E-001 -1.5648007768E+002 
1635887.359 +1.2840975081E-001 +1.7207033190E+002  +3.6381309448E-004 -1.1139696488E+002  +3.6201735909E-004 -4.9944336208E+001  +2.4099182685E-001 -1.6086502017E+002 
1761032.541 +1.3009424359E-001 +1.7012536958E+002  +1.3139145161E-003 +1.4213354848E+002  +5.5490216321E-004 +9.5651419185E+001  +2.4086068037E-001 -1.5820468079E+002 
1886177.722 +1.3536420466E-001 +1.6801800900E+002  +1.7936999653E-003 +9.4657008592E+001  +2.3013659912E-003 -1.4919660225E+002  +2.1651394561E-001 -1.6012204485E+002 
2011322.904 +1.3071904925E-001 +1.6792634422E+002  +9.1948116292E-004 -7.3442662515E+001  +6.6763911435E-004 +5.0538304680E+001  +2.0671187452E-001 -1.5850182882E+002 
2136468.085 +1.2748524305E-001 +1.6621167459E+002  +3.4830205979E-003 +1.2659709987E+002  +8.9913864413E-003 +3.8360168267E+000  +1.0726042515E-001 +1.3893915958E+002 
2261613.267 +1.3810861976E-001 +1.6408743433E+002  +4.9875007979E-004 -1.7114664040E+002  +3.4438690788E-003 -4.9117140884E+001  +1.3886125798E-001 +1.7815361917E+002 
2386758.448 +1.3374691836E-001 +1.6284820375E+002  +1.9276008286E-003 -7.5930800033E+001  +1.2406542106E-003 -1.2035520601E+002  +2.2054037103E-001 -1.7406180952E+002 
2511903.630 +1.4021299368E-001 +1.6555072394E+002  +2.9748709905E-003 +2.7635982295E+001  +4.8635909249E-003 +3.0992196379E+001  +1.7494761011E-001 +1.4305430455E+002 
2637048.811 +1.3195569786E-001 +1.5582870746E+002  +4.2435001399E-003 -8.4789098184E+001  +5.0005135153E-003 +1.6028203959E+002  +2.6205282995E-001 +1.5029225702E+002 
2762193.992 +1.1487858505E-001 -1.7987332948E+002  +2.0143609629E-002 +8.7226675840E+000  +4.5172316869E-002 +3.5531801584E+001  +8.1667018174E-001 +1.0688532202E+001 
2887339.174 +1.2390590186E-001 +1.7038531096E+002  +1.0532823295E-002 -1.4804166055E+002  +1.3865537752E-002 +1.5025857322E+002  +3.5046784118E-001 -1.1539072530E+002 
3012484.355 +1.3123943028E-001 +1.7838764491E+002  +5.9630793304E-003 -3.5107139328E+001  +1.1584220433E-002 -7.6194269328E+001  +2.1231288772E-001 -7.0309730142E+001 
3137629.537 +1.3582463794E-001 +1.7014198271E+002  +2.6827255599E-002 -1.7208158245E+001  +4.4949451692E-003 -1.4503633698E+002  +4.9621484887E-001 -7.9003946691E+001 
3262774.718 +9.4860465566E-002 +1.6584654804E+002  +3.3306125544E-003 -1.5300354442E+002  +8.0853588642E-003 -1.6761801361E+002  +1.6536044032E-001 -4.2889182133E+001 
3387919.900 +1.3359941551E-001 +1.4785717419E+002  +2.8884723129E-002 +1.0942394029E+002  +4.9193869698E-002 -1.2285370836E+002  +1.3366978292E+000 +6.9405398672E+000 
3513065.081 +1.2432243347E-001 +1.5652080310E+002  +7.5895192857E-002 +6.7300788032E+000  +6.1738823691E-002 -5.8028826790E+001  +3.2156297581E+000 +1.7207947233E+001 
3638210.263 +1.5288419169E-001 +1.5153728631E+002  +8.6224353478E-003 +1.0964046820E+002  +8.7234009308E-003 +3.0615744140E+001  +5.9241216716E-001 +1.4636420697E+002 
3763355.444 +1.7909361250E-001 +1.2877749681E+002  +2.2694241920E-002 +3.3955992195E+001  +1.8690189782E-002 +1.4646052001E+002  +3.1972896989E-001 +1.0819100275E+002 
3888500.626 +1.8187308819E-001 +1.4910538953E+002  +1.1646286286E-002 -1.7518608399E+002  +3.3581182785E-002 +5.6423384215E+001  +6.7328461836E-001 +1.1076508578E+002 
4013645.807 +1.7738511566E-001 +1.5215003661E+002  +2.4589129278E-003 +1.5178811708E+002  +1.7904550781E-003 +1.5690377661E+002  +2.9592680906E-001 +1.2227971731E+002 
4138790.989 +2.0184907424E-001 +1.4831570848E+002  +1.0577784477E-002 +2.6673313154E+001  +7.5797109301E-003 -1.9999337787E+001  +3.3919298567E-001 +1.1304435351E+002 
4263936.170 +2.4825338308E-001 +1.3197564584E+002  +2.7713871206E-002 +7.9146874435E+001  +1.0184682597E-002 -3.0381639654E+000  +2.7440920211E-001 +9.1496116054E+001 
4389081.352 +2.2744532488E-001 +1.4212811371E+002  +9.1028486826E-003 +1.1824114850E+002  +1.4942305160E-002 +1.3561500874E+002  +9.1496799611E-001 +1.1874220414E+002 
4514226.533 +2.0973009062E-001 +1.3947092804E+002  +1.6081032214E-002 +7.7572401299E+001  +1.2855194732E-002 +1.3762799313E+001  +8.4753802064E-001 +9.8198200484E+001 
4639371.715 +3.0061168242E-001 +1.2343153854E+002  +4.9496509083E-002 +8.8439130168E+001  +2.4565974272E-002 +7.2396464461E+001  +1.3098707942E+000 +1.5349951330E+001 
4764516.896 +2.0866101704E-001 +9.9785940651E+001  +8.5497473687E-002 +4.5161408915E+001  +9.7368043196E-002 +6.4533855613E+001  +3.0112658606E+000 +7.4083964227E+001 
4889662.078 +4.1296546493E-001 +1.3646219845E+002  +9.1542993007E-003 -5.0411878163E+000  +4.1070913764E-002 +1.1147250038E+002  +1.8701085056E+000 +1.4900719210E+002 
5014807.259 +4.5952122283E-001 +1.3007492678E+002  +7.6625360619E-002 -1.0821195199E+002  +3.2497745143E-002 -1.2987798355E+002  +3.6999582755E+000 -1.3525679617E+002 
5139952.441 +3.9715150409E-001 +1.2971171754E+002  +5.2842654756E-002 +1.3000477860E+002  +6.0494569757E-002 +1.1938261623E+002  +2.7356163573E+000 +1.0134118720E+002 
5265097.622 +4.4084768719E-001 +1.3042828633E+002  +2.7006910518E-002 +1.6807596142E+002  +2.8574970373E-002 -1.5572418651E+001  +1.3690972792E+000 +7.5733371912E+001 
5390242.804 +4.1991072077E-001 +1.2844069283E+002  +4.1461476601E-002 -1.1489693476E+002  +9.4695604292E-002 +9.3940842373E+001  +5.6479224178E+000 +9.2907462915E+001 
5515387.985 +3.8675727371E-001 +1.2289759528E+002  +1.1536440425E-001 +7.6475587278E+001  +1.2917529531E-001 -7.1140695925E+000  +1.0816466178E+001 +3.7809491812E+001 
5640533.166 +4.6925113806E-001 +1.3051384436E+002  +2.5244119187E-002 +1.1214336847E+002  +3.1412034667E-002 +1.1192746763E+002  +2.7617403270E+000 +7.6226958794E+001 
5765678.348 +4.1219524881E-001 +1.3293748186E+002  +2.2848081683E-002 +5.4697473016E+001  +1.3099044956E-002 +6.0181680728E+001  +1.7835113075E+000 +5.7647003355E+001 
5890823.529 +6.2231167744E-001 +1.1865393176E+002  +2.2620305991E-002 +8.3466546726E+001  +1.7555503335E-002 +8.6117528607E+001  +1.6003355898E+000 +6.9226042456E+001 
6015968.711 +5.7850040306E-001 +1.1652248810E+002  +3.0192494549E-002 +7.9326500976E+001  +1.2359890093E-002 +5.6439406618E+001  +2.1278168952E+000 +6.8116248061E+001 
6141113.892 +6.8054787196E-001 +1.0933323581E+002  +3.1547610451E-002 +9.2449872885E+001  +4.1229484847E-002 +3.5913275161E+001  +1.6325123503E+000 +4.1647867478E+001 
6266259.074 +7.6264629322E-001 +1.0596003268E+002  +2.5573981555E-002 +5.4661091538E+001  +3.3226951216E-002 -6.6613454144E-001  +1.5459843279E+000 +3.8299409621E+001 
6391404.255 +1.1292115548E+000 +9.8037040957E+001  +1.5120385606E-002 +5.4050123056E+001  +2.6554152991E-002 +3.2306523807E+001  +1.7959894008E+000 +2.0068910337E+000 
6516549.437 +1.2657649365E+000 +8.9079297355E+001  +2.8017521200E-002 +5.3074203716E+001  +6.2156318279E-002 +1.8115585420E+001  +1.8194546509E+000 +7.5803994532E+000 
6641694.618 +1.3703584623E+000 +7.8333083307E+001  +1.4949477716E-002 +2.6317815448E+001  +6.2178674811E-002 +3.5039795760E+001  +1.2206438614E+000 +4.2104878586E+000 
6766839.800 +1.8789131839E+000 +5.0552505582E+001  +2.8536155715E-002 +3.4817927185E+001  +3.6541625681E-002 +5.3040657502E+001  +1.1865287670E+000 -1.0716612500E+001 
6891984.981 +1.9776739440E+000 +4.1099522094E+001  +3.2287282321E-002 +1.2073970881E+001  +4.0750967306E-002 +5.0969757375E+000  +1.2755639436E+000 +1.0570389892E+000 
7017130.163 +1.9206392546E+000 +1.0763691557E+001  +2.1159406094E-002 -2.1034481920E+001  +5.4312231003E-002 +3.0365439306E+001  +1.1732022759E+000 -9.2316299344E+000 
7142275.344 +1.5455768073E+000 +5.5714001558E+000  +3.3929505232E-002 +4.3472849176E+001  +1.1667235802E-002 +7.1831649132E+000  +1.3791581686E+000 -1.1044401876E+001 
7267420.526 +1.4987177474E+000 +4.1839070067E+000  +1.6991197286E-002 +4.3228211876E+000  +2.4258075209E-002 +1.0847622593E+001  +1.2790893753E+000 -1.7503186529E+001 
7392565.707 +1.2340627359E+000 -5.1460497313E-001  +1.7994248609E-002 +5.6745379626E+000  +2.1531872112E-002 +1.0229504284E+001  +1.3786551313E+000 -3.6427931134E+000 
7517710.889 +1.1332954313E+000 +1.2208638543E+000  +1.2736696112E-002 +3.6990935120E+001  +1.7766586851E-002 +2.2233986707E+001  +1.1685364343E+000 -1.6648930321E+000 
7642856.070 +1.0181532026E+000 -5.4002378733E+000  +1.5726255752E-002 +5.8373680873E+000  +1.6803508103E-002 +1.3499974871E+001  +1.1788978190E+000 -3.2236707370E+000 
7768001.252 +9.1095609057E-001 -6.4864092544E-003  +1.4456952769E-002 +3.6507191570E+001  +1.9163136277E-002 -2.0513933860E+000  +9.8403597631E-001 -3.8425825720E+000 
7893146.433 +8.6717182604E-001 -1.1341154157E+000  +1.5538677592E-002 +1.1094129084E+001  +9.5427635331E-003 +7.4981319098E+000  +9.1268918563E-001 +5.2573347555E-001 
8018291.615 +7.7707693475E-001 +7.8480844674E+000  +1.3762373681E-002 +2.7702074815E+001  +1.3683078762E-002 +1.0314829558E+001  +8.2372092482E-001 -1.3249437744E+000 
8143436.796 +7.4065660090E-001 +1.2012378745E+001  +1.5810682226E-002 +3.4546723738E+001  +1.0526942701E-002 +3.4007241717E+001  +8.5975135556E-001 -6.1989149820E-001 
8268581.977 +7.4452858097E-001 +1.4987435569E+001  +1.2202892059E-002 +1.1044235182E+001  +1.3368094308E-002 +2.5435880350E+001  +7.3723179785E-001 -3.0968832969E+000 
8393727.159 +6.9479534892E-001 +9.2159585350E+000  +1.2842667909E-002 +9.6536688633E+000  +1.2958767172E-002 +3.6374646595E+001  +7.0638204259E-001 +4.7365206680E+000 
8518872.340 +6.3922499545E-001 +8.6994517768E+000  +7.8046925616E-003 +1.2657816817E+001  +1.0135951763E-002 +3.8995271062E+001  +6.8998930101E-001 -2.3640930974E-001 
8644017.522 +6.2821310212E-001 +4.9879658001E+000  +1.2172653121E-002 +2.1806739325E+001  +1.3282099288E-002 +3.4816643531E+001  +6.5460098935E-001 -2.5077327948E-001 
8769162.703 +6.4761351314E-001 +3.5297692391E+000  +1.1756038094E-002 +1.8861005120E+001  +1.0689522614E-002 +5.2291661615E+001  +6.2744507978E-001 +3.9102728220E+000 
8894307.885 +6.3053770238E-001 +9.1604859676E+000  +1.3268388587E-002 +1.5654303743E+001  +8.8581740331E-003 +1.4365079862E+001  +6.2685760060E-001 +1.6122407043E+000 
9019453.066 +5.8709392343E-001 +7.3619724990E+000  +1.2221591051E-002 +5.3600866481E+000  +8.2979179668E-003 +1.9684133018E+001  +5.4149709138E-001 -3.9662060288E-001 
9144598.248 +6.1225810246E-001 +1.1520441398E+001  +1.2858306603E-002 +4.2730615686E+001  +9.8149038256E-003 +2.3292973159E+001  +5.8640653813E-001 +2.4630512727E+000 
9269743.429 +5.6398118818E-001 +7.4936509265E+000  +1.3799512166E-002 +4.7148488867E+000  +9.5118734549E-003 +3.7550919870E+001  +6.1620517570E-001 -3.5861373028E+000 
9394888.611 +5.7535860413E-001 +8.1685786249E+000  +1.3404507399E-002 -3.5609228679E+000  +8.8652646042E-003 +2.8024579375E+001  +5.6972282165E-001 -3.7864517339E+000 
9520033.792 +5.5032470496E-001 +3.2063471274E+000  +1.0701603861E-002 +1.6758084066E+001  +1.6970708370E-002 +1.5383178781E+001  +6.1986360987E-001 -2.7983073233E+000 
9645178.974 +5.7079405496E-001 -6.9036749586E-001  +1.3207057460E-002 +3.6288865799E+001  +8.8548852257E-003 +2.9005596272E+001  +6.3561746792E-001 -5.9068938849E+000 
9770324.155 +5.1584423335E-001 +4.2669436904E+000  +1.4023181374E-002 +7.2205923930E+000  +1.1944701035E-002 +3.3447827407E+001  +6.0571114555E-001 -4.1495071041E+000 
9895469.337 +5.5713285461E-001 +7.3459914307E-001  +1.0302548183E-002 +2.1536314670E+001  +1.1335131390E-002 +1.6356005934E+001  +5.7008943302E-001 -4.9240031294E+000 
10020614.518 +5.0607116386E-001 +2.1049623960E+000  +1.1701591967E-002 +1.4339588477E+001  +9.3140743139E-003 +2.8290292014E+001  +5.9382194544E-001 -6.3172180901E+000 
10145759.700 +5.6157890408E-001 +6.5744781355E+000  +9.5775252069E-003 +1.9903323490E+001  +1.3279414168E-002 +4.6819400716E+001  +5.5993629009E-001 -8.5587567016E-001 
10270904.881 +5.4842329296E-001 +5.0610311049E+000  +1.2261299222E-002 +1.8084390627E+001  +1.3052121981E-002 +3.3666422003E+001  +5.8238295809E-001 -5.0720108328E+000 
10396050.063 +5.6789873214E-001 +7.3695200438E+000  +1.3767970769E-002 +8.1662236360E+000  +1.2096082596E-002 +4.5123176680E+001  +5.2253803014E-001 +1.1235105956E+000 
10521195.244 +5.6062213591E-001 +3.0693288192E+000  +1.4370788761E-002 +1.8253016761E+001  +1.3661673053E-002 +3.2166409578E+001  +5.7187896541E-001 +2.3188980989E+000 
10646340.426 +5.4378460869E-001 +4.8981816605E+000  +1.1923389032E-002 +1.6879162753E+001  +1.2152908071E-002 +2.8411386007E+001  +6.2051837395E-001 +1.3300268720E+000 
10771485.607 +5.5604407624E-001 +8.1650180813E+000  +1.2812141500E-002 +3.4323519186E+001  +1.4060847531E-002 +3.0233360055E+001  +5.7956913996E-001 -3.8511420727E-001 
10896630.788 +5.6890058144E-001 +6.7999367063E+000  +1.1941029190E-002 +1.8306404028E+001  +1.2518246763E-002 +3.3829800777E+001  +5.8607782421E-001 +1.3975277482E-001 
11021775.970 +5.7789788118E-001 +6.8496563631E+000  +1.3160493713E-002 +1.8407228630E+001  +1.3041205395E-002 +3.9638694079E+001  +6.0815214093E-001 +5.6485813413E-001 
11146921.151 +5.7885581438E-001 +6.8882684779E+000  +1.3872559318E-002 +2.2354786628E+001  +1.0593779166E-002 +4.0312029468E+001  +5.9053765847E-001 +1.3929616605E+000 
11272066.333 +5.9917278244E-001 +5.1646194321E+000  +1.3408472779E-002 +2.1658403227E+001  +1.1991479998E-002 +3.8346581500E+001  +6.3563762653E-001 +7.2203031073E-001 
11397211.514 +6.2426714445E-001 +5.1344059467E+000  +1.4641801360E-002 +2.7761871190E+001  +1.0753729445E-002 +3.6919739749E+001  +6.4299645166E-001 +9.3889281747E-001 
11522356.696 +6.1103580737E-001 +7.4482637252E+000  +1.2110894514E-002 +1.3225420351E+001  +1.2953013939E-002 +3.5296556277E+001  +6.1565975596E-001 +5.9532816226E+000 
11647501.877 +6.2427113554E-001 +4.6948729402E+000  +1.3530045223E-002 +2.2565129975E+001  +1.4038640133E-002 +3.8409540621E+001  +6.3528609785E-001 +3.5842346791E-002 
11772647.059 +6.1044863244E-001 +4.5255285450E+000  +1.1977981584E-002 +1.7502954924E+001  +1.4696376928E-002 +2.9276390708E+001  +6.3656196976E-001 +1.5480063769E+000 
11897792.240 +6.4664805164E-001 +6.1031627506E+000  +1.4369355142E-002 +2.8876575078E+001  +1.4334047177E-002 +2.8255264832E+001  +6.7258989971E-001 +3.9503174080E-003 
12022937.422 +6.5815745961E-001 +4.4645384777E+000  +1.2132050532E-002 +2.1623311793E+001  +1.3806035680E-002 +3.7539368386E+001  +6.5538078147E-001 +9.9288963478E-001 
12148082.603 +6.5776491842E-001 +4.8470613762E+000  +1.2746676129E-002 +2.3355990062E+001  +1.4237208206E-002 +3.7580018194E+001  +6.8740198535E-001 +7.3215914274E-001 
12273227.785 +6.9393177125E-001 +2.4917931313E+000  +1.3969535665E-002 +2.5391623649E+001  +1.3569638126E-002 +3.5546681859E+001  +7.1189168270E-001 +7.4790642856E-001 
12398372.966 +7.0726124760E-001 +3.7315693087E+000  +1.4284833099E-002 +2.1716667062E+001  +1.2692552079E-002 +3.8150587191E+001  +7.0374175824E-001 +4.2478597367E-001 
12523518.148 +7.0210743259E-001 +1.1755099732E+000  +1.5014891129E-002 +2.3424265966E+001  +1.4250106164E-002 +3.2596263037E+001  +7.5107161688E-001 +1.7644061731E-001 
12648663.329 +7.3808647045E-001 +5.1237757319E-001  +1.5072552997E-002 +2.5275431541E+001  +1.5522993312E-002 +3.3418573173E+001  +7.4343685692E-001 +3.6761688555E-001 
12773808.511 +7.5240048459E-001 +1.9879653651E+000  +1.4408366569E-002 +2.3010083347E+001  +1.1973287216E-002 +3.5697959846E+001  +7.7954327387E-001 -1.9748336499E+000 
12898953.692 +7.7144780112E-001 +1.2347623630E+000  +1.4463631094E-002 +2.9696470567E+001  +1.5538826896E-002 +3.1391180175E+001  +7.6187660230E-001 -3.0568297626E+000 
13024098.874 +7.6715940328E-001 +1.6474273565E+000  +1.5785820726E-002 +2.1042537896E+001  +1.4303101325E-002 +3.1743198902E+001  +7.6553352906E-001 -1.5398962016E+000 
13149244.055 +7.9794666068E-001 -1.2422583854E+000  +1.5646745725E-002 +3.1167114472E+001  +1.5208143757E-002 +3.0139812568E+001  +8.2757983028E-001 -4.3024537784E+000 
13274389.237 +8.2147415300E-001 +1.2019723634E-002  +1.5328264624E-002 +2.7849979233E+001  +1.5267686120E-002 +3.0054906486E+001  +8.3281293781E-001 -8.3212679862E-001 
13399534.418 +8.1685016708E-001 -1.7465468637E+000  +1.4826602148E-002 +2.4969454235E+001  +1.3721366004E-002 +3.3305672075E+001  +8.2973083513E-001 -2.3541263528E+000 
13524679.599 +8.4179118975E-001 -1.8564372849E+000  +1.6069672969E-002 +3.0242624586E+001  +1.6255295127E-002 +3.4113406170E+001  +8.4583158491E-001 -3.2588106051E+000 
13649824.781 +8.3113888854E-001 -4.2019744654E+000  +1.5735418851E-002 +2.8925893694E+001  +1.6649933322E-002 +3.2330986564E+001  +8.7466176784E-001 -1.9671930347E+000 
13774969.962 +8.8846019636E-001 -3.3701649037E+000  +1.6676592878E-002 +2.5711340279E+001  +1.4964570769E-002 +2.8133072303E+001  +8.8757284041E-001 -3.4790466001E+000 
13900115.144 +9.0430243504E-001 -2.8714032419E+000  +1.6939251189E-002 +2.4900931083E+001  +1.6179179781E-002 +2.9320109927E+001  +9.0093872346E-001 -4.2372162135E+000 
14025260.325 +8.9992757094E-001 -4.2595531061E+000  +1.6217018720E-002 +2.8551089670E+001  +1.5336680545E-002 +3.0992997540E+001  +9.2714453711E-001 -4.4300018812E+000 
14150405.507 +9.3779946204E-001 -3.7179678406E+000  +1.6075474630E-002 +2.6027387386E+001  +1.6152722165E-002 +3.1000339745E+001  +9.4211097157E-001 -4.0993551857E+000 
14275550.688 +9.2981229494E-001 -4.9888744458E+000  +1.5674099036E-002 +2.7555372265E+001  +1.7436621679E-002 +3.0992237634E+001  +9.4763588972E-001 -4.1089022572E+000 
14400695.870 +9.6235645400E-001 -5.3282587877E+000  +1.6918775922E-002 +2.6077643351E+001  +1.7196048226E-002 +2.8155467557E+001  +9.5035937249E-001 -4.9243597689E+000 
