!  2-Port S-parameters saved by WinCal
! VAR MeasName=S-Parameters (CALIBRATED_DATA) read from VNA (P5004A)
! VAR MeasDate=28/08/2024 16:07:36
! VAR NAME=S2_r8c9_RESET2_9k-100M_2
! VAR FILENAME=S2_r8c9_RESET2_9k-100M_2.S2P
! VAR DATE=28/08/2024 16:07:36
! VAR PHYS_PORTS=1,2
! VAR ObjTypeName=DATASET
! VAR IndexType=Frequency
!
# Hz S MA R 50
9000.000 +9.1320048402E-002 -1.6550031011E+002  +5.4330831850E-003 +1.6368427335E+002  +2.4938598171E-003 +5.9005414769E+001  +2.3305263189E-001 -1.3374307671E+002 
134145.181 +1.1112184045E-001 +1.6958546851E+002  +6.3764487177E-004 +8.3822797549E+000  +1.0189873812E-003 -7.9168582925E+001  +2.3904177757E-001 -1.7052202897E+002 
259290.363 +1.1239503617E-001 +1.6971469613E+002  +7.3496590397E-004 -4.6825895155E+001  +6.8555351633E-004 -1.7535636057E+001  +2.4230657719E-001 -1.6955057437E+002 
384435.544 +1.1364463817E-001 +1.6999965627E+002  +4.0923843730E-004 +6.0614378726E+001  +7.9035855126E-004 +4.8739372571E+001  +2.4505047606E-001 -1.6837997244E+002 
509580.726 +1.1552949270E-001 +1.7094446987E+002  +4.1841250023E-004 +1.6498865291E+002  +4.5097649479E-004 -1.6967777158E+002  +2.3230406250E-001 -1.6257605104E+002 
634725.907 +1.1555365730E-001 +1.7221301219E+002  +6.5429198631E-004 +6.8878080912E+001  +3.5727215270E-004 -1.0071578174E+002  +2.4566402664E-001 -1.6433917872E+002 
759871.089 +1.2066620469E-001 +1.7072334307E+002  +7.8562785493E-004 +1.0145298176E+001  +2.7973432463E-004 +1.3117128188E+001  +2.5255226872E-001 -1.6735433105E+002 
885016.270 +1.2126147011E-001 +1.6976747665E+002  +2.3249946770E-004 -1.5542784737E+002  +4.1217285957E-004 +5.8410208818E+001  +2.5000810103E-001 -1.6777293020E+002 
1010161.452 +1.1737672377E-001 +1.7054007717E+002  +1.9673187900E-003 -1.3050241528E+002  +8.0050503887E-004 -1.3019834605E+002  +2.0417936026E-001 -1.6653364775E+002 
1135306.633 +1.1983702521E-001 +1.6956566829E+002  +1.5894957743E-003 -8.7211954465E+001  +2.1041255704E-003 -7.7147465647E+001  +1.7956463010E-001 -1.6238795605E+002 
1260451.815 +1.2091170140E-001 +1.6995695663E+002  +1.5331569841E-003 +1.3517820657E+001  +1.0336411001E-003 +2.8806412655E+000  +2.3117680179E-001 -1.6161782363E+002 
1385596.996 +1.2517024991E-001 +1.7191799557E+002  +7.7985328074E-004 -1.1174739840E+002  +1.7459063052E-004 -3.8779005659E+001  +2.7194371821E-001 -1.5841419126E+002 
1510742.178 +1.2793739034E-001 +1.7245769407E+002  +1.2398843239E-003 -2.0801506770E+001  +7.1513287558E-004 +1.5010861322E+002  +2.5591922809E-001 -1.5915939101E+002 
1635887.359 +1.3104871730E-001 +1.7144844362E+002  +6.5701684134E-004 -1.3357701791E+002  +8.4434040946E-004 +5.3804687580E+001  +2.2062746854E-001 -1.5643081043E+002 
1761032.541 +1.2983316404E-001 +1.6882388484E+002  +6.7621559035E-004 +1.1637250155E+002  +5.7495482506E-004 +1.0549463947E+002  +2.3293114476E-001 -1.6077662903E+002 
1886177.722 +1.2874728602E-001 +1.6805538314E+002  +8.6741617637E-004 -1.7167800945E+002  +8.1715332484E-004 +1.5473531318E+002  +2.2397421325E-001 -1.6029257225E+002 
2011322.904 +1.2602388305E-001 +1.6943794840E+002  +1.5748591420E-003 +4.4304864703E+001  +1.9489384193E-003 -1.1904210410E+002  +2.1913425094E-001 -1.5878334356E+002 
2136468.085 +1.2694570810E-001 +1.6685721197E+002  +2.2598642319E-003 -1.6241989329E+002  +5.8928296228E-003 +7.0361926563E+001  +1.4662399933E-001 +1.3751352968E+002 
2261613.267 +1.3239243649E-001 +1.6427513555E+002  +1.6648163620E-003 -3.5599370259E+001  +1.0512480866E-003 +2.3142200623E+001  +1.2258991961E-001 +1.7207926058E+002 
2386758.448 +1.3695922437E-001 +1.6541635078E+002  +5.1515410173E-003 -3.7572213667E+001  +1.7898548148E-003 -1.8120862822E+001  +1.2957570466E-001 +1.5789670860E+002 
2511903.630 +1.4029578833E-001 +1.6223862349E+002  +2.1128818525E-003 +1.1581389948E+002  +2.0661136948E-003 +9.9075973949E+001  +1.6931687571E-001 +1.7594626758E+002 
2637048.811 +1.1938356866E-001 +1.4425628280E+002  +7.8544755208E-002 +1.9658979486E+001  +6.2907635043E-002 -1.2374723190E+002  +1.9838441169E+000 -1.5259605778E+002 
2762193.992 +1.1151263505E-001 +1.7190342732E+002  +1.9023450402E-003 -1.7307636505E+001  +1.3987787431E-002 +1.4394401718E+002  +1.9181389284E-001 -8.1532430050E+001 
2887339.174 +1.1506607035E-001 +1.6752416943E+002  +4.5044516281E-003 +1.1075722031E+001  +5.0536504324E-003 -1.3881214536E+002  +9.9393036268E-002 -4.6892524793E+001 
3012484.355 +1.1754549584E-001 +1.6466489164E+002  +1.1698397745E-002 -1.2912437920E+002  +1.2744070233E-002 -1.1941870409E+001  +2.8343300227E-001 -8.6805790777E+001 
3137629.537 +1.3487444935E-001 +1.7416945023E+002  +4.9912950172E-003 +1.1962629250E+002  +3.9903637781E-003 +7.2719252365E+000  +1.1897764485E-001 +1.7744827654E+002 
3262774.718 +1.0223500054E-001 +1.6191662266E+002  +1.6309288633E-002 +1.4908783421E+002  +1.0526990050E-002 +1.7163896019E+002  +2.0143134482E-001 -2.5250524091E+001 
3387919.900 +1.1232593944E-001 +1.5923813697E+002  +4.3684451538E-003 -5.7858176365E+000  +7.2724405593E-003 -1.1029776758E+002  +1.3620953641E-001 +8.3988340394E+001 
3513065.081 +1.2434628466E-001 +1.4519313187E+002  +2.6319078916E-002 -3.3590661825E+001  +5.0647782795E-002 -1.2474398093E+002  +1.3254007033E+000 +9.3384050777E+001 
3638210.263 +1.8550428119E-001 +1.4030072855E+002  +6.1128038697E-003 +1.4310943996E+002  +1.2052456003E-002 +7.4593522535E+001  +1.1088123371E+000 +1.5698511414E+002 
3763355.444 +1.6389019798E-001 +1.4586037918E+002  +1.0437344262E-002 -1.7753428676E+002  +1.1554535594E-002 +4.4827859962E+001  +7.2831366528E-001 +9.6172231913E+001 
3888500.626 +1.6173834579E-001 +1.5965372921E+002  +2.6106943962E-003 -1.7449023485E+002  +2.1590621192E-003 +7.5823876617E+001  +2.3389996019E-001 +1.4824304795E+002 
4013645.807 +1.6183947686E-001 +1.4664183868E+002  +8.5414905891E-003 +6.0534721166E+001  +9.6556515132E-003 -8.7002712170E+001  +5.1041914058E-001 +1.1915212851E+002 
4138790.989 +1.4756160543E-001 +1.4434985554E+002  +4.0365568599E-003 -1.2325287791E+002  +1.0463739675E-002 +1.7631733450E+002  +4.5805149562E-001 +1.1180392856E+002 
4263936.170 +1.4572994877E-001 +1.3931870033E+002  +9.8251349663E-003 -7.3753223033E+001  +1.2159634838E-002 -6.3114614469E+000  +5.8907062612E-001 +1.0163977929E+002 
4389081.352 +1.8089263202E-001 +1.3355114330E+002  +2.7308960635E-003 +1.0478066181E+000  +5.9791834253E-004 -3.6851734769E+000  +4.3474635146E-001 +1.2909862038E+002 
4514226.533 +2.5260397951E-001 +1.2909520540E+002  +2.2928496964E-002 -5.8408888011E+001  +2.4078728614E-002 -1.3987921558E+002  +4.0811602009E+000 +1.5585156280E+002 
4639371.715 +2.5485963540E-001 +1.3900699083E+002  +8.2696133526E-002 -6.8541676638E+001  +4.9288905294E-002 -1.1847149298E+002  +7.4831405096E+000 -9.0327959721E+001 
4764516.896 +3.8264485393E-001 +1.3847979954E+002  +2.5454051393E-002 -1.3319467593E+002  +4.3238135355E-002 -1.1887950488E+001  +3.4571817309E+000 -1.6545048326E+002 
4889662.078 +4.4209720371E-001 +1.1386447507E+002  +5.2575181659E-002 -1.5100681365E+002  +4.1150240398E-002 -1.5655082334E+002  +4.2594992889E+000 +1.7610948541E+002 
5014807.259 +3.6508979790E-001 +1.2434289955E+002  +8.2932683737E-002 +1.2791500229E+002  +6.8559913111E-002 -1.4860208328E+002  +7.3752155730E+000 +1.6093721533E+002 
5139952.441 +3.9861438824E-001 +1.2230037015E+002  +2.8220976387E-002 +1.3011836955E+002  +6.9440461143E-002 -1.6733630688E+002  +3.6786852023E+000 +1.0282850320E+002 
5265097.622 +4.4607848617E-001 +1.2131527136E+002  +5.3316129734E-002 +9.7271948161E+001  +1.0561438196E-001 +3.0500478861E+001  +9.6313681516E+000 +3.7422544482E+001 
5390242.804 +4.3202687268E-001 +1.2376471392E+002  +3.2874313885E-002 -1.7026876636E+002  +2.0618444202E-002 +1.4228998172E+002  +2.4168632379E+000 +1.2844197398E+002 
5515387.985 +3.7720512848E-001 +1.2814955884E+002  +3.3117226826E-002 -1.1070339635E+002  +5.8763627107E-002 +1.6172731611E+002  +6.0688818476E+000 +1.1444596628E+002 
5640533.166 +4.5342019445E-001 +1.2093314545E+002  +1.4487545603E-002 +1.4907540938E+002  +1.6446358781E-002 -8.9261395924E+001  +2.1496649322E+000 +1.0423771657E+002 
5765678.348 +5.3291547580E-001 +1.1359375267E+002  +3.0940057177E-002 +1.5240539653E+002  +2.1682006785E-002 +8.7083941885E+001  +3.1695702392E+000 +8.0998507027E+001 
5890823.529 +5.4201706647E-001 +1.2093202362E+002  +7.0230372578E-003 -1.3032977709E+002  +2.9184120218E-002 -4.6625981894E+001  +2.4439698014E+000 +7.8023363279E+001 
6015968.711 +5.5251705761E-001 +1.0169389473E+002  +4.4363763869E-002 +1.0609786058E+002  +4.7189374847E-002 +7.3902053911E+001  +3.2290635029E+000 +2.6654194365E+001 
6141113.892 +7.7058758782E-001 +1.0316190962E+002  +3.2823636119E-002 +1.3689454639E+002  +7.2786343936E-003 +1.4440245983E+002  +9.5790226310E-001 +4.8464757845E+001 
6266259.074 +8.0893661344E-001 +1.1319037495E+002  +5.8986823869E-003 +1.1072906096E+002  +1.3705656410E-002 +1.6360056165E+002  +2.2079580127E+000 +1.7316174894E+001 
6391404.255 +9.8486234598E-001 +9.4485331702E+001  +7.3390589262E-003 +1.7289945667E+002  +2.4052112695E-002 +6.0025196038E+001  +1.2330225214E+000 +2.8988457111E+000 
6516549.437 +1.3457198562E+000 +8.5260045154E+001  +2.7527653012E-002 +8.1879448873E+001  +3.3918092417E-002 +1.0672855603E+002  +1.3421755942E+000 +8.0435142296E+000 
6641694.618 +1.8226655843E+000 +6.8056895680E+001  +2.2023059683E-002 +6.2110343328E+001  +3.1214298055E-002 +3.5037707412E+001  +1.1622741407E+000 +1.0453877103E+001 
6766839.800 +1.5565146113E+000 +5.5422462406E+001  +2.8029661603E-002 +1.0787321779E+002  +1.0185226812E-002 -3.0402908865E+000  +1.2884576915E+000 -1.3673226213E+001 
6891984.981 +1.7184859817E+000 +3.6816527531E+001  +1.5074580769E-002 +1.1856019054E+002  +4.5322888005E-003 +2.7363949305E+001  +1.3498236460E+000 -9.2522490763E+000 
7017130.163 +2.0815254358E+000 +7.5972848762E+000  +1.1660102566E-002 -9.9040035623E+001  +1.0281783684E-003 -1.5494058804E+002  +1.3055313954E+000 -1.7509150468E+001 
7142275.344 +1.6964521580E+000 -3.3452745630E+000  +7.7120245377E-003 +3.0346556684E+001  +7.9737915527E-003 +6.0911886448E+001  +1.1093077913E+000 -1.0159262740E+001 
7267420.526 +1.7293251649E+000 +2.6465432862E+000  +1.1184785057E-002 +2.6432122260E+001  +1.1282603412E-002 +1.3234187454E+002  +1.2151826880E+000 -1.4365054504E+001 
7392565.707 +1.3139401910E+000 +1.3209574985E+000  +5.7282144872E-003 +1.3125303138E+002  +1.0350431819E-002 +1.2196291400E+002  +1.3186805570E+000 -1.7193551951E+000 
7517710.889 +1.0650380872E+000 +2.0392253700E+000  +5.2306500222E-003 +3.6813244227E+001  +6.8223814468E-003 -1.7643276669E+002  +1.2632729946E+000 -9.3798439475E+000 
7642856.070 +1.0478814160E+000 +1.3102726113E+000  +1.4429154983E-003 +7.6408102299E+001  +6.4774461880E-003 +1.4393538313E+001  +1.0883638534E+000 -3.9729056603E+000 
7768001.252 +9.8086158951E-001 +2.6448413930E-002  +1.5623307913E-003 +8.1216971560E+001  +1.2369344443E-002 +9.0704667619E+001  +1.0623588615E+000 -1.8660580667E+000 
7893146.433 +8.9785248450E-001 +4.3504053929E+000  +9.6415059393E-003 -1.0167575528E+002  +1.3398855022E-002 +7.2633915786E+001  +9.8537330374E-001 -2.8698664972E+000 
8018291.615 +8.8887671272E-001 +6.2766416027E+000  +5.3602098500E-003 +1.4724494935E+002  +3.9219631069E-003 +9.1094138391E+001  +9.5405726029E-001 -5.4860267851E+000 
8143436.796 +6.9592822793E-001 +2.2016874548E+000  +9.3019450909E-003 +1.0684306350E+002  +3.3584522560E-003 +1.2137227980E+002  +7.8641486831E-001 +2.1010708271E+000 
8268581.977 +7.1016811411E-001 -2.4189513160E+000  +3.0060820918E-003 +9.9776697798E+001  +1.1998404563E-002 +6.6960617835E+001  +7.2212971935E-001 -1.4159235958E+000 
8393727.159 +7.2799031124E-001 +4.1756960228E+000  +5.9346274013E-003 +7.8347803291E+001  +5.6155719464E-003 +4.1165032905E+001  +7.5623810683E-001 +3.7976171220E+000 
8518872.340 +7.1126118129E-001 +5.1384518373E+000  +1.3298288827E-003 +8.5941188669E+001  +5.8774536219E-003 +3.5651059645E+001  +6.9477419276E-001 -3.0883967891E+000 
8644017.522 +6.7621113876E-001 +6.7533246566E+000  +3.4957774520E-003 +4.1313391452E+001  +1.8334082311E-003 -1.4606315951E+002  +6.8241418059E-001 +5.5499192907E-001 
8769162.703 +6.0120981517E-001 +6.1660292646E+000  +4.0710907837E-003 +8.8063710181E+001  +2.4591257306E-003 +1.1111307454E+002  +6.8313892985E-001 +4.8273708184E+000 
8894307.885 +6.1024078103E-001 +8.9249894906E+000  +4.4101407556E-003 +3.7832064602E+001  +8.8051240548E-003 +1.1969873178E+002  +6.1641455390E-001 +6.7215789310E-002 
9019453.066 +6.0573189018E-001 +2.8931087165E+000  +3.4297685861E-003 +3.0590656730E+001  +4.2396265203E-003 +1.0131034423E+002  +6.7282079674E-001 +1.9062421554E+000 
9144598.248 +5.6061426035E-001 +7.6722439941E+000  +4.7767583919E-003 +1.0171301843E+002  +3.6789392911E-003 +1.0745629483E+002  +6.0927798061E-001 -2.0783409732E+000 
9269743.429 +5.9970578567E-001 +6.4643582923E+000  +7.5998002731E-003 +7.7347440319E+001  +6.1554495635E-003 +1.3361729017E+002  +6.2871850560E-001 +1.3604097994E+000 
9394888.611 +5.2803477754E-001 +8.5796403409E+000  +6.4311933091E-003 +7.8014064458E+001  +4.8794615516E-003 +1.0700165479E+002  +5.9014124945E-001 +3.9505039909E+000 
9520033.792 +5.5943201113E-001 -4.0592944195E+000  +3.9277482496E-003 +1.7419765072E+001  +2.6829255859E-003 +1.3289850041E+002  +5.2884547127E-001 -3.4215434398E+000 
9645178.974 +5.0951811347E-001 +1.2161066196E+000  +4.7152515770E-003 +9.3629746250E+001  +1.3659519023E-003 -6.1129221258E+001  +5.9268061540E-001 -3.1230401528E+000 
9770324.155 +5.1565251206E-001 -4.4041296129E-001  +2.5385833494E-003 +7.3870117309E+001  +3.2464747368E-003 +1.3223026573E+002  +5.6488623019E-001 -7.6529814363E+000 
9895469.337 +5.4004497407E-001 -4.8669374191E+000  +1.3043898365E-003 +8.7393132770E+001  +4.2521710812E-003 +8.5942834131E+001  +5.5872014291E-001 -4.9429035989E+000 
10020614.518 +6.0955874586E-001 +4.0569426552E+000  +3.9976817694E-003 +5.0091539279E+001  +2.7852663914E-003 +8.4540299599E+001  +5.7421569219E-001 -6.0802067827E+000 
10145759.700 +5.3613009400E-001 -1.1586376555E-001  +5.2479870881E-003 +8.0483914512E+001  +4.7536847355E-003 +1.1146960812E+002  +6.1415219451E-001 -5.3789565930E+000 
10270904.881 +5.5630845667E-001 +2.9853216091E+000  +5.2725302053E-003 +9.3040440228E+001  +5.7672145199E-003 +7.2086990578E+001  +5.8047709639E-001 -2.9839897372E+000 
10396050.063 +5.2124855869E-001 +4.3189525347E+000  +7.1221139739E-003 +5.8450663477E+001  +1.1654124459E-003 +9.6176854235E+001  +5.9654007093E-001 -4.9569946872E+000 
10521195.244 +5.4183348904E-001 +4.1394823595E+000  +5.7459892316E-003 +1.0343184223E+002  +7.1820057413E-003 +9.1241040500E+001  +6.1411785771E-001 -1.3481327457E+000 
10646340.426 +5.6136110491E-001 +3.8243004616E+000  +1.7652648940E-003 +1.3408550259E+002  +5.7309882841E-003 +8.7340116651E+001  +5.9878738935E-001 +3.4214457353E+000 
10771485.607 +5.7609106128E-001 +5.9196798630E+000  +1.0667610321E-003 +1.5316462306E+002  +4.5169148854E-003 +1.0998015091E+002  +5.6697879585E-001 -3.3719039825E-001 
10896630.788 +5.4777769082E-001 +7.7024926794E+000  +7.7903469534E-004 +8.8167300737E+001  +7.6302590537E-003 +9.8855651346E+001  +6.1811183532E-001 +1.5348775819E+000 
11021775.970 +5.8850411894E-001 +6.9240433361E+000  +3.5059360447E-003 +9.8768981001E+001  +6.8627085896E-003 +1.1902906062E+002  +6.2785474042E-001 +2.3073928751E+000 
11146921.151 +5.8655593632E-001 +1.7160804177E+000  +4.5749273725E-003 +8.6814672091E+001  +5.0620385392E-003 +9.0402317566E+001  +5.7381639641E-001 +3.1709535208E+000 
11272066.333 +6.0578219642E-001 +7.6490884260E+000  +6.4061348549E-003 +7.6034782007E+001  +5.4309092492E-003 +1.2162745385E+002  +5.9861422776E-001 -9.9099947338E-001 
11397211.514 +6.1498042575E-001 +7.2856099381E+000  +6.1726425338E-003 +7.4513090918E+001  +6.0071670586E-003 +9.3556250543E+001  +6.6000994156E-001 +2.0763660405E+000 
11522356.696 +6.0733267324E-001 +7.3127813327E+000  +2.8804566689E-003 +5.4739832621E+001  +2.1474578905E-003 +1.2741987532E+002  +6.2322061074E-001 +3.4575943903E+000 
11647501.877 +6.2152990766E-001 +5.1054091107E+000  +4.8494951783E-003 +7.9344879560E+001  +3.8813019480E-003 +1.3429159563E+002  +6.6220822933E-001 -1.6408288345E+000 
11772647.059 +6.4559126435E-001 +6.4721564122E+000  +5.6922353037E-003 +9.0011242157E+001  +3.3008147578E-003 +8.9444027604E+001  +6.5540713548E-001 +1.8403987851E+000 
11897792.240 +6.7585168643E-001 +5.3444777050E+000  +5.6934576496E-003 +8.5477321592E+001  +6.7647213163E-003 +8.0253437532E+001  +6.7470000180E-001 -8.2256886049E-002 
12022937.422 +6.5055799469E-001 +5.3329163450E+000  +3.3522777320E-003 +9.4173087054E+001  +4.2849057424E-003 +1.2926613332E+002  +6.7042810743E-001 +9.7967116925E-001 
12148082.603 +6.8430900084E-001 +3.2116586088E+000  +4.9521290149E-003 +1.0730019119E+002  +5.1265917373E-003 +1.0889590222E+002  +6.7266147098E-001 -5.1211757672E-001 
12273227.785 +7.1475105754E-001 +3.8935199079E+000  +4.9736590128E-003 +8.1998262258E+001  +5.5758661255E-003 +9.9737288437E+001  +6.9338579279E-001 +1.3230185487E+000 
12398372.966 +7.1969615716E-001 +1.2179350927E+000  +6.0896757229E-003 +7.0645074457E+001  +5.3399939041E-003 +9.3154473932E+001  +7.2696853794E-001 +1.0162817727E-001 
12523518.148 +7.3924482647E-001 +2.7777144207E+000  +5.7611476272E-003 +8.1477692474E+001  +6.4888817367E-003 +9.3336302217E+001  +7.3816907669E-001 +4.5589878692E-001 
12648663.329 +7.4280484110E-001 +1.7852917341E+000  +6.9013042435E-003 +9.0565171639E+001  +6.6786711186E-003 +1.1602939326E+002  +7.4748629504E-001 +1.2442635521E+000 
12773808.511 +7.5335614929E-001 +1.5308026838E+000  +6.5741926072E-003 +7.9509326447E+001  +6.2730256355E-003 +8.9920475786E+001  +7.7445478826E-001 -5.9358165174E-001 
12898953.692 +7.7834929032E-001 +1.4508092061E+000  +4.7098958657E-003 +9.5609411058E+001  +5.8249279486E-003 +9.3105569934E+001  +8.0109582936E-001 +5.1111515549E-001 
13024098.874 +7.8927064379E-001 +2.6164959096E-001  +6.6247271867E-003 +8.8707916669E+001  +6.4228951613E-003 +8.9309603009E+001  +8.1790210913E-001 -2.5470307724E+000 
13149244.055 +7.8214859533E-001 +1.0941733487E-001  +6.7148212759E-003 +8.6316342097E+001  +5.6517986427E-003 +8.0637633551E+001  +8.4147630551E-001 -1.0660809388E+000 
13274389.237 +8.1496459302E-001 -1.4951367610E+000  +7.1633044021E-003 +8.5128141617E+001  +5.7735060021E-003 +1.0158650788E+002  +8.3331744079E-001 -3.2334803825E+000 
13399534.418 +8.2677552335E-001 -1.8804000861E+000  +8.2368339199E-003 +8.7705475679E+001  +6.0304403726E-003 +9.1015271534E+001  +8.3946115070E-001 -1.3411308674E+000 
13524679.599 +8.4162839180E-001 -1.6074052963E+000  +6.6403355036E-003 +7.8373977746E+001  +6.9502602382E-003 +9.5574191065E+001  +8.5994866924E-001 -3.4390566669E+000 
13649824.781 +8.6185897566E-001 -3.3718096593E+000  +7.2417155824E-003 +7.9915378992E+001  +6.2068141610E-003 +9.9551592256E+001  +8.7839968573E-001 -3.5855415714E+000 
13774969.962 +8.7622614324E-001 -2.2824877873E+000  +8.8287754369E-003 +8.3078335198E+001  +6.0910564783E-003 +8.6437029191E+001  +9.0033231927E-001 -1.9235663118E+000 
13900115.144 +9.1052431015E-001 -3.1582061454E+000  +6.0686911236E-003 +9.4897494630E+001  +6.9017325434E-003 +8.8122492249E+001  +9.1924613857E-001 -3.5424722624E+000 
14025260.325 +9.1524762668E-001 -2.9403904710E+000  +7.2760009130E-003 +9.5204987399E+001  +6.6232242830E-003 +8.8254889694E+001  +9.2568898591E-001 -3.1826625008E+000 
14150405.507 +9.5203924734E-001 -5.0308413317E+000  +8.2845295700E-003 +8.8969797322E+001  +8.4851002101E-003 +8.8940050501E+001  +9.6620996590E-001 -4.6571556684E+000 
14275550.688 +9.5952421013E-001 -5.1056993524E+000  +6.9924508327E-003 +1.0891070704E+002  +8.4736431418E-003 +9.8554903334E+001  +9.8430596945E-001 -5.2375404173E+000 
14400695.870 +9.8333641715E-001 -6.4329970719E+000  +7.9700254707E-003 +9.2297917224E+001  +7.9190311431E-003 +9.4358126318E+001  +1.0083534456E+000 -4.7853253299E+000 
