!  2-Port S-parameters saved by WinCal
! VAR MeasName=S-Parameters (CALIBRATED_DATA) read from VNA (P5004A)
! VAR MeasDate=28/08/2024 10:34:31
! VAR NAME=S2_r4c9_SET3_9k-100M_1
! VAR FILENAME=S2_r4c9_SET3_9k-100M_1.S2P
! VAR DATE=28/08/2024 10:34:31
! VAR PHYS_PORTS=1,2
! VAR ObjTypeName=DATASET
! VAR IndexType=Frequency
!
# Hz S MA R 50
9000.000 +7.0308539058E-002 -1.6281637562E+002  +5.1188610275E-003 -9.7675544348E+000  +9.8614519896E-003 -9.3353205367E-001  +2.6878867381E-001 -1.4329461467E+002 
134145.181 +1.1051418623E-001 +1.6964491983E+002  +7.1341482678E-004 +1.4477306002E+002  +2.7042121075E-004 -1.7504258231E+002  +2.4181056723E-001 -1.7104626525E+002 
259290.363 +1.1207558946E-001 +1.7002848649E+002  +5.1850100051E-004 -1.5257529147E+002  +8.1550386319E-004 +5.9995664173E+001  +2.4612333002E-001 -1.7088544343E+002 
384435.544 +1.1356044040E-001 +1.7026645555E+002  +1.8469634584E-004 +1.4592840650E+002  +5.4105984976E-004 -1.7847335525E+002  +2.4430500401E-001 -1.6882648909E+002 
509580.726 +1.1264872415E-001 +1.7160853033E+002  +6.1534017082E-004 +4.3873256814E+001  +1.4788675883E-003 -2.1459846512E+001  +2.5704318553E-001 -1.6386882284E+002 
634725.907 +1.1605774266E-001 +1.7095473914E+002  +1.7180171341E-003 -1.4573668710E+002  +1.1499952960E-003 +4.7594059196E+001  +2.5135625920E-001 -1.6354245287E+002 
759871.089 +1.1886690762E-001 +1.7121585192E+002  +7.3958252806E-004 -1.3457425951E+002  +7.5507985886E-004 -1.0355888631E+002  +2.4977482615E-001 -1.6481030722E+002 
885016.270 +1.1975752925E-001 +1.6921880858E+002  +4.0869598010E-004 +1.4400217006E+002  +5.8081355234E-004 +1.0480325094E+002  +2.3928954914E-001 -1.6756950144E+002 
1010161.452 +1.1348231213E-001 +1.7018209561E+002  +2.2674994298E-003 -9.7974096435E+001  +9.2943380685E-004 -1.2201686870E+001  +2.1063435810E-001 -1.6397578622E+002 
1135306.633 +1.1711146677E-001 +1.6893987011E+002  +6.0802911826E-004 +7.0718740328E+001  +3.2176043150E-003 +8.4824314040E+001  +2.0009943960E-001 -1.4119995343E+002 
1260451.815 +1.1698385562E-001 +1.6988723202E+002  +1.5825821748E-003 -7.4927727572E+001  +1.6508555631E-003 +1.4181732172E+002  +2.2594485122E-001 -1.6348651518E+002 
1385596.996 +1.2311533836E-001 +1.7208954027E+002  +8.4462953804E-004 +1.3558827346E+002  +6.9166630877E-004 +1.6412094446E+002  +2.8328670080E-001 -1.5822665647E+002 
1510742.178 +1.3127604929E-001 +1.7167224957E+002  +6.4835211731E-004 +1.5934434063E+002  +3.7370533164E-004 -1.3298447057E+002  +2.6535611455E-001 -1.5939681089E+002 
1635887.359 +1.2913595102E-001 +1.7158109326E+002  +7.2454634735E-004 -8.4168451331E+001  +3.3782159250E-004 -1.2091274675E+002  +2.4192119694E-001 -1.5573356349E+002 
1761032.541 +1.3108319472E-001 +1.7079999942E+002  +1.5447581083E-003 -5.1535526818E+001  +1.0308200222E-003 +1.7460335652E+002  +2.3482941849E-001 -1.5588981159E+002 
1886177.722 +1.2891693918E-001 +1.7045557769E+002  +1.7992464791E-003 +1.6992437216E+001  +1.1515917385E-003 -8.7593003147E+001  +2.1506130781E-001 -1.5102016290E+002 
2011322.904 +1.2974611911E-001 +1.6817786271E+002  +1.9189295617E-003 +1.3712296383E+002  +7.7127528335E-004 -1.2944147975E+002  +2.2228844508E-001 +1.7780354810E+002 
2136468.085 +1.3229932595E-001 +1.6592098365E+002  +4.5844181990E-003 +3.8666712267E+001  +2.8892592906E-003 -1.5417563789E+002  +1.3062120396E-001 -1.5176358719E+002 
2261613.267 +1.3048995567E-001 +1.6710860034E+002  +6.0143247224E-003 +6.1856864280E+001  +1.7805225102E-003 +1.5038743756E+002  +1.0104888426E-001 +1.6180373310E+002 
2386758.448 +1.4100191353E-001 +1.6522440441E+002  +1.6385248237E-003 -1.6604370435E+001  +7.6148991059E-004 +1.6434331413E+002  +1.2023767600E-001 +1.5844440138E+002 
2511903.630 +1.3291764241E-001 +1.6574853408E+002  +7.1858208947E-003 +8.4069960774E+001  +1.8291667723E-003 +4.4763931368E+001  +2.1594082747E-001 +1.7082346687E+002 
2637048.811 +1.3291856760E-001 +1.6585001600E+002  +1.1904755000E-002 +2.1330572919E+001  +8.1404315022E-003 -1.5879904030E+002  +4.6968213114E-001 +4.3194376345E+001 
2762193.992 +1.2740342493E-001 +1.7742231501E+002  +1.3223586777E-002 +4.0635661861E+001  +1.7829483325E-002 -7.2828004520E+001  +5.5171367991E-001 +5.2738335084E+001 
2887339.174 +1.2256895069E-001 +1.6304932870E+002  +4.5840967379E-003 -2.6558650697E+001  +8.5474525938E-003 +1.0175921692E+002  +1.7478658220E-001 -9.5384667527E+001 
3012484.355 +1.2498273255E-001 +1.7548418220E+002  +9.3078951617E-003 +5.0698095755E+001  +1.4691970636E-002 -1.2822816298E+002  +1.7003677787E-001 +3.7176989300E+001 
3137629.537 +9.5923004741E-002 +1.6988623204E+002  +3.2622654023E-002 +1.0889825055E+001  +4.1814066928E-002 -8.9325342825E+001  +3.6303751546E-001 +1.5713647165E+001 
3262774.718 +1.2239519312E-001 +1.6169638502E+002  +1.2645916421E-002 +8.3871155740E+000  +2.4096469933E-003 -3.5895138741E-002  +3.9538462933E-002 +1.7622397648E+001 
3387919.900 +1.2881963939E-001 +1.5757680712E+002  +1.4783621075E-002 -2.4745629266E+001  +1.5703507734E-002 -7.1218916530E+001  +1.1795350815E-001 -2.4465732562E+001 
3513065.081 +1.4780448556E-001 +1.5875280870E+002  +1.1404563731E-002 -2.4167654145E+001  +2.9716584300E-002 -1.2834785157E+002  +5.9009959274E-001 -3.6012325004E+001 
3638210.263 +1.6241444752E-001 +1.5028713325E+002  +2.6997231400E-002 +1.6562469549E+002  +1.4934582397E-002 -5.6598695735E+001  +7.2525472368E-001 +1.2669397770E+002 
3763355.444 +1.6125707038E-001 +1.4348096392E+002  +2.8055178396E-002 -1.3147059245E+002  +2.3697324201E-002 -2.3173222667E-001  +1.2970494211E+000 +1.3859010432E+002 
3888500.626 +1.6940029108E-001 +1.3362757326E+002  +1.6992306714E-002 +1.3409664684E+002  +3.7288202540E-002 -1.3436740293E+001  +5.6234053868E-001 +7.0863013525E+001 
4013645.807 +1.8712325645E-001 +1.5041518125E+002  +8.3941665343E-003 -1.6004534112E+002  +5.3954327819E-003 -1.5964479199E+002  +5.2536302532E-001 +1.5629960093E+002 
4138790.989 +2.0944113882E-001 +1.4913220731E+002  +9.1823655834E-003 -1.3923553666E+002  +2.0237410573E-002 +6.1474735821E+001  +6.2702435002E-001 +1.2096259222E+002 
4263936.170 +2.1822829482E-001 +1.4431919075E+002  +6.0280052556E-003 +1.4832160201E+002  +6.5175831618E-003 +3.7834204666E+001  +5.7681624068E-001 +1.4929809650E+002 
4389081.352 +1.7703494386E-001 +1.3685061488E+002  +1.4173707751E-002 +6.0471145708E+001  +3.3073712666E-002 +3.4330599220E+001  +7.1225357243E-001 +9.8040620825E+001 
4514226.533 +2.5284607746E-001 +1.2766237289E+002  +2.8832498820E-002 +1.2227275848E+002  +1.7887147515E-002 +7.6879480580E+001  +1.0522741810E+000 +1.1398777884E+002 
4639371.715 +2.5800012912E-001 +1.2389782267E+002  +3.9672740294E-002 +2.1395343160E+001  +6.9104736753E-002 -1.8338638713E+001  +2.8635103031E+000 +8.1057039482E+000 
4764516.896 +3.3988761151E-001 +1.3075518289E+002  +8.6066151969E-002 +1.5097357503E+002  +6.4962868301E-002 +9.2190707821E+001  +3.8738556712E+000 +8.6877521945E+001 
4889662.078 +4.2174946082E-001 +1.3909842662E+002  +3.3551169793E-002 -9.4450027394E+000  +5.5160793129E-002 -9.8927894863E+001  +3.5777849848E+000 -1.2938354903E+002 
5014807.259 +3.8832287054E-001 +1.2837426114E+002  +5.3821566610E-002 +1.6689441040E+002  +5.0604968184E-002 +1.1166124679E+002  +1.9899655525E+000 +8.9366002391E+001 
5139952.441 +3.7142189568E-001 +1.2373591900E+002  +2.3276207964E-001 -1.7963569789E+002  +1.0419043157E-001 -1.7268192503E+002  +8.8875934953E+000 +1.4223822724E+002 
5265097.622 +3.6232483118E-001 +1.3025725001E+002  +6.2009181393E-002 +1.3185384021E+002  +2.1640423650E-002 +4.1464158320E+001  +1.9763444881E+000 +9.1390098520E+001 
5390242.804 +4.3261143686E-001 +1.3422892685E+002  +3.3260367065E-002 +1.1983912390E+002  +1.7945870436E-002 -1.1756977531E+001  +1.4953168838E+000 +8.5484055672E+001 
5515387.985 +4.4673597356E-001 +1.2873287658E+002  +2.5069002030E-002 +8.6117683506E+001  +3.5684808593E-002 +4.2287363893E+000  +1.7198882163E+000 +5.1484831059E+001 
5640533.166 +4.5827989023E-001 +1.2540690818E+002  +5.7485210491E-002 +7.9844462321E+001  +1.3573175781E-001 +6.6651685606E+001  +6.1738268295E+000 +9.4672267097E+001 
5765678.348 +4.9065285647E-001 +1.2157516950E+002  +4.6743991759E-002 +9.2723758542E+001  +2.8196234081E-002 +5.8695105775E+001  +2.2674860896E+000 +7.8856170713E+001 
5890823.529 +5.3040194984E-001 +1.1554045364E+002  +3.7140169321E-002 +7.3802642551E+001  +4.3967106253E-002 +4.1937776224E+001  +1.5164810200E+000 +3.5931727746E+001 
6015968.711 +6.4244138025E-001 +1.2612568921E+002  +3.0529088040E-002 +6.1289112424E+001  +6.8548127069E-002 +7.0426680471E+001  +2.7076866754E+000 +5.4482056458E+001 
6141113.892 +6.1441904340E-001 +1.1787593801E+002  +2.3785568545E-002 +5.7315173069E+001  +2.4797534828E-002 +8.5257260051E+001  +1.8276151424E+000 +2.6113552614E+001 
6266259.074 +8.2630629658E-001 +1.0867607285E+002  +2.9612009101E-002 +9.4024056896E+001  +3.2020793107E-002 +2.7800916156E+001  +1.8678603926E+000 +1.4139853928E+001 
6391404.255 +1.1937040804E+000 +9.9830086826E+001  +5.1966928686E-002 +6.9297635250E+001  +7.1516410306E-002 +5.5734683004E+001  +1.1738943195E+000 +3.5095510502E+001 
6516549.437 +1.2571882560E+000 +7.4876247876E+001  +4.3086187491E-002 +6.7522020920E+001  +5.7783096276E-002 +5.3309930723E+001  +1.2444205298E+000 +2.0131082243E+001 
6641694.618 +1.5063189688E+000 +5.7953794990E+001  +9.1185224778E-002 +2.7771025946E+001  +6.8816353564E-002 +4.0307896551E+001  +1.5265331852E+000 +1.0069212688E+001 
6766839.800 +1.6695068433E+000 +5.7531239789E+001  +2.5419596599E-002 +1.9050817075E+001  +7.3290674214E-002 +2.7764104500E+001  +1.2588391425E+000 +9.7357776430E+000 
6891984.981 +1.4908220649E+000 +2.9774795290E+001  +4.2631400321E-002 -1.9670400327E+000  +4.7538517395E-002 +5.8628046442E+000  +1.1921723390E+000 +6.9433099727E+000 
7017130.163 +1.5729999345E+000 +1.5750770595E+001  +1.7108466088E-002 +2.2195877413E+001  +2.7824182746E-002 -1.0550797717E+001  +1.3975212022E+000 -1.6131894199E+001 
7142275.344 +1.5900830389E+000 +1.0121695475E+001  +4.2693248424E-002 +5.4424673041E+001  +2.9064028780E-002 -1.5644953416E+000  +1.2591457894E+000 -1.8835186343E+001 
7267420.526 +1.5332311483E+000 +6.5743598915E+000  +1.6471188058E-002 +1.1478103894E+001  +1.9866190468E-002 +6.9136538326E+000  +1.3239574848E+000 -6.5922403159E+000 
7392565.707 +1.4490214137E+000 +1.2861104653E-001  +1.5729783703E-002 +2.4742641245E+001  +2.9478821590E-002 +2.7248200336E+001  +1.4588973651E+000 -9.2201597434E+000 
7517710.889 +1.2144734449E+000 -4.6855178711E-001  +2.3303641378E-002 +2.1575634839E+001  +3.1114006129E-002 +1.4871627004E+001  +1.1564201089E+000 -7.6789978259E+000 
7642856.070 +9.9793600108E-001 +4.5668812000E-001  +2.3875242226E-002 -1.5699268935E+001  +2.2165634808E-002 +1.7244723443E+000  +1.1366861162E+000 -5.6607853329E+000 
7768001.252 +8.2953064264E-001 +2.8743180840E+000  +2.1647674918E-002 +3.3438625361E+000  +2.0448290503E-002 +2.0638163597E+001  +1.0070563718E+000 +2.2499845889E-001 
7893146.433 +9.8627641784E-001 +4.4295748585E+000  +1.6896750066E-002 +3.5699172854E+001  +1.5297072406E-002 +1.8302338571E+001  +9.8342732580E-001 +6.0052624294E+000 
8018291.615 +7.4091764467E-001 +5.2666155849E+000  +2.3413704078E-002 +1.2744841085E+001  +1.7441551896E-002 +6.6479714475E+000  +8.6295196092E-001 -2.4191872534E+000 
8143436.796 +7.7504479828E-001 +6.5873536222E+000  +1.4611289432E-002 +1.6900107690E+001  +1.4937326805E-002 +2.4009813874E+001  +8.4385372434E-001 -4.6466497652E+000 
8268581.977 +6.6799044359E-001 +9.1428677946E+000  +2.0392249700E-002 +6.7645053100E+000  +1.0349147960E-002 +1.9147075557E+001  +7.6625516332E-001 -3.3168661893E+000 
8393727.159 +7.6507170101E-001 +5.0286090393E+000  +1.2971663187E-002 +7.9349417041E+000  +1.5491104103E-002 -5.2770301213E+000  +7.5146124568E-001 +8.8225916384E-001 
8518872.340 +6.4019922873E-001 +6.6011696762E+000  +1.5275001622E-002 +8.2780536043E+000  +1.1552709954E-002 +2.7461916921E+001  +6.9269170981E-001 +2.6234757768E+000 
8644017.522 +6.4701311592E-001 +9.9652509387E+000  +1.2258112531E-002 +2.0919533132E+000  +7.8083228779E-003 +4.5481245276E+001  +6.5636511878E-001 -2.3781564154E+000 
8769162.703 +5.5706256254E-001 +3.2237770432E-001  +1.3454361720E-002 -6.5970483499E+000  +1.3656719079E-002 +2.7488023824E+001  +6.3239523582E-001 -1.1042689963E+000 
8894307.885 +6.0553436025E-001 +8.3559681690E+000  +1.4550342917E-002 +7.0612404708E+000  +1.3507682564E-002 +8.7395236104E+000  +6.1420001630E-001 -2.9256816872E-001 
9019453.066 +6.4120266982E-001 +3.9775451068E+000  +1.2968803477E-002 +2.0776984358E+001  +1.3538947670E-002 +1.7390886808E+001  +6.3244692908E-001 +1.9350422133E+000 
9144598.248 +5.9008167937E-001 +8.1306141059E+000  +1.7846393690E-002 +5.9253820821E+000  +1.6239272349E-002 +2.7167330252E+001  +5.6805282274E-001 +7.3862380172E-001 
9269743.429 +5.2639889585E-001 +1.1118484834E+001  +1.6249964771E-002 -8.3653933560E+000  +1.4958797100E-002 +2.3721948920E+001  +5.4777691526E-001 +1.0806662964E+000 
9394888.611 +5.0991581949E-001 -7.0185330539E-001  +1.2180140234E-002 +9.6297861098E+000  +1.5652927803E-002 +2.3351527862E+001  +5.7032203155E-001 -6.0020693518E+000 
9520033.792 +5.0517304098E-001 +3.1939490951E+000  +1.6453372613E-002 +1.1695112890E+001  +1.3604710097E-002 +2.3693606998E+001  +5.5842817167E-001 -6.8240685972E+000 
9645178.974 +5.3473331551E-001 -2.4092777573E+000  +1.3576493332E-002 -5.4674717848E+000  +1.3771643012E-002 +2.8998817044E+001  +5.6675406730E-001 -4.9499353443E+000 
9770324.155 +5.2229846891E-001 +1.7358585713E+000  +1.5728548360E-002 +1.2172513750E+001  +1.5325102759E-002 +2.6576678521E+001  +5.9026537613E-001 -2.5511071354E+000 
9895469.337 +5.4607684875E-001 -1.2625795574E-001  +1.3189530306E-002 +1.5962627090E+001  +1.4073628803E-002 +3.5950080678E+001  +5.8831412496E-001 -2.2892145618E+000 
10020614.518 +5.2365672413E-001 +1.9365961822E+000  +1.0941011145E-002 +1.4690996223E+001  +1.1969036886E-002 +1.8040808781E+001  +6.0605726763E-001 -7.6458646146E+000 
10145759.700 +5.5068612459E-001 +5.0904015739E+000  +1.1209286728E-002 +1.5869266521E+001  +1.6800436057E-002 +2.3242191019E+001  +5.5807000208E-001 -2.3859516731E+000 
10270904.881 +5.7233128684E-001 +5.7445599777E+000  +1.7178251888E-002 +1.1796814871E+001  +1.4037193204E-002 +3.1802660760E+001  +5.4852810996E-001 -5.0804502268E+000 
10396050.063 +5.3648928144E-001 +5.0911838855E+000  +1.2947172696E-002 +1.6904985385E+001  +1.2590794919E-002 +2.9001992491E+001  +5.9409524519E-001 -2.5862334987E+000 
10521195.244 +5.5664028743E-001 +8.6421400187E+000  +1.5441005258E-002 +1.1417122575E+001  +1.5224329141E-002 +3.2735548059E+001  +5.6328394839E-001 -1.1234021373E+000 
10646340.426 +5.5329454514E-001 +5.4412257613E+000  +1.3716276675E-002 +2.0928428462E+001  +1.6265874454E-002 +2.9037681754E+001  +5.7681360811E-001 -1.1361320326E+000 
10771485.607 +5.3755372362E-001 +1.0272592612E+001  +1.2933517281E-002 +1.2731420812E+001  +1.6910051424E-002 +2.8560051234E+001  +5.9551017009E-001 +9.1992871656E-001 
10896630.788 +5.4765289933E-001 +9.0835396314E+000  +1.7208690116E-002 +1.3994332858E+001  +1.6828713960E-002 +2.6265782120E+001  +6.1289905278E-001 -4.9223357645E-002 
11021775.970 +5.8440877255E-001 +8.3388187898E+000  +1.4420295813E-002 +1.3898540492E+001  +1.4665568123E-002 +3.8104643113E+001  +5.8635465727E-001 +6.8679824913E-001 
11146921.151 +6.0177976938E-001 +8.5480975010E+000  +1.4341685285E-002 +9.5455108370E+000  +1.4591486346E-002 +2.6973527164E+001  +5.7925904973E-001 +1.2574079791E+000 
11272066.333 +5.9884752173E-001 +5.1263519756E+000  +1.5511313542E-002 +1.6233304033E+001  +1.5358158616E-002 +3.2578528347E+001  +6.4621685849E-001 +2.1592257606E+000 
11397211.514 +6.1849443742E-001 +3.6874818535E+000  +1.5978744393E-002 +1.6502356639E+001  +1.6720945671E-002 +3.1367575842E+001  +6.3433571324E-001 +5.2058191331E-001 
11522356.696 +6.1130989437E-001 +6.1838904103E+000  +1.6932924736E-002 +2.2188878857E+001  +1.3534586372E-002 +2.8498147424E+001  +6.4465994610E-001 +9.6032783268E-001 
11647501.877 +6.1120098639E-001 +5.1478643440E+000  +1.6373168634E-002 +2.3752699960E+001  +1.6260961871E-002 +2.8341416350E+001  +6.4651533305E-001 +4.2712364122E-001 
11772647.059 +6.4871718808E-001 +3.5241611927E+000  +1.7806633811E-002 +1.6830040019E+001  +1.5406188745E-002 +3.1097033531E+001  +6.4378864198E-001 +2.0059857245E+000 
11897792.240 +6.6424878152E-001 +3.5873406418E+000  +1.7474774721E-002 +1.6855601358E+001  +1.5973757830E-002 +2.8191001440E+001  +6.6368584632E-001 +1.4371941870E+000 
12022937.422 +7.0549084919E-001 +5.5556277688E+000  +1.5511496034E-002 +1.6351673972E+001  +1.7896869201E-002 +3.9917919493E+001  +6.6852948852E-001 -3.9432824857E-001 
12148082.603 +6.7223481383E-001 +6.4102390286E+000  +1.6069477761E-002 +2.0565236034E+001  +1.7022451009E-002 +3.7268359381E+001  +6.9562461464E-001 -1.2171889791E+000 
12273227.785 +7.0071794234E-001 +3.2615504763E+000  +1.6968665868E-002 +2.1262507163E+001  +1.5935067202E-002 +1.8637819809E+001  +6.8773866295E-001 +1.7877261518E+000 
12398372.966 +7.0976495783E-001 +5.2200248777E+000  +1.8986919998E-002 +3.1207703121E+001  +1.6543251292E-002 +2.4493096707E+001  +7.1146260021E-001 +1.3703323697E+000 
12523518.148 +7.3503934337E-001 +3.8347348005E+000  +1.6530573614E-002 +2.1072853945E+001  +1.6800830825E-002 +3.0796525450E+001  +7.1439548911E-001 -8.5242177744E-001 
12648663.329 +7.3126125360E-001 +1.8851467529E+000  +1.8546965778E-002 +2.3565407064E+001  +1.6985759513E-002 +3.4888081611E+001  +7.6003461157E-001 +4.4975209337E-001 
12773808.511 +7.6295331059E-001 +1.5608659336E+000  +1.6023147434E-002 +2.3453663898E+001  +1.8454196900E-002 +2.8588849979E+001  +7.6014012555E-001 -7.4258157363E-001 
12898953.692 +7.6259739091E-001 -3.2446257964E-001  +1.7114234913E-002 +2.4674240676E+001  +1.7692735638E-002 +2.8773062576E+001  +7.7352775119E-001 -1.2324385882E+000 
13024098.874 +7.7780596717E-001 -4.0853288326E-001  +1.7197966628E-002 +2.6342337129E+001  +1.7014609275E-002 +2.9585187720E+001  +7.5033794507E-001 -3.0344634106E+000 
13149244.055 +7.9873951480E-001 +5.0927828156E-001  +1.7790597175E-002 +2.2713609158E+001  +1.7823199486E-002 +2.2881075219E+001  +8.1430421361E-001 -1.1667846547E+000 
13274389.237 +7.9691615325E-001 -1.4089770988E+000  +1.8697377775E-002 +1.9548846009E+001  +2.0289445538E-002 +2.4778515612E+001  +8.1102552196E-001 -3.4583697518E+000 
13399534.418 +8.3152607427E-001 -2.6993499120E+000  +1.9605880576E-002 +2.4721795959E+001  +1.9657340567E-002 +2.7794469519E+001  +8.3537799354E-001 -9.2007795563E-001 
13524679.599 +8.4251671314E-001 -1.0891688303E+000  +1.9274093089E-002 +1.9101434844E+001  +1.9629295129E-002 +2.9509243970E+001  +8.3805150981E-001 -2.7364889442E+000 
13649824.781 +8.6134292024E-001 -3.0734736869E+000  +2.0095860599E-002 +2.0826317704E+001  +1.9133074397E-002 +2.7235684584E+001  +8.8742022378E-001 -2.7117178804E+000 
13774969.962 +8.6501543328E-001 -2.4132375754E+000  +2.0265217200E-002 +2.8394214234E+001  +1.8955171756E-002 +2.6445145745E+001  +8.8989575122E-001 -4.1065535170E+000 
13900115.144 +8.8002927154E-001 -3.0887082176E+000  +1.8177586516E-002 +2.2408732111E+001  +1.8418381496E-002 +2.7141986094E+001  +9.0848198218E-001 -4.3921086078E+000 
14025260.325 +8.9737423825E-001 -4.1213572339E+000  +1.8867418522E-002 +2.5306008610E+001  +2.0165868167E-002 +2.6380208343E+001  +9.2100468370E-001 -4.6985413078E+000 
14150405.507 +9.2425974508E-001 -5.9507031921E+000  +2.2207865886E-002 +1.9265141340E+001  +1.8748318729E-002 +2.6734507790E+001  +9.4519401949E-001 -5.0931073974E+000 
14275550.688 +9.5129057357E-001 -4.5361420379E+000  +2.0292017143E-002 +2.1516213327E+001  +1.8049886400E-002 +1.8512992202E+001  +9.6127787269E-001 -4.9506486380E+000 
14400695.870 +9.4720061488E-001 -4.3393079288E+000  +2.0604735518E-002 +2.3028473184E+001  +1.8836575812E-002 +2.1712512803E+001  +9.7722276157E-001 -4.9164686363E+000 
