!  2-Port S-parameters saved by WinCal
! VAR MeasName=S-Parameters (CALIBRATED_DATA) read from VNA (P5004A)
! VAR MeasDate=27/08/2024 15:03:51
! VAR NAME=S2_r3c8_RESET2_9k-100M_1
! VAR FILENAME=S2_r3c8_RESET2_9k-100M_1.S2P
! VAR DATE=27/08/2024 15:03:51
! VAR PHYS_PORTS=1,2
! VAR ObjTypeName=DATASET
! VAR IndexType=Frequency
!
# Hz S MA R 50
9000.000 +7.4355176351E-002 -1.3861776048E+002  +3.7015451727E-002 -5.2177403774E+001  +1.0282254292E-002 +1.1184566748E+002  +2.8088352821E-001 -6.4868681156E+000 
134145.181 +1.1052509002E-001 +1.6951411149E+002  +5.3670439867E-004 -1.8898211959E+001  +2.9039390291E-004 +1.6030938986E+002  +2.3976703346E-001 -1.7034036437E+002 
259290.363 +1.1244807779E-001 +1.6969668746E+002  +2.3586612565E-004 -1.3201398065E+002  +1.3895115650E-003 -8.2962491840E+000  +2.3988397358E-001 -1.6679695904E+002 
384435.544 +1.1431604816E-001 +1.6970404152E+002  +3.9240698612E-004 +9.4253552238E+000  +4.8948858748E-004 +5.7812834070E+001  +2.3814529988E-001 -1.6961054365E+002 
509580.726 +1.1422743855E-001 +1.7089130906E+002  +3.0821665139E-004 -1.3482927195E+002  +1.7059251068E-003 +1.6231648658E+002  +2.3131928922E-001 -1.6703238696E+002 
634725.907 +1.1718357617E-001 +1.7077885523E+002  +1.1009976942E-003 -1.7880696485E+002  +9.0025964743E-004 +1.0400714156E+002  +2.4612666005E-001 -1.6630123931E+002 
759871.089 +1.1792991135E-001 +1.7080666093E+002  +3.0322717844E-004 +1.7857736028E+002  +4.4857755542E-004 +7.3349367798E+001  +2.3701621310E-001 -1.6426962616E+002 
885016.270 +1.1726867581E-001 +1.6856367091E+002  +9.0764615931E-004 +4.0044901537E+001  +2.1307379380E-003 -7.4599324413E+001  +2.3471345554E-001 -1.6192038167E+002 
1010161.452 +1.1810406687E-001 +1.6994068062E+002  +1.0561779749E-003 +2.7583068227E+001  +8.9071329785E-004 -5.6061878012E+001  +2.1215204650E-001 -1.5829541595E+002 
1135306.633 +1.1776390779E-001 +1.6796989159E+002  +1.9887973636E-003 -4.2839806786E+001  +1.4294869762E-003 -6.3505086134E+001  +1.7912960056E-001 -1.4698353204E+002 
1260451.815 +1.2271142998E-001 +1.7317741705E+002  +9.3135870409E-004 +1.3874026557E+002  +1.7746534082E-003 +4.9358551945E+000  +2.4640539445E-001 -1.5869218739E+002 
1385596.996 +1.2489514464E-001 +1.7110309205E+002  +1.4271944652E-003 +1.6409910579E+002  +1.8381525085E-004 +1.4441529840E+002  +2.5226351943E-001 -1.5877276465E+002 
1510742.178 +1.2796518757E-001 +1.7169057432E+002  +6.7545040664E-004 -9.1248222673E+001  +9.3731735829E-004 -4.4397452802E+001  +2.5341097640E-001 -1.5694052892E+002 
1635887.359 +1.2877479392E-001 +1.6972268963E+002  +1.2174352545E-003 -1.1828901374E+002  +1.1140286406E-003 -6.2360752513E+001  +2.3830301601E-001 -1.5584222179E+002 
1761032.541 +1.2703619275E-001 +1.6926840036E+002  +4.5686750034E-004 -8.5437799571E+000  +1.9522500658E-003 -9.8256931430E+001  +1.6197394126E-001 -1.5084575161E+002 
1886177.722 +1.2650188320E-001 +1.6779611320E+002  +1.0125686297E-003 +1.7851396941E+002  +1.5668000749E-003 +1.4082246040E+002  +2.1983736623E-001 -1.6021003699E+002 
2011322.904 +1.3367160770E-001 +1.6748569889E+002  +1.9422417722E-003 +1.9740008988E+000  +1.7677290797E-003 +1.4465610577E+002  +1.6684829479E-001 -1.7407868404E+002 
2136468.085 +1.2717896890E-001 +1.6392564051E+002  +6.4196557348E-003 -4.9084305859E+001  +1.9582532059E-003 -1.5277324385E+002  +1.5523155252E-001 +1.6731971926E+002 
2261613.267 +1.3034962238E-001 +1.6374064966E+002  +2.1795826710E-003 -9.7571991688E+001  +1.1068916581E-003 +1.4304121008E+002  +1.9402456434E-001 +1.6666768540E+002 
2386758.448 +1.3424958931E-001 +1.6137928670E+002  +9.1033594983E-003 -3.0594193537E+001  +2.0840850314E-003 +9.9670196785E+001  +2.3795697678E-001 +1.6651357744E+002 
2511903.630 +1.4066836544E-001 +1.6278650520E+002  +3.9584112375E-003 -9.0836714254E+001  +3.1989022086E-003 +1.1480407111E+002  +1.7612488683E-001 +1.6442775667E+002 
2637048.811 +1.1749575864E-001 +1.6377682730E+002  +1.2194330866E-002 +7.9217667407E+001  +6.0980437064E-003 -1.4690626693E+002  +1.9778617608E-001 +1.3706137335E+002 
2762193.992 +6.9037452930E-002 +1.3385278558E+002  +1.0895963202E-001 -1.5922876551E+002  +1.5311861894E-001 +1.7991036437E+002  +2.2645163201E+000 +9.4817399368E+001 
2887339.174 +1.1724920421E-001 -1.7663281125E+002  +2.1041762461E-002 -9.7416039203E+001  +2.7994634978E-003 +1.2112084783E+002  +1.1910634080E-001 -9.2901265114E+001 
3012484.355 +9.4466660820E-002 +1.7426314377E+002  +9.3982096981E-003 +9.3833766477E+001  +1.2455064661E-002 +1.5166263817E+002  +4.3859395148E-001 -1.0765875612E+002 
3137629.537 +1.2209985778E-001 +1.7110044757E+002  +5.2359483669E-003 -1.0748049600E+002  +4.5587487111E-003 -5.9236669433E+001  +1.2552260840E-001 -9.2352865203E+001 
3262774.718 +9.4301165231E-002 +1.7183743988E+002  +1.1915877972E-001 +1.2706070575E+002  +1.8329192854E-001 +1.7555755536E+002  +6.4994113213E+000 -4.6587692572E+001 
3387919.900 +1.3461951549E-001 +1.5487704661E+002  +9.8905801724E-003 +6.4806797762E+001  +1.5569347263E-002 +1.6450576058E+002  +3.7260825150E-001 +3.1297562944E+001 
3513065.081 +1.1588120534E-001 +1.2575366591E+002  +5.1788894333E-002 -9.4952785381E+001  +2.8527094057E-002 -9.1511504678E+001  +1.1134377903E+000 +1.1442198694E+002 
3638210.263 +1.6890432826E-001 +1.5144095196E+002  +1.2717328999E-002 +1.5721319866E+002  +5.1728095125E-003 -8.5934940394E+001  +8.2180518058E-001 +1.3062916965E+002 
3763355.444 +1.6312634034E-001 +1.3638833903E+002  +9.8687785446E-003 -1.2143116504E+002  +4.4382596338E-003 +2.5041489691E+001  +4.8060333535E-001 +1.6175717911E+002 
3888500.626 +1.7898942040E-001 +1.4842436214E+002  +1.4049995564E-003 +3.1279461760E+001  +6.5981401090E-003 +5.7108815099E+001  +1.7061641155E-001 +1.3128675528E+002 
4013645.807 +1.5031051384E-001 +1.3903806411E+002  +1.5049855096E-002 +1.7523753286E+002  +2.2908976406E-002 -4.2738924112E+001  +2.9649797491E-001 +1.2543630732E+002 
4138790.989 +1.8432511724E-001 +1.4037679886E+002  +1.8565752494E-002 +1.1926680196E+002  +6.7953853788E-003 +1.6700846997E+002  +6.6472760374E-001 +9.9024287934E+001 
4263936.170 +2.1671060725E-001 +1.4350963641E+002  +4.3564326029E-003 +5.6815707885E+001  +4.2191681574E-003 -5.6677573303E+001  +4.3608587831E-001 +6.6156745877E+001 
4389081.352 +2.0044505406E-001 +1.4026599312E+002  +2.2444015093E-002 -1.1138368115E+002  +1.6236372404E-002 -1.1703494124E+002  +2.1524112007E+000 +1.3120369645E+002 
4514226.533 +2.5165736218E-001 +1.3433669942E+002  +1.3579311766E-002 -7.5463679256E+001  +1.3480730894E-002 -1.9187229060E+001  +8.3589350061E-001 +9.7232253660E+001 
4639371.715 +2.4975052458E-001 +1.3193142657E+002  +8.9026646066E-003 -6.1535238253E+001  +1.0205888108E-002 -1.0936992928E+002  +2.4180858910E+000 -4.2994289886E+000 
4764516.896 +3.2496161958E-001 +1.1745291528E+002  +5.6327788596E-002 -1.3242668700E+002  +1.2801109429E-002 +9.0580963407E+001  +6.6473928752E+000 +1.0987093176E+002 
4889662.078 +4.2680209228E-001 +1.2472244397E+002  +3.3247465777E-002 -1.6035203118E+001  +5.9284392671E-002 -3.2813041969E+001  +2.9523312732E+000 -1.2693197693E+002 
5014807.259 +4.5706433293E-001 +1.2740341300E+002  +7.3116927331E-002 -1.5387110277E+001  +1.4416833341E-001 -1.4253419075E+002  +7.9143254048E+000 -1.5523856021E+002 
5139952.441 +3.7031548073E-001 +1.3212307136E+002  +6.5166664391E-002 +1.2635803146E+002  +1.6546128015E-002 -3.0984551738E+001  +8.3359948725E+000 -1.7209255902E+002 
5265097.622 +5.4253301193E-001 +1.2788692826E+002  +8.9361826668E-002 -1.7467587090E+002  +6.2119655330E-002 -1.1884879909E+002  +4.4229300967E+000 +1.3337713353E+002 
5390242.804 +3.8068916351E-001 +1.2530656940E+002  +9.4403708812E-003 +1.5302255175E+002  +1.5831034379E-002 -1.5106331105E+002  +1.7384948423E+000 +9.4255227899E+001 
5515387.985 +3.8280458972E-001 +1.2639212361E+002  +1.2874107937E-002 +1.7736922196E+002  +3.3547612402E-002 +1.3531824468E+002  +1.7514964484E+000 +8.0936316965E+001 
5640533.166 +4.6549308842E-001 +1.2749304813E+002  +1.1487630801E-002 +1.9160569303E+001  +8.9922575994E-003 +1.6635886657E+002  +1.7570007652E+000 +5.5540999457E+001 
5765678.348 +5.5828778302E-001 +1.2503416283E+002  +5.1401216990E-003 -1.4790223035E+001  +2.5849561486E-002 +1.2334537976E+002  +1.8585633705E+000 +9.4562724446E+001 
5890823.529 +5.4817580932E-001 +1.1702103313E+002  +1.3568577076E-002 +1.0965821940E+002  +1.7332748773E-002 +1.2156146280E+002  +2.0136430165E+000 +6.6452954725E+001 
6015968.711 +6.3111606813E-001 +1.1613742545E+002  +2.2499764564E-002 +1.0956518500E+002  +1.1919894131E-002 -5.3063429331E+001  +2.0393882451E+000 +7.0081254497E+001 
6141113.892 +8.7261035915E-001 +1.0409205551E+002  +1.5227226020E-002 -1.7147805990E+002  +2.0655695563E-002 +1.9741802104E+001  +1.3266787183E+000 +4.5473680988E+001 
6266259.074 +8.3901978243E-001 +8.8345258751E+001  +3.0526377928E-002 +9.7793796217E+001  +2.6890025840E-002 +8.6038522752E+001  +1.3615892472E+000 +1.1553362302E+001 
6391404.255 +1.0819505391E+000 +1.0308166849E+002  +1.5770548933E-002 -1.4155291850E+002  +3.3663101700E-002 +1.2894892041E+002  +1.6354368201E+000 +1.9730028854E+001 
6516549.437 +1.3214005736E+000 +6.0055284332E+001  +1.8372553792E-002 -1.2599671991E+002  +9.4848799926E-003 +4.9208804622E+000  +1.3959037138E+000 +1.5316262223E+001 
6641694.618 +1.5011055445E+000 +5.9881019789E+001  +2.8430382293E-002 -1.4818073174E+002  +4.7898150953E-002 +7.8109989598E+001  +1.4149177930E+000 +5.6245725040E+000 
6766839.800 +1.8767538533E+000 +4.3657280924E+001  +1.3650347519E-002 +9.7189781950E+001  +1.8228807539E-002 +9.6997564836E+001  +1.3964052223E+000 -1.6834759785E+000 
6891984.981 +1.9401932748E+000 +3.4344671969E+001  +1.0780315898E-002 +1.2434545386E+002  +1.6341179637E-002 +3.4934437036E+001  +1.3986149385E+000 -1.2127617854E+001 
7017130.163 +2.0392889222E+000 +1.8638334068E+001  +3.4777649752E-002 +3.2625895797E+001  +1.3468561745E-002 +6.7929558378E+001  +1.3642950489E+000 -4.6410870013E+000 
7142275.344 +1.7583139844E+000 +5.4870387355E+000  +2.5415862156E-002 +7.5700754818E+001  +2.3236268638E-002 +4.4671555234E+001  +1.3159089966E+000 -1.2831573010E+001 
7267420.526 +1.7073426674E+000 +1.7147124047E+000  +1.2640907435E-002 +1.2582310778E+001  +2.0971983431E-002 +8.9488952991E+001  +1.3747458349E+000 -6.6560564277E+000 
7392565.707 +1.3929141132E+000 -2.7599282756E+000  +9.7943949227E-003 +7.5000983895E+001  +1.1895351328E-002 -6.2092566203E+001  +1.3346185694E+000 -1.0017338331E+001 
7517710.889 +1.3511638446E+000 -1.6115840761E-001  +1.7625674410E-002 +9.8910700466E+001  +7.3872293370E-003 +7.0563650041E+001  +1.2982231813E+000 -6.2935935462E+000 
7642856.070 +1.0919210524E+000 +6.4190903815E+000  +1.1646602542E-002 +8.8744488444E+001  +6.6227328337E-003 +7.0511581046E+001  +1.0801490087E+000 -6.0958349214E+000 
7768001.252 +9.6500365387E-001 -3.7768173569E-001  +6.4217280961E-003 +9.9936384820E+001  +7.6931822005E-003 +1.5955369840E+002  +1.0227175942E+000 -8.5991958670E+000 
7893146.433 +8.8910214584E-001 +3.7904249663E+000  +9.0876441230E-003 +9.4256609030E+001  +6.5056401448E-003 +7.2950634667E+001  +9.4347067549E-001 -3.8102634701E+000 
8018291.615 +7.6253196186E-001 +1.3708326672E+000  +9.4871345703E-003 +1.0431724385E+002  +1.0242263025E-002 +1.3862396979E+002  +8.5364584303E-001 -3.2819872669E+000 
8143436.796 +8.2311066604E-001 +4.5846789017E+000  +1.2731728308E-002 +7.5185595487E+001  +6.8020851166E-003 +1.0030934980E+002  +6.9431267739E-001 -4.6216660407E+000 
8268581.977 +7.9518469709E-001 +9.9077945970E+000  +3.5216539886E-003 +6.4163917894E+001  +9.0618611062E-003 +8.5452544854E+001  +8.2180012181E-001 -1.3478943694E-001 
8393727.159 +7.1134600193E-001 +7.0784399009E+000  +6.7239077490E-003 +6.8008887858E+000  +3.8174605712E-003 +1.0946285180E+002  +7.1034909880E-001 -3.4558888120E+000 
8518872.340 +6.8444102204E-001 +9.9715151105E+000  +2.6667476573E-003 +8.4349346783E+001  +2.4685570671E-003 +8.2524046959E+001  +7.1156048945E-001 -3.6823069548E+000 
8644017.522 +6.3265878758E-001 +8.9280469623E+000  +5.9029275967E-003 +7.4583090507E+001  +6.2189653574E-003 +8.8973947484E+001  +6.8522557892E-001 +2.3909908323E+000 
8769162.703 +5.9173615411E-001 +4.7802672459E+000  +2.9362133904E-003 +1.2285091973E+002  +8.7138609850E-003 +3.1413264232E+001  +6.7473294828E-001 -5.4728441688E-001 
8894307.885 +5.7641224549E-001 +7.7231337809E+000  +6.0546902561E-003 +5.0303125070E+001  +7.6165612402E-003 +1.1589898538E+002  +6.1557499311E-001 +2.6738051588E+000 
9019453.066 +5.4871910771E-001 +1.5406605147E+000  +4.4150029714E-003 +7.4666156469E+001  +1.1929344113E-003 +6.0189066721E+001  +5.8943667895E-001 -6.6738434529E+000 
9144598.248 +5.9404624451E-001 +4.5925195381E-001  +1.7416216489E-003 +6.1789876558E+001  +5.1206741639E-003 +4.4588801401E+001  +5.8236648770E-001 +1.0396243938E+000 
9269743.429 +5.7305215534E-001 +2.0924760676E+000  +3.7284099601E-003 +1.3885740528E+002  +7.4810014719E-003 +1.0789076751E+002  +6.4966560928E-001 -4.8169250518E+000 
9394888.611 +5.9086066313E-001 +6.2932863835E-001  +4.8559106970E-003 +7.6137797478E+001  +5.3439476789E-003 +1.1587369038E+002  +6.1423256321E-001 -4.9781557871E+000 
9520033.792 +5.6084002054E-001 +1.8784009412E+000  +6.7588315559E-003 +4.9872120073E+001  +6.1059019833E-003 +6.1493633372E+001  +6.1857407864E-001 -7.2537040238E+000 
9645178.974 +5.8335338886E-001 +1.2192315473E+000  +3.7519297589E-003 +8.2089577521E+001  +2.8032613513E-003 +9.1852834766E+001  +6.2942514661E-001 -6.0842700296E+000 
9770324.155 +5.7547780859E-001 -1.2675291680E+000  +1.9498621852E-003 +7.5132812302E+001  +3.6115085112E-003 +7.3426921834E+001  +5.7052452899E-001 -9.2251622685E+000 
9895469.337 +5.1418398583E-001 -8.4213605187E-001  +4.0306039512E-003 +7.1122809523E+001  +3.8640849170E-003 +8.9144642521E+001  +5.5056840748E-001 -4.8344659155E+000 
10020614.518 +5.8839069972E-001 +3.5137034321E+000  +3.3845341522E-003 +1.0862495694E+002  +6.6406257660E-003 +1.1735260265E+002  +6.2292986399E-001 -1.2225108168E+000 
10145759.700 +5.3343238229E-001 +3.2569418850E+000  +6.2194927157E-003 +7.3440253143E+001  +3.7111151655E-003 +5.6345701146E+001  +6.0567445489E-001 -7.3142430494E+000 
10270904.881 +5.4161597449E-001 +1.9690012934E+000  +7.1190782774E-003 +8.8820348587E+001  +5.6565302579E-003 +5.5514324340E+001  +5.7438816865E-001 -6.4763590334E+000 
10396050.063 +5.5019737925E-001 +2.7440402176E+000  +3.7084813538E-003 +5.8101310745E+001  +5.3617300457E-003 +8.6982296119E+001  +5.5611402343E-001 -5.1261877980E+000 
10521195.244 +5.6090374527E-001 +3.0028673527E+000  +4.8062344897E-003 +7.2324474675E+001  +5.5735919792E-003 +1.0097749286E+002  +5.7673503959E-001 -2.6969505793E+000 
10646340.426 +5.5160451311E-001 +3.1086706769E+000  +4.8787659304E-003 +4.3649693138E+001  +5.5201540106E-003 +9.0496158872E+001  +5.8355673182E-001 +2.1091985616E-001 
10771485.607 +5.8590536067E-001 +8.6642945393E+000  +6.4079452639E-003 +7.8708655664E+001  +7.4167250570E-003 +7.2912702977E+001  +5.7842867354E-001 +1.0210127878E+000 
10896630.788 +5.5750684463E-001 +7.2812772944E+000  +4.7200501498E-003 +4.5165311013E+001  +3.0385320945E-003 +8.6228642095E+001  +6.1887476646E-001 +1.6881776335E+000 
11021775.970 +5.5323555637E-001 +4.7949821743E+000  +6.3296241173E-003 +6.4772118042E+001  +5.8251682511E-003 +9.5403316705E+001  +5.9858639112E-001 +3.6446340784E-001 
11146921.151 +6.0961815060E-001 +6.5947854795E+000  +4.0817299004E-003 +9.7673460277E+001  +5.7613677818E-003 +8.2096160753E+001  +6.1557358260E-001 +1.0170252290E+000 
11272066.333 +6.0434499838E-001 +6.1472370298E+000  +5.2032178325E-003 +5.3280922926E+001  +4.5678999717E-003 +9.3583470019E+001  +6.3654158113E-001 +1.7413052719E+000 
11397211.514 +6.3702706645E-001 +7.0561436008E+000  +6.8221756466E-003 +6.3133400525E+001  +4.1037706691E-003 +9.2299803661E+001  +6.3945354087E-001 +6.8610240309E-001 
11522356.696 +6.2634490502E-001 +4.4108694161E+000  +2.2108244308E-003 +4.4835562756E+001  +5.4763182390E-003 +8.4274213418E+001  +6.2756349128E-001 +1.7109918790E+000 
11647501.877 +6.3426972909E-001 +8.5319588806E+000  +4.9082460107E-003 +6.9339547121E+001  +5.3343315791E-003 +5.3885519501E+001  +6.7058489079E-001 +3.5725769205E+000 
11772647.059 +6.3483945538E-001 +5.3610966625E+000  +5.1520177090E-003 +7.5969647190E+001  +5.2207372679E-003 +7.0290148537E+001  +6.8340087326E-001 +9.2249400285E-001 
11897792.240 +6.5417171407E-001 +6.1489351414E+000  +6.1076868425E-003 +7.0359020541E+001  +5.4484516721E-003 +6.5339294352E+001  +6.6484956189E-001 +1.1373864437E+000 
12022937.422 +6.6701460427E-001 +3.9014051918E+000  +4.6750496280E-003 +7.5250531678E+001  +5.7864810221E-003 +7.3969971769E+001  +6.8058903387E-001 +2.1706445632E+000 
12148082.603 +6.6603734286E-001 +2.5848380162E+000  +5.9367105278E-003 +7.6695438610E+001  +7.3683799842E-003 +8.6469906176E+001  +6.9498799187E-001 -1.1302655623E+000 
12273227.785 +6.9839773707E-001 +4.1172607784E+000  +4.5413647802E-003 +7.7396346777E+001  +6.4508814665E-003 +7.5034885679E+001  +6.9053208177E-001 +1.3858817549E-001 
12398372.966 +7.1754638603E-001 +2.9453442381E+000  +4.7461813676E-003 +9.2962452868E+001  +6.3721999652E-003 +8.5852465337E+001  +7.4740115076E-001 -2.9173460377E-001 
12523518.148 +7.1761959174E-001 +1.5164904778E+000  +6.7072473909E-003 +7.4289286461E+001  +4.9509266547E-003 +8.8850936643E+001  +7.5210538395E-001 +7.8638988244E-001 
12648663.329 +7.4748120940E-001 +1.7442501432E+000  +6.3691164521E-003 +6.5840070828E+001  +7.3097901496E-003 +7.9067313505E+001  +7.6446912475E-001 -5.5033219432E-001 
12773808.511 +7.5761478320E-001 +9.9973299497E-001  +6.9079833544E-003 +8.4872339249E+001  +5.9044366762E-003 +9.1841605949E+001  +7.3725448676E-001 -1.0212468360E+000 
12898953.692 +7.4969921631E-001 -6.5968722498E-001  +6.8857975330E-003 +7.8439511164E+001  +6.8337845859E-003 +8.4157434392E+001  +7.8084122413E-001 -1.6413284976E+000 
13024098.874 +7.8600575496E-001 -3.2742809551E-001  +5.5614909798E-003 +7.4555950037E+001  +5.8270217343E-003 +8.7423300964E+001  +8.0089105187E-001 -8.9031454044E-001 
13149244.055 +7.9608050449E-001 +1.2815011446E+000  +5.2787198852E-003 +9.5001731801E+001  +8.0879300231E-003 +8.7851537049E+001  +8.3192219818E-001 -1.8285656856E+000 
13274389.237 +8.0688199722E-001 -1.4409008619E+000  +5.9028665941E-003 +7.5035917200E+001  +7.0210380784E-003 +7.5257084051E+001  +8.2224941494E-001 +1.8898323480E-001 
13399534.418 +8.3716495358E-001 -1.5657684120E+000  +5.9895588392E-003 +7.5410349866E+001  +5.4830908336E-003 +6.3275197661E+001  +8.6984026957E-001 -1.8050024733E+000 
13524679.599 +8.3410353035E-001 -1.3687774987E+000  +9.3251605441E-003 +7.6542889102E+001  +7.2786032687E-003 +8.4257688021E+001  +8.6442419263E-001 -1.4178690634E+000 
13649824.781 +8.4876163018E-001 -2.3489579742E+000  +7.2663045460E-003 +8.1255262021E+001  +8.3133792373E-003 +7.7197809595E+001  +8.6313691754E-001 -2.7131334755E+000 
13774969.962 +8.9650563013E-001 -2.0504588684E+000  +7.3431170283E-003 +8.0497725636E+001  +6.6235863781E-003 +6.5570920407E+001  +8.9242836484E-001 -2.9092179997E+000 
13900115.144 +9.1919599784E-001 -3.3843161977E+000  +7.3677676500E-003 +8.1184530398E+001  +6.8732025179E-003 +7.0581574849E+001  +9.2883761946E-001 -3.5728608882E+000 
14025260.325 +9.1174379630E-001 -3.8918479229E+000  +6.8965898643E-003 +9.4606610591E+001  +7.8976851718E-003 +7.9617222719E+001  +9.3740521851E-001 -4.2687550477E+000 
14150405.507 +9.4997442707E-001 -4.1971272087E+000  +7.3736455591E-003 +8.0417730656E+001  +7.0333063311E-003 +7.5733831306E+001  +9.4870095785E-001 -3.0017737503E+000 
14275550.688 +9.6567043732E-001 -5.1400550910E+000  +7.0325844460E-003 +8.0615225770E+001  +9.2116854430E-003 +7.5697903529E+001  +9.7729106276E-001 -3.7141747261E+000 
14400695.870 +9.6485992606E-001 -5.5344063343E+000  +8.2913628475E-003 +8.7272560396E+001  +8.2889526466E-003 +7.0606790077E+001  +1.0030833333E+000 -4.1195164388E+000 
