!  2-Port S-parameters saved by WinCal
! VAR MeasName=S-Parameters (CALIBRATED_DATA) read from VNA (P5004A)
! VAR MeasDate=27/08/2024 16:47:28
! VAR NAME=S2_r2c9_RESET3_9k-100M_1
! VAR FILENAME=S2_r2c9_RESET3_9k-100M_1.S2P
! VAR DATE=27/08/2024 16:47:29
! VAR PHYS_PORTS=1,2
! VAR ObjTypeName=DATASET
! VAR IndexType=Frequency
!
# Hz S MA R 50
9000.000 +7.6696447154E-002 -1.5880176172E+002  +5.7686847246E-003 -3.7752990601E+001  +5.7046662201E-003 -1.7078608740E+002  +1.7858282961E-001 -1.3248947247E+002 
134145.181 +1.1097197420E-001 +1.6979684601E+002  +2.4886711275E-004 +4.3333201226E+001  +2.3240036124E-004 +7.4921743830E+001  +2.4057511318E-001 -1.7137309456E+002 
259290.363 +1.1144063568E-001 +1.6941405145E+002  +6.3877204750E-004 +5.7706093138E+001  +2.9672714706E-004 +1.7680151024E+002  +2.4058915017E-001 -1.6937372971E+002 
384435.544 +1.1377286187E-001 +1.6958564976E+002  +3.7383671779E-004 -3.7192824454E+001  +2.6465713389E-004 +1.2609191807E+002  +2.4010202467E-001 -1.6871447949E+002 
509580.726 +1.1452981566E-001 +1.7059858901E+002  +1.6493479876E-003 -1.0161402444E+002  +1.5244709060E-003 -1.0467389228E+002  +2.5242778332E-001 -1.6607873045E+002 
634725.907 +1.1646063535E-001 +1.7133022506E+002  +1.2509026820E-003 -1.5980323344E+001  +1.1684911301E-003 -5.8910882773E+001  +2.4313430898E-001 -1.6480143243E+002 
759871.089 +1.2006201279E-001 +1.7123685763E+002  +6.1935269821E-004 -1.8824750560E+001  +1.4115475444E-003 -1.5834202959E+002  +2.3791239989E-001 -1.6606149156E+002 
885016.270 +1.1720786811E-001 +1.7020434562E+002  +9.0133828721E-004 -4.1165879392E+001  +1.6324430895E-003 -1.4289488654E+002  +2.3792294053E-001 -1.6410450962E+002 
1010161.452 +1.1395749993E-001 +1.7150468790E+002  +3.4464730640E-004 -1.4265287035E+002  +1.7037625361E-003 -4.3270949128E+001  +1.9201917073E-001 -1.5986494809E+002 
1135306.633 +1.1483826385E-001 +1.6762098165E+002  +4.9894014923E-004 -8.9078959108E+001  +3.9866672727E-003 +9.4805202527E+001  +1.8867669424E-001 -1.6630468131E+002 
1260451.815 +1.2192137093E-001 +1.7080562723E+002  +3.4899637273E-004 +1.7064809525E+002  +1.2885522685E-003 +5.2470344966E+001  +2.4707579099E-001 -1.5890620311E+002 
1385596.996 +1.2564177049E-001 +1.7237713088E+002  +3.8206439260E-004 +1.4440308888E+002  +6.9744497570E-004 -3.1373494317E+001  +2.4846524628E-001 -1.5718155093E+002 
1510742.178 +1.2723178400E-001 +1.7050786077E+002  +8.3045230803E-004 -3.9800236377E+001  +8.6672489909E-004 +1.3677828171E+002  +2.5963953922E-001 -1.5846050092E+002 
1635887.359 +1.2966419853E-001 +1.7070849739E+002  +8.4447673670E-004 +2.7534217739E+001  +4.8055856369E-004 -1.4876632658E+002  +2.3987802984E-001 -1.5678702529E+002 
1761032.541 +1.2768218624E-001 +1.7001494855E+002  +1.5262314866E-003 +1.9479480163E+001  +6.1587180678E-004 -4.0011621006E+001  +2.1782257915E-001 -1.5961716759E+002 
1886177.722 +1.2827182784E-001 +1.6853574507E+002  +1.7223251717E-003 -9.8583410288E+001  +1.5385960318E-003 -4.0090746515E+001  +2.1463789399E-001 -1.7955051678E+002 
2011322.904 +1.2904260575E-001 +1.6635932635E+002  +2.3410800020E-003 -7.7660808520E+001  +1.3910157763E-003 +5.8988415084E+001  +2.1401959493E-001 -1.7489151431E+002 
2136468.085 +1.2481643012E-001 +1.6716652404E+002  +7.7975613234E-004 +1.2230395465E+002  +2.8613866385E-003 -6.1914278043E+001  +1.9375288832E-001 +1.7859426886E+002 
2261613.267 +1.2761684429E-001 +1.6618102422E+002  +5.3661514354E-003 -1.6323717658E+001  +5.3526038618E-003 -1.5717157483E+002  +1.5296528970E-001 +1.2731216784E+002 
2386758.448 +1.3557582693E-001 +1.6108425864E+002  +6.3408360806E-003 +6.8793988641E+001  +3.6709301042E-003 +1.1291076067E+002  +2.1492764257E-001 +1.6339593330E+002 
2511903.630 +1.4380506689E-001 +1.6392958818E+002  +1.0668923638E-003 +6.7250312751E+001  +9.2009936534E-004 -3.7146299108E+001  +2.2675700841E-001 -1.7890928565E+002 
2637048.811 +1.2433911801E-001 +1.6253761795E+002  +1.7086446318E-002 -1.7794318837E+002  +1.3370704164E-002 -6.8982329058E+001  +5.8275605387E-001 +1.4019314247E+002 
2762193.992 +1.0013432787E-001 -1.6977129360E+002  +3.4171183498E-002 -1.7299565075E+002  +5.2806973472E-002 -1.4348295271E+002  +9.3287445374E-001 +1.7046427476E+002 
2887339.174 +1.0848738483E-001 +1.6729168871E+002  +8.9654005378E-003 +3.5057281006E+001  +1.0443886412E-002 +9.9232864911E+001  +1.3052869200E+000 -1.1685909801E+002 
3012484.355 +1.0798148694E-001 +1.7703558896E+002  +2.1091270197E-002 +1.5928397970E+002  +2.6075344641E-002 -1.1087695378E+002  +1.5873405193E+000 -1.7211114035E+002 
3137629.537 +1.3273256503E-001 +1.6542500122E+002  +2.9101455811E-003 -1.1072859381E+002  +4.7872156966E-003 +7.6196955143E+001  +1.8498252469E-001 -1.2542519847E+002 
3262774.718 +1.1702849026E-001 +1.6164699536E+002  +5.5364031919E-002 -6.2992577464E+001  +2.9243560531E-002 +9.7022198327E+001  +2.4524054572E+000 -1.4344949569E+002 
3387919.900 +1.2664701861E-001 +1.5593229277E+002  +1.9664660093E-002 +1.8401124788E+001  +4.6839642270E-002 -4.0098202002E+000  +5.5076552057E-001 +6.4081014634E+000 
3513065.081 +1.2706469912E-001 +1.5981211079E+002  +7.6462813692E-003 -9.0784766939E+001  +8.8914870342E-003 -7.1608794787E+001  +5.1744899317E-001 -5.0377357574E+001 
3638210.263 +1.9266584607E-001 +1.5186763195E+002  +2.1787337759E-002 -1.3691377822E+002  +2.5485960766E-002 +1.2393448333E+002  +1.9800479073E+000 +1.5845769269E+002 
3763355.444 +1.3692064407E-001 +1.3451554109E+002  +2.7163559128E-003 -8.1428938539E+001  +1.2085346618E-002 -1.2176045725E+002  +4.9964693703E-001 +1.2226394077E+002 
3888500.626 +1.7665160777E-001 +1.5088711855E+002  +1.4196950959E-002 +4.4352741213E+001  +1.2711248099E-002 -1.6411571066E+002  +9.1377033336E-001 -8.9320407103E+000 
4013645.807 +1.7634889075E-001 +1.5013730133E+002  +5.1513127492E-003 +1.1026668155E+002  +4.4901030145E-003 -3.7973241522E+001  +4.0317985570E-001 +1.2579265343E+002 
4138790.989 +1.6940447644E-001 +1.4701641435E+002  +1.1800188863E-002 -2.5865116615E+001  +1.0448025972E-002 -1.2955333954E+002  +5.5326595327E-001 +9.6863948143E+001 
4263936.170 +1.9267975061E-001 +1.5004749869E+002  +3.4904055680E-003 -1.7610009122E+002  +7.0901667969E-003 +1.1595669971E+002  +5.3118157744E-001 +2.1631498601E+001 
4389081.352 +2.2237541758E-001 +1.3458769136E+002  +2.3652416538E-002 +5.9026758804E+001  +3.8801412799E-002 +1.6806240354E+002  +2.1830178941E+000 +7.2383509925E+001 
4514226.533 +2.4784319580E-001 +1.3211922303E+002  +1.0126223846E-002 +1.3179802599E+002  +1.3117162972E-002 -1.2224484808E+002  +1.1757116380E+000 +1.1066962924E+002 
4639371.715 +2.9029524340E-001 +1.3497120533E+002  +4.7780319483E-002 +1.5719573562E+002  +4.8076578214E-002 +1.3882683188E+002  +5.3500630031E+000 +9.8059227041E+001 
4764516.896 +4.1883310232E-001 +1.3739621956E+002  +2.9460356496E-002 -1.1264866536E+002  +5.8875392860E-003 +4.1275005751E+001  +3.4936429306E+000 +8.6672435807E+001 
4889662.078 +4.6320486656E-001 +1.3299611150E+002  +3.9231672730E-002 +1.1630482236E+002  +7.3004312799E-002 -1.0591882006E+002  +4.8725150342E+000 -9.4616813683E+001 
5014807.259 +4.1593645444E-001 +1.2754363036E+002  +2.2444782790E-002 -5.1414762024E+001  +4.0439881777E-002 +7.9821794005E+001  +2.7141389949E+000 -9.7810271884E+001 
5139952.441 +3.5813067103E-001 +1.3542124239E+002  +3.5772266741E-002 +2.6250642441E+001  +5.3750301342E-002 -1.2239926039E+002  +4.9811150546E+000 +1.3525000938E+002 
5265097.622 +3.9262630521E-001 +1.3503361540E+002  +1.2708381542E-002 -4.4752840662E+001  +4.6507296209E-002 -1.4063078993E+002  +3.4648760847E+000 +1.1482068304E+002 
5390242.804 +4.2923383083E-001 +1.3032286344E+002  +2.3632890482E-002 +7.9308226279E+001  +1.3579815242E-002 +4.4467719142E+001  +1.5335200222E+000 +4.0842323754E+001 
5515387.985 +4.0141477450E-001 +1.2284344896E+002  +1.8343921568E-002 -1.1356148231E+002  +3.6331241873E-002 +1.1247553952E+002  +2.3823506284E+000 +8.3954428725E+001 
5640533.166 +5.1725420699E-001 +1.2845645818E+002  +1.3197394426E-002 +1.4675266013E+001  +4.3421635256E-003 +1.7474226504E+002  +2.6325292353E+000 +1.0450936462E+002 
5765678.348 +5.3859347885E-001 +1.2723863786E+002  +1.3806635768E-002 +1.7410147422E+002  +1.4294312983E-002 -5.2940210366E+001  +1.9311320024E+000 +1.0200519110E+002 
5890823.529 +5.9274629213E-001 +1.2096806854E+002  +4.2748716219E-002 +9.5245279911E+001  +4.5903468917E-002 -1.3684880030E+002  +3.7182890407E+000 +7.0838199709E+001 
6015968.711 +6.7447200998E-001 +1.1643232984E+002  +1.2601853572E-002 +9.8440936614E+001  +3.4508259312E-002 +7.9963311095E+001  +3.0363101581E+000 +1.0980818897E+001 
6141113.892 +9.1047548881E-001 +1.1550785240E+002  +1.0544263631E-002 +5.7010244833E+001  +5.3493530071E-003 -1.3119309163E+002  +1.1945838844E+000 +4.0417465289E+001 
6266259.074 +9.4891623109E-001 +1.0526763636E+002  +4.0400746936E-002 +4.1138109038E+001  +2.3124235199E-002 +4.3029187983E+000  +1.9858633312E+000 +1.3932516670E+001 
6391404.255 +8.9394304336E-001 +9.6505634037E+001  +2.2472335945E-002 +6.5377564694E+001  +1.9200330278E-002 +5.0731353948E+001  +1.8723587552E+000 +5.3717730685E+000 
6516549.437 +1.2180715404E+000 +9.3342247469E+001  +2.1520030343E-002 +4.5932243729E+001  +4.5317052785E-003 +1.1521352573E+002  +1.3888943196E+000 +5.0318265425E+000 
6641694.618 +1.4748967353E+000 +7.3615841968E+001  +2.4957739724E-002 -1.0429361146E+001  +3.7581556147E-002 +1.1409888693E+002  +1.1759531041E+000 -3.6813304617E-001 
6766839.800 +2.0450094400E+000 +4.0176573352E+001  +4.1475057345E-002 +1.0494640600E+002  +1.5425842692E-002 -3.9878381762E+001  +1.1520378144E+000 -1.2475128163E+000 
6891984.981 +2.2129824792E+000 +3.4982279435E+001  +6.0328269269E-003 +9.6692726767E+001  +1.0960700190E-002 +2.9387208506E+001  +1.3810976367E+000 -6.7376767629E+000 
7017130.163 +1.6023499015E+000 +2.8618962793E+001  +1.3315767012E-003 +8.2136047314E+000  +4.3002339864E-003 +1.7404751733E+002  +1.2994262341E+000 -4.0803880571E+000 
7142275.344 +1.8484590054E+000 +3.9889757895E+000  +9.9589705559E-003 +1.1984337907E+002  +1.3136587569E-002 +8.2976617182E+001  +1.3396061132E+000 -8.4802145751E+000 
7267420.526 +1.7582982076E+000 +2.6674309757E+000  +2.6760511013E-002 +8.9808850403E+001  +4.5485613772E-003 +3.6898052933E+001  +1.2555194454E+000 -6.0658784713E+000 
7392565.707 +1.3821890277E+000 -1.8157699044E+000  +1.5715880988E-002 +7.4479939091E+001  +9.3751108543E-003 -1.7982135479E+001  +1.2909717928E+000 -6.2229055064E+000 
7517710.889 +1.3239258488E+000 +3.8581187816E+000  +1.2933736468E-002 +7.4236476496E+001  +2.2379089174E-003 -1.6292514980E+002  +1.3032011399E+000 -4.6915027153E+000 
7642856.070 +1.0132695971E+000 +2.3168807865E+000  +5.8200304312E-003 +6.7980741315E+001  +5.2424120220E-003 -1.2743003851E+002  +1.1309814253E+000 -1.8430135368E+000 
7768001.252 +8.6667367824E-001 +5.1758632763E+000  +4.6942222252E-003 +1.5121143281E+002  +8.5626144777E-003 +7.3953223880E+001  +1.0485895728E+000 -6.7649238594E+000 
7893146.433 +9.7441013201E-001 +3.3565325439E+000  +7.2650060613E-003 +1.2283956711E+002  +2.4155152883E-003 +1.2576829909E+002  +9.3631706944E-001 -7.9269645684E+000 
8018291.615 +7.9526042151E-001 +1.0272028644E+001  +6.7521219666E-003 +8.5057391875E+001  +7.7842019277E-003 +1.3387905734E+002  +7.9024756853E-001 +1.2809310085E+000 
8143436.796 +7.5475124325E-001 +2.9385001000E+000  +5.6323064223E-003 +3.7614708251E+001  +6.1679275179E-003 +1.2795151465E+002  +8.5175302455E-001 -2.2326085137E+000 
8268581.977 +8.0658694014E-001 +1.0708086921E+001  +3.3763334632E-003 +1.2139584021E+002  +1.6619189733E-003 -1.6279648202E+002  +8.7804259140E-001 -1.7318830671E+000 
8393727.159 +7.4659865451E-001 +5.0151584971E+000  +4.9657065095E-003 +4.9000188000E+001  +3.5960775602E-003 -7.7881293859E+001  +8.0580550156E-001 +4.5777011924E+000 
8518872.340 +6.5574140582E-001 +1.2028165216E+001  +5.0055604976E-003 +5.4074640538E+001  +9.0993149811E-003 +6.7408979149E+001  +6.9561208951E-001 -5.1204923811E+000 
8644017.522 +6.7691062753E-001 +9.5571390220E+000  +5.9273781774E-003 +1.2707049307E+002  +2.7297494364E-003 +1.6108021040E+002  +7.0203265605E-001 +4.7406191914E+000 
8769162.703 +6.3228928029E-001 +9.7158057978E+000  +2.3087755900E-003 +6.5797060406E+001  +2.7444733318E-003 +7.3342847092E+001  +7.0635499291E-001 +2.8566129841E-001 
8894307.885 +6.1315670806E-001 +7.9814312703E+000  +3.8044182205E-003 +7.2962919652E+001  +6.0648047707E-003 +9.8968425310E+001  +6.6312238242E-001 -3.4743816097E+000 
9019453.066 +6.2299103652E-001 +9.6327164150E+000  +4.7042318523E-003 +1.2293260499E+002  +6.2210704796E-003 +9.1089248121E+001  +6.0692158353E-001 +1.8917573192E-001 
9144598.248 +6.3855215569E-001 +2.6255790232E+000  +8.3844636626E-003 +1.0866874381E+002  +4.3135128822E-003 +1.1452230048E+002  +6.2700771457E-001 -2.9316092281E+000 
9269743.429 +5.5588396213E-001 +6.5686830879E+000  +3.1005623052E-003 +5.7355772418E+001  +7.1862611564E-003 +1.2796825710E+002  +5.6426450867E-001 +1.8701670490E+000 
9394888.611 +5.6790573542E-001 +5.3452897545E+000  +2.9693815309E-003 +5.9697623915E+001  +4.6012439388E-003 +9.9569410417E+001  +6.0903027209E-001 -2.2466906473E+000 
9520033.792 +5.9468966291E-001 -3.2550854203E+000  +4.2825234892E-003 +7.4298889263E+001  +2.0455039435E-003 -5.9954031673E+000  +6.0053738029E-001 -1.7564918135E-001 
9645178.974 +5.2003214661E-001 +5.0689644506E+000  +5.2957998983E-003 +1.0265166571E+002  +4.6675552554E-003 +1.1991258075E+002  +6.0193559422E-001 -8.6271000184E+000 
9770324.155 +5.2992941981E-001 +1.0571660881E+000  +4.6441746073E-003 +1.1117785499E+002  +3.7837704881E-003 +1.0418357279E+002  +5.7626030623E-001 -5.6444567995E+000 
9895469.337 +5.2194876026E-001 +3.7326539216E+000  +6.2126275428E-003 +1.0493069986E+002  +6.3601044858E-003 +9.5667650752E+001  +6.0883127831E-001 -3.5875516972E+000 
10020614.518 +5.2802344469E-001 -2.3694945160E+000  +3.9847689505E-003 +7.1928565137E+001  +6.0498565341E-003 +9.8766685387E+001  +5.8436239530E-001 -8.6126524991E+000 
10145759.700 +5.4443786910E-001 +3.6303975655E+000  +2.1334536262E-003 +1.1032364772E+002  +7.4427875619E-004 +4.3794605319E+001  +5.8291768289E-001 -5.4843242146E+000 
10270904.881 +5.4653252692E-001 +1.9586732485E+000  +3.3124182838E-003 +9.0379578962E+001  +6.8147626547E-003 +1.0475369238E+002  +5.9111375836E-001 -1.7301578646E+000 
10396050.063 +5.6263692777E-001 +2.2890500764E+000  +5.9924364202E-003 +8.1156849818E+001  +7.4986640717E-003 +1.1960599689E+002  +5.9200127350E-001 -1.3902360754E-001 
10521195.244 +6.0370660160E-001 +6.8149419503E+000  +3.7205815468E-003 +5.4939757580E+001  +4.2977279634E-003 +1.1453887907E+002  +5.8785198606E-001 -1.6238530730E+000 
10646340.426 +5.3052239061E-001 +3.8004170256E+000  +1.9023916897E-003 +1.1126310619E+002  +5.1884518770E-003 +7.4505583720E+001  +5.8311516261E-001 -2.0988296488E+000 
10771485.607 +5.8622835705E-001 +4.8366234988E+000  +2.6076767722E-003 +6.9145203904E+001  +3.2335093281E-003 +9.2877773951E+001  +6.0908879427E-001 -1.3601548960E+000 
10896630.788 +5.5756704348E-001 +5.8912125921E+000  +5.0549858665E-003 +8.4657319188E+001  +6.2235703049E-003 +1.0714633760E+002  +6.1600855982E-001 -9.6525022254E-002 
11021775.970 +5.8897496283E-001 +5.9096266280E+000  +6.0324216259E-003 +8.3909557649E+001  +1.2910433253E-003 +1.1133926245E+002  +6.2996835578E-001 -1.1266225267E+000 
11146921.151 +6.3065900555E-001 +4.6814290714E+000  +5.2892179492E-003 +9.5958643760E+001  +4.2406991306E-003 +9.0650009336E+001  +6.0867366319E-001 +2.5421064189E+000 
11272066.333 +5.8104452210E-001 +5.5194766235E+000  +4.5988475467E-003 +4.9317603319E+001  +6.2955637474E-003 +9.1233947194E+001  +6.2621862263E-001 -1.5355945803E+000 
11397211.514 +6.4400040064E-001 +6.5724746388E+000  +5.7146961767E-003 +9.7534903749E+001  +3.9393249414E-003 +7.3466984175E+001  +6.2596731575E-001 +1.5813875610E+000 
11522356.696 +6.3827416545E-001 +6.6094917467E+000  +5.6732763680E-003 +9.6731585108E+001  +5.1350834209E-003 +8.9104895287E+001  +6.2645976925E-001 -4.8262254233E-001 
11647501.877 +6.1939777091E-001 +6.1323125660E+000  +4.8610250000E-003 +8.1378815014E+001  +4.7180196730E-003 +1.2238403770E+002  +6.5686699989E-001 -6.2779712670E-001 
11772647.059 +6.2759777958E-001 +3.8165016316E+000  +5.9591755341E-003 +1.0201157538E+002  +4.5272876049E-003 +7.8892710401E+001  +6.7385708257E-001 +7.0664644206E-001 
11897792.240 +6.5500443068E-001 +6.5913362564E+000  +6.5161663774E-003 +1.0445205984E+002  +2.7393599605E-003 +8.2772184090E+001  +6.7861526147E-001 +1.9482900196E-001 
12022937.422 +6.6854462612E-001 +4.7178249493E+000  +4.7292398354E-003 +8.8488189071E+001  +4.8439239720E-003 +9.0619237348E+001  +6.8216677808E-001 +2.0517892057E-001 
12148082.603 +6.8685777618E-001 +5.8439088105E+000  +5.2129512705E-003 +1.0027713264E+002  +6.1671153650E-003 +1.0744419178E+002  +7.0065146943E-001 +1.2747079993E+000 
12273227.785 +7.1204092110E-001 +5.9962612880E+000  +5.2279189646E-003 +9.8960081557E+001  +5.7012046260E-003 +1.0065893672E+002  +7.0292292460E-001 -2.8189879441E-001 
12398372.966 +7.0107124625E-001 +4.4114225964E+000  +5.1473236275E-003 +9.6859301196E+001  +6.0208691626E-003 +1.1357937886E+002  +7.1519761587E-001 +3.6380529856E-001 
12523518.148 +7.1347813609E-001 +3.1471267577E+000  +8.4416098403E-003 +9.7018753929E+001  +5.8231231426E-003 +8.4584694013E+001  +7.5529185427E-001 -1.4303823716E+000 
12648663.329 +7.3747603605E-001 +1.7665964242E+000  +8.6020019340E-003 +1.0039374195E+002  +7.0983975688E-003 +7.9705147787E+001  +7.5269569411E-001 -1.3241494933E+000 
12773808.511 +7.5614804317E-001 +2.1199965203E+000  +6.7454484047E-003 +1.0226419439E+002  +5.6180258900E-003 +1.0215984574E+002  +7.7665737366E-001 +9.8270796814E-001 
12898953.692 +7.5924514437E-001 +1.0185702362E+000  +5.7911955001E-003 +9.5130144473E+001  +5.6119200925E-003 +8.8169392143E+001  +7.8947452257E-001 -2.6492804809E-001 
13024098.874 +7.5934527548E-001 +1.3753798005E-001  +5.8188057714E-003 +8.4263842308E+001  +5.8350851507E-003 +1.0240272735E+002  +8.1224452642E-001 -1.8705858592E+000 
13149244.055 +8.1385575496E-001 +1.0200410287E+000  +6.3081584566E-003 +9.5065328866E+001  +4.7546386418E-003 +1.1120576110E+002  +8.1989321096E-001 -1.2835473080E+000 
13274389.237 +8.0196088138E-001 -3.8637883419E-001  +5.9947404517E-003 +8.0764868496E+001  +5.9058077067E-003 +7.7647156737E+001  +8.4231846520E-001 -2.3158287900E+000 
13399534.418 +8.4161920776E-001 -1.7451471356E+000  +9.0857559398E-003 +8.4641990229E+001  +6.5090276866E-003 +9.6487522136E+001  +8.3980514441E-001 -1.6402706759E+000 
13524679.599 +8.5696645193E-001 -2.1705111209E+000  +7.1635820730E-003 +1.0396785637E+002  +5.6485110426E-003 +9.7809065279E+001  +8.9151062364E-001 -2.8806003631E+000 
13649824.781 +8.5178825790E-001 -1.0000128597E+000  +6.7683686371E-003 +1.0444730897E+002  +7.6450834547E-003 +9.4044778047E+001  +8.8435572514E-001 -3.2473556351E+000 
13774969.962 +9.0732625182E-001 -3.8572464735E+000  +8.2318671049E-003 +9.8650432016E+001  +7.6580351215E-003 +1.0207283363E+002  +8.8911482868E-001 -2.9587254784E+000 
13900115.144 +9.0196828453E-001 -3.2033606525E+000  +8.6212076917E-003 +8.4951532844E+001  +8.0680475346E-003 +9.2314968305E+001  +9.1929751747E-001 -3.3449613052E+000 
14025260.325 +9.3404101858E-001 -2.8288448613E+000  +6.9837912358E-003 +8.8737027046E+001  +7.9816626700E-003 +8.8053929003E+001  +9.4928719018E-001 -3.0488653038E+000 
14150405.507 +9.3540811369E-001 -2.8068700774E+000  +7.6922550985E-003 +9.8164581902E+001  +7.6634960606E-003 +8.9704768752E+001  +9.7587078996E-001 -4.1744825832E+000 
14275550.688 +9.5624450979E-001 -5.1633269878E+000  +6.4190814223E-003 +9.7986548231E+001  +7.9624169610E-003 +9.7992397172E+001  +9.7944080897E-001 -4.5269724204E+000 
14400695.870 +9.5821420311E-001 -4.5240657886E+000  +7.1951214538E-003 +8.0837162818E+001  +7.2828006078E-003 +8.2011121919E+001  +9.8871053034E-001 -5.0426796242E+000 
