!  2-Port S-parameters saved by WinCal
! VAR MeasName=S-Parameters (CALIBRATED_DATA) read from VNA (P5004A)
! VAR MeasDate=27/08/2024 15:13:16
! VAR NAME=S2_r3c8_SET3_9k-100M_2
! VAR FILENAME=S2_r3c8_SET3_9k-100M_2.S2P
! VAR DATE=27/08/2024 15:13:16
! VAR PHYS_PORTS=1,2
! VAR ObjTypeName=DATASET
! VAR IndexType=Frequency
!
# Hz S MA R 50
9000.000 +8.0417214895E-002 -1.6976855753E+002  +8.1844824248E-003 -1.7253568119E+002  +1.0290426712E-002 -7.5511384883E+001  +2.3818282169E-001 -1.1624277854E+002 
134145.181 +1.1040538791E-001 +1.6969478954E+002  +3.1555596713E-004 +1.1610538758E+002  +5.0049644545E-004 +1.6221378591E+002  +2.3928339678E-001 -1.6961588359E+002 
259290.363 +1.1064465180E-001 +1.7003735784E+002  +1.0204488883E-003 -1.4378305818E+002  +3.7298132430E-004 -1.7756888638E+002  +2.4988111083E-001 -1.6851357952E+002 
384435.544 +1.1376179615E-001 +1.6951513484E+002  +6.0805005867E-004 +1.0739563143E+002  +9.6771702963E-004 -2.2897229136E+000  +2.4282811576E-001 -1.6756126538E+002 
509580.726 +1.1350967543E-001 +1.7146213967E+002  +2.1199011304E-004 +1.1586296349E+002  +2.0110087031E-003 +1.4424761256E+002  +2.4103124999E-001 -1.6585258775E+002 
634725.907 +1.1624681002E-001 +1.7051994673E+002  +7.2447151894E-004 +4.6079137999E+001  +8.9635544468E-004 +1.6371250458E+001  +2.4598327145E-001 -1.6389239700E+002 
759871.089 +1.1739819156E-001 +1.7053071949E+002  +2.7181188086E-004 -4.0317499139E+001  +1.8295577977E-003 +1.1795369302E+001  +2.3674777716E-001 -1.6446633186E+002 
885016.270 +1.1805648991E-001 +1.7017949925E+002  +1.1634780682E-003 -6.8537012886E+001  +2.6415776654E-004 -8.1978667999E+001  +2.3487696750E-001 -1.6079635661E+002 
1010161.452 +1.1722329741E-001 +1.7077232622E+002  +1.3126358887E-003 -6.8049657645E+001  +4.1793902356E-004 +8.9472540356E+001  +2.0037987945E-001 -1.6342485526E+002 
1135306.633 +1.1660057004E-001 +1.7090858312E+002  +1.0567241439E-003 -1.6914837186E+002  +3.0476460822E-003 -5.1913681717E+001  +1.6746272789E-001 -1.7225630670E+002 
1260451.815 +1.1859893785E-001 +1.7299988107E+002  +7.0451851419E-004 +1.6843531417E+002  +2.6847101576E-004 -3.9834545685E+001  +2.1562460106E-001 -1.5855750713E+002 
1385596.996 +1.2418097334E-001 +1.7246990087E+002  +5.2481790023E-004 +1.0515721107E+002  +1.6153220069E-003 -1.5981773386E+002  +2.6169886378E-001 -1.6033956509E+002 
1510742.178 +1.2763590830E-001 +1.7083019438E+002  +9.4028386255E-004 -1.5959433394E+002  +1.0914920655E-003 -2.4305898719E+001  +2.4930268028E-001 -1.5681601863E+002 
1635887.359 +1.2879372507E-001 +1.7176898853E+002  +8.3567440804E-004 -1.3255261467E+002  +8.3157509581E-004 -1.6625703616E+002  +2.4490579088E-001 -1.5735450904E+002 
1761032.541 +1.2849312395E-001 +1.6934259032E+002  +7.5707837623E-004 +1.6168996365E+002  +9.8333457090E-004 +1.3868544282E+001  +2.2277610523E-001 -1.6218917471E+002 
1886177.722 +1.3214155958E-001 +1.6932876527E+002  +7.1289129801E-004 -1.1429149026E+002  +6.3500118023E-004 -1.3819269598E+002  +2.1230930264E-001 -1.5920938954E+002 
2011322.904 +1.3027097343E-001 +1.6904178721E+002  +4.1099958650E-003 +2.9848987516E+001  +1.4058913190E-003 -3.7592521683E+001  +1.9201271096E-001 -1.6291268381E+002 
2136468.085 +1.3460556435E-001 +1.6643149102E+002  +8.0565856026E-004 +1.3403737088E+002  +1.3700221668E-003 -4.6512751466E+001  +1.7687941978E-001 -1.7623380103E+002 
2261613.267 +1.3489929022E-001 +1.6573708697E+002  +2.8886007862E-003 +8.9453714389E+001  +1.0595739028E-003 -5.4683200349E+001  +2.5729624897E-001 +1.7288295593E+002 
2386758.448 +1.3211873483E-001 +1.6404772483E+002  +1.6793924076E-003 +3.1741821916E+000  +1.4463994040E-003 -6.4521073297E+001  +2.4116664640E-001 +1.6786986947E+002 
2511903.630 +1.2714718349E-001 +1.6661145861E+002  +3.5408754511E-003 +9.4675097338E+001  +6.1538423675E-003 -1.4529081985E+001  +1.9820577615E-001 +1.7317856463E+002 
2637048.811 +1.3882148710E-001 +1.6184821953E+002  +1.1993860763E-002 +1.1658319687E+002  +8.7268777273E-003 +8.6028611945E+001  +3.1336747950E-001 +1.0589225523E+002 
2762193.992 +1.0030004862E-001 +1.6055780451E+002  +1.9391402979E-002 +7.1184623992E+001  +1.3930262044E-002 +4.8423045088E+001  +3.3969635812E-001 +1.1832203731E+002 
2887339.174 +1.3120280377E-001 +1.7052069754E+002  +2.3793832076E-002 -8.6826357981E+001  +1.6111747117E-002 +8.6014309124E+001  +1.4410709586E+000 -1.4779148673E+002 
3012484.355 +1.1481981650E-001 +1.7186577113E+002  +1.0895803993E-002 -9.1662633045E+001  +3.2140761306E-002 -5.2719989072E+001  +6.3361895435E-001 +5.9781399668E+000 
3137629.537 +1.0290303002E-001 -1.7700215400E+002  +1.3424367033E-002 -1.0758099928E+002  +2.9827878152E-003 -7.8303572503E+001  +5.0795742507E-001 -1.0989686320E+002 
3262774.718 +1.0284145407E-001 +1.7343223406E+002  +5.4881057076E-003 +2.0727823526E+001  +2.3552060132E-002 +1.7149794597E+002  +1.0388365492E+000 -9.0797709786E+001 
3387919.900 +1.2747717851E-001 +1.6673612070E+002  +1.1192911565E-002 -4.3268992376E+000  +1.9747332116E-002 -1.2197380424E+002  +3.2823408893E-001 -4.6037968149E+001 
3513065.081 +1.5466375515E-001 +1.4987426597E+002  +6.2851913380E-002 +8.7472790680E+000  +4.1811071215E-002 -1.3772904202E+002  +1.7239988423E+000 -6.8299493836E+001 
3638210.263 +1.6102708368E-001 +1.5516763115E+002  +2.1388785716E-002 +1.2883399732E+002  +1.0717017369E-002 -3.4141610254E+001  +7.3534509853E-001 +1.4505288799E+002 
3763355.444 +1.8526359272E-001 +1.5191479028E+002  +1.3646235854E-002 +8.7955645991E+001  +1.1648359745E-002 +2.9027014697E+001  +2.5591183195E-001 +1.1838746036E+002 
3888500.626 +1.6103336407E-001 +1.4938620473E+002  +2.7438554349E-003 +1.1426405184E+002  +2.2308267296E-002 +1.5799026070E+001  +4.1417644165E-001 +1.3360876370E+002 
4013645.807 +1.7698547880E-001 +1.5572304429E+002  +7.6644092370E-003 +1.0317481634E+002  +9.5537657356E-003 -2.7423837870E+001  +1.2492176123E-001 +5.2129844397E+001 
4138790.989 +1.8132297821E-001 +1.4493289204E+002  +2.1301134849E-002 +1.2878779336E+002  +1.9552995007E-002 +4.2451134822E+001  +6.8911295084E-001 +1.0198937798E+002 
4263936.170 +2.0494542266E-001 +1.4985628009E+002  +9.9599351460E-003 +1.3240257029E+002  +1.0340715913E-002 +2.3196723452E+001  +4.0801128045E-001 +1.2120384223E+002 
4389081.352 +2.1217288619E-001 +1.4522558166E+002  +7.9291104635E-003 +1.5408027406E+002  +1.6262742150E-002 +7.0939265658E+001  +7.6346376799E-001 +1.3094170047E+002 
4514226.533 +2.0836788913E-001 +1.3074224681E+002  +3.2973510980E-002 +7.4091688273E+001  +2.3232000653E-002 -7.4677525388E+000  +6.7330602394E-001 +5.0234014925E+001 
4639371.715 +2.8139080931E-001 +1.2620415231E+002  +8.8920416202E-003 +1.3657286708E+002  +4.2946720835E-002 +7.1336332724E+001  +1.3950968995E+000 +1.2164964466E+002 
4764516.896 +3.4068911782E-001 +1.3674943448E+002  +1.9203845511E-002 +1.3677404107E+002  +6.5459249039E-002 +5.7467285589E+001  +2.0962017809E+000 +5.2984179607E+001 
4889662.078 +4.8138692655E-001 +1.2257148288E+002  +2.5194538074E-001 +2.4177145382E+001  +3.0885284034E-001 -3.5979549812E+001  +5.8266859800E+000 -7.6064213412E+001 
5014807.259 +3.5622671408E-001 +1.2981632558E+002  +1.4865837279E-001 -5.9229220533E+001  +1.9692630857E-001 -1.1101660329E+002  +7.6457124776E+000 -1.0288535623E+002 
5139952.441 +3.6139143080E-001 +1.2998735237E+002  +8.2962841631E-002 -1.6392327121E+002  +4.7688525896E-002 +1.7013365595E+002  +2.7930157673E+000 -1.7742168833E+002 
5265097.622 +3.7027192479E-001 +1.3669331678E+002  +3.1147660820E-002 +9.4665523716E+001  +1.0728220565E-002 +3.6467482793E+001  +1.4332315619E+000 +3.6635107973E+001 
5390242.804 +4.0282587251E-001 +1.3707371270E+002  +3.2005681288E-002 +1.4749142341E+002  +3.9548632399E-002 +1.2925028075E+002  +1.9278642741E+000 +1.1891359466E+002 
5515387.985 +4.4759642138E-001 +1.3290268038E+002  +8.6914496382E-002 +9.8611297333E+001  +3.1318816904E-002 +1.4217061426E+002  +2.9983005596E+000 +7.5338554935E+001 
5640533.166 +4.4779572122E-001 +1.3065838258E+002  +3.7126686164E-002 +1.0078899728E+002  +2.4689764782E-002 +6.9501299835E+001  +1.1990204111E+000 +9.5654195349E+001 
5765678.348 +5.2283264923E-001 +1.2200815135E+002  +5.3024244771E-002 +7.3109588990E+001  +4.5285274568E-002 +3.5048389661E+001  +1.4205439577E+000 +4.6138140787E+001 
5890823.529 +5.5907427194E-001 +1.2182378279E+002  +5.9997648910E-002 +7.4640322654E+001  +6.7748666021E-002 +5.2342027653E+001  +1.6845849217E+000 +5.8877688255E+001 
6015968.711 +4.9104473399E-001 +1.1310265727E+002  +7.0781451288E-002 +7.5195193736E+001  +6.6862399195E-002 +6.5860779315E+001  +3.0239325591E+000 +6.5402263174E+001 
6141113.892 +6.9054160650E-001 +1.0889272893E+002  +6.8821266286E-002 +8.4782710159E+001  +6.9064781431E-002 +5.3989796472E+001  +2.7022125823E+000 +6.7894252228E+001 
6266259.074 +1.0227859986E+000 +1.1282709424E+002  +9.7976049933E-002 +8.4579154503E+001  +6.6599249537E-002 +5.0719759978E+001  +1.9482223929E+000 +3.6542046338E+001 
6391404.255 +9.3383964372E-001 +8.2491093032E+001  +9.0688010979E-002 +2.8848107504E+001  +6.4950386840E-002 +2.4290615151E+001  +1.2937625910E+000 +2.8954989675E+001 
6516549.437 +1.2058476257E+000 +7.4847178484E+001  +7.6707995698E-002 +4.5915174828E+001  +8.4179047891E-002 +2.3299636239E+001  +1.4744839548E+000 +1.3259828095E+001 
6641694.618 +1.4950225014E+000 +8.7547871823E+001  +7.2630264950E-002 +5.1307054039E+001  +4.4052094942E-002 +3.3264563859E+001  +1.5708717310E+000 -2.1562182878E+000 
6766839.800 +1.7389649134E+000 +5.2679766679E+001  +7.0247129282E-002 +1.6794570685E+001  +8.9344369588E-002 +3.6011109062E+001  +1.1815338311E+000 +3.5887705843E+000 
6891984.981 +1.6904694466E+000 +2.7229127669E+001  +6.7671103081E-002 +2.2881356280E+001  +6.8888390735E-002 -3.5267518450E+000  +1.0299565473E+000 -4.0081072509E+000 
7017130.163 +1.8746406658E+000 +2.7244785843E+001  +7.4358029898E-002 +1.9006491321E+001  +6.3949228708E-002 +8.5725850994E+000  +1.0782713796E+000 -8.2743182986E+000 
7142275.344 +1.6599512218E+000 +1.1527211985E+001  +5.1183407369E-002 +1.8273600221E+001  +5.2898579288E-002 +1.1713089140E+001  +1.2578888927E+000 -1.3874503267E+001 
7267420.526 +1.5370793772E+000 +4.3725572819E+000  +3.4299818912E-002 +1.5424131822E+001  +4.2730454886E-002 +6.1486126478E+000  +1.2699256947E+000 -1.6434697371E+001 
7392565.707 +1.2254917116E+000 +5.9812947078E+000  +2.7343701393E-002 +2.1891850979E+001  +2.5120720233E-002 +1.0014777652E+001  +1.1928152776E+000 -7.6873883446E+000 
7517710.889 +1.1701543088E+000 -5.0534535208E-001  +3.8694573703E-002 +1.8590109481E+001  +3.5883909840E-002 -1.5914835420E+000  +1.1476176907E+000 -6.8453140860E+000 
7642856.070 +1.0045850705E+000 -1.0969329041E+000  +1.7527174024E-002 +7.3568518207E+000  +2.7470028338E-002 +1.7936106057E+001  +1.0306923321E+000 -2.2898426519E+000 
7768001.252 +1.0140228870E+000 -3.0003854371E+000  +2.9257537888E-002 +1.1852293892E+001  +2.7896659700E-002 +2.3318991110E+001  +1.0326728559E+000 -6.0322896232E+000 
7893146.433 +9.0873572040E-001 +7.6119998205E-001  +2.0315805476E-002 +2.5372964933E+000  +2.7226739378E-002 +5.7855324711E+000  +1.0024933788E+000 +1.6044422214E+000 
8018291.615 +7.8007223796E-001 +5.2785661024E+000  +2.6496692481E-002 -3.8072663068E+000  +2.7659525101E-002 +1.8465881698E+001  +8.6138293343E-001 -1.5261747415E+000 
8143436.796 +8.3680139793E-001 +6.5214805568E+000  +2.1887272168E-002 -1.7955764635E+000  +1.9311075448E-002 -1.8147058784E+000  +7.6045958978E-001 -1.4194017678E+000 
8268581.977 +7.5017401200E-001 +8.5447556902E+000  +2.0229887291E-002 +1.1858755486E+001  +2.4023138289E-002 +9.8197665767E+000  +7.2317009245E-001 +3.0622725042E+000 
8393727.159 +6.6127708885E-001 +8.0752637001E+000  +2.3373050610E-002 +1.6735326506E+001  +2.4685094828E-002 +1.3228581862E+001  +6.4975239256E-001 +5.9029370133E+000 
8518872.340 +6.8518557558E-001 +5.4831448034E+000  +2.7989780551E-002 -1.2420947199E+001  +2.3538485281E-002 +3.1606664926E+001  +7.1322486394E-001 +3.0055493497E+000 
8644017.522 +7.0626678533E-001 +7.0882180904E+000  +2.6941690563E-002 +1.3309408036E+001  +2.6475059773E-002 +1.2314040193E+001  +6.2951997175E-001 -5.1008674095E-001 
8769162.703 +6.3183824494E-001 +5.3637167227E+000  +2.3961741830E-002 +3.4944188638E+000  +2.7764566571E-002 +1.2887077673E+001  +6.7594867282E-001 +3.4114466600E+000 
8894307.885 +6.2788873726E-001 +7.8867527680E+000  +2.3938486957E-002 +7.0997955134E+000  +1.9119290060E-002 +1.5295834261E+001  +5.8795256766E-001 -6.2085520681E+000 
9019453.066 +5.6788888841E-001 +7.3608045926E+000  +1.8923962560E-002 +1.4497263824E+000  +2.4149767191E-002 +2.1649357899E+001  +6.5213309301E-001 -2.8587461276E+000 
9144598.248 +5.9246380015E-001 +1.0816345825E+000  +2.4566318781E-002 +3.8547763627E+000  +1.7472217357E-002 +1.7478948288E+001  +6.0998651033E-001 -2.7350194075E+000 
9269743.429 +6.0013952113E-001 +1.9309476563E+000  +2.1167291999E-002 +2.5660810386E+000  +2.4087329756E-002 +2.6477035948E+001  +5.6325664093E-001 -1.6715704593E+000 
9394888.611 +5.4132554035E-001 +5.1385139231E+000  +2.4133420698E-002 +5.2905362965E+000  +2.1768823226E-002 +2.0885545080E+001  +6.1749808585E-001 +2.6851642181E+000 
9520033.792 +5.4944694767E-001 +2.1761577936E+000  +2.3997386126E-002 +3.4198438184E+000  +2.4115245433E-002 +2.8010996604E+001  +5.1513795109E-001 +1.1265978726E+000 
9645178.974 +5.6652156606E-001 +5.8692603097E-001  +2.0653013795E-002 -1.6514194883E+000  +2.4826237852E-002 +2.0660679260E+001  +5.4141503135E-001 -4.1203678110E+000 
9770324.155 +5.1722879962E-001 -5.9651640457E-001  +2.3946117651E-002 +2.4670862903E+000  +2.1584919572E-002 +1.9544519210E+001  +5.6867263714E-001 -4.3776916722E+000 
9895469.337 +4.6048784195E-001 +4.7168441784E+000  +2.3671719823E-002 +8.6108019709E+000  +2.1852184936E-002 +2.3943802181E+001  +5.5990266038E-001 -1.0492166444E+001 
10020614.518 +5.2215536617E-001 -2.4514708502E+000  +2.2546883219E-002 +3.2303458111E+000  +2.3874958986E-002 +2.0722376520E+001  +5.5950847884E-001 -5.3179674095E+000 
10145759.700 +4.8767032463E-001 +2.1405924575E+000  +2.1920708987E-002 +1.9092054706E+000  +2.4046597137E-002 +1.5213253904E+001  +5.5296935653E-001 -5.1990952234E+000 
10270904.881 +5.7411340102E-001 +2.0844575883E+000  +2.4148008890E-002 +7.9568004689E+000  +2.4342219436E-002 +1.8133753050E+001  +5.5005476933E-001 -9.4556517138E-001 
10396050.063 +5.5409137893E-001 +5.1015981629E+000  +2.3583383893E-002 +7.4042665492E+000  +2.1269789440E-002 +2.7561029627E+001  +5.7418664454E-001 -1.5715220534E+000 
10521195.244 +5.0569925920E-001 +3.4212281059E+000  +2.1954548567E-002 +8.2788096840E+000  +2.3892096583E-002 +2.3647248850E+001  +5.8671208013E-001 +5.4376943314E-001 
10646340.426 +5.7486841848E-001 +4.3517527192E+000  +2.3784765685E-002 +6.7075523272E+000  +2.3927938267E-002 +2.3986777311E+001  +5.9295752658E-001 -1.1894211528E+000 
10771485.607 +5.3757339378E-001 +7.8113130335E+000  +2.2869833538E-002 +1.3922108177E+001  +2.2261428467E-002 +1.7314092243E+001  +5.8197440515E-001 +2.6116212253E+000 
10896630.788 +5.5452377425E-001 +5.8993715531E+000  +2.2824212471E-002 +8.0364051411E+000  +2.3887744581E-002 +2.4616226738E+001  +5.9463467050E-001 +1.7678248589E+000 
11021775.970 +5.6595650336E-001 +9.5271222163E+000  +2.3670143234E-002 +1.2946215414E+001  +2.3331715564E-002 +2.5593159643E+001  +5.7801771375E-001 +1.1584310992E+000 
11146921.151 +5.7774725337E-001 +5.9323397337E+000  +2.3472979901E-002 +7.5204056328E+000  +2.4239953520E-002 +2.3037829614E+001  +5.9906599364E-001 -5.8034672700E-001 
11272066.333 +5.6899400020E-001 +4.9327020994E+000  +2.2417026211E-002 +8.7230295090E+000  +2.4280322530E-002 +2.6283847416E+001  +5.7509116067E-001 +2.9090743501E+000 
11397211.514 +6.0565353420E-001 +6.0198272171E+000  +2.3623969715E-002 +9.2411091166E+000  +2.2916003692E-002 +2.5286348329E+001  +5.9642037743E-001 +1.7418211249E+000 
11522356.696 +5.9451692854E-001 +7.7817680269E+000  +2.4074845150E-002 +1.5742777551E+001  +2.5913302583E-002 +2.0077885468E+001  +6.1975583836E-001 +6.5554923999E-001 
11647501.877 +5.9872247462E-001 +2.5466111348E+000  +2.6888897718E-002 +1.0788029105E+001  +2.6510953745E-002 +2.3284144126E+001  +6.1956232303E-001 -2.4226339107E-001 
11772647.059 +6.0523285941E-001 +7.4520566335E+000  +2.5399289585E-002 +1.2932517544E+001  +2.4376181218E-002 +2.2454062163E+001  +6.2742365939E-001 +2.4249304809E+000 
11897792.240 +6.4228349017E-001 +5.9840204951E+000  +2.8717285514E-002 +1.1520168075E+001  +2.5314921465E-002 +2.2975849497E+001  +6.2611496681E-001 +6.9600941111E-001 
12022937.422 +6.3182523295E-001 +2.0734586504E+000  +2.5037866551E-002 +1.1903592682E+001  +2.7217392986E-002 +2.5319362578E+001  +6.6184907403E-001 -4.2318514861E-001 
12148082.603 +6.3581484158E-001 +4.1920658070E+000  +2.7439294944E-002 +1.6348219119E+001  +2.5429129363E-002 +1.7632912286E+001  +6.5829044369E-001 +1.7277421838E+000 
12273227.785 +6.9597058162E-001 +4.2887375283E+000  +2.6548122182E-002 +1.6430841200E+001  +2.8093713568E-002 +2.0519303731E+001  +6.7519656063E-001 +3.9082901244E-001 
12398372.966 +6.9916010004E-001 +3.6272500657E+000  +2.7865966639E-002 +1.4081695790E+001  +2.6597045519E-002 +2.4637797647E+001  +7.0517903842E-001 -7.1958552829E-001 
12523518.148 +6.8153845200E-001 +2.5674297461E+000  +2.6233067047E-002 +1.5207631580E+001  +2.7652939370E-002 +2.3884391430E+001  +7.1515879188E-001 -8.6948098021E-001 
12648663.329 +7.0267065456E-001 +2.5011104614E+000  +2.8722950139E-002 +1.2305184956E+001  +2.6640984657E-002 +2.4503134661E+001  +7.1772669930E-001 -6.4789886173E-001 
12773808.511 +7.2123163649E-001 +6.4677927701E-001  +3.1032179022E-002 +1.4765762685E+001  +2.9106499337E-002 +1.6252418330E+001  +7.1004851288E-001 +7.5238793902E-002 
12898953.692 +7.4334326598E-001 +1.6183545809E+000  +2.8790471404E-002 +1.4760106745E+001  +2.7949803885E-002 +1.9149276744E+001  +7.5356185373E-001 -1.7222264445E+000 
13024098.874 +7.6776949505E-001 +1.3273947409E+000  +2.8017431573E-002 +1.2764154297E+001  +2.7919480094E-002 +2.0362612771E+001  +7.7776507760E-001 -2.1044401752E+000 
13149244.055 +7.8399967691E-001 +7.2462732816E-001  +2.8591067585E-002 +1.6022041126E+001  +2.7719918332E-002 +2.0144589708E+001  +7.7945251782E-001 -1.5349228831E+000 
13274389.237 +7.9596476462E-001 +3.7940718705E-001  +2.8380089128E-002 +1.3660330148E+001  +2.8191307647E-002 +1.9038863741E+001  +8.0928965208E-001 -1.9710338616E+000 
13399534.418 +8.1050081757E-001 -2.1388309564E+000  +2.9295353941E-002 +1.5545948993E+001  +2.9745838379E-002 +2.1153951714E+001  +8.0322558750E-001 -3.2222463033E+000 
13524679.599 +8.0563387266E-001 -5.0427557170E-001  +3.0950863740E-002 +1.8033425328E+001  +2.8818282455E-002 +1.6517684332E+001  +8.4134279160E-001 -2.9102491872E+000 
13649824.781 +8.4349850392E-001 -1.9100230667E+000  +2.9286054779E-002 +1.7641119215E+001  +2.9761149452E-002 +1.8876859430E+001  +8.5325600996E-001 -2.4170924065E+000 
13774969.962 +8.6078835864E-001 -2.3190968848E+000  +3.0590867680E-002 +1.4494811277E+001  +2.9810887580E-002 +1.8202924605E+001  +8.6418227075E-001 -2.8951630464E+000 
13900115.144 +8.6903475105E-001 -2.7852582910E+000  +3.0818772503E-002 +1.5864386638E+001  +2.9126989309E-002 +1.9148946488E+001  +8.7741817113E-001 -3.2429587431E+000 
14025260.325 +9.0084425058E-001 -1.9502545888E+000  +2.9631092403E-002 +1.6827095733E+001  +3.0160682488E-002 +1.8857351008E+001  +9.1165476347E-001 -4.1239051651E+000 
14150405.507 +9.0393925269E-001 -3.7144456250E+000  +3.1002367335E-002 +1.6680468356E+001  +3.0033989151E-002 +1.5640692704E+001  +9.1706062928E-001 -2.7520836054E+000 
14275550.688 +9.2549626305E-001 -4.7368098891E+000  +3.0635311728E-002 +1.3974177849E+001  +3.1225422995E-002 +1.6325484643E+001  +9.4173705281E-001 -4.8741461157E+000 
14400695.870 +9.5642452454E-001 -5.5539263992E+000  +3.1349153117E-002 +1.6198234851E+001  +3.1072424031E-002 +1.7115213190E+001  +9.6216997487E-001 -4.2936719377E+000 
