!  2-Port S-parameters saved by WinCal
! VAR MeasName=S-Parameters (CALIBRATED_DATA) read from VNA (P5004A)
! VAR MeasDate=27/08/2024 14:31:24
! VAR NAME=S2_r2c8_SET3_9k-100M_1
! VAR FILENAME=S2_r2c8_SET3_9k-100M_1.S2P
! VAR DATE=27/08/2024 14:31:24
! VAR PHYS_PORTS=1,2
! VAR ObjTypeName=DATASET
! VAR IndexType=Frequency
!
# Hz S MA R 50
9000.000 +1.0394701240E-001 -1.6061476850E+002  +3.7306354362E-002 -5.2267219811E+001  +5.2777051106E-002 -1.7042004225E+002  +4.4686517430E-001 -1.1984769557E+002 
134145.181 +1.1017410360E-001 +1.6940997919E+002  +2.4476902111E-004 -1.3351721007E+002  +7.1742595253E-004 +1.5621998539E+002  +2.4102519116E-001 -1.7007211735E+002 
259290.363 +1.1256063092E-001 +1.6945374529E+002  +5.0262475760E-004 -7.1862138050E+001  +2.8399287992E-004 +1.0315123757E+002  +2.4312333428E-001 -1.7015621400E+002 
384435.544 +1.1415248871E-001 +1.6987941179E+002  +4.2483846117E-004 -4.7620391978E+001  +3.2161454265E-004 +1.6219721840E+002  +2.3567474849E-001 -1.6989599242E+002 
509580.726 +1.1139291118E-001 +1.7083595203E+002  +2.4229819180E-003 +1.7017833456E+002  +1.3041015987E-003 -8.0403743115E+001  +2.5507873366E-001 -1.6430622637E+002 
634725.907 +1.1439035859E-001 +1.7119517495E+002  +5.5126472066E-004 -1.5817664022E+002  +1.0510702200E-003 -1.0128543215E+002  +2.3854729387E-001 -1.6604896503E+002 
759871.089 +1.1862412355E-001 +1.7031682989E+002  +4.5332420391E-004 -1.5303731422E+002  +4.3443377262E-005 +1.3166924816E+001  +2.5474807849E-001 -1.6426783440E+002 
885016.270 +1.1725208304E-001 +1.6902199285E+002  +3.0270318650E-004 -9.7518447832E+000  +5.1867408893E-004 -8.0856707201E+000  +2.4403656919E-001 -1.6421818684E+002 
1010161.452 +1.1363635363E-001 +1.7045485755E+002  +3.7785648919E-004 +2.2006872354E+001  +1.1949428302E-003 +1.6088983690E+002  +2.0449023295E-001 -1.6713707415E+002 
1135306.633 +1.1769061610E-001 +1.6996694989E+002  +2.0541754351E-003 -1.3923752883E+002  +2.5924191527E-003 -1.4173369604E+002  +1.7225562689E-001 -1.6657777815E+002 
1260451.815 +1.1547295671E-001 +1.7211368512E+002  +2.0960721487E-004 -1.6517471762E+002  +1.4942008899E-003 +6.3087051071E+001  +2.3565905569E-001 -1.5791811409E+002 
1385596.996 +1.2348277981E-001 +1.7105697560E+002  +7.2041119514E-004 +6.1183907877E+001  +1.6614454867E-003 +6.1801906665E+001  +2.7931826642E-001 -1.5745601577E+002 
1510742.178 +1.2768487709E-001 +1.7217951770E+002  +2.1305557236E-004 +1.1943311496E+002  +7.4389052010E-004 -1.4091946093E+002  +2.5028656117E-001 -1.5945531261E+002 
1635887.359 +1.2658550373E-001 +1.7053104987E+002  +3.4186281381E-004 -1.7966661992E+002  +1.2824938253E-003 -1.1281539591E+002  +2.3956140766E-001 -1.6017681245E+002 
1761032.541 +1.3054976631E-001 +1.6896368013E+002  +1.4704112437E-003 -1.8997810912E+001  +4.6925586949E-004 -1.1001330872E+002  +2.0279748545E-001 -1.5605082038E+002 
1886177.722 +1.3094398742E-001 +1.6895096733E+002  +1.9788483584E-003 +1.5542504687E+002  +1.2959508640E-003 -1.0505801560E+002  +2.0888453863E-001 -1.6149493984E+002 
2011322.904 +1.2926289192E-001 +1.6501664566E+002  +9.0029249253E-004 -9.6543792235E+001  +4.1510428569E-004 -3.7072137917E+001  +1.1950273423E-001 -1.5860277927E+002 
2136468.085 +1.3434155736E-001 +1.6707438728E+002  +8.2904625833E-004 +9.8886098052E+001  +1.9495479678E-003 -4.3752367522E+001  +2.1672025742E-001 -1.7165216263E+002 
2261613.267 +1.3151844626E-001 +1.6244635005E+002  +6.6007162288E-003 +1.6671465172E+002  +7.0937694737E-003 -4.2723937514E+001  +2.3483016269E-001 +1.6103910655E+002 
2386758.448 +1.3415267069E-001 +1.6400166625E+002  +1.0031340876E-003 -1.7390212297E+002  +3.2558578568E-003 -1.9816991597E+001  +2.6786170517E-001 +1.7528800456E+002 
2511903.630 +1.2659324567E-001 +1.6759536601E+002  +2.5988279829E-003 -1.5545946064E+002  +6.4741386468E-003 -4.1338115072E+001  +2.3361176567E-001 +1.6354435053E+002 
2637048.811 +1.1551339404E-001 +1.5717479018E+002  +4.1094367515E-002 +1.0326644098E+002  +2.8975400408E-002 -1.1491819498E+001  +5.1175891455E-001 +1.2851001047E+002 
2762193.992 +7.2641187511E-002 -1.7555691172E+002  +4.4647240472E-002 -3.4843175697E+001  +3.4851646245E-002 -1.6012612298E+002  +2.3533305869E-001 -9.1804656758E+001 
2887339.174 +1.0009417125E-001 +1.7060880048E+002  +2.9604232256E-002 -1.6164504120E+001  +2.2095489299E-002 -1.1762453048E+002  +2.0584148952E-001 -8.9096743881E+001 
3012484.355 +1.1052081538E-001 +1.7273717682E+002  +1.9243904639E-002 -1.1944216758E+002  +1.6589659419E-002 -1.7459957655E+002  +6.4284648369E-001 -8.6790622324E+001 
3137629.537 +1.2967917949E-001 +1.6814894200E+002  +1.9405721411E-002 -4.0456321304E+001  +2.0082880792E-002 -1.6855234962E+002  +2.1443516220E-001 -6.0433332591E+001 
3262774.718 +1.2299085721E-001 +1.7247104397E+002  +9.7551453934E-003 -9.5797431241E+001  +1.5540874252E-002 -1.5381801160E+002  +4.8793370096E-001 -8.1666277308E+001 
3387919.900 +1.0878207449E-001 +1.5322859691E+002  +2.9784385539E-002 +2.7366771547E+001  +3.0385776138E-002 -3.0433478608E+001  +2.0064918303E-001 +7.5488755276E+001 
3513065.081 +1.3755249944E-001 +1.4512974789E+002  +3.3012376162E-002 +5.5103327909E+001  +1.2287951955E-002 -2.3065982347E+001  +2.1212588813E-001 +8.4803037473E+001 
3638210.263 +1.8221257717E-001 +1.4295202617E+002  +3.3778916980E-002 +1.2735521590E+002  +2.8676676347E-002 +4.0315547396E+001  +6.6172534881E-001 +1.2150045048E+002 
3763355.444 +1.7101064162E-001 +1.3141723306E+002  +5.2748738826E-002 +1.3737873612E+002  +2.9698214676E-002 +6.1616660442E+001  +6.8375304991E-001 +1.3941753258E+002 
3888500.626 +1.7130051534E-001 +1.5176586482E+002  +2.8196462606E-002 +3.5824677516E+001  +1.4430959559E-002 -2.2133066625E+001  +1.5704568313E-001 +3.8155490716E+001 
4013645.807 +1.8156652102E-001 +1.5242802491E+002  +1.5338857186E-002 +7.3046728179E+001  +1.5973657031E-002 -3.5769915992E+000  +2.3451068538E-001 +1.2531631343E+002 
4138790.989 +1.8129551607E-001 +1.3821879953E+002  +2.2118781986E-002 +9.9032990204E+001  +4.1625126820E-002 +2.4983323351E+001  +5.8009630198E-001 +1.2550317458E+002 
4263936.170 +1.8194010182E-001 +1.4805754235E+002  +1.8918608618E-002 +6.6564165318E+001  +2.3906913751E-002 +2.0767503946E+001  +3.0128024051E-001 +1.3249096786E+002 
4389081.352 +1.9289900313E-001 +1.3725412129E+002  +3.8305833090E-002 +7.1858746291E+001  +3.5630060526E-002 +5.0298593400E-001  +3.5498007764E-001 +8.1394199146E+001 
4514226.533 +2.0607133426E-001 +1.3334363890E+002  +6.2420233144E-002 +1.1860435306E+002  +4.8212764257E-002 +7.6401144804E+001  +1.1847644056E+000 +1.3022649564E+002 
4639371.715 +2.9606023477E-001 +1.2456624594E+002  +7.0081071867E-002 +1.2483191432E+002  +1.5967275387E-001 +3.6534196883E+001  +1.9661726592E+000 +6.8712921158E+001 
4764516.896 +3.8411906505E-001 +1.2660442695E+002  +1.5714289155E-001 -3.5963094319E+001  +1.0664665605E-001 -9.2312389395E+001  +2.7672054713E+000 -9.9588151390E+001 
4889662.078 +3.6463869529E-001 +1.2315193857E+002  +1.5208493216E-001 -1.1221764273E+002  +1.5707774303E-001 -1.7877304826E+002  +3.4652120516E+000 -1.5280736224E+002 
5014807.259 +3.5203105102E-001 +1.0286440833E+002  +5.7366829213E-001 +2.4575529069E+001  +6.4999460932E-001 -4.7688967755E+000  +9.1223246727E+000 +9.0565748961E+000 
5139952.441 +4.3352808329E-001 +1.2760307876E+002  +1.6252791913E-001 +1.1910537406E+002  +1.6575013745E-001 +5.2674261606E+001  +2.5763289243E+000 +5.4316914693E+001 
5265097.622 +3.2322353609E-001 +1.1898283177E+002  +1.0272979996E-001 +1.1183886705E+002  +1.2791036365E-001 +6.5997064445E+001  +3.1990872945E+000 +9.1573348703E+001 
5390242.804 +3.9301505871E-001 +1.2789119446E+002  +1.5836201102E-001 +5.2459064816E+001  +9.7330257358E-002 +1.0750017082E+001  +2.6840373737E+000 +1.6932259844E+001 
5515387.985 +4.5588798469E-001 +1.2793905180E+002  +1.0824936610E-001 +1.0341314994E+002  +1.1201018557E-001 +5.5523966309E+001  +2.5412697004E+000 +7.7575596571E+001 
5640533.166 +4.4927755147E-001 +1.3080756687E+002  +4.5232222799E-002 +1.1016028749E+002  +5.9439701294E-002 +9.4890568897E+001  +1.5130112420E+000 +1.1223245539E+002 
5765678.348 +4.8938632594E-001 +1.2276981533E+002  +6.7260096602E-002 +1.0604914245E+002  +7.3420750260E-002 +7.9373514982E+001  +1.6612177563E+000 +1.0314027876E+002 
5890823.529 +5.9434803875E-001 +1.1883841558E+002  +1.6215085365E-001 +6.8683395755E+001  +1.4693882603E-001 +3.6881213404E+001  +3.4246706731E+000 +3.4669497307E+001 
6015968.711 +7.0062317311E-001 +1.2282726730E+002  +7.7142533082E-002 +8.5299231727E+001  +6.9412299786E-002 +5.3708665195E+001  +1.6262227152E+000 +4.9040684449E+001 
6141113.892 +8.3131932687E-001 +1.0844773239E+002  +9.1696971556E-002 +8.2731165323E+001  +1.0366173135E-001 +3.8728201853E+001  +1.3632417161E+000 +4.8993091971E+001 
6266259.074 +8.7839308296E-001 +1.0188100991E+002  +7.3049780534E-002 +6.2907637312E+001  +9.2987902678E-002 +4.6901306253E+001  +1.3726856538E+000 +5.3565030972E+001 
6391404.255 +1.2080800181E+000 +1.0543797003E+002  +1.1516753538E-001 +5.6351624735E+001  +1.2915290548E-001 +4.7731587282E+001  +1.8872078012E+000 +7.9226709431E-001 
6516549.437 +1.0859036125E+000 +9.7515505261E+001  +7.9874708274E-002 +4.6749842586E+001  +9.0311355977E-002 +4.1127222946E+001  +1.0270039487E+000 +2.6729930799E+000 
6641694.618 +1.2712351845E+000 +5.8642359040E+001  +1.2745823770E-001 +3.2482144633E+001  +1.2423504295E-001 +1.5827858604E+001  +1.4122120702E+000 +7.1139878565E+000 
6766839.800 +1.7786002087E+000 +4.0430192732E+001  +1.5439048775E-001 +1.3795626471E+001  +1.5575530965E-001 +9.3303053838E-001  +1.2451481037E+000 +1.7169373625E+000 
6891984.981 +1.5823234977E+000 +2.6290237055E+001  +9.0644341531E-002 +1.3394325024E+001  +1.1309846520E-001 +1.5281833345E+000  +1.2616227947E+000 +1.3175487612E+000 
7017130.163 +1.5669562383E+000 +1.7136730162E+001  +9.4968090830E-002 +7.5155208134E+000  +1.0188720607E-001 -5.5922952454E+000  +1.1520288882E+000 -1.1599664440E+001 
7142275.344 +1.6248081570E+000 +6.8859948944E+000  +8.5199281804E-002 +3.7885867956E+000  +7.8922536965E-002 -3.5871205323E-001  +1.4756171887E+000 -8.3103328492E+000 
7267420.526 +1.3604906518E+000 +3.4250986480E+000  +6.5332783541E-002 +2.2392110830E+000  +6.9084819338E-002 +7.8644204069E+000  +1.2140098813E+000 -7.3269686268E+000 
7392565.707 +1.3436699471E+000 -9.2737426410E+000  +6.3695523138E-002 +3.0347835066E+000  +6.1268937697E-002 +1.4625792390E+001  +1.3075368593E+000 -1.0437529495E+001 
7517710.889 +1.0422652538E+000 -1.2433771797E+000  +5.2827334535E-002 +7.0716980343E+000  +5.5629022190E-002 +9.4318417918E+000  +1.2609690192E+000 -5.6865535593E+000 
7642856.070 +1.1472506710E+000 -1.2403960606E+000  +4.4460154446E-002 +4.8742531857E+000  +5.1207324851E-002 +1.4568752659E+001  +9.1878593523E-001 +5.4879541421E-001 
7768001.252 +9.3394569444E-001 +3.4947123766E+000  +4.0859426381E-002 -2.3979843465E+000  +4.5860738138E-002 +8.2391927709E+000  +8.8360322581E-001 -3.6099950972E+000 
7893146.433 +7.5001312934E-001 +1.8627281608E+000  +4.0817053111E-002 +6.6136963980E+000  +3.8646031337E-002 +8.9766795478E+000  +9.4431494704E-001 -4.7473964425E-001 
8018291.615 +7.3709723800E-001 +7.6781793500E+000  +4.5982352796E-002 +1.4430807190E+000  +4.4517659732E-002 +6.2412222124E+000  +8.0385174041E-001 -6.5315116470E-001 
8143436.796 +6.8205304764E-001 +6.9507830713E+000  +4.0250135019E-002 -2.9490131334E+000  +4.1549607056E-002 +1.9540894920E+001  +8.5532398770E-001 -1.0863482899E+000 
8268581.977 +6.7772240375E-001 +1.2152605471E+001  +3.7841272087E-002 +3.5062332599E+000  +4.1153667772E-002 +1.9333864472E+001  +7.4045373818E-001 +5.4664258525E+000 
8393727.159 +6.4141755100E-001 +8.1579933865E-001  +4.2698162362E-002 -1.5818819652E-001  +4.2518095051E-002 +1.3956763419E+001  +6.7542407549E-001 -8.6876061851E-001 
8518872.340 +7.0189606905E-001 +1.1559349034E+001  +3.6184921678E-002 +4.3733118931E-001  +4.5059019934E-002 +2.3711448245E+001  +6.8695429844E-001 +6.5034737631E+000 
8644017.522 +6.4769386358E-001 +1.0854601154E+001  +3.9889590373E-002 +5.2964877336E+000  +4.0812536681E-002 +1.1148252178E+001  +7.2464691310E-001 +4.5038481147E+000 
8769162.703 +6.0352026663E-001 +3.4626300139E+000  +3.8001488913E-002 -4.6521273395E+000  +4.0299570276E-002 +1.1396686875E+001  +5.8627339959E-001 +6.7583484427E+000 
8894307.885 +5.9665449755E-001 -1.0980499063E-001  +3.4693338775E-002 +7.3353503366E-001  +4.0152250228E-002 +1.6592803476E+001  +6.1698242787E-001 +2.4742811713E+000 
9019453.066 +6.1543983016E-001 +5.0132780133E+000  +3.7414249469E-002 +6.7260034447E+000  +4.1257843542E-002 +1.3890436912E+001  +5.7704736209E-001 -1.6031049321E+000 
9144598.248 +5.7971121847E-001 +5.2633298231E+000  +3.9177370440E-002 -1.6282457363E+000  +3.9564435555E-002 +1.1409776970E+001  +6.1009453883E-001 -1.0398896675E-001 
9269743.429 +5.8280999001E-001 +4.7651061797E+000  +3.7656472268E-002 +4.2328528937E+000  +3.9664850856E-002 +1.9745648212E+001  +5.1019243288E-001 +1.7439328422E+000 
9394888.611 +5.0704867200E-001 -6.8573180376E-002  +4.1289142611E-002 +3.5141060353E+000  +3.5754501505E-002 +1.2325879724E+001  +5.5258705733E-001 -7.7023896116E+000 
9520033.792 +5.3093260677E-001 +9.7927829053E-001  +3.6296710220E-002 +4.6938809557E-001  +3.8113047958E-002 +1.9860056387E+001  +5.7188246390E-001 -2.5522573330E+000 
9645178.974 +5.0378043854E-001 +1.6074877686E+000  +3.9832186128E-002 -3.6030790418E+000  +3.7362259924E-002 +2.0493182952E+001  +5.4195133447E-001 -5.9476436271E+000 
9770324.155 +4.1973537906E-001 -2.0496995422E+000  +4.1099985834E-002 -1.8900810389E+000  +3.7581248602E-002 +1.6111306184E+001  +5.4954406996E-001 -5.6991120966E+000 
9895469.337 +5.3963003355E-001 -5.1999356568E+000  +4.0571313157E-002 -3.4457550392E-001  +3.8787815178E-002 +2.0355883350E+001  +5.2122398896E-001 -7.8790291801E+000 
10020614.518 +5.4828290045E-001 -2.7807712560E+000  +3.7687942433E-002 -6.9347687764E-001  +3.8644720999E-002 +1.4803371905E+001  +5.3954387356E-001 -5.2136356949E+000 
10145759.700 +5.2729759382E-001 +4.1976931126E+000  +3.7634555988E-002 +2.6376637085E+000  +3.7812213190E-002 +1.5984890296E+001  +5.3762167958E-001 -4.8622522690E+000 
10270904.881 +5.0315912441E-001 +4.8759224071E+000  +3.8710944714E-002 +3.4646938560E+000  +3.8737897226E-002 +1.8331237908E+001  +5.4651271974E-001 -2.6909978710E+000 
10396050.063 +5.1865551595E-001 +7.3697470515E+000  +3.6239587634E-002 +5.5584066266E+000  +4.0155823917E-002 +1.5110461097E+001  +5.1192044362E-001 -3.0894714194E-001 
10521195.244 +5.4122023823E-001 +8.1667210999E+000  +3.9588991063E-002 +3.2182729280E+000  +3.6897398225E-002 +1.9036707796E+001  +5.2603702597E-001 +3.6390597588E+000 
10646340.426 +5.5254105002E-001 +5.3761404088E+000  +4.0203961285E-002 +3.2420602320E+000  +3.9500973068E-002 +2.0546988167E+001  +5.3232682774E-001 -1.5698755099E+000 
10771485.607 +5.4491532267E-001 +8.9049088506E+000  +3.9170066729E-002 +4.5663671582E+000  +3.7755181305E-002 +2.1480019203E+001  +5.8563943734E-001 +5.6240620963E-001 
10896630.788 +5.2260368507E-001 +8.5666672239E+000  +3.8033878766E-002 +1.2054666558E+000  +3.8059331250E-002 +1.8545191650E+001  +5.8318051359E-001 +2.6387422335E+000 
11021775.970 +5.6532971583E-001 +6.3208010134E+000  +3.9545816544E-002 +4.2037665313E+000  +3.7236026756E-002 +1.8761436981E+001  +5.6007516898E-001 +2.0918867299E+000 
11146921.151 +5.4381723344E-001 +5.6352348337E+000  +3.8802070339E-002 +6.2849261325E+000  +3.9616123937E-002 +1.2319191055E+001  +5.7720988914E-001 +1.0833386048E+000 
11272066.333 +5.6226018677E-001 +4.4534125073E+000  +4.3095982274E-002 +1.0828716883E+001  +4.1037709950E-002 +1.9523753911E+001  +6.0083888734E-001 +4.4379430783E+000 
11397211.514 +5.5363700758E-001 +6.1133207442E+000  +4.0595847099E-002 +8.1506617945E+000  +4.0962793621E-002 +2.0137776624E+001  +5.9512181206E-001 +4.2502861568E+000 
11522356.696 +5.8557123113E-001 +6.7170614647E+000  +4.1594348042E-002 +6.3676994735E+000  +4.1633959865E-002 +1.5809809122E+001  +5.8795022133E-001 +3.7327239423E+000 
11647501.877 +5.7345877239E-001 +4.7688226720E+000  +4.2945580034E-002 +6.9876945833E+000  +3.9149383051E-002 +2.1238558353E+001  +6.0705246788E-001 +3.0306579714E+000 
11772647.059 +5.8384478419E-001 +5.9975614212E+000  +4.2121192080E-002 +7.3862452807E+000  +4.0983965703E-002 +1.6357377210E+001  +6.1795041986E-001 +7.2704537528E-001 
11897792.240 +6.2444817807E-001 +5.9751272874E+000  +4.2704732989E-002 +1.0889920071E+001  +4.3055603283E-002 +1.5192688015E+001  +6.2931531020E-001 -2.8638623854E-001 
12022937.422 +6.3287001610E-001 +5.5489185559E+000  +4.2732586423E-002 +8.1612141691E+000  +4.3328274444E-002 +1.7873649755E+001  +6.2664700182E-001 +1.9222263029E+000 
12148082.603 +6.3950529768E-001 +4.8139550104E+000  +4.4612490029E-002 +8.4499660683E+000  +4.3387268560E-002 +1.9123030459E+001  +6.6693941316E-001 +5.3653363137E-001 
12273227.785 +6.4415558103E-001 +4.4215776656E+000  +4.6474435834E-002 +8.6534567876E+000  +4.4277026414E-002 +1.7795829068E+001  +6.7662863883E-001 +7.8845134817E-001 
12398372.966 +6.6533379374E-001 +4.3806397701E+000  +4.5669234129E-002 +1.1201427634E+001  +4.4532152485E-002 +1.6126273282E+001  +6.6355321717E-001 -5.6258466580E-001 
12523518.148 +6.6718193292E-001 +2.7568052571E+000  +4.6991667994E-002 +8.8338392182E+000  +4.5189924463E-002 +1.7047502488E+001  +6.9980772064E-001 -2.1867797355E+000 
12648663.329 +6.9358123431E-001 +4.0231972731E+000  +4.5302007229E-002 +9.8057092332E+000  +4.5340309487E-002 +1.7625325007E+001  +6.9276681665E-001 -5.6770352838E-001 
12773808.511 +7.1330328384E-001 +1.8613203314E+000  +4.6187505785E-002 +9.3918461442E+000  +4.6441136455E-002 +1.6134966029E+001  +7.2066043206E-001 -2.6541985465E+000 
12898953.692 +7.3238050704E-001 +1.8121200099E+000  +4.5714559359E-002 +1.0788836402E+001  +4.6824190593E-002 +1.5702195341E+001  +7.2936375646E-001 -2.3080604836E-001 
13024098.874 +7.5482458006E-001 -5.5682003985E-001  +4.6725427872E-002 +1.0979576448E+001  +4.8252907491E-002 +1.4667092351E+001  +7.6096137273E-001 -2.5741266437E+000 
13149244.055 +7.5218841015E-001 +6.7987405783E-001  +4.6164446750E-002 +1.0077856241E+001  +4.5982806722E-002 +1.4223368199E+001  +7.7421784075E-001 -4.2428511479E+000 
13274389.237 +7.5684474242E-001 -1.8987140458E-001  +4.8889008137E-002 +9.6148997159E+000  +4.7448812280E-002 +1.2606302726E+001  +7.8374247196E-001 -1.3466613264E+000 
13399534.418 +7.9229248515E-001 -7.7495560846E-002  +4.8493378760E-002 +1.1391097451E+001  +4.8130192864E-002 +1.4728922024E+001  +8.1661554281E-001 -9.6678603016E-001 
13524679.599 +7.6746007688E-001 -1.1814981534E+000  +4.9934290247E-002 +8.2225122505E+000  +4.8205557895E-002 +1.3062180589E+001  +8.3245733258E-001 -2.3940801155E+000 
13649824.781 +8.1064129316E-001 -2.3435310280E+000  +4.7949389588E-002 +1.0783069315E+001  +4.8940252936E-002 +1.2885777716E+001  +8.2667593537E-001 -2.6483836912E+000 
13774969.962 +8.4215708348E-001 -2.3329938947E+000  +4.9636423587E-002 +9.8776912356E+000  +4.9281117370E-002 +1.3747324904E+001  +8.6024328951E-001 -1.6859130159E+000 
13900115.144 +8.3536053275E-001 -2.3433467559E+000  +5.0410869990E-002 +1.1878607107E+001  +4.8685431892E-002 +1.2652703251E+001  +8.6387813790E-001 -4.1465779428E+000 
14025260.325 +8.8204044898E-001 -3.6014980302E+000  +5.2065319579E-002 +1.0512239961E+001  +5.1225610937E-002 +9.9417909693E+000  +9.0104116351E-001 -3.8062916044E+000 
14150405.507 +8.9496212818E-001 -4.9006547642E+000  +5.0599972489E-002 +1.1599472258E+001  +5.0417436420E-002 +1.1841300494E+001  +9.0902376694E-001 -4.4445302268E+000 
14275550.688 +9.0624755243E-001 -4.5862591577E+000  +5.1393340230E-002 +9.7201599276E+000  +5.1174287428E-002 +1.1988879567E+001  +9.1939643458E-001 -5.0335619648E+000 
14400695.870 +8.9780372946E-001 -4.6373881465E+000  +5.0954069516E-002 +1.1419743445E+001  +5.0214786478E-002 +1.0500858780E+001  +9.3983216485E-001 -3.9540914237E+000 
