!  2-Port S-parameters saved by WinCal
! VAR MeasName=S-Parameters (CALIBRATED_DATA) read from VNA (P5004A)
! VAR MeasDate=28/08/2024 11:33:05
! VAR NAME=S2_r6c9_SET2_9k-100M_3
! VAR FILENAME=S2_r6c9_SET2_9k-100M_3.S2P
! VAR DATE=28/08/2024 11:33:05
! VAR PHYS_PORTS=1,2
! VAR ObjTypeName=DATASET
! VAR IndexType=Frequency
!
# Hz S MA R 50
9000.000 +1.0144178368E-001 -1.5394460029E+002  +1.3709095886E-002 -7.6400650236E+001  +3.0351447680E-003 +1.0063276368E+002  +2.4450122556E-001 -1.4316293529E+002 
134145.181 +1.1100758877E-001 +1.6951554040E+002  +2.0481107608E-004 +1.6456973020E+001  +1.4084138592E-004 +1.6561876943E+002  +2.4017672858E-001 -1.7057509699E+002 
259290.363 +1.1171777127E-001 +1.7043645530E+002  +6.1631005888E-004 -1.0989959209E+002  +3.0808451848E-004 -1.5134445956E+002  +2.4193056684E-001 -1.6798980612E+002 
384435.544 +1.1445969281E-001 +1.6959716353E+002  +5.0855022822E-004 -5.4623247910E+001  +4.0260956095E-004 +8.2075620251E+001  +2.4464204917E-001 -1.6922837802E+002 
509580.726 +1.1562226825E-001 +1.7040396727E+002  +1.0099315856E-003 -6.8601285419E+001  +1.7103291819E-003 -6.4788649977E+001  +2.5274839918E-001 -1.6698630082E+002 
634725.907 +1.1816010257E-001 +1.7136172018E+002  +1.5855733140E-003 +1.2846486311E+002  +1.5209952307E-003 +1.0308956834E+002  +2.7407781817E-001 -1.6495316805E+002 
759871.089 +1.2038908702E-001 +1.7119154859E+002  +5.2113064307E-004 +1.2117337111E+002  +5.0539853390E-004 -7.7891570006E+000  +2.5498281015E-001 -1.6536729534E+002 
885016.270 +1.2016561293E-001 +1.6907153246E+002  +4.8711410971E-004 -8.9055433940E+001  +5.4093192543E-004 -1.2825350494E+002  +2.5033006609E-001 -1.6585320004E+002 
1010161.452 +1.1908167499E-001 +1.7159033847E+002  +8.6919624512E-004 +4.3582287774E+001  +1.1653890172E-003 -1.7283558205E+002  +2.0049157337E-001 -1.6753980238E+002 
1135306.633 +1.1568679030E-001 +1.6737758173E+002  +6.8435914636E-004 -1.1389067811E+002  +2.2848508692E-003 -3.4452701679E+001  +1.7930603261E-001 -1.4774961355E+002 
1260451.815 +1.2311632484E-001 +1.6988783072E+002  +2.1945086824E-003 -1.3421912193E+002  +2.3739706875E-003 -6.2593943324E+000  +1.8575242069E-001 -1.6505857775E+002 
1385596.996 +1.2891586944E-001 +1.7380127479E+002  +4.5665119636E-004 -1.2177353262E+000  +1.4068852481E-003 +1.7382730556E+002  +2.6548445080E-001 -1.5894848026E+002 
1510742.178 +1.2906942310E-001 +1.7149002426E+002  +9.2319714246E-004 -8.5311002758E+001  +1.0252567892E-003 -1.1030249917E+001  +2.7029379695E-001 -1.5247208401E+002 
1635887.359 +1.2806597543E-001 +1.7082841744E+002  +1.7926241224E-003 -1.7198977576E+001  +3.7171319213E-004 +6.2739503672E+001  +2.6637063643E-001 -1.5695253372E+002 
1761032.541 +1.3058604929E-001 +1.6957076533E+002  +7.7709618165E-004 +5.2973536280E+001  +2.7199266902E-004 -1.1491423367E+002  +2.3940950487E-001 -1.5868218844E+002 
1886177.722 +1.2987877867E-001 +1.6850383621E+002  +2.1994246272E-003 -1.2495556683E+002  +8.5890189251E-004 +9.3833890080E+001  +2.2672811098E-001 -1.6205233793E+002 
2011322.904 +1.2982740080E-001 +1.6808456069E+002  +1.8626448057E-003 +4.2691367631E+001  +6.5051776670E-004 -7.0410131790E+001  +2.1185772883E-001 -1.5528964775E+002 
2136468.085 +1.3051006646E-001 +1.6805128065E+002  +4.1497136581E-004 -1.2375400293E+002  +1.2757872400E-003 -1.7320718138E+002  +2.0519951606E-001 -1.7121260336E+002 
2261613.267 +1.2469289558E-001 +1.6533917092E+002  +2.1205018157E-003 +1.4810153915E+002  +3.9849931492E-003 +2.3317277682E+001  +1.1723082359E-001 +1.5984429600E+002 
2386758.448 +1.3068816624E-001 +1.6310197623E+002  +8.0920231646E-003 -9.8535677125E+001  +1.6811647850E-003 -1.0841151197E+002  +1.5279670222E-001 +1.5403331426E+002 
2511903.630 +1.3225710524E-001 +1.6476034528E+002  +2.7855488485E-003 +1.0302009751E+002  +3.8657975248E-003 +5.9467533934E+001  +2.2070274833E-001 +1.7044882435E+002 
2637048.811 +1.1605095535E-001 +1.6802670046E+002  +1.1014178944E-002 -1.7235863816E+002  +1.0194004295E-002 -8.4317716142E+001  +3.4819689023E-001 +1.5001906102E+002 
2762193.992 +1.2214164720E-001 +1.7248119752E+002  +8.7180156600E-003 -7.3268022109E+001  +5.2993505943E-003 +4.4980791793E+001  +3.3725659851E-001 -1.0291484230E+002 
2887339.174 +1.3516689527E-001 +1.6651382813E+002  +2.0481404293E-002 -1.7295420107E+002  +1.8679705292E-002 +8.1282140519E+001  +2.1695113392E+000 -1.5041696571E+002 
3012484.355 +1.0812326414E-001 -1.7298950579E+002  +5.5924648712E-003 -1.6594792183E+002  +9.0483823100E-003 +7.1347379529E+001  +3.0075069126E-001 -1.0649844480E+002 
3137629.537 +1.0587799568E-001 +1.7474863015E+002  +5.1522845166E-003 -1.4963935387E+002  +1.1756995557E-002 -3.3105439369E+001  +1.2026744539E-001 -6.3463023146E+001 
3262774.718 +1.2483331304E-001 +1.7862682761E+002  +3.2049400270E-003 -1.3776686066E+002  +5.6549747067E-003 +9.6744148615E+001  +1.7391887501E-001 -8.1629448922E+001 
3387919.900 +1.2627976178E-001 +1.5600451195E+002  +1.2423041727E-002 +6.9507777668E+001  +5.7558314927E-003 -1.6881322453E+002  +2.5678464680E-001 +1.1511087548E+002 
3513065.081 +1.4866623327E-001 +1.5645603767E+002  +2.9766988656E-002 +1.1778825473E+002  +1.6433914422E-002 +9.0577796480E+001  +1.5531025447E+000 +3.5284062167E+001 
3638210.263 +1.5822340405E-001 +1.4831576125E+002  +1.2434913246E-002 -1.5079646914E+002  +2.0813454028E-002 -1.5313505542E+002  +6.6200642977E-001 +1.5979463813E+002 
3763355.444 +1.6145558115E-001 +1.4503575147E+002  +9.9124741163E-003 -3.0904943790E+001  +1.5349745110E-002 -1.7038719468E+002  +1.3894786232E+000 +9.8361181627E+001 
3888500.626 +1.7670313809E-001 +1.5284069373E+002  +4.4211252122E-003 +3.4222349115E+001  +2.0648376289E-003 -1.2689827286E+002  +3.3067726991E-001 +1.3278187556E+002 
4013645.807 +1.6314520390E-001 +1.4719545532E+002  +7.8901807427E-003 +1.3897567348E+002  +6.3555604443E-003 +3.5573243499E+001  +8.4574220287E-001 +1.1586386679E+002 
4138790.989 +1.6385301518E-001 +1.3942146700E+002  +1.3172134848E-002 +1.7090158102E+001  +2.6375541197E-003 -6.1906741882E+001  +4.4111358701E-001 +8.8920320225E+001 
4263936.170 +1.9575824216E-001 +1.4587647953E+002  +4.8088436719E-003 +8.2628876272E+001  +6.1349098064E-003 -1.0703321832E+002  +1.5216468156E-001 +6.0198275305E+001 
4389081.352 +1.7685987618E-001 +1.3603109129E+002  +1.1049090941E-002 +1.4993569844E+002  +2.8911749055E-002 +3.4558924707E+001  +7.0591340115E-001 +1.0950918328E+002 
4514226.533 +2.0461324246E-001 +1.3407351786E+002  +2.5395581281E-002 -1.4609581463E+001  +2.6398373843E-002 +9.1072968960E+001  +1.3531925946E+000 +1.4093957765E+002 
4639371.715 +4.2703193194E-001 +1.1662043139E+002  +5.5207064195E-002 -1.1599541730E+002  +6.4896476454E-002 -7.1526141719E+001  +1.5560454847E+000 +8.2057602891E+001 
4764516.896 +2.8431180432E-001 +1.3056100527E+002  +4.3815240137E-002 -1.2064909988E+002  +4.8884096435E-002 +1.2171779884E+002  +1.4168251901E+000 +5.7250994401E+001 
4889662.078 +4.4763162412E-001 +1.3182618259E+002  +1.1193878194E-001 -6.6402012317E+000  +7.3763009855E-002 +1.1127120405E+001  +5.9996756504E+000 -1.0559987582E+002 
5014807.259 +3.6007811463E-001 +1.3308378342E+002  +1.5237393367E-002 +8.1858145169E+001  +2.3931871495E-002 -1.4425229117E+002  +2.5431154070E+000 -6.5531739914E+001 
5139952.441 +5.1647851979E-001 +1.2448352447E+002  +6.6308785274E-002 -1.1603247056E+002  +1.1627837998E-001 -5.4209568619E+000  +3.5985373683E+000 +1.1751235004E+002 
5265097.622 +3.5375529450E-001 +1.3111128560E+002  +3.4533628823E-002 -1.5352186496E+002  +4.2864666613E-002 -1.2121566640E+002  +4.1934566334E+000 +9.0139230915E+001 
5390242.804 +4.1675015025E-001 +1.3178324714E+002  +1.1550506532E-002 +2.7172252381E+001  +6.1576654472E-003 -1.4631706768E+001  +1.9824043225E+000 +7.8480360907E+001 
5515387.985 +4.4557957426E-001 +1.2555708394E+002  +2.3814612993E-002 +1.5704566835E+002  +2.1621767572E-002 +4.7258459456E+001  +2.0505870289E+000 +8.9521145373E+001 
5640533.166 +5.1826279912E-001 +1.2770787186E+002  +1.2700567942E-003 +5.3797396576E+001  +2.0970245016E-002 -1.6572660511E+002  +1.3306083350E+000 +5.4294000127E+001 
5765678.348 +5.7058449414E-001 +1.2213276758E+002  +9.8635933840E-003 +1.0208189620E+001  +1.3010460415E-002 +7.6140565268E+001  +1.9398409483E+000 +4.9254042042E+001 
5890823.529 +5.6800800916E-001 +1.0248019652E+002  +4.8339575430E-002 -1.3822234762E+002  +2.1163854720E-002 -1.3692075574E+002  +2.2641572522E+000 +5.3065056547E+001 
6015968.711 +7.5278924966E-001 +1.1750810119E+002  +1.6920486902E-002 -1.4975060783E+001  +1.9130841328E-002 -1.7880998349E+002  +2.6691839947E+000 +5.9938938935E+001 
6141113.892 +8.5804786145E-001 +1.0402866096E+002  +1.0260638871E-002 -3.8227828303E+001  +4.1414335540E-002 +1.0713940434E+002  +1.4060303084E+000 +3.4838598525E+001 
6266259.074 +8.2795778768E-001 +9.9417532349E+001  +1.8254963070E-002 -1.2706713804E+002  +1.1531151424E-002 -2.6197402272E+001  +1.8315530250E+000 +1.7347954034E+001 
6391404.255 +8.9729207473E-001 +9.4523866546E+001  +4.5497385679E-002 -3.7499505105E+001  +2.3040142699E-002 +7.0820329652E+001  +2.0885053358E+000 +2.6384232305E+001 
6516549.437 +1.1437639715E+000 +9.1460651288E+001  +3.3097699229E-002 +6.8740200418E+001  +1.0086921751E-002 -1.2338087415E+002  +1.5251741879E+000 -2.0296255026E+000 
6641694.618 +1.6802009928E+000 +6.8073769169E+001  +2.1428905181E-002 +1.4671254311E+002  +3.7832212306E-002 -4.2023473278E+001  +1.5059288891E+000 -2.6734212778E+000 
6766839.800 +1.8777608831E+000 +5.1179404362E+001  +2.2312095267E-002 +1.6356529602E+002  +2.7525116301E-002 +1.4622039622E+002  +1.3474983994E+000 -1.0133449090E+000 
6891984.981 +1.6285137066E+000 +3.0148491962E+001  +1.2752831619E-002 +1.5102523617E+002  +9.6297564387E-003 +6.4445519669E+000  +1.4314542643E+000 +2.3060632437E+000 
7017130.163 +1.6896157638E+000 +2.4178548670E+001  +2.5596014344E-002 -7.7022681792E+000  +2.0427986251E-002 -3.5928027702E+001  +1.3682285932E+000 -1.2571756416E+001 
7142275.344 +1.3937784132E+000 +6.9932167495E+000  +2.3166658285E-002 +2.3398627868E+001  +1.0547413674E-002 +7.7928272232E+001  +1.2293988432E+000 -1.1173583873E+001 
7267420.526 +1.5784891454E+000 +5.2866797358E+000  +1.3992815123E-003 +1.6303491969E+002  +1.3011786731E-002 +2.5850245184E+001  +1.3392313466E+000 -1.1938881332E+001 
7392565.707 +1.3554682467E+000 -5.9484172792E-001  +4.4890523667E-003 +1.0613868403E+002  +1.2780068888E-002 -1.5493852445E+002  +1.5051413503E+000 -1.0605174183E+001 
7517710.889 +1.1544362300E+000 +1.4443836669E+000  +1.4210940706E-002 +1.5334339616E+002  +4.2901171150E-003 -6.3133604148E+001  +1.2909522109E+000 -8.8036564236E+000 
7642856.070 +1.0929108362E+000 +1.2282818499E+000  +8.5214678596E-003 +2.7526667132E+001  +1.8632780962E-003 -1.5481373003E+002  +1.1191208674E+000 -2.1398143026E+000 
7768001.252 +9.3118324147E-001 +3.6770133534E+000  +6.6185498748E-003 +5.8706969785E+001  +5.8371469603E-003 +1.7148394887E+002  +1.0413973282E+000 -5.3976885448E+000 
7893146.433 +8.6032504126E-001 -1.0975287941E+000  +8.9669374568E-003 +1.6770540543E+002  +4.9910288185E-003 +1.2934201691E+002  +9.1233480440E-001 -7.6607315222E+000 
8018291.615 +8.8444717994E-001 -1.3294624698E+000  +9.3371311519E-003 +1.2173515383E+002  +8.7847862095E-003 +5.8559705073E+001  +8.4655817437E-001 -6.2326035289E+000 
8143436.796 +7.2595020565E-001 +1.2792093988E+000  +6.5311234768E-003 +9.2494441989E+001  +3.3120733768E-003 +1.3558511385E+002  +8.0396988133E-001 -4.2215216773E+000 
8268581.977 +7.0460571595E-001 +7.4884889428E+000  +3.9731472364E-003 +4.1670415556E+001  +7.0530117768E-004 -1.4351959145E+002  +7.2860722939E-001 +6.7204291025E-001 
8393727.159 +7.2546859980E-001 +8.9483040387E+000  +4.1735056053E-003 +9.8640591775E+001  +1.9017227916E-003 +1.4890380082E+001  +7.3232458878E-001 +3.3666291961E+000 
8518872.340 +6.7355722300E-001 +8.3157935689E+000  +2.5092828600E-003 +1.0604136825E+001  +3.9422551275E-003 -1.5634837067E+002  +7.2753515688E-001 +4.2465271609E+000 
8644017.522 +6.0734909082E-001 +4.9314851245E+000  +5.4798477117E-003 +1.4466387037E+002  +7.8621078319E-003 +7.7949187625E+001  +6.8909823480E-001 +9.6447276098E-001 
8769162.703 +6.4542191930E-001 +1.0552270680E+001  +3.8712015841E-003 +1.2308214133E+002  +3.2467117161E-003 +1.4927619638E+002  +6.4907168515E-001 +4.4731213675E-001 
8894307.885 +6.0534348004E-001 +5.2635009241E+000  +7.6089492235E-003 +7.8732027906E+001  +4.0884463525E-003 +7.3420153428E+001  +6.5951220490E-001 -3.8646493417E+000 
9019453.066 +6.1379276778E-001 +9.2043673132E+000  +3.3304986727E-003 +8.6418774976E+001  +7.0178113429E-003 +9.0914616022E+001  +6.8379502456E-001 -2.2908704383E+000 
9144598.248 +5.9307736347E-001 +2.8787979530E+000  +4.1898163479E-003 +8.6514756574E+001  +8.1314566997E-003 +9.3406956814E+001  +5.9324588687E-001 +1.1581839012E+000 
9269743.429 +6.0611746143E-001 +5.2194327776E+000  +2.0501313206E-003 -1.9289099478E+001  +5.5470753503E-003 +1.3326804979E+002  +6.0156897414E-001 -9.2370105756E+000 
9394888.611 +5.5503985521E-001 +6.0403801847E+000  +5.5621949870E-004 -4.6506188138E+001  +2.3684876006E-003 +4.4684537385E+001  +5.8623648266E-001 -5.1291345570E-001 
9520033.792 +5.5270453585E-001 +3.7968046871E+000  +8.0431390887E-003 +1.0119715456E+002  +6.3109614873E-003 +1.1901888043E+002  +5.8977932478E-001 -2.3088968684E+000 
9645178.974 +5.4418716158E-001 +2.6122713524E+000  +3.8291972589E-003 +1.0574493490E+002  +6.0706650024E-003 +6.2213978658E+001  +5.8255000023E-001 -6.4593919108E+000 
9770324.155 +5.0120150867E-001 +2.6333918453E+000  +5.4035830226E-003 +1.1295142741E+002  +5.2404557348E-003 +1.2100132822E+002  +6.0096902721E-001 -7.4335865394E+000 
9895469.337 +5.2851776421E-001 -2.1433754751E+000  +5.5112975574E-003 +1.0219855616E+002  +5.0710958807E-003 +1.1128235790E+002  +5.6944145525E-001 -7.8700148498E+000 
10020614.518 +5.4929309286E-001 +4.3159044047E+000  +3.5890945634E-003 +2.5520658226E+001  +2.4844598286E-003 +9.1333917737E+001  +5.7885668636E-001 -5.6386848684E+000 
10145759.700 +5.2771288593E-001 +4.3404200883E+000  +3.6483608407E-003 +5.1666252538E+001  +5.5585540439E-003 +7.6463976672E+001  +5.6138643674E-001 -5.7915335249E+000 
10270904.881 +5.3806416454E-001 +4.7059348282E+000  +5.3980298511E-003 +1.0481948271E+002  +2.3289039149E-003 +8.3953705443E+001  +5.8258304854E-001 -2.6047597775E+000 
10396050.063 +5.6969985558E-001 -1.1390006590E+000  +3.6826008529E-003 +9.9334115335E+001  +2.5059700872E-003 +1.3665816276E+002  +6.0353340845E-001 -3.5132723121E-001 
10521195.244 +5.4723673988E-001 +1.0314745053E+001  +4.3252698604E-003 +1.3201122992E+002  +5.1903912511E-003 +1.0626242822E+002  +5.8477879170E-001 -1.2303995608E+000 
10646340.426 +6.0362482394E-001 +6.0981149057E+000  +3.2348420278E-003 +1.1775381511E+002  +3.7415660179E-003 +1.4338854689E+002  +6.1079373587E-001 +1.9601903824E+000 
10771485.607 +5.7703653408E-001 +2.5932840342E+000  +5.3221300932E-003 +8.5857409701E+001  +2.0098126315E-003 +1.0200593258E+002  +6.1792373264E-001 +2.4890553861E+000 
10896630.788 +5.6605901546E-001 +3.7378770856E+000  +5.2024542326E-003 +1.0458528838E+002  +7.4455058647E-003 +9.7661755683E+001  +6.1463365179E-001 -1.3622742044E+000 
11021775.970 +5.9169650422E-001 +4.8217196476E+000  +5.6130321008E-003 +1.0225982650E+002  +4.0178220624E-003 +7.2081187759E+001  +5.6562331363E-001 -3.0049135161E-001 
11146921.151 +5.9019263342E-001 +7.7480831220E+000  +4.4645404577E-003 +9.1205388443E+001  +4.7666389811E-003 +1.0025494968E+002  +6.1886777520E-001 +3.9456937532E+000 
11272066.333 +6.0246081759E-001 +5.6786642781E+000  +5.6140315486E-003 +8.2767332334E+001  +4.5143993903E-003 +9.7498787963E+001  +6.6044088503E-001 -9.9488809350E-001 
11397211.514 +6.1356829623E-001 +6.3982519577E+000  +5.2788048403E-003 +8.0051722466E+001  +5.0046810212E-003 +7.4282312400E+001  +6.3265873918E-001 +2.8749525971E+000 
11522356.696 +6.5305961289E-001 +8.4463118051E+000  +4.9480959062E-003 +1.0336766146E+002  +5.5633965637E-003 +8.7736820383E+001  +6.1629486269E-001 -5.9259786316E-001 
11647501.877 +6.3902501997E-001 +2.8926958745E+000  +7.1688135005E-003 +7.9700470824E+001  +4.8975791294E-003 +1.1855573970E+002  +6.8632243066E-001 +1.1775329950E+000 
11772647.059 +6.4143155552E-001 +5.9202929840E+000  +4.9680999570E-003 +8.5966612588E+001  +5.0495219735E-003 +1.0979399015E+002  +6.5917110759E-001 +2.1904786534E+000 
11897792.240 +6.6862843481E-001 +5.9727611081E+000  +4.7738773200E-003 +8.6370053112E+001  +5.0165527372E-003 +9.0711221127E+001  +6.3810043244E-001 -1.5652847655E+000 
12022937.422 +6.7522128817E-001 +5.6800666475E+000  +3.8080938886E-003 +9.6517254200E+001  +3.2877276627E-003 +8.7509130227E+001  +7.0160255866E-001 +1.5243597961E+000 
12148082.603 +7.0484907386E-001 +3.3825055503E+000  +7.0795928994E-003 +1.0962886892E+002  +6.1494111280E-003 +9.4689503027E+001  +7.1428921950E-001 -3.8569497249E-001 
12273227.785 +6.9657092156E-001 +3.1545128180E+000  +3.9913728584E-003 +9.8619124817E+001  +4.8614585644E-003 +1.0297501185E+002  +7.0939688044E-001 +1.2849115035E+000 
12398372.966 +7.0608319397E-001 +4.8624410311E+000  +6.6083869891E-003 +8.3362267376E+001  +6.5515518985E-003 +8.8592233181E+001  +6.9905039211E-001 +7.4424781163E-001 
12523518.148 +7.4566366554E-001 +3.0566656337E+000  +7.3342871182E-003 +7.1150355543E+001  +6.6957747691E-003 +9.3601714494E+001  +7.4972437207E-001 -9.0615308013E-002 
12648663.329 +7.4392786182E-001 +4.1909839384E+000  +7.0374806678E-003 +8.8460284453E+001  +6.3059521027E-003 +9.0230964076E+001  +7.6436097374E-001 -6.8861057378E-001 
12773808.511 +7.4340758549E-001 +2.0275636143E+000  +5.7536143939E-003 +9.9804353818E+001  +6.1504863664E-003 +7.3049803081E+001  +7.7298742676E-001 -1.4109464229E+000 
12898953.692 +7.9069110702E-001 +3.9971611959E+000  +6.6408165013E-003 +8.8455693407E+001  +6.4146898556E-003 +1.0281600321E+002  +7.9841918381E-001 -5.3506846729E-001 
13024098.874 +7.9139377028E-001 -6.0091316045E-001  +5.4222482140E-003 +9.5872794702E+001  +5.9270681324E-003 +9.4459244301E+001  +7.9810979372E-001 -2.4165013379E+000 
13149244.055 +8.1162727293E-001 -8.1159503489E-001  +6.2343006957E-003 +8.6431728741E+001  +6.3874303190E-003 +1.0192084671E+002  +7.9295725653E-001 -1.6055881415E+000 
13274389.237 +8.2853402787E-001 -1.7300495683E+000  +6.0127371868E-003 +9.6612506323E+001  +6.6418596173E-003 +9.2396889593E+001  +8.4720105416E-001 -1.6038043602E+000 
13399534.418 +8.3079175520E-001 -1.2641974991E+000  +8.1003162975E-003 +9.1946241762E+001  +6.5500304781E-003 +9.7602568263E+001  +8.4999549239E-001 -2.9864870953E+000 
13524679.599 +8.7159692894E-001 -3.8437279047E+000  +7.2625096015E-003 +9.4149479022E+001  +6.9707222007E-003 +9.3540008854E+001  +8.6004530413E-001 -3.5438600039E+000 
13649824.781 +8.7351799936E-001 -2.4232331653E+000  +5.6884138384E-003 +8.8097926932E+001  +6.4553650363E-003 +9.0992986174E+001  +8.5886572168E-001 -4.3127226667E+000 
13774969.962 +8.9785629855E-001 -3.0948013504E+000  +7.3266219900E-003 +9.2609380918E+001  +7.2818444924E-003 +9.8599394451E+001  +9.0274018060E-001 -2.2657856282E+000 
13900115.144 +9.0834385486E-001 -4.2922685091E+000  +6.3399852758E-003 +8.6121520971E+001  +5.9957941769E-003 +9.5244830106E+001  +9.3488267247E-001 -2.4864924738E+000 
14025260.325 +9.3006485942E-001 -3.3559726826E+000  +6.7269494999E-003 +9.7944907696E+001  +6.0829154067E-003 +9.2222267535E+001  +9.4045957331E-001 -4.4025013187E+000 
14150405.507 +9.4243271743E-001 -4.1992774695E+000  +6.6794800982E-003 +8.3275647955E+001  +5.6805900080E-003 +8.6498338027E+001  +9.5550687278E-001 -4.8481152389E+000 
14275550.688 +9.5781085758E-001 -5.4659424834E+000  +6.1766835704E-003 +9.7394885080E+001  +7.7219969365E-003 +9.0993943639E+001  +9.8193168147E-001 -5.6460984330E+000 
14400695.870 +9.8484304851E-001 -6.5702537390E+000  +7.8782868809E-003 +8.4399269358E+001  +8.5553060610E-003 +9.6030000225E+001  +9.8872074710E-001 -4.4212732321E+000 
