!  2-Port S-parameters saved by WinCal
! VAR MeasName=S-Parameters (CALIBRATED_DATA) read from VNA (P5004A)
! VAR MeasDate=27/08/2024 14:24:26
! VAR NAME=S2_r2c8_SET2_9k-100M_3
! VAR FILENAME=S2_r2c8_SET2_9k-100M_3.S2P
! VAR DATE=27/08/2024 14:24:26
! VAR PHYS_PORTS=1,2
! VAR ObjTypeName=DATASET
! VAR IndexType=Frequency
!
# Hz S MA R 50
9000.000 +8.5113124570E-002 -1.4789289935E+002  +1.3543697300E-002 +1.5596546312E+001  +2.1046582868E-002 -1.3880416199E+002  +3.2578381399E-001 -1.2210903877E+002 
134145.181 +1.1120790705E-001 +1.6968865946E+002  +2.1984854922E-004 -8.2701626912E+001  +5.9162741171E-004 -1.6713610024E+002  +2.3679174873E-001 -1.7056793735E+002 
259290.363 +1.1194179842E-001 +1.6942040313E+002  +5.5621132789E-004 -2.3276307299E-001  +9.3581645520E-004 -1.8329910150E+001  +2.4399428544E-001 -1.6885354810E+002 
384435.544 +1.1292824736E-001 +1.7073784805E+002  +7.0674803699E-004 -9.6251639896E+001  +4.4426500235E-004 +1.5866761423E+002  +2.4191049209E-001 -1.6894785480E+002 
509580.726 +1.1435715425E-001 +1.7037344449E+002  +1.2508654720E-003 +1.4215535464E+002  +1.0016284228E-003 +1.0307907521E+002  +2.3900893209E-001 -1.6405339827E+002 
634725.907 +1.1531941184E-001 +1.7028033339E+002  +3.2344794588E-004 +3.6409574719E+000  +1.1005842858E-003 +4.3406169219E+001  +2.4154024519E-001 -1.6701677273E+002 
759871.089 +1.1949172983E-001 +1.7116398609E+002  +3.8794406915E-004 -4.7579655196E+001  +3.4789375653E-004 +2.5249947875E+001  +2.3829316742E-001 -1.6595160306E+002 
885016.270 +1.1835252075E-001 +1.6903640801E+002  +4.8364587096E-004 +4.9457675073E+001  +9.2104891148E-004 +1.6308277509E+002  +2.4162096389E-001 -1.6619984597E+002 
1010161.452 +1.1675368379E-001 +1.7176001693E+002  +2.1411155853E-003 -2.9651763736E+001  +9.8588911333E-004 -1.4484257140E+002  +1.8713219554E-001 -1.5577712316E+002 
1135306.633 +1.1513018353E-001 +1.6971508650E+002  +1.9910321634E-003 -1.3457394702E+002  +2.9877978142E-004 +4.9567124300E+001  +1.8432609107E-001 -1.6100375613E+002 
1260451.815 +1.1870561543E-001 +1.7154795786E+002  +1.1907945146E-003 -9.9343369397E+001  +1.2764658588E-003 +1.7747126816E+002  +2.3965662122E-001 -1.5728335018E+002 
1385596.996 +1.2579796318E-001 +1.7209351980E+002  +1.1632040238E-003 -6.8305133682E+001  +1.5032753463E-003 +9.2455927138E+001  +2.4522687953E-001 -1.5696739340E+002 
1510742.178 +1.2415993570E-001 +1.7090318950E+002  +9.5674724076E-004 -1.5769838231E+002  +1.4035372857E-003 -1.5448035699E+002  +2.5112752265E-001 -1.5715512624E+002 
1635887.359 +1.2955064548E-001 +1.6988631702E+002  +1.2326212551E-003 +6.3332623259E+001  +1.6227904820E-003 +1.2062576193E+002  +2.4963334386E-001 -1.5801813330E+002 
1761032.541 +1.2742782349E-001 +1.6986845796E+002  +1.3216152575E-003 -8.1088592010E+001  +1.3067622086E-003 +1.2438942424E+002  +2.2957181171E-001 -1.5746036870E+002 
1886177.722 +1.2718899078E-001 +1.6780820260E+002  +3.1178314375E-003 +1.4931047691E+002  +2.3149131037E-003 -4.7875911706E+001  +1.9854861709E-001 -1.6671364336E+002 
2011322.904 +1.3152277995E-001 +1.6725325993E+002  +3.2345140546E-004 -1.3393987633E+001  +1.6153330924E-003 -1.0971836566E+002  +1.7985841327E-001 -1.7359978728E+002 
2136468.085 +1.3609972972E-001 +1.6598765413E+002  +3.2496800112E-003 +1.3872152590E+002  +2.3498389546E-004 -1.5373370798E+002  +2.0835911880E-001 +1.7035937314E+002 
2261613.267 +1.3624178513E-001 +1.6113795218E+002  +3.2764034703E-003 -1.6079730750E+002  +1.5326539821E-003 +3.6324958390E+001  +2.7324944085E-001 +1.6802358578E+002 
2386758.448 +1.3850301434E-001 +1.6439667391E+002  +3.5338993867E-003 +6.7649887126E+001  +5.8009742412E-003 -1.0498537511E+002  +1.8439097822E-001 -1.7913963751E+002 
2511903.630 +1.3042084065E-001 +1.5637296802E+002  +3.5454102137E-003 +9.9253209139E+001  +6.7602614531E-003 -2.5073724043E+001  +1.4561010870E-001 +1.7767113134E+002 
2637048.811 +1.2770327014E-001 +1.5680953082E+002  +2.3200634915E-002 +5.5242127706E+001  +7.6959722112E-002 -8.2424008889E+000  +6.4904491026E-001 +3.7863084988E+001 
2762193.992 +6.9289262067E-002 +1.6184931802E+002  +1.3386077489E-001 +1.0777866793E+002  +9.8924228086E-002 +2.5438590689E+001  +1.7466640375E+000 +1.1962516712E+002 
2887339.174 +1.1742595730E-001 +1.7396329046E+002  +2.0355304925E-002 -1.9303779809E+001  +1.3876616672E-002 +1.5739031259E+002  +8.2327700231E-001 -1.0613375887E+002 
3012484.355 +1.0075851129E-001 +1.7920266311E+002  +1.0340802601E-002 -7.7352904609E+001  +1.0814042499E-002 +1.6218577422E+002  +4.4654583430E-001 -1.0595899445E+002 
3137629.537 +1.0134012050E-001 +1.7106594421E+002  +2.1701998103E-002 -4.9456553738E+001  +2.6246725314E-002 -1.3169473578E+002  +2.2342875432E-001 -7.8429032496E+001 
3262774.718 +8.6726097247E-002 +1.6841327611E+002  +1.3145983994E-002 -6.3573963434E+001  +1.7051734471E-002 -1.5370756593E+002  +3.8763704472E-001 -1.0374037541E+002 
3387919.900 +1.3711593364E-001 +1.4623161379E+002  +1.9473875687E-002 +8.1852911824E+001  +3.4723268260E-002 -3.5858159513E+001  +2.9749936921E-001 +3.5896028441E+001 
3513065.081 +1.4985831647E-001 +1.5752518168E+002  +1.5448383189E-002 +1.2225940285E+002  +2.1028096825E-002 +1.1986508804E+001  +4.1619684761E-001 +1.1918338668E+002 
3638210.263 +1.2869195360E-001 +1.3487146795E+002  +5.5826636722E-002 +7.6648737055E+001  +7.3831105119E-002 -1.7380176927E+001  +5.4412225802E-001 +6.9614230712E+001 
3763355.444 +1.8507618432E-001 +1.4202598155E+002  +5.2307096874E-002 +1.7873567792E+002  +7.2454536542E-002 +6.0340035389E+001  +1.9321991828E+000 +1.3814352772E+002 
3888500.626 +1.3245472825E-001 +1.4198269669E+002  +2.0459389690E-002 +9.6809992391E+001  +2.0537230935E-002 +1.7366273864E+001  +5.6922284673E-001 +1.2546301756E+002 
4013645.807 +1.5990225776E-001 +1.4001206838E+002  +2.7111851829E-002 +9.0045637049E+001  +2.2014572493E-002 +7.7566406672E+000  +4.7734127429E-001 +1.0464106785E+002 
4138790.989 +2.1198198026E-001 +1.5196580999E+002  +2.1556492443E-002 +8.4042857068E+001  +1.3104065134E-002 +2.6086610334E+001  +3.7524866377E-001 +1.2444275415E+002 
4263936.170 +2.0127002604E-001 +1.4580632748E+002  +1.1623959455E-002 +1.2311911397E+002  +1.3873382448E-002 +4.9671148375E+001  +2.4320463858E-001 +1.2977815713E+002 
4389081.352 +2.1496172016E-001 +1.3226539128E+002  +2.9679257152E-002 +1.0801299117E+002  +3.2847724304E-002 +4.6006737606E+001  +6.5196974696E-001 +9.8333890184E+001 
4514226.533 +2.6499127356E-001 +1.2964290841E+002  +9.9198183097E-002 -1.7922825486E+002  +1.1795894563E-001 +1.3056465436E+002  +2.3844072355E+000 +1.4876410807E+002 
4639371.715 +2.6107606277E-001 +1.1822896862E+002  +1.5249935373E-001 +7.8706153933E+001  +1.5427461326E-001 +1.1876988405E+001  +2.4331600119E+000 +4.1867906387E+001 
4764516.896 +3.2538566308E-001 +1.3241599236E+002  +2.4628397998E-001 +1.3430616263E+002  +1.7184440576E-001 +3.5777039068E+001  +5.4350060233E+000 +6.3678774030E+001 
4889662.078 +3.9732636847E-001 +1.2037615692E+002  +1.2071904123E-001 +1.8397256135E+001  +8.6177887158E-002 -2.6190763057E+001  +1.9187770134E+000 -5.3492184592E+001 
5014807.259 +3.5350279182E-001 +1.2884316309E+002  +1.3153158026E-001 +5.0183786391E+001  +1.0149858379E-001 -2.4154880821E+000  +3.0595036090E+000 +8.3648259505E+000 
5139952.441 +4.5561733490E-001 +1.2228464908E+002  +3.1528335086E-001 +1.1102307826E+002  +3.2360056697E-001 +8.1916052962E+001  +5.3767736416E+000 +6.9830625333E+001 
5265097.622 +3.6633113159E-001 +1.3513992746E+002  +4.1467995123E-002 +1.6343703321E+002  +7.7428082129E-002 +7.1375072850E+001  +1.9975679453E+000 +9.1530299134E+001 
5390242.804 +4.1533874434E-001 +1.2894992679E+002  +6.5975261578E-002 +1.7578269515E+002  +7.3468525481E-002 +1.2372536981E+002  +2.5099029898E+000 +1.3571800919E+002 
5515387.985 +4.5470039418E-001 +1.3308130851E+002  +8.5012468738E-002 +1.2024805580E+002  +6.1698701531E-002 +7.5822901840E+001  +2.5437843823E+000 +9.7559453233E+001 
5640533.166 +4.5432312541E-001 +1.2689937586E+002  +6.5313617770E-002 +9.7422484897E+001  +4.6657559288E-002 +6.5670760559E+001  +1.0758020224E+000 +9.0219876601E+001 
5765678.348 +5.5641404619E-001 +1.1832009044E+002  +1.3906912900E-001 +1.0325163309E+002  +1.5812821557E-001 +8.0270214041E+001  +3.8749985620E+000 +8.5468405696E+001 
5890823.529 +4.5522980070E-001 +1.2050368725E+002  +7.2628720337E-002 +6.6223498308E+001  +7.8572569066E-002 +2.6535826466E+001  +2.3789492398E+000 +5.3555264888E+001 
6015968.711 +6.1594939903E-001 +1.1748522162E+002  +1.0747965415E-001 +5.7186785548E+001  +1.2627476605E-001 +1.5336243762E+001  +3.2721886683E+000 +1.9658177051E+001 
6141113.892 +7.4196325151E-001 +1.2432462465E+002  +6.0611320717E-002 +8.3921792097E+001  +7.5114877854E-002 +7.2191527635E+001  +1.8982427170E+000 +5.2681331836E+001 
6266259.074 +8.8299456662E-001 +9.9400284495E+001  +8.6588079084E-002 +5.1120428131E+001  +7.8007272838E-002 +3.6288554860E+001  +1.3772555928E+000 +2.8097574450E+001 
6391404.255 +9.6451886835E-001 +9.4980307552E+001  +7.7438457176E-002 +4.2149918087E+001  +9.8577229928E-002 +1.9631975999E+001  +1.7156385221E+000 +1.3665685179E+001 
6516549.437 +1.3529632719E+000 +7.8475453926E+001  +1.1637958907E-001 +5.0049280770E+001  +8.8330896252E-002 +1.7961741356E+001  +1.9024004341E+000 +1.0285593184E+001 
6641694.618 +1.4434793690E+000 +7.8762747342E+001  +9.5440247451E-002 +2.9547307909E+001  +1.0299901839E-001 +2.2118878670E+001  +1.1624466295E+000 +1.0258993818E+000 
6766839.800 +1.8927493891E+000 +4.7892940435E+001  +1.1412927980E-001 +3.0092196393E+001  +1.2095547686E-001 +5.5244870643E+000  +1.2393563529E+000 -7.0823126685E+000 
6891984.981 +1.4076146225E+000 +1.3295683028E+001  +1.0455396073E-001 -1.7312734302E-001  +7.5607606998E-002 +3.6192547287E+000  +1.1761062216E+000 -2.1411304008E+000 
7017130.163 +1.7129163102E+000 +2.5423155179E+001  +1.1199439895E-001 +9.6764794392E+000  +8.9271677041E-002 -6.0147073706E+000  +1.1736251719E+000 -8.0685321213E+000 
7142275.344 +1.6046034351E+000 +3.7910052108E+000  +7.7507802841E-002 -8.1130880381E+000  +7.1865836146E-002 +6.3796464827E+000  +1.1082801630E+000 -6.3968830053E+000 
7267420.526 +1.4084083136E+000 +1.1733312636E+000  +6.3361057970E-002 +8.7839249544E+000  +6.9887552587E-002 -1.0844902498E+001  +1.3996075765E+000 -1.2486542161E+001 
7392565.707 +1.1438442667E+000 -1.8236989001E+000  +4.3668737870E-002 +5.0735938947E+000  +5.1386401409E-002 +3.9109889847E+000  +1.3055408092E+000 -3.8212139165E+000 
7517710.889 +1.2794696559E+000 +4.6620974197E+000  +4.5372130172E-002 +1.1636707095E+001  +5.1128525569E-002 +1.3388501032E+001  +1.1046987316E+000 -9.3323521040E+000 
7642856.070 +9.8972019655E-001 -8.1492445294E-001  +3.8367536650E-002 +1.2175514930E+001  +4.0522795688E-002 +1.3104230839E+001  +1.0885867200E+000 -4.1690280096E+000 
7768001.252 +9.8726217193E-001 +9.5900368866E+000  +4.6448654905E-002 +1.7017016187E+000  +4.0147060993E-002 +7.4125637427E+000  +9.6297767793E-001 -5.8135584367E+000 
7893146.433 +8.0498619067E-001 +6.5932258439E+000  +3.5791039743E-002 +9.9276302323E+000  +3.6383629621E-002 +1.2109252163E+001  +9.3504436816E-001 -2.7577891011E+000 
8018291.615 +7.5758595442E-001 +6.7569004914E+000  +3.3790789579E-002 +7.3794749314E+000  +3.3037411819E-002 +2.1447804728E+001  +8.5581505871E-001 -8.0612617396E-001 
8143436.796 +7.9821891333E-001 +1.0437121747E+001  +3.5191936371E-002 +3.6097953671E-001  +3.6313416353E-002 +7.3478628267E+000  +8.5723399870E-001 -2.0877790701E+000 
8268581.977 +7.3490508209E-001 +3.4395727685E+000  +3.4652684083E-002 -6.5634826733E+000  +3.7077172469E-002 +5.7708904544E+000  +7.4534540092E-001 -9.9314921182E-002 
8393727.159 +6.8523739993E-001 +1.0182779674E+001  +3.4609892896E-002 -2.5758844293E+000  +3.5030959780E-002 +1.5285065168E+001  +6.6134409758E-001 +2.4937540127E+000 
8518872.340 +6.3823438984E-001 +5.7342303316E+000  +2.9557481606E-002 +2.2432788197E+000  +3.2942707909E-002 +9.9953691700E+000  +6.6485598441E-001 -1.6500850617E+000 
8644017.522 +6.3882177654E-001 +8.7966039153E+000  +2.9806754381E-002 +1.9584482573E+000  +3.5600232041E-002 +1.6593174935E+001  +6.6433826516E-001 +2.5593172489E+000 
8769162.703 +5.9859606839E-001 +6.0674198770E+000  +2.9007327058E-002 -7.3522149705E-001  +3.5833350953E-002 +1.5313397794E+001  +6.0726504653E-001 -2.5620041278E-001 
8894307.885 +5.8970617574E-001 +7.2879358855E+000  +3.3090511293E-002 +9.9020033206E-001  +3.4619720108E-002 +1.6805877867E+001  +6.1660246447E-001 -4.7969416017E+000 
9019453.066 +5.6712896389E-001 +5.4064529414E+000  +3.2987905709E-002 +1.2456120509E+000  +3.0540359839E-002 +1.9782726539E+001  +6.0752716698E-001 -4.2982496111E+000 
9144598.248 +6.0389376408E-001 +2.4953321631E+000  +3.2571148372E-002 +9.9787853933E+000  +3.1581678684E-002 +1.6485258114E+001  +5.7556147615E-001 -3.1003102986E+000 
9269743.429 +5.1778331725E-001 -5.1833223158E-002  +2.8928677487E-002 -5.8242233668E+000  +3.4081199119E-002 +1.5087086043E+001  +5.5874794767E-001 -1.3496485295E-001 
9394888.611 +4.8831520378E-001 +8.3697367148E+000  +3.4028654939E-002 +6.3643139788E+000  +3.1293792580E-002 +1.7701283554E+001  +6.2369754322E-001 +1.5866810071E-002 
9520033.792 +5.1186147611E-001 +4.6378475509E+000  +3.0368386076E-002 +6.3874337536E-001  +3.1738049066E-002 +2.2146210259E+001  +5.8544371087E-001 -4.5270720839E-001 
9645178.974 +4.8270195232E-001 +7.4054023785E-001  +3.2523929964E-002 +5.7390578816E-001  +3.3975470118E-002 +2.7782643110E+001  +5.8243891265E-001 -7.9656280856E+000 
9770324.155 +5.2400231165E-001 -2.8574943633E+000  +3.4109078842E-002 +1.5077659836E+000  +3.2239474843E-002 +1.8245462549E+001  +5.6178177967E-001 -3.3878218744E+000 
9895469.337 +5.4460872552E-001 +1.6191629384E+000  +3.5033561849E-002 -1.5405429509E+000  +3.5328882251E-002 +1.6187301036E+001  +5.4132589387E-001 -1.0686293867E+001 
10020614.518 +5.3822704290E-001 -1.9269521343E+000  +3.1480244141E-002 +5.2490806013E+000  +3.2631297533E-002 +1.9714576793E+001  +5.8415425330E-001 -9.2110101251E+000 
10145759.700 +4.7282209675E-001 +7.3682792410E-001  +3.1124025589E-002 +4.2606745882E-001  +3.1190361349E-002 +2.1268015433E+001  +5.5887248589E-001 -5.3851720205E+000 
10270904.881 +4.9603808090E-001 +3.3163921587E+000  +3.0701308209E-002 +3.8728254218E+000  +3.5622103257E-002 +2.0241749835E+001  +5.5678664732E-001 -1.5547232451E+000 
10396050.063 +5.3963599486E-001 +3.9278199704E+000  +3.2837690428E-002 +1.4406711666E+000  +3.0828631193E-002 +2.3916015699E+001  +5.5476510031E-001 -1.6989311727E-001 
10521195.244 +5.0626926959E-001 +7.1988065557E+000  +3.3258765919E-002 +4.8937911033E+000  +3.2625679387E-002 +2.3241497219E+001  +5.9836131843E-001 -1.6966477555E+000 
10646340.426 +5.1379417433E-001 +2.8933782457E+000  +3.4198646538E-002 +2.6510895640E+000  +3.3541643069E-002 +1.9046976327E+001  +5.4255382522E-001 +1.4604036915E+000 
10771485.607 +5.3099628080E-001 +8.7061837651E+000  +3.3953151018E-002 +6.5220640973E+000  +3.1989987440E-002 +2.3181278518E+001  +5.8183308259E-001 +1.6483394187E+000 
10896630.788 +5.8263574609E-001 +8.1065268133E+000  +3.1108532966E-002 +4.2918768002E+000  +3.3987873861E-002 +1.9724259851E+001  +5.9322335282E-001 +4.0555868821E-001 
11021775.970 +5.5266098686E-001 +7.8843129186E+000  +3.3942694807E-002 +8.4352439528E+000  +3.5165067523E-002 +1.5965230700E+001  +5.7997121908E-001 -7.0740146874E-002 
11146921.151 +5.2630322505E-001 +1.0214230985E+001  +3.5144342016E-002 +7.7535780857E+000  +3.3060338757E-002 +1.8701554045E+001  +5.9919744308E-001 +1.4258982613E+000 
11272066.333 +5.4606386414E-001 +6.9986901578E+000  +3.6564539053E-002 +4.4097918096E+000  +3.3255127841E-002 +1.8323736870E+001  +5.7433977085E-001 +1.0455736543E+000 
11397211.514 +5.7620476564E-001 +6.8743097703E+000  +3.3831445287E-002 +9.0086417024E+000  +3.4855808168E-002 +1.8118213231E+001  +6.0343687501E-001 +6.0735341474E-001 
11522356.696 +5.7845580129E-001 +8.0338112240E+000  +3.5059739411E-002 +8.3460292817E+000  +3.4110036873E-002 +2.0416969664E+001  +6.0619932131E-001 +2.1275679062E+000 
11647501.877 +5.7568989280E-001 +8.5444208757E+000  +3.5291269316E-002 +1.0129477916E+001  +3.4550680708E-002 +1.8343840734E+001  +6.3233517822E-001 -9.2647487608E-002 
11772647.059 +6.1929432424E-001 +5.0161353173E+000  +3.6200412768E-002 +6.5803402062E+000  +3.5132118864E-002 +2.0917637676E+001  +6.4318459170E-001 +4.2711339211E-001 
11897792.240 +6.4352271967E-001 +4.6075880318E+000  +3.5690209378E-002 +9.6132384630E+000  +3.6774740136E-002 +1.7343001324E+001  +6.3154201839E-001 +2.7419764233E+000 
12022937.422 +6.3386058746E-001 +3.3509149809E+000  +3.5861671957E-002 +9.7388535818E+000  +3.6201532012E-002 +1.9137743176E+001  +6.4821285942E-001 +1.6600237877E+000 
12148082.603 +6.2599030291E-001 +6.1524236109E+000  +3.6768313868E-002 +6.5773257575E+000  +3.8521566160E-002 +1.8979380054E+001  +6.4978543871E-001 +1.4447744823E-001 
12273227.785 +6.3941614877E-001 +2.5233419202E+000  +3.7436800545E-002 +9.5852092432E+000  +3.5954907036E-002 +1.6358439202E+001  +6.5817130875E-001 +8.4512698306E-001 
12398372.966 +7.0869408420E-001 +3.5193364178E+000  +3.9742489957E-002 +1.0794627709E+001  +3.8812015827E-002 +1.7110765031E+001  +6.4206543463E-001 -7.7541846566E-001 
12523518.148 +6.9653365690E-001 +2.7966113765E+000  +3.8024633772E-002 +9.0379144748E+000  +3.8096614091E-002 +1.9851312794E+001  +6.9530260216E-001 -5.6289096154E-001 
12648663.329 +7.1031637077E-001 +4.3811870969E+000  +4.0981966803E-002 +1.1559160145E+001  +3.8682190796E-002 +1.5805988961E+001  +7.0077346319E-001 +1.1758602725E-001 
12773808.511 +7.1594434794E-001 +2.8187660245E+000  +4.0445314004E-002 +1.0934046952E+001  +4.0030565006E-002 +1.7545845078E+001  +7.2434424193E-001 -1.6722821499E+000 
12898953.692 +7.2372397532E-001 +2.3169569065E+000  +4.0248834523E-002 +1.2745683625E+001  +3.8420938317E-002 +1.7232295122E+001  +7.3811818549E-001 -6.1321220367E-001 
13024098.874 +7.3968545058E-001 +9.9402837782E-001  +3.9688997669E-002 +1.0221061756E+001  +3.9849729224E-002 +1.6084226026E+001  +7.6311634781E-001 -4.1125270913E-001 
13149244.055 +7.6552952297E-001 -1.4555486037E+000  +4.1125082108E-002 +1.0612383185E+001  +4.0606248014E-002 +1.4594944370E+001  +7.8396692842E-001 -1.6401266199E+000 
13274389.237 +7.5822948631E-001 -1.3794643781E-001  +4.0158601147E-002 +1.1737380944E+001  +4.0266470240E-002 +1.6646511209E+001  +7.8722227101E-001 -1.0357829599E+000 
13399534.418 +7.9106955456E-001 -7.3995544773E-001  +4.1349591548E-002 +1.2822018748E+001  +4.0602717300E-002 +1.6355114266E+001  +8.1666302280E-001 -4.3380647473E+000 
13524679.599 +8.0914631206E-001 -1.6502541497E+000  +4.3020573166E-002 +1.3204232116E+001  +4.1407074774E-002 +1.6283751227E+001  +8.2374513944E-001 -3.7229070239E+000 
13649824.781 +8.2199940125E-001 -9.1003803271E-001  +4.0853221537E-002 +1.2741613746E+001  +4.1448131571E-002 +1.6238767947E+001  +8.4366344835E-001 -4.2498434233E+000 
13774969.962 +8.4291505416E-001 -2.7575965386E+000  +4.2376883903E-002 +1.2631415826E+001  +4.1525197973E-002 +1.4211076003E+001  +8.5682158021E-001 -3.7384993715E+000 
13900115.144 +8.5961218144E-001 -3.0932524549E+000  +4.3133184472E-002 +1.0435977914E+001  +4.1970572776E-002 +1.4136656799E+001  +8.6373256625E-001 -3.3492960020E+000 
14025260.325 +8.9243997005E-001 -3.6892161947E+000  +4.4286356592E-002 +1.1667764225E+001  +4.2180820476E-002 +1.1412657482E+001  +8.8273120553E-001 -3.9857346243E+000 
14150405.507 +8.8459000647E-001 -4.1211328860E+000  +4.2587146433E-002 +1.0636819271E+001  +4.2757862015E-002 +1.2382319689E+001  +9.0602130808E-001 -5.7162695208E+000 
14275550.688 +9.0584852415E-001 -4.9381875203E+000  +4.4372904465E-002 +1.3078118163E+001  +4.0875956830E-002 +1.3907998151E+001  +9.2840159794E-001 -3.6233853459E+000 
14400695.870 +9.4036634725E-001 -5.6190339224E+000  +4.4703061966E-002 +1.0974499569E+001  +4.3500272450E-002 +1.3432524342E+001  +9.5189029739E-001 -5.4926246088E+000 
