!  2-Port S-parameters saved by WinCal
! VAR MeasName=S-Parameters (CALIBRATED_DATA) read from VNA (P5004A)
! VAR MeasDate=27/08/2024 16:11:41
! VAR NAME=S2_r1c9_SET1_9k-100M_1
! VAR FILENAME=S2_r1c9_SET1_9k-100M_1.S2P
! VAR DATE=27/08/2024 16:11:41
! VAR PHYS_PORTS=1,2
! VAR ObjTypeName=DATASET
! VAR IndexType=Frequency
!
# Hz S MA R 50
9000.000 +9.7635776944E-002 -1.4143091891E+002  +7.6650964486E-003 +4.6831461110E+001  +1.3082276196E-002 -1.5309420457E+001  +1.5787710373E-001 -1.1715004044E+002 
134145.181 +1.1034186518E-001 +1.7005146749E+002  +3.2187139404E-004 -1.2293673223E+002  +3.9826353393E-004 +1.0391752999E+002  +2.3938044129E-001 -1.7114898043E+002 
259290.363 +1.1233560727E-001 +1.6957224969E+002  +5.3560610991E-004 -4.6326652363E+001  +3.2232355380E-004 -1.9514844926E+001  +2.4276652287E-001 -1.6904288772E+002 
384435.544 +1.1405056698E-001 +1.6989238891E+002  +3.0017503351E-004 -1.2588773743E+002  +4.8007236517E-004 -8.2396802103E+001  +2.3658042355E-001 -1.6880778271E+002 
509580.726 +1.1450237328E-001 +1.7121045499E+002  +1.5697267231E-004 -2.6921372875E+001  +2.6892764651E-003 +3.2303209923E+001  +2.4506634449E-001 -1.6620764397E+002 
634725.907 +1.1554804879E-001 +1.7060426133E+002  +3.4024722602E-004 +1.2324437662E+002  +8.9171158913E-004 +1.4408480613E+002  +2.3799807365E-001 -1.6509879354E+002 
759871.089 +1.1605915481E-001 +1.7043775339E+002  +1.0845426083E-003 -6.7828872078E+001  +1.8516035249E-004 +9.2093592370E+001  +2.5170988825E-001 -1.6306717116E+002 
885016.270 +1.1791198087E-001 +1.6883659600E+002  +4.3796740501E-004 -1.2433899994E+001  +4.2828779516E-004 +1.7543914880E+002  +2.3571636688E-001 -1.6549081630E+002 
1010161.452 +1.1725866588E-001 +1.6937912165E+002  +6.6366518598E-004 -1.2452183675E+002  +1.4403223532E-003 +1.4825302393E+002  +2.0483742901E-001 -1.6841548966E+002 
1135306.633 +1.1668434308E-001 +1.7029444479E+002  +9.8418609543E-004 +2.8000427467E+001  +2.5320292271E-003 +1.6333108508E+002  +1.9880580121E-001 -1.6339587232E+002 
1260451.815 +1.1477562400E-001 +1.7147884654E+002  +3.0647401340E-004 +7.3190918113E+001  +4.3920513906E-003 +7.4356099592E+001  +2.2560371341E-001 -1.5722919456E+002 
1385596.996 +1.2404507155E-001 +1.7196123951E+002  +4.8811839967E-004 -1.3226567999E+002  +2.2634610281E-004 +4.3667861051E+001  +2.6253717575E-001 -1.6051757644E+002 
1510742.178 +1.2752914146E-001 +1.7222560798E+002  +1.2021180123E-003 -9.2308588920E-001  +2.3061505725E-003 +1.4627919041E+002  +2.4792580046E-001 -1.5451845234E+002 
1635887.359 +1.2729295528E-001 +1.7109692462E+002  +1.1671560877E-003 +4.2199250484E+000  +1.4385671203E-003 -1.2219931305E+002  +2.3690213114E-001 -1.6015250165E+002 
1761032.541 +1.2746295739E-001 +1.6879759716E+002  +6.8612305552E-004 +7.2752479353E+000  +2.3995062461E-003 -1.3962796678E+002  +1.9575957082E-001 -1.6138639344E+002 
1886177.722 +1.2970508187E-001 +1.6581632378E+002  +8.9151856127E-004 +6.0013887042E+001  +2.7497856779E-003 -2.2325574272E+001  +1.8798644291E-001 -1.5180469428E+002 
2011322.904 +1.2912024538E-001 +1.6733478401E+002  +5.9897201823E-003 +1.0234375736E+002  +7.0284157107E-003 -3.8941421699E+001  +1.6977318595E-001 -1.7213592888E+002 
2136468.085 +1.3290659079E-001 +1.6546662183E+002  +8.2391384882E-003 +1.0633915389E+002  +4.9249859130E-003 -8.7697511297E+000  +2.0043009703E-001 +1.7813695261E+002 
2261613.267 +1.3180949562E-001 +1.6184888126E+002  +7.1262657210E-003 +1.0784275964E+002  +4.5880266353E-003 -1.0591115720E+001  +2.0285192334E-001 -1.7564728150E+002 
2386758.448 +1.4073200139E-001 +1.6480553674E+002  +8.1119935900E-003 +1.0588475682E+002  +5.2420329624E-003 +2.3557785309E+001  +2.4518719164E-001 +1.6358119619E+002 
2511903.630 +1.3081254060E-001 +1.6373628158E+002  +1.1860389018E-002 +1.0100033003E+002  +1.0758409855E-002 -1.0201964972E+001  +2.7393066845E-001 +1.6162987579E+002 
2637048.811 +1.2447447276E-001 +1.5639360404E+002  +3.2420418906E-002 +1.2827257920E+002  +4.4964810083E-002 +2.5397526930E+000  +3.7035867423E-001 +1.2350628955E+002 
2762193.992 +7.0228351839E-002 +1.7774461752E+002  +8.1388431410E-002 +4.2848966662E+001  +8.4782953839E-002 -5.6038730129E+001  +3.1882518090E-001 +9.1106769863E+001 
2887339.174 +1.2183557847E-001 +1.7739307466E+002  +5.0268346755E-002 -8.4272984893E+001  +4.1202713479E-002 -1.6657045712E+002  +4.6562004903E-001 -9.4406620485E+001 
3012484.355 +1.1361814911E-001 +1.7037292539E+002  +3.2760983259E-002 +2.5069767975E+001  +2.8575917098E-002 -9.0832825924E+001  +3.0372370762E-002 +5.2547701531E+001 
3137629.537 +9.0651447420E-002 +1.7775540742E+002  +5.7904287505E-002 -4.8600226954E+001  +4.4708991468E-002 -1.3252532105E+002  +3.0207321150E-001 -1.0206608963E+002 
3262774.718 +1.0867702527E-001 +1.6432644187E+002  +5.2642343642E-002 -2.4833870797E+000  +4.2287223395E-002 -8.0663583449E+001  +1.4483879784E-001 -7.1934093922E+001 
3387919.900 +1.2479482962E-001 +1.5336156030E+002  +6.7071043695E-002 -1.6538932152E+001  +4.0942054328E-002 -1.0305410495E+002  +6.5244268226E-001 -8.4889551391E+001 
3513065.081 +1.2708719931E-001 +1.2691354325E+002  +5.0050349408E-002 +9.8773598081E+001  +6.5965110471E-002 +1.3881592793E+001  +4.1978458929E-001 +1.2847444803E+002 
3638210.263 +1.4705521928E-001 +1.4242380736E+002  +6.4064212519E-002 +8.5015240608E+001  +4.1658398551E-002 -6.2510668992E+000  +3.0512337611E-001 +8.1928950963E+001 
3763355.444 +1.5247982305E-001 +1.4615234623E+002  +1.0859174921E-001 +5.6807906165E+001  +8.2885804516E-002 -9.5645389372E+000  +8.5232375322E-001 +5.1934978258E+001 
3888500.626 +1.6418673746E-001 +1.4398085934E+002  +3.7304501650E-002 +5.8233276510E+001  +4.0175047705E-002 -1.0213109906E+001  +1.6102933769E-001 +8.9854336012E+001 
4013645.807 +1.6025304341E-001 +1.5892079951E+002  +2.6708829915E-002 +6.6275224917E+001  +4.2045073022E-002 -2.0331791095E+000  +4.4643603493E-001 +1.2634643473E+002 
4138790.989 +1.6395115575E-001 +1.4682633567E+002  +3.4747230796E-002 +9.2291804650E+001  +4.0496243823E-002 +1.8952060444E+001  +3.6948536675E-001 +1.2994872952E+002 
4263936.170 +1.9064631769E-001 +1.4834697703E+002  +3.3882356974E-002 +8.9272606521E+001  +3.5583807303E-002 +2.6877165625E+001  +3.8363038601E-001 +1.3231142072E+002 
4389081.352 +1.8876488979E-001 +1.4110385736E+002  +9.1522955761E-002 +1.1523360315E+002  +8.7338134898E-002 +5.3746854259E+001  +1.0054795132E+000 +1.2102835958E+002 
4514226.533 +1.9962406403E-001 +1.2897215625E+002  +1.2703753905E-001 +8.4877094727E+001  +1.0195384026E-001 +4.0506859023E+001  +1.0584135932E+000 +8.7148570192E+001 
4639371.715 +2.7725913713E-001 +1.1642711317E+002  +8.7086753393E-002 +1.1425126770E+002  +8.4321150650E-002 +5.1860682640E+001  +6.5875614256E-001 +1.1839478731E+002 
4764516.896 +4.2306283148E-001 +1.2421738996E+002  +1.0842338137E+000 +1.4363062590E+002  +8.5616273267E-001 +7.0656835577E+001  +8.6010387086E+000 +9.4925042682E+001 
4889662.078 +4.0542464371E-001 +1.0829102788E+002  +8.0295645225E-001 -3.6581429901E+001  +7.8037676033E-001 -8.3371123154E+001  +5.1781743440E+000 -9.8508646205E+001 
5014807.259 +4.5069709814E-001 +1.4220981427E+002  +6.6333709555E-001 -1.2490008998E+002  +8.2244700547E-001 -1.6692575048E+002  +8.4577310058E+000 +1.6987861620E+002 
5139952.441 +3.4389280551E-001 +1.3742822551E+002  +1.2310004079E-001 +1.0988352772E+002  +1.3373133492E-001 +7.0302803553E+001  +1.8824226160E+000 +9.9703191997E+001 
5265097.622 +3.8225226054E-001 +9.3981023141E+001  +3.9711500602E-001 +8.0341490769E+001  +3.5446331411E-001 +4.1955649044E+001  +2.3608591627E+000 +6.6465741219E+001 
5390242.804 +3.9245386889E-001 +1.2723893910E+002  +1.6595215737E-001 +1.1189149032E+002  +1.6729290528E-001 +7.9763995522E+001  +1.7687300607E+000 +9.9627741819E+001 
5515387.985 +3.9503641097E-001 +1.3214771312E+002  +9.4912817000E-002 +7.2735468151E+001  +1.0872273736E-001 +4.3713874545E+001  +1.0798630645E+000 +5.9360101658E+001 
5640533.166 +3.9847953822E-001 +1.3013902433E+002  +1.8132217679E-001 +7.2867901022E+001  +1.7220153091E-001 +4.8862391969E+001  +2.0815849772E+000 +6.2487121411E+001 
5765678.348 +5.1451307445E-001 +1.2873642965E+002  +2.2753329807E-001 +7.6332398968E+001  +2.3994279159E-001 +5.2735972397E+001  +2.7127067663E+000 +4.3439871391E+001 
5890823.529 +5.0246336661E-001 +1.2590400497E+002  +1.6199601860E-001 +8.8925464140E+001  +1.5103566263E-001 +7.2258873054E+001  +1.9958127816E+000 +8.5312928068E+001 
6015968.711 +4.9303670777E-001 +1.0818323762E+002  +1.7719059852E-001 +5.2723258062E+001  +1.9412433100E-001 +3.3775338771E+001  +1.2907094779E+000 +4.4804024546E+001 
6141113.892 +7.3240244316E-001 +1.1414000244E+002  +2.1710982480E-001 +7.9752038419E+001  +2.2705060003E-001 +5.6602780816E+001  +2.2385518473E+000 +4.9626437965E+001 
6266259.074 +7.8075402738E-001 +1.1217042312E+002  +2.0921547877E-001 +5.1088143935E+001  +2.1328866123E-001 +4.2664241644E+001  +1.7849860945E+000 +2.4053064009E+001 
6391404.255 +8.8294245496E-001 +9.3525909851E+001  +1.7204484240E-001 +5.5438326921E+001  +1.8820901431E-001 +3.9624063952E+001  +1.1957419041E+000 +4.0685035806E+001 
6516549.437 +1.0927456497E+000 +8.7037330327E+001  +2.0705834184E-001 +4.1113894771E+001  +2.0136913717E-001 +2.9801391639E+001  +1.1108528865E+000 +1.1052374235E+001 
6641694.618 +1.0675610353E+000 +7.1069832564E+001  +2.3244158830E-001 +2.2150985583E+001  +2.0806768808E-001 +9.9975423754E+000  +1.5731725521E+000 -5.9255143652E+000 
6766839.800 +1.7122123606E+000 +4.7360516609E+001  +2.6652868150E-001 +1.2736886898E+001  +2.7950483467E-001 +5.3295155007E+000  +1.2340266216E+000 -3.2937889196E+000 
6891984.981 +1.7669917726E+000 +2.6903470548E+001  +2.3013276767E-001 +8.7336787177E+000  +2.3468115299E-001 -1.4596723660E+000  +1.1886249670E+000 +2.8602861976E+000 
7017130.163 +1.7834692015E+000 +2.5082402341E+001  +1.9687968303E-001 +1.0117076047E+001  +2.1806960356E-001 +5.9228943841E+000  +1.0638884776E+000 -2.6410302257E+000 
7142275.344 +1.7048959010E+000 +1.8795336876E+001  +1.7986184099E-001 +2.5276572955E+000  +1.6422755656E-001 -3.9723184563E+000  +1.1586795154E+000 -1.6171334129E+001 
7267420.526 +1.3930544668E+000 -9.3066279807E+000  +1.4809675637E-001 -4.9036043775E+000  +1.4856840457E-001 -8.5547682885E+000  +1.3760347451E+000 -1.0261753375E+001 
7392565.707 +1.2719219321E+000 -9.3659138799E-001  +1.1819784702E-001 +6.0146141520E+000  +1.2048237518E-001 +6.9631677649E+000  +1.2086212080E+000 -1.3809381444E+001 
7517710.889 +1.0379152156E+000 -1.7056981973E+000  +1.0221635609E-001 +4.1972464924E+000  +1.1074593692E-001 +1.4127157590E+000  +1.0047554493E+000 -3.5924007888E+000 
7642856.070 +8.4418835059E-001 -2.3794150815E+000  +9.7525990656E-002 +3.6540608867E+000  +1.0579758160E-001 +2.5373570802E+000  +8.8307547300E-001 -2.8332291565E+000 
7768001.252 +9.0436936524E-001 +8.3757720224E-001  +9.5170455284E-002 +7.2934465832E+000  +9.6768967485E-002 +4.7048409718E+000  +7.9471156984E-001 +6.0718168359E-001 
7893146.433 +7.6536735033E-001 +1.0686820062E+001  +9.0552720192E-002 +2.8314217870E+000  +9.5786443101E-002 +7.6255889869E+000  +9.0951791969E-001 -5.9872780922E+000 
8018291.615 +7.8174400185E-001 +2.8559498984E+000  +9.5389115179E-002 +2.7675092030E+000  +9.3002819956E-002 +1.0401042119E+001  +7.7908254068E-001 +1.4738188900E+000 
8143436.796 +6.6122532902E-001 +7.3858727993E+000  +8.6679359273E-002 -7.8599371757E-001  +8.9876842703E-002 +1.0941451991E+001  +6.9575165143E-001 -4.5209385770E+000 
8268581.977 +6.1109373368E-001 +8.6864191092E+000  +8.8756623875E-002 -4.4325226644E+000  +8.6716379464E-002 +1.1524704586E+001  +7.1816469430E-001 +1.5222474837E+000 
8393727.159 +6.4945116444E-001 +1.2807077427E+001  +8.0833038446E-002 -3.3262953039E+000  +8.2847349100E-002 +6.8535068321E+000  +6.0476759244E-001 +5.8926689360E+000 
8518872.340 +6.0339153880E-001 +1.2462136401E+001  +7.8199602906E-002 +2.2652672472E+000  +8.1257264845E-002 +1.3482350960E+001  +6.6825483351E-001 +4.9870232115E-001 
8644017.522 +6.4372356563E-001 +1.0496452419E+001  +8.1828799252E-002 +2.0411403043E+000  +8.0132289358E-002 +1.3912800512E+001  +5.8924093109E-001 +1.5821679990E-002 
8769162.703 +5.1651660978E-001 +1.1649604324E+001  +7.9127697827E-002 +3.9378029207E-001  +7.5734291601E-002 +1.1779033247E+001  +5.8372918344E-001 +5.6256527239E+000 
8894307.885 +5.6623006838E-001 +5.8380783941E+000  +8.7979917949E-002 -3.2820052999E+000  +7.5785760128E-002 +1.4548288738E+001  +5.8818021417E-001 +1.7777465351E-001 
9019453.066 +5.4020511367E-001 +9.2299266477E+000  +7.9844153397E-002 -3.3784539968E-002  +7.9241806698E-002 +1.3016970742E+001  +5.9588021131E-001 +6.7195498203E+000 
9144598.248 +4.8559289340E-001 +9.1410156470E+000  +7.6684696866E-002 -1.6768880576E+000  +7.7671504595E-002 +1.3059859071E+001  +5.6827585092E-001 +4.0713239127E-001 
9269743.429 +5.2907149837E-001 +8.2065183155E+000  +7.7491596020E-002 -7.3908340415E+000  +7.4827116086E-002 +1.3954101100E+001  +5.1809017172E-001 +3.0896579982E+000 
9394888.611 +5.1979557055E-001 +1.8105139481E+000  +8.1078285516E-002 -4.6232843697E+000  +8.1007994432E-002 +1.4639192127E+001  +4.9683727811E-001 -3.7249863531E+000 
9520033.792 +4.8997345238E-001 +1.0069407376E+000  +7.9593686347E-002 -4.0154839757E+000  +8.0214578857E-002 +1.2766737565E+001  +4.8164182668E-001 -5.9018619555E+000 
9645178.974 +4.7761528244E-001 +3.4411538251E+000  +7.8988965806E-002 -4.9845226290E+000  +7.9471214283E-002 +1.3376922479E+001  +4.6486160995E-001 -6.6769120395E+000 
9770324.155 +4.6016946566E-001 +2.8550581423E+000  +7.9610946160E-002 -1.4095530553E+000  +7.8280760582E-002 +1.3841008008E+001  +5.3952418165E-001 -3.5744292539E+000 
9895469.337 +4.5990165828E-001 +4.3318532782E+000  +8.1261436682E-002 -2.4925967614E+000  +7.6008021582E-002 +1.3381999038E+001  +4.5950330273E-001 -7.5436607651E+000 
10020614.518 +4.6080494533E-001 -2.9598696515E+000  +8.3339809580E-002 -4.8387851270E-001  +8.0578785144E-002 +1.3823739368E+001  +5.3044102009E-001 -5.4808122626E+000 
10145759.700 +4.3744245908E-001 +1.1934753582E+000  +8.1847559639E-002 -2.2431021104E+000  +8.0144929269E-002 +1.4092684423E+001  +4.7753707031E-001 -4.0634069911E+000 
10270904.881 +4.8215442774E-001 +8.0252723569E+000  +8.0850328871E-002 -9.6448904819E-001  +8.1610465374E-002 +1.4696397224E+001  +5.1290407707E-001 +2.4772032909E+000 
10396050.063 +4.8282712985E-001 +7.6909413418E+000  +7.8034599315E-002 -6.0434622603E-001  +8.0525049248E-002 +1.6070890551E+001  +5.3081324586E-001 +2.3410135741E+000 
10521195.244 +4.3615697901E-001 +7.0040023704E+000  +8.1265020856E-002 -1.2167724351E+000  +8.0313155078E-002 +1.4456998233E+001  +4.9210656110E-001 -5.1465675614E-001 
10646340.426 +4.8511900172E-001 +1.0509628715E+001  +7.8733416416E-002 +5.7398833024E-001  +7.9709878745E-002 +1.3156642338E+001  +4.8595971359E-001 +4.9819895890E-002 
10771485.607 +4.8790494094E-001 +3.6036766624E+000  +8.3954957638E-002 -1.0429513818E-001  +8.1294467914E-002 +1.6985356798E+001  +5.1406944314E-001 +3.9246134569E+000 
10896630.788 +4.9315314061E-001 +8.2489893516E+000  +8.2407596837E-002 +1.4024842151E+000  +8.2797242759E-002 +1.5574396974E+001  +5.3570383072E-001 -8.5977315213E-001 
11021775.970 +4.9731631461E-001 +7.9759371754E+000  +8.2634590464E-002 +7.5306854483E-001  +8.2032174986E-002 +1.3043907314E+001  +5.1034526945E-001 +3.6524073173E+000 
11146921.151 +5.1341590971E-001 +5.4299395903E+000  +8.4390354328E-002 +2.4603883219E+000  +8.2454449585E-002 +1.4947123238E+001  +4.7024848406E-001 +1.1016854493E+000 
11272066.333 +4.9374664997E-001 +6.9760537792E+000  +8.3030643335E-002 +1.9237948251E+000  +8.1880795016E-002 +1.4378827823E+001  +5.4533182296E-001 +4.2975061636E+000 
11397211.514 +5.4312454449E-001 +5.2781545933E+000  +8.5381400437E-002 +1.8685578958E+000  +8.4948156450E-002 +1.5496509569E+001  +4.9037604824E-001 -2.8091403549E-001 
11522356.696 +5.1185877016E-001 +7.0487059930E+000  +8.4438213613E-002 +1.3062582525E+000  +8.4342661792E-002 +1.3876695474E+001  +5.6177382964E-001 +3.7294236249E+000 
11647501.877 +5.6802841344E-001 +8.6577611266E+000  +8.8810379169E-002 +2.2799781921E+000  +8.3765959433E-002 +1.6305856746E+001  +5.4180293408E-001 -1.3927258781E-001 
11772647.059 +5.8332192842E-001 +8.2340358341E+000  +8.9403735664E-002 +3.8271976307E+000  +8.5945706296E-002 +1.4470323577E+001  +5.7577310250E-001 +6.2117856499E-001 
11897792.240 +5.7206271453E-001 +9.3983345925E+000  +9.0085988327E-002 +4.1509713916E+000  +8.8304935478E-002 +1.4163445303E+001  +5.9336298910E-001 +2.3118138293E-001 
12022937.422 +5.5774984250E-001 +6.0896167889E+000  +8.8854456411E-002 +3.9377726049E+000  +8.8705196326E-002 +1.4411586764E+001  +5.8519770642E-001 +9.1915399156E-001 
12148082.603 +5.9414245659E-001 +2.4230387425E+000  +9.1961120343E-002 +4.3266796453E+000  +9.0578709480E-002 +1.3852227118E+001  +6.0705165421E-001 +8.1831218152E-001 
12273227.785 +6.0452645716E-001 +6.3350295393E+000  +9.1345590751E-002 +4.8461563528E+000  +9.2041017878E-002 +1.2453590046E+001  +5.8189648868E-001 -5.0889935023E-001 
12398372.966 +5.9205809987E-001 +2.6903899411E+000  +9.5054630483E-002 +5.0952684254E+000  +9.1715177330E-002 +1.2439302875E+001  +6.2256350568E-001 -3.2147604435E-001 
12523518.148 +6.2589466465E-001 +3.4348579594E+000  +9.3314205646E-002 +5.0523454320E+000  +9.4804593148E-002 +1.2165617602E+001  +6.2900574735E-001 -2.0089575226E+000 
12648663.329 +6.5097967871E-001 +1.8577818297E+000  +9.7308264672E-002 +5.1379848130E+000  +9.1592730426E-002 +1.2169957094E+001  +6.7627635653E-001 -1.6079130526E+000 
12773808.511 +6.5252818291E-001 +1.2567083925E+000  +9.5551369962E-002 +5.3201485466E+000  +9.4392341776E-002 +1.1803580947E+001  +6.5391320887E-001 +5.7743843089E-001 
12898953.692 +6.6028865017E-001 +2.3950778339E+000  +9.6119086648E-002 +6.1121039125E+000  +9.6560283687E-002 +1.0864006462E+001  +6.7890830737E-001 +2.0889330330E+000 
13024098.874 +6.8433972716E-001 -4.7250788864E-001  +9.7898136525E-002 +5.6232816048E+000  +9.8076362340E-002 +1.1086786439E+001  +6.9965647715E-001 -2.5219033792E+000 
13149244.055 +7.1102536090E-001 +1.1019213816E+000  +9.9858774273E-002 +6.0720696414E+000  +9.6653361531E-002 +9.8285584643E+000  +7.0441645946E-001 -2.0821895344E+000 
13274389.237 +6.9746084754E-001 -2.7141589786E-001  +9.9588909625E-002 +5.0114093326E+000  +9.8079944837E-002 +9.9003423821E+000  +7.3784682508E-001 -1.3715402379E+000 
13399534.418 +7.2895308008E-001 -4.2741135320E-001  +9.9818218873E-002 +6.1214481363E+000  +9.7570245400E-002 +1.0072585049E+001  +7.4132136132E-001 -8.0502096685E-001 
13524679.599 +7.4824171960E-001 -1.2751831125E+000  +1.0128008073E-001 +5.9063372777E+000  +9.9635345467E-002 +9.1681135273E+000  +7.6302831533E-001 -2.2197427814E+000 
13649824.781 +7.6795686420E-001 -2.7279068320E+000  +1.0291701320E-001 +5.5226756777E+000  +1.0210345956E-001 +9.3197155689E+000  +7.8964810029E-001 -3.3923206984E+000 
13774969.962 +7.7740122380E-001 -2.6468150508E+000  +1.0445793805E-001 +6.4261483300E+000  +1.0271241848E-001 +8.9719549699E+000  +7.9969443668E-001 -2.9880016107E+000 
13900115.144 +8.1120832647E-001 -4.1072265113E+000  +1.0300399809E-001 +6.3335253355E+000  +1.0369565434E-001 +7.7436647026E+000  +8.1364056632E-001 -2.7908392262E+000 
14025260.325 +8.0341303070E-001 -2.9320129935E+000  +1.0444712288E-001 +5.4746727483E+000  +1.0299479606E-001 +7.9027415427E+000  +8.2472548484E-001 -3.1174167362E+000 
14150405.507 +8.0506172838E-001 -5.1699273860E+000  +1.0516731241E-001 +5.3863292757E+000  +1.0413183626E-001 +6.3932222462E+000  +8.4617078428E-001 -3.1362101489E+000 
14275550.688 +8.5938145937E-001 -5.8803453007E+000  +1.0559729401E-001 +6.2561312442E+000  +1.0513977792E-001 +6.5209328787E+000  +8.6492662325E-001 -3.8024273133E+000 
14400695.870 +8.5577799206E-001 -5.0523964613E+000  +1.0631489302E-001 +5.3058497128E+000  +1.0417055366E-001 +6.0458794526E+000  +8.8470466645E-001 -3.3883461690E+000 
