!  2-Port S-parameters saved by WinCal
! VAR MeasName=S-Parameters (CALIBRATED_DATA) read from VNA (P5004A)
! VAR MeasDate=28/08/2024 11:51:42
! VAR NAME=S2_r6c9_SET3_9k-100M_1
! VAR FILENAME=S2_r6c9_SET3_9k-100M_1.S2P
! VAR DATE=28/08/2024 11:51:42
! VAR PHYS_PORTS=1,2
! VAR ObjTypeName=DATASET
! VAR IndexType=Frequency
!
# Hz S MA R 50
9000.000 +9.9800189972E-002 -1.7006664694E+002  +7.1642766025E-003 -1.1503537001E+002  +1.0718476138E-002 +7.7931957908E+001  +2.8297638456E-001 -1.3597393874E+002 
134145.181 +1.1153091515E-001 +1.6960058563E+002  +4.0572822024E-004 -8.9113799805E+001  +1.1973863833E-004 +1.3561861115E+002  +2.4274004028E-001 -1.7112129406E+002 
259290.363 +1.1213991264E-001 +1.6936295034E+002  +5.0679073721E-004 -1.1944069202E+002  +3.8928469388E-004 -1.6471312509E+001  +2.4265067633E-001 -1.7012396587E+002 
384435.544 +1.1527156496E-001 +1.7000040752E+002  +6.7867100658E-004 +1.7734686674E+002  +6.6447564701E-005 -1.1298613301E+002  +2.4700569727E-001 -1.7055312835E+002 
509580.726 +1.0944947737E-001 +1.7074136529E+002  +9.8478590093E-004 +1.7243001474E+002  +2.5111998104E-004 -1.4264094637E+002  +2.4686119788E-001 -1.6754077083E+002 
634725.907 +1.1693534057E-001 +1.7094785856E+002  +8.5501585497E-004 -1.0271232454E+002  +4.3421794175E-004 +4.9894248691E+001  +2.4687490315E-001 -1.6611656832E+002 
759871.089 +1.1900343763E-001 +1.7112801744E+002  +7.5121341403E-004 -1.2442986529E+002  +1.5456948412E-004 +6.9025320683E+001  +2.5116113619E-001 -1.6756912854E+002 
885016.270 +1.2062467988E-001 +1.6894898013E+002  +3.7265503378E-004 -1.0300442180E+002  +6.3291750631E-004 +1.4242877768E+002  +2.4118245519E-001 -1.6585530441E+002 
1010161.452 +1.1816517702E-001 +1.6980248674E+002  +1.4857642804E-003 -7.7583720500E+001  +1.9709109419E-003 +6.5769224039E+001  +2.0130328605E-001 -1.6487485829E+002 
1135306.633 +1.1702928909E-001 +1.6982854175E+002  +1.1602724810E-003 +1.0041880880E+001  +1.0247154462E-003 -1.0643338559E+002  +2.0263992535E-001 -1.6838906044E+002 
1260451.815 +1.2025181490E-001 +1.7090662014E+002  +2.0031417412E-003 -1.8164610998E+000  +3.6472151627E-004 +6.5380251384E+001  +1.9476560484E-001 -1.6043919500E+002 
1385596.996 +1.2130429432E-001 +1.7071867559E+002  +6.8557231618E-004 -1.2599697669E+002  +1.5721601614E-003 +1.1267944335E+002  +2.6322676793E-001 -1.6067071204E+002 
1510742.178 +1.2964471179E-001 +1.7251252389E+002  +7.2494810462E-004 +6.5386623781E+000  +6.6942004759E-004 +1.1063866986E+002  +2.5915232749E-001 -1.5835718369E+002 
1635887.359 +1.2983729576E-001 +1.7152592776E+002  +6.5614838189E-004 -3.5874304104E+001  +3.1174383470E-004 -1.5433136776E+002  +2.5060955727E-001 -1.5641178151E+002 
1761032.541 +1.3168280139E-001 +1.6919017186E+002  +1.5849833627E-003 +2.5295259034E+001  +1.1810734658E-003 +1.3977281547E+002  +2.3109276326E-001 -1.5940672910E+002 
1886177.722 +1.2582429421E-001 +1.6684098975E+002  +1.8901706564E-003 +9.2592054908E+001  +1.7745832080E-003 -4.6887253702E+000  +2.1747502735E-001 -1.6358078432E+002 
2011322.904 +1.2932135670E-001 +1.6715937882E+002  +4.9188469226E-003 +5.0658470852E+001  +4.7108175116E-003 -7.6316055470E+001  +1.9043328744E-001 -1.5778762344E+002 
2136468.085 +1.2832668197E-001 +1.6503170454E+002  +6.1213636632E-003 +1.0971221188E+002  +6.0339208793E-003 -3.2291835797E+001  +2.0861167196E-001 -1.6672953212E+002 
2261613.267 +1.2431771011E-001 +1.6390698935E+002  +9.9978503411E-003 +1.0163879824E+002  +9.7069887054E-003 -3.0198373792E+001  +2.1403604038E-001 +1.7358292856E+002 
2386758.448 +1.3654271635E-001 +1.6597738706E+002  +3.7770129208E-003 +1.1158209743E+002  +3.8646376539E-003 -3.3784455220E+001  +2.4141827504E-001 -1.7716624612E+002 
2511903.630 +1.3101334868E-001 +1.5759901022E+002  +9.8115261952E-003 +1.2100049599E+002  +1.2381982124E-002 -1.3719386241E+001  +2.2402478681E-001 +1.7720332848E+002 
2637048.811 +1.4151670910E-001 +1.6054352481E+002  +2.5227083557E-002 +6.0016830343E+001  +2.8426553295E-002 -7.6517553845E+001  +7.7285501553E-002 -5.5159361731E+001 
2762193.992 +1.3233356632E-001 +1.6868638240E+002  +4.0702910412E-002 -1.6594665404E+001  +3.2464590231E-002 -1.2266129748E+002  +2.0487166404E-001 -6.2338974602E+001 
2887339.174 +1.1851391838E-001 +1.6594226042E+002  +2.7340337635E-002 -1.7942324522E+001  +2.0341550553E-002 -1.0664695777E+002  +1.9198653600E-001 -1.2801089298E+002 
3012484.355 +1.1527449134E-001 +1.7022533399E+002  +3.8882796430E-002 -2.8249335982E+001  +3.5251574824E-002 -1.3036169412E+002  +3.0148631196E-001 -8.2241876061E+001 
3137629.537 +1.2124272835E-001 +1.6583045990E+002  +6.0666234490E-002 +4.8536726662E-001  +4.9205340696E-002 -6.3684042123E+001  +3.3488165196E-001 +2.4491830704E+001 
3262774.718 +1.2972981032E-001 +1.6483842431E+002  +2.5527208461E-002 +1.6593285456E+001  +4.0395684638E-002 -5.9910491292E+001  +1.0040163055E-001 +4.8146749987E+001 
3387919.900 +1.3985973950E-001 +1.6220962889E+002  +7.2673865516E-002 +2.0500637923E+000  +7.3824043955E-002 -8.2225115896E+001  +6.3868212395E-001 -1.3684142125E+001 
3513065.081 +1.6198699821E-001 +1.5439573038E+002  +2.3374159111E-002 +5.6744675421E+001  +2.2801987715E-002 -6.1038577649E+000  +1.3002027746E-001 +1.4249389006E+002 
3638210.263 +1.3870853810E-001 +1.4242868433E+002  +5.8480073637E-002 +8.7383069492E+001  +4.4834373681E-002 +2.1245061058E+001  +3.7239004294E-001 +1.2858837254E+002 
3763355.444 +1.5873385516E-001 +1.5368421450E+002  +3.9148443937E-002 +9.8150330306E+001  +3.5942431864E-002 +9.9971576881E+000  +4.3170179921E-001 +1.3666891352E+002 
3888500.626 +2.1077016369E-001 +1.3512036660E+002  +5.1830211802E-002 +1.0212494910E+002  +4.5179071769E-002 +4.7555663157E+001  +3.2344264937E-001 +1.4751093731E+002 
4013645.807 +1.6674130724E-001 +1.5122947871E+002  +4.3702796857E-002 +6.9904580671E+001  +4.5058961305E-002 +6.3277403733E+000  +3.4539872109E-001 +1.1729096306E+002 
4138790.989 +1.7584717019E-001 +1.5179493221E+002  +2.8576401124E-002 +1.0646723385E+002  +2.7577083235E-002 +4.9427652859E+001  +4.3772087034E-001 +1.5510652866E+002 
4263936.170 +1.7557201089E-001 +1.3545326279E+002  +5.6123176081E-002 +5.2878234316E+001  +4.8314464816E-002 +1.0178829132E+001  +2.2414354282E-001 +1.1168443240E+002 
4389081.352 +2.0816008219E-001 +1.2990687083E+002  +6.9953449333E-002 +1.0631602106E+002  +6.4073033217E-002 +6.2928944045E+001  +6.6609586783E-001 +1.3398304977E+002 
4514226.533 +2.7153846678E-001 +1.3303625583E+002  +1.1005275833E-001 +1.2590278045E+002  +1.1288526182E-001 +6.6025143186E+001  +8.9672892521E-001 +1.0770314493E+002 
4639371.715 +2.4340911334E-001 +1.2639994090E+002  +1.8006460768E-001 +1.0531967336E+002  +1.8987475390E-001 +3.8975405256E+001  +1.4196563221E+000 +9.2606774504E+001 
4764516.896 +3.3305710352E-001 +1.4566818739E+002  +1.0770799358E+000 -1.6576326213E+002  +1.0648056711E+000 +1.4932911593E+002  +1.3318999564E+001 +1.7047407910E+002 
4889662.078 +3.0489935117E-001 +1.3563565734E+002  +3.6662137471E-001 -1.4039533685E+002  +3.5024395025E-001 +1.7092775758E+002  +3.9904484168E+000 -1.6817464908E+002 
5014807.259 +3.2314992276E-001 +1.2955438432E+002  +1.7281014204E-001 +1.2763168258E+002  +1.6119112883E-001 +8.0984439398E+001  +1.6712361923E+000 +1.2326297780E+002 
5139952.441 +3.4820441850E-001 +1.2488259453E+002  +3.8083385608E-001 +5.8279816788E+001  +3.5915865958E-001 +6.9012625063E+000  +3.3370177013E+000 +1.8324026380E+001 
5265097.622 +3.5794027238E-001 +1.3055798409E+002  +3.2234318420E-001 +5.0496121340E+001  +3.0187170794E-001 +1.5997418910E+001  +3.6479798071E+000 +1.6683213046E+001 
5390242.804 +3.7987477775E-001 +1.3172185756E+002  +1.0799107646E-001 +1.0035966601E+002  +1.2615860725E-001 +7.1539449644E+001  +1.1327505526E+000 +1.0429261643E+002 
5515387.985 +3.9170256968E-001 +1.2843147295E+002  +1.2598519468E-001 +9.5357849200E+001  +1.1765086266E-001 +6.8672187002E+001  +1.2224906173E+000 +9.7731017709E+001 
5640533.166 +4.5041354356E-001 +1.2669424896E+002  +1.3775649688E-001 +9.8258952129E+001  +1.4977720588E-001 +6.7303276691E+001  +1.4299046233E+000 +9.2741810288E+001 
5765678.348 +5.2484099711E-001 +1.2042038321E+002  +2.2404832786E-001 +7.2430574307E+001  +2.0966888514E-001 +3.8893980191E+001  +1.5296985583E+000 +4.0130686527E+001 
5890823.529 +5.0120136712E-001 +1.2048923685E+002  +3.0678393370E-001 +6.2877800838E+001  +2.8123848907E-001 +3.3735485045E+001  +3.0353356682E+000 +3.7190682442E+001 
6015968.711 +5.2690081605E-001 +1.1653643036E+002  +1.7541295172E-001 +6.7738057480E+001  +1.5724688231E-001 +4.8279871852E+001  +1.4061031782E+000 +6.3441370301E+001 
6141113.892 +6.9994859927E-001 +1.1377382453E+002  +2.1975456601E-001 +6.3833218953E+001  +2.3376912584E-001 +5.1864072929E+001  +1.8385358260E+000 +4.8104969944E+001 
6266259.074 +7.0223723962E-001 +9.7608341874E+001  +2.1583016284E-001 +5.0275933346E+001  +2.0811163736E-001 +2.7453866676E+001  +1.2399176216E+000 +3.9447688413E+001 
6391404.255 +8.0870767373E-001 +9.4131315240E+001  +2.1333904000E-001 +2.8703162765E+001  +1.7372911985E-001 +1.5841628729E+001  +1.1340890993E+000 +4.0846371584E+000 
6516549.437 +9.6019014271E-001 +7.6116266733E+001  +2.3384369524E-001 +3.7897227258E+001  +2.3535391124E-001 +2.3869717454E+001  +1.2247576636E+000 +2.6959381643E+001 
6641694.618 +1.0221635550E+000 +7.5341893944E+001  +1.9862440247E-001 +2.9296264659E+001  +1.9482520958E-001 +1.3514879327E+001  +1.1293198028E+000 +1.8535369916E+001 
6766839.800 +1.2087787611E+000 +4.1228129160E+001  +2.4288742538E-001 +5.9453973519E+000  +2.3692676002E-001 +3.8123939733E+000  +1.1006069985E+000 -2.7846194122E+000 
6891984.981 +1.1645263622E+000 +3.9260790355E+001  +2.3081803367E-001 +9.3073882800E+000  +1.9934061504E-001 +2.4679603926E+000  +1.0159515533E+000 -6.9678482990E+000 
7017130.163 +1.3104853807E+000 +1.4519875283E+001  +1.9263911279E-001 +1.5146565780E+000  +1.9410787454E-001 -8.3950760708E+000  +1.0529073847E+000 -1.0658100593E+001 
7142275.344 +1.3959359859E+000 +6.3313932576E+000  +2.0658096357E-001 -5.8789962466E-001  +1.8190775378E-001 +3.5529355401E-001  +1.2329203926E+000 -1.3993857942E+001 
7267420.526 +1.4306548672E+000 +6.6525473299E+000  +1.6276353232E-001 +1.7974890932E+000  +1.5350293100E-001 +1.2611341040E+000  +9.9763790643E-001 -4.9071973855E+000 
7392565.707 +1.4447343510E+000 -3.8225071932E+000  +1.5226899743E-001 +5.4832455255E+000  +1.3568342293E-001 +5.4855497919E+000  +1.2336540505E+000 -1.3022040572E+001 
7517710.889 +9.9727510736E-001 +1.4234024000E+000  +1.2160177865E-001 +5.5302542771E+000  +1.2415544310E-001 +7.9008630353E+000  +9.8716621138E-001 -1.0234481327E+001 
7642856.070 +7.9469082879E-001 -6.1316317480E+000  +1.1374458374E-001 +4.2355649425E+000  +1.1751726717E-001 +5.6104823266E+000  +1.0034699522E+000 +1.0565179199E+000 
7768001.252 +8.3038704780E-001 -1.7078863386E+000  +1.1282145196E-001 +3.7846901230E+000  +1.1961730704E-001 +5.4272569686E+000  +8.9795744705E-001 -8.5028439263E+000 
7893146.433 +7.2651176151E-001 +5.2018835620E+000  +1.0003137825E-001 -3.4972132440E+000  +1.1229200030E-001 +5.7184497352E+000  +7.4589397607E-001 -1.9312748279E+000 
8018291.615 +7.1780272275E-001 +8.7480332681E+000  +1.0753728131E-001 +1.0691011080E+000  +1.0390590285E-001 +1.2055151339E+001  +7.0248086982E-001 -1.2826977459E+001 
8143436.796 +5.6421598281E-001 +1.1140555271E+001  +9.3358134525E-002 -3.8146957070E+000  +9.3499029644E-002 +1.0522233404E+001  +6.9836281170E-001 +3.5927292951E+000 
8268581.977 +6.4262305091E-001 +1.3039428940E+001  +9.6172753293E-002 -1.9848306552E+000  +9.1084881962E-002 +7.0624107083E+000  +6.4656590612E-001 +4.9685646110E-001 
8393727.159 +6.1362785720E-001 +1.1847900110E+001  +9.8402034821E-002 -5.3060719841E+000  +9.2517386746E-002 +8.7227145128E+000  +5.9242595928E-001 +1.9773340965E+000 
8518872.340 +5.5966623687E-001 +1.2888652294E+001  +9.2807746782E-002 -1.9791708204E+000  +8.6992094845E-002 +8.5229713680E+000  +6.0541069535E-001 -9.0998143741E-001 
8644017.522 +5.6409722546E-001 +8.3170626177E+000  +8.9880945358E-002 -6.9420011756E+000  +9.5307495494E-002 +7.6898308056E+000  +5.7095416169E-001 -6.4305012847E-001 
8769162.703 +5.4081534747E-001 +1.0544412772E+001  +9.6402757428E-002 -4.4196245179E+000  +8.9682622732E-002 +9.7376862623E+000  +5.7633326611E-001 +2.3222008481E+000 
8894307.885 +4.9346823139E-001 +1.2062917849E+001  +8.8959524774E-002 -3.2008688761E+000  +9.1724127543E-002 +9.2036818695E+000  +5.1794105239E-001 -8.2054870495E-002 
9019453.066 +4.5423252522E-001 +2.8799764827E+000  +9.4096715760E-002 -4.4542052647E+000  +8.9974167696E-002 +9.5816812523E+000  +5.4729651006E-001 +1.7610285427E+000 
9144598.248 +4.5208201022E-001 +5.2505583543E+000  +9.2805521068E-002 -4.0427415398E+000  +8.9285738763E-002 +9.8312484613E+000  +5.0510163752E-001 -2.5668008610E+000 
9269743.429 +4.7244158953E-001 +9.5494194829E+000  +9.0936760258E-002 -2.5262920881E+000  +8.6771218315E-002 +1.3128485919E+001  +5.3495313774E-001 +1.7579898636E+000 
9394888.611 +4.7658546234E-001 +5.5187540568E+000  +9.1289001836E-002 -2.5610747373E+000  +8.7868438829E-002 +1.3948816031E+001  +5.5113039973E-001 -1.8951754597E+000 
9520033.792 +4.7378660658E-001 +3.9958449143E+000  +9.2016624077E-002 -4.6146423726E+000  +9.3619803849E-002 +1.1129318963E+001  +5.0617079051E-001 -8.0304256290E+000 
9645178.974 +4.7211294649E-001 +7.5911590771E+000  +8.8121492386E-002 -2.8619032572E+000  +9.1000708426E-002 +1.1672570907E+001  +5.1031717427E-001 -4.5440181103E+000 
9770324.155 +4.9638238010E-001 +4.4552079408E+000  +8.8748835619E-002 -4.1430687678E+000  +8.8599087534E-002 +1.2608848698E+001  +4.3948637801E-001 -3.1898342982E+000 
9895469.337 +4.4578131084E-001 +4.5985355251E+000  +9.0135058947E-002 -2.7927974363E+000  +8.9784012317E-002 +1.3012905543E+001  +5.2455537646E-001 -7.2922722939E+000 
10020614.518 +4.5404526495E-001 +4.0086011723E+000  +9.5862095058E-002 -2.5981878708E+000  +9.0267960005E-002 +1.4821390915E+001  +5.1086973749E-001 -5.5642718057E+000 
10145759.700 +4.7039666705E-001 +9.5100322572E+000  +9.1812320564E-002 -3.5495722941E+000  +9.0716826584E-002 +1.2442453300E+001  +4.9955845991E-001 -2.0709421175E+000 
10270904.881 +4.6199932516E-001 +7.3440684254E+000  +9.4678857391E-002 -8.9407468657E-001  +9.2481959605E-002 +1.4001845141E+001  +4.9063249025E-001 -6.8951144729E+000 
10396050.063 +4.5837526573E-001 +1.2125444971E+001  +9.5814989673E-002 -1.1594903324E+000  +9.3103809979E-002 +1.4588622852E+001  +4.8922883227E-001 +2.0156777483E-001 
10521195.244 +4.5038754511E-001 +1.2130392368E+001  +9.3404769185E-002 -1.2580480953E+000  +8.9850417973E-002 +1.5201897352E+001  +5.3711215588E-001 +3.8044882035E-001 
10646340.426 +4.6164621124E-001 +8.0390295640E+000  +9.4475392692E-002 -9.8178650943E-001  +9.0761613164E-002 +1.7306180336E+001  +5.0074602727E-001 +2.0282386039E+000 
10771485.607 +4.8962589336E-001 +6.8221205978E+000  +9.5039084424E-002 +3.8500426156E-001  +9.5139664522E-002 +1.6904039084E+001  +5.2512652508E-001 +2.1519229895E-001 
10896630.788 +4.4623019125E-001 +9.9772124260E+000  +9.2934556403E-002 -1.1006054596E-001  +9.4044796285E-002 +1.3893522990E+001  +4.9054029660E-001 -5.5708817382E-001 
11021775.970 +5.1478399712E-001 +1.1315193234E+001  +9.3694800961E-002 +1.1108160140E+000  +9.4298707768E-002 +1.4697158124E+001  +5.1977375687E-001 -9.1360949993E-001 
11146921.151 +4.8716328841E-001 +5.7518322495E+000  +9.4894123444E-002 +1.6862696391E+000  +9.5955044298E-002 +1.4901487843E+001  +5.2135746606E-001 +2.4292732938E+000 
11272066.333 +5.1738650252E-001 +9.2601619080E+000  +9.7116294846E-002 -1.2784026863E-001  +9.6905787262E-002 +1.4885155283E+001  +5.1444415651E-001 +2.3037363084E+000 
11397211.514 +5.2913618397E-001 +6.2814366775E+000  +9.7337530707E-002 +4.2665819298E-001  +9.6799970996E-002 +1.3892319632E+001  +5.1848031120E-001 +5.7371026340E+000 
11522356.696 +5.1462332650E-001 +9.0518808896E+000  +9.7872256589E-002 +2.2056105219E+000  +9.7888589360E-002 +1.3880070841E+001  +5.1080892429E-001 +3.3153077270E+000 
11647501.877 +5.4378872691E-001 +7.1162000654E+000  +1.0219912532E-001 +2.2727748528E+000  +9.9697281710E-002 +1.4338360070E+001  +5.5173219662E-001 -1.4723768284E+000 
11772647.059 +5.4624204983E-001 +8.4577932762E+000  +9.9059771594E-002 +2.9300479183E+000  +9.9775713905E-002 +1.3326865224E+001  +5.5662572364E-001 +1.1594366617E+000 
11897792.240 +5.5672155117E-001 +6.4017387181E+000  +1.0168953216E-001 +3.0064998452E+000  +1.0268280631E-001 +1.4857694786E+001  +5.7787054214E-001 +3.7837368880E+000 
12022937.422 +5.7983805106E-001 +6.7107863886E+000  +1.0138544585E-001 +2.9291945535E+000  +1.0134878017E-001 +1.3964378794E+001  +5.9143476193E-001 +3.9054897339E+000 
12148082.603 +5.8600456235E-001 +3.1773122008E+000  +1.0556920362E-001 +3.4015216950E+000  +1.0290158832E-001 +1.3734990307E+001  +6.0484071678E-001 -1.5343429612E+000 
12273227.785 +5.8602904133E-001 +5.1695287564E+000  +1.0422559249E-001 +3.7746471980E+000  +1.0498690195E-001 +1.2295537900E+001  +5.9749523642E-001 +3.3103600066E+000 
12398372.966 +6.1757187527E-001 +1.4578431133E+000  +1.0820402391E-001 +5.7370518412E+000  +1.0494058614E-001 +1.2532754023E+001  +6.1152750774E-001 -1.0758606115E-001 
12523518.148 +6.1307857746E-001 +4.2018325056E+000  +1.0773055909E-001 +3.6712168465E+000  +1.0741117967E-001 +1.1455506984E+001  +6.3729298369E-001 +1.8892619707E+000 
12648663.329 +6.3132330891E-001 +3.3604623569E+000  +1.1094675144E-001 +4.6206852281E+000  +1.0699074631E-001 +1.0603113466E+001  +6.3758582318E-001 +6.1642713860E-001 
12773808.511 +6.3752872999E-001 +4.4927668269E+000  +1.0888748512E-001 +4.2811155772E+000  +1.0866256184E-001 +1.0695418187E+001  +6.5244424863E-001 +1.6186988913E+000 
12898953.692 +6.4019737450E-001 +2.6895708328E+000  +1.1050724530E-001 +4.4854119568E+000  +1.1007525829E-001 +1.0038363747E+001  +6.7708206442E-001 +9.4193820924E-001 
13024098.874 +6.5838329828E-001 +2.7883840562E-001  +1.1376510929E-001 +4.7951513610E+000  +1.1145220261E-001 +9.6925315089E+000  +6.9243745303E-001 -7.2565815456E-001 
13149244.055 +6.8035109132E-001 +1.9617894164E+000  +1.1361201174E-001 +5.3572543407E+000  +1.1162627705E-001 +9.3515336899E+000  +7.1148713117E-001 -1.0258629009E+000 
13274389.237 +7.1944234319E-001 +1.3630848066E+000  +1.1518830099E-001 +5.7021868868E+000  +1.1400146266E-001 +9.9810591160E+000  +7.1506549763E-001 -9.0221427115E-001 
13399534.418 +7.2427524167E-001 -7.7698085418E-002  +1.1561716146E-001 +5.1024701660E+000  +1.1369460019E-001 +8.4067451724E+000  +7.0808931484E-001 -2.7744676007E+000 
13524679.599 +7.2235922215E-001 -2.4089162616E+000  +1.1667546719E-001 +4.7466486644E+000  +1.1432456801E-001 +7.7519268827E+000  +7.5633955330E-001 +5.5972708023E-002 
13649824.781 +7.4272029535E-001 -3.3469986076E+000  +1.1978467633E-001 +4.9365215286E+000  +1.1580505082E-001 +7.2643576423E+000  +7.4868276874E-001 -3.7693988873E+000 
13774969.962 +7.6865141697E-001 -1.9724467274E+000  +1.1776914083E-001 +4.4148687213E+000  +1.1806802510E-001 +6.4216114962E+000  +7.6900771312E-001 -3.0804688313E+000 
13900115.144 +8.0341750836E-001 -3.2755591649E+000  +1.2039028831E-001 +5.4985714703E+000  +1.1788076883E-001 +6.7061152879E+000  +7.9753067857E-001 -2.9117425407E+000 
14025260.325 +8.0815469583E-001 -3.2785142502E+000  +1.2030312398E-001 +5.1937762691E+000  +1.1815537575E-001 +6.0935744744E+000  +8.1571480254E-001 -2.4642260865E+000 
14150405.507 +8.4275454324E-001 -4.7249468387E+000  +1.2132008831E-001 +5.7211800377E+000  +1.1846417281E-001 +5.9468932203E+000  +8.2472638469E-001 -3.4006895979E+000 
14275550.688 +8.5639871193E-001 -4.6025422589E+000  +1.1954979274E-001 +4.8419791183E+000  +1.1851692112E-001 +6.0359460105E+000  +8.3917344767E-001 -3.6389051449E+000 
14400695.870 +8.5163851825E-001 -4.7043996923E+000  +1.2208533062E-001 +4.6040246270E+000  +1.1948075200E-001 +5.3056238749E+000  +8.6565515891E-001 -4.7876498734E+000 
