!  2-Port S-parameters saved by WinCal
! VAR MeasName=S-Parameters (CALIBRATED_DATA) read from VNA (P5004A)
! VAR MeasDate=27/08/2024 15:13:25
! VAR NAME=S2_r3c8_SET3_9k-100M_3
! VAR FILENAME=S2_r3c8_SET3_9k-100M_3.S2P
! VAR DATE=27/08/2024 15:13:25
! VAR PHYS_PORTS=1,2
! VAR ObjTypeName=DATASET
! VAR IndexType=Frequency
!
# Hz S MA R 50
9000.000 +8.0249989648E-002 -1.5257924703E+002  +9.6957328051E-003 +1.5468333472E+001  +2.8959582792E-002 +1.4599021789E+001  +3.4234955883E-001 -1.4147484941E+002 
134145.181 +1.1087298682E-001 +1.6956385741E+002  +2.8031754216E-004 -3.6338718178E+001  +5.1873164897E-004 -1.7225333302E+002  +2.4142362772E-001 -1.7131157578E+002 
259290.363 +1.1257845623E-001 +1.6973694191E+002  +1.2795309168E-004 +1.1928488069E+000  +6.8452389201E-004 +4.7103813950E+001  +2.3854939284E-001 -1.6918810175E+002 
384435.544 +1.1438314413E-001 +1.6995916960E+002  +1.5908377963E-004 +1.2674811796E+002  +4.0955831629E-004 -7.0072217025E+001  +2.3654452470E-001 -1.6896147891E+002 
509580.726 +1.1364393647E-001 +1.7100492789E+002  +1.2629671740E-003 +1.4948224105E+002  +4.8603335829E-004 -1.2286739402E+002  +2.4176877324E-001 -1.6699869020E+002 
634725.907 +1.1552168826E-001 +1.7053998144E+002  +1.7234214403E-003 -5.2403303403E+001  +8.3118773697E-004 +1.5938273948E+002  +2.4473696780E-001 -1.6046886393E+002 
759871.089 +1.1770797432E-001 +1.7030878205E+002  +7.0884797130E-004 -1.2899800223E+002  +5.6865130061E-004 -8.2130380496E+000  +2.5390040462E-001 -1.6526659050E+002 
885016.270 +1.1602510763E-001 +1.7058092458E+002  +7.0846252800E-004 -5.0547171354E+001  +1.2220492654E-003 +5.4780639516E+001  +2.3894784751E-001 -1.6379660315E+002 
1010161.452 +1.1668173748E-001 +1.6970580884E+002  +1.1324540284E-003 +1.1423958850E+002  +1.7292947124E-003 -1.6008047590E+002  +1.7451922253E-001 -1.5328485664E+002 
1135306.633 +1.1552569677E-001 +1.7160428431E+002  +1.1181108540E-003 -1.1448443341E+002  +1.9867543620E-003 -1.0276918118E+002  +1.8820564713E-001 -1.5843404394E+002 
1260451.815 +1.2164931194E-001 +1.6891213976E+002  +1.4949930030E-003 +5.2812006086E+001  +1.4709377192E-003 -1.2189231893E+002  +2.3926374796E-001 -1.6003413672E+002 
1385596.996 +1.2923718937E-001 +1.7194775047E+002  +5.1309399694E-004 +1.7127285615E+002  +1.1455262376E-003 -1.3410558478E+002  +2.6416774979E-001 -1.5766947971E+002 
1510742.178 +1.2842009347E-001 +1.7116810400E+002  +6.1585118571E-004 -1.5061934761E+002  +1.5387437992E-003 +1.1928360487E+002  +2.3277779810E-001 -1.5743620386E+002 
1635887.359 +1.2880605604E-001 +1.7223700203E+002  +3.1025758557E-004 -4.4704813701E+001  +7.5797172836E-004 +1.7425294707E+002  +2.3247547528E-001 -1.5744857779E+002 
1761032.541 +1.2812057496E-001 +1.6882458559E+002  +1.4006155276E-003 -1.0389255348E+001  +1.0020465395E-003 +1.5327883859E+002  +2.1687536056E-001 -1.5746302537E+002 
1886177.722 +1.2877728692E-001 +1.6901144553E+002  +1.9450717777E-003 +9.5081732732E+001  +1.2946842146E-003 +1.6295466894E+002  +2.1217574518E-001 -1.6243680584E+002 
2011322.904 +1.3033130064E-001 +1.6674416326E+002  +2.2590090529E-003 +9.1947982486E+001  +3.2557047885E-003 -9.8531400988E+001  +1.7785133062E-001 -1.7755757119E+002 
2136468.085 +1.3198873824E-001 +1.6653463282E+002  +3.3729009664E-003 -4.2131608388E+001  +3.2148627773E-003 -1.4349183956E+002  +1.6390815320E-001 -1.7268495666E+002 
2261613.267 +1.3533041379E-001 +1.6510509814E+002  +1.8003432161E-003 -1.9939337625E+001  +6.3317098735E-003 -1.4299177263E+001  +1.6153626083E-001 +1.7025514465E+002 
2386758.448 +1.3492094713E-001 +1.6459575363E+002  +5.5483888487E-003 +1.2073656022E+002  +2.6726553330E-003 -7.4701872476E+001  +1.6712934818E-001 -1.7393447581E+002 
2511903.630 +1.3225596060E-001 +1.6570337364E+002  +3.9197711630E-003 +9.5397010037E+001  +3.5397478486E-003 -1.2636715922E+002  +2.2087789603E-001 +1.6645972798E+002 
2637048.811 +1.3158769493E-001 +1.6217408784E+002  +8.4673736902E-003 -1.7499672353E+002  +1.8822361704E-002 -7.8538914344E-002  +3.9026595089E-001 +1.4331998295E+002 
2762193.992 +1.2874003290E-001 -1.7958616266E+002  +1.4539503214E-002 +6.9377385984E+001  +2.5688910391E-002 +3.5762022782E+001  +9.0196096010E-001 +1.7035726631E+002 
2887339.174 +1.3093458122E-001 +1.7427230026E+002  +2.7498170265E-002 -1.0930787775E+002  +1.1139387877E-002 +1.6035501164E+002  +4.6266579504E-001 -8.6051917080E+001 
3012484.355 +1.3093468877E-001 -1.6964340872E+002  +1.9023440005E-002 -7.9239382501E+001  +1.1347569529E-002 -1.4980973932E+002  +3.3026351710E-001 -1.0891675579E+002 
3137629.537 +1.1022215022E-001 +1.6561013876E+002  +1.7526420122E-002 -7.8337089460E+001  +1.0403948908E-002 -1.4260481421E+002  +4.4915691453E-001 -9.7080325256E+001 
3262774.718 +1.4413959972E-001 +1.5774346593E+002  +8.8546738437E-003 -5.1714473262E+001  +4.1610345403E-003 -1.6751459581E+002  +2.3708645271E-001 -1.0285179301E+002 
3387919.900 +1.1808114583E-001 +1.6275486539E+002  +1.9838693624E-002 -2.0485903057E+001  +2.2669771740E-002 -7.2355033011E+001  +1.9584967583E-001 -2.3950131160E+001 
3513065.081 +1.2798649820E-001 +1.5078810477E+002  +4.8819743971E-002 -3.0790789695E-001  +2.0280355100E-002 -6.8418965313E+001  +5.6681913050E-001 +5.4099677436E+000 
3638210.263 +1.7348986667E-001 +1.4449102520E+002  +1.9135893066E-002 +1.2422539117E+002  +2.1652934766E-002 -5.5835873821E+001  +4.8264618011E-001 +1.1775232196E+002 
3763355.444 +1.7153839453E-001 +1.5069728824E+002  +7.8373289571E-003 +1.0099117280E+002  +1.4090143410E-002 +4.6110728825E+001  +5.0412267750E-001 +1.4750002990E+002 
3888500.626 +1.4602239228E-001 +1.5423777586E+002  +1.3587313379E-002 +8.7925185856E+001  +2.5569635040E-002 +1.8313471356E+001  +3.4017098262E-001 +1.2835077788E+002 
4013645.807 +1.7427804109E-001 +1.5610532340E+002  +4.8605322022E-003 +1.3309140030E+002  +1.2661199002E-002 -2.7849232065E+001  +3.2974974150E-001 +1.2423502024E+002 
4138790.989 +1.9528875240E-001 +1.4879756735E+002  +1.5106989577E-002 +1.0147021595E+002  +1.7362820897E-002 +3.8932741999E+001  +8.7769192309E-001 +1.0914062863E+002 
4263936.170 +1.7283111408E-001 +1.5053720645E+002  +2.0152827729E-002 +8.7386131529E+001  +2.2217487251E-002 -3.8345857558E+001  +7.1128764424E-001 +9.0820112662E+001 
4389081.352 +2.2479344931E-001 +1.4049713822E+002  +4.1962591495E-002 +1.1586372992E+002  +2.4593894056E-002 +2.2779210043E+001  +9.2662730831E-001 +6.2367191183E+001 
4514226.533 +2.6380239543E-001 +1.2919617236E+002  +5.7929558657E-002 +1.0723861504E+002  +6.4044594715E-002 +4.3288427311E+001  +1.4693828385E+000 +8.5871781491E+001 
4639371.715 +2.5554192570E-001 +1.4174791784E+002  +3.1066547148E-002 +9.4484322360E+001  +3.2044753662E-002 +9.3914500959E+001  +2.1231458717E+000 +1.3068917164E+002 
4764516.896 +3.7054474038E-001 +1.3217737953E+002  +2.6496101648E-001 +1.7711497955E+002  +1.8649490990E-001 +1.4479304701E+002  +6.8319097457E+000 +1.5026140791E+002 
4889662.078 +4.6006071205E-001 +1.1688076561E+002  +3.1332656993E-001 +2.3404112829E+001  +1.1590668857E-001 -3.4877059323E+001  +3.7454842482E+000 -5.0838117965E+001 
5014807.259 +3.4945589215E-001 +1.2491238939E+002  +1.5185104306E-001 +1.6628602785E+002  +2.1482134903E-001 +9.5636330123E+001  +7.1023913448E+000 +1.2288591925E+002 
5139952.441 +3.8977061722E-001 +1.3356993501E+002  +5.3367782257E-002 +1.2861047936E+002  +3.6157858043E-002 +5.6741332254E+001  +1.8512430584E+000 +8.6820129153E+001 
5265097.622 +3.2824019898E-001 +1.3261994084E+002  +8.7760507703E-002 +7.4452809406E+001  +4.1793817446E-002 +7.9444872749E+001  +2.5001050645E+000 +6.9836835657E+001 
5390242.804 +3.8743333682E-001 +1.3588569729E+002  +2.6589573022E-002 +1.4537260437E+002  +2.2510786888E-002 +1.0888682886E+002  +2.0020805730E+000 +1.1964685386E+002 
5515387.985 +4.2503347396E-001 +1.2975382747E+002  +2.8409504523E-002 +1.1253660852E+002  +4.7465484574E-002 +5.8098059962E+001  +1.3009104130E+000 +9.7427803800E+001 
5640533.166 +4.2013206138E-001 +1.1980717615E+002  +5.7880054401E-002 +9.6983972023E+001  +4.1398838633E-002 +3.7493555486E+001  +1.2475772103E+000 +5.8575289907E+001 
5765678.348 +5.7681766610E-001 +1.2805050676E+002  +9.1538776164E-002 +1.1696941329E+002  +1.2705204446E-001 +7.1466527671E+001  +5.1687048936E+000 +3.2732356183E+001 
5890823.529 +6.0439774429E-001 +1.1737574074E+002  +9.7781898760E-002 +8.6545181819E+001  +7.5026174724E-002 +6.1041598347E+001  +2.0038407686E+000 +2.5622748890E+001 
6015968.711 +6.4424325586E-001 +1.2095802872E+002  +1.0755365812E-001 +6.8373971028E+001  +5.6116231162E-002 +3.5628088718E+001  +2.6369729088E+000 +3.8701134367E+001 
6141113.892 +7.6568047597E-001 +1.1219311992E+002  +5.4554104726E-002 +6.3788479928E+001  +4.9800077158E-002 +6.7540590455E+001  +2.2457380671E+000 +3.3381489940E+001 
6266259.074 +7.8187479154E-001 +1.0203028610E+002  +5.6565892434E-002 +8.4173314300E+001  +5.8998133113E-002 +3.5089495650E+000  +1.2811747578E+000 +3.2446983859E+000 
6391404.255 +9.7981049930E-001 +9.4751027949E+001  +8.0856570130E-002 +4.3593166396E+001  +7.4570183249E-002 +2.5877429015E+001  +1.4909895056E+000 +7.7710772023E+000 
6516549.437 +1.1328958796E+000 +9.6219429740E+001  +8.2732255071E-002 +2.8854939623E+001  +2.6774687508E-002 +3.4710300706E+001  +1.4969519655E+000 +4.4540646412E+000 
6641694.618 +1.8880087052E+000 +6.5496382502E+001  +1.1106802779E-001 +2.9453744701E+001  +1.0087651456E-001 +1.3921102617E+001  +1.3149285970E+000 -5.7917383022E-001 
6766839.800 +1.6342492928E+000 +4.8461177633E+001  +8.0190460500E-002 +2.7775616325E+001  +7.5584292825E-002 +1.6786178180E+001  +1.5214251915E+000 +1.0067544405E+001 
6891984.981 +1.9730937739E+000 +3.2676645103E+001  +8.4816597188E-002 -4.4682781020E+000  +4.9806458908E-002 +2.2990606989E+001  +1.1754925428E+000 -5.2612660636E+000 
7017130.163 +1.6082695330E+000 +1.7246309316E+001  +4.9839790003E-002 +1.4258353442E+001  +6.2100341461E-002 +1.3185475467E+001  +1.3195029693E+000 -4.7921589181E+000 
7142275.344 +1.6471971277E+000 +7.4775619780E+000  +5.9720351136E-002 +2.2013140787E+001  +4.9437277242E-002 -2.3885682076E+000  +1.2333400832E+000 -5.7620235289E+000 
7267420.526 +1.4553745065E+000 -1.2339601238E+000  +4.2293254388E-002 -3.3941895896E+000  +4.1557526547E-002 -6.3383275282E-001  +1.3205207153E+000 -1.2904309526E+001 
7392565.707 +1.2583988709E+000 +1.6073941881E+000  +3.7090322089E-002 +1.3923153945E+001  +2.9848063040E-002 +1.2530505573E+001  +1.3730199386E+000 -8.3361723355E+000 
7517710.889 +9.6316698824E-001 -3.9357681307E+000  +2.8481666742E-002 +2.0092708644E+000  +3.1573847441E-002 +1.1289348219E+001  +1.0563943907E+000 -7.5600225406E+000 
7642856.070 +1.0215997413E+000 +5.5240901380E+000  +2.6383483487E-002 +6.0460711898E+000  +2.0876159707E-002 +1.7011644985E+001  +1.0779850039E+000 -4.1392618681E+000 
7768001.252 +9.8311137781E-001 +5.3275192438E+000  +3.2234224925E-002 -2.8107693295E+000  +2.9004936212E-002 +2.7188206447E+000  +9.4393351044E-001 +8.1328850168E-001 
7893146.433 +8.8153505962E-001 +4.1630760764E+000  +2.6214387342E-002 +2.6309754220E+001  +3.0466267296E-002 +5.1747805408E+000  +8.2589196236E-001 -5.4031926365E+000 
8018291.615 +8.1361791640E-001 +1.3755346265E+001  +2.8506367734E-002 +9.2300867606E+000  +2.8103307982E-002 +7.0008428655E+000  +8.2733827067E-001 -3.2640629654E+000 
8143436.796 +8.4032425801E-001 +1.1427716954E+001  +2.6896151884E-002 +4.2938351187E+000  +2.5219492385E-002 +2.8881237853E+001  +7.9771310273E-001 +2.4266132213E-001 
8268581.977 +7.2691400070E-001 +6.3453254233E+000  +2.4735153276E-002 -9.5447226536E+000  +2.8198709527E-002 +2.1415390251E+001  +8.1281163908E-001 +8.7891767350E-001 
8393727.159 +6.2659045685E-001 +4.9711142294E+000  +2.6591034440E-002 -5.8676838879E+000  +2.5205701034E-002 +1.7933157452E+001  +7.4605278095E-001 -2.0264287391E+000 
8518872.340 +6.0233191232E-001 +4.8286002136E+000  +2.3214796049E-002 -5.0436903894E+000  +2.7545289100E-002 +1.5623175730E+001  +7.2227412052E-001 +3.7457250310E+000 
8644017.522 +6.4850200392E-001 +5.0267133063E+000  +2.0442561888E-002 -1.7714081722E+000  +2.3664939066E-002 +1.6571815667E+001  +7.0471742594E-001 +2.4606291379E+000 
8769162.703 +6.2805557802E-001 +4.9756424213E+000  +1.7429291365E-002 +1.0245143436E+001  +2.2131096316E-002 +1.5752952036E+001  +6.2247265498E-001 +1.7419525704E+000 
8894307.885 +5.8765717496E-001 +1.2976101894E+000  +1.6651373424E-002 +1.9449285487E+000  +2.2924675486E-002 +2.0785646629E+001  +6.2182255639E-001 +3.6470216655E-001 
9019453.066 +6.2022455803E-001 +9.2230103071E+000  +2.3666809165E-002 +1.9507266150E+001  +2.1787857519E-002 +2.6768886693E+001  +6.4918342686E-001 -1.5998394100E+000 
9144598.248 +5.8772234040E-001 +4.2119216379E+000  +2.1256369119E-002 +1.2184098550E+001  +2.1796160108E-002 +2.1856547931E+001  +6.1962040070E-001 +2.5205224143E+000 
9269743.429 +5.3187101110E-001 -3.1110327181E+000  +2.4214207711E-002 +4.1587703487E+000  +2.3021576407E-002 +1.8927766420E+001  +6.0470326997E-001 -6.4091353026E+000 
9394888.611 +5.2261596529E-001 +6.4837419378E+000  +2.2322349288E-002 +5.0792667043E+000  +2.4107123279E-002 +1.8575173640E+001  +5.8771431394E-001 -1.7608311802E+000 
9520033.792 +5.5268844100E-001 -7.6916951774E-002  +2.3009428399E-002 +6.7041017668E+000  +2.2590044173E-002 +1.9859498340E+001  +5.9029543285E-001 -4.4027795906E+000 
9645178.974 +5.5656320540E-001 +4.0879860489E+000  +2.0689795056E-002 +2.4128693700E+000  +2.2653833469E-002 +1.9473499609E+001  +5.6916329574E-001 -7.0882140034E+000 
9770324.155 +5.3218141059E-001 +4.3564491461E+000  +2.2167845545E-002 +1.5035383890E+001  +2.1149524380E-002 +2.5927882137E+001  +5.7895885591E-001 -8.5910779519E+000 
9895469.337 +5.0781020366E-001 +5.0326617940E+000  +2.1300817818E-002 +6.8476711834E+000  +2.0901848697E-002 +2.0101410833E+001  +5.7400798146E-001 -5.9788657355E+000 
10020614.518 +5.4732334405E-001 -8.9726879988E-001  +2.5045319218E-002 +6.0314381068E+000  +2.1684560726E-002 +2.3783866078E+001  +5.5074803760E-001 -8.5907286685E+000 
10145759.700 +5.0827859098E-001 +4.8330139712E+000  +2.3694929856E-002 +8.5328492653E+000  +2.5016972029E-002 +2.2033425957E+001  +5.4151854691E-001 -7.5546749033E+000 
10270904.881 +5.5399981079E-001 +2.8029064642E+000  +2.4293586820E-002 +8.8102895364E+000  +2.1991395113E-002 +2.4312609990E+001  +5.6862787840E-001 -3.1949005868E+000 
10396050.063 +5.3666636594E-001 +3.1580643368E+000  +2.1642367424E-002 +9.1796145456E+000  +2.3165972395E-002 +1.4091277097E+001  +5.7044711289E-001 -3.3206070692E+000 
10521195.244 +5.5218955339E-001 +6.2279829346E+000  +2.3114579622E-002 +7.7963368114E+000  +2.1601138790E-002 +2.2611595972E+001  +5.3651531411E-001 -3.6165314111E-001 
10646340.426 +5.6451608139E-001 +7.7880425889E+000  +2.3814741953E-002 +7.8102717616E+000  +2.3306021935E-002 +2.0019935471E+001  +5.7075005025E-001 -3.0271847124E+000 
10771485.607 +5.4433488254E-001 +5.8550164826E+000  +2.4701637410E-002 +1.1877719054E+001  +2.6201654183E-002 +1.9688054191E+001  +5.5642130437E-001 +2.9699086472E-001 
10896630.788 +5.7143733528E-001 +5.6512159791E+000  +2.6362254591E-002 +8.7375538297E+000  +2.6301605209E-002 +1.9758965073E+001  +5.6937095236E-001 +2.0253360810E+000 
11021775.970 +5.6108215273E-001 +5.7889404548E+000  +2.6590413970E-002 +6.3359133296E+000  +2.3583447210E-002 +2.7084000653E+001  +5.9234903123E-001 +1.7709221755E+000 
11146921.151 +5.6345884557E-001 +5.3302397602E+000  +2.4845579734E-002 +6.7215854401E+000  +2.2418564286E-002 +3.0109874176E+001  +6.0146824818E-001 +2.9825165177E-001 
11272066.333 +5.6504284340E-001 +6.2204975353E+000  +2.6889175273E-002 +1.1507259363E+001  +2.4640763849E-002 +1.8045669665E+001  +5.8325408799E-001 -4.8861133676E-001 
11397211.514 +5.7574353698E-001 +7.7870791475E+000  +2.4294722382E-002 +1.1598101238E+001  +2.5234696947E-002 +2.6587455994E+001  +5.8936714922E-001 +3.0955661888E+000 
11522356.696 +6.1941350637E-001 +7.0433220631E+000  +2.4672734768E-002 +9.0255812977E+000  +2.4754074653E-002 +2.1420646394E+001  +6.2995698172E-001 -3.1952996660E-001 
11647501.877 +6.2197719830E-001 +7.0598722886E+000  +2.3082891046E-002 +1.3899476616E+001  +2.5565537764E-002 +2.4267434010E+001  +6.2374236592E-001 -1.3122251692E+000 
11772647.059 +5.8608111715E-001 +4.0992829034E+000  +2.6046022004E-002 +1.5446498093E+001  +2.4387868409E-002 +2.2313704947E+001  +6.1436542960E-001 +3.9706917449E-001 
11897792.240 +6.4623737182E-001 +3.9044089353E+000  +2.7155203197E-002 +1.4938924824E+001  +2.4297092755E-002 +2.4547069426E+001  +6.7179896849E-001 +1.4292236295E+000 
12022937.422 +6.4765211178E-001 +6.9441072919E+000  +2.5640705160E-002 +1.0290270840E+001  +2.4128110632E-002 +2.5306351312E+001  +6.7228383538E-001 -4.2556500223E-001 
12148082.603 +6.7003179386E-001 +5.9176297634E+000  +2.5836068679E-002 +1.5834846125E+001  +2.7450258599E-002 +2.3805328360E+001  +6.8304882743E-001 +1.3934138371E+000 
12273227.785 +6.3976918867E-001 +4.7377061184E+000  +2.8091384708E-002 +1.4894354070E+001  +2.7481969799E-002 +2.2457466035E+001  +6.8576814103E-001 -3.3887049368E-001 
12398372.966 +6.6765064494E-001 +3.8508032169E+000  +2.7651071327E-002 +1.1218387387E+001  +2.6019613279E-002 +1.9995697543E+001  +6.7139096267E-001 +2.4261792791E+000 
12523518.148 +6.9067836343E-001 +4.2020360300E+000  +2.8165013598E-002 +1.7752305935E+001  +2.5179140422E-002 +2.2985208241E+001  +7.0401658515E-001 -1.1137852468E-001 
12648663.329 +6.9793347006E-001 +3.3729173140E+000  +2.7014017227E-002 +1.1679012610E+001  +2.8137279064E-002 +2.0349810714E+001  +7.2490220033E-001 -1.0697716834E+000 
12773808.511 +7.4587798449E-001 +2.1486346837E+000  +2.7470908063E-002 +1.0580517568E+001  +2.7537343818E-002 +1.9238041896E+001  +7.4835187981E-001 -6.1068603718E-002 
12898953.692 +7.5891454109E-001 +9.2887551763E-001  +2.7985807793E-002 +2.1792763869E+001  +2.6033625581E-002 +2.0483544178E+001  +7.4613049756E-001 -5.3244954104E-001 
13024098.874 +7.6593447538E-001 +1.3894127237E+000  +2.8033956882E-002 +1.3334335230E+001  +2.7882676177E-002 +2.4738445380E+001  +7.7816279015E-001 -3.2426237038E+000 
13149244.055 +7.8927529682E-001 +1.0870375631E+000  +3.0498222503E-002 +1.4728938038E+001  +2.7504050444E-002 +1.9312763022E+001  +7.7060987388E-001 -2.4013383240E+000 
13274389.237 +7.9320784969E-001 -3.9197944682E-001  +3.0084330949E-002 +1.5100146632E+001  +2.7914714534E-002 +1.7713699917E+001  +8.0027924400E-001 -6.7969628050E-001 
13399534.418 +7.8510156368E-001 +6.8324254361E-001  +2.7696568439E-002 +1.6326578282E+001  +2.8828176261E-002 +1.9092668412E+001  +8.1557649396E-001 -1.5529948970E+000 
13524679.599 +7.9853268258E-001 -2.5768805744E+000  +2.9882636574E-002 +1.8634196095E+001  +3.0400431350E-002 +2.1158118543E+001  +8.5117851775E-001 -2.4096103281E+000 
13649824.781 +8.2354253971E-001 -1.0603641140E+000  +2.9480183715E-002 +1.3561695307E+001  +3.0200092534E-002 +1.8161056039E+001  +8.4223008095E-001 -3.4041866788E+000 
13774969.962 +8.4581979566E-001 -2.5472428510E+000  +3.0297874890E-002 +1.7412878402E+001  +2.9818358253E-002 +1.8166123109E+001  +8.6559596191E-001 -3.2481757840E+000 
13900115.144 +8.7092870763E-001 -2.2944967359E+000  +3.1113466665E-002 +1.9852877363E+001  +2.9709148352E-002 +1.8668700244E+001  +8.6348278121E-001 -2.7577292947E+000 
14025260.325 +8.8065386834E-001 -3.7226814016E+000  +3.1560434077E-002 +1.7367185082E+001  +3.1208862149E-002 +1.8506824886E+001  +9.0246596147E-001 -4.3129941648E+000 
14150405.507 +9.2275773780E-001 -4.3131627142E+000  +3.1092743995E-002 +1.4680175204E+001  +3.0485889481E-002 +1.5570546433E+001  +9.2578278958E-001 -3.7266049691E+000 
14275550.688 +9.2333780062E-001 -4.3983989175E+000  +3.1482810106E-002 +1.6058695494E+001  +3.1013775037E-002 +1.5777126669E+001  +9.1502523750E-001 -4.2434510698E+000 
14400695.870 +9.5187949505E-001 -5.3618936636E+000  +3.1842857726E-002 +1.7639670522E+001  +3.0986447337E-002 +1.6590608120E+001  +9.5767635127E-001 -4.6747519752E+000 
