!  2-Port S-parameters saved by WinCal
! VAR MeasName=S-Parameters (CALIBRATED_DATA) read from VNA (P5004A)
! VAR MeasDate=27/08/2024 14:31:34
! VAR NAME=S2_r2c8_SET3_9k-100M_2
! VAR FILENAME=S2_r2c8_SET3_9k-100M_2.S2P
! VAR DATE=27/08/2024 14:31:34
! VAR PHYS_PORTS=1,2
! VAR ObjTypeName=DATASET
! VAR IndexType=Frequency
!
# Hz S MA R 50
9000.000 +9.9482841848E-002 -1.4228599461E+002  +2.4070818310E-002 -1.3078799666E+002  +9.6078198538E-003 -5.2512351399E+001  +2.1006129003E-001 -1.1169327396E+002 
134145.181 +1.1107887936E-001 +1.6925820133E+002  +2.1517591054E-004 +1.2397320813E+002  +2.9665419946E-004 +1.8376369591E+001  +2.4243356923E-001 -1.7066139254E+002 
259290.363 +1.1156319411E-001 +1.6978300232E+002  +8.9517171487E-004 -6.6414167716E+001  +1.0812249864E-003 +3.1105841206E+001  +2.4442671311E-001 -1.6952527411E+002 
384435.544 +1.1430237661E-001 +1.7023180209E+002  +4.8438274082E-004 -8.3919951394E+001  +6.4302186002E-004 +7.1583064674E+001  +2.4032112489E-001 -1.6977386161E+002 
509580.726 +1.1185540336E-001 +1.7149010379E+002  +8.2698488293E-004 -1.1166797316E+002  +1.4316093590E-003 -5.8873246179E+001  +2.3378945730E-001 -1.6787134990E+002 
634725.907 +1.1714659879E-001 +1.6978261600E+002  +8.5312046927E-004 +5.0929919460E+001  +4.2842959541E-004 +9.9767072468E+001  +2.5462832143E-001 -1.6276682817E+002 
759871.089 +1.1599182050E-001 +1.7024480631E+002  +1.0200459753E-003 -1.7888194042E+002  +9.1001137800E-004 +1.2487872870E+001  +2.4027340831E-001 -1.6671851890E+002 
885016.270 +1.1671330566E-001 +1.6979874025E+002  +8.3524267407E-004 -5.9342230351E+001  +1.3922532345E-003 +6.9419004577E+001  +2.4264942512E-001 -1.6545612509E+002 
1010161.452 +1.1791681190E-001 +1.7011614362E+002  +2.4159694990E-003 +5.3623272978E+001  +7.9390830783E-004 -1.6684833732E+002  +1.7502330241E-001 -1.7829765277E+002 
1135306.633 +1.1150006907E-001 +1.6907658070E+002  +2.1652526768E-003 -5.6410451521E+001  +3.4267008086E-003 +6.2203300901E+001  +1.6652565852E-001 -1.6773817834E+002 
1260451.815 +1.2179543434E-001 +1.7196187186E+002  +1.7608276290E-003 -1.2447796025E+002  +7.7764887808E-004 +1.1394082624E+002  +2.4016273778E-001 -1.5023028006E+002 
1385596.996 +1.2639398447E-001 +1.7229638101E+002  +4.0018503145E-004 -1.0882717036E+002  +2.0992317317E-003 +1.4265372462E+002  +2.7103873489E-001 -1.5762837230E+002 
1510742.178 +1.2794847144E-001 +1.7128423895E+002  +1.0276437790E-003 -1.0203152519E+002  +6.6154999164E-004 +1.5554703580E+002  +2.6107965841E-001 -1.6058276712E+002 
1635887.359 +1.2571840929E-001 +1.7095615624E+002  +6.6556099676E-004 -6.9774668210E+001  +1.1601963249E-003 +1.4089774229E+002  +2.4944570413E-001 -1.5647858466E+002 
1761032.541 +1.2946740288E-001 +1.7056016103E+002  +1.7313689441E-003 -4.7545082410E+000  +1.5017359141E-003 -5.6136852802E+001  +2.2674457911E-001 -1.5889179281E+002 
1886177.722 +1.3093132128E-001 +1.6867430532E+002  +6.5883824057E-004 -6.6903109950E+001  +1.1611384438E-003 -1.4983028639E+002  +2.2510794499E-001 -1.6669918046E+002 
2011322.904 +1.3018042094E-001 +1.6633538256E+002  +4.1544192270E-003 +5.9377547333E+001  +2.5692584742E-003 +4.8156262386E+000  +1.6563859539E-001 +1.7360165125E+002 
2136468.085 +1.3016435855E-001 +1.6549813831E+002  +2.7929803413E-003 +1.6745383482E+001  +6.2915765174E-003 -3.9297186009E+001  +1.6115967784E-001 -1.6721308331E+002 
2261613.267 +1.2120109359E-001 +1.6439738688E+002  +5.7779917426E-003 +6.7056440623E+001  +1.0259417159E-002 -1.1098564988E+002  +1.2540886271E-001 -1.4903118681E+002 
2386758.448 +1.3381594379E-001 +1.6431759755E+002  +4.8434810951E-003 +7.5452409457E+001  +1.1004371857E-002 -4.4396022347E+001  +2.3739108755E-001 +1.5625203190E+002 
2511903.630 +1.3183417435E-001 +1.6006219510E+002  +7.7872517143E-003 +1.3634936803E+002  +6.5543197787E-003 +4.8887364928E+001  +2.9953839979E-001 +1.5979651641E+002 
2637048.811 +1.3370624469E-001 +1.6357045309E+002  +1.0846751815E-002 +1.1981652455E+002  +1.5674267508E-002 +1.7967704471E+001  +4.7582497740E-001 +1.5891359599E+002 
2762193.992 +1.1236446267E-001 +1.6127284680E+002  +1.8066061576E-002 +1.6744130431E+002  +4.4725116655E-002 +8.7579804784E+001  +9.8503531026E-001 +1.7207053853E+002 
2887339.174 +1.0874297654E-001 +1.7796562481E+002  +3.9565865443E-002 -1.7406252228E+002  +1.6336724692E-002 +1.5399745212E+002  +1.0890688972E+000 -1.4029121386E+002 
3012484.355 +1.0701396220E-001 +1.6947266769E+002  +5.2816290195E-002 +9.0409345482E+000  +3.3427669672E-002 -3.3965140553E+001  +4.1515989144E-001 +8.9009784438E+000 
3137629.537 +1.3235794557E-001 +1.6926945515E+002  +3.2916817567E-002 -8.3439358917E+001  +2.9575512439E-002 +1.4908231206E+002  +7.6851776987E-001 -7.6659360376E+001 
3262774.718 +1.2147386705E-001 +1.6751507943E+002  +8.7043802878E-003 +3.4604314684E+001  +9.2934499964E-003 -5.3196746520E+001  +1.9471840917E-001 -1.6643971226E+002 
3387919.900 +1.3222311098E-001 +1.6758527731E+002  +7.5627699083E-002 -9.5647766735E+001  +4.7512901454E-002 +1.6259336470E+002  +2.6299642370E+000 -1.1176161700E+002 
3513065.081 +1.5324255559E-001 +1.4244479088E+002  +2.7108200526E-002 +1.1931992145E+002  +2.3127850921E-002 +1.0722970922E+001  +3.4745177208E-001 +8.0051147398E+001 
3638210.263 +1.8914110078E-001 +1.3600666724E+002  +3.4435325235E-002 +3.1468664031E+001  +2.4614729387E-002 -9.0281838144E+000  +1.8881561104E-001 -1.6295777359E+001 
3763355.444 +1.5812564570E-001 +1.3911085607E+002  +1.8569100515E-002 +1.3448145700E+002  +1.7421073911E-002 -9.7244849730E+000  +2.8938042034E-001 +1.3024592174E+002 
3888500.626 +1.7662472292E-001 +1.5377714569E+002  +1.3917832091E-002 +6.0203985620E+001  +1.0546616730E-002 +3.4243987496E+001  +2.5684789945E-001 +1.1840338794E+002 
4013645.807 +1.7469932191E-001 +1.5092256154E+002  +9.4745129777E-002 +7.7296113365E+001  +4.3630235735E-002 -9.2368717683E+000  +1.5299018189E+000 +6.1890374249E+001 
4138790.989 +1.7444766590E-001 +1.4337413537E+002  +4.4678900650E-002 +1.0122961382E+002  +4.3309586030E-002 +5.8014309208E+001  +7.1198934463E-001 +9.9702223594E+001 
4263936.170 +2.0677421778E-001 +1.4512800032E+002  +2.6222528297E-002 +1.0190224492E+002  +1.8070661928E-002 +4.4739022225E+001  +6.1423296643E-001 +1.4585436424E+002 
4389081.352 +1.9410178808E-001 +1.5257661832E+002  +3.4121542517E-002 +7.5479719512E+001  +3.9997080449E-002 +2.7148586819E+000  +1.0423259554E+000 +1.0145927812E+002 
4514226.533 +2.5343688821E-001 +1.4322885758E+002  +5.5220599971E-002 +1.2257382261E+002  +5.3756119075E-002 +6.0094170018E+001  +1.1983881599E+000 +9.7252067950E+001 
4639371.715 +2.6134327965E-001 +1.2528718631E+002  +5.6897681932E-002 +1.6402368010E+002  +4.7055428366E-002 +1.1625637171E+002  +1.4213677939E+000 +1.5157376878E+002 
4764516.896 +3.8110412516E-001 +1.2266971376E+002  +2.9093452554E-001 -6.7695370336E+001  +1.6868168450E-001 -1.3893627080E+002  +5.1757911012E+000 -1.1194186641E+002 
4889662.078 +4.8252870327E-001 +1.2767684512E+002  +1.9621935849E-001 +7.2199810717E+001  +1.9737887744E-001 +1.2751210607E+001  +2.4289623436E+000 -1.1305806757E+001 
5014807.259 +5.3544451709E-001 +1.1890865299E+002  +1.4072622357E-001 +8.3916140072E+001  +1.5020575768E-001 +1.9521649503E+001  +1.9982882470E+000 +2.1925985460E+001 
5139952.441 +3.6052875944E-001 +1.3017936560E+002  +6.0517376579E-002 +1.3326875104E+002  +7.5162938477E-002 +1.0004947631E+002  +1.4581922594E+000 +1.2853761402E+002 
5265097.622 +3.7571420785E-001 +1.3178788273E+002  +1.4399031066E-001 +1.0472511214E+002  +1.4201331517E-001 +7.0619136840E+001  +3.4371578934E+000 +8.3841850742E+001 
5390242.804 +3.7547179816E-001 +1.3587467243E+002  +4.8773931129E-002 +9.9099108709E+001  +3.3197317436E-002 +7.9756711191E+001  +1.4093577752E+000 +1.0787049608E+002 
5515387.985 +4.2626134708E-001 +1.3593535578E+002  +6.1386843684E-002 +1.2361461078E+002  +5.0539261383E-002 +1.2269427712E+002  +2.2093163181E+000 +1.1356277956E+002 
5640533.166 +4.4709002140E-001 +1.3578123667E+002  +6.3759798341E-002 +1.0962871276E+002  +8.5023117454E-002 +8.3524431618E+001  +2.1229432276E+000 +1.0065314393E+002 
5765678.348 +5.1482060747E-001 +1.2612296590E+002  +6.9882878838E-002 +9.5767310260E+001  +7.5211902253E-002 +6.8155210265E+001  +1.4099428032E+000 +8.1620802704E+001 
5890823.529 +5.6711241763E-001 +1.1734561217E+002  +1.0613152496E-001 +7.6497931432E+001  +8.2551596357E-002 +2.9941972463E+001  +1.8405768132E+000 +5.0473976039E+001 
6015968.711 +5.9571213087E-001 +1.1878264141E+002  +1.0919561787E-001 +8.7094699941E+001  +7.2742246671E-002 +6.7668097884E+001  +2.1959665612E+000 +7.7091587317E+001 
6141113.892 +8.1089359081E-001 +1.0567538154E+002  +1.2383339263E-001 +6.3676138379E+001  +1.3005127617E-001 +5.4232157733E+001  +1.9211964955E+000 +3.8815133195E+001 
6266259.074 +8.0770223871E-001 +1.1273965109E+002  +1.0570169749E-001 +6.4942234868E+001  +6.6308955113E-002 +2.7052755120E+001  +1.6057318807E+000 +2.8857605356E+001 
6391404.255 +9.9327625097E-001 +1.0570078988E+002  +1.0341346631E-001 +5.4437998770E+001  +9.8335885408E-002 +2.7973176096E+001  +1.8264947648E+000 +2.0564396080E+001 
6516549.437 +1.2301015752E+000 +7.7704591548E+001  +1.2170761323E-001 +4.6394514376E+001  +8.0349508574E-002 +1.2216935135E+001  +1.1877256602E+000 +7.6770599319E+000 
6641694.618 +1.4661453290E+000 +8.1832755670E+001  +1.1261378796E-001 +4.2670537909E+001  +1.0073830998E-001 +2.6872730398E+001  +1.4387826705E+000 +6.8938882884E+000 
6766839.800 +1.5771092882E+000 +6.1864489313E+001  +1.1409219367E-001 +2.8198666839E+001  +9.9883865016E-002 +1.7419551763E+001  +1.2580542129E+000 -1.4656733298E+001 
6891984.981 +1.8374869879E+000 +4.5243909497E+001  +1.1823405263E-001 +2.9235096553E+001  +1.0997903986E-001 +1.4415016506E+001  +1.3425499960E+000 -9.2531451264E-001 
7017130.163 +1.7896681192E+000 +1.4999627214E+001  +1.1913653600E-001 +4.1855444284E+000  +1.1560776718E-001 -1.4218340751E+001  +1.4140863389E+000 -8.2822684187E+000 
7142275.344 +1.5961879868E+000 +1.3903846945E+001  +8.2964756323E-002 +2.8273609785E+000  +7.6364030933E-002 -1.9093803847E+000  +1.1293981931E+000 -8.9834808594E+000 
7267420.526 +1.3583894654E+000 -3.3839222016E-001  +6.1774704943E-002 +1.0324115450E+001  +7.5332190407E-002 +3.8848388935E+000  +1.2967161426E+000 -8.8144466983E+000 
7392565.707 +1.2772573449E+000 +3.3999976714E+000  +5.9176825900E-002 +2.3179129840E+000  +5.8617980449E-002 +9.9640180619E+000  +1.2802245689E+000 -7.2987415740E+000 
7517710.889 +1.1539988943E+000 +6.4208358836E+000  +5.1960515182E-002 +8.7884069920E+000  +4.9451936558E-002 +6.7879124328E+000  +1.0922445447E+000 -4.4824848591E+000 
7642856.070 +1.0355472029E+000 +5.0137284353E+000  +4.3242424880E-002 +9.7808373406E+000  +5.1016255229E-002 +1.1896621093E+001  +9.5833079891E-001 -5.9041606057E+000 
7768001.252 +9.7074161140E-001 +5.4837011894E+000  +4.5446709594E-002 +1.1936873181E+001  +3.8966620563E-002 +6.7488564099E+000  +9.7496207351E-001 +2.6448438651E+000 
7893146.433 +8.4390805029E-001 -4.6117853312E-001  +4.4173144568E-002 -8.7705323209E-001  +4.0505426320E-002 +1.3375386249E+000  +8.1237695583E-001 -3.7758155912E+000 
8018291.615 +8.1423045405E-001 +1.7754609118E+001  +4.4710610552E-002 -4.2367948795E-001  +3.8463690508E-002 +1.6484055191E+001  +8.3365749109E-001 +2.4241688640E+000 
8143436.796 +7.5917899448E-001 +8.1794343635E+000  +4.6169921589E-002 -3.9942739581E+000  +3.8893210067E-002 +9.2701396338E+000  +7.7895769864E-001 -3.8746501096E+000 
8268581.977 +6.7612904081E-001 +7.8125510409E+000  +4.1092123023E-002 -1.9218611755E+000  +4.0134039106E-002 +6.0913744292E-002  +6.3731411098E-001 +2.4088753514E+000 
8393727.159 +7.2305188439E-001 +5.6794555678E+000  +3.9917762293E-002 +6.3401842172E+000  +3.6969140391E-002 +1.6081983977E+001  +7.0447812440E-001 +7.0077234932E+000 
8518872.340 +6.6807698662E-001 +9.1362866730E+000  +3.8184110326E-002 +1.1644146233E+001  +4.0326524388E-002 +1.3683368146E+001  +6.6280986041E-001 +6.5840226441E-001 
8644017.522 +6.2666817009E-001 +8.7871821843E+000  +3.4660857318E-002 +3.3474740412E+000  +4.0498602650E-002 +1.5054104204E+001  +6.9275673236E-001 -4.2477064251E+000 
8769162.703 +5.8544304968E-001 +5.1183692259E+000  +4.0182167266E-002 -7.0521029996E+000  +3.7367075401E-002 +1.6643358935E+001  +6.3826618948E-001 -6.2752131588E+000 
8894307.885 +5.7946079023E-001 +3.9139263572E+000  +3.9733726086E-002 +4.7209616965E+000  +4.0749269846E-002 +1.9257796905E+001  +5.7923053312E-001 +4.2195323564E+000 
9019453.066 +5.4712237868E-001 +5.1577792337E+000  +3.7172731663E-002 +5.7445321095E+000  +4.1064616596E-002 +1.7715024024E+001  +6.6582092579E-001 -4.3130008847E-001 
9144598.248 +6.2181410756E-001 +7.1220939279E+000  +4.0140637281E-002 +1.3669141720E+000  +3.6428176144E-002 +1.8698478585E+001  +6.1738701549E-001 -2.8952259390E+000 
9269743.429 +5.4546087582E-001 +3.6245356097E+000  +3.9099707842E-002 -1.2065024469E+000  +3.7522617676E-002 +1.3556725350E+001  +5.4053411163E-001 +4.2935553370E-002 
9394888.611 +5.0811357085E-001 +3.2604815618E+000  +4.0641967284E-002 -3.9685137271E+000  +4.1485739550E-002 +1.4428560443E+001  +5.6125973542E-001 +1.1753662419E-001 
9520033.792 +5.2275685443E-001 +7.7852795326E+000  +3.5883888119E-002 +3.7891692238E+000  +3.7776306650E-002 +1.5752339981E+001  +5.1332921210E-001 -5.2100133197E+000 
9645178.974 +4.8576992843E-001 +3.5739430366E+000  +3.5610711906E-002 -3.6112307323E+000  +4.0367034784E-002 +1.6624194615E+001  +5.6542863996E-001 -6.2318296458E+000 
9770324.155 +5.0815324271E-001 -1.6350569463E-001  +3.8767335456E-002 -1.5409421044E+000  +4.0553144915E-002 +1.2334697536E+001  +5.4580206633E-001 -1.0213478803E+001 
9895469.337 +5.0476954743E-001 +5.5969731515E+000  +3.4389695227E-002 +6.8954614223E-001  +3.5015202118E-002 +2.6310225806E+001  +5.5062126032E-001 -7.7738784961E+000 
10020614.518 +5.0892158778E-001 +1.7626711201E-001  +4.2137538265E-002 +4.5140276595E+000  +3.9733310169E-002 +1.6998993512E+001  +5.2794720635E-001 -4.0546112392E+000 
10145759.700 +4.7957649843E-001 +7.8592001559E+000  +4.2086774388E-002 +7.5331813946E-001  +3.9268170368E-002 +1.6578025178E+001  +5.4407274273E-001 -2.4818118016E+000 
10270904.881 +5.0888840589E-001 +7.1163703807E+000  +3.8355393570E-002 +2.4601463238E+000  +3.6853473562E-002 +1.9375718961E+001  +5.4413087325E-001 -2.1020712297E+000 
10396050.063 +5.0402316038E-001 +2.2032760094E+000  +3.9200304067E-002 +1.5895986267E-001  +3.9638013730E-002 +1.9957728228E+001  +5.4967171431E-001 +2.4026096400E-001 
10521195.244 +4.9177786570E-001 +4.9491233578E+000  +3.8907924996E-002 -3.9847959182E-001  +3.8291086319E-002 +2.0020731295E+001  +5.0494133415E-001 +2.1635126579E+000 
10646340.426 +5.3748496965E-001 +4.9859186492E+000  +4.0573601397E-002 +4.2290700289E+000  +3.9231183987E-002 +1.8302155513E+001  +5.6100056440E-001 -1.9398044710E+000 
10771485.607 +4.9615560696E-001 +1.0811121486E+001  +3.9792154793E-002 +5.2194974760E-001  +3.7091677885E-002 +1.8016023429E+001  +5.7080937330E-001 +7.4753347428E-002 
10896630.788 +5.3004497546E-001 +7.9621854407E+000  +4.0698578831E-002 +5.7965016373E+000  +3.8258338833E-002 +2.0172506265E+001  +5.4784449662E-001 +2.7002588152E+000 
11021775.970 +5.6864916564E-001 +7.8129568331E+000  +3.9601025759E-002 +3.4291585804E+000  +3.8487730292E-002 +1.9152430976E+001  +5.6700113902E-001 +2.2308387436E+000 
11146921.151 +5.6443187191E-001 +5.3242496163E+000  +3.9553966560E-002 +3.9163451188E+000  +4.0892448537E-002 +1.8109105424E+001  +5.3879924248E-001 -4.2210942886E+000 
11272066.333 +5.5488204653E-001 +4.5580087075E+000  +4.1555961620E-002 +4.5694517650E+000  +4.0448025381E-002 +2.2237808782E+001  +6.1260070753E-001 -1.1096365505E+000 
11397211.514 +6.0894816534E-001 +3.2305010892E+000  +4.2034777864E-002 +7.2211989185E+000  +4.0107956806E-002 +1.6765966698E+001  +6.0576374404E-001 +1.8739254865E+000 
11522356.696 +5.9086201509E-001 +9.0081961065E+000  +4.0199935137E-002 +7.0776784649E+000  +4.0906600798E-002 +1.8052276092E+001  +6.0288465615E-001 +1.6742578167E+000 
11647501.877 +5.8945566080E-001 +6.4728849169E+000  +4.0807558648E-002 +6.9913122003E+000  +4.3272589669E-002 +1.9038969707E+001  +6.1733617706E-001 -4.2159639533E-001 
11772647.059 +6.2442178549E-001 +9.1389060288E+000  +4.1435296942E-002 +5.5200701821E+000  +4.0246309487E-002 +1.7126145363E+001  +6.3788734939E-001 +1.6242265255E+000 
11897792.240 +6.3399103805E-001 +6.6830105661E+000  +4.2749788011E-002 +7.5901123435E+000  +4.1958068780E-002 +1.9570991593E+001  +6.3225460140E-001 +1.0437484096E+000 
12022937.422 +6.2228999413E-001 +4.3018743344E+000  +4.5103877801E-002 +8.4508678735E+000  +4.4425800115E-002 +1.7459199827E+001  +6.4663694380E-001 +6.4088796039E-001 
12148082.603 +6.2624170669E-001 +5.6263499822E+000  +4.3522934137E-002 +8.8406724399E+000  +4.3956128891E-002 +1.6928063448E+001  +6.4748093778E-001 +6.3757075080E-001 
12273227.785 +6.6007524727E-001 +4.0915721674E+000  +4.4797998258E-002 +8.7925537585E+000  +4.6355871883E-002 +1.8783426243E+001  +6.8893976237E-001 +5.3675994047E-001 
12398372.966 +6.5272916796E-001 +3.4703464050E+000  +4.4885519958E-002 +9.3641146291E+000  +4.4137972404E-002 +1.6524107322E+001  +6.9560670858E-001 +6.8487794719E-004 
12523518.148 +6.9321715922E-001 +3.7514119556E+000  +4.6036157565E-002 +9.1791928175E+000  +4.4660782557E-002 +1.7790757399E+001  +7.0298874130E-001 -1.5760861170E+000 
12648663.329 +6.8047555762E-001 +4.5527382747E-001  +4.7081605443E-002 +7.8623184488E+000  +4.5179201522E-002 +1.5741416271E+001  +7.0969781002E-001 +8.6130744855E-002 
12773808.511 +7.1311585110E-001 +1.2490195259E+000  +4.6333119341E-002 +9.6944919460E+000  +4.6323044944E-002 +1.7160180894E+001  +7.0463247260E-001 +3.7201921350E-001 
12898953.692 +7.2235892240E-001 +7.4142414809E-001  +4.7039277370E-002 +8.9541247318E+000  +4.5471481434E-002 +1.8307297657E+001  +7.2382984927E-001 -1.8997486043E+000 
13024098.874 +7.3795762714E-001 +4.3845263236E-001  +4.7521256879E-002 +1.1051606976E+001  +4.7132188854E-002 +1.3615428917E+001  +7.4737209091E-001 -1.5326814598E+000 
13149244.055 +7.4592174040E-001 -3.2324388425E-001  +4.8262390819E-002 +1.0099555206E+001  +4.5731203086E-002 +1.3883077162E+001  +7.6872744968E-001 -1.8320360503E+000 
13274389.237 +7.4840002156E-001 +8.1870481480E-001  +4.7956844949E-002 +9.6649302678E+000  +4.7398762236E-002 +1.3306996490E+001  +7.6368748548E-001 -2.7529922037E-001 
13399534.418 +7.9915418807E-001 -6.1939080326E-001  +4.9424502646E-002 +1.1308525703E+001  +4.8293693700E-002 +1.4901373893E+001  +8.0695896965E-001 -3.1580414213E+000 
13524679.599 +7.8669520410E-001 -1.9356727865E+000  +5.0268586733E-002 +9.4163508635E+000  +4.8139614149E-002 +1.2021270436E+001  +8.1626784966E-001 -2.1123607990E+000 
13649824.781 +8.1037002047E-001 -1.3858539592E+000  +4.9705292504E-002 +1.0486624628E+001  +4.8868577705E-002 +1.1897278727E+001  +8.3317379640E-001 -3.4029339909E+000 
13774969.962 +8.3326597569E-001 -1.8177917824E+000  +4.8467290918E-002 +1.0720566875E+001  +4.9675365017E-002 +1.4348151162E+001  +8.5888973088E-001 -3.3352113476E+000 
13900115.144 +8.5874513762E-001 -3.4073175163E+000  +5.0895513623E-002 +9.4200103505E+000  +5.0173241026E-002 +1.3444860293E+001  +8.7550104797E-001 -4.7674290133E+000 
14025260.325 +8.7263775052E-001 -2.5502396155E+000  +5.0533944203E-002 +1.0414933045E+001  +5.0104298043E-002 +1.1179701390E+001  +8.6813486944E-001 -5.2727995096E+000 
14150405.507 +8.7834209153E-001 -4.9354581897E+000  +4.9835427022E-002 +9.1060795261E+000  +5.0181169508E-002 +1.1093717651E+001  +9.0345537786E-001 -3.4657333728E+000 
14275550.688 +9.0432777137E-001 -3.6461157388E+000  +5.0562569476E-002 +1.0161925886E+001  +5.1209212823E-002 +1.3166523746E+001  +9.2771588778E-001 -4.5799769735E+000 
14400695.870 +9.1859411676E-001 -4.6838270352E+000  +5.1313008803E-002 +8.7646898411E+000  +5.1395753935E-002 +1.1079941464E+001  +9.2507139829E-001 -3.7390839820E+000 
