!  2-Port S-parameters saved by WinCal
! VAR MeasName=S-Parameters (CALIBRATED_DATA) read from VNA (P5004A)
! VAR MeasDate=28/08/2024 10:31:47
! VAR NAME=S2_r4c9_RESET3_9k-100M_3
! VAR FILENAME=S2_r4c9_RESET3_9k-100M_3.S2P
! VAR DATE=28/08/2024 10:31:47
! VAR PHYS_PORTS=1,2
! VAR ObjTypeName=DATASET
! VAR IndexType=Frequency
!
# Hz S MA R 50
9000.000 +8.5861634021E-002 -1.6139808932E+002  +1.4027406422E-003 -3.8849239923E+001  +1.3668522855E-002 -8.8283243096E+001  +2.9001031765E-001 -1.5229825479E+002 
134145.181 +1.1201608596E-001 +1.6971869953E+002  +3.1973496553E-004 +7.0530855148E+001  +4.7443671286E-004 +1.0879797242E+002  +2.4151932161E-001 -1.7067043694E+002 
259290.363 +1.1178554506E-001 +1.6986379041E+002  +3.0133700001E-004 +1.3112335210E+002  +5.5093708648E-004 -1.0344253724E+002  +2.3725473978E-001 -1.6852189153E+002 
384435.544 +1.1414414817E-001 +1.7011842824E+002  +2.8999734641E-004 -1.0078578244E+002  +6.5848181907E-004 +5.8973028527E+001  +2.4481638524E-001 -1.6858561639E+002 
509580.726 +1.1214017036E-001 +1.7213901124E+002  +4.7396839334E-004 -7.7992924183E+001  +1.2089037411E-003 -1.3249201030E+002  +2.5184116364E-001 -1.6762237747E+002 
634725.907 +1.1911085960E-001 +1.7151436921E+002  +1.9965494250E-003 +3.5607329388E+001  +1.6360869901E-003 -8.8070674614E+000  +2.7562361319E-001 -1.6110903038E+002 
759871.089 +1.1975981680E-001 +1.7155927152E+002  +6.0867999749E-004 +8.1937038194E+001  +8.7869439484E-004 +3.8129870966E+001  +2.4887295929E-001 -1.6630030585E+002 
885016.270 +1.2032549713E-001 +1.6920717386E+002  +2.1242380451E-004 +1.6381237499E+002  +2.1450981410E-004 +1.3262832933E+002  +2.4410137700E-001 -1.6611634418E+002 
1010161.452 +1.1467615408E-001 +1.6992568705E+002  +1.2774535299E-003 -1.7356211667E+002  +1.1440221645E-003 -8.7540784029E+001  +2.1306419590E-001 -1.6847142168E+002 
1135306.633 +1.1635664320E-001 +1.6979842281E+002  +4.1667368858E-003 +5.1638080354E+001  +1.6070157745E-003 +1.0613981781E+002  +1.4193090691E-001 -1.6516888614E+002 
1260451.815 +1.1831793422E-001 +1.7093627544E+002  +6.5491717544E-004 -4.2000230583E+001  +1.3806813349E-003 +1.6598770834E+002  +2.2801700207E-001 -1.6004778949E+002 
1385596.996 +1.2443734210E-001 +1.7265199812E+002  +1.9206505220E-004 +1.2638151184E+002  +1.3546021776E-003 -1.4993804285E+002  +2.5409189403E-001 -1.5960505911E+002 
1510742.178 +1.2707204656E-001 +1.7201192916E+002  +3.5823053810E-004 -1.1226756572E+002  +6.0657869429E-004 +1.1210027322E+002  +2.6444009702E-001 -1.6098756627E+002 
1635887.359 +1.2949243509E-001 +1.7113089214E+002  +3.9108841803E-004 +8.9520422386E+001  +2.0735674763E-004 +1.1195935204E+002  +2.4647325780E-001 -1.5897948200E+002 
1761032.541 +1.3234005727E-001 +1.7029905488E+002  +1.1615742095E-003 -1.0572388635E+002  +7.7883623296E-004 +1.6065175580E+002  +2.3386489333E-001 -1.5866530761E+002 
1886177.722 +1.2892176970E-001 +1.6993369427E+002  +3.5614896358E-004 +2.9364873032E+000  +2.1383971254E-003 -1.5426160021E+001  +2.0398902980E-001 -1.6122785712E+002 
2011322.904 +1.3107795950E-001 +1.6820789883E+002  +7.9314587584E-004 +1.3378237111E+002  +5.5606360466E-004 -1.0042331763E+002  +1.9705223562E-001 -1.6207794586E+002 
2136468.085 +1.3519766317E-001 +1.6778781773E+002  +2.4079420256E-003 +1.5154640818E+002  +2.1515453157E-003 +7.8688602273E+001  +1.2949731259E-001 -1.4748260061E+002 
2261613.267 +1.3300323639E-001 +1.6702879303E+002  +1.4717287923E-003 -1.5359461354E+002  +3.7065126318E-003 -1.4038687738E+002  +1.7993485328E-001 +1.5916684675E+002 
2386758.448 +1.3881600915E-001 +1.6044397021E+002  +2.2417647597E-003 +3.7710547619E+001  +2.5697033952E-003 -6.3432040877E+000  +1.6159620391E-001 -1.5887984773E+002 
2511903.630 +1.3763659768E-001 +1.6348976836E+002  +4.7676771821E-003 -1.5857450675E+002  +3.5668720638E-003 -6.1709421851E+001  +1.4251208160E-001 +1.6598835443E+002 
2637048.811 +1.3497898503E-001 +1.6472395798E+002  +1.0687421587E-002 -1.5473080458E+002  +4.8962604985E-003 +8.8710959730E+000  +3.1927988398E-001 +1.4335394209E+002 
2762193.992 +1.0252175112E-001 +1.7483337553E+002  +2.0364664810E-002 +1.0990327217E+002  +4.8288800931E-002 +1.7758905258E+001  +9.4897460774E-001 +6.6377571097E+001 
2887339.174 +1.3709421683E-001 +1.7713119515E+002  +8.2119900233E-003 -6.3661348248E+001  +1.4788375729E-002 +1.7785246843E+002  +8.2162059791E-001 -9.6658618259E+001 
3012484.355 +1.3226555031E-001 +1.7161778159E+002  +1.0436819007E-003 -8.2938422058E-001  +1.0648775232E-003 -6.0256353229E+001  +6.2341830633E-002 -9.7655814492E+001 
3137629.537 +1.2124445853E-001 +1.7438985265E+002  +3.7463189566E-003 -2.3727038933E+001  +3.5980735714E-003 -1.3506361479E+002  +8.2454454451E-002 +1.1045770252E+001 
3262774.718 +1.2406060936E-001 +1.5979953905E+002  +8.9893047543E-003 +6.1731908716E+001  +8.0320391806E-004 -5.8605517430E+001  +1.2464178403E-001 -7.0594390272E+001 
3387919.900 +1.2597679265E-001 +1.5880678399E+002  +9.4563607876E-003 +7.7316066878E+001  +1.0074296369E-002 -6.0718730385E+001  +1.0636458322E-001 +8.2288364278E+001 
3513065.081 +1.5480788140E-001 +1.4962762649E+002  +1.0346570331E-002 +7.0406213008E+001  +9.5470854303E-003 -8.3396575067E+001  +5.4069335175E-002 +8.9384067829E+001 
3638210.263 +1.5708709300E-001 +1.5180538425E+002  +8.2433827558E-003 +4.3094236646E+001  +2.8341719457E-003 -4.8088399091E+001  +4.7637407463E-001 +1.4243069878E+002 
3763355.444 +1.5563200073E-001 +1.3916717202E+002  +1.8345572350E-002 +3.5010614602E+001  +3.8288985930E-002 +9.8662955609E+000  +1.4547053097E+000 +1.1305055028E+002 
3888500.626 +1.9794656404E-001 +1.4839029460E+002  +8.9508570779E-003 -1.7371855849E+002  +1.4085451247E-002 +1.7574539805E+001  +6.1273111484E-001 +1.0018961913E+002 
4013645.807 +1.7232495489E-001 +1.5023386974E+002  +1.8216346636E-003 -3.6496319748E+001  +4.3686393524E-003 -8.2411486143E+001  +5.8544197271E-001 +1.2497421220E+002 
4138790.989 +1.7977194937E-001 +1.4840979149E+002  +1.0368090487E-002 +1.3485926190E+002  +6.3093562036E-003 +3.3811076969E+001  +3.9856520792E-001 +1.4087842428E+002 
4263936.170 +2.2116094529E-001 +1.4665731052E+002  +4.9767614942E-003 -1.7865698155E+002  +5.4818977437E-003 -1.6850201050E+002  +3.0977230664E-001 +1.1121561204E+002 
4389081.352 +1.9133605500E-001 +1.3714327601E+002  +2.0923351551E-002 +1.1423917624E+002  +6.3042595227E-003 +1.7091893134E-001  +5.0808755866E-001 +8.5476232869E+001 
4514226.533 +2.0796854543E-001 +1.3095006521E+002  +2.2140435447E-002 +9.0383865682E+001  +2.1521472992E-002 +1.4861308255E+002  +7.8203451125E-001 +1.3052874686E+002 
4639371.715 +2.7565591170E-001 +1.2845966243E+002  +7.9265897225E-002 +9.7267526062E+001  +7.9150853075E-002 -5.1860264602E+001  +5.4962210451E+000 +1.1851852553E+001 
4764516.896 +3.4130805087E-001 +1.3391269315E+002  +3.4432515585E-002 -1.7763918952E+002  +4.5494881667E-002 -1.6344170916E+002  +4.4840255113E+000 +1.5887908463E+002 
4889662.078 +3.6801540326E-001 +1.1399328887E+002  +7.8483864991E-002 -6.9957509419E+001  +5.5449302840E-002 -1.5140564311E+002  +2.7094651935E+000 -1.4454202706E+002 
5014807.259 +3.7764886541E-001 +1.3011352347E+002  +1.0541261468E-001 +6.6104715426E-001  +1.5519743954E-001 +2.9597164185E+001  +5.7244635284E+000 -5.1122748509E+001 
5139952.441 +4.5422963572E-001 +1.2840829125E+002  +3.5207324287E-002 +1.3721808693E+002  +1.1545653754E-001 +1.0472415255E+002  +3.6462605933E+000 +8.0890242867E+001 
5265097.622 +3.9914543190E-001 +1.3280605150E+002  +5.3349704385E-002 +9.2236434990E+001  +5.1166489323E-002 +8.7962230703E+001  +2.5344535841E+000 +7.6144513552E+001 
5390242.804 +4.9825455308E-001 +1.2768619018E+002  +2.1376806504E-002 +1.7262259448E+002  +8.1875342806E-002 +1.6371711937E+002  +2.3990567400E+000 +9.6956124968E+001 
5515387.985 +4.3635277325E-001 +1.3656877830E+002  +4.5814609797E-003 -1.1367494055E+001  +3.3330977443E-002 +1.3990092365E+002  +3.1482354457E+000 +1.0092332378E+002 
5640533.166 +4.4530004876E-001 +1.3153374017E+002  +7.0406337010E-002 +9.2205097889E+001  +2.2711211360E-003 -3.9591032372E+000  +2.6435089864E+000 +5.0594880782E+001 
5765678.348 +5.2748029892E-001 +1.2687895786E+002  +1.7210633286E-002 +5.8467248776E+001  +2.6608534290E-002 -1.2884513022E+002  +4.0940661362E+000 +9.3315962205E+001 
5890823.529 +5.3871853275E-001 +1.1678081782E+002  +3.6288696391E-002 +6.0919923114E+001  +8.0174287965E-002 +3.3511222892E+001  +3.2561708595E+000 +3.2673560637E+001 
6015968.711 +6.5614747423E-001 +1.2378861678E+002  +1.4343888435E-002 +1.2446493828E+002  +1.9014378538E-002 +8.3265215917E+000  +2.4216015019E+000 +4.5799159207E+001 
6141113.892 +6.5530484689E-001 +1.0949822891E+002  +3.4616328944E-002 +3.3072686193E+001  +4.3826334687E-003 -6.0801711499E+001  +1.8997735218E+000 +1.3483940328E+001 
6266259.074 +8.9904496461E-001 +1.0278601123E+002  +3.7647462258E-002 +7.0532048539E+001  +2.2112520803E-002 +7.7332402677E+001  +2.2518386047E+000 +2.6691892158E+001 
6391404.255 +8.8280842402E-001 +1.0491716298E+002  +8.0066540524E-003 +5.8988384737E+001  +1.6939644532E-002 +1.4940445794E+001  +1.2796122612E+000 +2.1739635020E+001 
6516549.437 +1.1839123787E+000 +8.0835203588E+001  +2.8199838877E-002 +2.2221785762E+001  +2.4112315629E-002 +7.0963383845E+001  +1.7692424504E+000 +1.3712417992E+001 
6641694.618 +1.6469798956E+000 +9.0325339615E+001  +1.7670312614E-002 +1.0678657358E+002  +1.2599117758E-002 -4.6872208774E-001  +1.7347450238E+000 -5.5633165715E-001 
6766839.800 +1.8957733075E+000 +3.2754598995E+001  +2.2316533657E-002 +8.0353230439E+001  +6.2556818643E-002 +4.1157565250E+001  +1.3878022052E+000 -4.4484640119E+000 
6891984.981 +1.7047527137E+000 +4.1083449866E+001  +4.3840325734E-002 +3.2770708008E+001  +2.6522494361E-002 -5.5731405149E-002  +1.5342599066E+000 -6.2713170515E+000 
7017130.163 +1.7573239083E+000 +1.5645092296E+001  +3.6214674910E-002 +3.6813119352E+001  +3.9125250942E-002 +3.4544881494E+001  +1.5129483434E+000 -3.6373187236E+000 
7142275.344 +1.5577342514E+000 +5.3515234733E+000  +1.8490654507E-002 -1.2792464768E+001  +3.0134545319E-002 -1.8733465497E+000  +1.3017851248E+000 -1.5283234394E+001 
7267420.526 +1.5052898871E+000 -1.2256000960E+000  +2.1070859769E-002 -7.7802778874E+000  +1.4236107535E-002 +3.5600014384E+001  +1.3308913641E+000 -1.8011753484E+001 
7392565.707 +1.4027830045E+000 +4.8684549181E+000  +1.4669712368E-002 +1.7356668710E+001  +2.4007994675E-002 +3.5693243434E+001  +1.2934890761E+000 -2.3229820087E+000 
7517710.889 +1.2303963807E+000 -2.7369826024E+000  +1.7200651479E-002 +1.2527381929E+001  +1.3318495899E-002 +4.6922294402E+001  +1.1538449558E+000 -6.1348351103E+000 
7642856.070 +1.1264362210E+000 -4.4236997584E+000  +4.9097020912E-003 +6.6289847485E+001  +1.6716185900E-002 +3.7485007435E+001  +1.1063219535E+000 -6.6034439631E+000 
7768001.252 +8.9313503232E-001 +1.8524925813E+000  +1.2328128472E-002 +2.2895444122E+001  +3.9547798190E-003 +4.3844290467E+001  +1.0525745367E+000 -3.7824278587E+000 
7893146.433 +8.3594977994E-001 +2.8212536401E-001  +1.4522930473E-002 +3.9568282717E+001  +1.1022565471E-002 +3.2469220730E+001  +8.6820086574E-001 +2.5612794212E+000 
8018291.615 +8.7749662653E-001 +9.7767015336E+000  +1.3196961285E-002 -2.0492391363E+000  +1.4749456901E-002 +4.7014265736E+001  +8.9580424090E-001 +1.2408213726E-001 
8143436.796 +7.9000517662E-001 +8.0538853934E+000  +1.0640167899E-002 +1.3232436353E+001  +1.7398864449E-002 +2.1042709091E+001  +7.6677404885E-001 +6.9699364216E-001 
8268581.977 +6.7447869410E-001 +2.6247593629E-001  +1.2559057858E-002 +2.8803741899E+001  +1.1761763912E-002 +1.5117776432E+001  +7.2411194546E-001 -6.5857368889E-001 
8393727.159 +7.2671885378E-001 +7.0989627492E+000  +8.0942706948E-003 +2.1193345273E+001  +1.2647625839E-002 +4.3762544340E+000  +6.9833626397E-001 -2.1031618395E+000 
8518872.340 +6.9830841449E-001 +1.3235872667E+001  +2.5902587426E-003 +4.5639241538E+001  +7.9754781568E-003 +4.6772244811E+001  +6.8282237375E-001 +3.4437547236E+000 
8644017.522 +6.4556665308E-001 +7.1901165604E+000  +1.4583723170E-002 -8.7530210148E+000  +1.2403811787E-002 +4.7467808682E+001  +6.6024778081E-001 -3.2958403467E+000 
8769162.703 +6.6499670987E-001 +3.2764916050E+000  +9.1629014479E-003 +1.4795951035E+001  +8.6078027097E-003 +5.1260148742E+001  +6.3711235211E-001 -1.3968768080E+000 
8894307.885 +6.0563006078E-001 +6.5212524243E+000  +9.2578608093E-003 +1.7577188693E+000  +1.2325946309E-002 +2.0400800735E+001  +6.5307356953E-001 -2.3716611386E+000 
9019453.066 +5.9767495545E-001 +1.7309972943E+000  +4.1329828037E-003 +1.1537127222E+001  +9.5371897372E-003 +3.9058252722E+001  +6.4393022150E-001 -2.9625442852E-001 
9144598.248 +5.4070215012E-001 +9.1638497391E+000  +6.9570926195E-003 +1.6837476876E+001  +9.6479242417E-003 +2.9292017600E+001  +6.5335897506E-001 -3.1291779065E+000 
9269743.429 +6.0534986094E-001 +6.5369524829E+000  +6.1819322862E-003 +1.5560881479E+001  +7.4096270362E-003 +4.1903314175E+001  +6.5357730334E-001 -2.9372593647E+000 
9394888.611 +5.2483808525E-001 +8.1163785152E+000  +8.2313437160E-003 +7.8324285857E+000  +7.1800127228E-003 +1.0742452936E+001  +6.1016537705E-001 -2.5991010123E-001 
9520033.792 +5.9019160297E-001 +3.8213872921E+000  +8.9042706903E-003 +3.7505535141E+001  +7.6010611933E-003 +5.4113824569E+001  +6.4491185847E-001 -7.3300211566E+000 
9645178.974 +5.6839326538E-001 +1.7411005969E+000  +9.0578387211E-003 +9.6460183942E+000  +6.5964205370E-003 +3.9590046134E+001  +5.9661945935E-001 -6.4164021688E+000 
9770324.155 +5.5742397531E-001 -1.8270600523E+000  +6.2719595011E-003 +2.2333555828E+001  +9.2444229103E-003 +4.6896342648E+001  +5.8406319691E-001 -7.5810052732E+000 
9895469.337 +5.3590085593E-001 +2.0108146769E+000  +8.1585975649E-003 +1.0858924606E+001  +5.7705830974E-003 +3.6309924555E+001  +5.8004660983E-001 -4.9204474882E+000 
10020614.518 +5.6689132188E-001 +6.7977152151E+000  +1.1731667770E-002 +2.5795648099E+001  +8.4863559720E-003 +5.5160954902E+001  +5.9008897123E-001 -3.6454886570E+000 
10145759.700 +5.5143082628E-001 +1.5215713781E+000  +6.7466889830E-003 +3.7029298108E+001  +1.0745484624E-002 +2.4047003819E+001  +5.7785275292E-001 -5.1369329400E+000 
10270904.881 +5.5105637566E-001 +5.8417976061E+000  +9.1082568345E-003 +9.1005330322E+000  +6.4910241889E-003 +4.2951458786E+001  +5.8873551663E-001 -3.2611242912E+000 
10396050.063 +5.7344619129E-001 +7.7504840776E+000  +1.1258553893E-002 +3.4488671233E+001  +8.1291171664E-003 +3.2170243834E+001  +5.7715107880E-001 -2.7185253683E+000 
10521195.244 +5.6158803090E-001 +6.5182088806E-001  +1.0214617841E-002 +1.7223402960E+001  +1.0032673786E-002 +3.7295393867E+001  +5.8525626751E-001 -8.3824648290E-001 
10646340.426 +5.2795055183E-001 +9.8098120949E+000  +9.0525563492E-003 +2.4430458758E+001  +6.4078977206E-003 +2.5533846047E+001  +6.0074201858E-001 -1.2993539716E+000 
10771485.607 +5.4948992875E-001 +3.8494888968E+000  +9.6845966860E-003 +2.5997831021E+001  +1.0392851917E-002 +4.0208375682E+001  +6.0129305053E-001 -2.0942377916E-001 
10896630.788 +5.5506508923E-001 +4.7758839519E+000  +1.1147476903E-002 +2.3320094723E+001  +1.0741836475E-002 +4.2821521744E+001  +5.8693399216E-001 +1.0180407612E+000 
11021775.970 +5.7238219255E-001 +7.5488827608E+000  +9.9813662151E-003 +2.1158742153E+001  +1.1398509255E-002 +4.0688265926E+001  +6.2245512332E-001 -5.0486698977E-002 
11146921.151 +5.6431651508E-001 +8.0693812300E+000  +7.7318173831E-003 +2.2574993488E+001  +1.0996475870E-002 +3.6786999714E+001  +6.0655384390E-001 +2.9151697740E+000 
11272066.333 +6.0808604035E-001 +8.2597159638E+000  +9.1077952145E-003 +3.0334648469E+001  +1.0630880844E-002 +4.2510995616E+001  +6.1502074627E-001 +2.4374951113E+000 
11397211.514 +6.1028359473E-001 +6.4561456048E+000  +9.7059258670E-003 +2.4910143918E+001  +1.1234748852E-002 +3.5489074365E+001  +6.3512867313E-001 +1.0586729468E+000 
11522356.696 +5.9305799456E-001 +3.5974583395E+000  +1.2717957852E-002 +2.8962752790E+001  +1.2137576940E-002 +4.5095529726E+001  +6.3408889702E-001 -7.7388911221E-001 
11647501.877 +6.5772822255E-001 +4.2740107098E+000  +1.2703166371E-002 +2.8076284273E+001  +1.0764486705E-002 +4.6853771487E+001  +6.4709849120E-001 +1.3948886780E+000 
11772647.059 +6.6128737928E-001 +6.4343311168E+000  +1.1036978190E-002 +2.9486712566E+001  +8.8385574757E-003 +3.8130146383E+001  +6.9511418059E-001 +1.4419033944E+000 
11897792.240 +6.5801435011E-001 +5.9868543640E+000  +1.0805973858E-002 +3.3633521697E+001  +1.2692615005E-002 +3.9208885455E+001  +6.9941469033E-001 +1.8534882920E+000 
12022937.422 +6.9752236626E-001 +3.8556735506E+000  +1.1691405735E-002 +3.8636383701E+001  +1.1025247181E-002 +2.9486815770E+001  +6.6587912184E-001 +1.6977149348E+000 
12148082.603 +6.7594445863E-001 +3.4699062348E+000  +1.0130922577E-002 +3.7518545515E+001  +1.1073307738E-002 +4.4689715441E+001  +6.8901456177E-001 +8.6460347942E-001 
12273227.785 +6.8019389299E-001 +5.0751705413E+000  +1.1359485029E-002 +2.3176777709E+001  +1.1333718041E-002 +3.8908613394E+001  +7.0650066063E-001 -3.0234519166E+000 
12398372.966 +7.0546575735E-001 +3.5188479021E+000  +1.3089255294E-002 +2.6356303485E+001  +1.0599508799E-002 +3.8489694368E+001  +7.2984297766E-001 -2.1633481165E-001 
12523518.148 +7.2046617870E-001 +4.7679686405E+000  +1.1289058964E-002 +2.7026283306E+001  +1.1437346067E-002 +4.2287448474E+001  +7.2442238382E-001 +6.5361168599E-001 
12648663.329 +7.3000333881E-001 +3.7139209126E+000  +1.1953555323E-002 +3.3723895999E+001  +1.0993741480E-002 +3.6811508016E+001  +7.5308067394E-001 -1.3769008176E+000 
12773808.511 +7.5785452317E-001 +2.5510776947E+000  +1.2012548422E-002 +3.7511005383E+001  +1.1613458898E-002 +4.7965222354E+001  +7.7102441185E-001 +6.0025817044E-002 
12898953.692 +7.8918144915E-001 +6.5819833982E-001  +1.0151597045E-002 +3.0121464784E+001  +1.2855768910E-002 +4.4306660146E+001  +7.8736386270E-001 -5.6908959740E-001 
13024098.874 +8.0203223992E-001 +5.5800411567E-001  +1.1853687985E-002 +2.8703416005E+001  +1.2812354067E-002 +4.3783529811E+001  +7.9462371451E-001 -6.1688418550E-001 
13149244.055 +7.9410217998E-001 -2.0562805031E-001  +1.0114848849E-002 +4.0315034687E+001  +1.3627241080E-002 +3.5847850237E+001  +7.9402979572E-001 -2.5412864612E+000 
13274389.237 +8.1360320664E-001 -9.9869976138E-002  +1.0961885796E-002 +3.4100477016E+001  +1.2847100434E-002 +3.9839106741E+001  +8.0409905185E-001 -2.2378248204E+000 
13399534.418 +8.1440492984E-001 -1.0084722584E+000  +1.3735790135E-002 +3.2684994136E+001  +1.2222691845E-002 +3.6058238580E+001  +8.3545154565E-001 -1.8554587326E+000 
13524679.599 +8.4845882751E-001 -1.5052362973E+000  +1.2618440829E-002 +3.5921404855E+001  +1.3511293498E-002 +3.2223172465E+001  +8.7606281985E-001 -1.7601728559E+000 
13649824.781 +8.8593558238E-001 -2.8471559389E+000  +1.3582490368E-002 +3.6184466205E+001  +1.3062355102E-002 +4.3699478649E+001  +9.0652014275E-001 -1.9922562979E+000 
13774969.962 +8.7672827839E-001 -2.8971227734E+000  +1.3439425963E-002 +3.3318510422E+001  +1.3697858958E-002 +3.3024250519E+001  +8.9536776726E-001 -3.4909155639E+000 
13900115.144 +8.8653775656E-001 -4.4141442115E+000  +1.4144075873E-002 +3.1232811020E+001  +1.3283369666E-002 +2.9927677268E+001  +9.0867811614E-001 -4.0613684634E+000 
14025260.325 +9.1737144342E-001 -4.7073582071E+000  +1.0595577295E-002 +3.6725778161E+001  +1.3350072956E-002 +3.7917778418E+001  +9.1197053736E-001 -3.5153931448E+000 
14150405.507 +9.2633023849E-001 -4.3475297279E+000  +1.3817830978E-002 +3.1523045626E+001  +1.3784252426E-002 +3.4550972342E+001  +9.2056897197E-001 -2.8029429617E+000 
14275550.688 +9.7141001394E-001 -6.2217600970E+000  +1.2804158192E-002 +3.8210960423E+001  +1.2856932743E-002 +3.4492106021E+001  +9.6575830546E-001 -3.3945154861E+000 
14400695.870 +9.6131061673E-001 -5.0968300701E+000  +1.3395665530E-002 +3.2186136865E+001  +1.2730878850E-002 +3.3554667619E+001  +9.9234873681E-001 -5.2476667652E+000 
