!  2-Port S-parameters saved by WinCal
! VAR MeasName=S-Parameters (CALIBRATED_DATA) read from VNA (P5004A)
! VAR MeasDate=28/08/2024 12:10:04
! VAR NAME=S2_r7c9_RESET1_9k-100M_1
! VAR FILENAME=S2_r7c9_RESET1_9k-100M_1.S2P
! VAR DATE=28/08/2024 12:10:04
! VAR PHYS_PORTS=1,2
! VAR ObjTypeName=DATASET
! VAR IndexType=Frequency
!
# Hz S MA R 50
9000.000 +8.8802858922E-002 -1.6879072230E+002  +6.7486399655E-003 -9.1545483203E+001  +6.4327789922E-003 -1.3674625845E+002  +4.2817860543E-001 -1.2874726955E+002 
134145.181 +1.1148419392E-001 +1.6939660345E+002  +1.4805604692E-004 -1.6962508849E+002  +8.1090546150E-004 +2.1472136367E+001  +2.3903512071E-001 -1.7111025418E+002 
259290.363 +1.1223421069E-001 +1.7051024849E+002  +2.6439682238E-004 -6.3771894741E+001  +3.0974974286E-004 -1.5280883352E+001  +2.4966413678E-001 -1.6969327719E+002 
384435.544 +1.1365706078E-001 +1.7055959888E+002  +2.8195966967E-004 +1.7094600899E+002  +1.4757949522E-004 -5.5637234678E+001  +2.4459067500E-001 -1.6955371068E+002 
509580.726 +1.1354958426E-001 +1.7088401628E+002  +1.4971510497E-003 -1.2360400076E+002  +3.1744424293E-004 -7.9261092177E+001  +2.4857537193E-001 -1.6326138787E+002 
634725.907 +1.1803045416E-001 +1.7234501467E+002  +7.8459810490E-004 +3.6737102066E+001  +2.0868364342E-004 +3.7975165952E+001  +2.4443447779E-001 -1.6755400752E+002 
759871.089 +1.1985995735E-001 +1.7132318787E+002  +4.8692008800E-004 -3.7311367732E+001  +2.8752568030E-004 -1.3048914966E+002  +2.5111391378E-001 -1.6680443820E+002 
885016.270 +1.2041416128E-001 +1.7013521233E+002  +2.9177928747E-004 -1.1837804603E+002  +8.0487328063E-004 +5.3290924680E+001  +2.4322214328E-001 -1.6613639379E+002 
1010161.452 +1.1816725702E-001 +1.7134820456E+002  +5.2935417982E-004 +7.4912689293E+001  +1.1537868631E-003 +3.8716687317E+001  +1.9929441909E-001 -1.6526098234E+002 
1135306.633 +1.1951614359E-001 +1.6932353594E+002  +4.0590582268E-004 +7.8382498413E+000  +1.0458744667E-003 +1.3260972046E+002  +1.8824263852E-001 -1.5593205814E+002 
1260451.815 +1.1963250096E-001 +1.7230678099E+002  +1.6617985217E-004 +2.1907196077E+000  +1.6908948008E-003 +7.7574983616E+001  +2.3246139901E-001 -1.5778516951E+002 
1385596.996 +1.2602576465E-001 +1.7511768347E+002  +2.8686181683E-004 -1.3178089634E+002  +1.3586797328E-003 +5.7576114032E+001  +2.7109712553E-001 -1.6129572117E+002 
1510742.178 +1.2975221319E-001 +1.7221163358E+002  +7.3188158759E-004 +1.4798273783E+002  +7.3961375104E-004 -1.5528116981E+002  +2.6460083016E-001 -1.5999680863E+002 
1635887.359 +1.2724216984E-001 +1.7095271615E+002  +8.4062895737E-004 -1.0256377359E+002  +9.8683144516E-004 -2.1287372612E+001  +2.2515755884E-001 -1.5538335924E+002 
1761032.541 +1.2864531694E-001 +1.7155141318E+002  +2.6961239757E-003 +1.5235585465E+002  +6.8712772835E-004 -1.3132529976E+002  +2.1965050375E-001 -1.5843524773E+002 
1886177.722 +1.2830271653E-001 +1.6976609356E+002  +3.7981345953E-004 -3.8444823705E+001  +8.6103033032E-004 -5.7064325697E+001  +2.3150900708E-001 -1.6331096562E+002 
2011322.904 +1.3188320308E-001 +1.6825110555E+002  +2.6448792865E-003 +1.3631281954E+002  +2.6779272883E-003 +8.1268069974E+001  +1.5785775765E-001 -1.5812126788E+002 
2136468.085 +1.2800216134E-001 +1.6797753884E+002  +3.3673101437E-003 -8.2055385398E+001  +1.1271884325E-003 -4.3482431374E+001  +1.5756483373E-001 -1.7279296188E+002 
2261613.267 +1.2302567201E-001 +1.6441333248E+002  +1.7227012752E-003 +1.1190342546E+002  +3.6815521726E-003 -3.0015318766E+001  +2.1615688226E-001 +1.7679812741E+002 
2386758.448 +1.3445396669E-001 +1.6196396514E+002  +2.0578368891E-003 +1.1536187839E+002  +3.1624701970E-003 -4.5697940232E+001  +1.8329797504E-001 -1.7156767572E+002 
2511903.630 +1.2898912351E-001 +1.6782368753E+002  +4.4855765485E-003 +9.4934530357E+001  +1.7505126903E-004 -3.7033782973E+001  +2.9763165758E-001 +1.6569406373E+002 
2637048.811 +1.1702470070E-001 +1.6402507061E+002  +6.2759260747E-003 +1.0129296137E+002  +1.4485734394E-002 -1.4902851500E+002  +1.4135737756E-001 -1.7436270541E+002 
2762193.992 +1.1461189725E-001 +1.7144609182E+002  +2.0612113064E-002 -8.4115429170E+001  +3.0170982781E-003 +6.3956748832E+001  +8.0140279700E-001 -1.3679886335E+002 
2887339.174 +1.2817811769E-001 -1.7909548477E+002  +1.2526755549E-002 -1.4042161420E+002  +1.4789269772E-003 -4.9114513820E+001  +7.2586769753E-002 +1.0126964483E+002 
3012484.355 +1.3778262468E-001 +1.6758626744E+002  +7.5515780800E-003 -8.0021112223E+001  +6.3364444973E-003 -8.7975336994E+001  +3.1287614409E-001 -1.1403998845E+002 
3137629.537 +1.3688961698E-001 +1.7253376982E+002  +5.2252726123E-003 +9.6553235952E+001  +2.3192425417E-003 -1.4479166634E+002  +1.0456277060E-001 -1.1443234717E+002 
3262774.718 +1.1616446667E-001 -1.7912435056E+002  +9.0642094545E-003 -1.6071235140E+002  +1.1254010563E-002 +1.8980396832E+001  +1.5088020916E-001 +7.1709983008E+001 
3387919.900 +1.3836101269E-001 +1.5895101552E+002  +1.5709801495E-002 +8.1196537981E+000  +2.0904351167E-002 -1.4308699780E+002  +2.7259765149E-001 -1.7659730149E+001 
3513065.081 +1.4924415817E-001 +1.5842021301E+002  +4.3544687705E-003 -9.3455501827E+000  +4.2541493734E-003 -1.0859363277E+002  +3.6298303838E-001 -1.7540839152E+001 
3638210.263 +1.7433643606E-001 +1.4279085725E+002  +1.8090781481E-002 +7.8499977350E+001  +7.7881003001E-003 +8.5529745104E+001  +2.2018041647E-001 +4.8380556998E+001 
3763355.444 +1.8323655073E-001 +1.4777269981E+002  +5.1677715039E-003 -1.5110121911E+002  +3.8395195771E-003 +1.7667100100E+002  +2.9051981207E-001 +1.0093880694E+002 
3888500.626 +1.8242262871E-001 +1.5228823191E+002  +9.5963685232E-003 +3.4013119537E+001  +5.0198795517E-003 -5.2248723932E+001  +2.3425796948E-001 +8.4269408528E+001 
4013645.807 +1.7796405137E-001 +1.4189465364E+002  +6.8920229283E-003 -1.6720070525E+000  +4.6442892660E-003 +1.0775277625E+001  +4.1844241627E-001 -2.2291998707E+000 
4138790.989 +1.5526184024E-001 +1.3869299886E+002  +8.2597344281E-003 -1.1455818096E+002  +7.3742940392E-003 -1.6324415515E+001  +3.4166351659E-001 +1.1155373972E+002 
4263936.170 +2.1382508611E-001 +1.4775173634E+002  +3.9820082027E-002 -1.6067642679E+002  +3.1908343099E-002 +1.0981921278E+002  +3.1118354956E+000 -1.7996775682E+002 
4389081.352 +1.8705252048E-001 +1.3969990354E+002  +1.5890486762E-002 +6.4157110309E+001  +3.5837613270E-003 +1.5554681580E+002  +1.8789999123E+000 -8.8134421440E+000 
4514226.533 +2.4878689186E-001 +1.4233859005E+002  +2.5844318524E-002 +1.1124390105E+002  +1.7572562831E-002 +1.2308774933E+002  +8.1426037270E-001 +5.7558831890E+001 
4639371.715 +2.5554355933E-001 +1.4533807297E+002  +1.3503909214E-001 -1.6028147011E+002  +8.3784901610E-002 -1.6539690326E+002  +7.7204786077E+000 -1.5726704723E+002 
4764516.896 +2.1943659352E-001 +1.1730247041E+002  +2.7496664054E-002 +1.0911466937E+002  +2.8294910597E-002 -6.8669971261E+000  +1.2356782205E+000 +1.0325445379E+002 
4889662.078 +4.7991195557E-001 +1.3262174611E+002  +3.2162753324E-002 -1.0215673486E+002  +2.6440042144E-002 -1.5322409070E+002  +2.6260572734E+000 -1.4839847683E+002 
5014807.259 +4.5050434759E-001 +1.4223498473E+002  +8.2936127998E-003 -1.6727598980E+002  +4.6891877638E-002 +6.4976646699E+001  +1.9788303198E+000 +8.4855117316E+001 
5139952.441 +4.4681378832E-001 +1.1130965522E+002  +1.5433560082E-001 +1.0061221348E+002  +1.6893239166E-001 -7.9004402158E+001  +8.8673584883E+000 -6.5131978772E+001 
5265097.622 +4.6737574043E-001 +1.3312417369E+002  +3.0713565442E-002 +1.4166738162E+002  +6.7389345938E-002 +1.6297003508E+002  +2.8501589651E+000 +8.7351336586E+001 
5390242.804 +4.1973247920E-001 +1.3023542998E+002  +4.4125738367E-002 +1.1315941982E+002  +2.6231979114E-002 +3.4869681575E+001  +2.4525883032E+000 +1.3488400923E+002 
5515387.985 +3.8335384897E-001 +1.3383984704E+002  +5.1444322452E-003 +6.6611932953E+001  +8.0205791508E-003 +2.1081354929E+001  +1.3978962531E+000 +1.1095967352E+002 
5640533.166 +4.4856263190E-001 +1.1898206419E+002  +1.5816611441E-002 +3.4018997655E+001  +6.8430821375E-003 -1.6449877890E+002  +1.7657550070E+000 +6.4203674053E+001 
5765678.348 +4.6643834565E-001 +1.2900801387E+002  +9.3985972710E-003 +8.0362895148E+000  +3.2795133996E-002 +1.1278424324E+002  +2.0941111199E+000 +8.4700690504E+001 
5890823.529 +5.2724177579E-001 +1.1889619414E+002  +3.9489925142E-002 +1.0016412493E+002  +1.3297888606E-002 +1.9747505528E+001  +1.9823707763E+000 +7.6242114487E+001 
6015968.711 +6.9825402758E-001 +1.1897610972E+002  +3.7350371158E-002 +1.3495982788E+002  +2.4491699834E-002 +8.4288932630E+001  +3.2190463488E+000 +4.8559686422E+001 
6141113.892 +7.2251386763E-001 +1.1748364160E+002  +2.0812066575E-002 +7.0684505118E+001  +2.4557799703E-002 +3.9917482242E+001  +2.5309091924E+000 +2.2844396508E+001 
6266259.074 +8.4962173206E-001 +1.1579623579E+002  +3.5709037434E-002 +6.2873510974E+001  +1.5539608763E-002 +6.0778302786E+001  +1.7314391087E+000 +2.1567529731E+001 
6391404.255 +1.0147303413E+000 +9.7623334832E+001  +1.0562998048E-002 -1.6098571647E+001  +4.4358430910E-002 +3.7796863802E+001  +1.4889158798E+000 +1.8749609031E+001 
6516549.437 +1.4528484731E+000 +9.2391444018E+001  +3.2816057651E-002 +9.3002606290E+001  +4.4844715355E-002 +5.3259534381E+001  +1.6330496979E+000 -8.0263698143E+000 
6641694.618 +1.5710766992E+000 +7.5786052807E+001  +2.1660540528E-002 +5.3135281627E+001  +4.5322832450E-002 +4.1318297994E+000  +1.0926244499E+000 +1.5131670912E+000 
6766839.800 +1.4881644490E+000 +4.3406512865E+001  +2.8879036239E-002 +4.5163133078E+001  +4.8241567079E-002 +4.4448649257E+001  +1.1380759649E+000 +7.7467960938E+000 
6891984.981 +1.8880424835E+000 +3.9774270325E+001  +4.3567861761E-003 +1.5461546540E+001  +3.2007334648E-002 +2.5760471525E+001  +1.2935013604E+000 -5.5355031434E+000 
7017130.163 +1.8312173672E+000 +1.9795337284E+001  +3.1746873138E-002 +6.6772994069E+000  +9.6221662785E-003 +1.1698533846E+002  +1.3017913355E+000 -1.1863346548E+001 
7142275.344 +1.6658229798E+000 +5.3519989179E+000  +1.0880415106E-002 +4.1074492370E+001  +1.1442220064E-002 -3.1692189127E+001  +1.2844729486E+000 -1.2828047610E+001 
7267420.526 +1.3050280954E+000 -2.4748054209E-001  +6.1585698990E-003 +6.4249283511E+001  +2.0239498099E-002 +3.0870193773E+001  +1.3304276458E+000 -6.7671417392E+000 
7392565.707 +1.4242225295E+000 -2.8235738358E+000  +1.9719103860E-002 +5.8395521072E+001  +3.6713423355E-003 +3.5892072117E+001  +1.2909240372E+000 -6.1550688851E+000 
7517710.889 +9.9626290133E-001 +2.9668864549E+000  +1.5960202073E-002 +1.4913786400E+001  +7.6347070743E-003 +3.2890751988E+001  +1.0990921812E+000 -6.6442062233E+000 
7642856.070 +1.0659320623E+000 +1.7419538422E+000  +1.2250428069E-002 -1.6422929195E+001  +1.0782971492E-002 +2.5826280960E+001  +1.0936810397E+000 -6.5011449692E+000 
7768001.252 +8.7494993601E-001 +5.0903740662E+000  +1.4123390893E-002 +2.3442731555E+001  +4.4401889068E-003 +7.3398371575E+000  +9.2915482681E-001 -1.3368774908E+000 
7893146.433 +9.9222372752E-001 +4.6871376072E+000  +9.5257011330E-003 +4.1184713660E+001  +1.3340008712E-002 +4.0859413747E+001  +9.0408834731E-001 -3.1639230066E+000 
8018291.615 +7.4886854027E-001 +4.3764720519E+000  +1.1827435507E-002 +3.1947030004E+001  +1.0064617153E-002 +3.8619131619E+001  +8.4881292494E-001 -7.4591572715E-001 
8143436.796 +7.8690961157E-001 +1.0690318912E+001  +8.0082838106E-003 +2.8034860783E+001  +6.8491259196E-003 +4.1325354110E+001  +8.2842109010E-001 -2.9286786207E-001 
8268581.977 +7.2612794855E-001 +1.8159735178E+000  +7.2371956079E-003 +1.3239284603E+001  +7.3885346571E-003 +2.6939583331E+000  +7.3733175036E-001 +3.6767050918E+000 
8393727.159 +6.8165395988E-001 +7.5306431256E+000  +9.0734131547E-003 +2.4759210130E+001  +1.0132811586E-002 +2.8399747862E+001  +7.2616018686E-001 +3.5230133215E-001 
8518872.340 +6.6592672449E-001 +9.7232867086E+000  +1.1563027989E-002 +2.2912447655E+001  +4.0892337004E-003 +2.2997952803E+001  +7.1143025233E-001 +2.4766436672E+000 
8644017.522 +6.0972035781E-001 +8.3285913701E+000  +7.6231814100E-003 -4.1401087542E+000  +7.3405434079E-003 +2.6817417935E+001  +6.9197971746E-001 -1.8623351116E+000 
8769162.703 +6.0405962556E-001 +1.0972547921E+001  +1.1173428105E-002 +1.8444268307E+001  +4.8049490658E-003 +3.1682809420E+001  +6.7160226936E-001 -1.2555706473E+000 
8894307.885 +6.0281573507E-001 +9.8117275718E+000  +2.3529189345E-003 +1.5595813653E+001  +8.5099326299E-003 +4.5118902818E+001  +6.3996798680E-001 -4.9094107277E-001 
9019453.066 +5.7726988491E-001 +4.9600830349E+000  +8.9714593653E-003 +3.4241182950E+001  +9.8812263519E-003 +1.6378428910E+001  +6.1538120073E-001 -2.4514111204E+000 
9144598.248 +6.0791460185E-001 +2.2560641892E+000  +2.9134339294E-003 +3.6915013629E+000  +2.6570238788E-003 +6.3873243666E+001  +5.4681698306E-001 +1.6412171226E-001 
9269743.429 +5.2578720397E-001 +9.6172032092E+000  +7.9942480496E-003 +7.9087856285E+000  +9.3931690199E-003 +4.0799672485E+001  +6.0012670412E-001 -1.7230188578E+000 
9394888.611 +5.4418664534E-001 +5.3994604984E+000  +9.1950575884E-003 +2.6498731517E+001  +1.1695451737E-002 +2.9961375499E+001  +5.8980399821E-001 -5.5399218939E+000 
9520033.792 +4.9761825665E-001 +1.2011400900E+000  +6.5767748071E-003 +2.0654769324E+001  +9.1286205170E-003 +2.8497665499E+001  +5.6575076961E-001 -6.2112486115E+000 
9645178.974 +5.1600355231E-001 +3.1833089515E+000  +9.2103852601E-003 +2.5506158047E+001  +7.9152339636E-003 +1.6993080467E+001  +5.8245754529E-001 -2.8562796250E+000 
9770324.155 +5.0833624510E-001 +2.5157792898E+000  +8.6648585372E-003 +1.5846525018E+001  +6.7564681676E-003 +4.2929139406E+001  +5.2123902485E-001 -7.1400131854E+000 
9895469.337 +5.3398106852E-001 +3.2746303146E+000  +9.4391897108E-003 +2.5156693742E+001  +9.9408755318E-003 +2.6882623294E+001  +5.7922514132E-001 -4.4621639964E+000 
10020614.518 +5.6171614770E-001 +2.8640046346E+000  +8.3448147196E-003 +3.3535808061E+001  +6.9827195528E-003 +5.2925875936E+001  +5.8243824655E-001 -1.0007233738E+001 
10145759.700 +5.3058184388E-001 +1.0571647948E+000  +7.3157644980E-003 +2.8687773208E+001  +9.7757067407E-003 +3.7398366465E+001  +6.0238034708E-001 -1.9662071547E+000 
10270904.881 +5.3867350775E-001 +4.2950592457E+000  +8.6971838743E-003 +2.7129575632E+001  +5.9035270308E-003 +2.1887679247E+001  +5.8124976142E-001 -2.9262760240E+000 
10396050.063 +5.3745637571E-001 +7.2321623372E+000  +8.2466059643E-003 +1.6052843922E+001  +1.0187850864E-002 +4.6889614831E+001  +6.0712760605E-001 -4.4692983057E+000 
10521195.244 +5.4500819239E-001 +6.7534684142E+000  +6.4203772969E-003 +6.8148336471E+000  +1.0114672999E-002 +4.3314990839E+001  +5.8237809430E-001 +5.2301900029E-001 
10646340.426 +5.7380699019E-001 +5.1140148117E+000  +1.0107278326E-002 +1.0673208594E+001  +1.0624420926E-002 +4.6204664218E+001  +5.9776023026E-001 +1.3796993849E+000 
10771485.607 +5.4837081808E-001 +7.0859009016E+000  +8.3676498817E-003 +1.5058076788E+001  +8.7700747632E-003 +4.9278666256E+001  +5.6636789015E-001 +7.3575132499E-001 
10896630.788 +5.4094899477E-001 +8.0551003033E+000  +1.0624059030E-002 +2.0790247649E+001  +9.2866302222E-003 +6.5226100404E+001  +6.2814322145E-001 +9.6623467917E-001 
11021775.970 +5.8077900081E-001 +4.0258129733E+000  +1.0243760244E-002 +3.5645078490E+001  +5.2989707995E-003 +2.2254797157E+001  +6.0075208903E-001 -3.1879791632E-002 
11146921.151 +6.1211343177E-001 +7.6729992175E+000  +7.6635915983E-003 +3.5526570510E+001  +8.7056032782E-003 +3.5754834955E+001  +6.2961637786E-001 +1.3067001123E+000 
11272066.333 +5.8938809302E-001 +8.0219183773E+000  +7.8813980214E-003 +3.8075220797E+001  +1.1018077925E-002 +4.3927498935E+001  +6.1858748641E-001 +3.1632803734E+000 
11397211.514 +6.1639181191E-001 +8.0359228274E+000  +8.8743678921E-003 +3.9777944884E+001  +9.4103565070E-003 +6.0842955817E+001  +6.2442404302E-001 +1.0949823565E+000 
11522356.696 +6.2403155120E-001 +7.5118979212E+000  +1.0354461835E-002 +3.5910247488E+001  +8.5139076102E-003 +4.4083533946E+001  +6.4107948118E-001 +2.3164306253E+000 
11647501.877 +6.6649325515E-001 +6.9144273739E+000  +9.8297520905E-003 +2.4826370783E+001  +1.1092271666E-002 +5.2436333371E+001  +6.5730980177E-001 +1.0951796963E+000 
11772647.059 +6.3609145187E-001 +4.5654192157E+000  +8.2289231708E-003 +2.1920087931E+001  +8.2526149419E-003 +5.5345241917E+001  +6.4846437370E-001 +1.7163240721E+000 
11897792.240 +6.5966955262E-001 +8.0374908702E+000  +9.4610627218E-003 +3.9068619665E+001  +1.0009942922E-002 +5.2005706872E+001  +6.5190038976E-001 -5.7962479923E-001 
12022937.422 +6.6631081548E-001 +6.0517343140E+000  +9.6105185225E-003 +2.7473800195E+001  +7.6279894433E-003 +5.0528751967E+001  +6.7879771286E-001 -2.6395472499E-001 
12148082.603 +6.8206641638E-001 +3.0993940051E+000  +1.0019476100E-002 +4.1987619437E+001  +9.0235350472E-003 +3.8911111688E+001  +6.8113119245E-001 -7.6933182938E-001 
12273227.785 +6.9095881264E-001 +2.8306467915E+000  +1.1735935650E-002 +3.4072192771E+001  +9.2227995016E-003 +3.8273454908E+001  +6.9631310068E-001 +7.1369505555E-001 
12398372.966 +6.9823923479E-001 +4.4167285288E+000  +8.6908680986E-003 +3.5366451991E+001  +1.0251628104E-002 +4.9918029997E+001  +7.0146368668E-001 -1.2386058086E+000 
12523518.148 +7.0083730655E-001 +3.8797723162E+000  +9.2262857003E-003 +2.5564106096E+001  +1.1646082746E-002 +4.9121778590E+001  +7.4521121008E-001 +4.7377848681E-001 
12648663.329 +7.3177237223E-001 +3.1841809813E+000  +1.1018736365E-002 +3.0702924576E+001  +1.0779436036E-002 +3.7643909866E+001  +7.6134103453E-001 -2.5629402474E+000 
12773808.511 +7.4930439262E-001 +1.5214012529E+000  +1.1453742899E-002 +3.9502585879E+001  +1.1959220101E-002 +4.1535921086E+001  +7.5236436875E-001 -1.8463747591E+000 
12898953.692 +7.6521467916E-001 +9.0655242766E-001  +1.1681397565E-002 +4.7646849735E+001  +1.0620192911E-002 +4.2851902390E+001  +7.7086971748E-001 -1.0035455487E+000 
13024098.874 +7.9412142111E-001 +3.8934703609E-001  +9.8315308698E-003 +4.3231128223E+001  +1.2049376389E-002 +4.7589665899E+001  +7.9007321275E-001 -1.1656284656E+000 
13149244.055 +7.8473003531E-001 -4.5399758562E-001  +1.1621243226E-002 +3.4546890900E+001  +1.1941371866E-002 +3.8299493173E+001  +8.1346623532E-001 -1.8099196990E+000 
13274389.237 +8.1277860541E-001 -6.6744773306E-001  +1.0616310502E-002 +3.8705281614E+001  +1.2423379000E-002 +3.9671962736E+001  +8.0832377284E-001 -3.6948474576E+000 
13399534.418 +8.4441630436E-001 -1.1516517761E+000  +1.2276518107E-002 +3.6425978854E+001  +1.1023285317E-002 +3.8814681886E+001  +8.2682037344E-001 -2.5182253899E+000 
13524679.599 +8.5655477106E-001 -8.1936099070E-001  +1.1405852476E-002 +4.1809751705E+001  +1.2231038538E-002 +3.8331042856E+001  +8.5835758744E-001 -2.2107545951E+000 
13649824.781 +8.4564390954E-001 -1.6242618958E+000  +1.1594342718E-002 +4.2919270606E+001  +1.1018493669E-002 +4.1168176361E+001  +8.7441478753E-001 -3.2998511551E+000 
13774969.962 +8.9390226766E-001 -2.7283722043E+000  +1.0760393081E-002 +3.4557361436E+001  +1.3023737515E-002 +3.7833510196E+001  +8.9303355710E-001 -2.9177465579E+000 
13900115.144 +8.9206694676E-001 -1.6719651245E+000  +1.1068160224E-002 +4.0640257390E+001  +1.0410152638E-002 +3.6992717142E+001  +9.1624727784E-001 -4.3002555754E+000 
14025260.325 +9.3929141000E-001 -4.1454119778E+000  +1.2385751688E-002 +3.8837396227E+001  +1.1901038226E-002 +4.4845712322E+001  +9.2122432852E-001 -4.0417937551E+000 
14150405.507 +9.3516897262E-001 -5.2565861620E+000  +1.3256013582E-002 +3.7830503032E+001  +1.3139184247E-002 +4.0609273843E+001  +9.5091036912E-001 -4.8878283916E+000 
14275550.688 +9.5233061154E-001 -4.6854197886E+000  +1.2950390484E-002 +4.2661493562E+001  +1.1407718371E-002 +3.0486897645E+001  +9.4221017424E-001 -3.8051899259E+000 
14400695.870 +9.7802313784E-001 -6.7158139160E+000  +1.1164166179E-002 +4.2740023361E+001  +1.1123478924E-002 +3.5935412295E+001  +9.9004400931E-001 -2.7098540212E+000 
