!  2-Port S-parameters saved by WinCal
! VAR NAME=S2_r4c9_formed(0)_9k-100M_2
! VAR DATE=30/08/2024 11:35:32
! VAR FILENAME=S2_r4c9_formed(0)_9k-100M_2.S2P
! VAR MeasName=S-Parameters (CALIBRATED_DATA) read from VNA (P5004A)
! VAR MeasDate=28/08/2024 09:58:59
! VAR PHYS_PORTS=1,2
! VAR ObjTypeName=DATASET
! VAR IndexType=Frequency
!
# Hz S MA R 50
9000.000 +1.0312696530E-001 -1.6948315145E+002  +4.0290293366E-003 +1.6593529835E+002  +5.7227988371E-003 -5.3328830663E+001  +2.6526818503E-001 -1.5056516151E+002 
134145.181 +1.1076782838E-001 +1.6978711858E+002  +4.7006313812E-004 -5.4697636638E+000  +8.4737584952E-004 -2.6012383270E+001  +2.4562370162E-001 -1.7034221078E+002 
259290.363 +1.1244317804E-001 +1.7036675371E+002  +8.8075715878E-004 +1.7142987403E+002  +9.1968707700E-004 -8.5459682040E+001  +2.4163460940E-001 -1.6786969638E+002 
384435.544 +1.1475709575E-001 +1.6972539224E+002  +1.3908630067E-003 -1.4138744078E+002  +8.4672016384E-004 +1.4789052624E+002  +2.4081534624E-001 -1.6752374445E+002 
509580.726 +1.1397585713E-001 +1.7164861678E+002  +9.4828189210E-004 -1.1253934749E+002  +4.1687238663E-004 +4.3362989488E+001  +2.4578705759E-001 -1.6610320301E+002 
634725.907 +1.1863334905E-001 +1.7171065387E+002  +5.2944201707E-004 -1.5842507468E+002  +8.0585290613E-004 -6.0821071384E+001  +2.4169944458E-001 -1.6629318715E+002 
759871.089 +1.1951446189E-001 +1.7212276592E+002  +3.4069737419E-004 +1.4624021382E+002  +9.9400340619E-004 -1.5952144183E+002  +2.4938064069E-001 -1.6343010981E+002 
885016.270 +1.2021158391E-001 +1.6907201530E+002  +2.9495671297E-004 +4.7642317734E+001  +4.6214581138E-004 -1.1770343521E+002  +2.4957947678E-001 -1.6692893803E+002 
1010161.452 +1.1205680607E-001 +1.7036765806E+002  +2.4075735369E-003 +1.7043303802E+002  +2.2807117932E-003 -4.5223835124E+001  +1.7248855805E-001 -1.5695119870E+002 
1135306.633 +1.1854765537E-001 +1.6965669709E+002  +1.9513220360E-003 +9.6192690833E+000  +1.6392698967E-003 -8.5511970550E+001  +1.5378066788E-001 -1.4557084256E+002 
1260451.815 +1.1761752204E-001 +1.7223791451E+002  +2.0765936546E-003 -5.2658883374E+001  +1.7799021171E-003 -1.7068101283E+002  +2.6532318820E-001 -1.5153033304E+002 
1385596.996 +1.2542951248E-001 +1.7098908337E+002  +7.4190129770E-004 +1.0807237613E+002  +5.8850481941E-004 -9.3223391879E+001  +2.6362511134E-001 -1.5930893917E+002 
1510742.178 +1.2867438881E-001 +1.7179186993E+002  +8.6361600882E-004 +1.2712912731E+002  +5.6774948805E-004 -1.2016618839E+002  +2.6805254764E-001 -1.5959743830E+002 
1635887.359 +1.3027299734E-001 +1.7162000910E+002  +1.1678514761E-003 -7.8906583654E+001  +1.4425250054E-003 +1.0088841128E+002  +2.2737185453E-001 -1.5823734149E+002 
1761032.541 +1.2756418192E-001 +1.6870247703E+002  +1.4159839158E-003 +2.5400715612E+001  +4.3407590464E-004 +9.6059538223E+001  +2.3486820755E-001 -1.5581466407E+002 
1886177.722 +1.3086376913E-001 +1.6908193048E+002  +1.2762998045E-003 -9.0041243302E+001  +2.2662765814E-003 +1.6484677012E+002  +2.0465953031E-001 -1.6178608375E+002 
2011322.904 +1.2776253541E-001 +1.6810571535E+002  +1.5350629336E-003 -9.8313002396E+001  +1.1495244392E-003 +1.7281526494E+002  +2.1172047143E-001 -1.6253397427E+002 
2136468.085 +1.2939278777E-001 +1.6672065710E+002  +3.8210638321E-003 -1.4752708410E+002  +5.6537681683E-003 +1.5232064844E+002  +1.1036244396E-001 +1.6030452974E+002 
2261613.267 +1.3111907603E-001 +1.6636910269E+002  +5.1272786232E-004 +2.7462519797E+001  +2.9260483878E-003 -6.2117396441E+001  +1.9598508104E-001 +1.6827548040E+002 
2386758.448 +1.2418836445E-001 +1.6651714710E+002  +1.4496741144E-003 +2.6522675355E+001  +3.3663690279E-003 +1.0431977724E+002  +2.3311095837E-001 -1.7849820199E+002 
2511903.630 +1.3410449196E-001 +1.6373492774E+002  +7.7332671171E-004 +1.7273046928E+002  +4.5433188527E-003 +4.6772170912E+001  +2.0506828651E-001 -1.7874148081E+002 
2637048.811 +9.1132799421E-002 +1.7362670916E+002  +7.5562182954E-002 +4.3537342883E+001  +4.9770812960E-002 -7.4382268163E+001  +1.8646515258E+000 +3.7144086982E+001 
2762193.992 +1.2183039607E-001 +1.6644349266E+002  +6.0018313517E-003 +1.7790139992E+002  +1.1242887197E-002 +1.0414865152E+002  +2.8757591275E-001 +9.9629149024E+001 
2887339.174 +1.2284080014E-001 +1.6936105682E+002  +9.3728701660E-003 +3.1457410571E+000  +2.4683897337E-003 +1.3941668620E+002  +5.0618407614E-001 -1.3593323654E+002 
3012484.355 +1.0964145477E-001 +1.6654325684E+002  +2.4273286167E-003 -5.7054685436E+000  +6.0516897539E-003 +4.4754430563E+001  +4.2819844815E-001 -9.4255780185E+001 
3137629.537 +1.0043366781E-001 +1.6764766432E+002  +1.4052027451E-002 +5.3519465342E+000  +4.1446044796E-002 +5.5254876851E+001  +5.3490887496E-001 -1.3945643352E+001 
3262774.718 +1.2790142958E-001 +1.6008949986E+002  +1.1183943628E-002 +1.1167154727E+001  +1.4208460030E-002 -9.3081326114E+001  +1.5025693471E-001 -5.1758045580E+001 
3387919.900 +1.2626332213E-001 +1.6037216296E+002  +1.1684725784E-002 -1.5618155453E+002  +5.0402021887E-003 +2.3875030335E+001  +1.0223120541E-001 +1.1751277202E+002 
3513065.081 +1.4931877567E-001 +1.5550636928E+002  +1.1721835663E-002 +1.4185657309E+001  +2.8481929910E-002 -1.7095876057E+002  +6.4115152623E-001 +3.9226805233E+001 
3638210.263 +1.5287769045E-001 +1.4040815616E+002  +8.6697159251E-003 +1.4846619111E+002  +8.4383306210E-003 -1.0819055997E+002  +3.0301545879E-001 +1.5372539506E+002 
3763355.444 +1.9932362915E-001 +1.3846004031E+002  +2.4940414384E-002 -3.2643916698E+001  +1.0261847883E-002 +5.5722225447E+000  +9.6056860477E-001 +1.2217112092E+002 
3888500.626 +1.7233773651E-001 +1.5112361207E+002  +7.6890808446E-003 -1.4453757111E+002  +6.8505753182E-003 -8.9125040775E+000  +2.0454524618E-001 +1.2021108067E+002 
4013645.807 +1.5805185291E-001 +1.4731610355E+002  +7.9775659484E-003 +1.3850495138E+002  +3.6952691642E-003 +1.4153231189E+002  +2.8799763669E-001 +8.4433723217E+001 
4138790.989 +1.9053903345E-001 +1.3987792937E+002  +1.8721565856E-003 +7.5548938795E+001  +1.5168588350E-002 -1.4321881348E+002  +3.7232371455E-001 +1.1634082842E+002 
4263936.170 +1.5021094280E-001 +1.5805186386E+002  +5.9626463289E-003 -1.4553148095E+002  +4.5675386091E-003 -7.3745264164E+001  +4.2203060434E-001 +1.2292401153E+002 
4389081.352 +1.6755693968E-001 +1.4869801826E+002  +7.5630914418E-003 +5.2749468345E+001  +1.5808403498E-002 +9.3580887444E+001  +1.1158015386E+000 +9.1302838367E+001 
4514226.533 +2.4490121870E-001 +1.4051121562E+002  +1.0856712604E-002 +1.1826818445E+001  +1.9587326442E-002 -1.1323310079E+002  +1.0644132726E+000 +2.2893707394E+001 
4639371.715 +3.0009657960E-001 +1.1919249037E+002  +2.9943237459E-002 -1.4383807140E+002  +2.7177754820E-002 +3.3705942239E+001  +2.2134902522E+000 +1.2267955810E+002 
4764516.896 +3.2535233629E-001 +1.3438422595E+002  +1.3041136528E-002 +2.0667998494E+001  +6.2003125809E-002 +9.6454297459E+001  +2.9544666583E+000 +5.7940946428E+001 
4889662.078 +4.6649136476E-001 +1.2615836765E+002  +4.6223377848E-002 +4.6933904146E+001  +1.0532337988E-002 +1.2462133517E+002  +2.9741004907E+000 -1.5355632993E+002 
5014807.259 +4.7619929964E-001 +1.3009662531E+002  +1.5263741284E-002 +9.4750563041E+001  +3.8957528240E-002 +6.2095990957E+001  +7.9026871438E-001 -1.6143404201E+001 
5139952.441 +3.6754851579E-001 +1.3262436190E+002  +1.6045154928E-002 -1.3142492202E+002  +2.5238910242E-002 +1.2315663885E+002  +2.6301881361E+000 +1.4606594564E+002 
5265097.622 +4.1082293772E-001 +1.3094306262E+002  +2.4290767112E-002 -1.1201612648E+002  +1.8914106447E-002 +3.9058640863E+001  +3.0178185606E+000 +1.2925333993E+002 
5390242.804 +4.5403156812E-001 +1.3369173161E+002  +6.2925846481E-002 -4.6845917500E+001  +2.0209501725E-002 -1.1670188660E+002  +3.9451705860E+000 +1.0604059509E+002 
5515387.985 +3.8121162657E-001 +1.2734664190E+002  +1.5238200152E-002 +8.9386091241E+000  +3.9458224778E-002 +1.0243787151E+002  +2.3215214611E+000 +8.5109840935E+001 
5640533.166 +4.8667897370E-001 +1.3429445176E+002  +5.0019532614E-002 +1.1751132494E+002  +2.7524212666E-002 +1.1459199548E+002  +5.4148013557E+000 +9.9685973079E+001 
5765678.348 +5.2375561770E-001 +1.2117350786E+002  +2.9973310746E-002 +1.3821336879E+002  +7.1054650609E-002 +1.3286532166E+002  +4.7455703934E+000 +7.5690135848E+001 
5890823.529 +5.6174350809E-001 +1.2539764416E+002  +3.7184865334E-002 -1.3613984311E+002  +3.1451646997E-002 +1.7315957810E+002  +1.5641208287E+000 +5.3690950539E+001 
6015968.711 +5.9350488507E-001 +1.2046780303E+002  +1.9173561014E-002 +1.3954909873E+002  +2.4483429933E-002 -1.6193973023E+002  +2.7746183804E+000 +4.0275853389E+001 
6141113.892 +6.1439065192E-001 +1.1135562923E+002  +6.6031724312E-003 +1.1107892519E+002  +1.0132010888E-002 +1.5395935400E+002  +1.4736849174E+000 +5.4007564827E+000 
6266259.074 +1.1205177865E+000 +9.9952875256E+001  +6.6190007167E-003 +4.1176555668E+001  +5.8968156095E-003 -9.0935827897E+001  +1.3559999490E+000 +3.4416547889E+001 
6391404.255 +9.1550191431E-001 +9.1865588470E+001  +2.5281081477E-002 +8.7530468645E+001  +3.0201480085E-002 +4.0634602745E+001  +1.6367957167E+000 +2.0087794041E+001 
6516549.437 +1.4013698772E+000 +9.0486380937E+001  +3.1702127158E-002 -1.6912537807E+002  +3.5779369677E-002 +1.1489879799E+002  +1.3273370343E+000 +1.5880290160E+001 
6641694.618 +1.5447987851E+000 +5.7235978654E+001  +1.6237567884E-002 +1.2207273738E+002  +1.5817346583E-002 +3.1805121922E+001  +1.4936661520E+000 +1.0308203752E+001 
6766839.800 +1.6731396328E+000 +4.3582832796E+001  +6.9958808693E-003 +1.2232176000E+002  +4.1795344438E-002 +9.2405611186E+001  +1.6943421504E+000 -1.2237452681E+001 
6891984.981 +1.7250949440E+000 +3.9826419422E+001  +2.5043589749E-002 +1.4248217932E+001  +1.5744544473E-002 +4.4302663221E+001  +1.2459818797E+000 -1.2198891821E+001 
7017130.163 +2.1364828191E+000 +2.0950706440E+001  +1.9121592008E-002 +6.4693932660E+001  +3.6763550500E-003 +6.9557721796E+001  +1.1439671836E+000 -1.3036495624E+001 
7142275.344 +1.6614437619E+000 +1.0806893239E+001  +5.4426968133E-003 +1.1992295394E+001  +1.0927418263E-002 -2.4907403498E+001  +1.3717297363E+000 -1.1504308990E+001 
7267420.526 +1.6897265276E+000 -3.0599442293E+000  +2.2520063241E-002 +9.4678358147E+001  +3.7807106059E-003 +3.4263877081E+001  +1.3998456653E+000 -1.2662229608E+001 
7392565.707 +1.4352748401E+000 -3.6921851086E+000  +1.5463968723E-002 +2.8845512984E+001  +5.7073680363E-003 +1.0771460028E+002  +1.4101762388E+000 -7.5184712784E+000 
7517710.889 +1.3047111882E+000 +4.2342735205E+000  +1.7349036523E-003 +1.1216300843E+001  +2.5785051907E-003 -4.5854344361E+001  +1.3052320709E+000 -4.4475944504E+000 
7642856.070 +9.7814477927E-001 -2.8864217892E-001  +6.4570591627E-003 +8.4286603867E+001  +4.3283055996E-003 +3.5630781853E+001  +1.2199456464E+000 -5.0755975222E+000 
7768001.252 +9.6559582896E-001 +3.5864433089E+000  +1.0521704682E-002 +8.7504239153E+001  +3.1934085449E-003 +5.4522768708E+001  +1.0852799420E+000 +2.3411953770E-001 
7893146.433 +9.0540173148E-001 +1.0832553851E+001  +2.3963263547E-003 +5.1521339374E+001  +1.5038286148E-002 +1.3757166925E+002  +8.9261950992E-001 -3.1735529822E+000 
8018291.615 +9.1088604386E-001 +4.8138839856E+000  +6.1916800311E-003 +4.4049518772E+001  +7.2730989149E-003 +1.4722774841E+002  +8.8121078918E-001 -6.5719536846E+000 
8143436.796 +8.7767346586E-001 +4.8789592633E+000  +3.0211138986E-003 +1.6948397113E+002  +3.3601357963E-003 +4.1114533055E+001  +8.5310113318E-001 -4.0176968865E+000 
8268581.977 +7.5082291198E-001 +1.1115254990E+001  +7.7491684712E-003 +1.1283797640E+002  +3.7742493223E-003 +1.1706245235E+001  +7.9077997917E-001 -7.9959384503E+000 
8393727.159 +6.6388035063E-001 +8.9014048564E+000  +4.6729645595E-003 +9.6054515350E+001  +8.0070937594E-003 +9.7936237644E+001  +8.3551146632E-001 -3.6731993964E+000 
8518872.340 +6.3840029397E-001 +3.9711530807E+000  +7.4006781364E-003 +1.7385433061E+002  +5.3747649670E-003 +7.9457798786E+001  +6.9355632010E-001 +3.5095697901E+000 
8644017.522 +6.3136735854E-001 +6.9197853690E+000  +5.5344012750E-003 +3.5079177533E+001  +6.9389423801E-003 +6.1164436820E+001  +6.4841764914E-001 +2.1371553840E+000 
8769162.703 +6.8529854850E-001 +5.3346795851E+000  +1.3603788510E-003 +6.0090090620E+001  +7.6598752099E-003 +8.0548294257E+001  +6.7506528953E-001 -1.5215170197E+000 
8894307.885 +6.0697794974E-001 +6.4238001476E+000  +2.0967632203E-003 +3.3285179181E+001  +6.9646680429E-003 +1.0495774357E+002  +6.4580437100E-001 +1.5125954614E+000 
9019453.066 +6.1675645010E-001 +5.2410880103E+000  +1.9485360375E-003 +4.1787955452E+001  +5.4783344986E-003 +1.2240598750E+002  +6.4725175406E-001 -1.2167025590E-001 
9144598.248 +6.0933860566E-001 +4.2577093613E+000  +7.4419979972E-003 +1.0997077056E+002  +2.0547364161E-003 +7.5510380499E+001  +6.6998422573E-001 -2.3219567233E+000 
9269743.429 +5.3532203255E-001 +1.1366871145E+000  +4.0700670836E-003 +1.1813124779E+002  +1.1324894382E-003 -9.0023058444E+000  +6.5214830728E-001 +3.0202574795E-003 
9394888.611 +5.4766522806E-001 +3.9453293110E+000  +3.5388789191E-003 +1.1456679371E+002  +3.9524399612E-003 +1.3557982147E+002  +6.2101638380E-001 -1.7257978245E+000 
9520033.792 +5.8865258452E-001 -3.9363898746E+000  +3.5433843432E-003 +9.7207437298E+001  +7.0134524627E-003 +1.1127253772E+002  +5.5609618569E-001 -4.3887590773E+000 
9645178.974 +5.7081304791E-001 +3.5087514705E+000  +7.8875140357E-003 +9.3249465147E+001  +1.9986349405E-003 +8.9190039468E+001  +6.2951486028E-001 -3.7316063001E+000 
9770324.155 +5.1745506594E-001 -2.4277825720E+000  +3.6665595291E-003 +1.3357255220E+002  +3.5314195540E-003 +1.1742734040E+002  +5.9698368361E-001 -6.8925554613E+000 
9895469.337 +5.5809360592E-001 +4.2894309733E+000  +3.2748145540E-003 +6.0932819425E+001  +7.2509757796E-003 +7.5628253588E+001  +5.8571950399E-001 -4.5194332518E+000 
10020614.518 +5.1146750741E-001 -3.2594199811E-001  +5.4219755405E-003 +6.4154325930E+001  +4.2532964390E-003 +9.9526371434E+001  +5.6657268120E-001 -5.5505673765E+000 
10145759.700 +5.8826743056E-001 +2.9565307628E+000  +8.0572419567E-003 +9.4134853781E+001  +5.0741389961E-003 +1.2097333728E+002  +5.8721875868E-001 -5.1598997439E+000 
10270904.881 +5.6982090712E-001 +4.7146665709E+000  +4.1679757660E-003 +4.4675921869E+001  +5.2688518390E-003 +1.0069104795E+002  +6.3399234139E-001 -3.9318810616E-001 
10396050.063 +5.6669483918E-001 +4.1890377777E+000  +5.6698939496E-003 +1.0193279034E+002  +4.2317418545E-003 +6.5056961186E+001  +6.1192048452E-001 -1.5356357649E+000 
10521195.244 +5.6434965409E-001 +4.4960412836E+000  +3.5752752914E-003 +8.9650031685E+001  +4.9730056333E-003 +8.9854829625E+001  +5.9944112053E-001 -3.5758805582E+000 
10646340.426 +5.9351935719E-001 +6.8628269112E+000  +4.2835213289E-003 +6.7113578383E+001  +5.1366840645E-003 +1.0346736865E+002  +5.7273762487E-001 -1.3915488434E+000 
10771485.607 +5.7127353787E-001 +2.3972018664E+000  +4.2710198775E-003 +1.0071005089E+002  +3.4195889829E-003 +1.1260379175E+002  +6.3557387831E-001 -2.5722844503E+000 
10896630.788 +5.5704360493E-001 +4.9724836171E+000  +4.5050668126E-003 +9.7595052729E+001  +5.1986653511E-003 +9.4545156515E+001  +5.9500717878E-001 -1.2400625167E+000 
11021775.970 +5.8124733120E-001 +3.9889799893E+000  +4.4797050955E-003 +9.5161015257E+001  +5.1706513672E-003 +9.6614313938E+001  +6.0773722246E-001 +3.3939963584E+000 
11146921.151 +5.9715957597E-001 +7.2183629561E+000  +4.2879758067E-003 +8.4114571314E+001  +3.4970197458E-003 +1.3073043042E+002  +6.2127665139E-001 +2.0286171390E+000 
11272066.333 +5.8184860802E-001 +5.7463349362E+000  +2.6392840548E-003 +6.3557733375E+001  +5.8872970221E-003 +9.7485735551E+001  +6.3467149519E-001 +9.2704862450E-001 
11397211.514 +6.5024338117E-001 +6.4886360753E+000  +4.4264269892E-003 +1.0030313167E+002  +4.4191425431E-003 +8.3619165593E+001  +6.8871853661E-001 -1.3890856430E+000 
11522356.696 +6.2485381642E-001 +7.2162662146E+000  +5.4009726497E-003 +9.6130470576E+001  +6.7200137253E-003 +8.2358983067E+001  +6.4992864137E-001 -5.2180951385E-001 
11647501.877 +6.4712734729E-001 +6.4483739062E+000  +5.8841353210E-003 +8.3632245347E+001  +5.8140605567E-003 +9.4930357244E+001  +6.6807743081E-001 +9.1119045616E-001 
11772647.059 +6.2133773878E-001 +4.8993345835E+000  +5.3626228555E-003 +8.2834313364E+001  +7.0638209451E-003 +9.9417632886E+001  +6.5668931273E-001 -3.8168869319E-002 
11897792.240 +6.7929124364E-001 +1.8399512992E+000  +5.0281502811E-003 +9.7884655490E+001  +6.1826590796E-003 +1.0109356496E+002  +6.5690453883E-001 +2.7216434955E-001 
12022937.422 +6.6395685277E-001 +4.0272370645E+000  +5.5637461095E-003 +1.0704944162E+002  +3.8931885656E-003 +9.2225532910E+001  +6.9337427326E-001 -1.8098239867E+000 
12148082.603 +6.7379165778E-001 +3.8408654315E+000  +5.5002059557E-003 +1.0146615387E+002  +3.7555761043E-003 +1.1316920965E+002  +7.1026970540E-001 +1.4430494902E+000 
12273227.785 +7.1529570594E-001 +5.8003607335E+000  +4.4427841175E-003 +9.3287440237E+001  +5.3953430696E-003 +9.7766028818E+001  +7.3880872008E-001 -3.8130046576E-001 
12398372.966 +7.1612515113E-001 +4.8311017241E+000  +5.9024302225E-003 +8.2590520639E+001  +7.1041705595E-003 +8.8398656985E+001  +7.2674050020E-001 -4.6892605446E-001 
12523518.148 +7.1364171474E-001 +1.4859258205E+000  +6.1759540109E-003 +1.0177012301E+002  +4.8540095086E-003 +8.8505883617E+001  +7.1825125869E-001 +1.7701432058E-001 
12648663.329 +7.5217194085E-001 +1.9723260563E+000  +5.7509887520E-003 +9.7595855171E+001  +5.3080692709E-003 +9.6682799164E+001  +7.7182504849E-001 -2.1760099687E+000 
12773808.511 +7.7085237611E-001 +1.1668478792E+000  +6.6579572091E-003 +8.1557543130E+001  +7.0451215717E-003 +1.1249172788E+002  +7.6488361085E-001 -1.3192535781E+000 
12898953.692 +7.8896217807E-001 +9.4356510885E-001  +6.6326095858E-003 +7.8329048967E+001  +5.5001722686E-003 +1.0267007961E+002  +7.9576888577E-001 -2.6639965305E+000 
13024098.874 +7.9743306163E-001 +1.1472143526E+000  +5.4060178555E-003 +9.3996615914E+001  +6.5218413411E-003 +9.9636493267E+001  +8.2568081161E-001 -2.4706887486E+000 
13149244.055 +8.0967338324E-001 -1.3023827839E+000  +7.4642688500E-003 +9.7297921288E+001  +6.7193417807E-003 +7.8158328925E+001  +8.1952127311E-001 -1.0896598963E+000 
13274389.237 +8.1985366994E-001 -1.9102625451E+000  +6.6025880393E-003 +8.1186732876E+001  +6.2173382462E-003 +8.5571139637E+001  +8.6215161723E-001 -4.1929170742E+000 
13399534.418 +8.5579391714E-001 -4.2143756820E-001  +6.8186385437E-003 +7.7747846102E+001  +6.5184995449E-003 +8.2618486038E+001  +8.5535827863E-001 -2.8831176612E+000 
13524679.599 +8.7541044505E-001 -2.4224559933E+000  +5.8766468034E-003 +8.1961340891E+001  +8.3784920510E-003 +8.6717331587E+001  +8.9086377325E-001 -3.7829691409E+000 
13649824.781 +8.7840857288E-001 -2.7811628957E+000  +6.5808997866E-003 +8.3130007601E+001  +6.8739366671E-003 +7.9662818249E+001  +9.0230741824E-001 -2.8135659268E+000 
13774969.962 +9.0501082208E-001 -2.6407435543E+000  +6.6696683511E-003 +9.3317296877E+001  +7.2752150869E-003 +9.8403808545E+001  +9.0695676902E-001 -4.6036774443E+000 
13900115.144 +8.9287823899E-001 -2.5358199176E+000  +7.2806380857E-003 +8.2113443582E+001  +6.7709881163E-003 +9.9499901318E+001  +9.3098307180E-001 -4.0727118117E+000 
14025260.325 +9.4613749162E-001 -4.0283018150E+000  +7.3512013329E-003 +9.9024064440E+001  +7.5826261134E-003 +1.0180313676E+002  +9.4296625594E-001 -5.7065216127E+000 
14150405.507 +9.5963216454E-001 -3.9136896186E+000  +8.0303632387E-003 +8.8153185849E+001  +6.2176095288E-003 +8.2991258788E+001  +9.7671218691E-001 -4.6109034155E+000 
14275550.688 +9.4575085584E-001 -5.5958624816E+000  +8.0197454909E-003 +7.8455562269E+001  +6.9249827401E-003 +8.5545853119E+001  +9.7205935485E-001 -4.9814709158E+000 
14400695.870 +9.7528280619E-001 -6.1495489272E+000  +8.3128195110E-003 +8.8172291495E+001  +7.8936250944E-003 +8.9379263301E+001  +1.0010090489E+000 -5.1724868637E+000 
