!  2-Port S-parameters saved by WinCal
! VAR MeasName=S-Parameters (CALIBRATED_DATA) read from VNA (P5004A)
! VAR MeasDate=27/08/2024 16:41:47
! VAR NAME=S2_r2c9_RESET2_9k-100M_3
! VAR FILENAME=S2_r2c9_RESET2_9k-100M_3.S2P
! VAR DATE=27/08/2024 16:41:47
! VAR PHYS_PORTS=1,2
! VAR ObjTypeName=DATASET
! VAR IndexType=Frequency
!
# Hz S MA R 50
9000.000 +8.3377956917E-002 -1.6824909450E+002  +3.8811940439E-003 +3.8194731976E+001  +1.6745885009E-002 +8.8390137335E+001  +2.0186207860E-001 -1.3928625309E+002 
134145.181 +1.1090502902E-001 +1.7012860624E+002  +1.8045168632E-004 +5.5545802092E+000  +4.9430280266E-004 +1.0303645451E+002  +2.4381778195E-001 -1.6973189320E+002 
259290.363 +1.1177426839E-001 +1.6960693945E+002  +7.6138720884E-004 +1.0268211320E+001  +7.9487150405E-004 +1.4561528927E+001  +2.3728077224E-001 -1.6700959851E+002 
384435.544 +1.1363304041E-001 +1.7021497393E+002  +4.0959576485E-004 +8.2625820367E+001  +7.8962341789E-004 -4.8098021621E+001  +2.4363838595E-001 -1.6800566232E+002 
509580.726 +1.1505119397E-001 +1.7210843128E+002  +6.3844026761E-004 -1.5807017153E+002  +8.1481897164E-004 +1.1595473089E+002  +2.4341824127E-001 -1.6746435721E+002 
634725.907 +1.1741301209E-001 +1.7005756431E+002  +1.2022852564E-004 +1.4516443445E+002  +2.7435323050E-004 -3.2196971977E+001  +2.6038666561E-001 -1.6544957450E+002 
759871.089 +1.1767554293E-001 +1.7026096666E+002  +8.1077815905E-004 -8.2044744118E+000  +8.4568261334E-004 -1.7177988393E+002  +2.5014065677E-001 -1.6439156166E+002 
885016.270 +1.1744556857E-001 +1.6987737697E+002  +9.3698108744E-004 +7.8127181367E+001  +1.0726121478E-003 -6.4231287908E+001  +2.3715373881E-001 -1.6451305412E+002 
1010161.452 +1.1878487480E-001 +1.7375184878E+002  +2.4406722787E-004 +1.3512711909E+002  +2.3014353496E-003 +4.4038418096E+001  +2.2007574903E-001 -1.6030524823E+002 
1135306.633 +1.1583511322E-001 +1.6800922562E+002  +1.0425234632E-003 -1.0096631596E+002  +2.1793068642E-003 -6.1595436251E+001  +1.7868527705E-001 -1.5032109414E+002 
1260451.815 +1.1254540845E-001 +1.7336141093E+002  +2.0821007656E-003 -1.3062328554E+002  +2.1383159942E-003 -1.7959076267E+002  +2.6284219494E-001 -1.5796872613E+002 
1385596.996 +1.2724588545E-001 +1.7212473864E+002  +7.2578215801E-004 -8.0324566788E+001  +7.4226588176E-004 +1.7820865151E+000  +2.5972297056E-001 -1.5965239910E+002 
1510742.178 +1.2810811401E-001 +1.7262049834E+002  +1.3366142101E-003 +9.8983115441E+001  +7.0838547905E-004 -1.4547989944E+002  +2.6080496488E-001 -1.6068896028E+002 
1635887.359 +1.2732688081E-001 +1.6884033628E+002  +1.0369515326E-003 +6.6210439658E+001  +9.6568377051E-004 -1.9238157031E+001  +2.4270824095E-001 -1.6109292681E+002 
1761032.541 +1.2831193129E-001 +1.6901056950E+002  +9.8187782917E-004 +3.8118839349E+001  +1.2469340738E-003 -2.5821116651E+000  +2.2096905780E-001 -1.6239236425E+002 
1886177.722 +1.3059486823E-001 +1.6773291118E+002  +2.2865765876E-003 +1.5148084403E+002  +1.6359119690E-003 +1.3470755273E+002  +1.9043373224E-001 -1.7085039881E+002 
2011322.904 +1.2830312384E-001 +1.6675215056E+002  +2.4250818932E-003 +2.6082619102E+000  +2.0939530770E-003 -2.2626586906E+001  +1.3270027909E-001 +1.7472206583E+002 
2136468.085 +1.2971228634E-001 +1.6575465221E+002  +3.8260343569E-003 +6.4518809232E+001  +5.8190942301E-003 +1.1859123453E+002  +2.1826510502E-001 +1.5863734127E+002 
2261613.267 +1.3817054400E-001 +1.6644167393E+002  +2.7278767992E-003 -1.1472893154E+002  +1.1740706452E-003 +1.5132961617E+002  +2.0222499983E-001 +1.7817232314E+002 
2386758.448 +1.3600992226E-001 +1.5951051358E+002  +6.1103804015E-003 +6.3674428896E+001  +2.4170239667E-003 -1.3771357284E+002  +1.6765135478E-001 +1.7479288116E+002 
2511903.630 +1.3563515712E-001 +1.6467386389E+002  +2.1254888754E-003 +1.0616532001E+002  +1.8171702059E-003 -7.0774108872E+001  +2.5374913924E-001 +1.7103241740E+002 
2637048.811 +1.1973240651E-001 +1.6581403405E+002  +7.0858906447E-003 +1.3195398185E+000  +4.5666838723E-003 -1.3501824960E+002  +9.7733785735E-001 +1.6406012287E+002 
2762193.992 +9.7578014371E-002 +1.7245697603E+002  +1.9976477966E-002 -1.7369497791E+001  +2.1682922864E-002 +2.0036442340E+001  +1.0813947537E+000 +1.3690034985E+002 
2887339.174 +1.2206682395E-001 +1.6156324912E+002  +4.1806009319E-003 -1.5480319128E+002  +5.4605470267E-003 -9.8256572758E+001  +4.2104957072E-001 -1.2300700018E+002 
3012484.355 +9.1476130942E-002 -1.7261947034E+002  +1.2160008338E-002 +1.0985738571E+002  +1.3877682821E-003 +1.3339041921E+002  +3.8837035929E-001 -1.2030197408E+002 
3137629.537 +1.2722087549E-001 +1.6486615074E+002  +1.1248821157E-002 -4.5191832268E+001  +8.1483629464E-003 +1.5512159664E+002  +6.6132108609E-001 -1.1303904925E+002 
3262774.718 +1.2779391206E-001 +1.6774171034E+002  +1.6884863538E-002 -1.6953602936E+002  +6.0083839199E-003 +3.4312368090E+001  +6.9065636799E-001 -9.6587959260E+001 
3387919.900 +1.2426579378E-001 +1.6873135902E+002  +7.6012006474E-003 +1.5198838739E+002  +1.7631782134E-002 -1.7229196284E+002  +4.6296953421E-001 +1.5214610541E+000 
3513065.081 +1.3978482240E-001 +1.6073909347E+002  +8.3348621120E-003 +7.6073760754E+001  +3.6107237122E-002 +6.7440573869E+001  +9.8288739341E-001 +8.2251012444E+001 
3638210.263 +1.5832361487E-001 +1.4785157737E+002  +6.7142658226E-002 -1.5629560026E+002  +3.1793766052E-002 -1.6728634691E+002  +2.5201351695E+000 +9.3732004189E+001 
3763355.444 +1.9247875580E-001 +1.5026018584E+002  +5.1059596500E-003 -2.0268682303E+001  +7.5794123434E-003 +6.7907717768E+001  +6.9589282549E-001 +1.6041920812E+002 
3888500.626 +1.8837770045E-001 +1.4515034073E+002  +1.3119055199E-002 -1.7063924723E+002  +1.0021330372E-002 -3.9576970064E+001  +5.3765846043E-001 +9.7061510691E+001 
4013645.807 +1.5060782941E-001 +1.4015867309E+002  +8.5617734958E-003 -1.5833593999E+002  +9.0733147554E-003 -2.2414070730E+001  +3.6942259875E-001 +1.4291671311E+002 
4138790.989 +2.0860671120E-001 +1.4375439634E+002  +2.6677158594E-002 -8.7334784612E+001  +2.3346936567E-002 +6.0657638945E+001  +1.0936889370E+000 +1.1101997118E+002 
4263936.170 +1.9642168120E-001 +1.4730122518E+002  +1.5042592962E-002 -4.7570568393E+001  +1.3149596000E-002 -1.5747841292E+002  +6.4721110336E-001 +1.1155605924E+002 
4389081.352 +2.1915773480E-001 +1.4605236717E+002  +8.8593305761E-003 -2.6516110730E+001  +3.9287568566E-003 +4.0483060919E+001  +3.5104769613E-001 +6.5622493533E+001 
4514226.533 +2.3529961546E-001 +1.3545843203E+002  +1.2720844166E-002 -4.0401963817E+001  +1.5879700192E-002 -1.0790250387E+002  +6.5161637146E-001 +1.2878838207E+002 
4639371.715 +2.5469135060E-001 +1.3354701761E+002  +1.7774686508E-002 +1.7472285254E+002  +1.5451722093E-002 +1.6321423360E+002  +2.2723272042E+000 +1.4410498243E+002 
4764516.896 +4.0676075234E-001 +1.3449356496E+002  +3.2975128945E-002 -1.3897279038E+002  +2.5218123084E-002 +4.2672405002E+001  +3.0653300057E+000 +1.4269010562E+002 
4889662.078 +3.8129480386E-001 +1.3181856248E+002  +1.3334234110E-002 +1.0662931865E+001  +2.3661237820E-002 +8.5213547834E+001  +2.1899804113E+000 -1.1707821366E+002 
5014807.259 +4.0154514005E-001 +1.3382923334E+002  +2.7953688748E-002 -1.7264817193E+002  +2.1274398342E-002 +1.5555748916E+002  +1.7705977029E+000 +5.9126591300E+001 
5139952.441 +3.8606462039E-001 +1.2855920428E+002  +8.4030279364E-003 +1.4242071682E+002  +2.7123850519E-002 +2.7031085497E+001  +3.2474559396E+000 +8.3780641777E+001 
5265097.622 +5.3370155996E-001 +1.1483918430E+002  +4.0083041362E-002 -1.0358191664E+002  +2.1291178709E-002 -1.2942668923E+002  +2.1890787842E+000 +8.2070814714E+001 
5390242.804 +4.1962047506E-001 +1.3278676507E+002  +1.8827181307E-002 -6.3175135633E+001  +1.5260792040E-002 +9.6140319750E+001  +2.2720702016E+000 +7.4750730923E+001 
5515387.985 +4.0550056132E-001 +1.3165735365E+002  +1.4258663101E-002 -1.5633036262E+002  +2.0275586185E-002 +5.6959965367E+000  +1.4437249604E+000 +8.2065024381E+001 
5640533.166 +5.7683252969E-001 +1.2101176255E+002  +7.7814874371E-003 -5.8581344954E+001  +8.6815069001E-003 -1.3882372753E+002  +1.3107413011E+000 +9.4657840747E+001 
5765678.348 +4.6919945959E-001 +1.2985809059E+002  +6.8479231687E-003 +1.5784937809E+002  +6.2214852262E-003 +1.4210474232E+002  +1.9942471592E+000 +6.1221467826E+001 
5890823.529 +5.6854488912E-001 +1.2789196901E+002  +2.1831047079E-002 +1.0624897458E+002  +2.0874266058E-002 +6.4031965196E+001  +2.8612358651E+000 +9.6380858020E+000 
6015968.711 +7.8335301855E-001 +1.2494901741E+002  +2.4062913843E-002 +1.4765772905E+002  +2.3482470682E-002 -6.8674129514E+001  +2.5338201480E+000 +5.3505313365E+001 
6141113.892 +7.9563146044E-001 +1.1939738457E+002  +1.2652333399E-002 -1.4228360736E+002  +1.4482737229E-002 -7.9864429778E+001  +2.3308761018E+000 +3.9062776506E+001 
6266259.074 +9.5263772806E-001 +1.1161610103E+002  +5.7210983150E-003 -1.4508017123E+002  +1.9390535432E-002 +1.4005108109E+002  +1.7310953293E+000 +2.8037065068E+001 
6391404.255 +8.4662284391E-001 +1.0068332185E+002  +2.3012232595E-002 +1.1755916360E+002  +3.0448827564E-002 +1.0116655012E+002  +2.0560627854E+000 +1.2174307078E+001 
6516549.437 +1.1819205326E+000 +8.6002286961E+001  +1.6869620605E-002 +3.0506224120E+001  +1.9085303407E-002 -6.2920582035E+001  +1.4614263244E+000 +2.1824473567E+000 
6641694.618 +1.4288739886E+000 +7.1068111054E+001  +5.8790439385E-003 +7.3825679969E+001  +9.7654438270E-003 +3.5398725287E+001  +1.8540931498E+000 +1.0294944352E+000 
6766839.800 +1.7302547606E+000 +4.3485533756E+001  +2.5322147313E-002 +1.7023299398E+002  +3.4985752528E-002 -7.0338217880E+000  +1.4213154171E+000 -1.3462883353E+001 
6891984.981 +2.5018016898E+000 +2.6587189289E+001  +1.8105501709E-002 -1.2864830498E+002  +5.3114322965E-002 +7.8139477426E+001  +1.4490619904E+000 +1.1386881024E-001 
7017130.163 +1.7303588362E+000 +2.3695413973E+001  +1.2589317103E-002 +1.2114612931E+002  +2.0538297542E-002 +1.4576851398E+002  +1.2791074133E+000 -2.9219202201E+000 
7142275.344 +1.9513168102E+000 +1.9249600620E+001  +1.0104463802E-002 +1.1667350989E+002  +1.3270347971E-002 +1.0170263632E+002  +1.3165529358E+000 -8.4953366906E+000 
7267420.526 +1.8530719047E+000 +1.0730012289E+000  +8.3278928242E-003 +1.2066105141E+002  +1.4359717633E-002 +1.6320801544E+001  +1.3194875297E+000 -5.5774815217E+000 
7392565.707 +1.4534111024E+000 -1.1771343407E+000  +7.0822599137E-003 -7.5790642219E+001  +4.0616068301E-004 +3.6214109128E+001  +1.3469571587E+000 -7.7578738312E+000 
7517710.889 +1.2193803068E+000 -2.4529098415E+000  +7.6220801989E-003 +9.1473773475E+001  +2.9213453814E-003 +1.2838658682E+002  +1.3061545898E+000 -4.6241743816E-001 
7642856.070 +9.3034463062E-001 +5.4976999478E+000  +4.4623439312E-003 +7.7789984627E+000  +9.7586919750E-003 -6.4317929376E+001  +1.0953969233E+000 -2.5602619302E+000 
7768001.252 +9.8027495794E-001 +3.7141374048E+000  +8.1559842678E-003 +9.7403061630E+001  +3.7319024900E-003 -1.0454406161E+002  +9.6080037895E-001 -1.7206777188E+000 
7893146.433 +8.4484442778E-001 -2.1093571274E+000  +7.6629450549E-004 -3.3772686623E+001  +4.9643479800E-003 +1.2016927177E+002  +9.3370431215E-001 -3.2782967934E+000 
8018291.615 +8.6457287716E-001 +6.0810156806E+000  +4.0826082340E-003 +7.6906949935E+001  +8.9869252039E-003 +1.6634736840E+002  +8.6855043574E-001 +2.1656847310E+000 
8143436.796 +7.5017062515E-001 +1.0361973588E+001  +6.4769394330E-003 +7.5926779732E+001  +4.7466972106E-003 +8.8549872173E+001  +7.7612478141E-001 +5.0115474852E-001 
8268581.977 +6.9878037411E-001 +1.1032760180E+001  +2.4383457357E-003 -2.6698974414E+001  +6.3449374759E-003 +1.0338645982E+002  +7.5567327294E-001 -4.1796751438E+000 
8393727.159 +6.9286233481E-001 +1.0501137379E+001  +7.7304433976E-003 +8.4541673548E+001  +3.0568300880E-003 +5.2728285389E+001  +7.7540895693E-001 -3.5998504002E+000 
8518872.340 +6.1450812354E-001 +1.1625751332E+001  +6.4725903975E-003 +7.1653371892E+001  +5.7083315394E-003 +1.1804624933E+002  +6.8988680695E-001 +1.7662283828E+000 
8644017.522 +6.8443157128E-001 +3.7213295786E+000  +4.1647060132E-003 +1.1078867664E+002  +8.0495195049E-003 +6.7458211279E+001  +7.1301397219E-001 -3.4245885137E+000 
8769162.703 +6.4945640040E-001 +7.1078902792E+000  +7.4013430082E-003 +5.7028480316E+001  +4.5807807768E-003 +8.8341522541E+001  +6.3229249792E-001 +2.4478540081E-001 
8894307.885 +6.2069767487E-001 +3.2547031697E+000  +3.9678459106E-003 +6.7812504384E+001  +3.5886874219E-003 +4.7087158340E+001  +6.3778631881E-001 -2.2270666509E-001 
9019453.066 +5.4395258013E-001 +1.8732243348E+000  +3.6664498124E-003 +6.0123572466E+001  +3.0560049812E-003 +1.0700769486E+001  +6.0475400424E-001 +4.8101832609E-001 
9144598.248 +6.2738418587E-001 +1.0009746026E+001  +4.2618953122E-003 +2.4962571377E+001  +5.3550494957E-003 +1.0729594156E+002  +6.1213765249E-001 +2.0007883116E-001 
9269743.429 +5.7708799293E-001 +7.4809182726E+000  +3.3943510577E-003 +5.4332174284E+001  +4.7127364690E-003 +1.5706543499E+002  +5.9246631763E-001 -8.5719019166E-001 
9394888.611 +5.3771080451E-001 +2.5511724840E+000  +7.7959169760E-003 +9.1955944891E+001  +3.7981415482E-003 +1.1389961524E+002  +6.0323074034E-001 -4.6926007885E+000 
9520033.792 +5.4134598075E-001 +6.1524972652E+000  +1.6433063575E-003 +9.2505291211E+001  +5.3248539017E-003 +1.3336480629E+002  +5.6392649958E-001 -3.4658884443E+000 
9645178.974 +5.6044357251E-001 +3.3619280820E+000  +5.7421739569E-003 +8.4461537730E+001  +3.9861915226E-003 +1.0014315105E+002  +5.9567663578E-001 +5.1172206969E-001 
9770324.155 +4.9894779625E-001 +4.8719209276E+000  +3.8357139057E-003 +9.1287903704E+001  +7.7772656547E-003 +1.0553432766E+002  +6.3269647669E-001 -1.3716105614E+000 
9895469.337 +5.3096962843E-001 -2.6589921751E+000  +3.3737540890E-003 +7.2855571102E+001  +2.0333091560E-003 +8.1785192768E+001  +5.7332749859E-001 -5.8056937377E+000 
10020614.518 +5.7267031194E-001 +8.1102438983E-001  +4.4868208782E-003 +1.2182692410E+002  +2.7623008457E-003 +1.4158640564E+002  +5.9025253523E-001 -3.5504892839E+000 
10145759.700 +5.4049545954E-001 +3.4920637224E+000  +3.8437723055E-003 +7.9516854809E+001  +3.7278489406E-003 +1.1265123405E+002  +5.7972439905E-001 -6.8414108455E+000 
10270904.881 +5.8713277971E-001 +4.2529455620E+000  +3.3486894534E-003 +6.0276780123E+001  +4.8637838119E-003 +1.2740728110E+002  +5.7473720006E-001 -1.5184788373E+000 
10396050.063 +5.3683245170E-001 +5.2146221135E+000  +2.7840872733E-003 +9.9157852501E+001  +5.6210944572E-003 +7.4135628880E+001  +5.7333331914E-001 +5.0723455420E-001 
10521195.244 +5.7048995884E-001 +2.7138162448E+000  +2.5036311179E-003 +5.9292994417E+001  +5.5100866593E-003 +8.3357455426E+001  +5.4939743189E-001 -2.8305165119E+000 
10646340.426 +5.5146889217E-001 +5.4605643384E+000  +4.0616705533E-003 +8.3490928777E+001  +4.5054536855E-003 +9.2960859050E+001  +6.1119873422E-001 +3.4619462696E-001 
10771485.607 +5.7875798794E-001 +4.9872890208E+000  +6.7070216709E-003 +9.9879565569E+001  +4.6806001491E-003 +9.6613651872E+001  +5.9536027599E-001 -8.3902683354E-001 
10896630.788 +5.8877432935E-001 +5.3147169848E+000  +5.2449177463E-003 +9.7969190848E+001  +7.2800058857E-003 +1.2042856940E+002  +6.0826573886E-001 -2.8945259546E+000 
11021775.970 +5.9364068644E-001 +6.2478490998E+000  +7.1476931733E-003 +9.5858523506E+001  +4.3546249347E-003 +1.2554638421E+002  +6.4592954525E-001 -7.9436210874E-001 
11146921.151 +6.2064661606E-001 +8.0087107860E+000  +1.9141665825E-003 +7.0694273947E+001  +5.8395646016E-003 +9.5888515221E+001  +6.0642503460E-001 +1.7673385282E+000 
11272066.333 +6.2210562779E-001 +9.6258491581E+000  +5.8414588882E-003 +7.8159224862E+001  +5.1602551475E-003 +8.4871905085E+001  +6.1835859063E-001 +7.0243704005E-001 
11397211.514 +6.2370983479E-001 +6.1281318011E+000  +3.9594047110E-003 +8.9543502606E+001  +4.4180265186E-003 +1.1478637156E+002  +6.1795895185E-001 +2.4411708130E+000 
11522356.696 +6.0108734520E-001 +6.7249425807E+000  +4.2231472127E-003 +6.6764508613E+001  +4.3817243462E-003 +1.2951021282E+002  +6.1353040828E-001 -6.2796231049E-002 
11647501.877 +6.2287368616E-001 +6.5311993101E+000  +7.1240472671E-003 +9.6307982169E+001  +4.8133030468E-003 +8.2210678151E+001  +6.3718889402E-001 +8.4903881312E-001 
11772647.059 +6.4581784716E-001 +4.9781692866E+000  +4.7524801124E-003 +9.8844134127E+001  +6.6731407259E-003 +1.0734759890E+002  +6.7818693435E-001 +3.9368513627E-002 
11897792.240 +6.4758942539E-001 +5.8465118841E+000  +4.9995718282E-003 +1.0228427301E+002  +5.5221740820E-003 +1.0481186305E+002  +6.7892382014E-001 +8.9045945498E-001 
12022937.422 +6.7737120888E-001 +4.0497041374E+000  +4.4022040058E-003 +9.5452836964E+001  +4.0664062133E-003 +1.0477292244E+002  +7.2789065395E-001 +1.0298203246E-001 
12148082.603 +6.7072772487E-001 +6.1771418860E+000  +5.4688649428E-003 +8.2820630882E+001  +7.2492534011E-003 +1.1604768019E+002  +6.9499549364E-001 +3.9955469721E-001 
12273227.785 +7.2221908906E-001 +2.7218415521E+000  +7.2492421366E-003 +9.7072803830E+001  +5.5998751672E-003 +9.7165422619E+001  +7.0357676459E-001 +2.7424562767E-002 
12398372.966 +7.0302984517E-001 +4.4920604686E+000  +5.0655884766E-003 +8.4072127815E+001  +6.7239559433E-003 +9.8805500692E+001  +6.9854063487E-001 +2.0785199528E-001 
12523518.148 +7.1928568013E-001 +2.2984016635E+000  +6.0480154883E-003 +8.3961437386E+001  +5.9279262312E-003 +8.1845160494E+001  +7.4191560828E-001 -1.8695031399E+000 
12648663.329 +7.3076910926E-001 +2.6651277471E+000  +6.5445409237E-003 +7.6220262440E+001  +7.6669651801E-003 +9.4726004573E+001  +7.7924807316E-001 -1.1000203602E-002 
12773808.511 +7.7750265789E-001 +1.4084539567E+000  +5.2908004720E-003 +8.2555225042E+001  +5.7847134226E-003 +1.0527931341E+002  +7.6955702968E-001 -9.4995191241E-001 
12898953.692 +7.9418704848E-001 +1.5305344234E+000  +6.3016951694E-003 +1.0874188543E+002  +5.5531371717E-003 +9.9649662206E+001  +7.8085984453E-001 -2.0575345795E+000 
13024098.874 +7.9084460658E-001 -3.0886702802E-001  +4.3517461432E-003 +9.5574767155E+001  +4.7020795074E-003 +8.7879778770E+001  +8.0926073466E-001 -5.4363505077E-001 
13149244.055 +7.9698807838E-001 +7.5573751662E-001  +6.8887139806E-003 +9.8641504039E+001  +5.7753609066E-003 +9.5869126808E+001  +8.1637257169E-001 -1.5733996549E+000 
13274389.237 +8.2055660435E-001 -7.6509994334E-001  +5.9849638177E-003 +9.2219479443E+001  +6.0829534260E-003 +9.4368212108E+001  +8.3392209973E-001 -2.4600583432E+000 
13399534.418 +8.3806789316E-001 -1.9896775054E+000  +6.6663155823E-003 +9.3886459875E+001  +6.6096464733E-003 +8.1314483657E+001  +8.5128754348E-001 -3.3140775257E+000 
13524679.599 +8.6997256299E-001 -9.0348357351E-001  +4.7207818642E-003 +8.5495219548E+001  +6.4811572952E-003 +7.8623496320E+001  +8.5285723086E-001 -2.5931326250E+000 
13649824.781 +8.6870200853E-001 -2.8030084735E+000  +6.4716868565E-003 +9.3089352828E+001  +5.9364152591E-003 +1.0307785388E+002  +8.8649307007E-001 -2.3766736537E+000 
13774969.962 +9.1166221878E-001 -1.0082165173E+000  +8.3612796638E-003 +9.8483260659E+001  +7.0527832627E-003 +8.8873412573E+001  +9.0535432894E-001 -2.9982474147E+000 
13900115.144 +8.9851911863E-001 -4.0332755549E+000  +7.6869946669E-003 +8.7050689027E+001  +6.9489753194E-003 +8.4696952072E+001  +9.1008170302E-001 -4.3262020775E+000 
14025260.325 +9.1083182029E-001 -4.3320642968E+000  +6.2579043232E-003 +8.8679268874E+001  +6.9305456873E-003 +9.2570236384E+001  +9.3258341246E-001 -3.2524006779E+000 
14150405.507 +9.1721006297E-001 -3.3750096193E+000  +8.1323004130E-003 +9.4355967522E+001  +7.2869509362E-003 +9.4851146059E+001  +9.5277305474E-001 -2.7063175680E+000 
14275550.688 +9.7666217149E-001 -4.9922018168E+000  +8.3058055662E-003 +9.4397353465E+001  +6.0396024124E-003 +8.9092061525E+001  +9.7006423862E-001 -3.9273349570E+000 
14400695.870 +9.7127576281E-001 -5.1617746503E+000  +7.4861449514E-003 +8.9412939048E+001  +7.5439532510E-003 +8.6492128964E+001  +9.9293133969E-001 -4.9381938656E+000 
