!  2-Port S-parameters saved by WinCal
! VAR MeasName=S-Parameters (CALIBRATED_DATA) read from VNA (P5004A)
! VAR MeasDate=27/08/2024 12:46:33
! VAR NAME=S2_r7c9_pristine_9k-100M_2
! VAR FILENAME=S2_r7c9_pristine_9k-100M_2.S2P
! VAR DATE=27/08/2024 12:46:33
! VAR PHYS_PORTS=1,2
! VAR ObjTypeName=DATASET
! VAR IndexType=Frequency
!
# Hz S MA R 50
9000.000 +6.0405604622E-002 -1.7045150350E+002  +8.7371923964E-003 +1.0748898839E+002  +1.0752307760E-002 +1.6741393768E+002  +5.5821829856E-002 -1.3490415805E+002 
134145.181 +1.1016746395E-001 +1.6945015661E+002  +3.9814652975E-004 +5.0929433054E+001  +4.9435565527E-004 +6.2324565968E+001  +2.4034776446E-001 -1.7091526604E+002 
259290.363 +1.1149296942E-001 +1.6992698953E+002  +3.9075481961E-004 -3.6167121480E+001  +7.0659852391E-004 -1.2794391981E+002  +2.3732640638E-001 -1.6998548606E+002 
384435.544 +1.1398474500E-001 +1.6970512571E+002  +2.6241355911E-004 +9.3463347216E+001  +4.2909278010E-004 -3.6252679058E+001  +2.4007779417E-001 -1.6724953944E+002 
509580.726 +1.1442343394E-001 +1.7017318822E+002  +1.2020993318E-003 -1.3197253443E+002  +1.0268482658E-003 -1.0818107428E+002  +2.5366076484E-001 -1.6247578657E+002 
634725.907 +1.1304244677E-001 +1.7113654551E+002  +4.4207045666E-004 +1.4762824634E+001  +1.4592834379E-003 +5.8890809473E+001  +2.4207862662E-001 -1.6694718497E+002 
759871.089 +1.1688525573E-001 +1.7110290524E+002  +4.9696840260E-004 -1.1174320245E+001  +1.5239978818E-003 -2.0859083913E+001  +2.4239429126E-001 -1.6444448737E+002 
885016.270 +1.1665160279E-001 +1.6935951777E+002  +7.2422151054E-004 -1.2590324371E+002  +3.7949937726E-004 -2.3372544162E+001  +2.3894949396E-001 -1.6543050232E+002 
1010161.452 +1.1331842088E-001 +1.7176015559E+002  +4.3572426977E-003 +4.1709785421E+001  +6.9046557416E-003 +1.0258955936E+002  +2.9881911532E-001 -1.3442575992E+002 
1135306.633 +1.1438159664E-001 +1.7051522893E+002  +1.7811353988E-003 +1.6132155689E+002  +1.0467799590E-003 -1.7470318499E+002  +2.0042029575E-001 -1.5654841883E+002 
1260451.815 +1.1984956477E-001 +1.7101766963E+002  +1.6050582041E-003 -2.5556382525E+000  +6.2925242490E-004 -1.7781497919E+001  +2.3099129351E-001 -1.5977109715E+002 
1385596.996 +1.2547574337E-001 +1.7242340598E+002  +6.5930876003E-004 -9.0542142815E-001  +8.6997957792E-004 +1.4575601314E+002  +2.5310648529E-001 -1.6001677964E+002 
1510742.178 +1.2041583840E-001 +1.7024273588E+002  +6.0580330113E-004 -1.5757581223E+002  +9.9233194933E-004 +1.5755775904E+002  +2.5521904484E-001 -1.5808176032E+002 
1635887.359 +1.2698561289E-001 +1.6976742237E+002  +8.9596791615E-004 +5.7362196730E+001  +7.1463348838E-004 +6.8125487126E-001  +2.3942037660E-001 -1.5832536690E+002 
1761032.541 +1.2745476068E-001 +1.6787021837E+002  +1.2995772466E-003 +8.8944397705E+001  +2.0312617989E-003 -1.2727270378E+002  +2.1699958420E-001 -1.6160587652E+002 
1886177.722 +1.2874979401E-001 +1.6876297864E+002  +3.2461966309E-003 -6.9545313556E+001  +3.2524471995E-003 -1.4873044308E+001  +1.9640991540E-001 -1.6097840846E+002 
2011322.904 +1.3114410285E-001 +1.6599673141E+002  +1.1964068659E-003 -9.6786843469E+001  +1.7264950139E-003 +7.5522800280E+001  +2.1238044991E-001 -1.7913326672E+002 
2136468.085 +1.3423338771E-001 +1.6256015182E+002  +2.1554665776E-003 -1.3681012619E+002  +1.2508339270E-003 -6.4731203427E+001  +1.8630549471E-001 -1.7122818724E+002 
2261613.267 +1.3049233121E-001 +1.6132977877E+002  +2.0634310088E-003 -5.0128900406E+001  +1.8657550834E-003 -1.1817927518E+002  +2.0791362101E-001 +1.6774547152E+002 
2386758.448 +1.3347188016E-001 +1.6467762014E+002  +1.8950772915E-003 +1.0351448523E+002  +2.5400130408E-003 -1.6113569690E+002  +2.3322872806E-001 +1.5595643948E+002 
2511903.630 +1.1949118429E-001 +1.6137819763E+002  +1.3796470672E-003 -7.1029983103E+001  +2.4726104369E-003 -9.8092314991E+001  +2.2306521675E-001 +1.7952092248E+002 
2637048.811 +1.2878994930E-001 +1.6242913627E+002  +2.7789748501E-003 +7.4524403305E+001  +4.5108748401E-003 -4.2203744900E+001  +2.2644234297E-001 +1.7305885589E+002 
2762193.992 +1.1805259081E-001 +1.7272542941E+002  +3.9831463655E-002 -9.1389451207E-001  +5.0029766676E-002 +5.3351465617E+001  +1.7245668533E+000 +1.6438320995E+002 
2887339.174 +1.1899108170E-001 +1.7552690900E+002  +1.0739575933E-002 -7.0596109342E+001  +7.4127242657E-003 -1.5735437255E+002  +4.8495265563E-001 -1.0806888068E+002 
3012484.355 +1.2792293648E-001 -1.7705212188E+002  +1.0227883068E-002 -6.7091251762E+001  +1.1939849943E-002 +1.7041225404E+002  +6.3533311164E-001 -1.1950318231E+002 
3137629.537 +9.4322201239E-002 +1.5472265893E+002  +1.5074653157E-002 +7.3698832750E+001  +2.0168623277E-002 +3.3403081247E+001  +3.5682030516E-001 -7.4091528781E+001 
3262774.718 +1.0909273822E-001 +1.5660411951E+002  +7.7788673808E-003 +1.4340315660E+002  +2.2094289711E-002 -4.6767103193E+001  +5.2568642439E-001 -8.6423946860E+001 
3387919.900 +5.8726363176E-002 +1.6441817478E+002  +3.3680354830E-002 +1.6310368548E+002  +2.2428253496E-002 +1.0960150698E+002  +3.6947930631E-001 +8.2303382355E+001 
3513065.081 +1.1821982166E-001 +1.4990526341E+002  +1.5606319880E-002 -1.4355092132E+002  +2.8981734443E-003 -9.4798532343E+000  +6.4650744347E-001 +6.1627701973E+001 
3638210.263 +1.6174365788E-001 +1.4759598076E+002  +3.5991553560E-002 -1.2590976531E+002  +1.8117851784E-002 +1.6835806297E+002  +1.7797950587E+000 +9.7459340917E+001 
3763355.444 +1.8642541450E-001 +1.2345740066E+002  +2.8039549260E-002 +1.5988801451E+002  +2.7194553092E-002 +1.1333216002E+002  +1.6282691416E+000 +1.3867073207E+002 
3888500.626 +1.9913976857E-001 +1.4444408040E+002  +1.4009617298E-002 +1.3058144084E+002  +6.7142092856E-003 -1.6179927561E+002  +6.8251410847E-001 +1.4118936617E+002 
4013645.807 +1.9737258060E-001 +1.4873480962E+002  +5.7972416366E-003 +1.2058270047E+002  +7.3874865106E-003 -8.9223609626E+001  +3.4091357370E-001 +6.0071027001E+001 
4138790.989 +1.9097888116E-001 +1.4067010469E+002  +2.7933132558E-003 +7.8366334152E+001  +3.9379583308E-002 +3.4078506852E+001  +7.1821304582E-001 +4.4768142958E+001 
4263936.170 +2.2700170367E-001 +1.4603195794E+002  +6.5869474329E-003 -6.7083725975E+001  +5.2229722609E-003 +1.1142226074E+001  +7.4237794313E-001 +7.7688561862E+001 
4389081.352 +1.9359082514E-001 +1.3355877342E+002  +1.9174142147E-002 +1.5994784863E+002  +1.5290434776E-002 +4.5906982406E+001  +6.3909373414E-001 +9.0168962517E+001 
4514226.533 +2.3765250843E-001 +1.3664453786E+002  +1.4012400552E-004 -1.0408603438E+002  +1.2894009322E-002 +2.7420301838E+001  +3.2951072118E-001 +1.5292232746E+001 
4639371.715 +3.3758783006E-001 +1.2374795585E+002  +2.6390166414E-002 -7.5937314796E+001  +2.8798453214E-002 +1.6458401541E+002  +1.8983420398E+000 +1.3183753084E+002 
4764516.896 +3.4771321030E-001 +1.2289355350E+002  +3.6213788896E-002 -9.1523120883E+000  +4.6240369702E-002 +3.6889501602E+001  +1.4310332717E+000 +1.2976565228E+002 
4889662.078 +4.2782005019E-001 +1.3742413343E+002  +3.9286594077E-002 -1.7971903757E+002  +1.2015364505E-002 +1.2944652263E+002  +2.6441276245E+000 +2.8383196325E+000 
5014807.259 +4.3323677577E-001 +1.3502005783E+002  +2.8266496254E-002 +1.6353840618E+002  +7.0496666149E-002 -4.0988058282E+001  +5.5217891657E+000 -1.2830304827E+002 
5139952.441 +4.4009484360E-001 +1.2205648403E+002  +3.3437481693E-002 +5.0577293485E+001  +4.1476723350E-002 +4.5592781736E+001  +2.7552327210E+000 +1.1137780072E+002 
5265097.622 +4.7142217654E-001 +1.2314435819E+002  +1.2556704441E-002 +7.6137032417E+000  +1.2503198336E-002 -7.2481750941E+001  +2.3490968027E+000 +1.1121194950E+002 
5390242.804 +3.6010418351E-001 +1.2637886155E+002  +3.1109927109E-002 -6.9935394446E+001  +9.2407264839E-003 +6.4425888990E+000  +2.5205093863E+000 +9.5155521026E+001 
5515387.985 +4.2519860741E-001 +1.2019552848E+002  +2.4705599511E-003 +6.3452415120E+001  +2.4681786145E-002 -1.5870934527E+002  +2.0247995002E+000 +1.1591598224E+002 
5640533.166 +4.7101675161E-001 +1.2578034317E+002  +3.0028794385E-002 +1.6764828180E+002  +3.8643272295E-002 +1.2552275476E+002  +2.7415745053E+000 +9.5190845287E+001 
5765678.348 +5.8348005717E-001 +1.2408259993E+002  +2.2967206277E-002 -1.2828039891E+002  +5.6922018557E-003 -1.8387423678E+001  +1.2483971660E+000 +5.8526848720E+001 
5890823.529 +5.6763346772E-001 +1.1757413086E+002  +2.8942071886E-002 +1.3619630600E+002  +3.4479288755E-002 -1.5859936866E+002  +1.5796573979E+000 +9.1643280956E+001 
6015968.711 +7.4073197603E-001 +1.2032264979E+002  +2.2351500360E-002 -7.0974478286E+001  +3.9015195482E-002 +1.1471212420E+002  +3.0871023456E+000 +2.5245284477E+001 
6141113.892 +6.9274528968E-001 +1.1669887715E+002  +2.7081426548E-002 +1.4808310724E+002  +3.1561992903E-002 +9.9191718147E+001  +1.8283020007E+000 +2.4058434612E+001 
6266259.074 +9.5619598199E-001 +9.5162419780E+001  +6.7825617552E-003 +1.0784442959E+001  +2.1708295580E-002 -5.6942436467E+001  +1.3949712439E+000 +3.2772245941E+001 
6391404.255 +1.3109530924E+000 +9.9754845760E+001  +1.2145185568E-002 -1.3925707671E+002  +1.3278445476E-002 -1.1092054326E+002  +1.5900857967E+000 +9.1440327151E+000 
6516549.437 +1.2758900275E+000 +8.9986622168E+001  +1.8276751117E-002 -9.7836088877E+000  +8.9611488679E-003 -4.9338157311E+001  +1.7460807569E+000 +1.5548222871E+001 
6641694.618 +1.5755460590E+000 +6.9349046795E+001  +1.1546166545E-003 +1.1581978458E+001  +2.3501666147E-002 +6.5437506849E+001  +1.5370291529E+000 +7.3130596758E+000 
6766839.800 +1.9912477770E+000 +4.9043384669E+001  +1.0231723259E-002 -8.1634679626E+001  +1.4052671746E-002 +6.1844894154E+001  +1.9705636689E+000 -7.3926249114E+000 
6891984.981 +1.7017375346E+000 +4.5920322180E+001  +3.4406391175E-002 +5.7980783609E+001  +2.7645769748E-002 +9.8864959451E+001  +1.2740651981E+000 -7.8996931959E+000 
7017130.163 +1.9147900146E+000 +1.1556187410E+001  +5.1791133227E-003 +9.4670356304E+001  +7.4286306005E-003 -2.2941788587E+000  +1.1831587810E+000 -1.4483177486E+001 
7142275.344 +1.6624610162E+000 +1.2425603933E+001  +2.2311697575E-002 +6.8273627020E+001  +5.6725628595E-003 +7.3384538126E+001  +1.1332742945E+000 -3.5350786472E+000 
7267420.526 +1.6862438699E+000 -2.5609799066E+000  +8.1050250908E-003 -2.2095078936E+001  +8.4277390714E-003 +8.5171403845E+001  +1.1838480324E+000 -9.5844194602E+000 
7392565.707 +1.3742749093E+000 -5.7303868412E+000  +5.3883065027E-003 +1.1010849077E+002  +8.0598217996E-003 +3.7515368780E+001  +1.3405039851E+000 -7.2645370324E+000 
7517710.889 +1.1579091379E+000 -6.4746113999E+000  +3.4414003364E-003 +1.5081863013E+002  +4.9273948123E-003 +4.4752152729E+001  +1.2154233635E+000 -4.6461924224E+000 
7642856.070 +1.0723537405E+000 -2.9953804011E+000  +3.8371426126E-003 -1.5983762578E+002  +9.7602772661E-003 +6.0511612153E+001  +1.0967091917E+000 -1.1095100051E+001 
7768001.252 +8.6888807250E-001 +2.5464515320E+000  +8.0706984120E-003 +1.0660871722E+002  +4.2422299021E-003 +1.5022131372E+002  +1.0015940713E+000 -3.9169971181E+000 
7893146.433 +8.2927500244E-001 +9.1441884673E-001  +2.7713488255E-003 +1.5958112605E+002  +4.7640078143E-003 +4.8786328392E+001  +9.4712199819E-001 -1.1379876082E-001 
8018291.615 +8.7573791248E-001 +9.2207193101E+000  +6.5802075003E-003 +1.5542012480E+002  +1.2204695657E-002 +1.7684338203E+002  +8.8446946906E-001 -6.2244726851E+000 
8143436.796 +7.9685202648E-001 +3.0203114081E+000  +7.2060771336E-003 +1.3382883077E+002  +5.2278647400E-003 +1.3155031278E+002  +8.1626649742E-001 -3.3471281086E+000 
8268581.977 +7.4817002690E-001 +1.2773283656E+001  +6.7822057621E-003 +6.6045996424E+001  +8.2575920404E-003 +8.4977426185E+001  +8.4034114333E-001 -1.9286739963E+000 
8393727.159 +6.4997582501E-001 +9.3513346563E+000  +1.1952617139E-003 -6.4563035867E+001  +9.7491669481E-003 +9.2094596124E+001  +6.8393170135E-001 -7.4726257350E-001 
8518872.340 +6.3438662265E-001 +1.2997448044E+000  +6.1046684958E-003 +1.4346539383E+002  +4.1473829898E-003 +9.4567514059E+001  +6.9287058053E-001 +9.9998057304E-001 
8644017.522 +6.5316544353E-001 +3.7913565432E+000  +5.6630944446E-003 +1.1352843324E+002  +6.0143370834E-003 +1.7758240231E+001  +7.0448176804E-001 -5.7422281900E+000 
8769162.703 +6.8082241673E-001 +1.0438860263E+001  +3.4646031790E-003 +1.0702811440E+002  +3.5697122351E-003 +1.3801820547E+002  +6.6249369899E-001 +9.7063713746E-001 
8894307.885 +6.0478668923E-001 +2.1259403877E+000  +4.0532618835E-003 +7.1183604260E+001  +5.3853837808E-003 +8.9482564582E+001  +6.6686929817E-001 +2.2242279635E+000 
9019453.066 +5.8178379569E-001 +5.5695654191E+000  +2.8514615581E-003 +9.7376257485E+001  +5.9929444684E-003 +7.8622112538E+001  +6.4788292321E-001 +6.4225675375E+000 
9144598.248 +5.6361037782E-001 +6.9006973997E+000  +4.4557371301E-003 +5.5839271931E+001  +3.3166477152E-003 +8.3251253377E+001  +5.7391952657E-001 +1.5913991823E+000 
9269743.429 +5.5346492289E-001 -1.6934815063E-001  +3.4464982828E-003 +9.8140819089E+001  +5.5710155292E-003 +1.4413323331E+002  +5.8960324362E-001 +1.0512533124E+000 
9394888.611 +4.9340531487E-001 +9.3189369911E+000  +5.2048142915E-003 +6.6040434285E+001  +2.1265063663E-003 +1.1496119249E+002  +5.9879787255E-001 +1.8348997774E+000 
9520033.792 +5.5648542710E-001 -8.6794560040E-001  +3.2902109801E-003 -1.4563645630E+002  +4.3648916266E-003 +6.7429574418E+001  +6.1229853354E-001 -5.8140565295E+000 
9645178.974 +5.0173079340E-001 -1.6297042288E+000  +4.8244001599E-003 +8.6955942507E+001  +2.5975197999E-003 +1.7992104937E+002  +5.4911431513E-001 -9.9894373552E+000 
9770324.155 +5.2494471365E-001 +7.5065699999E-001  +1.8987319037E-003 +1.0856256685E+002  +3.1845518736E-003 +1.1021464546E+002  +5.6784249380E-001 -8.1258420473E+000 
9895469.337 +5.1568509520E-001 +3.2998878343E+000  +3.7768169541E-003 +6.5539980997E+001  +4.2809718431E-003 +8.4375973161E+001  +6.2177846303E-001 -7.3466540256E+000 
10020614.518 +5.5351597184E-001 -3.0961037866E+000  +6.1511960361E-003 +5.5314036310E+001  +6.4340415207E-003 +8.4782246000E+001  +5.8960965214E-001 -5.8626765966E+000 
10145759.700 +5.4817051163E-001 +1.2845064205E+000  +3.7252214645E-003 +8.1067704151E+001  +2.9586220153E-003 +1.0460944632E+002  +5.6485638326E-001 -6.0524697087E+000 
10270904.881 +5.4343936925E-001 -3.7055812028E-001  +4.6601738975E-003 +9.8432682645E+001  +7.0911442437E-003 +7.9204167206E+001  +5.8596346364E-001 -2.7610653719E+000 
10396050.063 +6.0228973058E-001 +2.4680026619E+000  +4.6104621567E-003 +4.7374829291E+001  +2.4941339721E-003 +1.3924705285E+002  +5.8289299430E-001 +1.3607070420E+000 
10521195.244 +5.6418000718E-001 +3.6549263753E+000  +5.2594954935E-003 +7.5191317484E+001  +5.3313803932E-003 +1.0032262301E+002  +6.0361469027E-001 -2.2641517350E+000 
10646340.426 +5.7572517831E-001 +8.8011180239E+000  +5.7584900312E-003 +9.5351498332E+001  +5.4853838621E-003 +1.0008815382E+002  +6.1051056305E-001 -1.6671333567E+000 
10771485.607 +5.8467728184E-001 +6.9915275580E+000  +6.6072991403E-003 +6.4878435988E+001  +5.1405617082E-003 +7.7430304956E+001  +6.0018293161E-001 +2.1651419510E+000 
10896630.788 +5.7518810736E-001 +5.5102846522E+000  +3.0719432171E-003 +4.4832039694E+001  +7.2236146491E-003 +9.7497536156E+001  +6.2964552424E-001 +8.3506992324E-001 
11021775.970 +5.9421838452E-001 +3.7727856523E+000  +3.5904869133E-003 +9.2826441290E+001  +4.6348368597E-003 +1.0631412422E+002  +6.2630294630E-001 +1.3349213583E+000 
11146921.151 +5.9460867952E-001 +6.5177266195E+000  +3.1061062753E-003 +9.6673630560E+001  +5.7191975208E-003 +1.0357266302E+002  +6.3312667654E-001 -1.4210801935E+000 
11272066.333 +5.7512080466E-001 +4.8115406977E+000  +4.8717234875E-003 +1.0896182468E+002  +3.0836209165E-003 +1.0948285923E+002  +6.0798242277E-001 +1.7161862305E+000 
11397211.514 +6.1683591968E-001 +4.3339071096E+000  +6.9176120024E-003 +9.3726335948E+001  +7.4137068343E-003 +9.1658343093E+001  +6.2267808692E-001 +2.2066469678E+000 
11522356.696 +6.1081979135E-001 +3.7018305375E+000  +3.0898585173E-003 +7.4883368597E+001  +4.2434007502E-003 +7.8508552584E+001  +6.5490509944E-001 -8.3483349771E-001 
11647501.877 +6.6365493841E-001 +4.7060230495E+000  +5.9195518775E-003 +1.0332059359E+002  +5.6417812704E-003 +9.8422841881E+001  +6.5019390241E-001 +1.7547654047E+000 
11772647.059 +6.3948054442E-001 +3.9865521927E+000  +4.2378544776E-003 +8.0222643561E+001  +5.2068565810E-003 +1.0406337823E+002  +6.7729148540E-001 +5.1976050274E-001 
11897792.240 +6.5312707557E-001 +5.2331077798E+000  +4.1434032717E-003 +9.4680044581E+001  +5.1887609150E-003 +1.2838684549E+002  +6.6377976070E-001 -7.2779440464E-001 
12022937.422 +6.4278718897E-001 +4.2801480709E+000  +4.6697847283E-003 +9.3878658026E+001  +6.5360375921E-003 +9.0904474736E+001  +6.7421109382E-001 -2.7379675573E-001 
12148082.603 +6.9648216752E-001 +4.3588447905E+000  +6.7435336493E-003 +8.3394663301E+001  +6.3803434491E-003 +9.4057650300E+001  +6.9658334082E-001 +3.3701649807E-001 
12273227.785 +7.0103098644E-001 +3.1710321684E+000  +4.5983912353E-003 +7.4674063028E+001  +4.4657777264E-003 +1.0304729182E+002  +7.0558670807E-001 +1.3707536792E+000 
12398372.966 +7.1101116356E-001 +2.4625342999E+000  +6.0339409836E-003 +9.5953392238E+001  +5.8396971813E-003 +8.9966014956E+001  +7.2049758600E-001 -6.3296876828E-001 
12523518.148 +7.3440397532E-001 +2.9023887247E+000  +6.4394347995E-003 +9.9172456659E+001  +6.5122205925E-003 +1.1318087819E+002  +7.2818011941E-001 +1.9952889518E+000 
12648663.329 +7.2626609546E-001 +2.7103209283E+000  +5.1688278393E-003 +1.0114944779E+002  +5.2894765444E-003 +1.1150082658E+002  +7.4402939536E-001 -2.4418776275E+000 
12773808.511 +7.6826743454E-001 +4.0918431318E-001  +5.3423036005E-003 +7.3431198216E+001  +5.9187873692E-003 +8.5167915045E+001  +7.7283755524E-001 -1.3493640069E+000 
12898953.692 +7.5031648276E-001 -5.1762055032E-001  +6.8242942806E-003 +9.2948698787E+001  +5.5913540020E-003 +1.0359668077E+002  +7.8039945546E-001 -2.9391661064E+000 
13024098.874 +7.5000461019E-001 +1.5910755363E+000  +5.9582893387E-003 +9.1150818637E+001  +4.7063420050E-003 +1.0929673013E+002  +8.0857864596E-001 -7.8788886813E-001 
13149244.055 +8.1919426613E-001 -8.8625587879E-001  +7.5411179190E-003 +8.6145013226E+001  +5.2963468876E-003 +1.0014189131E+002  +8.0973766077E-001 -3.7607265791E-001 
13274389.237 +7.8978687521E-001 +9.4438836127E-002  +6.2656406907E-003 +7.8546235102E+001  +7.5065862566E-003 +9.0584650068E+001  +8.3715512459E-001 -2.5612096931E+000 
13399534.418 +8.3174142036E-001 -9.9532071459E-001  +6.5290961603E-003 +8.0113075942E+001  +7.7675887943E-003 +8.9822639166E+001  +8.4387476773E-001 -1.3727331357E+000 
13524679.599 +8.7348286006E-001 -1.5754476692E+000  +7.1297030859E-003 +8.5607190043E+001  +5.9439452236E-003 +8.4425069989E+001  +8.4345290705E-001 -3.5089772107E+000 
13649824.781 +8.7827329180E-001 -1.5607733044E+000  +5.4145305752E-003 +9.9613174156E+001  +6.8638365101E-003 +9.7809561943E+001  +8.7675902448E-001 -3.0806780450E+000 
13774969.962 +8.8686772405E-001 -2.0703057518E+000  +7.6185079138E-003 +9.3835650608E+001  +6.2564792504E-003 +9.6009326545E+001  +8.8843624896E-001 -3.1098793535E+000 
13900115.144 +9.1329652858E-001 -1.9426080215E+000  +6.9570621870E-003 +9.1878761801E+001  +7.3405142891E-003 +1.0731708124E+002  +9.2244610980E-001 -3.8263309638E+000 
14025260.325 +9.1927986275E-001 -3.9400792948E+000  +5.9667399886E-003 +8.7526282094E+001  +6.7163661333E-003 +8.9615694144E+001  +9.3569496727E-001 -4.2808660215E+000 
14150405.507 +9.2707163943E-001 -2.9357797811E+000  +7.6328103774E-003 +8.6414228297E+001  +6.2795434472E-003 +9.2625053844E+001  +9.5929440077E-001 -3.9458686205E+000 
14275550.688 +9.5090224871E-001 -4.3210944686E+000  +7.0961988621E-003 +9.5814910957E+001  +6.9753355596E-003 +8.4977543437E+001  +9.8498120052E-001 -3.3433517608E+000 
14400695.870 +9.7399701641E-001 -5.4876504801E+000  +7.6137488689E-003 +9.0497028792E+001  +5.4702386594E-003 +9.5657987400E+001  +9.8767904605E-001 -4.2822057555E+000 
