!  2-Port S-parameters saved by WinCal
! VAR MeasName=S-Parameters (CALIBRATED_DATA) read from VNA (P5004A)
! VAR MeasDate=27/08/2024 14:17:30
! VAR NAME=S2_r2c8_SET1_9k-100M_2
! VAR FILENAME=S2_r2c8_SET1_9k-100M_2.S2P
! VAR DATE=27/08/2024 14:17:30
! VAR PHYS_PORTS=1,2
! VAR ObjTypeName=DATASET
! VAR IndexType=Frequency
!
# Hz S MA R 50
9000.000 +4.6074658807E-002 -1.4191878047E+002  +1.8028975468E-002 +6.1909062123E+001  +1.9877788389E-002 -4.7963579790E+001  +6.7181829493E-002 -4.7655747447E+001 
134145.181 +1.1119834333E-001 +1.6941067618E+002  +5.1983746840E-004 -1.1382306756E+002  +1.7571787481E-004 -1.1154528408E+001  +2.4093414826E-001 -1.7114684191E+002 
259290.363 +1.1259986399E-001 +1.7022502316E+002  +1.8116570836E-004 -1.6854741802E+002  +3.9363623264E-004 +1.4757497752E+002  +2.4077097244E-001 -1.6751266253E+002 
384435.544 +1.1276692994E-001 +1.7023652005E+002  +1.4472259415E-003 -1.8837211260E+001  +4.6524544729E-004 +4.0794283078E+001  +2.4567831980E-001 -1.6850732883E+002 
509580.726 +1.1279584797E-001 +1.7085337239E+002  +8.0354065042E-004 -7.7855017758E+001  +1.6600480199E-003 +2.1970057705E+001  +2.4690470034E-001 -1.6571512322E+002 
634725.907 +1.1711200883E-001 +1.7070236362E+002  +5.0189764278E-004 -1.1270326700E+002  +1.2206184993E-003 +1.0709078665E+002  +2.3153767583E-001 -1.6600118057E+002 
759871.089 +1.1505092164E-001 +1.7126718237E+002  +9.1260363707E-004 +1.4882186527E+002  +1.0349668213E-003 -2.7587325706E+000  +2.4364099134E-001 -1.6458972208E+002 
885016.270 +1.1711331809E-001 +1.6955974070E+002  +7.4496208783E-004 -9.4217443162E+001  +1.0218080350E-003 +8.9039154731E+001  +2.4231760542E-001 -1.6446094253E+002 
1010161.452 +1.1549897479E-001 +1.7108051022E+002  +1.1942278636E-003 +3.9259060198E+001  +4.4122115005E-004 -1.7792891617E+002  +1.8416900883E-001 -1.5365244253E+002 
1135306.633 +1.1663862515E-001 +1.7157078915E+002  +3.8495852693E-004 +5.8867935313E+001  +8.4950438395E-004 +5.8796846875E+001  +2.0767694434E-001 -1.6393432030E+002 
1260451.815 +1.1877161496E-001 +1.7236532107E+002  +1.1713294735E-004 +3.9070571074E+001  +3.7307081101E-003 +1.6974383016E+002  +2.2168603599E-001 -1.5708101858E+002 
1385596.996 +1.2395693635E-001 +1.7181935620E+002  +2.1621857052E-004 +1.0578168972E+002  +5.6317272566E-004 +1.0564696756E+002  +2.6460889489E-001 -1.5972830303E+002 
1510742.178 +1.2910927407E-001 +1.7078716765E+002  +6.6160054975E-004 -7.5707672244E+001  +2.9240233752E-004 -9.5039396105E+001  +2.5980580066E-001 -1.5721994577E+002 
1635887.359 +1.2613492265E-001 +1.7059002625E+002  +1.9761517539E-003 -4.5042027370E+001  +2.7590675661E-004 +6.6578112200E+001  +2.6179841694E-001 -1.5565237569E+002 
1761032.541 +1.2746042043E-001 +1.6945517370E+002  +1.8923854463E-004 -2.3806384406E+000  +3.3325767773E-003 -1.5614097066E+002  +2.1369651227E-001 -1.6073515191E+002 
1886177.722 +1.2850567627E-001 +1.6873180485E+002  +5.8955609181E-004 -1.5431643468E+002  +2.3922175633E-003 -1.1298360480E+002  +2.0940741095E-001 -1.6654365512E+002 
2011322.904 +1.2802495428E-001 +1.6634723263E+002  +1.8714199563E-003 +2.1175353498E+001  +4.3230628158E-003 -7.8178780034E+001  +1.7984959720E-001 -1.6457253800E+002 
2136468.085 +1.0869434588E-001 +1.6607190085E+002  +6.4364075205E-004 +1.2263842524E+001  +5.9327761692E-003 -4.1658972356E+001  +2.0299644104E-001 -1.7090828476E+002 
2261613.267 +1.3053495763E-001 +1.6614320479E+002  +6.1016174066E-003 +6.8955804560E+001  +6.8747064910E-003 -8.7470161505E+001  +1.6477483931E-001 -1.6688667024E+002 
2386758.448 +1.3288950638E-001 +1.6631541532E+002  +6.8359285566E-003 +1.0456940332E+002  +3.6269493009E-003 -2.0522825842E+001  +2.1703026707E-001 -1.7587200347E+002 
2511903.630 +1.2888030981E-001 +1.6136061857E+002  +1.7731300288E-002 +1.1395601706E+002  +1.0986758628E-002 +3.2262269558E+001  +3.3539212141E-001 +1.4545093279E+002 
2637048.811 +1.2452539457E-001 +1.6667784139E+002  +3.4355584570E-002 +1.6458336065E+002  +3.0857221550E-003 -3.8285954094E+001  +8.1229924591E-001 +1.7126886378E+002 
2762193.992 +9.7878684667E-002 -1.7866709743E+002  +7.3891494953E-002 -2.0488497699E+001  +6.9576459916E-002 -1.0651949210E+002  +4.9940038396E-001 +3.0184063379E+001 
2887339.174 +9.3873726375E-002 +1.7679839940E+002  +2.3667625450E-002 -5.2790832886E+001  +3.1351142994E-002 -1.2261731806E+002  +3.2117864635E-001 -9.3787669843E+001 
3012484.355 +1.3352290022E-001 +1.7643144978E+002  +8.2500700946E-003 -5.7548701499E+001  +1.5061756248E-002 -1.1516408091E+002  +1.3666668503E-001 -9.4842965527E+001 
3137629.537 +1.2044501407E-001 +1.5295301476E+002  +2.5654416777E-002 -4.0403802516E+000  +8.5167433973E-003 -8.3103492510E+001  +1.5971728891E-001 -8.0368379399E+001 
3262774.718 +1.2157621385E-001 +1.6257435809E+002  +4.2678378196E-002 +4.0943668721E+000  +2.7413102986E-002 -7.5613082976E+001  +4.5805813509E-001 -5.0985948746E-001 
3387919.900 +1.4068920659E-001 +1.6686251162E+002  +1.8397168590E-002 +2.3052347240E+001  +1.9282847371E-002 -4.8117168035E+001  +8.0929855129E-002 +1.0120836028E+002 
3513065.081 +1.2864751988E-001 +1.5107269508E+002  +2.4315550635E-002 +5.0708722205E+001  +3.4224959499E-002 -2.2464662179E+001  +2.8912938158E-001 +8.7532238498E+001 
3638210.263 +1.6061803473E-001 +1.3166592262E+002  +4.8413207556E-002 +1.0321243930E+002  +6.5087210615E-002 +6.9323860253E+001  +8.7278968378E-001 +1.4335997270E+002 
3763355.444 +1.5100208765E-001 +1.5001873755E+002  +3.0147211933E-002 +6.4046435810E+001  +2.2383771199E-002 -2.3519330971E+001  +4.2741156950E-001 +1.0465400848E+002 
3888500.626 +1.9765176866E-001 +1.5154978141E+002  +3.7148504048E-002 +7.2740709750E+001  +4.2073859245E-002 +2.2119927196E+001  +6.6901298747E-001 +6.1307086718E+001 
4013645.807 +1.5545398432E-001 +1.5952606419E+002  +1.8470473548E-002 +6.1418069165E+001  +2.7683829116E-002 -2.0576269175E+001  +4.9615092327E-001 +1.2883066557E+002 
4138790.989 +1.3386781525E-001 +1.4869903848E+002  +3.1035991814E-002 +8.3986747636E+001  +4.1774610875E-002 +1.5809067777E+001  +5.8073652216E-001 +1.4108647890E+002 
4263936.170 +1.7910488985E-001 +1.5084122769E+002  +3.2608451057E-002 +5.5389001184E+001  +2.8024566316E-002 -5.6942720830E+000  +2.6706522930E-001 +9.6972901900E+001 
4389081.352 +2.0110878430E-001 +1.4497619551E+002  +3.3643823757E-002 +5.4096974436E+001  +2.9342316782E-002 -6.6756826852E+000  +2.4566448391E-001 +2.9261448491E+001 
4514226.533 +2.0609709309E-001 +1.3116706441E+002  +4.1859865220E-002 +1.3214458511E+002  +4.5053620378E-002 +4.9251809475E+001  +7.5193134415E-001 +1.3455670736E+002 
4639371.715 +2.2516979579E-001 +1.3501175943E+002  +1.3125043161E-001 +1.4744498422E+002  +1.4676591916E-001 +7.5915010287E+001  +2.6752577570E+000 +1.2410217757E+002 
4764516.896 +2.9122209519E-001 +1.3226889017E+002  +1.7926892004E-001 +1.3942863768E+002  +1.5635988398E-001 +7.8593344898E+001  +2.6028488717E+000 +1.1641664015E+002 
4889662.078 +3.9864962031E-001 +1.2910755812E+002  +2.8116795251E-001 +4.0112275939E+000  +1.7172720141E-001 -5.5670345175E+001  +4.0550551971E+000 -7.0483173629E+001 
5014807.259 +3.9114468559E-001 +1.2065510974E+002  +2.0191924164E-001 -1.7934003137E+002  +1.7630227849E-001 +1.2447045950E+002  +3.1603305441E+000 +1.3987694639E+002 
5139952.441 +3.9650856839E-001 +1.3892877743E+002  +4.4604023708E-001 -9.1155367187E+001  +4.8490466633E-001 -1.3503174765E+002  +9.7605158914E+000 -1.3317291953E+002 
5265097.622 +4.5357775410E-001 +1.2895920300E+002  +1.0536515913E-001 +1.2333328107E+002  +1.4975898023E-001 +6.3662895192E+001  +1.7319266537E+000 +8.5454916680E+001 
5390242.804 +4.1760616018E-001 +1.2856282993E+002  +9.5624946053E-002 +1.5059353910E+002  +9.6836276118E-002 +1.1251535308E+002  +1.9808546001E+000 +1.2602984916E+002 
5515387.985 +4.4839691064E-001 +1.2831996277E+002  +1.1033986767E-001 +1.0329291942E+002  +1.2659825238E-001 +6.4695562828E+001  +1.9706679459E+000 +8.0943239975E+001 
5640533.166 +5.0127039015E-001 +1.3043270130E+002  +8.4239182844E-002 +1.0698195067E+002  +9.4784118537E-002 +9.2155803836E+001  +1.6851894389E+000 +9.6759875299E+001 
5765678.348 +5.1720195819E-001 +1.3220945842E+002  +7.1645080240E-002 +9.5457159882E+001  +8.5248089275E-002 +6.5986278019E+001  +1.4375485253E+000 +7.3578591141E+001 
5890823.529 +5.2399708240E-001 +1.2584369304E+002  +1.0454068470E-001 +6.4422837949E+001  +1.1097798289E-001 +3.6800514373E+001  +1.6672382359E+000 +3.6117645780E+001 
6015968.711 +6.8519931765E-001 +1.1271827086E+002  +1.8805631673E-001 +6.9610447249E+001  +1.8032978198E-001 +6.0908852940E+001  +2.7766823426E+000 +4.9953427195E+001 
6141113.892 +7.0634012049E-001 +1.2067296354E+002  +1.0702183189E-001 +9.5369915210E+001  +1.1078674190E-001 +6.3975176724E+001  +1.8328762059E+000 +6.4206763135E+001 
6266259.074 +8.3267479556E-001 +1.0370426123E+002  +1.4529914459E-001 +6.5503068664E+001  +1.3927895376E-001 +5.5237977081E+001  +1.6186359597E+000 +5.4011059139E+001 
6391404.255 +8.3488030460E-001 +8.6332320226E+001  +1.5479770127E-001 +3.5702075361E+001  +1.3804602294E-001 +1.7562343719E+001  +1.5856183628E+000 +2.6141194399E+001 
6516549.437 +9.5812577515E-001 +9.4929160324E+001  +1.3793292422E-001 +5.3008485581E+001  +1.1021249299E-001 +2.3008610900E+001  +1.3945164114E+000 +2.3730301389E+001 
6641694.618 +1.1449778912E+000 +8.4722560412E+001  +1.1827920137E-001 +4.8786214175E+001  +1.1193634951E-001 +3.1672592827E+001  +1.2551642156E+000 +1.1851476120E+001 
6766839.800 +1.4622022736E+000 +5.8064091254E+001  +1.6130034557E-001 +1.7612263094E+001  +1.5523572956E-001 +9.4774159737E+000  +1.2482330484E+000 +1.0602521371E+000 
6891984.981 +1.4080526175E+000 +3.9028698566E+001  +1.4103068842E-001 +9.2639085760E+000  +1.5629135308E-001 +9.9746359597E+000  +1.2708792000E+000 +2.4538134159E+000 
7017130.163 +1.5364397874E+000 +1.8394449017E+001  +1.3219264569E-001 -5.3262811557E+000  +1.2226373741E-001 -6.4028763186E+000  +1.4202121942E+000 -1.3591158702E+001 
7142275.344 +1.9097937762E+000 +1.1966595905E+001  +1.1939994397E-001 +8.7774445612E+000  +1.2340575258E-001 +9.3878822194E+000  +1.2726312673E+000 -1.1785593980E+001 
7267420.526 +1.3033319585E+000 -6.8128294258E-001  +9.2269143419E-002 +2.0012857153E+000  +9.2844338220E-002 +1.7429158002E+000  +1.2061985040E+000 -1.0660769316E+001 
7392565.707 +1.1333536675E+000 +6.8275769496E+000  +7.9083843395E-002 +6.7327211578E+000  +7.4301681368E-002 +5.3698240686E+000  +1.1947138065E+000 -7.0196017643E+000 
7517710.889 +1.0809642392E+000 +1.8326659263E+000  +7.1267147511E-002 +3.6121573967E+000  +6.8905228455E-002 +1.3710899708E+001  +1.1382717039E+000 -6.8975767246E+000 
7642856.070 +9.5784601577E-001 -4.7079454340E-001  +7.1419452930E-002 -1.0259490814E+000  +7.1037171192E-002 +7.0764288217E+000  +1.0550658756E+000 -6.6074013717E+000 
7768001.252 +8.3599959459E-001 +5.4521001189E+000  +6.3736557337E-002 +2.3870256038E+000  +6.3448530008E-002 +8.5133966061E+000  +1.0436132859E+000 -1.6120322847E+000 
7893146.433 +7.6754161166E-001 +9.9647486314E+000  +6.6618475110E-002 +5.1195001291E+000  +5.7699303778E-002 +1.4941857803E+001  +8.1558200776E-001 -5.4495628359E+000 
8018291.615 +7.6186375582E-001 +1.1090158676E+001  +5.1881100997E-002 -5.1886005587E+000  +5.5441249938E-002 +8.7250005905E+000  +7.1917248177E-001 -1.1499465250E+000 
8143436.796 +6.4137594465E-001 +6.9987592651E+000  +5.2221323023E-002 -3.9100079619E+000  +5.0512751870E-002 +7.2396929042E+000  +8.2322550124E-001 -8.5951801350E-001 
8268581.977 +6.9959848557E-001 +3.7052052832E+000  +5.8420953046E-002 +2.9180554751E+000  +5.6830584472E-002 +7.5717175726E+000  +7.3796092900E-001 +1.8920367777E+000 
8393727.159 +6.5672729644E-001 +5.2121943049E+000  +5.2694239646E-002 +3.2366420667E+000  +5.7913782172E-002 +1.2413039660E+001  +7.9003206816E-001 +1.1797485586E+000 
8518872.340 +6.4885116155E-001 +3.9430469831E+000  +5.2056291450E-002 -3.3585505582E+000  +5.2769719381E-002 +1.2607697572E+001  +6.4949271262E-001 +1.1773677678E+000 
8644017.522 +6.9127183966E-001 +6.8836714365E+000  +5.1724175783E-002 -4.3421212643E-001  +5.0922993672E-002 +1.8663385664E+001  +6.5539407367E-001 +5.6793720621E+000 
8769162.703 +5.8897648601E-001 +6.5693305634E+000  +4.8969511010E-002 -3.2880103607E+000  +5.4922815324E-002 +1.1531812919E+001  +6.0121720274E-001 +2.6621510101E+000 
8894307.885 +6.0625716997E-001 +3.3066084778E+000  +5.2612012403E-002 -1.1361465438E+000  +5.0847680266E-002 +1.3418417460E+001  +5.7799116695E-001 +1.5238949586E+000 
9019453.066 +5.8006376605E-001 +3.2648235572E+000  +4.4450060051E-002 +4.1708211041E-001  +4.9155150857E-002 +1.5855885061E+001  +5.2868576168E-001 -3.0048410825E-002 
9144598.248 +4.8834508621E-001 +7.6889380043E+000  +5.3216369081E-002 -8.5009388175E-001  +4.8781179634E-002 +1.3156808731E+001  +5.8096584156E-001 +1.2216249718E+000 
9269743.429 +5.1760825467E-001 +6.2278147338E+000  +5.4063454645E-002 -1.6761525405E-001  +5.0072847574E-002 +1.5982491298E+001  +5.7008317667E-001 -4.1558397744E-001 
9394888.611 +5.1665776378E-001 +7.2474421752E+000  +4.8782098209E-002 -2.5606723653E-001  +5.1783552712E-002 +1.5733850802E+001  +5.2337954472E-001 +2.1151518933E+000 
9520033.792 +5.2260075822E-001 +4.0839862990E+000  +5.3592557367E-002 -1.4865206905E+000  +5.0901846147E-002 +1.4890142540E+001  +5.4251323197E-001 -2.5172182108E+000 
9645178.974 +4.9662435836E-001 +3.7413931977E+000  +5.4187926286E-002 -8.2358159172E-001  +4.7417689125E-002 +1.4299726314E+001  +5.8480838992E-001 -3.3833998644E+000 
9770324.155 +4.9870380832E-001 -4.4824898813E+000  +5.4262452559E-002 -1.9012790143E-001  +5.3315669304E-002 +1.1879763628E+001  +5.2523840678E-001 -1.4411033393E+000 
9895469.337 +4.5600180189E-001 -2.6530542621E+000  +5.0457054849E-002 -2.8666060658E+000  +5.3100775878E-002 +1.2105930265E+001  +4.7227900994E-001 -5.2364842622E+000 
10020614.518 +5.1221346698E-001 +3.4929304774E+000  +5.2368337818E-002 +1.1249837027E+000  +5.1767244994E-002 +1.5773918803E+001  +5.4509828907E-001 -3.5031836564E+000 
10145759.700 +5.0915750112E-001 +6.2918270312E+000  +5.5329865363E-002 -7.7040805725E-001  +5.1382932419E-002 +1.3450053184E+001  +5.4560045563E-001 -4.7480708042E+000 
10270904.881 +5.1497317664E-001 +7.8814373581E+000  +5.2796396347E-002 +1.8207937533E+000  +5.1017872467E-002 +1.5310056719E+001  +5.1142050713E-001 -3.4644329911E+000 
10396050.063 +4.7843104316E-001 +7.1380950920E+000  +5.2394356047E-002 -2.2851150254E-001  +5.4204097257E-002 +1.5629811608E+001  +5.1464973667E-001 -7.3466896562E-001 
10521195.244 +4.7940545244E-001 +7.9876569319E+000  +5.2472041677E-002 +1.9521068526E+000  +5.2779593317E-002 +1.5139402230E+001  +5.6149684017E-001 -2.5548499072E+000 
10646340.426 +5.0526981841E-001 +8.1871846618E+000  +5.1794124203E-002 +3.6450255058E-001  +5.3527741131E-002 +1.7308903117E+001  +5.4578412902E-001 +2.4554252650E+000 
10771485.607 +5.0841820467E-001 +6.4879424804E+000  +5.1095900717E-002 +2.7101777063E+000  +4.8935462267E-002 +1.5755167258E+001  +5.3074714394E-001 +3.1341173223E+000 
10896630.788 +5.6754563750E-001 +7.9019006030E+000  +5.3148611359E-002 +4.4914650951E+000  +5.4125978214E-002 +2.0421753957E+001  +5.4972280601E-001 +1.1414817397E+000 
11021775.970 +5.1652939881E-001 +1.2493102493E+001  +5.3839768285E-002 +2.6578156561E+000  +5.4391445737E-002 +1.8817309436E+001  +5.4767214902E-001 -1.0328674819E+000 
11146921.151 +5.3998131883E-001 +9.1307822947E+000  +5.5414378352E-002 +4.2544633069E+000  +5.5445926233E-002 +1.7900606445E+001  +5.5407164132E-001 +7.4679774652E-001 
11272066.333 +5.4877755957E-001 +8.0811134409E+000  +5.5228958999E-002 +5.8293425325E+000  +5.3980729361E-002 +1.6786213383E+001  +6.0363478145E-001 +4.2194209793E+000 
11397211.514 +5.4574304938E-001 +7.1826960116E+000  +5.6915893286E-002 +5.3800537915E+000  +5.5872468026E-002 +1.6409729079E+001  +5.8688433796E-001 -1.6044508441E+000 
11522356.696 +5.8391530689E-001 +8.4773934538E+000  +5.4887819107E-002 +3.5743239404E+000  +5.6871822484E-002 +1.8480392838E+001  +5.9364681444E-001 +1.4476349397E+000 
11647501.877 +5.7555442734E-001 +6.2055180061E+000  +5.6453460470E-002 +3.9908704255E+000  +5.4943371026E-002 +1.6612573155E+001  +6.1792070588E-001 +4.8133010670E+000 
11772647.059 +6.0893987537E-001 +3.6286688183E+000  +5.9290798898E-002 +6.3653628352E+000  +5.6934631091E-002 +1.6000633206E+001  +6.0536656701E-001 +2.0157262221E+000 
11897792.240 +6.1861820390E-001 +7.6343189726E+000  +5.7661469868E-002 +5.9883646684E+000  +5.5129787064E-002 +1.4653330199E+001  +5.9833004466E-001 +1.3114295648E+000 
12022937.422 +6.0668168469E-001 +4.8353546228E+000  +6.0125465299E-002 +6.8356857748E+000  +5.7921870444E-002 +1.6986214158E+001  +6.3512124895E-001 +1.9797597560E+000 
12148082.603 +6.0064789788E-001 +3.2038470070E+000  +5.9681608973E-002 +5.5541001630E+000  +5.6850588898E-002 +1.3720529975E+001  +6.4062399254E-001 -1.2769306153E+000 
12273227.785 +6.4631091808E-001 +2.4528518633E+000  +6.0277188677E-002 +7.2785207341E+000  +5.9711975927E-002 +1.4434411632E+001  +6.6007271507E-001 +1.7719573390E+000 
12398372.966 +6.4955462757E-001 +5.9310716575E+000  +5.9565038303E-002 +8.4175597357E+000  +6.0620076962E-002 +1.4114388434E+001  +6.4699088150E-001 +1.9697297531E+000 
12523518.148 +6.8564633072E-001 +3.1478529040E+000  +6.1116507851E-002 +6.4892106676E+000  +6.0837891223E-002 +1.6207108356E+001  +6.8078288373E-001 +9.4500140269E-001 
12648663.329 +7.0905556537E-001 +1.8673474693E+000  +6.2721349377E-002 +8.0986956188E+000  +6.0301261640E-002 +1.4081711328E+001  +6.9133839285E-001 -1.1463790082E+000 
12773808.511 +7.0393428833E-001 +4.2858628637E+000  +6.2175548867E-002 +8.7255264482E+000  +6.2291339660E-002 +1.3360139934E+001  +6.9504657904E-001 +9.4277887173E-001 
12898953.692 +7.0023045964E-001 +2.9665037642E+000  +6.2363209477E-002 +7.4325533174E+000  +6.1416302669E-002 +1.3121110655E+001  +7.1745165769E-001 -4.5970525627E-001 
13024098.874 +7.0664720397E-001 +2.3258505813E+000  +6.3839645536E-002 +8.6321913671E+000  +6.4377610166E-002 +1.3539246311E+001  +7.0940867652E-001 -2.9764625076E-001 
13149244.055 +7.1744812424E-001 -2.7845496101E-001  +6.4341652016E-002 +8.4557912644E+000  +6.4602168358E-002 +1.3564347138E+001  +7.5361732251E-001 +1.9282460694E-001 
13274389.237 +7.5170074244E-001 -8.4722291383E-001  +6.4612402809E-002 +7.3794086080E+000  +6.3972192660E-002 +1.1537053729E+001  +7.7346863660E-001 -1.7019105565E+000 
13399534.418 +7.6361828642E-001 -1.3295100889E+000  +6.5765302011E-002 +8.3358920578E+000  +6.4767253921E-002 +1.0185826361E+001  +7.8444087740E-001 -2.1065489600E+000 
13524679.599 +7.7297057821E-001 -4.4852341766E-001  +6.7066725155E-002 +7.2606184287E+000  +6.4388331043E-002 +1.1089239012E+001  +7.8862024413E-001 -2.6143693344E+000 
13649824.781 +8.0008040758E-001 -1.0297406297E+000  +6.5346534917E-002 +8.7662250868E+000  +6.6858955127E-002 +1.1369735938E+001  +8.4110063189E-001 -3.6182213618E+000 
13774969.962 +8.3113760430E-001 -2.3855030444E+000  +6.6943936560E-002 +8.9969435543E+000  +6.7251713063E-002 +9.9092761682E+000  +8.2670379580E-001 -3.4580798254E+000 
13900115.144 +8.4067288905E-001 -2.7407650987E+000  +6.7636926093E-002 +8.9226255965E+000  +6.5995256687E-002 +1.0508758204E+001  +8.2962783690E-001 -3.7281027425E+000 
14025260.325 +8.6543523900E-001 -2.5576419100E+000  +6.6806084584E-002 +8.4433947713E+000  +6.6823913691E-002 +9.9910678521E+000  +8.6917899865E-001 -3.6923513549E+000 
14150405.507 +8.7376993295E-001 -4.0266529388E+000  +6.9871373047E-002 +8.0895013980E+000  +6.7154721302E-002 +8.4648001302E+000  +8.9406372622E-001 -3.1835261239E+000 
14275550.688 +8.9041075791E-001 -4.9089456404E+000  +7.0622106970E-002 +8.0596428543E+000  +6.7441148834E-002 +1.0216736535E+001  +8.8836411671E-001 -5.6821876911E+000 
14400695.870 +8.9031187865E-001 -5.5752039053E+000  +6.9265309933E-002 +7.3505189984E+000  +6.7810126323E-002 +8.3036159224E+000  +9.0802195662E-001 -4.8062181223E+000 
