!  2-Port S-parameters saved by WinCal
! VAR NAME=S2_r4c9_formed(2)_9k-100M_3
! VAR DATE=30/08/2024 11:38:51
! VAR FILENAME=S2_r4c9_formed(2)_9k-100M_3.S2P
! VAR MeasName=S-Parameters (CALIBRATED_DATA) read from VNA (P5004A)
! VAR MeasDate=28/08/2024 10:08:03
! VAR PHYS_PORTS=1,2
! VAR ObjTypeName=DATASET
! VAR IndexType=Frequency
!
# Hz S MA R 50
9000.000 +8.7977466624E-002 -1.6436621735E+002  +4.6845126592E-003 +7.9583646305E+001  +3.8054654014E-003 -1.5171738482E+002  +2.9083009678E-001 -1.3356111258E+002 
134145.181 +1.1167808273E-001 +1.6947265486E+002  +3.5243717906E-004 +1.2955711534E+002  +2.8286032146E-004 +4.2638633908E+001  +2.3896805962E-001 -1.6948973072E+002 
259290.363 +1.1256629085E-001 +1.6995134206E+002  +4.8026636585E-004 -4.8843894526E+001  +6.0160467202E-004 +6.7644442284E+001  +2.3942218077E-001 -1.6941499853E+002 
384435.544 +1.1440254895E-001 +1.7021518948E+002  +4.0628035943E-004 -8.5433128178E+001  +8.7202445904E-004 +1.2790186572E+002  +2.3971260982E-001 -1.7004892028E+002 
509580.726 +1.1483007216E-001 +1.7132092751E+002  +4.0897200122E-004 -1.1825985546E+002  +2.2606867587E-003 +8.3839353058E+001  +2.4274227066E-001 -1.6652802713E+002 
634725.907 +1.1829213957E-001 +1.7215945891E+002  +2.1984318989E-003 -1.7321436080E+002  +1.3142499256E-003 +2.7568648942E+001  +2.5223698241E-001 -1.6653664999E+002 
759871.089 +1.2070570218E-001 +1.7060550651E+002  +6.6539973425E-004 -9.7117257222E+001  +7.2544224132E-004 +7.3267195803E+001  +2.5666743654E-001 -1.6314332105E+002 
885016.270 +1.2135648593E-001 +1.6903874732E+002  +7.3045840898E-004 -5.8974216070E+001  +9.5807241328E-004 +9.1055477728E+001  +2.4080830595E-001 -1.6711809517E+002 
1010161.452 +1.1859131142E-001 +1.7021957995E+002  +1.8075112827E-003 -3.0965358318E+001  +2.9816618616E-003 +1.3149310529E+002  +2.0902396588E-001 -1.6195293761E+002 
1135306.633 +1.1135691258E-001 +1.7013122613E+002  +3.2051264403E-003 -2.8864055501E+001  +3.5138505876E-003 +1.7804312996E+002  +2.0013303961E-001 -1.6631711010E+002 
1260451.815 +1.2167340319E-001 +1.7135261215E+002  +1.8759082735E-003 +7.9627077497E+000  +1.3727343082E-003 +1.6533198945E+002  +2.0332747857E-001 -1.6407533639E+002 
1385596.996 +1.2544511214E-001 +1.7186554374E+002  +1.7010041809E-003 -3.1710505447E+001  +1.5572522165E-003 -8.4484557685E+001  +2.4398650913E-001 -1.5577326641E+002 
1510742.178 +1.3049847265E-001 +1.7231942483E+002  +2.3905576030E-003 -5.1498902363E+001  +2.2054441119E-003 +1.6442186144E+002  +2.5065032810E-001 -1.5504848121E+002 
1635887.359 +1.2924608877E-001 +1.7170830892E+002  +1.2685129523E-003 -7.3914387041E+001  +1.0541013412E-003 -1.3581602282E+002  +2.4807996703E-001 -1.5845618028E+002 
1761032.541 +1.3115107544E-001 +1.6984520828E+002  +1.4330416952E-003 +1.0413800800E+001  +1.7350912237E-003 -6.4283743629E+001  +2.3636317505E-001 -1.6060987302E+002 
1886177.722 +1.3069621850E-001 +1.7034890883E+002  +4.1113554153E-003 +3.9659013806E+001  +2.9113105342E-003 -8.5447340869E+001  +2.1440920001E-001 -1.6029455880E+002 
2011322.904 +1.3252542234E-001 +1.6819937284E+002  +5.0389532845E-003 +2.5598182647E+001  +5.5059173726E-003 -8.1588364489E+001  +2.1405388596E-001 -1.5461952523E+002 
2136468.085 +1.3575120901E-001 +1.6591184978E+002  +7.6732855987E-003 +7.6810422761E+001  +5.4070741383E-003 -6.7960160998E+001  +2.0264391006E-001 -1.6496396909E+002 
2261613.267 +1.3891727959E-001 +1.6288676107E+002  +8.8061502936E-003 +1.0990680573E+002  +9.8119431634E-003 -1.6635550633E+001  +2.1424192615E-001 -1.7719165177E+002 
2386758.448 +1.2906305790E-001 +1.6620612318E+002  +1.3786698917E-002 +8.0937928093E+001  +1.2544955727E-002 -4.5745248913E+001  +2.0416812435E-001 -1.7444698532E+002 
2511903.630 +1.3383341244E-001 +1.6647135694E+002  +1.7328547564E-002 +6.1666802416E+001  +2.1192526491E-002 -5.2377539156E+001  +1.5848414998E-001 -1.7427554463E+002 
2637048.811 +1.2906579088E-001 +1.6476794243E+002  +1.8600191487E-002 +3.5967005090E+001  +1.7865154569E-002 -8.9165281338E+001  +2.1830802230E-001 -1.4922228684E+002 
2762193.992 +1.2779924399E-001 +1.7467516995E+002  +2.8213412800E-002 +2.8659348182E+001  +3.2512651114E-002 -6.4659757038E+001  +1.8228132269E-001 +1.7558009820E+002 
2887339.174 +1.3829900365E-001 +1.7044612270E+002  +3.0666353198E-002 -6.5388302215E+000  +2.7732723297E-002 -1.1606674097E+002  +1.8699154573E-001 -1.2151865648E+002 
3012484.355 +1.3051292545E-001 +1.7313921793E+002  +3.5641350376E-002 +2.8708192422E+000  +3.1946160706E-002 -1.1687325632E+002  +1.5517261477E-001 -1.2225634139E+002 
3137629.537 +1.3362350136E-001 +1.6660405537E+002  +2.5918544273E-002 +2.6786668817E+001  +2.8282990654E-002 -5.8464300639E+001  +1.6080831519E-001 -1.6625778405E+002 
3262774.718 +1.5131002234E-001 +1.7212592683E+002  +4.0407915553E-002 -2.4449456206E+000  +3.3914448399E-002 -9.3133050018E+001  +1.4735087182E-001 -8.3943222831E+001 
3387919.900 +1.4111639115E-001 +1.5869292835E+002  +3.7677940162E-002 +6.3662946345E+001  +3.4959849617E-002 -2.5275178839E+001  +1.8950798686E-001 +1.6058939002E+002 
3513065.081 +1.2084602316E-001 +1.6208856270E+002  +6.5907806249E-002 +4.3361262234E+001  +5.8108652907E-002 -3.1877800465E+001  +1.1075511200E-001 +1.3029365389E+002 
3638210.263 +1.7587751704E-001 +1.4947168554E+002  +5.2372265097E-002 +1.1367906649E+002  +4.9952287891E-002 +3.2902914676E+001  +3.9781450571E-001 +1.4946978805E+002 
3763355.444 +1.7168182144E-001 +1.5069598123E+002  +8.8829227654E-002 +1.0881771079E+002  +8.7965580395E-002 +3.1227303069E+001  +5.4619635079E-001 +1.1891231613E+002 
3888500.626 +1.8349785215E-001 +1.5358334210E+002  +4.6521127587E-002 +8.7105670533E+001  +4.9162794965E-002 +1.7262905667E+001  +2.5448889943E-001 +1.4159860060E+002 
4013645.807 +1.8832717476E-001 +1.5082594371E+002  +5.2199889956E-002 +7.5061394623E+001  +5.0887111854E-002 +3.3723966512E+000  +1.4439729275E-001 +1.3914641791E+002 
4138790.989 +1.7303388347E-001 +1.5006314862E+002  +4.9768982700E-002 +7.5765707876E+001  +5.8300133161E-002 +1.0138556584E+001  +2.7586412454E-001 +1.5249019102E+002 
4263936.170 +1.9519285359E-001 +1.4889350840E+002  +6.0960210757E-002 +8.7698504298E+001  +6.2504112021E-002 +1.5290871684E+001  +2.7602672037E-001 +1.3887768616E+002 
4389081.352 +1.9292039123E-001 +1.4660413757E+002  +1.0597232481E-001 +7.9100769969E+001  +9.3453355249E-002 +1.9829804331E+001  +4.1876099759E-001 +1.0566277362E+002 
4514226.533 +2.0444707808E-001 +1.4227926607E+002  +8.5612824118E-002 +7.2663567724E+001  +8.5086183731E-002 +1.4108018094E+001  +2.7615581976E-001 +1.1167606096E+002 
4639371.715 +2.4457958531E-001 +1.3573001834E+002  +1.7200791120E-001 +7.8102907091E+001  +1.5412915274E-001 +2.8677556612E+001  +5.5421266517E-001 +7.4387956826E+001 
4764516.896 +3.1201695243E-001 +1.2164292142E+002  +4.0872112997E-001 +1.2757107711E+002  +3.9011001048E-001 +7.6874256500E+001  +1.9285313301E+000 +1.2122773064E+002 
4889662.078 +2.6932402110E-001 -1.7969677866E+002  +1.3122686311E+000 -9.7712546271E+001  +1.4125504495E+000 -1.4597018409E+002  +7.1255773947E+000 -1.4208210231E+002 
5014807.259 +3.9687940869E-001 +1.4019481011E+002  +6.7956363392E-001 -1.7902024152E+002  +6.5142853149E-001 +1.3560153442E+002  +3.9255618582E+000 +1.5586775075E+002 
5139952.441 +4.2599414937E-001 +1.2449533546E+002  +4.9777411932E-001 +1.2994506802E+002  +4.7120605911E-001 +8.4581100816E+001  +2.3828251112E+000 +1.1295237342E+002 
5265097.622 +3.1659457966E-001 +1.1883224275E+002  +3.0002251699E-001 +8.9990274825E+001  +3.0568994145E-001 +5.4623375975E+001  +1.3930092838E+000 +9.9330216145E+001 
5390242.804 +3.6745674278E-001 +1.2732302771E+002  +2.8789180150E-001 +8.8355258122E+001  +2.8743913187E-001 +5.0198908899E+001  +1.3896956862E+000 +8.1544321067E+001 
5515387.985 +3.6037593016E-001 +1.3186518930E+002  +2.4708117275E-001 +9.1390651391E+001  +2.5400592662E-001 +5.6676140779E+001  +1.4572786503E+000 +9.4257274711E+001 
5640533.166 +4.1896716625E-001 +1.2653847443E+002  +2.3040096952E-001 +1.2560476850E+002  +2.2507099507E-001 +8.9278724265E+001  +1.5892710369E+000 +1.3527451309E+002 
5765678.348 +4.9360364735E-001 +1.1955794478E+002  +3.1762275779E-001 +1.0369295404E+002  +3.1031385953E-001 +7.7927400785E+001  +1.6052138658E+000 +1.1090443153E+002 
5890823.529 +4.7368669089E-001 +1.2803368240E+002  +2.3436590054E-001 +9.0693576721E+001  +2.3354553117E-001 +6.1344197784E+001  +1.3847301634E+000 +8.8048587460E+001 
6015968.711 +5.4491895585E-001 +1.1906458803E+002  +3.8495231436E-001 +6.7911579131E+001  +3.7479137938E-001 +4.5599365497E+001  +2.0846881220E+000 +5.1433612038E+001 
6141113.892 +5.0176686910E-001 +9.5867242094E+001  +3.9725723564E-001 +5.2342209565E+001  +3.5118285726E-001 +3.2664318102E+001  +1.3471476344E+000 +5.8790876757E+001 
6266259.074 +6.6708641198E-001 +9.3741082396E+001  +4.8846898107E-001 +5.0004532380E+001  +4.5335026938E-001 +3.2193602310E+001  +1.8672531198E+000 +4.1085678537E+001 
6391404.255 +7.1313057105E-001 +8.9927316800E+001  +3.7835087494E-001 +4.5518204832E+001  +3.8070823572E-001 +2.8718632850E+001  +1.2843795562E+000 +4.1645753186E+001 
6516549.437 +9.7873292275E-001 +7.9798857292E+001  +4.6680661914E-001 +3.8729604138E+001  +4.4921345322E-001 +2.6860732500E+001  +1.2737079381E+000 +2.2270086554E+001 
6641694.618 +1.0920121677E+000 +6.1749324237E+001  +5.0082538301E-001 +2.8630227281E+001  +4.8952692410E-001 +1.7203789655E+001  +1.3517764200E+000 +2.1616661955E+001 
6766839.800 +1.0177735305E+000 +6.2794627056E+001  +3.6481892673E-001 +2.1365119868E+001  +3.9508581246E-001 +1.5235662046E+001  +9.5803331362E-001 +1.3012916696E+001 
6891984.981 +1.1815506341E+000 +2.1177690051E+001  +4.6373167686E-001 +3.2077027809E+000  +4.4158413092E-001 -7.4858053072E+000  +1.2292797959E+000 +7.6632628588E-001 
7017130.163 +1.0293034084E+000 +1.7747845295E+001  +3.6583424445E-001 +1.3382620922E+000  +3.6424132830E-001 -6.3226961374E+000  +1.1168716094E+000 -3.0572061396E+000 
7142275.344 +1.0496834514E+000 +6.4161574464E+000  +3.4433812183E-001 -2.6440087174E+000  +3.2994384738E-001 -4.2794361111E+000  +1.1681418458E+000 -1.1818422254E+001 
7267420.526 +1.0312398540E+000 +8.4784545087E+000  +2.8139190024E-001 +2.4667726202E+000  +2.9293709326E-001 +1.1103804476E+000  +1.0391078431E+000 -1.3264652219E+001 
7392565.707 +9.7583906882E-001 -3.8170066320E+000  +2.5778355346E-001 +9.3540768804E-001  +2.4798440040E-001 +4.3545052652E+000  +9.2568563770E-001 -4.5247016216E+000 
7517710.889 +9.3740116234E-001 -2.8143511942E+000  +2.4390756436E-001 +3.2850572794E+000  +2.3523029163E-001 +4.9927908286E+000  +8.7251431154E-001 -6.8052089768E+000 
7642856.070 +7.0379619876E-001 +6.2132377456E+000  +2.1541592115E-001 +2.3432136657E+000  +2.1750187238E-001 +4.6041636279E+000  +7.5290880592E-001 -3.8204393082E+000 
7768001.252 +6.8667835442E-001 +1.0881929806E+001  +2.0650560928E-001 -2.7605161362E-001  +2.0760602362E-001 +7.7699867371E+000  +7.7225780537E-001 -4.4922686874E+000 
7893146.433 +7.0224088652E-001 +9.2401263946E+000  +1.9985485872E-001 +1.2643759203E+000  +2.0218737006E-001 +7.5758308886E+000  +7.1590148692E-001 -2.1122443558E+000 
8018291.615 +5.6011133291E-001 +1.0860102682E+001  +1.9531123764E-001 -2.0532493984E+000  +1.8897946512E-001 +7.7490529173E+000  +6.1923798435E-001 -8.6298419718E-001 
8143436.796 +6.0296449229E-001 +1.0480403990E+001  +1.9090270789E-001 -6.3985214214E-001  +1.9317744509E-001 +8.0035217442E+000  +6.5887661487E-001 +3.5884672677E+000 
8268581.977 +5.4792331878E-001 +2.5043580612E+000  +1.8447994269E-001 -2.9500373947E+000  +1.8547248750E-001 +6.9099427663E+000  +5.6339881446E-001 +8.7764794567E+000 
8393727.159 +5.2258117793E-001 +1.4500759421E+001  +1.7886131146E-001 -1.7010210557E+000  +1.8199044561E-001 +8.0261595226E+000  +5.6834668452E-001 +9.6987484348E-001 
8518872.340 +5.1252794346E-001 +9.3720872832E+000  +1.8241353260E-001 -4.0370083216E+000  +1.7923362116E-001 +9.6084149381E+000  +5.3646554928E-001 +4.1529406320E+000 
8644017.522 +4.1734581797E-001 +8.2375572105E+000  +1.7810930269E-001 -3.8930038523E+000  +1.7051071920E-001 +8.5131201443E+000  +4.9394316053E-001 +1.2678520690E+001 
8769162.703 +4.5537849140E-001 +1.2438859888E+001  +1.8004289884E-001 -3.7621544616E+000  +1.7265530923E-001 +1.0854263301E+001  +4.7835345466E-001 +4.9299669683E+000 
8894307.885 +4.1457690061E-001 +8.5487172313E+000  +1.7533960416E-001 -2.3440137003E+000  +1.7857001176E-001 +9.3224699311E+000  +4.4535412425E-001 +6.3670360881E-001 
9019453.066 +4.5839489956E-001 +1.6800798715E+001  +1.7174944315E-001 -3.5178585236E+000  +1.7094951432E-001 +1.1663643676E+001  +4.5521226903E-001 +9.2343650148E+000 
9144598.248 +4.0645708515E-001 +1.3776738752E+001  +1.7133800774E-001 -2.5592978765E+000  +1.7044067179E-001 +1.0310070588E+001  +4.0863841456E-001 +4.0588155988E+000 
9269743.429 +3.8049913646E-001 +1.7718545344E+001  +1.7003759696E-001 -4.0726371628E+000  +1.6822535611E-001 +1.0740304955E+001  +3.9942414936E-001 -8.4758728906E-001 
9394888.611 +3.5177301566E-001 +1.0508155699E+001  +1.7310157690E-001 -5.0140894850E+000  +1.7146972193E-001 +1.0214131216E+001  +4.3055299976E-001 -3.8151248656E+000 
9520033.792 +3.6575655227E-001 +6.1422214040E+000  +1.7364711134E-001 -5.5459300318E+000  +1.7065747483E-001 +1.1512473691E+001  +4.1730286811E-001 -7.5904078422E-001 
9645178.974 +3.0374785881E-001 +7.9092177355E+000  +1.7416346373E-001 -4.7949033509E+000  +1.7019921419E-001 +1.0602906396E+001  +4.2119289005E-001 -9.9946109585E-001 
9770324.155 +3.5237501906E-001 +7.2881903555E+000  +1.7382755517E-001 -3.4046925900E+000  +1.7224103825E-001 +1.0306822223E+001  +3.9355981061E-001 -2.6754764969E+000 
9895469.337 +3.7675708737E-001 +9.3578144439E-001  +1.8025657233E-001 -3.9131359709E+000  +1.7390047349E-001 +1.2069203283E+001  +3.9559929739E-001 +2.0470020580E+000 
10020614.518 +3.6644432961E-001 +4.1619459529E+000  +1.7337791984E-001 -3.3877970558E+000  +1.7537052076E-001 +1.1684779661E+001  +4.3809828382E-001 -3.3615533113E+000 
10145759.700 +3.7188242469E-001 +7.8087333332E+000  +1.7633400043E-001 -3.5425262121E+000  +1.7592769336E-001 +1.2220071930E+001  +4.1368687516E-001 -1.1072897693E+000 
10270904.881 +3.6500229191E-001 +8.5876331680E+000  +1.7603683887E-001 -3.1476188562E+000  +1.7378402880E-001 +1.3326491996E+001  +4.3239443911E-001 +4.9795974486E+000 
10396050.063 +3.7005478124E-001 +1.0672614274E+001  +1.7719575321E-001 -2.0032804643E+000  +1.7586343710E-001 +1.3222555303E+001  +4.6067313242E-001 +3.1721371234E+000 
10521195.244 +3.6530556579E-001 +7.0493173739E+000  +1.7865461604E-001 -2.1628635457E+000  +1.7579332476E-001 +1.3386863309E+001  +4.1272424699E-001 +3.2464487610E+000 
10646340.426 +3.7107611570E-001 +1.0193914563E+001  +1.7722023721E-001 -2.1107990875E+000  +1.7360987026E-001 +1.2486282883E+001  +4.2162523958E-001 +4.4874254241E+000 
10771485.607 +4.2377360109E-001 +8.4087284429E+000  +1.8001342736E-001 -1.7191579001E+000  +1.7701954041E-001 +1.3342566537E+001  +4.2482997119E-001 +8.2713348894E+000 
10896630.788 +3.9392213278E-001 +9.9126478676E+000  +1.8161978410E-001 -9.1240975043E-001  +1.7876779035E-001 +1.4003435176E+001  +4.4923237720E-001 +5.0357707706E+000 
11021775.970 +4.0260217929E-001 +9.9107259682E+000  +1.7989763271E-001 -1.0239248150E+000  +1.8061635660E-001 +1.3179272839E+001  +4.4628191240E-001 +4.2392646361E+000 
11146921.151 +4.2703858909E-001 +1.1040340966E+001  +1.8112425285E-001 -7.6761872108E-001  +1.8165900063E-001 +1.2431097028E+001  +4.1788940216E-001 +6.9350351174E+000 
11272066.333 +4.2502613446E-001 +9.9523231975E+000  +1.8593169823E-001 -5.2662110021E-001  +1.8095691642E-001 +1.2863806217E+001  +4.4351170736E-001 +5.2513154181E+000 
11397211.514 +4.0879508930E-001 +6.0209223564E+000  +1.8658884349E-001 +4.6889958361E-001  +1.8788828270E-001 +1.2821440017E+001  +4.7460969392E-001 +5.6645486919E+000 
11522356.696 +4.3805000916E-001 +1.3874028162E+001  +1.8573744258E-001 +1.1054205098E+000  +1.8381268786E-001 +1.2578664981E+001  +4.6906487755E-001 +7.0774137213E+000 
11647501.877 +4.5878572778E-001 +9.1489805968E+000  +1.9033719591E-001 +8.0413477067E-001  +1.8854412797E-001 +1.2052120908E+001  +4.5406168779E-001 +4.4281153677E+000 
11772647.059 +4.5583201792E-001 +9.7763473775E+000  +1.9156659276E-001 +8.4298699676E-001  +1.8917124334E-001 +1.1125438253E+001  +4.5963815963E-001 +4.0937512358E+000 
11897792.240 +4.8230233869E-001 +7.0738247787E+000  +1.9448683453E-001 +1.5611397034E+000  +1.9451329983E-001 +1.2254081182E+001  +4.8291719623E-001 +3.2847928151E+000 
12022937.422 +4.5519039295E-001 +4.3780319412E+000  +1.9815450464E-001 +2.1769852482E+000  +1.9457457331E-001 +1.0829119801E+001  +4.8774998248E-001 +5.1569841760E+000 
12148082.603 +5.2197573386E-001 +8.2315464491E+000  +1.9711645427E-001 +2.7562650222E+000  +1.9621954693E-001 +1.1078358567E+001  +5.0448934356E-001 +4.3468612460E+000 
12273227.785 +5.0866296752E-001 +7.3972683107E+000  +2.0174243483E-001 +2.0815493867E+000  +1.9719854844E-001 +1.0652261691E+001  +5.0200593328E-001 +1.2970473499E+000 
12398372.966 +5.1450673426E-001 +5.7213686533E+000  +2.0159216363E-001 +2.9646380397E+000  +1.9965936245E-001 +1.0480810951E+001  +5.4742099157E-001 +1.1419907252E+000 
12523518.148 +5.0680216105E-001 +5.5508391725E+000  +2.0406021532E-001 +2.3582789596E+000  +2.0116721284E-001 +9.9514226600E+000  +5.4557558437E-001 +2.0496967228E+000 
12648663.329 +5.4619813901E-001 +3.9756248071E+000  +2.0823819977E-001 +3.3654853467E+000  +2.0423935970E-001 +9.2088741991E+000  +5.6014172070E-001 -3.6590740288E-001 
12773808.511 +5.3917673877E-001 +2.3664641152E+000  +2.1024710224E-001 +2.7118653662E+000  +2.0616251506E-001 +8.2593940883E+000  +5.5273239055E-001 -9.8406099931E-001 
12898953.692 +5.7003922186E-001 +4.3775815734E+000  +2.1266761127E-001 +2.8886002333E+000  +2.0797336684E-001 +8.7387035402E+000  +5.7726827965E-001 -9.2261864756E-001 
13024098.874 +5.3663073915E-001 +4.0691542564E+000  +2.1053070284E-001 +3.1550552720E+000  +2.1007890238E-001 +7.7725548215E+000  +5.9255848622E-001 -9.5175242992E-002 
13149244.055 +5.8071979996E-001 +6.2330902462E-001  +2.1535401510E-001 +3.1565226808E+000  +2.1306094186E-001 +7.3954168449E+000  +6.0405251771E-001 +1.0499549851E+000 
13274389.237 +6.2487264425E-001 +1.8358834995E+000  +2.1467454997E-001 +3.7947087729E+000  +2.1407632409E-001 +7.3227856632E+000  +6.2471190938E-001 -1.7811126695E-001 
13399534.418 +6.3536983403E-001 -6.1493807805E-001  +2.2109351060E-001 +3.4483011716E+000  +2.1860792204E-001 +6.8053938320E+000  +5.9371247273E-001 -2.8955757076E+000 
13524679.599 +6.2101514489E-001 -2.0971201758E+000  +2.2159099262E-001 +3.2084667143E+000  +2.1909193132E-001 +6.3891630034E+000  +6.4945879672E-001 -2.4178620301E+000 
13649824.781 +6.4162945970E-001 -3.4010063043E+000  +2.2455010400E-001 +3.4079931957E+000  +2.2033456332E-001 +5.5468028644E+000  +6.4650161208E-001 -1.5631193906E+000 
13774969.962 +6.5297657814E-001 -3.2324837330E+000  +2.2471908863E-001 +3.0826551732E+000  +2.2088948896E-001 +4.8496792985E+000  +6.5251234369E-001 -3.1679662470E+000 
13900115.144 +6.8715634960E-001 -3.1392148151E+000  +2.2795801898E-001 +3.5405526706E+000  +2.2324727927E-001 +5.1262210884E+000  +7.0959436606E-001 -3.3806369144E+000 
14025260.325 +6.8221410105E-001 -2.0417281700E+000  +2.2719729096E-001 +3.2084378232E+000  +2.2465060200E-001 +4.0970659229E+000  +7.1094920623E-001 -2.8722584902E+000 
14150405.507 +7.1439695394E-001 -5.5680951163E+000  +2.3099218019E-001 +2.9134668467E+000  +2.2838132126E-001 +3.7619845839E+000  +7.1170323275E-001 -4.0973005336E+000 
14275550.688 +7.4651487325E-001 -4.1390693325E+000  +2.3206061696E-001 +3.1338636821E+000  +2.2742568885E-001 +4.1615042617E+000  +7.3551042746E-001 -5.7135855889E+000 
14400695.870 +7.4377705396E-001 -5.6151476094E+000  +2.3251515878E-001 +2.8303788506E+000  +2.2780751763E-001 +3.5940582038E+000  +7.5672116757E-001 -4.1008516224E+000 
