!  2-Port S-parameters saved by WinCal
! VAR MeasName=S-Parameters (CALIBRATED_DATA) read from VNA (P5004A)
! VAR MeasDate=27/08/2024 16:18:22
! VAR NAME=S2_r1c9_SET2_9k-100M_2
! VAR FILENAME=S2_r1c9_SET2_9k-100M_2.S2P
! VAR DATE=27/08/2024 16:18:22
! VAR PHYS_PORTS=1,2
! VAR ObjTypeName=DATASET
! VAR IndexType=Frequency
!
# Hz S MA R 50
9000.000 +5.6836139566E-002 -1.1417778487E+002  +3.2168103384E-002 +4.9065472956E+001  +1.7135703042E-002 -5.1205300883E+001  +2.7551631048E-001 -1.1486472866E+002 
134145.181 +1.1018096415E-001 +1.6987402924E+002  +5.2630278810E-004 +1.1172017995E+002  +5.4715767378E-004 -1.3636773622E+002  +2.3969973107E-001 -1.7168206296E+002 
259290.363 +1.1181775776E-001 +1.6998566944E+002  +5.2059534111E-004 +6.7174626707E+001  +6.7065737252E-004 -8.0298699323E+001  +2.4376927260E-001 -1.6862885587E+002 
384435.544 +1.1422525886E-001 +1.6980971832E+002  +7.8015768258E-005 -1.6963634805E+002  +3.4029361413E-004 -1.4287982576E+002  +2.4365571487E-001 -1.6851074580E+002 
509580.726 +1.1376343053E-001 +1.7142942022E+002  +6.7175048713E-004 +1.4069227900E+002  +7.8485215627E-004 +1.0264612655E+002  +2.5546364297E-001 -1.6598287296E+002 
634725.907 +1.1407040395E-001 +1.7036358102E+002  +1.2109600996E-003 +8.6370301788E+001  +1.4953620305E-003 -1.6209602184E+002  +2.4298428944E-001 -1.6334321273E+002 
759871.089 +1.1890777981E-001 +1.7123782622E+002  +1.5276872734E-004 +1.4260243298E+002  +5.5826506316E-004 +1.4098876833E+002  +2.3851800184E-001 -1.6182544585E+002 
885016.270 +1.1815629233E-001 +1.6952615769E+002  +2.7736526802E-004 -6.5467963870E+001  +5.4460858665E-004 +8.2712045558E+000  +2.4120234164E-001 -1.6522530332E+002 
1010161.452 +1.1522753957E-001 +1.7051713167E+002  +3.3679769988E-003 -1.1712332617E+001  +1.1857954559E-003 -1.0330594177E+001  +1.5045698535E-001 -1.7274876962E+002 
1135306.633 +1.1252802050E-001 +1.6939831998E+002  +2.8119446349E-003 -1.2328806681E+002  +3.0982025201E-003 +7.9769250192E+001  +1.4703752272E-001 +1.2911803545E+002 
1260451.815 +1.2122445713E-001 +1.7112330273E+002  +1.9515245010E-004 -3.8454243649E+001  +1.2737308479E-003 +1.3958603531E+001  +2.2170801034E-001 -1.5252789151E+002 
1385596.996 +1.2578053863E-001 +1.7254955406E+002  +3.3495783455E-004 -3.0688847342E+001  +1.4236058942E-003 +1.5774811858E+002  +2.6496176463E-001 -1.5897465155E+002 
1510742.178 +1.2715070070E-001 +1.7205533121E+002  +4.6748309633E-004 +6.0880342353E+001  +5.2050828997E-004 -7.1637689265E+001  +2.4360112905E-001 -1.6157906417E+002 
1635887.359 +1.2787905991E-001 +1.6889710544E+002  +1.4534655708E-003 -6.4108526422E+001  +1.2320477787E-003 +8.3552992129E+001  +2.2870805476E-001 -1.5616026297E+002 
1761032.541 +1.2394643788E-001 +1.7078982398E+002  +1.1286804528E-003 +1.3982506611E+002  +4.8783928282E-003 -7.1113654782E+001  +2.0415024454E-001 -1.6015528987E+002 
1886177.722 +1.3045594868E-001 +1.6768065301E+002  +1.0787811609E-003 +1.7905416402E+002  +1.5268715602E-003 +1.7389836774E+001  +2.0980061047E-001 -1.7000026510E+002 
2011322.904 +1.2633445921E-001 +1.6527966049E+002  +9.3805860154E-004 +1.1221178576E+002  +2.6390725186E-003 -7.4259884183E+001  +2.1938092208E-001 -1.6776358768E+002 
2136468.085 +1.2587895726E-001 +1.6471080464E+002  +3.5107645956E-003 +1.6315315507E+002  +1.3245062682E-003 -2.9906155072E+001  +1.7827782256E-001 -1.5079077330E+002 
2261613.267 +1.3113034761E-001 +1.6713530817E+002  +1.4685514385E-003 -2.5329891882E+001  +1.1784343777E-003 -1.2061276506E+001  +2.5337708742E-001 +1.6915424776E+002 
2386758.448 +1.3642603428E-001 +1.5977756667E+002  +2.0713642433E-003 +1.0844852074E+002  +4.7594188072E-003 -4.8257502666E+001  +2.5824282282E-001 +1.6917684508E+002 
2511903.630 +1.3301441192E-001 +1.6238741415E+002  +1.7542614467E-003 -1.0275259659E+002  +3.0123333165E-003 -1.1060481348E+002  +2.0753432948E-001 +1.6500564879E+002 
2637048.811 +1.2435055076E-001 +1.4857603008E+002  +1.2511747566E-002 +9.8254260500E+001  +1.8122693174E-002 -3.6111905987E+001  +1.7577239638E-001 +4.0239277315E+000 
2762193.992 +1.1857925741E-001 +1.6625359021E+002  +3.3575784217E-002 +1.0636618699E+001  +5.0156486087E-002 -1.1388446423E+002  +1.3116600106E+000 -6.5212105639E+001 
2887339.174 +1.2771784384E-001 +1.7087542693E+002  +8.1756523706E-003 +4.2031540097E+001  +8.7419318781E-003 +5.0409782373E+001  +3.6684495268E-001 -1.1241799125E+002 
3012484.355 +1.0078497894E-001 +1.5846865374E+002  +3.1339244463E-002 -1.1872565635E+001  +4.0446425930E-002 -9.1537487884E+001  +7.4675965408E-001 +8.0250675609E+000 
3137629.537 +1.1309834355E-001 +1.6806712684E+002  +6.6417487750E-003 -6.1915757674E+001  +4.2178428573E-003 -9.8519621527E+001  +1.8771731276E-001 -1.1484977542E+002 
3262774.718 +1.2381438663E-001 +1.6510600190E+002  +3.3096216068E-002 -5.9258797829E+001  +1.9791923700E-002 -8.6994033959E+001  +6.7201989910E-001 -5.4210019750E+001 
3387919.900 +1.3139425888E-001 +1.6132304714E+002  +2.2747126885E-002 +3.8824202311E+001  +1.0034354512E-002 +1.0505264303E+002  +6.9107859955E-001 -2.5961121824E+000 
3513065.081 +1.3045043101E-001 +1.4107087433E+002  +1.4843768683E-002 -8.5224112422E+001  +1.4435531361E-002 +5.7874249085E+000  +1.8369326870E-001 -2.8232766882E+001 
3638210.263 +1.7977412985E-001 +1.5035798792E+002  +9.1871061828E-002 +3.0876489842E+001  +6.5566000360E-002 -1.1635309813E+002  +3.7849552175E+000 -1.1325115874E+002 
3763355.444 +1.5411673748E-001 +1.1574446365E+002  +3.1984561900E-002 +1.0880811949E+002  +3.0230552652E-002 +7.9011045030E+001  +1.1364662299E+000 +1.3902818246E+002 
3888500.626 +1.8277193662E-001 +1.5215507752E+002  +5.4527848416E-003 -8.9562556250E+001  +3.7243079725E-003 +1.0001064000E+002  +4.1461006998E-001 +1.4477861984E+002 
4013645.807 +1.7530107388E-001 +1.4410359519E+002  +3.9314575376E-003 +1.4288228006E+002  +9.7693121529E-003 +5.4445847349E+001  +3.0624623144E-001 +1.3351251974E+002 
4138790.989 +2.1102822264E-001 +1.4755893694E+002  +4.0886325164E-003 -6.4823962877E+001  +7.7834170594E-003 +3.2517248956E+001  +4.1366481936E-001 +1.5410013144E+002 
4263936.170 +2.0341082539E-001 +1.4441780834E+002  +4.5817687873E-003 -8.4440564232E+000  +9.0571651779E-003 +7.4647575496E+001  +5.8661992237E-001 +1.4337546984E+002 
4389081.352 +1.9237028448E-001 +1.4403820766E+002  +9.1919102764E-003 +8.8271581415E+001  +1.7456543192E-002 +6.2978694830E+001  +5.3450580696E-001 +8.5343864863E+001 
4514226.533 +2.3121551456E-001 +1.2689688424E+002  +1.9535586528E-002 +1.5285810110E+002  +2.1377439742E-002 +3.2040457151E+001  +4.5959877124E-001 +5.8672595477E+001 
4639371.715 +3.1326097262E-001 +1.4184443000E+002  +2.2268346427E-002 -1.7018124960E+002  +2.8897282671E-002 +9.9274498677E+001  +2.3409418645E+000 +1.3450050725E+002 
4764516.896 +4.0118878323E-001 +1.2084222984E+002  +1.1942529672E-001 +1.6895236414E+002  +2.6891912643E-002 +7.0984904305E+001  +2.9669420217E+000 +5.9355394790E+001 
4889662.078 +4.4934670870E-001 +1.3566704902E+002  +3.9521630329E-002 +4.7468766122E+001  +8.6873626054E-002 -5.5597872098E+000  +2.5853159814E+000 -4.5625842893E+001 
5014807.259 +3.5600139776E-001 +1.1914028528E+002  +2.4668035578E-002 +6.3579893555E+001  +4.1817155440E-002 -1.7052017781E+002  +2.8791879633E+000 +3.4383822682E+001 
5139952.441 +3.9775873415E-001 +1.3240223275E+002  +1.0557787788E-002 -1.3331913310E+002  +2.5764044414E-002 +1.0008781708E+002  +1.3401456005E+000 +9.5835761254E+001 
5265097.622 +5.0979614610E-001 +1.1788266016E+002  +7.8180319657E-002 +1.0751860780E+002  +3.1364027556E-002 -8.5393748853E+001  +4.7197897965E+000 +1.1111171690E+002 
5390242.804 +4.1002685831E-001 +1.3030156713E+002  +7.1293075959E-002 +1.3053882809E+002  +7.7052558561E-002 +6.3225799662E+001  +3.7133357043E+000 +8.1355511892E+001 
5515387.985 +3.9228535113E-001 +1.3300220520E+002  +1.2453892810E-002 +9.1978343618E+001  +2.2103991353E-002 +1.3143195727E+002  +1.0921968169E+000 +1.1661893113E+002 
5640533.166 +4.6682585839E-001 +1.2818886992E+002  +5.5865101424E-002 +1.1972177992E+002  +2.7054682878E-002 +4.8447091251E+001  +4.1993026862E+000 +4.3096806291E+001 
5765678.348 +5.3136523084E-001 +1.1473328979E+002  +5.9044210251E-002 +1.1181394840E+002  +6.4878488105E-002 -7.7214984125E+000  +3.4246901540E+000 +4.1426080903E+001 
5890823.529 +5.6046121085E-001 +1.2578971103E+002  +2.7412989308E-002 +8.1018684957E+001  +2.5568430992E-002 +6.3095615391E+001  +9.6734763945E-001 +6.1034562057E+001 
6015968.711 +7.9693732677E-001 +1.1725763231E+002  +3.4660246778E-002 +3.5897701386E+001  +2.7270695634E-002 +2.9465246285E+001  +2.6070774068E+000 +3.7787075875E+001 
6141113.892 +7.5475381495E-001 +9.4714232676E+001  +5.3674289946E-002 +6.4657917822E+001  +2.1986241206E-002 -5.3447371612E+001  +1.8848774590E+000 +2.5790128521E+001 
6266259.074 +8.6701663759E-001 +1.0079119993E+002  +2.6955320806E-002 +4.3630299832E+001  +3.9776226436E-002 -1.0065184407E+000  +1.1608790722E+000 +3.9417690002E+001 
6391404.255 +1.2052521722E+000 +9.9779509575E+001  +3.1329150986E-002 +6.0149554934E+001  +2.8922742924E-002 +3.8747872925E+001  +1.2161944465E+000 +1.7190412858E+001 
6516549.437 +1.5033826923E+000 +7.9400843416E+001  +2.5701955881E-002 +1.0234233807E+002  +6.5946137427E-002 -7.4116522950E+000  +1.7496769019E+000 +1.0083410476E+001 
6641694.618 +1.5990699006E+000 +7.1048940219E+001  +1.1276196305E-002 +5.2720503243E+001  +4.5721763191E-002 +2.8721463262E+000  +1.4306618452E+000 +2.6852132839E+000 
6766839.800 +1.5804859616E+000 +4.1381689005E+001  +3.1945311941E-002 +1.7811596706E+001  +2.4048894572E-002 +2.7913656730E+001  +1.4321287917E+000 -7.1904982937E-001 
6891984.981 +1.7975073582E+000 +3.0100878065E+001  +2.4290787719E-002 +3.7300539914E+001  +3.5846631431E-002 +2.0122458060E+001  +1.3884796301E+000 -9.8796228519E+000 
7017130.163 +1.6310478620E+000 +9.2960124381E+000  +3.4863220590E-002 +3.8903759103E+001  +1.5487407287E-002 -4.5520345173E+001  +1.3624747918E+000 -1.4360588842E+001 
7142275.344 +1.6523848807E+000 +4.5780112215E+000  +2.2759432438E-002 -1.8452479209E+001  +3.0111905879E-002 +1.8368618580E+001  +1.3943175258E+000 -9.6898902169E+000 
7267420.526 +1.5289640899E+000 +1.1045090151E+001  +2.2385707158E-002 +3.2573594009E+001  +1.8689105297E-002 +4.2281830260E+001  +1.2307206130E+000 -4.4775377230E+000 
7392565.707 +1.2702432169E+000 -5.6512664356E+000  +1.5580524624E-002 +2.0344231833E+000  +2.0840536687E-002 +4.1158196244E+001  +1.4425490406E+000 -6.5621742560E+000 
7517710.889 +1.1043431380E+000 +2.9232479659E+000  +4.7898863902E-003 -4.1441751774E+000  +1.8627553681E-002 +3.1623077707E+001  +1.2878831685E+000 -2.4709511285E+000 
7642856.070 +1.0113474457E+000 +2.0525596513E+000  +1.1232694356E-002 +1.9373043516E+001  +1.7746145462E-002 +9.8186963886E+000  +1.1725570766E+000 -5.8767737544E+000 
7768001.252 +8.5117709081E-001 +4.3183973854E+000  +1.3484786749E-002 +4.9944933657E+001  +1.0466646474E-002 +4.7066784879E+001  +9.8650713234E-001 -5.4241148823E+000 
7893146.433 +9.7482911782E-001 +4.5826907893E+000  +8.7940762693E-003 -2.4158738876E+001  +1.4372910046E-002 +3.3004053306E+001  +8.7910603457E-001 -1.9158791472E+000 
8018291.615 +8.6083385723E-001 +5.7713397273E+000  +9.7609106527E-003 +4.4739014737E+001  +8.0494268614E-003 +1.4383980035E+001  +8.8277301272E-001 +1.9549731243E+000 
8143436.796 +7.9853152313E-001 +6.7903718375E-001  +9.4157356386E-003 -3.0953640823E+001  +8.7645493558E-003 +4.0117442147E+001  +7.8929228368E-001 -8.0418627233E-003 
8268581.977 +6.6264222074E-001 +5.6151520918E+000  +1.0558652862E-002 +1.2477557236E+001  +8.3992879219E-003 +5.0171925209E+001  +7.0493145623E-001 +3.5590173123E+000 
8393727.159 +7.1852970976E-001 +8.3877541151E+000  +9.2856217854E-003 +1.8266391138E+001  +1.1797105972E-002 +2.1305138569E+001  +7.6049205444E-001 +4.5652293891E+000 
8518872.340 +7.1859005596E-001 +1.0674872867E+001  +9.5300612300E-003 +1.8230344386E+000  +4.1831954236E-003 -4.3994290771E+001  +8.1905897215E-001 +2.5448499449E+000 
8644017.522 +6.2070435154E-001 +6.4077946421E+000  +1.1527965797E-002 +1.1951698065E+001  +9.4813584233E-003 +5.4223025798E+001  +7.5210491741E-001 -5.4491225793E-001 
8769162.703 +5.4078764218E-001 +3.2318879479E+000  +3.1224721324E-003 +6.8343885707E+001  +8.5100988986E-003 +1.2883608699E+001  +7.0576309946E-001 +3.8290739276E+000 
8894307.885 +5.7526218961E-001 +1.4238475782E+001  +1.0678724028E-002 +1.0028402027E+001  +1.3164671505E-002 +2.8221224550E+001  +6.2868212976E-001 -6.3168010575E+000 
9019453.066 +5.6385004048E-001 +3.3380569656E+000  +1.1811325022E-002 -6.5065787969E+000  +1.1512157694E-002 +2.4738063891E+001  +6.3229611967E-001 -5.3066881155E+000 
9144598.248 +5.8925902013E-001 +5.8719823486E+000  +6.5339450331E-003 +2.9642951020E+001  +1.0221765913E-002 +2.4628727808E+001  +6.2615625019E-001 -2.4133584907E+000 
9269743.429 +6.0566804789E-001 +5.0584272560E+000  +1.0360104815E-002 +1.7886458485E+001  +9.8632395903E-003 +2.7842950580E+001  +6.0939166022E-001 +2.5430079828E+000 
9394888.611 +5.5363306061E-001 +8.1213786456E+000  +1.1095650364E-002 +1.9232999914E+001  +8.0271040508E-003 +5.0747183065E+001  +5.5427174642E-001 -5.3340559701E+000 
9520033.792 +5.5555115785E-001 +2.3119247699E+000  +9.4627171221E-003 +1.4290933841E+001  +6.8717459554E-003 +2.8385691680E+001  +5.8633108282E-001 -2.8187988351E+000 
9645178.974 +5.9620736964E-001 +1.0763059997E+000  +8.9140272523E-003 +2.4206636788E+001  +8.6234710606E-003 +4.1503397035E+001  +5.9106964098E-001 -4.1748408925E+000 
9770324.155 +5.2791277112E-001 -1.7497135533E+000  +9.8983917991E-003 +1.9704839374E+001  +1.0179395648E-002 +3.8252283616E+001  +6.1083307606E-001 -2.6218189126E+000 
9895469.337 +5.2679522522E-001 -4.5350781777E+000  +1.2840640569E-002 +7.8141756942E+000  +1.2359730015E-002 +3.3067970791E+001  +5.7321234599E-001 -7.6327248507E+000 
10020614.518 +5.2321449994E-001 +4.5087084557E+000  +1.2814273039E-002 +4.1083826119E+000  +9.8514305262E-003 +3.9555763265E+001  +5.7987626171E-001 -4.5520136092E+000 
10145759.700 +5.4461752373E-001 -1.9484293586E-001  +9.6528903401E-003 +2.0115027227E+001  +9.5545036824E-003 +3.9385615973E+001  +5.6007619601E-001 -3.1334328824E+000 
10270904.881 +5.3455612841E-001 +5.5609243211E+000  +1.0365751842E-002 +2.6590858478E+001  +1.0232888177E-002 +4.1341700975E+001  +5.4956898151E-001 +1.0124638527E+000 
10396050.063 +5.6498340326E-001 +6.4763661509E+000  +9.9137689960E-003 +5.6940244752E+000  +1.0021772405E-002 +3.8862192844E+001  +5.6526727241E-001 -2.2108190579E+000 
10521195.244 +5.5774618407E-001 +6.4715035526E+000  +8.5427629540E-003 +2.1855526394E+001  +1.0786772741E-002 +4.4718205798E+001  +5.6416910774E-001 +2.0770953480E+000 
10646340.426 +5.3774386178E-001 +6.6674562149E+000  +1.1083575254E-002 +3.5027011615E+001  +1.2645108302E-002 +3.6447108147E+001  +6.0178472438E-001 -4.5639516933E-001 
10771485.607 +5.6225193166E-001 +4.1770899015E+000  +8.4460110053E-003 +1.4798838483E+001  +1.0460043225E-002 +4.4242195491E+001  +5.9138213163E-001 +2.0694019965E+000 
10896630.788 +5.3575321367E-001 +5.1369900800E+000  +1.0107796376E-002 +2.3247691939E+001  +9.6283700721E-003 +3.7144969755E+001  +5.9284834986E-001 +1.4493110061E-001 
11021775.970 +6.1412112050E-001 +2.5228795010E+000  +1.2720716890E-002 +1.2042435686E+001  +1.3354569770E-002 +4.2619342272E+001  +6.1905463139E-001 -2.8297548387E-002 
11146921.151 +5.8609988737E-001 +6.5183839112E+000  +1.1363100382E-002 +2.6954791586E+001  +9.5815792829E-003 +3.6093841506E+001  +6.0327026264E-001 -2.4510302340E+000 
11272066.333 +5.8834867348E-001 +6.6717448052E+000  +1.1598708888E-002 +2.4124043824E+001  +1.1883101691E-002 +4.0706270018E+001  +6.1789269501E-001 +9.7704179912E-001 
11397211.514 +6.3688393517E-001 +5.0455161134E+000  +1.0588642142E-002 +3.8347044255E+001  +1.0668940598E-002 +3.3431826863E+001  +6.2837618477E-001 +2.0276581250E+000 
11522356.696 +6.0857070278E-001 +6.2289658424E+000  +1.1370302728E-002 +2.6914492964E+001  +8.0878268297E-003 +4.9419345577E+001  +6.3742267145E-001 +1.3692966824E+000 
11647501.877 +6.0690317042E-001 +4.1105531729E+000  +1.1378621413E-002 +2.8137591298E+001  +1.0748950520E-002 +3.3798442495E+001  +6.3774697711E-001 +1.1946658045E+000 
11772647.059 +6.2854156496E-001 +7.2774329259E+000  +1.2796181058E-002 +2.4507190179E+001  +1.1373055022E-002 +4.5439851780E+001  +6.3918343332E-001 +1.8431997538E+000 
11897792.240 +6.6449272436E-001 +6.6516376673E+000  +1.3985776503E-002 +2.4304062008E+001  +1.0158965354E-002 +3.4436943386E+001  +6.5811070165E-001 -7.6159014606E-001 
12022937.422 +6.4747860697E-001 +4.9045552908E+000  +1.1646106816E-002 +2.8996308750E+001  +1.2068595495E-002 +4.7669560013E+001  +6.6613802400E-001 +1.7978544082E+000 
12148082.603 +6.5435072282E-001 +5.5127293031E+000  +1.2245802658E-002 +2.6854925222E+001  +1.1563248200E-002 +4.0565421882E+001  +7.0160709096E-001 +1.6651848553E-001 
12273227.785 +6.8808150795E-001 +3.7012910978E+000  +1.1255792290E-002 +2.4329260317E+001  +1.1684820635E-002 +2.9881986810E+001  +7.1614804243E-001 -5.2604498169E-001 
12398372.966 +7.0548076932E-001 +3.5644072135E+000  +1.0993787877E-002 +3.5019720498E+001  +1.2970321104E-002 +3.0127504718E+001  +7.0652712865E-001 -9.0640971046E-001 
12523518.148 +7.1451424170E-001 +6.9178790353E-001  +1.1895263332E-002 +2.9954392097E+001  +1.1700559304E-002 +3.5664979284E+001  +7.3490577525E-001 +1.4969542042E+000 
12648663.329 +7.2677173077E-001 +2.9371154073E+000  +1.2577176773E-002 +3.3681043369E+001  +1.3186227541E-002 +3.7651094907E+001  +7.2154688742E-001 -2.6451170452E+000 
12773808.511 +7.4483501574E-001 +1.8274944222E+000  +1.2261310457E-002 +3.6083910729E+001  +1.2952345838E-002 +3.5422096359E+001  +7.5910016754E-001 -5.1800044489E-001 
12898953.692 +7.5684566663E-001 +1.5300410729E+000  +1.2740573270E-002 +3.0067315059E+001  +1.3831114695E-002 +3.8040965304E+001  +7.8635929905E-001 -3.2114891940E+000 
13024098.874 +7.6626945542E-001 +7.1219845584E-001  +1.4591750120E-002 +2.9941971633E+001  +1.3502368120E-002 +3.9118477555E+001  +7.8143591139E-001 -9.3565539770E-001 
13149244.055 +7.8251581020E-001 +1.0043035276E+000  +1.3113215226E-002 +3.7010234567E+001  +1.3392253223E-002 +3.5030171449E+001  +7.9885556864E-001 -2.5008964694E+000 
13274389.237 +8.0865987351E-001 +6.1256315799E-001  +1.2119649414E-002 +3.4397942036E+001  +1.2767219648E-002 +4.4523219900E+001  +8.0929949459E-001 -2.8084881557E+000 
13399534.418 +8.4141361538E-001 -9.3434324382E-001  +1.3846413550E-002 +2.9390547668E+001  +1.1673214435E-002 +3.5550136850E+001  +8.4032546095E-001 -2.4650302382E+000 
13524679.599 +8.3303404839E-001 -3.1750280273E+000  +1.5654609512E-002 +3.0970654530E+001  +1.3732862282E-002 +3.5656822975E+001  +8.5740576129E-001 -2.8012296140E+000 
13649824.781 +8.4617998041E-001 -1.1980268047E+000  +1.2823463664E-002 +3.4258753417E+001  +1.4460869735E-002 +4.3080762035E+001  +8.6940383754E-001 -3.6530649680E+000 
13774969.962 +8.7551290410E-001 -1.1804012203E+000  +1.2601158169E-002 +3.3013023525E+001  +1.2636730220E-002 +3.3474057608E+001  +8.8527443335E-001 -2.1787841361E+000 
13900115.144 +8.9102585087E-001 -4.0722232147E+000  +1.4371263552E-002 +3.6827928584E+001  +1.2090417843E-002 +3.5532640086E+001  +9.0911430122E-001 -3.8306602354E+000 
14025260.325 +9.0449179300E-001 -3.9088968879E+000  +1.4480739429E-002 +3.5156853160E+001  +1.3971128566E-002 +3.6248211069E+001  +9.5522469041E-001 -3.8062130190E+000 
14150405.507 +9.2503118956E-001 -3.4424502526E+000  +1.4217511892E-002 +3.1078067600E+001  +1.5279523749E-002 +3.1823927468E+001  +9.5705630324E-001 -5.2790949831E+000 
14275550.688 +9.6001719475E-001 -5.5211927235E+000  +1.4239364740E-002 +3.6387516047E+001  +1.5204773267E-002 +3.1931741614E+001  +9.6284742441E-001 -3.3734365645E+000 
14400695.870 +9.5927719956E-001 -5.3925816917E+000  +1.5508033599E-002 +3.5719128392E+001  +1.4179394658E-002 +2.8190434570E+001  +9.9382448912E-001 -5.1921531425E+000 
