!  2-Port S-parameters saved by WinCal
! VAR MeasName=S-Parameters (CALIBRATED_DATA) read from VNA (P5004A)
! VAR MeasDate=27/08/2024 16:41:24
! VAR NAME=S2_r2c9_RESET2_9k-100M_1
! VAR FILENAME=S2_r2c9_RESET2_9k-100M_1.S2P
! VAR DATE=27/08/2024 16:41:24
! VAR PHYS_PORTS=1,2
! VAR ObjTypeName=DATASET
! VAR IndexType=Frequency
!
# Hz S MA R 50
9000.000 +1.7143082108E-002 +1.7247619697E+002  +2.4475771910E-002 -5.5685733117E+001  +1.0034725104E-002 +1.0956050963E+002  +2.2924423157E-001 -1.3252144233E+002 
134145.181 +1.1120711209E-001 +1.6935095747E+002  +7.4774074643E-004 +1.7063872015E+002  +4.0905908014E-004 -6.0944514727E+001  +2.4247452976E-001 -1.6988669592E+002 
259290.363 +1.1144753656E-001 +1.6948592421E+002  +1.0966555040E-003 -1.0627390772E+002  +5.9859588151E-004 -1.1617293985E+002  +2.4416151137E-001 -1.6918983159E+002 
384435.544 +1.1288784858E-001 +1.6966339402E+002  +5.3977508374E-004 +9.8703597379E+001  +7.8918589711E-004 -1.7107964375E+001  +2.4591080895E-001 -1.6777024697E+002 
509580.726 +1.1012338629E-001 +1.7071859700E+002  +7.5157945102E-004 +1.0107186470E+002  +5.1379258809E-004 +1.1139743633E+001  +2.4948611289E-001 -1.6258000971E+002 
634725.907 +1.1689237006E-001 +1.7043519419E+002  +4.1409469465E-004 -1.5625118592E+002  +7.1257242169E-004 -1.5214727355E+002  +2.4722189402E-001 -1.6583629704E+002 
759871.089 +1.1755304645E-001 +1.7051287760E+002  +8.1520357387E-005 +1.0868177194E+002  +1.1648051154E-004 +1.0638626200E+002  +2.4334554446E-001 -1.6649407858E+002 
885016.270 +1.1826551428E-001 +1.6950045019E+002  +3.4576607670E-004 +2.4849616703E+000  +1.2455473559E-004 -1.6247991059E+001  +2.4017954537E-001 -1.6574095084E+002 
1010161.452 +1.1579587089E-001 +1.7148201624E+002  +9.8643371327E-004 -1.4045720418E+002  +1.1709141846E-003 -1.0144022698E+002  +1.9720289886E-001 -1.7276626133E+002 
1135306.633 +1.1566749015E-001 +1.6992770433E+002  +6.5952362317E-004 +2.7873410483E+001  +8.4271833605E-004 -8.5005552872E+000  +1.9557268252E-001 -1.6804958585E+002 
1260451.815 +1.2183115068E-001 +1.7117568886E+002  +1.4283010682E-004 +1.2037296061E+002  +5.1492700868E-004 -1.0655185582E+002  +2.6615567174E-001 -1.5720157367E+002 
1385596.996 +1.2437263268E-001 +1.7339714340E+002  +2.9376191494E-004 +1.1714399627E+002  +8.5078779542E-004 +1.0946891306E+002  +2.6461794215E-001 -1.5977456526E+002 
1510742.178 +1.2472282339E-001 +1.6962235557E+002  +8.5641022137E-004 +1.5361858165E+002  +1.2954181224E-003 -1.2851692676E+002  +2.6444707031E-001 -1.5809572391E+002 
1635887.359 +1.2929674117E-001 +1.7019378026E+002  +5.6704498193E-004 +3.5033244933E+001  +1.1090920651E-003 +2.3305315838E+001  +2.4173327360E-001 -1.5852168175E+002 
1761032.541 +1.2553081939E-001 +1.6981318814E+002  +5.8268665339E-004 +5.3657372796E+001  +7.2362879287E-004 -1.7262580346E+002  +2.3638363570E-001 -1.6029112045E+002 
1886177.722 +1.3049827798E-001 +1.6695613611E+002  +1.3161126504E-003 -1.0693650748E+002  +7.0175134846E-004 -9.7914940317E+001  +2.0458064901E-001 -1.6897905934E+002 
2011322.904 +1.2818758314E-001 +1.6515364675E+002  +2.3583487653E-003 +1.7328033874E+002  +3.3653789030E-004 -1.0730203231E+002  +1.6146656084E-001 -1.7079999566E+002 
2136468.085 +1.2615565939E-001 +1.6575173618E+002  +6.3548210194E-004 +1.5660148591E+002  +1.6773659809E-003 -1.0492334976E+002  +1.5393536863E-001 -1.7430706063E+002 
2261613.267 +1.2690962553E-001 +1.6429528136E+002  +2.0288178158E-003 -3.0421915934E+001  +2.5542964789E-003 +8.5698536712E+001  +2.1066663686E-001 +1.7245497140E+002 
2386758.448 +1.2682789858E-001 +1.6348406578E+002  +1.2172504754E-003 -8.2845592133E+001  +2.0421360484E-003 +3.8610582977E+000  +2.1379025784E-001 +1.7341583006E+002 
2511903.630 +1.3992271102E-001 +1.6185863971E+002  +3.0294875947E-003 +1.0277865019E+002  +5.6226421622E-004 +1.9289820321E+001  +2.5635248293E-001 +1.4778520702E+002 
2637048.811 +1.3514344256E-001 +1.5584386212E+002  +6.8046205251E-003 -8.9671408757E+001  +3.5056344434E-003 -1.3392108218E+002  +1.1452069467E-001 -3.6645343738E+001 
2762193.992 +9.4478596168E-002 +1.7490343458E+002  +7.2904296823E-003 +1.1238404596E+002  +5.6099677621E-003 +1.0115821987E+002  +2.2006963431E-001 +1.2367858341E+002 
2887339.174 +1.1825878674E-001 +1.7722716436E+002  +1.2556320827E-002 +8.2533664405E+001  +5.4100103848E-003 +1.9540437029E+000  +4.3008358021E-001 -1.0253723676E+002 
3012484.355 +1.0894025669E-001 +1.7317023284E+002  +6.5102909659E-003 -7.0119995920E+001  +1.2550787414E-002 -9.4935434445E+001  +4.1469782122E-001 -1.2291173515E+002 
3137629.537 +1.1353310487E-001 +1.6775607183E+002  +9.1117738506E-003 -5.2938729606E+001  +2.8204070495E-003 -5.9778499983E+001  +1.0830237059E-001 -1.0012421933E+002 
3262774.718 +1.2102187430E-001 +1.7285429929E+002  +1.3137982849E-002 -1.7894957569E+002  +7.1704952917E-003 +8.3900766933E+001  +5.2121109614E-001 -1.0579413872E+002 
3387919.900 +1.3067457797E-001 +1.5535749157E+002  +1.0520689089E-002 -2.5429020065E+000  +7.9739944980E-004 -4.0266006371E+001  +6.1469922760E-002 -1.8265082131E+001 
3513065.081 +1.4888649732E-001 +1.4703114194E+002  +1.4594142732E-002 +1.0763501157E+001  +1.0335053716E-002 -2.6004731974E+001  +1.3414394438E+000 +1.3281849180E+002 
3638210.263 +1.6072537410E-001 +1.5320413016E+002  +5.5859546372E-003 -1.6630773209E+002  +1.3766133132E-003 -1.4491805878E+002  +9.8256555453E-001 +1.4975196833E+002 
3763355.444 +2.0605589942E-001 +1.4038786719E+002  +1.8582304779E-002 +5.7844263499E+000  +1.6313838223E-002 +6.9720872760E+001  +1.9754952516E-001 +9.2949912595E+001 
3888500.626 +1.4706596000E-001 +1.5375452481E+002  +6.7414819067E-003 +1.2052678842E+002  +1.3318822568E-003 +1.1483936803E+002  +4.2940758878E-001 +1.5487573037E+002 
4013645.807 +1.8857873140E-001 +1.5220103345E+002  +9.7657847099E-003 -6.5652955008E+001  +4.6819013661E-003 +5.6132882817E+001  +3.5542116739E-001 +1.0480967533E+002 
4138790.989 +1.9803644209E-001 +1.4698752379E+002  +7.3748672204E-003 +1.0840657031E+001  +9.1369558300E-003 -6.0477704706E+000  +6.2560602878E-001 +1.2602840624E+002 
4263936.170 +1.8785498651E-001 +1.5052872231E+002  +3.4058313437E-003 -3.0554785287E+001  +8.8310091027E-003 +4.4060034408E+001  +6.5738270694E-001 +1.0964271863E+002 
4389081.352 +1.6060077701E-001 +1.4497697252E+002  +5.6135797229E-003 +3.3611948353E+001  +1.5981644545E-002 -1.2455491668E+001  +6.1772580368E-001 +1.3734747916E+002 
4514226.533 +1.9286752627E-001 +1.2386677868E+002  +2.8812160459E-002 +3.9045363380E+001  +6.5126459545E-002 +1.5245835894E+002  +2.5766611321E+000 +7.4825845984E+001 
4639371.715 +2.1930510584E-001 +1.3425771783E+002  +2.7222667932E-002 +3.3656523154E+001  +1.2987935288E-002 +2.5601409479E+001  +1.4623884222E+000 +1.5046230757E+002 
4764516.896 +3.8530515501E-001 +1.2384111863E+002  +2.0201212500E-001 +1.0274831258E+002  +4.1480515937E-001 +3.4941464965E+001  +1.0299068734E+001 +4.6196521106E+001 
4889662.078 +3.4399688993E-001 +1.3027378350E+002  +1.9131135113E-002 +1.5269643500E+002  +4.1340442962E-002 +4.1914790152E+001  +3.0413353911E+000 -1.1340406823E+002 
5014807.259 +4.9305280518E-001 +1.1184984413E+002  +7.5855267194E-002 -4.6706027806E+001  +1.3720864376E-001 +8.9260846016E+001  +4.2677808240E+000 +1.4801839801E+002 
5139952.441 +5.4352578298E-001 +1.2264770315E+002  +4.7507226821E-002 -1.1085829189E+002  +1.1941833311E-001 +1.2041254758E+002  +4.4386375364E+000 +1.3705775077E+002 
5265097.622 +4.2776184388E-001 +1.3410082762E+002  +5.5795041168E-002 +3.9635844488E+001  +6.9015902812E-002 -2.8114651598E+000  +6.2018224198E+000 -1.0128452986E+002 
5390242.804 +4.2642619961E-001 +1.3222071347E+002  +2.5758559079E-002 +1.2356718162E+002  +3.7249250325E-002 +3.4962601874E+001  +4.2002027656E+000 +9.0769130319E+001 
5515387.985 +4.4456605526E-001 +1.3596338670E+002  +1.0341287022E-002 -1.5533963270E+002  +9.3021473119E-003 -5.7348081832E+001  +1.9107039730E+000 +7.6997628100E+001 
5640533.166 +4.7250314730E-001 +1.3301574022E+002  +5.6149265752E-003 -1.0224571129E+002  +1.5304472740E-002 +1.0886130160E+002  +1.7137943018E+000 +1.0670668461E+002 
5765678.348 +4.7129956929E-001 +1.2740019823E+002  +2.4599394322E-002 -4.0601552044E+001  +3.4158574258E-002 +1.3516130164E+002  +2.9692348717E+000 +9.6547797185E+001 
5890823.529 +5.1693820608E-001 +1.2099487910E+002  +2.8394698130E-002 -1.4922275784E+002  +3.3625906420E-002 +2.7525273095E+001  +2.6929789416E+000 +4.7593866761E+001 
6015968.711 +6.4305102308E-001 +1.2144103605E+002  +3.0917996563E-002 +1.1886352487E+002  +2.0114119041E-002 +1.1802487961E+002  +2.6373872781E+000 +5.6204389961E+001 
6141113.892 +7.4467569329E-001 +1.1740140447E+002  +1.4232332503E-002 +1.6426612457E+002  +2.1871043748E-002 +3.4779339913E+001  +2.1558045589E+000 +1.3966871994E+001 
6266259.074 +9.9070596616E-001 +1.0803670053E+002  +2.8577482607E-002 +1.5540667986E+002  +3.8692394187E-002 -9.1733513278E+001  +1.6301724397E+000 +3.3763287028E+001 
6391404.255 +9.4245814449E-001 +9.1259280028E+001  +3.5951066590E-003 -1.4820462821E+002  +2.7981237822E-002 +9.9712074021E+001  +1.4603707116E+000 +7.3843395515E+000 
6516549.437 +1.1292516253E+000 +7.6401260336E+001  +6.1017936816E-003 -5.2057283227E+001  +1.6499877578E-002 -1.6342630538E+002  +1.5769740122E+000 +6.5188869553E+000 
6641694.618 +1.6424226629E+000 +7.2567993354E+001  +2.2520682622E-002 +7.7596316299E+001  +1.0152380450E-002 -6.4534496446E+001  +1.2570597640E+000 +2.3283259429E+000 
6766839.800 +1.4068451449E+000 +4.5792098126E+001  +2.7955549950E-002 +7.1034657197E+001  +3.3074873930E-002 +6.3695909556E+001  +1.5504919670E+000 +4.5446795183E+000 
6891984.981 +1.7504056829E+000 +3.5836611871E+001  +1.6775669677E-002 +1.4734819780E+002  +2.7424699069E-002 +7.6149889255E+001  +1.2398431726E+000 -1.1798529049E+001 
7017130.163 +1.6007432594E+000 +1.9721870346E+001  +2.0875468512E-002 +4.8030520515E+001  +1.3065615406E-002 -8.5640887540E+001  +1.3137598835E+000 -5.5084519442E+000 
7142275.344 +1.6845827371E+000 +8.7416854009E+000  +1.4505764229E-002 +1.2020488682E+002  +8.9166064629E-003 +1.6462363710E+002  +1.1938237887E+000 -1.2077094760E+001 
7267420.526 +1.6857160722E+000 +8.6913852178E+000  +4.0616388129E-003 -1.0662324876E+002  +2.1420312121E-003 +9.3240367765E+001  +1.2831518685E+000 -4.0668837101E+000 
7392565.707 +1.3787806346E+000 -2.7095004269E+000  +1.0569804857E-002 -2.8578603335E+001  +5.3283382120E-003 +1.6941414809E+002  +1.2963580994E+000 -1.0997353262E+001 
7517710.889 +1.2618733122E+000 +3.6829025589E+000  +4.2134209641E-003 +4.4443500257E+001  +1.4612024746E-002 -3.1740149011E+000  +1.2210332000E+000 -9.7804379245E+000 
7642856.070 +1.1265944048E+000 +4.2452974621E+000  +1.6707159069E-003 +1.1375762751E+002  +6.3912799165E-003 +9.9547097566E+001  +1.1753698957E+000 -3.8129907591E+000 
7768001.252 +9.3805447330E-001 +2.0783106622E+000  +6.9184717796E-003 +7.8271793748E+001  +3.4376531169E-003 +1.1617081997E+002  +9.3053861873E-001 -8.2212390308E+000 
7893146.433 +7.7775979822E-001 +1.7397793172E+000  +8.5042075553E-004 -2.0424959943E+001  +6.3954548129E-003 +1.7228458180E+002  +9.8027230133E-001 -9.8396102258E-001 
8018291.615 +8.4973899385E-001 +6.7249172955E+000  +4.8041274554E-003 +1.1276779119E+002  +8.6057898895E-003 +1.0702524358E+002  +9.0084634048E-001 +3.9635983962E-001 
8143436.796 +8.5885142947E-001 +2.0029929171E+000  +3.9701104176E-003 +4.6795805911E+001  +4.1102271758E-003 +9.7486833226E+001  +8.6040463919E-001 -5.5998808090E+000 
8268581.977 +7.2834919406E-001 +1.1205140699E+001  +1.1269832625E-002 +6.7980424298E+001  +7.2139170029E-003 +1.1445600895E+002  +8.0755953682E-001 -5.6166049889E+000 
8393727.159 +7.6269239023E-001 +2.8247748821E+000  +7.7665947692E-003 -1.6228912605E+001  +9.3762517319E-003 +1.1242361040E+002  +7.8188937708E-001 +1.0244172681E-001 
8518872.340 +6.8178547126E-001 +8.4051453578E+000  +4.2755977400E-003 +1.4396992918E+002  +4.7759277961E-003 +1.5146383641E+002  +7.1591682769E-001 +2.1830444093E+000 
8644017.522 +6.4756493867E-001 +1.1652403124E+001  +5.9915785830E-003 +8.0521733379E+001  +2.3662021208E-003 +4.3481606995E+001  +6.8810680956E-001 -1.3011204520E+000 
8769162.703 +6.3975114965E-001 +7.2128681027E+000  +6.1939437729E-003 +1.3142692063E+002  +2.9259632700E-003 -8.9388143163E+001  +6.3573936869E-001 -3.7353613209E+000 
8894307.885 +6.3542877619E-001 +8.4458314311E+000  +4.1179058984E-003 +1.2425151062E+002  +4.0317291398E-003 +5.7143671186E+001  +6.9430966985E-001 +2.1462094080E+000 
9019453.066 +6.0076438573E-001 +5.5724420864E+000  +3.2550153884E-003 +1.1942872260E+002  +3.7567146935E-003 +1.3663340147E+002  +6.2532724117E-001 -4.3828023178E+000 
9144598.248 +5.6825246075E-001 +7.4562334781E+000  +3.7225597289E-003 +8.5242103830E+001  +3.4729271504E-003 +7.9311548003E+001  +6.1316918652E-001 +7.5489898728E-001 
9269743.429 +5.8286668875E-001 +4.8258677916E+000  +3.9687378665E-003 -2.2249703566E+001  +3.5378917870E-003 +5.9162840360E+001  +6.2157221491E-001 -3.8216974418E+000 
9394888.611 +5.7233842574E-001 +7.8205882582E+000  +2.3420881294E-003 +6.3111716707E+001  +6.9084485930E-003 +1.6692077780E+002  +6.3881093428E-001 -2.7240991670E+000 
9520033.792 +5.3873304425E-001 +7.1232118562E+000  +6.9656393445E-003 +1.0640397101E+002  +6.2998390287E-003 +9.7332054500E+001  +5.9197548566E-001 -4.5312495082E+000 
9645178.974 +4.7712160264E-001 +2.1516422916E+000  +4.8494011302E-003 +7.4239319782E+001  +3.9452322247E-003 +1.1816718657E+002  +6.1846361713E-001 -5.4559347534E+000 
9770324.155 +4.9916944341E-001 +4.0582554836E-001  +4.6388732183E-003 +1.0560133439E+002  +4.2408616999E-003 +4.6129399966E+001  +5.6126142343E-001 -7.3691541247E+000 
9895469.337 +5.5542141663E-001 +6.4096144739E-001  +3.7061208461E-003 +1.2545310841E+002  +4.5805967612E-003 +1.5822738358E+002  +6.3379986140E-001 -6.4511317754E+000 
10020614.518 +5.6992876993E-001 +8.5076124472E-001  +4.7254447343E-003 +8.4606067009E+001  +5.9431024467E-003 +5.8093289530E+001  +5.7001982380E-001 -5.8962637957E+000 
10145759.700 +5.4720061662E-001 +1.9458003675E-001  +3.7520035105E-003 +9.8416482972E+001  +4.6066384404E-003 +1.2055730728E+002  +6.1129521159E-001 -5.5753754217E+000 
10270904.881 +5.4622575655E-001 +1.4914196321E+000  +3.4078354838E-003 +7.0563616620E+001  +3.8344979881E-003 +1.0638600303E+002  +6.1659869936E-001 -3.9345267264E+000 
10396050.063 +5.5512840352E-001 +4.3624660380E+000  +5.4340556791E-003 +6.7713433387E+001  +5.7234325097E-003 +1.1704061634E+002  +6.0706445367E-001 -1.3812663062E+000 
10521195.244 +5.4839982863E-001 +5.1783308508E+000  +2.4335576236E-003 +7.0166573336E+001  +6.0729545929E-003 +9.6010229558E+001  +5.8204977968E-001 -1.0690859093E+000 
10646340.426 +5.3850155415E-001 +4.6337594197E+000  +2.4497872843E-003 +9.0037619948E+001  +4.8444537068E-003 +8.4673681502E+001  +6.2170059386E-001 -1.7109475058E+000 
10771485.607 +5.4265537126E-001 +5.3037442591E+000  +5.1373092794E-003 +7.9786545291E+001  +5.1292445118E-003 +1.0597046837E+002  +6.0337091092E-001 +9.8672418350E-001 
10896630.788 +5.6775849526E-001 +6.6935817900E+000  +5.7989089655E-003 +1.1004075595E+002  +4.4714303366E-003 +1.1472950532E+002  +6.3567256417E-001 +5.5030994195E-001 
11021775.970 +5.7228552047E-001 +4.8506858156E+000  +4.6376920361E-003 +8.9325643361E+001  +5.9562324395E-003 +6.4680289905E+001  +5.9426077258E-001 +1.4185026534E+000 
11146921.151 +5.9839516628E-001 +7.2512394669E+000  +4.8312540251E-003 +7.7630873270E+001  +3.8374308025E-003 +8.3438824786E+001  +6.4065738643E-001 +8.5200411737E-001 
11272066.333 +5.8729164222E-001 +7.0849957561E+000  +3.8134575819E-003 +1.1073890141E+002  +4.0883536372E-003 +8.3265402492E+001  +6.5926947648E-001 -9.2050277898E-001 
11397211.514 +6.2185564618E-001 +5.2773739857E+000  +5.0539568732E-003 +8.4201118423E+001  +6.4618557212E-003 +8.3762683580E+001  +6.1890386140E-001 +3.5135746938E+000 
11522356.696 +6.3398636168E-001 +4.9481201189E+000  +6.0314274932E-003 +9.9162289005E+001  +5.3098040194E-003 +1.2792498851E+002  +6.3856560482E-001 +1.4543342729E+000 
11647501.877 +6.2878852455E-001 +6.7230448800E+000  +6.3140569467E-003 +9.1703705281E+001  +5.9987496825E-003 +8.9733021296E+001  +6.5105712718E-001 +1.8711130189E+000 
11772647.059 +6.5779554382E-001 +4.9100606250E+000  +1.9699898245E-003 +9.8419290993E+001  +5.6241550370E-003 +1.0296275218E+002  +6.5535049492E-001 +2.8372711809E-001 
11897792.240 +6.7467800637E-001 +5.0477218246E+000  +2.8858661970E-003 +1.0516780546E+002  +3.7281615574E-003 +9.8279933263E+001  +6.7293962187E-001 +2.0726666517E+000 
12022937.422 +6.6958818344E-001 +6.0192675546E+000  +6.3414727318E-003 +1.0333718969E+002  +6.0961181387E-003 +1.0777006563E+002  +7.0273560565E-001 +1.0122826469E+000 
12148082.603 +6.5752128243E-001 +4.0478658086E+000  +6.8934818447E-003 +8.3595485653E+001  +4.9801047040E-003 +9.3578338486E+001  +7.0569107392E-001 -1.1853459398E+000 
12273227.785 +7.0948685573E-001 +3.9251629427E+000  +7.3081182996E-003 +8.0206390317E+001  +6.2840109949E-003 +8.1642101783E+001  +6.9640338462E-001 -2.0608461161E+000 
12398372.966 +6.8294505580E-001 +4.6101132589E+000  +7.3700513830E-003 +8.5970429776E+001  +5.7346491464E-003 +1.1126947422E+002  +7.2928196874E-001 +4.4685773595E-001 
12523518.148 +7.2223642907E-001 +2.2372835239E+000  +5.5523148325E-003 +1.0951035953E+002  +7.7587131356E-003 +9.0104265270E+001  +7.7237589608E-001 -2.9283134026E-001 
12648663.329 +7.7553898691E-001 +3.5779187493E+000  +5.9274859710E-003 +8.9461982440E+001  +5.3201948275E-003 +1.0800508794E+002  +7.5693023123E-001 -1.6602318126E+000 
12773808.511 +7.3509389848E-001 +3.7532363827E+000  +5.1116978654E-003 +7.3137766188E+001  +7.3408595203E-003 +8.2533030797E+001  +7.7903139455E-001 +1.1702235932E+000 
12898953.692 +7.8354050921E-001 -4.9891122698E-001  +7.6038250450E-003 +9.7875406112E+001  +7.2815447191E-003 +8.4020995105E+001  +7.6851816250E-001 -1.3515720940E+000 
13024098.874 +7.7567784490E-001 +1.0395068752E+000  +7.3770069907E-003 +8.3504147970E+001  +6.4845576189E-003 +1.0279669844E+002  +7.9836632549E-001 -2.1370921427E+000 
13149244.055 +8.0652731572E-001 +8.7419971423E-001  +5.9451239012E-003 +9.8211254411E+001  +7.4775985418E-003 +1.0144811065E+002  +8.2421512320E-001 -1.9079464609E+000 
13274389.237 +8.1274726182E-001 +9.0909505509E-001  +5.4458062355E-003 +9.8973079409E+001  +5.7073731715E-003 +1.0811686140E+002  +8.3952878168E-001 -1.5286532788E+000 
13399534.418 +8.3534659440E-001 -1.5647785299E+000  +6.9911562011E-003 +1.0212707179E+002  +7.7379966996E-003 +7.9677299079E+001  +8.5622253363E-001 -1.9129155432E+000 
13524679.599 +8.6022198794E-001 -1.2674657960E+000  +5.7851889373E-003 +9.4780136256E+001  +7.9501195274E-003 +8.6035988141E+001  +8.6104067197E-001 -2.2888723348E+000 
13649824.781 +8.6793307100E-001 -2.0354412683E+000  +6.1959268069E-003 +9.3491863384E+001  +6.4633034725E-003 +1.0973067880E+002  +9.0781755179E-001 -3.3284971068E+000 
13774969.962 +8.9632009511E-001 -2.9751534104E+000  +6.6621718170E-003 +9.6396918451E+001  +7.2073765267E-003 +9.5096665071E+001  +8.9327444188E-001 -2.9203093553E+000 
13900115.144 +9.0334158578E-001 -2.4244235187E+000  +5.7659145552E-003 +9.4532497700E+001  +7.0231962074E-003 +9.7719166565E+001  +9.2858917925E-001 -3.1579992549E+000 
14025260.325 +9.2014872913E-001 -3.8062152032E+000  +5.8603836951E-003 +8.9401258470E+001  +6.5687988491E-003 +8.6919981241E+001  +9.4300129881E-001 -4.7317943101E+000 
14150405.507 +9.1996504528E-001 -3.2869556780E+000  +8.6357271779E-003 +7.9720381707E+001  +6.6875254886E-003 +9.9970213266E+001  +9.3278264647E-001 -3.8570817406E+000 
14275550.688 +9.6446165607E-001 -5.1897952291E+000  +7.2742898687E-003 +8.3070055236E+001  +6.6426554263E-003 +8.3113036603E+001  +9.6926715787E-001 -3.1512673677E+000 
14400695.870 +9.6828978586E-001 -6.1599344002E+000  +7.8408606082E-003 +9.2018306398E+001  +7.0169334090E-003 +8.9492224886E+001  +9.8948111624E-001 -4.1845026417E+000 
