!  2-Port S-parameters saved by WinCal
! VAR MeasName=S-Parameters (CALIBRATED_DATA) read from VNA (P5004A)
! VAR MeasDate=27/08/2024 14:21:16
! VAR NAME=S2_r2c8_RESET2_9k-100M_3
! VAR FILENAME=S2_r2c8_RESET2_9k-100M_3.S2P
! VAR DATE=27/08/2024 14:21:16
! VAR PHYS_PORTS=1,2
! VAR ObjTypeName=DATASET
! VAR IndexType=Frequency
!
# Hz S MA R 50
9000.000 +9.3218717153E-002 -1.5600113280E+002  +1.0826747546E-002 +6.6129205915E+001  +3.7623625117E-003 -7.6555195137E+001  +2.8715381729E-001 -1.3264330549E+002 
134145.181 +1.1198616904E-001 +1.6963300034E+002  +2.5234064781E-004 -8.2089272050E+001  +1.2981656289E-004 +1.0280511554E+002  +2.4252195985E-001 -1.6979096183E+002 
259290.363 +1.1086213834E-001 +1.6986191230E+002  +7.1887734031E-004 +1.1255351399E+002  +1.1010616372E-003 +7.5169072167E+001  +2.4677735814E-001 -1.6889130671E+002 
384435.544 +1.1444621634E-001 +1.7050101202E+002  +2.3965144579E-004 +9.3210660552E+001  +1.8494000213E-004 -4.4948978565E+001  +2.4841234337E-001 -1.6911306112E+002 
509580.726 +1.1334469917E-001 +1.7091933520E+002  +1.4393771301E-003 -1.0299336300E+002  +9.4518368550E-004 +8.6336507320E+001  +2.2743017661E-001 -1.6664305210E+002 
634725.907 +1.1678411713E-001 +1.7017644806E+002  +5.7074991344E-004 -1.3958769993E+002  +1.3933090632E-003 -7.3197996743E+001  +2.4539136144E-001 -1.6169061117E+002 
759871.089 +1.1806592875E-001 +1.7151716132E+002  +1.4269252614E-003 +1.0882238951E+001  +1.0041818989E-003 -1.3330936108E+002  +2.2705328830E-001 -1.6299931559E+002 
885016.270 +1.1677030831E-001 +1.6958941449E+002  +6.2482513983E-004 +1.2029971889E+002  +5.8778983909E-004 -1.3973417489E+002  +2.4092685305E-001 -1.6593163968E+002 
1010161.452 +1.1398199435E-001 +1.7104657552E+002  +1.7276192796E-003 +3.3263269674E+001  +2.4173153251E-003 -8.1738855872E+001  +1.8471546129E-001 -1.6290457486E+002 
1135306.633 +1.0967791910E-001 +1.7064558704E+002  +5.8498757554E-003 +1.3271385109E+002  +7.5764834365E-003 +1.6971734936E+002  +1.8257716139E-001 -1.4079986747E+002 
1260451.815 +1.2441000481E-001 +1.7134008949E+002  +4.7632483763E-004 -1.2969038837E+002  +9.9817792430E-004 +1.4067587248E+002  +2.3521367585E-001 -1.5858173329E+002 
1385596.996 +1.2777159914E-001 +1.7245457909E+002  +1.2455252244E-003 -3.9353917110E+001  +1.1633970494E-003 -1.2233174506E+002  +2.6938415399E-001 -1.5893275493E+002 
1510742.178 +1.2613329518E-001 +1.7126004970E+002  +3.7910325300E-004 -7.9592829048E+001  +6.6824742388E-004 +1.3196793560E+002  +2.5659859072E-001 -1.5954204938E+002 
1635887.359 +1.2985097051E-001 +1.7094776098E+002  +6.9829663905E-004 -1.5853339547E+002  +1.4782093804E-003 +7.0448421374E+001  +2.4543862312E-001 -1.5450632778E+002 
1761032.541 +1.2660235593E-001 +1.7038728452E+002  +1.0297534061E-003 -2.6429314038E+001  +1.1949715142E-003 +3.8304163472E+001  +2.1539807037E-001 -1.5860273367E+002 
1886177.722 +1.2869737965E-001 +1.6813832118E+002  +2.4657614888E-003 +1.3805441979E+002  +2.1603052545E-003 +9.2893896831E+001  +1.8196991978E-001 -1.6462033038E+002 
2011322.904 +1.2655764953E-001 +1.6926096937E+002  +1.0679435032E-003 +6.3050786824E+001  +1.3106621725E-003 +1.7730854942E+002  +1.4872032291E-001 +1.5346440419E+002 
2136468.085 +1.3198384607E-001 +1.6542422303E+002  +2.3082473081E-003 -8.6352543676E+001  +1.1325952001E-003 +1.1959991021E+002  +1.9751850767E-001 -1.7264241081E+002 
2261613.267 +1.3546804880E-001 +1.6571313213E+002  +9.6394732570E-004 -9.5701211316E+001  +3.8337171751E-003 +1.1320810265E+002  +1.4760165070E-001 -1.7158143027E+002 
2386758.448 +1.3327158159E-001 +1.6104999057E+002  +2.1240645690E-003 -1.5730774343E+002  +4.4269210723E-003 -5.7004663968E+001  +2.1886571005E-001 +1.7177948028E+002 
2511903.630 +1.3372538281E-001 +1.6277442357E+002  +3.1047417459E-003 +1.0882529898E+002  +3.1835895417E-003 +1.1930432071E+001  +1.7318014137E-001 -1.6628309468E+002 
2637048.811 +1.1915614137E-001 +1.6908380042E+002  +3.3864300536E-003 +1.7272984819E+002  +5.6082284515E-003 -1.1550775479E+001  +3.6147701405E-001 +1.5645934496E+002 
2762193.992 +1.1613646813E-001 -1.7933531489E+002  +1.9634114862E-002 -1.5329496145E+002  +6.5926472873E-003 -2.4157342823E+001  +8.5868051326E-001 -1.6029420312E+002 
2887339.174 +1.2248405604E-001 +1.6743542878E+002  +4.3701260971E-003 -1.2366774849E+002  +7.2580037709E-003 +1.0406844755E+002  +4.1594806269E-001 -9.4839097042E+001 
3012484.355 +1.2322627916E-001 -1.7976323008E+002  +3.7333168306E-003 -2.6220401963E+001  +9.9259996910E-003 +1.1443732023E+001  +3.8450194280E-001 -1.1038642158E+002 
3137629.537 +9.9890020562E-002 +1.5731593125E+002  +2.9660747857E-002 -3.2793679517E+001  +3.4912486781E-002 -1.6229373567E+002  +1.6267142980E+000 -1.1249467451E+002 
3262774.718 +1.2947635354E-001 +1.6539883259E+002  +9.4177459200E-003 +1.3201710339E+002  +4.1666937497E-003 -1.4621926778E+002  +3.9409937196E-001 +6.7925675422E+000 
3387919.900 +1.4454086030E-001 +1.6305841852E+002  +3.9229356260E-002 +9.6493856562E+001  +1.3734747800E-002 -4.3752299928E+001  +1.3298137408E+000 -1.8587352595E+001 
3513065.081 +1.1262518940E-001 +1.3799640923E+002  +5.1923458059E-002 +9.1628583961E+001  +4.3207337248E-002 +4.7971726020E+000  +7.1209501104E-001 -5.2022663457E+000 
3638210.263 +1.8071536633E-001 +1.4809172636E+002  +1.7361799310E-002 -7.7295823104E+001  +1.5792111494E-002 -6.2729808428E+001  +9.9411840410E-001 +1.2038370349E+002 
3763355.444 +1.3433414217E-001 +1.4402169447E+002  +5.5226289288E-003 -5.5418279656E+001  +6.8262273092E-003 -1.2150902416E+002  +2.3173304083E-001 +1.4423676047E+002 
3888500.626 +1.8771445646E-001 +1.4773960785E+002  +2.7313057849E-003 -6.5326938704E+001  +2.9310808314E-003 -2.8790607306E+001  +6.8065755222E-001 +9.7833621359E+001 
4013645.807 +1.6054328344E-001 +1.5020883381E+002  +8.2665102209E-003 -6.5745905625E+001  +8.6073541346E-003 +5.9193822712E+001  +3.2735003061E-001 +1.3915901410E+002 
4138790.989 +1.8104891889E-001 +1.4012625378E+002  +8.5075159730E-003 -5.5207710614E+001  +6.5710716992E-003 -1.2394736723E+002  +2.3208253260E-001 +1.5042168474E+002 
4263936.170 +1.7849348970E-001 +1.4988209082E+002  +2.6571301808E-002 +1.2230871448E+002  +1.7929832709E-002 +7.7040234291E+001  +8.3560529235E-001 +1.1441275991E+002 
4389081.352 +2.1085881036E-001 +1.3249616675E+002  +1.9603397720E-002 +1.5165618103E+002  +8.4339346096E-003 +1.9656772579E+001  +7.7365058326E-001 +6.5818419046E+001 
4514226.533 +2.4708985981E-001 +1.2712096450E+002  +1.4877099781E-002 -1.1711337075E+002  +1.5309967576E-002 +1.4271103414E+002  +7.6709717678E-001 +1.3366313537E+002 
4639371.715 +2.6348864205E-001 +1.3092854270E+002  +4.0601305892E-002 +1.4049315554E+002  +5.5406061206E-002 -3.3419810895E+001  +2.5549292613E+000 +1.1723189551E+002 
4764516.896 +3.3436706378E-001 +1.2362716994E+002  +8.7367670658E-002 -1.0250630485E+002  +1.4853353995E-001 -1.4150585210E+002  +7.8814917216E+000 -1.5954862974E+002 
4889662.078 +4.3467807404E-001 +1.2198265114E+002  +5.7714170677E-002 -1.7755414766E+002  +6.9340153006E-002 +1.8993470001E+001  +5.8687929156E+000 +1.7928930979E+002 
5014807.259 +3.7402246234E-001 +1.3553008400E+002  +2.1510461672E-002 +1.3592563231E+002  +4.3252948811E-002 +1.5260948568E+002  +2.7584302368E+000 +1.5855393125E+002 
5139952.441 +3.9203715910E-001 +1.3083125406E+002  +3.9583119686E-002 -1.2735737999E+002  +1.1005644244E-002 +1.3628480011E+002  +2.7276831492E+000 +1.3561228632E+002 
5265097.622 +4.1243851496E-001 +1.2309664657E+002  +1.2991436170E-002 -8.1112057616E+001  +1.5020320925E-002 +1.2623859329E+002  +1.2955482321E+000 +2.2169802426E+001 
5390242.804 +3.2384379237E-001 +1.2301089220E+002  +5.6861054859E-002 -1.7558389246E+002  +2.2753774770E-002 +1.8917993020E+001  +2.8256772042E+000 +5.8875798529E+001 
5515387.985 +4.0656416491E-001 +1.3367593497E+002  +2.0980126674E-002 +1.3828731139E+002  +2.7355279465E-002 +1.4065558167E+002  +2.7099182211E+000 +8.4817047224E+001 
5640533.166 +4.6839442958E-001 +1.3300302182E+002  +1.8566616048E-002 +9.5461964690E+001  +1.9581681449E-002 +1.3309875301E+002  +1.6584171288E+000 +7.8267936952E+001 
5765678.348 +5.0304450429E-001 +1.1230445069E+002  +9.7940646338E-003 +1.6702582377E+002  +1.3734052621E-002 +3.9801884309E+000  +1.9570265728E+000 +7.4833220006E+001 
5890823.529 +5.1738179706E-001 +1.2238652508E+002  +2.8889705146E-002 -1.1314672641E+002  +2.7936913371E-002 +1.4488141714E+002  +2.2515918054E+000 +7.9987497901E+001 
6015968.711 +6.9547203371E-001 +1.1529306601E+002  +6.7572900044E-002 -1.4867560039E+002  +6.2757108272E-002 -1.1031401892E+002  +3.1244467211E+000 +4.7312430477E+001 
6141113.892 +8.7491544758E-001 +1.1253905492E+002  +2.2599607703E-002 -1.1579303854E+002  +2.6717384546E-002 +1.0507853944E+002  +3.0034403611E+000 +1.7921918674E+001 
6266259.074 +9.6584346000E-001 +1.0563116462E+002  +2.6477421649E-002 -1.5546696635E+002  +1.9586434958E-002 -1.4622698952E+002  +1.7598168283E+000 +2.0506351516E+001 
6391404.255 +1.0409515300E+000 +1.0096919516E+002  +1.3650027230E-002 -6.4103703936E+001  +3.1751600013E-002 +1.1093195774E+002  +1.8353233869E+000 +1.4642916212E+001 
6516549.437 +1.2142618602E+000 +8.5291132873E+001  +1.8136350129E-002 +1.1651453521E+002  +3.7928938955E-002 +2.5900236543E+001  +1.4202720704E+000 +4.8579956714E+000 
6641694.618 +1.6355999098E+000 +6.8239852871E+001  +2.4858526851E-002 -1.4642747341E+002  +2.9504716337E-002 +5.1157072678E+001  +1.1707727884E+000 -1.4696356519E+001 
6766839.800 +1.3522609497E+000 +5.8920382649E+001  +2.4298467151E-002 +1.5488892401E+002  +3.1145250381E-002 +2.8066413423E+001  +1.2288925635E+000 -8.7465764840E+000 
6891984.981 +1.9389830569E+000 +2.7076456753E+001  +1.5845040052E-002 +5.9832479636E+001  +2.7376732922E-002 +7.1507809548E+001  +1.4259766359E+000 +3.4433384758E-001 
7017130.163 +2.3593394033E+000 +1.8932878069E+001  +1.3557339118E-002 +2.0492534924E+001  +2.0650195790E-002 +1.2594026845E+002  +1.4007087000E+000 -1.1250308033E+001 
7142275.344 +1.5749229782E+000 +7.2001926764E+000  +1.2427298665E-002 +1.7276216705E+002  +1.1294775639E-002 +6.9520514777E+001  +1.2978305211E+000 -1.2089746756E+001 
7267420.526 +1.5659241778E+000 +2.4123267039E+000  +1.8161842441E-002 +5.5913559273E+001  +6.3784253193E-003 +1.7863165228E+002  +1.3326159422E+000 -1.5779855860E+001 
7392565.707 +1.4340241517E+000 -7.1378547161E-001  +5.4334365265E-003 +5.2956608300E+001  +8.6475590203E-003 +1.2857949865E+002  +1.3640605040E+000 -6.3058687402E+000 
7517710.889 +1.2377758900E+000 -6.4543080365E+000  +1.4409967100E-002 +1.1759215510E+002  +1.8851132904E-003 +1.2737701703E+002  +1.2612152634E+000 -7.1257418041E+000 
7642856.070 +1.1482655805E+000 -2.3856358161E-002  +7.6034302112E-003 +1.7817294021E+002  +8.0239127964E-003 +6.5586465786E+001  +1.1535863669E+000 -4.6153367441E+000 
7768001.252 +1.0461429261E+000 +3.3687241841E+000  +5.8105873369E-003 +4.6855483785E+001  +2.6844722484E-003 +1.6692695833E+002  +1.0816432056E+000 -3.6424314074E+000 
7893146.433 +8.7250356333E-001 +2.6454001438E+000  +8.0349374832E-003 +4.3724523358E+001  +2.1216259840E-003 +1.0742512383E+002  +9.0171265970E-001 -6.5682950745E-001 
8018291.615 +7.7171590778E-001 +5.6354626976E+000  +3.7183334418E-003 -5.2785730996E+000  +1.0523404750E-002 +6.7852216719E+001  +8.5458798839E-001 -2.0500082020E+000 
8143436.796 +8.1284480667E-001 +4.0318663519E+000  +1.3947982167E-003 +1.2212560895E+002  +5.8530814778E-003 +9.1602633625E+001  +8.4226149957E-001 -5.3107724444E+000 
8268581.977 +7.3760285323E-001 +1.1579089820E+001  +6.2697664179E-003 +9.6245975918E+001  +2.6212952332E-003 +1.1497139718E+002  +7.7718158674E-001 -3.6764477788E+000 
8393727.159 +7.2107980020E-001 +7.2201315679E+000  +5.9329894358E-003 +5.9591392045E+001  +2.7864976857E-003 +1.3127812803E+002  +6.9765046704E-001 -1.5928165490E+000 
8518872.340 +6.9464733313E-001 +7.7118178127E+000  +6.7557868791E-003 +9.4852126948E+001  +2.6122026789E-003 -1.5671410906E+002  +7.6220437038E-001 -4.7170080185E-001 
8644017.522 +7.1740306397E-001 +6.1641946835E+000  +4.3426297631E-003 +1.6731959793E+002  +5.0615681024E-003 -1.7741384106E+002  +7.2748496774E-001 +4.0448548330E+000 
8769162.703 +5.9787987528E-001 +5.7440233637E+000  +4.8295519346E-003 +6.4447202775E+001  +4.6989095674E-003 +1.4971902501E+002  +6.5255968471E-001 -6.8319865227E-002 
8894307.885 +6.4068326814E-001 +6.5604722163E+000  +6.0612708422E-003 +1.0411657219E+002  +1.0770427929E-003 +8.3052989222E+001  +6.1686010670E-001 +5.1222143294E+000 
9019453.066 +6.1469756405E-001 +1.8343408517E+000  +6.1662582136E-003 +7.0495193893E+001  +4.4423251768E-003 +6.3432168868E+001  +6.1950086095E-001 -1.6702237426E+000 
9144598.248 +6.1186646580E-001 +3.4706010983E+000  +1.8689301577E-003 +1.0224246670E+002  +6.1526440554E-003 +1.1798225896E+002  +6.0496139697E-001 +3.2772219110E-001 
9269743.429 +5.6743534325E-001 +3.3606523886E+000  +4.7278094070E-003 +3.5653147195E+001  +3.3134925332E-003 +5.9860680591E+001  +5.6881517194E-001 -5.8895517098E+000 
9394888.611 +5.3139091172E-001 +4.8903200520E+000  +2.9507739864E-003 +6.8306689310E+001  +1.5301912426E-003 +1.3725971504E+002  +6.0452861985E-001 -9.2556302843E-002 
9520033.792 +5.8334328436E-001 +2.0727200102E+000  +3.9199189957E-003 +6.5288710267E+001  +4.2200907162E-003 +1.0624858974E+002  +6.2794238215E-001 -2.6168266284E+000 
9645178.974 +5.5217083552E-001 -1.8642653385E+000  +2.8805794528E-003 +9.2119302652E+001  +1.9075489330E-003 -1.1887322772E+001  +5.6160517974E-001 -7.9583170429E+000 
9770324.155 +5.5251747686E-001 +5.4610325066E-001  +1.6625454756E-003 -8.9085754587E+000  +5.2944366863E-003 +5.1328828874E+001  +6.0132078314E-001 -6.5012241609E+000 
9895469.337 +5.4713822994E-001 -1.4937145941E+000  +5.5716830730E-003 +7.9546675303E+001  +4.1835513821E-003 +1.0944206920E+002  +5.6592116937E-001 -2.5434724221E+000 
10020614.518 +5.3784042560E-001 +4.9117239702E+000  +3.4678514028E-003 +9.7104103312E+001  +3.2025955864E-003 +1.1328214107E+002  +6.2987075786E-001 -5.7949416707E+000 
10145759.700 +5.8465255759E-001 +6.6338998097E+000  +3.2517226371E-003 +1.1822629721E+002  +5.1381586050E-003 +1.0522540233E+002  +5.8216469832E-001 -6.3519576573E+000 
10270904.881 +5.4218315094E-001 +3.2143570302E+000  +7.6699424231E-003 +1.0288154864E+002  +4.7966998840E-003 +1.0853460891E+002  +5.9027569515E-001 -3.6385090754E+000 
10396050.063 +5.3693781161E-001 +4.9643527170E+000  +5.7012354749E-003 +1.0112093962E+002  +6.6426312988E-003 +8.6698660313E+001  +6.0178869212E-001 -6.0179474010E+000 
10521195.244 +5.5539703798E-001 +4.0016615319E+000  +4.5484987276E-003 +1.0453550426E+002  +5.6643283241E-003 +1.0098464846E+002  +5.8661903899E-001 -1.6066879617E+000 
10646340.426 +5.8367717944E-001 +3.1576182223E+000  +6.3500361130E-003 +6.9919883283E+001  +5.9672907723E-003 +6.5151680649E+001  +5.3216660081E-001 -1.9991073218E+000 
10771485.607 +5.8264360838E-001 +2.2976283543E+000  +3.2254563757E-003 +8.5783177567E+001  +4.2349141652E-003 +1.0130728654E+002  +5.9836462628E-001 +3.8068222485E-001 
10896630.788 +6.0045080196E-001 +6.7708325052E+000  +2.7145317368E-003 +1.3120068472E+002  +5.2596951725E-003 +9.5836449739E+001  +6.1325560168E-001 +1.0460587548E+000 
11021775.970 +5.7303120952E-001 +3.2839987458E+000  +3.2200674871E-003 +5.6444230750E+001  +5.0024266789E-003 +8.9189998868E+001  +6.2720790378E-001 -3.6887561144E+000 
11146921.151 +5.7292230151E-001 +8.5164472284E+000  +2.2449574305E-003 +9.1831319008E+001  +5.5393517615E-003 +8.6379352154E+001  +6.3605194190E-001 -3.6692069628E-001 
11272066.333 +5.8380928270E-001 +7.2191734131E+000  +4.5711067012E-003 +8.5396860608E+001  +4.8762212797E-003 +1.3449008741E+002  +6.4564468866E-001 +4.6347843331E-001 
11397211.514 +6.1515212016E-001 +4.6597182587E+000  +5.1124274227E-003 +8.2936838830E+001  +3.6187512109E-003 +1.0192232201E+002  +6.2901362912E-001 -6.4250696972E-001 
11522356.696 +5.8938067709E-001 +6.4120002864E+000  +5.2493976540E-003 +1.1539347979E+002  +4.5446070141E-003 +1.1161460388E+002  +6.4434675141E-001 +6.3390877592E-001 
11647501.877 +6.1581315581E-001 +6.1900432896E+000  +5.9391384784E-003 +7.8189412809E+001  +3.7034162427E-003 +1.3159876866E+002  +6.5466099337E-001 +4.1556461328E-001 
11772647.059 +6.4697766701E-001 +8.8203068862E+000  +4.9761225502E-003 +9.0199543739E+001  +5.9143537303E-003 +1.1335762083E+002  +6.6619055350E-001 -1.1826297852E+000 
11897792.240 +6.4417594617E-001 +3.6746165692E+000  +6.3820453974E-003 +8.5339585747E+001  +5.7565958309E-003 +1.0313339688E+002  +6.5590487952E-001 +1.8318596499E+000 
12022937.422 +6.8744209309E-001 +3.0920315921E+000  +4.1127878628E-003 +1.0872618938E+002  +5.9313294812E-003 +9.4923773398E+001  +6.9561677381E-001 -1.3515589933E+000 
12148082.603 +6.9133590780E-001 +5.9959819855E+000  +6.0318668191E-003 +8.1998779915E+001  +5.2124046561E-003 +9.7940969292E+001  +6.8993289474E-001 +1.0417427543E+000 
12273227.785 +6.8794298828E-001 +5.3641875100E+000  +4.1926443389E-003 +9.9088471927E+001  +4.3228877190E-003 +1.2308428582E+002  +6.9741197791E-001 +1.4514916565E+000 
12398372.966 +7.1916496204E-001 +2.9411202862E+000  +6.2436269187E-003 +8.8544726885E+001  +6.1496742008E-003 +9.7097432547E+001  +7.1948689761E-001 -2.2258856470E-001 
12523518.148 +7.2134864199E-001 +4.0305316230E+000  +8.2986885370E-003 +8.3683195756E+001  +5.7300573869E-003 +9.2294587839E+001  +7.2613782652E-001 -1.4184617062E+000 
12648663.329 +7.2669131834E-001 +5.6377900777E-001  +4.7634189776E-003 +1.0325906571E+002  +5.4041362506E-003 +8.4823067840E+001  +7.5202782917E-001 -9.2644359018E-001 
12773808.511 +7.4193576392E-001 +3.7144010146E-001  +5.4310350739E-003 +8.9888680733E+001  +5.9034641684E-003 +8.6299311945E+001  +7.6445592235E-001 -7.9194732826E-001 
12898953.692 +7.5918739919E-001 -5.0868406240E-001  +5.9196090636E-003 +8.5283130028E+001  +6.3659483544E-003 +9.7425610203E+001  +8.0099922670E-001 -1.3720625023E+000 
13024098.874 +7.6096469659E-001 +6.5365519532E-003  +5.0953216801E-003 +8.9392039230E+001  +4.6621308496E-003 +9.4810370412E+001  +8.0335179486E-001 -3.7056790435E+000 
13149244.055 +7.8802659997E-001 +1.4178679194E-001  +5.1359531115E-003 +9.1777866744E+001  +6.6231320041E-003 +9.6082151939E+001  +8.2725606850E-001 -9.2271653857E-001 
13274389.237 +8.1100668901E-001 -3.0220657252E+000  +7.0325129411E-003 +9.2107421606E+001  +6.3388022101E-003 +9.4903523653E+001  +8.2179353481E-001 -1.3074685481E+000 
13399534.418 +8.3188544511E-001 -2.5277133560E+000  +5.8960113138E-003 +9.9090773621E+001  +6.8130821093E-003 +1.0745366951E+002  +8.3643096039E-001 -2.2492688036E+000 
13524679.599 +8.4397022371E-001 +4.2292451060E-001  +6.3470229697E-003 +7.9918152165E+001  +6.1670816814E-003 +9.3212222289E+001  +8.5897915750E-001 -2.6427223098E+000 
13649824.781 +8.7687398292E-001 -1.2614231516E+000  +7.2989453457E-003 +8.1104955778E+001  +7.6243512430E-003 +9.3025219422E+001  +8.9337984025E-001 -2.9192583281E+000 
13774969.962 +8.8226813769E-001 -2.6397574320E+000  +6.8776887371E-003 +9.2114102572E+001  +7.2034380172E-003 +9.4364108504E+001  +9.0331143135E-001 -4.1518074199E+000 
13900115.144 +9.0848251499E-001 -2.8955440768E+000  +8.1029363553E-003 +8.6345943169E+001  +6.8635767561E-003 +9.0041414746E+001  +9.0483886429E-001 -3.6401973543E+000 
14025260.325 +9.3887309421E-001 -3.3103172381E+000  +7.2747679401E-003 +7.5122247723E+001  +6.4545345913E-003 +8.8939895571E+001  +9.3027306617E-001 -3.4639896554E+000 
14150405.507 +9.4101258249E-001 -6.1420761058E+000  +8.3794607126E-003 +9.1883567651E+001  +6.7246542134E-003 +7.8770201092E+001  +9.6687714322E-001 -4.4991979686E+000 
14275550.688 +9.6987617222E-001 -4.2831559340E+000  +6.5371384876E-003 +1.0018839276E+002  +8.1711667620E-003 +8.4573390466E+001  +9.7252136294E-001 -4.7971772938E+000 
14400695.870 +9.5308238384E-001 -4.8057174148E+000  +7.7004153376E-003 +9.1812777544E+001  +7.5548807987E-003 +8.9221659014E+001  +9.7080494479E-001 -3.6645658051E+000 
