!  2-Port S-parameters saved by WinCal
! VAR NAME=S2_r6c9_formed(0)_9k-100M_2
! VAR DATE=30/08/2024 11:43:45
! VAR FILENAME=S2_r6c9_formed(0)_9k-100M_2.S2P
! VAR MeasName=S-Parameters (CALIBRATED_DATA) read from VNA (P5004A)
! VAR MeasDate=28/08/2024 11:06:57
! VAR PHYS_PORTS=1,2
! VAR ObjTypeName=DATASET
! VAR IndexType=Frequency
!
# Hz S MA R 50
9000.000 +7.7158835586E-002 -1.6327337749E+002  +9.0213053090E-003 +3.6741777859E+001  +9.0822724338E-003 +6.6993161607E+001  +2.7628056573E-001 -1.4713131033E+002 
134145.181 +1.1165191147E-001 +1.6986579052E+002  +1.8245989911E-004 -4.6747172735E+001  +6.8090780029E-004 -1.3830704689E+002  +2.3805724459E-001 -1.7126697582E+002 
259290.363 +1.1206166671E-001 +1.6966816355E+002  +7.2696036624E-004 -7.6306479691E+001  +6.0890817186E-004 -1.7767430342E+002  +2.4245484335E-001 -1.6941936318E+002 
384435.544 +1.1454972263E-001 +1.7006975839E+002  +8.9580746169E-004 -5.1573445731E+001  +9.2207412668E-004 +1.5927712748E+002  +2.3825636019E-001 -1.6890273736E+002 
509580.726 +1.1435905350E-001 +1.7067765384E+002  +1.4937637721E-003 -9.3733045562E+001  +7.5592408394E-004 +1.5440999178E+002  +2.3301309082E-001 -1.6591591881E+002 
634725.907 +1.1745619895E-001 +1.7132577887E+002  +1.3042447466E-003 -7.4436490143E+001  +2.4600162139E-003 +9.0156047122E+001  +2.5197577148E-001 -1.6620922190E+002 
759871.089 +1.1959126130E-001 +1.7106389581E+002  +8.5204481755E-004 -1.1870375544E+002  +1.3217517201E-003 +8.5230274078E+001  +2.5411016821E-001 -1.6647120581E+002 
885016.270 +1.1943055864E-001 +1.6869832078E+002  +8.8406671251E-004 -5.1119810253E+001  +1.0875593571E-003 +1.6530171605E+002  +2.4355416855E-001 -1.6873100821E+002 
1010161.452 +1.1969327140E-001 +1.6939042587E+002  +3.2267526210E-003 +1.3874194790E+000  +3.4405414009E-003 -1.5311192752E+002  +2.0972450525E-001 -1.6436794674E+002 
1135306.633 +1.1818260612E-001 +1.6914731467E+002  +4.0707427283E-003 +3.3145653827E+001  +3.8662633107E-003 -1.4701503838E+002  +1.9100322205E-001 -1.6847167396E+002 
1260451.815 +1.2120667532E-001 +1.7121481771E+002  +5.1600503026E-003 -3.8363409458E+001  +5.3457744669E-003 +1.3662668672E+002  +2.4359899820E-001 -1.5225348567E+002 
1385596.996 +1.2758337442E-001 +1.7283094908E+002  +2.8128243077E-003 -8.6241302048E+001  +3.0310748777E-003 +1.0311672893E+002  +2.7343436102E-001 -1.5822754714E+002 
1510742.178 +1.2988316464E-001 +1.7137095914E+002  +1.7217852180E-003 -5.1236553035E+001  +2.1475773450E-003 +1.7485594705E+002  +2.5750610908E-001 -1.5777700947E+002 
1635887.359 +1.2775428854E-001 +1.7092678058E+002  +2.0724313770E-003 -3.7106647473E+001  +2.5801371404E-003 -1.4930094264E+002  +2.5008027201E-001 -1.5766789011E+002 
1761032.541 +1.2778854042E-001 +1.7024573055E+002  +3.4234301936E-003 +4.0505878956E+001  +3.6364035789E-003 -1.4567679351E+002  +2.4271504825E-001 -1.5774532548E+002 
1886177.722 +1.2465015195E-001 +1.6991132593E+002  +6.5858503238E-003 +4.2909655251E+001  +6.3087720062E-003 -8.4670095636E+001  +2.3441221151E-001 -1.5966960304E+002 
2011322.904 +1.2907970394E-001 +1.6980214966E+002  +9.8436074891E-003 +7.1334311666E+001  +1.0159658862E-002 -7.8481646107E+001  +2.1324227266E-001 -1.6150503403E+002 
2136468.085 +1.3299232411E-001 +1.6620793398E+002  +2.0096367747E-002 +1.0405576288E+002  +2.1227082916E-002 -3.8519764174E+001  +1.6386491294E-001 +1.7944004783E+002 
2261613.267 +1.3317226340E-001 +1.6941360582E+002  +2.0975414167E-002 +4.9165982195E+001  +2.2905818169E-002 -7.8196539884E+001  +1.7111294979E-001 -1.4940881177E+002 
2386758.448 +1.4077240725E-001 +1.6761510347E+002  +1.7442032336E-002 +8.7140591005E+001  +1.8654771068E-002 -3.1634952606E+001  +2.1320379032E-001 -1.7638251263E+002 
2511903.630 +1.3476177815E-001 +1.6545648298E+002  +4.3483117391E-002 +8.5967408462E+001  +4.5970896717E-002 -3.0541380873E+001  +1.3629526742E-001 +1.5646944748E+002 
2637048.811 +1.3307718960E-001 +1.6553112802E+002  +4.6988457392E-002 +6.7101114799E+001  +4.6655134567E-002 -4.0406393135E+001  +1.2338072886E-001 -1.7302701523E+002 
2762193.992 +1.3189168678E-001 +1.7340050981E+002  +4.7906451283E-002 +2.6730460858E+001  +5.6746185731E-002 -7.7384580798E+001  +1.4752159757E-001 -1.4577516437E+002 
2887339.174 +1.3294438343E-001 -1.6611483346E+002  +1.6344397151E-001 +6.9578006014E+000  +1.7363824715E-001 -9.7161283775E+001  +2.8221684605E-001 -3.2933130441E+001 
3012484.355 +1.4648569834E-001 +1.7285257816E+002  +7.1806423620E-002 -1.5325465799E+001  +7.0717478683E-002 -1.1515435989E+002  +3.2693895384E-001 -1.0338275864E+002 
3137629.537 +1.4835273522E-001 +1.7435895192E+002  +4.3812759535E-002 +1.3923395649E+001  +4.6515544622E-002 -8.4245502780E+001  +1.7659182201E-001 -1.3935392683E+002 
3262774.718 +1.4254384930E-001 +1.6948522066E+002  +5.5321994404E-002 +4.1783566512E+001  +5.3899124328E-002 -4.7312288731E+001  +1.3551442218E-001 -1.6573978909E+002 
3387919.900 +1.2763504954E-001 +1.7379377250E+002  +8.3547810264E-002 +2.0130958010E+001  +8.2004111722E-002 -5.9749401611E+001  +1.0592545375E-001 -1.2449483260E+002 
3513065.081 +1.2191767790E-001 +1.4545098249E+002  +1.5632508295E-001 +8.1563963830E+001  +1.5690887621E-001 -4.9316526426E+000  +2.8873613028E-001 +1.0005375619E+002 
3638210.263 +1.6480985632E-001 +1.3976159107E+002  +2.3101316261E-001 +1.1895897126E+002  +2.2167814713E-001 +3.1531894598E+001  +7.5732401531E-001 +1.1637067758E+002 
3763355.444 +1.7445191611E-001 +1.5888361297E+002  +5.4577887339E-002 +9.6899527928E+001  +5.5057193915E-002 +2.0511421682E+001  +3.0782843395E-001 +1.6689317823E+002 
3888500.626 +1.7503975367E-001 +1.5660702948E+002  +7.1636639922E-002 +8.9090608225E+001  +7.3857919945E-002 +1.5473556276E+001  +2.7068692243E-001 +1.5761046893E+002 
4013645.807 +1.3903583702E-001 +1.6546794427E+002  +1.0373420615E-001 +6.4866806523E+001  +1.1016130159E-001 -5.8098781258E+000  +2.7783629372E-001 +1.4299602688E+002 
4138790.989 +1.7538137890E-001 +1.5222432859E+002  +1.2143485523E-001 +9.1417876615E+001  +1.1465456352E-001 +2.2169822750E+001  +3.6172965184E-001 +1.3670181272E+002 
4263936.170 +1.8053559871E-001 +1.4833607926E+002  +1.2543614052E-001 +9.3487362713E+001  +1.2298910175E-001 +3.1117392119E+001  +3.9251269619E-001 +1.4518907093E+002 
4389081.352 +1.9860710428E-001 +1.5555902766E+002  +9.1404573456E-002 +9.2889374513E+001  +8.6107387404E-002 +3.0588654995E+001  +3.8481419403E-001 +1.5661042437E+002 
4514226.533 +2.2232730103E-001 +1.4403613271E+002  +1.4187455114E-001 +1.0919092467E+002  +1.3656744013E-001 +5.4360336034E+001  +5.0132965624E-001 +1.4913984725E+002 
4639371.715 +2.3287592140E-001 +1.2835712623E+002  +2.6810223954E-001 +9.9470526182E+001  +2.6320267463E-001 +4.3889711063E+001  +6.3268854623E-001 +1.1787344943E+002 
4764516.896 +1.8113076484E-001 +1.2236511349E+002  +2.9797197037E-001 +7.6253033309E+001  +2.8796609829E-001 +2.4599106000E+001  +5.5825333161E-001 +1.0113695765E+002 
4889662.078 +4.0194929506E-001 +1.4011648215E+002  +5.3456161311E-001 +1.4545565644E+002  +4.9691496706E-001 +9.8796631075E+001  +1.8691990630E+000 +1.3308119668E+002 
5014807.259 +2.8733838578E-001 +1.1704471069E+002  +3.8866009213E-001 +1.0739251248E+002  +3.8859501917E-001 +6.4104834436E+001  +1.0568838893E+000 +1.2952969235E+002 
5139952.441 +3.7436523069E-001 +1.3144753170E+002  +3.9263815139E-001 +1.2669193482E+002  +3.6357162391E-001 +8.6622547869E+001  +1.1916901293E+000 +1.3585144811E+002 
5265097.622 +3.1436486282E-001 +1.3605942907E+002  +2.9160300735E-001 +1.0465482330E+002  +2.8653870735E-001 +6.4198314730E+001  +9.5630393357E-001 +1.2309834977E+002 
5390242.804 +3.8392368964E-001 +1.3176391618E+002  +4.1475127234E-001 +1.2251335559E+002  +4.1304946242E-001 +8.7822690389E+001  +1.5213841912E+000 +1.3550372751E+002 
5515387.985 +3.5253498225E-001 +1.3371145220E+002  +2.3624802971E-001 +1.0370390664E+002  +2.3314897309E-001 +6.9319229905E+001  +7.6986816537E-001 +1.4344218521E+002 
5640533.166 +3.1671984248E-001 +1.3315893936E+002  +2.6160780197E-001 +7.6980427767E+001  +2.4665269906E-001 +4.6817193475E+001  +6.0989632447E-001 +1.2162686187E+002 
5765678.348 +4.2698140428E-001 +1.3125468831E+002  +3.4391807258E-001 +9.6232456756E+001  +3.3771936239E-001 +6.7583772769E+001  +1.0036945954E+000 +1.1673882442E+002 
5890823.529 +4.0769344250E-001 +1.1898870048E+002  +4.7881171033E-001 +7.8882413561E+001  +4.5407874169E-001 +5.3873501744E+001  +1.2213273120E+000 +9.9159653917E+001 
6015968.711 +4.5256375318E-001 +1.2336933365E+002  +3.9130570043E-001 +7.9731912145E+001  +3.8368144085E-001 +5.7717088353E+001  +9.8026550832E-001 +1.0601112046E+002 
6141113.892 +5.1635569418E-001 +1.1659703091E+002  +4.8032245201E-001 +6.9205157002E+001  +4.7295126678E-001 +4.8124907929E+001  +9.8957384836E-001 +8.1026635415E+001 
6266259.074 +5.0319288206E-001 +9.9190157654E+001  +7.2083262868E-001 +5.7650952429E+001  +6.9692741085E-001 +3.9147045135E+001  +1.6794938920E+000 +6.8961664860E+001 
6391404.255 +4.8675975846E-001 +9.9653893974E+001  +6.1509123577E-001 +5.2927648510E+001  +5.9976751015E-001 +3.7636673007E+001  +1.3120329532E+000 +7.3899316806E+001 
6516549.437 +5.1445375827E-001 +8.3445117052E+001  +6.2766112709E-001 +3.5273866758E+001  +6.3546173743E-001 +2.2032021587E+001  +9.5631309248E-001 +4.8159162471E+001 
6641694.618 +4.6301184704E-001 +8.2372630211E+001  +5.8534182906E-001 +2.6561051267E+001  +5.6090736693E-001 +1.4183426052E+001  +7.4691966441E-001 +3.4323999488E+001 
6766839.800 +6.3022374022E-001 +6.4211813923E+001  +6.4802729523E-001 +2.3193145992E+001  +6.5337475198E-001 +1.2865945938E+001  +7.2761519520E-001 +2.6474969723E+001 
6891984.981 +6.3416501548E-001 +4.5060370447E+001  +6.7153482692E-001 +1.4588207099E+001  +6.7212225419E-001 +7.2812702630E+000  +7.5998405323E-001 +2.3084811406E+001 
7017130.163 +7.6620101128E-001 +3.7250668284E+001  +6.7877008786E-001 +1.1591562865E+001  +6.7996530642E-001 +6.4172206262E+000  +7.2717948543E-001 +1.5403528313E+001 
7142275.344 +6.0579184106E-001 +1.7276836827E+001  +6.2316113014E-001 +1.8441268879E+000  +6.3576333695E-001 -2.2436243430E+000  +8.6003787816E-001 -6.6090665453E+000 
7267420.526 +6.9715695853E-001 +1.3068897474E+001  +5.9754457936E-001 +4.0244028718E+000  +5.7625216687E-001 +3.0123788954E+000  +6.8664226101E-001 +7.1714239713E+000 
7392565.707 +6.9856388339E-001 +3.1278090988E+000  +5.5617097054E-001 +4.0379929083E+000  +5.5403401392E-001 +4.8232899495E+000  +7.4104128858E-001 -5.8423308001E+000 
7517710.889 +5.1725079720E-001 +1.1377231449E+001  +5.0631068172E-001 +2.4970298660E+000  +5.0581818797E-001 +4.5560854250E+000  +6.1315047191E-001 -1.2576084058E+000 
7642856.070 +5.0319004789E-001 +1.7026101786E+001  +4.7748725495E-001 +8.7974975972E-001  +4.7761225346E-001 +3.6211879249E+000  +4.3136079735E-001 +1.4196105811E+000 
7768001.252 +4.6814414748E-001 +1.8232581684E+001  +4.5807178259E-001 +2.5688122241E-001  +4.6497167682E-001 +5.2530323664E+000  +4.4259578384E-001 +7.6036070052E+000 
7893146.433 +3.9213488255E-001 +1.9356163121E+001  +4.4024491890E-001 -1.1029988400E+000  +4.4313818565E-001 +5.4095261146E+000  +3.9229047040E-001 +1.4727892620E+001 
8018291.615 +3.8698699336E-001 +2.4501524301E+001  +4.3609926869E-001 -2.1320887813E+000  +4.4032003461E-001 +5.7747612068E+000  +3.9115285757E-001 +2.2914415690E+000 
8143436.796 +4.0085714419E-001 +1.2542840712E+001  +4.2765031436E-001 -3.1789758286E+000  +4.2632879870E-001 +5.0358545708E+000  +2.6673636383E-001 +1.7264463567E+001 
8268581.977 +2.9040183784E-001 +3.5811681711E+001  +4.0987526192E-001 -4.3664612218E+000  +4.0520479171E-001 +5.8908888685E+000  +2.9750145921E-001 +1.8575493943E+001 
8393727.159 +2.9337284559E-001 +1.8672592206E+001  +4.1090619990E-001 -4.6977862510E+000  +4.1258767318E-001 +6.8673553073E+000  +2.9628823036E-001 +1.1652614179E+001 
8518872.340 +2.8138714039E-001 +3.3739866434E+001  +3.9643449192E-001 -3.9124032045E+000  +3.9655925556E-001 +7.4446447430E+000  +2.9605943698E-001 +2.8514798257E+001 
8644017.522 +2.5408014034E-001 +3.1795003171E+001  +3.9091112495E-001 -5.4340519962E+000  +3.8906219815E-001 +7.9350918859E+000  +2.9146905853E-001 +2.8287984145E+001 
8769162.703 +2.0555956375E-001 +4.3744228200E+001  +3.8741315936E-001 -5.9142681843E+000  +3.8303460114E-001 +7.1652587767E+000  +2.4408479176E-001 +3.0236959367E+001 
8894307.885 +2.4094836380E-001 +4.4638396048E+001  +3.7807383685E-001 -5.3605363418E+000  +3.7776023207E-001 +8.6797735839E+000  +3.2492312090E-001 +2.4630550464E+001 
9019453.066 +2.2850560854E-001 +3.7822769177E+001  +3.8581466057E-001 -6.3592359650E+000  +3.8010277572E-001 +8.3126022362E+000  +2.4029333133E-001 +2.3705853652E+001 
9144598.248 +1.9893947574E-001 +2.9196097694E+001  +3.8967612272E-001 -6.3380718698E+000  +3.8784580683E-001 +8.1583212565E+000  +1.9005526048E-001 +1.7756673336E+001 
9269743.429 +1.3887325654E-001 +2.6041849517E+001  +3.8514938173E-001 -6.9264269299E+000  +3.8211493772E-001 +7.8487038200E+000  +1.9475300085E-001 +2.4036520606E+001 
9394888.611 +1.8474717706E-001 +4.2251488271E+001  +3.7727356342E-001 -6.8315428288E+000  +3.7408963296E-001 +8.7464460510E+000  +1.7832129040E-001 +2.8394845676E+001 
9520033.792 +1.2094930396E-001 +3.0695512482E+001  +3.8617928493E-001 -6.8211197104E+000  +3.8416280631E-001 +8.5840950694E+000  +1.9700287481E-001 +1.8909137564E+001 
9645178.974 +1.6260616967E-001 +3.2639605558E+001  +3.8034879807E-001 -6.7000793257E+000  +3.8063857709E-001 +9.2567345277E+000  +1.8578594881E-001 +2.7743240284E+001 
9770324.155 +1.1526542238E-001 +2.1754004264E+001  +3.8977366297E-001 -7.2969050583E+000  +3.8358779469E-001 +8.6014335568E+000  +1.6738677019E-001 +5.3543310599E+000 
9895469.337 +1.4585833202E-001 +2.6885885679E+001  +3.8451615606E-001 -6.9366027858E+000  +3.8547267720E-001 +9.1016782469E+000  +1.4370682814E-001 +6.9924913655E+000 
10020614.518 +1.8637956205E-001 +3.2342948652E+001  +3.8660464712E-001 -6.7451240953E+000  +3.8380928359E-001 +9.5830834227E+000  +1.3284467048E-001 +3.1808024652E+001 
10145759.700 +1.4862721740E-001 +3.7091376845E+001  +3.8732027324E-001 -6.0963865235E+000  +3.8323725737E-001 +9.7128696975E+000  +1.9535717519E-001 +2.4468370328E+001 
10270904.881 +1.7767002510E-001 +2.4104319680E+001  +3.8632116010E-001 -6.1494259729E+000  +3.8709991185E-001 +9.6878763527E+000  +1.7468250773E-001 +3.3362693781E+001 
10396050.063 +1.9559665348E-001 +3.1776030553E+001  +3.9171554130E-001 -5.5329697718E+000  +3.8671148353E-001 +1.0367576414E+001  +1.7689712942E-001 +1.6054485206E+001 
10521195.244 +2.0684574257E-001 +3.5256627074E+001  +3.8787392925E-001 -4.5830533234E+000  +3.8781593349E-001 +1.0927746232E+001  +1.8409522952E-001 +2.0832581592E+001 
10646340.426 +1.8188839733E-001 +3.1712046764E+001  +3.9584797770E-001 -4.6693290018E+000  +3.8712620727E-001 +1.0070716357E+001  +2.0654443898E-001 +2.2675565636E+001 
10771485.607 +1.7593902370E-001 +3.7758770269E+001  +3.9565655776E-001 -4.5722758360E+000  +3.9267509431E-001 +1.0456975216E+001  +2.1668835510E-001 +1.7270894024E+001 
10896630.788 +2.2869923312E-001 +3.2280458753E+001  +3.9447847867E-001 -3.8510222877E+000  +3.9137119003E-001 +1.0109525641E+001  +2.1421032143E-001 +3.1223136303E+001 
11021775.970 +1.9309568233E-001 +3.4415571415E+001  +3.9802685222E-001 -3.7293241886E+000  +3.9429919990E-001 +9.8035384547E+000  +2.2728784633E-001 +3.3766373950E+001 
11146921.151 +2.1285357824E-001 +3.0880847582E+001  +4.0194796287E-001 -3.3956928384E+000  +3.9668378882E-001 +1.0083019828E+001  +2.2655176594E-001 +3.1669088464E+001 
11272066.333 +2.1576989135E-001 +3.1404315384E+001  +4.0639598555E-001 -3.1077546868E+000  +4.0131683474E-001 +9.7680966266E+000  +2.0788910056E-001 +1.9233276572E+001 
11397211.514 +2.3617558695E-001 +3.8818595303E+001  +4.0418437922E-001 -2.0884188831E+000  +4.0081870354E-001 +9.8904216692E+000  +2.5342365842E-001 +2.3590042658E+001 
11522356.696 +2.0263339777E-001 +3.3276754961E+001  +4.0965133825E-001 -2.7240163678E+000  +4.0549296661E-001 +8.9410899761E+000  +2.2761976395E-001 +2.3211009260E+001 
11647501.877 +2.3840997241E-001 +2.1015729127E+001  +4.1757697392E-001 -2.2017554701E+000  +4.1439866838E-001 +9.3546568319E+000  +2.3313620946E-001 +2.0465249498E+001 
11772647.059 +2.4377025457E-001 +2.5398782645E+001  +4.2087634118E-001 -1.6471837141E+000  +4.1656650166E-001 +8.9906473731E+000  +2.3587242795E-001 +1.9433739322E+001 
11897792.240 +2.3662637901E-001 +2.0770809164E+001  +4.2731335137E-001 -1.4134572368E+000  +4.2077855846E-001 +8.9034104703E+000  +2.5251032301E-001 +1.8453228597E+001 
12022937.422 +2.4469947873E-001 +2.0487633895E+001  +4.2624511722E-001 -1.3417934745E+000  +4.2227682669E-001 +8.5599214120E+000  +2.6149182069E-001 +2.2785426849E+001 
12148082.603 +2.4049242208E-001 +1.8163917296E+001  +4.3170181343E-001 -1.0397619119E+000  +4.3043069062E-001 +7.7403683699E+000  +2.6604175938E-001 +1.8569932895E+001 
12273227.785 +2.7617907002E-001 +1.9656843471E+001  +4.3644443071E-001 -4.3028837008E-001  +4.3499503311E-001 +7.8108284643E+000  +2.6083781774E-001 +1.5100556369E+001 
12398372.966 +2.6116925560E-001 +1.9275823697E+001  +4.4017060845E-001 -5.8761725641E-001  +4.3765054498E-001 +7.0994025447E+000  +2.5366211703E-001 +1.7762055666E+001 
12523518.148 +2.8449986457E-001 +1.3769055162E+001  +4.4908746349E-001 -1.4575028809E-001  +4.4377763402E-001 +6.9855999505E+000  +2.7014109909E-001 +1.5770972715E+001 
12648663.329 +2.7420768891E-001 +1.3377606084E+001  +4.5320225011E-001 +6.0076580869E-003  +4.4801191280E-001 +6.5051610298E+000  +2.9213588661E-001 +1.0821263661E+001 
12773808.511 +2.9180228079E-001 +1.4799243267E+001  +4.5638463318E-001 -7.7485747688E-003  +4.5190151341E-001 +6.0647368283E+000  +2.8442046480E-001 +9.4467761898E+000 
12898953.692 +3.0248304234E-001 +1.0633168435E+001  +4.6299905500E-001 +7.3615904010E-001  +4.5790039684E-001 +6.3307916103E+000  +3.2397176524E-001 +8.3540696498E+000 
13024098.874 +2.9954188749E-001 +1.0249218914E+001  +4.6817783037E-001 +1.3891543080E-001  +4.6294623920E-001 +5.2736602470E+000  +3.0307289995E-001 +6.2092059173E+000 
13149244.055 +3.2106600344E-001 +3.4165245442E+000  +4.7435768745E-001 +7.1454897878E-001  +4.6770832154E-001 +5.1628122218E+000  +3.2087526601E-001 +8.9442191064E+000 
13274389.237 +3.5009284343E-001 +4.4622893236E+000  +4.7758311121E-001 +9.5929235748E-001  +4.7454790156E-001 +4.9518264880E+000  +3.3306358283E-001 +6.0321557116E+000 
13399534.418 +3.5892301557E-001 +5.4421297900E+000  +4.8311953099E-001 +1.4084173135E+000  +4.7761974171E-001 +4.7015720003E+000  +3.6827294234E-001 +3.3564577766E+000 
13524679.599 +3.5193306700E-001 +7.6926652185E+000  +4.8256010524E-001 +1.2925796305E+000  +4.7842217189E-001 +4.1568961634E+000  +3.6843082336E-001 +1.5507850862E+000 
13649824.781 +3.6971760823E-001 +8.7673162217E-001  +4.9265342095E-001 +1.0364740422E+000  +4.8941411483E-001 +3.5080645041E+000  +3.6119329478E-001 -2.0136543796E-001 
13774969.962 +3.9480472710E-001 +1.2402141697E+000  +4.9494250122E-001 +1.5990706588E+000  +4.9047025041E-001 +3.6354574058E+000  +3.9565033627E-001 +1.2935602185E+000 
13900115.144 +4.0196995049E-001 -6.2457483257E-001  +5.0010836204E-001 +1.3223509678E+000  +4.9578996618E-001 +2.7353543269E+000  +3.7654371558E-001 -1.9675762683E-001 
14025260.325 +4.0953859503E-001 +1.0050021630E+000  +5.0218119396E-001 +1.2978381438E+000  +4.9816837434E-001 +2.3821950053E+000  +4.0319164976E-001 -2.2751587383E+000 
14150405.507 +4.1625368866E-001 -3.3720440621E+000  +5.0830065007E-001 +8.9731711811E-001  +5.0473261899E-001 +2.0128878645E+000  +4.0573642843E-001 -3.1605197305E+000 
14275550.688 +4.3231692311E-001 -1.4662601522E+000  +5.1083371584E-001 +1.2594872657E+000  +5.0449443459E-001 +1.8890906190E+000  +4.4155623694E-001 -3.0799691885E+000 
14400695.870 +4.4494194103E-001 -5.1699813120E+000  +5.1707168080E-001 +8.4806902416E-001  +5.1054727075E-001 +1.6754243931E+000  +4.5427646306E-001 -3.3667793366E+000 
