!  2-Port S-parameters saved by WinCal
! VAR MeasName=S-Parameters (CALIBRATED_DATA) read from VNA (P5004A)
! VAR MeasDate=27/08/2024 12:23:29
! VAR NAME=S2_r2c9_pristine_9k-100M_1
! VAR FILENAME=S2_r2c9_pristine_9k-100M_1.S2P
! VAR DATE=27/08/2024 12:23:29
! VAR PHYS_PORTS=1,2
! VAR ObjTypeName=DATASET
! VAR IndexType=Frequency
!
# Hz S MA R 50
9000.000 +6.1027461191E-002 +1.6124522136E+002  +4.8433545462E-003 -1.1499519852E+002  +7.5847106514E-003 +7.8464609590E+001  +2.7421676927E-001 -1.3006340051E+002 
134145.181 +1.1110121982E-001 +1.6984618697E+002  +4.2410265680E-004 +1.1515195376E+002  +4.8337646607E-004 -1.7319015293E+002  +2.4320624038E-001 -1.7069340322E+002 
259290.363 +1.1163640244E-001 +1.6973175552E+002  +4.4600829448E-004 -1.6011121699E+002  +1.1989575177E-003 +8.9207706018E+001  +2.4830074155E-001 -1.6807198454E+002 
384435.544 +1.1252587323E-001 +1.7022988876E+002  +5.8816298291E-004 -1.3536576902E+002  +4.0194483231E-004 -6.4133642867E+001  +2.3896083163E-001 -1.7063946047E+002 
509580.726 +1.1367167806E-001 +1.7026392045E+002  +2.4799946624E-004 -7.0364983903E+001  +5.2436217811E-004 -1.7565729147E+002  +2.4307714165E-001 -1.6638768240E+002 
634725.907 +1.1624015354E-001 +1.7012545924E+002  +4.8179555582E-004 +1.2413924032E+002  +1.1471429860E-003 -1.7557375003E+002  +2.4025887024E-001 -1.6185333048E+002 
759871.089 +1.1684151324E-001 +1.7065585693E+002  +2.7987889381E-004 +7.4107714471E+001  +3.4975714558E-004 +1.6014980176E+002  +2.3908414745E-001 -1.6463564464E+002 
885016.270 +1.1684911430E-001 +1.6948574343E+002  +5.8521774525E-004 -6.8274295014E+001  +5.0226827129E-004 -6.4473660966E+001  +2.4393259988E-001 -1.6565878072E+002 
1010161.452 +1.1928747493E-001 +1.7070608302E+002  +9.1245708189E-004 +9.2293864871E+001  +2.6363377787E-003 +7.8512385294E+001  +1.6111290093E-001 -1.6523138255E+002 
1135306.633 +1.1583811669E-001 +1.7137707783E+002  +2.5300918858E-003 +2.8669141202E+001  +2.9073988942E-003 -8.7731145555E+001  +1.5039138620E-001 -1.6570608267E+002 
1260451.815 +1.1839475473E-001 +1.7222224387E+002  +1.3205488994E-003 +9.4715078832E+000  +1.9834604855E-003 -1.0733955372E+002  +2.6573092018E-001 -1.5355010924E+002 
1385596.996 +1.2717758564E-001 +1.7158666452E+002  +4.8668649110E-004 +1.4401862028E+002  +1.4979155577E-003 -2.7830598843E+001  +2.7706667493E-001 -1.5489460314E+002 
1510742.178 +1.2646092202E-001 +1.7150976614E+002  +4.7492338066E-004 -1.4713243137E+002  +5.7122418343E-004 +1.0003416184E+002  +2.4865461395E-001 -1.6076566811E+002 
1635887.359 +1.2506319022E-001 +1.7020119027E+002  +7.5884365762E-004 -1.1756323394E+002  +7.2064315296E-004 -4.9564367944E+001  +2.4497615434E-001 -1.5455239836E+002 
1761032.541 +1.2797824232E-001 +1.7025035293E+002  +7.0402031797E-004 -4.1805265235E+000  +1.5948561528E-003 +1.3772896309E+002  +2.3373380730E-001 -1.6047624553E+002 
1886177.722 +1.2999697242E-001 +1.6847074154E+002  +1.6746712558E-003 +7.7634158327E+001  +2.0269146718E-003 -7.5581303259E+001  +1.8280390613E-001 -1.6634032956E+002 
2011322.904 +1.3421510797E-001 +1.6630417224E+002  +2.0855843357E-003 -1.3978784669E+002  +1.4975658016E-003 -7.5624013061E+001  +1.9667558511E-001 +1.7726967532E+002 
2136468.085 +1.2407292106E-001 +1.6739883965E+002  +5.5210880178E-003 -1.3796117710E+002  +6.3432874387E-003 +1.1829661857E+002  +4.5085888513E-001 +1.4242443012E+002 
2261613.267 +1.2762810375E-001 +1.6171098723E+002  +2.6092518420E-003 -1.5081232284E+002  +2.3961862165E-003 +6.7587106007E+001  +1.3856879664E-001 -1.7046320007E+002 
2386758.448 +1.4013191877E-001 +1.6099073040E+002  +6.1023920434E-003 +8.6478860956E+001  +6.2002523918E-003 +9.5189146315E+001  +5.6293563597E-002 -1.7089740939E+002 
2511903.630 +1.3594514377E-001 +1.5908593104E+002  +3.8468160897E-003 +5.6303557592E+001  +4.4501512230E-004 -1.0699910969E+002  +2.4597428300E-001 +1.6945500133E+002 
2637048.811 +1.1544299461E-001 +1.5673730879E+002  +1.5269444128E-003 +7.4519365960E+000  +6.1647865981E-003 -9.3490446461E+001  +4.4836069179E-001 +1.5282910666E+002 
2762193.992 +9.6278552489E-002 +1.5567733876E+002  +6.5947606627E-003 +1.2331803800E+002  +1.1792254737E-002 +6.1261645603E+001  +7.0649882264E-001 -1.7029367955E+002 
2887339.174 +8.8235097031E-002 -1.7230791675E+002  +1.1163780534E-002 -8.4032373629E+001  +7.1556039521E-003 +1.5913526466E+002  +6.5639592624E-001 -1.2931636334E+002 
3012484.355 +8.8652663433E-002 +1.7852622896E+002  +1.1266176314E-002 -4.5082066961E+001  +4.0205822195E-003 -1.4543767482E+002  +3.5425005218E-001 -6.4431611134E+001 
3137629.537 +1.0102857121E-001 +1.7721824807E+002  +1.2066869343E-002 -1.6992548475E+002  +1.9557115577E-002 +6.2693697266E+001  +3.9760891449E-001 +3.5513537270E+001 
3262774.718 +1.2712755212E-001 -1.7808141766E+002  +9.9087636866E-003 +6.7936002249E+001  +2.4826206850E-003 +3.2370358264E+001  +2.5533301680E-002 +1.5233870874E+002 
3387919.900 +1.4244778928E-001 +1.4265639777E+002  +2.2603401022E-002 -3.0722165984E+001  +1.8895957547E-002 -1.4152259549E+002  +1.6987773263E+000 -4.1378105424E+001 
3513065.081 +1.4001359075E-001 +1.3349810501E+002  +1.6639378360E-002 -9.2905192941E+001  +1.5739582503E-002 -4.2893976808E+001  +5.3390029019E-001 -3.5954496156E+001 
3638210.263 +1.7638524618E-001 +1.4157602028E+002  +8.2425565056E-003 -1.0332720053E+002  +1.5156325601E-002 -6.5695808479E+000  +4.5749470252E-001 +7.9053131958E+001 
3763355.444 +1.5718896165E-001 +1.4556591731E+002  +4.4250462067E-003 +1.1274578097E+002  +1.5720459492E-002 -8.7761858778E+001  +3.5591084436E-001 +8.8235109238E+001 
3888500.626 +1.2933329499E-001 +1.4349612498E+002  +4.3020615544E-003 -2.4465901381E+001  +1.4980521279E-003 -5.2494737924E+001  +1.8499413508E-001 +1.3810832812E+002 
4013645.807 +1.8217087304E-001 +1.4522438636E+002  +6.7484280617E-003 +1.0021016371E+002  +5.5629153843E-003 -1.2945434855E+002  +3.4671207627E-001 +1.1000989329E+002 
4138790.989 +1.4293665540E-001 +1.4675410128E+002  +4.9972105228E-003 -1.0032252991E+002  +8.0389170776E-003 -1.7434431187E+002  +2.4129655994E-001 +1.5108157812E+002 
4263936.170 +2.0546255635E-001 +1.3987065148E+002  +1.3272049745E-002 -7.5481340881E+001  +2.0278234547E-002 -1.0817906548E+002  +5.9908520884E-001 +9.5153888602E+001 
4389081.352 +2.2797743504E-001 +1.3500138496E+002  +7.9172181119E-003 +2.9631222849E+001  +7.3900841174E-003 -1.6662532811E+002  +8.9579452472E-001 +1.0017965708E+002 
4514226.533 +2.3785380348E-001 +1.2338462685E+002  +6.0466902135E-003 -1.3814016807E+001  +1.0889210448E-002 -1.2449924548E+002  +8.7982928114E-001 +1.4092909764E+002 
4639371.715 +2.8308542986E-001 +1.4405452742E+002  +4.2233520186E-002 -1.1483571138E+002  +4.6168792718E-002 +1.1420423528E+002  +2.7675466303E+000 +8.8497710101E+001 
4764516.896 +2.7633440308E-001 +1.3618746777E+002  +1.6211459312E-002 +1.1231949456E+002  +6.2648433793E-003 -8.4470584215E+001  +1.8421701686E+000 +1.7141143709E+002 
4889662.078 +3.6126900951E-001 +1.3206416668E+002  +2.7366577220E-002 +9.8846345649E+001  +4.6081903983E-003 +8.4957056838E+001  +2.6317641982E+000 -9.6909179793E+001 
5014807.259 +4.3920502097E-001 +1.3196182223E+002  +2.9655400769E-002 +2.6207758874E+001  +3.8211259939E-002 +1.5895502527E+002  +3.3520972977E+000 +7.0759474669E+001 
5139952.441 +3.8635415824E-001 +1.2767461992E+002  +4.2203076255E-002 -1.6826062622E+002  +3.8715026356E-002 -4.2537339389E+001  +2.0814080026E+000 -1.3442660817E+001 
5265097.622 +3.5902921487E-001 +1.2681094687E+002  +2.0301252626E-002 -3.2349217139E+001  +1.1715344089E-002 -1.6388468438E+002  +3.5742119017E+000 +1.5497428129E+002 
5390242.804 +4.9546405042E-001 +1.2520888360E+002  +2.5237607358E-002 -6.4722971992E+001  +2.8488654117E-002 +1.1178814198E+002  +3.8263226700E+000 +1.0997227621E+002 
5515387.985 +4.9755388315E-001 +1.2261480673E+002  +1.1038565780E-002 -7.6773060262E+001  +7.6674062990E-003 -6.0660961347E+001  +1.2733007993E+000 +7.9939587365E+001 
5640533.166 +5.0748337062E-001 +1.1900141560E+002  +1.2368021914E-002 +1.3102016090E+002  +2.2460615648E-002 +9.5007526456E+001  +8.9210201723E-001 +8.2832845975E+001 
5765678.348 +6.2084995916E-001 +1.1731014514E+002  +1.3782350925E-002 -1.6169512868E+002  +5.4939144384E-002 +4.8617023876E+001  +2.3715575256E+000 +3.0559710004E+001 
5890823.529 +6.0610884913E-001 +1.1573306262E+002  +1.5371862747E-002 -4.4240192181E+001  +1.2904146762E-002 -9.7808549032E+001  +1.9599421915E+000 +5.8064557507E+001 
6015968.711 +6.3801596409E-001 +1.1945294130E+002  +1.7476378016E-002 +1.5849487320E+002  +3.8442379058E-003 -3.1610441516E+001  +2.3505092335E+000 +4.1491863804E+001 
6141113.892 +9.1586171680E-001 +1.0907678860E+002  +1.6336367361E-002 -1.1555638606E+002  +1.2914221790E-002 -1.6002633665E+002  +2.0014263797E+000 +1.3168485527E+001 
6266259.074 +1.1749532473E+000 +8.6500441002E+001  +7.3893051058E-003 -9.2375960433E+001  +5.8579711250E-003 +1.5768821440E+002  +1.3215296182E+000 +1.0555817766E+001 
6391404.255 +9.4914001625E-001 +8.5011294809E+001  +2.9999953588E-002 -1.2627324320E+001  +2.3735929605E-002 +1.1116507912E+002  +1.4791404926E+000 +1.0234986425E+001 
6516549.437 +1.3130433462E+000 +9.2503033656E+001  +2.7058363238E-002 -1.5688939431E+002  +2.0121164953E-002 +8.9541301321E+001  +1.5450540415E+000 +8.7429921856E+000 
6641694.618 +2.1814342070E+000 +7.9087896404E+001  +1.3869092532E-002 +3.8982654893E+001  +1.1439987061E-002 +1.4288371784E+002  +1.3925651144E+000 -1.3011026976E+000 
6766839.800 +1.4659104495E+000 +6.6399826029E+001  +2.9980201004E-002 +3.0709344552E+001  +3.3150064917E-003 +8.3673523467E+001  +1.2950931228E+000 -6.4986016354E+000 
6891984.981 +1.8867812568E+000 +3.8722248048E+001  +5.9945873445E-004 +7.4550974092E+001  +5.5215828204E-003 +5.6049974878E+001  +1.2489787593E+000 +8.1702777043E-001 
7017130.163 +1.6244866841E+000 +1.0361088328E+001  +9.3365355306E-003 +6.2732825127E+001  +3.1167777571E-002 +8.0325715714E+001  +1.4248200769E+000 -6.4992911746E+000 
7142275.344 +1.8196101600E+000 -2.6746530019E+000  +9.8854003682E-004 -1.3167045338E+002  +2.7179642106E-002 +7.9500139214E+001  +1.3684672767E+000 -1.2480700532E+001 
7267420.526 +1.5089255322E+000 +6.3570530378E-002  +5.7291653086E-003 +1.3525072057E+001  +8.5880090468E-003 -4.8752339004E+001  +1.3529797386E+000 -1.5794517882E+001 
7392565.707 +1.3528345044E+000 +7.1326861385E-001  +1.2342034962E-002 +8.1134317209E+001  +5.2070863468E-003 +1.7192079093E+002  +1.3304902424E+000 -4.7278662966E+000 
7517710.889 +1.1492586937E+000 +3.3036791697E+000  +8.5706265191E-003 +7.3751483266E+001  +4.5490052937E-003 +1.1832760015E+002  +1.1981694790E+000 -5.2067428480E+000 
7642856.070 +1.0581345697E+000 +5.7916183657E+000  +1.0147035608E-002 +1.0708887788E+002  +3.7805857397E-003 +1.7022490898E+002  +1.1121664444E+000 -2.8269199978E+000 
7768001.252 +1.0162565550E+000 +2.4112107971E+000  +2.0189852019E-003 +1.6375790706E+002  +5.6411183819E-003 +9.0801569227E+001  +1.0194916583E+000 -3.3265345137E+000 
7893146.433 +8.9634441618E-001 +1.7559712793E+000  +3.0525072330E-003 +3.4107909104E+001  +5.4491497001E-003 +7.0424309341E+001  +9.7658535272E-001 -3.2678341517E+000 
8018291.615 +8.5506717275E-001 +6.4198701440E+000  +7.0135026810E-003 +2.3764930186E+001  +6.3603328140E-003 +1.1218521265E+002  +8.4373251847E-001 -4.6774952978E-001 
8143436.796 +7.7895621206E-001 +8.5493342785E+000  +1.8453424003E-003 -1.2007332730E+002  +3.2611864092E-003 -4.8063425242E+001  +9.1069564865E-001 -1.3684389799E+000 
8268581.977 +7.7484616630E-001 +7.4972555106E+000  +4.3248023335E-003 +1.3645774524E+002  +8.7049464665E-003 +6.6872197762E+001  +8.5082421873E-001 -1.1534969951E+000 
8393727.159 +7.8738736232E-001 +7.6460899868E+000  +5.4116844236E-003 +6.2369365346E+001  +3.0385297568E-003 +8.3383710799E+001  +7.4380757720E-001 +2.4656732417E+000 
8518872.340 +6.7614256854E-001 +2.7246445384E+000  +2.4646326518E-003 +1.0316890501E+002  +1.1803162786E-003 +1.2706207445E+002  +7.5712865369E-001 -1.5694091277E+000 
8644017.522 +7.2819900900E-001 +2.1044682120E+000  +7.6308828156E-003 +9.0392784074E+001  +3.0282439258E-003 +7.2645344391E+001  +7.1535150366E-001 +2.2227041381E+000 
8769162.703 +6.5336032782E-001 +3.4249478291E+000  +7.2276425030E-003 +1.0963410351E+002  +3.2021644966E-003 +9.7693312355E+001  +6.2640043365E-001 +3.4536567062E+000 
8894307.885 +6.6582508179E-001 +4.9992340177E-001  +4.0354387487E-003 +1.1370133220E+002  +1.7839256416E-003 +1.0389294235E+002  +6.6014153967E-001 -2.3285506220E+000 
9019453.066 +5.9576863037E-001 +4.6846920478E+000  +1.4195678600E-003 +1.1873243794E+002  +1.0555011424E-003 +1.2967759683E+002  +6.4304419692E-001 -4.7606562914E+000 
9144598.248 +6.2413259827E-001 +6.4047108172E+000  +3.3252406585E-003 +4.7688250575E+001  +3.8463524472E-003 +1.2856550521E+002  +6.0710678932E-001 -3.0755534730E+000 
9269743.429 +5.7437539584E-001 +5.7455241349E+000  +3.0719964285E-003 +8.6735197090E+001  +4.8636507521E-003 +6.0891964282E+001  +6.4262922071E-001 -1.6054507598E+000 
9394888.611 +5.6373184525E-001 -2.1555822504E-001  +5.2294685686E-003 +1.1261281799E+002  +2.8842181123E-003 +1.2816292875E+002  +5.5208340385E-001 -3.5574105676E+000 
9520033.792 +5.3442789216E-001 +1.0125843534E+000  +7.1788730004E-003 +6.4260887433E+001  +5.0257576292E-003 +7.7262427804E+001  +6.3957101791E-001 -5.2285431497E+000 
9645178.974 +5.6064340463E-001 +3.0547687724E+000  +2.3165240333E-003 +1.4291554001E+002  +6.1772142464E-003 +1.0054673324E+002  +6.0296374416E-001 -9.5026555371E+000 
9770324.155 +5.2679566910E-001 -1.9361508130E+000  +4.5708712531E-003 +6.0014608905E+001  +3.6043793833E-003 +1.0890730725E+002  +5.7704253986E-001 -6.9542696505E+000 
9895469.337 +5.4026695156E-001 +7.3968849344E-001  +3.2567010690E-003 +7.4723393562E+001  +2.2917010309E-003 +1.3011193505E+002  +5.2073281840E-001 -8.1076850214E+000 
10020614.518 +5.4456201999E-001 -2.6281220171E+000  +2.5483134946E-003 +1.2817968989E+002  +1.8028825958E-003 +9.1322225607E+001  +5.4015127269E-001 -9.2909187318E+000 
10145759.700 +5.1454166694E-001 +1.2211802787E+000  +4.9386230275E-003 +6.7931391764E+001  +5.7933922617E-003 +9.1550326137E+001  +5.8485900854E-001 -1.2340665440E+000 
10270904.881 +5.5540683878E-001 +2.0726984233E+000  +3.5538747237E-003 +5.9518211786E+001  +4.5100368123E-003 +9.9696246354E+001  +6.0296984656E-001 -4.1141490587E+000 
10396050.063 +5.5944552343E-001 +5.9045326556E+000  +5.6660567266E-003 +9.1786171867E+001  +3.2512352914E-003 +1.0635651585E+002  +5.9788907866E-001 -4.8665304456E+000 
10521195.244 +5.6020378361E-001 +5.7030598830E+000  +5.4388270832E-003 +8.1961415349E+001  +4.4997097766E-003 +7.6333618102E+001  +6.0425632624E-001 -1.4416403897E+000 
10646340.426 +5.7357552821E-001 +5.1880361325E+000  +5.4453134312E-003 +7.6384603606E+001  +3.6545645694E-003 +1.0150484632E+002  +5.9065915736E-001 -1.1057205247E+000 
10771485.607 +5.6216318074E-001 +3.1025453804E+000  +5.1911660960E-003 +9.2691661621E+001  +4.1435504767E-003 +1.2502619728E+002  +6.1651170009E-001 -1.5117096626E+000 
10896630.788 +5.7337291662E-001 +3.7811044946E+000  +2.8232136175E-003 +6.7726123004E+001  +2.7964874802E-003 +1.0861387305E+002  +6.1882594940E-001 -2.4123150963E+000 
11021775.970 +5.7560250904E-001 +4.3831109177E+000  +4.7292005418E-003 +8.4878444412E+001  +4.4572073442E-003 +1.2320150121E+002  +6.1160037668E-001 +4.3931775878E-001 
11146921.151 +6.1644583474E-001 +4.8959174230E+000  +4.9799820664E-003 +9.1461718115E+001  +6.2553424841E-003 +7.6756240428E+001  +6.2960753594E-001 +3.6947492161E-001 
11272066.333 +6.1483590191E-001 +8.1928762025E+000  +4.6593509747E-003 +9.8256145102E+001  +2.5137032105E-003 +1.1254762610E+002  +6.2070008004E-001 +8.8573969785E-001 
11397211.514 +6.0215950920E-001 +4.4701436749E+000  +3.6776475373E-003 +1.1021854454E+002  +4.0832292717E-003 +7.4998334553E+001  +6.7344135570E-001 +1.7649439381E+000 
11522356.696 +6.3402450546E-001 +7.4022098537E+000  +3.6885419121E-003 +7.4265296856E+001  +3.1352649919E-003 +1.1205931133E+002  +6.2471810827E-001 +2.5961592054E+000 
11647501.877 +6.2503021737E-001 +8.2829345942E+000  +6.5524576784E-003 +9.0725715404E+001  +4.5692285504E-003 +9.6895777266E+001  +6.3846234719E-001 +2.1480182542E+000 
11772647.059 +6.4741617023E-001 +4.5303872581E+000  +3.1980271006E-003 +9.0902996976E+001  +5.0828427861E-003 +1.0409881749E+002  +6.4427888155E-001 +3.9889542221E-001 
11897792.240 +6.4167727027E-001 +4.2516423431E+000  +6.2502088711E-003 +8.0024202415E+001  +6.1855885674E-003 +1.1075822942E+002  +6.7048064539E-001 +2.1732078547E+000 
12022937.422 +6.5519713189E-001 +4.1640128394E+000  +4.3630212573E-003 +1.0411575886E+002  +4.4874888725E-003 +9.7794814859E+001  +6.8617486524E-001 +2.2930098263E+000 
12148082.603 +6.8054213604E-001 +5.3268087821E+000  +5.7575341683E-003 +1.0023961201E+002  +4.9931076838E-003 +9.5289036872E+001  +6.6965291101E-001 +1.2469403972E+000 
12273227.785 +7.1169556514E-001 +2.9541266872E+000  +6.5353482250E-003 +9.3033787399E+001  +4.6177932652E-003 +9.1579628705E+001  +7.1195934537E-001 +2.7131663337E+000 
12398372.966 +6.9176974627E-001 +3.7072743729E+000  +5.1628948471E-003 +1.0045890238E+002  +4.7453217248E-003 +8.5681524492E+001  +7.2590099805E-001 +1.2294867259E+000 
12523518.148 +7.3431908748E-001 +3.7392645289E+000  +6.2516741046E-003 +7.7397699872E+001  +6.7206755929E-003 +8.3979565050E+001  +7.4032530781E-001 -2.4351722070E+000 
12648663.329 +7.6138419723E-001 +3.7093324303E+000  +5.5878811849E-003 +8.1694572009E+001  +7.0943758730E-003 +9.6820022244E+001  +7.1071664752E-001 -8.7225230002E-001 
12773808.511 +7.3059327299E-001 +3.9262073757E+000  +5.2936100124E-003 +9.3717827857E+001  +4.7385044454E-003 +8.2284336570E+001  +7.6822056521E-001 -2.4625477113E+000 
12898953.692 +7.6925653837E-001 +1.8809712810E+000  +5.7239630745E-003 +1.0392711262E+002  +7.1320814834E-003 +9.1493977400E+001  +7.8052998026E-001 -2.2234541878E+000 
13024098.874 +7.8797410792E-001 -1.5409405662E-001  +6.2130949256E-003 +1.0605509200E+002  +7.4774843561E-003 +8.9025113614E+001  +7.9213803102E-001 -1.8825330426E+000 
13149244.055 +7.8590742846E-001 +3.6553640489E-002  +4.4106565720E-003 +9.8123484763E+001  +5.5492237748E-003 +1.0991881831E+002  +8.0657878473E-001 -1.4713171655E+000 
13274389.237 +8.2853463198E-001 -9.0199569676E-001  +7.0344702573E-003 +9.1060143988E+001  +5.6440363810E-003 +7.8045435946E+001  +8.3353384991E-001 -2.5182882578E+000 
13399534.418 +8.4303604069E-001 -2.3965378554E+000  +7.6841961653E-003 +9.7062107226E+001  +6.3720822596E-003 +8.9646491381E+001  +8.4403726582E-001 -2.0276647523E+000 
13524679.599 +8.6787832103E-001 -2.4299720907E+000  +5.5723719583E-003 +9.1826011592E+001  +7.3193152085E-003 +9.1914911306E+001  +8.5268646994E-001 -3.3594131062E+000 
13649824.781 +8.6740664069E-001 -2.8792883111E+000  +6.9008844641E-003 +9.2810983799E+001  +7.1684050449E-003 +8.2301564137E+001  +8.6105421354E-001 -2.4722082889E+000 
13774969.962 +8.8756392554E-001 -3.1925016327E+000  +6.1630166756E-003 +1.0171237326E+002  +7.7812251906E-003 +1.0285823562E+002  +8.9720668855E-001 -4.1602733570E+000 
13900115.144 +8.9933822375E-001 -4.2050479896E+000  +6.8901550446E-003 +1.0298598186E+002  +6.8611463239E-003 +9.9707580892E+001  +9.0963838768E-001 -3.5938494070E+000 
14025260.325 +9.0851842170E-001 -2.9934286777E+000  +8.4507766125E-003 +8.4120126651E+001  +7.3079963697E-003 +8.3793847724E+001  +9.3873056636E-001 -3.6952589389E+000 
14150405.507 +9.0367208696E-001 -4.4233007870E+000  +7.2893154716E-003 +1.0363319502E+002  +6.9157300493E-003 +8.3443328030E+001  +9.4529386111E-001 -4.4550214735E+000 
14275550.688 +9.6695245020E-001 -3.9588930607E+000  +7.6360057777E-003 +9.4819367276E+001  +6.8951887121E-003 +1.0035395901E+002  +9.7019712056E-001 -4.3031673089E+000 
14400695.870 +9.8484457437E-001 -5.6603250656E+000  +6.6332942960E-003 +8.6098590591E+001  +7.3655384836E-003 +9.5733403480E+001  +9.7761887812E-001 -4.9744263278E+000 
