!  2-Port S-parameters saved by WinCal
! VAR MeasName=S-Parameters (CALIBRATED_DATA) read from VNA (P5004A)
! VAR MeasDate=28/08/2024 10:12:33
! VAR NAME=S2_r4c9_RESET1_9k-100M_2
! VAR FILENAME=S2_r4c9_RESET1_9k-100M_2.S2P
! VAR DATE=28/08/2024 10:12:33
! VAR PHYS_PORTS=1,2
! VAR ObjTypeName=DATASET
! VAR IndexType=Frequency
!
# Hz S MA R 50
9000.000 +7.7339221785E-002 -1.6118160951E+002  +1.3080652657E-002 +1.2041910670E+002  +4.8014805367E-004 -1.0924135498E+002  +2.9650437396E-001 -1.3807867673E+002 
134145.181 +1.1080588080E-001 +1.6981060350E+002  +5.2674692630E-004 -1.4708467107E+002  +7.7223863912E-004 +4.8922285860E+001  +2.3736534564E-001 -1.7082870207E+002 
259290.363 +1.1256767871E-001 +1.6979136928E+002  +1.9595736269E-004 -7.3433787856E+001  +3.0701313355E-004 -1.0298878115E+002  +2.3924032482E-001 -1.6988355618E+002 
384435.544 +1.1414556535E-001 +1.6986024914E+002  +7.0514191743E-004 -1.0450412836E+002  +1.1988922055E-003 -6.3459093335E+001  +2.4605197123E-001 -1.6792148652E+002 
509580.726 +1.1378907839E-001 +1.7094492264E+002  +8.4074104181E-004 +9.3427347457E+001  +1.1988093368E-003 +1.7325810507E+002  +2.5105403556E-001 -1.6541456682E+002 
634725.907 +1.1764691461E-001 +1.7130977872E+002  +6.1718244752E-004 -1.3618125218E+002  +1.2384301411E-003 +1.5121466941E+002  +2.5422322050E-001 -1.6371116257E+002 
759871.089 +1.1956906694E-001 +1.7090389155E+002  +4.6977492579E-004 +4.6494101487E+001  +1.1591774738E-003 -5.4266858952E+001  +2.5266242331E-001 -1.6421610769E+002 
885016.270 +1.2053281076E-001 +1.6930455824E+002  +2.6909791789E-004 -1.7280917606E+002  +3.5058353235E-004 +1.2908877975E+001  +2.4666548629E-001 -1.6702029584E+002 
1010161.452 +1.1771272349E-001 +1.7027752295E+002  +5.2417478232E-004 +1.8382025328E+001  +1.1577393179E-003 -2.7418968957E+001  +2.2137819128E-001 -1.6017080958E+002 
1135306.633 +1.1427115585E-001 +1.6818237497E+002  +9.4092192945E-004 -8.0576682282E+001  +1.1043814584E-003 -1.2029751083E+002  +2.0553184360E-001 -1.6184097292E+002 
1260451.815 +1.1784298424E-001 +1.7202862082E+002  +1.2009777186E-003 -1.3849519819E+002  +1.0173786189E-003 +1.3249863404E+002  +2.4280668088E-001 -1.5954847285E+002 
1385596.996 +1.2663101166E-001 +1.7456930666E+002  +7.9908479639E-004 +9.2520401460E+001  +3.4855118943E-004 -4.2672197607E+001  +2.7411327295E-001 -1.6121974060E+002 
1510742.178 +1.2786494512E-001 +1.7327546780E+002  +5.4597416797E-004 +1.3057454933E+002  +8.7181147544E-004 +1.6157190296E+002  +2.5370576050E-001 -1.5996455338E+002 
1635887.359 +1.2827328403E-001 +1.7201890148E+002  +3.8599777587E-004 +1.0207382929E+002  +1.5218621588E-003 -1.1191428038E+002  +2.4971266597E-001 -1.5859186522E+002 
1761032.541 +1.2888526480E-001 +1.6906162277E+002  +1.3256548823E-004 +1.5459643216E+002  +8.1706874522E-004 +3.7394399002E+001  +2.3945626619E-001 -1.6231148291E+002 
1886177.722 +1.3101248839E-001 +1.6767775967E+002  +9.7955827301E-004 -2.2945203026E+001  +1.4513667429E-003 +5.5921691408E+001  +2.1712058659E-001 -1.6644211164E+002 
2011322.904 +1.3044662877E-001 +1.6872553543E+002  +8.8252069646E-005 -6.7167170712E+001  +1.8128034858E-003 -3.3883463715E+001  +2.0620702815E-001 -1.7339713241E+002 
2136468.085 +1.2994140437E-001 +1.6571641163E+002  +5.4273271841E-004 +2.6481849817E+001  +3.2425458205E-003 +1.5577475316E+002  +2.0441094054E-001 -1.5720979468E+002 
2261613.267 +1.3264459057E-001 +1.6568173460E+002  +7.0918980309E-003 +7.6614441041E+001  +5.3533619444E-003 -1.3973231772E+002  +1.8883073282E-002 -1.2404857898E+002 
2386758.448 +1.3786204721E-001 +1.6314883657E+002  +4.1288177442E-003 -9.8874984097E+001  +3.6527568024E-003 +1.3686068751E+002  +1.7843948465E-001 +1.6987964790E+002 
2511903.630 +1.3032998874E-001 +1.6880230671E+002  +6.6834373843E-003 -3.2355232147E+001  +6.0554353391E-003 -1.1622353708E+002  +2.0757448275E-001 +1.4860357250E+002 
2637048.811 +1.2706002736E-001 +1.7653242240E+002  +7.0135113813E-003 -1.4739665771E+002  +3.0264272308E-003 -3.4070162171E+001  +3.2476651588E-001 +1.4660092314E+002 
2762193.992 +9.8062881175E-002 +1.5633345563E+002  +3.3883694567E-002 +1.7445231139E+002  +2.9270723616E-002 -4.1571435261E+001  +1.5195260891E+000 +5.1581100582E+001 
2887339.174 +1.2887688563E-001 +1.7070806466E+002  +1.0927341368E-002 -9.9330340158E+001  +1.0523282828E-002 +3.5279684230E+001  +4.1635927281E-001 -1.0529277549E+002 
3012484.355 +1.1690632168E-001 +1.7182023118E+002  +1.1369321914E-002 -6.1749322204E+001  +9.3363018312E-003 +1.1785121404E+002  +2.7828770784E-001 -7.7456384193E+001 
3137629.537 +1.1187903548E-001 +1.7622278253E+002  +6.3502930309E-003 +1.7885593513E-001  +1.4500512178E-002 -9.8068643020E+001  +2.9468935810E-001 -9.5033442039E+001 
3262774.718 +1.2467860923E-001 +1.5964415454E+002  +1.3397987276E-002 -1.9861931558E+001  +5.2272685710E-003 -1.7410907419E+002  +1.5655098471E-001 -4.3915934280E+001 
3387919.900 +1.2206219464E-001 +1.7265544174E+002  +3.9021749965E-003 -2.2264659068E+001  +1.8117034898E-002 +1.6224282582E+002  +4.7459487707E-001 -7.4197171305E+001 
3513065.081 +1.4203208315E-001 +1.5410220888E+002  +3.7499491913E-003 +9.3945156414E+001  +1.8172463867E-003 +9.0015876519E+001  +3.3677151491E-001 +1.5071012353E+002 
3638210.263 +1.8765763120E-001 +1.5059581294E+002  +3.2414568731E-003 +1.4735057125E+002  +1.4702002456E-002 +1.4357116446E+002  +3.3659453704E-001 +6.0734898412E+000 
3763355.444 +1.4698525066E-001 +1.4879426678E+002  +1.4638289166E-002 -1.2476850788E+002  +4.3856346338E-003 +1.4121552454E+002  +3.3671849474E-001 +1.3426199961E+002 
3888500.626 +1.7883648757E-001 +1.5363438129E+002  +9.3212547332E-003 -1.6419751351E+002  +1.0028071506E-002 -5.0694092441E+001  +5.7775295509E-001 +5.3381252452E+001 
4013645.807 +1.6802062684E-001 +1.4699459462E+002  +1.8198533190E-003 -2.6950493719E+001  +2.0715548084E-003 -8.8875287876E+001  +2.6373924955E-001 +1.5026927402E+002 
4138790.989 +1.5304819193E-001 +1.3921406150E+002  +1.1494039190E-002 -5.6784436308E+001  +9.7044907645E-003 -1.4545265606E+002  +4.8753015291E-001 +9.9157318379E+001 
4263936.170 +1.8829769103E-001 +1.4375478363E+002  +1.8731619768E-002 +1.1328822830E+002  +1.0391199603E-002 +6.6261575519E+001  +1.3417649883E+000 +1.4878059702E+002 
4389081.352 +1.5718773839E-001 +1.4317000255E+002  +9.9941208354E-003 +5.7906162261E+001  +1.1632484281E-002 +7.8040062384E+001  +3.6553666438E-001 +1.2760546385E+002 
4514226.533 +2.2006869301E-001 +1.4569625351E+002  +1.5272239607E-002 +1.3002522107E+001  +6.3319512753E-003 -1.7569421892E+002  +6.2647533220E-001 +1.1158328838E+002 
4639371.715 +2.6684550264E-001 +1.3212765640E+002  +1.8860295429E-002 -1.3961997428E+002  +3.6254613056E-003 -1.5921898248E+002  +1.0007759345E+000 +3.7232169502E+001 
4764516.896 +3.2004156004E-001 +1.3222934742E+002  +1.4420974151E-002 -5.7708484149E+001  +4.8064556396E-003 -7.6624060912E+001  +2.0689078105E+000 +1.5099929553E+002 
4889662.078 +3.4467698871E-001 +1.3094302968E+002  +8.6610677973E-003 -1.7040320094E+002  +3.7231649393E-003 -1.3210664503E+002  +4.1066320114E+000 -1.1433975642E+002 
5014807.259 +3.9595356418E-001 +1.1326005106E+002  +5.2418019182E-002 -1.0169369454E+002  +4.3548486671E-002 +1.1494402851E+002  +2.8051948546E+000 +1.2515864411E+002 
5139952.441 +3.6890685325E-001 +1.2864777561E+002  +1.0936760834E-001 -4.4140343757E+001  +5.3534558236E-002 -1.4737790861E+002  +5.5246466602E+000 +1.0985754182E+002 
5265097.622 +3.9564374441E-001 +1.3019437906E+002  +5.2244570911E-002 -6.4343119219E+000  +1.7504717553E-002 +1.0967906558E+002  +3.6926189472E+000 +3.9486241257E+001 
5390242.804 +4.1597903590E-001 +1.1299866329E+002  +2.4304782651E-002 -1.6084283624E+002  +2.8274340245E-002 -1.6566753492E+002  +1.4320767646E+000 +1.0371087964E+002 
5515387.985 +5.2770863006E-001 +1.2184164975E+002  +1.6331676539E-002 -1.4047582327E+002  +1.5293179042E-002 +3.4208912315E+001  +1.5936902503E+000 +7.6701670251E+001 
5640533.166 +4.6636200999E-001 +1.2391184412E+002  +2.1699163372E-002 -1.7648274691E+002  +1.0992059068E-002 +2.2065693734E+000  +2.2752370317E+000 +8.6236675067E+001 
5765678.348 +4.8278218410E-001 +1.2889630421E+002  +6.3412519147E-003 -3.4977784290E+001  +2.3761822432E-002 -9.8506236099E+001  +1.6167413689E+000 +8.8869347369E+001 
5890823.529 +5.9924804587E-001 +1.2354764740E+002  +3.2071706808E-002 -1.5291951489E+002  +2.8655004060E-002 +7.4788475886E+001  +2.6595497503E+000 +4.9501983181E+001 
6015968.711 +7.1650667718E-001 +1.0299684603E+002  +2.8225305032E-002 -8.9805564044E+001  +3.5546780493E-002 +1.0528557869E+002  +2.6599851375E+000 +1.9851855352E+001 
6141113.892 +7.8152769641E-001 +1.0400658640E+002  +1.7006899118E-002 +1.0605037232E+002  +4.3753478911E-002 +1.5425531886E+002  +2.0155142723E+000 +2.3283860786E+001 
6266259.074 +8.5296513907E-001 +1.1129493876E+002  +1.2780240722E-002 +1.1494339783E+002  +1.5443803842E-002 +5.2176913095E+001  +1.7166534896E+000 +3.5803790057E+001 
6391404.255 +8.4825992689E-001 +8.8857345418E+001  +3.0370119949E-002 +2.8661285460E+001  +2.0665998920E-002 -3.7243594635E+001  +2.3435194086E+000 +2.8682388896E+000 
6516549.437 +9.6416393155E-001 +7.2632237931E+001  +3.0648666057E-002 +9.3547508345E+001  +4.8189432561E-003 +8.2023187995E+001  +1.7634186409E+000 +2.2824355450E+000 
6641694.618 +1.9113899439E+000 +6.2530337407E+001  +2.7487878700E-002 +1.1731306482E+002  +1.3439029368E-002 +6.8382002799E+001  +1.2591141425E+000 -5.7643507760E+000 
6766839.800 +2.2629714865E+000 +6.1925657380E+001  +1.7049848849E-002 +1.3554673948E+002  +2.1806745290E-002 +1.1922205414E+002  +1.2710547817E+000 -8.2509534389E+000 
6891984.981 +1.6087214155E+000 +4.1635551911E+001  +1.6186502181E-002 +3.2120933528E+001  +1.8302792539E-002 +1.3636198764E+002  +1.3898712567E+000 -3.4310269481E+000 
7017130.163 +1.8779009018E+000 +2.2060454639E+001  +6.1244710346E-003 +6.5218324651E+001  +1.7078009901E-002 +1.5504176477E+002  +1.2607965231E+000 -9.4152646727E+000 
7142275.344 +1.9777973717E+000 +1.2082215255E+001  +8.7594800159E-003 +1.0872655463E+002  +1.1191019107E-002 +1.7281720007E+002  +1.1768467828E+000 -1.0684985627E+001 
7267420.526 +1.2973806898E+000 -2.1133596343E-001  +8.0668558482E-003 +9.7737995781E+001  +1.1548531941E-002 -1.5761577243E+001  +1.2721547084E+000 -1.3226180876E+001 
7392565.707 +1.2675823185E+000 -2.9196136472E+000  +1.2985377852E-002 +1.3057590931E+002  +9.6130069108E-003 +1.1208940940E+002  +1.3173453779E+000 -5.1436744056E+000 
7517710.889 +1.2565350114E+000 -3.8656922951E+000  +5.1084894597E-003 +1.7605605801E+001  +6.0197566126E-003 -4.8545604168E+000  +1.2363625377E+000 -3.4338590766E+000 
7642856.070 +9.7728330951E-001 +1.6135327400E+000  +1.2536231589E-002 +1.2986765070E+002  +1.9735034972E-003 +6.6527280117E+001  +1.2194323700E+000 -9.7056515945E+000 
7768001.252 +8.8615398863E-001 +3.8932851876E+000  +3.0738698633E-003 +1.3098166351E+002  +3.9634941872E-003 +1.0838810996E+002  +9.5588738594E-001 -6.6867802654E-001 
7893146.433 +7.8353160304E-001 +6.0962873181E+000  +3.7005678061E-003 +5.1219613338E+001  +3.6977049825E-003 +2.9640480974E+001  +9.0951129585E-001 -2.0138371034E+000 
8018291.615 +7.9862663299E-001 +5.1640028040E+000  +2.8816171803E-003 +7.1771369871E+001  +7.7328123285E-003 -9.6480653509E+000  +8.6074912646E-001 -2.1138533763E+000 
8143436.796 +8.1395203647E-001 +1.1855231779E+000  +8.3572639421E-003 +6.2003197290E+001  +1.4823402545E-003 +1.3748311134E+002  +8.5706906452E-001 -1.7897639960E+000 
8268581.977 +7.5701011122E-001 +2.6010786985E+000  +9.1186884930E-003 +4.8306307955E+001  +6.3416008784E-003 +1.5563079504E+002  +7.8670184422E-001 -6.4440335057E-001 
8393727.159 +7.2179678497E-001 +4.7221326688E+000  +6.5338470123E-003 +5.2822038039E+001  +5.2173716813E-003 +1.1207606463E+002  +7.0309433114E-001 +1.0929636008E-001 
8518872.340 +7.4130602809E-001 +6.9356492865E+000  +3.5448430047E-003 +7.8525118802E+001  +3.5571277179E-003 +1.6099564870E+002  +7.6239765392E-001 -1.9276146101E+000 
8644017.522 +7.1447106474E-001 +9.0912238663E+000  +1.8330715098E-003 -1.6524980135E+002  +6.2259172396E-003 +4.1803989036E+001  +7.1233990839E-001 +5.5282441800E+000 
8769162.703 +6.2361458157E-001 +6.6758466629E+000  +2.3842505354E-003 +5.6022476650E+001  +4.7780643647E-003 +1.4572575339E+002  +6.7945368976E-001 -1.4011300453E+000 
8894307.885 +5.8114872945E-001 +4.8922327514E+000  +4.4133748671E-003 +7.3425956512E+001  +5.5036336784E-003 +8.8829236904E+001  +6.3976271456E-001 -3.2252694279E+000 
9019453.066 +6.2792700835E-001 +3.9941204793E+000  +1.5213017868E-003 +7.5405009132E+001  +4.6008729419E-003 +1.3399864013E+002  +6.6315026231E-001 +4.3332804159E-001 
9144598.248 +5.5558982116E-001 +5.9800114728E+000  +6.5517259133E-003 +8.6688271622E+001  +5.5322073297E-003 +5.3247827577E+001  +5.5903278865E-001 -1.9414994020E-001 
9269743.429 +5.3614589358E-001 +6.0910062988E+000  +4.4596635659E-003 +9.5702319026E+001  +3.9562669072E-003 +5.8829947625E+001  +6.0520768059E-001 -5.1554426760E+000 
9394888.611 +5.1913261217E-001 +7.0967107686E+000  +3.6043980860E-003 +7.6309515181E+001  +1.6682388393E-003 +1.7249905529E+002  +6.4378166334E-001 -2.2594315362E+000 
9520033.792 +5.7234719875E-001 +5.2936951222E+000  +5.8463745386E-003 +5.1560743937E+001  +3.1899225764E-003 +1.3806922788E+002  +5.6883851346E-001 -3.5930747209E+000 
9645178.974 +5.7291466031E-001 +4.7691751014E+000  +4.5268564340E-003 +1.0102380770E+002  +5.2555024889E-003 +9.1405731272E+001  +5.6795329747E-001 -8.7829736039E+000 
9770324.155 +5.8056706522E-001 -2.0698304829E+000  +3.7923660810E-003 +2.3904750148E+001  +2.4870128972E-003 +6.7184827885E+001  +6.1467068955E-001 -5.6187953800E+000 
9895469.337 +5.4673540853E-001 -3.3056408344E+000  +4.0936677695E-003 +6.0166437761E+001  +3.3297160550E-003 +1.1145163856E+002  +6.3700637572E-001 -7.3187052905E+000 
10020614.518 +5.6161455426E-001 +4.0657437196E+000  +3.5819933566E-003 +6.9745737406E+001  +4.1588362022E-003 +1.3627071363E+002  +6.1230663452E-001 -9.2725586676E+000 
10145759.700 +5.4310063126E-001 +3.9614961729E+000  +2.5712863497E-003 +6.7771541134E+001  +7.8160625941E-004 +1.1001989213E+002  +6.0925641310E-001 -2.5526120231E+000 
10270904.881 +5.7880494313E-001 +5.0086762347E+000  +4.0220071591E-003 +1.0818807022E+002  +4.5501603426E-003 +1.1846760360E+002  +5.9385754591E-001 -4.8790507029E+000 
10396050.063 +5.5539587630E-001 +5.3277089483E+000  +6.0322486070E-003 +9.9809088019E+001  +2.7631507170E-003 +9.3135656169E+001  +5.8202843938E-001 +8.7583691497E-001 
10521195.244 +5.6057117870E-001 +4.8203212225E+000  +8.3224111780E-003 +9.1089307059E+001  +2.2948565298E-003 +1.6131355555E+002  +5.7504451582E-001 -1.3995455014E+000 
10646340.426 +5.6003981717E-001 +9.3646228383E+000  +3.5671974846E-003 +1.2313807281E+002  +4.4201150430E-003 +1.0127007061E+002  +5.9988101910E-001 -2.7662330023E+000 
10771485.607 +6.1277870880E-001 +5.6356383216E+000  +2.0181161235E-003 +8.0890356062E+001  +4.5376710323E-003 +1.1258853124E+002  +6.0402852358E-001 -4.3271969956E-001 
10896630.788 +5.8520909986E-001 +7.3797848714E+000  +4.1571519616E-003 +7.9440526518E+001  +2.7118123471E-003 +1.1473913524E+002  +5.7940426719E-001 +4.4521619721E+000 
11021775.970 +6.0859215630E-001 +6.5335523645E+000  +4.0333553291E-003 +7.3240242817E+001  +5.5689510256E-003 +1.0753162296E+002  +6.2436059589E-001 +2.0689438715E+000 
11146921.151 +5.8897412531E-001 +5.7320485559E+000  +5.4677221516E-003 +9.6335492041E+001  +4.7401379396E-003 +8.7852581905E+001  +6.5021962110E-001 +3.0348502512E-001 
11272066.333 +6.2018196102E-001 +5.5966225453E+000  +3.8897496644E-003 +9.0537673661E+001  +4.6922097285E-003 +8.8737100571E+001  +6.1559774789E-001 +8.6147047330E-001 
11397211.514 +6.1701236062E-001 +5.6843271498E+000  +2.6995906079E-003 +7.2737269582E+001  +6.3807713101E-003 +1.0994264487E+002  +6.4732451933E-001 +4.6196224155E+000 
11522356.696 +6.1919660399E-001 +8.7648503358E+000  +6.5691508149E-003 +1.0274146785E+002  +5.9284368005E-003 +1.1991432608E+002  +6.2852921342E-001 -2.8050943950E-001 
11647501.877 +6.3921384272E-001 +5.7609720147E+000  +6.7030169724E-003 +8.5435047612E+001  +5.2451359051E-003 +7.5539636726E+001  +6.8351733449E-001 +3.2997146696E+000 
11772647.059 +6.4461925488E-001 +7.3037327827E+000  +3.6857900288E-003 +9.3859182489E+001  +3.8694261773E-003 +9.0680714285E+001  +6.8301376183E-001 +2.1125745825E+000 
11897792.240 +6.7084088172E-001 +5.3684240124E+000  +5.4969421543E-003 +7.3075735141E+001  +3.8086173085E-003 +1.3580325294E+002  +7.0405759669E-001 +7.6264194649E-001 
12022937.422 +6.8393227735E-001 +3.5711993996E+000  +5.7548608237E-003 +6.9965129801E+001  +4.4076538759E-003 +1.1707391487E+002  +7.1685340673E-001 +1.0880359428E+000 
12148082.603 +6.9068820357E-001 +2.7636196818E+000  +5.6888968015E-003 +1.0436123654E+002  +6.2950090460E-003 +1.1693618967E+002  +6.6357621894E-001 -1.6646764171E+000 
12273227.785 +6.8701120430E-001 +5.0728152244E+000  +5.6963810508E-003 +8.2533621396E+001  +4.0889247626E-003 +9.6708675871E+001  +7.1664253869E-001 +1.2260592879E+000 
12398372.966 +7.3861805004E-001 +2.9950330139E+000  +6.2923438869E-003 +1.0271189643E+002  +5.7016403081E-003 +1.0442996120E+002  +7.2355765877E-001 +1.8476235052E+000 
12523518.148 +7.2974036295E-001 +2.2662453115E+000  +5.5884324297E-003 +8.8444524411E+001  +5.7096066559E-003 +1.0496427710E+002  +7.3763404520E-001 +5.9829616179E-001 
12648663.329 +7.4454688968E-001 +7.4147841698E-001  +5.8179487747E-003 +9.2035541703E+001  +6.5241036712E-003 +1.1158401968E+002  +7.7766736479E-001 +1.3710588180E-001 
12773808.511 +7.4230478028E-001 -4.3784596614E-001  +6.5076735094E-003 +8.5508640227E+001  +6.2023427834E-003 +9.3062224279E+001  +7.7078785979E-001 -1.5989759378E+000 
12898953.692 +7.6201534498E-001 +2.1979905425E+000  +6.1775885677E-003 +8.2922052981E+001  +6.3652063743E-003 +9.3509382562E+001  +7.7240729315E-001 -1.4560016683E+000 
13024098.874 +7.7263267101E-001 -4.3477935440E-001  +5.4411590780E-003 +8.3223333984E+001  +5.1606888300E-003 +1.1412885234E+002  +8.2189060183E-001 -2.6173735923E+000 
13149244.055 +7.9835963162E-001 +5.8072408263E-001  +7.7906525544E-003 +1.1123739426E+002  +7.1684773930E-003 +9.0958040039E+001  +8.2357970981E-001 -1.6914671902E+000 
13274389.237 +8.1865679343E-001 -8.2762074539E-001  +7.2726870606E-003 +1.0249305102E+002  +6.9352465843E-003 +8.7921508093E+001  +8.4634280107E-001 -1.7856187054E+000 
13399534.418 +8.4528798421E-001 -1.6567156634E+000  +5.7651933901E-003 +9.1737236141E+001  +5.6023345184E-003 +8.8403228010E+001  +8.5765187768E-001 -4.5715644694E+000 
13524679.599 +8.6711578418E-001 -7.8627130240E-001  +5.8507223057E-003 +9.0243516782E+001  +6.5007475505E-003 +8.7883124586E+001  +8.7113306900E-001 -2.7545406135E+000 
13649824.781 +8.8372875270E-001 -1.6639827546E+000  +7.5725237383E-003 +9.3626823698E+001  +8.9733944879E-003 +9.1802198571E+001  +9.0037456311E-001 -3.6886574699E+000 
13774969.962 +8.9846301355E-001 -2.4457517300E+000  +7.0771114478E-003 +9.3536480014E+001  +7.1738840957E-003 +8.4682059002E+001  +8.9800119492E-001 -3.4953848607E+000 
13900115.144 +9.0541802761E-001 -3.0288273992E+000  +6.1176704455E-003 +9.2373540617E+001  +4.9846259011E-003 +1.0162520438E+002  +9.0400275553E-001 -4.5543591133E+000 
14025260.325 +9.2506136964E-001 -2.8154287586E+000  +6.3612023818E-003 +8.7129264666E+001  +6.6388889245E-003 +9.8883368858E+001  +9.4154321990E-001 -4.2319797544E+000 
14150405.507 +9.3292028165E-001 -5.9946692618E+000  +8.5899492997E-003 +9.8578228311E+001  +6.4927698741E-003 +9.4511359229E+001  +9.4270341546E-001 -5.3278864208E+000 
14275550.688 +9.4657965844E-001 -5.6361482084E+000  +7.6097385350E-003 +9.0674116532E+001  +7.2284916403E-003 +8.9277372667E+001  +9.8484524392E-001 -5.7917427765E+000 
14400695.870 +9.8459814028E-001 -5.3811549982E+000  +6.8019858731E-003 +9.1361923262E+001  +8.2405830562E-003 +9.7676074200E+001  +9.9594880725E-001 -3.7867030747E+000 
