!  2-Port S-parameters saved by WinCal
! VAR MeasName=S-Parameters (CALIBRATED_DATA) read from VNA (P5004A)
! VAR MeasDate=27/08/2024 14:21:07
! VAR NAME=S2_r2c8_RESET2_9k-100M_2
! VAR FILENAME=S2_r2c8_RESET2_9k-100M_2.S2P
! VAR DATE=27/08/2024 14:21:07
! VAR PHYS_PORTS=1,2
! VAR ObjTypeName=DATASET
! VAR IndexType=Frequency
!
# Hz S MA R 50
9000.000 +6.4897145236E-002 -1.0593717162E+002  +2.0236855283E-003 +2.3728714052E+001  +1.8406718557E-002 +7.3290728210E+000  +9.0799494309E-002 -1.2223270907E+002 
134145.181 +1.1042625034E-001 +1.6950915258E+002  +1.7514120075E-004 +3.3801457973E+001  +6.4906951680E-004 +1.2228250487E+002  +2.4075583903E-001 -1.7062340728E+002 
259290.363 +1.1174311151E-001 +1.6997741708E+002  +3.3112623953E-004 +5.5184702199E+001  +1.0980722095E-003 -4.9208769165E+001  +2.4488911305E-001 -1.6842200335E+002 
384435.544 +1.1482292114E-001 +1.6971703193E+002  +8.0469321954E-004 +1.3865109847E+002  +3.8668437597E-004 +4.4943023688E+001  +2.3135631055E-001 -1.6697099041E+002 
509580.726 +1.1427365157E-001 +1.7116271597E+002  +9.7969565948E-004 +1.2641491428E+002  +8.0515664855E-004 +1.1855191398E+002  +2.4259051728E-001 -1.6565375167E+002 
634725.907 +1.1648636219E-001 +1.7140234999E+002  +1.1242433800E-004 +8.3684772736E+001  +6.5672133740E-004 -1.5151515409E+002  +2.4367412306E-001 -1.6562702403E+002 
759871.089 +1.1854109859E-001 +1.7163155501E+002  +7.8422499271E-004 -4.9234710318E+001  +1.5211376844E-003 +8.8372163600E+001  +2.3392837991E-001 -1.6021333597E+002 
885016.270 +1.1800232278E-001 +1.7039475521E+002  +6.8032880143E-004 -1.0268405924E+002  +1.9705042598E-003 -1.2988188576E+002  +2.3601006969E-001 -1.6287273113E+002 
1010161.452 +1.2080903263E-001 +1.7098150002E+002  +5.4739495357E-003 +5.1318004223E+001  +2.8774952638E-003 +1.5990635137E+002  +1.4550128668E-002 -1.2158577847E+002 
1135306.633 +1.1313784001E-001 +1.6903722429E+002  +2.2111934459E-003 +4.6316209314E+001  +5.9647424788E-004 +5.0027911278E+001  +1.4821863215E-001 -1.4300080463E+002 
1260451.815 +1.1963891449E-001 +1.6966269677E+002  +6.5526840998E-004 -9.6448688323E+001  +9.7645783626E-004 +1.4162786325E+002  +2.4475563665E-001 -1.5761243647E+002 
1385596.996 +1.2527797185E-001 +1.7220170540E+002  +4.8844237087E-004 -8.8783271048E+001  +9.9548875711E-004 -6.8771295235E+001  +2.7120463024E-001 -1.5598304229E+002 
1510742.178 +1.2670405813E-001 +1.7254113506E+002  +9.7528330628E-004 +7.0983429451E+001  +1.2844957602E-003 -6.8195915131E+001  +2.6406904354E-001 -1.5874879055E+002 
1635887.359 +1.2877165211E-001 +1.7025748824E+002  +2.0587194922E-004 -2.5817945339E+001  +9.1942895463E-004 +7.7725112212E+001  +2.3422643892E-001 -1.5875669549E+002 
1761032.541 +1.2733135947E-001 +1.6875373318E+002  +1.3633233397E-003 +2.2179081620E+001  +1.3396371448E-003 -3.8838094831E+001  +2.1989754197E-001 -1.5695853492E+002 
1886177.722 +1.2710621164E-001 +1.6865948740E+002  +9.4100126464E-004 -6.2918154584E+001  +2.8370323997E-003 +8.2879094275E+001  +2.0817712758E-001 -1.6439850464E+002 
2011322.904 +1.2585581966E-001 +1.6839246881E+002  +1.4721740849E-003 -7.7752701245E+000  +2.8934065905E-003 +4.1337118710E+001  +1.5464880492E-001 -1.6641187777E+002 
2136468.085 +1.2606548167E-001 +1.6913397033E+002  +2.0835920261E-003 +2.9129033101E+000  +3.5230525795E-003 +3.4047692318E+001  +1.4362646852E-001 -1.7731834967E+002 
2261613.267 +1.3138988800E-001 +1.6760812268E+002  +2.2105869174E-003 -1.2544375245E+002  +4.1625818676E-003 -1.4668974605E+002  +1.9070163634E-001 +1.7160870946E+002 
2386758.448 +1.3890460521E-001 +1.6468293354E+002  +4.1877113705E-004 +1.2314824611E+002  +6.7749186877E-005 +4.3153857940E+001  +2.2847576329E-001 +1.6847389233E+002 
2511903.630 +1.2576839272E-001 +1.6424434579E+002  +5.3628437439E-003 -1.7525568408E+002  +5.5742941681E-003 -8.1106498987E+000  +2.1294471928E-001 +1.5985137200E+002 
2637048.811 +1.1976745217E-001 +1.4224046502E+002  +2.5176649619E-002 -7.8934354928E+001  +1.1202346267E-002 +1.6263787139E+001  +3.5323140777E-001 +1.3275710184E+002 
2762193.992 +8.8374245689E-002 +1.7682259880E+002  +3.2772675042E-002 +1.6080143499E+002  +6.4744057504E-002 +3.2961352436E+001  +1.5681580112E+000 -1.1980899044E+002 
2887339.174 +1.1275212359E-001 +1.7147408535E+002  +1.2345143441E-002 +8.8626805364E+001  +1.0851044778E-002 +2.2770426211E+001  +2.8237182182E-001 -8.8277754698E+001 
3012484.355 +1.3157731697E-001 +1.7568109006E+002  +2.0432749362E-003 +1.0104817145E+002  +1.0685286739E-002 +1.4283529737E+002  +3.6936072978E-001 -9.5295029273E+001 
3137629.537 +1.1934506000E-001 +1.7500868233E+002  +1.7876119139E-002 +1.1169072591E+002  +1.6517965115E-002 +5.0987671102E+001  +2.9941176245E-001 -4.1975862119E+001 
3262774.718 +1.1916059397E-001 +1.7014599400E+002  +1.7755519112E-002 +4.7172432784E+001  +4.7159998354E-003 +1.3143108528E+002  +7.4827560679E-001 -7.8093523811E+001 
3387919.900 +1.0276555872E-001 +1.5233810462E+002  +2.1603277785E-002 -1.7834097525E+001  +2.6578865527E-002 +1.1323734765E+002  +3.9778804706E-001 -1.4168695956E+000 
3513065.081 +1.6183318768E-001 +1.4899214206E+002  +3.5973483294E-002 +7.2304836159E+001  +1.4568316857E-002 +1.5088317103E+002  +1.0269187622E+000 +4.6664764355E+001 
3638210.263 +1.6558527937E-001 +1.4422199968E+002  +2.1098721894E-002 +1.4840004857E+001  +8.6950537594E-003 -5.6226796270E+001  +9.2051015933E-001 +9.3823246500E+001 
3763355.444 +1.9029783229E-001 +1.5038826694E+002  +4.4460233242E-003 -1.3413322590E+002  +3.0656977715E-003 -1.2190929603E+002  +1.2992444932E+000 +1.2044846459E+002 
3888500.626 +1.7592914817E-001 +1.5325357648E+002  +2.8516100667E-003 -5.1155872233E+000  +1.2647809488E-002 +1.1527106696E+002  +3.2974241006E-001 +7.5961058745E+001 
4013645.807 +1.7712768001E-001 +1.5399470426E+002  +6.8122185314E-003 +8.5840514178E+001  +2.5246199744E-003 +3.5697227308E+000  +3.8078536448E-001 +1.3165605979E+002 
4138790.989 +1.5603834418E-001 +1.3807659336E+002  +1.8500846048E-002 +2.9572144926E+001  +2.1600647552E-002 +1.4915362762E+002  +1.3570964617E+000 +1.2289685579E+002 
4263936.170 +1.9386732815E-001 +1.3039344245E+002  +6.2631595173E-003 -1.2920249155E+002  +4.7325441056E-003 +8.4813392661E+001  +4.9969599199E-001 +1.0608628773E+002 
4389081.352 +2.3975219098E-001 +1.4087543052E+002  +2.8534493612E-003 +1.2484414426E+002  +4.8412925614E-003 -1.2109193813E+002  +2.9612774763E-001 +1.1203971240E+002 
4514226.533 +2.1686463356E-001 +1.3997642050E+002  +5.5718761031E-003 -9.3279372962E+001  +4.3589823596E-003 +5.1883611143E+001  +7.4276218893E-001 +1.1374749093E+002 
4639371.715 +2.2177924289E-001 +1.3088659276E+002  +1.1079413799E-002 +5.5354038083E+001  +2.7015170549E-002 +8.0945838990E+001  +2.5959792818E+000 +1.2348326345E+002 
4764516.896 +3.4594509345E-001 +1.2787378190E+002  +3.0937807826E-002 -1.4009033023E+002  +1.2672015744E-002 +1.2559145459E+002  +1.0351106050E+000 +2.7861932134E+001 
4889662.078 +4.8207977253E-001 +1.2229993259E+002  +1.9381791300E-001 +1.7596906231E+002  +1.1901932367E-001 -1.4270089567E+002  +1.0408319278E+001 +1.5272172147E+001 
5014807.259 +5.2964256075E-001 +1.1848777191E+002  +8.9072621651E-002 +1.1212549521E+002  +5.9200301238E-002 -4.5024515362E+001  +1.8952085104E+000 +1.4735020592E+001 
5139952.441 +3.9883799334E-001 +1.3714029137E+002  +9.6149738232E-003 +1.2102744607E+001  +1.0597291162E-002 +1.4735279399E+002  +1.6567154855E+000 +1.8541906842E+001 
5265097.622 +4.5616053903E-001 +1.2542580366E+002  +2.7696672540E-002 +8.9731028003E+001  +3.0701613579E-002 +1.3451825680E+002  +1.3563057595E+000 +4.5524366292E+001 
5390242.804 +4.2021153858E-001 +1.1892446157E+002  +2.6488523832E-002 -1.4874341813E+002  +4.2857672019E-002 -7.2747550851E+001  +3.7638756946E+000 +1.2599091582E+002 
5515387.985 +3.8782391037E-001 +1.2728977804E+002  +3.2536628910E-002 -1.2371549334E+002  +2.4269955816E-002 -1.0103188556E+002  +2.0258760479E+000 +7.8308238424E+001 
5640533.166 +4.2536534017E-001 +1.2643615239E+002  +1.8802557946E-002 +1.1367976441E+002  +2.5153963318E-002 -1.6371723342E+002  +1.8507371990E+000 +7.6977291771E+001 
5765678.348 +5.5187050030E-001 +1.1954310516E+002  +3.4440241070E-002 -1.0894529168E+002  +5.7863994840E-003 -4.1840456705E+001  +1.6406789391E+000 +8.5000188364E+001 
5890823.529 +5.6970012596E-001 +1.2699495840E+002  +9.1735276061E-003 +1.7156409044E+002  +2.0575918169E-002 +3.6070056314E+001  +2.2797194631E+000 +4.2902600235E+001 
6015968.711 +6.9635192474E-001 +1.0837921461E+002  +2.5133399865E-002 +1.7170206869E+002  +5.3455449577E-002 +1.0798560511E+002  +2.5110381396E+000 +4.5783837134E+001 
6141113.892 +8.0690648604E-001 +1.1805744001E+002  +1.0890450738E-002 -1.6343035776E+001  +6.0465724115E-003 -1.5904678585E+001  +1.7015173935E+000 +4.5709750018E+001 
6266259.074 +9.2874740549E-001 +9.4695882112E+001  +2.5172315712E-002 +9.8679633413E+001  +1.7706943554E-002 +5.5479578145E+001  +1.7016873460E+000 +9.1798691169E+000 
6391404.255 +9.3213113032E-001 +9.0415047782E+001  +1.8789585628E-002 +1.6572364405E+002  +2.5138662958E-002 -1.3155531530E+001  +1.6713344363E+000 +2.4249794274E+001 
6516549.437 +1.1941991511E+000 +6.0132184387E+001  +1.6879873196E-002 -2.1286514749E+001  +3.0911381229E-002 +3.9665919902E+000  +1.2932593203E+000 +8.2715786893E+000 
6641694.618 +1.4279647260E+000 +7.1511095179E+001  +2.1968797401E-002 +1.7688251555E+002  +5.0194437789E-002 +6.7643777292E+001  +1.6567888654E+000 -5.7495486107E+000 
6766839.800 +1.6632844529E+000 +4.7979818412E+001  +1.9840856293E-003 +8.6114530881E+001  +7.8300012476E-003 -1.3956826549E+002  +1.5118090856E+000 +1.0881531642E+001 
6891984.981 +1.8065663131E+000 +4.0387471905E+001  +1.4395172215E-002 +1.6491995788E+002  +8.0180207610E-003 -1.6130883404E+002  +1.4462411273E+000 -3.9728996137E+000 
7017130.163 +1.5517810365E+000 +4.0644955267E+000  +1.7056088811E-002 -1.3592280111E+002  +6.8934077508E-003 +8.4937520223E+001  +1.4367652338E+000 -5.7920106291E+000 
7142275.344 +1.6486440206E+000 +7.8231245619E+000  +5.7337170249E-003 -1.0884100031E+002  +2.1884739298E-002 +8.0604643598E+001  +1.3245817083E+000 -1.8076372957E+001 
7267420.526 +1.5813597703E+000 -2.8423979361E+000  +4.9669956146E-003 -9.7257501166E+001  +1.6779731866E-002 +1.4506206382E+001  +1.2955229107E+000 -1.4713659912E+001 
7392565.707 +1.2694399723E+000 +3.9952367483E+000  +2.5302883060E-003 -3.8160809601E+001  +3.1824715664E-003 +9.3969371306E+001  +1.3243239658E+000 -9.1345222666E+000 
7517710.889 +1.2307930573E+000 +3.3698620061E+000  +5.3510286169E-003 +9.8492745493E+001  +1.1144197001E-002 -2.0942196183E+001  +1.1345344995E+000 -8.2228828294E+000 
7642856.070 +1.0527726434E+000 +2.1146203929E+000  +6.1980709614E-004 +1.6399878124E+002  +4.4148443389E-003 +7.8596794374E+001  +1.1660681961E+000 -6.9921503196E+000 
7768001.252 +9.4425520013E-001 +1.4672857888E+000  +5.0302457460E-003 +4.8901565728E+001  +3.9305531596E-003 +3.2967991739E+001  +9.6869416296E-001 -6.9357267796E+000 
7893146.433 +9.1212954059E-001 -2.4325036659E+000  +7.3948774684E-003 +6.0756352447E+001  +8.5852536553E-003 +1.3316076160E+002  +9.1513151170E-001 -6.1735337815E+000 
8018291.615 +8.5717967483E-001 +6.3370162010E+000  +7.5674941232E-003 +9.7863426834E+001  +8.3072948892E-003 +8.8284702820E+001  +8.7458939198E-001 +3.5906948074E-001 
8143436.796 +8.1070810243E-001 +2.6309459550E+000  +4.6575481596E-003 +8.5555638013E+001  +2.0822325525E-003 +1.7240914967E+002  +8.0461990311E-001 -3.3122631410E+000 
8268581.977 +7.2876147601E-001 +7.3995060173E+000  +1.5010513087E-003 -1.1697157216E+002  +2.2437755434E-003 -1.5371297546E+002  +7.2691161249E-001 -6.4348829897E-001 
8393727.159 +6.5393756740E-001 +6.1369917149E+000  +2.0122569411E-003 +1.7847409829E+002  +7.9040075336E-003 +1.1387168929E+002  +7.5566427295E-001 -1.5569814265E+000 
8518872.340 +6.9112487777E-001 +1.2038831689E+001  +2.0323301478E-003 +1.0625032904E+002  +2.5678735472E-003 +1.0607783907E+002  +7.7136024147E-001 -5.4960866020E+000 
8644017.522 +6.8837950859E-001 +5.7290985046E+000  +3.9738985398E-003 +1.1043235398E+002  +1.9922722843E-003 -3.7639105260E+001  +7.3268561609E-001 -5.0572944790E+000 
8769162.703 +6.4182919393E-001 +8.7361913410E+000  +4.8836138008E-003 +6.7702520132E+000  +4.6503553779E-003 +1.5437512067E+002  +6.7395450362E-001 -7.2101620656E-001 
8894307.885 +5.9457667363E-001 +1.0070355458E+001  +5.9302720847E-003 +8.5165908224E+001  +4.6894220728E-003 +6.8545634649E+001  +6.2538220044E-001 -2.1819524442E+000 
9019453.066 +5.9430948878E-001 +1.7782166225E+000  +5.6770274547E-003 +9.5393359101E+001  +5.8066559897E-003 +1.1389993691E+002  +5.8662958194E-001 -7.0967991146E+000 
9144598.248 +5.3334189264E-001 +5.4423347551E+000  +2.7262234850E-003 +1.1245407728E+002  +2.9550748778E-003 +4.6289521267E+001  +6.0129548756E-001 -3.0125549640E+000 
9269743.429 +5.9152422968E-001 +2.9593606640E+000  +3.9461676624E-003 +7.0950078276E+001  +2.5005639611E-003 +1.3330324983E+002  +5.6650184952E-001 -4.6343006673E-001 
9394888.611 +5.2761468253E-001 +4.5512715776E+000  +4.5145765525E-003 +2.6588459883E+001  +5.0294862995E-003 +9.4199344716E+001  +5.6605975954E-001 -1.0054072124E+001 
9520033.792 +5.8206443972E-001 -6.8839436641E-001  +5.8572420696E-003 +6.7179868198E+001  +2.6801855193E-003 +8.7895917368E+001  +5.7007530256E-001 -1.5555102598E+000 
9645178.974 +5.5848855638E-001 -4.5808690556E+000  +3.9735289087E-003 +1.0068354396E+002  +8.2098953605E-003 +5.7797726482E+001  +5.6703780087E-001 -3.5767427449E+000 
9770324.155 +5.4472367040E-001 +2.5406933036E+000  +5.9677029630E-003 +9.2322423564E+001  +2.3978156028E-003 +8.0228928277E+001  +5.3938743958E-001 -4.0775478036E+000 
9895469.337 +5.0808060444E-001 +2.1325880713E-001  +2.9744612214E-003 +8.3542978688E+001  +6.0617273653E-003 +1.0190057546E+002  +5.9049446721E-001 -2.9749459590E+000 
10020614.518 +5.3865112711E-001 -1.5881239059E+000  +5.5228162587E-003 +6.1747662906E+001  +4.5525868809E-003 +8.7705584966E+001  +6.0225058313E-001 -8.0866792405E+000 
10145759.700 +5.6716993712E-001 -8.6426700167E-001  +3.5746140495E-003 +4.8081803545E+001  +5.3666428739E-003 +1.3040931742E+002  +5.9406465306E-001 -2.2711324941E+000 
10270904.881 +5.7764521728E-001 +8.5898940501E+000  +2.3005462876E-003 +7.7490429946E+001  +5.8059315965E-003 +5.6955386556E+001  +5.7450699265E-001 -2.2008414068E+000 
10396050.063 +5.8071008848E-001 +3.4111632904E+000  +3.6638889162E-003 +8.2237583145E+001  +4.2822612701E-003 +1.2193089135E+002  +5.7489565386E-001 -5.9386191067E+000 
10521195.244 +5.6445844697E-001 +5.1314842104E+000  +4.7769967756E-003 +8.9615942822E+001  +5.2096531224E-003 +4.9861413916E+001  +5.7969613813E-001 +1.9884369001E+000 
10646340.426 +5.5430839524E-001 +7.1791942935E+000  +4.5054576933E-003 +8.4079160388E+001  +4.8214164008E-003 +1.0321056510E+002  +5.8700954542E-001 -1.5782239556E+000 
10771485.607 +5.4409954112E-001 +3.3718204750E+000  +7.0977585329E-003 +1.0856556545E+002  +3.4756090136E-003 +7.9274821793E+001  +6.1248079587E-001 +9.1720064102E-001 
10896630.788 +5.6862652284E-001 +4.9002975734E+000  +3.7462222613E-003 +1.2387556098E+002  +6.4462272360E-003 +9.5218991263E+001  +6.2335831179E-001 -1.3350716194E+000 
11021775.970 +5.8726892247E-001 +6.0438589418E+000  +2.0371443718E-003 +6.5458463849E+001  +2.5653762752E-003 +7.6500328304E+001  +5.7240340787E-001 +1.1242335606E+000 
11146921.151 +5.9307295135E-001 +4.7416042683E+000  +4.4485572428E-003 +9.3851498219E+001  +2.8170232930E-003 +9.6619659137E+001  +6.0290963029E-001 +2.4048092619E-001 
11272066.333 +5.9926128278E-001 +6.5233083804E+000  +4.4700602930E-003 +8.3272744488E+001  +3.1578996943E-003 +9.6552795249E+001  +6.0441813305E-001 +1.9038326933E+000 
11397211.514 +6.2323472276E-001 +3.7607219488E+000  +5.7282353642E-003 +7.9945335431E+001  +5.7922060775E-003 +8.9682617621E+001  +6.0733988710E-001 +1.1503060182E+000 
11522356.696 +6.0912020604E-001 +9.0961232447E+000  +5.1793293148E-003 +7.9168361843E+001  +4.0447989436E-003 +6.9396742028E+001  +6.5254240114E-001 -6.3237922321E-001 
11647501.877 +6.3112617378E-001 +3.0425966480E+000  +7.0013029878E-003 +8.2268509978E+001  +5.5983882916E-003 +1.0378564179E+002  +6.2955078568E-001 -3.9853891118E-001 
11772647.059 +6.1813336589E-001 +2.6566536640E+000  +6.0122483112E-003 +7.8559702070E+001  +4.7843515567E-003 +1.0929652246E+002  +6.5714038321E-001 +1.2723141214E+000 
11897792.240 +6.3810084035E-001 +5.2710756043E+000  +8.3873098571E-003 +9.2117812509E+001  +5.1422257915E-003 +1.0668696093E+002  +6.7949497223E-001 +1.0608259849E+000 
12022937.422 +6.6911489345E-001 +4.7612549592E+000  +4.9758412125E-003 +6.4308428623E+001  +6.7958489174E-003 +8.2257498467E+001  +6.8229794086E-001 -1.1810652523E+000 
12148082.603 +6.8277928394E-001 +4.2762427964E+000  +5.5932939784E-003 +7.8115187576E+001  +7.2735927838E-003 +7.8874774604E+001  +6.8018580621E-001 -8.5319036922E-001 
12273227.785 +7.0395611704E-001 +4.6486212602E+000  +7.1318311207E-003 +7.8622221258E+001  +6.3735126068E-003 +1.0163949419E+002  +7.0013169727E-001 -1.3442541322E+000 
12398372.966 +7.0919774960E-001 +4.7239308194E+000  +7.5622697932E-003 +7.9078454343E+001  +5.3431745947E-003 +1.1542019578E+002  +7.1846770532E-001 -1.1163851782E-001 
12523518.148 +7.4546977291E-001 +3.2807368637E+000  +5.7063800899E-003 +8.2476852290E+001  +4.9669786051E-003 +9.3470856016E+001  +7.1009098191E-001 +6.4067514838E-001 
12648663.329 +7.3810141135E-001 +6.5525914563E-001  +5.6580746956E-003 +9.1398803411E+001  +4.3759602226E-003 +7.8483974237E+001  +7.5082513801E-001 -1.2891751227E+000 
12773808.511 +7.3269404857E-001 +1.3809568676E+000  +7.2679416057E-003 +7.3456910189E+001  +5.3830990776E-003 +8.4144857811E+001  +7.6127008835E-001 +8.0820677692E-002 
12898953.692 +7.7212120706E-001 +1.5869066329E+000  +8.3930290184E-003 +9.6927087166E+001  +5.2596611714E-003 +8.1266715432E+001  +7.8669236132E-001 -2.9814936437E+000 
13024098.874 +7.6658472629E-001 +2.8238901991E+000  +6.2819940629E-003 +7.8770247905E+001  +6.8227854999E-003 +9.5529550527E+001  +7.7265401835E-001 -1.8883016131E+000 
13149244.055 +8.0998187409E-001 -6.5418458135E-002  +5.7821174513E-003 +9.6172774945E+001  +7.8973129343E-003 +9.0063420526E+001  +8.1535393760E-001 -1.7598398190E+000 
13274389.237 +8.1344169124E-001 +6.5645062442E-002  +6.9230911365E-003 +9.1828596960E+001  +7.8786703761E-003 +9.6571344918E+001  +8.2852037336E-001 -2.1323450368E+000 
13399534.418 +8.3471983398E-001 -1.2831895328E+000  +6.3944798100E-003 +8.4785600154E+001  +7.4188660199E-003 +9.3289328538E+001  +8.3022374921E-001 -1.5931381293E+000 
13524679.599 +8.6087934350E-001 -1.0993792227E+000  +7.5849194869E-003 +8.8821484301E+001  +6.4662928619E-003 +1.0175715430E+002  +8.5327871738E-001 -2.0486803722E+000 
13649824.781 +8.9084237417E-001 -2.0430706884E+000  +7.5454440016E-003 +9.7602050490E+001  +7.0733900251E-003 +9.9476794808E+001  +8.9307457784E-001 -3.1651884715E+000 
13774969.962 +9.1201911687E-001 -1.9786066287E+000  +6.9491332941E-003 +9.4987253868E+001  +7.0700845930E-003 +9.2653222988E+001  +8.9092433320E-001 -3.6874599677E+000 
13900115.144 +9.3472570337E-001 -2.5416298839E+000  +6.6787703343E-003 +7.9940007587E+001  +7.2429923304E-003 +9.3538099796E+001  +9.0407911810E-001 -3.6085444636E+000 
14025260.325 +9.0250529048E-001 -3.9014265941E+000  +7.3858981753E-003 +9.6679831454E+001  +5.8561695173E-003 +8.6836586648E+001  +9.1855816725E-001 -4.9858537791E+000 
14150405.507 +9.5832393025E-001 -3.9792746312E+000  +6.3001252695E-003 +8.7803457224E+001  +7.1513685308E-003 +8.1402677514E+001  +9.6689126739E-001 -4.2137116311E+000 
14275550.688 +9.6535149097E-001 -3.8206688587E+000  +8.0984599700E-003 +9.8979052101E+001  +8.4413252870E-003 +8.9811579768E+001  +9.8974219359E-001 -4.4537851743E+000 
14400695.870 +9.6448596612E-001 -5.0558877116E+000  +7.1761106106E-003 +8.5996441546E+001  +7.0471481182E-003 +9.2469652687E+001  +9.9308834457E-001 -5.3726862181E+000 
