!  2-Port S-parameters saved by WinCal
! VAR MeasName=S-Parameters (CALIBRATED_DATA) read from VNA (P5004A)
! VAR MeasDate=27/08/2024 14:51:04
! VAR NAME=S2_r3c8_RESET1_9k-100M_2
! VAR FILENAME=S2_r3c8_RESET1_9k-100M_2.S2P
! VAR DATE=27/08/2024 14:51:05
! VAR PHYS_PORTS=1,2
! VAR ObjTypeName=DATASET
! VAR IndexType=Frequency
!
# Hz S MA R 50
9000.000 +3.9752575769E-002 -1.7018529581E+002  +2.8050335612E-002 -7.6801313865E+001  +7.5233204464E-003 -1.3246815733E+002  +2.2386451534E-001 -1.3466592333E+002 
134145.181 +1.1104444026E-001 +1.6950457014E+002  +5.2605282122E-004 +1.2848070529E+002  +4.7105581535E-004 -1.6744547263E+002  +2.4316824708E-001 -1.7133944446E+002 
259290.363 +1.1217212394E-001 +1.6948634938E+002  +1.4505858004E-004 -6.6155131849E+001  +8.1426632854E-004 -1.6548207081E+002  +2.4133339078E-001 -1.6824679781E+002 
384435.544 +1.1352235658E-001 +1.7012255638E+002  +9.9994026350E-004 +2.7078774256E+001  +5.1225684270E-004 +1.1603262460E+002  +2.3998421960E-001 -1.6853022585E+002 
509580.726 +1.1308077040E-001 +1.7102666726E+002  +9.2411797815E-004 +2.6563931095E+001  +1.1528288060E-003 +1.6529038965E+002  +2.5402804782E-001 -1.6493176785E+002 
634725.907 +1.1835700642E-001 +1.7137762718E+002  +3.3518948362E-004 +1.1111303159E+002  +2.3871642637E-004 +1.4277848370E+002  +2.3491844990E-001 -1.6523060049E+002 
759871.089 +1.1495372069E-001 +1.7152995316E+002  +7.9314904475E-004 +2.6168736459E+001  +3.1890082975E-004 -1.7082880450E+002  +2.3967501539E-001 -1.6618233557E+002 
885016.270 +1.1744273816E-001 +1.7009301895E+002  +1.4216542416E-003 +2.4872552560E+001  +7.3598920313E-004 +1.1508804828E+002  +2.3662930349E-001 -1.6182279717E+002 
1010161.452 +1.2000163349E-001 +1.7064875746E+002  +1.4255561664E-003 -5.7893768641E+001  +1.2829623171E-003 +1.7368255480E+002  +1.9874473254E-001 -1.6284920099E+002 
1135306.633 +1.1487857030E-001 +1.7099405346E+002  +9.7008237548E-004 -4.1118459327E+001  +1.6715987029E-003 +5.2991320320E+001  +1.3871329860E-001 -1.7017433740E+002 
1260451.815 +1.2179555136E-001 +1.7189488483E+002  +1.4141144143E-003 -1.7189654617E+002  +1.3280100160E-003 +4.7456932445E+001  +2.4583506654E-001 -1.5761494901E+002 
1385596.996 +1.2514830663E-001 +1.7088389119E+002  +9.0492352663E-004 -1.2363194847E+002  +5.5023000704E-004 +5.1246682753E+001  +2.6085483489E-001 -1.5910475514E+002 
1510742.178 +1.2829765028E-001 +1.7159374682E+002  +4.8315722896E-004 +1.5971519112E+002  +1.6975319298E-003 +5.5950537884E-001  +2.4226495149E-001 -1.5714321946E+002 
1635887.359 +1.2970605248E-001 +1.7186278182E+002  +6.0818946513E-004 +1.1889551988E+002  +1.2126282411E-003 -1.7206768648E+002  +2.3106290443E-001 -1.5354693853E+002 
1761032.541 +1.2842165506E-001 +1.6876041599E+002  +7.7570783903E-004 -1.5154893517E+002  +9.9985549828E-004 +1.2803284917E+002  +2.2670520937E-001 -1.6384666261E+002 
1886177.722 +1.3240530661E-001 +1.6654818181E+002  +9.5418356781E-004 -1.7560114083E+001  +1.1557474355E-004 -1.1394198072E+002  +2.2741844337E-001 -1.6501844143E+002 
2011322.904 +1.3090267286E-001 +1.6575722130E+002  +6.7425602701E-004 -1.0036649044E+001  +1.0849579054E-003 -5.9655315098E+001  +2.1677067814E-001 -1.6478081794E+002 
2136468.085 +1.3156440146E-001 +1.6152072932E+002  +2.4450802277E-003 +1.5913889205E+002  +3.6979585438E-003 -5.4928275116E+001  +1.7961236511E-001 -1.7137467332E+002 
2261613.267 +1.3085593085E-001 +1.6174564464E+002  +3.9487269489E-003 +1.7702316705E+002  +1.9151602707E-003 -4.7314687092E+001  +2.2979937090E-001 +1.6490346139E+002 
2386758.448 +1.3908315936E-001 +1.6340754994E+002  +3.6255146795E-003 +1.5650050138E+002  +1.2205855270E-003 -1.6220971831E+002  +2.4785156625E-001 +1.7245783669E+002 
2511903.630 +1.3884841350E-001 +1.6083502149E+002  +1.9378133714E-003 +5.7740833462E+001  +2.1575270900E-003 -1.1453559085E+002  +2.3371430083E-001 +1.7442873664E+002 
2637048.811 +1.2633135762E-001 +1.6376269859E+002  +5.7882143128E-003 -1.3435415919E+002  +6.7903350730E-003 -5.1477707427E+000  +4.6078951649E-001 +1.4464999002E+002 
2762193.992 +1.2280760695E-001 +1.3971700179E+002  +8.3413282579E-002 +3.3358938726E+001  +8.1131530598E-002 +4.0312523375E+000  +1.3109667325E+000 +1.1918624696E+002 
2887339.174 +1.1707227411E-001 +1.6209170853E+002  +5.9316030613E-003 +1.2851256935E+002  +1.2813254421E-002 +1.1917568758E+002  +2.7636227762E-001 -1.0134420213E+002 
3012484.355 +1.1574337944E-001 +1.7308524655E+002  +1.3505618558E-002 +7.8474015162E+001  +7.1072144534E-003 -5.4159452038E+001  +2.7015377553E-001 -4.5567123662E+001 
3137629.537 +1.2283185856E-001 +1.6898320459E+002  +3.6974066525E-003 -1.3651318613E+002  +1.5915564580E-002 +1.5113944661E+001  +2.0768925442E-001 -9.1188390370E+001 
3262774.718 +1.3344393871E-001 +1.7338296312E+002  +6.2954345153E-002 -1.6887005343E+002  +2.1292215823E-002 +9.0087491197E+001  +5.9279937107E+000 +1.7540729295E+002 
3387919.900 +1.2931404842E-001 +1.3842043248E+002  +5.2105184538E-003 +4.1578663750E+001  +1.8444442120E-002 +3.8583219796E+001  +2.6835531849E-001 +1.5998241517E+001 
3513065.081 +1.4746682049E-001 +1.5170239179E+002  +2.6014495448E-002 +1.5555877222E+002  +1.8068617512E-002 -1.4468754144E+002  +5.2937107775E-001 -1.0455852480E+001 
3638210.263 +1.9105242952E-001 +1.3811599384E+002  +1.7772077995E-002 -1.7510358301E+002  +1.0693144664E-002 -1.5186084143E+002  +4.9865525594E-001 +1.4826200658E+002 
3763355.444 +1.8471833260E-001 +1.4542309976E+002  +1.3995392941E-002 -6.1102993706E+001  +1.8100497831E-002 +1.1025216335E+002  +6.8470439984E-001 +6.6906428605E+001 
3888500.626 +1.8130463958E-001 +1.4872772602E+002  +8.1533818990E-003 +3.3634971263E+001  +3.3126801560E-003 -3.4385923523E+001  +4.2940939286E-001 +3.1054810419E+001 
4013645.807 +1.9111814123E-001 +1.4654733615E+002  +2.4682368179E-003 -8.7902403077E+001  +1.3449558307E-002 -1.4697933970E+002  +8.1764130276E-001 +1.2463393536E+002 
4138790.989 +1.8551981973E-001 +1.3971949057E+002  +9.9594203197E-003 +1.2811677316E+002  +8.9236861531E-003 +1.7835079875E+002  +2.2451272669E-001 +5.6941230234E+001 
4263936.170 +1.6640744141E-001 +1.4053988358E+002  +1.3024258007E-002 +4.6102911118E+001  +7.6204585593E-003 +1.0651426816E+002  +6.8778583258E-001 +1.4027950911E+002 
4389081.352 +2.5174625945E-001 +1.4324072329E+002  +1.6113411503E-003 +1.2763389271E+002  +1.1373376755E-002 -1.7783049514E+001  +7.4292461735E-001 +8.4374708559E+001 
4514226.533 +2.1845032927E-001 +1.4280745716E+002  +1.9762523909E-002 -1.1516516834E+002  +8.2496331352E-003 +1.7772656992E+002  +1.4139627948E+000 +1.0521787872E+002 
4639371.715 +2.4813307589E-001 +1.2036929459E+002  +1.4172988865E-001 -7.6304068608E+001  +4.6576552402E-001 +1.5755744361E+002  +2.7473123939E+001 +3.7009579582E+001 
4764516.896 +3.6079735334E-001 +1.2828634163E+002  +1.7358621055E-002 -1.4297575102E+002  +5.1268351482E-002 +1.3374226071E+002  +1.6173972663E+000 -2.3143960273E+001 
4889662.078 +4.1384457804E-001 +1.3474224106E+002  +4.4422264905E-002 +3.2484593230E+001  +5.5534639653E-002 -1.2550106339E+002  +3.7279523526E+000 -9.2804499353E+001 
5014807.259 +3.8691950237E-001 +1.3841924695E+002  +1.0075997950E-001 +7.5232650792E+001  +6.7092033511E-002 -1.4205673967E+002  +3.8466650271E+000 +5.3918631609E+001 
5139952.441 +3.4512954145E-001 +1.2341680906E+002  +2.6776846033E-002 +1.4501567212E+002  +5.1961206199E-002 +5.8247818354E+001  +5.6547910167E+000 +1.2254189960E+002 
5265097.622 +3.6942475806E-001 +1.3084816354E+002  +4.8674562226E-002 +6.2331383814E+001  +1.1604992022E-002 +4.7136689989E+001  +3.5972542714E+000 +1.1096733765E+002 
5390242.804 +4.6361447979E-001 +1.1739036813E+002  +2.6940015129E-002 -1.3758412329E+002  +2.3843578187E-002 +2.6322127629E+001  +1.5167033721E+000 +5.4672273175E+001 
5515387.985 +4.4064351953E-001 +1.3331268590E+002  +9.6564636665E-003 -6.8379129740E+001  +5.5714107568E-003 -1.3267468979E+002  +1.3264960890E+000 +5.4896107185E+001 
5640533.166 +4.6653640519E-001 +1.2774014935E+002  +4.6124486290E-003 +1.0451075820E+001  +5.8291618611E-003 -1.1130536116E+002  +2.8257032390E+000 +1.1521891039E+002 
5765678.348 +4.5564910739E-001 +1.2329629358E+002  +1.0154681681E-002 -1.3500854055E+002  +4.1808343531E-002 -1.7279111326E+002  +4.6356282671E+000 +7.8386774173E+001 
5890823.529 +5.5121483153E-001 +1.3025693816E+002  +1.7144098451E-002 -9.6218604725E+001  +2.5504072617E-002 -1.6283113912E+002  +1.7473883678E+000 +5.1296551154E+001 
6015968.711 +5.8163591203E-001 +1.2106788175E+002  +5.7426802934E-003 +4.6859781678E+001  +3.3863338506E-002 -9.7704839685E+001  +2.0229865653E+000 +1.5381118697E+001 
6141113.892 +7.8667135948E-001 +1.1938006283E+002  +7.7692790100E-003 +1.1648519249E+002  +7.9349799725E-003 -3.4362016157E+001  +2.1990702158E+000 +4.5466781786E+001 
6266259.074 +1.2492901310E+000 +1.0072055434E+002  +8.6117640759E-003 -1.0417669691E+002  +3.2596208752E-003 +7.9821860089E+001  +1.5270742708E+000 +1.6349061228E+001 
6391404.255 +1.0869187809E+000 +9.8217690633E+001  +1.6681867397E-002 -2.8661299518E+001  +2.1905587363E-002 +1.5779895942E+002  +1.4223625421E+000 -1.2341628083E+001 
6516549.437 +1.3259457634E+000 +9.6034944782E+001  +1.3069360985E-002 -3.9390135261E+001  +1.6636713732E-002 +1.5203832047E+002  +1.3487921351E+000 +5.3132307798E+000 
6641694.618 +1.7172911228E+000 +6.3397640493E+001  +2.1648920076E-002 +1.0985605231E+002  +2.5135725908E-002 -9.2344298617E+001  +1.4625994590E+000 -1.0512064804E+001 
6766839.800 +1.6678640364E+000 +4.3242159078E+001  +2.4276173349E-002 +7.4435664956E+001  +2.8336650531E-003 +1.0786704669E+002  +1.6275914883E+000 +1.5190143689E+000 
6891984.981 +2.2247496967E+000 +1.6283203392E+001  +3.2862379212E-002 +1.2131777135E+002  +3.5747689884E-003 -1.0947963336E+002  +1.3409974782E+000 -6.5991463008E+000 
7017130.163 +1.6485999622E+000 +2.5588009901E+001  +1.4484501810E-002 +2.8493917399E+000  +9.1766687856E-003 +6.7246523346E+001  +1.1098740410E+000 -9.6147931455E+000 
7142275.344 +1.7057961540E+000 +1.3583627070E+001  +8.5638059673E-003 +9.2490372875E+001  +1.3391992867E-002 +2.3562979952E+001  +1.3082050281E+000 -8.3421007481E+000 
7267420.526 +1.5157744424E+000 -4.1255250468E-001  +6.0127822768E-003 +7.5728288936E+000  +1.5427189975E-002 +1.1782374401E+002  +1.3757104997E+000 -1.1618982940E+001 
7392565.707 +1.2908133330E+000 +4.1354853338E-001  +1.7420524403E-003 -1.4518719173E+002  +9.1849739681E-003 +1.2684407173E+002  +1.3908294513E+000 -6.2565206543E+000 
7517710.889 +1.1465686975E+000 +2.5512345810E-001  +4.9031098111E-003 +9.3075881311E+001  +8.7595840969E-003 +4.5307963327E+001  +1.3318479654E+000 -3.0627606966E+000 
7642856.070 +9.9680078681E-001 +7.4964527462E+000  +5.0218030636E-003 +7.6071046950E+001  +5.6496378291E-003 +1.0811988305E+002  +1.0342825902E+000 -9.7553727211E+000 
7768001.252 +9.7226379228E-001 -5.6591210419E-001  +4.5069142793E-003 +1.3245779953E+002  +6.9004199863E-003 +5.6639243719E+001  +9.8402888856E-001 -3.9073590610E+000 
7893146.433 +8.1795526463E-001 +3.9802947986E+000  +8.3656766627E-003 +1.0244032917E+002  +6.1147223868E-003 +8.5970010831E+001  +1.0062626691E+000 -4.7303682814E+000 
8018291.615 +8.6072661206E-001 -4.0510772764E+000  +4.9004882063E-004 -1.1779197753E+002  +7.7228680068E-003 +1.3977037288E+002  +8.8824118067E-001 -6.0080227241E+000 
8143436.796 +7.5358932964E-001 +3.4898132091E+000  +9.0084953603E-004 +4.6078018952E+001  +3.9044161309E-003 +1.1908014099E+002  +8.8740121309E-001 -6.4754739110E-001 
8268581.977 +8.1059699265E-001 +7.7250928825E+000  +5.4870682487E-003 +6.9545991611E+001  +6.3635414768E-003 +1.0749007788E+002  +7.7271813406E-001 -8.1458903801E+000 
8393727.159 +6.4386417802E-001 +4.4054919965E+000  +1.9731823657E-003 +1.2248286821E+002  +5.9623526159E-004 -3.4726106396E+001  +7.3650792486E-001 -1.4766595503E+000 
8518872.340 +6.9843605757E-001 +9.9372287858E+000  +3.0036162183E-003 +9.7972677768E+001  +4.0553627447E-003 +1.5407237615E+002  +7.4325636146E-001 +2.1092263863E+000 
8644017.522 +6.3628803195E-001 +3.6101402364E+000  +1.5720958714E-003 +1.2009919989E+002  +4.4976900261E-003 -1.2396622771E+002  +7.1597895120E-001 +2.4886703271E+000 
8769162.703 +6.2827788072E-001 +5.6234527105E+000  +9.7014553844E-003 +3.7838149412E+001  +4.3669904079E-003 +4.0618139862E+001  +7.2526093108E-001 -3.4370965250E+000 
8894307.885 +6.0737163395E-001 +5.7357988642E+000  +6.6300771953E-003 +1.0415690348E+002  +2.4897115007E-003 +1.1207656406E+002  +6.3913709177E-001 -1.6952109183E+000 
9019453.066 +6.2372269940E-001 +1.7599747619E+000  +2.6488674281E-003 +1.6154597878E+002  +1.1018399113E-003 +5.2025560473E+001  +6.0335027473E-001 -1.5502202486E+000 
9144598.248 +5.6510414104E-001 +3.4669287186E+000  +3.2161095481E-003 +3.2552581482E+001  +3.9761205180E-003 +9.6197383787E+001  +5.9001396321E-001 -1.6510750940E+000 
9269743.429 +6.0896247927E-001 +2.6254263390E+000  +3.9752503525E-003 -3.9199133112E+000  +1.9716984147E-003 +1.5907480542E+002  +6.5232938990E-001 +3.6746071591E-001 
9394888.611 +5.4837785215E-001 +3.8469412709E+000  +2.3150767081E-003 +5.4085303031E+001  +6.2141065136E-003 +7.6686952316E+001  +6.1900321852E-001 -3.9962807502E+000 
9520033.792 +5.3190998040E-001 -2.4356643634E-001  +4.9489816612E-003 +9.9363258154E+001  +2.9278782586E-003 +1.6141513728E+002  +6.2745380586E-001 -2.8936238564E+000 
9645178.974 +5.6829176046E-001 +1.2787855744E+000  +4.1407765180E-003 +5.2685712412E+001  +1.4760866951E-003 +8.7068882215E+001  +5.8190651411E-001 -7.4868332202E+000 
9770324.155 +5.5540626270E-001 -7.3745941759E-001  +6.4295002010E-003 +9.1708013912E+001  +3.9803988932E-003 +7.3031712309E+001  +5.3884015570E-001 -7.8758916919E+000 
9895469.337 +5.3566855596E-001 +7.0352400605E-003  +3.8890922878E-003 +4.0412295735E+001  +3.2431703555E-003 +9.5336417354E+001  +5.5757199735E-001 -7.3987004313E+000 
10020614.518 +5.3809975796E-001 +3.2667675057E+000  +5.1284968912E-003 +9.7053382872E+001  +1.8193257397E-003 +5.8458037178E+001  +5.7506443819E-001 -9.6407353390E+000 
10145759.700 +5.8146008031E-001 +1.9264000055E+000  +3.7707951761E-003 +8.2783363427E+001  +6.3851579955E-003 +1.0485018320E+002  +5.5852702786E-001 -4.5836536233E+000 
10270904.881 +5.7454201589E-001 +3.9121954954E+000  +1.4787854795E-003 +5.4735805094E+001  +5.0514934941E-003 +1.0856475321E+002  +5.5876992496E-001 -2.6702207779E+000 
10396050.063 +5.6148709356E-001 +7.0401401380E+000  +2.1196393920E-003 +6.5630786754E+001  +3.0314957292E-003 +9.4262803420E+001  +5.5694447174E-001 -1.9762455509E+000 
10521195.244 +5.2860791323E-001 +2.8995747585E+000  +6.2628957211E-003 +1.2775207118E+002  +6.0668373053E-003 +9.9986789683E+001  +5.7966864960E-001 -3.2002344941E+000 
10646340.426 +5.6279363432E-001 +7.9656736282E+000  +3.8868009852E-003 +7.2243114936E+001  +4.0593067088E-003 +1.2573741115E+002  +6.1603871668E-001 -3.7579335697E+000 
10771485.607 +5.9622582203E-001 +5.1456184964E+000  +3.3913533892E-003 +8.4643622252E+001  +4.1393795082E-003 +6.9882219832E+001  +5.9665205376E-001 +2.2983091003E+000 
10896630.788 +5.6469601512E-001 +5.6318439658E+000  +3.6314070890E-003 +7.7971344089E+001  +2.7754311735E-003 +1.4850098448E+002  +5.5455647910E-001 +3.0700360266E+000 
11021775.970 +5.9591987828E-001 +5.2831960285E+000  +7.6338507799E-003 +1.1670749857E+002  +4.0545002033E-003 +8.0431944536E+001  +6.3667345562E-001 -2.0755642516E-001 
11146921.151 +5.7804589932E-001 +7.5939318435E+000  +4.3099948540E-003 +8.4791473838E+001  +3.7676464582E-003 +9.6412956214E+001  +6.2584942599E-001 +1.0610081963E-001 
11272066.333 +6.1926986689E-001 +6.8520403576E+000  +6.1303372436E-003 +6.9994726644E+001  +5.7222918766E-003 +1.0650388015E+002  +6.2021966069E-001 +3.9654518915E-001 
11397211.514 +6.5831336603E-001 +5.6199408881E+000  +6.2408811580E-003 +7.1539300725E+001  +4.9129455159E-003 +1.2270814539E+002  +6.3991588325E-001 +1.4238651614E+000 
11522356.696 +6.4129412614E-001 +9.9862121632E+000  +5.8437497008E-003 +7.9385972809E+001  +4.7392012351E-003 +9.2649332548E+001  +6.4074131221E-001 +1.7882518168E+000 
11647501.877 +6.4027786885E-001 +7.0631023953E+000  +4.3124381587E-003 +8.9839293156E+001  +4.5834041678E-003 +9.0911863387E+001  +6.9170880035E-001 +9.8989567035E-001 
11772647.059 +6.5055925888E-001 +5.4147031979E+000  +7.0030194476E-003 +7.6821918993E+001  +3.4601185562E-003 +9.1440727895E+001  +6.4970582166E-001 +3.2194178814E+000 
11897792.240 +6.6792087440E-001 +3.2416086918E+000  +4.0719569063E-003 +9.9026017090E+001  +3.8288308399E-003 +9.1935317441E+001  +6.4047885178E-001 +4.5447528569E-001 
12022937.422 +6.6934931276E-001 +4.0830136822E+000  +3.4518743845E-003 +1.2070112902E+002  +4.6102407472E-003 +9.7873190265E+001  +6.7252249701E-001 +4.4361926564E-001 
12148082.603 +6.7979473770E-001 +3.2623867636E+000  +4.4169932145E-003 +8.6258905641E+001  +5.1543156119E-003 +1.1583926834E+002  +6.9747016231E-001 +4.7996321882E-001 
12273227.785 +7.0305541684E-001 +4.6057777801E+000  +6.8291377330E-003 +8.7219819212E+001  +4.6654674805E-003 +9.3443207751E+001  +7.1572690401E-001 -8.8297334242E-001 
12398372.966 +6.9336174924E-001 +4.0127746200E+000  +5.9634579437E-003 +9.7615473045E+001  +6.6240045043E-003 +1.0567711526E+002  +7.3260022213E-001 -9.4840402105E-003 
12523518.148 +7.2948270354E-001 +4.0246253702E+000  +6.0484005013E-003 +8.7046770270E+001  +5.0457538251E-003 +7.6546369358E+001  +7.2564648301E-001 -8.1835556431E-001 
12648663.329 +7.3400971725E-001 +2.7561865184E+000  +7.2643985557E-003 +8.1451049402E+001  +6.7658115585E-003 +9.2652379600E+001  +7.6476985604E-001 -1.2674222161E+000 
12773808.511 +7.5055870314E-001 +1.2195654310E+000  +5.0043634877E-003 +7.9521120603E+001  +5.9486066962E-003 +7.9563768128E+001  +7.7987702544E-001 -2.8740185408E+000 
12898953.692 +7.4784264726E-001 +2.0559421271E+000  +7.6019450651E-003 +9.6479472166E+001  +5.4517214043E-003 +9.7374987652E+001  +8.0949145131E-001 -3.2479295336E+000 
13024098.874 +7.6597283324E-001 +3.3117745141E-001  +7.3355176633E-003 +8.5483467514E+001  +6.4310434380E-003 +9.1797878174E+001  +7.5077176803E-001 -3.4349670735E+000 
13149244.055 +8.2360074793E-001 +1.2474123997E+000  +6.9832325089E-003 +1.0649243569E+002  +6.5304964201E-003 +8.5528230633E+001  +8.0534077785E-001 -1.3651839962E+000 
13274389.237 +8.0992588634E-001 -1.6055273363E+000  +4.7568382637E-003 +9.0419183083E+001  +5.4078667875E-003 +9.1790398183E+001  +8.3601993488E-001 -2.4030968054E+000 
13399534.418 +8.4482587802E-001 -1.6979372803E-001  +6.5842529556E-003 +9.5826083538E+001  +6.8899207714E-003 +9.7752930831E+001  +8.3879984396E-001 -2.0331416752E+000 
13524679.599 +8.3623971828E-001 -1.1975443378E+000  +8.6508945427E-003 +9.2620193665E+001  +7.0502226457E-003 +9.7607151113E+001  +8.6981376843E-001 -2.5864577480E+000 
13649824.781 +8.7842051813E-001 -1.8949929813E+000  +5.6947345208E-003 +9.7759310113E+001  +6.1561769829E-003 +8.3410813808E+001  +8.8896085050E-001 -4.7506549591E+000 
13774969.962 +9.0111329725E-001 -2.2506626409E+000  +6.9966499066E-003 +8.2644726647E+001  +7.1405823716E-003 +1.0820623306E+002  +9.1065613259E-001 -3.9248107508E+000 
13900115.144 +9.0108033617E-001 -3.3123316669E+000  +6.7029925350E-003 +9.2279829925E+001  +8.2381318511E-003 +9.4186942408E+001  +9.1769819212E-001 -3.3624858189E+000 
14025260.325 +9.0924691084E-001 -2.8399192490E+000  +4.6414188101E-003 +8.4309729907E+001  +6.5878787483E-003 +9.3030597692E+001  +9.3525283487E-001 -4.9362498632E+000 
14150405.507 +9.4656438610E-001 -4.0839199857E+000  +7.6908905891E-003 +9.0803436100E+001  +6.2957669710E-003 +9.7775195606E+001  +9.5937157022E-001 -4.3480224058E+000 
14275550.688 +9.5732139661E-001 -5.6410217779E+000  +6.8538541560E-003 +8.1781277143E+001  +4.5940855530E-003 +8.5904219957E+001  +9.6725358777E-001 -5.7358997035E+000 
14400695.870 +9.8587902137E-001 -5.7937118178E+000  +7.8923920717E-003 +9.1142067582E+001  +7.3284803626E-003 +8.9140253904E+001  +1.0100491776E+000 -5.3383235684E+000 
