!  2-Port S-parameters saved by WinCal
! VAR MeasName=S-Parameters (CALIBRATED_DATA) read from VNA (P5004A)
! VAR MeasDate=28/08/2024 16:28:39
! VAR NAME=S2_r8c9_RESET3_9k-100M_2
! VAR FILENAME=S2_r8c9_RESET3_9k-100M_2.S2P
! VAR DATE=28/08/2024 16:28:39
! VAR PHYS_PORTS=1,2
! VAR ObjTypeName=DATASET
! VAR IndexType=Frequency
!
# Hz S MA R 50
9000.000 +9.0422772987E-002 -1.6861392287E+002  +2.8373601045E-003 -1.0784677582E+001  +1.6453368607E-002 -1.4341331022E+002  +2.9159165538E-001 -1.2589890883E+002 
134145.181 +1.1101648031E-001 +1.6984360067E+002  +5.0144674289E-004 +2.7828704556E+000  +7.9487580901E-004 -6.4940880123E+000  +2.4068370397E-001 -1.7161972663E+002 
259290.363 +1.1366571155E-001 +1.6992320287E+002  +2.9598294708E-004 -1.2142120257E+002  +4.0730280410E-004 +1.4774850985E+001  +2.4800372840E-001 -1.6925116118E+002 
384435.544 +1.1471452457E-001 +1.7026800223E+002  +7.4206720331E-004 +1.1280441468E+002  +4.4329459952E-004 +8.9437332096E+001  +2.3478773466E-001 -1.6805572169E+002 
509580.726 +1.1381602943E-001 +1.7063779447E+002  +1.5916634843E-003 +1.7614461504E+002  +1.0439759553E-003 +1.5265394625E+002  +2.5323004318E-001 -1.6526784994E+002 
634725.907 +1.1853725478E-001 +1.7132797078E+002  +1.3225605762E-004 -1.7237720552E+002  +1.0784106700E-003 +5.2899436877E+000  +2.6299222390E-001 -1.6650524247E+002 
759871.089 +1.1826906521E-001 +1.7073117752E+002  +1.9840144541E-004 -1.3042100635E+002  +1.0444128985E-003 -1.1847057617E+002  +2.4982941269E-001 -1.6598115239E+002 
885016.270 +1.2072649355E-001 +1.6931628100E+002  +1.8525006957E-004 -1.1693829634E+002  +6.7179201927E-004 -8.8569087459E+001  +2.5195389568E-001 -1.6666873521E+002 
1010161.452 +1.1946659172E-001 +1.6977874501E+002  +1.2940170544E-003 +1.5380395786E+002  +2.9349960800E-003 +8.3193730469E+001  +2.0049056883E-001 -1.6131667969E+002 
1135306.633 +1.1869042121E-001 +1.6953852905E+002  +1.7188780651E-003 -4.8879725586E+001  +1.8048571389E-003 -2.2388760165E+001  +1.5078235356E-001 +1.7588717687E+002 
1260451.815 +1.2090014234E-001 +1.7126683647E+002  +6.9698728998E-004 -4.2507802816E+001  +1.2152204735E-003 +4.5308321657E+001  +2.3707735482E-001 -1.6008367561E+002 
1385596.996 +1.2373815848E-001 +1.7338619652E+002  +1.2297964072E-003 +5.9743954418E+001  +1.2060045618E-003 -1.5861727133E+002  +2.5924867434E-001 -1.5840850505E+002 
1510742.178 +1.3021692745E-001 +1.7156452295E+002  +1.4269835547E-003 -8.8199743749E+000  +7.7901152182E-004 +7.8620444341E+001  +2.5864367217E-001 -1.5681404594E+002 
1635887.359 +1.2865381611E-001 +1.7184888940E+002  +8.6295411452E-004 -1.7390846754E+002  +4.2701602511E-004 +6.4638018353E+001  +2.6220120578E-001 -1.5840833076E+002 
1761032.541 +1.2622951987E-001 +1.6880038223E+002  +1.8244572157E-003 -1.3739259354E+001  +1.6460772622E-003 -1.0929802057E+002  +2.2586565443E-001 -1.5202925444E+002 
1886177.722 +1.2853693571E-001 +1.6943013497E+002  +2.0230390726E-003 -1.4894368602E+002  +1.0845090721E-003 +3.3685784264E+001  +2.2555969684E-001 -1.6296676332E+002 
2011322.904 +1.2556458011E-001 +1.6774406224E+002  +1.5610336026E-003 +1.3384794222E+002  +1.3382498036E-003 -1.2171936944E+002  +1.9790314440E-001 -1.6126886157E+002 
2136468.085 +1.3247854791E-001 +1.6723114601E+002  +1.9614669674E-003 -1.5298605824E+002  +3.0114380355E-003 -1.3393250292E+002  +8.4556759600E-002 -1.6239680636E+002 
2261613.267 +1.3510851021E-001 +1.6377636256E+002  +4.1217059269E-003 +6.8960752454E+001  +3.5741491549E-003 +8.2909868271E+001  +1.5636944686E-001 +1.6910951190E+002 
2386758.448 +1.3440647106E-001 +1.6347226402E+002  +1.6654893273E-003 -2.7563500505E+001  +3.7822255987E-003 +1.0342861376E+002  +1.7906652065E-001 -1.6794320106E+002 
2511903.630 +1.3502677683E-001 +1.6499509775E+002  +2.1061114089E-003 +6.2460446781E+001  +2.3984325982E-003 -1.6824022568E+002  +1.8163498753E-001 -1.7288263293E+002 
2637048.811 +1.2585985163E-001 +1.6338154529E+002  +2.4281670392E-003 -1.7158747526E+002  +4.6457885513E-003 +8.1924270172E+001  +2.6543481658E-001 +1.4638385541E+002 
2762193.992 +1.2601543600E-001 +1.7306044508E+002  +1.5945187407E-003 -1.4618636335E+002  +1.2168335213E-002 +2.0803525563E+001  +3.9338841132E-001 +1.3682004091E+002 
2887339.174 +1.2562447913E-001 +1.7575920574E+002  +3.1892750332E-003 -6.6760729975E+001  +8.0304897574E-003 +1.2667748965E+002  +4.5680603085E-001 -1.1482330590E+002 
3012484.355 +1.2995508045E-001 +1.6918698289E+002  +7.2785751020E-004 +2.7301052461E+001  +9.1897701986E-003 -1.6259107467E+002  +1.1116465419E-001 -1.0148322165E+002 
3137629.537 +1.1464889643E-001 +1.7395267475E+002  +6.8025629983E-003 -1.2176777446E+002  +1.3218704037E-002 -3.7534687659E+001  +1.7845108878E-001 -6.8003433452E+001 
3262774.718 +1.2358099736E-001 +1.6733436118E+002  +4.0503230010E-003 -1.1539848816E+002  +1.0501319030E-002 -9.2320381861E+001  +1.1435980572E-001 -1.0288977997E+002 
3387919.900 +1.0821983549E-001 +1.5860697667E+002  +7.1647235563E-002 -1.0152684143E+001  +1.3813192044E-002 -1.0145634484E+002  +1.9854652648E+000 +1.5687895127E+002 
3513065.081 +1.3329186097E-001 +1.5387108706E+002  +7.2660758254E-003 +8.7143867018E+001  +5.9782859574E-003 +1.7778384622E+002  +3.6671477662E-001 +1.1441399411E+002 
3638210.263 +1.8071551155E-001 +1.5083913875E+002  +8.1643422253E-003 -1.3268471404E+002  +7.7042908478E-003 -5.0817863096E+001  +7.0987297354E-001 +1.5697969933E+002 
3763355.444 +1.6329264808E-001 +1.3538116451E+002  +6.2438750508E-003 +1.7095661189E+002  +3.9847629052E-003 -2.3270968774E+001  +3.0083630731E-001 +1.3150731654E+002 
3888500.626 +1.8057695604E-001 +1.4580735733E+002  +1.5170513397E-002 +1.0079169896E+002  +1.0406687892E-002 -7.0322946671E+001  +3.6920263166E-001 +1.1018408861E+002 
4013645.807 +1.6106850586E-001 +1.4877439003E+002  +9.7465651940E-003 +1.0476095698E+002  +5.9499672349E-003 +6.2321053429E+001  +2.7496560840E-001 +1.4122069897E+002 
4138790.989 +1.7837352270E-001 +1.3562430100E+002  +1.4680694457E-002 -8.9537462911E+001  +1.9568084741E-002 +1.0798525710E+002  +7.7727011652E-001 +8.9662202826E+001 
4263936.170 +1.9108043779E-001 +1.4471678792E+002  +1.5645754455E-002 +1.3449714724E+001  +9.6124194868E-003 +5.5825426926E+000  +7.2402068855E-001 +1.1096186949E+002 
4389081.352 +2.0226520996E-001 +1.4913373699E+002  +1.5449819483E-002 +1.3954564086E+002  +1.1200111219E-002 +1.1537947027E+002  +5.0001611112E-001 +1.0053316407E+002 
4514226.533 +2.1915819097E-001 +1.2908686174E+002  +1.0596322385E-002 +1.4062594254E+002  +6.6209693827E-003 -6.8224376721E+001  +1.3722014287E+000 +8.0807592265E+001 
4639371.715 +2.6566088983E-001 +1.2107660609E+002  +2.2390719234E-002 -1.1939166472E+002  +3.5275013104E-002 -8.9093837039E+001  +2.5790670052E+000 +1.1329895110E+002 
4764516.896 +3.1404462688E-001 +1.3195470917E+002  +1.7498948122E-002 +2.5807388844E+001  +2.6959350854E-002 -1.3947874894E+002  +2.3795733607E+000 +7.2575260337E+001 
4889662.078 +6.1242854138E-001 +1.2622823883E+002  +2.3058180541E-002 +1.5999724901E+002  +6.8131046013E-002 -1.2425306154E+002  +3.9886450712E+000 -6.4026818917E+001 
5014807.259 +4.1988156961E-001 +1.2632369914E+002  +3.2720766831E-002 +1.7131363781E+002  +8.6868225381E-002 -1.4647889430E+002  +3.9211952804E+000 +1.3367107375E+002 
5139952.441 +3.0655270562E-001 +1.2242000079E+002  +2.3963166388E-002 +1.0529643301E+002  +5.3435677408E-002 -1.2166439501E+002  +2.8212293896E+000 +1.0043410031E+002 
5265097.622 +3.5128663590E-001 +1.2032471626E+002  +1.0998625649E-002 +1.5098716653E+002  +5.3899371733E-003 +1.0579479427E+002  +1.3132050843E+000 +7.7232864051E+001 
5390242.804 +3.7054684164E-001 +1.2864055545E+002  +5.4450148901E-002 +5.4831965859E+001  +2.7987448607E-002 +1.6522983981E+002  +2.4545223583E+000 +1.0754230279E+002 
5515387.985 +4.1431837363E-001 +1.2248601007E+002  +2.8387007637E-002 +1.6089223052E+002  +4.2405764244E-002 -9.8295100092E+001  +2.9224224897E+000 +8.3794003542E+001 
5640533.166 +5.0697816416E-001 +1.2008999196E+002  +4.9717717732E-002 +1.7554399030E+002  +1.1549434793E-002 -1.5192172176E+002  +2.5069053506E+000 +8.0971361867E+001 
5765678.348 +5.3046891831E-001 +1.2450290225E+002  +3.6640936648E-002 +1.1697579681E+002  +7.1767836897E-003 -1.0718342996E+002  +1.9975497075E+000 +6.0889614996E+001 
5890823.529 +5.2892010702E-001 +1.2221414646E+002  +1.0850454522E-002 +1.0013577042E+002  +4.2366675636E-002 +1.1769553362E+002  +2.6936687689E+000 +5.2502081379E+001 
6015968.711 +6.5178963049E-001 +1.2044385008E+002  +2.5590705884E-002 +1.7928638689E+002  +4.0538239401E-002 +3.5611890539E+001  +3.4429421540E+000 +3.1363810885E+001 
6141113.892 +6.9392498568E-001 +1.2342346821E+002  +1.6449017978E-002 +1.4405150253E+002  +1.5059439730E-002 +1.1551923773E+002  +1.6330488565E+000 +1.5352132883E+001 
6266259.074 +8.1567208308E-001 +9.0781430220E+001  +2.2389202950E-002 +9.5522908836E+001  +1.5795534139E-002 -8.9474393332E+001  +1.5404097007E+000 +3.3520395553E+001 
6391404.255 +1.1471014517E+000 +9.7450105828E+001  +3.1002404802E-002 -1.5600591725E+002  +2.3001410902E-002 +1.6142670296E+002  +1.5729270123E+000 +2.9381260429E+001 
6516549.437 +1.0544877582E+000 +7.2720426320E+001  +2.5138567028E-002 -1.2172041373E+002  +1.3423141496E-002 +4.8066490109E+000  +1.3448645449E+000 +1.2312061597E+001 
6641694.618 +1.1967370095E+000 +7.1566739587E+001  +1.0985169468E-002 -1.5659210844E+002  +1.2509400480E-002 +1.6171467425E+002  +1.2612002828E+000 +1.0544379251E+001 
6766839.800 +1.8053278984E+000 +4.6369435104E+001  +8.7896985197E-003 +1.3059423974E+002  +2.0008940897E-002 -1.7501544776E+002  +1.4399474338E+000 +3.2816650022E+000 
6891984.981 +1.4786282205E+000 +4.9727720451E+001  +1.3113315568E-002 +8.3068352696E+001  +8.6231450548E-003 -1.2512663748E+002  +1.3568762183E+000 -6.4914842313E+000 
7017130.163 +1.8674794441E+000 -1.0406804538E+000  +3.0050328249E-002 +1.0573877745E+001  +2.3361268046E-002 +1.6090007891E+002  +1.2694096374E+000 -7.5504426921E+000 
7142275.344 +1.8660157661E+000 +1.8481242659E+001  +5.4754018038E-003 +5.4275884212E+001  +1.0232323573E-002 -3.0095574711E+001  +1.2276261151E+000 -7.5208065024E+000 
7267420.526 +1.4386452671E+000 -4.6181947068E+000  +1.3992486159E-002 +9.5146094730E+001  +2.1803533889E-003 +1.1377423276E+002  +1.1874325685E+000 -9.9493175762E+000 
7392565.707 +1.3000310341E+000 -3.5871753181E-001  +8.9162043643E-003 +2.6903949230E+000  +8.3966958448E-003 +1.1894286102E+002  +1.3500526242E+000 -9.8861435341E+000 
7517710.889 +1.0604536955E+000 -5.7218796090E+000  +6.7202070930E-003 +1.5440484706E+002  +5.8770460384E-003 +9.9623279642E+001  +1.3216206883E+000 -1.0752415719E+001 
7642856.070 +1.0715631223E+000 -3.3168650723E+000  +9.1397648183E-003 +1.0917261477E+002  +4.7894207755E-003 +1.5119779242E+002  +1.0705023957E+000 -4.4104333592E+000 
7768001.252 +9.5979522767E-001 +3.3606152317E+000  +8.3901981243E-003 +1.3709106349E+002  +4.1083144741E-003 +1.2269452979E+002  +9.4872552202E-001 -1.9752802729E+000 
7893146.433 +8.5984205814E-001 -5.1992344888E-001  +6.7377425702E-003 +1.0406842180E+002  +6.4366267169E-003 +2.1457467852E+001  +9.4236968119E-001 +1.5207450849E+000 
8018291.615 +8.1645781379E-001 +8.8842962917E+000  +1.3942387891E-003 -1.7432861442E+002  +4.8696696015E-003 +5.6853963011E+001  +8.6184802274E-001 -1.6916008722E+000 
8143436.796 +7.8044206635E-001 +3.9276242533E+000  +5.3255707044E-003 +1.6703690316E+002  +4.6447371316E-003 +9.6135459782E+001  +8.9181167272E-001 -2.5697387083E+000 
8268581.977 +6.9969494109E-001 +6.9677635292E+000  +5.8386044628E-003 +8.0152183666E+001  +1.3113698740E-003 +4.2604851032E+001  +7.0640351005E-001 +5.3480050826E-001 
8393727.159 +6.9099766616E-001 +7.2822512408E+000  +3.2920337027E-004 -1.0507983869E+002  +6.4183908879E-003 +9.0895504531E+001  +6.7959898163E-001 -9.6672612022E-001 
8518872.340 +6.7340066493E-001 +9.7812689830E+000  +5.9343157004E-004 +1.0979962912E+002  +6.2613783391E-003 +1.3150657884E+002  +6.9781793774E-001 -3.8859886874E-001 
8644017.522 +6.1901369119E-001 +7.0054644648E+000  +5.6613164919E-003 +1.1532117671E+002  +6.5500277228E-003 +9.8703407214E+001  +6.6189994853E-001 +2.2329796865E+000 
8769162.703 +5.9774594778E-001 +2.8291126368E+000  +6.5279564765E-004 +1.4308939481E+002  +7.1329428305E-003 +8.3097200378E+001  +6.7347566846E-001 -2.0289500358E+000 
8894307.885 +5.7119149991E-001 +8.4170867539E+000  +2.8749204259E-003 +6.5560067507E+001  +4.6168866797E-003 +8.8916532265E+001  +6.4438981720E-001 -6.4128119572E-001 
9019453.066 +5.8650315556E-001 +7.9519510847E+000  +4.6135462361E-003 +9.9554801383E+001  +3.6120858371E-003 +6.6635260016E+001  +6.1292556089E-001 -2.0003653729E+000 
9144598.248 +5.7008948691E-001 +5.8434622664E+000  +2.1255630630E-003 -1.2438830428E+002  +3.6453679721E-003 +1.1961956627E+002  +5.4190262109E-001 -4.3540119096E+000 
9269743.429 +6.0524377785E-001 +6.4428906332E+000  +1.5955002174E-003 +2.5315349974E+001  +7.6388906876E-003 +1.0054589453E+002  +6.1565479366E-001 -2.9089471116E+000 
9394888.611 +5.6228946053E-001 -1.1568170442E+000  +1.6986100837E-003 +4.6349424737E+001  +2.0266819936E-003 +7.7225825544E+001  +5.8163593821E-001 -2.6572721783E+000 
9520033.792 +5.6984831835E-001 -1.2772281710E+000  +3.1971538152E-003 +7.2016544546E+001  +6.7591078365E-003 +1.0636712593E+002  +5.8719230826E-001 -4.2094306988E+000 
9645178.974 +5.2094264812E-001 +2.2054996455E+000  +3.5340372925E-003 +4.2473375262E+001  +6.0088888909E-003 +1.0288109851E+002  +6.0091899349E-001 -3.3876294625E+000 
9770324.155 +5.2117941154E-001 +2.9856043050E+000  +5.0618797826E-003 +1.1255411509E+002  +5.5762841810E-003 +1.1227382186E+002  +5.4280771955E-001 -1.9328450503E+000 
9895469.337 +5.3894955198E-001 +2.6544475308E+000  +5.6980046878E-003 +8.9654948362E+001  +6.0765261935E-003 +5.7138046973E+001  +5.3919374750E-001 -4.2323296689E+000 
10020614.518 +5.7221398553E-001 -1.3223375353E+000  +1.9985981740E-003 +8.9247256160E+001  +4.7844985224E-003 +1.1074663882E+002  +6.3348868224E-001 -5.8143709978E+000 
10145759.700 +5.3671659217E-001 +1.2599776594E+000  +4.4189247958E-003 +4.2130136048E+001  +3.5333573884E-003 +5.2723340986E+001  +6.0605136195E-001 -3.7782781761E+000 
10270904.881 +5.2658023591E-001 +1.1105098186E+000  +5.0311632258E-003 +6.2695972153E+001  +2.7446793698E-003 +1.1065478954E+002  +5.8052739696E-001 -1.6795980295E+000 
10396050.063 +5.7130316913E-001 +6.5414105400E+000  +2.1232383346E-003 +8.6629710580E+001  +5.8808786191E-003 +1.1758567367E+002  +6.1045340795E-001 +1.1050184382E+000 
10521195.244 +5.4529294169E-001 +6.6914149163E+000  +4.4376578937E-003 +8.8211833040E+001  +2.9634928844E-003 +6.3217456757E+001  +6.0653660804E-001 -1.8954776981E-001 
10646340.426 +5.4691553433E-001 +6.6709207666E+000  +2.3231005025E-003 +7.1575094532E+001  +4.6488187083E-003 +7.9326921662E+001  +6.1415318645E-001 -2.4036005946E-001 
10771485.607 +5.8350542904E-001 +5.9334040196E+000  +4.8231208606E-003 +9.8280501880E+001  +3.5592977288E-003 +1.3013527178E+002  +6.0513514223E-001 +2.4518039632E+000 
10896630.788 +5.5341900550E-001 +3.8686744289E+000  +3.3559212706E-003 +5.0630596475E+001  +3.0016083059E-003 +1.1054451612E+002  +5.6988339659E-001 -7.9087715588E-001 
11021775.970 +5.8024269247E-001 +4.2893631508E+000  +6.0603575106E-003 +8.8679048654E+001  +9.3737869744E-004 +6.3556287659E+001  +6.0740283846E-001 +3.7122356798E+000 
11146921.151 +6.0792039198E-001 +6.6945923278E+000  +6.3398153151E-003 +7.2665914636E+001  +3.9902821836E-003 +1.0132578447E+002  +6.1285638946E-001 +9.7943727502E-002 
11272066.333 +6.1738265552E-001 +8.0338397769E+000  +4.7369266776E-003 +7.0434389123E+001  +6.2418533865E-003 +9.9808120521E+001  +6.1288237675E-001 +3.5378312183E-001 
11397211.514 +6.2669917768E-001 +7.2860689733E+000  +5.8108250968E-003 +7.9629597622E+001  +5.3570237155E-003 +1.1493789625E+002  +6.3850654123E-001 +1.1146687462E+000 
11522356.696 +6.3289474673E-001 +6.1002012024E+000  +6.7947213483E-003 +9.0617344584E+001  +6.5874107020E-003 +8.9047981624E+001  +6.5794145047E-001 +2.5375232501E+000 
11647501.877 +6.5621279263E-001 +7.0991502126E+000  +5.3845750017E-003 +1.0102494367E+002  +6.3003709884E-003 +8.8606106167E+001  +6.5957725939E-001 +3.2421897168E+000 
11772647.059 +6.3760179462E-001 +6.2792835055E+000  +5.1183848577E-003 +6.8772444224E+001  +4.7812442156E-003 +1.2031070407E+002  +6.5741394194E-001 +2.7985009097E+000 
11897792.240 +6.5438012108E-001 +5.8531862993E+000  +5.7704678675E-003 +1.0055997279E+002  +5.2798931031E-003 +8.4053428769E+001  +6.7755983329E-001 +2.0041638482E+000 
12022937.422 +6.7845621423E-001 +4.0963298046E+000  +4.9567413332E-003 +7.8224598103E+001  +5.2476780181E-003 +6.5979366695E+001  +7.1206455825E-001 +6.8745539169E-001 
12148082.603 +6.7951555189E-001 +2.9055948333E+000  +6.5003244728E-003 +8.5165779173E+001  +4.1014409227E-003 +7.0224744019E+001  +7.2772182340E-001 +2.0376645132E+000 
12273227.785 +7.1431991445E-001 +4.4385180329E+000  +5.6221774800E-003 +9.6402765086E+001  +4.7447704991E-003 +8.1567288303E+001  +7.0180270047E-001 -1.1490052033E+000 
12398372.966 +7.0724029443E-001 +5.5235113030E+000  +6.6302799996E-003 +1.0809785222E+002  +4.8103456163E-003 +9.4178035694E+001  +7.4303318154E-001 -1.8956363707E+000 
12523518.148 +7.2620410573E-001 +2.2746557485E+000  +5.2361578925E-003 +9.6251945369E+001  +5.7388290711E-003 +9.5185809927E+001  +7.4083121878E-001 -1.5482311741E-001 
12648663.329 +7.5943947535E-001 +2.8008999948E+000  +5.0128076963E-003 +1.0392916586E+002  +5.0202040120E-003 +9.1393862068E+001  +7.3257577251E-001 -2.2165572615E-001 
12773808.511 +7.5146216193E-001 +1.7167634737E+000  +6.7367104193E-003 +9.5190603583E+001  +4.2526093556E-003 +8.6063007055E+001  +7.7033479540E-001 -9.3402843563E-001 
12898953.692 +7.9357477045E-001 +1.7007721946E+000  +5.1791857660E-003 +6.9939974362E+001  +7.6028270519E-003 +1.0073336222E+002  +7.7785746937E-001 -1.3857563036E+000 
13024098.874 +7.8825997654E-001 +2.1125167836E-001  +7.3049281804E-003 +8.6296341322E+001  +6.6665899852E-003 +9.4755813683E+001  +8.1489872598E-001 -4.9921480254E-001 
13149244.055 +7.8750822340E-001 -2.8335130424E-001  +6.3424093355E-003 +8.1200349263E+001  +6.4330103921E-003 +9.7475883470E+001  +8.0200806287E-001 -3.1725170908E+000 
13274389.237 +8.0303376071E-001 -1.2887263906E+000  +5.5626834117E-003 +8.4158298352E+001  +7.0160246312E-003 +9.6364444540E+001  +7.9819408275E-001 -5.5556575323E-001 
13399534.418 +8.4813816070E-001 -2.4360304691E+000  +6.8993548637E-003 +7.4071872680E+001  +5.1064368888E-003 +8.6288891272E+001  +8.5775719614E-001 -1.6068309256E+000 
13524679.599 +8.5235460171E-001 -7.2133243919E-001  +5.8032752268E-003 +8.9069153212E+001  +5.0553972960E-003 +9.5696619501E+001  +8.5761253744E-001 -2.5619738874E+000 
13649824.781 +8.6854214015E-001 -2.3955091312E+000  +6.6530173153E-003 +8.3494744415E+001  +6.5429778900E-003 +8.6558588052E+001  +8.6126830209E-001 -2.2086300403E+000 
13774969.962 +9.0529911707E-001 -2.1758616761E+000  +7.3488760526E-003 +8.2325384906E+001  +7.1277939308E-003 +8.9423840192E+001  +9.1374936062E-001 -3.1528553076E+000 
13900115.144 +9.1388427485E-001 -3.0129181640E+000  +7.7453616374E-003 +8.3684736836E+001  +6.6706940345E-003 +8.4473566773E+001  +9.2981531122E-001 -3.4568200837E+000 
14025260.325 +9.2666597431E-001 -3.5816412986E+000  +6.8649952253E-003 +9.0445172951E+001  +8.7867996629E-003 +8.7659854307E+001  +9.2457333400E-001 -4.7912335503E+000 
14150405.507 +9.4955256526E-001 -5.0655876783E+000  +8.0253733464E-003 +8.9741038978E+001  +5.5136773971E-003 +9.8187103997E+001  +9.4150370025E-001 -4.6264603909E+000 
14275550.688 +9.5221670835E-001 -5.9412020344E+000  +5.7483309121E-003 +9.8460896000E+001  +7.8365278915E-003 +7.6528673450E+001  +9.6393045270E-001 -4.7965561479E+000 
14400695.870 +9.9859897302E-001 -5.2122517523E+000  +6.9030692775E-003 +8.6234102566E+001  +6.6747308829E-003 +8.2863151002E+001  +9.9184367708E-001 -5.5145523751E+000 
