!  2-Port S-parameters saved by WinCal
! VAR MeasName=S-Parameters (CALIBRATED_DATA) read from VNA (P5004A)
! VAR MeasDate=27/08/2024 15:37:19
! VAR NAME=S2_r6c8_RESET2_9k-100M_3
! VAR FILENAME=S2_r6c8_RESET2_9k-100M_3.S2P
! VAR DATE=27/08/2024 15:37:19
! VAR PHYS_PORTS=1,2
! VAR ObjTypeName=DATASET
! VAR IndexType=Frequency
!
# Hz S MA R 50
9000.000 +7.3874519483E-002 -1.7445327865E+002  +1.1740666388E-002 +1.3477881483E+002  +1.3491939839E-002 +1.9173661468E+001  +2.5953078409E-001 -1.2152503010E+002 
134145.181 +1.1042730391E-001 +1.6994859489E+002  +3.3363953007E-004 -7.4533419732E+001  +6.1003952521E-004 +1.1488719936E+002  +2.4380582600E-001 -1.7097615923E+002 
259290.363 +1.1154156658E-001 +1.7005714070E+002  +6.0155931757E-004 +2.1787488105E+001  +1.3168449611E-003 -1.2092860505E+002  +2.4168640560E-001 -1.6776608333E+002 
384435.544 +1.1439821629E-001 +1.6973354565E+002  +3.0555518282E-004 -5.0549791171E+001  +4.7014201104E-004 +4.2741418881E+001  +2.5070550621E-001 -1.6960239768E+002 
509580.726 +1.1333680589E-001 +1.7191052905E+002  +1.1870594331E-003 -4.3833237637E+001  +3.0488979551E-004 +4.8923271396E+001  +2.5070351695E-001 -1.6298916236E+002 
634725.907 +1.1744639878E-001 +1.7113801154E+002  +9.2654506794E-004 +1.2936326457E+002  +2.3692845156E-004 -7.2300886339E+001  +2.4365624181E-001 -1.6770555336E+002 
759871.089 +1.1820906135E-001 +1.7083154440E+002  +1.6766300759E-003 -1.5898260576E+002  +3.4132692898E-004 +1.2134563574E+002  +2.3186324150E-001 -1.6334188302E+002 
885016.270 +1.1810047251E-001 +1.7004236345E+002  +8.8399370564E-004 +3.7020153603E+001  +1.1662087860E-003 +1.7243730427E+002  +2.3956073839E-001 -1.6486909013E+002 
1010161.452 +1.1904035408E-001 +1.7055433247E+002  +1.1960715959E-003 -2.2931733218E+001  +2.8183880110E-003 +1.3858300376E+001  +1.7734158586E-001 -1.5829151913E+002 
1135306.633 +1.1613991841E-001 +1.7007517549E+002  +2.3936315909E-003 +1.4707726687E+002  +7.5248329325E-004 -1.1823824185E+001  +1.4492777074E-001 -1.6420232382E+002 
1260451.815 +1.1994554723E-001 +1.7179064232E+002  +1.3821185445E-003 +8.7380056307E+001  +4.8903131433E-004 -3.1373043839E+001  +2.3384004968E-001 -1.5851018280E+002 
1385596.996 +1.2620889317E-001 +1.7241062603E+002  +6.0714886355E-004 +9.9214274552E+001  +8.6986842815E-004 +2.6290814414E+001  +2.5019670261E-001 -1.5731824259E+002 
1510742.178 +1.2790949413E-001 +1.7168384705E+002  +1.3882543540E-003 -6.9045796062E+001  +2.9025950192E-003 -1.1792900021E+002  +2.5885932357E-001 -1.5386049506E+002 
1635887.359 +1.2873570935E-001 +1.7194902670E+002  +1.2018462821E-004 -1.1587115268E+001  +9.0265805430E-004 -9.8810700948E+001  +2.5053323922E-001 -1.5818219358E+002 
1761032.541 +1.3072757739E-001 +1.6983000487E+002  +5.4553945785E-004 -1.5102539051E+002  +1.3769773871E-003 -1.5309820021E+002  +2.1694921318E-001 -1.6378633064E+002 
1886177.722 +1.2707061867E-001 +1.6775146782E+002  +1.3320167972E-003 +1.4385004749E+001  +2.2376771468E-003 -1.6203753982E+001  +1.8987188783E-001 -1.7108956425E+002 
2011322.904 +1.2633345968E-001 +1.6901955094E+002  +8.3761837185E-004 +1.6292900366E+002  +3.7674503442E-003 +1.3974006747E+002  +1.7958876778E-001 -1.7020415660E+002 
2136468.085 +1.2036075785E-001 +1.6028816051E+002  +1.1963814607E-003 -1.4801198196E+002  +1.8847386887E-003 -5.1076736270E+001  +2.2046814201E-001 +1.7499042409E+002 
2261613.267 +1.3293046396E-001 +1.6561525309E+002  +5.0228788841E-003 -1.4390938147E+002  +2.2672233048E-003 +9.8523266573E+001  +6.0489931660E-002 +3.2711468455E+001 
2386758.448 +1.2935590608E-001 +1.6313728076E+002  +5.7897301397E-003 +1.2418252445E+002  +3.8978350217E-003 -1.5049603121E+002  +2.4581554224E-001 +1.6678174879E+002 
2511903.630 +1.1004294130E-001 +1.6223708705E+002  +2.9268913501E-002 +2.8861378604E+001  +1.4598702922E-002 +7.2322118060E+001  +4.2791423629E-001 +8.4421503430E+001 
2637048.811 +1.2017174028E-001 +1.6073505239E+002  +8.6183753315E-003 +1.1553490436E+002  +1.2688846621E-002 +1.2992064937E+002  +3.2087462705E-001 +1.3903989687E+002 
2762193.992 +8.6666277564E-002 +1.7480198011E+002  +2.0283698373E-002 +4.3694827384E+001  +1.5410129590E-002 +1.1153683516E+002  +4.5432337118E-001 -5.1761559424E+001 
2887339.174 +1.1612356352E-001 +1.7545158222E+002  +4.4384516792E-003 +8.0510437329E+001  +9.3758044675E-003 +4.5386202766E+001  +4.2816408279E-001 -9.8554696286E+001 
3012484.355 +1.2481582556E-001 +1.7704186660E+002  +7.5554262802E-002 -8.4750961330E+001  +7.0385551095E-002 -9.8032113657E-001  +1.6053364731E+000 +1.0389080942E+001 
3137629.537 +1.1641827234E-001 +1.7519318854E+002  +1.0639395922E-002 +1.5075027396E+002  +1.7264119991E-002 +1.7506898977E+002  +7.4418466922E-001 -9.9031264450E+001 
3262774.718 +1.2397331012E-001 +1.6964852614E+002  +1.4951431615E-002 -1.6174022030E+002  +1.2059922292E-002 +1.4148544460E+002  +1.1824203582E+000 -1.3009132237E+002 
3387919.900 +1.1864855390E-001 +1.5920216611E+002  +3.8750458917E-002 -3.2207977644E+001  +6.0479929972E-002 +6.6528573613E+001  +1.8672528633E+000 -3.4293056912E+001 
3513065.081 +1.5257954438E-001 +1.5575447391E+002  +1.3950574407E-002 -1.0514824456E+002  +3.4111058530E-002 -1.5638296867E+002  +1.4609082122E+000 +9.2052614089E+001 
3638210.263 +1.5510803701E-001 +1.4632243948E+002  +4.3093485506E-002 -1.4632314495E+002  +2.5078742984E-002 -1.6793616750E+002  +1.4720183920E+000 +1.4253010203E+002 
3763355.444 +1.7826810660E-001 +1.4799469294E+002  +2.5367507599E-002 +2.0246207185E+001  +1.6585178895E-002 -1.7494213114E+002  +1.2829437157E+000 +1.0715988999E+002 
3888500.626 +1.8783104185E-001 +1.4396780664E+002  +1.8045855094E-002 +1.1691755292E+002  +4.6127135007E-003 +7.6055807505E+001  +4.9984462459E-001 +9.6759863373E+001 
4013645.807 +2.0112636722E-001 +1.5410778539E+002  +1.0825402724E-002 -9.8414315512E+001  +5.0728098325E-003 -1.6776401482E+002  +7.1813647484E-001 +1.3086961320E+002 
4138790.989 +1.7519513702E-001 +1.4051659479E+002  +1.3215903238E-002 -1.5121123315E+002  +5.5382910384E-003 -1.0172513680E+002  +6.2642274119E-001 +1.3723275444E+002 
4263936.170 +2.0281393424E-001 +1.4399014642E+002  +1.7638143512E-002 +9.7880361426E+001  +1.7321644595E-002 -7.7667022422E+001  +1.5956924860E+000 +8.5464065686E+001 
4389081.352 +1.9719195221E-001 +1.4080275719E+002  +2.7036974215E-002 +1.3804884744E+002  +7.6684669347E-003 -6.0643714148E+001  +7.1725452811E-001 +7.2241390703E+001 
4514226.533 +2.3627252700E-001 +1.3242663635E+002  +2.3008947211E-002 +9.9390413618E+001  +1.0466729203E-002 +8.7652090359E+001  +9.8970555998E-001 +1.3913064558E+002 
4639371.715 +3.0471985183E-001 +1.3373878299E+002  +1.5668374888E-002 -3.7458461942E+001  +2.3167269469E-002 -1.4508980711E+002  +1.0701635700E+000 +1.0891652646E+002 
4764516.896 +3.4107511920E-001 +7.6860416236E+001  +5.9741945343E-002 -6.4333627995E+001  +5.7145193457E-002 -1.2431370694E+002  +2.0400327942E+000 -1.4323191345E+002 
4889662.078 +3.1419491521E-001 +1.2961167070E+002  +1.3292524950E-002 +1.3285006454E+002  +2.5018252465E-002 +6.7501655641E+001  +4.4986984038E+000 -1.2584547496E+002 
5014807.259 +4.2455890099E-001 +1.3289362236E+002  +4.0863780847E-002 +1.4719737876E+002  +3.5466499567E-002 +8.6311142600E+001  +7.3607245062E+000 -1.1978803953E+002 
5139952.441 +3.9132291882E-001 +1.2491705862E+002  +3.7016179182E-002 +9.2392826048E+001  +5.7801906541E-002 -5.6160156716E+001  +3.2615440382E+000 +8.3602069983E+001 
5265097.622 +4.3757212869E-001 +1.2860031285E+002  +4.3157861342E-002 -1.7713384275E+002  +7.3204110884E-002 +9.4226384393E+001  +4.2748474166E+000 +1.0413731653E+002 
5390242.804 +3.7094215848E-001 +1.3158784740E+002  +2.0402463988E-002 -1.8941039128E+001  +5.3697971833E-002 -7.2315965740E+001  +7.2322366890E+000 -1.6307588571E+002 
5515387.985 +4.4788832406E-001 +1.2387295238E+002  +3.5594719644E-002 +1.2026084482E+002  +2.7251333783E-002 +1.0799616356E+002  +3.1183870174E+000 +7.2890683705E+001 
5640533.166 +4.5877335188E-001 +1.2835039685E+002  +3.3878961729E-002 -1.9094119645E+001  +4.5506852156E-002 +1.7858812631E+002  +4.0822446847E+000 +7.3016963491E+001 
5765678.348 +6.1307252684E-001 +1.2643580165E+002  +5.3888434333E-003 -9.7180732605E+001  +1.8215778231E-002 +1.5952089202E+002  +2.1094327980E+000 +9.8587664118E+001 
5890823.529 +5.2973808183E-001 +1.1360373484E+002  +1.7407850158E-002 +1.2471213274E+002  +2.1849528986E-002 -2.5623131392E+001  +1.3557029658E+000 +5.0873363769E+001 
6015968.711 +6.4177754183E-001 +1.1846833608E+002  +2.5841718494E-002 -1.5208949888E+002  +2.6793079007E-002 +3.2626273910E+001  +1.4891667533E+000 +5.6077117163E+001 
6141113.892 +9.0477363493E-001 +1.1019071141E+002  +7.2952275227E-003 -1.1506896669E+002  +7.6863440073E-003 -5.1247860891E+001  +2.0760174239E+000 +4.7412597878E+001 
6266259.074 +1.0195461286E+000 +1.1417353912E+002  +4.3743547486E-002 +1.3045515957E+002  +1.0957834155E-002 -1.3410933609E+002  +1.5774872089E+000 +1.5231688266E+001 
6391404.255 +9.6495072164E-001 +1.0329683741E+002  +6.0372896094E-003 +1.5087877992E+002  +3.6193613432E-002 +1.3440745779E+002  +2.0761358511E+000 +1.4431049588E+001 
6516549.437 +1.1308003510E+000 +9.6557082995E+001  +2.5580813566E-002 +1.2654609972E+002  +6.2400679186E-003 -1.4527667852E+002  +1.3520238193E+000 +2.8661818002E+000 
6641694.618 +1.6188455980E+000 +8.5000694094E+001  +1.8433313606E-003 +1.5177259641E+002  +1.2857282778E-002 -1.1250097156E+002  +1.3975051677E+000 -1.4876729980E+001 
6766839.800 +1.3764100338E+000 +4.9064275438E+001  +1.3154543247E-002 +5.6333167756E+001  +3.4476465275E-002 +8.0692180376E+001  +1.4170646065E+000 -3.8535228817E+000 
6891984.981 +1.7366287782E+000 +3.5798211732E+001  +2.9629675384E-002 +9.1584291440E+001  +8.1456203570E-003 +5.8085624654E+001  +1.2818633741E+000 -1.0492908686E+001 
7017130.163 +1.8449459995E+000 +2.9921823316E+001  +8.9387025559E-003 -1.7235128180E+002  +2.1525131533E-003 -2.9855542746E+001  +1.1009302718E+000 -4.5964053366E+000 
7142275.344 +1.9128644042E+000 +5.4490919457E+000  +3.5976876335E-003 +5.8243710228E+001  +1.4029011093E-002 +5.2990427660E+001  +1.3237651923E+000 -1.1962127540E+001 
7267420.526 +1.5498661535E+000 +1.6629518666E+001  +5.1026008738E-003 +1.4595071572E+002  +1.1560293691E-002 -7.1424616440E+001  +1.4748325071E+000 -1.5786330226E+001 
7392565.707 +1.3759268739E+000 -1.0161827041E-002  +1.0231562252E-002 +8.3711558086E+001  +9.2400455480E-003 +3.9574789620E+001  +1.2372608646E+000 -4.3683847317E+000 
7517710.889 +1.1654449554E+000 +3.4319291345E+000  +7.4381075586E-003 +1.3967689759E+002  +7.5857820859E-003 +6.7879347088E+001  +1.2242772233E+000 -7.4031916979E+000 
7642856.070 +1.1059598011E+000 -3.7643817579E-001  +5.4438440891E-003 +9.0518756129E+001  +9.2073024155E-003 -1.1168023350E+002  +9.8118226541E-001 -1.3539648169E+001 
7768001.252 +9.5685479829E-001 +2.3735270328E+000  +1.0690666535E-002 +5.3905026997E+001  +5.9287723590E-003 +6.6826281650E+001  +9.8789266703E-001 -7.0104852359E+000 
7893146.433 +9.4209620544E-001 -4.4446646119E+000  +1.1604142545E-002 +7.7945063148E+001  +4.2070189010E-003 -4.1174173153E+001  +9.6653900142E-001 -6.8933528442E-001 
8018291.615 +8.5031325015E-001 +6.0925947978E-002  +5.5039929138E-003 +1.6143638742E+001  +8.1232704868E-003 +1.0008187030E+002  +9.1552481599E-001 -2.3970852651E+000 
8143436.796 +7.6984707522E-001 +9.6562030530E+000  +1.7401987735E-003 +1.2315791315E+002  +2.9213868125E-003 +7.3142722177E+001  +7.8272486479E-001 +3.4169260548E+000 
8268581.977 +6.8970816905E-001 +9.9959107976E+000  +1.7065650271E-003 -3.7581372191E+000  +4.2535973801E-003 +5.2939735388E+001  +7.7280975839E-001 -3.9237423872E+000 
8393727.159 +6.8837259015E-001 +3.4267845669E+000  +4.4864730686E-003 +8.9513333618E+001  +5.9194100125E-003 +1.7827299387E+001  +7.0494719431E-001 -4.1063883268E+000 
8518872.340 +6.1810685923E-001 +1.2214203658E+001  +3.3828635437E-003 +7.0009768270E+001  +8.6069943792E-003 +1.1461762921E+002  +6.7043372117E-001 -2.1925103424E-001 
8644017.522 +7.2258935738E-001 +7.0327495153E+000  +6.7868903285E-003 +6.1256588132E+001  +5.0769710961E-003 +7.1522204480E+001  +7.1538784602E-001 -3.6313226210E+000 
8769162.703 +5.8336157820E-001 -1.0260161728E+000  +4.4221054933E-003 +5.8289834566E+001  +3.7411919648E-003 +1.0913300094E+002  +6.6692345312E-001 -5.1904358317E+000 
8894307.885 +5.6991505066E-001 +1.4662327063E+001  +7.2691857608E-003 +4.3452880614E+001  +3.8623211253E-003 +7.3000655794E+001  +6.8131605887E-001 +4.5768091534E-001 
9019453.066 +5.6551162750E-001 +4.0745493831E+000  +1.6764285510E-003 +3.0378582024E+001  +3.9772771831E-003 +1.0240232497E+002  +6.6905713018E-001 -7.5711167110E-001 
9144598.248 +5.4927904775E-001 +3.9671583664E+000  +1.2764506976E-003 -1.0630846961E+001  +4.2604536640E-003 +1.0945900422E+002  +6.2721469799E-001 -1.0875122162E+000 
9269743.429 +6.0556318834E-001 +2.0738460416E+000  +1.5332615180E-003 +6.2983045028E+001  +5.9495375613E-003 +1.1289208405E+002  +6.1670748327E-001 +1.0512967407E+000 
9394888.611 +5.7210817366E-001 +6.4283470195E+000  +2.6424423485E-003 +1.1220564650E+002  +4.4383473569E-003 +3.7341868518E+001  +5.7844836087E-001 -1.1568481239E+000 
9520033.792 +5.6154498885E-001 +1.0969436959E+000  +3.8840873017E-003 +6.2124547901E+001  +7.3501005754E-003 +9.5481387311E+001  +5.7724789057E-001 -5.5476632104E+000 
9645178.974 +5.6703474086E-001 +2.2828871946E+000  +5.2973387813E-003 +6.7867306029E+001  +3.6512865325E-003 +9.4283208230E+001  +5.6912567762E-001 -4.3061667471E+000 
9770324.155 +5.6332720965E-001 -2.3384194480E+000  +4.6386246627E-003 +3.6312835403E+001  +4.9095357167E-003 +1.3197441579E+002  +5.3327811034E-001 -2.3760350204E+000 
9895469.337 +5.5701685954E-001 +3.3423453161E+000  +3.7270319739E-003 +1.3906099563E+002  +7.6905328741E-003 +8.7368963160E+001  +6.0770745892E-001 -3.8247528851E+000 
10020614.518 +5.5425794369E-001 -9.3805343184E-001  +3.1016279323E-003 +8.7541308805E+001  +4.1660934076E-003 +1.2303162601E+002  +6.0850309906E-001 -6.1694308735E+000 
10145759.700 +5.5866460690E-001 +2.4369848344E-001  +4.5721268695E-003 +8.3507916531E+001  +3.9596890447E-003 +6.0302366849E+001  +5.7258988090E-001 -4.6400979897E+000 
10270904.881 +5.7469899069E-001 +4.3179205387E+000  +3.0563850682E-003 +1.0623792918E+002  +3.3939502551E-003 +3.8491658561E+001  +5.9468514776E-001 -1.0303407027E+000 
10396050.063 +5.3985527131E-001 +7.5205361052E+000  +3.9819077678E-003 +9.4193104773E+001  +5.6660423286E-003 +9.5828914683E+001  +5.4050755921E-001 -1.2407209249E+000 
10521195.244 +5.8563264983E-001 +6.0545106600E+000  +3.5920400786E-003 +1.0431855484E+002  +4.6805295264E-003 +9.1445952137E+001  +5.6077453511E-001 -8.1434974855E-002 
10646340.426 +5.1352913099E-001 +4.8087397396E+000  +4.6519410861E-003 +1.0771748164E+002  +4.6910611784E-003 +1.0258158443E+002  +5.7225904698E-001 -1.3841973344E+000 
10771485.607 +5.8121007419E-001 +3.5594786448E+000  +2.7606483324E-003 +7.6455786492E+001  +4.0360785082E-003 +8.5812921217E+001  +6.0654794748E-001 -3.2440625403E+000 
10896630.788 +5.9404688973E-001 +6.2276101570E+000  +4.5589485036E-003 +7.7206634681E+001  +4.9388782779E-003 +1.2457808750E+002  +6.2128392020E-001 -1.1056028615E+000 
11021775.970 +5.9747400400E-001 +5.3902594631E+000  +5.5320066969E-003 +8.8991591091E+001  +5.8945994421E-003 +1.1368651875E+002  +6.2512848823E-001 +1.4359679883E+000 
11146921.151 +5.7718738625E-001 +8.2378124638E+000  +4.0623530062E-003 +7.7014510177E+001  +5.0761342310E-003 +1.0586180515E+002  +6.2812610096E-001 +1.0957377916E-001 
11272066.333 +5.7641498908E-001 +4.7795285508E+000  +3.3579669349E-003 +8.6345062076E+001  +7.6500431475E-003 +1.1191833671E+002  +6.3234466496E-001 +3.7152115122E-001 
11397211.514 +6.1707944060E-001 +5.3077471274E+000  +4.2913157828E-003 +8.9891669583E+001  +5.8816562645E-003 +9.4591872570E+001  +6.0881448527E-001 +1.6431646976E+000 
11522356.696 +6.1117080449E-001 +5.6517315558E+000  +6.7059476806E-003 +6.9064135856E+001  +4.7258411228E-003 +8.9836078442E+001  +6.5300551101E-001 +7.1645292267E-001 
11647501.877 +6.1830163783E-001 +7.8038231769E+000  +4.4115725603E-003 +9.6236485723E+001  +5.6873421501E-003 +1.1411359599E+002  +6.6004390357E-001 +5.1026296209E-001 
11772647.059 +6.3678394417E-001 +4.5912346708E+000  +6.2518328294E-003 +9.1336930922E+001  +4.6949281838E-003 +8.7936579934E+001  +6.8319668437E-001 +1.9939636073E+000 
11897792.240 +6.4280341050E-001 +5.8130714946E+000  +3.6492853016E-003 +9.6728414338E+001  +5.2750134888E-003 +1.0337085913E+002  +6.9488997950E-001 +1.8249556748E+000 
12022937.422 +6.5636414959E-001 +2.7971590613E+000  +3.8473150753E-003 +7.4951290210E+001  +6.1713058588E-003 +7.7010929162E+001  +6.7277291458E-001 +1.0918794366E+000 
12148082.603 +6.9086883191E-001 +2.9052590632E+000  +5.4972611800E-003 +9.2675590767E+001  +5.6728510639E-003 +7.6597260862E+001  +7.0006752892E-001 -3.5318651931E-001 
12273227.785 +6.8598327643E-001 +4.9066408946E+000  +6.5530460496E-003 +9.0925088823E+001  +4.8246022451E-003 +8.6707367178E+001  +6.8982104050E-001 -6.4115085082E-001 
12398372.966 +7.2471069569E-001 +4.2124388489E+000  +4.6556652712E-003 +8.1326814526E+001  +4.8101462293E-003 +9.8418534571E+001  +7.4986245903E-001 -1.0542079058E+000 
12523518.148 +7.0020954492E-001 +2.0099646180E+000  +6.8094853190E-003 +8.3366926806E+001  +5.7343065889E-003 +1.1149804014E+002  +7.1394511372E-001 +1.4527226486E-002 
12648663.329 +7.0609723252E-001 +2.9920216314E+000  +6.0716674299E-003 +8.2983964399E+001  +5.2585161858E-003 +8.6597550496E+001  +7.2615993532E-001 -6.7816553401E-003 
12773808.511 +7.4270466634E-001 +6.3390398169E-001  +5.4939832218E-003 +7.9081275686E+001  +5.1503685727E-003 +7.6183876889E+001  +7.6182901406E-001 -2.8771881514E+000 
12898953.692 +7.8479205358E-001 +5.6306912839E-001  +4.3715952717E-003 +9.4038299204E+001  +7.5064219184E-003 +1.1534503967E+002  +7.6876528431E-001 -8.9945279939E-001 
13024098.874 +7.6844214137E-001 +1.5766337698E+000  +3.8687943235E-003 +8.7389324901E+001  +4.7202603706E-003 +8.6123068621E+001  +8.1156139077E-001 -1.0445790564E+000 
13149244.055 +7.9020601904E-001 +3.5261605127E-001  +6.2734338686E-003 +8.2470991983E+001  +5.2770303819E-003 +8.8555263328E+001  +8.0240196964E-001 -5.4685408804E-001 
13274389.237 +8.2421441926E-001 -1.0606636243E+000  +6.5391060945E-003 +8.3792124225E+001  +5.2661490648E-003 +7.6754159337E+001  +8.3412568086E-001 -2.1487145884E+000 
13399534.418 +8.3896827043E-001 -4.1705786194E-001  +6.9457782582E-003 +9.4612491688E+001  +5.3812496225E-003 +9.5747724845E+001  +8.3057786677E-001 -1.0827874484E+000 
13524679.599 +8.4486303766E-001 -1.6637696927E+000  +6.1291442316E-003 +9.6024806636E+001  +5.6245211572E-003 +9.0183895098E+001  +8.6379590020E-001 -2.1807092914E+000 
13649824.781 +8.7433480978E-001 -2.9759270137E+000  +6.4683583846E-003 +8.3667855408E+001  +5.9691298291E-003 +8.7223980113E+001  +8.7609243600E-001 -3.6693671426E+000 
13774969.962 +8.9645189861E-001 -2.2475598970E+000  +6.5494097697E-003 +9.2774701557E+001  +9.2739997185E-003 +8.4617517918E+001  +8.9500278519E-001 -2.9033434908E+000 
13900115.144 +9.0222309212E-001 -2.4130854402E+000  +7.4754845457E-003 +8.3673510996E+001  +6.1119121523E-003 +8.4221052322E+001  +9.0963238473E-001 -3.2113695388E+000 
14025260.325 +9.2037232716E-001 -3.5132992601E+000  +8.1065496537E-003 +8.6899015398E+001  +7.0574312658E-003 +9.1165446291E+001  +9.3625039971E-001 -4.2711116660E+000 
14150405.507 +9.4402999646E-001 -4.3342050070E+000  +7.1307497619E-003 +9.9933352249E+001  +8.4976507752E-003 +8.3010672975E+001  +9.6458615314E-001 -4.8393546552E+000 
14275550.688 +9.7125375538E-001 -4.6586867212E+000  +7.0731761194E-003 +8.4222348032E+001  +7.7772714147E-003 +8.7206481252E+001  +9.4475581021E-001 -4.0499328825E+000 
14400695.870 +9.6620447148E-001 -5.4755504953E+000  +7.7108361178E-003 +9.1199972933E+001  +6.8102670205E-003 +7.8376752502E+001  +1.0002521895E+000 -4.3627697486E+000 
