!  2-Port S-parameters saved by WinCal
! VAR MeasName=S-Parameters (CALIBRATED_DATA) read from VNA (P5004A)
! VAR MeasDate=27/08/2024 15:39:52
! VAR NAME=S2_r6c8_SET2_9k-100M_2
! VAR FILENAME=S2_r6c8_SET2_9k-100M_2.S2P
! VAR DATE=27/08/2024 15:39:52
! VAR PHYS_PORTS=1,2
! VAR ObjTypeName=DATASET
! VAR IndexType=Frequency
!
# Hz S MA R 50
9000.000 +7.2937843890E-002 -1.6121368265E+002  +1.6750203427E-002 +1.4364843930E+002  +5.5871533281E-003 +1.2653840668E+002  +2.8063424895E-001 -1.3925467520E+002 
134145.181 +1.1142079744E-001 +1.6963526005E+002  +6.0822276500E-004 +8.6198464013E+000  +2.3180825416E-004 -1.3311327760E+002  +2.3755877655E-001 -1.7094490378E+002 
259290.363 +1.1083379843E-001 +1.7020220557E+002  +1.7507559170E-004 -1.3121521899E+002  +2.5585111117E-004 +2.2182152700E+001  +2.4504822916E-001 -1.6932129492E+002 
384435.544 +1.1309529666E-001 +1.7069569141E+002  +3.0878787743E-004 +1.3418969561E+002  +3.5296513281E-004 +1.0482098877E+002  +2.4435259400E-001 -1.6942826246E+002 
509580.726 +1.1500427511E-001 +1.7103612676E+002  +4.1970505918E-004 +1.7919593310E+002  +7.8161630971E-004 -3.5443352639E+001  +2.3276419352E-001 -1.6578010498E+002 
634725.907 +1.1646996554E-001 +1.7015598541E+002  +8.7828843448E-004 -1.4875741572E+002  +1.6192572378E-003 +1.5352343242E+002  +2.4498413947E-001 -1.6518343762E+002 
759871.089 +1.1549867469E-001 +1.7076466361E+002  +4.8308712144E-004 -1.4220432987E+002  +6.0668278023E-004 -1.5149170405E+002  +2.3776603147E-001 -1.6296903020E+002 
885016.270 +1.1876273717E-001 +1.6992110398E+002  +6.2161200415E-004 +3.4617100991E-001  +6.1240486354E-004 -6.2226274621E+001  +2.3674547645E-001 -1.6564419281E+002 
1010161.452 +1.1842934767E-001 +1.7024895842E+002  +1.2366567944E-003 +1.3225711372E+002  +8.7560448447E-004 +1.5354531896E+002  +1.9046336965E-001 -1.7775021911E+002 
1135306.633 +1.1650922086E-001 +1.6893631316E+002  +2.4954184886E-003 +1.4676830864E+001  +2.4771394444E-003 +1.2260405059E+002  +1.4285864197E-001 -1.3843907269E+002 
1260451.815 +1.2035549473E-001 +1.7189170204E+002  +7.5335896056E-004 -1.7597060749E+002  +7.8843064003E-004 +3.2527466965E+001  +2.4022335570E-001 -1.5517525729E+002 
1385596.996 +1.2616634756E-001 +1.7190815596E+002  +1.4333783283E-003 -2.0643800027E+001  +1.0328617397E-003 -1.0231235682E+001  +2.5980649245E-001 -1.5805967756E+002 
1510742.178 +1.2875944566E-001 +1.7122131765E+002  +6.3932600175E-004 +6.2980206596E+001  +1.8733630695E-004 +2.5649859774E+001  +2.5967047683E-001 -1.5704904756E+002 
1635887.359 +1.3013763135E-001 +1.7073854568E+002  +8.0928507823E-004 -1.4122215146E+002  +3.4331119298E-004 -2.5343660919E+001  +2.3839067955E-001 -1.6079329540E+002 
1761032.541 +1.2668509232E-001 +1.6927746524E+002  +1.6486089209E-003 -6.2760363273E+001  +2.1878672330E-003 +5.5381097285E+001  +2.0762082897E-001 -1.6086129003E+002 
1886177.722 +1.2940225246E-001 +1.6727879334E+002  +2.2231956119E-003 +1.4735053468E+002  +7.5542492340E-004 -1.3189738669E+002  +1.5842143669E-001 -1.6538140547E+002 
2011322.904 +1.3052594964E-001 +1.6898052966E+002  +2.6249855164E-003 -1.6474450912E+002  +2.5192272263E-003 -1.7238065754E+002  +1.8580382830E-001 -1.5534497358E+002 
2136468.085 +1.2613787022E-001 +1.6770774947E+002  +4.2991028318E-003 +5.1318704106E+001  +4.0403683234E-003 -1.4161385790E+002  +1.8140596295E-001 -1.6881556321E+002 
2261613.267 +1.3080681601E-001 +1.6181971352E+002  +2.4685536188E-003 +9.8676680157E+001  +4.6566086142E-003 -3.2401716533E+001  +1.9742340392E-001 +1.7614697118E+002 
2386758.448 +1.3289827215E-001 +1.5936957799E+002  +3.1613568394E-003 -9.6107114743E+001  +2.9066682287E-003 +1.1592244228E+002  +2.2165339685E-001 +1.5703750227E+002 
2511903.630 +1.3981657943E-001 +1.5354837644E+002  +2.1074596526E-002 +7.4798983015E+001  +8.8182375165E-003 +4.5843301950E+001  +4.8762932928E-001 +1.5387643678E+002 
2637048.811 +1.0393899809E-001 +1.5611845951E+002  +9.3859425935E-003 +9.2885998565E+001  +1.2661734920E-002 -1.7336018182E+002  +1.3590725805E-001 -1.1999541313E+002 
2762193.992 +1.0224889971E-001 +1.4411307714E+002  +4.4426331743E-002 -1.0987190002E+002  +9.6369692179E-002 +1.1341724142E+001  +1.6228831716E+000 -1.5728073514E+002 
2887339.174 +1.0278187309E-001 -1.6855008921E+002  +6.9222994641E-003 +1.1997603477E+002  +1.5191666198E-002 +9.8434061487E+001  +5.8046207614E-001 -1.2694439160E+002 
3012484.355 +1.1616821700E-001 +1.7774762259E+002  +3.9564633583E-002 +9.9064256475E+001  +3.3783739914E-002 -1.0137461733E+002  +1.6218727128E+000 +1.0292222210E+002 
3137629.537 +1.0715790610E-001 +1.6059495023E+002  +2.4058315342E-002 +4.6861910213E+001  +2.2758961603E-002 -1.2161777351E+002  +3.4486845204E-001 +2.7452219307E+001 
3262774.718 +1.2650717419E-001 +1.5326172868E+002  +1.5893869451E-002 +6.2928006357E+001  +1.9954752463E-002 -4.3292254717E+001  +4.9873883863E-001 -4.3844541191E+001 
3387919.900 +1.2185708912E-001 +1.5602460504E+002  +1.8800174570E-002 -3.7139534771E+001  +1.3942979843E-002 -1.7707462635E+002  +5.8146076884E-001 -8.1524454694E+001 
3513065.081 +1.5084588822E-001 +1.5039399834E+002  +1.8228742622E-002 +9.0789757169E+001  +1.4472547192E-002 -3.9788140592E+001  +1.6996308511E-001 +1.1769543794E+002 
3638210.263 +1.6912405906E-001 +1.4605097495E+002  +1.6935753256E-002 -1.0495504331E+002  +2.9445446427E-002 +5.0046108780E+000  +1.2006976855E+000 +1.3440689017E+002 
3763355.444 +1.9892391863E-001 +1.3987744508E+002  +2.3308794290E-002 +1.5441650185E+002  +9.9539227685E-003 +8.3629642014E+001  +5.4195660175E-001 +1.3720693171E+002 
3888500.626 +1.8389154560E-001 +1.4316817341E+002  +1.3844130032E-003 -1.1611764095E+002  +4.5332711096E-003 +4.3591191924E+001  +4.6147631525E-001 +1.4167209766E+002 
4013645.807 +1.7361256693E-001 +1.4249928212E+002  +1.7005269894E-002 -9.8357078589E+000  +8.4710435453E-003 -1.6203769209E+002  +4.8712863264E-001 +1.0904934734E+002 
4138790.989 +2.0304810695E-001 +1.4167445017E+002  +1.3132108950E-002 +5.1441753584E+001  +2.7310681513E-003 +7.6554389697E+001  +1.8825637482E-001 +1.3257210500E+002 
4263936.170 +1.8625293948E-001 +1.4123343568E+002  +3.5291959621E-003 -1.6881669238E+001  +1.8046511489E-002 +4.4739973471E+001  +1.8734902682E-001 +1.1245856376E+002 
4389081.352 +2.0060775160E-001 +1.4400539847E+002  +1.5763887434E-002 +1.0253676654E+002  +1.3921896029E-003 +6.8602577650E+001  +1.1727006370E+000 +1.1166126319E+002 
4514226.533 +2.0181679482E-001 +1.2480834657E+002  +5.4179729369E-002 +8.0710633560E+001  +4.0306402153E-002 +5.5605815037E+001  +1.0345910974E+000 +1.1771807047E+002 
4639371.715 +2.6379782040E-001 +1.3846025214E+002  +9.6485366499E-002 +1.0840945392E+002  +1.6539786905E-001 +1.1771625253E+001  +5.6070882458E+000 +5.7497955605E+001 
4764516.896 +3.1771790278E-001 +1.3555872281E+002  +3.6802714072E-002 +4.7768043968E-001  +5.6373859235E-003 +4.9392743932E+001  +3.0377252142E+000 -1.6931216130E+002 
4889662.078 +3.7870715774E-001 +1.2124816317E+002  +6.4669579194E-003 +1.3263228517E+002  +5.5487908153E-002 +5.6712686284E+000  +3.4426325977E+000 -6.6320768227E+001 
5014807.259 +5.5646128509E-001 +1.3202439461E+002  +1.2321321237E-001 -1.2513532347E+002  +4.7491798552E-002 +1.3259632745E+002  +3.9079690515E+000 +1.6238795089E+002 
5139952.441 +4.1677209200E-001 +1.2831395956E+002  +7.2813183671E-002 +1.5586559030E+002  +9.6336740869E-002 +7.1606258230E+001  +2.8024179147E+000 +7.1543448121E+001 
5265097.622 +4.1581530222E-001 +1.1066107638E+002  +5.0574705467E-002 +1.2464639211E+002  +5.1499976824E-002 +1.1933569090E+002  +2.7000342058E+000 +8.1945168779E+001 
5390242.804 +4.4153170840E-001 +1.2015235250E+002  +6.2096910109E-002 +1.3575735014E+002  +7.0630242772E-002 +9.4795925451E+001  +1.9449933099E+000 +8.1758945326E+001 
5515387.985 +4.7460552512E-001 +1.1590001248E+002  +2.8072362517E-002 +8.4678240210E+001  +2.8439312579E-002 +1.1571845953E+002  +2.2982539542E+000 +1.1616338527E+002 
5640533.166 +5.4608666803E-001 +1.2881463360E+002  +4.5920808521E-002 +6.6300218637E+001  +9.0591677366E-003 +2.3097888650E+001  +1.8578774664E+000 +2.8391906847E+001 
5765678.348 +6.1251393579E-001 +1.3066707656E+002  +2.7847527068E-002 +1.3660329417E+002  +5.7484132986E-002 +7.0746334948E+001  +2.1256113047E+000 +5.5972739869E+001 
5890823.529 +5.5392811597E-001 +1.2285503600E+002  +2.2910765784E-002 +6.3263058598E+001  +4.5753559892E-002 +5.7763503529E+001  +2.5249196886E+000 +6.8667292065E+001 
6015968.711 +6.6626130317E-001 +1.2374187527E+002  +4.5055587852E-002 +4.2992295873E+001  +1.7242520157E-002 +4.7105704716E+001  +1.8135775425E+000 +2.5914225316E+001 
6141113.892 +7.9582027587E-001 +1.1406564528E+002  +6.4372703548E-002 +5.1130903171E+001  +6.1246830215E-002 +4.7641424913E+001  +1.9314475759E+000 +1.9496875032E+001 
6266259.074 +7.3102043914E-001 +1.0204804228E+002  +3.6774034044E-002 +7.5457789189E+001  +3.9602768507E-002 +1.6052291271E+001  +1.7042658938E+000 +2.8407263708E+001 
6391404.255 +1.0123503722E+000 +8.7962232040E+001  +6.2121239853E-002 +5.3065660347E+001  +4.9734418650E-002 +1.8185871528E+001  +1.6938272872E+000 +2.0790785823E+001 
6516549.437 +1.2222939475E+000 +8.5562600876E+001  +6.7240402232E-002 +6.9574623361E+001  +5.7037576041E-002 +1.8855698544E+001  +1.6373967603E+000 +2.2478979642E+001 
6641694.618 +1.2414666019E+000 +6.2578676624E+001  +7.7101195904E-002 +3.6810076825E+001  +5.2005726016E-002 +1.1795497553E+001  +1.5103583020E+000 -4.5288969693E+000 
6766839.800 +1.2984903434E+000 +4.8504532808E+001  +5.0559121723E-002 -6.2173547353E+000  +4.0992461896E-002 -2.1207252862E+001  +1.6249004326E+000 -7.3139380936E+000 
6891984.981 +1.6500258221E+000 +4.1488807433E+001  +4.7076342895E-002 +5.4778351457E+001  +2.1433407562E-002 +1.5926810617E+001  +1.1526126312E+000 -6.8767589195E+000 
7017130.163 +1.7450035078E+000 +1.1657959033E+001  +4.9522494343E-002 -5.9000317019E+000  +4.0457262002E-002 +2.3210110833E+001  +1.4784714825E+000 -7.8666224057E+000 
7142275.344 +1.8912948827E+000 +9.6551041855E+000  +3.1769072750E-002 +9.7410452729E+000  +1.5534341400E-002 -2.4159400687E+001  +1.2953805156E+000 -1.1908474809E+001 
7267420.526 +1.4620762970E+000 -9.2117963838E+000  +2.7813373497E-002 +3.3431812529E-001  +1.7718177215E-002 +3.2719414127E+001  +1.3160989553E+000 -1.0480800223E+001 
7392565.707 +1.4389589441E+000 -2.3372120341E+000  +2.3604430101E-002 +1.0293968585E+001  +1.4458984012E-002 +2.3243275902E+001  +1.2456679201E+000 -7.1990848707E+000 
7517710.889 +1.1290224555E+000 -5.8726035948E+000  +1.0719662787E-002 +3.3206999269E+001  +1.9308145458E-002 +5.1206046751E+001  +1.1591452824E+000 -9.2451254159E+000 
7642856.070 +1.0917088729E+000 +4.1007599604E+000  +1.8295334059E-002 +1.5495361539E+001  +1.3829776260E-002 +5.9572737880E+001  +1.0206366000E+000 -4.8521952427E+000 
7768001.252 +1.0796420216E+000 +3.6463889068E+000  +1.3501338622E-002 +6.6788350238E+000  +8.6599195760E-003 +3.5280550354E+001  +9.5101388370E-001 -1.0068702314E+001 
7893146.433 +8.3100418157E-001 +1.6609365219E+000  +1.9948489324E-002 +2.3334960745E+001  +1.8516079594E-002 +8.3728721512E+000  +7.9163123859E-001 +1.5264788252E+000 
8018291.615 +8.2284016020E-001 +6.6106564477E+000  +1.4265231444E-002 +2.2998444360E+001  +1.8232815456E-002 +3.9035859974E+001  +8.7550337001E-001 +3.7508362876E-002 
8143436.796 +7.9491861517E-001 +4.3284852323E+000  +1.4496294787E-002 +4.0267056860E+000  +1.1445125383E-002 +4.2391956451E+001  +7.7707698416E-001 -7.7211826339E+000 
8268581.977 +6.8493944668E-001 +4.9662992030E+000  +1.3603581083E-002 +2.0969428707E+001  +7.4238769473E-003 -1.4163578960E+001  +8.3558412328E-001 +6.5259525628E-001 
8393727.159 +6.9628920123E-001 +5.3115167732E+000  +1.4305928018E-002 +8.7642069356E+000  +6.9693959065E-003 +1.9921944894E+001  +7.3889134974E-001 +9.2193257279E-001 
8518872.340 +6.4736125823E-001 +8.9803762494E+000  +1.7539042139E-002 +1.5634217134E+001  +1.0996750835E-002 +3.0815548708E+001  +7.8967120588E-001 +8.7145181702E-001 
8644017.522 +6.3840848497E-001 +8.2822954508E+000  +1.2241993315E-002 -9.2231114127E+000  +1.6785651622E-002 +3.2211443041E+001  +6.4805932451E-001 +1.2686727695E+000 
8769162.703 +6.2476971714E-001 +7.7356689624E+000  +1.4290927398E-002 +2.8547970202E+000  +1.0855184431E-002 +2.9137747698E+001  +6.6498174004E-001 +1.7860829080E+000 
8894307.885 +5.8689020168E-001 +8.7220952194E+000  +1.4380053697E-002 +1.8188059613E+001  +1.0893625133E-002 +2.8548158487E+001  +6.0270795172E-001 +1.8277375675E+000 
9019453.066 +5.6603111189E-001 +3.7282259024E+000  +1.4057736151E-002 +7.9402330099E+000  +9.6615659832E-003 +3.0291659294E+001  +5.9941647159E-001 +3.9220968797E-001 
9144598.248 +5.3549273946E-001 +8.4911945563E+000  +1.5494032628E-002 +3.8715992998E+000  +1.1091365292E-002 +2.9685664348E+001  +6.6223374262E-001 -8.2385219323E-001 
9269743.429 +5.6971985921E-001 +4.6282894682E+000  +1.0195636695E-002 -3.4802506077E+000  +1.5629330576E-002 +3.8009214618E+001  +6.3402862641E-001 -1.2260275372E+000 
9394888.611 +5.3816184815E-001 -2.0347969769E-002  +1.2609287951E-002 -3.5247055360E+000  +1.4863720584E-002 +3.9957405762E+001  +5.7556938910E-001 -8.0537547119E-001 
9520033.792 +5.3984641056E-001 +2.2072361057E+000  +1.4746545232E-002 +1.5330525432E+001  +1.4513073425E-002 +2.5228903489E+001  +5.6738452117E-001 -4.1940636910E+000 
9645178.974 +5.3590318021E-001 +1.8890746115E+000  +1.2352784872E-002 +1.0141337556E+001  +1.1470647111E-002 +4.1509275276E+001  +6.1218895338E-001 +9.2977273512E-001 
9770324.155 +5.3478469071E-001 -5.9159775537E-001  +1.4114400622E-002 +1.6528850188E+001  +1.1613066473E-002 +2.9383888621E+001  +6.0918636036E-001 -3.5267987136E+000 
9895469.337 +4.9472417645E-001 +3.6971967209E+000  +1.3703093073E-002 +1.1882373398E+001  +1.5107943300E-002 +3.7828716338E+001  +5.5252851392E-001 -8.1766529790E+000 
10020614.518 +5.4068822426E-001 +5.0770116484E-001  +1.3194958430E-002 +1.2236165149E+001  +1.3086247195E-002 +2.9076034795E+001  +5.6992965662E-001 -5.9262424678E+000 
10145759.700 +5.0255363152E-001 +4.5002146678E+000  +1.5012207170E-002 +2.7260757346E+001  +1.5334031942E-002 +2.5125741543E+001  +5.5638037664E-001 -1.3204390755E+000 
10270904.881 +5.4610602381E-001 +4.7972198854E+000  +1.2303546460E-002 +9.1980676030E+000  +1.3220699716E-002 +4.1284573599E+001  +5.3281332761E-001 -3.1011138130E+000 
10396050.063 +5.1370960233E-001 +1.3772901567E+000  +1.0672321903E-002 +1.4244790472E+000  +9.2151041527E-003 +2.6117566544E+001  +5.7281954590E-001 -2.3249902440E+000 
10521195.244 +5.8110708750E-001 +5.3356791113E+000  +1.0619640712E-002 +8.9546478488E+000  +1.1063580461E-002 +3.4663194622E+001  +5.6463020599E-001 -6.9898859237E-001 
10646340.426 +5.4606610640E-001 +4.9516078538E+000  +1.0480093607E-002 +1.7769410257E+001  +1.2882520516E-002 +4.2400788080E+001  +5.9064376111E-001 +1.0700102284E+000 
10771485.607 +5.8079659303E-001 +6.4988099779E+000  +1.3242040657E-002 +1.3692598747E+001  +1.3702689425E-002 +3.0155048493E+001  +6.2926245321E-001 +1.0005749270E-001 
10896630.788 +5.3986588592E-001 +3.1490397509E+000  +1.4403793188E-002 +2.0791934243E+001  +1.2880744790E-002 +3.8386267934E+001  +5.5554689107E-001 -2.2092970390E+000 
11021775.970 +6.0142939161E-001 +9.0418765582E+000  +1.3867393291E-002 +1.5875152012E+001  +1.5153709125E-002 +3.7650708828E+001  +5.9969873141E-001 +2.0078324803E+000 
11146921.151 +5.6849172083E-001 +5.8288241277E+000  +1.4517431759E-002 +3.0962321501E+001  +1.2940224194E-002 +2.8167795991E+001  +6.2160659371E-001 +8.2079306890E-001 
11272066.333 +6.0053115356E-001 +3.4292849394E+000  +1.4541864750E-002 +2.1568377398E+001  +1.4710009286E-002 +4.1126938326E+001  +6.3907413672E-001 +1.2295781818E+000 
11397211.514 +5.8139542369E-001 +8.1575107995E+000  +1.4066866841E-002 +1.3248190935E+001  +1.3306676951E-002 +3.1126129234E+001  +6.2418706164E-001 -1.4634015953E-001 
11522356.696 +5.8756184664E-001 +7.4197954077E+000  +1.5772819425E-002 +8.5992010966E+000  +1.5116116660E-002 +3.4580171897E+001  +6.0649541746E-001 +9.8500527674E-001 
11647501.877 +5.9951652400E-001 +5.8747870304E+000  +1.4226252248E-002 +1.9352514684E+001  +1.5037937079E-002 +3.3316891611E+001  +6.4316653210E-001 +1.7346360369E+000 
11772647.059 +6.2503827821E-001 +5.5911911403E+000  +1.4141640321E-002 +1.7237580949E+001  +1.4830026354E-002 +2.1405073946E+001  +6.5054778516E-001 +3.2072235019E-002 
11897792.240 +6.3739593211E-001 +6.4209728874E+000  +1.5103871648E-002 +2.0173519836E+001  +1.3941849943E-002 +2.9749047993E+001  +6.5278396935E-001 -1.9982085772E+000 
12022937.422 +6.4122719707E-001 +4.9077168196E+000  +1.3605822477E-002 +1.5985670057E+001  +1.4559275522E-002 +2.5774911540E+001  +6.7970195946E-001 +1.8190379112E+000 
12148082.603 +6.6288154758E-001 +5.4067923776E+000  +1.4874971437E-002 +2.4984319951E+001  +1.4050849979E-002 +2.7509353090E+001  +6.9757772444E-001 +2.4595036222E+000 
12273227.785 +6.5695622621E-001 +5.4443920204E+000  +1.6429305165E-002 +2.1344612440E+001  +1.4796174195E-002 +2.3621709913E+001  +7.0485755650E-001 +1.2022966845E+000 
12398372.966 +6.8452051691E-001 +3.6438178154E+000  +1.2953127182E-002 +2.2662595615E+001  +1.4610334634E-002 +3.5283355084E+001  +7.2578876494E-001 -6.4471561717E-001 
12523518.148 +7.0641673378E-001 +3.3847293864E+000  +1.6976415036E-002 +2.2154105974E+001  +1.4378967430E-002 +3.3216534409E+001  +7.4765918232E-001 -2.5331720254E-001 
12648663.329 +6.8777643151E-001 +8.5467002920E-001  +1.6682622186E-002 +1.9780562449E+001  +1.4332520956E-002 +2.8458853060E+001  +7.3369753891E-001 -6.1195190455E-001 
12773808.511 +7.2028799370E-001 +3.1682273720E+000  +1.5812048748E-002 +2.5061560795E+001  +1.6383004367E-002 +3.6845525523E+001  +7.3592797283E-001 -2.0591231133E+000 
12898953.692 +7.5319781615E-001 +2.5277296921E+000  +1.6479798140E-002 +2.2467564294E+001  +1.6419444957E-002 +2.5644889595E+001  +7.7052883389E-001 -2.3176426308E+000 
13024098.874 +7.7555335257E-001 +2.6966702398E-001  +1.6545056553E-002 +2.9107079761E+001  +1.3592039188E-002 +3.4889446057E+001  +7.7452238453E-001 -1.8650030552E+000 
13149244.055 +7.9671754045E-001 -6.0055739636E-001  +1.5515355352E-002 +2.9567352833E+001  +1.8426052457E-002 +3.2611606803E+001  +7.9789547441E-001 -2.7547222524E-001 
13274389.237 +8.1087853393E-001 -2.5554693917E-001  +1.7107879444E-002 +2.3625007080E+001  +1.5663183906E-002 +3.4097467709E+001  +8.1797795606E-001 -3.7745611291E+000 
13399534.418 +8.1174655896E-001 -1.2617933655E+000  +1.6588993400E-002 +2.7197211322E+001  +1.5675609184E-002 +2.7898295859E+001  +8.5047886096E-001 -2.3019648367E+000 
13524679.599 +8.3801511535E-001 -2.1287312342E+000  +1.7363925507E-002 +2.6225747280E+001  +1.6626767050E-002 +3.2964392856E+001  +8.3557788382E-001 -2.6794600830E+000 
13649824.781 +8.3420153962E-001 -3.3020035339E+000  +1.5849436762E-002 +2.4194886215E+001  +1.6540045681E-002 +3.3048370790E+001  +8.6068371469E-001 -2.8699053780E+000 
13774969.962 +8.6628785047E-001 -2.0974518599E+000  +1.6255570959E-002 +2.4124814216E+001  +1.6211320707E-002 +2.3011707515E+001  +8.9455711322E-001 -2.9396313934E+000 
13900115.144 +8.9921169701E-001 -4.2698594267E+000  +1.8189203527E-002 +2.5836882687E+001  +1.8551976714E-002 +2.8274764434E+001  +8.8063077911E-001 -2.7989705133E+000 
14025260.325 +9.0467638811E-001 -3.1020116055E+000  +1.7214785542E-002 +2.5190447398E+001  +1.6542881609E-002 +2.7349777677E+001  +9.3000174963E-001 -4.2648053909E+000 
14150405.507 +9.1009680639E-001 -4.6789476619E+000  +1.7028062767E-002 +2.2502604677E+001  +1.8209700207E-002 +2.9287105705E+001  +9.3187152345E-001 -4.1753992668E+000 
14275550.688 +9.1469093965E-001 -4.4931886130E+000  +1.7003235640E-002 +2.6903131790E+001  +1.8124736471E-002 +2.8650877933E+001  +9.4939885175E-001 -3.2130339271E+000 
14400695.870 +9.4811727280E-001 -6.2510529880E+000  +1.6717106746E-002 +2.7209735984E+001  +1.8045227208E-002 +2.6314739267E+001  +9.7535663936E-001 -4.0717230616E+000 
