!  2-Port S-parameters saved by WinCal
! VAR NAME=S2_r2c8_formed(2)_9k-100M_3
! VAR DATE=30/08/2024 11:27:19
! VAR FILENAME=S2_r2c8_formed(2)_9k-100M_3.S2P
! VAR MeasName=S-Parameters (CALIBRATED_DATA) read from VNA (P5004A)
! VAR MeasDate=27/08/2024 14:03:07
! VAR PHYS_PORTS=1,2
! VAR ObjTypeName=DATASET
! VAR IndexType=Frequency
!
# Hz S MA R 50
9000.000 +2.5959483612E-002 +1.3866817523E+002  +2.1658524458E-002 +1.9751434506E+001  +2.6461330236E-002 -1.4336471279E+002  +2.8699869250E-001 -1.2232642865E+002 
134145.181 +1.0989329144E-001 +1.6972050280E+002  +6.6650574095E-004 +1.2723996435E+002  +3.0409508346E-004 +6.4684970873E+000  +2.4140764717E-001 -1.6958699831E+002 
259290.363 +1.1128086559E-001 +1.6954289230E+002  +1.0255479885E-003 -1.2927783833E+002  +7.0524747613E-004 -1.5534182647E+001  +2.4864852059E-001 -1.6783384867E+002 
384435.544 +1.1300730002E-001 +1.7035780690E+002  +1.0797856442E-004 +1.0517089861E+002  +7.7734355261E-004 +8.5546358237E+001  +2.4439445654E-001 -1.7013331986E+002 
509580.726 +1.1293171765E-001 +1.7103429661E+002  +6.0009317922E-004 +3.5017081347E+001  +2.0089352039E-003 +1.2403099339E+002  +2.4211820845E-001 -1.6619158087E+002 
634725.907 +1.1617212640E-001 +1.7123690886E+002  +1.3880274911E-003 -5.8498754656E+001  +2.7066546460E-004 +2.7221172288E+001  +2.5438430481E-001 -1.6429342731E+002 
759871.089 +1.1464470343E-001 +1.7099453206E+002  +5.5138871457E-004 +1.7602865067E+002  +5.3420239898E-004 -1.1285478204E+002  +2.3664764881E-001 -1.6501452267E+002 
885016.270 +1.1829165051E-001 +1.7014432853E+002  +4.6973155375E-004 -8.0270523780E+000  +4.6108421881E-004 +8.8473132099E+001  +2.5112730614E-001 -1.6577134335E+002 
1010161.452 +1.2070059823E-001 +1.7057193546E+002  +9.8840139455E-004 +1.6318601406E+001  +2.6773047414E-003 -1.5763327518E+002  +1.9006849649E-001 -1.6059551162E+002 
1135306.633 +1.1154302039E-001 +1.6787489460E+002  +2.4233720845E-003 -5.3343881211E+001  +6.6574409037E-004 +1.7658461113E+002  +1.8677432326E-001 -1.6031991608E+002 
1260451.815 +1.1965548508E-001 +1.7025954180E+002  +4.1280741864E-004 -1.6677873158E+002  +1.7135800829E-003 +1.1314464566E+002  +2.1953048816E-001 -1.5932025812E+002 
1385596.996 +1.2824894047E-001 +1.7192707444E+002  +2.0704388965E-004 -1.6088118260E+002  +1.3850638617E-003 +1.6770942519E+002  +2.6285196019E-001 -1.5991947409E+002 
1510742.178 +1.2700678232E-001 +1.7054714962E+002  +1.6429311675E-003 -9.2821746563E+001  +5.3713842939E-004 -6.0529663845E+001  +2.4541738353E-001 -1.5644983583E+002 
1635887.359 +1.2909004782E-001 +1.7038886549E+002  +1.1455465626E-003 -7.3263402858E-002  +6.0698159569E-004 -9.5928055079E+001  +2.0528819546E-001 -1.5208793732E+002 
1761032.541 +1.2961511596E-001 +1.6757107218E+002  +9.1137926860E-004 -2.1826778926E-001  +3.1553714026E-003 -1.0393596877E+002  +2.2167846843E-001 -1.6407086440E+002 
1886177.722 +1.3100992738E-001 +1.6694787332E+002  +2.6584736422E-003 +4.2011624351E+001  +1.1256519425E-003 -1.2339672078E+002  +2.0219530465E-001 -1.6716337464E+002 
2011322.904 +1.3084898430E-001 +1.6191214189E+002  +3.3746528269E-003 +3.6488496254E+001  +5.2157874313E-003 -1.9058451379E+001  +1.7853293825E-001 -1.7237336856E+002 
2136468.085 +1.3393398093E-001 +1.6512358899E+002  +1.9971191898E-003 +4.7750669693E+001  +2.5230381172E-003 -7.7967882587E+001  +1.7356200768E-001 -1.6377531749E+002 
2261613.267 +1.3064064389E-001 +1.6622933950E+002  +3.4408475010E-003 +3.5227411523E+001  +5.8550361458E-003 -8.7655351384E+001  +1.4759697709E-001 -1.6737643717E+002 
2386758.448 +1.3612515540E-001 +1.6334479318E+002  +6.3375608666E-003 +8.9308799483E+001  +5.8748325787E-003 -7.0943760541E+001  +1.7356727995E-001 +1.6167526627E+002 
2511903.630 +1.3253267776E-001 +1.6274518775E+002  +8.9262295257E-003 +7.7042435140E+001  +5.5783681391E-003 -5.9279414635E+001  +1.2243325979E-001 -1.7640390284E+002 
2637048.811 +1.2806575659E-001 +1.5195787686E+002  +1.1196217662E-002 +7.8839624128E+001  +9.5577883528E-003 -4.9162055546E+000  +2.0614771466E-001 +1.7092613746E+002 
2762193.992 +1.0124535870E-001 +1.7258560674E+002  +5.2767758337E-002 -1.3956596191E+001  +4.1561882196E-002 -1.5223513183E+002  +3.6682092213E-001 -5.9324372187E+001 
2887339.174 +1.2002094172E-001 +1.4863947393E+002  +6.2180884489E-002 -1.0651464147E+001  +6.4097252301E-002 -1.4530270291E+002  +8.0160179438E-001 -8.0088780077E+001 
3012484.355 +1.2683509020E-001 +1.7273971925E+002  +1.8961102239E-002 -6.9599193271E+001  +2.2632064817E-002 -1.6246445036E+002  +3.1868697245E-001 -1.0222106111E+002 
3137629.537 +9.9064755539E-002 -1.7431533381E+002  +9.4157205593E-003 -3.1722505243E+001  +1.7068399144E-002 -1.5999644063E+002  +1.7660705372E-001 -1.3634935734E+002 
3262774.718 +1.1915024963E-001 +1.7913776805E+002  +2.9270534448E-002 -6.6181743631E+001  +2.4524086023E-002 -1.4402391366E+002  +5.1231651994E-001 -9.1251673363E+001 
3387919.900 +1.4141665947E-001 +1.6266847314E+002  +2.3331890544E-002 +1.1665570956E+002  +8.5952754873E-003 +4.9950035551E+001  +8.0117802823E-001 +1.3569827744E+002 
3513065.081 +1.5971466472E-001 +1.5365865529E+002  +1.7014879480E-002 +8.0257764584E+001  +2.1829391750E-002 -2.0366763702E+000  +3.4522160851E-001 +9.2513329003E+001 
3638210.263 +1.5592447171E-001 +1.5925909611E+002  +4.5935004515E-002 +7.0799815605E+001  +3.4726548640E-002 +1.3185181324E+001  +7.4129804572E-001 +9.3687281588E+001 
3763355.444 +2.0698181442E-001 +1.4743032535E+002  +2.2965800926E-002 +9.3494375383E+001  +1.7903070954E-002 -1.6969352625E+001  +1.1293058883E-001 +9.7355209160E+001 
3888500.626 +1.8467603563E-001 +1.4919916311E+002  +3.6672808964E-002 +9.7100453426E+001  +4.2699932349E-002 +3.8250829447E+001  +8.4032438860E-001 +1.0764870505E+002 
4013645.807 +1.7072743351E-001 +1.2885886597E+002  +3.7706377124E-002 +8.7809609222E+001  +3.8859156981E-002 +4.3060690567E+001  +4.8622378658E-001 +1.1431973772E+002 
4138790.989 +1.6142550010E-001 +1.5084321618E+002  +1.8573195814E-002 +6.3818046541E+001  +3.0549435341E-002 +3.1325798838E+000  +2.4136612503E-001 +1.0809766417E+002 
4263936.170 +1.7043536510E-001 +1.3849893689E+002  +3.7848094897E-002 +7.6472817166E+001  +3.8522358913E-002 +1.4217888385E+001  +4.3105350644E-001 +1.1898744423E+002 
4389081.352 +2.2372469887E-001 +1.2636480446E+002  +6.8354445625E-002 +1.1877693693E+002  +8.7528030349E-002 +3.9234243369E+001  +9.4368431010E-001 +1.1086757191E+002 
4514226.533 +2.6923984448E-001 +1.3692844948E+002  +6.9011467033E-002 +9.7194877212E+001  +6.6687392884E-002 +5.8670032615E+001  +1.0868744248E+000 +9.2797762603E+001 
4639371.715 +2.4376261549E-001 +1.2655888151E+002  +7.4396722219E-002 +8.3408506701E+001  +8.9574364807E-002 +3.2810308161E+001  +1.1603373184E+000 +9.3505179539E+001 
4764516.896 +4.2307829440E-001 +1.2507232572E+002  +2.3870597357E-001 +1.5873730026E+002  +2.0639544791E-001 +1.1739255623E+002  +2.6602547601E+000 +1.2091319791E+002 
4889662.078 +4.3852560638E-001 +1.4658437629E+002  +1.0684720510E-001 -3.1348107734E+001  +9.1528071557E-002 -5.0727180202E+001  +2.4752425276E+000 -1.0598244486E+002 
5014807.259 +3.1614879786E-001 +1.3562090210E+002  +1.1092612880E-001 -1.4058168758E+002  +1.0151186510E-001 -1.7825534881E+002  +3.1117782616E+000 -1.6871707315E+002 
5139952.441 +3.4331176680E-001 +1.2736749886E+002  +1.0644167269E-001 +1.1093350920E+002  +6.7710876063E-002 +7.6985851572E+001  +1.7998343853E+000 +1.0616336993E+002 
5265097.622 +4.2067870176E-001 +1.3549643322E+002  +6.7129956005E-002 +1.3020021444E+002  +7.6242665051E-002 +9.3927499799E+001  +1.7551194252E+000 +1.1368819963E+002 
5390242.804 +3.8484640970E-001 +1.2731427408E+002  +1.2921519251E-001 +1.1175757513E+002  +1.1240858154E-001 +6.4640896545E+001  +2.1303957194E+000 +9.8290919848E+001 
5515387.985 +4.0645308661E-001 +1.2841120836E+002  +1.0075532811E-001 +1.0146490278E+002  +9.1289625885E-002 +7.0368264867E+001  +1.9816323948E+000 +8.6473795994E+001 
5640533.166 +4.1956134160E-001 +1.3202824298E+002  +8.9520592489E-002 +1.0119823107E+002  +1.0064986394E-001 +8.0546901928E+001  +1.9935840049E+000 +9.9093344067E+001 
5765678.348 +4.8022607739E-001 +1.3035705663E+002  +1.0411177156E-001 +7.0024632703E+001  +1.1139799054E-001 +4.8363674175E+001  +2.0851650085E+000 +5.9118850692E+001 
5890823.529 +6.7256891509E-001 +1.2827829439E+002  +1.1472105251E-001 +7.4907037453E+001  +1.3760073699E-001 +5.8363604426E+001  +1.9388803750E+000 +3.2792564742E+001 
6015968.711 +7.1372692861E-001 +1.1553408734E+002  +1.2195572956E-001 +1.0435203273E+002  +9.3672858411E-002 +8.7567252830E+001  +1.6205998481E+000 +1.0033014559E+002 
6141113.892 +6.7096989579E-001 +1.1335542648E+002  +1.1778492102E-001 +6.4393339720E+001  +1.4000977766E-001 +3.3292179752E+001  +1.8969464608E+000 +3.5115069217E+001 
6266259.074 +8.0395289434E-001 +1.0590266130E+002  +1.3088462080E-001 +6.7762322882E+001  +1.4626255708E-001 +5.3453496855E+001  +2.0088138899E+000 +5.6543202559E+001 
6391404.255 +8.8771853511E-001 +1.0260390062E+002  +1.0865158554E-001 +4.6075683255E+001  +9.9191716521E-002 +3.2470353570E+001  +1.1181273694E+000 +2.1411649101E+001 
6516549.437 +1.4547650983E+000 +7.9876856884E+001  +1.7175374633E-001 +3.9420700400E+001  +1.6922435454E-001 +3.5441770632E+001  +1.1048211340E+000 +2.0662038581E+001 
6641694.618 +1.2285319951E+000 +6.5458477934E+001  +1.6372295887E-001 +2.9035859260E+001  +1.6959134125E-001 +1.6691266260E+001  +1.5801504568E+000 +1.0933272441E+001 
6766839.800 +1.3744974427E+000 +4.1431240596E+001  +1.3909813508E-001 +1.7350510987E+001  +1.3024532225E-001 +9.6783890453E+000  +1.1530275689E+000 +9.1852953056E+000 
6891984.981 +1.2918058582E+000 +2.8115647478E+001  +1.3913113563E-001 -5.8495808617E+000  +1.2562428755E-001 +3.9339790346E+000  +1.2374134627E+000 +2.5566625827E+000 
7017130.163 +1.6537727353E+000 +2.9212510553E+001  +1.4289573515E-001 +1.0357679244E+001  +1.3388604491E-001 +2.4130697451E+000  +1.2596095065E+000 -9.8856712998E+000 
7142275.344 +1.8014718204E+000 +1.0170442704E+001  +1.2367271532E-001 +6.3425838509E+000  +1.1666083265E-001 +1.0218033718E+000  +1.2326461589E+000 -5.3043183407E+000 
7267420.526 +1.5722577952E+000 +2.1645059998E+000  +7.9303673294E-002 -6.7446758835E+000  +8.2861432399E-002 +5.7533263150E+000  +1.3237967651E+000 -1.7391605507E+001 
7392565.707 +1.2470094183E+000 -5.5761829075E+000  +8.3644021566E-002 +4.7993645933E+000  +8.0273183659E-002 +5.8168495784E+000  +1.1972480948E+000 -7.0435927331E+000 
7517710.889 +1.0914711767E+000 +3.2560414658E-001  +6.9359524724E-002 +8.5553035987E+000  +6.2308670374E-002 +2.6225748639E+000  +1.0126324340E+000 -6.2370779491E+000 
7642856.070 +9.1290127993E-001 -3.4835167652E+000  +5.5322197981E-002 +4.8865884044E+000  +6.1879239601E-002 +9.4382271054E+000  +9.6810617040E-001 +2.0090832836E+000 
7768001.252 +9.0023181657E-001 +2.1268599659E+000  +5.9604197140E-002 +1.4443656803E-001  +5.3429051878E-002 +7.9795103494E+000  +9.3643512427E-001 -4.7977965088E+000 
7893146.433 +8.8026134290E-001 +7.0621135584E+000  +5.6740942290E-002 +7.7559850622E+000  +5.4626838082E-002 +1.4534606720E+001  +9.1691795634E-001 +9.3553182438E-001 
8018291.615 +7.7869537370E-001 +6.5518247682E+000  +5.1262757514E-002 -8.4407183938E+000  +6.4057358930E-002 +1.3098032531E+001  +8.1775624151E-001 -6.0073366991E-001 
8143436.796 +6.4566471732E-001 +5.1044272866E+000  +5.2346083379E-002 -5.1192114728E+000  +5.3534626566E-002 +1.0150131406E+001  +7.1517865473E-001 +2.8115073085E+000 
8268581.977 +6.6599050167E-001 +1.2085123539E+001  +5.2875768348E-002 -1.7271016290E+000  +4.7102121569E-002 +1.1977057974E+001  +6.7473564825E-001 +3.1483431013E+000 
8393727.159 +6.0541544763E-001 +4.5695283332E+000  +4.9513454947E-002 +2.3869158151E+000  +5.1666559953E-002 +1.3467066862E+001  +7.5289227862E-001 +5.6296056883E+000 
8518872.340 +6.4700806591E-001 +7.0866769871E+000  +4.9381760938E-002 +1.8451965339E+000  +5.2385010741E-002 +7.7908507835E+000  +6.4813983912E-001 -2.4947613365E-001 
8644017.522 +5.8906321426E-001 +1.0942491852E+001  +5.2826002813E-002 -3.2226918629E+000  +5.1267501131E-002 +1.7065855665E+001  +6.4212395943E-001 +6.3006020679E+000 
8769162.703 +6.0597871812E-001 +3.8540539520E+000  +5.1461361999E-002 -9.4557615074E-001  +4.9372343240E-002 +1.1135149768E+001  +5.7754531871E-001 +2.9284409187E-001 
8894307.885 +6.0019414069E-001 +5.7353172705E+000  +4.8181132405E-002 -1.0124641380E+000  +4.9187144955E-002 +1.6518843892E+001  +5.8655766794E-001 +1.7186135424E+000 
9019453.066 +4.9634577011E-001 +9.1295431281E+000  +4.7742170020E-002 -7.5416502315E-001  +4.8306608210E-002 +1.5527950623E+001  +5.4522280366E-001 +2.3783619146E+000 
9144598.248 +4.8050210174E-001 +9.1449230843E+000  +4.6077486077E-002 -5.3241420027E+000  +4.7633389722E-002 +1.4102216160E+001  +5.4270485739E-001 +1.2263695349E+000 
9269743.429 +4.7464485012E-001 +1.4831045972E+000  +5.2459490920E-002 -4.2812078537E+000  +5.3448462072E-002 +1.1722101245E+001  +5.2362456660E-001 -4.1413727162E+000 
9394888.611 +5.0746133684E-001 +6.4371936157E+000  +5.0486819843E-002 -7.4397977539E-001  +5.1318628083E-002 +1.2091862057E+001  +5.3396098327E-001 -4.5318472055E+000 
9520033.792 +5.3775489571E-001 +9.9752885282E+000  +5.0142513084E-002 -1.7992186013E-001  +4.7939178879E-002 +1.5129237768E+001  +5.1050315653E-001 -4.9003006685E+000 
9645178.974 +5.0799311695E-001 +2.7626352594E+000  +4.8421002675E-002 -1.7808470714E+000  +4.7049632378E-002 +1.7893815025E+001  +5.0278759280E-001 -6.3520545491E+000 
9770324.155 +5.1315947794E-001 +5.3908441840E+000  +5.2207262384E-002 -1.9368162567E+000  +4.9413875695E-002 +1.8963079887E+001  +5.3056885803E-001 -3.7683202968E+000 
9895469.337 +4.9337482533E-001 +2.3035597118E+000  +4.7110802770E-002 -1.2299783057E+000  +5.0707248228E-002 +1.9283844948E+001  +5.3915517499E-001 -1.0950530394E+001 
10020614.518 +5.1072524576E-001 +7.9545517971E-001  +5.0419071029E-002 -4.1844652358E+000  +4.8721556842E-002 +1.6431102309E+001  +5.2968066062E-001 -2.7431330035E+000 
10145759.700 +5.2222995656E-001 +5.3312317593E+000  +4.9359099102E-002 +3.8337354294E+000  +5.1015985860E-002 +1.4514418855E+001  +5.4514251713E-001 -7.3001747819E+000 
10270904.881 +5.0581246489E-001 +7.4075146441E+000  +4.7457413905E-002 +3.4423014803E+000  +4.9673325936E-002 +1.7917351441E+001  +5.4558861810E-001 -7.3350921019E-001 
10396050.063 +5.3398781566E-001 +5.0104732312E+000  +5.0826649064E-002 +4.2221503663E+000  +4.9843441757E-002 +1.5679351194E+001  +5.5313269763E-001 -2.0827807256E+000 
10521195.244 +4.8505392759E-001 +5.7816804239E+000  +5.0304245579E-002 -8.7011744921E-001  +4.9819015639E-002 +1.5559596605E+001  +5.1853202201E-001 +7.6410103261E-002 
10646340.426 +4.9762043682E-001 +5.2525655191E+000  +4.7608165862E-002 +4.0146137984E-001  +5.2261993586E-002 +1.3827277550E+001  +5.1186930109E-001 -3.5721472277E+000 
10771485.607 +4.8657088985E-001 +5.9150979431E+000  +5.1124142483E-002 +8.4614924430E-001  +4.9558879576E-002 +1.7272215248E+001  +5.3844526146E-001 -1.4368528491E+000 
10896630.788 +5.3154545646E-001 +6.4328937457E+000  +5.0019453489E-002 +1.7040299999E+000  +5.2607895819E-002 +1.5508547469E+001  +5.7475018058E-001 -1.4469947953E+000 
11021775.970 +5.0769109253E-001 +9.4407517470E+000  +5.1097316562E-002 +5.8704870934E+000  +5.2076609175E-002 +1.4628234732E+001  +5.5851023450E-001 +1.7406591649E+000 
11146921.151 +5.2593161915E-001 +4.1891883018E+000  +5.3438096507E-002 +4.3290651003E+000  +4.9244511755E-002 +1.6252215964E+001  +5.8028062422E-001 -4.5603492020E-001 
11272066.333 +5.5672522350E-001 +8.8142584782E+000  +5.2985884758E-002 +3.8959090039E+000  +5.2067018197E-002 +1.7292803109E+001  +5.5785401386E-001 +3.3899123370E+000 
11397211.514 +5.6710810947E-001 +5.2676903660E+000  +5.2385717195E-002 +4.7524766498E+000  +5.1491643478E-002 +1.8296626748E+001  +5.8134698321E-001 +2.4489555212E+000 
11522356.696 +5.7077687924E-001 +6.4026989167E+000  +5.5827316741E-002 +4.8926413306E+000  +5.4581127686E-002 +1.5659045272E+001  +5.7233414425E-001 +1.9660603465E+000 
11647501.877 +6.0587354570E-001 +6.4550363199E+000  +5.5867532680E-002 +6.5944174746E+000  +5.4814012735E-002 +1.7861005944E+001  +5.7972283591E-001 -8.5473782708E-001 
11772647.059 +6.0704453970E-001 +5.8298655587E+000  +5.4635910067E-002 +5.6393539777E+000  +5.4575437814E-002 +1.5344480301E+001  +5.8565044042E-001 +1.2002857697E+000 
11897792.240 +6.0961084489E-001 +4.6823583845E+000  +5.6222892942E-002 +5.8003924374E+000  +5.4050608958E-002 +1.5237257973E+001  +6.1458670495E-001 +9.4482089116E-001 
12022937.422 +5.9598984261E-001 +3.6059707583E+000  +5.5077456853E-002 +8.2879036572E+000  +5.6557527268E-002 +1.5839585204E+001  +6.1058369457E-001 +2.8934434701E+000 
12148082.603 +6.2822204432E-001 +8.2764936703E+000  +5.6387707464E-002 +5.8738472757E+000  +5.6552183381E-002 +1.8099558981E+001  +6.4800107548E-001 -4.6886584710E-001 
12273227.785 +6.3420382390E-001 +3.3951846591E+000  +5.7274448903E-002 +6.6334558892E+000  +5.8606151029E-002 +1.4827441442E+001  +6.3066205620E-001 -7.8202348167E-001 
12398372.966 +6.4914820300E-001 +2.9435819014E+000  +5.9268572374E-002 +7.1126637149E+000  +5.7294078084E-002 +1.4812793302E+001  +6.5034756926E-001 +3.0686938331E+000 
12523518.148 +6.7187384730E-001 +3.2681760522E+000  +5.8643176581E-002 +7.4622230771E+000  +5.9841729864E-002 +1.5082008596E+001  +6.7481879673E-001 -1.5075384034E+000 
12648663.329 +6.9044181749E-001 +1.3985275121E-001  +5.8756764634E-002 +8.4287686699E+000  +5.9304445074E-002 +1.3485330747E+001  +7.1036767393E-001 +9.6503453184E-002 
12773808.511 +6.9503530341E-001 +1.5769676733E+000  +6.1552279225E-002 +8.2611797383E+000  +5.9881517832E-002 +1.5352351882E+001  +7.1229410509E-001 -2.4131994933E+000 
12898953.692 +7.2049572777E-001 +2.8936366726E+000  +6.1213345086E-002 +7.8939672675E+000  +6.0277808507E-002 +1.3898292353E+001  +7.3946349742E-001 -2.2752778550E-001 
13024098.874 +7.3231970178E-001 +2.7157445597E+000  +6.0316466767E-002 +8.5805955279E+000  +6.0540701907E-002 +1.2706896659E+001  +7.3731971540E-001 -3.5388773931E+000 
13149244.055 +7.5544251829E-001 -1.1673355024E-001  +6.2185190264E-002 +8.6576841814E+000  +6.0341183553E-002 +1.2966870468E+001  +7.4289853092E-001 -2.4436541451E+000 
13274389.237 +7.3255324127E-001 +8.9933147747E-001  +6.3005510092E-002 +7.9031102091E+000  +6.1378366141E-002 +1.3327549156E+001  +7.6755534089E-001 -1.7908411729E+000 
13399534.418 +7.6647163136E-001 -7.7382714450E-003  +6.2628317069E-002 +9.2026237310E+000  +6.1830778800E-002 +1.2196323224E+001  +7.9045369806E-001 -1.7175985105E+000 
13524679.599 +8.0238241084E-001 -1.6365463336E+000  +6.4720900576E-002 +9.1374505430E+000  +6.1087706580E-002 +1.0873664151E+001  +7.7869585696E-001 -3.4445285548E+000 
13649824.781 +8.2092277288E-001 -2.1711994217E+000  +6.4489370143E-002 +9.0045999533E+000  +6.3496063690E-002 +1.1192662268E+001  +8.1135727561E-001 -2.6182463592E+000 
13774969.962 +8.2162533041E-001 -3.4867396941E+000  +6.4401089171E-002 +8.4624512563E+000  +6.4273655620E-002 +1.0834719489E+001  +8.4339123306E-001 -2.9911000281E+000 
13900115.144 +8.5565263923E-001 -3.5818327719E+000  +6.5128515294E-002 +8.1949563479E+000  +6.4090841083E-002 +9.9772837663E+000  +8.4816859553E-001 -3.7468224087E+000 
14025260.325 +8.5822873287E-001 -3.3409571029E+000  +6.4910837281E-002 +8.2690015819E+000  +6.4000554403E-002 +9.9437036811E+000  +8.5286870142E-001 -3.9210971381E+000 
14150405.507 +8.4405912455E-001 -4.5639420327E+000  +6.6772902705E-002 +7.8688248353E+000  +6.5643987459E-002 +9.3091704680E+000  +8.9557412489E-001 -3.9104852729E+000 
14275550.688 +9.0910067709E-001 -5.2277602230E+000  +6.6638203970E-002 +8.8199781254E+000  +6.5931308330E-002 +8.8141068830E+000  +9.0410835544E-001 -4.9811875249E+000 
14400695.870 +9.1881664581E-001 -5.2091606750E+000  +6.8105387467E-002 +7.7662511014E+000  +6.4339694283E-002 +7.4115653669E+000  +9.2284806418E-001 -4.5712677087E+000 
