!  2-Port S-parameters saved by WinCal
! VAR MeasName=S-Parameters (CALIBRATED_DATA) read from VNA (P5004A)
! VAR MeasDate=28/08/2024 11:57:42
! VAR NAME=S2_r6c9_SET4_9k-100M_3
! VAR FILENAME=S2_r6c9_SET4_9k-100M_3.S2P
! VAR DATE=28/08/2024 11:57:42
! VAR PHYS_PORTS=1,2
! VAR ObjTypeName=DATASET
! VAR IndexType=Frequency
!
# Hz S MA R 50
9000.000 +8.2038698507E-002 -1.6579081784E+002  +6.8978686762E-003 -1.6654394194E+002  +6.7596958352E-003 -1.6309491280E+002  +2.3880212807E-001 -1.4693818781E+002 
134145.181 +1.1091982517E-001 +1.6955242139E+002  +2.2212096969E-004 +9.3036223262E+000  +1.4825504882E-004 +8.8933359428E+001  +2.4124052954E-001 -1.7129936657E+002 
259290.363 +1.1278357631E-001 +1.7009256243E+002  +2.6188418900E-004 -1.7068321524E+002  +3.2263663333E-004 +6.5660433762E+001  +2.3961858723E-001 -1.6854674310E+002 
384435.544 +1.1507321412E-001 +1.7011933217E+002  +5.6369687617E-004 -1.1208098493E+002  +4.5567264395E-004 -1.0957985294E+001  +2.4041327930E-001 -1.6911316491E+002 
509580.726 +1.1258076459E-001 +1.7051282143E+002  +6.2118818295E-004 +1.2069325582E+002  +1.8921400539E-003 +6.2302610966E+001  +2.5905693535E-001 -1.6705523445E+002 
634725.907 +1.1661910251E-001 +1.7241264430E+002  +6.6701055395E-004 +7.6522063063E+001  +1.1001980622E-003 -1.0615216158E+002  +2.5492033560E-001 -1.6672153455E+002 
759871.089 +1.1908718426E-001 +1.7105418268E+002  +1.8156991319E-004 -4.8446298689E+001  +4.3821728781E-004 +1.1077650392E+002  +2.4594265141E-001 -1.6693654770E+002 
885016.270 +1.1847915154E-001 +1.6865495007E+002  +3.6808550623E-005 -1.7524033428E+001  +3.4636524884E-004 +6.1996017586E+001  +2.4798005760E-001 -1.6616477597E+002 
1010161.452 +1.1765397213E-001 +1.6968618084E+002  +4.4770479023E-004 -1.0399421054E+002  +9.3641775045E-004 -8.7116231439E+001  +2.2011314055E-001 -1.6641695899E+002 
1135306.633 +1.1573412400E-001 +1.7048821655E+002  +8.9159106241E-004 -3.4909380332E+001  +9.5312795828E-004 +1.5386119308E+002  +2.0072642829E-001 -1.6646264528E+002 
1260451.815 +1.2038038416E-001 +1.6975059168E+002  +1.0875746737E-003 +4.3497692774E+001  +8.3177408678E-004 +6.2744041698E+001  +2.2664187707E-001 -1.5557537179E+002 
1385596.996 +1.2588567740E-001 +1.7325624517E+002  +5.9162061672E-004 -7.9669278015E+001  +2.0072317607E-003 +3.6895602672E+001  +2.7992479293E-001 -1.5686918155E+002 
1510742.178 +1.2766418547E-001 +1.7209916071E+002  +1.5388634912E-003 -1.5858595470E+002  +9.9097729738E-004 +1.2793005823E+002  +2.6452589729E-001 -1.5953389511E+002 
1635887.359 +1.2856769715E-001 +1.7092034350E+002  +8.6337910903E-004 -1.2591346396E+002  +9.8222780200E-004 +1.6525271606E+002  +2.4596490041E-001 -1.5588352292E+002 
1761032.541 +1.2601187927E-001 +1.7056001680E+002  +8.6315805067E-004 +6.7271010231E+001  +1.0955473533E-003 -1.3092045996E+002  +2.3195168650E-001 -1.6186542029E+002 
1886177.722 +1.2822259714E-001 +1.7019911377E+002  +1.6989465062E-003 +3.6273517384E+001  +3.4701114760E-003 -6.5605870686E+001  +1.9787285865E-001 -1.6125044643E+002 
2011322.904 +1.3177347992E-001 +1.6935557310E+002  +1.9844052990E-003 +7.5865334904E+000  +4.4777368677E-003 -6.9519082722E+001  +1.8007245403E-001 -1.5981335959E+002 
2136468.085 +1.3044401867E-001 +1.6639471483E+002  +3.9015245479E-003 +8.5656042346E+001  +3.6283264214E-003 -5.2507609694E+001  +2.0917069391E-001 -1.6712389416E+002 
2261613.267 +1.2309907429E-001 +1.6448362452E+002  +7.3318667766E-003 +2.6604727091E+001  +4.9017366546E-003 -1.0381435067E+002  +1.4655752993E-001 -1.4651680659E+002 
2386758.448 +1.2663373464E-001 +1.6582402348E+002  +8.0463861287E-003 +6.1578853919E+001  +5.7570674009E-003 -5.5258130701E+001  +1.9713948659E-001 -1.7991090654E+002 
2511903.630 +1.3816998875E-001 +1.6305544240E+002  +1.4113203047E-002 +1.1458565602E+002  +1.2885870151E-002 +1.1572492672E+001  +2.4905791430E-001 +1.3388314286E+002 
2637048.811 +1.3297792926E-001 +1.6198769936E+002  +1.6249584857E-002 +3.7933060757E+001  +1.9158330838E-002 -5.0540142955E+001  +9.1914988408E-002 -1.5685948806E+002 
2762193.992 +1.2147969453E-001 +1.7227653308E+002  +3.2288972995E-002 -6.0192379242E+000  +3.1767823013E-002 -9.1963525123E+001  +1.0378910689E-001 -4.3841001735E+000 
2887339.174 +1.2661302559E-001 +1.7324346352E+002  +3.7738697715E-002 -3.0092295060E+001  +2.1959154213E-002 -1.4469075215E+002  +2.1624942916E-001 -7.4268389446E+001 
3012484.355 +1.3126454335E-001 +1.7135452716E+002  +1.0501523548E-002 -7.5385531942E+001  +1.5498170957E-002 -1.7220337875E+002  +3.5045422372E-001 -1.1945202603E+002 
3137629.537 +1.1436877328E-001 +1.6311702443E+002  +2.9212696533E-002 +6.2289554125E+000  +3.5531310115E-002 -1.1548305754E+002  +2.2542517590E-001 -6.8821217695E+001 
3262774.718 +1.2959239478E-001 +1.7596806948E+002  +3.2444894378E-002 +3.7193580564E+000  +3.6923339740E-002 -1.1614582628E+002  +2.7865945439E-001 +3.0261722388E+000 
3387919.900 +1.3208822989E-001 +1.5939672709E+002  +9.5319292976E-002 -3.4095639270E+001  +8.8379237122E-002 -1.1160685919E+002  +1.9604436504E+000 -7.1413546587E+001 
3513065.081 +1.3179070028E-001 +1.6350493745E+002  +1.6284241112E-002 +7.0626852125E+001  +2.2703554355E-002 -1.3396580476E+001  +3.4810191889E-001 +1.3788475760E+002 
3638210.263 +1.4758085624E-001 +1.5107407864E+002  +5.8604820441E-002 +3.3782384456E+001  +7.0420487460E-002 -5.7908026298E+001  +1.3078145022E+000 +4.8006400266E+000 
3763355.444 +1.6395090059E-001 +1.5262805497E+002  +1.8971904662E-002 +4.2422753825E+001  +2.3275986483E-002 -1.4377969662E+001  +1.4828192326E-001 +5.8145421605E+001 
3888500.626 +1.7724588954E-001 +1.4999649110E+002  +1.1360994373E-002 +7.8280801575E+001  +1.2116457777E-002 -1.6625160305E+001  +2.2010736416E-001 +1.7451362701E+002 
4013645.807 +1.9360143666E-001 +1.5163546771E+002  +1.5429439630E-002 +9.4591349070E+001  +1.7999503033E-002 +3.3032462360E+001  +2.3355865787E-001 +1.5314045659E+002 
4138790.989 +1.8414853204E-001 +1.4689440654E+002  +2.9024672998E-002 +9.4128477246E+001  +2.7472627426E-002 +4.5879575730E+001  +4.9912347418E-001 +1.4581405671E+002 
4263936.170 +2.1066057775E-001 +1.4908248140E+002  +3.4740026992E-002 +1.1860269160E+002  +2.6754241777E-002 +5.3595961832E+001  +5.8620949784E-001 +1.3186568222E+002 
4389081.352 +1.9396694421E-001 +1.5049970349E+002  +3.0381146400E-002 +8.2522585908E+001  +4.4484760997E-002 +2.1017343825E+001  +5.1727771884E-001 +1.1552256985E+002 
4514226.533 +2.1407860963E-001 +1.2990694815E+002  +1.0179580434E-001 +8.7693868123E+001  +1.1700963776E-001 +3.3590014986E+001  +1.1331845820E+000 +8.1100831988E+001 
4639371.715 +2.7591796513E-001 +1.3190970785E+002  +1.2523674486E-001 +6.0081132903E+001  +1.3035023475E-001 +1.8356085208E+001  +1.7563333888E+000 +3.3054196665E+001 
4764516.896 +3.0189539378E-001 +1.2688013177E+002  +3.5315151936E-001 +8.0168541416E+001  +4.2580708220E-001 +3.2027121509E+001  +6.2450317353E+000 +4.7137881175E+001 
4889662.078 +3.9974453339E-001 +1.3572758245E+002  +6.7699912524E-002 -1.0638871166E+002  +7.7574894821E-002 -1.5025840791E+002  +1.7161413815E+000 -1.6927476712E+002 
5014807.259 +3.5227593157E-001 +1.2997169171E+002  +2.6636116215E-001 +8.9474088205E+001  +2.2895386740E-001 +3.4655646363E+001  +3.5577677705E+000 +4.4568913366E+001 
5139952.441 +4.2532729940E-001 +1.2474040966E+002  +1.6040712684E-001 +1.2942665465E+002  +2.0580695708E-001 +8.0452035430E+001  +2.0964615893E+000 +9.2954771326E+001 
5265097.622 +4.0396002586E-001 +1.3384395823E+002  +9.6579562732E-002 +1.2415918694E+002  +7.5548157208E-002 +9.6522734656E+001  +1.7484336745E+000 +1.1544890556E+002 
5390242.804 +3.5292791562E-001 +1.3565825684E+002  +6.3001512725E-002 +1.0727783520E+002  +7.7269957612E-002 +9.6175695838E+001  +1.6833814094E+000 +1.2365572369E+002 
5515387.985 +4.9271779624E-001 +1.3081143171E+002  +7.8387901602E-002 +1.2036049220E+002  +8.6964219802E-002 +9.0874009856E+001  +1.1196402287E+000 +1.1096624447E+002 
5640533.166 +4.3180712888E-001 +1.3160414913E+002  +1.5195279450E-001 +5.5161278277E+001  +1.0242491642E-001 +9.5290829811E+000  +2.6523969633E+000 +1.7730044880E+001 
5765678.348 +5.1466843868E-001 +1.2297251327E+002  +1.2272905206E-001 +9.5599724857E+001  +1.6858867722E-001 +6.7735437447E+001  +1.9035855526E+000 +7.5320200866E+001 
5890823.529 +5.1020147402E-001 +1.2417650908E+002  +1.1861831885E-001 +7.0570688935E+001  +1.2559295158E-001 +4.5526645815E+001  +2.0767365874E+000 +4.6701143045E+001 
6015968.711 +5.5790938991E-001 +1.1931408042E+002  +1.6361140429E-001 +6.5525463228E+001  +2.0586269336E-001 +4.0346691645E+001  +3.0627986397E+000 +4.3426351120E+001 
6141113.892 +6.5700292445E-001 +1.1595344583E+002  +1.3669560347E-001 +6.6179310484E+001  +1.1523928802E-001 +3.5018905417E+001  +1.7656868756E+000 +3.3594841628E+001 
6266259.074 +8.3152156107E-001 +1.0855934424E+002  +1.2225640563E-001 +5.1491282958E+001  +1.3515962076E-001 +3.2815611235E+001  +1.3207940732E+000 +1.3199409248E+001 
6391404.255 +9.3714894851E-001 +9.0932957271E+001  +1.9367107629E-001 +2.9335466465E+001  +1.8603258371E-001 +1.8964240509E+001  +2.2587300749E+000 +7.6229378448E+000 
6516549.437 +9.5666767014E-001 +7.2346372919E+001  +1.4394386813E-001 +2.0960016555E+001  +1.5214424132E-001 +3.6075571093E+000  +1.1523654136E+000 +6.4728491025E+000 
6641694.618 +1.3161348347E+000 +8.4078911771E+001  +1.5825921971E-001 +3.6091836428E+001  +1.7718275001E-001 +2.7905523745E+001  +1.5503834878E+000 +7.0155220376E+000 
6766839.800 +1.8779156841E+000 +5.5226173263E+001  +1.7753059891E-001 +3.0949649344E+001  +1.6454717529E-001 +1.6455637982E+001  +1.2426907098E+000 +3.4484412381E+000 
6891984.981 +1.7047627503E+000 +2.6648492436E+001  +1.7276300187E-001 +3.5253092769E+000  +1.4889422649E-001 -4.1708775364E+000  +1.1841637313E+000 -6.9720990160E+000 
7017130.163 +1.7200548269E+000 +2.9747679859E+001  +1.3882401347E-001 +1.1522802757E+001  +1.3319024634E-001 -3.1360064680E+000  +1.2341044838E+000 -1.1852204194E+001 
7142275.344 +1.1939971733E+000 +1.5100724642E+001  +1.0554135423E-001 +5.2261372048E+000  +1.0327149933E-001 -4.4030485819E+000  +1.3465424722E+000 -9.8706786268E+000 
7267420.526 +1.4990119212E+000 +3.3293438995E+000  +1.0984475307E-001 +2.5065854932E+000  +1.0856503726E-001 -4.0647273016E+000  +1.3341598374E+000 -1.0959978470E+001 
7392565.707 +1.2218445632E+000 +2.0882758374E-001  +8.0694383487E-002 +1.0955213966E+001  +8.8660216894E-002 +7.4995451162E+000  +1.3050863953E+000 -3.6143141394E+000 
7517710.889 +1.0700246094E+000 +8.9017966000E+000  +7.5062619905E-002 +6.8373938727E+000  +7.9096727060E-002 +5.6653907638E+000  +1.1426535410E+000 -7.0545492651E+000 
7642856.070 +9.3676530665E-001 +5.8829412513E+000  +7.1010443592E-002 +7.9889225324E+000  +7.0342688992E-002 +1.2039406432E+001  +8.8555025713E-001 -5.0518696522E+000 
7768001.252 +8.6415571219E-001 +7.2309601089E+000  +6.2519079854E-002 +2.4528000396E+000  +6.3408362504E-002 +1.0777018635E+001  +9.9173271976E-001 -1.6924125483E+000 
7893146.433 +7.4345355738E-001 +1.1290266702E+001  +6.2890651659E-002 +6.7482640115E+000  +6.4710038617E-002 +1.4460271265E+001  +7.4582116697E-001 -9.8866839138E-001 
8018291.615 +7.1865065708E-001 +8.9625629901E+000  +6.4547615703E-002 +2.6836410730E+000  +5.7469688517E-002 +1.0831354790E+001  +7.6490196333E-001 +1.5436981692E+000 
8143436.796 +7.5003697163E-001 +7.7918912733E+000  +6.0500364057E-002 +2.9758273030E+000  +6.1507834038E-002 +9.1723035324E+000  +6.2149900627E-001 +9.2338545410E-001 
8268581.977 +6.5514932420E-001 +2.5948761534E-001  +5.9190741301E-002 +4.2622257506E-001  +6.0170068513E-002 +9.0299187733E+000  +6.4123006646E-001 +2.1738654014E+000 
8393727.159 +5.9498581450E-001 +9.8948494258E+000  +5.6126870993E-002 -1.7442726074E+000  +6.1092060840E-002 +9.2714075225E+000  +6.4032199561E-001 -2.3392632613E+000 
8518872.340 +5.7261263937E-001 +1.5189892141E+001  +5.9756531454E-002 -2.7177235820E+000  +5.3872691275E-002 +1.0723174857E+001  +6.3825493539E-001 +7.3571506651E+000 
8644017.522 +6.2840523361E-001 +9.1009100049E+000  +5.0986463966E-002 +9.4300805066E-001  +5.9131320261E-002 +9.6426934024E+000  +6.3590968587E-001 -2.3807902252E+000 
8769162.703 +6.1976171315E-001 +6.6007654802E+000  +5.4026731428E-002 -8.6802373817E-001  +5.2771720269E-002 +1.4536747148E+001  +6.1322178752E-001 +3.1681888468E+000 
8894307.885 +5.4590415884E-001 +8.5174815839E-001  +5.4397666248E-002 +6.6053065645E-001  +5.4714508602E-002 +1.3147109771E+001  +5.5602739825E-001 +2.8428863728E+000 
9019453.066 +5.1023165999E-001 +8.0687600950E+000  +5.7290363631E-002 -1.9445991218E-002  +5.3393297439E-002 +1.0744485576E+001  +5.8071248233E-001 +2.1228997433E+000 
9144598.248 +5.4551176935E-001 +8.8301463027E+000  +5.0661086570E-002 -2.0673862851E+000  +5.3043258254E-002 +1.2942552493E+001  +5.4341433162E-001 -2.4424679217E+000 
9269743.429 +5.2716730791E-001 +6.1419397152E+000  +5.6029237037E-002 +6.6426892756E-001  +5.6701869597E-002 +1.5420467467E+001  +5.7824948178E-001 -1.3125916397E-001 
9394888.611 +5.3382238873E-001 +7.6132630612E+000  +5.6124404718E-002 +3.8952947389E-001  +5.8835109040E-002 +1.6627721892E+001  +4.9615127256E-001 -2.7604523386E+000 
9520033.792 +4.7492841121E-001 +6.1890748786E+000  +5.3473401454E-002 -4.3305487149E+000  +5.3307917827E-002 +1.8575442868E+001  +5.3974182026E-001 -2.1048200075E-001 
9645178.974 +4.8690597513E-001 +1.6866476616E+000  +5.6630872768E-002 +6.1409968075E-001  +5.4184508517E-002 +1.8741967608E+001  +5.1256901608E-001 -3.0301233555E+000 
9770324.155 +5.0635135549E-001 +2.3751256595E+000  +5.2928836945E-002 +8.5326139130E-001  +5.8150189374E-002 +1.5305939289E+001  +5.2373293654E-001 -2.4238775034E+000 
9895469.337 +5.0408728251E-001 -1.3176249157E+000  +5.6545687476E-002 -1.5621579235E+000  +5.5530002750E-002 +1.5558949407E+001  +5.1918447730E-001 -1.1463778417E+001 
10020614.518 +4.9277247109E-001 +1.9095763361E+000  +5.7854292883E-002 -6.4971734225E-001  +5.6201155992E-002 +1.5749094115E+001  +5.5097319399E-001 -6.8962135443E+000 
10145759.700 +4.9720186294E-001 +1.6748202843E+000  +6.1478620703E-002 -1.5196859866E+000  +5.5079611002E-002 +1.7441666843E+001  +5.2265817121E-001 -4.1585199691E+000 
10270904.881 +5.0631183853E-001 +7.2624479638E+000  +5.4522255168E-002 +2.5365796527E-001  +5.4638001615E-002 +1.6754655435E+001  +4.9238796759E-001 -4.6605313803E-001 
10396050.063 +5.1308677819E-001 +4.4873927340E+000  +5.7793374501E-002 +2.6733366091E+000  +5.7136136281E-002 +1.6916581991E+001  +5.1243803692E-001 +3.4754571252E+000 
10521195.244 +4.9882934067E-001 +5.9015079316E+000  +5.5772659444E-002 +1.5406707364E+000  +5.5619226491E-002 +1.7326079254E+001  +5.3626777559E-001 +3.0978337036E+000 
10646340.426 +4.9430101710E-001 +8.5196812468E+000  +5.9494611799E-002 +7.5465028311E-001  +5.4708616754E-002 +1.5632201161E+001  +5.2855201801E-001 +2.4298944719E+000 
10771485.607 +5.0795175203E-001 +1.0056666561E+001  +5.7396585210E-002 +4.7993601710E-001  +5.7881519281E-002 +1.5667954835E+001  +5.4233073405E-001 +2.1867208190E+000 
10896630.788 +5.4082970105E-001 +4.7733833690E+000  +5.8630241728E-002 +4.0034239567E+000  +5.8667286218E-002 +1.5048457922E+001  +5.4107840795E-001 +1.3090890129E+000 
11021775.970 +5.1335860035E-001 +8.8759621313E+000  +5.5820454621E-002 +3.9265567393E+000  +6.0158397740E-002 +1.5486531257E+001  +5.2968709153E-001 -8.4860462111E-002 
11146921.151 +5.3668454498E-001 +1.0574793364E+001  +5.7377992450E-002 +4.9267442473E+000  +5.7598867660E-002 +1.7520387442E+001  +5.6453679750E-001 +2.5255484675E+000 
11272066.333 +5.3753155989E-001 +4.4584076632E+000  +6.2762291979E-002 +2.6617182630E+000  +6.0167632849E-002 +1.6593996554E+001  +5.6783842444E-001 +2.7709505132E+000 
11397211.514 +5.4953927169E-001 +7.4453789754E+000  +5.8579704825E-002 +2.4351041977E+000  +5.8193072126E-002 +1.7961427057E+001  +5.8331581284E-001 +4.8846871139E+000 
11522356.696 +5.7287319705E-001 +4.1752824658E+000  +6.0103432076E-002 +7.5845359416E+000  +6.0892321804E-002 +1.4490342451E+001  +5.9039130281E-001 +1.2313690555E+000 
11647501.877 +5.7636217141E-001 +6.9157122103E+000  +6.2088156045E-002 +3.1861271487E+000  +6.1587694498E-002 +1.9024430840E+001  +5.9821527076E-001 +4.9562726036E+000 
11772647.059 +5.8335583232E-001 +6.1649808627E+000  +6.1988303722E-002 +3.7916426150E+000  +6.0735392630E-002 +1.7353961533E+001  +6.1286445586E-001 +3.8758995299E+000 
11897792.240 +5.7457466039E-001 +5.7897824487E+000  +6.4372724064E-002 +4.1188994914E+000  +6.2229167215E-002 +1.3187155307E+001  +6.3202414980E-001 -3.2236830469E-002 
12022937.422 +6.0721865049E-001 +5.3302407933E+000  +6.4615163284E-002 +4.4774598868E+000  +6.2729351438E-002 +1.4580519692E+001  +6.1435504368E-001 +2.3201026179E+000 
12148082.603 +6.1883940659E-001 +6.5053997740E+000  +6.5829538029E-002 +7.0225050048E+000  +6.3270773118E-002 +1.7227463573E+001  +6.4055773587E-001 +2.2177366634E+000 
12273227.785 +6.1690862963E-001 +5.1103470694E+000  +6.6190977067E-002 +3.5709186453E+000  +6.3333149350E-002 +1.3954604559E+001  +6.3221042308E-001 -1.2848524322E+000 
12398372.966 +6.4870074915E-001 +3.9960124854E+000  +6.3728984043E-002 +6.0235461855E+000  +6.3169979245E-002 +1.2953350913E+001  +6.4266215179E-001 +2.1227063148E+000 
12523518.148 +6.5382635410E-001 +2.0941278354E+000  +6.6465284062E-002 +6.4998356300E+000  +6.4240945119E-002 +1.3834128235E+001  +6.6397833412E-001 +6.4366414759E-001 
12648663.329 +7.0401609476E-001 +1.9465918828E+000  +6.6610687323E-002 +7.3992791434E+000  +6.6357622622E-002 +1.3505996535E+001  +6.5495667739E-001 -2.1699550458E+000 
12773808.511 +6.9014457839E-001 +3.3427943418E+000  +6.7702163517E-002 +6.4301753612E+000  +6.6728429155E-002 +1.4708181769E+001  +6.9969022940E-001 -8.5797613123E-001 
12898953.692 +7.2263575674E-001 +3.3602578873E+000  +6.8137682353E-002 +6.9667813691E+000  +6.8941782197E-002 +1.1954663468E+001  +7.0000632883E-001 -2.4437286155E+000 
13024098.874 +7.0821542290E-001 +2.7432363748E+000  +6.7805416875E-002 +5.7112897519E+000  +6.7955437334E-002 +1.2441074417E+001  +7.5065959532E-001 +1.2266640811E+000 
13149244.055 +7.4473847569E-001 -7.3364507467E-001  +6.9852137725E-002 +8.8826105664E+000  +6.9438510583E-002 +1.2931094214E+001  +7.3131256947E-001 -2.6200442847E+000 
13274389.237 +7.3825330077E-001 -8.4252684553E-001  +6.9940746037E-002 +7.7062258691E+000  +7.0419640429E-002 +1.0483615377E+001  +7.7934756421E-001 -2.1702160938E+000 
13399534.418 +7.5379861343E-001 -1.4980030681E+000  +7.1265685411E-002 +7.0290592866E+000  +7.0522325615E-002 +9.7153178519E+000  +7.7524601696E-001 -2.6722774742E+000 
13524679.599 +7.9255136635E-001 -1.4602943355E+000  +7.1913797248E-002 +7.1984243643E+000  +7.1270597608E-002 +1.0496576361E+001  +8.0760244459E-001 -1.2761443809E+000 
13649824.781 +7.9517698374E-001 -1.2792386451E+000  +7.2284645555E-002 +7.3805102045E+000  +7.1144132536E-002 +9.7903260288E+000  +8.0580427883E-001 -3.3876436863E+000 
13774969.962 +8.2822181574E-001 -2.8814757612E+000  +7.1877712761E-002 +8.0218534530E+000  +7.0138388948E-002 +1.1437220254E+001  +8.2994227148E-001 -3.3412040264E+000 
13900115.144 +8.2753201319E-001 -3.3385344184E+000  +7.3861962372E-002 +7.2386869938E+000  +7.2061848338E-002 +7.9647445402E+000  +8.4420498056E-001 -3.7044077640E+000 
14025260.325 +8.7330531311E-001 -3.9486129756E+000  +7.2129803800E-002 +7.2168398152E+000  +7.1999848971E-002 +8.2733417050E+000  +8.5092976087E-001 -4.4210736951E+000 
14150405.507 +8.6999725036E-001 -4.7316388510E+000  +7.2845830425E-002 +6.3430509912E+000  +7.2597010236E-002 +8.4114429038E+000  +8.8198631176E-001 -4.4032605069E+000 
14275550.688 +8.9356579198E-001 -4.9761295139E+000  +7.3690143487E-002 +7.3526251828E+000  +7.2174105308E-002 +9.3365716398E+000  +9.0106615509E-001 -3.3199634009E+000 
14400695.870 +9.1192971142E-001 -5.3939636749E+000  +7.4222631869E-002 +7.1601837471E+000  +7.3904526929E-002 +7.2058998389E+000  +9.3294094334E-001 -4.6905010908E+000 
