!  2-Port S-parameters saved by WinCal
! VAR MeasName=S-Parameters (CALIBRATED_DATA) read from VNA (P5004A)
! VAR MeasDate=27/08/2024 15:37:12
! VAR NAME=S2_r6c8_RESET2_9k-100M_2
! VAR FILENAME=S2_r6c8_RESET2_9k-100M_2.S2P
! VAR DATE=27/08/2024 15:37:12
! VAR PHYS_PORTS=1,2
! VAR ObjTypeName=DATASET
! VAR IndexType=Frequency
!
# Hz S MA R 50
9000.000 +1.1479600220E-001 -1.3008718641E+002  +5.9817166767E-002 -1.2290198278E+002  +5.5564410821E-002 -1.3041426420E+001  +3.7855586274E-001 -1.1597719871E+002 
134145.181 +1.1162726490E-001 +1.6949922548E+002  +3.1300027456E-004 +6.7652812743E+000  +5.5578036842E-004 +8.3601364359E+001  +2.3948295952E-001 -1.7062297325E+002 
259290.363 +1.1212826623E-001 +1.6958203986E+002  +5.1621760692E-004 -7.9034667861E+001  +3.7783361946E-004 -1.6248612796E+002  +2.4349948968E-001 -1.7029359479E+002 
384435.544 +1.1466754494E-001 +1.6968744498E+002  +5.4735015901E-004 -4.0311416809E+000  +1.0683692616E-003 -1.7953511867E+002  +2.5088919614E-001 -1.6808467658E+002 
509580.726 +1.1225872098E-001 +1.7053572979E+002  +1.5373542198E-003 -9.2431343043E+001  +1.5211671290E-003 -1.7914110070E+002  +2.4754356284E-001 -1.6303792161E+002 
634725.907 +1.1702670844E-001 +1.7060551655E+002  +5.1777629380E-004 +1.1329841592E+002  +1.4100896710E-003 -2.9333659192E+001  +2.3328363026E-001 -1.6308667497E+002 
759871.089 +1.1781545782E-001 +1.7036087333E+002  +4.4510700150E-004 +3.5628718708E+001  +3.8836830483E-004 +1.1346107202E+002  +2.5084569642E-001 -1.6703642081E+002 
885016.270 +1.1723474021E-001 +1.6905957454E+002  +3.4036447435E-004 -1.5898305371E+001  +9.8269528583E-004 +1.0341615978E+002  +2.4404128475E-001 -1.6438151831E+002 
1010161.452 +1.1666188678E-001 +1.7054491041E+002  +1.4213392270E-003 -3.1007738822E+001  +4.8407021243E-003 -1.0495449692E+002  +1.7659655935E-001 -1.6020680934E+002 
1135306.633 +1.1547761406E-001 +1.7001742507E+002  +3.2960624445E-003 -8.4609795380E+001  +2.9938221339E-003 +5.7210498709E+001  +1.4257716371E-001 -1.7325320235E+002 
1260451.815 +1.2022853241E-001 +1.7093471543E+002  +1.7930424761E-003 +1.4985599165E+002  +2.1059271404E-003 -1.6819352485E+002  +2.3239368488E-001 -1.5605372603E+002 
1385596.996 +1.2492397124E-001 +1.7099299386E+002  +1.4612008522E-004 -9.3282954852E+001  +4.4818220112E-004 +4.4518159427E+001  +2.6166135174E-001 -1.5769650073E+002 
1510742.178 +1.2489424469E-001 +1.7260145239E+002  +9.5185127835E-004 -1.5060652383E+002  +4.5580596837E-004 -2.2015200166E+001  +2.6294833604E-001 -1.6074858385E+002 
1635887.359 +1.2441062768E-001 +1.7111726545E+002  +3.9808171908E-004 -2.3594155591E+001  +9.4766598073E-004 +5.8012517742E+001  +2.4863915171E-001 -1.6124554652E+002 
1761032.541 +1.3092932531E-001 +1.6885838423E+002  +6.5421454825E-004 -5.7345422971E+001  +1.8073123320E-003 +1.3552703165E+002  +2.1404848370E-001 -1.6109166535E+002 
1886177.722 +1.3009376683E-001 +1.6736321354E+002  +1.3158173084E-003 +1.6581714138E+002  +1.7438159910E-004 -1.5720921624E+002  +2.1144543369E-001 -1.6856851134E+002 
2011322.904 +1.2838758839E-001 +1.6667081127E+002  +2.0386388801E-003 +1.3705865590E+002  +1.8500098611E-003 +1.6856979994E+002  +2.2478369277E-001 -1.7502913602E+002 
2136468.085 +1.2742029980E-001 +1.6060419171E+002  +1.7464546776E-004 +1.1327780293E+002  +2.6388669051E-003 +8.2433122225E+001  +2.2408568284E-001 -1.7236631945E+002 
2261613.267 +1.3274894822E-001 +1.6281959539E+002  +1.6049295789E-003 -1.4182100094E+002  +2.0763328354E-003 +2.4575117256E+001  +1.8315123510E-001 +1.7908937614E+002 
2386758.448 +1.2745356501E-001 +1.6305987861E+002  +3.4353241492E-003 -1.5301186450E+002  +3.3298501751E-003 +1.6597969465E+002  +2.1892830958E-001 +1.6869918140E+002 
2511903.630 +1.2947382606E-001 +1.6070461392E+002  +1.2421130601E-003 -1.3909178227E+002  +1.5355280969E-003 -2.9282923601E+000  +1.6229655447E-001 +1.7337384278E+002 
2637048.811 +1.0656794393E-001 +1.6236783537E+002  +1.3582231914E-002 -9.1012124349E+000  +2.2777632419E-003 -1.6697661315E+002  +4.4551063849E-001 +1.2671844720E+002 
2762193.992 +1.0187982004E-001 +1.7795053404E+002  +2.0802269303E-002 +8.5532703801E+001  +1.4411087282E-002 -1.7012363144E+002  +7.1773858802E-001 -1.3886233542E+002 
2887339.174 +1.0589967428E-001 +1.7618030760E+002  +1.2118144727E-002 +8.5427238760E+001  +4.7974056190E-003 -1.7943206600E+002  +2.8492371158E-001 -1.1087201531E+002 
3012484.355 +8.2686522682E-002 -1.7294188868E+002  +1.2193715990E-001 -2.3942347363E+001  +9.4948652708E-002 +1.3106446731E+002  +3.2750382791E+000 -9.7931841403E+001 
3137629.537 +1.1094048938E-001 +1.7741667680E+002  +8.0708676450E-003 +6.9144919560E+001  +1.6602696765E-003 +1.3252625559E+002  +3.5031229295E-001 -1.1083810517E+002 
3262774.718 +1.1853466277E-001 +1.6573612620E+002  +1.2328951149E-002 -5.2214871623E+001  +4.6101927103E-002 -4.2258299285E+001  +1.0232973667E+000 -7.3688826978E+001 
3387919.900 +5.5931878520E-002 +1.6697805078E+002  +3.1049499488E-002 -1.4611378273E+001  +2.2266652932E-002 -5.2548649156E+001  +5.0365257404E-001 -2.5191196247E+001 
3513065.081 +1.4141957482E-001 +1.4855298858E+002  +5.4404767467E-003 -1.1727223683E+002  +1.2039664457E-002 +1.5631164466E+002  +4.9771015576E-001 +1.0338305892E+002 
3638210.263 +1.7673437581E-001 +1.5062717258E+002  +7.0559981812E-002 +1.3628796601E+002  +3.0560205145E-002 +1.7441484585E+002  +1.6457770600E+000 +9.1030201878E+001 
3763355.444 +1.6379522560E-001 +1.4538888757E+002  +8.6089014833E-003 +3.7773365304E+001  +9.5658868485E-003 +1.3368474379E+002  +6.5311204483E-001 +1.3242488574E+002 
3888500.626 +1.7628992537E-001 +1.4831289571E+002  +1.0868721041E-002 -1.6436064815E+002  +1.3827315458E-002 -5.5220053008E+001  +5.4521750205E-001 +5.2974808041E+001 
4013645.807 +1.9238773400E-001 +1.4591403193E+002  +7.2902395801E-003 +1.7197407719E+002  +5.7059669238E-003 -5.6343945125E+001  +4.1031623166E-001 +1.2914216624E+002 
4138790.989 +1.8276884798E-001 +1.5172644252E+002  +6.4143878157E-003 +1.2007623524E+002  +1.0983971438E-002 +7.0631302352E+001  +6.6634470222E-001 +9.9759476291E+001 
4263936.170 +1.9868228202E-001 +1.4845633049E+002  +1.4037720250E-002 +1.0582206284E+002  +1.0572832694E-002 +2.1456616582E+001  +8.9577246577E-001 +3.5296063620E+001 
4389081.352 +1.7802632092E-001 +1.3889232969E+002  +1.7013501850E-003 +6.7017705519E+001  +6.7354602430E-003 -6.8682180023E+001  +6.5409380640E-001 +1.5027480312E+002 
4514226.533 +2.5175944499E-001 +1.3682898548E+002  +5.0927000108E-003 +2.0966248178E+001  +2.2040428407E-002 -1.2336182299E+002  +6.7648582340E-001 +3.1898429241E+001 
4639371.715 +2.2533512587E-001 +1.3143763849E+002  +1.2743502848E-002 +6.4891739567E+001  +1.8597911096E-002 +8.2106994488E+001  +1.3733598330E+000 +4.9074687015E+001 
4764516.896 +3.5515428811E-001 +1.2925101412E+002  +7.9057077614E-003 +1.6990296850E+002  +5.3626600278E-002 +1.2196932400E+002  +1.2620534294E+000 +6.4399431304E+000 
4889662.078 +3.8286202646E-001 +8.3717625879E+001  +3.5675553627E-002 -1.9160012318E+001  +5.7553527492E-002 +7.4087711493E+000  +1.7607425703E+000 -1.0256801307E+002 
5014807.259 +5.0379050837E-001 +1.2179493596E+002  +2.6782295466E-002 +8.1482239092E+001  +4.2051804886E-002 -8.8966483766E+001  +3.6108360087E+000 -1.5205023059E+002 
5139952.441 +3.7414113439E-001 +1.2976168998E+002  +7.7145613506E-002 +1.7434256731E+002  +2.7425976061E-002 +1.3162367997E+002  +3.7237951637E+000 +5.7398375160E+001 
5265097.622 +4.3959486698E-001 +1.2762497652E+002  +1.2352116749E-001 +6.4025300487E+001  +1.4295262716E-001 +4.5478441008E+001  +1.0057997589E+001 -2.5530083509E+001 
5390242.804 +4.1659612729E-001 +1.3044311001E+002  +4.7162756291E-003 +6.0427038466E+001  +2.0831155390E-002 -3.1887335656E+000  +1.9072361051E+000 +9.7639027255E+001 
5515387.985 +4.7104827254E-001 +1.2620463245E+002  +5.0728901463E-002 -2.4906071518E+001  +3.5935377511E-002 -1.4522554486E+002  +3.1986893269E+000 +7.2115671087E+001 
5640533.166 +4.2618822046E-001 +1.3052326025E+002  +1.9180098432E-002 -1.5918165167E+002  +1.2496554635E-002 +9.2231709843E+001  +2.3326250162E+000 +7.2817245292E+001 
5765678.348 +5.6506400294E-001 +1.2658157664E+002  +7.7128623092E-003 -1.0910098308E+002  +3.7164887691E-002 +6.8322865682E+001  +3.2707661834E+000 +6.0773334891E+001 
5890823.529 +6.4088575632E-001 +1.2657922697E+002  +3.3756847662E-002 -7.9443989149E+001  +2.0207295380E-002 +1.2441639603E+002  +2.7823350944E+000 +6.2962640352E+001 
6015968.711 +6.9008273756E-001 +1.0777268859E+002  +1.0571744476E-002 -1.7474638425E+002  +3.1928703200E-002 +1.5082770447E+002  +2.0404159527E+000 +6.0316362375E+001 
6141113.892 +6.4397678920E-001 +1.1444860351E+002  +1.8328081270E-002 +1.2486465589E+002  +1.7045467858E-002 +7.6047604460E+001  +1.5773993109E+000 +1.4525092529E+001 
6266259.074 +9.3435224302E-001 +8.6412085297E+001  +1.9561131503E-002 +1.7435114590E+002  +4.6233250300E-002 -2.2927305392E+001  +1.1219149596E+000 +3.1643958093E+001 
6391404.255 +9.0308911082E-001 +1.0212803441E+002  +4.2315091998E-002 +8.9996943249E+001  +2.2955142772E-002 -1.1486551133E+002  +2.3110827609E+000 +2.1275972370E-002 
6516549.437 +1.0982170786E+000 +1.0116021612E+002  +2.3054370903E-002 +9.9666583891E+001  +2.6196066982E-002 +1.3342227865E+002  +1.6852229930E+000 -5.7870564967E-001 
6641694.618 +1.5395601949E+000 +7.6995931479E+001  +2.3677682929E-002 +2.6596766397E+001  +4.1232535844E-003 +1.7233478638E+002  +1.4301291839E+000 +6.5689103840E+000 
6766839.800 +1.9922392251E+000 +5.8640945886E+001  +8.5754919313E-003 -1.6177911719E+002  +2.0353566585E-002 -1.5602348559E+001  +1.1817747433E+000 -7.3583113720E+000 
6891984.981 +2.0614961709E+000 +6.0184268521E+001  +2.3477211308E-002 +1.1325181286E+002  +2.1496526162E-002 -1.1610466217E+002  +1.2125767810E+000 +2.9945215631E+000 
7017130.163 +1.6690256334E+000 +3.5709238398E+001  +2.0033751868E-002 +1.0175267855E+002  +8.2534731120E-003 +9.9548447590E+001  +1.2117326983E+000 -5.8608860572E+000 
7142275.344 +1.6573964214E+000 +1.0635088001E+001  +1.3342041821E-002 -1.7210630662E+001  +1.1066115643E-002 +6.3686363341E+001  +1.3122865803E+000 -1.4676326004E+001 
7267420.526 +1.4092073791E+000 -8.9919600052E+000  +1.0125500401E-003 +1.3188223972E+002  +1.4300683412E-002 +6.9437908808E+001  +1.2948480220E+000 -6.4588723160E+000 
7392565.707 +1.3993411581E+000 -1.1861647795E+000  +7.2025678023E-003 +1.1218858079E+002  +3.4959210318E-003 +1.2522490680E+002  +1.3694125069E+000 -3.2259002351E+000 
7517710.889 +1.3261880477E+000 +4.0129761712E+000  +7.4521673040E-003 +5.3941478349E+001  +1.5270095373E-003 -3.9611767640E+001  +1.2906735103E+000 -2.5494081304E+000 
7642856.070 +9.9167890594E-001 +2.8128141443E+000  +1.0504724669E-002 +7.8510535282E+001  +2.6688148256E-003 -1.5913824372E+002  +1.0679983534E+000 -1.1353430571E+001 
7768001.252 +1.0042547646E+000 +6.1470979439E+000  +3.4504097435E-003 +8.2301977932E+001  +1.9280388065E-003 -1.4251414345E+002  +9.1912736671E-001 -6.2706734183E+000 
7893146.433 +8.0957192957E-001 +2.6487395144E+000  +2.8284513881E-003 -3.4334658024E+001  +5.1541337528E-003 +7.1882456578E+001  +9.9693757736E-001 -2.8689759826E+000 
8018291.615 +9.0097051391E-001 +2.4434014970E+000  +1.2027202460E-002 -2.5300662064E+001  +4.6332407727E-003 +3.9289935603E+001  +9.2169366033E-001 -6.5287175242E+000 
8143436.796 +8.2879608288E-001 +6.2119189656E+000  +3.9728864283E-003 +1.7504528739E+002  +7.8827860653E-003 +5.5018402789E+001  +8.1311299951E-001 -2.5834830537E+000 
8268581.977 +6.8302793735E-001 +7.3550468872E+000  +5.4758675459E-003 +2.7665664669E+001  +8.8531041002E-003 +8.3514309602E+001  +7.0321439042E-001 -2.2338497511E+000 
8393727.159 +6.8990212495E-001 +8.5626837719E+000  +3.8916744229E-003 +1.1988865074E+002  +1.6636331420E-003 +5.9411305719E+001  +7.5138931092E-001 +2.0260591160E+000 
8518872.340 +6.7355258505E-001 +7.1372532867E+000  +4.1573981393E-003 +6.7926621818E+001  +6.8551530114E-003 +9.4244222612E+001  +7.1951390948E-001 +5.5399062897E+000 
8644017.522 +6.2491497482E-001 +9.6543852265E+000  +2.9379739594E-003 +4.6535354628E+001  +4.4790202253E-003 +7.3531252648E+001  +6.4681153435E-001 +2.6079906856E+000 
8769162.703 +5.8127762281E-001 +1.6979971859E+000  +4.5403197718E-003 +3.8431552877E+001  +8.1855464713E-003 +1.3128264662E+002  +6.8527759155E-001 -5.8669987038E+000 
8894307.885 +5.9242605680E-001 +5.3981088272E+000  +4.6352451271E-003 +8.2015882008E+001  +4.3586562504E-003 +4.5160924966E+001  +6.2718461503E-001 +2.4226247832E+000 
9019453.066 +6.2822752627E-001 +2.4216611515E+000  +1.7335571410E-003 +1.2705753515E+002  +5.8546826382E-003 +8.0874762382E+001  +6.8725217100E-001 -1.4539257750E+000 
9144598.248 +5.3422159997E-001 +8.6197031792E+000  +4.5970216123E-003 +1.1291422192E+002  +5.3272500082E-003 +1.0887399111E+002  +6.7386392221E-001 -3.1353920864E+000 
9269743.429 +5.7378053259E-001 +4.6683640114E+000  +2.7477505257E-003 +6.9328594952E+001  +1.9567974505E-003 -1.4768086091E+002  +6.1695431870E-001 -1.3137548914E+000 
9394888.611 +5.9050041691E-001 +5.8984863646E+000  +7.0350071438E-003 +6.6512865407E+001  +1.0864792627E-003 +5.2647253968E+001  +5.9741484030E-001 +2.8453626142E+000 
9520033.792 +5.6289372745E-001 +4.0013959993E+000  +6.0064270681E-003 +6.8596770564E+001  +6.4253677793E-003 +9.2474668369E+001  +5.8107244493E-001 -6.7714098293E+000 
9645178.974 +5.1928050906E-001 -1.3817437867E+000  +4.0820208018E-003 +7.7727559208E+001  +5.1184666388E-003 +8.0911206117E+001  +6.2482038135E-001 -6.8160317697E+000 
9770324.155 +5.9285035768E-001 -8.5038695556E-001  +5.3057689366E-003 +8.2176268913E+001  +1.7183750416E-003 +6.0185656135E+001  +5.7456137906E-001 -5.7387282022E+000 
9895469.337 +5.5387275982E-001 +1.5737142597E+000  +3.6189120862E-003 +6.7623868342E+001  +1.6407414022E-003 +8.1471377222E+001  +5.8707798373E-001 -7.9815524986E+000 
10020614.518 +5.3963708231E-001 -2.0326777819E+000  +4.8834924353E-003 +5.9449448064E+001  +5.5017361006E-003 +9.6052571930E+001  +5.5474073652E-001 -8.6424949058E+000 
10145759.700 +5.6093812412E-001 +1.9607399206E+000  +3.5504597167E-003 +1.2503203510E+002  +3.3593417926E-003 +9.7060059590E+001  +5.7040598987E-001 -3.7566556880E+000 
10270904.881 +5.6643757446E-001 +2.2817005273E+000  +4.5310891135E-003 +7.1545254846E+001  +5.2847279964E-003 +8.7721200172E+001  +5.8411808210E-001 -2.2467041055E+000 
10396050.063 +5.6864832598E-001 +5.9997032606E+000  +2.0576154858E-003 +1.0222303856E+002  +6.9114876923E-003 +1.0661529805E+002  +6.2515205079E-001 -4.6532899849E+000 
10521195.244 +5.2085221233E-001 +4.1712320816E+000  +4.1053931625E-003 +8.7154828402E+001  +4.5261900114E-003 +6.3552448699E+001  +5.9741859491E-001 +7.9828076814E-001 
10646340.426 +5.8163503459E-001 +6.4515516878E+000  +5.7744324704E-003 +5.2178100706E+001  +5.2877640447E-003 +9.9338337836E+001  +6.3037868763E-001 +3.8632399554E-002 
10771485.607 +6.1191752514E-001 +6.6795202695E+000  +1.2172191773E-003 +1.0750244679E+002  +6.3495045485E-003 +9.1977093482E+001  +6.1337450236E-001 -8.1556698711E-001 
10896630.788 +5.7718651001E-001 +7.4091254380E+000  +6.0738759382E-003 +7.7442329421E+001  +5.7999530429E-003 +1.1987768640E+002  +6.0367508484E-001 -1.4403973309E+000 
11021775.970 +5.6713170686E-001 +6.2043589461E+000  +6.7857677136E-003 +9.1094394657E+001  +5.8217316412E-003 +1.2742540542E+002  +6.1255542308E-001 -2.0634269838E-001 
11146921.151 +5.9164532421E-001 +6.2780200490E+000  +8.0293373055E-003 +9.9492970484E+001  +3.7298516312E-003 +7.0366006940E+001  +5.9227796095E-001 -2.5244250394E+000 
11272066.333 +5.6718981930E-001 +3.5111373857E+000  +4.5040548554E-003 +7.5609854595E+001  +3.8172312979E-003 +1.2123363711E+002  +6.3479455327E-001 +3.1541185539E+000 
11397211.514 +5.9696358779E-001 +6.7555935098E+000  +6.1072586479E-003 +1.0906823899E+002  +4.7397254632E-003 +8.2065522181E+001  +6.2241673969E-001 +2.2992895455E-001 
11522356.696 +6.1102833496E-001 +7.3113579793E+000  +4.8729586905E-003 +9.2915293662E+001  +3.6469176937E-003 +7.6961541630E+001  +6.6000013800E-001 +2.4093731509E+000 
11647501.877 +6.1729356983E-001 +5.5802515975E+000  +5.6456916503E-003 +1.0574269729E+002  +6.0501843038E-003 +8.7957975334E+001  +6.6217752908E-001 -1.2260625280E-001 
11772647.059 +6.5447518973E-001 +5.3234848799E+000  +3.8229350987E-003 +7.9736940842E+001  +4.0914272337E-003 +1.0133303840E+002  +6.4913476164E-001 -1.4349074390E+000 
11897792.240 +6.7366620280E-001 +5.6628870621E+000  +5.5464076359E-003 +6.8460489688E+001  +3.6700601924E-003 +8.8657701120E+001  +6.5993613255E-001 +1.7989670901E+000 
12022937.422 +6.3241473633E-001 +4.5643111878E+000  +5.2101002450E-003 +7.6044273052E+001  +6.3543536566E-003 +8.8604451345E+001  +6.8847196850E-001 +1.1899335906E+000 
12148082.603 +6.7903901450E-001 +4.5582948396E+000  +5.7239726832E-003 +9.0368144301E+001  +7.3415840659E-003 +9.1942371568E+001  +7.0367404111E-001 -1.9643259305E-001 
12273227.785 +6.9890220155E-001 +3.0830326755E+000  +5.8225161094E-003 +1.0082967667E+002  +5.8880584089E-003 +9.8187047178E+001  +7.1693589240E-001 +1.2082384572E+000 
12398372.966 +6.9742188551E-001 +3.2628338613E+000  +6.3548710325E-003 +9.0578508213E+001  +6.4755250702E-003 +8.9837105809E+001  +7.2578157852E-001 -1.5553666049E+000 
12523518.148 +7.2671862638E-001 +2.2457506223E+000  +4.4451794433E-003 +9.8891913093E+001  +6.7393815483E-003 +9.4491875637E+001  +7.2896948462E-001 -2.0538127266E+000 
12648663.329 +7.4354523187E-001 +3.8533440677E+000  +5.1791580379E-003 +8.4929156829E+001  +6.6766564015E-003 +1.0754766588E+002  +7.6037090000E-001 +7.5134190194E-001 
12773808.511 +7.5014659499E-001 +1.6421010541E+000  +6.9501029859E-003 +8.3830276658E+001  +5.9914518960E-003 +8.9073276574E+001  +7.6176592202E-001 -7.3529810349E-001 
12898953.692 +7.7497870823E-001 -4.2588452667E-001  +6.0282353551E-003 +7.4582150466E+001  +6.0545174990E-003 +8.6500359714E+001  +7.6613558427E-001 -3.7965642326E-001 
13024098.874 +7.6381231749E-001 +1.5057919568E+000  +6.9640099214E-003 +8.0542241007E+001  +7.7778868966E-003 +9.3615242447E+001  +8.1180931763E-001 -1.9820066088E+000 
13149244.055 +7.9535095404E-001 +7.8542993084E-001  +5.7307797576E-003 +1.0089955934E+002  +6.3299633714E-003 +7.8959646860E+001  +8.3731042131E-001 -2.3108359548E+000 
13274389.237 +8.0988345168E-001 +3.9787047872E-001  +7.0112656839E-003 +8.1876407363E+001  +6.7183134354E-003 +8.5229081638E+001  +8.1162345775E-001 -2.0945898796E+000 
13399534.418 +8.3180884148E-001 +1.6885636027E-001  +7.4296205084E-003 +8.8858102734E+001  +6.2032156512E-003 +9.0903487189E+001  +8.3657677571E-001 -4.3355371580E+000 
13524679.599 +8.4710788491E-001 -2.8905276840E+000  +6.9268874199E-003 +9.6510654434E+001  +4.9051436619E-003 +9.1678131905E+001  +8.8571373548E-001 -3.2129392236E+000 
13649824.781 +8.6916648968E-001 -2.4293650018E+000  +7.1157215756E-003 +8.4157546624E+001  +7.3072648736E-003 +8.4700363654E+001  +8.8738056930E-001 -2.9384310005E+000 
13774969.962 +8.6915819271E-001 -1.8549973241E+000  +7.8330699913E-003 +8.9855197962E+001  +6.2779524389E-003 +1.0911269077E+002  +9.0811831499E-001 -4.3245401651E+000 
13900115.144 +8.8600612793E-001 -2.8931193609E+000  +5.6650296076E-003 +8.5116794080E+001  +8.7964028699E-003 +9.1806187222E+001  +9.0252938026E-001 -2.3669090066E+000 
14025260.325 +9.1659569961E-001 -4.2920535788E+000  +6.7807747755E-003 +1.0148893217E+002  +6.2216233459E-003 +9.6924993318E+001  +9.1384984920E-001 -4.8824209681E+000 
14150405.507 +9.5152490500E-001 -4.3130245213E+000  +7.6265924369E-003 +8.2935519702E+001  +8.1032930924E-003 +8.0937081380E+001  +9.6113133460E-001 -3.6168683960E+000 
14275550.688 +9.5993145706E-001 -4.4590100381E+000  +6.9018842112E-003 +8.5531535601E+001  +9.6194354137E-003 +7.8558000908E+001  +9.4240996903E-001 -4.6343664967E+000 
14400695.870 +9.9065468708E-001 -4.5791590890E+000  +7.0415241419E-003 +9.1605727712E+001  +7.1336583940E-003 +8.0492837546E+001  +9.7805436914E-001 -5.8774624315E+000 
