!  2-Port S-parameters saved by WinCal
! VAR MeasName=S-Parameters (CALIBRATED_DATA) read from VNA (P5004A)
! VAR MeasDate=27/08/2024 12:27:57
! VAR NAME=S2_r3c9_pristine_9k-100M_1
! VAR FILENAME=S2_r3c9_pristine_9k-100M_1.S2P
! VAR DATE=27/08/2024 12:27:57
! VAR PHYS_PORTS=1,2
! VAR ObjTypeName=DATASET
! VAR IndexType=Frequency
!
# Hz S MA R 50
9000.000 +6.9980496597E-002 -1.5055332224E+002  +2.6564507211E-002 -1.2787069973E+002  +1.0763190004E-002 -3.0653228112E+001  +2.7816775915E-001 -8.4634314790E+001 
134145.181 +1.1099288532E-001 +1.6958523289E+002  +2.2741985661E-004 +1.0291226319E+002  +2.5672078033E-004 -8.8762269817E+000  +2.3908752779E-001 -1.7106959006E+002 
259290.363 +1.1013850246E-001 +1.7011851218E+002  +1.5327098492E-004 -7.8568227715E+001  +9.1954989810E-004 +1.0717572633E+001  +2.4453489616E-001 -1.6909377425E+002 
384435.544 +1.1350122417E-001 +1.7000499107E+002  +2.8828459565E-004 +1.7013567703E+002  +1.2005101112E-004 -1.4105814662E+002  +2.3659078733E-001 -1.6864808482E+002 
509580.726 +1.1537287239E-001 +1.7041949403E+002  +4.0819354684E-004 -1.5837224135E+002  +7.6049691892E-004 -5.8565036624E+001  +2.2005815075E-001 -1.6410650422E+002 
634725.907 +1.1383722480E-001 +1.7104336856E+002  +5.2387133435E-004 +1.3096595435E+002  +1.9141416856E-003 +3.4214230469E+001  +2.2959485116E-001 -1.6324400695E+002 
759871.089 +1.1573833881E-001 +1.7024299549E+002  +7.0314178396E-004 -6.1453398655E+001  +4.2203417633E-004 +1.4697694906E+002  +2.3581064346E-001 -1.6656677759E+002 
885016.270 +1.1791855179E-001 +1.7101349176E+002  +3.6784679117E-004 +1.5242254319E+002  +1.6019871287E-003 -8.5009610158E+001  +2.4112688622E-001 -1.6442469031E+002 
1010161.452 +1.1591470037E-001 +1.7105160239E+002  +1.0820037906E-003 -4.5537422904E+001  +4.4566700725E-003 +4.1684967811E+001  +1.3777383566E-001 -1.6384289874E+002 
1135306.633 +1.1437187612E-001 +1.6845349793E+002  +1.2566068070E-003 +6.5511318764E+001  +4.0583932002E-003 -6.4094866295E+001  +1.7638252238E-001 -1.7150532843E+002 
1260451.815 +1.2079372801E-001 +1.7113586333E+002  +1.6363574688E-003 -7.1648560038E+001  +9.9455033966E-004 +1.2519428527E+002  +2.3221129874E-001 -1.6187925946E+002 
1385596.996 +1.2450441814E-001 +1.7305501749E+002  +1.1970462570E-003 -1.6594188209E+002  +1.3367324549E-003 +4.3963894364E+001  +2.5917524118E-001 -1.5919191350E+002 
1510742.178 +1.2541409093E-001 +1.7207070519E+002  +8.5682312552E-004 +1.6130066606E+001  +1.0905770205E-003 +9.4878044781E+001  +2.5605894213E-001 -1.5782776232E+002 
1635887.359 +1.2972515428E-001 +1.7033461803E+002  +2.7823813698E-004 -6.2898550397E+001  +8.5750771726E-004 -1.2858450798E+002  +2.5417008404E-001 -1.5814552578E+002 
1761032.541 +1.2270630286E-001 +1.6657901045E+002  +1.4708725360E-003 +5.6319638346E+001  +8.0554767820E-004 -1.5759957716E+002  +2.3313039634E-001 -1.6290456344E+002 
1886177.722 +1.3175602038E-001 +1.6646493714E+002  +1.2580943303E-003 -3.6229605276E+001  +2.6281377083E-003 +1.1757389331E+002  +1.9091143790E-001 -1.5228499474E+002 
2011322.904 +1.2866479897E-001 +1.6808310816E+002  +1.1853167316E-003 -5.9430819878E+001  +1.1807998294E-003 -1.8522995563E+001  +2.0490127183E-001 -1.7282363371E+002 
2136468.085 +1.2816357714E-001 +1.6297268842E+002  +2.9877211321E-003 -5.5384785234E+001  +2.5535109099E-003 -1.2930234101E+002  +1.9394395566E-001 +1.6763876688E+002 
2261613.267 +1.3237079714E-001 +1.6159092027E+002  +3.8471024040E-003 +8.5850226461E+000  +5.3451733945E-003 -5.2652938506E+001  +1.1010430046E-001 +1.3320940803E+002 
2386758.448 +1.3186008440E-001 +1.6571255450E+002  +7.9280653298E-003 -1.6481265052E+002  +2.3181354835E-003 +1.6693374579E+002  +2.0227317351E-001 +1.6509351842E+002 
2511903.630 +1.2650683141E-001 +1.6239543251E+002  +1.1503943995E-002 +1.3494238193E+002  +3.4723300188E-003 +2.5393976109E+001  +3.0716613070E-001 +1.5791474452E+002 
2637048.811 +1.1916640917E-001 +1.5641674956E+002  +1.0355376824E-002 -1.0016779972E+002  +1.5374628455E-002 +1.6582810290E+001  +1.2415978463E-001 +7.0985309881E+001 
2762193.992 +9.4991002500E-002 -1.7141051649E+002  +9.1318534594E-003 +1.0018637518E-001  +1.0840893165E-002 -8.2301360960E+001  +1.0389533879E+000 -1.4674828505E+002 
2887339.174 +9.9346839360E-002 +1.7592639692E+002  +2.9866361087E-002 +1.1465294994E+002  +2.7145488565E-002 +1.1432104714E+002  +6.3629600482E-001 -9.5006576648E+001 
3012484.355 +1.0471800540E-001 -1.7509418779E+002  +2.3292077810E-002 +1.7200942714E+002  +3.4394939962E-002 -5.4930962087E+001  +5.0042119883E-001 -8.6284196970E+001 
3137629.537 +1.1065922334E-001 +1.6269248405E+002  +4.9253133665E-003 +1.5569433078E+002  +7.9836352930E-003 -3.0365315548E+001  +3.1264058013E-001 -9.8373778366E+001 
3262774.718 +1.1777135238E-001 +1.4748718184E+002  +1.0558951861E-002 -5.4841986341E+001  +1.8330390838E-002 -1.4364251025E+001  +6.3955271077E-001 -9.4935896986E+001 
3387919.900 +8.8773959475E-002 +1.6576438062E+002  +8.9109575935E-003 -6.6529902493E+001  +2.8551065251E-003 +1.2031348968E+002  +1.1667645301E-001 -1.3410948680E+002 
3513065.081 +1.0503615781E-001 +1.5116430664E+002  +1.4262864169E-002 +1.7180473575E+002  +4.8462925925E-002 -7.5888152131E+001  +2.4960880536E-001 +8.0196792989E+001 
3638210.263 +1.6675398503E-001 +1.4068015257E+002  +3.4178166156E-002 -1.2463185821E+002  +1.2843129115E-002 -5.2179515527E+001  +2.0396529498E+000 +1.4489117115E+002 
3763355.444 +1.5996658027E-001 +1.4653762866E+002  +1.1861653327E-003 +2.7665791741E+001  +7.9089240373E-003 +7.3154503029E+001  +2.2224962427E-001 +7.1716299541E+000 
3888500.626 +1.8322081348E-001 +1.5263361862E+002  +1.1018739297E-002 +1.0777486760E+002  +2.5863037832E-003 +1.3077728673E+002  +2.7926124669E-001 +9.6203022458E+001 
4013645.807 +1.3802489838E-001 +1.4632496877E+002  +1.1111051050E-002 -5.2039803122E+001  +1.4040204002E-002 -2.5498926693E+001  +6.8740582400E-001 +8.8259623786E+001 
4138790.989 +1.6810591810E-001 +1.4874193027E+002  +3.9887204021E-003 -1.4841143999E+002  +1.0541586090E-002 -1.3943313290E+002  +4.1278063963E-001 +1.1384893734E+002 
4263936.170 +2.1326617630E-001 +1.2251911556E+002  +8.0308445431E-003 +4.4029201329E+001  +7.2178677550E-003 -6.2511423302E+001  +2.4772921122E-001 +1.3962758020E+002 
4389081.352 +1.7652898957E-001 +1.3845126810E+002  +8.5467293959E-003 -1.6052702848E+002  +3.9472251440E-003 +1.2840065398E+002  +6.3747759513E-001 +1.2198719516E+002 
4514226.533 +2.5607521528E-001 +1.3380481425E+002  +1.2970115935E-002 +6.1604298824E+001  +3.4914534816E-003 +1.9076984796E+001  +7.0732750164E-001 +6.9359478835E+001 
4639371.715 +2.7296618321E-001 +1.3931153547E+002  +6.9646973077E-003 -1.6359921242E+002  +1.4355980282E-002 -5.2103258425E+001  +1.2778874704E+000 +1.5946478702E+002 
4764516.896 +4.1375460199E-001 +1.1674524228E+002  +2.5507969857E-001 +1.7091281304E+002  +4.8407058688E-001 -1.7093912211E+002  +2.5596183076E+001 -1.0347280052E+002 
4889662.078 +4.7136086385E-001 +1.3726496374E+002  +2.4133709971E-002 +1.1126094323E+002  +4.9298858091E-002 +9.4758714028E+001  +2.8274407770E+000 -1.6465614796E+002 
5014807.259 +4.1394614866E-001 +1.3170077008E+002  +1.6111299416E-002 -1.6475016095E+001  +8.2043911007E-003 +1.3183817497E+002  +2.3834705585E+000 +1.5945563068E+002 
5139952.441 +3.7435632262E-001 +1.3339893397E+002  +2.2925089045E-002 -9.4211397294E+001  +4.9417327605E-002 -1.1447322340E+002  +4.8610912031E+000 -1.5844506463E+002 
5265097.622 +3.9152416988E-001 +1.2862853711E+002  +2.1151501249E-002 +1.0849377412E+002  +2.2822541115E-002 +9.9472030814E+001  +2.2777451894E+000 +9.4032348877E+001 
5390242.804 +4.1038352808E-001 +1.2919446898E+002  +1.9630499155E-002 +1.2683217142E+002  +1.2801500214E-002 +1.1711990971E+002  +1.4522873484E+000 +6.4726483244E+001 
5515387.985 +4.4487544383E-001 +1.3079662295E+002  +2.2676093832E-002 -1.1869588326E+002  +9.6167518166E-003 +1.2200128958E+002  +1.9884351146E+000 +8.6944394091E+001 
5640533.166 +4.2877150272E-001 +1.3193685928E+002  +1.4016178643E-002 +1.6811012801E+002  +5.6454625481E-003 -1.3553683855E+002  +9.8733689154E-001 +4.6391302576E+001 
5765678.348 +4.3256598297E-001 +1.2353974212E+002  +9.2597648269E-003 -1.6902417909E+002  +2.5822536003E-002 +4.5811140661E+001  +1.8959870141E+000 +4.7588874799E+001 
5890823.529 +5.6908365505E-001 +1.2082961901E+002  +2.3574449275E-002 -8.6578346377E+001  +3.5304010770E-002 +1.5300061791E+002  +2.4202392810E+000 +5.5018065750E+001 
6015968.711 +6.9494575935E-001 +1.0747805930E+002  +3.1746143236E-002 -9.1071246529E+001  +4.2745465026E-002 +1.1561963534E+002  +2.2139380688E+000 +3.5725286721E+001 
6141113.892 +9.9030288871E-001 +1.1843524384E+002  +1.5515735876E-002 +6.2687754756E+001  +2.3100711916E-002 +9.3909393947E+001  +2.4494634979E+000 +3.5564826968E+001 
6266259.074 +1.0421916001E+000 +1.0773851313E+002  +2.5388430193E-002 -1.3933206884E+002  +1.5029953367E-002 +1.7180454657E+002  +1.7235785388E+000 +2.0482978408E+001 
6391404.255 +1.1282513352E+000 +1.0117444637E+002  +2.1960688767E-002 +1.2796136979E+002  +1.8233720982E-002 +1.6250308539E+002  +1.4031533339E+000 +8.3983084876E+000 
6516549.437 +1.2830246471E+000 +8.9699710309E+001  +2.3843132351E-002 +7.7487290521E+001  +1.6773418495E-002 +1.1051695100E+002  +1.7783642457E+000 +7.9556565106E+000 
6641694.618 +1.5059070631E+000 +7.1068474285E+001  +1.1973423207E-002 +1.0136948247E+002  +1.3068916238E-002 +1.7240035252E+000  +1.3858435010E+000 -1.1617709601E+001 
6766839.800 +1.4026042953E+000 +4.7065253516E+001  +2.8363713763E-002 +8.4418949385E+001  +2.1533151462E-003 -2.6126194467E+001  +1.6503230542E+000 -7.0634147427E+000 
6891984.981 +2.1999190669E+000 +4.0706599276E+001  +3.2455074173E-002 -1.7362025866E+002  +3.6466935649E-002 +9.3691777870E+001  +1.4498592979E+000 -8.9239493950E+000 
7017130.163 +1.7739643479E+000 +1.1541932800E+001  +2.2413101552E-002 +1.6579646905E+002  +2.1155105253E-003 +6.4126617455E+001  +1.2021717850E+000 -1.0263321908E+001 
7142275.344 +1.8039528749E+000 +1.5973786514E+001  +1.7681571495E-002 +1.1217587471E+002  +1.8050403061E-002 +5.4424473651E+001  +1.2509672370E+000 -1.3961329294E+001 
7267420.526 +1.4963691755E+000 +5.4554073601E+000  +8.4603169348E-003 +2.7044215398E+001  +1.4057845549E-002 +8.1076135844E+001  +1.3005355621E+000 -1.1524233827E+001 
7392565.707 +1.4155559120E+000 -4.6109548466E+000  +1.5943293865E-003 +4.2615263750E+001  +2.7409623767E-003 +1.1597435817E+002  +1.3054499195E+000 -5.2045624314E+000 
7517710.889 +1.2666709668E+000 +8.8941601015E-001  +7.6015723630E-003 +5.1411464638E+001  +1.2247313421E-002 +7.0982272565E+001  +1.2501834267E+000 -8.5017286409E+000 
7642856.070 +1.0220471865E+000 +1.6449644904E+000  +7.0785405656E-003 +1.6180829526E+002  +7.4695466910E-003 +4.2011555895E+001  +1.2399000134E+000 -1.9657937004E+000 
7768001.252 +1.0616920895E+000 +6.9048596952E+000  +1.7267746491E-003 +1.2908406200E+002  +2.9810904785E-003 -7.5618164844E-003  +1.0691808219E+000 +4.0510427600E+000 
7893146.433 +8.6031358547E-001 +3.2602598550E+000  +6.1425255796E-003 +7.3211923182E+001  +1.3878263432E-002 +9.0675584468E+001  +9.9440158301E-001 -4.8387723740E+000 
8018291.615 +8.0247143660E-001 +6.1171978296E+000  +8.6734503271E-003 +8.4131537650E+001  +6.8789095323E-003 +1.0750213494E+002  +9.0220083535E-001 -5.8930328945E+000 
8143436.796 +7.4690314135E-001 +1.0176456278E+001  +5.0989071050E-003 +1.1730585683E+002  +1.1338275722E-003 -6.0479680574E+001  +7.7793265306E-001 -5.4069684021E-001 
8268581.977 +7.4028249001E-001 +1.0647951626E+001  +3.8057971126E-003 +1.0632689855E+002  +2.3695824934E-003 +7.9864560629E+001  +8.1020234019E-001 -2.4553625791E+000 
8393727.159 +7.3199379965E-001 +9.7879086557E+000  +2.9473164654E-003 +3.1513075012E+000  +6.8383491405E-003 +8.0236803613E+001  +7.0740103311E-001 +4.6291602146E+000 
8518872.340 +6.9718727433E-001 +7.2331542230E+000  +6.4372171052E-003 +7.2515209356E+001  +8.0111034854E-003 +1.2967580005E+002  +7.6961060017E-001 +1.3513770918E+000 
8644017.522 +6.4181338109E-001 +8.3376997349E+000  +6.1843830369E-003 +9.7619717697E+001  +3.6085266769E-003 +5.5367569955E+001  +7.6572979395E-001 -7.8139664169E+000 
8769162.703 +6.8403568584E-001 +1.2265490779E+001  +3.0244306974E-003 +9.7062183612E+001  +7.2722143076E-003 +6.8397823405E+001  +6.4170218662E-001 +6.5159532068E-001 
8894307.885 +6.2066876391E-001 +3.2059527317E+000  +6.8755783022E-003 +9.5016844315E+001  +3.1404742458E-003 +1.7766564523E+002  +6.2337267876E-001 -3.3749103704E+000 
9019453.066 +6.4342845016E-001 +1.0346827991E+001  +3.5318693832E-003 +1.0881603944E+002  +2.2467793954E-003 +9.2916853103E+001  +6.0303926835E-001 -7.0768622438E+000 
9144598.248 +5.8959118467E-001 +8.3549349799E-001  +4.0643363699E-003 +6.9400944267E+001  +2.4515695512E-003 +9.7215417839E+001  +6.7520684809E-001 +6.0193309088E-001 
9269743.429 +5.4656344165E-001 +3.2319674150E+000  +4.7725950521E-003 +8.7031371480E+001  +3.3917764747E-003 +1.0715005878E+002  +5.8890435258E-001 -3.5020899038E+000 
9394888.611 +5.4512690413E-001 +3.5845865947E+000  +4.8675759316E-003 +5.8468505960E+001  +4.3911626796E-003 +1.1117086133E+002  +6.0626804357E-001 -2.1265318318E+000 
9520033.792 +5.3682076789E-001 -4.6919201371E-001  +4.8366863307E-003 +8.1849788955E+001  +4.8586766999E-003 +9.8605823856E+001  +6.1609318488E-001 -2.3504751098E+000 
9645178.974 +5.8807462580E-001 +1.5452619996E+000  +4.4901373710E-003 +7.4020112003E+001  +4.4814470761E-003 +1.4975120807E+002  +5.9174629754E-001 -3.4381963576E+000 
9770324.155 +5.7370392049E-001 -1.3151738862E+000  +6.0233325470E-003 +2.0114441358E+001  +1.2702072491E-003 +1.1448037620E+002  +6.0332579054E-001 -3.3800337648E+000 
9895469.337 +5.9032486688E-001 +1.5720710638E+000  +6.8134304169E-003 +1.0366476813E+002  +6.9087552892E-003 +1.0867364560E+002  +5.8352615779E-001 -8.2421671307E+000 
10020614.518 +5.5483556198E-001 -1.0921508321E+000  +3.8499320513E-003 +1.7750511261E+001  +3.3267897720E-003 +6.0987737767E+001  +5.9181991969E-001 -8.1535405373E+000 
10145759.700 +5.5998881756E-001 +1.7405312407E-001  +2.2893936870E-003 +9.3651789832E+001  +4.2967352824E-003 +1.1442116773E+002  +6.0465998582E-001 -2.3767876916E+000 
10270904.881 +5.5509097129E-001 +4.6137267974E+000  +6.4656846362E-003 +9.2216669323E+001  +3.2919573678E-003 +1.1932322660E+002  +5.4517535275E-001 -4.9135349309E+000 
10396050.063 +5.8082814610E-001 +5.2135443581E+000  +2.9526047639E-003 +3.3309265760E+001  +3.5482821604E-003 +1.1882617045E+002  +5.7976165916E-001 -3.5869357601E+000 
10521195.244 +5.4230063206E-001 +3.3065792059E+000  +3.7921026933E-003 +7.3881669124E+001  +3.9042482688E-003 +1.0875457253E+002  +5.9657484140E-001 -1.5602802456E+000 
10646340.426 +5.7239148175E-001 +5.1295363659E+000  +6.3898811255E-003 +7.7929672838E+001  +2.9908093939E-003 +1.0380205660E+002  +6.2584426167E-001 +1.1046380678E+000 
10771485.607 +5.9507377923E-001 +3.6000745380E+000  +5.1422467179E-003 +1.0167665579E+002  +3.4415208798E-003 +1.1293692695E+002  +6.1662947389E-001 +6.8432066090E-001 
10896630.788 +5.6365652068E-001 +3.9965612677E+000  +3.0898401562E-003 +1.0606349603E+002  +6.0360903680E-003 +1.1715616763E+002  +5.6923168471E-001 +9.8245113097E-001 
11021775.970 +6.0141145461E-001 +7.5598614738E+000  +5.2854165241E-003 +1.1551831924E+002  +7.1468005747E-003 +1.1730092828E+002  +6.2557089403E-001 +1.2516021436E+000 
11146921.151 +5.8425816625E-001 +4.8851433082E+000  +4.1556658644E-003 +1.1327367795E+002  +5.4497889922E-003 +9.9704116052E+001  +6.3955146516E-001 +1.3410813234E+000 
11272066.333 +6.0290297380E-001 +5.8681314923E+000  +5.1421069434E-003 +1.0922002089E+002  +5.4316472601E-003 +1.1284702247E+002  +6.1055090397E-001 +1.7037461687E+000 
11397211.514 +6.0160462646E-001 +8.1697642171E+000  +5.0467280246E-003 +6.1598673818E+001  +3.1778362902E-003 +1.1589570281E+002  +6.0883855438E-001 +2.2741358833E+000 
11522356.696 +6.2431604556E-001 +3.6750576049E+000  +4.9086017502E-003 +8.2552608847E+001  +6.4449114492E-003 +8.1663421974E+001  +6.2730910950E-001 +1.7778916163E+000 
11647501.877 +6.1366127128E-001 +8.8447277977E+000  +6.7410108086E-003 +1.0409010945E+002  +6.0039030899E-003 +8.2098463515E+001  +6.6783824760E-001 -4.3203637463E-001 
11772647.059 +6.5818643315E-001 +4.7235091410E+000  +5.1345001588E-003 +8.8473298364E+001  +4.6134525197E-003 +1.1577206374E+002  +6.4968035879E-001 +1.2511672990E+000 
11897792.240 +6.6661786882E-001 +4.2494515609E+000  +4.0515707471E-003 +7.5436994072E+001  +5.7638978473E-003 +1.0218566876E+002  +6.7288829895E-001 +2.2416822806E+000 
12022937.422 +6.6237084539E-001 +5.6033323150E+000  +5.7594833020E-003 +9.0541421469E+001  +4.9550180416E-003 +1.1702430661E+002  +6.9748985501E-001 +1.8942935058E+000 
12148082.603 +6.9343644163E-001 +2.3876225753E+000  +5.4517935658E-003 +9.6778981455E+001  +5.3326618013E-003 +1.0092766045E+002  +7.0027657562E-001 +8.1527633471E-001 
12273227.785 +6.7417504057E-001 +3.6282092857E+000  +3.8118945996E-003 +1.0067066885E+002  +8.4916484671E-003 +1.0052806855E+002  +7.2036289384E-001 +3.5800524980E+000 
12398372.966 +7.1568084188E-001 +9.0809956833E-001  +6.2496830991E-003 +8.8922940419E+001  +4.4508352572E-003 +1.0529950794E+002  +7.3725522929E-001 +6.7179875909E-001 
12523518.148 +7.4475716638E-001 +2.3026098168E+000  +6.3644260082E-003 +1.0648658471E+002  +5.9129316638E-003 +1.0267332264E+002  +7.4505405611E-001 -2.0133794405E+000 
12648663.329 +7.2639708130E-001 +2.8615189411E+000  +7.1972573702E-003 +9.4012918917E+001  +5.0814870210E-003 +9.1211729476E+001  +7.6922395893E-001 -1.3274534616E+000 
12773808.511 +7.4750286728E-001 +1.4567154561E+000  +6.5179552558E-003 +9.1341482225E+001  +5.4724818400E-003 +9.4960807661E+001  +7.7164972590E-001 -1.5848105114E+000 
12898953.692 +7.7462651417E-001 +1.6795555889E+000  +6.2754471603E-003 +1.0082591927E+002  +5.7930187879E-003 +9.4342421634E+001  +7.9530862221E-001 -2.4509771765E+000 
13024098.874 +7.6173890887E-001 +3.3635161558E-001  +7.3514363104E-003 +7.6739343724E+001  +7.5905860886E-003 +9.8973207340E+001  +8.0967976013E-001 -1.4562225638E+000 
13149244.055 +8.0493987158E-001 -9.0647480485E-001  +6.6929137128E-003 +8.3723181801E+001  +7.9182529094E-003 +9.3801022291E+001  +8.2101704528E-001 -2.2365848854E+000 
13274389.237 +8.1559648022E-001 -6.0914538123E-001  +5.6269001335E-003 +8.9155024814E+001  +6.2181961365E-003 +1.0262514436E+002  +8.4718967112E-001 -1.3045560820E+000 
13399534.418 +8.3480358415E-001 -8.7120366561E-001  +7.5079312563E-003 +9.9059227315E+001  +6.4785462328E-003 +9.5137119046E+001  +8.3690949098E-001 -2.2572838290E+000 
13524679.599 +8.5721661031E-001 -8.9440117027E-001  +6.0978145440E-003 +1.0192149897E+002  +5.5174881797E-003 +8.3100183227E+001  +8.3663307021E-001 -3.0809116028E+000 
13649824.781 +8.6982194334E-001 -3.7198324497E+000  +7.4114016835E-003 +8.6262910947E+001  +6.4589136037E-003 +1.0223397540E+002  +8.6711105266E-001 -3.4352765790E+000 
13774969.962 +8.9444721809E-001 -2.8120635676E+000  +6.8758527250E-003 +8.5599551046E+001  +8.4354318576E-003 +1.0036967908E+002  +8.8566635236E-001 -3.5039541241E+000 
13900115.144 +9.0609491538E-001 -3.1170243845E+000  +6.3041747541E-003 +9.4222838254E+001  +5.7916481890E-003 +9.7717432661E+001  +9.1987084677E-001 -3.8649446558E+000 
14025260.325 +9.1905483990E-001 -2.9409948544E+000  +7.0094179472E-003 +9.0797311686E+001  +7.3865930333E-003 +8.8618961650E+001  +9.4013302346E-001 -3.9741928531E+000 
14150405.507 +9.3598839551E-001 -4.5083868455E+000  +8.0993354595E-003 +9.1731577853E+001  +6.4736270960E-003 +9.2784029278E+001  +9.4518242766E-001 -4.8577367633E+000 
14275550.688 +9.5217533237E-001 -3.9172014691E+000  +8.7887476234E-003 +8.0616390764E+001  +7.3414281824E-003 +9.1226996555E+001  +9.7288491843E-001 -4.9162571477E+000 
14400695.870 +9.7655770721E-001 -4.1586946891E+000  +6.6817879924E-003 +8.8970902834E+001  +8.3247512621E-003 +8.1491745717E+001  +9.7528488313E-001 -4.2382714960E+000 
