!  2-Port S-parameters saved by WinCal
! VAR MeasName=S-Parameters (CALIBRATED_DATA) read from VNA (P5004A)
! VAR MeasDate=27/08/2024 12:28:10
! VAR NAME=S2_r3c9_pristine_9k-100M_2
! VAR FILENAME=S2_r3c9_pristine_9k-100M_2.S2P
! VAR DATE=27/08/2024 12:28:10
! VAR PHYS_PORTS=1,2
! VAR ObjTypeName=DATASET
! VAR IndexType=Frequency
!
# Hz S MA R 50
9000.000 +2.4983379831E-002 +1.0889674139E+002  +2.5461279502E-002 -6.6024962641E+001  +1.0701201153E-002 +4.4189048439E+001  +1.2509552695E-001 -7.4785207994E+001 
134145.181 +1.1090780018E-001 +1.6971023089E+002  +6.1044267239E-004 +1.2574423770E-001  +4.9497710259E-004 -1.7174019340E+002  +2.4396595786E-001 -1.6918696759E+002 
259290.363 +1.1039443043E-001 +1.6984938809E+002  +1.3987598422E-003 -4.7754808987E+001  +1.7890318234E-003 +7.6904496538E+001  +2.3637010637E-001 -1.6507799121E+002 
384435.544 +1.1266593494E-001 +1.6975070317E+002  +8.1460769381E-004 +8.3828526355E+001  +3.5751390772E-004 -1.9633554083E+001  +2.4013909747E-001 -1.6879095098E+002 
509580.726 +1.1339306759E-001 +1.7059790736E+002  +7.5773764464E-004 +1.1526708729E+002  +5.6157159273E-004 -4.3628619451E+000  +2.4385131179E-001 -1.6383318664E+002 
634725.907 +1.1604700210E-001 +1.7056762697E+002  +1.2752128228E-003 -6.1998270372E+000  +1.2013907561E-003 -4.6319804292E+001  +2.4007957874E-001 -1.6634609272E+002 
759871.089 +1.1894091041E-001 +1.7022544655E+002  +1.5964413172E-004 +3.1383452463E+001  +5.0629303828E-004 +1.1895118910E+002  +2.4017766509E-001 -1.6549577929E+002 
885016.270 +1.1635749363E-001 +1.6988729042E+002  +6.9537481239E-004 +9.7975194533E+001  +4.2962488998E-004 -1.6958534275E+002  +2.2991130924E-001 -1.6413154390E+002 
1010161.452 +1.1783761853E-001 +1.7019914335E+002  +1.6102902295E-003 +1.1036663152E+002  +6.5629536861E-004 +4.6542610471E+001  +1.8313783996E-001 -1.6391085606E+002 
1135306.633 +1.1781274788E-001 +1.7096563371E+002  +1.6573800390E-003 +1.3711246664E+002  +2.3940033579E-003 +1.0026623772E+002  +1.7927777086E-001 -1.6681690428E+002 
1260451.815 +1.2338925384E-001 +1.7363486669E+002  +5.3110835243E-004 +5.0197315259E+001  +7.9161964331E-004 +5.2124257950E+001  +2.3038233818E-001 -1.6218632993E+002 
1385596.996 +1.2555723552E-001 +1.7075172261E+002  +2.0998148118E-004 -1.3244367942E+002  +6.3148215866E-004 +1.3182623867E+001  +2.6338843310E-001 -1.6234941806E+002 
1510742.178 +1.2877858540E-001 +1.7067986818E+002  +8.5015928986E-004 +1.5131109296E+002  +6.5856710841E-004 -1.5827032842E+002  +2.4089573855E-001 -1.5803376150E+002 
1635887.359 +1.2814488419E-001 +1.6914177090E+002  +2.1073251113E-003 +1.0484929729E+002  +1.1957081439E-003 +1.7405010870E+001  +2.4918953401E-001 -1.5440189588E+002 
1761032.541 +1.2619983802E-001 +1.6922377413E+002  +7.2724272696E-004 +1.4976738611E+002  +4.5352772306E-004 +1.1097789391E+002  +2.1704691231E-001 -1.5945779416E+002 
1886177.722 +1.3117977868E-001 +1.6622740503E+002  +1.2679723205E-003 +6.2810674453E+001  +2.4264415799E-003 +3.8931634630E+001  +2.0615718584E-001 -1.6564769788E+002 
2011322.904 +1.3115123210E-001 +1.6816984642E+002  +7.1430805109E-004 +2.2436960436E+001  +1.1870157574E-003 +1.3659361270E+002  +1.7889011617E-001 +1.7878830740E+002 
2136468.085 +1.2730690776E-001 +1.6428045012E+002  +8.4781041792E-004 -1.0720286317E+002  +4.6143750705E-004 -1.1696750834E+002  +2.2981827826E-001 +1.7273978730E+002 
2261613.267 +1.3373426924E-001 +1.6247763988E+002  +1.4241682299E-003 +1.0420015781E+002  +1.8558697521E-003 -7.2296399664E+001  +1.5540828819E-001 +1.6109514777E+002 
2386758.448 +1.3779134590E-001 +1.6261826233E+002  +9.1854086510E-004 +5.8310858373E+001  +3.0092303878E-003 -1.0404169788E+002  +2.3404616269E-001 -1.7529497305E+002 
2511903.630 +1.2444798478E-001 +1.6755723112E+002  +3.2847834420E-003 +1.0491903478E+002  +6.9086676665E-003 -1.0048140819E+002  +4.0374083559E-001 +1.5742893290E+002 
2637048.811 +1.1235378000E-001 +1.5558659933E+002  +2.2276069911E-002 -1.6154698057E+002  +2.5630011023E-002 +5.7148552956E+001  +4.1879841071E-001 +9.5045852315E+001 
2762193.992 +1.0022061979E-001 +1.7241525691E+002  +1.6230821229E-002 +6.0440167409E+001  +1.7152512030E-002 -1.4118885384E+002  +5.1811971221E-001 -9.1888888117E+001 
2887339.174 +7.0229199938E-002 -1.6696468183E+002  +8.0735675098E-003 -1.4219269793E+002  +6.7784733413E-003 -1.5918031078E+002  +4.2098671790E-001 -1.3325271478E+002 
3012484.355 +1.2739881207E-001 -1.7739714338E+002  +9.1174417947E-003 -5.7483071169E+001  +6.7787405432E-003 -1.5238451436E+002  +2.2608412139E-001 -9.2264124390E+001 
3137629.537 +1.1633343402E-001 +1.7207499978E+002  +2.6634227996E-002 -6.6581218833E+000  +2.4712913521E-002 +9.4183449033E+001  +8.5163955844E-001 -6.1473759899E+001 
3262774.718 +7.0268306650E-002 -1.7862025147E+002  +2.3824929998E-002 +8.1914083524E+001  +1.4653412420E-002 -1.3833279729E+002  +2.5728386335E-001 -4.5761869976E+001 
3387919.900 +9.3288253210E-002 +1.5770289489E+002  +2.1116548804E-002 -1.7607128925E+002  +1.3294632083E-002 +1.0669868808E+001  +1.3534431742E+000 +1.6291579600E+002 
3513065.081 +1.1903776490E-001 +1.5425079022E+002  +1.6142287639E-002 +7.7018194745E+001  +1.3682052747E-002 -3.3891370686E+001  +4.3732086245E-001 +7.6377512093E+001 
3638210.263 +1.8664043206E-001 +1.4974876406E+002  +9.3601476280E-003 -5.0831132443E+001  +3.2737173427E-003 -3.8966937279E+001  +6.6195058050E-001 +1.4787737979E+002 
3763355.444 +1.7054629035E-001 +1.4747118757E+002  +1.0738976076E-002 -9.7572906752E+001  +1.9876442265E-002 +9.4021300086E+001  +5.5978490990E-001 +5.7959269496E+001 
3888500.626 +1.6508806421E-001 +1.3756658636E+002  +2.0161128604E-002 +7.8553996221E+001  +2.6190137088E-002 +1.2779283629E+002  +9.0169879444E-001 +1.0999147914E+002 
4013645.807 +1.9017651206E-001 +1.4169986437E+002  +1.0244460900E-003 -1.5741339544E+002  +3.5053612745E-003 +6.0844795438E+001  +1.7157862883E-001 -7.9282143050E+001 
4138790.989 +1.4657602614E-001 +1.3088395644E+002  +2.9672271023E-003 -1.3124257594E+002  +1.2117580876E-002 -5.2169395776E+001  +2.7016081224E-001 +1.4873339447E+002 
4263936.170 +1.9191818588E-001 +1.4986486405E+002  +6.1741660924E-003 +1.3518363368E+001  +6.0487993501E-003 +8.6522012736E+001  +3.2094456708E-001 +1.0045359125E+002 
4389081.352 +2.0178350736E-001 +1.4904636171E+002  +4.0623830555E-003 +1.1572226396E+001  +1.7731837082E-003 +1.0324879193E+002  +2.7124451080E-001 +9.5892733378E+001 
4514226.533 +2.2391375238E-001 +1.4355457002E+002  +5.2658140147E-003 -3.2721104071E+001  +4.3242919805E-003 -5.3376979402E+000  +7.3716525785E-001 +9.6021230023E+001 
4639371.715 +2.9254560419E-001 +1.3355422058E+002  +1.2427507880E-002 -1.0595964445E+002  +1.4489320801E-002 -2.9394532789E+001  +1.9031294793E+000 +1.4480166672E+002 
4764516.896 +3.7728729021E-001 +1.2992465703E+002  +4.5705483595E-002 -1.1551744677E+002  +1.0587529018E-001 +1.0367430722E+002  +7.3826450973E+000 +4.0455079766E+001 
4889662.078 +3.6177330991E-001 +1.3437881908E+002  +1.8529641655E-002 -1.3678276683E+002  +2.2281283132E-002 +1.1111810589E+002  +3.8104442609E+000 -9.3636326516E+001 
5014807.259 +3.6392117777E-001 +1.3574682179E+002  +4.3977870610E-002 +1.0999415110E+002  +6.9939476572E-002 +8.2702747111E+001  +3.1817233750E+000 +9.8774330017E+000 
5139952.441 +4.0772471962E-001 +1.3531546898E+002  +7.2844924337E-003 +1.5493276013E+002  +1.7736950327E-002 -8.8414060849E+001  +1.4225747345E+000 +1.0978133963E+002 
5265097.622 +4.0163603376E-001 +1.3714552981E+002  +7.2324525375E-002 +1.9165617043E+001  +2.0543837344E-002 -7.3725550034E+001  +5.2117024425E+000 +1.0264322746E+002 
5390242.804 +4.3410882669E-001 +1.3636956411E+002  +5.7747015606E-002 +6.3556454685E+001  +1.9245825904E-002 +9.7465805364E+001  +2.5875121610E+000 +7.2805195135E+001 
5515387.985 +4.1976839293E-001 +1.3260112211E+002  +8.5596216476E-003 +1.7692633074E+002  +9.3875527895E-003 +1.2254775395E+002  +1.6089392784E+000 +9.4886873745E+001 
5640533.166 +4.2825211422E-001 +1.2955860115E+002  +1.9674400127E-002 +1.2352804188E+002  +2.2283841625E-002 +2.9611087274E+000  +5.8845001330E+000 +6.8561905783E+001 
5765678.348 +4.8259421525E-001 +1.2814055959E+002  +6.1488542510E-003 +5.1294807701E+001  +2.4444313597E-003 -5.5636282944E+001  +1.4964001284E+000 +6.5037573458E+001 
5890823.529 +5.1711557401E-001 +1.2603241358E+002  +2.5296914716E-002 +1.4625147671E+002  +8.8523615659E-003 -1.0722430086E+002  +2.5389821377E+000 +6.3064270740E+001 
6015968.711 +5.7884395142E-001 +1.1867736765E+002  +1.0343100607E-002 +1.9891819993E+001  +3.5113319458E-002 -8.4141600897E+000  +2.3740059508E+000 +6.8419298837E+001 
6141113.892 +7.9592963903E-001 +1.1532906431E+002  +6.7418051384E-002 -1.6780746491E+002  +1.4626439596E-002 +1.4352187087E+002  +2.6847800810E+000 +3.9590037636E+001 
6266259.074 +8.8911937269E-001 +1.0939156974E+002  +1.9491124159E-002 -1.5178205600E+002  +1.0629624445E-002 +1.0046420288E+002  +1.6565258338E+000 +3.4760482943E+001 
6391404.255 +1.2925584397E+000 +1.0232365657E+002  +2.6072596318E-002 -9.2360902605E+001  +8.7474547782E-003 -1.7490839780E+002  +1.4792772354E+000 +3.6906638934E+001 
6516549.437 +1.2434573387E+000 +8.1412447433E+001  +1.8710652508E-002 +6.9107299640E+001  +2.0259284867E-002 -1.7117224507E+002  +1.6613305769E+000 +2.9930649870E+000 
6641694.618 +1.3146469148E+000 +6.3619205609E+001  +3.5751644503E-003 +1.4361327696E+002  +9.3298113545E-003 -1.7891062745E+002  +1.6153589433E+000 +7.9858699796E+000 
6766839.800 +1.4524062251E+000 +6.4771265237E+001  +3.9583209795E-002 -1.0854468606E+001  +7.8570217661E-003 -9.1934645625E+001  +1.3656876310E+000 -4.7674727304E+000 
6891984.981 +1.6499867411E+000 +4.6780254800E+001  +1.2010484719E-002 -1.7939971809E+002  +3.9621685137E-003 -3.8199097894E+000  +1.2203258612E+000 -1.1865841009E+001 
7017130.163 +2.1121545575E+000 +2.4464691356E+001  +2.4040184189E-002 +4.8133853928E+001  +2.4104990418E-002 +1.1890671647E+002  +1.4023394042E+000 -8.7615867932E+000 
7142275.344 +1.8155882249E+000 -1.7728501922E-001  +1.7737976338E-002 +9.4376794807E+001  +3.1591010193E-002 +9.0469928918E+001  +1.2454400046E+000 -1.4973677114E+001 
7267420.526 +1.4274046995E+000 -3.9250481016E+000  +4.3767629504E-003 -7.6821901022E+001  +4.8623966409E-003 -7.3874822040E+001  +1.4437800913E+000 -1.2441900270E+001 
7392565.707 +1.4629135859E+000 -1.2693798652E+000  +3.7278288878E-003 -1.4035205245E+002  +6.0192926910E-003 +6.8697929215E+001  +1.3426196197E+000 -1.1796223530E+001 
7517710.889 +1.1148650429E+000 -2.7701955578E+000  +5.2418009077E-003 -1.7068723003E+002  +3.5473965016E-003 +6.3372423759E+001  +1.2355105550E+000 -8.2326252702E+000 
7642856.070 +1.0909662968E+000 +7.5991462157E+000  +2.6510750832E-003 -1.9893592282E+001  +8.3421554324E-004 -1.3915395931E+002  +1.1166814386E+000 -6.3201836667E+000 
7768001.252 +9.2872935330E-001 +3.0874022052E+000  +3.5446623337E-003 +3.8073070293E+001  +5.6180176646E-003 -1.4612374743E+001  +9.2932775578E-001 -3.5685028075E+000 
7893146.433 +9.4236907384E-001 +9.1101221472E-001  +1.0332530869E-002 +9.2571560680E+001  +5.8219823525E-003 +1.4996115670E+002  +9.0797209925E-001 -4.6929496961E+000 
8018291.615 +7.9140328216E-001 +6.3797245463E+000  +5.3775262549E-003 +1.3402009267E+002  +5.7499094020E-003 -1.6368661827E+002  +9.4437771643E-001 +6.0659276543E-001 
8143436.796 +8.1330476728E-001 +1.1470002237E+001  +4.2415167129E-003 +6.8033598987E+001  +7.7064077234E-003 +1.0713476071E+002  +8.3290719986E-001 -5.0716185862E+000 
8268581.977 +7.2412400683E-001 +4.5128586644E+000  +4.8360717693E-003 +7.8508848170E+001  +2.5558647855E-003 +1.4326263271E+002  +7.9800601931E-001 +1.7054185724E+000 
8393727.159 +7.6311825734E-001 +6.4241837122E+000  +2.0781249819E-003 +2.2258571369E+001  +7.8477180705E-003 -1.7660330808E+002  +7.1551729163E-001 -1.0609934343E+000 
8518872.340 +6.9424138950E-001 +6.5038809298E+000  +8.8912004991E-003 +6.6528259146E+001  +1.0121882303E-002 +7.8716642147E+001  +7.2835401023E-001 +3.1005225651E+000 
8644017.522 +6.5845614406E-001 +4.5325090240E+000  +3.0579415124E-003 +6.4471890491E+001  +6.6580769704E-003 +6.8861557114E+001  +6.6484585126E-001 -2.8224960135E+000 
8769162.703 +6.5175718351E-001 +6.9878504977E+000  +7.5260642797E-003 +4.6671354872E+001  +5.0440049593E-003 +5.8614842089E+001  +6.6643184623E-001 +3.0583807309E+000 
8894307.885 +6.4098881582E-001 +3.7808014778E+000  +1.4318398383E-003 +1.1514537575E+002  +3.9582996914E-003 +8.0006953224E+001  +5.9260424422E-001 -1.0861557546E+000 
9019453.066 +6.2391552731E-001 +4.3483317514E+000  +3.2014799485E-003 +7.2522460942E+001  +1.9904566259E-003 +9.6038162972E+001  +5.9818260985E-001 -1.9468295714E+000 
9144598.248 +5.9779579997E-001 +9.5374050056E+000  +4.2322928100E-003 +6.7005474255E+001  +4.7277178833E-003 +4.3591688135E+001  +6.3209674894E-001 -4.3432608536E-001 
9269743.429 +5.5346239022E-001 +5.4616386725E+000  +1.9009773110E-003 +7.1297941615E+001  +6.2253808055E-003 +1.0676987249E+002  +5.8724377306E-001 +3.4976244335E+000 
9394888.611 +5.7135251967E-001 +7.0291341394E+000  +7.6077228128E-003 +1.2202450568E+002  +1.0835801740E-003 +1.4141737873E+002  +5.5468924358E-001 -3.5768547611E+000 
9520033.792 +5.1917479929E-001 +4.3611006281E+000  +2.8937442154E-003 +9.8450234468E+001  +2.2527389194E-003 +1.0740740523E+002  +5.7219783831E-001 -2.4851459978E+000 
9645178.974 +5.5818613491E-001 +4.1643591163E-001  +7.3616082492E-003 +1.2389644464E+002  +6.0741578931E-003 +1.4188648230E+002  +6.2732499728E-001 -8.5960859694E+000 
9770324.155 +5.7565753495E-001 +2.8568139969E+000  +5.4743146002E-003 +1.0638870916E+002  +2.4442329771E-003 +1.0545078194E+002  +5.3937987016E-001 -6.6144612927E+000 
9895469.337 +5.5148538791E-001 -1.1193044383E+000  +5.1291691269E-003 +8.1852685691E+001  +4.7487271111E-003 +8.1538415335E+001  +6.0014344497E-001 -7.3623205589E+000 
10020614.518 +5.4519822346E-001 -1.1787666622E-001  +5.3093492047E-003 +7.5100168517E+001  +7.1815881945E-003 +1.0793489336E+002  +5.8564453338E-001 -5.2252284319E+000 
10145759.700 +5.7708244838E-001 +4.6297529164E+000  +4.1205115865E-003 +1.1981674163E+002  +4.7984934183E-003 +9.4977410622E+001  +5.7743512172E-001 -2.8025311221E+000 
10270904.881 +5.7588870736E-001 +3.3887612614E+000  +5.7882999091E-003 +8.3421529214E+001  +4.8684813846E-003 +1.1006206892E+002  +5.8011229905E-001 -1.1798187125E+000 
10396050.063 +6.3146260742E-001 +3.9001894984E+000  +4.5224983824E-003 +4.6818437380E+001  +5.7346494003E-003 +9.2943865448E+001  +5.9655717104E-001 -2.7807923133E+000 
10521195.244 +5.6247071139E-001 +9.3334181847E+000  +4.5780249728E-003 +8.3148119687E+001  +5.5280814591E-003 +9.2953447669E+001  +5.7937727295E-001 -4.0982207864E-001 
10646340.426 +5.8598725834E-001 +4.6019764653E+000  +2.5855803674E-003 +1.3813501194E+002  +3.2571287792E-003 +1.0450488359E+002  +5.8874716530E-001 -1.7989642087E+000 
10771485.607 +6.0392833558E-001 +9.3974065784E+000  +4.4663358444E-003 +9.6838521451E+001  +3.6807891966E-003 +1.0228297050E+002  +5.9749019972E-001 -2.3642723408E+000 
10896630.788 +5.3291343437E-001 +4.6914152135E+000  +3.4076613629E-003 +7.2206868467E+001  +5.6080153675E-003 +9.7661230742E+001  +5.9314729327E-001 -1.1203098544E+000 
11021775.970 +5.9809548596E-001 +5.6005902556E+000  +3.8587782141E-003 +9.9688691225E+001  +3.2001942448E-003 +8.1331606050E+001  +6.2818513303E-001 +4.2955915700E+000 
11146921.151 +6.1109417216E-001 +7.0126746916E+000  +5.8755669000E-003 +9.7681429431E+001  +3.9182436556E-003 +1.0778773269E+002  +6.1061211695E-001 +1.3865042124E+000 
11272066.333 +5.9969484071E-001 +7.8646036071E+000  +5.5578103596E-003 +8.0668896157E+001  +4.3654104572E-003 +9.1011756844E+001  +5.8789746557E-001 -1.1322326722E+000 
11397211.514 +6.1031339321E-001 +6.4312037469E+000  +6.0207042810E-003 +8.4715611829E+001  +6.0462544931E-003 +9.4048961667E+001  +6.3223664394E-001 +1.9497058928E+000 
11522356.696 +6.2517162519E-001 +6.8680866586E+000  +3.3768380019E-003 +1.1514836900E+002  +6.4839326397E-003 +8.5984409207E+001  +6.2917112390E-001 +4.2751831009E-001 
11647501.877 +6.3153325753E-001 +2.5492436167E-001  +4.8767374443E-003 +9.7299256517E+001  +2.1505193562E-003 +8.9923169601E+001  +6.7710114104E-001 -8.7003847225E-002 
11772647.059 +6.5843642097E-001 +5.1930204045E+000  +4.0575402467E-003 +8.1832265233E+001  +4.7053436931E-003 +1.0236801397E+002  +6.6409887850E-001 +1.7565088680E+000 
11897792.240 +6.6476112864E-001 +4.4513201438E+000  +5.9370971914E-003 +7.6942628626E+001  +3.3274544586E-003 +7.5916272396E+001  +6.6839124185E-001 -6.1273641989E-001 
12022937.422 +6.7241170491E-001 +3.9851184282E+000  +4.9912359663E-003 +1.1389999036E+002  +3.6649194619E-003 +1.1587700271E+002  +6.8469926986E-001 +1.2552175834E+000 
12148082.603 +6.7923497346E-001 +4.3295093163E+000  +6.4183490141E-003 +1.0158380394E+002  +4.3189856773E-003 +9.8268673258E+001  +7.1264573712E-001 +1.4063429102E+000 
12273227.785 +6.9195402900E-001 +2.1554972931E+000  +7.0541843149E-003 +9.6274356878E+001  +6.8031992724E-003 +9.4750568760E+001  +6.9238883821E-001 +1.6826689399E-001 
12398372.966 +6.9631124483E-001 +1.8124041644E+000  +4.6943813900E-003 +9.6008362791E+001  +5.4641805643E-003 +9.2928336685E+001  +7.3277603428E-001 +3.9068715280E-001 
12523518.148 +7.4011916893E-001 +4.6942596770E+000  +6.1014712589E-003 +8.6828769550E+001  +5.1757061776E-003 +1.1899983495E+002  +7.3454330470E-001 -7.1281051998E-001 
12648663.329 +7.4988438819E-001 +1.5575556566E+000  +5.4840911800E-003 +1.0633375352E+002  +7.9201753794E-003 +1.1080382342E+002  +7.6168859676E-001 +1.1317929018E+000 
12773808.511 +7.2794634299E-001 +2.4972069671E+000  +5.4258761220E-003 +9.5009184835E+001  +5.5198654515E-003 +1.0825207200E+002  +7.8316640514E-001 -9.4257186979E-001 
12898953.692 +7.8216522086E-001 +2.0730980009E+000  +6.1008677173E-003 +7.3031591929E+001  +5.3649669326E-003 +8.2076675198E+001  +7.8489832206E-001 -1.8220109132E+000 
13024098.874 +7.9606112105E-001 +7.8715113154E-001  +7.3031503706E-003 +1.0324742347E+002  +7.8709849092E-003 +9.8726710407E+001  +8.0638225245E-001 -2.9128297071E+000 
13149244.055 +8.0865392422E-001 +1.1959644402E-001  +6.6306727573E-003 +8.7242780470E+001  +4.4346601319E-003 +9.7418502993E+001  +8.0384373705E-001 -2.5157949114E-001 
13274389.237 +8.1198766977E-001 -1.9577407144E-001  +5.4788367026E-003 +1.0210386012E+002  +6.9709570477E-003 +9.5500250988E+001  +8.4156014560E-001 -2.7895563443E-001 
13399534.418 +8.4366461566E-001 -1.3383817601E+000  +5.1628158396E-003 +9.4783711707E+001  +6.4047524413E-003 +1.0878478834E+002  +8.2901681448E-001 -2.9267644942E+000 
13524679.599 +8.6221932504E-001 -3.7682660852E-001  +7.4945871247E-003 +9.4130704687E+001  +7.4195968906E-003 +1.0152464853E+002  +8.6462202671E-001 -2.0900829975E+000 
13649824.781 +8.6712087639E-001 -1.5994701189E+000  +6.1968093693E-003 +9.5031053457E+001  +4.1130022203E-003 +1.0692170862E+002  +8.8839759411E-001 -2.7826338903E+000 
13774969.962 +9.0524860819E-001 -2.8520758757E+000  +5.9239144167E-003 +9.8426695108E+001  +8.5798909148E-003 +8.4808695910E+001  +9.1087743862E-001 -3.5776003183E+000 
13900115.144 +9.1023138150E-001 -8.2459323406E-001  +7.3434237345E-003 +8.9240252446E+001  +6.7202030736E-003 +9.9360489842E+001  +9.2105254269E-001 -4.7554239893E+000 
14025260.325 +9.1603857656E-001 -2.6495120501E+000  +7.4697946808E-003 +9.2793475248E+001  +8.2954516011E-003 +7.9946084152E+001  +9.0204560515E-001 -4.4531171885E+000 
14150405.507 +9.5724056298E-001 -3.9507908809E+000  +7.2480664566E-003 +1.0750897937E+002  +6.7215708014E-003 +8.7999056231E+001  +9.7273310184E-001 -4.6535969723E+000 
14275550.688 +9.7390894282E-001 -5.1791783007E+000  +7.5433625283E-003 +9.0026097318E+001  +8.6279297848E-003 +9.1687557353E+001  +9.8365366985E-001 -3.7636158600E+000 
14400695.870 +9.6320243885E-001 -4.5123167484E+000  +7.6508062537E-003 +9.2601137855E+001  +8.7118572633E-003 +8.6769969196E+001  +9.7617727777E-001 -5.9463847526E+000 
