!  2-Port S-parameters saved by WinCal
! VAR MeasName=S-Parameters (CALIBRATED_DATA) read from VNA (P5004A)
! VAR MeasDate=27/08/2024 15:45:55
! VAR NAME=S2_r6c8_SET3_9k-100M_3
! VAR FILENAME=S2_r6c8_SET3_9k-100M_3.S2P
! VAR DATE=27/08/2024 15:45:55
! VAR PHYS_PORTS=1,2
! VAR ObjTypeName=DATASET
! VAR IndexType=Frequency
!
# Hz S MA R 50
9000.000 +7.4559338369E-002 -1.6668181874E+002  +5.7968786111E-003 +3.2724272228E+001  +1.4474121419E-002 +4.4556987996E+001  +3.5769332640E-001 -1.3837344951E+002 
134145.181 +1.1091271922E-001 +1.6961440904E+002  +3.7917865331E-004 -1.0609197205E+001  +1.7595634440E-004 -1.7394576834E+002  +2.4078123828E-001 -1.7101879329E+002 
259290.363 +1.1206114245E-001 +1.7041179285E+002  +6.0708522526E-004 -7.7644518613E+001  +1.4437096553E-004 -9.2867378344E+001  +2.4461026624E-001 -1.6926761728E+002 
384435.544 +1.1394792518E-001 +1.6959741722E+002  +1.5648393654E-004 +9.1643231302E+001  +2.4516423268E-004 -8.8562553932E+001  +2.4227289255E-001 -1.6957006238E+002 
509580.726 +1.1157877025E-001 +1.6992269254E+002  +5.3645181662E-004 -1.0831730739E+002  +6.9012342025E-004 -1.4531102935E+002  +2.3557538156E-001 -1.6579537964E+002 
634725.907 +1.1630906082E-001 +1.7004440554E+002  +5.7794626610E-004 +1.7184946597E+002  +8.7056480263E-004 +6.1890091066E+001  +2.5244055556E-001 -1.6404507635E+002 
759871.089 +1.1422645368E-001 +1.7059185730E+002  +7.1980023235E-004 -1.1895305854E+002  +1.2851893652E-003 +1.7164715434E+002  +2.4576847611E-001 -1.6580855654E+002 
885016.270 +1.1753204224E-001 +1.7000755891E+002  +7.1765907961E-004 +1.4881765678E+002  +4.0824566541E-004 +4.3734622877E+001  +2.3452473755E-001 -1.6707816722E+002 
1010161.452 +1.1746283935E-001 +1.7116884385E+002  +7.1382185396E-004 +1.0744773662E+002  +8.6701890580E-004 +1.7855613332E+002  +1.9949860830E-001 -1.5771486564E+002 
1135306.633 +1.1617882768E-001 +1.7043861503E+002  +1.8586911597E-003 +3.5189461559E+001  +3.4636876877E-004 +6.2721228441E+001  +1.8853202301E-001 -1.7300808538E+002 
1260451.815 +1.2109851085E-001 +1.7181092460E+002  +1.0902964157E-003 -7.0039664137E+001  +1.5780663205E-003 -4.3280149809E+001  +2.1949120561E-001 -1.5367217744E+002 
1385596.996 +1.2827738626E-001 +1.7191703092E+002  +3.3619998263E-004 +1.2622445753E+001  +1.2907343280E-003 +2.1593508494E+001  +2.5009735296E-001 -1.6064257733E+002 
1510742.178 +1.2880791123E-001 +1.7230455261E+002  +1.2492325540E-003 +1.0208903485E+002  +3.5951322773E-004 +5.2720870967E+000  +2.6471859096E-001 -1.5897531328E+002 
1635887.359 +1.2617789226E-001 +1.7060919306E+002  +1.4861939690E-003 -1.3118578626E+002  +1.7217552423E-003 -4.5037638073E-001  +2.2792283792E-001 -1.5913177754E+002 
1761032.541 +1.2730270499E-001 +1.6952504580E+002  +1.4899673250E-003 -1.6746752628E+002  +1.8693665167E-003 +1.6734011365E+002  +2.1226482792E-001 -1.6035094029E+002 
1886177.722 +1.3183532369E-001 +1.6864850750E+002  +1.6945055298E-003 +1.3255612325E+002  +1.5328942339E-003 -1.1606656196E+002  +2.1196391780E-001 -1.6514084620E+002 
2011322.904 +1.2872871008E-001 +1.6822144735E+002  +1.7228316285E-003 -1.4046605652E+002  +2.3490596238E-003 -2.1539706217E+001  +2.1851357904E-001 -1.7127095912E+002 
2136468.085 +1.2947190215E-001 +1.6719213969E+002  +1.4822556639E-003 +1.1656697910E+002  +1.8099617331E-003 +2.3384181485E+001  +1.9004455247E-001 -1.7615493989E+002 
2261613.267 +1.2959419936E-001 +1.6081229841E+002  +2.4143927523E-003 -1.7241809562E+002  +2.5428144703E-003 -1.6271150825E+002  +2.1997587420E-001 +1.7722371113E+002 
2386758.448 +1.3718016974E-001 +1.6356020177E+002  +5.8224730940E-004 +5.5580101035E+001  +5.1685310795E-003 -1.1575838549E+001  +1.9383285844E-001 +1.7262040293E+002 
2511903.630 +1.3583703838E-001 +1.6234165015E+002  +3.6818498855E-003 +1.5306055211E+002  +3.4872591460E-003 +8.3328686530E+000  +2.8154495025E-001 +1.5234801051E+002 
2637048.811 +1.1478657479E-001 +1.5411009173E+002  +3.3710286870E-002 +1.2763672682E+000  +1.1152790320E-002 -3.1020884179E+001  +5.8843945603E-001 -8.8525301817E+001 
2762193.992 +1.1296755301E-001 +1.7379504165E+002  +4.3546042016E-002 -4.9119324283E+001  +3.6228499878E-002 +1.1331776035E+002  +1.0188778838E+000 -9.0628472023E+001 
2887339.174 +1.2147220019E-001 +1.7025235110E+002  +2.6059056239E-002 +3.6923352995E+001  +1.5360569057E-002 +8.6631036068E+000  +5.9993206679E-001 +8.8960486195E+000 
3012484.355 +1.1690023307E-001 +1.7494565108E+002  +2.5747150951E-003 -1.5576788393E+002  +7.2000557833E-003 -9.7446222598E+001  +5.4602903844E-001 -1.1893420788E+002 
3137629.537 +1.0961797370E-001 -1.7935013019E+002  +4.6025769470E-003 +1.2016122744E+002  +6.2957758399E-003 -1.8952871170E+001  +3.6006580205E-001 -9.5279996897E+001 
3262774.718 +1.3123386750E-001 +1.7093046044E+002  +6.3598282934E-003 +1.6287466903E+002  +1.7842759978E-002 -1.1485604407E+002  +4.6031979091E-001 +5.4883800118E+001 
3387919.900 +1.2847239828E-001 +1.5945899717E+002  +2.0394110439E-002 +1.7549829684E+001  +2.5468310147E-002 -1.5797977831E+002  +5.0009022996E-001 -4.5534889302E+001 
3513065.081 +1.4272263462E-001 +1.3799311787E+002  +2.0819526635E-002 -1.1646152020E+002  +1.2131396413E-002 +1.2800990395E+002  +4.8598277855E-001 -6.8304231753E+001 
3638210.263 +1.7122063843E-001 +1.5011674993E+002  +5.4166766685E-003 +2.0204116418E+001  +9.0833528079E-003 +1.0226205991E+002  +2.9263312714E-001 +1.1234899172E+002 
3763355.444 +1.7675901458E-001 +1.2780087586E+002  +2.4783542137E-002 +2.2839838983E+001  +1.0266948386E-002 +2.3896305653E+001  +3.5843169673E-001 +1.2302478445E+002 
3888500.626 +1.6925182076E-001 +1.4796228103E+002  +6.5195755815E-003 -7.9828494527E+001  +2.3772922140E-002 +4.7772466391E+001  +4.6800819999E-001 +3.9999883793E+000 
4013645.807 +1.9047295410E-001 +1.5465539624E+002  +2.6980017720E-003 +9.1653892146E+001  +5.5001494465E-004 +5.8598368162E+001  +3.5326570718E-001 +1.5249274281E+002 
4138790.989 +1.6681617937E-001 +1.4870909848E+002  +5.8731576516E-003 -1.7285243391E+002  +6.5512179815E-003 -1.4620966981E+001  +4.2110813302E-001 +1.3642950494E+002 
4263936.170 +1.9159792972E-001 +1.4799692182E+002  +8.2809713786E-003 +7.2193667239E+000  +4.7349673428E-003 +5.6019617222E+001  +6.4667461769E-001 +1.2723983385E+002 
4389081.352 +2.6645528251E-001 +1.3403821053E+002  +6.4527011043E-002 +1.5474425494E+002  +6.1596922638E-002 +5.8817782512E+001  +1.9925605305E+000 +1.0709426210E+002 
4514226.533 +2.8388978469E-001 +1.3421273911E+002  +5.3484390321E-002 -4.3960422091E+001  +8.5326313493E-002 -4.0542668018E+001  +5.3514376638E+000 -8.0516948981E+001 
4639371.715 +2.9552390067E-001 +1.2477537787E+002  +2.4828758352E-002 -1.7134457059E+002  +4.3382366293E-002 +9.6027226650E+001  +1.0004804147E+000 +8.3232679781E+001 
4764516.896 +3.4665695292E-001 +1.3014207019E+002  +2.2334618127E-002 -1.5730832220E+002  +1.6557255651E-002 -1.6450166244E+002  +2.6681848856E+000 -7.6774591991E+001 
4889662.078 +3.5144397145E-001 +1.3893489442E+002  +5.7581878654E-003 -9.4097406410E+001  +1.5749099601E-002 -1.5912721002E+002  +2.0748281631E+000 -9.4775966751E+001 
5014807.259 +3.4937243054E-001 +1.2785704339E+002  +1.2531255437E-001 -6.4068027917E+001  +2.4541661879E-001 -5.5238250006E+001  +1.2041601086E+001 -8.6821356431E+001 
5139952.441 +4.0022135135E-001 +1.2692971579E+002  +1.0057333626E-001 -3.2004002855E+001  +4.9802815608E-002 -3.4844008650E+001  +5.8246118400E+000 -1.2120403697E+002 
5265097.622 +4.1093713051E-001 +1.3146192851E+002  +1.0280869461E-002 +1.6838141123E+002  +3.3117922182E-002 -1.4809696157E+002  +2.0848816920E+000 +1.0500786247E+002 
5390242.804 +3.3885521661E-001 +1.2354683931E+002  +3.6153281086E-002 -1.7831460732E+000  +3.9278588373E-002 -1.1816591018E+002  +2.9141658077E+000 +2.4916913923E+000 
5515387.985 +3.8371650563E-001 +1.2229929415E+002  +1.4775191004E-002 +5.0052408202E+001  +8.5931456650E-003 +1.4842082787E+002  +1.2806952770E+000 +6.7047322123E+001 
5640533.166 +4.3635448216E-001 +1.2277938832E+002  +2.2871375465E-002 +7.0075304221E+001  +2.6860264118E-002 +4.5838319900E+001  +1.4837590085E+000 +4.8784137765E+001 
5765678.348 +5.3366356446E-001 +1.3207568514E+002  +5.0707091914E-002 +4.1397058194E+001  +6.4464048944E-002 +1.0339920404E+002  +5.4320858963E+000 +7.5565154654E+001 
5890823.529 +4.5598493996E-001 +1.2206580457E+002  +2.6224998339E-002 +4.3147429568E+001  +2.1708876419E-002 +9.5756792926E+000  +1.9261518551E+000 +9.3300392771E+001 
6015968.711 +6.8435603231E-001 +1.1174414821E+002  +3.9658117579E-002 +7.7922535507E+001  +1.2804658735E-002 -2.9323665445E+001  +1.5085302792E+000 +3.5787993854E+001 
6141113.892 +6.8559624875E-001 +1.1178669018E+002  +3.1225040021E-002 +1.1743477065E+002  +1.4449243189E-002 -6.2297590147E+000  +1.4917397286E+000 +5.2287539287E+001 
6266259.074 +9.5119688929E-001 +9.9719784480E+001  +3.4545925766E-002 +1.3611709929E+001  +1.3946785284E-002 +1.7806983009E+002  +2.0644765577E+000 +1.3369514141E+001 
6391404.255 +1.1296858929E+000 +1.0278463122E+002  +3.5930973866E-002 +7.3893628106E+001  +2.5651930652E-002 +7.0683583309E+001  +1.3878798821E+000 +1.0045141277E+001 
6516549.437 +1.2675998284E+000 +8.6870755233E+001  +2.2948023180E-002 +6.7772723598E+001  +2.1192616803E-002 +3.8313922146E+001  +1.4677559771E+000 -2.0732149815E+000 
6641694.618 +1.1636182111E+000 +7.5796724392E+001  +3.6312363833E-002 +7.0566081414E+001  +2.2807956473E-002 +4.4903026607E+001  +1.2236756248E+000 +6.8835667481E+000 
6766839.800 +1.5728778974E+000 +6.7601308744E+001  +3.1246954408E-002 +5.0603010262E+001  +4.1073681449E-002 +5.6034301603E+001  +1.3118837672E+000 +5.9349368146E+000 
6891984.981 +1.8257982287E+000 +3.4515755161E+001  +2.6130469951E-002 +4.9049801660E+001  +3.9255831391E-002 +3.8608132109E+001  +1.4744821698E+000 -5.3063823872E+000 
7017130.163 +1.9880945676E+000 +1.1065529221E+001  +3.7936961068E-002 +1.4021687602E+001  +3.8358062314E-002 -2.0230295056E+001  +1.3365114843E+000 -1.2100715132E+001 
7142275.344 +1.5120043987E+000 +9.2632873849E+000  +2.6353647251E-002 +2.2012657385E+000  +2.7468748362E-002 +1.9660649139E+001  +1.4735793176E+000 -1.5370798391E+001 
7267420.526 +1.6202878949E+000 +2.1807633669E+000  +2.2987313838E-002 +7.0687441746E+001  +1.4495024680E-002 -4.5855164292E+001  +1.2681929764E+000 -1.8277942695E+000 
7392565.707 +1.3614244536E+000 -2.2081182173E+000  +1.4518660127E-002 +2.0659449563E+001  +1.2184904332E-002 +3.3528808902E+001  +1.2759228672E+000 -7.6331098469E+000 
7517710.889 +1.2847221852E+000 +5.4005059615E+000  +9.3874785257E-003 +6.6321431542E+001  +1.2636808293E-002 +4.1467130055E+001  +1.0697940674E+000 -5.8087832543E+000 
7642856.070 +1.0338385558E+000 +3.1621352114E+000  +6.9882420955E-003 +2.1735395103E+001  +1.3074526038E-002 +4.2429682419E+001  +1.0643837447E+000 -7.1542128525E+000 
7768001.252 +9.8708144872E-001 +6.0721421343E+000  +1.5686976918E-002 +3.1508377907E+001  +1.1561889694E-002 -2.7824039059E+000  +1.1499423591E+000 -4.4047429619E+000 
7893146.433 +9.3988638785E-001 -2.7071440796E+000  +1.1404405348E-002 +2.7941260609E+001  +7.0243894750E-003 +5.4037655229E+001  +9.5556671571E-001 -7.5967278605E+000 
8018291.615 +8.2354718664E-001 +8.6926507394E+000  +1.3560342673E-002 +1.4035021844E+001  +6.9081178845E-003 -3.0345460044E+001  +9.0691372331E-001 -5.7576992259E+000 
8143436.796 +7.3259215945E-001 +5.4345465643E+000  +1.7656439861E-002 +2.4945611209E+001  +8.9550569077E-003 +4.9660547000E+001  +7.7569353044E-001 -5.7822662937E+000 
8268581.977 +7.0232142435E-001 +4.3045159925E+000  +1.0183425315E-002 +4.2528400052E+000  +9.1019837099E-003 -3.2394778447E+001  +7.5802972788E-001 +1.7226204788E-001 
8393727.159 +7.0329727604E-001 +8.5459815772E+000  +1.3564245787E-002 +3.5160706870E+001  +7.1997476139E-003 +4.2781355146E+001  +7.4726549927E-001 -2.5965409478E+000 
8518872.340 +6.3947561579E-001 +6.6102351173E+000  +8.9075500964E-003 +1.6874934863E+001  +6.5205056254E-003 +4.7017460300E+001  +6.6964633935E-001 +1.1533868614E+000 
8644017.522 +6.6315434387E-001 +9.4833195931E+000  +7.9194590540E-003 +1.7936106419E+001  +1.3935753338E-002 +3.6153514464E+001  +7.3240656021E-001 -4.9984208759E+000 
8769162.703 +6.5440242425E-001 +6.1864533605E+000  +8.4329079626E-003 +4.8752192857E+001  +9.1483354587E-003 +5.9623568704E+001  +6.7571044401E-001 -2.5542404102E+000 
8894307.885 +5.8705927139E-001 +6.7227193230E+000  +6.7917799341E-003 -9.9235600491E+000  +9.0871203114E-003 +2.9462450266E+001  +6.0080651553E-001 +5.0316543236E-001 
9019453.066 +5.7679947736E-001 +9.0764490044E+000  +7.9579274795E-003 +2.0138755216E+001  +9.4072858904E-003 +1.4760299685E+001  +6.7125640942E-001 +3.9804934372E-001 
9144598.248 +5.3678617700E-001 +4.0913503417E+000  +1.1968190525E-002 +3.2134561671E+001  +4.4405202416E-003 +2.4006290422E+001  +6.0122333391E-001 +2.1908040291E-001 
9269743.429 +5.7255773114E-001 +1.0090521162E+001  +7.5379717869E-003 +2.2775660366E+001  +9.2472587135E-003 +1.9219029712E+001  +6.1821238779E-001 +2.3980019825E+000 
9394888.611 +5.3120410203E-001 +2.2004986776E+000  +8.9302392426E-003 +3.1201197646E+001  +1.4308292494E-002 +3.8398604231E+001  +5.6754318861E-001 -3.9851398251E+000 
9520033.792 +5.5395295004E-001 -3.0266844221E-002  +9.2459437390E-003 -1.2005989296E+000  +9.4727758717E-003 +4.2172976329E+001  +6.3535609124E-001 -1.7860088556E+000 
9645178.974 +5.4867372878E-001 +1.3765726322E+000  +1.0444692506E-002 +3.2072698512E+001  +7.6843066564E-003 +4.3480147884E+001  +5.2904716358E-001 -1.1156288537E+000 
9770324.155 +5.4276919640E-001 +5.7650294813E-003  +7.7497700523E-003 +2.9419355435E+001  +8.3214608148E-003 +5.8505025142E+001  +6.0365418965E-001 -4.7222764790E+000 
9895469.337 +5.2807172594E-001 -3.4370760222E-001  +1.1204737435E-002 +6.0738631651E+000  +8.9827262881E-003 +3.0326485902E+001  +6.0899037089E-001 -8.6598623306E-001 
10020614.518 +5.1309270122E-001 -1.5260242491E+000  +9.5726061810E-003 +4.2366023515E+001  +7.8522825226E-003 +4.5967374409E+001  +5.7246603738E-001 -7.5806708422E+000 
10145759.700 +5.7566789171E-001 +4.1541056426E+000  +8.1116476841E-003 +1.2515672578E+001  +1.1146249072E-002 +3.1961195394E+001  +5.8156804043E-001 -4.7110454723E+000 
10270904.881 +5.3824331136E-001 +8.5537211361E-001  +1.2019156061E-002 +2.4668825393E+001  +9.8460710285E-003 +4.7098321669E+001  +5.5487133302E-001 -4.7915741185E+000 
10396050.063 +5.2895260572E-001 +1.4490929832E+000  +5.9419858975E-003 +1.7700280895E+001  +9.5557771647E-003 +3.3716324487E+001  +5.8579249329E-001 -2.6634816173E+000 
10521195.244 +5.3211740909E-001 +6.6841405939E+000  +1.0005989618E-002 +2.7258086733E+001  +7.5207167767E-003 +4.5563752560E+001  +6.0316443651E-001 -1.0967948350E+000 
10646340.426 +5.2121701178E-001 +7.2101786674E+000  +1.0501569445E-002 +2.3460476541E+001  +1.1456754964E-002 +3.6201131897E+001  +5.9175238930E-001 -2.3102796069E+000 
10771485.607 +5.1345067239E-001 +3.8115323797E+000  +8.5692259112E-003 +3.0857990549E+001  +8.9281279695E-003 +3.3747236285E+001  +5.7111959693E-001 -1.3226214277E+000 
10896630.788 +5.9734844582E-001 +6.1598920238E+000  +7.9042493547E-003 +3.6837948301E+001  +1.0203116974E-002 +4.6401698362E+001  +6.3071265283E-001 +2.2477064187E+000 
11021775.970 +5.9669779625E-001 +8.3001286469E+000  +1.1325736442E-002 +2.6616277367E+001  +1.0022317312E-002 +4.5150988564E+001  +6.2948693133E-001 -9.5994240663E-001 
11146921.151 +5.8339005681E-001 +5.3572848554E+000  +9.3082722116E-003 +3.9046275680E+001  +1.0946143759E-002 +3.6679689267E+001  +6.1101579847E-001 -2.1394843948E+000 
11272066.333 +5.9135665613E-001 +3.1314705827E+000  +1.0683942186E-002 +2.0831665603E+001  +9.2924406929E-003 +4.2993177925E+001  +6.3181215042E-001 +3.4267820269E+000 
11397211.514 +5.9648150844E-001 +4.6594683867E+000  +8.2838732680E-003 +2.4816261653E+001  +8.7500556676E-003 +4.9217584536E+001  +6.3290963070E-001 +2.3271078447E-001 
11522356.696 +6.5069577252E-001 +7.2674731931E+000  +1.1003961720E-002 +1.9710846412E+001  +8.7110278253E-003 +4.2969272822E+001  +6.4538101195E-001 -1.0402814383E+000 
11647501.877 +6.3437408630E-001 +3.1541597426E+000  +6.9743968883E-003 +2.6804655577E+001  +1.0468098403E-002 +3.7269065664E+001  +6.1658751342E-001 +3.8510479751E+000 
11772647.059 +6.3832424057E-001 +3.7011924269E+000  +9.9838079116E-003 +2.3510378399E+001  +1.0357364122E-002 +3.9818957217E+001  +6.5318703583E-001 -2.6587594537E-001 
11897792.240 +6.1730796447E-001 +3.8871933111E+000  +1.0039678051E-002 +3.3248384459E+001  +7.7020919979E-003 +3.5523875676E+001  +6.5398078320E-001 -1.0925917766E+000 
12022937.422 +6.5014701153E-001 +3.8351880126E+000  +1.2105902387E-002 +3.2491381914E+001  +1.0696845579E-002 +3.3144006725E+001  +6.6792092029E-001 +9.1648697970E-001 
12148082.603 +6.6821766755E-001 +4.8963412028E+000  +1.1534892597E-002 +3.3581531283E+001  +9.6971507767E-003 +3.3110279351E+001  +6.7853829813E-001 +7.9889146132E-001 
12273227.785 +6.8804070631E-001 +3.4322499128E+000  +1.1622097017E-002 +3.1590391177E+001  +1.3086546205E-002 +3.6731838694E+001  +7.1261755389E-001 +4.0699158345E-001 
12398372.966 +6.8998439974E-001 +3.9764245134E+000  +1.1907651433E-002 +3.7617388799E+001  +1.1957388345E-002 +4.9074797908E+001  +7.3383155482E-001 -5.7524546378E-001 
12523518.148 +7.1720247365E-001 +1.9220540456E+000  +1.1384263063E-002 +3.2228889489E+001  +1.0007897764E-002 +3.6100843394E+001  +7.3965972226E-001 -2.7208996492E-001 
12648663.329 +7.1632995814E-001 +2.6215313054E+000  +1.0809517926E-002 +3.2888032226E+001  +1.1519266225E-002 +2.8360618597E+001  +7.2596356623E-001 +8.1215016117E-001 
12773808.511 +7.5283538791E-001 +3.2361228513E+000  +1.0421296499E-002 +2.5018076521E+001  +1.2255167737E-002 +3.8020998424E+001  +7.6502069269E-001 -7.0055940277E-001 
12898953.692 +7.6552697138E-001 +1.0170421127E+000  +1.0628224762E-002 +3.7801645290E+001  +1.2258283159E-002 +3.4784718199E+001  +8.0030175560E-001 -1.1775166290E+000 
13024098.874 +7.9406391180E-001 +2.4597421932E-001  +1.3341396081E-002 +2.9853183602E+001  +1.0505576934E-002 +3.7522336156E+001  +8.0597857121E-001 -2.6721870184E+000 
13149244.055 +7.9006693787E-001 +6.5972253156E-001  +1.2030723331E-002 +3.9324246470E+001  +1.0868285403E-002 +3.3898058166E+001  +7.9962362442E-001 -5.5802780221E-001 
13274389.237 +8.1275874845E-001 -5.9735286169E-001  +1.1853828927E-002 +3.4710442867E+001  +1.3183264502E-002 +4.4570122862E+001  +8.3434887583E-001 -1.7800980370E+000 
13399534.418 +8.1730788024E-001 +4.5735120516E-001  +1.1560198324E-002 +3.5830008624E+001  +1.1575695437E-002 +3.4122014809E+001  +8.5913080991E-001 -1.8921524037E+000 
13524679.599 +8.2674424712E-001 -1.4290054712E+000  +1.1412803332E-002 +4.6813707996E+001  +1.1765825088E-002 +3.6815037548E+001  +8.5466579947E-001 -2.4377818438E+000 
13649824.781 +8.6335705324E-001 -2.3359711383E+000  +1.4172516070E-002 +3.6757164640E+001  +1.2451218211E-002 +4.5182549908E+001  +8.8214171234E-001 -2.1993242517E+000 
13774969.962 +8.8404614145E-001 -1.9465894574E+000  +1.3026629235E-002 +3.4158837103E+001  +1.4059364831E-002 +3.0491317825E+001  +8.8236680054E-001 -2.3473011749E+000 
13900115.144 +8.8259383727E-001 -3.3563827188E+000  +1.2718554286E-002 +3.6083443440E+001  +1.2657907423E-002 +3.3286638409E+001  +9.1561281129E-001 -4.2436944497E+000 
14025260.325 +9.0686752763E-001 -4.8364167524E+000  +1.2143333424E-002 +3.9695368312E+001  +1.3320935614E-002 +3.6378472683E+001  +9.3304818970E-001 -4.8702343133E+000 
14150405.507 +9.2588165430E-001 -3.9681022740E+000  +1.3564108749E-002 +3.4317325880E+001  +1.2456505998E-002 +3.1955202920E+001  +9.3791972970E-001 -3.0928146543E+000 
14275550.688 +9.3806935937E-001 -4.1970657458E+000  +1.4148154972E-002 +3.2253337467E+001  +1.3257385436E-002 +3.5429072827E+001  +9.6923162512E-001 -5.2655810284E+000 
14400695.870 +9.4751163356E-001 -5.1350616696E+000  +1.3693213547E-002 +3.2493234492E+001  +1.2513809015E-002 +3.8783621020E+001  +9.6684389837E-001 -4.0962926777E+000 
