!  2-Port S-parameters saved by WinCal
! VAR MeasName=S-Parameters (CALIBRATED_DATA) read from VNA (P5004A)
! VAR MeasDate=27/08/2024 15:26:48
! VAR NAME=S2_r6c8_formed_9k-100M_3
! VAR FILENAME=S2_r6c8_formed_9k-100M_3.S2P
! VAR DATE=27/08/2024 15:26:48
! VAR PHYS_PORTS=1,2
! VAR ObjTypeName=DATASET
! VAR IndexType=Frequency
!
# Hz S MA R 50
9000.000 +6.5572876514E-002 -1.4957969924E+002  +2.8793275512E-002 -7.3325987494E+001  +3.3575638034E-002 -1.0754901337E+002  +2.9790547053E-001 -1.2290773611E+002 
134145.181 +1.1077348488E-001 +1.6933285258E+002  +5.7452854789E-004 -9.9625710634E+001  +4.1664992083E-004 -3.9702417802E+000  +2.4381042049E-001 -1.7160870664E+002 
259290.363 +1.1118416424E-001 +1.7012506323E+002  +2.8995276812E-004 +2.9114631789E+001  +3.2793972524E-004 +8.3801930589E+000  +2.4792398267E-001 -1.6967403631E+002 
384435.544 +1.1435282314E-001 +1.7028734733E+002  +6.7811219676E-004 +9.4142038631E+001  +6.2500691480E-004 +1.5045695968E+002  +2.4727423635E-001 -1.6878547970E+002 
509580.726 +1.1362669455E-001 +1.6989451350E+002  +2.2226353405E-005 +1.7368623357E+002  +4.0639433364E-004 +1.2919149563E+002  +2.5659451678E-001 -1.6671188003E+002 
634725.907 +1.1485951139E-001 +1.7061538057E+002  +1.7906408802E-003 -1.4482714052E+002  +2.4083863699E-004 +8.5370219250E-001  +2.4651229382E-001 -1.6378617537E+002 
759871.089 +1.1704185808E-001 +1.7107888529E+002  +3.4371283833E-004 +7.0959822177E+001  +2.9769802270E-004 +1.2279488818E+002  +2.4352919183E-001 -1.6317552339E+002 
885016.270 +1.2010922432E-001 +1.6942623945E+002  +7.1804261028E-004 -1.3326204782E+002  +8.3595825115E-004 +1.7348132674E+002  +2.3800679472E-001 -1.6633242370E+002 
1010161.452 +1.1171144583E-001 +1.6971522262E+002  +2.2567163332E-003 -7.2661341337E+001  +3.9058059737E-003 +1.0706063794E+002  +1.9798582459E-001 -1.6066597183E+002 
1135306.633 +1.1564961084E-001 +1.6809701850E+002  +1.9885184740E-003 -5.6910808968E+001  +8.1009905325E-003 -1.3910809005E+002  +7.4328085494E-002 -1.5022188933E+002 
1260451.815 +1.1948956193E-001 +1.7219739629E+002  +9.2441472580E-004 -2.3165093755E+001  +3.8015898897E-004 +4.1788056341E+001  +2.4092335727E-001 -1.6087228687E+002 
1385596.996 +1.2278564091E-001 +1.7107844754E+002  +1.3933043003E-003 -3.3567369063E+001  +3.7786134138E-004 -4.9935678128E+001  +2.6646932578E-001 -1.5815147051E+002 
1510742.178 +1.2895888006E-001 +1.7226583322E+002  +9.0994831709E-004 +1.3447109500E+002  +5.0583478750E-004 +1.2746317989E+002  +2.5689761353E-001 -1.5817402649E+002 
1635887.359 +1.2758886234E-001 +1.6974640631E+002  +5.7924438938E-004 -6.3122177354E+001  +1.1936158784E-003 +6.0339856027E+001  +2.4178405551E-001 -1.5759043617E+002 
1761032.541 +1.2933279548E-001 +1.6945070390E+002  +8.4397132569E-004 +5.9273812902E+001  +6.0466057535E-004 +1.6222904981E+002  +2.3470756338E-001 -1.5931818570E+002 
1886177.722 +1.2818505289E-001 +1.6875831709E+002  +3.0356103820E-003 +1.7081502248E+002  +1.5819868480E-003 -8.8388213871E+001  +1.9761696458E-001 -1.7314017955E+002 
2011322.904 +1.2839951352E-001 +1.6756362335E+002  +2.4297430234E-003 +4.0138856169E+001  +6.0822406752E-004 +5.5665237532E+000  +2.0410735205E-001 -1.6427352676E+002 
2136468.085 +1.2972586428E-001 +1.6884632460E+002  +1.1105555636E-003 -4.3986594376E+001  +2.0469650357E-003 -1.1927281498E+002  +2.1068115194E-001 -1.7426864438E+002 
2261613.267 +1.3027362268E-001 +1.6557486376E+002  +4.2873462945E-003 +8.3363872672E+001  +5.0130128318E-003 -1.2738097938E+002  +2.9150644783E-001 +1.6435842671E+002 
2386758.448 +1.3580178789E-001 +1.5667128767E+002  +2.1038489392E-003 +2.8399805628E+001  +2.7493946188E-003 -2.1265601659E+001  +2.5572308411E-001 +1.7103164665E+002 
2511903.630 +1.3229611377E-001 +1.6097613568E+002  +2.6475848344E-003 +3.5583782901E+001  +2.0014943103E-003 +4.0675249419E+001  +2.1428467206E-001 +1.7907378805E+002 
2637048.811 +1.0194920690E-001 +1.4971971809E+002  +3.8335536729E-003 +8.9335398794E+001  +2.3795657682E-002 +1.9344313445E+000  +5.4885324714E-001 +1.4401107817E+002 
2762193.992 +1.1752201468E-001 +1.5446794735E+002  +1.5856850214E-002 +9.9005869667E+001  +1.4475845896E-002 +1.4721212340E+002  +4.5206622326E-001 +8.2676447805E+001 
2887339.174 +8.1754457510E-002 +1.7114658266E+002  +1.5898285607E-002 +2.3018101291E+001  +1.0664533998E-002 -5.5777792495E+001  +5.1255553620E-001 -1.0852118361E+002 
3012484.355 +1.2133510603E-001 +1.7304593808E+002  +2.5211029765E-002 +1.1200507020E+001  +2.2362593145E-002 -6.3359037744E+001  +3.4579655155E-001 +2.7336584240E+000 
3137629.537 +8.4270891534E-002 +1.7813357573E+002  +1.3444176615E-002 +1.1473158537E+001  +6.5954576160E-003 +1.5621059840E+002  +1.1161487151E-001 -1.0851897411E+002 
3262774.718 +1.2901877433E-001 +1.5490990159E+002  +1.1508764839E-002 +1.1269931602E+002  +1.9395475267E-002 +1.0320092655E+001  +2.6846933083E-001 +6.6844126327E+001 
3387919.900 +7.8330295674E-002 +1.7001311300E+002  +2.5066108559E-002 +4.5303531576E+001  +2.1049132836E-002 -6.0166803736E+001  +4.2123551110E-002 -1.0060677095E+002 
3513065.081 +1.3776884319E-001 +1.4990337244E+002  +2.6612044838E-002 +1.3128294470E+002  +1.0087531814E-002 -4.6084532788E+001  +8.9817416532E-001 +1.1540687657E+002 
3638210.263 +1.7358442819E-001 +1.3807524358E+002  +1.6938854037E-002 -8.5393311045E+001  +4.0469406005E-002 +7.7589773451E+001  +1.0330328152E+000 +1.3916810990E+002 
3763355.444 +1.6566985262E-001 +1.5363402914E+002  +3.3746242988E-002 +1.1191595584E+002  +4.1743739253E-002 +4.0716401394E+001  +2.1502597214E+000 +1.0203757429E+002 
3888500.626 +1.7423893760E-001 +1.4790717201E+002  +1.6224274248E-002 +1.3133394159E+002  +5.4250340035E-003 +7.1595774225E+000  +3.3843489163E-001 +1.4572946363E+002 
4013645.807 +1.8850952455E-001 +1.4394396633E+002  +1.3227359056E-002 +8.4972221001E+001  +9.0782068719E-003 +7.5373700953E+000  +4.1695941641E-001 +8.8976686335E+001 
4138790.989 +1.6789889206E-001 +1.4247206052E+002  +7.8419205960E-003 +1.3802795102E+002  +1.7825415070E-003 -8.3459410843E+001  +2.7658927769E-001 +1.2202549255E+002 
4263936.170 +1.9708668008E-001 +1.4309480719E+002  +8.8055955980E-003 +1.1482899707E+002  +1.8550448949E-002 +1.0306484898E+002  +5.8167272253E-001 +1.4455317166E+002 
4389081.352 +1.8969375106E-001 +1.3289839265E+002  +7.4813879284E-003 +8.8086247087E+001  +9.7740651717E-003 +4.9060895844E+001  +3.9493626115E-001 +1.1035792839E+002 
4514226.533 +2.4566950351E-001 +1.3791280604E+002  +2.6521041611E-002 +1.2786653094E+002  +3.5264686735E-002 +1.2863048868E+002  +1.4215676083E+000 +1.0318896021E+002 
4639371.715 +3.4182801468E-001 +1.2891644121E+002  +2.5775659975E-002 -2.4461571743E+001  +7.2758982695E-002 -1.1732470272E+002  +2.7287835593E+000 -1.2648162682E+002 
4764516.896 +3.2697518119E-001 +1.0103647085E+002  +7.3077512359E-002 +1.2554619059E+002  +1.2761981112E-001 +4.0235692234E+001  +2.0347455132E+000 +9.3220523508E+001 
4889662.078 +3.8731520578E-001 +1.3527317610E+002  +2.7838384225E-002 -9.5965354528E+001  +2.8749432586E-002 -1.6531943120E+002  +2.5938080501E+000 -1.3475061770E+002 
5014807.259 +3.0607997937E-001 +1.3583663282E+002  +3.6963161864E-002 +1.1909948981E+002  +1.3653357313E-001 +3.9898999651E+001  +4.5256687002E+000 +3.0725902641E+001 
5139952.441 +4.5634844930E-001 +1.3858315012E+002  +4.0233413947E-002 +1.5964493588E+002  +8.9403770190E-002 +1.0629955189E+002  +3.8490177366E+000 +8.4134765518E+001 
5265097.622 +4.4619502249E-001 +1.3184268123E+002  +3.0290617712E-002 +1.4521719740E+002  +4.9810608918E-002 +1.6537268977E+002  +2.2902007327E+000 +1.2357647162E+002 
5390242.804 +4.0399486667E-001 +1.3609173548E+002  +2.2790031813E-002 +1.2568852103E+002  +4.3945128321E-002 +6.3895629079E+001  +2.3363677274E+000 +8.0077332903E+001 
5515387.985 +4.2819999873E-001 +1.3170048664E+002  +2.8668413537E-002 +8.7633337474E+001  +2.6570064375E-002 +5.8127070083E+001  +1.7601289906E+000 +8.0695382049E+001 
5640533.166 +4.6066536058E-001 +1.2419490154E+002  +3.1399259152E-002 +1.3242566689E+002  +3.2543288088E-002 +7.3149284238E+001  +2.4878480449E+000 +8.8191269112E+001 
5765678.348 +5.5534073821E-001 +1.2142968791E+002  +4.0482092984E-002 +4.8689224908E+001  +4.6278529915E-002 +5.7385046237E+001  +2.3236394401E+000 +6.0594413423E+001 
5890823.529 +4.9939523449E-001 +1.1288439201E+002  +1.7594223132E-002 +5.0580902035E+001  +3.0525401050E-002 +7.3431811843E+001  +2.1364731609E+000 +6.8343746866E+001 
6015968.711 +7.1745164557E-001 +1.1356202735E+002  +5.1632561001E-002 +7.8728304461E+001  +3.4003855299E-002 +8.2994652352E+001  +2.1182563359E+000 +5.8546503552E+001 
6141113.892 +6.6366212596E-001 +1.1838525616E+002  +3.4499027924E-002 +7.3184994566E+001  +4.7721530093E-002 +5.9393796671E+001  +2.3545517731E+000 +2.5028253391E+001 
6266259.074 +8.0782267995E-001 +9.5475252855E+001  +6.0703713150E-002 +4.1731348725E+001  +4.3299777972E-002 +6.8032455121E+001  +1.4087442224E+000 +2.8884759051E+001 
6391404.255 +9.6323870490E-001 +1.0006401078E+002  +4.1397199747E-002 +5.8104335645E+001  +3.3583265628E-002 +3.3919507203E+001  +1.2513771497E+000 +3.3909669652E+001 
6516549.437 +1.1512427699E+000 +8.5502949914E+001  +4.4573409548E-002 +4.5415243702E+001  +3.8749366447E-002 +4.9564003889E+001  +1.4123989930E+000 +1.2687439628E+001 
6641694.618 +1.5126965535E+000 +5.6299674864E+001  +9.1504008694E-002 +2.5868261212E+001  +7.3376146576E-002 +4.0318582385E+001  +1.2899171191E+000 +9.7334403784E+000 
6766839.800 +1.6089783795E+000 +6.0719727041E+001  +5.0035087036E-002 +5.5658989916E+001  +5.6747355605E-002 +1.7859347754E+001  +1.5587359181E+000 -3.9022601189E+000 
6891984.981 +2.3126412332E+000 +3.5293356610E+001  +3.2739170602E-002 +5.2384012452E+001  +5.9199674958E-002 +1.5115925494E+001  +1.1983558474E+000 -1.0912102192E+001 
7017130.163 +2.3209924713E+000 +6.8737455316E+000  +5.0263973665E-002 -8.1751359983E+000  +2.4592768969E-002 +4.2720536745E+001  +1.1103894751E+000 -1.6041797953E+001 
7142275.344 +1.7761671888E+000 +7.8302905410E+000  +2.8111112790E-002 +1.0877610837E+001  +4.7730110464E-002 +3.0317808669E+001  +1.2921911505E+000 -8.8313298787E+000 
7267420.526 +1.5187165597E+000 +8.2987006170E+000  +2.7353772497E-002 +1.6674862140E+000  +2.1317660108E-002 +1.2355363393E+001  +1.1763484726E+000 -7.9667737993E+000 
7392565.707 +1.3775587808E+000 -1.4159582176E+000  +1.6386743108E-002 -8.9464733793E+000  +2.8927127505E-002 +8.4749588723E+000  +1.2313075091E+000 -8.7646310839E+000 
7517710.889 +1.2016371036E+000 -5.6081787344E+000  +3.0153034679E-002 +4.7566030492E+000  +1.9176940224E-002 +7.7399587967E-001  +1.2523672394E+000 -4.2365362488E+000 
7642856.070 +1.1181077818E+000 -6.6770296818E-001  +2.9314895923E-002 +2.5120717221E+001  +1.7151557747E-002 +2.5644791300E+001  +1.0451753945E+000 -3.2067794854E+000 
7768001.252 +9.3069426795E-001 -6.0703099778E-002  +1.9051009448E-002 +2.0426231274E+001  +1.5630298523E-002 +2.1426028825E+001  +9.5841850272E-001 +9.7335581823E-001 
7893146.433 +9.3165747333E-001 +8.7819630887E+000  +1.7384947461E-002 +1.9368906012E+001  +1.8133846919E-002 +1.4245848373E+001  +8.6708860394E-001 +8.4680699935E-001 
8018291.615 +8.6927470871E-001 +1.1993724045E+001  +2.0158908226E-002 -4.1540206166E-001  +1.7789086081E-002 +1.6642973609E+001  +8.1039430032E-001 +3.0976268028E+000 
8143436.796 +8.0456624665E-001 +7.1072175421E+000  +2.1368713488E-002 -3.6911799067E+000  +1.8034073219E-002 +3.7798754982E+000  +7.3250393546E-001 -1.2879377903E+000 
8268581.977 +7.1142739855E-001 +5.6925301355E+000  +1.3039424399E-002 +8.9957113689E+000  +1.7238519741E-002 +3.3658361471E+001  +7.5613931043E-001 +6.1783261269E-001 
8393727.159 +6.6576377429E-001 +3.2577854869E+000  +1.5999475646E-002 -2.8022133526E+000  +1.4489131874E-002 +2.0948871827E+001  +8.0848737345E-001 +2.6472407705E+000 
8518872.340 +7.1482588367E-001 +1.2056512416E+001  +1.2967279116E-002 +9.6943152160E-002  +1.2531918103E-002 +2.6776263528E+001  +6.9481510699E-001 +4.2309467594E+000 
8644017.522 +6.7737751791E-001 +1.0473967449E+001  +1.6164186811E-002 +1.5923737237E+001  +1.1888835568E-002 +2.6999658071E+001  +6.6533539202E-001 -3.7396944615E+000 
8769162.703 +5.9932922758E-001 +1.0601317871E+001  +1.8726755805E-002 +1.2791599574E+000  +9.9171858554E-003 +1.1950666195E+000  +6.4256667611E-001 -2.5634429373E+000 
8894307.885 +5.8134385139E-001 +9.4285230534E+000  +1.4887393509E-002 -1.5963495348E+001  +1.6740511043E-002 +2.6982249151E+001  +6.6471663742E-001 -6.2357194933E-002 
9019453.066 +5.9592185901E-001 +8.5083837383E+000  +1.2855086404E-002 +1.5160196158E+001  +1.4726208605E-002 +4.2546303925E+001  +6.0084158375E-001 +2.6507409148E+000 
9144598.248 +5.3746064607E-001 +1.0599924040E+001  +2.1405201443E-002 +8.5629534569E+000  +1.3275458008E-002 +3.8199700296E+001  +6.2188693894E-001 -2.8652619073E+000 
9269743.429 +5.4561194450E-001 -2.3565538957E+000  +1.5352440935E-002 +1.8303213064E+001  +1.6226222535E-002 +2.0767779163E+001  +5.4401928221E-001 +1.5127437986E+000 
9394888.611 +5.5925422278E-001 +2.4713631983E+000  +1.9859237107E-002 +1.0908786418E+001  +1.4401500040E-002 +2.5194758317E+001  +5.8237141585E-001 -8.5585877154E-001 
9520033.792 +5.6285072357E-001 -3.9579699450E+000  +1.5104573804E-002 +4.7298006162E+000  +1.2855149069E-002 +2.3626276698E+001  +6.2422036642E-001 -5.3862507916E+000 
9645178.974 +4.9055458953E-001 +2.7728122812E+000  +1.7504320055E-002 +8.8403893652E+000  +1.5364714297E-002 +2.7815914286E+001  +5.9330771083E-001 -6.2246283904E+000 
9770324.155 +5.3563401467E-001 +1.7798513207E+000  +1.7411465642E-002 +6.7576817059E+000  +1.6958461606E-002 +3.3624173477E+001  +5.4422234321E-001 -7.2831263260E+000 
9895469.337 +4.7581592394E-001 +3.4264389645E+000  +1.7781608884E-002 +1.1071324263E+001  +1.5115876935E-002 +3.1555190141E+001  +6.0823361819E-001 -1.3678370472E+000 
10020614.518 +5.4561318668E-001 +5.0185692373E+000  +1.4128862080E-002 +1.3218284439E+001  +1.4191029507E-002 +2.5496104181E+001  +5.8901403906E-001 -6.9828859703E+000 
10145759.700 +5.0778837832E-001 +3.5757613097E+000  +1.2743866787E-002 +2.6116247438E+001  +1.5687352401E-002 +2.7075726884E+001  +5.9853240846E-001 -4.3188641879E+000 
10270904.881 +5.1667367375E-001 +1.7825593809E+000  +1.9933654267E-002 +1.4798014478E+000  +1.7513594254E-002 +2.3317928992E+001  +5.9467648401E-001 -3.0558451379E+000 
10396050.063 +5.4774602419E-001 +1.5723976828E+000  +1.5412406258E-002 +2.2123441101E+000  +1.4242132672E-002 +2.7928692247E+001  +5.7220351837E-001 -2.6765659758E+000 
10521195.244 +5.3703409702E-001 +1.5888483189E+000  +1.6221848513E-002 +7.5026997443E+000  +1.6629195092E-002 +3.1548258308E+001  +5.7289493033E-001 -6.2998071924E-001 
10646340.426 +5.6699541308E-001 +5.4772275643E+000  +1.4778709031E-002 +9.7828230296E+000  +1.5290911636E-002 +3.1346786835E+001  +5.8133711846E-001 -1.2898666350E+000 
10771485.607 +5.5168124189E-001 +1.1840668959E+001  +1.6388266325E-002 +1.8169188435E+001  +1.5971808082E-002 +2.6466539723E+001  +6.2344296877E-001 -1.4468796861E-001 
10896630.788 +5.7071946241E-001 +4.7827730360E+000  +1.6378005949E-002 +1.6876789996E+001  +1.8487424282E-002 +3.1448664235E+001  +5.6594715317E-001 -1.0344980551E+000 
11021775.970 +5.6403364353E-001 +9.1270721615E+000  +1.6201930386E-002 +1.5480448560E+001  +1.8072536924E-002 +2.7297653838E+001  +5.8065599447E-001 +3.7088376185E-002 
11146921.151 +5.8330456185E-001 +7.8256219326E+000  +1.5737391975E-002 +1.2363670519E+001  +1.6551170180E-002 +2.6479561704E+001  +5.9092354656E-001 +1.1835126310E+000 
11272066.333 +6.0259011554E-001 +8.7570349068E+000  +1.6148677613E-002 +1.7527770404E+001  +1.6685742389E-002 +2.6559530663E+001  +5.9407318196E-001 +1.8032972552E+000 
11397211.514 +5.7558484042E-001 +7.6924043689E+000  +1.7456595841E-002 +2.1206496864E+001  +1.7373756383E-002 +2.7641820082E+001  +6.3452014151E-001 +8.1519466137E-001 
11522356.696 +6.4291858489E-001 +6.6520226726E+000  +1.6661888823E-002 +1.6962961332E+001  +1.6474658620E-002 +3.1448825732E+001  +6.3282058820E-001 +2.7783180525E+000 
11647501.877 +6.3569192713E-001 +8.2015379206E+000  +1.7716722902E-002 +1.7113194826E+001  +1.9579553159E-002 +3.3307802789E+001  +6.1257503188E-001 +2.8781070596E+000 
11772647.059 +6.2204599560E-001 +6.7758306256E+000  +1.8171484810E-002 +1.1858311628E+001  +1.7952953762E-002 +2.3334943051E+001  +6.7584424959E-001 +2.1699572457E+000 
11897792.240 +6.2671676771E-001 +4.8881178712E+000  +1.7483586401E-002 +1.8937032952E+001  +1.7113846025E-002 +2.3548171426E+001  +6.4435095090E-001 +3.6393857868E-001 
12022937.422 +6.4011290034E-001 +5.6089565343E+000  +1.6002872312E-002 +2.2236375170E+001  +1.7407839788E-002 +2.7946272224E+001  +6.7850853168E-001 -2.1773082839E-001 
12148082.603 +6.7564946158E-001 +3.6247810878E+000  +1.8326915234E-002 +1.7258922573E+001  +1.7963143958E-002 +3.4723967639E+001  +6.7715961148E-001 -4.1712447229E-001 
12273227.785 +6.5881710553E-001 +3.1918613110E+000  +1.9526070382E-002 +2.4123489775E+001  +1.9027122489E-002 +2.0753383318E+001  +6.9444952989E-001 +9.0419113383E-001 
12398372.966 +7.0051099967E-001 +2.7322491595E+000  +1.9617161968E-002 +1.1916735306E+001  +1.8169800613E-002 +2.9885726193E+001  +7.2163312687E-001 -1.2506462481E-001 
12523518.148 +7.2172972756E-001 +4.0912518772E+000  +1.8396891335E-002 +1.7380274553E+001  +1.8095817915E-002 +2.7815016219E+001  +7.0726960911E-001 -5.6110467895E-001 
12648663.329 +7.0223049696E-001 +4.0099330811E+000  +1.9630123275E-002 +2.1545285603E+001  +1.9512925530E-002 +2.7176870062E+001  +7.3119190820E-001 -1.3738817324E+000 
12773808.511 +7.3599956936E-001 +1.4888608181E+000  +2.0400776552E-002 +2.4682513823E+001  +1.8023775439E-002 +2.3203616965E+001  +7.6705835464E-001 -1.4671167964E+000 
12898953.692 +7.4893914077E-001 -8.3074199125E-001  +1.9756108681E-002 +1.8484466717E+001  +1.9242069061E-002 +2.7041083774E+001  +7.5349939931E-001 -1.9436549130E+000 
13024098.874 +7.4959755795E-001 -4.1704203168E-001  +1.9340228780E-002 +1.7708213799E+001  +1.8988022043E-002 +2.5815616525E+001  +7.8227535822E-001 -2.1515755028E+000 
13149244.055 +7.7932806476E-001 +1.6633364112E+000  +2.0817623842E-002 +2.2090377910E+001  +1.9643812349E-002 +1.9956674063E+001  +7.7073240925E-001 -1.5617103902E+000 
13274389.237 +7.9957578938E-001 +8.6273527583E-001  +2.0120630365E-002 +2.1236251922E+001  +2.0177268209E-002 +2.1639735209E+001  +8.1259539064E-001 -2.4409845715E+000 
13399534.418 +8.2645277410E-001 +2.6176437694E-001  +2.0524880534E-002 +1.7509760615E+001  +2.1671387781E-002 +2.9434161479E+001  +8.2124565200E-001 -3.8018724212E+000 
13524679.599 +8.3568525460E-001 -1.7111291312E+000  +2.1450811916E-002 +2.2507689052E+001  +1.8627935927E-002 +2.5733909617E+001  +8.3859387783E-001 -7.8057453277E-001 
13649824.781 +8.4744995369E-001 -1.6618186983E+000  +1.9663022254E-002 +2.3188445121E+001  +1.9183297651E-002 +2.1373416269E+001  +8.7245120126E-001 -1.4062135187E+000 
13774969.962 +8.5038845951E-001 -2.4013569887E+000  +2.0440404190E-002 +2.0463293427E+001  +2.0041804945E-002 +2.4809804905E+001  +8.8926211028E-001 -3.5983231870E+000 
13900115.144 +8.8197897436E-001 -2.5843431134E+000  +2.0347263586E-002 +2.5308328961E+001  +2.1698457604E-002 +2.2178369812E+001  +8.7587498035E-001 -4.5053511972E+000 
14025260.325 +9.0693672747E-001 -3.2512775266E+000  +2.3221888879E-002 +1.9626873610E+001  +2.1265286709E-002 +2.4840179390E+001  +9.0911042110E-001 -3.7467515900E+000 
14150405.507 +9.0620924755E-001 -3.3794907885E+000  +2.0379720934E-002 +2.2412535388E+001  +2.0314206205E-002 +2.3156510842E+001  +9.2530441891E-001 -4.8161661214E+000 
14275550.688 +9.4571349211E-001 -4.1061506155E+000  +2.1599806630E-002 +2.1947901549E+001  +2.0879888931E-002 +1.9101078587E+001  +9.4924646053E-001 -3.8259532237E+000 
14400695.870 +9.5635797644E-001 -4.6951222633E+000  +2.0858156824E-002 +2.0033682286E+001  +2.1387754332E-002 +2.0518456658E+001  +9.4756505431E-001 -4.2949614702E+000 
