!  2-Port S-parameters saved by WinCal
! VAR MeasName=S-Parameters (CALIBRATED_DATA) read from VNA (P5004A)
! VAR MeasDate=27/08/2024 14:12:04
! VAR NAME=S2_r2c8_RESET1_9k-100M_1
! VAR FILENAME=S2_r2c8_RESET1_9k-100M_1.S2P
! VAR DATE=27/08/2024 14:12:04
! VAR PHYS_PORTS=1,2
! VAR ObjTypeName=DATASET
! VAR IndexType=Frequency
!
# Hz S MA R 50
9000.000 +5.8217098342E-002 -1.4928271882E+002  +2.0772605594E-002 -7.7999131244E+000  +2.3440512809E-002 +6.6618962515E+000  +3.7266534909E-001 -1.4036104148E+002 
134145.181 +1.1098971297E-001 +1.6965394076E+002  +1.4705951058E-004 -1.0688866627E+002  +5.2865296350E-004 -1.2558098811E+002  +2.4314898527E-001 -1.7142853078E+002 
259290.363 +1.1189333568E-001 +1.7001389320E+002  +4.9918517529E-004 -1.4105616149E+002  +1.0830262862E-003 +1.7207308302E+001  +2.3833119145E-001 -1.6806952682E+002 
384435.544 +1.1356341224E-001 +1.6946016638E+002  +7.4442153967E-004 +1.7666739132E+002  +6.9194411303E-004 -9.5559053698E+001  +2.5314968099E-001 -1.6687343630E+002 
509580.726 +1.1348535428E-001 +1.6991634121E+002  +8.5134548591E-004 -1.5471035046E+002  +1.1534900167E-003 +9.3394369490E+001  +2.3944020398E-001 -1.6526951078E+002 
634725.907 +1.1597876474E-001 +1.7083378422E+002  +6.3299917957E-004 +6.5456391127E+000  +6.9594573508E-004 -7.6910074855E+001  +2.4013130806E-001 -1.6525163954E+002 
759871.089 +1.1838302663E-001 +1.7055395484E+002  +8.7489012477E-004 -1.8682241667E+001  +2.0134697700E-004 +1.3830807717E+002  +2.4047243784E-001 -1.6410023583E+002 
885016.270 +1.1398445522E-001 +1.7023776510E+002  +4.4642812052E-004 -9.3606306479E+001  +1.9336221355E-004 +7.2948624394E+001  +2.3802539453E-001 -1.6611436791E+002 
1010161.452 +1.1516293531E-001 +1.7252533065E+002  +1.1614603806E-003 +4.6514140037E+001  +1.6909327260E-003 +2.1860062945E+001  +1.6233842587E-001 -1.7052869189E+002 
1135306.633 +1.1869893507E-001 +1.6916210813E+002  +4.9379000826E-002 -1.6670730059E+002  +1.9751675377E-002 -1.3262475676E+002  +2.2507824120E+000 +1.1682958220E+002 
1260451.815 +1.2267506270E-001 +1.7230982177E+002  +1.0306703296E-003 +9.1860006925E+001  +3.0253493425E-003 -9.1041337954E+000  +2.3142784559E-001 -1.5909975460E+002 
1385596.996 +1.2712119321E-001 +1.7115220335E+002  +5.3094326504E-004 +1.1522747589E+002  +4.9248503473E-004 +2.9904560062E+001  +2.7006707532E-001 -1.5977865445E+002 
1510742.178 +1.2940357455E-001 +1.7162657748E+002  +2.3014823639E-004 +7.6099720622E+000  +7.7270686120E-004 +1.5704414172E+002  +2.5523150619E-001 -1.6178488461E+002 
1635887.359 +1.2679898677E-001 +1.7094186777E+002  +2.1607360534E-003 -1.0274877609E+002  +1.2761587620E-003 -7.3149250898E+001  +2.5742300864E-001 -1.5371334301E+002 
1761032.541 +1.2781343292E-001 +1.6826231944E+002  +9.9281341662E-004 +1.0685317949E+002  +1.1446147475E-003 -1.1270547227E+001  +2.2270131534E-001 -1.5856580055E+002 
1886177.722 +1.2766216032E-001 +1.6788014880E+002  +1.6767637132E-003 +1.0586528263E+002  +3.4349300590E-004 +1.4746655787E+002  +1.8172564698E-001 -1.6149638841E+002 
2011322.904 +1.3169201974E-001 +1.6619398887E+002  +8.7652852695E-004 -7.5052052695E+000  +7.0262997266E-004 +4.1076595245E+001  +1.7088229281E-001 +1.7604329691E+002 
2136468.085 +1.3040553983E-001 +1.6405749852E+002  +3.1361607872E-003 +1.7141683588E+001  +6.6797138814E-004 +1.1260599569E+002  +1.7764044078E-001 -1.7226883117E+002 
2261613.267 +1.3344807371E-001 +1.6609109017E+002  +1.4007830855E-003 +9.6770078668E+001  +1.9268114583E-003 +5.0317991608E+000  +1.9477381828E-001 -1.7745785295E+002 
2386758.448 +1.3701513034E-001 +1.6416331384E+002  +8.9035587403E-004 -1.1935710795E+002  +1.5058896437E-003 -9.3675140841E+001  +1.8350458972E-001 +1.5032656751E+002 
2511903.630 +1.2107054785E-001 +1.6065009534E+002  +9.7620875930E-003 -1.3522759348E+002  +9.9199557575E-003 -2.7603669525E+001  +4.8819910680E-001 +1.5378408076E+002 
2637048.811 +1.4566599986E-001 +1.5430398474E+002  +6.4253090240E-003 -1.2117914895E+002  +5.4278652148E-003 +1.8001371472E+001  +4.3965622791E-002 -1.7566870151E+002 
2762193.992 +7.4368922948E-002 -1.7092310547E+002  +2.8521619110E-002 +2.6035092081E+001  +8.0176522424E-002 +1.6305836611E+002  +1.4490314180E+000 +1.4165126397E+002 
2887339.174 +7.4366746877E-002 -1.6572718338E+002  +5.3751730215E-002 -1.0290401490E+002  +4.7309155183E-002 +9.9441467053E+001  +6.1727926031E-001 -7.8008969095E+001 
3012484.355 +1.1601289758E-001 +1.7033690270E+002  +1.1282925380E-002 -8.7067469076E+001  +1.9105165491E-002 -1.5767001557E+002  +2.0172624923E-001 -1.2088129002E+001 
3137629.537 +1.2257512004E-001 +1.7112922625E+002  +4.8870143304E-003 -1.0317692485E+002  +3.5818728153E-003 -6.8619704064E+001  +3.1991086511E-001 -1.0683937530E+002 
3262774.718 +1.4285485183E-001 +1.5966585351E+002  +5.4849106295E-003 +4.0077402974E+001  +4.9235768468E-003 +2.0566876695E+001  +1.0029986684E-001 -3.5129759714E+001 
3387919.900 +1.1688035322E-001 +1.4513111794E+002  +2.2084394244E-002 -6.3548849453E+001  +2.8792124735E-002 -5.5191080008E+001  +3.4476089948E-001 +3.2790140988E+000 
3513065.081 +1.2733636476E-001 +1.3240474151E+002  +1.1613761356E-001 +2.4303868421E+001  +1.1822150861E-001 +1.6623782977E+001  +1.8443203713E+000 +4.2152872278E+001 
3638210.263 +1.9861335132E-001 +1.4712782774E+002  +8.1679000225E-003 +7.9260089483E+001  +4.9438203487E-003 -5.6331533277E+001  +4.5537795872E-001 +1.1752467740E+002 
3763355.444 +1.6733879545E-001 +1.4899986940E+002  +1.5105108456E-002 +1.0602484046E+002  +6.3030710759E-003 -1.7717513287E+002  +6.0161662353E-001 +1.5152692896E+002 
3888500.626 +1.7811375090E-001 +1.5059438893E+002  +1.5214879586E-002 +1.0584855809E+002  +4.4187806847E-003 +1.7670858436E+001  +6.5019770119E-001 +3.8802077600E+001 
4013645.807 +1.6222670035E-001 +1.5481269712E+002  +1.4375870601E-003 +7.1888406491E+001  +4.3826077097E-003 +5.5355860315E+001  +2.1898367095E-001 +1.3935753714E+002 
4138790.989 +1.7917792731E-001 +1.4843546969E+002  +6.1006986510E-003 -1.7201704665E+002  +9.7497217776E-003 +3.5383259284E+000  +4.1619117399E-001 +1.2150984323E+002 
4263936.170 +2.0461917738E-001 +1.4079869184E+002  +2.9259176985E-003 +1.1221165555E+002  +3.0016787636E-003 -5.1959586602E+001  +2.8088310762E-001 +1.3263862025E+002 
4389081.352 +2.2263441916E-001 +1.4115599795E+002  +1.7421226482E-002 +5.6358062746E+001  +6.4497507616E-003 +1.1195872080E+001  +9.5954774997E-001 +1.0978205245E+002 
4514226.533 +2.2538569290E-001 +1.3944920856E+002  +1.3547403702E-002 +3.0185424883E+001  +1.2369304754E-002 -3.2310011045E+001  +7.0138612898E-001 +9.5156032547E+001 
4639371.715 +2.8375250945E-001 +1.3717830292E+002  +2.1101077100E-002 -1.1188379317E+001  +2.7770723504E-002 -2.5719169318E+001  +2.5780599234E+000 -4.5748962945E+001 
4764516.896 +2.7387126443E-001 +1.2627321260E+002  +3.0760437049E-002 -1.4666648070E+002  +6.8598338508E-002 -1.7999003855E+002  +4.0765752800E+000 +1.7580037194E+002 
4889662.078 +4.3765643085E-001 +1.3025181555E+002  +3.4952388709E-002 +8.7939168570E+000  +3.7126185005E-002 -3.7930590662E+001  +1.5752793773E+000 -8.0480589477E+001 
5014807.259 +4.5797660098E-001 +1.3624038445E+002  +1.6755315929E-002 +5.1037354637E+001  +6.1415519078E-002 +6.9779824304E+001  +4.4948844499E+000 +8.1514922362E+001 
5139952.441 +3.6959712714E-001 +1.2926892005E+002  +1.3259996597E-002 +1.3990817366E+002  +3.7218271620E-002 +1.3772303695E+002  +1.9242539266E+000 +9.8569860905E+001 
5265097.622 +4.4548178919E-001 +1.3665520622E+002  +8.4215823434E-003 -1.4224995728E+001  +1.4376350442E-002 -7.8352778358E+001  +1.3411399148E+000 +1.0192673602E+002 
5390242.804 +3.9727094065E-001 +1.3265688446E+002  +2.5708876543E-002 +2.8353539419E+001  +2.7326622166E-002 +1.4587600881E+001  +2.1068615704E+000 +9.2700266925E+001 
5515387.985 +4.1195209337E-001 +1.2749364839E+002  +8.5115841502E-003 +1.1936116638E+002  +2.0618156872E-002 +9.2999565605E+001  +1.4950096790E+000 +1.0079435851E+002 
5640533.166 +5.0077903194E-001 +1.2832610154E+002  +4.1778109414E-002 +1.3349819798E+002  +5.9701764429E-002 +3.0818858775E+001  +3.3913856695E+000 +8.8170548549E+001 
5765678.348 +5.3184421550E-001 +1.3351325206E+002  +1.8264625666E-002 +1.2097735977E+002  +1.1994714448E-002 +9.0312504735E+001  +2.6659969289E+000 +8.2075678992E+001 
5890823.529 +5.1751527673E-001 +1.2370689200E+002  +5.5574635782E-002 +9.0516308188E+001  +1.5931906364E-002 -2.0197773377E+001  +3.2818863478E+000 +6.3043638534E+001 
6015968.711 +6.8579452903E-001 +1.2518924142E+002  +2.9779195389E-002 +5.0610041283E+001  +3.7568939438E-002 -2.0963950141E+001  +3.5236543530E+000 +3.4239944003E+001 
6141113.892 +7.7249076418E-001 +1.1513941689E+002  +3.4996661809E-002 +4.0369350559E+001  +2.9805507873E-002 +5.9519977325E+001  +2.7276749258E+000 +3.8452457678E+001 
6266259.074 +8.3497270951E-001 +1.0844309008E+002  +2.5235343188E-002 +1.4420594803E+002  +1.1155603056E-002 -1.4650587328E+001  +2.3966739755E+000 +2.2221987309E+001 
6391404.255 +9.5845298279E-001 +8.1014746330E+001  +4.0247317504E-002 +3.8279411764E+001  +2.2840625540E-002 +4.0418248353E+001  +1.6015036895E+000 +1.3659614538E+001 
6516549.437 +1.1002592256E+000 +7.8615829855E+001  +2.5726938204E-002 +5.5288223977E+001  +2.4022925762E-003 -9.6481576039E+001  +1.5369136814E+000 +6.8544595788E+000 
6641694.618 +1.5687418233E+000 +8.3075507310E+001  +6.5601118072E-002 +3.6726121080E+001  +2.9631577075E-002 +4.6642491774E+001  +1.4391020003E+000 -6.4736682218E-001 
6766839.800 +1.7027762440E+000 +6.8902340957E+001  +3.4624346433E-002 +7.5037078226E+001  +3.5122498735E-002 +8.0359059538E+001  +1.7603402011E+000 -7.5523692512E+000 
6891984.981 +2.0331209750E+000 +4.1083413993E+001  +2.6640427193E-002 +4.6619017744E+001  +3.0727726029E-002 -1.8099587647E+001  +1.1532930714E+000 -8.0100231541E+000 
7017130.163 +1.9624790956E+000 +2.3190217636E+001  +3.1156905932E-002 -1.2354875783E+001  +3.4815079674E-002 +1.5582591409E+001  +1.3890598709E+000 -1.1390816053E+001 
7142275.344 +1.4192534079E+000 +1.5839094405E+001  +1.7412064078E-002 -9.4617891711E+000  +3.2386108389E-002 +2.7278686596E+001  +1.2445120280E+000 -9.6985576826E+000 
7267420.526 +1.6370514750E+000 +6.1624803766E+000  +2.3108661550E-002 +1.1422481604E+001  +2.4006367806E-002 -5.9441402731E-001  +1.3185525629E+000 -1.1148463956E+001 
7392565.707 +1.2378781327E+000 -7.5385053526E+000  +3.3244280996E-002 +3.4704721443E+001  +1.2788386138E-002 +3.9099808665E+001  +1.4052339332E+000 -5.6230846111E+000 
7517710.889 +1.2322695446E+000 -4.6197476310E+000  +9.5034297471E-003 +5.3119019094E+001  +9.0041464015E-003 +3.8868575752E+001  +1.3094941634E+000 -5.8244988256E+000 
7642856.070 +1.0240937957E+000 +6.1033855362E-001  +9.7176642398E-003 +4.7443356542E+001  +1.0911883005E-002 +6.0807569382E+001  +1.0063412323E+000 -7.0282618803E-001 
7768001.252 +9.6070029682E-001 +4.6746044522E+000  +1.1219370991E-002 +5.1021110303E+001  +6.7748388000E-003 +5.8889486897E+001  +1.0128637281E+000 -1.3229368922E+000 
7893146.433 +8.5512633784E-001 +7.3949268882E+000  +7.4556359284E-003 +2.7134216424E+001  +1.0108049864E-002 +3.7282129534E+000  +8.9497792132E-001 -2.1721257186E-001 
8018291.615 +7.6925253318E-001 +4.4227395435E+000  +1.0823108206E-002 -8.4974924493E+000  +8.9397335230E-003 +2.2948136224E+001  +9.7641653230E-001 -1.2378687476E+000 
8143436.796 +7.4740596252E-001 +2.7663076248E+000  +3.0094244503E-003 +1.4588641741E+001  +1.3204382293E-002 +1.6486943241E+001  +7.8715943339E-001 -2.3516091601E+000 
8268581.977 +7.5782218115E-001 +1.1153070942E+001  +9.4666013179E-003 +2.2121286063E+001  +8.4019743398E-003 +4.3328831522E+001  +8.1380671958E-001 +1.7579575609E+000 
8393727.159 +7.2602135899E-001 +6.7704070455E+000  +4.9425729922E-003 +1.4915887950E+001  +8.3921373547E-003 -6.5075745940E+000  +7.6070512863E-001 -8.6740607725E+000 
8518872.340 +6.7745348286E-001 +9.8611107944E+000  +6.4845854570E-003 +2.2427526309E+001  +3.3740566279E-003 +1.1029107115E+002  +6.9914698656E-001 +1.6173580640E+000 
8644017.522 +6.5328001344E-001 +8.1095660967E+000  +7.5206204849E-003 +1.0346488682E+001  +3.5565419848E-003 +1.9688163281E+001  +6.5346312275E-001 +3.3116738189E+000 
8769162.703 +6.2442244574E-001 +2.4506571862E+000  +1.2655373416E-002 +1.2670436970E+001  +6.2014823887E-003 +3.2712149370E+001  +6.6930851466E-001 +5.4259394046E-001 
8894307.885 +5.8427983868E-001 +3.5267303330E+000  +9.8005293188E-003 +2.7100889405E+001  +9.8281821501E-003 +4.6206845912E+001  +6.3551720734E-001 +1.8285664383E+000 
9019453.066 +5.8842284052E-001 +3.8043740663E+000  +4.6814024435E-003 +2.3427209324E+001  +9.1211027200E-003 +3.2144504423E+001  +5.9733093023E-001 -8.8335981476E-001 
9144598.248 +5.6082318230E-001 +6.1877969848E+000  +8.8420890591E-003 +2.6702483455E+001  +1.1228652182E-002 +2.5737949333E+001  +6.1662793094E-001 +4.8257810899E+000 
9269743.429 +5.4922510153E-001 +5.1376812258E+000  +9.1826690982E-003 +4.2299619273E+001  +9.3624469177E-003 +5.0409070185E+001  +6.2436130679E-001 -1.0062816794E+000 
9394888.611 +5.8399331591E-001 +3.0922715071E+000  +8.3707107906E-003 +1.7808508268E+001  +7.9391609920E-003 +3.0592729354E+001  +6.2539373247E-001 -4.0880291438E+000 
9520033.792 +5.4073646601E-001 +3.6898929978E+000  +6.6890532025E-003 +2.4561112151E+001  +7.0364718129E-003 +3.7817082469E+001  +5.5722847038E-001 -5.5093695735E+000 
9645178.974 +5.5261311683E-001 -4.8247391823E+000  +9.0733394745E-003 +4.8101818742E+000  +8.3339138638E-003 +4.9112504223E+001  +5.3689474085E-001 -6.2465468218E+000 
9770324.155 +5.3304230937E-001 -1.2977743349E+000  +8.3238956488E-003 +1.3516497328E+001  +1.0228305865E-002 +3.5734976161E+001  +5.4359158711E-001 -8.3279438247E+000 
9895469.337 +5.3612786541E-001 +1.8538762463E+000  +9.4154924544E-003 +7.9220104670E+000  +8.8053304264E-003 +1.9871968502E+001  +5.7490421239E-001 -5.3558241187E+000 
10020614.518 +5.5481241116E-001 +2.2701930130E+000  +9.3092752916E-003 +3.2571747560E+001  +6.6764613656E-003 +1.8504750966E+001  +5.3761865800E-001 -9.9357848777E+000 
10145759.700 +5.5549682994E-001 +1.5550453117E+000  +9.5820193261E-003 +3.6980324719E+001  +7.5700604362E-003 +3.0414924719E+001  +5.8045301174E-001 -8.7485092080E+000 
10270904.881 +5.4468179169E-001 -1.8349710801E+000  +9.4659912313E-003 +1.7388346243E+001  +8.3383099915E-003 +1.7576285306E+001  +6.1717839181E-001 -1.9814404744E+000 
10396050.063 +5.6871505735E-001 +2.0501245000E+000  +1.0344876546E-002 +3.7937387271E+001  +8.3017331529E-003 +3.8204770366E+001  +5.8237843481E-001 -2.9854441066E+000 
10521195.244 +5.7339115528E-001 +3.7357032674E+000  +8.2739612118E-003 +1.3067440753E+001  +1.0526799513E-002 +3.5197289884E+001  +5.6532566000E-001 +4.1325778687E-001 
10646340.426 +5.5506320494E-001 +3.4975552973E+000  +1.1470139722E-002 +2.9056066761E+001  +1.0882050416E-002 +3.7380601005E+001  +5.8450404316E-001 -5.9714575466E-001 
10771485.607 +5.2683304943E-001 +7.4065402561E+000  +7.8244283944E-003 +2.3796633490E+001  +8.3996814033E-003 +3.5985865858E+001  +5.9530264836E-001 -2.5880421291E+000 
10896630.788 +5.1773382639E-001 +2.5692043971E+000  +1.0161659431E-002 +2.8673314942E+001  +9.1191472919E-003 +3.9454679353E+001  +6.0752954250E-001 +2.5009293021E+000 
11021775.970 +6.0587482331E-001 +5.9772242059E+000  +9.4497374962E-003 +3.1169623124E+001  +8.7785871221E-003 +2.9568951374E+001  +5.9572816631E-001 +4.5617500828E+000 
11146921.151 +5.9492420407E-001 +4.6585578537E+000  +1.1046799024E-002 +2.3299929354E+001  +7.2670288205E-003 +4.7043034110E+001  +5.7561259877E-001 +1.4571471634E+000 
11272066.333 +5.9729262117E-001 +5.9805910762E+000  +1.0367311577E-002 +3.4986527220E+001  +1.1696773070E-002 +4.6587108909E+001  +6.1691408411E-001 +1.4966383351E+000 
11397211.514 +6.2193909520E-001 +5.7965091201E+000  +1.1025431746E-002 +2.8540125568E+001  +8.6354322465E-003 +3.7780021968E+001  +6.1810934167E-001 +7.3873000909E-001 
11522356.696 +5.9957908205E-001 +6.2279287212E+000  +1.0680766245E-002 +3.0344975207E+001  +8.5388741113E-003 +4.8512264843E+001  +6.6672076712E-001 +1.6016828684E+000 
11647501.877 +6.2349798486E-001 +6.7548700223E+000  +9.4357480029E-003 +3.2053807812E+001  +9.9376518984E-003 +3.8325586657E+001  +6.5128345239E-001 -6.5047414361E-001 
11772647.059 +6.7624244359E-001 +6.6226107949E+000  +9.9875374901E-003 +3.3416332374E+001  +9.7103068840E-003 +5.6200904743E+001  +6.5267978237E-001 +1.0723162163E+000 
11897792.240 +6.3131792248E-001 +5.4012964517E+000  +9.8626944539E-003 +3.0287516605E+001  +1.1010971476E-002 +4.3594848054E+001  +6.5696438627E-001 +9.1237569244E-001 
12022937.422 +6.4630347276E-001 +6.2099170955E+000  +8.4561581562E-003 +4.1968443838E+001  +1.1651715211E-002 +3.2528045646E+001  +6.6541723197E-001 +2.5631076264E+000 
12148082.603 +6.7645744245E-001 +1.7578045749E+000  +1.1012252327E-002 +4.3990512775E+001  +1.1335229334E-002 +3.8263180258E+001  +6.7806192670E-001 +2.2342848705E+000 
12273227.785 +6.7783151223E-001 +3.2031454052E+000  +1.0057283248E-002 +4.1388555343E+001  +1.0598795524E-002 +3.9326239081E+001  +7.0121564073E-001 +1.7783524536E+000 
12398372.966 +6.9812863213E-001 +1.7900629435E+000  +1.0749543495E-002 +3.5932254377E+001  +1.1464926336E-002 +5.3133052230E+001  +7.1665802686E-001 +2.5006497615E-001 
12523518.148 +6.8686823539E-001 +2.4185071016E+000  +1.1017037194E-002 +2.9798032977E+001  +1.1512509385E-002 +4.8569078710E+001  +7.3689987974E-001 -8.7098476345E-001 
12648663.329 +7.1873894566E-001 +4.1000915194E+000  +1.3059174884E-002 +3.0397947917E+001  +1.1090562984E-002 +4.2513667800E+001  +7.5521665579E-001 -2.0555255192E+000 
12773808.511 +7.4623797478E-001 +1.5796135501E+000  +1.1113058690E-002 +2.8529302959E+001  +1.1564162499E-002 +3.9990281655E+001  +7.3357476211E-001 -1.0905361704E+000 
12898953.692 +7.5231894123E-001 +6.5325995019E-001  +1.3002137295E-002 +3.0177567820E+001  +1.1227155497E-002 +4.1598286550E+001  +7.9215690485E-001 -2.7151249853E+000 
13024098.874 +7.8006704937E-001 -7.2168336835E-002  +1.3193522875E-002 +3.7313461097E+001  +1.0015292003E-002 +4.2361573445E+001  +7.8951264696E-001 -1.9133737942E+000 
13149244.055 +7.9061684967E-001 +1.8203074344E+000  +1.1548281603E-002 +3.6475445087E+001  +1.1447915012E-002 +3.9415861889E+001  +8.1428591097E-001 -2.0696219442E+000 
13274389.237 +7.9787241143E-001 -7.9968287910E-001  +1.1920102553E-002 +3.4298269300E+001  +1.1293991529E-002 +4.1546058961E+001  +8.1403724284E-001 -2.8547500565E+000 
13399534.418 +8.4318004639E-001 -6.3169823310E-001  +1.0901910689E-002 +2.9835804343E+001  +1.2363047298E-002 +4.2228150939E+001  +8.2658647295E-001 -2.3592383949E+000 
13524679.599 +8.4033651604E-001 -2.0602072923E+000  +1.1392555421E-002 +3.6220406276E+001  +1.2140691514E-002 +3.9476297197E+001  +8.7983285411E-001 -2.9230080288E+000 
13649824.781 +8.5981793941E-001 -1.2431438839E+000  +1.1552791428E-002 +3.8337280288E+001  +1.1022620765E-002 +4.0665981542E+001  +8.6023697313E-001 -3.0932519150E+000 
13774969.962 +8.8324254798E-001 -1.7266223911E+000  +1.1882513392E-002 +3.8313227005E+001  +1.3078763750E-002 +3.9728809648E+001  +8.8444070500E-001 -2.5312155457E+000 
13900115.144 +8.9957998790E-001 -3.4652093047E+000  +1.1667553161E-002 +4.2266357261E+001  +1.0718518846E-002 +3.8136709656E+001  +9.1053955154E-001 -3.7121303411E+000 
14025260.325 +9.2466637697E-001 -3.9107365693E+000  +1.1456861154E-002 +3.9556571928E+001  +1.2617094136E-002 +3.5734186597E+001  +9.1546626389E-001 -3.8036601266E+000 
14150405.507 +9.3859272003E-001 -3.3672909259E+000  +1.2912468027E-002 +3.3721723644E+001  +1.2313021837E-002 +5.0951368029E+001  +9.5180489262E-001 -3.5284219493E+000 
14275550.688 +9.5173002272E-001 -4.8649281165E+000  +1.1344295863E-002 +3.9124881237E+001  +1.1110538541E-002 +3.7980353169E+001  +9.5542085667E-001 -3.8702830118E+000 
14400695.870 +9.5382767822E-001 -5.5942403908E+000  +1.1623092594E-002 +3.4757261454E+001  +1.3281583699E-002 +4.0732148307E+001  +9.7611765418E-001 -4.5749309982E+000 
