!  2-Port S-parameters saved by WinCal
! VAR MeasName=S-Parameters (CALIBRATED_DATA) read from VNA (P5004A)
! VAR MeasDate=28/08/2024 11:55:06
! VAR NAME=S2_r6c9_RESET4_9k-100M_3
! VAR FILENAME=S2_r6c9_RESET4_9k-100M_3.S2P
! VAR DATE=28/08/2024 11:55:06
! VAR PHYS_PORTS=1,2
! VAR ObjTypeName=DATASET
! VAR IndexType=Frequency
!
# Hz S MA R 50
9000.000 +9.6420930210E-002 -1.6887968717E+002  +9.3549749754E-003 +1.5515682478E+002  +9.9609112396E-003 -8.6727220678E+000  +3.2384009240E-001 -1.4810851348E+002 
134145.181 +1.1131056862E-001 +1.6955937692E+002  +2.2406842048E-004 -1.0216186573E+002  +6.5839302774E-004 -1.5092585860E+002  +2.3626095072E-001 -1.7102687920E+002 
259290.363 +1.1362082835E-001 +1.7023888343E+002  +7.3049992135E-004 -5.6451452270E+001  +7.6144005910E-004 -6.2862892161E+001  +2.4732503193E-001 -1.7000285222E+002 
384435.544 +1.1387915095E-001 +1.6937300173E+002  +4.7648594792E-004 +8.9828307675E+001  +3.9057259155E-004 -1.7163848871E+002  +2.4259246923E-001 -1.6964276642E+002 
509580.726 +1.1328954554E-001 +1.7024627232E+002  +7.5679121460E-004 -1.5191104421E+002  +5.8590120648E-004 -1.3439244495E+001  +2.4678205117E-001 -1.6609589538E+002 
634725.907 +1.1766187738E-001 +1.7241581886E+002  +1.2706969731E-003 +1.5494113806E+002  +8.0222504917E-004 +1.4255114883E+000  +2.4386724842E-001 -1.6366056283E+002 
759871.089 +1.1965485432E-001 +1.7176949043E+002  +4.3053048263E-004 +1.1195914118E+002  +3.9268790202E-004 +1.3906821079E+002  +2.5898754169E-001 -1.6622878772E+002 
885016.270 +1.2070143299E-001 +1.6920436568E+002  +2.0482158516E-004 -7.8708396497E+001  +8.6253561794E-004 -5.7986934871E+001  +2.4954722055E-001 -1.6644995079E+002 
1010161.452 +1.1690485533E-001 +1.7229411196E+002  +1.2930977157E-003 -1.6129748436E+002  +5.7263553082E-004 +1.4526046730E+000  +2.1236085017E-001 -1.6952212529E+002 
1135306.633 +1.1606396974E-001 +1.7028056452E+002  +1.0362047292E-003 +8.3857424931E+001  +1.4446711640E-003 -7.4563461005E+001  +1.9934522499E-001 -1.6957259737E+002 
1260451.815 +1.2051132104E-001 +1.7104825521E+002  +6.3675543489E-004 -5.5247031840E+001  +1.4029478550E-003 -1.3066212035E+002  +2.3317222813E-001 -1.5623244264E+002 
1385596.996 +1.2514440814E-001 +1.7292087325E+002  +2.6038381279E-003 +1.5189683225E+002  +5.2747805728E-004 +9.6029651364E+001  +2.6434844574E-001 -1.5061372079E+002 
1510742.178 +1.2573290272E-001 +1.7121815914E+002  +6.7675574219E-004 +1.3689651973E+002  +1.2415459263E-003 -7.1335077387E+001  +2.6049540166E-001 -1.5749731357E+002 
1635887.359 +1.2786570807E-001 +1.7137726642E+002  +1.7970363222E-003 -3.5744869471E+001  +2.4750995888E-003 -1.6384031043E+002  +2.2996505487E-001 -1.5157264580E+002 
1761032.541 +1.2933947883E-001 +1.7091221476E+002  +8.2271687560E-004 +1.0102431616E+002  +1.5124786106E-003 +1.3132450311E+002  +2.2419831580E-001 -1.5935517714E+002 
1886177.722 +1.2633404804E-001 +1.6683503196E+002  +1.5168110158E-003 -1.7552605861E+002  +1.1359664217E-003 +1.6867167276E+002  +2.2962843073E-001 -1.6008560801E+002 
2011322.904 +1.3019416152E-001 +1.6850987968E+002  +9.0179254604E-004 +4.7710958696E+000  +1.1239754882E-003 +4.2565323008E+001  +1.6582325167E-001 -1.7769985838E+002 
2136468.085 +1.3456392837E-001 +1.6797488776E+002  +4.9345853271E-004 +1.6680626754E+002  +3.3742509729E-003 -1.0568863309E+002  +2.5368265389E-001 +1.5968370996E+002 
2261613.267 +1.2423612707E-001 +1.6106217947E+002  +4.9871874895E-003 -7.7045313535E+000  +7.6848265555E-003 -1.1854413001E+002  +7.1652095771E-002 +1.1317834201E+002 
2386758.448 +1.2844135624E-001 +1.5735801603E+002  +1.8334317284E-003 -6.4341416319E+001  +4.8223254904E-003 -9.8514544595E+001  +2.1418097031E-001 +1.5891454183E+002 
2511903.630 +1.2383213471E-001 +1.6271306831E+002  +6.3835798425E-003 -3.6138692375E+001  +5.5648578719E-003 +8.4457850820E+001  +2.1437828148E-001 +1.5287295154E+002 
2637048.811 +1.2959685001E-001 +1.6394228373E+002  +2.7850006256E-003 -3.0330199504E+001  +6.7015373522E-003 -5.7275206611E+001  +1.4610613191E-001 +1.0994749373E+002 
2762193.992 +1.1561925556E-001 +1.5641704170E+002  +2.8671328733E-002 +1.4932373157E+002  +3.6169488142E-002 +7.6641331041E+001  +1.3079321095E+000 +3.4636619628E+001 
2887339.174 +1.1407606308E-001 +1.7501264283E+002  +3.0976917812E-002 +1.4309179792E+002  +1.2843917682E-002 +9.1481274422E+001  +8.4467199349E-001 -8.4971753288E+001 
3012484.355 +1.2594747940E-001 +1.7523992262E+002  +1.7414421680E-002 -3.3149597713E+001  +9.2485288431E-003 +1.7687295603E+002  +4.4421611355E-001 -9.3717340391E+001 
3137629.537 +1.2133558993E-001 +1.6770516210E+002  +1.3754509988E-002 -3.7684334061E+000  +1.0854627118E-002 +7.5611672255E+001  +7.4866650769E-001 -1.2342463392E+002 
3262774.718 +1.2921223004E-001 +1.6703860939E+002  +5.0146452631E-003 -9.1261411849E+001  +5.0341748735E-003 -1.4352039667E+002  +1.7323710528E-001 -9.0991685929E+001 
3387919.900 +1.0166289377E-001 +1.6375958572E+002  +1.6391342539E-002 +8.9308974480E+001  +6.8930883212E-003 -9.2541928950E+001  +2.1348504879E-001 +5.3118271062E+001 
3513065.081 +1.5748822539E-001 +1.4536923572E+002  +1.0279287901E-002 +4.5218254590E+001  +1.9849740747E-002 -5.9507223329E+001  +5.9553899581E-001 +1.1782091671E+002 
3638210.263 +1.9439764663E-001 +1.4317103831E+002  +1.8773024417E-002 -3.7432361116E+001  +1.3791619790E-002 -6.3263105125E+001  +6.0701310218E-001 +1.4288546459E+002 
3763355.444 +1.5290446429E-001 +1.5405674128E+002  +4.8867853970E-003 -2.7245268599E+001  +1.5393172470E-002 +8.6768202411E+001  +8.0205334850E-001 +1.4905141328E+002 
3888500.626 +1.6898271524E-001 +1.4179633795E+002  +2.6487247868E-002 -1.5547436013E+002  +3.0116654369E-002 -1.6506986222E+001  +8.5490453567E-001 -5.4741866550E+000 
4013645.807 +1.6280707447E-001 +1.4557584371E+002  +6.2950200662E-003 +9.4520791684E+001  +6.4780708904E-003 +1.2858728463E+002  +2.9612875652E-001 +1.4806715267E+002 
4138790.989 +2.0129577360E-001 +1.4654161163E+002  +2.5199413729E-003 -9.2086513393E+001  +7.2761620198E-003 -1.6547328432E+002  +2.4530224197E-001 +1.1512523968E+002 
4263936.170 +1.9481491670E-001 +1.4617578132E+002  +7.7644511153E-003 -1.7927122248E+002  +1.1904766653E-002 -3.1040923104E+001  +6.8493403208E-001 +1.2052730225E+002 
4389081.352 +1.8437299354E-001 +1.3855115555E+002  +1.8454846853E-002 +1.4847811162E+002  +1.0247849046E-002 +6.6314503483E+001  +1.6523825130E+000 +9.7305999619E+001 
4514226.533 +2.1041556652E-001 +1.4598696297E+002  +1.1231192607E-002 -1.1670367979E+002  +2.0137401312E-002 -1.6849451800E+002  +1.4333675014E+000 +6.6989541269E+001 
4639371.715 +2.8833427282E-001 +1.3603679069E+002  +5.4603800169E-002 +1.3285312661E+002  +3.1022203629E-002 -8.9316010544E+001  +3.8099253760E+000 +1.0683157252E+002 
4764516.896 +2.7542340906E-001 +1.1596444279E+002  +3.9089895056E-002 +7.5820328272E+001  +3.4160319676E-002 -1.1428134205E+002  +1.8291782406E+000 +1.7592751432E+002 
4889662.078 +3.9827696442E-001 +1.3550897066E+002  +1.3659702270E-001 +1.4708332431E+002  +9.4977062804E-002 -1.6514279640E+002  +8.1793556574E+000 +1.6267736840E+002 
5014807.259 +3.8735420851E-001 +1.3366214148E+002  +1.8719430338E-002 +1.0938832575E+002  +5.4151634118E-003 +1.3994519880E+002  +2.3167344008E+000 -1.6040929159E+002 
5139952.441 +3.3148845813E-001 +1.3040320062E+002  +6.5380284094E-002 -7.8852832304E+001  +2.1583124478E-002 +1.7224004510E+002  +7.0404854032E+000 -9.8475065299E+001 
5265097.622 +3.9574140293E-001 +1.2282797407E+002  +8.5511252914E-002 -9.8386774676E+001  +5.3723068129E-002 +1.6265290273E+002  +4.3351848482E+000 +1.2667954371E+002 
5390242.804 +4.2066203128E-001 +1.3242389874E+002  +1.9819513397E-003 +8.7159571472E+001  +5.5838010733E-003 +7.0100025623E+001  +2.8546564147E+000 +1.1607404284E+002 
5515387.985 +4.3349162837E-001 +1.3707149351E+002  +2.9641094186E-003 +6.1599699842E+001  +1.2381572806E-002 -9.6020920414E+001  +3.0996130374E+000 +7.7416740104E+001 
5640533.166 +4.8547950427E-001 +1.2684968759E+002  +3.3470664993E-002 -1.1494049011E+002  +5.5238515230E-002 -1.5089792975E+002  +6.1475990462E+000 +6.5921747673E+001 
5765678.348 +5.0312726400E-001 +1.2223106456E+002  +3.4974498900E-002 -4.3039813348E+001  +3.5429727515E-003 +1.7738359157E+002  +5.5703887346E+000 +6.8567799679E+001 
5890823.529 +5.1795065591E-001 +1.2884241997E+002  +7.7590043557E-003 +9.2313719347E+000  +1.8503510376E-002 +1.1589379092E+002  +1.5427860332E+000 +7.6661817706E+001 
6015968.711 +5.9325380627E-001 +1.2355979212E+002  +1.3568188996E-002 -7.0128954929E+001  +2.2151311814E-002 +1.0036726634E+002  +2.0228070745E+000 +3.5140191015E+001 
6141113.892 +9.1841928900E-001 +1.1411597298E+002  +2.3512074987E-002 -1.1666945154E+002  +3.8054281559E-002 +9.2308102250E+001  +1.5090464972E+000 +1.9694277705E+001 
6266259.074 +8.6430111730E-001 +1.1360525726E+002  +1.6808498846E-002 +1.1580889651E+001  +1.4917230558E-002 +1.6893235430E+002  +1.6169174587E+000 +1.6486155093E+001 
6391404.255 +1.0461429160E+000 +1.0277237100E+002  +9.9419904360E-003 -1.6625940171E+002  +1.6687134393E-002 +1.0294183563E+002  +1.2113342238E+000 +2.4624938720E+001 
6516549.437 +1.3295277028E+000 +9.2733343090E+001  +9.6199598493E-003 +4.2914212125E+001  +2.9929556674E-002 +9.7831042449E+001  +1.3139719441E+000 +1.3936112437E+001 
6641694.618 +1.2190128944E+000 +7.6791981254E+001  +1.6197178515E-002 +1.5030404685E+002  +8.5385633093E-003 -8.9228313902E+001  +1.8295565187E+000 -3.6002851972E+000 
6766839.800 +1.8340826375E+000 +7.1813283890E+001  +1.0636603742E-002 -9.8444355336E+001  +2.2602984919E-002 +1.5097058542E+002  +1.4043648874E+000 -1.4666476420E+001 
6891984.981 +2.0734808504E+000 +2.1005958799E+001  +1.8816219948E-002 -5.5834579160E+001  +1.4932490197E-002 -5.2568191136E+001  +1.2477111767E+000 -5.8746859632E+000 
7017130.163 +1.9553559612E+000 +1.9988353121E+001  +1.0651877424E-002 +5.8204908464E+000  +1.5321280923E-002 +5.6844438747E+001  +1.2012711774E+000 -1.0946929711E+001 
7142275.344 +1.8226143779E+000 +7.7193837737E+000  +2.3443514298E-002 -2.3663124264E+001  +8.5594095750E-003 +1.0373600239E+002  +1.3986637252E+000 -3.0489849736E+000 
7267420.526 +1.5872142650E+000 -8.3001254533E+000  +3.7187455193E-003 +8.6611687343E+001  +7.0112376064E-003 +6.4647574370E+001  +1.4378462558E+000 -1.1486025690E+001 
7392565.707 +1.3461688707E+000 -4.9781595902E+000  +7.6448370910E-003 +9.3259125032E+001  +6.7591853567E-003 +1.5064943616E+002  +1.2502923423E+000 -5.4607433653E+000 
7517710.889 +1.1745978350E+000 -1.9060658327E+000  +5.1040545136E-003 +6.0251648968E+001  +2.9727795980E-003 -1.5766126036E+002  +1.1490281115E+000 -2.6298357241E+000 
7642856.070 +1.0389634611E+000 -5.4839089928E-001  +2.2467591330E-003 +1.0272245876E+002  +1.1065814255E-002 +1.1764417295E+002  +1.1344486350E+000 -5.8503898119E+000 
7768001.252 +9.8595605993E-001 +4.2363984133E+000  +5.5467587492E-003 -1.5942965737E+002  +1.2655216045E-002 +6.2353043012E+001  +9.9185602700E-001 +9.7408894305E-001 
7893146.433 +7.7906411828E-001 +7.8730257150E+000  +6.0485162734E-003 +8.7558626676E+001  +6.9448407564E-003 +1.0413138316E+002  +8.7032979328E-001 +7.6146658683E+000 
8018291.615 +8.9469322496E-001 +8.1279360834E+000  +9.3996761677E-003 +3.1260648779E+001  +4.8241381368E-003 +9.1493591813E+001  +9.5629264751E-001 -7.7463651943E-001 
8143436.796 +9.1246862744E-001 +4.7823247301E+000  +3.7756351255E-003 -7.2272534921E+000  +4.0630910943E-003 +4.7427151189E+001  +8.8118598825E-001 +1.8509430352E+000 
8268581.977 +7.7418427194E-001 +1.0093580582E+001  +6.5501541754E-003 +1.2740401214E+002  +5.9224550822E-003 +1.4322279917E+002  +7.1455857112E-001 +2.4617179373E+000 
8393727.159 +7.1684245382E-001 +6.8015899339E+000  +5.8745880341E-003 +1.1146255593E+001  +4.4531215590E-003 +5.1978451029E+001  +7.0614377165E-001 +2.9618246618E+000 
8518872.340 +7.0215982447E-001 +9.6887877151E+000  +6.9213770478E-003 +3.8108735006E+001  +5.3025273357E-003 +4.4254082847E+001  +7.7583688741E-001 +3.4552890412E+000 
8644017.522 +6.6330960674E-001 +5.3929336153E+000  +1.1082677685E-003 +6.0133948158E+001  +4.1806254203E-003 +9.1899781264E+001  +6.6463179318E-001 +5.0894329864E+000 
8769162.703 +5.8124411016E-001 +7.2908091550E+000  +6.2315387229E-003 +7.8587749395E+001  +3.8812439253E-003 +1.0182030309E+002  +6.5638356393E-001 -2.7020771387E+000 
8894307.885 +5.9002851702E-001 +2.2158438715E+000  +5.5263867223E-003 +9.2231906550E+001  +5.1612381825E-003 +9.5251851734E+001  +6.9069905287E-001 +7.9668150713E-001 
9019453.066 +5.7254249762E-001 +7.5800639707E+000  +2.4945791381E-003 +2.5199295762E+001  +5.4549250402E-003 +1.5339467308E+002  +6.6568470717E-001 +3.8038006815E-001 
9144598.248 +5.7612167029E-001 +1.3090711177E+000  +5.8499233485E-003 +8.2923772424E+001  +2.7988149009E-003 +3.1930595748E+001  +6.3068368820E-001 -5.8230584369E-002 
9269743.429 +5.7099804848E-001 +4.7044195227E+000  +3.7870246879E-003 +1.0946545852E+002  +3.9086056179E-003 +4.1947593628E+001  +6.0407720258E-001 -2.7475729902E+000 
9394888.611 +5.7475260406E-001 +5.0207514996E+000  +3.2296787142E-003 +1.0643081114E+001  +7.1286765125E-003 +9.3736821204E+001  +6.1358988165E-001 -2.0292818403E+000 
9520033.792 +5.7020316791E-001 +2.7598306900E+000  +5.5676541272E-003 +1.2171830953E+002  +2.9351541415E-003 +8.7220099225E+001  +6.1584194274E-001 +3.8189838565E-002 
9645178.974 +5.4843254777E-001 +2.2239819624E-001  +3.1595839904E-003 +1.2522943795E+002  +5.8740978764E-003 +1.0436731711E+002  +5.8729741462E-001 -5.3858726040E+000 
9770324.155 +5.4619412239E-001 -1.3500600027E+000  +3.9059622961E-003 +9.0230980485E+001  +6.1487374465E-003 +8.9246403032E+001  +6.2427851071E-001 -8.1515766883E+000 
9895469.337 +5.5558352759E-001 +9.3865177121E+000  +4.3705033198E-003 +5.1342174315E+001  +3.8221334179E-003 +7.2552558521E+001  +6.2103760007E-001 -3.4997206973E+000 
10020614.518 +6.0538332009E-001 +3.1218501517E+000  +1.9558138046E-003 +5.3800920772E+001  +5.4367744760E-003 +6.9846628919E+001  +5.9994922434E-001 -3.9137752702E+000 
10145759.700 +5.5138870753E-001 +4.1131224884E+000  +7.1351200847E-003 +1.3264194170E+002  +3.6185287671E-003 +6.1987154888E+001  +5.3982107460E-001 -3.4309466817E+000 
10270904.881 +5.3696903457E-001 +8.8551934568E+000  +3.9962737270E-003 +9.5409608620E+001  +5.8704844287E-003 +6.7666685063E+001  +6.0271474516E-001 +1.5387399815E-001 
10396050.063 +5.5056550099E-001 +9.5488840633E+000  +3.5237028144E-003 +8.1581986605E+001  +4.7945656453E-003 +9.8053358534E+001  +5.9133282603E-001 -4.8973983497E+000 
10521195.244 +6.1848123554E-001 +6.0703909760E+000  +3.7294336384E-003 +8.0270056440E+001  +3.5288049832E-003 +7.0639978248E+001  +5.9972081382E-001 -3.0614776828E-001 
10646340.426 +5.5629958101E-001 +8.0641268546E+000  +5.3078273248E-003 +8.2263745483E+001  +3.4916087638E-003 +1.0437477800E+002  +6.3813502499E-001 +4.4378984309E-001 
10771485.607 +5.9322186934E-001 +6.3132680516E+000  +4.7592960360E-003 +9.5499602886E+001  +6.2656269330E-003 +8.3787763058E+001  +6.1277532041E-001 -7.9554090535E-002 
10896630.788 +6.0284435104E-001 +8.3511809863E+000  +5.3239486285E-003 +9.5052296181E+001  +3.4721077763E-003 +7.9333220257E+001  +6.3373623758E-001 +1.4847528229E+000 
11021775.970 +5.9717466603E-001 +6.4026975047E+000  +4.0416550619E-003 +6.6133017542E+001  +5.5468880212E-003 +1.2187597579E+002  +6.1877792909E-001 +3.0120676775E+000 
11146921.151 +5.8357886466E-001 +7.2643839202E+000  +4.7327272050E-003 +7.2122184334E+001  +4.4035889618E-003 +9.6100130599E+001  +6.2932201957E-001 +1.8522099140E+000 
11272066.333 +6.1785957007E-001 +5.3558257308E+000  +4.5860516854E-003 +5.1139362129E+001  +8.2647804160E-003 +8.1669742758E+001  +6.2136733286E-001 +2.0553679356E+000 
11397211.514 +6.3418513875E-001 +6.6892702668E+000  +4.6118511188E-003 +7.9703550078E+001  +4.4837255258E-003 +8.5730290673E+001  +6.3664715889E-001 +5.4820148218E-001 
11522356.696 +6.3745628529E-001 +5.0998195376E+000  +6.2990409661E-003 +9.2311474013E+001  +6.8094593960E-003 +6.8985640333E+001  +6.6505863161E-001 -3.1470946585E-001 
11647501.877 +6.5442299889E-001 +6.7362158805E+000  +5.7972107704E-003 +8.4704769046E+001  +5.2550354570E-003 +8.5252142930E+001  +6.7372865442E-001 +1.4511436431E+000 
11772647.059 +6.6056447725E-001 +3.2292067027E+000  +3.1699498103E-003 +7.1963137039E+001  +4.1116683324E-003 +9.8337402983E+001  +6.8714289350E-001 +1.7530604184E+000 
11897792.240 +6.8232582379E-001 +3.8287386974E+000  +6.3351411167E-003 +8.1653961870E+001  +3.6266710602E-003 +1.0485803957E+002  +6.8838202322E-001 +1.9614571291E+000 
12022937.422 +6.8120384480E-001 +3.9597884583E+000  +5.3622826267E-003 +8.5856264485E+001  +5.3153227195E-003 +7.8811585033E+001  +7.0701575790E-001 -2.4907976957E-001 
12148082.603 +6.8597471922E-001 +3.0799533586E+000  +4.6758826404E-003 +9.4715797053E+001  +4.5508268478E-003 +8.6348657182E+001  +6.9860375183E-001 +8.7509964803E-001 
12273227.785 +6.9504860684E-001 +5.2612618263E+000  +5.8851088331E-003 +8.8892017824E+001  +5.5056138243E-003 +9.8973980002E+001  +7.2085888632E-001 -1.7742632084E+000 
12398372.966 +6.8698323267E-001 +4.3072122493E+000  +6.3563665553E-003 +9.8459027894E+001  +6.8316695956E-003 +8.9244395775E+001  +7.4898568108E-001 -5.6481230016E-001 
12523518.148 +7.4012172115E-001 +1.6818112998E+000  +7.2370662741E-003 +7.8150428604E+001  +4.3221832815E-003 +7.8162300654E+001  +7.4006853049E-001 -1.0506800476E+000 
12648663.329 +7.2870119655E-001 +1.3685558618E+000  +6.7330561314E-003 +9.4521126255E+001  +5.8972247709E-003 +1.0065411254E+002  +7.5887596685E-001 -1.7701860103E+000 
12773808.511 +7.6870700432E-001 +3.3299062383E+000  +5.6638453900E-003 +8.8890261437E+001  +7.7640980871E-003 +8.0603374180E+001  +7.7275979159E-001 +1.8134715086E-001 
12898953.692 +7.9094988140E-001 +3.3872086183E+000  +5.8931856268E-003 +5.5669617026E+001  +6.0079235496E-003 +7.7916477840E+001  +7.8060278833E-001 -2.1004781687E+000 
13024098.874 +7.9810079131E-001 +2.4090914884E+000  +5.7565268385E-003 +9.3748026797E+001  +5.8108422816E-003 +8.2377943686E+001  +7.9229049317E-001 -2.5767214440E+000 
13149244.055 +8.0597299401E-001 +9.0801327337E-001  +5.4599579817E-003 +8.1495550975E+001  +5.0878049849E-003 +8.0481437550E+001  +8.3046663822E-001 -2.2351184640E+000 
13274389.237 +8.1536792064E-001 -8.6872877762E-002  +5.6170577383E-003 +8.4665522962E+001  +6.6791821824E-003 +8.2476244736E+001  +8.3109020065E-001 -2.5075066758E+000 
13399534.418 +8.3856818825E-001 -1.9472918827E+000  +6.6854852596E-003 +8.5479521273E+001  +7.2421675910E-003 +8.8247989093E+001  +8.4208161637E-001 -2.3828646619E+000 
13524679.599 +8.5931030736E-001 -1.0112956690E+000  +5.0472982221E-003 +6.9756921388E+001  +7.1186280422E-003 +7.2439017401E+001  +8.6184478137E-001 -3.2175217733E+000 
13649824.781 +8.6646547510E-001 -2.0804811727E+000  +7.5996496110E-003 +6.9594032219E+001  +7.7308105659E-003 +7.2045903707E+001  +8.9363614539E-001 -3.0813824642E+000 
13774969.962 +8.6426965760E-001 -2.0426489624E+000  +5.7022473759E-003 +8.0250498344E+001  +7.3483675806E-003 +8.8248686796E+001  +9.0144167835E-001 -3.4290985295E+000 
13900115.144 +8.9628123093E-001 -3.6609870783E+000  +7.3177939963E-003 +7.7122620766E+001  +6.9766581214E-003 +8.2667996455E+001  +9.3247109242E-001 -2.2006484174E+000 
14025260.325 +9.0808243570E-001 -3.3728001899E+000  +6.2273600402E-003 +8.6320365154E+001  +6.1838805102E-003 +7.7982287388E+001  +9.4372268058E-001 -3.3973375152E+000 
14150405.507 +9.2470518266E-001 -3.5843377875E+000  +7.2562632108E-003 +8.4226980572E+001  +6.5058036844E-003 +7.9365767164E+001  +9.5543315686E-001 -3.9740582096E+000 
14275550.688 +9.5770543566E-001 -5.3173431794E+000  +7.9336628533E-003 +8.5928754279E+001  +7.4025286291E-003 +9.1248706441E+001  +9.7659296625E-001 -4.4838436848E+000 
14400695.870 +9.7546605472E-001 -6.2561740028E+000  +7.9136472278E-003 +7.7288770334E+001  +7.7677365440E-003 +9.0825475376E+001  +9.9079743134E-001 -4.1692282135E+000 
