!  2-Port S-parameters saved by WinCal
! VAR MeasName=S-Parameters (CALIBRATED_DATA) read from VNA (P5004A)
! VAR MeasDate=29/08/2024 09:55:38
! VAR NAME=Wafer_Thru_9k-100M_29_08_24
! VAR FILENAME=Wafer_Thru_9k-100M_29_08_24.S2P
! VAR DATE=29/08/2024 09:55:38
! VAR PHYS_PORTS=1,2
! VAR ObjTypeName=DATASET
! VAR IndexType=Frequency
!
# Hz S MA R 50
9000.000 +1.1556049135E-001 -1.5603041987E+002  +8.1069116179E-003 -1.6764798326E+001  +9.5145198826E-003 -1.4267326799E+002  +2.7555587826E-001 -1.5295345664E+002 
134145.181 +1.1137161454E-001 +1.6962192119E+002  +4.1885172524E-004 -1.5137890731E+001  +7.8735354382E-004 +1.7474182713E+002  +2.4174548281E-001 -1.7085092470E+002 
259290.363 +1.1125489081E-001 +1.6994219984E+002  +2.9026409104E-004 -5.4087119938E+001  +3.8822400567E-004 -7.7149715625E+001  +2.4191965864E-001 -1.7019478917E+002 
384435.544 +1.1392930787E-001 +1.6948512275E+002  +5.9910866413E-004 -4.2453465730E+001  +7.7896157674E-004 +1.5216313983E+002  +2.4162921618E-001 -1.6985195562E+002 
509580.726 +1.1238829454E-001 +1.7235289170E+002  +2.1988024087E-003 -7.0224387993E+001  +1.8306687742E-003 +1.4351348166E+002  +2.5128251766E-001 -1.6558397993E+002 
634725.907 +1.1766272599E-001 +1.7105310754E+002  +1.9554628963E-003 -6.8099209866E+001  +3.4690285197E-003 +1.3717289433E+002  +2.4215906616E-001 -1.6169588776E+002 
759871.089 +1.2054140885E-001 +1.6991272699E+002  +8.8285036756E-004 -4.5025119634E+001  +1.6436681394E-003 +1.0189334896E+002  +2.5302291147E-001 -1.6717337083E+002 
885016.270 +1.2108211143E-001 +1.6878555791E+002  +8.3032214463E-004 -2.1338789437E+001  +1.3755213522E-003 +1.7670615942E+002  +2.4732913059E-001 -1.6753410211E+002 
1010161.452 +1.1990733767E-001 +1.6939943440E+002  +1.4224762487E-003 +5.5517507329E+001  +2.3351621474E-003 -1.1891156295E+002  +2.1339568485E-001 -1.7183322228E+002 
1135306.633 +1.1837404196E-001 +1.6840185320E+002  +3.7562630743E-003 +3.7357520234E+001  +4.2302239255E-003 -1.1655356562E+002  +2.0880706843E-001 -1.6653572048E+002 
1260451.815 +1.1981902815E-001 +1.6946617571E+002  +4.2441160199E-003 +1.6212470928E+001  +3.8437985268E-003 -1.7387649248E+002  +2.3544084223E-001 -1.5815577415E+002 
1385596.996 +1.2593165118E-001 +1.7294281551E+002  +4.8421034449E-003 -2.8125436803E+001  +5.0294023293E-003 +1.6997755574E+002  +2.5430156825E-001 -1.5836068421E+002 
1510742.178 +1.2898560749E-001 +1.7108571060E+002  +2.3827205109E-003 -7.5581493014E+000  +2.4087334322E-003 -1.3541526799E+002  +2.6172377374E-001 -1.6056653120E+002 
1635887.359 +1.2965207899E-001 +1.6979045414E+002  +3.5824561376E-003 +1.9609723005E+001  +3.5649873984E-003 -1.2953157562E+002  +2.5057599222E-001 -1.5959554058E+002 
1761032.541 +1.3123647415E-001 +1.7221921133E+002  +5.7187740254E-003 +2.3397349984E+001  +5.0981897278E-003 -1.1888173715E+002  +2.4252135911E-001 -1.5912218713E+002 
1886177.722 +1.2974882086E-001 +1.6869704292E+002  +1.0933455907E-002 +5.8896095086E+001  +1.3990226700E-002 -8.4950412781E+001  +2.1887969091E-001 -1.5460183692E+002 
2011322.904 +1.3184541071E-001 +1.6885266332E+002  +1.2739954533E-002 +6.3327762158E+001  +1.3156591129E-002 -7.0174911246E+001  +2.2467088013E-001 -1.5799167468E+002 
2136468.085 +1.3232663576E-001 +1.6910292329E+002  +1.6426539414E-002 +5.2579709027E+001  +1.6882579525E-002 -8.0063582423E+001  +2.2948820435E-001 -1.5290415035E+002 
2261613.267 +1.3673373682E-001 +1.6655610011E+002  +2.0076770594E-002 +8.4748548553E+001  +2.2114549629E-002 -3.9225932238E+001  +2.0592584989E-001 -1.6370765216E+002 
2386758.448 +1.3176117899E-001 +1.6477572805E+002  +3.7530253976E-002 +9.2322677701E+001  +3.8667913360E-002 -3.1731366694E+001  +1.6918471250E-001 -1.7284917598E+002 
2511903.630 +1.3468951457E-001 +1.6587564859E+002  +2.7107163662E-002 +7.7158818982E+001  +2.8240847919E-002 -3.5480446047E+001  +2.2213475470E-001 -1.6295839238E+002 
2637048.811 +1.3575421835E-001 +1.6844733790E+002  +4.5906700863E-002 +6.0614724113E+001  +4.0984665217E-002 -5.0435592316E+001  +1.7142151265E-001 -1.5645234307E+002 
2762193.992 +1.3331520668E-001 +1.7599811582E+002  +4.6297140099E-002 +1.4036510708E+001  +4.8469286438E-002 -9.2304207873E+001  +2.5048183041E-001 -1.4117450942E+002 
2887339.174 +1.3056956526E-001 -1.7804540813E+002  +7.1673127534E-002 +1.7524790199E+001  +7.2773987346E-002 -8.8092550086E+001  +1.9541455820E-001 -1.3207894347E+002 
3012484.355 +1.4439687039E-001 -1.7221545336E+002  +8.2201811750E-002 -9.8113623766E+000  +7.8447976137E-002 -1.0896435390E+002  +2.7404493972E-001 -1.2662631910E+002 
3137629.537 +1.4186834313E-001 -1.7923963965E+002  +6.9944545692E-002 +5.4069212403E-001  +6.9740140485E-002 -9.9075502165E+001  +2.7281431743E-001 -1.2718639481E+002 
3262774.718 +1.0956720476E-001 -1.7120378279E+002  +1.2731406967E-001 +1.7806684784E+001  +1.3079437233E-001 -7.3201416841E+001  +1.8886432296E-001 -1.0536619756E+002 
3387919.900 +1.1038977519E-001 +1.7365369655E+002  +1.3214634743E-001 +3.7688795582E+001  +1.2628135174E-001 -5.3656942245E+001  +1.1000827621E-001 -9.8937959041E+001 
3513065.081 +1.2910527509E-001 +1.6708260595E+002  +9.9588264932E-002 +5.7430063018E+001  +9.7629068379E-002 -2.7549336603E+001  +1.3211211679E-001 -1.7602973722E+002 
3638210.263 +1.0848576589E-001 +1.5499915651E+002  +1.4918490578E-001 +6.1931444039E+001  +1.4864513386E-001 -2.0956247461E+001  +7.6864101837E-002 +1.5425763281E+002 
3763355.444 +1.7439361951E-001 +1.5175692664E+002  +1.1775000681E-001 +9.9667650439E+001  +1.1455744875E-001 +2.1568334357E+001  +2.4878250717E-001 +1.5140036699E+002 
3888500.626 +1.4697318989E-001 +1.3078155399E+002  +2.3816179066E-001 +8.1189831873E+001  +2.2901484969E-001 +8.4522990695E+000  +2.3697468595E-001 +9.5195909614E+001 
4013645.807 +1.6776880193E-001 +1.5876694411E+002  +1.0286825041E-001 +7.7580477188E+001  +9.8424093661E-002 +6.4828046440E+000  +2.2665742780E-001 +1.7197376770E+002 
4138790.989 +1.3778843176E-001 +1.6452259282E+002  +1.4731751364E-001 +5.8341502267E+001  +1.4428708185E-001 -9.8925501676E+000  +1.5127551791E-001 +1.5212839124E+002 
4263936.170 +1.4451369075E-001 +1.4015787139E+002  +1.8889319665E-001 +7.6392965568E+001  +1.8299936481E-001 +1.2264535671E+001  +2.2866818441E-001 +1.4710002252E+002 
4389081.352 +1.7835336764E-001 +1.5245924202E+002  +1.4764514101E-001 +7.4722609137E+001  +1.4139154347E-001 +1.5653088715E+001  +2.2992171384E-001 +1.5880587611E+002 
4514226.533 +1.5900446646E-001 +1.4336739819E+002  +2.0044375025E-001 +7.7596404205E+001  +1.9152462480E-001 +1.9901143223E+001  +2.9827496834E-001 +1.4674154073E+002 
4639371.715 +2.9646031141E-001 +1.3546057960E+002  +2.9375917751E-001 +1.2304092488E+002  +2.8242659869E-001 +6.9277043226E+001  +6.4312075512E-001 +1.4651818729E+002 
4764516.896 +1.3875125448E+000 +1.1922896518E+002  +1.9423025423E+000 +1.4967204098E+002  +1.9143096411E+000 +1.0017862117E+002  +3.1582134971E+000 +1.4527614806E+002 
4889662.078 +7.8485007878E-001 +7.6878778736E+001  +1.3928964768E+000 +9.2801192728E+001  +1.3403077402E+000 +4.4124489591E+001  +2.0302479069E+000 +8.6494291562E+001 
5014807.259 +4.0608695557E-001 +1.3579291220E+002  +4.0903703938E-001 +1.3951364130E+002  +4.0187620258E-001 +9.3627415301E+001  +9.8959279564E-001 +1.5725636369E+002 
5139952.441 +5.0059646207E-001 +1.1463179003E+002  +6.7252947159E-001 +1.2165726334E+002  +6.3629459128E-001 +8.1314270669E+001  +1.2284888603E+000 +1.4225630896E+002 
5265097.622 +3.0995100003E-001 +1.2403017656E+002  +3.9796985624E-001 +9.9130437695E+001  +3.8554634768E-001 +5.8943830810E+001  +7.5585022632E-001 +1.3711954216E+002 
5390242.804 +3.2220043767E-001 +1.2434939283E+002  +4.1349039543E-001 +1.0332909154E+002  +3.9700013644E-001 +6.5741632001E+001  +8.8325251614E-001 +1.4478166155E+002 
5515387.985 +3.5271244334E-001 +1.2391751144E+002  +4.4899111667E-001 +9.7086930197E+001  +4.2913833809E-001 +6.3137256558E+001  +8.5364233333E-001 +1.3568216229E+002 
5640533.166 +3.2093970447E-001 +1.3164828620E+002  +3.8440902369E-001 +8.8321966050E+001  +3.7630776772E-001 +5.6863788354E+001  +7.8545874535E-001 +1.3726134324E+002 
5765678.348 +3.6388798990E-001 +1.2894030825E+002  +4.2881182270E-001 +9.2972571618E+001  +4.1516207727E-001 +6.5319620735E+001  +9.3296092796E-001 +1.4020364358E+002 
5890823.529 +3.5886113294E-001 +1.2744731981E+002  +4.8450683955E-001 +8.4733654697E+001  +4.7714297832E-001 +5.8033086852E+001  +1.0076202961E+000 +1.2879490271E+002 
6015968.711 +3.7032200535E-001 +1.2522543890E+002  +4.8771492498E-001 +7.5880713446E+001  +4.7558901109E-001 +5.2120146774E+001  +8.4680687740E-001 +1.2567606634E+002 
6141113.892 +4.2639748350E-001 +1.1888110113E+002  +6.0820429160E-001 +7.7983255324E+001  +5.9952516306E-001 +5.6145628851E+001  +1.1082134957E+000 +1.1868252212E+002 
6266259.074 +4.2932050580E-001 +1.0290107660E+002  +7.5176661379E-001 +6.9819743547E+001  +7.3929018806E-001 +5.0796918397E+001  +1.2029193204E+000 +1.1335268161E+002 
6391404.255 +3.4960090676E-001 +9.7254976938E+001  +7.7108096047E-001 +5.3054953338E+001  +7.6493325455E-001 +3.6773304941E+001  +1.0017195247E+000 +9.8393905958E+001 
6516549.437 +2.9259526976E-001 +8.4669148739E+001  +8.4999792695E-001 +3.7439792096E+001  +8.4377376821E-001 +2.3922315765E+001  +8.5249839526E-001 +7.5009411095E+001 
6641694.618 +1.7639825720E-001 +9.6816663132E+001  +8.0633744376E-001 +2.5177027598E+001  +7.9506626592E-001 +1.3895720052E+001  +6.6192140023E-001 +6.7045519311E+001 
6766839.800 +1.6241155387E-001 +8.0956286544E+001  +8.6597778536E-001 +2.1937379343E+001  +8.6374038695E-001 +1.2166880024E+001  +6.9219224563E-001 +6.9442327526E+001 
6891984.981 +1.1801155420E-001 +5.1757085410E+001  +9.0727069131E-001 +1.3831092115E+001  +9.0229859430E-001 +5.6863922767E+000  +5.4051268838E-001 +5.7683848339E+001 
7017130.163 +1.1876223770E-001 +1.2018089652E+002  +8.5020246578E-001 +8.7463195393E+000  +8.5279342413E-001 +2.7466400868E+000  +3.9668932293E-001 +4.6514298854E+001 
7142275.344 +6.5565782753E-002 +2.9904835587E+001  +9.3956475424E-001 +3.4684891632E+000  +9.3555097100E-001 -6.6962155212E-002  +2.3690851739E-001 +9.3739453611E+000 
7267420.526 +3.3485764361E-002 +1.8339116086E+001  +9.6016349859E-001 +3.0038552446E+000  +9.5249144127E-001 +1.1759507498E+000  +3.3875244169E-001 +3.9924869160E+001 
7392565.707 +4.0988703499E-002 -1.0689775887E+002  +9.8102421167E-001 -6.6543979689E-002  +9.8904149521E-001 +2.6820414192E-001  +1.0697720919E-001 +6.8861736418E+000 
7517710.889 +1.7850247922E-001 +1.0050305693E+002  +9.1380709874E-001 +2.1513895511E-001  +9.2106417216E-001 +1.8273544869E+000  +8.1393810288E-002 +1.0302325389E+002 
7642856.070 +2.3489342624E-001 +1.1696301895E+002  +8.7349065063E-001 -1.3137696500E+000  +8.7668999325E-001 +1.6396593040E+000  +1.4022835549E-001 +1.2061116152E+002 
7768001.252 +2.2010881974E-001 +1.4916830589E+002  +8.6456822191E-001 -4.2337981301E+000  +8.6053534738E-001 +6.9115112826E-001  +1.2106269800E-001 +1.5669411637E+002 
7893146.433 +2.5692757490E-001 +1.2859976008E+002  +8.3039441563E-001 -4.1956492484E+000  +8.2437530721E-001 +1.9414898470E+000  +1.6818310058E-001 +1.5065339761E+002 
8018291.615 +2.8573424288E-001 +1.3167843751E+002  +8.0251104209E-001 -5.0196331183E+000  +8.0031503418E-001 +2.5122583290E+000  +1.9803920951E-001 +1.4602477991E+002 
8143436.796 +2.4962268587E-001 +1.4451821796E+002  +7.9095540502E-001 -6.4410735882E+000  +7.8752477698E-001 +2.6835444946E+000  +2.7419370210E-001 +1.2691155666E+002 
8268581.977 +2.3249871727E-001 +1.2996219234E+002  +7.7186553498E-001 -6.0340492830E+000  +7.6767651637E-001 +4.0106983892E+000  +3.0325417092E-001 +1.2543489890E+002 
8393727.159 +3.3829508006E-001 +1.3883022569E+002  +7.4295812455E-001 -7.2199424678E+000  +7.3531386982E-001 +3.6024636063E+000  +3.0536681682E-001 +1.1841196620E+002 
8518872.340 +2.9884819218E-001 +1.2356455108E+002  +7.3900009535E-001 -6.5201250483E+000  +7.3113200198E-001 +5.3671910511E+000  +3.0878970469E-001 +1.2888395768E+002 
8644017.522 +2.7866354306E-001 +1.3660503410E+002  +7.3589713246E-001 -7.3488310969E+000  +7.2807626201E-001 +5.1365918767E+000  +2.9889595028E-001 +1.1818779296E+002 
8769162.703 +2.7478435516E-001 +1.3962647371E+002  +7.2601884127E-001 -7.6093180155E+000  +7.2188922555E-001 +5.5252865848E+000  +3.0681948931E-001 +1.1612808090E+002 
8894307.885 +2.6440004777E-001 +1.2933522531E+002  +7.2529270131E-001 -7.5084736649E+000  +7.1979105861E-001 +6.6228290229E+000  +2.8977550681E-001 +1.2365493273E+002 
9019453.066 +2.8693858822E-001 +1.3970095720E+002  +7.1074940700E-001 -7.9588767102E+000  +7.0464523951E-001 +6.1987060151E+000  +3.6019870354E-001 +1.1245120323E+002 
9144598.248 +3.1974204845E-001 +1.3709228466E+002  +7.1000214006E-001 -8.7597084596E+000  +7.0913192172E-001 +6.1334217800E+000  +2.7692757086E-001 +1.2957922751E+002 
9269743.429 +3.2964470584E-001 +1.3574645494E+002  +6.9977485239E-001 -9.1485482667E+000  +7.0121979982E-001 +6.0987485881E+000  +3.1658891069E-001 +1.3117126123E+002 
9394888.611 +2.8305445017E-001 +1.4244918472E+002  +7.1435256216E-001 -9.6586998623E+000  +7.0834787246E-001 +5.7246612938E+000  +3.1416911657E-001 +1.3825310615E+002 
9520033.792 +3.1261296162E-001 +1.4145869864E+002  +7.0560750355E-001 -9.5611714288E+000  +7.0482401012E-001 +6.1419847129E+000  +2.7496305745E-001 +1.3599867353E+002 
9645178.974 +3.0042426689E-001 +1.4124443645E+002  +7.0524180970E-001 -9.5526519366E+000  +7.0438416464E-001 +6.3472855897E+000  +2.8011041092E-001 +1.3829897130E+002 
9770324.155 +2.6956931267E-001 +1.4412008436E+002  +7.1370090177E-001 -9.6261021405E+000  +7.1004464434E-001 +6.4355101600E+000  +2.9828807345E-001 +1.4243986493E+002 
9895469.337 +3.1598220763E-001 +1.5609479610E+002  +7.1711051028E-001 -1.0979275284E+001  +7.1265745159E-001 +4.8872409654E+000  +2.9698655650E-001 +1.4701467452E+002 
10020614.518 +2.5689061446E-001 +1.5723150990E+002  +7.2466562893E-001 -9.7525376445E+000  +7.2025080252E-001 +6.1073632189E+000  +2.7351774932E-001 +1.4186687409E+002 
10145759.700 +2.6362001283E-001 +1.4572171376E+002  +7.1717551122E-001 -9.3552546256E+000  +7.1539917621E-001 +6.4340219286E+000  +2.9948817676E-001 +1.4065336047E+002 
10270904.881 +2.7360255943E-001 +1.3702282246E+002  +7.1394720045E-001 -8.5848820443E+000  +7.1083066676E-001 +7.2186998313E+000  +2.7449163439E-001 +1.3907735437E+002 
10396050.063 +3.0822377777E-001 +1.4803066947E+002  +7.1833506521E-001 -9.1700720160E+000  +7.1374178909E-001 +6.1137318050E+000  +2.5402459354E-001 +1.3904524093E+002 
10521195.244 +2.7593018141E-001 +1.3764489604E+002  +7.1696579238E-001 -8.3730953935E+000  +7.1271072511E-001 +6.8320265467E+000  +2.9267263074E-001 +1.3436340716E+002 
10646340.426 +2.6776177602E-001 +1.3625101313E+002  +7.2074705245E-001 -7.7103076613E+000  +7.1670472318E-001 +7.1425798367E+000  +2.5977160876E-001 +1.2825535325E+002 
10771485.607 +2.7069740662E-001 +1.4022172105E+002  +7.2658581252E-001 -8.0546952128E+000  +7.2327301715E-001 +6.3673600509E+000  +2.7669942943E-001 +1.3440952065E+002 
10896630.788 +2.7560767403E-001 +1.3599045303E+002  +7.2599966208E-001 -7.3514044977E+000  +7.2233874789E-001 +6.9357446664E+000  +2.7227613984E-001 +1.3165877257E+002 
11021775.970 +2.7767420987E-001 +1.3710961744E+002  +7.2915986000E-001 -7.2441650408E+000  +7.2258328872E-001 +6.5039621713E+000  +2.8036599164E-001 +1.2819565361E+002 
11146921.151 +2.7501207878E-001 +1.3626024408E+002  +7.3201095063E-001 -6.8530848072E+000  +7.2617651637E-001 +6.4972064863E+000  +2.7746703435E-001 +1.2416416907E+002 
11272066.333 +2.6063064577E-001 +1.3396031174E+002  +7.3938797401E-001 -6.3714945405E+000  +7.3364528406E-001 +6.4675749640E+000  +2.7666971471E-001 +1.2708713714E+002 
11397211.514 +2.7341860829E-001 +1.3403255280E+002  +7.4286824926E-001 -6.2009795665E+000  +7.3830257387E-001 +6.0716745649E+000  +2.5879728108E-001 +1.2721995136E+002 
11522356.696 +2.3511223462E-001 +1.3663100774E+002  +7.5296066937E-001 -5.8126390280E+000  +7.4850459329E-001 +5.9780118122E+000  +2.7240768557E-001 +1.2651086038E+002 
11647501.877 +2.4500353603E-001 +1.3877839624E+002  +7.6057033619E-001 -6.0772053896E+000  +7.5835797690E-001 +5.1447648437E+000  +2.7130699705E-001 +1.3358679544E+002 
11772647.059 +2.2333711382E-001 +1.3111847609E+002  +7.6466392333E-001 -5.0737524178E+000  +7.6107050586E-001 +5.8193657755E+000  +2.6380883584E-001 +1.2815720623E+002 
11897792.240 +2.3465123153E-001 +1.3028388395E+002  +7.7245983432E-001 -5.0256940236E+000  +7.6927247463E-001 +5.3112512627E+000  +2.4427201334E-001 +1.3239377696E+002 
12022937.422 +2.2421576974E-001 +1.3540984255E+002  +7.8400697138E-001 -4.4375303339E+000  +7.7763057042E-001 +5.2253270248E+000  +2.2099758963E-001 +1.2339538066E+002 
12148082.603 +2.2298112751E-001 +1.3536016836E+002  +7.9094880350E-001 -4.4183754016E+000  +7.8716368319E-001 +4.7927038631E+000  +2.1993125454E-001 +1.2959394810E+002 
12273227.785 +1.9323392561E-001 +1.3597353812E+002  +8.0145850175E-001 -3.9483571836E+000  +7.9563106551E-001 +4.5019882412E+000  +2.1494150416E-001 +1.2788611956E+002 
12398372.966 +1.9374697980E-001 +1.3530546901E+002  +8.0721961322E-001 -3.6088826000E+000  +8.0130658433E-001 +4.2780855536E+000  +2.0772754625E-001 +1.2337363819E+002 
12523518.148 +2.1089767682E-001 +1.4063937323E+002  +8.2004567461E-001 -3.9296161803E+000  +8.1622184936E-001 +3.5998952089E+000  +1.7393191082E-001 +1.3433910934E+002 
12648663.329 +2.0315628099E-001 +1.3206049580E+002  +8.2374141717E-001 -3.1766618307E+000  +8.2030544051E-001 +3.6010956033E+000  +1.6612011133E-001 +1.3359293049E+002 
12773808.511 +1.4540362379E-001 +1.3089411135E+002  +8.3352468650E-001 -2.7267839741E+000  +8.2836437178E-001 +3.3946946458E+000  +2.1078195247E-001 +1.2846442328E+002 
12898953.692 +1.6209819846E-001 +1.2822678542E+002  +8.4521029457E-001 -2.5519998295E+000  +8.4297175094E-001 +3.0954784143E+000  +1.5648280700E-001 +1.3504861647E+002 
13024098.874 +1.3910788099E-001 +1.2891499225E+002  +8.5695161546E-001 -2.0138959509E+000  +8.5382191247E-001 +3.0789837293E+000  +1.4458947838E-001 +1.3273680515E+002 
13149244.055 +1.4903742534E-001 +1.3065510377E+002  +8.6208493105E-001 -1.9947028744E+000  +8.5802057116E-001 +2.5872995968E+000  +1.4787404924E-001 +1.2961648259E+002 
13274389.237 +1.4140471445E-001 +1.3060279697E+002  +8.7346428745E-001 -2.5387249955E+000  +8.6445883821E-001 +2.0110275384E+000  +1.5116947331E-001 +1.2759800227E+002 
13399534.418 +1.2532919932E-001 +1.3566940061E+002  +8.8622168432E-001 -2.5668894636E+000  +8.7941259285E-001 +1.7445971575E+000  +1.2831751286E-001 +1.3249842865E+002 
13524679.599 +1.1917847721E-001 +1.3829483576E+002  +9.0539532954E-001 -2.1235739785E+000  +8.9008881675E-001 +1.2996055918E+000  +1.2874474378E-001 +1.3521352765E+002 
13649824.781 +1.0738681924E-001 +1.3917849015E+002  +9.0674688965E-001 -1.5169420172E+000  +9.0755019825E-001 +2.0711218851E+000  +1.0955510944E-001 +1.3303095669E+002 
13774969.962 +9.0964243849E-002 +1.3075530261E+002  +9.2137789312E-001 -1.2279396573E+000  +9.1772951515E-001 +5.8089041048E-001  +9.1820783883E-002 +1.3747607861E+002 
13900115.144 +7.8020189037E-002 +1.2225633309E+002  +9.4008750676E-001 -6.8072995275E-001  +9.2156208566E-001 +9.0722640511E-001  +7.2478280356E-002 +1.4787736840E+002 
14025260.325 +7.2615828535E-002 +1.1321552567E+002  +9.3527649783E-001 -1.2914450000E+000  +9.3242757509E-001 +4.9075383786E-001  +8.6310852856E-002 +1.4108519386E+002 
14150405.507 +6.9208400010E-002 +1.2453194788E+002  +9.4371914228E-001 -5.7521543627E-001  +9.3747053874E-001 -8.3549529109E-002  +5.7216217910E-002 +1.4582900044E+002 
14275550.688 +3.8330862292E-002 +1.2694310215E+002  +9.5188142013E-001 -6.7650932786E-001  +9.5335121988E-001 -3.5403285390E-001  +5.8392895752E-002 +1.5517749084E+002 
14400695.870 +4.0132633520E-002 +1.1983452820E+002  +9.6304757666E-001 -1.1160687073E+000  +9.6394855416E-001 +1.7345133503E-001  +5.0123157795E-002 +1.5738372716E+002 
