!  2-Port S-parameters saved by WinCal
! VAR MeasName=S-Parameters (CALIBRATED_DATA) read from VNA (P5004A)
! VAR MeasDate=27/08/2024 15:39:43
! VAR NAME=S2_r6c8_SET2_9k-100M_1
! VAR FILENAME=S2_r6c8_SET2_9k-100M_1.S2P
! VAR DATE=27/08/2024 15:39:43
! VAR PHYS_PORTS=1,2
! VAR ObjTypeName=DATASET
! VAR IndexType=Frequency
!
# Hz S MA R 50
9000.000 +3.3141849910E-002 -1.4814761602E+002  +1.0367020742E-001 +1.3082252159E+002  +6.0170508663E-002 -1.6030210322E+002  +5.3868391904E-001 -5.1728068322E+001 
134145.181 +1.1070752741E-001 +1.6932077037E+002  +1.4020038995E-004 -1.5269826972E+002  +5.4251068045E-004 -5.8675294343E+001  +2.4188643005E-001 -1.6950226478E+002 
259290.363 +1.1209010401E-001 +1.6929953495E+002  +4.0821212422E-004 +1.2273253894E+002  +7.8132069328E-004 +9.9271105622E+001  +2.4437879963E-001 -1.6923165157E+002 
384435.544 +1.1406401410E-001 +1.7007670627E+002  +5.2284808652E-004 -1.7102226113E+002  +8.2107952149E-004 +5.0057913283E+001  +2.4790655792E-001 -1.6745567384E+002 
509580.726 +1.1541302087E-001 +1.7113489995E+002  +1.4946665758E-003 -1.6802900565E+002  +4.9498898772E-004 -2.6644655885E+001  +2.0787290674E-001 -1.6543829327E+002 
634725.907 +1.1818785848E-001 +1.7106411064E+002  +4.7202642614E-004 -1.2590337749E+001  +8.2711657250E-004 +6.4406301431E+001  +2.2867540986E-001 -1.6511270516E+002 
759871.089 +1.1785128286E-001 +1.7032771320E+002  +2.4644901736E-004 +1.0651196495E+002  +4.7201407957E-004 -1.4551682837E+002  +2.5074479381E-001 -1.6567479694E+002 
885016.270 +1.1905720175E-001 +1.6906601999E+002  +3.6692805238E-004 -1.1766565555E+002  +6.6075386439E-004 -3.9828371313E+001  +2.3908715535E-001 -1.6623599414E+002 
1010161.452 +1.1746261972E-001 +1.7102098701E+002  +2.1012931802E-003 +1.0766662318E+002  +4.8775268724E-003 -5.6242114686E+001  +1.3222575561E-001 -1.3355563555E+002 
1135306.633 +1.1898240085E-001 +1.7040827419E+002  +2.9460333346E-003 -1.0857682282E+002  +2.3131114331E-003 -1.2249602841E+002  +1.5179170086E-001 -1.4510834372E+002 
1260451.815 +1.1986156962E-001 +1.7264376469E+002  +9.1069868896E-004 +3.2332112911E+001  +1.0885219973E-003 +1.7461586840E+002  +2.3947214160E-001 -1.5760264720E+002 
1385596.996 +1.2567109800E-001 +1.7270953748E+002  +9.9322753567E-004 -1.3510963661E+002  +4.8645091442E-004 +1.0370035983E+002  +2.7569934767E-001 -1.5862831654E+002 
1510742.178 +1.2565200541E-001 +1.7265610350E+002  +1.5919884271E-003 +1.7906663559E+002  +3.9362433380E-004 +1.1797051742E+002  +2.6967535425E-001 -1.5445382374E+002 
1635887.359 +1.2987086310E-001 +1.7013786385E+002  +9.0198783518E-004 +1.1638679168E+002  +2.9778916073E-004 -1.3032618283E+002  +2.1854441776E-001 -1.5701338621E+002 
1761032.541 +1.2918328769E-001 +1.6899465256E+002  +1.3770160740E-003 -1.2497827294E+002  +7.4863861794E-004 +1.3772869027E+001  +1.9298098613E-001 -1.5655671829E+002 
1886177.722 +1.2749197967E-001 +1.6796122536E+002  +1.3028073428E-003 +1.6529121990E+002  +1.5077731602E-003 -6.9757232482E+001  +1.9729416962E-001 -1.6969572976E+002 
2011322.904 +1.3305855203E-001 +1.6486653055E+002  +1.0774321741E-003 -9.0976420429E+001  +1.4273578243E-003 -3.9023569829E+001  +1.9581292845E-001 -1.7059154456E+002 
2136468.085 +1.2889665977E-001 +1.6480891297E+002  +2.1450592033E-003 +8.8907381813E+001  +2.0968895274E-003 -1.0876380732E+002  +2.2992637708E-001 -1.7725771468E+002 
2261613.267 +1.3016565430E-001 +1.6603557903E+002  +3.3510926086E-003 +1.2149188976E+002  +1.1774854421E-003 +4.6432242472E+000  +2.1144016030E-001 +1.7880270863E+002 
2386758.448 +1.2923846040E-001 +1.6131155124E+002  +1.2589712872E-003 +1.3376804907E+001  +2.0051702144E-003 -1.2351579141E+002  +1.8949652252E-001 +1.7136810830E+002 
2511903.630 +1.3372132658E-001 +1.6361344790E+002  +8.9761336883E-003 +7.0794743598E+001  +8.5062487553E-003 -4.8649647532E+001  +3.2842972755E-001 +1.2786954570E+002 
2637048.811 +1.1503600831E-001 +1.6760562380E+002  +9.1730367940E-003 +1.2949634813E+002  +3.7921528503E-003 -1.6840239633E+002  +3.3516231239E-001 +1.3327648086E+002 
2762193.992 +1.1091798166E-001 +1.7588736840E+002  +8.4820981733E-003 -5.7633398495E+001  +8.3494381470E-003 +1.6251435403E+002  +3.8367715640E-001 -1.0690894075E+002 
2887339.174 +1.0028433134E-001 +1.7303611168E+002  +5.2205767574E-002 +8.3432422314E+001  +7.9253160650E-003 -2.2785901580E+001  +1.1518952555E+000 +9.6347356963E+001 
3012484.355 +1.0518629854E-001 +1.6120514618E+002  +2.7486909915E-002 -1.2205831984E+001  +2.4684970233E-002 -8.4481089831E+001  +2.9174945015E-001 -6.9947505247E+000 
3137629.537 +1.3483918398E-001 +1.6866646341E+002  +5.1809011361E-003 +9.5677048275E+001  +1.4915157742E-002 +1.3584271736E+002  +3.6629477530E-001 -3.4580376930E+001 
3262774.718 +1.2478962246E-001 +1.6840294564E+002  +1.6371306515E-001 -3.4838187839E+001  +1.7601218333E-001 -6.0080845331E+001  +4.6868108746E+000 +1.3234470082E+001 
3387919.900 +1.2891383804E-001 +1.6065926263E+002  +1.6879552457E-002 -5.4185006270E+001  +2.7822633228E-002 -5.7792595123E+001  +7.7993884718E-001 -1.9467913157E+001 
3513065.081 +1.5698027830E-001 +1.5493907738E+002  +6.4413826812E-003 -1.6682294393E+002  +1.2631034033E-002 +4.7127035808E+001  +5.3417293720E-001 +9.4991401488E+001 
3638210.263 +1.6451042556E-001 +1.5075932736E+002  +3.6307892103E-003 +1.5853946242E+002  +1.2101194243E-002 +1.4162949409E+002  +9.1853470803E-001 +1.7056273771E+002 
3763355.444 +1.6150913374E-001 +1.4605371352E+002  +1.9092542299E-002 +1.1780023943E+002  +9.2401806596E-003 +8.8010870533E+001  +6.2397731856E-001 +1.4936043583E+002 
3888500.626 +1.8120703088E-001 +1.4864137802E+002  +5.7755498696E-003 +6.3101896851E+000  +5.1636958825E-003 -9.2851892227E+000  +1.1389141583E-001 +1.1610904145E+002 
4013645.807 +1.5411210194E-001 +1.4891307795E+002  +6.9659090173E-002 +1.0154669471E+002  +2.4817073422E-002 +7.9908783742E+001  +2.1421490003E+000 +1.4251241258E+002 
4138790.989 +1.9847183912E-001 +1.4628532087E+002  +2.0229156180E-002 +8.3198449119E+001  +3.1310863496E-002 +1.0665281442E+001  +7.0061050021E-001 +8.3682434280E+001 
4263936.170 +2.0559349139E-001 +1.4454334225E+002  +7.5766475057E-003 -5.3503556790E+001  +1.4954324965E-002 +8.9428135851E+000  +4.1766339952E-001 +7.8136392903E+001 
4389081.352 +2.4925002273E-001 +1.4011145073E+002  +2.4069775872E-002 +1.6521003021E+002  +7.9551929890E-003 +1.0714354397E+002  +8.2469978820E-001 +1.4022729671E+002 
4514226.533 +2.6020522737E-001 +1.3247074847E+002  +2.7612980211E-003 +1.0601113690E+002  +2.9349539988E-002 +1.6458932778E+002  +1.7952902988E+000 +1.4171077067E+002 
4639371.715 +3.2626827315E-001 +1.3015047641E+002  +3.3068909560E-002 +8.0603096011E+001  +6.9816523381E-003 -6.6477591463E+001  +1.1333030117E+000 +9.7527948595E+001 
4764516.896 +2.8465114644E-001 +1.3241881264E+002  +3.0610901386E-002 -1.5141259332E+002  +3.0126956810E-002 -1.6835835642E+002  +2.1488997065E+000 -1.3577594950E+002 
4889662.078 +4.8029446583E-001 +1.3358235310E+002  +5.3335006785E-002 -6.4129417050E+001  +1.0742774337E-001 -1.1200265100E+002  +4.2644585829E+000 -1.3182142770E+002 
5014807.259 +4.1493672483E-001 +1.1188622359E+002  +3.9564889855E-001 -1.4634895799E+002  +3.3353162461E-001 -1.5111237626E+002  +9.0063925482E+000 -1.2266295330E+002 
5139952.441 +3.9236977987E-001 +1.1252052246E+002  +7.6485930663E-002 +1.1378563334E+002  +7.8326222038E-003 -1.7900501531E+001  +2.9182170955E+000 +9.4727889114E+001 
5265097.622 +3.7177142134E-001 +1.3340683166E+002  +3.8825523235E-002 +1.5765457058E+002  +1.8154362554E-001 +1.1606871939E+002  +8.2730597593E+000 +1.0349116569E+002 
5390242.804 +4.0244593893E-001 +1.3190383515E+002  +2.2640895546E-002 +9.3329399325E+001  +4.5200079014E-002 +5.8968187783E+001  +1.0413771944E+000 +5.8271348305E+001 
5515387.985 +4.8813255663E-001 +1.3139916010E+002  +1.9141364183E-002 +8.2939658746E+001  +2.7104085925E-002 +1.4665941280E+002  +1.3772198167E+000 +9.7218876043E+001 
5640533.166 +4.0340916092E-001 +1.1651473244E+002  +3.0960630252E-002 +1.3650679802E+002  +4.5575075705E-002 +5.1760593421E+001  +2.0492838097E+000 +9.3277651894E+001 
5765678.348 +4.9284381683E-001 +1.2498095364E+002  +2.9688217893E-002 +1.4841920968E+002  +3.3361778694E-002 +3.9953355878E+001  +1.5564720796E+000 +5.2722778891E+001 
5890823.529 +5.8079693459E-001 +1.1686639679E+002  +2.3205431063E-002 +1.0182592662E+002  +4.2627493850E-002 +8.3185638844E+001  +2.3749019426E+000 +6.6629221883E+001 
6015968.711 +5.9258657807E-001 +1.1825197648E+002  +1.6552683356E-002 +9.3558215875E+001  +3.8056305015E-003 +7.5622252723E+001  +1.5436115630E+000 +2.2526396904E+001 
6141113.892 +8.6597466872E-001 +1.0952317448E+002  +3.5769845110E-002 +1.1048260843E+002  +2.1625108728E-002 +5.8588574275E+001  +1.2219467245E+000 +6.3205116784E+001 
6266259.074 +9.3580101038E-001 +1.0993808188E+002  +1.7702864212E-002 +1.2718992401E+002  +4.9780777542E-002 +7.3597519025E+001  +1.7765091823E+000 +4.2512709915E+001 
6391404.255 +8.2266286543E-001 +8.8818662422E+001  +3.4239412846E-002 +5.4185793754E+001  +3.2893540326E-002 +4.8510816300E+001  +1.5758095699E+000 +5.7536055866E+000 
6516549.437 +1.0909810507E+000 +7.7287103258E+001  +5.2406140026E-002 +4.3495192048E+001  +2.9234793406E-002 -7.3384245382E+000  +1.3483430366E+000 +3.0173944384E+000 
6641694.618 +1.3508115050E+000 +8.8274491477E+001  +1.8125396736E-002 +9.4237733587E+001  +2.6155532938E-002 +2.1331509472E+001  +1.2191644422E+000 -5.9112065240E+000 
6766839.800 +2.1003275706E+000 +5.2956085603E+001  +3.1388114374E-002 +1.7573751815E+001  +3.1926416701E-002 +2.4128525813E+000  +1.3246779823E+000 -6.2931936783E+000 
6891984.981 +1.9642302077E+000 +2.1827586479E+001  +1.7294299268E-002 +6.0347066464E+001  +4.7344750116E-002 +1.4687827854E+001  +1.3881494065E+000 +7.9525508964E-002 
7017130.163 +2.1325033240E+000 +2.5951926737E+001  +5.3569522002E-002 +1.4386346583E+001  +5.6666405177E-002 +2.8222922202E+001  +1.3023854658E+000 -1.9033985417E+001 
7142275.344 +1.5941445813E+000 +1.2711238405E+001  +3.0427561181E-002 -7.0978024366E+000  +2.8221187056E-002 +1.2873546798E+001  +1.3750586160E+000 -1.7386104641E+001 
7267420.526 +1.6771433506E+000 +6.7428570525E+000  +3.0264733228E-002 +8.2195301631E-001  +3.6882285124E-002 +1.2276219095E+001  +1.3933231026E+000 -8.4634832443E+000 
7392565.707 +1.4619055161E+000 -3.3345108449E+000  +2.0498586236E-002 +1.1110830306E+001  +2.1233986376E-002 +2.0473294118E+001  +1.2424626180E+000 -6.8340234661E+000 
7517710.889 +1.2434204837E+000 -1.8298598502E+000  +1.9765543802E-002 +1.4298350582E+001  +1.5801808584E-002 +3.8579587342E+000  +1.2061061863E+000 -3.7067652276E+000 
7642856.070 +9.2247735010E-001 +3.2705235638E+000  +1.5885916764E-002 +9.7069348392E+000  +1.5818892201E-002 +1.9334512604E+001  +1.1165278828E+000 -8.5535132675E+000 
7768001.252 +8.3834652986E-001 -1.0502356764E+000  +1.3317346034E-002 +2.7152352671E+001  +1.8259421686E-002 +9.7163652000E+000  +1.0506401858E+000 -1.4899160735E+000 
7893146.433 +8.8565825307E-001 +1.7722702056E+000  +1.4077656754E-002 -3.4189605463E+000  +1.3846485380E-002 -6.9792887894E+000  +9.0508379296E-001 -3.4011104053E+000 
8018291.615 +7.9395620870E-001 +7.9853008886E+000  +1.8949523560E-002 +1.2308624513E+001  +1.5240582297E-002 +2.0477611675E+001  +8.5759655772E-001 -2.5422250756E+000 
8143436.796 +7.7191915130E-001 +8.1026425982E+000  +1.4366819675E-002 +1.9303475500E+001  +1.2756196278E-002 +4.3104129538E+001  +7.3427988492E-001 +1.8212109764E-001 
8268581.977 +8.2135162690E-001 +4.7293839892E+000  +1.4067719540E-002 +4.9728726817E+000  +1.4658500105E-002 +2.3217004141E+001  +7.6118828442E-001 +5.7320651360E+000 
8393727.159 +6.9549251848E-001 +6.8905426665E+000  +1.3937375263E-002 +1.3412547719E+001  +1.5784807689E-002 +3.4343662670E+001  +7.6280443151E-001 -1.2608706485E+000 
8518872.340 +6.1878167955E-001 +7.6101172803E+000  +1.1540965668E-002 -9.4468072945E+000  +1.2611885681E-002 +2.9729661844E+001  +6.8406787750E-001 +6.6694768113E-001 
8644017.522 +6.4085224519E-001 +4.5302986345E+000  +1.1024180640E-002 +8.2944084646E+000  +8.1186582221E-003 +5.3655996221E+000  +6.5780733938E-001 +4.8490369870E+000 
8769162.703 +6.4273580577E-001 +4.2211745990E+000  +1.2474879116E-002 +7.8646490447E+000  +1.2530073039E-002 +3.0755958262E+001  +6.0557493629E-001 -1.5321811159E+000 
8894307.885 +5.9046282558E-001 +2.2966515529E+000  +1.3626597567E-002 +5.5839526059E+000  +1.4032011441E-002 +1.4486169018E+001  +6.3899259476E-001 +3.3746576863E+000 
9019453.066 +5.6031000593E-001 +4.2597365592E+000  +1.1695911691E-002 -1.1961356786E+000  +1.1762708859E-002 +4.6652040148E+001  +6.5285652243E-001 -2.9774481359E-001 
9144598.248 +5.4246028411E-001 +1.1791316066E+001  +1.6085347487E-002 +1.7320938041E+001  +1.2308055374E-002 +2.1598430873E+001  +6.0552745759E-001 -3.4213534129E+000 
9269743.429 +5.4148029901E-001 +4.1548239027E+000  +1.2623454325E-002 +2.0798601570E+001  +1.3681554503E-002 +2.1666414289E+001  +6.0135581632E-001 -3.0236375932E+000 
9394888.611 +5.9221996159E-001 +1.0173433759E+000  +1.3675501665E-002 +1.8074048967E+001  +1.2630111407E-002 +2.4323266886E+001  +5.9456279218E-001 -9.8845797876E-001 
9520033.792 +5.4331702709E-001 -1.1735295841E-001  +1.4706906668E-002 -1.8672066246E+000  +1.1855774575E-002 +2.4725863095E+001  +5.9129294686E-001 -5.2129645997E+000 
9645178.974 +5.4493471844E-001 +1.9359672104E+000  +1.5647688577E-002 +1.5668074292E+001  +1.6366485481E-002 +2.1711942640E+001  +5.8881123686E-001 -2.8621894463E+000 
9770324.155 +5.2635547447E-001 -1.9367222043E+000  +1.5029740802E-002 +1.6065164388E+001  +1.6298213862E-002 +3.6324693894E+001  +6.0336157254E-001 -4.9297856010E+000 
9895469.337 +5.4196419056E-001 +4.2015286230E+000  +1.1901845291E-002 +4.0233331656E-001  +1.3814295615E-002 +2.4763622657E+001  +5.6523996645E-001 -6.3352400423E+000 
10020614.518 +5.4170547004E-001 +2.4632537963E+000  +1.3415192283E-002 +1.3408586806E+001  +1.4003680712E-002 +2.5966903954E+001  +5.7857892401E-001 -6.6896441067E+000 
10145759.700 +5.1460370822E-001 +5.4532103115E+000  +1.4473155984E-002 +1.7989557209E+001  +1.3103000245E-002 +2.6365579541E+001  +5.9140602292E-001 -3.2082262377E+000 
10270904.881 +5.6166460772E-001 +3.8643481352E+000  +1.3463205354E-002 +2.1580354093E+001  +1.2674175463E-002 +3.9011190885E+001  +5.7916263245E-001 -3.3364151882E+000 
10396050.063 +5.4012520532E-001 +5.9099709780E+000  +1.4104898480E-002 +1.7103457702E+001  +1.5812053471E-002 +2.4866640100E+001  +5.8073774406E-001 +3.3840907102E+000 
10521195.244 +5.6964496038E-001 +7.4006223883E+000  +1.3687766671E-002 +1.6072223450E+001  +1.2101588380E-002 +2.4581258051E+001  +5.9539182346E-001 -1.7603481649E+000 
10646340.426 +5.3276239694E-001 +1.4869372449E+000  +1.3984951438E-002 +1.6065733742E+001  +1.2537918057E-002 +2.0346278017E+001  +5.5681983505E-001 +3.3932006174E+000 
10771485.607 +6.0136804007E-001 +8.3160445356E+000  +1.2420577493E-002 +1.5372264720E+001  +1.3767595483E-002 +3.3559335408E+001  +5.9186602623E-001 +1.6954496245E+000 
10896630.788 +5.9262929485E-001 +4.4665125571E+000  +1.4397416221E-002 +1.6717162719E+001  +1.4259453167E-002 +3.0921017113E+001  +5.5235752404E-001 -9.0225069285E-002 
11021775.970 +5.7969680738E-001 +4.1896885800E+000  +1.3706386144E-002 +1.9935349410E+001  +1.4201855784E-002 +2.4878037457E+001  +5.8997311652E-001 -1.2315356447E+000 
11146921.151 +5.8673759553E-001 +8.4105566041E+000  +1.3065072306E-002 +1.6006795431E+001  +1.6324440870E-002 +2.3678725287E+001  +5.7810787324E-001 +6.9262004562E-001 
11272066.333 +5.7680873618E-001 +3.9680846461E+000  +1.4499687563E-002 +2.4262408743E+001  +1.3493396770E-002 +4.6411623190E+001  +6.5176857783E-001 +2.7680129531E+000 
11397211.514 +5.9312892562E-001 +5.1458810169E+000  +1.2065982081E-002 +2.7900928221E+001  +1.4184429456E-002 +2.9537722256E+001  +6.6684428291E-001 +1.3060670221E+000 
11522356.696 +6.2195502887E-001 +4.1659221758E+000  +1.5364227658E-002 +2.3297684884E+001  +1.4040699029E-002 +3.2235975284E+001  +6.6840980162E-001 +8.7832519279E-001 
11647501.877 +5.9864152899E-001 +8.4431395699E+000  +1.4545463083E-002 +2.3637076464E+001  +1.3743062785E-002 +2.7212398033E+001  +6.6373858171E-001 +1.9116545458E+000 
11772647.059 +6.1522681095E-001 +5.7796312833E+000  +1.4146729770E-002 +2.0112706720E+001  +1.4101708538E-002 +3.3537145788E+001  +6.4361133766E-001 +3.0642146955E+000 
11897792.240 +6.2464649618E-001 +5.0237980689E+000  +1.5172386929E-002 +2.2517516152E+001  +1.5450914619E-002 +3.2569631196E+001  +6.6154391879E-001 -3.1451529764E-001 
12022937.422 +6.5717282133E-001 +4.8850916886E+000  +1.4351126414E-002 +2.9439030478E+001  +1.4434740022E-002 +2.4296964913E+001  +6.4687261563E-001 +2.3677503110E+000 
12148082.603 +6.7191791346E-001 +3.7244858559E+000  +1.5050090494E-002 +2.4094994834E+001  +1.5967472537E-002 +3.5848708760E+001  +6.8174949862E-001 -2.0831261553E-001 
12273227.785 +6.7766898696E-001 +5.3790846317E+000  +1.6780411196E-002 +2.2442741992E+001  +1.4019124467E-002 +2.5517556139E+001  +7.0672470438E-001 -1.0354118921E+000 
12398372.966 +6.9761155382E-001 +2.3853827691E+000  +1.5145329375E-002 +2.8072065389E+001  +1.6120972547E-002 +3.5891737180E+001  +6.8349458932E-001 -6.0975436880E-001 
12523518.148 +6.9255333036E-001 -3.9263227442E-001  +1.5105076137E-002 +2.4317712335E+001  +1.6394858693E-002 +2.0388029094E+001  +7.3411651690E-001 +2.7055910591E-002 
12648663.329 +7.0547473166E-001 +2.4255114532E+000  +1.5981395558E-002 +2.9704229746E+001  +1.5001268808E-002 +3.0038559847E+001  +7.6074459322E-001 -1.3711164670E+000 
12773808.511 +7.4767592358E-001 +1.3693752593E+000  +1.6170439988E-002 +2.5946850429E+001  +1.7245588798E-002 +2.6253697471E+001  +7.6674828214E-001 -1.7770221608E+000 
12898953.692 +7.5689226488E-001 +3.1997208867E-001  +1.6259496917E-002 +2.0466192154E+001  +1.6502990818E-002 +2.8595634216E+001  +7.7604332252E-001 -7.1170672615E-001 
13024098.874 +7.5201991491E-001 +1.6422889715E+000  +1.5777885506E-002 +2.1713879179E+001  +1.7238857166E-002 +2.5888731617E+001  +7.8151705447E-001 -3.1215581306E+000 
13149244.055 +7.9198613353E-001 +8.8315314405E-001  +1.6985441221E-002 +2.6224111307E+001  +1.6469260041E-002 +3.5814300525E+001  +8.0408974905E-001 -8.7341367310E-001 
13274389.237 +8.0481707025E-001 -5.6125564569E-001  +1.6416800131E-002 +2.8686112065E+001  +1.5167691705E-002 +3.0431889639E+001  +8.2837036335E-001 -2.3889310588E+000 
13399534.418 +8.3067634896E-001 -1.3818600196E-001  +1.5269439303E-002 +2.1372415834E+001  +1.7943457963E-002 +2.8234275228E+001  +8.3494798720E-001 -1.8060548815E+000 
13524679.599 +8.3925026901E-001 -5.9218134523E-001  +1.8176428690E-002 +2.4090554697E+001  +1.7334197933E-002 +2.7030763448E+001  +8.5394408914E-001 -2.4024239385E+000 
13649824.781 +8.3909123765E-001 -2.9894094010E+000  +1.7227077511E-002 +2.6710352305E+001  +1.6577396726E-002 +2.4237906859E+001  +8.7603421549E-001 -2.8362011365E+000 
13774969.962 +8.8170187215E-001 -1.6495041535E+000  +1.6542862363E-002 +2.3943111934E+001  +1.6772405771E-002 +3.0335565747E+001  +8.8147050782E-001 -3.0247576600E+000 
13900115.144 +8.9887077165E-001 -4.3630488192E+000  +1.6163916712E-002 +2.7814326158E+001  +1.8427778910E-002 +2.5378034734E+001  +9.0460622860E-001 -3.2383817403E+000 
14025260.325 +9.1381885231E-001 -2.9186510106E+000  +1.8450056715E-002 +2.3199840689E+001  +1.6512229587E-002 +2.9646904335E+001  +9.0500124225E-001 -4.3911904464E+000 
14150405.507 +9.2334212167E-001 -4.7746376482E+000  +1.7574269634E-002 +2.9400658973E+001  +1.7038798294E-002 +2.5491107730E+001  +9.3415331435E-001 -4.4286039827E+000 
14275550.688 +9.3898355431E-001 -4.7885144729E+000  +1.7929059556E-002 +2.4496118641E+001  +1.6269172863E-002 +2.3858419236E+001  +9.6290420442E-001 -4.0258173838E+000 
14400695.870 +9.6187164517E-001 -4.3202840986E+000  +1.6956499887E-002 +2.7040304026E+001  +1.7287564535E-002 +2.8712829018E+001  +9.8195321869E-001 -4.6196492383E+000 
