!  2-Port S-parameters saved by WinCal
! VAR MeasName=S-Parameters (CALIBRATED_DATA) read from VNA (P5004A)
! VAR MeasDate=27/08/2024 16:24:58
! VAR NAME=S2_r1c9_SET3_9k-100M_3
! VAR FILENAME=S2_r1c9_SET3_9k-100M_3.S2P
! VAR DATE=27/08/2024 16:24:58
! VAR PHYS_PORTS=1,2
! VAR ObjTypeName=DATASET
! VAR IndexType=Frequency
!
# Hz S MA R 50
9000.000 +3.0692811707E-002 -1.4014875091E+002  +3.5273835468E-002 -3.9039461813E+001  +8.5699845354E-003 -1.5266619443E+002  +1.7905495265E-001 -1.0833806565E+002 
134145.181 +1.1132769866E-001 +1.7008662536E+002  +9.8990660864E-004 -1.0658951676E+002  +7.3533914339E-004 +5.2181221739E+001  +2.3514800483E-001 -1.7104198725E+002 
259290.363 +1.1100955791E-001 +1.7029835247E+002  +1.4019195147E-003 -1.6336790746E+002  +6.9010959948E-004 +5.4971358537E+001  +2.4706076909E-001 -1.6651620819E+002 
384435.544 +1.1370649362E-001 +1.6986282511E+002  +4.5426224185E-004 -7.8512879059E+001  +3.2563543159E-004 +4.9405794689E+000  +2.4810482818E-001 -1.6934809822E+002 
509580.726 +1.1246189260E-001 +1.7164271572E+002  +2.3499871183E-003 -1.0689043343E+002  +1.3029632558E-003 +5.1169739538E+001  +2.5456893121E-001 -1.6100394280E+002 
634725.907 +1.1833364111E-001 +1.7105814086E+002  +1.1064331768E-003 -1.7106088867E+002  +2.1954720665E-004 +1.5829473902E+002  +2.4523885880E-001 -1.6626725650E+002 
759871.089 +1.1967405419E-001 +1.7033998149E+002  +1.1324767048E-003 -1.7688243910E+002  +6.8919636657E-004 -1.9234045860E+001  +2.5262881532E-001 -1.6419141877E+002 
885016.270 +1.1886161613E-001 +1.6960363715E+002  +2.8491490845E-004 -1.3039373906E+002  +7.5802603680E-004 -1.6842742721E+002  +2.4681475061E-001 -1.6514675105E+002 
1010161.452 +1.1876079730E-001 +1.7130584316E+002  +1.6130916149E-003 -7.8154880916E+001  +1.0775345201E-003 -5.6216777535E+001  +1.8280168234E-001 -1.5780356959E+002 
1135306.633 +1.1320996299E-001 +1.7060180295E+002  +9.4946253675E-004 +4.4127992071E+001  +2.4520431905E-003 +2.1720096780E+000  +1.8417908048E-001 -1.6848006206E+002 
1260451.815 +1.2049469775E-001 +1.7210681736E+002  +1.0136688580E-003 +1.4704076800E+002  +5.6708447470E-004 -3.7316823113E+000  +2.3849818099E-001 -1.6016334586E+002 
1385596.996 +1.2477059291E-001 +1.7135923048E+002  +9.0485129751E-004 -1.1886386591E+002  +4.0954659723E-004 +1.0141909226E+002  +2.5244519808E-001 -1.5883731917E+002 
1510742.178 +1.2613667588E-001 +1.7099002367E+002  +4.7826321234E-004 +2.1582811743E+001  +1.2122242752E-003 -4.8571340355E+001  +2.5949818914E-001 -1.5921305807E+002 
1635887.359 +1.2678256588E-001 +1.7157769621E+002  +3.2558292071E-004 +1.5246562946E+002  +7.1646868523E-005 +1.3110787649E+002  +2.4116519619E-001 -1.6280968857E+002 
1761032.541 +1.2837248361E-001 +1.6891617458E+002  +4.5255156005E-004 -2.1288771220E+001  +1.9380925081E-003 +1.7205416935E+002  +2.2450095569E-001 -1.6186816485E+002 
1886177.722 +1.3039680455E-001 +1.6716066909E+002  +9.8122471570E-004 +1.7224917243E+002  +1.4231454358E-003 -1.5159453179E+002  +2.1798202165E-001 -1.6655476273E+002 
2011322.904 +1.3208551345E-001 +1.6632674277E+002  +3.3313293869E-003 +1.3440719346E+002  +2.6523537853E-003 +1.7773059539E+002  +1.9179890731E-001 +1.7680684711E+002 
2136468.085 +1.2419778377E-001 +1.6793793542E+002  +3.6107638777E-003 +1.4700257957E+002  +4.0636521802E-003 +8.0770127771E+001  +1.9259846454E-001 +1.6380283640E+002 
2261613.267 +1.2804607820E-001 +1.6435542486E+002  +5.8064129359E-003 +1.0376986011E+002  +2.8269127622E-003 -1.6814314160E+000  +2.2557704804E-001 +1.5918999173E+002 
2386758.448 +1.4356907764E-001 +1.6255510622E+002  +2.6916915539E-003 +6.6562717082E+000  +6.3320156083E-004 +7.2843804284E+001  +1.5534401870E-001 -1.5689131786E+002 
2511903.630 +1.4076820894E-001 +1.6378020295E+002  +4.9774361723E-003 +8.1405731398E+001  +1.2692379618E-003 +1.0565026546E+001  +3.5805901058E-001 +1.6694132805E+002 
2637048.811 +1.2782205192E-001 +1.6983874423E+002  +6.6013312029E-003 +1.0828759645E+002  +8.2458367836E-003 -2.3409294481E+000  +1.2389155581E-001 +1.6372662809E+002 
2762193.992 +1.0759479946E-001 -1.7764763654E+002  +1.0745136349E-002 +7.9948718433E+001  +9.7752796687E-003 -2.7288738660E+001  +1.2674471102E+000 -1.7536694938E+002 
2887339.174 +1.0085382175E-001 +1.7487050601E+002  +1.9813313334E-002 -8.6015555732E+001  +2.9795363266E-002 -1.7946098539E+002  +6.7119912392E-001 -9.7534284878E+001 
3012484.355 +1.1058088041E-001 +1.6587284037E+002  +2.2087436367E-002 -1.5820239750E+002  +7.7618281409E-003 -1.7326284239E+002  +4.6071121079E-001 -2.6714412193E+001 
3137629.537 +8.8225806895E-002 +1.6262265545E+002  +1.0519662528E-002 -6.9600254478E+001  +1.9045814173E-002 -9.1541327210E+001  +2.1871914592E-002 -6.3053677415E+001 
3262774.718 +1.0929599724E-001 +1.6377044181E+002  +1.5375802600E-002 +2.4340011562E+001  +1.6652222678E-002 -9.3386668295E+001  +4.4327192504E-001 -2.6104402388E+000 
3387919.900 +9.4842906769E-002 +1.5060448511E+002  +9.2178103953E-002 +1.2425645246E+002  +1.8694382943E-002 +1.3386699487E+001  +1.9390523368E+000 +1.0515011752E+002 
3513065.081 +1.4743863679E-001 +1.4126206756E+002  +8.4618195278E-003 -1.4206571850E+002  +3.7483633016E-003 +1.0218961363E+001  +5.3148031502E-001 +1.1904624318E+002 
3638210.263 +1.5247554094E-001 +1.4489832962E+002  +3.0280493511E-002 +6.4681719169E+001  +2.2114997210E-002 -4.7868251858E+001  +7.2455153802E-001 -3.0219876640E+001 
3763355.444 +1.7629098038E-001 +1.4897628960E+002  +5.8729240754E-003 +1.0150311280E+002  +1.4482875758E-002 -1.8316826695E+001  +3.3223964941E-001 +1.2349748707E+002 
3888500.626 +1.7117548525E-001 +1.5363793573E+002  +9.4324011060E-003 +6.8818083899E+001  +5.7881258203E-003 -1.6908663094E+001  +2.7717349807E-001 +6.5193538136E+001 
4013645.807 +1.8347207058E-001 +1.5832014845E+002  +1.4080232891E-002 +5.7926115952E+001  +1.2557913010E-002 +6.3193975912E+001  +5.3338209387E-001 +1.2097732852E+002 
4138790.989 +1.8656932962E-001 +1.5222515883E+002  +5.1301467014E-003 +1.5881382751E+002  +3.0452865840E-003 -5.5754606878E+001  +4.9052540961E-001 +1.3661466123E+002 
4263936.170 +1.8182314725E-001 +1.4447055562E+002  +4.4247315901E-003 -1.6639561368E+002  +8.9729477060E-003 +6.3875279324E+000  +4.3140034048E-001 +1.4043942067E+002 
4389081.352 +2.0203369367E-001 +1.4608652746E+002  +2.0925210787E-003 +4.4905946340E+001  +1.6509298812E-002 +1.2248974966E+001  +3.7024012177E-001 +1.2936999901E+002 
4514226.533 +2.1429999474E-001 +1.3711942355E+002  +3.0351652320E-002 -5.9887028040E+001  +4.4590651518E-002 +1.5129391181E+002  +2.1035828089E+000 -1.4365011725E+002 
4639371.715 +2.2067117267E-001 +1.3484673561E+002  +1.3056954594E-002 +7.5208083963E+001  +4.4900971134E-002 -3.9319305739E+001  +1.0248779589E+000 +6.3721535525E+001 
4764516.896 +3.2150877905E-001 +1.3661505697E+002  +2.7569653265E-002 +9.3020651018E+001  +5.0999371991E-002 +1.0314103420E+002  +2.2146133080E+000 +1.0304393986E+002 
4889662.078 +3.6784265867E-001 +1.3486628347E+002  +6.6777565283E-002 -4.3363770621E+001  +4.5559900754E-002 -9.6515840224E+001  +2.2595407288E+000 -1.2602564856E+002 
5014807.259 +3.6873925903E-001 +1.3231119728E+002  +1.8050117810E-001 +1.2094295896E+001  +7.8144900735E-002 -6.5393921958E+001  +6.2150042180E+000 -2.0490055782E+001 
5139952.441 +3.4882775802E-001 +1.3244892790E+002  +8.1900142547E-002 +1.1564234382E+002  +7.1230557321E-002 +6.4173453680E+001  +5.5477485843E+000 +8.0084403997E+001 
5265097.622 +4.0445176308E-001 +1.3480847340E+002  +1.0055116180E-003 +5.8008537842E+001  +1.9484395327E-002 +1.3346943095E+002  +2.3120952522E+000 +5.8762019397E+001 
5390242.804 +3.6079508503E-001 +1.2723333054E+002  +2.8249220978E-002 +1.1781848522E+002  +2.9810563256E-002 +7.7329659009E+001  +2.7703579520E+000 +1.1818508921E+002 
5515387.985 +4.1551873667E-001 +1.3291757559E+002  +1.2873668570E-001 +1.0626432128E+002  +1.5784699681E-001 +3.9743065327E+001  +7.8476001431E+000 +4.1781566801E+001 
5640533.166 +5.0499656651E-001 +1.2663192885E+002  +3.5211305092E-002 +9.7111638289E+001  +3.8816668045E-002 +7.4454598091E+001  +1.8011730697E+000 +9.2821524978E+001 
5765678.348 +5.2145784203E-001 +1.2997956466E+002  +3.1669329063E-002 +5.8254707320E+001  +8.6365026731E-002 +7.5713178058E+001  +4.4384204295E+000 +3.7955249751E+001 
5890823.529 +5.3958318598E-001 +1.2663626459E+002  +3.0118842532E-002 +1.2644014082E+002  +3.3697256046E-002 +8.1457301651E+001  +1.5264982312E+000 +8.2855746827E+001 
6015968.711 +6.6989390185E-001 +1.2523631027E+002  +3.8366143569E-002 +8.2348285652E+001  +3.3903512019E-002 +8.6257807641E+001  +1.7298591822E+000 +5.8284891865E+001 
6141113.892 +7.8753206034E-001 +1.1934254513E+002  +6.1919383299E-002 +8.6406514776E+001  +3.0332681946E-002 +4.0743557066E+001  +1.8163436228E+000 +3.4832711548E+001 
6266259.074 +8.9003076504E-001 +1.1259882226E+002  +6.3675420682E-002 +6.9449113111E+001  +1.7917471758E-002 -1.3676717820E+000  +1.7139825341E+000 +4.4718043394E+001 
6391404.255 +1.0525941118E+000 +9.7238251618E+001  +2.9608666957E-002 +4.3127977325E+001  +5.3353257704E-002 +7.3536885986E+001  +1.3288059662E+000 +2.8015694166E+001 
6516549.437 +1.3748530342E+000 +7.4807187028E+001  +4.4934689349E-002 +2.5461446921E+001  +6.0946430749E-002 +2.1831748801E+001  +1.4270230077E+000 -6.6987799411E+000 
6641694.618 +1.8154126509E+000 +8.8778779880E+001  +5.5909984053E-002 +5.8634720292E+001  +5.3252725363E-002 +4.7438090861E+001  +1.1293891855E+000 +7.0698898078E+000 
6766839.800 +1.5386283339E+000 +7.0642307491E+001  +4.5628976882E-002 +1.0922184254E+001  +4.4994635783E-002 +2.2174009026E+001  +1.3856446589E+000 +2.0171676297E+000 
6891984.981 +2.1432055932E+000 +4.0667851345E+001  +7.1658364402E-002 +2.6962419661E+001  +6.0446572043E-002 +2.8858260712E+001  +1.4136555748E+000 -1.4994984705E+001 
7017130.163 +1.7875980746E+000 +1.8036853114E+001  +4.4396625207E-002 +8.3135298014E+000  +6.2458252310E-002 +6.8391425940E+000  +1.3726652969E+000 +1.7148611976E+000 
7142275.344 +1.5249574104E+000 -6.8001442349E+000  +2.7880147544E-002 -1.5970862713E+001  +2.7869400618E-002 -1.0861818524E+000  +1.3443678539E+000 -1.4149931121E+001 
7267420.526 +1.6194651478E+000 -3.1044324990E+000  +3.4490028520E-002 -8.3316492743E+000  +3.6164640266E-002 +1.1447165544E+001  +1.3765985634E+000 -1.5009138224E+001 
7392565.707 +1.2429988065E+000 -1.3419303106E+000  +1.9248734270E-002 +6.9651477201E+000  +2.4110159636E-002 -4.2577124693E-001  +1.3364939560E+000 -6.1428807560E+000 
7517710.889 +1.1257926646E+000 -2.5971343734E+000  +2.0280824270E-002 -1.3496405558E+000  +2.6074561730E-002 +2.3917217220E+001  +1.2152766001E+000 -2.4936946114E+000 
7642856.070 +9.0660720985E-001 +8.2507877742E+000  +1.8845425355E-002 +7.4127039593E+000  +1.9619601139E-002 +8.9495820038E+000  +1.0582484145E+000 -1.0092290747E+000 
7768001.252 +9.3888636480E-001 +5.4567461282E+000  +2.1185987227E-002 +8.3690222348E+000  +1.9275684662E-002 +2.7776537390E+001  +9.6029746739E-001 -2.9195071040E+000 
7893146.433 +8.3857670714E-001 +5.1522965640E+000  +2.0022738344E-002 +2.3189497846E+001  +2.0183037203E-002 +1.1563955484E+001  +9.1745648565E-001 +6.9660759328E-001 
8018291.615 +8.6171257322E-001 +9.9735035180E+000  +1.2327146620E-002 +2.0830749074E+001  +1.8680909367E-002 +1.2480767143E+001  +7.9797815938E-001 -2.9833010412E+000 
8143436.796 +7.5174720415E-001 +6.7952647663E+000  +1.7523895601E-002 -5.7057775313E+000  +1.5600930044E-002 +1.3177145469E+001  +8.1455159962E-001 -2.9897668278E+000 
8268581.977 +7.7231249066E-001 +8.3187706693E+000  +1.9302768322E-002 +6.9322997306E+000  +1.5336063759E-002 +1.6665022784E+001  +7.3567903828E-001 +1.6594009675E+000 
8393727.159 +5.8817655716E-001 +1.4747665013E+001  +1.8216300290E-002 -5.9840598157E+000  +1.7743773536E-002 +2.1787600063E+001  +6.9876433973E-001 -1.4105084887E+000 
8518872.340 +7.1627754937E-001 +1.0766170434E+001  +1.8559848354E-002 +1.4386030208E+000  +8.0062706110E-003 +1.9056521076E+001  +6.2305437386E-001 -1.0924411752E+001 
8644017.522 +7.1414829736E-001 +1.0638081613E+001  +1.7492101269E-002 +3.5631180264E+000  +2.1540020696E-002 +2.5523137125E+001  +6.6967086323E-001 +3.0690947896E+000 
8769162.703 +6.3525402013E-001 +8.1451300313E+000  +1.4741469216E-002 +1.0759871924E+000  +1.7566932744E-002 +1.4291712232E+001  +6.7716432903E-001 -1.1738456873E+000 
8894307.885 +6.0525598156E-001 +1.1181827518E-001  +1.7862708101E-002 +1.1509104793E+001  +1.8846230300E-002 +3.3954669030E+001  +6.6134210837E-001 -5.8577827992E+000 
9019453.066 +6.3602128005E-001 +6.9442142889E+000  +1.9366658527E-002 +1.9830327155E+001  +1.6517433349E-002 +3.7410763839E+001  +5.6427841212E-001 -1.0270071106E+000 
9144598.248 +5.6520507944E-001 +3.4764443555E+000  +1.3943884383E-002 +5.0173298697E+000  +1.6620066932E-002 +1.9099430236E+001  +6.0567261778E-001 -2.6334639495E-001 
9269743.429 +5.9597387072E-001 +9.5325483983E+000  +1.6606669094E-002 +8.7310550913E+000  +1.6368220576E-002 +3.3218762306E+001  +5.8666433012E-001 -4.8187342556E+000 
9394888.611 +5.5609378664E-001 +6.3163243184E+000  +1.4665706948E-002 +8.3262628578E+000  +1.5415595956E-002 +3.7628427378E+001  +5.9210457096E-001 -3.4968447800E+000 
9520033.792 +5.0549357000E-001 +1.8324139901E+000  +1.5307908401E-002 -4.0479067254E+000  +1.3620281957E-002 +3.7339395031E+001  +5.6182580831E-001 -5.3033214303E+000 
9645178.974 +5.4880550690E-001 -2.7268329676E+000  +1.4860161273E-002 +1.0352579055E+001  +1.6114853071E-002 +2.0843102128E+001  +5.5794756996E-001 -5.7605697707E+000 
9770324.155 +5.6573072390E-001 +6.4733120754E+000  +1.3570060719E-002 +2.6427762411E+001  +1.4160933281E-002 +2.6169494535E+001  +5.6101685583E-001 -3.5532540241E+000 
9895469.337 +5.1306334246E-001 -2.4303334318E+000  +1.7693204770E-002 +1.6130389607E+001  +1.7322267604E-002 +2.8587037399E+001  +6.0794376967E-001 -1.5347462624E+000 
10020614.518 +5.3614854148E-001 +6.1779129963E-001  +1.8350893930E-002 +1.9919100749E+000  +1.5871554102E-002 +2.4894498090E+001  +5.3799552045E-001 -8.4762824645E+000 
10145759.700 +5.1464402144E-001 -6.4311749278E-001  +1.5553769152E-002 +1.3950027949E+001  +1.4991762305E-002 +2.9644252616E+001  +5.7565128910E-001 -4.3155219464E+000 
10270904.881 +5.6283578275E-001 +3.3503774964E+000  +1.9768874929E-002 +1.7943177882E+001  +1.4523468542E-002 +2.8601017200E+001  +5.6947913188E-001 -6.3045808649E-001 
10396050.063 +5.3919918118E-001 -2.7622703215E-001  +1.5985349226E-002 +1.5275016633E+001  +1.8526303916E-002 +2.7010163143E+001  +5.8627826575E-001 -3.3789001213E+000 
10521195.244 +4.9800081364E-001 +1.2649800703E+000  +1.9478286890E-002 +7.6934556860E+000  +1.3542325516E-002 +3.3392816132E+001  +5.4548997503E-001 +3.1338548179E+000 
10646340.426 +5.6970910742E-001 +4.3876817286E+000  +1.6525821365E-002 +1.5190464623E+001  +1.7645379439E-002 +3.6383288176E+001  +6.0218188857E-001 +4.8474597131E-002 
10771485.607 +5.8666810118E-001 +8.3559205432E+000  +1.5765095952E-002 +1.1783347176E+001  +1.6830210106E-002 +3.2907108125E+001  +5.8668227877E-001 -7.0981115401E-001 
10896630.788 +5.7660765949E-001 +7.7434143009E+000  +1.4244064825E-002 +1.7296642958E+001  +1.5870457569E-002 +3.1850162757E+001  +5.7166669519E-001 +9.7077657971E-001 
11021775.970 +5.9002982967E-001 +5.8675215787E+000  +1.6784208235E-002 +1.5303415070E+001  +1.6652478545E-002 +2.9155348392E+001  +5.8306552813E-001 +3.6533661469E+000 
11146921.151 +5.6820658811E-001 +7.5178528015E+000  +1.8732348044E-002 +2.3065086253E+001  +1.3819850601E-002 +2.7709369447E+001  +5.9303326905E-001 +3.5710729910E-001 
11272066.333 +5.9621969397E-001 +4.5688990330E+000  +1.7162529813E-002 +1.1573129522E+001  +1.8053754482E-002 +3.0285147602E+001  +6.1608399159E-001 +5.1013694014E+000 
11397211.514 +6.0580918254E-001 +7.4252966371E+000  +1.6990037137E-002 +8.1447233474E+000  +1.7808623341E-002 +2.5674727390E+001  +6.1449039552E-001 +1.8075939154E+000 
11522356.696 +6.2668177598E-001 +7.1807423804E+000  +1.8077260957E-002 +1.1172715414E+001  +1.8430837568E-002 +3.2508474699E+001  +6.5011511825E-001 +1.9066747144E+000 
11647501.877 +6.2540217183E-001 +9.9754910387E+000  +1.8609384278E-002 +1.2991650762E+001  +1.8419744454E-002 +2.4212613467E+001  +6.1348025799E-001 +2.2895895817E+000 
11772647.059 +6.3396172317E-001 +5.4841396039E+000  +2.0142243647E-002 +1.9005814316E+001  +1.8421804036E-002 +2.7463293368E+001  +6.5513266903E-001 +1.9290631494E-001 
11897792.240 +6.3272513740E-001 +7.9201503602E+000  +1.5239386824E-002 +1.5447661231E+001  +1.7921831424E-002 +2.5953363075E+001  +6.5356885268E-001 -7.7218975561E-001 
12022937.422 +6.5907059992E-001 +5.1246794845E+000  +1.8462216294E-002 +2.0002173309E+001  +1.6633346023E-002 +3.2677847656E+001  +6.5778895133E-001 +1.0178394230E+000 
12148082.603 +6.6592603078E-001 +3.5395203045E+000  +1.8683501245E-002 +1.8123722111E+001  +1.8212439426E-002 +2.9457716789E+001  +6.6815077814E-001 -9.6579922378E-002 
12273227.785 +6.8053736929E-001 +4.4622353399E+000  +1.9256985857E-002 +1.8757961651E+001  +1.9828181610E-002 +2.5592713310E+001  +7.0953049554E-001 +2.8023380380E-001 
12398372.966 +6.9740053810E-001 +4.7772035514E+000  +2.0788058205E-002 +1.6848880653E+001  +1.8542227084E-002 +2.6953308763E+001  +7.1624550066E-001 -3.9769673411E-001 
12523518.148 +7.1816382283E-001 +5.0192937070E+000  +1.8984006790E-002 +2.5108399619E+001  +1.7250277509E-002 +2.9674099089E+001  +7.2156040276E-001 -1.1129379200E+000 
12648663.329 +7.1272638256E-001 +2.7251173005E+000  +1.9895004233E-002 +1.8708638966E+001  +1.7648194607E-002 +3.0959947849E+001  +7.3957825695E-001 +4.1480020322E-001 
12773808.511 +7.2559436869E-001 +3.2460565312E+000  +2.1160595652E-002 +1.7098498519E+001  +1.9887616043E-002 +2.6414508090E+001  +7.2695957335E-001 -1.5330866364E+000 
12898953.692 +7.2243344815E-001 +1.8471368763E+000  +2.0416823661E-002 +1.8030076438E+001  +1.8336752014E-002 +2.8881896833E+001  +7.6374996615E-001 -8.1495515909E-001 
13024098.874 +7.6286737805E-001 +2.3184327313E-001  +2.1783366105E-002 +2.1984043108E+001  +1.9701899284E-002 +2.0887159113E+001  +8.0040271593E-001 +8.2149768863E-001 
13149244.055 +7.9613545002E-001 +2.0413296977E+000  +2.0548704677E-002 +2.4491387072E+001  +1.8799980966E-002 +2.6651874543E+001  +8.0536825556E-001 -3.7430109256E+000 
13274389.237 +7.8326656893E-001 +2.4220352368E-001  +2.0464620287E-002 +2.0664119679E+001  +2.0901267328E-002 +2.1003855966E+001  +8.0178468118E-001 -1.3372834160E+000 
13399534.418 +8.2170576704E-001 -3.9108306731E-001  +2.1528590842E-002 +2.0198736502E+001  +2.0228992392E-002 +2.7148327125E+001  +8.4164457455E-001 -3.5562003195E+000 
13524679.599 +8.3950098861E-001 -2.5029923788E+000  +2.1377350628E-002 +2.1598902084E+001  +2.1171272951E-002 +2.4650621280E+001  +8.4755946097E-001 -2.8893728676E+000 
13649824.781 +8.4748379175E-001 -2.3987161236E+000  +2.0866573561E-002 +2.1377665037E+001  +1.9810640281E-002 +3.1734571024E+001  +8.5119476482E-001 -2.2593356887E+000 
13774969.962 +8.7082439241E-001 -2.5550852475E+000  +2.0693576255E-002 +2.0621912870E+001  +2.1332022647E-002 +2.1479224040E+001  +8.7203852403E-001 -3.4823834751E+000 
13900115.144 +8.7225879730E-001 -1.5140709500E+000  +2.2477631047E-002 +2.2469583287E+001  +2.1822857752E-002 +2.0595334674E+001  +9.0911393596E-001 -2.7330358203E+000 
14025260.325 +8.9241371271E-001 -4.2041461038E+000  +2.2119027724E-002 +2.1005680782E+001  +2.0776074983E-002 +2.2007868447E+001  +9.0653603849E-001 -3.8563196634E+000 
14150405.507 +9.0891978424E-001 -4.0195799123E+000  +2.3421913070E-002 +2.2532324582E+001  +2.0215633523E-002 +2.0891304986E+001  +9.4809033131E-001 -4.8498307986E+000 
14275550.688 +9.4071191614E-001 -3.4370192073E+000  +2.1895515875E-002 +2.0779499460E+001  +2.1380466782E-002 +2.3512884716E+001  +9.5595031458E-001 -4.3222203941E+000 
14400695.870 +9.6581897757E-001 -4.7649155239E+000  +2.2286178376E-002 +2.1075807657E+001  +2.2111669537E-002 +2.3422109885E+001  +9.6424056431E-001 -4.4397899459E+000 
