!  2-Port S-parameters saved by WinCal
! VAR MeasName=S-Parameters (CALIBRATED_DATA) read from VNA (P5004A)
! VAR MeasDate=27/08/2024 16:21:45
! VAR NAME=S2_r1c9_RESET3_9k-100M_2
! VAR FILENAME=S2_r1c9_RESET3_9k-100M_2.S2P
! VAR DATE=27/08/2024 16:21:45
! VAR PHYS_PORTS=1,2
! VAR ObjTypeName=DATASET
! VAR IndexType=Frequency
!
# Hz S MA R 50
9000.000 +6.4141513618E-002 -1.5767068275E+002  +1.1862389983E-002 -6.2918857537E+001  +1.4929874142E-002 -5.1580654393E+001  +1.8278670811E-001 -1.3165886694E+002 
134145.181 +1.1136579573E-001 +1.6951766748E+002  +2.6623751595E-004 -6.3139712830E+001  +6.3691043066E-004 +2.8758342024E+001  +2.4183570000E-001 -1.7019777615E+002 
259290.363 +1.1228392444E-001 +1.6980847849E+002  +1.1534409543E-003 -5.3692706873E+001  +9.1051396425E-004 +9.9246657007E+001  +2.4172798976E-001 -1.6765926377E+002 
384435.544 +1.1360707212E-001 +1.7053291285E+002  +2.9077909461E-004 +1.0121925694E+002  +2.0241769045E-005 +7.9593298116E+001  +2.4450533033E-001 -1.6855225835E+002 
509580.726 +1.1580141632E-001 +1.7145167980E+002  +1.0118887604E-003 -8.0583655408E+000  +9.4960146808E-004 -7.5492782391E+001  +2.4601591875E-001 -1.6699214245E+002 
634725.907 +1.1872382198E-001 +1.7162660061E+002  +5.1591281743E-004 -2.0254774480E+000  +1.0735477432E-003 +1.5996979287E+002  +2.4261023078E-001 -1.6268802660E+002 
759871.089 +1.1760750192E-001 +1.7106384706E+002  +1.7358897745E-004 -1.2476712795E+002  +2.2841803137E-003 -1.5454279792E+002  +2.4071756733E-001 -1.6292452318E+002 
885016.270 +1.1939084122E-001 +1.6917044722E+002  +1.5678147809E-004 -1.7549494155E+002  +8.8133588149E-004 -6.4625595207E+001  +2.3506308430E-001 -1.6515175328E+002 
1010161.452 +1.1825297550E-001 +1.7166601586E+002  +8.0531838352E-004 +5.2023319618E+000  +9.3627178522E-004 -1.5767222909E+002  +1.8746417226E-001 -1.6933385977E+002 
1135306.633 +1.1875985765E-001 +1.7175812763E+002  +3.9803738590E-003 -1.5121154319E+002  +1.3963478725E-003 +1.2422300236E+002  +1.4674363239E-001 -1.7544508943E+002 
1260451.815 +1.1855440182E-001 +1.6991784899E+002  +1.1602983165E-003 -6.0257760827E+001  +1.9790385583E-003 +9.9008998719E+001  +2.4995410393E-001 -1.5840631789E+002 
1385596.996 +1.2489798572E-001 +1.7195829923E+002  +3.6457187733E-004 +1.7098057246E+002  +6.1941413451E-004 +9.5909529286E+001  +2.5770578910E-001 -1.5817809928E+002 
1510742.178 +1.2475873849E-001 +1.7223315993E+002  +6.4754651756E-004 +6.7715203832E+001  +1.6368230054E-003 -6.0178638198E+001  +2.4888490570E-001 -1.6018477228E+002 
1635887.359 +1.2489244924E-001 +1.7151779886E+002  +1.6022787705E-003 +6.7232575250E+001  +1.6357537166E-003 +8.0773569217E+000  +2.3667763760E-001 -1.5461336108E+002 
1761032.541 +1.3015246860E-001 +1.7000040079E+002  +5.5954660704E-004 -1.4890382565E+002  +2.0562618750E-003 -1.2522101282E+002  +2.2174303988E-001 -1.5405094089E+002 
1886177.722 +1.2923712564E-001 +1.6814133348E+002  +1.7632328894E-003 +3.7437799639E+001  +7.2604287228E-004 -1.4753968365E+002  +2.1301717195E-001 -1.5439699505E+002 
2011322.904 +1.2894671982E-001 +1.6737145952E+002  +1.3783265718E-003 -1.4922915305E+002  +2.1972817971E-003 +6.1552181301E+001  +1.8821862525E-001 -1.6718473124E+002 
2136468.085 +1.1969715522E-001 +1.6662437298E+002  +1.6378350817E-003 +1.7107479580E+002  +2.8827849668E-003 +4.4065938051E+001  +2.3472925946E-001 -1.7685207995E+002 
2261613.267 +1.2990978437E-001 +1.6246806708E+002  +6.6480920369E-003 +4.0527899966E+001  +3.2622150237E-003 +1.6631381087E+002  +2.0372292660E-001 +1.6533693169E+002 
2386758.448 +1.3046661530E-001 +1.6206809544E+002  +4.3784580941E-003 -1.2882107834E+002  +2.2157285369E-003 -1.6804678023E+002  +1.9045837917E-001 +1.6434842764E+002 
2511903.630 +1.2574831449E-001 +1.6437273511E+002  +5.0896139732E-003 -2.6533332062E+000  +7.9423040988E-003 +1.7749409961E+001  +1.3214991900E-001 +1.1714244905E+002 
2637048.811 +1.2277451770E-001 +1.5140546825E+002  +4.3777543757E-003 +6.4622402589E+001  +5.2237921882E-003 +7.0963054537E+001  +3.6482162073E-001 +1.5953035556E+002 
2762193.992 +1.0312425993E-001 +1.5409459247E+002  +3.0654119055E-002 -1.6776832138E+002  +1.9848664008E-002 -1.6669112503E+002  +1.0717450288E+000 +1.7510339635E+002 
2887339.174 +9.9283557781E-002 +1.7007559188E+002  +1.9859428280E-002 -1.6602835195E+002  +3.1248037929E-002 -1.3448010387E+002  +5.0426942430E-001 -2.1025473013E+001 
3012484.355 +1.2575230393E-001 +1.6792836003E+002  +1.4394479173E-003 -7.4882991677E+001  +4.5953701594E-003 +1.3290518779E+001  +3.5969379252E-001 -1.0049927078E+002 
3137629.537 +1.3215062680E-001 +1.7143104846E+002  +1.7587431279E-002 +2.9300022054E+001  +5.9436627429E-003 +1.7767620044E+002  +2.6114524252E-001 -6.2100736638E+001 
3262774.718 +1.3481285953E-001 +1.7189948262E+002  +1.2033129077E-002 +6.0630724658E+001  +1.2287260119E-002 -1.7212810222E+002  +4.2745391533E-001 -8.1073443942E+001 
3387919.900 +1.3987135066E-001 +1.5533036272E+002  +7.6060808737E-002 +9.1128172194E+001  +8.5487578182E-003 -1.4237995364E+002  +2.5441093076E+000 +2.0939655657E+001 
3513065.081 +1.6553934026E-001 +1.4047366585E+002  +2.3142807071E-002 +4.4005623614E+001  +1.6767342296E-002 -6.1074964662E+001  +6.8897883776E-001 +1.1077613480E+002 
3638210.263 +1.5767175279E-001 +1.4375524534E+002  +4.7873680389E-002 +1.3908735080E+002  +2.0862790322E-002 +5.9230824430E+001  +8.8378637840E-001 +1.2345569326E+002 
3763355.444 +1.7754919273E-001 +1.4733063347E+002  +1.6768684174E-002 -1.5034039958E+002  +8.1902648529E-003 -4.0901996268E+000  +4.3204785372E-001 +1.1466212505E+002 
3888500.626 +1.7752004928E-001 +1.5037601811E+002  +7.2832275011E-003 +1.7042532905E+002  +3.6145263163E-003 -3.9762130642E+001  +3.7683320523E-001 +1.3638274022E+002 
4013645.807 +2.1070133659E-001 +1.4868598085E+002  +6.1378342196E-003 +1.6595145000E+002  +5.4678928469E-003 -8.6901105253E+001  +2.8299354013E-001 +1.0578016244E+002 
4138790.989 +1.7702400549E-001 +1.5343816688E+002  +6.2918688341E-003 +1.5936892781E+002  +2.2849392016E-003 +2.1488293392E+001  +2.7682493092E-001 +7.3903102767E+001 
4263936.170 +2.0530937641E-001 +1.4331599893E+002  +1.2948107590E-002 -1.2300762437E+002  +5.4240730094E-003 +8.8114423489E+001  +5.5762367362E-001 +9.9850757196E+001 
4389081.352 +1.9176950903E-001 +1.4030493684E+002  +3.3406888882E-003 +7.7654009644E+001  +3.4333964914E-003 +1.0870712705E+002  +3.0694546746E-001 +1.2111035680E+002 
4514226.533 +2.0054233299E-001 +1.3422950248E+002  +1.0912376208E-002 -1.7573097678E+002  +6.6093927231E-003 +1.1417032347E+002  +3.2367803533E-001 +1.1981360949E+002 
4639371.715 +2.7364579521E-001 +1.4130780201E+002  +8.3491998547E-002 +9.6267448755E+001  +2.6837124911E-002 +4.1553238901E+001  +3.7061871720E+000 +4.5384887289E+001 
4764516.896 +2.9237272907E-001 +1.2647200816E+002  +4.5267369256E-002 -6.6241989661E+000  +6.2184992666E-002 -1.0461087762E+002  +3.7720330583E+000 +1.2693283335E+002 
4889662.078 +4.0080307470E-001 +1.3776718702E+002  +1.0821920072E-001 -2.0236780097E+001  +8.1737486400E-002 -5.0300630550E+000  +6.4668348977E+000 -9.4396107983E+001 
5014807.259 +3.4780498414E-001 +1.3032099456E+002  +4.8237231743E-002 -1.1520594858E+002  +1.4760237341E-001 -1.3362765917E+002  +8.0646550291E+000 +1.3060758097E+002 
5139952.441 +5.0601351167E-001 +1.3417861769E+002  +5.7178253290E-002 +1.4528915577E+002  +2.5705625053E-002 -3.3988608397E+001  +2.5790756800E+000 +1.2777367373E+002 
5265097.622 +3.6240271173E-001 +1.3765600540E+002  +1.1815795790E-002 +1.2994537383E+002  +4.1911164796E-002 +1.3552603431E+002  +2.5035193372E+000 +9.6417406425E+001 
5390242.804 +3.8344239822E-001 +1.2688705762E+002  +2.2198904412E-002 +4.5124749015E+001  +4.4620997853E-002 +1.3867482035E+002  +1.6749570574E+000 +7.1077410920E+001 
5515387.985 +3.9135628368E-001 +1.2635158728E+002  +5.0140644875E-002 +1.1410846523E+002  +7.6172478564E-003 -3.9300594700E+001  +2.8633135425E+000 +7.9875633955E+001 
5640533.166 +4.7746626155E-001 +1.3541971936E+002  +6.7419662021E-003 +1.6252885648E+002  +2.3466058584E-002 +5.2943138940E+001  +2.4473941776E+000 +8.7524551685E+001 
5765678.348 +5.7158349846E-001 +1.2700076909E+002  +9.0710025564E-003 +1.5384330791E+002  +2.4842086487E-002 -1.3300955909E+002  +1.5083738453E+000 +4.5027773344E+001 
5890823.529 +4.9518670976E-001 +1.2218533496E+002  +1.2894050761E-002 +1.6037886844E+001  +1.7737149031E-002 -1.6387683223E+002  +3.5199802313E+000 +7.2580097621E+001 
6015968.711 +6.5939239304E-001 +1.2363801529E+002  +2.9714330324E-002 +9.8325514162E+001  +1.2370954545E-002 +1.2449459499E+002  +2.5558227846E+000 +5.5924333416E+000 
6141113.892 +6.6482457137E-001 +1.0362575588E+002  +8.4796772795E-003 -1.8733917165E+001  +6.3297514250E-003 -1.2130988948E+002  +1.2252016817E+000 +2.3072277935E+001 
6266259.074 +8.9715924310E-001 +1.0356188929E+002  +1.4933279423E-002 -1.7119257968E+002  +1.5330975824E-002 +4.0702716272E+001  +1.7610262935E+000 +3.3719145583E+001 
6391404.255 +1.0744928138E+000 +9.6623708216E+001  +1.4637951654E-002 +5.3729863861E+001  +1.1126698172E-002 -8.1797587363E+001  +1.2980362942E+000 +6.1693338907E+000 
6516549.437 +1.1465542336E+000 +8.9388362407E+001  +1.1596656560E-002 -1.5352728685E+002  +1.9664474501E-002 +1.4479766463E+002  +1.3397152142E+000 +1.2510315170E+001 
6641694.618 +1.5046822867E+000 +6.3479595325E+001  +8.0637502643E-003 -1.2585929809E+002  +4.9851557590E-003 +1.3143172998E+002  +1.4085473326E+000 +1.1995444360E+000 
6766839.800 +1.8476148832E+000 +4.8274803550E+001  +1.6507987711E-002 +5.7906762018E+001  +3.3743951907E-002 +1.0026650170E+002  +1.1914269862E+000 +3.7270648053E+000 
6891984.981 +1.8457006655E+000 +5.3474048006E+001  +2.2921846624E-002 -6.9105610441E+001  +2.6286203119E-002 +9.1428161863E+001  +1.3427709495E+000 -8.5995319164E+000 
7017130.163 +1.7287692798E+000 +2.5417231343E+001  +1.1879121456E-002 +5.2044131048E+001  +1.2119529295E-002 +4.5940678294E+001  +1.4960208543E+000 -1.2067821211E+001 
7142275.344 +1.5163434205E+000 +1.0496583410E+001  +1.2803453382E-002 +6.4604826233E+001  +2.4644280082E-002 +5.7810362058E+001  +1.2300335362E+000 -1.0719551408E+001 
7267420.526 +1.4726303909E+000 -1.9130240137E+000  +5.5273880687E-003 -1.5617965193E+002  +9.1025955989E-003 +3.9897126704E+001  +1.3019720544E+000 -1.1772247964E+001 
7392565.707 +1.3227585548E+000 +3.4212600073E+000  +7.4069756706E-003 -4.6382146122E+001  +1.3552587543E-002 +2.6079574694E+000  +1.2883968993E+000 -5.9964471737E+000 
7517710.889 +1.2977059662E+000 +3.0499523877E+000  +1.2365891957E-002 +7.5891415786E+001  +8.4204075051E-003 +4.3763821068E+001  +1.1248674626E+000 -5.1518816650E+000 
7642856.070 +1.1193148166E+000 +6.5219670711E+000  +1.1071925218E-002 -3.1138367256E+001  +4.9196031253E-003 +2.6148347402E+001  +1.2064361350E+000 -4.4299858699E+000 
7768001.252 +9.6332203985E-001 +7.2884972469E+000  +5.6826801208E-003 +9.2013356854E+001  +1.1296706352E-002 +1.0693528907E+001  +1.0201871443E+000 -3.9876290506E+000 
7893146.433 +9.6515581992E-001 +9.1664989316E+000  +9.0094501718E-003 +6.9798493690E+001  +4.6726372025E-003 +9.3798536137E+001  +1.0376752966E+000 -2.8633066024E+000 
8018291.615 +8.6315319906E-001 +9.0555939407E-001  +5.1121664104E-003 +1.6817201650E+002  +5.9201239508E-003 +2.4418068103E+001  +8.4033183508E-001 -3.5997204023E+000 
8143436.796 +8.5122408717E-001 +8.7768892868E+000  +4.4854569727E-003 +1.9632902999E+001  +8.0321684487E-003 +1.0337823735E+002  +7.9657269102E-001 -4.8270128211E+000 
8268581.977 +7.9711713829E-001 +9.3691135443E+000  +8.3680394124E-003 +9.4402953452E+001  +4.6659464979E-003 -4.8757409465E+000  +7.5779080042E-001 -3.9952941097E+000 
8393727.159 +7.2956278610E-001 +7.1059857439E+000  +6.2262096512E-003 +6.1113169695E+001  +3.9736293566E-003 +1.4314689433E+002  +7.4568031045E-001 -5.5344417430E-001 
8518872.340 +6.9337000511E-001 +4.6516439622E+000  +6.4207446263E-003 +4.2472322827E+001  +4.5017545919E-003 +1.0517482709E+002  +6.8885651564E-001 -7.8422709505E-001 
8644017.522 +7.0579486889E-001 +7.1683893675E+000  +4.1069758095E-003 -3.9246138299E+000  +6.8604020860E-003 +1.6703110937E+002  +7.2787896794E-001 -6.5459087515E+000 
8769162.703 +6.4765730631E-001 +7.4677888221E+000  +4.4199620654E-003 +6.8849622038E+001  +3.6421909821E-003 +2.1410567659E+001  +6.6816636397E-001 +1.1940989022E+000 
8894307.885 +6.3333037932E-001 +6.5688106009E+000  +5.8414021753E-003 +8.7198180805E+001  +6.3197488674E-003 +8.2942589794E+001  +6.9300125288E-001 +2.0381953606E+000 
9019453.066 +5.8788945355E-001 +9.2856581904E+000  +6.4236449522E-003 +6.8895922249E+001  +1.4164757002E-003 -5.2490207425E+001  +6.3248786395E-001 -5.4858302974E+000 
9144598.248 +5.6219080859E-001 +1.0058510175E+001  +4.5727059872E-003 +5.5117552614E+001  +5.5544667835E-003 +6.5531267141E+001  +6.6337726967E-001 -2.3388815555E+000 
9269743.429 +5.7633091427E-001 +9.0540812464E+000  +5.9359435629E-004 +5.2794450197E+001  +4.9599188208E-003 +5.3545002009E+001  +6.5242166301E-001 -7.3519776086E+000 
9394888.611 +6.0451356040E-001 +3.7651424888E+000  +2.2723125973E-003 +1.8806107319E+001  +4.4808051902E-003 +6.6499640106E+001  +5.9595598788E-001 -2.4186706359E+000 
9520033.792 +5.5811931497E-001 +3.2541425088E+000  +2.3624957119E-003 +1.0111103889E+001  +5.0013353671E-003 +5.7031938164E+001  +6.2940934075E-001 -2.7543761675E+000 
9645178.974 +5.4505007716E-001 -4.0890467722E-001  +6.7277079896E-003 +9.6987830744E+001  +3.5064954446E-003 +6.0004733886E+001  +6.3122704817E-001 -7.5104639183E+000 
9770324.155 +6.0420728396E-001 +1.8194713954E-001  +5.7645044132E-003 +2.8052799768E+001  +5.7008337246E-003 +5.8880501916E+001  +5.6830449019E-001 -4.4016018176E+000 
9895469.337 +5.3502676659E-001 +3.1561940174E+000  +4.3067999668E-003 +4.7598885289E+001  +3.3401363847E-003 +9.3327197418E+001  +5.6444760333E-001 -3.4839241702E+000 
10020614.518 +5.5846751307E-001 +7.5992502716E-001  +2.0230882981E-003 +6.1566000595E+001  +4.1371029557E-003 +9.1175251139E+001  +5.7041400046E-001 -4.1224051788E+000 
10145759.700 +5.3606817999E-001 +1.5959165819E+000  +6.4663080499E-003 +4.1370507630E+001  +5.9636518502E-003 +3.1988105727E+001  +6.0369413535E-001 -4.0604361903E+000 
10270904.881 +5.3469827191E-001 +3.9759490001E+000  +5.3784219683E-003 +5.9451274037E+001  +2.8819183539E-003 +6.3235670126E+001  +6.0946861509E-001 -3.2268022575E+000 
10396050.063 +5.8549276125E-001 +7.6654903723E+000  +6.7862615987E-003 +4.8633404293E+001  +6.1518922516E-003 +8.2644243020E+001  +5.7866059904E-001 -1.6311349229E+000 
10521195.244 +5.5358528960E-001 +8.3844656061E+000  +7.5588469574E-003 +6.7388227286E+001  +5.7928603651E-003 +8.7757395462E+001  +5.7348579020E-001 -2.8385287979E+000 
10646340.426 +5.5911720105E-001 +5.0549707406E+000  +4.7874116772E-003 +4.2438870786E+001  +5.3045984802E-003 +7.8011374116E+001  +6.3141542901E-001 -1.6542548229E+000 
10771485.607 +5.3516185838E-001 +5.5798995311E+000  +4.6191555321E-003 +5.5072887510E+001  +5.7248941431E-003 +7.3783145243E+001  +5.9149104000E-001 +2.3261024173E+000 
10896630.788 +5.9734887593E-001 +3.1043152197E+000  +7.2212853365E-003 +7.4387553360E+001  +5.3521183033E-003 +9.6352039959E+001  +5.9443624996E-001 +2.6906053140E+000 
11021775.970 +5.7302297263E-001 +7.2090790603E+000  +7.4514570896E-003 +7.4589430770E+001  +5.1400549109E-003 +6.7402389133E+001  +5.9413116618E-001 +4.6020921119E+000 
11146921.151 +6.0878279619E-001 +6.5937016267E+000  +3.5415958863E-003 +7.0103000190E+001  +5.3418897836E-003 +5.2242837005E+001  +6.1149706483E-001 +2.9026421046E+000 
11272066.333 +6.2883595819E-001 +5.8543242720E+000  +5.6148070501E-003 +8.2870800175E+001  +4.2120858968E-003 +6.6833474699E+001  +6.3271807275E-001 +4.1389242994E+000 
11397211.514 +6.0399394423E-001 +7.7026408486E+000  +5.8257598195E-003 +6.2510250535E+001  +5.5100647064E-003 +9.2037477820E+001  +6.3585546750E-001 +3.8055747925E+000 
11522356.696 +6.2126864815E-001 +5.2016215153E+000  +5.4485337485E-003 +6.3545842028E+001  +6.1976443298E-003 +1.0147174223E+002  +6.3558953373E-001 +2.0294828731E-001 
11647501.877 +6.3277389377E-001 +5.9948721244E+000  +5.9403309568E-003 +6.3467373928E+001  +3.4711042514E-003 +6.8271331839E+001  +6.4822587077E-001 +2.7842840737E+000 
11772647.059 +6.4209989140E-001 +7.9903598399E+000  +7.1893561440E-003 +7.9297735713E+001  +6.5689897044E-003 +7.8984017910E+001  +6.7825743818E-001 +2.5470011517E+000 
11897792.240 +6.3861367464E-001 +7.7842403708E+000  +7.3054688300E-003 +6.5357721695E+001  +7.1182514695E-003 +7.3543585633E+001  +6.8865098513E-001 +1.3626508051E+000 
12022937.422 +6.8407293839E-001 +5.9629732867E+000  +6.3794387649E-003 +7.6262212765E+001  +6.6478428325E-003 +7.8977768866E+001  +7.0612243152E-001 +2.2450826667E+000 
12148082.603 +6.9615941737E-001 +5.0468609707E+000  +5.3127584132E-003 +6.8254437414E+001  +5.0080334911E-003 +1.0105137990E+002  +6.9421540820E-001 -3.6540260001E-001 
12273227.785 +6.9539425450E-001 +5.2722067969E+000  +6.2887497051E-003 +6.9043885914E+001  +5.4011270322E-003 +7.2161632005E+001  +7.1445437045E-001 +2.4911307139E-001 
12398372.966 +7.2685932004E-001 +6.0967660936E+000  +7.5763869054E-003 +6.1531195653E+001  +4.8490167520E-003 +7.9524652440E+001  +7.2095663232E-001 +1.6794975729E+000 
12523518.148 +7.1214218122E-001 +4.6636610465E+000  +6.7743144350E-003 +6.3208072196E+001  +5.2841048947E-003 +6.8086931378E+001  +7.3233373425E-001 -7.0996651279E-001 
12648663.329 +7.3907793557E-001 +3.4749541836E+000  +6.2680234932E-003 +7.2705831062E+001  +6.4304281662E-003 +7.1144906912E+001  +7.3915154566E-001 +1.3639571352E-001 
12773808.511 +7.6030106968E-001 +4.8088401999E-001  +4.1802946131E-003 +7.2525400601E+001  +6.8279571277E-003 +7.0676820159E+001  +7.8451340896E-001 -1.2719039963E+000 
12898953.692 +7.7455533004E-001 +3.1674497094E+000  +6.5874139547E-003 +8.0722534951E+001  +7.0266625129E-003 +6.6960350113E+001  +7.8552388473E-001 +1.1768448650E+000 
13024098.874 +7.8498618529E-001 -5.8684151072E-001  +5.5441232366E-003 +6.7243374863E+001  +6.6828022218E-003 +6.2657028518E+001  +7.9491361735E-001 -1.9725149568E+000 
13149244.055 +7.9187592451E-001 +2.4291551909E+000  +6.1037298641E-003 +7.3405470058E+001  +7.4457841767E-003 +7.4405047297E+001  +8.0286852977E-001 -2.2170317891E+000 
13274389.237 +8.3489523210E-001 +1.3762506983E+000  +6.6849439455E-003 +7.5587732599E+001  +7.3758022921E-003 +7.8328212151E+001  +8.3616200642E-001 -2.5232625751E+000 
13399534.418 +8.2592757600E-001 -1.0168897935E+000  +8.9286751323E-003 +8.0509066747E+001  +8.1173340049E-003 +8.3845005032E+001  +8.4658032275E-001 -9.8479328627E-001 
13524679.599 +8.4306182149E-001 +1.1336006880E+000  +7.4215600988E-003 +7.5044781108E+001  +7.6442988904E-003 +8.1288736950E+001  +8.5725609183E-001 -3.0179167438E+000 
13649824.781 +8.5394958003E-001 -1.4523550287E+000  +7.3545132182E-003 +8.1576035929E+001  +6.7819686231E-003 +7.7853655123E+001  +8.7779528309E-001 -2.2436602502E+000 
13774969.962 +8.8985569539E-001 -1.8398186414E+000  +7.0956566529E-003 +6.4833219615E+001  +7.8451590198E-003 +6.9545837825E+001  +9.1036349834E-001 -4.8794659585E+000 
13900115.144 +9.0030264506E-001 -2.3146629916E+000  +6.3512369309E-003 +6.7855943583E+001  +6.3690967972E-003 +7.3338673127E+001  +9.0554434658E-001 -3.6597555607E+000 
14025260.325 +9.3317235904E-001 -2.7969325901E+000  +6.9603289602E-003 +6.8430736191E+001  +9.0329412397E-003 +6.8419864634E+001  +9.4210717425E-001 -4.1330624134E+000 
14150405.507 +9.2915419057E-001 -4.7106661200E+000  +9.7750559401E-003 +6.6331588271E+001  +6.4549717630E-003 +8.1430490114E+001  +9.6313007020E-001 -3.3071520003E+000 
14275550.688 +9.6229111250E-001 -5.2560170630E+000  +6.8809388471E-003 +6.7743193806E+001  +6.5640721968E-003 +6.3761118753E+001  +9.5614516874E-001 -4.4062286887E+000 
14400695.870 +9.7609400064E-001 -5.5024957699E+000  +8.5944055999E-003 +7.7756982104E+001  +8.0365753946E-003 +7.3729368494E+001  +9.9008412419E-001 -6.1702173127E+000 
