!  2-Port S-parameters saved by WinCal
! VAR MeasName=S-Parameters (CALIBRATED_DATA) read from VNA (P5004A)
! VAR MeasDate=28/08/2024 16:34:53
! VAR NAME=S2_r8c9_RESET4_9k-100M_2
! VAR FILENAME=S2_r8c9_RESET4_9k-100M_2.S2P
! VAR DATE=28/08/2024 16:34:54
! VAR PHYS_PORTS=1,2
! VAR ObjTypeName=DATASET
! VAR IndexType=Frequency
!
# Hz S MA R 50
9000.000 +1.0004096400E-001 -1.6715643755E+002  +6.2083024260E-003 -1.6238669736E+001  +2.7316209834E-003 +8.0084734651E+000  +2.6615252135E-001 -1.4621230012E+002 
134145.181 +1.1162051710E-001 +1.6941046373E+002  +3.2316322091E-004 -6.6059295882E+001  +4.9280675205E-004 -6.5094742770E+001  +2.4118557826E-001 -1.7097407143E+002 
259290.363 +1.1340952722E-001 +1.6980736930E+002  +1.8883926292E-004 -1.4619341523E+002  +5.9220622250E-004 -3.2648907815E+000  +2.4444740328E-001 -1.6995792983E+002 
384435.544 +1.1372678672E-001 +1.7050586305E+002  +1.7725603415E-004 -1.5463123024E+002  +4.5770561984E-004 +1.7022802502E+002  +2.3560744200E-001 -1.6972756841E+002 
509580.726 +1.1454412553E-001 +1.7059473770E+002  +6.1756455542E-004 -1.7560176547E+002  +9.0040656823E-004 -1.6841900117E+002  +2.6549339762E-001 -1.6499656971E+002 
634725.907 +1.1810988769E-001 +1.7065195257E+002  +2.0866763467E-004 +8.0257167378E+001  +7.3354370336E-004 +1.1256263085E+002  +2.5594968717E-001 -1.6578237372E+002 
759871.089 +1.1892271486E-001 +1.7177643828E+002  +4.8013499701E-004 +8.3545201294E+001  +6.6123340700E-004 -2.6074614402E+000  +2.4574141383E-001 -1.6754740238E+002 
885016.270 +1.2003568239E-001 +1.6932508714E+002  +5.6479494981E-004 -1.2719065838E+002  +1.3622129781E-004 +1.1743860797E+001  +2.3997998375E-001 -1.6827376672E+002 
1010161.452 +1.1696522584E-001 +1.6950787576E+002  +7.9532332128E-004 +7.1818842901E+001  +1.4050188399E-003 +1.1354515651E+002  +2.0002814491E-001 -1.6861092111E+002 
1135306.633 +1.1704258225E-001 +1.6813512503E+002  +1.6270973187E-003 -4.7508335936E+001  +7.9044900704E-004 +1.4615227187E+001  +2.0367144950E-001 -1.6888070870E+002 
1260451.815 +1.1850026643E-001 +1.7136361254E+002  +1.1602119749E-003 -8.2985163262E+001  +1.9611730455E-003 -4.8337470011E+001  +2.0471142363E-001 -1.6358637934E+002 
1385596.996 +1.2263795934E-001 +1.7118317402E+002  +8.7953060826E-004 -5.6748751997E+001  +2.4822479424E-003 -6.6188190363E+001  +2.8081135964E-001 -1.5409616789E+002 
1510742.178 +1.2897190220E-001 +1.7157442657E+002  +2.3669123151E-004 -1.0776901005E+002  +1.8799744685E-003 -2.3578902048E+001  +2.6349769121E-001 -1.5915986062E+002 
1635887.359 +1.3042606905E-001 +1.7053262979E+002  +4.5881670543E-004 +1.7354198710E+002  +1.1893210509E-003 +3.2394667246E+001  +2.5859960868E-001 -1.5765303677E+002 
1761032.541 +1.2911686574E-001 +1.6978705381E+002  +8.3805346670E-004 +1.5368321020E+002  +1.0728448615E-003 +5.7979896186E+001  +2.3132230864E-001 -1.6115019422E+002 
1886177.722 +1.3236495179E-001 +1.6735344109E+002  +2.1521679631E-003 +1.1711663043E+002  +1.1601980742E-003 +1.5338596974E+002  +2.1751448699E-001 -1.6516630723E+002 
2011322.904 +1.3345442687E-001 +1.6605998959E+002  +9.6485521167E-004 -1.2785167909E+001  +1.6468346085E-003 +1.6501862671E+002  +1.8788885881E-001 -1.7282698535E+002 
2136468.085 +1.3100422347E-001 +1.6643134035E+002  +2.1252949760E-003 +1.4104681077E+002  +1.6163302540E-003 -7.4802594341E+001  +1.9997326295E-001 -1.6258196708E+002 
2261613.267 +1.3388053042E-001 +1.7008298933E+002  +4.3211885320E-003 +9.3078055915E+001  +4.8891211845E-004 -5.6830734966E+001  +1.4388759796E-001 -1.7742762480E+002 
2386758.448 +1.3626977060E-001 +1.6264876883E+002  +1.6265975415E-003 -1.1846050134E+001  +4.0290176084E-003 -1.1859281535E+002  +2.9504455968E-001 +1.6788321150E+002 
2511903.630 +1.3677348162E-001 +1.6452427979E+002  +3.0913471889E-003 -1.1624413771E+002  +4.7625058697E-003 +1.2069910145E+002  +3.2385586906E-001 +1.4345062464E+002 
2637048.811 +9.4659674292E-002 +1.5936641369E+002  +1.2403925271E-002 +1.1274255848E+002  +9.9031433626E-003 -1.5423270412E+002  +1.7364858109E-001 +1.5917355403E+002 
2762193.992 +1.2221166768E-001 +1.7668829515E+002  +2.6643692106E-002 -1.5133963972E+002  +3.7659664162E-002 +1.3695279970E+001  +1.5101142597E+000 -1.0194576961E+002 
2887339.174 +1.0303865912E-001 -1.7030823562E+002  +5.9928215596E-003 -1.3620756251E+002  +1.4959956260E-002 -1.2171455779E+002  +4.2789769821E-001 -1.1875707380E+002 
3012484.355 +1.3558655318E-001 +1.7486737966E+002  +3.4504994038E-002 -1.3968065085E+002  +7.2351896471E-003 -1.7372052898E+002  +1.1651631720E+000 -5.9400389749E+001 
3137629.537 +5.5443077768E-002 +1.4160358966E+002  +2.0264986552E-002 +1.5060909785E+002  +2.3820922801E-002 -1.4001979893E+002  +1.4602634192E-001 -9.9692875105E+001 
3262774.718 +1.3321017401E-001 +1.5611884782E+002  +6.9556143852E-003 -7.8973131910E+001  +9.2933223581E-003 +3.5580087910E+001  +1.9286672353E-001 -5.9787326150E+001 
3387919.900 +1.2204433639E-001 +1.5425987486E+002  +1.4385943083E-002 -1.4497897791E+002  +4.9312919185E-003 -9.3531279655E+001  +2.9505083045E-001 +4.2349334465E+001 
3513065.081 +9.5977465182E-002 +1.6077737889E+002  +1.2027276262E-001 -1.0609909308E+002  +6.3213285482E-002 -1.3587361411E+002  +4.8643564912E+000 +1.5898130619E+002 
3638210.263 +1.5253835508E-001 +1.4088035612E+002  +1.1099326002E-002 -1.4972001090E+002  +1.2509309058E-002 -7.5469861591E+001  +5.3142658721E-001 +1.0531999609E+002 
3763355.444 +1.5902910843E-001 +1.5223915600E+002  +2.7285381503E-003 -1.5289220985E+002  +6.8519886127E-003 +7.5507764031E+001  +5.5042933057E-001 +1.6003407905E+002 
3888500.626 +1.4479638604E-001 +1.5404696227E+002  +3.2750340065E-003 -7.5903599009E+001  +8.2032360877E-003 -3.9210261006E+000  +4.6488283868E-001 +1.1289345038E+002 
4013645.807 +1.7860318658E-001 +1.5572085616E+002  +9.1867842999E-003 -1.6185665461E+002  +1.0270391596E-002 +1.1829217703E+002  +4.9281022661E-001 +1.3873371490E+002 
4138790.989 +1.6465123150E-001 +1.4299437683E+002  +9.8592474583E-003 -9.6594372750E+001  +5.4829370830E-003 +1.4744056013E+002  +1.7272560129E-001 +1.0267412994E+002 
4263936.170 +2.1319479335E-001 +1.4154280188E+002  +6.6000953384E-003 -1.5019047095E+002  +4.6419783936E-003 +6.5629286240E+001  +5.4241502511E-001 +9.2529367209E+001 
4389081.352 +2.3112198443E-001 +1.3968684063E+002  +8.0612256232E-003 +1.3002619430E+002  +6.8266549295E-003 -7.8867164216E+001  +1.4141415749E+000 +1.4484018135E+002 
4514226.533 +1.8750644324E-001 +1.3844257321E+002  +1.1710621946E-002 +9.9915954930E+001  +9.4712078221E-003 -1.5467612502E+002  +5.2399977386E-001 +2.7085867225E+001 
4639371.715 +3.3796759225E-001 +1.2118846380E+002  +2.2233636352E-002 +8.5290023628E+001  +4.3810673658E-002 +2.9482595113E+001  +1.3584773718E+000 +1.0582346110E+002 
4764516.896 +3.1601973528E-001 +1.2512411743E+002  +8.8401851070E-003 +2.9564521583E+001  +2.2445519459E-002 +7.5631240956E+001  +1.1763136361E+000 +2.9832252715E+001 
4889662.078 +4.0963144831E-001 +1.3192150121E+002  +2.8644166124E-002 -4.9807585103E+001  +8.8842989490E-003 +1.1961950602E+002  +2.7048547604E+000 -9.8504245862E+001 
5014807.259 +4.4082258981E-001 +1.2118839749E+002  +8.4438078472E-002 +1.3721945822E+002  +3.3919252413E-002 +1.4537891007E+002  +1.9703576932E+000 +6.3650665525E+001 
5139952.441 +3.9658982332E-001 +1.2022631893E+002  +3.0676660201E-002 -1.0597537821E+002  +3.7149139652E-001 +1.6202635642E+002  +1.6968378371E+001 +8.1919061990E+001 
5265097.622 +4.6226153326E-001 +1.1385742975E+002  +3.0385726055E-002 +2.8361976622E+001  +5.8471695012E-002 -1.2357005793E+002  +1.8107692918E+000 +1.0434613605E+002 
5390242.804 +4.0457894263E-001 +1.2419247078E+002  +1.0954223099E-001 +8.6828703723E+001  +6.4563033964E-002 +1.5096951500E+002  +1.4853650025E+001 +9.4629143897E+001 
5515387.985 +5.0039835445E-001 +1.2283767541E+002  +6.0935427004E-002 +9.2447302131E+001  +5.3536726250E-002 -1.7901409665E+002  +3.1502562446E+000 +5.9122948156E+001 
5640533.166 +5.4469320235E-001 +1.2539574938E+002  +1.8845893717E-002 -1.1013051555E+002  +2.9450294875E-002 +1.6821867770E+002  +1.1808626687E+000 +5.3553238488E+001 
5765678.348 +4.7719186320E-001 +1.2515516770E+002  +7.1421407546E-003 +1.4973698293E+002  +2.5815110410E-002 +7.7081409888E+001  +1.8972258775E+000 +3.7431667283E+001 
5890823.529 +5.9316108346E-001 +1.2699420164E+002  +5.1981020621E-003 +1.0434713057E+000  +2.3169082920E-002 +2.8543970832E+001  +2.4731135760E+000 +8.3907816765E+001 
6015968.711 +5.1577043512E-001 +1.2126291496E+002  +2.6119850314E-002 +9.0910571324E+001  +7.6635189172E-003 +1.4592136730E+002  +1.5524665690E+000 +4.4152750004E+001 
6141113.892 +9.9982269354E-001 +1.0751230045E+002  +3.9094768087E-002 +9.8343013045E+000  +1.4434695912E-002 +1.3731921429E+002  +2.5366453634E+000 +2.6058486183E+001 
6266259.074 +8.5088965662E-001 +8.9506484857E+001  +1.0015237268E-002 +7.5311620142E+001  +1.3456694687E-002 +4.2852584511E+001  +2.5146222536E+000 +2.1221984634E+001 
6391404.255 +9.9999083832E-001 +1.0311291396E+002  +3.5155557975E-002 +1.7136821742E+002  +3.5860695530E-002 +4.7275336557E+001  +1.2448545749E+000 +1.3581158609E+001 
6516549.437 +1.0822667159E+000 +7.3682490864E+001  +5.5308794662E-003 +3.1321227826E+001  +4.4910224072E-002 +1.7457190492E+002  +2.0490140734E+000 -7.4610535621E+000 
6641694.618 +1.7562273758E+000 +8.3153035322E+001  +2.6945450633E-002 -1.5957388703E+002  +2.0310793808E-002 +3.5413967719E+001  +1.2992050861E+000 -5.9648387540E+000 
6766839.800 +1.6006776045E+000 +4.5200905192E+001  +5.7418426359E-002 +7.1705491747E+001  +3.9969080885E-002 -9.9618180099E+001  +1.6404346500E+000 +7.6674384617E+000 
6891984.981 +1.6501570441E+000 +2.5027978455E+001  +5.5272038061E-003 +6.0618788206E+001  +2.1234765059E-003 -3.4459788386E+001  +1.1756741263E+000 -1.1162760248E+001 
7017130.163 +1.9278140332E+000 +2.3726103724E+001  +2.9765651563E-002 +1.0131464150E+002  +3.0051686510E-003 -1.4360709516E+002  +1.3204477391E+000 -1.2244997546E+001 
7142275.344 +1.8379022584E+000 +3.0565944275E+000  +1.0676587959E-002 +8.9230070505E+001  +1.0973281844E-002 +4.7410978070E+001  +1.2987516233E+000 -1.5892638495E+001 
7267420.526 +1.5532877324E+000 -2.3369495414E+000  +1.4296591279E-002 +1.3889112593E+002  +1.0092064916E-002 -7.8055422208E+001  +1.5888609512E+000 -1.6165476568E+001 
7392565.707 +1.3643966746E+000 -3.1286091664E+000  +8.2315980394E-003 +5.8694805956E+001  +5.2059559622E-004 -6.5699345637E+001  +1.2890624649E+000 -7.3842813986E+000 
7517710.889 +1.0822175297E+000 +1.8086262822E+000  +5.8364618951E-003 -3.4945355445E+001  +4.2827421114E-003 +1.1645168614E+002  +1.2246567239E+000 -4.2662913676E+000 
7642856.070 +1.0811219050E+000 -4.8271545086E-001  +8.2873495390E-003 +9.0373244387E+001  +1.0808333219E-002 +1.4153402018E+002  +1.0952128036E+000 -1.0805002840E+001 
7768001.252 +9.6184773091E-001 -7.7420698788E+000  +5.0982700751E-003 +1.5032925921E+002  +7.7893541690E-003 +2.6245828474E+001  +1.0523986119E+000 -2.3495048437E+000 
7893146.433 +7.9801320090E-001 +6.6214680014E+000  +3.0584071225E-003 +8.1054715154E+001  +3.9691722176E-003 +1.5193671507E+002  +9.5707632237E-001 -1.6192801928E+000 
8018291.615 +7.4445113859E-001 +3.1180863163E+000  +5.4875293835E-003 +9.5818251423E+001  +1.1897006761E-002 +1.4140285632E+002  +8.4513892810E-001 -3.7254440730E+000 
8143436.796 +7.0803292558E-001 +5.8920194883E+000  +3.1727169391E-003 +9.5857976596E+001  +7.8730098694E-003 +8.5332632488E+001  +8.1278833616E-001 -5.6597372713E+000 
8268581.977 +7.8873814577E-001 +2.8849594468E+000  +5.7227762986E-003 -3.2705017151E+001  +6.2624022846E-003 +1.1565849112E+002  +7.1032267015E-001 +1.2767960875E+000 
8393727.159 +6.7317946298E-001 +9.1245955970E+000  +5.6968264408E-003 +7.4409070785E+001  +3.8629120162E-003 -1.0228890762E+002  +7.5866732388E-001 +7.5732727384E+000 
8518872.340 +6.3881312844E-001 +2.4811958535E+000  +5.3702445473E-003 +7.3188883443E+001  +8.3138382061E-003 +8.5900369456E+001  +7.2695362902E-001 +9.6227839097E-001 
8644017.522 +6.6233456438E-001 +4.5203961669E+000  +1.2019989013E-003 +3.5754810261E+001  +1.7567262914E-003 -2.6259962474E+001  +6.8516532848E-001 +3.0064677506E+000 
8769162.703 +6.7493532200E-001 +8.9082639430E+000  +3.8420033312E-003 +7.7324782891E+001  +5.8443012298E-003 +4.0682672214E+001  +6.9777707407E-001 -5.9841463787E+000 
8894307.885 +5.9138158504E-001 +7.7527586427E+000  +5.9130513152E-003 +8.6809913092E+001  +5.6977751566E-003 +1.0572667361E+002  +6.6555672663E-001 -2.5912926954E+000 
9019453.066 +6.3461825532E-001 +5.2512981537E+000  +1.1810722485E-003 +1.3147911405E+002  +2.1066372193E-003 +3.5598142417E+001  +6.0541206188E-001 -9.0461064829E-001 
9144598.248 +5.5208995819E-001 +7.6026718465E+000  +2.8959901482E-003 +7.5136940002E+001  +1.6978425643E-003 +1.5485811420E+002  +5.8748895934E-001 -1.7214117852E+000 
9269743.429 +6.4417027626E-001 +9.1880398531E+000  +5.1130173098E-003 +5.7701237680E+001  +5.3708216130E-003 +7.1708456409E+001  +6.3668851211E-001 +1.7989476176E+000 
9394888.611 +5.6783155681E-001 +1.1692605394E+000  +6.7522167269E-003 +1.0247248724E+002  +6.0419635019E-003 +5.1697011964E+001  +6.1246162921E-001 -1.3855571755E-001 
9520033.792 +5.3946951077E-001 +8.9733002525E+000  +5.0377684820E-003 +1.0794329004E+002  +2.8446385698E-003 +9.0945817765E+001  +5.8107396078E-001 -4.6512528803E+000 
9645178.974 +5.3769459003E-001 +2.0469341122E+000  +2.7401475691E-003 +8.7081151580E+001  +2.5516974429E-003 +5.5838003701E+001  +5.9542029716E-001 -7.0137176889E+000 
9770324.155 +5.1504319039E-001 +8.2734560690E-001  +3.7281638910E-003 +5.2183561253E+001  +5.8563212193E-003 +9.3441574525E+001  +5.9317279496E-001 -5.0479630459E+000 
9895469.337 +5.4001813766E-001 +1.3452019446E+000  +5.7575993188E-003 +7.9688852712E+001  +2.7897143594E-003 +1.2587722302E+002  +6.5464710333E-001 -2.8520025671E+000 
10020614.518 +5.8367665735E-001 +5.7688511974E-001  +4.6227321558E-003 +8.5606875915E+001  +3.7259083867E-003 +9.7598781485E+001  +5.8527875709E-001 -4.1349671669E+000 
10145759.700 +5.0550733710E-001 +2.7165577771E+000  +2.6118686678E-003 +1.9525154905E+001  +5.0853151079E-003 +1.0775258350E+002  +5.9944267968E-001 -6.8801993680E+000 
10270904.881 +5.7404425427E-001 +3.3161561052E+000  +5.7523685133E-003 +1.0459344646E+002  +3.8366335265E-003 +9.1455486115E+001  +5.9149507216E-001 -2.9781416519E+000 
10396050.063 +5.6670924569E-001 +3.3993957652E+000  +3.9327068701E-003 +2.8800576057E-001  +2.0239322417E-003 +1.0764017918E+002  +6.0296255444E-001 -1.6916834862E+000 
10521195.244 +5.5939550732E-001 +4.8532847331E+000  +3.9413730967E-003 +6.9458414060E+001  +5.9231506332E-003 +7.4110483584E+001  +6.1434507416E-001 +3.6400881171E-001 
10646340.426 +5.3205424640E-001 +5.5032598441E+000  +4.3548316856E-003 +8.1963917236E+001  +3.9527554277E-003 +7.9858927992E+001  +6.1532996386E-001 -4.2328179693E-001 
10771485.607 +5.8958516560E-001 +6.2086484090E+000  +7.4403591380E-003 +9.1850369284E+001  +2.4759031985E-003 +8.7850953560E+001  +5.6450993688E-001 -2.8497355092E-001 
10896630.788 +5.8877692388E-001 +6.3748645608E+000  +2.5917526006E-003 +6.4233467462E+001  +5.4929126936E-003 +1.1966006925E+002  +6.0293386309E-001 +1.5093418233E+000 
11021775.970 +5.5045119671E-001 +3.6620492020E+000  +5.4373039972E-003 +8.4914491714E+001  +3.8211063966E-003 +9.7184697280E+001  +6.2007720911E-001 -6.6146919259E-001 
11146921.151 +6.0541786987E-001 +7.5426591291E+000  +4.0203192806E-003 +5.5923494570E+001  +5.6420507803E-003 +1.0240114895E+002  +6.2331044784E-001 +1.6327929358E+000 
11272066.333 +6.0074401559E-001 +8.6717358161E+000  +6.3673121259E-003 +1.1050374794E+002  +2.4824587675E-003 +1.0075374383E+002  +6.1677581854E-001 +3.7457593558E-001 
11397211.514 +6.3909374893E-001 +7.8993509033E+000  +3.7840946096E-003 +1.1137638327E+002  +3.2689332211E-003 +8.7638822761E+001  +6.4269564336E-001 +5.1048305741E+000 
11522356.696 +6.1223941437E-001 +5.3268287299E+000  +5.1338081403E-003 +8.1013137631E+001  +6.4664201904E-003 +9.0771114242E+001  +6.8388816587E-001 +1.9650280502E-001 
11647501.877 +6.5398843761E-001 +7.1009502911E+000  +4.8570445054E-003 +9.2942361570E+001  +3.2269876013E-003 +9.3818169932E+001  +6.6022586890E-001 +3.9270822689E+000 
11772647.059 +6.3381136139E-001 +6.2696996177E+000  +5.9625316030E-003 +1.0578730325E+002  +4.5189205632E-003 +7.0699086478E+001  +6.5114623983E-001 +1.8289163905E+000 
11897792.240 +6.6323885553E-001 +7.6751682222E+000  +5.1954281254E-003 +8.7543124696E+001  +5.4331232977E-003 +9.3668193929E+001  +6.7391133300E-001 +1.3203563385E+000 
12022937.422 +6.7149691884E-001 +3.0749963604E+000  +5.0754778596E-003 +9.4676195452E+001  +4.6197025907E-003 +9.6947682062E+001  +6.8241408168E-001 +1.8218625392E+000 
12148082.603 +6.9500486106E-001 +3.5971692630E+000  +5.1146517885E-003 +9.9518035912E+001  +5.6048063445E-003 +9.1652704329E+001  +7.0187606964E-001 -1.1997346718E+000 
12273227.785 +7.2016673221E-001 +3.7658807882E+000  +5.4576406758E-003 +9.7864894160E+001  +6.9109503451E-003 +8.9310103462E+001  +7.1988874104E-001 -8.3965882431E-001 
12398372.966 +7.0282789197E-001 +2.8506623877E+000  +6.4512630038E-003 +7.9382580140E+001  +6.4225578780E-003 +1.0521962947E+002  +7.0806944715E-001 +2.2060945140E-001 
12523518.148 +7.4221408786E-001 +3.2159528360E+000  +6.0849400726E-003 +8.4823153642E+001  +5.1899022512E-003 +7.4607973300E+001  +7.4507570759E-001 -3.8898857257E-001 
12648663.329 +7.3100751444E-001 +3.5171479381E+000  +5.2663313449E-003 +9.2413538199E+001  +5.2326997724E-003 +1.0532961419E+002  +7.5856126707E-001 -8.6348435286E-001 
12773808.511 +7.4289662828E-001 +1.8378146719E+000  +7.6265911995E-003 +8.9261106891E+001  +5.4479543205E-003 +9.4262250967E+001  +7.8117395812E-001 -3.3415446930E-002 
12898953.692 +7.5688374626E-001 +1.5471216785E+000  +4.8641577515E-003 +9.3170575474E+001  +5.2799303590E-003 +7.3324499681E+001  +7.6996422412E-001 -2.1381908816E+000 
13024098.874 +8.0263572561E-001 +8.2765773284E-001  +5.5312044777E-003 +9.9121969749E+001  +6.4321113775E-003 +9.8134935487E+001  +8.0630956012E-001 -1.3367742080E+000 
13149244.055 +8.1578739877E-001 -5.4333702791E-001  +8.6506229651E-003 +8.2973863042E+001  +4.7671765314E-003 +1.0917572469E+002  +8.1909693024E-001 -2.4395900930E+000 
13274389.237 +8.1513232192E-001 -1.0372745707E+000  +6.7791403361E-003 +9.6010580689E+001  +6.4244194308E-003 +1.0513933477E+002  +8.2942915496E-001 -2.7150906224E+000 
13399534.418 +8.3464673477E-001 -6.6478563440E-001  +6.6504677505E-003 +7.2156419607E+001  +5.9794409890E-003 +9.9188654478E+001  +8.4051590036E-001 -1.0701926497E+000 
13524679.599 +8.7399246605E-001 -2.3191666477E+000  +6.6466891596E-003 +9.0738387201E+001  +7.0782561320E-003 +9.0762010279E+001  +8.5680056918E-001 -1.1997340083E+000 
13649824.781 +8.7307062491E-001 -2.3795440284E+000  +5.4057977858E-003 +8.8838968258E+001  +8.3808791934E-003 +9.3399022745E+001  +8.8192012869E-001 -3.3961257510E+000 
13774969.962 +8.9294210175E-001 -2.6862963498E+000  +6.7729958422E-003 +8.7190644573E+001  +6.3179895862E-003 +9.4844318103E+001  +8.9082562270E-001 -2.1522202382E+000 
13900115.144 +8.9068774432E-001 -3.5419844616E+000  +7.4260041800E-003 +9.2165009132E+001  +6.3926689422E-003 +9.1028798066E+001  +9.1471392812E-001 -2.7884901118E+000 
14025260.325 +9.2911045248E-001 -3.8880682830E+000  +7.0338665818E-003 +1.0077510081E+002  +8.4863228184E-003 +8.5109752960E+001  +9.3653848834E-001 -4.1776453717E+000 
14150405.507 +9.5917479248E-001 -4.0063079744E+000  +7.0566269926E-003 +9.4736453559E+001  +8.0437402268E-003 +9.3259851896E+001  +9.4247776830E-001 -4.0450166735E+000 
14275550.688 +9.7852406077E-001 -5.8400818305E+000  +8.4281017136E-003 +8.3776136768E+001  +7.4070697584E-003 +8.7637938265E+001  +9.7536676189E-001 -2.9602405079E+000 
14400695.870 +9.7387754965E-001 -4.1678630119E+000  +8.3312761253E-003 +9.1278392715E+001  +7.3436749637E-003 +1.0231489543E+002  +1.0132799280E+000 -4.7862364709E+000 
