!  2-Port S-parameters saved by WinCal
! VAR MeasName=S-Parameters (CALIBRATED_DATA) read from VNA (P5004A)
! VAR MeasDate=27/08/2024 16:05:45
! VAR NAME=S2_r1c9_RESET1_9k-100M_1
! VAR FILENAME=S2_r1c9_RESET1_9k-100M_1.S2P
! VAR DATE=27/08/2024 16:05:45
! VAR PHYS_PORTS=1,2
! VAR ObjTypeName=DATASET
! VAR IndexType=Frequency
!
# Hz S MA R 50
9000.000 +6.3860701931E-002 -1.3438096128E+002  +3.0198370898E-002 +7.5057551193E+001  +5.4119412418E-002 -2.7592625149E+001  +3.8295112713E-001 -1.2519413596E+002 
134145.181 +1.1045250239E-001 +1.6934292237E+002  +1.1780528301E-004 +1.6373457604E+001  +2.7259612761E-004 +1.2676969103E+002  +2.3545392355E-001 -1.7110781695E+002 
259290.363 +1.1207673833E-001 +1.7019179549E+002  +7.4505007561E-004 +1.3733537193E+000  +2.2826435528E-004 -1.6217460537E+002  +2.3737656882E-001 -1.6992354315E+002 
384435.544 +1.1380220768E-001 +1.7030717967E+002  +1.4378909507E-004 -1.4017400371E+002  +4.8240362471E-004 -1.0069604996E+002  +2.4735944472E-001 -1.6915524836E+002 
509580.726 +1.1431413321E-001 +1.7150394689E+002  +7.8276924395E-004 -1.4876506189E+002  +1.0085608567E-003 -1.7131453209E+002  +2.4713397394E-001 -1.6614596977E+002 
634725.907 +1.1433805190E-001 +1.7106213586E+002  +7.5918901543E-004 +1.4939243649E+002  +1.1254734483E-004 -1.2694033695E+002  +2.3120791031E-001 -1.6639979139E+002 
759871.089 +1.1810615460E-001 +1.7111184678E+002  +1.3772285216E-003 +1.1252067969E+002  +1.2602257161E-003 -1.6037206761E+002  +2.4288088106E-001 -1.6309838269E+002 
885016.270 +1.1853929419E-001 +1.6901760662E+002  +2.3018718989E-004 -1.1517495128E+002  +1.2672186770E-004 +1.6173678260E+002  +2.3123727048E-001 -1.6783951772E+002 
1010161.452 +1.1884928018E-001 +1.6975115729E+002  +7.2211679493E-004 -7.7339286108E+001  +1.4577416134E-003 -1.7444911769E+002  +2.0031746380E-001 -1.6707001886E+002 
1135306.633 +1.1115818072E-001 +1.6858812976E+002  +3.1105449950E-003 -1.4077836310E+002  +8.0766168310E-004 -1.5211751741E+002  +1.9829463627E-001 -1.5243478199E+002 
1260451.815 +1.2406071122E-001 +1.7270186965E+002  +1.5718217861E-003 -2.4201559444E+001  +7.5281426997E-004 -1.5149821728E+002  +2.3340891537E-001 -1.5448675851E+002 
1385596.996 +1.2709682197E-001 +1.7163753277E+002  +5.0384156669E-004 +8.6759750405E+001  +1.0164300009E-003 -1.2194840378E+001  +2.7796956121E-001 -1.5987920227E+002 
1510742.178 +1.2842490646E-001 +1.7099829321E+002  +3.1553215307E-004 +3.6530040260E+001  +4.5546510670E-004 -6.3484027395E+001  +2.5254404864E-001 -1.5955384668E+002 
1635887.359 +1.2750991224E-001 +1.7153615294E+002  +1.4107850014E-003 -7.5897082003E+001  +1.8153916982E-003 +1.3610967556E+002  +2.3635597724E-001 -1.5619257151E+002 
1761032.541 +1.2754957740E-001 +1.6896373984E+002  +1.2173553092E-003 +1.3710978125E+002  +3.9208850208E-004 +1.4419078862E+002  +2.0624423681E-001 -1.6449360039E+002 
1886177.722 +1.2987999413E-001 +1.6818544923E+002  +3.2253819360E-003 -1.2486872307E+002  +6.6025343158E-004 +9.0400665639E+000  +1.8814097718E-001 -1.6824942263E+002 
2011322.904 +1.2653284341E-001 +1.6728018648E+002  +8.7921596258E-004 -1.1530151648E+002  +1.8459066225E-003 +1.1435599011E+002  +2.0441919288E-001 -1.6875816466E+002 
2136468.085 +1.2929040069E-001 +1.6459651790E+002  +1.1197820480E-003 +1.3127865487E+002  +1.6902489735E-003 +9.5950751247E+001  +2.0382380188E-001 -1.6835122541E+002 
2261613.267 +1.1848793801E-001 +1.6246931744E+002  +4.0226736522E-003 -7.0522968224E+001  +4.3596427084E-003 +1.6054650921E+002  +2.1104198237E-001 +1.7275829159E+002 
2386758.448 +1.3551376984E-001 +1.6215003867E+002  +5.2446563007E-003 +4.7449082660E+001  +5.2343335440E-003 +1.4277871268E+002  +2.0175824547E-001 +1.7122626970E+002 
2511903.630 +1.2889362587E-001 +1.6383750817E+002  +5.5829565410E-003 -4.2173743860E+001  +7.4901321077E-003 -7.9269733064E+000  +1.8815685479E-001 +1.6228741330E+002 
2637048.811 +1.1228321982E-001 +1.7347054701E+002  +1.4660049801E-002 -1.1053400826E+002  +6.1489791357E-003 +1.2366909109E+001  +6.8727981518E-001 -1.7498205379E+002 
2762193.992 +1.1147648713E-001 +1.7261983549E+002  +7.3749308066E-003 +4.8560504319E+001  +8.5194304223E-003 -1.4975346196E+002  +1.3209195937E+000 +1.7866811634E+002 
2887339.174 +1.1066839473E-001 +1.7709008488E+002  +4.4343084639E-003 -1.3102590782E+002  +1.4680660080E-002 +3.3739923335E+001  +5.8128209374E-001 -1.3047309776E+002 
3012484.355 +1.3408430634E-001 +1.7217020405E+002  +1.2466461672E-002 +6.8596763628E+001  +2.6985616601E-003 +1.6448636307E+002  +2.2448110376E-001 -3.4932890683E+001 
3137629.537 +1.1607452490E-001 -1.7870307478E+002  +9.3531400265E-003 -7.3896271377E+001  +2.1617461553E-002 +1.1136276363E+001  +2.7674910104E-001 -5.8752860861E+001 
3262774.718 +1.1877570986E-001 +1.7469969311E+002  +4.0728512510E-003 -9.1400958995E+001  +7.7910379204E-003 +1.9951785200E+001  +9.6663434371E-002 -2.1863728345E+001 
3387919.900 +1.2269319004E-001 +1.4715959924E+002  +1.0731857201E-002 +9.9871010760E+001  +7.0002698125E-003 +1.1951077524E+001  +7.3213706305E-001 +1.3787238771E+002 
3513065.081 +1.6965897416E-001 +1.4558438345E+002  +1.2242632817E-002 +1.0123840333E+002  +2.6334395328E-002 +1.0741405019E+001  +9.0772820645E-001 +9.3839162346E+001 
3638210.263 +2.0937311697E-001 +1.4866042904E+002  +5.4340828162E-002 +1.1437811347E+002  +9.4880913563E-003 +4.6713380051E+001  +2.8912191841E+000 +7.8831033142E+001 
3763355.444 +1.8463465849E-001 +1.4761746827E+002  +3.2837227006E-003 +1.4975233740E+002  +2.3593282056E-003 +7.0411635507E+001  +3.7417882126E-001 +1.3166117527E+002 
3888500.626 +1.7319993983E-001 +1.5108872995E+002  +1.2875442746E-002 +1.7944809344E+002  +1.1485939461E-002 +5.2275026035E+001  +1.0260332340E+000 +1.4775860375E+002 
4013645.807 +1.7937443480E-001 +1.5030104372E+002  +9.9242315073E-003 -1.4780328738E+002  +8.3953949539E-003 +7.1330366194E+001  +3.9866517942E-001 +1.4648782606E+002 
4138790.989 +1.5433029786E-001 +1.4744338432E+002  +1.5136446098E-002 -4.5053936276E+001  +5.4408614556E-003 -1.2713119784E+002  +2.0849097000E-001 +9.5357054300E+001 
4263936.170 +1.9492272816E-001 +1.3904769605E+002  +7.8592686514E-003 +3.6965539285E+001  +2.4639791200E-002 -1.1660572054E+002  +3.8295629902E-001 +8.9019089424E+001 
4389081.352 +2.1722073547E-001 +1.4019463675E+002  +3.2099468186E-003 +5.6232755787E+001  +5.3976706573E-003 +1.0094462287E+002  +1.8146925594E-001 +6.3024936707E+001 
4514226.533 +2.0471322420E-001 +1.1361601768E+002  +2.0155731347E-002 +4.5388913995E+001  +2.9144983283E-002 +1.6630441774E+001  +1.5399758075E+000 +1.1629067750E+002 
4639371.715 +3.2991769602E-001 +1.2574273545E+002  +3.9542233988E-002 -3.2065736487E+001  +1.5917938251E-002 -1.3901952259E+002  +2.1902572951E+000 +1.3425975027E+002 
4764516.896 +3.8229656423E-001 +1.2807908289E+002  +3.0574988842E-002 -1.1855777706E+002  +3.0824170760E-002 -1.8602289624E+001  +2.1336748348E+000 -1.6866711126E+002 
4889662.078 +5.1090204546E-001 +1.3526103995E+002  +3.6427271138E-002 -1.7483273437E+002  +1.9863848790E-002 +1.5706096640E+002  +1.9514677710E+000 -1.1770331701E+002 
5014807.259 +3.9720875342E-001 +1.2921312250E+002  +2.6894280214E-002 +5.3379464416E+001  +2.2913565464E-002 -8.9327726147E+001  +3.7269851031E+000 +1.2098240546E+002 
5139952.441 +4.2874262205E-001 +1.2449992031E+002  +9.0509830064E-002 -6.0911797637E+001  +6.4259142821E-002 -1.6903375916E+002  +3.9647459248E+000 +3.2008460171E+001 
5265097.622 +3.6690173095E-001 +1.2731017903E+002  +1.3727508456E-002 +1.7316506137E+002  +4.5158634596E-002 +1.2009251696E+002  +2.5997332732E+000 +7.8685139683E+001 
5390242.804 +4.1655161676E-001 +1.2803095555E+002  +2.5443191864E-002 +9.0424905593E+001  +6.3769105272E-002 -7.7405008246E+001  +3.4048906244E+000 +9.2706508197E+001 
5515387.985 +4.2784417595E-001 +1.3619727762E+002  +2.1844005608E-002 -7.2970912777E+001  +2.3063928983E-002 +1.6129631095E+002  +2.4522618216E+000 +1.0626239905E+002 
5640533.166 +4.6427584266E-001 +1.3335512656E+002  +2.0970406860E-002 +1.2203720788E+001  +8.9065050693E-003 -1.1528489294E+001  +2.9979280824E+000 +9.9519357306E+001 
5765678.348 +5.3969769119E-001 +1.1743726209E+002  +2.8157685928E-002 +9.4460589085E+001  +2.2915557584E-002 -1.5983592545E+002  +3.1277581549E+000 +1.0205878039E+002 
5890823.529 +5.0071736813E-001 +1.2150916236E+002  +9.5169233135E-003 -2.3023767068E+001  +4.4838581102E-002 +1.3976160394E+001  +2.7558468369E+000 +5.3119144694E+001 
6015968.711 +7.5311438895E-001 +1.2295429702E+002  +3.1012625858E-002 -7.9367496660E+001  +1.7111743181E-002 +1.7612003138E+002  +2.0797137287E+000 +5.1550114125E+001 
6141113.892 +6.5621041066E-001 +1.0662139160E+002  +2.5834529642E-002 +1.4002201661E+002  +3.1708877760E-002 +1.3170419123E+002  +3.1340917338E+000 +1.3938736276E+001 
6266259.074 +8.0636813259E-001 +1.0831902522E+002  +3.4402900168E-002 +1.5537148255E+002  +3.0421988574E-002 +1.3136688069E+002  +2.0040703050E+000 +1.5340944035E+001 
6391404.255 +9.9664302617E-001 +9.1552551771E+001  +1.9499564333E-002 +2.2421451206E+001  +3.0795476417E-002 +6.0304045509E+001  +1.8007398566E+000 +9.0673138617E+000 
6516549.437 +1.6878873439E+000 +6.5894637335E+001  +6.2183517416E-003 +4.6806374891E+000  +4.4042433150E-002 +1.5231392193E+002  +1.8390699549E+000 +1.2821810159E+001 
6641694.618 +1.4134934543E+000 +8.1095637512E+001  +1.6329544627E-002 +6.7538658282E+001  +1.7040387151E-002 +1.1051758034E+002  +1.5698822728E+000 -6.6852318338E+000 
6766839.800 +1.9830363266E+000 +7.2004417334E+001  +1.6263432160E-002 -4.6857420282E+001  +2.3339718434E-002 -1.3249016270E+002  +1.2984559639E+000 -1.3040922420E+001 
6891984.981 +2.0691526470E+000 +2.1946662435E+001  +3.4886078317E-002 +2.4111055841E+001  +3.7687871552E-003 +1.5018590313E+001  +1.2326791887E+000 -9.2978350467E-001 
7017130.163 +1.9981988353E+000 +2.3119482742E+001  +2.5023295298E-002 +2.3791795225E+001  +1.8857629624E-002 +4.7371605839E+001  +1.3579964763E+000 -1.3369540113E+001 
7142275.344 +1.7614354531E+000 +1.8789859507E+001  +1.0089643159E-002 +1.3403108681E+002  +7.1957962015E-003 +1.3283777135E+002  +1.2920281875E+000 -8.5150232915E+000 
7267420.526 +1.6645733212E+000 -6.0738613369E-003  +1.6630768563E-003 +1.4842228308E+002  +1.8011195831E-002 +7.7861842712E+001  +1.2756321060E+000 -7.5836322641E+000 
7392565.707 +1.2911419941E+000 -1.2467472272E+000  +6.6447695046E-003 +8.1438519430E+001  +1.4660209676E-002 +4.3437247332E+001  +1.2272317266E+000 -1.2535676067E+000 
7517710.889 +1.2968634102E+000 +1.0255865519E+000  +7.0496870735E-003 -1.5596568989E+002  +5.0048293830E-003 +1.0782046277E+002  +1.1888342098E+000 -5.9799716424E-001 
7642856.070 +1.0331305586E+000 +5.4326324263E+000  +9.2813241999E-003 +8.0574774945E+001  +7.3315235729E-003 +1.3504120046E+002  +1.1009484324E+000 -4.6589098386E+000 
7768001.252 +9.7580360492E-001 +8.4990199350E+000  +1.3388349503E-003 +1.2360545169E+002  +1.0141977428E-002 +1.2413985985E+002  +9.5789981802E-001 +3.8411764345E-001 
7893146.433 +9.2782533551E-001 +2.2385319902E+000  +5.9021032317E-003 +1.5042849812E+002  +3.3863491250E-003 +1.4095252539E+002  +8.7192321219E-001 -7.5027511531E+000 
8018291.615 +8.3306451663E-001 +5.2863384878E+000  +4.5017027226E-003 -1.7549631340E+002  +1.2553021896E-002 +1.4869920480E+002  +8.9714903712E-001 +4.0320725426E+000 
8143436.796 +8.1943854797E-001 +7.9756151539E+000  +8.1785229141E-003 +6.4392814008E+001  +5.6268860889E-003 +1.0750624138E+002  +8.0221391691E-001 -1.0532935593E+000 
8268581.977 +6.8724736060E-001 +8.2221413123E+000  +3.2523888732E-003 +5.9421660912E+001  +6.7652481818E-003 +9.6043776882E+001  +7.1658334402E-001 +4.4335369797E+000 
8393727.159 +7.2940708786E-001 +8.4234698210E+000  +2.7057838668E-003 +4.5514227698E+001  +6.9511084822E-003 +7.1130265611E+001  +7.9212238277E-001 -3.3692061289E+000 
8518872.340 +7.6306515508E-001 +7.8361182372E+000  +1.6337079107E-003 +1.1411650660E+002  +6.0590274525E-003 +1.2492506142E+002  +7.2196987163E-001 +2.9760911952E+000 
8644017.522 +6.9758673231E-001 +8.6983739138E+000  +6.0704579972E-003 +2.4446099410E+001  +5.6719252300E-003 +1.5926518427E+002  +7.4545043060E-001 +1.1090500865E+000 
8769162.703 +6.4068003320E-001 +3.8257044302E+000  +3.0761975611E-003 +4.1586503264E+001  +3.9951287318E-003 +6.5960802357E+001  +6.3902159288E-001 +1.2319825374E+000 
8894307.885 +6.3962585169E-001 +5.6320603805E+000  +5.5415177681E-003 +6.2308583492E+001  +4.2544445536E-003 -1.7592152772E+002  +6.1401666331E-001 +1.8783358064E+000 
9019453.066 +5.9296282533E-001 +6.0607844812E+000  +7.3160137810E-003 +1.0279861677E+002  +1.5848360102E-003 +7.3606562230E+001  +5.9063309216E-001 -7.0351174099E-001 
9144598.248 +5.7696399634E-001 +5.9588825565E+000  +2.7860418244E-003 +4.4412758134E+001  +5.5225529611E-003 +8.9034389376E+001  +5.6478809937E-001 -2.6050107009E-001 
9269743.429 +6.0222976010E-001 +2.4035279470E+000  +4.2762884303E-003 +9.1191460319E+001  +2.7836545607E-003 +7.7268528076E+001  +5.9850000525E-001 -9.3845259745E-001 
9394888.611 +5.5407436665E-001 +4.1856837716E+000  +2.7776698720E-004 -1.1845295284E+002  +3.3988861827E-003 +1.1371306834E+002  +5.9150877096E-001 -1.2414497331E+000 
9520033.792 +5.6533603434E-001 +8.8521943327E+000  +3.3427368982E-003 +9.8871556941E+001  +4.9985489691E-003 +6.6907376238E+001  +6.0041144933E-001 -6.3614803535E+000 
9645178.974 +5.6910450403E-001 -8.2392169526E-001  +1.3221456689E-003 +7.9598892480E+001  +5.4313908253E-003 +1.1524282142E+002  +5.8122718555E-001 -2.6849645014E+000 
9770324.155 +5.5574879919E-001 +1.4250187033E+000  +3.8964705140E-003 +8.8007884440E+001  +9.2020488998E-003 +1.0365001905E+002  +6.0622679988E-001 -3.9930823030E+000 
9895469.337 +5.7970833752E-001 +2.3812308134E-001  +9.2825094991E-003 +8.2288336161E+001  +7.0040974771E-003 +1.1460734098E+002  +5.7338080995E-001 -7.4660443860E+000 
10020614.518 +5.5826527487E-001 +4.5675163211E+000  +6.6216071543E-003 +8.2798367947E+001  +5.7115332326E-003 +1.0916142365E+002  +5.9753915143E-001 -2.1151570167E+000 
10145759.700 +5.5258943258E-001 +3.9434119940E+000  +1.5964501263E-003 +8.5971173920E+001  +5.8308638259E-003 +8.7131105580E+001  +6.2634896183E-001 +1.4267389831E+000 
10270904.881 +5.2983052912E-001 +2.9991443535E+000  +9.4892864533E-004 +1.0534357765E+002  +5.0033698333E-003 +1.1518879394E+002  +6.1808752629E-001 -1.2982572276E+000 
10396050.063 +5.9786420075E-001 +4.7447627579E+000  +4.9964230512E-003 +9.5043794177E+001  +7.2194480436E-003 +1.2639354140E+002  +6.2301538441E-001 -1.1305321973E+000 
10521195.244 +5.3668780223E-001 +2.4408380257E+000  +4.4997145758E-003 +9.8291719676E+001  +6.6924371091E-003 +9.9830029372E+001  +5.9439429643E-001 -1.0790693696E+000 
10646340.426 +5.5698062366E-001 +3.8802780710E+000  +4.0818788825E-003 +9.9807760772E+001  +3.4397179151E-003 +1.4241235848E+002  +6.2190292330E-001 +1.2298796557E+000 
10771485.607 +5.4489191047E-001 +7.3778240590E+000  +7.7743859136E-003 +6.9401071692E+001  +2.9667266236E-003 +1.2981423643E+002  +5.9677970824E-001 -6.9805245965E-001 
10896630.788 +5.7369213786E-001 +7.7513493714E+000  +7.3783570597E-003 +7.9922303035E+001  +4.6717077772E-003 +8.4898819253E+001  +5.9519673923E-001 +7.4372893710E-001 
11021775.970 +5.7729027580E-001 +3.8433274810E+000  +5.2114830675E-003 +7.2397112873E+001  +2.0203472739E-003 +1.1886423325E+002  +5.9924030570E-001 +2.2395378955E+000 
11146921.151 +5.8762818141E-001 +5.3268437020E+000  +6.5793078570E-003 +8.7478025682E+001  +6.4548092305E-003 +1.1664380558E+002  +6.1549455979E-001 +2.2573349945E+000 
11272066.333 +6.1389334795E-001 +7.9467428022E+000  +7.2515478509E-003 +8.6100612488E+001  +6.4823457101E-003 +8.3581296145E+001  +6.1894996661E-001 -6.9878063894E-001 
11397211.514 +6.1939319394E-001 +4.8850561664E+000  +4.7672465808E-003 +8.6270367660E+001  +5.8692784040E-003 +9.5091928138E+001  +5.9255464731E-001 +3.7438240519E+000 
11522356.696 +6.4531293324E-001 +5.1133684002E+000  +4.0440199544E-003 +9.3716930440E+001  +4.0836489240E-003 +1.0112224050E+002  +6.2525851516E-001 +7.6710197648E-001 
11647501.877 +5.9841596883E-001 +4.2655656545E+000  +4.5151009480E-003 +7.8608443204E+001  +3.4029834998E-003 +1.3450892909E+002  +6.4061128007E-001 +4.5426940822E+000 
11772647.059 +6.5530223413E-001 +2.3187774573E+000  +4.4460779238E-003 +8.8443783777E+001  +5.8513888204E-003 +9.7425750355E+001  +6.8058058033E-001 +4.6336923348E-001 
11897792.240 +6.5887483622E-001 +5.1108362578E+000  +5.2328184631E-003 +8.8351647209E+001  +5.5896087854E-003 +8.4121527823E+001  +6.7593050742E-001 +1.0341429609E+000 
12022937.422 +6.5849814009E-001 +4.2467251373E+000  +6.2037800713E-003 +8.6852800375E+001  +4.5059875005E-003 +7.4829241759E+001  +6.8035590559E-001 +7.0209990849E-001 
12148082.603 +6.7353101186E-001 +5.2899157157E+000  +4.9482220087E-003 +1.0718176810E+002  +5.0778180962E-003 +1.0634283232E+002  +6.9370172917E-001 +1.9452176768E+000 
12273227.785 +7.0411552799E-001 +2.4527241547E+000  +6.5501560116E-003 +8.6400506523E+001  +5.9718585235E-003 +1.0891767300E+002  +6.9412763627E-001 +3.6110437523E-001 
12398372.966 +7.0248468607E-001 +2.5428653328E+000  +6.5615505850E-003 +1.0300145894E+002  +3.3854063291E-003 +8.7021261427E+001  +7.2429406682E-001 -7.3137851943E-001 
12523518.148 +7.4274634735E-001 +3.9563917178E+000  +6.2948516880E-003 +9.6172635613E+001  +3.1562547640E-003 +7.7573944500E+001  +7.3730569234E-001 -2.2319817715E-001 
12648663.329 +7.2944084627E-001 +1.9738829262E+000  +6.6894410028E-003 +8.9142671023E+001  +6.4210401648E-003 +8.7813566231E+001  +7.6128500006E-001 -9.6029848959E-001 
12773808.511 +7.6172954599E-001 +2.7478358969E+000  +6.7258658789E-003 +9.5986359230E+001  +5.3107854941E-003 +1.0961066625E+002  +7.6196749573E-001 -2.6494584680E+000 
12898953.692 +7.7745086824E-001 +1.9448857394E-001  +6.7558267069E-003 +1.1410184953E+002  +5.4400631449E-003 +9.5167231727E+001  +7.7253664948E-001 -1.1441723944E+000 
13024098.874 +7.7565056616E-001 +1.4915277017E+000  +7.1443203922E-003 +7.8547322560E+001  +4.1960505997E-003 +1.1228934123E+002  +7.9987729650E-001 -1.1380585728E+000 
13149244.055 +8.0655521177E-001 +4.2939365624E-001  +6.6445313086E-003 +8.7273202308E+001  +7.2566288591E-003 +1.0717051468E+002  +8.1515752049E-001 -1.4181186509E+000 
13274389.237 +8.3516723313E-001 -3.1073845849E-001  +5.7044888713E-003 +9.4181190428E+001  +7.2966964383E-003 +9.1784017709E+001  +8.5956919669E-001 -2.3005254523E+000 
13399534.418 +8.2506850868E-001 -1.9779606177E+000  +5.5840323042E-003 +1.0084535837E+002  +6.5627983291E-003 +9.7294988115E+001  +8.4250346905E-001 -2.6159306416E+000 
13524679.599 +8.3750056144E-001 -3.8291395684E+000  +8.1302673311E-003 +8.6525223907E+001  +5.8580852634E-003 +9.4778670182E+001  +8.6385711101E-001 -2.3038010970E+000 
13649824.781 +8.4807378548E-001 -1.2108301211E+000  +7.6423091189E-003 +1.0657059812E+002  +7.1863302282E-003 +9.9169686561E+001  +8.8310678385E-001 -3.7357773036E+000 
13774969.962 +8.8751424711E-001 -2.9399913435E+000  +6.7187191431E-003 +8.1655881698E+001  +7.9050570652E-003 +8.7238275996E+001  +9.2043343527E-001 -4.1587053260E+000 
13900115.144 +9.1140247822E-001 -3.6812780117E+000  +8.2659307745E-003 +8.6822324851E+001  +8.2493128237E-003 +8.3891375032E+001  +9.1579961092E-001 -2.1096401291E+000 
14025260.325 +9.1600015699E-001 -4.7955418780E+000  +7.9477296883E-003 +7.8692910980E+001  +7.6137575361E-003 +9.5149179456E+001  +9.0908057040E-001 -3.3905631349E+000 
14150405.507 +9.4608476772E-001 -4.2269276922E+000  +6.9230206866E-003 +9.6518188917E+001  +9.0494608938E-003 +9.9664249777E+001  +9.6847388154E-001 -4.5851041468E+000 
14275550.688 +9.5670841517E-001 -4.8721482726E+000  +8.5629724127E-003 +9.0334422788E+001  +7.8776670290E-003 +9.2465893947E+001  +9.6545784858E-001 -4.8128450888E+000 
14400695.870 +9.5336377520E-001 -5.1826122442E+000  +8.0398994659E-003 +9.3185196804E+001  +7.8432804914E-003 +8.8697111021E+001  +9.5924835940E-001 -5.0890845555E+000 
