!  2-Port S-parameters saved by WinCal
! VAR MeasName=S-Parameters (CALIBRATED_DATA) read from VNA (P5004A)
! VAR MeasDate=28/08/2024 10:45:25
! VAR NAME=S2_r5c9_RESET1_9k-100M_1
! VAR FILENAME=S2_r5c9_RESET1_9k-100M_1.S2P
! VAR DATE=28/08/2024 10:45:25
! VAR PHYS_PORTS=1,2
! VAR ObjTypeName=DATASET
! VAR IndexType=Frequency
!
# Hz S MA R 50
9000.000 +6.1780197392E-002 -1.7980156662E+002  +7.3242966381E-003 -6.3823144754E+001  +8.3106509410E-003 -9.6205269086E+001  +2.9565173990E-001 -1.4846460373E+002 
134145.181 +1.1053863680E-001 +1.6970814224E+002  +8.2300393270E-004 -5.3304238580E+001  +5.3201913157E-004 -1.5273386787E+002  +2.4301424974E-001 -1.7116338149E+002 
259290.363 +1.1058892262E-001 +1.6974513957E+002  +3.3074694368E-004 -1.6360657149E+002  +1.2791255510E-003 -4.0532461557E+001  +2.3923921058E-001 -1.6779656879E+002 
384435.544 +1.1251522254E-001 +1.7015005366E+002  +2.2963591855E-004 +6.2730811713E+001  +2.9491047308E-004 -1.4909136050E+002  +2.4472063950E-001 -1.6984965247E+002 
509580.726 +1.1270133841E-001 +1.7198278088E+002  +9.0188144660E-004 -1.0970593250E+002  +9.9048463292E-004 +1.0774510084E+002  +2.5567097194E-001 -1.6567866859E+002 
634725.907 +1.1485641438E-001 +1.7325186807E+002  +5.9842307757E-004 +6.7367096213E+001  +1.3157828480E-003 +1.6999666079E+002  +2.5260230610E-001 -1.6747857448E+002 
759871.089 +1.2005118285E-001 +1.7116027456E+002  +1.8138307352E-004 -2.6455564202E+001  +1.0189436943E-003 -3.6912210981E+001  +2.4075703153E-001 -1.6651091736E+002 
885016.270 +1.1953508890E-001 +1.6903177729E+002  +2.1439807841E-004 +1.6326714720E+002  +1.1550142049E-004 -7.8284524291E+001  +2.5158611501E-001 -1.6701712884E+002 
1010161.452 +1.1335349089E-001 +1.6919527016E+002  +9.6599105411E-004 -1.4317341840E+002  +1.1807414422E-003 +1.7193721905E+002  +1.9177675153E-001 -1.6651459620E+002 
1135306.633 +1.1703101126E-001 +1.6982153133E+002  +1.8241131543E-003 +1.5313192732E+002  +1.8746951252E-003 -7.2664468760E+001  +1.6688349905E-001 -1.6382716798E+002 
1260451.815 +1.2203033760E-001 +1.7371118802E+002  +4.7593056327E-004 -8.6626463237E+001  +1.0048481754E-003 +1.2929091027E+002  +2.4595477373E-001 -1.5140056917E+002 
1385596.996 +1.2380138998E-001 +1.7207204412E+002  +1.0913011662E-003 -9.0525073694E+001  +5.2414152504E-004 +1.7688228229E+002  +2.6910604349E-001 -1.5181838576E+002 
1510742.178 +1.2709369144E-001 +1.7184554929E+002  +2.8169365453E-004 +3.9439444150E+001  +7.1549498802E-004 +1.6439054758E+002  +2.4190899186E-001 -1.5648369146E+002 
1635887.359 +1.2634721151E-001 +1.7094674194E+002  +1.1610463423E-003 -1.1851323350E+002  +3.9995206988E-004 +4.1505559557E+001  +2.5557045355E-001 -1.5877050048E+002 
1761032.541 +1.2991957619E-001 +1.6977244412E+002  +2.1163469652E-003 +1.6867762547E+002  +1.6239929945E-003 -4.4164766918E+001  +2.1665253474E-001 -1.5791497485E+002 
1886177.722 +1.2826540007E-001 +1.6869337070E+002  +1.2996837948E-003 -5.3844725432E+000  +1.6883357926E-003 -7.0228665297E+001  +2.0283244402E-001 -1.5488469251E+002 
2011322.904 +1.2994884365E-001 +1.6789191241E+002  +1.2150665880E-003 +1.5269611730E+002  +3.6811642737E-003 +1.6158563873E+002  +1.5997574461E-001 -1.6857367854E+002 
2136468.085 +1.3169833719E-001 +1.6642865813E+002  +1.6095175551E-003 -8.4883863732E+001  +1.1990573852E-003 +9.5630674800E+001  +1.3435552712E-001 -1.6117188813E+002 
2261613.267 +1.3014933819E-001 +1.6808362849E+002  +2.6879222079E-003 +7.3721062271E+001  +1.6448701445E-003 -2.9751274081E+001  +1.7522714465E-001 -1.5970596532E+002 
2386758.448 +1.4245922088E-001 +1.6365351558E+002  +4.4864885405E-003 +4.0671599516E+001  +3.0378482059E-003 +1.0410895845E+001  +1.9462591732E-001 +1.7276775398E+002 
2511903.630 +1.3409799542E-001 +1.6464331601E+002  +7.8531219099E-003 +8.0764092400E+001  +7.6742409644E-003 -1.9410568100E+001  +9.3879487996E-002 +1.3630969672E+002 
2637048.811 +8.9182856649E-002 +1.7001096563E+002  +4.3621947409E-003 +1.0871951312E+002  +7.6794592325E-003 -1.0642085672E+002  +3.1459440695E-001 +1.6002442624E+002 
2762193.992 +1.2524111772E-001 +1.6618787786E+002  +6.8004880147E-002 -4.3341114308E+001  +9.3527920523E-002 -1.8045927813E+001  +2.6910361455E+000 -4.7351757012E+001 
2887339.174 +1.1257817589E-001 +1.6378701025E+002  +2.4229995524E-002 -2.2721742423E+001  +1.9833996696E-002 +1.0701300678E+002  +6.9670173356E-001 -3.1552552447E+000 
3012484.355 +1.1783186326E-001 +1.7106161402E+002  +8.2474001072E-003 -8.1425015093E+001  +1.2196360348E-002 -1.5700535000E+002  +4.8680082703E-001 -1.0079553336E+002 
3137629.537 +7.8085281990E-002 +1.5189754978E+002  +2.6595789848E-002 +9.6777660939E+001  +1.7141535169E-002 -1.5796814170E+001  +8.5024827353E-002 -6.2466898800E+001 
3262774.718 +1.2829752318E-001 +1.6263837692E+002  +7.5775422951E-004 -6.9295365141E+001  +1.0144915431E-002 +4.0876102255E+001  +5.5523036935E-002 -6.7568815601E+001 
3387919.900 +1.3342868373E-001 +1.6285095043E+002  +1.0001930900E-002 -7.3166555607E+001  +1.5396034675E-002 -6.7781543826E+001  +3.0878383193E-001 +8.6246429118E+001 
3513065.081 +1.2827334420E-001 +1.4969809010E+002  +5.7968066019E-003 -1.2199313705E+002  +1.3291206314E-002 -3.4555729429E+001  +2.8901375986E-001 +3.2619260488E+001 
3638210.263 +2.0813349782E-001 +1.3637005998E+002  +1.7561796626E-002 +3.1090007833E+001  +1.7288817139E-002 -4.7622535615E+001  +4.7006179913E-001 +1.2597895310E+002 
3763355.444 +1.7666638389E-001 +1.4575715219E+002  +5.3819398711E-003 -3.9196376252E+001  +2.1680330362E-002 +1.7281637696E+002  +8.1771739676E-001 +1.1693872905E+002 
3888500.626 +1.9104032903E-001 +1.5096731539E+002  +5.2381243212E-003 +1.5608855700E+002  +5.3464587619E-003 +6.1600399259E+001  +4.0811142174E-001 +1.5097134440E+002 
4013645.807 +1.7936740807E-001 +1.5012112730E+002  +2.9215963855E-003 +1.9928750944E+001  +5.8841339441E-003 -2.6451958645E+001  +2.6866065792E-001 +1.6349953578E+002 
4138790.989 +1.9589361205E-001 +1.4308028462E+002  +2.9977665165E-003 +8.5924882113E+001  +1.9444069471E-003 -1.0706491799E+002  +1.5491152716E-001 +1.4178948981E+002 
4263936.170 +1.9970981183E-001 +1.4170714487E+002  +4.8389426874E-003 -1.6570498531E+002  +2.2830294212E-003 -7.2450079870E+001  +7.9050784345E-001 +9.1142762419E+001 
4389081.352 +2.3152317927E-001 +1.3649917809E+002  +1.2144860113E-002 +1.3828295201E+002  +1.0005219758E-002 -1.3980148538E+002  +4.4976781007E-001 +1.1933092152E+002 
4514226.533 +2.1901433474E-001 +1.3793323003E+002  +5.5511775388E-002 -2.2179383492E+001  +6.7186955138E-002 -8.1970469716E+001  +4.4535473799E+000 +1.5998909758E+002 
4639371.715 +2.9446848692E-001 +1.4160324115E+002  +7.2320938968E-003 +1.1968520347E+002  +1.5361729731E-002 +9.6739948705E+001  +1.4316078498E+000 +1.4180870105E+002 
4764516.896 +3.5061562075E-001 +1.3190806487E+002  +2.0437155480E-002 +1.0093416904E+002  +2.1696620947E-002 -5.9330149655E+001  +1.5413783728E+000 +1.7955787934E+002 
4889662.078 +5.4683727291E-001 +1.3722175244E+002  +3.5427258487E-002 +5.2351800988E+001  +2.6011057374E-002 +1.6724390451E+002  +2.3205476279E+000 -1.3424616303E+002 
5014807.259 +3.3332136921E-001 +1.1949234506E+002  +9.3727036257E-002 -1.7368173467E+002  +3.9070714666E-002 -1.1957176794E+002  +7.4816271651E+000 +9.1550725002E+001 
5139952.441 +3.3992042020E-001 +1.3328708639E+002  +3.8178543220E-002 -7.4921114977E+001  +8.3979735889E-003 -1.0106763086E+002  +4.2718609020E+000 +1.7200989639E+002 
5265097.622 +4.7285691033E-001 +1.3146933457E+002  +4.9144915271E-002 -1.2353750840E+002  +3.8416493718E-002 -1.3039087634E+002  +3.5817777451E+000 +1.4919007190E+002 
5390242.804 +3.8753725585E-001 +1.3063009757E+002  +2.0117629714E-002 -1.2909043519E+001  +7.1829151968E-002 -3.4131259180E+001  +5.1451832389E+000 +8.9435164280E+001 
5515387.985 +4.4887169100E-001 +1.3210203143E+002  +2.6296341274E-002 -1.0455465935E+002  +3.3781720738E-003 -1.0993957862E+002  +1.3787013891E+000 +1.2075041133E+002 
5640533.166 +4.4771782708E-001 +1.3097478509E+002  +1.2658784287E-002 -7.5168665777E+001  +1.5349920035E-002 +1.2058769143E+002  +2.1849074543E+000 +1.1340859094E+002 
5765678.348 +4.6590858841E-001 +1.1741277554E+002  +9.6964681627E-003 +1.5395582594E+000  +2.7846775629E-002 -1.6761926311E+002  +2.3218032534E+000 +5.4534160435E+001 
5890823.529 +5.6141932015E-001 +1.2346812918E+002  +9.7502789672E-003 +1.6964367366E+002  +2.3433241665E-002 +9.3677204918E+001  +1.5014954619E+000 +7.6482836327E+001 
6015968.711 +6.1639277591E-001 +1.0495321132E+002  +2.3659512025E-002 +1.7312024851E+000  +1.3611628843E-002 -1.5940027514E+002  +1.8715656416E+000 +2.1914866775E+001 
6141113.892 +7.4498148587E-001 +1.2193100287E+002  +2.4151457126E-002 +1.2948374188E+002  +1.7666608986E-002 +1.6269415551E+002  +2.3259605657E+000 +3.4414695909E+001 
6266259.074 +9.2337544929E-001 +1.1272679176E+002  +2.9225132416E-002 +7.5317905390E+001  +3.0717370392E-003 +1.6578364524E+002  +1.7379391947E+000 +2.6364355365E+001 
6391404.255 +1.1917763903E+000 +9.8385973760E+001  +1.0874763781E-002 +1.4745304965E+002  +6.8962369260E-003 +5.2796631359E+001  +1.8169473087E+000 +6.5808944327E+000 
6516549.437 +1.1239479958E+000 +8.4336135050E+001  +1.3427310457E-002 -8.7807056694E+001  +3.5478984423E-002 +1.5243409247E+002  +1.3209072973E+000 +1.5807427918E+001 
6641694.618 +1.7349759780E+000 +6.2710139941E+001  +2.7107675775E-002 +1.0287862927E+002  +8.6719744319E-003 -8.6613736746E+001  +1.4470729635E+000 +1.4866209183E+000 
6766839.800 +2.0566535263E+000 +5.9564128446E+001  +5.4062316397E-002 +1.0398474808E+002  +5.6221494255E-004 +1.2415276118E+002  +1.5059752421E+000 -1.4667835593E+001 
6891984.981 +1.6609709690E+000 +4.2086211426E+001  +2.3617704768E-002 -1.7631934528E+002  +1.6650026515E-003 -7.8892976969E+001  +1.3582354551E+000 -7.4866997053E+000 
7017130.163 +1.3215245858E+000 +1.9918269481E+001  +1.1060411498E-002 -8.0885355834E+001  +1.9452612731E-002 +7.9223181004E+001  +1.3130783134E+000 -8.5522440799E+000 
7142275.344 +1.8308921139E+000 +1.6542785975E+001  +8.3845746396E-003 -1.5163123400E+001  +1.9937654563E-002 +1.0641490877E+002  +1.2677849553E+000 -1.3187748305E+001 
7267420.526 +1.4425922420E+000 +1.6287781474E+001  +1.0520952610E-002 +1.2071217136E+001  +5.0188373149E-003 +9.7619601778E+001  +1.2995192491E+000 -9.1855230751E+000 
7392565.707 +1.4080507714E+000 -6.9632128612E+000  +8.6999072919E-003 +8.8275209919E+001  +7.6126787272E-003 +1.4122190051E+002  +1.3567379348E+000 -1.0214734052E+001 
7517710.889 +1.1897071390E+000 +5.4818172924E+000  +6.3753456675E-003 +1.5870017806E+002  +7.0600899264E-003 +6.6271029121E+001  +1.3219929029E+000 -7.4876198234E+000 
7642856.070 +9.5540519253E-001 +4.6067607813E+000  +2.0938566422E-003 +3.7187311047E+001  +8.5220419540E-003 +4.7315254658E+001  +1.1527972061E+000 -6.3711835453E-001 
7768001.252 +8.9425119429E-001 +3.1700425155E+000  +6.8943225816E-003 +5.5425958806E+001  +3.5048329751E-003 +8.4415296197E+001  +9.8419955250E-001 +3.7384086863E-001 
7893146.433 +9.0118514602E-001 -1.3135037225E+000  +1.1079641302E-002 +7.0459947921E+001  +8.1073604377E-003 +3.3401466119E+001  +9.0135035508E-001 +1.6646038271E+000 
8018291.615 +8.3943574738E-001 +9.5432744949E+000  +1.6129379050E-003 -1.7323761402E+002  +7.1589147308E-003 +1.3017456797E+002  +8.0333837842E-001 +1.3518880789E+000 
8143436.796 +7.7968334807E-001 +1.0780814385E+001  +6.8137061498E-003 +7.8183231256E+001  +5.3290499291E-003 +8.2608752686E+001  +7.5432966006E-001 -2.1135584357E+000 
8268581.977 +7.3502828763E-001 +2.8552815564E+000  +7.8812062004E-003 +1.4655213032E+002  +4.9092135538E-003 +3.4165944763E+001  +7.8258883743E-001 +3.3603664868E+000 
8393727.159 +7.3067734184E-001 +1.1657159150E+001  +1.1375608081E-003 +1.3508846399E+002  +5.6074357412E-003 +3.0918448248E+001  +6.7851776157E-001 -1.0310292255E+000 
8518872.340 +6.5523772295E-001 +6.4955233775E+000  +5.1517361859E-003 +5.6219723853E+001  +4.6921789502E-003 -1.0854012081E+002  +7.3984057622E-001 -2.8816229617E+000 
8644017.522 +6.8119114451E-001 +9.0262504023E+000  +4.2242354968E-003 +6.3772469967E+001  +3.1673732015E-003 +1.1117089029E+002  +7.4778622627E-001 +1.3027901265E+000 
8769162.703 +6.0493790021E-001 +5.5854528703E+000  +4.3467487346E-003 +7.9184422151E+001  +6.8213044413E-003 +1.3320002176E+002  +7.2290120437E-001 +4.8614334302E+000 
8894307.885 +6.1855005159E-001 +9.1269798529E+000  +7.3062556974E-003 +9.9473387068E+001  +3.0378144488E-003 +9.4390318265E+001  +6.3441299271E-001 -3.6120621328E+000 
9019453.066 +6.1452970871E-001 +8.7273470552E+000  +8.1703130440E-003 +4.1745078387E+001  +3.7247160410E-003 +6.6195163370E+001  +7.0717487904E-001 -3.2140927013E+000 
9144598.248 +6.0788371479E-001 +8.1294003087E+000  +5.3627390745E-003 +5.9167669745E+001  +2.2643602278E-003 +1.2668927579E+002  +6.1634261406E-001 -3.3730874544E+000 
9269743.429 +5.5188458054E-001 +7.1568751647E+000  +3.8148118207E-003 +7.0602220420E+001  +6.3260638839E-003 +1.4226365084E+002  +5.6980966900E-001 -1.3607380228E+000 
9394888.611 +6.2781124198E-001 +3.5697678902E+000  +1.0427177262E-003 +5.2400409551E+001  +4.7145454069E-003 +1.1485888874E+002  +6.2124387677E-001 -2.5616938214E+000 
9520033.792 +4.9817049274E-001 +6.7903697274E+000  +5.6312001299E-003 +7.8560126981E+001  +2.6010429688E-003 +1.0412771854E+002  +5.7369580847E-001 -1.8185022591E+000 
9645178.974 +5.4517054210E-001 +2.0412489819E+000  +5.4850070625E-003 +1.1177893076E+002  +5.6019422047E-003 +8.6617933837E+001  +5.7487262858E-001 -3.1930541552E+000 
9770324.155 +5.3427930979E-001 +2.3603956745E+000  +6.3991152887E-003 +9.1268445468E+001  +4.7580498953E-003 +3.7478191744E+001  +5.8370478663E-001 -5.7708266430E+000 
9895469.337 +5.7411420135E-001 -2.0331979272E+000  +3.1654800964E-003 +2.7881627137E+001  +6.9026416779E-003 +5.8643143143E+001  +5.8448358853E-001 -6.3325294820E+000 
10020614.518 +5.4575598580E-001 +5.2723056714E+000  +6.3937615356E-003 +9.6832321090E+001  +4.5671932190E-003 +1.2151442540E+002  +5.8889478728E-001 -3.1345867018E+000 
10145759.700 +5.8127713746E-001 +3.2655408858E+000  +5.1584237581E-003 +5.7957668946E+001  +1.5856008071E-003 +1.2817819795E+002  +6.0926043515E-001 -8.9846477066E+000 
10270904.881 +5.6854311678E-001 +7.6326528682E+000  +5.0471619459E-003 +8.8001650816E+001  +7.0707222668E-003 +7.9183470670E+001  +5.8861276089E-001 -3.0008531756E+000 
10396050.063 +5.4193281401E-001 +7.0933642849E+000  +5.2896578766E-003 +5.7597674465E+001  +3.1053375973E-003 +8.6463971644E+001  +6.1628390313E-001 -5.0297396810E+000 
10521195.244 +5.7695293661E-001 +6.2504017941E+000  +4.8601349216E-003 +9.5636132914E+001  +3.7090063062E-003 +7.0251722947E+001  +5.8214684960E-001 +9.5050064140E-002 
10646340.426 +6.0474999237E-001 +4.8096896269E+000  +6.5897776323E-003 +4.7439130515E+001  +3.0276271951E-003 +9.8475428636E+001  +5.3236588928E-001 +9.4837974191E-001 
10771485.607 +5.8172406207E-001 +7.5275907929E+000  +4.3788306473E-003 +1.1525276101E+002  +5.0721988866E-003 +1.1181711247E+002  +5.9114857735E-001 -2.9540972814E+000 
10896630.788 +5.8246074879E-001 +2.8410226882E+000  +4.8243376826E-003 +5.0342328052E+001  +8.1809127202E-003 +9.3808634340E+001  +6.3897586651E-001 +1.8459243063E+000 
11021775.970 +6.1507396468E-001 +7.8396092220E+000  +6.3294207540E-003 +6.1413024821E+001  +5.8521537514E-003 +6.3688533529E+001  +6.1978588365E-001 +4.7965600087E-002 
11146921.151 +6.0209832323E-001 +4.2681215346E+000  +5.7753279088E-003 +1.0586708114E+002  +6.3252317803E-003 +8.9655299442E+001  +6.1353726869E-001 +3.1879486380E+000 
11272066.333 +6.0893467835E-001 +8.5116093757E+000  +5.1966726684E-003 +8.1773166053E+001  +3.6936179234E-003 +7.0605826362E+001  +6.1875998367E-001 +1.2034194041E-001 
11397211.514 +6.3563189945E-001 +5.9130425489E+000  +3.8932871267E-003 +6.2513323669E+001  +4.6256588136E-003 +1.0248385153E+002  +6.1679829134E-001 +2.5227459124E+000 
11522356.696 +5.9456980403E-001 +4.2237224072E+000  +5.7477055860E-003 +7.0715608533E+001  +3.1944786121E-003 +9.8604318551E+001  +6.5904350519E-001 +6.3974679506E-001 
11647501.877 +6.4962926010E-001 +5.9163212406E+000  +6.1745008042E-003 +5.5127921717E+001  +4.1312471844E-003 +8.4854508574E+001  +6.6210772995E-001 +3.3053504980E+000 
11772647.059 +6.4510784362E-001 +3.5145679647E+000  +5.1680328823E-003 +5.1522491662E+001  +5.5164525523E-003 +8.0893750976E+001  +6.9372661966E-001 +3.4446183335E+000 
11897792.240 +6.9240419059E-001 +4.8083957273E+000  +4.9207517906E-003 +8.8220360635E+001  +6.3987815120E-003 +9.8220992661E+001  +6.7749751714E-001 +1.6755819936E+000 
12022937.422 +6.8855504516E-001 +4.5416338509E+000  +2.0927877904E-003 +8.4421675620E+001  +6.6773373347E-003 +9.8470375408E+001  +6.8681212815E-001 -1.1166869595E+000 
12148082.603 +6.6657119950E-001 +4.9023792702E+000  +5.4725140033E-003 +9.5821897150E+001  +6.3297937735E-003 +9.0575470006E+001  +7.0986202179E-001 -1.0090684697E-001 
12273227.785 +7.2711318608E-001 +3.3078975170E+000  +5.6618321272E-003 +7.3102746468E+001  +7.1782143855E-003 +9.5995606756E+001  +7.2917353964E-001 +2.3965433834E+000 
12398372.966 +7.0620042610E-001 +1.9959163936E+000  +6.4716512248E-003 +7.6281933880E+001  +7.4150727100E-003 +8.4462078170E+001  +7.0444391192E-001 +3.5485618119E-001 
12523518.148 +7.1571373881E-001 +1.2318195661E+000  +5.2740102949E-003 +8.4919810418E+001  +6.0776373149E-003 +8.8035273180E+001  +7.4352259118E-001 +2.6667339330E-001 
12648663.329 +7.3905736093E-001 +2.6021119217E+000  +6.6289365212E-003 +7.6663069218E+001  +4.9830572553E-003 +1.1100943834E+002  +7.6497175186E-001 -9.6795882769E-002 
12773808.511 +7.5345669496E-001 -1.9165211267E-001  +5.7952559153E-003 +8.0940919538E+001  +6.4213321437E-003 +9.7311322515E+001  +7.8216193196E-001 +1.8401703074E-001 
12898953.692 +7.9686647295E-001 +1.6430859481E+000  +5.0903336635E-003 +7.3619545336E+001  +6.5739272195E-003 +8.6650178803E+001  +7.7935502181E-001 -1.2008133594E+000 
13024098.874 +7.7078949925E-001 +2.5250454120E+000  +6.3227549129E-003 +9.7329445006E+001  +5.8241840459E-003 +8.9999107856E+001  +8.0587265005E-001 -1.2014748970E+000 
13149244.055 +8.3471798907E-001 +4.3736075228E-001  +7.8476955967E-003 +8.3060242783E+001  +6.5738455173E-003 +6.9589227435E+001  +8.2516760469E-001 -2.6212341819E+000 
13274389.237 +8.3290042539E-001 -6.1704630163E-001  +6.0097440341E-003 +8.6902253279E+001  +7.0518088490E-003 +8.8208969790E+001  +8.4151030257E-001 -1.2226065946E+000 
13399534.418 +8.5009823583E-001 -1.2366115811E+000  +6.8553395633E-003 +8.2439558992E+001  +6.3145723766E-003 +8.0178313220E+001  +8.4761367217E-001 -3.7107549498E+000 
13524679.599 +8.4451322154E-001 -1.1479582564E+000  +6.8176971048E-003 +8.4073919404E+001  +6.5123507796E-003 +9.3769835632E+001  +8.6537011215E-001 -2.1933016684E+000 
13649824.781 +8.8616976987E-001 -2.6610975600E+000  +7.1307110693E-003 +6.9310637096E+001  +4.3493332957E-003 +8.0591760049E+001  +8.8982062674E-001 -2.2598869785E+000 
13774969.962 +8.8849350699E-001 -3.5516227352E+000  +8.2293842830E-003 +8.8443083265E+001  +7.4466772266E-003 +9.3723573429E+001  +9.0251883644E-001 -3.1611187041E+000 
13900115.144 +9.2405313092E-001 -2.9507002641E+000  +7.7132466446E-003 +8.3920367187E+001  +6.7651716684E-003 +9.9774760677E+001  +9.1966698679E-001 -4.1582437136E+000 
14025260.325 +9.1236265103E-001 -4.6741214418E+000  +7.3449031857E-003 +7.8263484427E+001  +7.8321749382E-003 +8.0406632591E+001  +9.3489986848E-001 -4.9353655198E+000 
14150405.507 +9.4909638227E-001 -4.0821503361E+000  +6.8694654615E-003 +8.8162856110E+001  +7.7196031195E-003 +8.5732323868E+001  +9.5382912419E-001 -5.5309730117E+000 
14275550.688 +9.6013261961E-001 -2.9361435022E+000  +8.1371558370E-003 +7.6255454092E+001  +6.7333478824E-003 +8.5152592261E+001  +9.9357348244E-001 -4.1376294164E+000 
14400695.870 +9.9523115235E-001 -5.7106947168E+000  +8.2942683909E-003 +8.8928306248E+001  +6.9004033683E-003 +7.9064182816E+001  +1.0058680296E+000 -4.8842998997E+000 
