!  2-Port S-parameters saved by WinCal
! VAR NAME=S2_r2c8_pristine_9k-100M_1
! VAR DATE=27/08/2024 11:59:27
! VAR FILENAME=S2_r2c8_pristine_9k-100M_1.S2P
! VAR MeasName=S-Parameters (CALIBRATED_DATA) read from VNA (P5004A)
! VAR MeasDate=27/08/2024 11:57:58
! VAR PHYS_PORTS=1,2
! VAR ObjTypeName=DATASET
! VAR IndexType=Frequency
!
# Hz S MA R 50
9000.000 +2.4492325079E-002 -1.4103512571E+002  +4.6060195198E-002 -1.7103960870E+002  +3.1898314705E-002 -7.6126632338E+000  +3.7158824758E-001 -9.8288359935E+001 
134145.181 +1.1121482761E-001 +1.6964614007E+002  +5.7056402770E-004 -1.7988911382E+002  +4.3218303438E-004 +1.6912450522E+002  +2.4044701633E-001 -1.7059244117E+002 
259290.363 +1.1197098571E-001 +1.6971835898E+002  +1.4140169835E-004 +3.6590031373E+001  +3.8269786878E-004 -1.0093172047E+002  +2.4194909838E-001 -1.6817734003E+002 
384435.544 +1.1372580302E-001 +1.6988342188E+002  +3.9819363751E-004 -1.6716864302E+002  +4.1414530330E-004 -7.9559960259E+001  +2.4139903289E-001 -1.6915847769E+002 
509580.726 +1.1255610504E-001 +1.6980549819E+002  +1.0846757060E-003 -1.4749380277E+002  +9.5831989449E-004 -7.6301285360E+001  +2.3586891119E-001 -1.6530400328E+002 
634725.907 +1.1529268953E-001 +1.7102775278E+002  +8.8808015778E-005 +2.5949928182E+001  +1.1504981946E-003 -3.9783778896E+001  +2.2873132074E-001 -1.6793875506E+002 
759871.089 +1.1773908681E-001 +1.6993260371E+002  +7.1909701801E-004 -7.0676438856E+001  +5.0732176691E-004 +1.1323351401E+002  +2.3971350045E-001 -1.6480529167E+002 
885016.270 +1.1707825338E-001 +1.6886459223E+002  +2.1593098063E-004 -2.1703962804E+000  +5.4861302369E-004 -2.1445140675E+001  +2.3121867083E-001 -1.6585898653E+002 
1010161.452 +1.1826028190E-001 +1.7281868863E+002  +1.2599549077E-003 -5.6754743641E+001  +2.4771389046E-003 +4.8146007644E+001  +2.4643562333E-001 -1.4730631268E+002 
1135306.633 +1.1177525304E-001 +1.6931410270E+002  +1.3465827623E-003 -4.9123845695E+001  +5.9273675186E-004 +4.6769198699E+001  +1.5854603958E-001 -1.6241607853E+002 
1260451.815 +1.2146357560E-001 +1.7292666236E+002  +9.6996042422E-004 -7.1463373497E+001  +9.8004943390E-004 +5.7971015088E+001  +2.4175638999E-001 -1.6117987449E+002 
1385596.996 +1.2619249763E-001 +1.7136178238E+002  +9.0970477006E-004 -1.4813834720E+002  +7.7963871830E-004 +1.2484032241E+002  +2.6230702010E-001 -1.5574793757E+002 
1510742.178 +1.2727522186E-001 +1.7149606178E+002  +6.6482713980E-004 -1.0763993549E+002  +1.4962356684E-003 -1.6444244467E+002  +2.3670377099E-001 -1.5886490646E+002 
1635887.359 +1.2761880959E-001 +1.6949279065E+002  +4.0473521851E-004 -3.0506873549E+001  +1.3139146726E-003 +6.6046759601E+001  +2.4619142564E-001 -1.5842057243E+002 
1761032.541 +1.2651004082E-001 +1.6983656631E+002  +5.9467536134E-004 -5.1757853089E+001  +1.8318582926E-003 -4.8755425739E+001  +2.3241798569E-001 -1.6180910865E+002 
1886177.722 +1.2898950045E-001 +1.6739420067E+002  +1.1510344380E-003 +2.3099036691E+001  +3.5797875013E-004 +1.4146962004E+002  +2.0576247440E-001 -1.6634809826E+002 
2011322.904 +1.2796780127E-001 +1.6744967762E+002  +1.8743825356E-003 +1.6355385939E+002  +6.0963729383E-004 -1.6244806351E+002  +2.1158717074E-001 -1.7561910259E+002 
2136468.085 +1.2760775955E-001 +1.6426158893E+002  +6.5395364150E-003 -1.5620654130E+001  +2.3703569885E-003 +6.7732527777E+001  +1.4692568763E-001 -1.5732476322E+002 
2261613.267 +1.2717032008E-001 +1.6424175101E+002  +4.9286179137E-003 +9.5130449819E+001  +1.7690079382E-003 -1.7356720877E+002  +1.5578769007E-001 +1.6131428930E+002 
2386758.448 +1.3199655412E-001 +1.6134993297E+002  +9.7430586975E-003 -1.1447838175E+002  +7.1193090917E-003 +6.6053690802E+001  +1.2125659669E-001 +1.7086163077E+002 
2511903.630 +1.2425342934E-001 +1.6126161020E+002  +3.8350773313E-003 -1.3747888186E+001  +2.6343134097E-003 -1.2920337013E+002  +1.9965151668E-001 +1.5157040199E+002 
2637048.811 +1.2833446103E-001 +1.5260181617E+002  +7.6793040556E-003 +7.1707090218E+001  +7.4434279020E-003 +1.3766529402E+002  +3.4078398129E-001 +1.3992822177E+002 
2762193.992 +1.0011226355E-001 +1.5052557504E+002  +2.5497813677E-002 +4.9632977989E+001  +6.6572465966E-003 -9.7980692372E+001  +9.0299912706E-001 -9.3352422317E+001 
2887339.174 +8.2320452678E-002 -1.7475854523E+002  +3.6467893591E-002 -9.7088620115E+001  +1.4464858554E-002 +1.7756711729E+002  +2.4009402273E-001 -4.0456808967E+001 
3012484.355 +1.1113751720E-001 +1.7580209218E+002  +9.8463715449E-003 -6.4266433908E+001  +1.2870265208E-002 +4.9503057199E+001  +2.7660981062E-001 -9.0383659579E+001 
3137629.537 +7.3934347994E-002 +1.4748967437E+002  +2.2048831528E-002 +5.2740411374E+001  +7.2069203110E-003 +8.4058427098E+001  +4.2983206455E-001 -6.9554310460E+001 
3262774.718 +1.2747056697E-001 +1.4767985016E+002  +1.3445913471E-002 -7.1706888994E+001  +7.0576581663E-003 +2.1790439433E+001  +3.9450370771E-001 -7.6979226764E+001 
3387919.900 +1.0864770876E-001 +1.5619835121E+002  +8.0166657482E-003 -1.3719283985E+002  +1.6114012912E-002 -7.0274739365E+001  +1.9807170602E-001 -8.3117635164E+001 
3513065.081 +1.1052876113E-001 +1.5001375324E+002  +5.2088812029E-003 +1.7283492998E+002  +5.3385487523E-003 -1.7554918272E+002  +3.7641811501E-001 -7.4039594328E+001 
3638210.263 +2.0654572728E-001 +1.2774028321E+002  +1.8803659262E-002 -1.5497878483E+001  +2.2638027742E-002 +4.5313562979E+001  +9.1015121573E-001 +1.5120634963E+002 
3763355.444 +1.6393384732E-001 +1.4231858796E+002  +2.6537115844E-002 -1.1948659000E+001  +1.7993584590E-002 -1.1377992728E+002  +1.0160896629E+000 +3.5904270079E+001 
3888500.626 +1.5878344141E-001 +1.5434118034E+002  +6.6747445855E-003 -9.2880756326E+001  +7.9349481245E-003 +4.5997969734E+001  +3.6041346630E-001 +1.2336538471E+002 
4013645.807 +1.5163086273E-001 +1.4715168226E+002  +1.7669529189E-002 -1.7280567490E+002  +1.3288531355E-002 -4.2088765936E+001  +3.8331408580E-001 +7.7573952063E+001 
4138790.989 +1.8523169554E-001 +1.3666188948E+002  +1.7037364268E-002 -1.1825091208E+002  +9.1151628242E-003 +1.5781797329E+002  +8.7399796396E-001 +9.1980441676E+001 
4263936.170 +2.0835945077E-001 +1.4454431043E+002  +1.0331932096E-002 +8.9149360591E+001  +9.5477385673E-003 +6.2064869967E+001  +2.7231788910E-001 +1.0828393345E+002 
4389081.352 +2.2321708056E-001 +1.3575731883E+002  +6.6070145372E-003 -7.7599485949E+001  +4.1881539999E-002 -8.1804553720E+000  +1.3662968365E+000 +9.3778705232E+001 
4514226.533 +2.7764161167E-001 +1.2626232731E+002  +2.6791116227E-002 -1.1585865982E+002  +4.2248664778E-002 +1.7875633036E+002  +1.7216717440E+000 +6.7249000880E+001 
4639371.715 +2.9462295101E-001 +1.3402818036E+002  +5.0304649844E-003 -6.2294445941E+001  +5.8627740522E-003 +4.3389234082E+001  +7.1574970909E-001 +7.2819644574E+001 
4764516.896 +3.1946002120E-001 +1.0792321007E+002  +3.8899224790E-002 -8.0193830892E+001  +3.9764706452E-002 +1.5005288342E+002  +2.4720225058E+000 +6.7221789229E+001 
4889662.078 +3.6996602868E-001 +1.2463642772E+002  +4.9046178995E-002 -1.0007988977E+002  +1.2925465540E-002 +9.8731849040E+001  +2.3741321097E+000 -2.9779459622E+001 
5014807.259 +4.0827295511E-001 +1.3664369770E+002  +1.6476231847E-002 +1.0636780356E+002  +8.8779146988E-002 -9.7072356894E+001  +9.5195657845E+000 +1.7305285586E+002 
5139952.441 +3.7007728886E-001 +1.3361186788E+002  +1.5571175669E-002 +1.0392945621E+002  +2.4194442780E-002 -1.7772327377E+002  +3.5920511598E+000 +5.0961479171E+001 
5265097.622 +4.7828643651E-001 +1.3236964446E+002  +2.5599184309E-002 +1.4175769887E+002  +1.5041548842E-002 -1.4661427817E+002  +2.9774101274E+000 +1.4024737200E+002 
5390242.804 +4.0750138258E-001 +1.1890214546E+002  +2.5594329870E-002 +1.5019688746E+002  +4.3573352632E-002 -9.6094548643E+001  +2.1117109511E+000 +5.9182781715E+001 
5515387.985 +4.1816046717E-001 +1.3558891775E+002  +2.4067616746E-003 +4.3084200960E+001  +1.0633789453E-002 -1.2978697407E+002  +2.8977894298E+000 +5.8256626805E+001 
5640533.166 +4.2241484856E-001 +1.2781216992E+002  +5.6976477902E-003 -1.0946935859E+002  +1.1016650110E-002 +1.7645596911E+002  +1.7672195524E+000 +9.1519959712E+001 
5765678.348 +5.2522349938E-001 +1.2105559343E+002  +1.5220228953E-002 +6.9468033326E+001  +1.7238299088E-002 -1.6991161098E+002  +2.6970754599E+000 +1.0004848571E+002 
5890823.529 +5.3845740267E-001 +1.2620119844E+002  +2.1849960828E-002 -1.7974257713E+002  +1.7237639959E-002 +1.1797446013E+002  +1.8163500276E+000 +9.5715344761E+001 
6015968.711 +6.6467792726E-001 +1.1582314498E+002  +2.3020835656E-002 -1.1702005860E+002  +3.2899217960E-002 +3.2513247959E+001  +4.6169814049E+000 +6.8967008828E+001 
6141113.892 +6.6987085346E-001 +1.0622924636E+002  +2.5501678064E-002 -6.1249819760E+001  +2.1659264135E-002 +7.4924386002E+001  +4.0243979047E+000 +5.8133156841E+001 
6266259.074 +7.6446996129E-001 +1.0271664379E+002  +2.0630556680E-002 -1.5923563916E+002  +3.2148331492E-002 -1.6833610103E+002  +1.6267605265E+000 +2.4128253010E+001 
6391404.255 +9.9761458314E-001 +8.9648285162E+001  +2.7078338408E-002 +9.9568270924E+001  +1.2002318615E-002 +1.3988947840E+002  +2.1714178243E+000 +1.5140384397E+001 
6516549.437 +1.8531223175E+000 +8.5624986270E+001  +2.6165533534E-002 -1.4192106084E+002  +3.8704333883E-002 +1.1442360568E+002  +1.5638103193E+000 +5.3972497159E+000 
6641694.618 +1.6705421707E+000 +5.0894279205E+001  +3.5826188560E-002 +1.4960539771E+002  +4.3386109009E-002 +6.7647257308E+001  +1.3688603059E+000 +5.3620257664E+000 
6766839.800 +1.5057504309E+000 +5.3280835224E+001  +1.8980039291E-002 +6.2082780347E+001  +7.1647180371E-003 -1.2573854144E+002  +1.3727704915E+000 -2.6167259939E+000 
6891984.981 +1.8991198553E+000 +4.5692312764E+001  +1.6902346023E-002 +1.4819338063E+002  +1.0940662692E-002 +9.8429410154E+001  +1.4773691105E+000 -1.1625011171E+001 
7017130.163 +2.0089750894E+000 +1.4831597077E+001  +2.5171057801E-002 +6.8562927720E+001  +1.5779761206E-002 +1.1897787025E+002  +1.2876229541E+000 -1.2822757829E+001 
7142275.344 +1.7848468385E+000 +1.0877969035E+001  +2.3037845877E-002 +1.1497722702E+002  +1.9194951827E-002 +1.2686219220E+002  +1.2967409707E+000 -1.0763876403E+001 
7267420.526 +1.6166554569E+000 -1.6367226202E+000  +1.1946436492E-002 +5.6383381654E+001  +1.9215870393E-002 +1.0920018442E+002  +1.2191621663E+000 -9.5345043979E+000 
7392565.707 +1.3037250451E+000 -4.4963896985E+000  +8.2285597092E-003 +9.0825364453E+001  +5.7089429529E-003 +1.7035582381E+002  +1.3198363973E+000 -8.5162055469E+000 
7517710.889 +1.1974595442E+000 +1.2919848460E+000  +6.9569513994E-003 -1.6281494917E+002  +6.0350979828E-003 +1.0154669236E+002  +1.2406564232E+000 -8.8470411823E+000 
7642856.070 +1.1473250215E+000 +4.1699922729E+000  +4.1677185726E-003 +3.9791604632E+001  +7.2217564837E-003 +7.9739925833E+001  +1.0677063873E+000 +1.7409515614E+000 
7768001.252 +9.9841505183E-001 +6.7493976930E+000  +6.0051282227E-003 +1.1448248666E+002  +6.8793138356E-003 +1.7992705926E+002  +1.0177201715E+000 -1.8701979359E+000 
7893146.433 +8.7384773355E-001 +1.0459839650E+001  +5.0884941132E-003 +2.8309567538E+001  +4.1016912305E-003 -1.1013293402E+002  +8.7118042341E-001 -4.0709295842E+000 
8018291.615 +8.5987086808E-001 +2.4943212451E+000  +3.5131077945E-003 -6.8544888318E+001  +5.5565481706E-003 +1.0953527450E+002  +8.0145307982E-001 +6.2588809154E+000 
8143436.796 +8.8839088524E-001 +1.0127187386E+001  +1.0058576931E-003 +1.5860989461E+002  +4.7448695149E-003 +1.3158026561E+002  +7.5266722717E-001 +7.4051292082E-001 
8268581.977 +7.5649382090E-001 +8.1175992081E+000  +4.0557989505E-003 +1.1659806838E+002  +6.6687628204E-003 +1.2354701577E+002  +7.4289242311E-001 -2.0444392168E+000 
8393727.159 +7.0517423541E-001 -2.4982648509E-001  +6.6195300802E-003 +7.6129280264E+001  +7.4839093400E-003 +4.2792428168E+001  +7.5852259168E-001 +2.5157558145E+000 
8518872.340 +6.8313265536E-001 +4.3440962271E+000  +2.7842772862E-003 -4.5691589838E+000  +4.5761369584E-003 +5.9355346533E+001  +6.9156928736E-001 -4.1316302798E+000 
8644017.522 +6.7684976171E-001 +8.2405138469E+000  +4.1839048133E-003 +1.2564193036E+000  +1.7861795249E-003 +2.4569993304E+001  +6.2334355860E-001 -3.2265936555E+000 
8769162.703 +6.8033340063E-001 +6.2495786420E+000  +3.0532775424E-003 +6.8550385780E+001  +7.8593900705E-003 +1.0651150385E+002  +7.0823252369E-001 +2.6763873087E+000 
8894307.885 +6.3469348457E-001 +4.2476457559E+000  +3.3653377764E-003 +5.4221601444E+001  +6.4774838203E-003 +1.2512540969E+002  +6.6212255963E-001 +4.0106535616E+000 
9019453.066 +6.2032364333E-001 +7.0901006668E+000  +3.3571346247E-003 +9.2391129998E+001  +5.6598347559E-003 +1.1691928160E+002  +6.6515278167E-001 -2.0108394570E+000 
9144598.248 +6.2293419558E-001 +3.8990097478E+000  +5.1404534722E-003 +9.1043222189E+001  +4.5520738526E-003 +7.7446718837E+001  +6.3725728000E-001 -1.1201211524E+000 
9269743.429 +5.6947694387E-001 +3.4604960026E+000  +4.7335098108E-003 +8.2926588630E+001  +4.1877835867E-003 +7.4466556819E+001  +6.3901086981E-001 -1.7988613570E+000 
9394888.611 +5.7794359225E-001 +6.1483308887E+000  +4.0771735567E-003 +1.1724536873E+002  +3.3486594944E-003 +8.5508796349E+001  +5.9255853758E-001 -2.1184490668E+000 
9520033.792 +5.3727934414E-001 +7.7347762222E+000  +5.8409367606E-003 +8.2909716661E+001  +4.2589838187E-003 +1.2842723491E+002  +5.9294388535E-001 -1.3093924928E+000 
9645178.974 +5.9585047512E-001 -4.0038300068E+000  +7.0490072331E-003 +5.8454555586E+001  +2.5736466685E-003 -1.5786797964E+002  +5.7537668657E-001 -1.2120811426E+000 
9770324.155 +5.4860427237E-001 -7.2258148311E+000  +5.3798740696E-003 +1.0501136103E+002  +1.6567468074E-003 +1.1050588153E+002  +5.8824807194E-001 -3.6947656001E+000 
9895469.337 +5.9403698905E-001 -6.3852140247E-001  +2.0105453897E-003 +8.2496079987E+001  +6.2604694764E-003 +1.2466718060E+002  +5.9694309100E-001 -3.0612364763E+000 
10020614.518 +5.5264895317E-001 +1.7478446845E+000  +5.7029833507E-003 +8.4596491994E+001  +3.9796650675E-003 +9.2996064380E+001  +6.0796416706E-001 -2.4869673939E+000 
10145759.700 +5.3809647448E-001 +2.8276504327E+000  +4.3865837682E-003 +1.2235428574E+002  +3.1477092871E-003 +1.1289591142E+002  +5.9207341916E-001 -4.0755683186E+000 
10270904.881 +5.8768138199E-001 +1.1880361327E+000  +4.3110548744E-003 +7.2188674247E+001  +7.4461075337E-003 +9.2195319852E+001  +5.7421345610E-001 -7.8750871658E+000 
10396050.063 +5.8112336716E-001 +3.0003055553E+000  +3.3286185711E-003 +1.0837577975E+002  +3.0111988388E-003 +1.4070485553E+002  +6.1091079201E-001 +2.6340969223E-001 
10521195.244 +5.8720995289E-001 +6.5006040188E+000  +3.8340652277E-003 +8.5336319246E+001  +1.7884120062E-003 +1.1838543762E+002  +5.9024722434E-001 +8.6984372455E-001 
10646340.426 +5.4345542736E-001 +3.9945828976E+000  +4.6519178083E-003 +5.0780181363E+001  +3.7905146460E-003 +5.7763270089E+001  +6.1282244145E-001 -1.4283051252E+000 
10771485.607 +5.7047804343E-001 +4.8673772296E+000  +4.1003183799E-003 +7.8785275035E+001  +4.5464055766E-003 +9.5741536104E+001  +5.9520483264E-001 +3.7962552878E+000 
10896630.788 +6.1135324780E-001 +4.1018824297E+000  +5.9955474653E-003 +9.5625856210E+001  +5.8551727597E-003 +1.0710717498E+002  +5.8140637488E-001 +1.1983546446E-001 
11021775.970 +5.6651509835E-001 +6.8029278261E+000  +5.0057236994E-003 +8.7852078419E+001  +5.9795575662E-003 +7.7285210379E+001  +6.3659033872E-001 +3.1969852018E+000 
11146921.151 +5.9168784686E-001 +1.1062204648E+001  +2.8179228329E-003 +6.6784903811E+001  +3.5615545988E-003 +8.2691110262E+001  +6.1176991412E-001 -8.9206543593E-001 
11272066.333 +6.0653776896E-001 +5.0257330717E+000  +5.9630127615E-003 +8.0652233167E+001  +4.3592345240E-003 +1.0759039658E+002  +6.1389069990E-001 +1.6589448196E+000 
11397211.514 +6.0245632789E-001 +6.1138798925E+000  +6.4146030807E-003 +8.3823797693E+001  +6.5214342400E-003 +9.6486734990E+001  +6.3474000733E-001 -5.3842576716E-001 
11522356.696 +6.4730207724E-001 +5.0710159494E+000  +5.6399435591E-003 +1.1836881120E+002  +6.2491936977E-003 +1.1718260742E+002  +6.3948974093E-001 -7.9835638461E-001 
11647501.877 +6.3701700775E-001 +6.5357975429E+000  +3.1625602343E-003 +8.9138398093E+001  +4.5122263469E-003 +8.8288999444E+001  +6.5807999314E-001 -4.4042792996E-001 
11772647.059 +6.3924107209E-001 +5.6218514761E+000  +4.6749505232E-003 +7.8332022211E+001  +5.8701167319E-003 +1.0454602776E+002  +6.3704855730E-001 +6.9586598291E-001 
11897792.240 +6.5237486197E-001 +5.3598855254E+000  +3.6623353700E-003 +7.7052523960E+001  +3.2815075249E-003 +1.0003940493E+002  +6.6785544518E-001 -2.8545596599E-001 
12022937.422 +6.7776415744E-001 +4.2219995748E+000  +5.9737587197E-003 +6.8267181564E+001  +6.2302214031E-003 +1.1801363841E+002  +6.7428364206E-001 +8.8691035218E-001 
12148082.603 +6.7686713220E-001 +5.2269041477E+000  +5.3098669566E-003 +7.8025383448E+001  +4.4813993282E-003 +1.1460668435E+002  +7.0221440255E-001 +9.2452597474E-001 
12273227.785 +6.9332713799E-001 +3.1457109557E+000  +7.9181056858E-003 +9.0737464178E+001  +6.5404120102E-003 +9.7169387521E+001  +7.2208130755E-001 +4.3805433858E-001 
12398372.966 +7.1064553416E-001 +4.0440305158E+000  +6.4283818272E-003 +9.9223489235E+001  +4.8707470250E-003 +9.9519927075E+001  +7.1721442832E-001 -7.5163437658E-001 
12523518.148 +7.2266971298E-001 +2.6820118384E+000  +8.3567494746E-003 +1.1245455659E+002  +5.5203000140E-003 +9.7327169815E+001  +7.2051870644E-001 -1.7189751268E+000 
12648663.329 +7.5014593441E-001 +3.3170025011E+000  +5.7255781661E-003 +8.2989605134E+001  +6.3814548188E-003 +9.4363586681E+001  +7.4075951959E-001 -2.5642586757E-001 
12773808.511 +7.7407936757E-001 +1.6090370017E+000  +4.5932623597E-003 +9.6123325717E+001  +4.9419680153E-003 +1.0375342366E+002  +7.4959277492E-001 -3.9897198661E-001 
12898953.692 +7.7466374740E-001 +1.0194027401E+000  +5.8371989336E-003 +9.2063571061E+001  +5.5187988924E-003 +1.0483181381E+002  +7.6905431779E-001 +8.5821938298E-001 
13024098.874 +7.8543318384E-001 +1.5531447245E+000  +7.3180729070E-003 +9.5943125493E+001  +6.1060583937E-003 +9.2255243575E+001  +8.0099420781E-001 -9.7152434592E-001 
13149244.055 +7.9403287480E-001 +1.8343980687E+000  +6.4294114139E-003 +9.0778313011E+001  +6.2651855747E-003 +1.1051631150E+002  +7.8585627366E-001 -1.6271646536E+000 
13274389.237 +8.0815972575E-001 +1.1731950040E+000  +8.4184879271E-003 +9.2749447998E+001  +6.3006292068E-003 +1.0489489057E+002  +8.2543726192E-001 -1.0616421843E+000 
13399534.418 +8.3945770993E-001 -9.4908960543E-002  +6.5217207799E-003 +9.6884154583E+001  +7.4099675288E-003 +9.3797029202E+001  +8.6228083998E-001 -2.6170109376E+000 
13524679.599 +8.4330935034E-001 -1.4343349325E+000  +7.9535407726E-003 +9.3904633690E+001  +5.3374570147E-003 +1.0660393241E+002  +8.7586328606E-001 -1.1877950225E+000 
13649824.781 +8.5331681122E-001 -2.6429503645E+000  +6.4282443140E-003 +1.0201282975E+002  +5.7806273699E-003 +9.2257295883E+001  +8.8279401168E-001 -2.5322687371E+000 
13774969.962 +8.8732488143E-001 -1.5904664246E+000  +6.5178478645E-003 +9.6171847478E+001  +6.1951170029E-003 +8.5956048429E+001  +9.0341809040E-001 -3.7914143188E+000 
13900115.144 +8.9191671214E-001 -1.1323677629E+000  +7.2503206095E-003 +1.0315447709E+002  +7.0060078016E-003 +9.0501443853E+001  +9.3841627872E-001 -3.6828773354E+000 
14025260.325 +9.0465327371E-001 -3.7695764531E+000  +7.5004416656E-003 +8.4868803964E+001  +6.0095628318E-003 +9.4297798432E+001  +9.3086142172E-001 -3.4228162678E+000 
14150405.507 +9.2075632918E-001 -3.8311289936E+000  +6.9750769875E-003 +8.4746892562E+001  +7.3853354090E-003 +8.9414167433E+001  +9.7406456501E-001 -3.8265172691E+000 
14275550.688 +9.6412111664E-001 -4.5174952617E+000  +7.7791807537E-003 +9.3797180228E+001  +9.1263544399E-003 +9.0576164386E+001  +9.7959728598E-001 -3.6628961982E+000 
14400695.870 +9.5870438833E-001 -5.0555086495E+000  +7.9934199962E-003 +8.6458627605E+001  +6.8153048725E-003 +9.1808443677E+001  +9.9779151271E-001 -3.3610623535E+000 
