!  2-Port S-parameters saved by WinCal
! VAR MeasName=S-Parameters (CALIBRATED_DATA) read from VNA (P5004A)
! VAR MeasDate=28/08/2024 15:58:23
! VAR NAME=S2_r8c9_RESET1_9k-100M_1
! VAR FILENAME=S2_r8c9_RESET1_9k-100M_1.S2P
! VAR DATE=28/08/2024 15:58:23
! VAR PHYS_PORTS=1,2
! VAR ObjTypeName=DATASET
! VAR IndexType=Frequency
!
# Hz S MA R 50
9000.000 +1.0963464286E-001 -1.6798262314E+002  +5.7493379544E-003 +1.4576139726E+001  +4.3719004213E-003 +3.2330261694E+000  +2.8438146821E-001 -1.5357192141E+002 
134145.181 +1.1142239031E-001 +1.6991146957E+002  +2.4760935212E-004 +3.3515470124E-001  +5.7363070269E-004 -1.6793704314E+002  +2.3748822504E-001 -1.7009216368E+002 
259290.363 +1.1142726219E-001 +1.6990777887E+002  +4.1261382406E-004 -8.5208834627E+001  +2.4277068603E-004 +1.0083998128E+002  +2.4584469425E-001 -1.6960307096E+002 
384435.544 +1.1388705929E-001 +1.6970258979E+002  +2.5069476509E-004 -6.3416804667E+001  +2.4065720377E-004 +1.7435279260E+001  +2.3873902511E-001 -1.6959889049E+002 
509580.726 +1.1358695676E-001 +1.7023815979E+002  +1.3195886342E-003 -1.1859005267E+002  +2.0715439229E-003 +1.0189897734E+002  +2.3992200958E-001 -1.6535401581E+002 
634725.907 +1.1725876028E-001 +1.7170284722E+002  +5.6270253768E-004 -1.5849051320E+002  +1.2310160128E-003 +8.6482139753E+001  +2.5352979271E-001 -1.6591787150E+002 
759871.089 +1.2026692131E-001 +1.7101920002E+002  +9.1695224178E-004 -1.2049719922E+002  +7.9536256728E-004 +6.2095517203E+001  +2.5919771683E-001 -1.6416953611E+002 
885016.270 +1.2100348226E-001 +1.6880009593E+002  +4.1072714176E-004 -8.4577378382E+001  +6.7106454491E-004 +1.5047460000E+002  +2.4120294422E-001 -1.6708550575E+002 
1010161.452 +1.1566275848E-001 +1.6979776199E+002  +1.9854632097E-003 -3.4924603733E+001  +2.0342582861E-003 +1.5520622429E+002  +2.0995987965E-001 -1.6556925208E+002 
1135306.633 +1.1512745526E-001 +1.7014490320E+002  +1.9064200402E-003 -3.0624340503E+001  +3.3319932473E-003 -1.6632922299E+002  +1.9546718480E-001 -1.6343155904E+002 
1260451.815 +1.2066510324E-001 +1.7089553582E+002  +3.0276550614E-003 -7.7548454254E+001  +1.6624345880E-003 +1.3938278045E+002  +1.9076548890E-001 -1.6271491324E+002 
1385596.996 +1.2235179778E-001 +1.7126472314E+002  +2.2272034493E-003 -7.0343776620E+001  +2.0077194894E-003 +1.0484635015E+002  +2.6412149318E-001 -1.5784535759E+002 
1510742.178 +1.2821576198E-001 +1.7100747278E+002  +7.2433810882E-004 -5.4557181651E+001  +1.9156372165E-003 +1.2691713137E+002  +2.5667522391E-001 -1.5714897127E+002 
1635887.359 +1.2888432593E-001 +1.7229684320E+002  +9.2417600375E-004 -1.4712912607E+002  +2.5078593018E-003 +1.6254607075E+002  +2.4507613244E-001 -1.5963499386E+002 
1761032.541 +1.3121422752E-001 +1.7132938285E+002  +1.8856855943E-003 +4.4086352802E+001  +1.4203470392E-003 -1.4147557922E+002  +2.3258331232E-001 -1.5859438352E+002 
1886177.722 +1.3135467573E-001 +1.6760140056E+002  +1.8872200173E-003 +7.5982863680E+001  +2.0479580536E-003 -6.6834436318E+001  +2.2760560007E-001 -1.6394005726E+002 
2011322.904 +1.2964479293E-001 +1.6774899951E+002  +4.0095184040E-003 +5.9958261893E+001  +5.4569328640E-003 -6.6651126503E+001  +2.1637685343E-001 -1.6177650748E+002 
2136468.085 +1.2954498302E-001 +1.6785284692E+002  +4.6451994501E-003 +2.2686114939E+001  +6.7835828442E-003 -8.2035487709E+001  +1.9787781570E-001 -1.6227307879E+002 
2261613.267 +1.3058837905E-001 +1.6401532251E+002  +9.0565821955E-003 +8.1531804722E+001  +8.5437323138E-003 -5.7610794562E+001  +2.0390319965E-001 -1.7386396723E+002 
2386758.448 +1.3590065939E-001 +1.6635398122E+002  +7.5111097309E-003 +7.5164248201E+001  +7.2076320371E-003 -1.7421208037E+001  +2.2919076579E-001 -1.7397398100E+002 
2511903.630 +1.3308730617E-001 +1.6427592429E+002  +1.9760520318E-002 +1.1517285665E+002  +1.3369440230E-002 +3.6856949898E+000  +2.7468443464E-001 +1.5851003926E+002 
2637048.811 +1.2043279031E-001 +1.6576867025E+002  +4.7318478468E-002 +4.5588438354E+001  +6.0644426922E-002 -6.4729530782E+001  +4.5901430020E-002 +7.3245548135E+000 
2762193.992 +2.0737271333E-001 +1.4093259651E+002  +9.2425476551E-001 -1.2734291917E+002  +7.7272466542E-001 +1.0488700809E+002  +6.4597426482E+000 -1.3450668670E+002 
2887339.174 +1.2398771534E-001 +1.7403884744E+002  +5.1309164292E-002 -3.7474417405E+001  +5.9349902738E-002 -1.4038046682E+002  +2.3267437830E-001 -9.9981507410E+001 
3012484.355 +1.3636183705E-001 +1.6987816558E+002  +2.9384238334E-002 +1.9290397250E+001  +2.6292116422E-002 -9.3709077206E+001  +9.6788717691E-002 -1.3238211049E+002 
3137629.537 +1.3208111026E-001 +1.6632392972E+002  +6.1241419247E-002 +5.5578681496E+001  +5.0257569495E-002 -2.2468426897E+001  +3.8727536023E-001 +9.7889151969E+001 
3262774.718 +1.3577207416E-001 +1.6890746306E+002  +4.1444320915E-002 -9.0546047204E-001  +3.6545910963E-002 -1.0446945021E+002  +1.9867567367E-001 -8.5941745473E+001 
3387919.900 +1.5190736398E-001 +1.6472252471E+002  +3.1287426046E-002 +6.7879811763E+001  +2.8195888128E-002 -3.2663833004E+001  +1.3268897898E-001 +1.3511298541E+002 
3513065.081 +1.4746301172E-001 +1.5208597049E+002  +5.8955991441E-002 +8.0345869271E+001  +6.2373325526E-002 +1.1154898083E+000  +3.1384354561E-001 +1.0028757124E+002 
3638210.263 +1.7731433165E-001 +1.5168605876E+002  +3.1487241061E-002 +1.1335600098E+002  +2.6623793091E-002 +2.8757008188E+001  +3.4798027644E-001 +1.5646189658E+002 
3763355.444 +1.8965740103E-001 +1.4067940447E+002  +5.5581176374E-002 +1.0527020420E+002  +5.1992430288E-002 +2.2816595654E+001  +3.1596539218E-001 +1.3757582958E+002 
3888500.626 +1.7706445090E-001 +1.5423592327E+002  +5.4119513337E-002 +1.0024915641E+002  +5.0948208142E-002 +2.8784167701E+001  +4.9482913827E-001 +1.2514322337E+002 
4013645.807 +1.5471846819E-001 +1.5513671734E+002  +5.3914623200E-002 +8.1340869016E+001  +5.3687974229E-002 +4.6113789464E+000  +4.1360048205E-001 +1.3088309915E+002 
4138790.989 +1.9097786314E-001 +1.4725203658E+002  +5.3446951509E-002 +9.6019153326E+001  +4.9874927975E-002 +3.1618655133E+001  +3.9155479562E-001 +1.3622962923E+002 
4263936.170 +1.6461241358E-001 +1.4905263631E+002  +7.4184959742E-002 +7.3139925417E+001  +6.6211204595E-002 +8.0827545334E+000  +3.5723299421E-001 +1.1003571504E+002 
4389081.352 +2.2477969205E-001 +1.4154710395E+002  +4.8806037646E-002 +1.0309828389E+002  +5.2450763860E-002 +4.3017815813E+001  +3.8724440551E-001 +1.4798745756E+002 
4514226.533 +2.4660615729E-001 +1.4032821140E+002  +1.2304480180E-001 +1.4462124032E+002  +1.1955797421E-001 +8.6131268529E+001  +1.1709267689E+000 +1.4330651861E+002 
4639371.715 +2.0838607761E-001 +1.2423178989E+002  +1.8322258781E-001 +9.0498683829E+001  +1.8273759514E-001 +3.2653076040E+001  +1.0062854110E+000 +9.7475027598E+001 
4764516.896 +3.0590450928E-001 +1.2462026241E+002  +4.3867096806E-001 +8.0000939536E+001  +3.7813637669E-001 +3.3204438572E+001  +2.6440099118E+000 +4.9980509474E+001 
4889662.078 +3.2308514551E-001 +1.3465105997E+002  +3.1037786141E-001 -7.2753753892E+001  +2.9267985624E-001 -1.2210182925E+002  +2.6698642974E+000 -1.3150423750E+002 
5014807.259 +3.8531412122E-001 +1.2360892621E+002  +5.6383305577E-001 +6.5730943488E+001  +5.2567886320E-001 +1.6111648646E+001  +3.9487500454E+000 +2.0100517337E+001 
5139952.441 +3.7171242826E-001 +1.3336432486E+002  +2.2644188720E-001 +1.4491074179E+002  +2.5910412752E-001 +1.0121855083E+002  +2.1849262313E+000 +1.2541325891E+002 
5265097.622 +4.1424083029E-001 +1.2916287907E+002  +2.5553161396E-001 +1.0658767648E+002  +2.4861407525E-001 +7.1358222690E+001  +1.3807228708E+000 +8.9676233776E+001 
5390242.804 +3.4997629672E-001 +1.2777612385E+002  +2.3999234592E-001 +1.0975186679E+002  +2.4621060728E-001 +7.5351989726E+001  +1.8720989014E+000 +1.0972677481E+002 
5515387.985 +4.4511479498E-001 +1.1814090888E+002  +2.7984837234E-001 +1.1889467805E+002  +2.3173761312E-001 +8.2333374722E+001  +1.6658338497E+000 +1.1778508244E+002 
5640533.166 +3.8274007811E-001 +1.2278356975E+002  +2.2583929622E-001 +8.0155780460E+001  +2.1017101547E-001 +4.9047055731E+001  +1.3959276837E+000 +8.1537850844E+001 
5765678.348 +4.4806898568E-001 +1.3088779522E+002  +1.3607564795E-001 +1.1758341444E+002  +1.4060416592E-001 +9.0136681840E+001  +1.3794407389E+000 +1.3033301714E+002 
5890823.529 +5.3151313444E-001 +1.2290308928E+002  +2.0951929079E-001 +8.0728535452E+001  +2.0557026860E-001 +5.9397767087E+001  +1.2378299929E+000 +7.4538716546E+001 
6015968.711 +4.5433296489E-001 +1.2545959489E+002  +2.3753867501E-001 +7.3062810250E+001  +2.3969592624E-001 +4.5347436722E+001  +1.9871885133E+000 +7.2198801221E+001 
6141113.892 +6.0535641472E-001 +1.1156032908E+002  +2.8831461344E-001 +7.7550444943E+001  +2.9512393255E-001 +5.4524042059E+001  +1.8245892611E+000 +7.3962048054E+001 
6266259.074 +7.1898426107E-001 +1.0123091172E+002  +3.3971815788E-001 +6.8255204229E+001  +3.4527515779E-001 +4.4718022107E+001  +1.8531045178E+000 +5.8926584150E+001 
6391404.255 +7.9115303929E-001 +8.9410125607E+001  +3.2181697048E-001 +4.3885411593E+001  +3.2797192018E-001 +3.1788852152E+001  +1.6664196056E+000 +4.0073769951E+001 
6516549.437 +8.0435250585E-001 +8.2191128780E+001  +3.1832240921E-001 +3.6782122020E+001  +3.1391790899E-001 +2.2464304261E+001  +1.5883296437E+000 +3.6670165992E+001 
6641694.618 +1.0950930652E+000 +7.3139892458E+001  +3.0354597728E-001 +3.4948230678E+001  +3.0958679513E-001 +2.4293961194E+001  +1.0402214016E+000 +2.0881525245E+001 
6766839.800 +1.0400996294E+000 +5.0895641095E+001  +3.1528682546E-001 +1.4931724965E+001  +3.1128769303E-001 +6.2247910956E+000  +9.7898144244E-001 +7.1726545138E+000 
6891984.981 +8.8079492910E-001 +4.1998320740E+001  +2.7026596051E-001 +4.2556881743E+000  +2.6042814813E-001 -2.2934217791E+000  +1.1263651057E+000 -5.9511133526E+000 
7017130.163 +1.0789476652E+000 +3.0856286133E+001  +2.7922854626E-001 +5.0008448706E+000  +2.5866771551E-001 -6.3095496998E-001  +1.1459485740E+000 -6.4972184123E+000 
7142275.344 +1.2662663798E+000 -2.8594575133E-001  +2.6046626880E-001 -6.3754625164E+000  +2.5589075576E-001 -7.2439860572E+000  +1.1275130809E+000 -1.2438855373E+001 
7267420.526 +1.2898593616E+000 +1.3177483778E+000  +2.2993786047E-001 -3.6295150167E-001  +2.3132263156E-001 -4.1301526652E+000  +1.0369411546E+000 -6.9383642478E+000 
7392565.707 +1.2033260095E+000 -1.2760182414E+000  +1.9172197634E-001 +6.1846798648E+000  +1.8262487055E-001 +4.2942166399E+000  +1.0482044072E+000 -6.1004019354E+000 
7517710.889 +1.0345180061E+000 +1.7845626808E+000  +1.7656653379E-001 +2.0428124432E+000  +1.7156930988E-001 +9.0288138517E+000  +9.8133492863E-001 -9.9224828973E+000 
7642856.070 +7.7619997208E-001 -1.4441877075E+000  +1.6338571336E-001 +2.9540158299E+000  +1.6098031827E-001 +7.7009076715E+000  +1.0186620414E+000 -5.0725335587E+000 
7768001.252 +7.6676081660E-001 +4.6071016122E+000  +1.5704323006E-001 +7.7164517802E-001  +1.5074065561E-001 +2.8923920195E+000  +8.5741401488E-001 -3.3547026214E+000 
7893146.433 +7.4603195915E-001 +8.7804316957E+000  +1.4371267343E-001 -2.0240534676E+000  +1.4691793284E-001 +8.0432111763E+000  +7.1970590778E-001 +6.0694258581E-001 
8018291.615 +6.5111194014E-001 +1.4490410976E+001  +1.4334599044E-001 -1.0846179685E+000  +1.3965961281E-001 +8.1277944550E+000  +6.9942713110E-001 +3.0691211712E+000 
8143436.796 +6.0433385302E-001 +1.3319909885E+001  +1.3938178233E-001 +7.5453282108E-001  +1.3749646889E-001 +6.8976812958E+000  +6.6688542330E-001 +3.8223091350E+000 
8268581.977 +5.5372921278E-001 +1.0217755847E+001  +1.3618258114E-001 -2.0877259166E+000  +1.3214941686E-001 +1.1331981847E+001  +5.8956411135E-001 +5.9779688657E+000 
8393727.159 +6.1464056679E-001 +5.0306621273E+000  +1.3871614984E-001 -2.1025508323E+000  +1.3492921733E-001 +8.8536937564E+000  +5.3555527411E-001 -3.1568234377E+000 
8518872.340 +5.9068908838E-001 +1.1732258907E+001  +1.3528181201E-001 -3.9362237026E+000  +1.2781600115E-001 +1.1274957473E+001  +5.9335816570E-001 +6.6348445156E+000 
8644017.522 +5.6392003839E-001 +9.7519682601E+000  +1.3289869006E-001 -3.9584019894E+000  +1.2628479377E-001 +8.6139952614E+000  +4.9084393232E-001 +1.0214608962E+001 
8769162.703 +5.4447954043E-001 +1.5222775537E+001  +1.2978343585E-001 -2.6706789999E+000  +1.3210383991E-001 +1.0487392373E+001  +4.8522898175E-001 +6.0646171921E+000 
8894307.885 +4.1410804105E-001 +1.4644964436E+001  +1.3135548738E-001 -4.1153112285E+000  +1.2747625271E-001 +9.2975945368E+000  +5.1427231380E-001 +5.0136448523E+000 
9019453.066 +4.4640612703E-001 +1.1136610312E+001  +1.3186208981E-001 -5.5121787559E+000  +1.2543452043E-001 +1.0065048495E+001  +4.4581087875E-001 +6.9072141737E+000 
9144598.248 +4.0535754015E-001 +8.5715142165E+000  +1.2923955625E-001 -4.0987439309E+000  +1.2630160605E-001 +1.0577727978E+001  +4.6339477702E-001 -3.8014274633E+000 
9269743.429 +4.9400852244E-001 +9.2839323058E+000  +1.2743299868E-001 -2.5284500098E+000  +1.2542333153E-001 +1.1889119541E+001  +4.3825274843E-001 +1.4563338780E+000 
9394888.611 +4.4360384566E-001 +9.0165832695E+000  +1.2672397782E-001 -3.1778341001E+000  +1.2624638856E-001 +1.2438564233E+001  +4.7302395050E-001 -3.8032545511E+000 
9520033.792 +4.4609866438E-001 -9.6656086088E-002  +1.2879805838E-001 -3.7617390317E+000  +1.2902608223E-001 +1.2227420835E+001  +3.9662422910E-001 +1.2338434613E+000 
9645178.974 +4.1626644429E-001 +6.9420978705E+000  +1.2720259109E-001 -5.3352415363E+000  +1.2839304803E-001 +1.2439226024E+001  +4.0656803187E-001 -7.6652143199E+000 
9770324.155 +4.4229356702E-001 +1.8712688185E+000  +1.2988475284E-001 -2.6658616903E+000  +1.2820809197E-001 +1.2819701624E+001  +4.3213878965E-001 -2.2803444103E+000 
9895469.337 +3.8260157354E-001 +4.5507543400E+000  +1.2753304643E-001 -3.8043934977E+000  +1.2711702481E-001 +1.2019377604E+001  +4.5642507744E-001 -5.0583260719E+000 
10020614.518 +4.0084350731E-001 +4.7139142579E-001  +1.3105107252E-001 -4.0878709800E+000  +1.2914014230E-001 +1.1840684068E+001  +4.0210787247E-001 -4.8794829646E+000 
10145759.700 +4.5745881797E-001 +5.4711248819E+000  +1.3061687774E-001 -1.2431859335E+000  +1.2766059765E-001 +1.3995230197E+001  +4.1962797238E-001 +7.0908111959E-001 
10270904.881 +4.3299916932E-001 +7.3312548206E+000  +1.3079177436E-001 -2.1580757903E+000  +1.2983969350E-001 +1.4391140321E+001  +4.3811381789E-001 -2.7176269103E+000 
10396050.063 +4.1873913406E-001 +5.7444087154E+000  +1.3007337880E-001 -1.6970488094E+000  +1.2777101544E-001 +1.3439994423E+001  +4.4301323898E-001 +4.9338718568E+000 
10521195.244 +4.2974470645E-001 +9.7587762928E+000  +1.3050731658E-001 -1.5903813331E+000  +1.2808082735E-001 +1.3909236456E+001  +4.6975781965E-001 +4.6074736515E+000 
10646340.426 +4.3241033344E-001 +1.3960957582E+001  +1.3140609223E-001 -7.0182885811E-001  +1.2873796331E-001 +1.5830913275E+001  +4.6030923167E-001 +4.9911539532E+000 
10771485.607 +4.6169786073E-001 +1.0558880876E+001  +1.3308935251E-001 -7.6747675209E-001  +1.3086945125E-001 +1.5520923371E+001  +4.6882918251E-001 +5.0765410383E+000 
10896630.788 +4.8779858774E-001 +8.8305395232E+000  +1.3276077950E-001 -3.9299341124E-002  +1.2965244435E-001 +1.4603377300E+001  +4.7573709322E-001 +6.2119948679E+000 
11021775.970 +4.6365505078E-001 +1.1952901382E+001  +1.3415584085E-001 +1.0828426960E-001  +1.3251296465E-001 +1.4594012878E+001  +4.8861542670E-001 +2.6962415209E+000 
11146921.151 +4.6329019239E-001 +1.1846096575E+001  +1.3399491960E-001 +2.1419430466E-001  +1.3094137054E-001 +1.4160792953E+001  +5.0412125186E-001 +6.3601759815E+000 
11272066.333 +4.9326616343E-001 +8.8364631032E+000  +1.3583679868E-001 +2.8306546328E-001  +1.3574083597E-001 +1.2801887729E+001  +4.8550399456E-001 +2.7332392068E+000 
11397211.514 +4.9169784788E-001 +1.0037021111E+001  +1.3628626745E-001 +4.0685533827E-001  +1.3538439117E-001 +1.3323021918E+001  +4.6320457863E-001 +6.3785343550E+000 
11522356.696 +4.9700801161E-001 +9.0513819972E+000  +1.3857232076E-001 +1.1799773491E+000  +1.3669400806E-001 +1.2838571133E+001  +4.8547940997E-001 +5.1345774383E+000 
11647501.877 +4.7607030934E-001 +8.9769983216E+000  +1.3994010633E-001 +1.3261845528E+000  +1.3823923509E-001 +1.3451410128E+001  +5.1333517022E-001 +5.1091491205E+000 
11772647.059 +5.1338638551E-001 +8.8468817927E+000  +1.4286560735E-001 +2.1797922148E+000  +1.3957329707E-001 +1.2686724909E+001  +5.2944951828E-001 +3.8566182199E+000 
11897792.240 +5.0192472670E-001 +8.8902663453E+000  +1.4286885057E-001 +2.1778260383E+000  +1.3894759170E-001 +1.2344278806E+001  +5.3725187015E-001 +5.0898685194E+000 
12022937.422 +5.4208510565E-001 +8.5178702939E+000  +1.4581870390E-001 +2.2741980365E+000  +1.4337311201E-001 +1.2033507009E+001  +5.2244459026E-001 +1.8701508363E+000 
12148082.603 +5.3404624174E-001 +5.5673732133E+000  +1.4564532851E-001 +2.3576309309E+000  +1.4475033779E-001 +1.2101024509E+001  +5.4588058516E-001 +2.5139823655E+000 
12273227.785 +5.4093932902E-001 +4.1952236186E+000  +1.4848849705E-001 +2.7726344523E+000  +1.4736057250E-001 +1.1281566787E+001  +5.8289768547E-001 +1.3108649704E+000 
12398372.966 +5.7485118852E-001 +3.4216434178E+000  +1.5061335380E-001 +3.4704935929E+000  +1.4782112437E-001 +1.0779864603E+001  +5.7171289510E-001 +1.8314425428E+000 
12523518.148 +5.6212257591E-001 +5.5492914439E+000  +1.4932344174E-001 +3.0084234825E+000  +1.4745456958E-001 +1.0319537831E+001  +6.0017133323E-001 +3.4972025813E+000 
12648663.329 +5.9922908912E-001 +4.2456053488E+000  +1.5327188083E-001 +3.4754170190E+000  +1.5158664268E-001 +1.0156696727E+001  +5.7986804755E-001 +1.0295225701E+000 
12773808.511 +6.0394278178E-001 +1.3306681334E+000  +1.5730723700E-001 +3.2712131625E+000  +1.5166159686E-001 +9.6337788948E+000  +5.9450452552E-001 +8.7038481648E-001 
12898953.692 +5.8873295276E-001 +3.8837484037E+000  +1.5690277652E-001 +3.0487497544E+000  +1.5253195594E-001 +8.7838539456E+000  +6.0259910593E-001 +8.0117045895E-001 
13024098.874 +6.4752368030E-001 +2.0314597056E+000  +1.5983648708E-001 +3.9834251263E+000  +1.5469467372E-001 +8.9077223650E+000  +6.4111773538E-001 +2.7812837489E-001 
13149244.055 +6.4245763675E-001 +2.1307509633E+000  +1.5879482389E-001 +4.2690906342E+000  +1.5783254222E-001 +8.6805343229E+000  +6.6176640060E-001 +4.0534712919E-001 
13274389.237 +6.6458087441E-001 +7.2429608654E-001  +1.6034204807E-001 +4.0374547011E+000  +1.5793485029E-001 +7.6457811913E+000  +6.5626317285E-001 -3.6873168782E-001 
13399534.418 +6.9212836505E-001 -1.8901515010E+000  +1.6318531616E-001 +4.7177558553E+000  +1.6005570870E-001 +7.6282020195E+000  +6.6123685525E-001 -1.1701618455E+000 
13524679.599 +6.8910282617E-001 +3.1340805711E-001  +1.6319199580E-001 +4.3987236622E+000  +1.5792284612E-001 +6.9905779326E+000  +6.9543160061E-001 -1.1699184099E+000 
13649824.781 +7.1912627296E-001 -7.2497740350E-001  +1.6512815061E-001 +3.9061368495E+000  +1.6233957706E-001 +6.6404035780E+000  +6.9633728529E-001 -1.1240282769E+000 
13774969.962 +7.0486442279E-001 -1.7836404054E+000  +1.6667906111E-001 +3.9548635463E+000  +1.6147227740E-001 +5.7409607347E+000  +7.3191948470E-001 -2.8198133430E+000 
13900115.144 +7.3038959429E-001 -2.6701189441E+000  +1.6698541436E-001 +3.8153424606E+000  +1.6435079475E-001 +5.4358328297E+000  +7.4889689303E-001 -1.9997438938E+000 
14025260.325 +7.4758102844E-001 -3.7250730587E+000  +1.6754101909E-001 +4.3959543907E+000  +1.6466130755E-001 +5.2672415825E+000  +7.7390524345E-001 -2.6189329859E+000 
14150405.507 +7.8015807821E-001 -3.9469192108E+000  +1.7149532281E-001 +3.7058927375E+000  +1.6813138524E-001 +4.5866846456E+000  +7.5974265323E-001 -3.9865798740E+000 
14275550.688 +7.6367287689E-001 -4.3574631348E+000  +1.7106573303E-001 +2.9047508585E+000  +1.6783116201E-001 +4.4500371098E+000  +7.8681465223E-001 -4.4458732634E+000 
14400695.870 +8.2643278529E-001 -4.0261174846E+000  +1.7105170889E-001 +3.5651344954E+000  +1.6707446611E-001 +4.5194467692E+000  +8.1320843800E-001 -3.4913889703E+000 
