!  2-Port S-parameters saved by WinCal
! VAR MeasName=S-Parameters (CALIBRATED_DATA) read from VNA (P5004A)
! VAR MeasDate=27/08/2024 17:06:31
! VAR NAME=S2_r3c9_RESET1_9k-100M_3
! VAR FILENAME=S2_r3c9_RESET1_9k-100M_3.S2P
! VAR DATE=27/08/2024 17:06:31
! VAR PHYS_PORTS=1,2
! VAR ObjTypeName=DATASET
! VAR IndexType=Frequency
!
# Hz S MA R 50
9000.000 +7.4452817699E-002 -1.6243462761E+002  +9.0392639731E-003 -4.1625733790E+001  +1.9447502778E-002 +1.5461768368E+001  +2.2153324952E-001 -1.1698815232E+002 
134145.181 +1.1111844836E-001 +1.6974854076E+002  +5.1151218121E-004 -9.9908013635E+001  +6.7234267155E-004 +1.6230946009E+002  +2.3974412832E-001 -1.7109464035E+002 
259290.363 +1.1224414158E-001 +1.7069120211E+002  +7.5382698505E-004 -3.7478371272E+001  +2.5322311316E-005 +1.4366834888E+002  +2.4496545764E-001 -1.6917801032E+002 
384435.544 +1.1513019836E-001 +1.6980877554E+002  +2.8983163171E-004 +1.2296637717E+002  +7.1345889347E-004 +9.9843492981E+001  +2.3444108605E-001 -1.6863376859E+002 
509580.726 +1.1329419990E-001 +1.7153304180E+002  +1.8030309956E-003 +5.1736560884E+000  +8.9372905824E-004 -1.2948288573E+002  +2.4846081510E-001 -1.6380890711E+002 
634725.907 +1.1694063100E-001 +1.7075122189E+002  +1.0988839131E-003 +1.6233408096E+002  +7.5453377576E-004 +1.3634750123E+002  +2.5224221828E-001 -1.6744166395E+002 
759871.089 +1.1607050873E-001 +1.7081845689E+002  +1.2411192244E-003 -1.7616672594E+002  +1.4346812337E-003 +2.1128000691E+001  +2.3749977728E-001 -1.6080918506E+002 
885016.270 +1.1980351567E-001 +1.6923420610E+002  +7.1316896844E-005 +3.8597367870E+001  +3.5484498954E-004 -4.1399964147E+001  +2.4700980887E-001 -1.6295290069E+002 
1010161.452 +1.1835884868E-001 +1.7050352323E+002  +3.6996895193E-004 +1.5003769768E+002  +1.1337089303E-004 +1.5532661503E+002  +2.0282876897E-001 -1.5605770000E+002 
1135306.633 +1.1552247539E-001 +1.6925091701E+002  +4.0562321092E-004 +1.4544464372E+002  +1.3628540796E-003 +1.3540449933E+002  +2.0092194938E-001 -1.6972669008E+002 
1260451.815 +1.2212692939E-001 +1.7298402811E+002  +2.0401456629E-003 +1.3623975748E+002  +1.1347496529E-003 +1.7579812526E+002  +2.2774596835E-001 -1.5711854446E+002 
1385596.996 +1.2636455397E-001 +1.7255019408E+002  +3.8007111939E-004 +8.7129625133E+001  +1.7064122413E-003 +2.6138027268E+001  +2.5546791659E-001 -1.5933343213E+002 
1510742.178 +1.2466776983E-001 +1.7245537985E+002  +1.6278962680E-003 -3.0854290707E+001  +1.7785957243E-003 -9.4339896289E+001  +2.5468473045E-001 -1.5690853043E+002 
1635887.359 +1.2870195854E-001 +1.6999938294E+002  +6.5380534801E-004 -1.4164973190E+002  +9.7759885432E-004 -1.2145362283E+001  +2.3536497559E-001 -1.5813637952E+002 
1761032.541 +1.3029870481E-001 +1.6931154963E+002  +5.8211650265E-004 +2.4008009145E+001  +1.1300409789E-003 -5.5553977696E+001  +2.0977814248E-001 -1.6169414114E+002 
1886177.722 +1.2863787509E-001 +1.6831511223E+002  +2.1279378807E-003 +5.8205290414E+001  +1.5624485941E-003 -1.0258658989E+002  +2.0743158706E-001 -1.6443558266E+002 
2011322.904 +1.1769251739E-001 +1.6562645713E+002  +1.6037457880E-003 +1.7479107744E+002  +1.5169779489E-003 -1.5674895719E+002  +2.1570153016E-001 -1.6338810686E+002 
2136468.085 +1.3402604025E-001 +1.6382496601E+002  +1.2075245315E-003 +2.3967604257E+001  +2.3349202147E-003 +1.9085735041E+001  +1.7199057606E-001 -1.6847194096E+002 
2261613.267 +1.2575717014E-001 +1.6062906599E+002  +1.1159089173E-003 +1.8917730150E+001  +3.2363901586E-003 +7.0171893409E+001  +2.2196162280E-001 -1.7895312083E+002 
2386758.448 +1.4061470272E-001 +1.6213359574E+002  +3.0180839539E-003 +1.7509676595E+002  +1.3448977316E-003 -3.7713282152E+001  +1.9141394680E-001 -1.7287759383E+002 
2511903.630 +1.3924431085E-001 +1.6209355569E+002  +8.5800935773E-003 -1.7190197638E+002  +1.1221914662E-002 -8.7403874903E+001  +3.2366070409E-001 +1.3122866025E+002 
2637048.811 +1.3261913178E-001 +1.6091930910E+002  +6.2149837819E-003 -1.5661200237E+002  +2.8195054996E-003 +6.7443526385E+001  +2.2365009675E-001 +1.6135710474E+002 
2762193.992 +1.0002194899E-001 +1.5960368465E+002  +3.5325941548E-003 +1.7755367854E+002  +2.4872976001E-002 -3.3068971937E+000  +3.4257422899E-001 +1.2937538687E+002 
2887339.174 +1.0840393745E-001 -1.7350349954E+002  +1.1011530429E-002 -9.7947162434E+000  +8.4759798879E-003 +9.7418904131E+001  +2.8105656052E-001 -1.2138754088E+002 
3012484.355 +1.1779791401E-001 +1.6034608014E+002  +7.8214720906E-003 +1.3050050524E+002  +2.9187850119E-003 +7.3193917587E+001  +1.4180394732E-001 -6.2001221173E+001 
3137629.537 +9.1511951521E-002 +1.6602119357E+002  +1.1200077410E-002 -1.1830416231E+002  +5.9350907532E-003 -1.6071520109E+002  +7.0227073272E-001 -4.9332645848E+001 
3262774.718 +1.0423943802E-001 +1.5551221435E+002  +2.2972751533E-003 -1.4280253100E+002  +3.9763879828E-003 +1.1785158632E+002  +7.2848603911E-002 +1.1077333858E+002 
3387919.900 +4.3715168927E-002 -1.4142755405E+002  +5.7194728715E-002 -1.6622670875E+001  +1.3083749290E-002 +2.7331127277E+001  +4.9891623742E-001 -3.3853826804E+001 
3513065.081 +1.3577747086E-001 +1.5192607125E+002  +3.5539358295E-003 -1.5708323860E+002  +7.0612840545E-003 +5.5444866810E+000  +6.0035202775E-001 +1.3217336354E+002 
3638210.263 +1.6501920101E-001 +1.4018304827E+002  +2.9433365048E-002 +1.2242210239E+002  +3.8477727918E-002 +8.0485916243E+001  +9.5380978064E-001 +1.3609451962E+002 
3763355.444 +1.7845521103E-001 +1.4344361748E+002  +1.0376949238E-002 +1.7950465130E+002  +9.6190744662E-003 -4.9905062956E+001  +4.5158643057E-001 +1.5447580744E+002 
3888500.626 +1.6369454501E-001 +1.5455542515E+002  +7.2951902412E-003 +2.6266781000E+001  +1.7324415385E-002 -3.9564008640E+000  +1.4169655811E+000 +1.0275383337E+002 
4013645.807 +1.7493364332E-001 +1.5211171221E+002  +5.3269905113E-003 -1.5940731697E+002  +2.5081305410E-003 -1.7384761562E+002  +3.3052571691E-001 +9.0157104281E+001 
4138790.989 +1.9727821007E-001 +1.4206842624E+002  +5.5312661276E-003 +1.5688348225E+002  +8.8317442463E-003 -4.2367461600E+001  +2.8072537561E-001 +1.4292933820E+002 
4263936.170 +1.6268330969E-001 +1.3086478171E+002  +2.3075622048E-002 +5.2013892933E+001  +9.7322995115E-003 +1.2248712208E+002  +1.9265968461E-001 +6.7856346350E+001 
4389081.352 +2.6400703892E-001 +1.3567972171E+002  +1.5814434233E-002 +7.2303772779E+001  +2.5581320080E-003 +1.6366632380E+002  +3.2759714081E-001 +8.5328328580E+001 
4514226.533 +2.4162777627E-001 +1.4061096574E+002  +1.3245725257E-002 -1.6622385355E+002  +4.3574609242E-003 -8.1624928594E+001  +1.0503750388E+000 +1.2459442704E+002 
4639371.715 +2.7338553976E-001 +1.2064195979E+002  +2.7051420245E-002 +2.0531600492E+001  +5.3860710860E-003 -8.2145349799E+001  +1.0925973691E+000 +7.4894724367E+001 
4764516.896 +3.4574732743E-001 +1.1060714564E+002  +1.5057113639E-001 +1.0978959070E+002  +1.6996781489E-001 -1.6976399308E+002  +1.1655423617E+001 -7.5327568609E+001 
4889662.078 +4.4442076358E-001 +1.3898624315E+002  +6.0154564001E-002 -5.1438963458E+000  +7.8370308389E-002 -6.9662790876E+001  +3.9303866663E+000 -9.5149785113E+001 
5014807.259 +4.9069955823E-001 +1.2902459370E+002  +2.7731841660E-002 -7.7963693198E+001  +2.1806323990E-002 +5.9876379622E+001  +3.3199251194E+000 -1.7819945355E+002 
5139952.441 +3.9595263813E-001 +1.3912146112E+002  +6.0084763169E-002 +3.6207702349E+001  +5.8992080054E-002 +5.6104818647E+001  +4.3064828560E+000 +1.7630831245E+001 
5265097.622 +4.4205123148E-001 +1.2942777024E+002  +2.3083165048E-002 +1.4914073812E+002  +8.5324040682E-002 -1.3585486552E+002  +5.1527918725E+000 +1.6673568704E+002 
5390242.804 +3.9958275635E-001 +1.3093906222E+002  +2.3518415043E-002 +1.5296025716E+002  +8.4038248749E-003 -1.5752109319E+002  +1.5946419052E+000 +1.1891162145E+002 
5515387.985 +4.6377305592E-001 +1.2368471969E+002  +5.7600775969E-002 -1.6427836498E+002  +3.3135785521E-002 +1.5065131678E+002  +2.5281893930E+000 +8.9372035323E+001 
5640533.166 +4.9890439323E-001 +1.2951409815E+002  +7.0038773123E-003 -1.3788444532E+002  +3.5472594238E-002 +8.3948530497E+001  +1.7908478445E+000 +8.1152540049E+001 
5765678.348 +5.0813680774E-001 +1.2592499596E+002  +7.3840891257E-003 +1.7577713341E+002  +5.9236098843E-003 +1.7194626632E+002  +1.9380154359E+000 +9.3645170605E+001 
5890823.529 +5.8995030740E-001 +1.1799383846E+002  +4.9656034589E-002 +1.4085946312E+002  +1.1216342150E-002 +1.5980603379E+002  +4.3054686498E+000 +8.7770623704E+001 
6015968.711 +7.2533573789E-001 +1.1711531751E+002  +1.8607663691E-002 +1.1813028034E+002  +4.8072986532E-002 +7.0230887276E+001  +2.4530740178E+000 +5.2908487366E+001 
6141113.892 +7.2165722041E-001 +1.1293950835E+002  +3.5982143708E-002 +6.3275799565E+001  +2.4361326045E-002 +2.3154202976E+001  +1.2948420666E+000 +2.2036739588E+001 
6266259.074 +7.4665967502E-001 +1.1603308398E+002  +3.5169171813E-002 +8.3102159794E+001  +2.6158041004E-002 +1.7890782306E+001  +1.9854227510E+000 +3.6502731434E+001 
6391404.255 +9.2439964521E-001 +8.7563869325E+001  +1.4346429705E-002 +5.3271032523E+001  +3.3977385968E-002 +7.9643525307E+001  +1.3342849074E+000 +8.5284855258E+000 
6516549.437 +1.1656138697E+000 +9.6112996762E+001  +2.8928117590E-002 +5.4086643566E+001  +1.4217734309E-002 +1.5507487849E+002  +1.3722307209E+000 -2.8099600398E+000 
6641694.618 +1.5690609965E+000 +7.4551834494E+001  +1.0144904059E-002 +1.9541369448E+001  +2.5128580494E-002 +1.0766556269E+001  +1.4161822967E+000 +7.2435980893E+000 
6766839.800 +2.4442169232E+000 +5.7488767907E+001  +4.3903373848E-002 +4.1987660588E+001  +3.6254683924E-002 -4.9770693435E+001  +1.4100445751E+000 -2.0967580283E-001 
6891984.981 +2.0637540947E+000 +3.4662865106E+001  +2.9807624918E-002 +2.3614897860E+001  +1.5650510000E-002 +3.2409321386E+001  +1.1515429096E+000 -1.0029923764E+001 
7017130.163 +2.0976402009E+000 +1.8694622327E+001  +1.9002119668E-002 +5.4438073182E+001  +1.8393635427E-002 +1.5637408992E+001  +1.1738237294E+000 -1.1320607230E+001 
7142275.344 +1.6352275966E+000 +1.2963411474E+001  +2.8860542619E-002 +6.9481362973E+000  +7.8494728446E-003 -5.0319583075E+000  +1.2433222553E+000 -1.6920808605E+001 
7267420.526 +1.6019187099E+000 -8.0524626448E-001  +2.3735896409E-002 +1.9983806229E+001  +1.0836010895E-002 -2.7301749022E+001  +1.3379257829E+000 -1.0784072555E+001 
7392565.707 +1.3674302087E+000 -3.2213370105E+000  +1.0895333255E-002 +3.4560384767E+001  +8.0838921533E-003 -8.6597111193E+000  +1.3044496398E+000 -9.5352020295E+000 
7517710.889 +1.2743286765E+000 -1.9535036952E+000  +1.0729000151E-002 +3.6729489183E+001  +1.0141856517E-002 -1.0876454096E+001  +1.1967486775E+000 -8.5997410223E+000 
7642856.070 +1.1183761690E+000 +4.1461807548E+000  +3.6108629153E-003 -6.9526047480E+000  +1.0438449765E-002 +1.6121019617E+001  +1.0621802299E+000 -3.4557156582E+000 
7768001.252 +8.7844259074E-001 +1.4416584674E+000  +9.4506364877E-003 -1.8380720717E+001  +1.0289210136E-002 -5.7713736805E+000  +1.0049554527E+000 -3.0754232935E+000 
7893146.433 +9.1764857037E-001 +5.3447941782E+000  +7.7153939408E-003 +6.2725203593E+001  +9.4322729936E-003 +7.1659953232E+001  +8.6614006327E-001 +3.0227505221E+000 
8018291.615 +8.4198223976E-001 +1.7552190599E+000  +9.9775293108E-003 +4.8287481974E+001  +5.8834032277E-003 +9.1523667305E+001  +9.1461488381E-001 -2.9548628635E+000 
8143436.796 +8.0143691899E-001 -5.2119366474E-001  +5.5076239101E-003 +4.7340023832E+001  +1.1511031168E-002 +1.2082210810E+001  +7.9811018611E-001 +4.2765224450E+000 
8268581.977 +6.7164579579E-001 +6.1399950580E+000  +7.9425874884E-003 +1.3957705626E+001  +6.3991252374E-003 +3.4182135133E+001  +7.5293090417E-001 -1.9335616142E+000 
8393727.159 +7.0863830817E-001 +7.0536673915E+000  +8.0652187529E-003 +1.3437912249E+001  +6.5469264847E-003 +2.7770961265E+001  +8.0839866709E-001 +4.9039291726E+000 
8518872.340 +6.5029792072E-001 +5.9879565701E+000  +3.7753644632E-003 +2.3872006030E+001  +7.3950696131E-003 +5.8120624782E+001  +7.4880594666E-001 -2.8486632692E+000 
8644017.522 +7.0045319730E-001 +7.0718659580E+000  +8.1766980785E-003 +3.6439846812E+001  +5.7260403717E-003 +7.9658435323E+001  +7.6077124419E-001 -6.5948873119E-001 
8769162.703 +5.9215619879E-001 +8.7543274075E+000  +6.8423696072E-003 +8.7013515926E+000  +7.7290218310E-003 +3.2057683337E+001  +6.9559059578E-001 +5.7746410838E+000 
8894307.885 +6.0374541277E-001 +8.4501835849E+000  +1.8958695649E-003 -3.1303873668E+001  +6.2029339327E-003 +1.6259946977E+001  +6.2950488462E-001 -4.6414869438E+000 
9019453.066 +6.4155075788E-001 +1.6021220580E+000  +7.7960864259E-003 +2.3366272640E+001  +9.4231389079E-003 +7.1753830340E+001  +6.3007838737E-001 -6.6590122288E+000 
9144598.248 +6.2411204092E-001 +8.5517140328E+000  +9.8968040274E-003 +1.9365738093E+000  +8.8946933299E-003 +3.6165943530E+001  +5.4893594564E-001 +1.3459322658E+000 
9269743.429 +5.3772221111E-001 +2.3773423962E+000  +9.1023240543E-003 +3.6422597696E+001  +9.5124409118E-003 +6.2175634066E+001  +6.2239739699E-001 -5.9209900287E-001 
9394888.611 +5.6119450637E-001 +2.5214195228E+000  +5.4923863900E-003 +2.2936472366E+001  +3.7589521758E-003 -1.4418812113E+001  +5.9465899911E-001 -2.8668759805E+000 
9520033.792 +4.9624220238E-001 +4.8772797004E+000  +6.8689571405E-003 +4.9909039911E+001  +7.3555888747E-003 +5.2254515437E+001  +5.9624480178E-001 -1.3623921324E+000 
9645178.974 +5.3676711758E-001 -1.7472442621E-001  +6.1999324061E-003 +5.2231057830E+001  +1.9837450999E-003 +2.8494348701E+001  +5.9141802448E-001 -9.2601380880E+000 
9770324.155 +5.9907826466E-001 -6.4225380919E-001  +7.0148398338E-003 +3.2424872175E+001  +1.0147773410E-002 +4.5762759245E+001  +6.0401966201E-001 -5.5029769333E+000 
9895469.337 +5.0247188017E-001 -6.3777954520E-001  +5.3763213754E-003 +8.7493910844E+000  +6.2518555081E-003 +1.8315069629E+001  +5.6100686119E-001 -3.5513519551E+000 
10020614.518 +5.2289958811E-001 +3.8932705228E+000  +8.0011892455E-003 +2.7287472208E+001  +7.4874951294E-003 +3.8240586125E+001  +5.6959974760E-001 -1.2238528200E+000 
10145759.700 +5.7150652349E-001 +2.5561490126E+000  +8.9469738903E-003 +4.0010083243E+001  +5.6725594215E-003 +4.7625587645E+001  +5.7574599925E-001 -5.4811334777E-001 
10270904.881 +5.8918972829E-001 +8.1189650994E+000  +9.4830659179E-003 +3.4360094558E+001  +4.9919815576E-003 +4.2412890627E+001  +5.8924328956E-001 -3.2179691922E+000 
10396050.063 +5.4307427557E-001 +5.1246634116E+000  +8.0618197257E-003 +4.0322439973E+001  +7.6320857203E-003 +6.5338682855E+001  +6.0088945331E-001 -1.0183056015E+000 
10521195.244 +5.3525080097E-001 +8.3053770889E+000  +6.6237377300E-003 +3.5653900898E+001  +6.9345880967E-003 +5.2999406940E+001  +5.8827308396E-001 -5.8962156443E-001 
10646340.426 +5.4351069812E-001 +6.7592120226E+000  +7.5117600421E-003 +2.9114343151E+001  +6.3872304789E-003 +5.3920192906E+001  +5.9873625080E-001 -4.0401902173E+000 
10771485.607 +5.5883219412E-001 +5.3754610759E+000  +5.4966144009E-003 +4.1396698490E+001  +7.8002047346E-003 +6.0023782042E+001  +5.9162941193E-001 +2.0978160979E+000 
10896630.788 +5.8658954918E-001 +8.8347555033E+000  +6.4136685538E-003 +6.0623581831E+001  +7.7622380552E-003 +5.8357517548E+001  +5.9677862197E-001 -1.0604487731E+000 
11021775.970 +5.8246526222E-001 +5.2496577228E+000  +8.9340516927E-003 +2.8615332261E+001  +8.0121702611E-003 +3.8211184587E+001  +5.9591869960E-001 -1.7934936575E+000 
11146921.151 +6.1685915645E-001 +5.5623052217E+000  +7.3208556673E-003 +3.1833520984E+001  +5.7663301881E-003 +4.8030638186E+001  +6.1730875044E-001 +2.9075333523E+000 
11272066.333 +5.8892101290E-001 +4.7945841705E+000  +8.0464513654E-003 +3.8401763060E+001  +7.6534908463E-003 +4.2258551295E+001  +5.9083274528E-001 +1.0160909269E-001 
11397211.514 +6.2034741687E-001 +7.2309775994E+000  +7.4871164160E-003 +3.2606105871E+001  +8.1857208674E-003 +5.9005200504E+001  +6.4062319316E-001 +1.3584364896E+000 
11522356.696 +6.2108700551E-001 +6.1478113185E+000  +1.0640708444E-002 +5.0759659988E+001  +8.7819001299E-003 +3.2656632138E+001  +6.2935431132E-001 +2.8248223587E+000 
11647501.877 +6.5540819215E-001 +4.0191728856E+000  +8.4753022229E-003 +4.3951577417E+001  +9.3923759593E-003 +5.0652077596E+001  +6.3117446661E-001 -3.3067665960E-001 
11772647.059 +6.4799134498E-001 +4.5541902929E+000  +9.1891742764E-003 +4.4429406660E+001  +1.0008791802E-002 +4.8783798876E+001  +6.4667527463E-001 +2.6450191670E+000 
11897792.240 +6.4523606320E-001 +6.3610834691E+000  +1.0010709597E-002 +5.3664182915E+001  +8.0320023268E-003 +5.4864977990E+001  +6.2751667340E-001 +4.5692147304E-001 
12022937.422 +6.6075636912E-001 +6.2564039700E+000  +8.2099735696E-003 +5.0467852755E+001  +9.0405754324E-003 +5.4700820338E+001  +6.6479780146E-001 +4.1552617074E-001 
12148082.603 +6.4840698224E-001 +5.2876855526E+000  +8.9575766893E-003 +3.7657425980E+001  +8.5085709684E-003 +6.5201259389E+001  +6.8909303460E-001 -6.4593943639E-001 
12273227.785 +6.7814992522E-001 +2.8786506345E+000  +7.5924129496E-003 +3.4991508914E+001  +7.1387858353E-003 +3.6612709040E+001  +6.9623963124E-001 +1.5184201857E+000 
12398372.966 +7.1171172692E-001 +3.2994802105E+000  +8.6871452199E-003 +3.7809543136E+001  +9.8961950467E-003 +6.5754967517E+001  +7.1766045639E-001 +6.3416009994E-001 
12523518.148 +7.1645921335E-001 +6.3439588274E+000  +7.6222521831E-003 +4.8058038925E+001  +7.7909687696E-003 +4.9560077740E+001  +7.2129930975E-001 +1.3035666541E-001 
12648663.329 +7.2958629455E-001 +2.1377412341E+000  +1.0268284167E-002 +3.6027316075E+001  +8.6456673529E-003 +3.6611736587E+001  +7.5267435403E-001 -1.9510797104E-001 
12773808.511 +7.3415945580E-001 +1.8674513301E+000  +9.5575233847E-003 +5.2056067751E+001  +9.7527586714E-003 +5.4486586855E+001  +7.6525944752E-001 +3.3621445428E-001 
12898953.692 +7.7207279272E-001 -1.3510370120E-001  +1.0395955797E-002 +4.3461069854E+001  +1.1121917310E-002 +4.7420812805E+001  +7.8592998825E-001 -1.5476734639E+000 
13024098.874 +7.8925490681E-001 +1.8314326490E+000  +9.2470618622E-003 +4.1574193671E+001  +9.9354587241E-003 +3.9538847741E+001  +7.9479332833E-001 -1.8766972095E+000 
13149244.055 +7.8731901585E-001 +1.2205839419E+000  +1.1597211299E-002 +4.7312794620E+001  +1.1513661607E-002 +5.4017970117E+001  +7.8324619251E-001 -8.8443664618E-001 
13274389.237 +8.3351557410E-001 -2.6317081628E+000  +8.9828135231E-003 +4.3908055330E+001  +8.9900031436E-003 +4.6856427549E+001  +8.3984325748E-001 -6.5891226770E-001 
13399534.418 +8.1718503377E-001 -1.9859063887E-002  +1.0182802661E-002 +4.6031018054E+001  +1.0371530054E-002 +5.7026721601E+001  +8.2603877464E-001 -1.5536764588E+000 
13524679.599 +8.5626528081E-001 -2.0505975986E+000  +9.3690517456E-003 +5.1302421395E+001  +8.1590273366E-003 +5.3604974626E+001  +8.6568568075E-001 -3.5240111610E+000 
13649824.781 +8.4921415720E-001 -2.4581560345E+000  +9.7450642061E-003 +3.8439602935E+001  +8.8440630571E-003 +5.7399361834E+001  +8.5479922039E-001 -3.7232500484E+000 
13774969.962 +8.7003769713E-001 -2.4140650556E+000  +1.0563659269E-002 +4.7806032172E+001  +1.0996647784E-002 +5.3530107913E+001  +8.7847624151E-001 -2.7838018980E+000 
13900115.144 +8.7926200347E-001 -2.8622181032E+000  +1.2043152747E-002 +4.2240008073E+001  +1.0021224893E-002 +4.0366672263E+001  +9.1381514483E-001 -2.4110353523E+000 
14025260.325 +9.0322989389E-001 -3.8622005152E+000  +1.0909837001E-002 +5.3762384712E+001  +1.0639037434E-002 +4.3994031228E+001  +9.2248196667E-001 -3.1372718852E+000 
14150405.507 +9.2068257484E-001 -4.7102131684E+000  +1.1516537633E-002 +4.8910163010E+001  +1.1540852777E-002 +5.1924185996E+001  +9.5377225840E-001 -4.9693450644E+000 
14275550.688 +9.4421355030E-001 -4.8662852836E+000  +1.1689746541E-002 +5.2305288000E+001  +1.2183080458E-002 +5.0840140249E+001  +9.5749159466E-001 -3.3756051110E+000 
14400695.870 +9.4317008490E-001 -4.3583493234E+000  +1.1729659118E-002 +4.0780887164E+001  +1.0242232138E-002 +4.7542144577E+001  +1.0071693387E+000 -3.9645575464E+000 
