!  2-Port S-parameters saved by WinCal
! VAR MeasName=S-Parameters (CALIBRATED_DATA) read from VNA (P5004A)
! VAR MeasDate=27/08/2024 12:43:00
! VAR NAME=S2_r6c9_pristine_9k-100M_3
! VAR FILENAME=S2_r6c9_pristine_9k-100M_3.S2P
! VAR DATE=27/08/2024 12:43:00
! VAR PHYS_PORTS=1,2
! VAR ObjTypeName=DATASET
! VAR IndexType=Frequency
!
# Hz S MA R 50
9000.000 +4.6647310119E-002 -1.3003661183E+002  +7.0143586512E-002 -1.1992058422E+002  +4.1648500114E-002 -3.5401469059E+001  +3.8626584282E-001 -5.8002303983E+001 
134145.181 +1.1071318615E-001 +1.7004347038E+002  +2.3839022802E-004 -2.0944406677E+001  +2.7565850001E-004 +3.2860446839E+001  +2.4083294514E-001 -1.7105988856E+002 
259290.363 +1.1276143898E-001 +1.7003853519E+002  +5.0158654232E-004 -1.2957934117E+002  +6.0440377089E-004 +1.0894997579E+001  +2.3974999046E-001 -1.6984546513E+002 
384435.544 +1.1388696120E-001 +1.6955988845E+002  +2.3649165908E-004 +3.4114016378E+001  +8.5818942141E-004 +1.0941266197E+002  +2.3272086938E-001 -1.6827902101E+002 
509580.726 +1.1448873436E-001 +1.7034095184E+002  +2.8765851981E-004 -1.5645697770E+002  +7.1420216748E-004 +8.9652393629E+001  +2.4594042189E-001 -1.6575255021E+002 
634725.907 +1.1323691577E-001 +1.7026388394E+002  +9.5351100659E-004 -1.2188300681E+002  +6.6790844033E-004 +3.2186315347E+001  +2.5091696390E-001 -1.6432038378E+002 
759871.089 +1.1725267840E-001 +1.6998257514E+002  +9.3871790569E-004 +9.5003892348E+001  +8.4021278421E-004 -1.0505907919E+002  +2.5129633882E-001 -1.6376233878E+002 
885016.270 +1.1576717337E-001 +1.6904040473E+002  +3.0323529320E-004 -8.4883209888E+001  +1.3733086794E-003 +2.8719142587E+001  +2.4062827309E-001 -1.6163250129E+002 
1010161.452 +1.1556912673E-001 +1.7145650271E+002  +2.4854920616E-004 -1.3924193363E+002  +8.1878980407E-004 -4.8661465069E+001  +1.7859544432E-001 -1.7417719851E+002 
1135306.633 +1.1860956999E-001 +1.7003490291E+002  +2.0580220613E-003 -8.1053611202E+001  +2.2415691278E-003 -1.2386027157E+002  +1.8487921443E-001 -1.5811379668E+002 
1260451.815 +1.1209024265E-001 +1.6954485492E+002  +1.8689710284E-003 -2.9507263377E+001  +1.6325449508E-003 -2.8332662051E+001  +2.2573803393E-001 -1.6269493460E+002 
1385596.996 +1.2490481131E-001 +1.7093215688E+002  +1.0427172567E-003 +1.5006608683E+002  +9.3683625564E-004 -1.0473736580E+002  +2.6393109949E-001 -1.5883782101E+002 
1510742.178 +1.2683423304E-001 +1.7140752222E+002  +1.3038229059E-004 +7.9391698993E+001  +2.0891291589E-003 -9.8822582538E+001  +2.5725721675E-001 -1.5347463910E+002 
1635887.359 +1.2553937107E-001 +1.6885382154E+002  +1.9878749445E-003 -6.0133211609E+001  +1.2827914747E-003 +1.1562161834E+002  +2.4684333683E-001 -1.5290731442E+002 
1761032.541 +1.2362062774E-001 +1.6882165345E+002  +1.5627608901E-003 +5.5482405871E+001  +2.3473398370E-003 -6.3997213772E+001  +1.8019401107E-001 -1.5907388525E+002 
1886177.722 +1.3111672159E-001 +1.6491416262E+002  +2.1879626727E-003 +1.4651444855E+002  +2.0419301741E-003 +5.8894001566E+001  +2.1428889871E-001 -1.6632368216E+002 
2011322.904 +1.2958393447E-001 +1.6651233653E+002  +1.3005523248E-003 -4.2476623111E+001  +1.5456345975E-003 -1.3290493118E+002  +2.1963476173E-001 -1.7123178546E+002 
2136468.085 +1.2581726499E-001 +1.6308867725E+002  +4.9596321760E-003 +9.3578277632E+001  +3.1621158553E-003 -4.3014957386E+001  +8.0443348244E-002 -1.6896078423E+002 
2261613.267 +1.3300770990E-001 +1.6426796121E+002  +3.8019171083E-003 +1.6373568226E+002  +2.6608732530E-003 -7.7475430026E+001  +1.8847825829E-001 +1.6863485209E+002 
2386758.448 +1.4050221759E-001 +1.6415191526E+002  +1.6698304079E-003 -1.4654285831E+002  +4.9762114910E-003 -1.0505681816E+002  +2.2810963640E-001 +1.4432444683E+002 
2511903.630 +1.0754802874E-001 +1.5642417889E+002  +1.1861458498E-002 +6.3770518395E+001  +3.8130488569E-003 +8.8944630323E+001  +2.2672333696E-001 +1.6617418915E+002 
2637048.811 +1.4333529929E-001 +1.5615752177E+002  +9.9968401582E-003 -4.6866282735E+001  +1.8996349176E-002 -1.8312370647E+001  +5.2794289528E-001 +1.3608831626E+002 
2762193.992 +9.6594112424E-002 +1.6202721339E+002  +1.2111930663E-002 -1.7349381694E+002  +1.1288706441E-002 +1.6630463747E+002  +9.5850812336E-001 -1.7277203677E+002 
2887339.174 +7.1799036480E-002 +4.7321509615E+001  +4.9858468951E-002 +9.8555992499E+001  +7.3100738686E-002 -7.3290856524E+001  +4.7372681503E-001 -3.3766630173E+001 
3012484.355 +1.2542858160E-001 +1.6911989037E+002  +1.4004826813E-002 -1.3965336002E+002  +1.2382134458E-002 -1.2294760592E+002  +1.6341402714E-001 -6.2025617660E+001 
3137629.537 +1.0089257355E-001 -1.7553020097E+002  +5.3438827460E-003 -3.0373768157E+001  +1.5740367830E-002 +8.6455013402E+001  +1.4132438135E-001 -1.0393088130E+002 
3262774.718 +7.5286845321E-002 +1.7962595533E+002  +7.1341767248E-003 +1.4465038039E+002  +5.7133198067E-003 -7.0799857474E+001  +1.3765021260E-001 -1.0444912081E+002 
3387919.900 +1.0480044913E-001 +1.2859253057E+002  +1.7968565381E-002 -8.2920315656E+001  +3.4825904717E-002 +1.1994461092E+002  +4.6851303270E-001 -5.0366538470E+000 
3513065.081 +1.6140581111E-001 +1.4556969623E+002  +5.3272430982E-003 +1.5128641399E+002  +9.3606560272E-003 +3.4103186293E+000  +1.5448325372E-001 +9.9459457927E+001 
3638210.263 +1.6495453079E-001 +1.4905228764E+002  +1.0209810656E-002 -1.8626664778E+001  +6.6503246521E-003 -1.5988694977E+002  +2.1350451103E-001 +1.6886393927E+001 
3763355.444 +1.6105757480E-001 +1.4825235500E+002  +1.6589009948E-002 -1.3762956405E+002  +2.2879284999E-002 -1.0591075024E+002  +7.4632496621E-001 +6.1237670894E-001 
3888500.626 +1.8018842314E-001 +1.4154845000E+002  +1.4777360621E-002 +1.0470186807E+002  +2.7389634247E-002 -1.6326158252E+002  +9.5289426010E-001 +4.2087404413E+001 
4013645.807 +1.3864095588E-001 +1.3440735137E+002  +1.1159418516E-002 +5.6793400333E+001  +1.3299168057E-002 -3.2659389717E+001  +5.0716261659E-001 +1.1667612726E+002 
4138790.989 +1.6516893703E-001 +1.3562763907E+002  +1.8880621925E-002 +1.1751904047E+002  +3.9497935628E-002 -1.5633529373E+002  +8.8850687171E-001 +9.9945531879E+001 
4263936.170 +2.0898423413E-001 +1.3887453642E+002  +8.2329891888E-003 +1.2924382410E+002  +1.7519104608E-002 +1.4171390682E+002  +5.1877549877E-001 +9.6921082805E+001 
4389081.352 +2.2665669508E-001 +1.3919435374E+002  +7.1142504163E-003 +9.2550230293E+000  +9.4848822937E-003 +1.6711768032E+002  +6.4135429743E-001 +1.3290602941E+002 
4514226.533 +1.7950465255E-001 +1.1972772309E+002  +8.7694687799E-003 +1.1061894689E+001  +2.3981371641E-002 -1.1703793676E+002  +6.8381758088E-001 +1.4409587385E+002 
4639371.715 +2.3059013790E-001 +1.2301803100E+002  +2.8942254477E-002 -6.4215481054E+001  +3.3195409738E-002 -9.1501767985E+000  +1.4798364072E+000 -1.1155864333E+001 
4764516.896 +3.1476681028E-001 +1.2674843843E+002  +8.9017417736E-004 +1.4504085533E+002  +9.2922740456E-002 -3.5962476326E+001  +4.1612431550E+000 -1.4535216665E+002 
4889662.078 +6.9693400682E-001 +1.3378203282E+002  +2.7170242093E-002 +4.9042791863E+001  +1.2137429596E-001 -2.1392772730E+001  +3.8415543777E+000 -1.3613207316E+002 
5014807.259 +4.4038881147E-001 +1.3274893240E+002  +2.1913448717E-002 -8.6067523214E+001  +3.8609678898E-002 -1.7747687169E+002  +1.9600392449E+000 +6.3549263273E+001 
5139952.441 +3.9959333090E-001 +1.2109967760E+002  +4.4273739050E-002 -9.2824829130E+001  +1.3367951830E-002 +6.0459560720E+001  +2.8236178261E+000 +7.2681582857E+001 
5265097.622 +3.7507470228E-001 +1.2468860978E+002  +3.3614619417E-002 -1.1108414789E+002  +1.0594386402E-001 +1.2658214798E+002  +3.2860330290E+000 +7.7606713237E+001 
5390242.804 +3.8682862572E-001 +1.1955935873E+002  +7.0811079002E-002 +1.1398387392E+002  +4.0068194899E-002 +1.6133538119E+002  +4.4461216932E+000 +3.3287100284E+001 
5515387.985 +4.3673982903E-001 +1.2206595103E+002  +1.5189457678E-002 -8.1196799016E+000  +1.6129015438E-002 +1.0997056574E+002  +1.7844993919E+000 +1.1521874259E+002 
5640533.166 +4.8826473597E-001 +1.3327168951E+002  +2.8080679217E-003 -1.5426541114E+002  +2.9861719320E-002 +5.4308130728E+001  +3.0940114867E+000 +8.7648620150E+001 
5765678.348 +5.6603716181E-001 +1.2016444357E+002  +1.4774194952E-002 +3.4932418497E+001  +8.6206343772E-003 +2.4673881363E+001  +3.4909361723E+000 +5.9885878392E+001 
5890823.529 +6.1189022802E-001 +1.2367933016E+002  +6.8198402424E-003 +1.1791648659E+002  +2.1964760802E-002 +3.8871671782E+001  +1.5671097703E+000 +5.0255559285E+001 
6015968.711 +6.0271658178E-001 +1.1755587222E+002  +2.3691033113E-002 +8.7075879576E+001  +3.0561636531E-002 +1.5776268362E+002  +2.5581405746E+000 +3.5066292910E+001 
6141113.892 +7.1261893865E-001 +1.1642599025E+002  +1.9378450257E-002 +7.6059010758E+001  +8.7216140696E-003 -1.7495137371E+002  +1.7584650416E+000 +1.4314423818E+001 
6266259.074 +7.7843914190E-001 +9.0849256256E+001  +5.6233034766E-003 +1.1427487000E+002  +1.1650029011E-002 -7.3472278022E+001  +2.3108075112E+000 +4.0142052111E+001 
6391404.255 +1.2185064348E+000 +8.5501705709E+001  +1.2787968602E-002 -1.6564340644E+002  +3.1591939574E-002 -2.7375820100E+001  +1.5136494753E+000 +3.4643020175E-001 
6516549.437 +1.5309782961E+000 +7.3929672593E+001  +4.1294046483E-002 +1.6492288072E+002  +6.5068163671E-002 +1.4980545124E+002  +1.6966195696E+000 +9.4695202868E+000 
6641694.618 +1.4748218821E+000 +7.1169856964E+001  +7.3309371548E-004 -1.4231946161E+002  +1.5288643525E-002 +1.4669885295E+002  +1.3930851394E+000 -3.8764669238E+000 
6766839.800 +1.4235177346E+000 +7.0213108229E+001  +9.8010691102E-003 +8.9958029186E+001  +1.7142042631E-002 +2.7465423455E+001  +1.1744057399E+000 -7.6862805179E+000 
6891984.981 +1.5712798509E+000 +4.3097906746E+001  +2.3544150520E-002 -3.7043710306E+001  +9.4895964126E-003 +1.6546209690E+002  +1.1771605974E+000 -1.6585454333E+001 
7017130.163 +2.0496441344E+000 +5.4403272919E+000  +1.7507800436E-002 -3.4577495448E+001  +1.9045875385E-002 +7.0364322650E+001  +1.4139041546E+000 -4.6587151420E+000 
7142275.344 +2.1380792914E+000 +4.7645442157E+000  +1.4961641684E-002 +1.2385343841E+002  +9.6960273577E-003 +3.4775915510E+001  +1.3271837207E+000 -1.3723252035E+001 
7267420.526 +1.5760534751E+000 -1.4541558835E+000  +9.7448376280E-003 +9.8978812752E+001  +1.1657846088E-002 +9.5106632449E+001  +1.3341659547E+000 -9.8996971321E+000 
7392565.707 +1.2952145505E+000 +5.2092394906E+000  +3.4179263240E-003 +8.8999784256E+001  +5.0140538526E-003 -5.0259318728E+001  +1.2275346536E+000 -4.9880892091E+000 
7517710.889 +1.1358159268E+000 +1.3085002174E+000  +7.7163792430E-003 +5.8165710603E+001  +7.6331175159E-003 +6.5778070936E+000  +1.2419329151E+000 -6.8264904566E+000 
7642856.070 +1.0350120754E+000 +3.5807175499E+000  +8.8027235182E-003 +4.4173750122E+001  +1.8296673385E-003 -4.5943806155E+001  +1.0750772372E+000 -1.0024218039E+001 
7768001.252 +9.1606406648E-001 +7.0999767882E+000  +7.1736114413E-003 +7.8183172425E+001  +7.7331899381E-004 -1.4529355819E+002  +1.0274498067E+000 -1.9648877334E+000 
7893146.433 +8.9990500512E-001 +4.7683850653E+000  +8.1257693203E-003 +7.1963059466E+001  +9.6510193914E-003 +1.2138047399E+002  +9.5637045757E-001 -8.7459723554E+000 
8018291.615 +9.1498880294E-001 +7.2589277502E+000  +8.4306680336E-003 +3.9437789384E+001  +4.2496929239E-003 +1.4560745938E+002  +8.8854866451E-001 -2.5659518953E+000 
8143436.796 +7.7039146246E-001 +5.1312534714E+000  +3.2354926402E-003 +6.4083454907E+001  +1.0623230333E-002 +1.7392900367E+002  +8.4304789967E-001 -3.2574586706E+000 
8268581.977 +7.6121317223E-001 +5.8455551838E+000  +5.1993685495E-003 +5.0909480780E+001  +9.9227823302E-003 +1.3689953449E+002  +7.9147618573E-001 -7.6801361291E-001 
8393727.159 +6.8552189494E-001 -1.8379466715E+000  +4.8351094038E-003 +2.7877089274E+001  +7.9099833053E-003 +1.1535503747E+002  +7.3234505983E-001 +2.6884211412E-001 
8518872.340 +6.9914211179E-001 +8.5537333006E+000  +4.6893603387E-003 +1.3295180626E+002  +2.3827810690E-003 +9.7990158513E+001  +6.5953752576E-001 +4.3063035779E-001 
8644017.522 +7.1168359204E-001 +5.6975718397E-001  +5.6688943927E-003 -1.5298361549E+002  +5.7437115392E-003 +1.4930142190E+002  +7.7553686065E-001 -4.8924570528E+000 
8769162.703 +6.2953044205E-001 +3.6885031058E+000  +1.5775322543E-003 +1.9782731895E+001  +5.2905237601E-003 +1.1246515494E+002  +7.0069022207E-001 +1.6064154158E-001 
8894307.885 +6.3075996335E-001 +2.4568106385E+000  +3.8716785470E-003 +1.0617138538E+002  +6.4570546983E-003 +9.3492391665E+001  +6.3986454644E-001 -3.4525116567E+000 
9019453.066 +6.0409926979E-001 +8.5399725818E+000  +4.0983077717E-003 +1.4248362449E+002  +1.3013376060E-003 +1.2526781987E+002  +6.8818146449E-001 +2.6221689502E+000 
9144598.248 +5.3999533065E-001 +4.4009364728E+000  +1.4560028000E-003 +6.0912568783E+001  +4.1025849481E-003 +1.2612713841E+002  +6.2943608173E-001 -2.1882890125E+000 
9269743.429 +5.5196339959E-001 +9.9138613674E+000  +6.1116726934E-004 +8.8998884277E+001  +3.1727655471E-003 +1.2050325816E+002  +6.5302125749E-001 -3.8059012883E+000 
9394888.611 +5.4429189481E-001 +4.2535708586E+000  +4.4097319545E-003 +6.6975469780E+001  +4.4663665313E-003 +1.0049712779E+002  +5.7300587472E-001 +3.4408585413E+000 
9520033.792 +5.2843745689E-001 +3.2716297149E+000  +5.5159515466E-003 +6.6242590839E+001  +7.9234114955E-003 +9.3621527413E+001  +5.8516331261E-001 -2.0390492755E+000 
9645178.974 +5.2097354189E-001 +1.5810731560E+000  +1.8878847053E-003 +8.4474469973E+001  +3.2755920421E-003 +1.2566281506E+002  +6.0953379808E-001 -3.5604289520E+000 
9770324.155 +5.1799239488E-001 +2.0015665193E+000  +1.2389494833E-003 +5.1928548280E+001  +4.0828163929E-003 +8.5245936181E+001  +5.7648384890E-001 -7.6058461471E+000 
9895469.337 +5.5595393433E-001 -8.4909941343E-002  +3.7960310701E-003 +4.4380782621E+001  +4.1998176763E-003 +5.5694584897E+001  +5.6730012001E-001 -1.1363769663E+001 
10020614.518 +5.6818285694E-001 +3.9227198550E+000  +2.8619290338E-003 +8.7449279425E+001  +5.3255608803E-003 +1.0006481994E+002  +6.2173278614E-001 -3.3696702188E+000 
10145759.700 +5.1977295711E-001 +3.7477136729E+000  +4.5486854654E-003 +4.9332483986E+001  +4.7109163932E-003 +7.1720521107E+001  +5.7210535548E-001 -3.1768238839E+000 
10270904.881 +5.7197919578E-001 +6.7232229948E+000  +6.4421936169E-003 +9.2807277453E+001  +3.8819564072E-003 +8.8245792961E+001  +6.4078335916E-001 -5.1612098600E+000 
10396050.063 +5.7850932547E-001 +4.6141424710E+000  +3.5519839866E-003 +9.9172954731E+001  +4.9015889391E-003 +1.0998010756E+002  +6.0097612882E-001 -4.7084590618E+000 
10521195.244 +5.7435264719E-001 +7.4056957656E+000  +4.2999393801E-003 +7.4691491161E+001  +5.3329111645E-003 +1.1450238169E+002  +5.7837549796E-001 -8.4875401611E-001 
10646340.426 +5.7474172726E-001 +3.5038690380E+000  +1.9008313419E-003 +5.9241858551E+001  +3.6909789840E-003 +8.7763460809E+001  +6.2672557147E-001 -2.2251326296E+000 
10771485.607 +5.6037093731E-001 +6.9150836220E+000  +4.3752816581E-003 +1.0399458060E+002  +3.9069625803E-003 +1.0802996765E+002  +6.0986730037E-001 +4.6669818186E-001 
10896630.788 +5.5425302438E-001 +6.5994762729E+000  +3.9250329601E-003 +6.0707040922E+001  +2.4632801209E-003 +6.8750721710E+001  +6.3421807652E-001 -2.5399673829E+000 
11021775.970 +5.9811157198E-001 +6.1102705135E+000  +3.7665139626E-003 +9.2023374115E+001  +4.4079657158E-003 +1.3779814637E+002  +6.2935422636E-001 +1.8118875035E-001 
11146921.151 +6.0298897570E-001 +3.9024434188E+000  +3.8686222971E-003 +1.0572792154E+002  +5.2825112332E-003 +1.1240892705E+002  +6.1820682862E-001 -5.0288490424E-001 
11272066.333 +6.0342047246E-001 +4.8651854396E+000  +4.3103141759E-003 +8.6124912393E+001  +3.1092475724E-003 +9.1020138549E+001  +6.3142303823E-001 +2.2394334422E+000 
11397211.514 +6.5338454032E-001 +7.7839096794E+000  +4.0560108486E-003 +9.3411791285E+001  +5.0082278314E-003 +1.0322866860E+002  +6.2200526345E-001 -1.6509075674E+000 
11522356.696 +6.0652068666E-001 +3.9183696782E+000  +4.8572943975E-003 +1.0212688521E+002  +5.7149029591E-003 +9.6591133385E+001  +6.5823634060E-001 -4.6664413140E-001 
11647501.877 +5.8887324169E-001 +5.7784252863E+000  +6.3527621595E-003 +8.3136620196E+001  +6.1224740131E-003 +8.8395689651E+001  +6.7458376326E-001 +1.8453523312E+000 
11772647.059 +6.0672231155E-001 +5.5220762740E+000  +6.5650451768E-003 +1.0908235489E+002  +4.5552243128E-003 +1.0083821864E+002  +6.3647220004E-001 +1.6111637559E+000 
11897792.240 +6.5372350642E-001 +8.5291506344E+000  +4.4553554230E-003 +8.7629449505E+001  +5.1498296254E-003 +9.7027133619E+001  +6.8832194436E-001 +1.4413648032E+000 
12022937.422 +6.5601373325E-001 +5.3706971398E+000  +4.5185563516E-003 +1.0511519377E+002  +4.0139812122E-003 +1.1237645672E+002  +6.6268860485E-001 +1.1503712141E+000 
12148082.603 +6.6033543749E-001 +4.1552359813E+000  +4.3333997205E-003 +9.4445686597E+001  +4.1376984744E-003 +8.5745047749E+001  +7.2588968408E-001 +1.3417201266E+000 
12273227.785 +6.9725915732E-001 +2.4631821783E+000  +4.9767559503E-003 +8.6071668305E+001  +5.7132941941E-003 +9.9230823512E+001  +7.1053068803E-001 +2.0004190532E+000 
12398372.966 +7.1108331648E-001 +4.9050456199E+000  +6.5350341161E-003 +1.0248822293E+002  +5.5916843082E-003 +1.1516783019E+002  +7.0181799000E-001 -7.3165521766E-001 
12523518.148 +7.1927595555E-001 +2.5404409846E+000  +6.9200303994E-003 +1.0246538288E+002  +7.1116333955E-003 +9.1639166024E+001  +7.2855515058E-001 -1.6338091372E+000 
12648663.329 +7.4689545708E-001 -2.0009260533E-001  +4.3864311861E-003 +7.8615616477E+001  +6.1398920638E-003 +6.9138136710E+001  +7.5622102564E-001 +7.8160620287E-001 
12773808.511 +7.2582869337E-001 +1.0463976902E+000  +6.4502364970E-003 +8.9986178391E+001  +6.1315961276E-003 +9.8083706137E+001  +7.6843606994E-001 -3.4736191904E-001 
12898953.692 +7.8498093352E-001 +1.4919540381E+000  +5.1539597727E-003 +9.8078874265E+001  +6.2388433500E-003 +8.3930423467E+001  +7.8321743950E-001 -1.2327197079E+000 
13024098.874 +7.8232860830E-001 +2.6182689582E-001  +6.4852846265E-003 +8.1253139062E+001  +5.1977770234E-003 +9.2142930141E+001  +8.0808430927E-001 -2.1506839321E+000 
13149244.055 +8.0746923646E-001 +6.7632535688E-001  +5.7956490435E-003 +9.2723534103E+001  +5.3814229567E-003 +1.0376307084E+002  +8.1464729995E-001 -1.1589020279E+000 
13274389.237 +8.0730566456E-001 -4.9059719733E-001  +6.2008333426E-003 +9.4718291917E+001  +6.5668507645E-003 +1.0365454324E+002  +8.3768824611E-001 -4.4656067055E+000 
13399534.418 +8.2573653295E-001 -9.5048002093E-001  +7.2552006033E-003 +9.6143464510E+001  +8.0006689282E-003 +8.9132853004E+001  +8.5229504554E-001 -2.8715855767E+000 
13524679.599 +8.6989595845E-001 -2.1434424790E+000  +6.7476453507E-003 +1.0417155770E+002  +5.2016895720E-003 +9.5249554878E+001  +8.6304579748E-001 -3.4204448991E+000 
13649824.781 +8.4378308296E-001 -2.2982475884E+000  +7.1210145771E-003 +9.1651782120E+001  +7.5837027598E-003 +9.3936252558E+001  +8.7777222270E-001 -2.8337786990E+000 
13774969.962 +8.7120776052E-001 -2.1567107438E+000  +6.3317565553E-003 +9.7081101630E+001  +6.4881560716E-003 +9.4380147254E+001  +9.0989925532E-001 -2.9538484082E+000 
13900115.144 +9.0100355269E-001 -2.7385247815E+000  +8.2439570886E-003 +8.3152168518E+001  +7.0212300020E-003 +1.0257321757E+002  +9.2910356598E-001 -4.2222197503E+000 
14025260.325 +9.1567943389E-001 -3.8017774420E+000  +7.7784149821E-003 +9.6363468474E+001  +5.6850349224E-003 +1.0297926640E+002  +9.6268589180E-001 -4.3486799714E+000 
14150405.507 +9.4438591336E-001 -4.9267562788E+000  +7.1583440811E-003 +9.6229642882E+001  +7.4080412328E-003 +9.6291999202E+001  +9.5992478965E-001 -4.0177548336E+000 
14275550.688 +9.6387016004E-001 -3.8689443608E+000  +8.1536945676E-003 +9.0962727278E+001  +7.5542074336E-003 +7.9309888913E+001  +9.5267764560E-001 -5.5839178966E+000 
14400695.870 +9.5903001799E-001 -4.1823664342E+000  +7.7138763952E-003 +8.2289363899E+001  +8.1485054558E-003 +9.0501469405E+001  +9.8706631297E-001 -4.6170196370E+000 
