!  2-Port S-parameters saved by WinCal
! VAR NAME=S2_r8c9_formed(1)_9k-100M_1
! VAR DATE=30/08/2024 12:00:07
! VAR FILENAME=S2_r8c9_formed(1)_9k-100M_1.S2P
! VAR MeasName=S-Parameters (CALIBRATED_DATA) read from VNA (P5004A)
! VAR MeasDate=28/08/2024 16:03:48
! VAR PHYS_PORTS=1,2
! VAR ObjTypeName=DATASET
! VAR IndexType=Frequency
!
# Hz S MA R 50
9000.000 +8.0671378664E-002 -1.6955685730E+002  +9.3691617586E-003 -6.0505024841E+000  +8.8175648333E-003 +1.1486629590E+002  +2.7662187262E-001 -1.3196007071E+002 
134145.181 +1.1096624286E-001 +1.6971273185E+002  +6.4049987140E-004 +5.8331270994E+001  +5.6849059638E-004 -3.6320446970E+001  +2.3701303418E-001 -1.7085697269E+002 
259290.363 +1.1163943080E-001 +1.6979404436E+002  +5.7246465464E-004 +1.5439779231E+002  +3.0209293267E-004 -9.2039160580E+001  +2.4289204306E-001 -1.7031712933E+002 
384435.544 +1.1384970626E-001 +1.7000240755E+002  +1.0068397121E-004 +1.0429754290E+002  +1.3862595280E-004 +8.2428452047E+001  +2.3913039571E-001 -1.6949912182E+002 
509580.726 +1.1415502953E-001 +1.7130182201E+002  +1.1534363807E-003 +1.3132749375E+002  +6.0667427005E-004 +1.3538281212E+002  +2.5581759769E-001 -1.6471754857E+002 
634725.907 +1.1894618354E-001 +1.7193534561E+002  +1.6212040605E-003 +1.6773570964E+002  +2.0607726340E-003 -5.9378057021E+001  +2.7161912153E-001 -1.6197742826E+002 
759871.089 +1.1824764350E-001 +1.7196076448E+002  +8.0303136816E-004 +1.0098115588E+002  +1.8140011351E-003 +1.5083113021E+002  +2.6423886752E-001 -1.6306962299E+002 
885016.270 +1.2065560800E-001 +1.6939454776E+002  +3.3621249709E-004 -1.4885324246E+002  +2.2811945708E-004 +7.5970326926E+001  +2.4544845396E-001 -1.6632271488E+002 
1010161.452 +1.1912979052E-001 +1.7043914608E+002  +1.3849479221E-003 -1.7154927396E+001  +8.1751236811E-004 +8.7819707820E+001  +2.1578556026E-001 -1.6517893112E+002 
1135306.633 +1.1525195254E-001 +1.6753587543E+002  +1.7781608329E-003 -5.2210705251E+001  +2.2515068804E-003 +6.5247392194E+001  +1.8173200745E-001 -1.6523276634E+002 
1260451.815 +1.2206437924E-001 +1.7174979981E+002  +2.5958026826E-004 -1.3326083115E+002  +1.5936345255E-003 +9.8400572515E+001  +2.3090203357E-001 -1.6363902052E+002 
1385596.996 +1.2595139351E-001 +1.7283074173E+002  +2.6281712434E-004 +2.9847341917E+001  +3.4823191356E-004 +4.9524521530E+001  +2.6819640185E-001 -1.5947269842E+002 
1510742.178 +1.2606636528E-001 +1.7121088952E+002  +6.3079082834E-004 +8.3320291614E+001  +9.3650396212E-004 -1.7937816056E+002  +2.6633523652E-001 -1.5882594692E+002 
1635887.359 +1.2806438972E-001 +1.7080273224E+002  +1.2135284862E-003 -1.5945451796E+002  +1.3442785648E-003 -1.1025295188E+002  +2.3226573555E-001 -1.6064764052E+002 
1761032.541 +1.3133455447E-001 +1.7013436724E+002  +5.7405330223E-004 -1.2051520002E+002  +7.3734798434E-004 -1.2370147312E+002  +2.2620372157E-001 -1.6338359906E+002 
1886177.722 +1.3156871748E-001 +1.6866855842E+002  +1.0948156235E-003 -4.1785345324E+001  +2.0135367243E-003 -1.0109893132E+002  +2.1325130801E-001 -1.6165046024E+002 
2011322.904 +1.2699384415E-001 +1.6844186891E+002  +2.7247078974E-003 +6.8020108860E+001  +1.6113297259E-003 +1.7988430212E+001  +2.0103004288E-001 -1.7773686091E+002 
2136468.085 +1.2677551028E-001 +1.6674177284E+002  +3.1389617042E-003 -2.4928818846E+001  +3.0872911574E-003 -2.4182639313E+001  +2.0263312709E-001 -1.6123412692E+002 
2261613.267 +1.2850352913E-001 +1.6567892599E+002  +2.4281164476E-003 +5.1424545341E+001  +5.7786000403E-003 -4.1734708746E+001  +1.9267221803E-001 -1.7629707651E+002 
2386758.448 +1.3983924410E-001 +1.6419228025E+002  +7.3645297579E-003 +3.9392622830E+001  +5.7885530746E-003 -3.1992971478E+000  +1.5550949748E-001 +1.4584948228E+002 
2511903.630 +1.2254856196E-001 +1.6061323832E+002  +1.4041509305E-002 +1.0187595758E+002  +1.2380824762E-002 -4.0496137131E+001  +1.1241856872E-001 +1.3449736520E+002 
2637048.811 +1.0681891615E-001 +1.5822300727E+002  +1.6040226326E-002 +8.4981981200E+001  +1.7745317243E-002 -7.6809924234E+001  +1.0243158745E-001 -1.7926378329E+002 
2762193.992 +1.2595975733E-001 +1.7202817278E+002  +3.7465488281E-002 +1.4554018724E+000  +3.3544098652E-002 -1.0620357746E+002  +2.9055092293E-001 +4.6584742858E+001 
2887339.174 +1.3959897988E-001 +1.7079475111E+002  +2.3926204925E-002 -3.1859688978E+001  +1.8557232737E-002 -1.2129122388E+002  +4.0381811197E-001 -6.8417102315E+001 
3012484.355 +1.3787366392E-001 +1.7126991528E+002  +1.7714753943E-002 -3.5291601576E+001  +3.9816372828E-003 -8.7207852738E+001  +1.6794922503E-001 -8.9293146240E+001 
3137629.537 +1.3031337101E-001 +1.6586686283E+002  +3.5843218561E-002 -7.7807365441E+001  +3.5505759012E-002 -1.7694517054E+002  +5.4480158123E-001 -8.3886436850E+001 
3262774.718 +1.0634407047E-001 +1.6735273565E+002  +2.0537864129E-002 -3.0553778015E+001  +2.3601439712E-002 -7.6707433295E+001  +1.9416380253E-001 -9.1170343098E+001 
3387919.900 +1.4119672420E-001 +1.5452971399E+002  +2.0886829608E-002 +2.1303090188E+001  +1.1278072324E-002 -2.1349032747E+001  +1.1395768564E-001 -1.7489822246E+002 
3513065.081 +1.4922556581E-001 +1.4434468079E+002  +2.4653482792E-002 +6.4212095296E+001  +3.0487625213E-002 -1.6321194362E+001  +3.5727231206E-001 +1.1012965958E+002 
3638210.263 +1.4516767032E-001 +1.4944515805E+002  +2.1817744360E-002 +1.0591107203E+002  +1.5643320079E-002 -8.2742250788E+000  +4.6402685469E-001 +1.2391311430E+002 
3763355.444 +1.6211999723E-001 +1.5041005258E+002  +2.5929987602E-002 +7.5172977986E+001  +3.1805712260E-002 +1.2942555196E+001  +4.5048292834E-001 +9.5459158459E+001 
3888500.626 +2.0583604670E-001 +1.5043066931E+002  +5.7735423267E-003 +1.0562195639E+002  +9.0968268394E-003 +3.9591989711E+001  +3.9171888810E-001 +1.5235376757E+002 
4013645.807 +1.8158189597E-001 +1.5541305742E+002  +1.1119033862E-002 +1.0046857651E+002  +9.7996293469E-003 +5.1943546920E+001  +3.9060046597E-001 +1.3832695487E+002 
4138790.989 +1.2337512867E-001 +1.1708983613E+002  +4.4487314949E-002 +1.0591362711E+002  +3.1393457398E-002 +3.4982312350E+001  +5.8093602534E-001 +1.3111443967E+002 
4263936.170 +1.7585727301E-001 +1.5077841938E+002  +3.0357852645E-002 +7.4070738255E+001  +2.6331005912E-002 -2.8094671801E+000  +4.0792845211E-001 +9.1288955388E+001 
4389081.352 +2.0605446201E-001 +1.4608871715E+002  +2.8361971866E-002 +7.4890120271E+001  +1.8406082862E-002 +2.8792505633E+001  +3.3703169870E-001 +1.0222571389E+002 
4514226.533 +1.9777575312E-001 +1.3565677355E+002  +4.6541205082E-002 +1.3738826756E+002  +5.3125455157E-002 +6.7416404594E+001  +1.1855814668E+000 +1.4492450575E+002 
4639371.715 +2.8386421715E-001 +1.3310827089E+002  +1.3372722350E-001 +1.4633063225E+002  +2.1551733661E-001 +9.9450103771E+001  +4.2664352141E+000 +1.1662362590E+002 
4764516.896 +3.6617693893E-001 +1.3412398843E+002  +1.7761227604E-001 -1.5045623610E+002  +1.6877510905E-001 +1.7156037375E+002  +3.8472716909E+000 +1.6335601055E+002 
4889662.078 +3.9286851391E-001 +1.1997161847E+002  +1.3173284871E-001 +9.7456773645E-001  +1.8173538192E-001 -8.7907435136E+000  +1.8812633275E+000 -3.7427079634E+001 
5014807.259 +3.3254163572E-001 +1.2370824962E+002  +9.8225178608E-002 +1.3291463414E+002  +1.0010296204E-001 +9.6266802272E+001  +1.5204612520E+000 +1.1630779632E+002 
5139952.441 +3.8030386218E-001 +1.3250639093E+002  +1.7654633715E-001 +1.4062731820E+002  +1.5369828028E-001 +1.1924518950E+002  +3.7331010474E+000 +1.0895901775E+002 
5265097.622 +3.2160908619E-001 +1.2386085593E+002  +1.5357438642E-001 +8.1532298780E+001  +1.5459128661E-001 +5.9150079479E+001  +2.8876554873E+000 +7.1321149104E+001 
5390242.804 +3.6386919801E-001 +1.2244801324E+002  +7.4055225550E-002 +1.0023762588E+002  +6.4079672686E-002 +5.5990960974E+001  +1.0852262886E+000 +1.0734276771E+002 
5515387.985 +4.0802738144E-001 +1.2857988588E+002  +1.0592871163E-001 +9.8902116548E+001  +1.1380181828E-001 +7.1791396486E+001  +2.2884794900E+000 +8.8342181679E+001 
5640533.166 +4.8776799331E-001 +1.3443224657E+002  +7.6326915523E-002 +1.0059983727E+002  +7.4259881259E-002 +7.5545199758E+001  +1.6024568017E+000 +7.6141975886E+001 
5765678.348 +6.0209152683E-001 +1.2141401649E+002  +1.2108115082E-001 +1.1152015747E+002  +1.2662754951E-001 +8.0069318489E+001  +2.1531583110E+000 +7.9671925594E+001 
5890823.529 +5.2151533203E-001 +1.2223502311E+002  +1.7713113446E-001 +6.0112508067E+001  +1.6391062536E-001 +3.0423872511E+001  +3.5034465065E+000 +3.4732293329E+001 
6015968.711 +5.7850824584E-001 +1.1525281721E+002  +9.8425256955E-002 +6.2544154483E+001  +1.0691619332E-001 +4.6935931448E+001  +1.2567850057E+000 +4.5482855813E+001 
6141113.892 +6.4285863906E-001 +1.1776994164E+002  +1.2349746436E-001 +5.5040054395E+001  +1.0689416485E-001 +4.1419226877E+001  +1.9050861215E+000 +4.3047153222E+001 
6266259.074 +6.5835344280E-001 +1.1150760545E+002  +1.0551423550E-001 +5.3415070097E+001  +1.0673731428E-001 +2.2375336892E+001  +1.4986574459E+000 +2.8564357825E+001 
6391404.255 +8.1161253060E-001 +8.4590271003E+001  +1.2642773230E-001 +2.4150902248E+001  +1.4228009234E-001 +2.0466394296E+001  +1.4627828009E+000 +2.2407223995E+001 
6516549.437 +1.2921044980E+000 +8.2360742278E+001  +1.6691886479E-001 +4.3917051116E+001  +1.5736115686E-001 +3.0230659119E+001  +1.3939204225E+000 +1.9762902836E+001 
6641694.618 +1.2830657951E+000 +7.9873757711E+001  +1.1709313393E-001 +3.9598972770E+001  +1.1324749886E-001 +2.4511862688E+001  +1.1702177193E+000 +2.0492672417E+001 
6766839.800 +1.3668050165E+000 +5.4711259156E+001  +1.0600424345E-001 +1.9414320900E+001  +1.2257762592E-001 +7.3599184401E+000  +1.1667754257E+000 +3.5931910893E+000 
6891984.981 +1.3360322140E+000 +3.8447848104E+001  +1.1047915851E-001 -3.2518340329E+000  +1.1858735587E-001 +4.3408828495E+000  +1.2322503917E+000 -1.3000130604E+001 
7017130.163 +1.6053157664E+000 +1.7568807336E+001  +1.0885297655E-001 +3.5951690065E+000  +1.1217551269E-001 +1.1332483079E-001  +1.0588773413E+000 -2.6520929953E+000 
7142275.344 +1.5177318544E+000 +1.2688957148E+001  +1.0240661092E-001 +1.0780155168E+001  +1.1435099574E-001 +4.9379075548E+000  +1.1791333500E+000 -1.1675703740E+001 
7267420.526 +1.4396670715E+000 +9.0446766557E-001  +8.5602174993E-002 +3.8327257148E+000  +9.4057976161E-002 -4.9495354771E+000  +1.3856837722E+000 -1.1226197086E+001 
7392565.707 +1.2917831811E+000 -5.3661844176E+000  +6.2294185065E-002 +3.7107103171E+000  +7.5922961805E-002 +8.5912958466E+000  +1.3317119431E+000 -7.0580465907E+000 
7517710.889 +1.0507289991E+000 +4.1045756735E+000  +6.4965495462E-002 +1.0977525333E+001  +5.5431781079E-002 +1.7890713551E+000  +1.1452945397E+000 -9.2792815686E+000 
7642856.070 +1.0200071502E+000 +4.2745527221E+000  +5.7026984284E-002 +3.6176345015E+000  +5.7476109433E-002 +6.4383711820E+000  +9.2842597226E-001 -5.0197617507E+000 
7768001.252 +9.0445344807E-001 +7.4066750509E-001  +5.2441984582E-002 +1.1812237859E+001  +6.2065072094E-002 +1.0409844220E+001  +9.2730480451E-001 +1.0298376962E+000 
7893146.433 +7.7868399778E-001 +5.8203376440E+000  +5.1764768599E-002 +2.2810147398E+000  +5.3605941131E-002 +1.1801062494E+001  +8.0580540960E-001 +4.5430253527E+000 
8018291.615 +7.5538688439E-001 +1.4276815289E+001  +4.1855825809E-002 +7.3807445163E+000  +4.2096854296E-002 +1.6704645347E+001  +7.6751030908E-001 +5.7549909297E+000 
8143436.796 +6.9283346514E-001 +7.0562595918E+000  +5.4507243621E-002 -2.5317297068E+000  +5.2278295004E-002 +1.1498512176E+001  +7.5803311734E-001 -2.0291015959E+000 
8268581.977 +6.1708824868E-001 +1.6965003400E+001  +4.8796327794E-002 +5.4179194125E+000  +4.5482933422E-002 +1.5009289352E+001  +7.5025069647E-001 +6.8011920298E+000 
8393727.159 +6.8902149920E-001 +4.0633952094E+000  +5.1088983022E-002 -1.1035010245E+000  +4.7577147447E-002 +1.3013380904E+001  +7.1899931660E-001 +2.4344283780E+000 
8518872.340 +6.4997421151E-001 +3.5979654157E+000  +5.1185438380E-002 +1.1237204211E+000  +4.8032257986E-002 +1.2152375118E+001  +6.6891724898E-001 +4.3853006033E+000 
8644017.522 +6.1309759527E-001 +1.0831352150E+001  +4.4431718049E-002 +3.5679691760E+000  +4.6793010309E-002 +1.6006253849E+001  +6.3244633146E-001 +2.0562962572E+000 
8769162.703 +5.6316583470E-001 +7.5591825759E+000  +4.5775789405E-002 +1.6184398341E+000  +5.0016964930E-002 +1.2613498117E+001  +6.1255646078E-001 -3.0560209155E+000 
8894307.885 +5.6822949878E-001 +1.4281676739E+001  +4.7452642645E-002 +2.4119363972E+000  +4.5392540181E-002 +1.8991315728E+001  +5.9626414150E-001 -2.4381834993E+000 
9019453.066 +5.2922921244E-001 +6.0895740641E+000  +4.6372669798E-002 -4.3174670070E+000  +4.4413494381E-002 +1.0617155359E+001  +5.7150249508E-001 +2.5910798420E+000 
9144598.248 +5.0363140737E-001 +7.7180038274E+000  +4.5275153786E-002 -3.1841210360E+000  +4.6741322973E-002 +1.2693114065E+001  +5.7646818927E-001 -3.7519774977E+000 
9269743.429 +4.7594100007E-001 +6.3382614674E+000  +4.2442497435E-002 -6.1586094986E-001  +4.5970251507E-002 +1.5661379526E+001  +5.7635810281E-001 +2.1037422835E+000 
9394888.611 +4.2719887524E-001 +3.0013584784E+000  +4.4357214738E-002 -1.0281846528E+000  +4.3226017328E-002 +1.7901195041E+001  +5.4836023357E-001 -1.6999613573E+000 
9520033.792 +4.8698757181E-001 +3.4533894182E+000  +4.7299547699E-002 +6.1593850009E-001  +4.5949162165E-002 +1.3447832288E+001  +5.4370998472E-001 -4.5330674227E-002 
9645178.974 +4.8888342717E-001 -1.6941780246E-001  +4.3954929884E-002 +4.5902066417E-001  +4.5213304788E-002 +1.8957148660E+001  +5.8397767732E-001 -4.2036051845E+000 
9770324.155 +5.2070465037E-001 +1.7942939187E+000  +4.6112512767E-002 +9.3137380533E-001  +4.3219642557E-002 +1.4497779514E+001  +5.6531059897E-001 -5.0472747982E+000 
9895469.337 +5.0205223363E-001 +2.8836670484E+000  +4.3225953588E-002 -1.3984507822E-001  +4.5262204195E-002 +1.5425697567E+001  +5.3904596301E-001 -2.4544087850E+000 
10020614.518 +4.7212395763E-001 +5.6217293603E+000  +4.6321181671E-002 +3.8450268254E+000  +4.8458449157E-002 +1.9588865111E+001  +5.1855779118E-001 -4.5260306499E+000 
10145759.700 +5.2146198007E-001 +4.8130855743E+000  +4.8327805681E-002 +4.6913529285E+000  +4.7597982708E-002 +1.8680151772E+001  +5.3079772361E-001 -3.0596028351E+000 
10270904.881 +5.4082785138E-001 +5.3074027546E+000  +4.3627298997E-002 +1.3911639969E+000  +4.5424803170E-002 +2.1642660888E+001  +5.3091181334E-001 -5.3283645529E-001 
10396050.063 +5.1123347771E-001 +5.1730027621E+000  +4.7560547652E-002 +3.0534407811E-001  +4.4327314868E-002 +1.6492268259E+001  +5.0183591387E-001 +2.0998134798E+000 
10521195.244 +5.3703590034E-001 +8.2858915836E+000  +4.6529276423E-002 +3.6776389265E+000  +4.5022325184E-002 +1.4749519078E+001  +5.3498075243E-001 -2.3473818062E+000 
10646340.426 +5.0478320361E-001 +6.5443024459E+000  +4.6951121401E-002 +1.8463950425E+000  +4.6993855059E-002 +2.0047889769E+001  +5.6754159067E-001 +2.1851394720E+000 
10771485.607 +5.1275905934E-001 +6.0188416236E+000  +4.6561389790E-002 +4.7905736894E+000  +4.8144823469E-002 +1.8016375847E+001  +5.4799282568E-001 +3.5379453365E+000 
10896630.788 +5.2845929357E-001 +4.8181254952E+000  +4.6894392141E-002 +2.6069090215E+000  +4.3730755768E-002 +1.9117816233E+001  +5.7925332340E-001 +4.7011238249E-001 
11021775.970 +5.3668788401E-001 +7.7267926444E+000  +4.8162004341E-002 +3.7264075872E+000  +4.6326018880E-002 +1.7281597139E+001  +5.7313219256E-001 +2.0215758855E+000 
11146921.151 +6.0472607492E-001 +8.2690220820E+000  +4.8243367062E-002 +6.1143601072E+000  +4.9173951476E-002 +1.9846927023E+001  +5.4232965452E-001 +1.9960310300E+000 
11272066.333 +5.4919085335E-001 +7.4104961114E+000  +4.8113443712E-002 +6.5731252042E+000  +4.6720586762E-002 +1.7894872251E+001  +5.9690216815E-001 +4.1974074246E+000 
11397211.514 +5.7902289979E-001 +4.3352182157E+000  +4.8492346791E-002 +5.0035016471E+000  +4.9314756764E-002 +1.6381326817E+001  +5.9516998322E-001 +4.2237994036E+000 
11522356.696 +5.7654719473E-001 +6.7571522268E+000  +4.8047165356E-002 +7.2337215767E+000  +5.0721617621E-002 +1.6424585795E+001  +6.2013239072E-001 +2.2712056399E+000 
11647501.877 +5.8642647541E-001 +5.7203310754E+000  +4.9589328975E-002 +4.2016280933E+000  +4.8979022182E-002 +1.6497178494E+001  +6.0293079411E-001 +3.2681438732E+000 
11772647.059 +5.9171089736E-001 +7.2954811942E+000  +5.0787290527E-002 +6.0351538754E+000  +4.9033336801E-002 +1.5005147366E+001  +5.9212094923E-001 +2.3233176897E+000 
11897792.240 +6.0305360187E-001 +6.5792291836E+000  +5.0221747639E-002 +6.8596702043E+000  +5.0776501136E-002 +1.7478982913E+001  +6.4948911895E-001 +8.9326269745E-001 
12022937.422 +6.2369020474E-001 +2.9059368363E+000  +5.2273920941E-002 +5.3789820156E+000  +5.2173874107E-002 +1.6647163071E+001  +6.0796055387E-001 +5.4947393356E+000 
12148082.603 +6.3493534989E-001 +5.1024903280E+000  +5.2150571311E-002 +8.9688568609E+000  +5.0913316236E-002 +1.4581768305E+001  +6.4795361937E-001 +2.2501239045E-001 
12273227.785 +6.4910342747E-001 +5.1312152356E+000  +5.4803068612E-002 +5.4938113307E+000  +5.1156379172E-002 +1.5122050478E+001  +6.5734818303E-001 +2.2255049099E+000 
12398372.966 +6.5633819951E-001 +3.7699330112E+000  +5.3507128105E-002 +7.0292392539E+000  +5.1888918962E-002 +1.4510669357E+001  +6.5294645540E-001 +5.3620856966E-001 
12523518.148 +6.8218069178E-001 +3.7961772157E+000  +5.3639884061E-002 +6.9368272594E+000  +5.2547671898E-002 +1.6042753434E+001  +6.8603936276E-001 +2.9741839857E+000 
12648663.329 +7.0018149717E-001 +1.9542235827E+000  +5.4230899759E-002 +7.4559651162E+000  +5.4573847429E-002 +1.4594852744E+001  +6.9536576588E-001 +8.7636779590E-001 
12773808.511 +6.9683196531E-001 +1.2683501751E+000  +5.5540710300E-002 +7.5359083148E+000  +5.5591133056E-002 +1.4801785791E+001  +7.1463503273E-001 -2.9535953473E-001 
12898953.692 +7.1194534357E-001 +5.9442544649E-001  +5.6440140468E-002 +8.5536965928E+000  +5.5443029238E-002 +1.3909258065E+001  +7.0604627687E-001 -1.7438195000E+000 
13024098.874 +7.1827601163E-001 +1.8910200099E+000  +5.7831487209E-002 +7.4822352941E+000  +5.4238538640E-002 +1.3516534114E+001  +7.1430321263E-001 +1.5576806071E-001 
13149244.055 +7.6010212472E-001 +5.4055159664E-001  +5.5119934496E-002 +8.9686982309E+000  +5.4441235484E-002 +1.5275502018E+001  +7.6888493927E-001 -1.3978164774E+000 
13274389.237 +7.6721493506E-001 +4.4123716519E-001  +5.8270161854E-002 +9.1460669302E+000  +5.5682563001E-002 +1.0552715547E+001  +7.6338426280E-001 -3.1099672230E-001 
13399534.418 +7.9790275040E-001 -9.5559337502E-001  +5.8181042504E-002 +7.9017307851E+000  +5.8362135027E-002 +1.2418267536E+001  +7.9348244405E-001 -1.6177881305E+000 
13524679.599 +8.0973781702E-001 -1.0736918408E+000  +5.6757655239E-002 +1.0388886852E+001  +5.7335446492E-002 +1.3012485399E+001  +8.0551975326E-001 -1.4813973794E+000 
13649824.781 +8.1000286365E-001 -1.4079794283E+000  +5.9572466082E-002 +1.0107594194E+001  +5.5888272311E-002 +1.1846730765E+001  +8.2102908021E-001 -5.6982852349E-001 
13774969.962 +8.3157384944E-001 -3.9734754170E+000  +6.0611713166E-002 +8.5940502841E+000  +5.8667785237E-002 +1.2904904359E+001  +8.7275627264E-001 -3.4950890413E+000 
13900115.144 +8.5740265524E-001 -3.3028260845E+000  +6.1164925486E-002 +1.0449878942E+001  +5.8838481389E-002 +1.1106379392E+001  +8.6731532641E-001 -4.2585265786E+000 
14025260.325 +8.4167799171E-001 -3.5852933157E+000  +5.9704328622E-002 +9.0464939466E+000  +5.9524095286E-002 +8.9881257783E+000  +8.6354528533E-001 -2.4297942585E+000 
14150405.507 +8.7618747301E-001 -4.1536216080E+000  +5.9540118313E-002 +7.8060602150E+000  +5.8717866179E-002 +9.9176180147E+000  +8.8994330474E-001 -5.1501363578E+000 
14275550.688 +9.1528471093E-001 -4.6084587938E+000  +6.0271949969E-002 +9.7288567438E+000  +6.0564463409E-002 +8.5697458046E+000  +9.1037005121E-001 -4.2524674844E+000 
14400695.870 +9.0948828287E-001 -5.3898079396E+000  +6.0746672110E-002 +8.1337398389E+000  +5.9547254105E-002 +8.9160103018E+000  +9.2260827450E-001 -4.4612575473E+000 
