!  2-Port S-parameters saved by WinCal
! VAR MeasName=S-Parameters (CALIBRATED_DATA) read from VNA (P5004A)
! VAR MeasDate=28/08/2024 10:59:41
! VAR NAME=S2_r5c9_SET3_9k-100M_3
! VAR FILENAME=S2_r5c9_SET3_9k-100M_3.S2P
! VAR DATE=28/08/2024 10:59:41
! VAR PHYS_PORTS=1,2
! VAR ObjTypeName=DATASET
! VAR IndexType=Frequency
!
# Hz S MA R 50
9000.000 +8.6557058929E-002 -1.7310951946E+002  +1.0188776523E-002 +1.2860983929E+002  +1.1674234545E-002 -2.7208183965E+001  +3.8972885718E-001 -1.3941882835E+002 
134145.181 +1.1114820190E-001 +1.6955394585E+002  +3.5578318819E-004 -1.7439634833E+002  +8.6367429356E-004 -1.5191356248E+002  +2.3683479271E-001 -1.7105142166E+002 
259290.363 +1.1218573237E-001 +1.6979459899E+002  +2.7999169748E-004 -1.0750085368E+002  +5.0831332492E-004 +8.5587290389E+001  +2.3952151892E-001 -1.6972647073E+002 
384435.544 +1.1309138812E-001 +1.7049983741E+002  +1.6068493047E-003 +1.4057329745E+002  +3.4645904616E-004 +1.6256534924E+002  +2.4040679280E-001 -1.6875700164E+002 
509580.726 +1.1373131372E-001 +1.7171524476E+002  +4.3588419060E-004 +1.4509583217E+002  +1.3735284885E-003 -2.2298582636E+001  +2.4449288622E-001 -1.6688908254E+002 
634725.907 +1.1792601599E-001 +1.7182316517E+002  +2.7752347022E-004 -8.6201230089E+001  +6.1487034437E-004 -1.5229928805E+002  +2.5969989165E-001 -1.6488115694E+002 
759871.089 +1.2016523058E-001 +1.7171211723E+002  +4.7233303357E-004 +7.4786772549E+001  +7.1765982967E-004 +2.1137659985E+001  +2.4408117370E-001 -1.6619395233E+002 
885016.270 +1.1985260599E-001 +1.6903960611E+002  +4.5693735372E-004 +7.8541941614E+001  +2.8268107843E-004 +3.1898379878E+001  +2.4527731701E-001 -1.6738991587E+002 
1010161.452 +1.1652454968E-001 +1.6974061108E+002  +1.1440707572E-004 +6.5862633632E+001  +1.6794688546E-003 +1.0375118946E+002  +2.0356200495E-001 -1.6513081466E+002 
1135306.633 +1.1831544892E-001 +1.6956728829E+002  +2.0755070949E-003 -1.2365955273E+000  +1.3412786677E-003 -9.6651133071E+001  +1.8734507864E-001 -1.5877029969E+002 
1260451.815 +1.2135932906E-001 +1.7367140745E+002  +1.6238587393E-003 +1.1659828177E+002  +4.1893571041E-004 +1.5447255219E+002  +2.3390281183E-001 -1.5836729407E+002 
1385596.996 +1.2923671709E-001 +1.7376577821E+002  +4.7951217553E-004 +1.4076353595E+001  +1.9489170614E-004 -2.3134889172E+001  +2.7680520759E-001 -1.6046445143E+002 
1510742.178 +1.3032813528E-001 +1.7110957437E+002  +3.5117516635E-004 +3.4192526673E+001  +6.9158370563E-004 +3.0226405052E+001  +2.5786113055E-001 -1.5573786059E+002 
1635887.359 +1.2464665920E-001 +1.7204220954E+002  +1.3710756031E-003 -1.9112162702E+001  +6.1094445578E-004 -1.0746772067E+002  +2.5271198419E-001 -1.5675849228E+002 
1761032.541 +1.2940658118E-001 +1.7128789194E+002  +8.1269593748E-004 -1.6297298125E+002  +1.7733745071E-003 -1.4938557623E+002  +2.3293562840E-001 -1.6070438831E+002 
1886177.722 +1.3286636546E-001 +1.6768626899E+002  +9.2417706786E-004 +1.6440367298E+002  +7.4647781730E-004 -5.6865053730E+001  +2.1275775485E-001 -1.5846430042E+002 
2011322.904 +1.3135099066E-001 +1.6738962120E+002  +1.1811396824E-003 -7.5208389434E+001  +3.1456416209E-003 +1.9470082787E+001  +1.6825594933E-001 -1.6440515188E+002 
2136468.085 +1.2905160176E-001 +1.7183638179E+002  +2.8110276501E-004 +1.4164323708E+002  +1.3235947281E-003 -5.8870514644E+001  +2.0853998797E-001 -1.6565659580E+002 
2261613.267 +1.3320635093E-001 +1.6678731734E+002  +3.2300344184E-003 +5.5192283210E+001  +2.4747104628E-003 -5.2547485344E+001  +1.9383837528E-001 -1.5095807189E+002 
2386758.448 +1.3989452152E-001 +1.6406198143E+002  +2.4117966400E-003 +7.3077497494E+001  +2.7597195190E-003 -5.5116720679E+001  +1.8743684620E-001 -1.7128891996E+002 
2511903.630 +1.2942300076E-001 +1.6472960330E+002  +2.3247993800E-003 +1.1259767260E+002  +6.7639740414E-003 -1.2284991845E+002  +1.0866649969E-001 -1.7302326227E+002 
2637048.811 +1.2576214300E-001 +1.6575522778E+002  +3.5178814189E-002 +6.3185658268E+001  +4.2266990693E-002 -7.3109598235E+001  +5.5266328312E-001 +6.9666433196E+001 
2762193.992 +1.3143914900E-001 +1.6307965219E+002  +8.8156828734E-003 -2.7742122787E+001  +1.2506703951E-002 -5.9829841342E+001  +1.8104392934E-001 +8.4663621210E+001 
2887339.174 +1.3261802053E-001 +1.6712649177E+002  +4.7205092763E-002 -6.7419971904E+001  +8.5284410149E-002 -1.8121998400E+001  +3.0095515933E+000 -1.0196050868E+002 
3012484.355 +1.3147837326E-001 +1.7691917807E+002  +7.7229758135E-003 -6.5823375897E+001  +4.7226233842E-003 +1.0406563296E+002  +6.1194280340E-001 -1.2113913624E+002 
3137629.537 +1.2678639464E-001 +1.6926818249E+002  +1.0041678112E-002 -6.8667994416E+000  +6.3586453262E-003 -1.5281715383E+002  +2.5609220329E-001 -1.1253865022E+002 
3262774.718 +1.3689070662E-001 +1.6901617632E+002  +5.9948094479E-003 +1.2794899149E+001  +1.1186110326E-002 -5.7848386648E+001  +1.2818455224E-001 +1.6858154662E+001 
3387919.900 +1.1430285940E-001 +1.5943292684E+002  +6.3114903211E-003 -1.4480939744E+002  +2.8997791422E-003 +1.0531130182E+002  +1.5188770954E-001 -7.0028537057E+001 
3513065.081 +1.3170808798E-001 +1.5636545921E+002  +1.7963689527E-002 +4.3721944892E+001  +7.8959049781E-003 +1.7023909889E+002  +1.8211945198E-001 +7.6377934271E+001 
3638210.263 +1.8032954829E-001 +1.4450036012E+002  +2.3787681266E-002 +1.2219140515E+002  +1.5711997346E-002 +2.6728005616E+001  +3.7454416363E-001 +1.0069071337E+002 
3763355.444 +1.9082792206E-001 +1.5209491146E+002  +9.5968183285E-003 +2.1771925237E+001  +8.3703671076E-003 +1.3743638030E+001  +4.4782047836E-001 +1.3278919245E+002 
3888500.626 +1.7686638116E-001 +1.5172570487E+002  +7.7957714971E-003 -9.6376060228E+001  +1.3376308579E-003 -6.4009183284E+001  +6.0930718517E-001 +1.1349080093E+002 
4013645.807 +1.6827283024E-001 +1.5962130332E+002  +4.0165174841E-003 +2.6905408705E+001  +5.3621414510E-003 -5.6122794251E+001  +2.3504929429E-001 +8.5399750749E+001 
4138790.989 +1.7577300586E-001 +1.4940440011E+002  +7.8562605194E-003 +1.3321143374E+002  +7.3920510250E-003 -1.7226973934E+001  +1.6408806329E-001 +9.7242076304E+001 
4263936.170 +1.7486110692E-001 +1.4590963634E+002  +1.7426066913E-003 +1.5373759598E+001  +7.4514271123E-003 +2.5615705860E+001  +3.2602468085E-001 +1.4201539917E+002 
4389081.352 +2.1881939981E-001 +1.4673026388E+002  +1.4511880969E-002 +1.0244421549E+002  +3.4195710493E-002 +6.7696519065E+001  +1.3338595999E+000 +9.9497511963E+001 
4514226.533 +2.5559913670E-001 +1.3885240870E+002  +1.6086669611E-002 +1.3770999586E+002  +2.6147222265E-002 -1.5970852386E+002  +1.6587569931E+000 +1.7254431690E+002 
4639371.715 +2.5006263886E-001 +1.3943012680E+002  +1.0494623063E-002 +7.5672811485E+001  +1.1117126280E-002 -6.9207820316E+001  +6.5367636764E-001 +8.8191847523E+001 
4764516.896 +2.7505708611E-001 +1.3854751132E+002  +2.9700905353E-002 -7.0996492020E-001  +2.6127065272E-002 -6.8529283614E+001  +2.7170220817E+000 -4.5730874781E+001 
4889662.078 +3.8733745288E-001 +1.3663984719E+002  +1.5991012607E-002 -3.0815920839E+001  +5.6262493097E-002 -8.6715345260E+001  +3.0234530453E+000 -1.4198993279E+002 
5014807.259 +4.5488094858E-001 +1.3260896103E+002  +3.4765764208E-002 +1.4693167416E+002  +2.3289381399E-002 +4.8434602959E+001  +1.0932462002E+000 +4.2941042118E+001 
5139952.441 +3.4168527804E-001 +1.2117932654E+002  +5.0039746127E-002 +1.5361697228E+002  +1.3503194204E-001 +1.4718223801E+001  +5.3215850995E+000 +6.0424011427E+001 
5265097.622 +2.9982008297E-001 +1.2252159282E+002  +3.4967155387E-002 +1.0058413487E+002  +8.8860236277E-002 +4.0209765815E+001  +2.4737911832E+000 +8.2627420168E+001 
5390242.804 +3.7219028847E-001 +1.2891064077E+002  +5.3966071316E-003 +1.0157375033E+002  +3.8278850148E-002 +1.3183264539E+002  +1.5384874519E+000 +1.2777229532E+002 
5515387.985 +4.2147234526E-001 +1.2047098776E+002  +1.9607713136E-002 +9.8225648164E+001  +7.1380037812E-003 +6.4734551308E+001  +1.2996209867E+000 +1.0623929277E+002 
5640533.166 +4.8948740771E-001 +1.3678640175E+002  +2.3282100269E-002 +4.6336582332E+001  +3.1358239276E-002 +5.9366126544E+001  +1.8357119813E+000 +5.2733878628E+001 
5765678.348 +5.2219175591E-001 +1.2699257626E+002  +3.2733287069E-002 +1.4453495097E+002  +2.4648192295E-002 +6.3952527260E+001  +2.1513161516E+000 +8.0016536894E+001 
5890823.529 +5.9189324036E-001 +1.3056631627E+002  +4.3987679400E-002 +9.6317602507E+001  +1.0713112368E-002 +9.4429460014E+001  +2.3675028494E+000 +6.9284740026E+001 
6015968.711 +6.2427747077E-001 +1.1497124379E+002  +2.2935671537E-002 +4.7291601583E+001  +5.1208332324E-002 +8.6706723789E+000  +1.7195695486E+000 +4.4149671751E+001 
6141113.892 +9.3871146126E-001 +1.1037389343E+002  +7.1520328913E-002 +8.1854875048E+001  +6.6078839702E-002 +7.8590011667E+001  +2.3446069149E+000 +4.3009178913E+001 
6266259.074 +6.8972661858E-001 +1.0369746233E+002  +1.7062746822E-002 +1.4047226390E+001  +3.6401254638E-002 +5.7704989738E+001  +1.4218894113E+000 +3.0975025027E+001 
6391404.255 +7.3971987697E-001 +9.8823482910E+001  +1.5386585573E-002 +2.8029296523E+001  +4.5508015663E-002 -2.1651071110E+001  +1.8663307773E+000 +1.5033402435E+001 
6516549.437 +1.3506085665E+000 +9.0746972909E+001  +5.8278714368E-002 +4.6449303385E+001  +2.2094727999E-002 +1.1224242124E+002  +1.5450641529E+000 +1.2182506491E+001 
6641694.618 +1.2433385332E+000 +6.3644317170E+001  +2.5317427477E-002 +6.3347190827E+001  +1.7299353951E-002 +4.6533744518E+001  +1.5138734398E+000 -2.2300482331E+000 
6766839.800 +1.5515722881E+000 +4.5265394917E+001  +4.1831354934E-002 +3.2328864809E+001  +5.7882647138E-002 +6.9847549750E+000  +1.3386223727E+000 -1.1738298666E+001 
6891984.981 +2.1047578469E+000 +3.9894622484E+001  +4.6906159038E-002 +1.5715356938E+001  +3.7612527523E-002 -2.7861330980E+001  +1.2905905810E+000 -1.1015510638E+001 
7017130.163 +2.2793933067E+000 +2.6367647311E+001  +5.0533722604E-002 +1.9898507803E+001  +2.6155701655E-002 -6.7468417205E+000  +1.3020382959E+000 -3.8463284858E+000 
7142275.344 +1.8771948882E+000 +5.2702818541E+000  +3.6527051078E-002 +4.9435672890E+000  +2.8075962774E-002 +3.9934802224E+001  +1.2632350581E+000 -8.9390231090E+000 
7267420.526 +1.4397552378E+000 +1.7788473830E+000  +1.7247170365E-002 -1.3175479701E+000  +1.3965708334E-002 -1.7342705954E+001  +1.2668310754E+000 -9.1321399045E+000 
7392565.707 +1.4223206880E+000 +4.5770706980E-001  +9.9737186935E-003 +4.7027972037E+001  +1.9669473248E-002 +6.1066806319E+000  +1.2974720095E+000 -6.2791558768E+000 
7517710.889 +1.1300858815E+000 +7.7634149167E+000  +1.8817012019E-002 -1.2971932660E+001  +7.3391533792E-003 +6.9425136381E+001  +1.3666959958E+000 -7.9275148050E+000 
7642856.070 +1.0235404660E+000 +6.0981709590E+000  +1.3983428818E-002 +7.0466841993E+000  +1.7655761504E-002 +6.2007180864E+001  +1.0938380098E+000 -5.5678469206E+000 
7768001.252 +1.0692363636E+000 +3.1061973133E+000  +1.4326367416E-002 -2.3339416718E+000  +1.8622113823E-002 +2.6413706713E+001  +9.8699491544E-001 -7.6931134565E+000 
7893146.433 +8.1759523156E-001 +9.5645652260E+000  +1.4366926186E-002 +1.7478737676E+000  +1.8411530710E-002 +1.6978845274E+001  +8.6784821186E-001 -4.1447508148E+000 
8018291.615 +8.1813341766E-001 +8.6883781657E+000  +1.4518565110E-002 +2.3343722939E+001  +1.3071078807E-002 +4.1517867133E+001  +8.5192260919E-001 -9.0804006930E+000 
8143436.796 +8.4589048599E-001 +9.3689690086E+000  +1.5515527381E-002 +2.2864041063E+001  +1.2827544955E-002 -3.6667395883E+000  +7.1012663858E-001 -2.0822762013E+000 
8268581.977 +7.1608150741E-001 +7.0968022895E+000  +1.0839913826E-002 +2.1549885675E+001  +7.7187713819E-003 +1.0397990964E+001  +7.2525607792E-001 -5.1286622282E-002 
8393727.159 +6.8274979289E-001 +5.6086217925E+000  +1.3057216688E-002 +1.3707660238E+001  +1.2455450100E-002 +1.7215499586E+001  +7.0270365444E-001 +3.9937653896E+000 
8518872.340 +6.4676843224E-001 +2.7936280443E+000  +1.0908366543E-002 +1.5528589656E+001  +1.0720338132E-002 +2.2892930844E+001  +7.4159093312E-001 -4.7308215584E+000 
8644017.522 +6.5290559448E-001 +1.0557721061E+001  +1.5726246617E-002 +1.4864747188E+001  +1.0951439987E-002 +3.4613506446E+001  +6.7835007052E-001 -1.5277705310E+000 
8769162.703 +6.3003723614E-001 +1.1095471508E+001  +1.5720649575E-002 +1.7902184921E+000  +1.4259184825E-002 +2.8838364747E+001  +7.1195076411E-001 -4.0831289470E+000 
8894307.885 +6.0710891282E-001 +2.5183654310E+000  +9.0160069303E-003 +1.3953679988E+001  +1.0689272418E-002 +3.6403867299E+001  +6.4994996611E-001 +3.6393243176E-001 
9019453.066 +5.6846029456E-001 +5.4047730398E+000  +1.3203119308E-002 +1.1901721664E+001  +1.4385341896E-002 +3.6555024435E+001  +6.1260338022E-001 -5.1900869986E+000 
9144598.248 +6.0246131262E-001 +6.7757599711E+000  +8.6360959800E-003 +1.1472896691E+001  +1.3246803599E-002 +3.4449580411E+001  +5.6944325603E-001 -1.0339373438E+000 
9269743.429 +5.7682103994E-001 +7.3167570499E+000  +1.0462816773E-002 +1.0569611040E+001  +1.2470937302E-002 +3.6128854421E+001  +6.1960885971E-001 +1.2316415929E+000 
9394888.611 +5.7635481566E-001 +8.8320521645E+000  +1.5757216215E-002 +1.7335867458E+001  +1.1388675973E-002 +2.5870220135E+001  +6.2534749163E-001 -2.7901924381E+000 
9520033.792 +5.2129553430E-001 +7.6246222415E+000  +1.3859595946E-002 +1.4091880362E+001  +1.2659828516E-002 +3.9402183321E+001  +5.4910825869E-001 -5.1687420713E+000 
9645178.974 +5.8541367676E-001 +1.8109856599E+000  +1.1469961519E-002 -7.4796426624E-001  +1.5759608084E-002 +1.7513294499E+001  +5.8574494739E-001 -4.0982580751E+000 
9770324.155 +5.5717188881E-001 -1.0307865767E-001  +1.1238848580E-002 +1.7723790664E+001  +1.3633172422E-002 +2.5744133084E+001  +5.5604101685E-001 -8.8340961375E+000 
9895469.337 +5.0979101160E-001 -5.2146658347E+000  +1.2027096087E-002 +1.4943314935E+001  +1.3957938921E-002 +1.7230247487E+001  +5.6883729352E-001 -4.1260520590E+000 
10020614.518 +5.5558484734E-001 -5.5860042052E-001  +1.4001850936E-002 +6.7651430808E+000  +1.5256092198E-002 +1.7517552892E+001  +5.7068385372E-001 -4.5679297375E+000 
10145759.700 +5.2008591955E-001 +5.1231443197E-001  +1.3913470127E-002 +1.6030747064E+001  +1.5023103953E-002 +3.6136674822E+001  +5.8034538314E-001 +9.1547812447E-001 
10270904.881 +5.5522818524E-001 +8.0961897997E+000  +1.0093803348E-002 +2.1362083306E+001  +1.1179295672E-002 +3.1678638168E+001  +5.5447264636E-001 -4.8940175326E-001 
10396050.063 +5.5585231458E-001 +1.9768764966E+000  +1.0473295899E-002 +2.3688180557E+001  +1.0062055705E-002 +2.3268226733E+001  +5.4854790494E-001 -2.0810256913E+000 
10521195.244 +5.8262609933E-001 +5.4555730285E+000  +1.2988713115E-002 +1.4099390107E+001  +1.1951826128E-002 +4.0064433436E+001  +5.9252441350E-001 -5.1339403273E-001 
10646340.426 +5.5267509228E-001 +5.2189266131E+000  +1.4985374992E-002 +1.8809200469E+001  +1.3972712138E-002 +3.0702371698E+001  +5.7522254031E-001 -4.7844849901E+000 
10771485.607 +6.0302500548E-001 +7.9907182654E+000  +1.1920938205E-002 +2.8150911683E+001  +1.1373846012E-002 +3.4484285664E+001  +5.6330089791E-001 -1.5546686527E+000 
10896630.788 +5.5912485658E-001 +6.9464311555E+000  +1.3433472598E-002 +3.7510368047E+001  +1.5427451336E-002 +3.5265314053E+001  +6.1216045870E-001 +1.2979698345E+000 
11021775.970 +5.6570041731E-001 +1.0083209797E+001  +1.2289177667E-002 +1.4160599506E+001  +1.1323563413E-002 +4.9106243200E+001  +5.9445289581E-001 +1.8730366426E+000 
11146921.151 +5.6890538848E-001 +6.0448570902E+000  +1.1593342468E-002 +1.5080307160E+001  +9.1514622083E-003 +3.7573222593E+001  +6.4049484015E-001 +1.4511314754E+000 
11272066.333 +5.8195896604E-001 +6.9590719949E+000  +1.2653379931E-002 +2.2156326765E+001  +1.3477752587E-002 +2.8752874907E+001  +6.1768792131E-001 +6.4550790356E-001 
11397211.514 +6.3200464747E-001 +6.9054655877E+000  +1.3403685741E-002 +2.2111561058E+001  +1.3940367345E-002 +3.3561855930E+001  +6.3503482958E-001 +1.5199195533E+000 
11522356.696 +6.1307804091E-001 +5.7932163589E+000  +1.2974307611E-002 +2.2249318496E+001  +1.6203063184E-002 +3.3897574478E+001  +6.1867897995E-001 +2.9434457657E+000 
11647501.877 +6.2582804339E-001 +7.9540078784E+000  +1.2656428129E-002 +1.9035451635E+001  +1.3813292841E-002 +3.4025405966E+001  +6.3361700085E-001 +2.2600934524E+000 
11772647.059 +6.1970281252E-001 +4.1299548004E+000  +1.3979123998E-002 +2.4628793741E+001  +1.3925993868E-002 +2.6624802996E+001  +6.4297600535E-001 +3.3862462164E+000 
11897792.240 +6.4938883908E-001 +5.9172849019E+000  +1.4044058034E-002 +1.8017498255E+001  +1.2337009424E-002 +3.0604211115E+001  +6.5773995357E-001 -1.2017602631E+000 
12022937.422 +6.6014874612E-001 +4.5983037928E+000  +1.4290282728E-002 +2.3480944161E+001  +1.3670120454E-002 +3.8321892656E+001  +6.6795483196E-001 +6.6310178595E-001 
12148082.603 +6.6903097900E-001 +3.5996994762E+000  +1.2694557585E-002 +2.5471991256E+001  +1.4767879778E-002 +3.5602746338E+001  +6.9960754223E-001 +8.6476099498E-001 
12273227.785 +6.7073932616E-001 +5.3986325118E+000  +1.5059059356E-002 +2.5003451679E+001  +1.3510873436E-002 +3.5909239281E+001  +6.8018422301E-001 +3.2856039852E-001 
12398372.966 +6.9241395084E-001 +5.0368218479E+000  +1.3254229648E-002 +2.5565610638E+001  +1.2541652725E-002 +3.2547864106E+001  +7.0434696384E-001 -3.4572923099E-002 
12523518.148 +7.0041731084E-001 +3.8366421135E+000  +1.5257037530E-002 +2.9000103811E+001  +1.4391611170E-002 +2.7952913730E+001  +7.1421315085E-001 +1.3259008748E+000 
12648663.329 +7.3892469766E-001 +2.9481089955E+000  +1.4608129380E-002 +2.5340431696E+001  +1.5258399416E-002 +3.0968237906E+001  +7.4416653890E-001 -2.0031656072E-002 
12773808.511 +7.4989405072E-001 +2.3020465415E+000  +1.4662899055E-002 +2.6176180983E+001  +1.4446661014E-002 +2.9876781871E+001  +7.6180844196E-001 -1.4295353587E-001 
12898953.692 +7.7020147685E-001 -1.5211614563E-001  +1.5824873841E-002 +3.1087194771E+001  +1.5470469575E-002 +3.0371700188E+001  +7.7127131113E-001 -7.2271180619E-001 
13024098.874 +7.7938190955E-001 +1.5245517693E+000  +1.4597319742E-002 +2.5746730736E+001  +1.4466725388E-002 +3.3111839915E+001  +7.8340734278E-001 -1.3985304887E+000 
13149244.055 +7.8772701182E-001 +2.2425234995E-001  +1.5167313589E-002 +2.3264634914E+001  +1.5091111441E-002 +2.9084357182E+001  +7.9923452176E-001 -3.4437675389E-001 
13274389.237 +8.0498302335E-001 -8.9863081298E-001  +1.5768054021E-002 +3.2925616326E+001  +1.5722118609E-002 +2.9348290127E+001  +8.3849993047E-001 -1.8805224683E+000 
13399534.418 +8.5061360056E-001 +9.7261243784E-001  +1.4422215214E-002 +2.5696489527E+001  +1.6153486245E-002 +2.6679688994E+001  +8.3293982810E-001 -3.3961292519E+000 
13524679.599 +8.3750926571E-001 -2.0024892879E+000  +1.6494623215E-002 +2.2068230441E+001  +1.5638443763E-002 +2.8081105246E+001  +8.5575314597E-001 -1.7392596955E+000 
13649824.781 +8.7924471889E-001 -2.3499657037E+000  +1.5435701449E-002 +2.6579957774E+001  +1.7506197583E-002 +2.9127438437E+001  +8.8048250969E-001 -3.2849053712E+000 
13774969.962 +8.6504006968E-001 -3.3077368073E+000  +1.6694897653E-002 +2.6998329538E+001  +1.4377926915E-002 +3.5690846081E+001  +8.7896077241E-001 -2.3923364058E+000 
13900115.144 +9.2157766024E-001 -3.3916514417E+000  +1.5826206352E-002 +3.4537028536E+001  +1.6796419382E-002 +2.8858035629E+001  +9.1210319938E-001 -2.8484245870E+000 
14025260.325 +9.1629946629E-001 -4.2895114244E+000  +1.6051677195E-002 +2.7708218509E+001  +1.6001236492E-002 +3.0292397413E+001  +9.2449093939E-001 -3.7519908259E+000 
14150405.507 +9.3340853847E-001 -5.0518969507E+000  +1.5973944876E-002 +2.5703284309E+001  +1.5385286644E-002 +2.9556209438E+001  +9.5394854407E-001 -4.6231099871E+000 
14275550.688 +9.3931371131E-001 -4.2183123967E+000  +1.7785145275E-002 +2.6421395014E+001  +1.7528013196E-002 +2.8224672233E+001  +9.7423127646E-001 -4.8025854752E+000 
14400695.870 +9.6101208474E-001 -5.5565023999E+000  +1.6607142119E-002 +3.0886190074E+001  +1.6221690415E-002 +2.8902491845E+001  +9.8498979363E-001 -5.5165762773E+000 
