!  2-Port S-parameters saved by WinCal
! VAR MeasName=S-Parameters (CALIBRATED_DATA) read from VNA (P5004A)
! VAR MeasDate=28/08/2024 12:22:24
! VAR NAME=S2_r7c9_RESET3_9k-100M_3
! VAR FILENAME=S2_r7c9_RESET3_9k-100M_3.S2P
! VAR DATE=28/08/2024 12:22:24
! VAR PHYS_PORTS=1,2
! VAR ObjTypeName=DATASET
! VAR IndexType=Frequency
!
# Hz S MA R 50
9000.000 +9.1225329250E-002 -1.6898087205E+002  +2.9770314809E-003 +1.3839566398E+002  +8.2422245224E-003 -1.4969808911E+002  +2.2963979927E-001 -1.4719896133E+002 
134145.181 +1.1077536972E-001 +1.6997236786E+002  +5.3732928737E-004 -1.4083506790E+002  +4.7684778922E-004 +1.2669031490E+002  +2.4082248637E-001 -1.7155845240E+002 
259290.363 +1.1261804612E-001 +1.7059067559E+002  +4.2202645075E-004 +5.1776706965E+001  +4.1329589565E-004 -5.7639836987E+001  +2.4074497410E-001 -1.6877088080E+002 
384435.544 +1.1436558828E-001 +1.7064431262E+002  +8.1427836933E-004 -3.8089259900E+001  +2.6244103834E-004 +7.8928624741E+001  +2.4447143647E-001 -1.6828618512E+002 
509580.726 +1.1334073837E-001 +1.7181678607E+002  +1.8420162771E-003 +1.7100383357E+002  +1.0195166793E-003 +1.4596161831E+002  +2.4460606622E-001 -1.6486088068E+002 
634725.907 +1.1487023148E-001 +1.7121803959E+002  +7.5844922973E-004 +1.6697410567E+002  +1.3903277992E-003 -1.2732795693E+002  +2.6293271062E-001 -1.6520459749E+002 
759871.089 +1.2000448040E-001 +1.7115661420E+002  +2.8132774781E-004 +2.8211659218E+001  +4.5681896659E-004 -1.3442472372E+002  +2.5395534190E-001 -1.6660067893E+002 
885016.270 +1.2039984655E-001 +1.6954213555E+002  +7.7487510336E-005 +2.8393047434E+001  +7.7037101258E-004 -9.6871891725E+001  +2.4340600748E-001 -1.6624134097E+002 
1010161.452 +1.1676457222E-001 +1.7029385821E+002  +9.1796515577E-004 +1.0392364770E+002  +1.2087856956E-003 -3.8376886614E+001  +2.1026495871E-001 -1.6791880955E+002 
1135306.633 +1.1547649191E-001 +1.7086379381E+002  +3.1284401197E-003 -1.2110980421E+002  +4.9823794685E-003 +6.2007540241E+001  +1.5673302337E-001 -1.7208558587E+002 
1260451.815 +1.1774366071E-001 +1.7275461087E+002  +1.4008552732E-003 -1.1396427726E+002  +2.3090734275E-003 +1.3003285944E+002  +2.4310253837E-001 -1.4583780279E+002 
1385596.996 +1.2673396988E-001 +1.7440028195E+002  +5.2185082432E-004 +1.5257570802E+001  +7.3271127791E-004 -1.0515656660E+002  +2.7389691483E-001 -1.5916691991E+002 
1510742.178 +1.2771707164E-001 +1.7161028784E+002  +7.3704974525E-004 -6.6779539626E+001  +1.2392480228E-003 -9.2853989351E+001  +2.5636518679E-001 -1.5720710226E+002 
1635887.359 +1.3226006553E-001 +1.7280751139E+002  +1.6719087458E-003 -1.0095356953E+002  +5.9470724762E-004 -5.2910065474E+000  +2.6007704568E-001 -1.5723177531E+002 
1761032.541 +1.2708880112E-001 +1.6990283431E+002  +4.7856525906E-004 +1.1330999556E+001  +7.5555387926E-004 -2.7760245294E+001  +2.1874436926E-001 -1.5773540758E+002 
1886177.722 +1.3021418720E-001 +1.6958348506E+002  +2.1952686139E-003 -6.7348454811E+001  +6.2381973243E-004 +6.6632367728E+001  +2.0685399175E-001 -1.6076426532E+002 
2011322.904 +1.3195377071E-001 +1.6772337612E+002  +1.2479815369E-003 +1.4577108760E+002  +6.9576511350E-004 +8.8174170647E+001  +2.0332236922E-001 -1.5613161793E+002 
2136468.085 +1.3344446639E-001 +1.6947187655E+002  +4.9146723964E-003 -1.7822984338E+002  +2.6837284443E-003 -9.6374605567E+001  +1.2419831865E-001 -1.5853726505E+002 
2261613.267 +1.3095334885E-001 +1.6352442062E+002  +5.6252498247E-003 -1.3128044880E+002  +1.4993523588E-003 -1.4188284646E+002  +1.8269677322E-001 +1.7740252482E+002 
2386758.448 +1.3832790656E-001 +1.6411640620E+002  +2.2943481466E-003 +8.0258913911E+001  +2.5348877588E-003 -9.0525561367E+001  +2.1487723741E-001 +1.6591568679E+002 
2511903.630 +1.3291804818E-001 +1.6278933480E+002  +6.2076009627E-003 +2.2392766281E+001  +2.6302587290E-003 -1.7105336389E+001  +2.4260859845E-001 +1.7111377783E+002 
2637048.811 +1.2194731343E-001 +1.6349963380E+002  +3.9534962149E-003 +1.5632205253E+002  +9.2474767519E-003 +9.8418396216E+001  +5.1660925747E-002 +1.2863210892E+002 
2762193.992 +1.1448098088E-001 +1.6150703325E+002  +1.4929132595E-002 -7.7409852216E+001  +8.3433408181E-003 -1.0794237800E+002  +4.6050580612E-001 -8.5908841194E+001 
2887339.174 +1.3174366729E-001 +1.6928964999E+002  +6.3879951374E-003 -9.0921216781E+001  +3.6070125491E-003 +1.2322681532E+002  +6.6334265900E-001 -7.3268142859E+001 
3012484.355 +8.3352961601E-002 -1.7883083340E+002  +2.4985936180E-002 -2.5791874748E+001  +2.2429256264E-002 -1.5394581315E+002  +6.8194798714E-001 -3.9337903259E+001 
3137629.537 +1.1314910700E-001 +1.7066502586E+002  +5.1347603537E-003 -1.6998989665E+002  +1.2076543221E-002 -7.4416764022E+001  +5.8898838805E-001 -1.0464118257E+002 
3262774.718 +1.2491922495E-001 +1.7099533372E+002  +6.8382438543E-003 -5.8611992499E+001  +5.5753753559E-003 -1.3243896857E+002  +5.2466613136E-001 -9.3455220172E+001 
3387919.900 +1.1236003234E-001 +1.5851140687E+002  +1.9457969250E-002 +8.4468703285E+001  +1.7719568949E-002 -5.4673027160E+001  +2.7801938466E-001 -1.8065699815E+001 
3513065.081 +1.3598781152E-001 +1.6322191355E+002  +6.7695569347E-004 +8.0587148065E+001  +8.8675633571E-003 -1.0718790328E+002  +1.1217833133E-001 +7.6719263899E+001 
3638210.263 +1.8018247562E-001 +1.4498281658E+002  +7.4514293042E-003 +6.8823041949E+001  +7.1369651817E-003 +8.9240668087E-001  +5.3078772171E-001 +1.0338560103E+002 
3763355.444 +1.7983717992E-001 +1.4612800240E+002  +1.1488277174E-002 +3.2342721853E+001  +8.1451447730E-003 -5.1222783077E+001  +2.4029363824E-001 +8.8671733986E+001 
3888500.626 +1.5500576169E-001 +1.5144653547E+002  +8.6507886882E-003 +1.4423158830E+002  +4.5652596728E-003 +9.8230082324E+001  +6.0525919467E-002 +1.2664105532E+002 
4013645.807 +1.8570810799E-001 +1.4433985254E+002  +1.7439604571E-002 -4.6069668845E+001  +7.8183626659E-003 -7.0816080345E+000  +4.7118180921E-001 +1.1794985745E+002 
4138790.989 +2.0822083609E-001 +1.4485118667E+002  +1.5292597592E-002 -7.8448130662E+001  +7.1664081469E-004 -8.7359756470E+001  +2.7888572004E-001 +1.4243864964E+002 
4263936.170 +1.6665067442E-001 +1.2585529513E+002  +3.3408996158E-002 +1.0128885321E+002  +1.2603481643E-002 +5.2217561590E+001  +4.6821438209E-001 +5.0604186740E+001 
4389081.352 +2.3849371904E-001 +1.4431198034E+002  +1.2421452175E-002 -9.6066208450E+001  +2.2587628399E-002 +9.3782339555E+001  +7.4615289295E-001 +7.1669097206E+001 
4514226.533 +2.0059761398E-001 +1.3454608545E+002  +1.5061277964E-002 +3.0529629098E+001  +1.1092820255E-002 +1.0250893006E+002  +6.9572911025E-001 +7.9317086915E+001 
4639371.715 +3.1957381932E-001 +1.2153661221E+002  +2.0114722929E-002 -1.8586491571E+001  +5.9712722174E-002 -1.7341386045E+002  +1.5975784710E+000 +1.0313068359E+002 
4764516.896 +3.7174841271E-001 +1.2293666567E+002  +1.8855203919E-002 -3.2113329725E+001  +7.7173274800E-003 -1.3282803927E+001  +2.5539166122E+000 -1.7022833886E+002 
4889662.078 +4.6481766345E-001 +1.0977121053E+002  +1.0829488496E-001 +9.8722616752E+001  +5.6984536349E-002 +5.8980694382E+001  +3.8015961167E+000 -1.7744978769E+002 
5014807.259 +5.0693678323E-001 +1.1519778707E+002  +1.4364786703E-002 +1.5862295033E+001  +1.0145787211E-001 +1.4519951151E+002  +3.8604163768E+000 +9.6623150324E+001 
5139952.441 +4.3127952576E-001 +1.3523189026E+002  +2.0630376511E-002 +5.9283326446E+001  +9.3293890240E-003 -1.7611079689E+002  +1.3981149657E+000 +1.0166237227E+002 
5265097.622 +3.5060990001E-001 +1.2654098359E+002  +2.7789165122E-002 -8.0321478796E+001  +1.3569933920E-002 -2.6569357919E+001  +1.4209133748E+000 +7.5392560157E+001 
5390242.804 +3.9387189341E-001 +1.2309696145E+002  +3.3196949313E-002 +1.2121433498E+002  +1.1672050810E-002 +1.7076925762E+002  +2.0188765725E+000 +7.2767309185E+001 
5515387.985 +4.6734641913E-001 +1.3081764974E+002  +4.2260680737E-002 +1.2113079473E+002  +1.4978479558E-002 +2.9479078167E+001  +2.1148728891E+000 +6.5495436820E+001 
5640533.166 +4.3935163668E-001 +1.2463546202E+002  +1.4620419774E-002 -1.6791083309E+002  +5.4328651104E-002 +1.5890772501E+002  +2.5684929408E+000 +6.8820455129E+001 
5765678.348 +4.8989535747E-001 +1.2123294692E+002  +2.3665671638E-002 +1.5528655787E+001  +3.9515004201E-002 +8.1510424082E+001  +2.3198210521E+000 +5.1365615564E+001 
5890823.529 +6.9588749922E-001 +1.2365252685E+002  +5.7015500502E-003 +2.6838539565E+001  +1.8560154191E-002 +1.0619352787E+002  +1.2522086718E+000 +8.3180662857E+001 
6015968.711 +5.9173708375E-001 +1.1407548934E+002  +1.2881106483E-002 -1.3693533445E+002  +3.8473349900E-003 +1.3744468189E+002  +1.9785519248E+000 +3.1546030885E+001 
6141113.892 +7.5304117879E-001 +1.0906631608E+002  +1.2393249396E-002 -1.1084020178E+002  +1.7292775396E-002 +5.4153659204E+001  +2.1788007802E+000 +2.6622685044E+001 
6266259.074 +1.0090627262E+000 +9.7866033083E+001  +2.1749038815E-002 +6.0613198512E+001  +5.2264008225E-002 +4.5406924268E+001  +2.1837007381E+000 +2.7992010521E+001 
6391404.255 +1.2581316062E+000 +1.0143270320E+002  +1.2643570394E-002 +9.4158935403E+001  +1.1995699848E-002 -5.8517428077E+000  +1.3161894562E+000 -1.2529994317E-001 
6516549.437 +1.1903973985E+000 +1.0418277974E+002  +3.0020467229E-002 +9.9075004656E+001  +3.7719349260E-002 +1.3392830130E+002  +1.6581669933E+000 -1.6040837330E+000 
6641694.618 +1.8476383921E+000 +7.6936621820E+001  +4.6967284573E-002 +5.9721420658E+001  +4.8094168884E-002 +9.1741949192E+001  +1.6569590943E+000 +2.6364260797E+000 
6766839.800 +2.2658157979E+000 +4.8850257670E+001  +3.6641211536E-002 +8.9736104588E+001  +4.1334427990E-002 +1.2969040109E+002  +1.1913364021E+000 -9.5557335883E+000 
6891984.981 +1.7254500829E+000 +3.2572979760E+001  +2.8043412717E-002 +6.4972491852E+001  +2.5576119760E-002 +8.7901496151E+001  +1.2542071002E+000 -8.4530818099E+000 
7017130.163 +2.0426821837E+000 +1.7208616637E+001  +2.8808436866E-002 -1.2339736069E+002  +3.4139845662E-002 +1.5502731148E+002  +1.4888254550E+000 -1.1350815499E+001 
7142275.344 +1.8427420176E+000 +6.9858292563E+000  +1.5693533681E-002 +7.8430273207E+001  +7.8735629839E-003 +8.2498221860E+001  +1.4013063144E+000 -5.3158670398E+000 
7267420.526 +1.2908633562E+000 +4.2107774598E+000  +2.2206273959E-003 -2.3886610564E+001  +9.5022461618E-003 +1.5798763644E+002  +1.2515862596E+000 -9.4046346534E+000 
7392565.707 +1.3458511571E+000 +6.5191458242E-001  +1.3547976270E-002 +1.4222527058E+002  +7.5159233253E-003 +1.3837508325E+002  +1.3506358914E+000 -2.1003829608E+000 
7517710.889 +1.1186210715E+000 -1.0386105768E+000  +9.5368008455E-003 -1.6484891099E+002  +9.8223277511E-003 +1.2884150298E+002  +1.3293101122E+000 -8.5634370950E+000 
7642856.070 +9.3138849946E-001 +9.6817884338E+000  +2.3977503625E-003 +1.1010633234E+002  +2.1227231081E-003 -9.9643008392E+001  +1.2388834931E+000 -4.1661140085E+000 
7768001.252 +8.8107161365E-001 +4.0988944117E+000  +2.9639587856E-003 +3.0860303390E+001  +7.5070466158E-003 +5.9344638070E+001  +9.1526365869E-001 -1.7637668268E+000 
7893146.433 +9.3808679116E-001 +2.7152005771E-001  +5.7258421824E-003 +6.8447625367E+001  +6.8278421008E-003 +5.2683382604E+001  +9.8232223555E-001 -3.5648118797E+000 
8018291.615 +7.8548946202E-001 +7.2968407471E+000  +2.9000665384E-003 +9.8200123543E+001  +7.3770634144E-003 -1.7771450446E+002  +7.8130303889E-001 +5.5453183015E+000 
8143436.796 +7.4179367037E-001 +1.0639248440E+001  +3.8814838257E-003 +1.5782910733E+002  +1.5699161816E-003 -1.5069949308E+002  +7.6294215544E-001 -3.7296493798E+000 
8268581.977 +7.6134432003E-001 +1.2641329570E+001  +6.8448525628E-003 +5.1331395962E+001  +4.1202461022E-003 +1.5017279794E+002  +7.2909435502E-001 -2.3567375892E-001 
8393727.159 +7.0741094471E-001 +1.0643721165E+001  +4.2336203519E-003 +5.2262849262E+001  +4.3278128046E-003 +1.3086606365E+002  +7.4272582179E-001 -3.9058830225E-001 
8518872.340 +6.0926009478E-001 +5.1674796171E+000  +8.1013067560E-003 +8.9408273556E+001  +1.4619895328E-003 -1.5188018687E+002  +7.2762394426E-001 -3.3572951807E+000 
8644017.522 +6.2866139240E-001 +1.0597988463E+001  +4.4267412787E-003 +5.9940932834E+001  +3.4784006967E-003 +9.5130937678E+001  +7.3250585517E-001 -3.5326656312E+000 
8769162.703 +6.9500435966E-001 +9.5244148640E+000  +5.8406801249E-003 +8.8287192312E+001  +6.2961012481E-003 +8.3551563132E+001  +6.4413588710E-001 +2.4310095307E+000 
8894307.885 +5.9992933742E-001 +1.0116066745E+001  +5.2005828804E-003 +1.0831762142E+002  +2.9095037308E-003 +5.3606949146E+001  +6.4221007866E-001 +2.1895165741E+000 
9019453.066 +6.4618293136E-001 +3.4770427069E+000  +5.1853979586E-003 +7.0769589345E+001  +5.5185308106E-003 +9.1600721497E+001  +6.1610101965E-001 +1.9820018668E+000 
9144598.248 +6.1554881797E-001 +1.0753607530E+001  +1.3021352297E-003 +9.8426424094E+001  +5.3855421320E-003 +2.8158256145E+001  +6.2596265434E-001 -4.3735323021E+000 
9269743.429 +5.6719380283E-001 +1.2487323718E+000  +1.6467638185E-003 -1.5849672131E+002  +6.6413851135E-003 +7.6002429959E+001  +6.2516068487E-001 -1.5014002192E+000 
9394888.611 +5.1584218469E-001 +9.1477154384E+000  +4.0742630765E-003 +8.8819405104E+001  +5.6135893488E-003 +9.6303901204E+001  +5.9354698894E-001 +5.5052249485E+000 
9520033.792 +5.9344899646E-001 +2.3548479147E+000  +1.7564194778E-003 +4.8536126246E+001  +1.9071443018E-003 +9.3930685889E+001  +5.8981729491E-001 -6.4015399522E+000 
9645178.974 +5.7060948745E-001 -4.7762304702E-001  +5.1992198881E-003 +7.9487709356E+001  +4.1255907575E-003 +9.0733849842E+001  +5.4802299211E-001 -3.7139450471E+000 
9770324.155 +5.4214538298E-001 +4.6314575411E+000  +5.1117662992E-003 +9.6467552825E+001  +7.6098845035E-003 +8.8469176096E+001  +5.6253972318E-001 -3.2497078240E+000 
9895469.337 +5.3094834568E-001 +2.2295032675E+000  +2.3206125743E-003 +8.8043545344E+001  +3.2730754024E-003 +1.3355407842E+002  +6.1277034345E-001 -5.5730532056E+000 
10020614.518 +5.4026526347E-001 +3.0103600514E+000  +4.5118627417E-003 +8.2946104236E+001  +3.1208581065E-003 +1.4567303652E+002  +6.2254778219E-001 -5.3379153622E+000 
10145759.700 +5.4269809809E-001 +1.4052162026E+000  +5.7422772229E-003 +1.1058044706E+002  +6.9724155349E-003 +1.0546194810E+002  +5.7865869477E-001 -5.4352682744E+000 
10270904.881 +5.4900608839E-001 +4.2424180608E+000  +4.4115991780E-003 +1.0190025581E+002  +2.2837786527E-003 +8.9512789660E+001  +6.3182611504E-001 +9.6299680437E-001 
10396050.063 +5.5087136507E-001 +2.6513963516E+000  +3.8037043821E-003 +7.4157762826E+001  +5.7864523239E-003 +1.0781543347E+002  +5.9080836506E-001 -2.3387508707E+000 
10521195.244 +5.6589063399E-001 +6.5596562761E+000  +8.2101225825E-003 +7.9533121364E+001  +5.5465114705E-003 +1.2161558338E+002  +5.9464809912E-001 -1.2671151802E+000 
10646340.426 +5.6961121642E-001 +3.6341043078E+000  +4.6101359783E-003 +7.7402627890E+001  +2.2604849669E-003 +9.8150839345E+001  +5.8224230990E-001 +1.7042520345E+000 
10771485.607 +5.8821081980E-001 +8.5872507125E+000  +2.9818029319E-003 +6.8451571456E+001  +6.7948774407E-003 +7.5885372272E+001  +6.2959624676E-001 +2.6759553502E+000 
10896630.788 +5.8154245043E-001 +6.2529659557E+000  +3.4821288233E-003 +7.9391572305E+001  +5.2541832258E-003 +8.0723910466E+001  +6.0605545108E-001 +3.6397285976E+000 
11021775.970 +5.8608368966E-001 +7.7484602747E+000  +4.6705578991E-003 +9.7201804208E+001  +4.3732637893E-003 +9.4828504324E+001  +6.0245284688E-001 +1.3785730634E+000 
11146921.151 +6.2668810397E-001 +7.1491682847E+000  +5.8726975004E-003 +8.3172498064E+001  +2.7578045144E-003 +9.1917164933E+001  +6.0765526233E-001 +1.0860995537E+000 
11272066.333 +5.8849170930E-001 +5.2655476650E+000  +4.9030139245E-003 +9.9857949572E+001  +6.2977468127E-003 +1.0015979766E+002  +6.2159794988E-001 +1.8040436950E+000 
11397211.514 +6.0075178125E-001 +5.8548332055E+000  +5.1651109151E-003 +1.1625446786E+002  +5.6504683411E-003 +1.0255054011E+002  +6.5649166215E-001 +2.6879789923E+000 
11522356.696 +6.4857490403E-001 +6.5753739271E+000  +6.5248936190E-003 +7.3599223771E+001  +4.1040404145E-003 +1.1511211261E+002  +6.6497207174E-001 +3.8667113598E+000 
11647501.877 +6.4155703009E-001 +4.7785533360E+000  +4.4897401170E-003 +1.1485472599E+002  +5.1627264726E-003 +9.5301843741E+001  +6.3725240426E-001 -5.2640962645E-001 
11772647.059 +6.5782243239E-001 +5.7945696631E+000  +6.7550834901E-003 +9.7067495495E+001  +5.3521339765E-003 +1.0680306476E+002  +6.4185785780E-001 +2.0986449931E+000 
11897792.240 +6.8347116582E-001 +4.6318273020E+000  +6.3810990303E-003 +8.8059328079E+001  +4.0920097851E-003 +1.0299537404E+002  +6.8900770834E-001 +1.2856783569E+000 
12022937.422 +7.1478591913E-001 +6.3326932351E+000  +6.8770336067E-003 +7.6607941619E+001  +7.5354672107E-003 +8.7245585439E+001  +6.8418128050E-001 +2.1650565826E+000 
12148082.603 +7.3182863185E-001 +6.2437160362E+000  +5.3143981885E-003 +9.0035647382E+001  +6.9391211897E-003 +7.9640822514E+001  +7.0778831696E-001 -3.5308290940E-001 
12273227.785 +6.9911887784E-001 +2.9851102984E+000  +5.4312852614E-003 +7.7618104571E+001  +6.2714068403E-003 +9.3394981594E+001  +7.0675441299E-001 +1.0909710301E+000 
12398372.966 +7.2906894399E-001 +3.0709399645E+000  +5.7417317901E-003 +6.6531658588E+001  +5.3038089384E-003 +1.1102730553E+002  +7.0744457206E-001 -3.1589484248E-001 
12523518.148 +7.1300699495E-001 +5.8013747355E+000  +5.1666440996E-003 +9.2260846067E+001  +6.6377557145E-003 +9.6760742222E+001  +7.4708183489E-001 +5.2954063439E-001 
12648663.329 +7.4862521148E-001 +2.4332953335E+000  +7.0956314433E-003 +9.9014829825E+001  +6.3074314426E-003 +1.0385939930E+002  +7.5145496415E-001 -6.6503709578E-001 
12773808.511 +7.7494268300E-001 +1.9304373947E+000  +6.9464732805E-003 +8.7697874361E+001  +6.1256640232E-003 +1.0061208956E+002  +7.7825978008E-001 -2.6876284942E+000 
12898953.692 +7.7017534213E-001 +3.3390565588E+000  +5.8113237285E-003 +6.9630364088E+001  +6.7717558784E-003 +1.0353943507E+002  +7.8490469509E-001 -1.3428575210E+000 
13024098.874 +7.8699031278E-001 +1.6550971119E+000  +7.2532565867E-003 +1.0271601667E+002  +6.4928278149E-003 +7.9832023488E+001  +8.0103888689E-001 -9.5260331546E-001 
13149244.055 +7.9800270195E-001 +1.2179368597E+000  +6.8546918425E-003 +8.9419450627E+001  +5.2922924462E-003 +1.0750882425E+002  +7.9106675210E-001 -6.8148040439E-001 
13274389.237 +8.2069335212E-001 -1.1480011652E-001  +7.3580748207E-003 +7.7823562016E+001  +5.3074449571E-003 +1.0338737426E+002  +8.3474698924E-001 -3.4013661718E+000 
13399534.418 +8.5010695961E-001 -1.0908996945E+000  +7.3516835111E-003 +9.4969026821E+001  +7.4948878683E-003 +9.3560038627E+001  +8.3015151598E-001 -3.1593444274E+000 
13524679.599 +8.6605452179E-001 -2.2567884832E+000  +8.1010131010E-003 +9.7071578245E+001  +6.0630016447E-003 +9.9074287656E+001  +8.6169026595E-001 -2.5940073515E+000 
13649824.781 +8.7129131589E-001 -1.7512458138E+000  +7.8954019633E-003 +9.7057516764E+001  +6.6031593613E-003 +1.0049550660E+002  +8.8498289312E-001 -2.9881129732E+000 
13774969.962 +8.9024556768E-001 -2.1179481097E+000  +6.8793179547E-003 +1.0493632421E+002  +8.2283569853E-003 +7.9141337526E+001  +8.9132765637E-001 -2.1206454262E+000 
13900115.144 +8.8435722303E-001 -4.2342866509E+000  +7.2879012315E-003 +8.8262256531E+001  +3.3809303198E-003 +9.8841598305E+001  +9.3656301480E-001 -3.3824658681E+000 
14025260.325 +9.1880922612E-001 -4.3501975377E+000  +5.9625306580E-003 +9.6563188566E+001  +6.7156869907E-003 +9.5126786249E+001  +9.2675431873E-001 -2.9532996944E+000 
14150405.507 +9.5828204924E-001 -4.9511412270E+000  +7.4965986997E-003 +9.5411559128E+001  +7.1543432418E-003 +9.1153250316E+001  +9.4066121209E-001 -4.1011983258E+000 
14275550.688 +9.3563083927E-001 -5.5340367294E+000  +7.9180801869E-003 +8.8856606296E+001  +7.7551261753E-003 +8.1864074609E+001  +9.8554518668E-001 -3.2003085762E+000 
14400695.870 +9.8808978986E-001 -4.4781083399E+000  +7.5418827966E-003 +7.8683012230E+001  +5.8190252048E-003 +9.1045525936E+001  +9.9068450583E-001 -4.1269779809E+000 
