!  2-Port S-parameters saved by WinCal
! VAR MeasName=S-Parameters (CALIBRATED_DATA) read from VNA (P5004A)
! VAR MeasDate=28/08/2024 10:40:31
! VAR NAME=S2_r5c9_formed_9k-100M_1
! VAR FILENAME=S2_r5c9_formed_9k-100M_1.S2P
! VAR DATE=28/08/2024 10:40:31
! VAR PHYS_PORTS=1,2
! VAR ObjTypeName=DATASET
! VAR IndexType=Frequency
!
# Hz S MA R 50
9000.000 +8.0069908623E-002 -1.6247734701E+002  +2.0737170003E-002 +1.7661783123E+002  +1.5427971874E-002 +1.7437286604E+002  +3.6073034458E-001 -1.2634557493E+002 
134145.181 +1.1111483234E-001 +1.6969247033E+002  +1.5120347326E-004 +1.5197129502E+002  +5.4313117437E-004 -6.2506711506E+001  +2.4375890429E-001 -1.7168213713E+002 
259290.363 +1.1080894069E-001 +1.6948767263E+002  +4.7944387645E-004 -1.1905146510E+002  +8.5023476985E-004 -1.3635017949E+002  +2.4415209492E-001 -1.7066738934E+002 
384435.544 +1.1413313445E-001 +1.6999483893E+002  +3.9458077049E-004 +2.1447344671E+001  +1.0035337178E-003 +7.8286090680E+001  +2.4020042210E-001 -1.6706275613E+002 
509580.726 +1.1483518357E-001 +1.7059037105E+002  +1.1960826754E-003 +4.5473769642E+001  +1.2508117613E-003 -1.5570948272E+002  +2.7058948298E-001 -1.6609552474E+002 
634725.907 +1.1489923676E-001 +1.7242144068E+002  +1.8319211528E-004 +1.5281509053E+002  +4.3354262162E-004 +4.2387091744E+001  +2.5643145321E-001 -1.6649064212E+002 
759871.089 +1.2057869878E-001 +1.7095407112E+002  +5.2064210768E-004 +1.2759471227E+002  +4.6677938281E-004 -1.2162658018E+002  +2.5861096428E-001 -1.6552877856E+002 
885016.270 +1.2049502998E-001 +1.6924787286E+002  +6.6547025123E-004 +7.5924379671E+001  +3.6294557090E-004 +2.7878540429E+001  +2.4932688429E-001 -1.6553856466E+002 
1010161.452 +1.1970612595E-001 +1.6984783641E+002  +3.0397348389E-004 +1.5230533583E+002  +3.0488488397E-004 -1.5937366086E+001  +2.0776731482E-001 -1.6643338551E+002 
1135306.633 +1.1785480819E-001 +1.6982565127E+002  +5.5796997539E-004 -5.0993128553E+001  +6.5391455261E-004 -1.5623572570E+002  +1.9578425377E-001 -1.6689910023E+002 
1260451.815 +1.2043301739E-001 +1.7225999248E+002  +1.5792667250E-003 -9.1726988629E+000  +3.7732569276E-004 +1.5901316454E+002  +2.4330932165E-001 -1.5911974190E+002 
1385596.996 +1.2534510174E-001 +1.7119498061E+002  +8.6880949660E-004 -1.7551875213E+002  +9.8148616250E-004 +1.5872213620E+002  +2.7162400520E-001 -1.5946451298E+002 
1510742.178 +1.2825108607E-001 +1.7202164689E+002  +5.0520369560E-004 +1.2355218416E+002  +1.0913643138E-003 -7.1464241002E+000  +2.5928787165E-001 -1.5629220039E+002 
1635887.359 +1.2770169913E-001 +1.7065400271E+002  +8.8692748555E-004 +7.6405572773E+001  +4.2285844329E-004 -1.3531057066E+002  +2.2610891329E-001 -1.5753596276E+002 
1761032.541 +1.2828437530E-001 +1.7020762679E+002  +1.1497619384E-003 +1.0702866873E+002  +1.0886021733E-003 -1.5538601522E+002  +2.1342269556E-001 -1.6299992980E+002 
1886177.722 +1.2911014337E-001 +1.6921836335E+002  +3.0212395289E-003 +1.4689142431E+001  +2.2100670049E-003 +1.4614471116E+001  +2.0459775132E-001 -1.6432496582E+002 
2011322.904 +1.2783549507E-001 +1.6734544243E+002  +1.5569101428E-003 -1.4004531225E+002  +2.5062367404E-003 -1.1136027856E+002  +2.0800839893E-001 -1.6089002020E+002 
2136468.085 +1.3244896092E-001 +1.6717412034E+002  +1.2911239838E-003 +7.6083864986E+001  +8.2521807904E-004 +2.2400045638E+001  +1.5429475352E-001 -1.6582885403E+002 
2261613.267 +1.3338745557E-001 +1.6640421832E+002  +1.5700607374E-003 +1.1134475752E+002  +1.3297792666E-003 +3.7323851910E+001  +1.3408411557E-001 -1.6693794170E+002 
2386758.448 +1.3822936105E-001 +1.6404816299E+002  +1.1631861355E-003 +1.1875677611E+002  +2.0737257456E-003 -3.8769773486E+001  +2.3430992419E-001 +1.7906921577E+002 
2511903.630 +1.3168432749E-001 +1.6596230356E+002  +1.7591345989E-003 +1.3518601748E+002  +2.0285299122E-003 -5.5670867556E+001  +2.0640453126E-001 +1.6943955126E+002 
2637048.811 +1.1138796855E-001 +1.5695964715E+002  +2.4347835364E-002 +1.0356877689E+001  +2.2500547494E-002 +1.2539620609E+002  +3.2131568534E-001 -8.7097756777E+000 
2762193.992 +1.1249344620E-001 +1.7868395460E+002  +4.5269629498E-002 -3.8229254500E+001  +9.6517029811E-003 -1.4799794313E+002  +9.5562259993E-001 -5.6948864607E+001 
2887339.174 +1.3813222828E-001 +1.7764069167E+002  +1.6504323440E-002 -7.9376769338E+001  +4.3957313058E-003 -6.7034853656E+001  +5.8175648508E-001 -8.8564488139E+001 
3012484.355 +1.3080208240E-001 +1.7528344305E+002  +1.4438387839E-002 -1.1621271268E+002  +1.7379038019E-002 -1.2103487586E+002  +6.2915820753E-001 -8.7171663872E+001 
3137629.537 +1.1962500102E-001 +1.7798065622E+002  +5.0355358020E-003 +2.6651690678E+001  +1.0696607975E-002 -1.2544307002E+002  +2.6330393165E-001 -1.0917725697E+002 
3262774.718 +1.1774699973E-001 +1.5617492073E+002  +2.1107633991E-002 -3.0856392321E+001  +1.7563847063E-002 -5.1672666564E+001  +3.5242830570E-001 -5.9632678174E+001 
3387919.900 +1.3493624053E-001 +1.5148316886E+002  +1.9857429000E-002 +1.0323666512E+002  +1.5765972853E-002 -8.8193416101E+001  +3.2304236545E-001 +4.1387179709E+001 
3513065.081 +1.5435376655E-001 +1.5320819003E+002  +6.9330809269E-003 +1.0503654106E+002  +2.3781646658E-003 -5.6870656703E+001  +3.6402025265E-001 +1.3056271978E+002 
3638210.263 +1.6473111661E-001 +1.3705309146E+002  +1.0507596419E-002 +1.5431982571E+002  +1.1259442819E-002 +2.4301609858E+001  +2.3250133706E-001 +6.5571520322E+001 
3763355.444 +1.5966106506E-001 +1.5424594047E+002  +6.2497509050E-004 -7.5578386492E+001  +1.3913169445E-002 -3.5617329247E+001  +5.0400320097E-001 +1.2818082202E+002 
3888500.626 +1.6415213129E-001 +1.4311557253E+002  +4.0738033814E-002 +1.6269869752E+002  +3.9926397247E-002 +8.0272046292E+001  +1.4700862421E+000 +1.3492891268E+002 
4013645.807 +1.8814537827E-001 +1.5448923261E+002  +1.5350801357E-003 +6.6607956536E+001  +1.9587260397E-003 +7.3774487560E+001  +3.1532824599E-001 +1.4509531244E+002 
4138790.989 +1.8895321454E-001 +1.3418079155E+002  +8.3025916914E-003 +1.0664848710E+002  +1.8113933653E-002 +1.2032208808E+002  +4.0460569261E-001 +1.1301254870E+002 
4263936.170 +1.8853759465E-001 +1.4930235477E+002  +9.4536562797E-003 +9.9728404346E+001  +8.1647342831E-003 +4.3769186378E+001  +4.3682405141E-001 +1.2432154663E+002 
4389081.352 +2.2322773888E-001 +1.4747284562E+002  +1.4229110717E-002 +1.1592396646E+002  +1.2297810020E-002 +2.2717553773E+001  +7.0563894016E-001 +1.3346243042E+002 
4514226.533 +2.0128245823E-001 +1.3697756688E+002  +1.2392186848E-002 +1.3849537466E+002  +1.9080523380E-002 +4.8471298946E+001  +6.5964182797E-001 +1.3927119760E+002 
4639371.715 +2.7550424751E-001 +1.1856504472E+002  +2.2983098663E-002 -3.4017766904E+001  +7.3178089531E-002 +1.3836994028E+001  +1.1203724454E+000 +2.6485814566E+001 
4764516.896 +2.8752761550E-001 +1.1629655417E+002  +8.4784589870E-002 -2.5491379301E+001  +5.2743688678E-002 -3.7999295597E+001  +1.6754989689E+000 -7.4814602605E+001 
4889662.078 +4.5349906422E-001 +1.2748571144E+002  +6.2648991723E-002 -6.2418505742E+001  +2.3306710936E-002 -7.3023211990E+001  +3.7566320326E+000 -1.0571986094E+002 
5014807.259 +4.0615939891E-001 +1.0608805975E+002  +1.6063854261E-001 -1.7164408852E+001  +7.0805434506E-002 +1.7748841709E+001  +3.4483396100E+000 -6.8388500066E+001 
5139952.441 +3.5188202760E-001 +1.2023805287E+002  +6.7594441211E-002 +1.2910136990E+001  +6.4996245212E-002 +4.2542779636E+001  +2.9625353900E+000 +5.6725270117E+000 
5265097.622 +4.4911930671E-001 +1.3151554823E+002  +6.5094049602E-002 +1.6211243028E+002  +3.9551109476E-002 +1.3831230458E+002  +2.9643128968E+000 +1.3462694939E+002 
5390242.804 +3.9729783000E-001 +1.2319829094E+002  +7.0221698618E-002 +1.4707296391E+002  +3.8478589673E-002 +7.3435882575E+001  +2.7643895712E+000 +1.2900636528E+002 
5515387.985 +4.8103313439E-001 +1.2867708100E+002  +3.3257333698E-002 +1.1831443267E+002  +5.6803424996E-002 +1.2149558888E+002  +2.7196503009E+000 +1.3777978633E+002 
5640533.166 +4.4859758277E-001 +1.2635041500E+002  +2.9540845454E-002 +1.3636927342E+002  +4.2634146070E-002 +6.3729747572E+001  +2.3780687266E+000 +1.2091039926E+002 
5765678.348 +4.9421614151E-001 +1.1255118521E+002  +2.6013935492E-002 +1.3268112421E+002  +6.5971571211E-002 +6.1699370452E+001  +1.7975705301E+000 +8.8608226322E+001 
5890823.529 +5.4523763040E-001 +1.1707917588E+002  +6.7182825103E-002 +1.0652455833E+002  +3.2846416631E-002 +7.6658009630E+000  +3.2923168660E+000 +5.0042255258E+001 
6015968.711 +7.3336662712E-001 +1.1746684745E+002  +2.5994080343E-002 +1.0409695883E+002  +4.2098524628E-002 +9.9287428592E+001  +4.1979658213E+000 +4.2350954231E+001 
6141113.892 +7.1027705874E-001 +1.1832251076E+002  +4.6322875481E-002 +6.4928905284E+001  +4.3980336209E-002 +6.0505033665E+001  +2.8407762238E+000 +4.1611474060E+001 
6266259.074 +6.9414914395E-001 +1.0522310180E+002  +3.2705681518E-002 +6.1629006966E+001  +4.6135496529E-002 +2.4281921575E+001  +1.5033455824E+000 +3.5705017634E+001 
6391404.255 +1.1274904016E+000 +1.0131029008E+002  +2.2621975751E-002 +5.9780786366E+001  +1.8649254820E-002 +6.5559684152E+001  +1.6893709820E+000 +5.0102048241E+000 
6516549.437 +1.4002493625E+000 +9.0904927738E+001  +6.6424120181E-002 +7.9475023627E+001  +4.0041288847E-002 +1.4930234258E+001  +1.4709647347E+000 +1.4880599209E+001 
6641694.618 +1.1185339788E+000 +7.3965702483E+001  +2.7275454059E-002 +2.8950838843E+001  +5.0300257572E-002 -1.0984910989E+001  +1.0783796438E+000 +1.6217463786E+001 
6766839.800 +1.7352204153E+000 +5.5457326354E+001  +6.8741661317E-002 +3.4503029551E+001  +4.3330293843E-002 +1.9369916153E+001  +1.3517864449E+000 -1.9328247211E+000 
6891984.981 +2.6984151885E+000 +2.2618473185E+001  +4.6738483497E-002 -6.8895314826E+000  +4.8346630438E-002 +1.7340213079E+001  +1.1071447637E+000 -7.4016833180E+000 
7017130.163 +1.6797982617E+000 +2.1874133806E+001  +4.3304026000E-002 -1.0262309932E+001  +6.0319712044E-002 +3.3833599069E+000  +1.2974726245E+000 -6.3371817308E+000 
7142275.344 +1.9600137569E+000 +3.6147860511E+000  +2.7073252349E-002 +9.6937715787E+000  +4.0054806181E-002 +2.6288064226E+001  +1.0659479667E+000 -1.8954435649E+001 
7267420.526 +1.5091773299E+000 +5.5519501311E+000  +3.1996902486E-002 -9.9346071668E-001  +1.8987752023E-002 +1.0241154256E+001  +1.3257051654E+000 -9.9417890685E+000 
7392565.707 +1.3146406131E+000 +1.1420737362E+000  +2.1015918727E-002 +1.2040999012E+001  +2.4281132123E-002 +1.7679785826E+001  +1.2744613791E+000 -1.0326568969E+001 
7517710.889 +1.1699781986E+000 -3.8932871289E+000  +2.3432381539E-002 +7.4762702967E+000  +2.8255932137E-002 +1.2739252958E+001  +1.2247644872E+000 -5.3509781534E+000 
7642856.070 +1.0867482715E+000 +1.8541889079E+000  +2.6324306232E-002 +1.4058821192E+000  +1.9844444803E-002 +1.1761261425E+001  +9.8342759633E-001 -6.2859633098E+000 
7768001.252 +9.5668680231E-001 +5.8166749303E+000  +1.9427008796E-002 +1.7943924018E+001  +1.4813835623E-002 -1.2743055299E+000  +9.0425653069E-001 -3.2320517952E+000 
7893146.433 +9.3980554945E-001 +1.3704579961E+001  +1.2958226192E-002 +3.0061670928E+001  +2.3996336050E-002 +1.8541524919E+001  +9.4675012358E-001 +3.2642775432E+000 
8018291.615 +8.3558274156E-001 +5.2045321237E+000  +1.5228431256E-002 +3.4435304225E+001  +1.5337174523E-002 +3.2499657581E+001  +8.5467110332E-001 -3.0997061111E+000 
8143436.796 +6.9426408636E-001 +9.5792987871E+000  +1.7785199018E-002 -1.0648590551E+000  +1.5554501880E-002 +1.6191235905E+001  +7.8774337596E-001 -2.9264106512E+000 
8268581.977 +7.3151663430E-001 +8.4545658999E+000  +1.0353941983E-002 +2.7252398291E+000  +2.0883700398E-002 +1.1386615825E+001  +7.1090602368E-001 -2.7626462121E+000 
8393727.159 +6.7885304064E-001 +4.4683292954E+000  +1.3497131901E-002 +8.0791126103E+000  +1.7595595575E-002 +2.8526467527E+001  +6.9581136585E-001 +5.1142722890E+000 
8518872.340 +6.5055675525E-001 +1.1784322019E+001  +1.5339943304E-002 +1.5054152296E+001  +1.6523045106E-002 +1.8077077530E+001  +7.2628365812E-001 +3.4947041378E+000 
8644017.522 +6.4508662663E-001 +7.4959219717E+000  +1.5148217448E-002 +1.1043938490E+001  +1.4470556335E-002 +2.3317228457E+001  +6.3116104568E-001 +6.0901879643E-001 
8769162.703 +6.3243702357E-001 +7.7257302452E+000  +1.7310536085E-002 -5.4731605471E+000  +1.8101912751E-002 +2.3252325063E+001  +6.7468306354E-001 -6.2178068303E+000 
8894307.885 +6.2292659875E-001 +5.8551027078E+000  +1.3920816858E-002 +9.0428151311E+000  +1.6799095831E-002 +2.9337112770E+001  +6.5276983194E-001 +1.9879732137E+000 
9019453.066 +5.9615272010E-001 +4.9539200605E+000  +1.4825618887E-002 +2.1456041673E+001  +1.5827835729E-002 +2.2785003279E+001  +6.2628688929E-001 +3.2823508106E-001 
9144598.248 +4.8937171153E-001 +4.9664391821E+000  +1.6226996423E-002 +1.3919565208E+001  +1.3350979571E-002 +2.6154972503E+001  +5.9797880463E-001 -1.7221676227E+000 
9269743.429 +5.4387000256E-001 +1.4188676367E+001  +1.4930041842E-002 -8.8083119767E-001  +2.0582281923E-002 +2.5078551825E+001  +6.5177758821E-001 +2.6547761971E-001 
9394888.611 +5.1606738652E-001 +5.4110098988E+000  +1.4724446627E-002 +1.0136398889E+001  +1.5089476942E-002 +2.5598806786E+001  +5.9577657866E-001 -4.0389370741E-001 
9520033.792 +4.9279664650E-001 +3.0464635975E+000  +1.6765251752E-002 +8.2364784456E+000  +1.6737812735E-002 +1.3423520162E+001  +5.6225321517E-001 -3.1393959632E+000 
9645178.974 +5.2693741672E-001 +6.1358916829E+000  +1.3862312762E-002 -2.6482254800E-001  +1.5927163582E-002 +1.9338579083E+001  +5.5799129996E-001 -5.4418972194E+000 
9770324.155 +4.9377187450E-001 +1.2556453951E-001  +1.5690376341E-002 -2.6133162280E+000  +1.4493139103E-002 +4.8704460087E+001  +5.5653996990E-001 -4.6611917851E+000 
9895469.337 +5.0774972393E-001 +2.6508721471E+000  +1.7266920979E-002 +9.4122949636E+000  +1.3987517358E-002 +2.5183496193E+001  +5.7220865426E-001 -8.0524043884E+000 
10020614.518 +5.5179421553E-001 +2.0665106049E+000  +1.6869909885E-002 +7.4037282680E+000  +1.7057228665E-002 +3.0108887854E+001  +5.8060168450E-001 -3.3540921461E+000 
10145759.700 +5.2371933083E-001 +4.8991670768E+000  +1.8210669421E-002 +1.2607203440E+001  +1.8180414749E-002 +2.4603957057E+001  +5.5381320856E-001 -2.8810217878E+000 
10270904.881 +5.1528891443E-001 +7.2765932869E+000  +1.4799800453E-002 +9.5578675955E+000  +1.4516365760E-002 +2.0633844225E+001  +6.1262630112E-001 -1.7529093585E+000 
10396050.063 +5.5039633037E-001 +6.9712466086E+000  +1.4861440327E-002 +8.8427811234E+000  +1.4547920763E-002 +3.1754024035E+001  +5.8343376082E-001 -4.3893035438E-001 
10521195.244 +5.4953127406E-001 +4.0660401909E+000  +1.5575741062E-002 +1.1477241252E+001  +1.9095050325E-002 +3.5331754055E+001  +5.7729717868E-001 +1.6794393944E+000 
10646340.426 +5.6764094247E-001 +9.9311770211E+000  +1.6962301205E-002 +1.6867768793E+001  +1.5772328104E-002 +2.7877808597E+001  +5.5656309590E-001 +2.2543570021E-001 
10771485.607 +5.3955625957E-001 +8.0237059324E+000  +1.6296017629E-002 +2.4687316443E+001  +1.7954751214E-002 +2.5831994114E+001  +5.4441657335E-001 -1.3201637437E+000 
10896630.788 +5.8373329797E-001 +7.0765351764E+000  +1.6320309776E-002 +1.6539652868E+001  +1.6300190848E-002 +3.1977188400E+001  +6.1339470468E-001 -2.0192774332E+000 
11021775.970 +5.8307986187E-001 +6.3707045414E+000  +1.7090008447E-002 +1.3688972793E+001  +1.6364389245E-002 +2.8999077438E+001  +6.0547379218E-001 +3.2842353256E+000 
11146921.151 +5.5711342804E-001 +9.9585149519E+000  +1.7682984146E-002 +1.7352697549E+001  +1.9239002011E-002 +2.6631071728E+001  +5.9860012182E-001 +7.4085526172E-001 
11272066.333 +6.1077042848E-001 +7.7413709402E+000  +1.7198976715E-002 +8.9476487245E+000  +1.5977997073E-002 +3.7162501996E+001  +6.0182013496E-001 -8.0977395091E-001 
11397211.514 +5.7918853857E-001 +5.2248716246E+000  +1.8316726055E-002 +2.0134617382E+001  +1.8259903474E-002 +2.7165884299E+001  +6.2692643231E-001 +8.6411222185E-001 
11522356.696 +6.1405619120E-001 +9.5168846163E+000  +1.8189877372E-002 +1.6413874389E+001  +1.6471657588E-002 +2.7258826298E+001  +6.3115639037E-001 +8.0729625171E-001 
11647501.877 +6.0284778316E-001 +5.2969701988E+000  +1.6811804278E-002 +1.1818041646E+001  +1.8982974150E-002 +3.1480720027E+001  +6.4461232982E-001 +2.9418360487E+000 
11772647.059 +6.1616246974E-001 +6.7275206926E+000  +1.8100074993E-002 +1.2446671186E+001  +1.8168606700E-002 +2.7336951668E+001  +6.4044419233E-001 +2.4320629153E+000 
11897792.240 +6.5466166804E-001 +7.0034069393E+000  +1.5116307246E-002 +2.2114610843E+001  +1.8241968483E-002 +3.0115786591E+001  +6.5588155870E-001 +3.2724917566E+000 
12022937.422 +6.5388015172E-001 +5.0449391367E+000  +1.7213147351E-002 +2.2439877374E+001  +1.7532896115E-002 +2.4158154210E+001  +6.6279704120E-001 +4.3339795556E-001 
12148082.603 +6.6424767942E-001 +6.0896645835E+000  +1.8547118582E-002 +2.0593050764E+001  +1.9967480990E-002 +2.7941890060E+001  +6.7282703864E-001 +1.0009638481E+000 
12273227.785 +6.6892007396E-001 +2.1745251609E+000  +1.8220635135E-002 +2.0189443441E+001  +2.0311799389E-002 +3.2799541087E+001  +7.1666369664E-001 -2.1176763966E+000 
12398372.966 +6.7264294810E-001 +3.0667982028E+000  +1.8701128491E-002 +1.4177146876E+001  +1.8172133167E-002 +2.6505513171E+001  +6.9035521333E-001 -1.1496594966E+000 
12523518.148 +7.4298037641E-001 +2.0608234638E+000  +2.0120481410E-002 +1.8688536475E+001  +2.0382144036E-002 +2.5395860774E+001  +7.2738766014E-001 -2.3868341825E-001 
12648663.329 +7.2865453972E-001 +3.4081191283E+000  +1.8853359607E-002 +2.2336364698E+001  +1.8401011608E-002 +2.6465661692E+001  +7.4249731990E-001 -1.5690789873E+000 
12773808.511 +7.5926832564E-001 +1.8230593744E+000  +1.7422386636E-002 +1.7671657101E+001  +1.9816703068E-002 +2.4216894242E+001  +7.7599403923E-001 +9.6659765630E-001 
12898953.692 +7.5538416086E-001 -2.8175121627E-001  +1.9971805016E-002 +1.9301344682E+001  +2.0256450299E-002 +2.2428499443E+001  +7.6330927190E-001 +3.4304196365E-001 
13024098.874 +7.9216657305E-001 +1.3659543459E+000  +2.1495285722E-002 +2.0821064427E+001  +1.8217974847E-002 +1.5504473743E+001  +7.8142341512E-001 -1.6006241594E+000 
13149244.055 +7.9848410872E-001 -9.5539269289E-001  +2.0665106480E-002 +1.8887382629E+001  +1.9509483791E-002 +2.1396339314E+001  +8.0524609358E-001 -8.4541753378E-001 
13274389.237 +7.9406049697E-001 -2.6867834893E-001  +2.0125322925E-002 +1.7733508959E+001  +2.0180200663E-002 +2.7723707119E+001  +8.2261653009E-001 -2.4586868698E+000 
13399534.418 +8.2005322839E-001 -2.1641600344E-001  +2.1233378074E-002 +2.0923846839E+001  +1.9228005962E-002 +2.8817279905E+001  +8.3222259820E-001 -1.1677771673E-002 
13524679.599 +8.3505526584E-001 +8.2623489290E-002  +1.7827541346E-002 +2.0497646200E+001  +2.2657165886E-002 +2.3070966707E+001  +8.6221115181E-001 -7.8299458772E-001 
13649824.781 +8.2267763064E-001 -3.0769688390E+000  +2.1309335717E-002 +2.3595168424E+001  +2.0261067027E-002 +2.6130891913E+001  +8.7925577124E-001 -1.9071179197E+000 
13774969.962 +8.9293297430E-001 -2.3416200532E+000  +2.1335403920E-002 +2.1241118102E+001  +2.1086042209E-002 +2.4282357545E+001  +8.7498986924E-001 -2.7182095325E+000 
13900115.144 +8.8495087879E-001 -3.7329355059E+000  +2.2398267262E-002 +1.8965185000E+001  +2.1375493893E-002 +1.7231405186E+001  +8.7260062540E-001 -4.5920665782E+000 
14025260.325 +8.8021829281E-001 -3.3548808111E+000  +2.1765025375E-002 +1.5719571486E+001  +2.0681938638E-002 +2.3729717796E+001  +9.0306860258E-001 -4.0267452440E+000 
14150405.507 +9.0444449844E-001 -4.0337679052E+000  +2.1106707102E-002 +2.0077858556E+001  +1.9868709573E-002 +2.4684302393E+001  +9.2798441112E-001 -3.3887996716E+000 
14275550.688 +9.4314690195E-001 -5.6737889821E+000  +2.1890002716E-002 +2.3785035841E+001  +2.0920225362E-002 +1.9107113313E+001  +9.6243097898E-001 -4.5685785704E+000 
14400695.870 +9.4245419759E-001 -5.1489638996E+000  +2.1509297725E-002 +2.1506214430E+001  +2.2004837625E-002 +2.1331047042E+001  +9.7515076926E-001 -5.3660076764E+000 
