!  2-Port S-parameters saved by WinCal
! VAR MeasName=S-Parameters (CALIBRATED_DATA) read from VNA (P5004A)
! VAR MeasDate=28/08/2024 16:25:34
! VAR NAME=S2_r8c9_SET1_9k-100M_1
! VAR FILENAME=S2_r8c9_SET1_9k-100M_1.S2P
! VAR DATE=28/08/2024 16:25:34
! VAR PHYS_PORTS=1,2
! VAR ObjTypeName=DATASET
! VAR IndexType=Frequency
!
# Hz S MA R 50
9000.000 +8.6136663350E-002 -1.7186868268E+002  +1.0198448871E-002 -1.4696597885E+002  +1.2881940012E-003 -7.4657452229E+001  +2.0396599387E-001 -1.3591933097E+002 
134145.181 +1.1137224829E-001 +1.6976730279E+002  +5.6434949313E-004 +9.3732045159E+001  +5.1637155280E-004 +8.1334365234E+001  +2.4214993027E-001 -1.6988635540E+002 
259290.363 +1.1167823122E-001 +1.6989362527E+002  +1.8619655887E-004 -1.4111742392E+002  +1.2521138868E-004 +1.3000561567E+002  +2.3932014932E-001 -1.6816034309E+002 
384435.544 +1.1427097654E-001 +1.6982023234E+002  +6.1852195537E-004 -3.7733767488E+001  +4.8094171769E-004 -1.0117274376E+002  +2.3893938825E-001 -1.6869695668E+002 
509580.726 +1.1410400062E-001 +1.7044113814E+002  +1.5800034652E-003 -8.6225009441E+001  +8.1543173567E-004 +1.7592338004E+002  +2.5117504579E-001 -1.6663744962E+002 
634725.907 +1.1607760646E-001 +1.7088049219E+002  +4.8878142414E-004 -1.8807600410E+001  +3.8758435334E-004 -1.7544868099E+002  +2.5270173384E-001 -1.6546992297E+002 
759871.089 +1.1826666286E-001 +1.7164933031E+002  +4.7804467461E-004 -1.0503851005E+002  +8.6389667721E-004 +9.3960201299E+001  +2.6243369576E-001 -1.6566469346E+002 
885016.270 +1.1856772181E-001 +1.6909295425E+002  +6.6206618595E-004 +1.7683352919E+002  +5.3542310162E-004 -1.1797088881E+002  +2.4604428787E-001 -1.6660515642E+002 
1010161.452 +1.1798024837E-001 +1.7047624712E+002  +4.4087642173E-004 +1.4963441864E+001  +1.1557204093E-003 -1.1946816078E+002  +1.8878915961E-001 -1.7115537552E+002 
1135306.633 +1.1867579768E-001 +1.7080460725E+002  +1.0078159509E-003 +1.4374466823E+002  +6.3057389813E-004 +7.2273585640E+001  +1.7128778415E-001 -1.7334953870E+002 
1260451.815 +1.2245270659E-001 +1.7283156573E+002  +7.4224804494E-004 +6.9851592000E+000  +5.8363142528E-004 +8.3658591845E+001  +2.3797393093E-001 -1.5825418949E+002 
1385596.996 +1.2765476508E-001 +1.7179055067E+002  +5.8929524597E-004 -7.6295792764E+001  +7.4793536074E-004 +1.1543911222E+002  +2.5547313581E-001 -1.5687556016E+002 
1510742.178 +1.2760851666E-001 +1.7253090710E+002  +4.7716907132E-005 +1.2768318782E+002  +1.6430550327E-003 -1.0318500302E+002  +2.5423189550E-001 -1.5931095216E+002 
1635887.359 +1.2832703099E-001 +1.7101972454E+002  +4.6025324051E-004 +4.5296840146E+001  +8.5028219071E-004 +4.6392572742E+001  +2.4020999870E-001 -1.5971293196E+002 
1761032.541 +1.2959118988E-001 +1.6945097520E+002  +5.3575340463E-004 +1.1381433326E+002  +1.2616946929E-003 +5.4482841674E+001  +2.3186720368E-001 -1.6120155697E+002 
1886177.722 +1.2969779531E-001 +1.7066858351E+002  +2.2724567158E-003 -1.0965555050E+002  +2.3859788878E-003 +1.1578461668E+002  +2.2064736883E-001 -1.5713592913E+002 
2011322.904 +1.3334324574E-001 +1.6798457338E+002  +1.8883967276E-003 -1.5046514633E+002  +9.1797961055E-004 -5.5978990969E+001  +2.0061399710E-001 -1.7471036940E+002 
2136468.085 +1.2781033869E-001 +1.6795103440E+002  +4.2460012888E-003 +1.5942647983E+002  +7.7583337426E-004 -1.6324770907E+002  +1.7055766749E-001 -1.7438517097E+002 
2261613.267 +1.3703822238E-001 +1.6396393354E+002  +1.4820052063E-003 -1.4548307428E+002  +2.6662918271E-003 -1.5831498189E+002  +1.6391984871E-001 -1.6659717819E+002 
2386758.448 +1.3173042624E-001 +1.5965182710E+002  +4.2528796882E-003 -7.6530741153E+001  +6.6719524591E-003 -5.0895586168E+001  +1.6655710031E-001 +1.6710440678E+002 
2511903.630 +1.3735681769E-001 +1.6504071182E+002  +5.2077657427E-003 -1.7358513843E+002  +3.2986290965E-003 -4.6075283246E-001  +3.7263444473E-001 +1.4115269306E+002 
2637048.811 +1.1975946454E-001 +1.6312531996E+002  +1.6575077043E-002 +1.7290431859E+002  +9.3091944299E-003 -5.3337217578E+001  +8.1452456776E-002 +1.0445436322E+002 
2762193.992 +1.3057365509E-001 +1.7655064634E+002  +5.3031428845E-003 -5.4359192845E+001  +6.6424675477E-003 -1.2413721938E+002  +3.6718255917E-001 -7.8059204655E+001 
2887339.174 +1.0675930969E-001 +1.7542030897E+002  +1.1713584977E-002 -1.5347412954E+002  +7.3430564345E-003 +8.1461230305E+001  +3.1050441542E-001 -8.3227442139E+001 
3012484.355 +1.1306481256E-001 +1.7616659864E+002  +3.3959737357E-003 -1.5400698180E+002  +1.4582486099E-003 +1.5853870309E+002  +2.0483091980E-001 -1.2625743338E+002 
3137629.537 +1.3505194697E-001 +1.6609547798E+002  +6.3345216061E-003 +1.6118418647E+002  +7.0364747157E-003 -1.0935293893E+002  +2.9478431812E-001 -1.2305615861E+002 
3262774.718 +8.0481701749E-002 -1.7832417820E+002  +3.2566681670E-003 -8.7348201300E+001  +1.7559118259E-002 +1.5231940505E+002  +1.8822611545E-001 -2.1493792440E+001 
3387919.900 +1.4041548342E-001 +1.5799543877E+002  +5.5993661932E-003 +1.3644550845E+001  +8.6103860105E-003 -7.6885796598E+000  +2.1286631054E-002 -2.6621147041E+001 
3513065.081 +1.7166090488E-001 +1.5369101808E+002  +7.8807959226E-003 +4.5060077558E+001  +1.8216910975E-003 -8.7740491025E+001  +2.6175716372E-001 +1.4636859975E+002 
3638210.263 +1.6023914443E-001 +1.5489811409E+002  +7.0344130040E-003 +1.7988225299E+002  +5.4794314288E-003 +1.6805105757E+002  +5.7750473919E-001 +1.4934609761E+002 
3763355.444 +1.6451560310E-001 +1.4700397493E+002  +1.5190897534E-003 +9.1730263022E+001  +7.3223652977E-003 -2.6873981231E+001  +7.1293185396E-001 +1.2900325727E+002 
3888500.626 +1.8888502785E-001 +1.4662815546E+002  +6.9613815328E-003 +8.9000629337E+001  +4.9406527501E-003 +2.3257168579E+001  +2.1660043326E-001 +1.5125814129E+002 
4013645.807 +1.7436674514E-001 +1.4665668019E+002  +3.0755671812E-003 -3.4117614331E+001  +1.1883488091E-002 +3.6428944106E+001  +2.4200474089E-001 +1.5130449295E+002 
4138790.989 +1.8384223472E-001 +1.4602134762E+002  +7.7989626206E-003 +5.1648468234E+001  +3.7293748719E-003 +9.1907421142E+001  +6.7317283485E-001 +1.1224896881E+002 
4263936.170 +1.8622357824E-001 +1.4411148611E+002  +8.7877722594E-003 -1.3103260221E+002  +5.6396436398E-003 +4.0225105487E+001  +6.8695483500E-001 +1.0055722301E+002 
4389081.352 +2.0509526909E-001 +1.4546962664E+002  +9.5511366711E-003 +4.8555162334E+001  +3.7143118567E-003 -1.1469411020E+002  +7.5498330709E-001 +1.3703239774E+002 
4514226.533 +2.1607722534E-001 +1.3951780745E+002  +1.0427000401E-001 -7.8512499755E+001  +4.0189669860E-002 -8.1598919662E+001  +1.8222977776E+001 +1.1285163589E+002 
4639371.715 +2.9110464243E-001 +1.3083697908E+002  +2.7341652754E-002 +9.2356745297E+001  +5.3754632686E-002 +1.0647252763E+002  +3.4023610632E+000 +1.0843949034E+002 
4764516.896 +4.0937023372E-001 +1.2694522208E+002  +1.0548368883E-002 +2.0683183752E+001  +2.9559471027E-002 +5.4648995572E+001  +2.4323457284E+000 +1.6518378958E+002 
4889662.078 +3.8479329796E-001 +1.4017694453E+002  +2.1802158634E-002 -4.1732614366E+001  +2.0764734611E-002 +4.5657116151E+001  +2.4468834197E+000 -3.9836102345E+001 
5014807.259 +4.0015939494E-001 +1.3738920320E+002  +2.9721462527E-002 -4.0437949873E+001  +2.6240267811E-002 -1.7154048932E+002  +3.0481406322E+000 +1.3684731540E+002 
5139952.441 +3.9953714666E-001 +1.2395326904E+002  +2.5720044983E-002 -1.4929327154E+002  +2.8434704244E-002 +1.2794496255E+002  +6.2476556891E+000 -1.7694064392E+002 
5265097.622 +3.7182262513E-001 +1.2717179414E+002  +1.0970416539E-001 +1.4596284197E+002  +6.1552945494E-002 -2.4905475463E+001  +6.6028881527E+000 +5.3648279951E+001 
5390242.804 +3.9824892818E-001 +1.2730288890E+002  +1.7206380316E-002 -1.6615278157E+002  +7.1016752846E-003 -1.0378391311E+002  +1.8455137504E+000 +6.7997851840E+001 
5515387.985 +4.8750297666E-001 +1.2468784072E+002  +4.2214755698E-002 +1.3806895560E+002  +1.1027041569E-002 -9.8563292295E+001  +3.2138976350E+000 +1.0684306072E+002 
5640533.166 +4.7941626440E-001 +1.3033285291E+002  +1.6987397274E-002 -5.9843562623E+001  +5.6790155043E-003 -3.5676604529E+000  +3.2368692174E+000 +9.6458275344E+001 
5765678.348 +4.6801700870E-001 +1.2881449829E+002  +2.0477715895E-002 +3.6821585047E+001  +2.8668240003E-002 +3.4288655461E+001  +1.9810114473E+000 +8.7736808064E+001 
5890823.529 +5.5358335369E-001 +1.2164650851E+002  +1.4999216301E-002 +1.3748192390E+002  +3.0141578080E-002 +1.2105087072E+002  +2.0986997187E+000 +5.5816548599E+001 
6015968.711 +5.0038752863E-001 +1.0927372672E+002  +2.0765817057E-002 +1.4699366150E+002  +1.1715549956E-002 -1.5217059804E+002  +1.6883605916E+000 +4.3651425835E+001 
6141113.892 +6.1484462923E-001 +1.1142961315E+002  +1.4976958219E-002 +1.5540754797E+002  +1.4216776816E-002 +1.4581561359E+002  +1.8075824910E+000 +2.4158628093E+001 
6266259.074 +8.3274084020E-001 +9.4932865325E+001  +9.4589601696E-003 +6.6006585943E+001  +1.8950246227E-002 -3.4456791570E-001  +1.4815276359E+000 +1.2942921048E+001 
6391404.255 +1.0178192597E+000 +9.5693159021E+001  +8.3459176832E-003 +1.5834367334E+002  +1.4313219598E-002 -7.2719421002E+001  +1.6207389268E+000 +1.6410486167E+001 
6516549.437 +1.4730752635E+000 +8.7023835199E+001  +3.4840530301E-002 +1.7837296327E+002  +1.1149879380E-002 +7.2418255187E+001  +1.4995185559E+000 -3.9987979661E-001 
6641694.618 +1.1671249063E+000 +7.6168999916E+001  +1.0074830641E-002 +1.1883719870E+002  +2.3638700593E-002 -1.2862965418E+002  +1.3326744184E+000 +9.6707644045E+000 
6766839.800 +1.6663899942E+000 +5.8353481124E+001  +4.0592771159E-002 +1.0666056261E+002  +3.2050700292E-002 +1.3798161631E+002  +1.2515780431E+000 -2.0870619690E+000 
6891984.981 +1.7963125599E+000 +4.6357574813E+001  +6.3891825869E-003 -1.3804220289E+002  +1.3917065811E-002 +1.5584076636E+002  +1.1783532951E+000 -2.6267424261E-001 
7017130.163 +2.2853013210E+000 +5.2826704253E+000  +3.1177871299E-002 +8.8601319354E+001  +2.6445220252E-002 +9.5382508177E+001  +1.2821812772E+000 -1.7400268686E+001 
7142275.344 +1.7251819749E+000 +1.7293296253E+000  +4.2766101034E-003 -4.7017561605E+001  +1.6049093520E-003 -1.3668506092E+002  +1.4367361572E+000 -2.4795776821E+000 
7267420.526 +1.5003880061E+000 -3.3710936059E+000  +5.2752767138E-003 -1.1471577724E+002  +1.2963708878E-002 -8.7042457336E+001  +1.2906534041E+000 -9.4589868226E+000 
7392565.707 +1.1968141204E+000 -5.3386082220E+000  +9.9471980838E-003 +6.5321873606E+001  +1.1881704924E-002 +1.1408379527E+002  +1.2764143562E+000 -8.7987393505E+000 
7517710.889 +1.0026593896E+000 +4.8592109801E+000  +8.0214417186E-003 +1.0460462876E+002  +9.0874470386E-003 +1.1286343740E+002  +1.2096958177E+000 -1.0138225915E+001 
7642856.070 +1.0190678718E+000 +9.3515432917E+000  +3.4935711271E-003 +7.9769653345E+001  +5.9715739619E-003 +9.4109450256E+001  +1.0035569258E+000 -6.4589685254E+000 
7768001.252 +9.5275373604E-001 -1.7176437771E+000  +1.5698894148E-003 +7.4254900576E+001  +1.0555006666E-002 +7.7294540110E+001  +1.0505178396E+000 -7.4018419271E-002 
7893146.433 +9.9468478046E-001 +6.5430549021E+000  +8.8880813599E-003 +9.5356012024E+001  +8.5690025671E-003 +1.7304067180E+001  +1.0062861019E+000 +4.4416632090E-001 
8018291.615 +8.7016116482E-001 +3.2860068335E+000  +4.8141509594E-003 +8.7618199123E+001  +1.1184789367E-002 +7.6874060257E+001  +9.3029590155E-001 -1.2672235197E+000 
8143436.796 +8.0831681839E-001 +1.0647527664E+001  +1.9079515260E-003 +1.3237052078E+002  +6.6487978152E-003 +1.4296965035E+002  +8.7842599370E-001 -1.6979092749E+000 
8268581.977 +7.2802949352E-001 +1.0676969355E+001  +7.6981545420E-003 +1.4785144055E+002  +4.9751828233E-003 +6.9438521155E+001  +7.5959052141E-001 -7.0043191796E-001 
8393727.159 +7.0961456365E-001 +7.4728819372E+000  +8.1694497731E-003 +1.0636057878E+002  +6.9789884804E-003 +1.4911295583E+002  +7.7351721357E-001 +6.5049609673E-001 
8518872.340 +6.5913244942E-001 +7.3660423060E+000  +5.3108859095E-003 +6.6576308549E+001  +4.1762634525E-003 +2.4705143410E+001  +7.4605994283E-001 +1.0592124762E+000 
8644017.522 +6.1090741224E-001 +8.4184728240E+000  +3.0722842471E-003 -8.1453879621E+000  +4.3978645872E-003 +2.5312405047E+001  +6.8564647947E-001 +3.6134656790E+000 
8769162.703 +6.6885411865E-001 +9.9219277189E+000  +1.9417697267E-003 +3.6136682094E+001  +7.3684939744E-003 +1.3948845304E+002  +7.0412778499E-001 -2.5789556459E+000 
8894307.885 +6.0771672640E-001 +7.8485716937E+000  +5.6602800677E-003 +5.2694441548E+001  +6.0366406901E-003 +8.0704702389E+001  +7.0240291747E-001 +6.2693793702E-001 
9019453.066 +5.3245139821E-001 +1.5366355401E+001  +3.6403926044E-003 +4.9950084779E+001  +5.3173725525E-003 +7.1033551955E+001  +6.2449442534E-001 -1.3768189082E+000 
9144598.248 +5.8104954550E-001 +3.7644111754E+000  +4.9022659010E-003 +6.6594413104E+001  +6.1538864393E-003 +1.1276332114E+002  +6.1986745663E-001 +1.2760882341E+000 
9269743.429 +5.5701897900E-001 +3.7993475030E+000  +5.2186478350E-003 +9.2462606405E+001  +3.2659574563E-003 +8.0794699464E+001  +6.2225599771E-001 -1.8385352129E+000 
9394888.611 +5.8140480838E-001 +4.3275542597E+000  +7.0591639966E-003 +9.7803555539E+001  +5.4111746764E-003 +9.3493753574E+001  +6.0643980952E-001 -5.1791967863E-001 
9520033.792 +5.6106634558E-001 +6.2043678082E+000  +6.0680546422E-003 +1.2446037470E+002  +3.3455417171E-003 +7.0583523531E+001  +6.1526045423E-001 -2.7650185923E+000 
9645178.974 +6.1056899411E-001 +5.6123707709E+000  +4.9090111048E-003 +8.2296440256E+001  +6.7098595783E-003 +1.1992074272E+002  +5.9117997700E-001 -9.9254313054E-001 
9770324.155 +5.2865794125E-001 -1.2377369588E+000  +3.1001415603E-003 +1.0066592064E+002  +6.5965601702E-003 +1.3560001952E+002  +5.7549934004E-001 -7.0953642530E+000 
9895469.337 +5.5348334398E-001 -2.0530562998E-001  +6.4985764706E-003 +8.0048775572E+001  +3.6256160273E-003 +8.3118852020E+001  +5.6047936332E-001 -7.4024086638E+000 
10020614.518 +4.9937832715E-001 +2.4971592816E+000  +5.9484561591E-003 +8.8330990460E+001  +3.2575867141E-003 +1.2656019029E+002  +6.0713094301E-001 -3.6941140965E+000 
10145759.700 +5.6114903052E-001 +3.6338700081E+000  +4.4594671827E-003 +7.8067539064E+001  +4.2618503929E-003 +8.0362526081E+001  +5.4631155979E-001 -2.6340502973E+000 
10270904.881 +5.7966506755E-001 +5.2491158962E+000  +2.9932728792E-003 +6.7234537594E+001  +4.0989978552E-003 +1.1635371655E+002  +5.8221467443E-001 -3.7095528799E+000 
10396050.063 +5.5318799286E-001 +5.3147873662E+000  +4.5981013440E-003 +3.8900302592E+001  +5.8472801432E-003 +1.0881652381E+002  +5.8018725552E-001 -1.1594297306E+000 
10521195.244 +5.5847313424E-001 +8.3551406359E+000  +5.5414013877E-003 +8.5298675803E+001  +5.0742041652E-003 +1.3174654897E+002  +5.6558802332E-001 -2.4875970306E-001 
10646340.426 +5.4008003491E-001 +6.3992212566E+000  +5.1022132595E-003 +8.5853859792E+001  +3.8004444125E-003 +1.0465338111E+002  +5.9142810155E-001 -2.3259513354E+000 
10771485.607 +5.4818554748E-001 +7.1823841511E+000  +4.4149971644E-003 +6.5500481759E+001  +4.5778482532E-003 +1.0993774729E+002  +6.0268696352E-001 +1.0758129442E+000 
10896630.788 +5.7303533789E-001 +5.8681923619E+000  +4.9032112898E-003 +4.9428894034E+001  +3.7124002394E-003 +1.0462400213E+002  +6.0162211961E-001 +3.9403870095E+000 
11021775.970 +5.6755880789E-001 +5.0748603162E+000  +4.2378608244E-003 +9.1285595153E+001  +3.9849582192E-003 +1.1973590374E+002  +6.4323053092E-001 -7.6327219787E-001 
11146921.151 +6.0652902970E-001 +6.3475413119E+000  +4.8290436792E-003 +6.6797066660E+001  +3.9582752638E-003 +7.9383186421E+001  +5.9437475884E-001 -8.1938953390E-001 
11272066.333 +5.8857510283E-001 +4.5733112972E+000  +4.5281299445E-003 +1.0856950626E+002  +4.3417184706E-003 +9.5497347253E+001  +6.2400369408E-001 +3.0263721104E+000 
11397211.514 +6.4475510535E-001 +9.5218407160E+000  +6.2881988128E-003 +7.9926986008E+001  +4.6755244254E-003 +9.4764915984E+001  +6.2552825278E-001 +2.1605076619E-001 
11522356.696 +6.1743326768E-001 +1.0683350288E+001  +4.1749009449E-003 +7.6039920327E+001  +3.2804305947E-003 +3.4675445220E+001  +6.1595924630E-001 +2.6354613461E-001 
11647501.877 +6.5923090159E-001 +8.4957240605E+000  +2.4699025930E-003 +9.5170773361E+001  +7.7623026074E-003 +1.0615708047E+002  +6.4904842203E-001 +2.0998993822E+000 
11772647.059 +6.7295318051E-001 +6.9654707210E+000  +6.5917733567E-003 +8.3092847198E+001  +5.5845903082E-003 +1.0839327506E+002  +6.7359611690E-001 +1.6269076068E+000 
11897792.240 +6.4567670428E-001 +5.5929814848E+000  +4.6976604692E-003 +9.1815689406E+001  +5.7884042893E-003 +9.2725529946E+001  +6.9695351560E-001 +2.7714583194E+000 
12022937.422 +6.5551314819E-001 +2.9002647236E+000  +3.6689894630E-003 +9.5764668695E+001  +6.7725983937E-003 +1.0954811263E+002  +6.9584341776E-001 -1.5427842711E-001 
12148082.603 +6.9352257760E-001 +5.1177721167E+000  +5.0774058716E-003 +8.6061232676E+001  +7.4777975306E-003 +9.1304650726E+001  +6.9879674764E-001 -1.0880747343E+000 
12273227.785 +6.8152167406E-001 +3.4106685309E+000  +5.5838912845E-003 +9.6928942666E+001  +4.6339329359E-003 +8.8608357175E+001  +7.1775872641E-001 +6.0763866199E-001 
12398372.966 +7.3029057910E-001 +1.4624161174E+000  +5.4881720709E-003 +1.0339256824E+002  +5.4361363930E-003 +9.8317115528E+001  +7.2093313364E-001 +2.6143386168E+000 
12523518.148 +7.2913318832E-001 +2.9035263357E+000  +6.1841116041E-003 +7.5487524014E+001  +6.9526218680E-003 +7.8504336866E+001  +7.2560911957E-001 +1.2478232523E+000 
12648663.329 +7.5264541904E-001 +1.3762856768E+000  +7.0462922620E-003 +7.2218600315E+001  +6.2029828373E-003 +7.5568061232E+001  +7.5567445765E-001 +8.4403526047E-001 
12773808.511 +7.8520123658E-001 +1.7146811716E+000  +5.2506248882E-003 +8.1299583398E+001  +5.3845284901E-003 +9.3377760501E+001  +7.6874952526E-001 -6.6082975305E-001 
12898953.692 +8.0295185942E-001 +3.1195871131E+000  +6.4228624068E-003 +7.9681258007E+001  +5.1735302953E-003 +8.8129222604E+001  +7.5449294197E-001 -1.4611762147E+000 
13024098.874 +7.7806931943E-001 +5.7878717739E-001  +5.3652134251E-003 +7.7254450630E+001  +5.7654971072E-003 +9.1680112387E+001  +7.7938068139E-001 +1.1212499800E-001 
13149244.055 +8.2233384151E-001 +8.4671973178E-001  +6.5996889133E-003 +7.5395782483E+001  +4.9704688502E-003 +1.0472429707E+002  +8.2259832166E-001 +2.4937979766E-001 
13274389.237 +8.1433622471E-001 -8.6076630856E-001  +5.6320470620E-003 +8.4405455969E+001  +6.9165235634E-003 +1.0086626495E+002  +8.5628210792E-001 -2.7238375246E+000 
13399534.418 +8.3432297970E-001 -2.1980190726E+000  +6.3677466511E-003 +8.0953610957E+001  +5.4027234569E-003 +7.6587881986E+001  +8.4989367713E-001 -1.4030205925E+000 
13524679.599 +8.5677790138E-001 -1.9707128818E+000  +7.0953503935E-003 +7.8062108282E+001  +7.6947066700E-003 +9.6266767363E+001  +8.7900763543E-001 -1.0358399821E+000 
13649824.781 +8.8222008353E-001 -3.0815394429E+000  +6.0466029378E-003 +8.7196240296E+001  +7.1163339595E-003 +9.3866199885E+001  +8.5654318626E-001 -4.0956508333E+000 
13774969.962 +8.7424461138E-001 -3.2973835061E+000  +6.7115149773E-003 +9.0472295845E+001  +6.9035693468E-003 +8.8476557389E+001  +9.1789559646E-001 -3.9897843563E+000 
13900115.144 +9.0135314525E-001 -3.1695383627E+000  +6.8296189618E-003 +8.7870680798E+001  +6.0364194133E-003 +9.2132066073E+001  +9.1477645354E-001 -4.4304327158E+000 
14025260.325 +9.3227001702E-001 -1.6691292180E+000  +6.3216153067E-003 +6.9697923962E+001  +7.2882984837E-003 +7.6438922563E+001  +9.2865799870E-001 -3.4516226473E+000 
14150405.507 +9.2147610064E-001 -4.2337650872E+000  +8.2865046797E-003 +8.6629180992E+001  +7.8561110869E-003 +9.8224232977E+001  +9.6364927677E-001 -4.6343421757E+000 
14275550.688 +9.6196402394E-001 -5.4197844827E+000  +7.6229170602E-003 +7.8477351547E+001  +7.0386379556E-003 +7.7655142746E+001  +9.7159177597E-001 -4.0345005701E+000 
14400695.870 +9.8311646046E-001 -4.3840525689E+000  +7.1406910118E-003 +7.4668224912E+001  +7.5186798058E-003 +9.1959745263E+001  +9.9157626394E-001 -3.7281058468E+000 
