!  2-Port S-parameters saved by WinCal
! VAR MeasName=S-Parameters (CALIBRATED_DATA) read from VNA (P5004A)
! VAR MeasDate=27/08/2024 14:45:22
! VAR NAME=S2_r3c8_formed_9k-100M_1
! VAR FILENAME=S2_r3c8_formed_9k-100M_1.S2P
! VAR DATE=27/08/2024 14:45:22
! VAR PHYS_PORTS=1,2
! VAR ObjTypeName=DATASET
! VAR IndexType=Frequency
!
# Hz S MA R 50
9000.000 +5.7223915206E-002 -1.6080505671E+002  +1.3584448357E-002 +3.7629061353E+001  +1.8432090695E-002 +1.7970256085E+002  +2.6123144079E-001 -8.9356625192E+001 
134145.181 +1.1142836121E-001 +1.6960021316E+002  +4.3275790547E-004 +2.5834984644E+000  +3.1966849209E-004 +7.5405751315E+001  +2.4187901075E-001 -1.7153295509E+002 
259290.363 +1.1148658024E-001 +1.7022324437E+002  +1.4662204863E-003 -4.1442195194E+001  +1.1113806289E-003 +1.4866545925E+002  +2.4675454914E-001 -1.6525921098E+002 
384435.544 +1.1463297038E-001 +1.6950289023E+002  +6.5947806366E-004 -5.4108894996E+001  +5.4928821536E-004 +5.6213608443E+001  +2.3954904295E-001 -1.6919854705E+002 
509580.726 +1.1375786498E-001 +1.7102137960E+002  +1.5142838598E-003 -8.1409819903E+001  +5.7062407085E-004 -1.1862590841E+002  +2.3689472774E-001 -1.6466809614E+002 
634725.907 +1.1661878957E-001 +1.7148075732E+002  +2.0022303383E-003 -1.0323037525E+002  +1.4903648419E-003 +4.4165763424E+001  +2.3926824082E-001 -1.6376416600E+002 
759871.089 +1.1743997323E-001 +1.7037412863E+002  +3.3548953726E-004 -2.0806768060E+001  +8.9529405433E-004 +1.0633951196E+002  +2.3758874481E-001 -1.6230148092E+002 
885016.270 +1.1567551988E-001 +1.6913295802E+002  +9.0711324079E-004 -9.4447173820E+001  +1.6642769833E-003 +9.3427726254E+001  +2.3523149313E-001 -1.6588971846E+002 
1010161.452 +1.1827030522E-001 +1.6997338022E+002  +2.5970064800E-003 -6.0605836329E+001  +1.7497123421E-003 +1.6658163263E+002  +2.2047296275E-001 -1.6059214242E+002 
1135306.633 +1.1903053699E-001 +1.7014910485E+002  +1.0273035949E-003 -5.1595197734E+001  +7.4477806164E-004 +1.5580952853E+002  +1.9688606102E-001 -1.4835457426E+002 
1260451.815 +1.1885207369E-001 +1.7247666678E+002  +1.1454070850E-003 -5.1639168088E+001  +1.9616432299E-003 +6.8456491532E+001  +2.3839179595E-001 -1.4871773854E+002 
1385596.996 +1.2621893360E-001 +1.7193417825E+002  +1.0587300232E-003 +1.7658178752E+002  +1.5966720305E-003 +9.2403255041E+001  +2.5716126348E-001 -1.5574357266E+002 
1510742.178 +1.2539034881E-001 +1.7063796147E+002  +5.3821073084E-004 -4.7043875427E+001  +1.0600383531E-003 +1.2768150141E+002  +2.4209409439E-001 -1.6110587104E+002 
1635887.359 +1.2729849232E-001 +1.7243161663E+002  +7.2350954137E-004 -1.1070932905E+002  +5.0765751956E-004 -1.6984308916E+002  +2.5100304922E-001 -1.6077766532E+002 
1761032.541 +1.2892883400E-001 +1.6947852546E+002  +3.6603223789E-003 +5.8047842821E+000  +2.5066176389E-003 -1.2080875542E+002  +2.1996661999E-001 -1.5881971951E+002 
1886177.722 +1.3079655605E-001 +1.6828930967E+002  +1.2614963616E-003 +7.8247601496E+001  +2.2780408437E-003 -7.5570898603E+001  +2.2765662050E-001 -1.6780482356E+002 
2011322.904 +1.3108695504E-001 +1.6622005280E+002  +3.1873503700E-003 +8.8207928838E+001  +4.1234835201E-003 -5.0207553959E+001  +1.8392490545E-001 -1.5896743109E+002 
2136468.085 +1.2881085179E-001 +1.6602344988E+002  +1.0776573665E-002 +1.1137922659E+002  +9.9144819225E-003 -3.9257541353E+001  +1.7022136867E-001 +1.6831444556E+002 
2261613.267 +1.1917445942E-001 +1.5910583112E+002  +9.3681361890E-003 +1.1788435158E+002  +1.1244058183E-002 +1.3960564063E+001  +2.5043343417E-001 +1.6876729807E+002 
2386758.448 +1.3857788992E-001 +1.6188599015E+002  +9.7739414832E-003 +1.3681585664E+002  +1.5504488684E-002 +3.7864482834E+001  +2.7501434356E-001 +1.6259453760E+002 
2511903.630 +1.4229055827E-001 +1.6232701385E+002  +1.6919052130E-002 +8.1633061223E+001  +1.8787311435E-002 -9.8749677698E+000  +1.5829284030E-001 +1.5053108544E+002 
2637048.811 +1.3916961954E-001 +1.6027685780E+002  +1.6401797245E-002 +1.1511848369E+002  +1.7715582834E-002 +3.8829867982E+000  +2.4119827320E-001 +1.6123631218E+002 
2762193.992 +9.1234751310E-002 -1.6511980494E+002  +1.4088867488E-001 -2.0185394989E+000  +1.3979394208E-001 -1.0589081459E+002  +3.6404006472E-001 -2.5434325842E+001 
2887339.174 +1.2457250320E-001 +1.6979192457E+002  +4.9208114248E-002 -2.2345720763E+001  +4.5888974909E-002 -1.1772243021E+002  +2.9294346590E-001 -5.7119049740E+001 
3012484.355 +1.2617069072E-001 +1.7210853571E+002  +4.0431713875E-002 -4.7238175695E+001  +3.2637489197E-002 -1.6827824795E+002  +4.3608791536E-001 -1.1051881538E+002 
3137629.537 +1.4732167222E-001 +1.7512111148E+002  +2.6439507477E-002 -4.1315731953E+001  +3.7189826816E-002 -1.2615997108E+002  +2.2303850071E-001 -7.3426355637E+001 
3262774.718 +1.3654023840E-001 +1.6484400802E+002  +8.8038110859E-002 -2.3299659375E+001  +7.7801595106E-002 -1.3766653392E+002  +8.6492331444E-001 -6.6552699322E+001 
3387919.900 +1.3772185122E-001 +1.7075259354E+002  +8.3556541457E-002 +6.8379924181E+000  +7.3870062588E-002 -9.1185987647E+001  +5.3935054065E-001 -2.4029306266E+001 
3513065.081 +1.1834634336E-001 +1.5989310913E+002  +5.9696511231E-002 +7.7379847235E+001  +4.4078355090E-002 -1.2815917471E+001  +3.7955780875E-001 +1.1914993203E+002 
3638210.263 +1.6800258617E-001 +1.4798231439E+002  +1.4014589141E-001 +1.0913999415E+002  +1.3563082742E-001 +3.7559339694E+001  +1.2900238209E+000 +1.0544768736E+002 
3763355.444 +1.7525011291E-001 +1.4164987661E+002  +4.1061646479E-002 +1.2260664516E+002  +3.8938555821E-002 +3.0286367286E+001  +3.8067514236E-001 +1.5403502376E+002 
3888500.626 +1.7505940275E-001 +1.4055438798E+002  +4.9370939508E-002 +1.2188551575E+002  +4.5590959592E-002 +3.9773358875E+001  +4.3376372746E-001 +1.4629924145E+002 
4013645.807 +1.4586682615E-001 +1.5560298698E+002  +1.2498971518E-001 +2.8084350042E+001  +1.1180477843E-001 -2.8931863821E+001  +9.3953634265E-001 +2.9189699691E+001 
4138790.989 +2.0605594554E-001 +1.5375434630E+002  +4.8677401746E-002 +1.0135200681E+002  +3.7072951932E-002 +3.7347855729E+001  +4.0611896566E-001 +1.1606342680E+002 
4263936.170 +1.8719226716E-001 +1.4573794584E+002  +6.3977298828E-002 +7.6858063432E+001  +6.0236562248E-002 +1.6832630838E+001  +3.6340536500E-001 +1.2180430681E+002 
4389081.352 +2.0627252278E-001 +1.5128462678E+002  +7.7246264089E-002 +8.7456641395E+001  +6.9949373635E-002 +3.2041363520E+001  +7.5170740316E-001 +1.0164848935E+002 
4514226.533 +2.6767873513E-001 +1.3523025377E+002  +1.2444300718E-001 +1.0553875556E+002  +1.0924859763E-001 +5.3348127818E+001  +6.9774523048E-001 +1.0684392172E+002 
4639371.715 +2.7584434750E-001 +1.4064341685E+002  +1.6587733346E-001 +1.2690073034E+002  +1.6968448438E-001 +7.6366113790E+001  +1.6342363874E+000 +1.1238178002E+002 
4764516.896 +4.0969556797E-001 +1.1652310932E+002  +4.8996015415E-001 +9.8135866520E+001  +6.0339708246E-001 +5.2418350898E+001  +2.8616307649E+000 +6.9427521954E+001 
4889662.078 +3.8174765173E-001 +1.2719081105E+002  +2.1741597822E-001 -4.0101108164E+001  +2.1423896296E-001 -9.5519964812E+001  +2.0343772067E+000 -1.1302956713E+002 
5014807.259 +3.8770025645E-001 +1.3131086680E+002  +3.4638353692E-001 +7.8157509114E+001  +3.6770083405E-001 +2.9211593333E+001  +2.9388827223E+000 +2.6383096572E+001 
5139952.441 +3.2895123126E-001 +1.3034424850E+002  +1.6627830550E-001 +1.1026331562E+002  +1.7123830873E-001 +7.1930251083E+001  +1.2996821143E+000 +1.1142375470E+002 
5265097.622 +3.3632048664E-001 +1.3840896684E+002  +1.2791909955E-001 +5.5412394617E+001  +1.2391074629E-001 +1.8413025453E+001  +9.4068234831E-001 +2.5048144615E+001 
5390242.804 +3.8134587144E-001 +1.3858812309E+002  +1.2994039912E-001 +1.0101785087E+002  +1.1087862467E-001 +6.9313007949E+001  +1.0324767473E+000 +9.6170463995E+001 
5515387.985 +3.9983057262E-001 +1.1781991890E+002  +4.1223084664E-001 +1.1663593717E+002  +3.8702275375E-001 +8.9660725671E+001  +3.6083643469E+000 +1.1407723029E+002 
5640533.166 +4.3313934490E-001 +1.1968058496E+002  +2.0044839273E-001 +7.3592789847E+001  +2.0245599687E-001 +5.1885581396E+001  +1.1696570986E+000 +7.1375496756E+001 
5765678.348 +4.8317149687E-001 +1.2641226643E+002  +2.3072313098E-001 +1.1326851150E+002  +2.4123356436E-001 +8.2595092277E+001  +2.3442885916E+000 +1.0557812363E+002 
5890823.529 +4.8123351728E-001 +1.1906814547E+002  +1.8731611964E-001 +8.9055208952E+001  +1.7489668633E-001 +6.2592555695E+001  +1.2886804327E+000 +9.7154015654E+001 
6015968.711 +5.3189952791E-001 +9.7214406054E+001  +2.7681350993E-001 +6.3934569033E+001  +2.6365405144E-001 +4.7768231847E+001  +1.4814340533E+000 +7.6343466543E+001 
6141113.892 +5.9790415071E-001 +1.1493099465E+002  +1.8510964647E-001 +4.9360536772E+001  +1.7719462775E-001 +3.0097523022E+001  +9.7980376508E-001 +2.5060148487E+001 
6266259.074 +6.1220307598E-001 +1.0928115989E+002  +2.0337216328E-001 +4.6071258473E+001  +2.1231900795E-001 +3.2789202806E+001  +1.3236754313E+000 +3.0060440360E+001 
6391404.255 +1.0751949077E+000 +8.9407284124E+001  +3.2091742097E-001 +6.1315528109E+001  +3.1866612183E-001 +4.6140229274E+001  +1.3779785404E+000 +4.2949586579E+001 
6516549.437 +8.7847958665E-001 +9.2757831275E+001  +2.5990229567E-001 +3.1431465279E+001  +2.4397619295E-001 +2.8392578536E+001  +1.4074569672E+000 +1.1820115997E+001 
6641694.618 +1.1092065083E+000 +6.1960372319E+001  +3.0149584572E-001 +2.4252821704E+001  +3.0425507347E-001 +1.0706598664E+001  +1.0739527920E+000 +8.5838473959E+000 
6766839.800 +1.2818084354E+000 +4.9016672933E+001  +3.2522703115E-001 +1.7008841570E+001  +3.1744335767E-001 +9.1027226771E+000  +1.4114829441E+000 +7.5875792229E+000 
6891984.981 +1.2930087480E+000 +2.9773084100E+001  +2.8616907712E-001 +1.1292211627E+000  +2.6837718864E-001 -3.9445069737E+000  +9.7671031561E-001 -4.8963228324E+000 
7017130.163 +1.4500107797E+000 +2.7421409170E+001  +2.6452486057E-001 +6.2521113722E+000  +2.5700493080E-001 -2.6921097618E+000  +1.2280925248E+000 -1.1443382298E+001 
7142275.344 +1.4160899625E+000 +5.6228266768E+000  +2.3514957377E-001 -2.2965579438E-001  +2.2143739789E-001 -5.2910379423E+000  +1.0287406899E+000 -8.8810806162E+000 
7267420.526 +1.1999466439E+000 +3.0697827878E+000  +2.0775697186E-001 +1.4421619905E+000  +1.9857557437E-001 -8.0687475902E-002  +1.1543322191E+000 -5.2351442870E+000 
7392565.707 +1.0503197630E+000 -3.3695323543E+000  +1.6300659090E-001 +1.8842875377E+000  +1.5408035235E-001 +4.7824877725E+000  +1.1231243978E+000 -1.2300437578E+001 
7517710.889 +1.0128343729E+000 +3.6410158142E+000  +1.5700201293E-001 +2.6114140024E+000  +1.5931585602E-001 +4.2199893773E+000  +1.0080034265E+000 -1.0337547809E+001 
7642856.070 +8.4303876902E-001 +2.5735599300E+000  +1.3834832315E-001 +3.1700368235E+000  +1.3428348876E-001 +4.3786439223E+000  +8.6550944018E-001 -5.3285800304E+000 
7768001.252 +7.5309201523E-001 +6.9867637679E+000  +1.2937980683E-001 -5.0170352357E-001  +1.2431201860E-001 +6.7445857783E+000  +7.9454154778E-001 -1.6321465508E+000 
7893146.433 +7.7428246711E-001 +7.8199561230E+000  +1.2343267772E-001 +1.8112857700E+000  +1.3003942156E-001 +8.0958207918E+000  +8.7833895487E-001 +4.7944605542E+000 
8018291.615 +6.6982387663E-001 -1.2277325256E+000  +1.2953346074E-001 -5.2892454469E-001  +1.2204920393E-001 +8.0526164625E+000  +7.4810105085E-001 -7.1857123953E+000 
8143436.796 +6.1309558789E-001 +6.9569287752E+000  +1.2482834180E-001 -3.5783065248E+000  +1.2513637590E-001 +9.4196245406E+000  +6.7292165076E-001 -2.8268283165E+000 
8268581.977 +6.0000526212E-001 +1.3071997694E+001  +1.1909319854E-001 -2.1579221120E+000  +1.1296531856E-001 +7.1748377182E+000  +6.3714004636E-001 +2.0785473072E+000 
8393727.159 +5.6760006368E-001 +1.0047458671E+001  +1.1542317375E-001 -3.8689013807E+000  +1.1525770099E-001 +1.0320100658E+001  +5.8300336879E-001 +3.8187121373E+000 
8518872.340 +5.7151709569E-001 +1.5811041421E+001  +1.1522157639E-001 -2.3936179816E+000  +1.2122306637E-001 +1.0059091347E+001  +5.9643298196E-001 +6.6450221625E-001 
8644017.522 +5.6204417773E-001 +1.7418644677E+001  +1.1408574223E-001 -4.2902553763E+000  +1.1165224795E-001 +8.6424014901E+000  +5.6352172960E-001 +6.6809552453E+000 
8769162.703 +5.3856060767E-001 +7.6723550770E+000  +1.1563884444E-001 -2.7251917004E+000  +1.1200916532E-001 +1.0700085170E+001  +5.6337774852E-001 +4.4049793974E+000 
8894307.885 +5.1421388355E-001 +8.3718561056E+000  +1.0938489245E-001 -3.4964174618E+000  +1.1365179664E-001 +1.2660657311E+001  +5.5410170059E-001 +4.9014971842E+000 
9019453.066 +5.1512250413E-001 +6.6121495982E+000  +1.0975275287E-001 -6.4213916581E-001  +1.1336875995E-001 +1.0519290277E+001  +5.2146877715E-001 -3.9249112300E+000 
9144598.248 +4.7279109694E-001 +1.1283566742E+001  +1.1284991676E-001 -2.7896538608E+000  +1.0338412978E-001 +9.4722714109E+000  +5.2607923797E-001 +5.1839393259E+000 
9269743.429 +4.5429240595E-001 +1.3549323389E+001  +1.1052600961E-001 -4.4610371096E+000  +1.1126137563E-001 +1.3800274469E+001  +5.0109883987E-001 -1.7328101755E+000 
9394888.611 +4.2574879658E-001 +4.5229863651E+000  +1.0799985674E-001 -3.5272412705E+000  +1.0919864889E-001 +1.1517166290E+001  +4.7800150538E-001 -1.5047442380E+000 
9520033.792 +4.3597909510E-001 +7.3171625215E+000  +1.0315198493E-001 -2.8871932277E+000  +1.0979879148E-001 +1.2262607956E+001  +4.8940345321E-001 +1.5646634504E+000 
9645178.974 +4.5090780696E-001 +5.5715647702E+000  +1.1481969924E-001 -3.6478441477E+000  +1.1310238577E-001 +1.3596027655E+001  +4.8834883600E-001 -7.9102033129E+000 
9770324.155 +4.4950196448E-001 +1.9045577331E+000  +1.0871773024E-001 -3.2682508524E+000  +1.1062247042E-001 +1.2711963276E+001  +4.8758075926E-001 -2.0976687507E+000 
9895469.337 +4.3505979920E-001 +2.3357206559E+000  +1.0832660868E-001 -3.7625977355E+000  +1.1180000530E-001 +1.2408684641E+001  +4.9272947253E-001 -8.4245718475E+000 
10020614.518 +4.4486396608E-001 +2.5874665213E+000  +1.1197584919E-001 -2.4719319095E+000  +1.1363666467E-001 +1.2347482787E+001  +4.3412140060E-001 -7.1816571877E+000 
10145759.700 +4.5020444804E-001 +5.5886761342E+000  +1.1156317032E-001 -2.5922126818E-001  +1.0935400951E-001 +1.2620689404E+001  +4.9216135739E-001 +1.6050733922E-001 
10270904.881 +4.3330383666E-001 +1.0633339039E+001  +1.1178506503E-001 +9.2262683762E-002  +1.1067948554E-001 +1.4953123042E+001  +5.0825820029E-001 -1.3393281083E+000 
10396050.063 +4.3932763728E-001 +5.4640307322E+000  +1.1389115662E-001 -1.6559941108E+000  +1.0942232592E-001 +1.4441954152E+001  +4.6605927632E-001 -1.9470378824E-001 
10521195.244 +4.4675704939E-001 +5.1151944009E+000  +1.1482847975E-001 -1.8289721586E+000  +1.1219940465E-001 +1.3726563763E+001  +4.8830479271E-001 -2.9739069613E+000 
10646340.426 +4.5824552812E-001 +8.4656069910E+000  +1.1212426588E-001 -2.2710587153E-001  +1.1487471158E-001 +1.3688977567E+001  +4.9949433448E-001 -1.9859604088E-001 
10771485.607 +4.3587797795E-001 +8.1032134324E+000  +1.1410760236E-001 +2.8774528513E-001  +1.1202554285E-001 +1.3159155880E+001  +4.9314135781E-001 +3.2578086607E+000 
10896630.788 +4.4716187232E-001 +1.1262264887E+001  +1.1523396094E-001 +1.2014814324E+000  +1.1148103999E-001 +1.4763126108E+001  +5.1210658632E-001 +2.8030667303E+000 
11021775.970 +4.7981787641E-001 +7.9008158179E+000  +1.1494282861E-001 -4.3386446389E-001  +1.1323773656E-001 +1.4025050391E+001  +4.9338698760E-001 +9.1826472443E-001 
11146921.151 +4.4857416517E-001 +8.4152098135E+000  +1.1517056417E-001 -7.0267240334E-001  +1.1285719064E-001 +1.3772254986E+001  +4.7034018513E-001 +4.7613208007E+000 
11272066.333 +5.1479977582E-001 +1.0597627976E+001  +1.1634930008E-001 +3.9903014980E-001  +1.1560354114E-001 +1.4214163115E+001  +4.8961887644E-001 +3.7373836203E+000 
11397211.514 +4.9532785652E-001 +6.5319655852E+000  +1.1982870606E-001 +2.3272825469E-001  +1.1736026909E-001 +1.3177714017E+001  +4.8399186111E-001 +3.7125249041E+000 
11522356.696 +5.0151121668E-001 +1.0302830448E+001  +1.1941836127E-001 +2.1963756059E+000  +1.1839182405E-001 +1.2648375321E+001  +5.2053309109E-001 +2.7966386240E+000 
11647501.877 +4.9074605457E-001 +9.3927296210E+000  +1.1956337425E-001 +1.4380755970E+000  +1.1989292664E-001 +1.3260788192E+001  +5.3643399239E-001 +1.7656358554E+000 
11772647.059 +5.4863180592E-001 +5.9728443720E+000  +1.2028858753E-001 +2.7126352591E+000  +1.2144525847E-001 +1.3253032260E+001  +5.3333496673E-001 +5.1071896796E+000 
11897792.240 +5.4348511545E-001 +6.7965231218E+000  +1.2308867652E-001 +2.8332473264E+000  +1.2208934869E-001 +1.2988114065E+001  +5.4545171028E-001 +2.7351563165E+000 
12022937.422 +5.5585540278E-001 +5.9822209815E+000  +1.2264927474E-001 +3.3488842788E+000  +1.2270550735E-001 +1.2350265242E+001  +5.2009706990E-001 +2.3301294139E+000 
12148082.603 +5.4245392455E-001 +4.1447142659E+000  +1.2489160740E-001 +2.7346886027E+000  +1.2533298497E-001 +1.1509080157E+001  +5.4982837327E-001 +1.6123766308E+000 
12273227.785 +5.5170933829E-001 +5.9706506689E+000  +1.2703772761E-001 +3.6903526157E+000  +1.2709587358E-001 +1.1480568732E+001  +5.8396184259E-001 -4.6378649909E-001 
12398372.966 +5.7503675783E-001 +4.3085005368E+000  +1.3044382002E-001 +3.4899850187E+000  +1.2864993334E-001 +1.1973704499E+001  +5.9868421759E-001 -2.5753084580E+000 
12523518.148 +5.8077200624E-001 +6.2370188189E+000  +1.2997597165E-001 +4.3412426857E+000  +1.2870165922E-001 +1.1440132129E+001  +6.2401628549E-001 -9.5885542570E-001 
12648663.329 +6.0118669287E-001 +1.1092028883E+000  +1.3421326366E-001 +3.7705823295E+000  +1.3253586620E-001 +1.0645524980E+001  +6.3410292625E-001 -1.9834321143E+000 
12773808.511 +6.0265198162E-001 +2.5272897937E+000  +1.3263697250E-001 +4.1538148628E+000  +1.3263949418E-001 +1.0297079798E+001  +6.1939259460E-001 -7.8501499380E-001 
12898953.692 +6.1479727991E-001 +1.1152039939E+000  +1.3482821902E-001 +4.2956252915E+000  +1.3247426345E-001 +1.0244130313E+001  +6.5665626789E-001 -4.0852891910E-001 
13024098.874 +6.5194777425E-001 +1.7097607467E+000  +1.3464335226E-001 +4.8611980754E+000  +1.3466711306E-001 +9.9192906316E+000  +6.5367017658E-001 -1.0472175970E+000 
13149244.055 +6.5175465556E-001 -1.9532839508E-002  +1.3648487448E-001 +4.9739365094E+000  +1.3653617741E-001 +8.6169137297E+000  +6.6449679956E-001 -8.5571627618E-001 
13274389.237 +6.7128103960E-001 +7.7565437957E-001  +1.3919908839E-001 +4.7629708674E+000  +1.3830396345E-001 +8.9721434181E+000  +6.8109294754E-001 -2.3463827441E+000 
13399534.418 +7.0771670116E-001 +5.6189269058E-001  +1.3989097695E-001 +5.3712333152E+000  +1.3826550576E-001 +7.9863664458E+000  +7.2067225358E-001 -1.7701755958E+000 
13524679.599 +6.8523273275E-001 -3.2250906977E+000  +1.4159055110E-001 +4.7338440692E+000  +1.4085508806E-001 +7.3613356587E+000  +7.1020841925E-001 -2.0381555048E+000 
13649824.781 +7.2792390520E-001 -2.0271113211E+000  +1.4052364231E-001 +4.7445952072E+000  +1.3941168075E-001 +7.3812382684E+000  +7.4026465697E-001 -7.8040969271E-001 
13774969.962 +7.2853534916E-001 -1.0885626421E+000  +1.4315951944E-001 +4.9880210384E+000  +1.3887529329E-001 +7.2584322786E+000  +7.5816914707E-001 -1.7510079490E+000 
13900115.144 +7.5254722072E-001 -3.4921037880E+000  +1.4356885655E-001 +5.3186011753E+000  +1.4221014204E-001 +6.7972603285E+000  +7.6261308344E-001 -6.8426888015E-001 
14025260.325 +7.6977280180E-001 -3.3757941041E+000  +1.4438674054E-001 +4.5560430655E+000  +1.4491173392E-001 +5.8853933805E+000  +7.8416750041E-001 -3.8601984883E+000 
14150405.507 +7.9740057023E-001 -3.9800626769E+000  +1.4606422037E-001 +4.7235449160E+000  +1.4563529089E-001 +6.5062105422E+000  +8.0168977395E-001 -3.8872506354E+000 
14275550.688 +8.1022424147E-001 -3.7460533948E+000  +1.4707697488E-001 +4.0489218481E+000  +1.4498319465E-001 +4.9799066398E+000  +8.2285669139E-001 -4.2897213609E+000 
14400695.870 +8.1409374543E-001 -4.7908314969E+000  +1.4879444685E-001 +4.4359606540E+000  +1.4520837648E-001 +4.9992174017E+000  +8.4980727628E-001 -4.1886075491E+000 
