!  2-Port S-parameters saved by WinCal
! VAR MeasName=S-Parameters (CALIBRATED_DATA) read from VNA (P5004A)
! VAR MeasDate=27/08/2024 15:06:38
! VAR NAME=S2_r3c8_SET2_9k-100M_1
! VAR FILENAME=S2_r3c8_SET2_9k-100M_1.S2P
! VAR DATE=27/08/2024 15:06:38
! VAR PHYS_PORTS=1,2
! VAR ObjTypeName=DATASET
! VAR IndexType=Frequency
!
# Hz S MA R 50
9000.000 +6.3704507389E-002 -1.7088244027E+002  +8.2261204063E-003 +6.4050798135E+001  +5.2252112950E-003 -6.6229910630E+001  +2.5389440187E-001 -1.3903750728E+002 
134145.181 +1.1087090777E-001 +1.6968880520E+002  +5.1931310480E-004 -2.6376997701E+001  +1.3279406394E-004 +1.0859970862E+002  +2.3861184829E-001 -1.7137118253E+002 
259290.363 +1.1070749895E-001 +1.6931240357E+002  +4.9857271776E-004 -1.2486667041E+002  +5.5029052310E-004 +1.5599398182E+002  +2.3524761057E-001 -1.6942854999E+002 
384435.544 +1.1403089752E-001 +1.7049502129E+002  +6.8660394742E-005 +7.8891648462E+001  +5.9829388940E-004 +8.9607031596E+001  +2.4025813140E-001 -1.6979031344E+002 
509580.726 +1.1192346848E-001 +1.7160604861E+002  +1.1300195346E-003 -3.8023137914E+001  +4.0238391730E-004 -1.5135927379E+002  +2.3581876992E-001 -1.6724211310E+002 
634725.907 +1.1632324612E-001 +1.6965010787E+002  +7.3510567230E-004 -1.4690703037E+002  +1.0960866123E-003 +1.3441192237E+002  +2.4130802405E-001 -1.6483652221E+002 
759871.089 +1.1728418816E-001 +1.7063898190E+002  +5.1448695121E-004 +3.4830290349E+001  +5.5174541864E-004 +7.6879998784E+001  +2.4295085887E-001 -1.6519786101E+002 
885016.270 +1.1836269203E-001 +1.6941745950E+002  +7.0041613887E-004 +1.0313757176E+002  +8.6589006320E-004 +4.5141812021E+001  +2.3627602041E-001 -1.6726032158E+002 
1010161.452 +1.1903902539E-001 +1.7035190533E+002  +2.2546922092E-003 +1.4415084091E+002  +9.7873443516E-004 +1.6728969029E+002  +1.8512096145E-001 -1.5379339154E+002 
1135306.633 +1.1373890122E-001 +1.7269777684E+002  +4.6082063483E-003 +9.3307366045E+001  +1.3465733636E-003 -1.2902767060E+002  +1.4585797249E-001 -1.5242582086E+002 
1260451.815 +1.2092399275E-001 +1.6996122002E+002  +3.7867576123E-004 +1.4773412676E+002  +7.5328928047E-004 +1.5233835933E+002  +2.5502746415E-001 -1.5776822327E+002 
1385596.996 +1.2481715885E-001 +1.7189322939E+002  +6.9338347776E-004 -7.7871738667E+001  +1.3024809064E-003 +9.2355314156E+000  +2.6029525094E-001 -1.5808088365E+002 
1510742.178 +1.2802198675E-001 +1.7117056776E+002  +4.3125856760E-004 -1.5960387880E+002  +8.2313263194E-004 +1.4315096840E+002  +2.6009510722E-001 -1.6053140995E+002 
1635887.359 +1.2746174428E-001 +1.7105130309E+002  +3.4158355182E-004 -1.2326297308E+001  +9.2356484285E-004 +1.5221575004E+001  +2.6049776496E-001 -1.5770668504E+002 
1761032.541 +1.3095472065E-001 +1.6998283062E+002  +4.2818246980E-004 +1.2232408725E+001  +1.0324844424E-003 -7.6902868787E+001  +2.3032522154E-001 -1.5861751001E+002 
1886177.722 +1.2817328725E-001 +1.6680621613E+002  +1.7468185839E-003 +4.3943914601E+001  +1.6863326311E-003 -1.0740436270E+002  +2.1749141517E-001 -1.7079234635E+002 
2011322.904 +1.3364846786E-001 +1.6653735572E+002  +7.8536196503E-004 +1.9592692874E+001  +1.8807487022E-003 -5.9409267497E+001  +2.0753120089E-001 -1.7375905053E+002 
2136468.085 +1.3380992936E-001 +1.6588217244E+002  +3.4790330673E-003 +1.1550365243E+002  +1.7345469396E-003 +1.3961504750E+002  +1.9192173804E-001 -1.7158520641E+002 
2261613.267 +1.3662433430E-001 +1.6369774036E+002  +3.2253170084E-003 +1.0212289575E+002  +1.3674196403E-003 -1.2135068557E+001  +1.7724534655E-001 +1.6157013422E+002 
2386758.448 +1.2983959185E-001 +1.6297613314E+002  +3.6361148982E-003 +8.4107267801E+001  +2.4276057489E-003 -3.7252857568E+001  +2.2075693251E-001 +1.7672661917E+002 
2511903.630 +1.3486170703E-001 +1.6335932093E+002  +5.2519986054E-003 +7.0948513342E+001  +5.0694432558E-003 -5.6942025647E+001  +2.1155419504E-001 -1.7158015231E+002 
2637048.811 +1.3288888830E-001 +1.6194887795E+002  +6.9583118094E-003 +7.3710236942E+001  +8.3609348148E-003 -7.7617335812E+001  +1.1850525172E-001 +1.7608114183E+002 
2762193.992 +8.1370747563E-002 +1.6048591017E+002  +2.9666971890E-002 +7.6862250615E+001  +2.9557094982E-002 -4.7870676413E+001  +2.1167027919E-001 +1.2854731563E+002 
2887339.174 +1.3082222236E-001 +1.7725308503E+002  +6.6426730950E-003 -6.3946317014E+001  +7.4421584854E-003 +1.5329917509E+002  +3.5167966478E-001 -1.2681877313E+002 
3012484.355 +1.1573681190E-001 -1.7588402656E+002  +1.1199520939E-002 -3.2051019904E+001  +1.5973221323E-002 -1.1412004172E+002  +1.3109433570E-001 -1.3322947078E+002 
3137629.537 +1.0749284680E-001 +1.7411547948E+002  +2.9240543492E-002 -3.5197487680E+001  +2.3825040742E-002 -1.2472676660E+002  +2.4805968528E-001 -7.1683691764E+001 
3262774.718 +1.2990530997E-001 +1.6769436351E+002  +1.1076778591E-002 +3.0971108213E+001  +7.6852119334E-003 -9.1335180721E+001  +1.0088709802E-001 +1.7815957026E+002 
3387919.900 +1.1208863026E-001 +1.6171486473E+002  +1.5843765465E-002 +1.5999232636E+001  +1.7369211469E-002 -8.2786149370E+001  +1.1203959884E-001 -1.5295711893E+002 
3513065.081 +1.0235023718E-001 +1.4943898757E+002  +2.9297489443E-002 +2.2419652147E+001  +3.6757327218E-002 -6.9492468678E+001  +1.9533269924E-001 +9.5554109981E+001 
3638210.263 +1.2864042932E-001 +1.2725978600E+002  +6.5434553436E-002 +1.3600423272E+002  +5.1996358062E-002 +6.4637422183E+001  +9.0666509455E-001 +1.5111564091E+002 
3763355.444 +1.2482466184E-001 +1.1854101873E+002  +4.3147111213E-002 +6.0969362398E+001  +3.1153121680E-002 -2.7801784948E+001  +1.5940114521E-001 +6.4849497263E+001 
3888500.626 +1.6425835432E-001 +1.5275853502E+002  +2.7571271117E-002 +1.2240435713E+002  +2.8678437396E-002 +3.9737326782E+001  +1.0076962844E+000 +1.3770836249E+002 
4013645.807 +1.6912427139E-001 +1.5864259355E+002  +1.6653402549E-002 +9.3542378820E+001  +1.6947181486E-002 -4.9804850506E+000  +4.1918208062E-001 +1.4133798039E+002 
4138790.989 +1.8460215307E-001 +1.4392984035E+002  +2.7312536256E-002 +1.0033964570E+002  +2.8257182552E-002 +5.4935056777E+001  +4.2417430488E-001 +1.3004072971E+002 
4263936.170 +1.6546420326E-001 +1.4578786997E+002  +2.5217046816E-002 +9.4896651954E+001  +2.1124180189E-002 +6.0548366483E+001  +5.4368734047E-001 +1.5027369221E+002 
4389081.352 +2.1916949604E-001 +1.4086282428E+002  +2.4399130772E-002 +5.5014400031E+001  +2.6985112194E-002 +9.4961948568E-001  +1.5881834348E-001 +3.3592989342E+001 
4514226.533 +2.1773953108E-001 +1.3737599064E+002  +2.8835415180E-002 +1.0621777127E+002  +2.6514474997E-002 +3.1226277740E+001  +5.1323000697E-001 +1.0078865914E+002 
4639371.715 +2.4999264031E-001 +1.3635973753E+002  +9.9017856553E-002 +7.4125504102E+001  +9.6309188268E-002 +3.1051114645E+001  +1.6126128641E+000 +5.5772691794E+001 
4764516.896 +2.6527079209E-001 +1.2153510912E+002  +4.0343695805E-001 -2.6007908541E+000  +4.0806865444E-001 -3.8563863515E+001  +6.7371104859E+000 -3.8159222503E+001 
4889662.078 +4.0312479242E-001 +1.3104952369E+002  +8.1315391456E-002 +1.4336649686E+002  +9.9391646264E-002 +8.8822935555E+001  +1.7509729088E+000 +1.1257202617E+002 
5014807.259 +4.6229626443E-001 +1.3731182417E+002  +1.7815648522E-001 -6.0961179395E+001  +2.6937690061E-001 -1.1655363247E+002  +4.8619163114E+000 -1.2439808727E+002 
5139952.441 +3.6402468091E-001 +1.3143684743E+002  +5.8410302420E-002 +1.1197542414E+002  +1.0589329981E-001 +6.9839248487E+001  +1.6498917591E+000 +1.0367280415E+002 
5265097.622 +3.6720410382E-001 +1.3270808837E+002  +1.5456174982E-001 +1.1677341198E+002  +1.9547573466E-001 +7.6784048758E+001  +3.9964325545E+000 +9.2389668853E+001 
5390242.804 +4.4645793591E-001 +1.3065691584E+002  +1.0510346497E-001 +7.0069750292E+001  +1.0780009610E-001 +3.5673314494E+001  +2.0661928345E+000 +2.4080325838E+001 
5515387.985 +4.2095449981E-001 +1.1968004885E+002  +7.9141261082E-002 +1.1022381338E+002  +7.5558904052E-002 +7.3161988401E+001  +1.3669561273E+000 +1.1689511402E+002 
5640533.166 +5.1079513612E-001 +1.3596691159E+002  +6.8066904812E-002 +1.1023841156E+002  +6.2785280400E-002 +6.8937172251E+001  +1.4724259545E+000 +6.8035964004E+001 
5765678.348 +5.4153772999E-001 +1.2091457711E+002  +7.7004685165E-002 +1.1970098288E+002  +8.6991557722E-002 +9.4044393187E+001  +1.8041715461E+000 +1.1335320170E+002 
5890823.529 +6.3248783470E-001 +1.1651587312E+002  +1.3761829184E-001 +1.1279626335E+002  +7.9918851750E-002 +9.3645845956E+001  +2.0299686592E+000 +9.3387839976E+001 
6015968.711 +7.0748898042E-001 +1.1308257265E+002  +1.8671919058E-001 +9.3997643954E+001  +1.4066751198E-001 +6.9574043687E+001  +3.2260473631E+000 +6.4443791713E+001 
6141113.892 +8.1755583928E-001 +1.1158854041E+002  +1.8069268717E-001 +7.0858456190E+001  +1.8585770685E-001 +5.2038701172E+001  +2.6219718496E+000 +4.0472482554E+001 
6266259.074 +7.6253904663E-001 +1.1150893824E+002  +1.0486161500E-001 +4.1867150704E+001  +9.4485615804E-002 +3.3970109764E+001  +1.7732327172E+000 +1.5265518055E+001 
6391404.255 +9.1358301028E-001 +7.2989520137E+001  +1.6164210733E-001 +2.3944754023E+001  +1.5689737355E-001 +2.2796919592E+001  +1.6600154875E+000 +1.1635021863E+001 
6516549.437 +1.2340379113E+000 +8.2974789369E+001  +1.3671079200E-001 +3.4601325329E+001  +1.2496892705E-001 +2.5308381171E+001  +1.6422073526E+000 +1.8428547554E+001 
6641694.618 +1.7530935460E+000 +8.3866862137E+001  +1.1738762336E-001 +3.8728062679E+001  +9.7087428423E-002 +3.5743054013E+001  +1.1444742337E+000 -8.1009903103E+000 
6766839.800 +2.0096672319E+000 +4.6818216340E+001  +1.7741734880E-001 +2.2159673178E+001  +1.5654443786E-001 +1.8873076998E+001  +1.2154360198E+000 -5.4338666388E+000 
6891984.981 +2.1190238000E+000 +3.0159843684E+001  +1.4272543153E-001 +5.3927769689E+000  +1.7729182730E-001 +2.9906489971E+000  +1.4162455358E+000 -4.9472873088E+000 
7017130.163 +1.8325301129E+000 +2.7571348796E+001  +1.3730810414E-001 +9.5868704859E+000  +1.2151392710E-001 -3.6134302664E+000  +1.2775176633E+000 -1.2457263153E+001 
7142275.344 +1.6429948599E+000 +7.3663596444E+000  +1.0633298184E-001 -2.6218072298E+000  +9.7261685529E-002 -2.7599543715E+000  +1.1634948654E+000 -1.5888094562E+001 
7267420.526 +1.3422298338E+000 +9.9672644074E+000  +8.3475300176E-002 +1.2303140635E+001  +7.7797536593E-002 +7.3671858421E+000  +1.2143711171E+000 -9.3360567893E+000 
7392565.707 +1.4323936230E+000 -1.7579967033E+000  +6.2585903488E-002 +1.0093302013E+001  +6.0858901560E-002 +4.3726568158E+000  +1.1860410463E+000 -5.1556080411E+000 
7517710.889 +1.2401989687E+000 -5.2767983059E+000  +5.9455644803E-002 +4.1970663813E+000  +6.3862943350E-002 +5.9752247826E+000  +1.1810116394E+000 -1.9552572048E-001 
7642856.070 +1.0184289646E+000 +1.0817336949E+001  +5.1670817617E-002 +1.1721289529E+001  +5.7584648155E-002 +1.2798894694E+001  +1.0549979006E+000 -4.6767783511E+000 
7768001.252 +9.2467598995E-001 -1.3580863177E+000  +5.4979344167E-002 +3.8766402137E+000  +6.0072861358E-002 +8.9495502792E+000  +9.3874324123E-001 -1.5347807537E+000 
7893146.433 +8.5458492165E-001 +2.3832747185E+000  +4.9654644367E-002 +9.3001081304E+000  +5.3371517624E-002 +6.9130203598E+000  +9.1956354100E-001 +1.9943526140E+000 
8018291.615 +7.4751128602E-001 +8.8468085106E+000  +4.4788073599E-002 -5.7951115056E-001  +4.6638112156E-002 +1.0281900572E+001  +8.4769940446E-001 -1.2445498702E+000 
8143436.796 +7.6959289720E-001 +4.1276264662E+000  +4.2708659835E-002 +6.5633097645E+000  +4.8125486767E-002 +1.5284090221E+001  +7.6630830548E-001 -5.8545905538E+000 
8268581.977 +7.0254156080E-001 +5.2110472823E+000  +4.3859235938E-002 -3.5340553251E+000  +4.8710628269E-002 +9.0800005653E+000  +6.9668256503E-001 -4.9830425717E+000 
8393727.159 +6.3520260442E-001 +7.4843221439E+000  +4.3974657759E-002 +3.1066026050E+000  +4.5788001970E-002 +9.4677430227E+000  +6.6521261358E-001 +6.8377413877E+000 
8518872.340 +6.9218525052E-001 +5.0744935288E+000  +4.2365599641E-002 -8.6201379088E-001  +4.5006894975E-002 +9.6971456015E+000  +6.8392364743E-001 -2.9732213906E+000 
8644017.522 +6.7996521327E-001 +9.2875377305E+000  +4.2304306955E-002 +1.4272120944E+000  +4.2404650694E-002 +1.2907678109E+001  +6.5571479587E-001 +5.1289097295E-001 
8769162.703 +6.0480546325E-001 +1.0927283823E+001  +4.5998742996E-002 +2.2738579750E+000  +4.3748888911E-002 +1.6109796828E+001  +6.3445452055E-001 +9.3276863970E-001 
8894307.885 +5.4466735879E-001 +1.2372498427E+001  +4.3669382228E-002 +4.4442270539E+000  +4.1373357547E-002 +1.3831071160E+001  +6.1753016071E-001 +1.3313623508E+000 
9019453.066 +5.6851709177E-001 +6.6672667595E+000  +4.1479461255E-002 +3.8288069089E+000  +4.2567041288E-002 +1.5560703559E+001  +5.9627604507E-001 +3.1999630032E+000 
9144598.248 +5.3363259709E-001 +5.9912747457E+000  +3.9126844648E-002 +1.1255071131E+000  +4.1350465054E-002 +9.1552535790E+000  +5.9573428429E-001 +4.3688598638E+000 
9269743.429 +5.3682622867E-001 +7.9783703136E+000  +4.1702639142E-002 +3.0243720825E-001  +4.1852587757E-002 +7.6235069222E+000  +5.8754794764E-001 -1.3287905554E+000 
9394888.611 +5.0081345105E-001 +7.4979284781E-001  +4.2124699137E-002 -1.9939566294E+000  +3.9130702608E-002 +1.1664953266E+001  +5.5293832937E-001 +1.7361965461E+000 
9520033.792 +4.8036230832E-001 +5.5619605168E+000  +4.4193530684E-002 +3.1089109739E+000  +4.4928607085E-002 +1.0543552947E+001  +5.4431689736E-001 -4.3934963549E+000 
9645178.974 +4.9153568608E-001 +1.1013124345E+000  +4.6645848980E-002 -3.9344064488E+000  +4.3303037198E-002 +1.6697945672E+001  +5.5798728182E-001 -4.0401652483E+000 
9770324.155 +5.1102035257E-001 -1.9660269174E+000  +4.5559530119E-002 -1.8715175120E-001  +4.4087537439E-002 +1.5389725255E+001  +5.3859838561E-001 -6.1591502509E+000 
9895469.337 +4.8362444903E-001 -2.1174670063E+000  +4.4305736570E-002 -6.1792529161E+000  +4.5481641539E-002 +1.2668437740E+001  +5.3324945690E-001 -2.8953283618E+000 
10020614.518 +5.2913304236E-001 -3.0928083921E+000  +4.2966214692E-002 +2.0075927116E+000  +3.9810302979E-002 +1.6224684476E+001  +5.0498346301E-001 -7.6686605495E+000 
10145759.700 +5.2353759111E-001 -1.1477433809E+000  +4.1542875081E-002 +1.7769498222E+000  +4.4511582884E-002 +1.9765538897E+001  +5.6867381436E-001 -9.1041431436E-001 
10270904.881 +4.9289514863E-001 +5.0534770443E+000  +4.0897570815E-002 +2.0627732509E+000  +4.2589472846E-002 +1.6412608277E+001  +5.3267875218E-001 -5.8478909080E-001 
10396050.063 +4.6458120407E-001 +1.5614401649E+000  +4.4055679623E-002 -1.8081531831E+000  +4.1341140180E-002 +1.3263667697E+001  +5.2666372552E-001 -4.2903948454E+000 
10521195.244 +4.9413912097E-001 +1.0889522548E+001  +4.3062960691E-002 -2.3890605950E-001  +4.2570582852E-002 +1.8352761905E+001  +5.2346833047E-001 +1.1063604876E+000 
10646340.426 +4.9479666587E-001 +4.7403808488E+000  +4.6273702528E-002 +2.6729384439E+000  +4.4166382541E-002 +1.8515535501E+001  +5.4094506416E-001 -8.0204885717E-001 
10771485.607 +5.2071413262E-001 +6.9959983674E+000  +4.5741484501E-002 +2.2372302322E+000  +4.1699984324E-002 +1.7014603166E+001  +5.2253645206E-001 -2.4312216258E-001 
10896630.788 +5.3034254759E-001 +4.7718358814E+000  +4.6614882635E-002 +4.9420428566E+000  +4.6081239369E-002 +1.4694557574E+001  +5.3062943733E-001 +2.0129651849E+000 
11021775.970 +5.4478909357E-001 +6.0775927951E+000  +4.5476415758E-002 +2.7821049737E+000  +4.6411547475E-002 +1.9780544704E+001  +5.7734736386E-001 +1.9218308188E+000 
11146921.151 +5.3488502838E-001 +9.2282313223E+000  +4.3135646081E-002 +5.5588898892E+000  +4.4512791352E-002 +1.8425664245E+001  +5.8816103118E-001 +4.4278548522E-001 
11272066.333 +5.7742273931E-001 +8.6221579744E+000  +4.4910867744E-002 +4.5547692055E+000  +4.4903841100E-002 +1.8514938788E+001  +5.4872640131E-001 +6.7155920491E-001 
11397211.514 +5.4343854903E-001 +8.4346293349E+000  +4.4661829470E-002 +5.0607978832E+000  +4.6076428966E-002 +1.7099575206E+001  +5.5745108116E-001 +3.1026543232E+000 
11522356.696 +5.7966689331E-001 +6.0166058357E+000  +4.7095604703E-002 +7.3634505059E+000  +4.8067805625E-002 +1.8185927504E+001  +5.8462355659E-001 +2.2938825365E+000 
11647501.877 +5.9622729528E-001 +4.8844846283E+000  +4.7286964019E-002 +5.3917226609E+000  +4.6067205728E-002 +1.9007543975E+001  +6.0998656014E-001 +2.3337661248E+000 
11772647.059 +6.4243342354E-001 +4.1150244490E+000  +5.0747813428E-002 +6.8918462977E+000  +4.7831328197E-002 +1.7436126724E+001  +6.0964003792E-001 +2.3328227617E+000 
11897792.240 +6.0362347572E-001 +4.2204078373E+000  +4.9046607873E-002 +6.5872425280E+000  +4.7965441471E-002 +1.7311251922E+001  +6.3250326654E-001 +7.0877207787E-001 
12022937.422 +5.9029043486E-001 +5.6796524077E+000  +4.9769181220E-002 +6.6130930925E+000  +4.8030689531E-002 +1.8978878277E+001  +6.3331295737E-001 +1.5580564041E+000 
12148082.603 +6.2292097809E-001 +5.9195722765E+000  +4.8625508389E-002 +7.9250099446E+000  +4.7549280214E-002 +1.7913897300E+001  +6.8640098517E-001 +4.3338995960E+000 
12273227.785 +6.4538628922E-001 +3.4192547295E+000  +4.9901711102E-002 +7.5972609938E+000  +4.9337972879E-002 +1.7226082380E+001  +6.6652027513E-001 -5.2106155605E-002 
12398372.966 +6.6055241240E-001 +3.7678696969E+000  +4.8541468128E-002 +1.0183547336E+001  +5.0221935864E-002 +1.5743927337E+001  +6.8812017554E-001 +7.9303259272E-001 
12523518.148 +6.8310279233E-001 +2.9832165416E+000  +5.0273319650E-002 +8.0059372629E+000  +5.0678787767E-002 +1.4604370154E+001  +6.9063179713E-001 +1.3148415578E+000 
12648663.329 +6.9753541076E-001 +3.2019273467E+000  +5.1772849049E-002 +9.3132168920E+000  +5.0537054918E-002 +1.6004411951E+001  +7.1059479861E-001 +1.4546954425E-001 
12773808.511 +6.9391718588E-001 +3.1690718281E+000  +5.2887152592E-002 +9.0560405030E+000  +5.0585554306E-002 +1.3662127192E+001  +6.9358897476E-001 -7.1341698672E-001 
12898953.692 +7.0854664309E-001 -3.3981888846E-001  +5.3398951100E-002 +9.3349183632E+000  +5.1755959206E-002 +1.6109812509E+001  +7.0600234065E-001 -2.4959139670E+000 
13024098.874 +7.3022988519E-001 +6.5006196091E-001  +5.3476521881E-002 +9.8716372531E+000  +5.3572157660E-002 +1.3005790710E+001  +7.4122722734E-001 -1.6298839086E+000 
13149244.055 +7.3040241928E-001 -4.4653928265E-001  +5.4661871429E-002 +1.0159737203E+001  +5.2786955112E-002 +1.2654666711E+001  +7.7115505864E-001 -2.6731080596E+000 
13274389.237 +7.6057581088E-001 -9.3241946771E-001  +5.4270291623E-002 +9.7593810274E+000  +5.4213992314E-002 +1.2365583238E+001  +7.9665426010E-001 -1.4083651419E+000 
13399534.418 +7.8158785775E-001 -1.8896077605E-001  +5.4039962198E-002 +8.1838513925E+000  +5.4160587031E-002 +1.3243859926E+001  +7.8940814031E-001 -1.2718517487E+000 
13524679.599 +8.0690547427E-001 +4.0213494414E-001  +5.6238565796E-002 +1.2242810012E+001  +5.5079160553E-002 +1.4518407894E+001  +8.1255540586E-001 -3.3910699647E+000 
13649824.781 +8.1293295548E-001 -3.4046155716E-001  +5.5061608488E-002 +1.0208147784E+001  +5.1736828651E-002 +1.2132368496E+001  +8.4090514882E-001 -2.2956246760E+000 
13774969.962 +8.2879890629E-001 -2.8774344893E+000  +5.6614621963E-002 +1.0467043700E+001  +5.5628248212E-002 +1.0461156367E+001  +8.4449412173E-001 -4.1790819960E+000 
13900115.144 +8.3737655489E-001 -2.3383496241E+000  +5.6061217235E-002 +1.0308009128E+001  +5.4513070757E-002 +1.0377382968E+001  +8.7500480951E-001 -3.1057538642E+000 
14025260.325 +8.6417035890E-001 -4.4445623598E+000  +5.7748612344E-002 +1.0262052101E+001  +5.6831066053E-002 +1.0244773211E+001  +8.7307632362E-001 -4.0209611036E+000 
14150405.507 +8.8236590714E-001 -3.8842800401E+000  +5.7698686401E-002 +8.6704122577E+000  +5.6894005438E-002 +9.3979646432E+000  +8.7972503438E-001 -4.1364646518E+000 
14275550.688 +9.0440706889E-001 -4.1697889193E+000  +5.7849927371E-002 +8.9156007523E+000  +5.5985637624E-002 +9.9937193870E+000  +9.0234329905E-001 -5.0030256770E+000 
14400695.870 +9.1615688440E-001 -5.1009597660E+000  +5.8420254481E-002 +9.1396965235E+000  +5.5562204735E-002 +8.1078198675E+000  +9.2213874971E-001 -4.8707922963E+000 
