!  2-Port S-parameters saved by WinCal
! VAR MeasName=S-Parameters (CALIBRATED_DATA) read from VNA (P5004A)
! VAR MeasDate=28/08/2024 10:40:40
! VAR NAME=S2_r5c9_formed_9k-100M_2
! VAR FILENAME=S2_r5c9_formed_9k-100M_2.S2P
! VAR DATE=28/08/2024 10:40:40
! VAR PHYS_PORTS=1,2
! VAR ObjTypeName=DATASET
! VAR IndexType=Frequency
!
# Hz S MA R 50
9000.000 +9.0636933925E-002 -1.5419133451E+002  +2.5962920292E-002 -7.0159614608E+001  +6.5977618752E-003 -4.5549979020E+001  +2.7578350238E-001 -1.3411527009E+002 
134145.181 +1.1116956166E-001 +1.6955237144E+002  +1.9500177681E-004 +7.6461857870E+001  +2.2539198255E-004 +8.8257529484E+001  +2.3838784277E-001 -1.7146993974E+002 
259290.363 +1.1183120564E-001 +1.7008483964E+002  +4.8215935316E-004 -3.2390156390E+000  +5.5841881598E-004 -8.3350178199E+001  +2.4751845681E-001 -1.6859223336E+002 
384435.544 +1.1518690748E-001 +1.6991731756E+002  +7.3812147949E-004 +1.0456683674E+002  +5.2123555101E-004 +1.2595404714E+002  +2.4137100462E-001 -1.6606406574E+002 
509580.726 +1.1423998388E-001 +1.7259942681E+002  +6.6475092247E-004 -2.4632025975E+001  +1.0221277945E-003 +6.4870557736E+001  +2.6491333046E-001 -1.6646357110E+002 
634725.907 +1.1711069656E-001 +1.7080761428E+002  +9.9962396195E-004 +1.2394321422E+002  +9.7939280409E-004 +4.0180818932E+001  +2.5633906931E-001 -1.6402047880E+002 
759871.089 +1.1762927932E-001 +1.7100826385E+002  +4.1861647659E-004 -1.2114559058E+002  +1.2063319544E-003 +1.0604857674E+002  +2.4590299241E-001 -1.6660277710E+002 
885016.270 +1.1991246873E-001 +1.6956161179E+002  +4.3677040960E-004 -1.7662815519E+001  +5.0189278562E-004 +3.9045044314E+001  +2.4950152157E-001 -1.6728132199E+002 
1010161.452 +1.1533195912E-001 +1.7342291617E+002  +2.1647813731E-003 -1.4510046793E+002  +3.9555739604E-003 -8.7325694253E+001  +1.9768250295E-001 -1.6447934685E+002 
1135306.633 +1.1733380759E-001 +1.6626522256E+002  +1.3782112745E-003 -2.3119222014E+001  +3.0607972129E-003 -1.7899409237E+002  +1.8755303220E-001 -1.4828196562E+002 
1260451.815 +1.1981444315E-001 +1.7167392229E+002  +1.1829929009E-003 -7.2078876820E+001  +1.5477982960E-003 +1.5010027210E+001  +2.3490782505E-001 -1.5881440904E+002 
1385596.996 +1.2582848049E-001 +1.7232766595E+002  +1.8339138598E-003 -1.4364028056E+002  +1.8595566920E-003 -1.3971774434E+002  +2.7687266119E-001 -1.5898182081E+002 
1510742.178 +1.2664105214E-001 +1.7119302895E+002  +1.3881982152E-003 +1.2168968589E+002  +1.3923098811E-003 -1.2490005089E+002  +2.6065018540E-001 -1.5729989883E+002 
1635887.359 +1.2966971974E-001 +1.7091926650E+002  +1.7004090732E-004 -1.3296459632E+002  +6.7988954614E-004 +4.9773192510E+001  +2.4761077282E-001 -1.5392101739E+002 
1761032.541 +1.2847504862E-001 +1.6929505029E+002  +1.8449111849E-003 +1.3511616146E+000  +7.6893404783E-004 -1.4935919834E+002  +2.2650954247E-001 -1.5218046613E+002 
1886177.722 +1.3008000059E-001 +1.6860163148E+002  +7.4031187009E-004 +1.6334468834E+002  +1.6618630026E-003 -2.6061474831E+001  +2.1650908023E-001 -1.5726378487E+002 
2011322.904 +1.3093692918E-001 +1.6649971304E+002  +1.0730871552E-003 +4.4065352115E+001  +1.6540785803E-003 +7.4596249802E+001  +2.0928249660E-001 -1.5521621818E+002 
2136468.085 +1.3339995524E-001 +1.6757049110E+002  +4.7903695148E-004 +1.6234817409E+002  +3.2246079735E-003 -1.9383504574E+001  +1.4943122322E-001 -1.7409735258E+002 
2261613.267 +1.3357715663E-001 +1.6467237579E+002  +3.6282008503E-003 +3.3300766476E+001  +9.3287796883E-004 +6.4381731508E+001  +1.4489120495E-001 -1.7393134067E+002 
2386758.448 +1.3832613011E-001 +1.6451013682E+002  +4.1995991651E-003 +1.1818651038E+002  +4.2325267746E-003 -8.3795769776E+001  +1.6955330549E-001 -1.7485517130E+002 
2511903.630 +1.4049665044E-001 +1.6150864802E+002  +1.6053977993E-003 +1.0817271791E+002  +1.6327053006E-003 -5.6164022384E+001  +1.8987264126E-001 +1.7035078722E+002 
2637048.811 +1.2682724662E-001 +1.6596344224E+002  +1.1871808367E-002 +1.0082252956E+002  +8.3091678929E-003 -1.0792601880E+002  +1.8908123817E-002 +2.3870511783E+001 
2762193.992 +1.1752472927E-001 +1.6907847542E+002  +2.8000570365E-002 -9.4983700625E+000  +2.2877393597E-002 -4.5663586687E+001  +7.9345512526E-001 -2.3221429495E+001 
2887339.174 +1.2450547483E-001 +1.7503623843E+002  +3.8510330463E-002 -3.9308388203E+001  +5.8375391699E-002 -1.7037288517E+002  +1.1677529233E+000 -3.6793033548E+001 
3012484.355 +1.2076683407E-001 +1.7974219190E+002  +1.5200065370E-003 -6.4537112637E+001  +5.1393512339E-003 +1.2720745271E+002  +3.0043014573E-001 -1.1730032997E+002 
3137629.537 +1.1625501551E-001 +1.7481524261E+002  +3.2844360261E-003 +1.7301973326E+001  +1.4166150745E-002 -1.5678777080E+002  +2.3732529148E-001 -8.6406873637E+001 
3262774.718 +1.0387951564E-001 +1.6102499792E+002  +1.7861038363E-002 +5.4630882727E+001  +8.4731073887E-003 -1.0449975479E+002  +1.8064843994E-001 -1.8373641147E+001 
3387919.900 +9.5387472161E-002 +1.5980168439E+002  +8.3229219926E-003 -2.0365739507E+001  +1.7499593787E-002 -8.1655068189E+001  +1.0208722888E-001 -1.1381427951E+002 
3513065.081 +1.6017318352E-001 +1.4572201761E+002  +2.6119390805E-002 +5.8368298107E+001  +1.4143316816E-002 +8.5971231859E+001  +5.9016731345E-001 -2.7634348982E+001 
3638210.263 +1.8200063170E-001 +1.4442401080E+002  +1.6851729817E-003 +6.8503732619E+001  +1.0033224257E-002 -5.7223493919E+001  +5.1403624614E-001 +1.5033190184E+002 
3763355.444 +1.5061387198E-001 +1.3998857648E+002  +4.3581295888E-003 +1.0509645019E+002  +5.2467419534E-003 +7.3834924912E+001  +4.0957080364E-001 +1.5099609704E+002 
3888500.626 +1.6957549838E-001 +1.5451640419E+002  +5.6794110669E-003 +6.0049335394E+001  +7.2830889913E-003 -1.3491482312E+001  +4.9155306177E-001 +1.0941524826E+002 
4013645.807 +1.8114183496E-001 +1.5300481973E+002  +4.9386851163E-003 +4.9418633745E+001  +8.7175247831E-003 +7.4513347514E+001  +3.5815762503E-001 +1.3201696769E+002 
4138790.989 +2.1732810327E-001 +1.3921709580E+002  +1.1840491546E-002 +9.6305287658E+001  +8.0682255916E-003 -3.9746667815E+001  +2.7942246120E-001 +1.3932061272E+002 
4263936.170 +2.3988108642E-001 +1.4377553506E+002  +1.4153856799E-002 +1.3710911034E+002  +1.4580700330E-002 +6.0324185796E+001  +5.8723247360E-001 +1.3527568103E+002 
4389081.352 +2.1437121768E-001 +1.3576379468E+002  +1.7247796567E-002 -1.0853459314E+002  +3.4087314324E-002 +2.1060468221E+001  +2.1418613675E+000 +1.4605895248E+002 
4514226.533 +2.5786929530E-001 +1.3104207793E+002  +6.7812261092E-002 +6.8858002116E+001  +3.4186928780E-002 -3.1718509976E+001  +1.6048841083E+000 +1.2706183656E+001 
4639371.715 +2.9960609350E-001 +1.3476830350E+002  +3.3607594582E-002 -1.6162519858E+002  +4.2672972186E-002 -1.7310576699E+002  +2.3210835582E+000 -1.7041116346E+002 
4764516.896 +3.5267242097E-001 +1.2841563457E+002  +1.0938807444E-001 +1.1222059797E+002  +4.4292560244E-002 -5.4671113563E+000  +2.6625361246E+000 +4.3024132929E+001 
4889662.078 +2.9134974046E-001 +1.2901659032E+002  +6.2858385485E-002 +4.5015686043E+000  +1.6331034248E-001 -8.0200879023E+001  +7.8583309298E+000 -5.6889087763E+001 
5014807.259 +4.2677410832E-001 +1.0948228408E+002  +7.9510934877E-002 -1.5731052302E+002  +6.3559238759E-002 +1.2781103251E+002  +2.4142084637E+000 +1.6940452713E+002 
5139952.441 +3.9063871853E-001 +1.2973587193E+002  +3.0616841967E-002 +1.0173729563E+002  +5.7534230225E-002 +7.1819485899E+001  +2.1786227196E+000 +8.8118783723E+001 
5265097.622 +3.5988272933E-001 +1.2620509161E+002  +4.1232536586E-002 +1.3926041837E+002  +1.9990397733E-002 +6.5551110645E+001  +2.2095394923E+000 +1.0963769032E+002 
5390242.804 +4.7468066767E-001 +1.3284046724E+002  +6.4803540952E-002 +1.0105449129E+002  +4.7839599006E-002 +1.2528845608E+002  +2.6399571672E+000 +9.5667151249E+001 
5515387.985 +4.8786448470E-001 +1.3218114399E+002  +1.5843768468E-002 +1.2361430839E+002  +1.4958865415E-002 +1.2486829108E+002  +1.5919186150E+000 +7.5027421025E+001 
5640533.166 +4.3349169259E-001 +1.2536997003E+002  +2.3647015321E-002 +8.9798279127E+001  +2.2821428028E-002 +5.2695925162E+001  +1.0220455707E+000 +4.3313042172E+001 
5765678.348 +4.3424862171E-001 +1.2632379495E+002  +3.3115732638E-002 +7.2859437789E+001  +3.5688808953E-002 +5.7300553108E+001  +2.0372183880E+000 +5.7239054511E+001 
5890823.529 +6.4494833323E-001 +1.2222135072E+002  +7.8388639569E-002 +1.0646436678E+002  +3.1047529009E-002 +6.9384212063E+001  +2.4950612335E+000 +7.3065859692E+001 
6015968.711 +5.6084236801E-001 +1.0016700968E+002  +7.7665629942E-002 +6.3399225308E+001  +6.1412636783E-002 +3.4052255820E+001  +1.9682791787E+000 +5.8554800136E+001 
6141113.892 +7.8260083358E-001 +1.1323272564E+002  +3.2516408031E-002 +7.5297115035E+001  +3.6200682538E-002 +9.3706266825E+001  +1.3542163790E+000 +4.4028277886E+001 
6266259.074 +8.1417373811E-001 +1.1003402802E+002  +3.0827537608E-002 +8.3413755109E+001  +4.8648370257E-002 +5.1171143109E+001  +1.5450605659E+000 +3.3583197616E+001 
6391404.255 +1.1326231791E+000 +9.1535306074E+001  +7.5592860815E-002 +2.3815824319E+001  +6.3365353976E-002 +1.6158385576E+000  +1.7810300906E+000 +8.8545796348E+000 
6516549.437 +1.4941103875E+000 +9.6909751450E+001  +4.2136050861E-002 +4.2899267491E+001  +5.7599779141E-002 +6.8248001179E+001  +1.2374356190E+000 -2.7839778548E+000 
6641694.618 +1.4639691773E+000 +6.0320710055E+001  +4.9788584363E-002 +3.0768064354E+001  +1.1876090645E-002 +1.2708892969E+001  +1.3293796982E+000 +5.1987779353E+000 
6766839.800 +1.5449893332E+000 +5.7914048988E+001  +2.8176092958E-002 +1.8345251084E+001  +4.3746665182E-002 +2.6055569385E+001  +1.1206541559E+000 -4.7312416669E+000 
6891984.981 +1.6481182427E+000 +3.9319698707E+001  +5.6526732618E-002 +1.9741305558E+001  +2.4534069282E-002 +1.1899757263E+001  +1.2442123612E+000 -4.0062317336E+000 
7017130.163 +1.5268185178E+000 +1.0462396535E+001  +4.0670137788E-002 -2.7148697186E+001  +5.0738688550E-002 +5.4766415933E+000  +1.3491643373E+000 -1.2380196870E+001 
7142275.344 +1.4696568733E+000 +8.6381081228E+000  +3.1602044258E-002 +1.0632330506E+001  +1.2555704574E-002 -6.5865087103E+000  +1.3220641514E+000 -9.9543076135E+000 
7267420.526 +1.4275229598E+000 -3.8957713341E+000  +2.7848152843E-002 -1.4005063806E+000  +3.4002392431E-002 +4.2127299607E-001  +1.2596769550E+000 -1.0178150945E+001 
7392565.707 +1.2485655093E+000 -1.1705282905E+000  +2.5704643968E-002 +1.1931249152E+001  +1.8546971665E-002 +4.8325233756E+001  +1.2851458461E+000 -1.1322799173E+001 
7517710.889 +1.2869357398E+000 -2.3060847136E-001  +1.3872079195E-002 +9.1764853857E+000  +2.1668626734E-002 -1.6980135596E+001  +1.1836922588E+000 -7.7549621463E+000 
7642856.070 +1.0176160957E+000 +1.1696011107E+000  +2.5644581810E-002 +3.4420254289E+001  +2.4156147549E-002 +1.4548712645E+001  +1.0681811949E+000 -5.5253401681E+000 
7768001.252 +1.0062044657E+000 +5.6310060259E+000  +1.9725008949E-002 +1.8706361221E+000  +2.3112782778E-002 +1.1505738757E+001  +1.0338759618E+000 -1.7866064583E-001 
7893146.433 +8.7101827903E-001 +7.3163413016E+000  +2.3447069524E-002 +8.9872417898E+000  +1.3480888940E-002 +2.3580438483E+001  +8.4902149459E-001 -2.9627078646E+000 
8018291.615 +7.4217595777E-001 +7.3964841085E+000  +2.1477614051E-002 -5.0896446206E+000  +1.4822772557E-002 -4.9118345540E-001  +8.6498876293E-001 +2.3656938367E+000 
8143436.796 +8.0222916164E-001 +1.1321038718E+001  +1.9541395794E-002 +1.9877290025E+001  +1.6580038694E-002 +2.4345303778E+001  +8.7608342040E-001 +3.3298239197E+000 
8268581.977 +7.1653341809E-001 +6.3208111672E+000  +1.3973926007E-002 -1.1187638003E+001  +1.6899130080E-002 +3.5440962820E+001  +6.9599996893E-001 -3.0803940550E+000 
8393727.159 +7.1260332210E-001 +7.7259777722E+000  +2.1198218521E-002 +2.5685425696E+000  +1.7161781695E-002 +1.2022942515E+001  +7.9324947638E-001 +2.3380670280E-001 
8518872.340 +6.7798790172E-001 +1.0529375653E+001  +2.3130919628E-002 +1.7922230858E+001  +1.1449446843E-002 +3.6099696130E+001  +6.8202432507E-001 +3.7678888845E+000 
8644017.522 +6.4872157126E-001 +3.8890103302E+000  +1.5233066926E-002 +5.2862389499E+000  +1.6274901738E-002 +2.4300582862E+001  +6.5850962346E-001 -1.5954910246E+000 
8769162.703 +6.3245319379E-001 +1.2699525636E+001  +1.3554995573E-002 +1.7868109370E+001  +1.6519314816E-002 +1.6630893252E+001  +6.9883799713E-001 +1.4895681156E+000 
8894307.885 +6.0826866574E-001 +5.2151460379E+000  +1.7608047232E-002 -1.3818939141E+000  +1.6148311559E-002 +1.4422906089E+001  +6.7131538249E-001 -2.1980840936E+000 
9019453.066 +6.3236030434E-001 +4.4688247815E+000  +1.1627173791E-002 +9.8269663665E+000  +1.6743799305E-002 +1.4529873644E+001  +5.4038570229E-001 -2.2000209469E+000 
9144598.248 +5.7235785974E-001 +6.5681502619E+000  +1.4728932977E-002 +2.0644748452E+001  +1.3881467684E-002 +5.4545425096E+000  +6.2944563233E-001 -1.7969644611E+000 
9269743.429 +5.1501568213E-001 +8.7929462583E+000  +1.3575540906E-002 +9.9741701396E+000  +1.5034346798E-002 +1.6354005528E+001  +5.9769599326E-001 +3.3537136529E-001 
9394888.611 +5.3828258517E-001 +5.0595531573E+000  +1.6030020894E-002 +1.1534607924E+001  +1.5979779563E-002 +1.7326025069E+001  +5.4998641102E-001 -1.2094885239E+000 
9520033.792 +5.4543348318E-001 +5.8601274786E+000  +1.6144087151E-002 +1.3776956900E+001  +1.9621850227E-002 +2.0319098256E+001  +5.8660350850E-001 -7.5926390940E+000 
9645178.974 +5.5161415457E-001 +4.3572134237E+000  +1.7108815764E-002 +5.0190707334E+000  +1.6949896750E-002 +3.0274423342E+001  +5.9624492436E-001 -5.1643723227E+000 
9770324.155 +4.8178890940E-001 +1.8541555369E+000  +1.4989865187E-002 +7.6374332054E+000  +1.5576839358E-002 +2.8685812523E+001  +6.2218121923E-001 -5.8279133590E+000 
9895469.337 +5.2196496796E-001 +2.6686385295E+000  +1.5691332264E-002 +1.7759927474E+001  +1.7669626249E-002 +3.7336197123E+001  +5.9170928819E-001 -4.5649423072E+000 
10020614.518 +5.2368299339E-001 +2.0440871375E+000  +1.7488825930E-002 +1.6683707257E+001  +1.3257092903E-002 +2.7510561202E+001  +5.8241199759E-001 -2.9634456316E+000 
10145759.700 +5.1463896028E-001 +2.8518122941E+000  +1.7365603147E-002 +1.6284653056E+001  +1.7722375871E-002 +2.2665658436E+001  +5.6733890312E-001 -6.5682846724E+000 
10270904.881 +5.5683241173E-001 +3.6300710239E+000  +1.4500804016E-002 +8.6859319069E+000  +1.4948345570E-002 +3.3109055517E+001  +5.6384790622E-001 -2.7609714354E+000 
10396050.063 +5.4202727435E-001 +7.0984979566E+000  +1.6936954902E-002 +4.9141693891E+000  +1.7880069024E-002 +2.5315032883E+001  +5.6865818564E-001 -2.8749927099E+000 
10521195.244 +5.8800722766E-001 +3.5030261768E+000  +1.6422603033E-002 +1.2377270227E+001  +1.4163487192E-002 +2.3793177039E+001  +5.7231623958E-001 -8.0817230516E-001 
10646340.426 +5.5996294214E-001 +6.4944627864E+000  +1.5925467095E-002 +1.6396647803E+001  +2.0097766584E-002 +3.3312582019E+001  +5.8350984839E-001 +6.8408590291E-001 
10771485.607 +5.3052954451E-001 +8.2143823141E+000  +1.5972419933E-002 +1.2182853406E+001  +1.4002948374E-002 +2.3313038196E+001  +6.0124339966E-001 +3.3883135726E-001 
10896630.788 +5.4232019142E-001 +8.7563214520E+000  +1.7639144196E-002 +1.3060870639E+001  +1.8722148368E-002 +2.8386961533E+001  +6.0785695917E-001 +5.8551649611E-001 
11021775.970 +5.4650098080E-001 +5.8439498898E+000  +1.8760508729E-002 +1.3829034618E+001  +1.5764124179E-002 +2.1779506951E+001  +5.9081711079E-001 +2.0089238448E+000 
11146921.151 +5.8967430060E-001 +6.4352622509E+000  +1.6291484336E-002 +2.1801071922E+001  +1.7207996389E-002 +3.1391758813E+001  +6.0517844286E-001 +3.3870402371E+000 
11272066.333 +6.1884546491E-001 +4.6247552543E+000  +1.5325007083E-002 +1.7351742258E+001  +1.5464399692E-002 +2.7101858013E+001  +6.3316116050E-001 +3.7337488142E-001 
11397211.514 +5.8180567339E-001 +5.9499394368E+000  +1.7574295518E-002 +1.9803666609E+001  +1.8769225047E-002 +2.5409098160E+001  +6.1721574441E-001 +1.4105455442E+000 
11522356.696 +6.1734996867E-001 +4.7848281206E+000  +1.5018707836E-002 +1.3503958800E+001  +1.8566613479E-002 +2.7483474522E+001  +6.3294590126E-001 +2.8581992494E+000 
11647501.877 +6.6033615314E-001 +7.8193832754E+000  +1.6328332490E-002 +1.8166161563E+001  +1.8232118232E-002 +2.7941774550E+001  +6.3838641255E-001 +1.6585028716E+000 
11772647.059 +6.0478604369E-001 +5.7668571367E+000  +1.9965457434E-002 +2.1748095168E+001  +1.8662213026E-002 +3.0290410944E+001  +6.7499542032E-001 +1.9908982017E+000 
11897792.240 +6.4662478094E-001 +7.5051634788E+000  +1.9840336666E-002 +1.6070004117E+001  +1.7758367364E-002 +2.9625849520E+001  +6.5846126426E-001 +1.1048530271E+000 
12022937.422 +6.7601111407E-001 +5.3216018104E+000  +1.8835065975E-002 +1.7307435049E+001  +1.6970768811E-002 +2.7839036060E+001  +7.0446297596E-001 +9.6908719785E-001 
12148082.603 +6.9115953202E-001 +5.2113462291E+000  +1.7585372566E-002 +1.9251937394E+001  +1.8752578663E-002 +3.0699986186E+001  +7.0058057152E-001 +2.1682852746E+000 
12273227.785 +6.7309238996E-001 +6.1784694319E+000  +1.7970566717E-002 +2.0469875073E+001  +1.9776608442E-002 +2.9364014858E+001  +7.1162450067E-001 +8.1673073561E-001 
12398372.966 +6.9285098339E-001 +2.9380649988E+000  +1.8932812903E-002 +1.4281312356E+001  +1.8446361556E-002 +2.9369706191E+001  +7.2947162942E-001 +9.3887843335E-001 
12523518.148 +7.0713443293E-001 +2.5062438096E+000  +1.9257505729E-002 +1.7974355685E+001  +2.0330198917E-002 +3.0310817844E+001  +7.3735944679E-001 -2.6763518205E+000 
12648663.329 +6.9484828054E-001 +3.4713736284E+000  +1.8178920051E-002 +2.0731024394E+001  +1.8703547716E-002 +3.0414100353E+001  +7.2216646347E-001 +4.0100705583E-001 
12773808.511 +7.4370985038E-001 +2.2779206790E+000  +2.0024923977E-002 +2.2143677767E+001  +2.1272216882E-002 +2.5273497174E+001  +7.7021717753E-001 -3.8973943333E-001 
12898953.692 +7.6377676755E-001 +9.7618790053E-001  +2.0899120763E-002 +1.6077022209E+001  +1.9827327857E-002 +2.9251430348E+001  +7.7020656419E-001 -1.9951925289E+000 
13024098.874 +7.7092344797E-001 +4.6206924692E-002  +1.9856107869E-002 +2.3667832655E+001  +1.8354555039E-002 +2.4527616239E+001  +7.8718296421E-001 -2.0175051184E+000 
13149244.055 +7.7802194619E-001 +6.9895401082E-001  +2.0188173009E-002 +2.2814457008E+001  +1.9816715570E-002 +3.4396725451E+001  +7.9238195901E-001 +1.1384728772E+000 
13274389.237 +7.7443059386E-001 -7.0097169416E-001  +1.9715259905E-002 +1.9223400648E+001  +1.9246612876E-002 +2.3517748507E+001  +8.0190201376E-001 -2.6432639618E+000 
13399534.418 +8.1161073499E-001 -1.4198245021E+000  +2.0586796641E-002 +2.1345034672E+001  +2.1676970176E-002 +2.4957254503E+001  +8.4742084420E-001 -1.3888245218E+000 
13524679.599 +8.2260637690E-001 -2.3358936798E+000  +2.2235541820E-002 +2.6071336648E+001  +2.0071283734E-002 +2.4636390393E+001  +8.6098454971E-001 -2.0298174789E+000 
13649824.781 +8.4811718724E-001 -1.6670331331E+000  +2.1701995861E-002 +1.7137609415E+001  +2.0205804316E-002 +2.4684090144E+001  +8.7056014585E-001 -2.7173981862E+000 
13774969.962 +8.7051536636E-001 -3.4988682581E+000  +2.2265640153E-002 +2.0172789360E+001  +2.1870179698E-002 +2.4528401007E+001  +8.8476893743E-001 -3.1463309654E+000 
13900115.144 +8.7620085142E-001 -3.4440135695E+000  +2.1132065110E-002 +2.1642774440E+001  +1.9121282764E-002 +2.1590306116E+001  +9.1439546842E-001 -4.3929123234E+000 
14025260.325 +9.3548839629E-001 -4.0769719530E+000  +2.1037221800E-002 +1.8953985794E+001  +2.1535833391E-002 +2.3217231933E+001  +9.4026810966E-001 -4.3270144714E+000 
14150405.507 +9.3206057979E-001 -5.1316111823E+000  +2.1828369752E-002 +2.4123158624E+001  +2.2169617298E-002 +2.3974274065E+001  +9.5074030451E-001 -4.7931196425E+000 
14275550.688 +9.4756429053E-001 -6.6443901000E+000  +2.0882330847E-002 +1.9951065524E+001  +2.1264049275E-002 +2.4062548047E+001  +9.6043926690E-001 -3.5835815471E+000 
14400695.870 +9.7675692195E-001 -5.7509997430E+000  +2.0237524309E-002 +2.6345579163E+001  +2.1938773048E-002 +2.2724068366E+001  +9.9833669873E-001 -4.4146927229E+000 
