!  2-Port S-parameters saved by WinCal
! VAR MeasName=S-Parameters (CALIBRATED_DATA) read from VNA (P5004A)
! VAR MeasDate=27/08/2024 16:21:38
! VAR NAME=S2_r1c9_RESET3_9k-100M_1
! VAR FILENAME=S2_r1c9_RESET3_9k-100M_1.S2P
! VAR DATE=27/08/2024 16:21:38
! VAR PHYS_PORTS=1,2
! VAR ObjTypeName=DATASET
! VAR IndexType=Frequency
!
# Hz S MA R 50
9000.000 +6.5794275303E-002 -1.7113581785E+002  +1.5432824882E-002 +1.3619810884E+002  +1.6704979171E-002 -1.9735860230E+001  +3.3608662391E-001 -1.2027482166E+002 
134145.181 +1.1050163344E-001 +1.6971605048E+002  +7.1528252492E-004 -8.0122405038E+001  +9.0208290575E-004 -1.0013190218E+001  +2.3683936104E-001 -1.7105499497E+002 
259290.363 +1.1127514114E-001 +1.7012410575E+002  +3.1777229945E-004 +1.5744317229E+002  +1.1582411356E-003 -6.1523967095E+001  +2.5124122645E-001 -1.6987818535E+002 
384435.544 +1.1325973022E-001 +1.7067100026E+002  +3.6750574217E-004 -6.1115563098E+001  +1.2831654080E-003 -9.6491588952E+001  +2.4591265652E-001 -1.7011450063E+002 
509580.726 +1.1394961705E-001 +1.7138260229E+002  +3.3182060593E-004 -7.4974248435E+001  +7.0403447346E-004 -1.7359041287E+002  +2.3654521884E-001 -1.6538744446E+002 
634725.907 +1.1572020889E-001 +1.7086706662E+002  +3.0683969732E-004 -4.4264904494E+000  +1.4031625129E-004 +1.7369014577E+002  +2.4903512525E-001 -1.6710756201E+002 
759871.089 +1.1978807294E-001 +1.7119248755E+002  +4.7936249354E-004 -1.5430250706E+001  +5.8152723857E-004 +1.5177546209E+002  +2.4158533851E-001 -1.6483353240E+002 
885016.270 +1.1793826859E-001 +1.6959271224E+002  +3.6814014410E-004 -1.6018962443E+002  +5.9702342614E-004 -4.5751912770E+001  +2.4438807790E-001 -1.6598159732E+002 
1010161.452 +1.1577847803E-001 +1.7206064037E+002  +1.1619410373E-003 +3.6822531740E+001  +9.4759757117E-004 +9.4366364440E+000  +1.5702459278E-001 -1.6807120695E+002 
1135306.633 +1.1999414289E-001 +1.6933054002E+002  +2.1985422461E-003 +2.5321069154E+001  +5.5903466589E-003 +5.6700754744E+001  +1.3898761513E-001 -1.6236579581E+002 
1260451.815 +1.1935696874E-001 +1.7156309012E+002  +9.2164706698E-004 -1.6380952085E+002  +7.6709205992E-004 +1.6410134086E+002  +2.3158372504E-001 -1.5710213352E+002 
1385596.996 +1.2209134608E-001 +1.7255445340E+002  +8.0259244959E-004 -8.4271397844E+001  +8.0939215301E-005 +4.4814456650E+001  +2.5544609779E-001 -1.5968624524E+002 
1510742.178 +1.2648986052E-001 +1.7076658762E+002  +3.3697683640E-004 -1.1027161023E+002  +1.1401238663E-003 -4.6576419245E+001  +2.5893173015E-001 -1.5583500240E+002 
1635887.359 +1.2929570412E-001 +1.6980675570E+002  +1.1287086005E-003 +1.7182152497E+002  +4.8938308878E-004 -2.3605888351E+001  +2.3613398281E-001 -1.6061390758E+002 
1761032.541 +1.2783272434E-001 +1.6910074315E+002  +1.7704485387E-003 -1.0024778691E+002  +2.5808077870E-003 -1.1488717750E+002  +2.1226836873E-001 -1.5290870072E+002 
1886177.722 +1.2651149663E-001 +1.6868841844E+002  +1.3447503923E-003 +3.0230376722E+001  +1.2356773765E-003 -8.7840712179E+001  +2.0087634341E-001 -1.6429643193E+002 
2011322.904 +1.2308195719E-001 +1.6775383339E+002  +1.5239398567E-003 +6.1899950929E+001  +1.9694472974E-003 -2.6045811461E+001  +1.8116322080E-001 -1.7946654524E+002 
2136468.085 +1.2587997157E-001 +1.6590309445E+002  +2.4635580280E-003 +1.7161273218E+002  +1.8029468793E-003 +1.2751273894E+002  +1.8756388357E-001 -1.6440946402E+002 
2261613.267 +1.3253077399E-001 +1.6269067202E+002  +3.1961424181E-003 -1.3808955682E+001  +7.1239436871E-003 +3.6907969615E+001  +2.3839070076E-001 +1.5422725095E+002 
2386758.448 +1.3059862646E-001 +1.5748435864E+002  +1.5999021882E-003 -1.1656231228E+002  +2.3469250100E-003 -1.5910687657E+002  +2.1962920307E-001 +1.7430767508E+002 
2511903.630 +1.3784397111E-001 +1.6370953477E+002  +9.3874264806E-003 -1.3473027115E+002  +1.0738454480E-002 -1.6219805093E+002  +2.1277128401E-001 +5.5065343162E+001 
2637048.811 +1.3337048147E-001 +1.6479672422E+002  +4.2525184256E-003 -5.2902653852E+000  +7.2985738074E-003 +7.7733263035E+001  +8.6501015602E-002 -1.5772279848E+002 
2762193.992 +7.3004607699E-002 -1.7005411883E+002  +2.0505736224E-002 -1.0117174671E+002  +1.5013228792E-002 -1.3695719797E+002  +4.9359374546E-001 +3.6606985075E+001 
2887339.174 +1.2841430224E-001 +1.6759669518E+002  +8.8716889693E-003 +6.9653804905E+001  +1.0471872287E-002 -7.7485611941E+001  +2.3362851926E-001 -4.4713445103E+001 
3012484.355 +1.2016147272E-001 -1.6619177662E+002  +2.1694336792E-002 +4.7110379158E+001  +7.3241222674E-003 +5.1700314975E+001  +1.8489365214E-001 -7.9491494621E+001 
3137629.537 +1.2988736515E-001 +1.7162023606E+002  +9.9590432236E-004 +4.2671058511E+001  +1.0166074855E-002 -3.3547754027E+001  +5.4263493686E-002 -9.8317413750E+001 
3262774.718 +8.5758941135E-002 -1.7390713016E+002  +1.3965400372E-002 +5.9278075630E+001  +1.8188846095E-002 -1.1360634848E+002  +3.8484646346E-001 -8.9687973879E+001 
3387919.900 +1.0160214757E-001 +1.5772054204E+002  +1.1818412908E-002 -3.8463809522E+001  +2.0507328687E-002 -9.1323739472E+001  +7.2306352762E-001 -3.1880595941E+001 
3513065.081 +1.4726564205E-001 +1.4558550921E+002  +1.9748715556E-002 -1.6847045462E+002  +1.0524046531E-002 -7.5503974032E+001  +5.6136087890E-001 +1.0457947964E+002 
3638210.263 +1.6131816375E-001 +1.5472446949E+002  +1.2873940124E-002 +1.4648456445E+002  +7.3930418627E-003 -1.0293571198E+002  +4.2067839793E-001 +9.1124746935E+001 
3763355.444 +1.9670670834E-001 +1.5347861681E+002  +1.0590725476E-002 -1.5908406598E+002  +1.5260459992E-002 -1.7291283084E+002  +3.9553801711E-001 +4.7359937225E+001 
3888500.626 +1.8541399483E-001 +1.5015156502E+002  +1.6829036982E-002 -1.5362411986E+002  +2.5338341455E-002 -1.2929255969E+002  +7.8433233980E-001 +6.3197274892E+001 
4013645.807 +1.7430835900E-001 +1.4432221179E+002  +8.5536737331E-003 -9.8755995846E+001  +1.1152004778E-002 +1.7500374323E+002  +4.2217444021E-001 +1.3911759120E+002 
4138790.989 +1.6046984101E-001 +1.5071101186E+002  +1.3025494511E-002 -1.5680007680E+002  +9.3654625283E-003 -1.0948143037E+002  +4.1862379106E-001 +6.9048942534E+001 
4263936.170 +1.8971430290E-001 +1.4342501543E+002  +1.7003923828E-002 +6.9351583589E+001  +2.5777105467E-002 +1.5283211075E+002  +1.3350714093E+000 +1.4465095785E+002 
4389081.352 +2.1979360615E-001 +1.4086269347E+002  +9.2910708027E-003 +1.6333084610E+001  +5.2037710959E-003 +5.4903515762E+000  +4.3133435972E-001 +1.2686550026E+002 
4514226.533 +2.4329703563E-001 +1.3909144343E+002  +1.9083647135E-002 +1.6485521051E+002  +1.1020293623E-002 +1.6828065758E+002  +1.3087063930E+000 +8.1664079662E+001 
4639371.715 +2.2832323667E-001 +1.2190442766E+002  +4.8050718790E-002 -1.0889114888E+002  +7.7291708791E-002 +1.4938695203E+002  +2.8607221808E+000 +1.4233000088E+002 
4764516.896 +4.3942119903E-001 +1.3679889376E+002  +2.6433838926E-002 +1.2476234505E+002  +3.9722058447E-002 +1.7920482344E+002  +1.7515949746E+000 +1.6077444117E+002 
4889662.078 +4.1585057666E-001 +1.3147687389E+002  +4.1172913444E-002 -4.7813694659E+001  +2.7820807514E-002 -1.6428201462E+002  +3.0314527090E+000 +8.2600684604E+001 
5014807.259 +2.8528417199E-001 +1.3150539103E+002  +1.5098962290E-002 -7.8435920670E+001  +2.2838343302E-002 +1.5671165681E+002  +2.0322330445E+000 -1.4017530188E+001 
5139952.441 +4.1260302564E-001 +1.3730429743E+002  +2.3879683246E-002 +1.3692796401E+002  +1.2095179392E-001 +8.9343089060E+001  +4.6305351635E+000 +9.0906014428E+001 
5265097.622 +4.6197181743E-001 +1.2165104272E+002  +5.2173709145E-002 +1.5413886130E+002  +2.2505138455E-002 +1.7792740390E+002  +2.2256786185E+000 +1.2948589825E+002 
5390242.804 +3.7893924282E-001 +1.3433033052E+002  +9.8425700375E-003 +1.2520738302E+002  +4.7043209756E-003 +1.5236968746E+002  +1.3984736918E+000 +8.5537563524E+001 
5515387.985 +4.3772629016E-001 +1.2764398153E+002  +4.4291829276E-002 +1.4415851524E+002  +9.3671526768E-003 +1.4614762484E+001  +1.7730703269E+000 +8.4624435057E+001 
5640533.166 +5.1783423223E-001 +1.3164248462E+002  +7.3686398812E-003 -4.5950544389E+000  +1.2076775687E-002 +1.6911726574E+002  +2.4246757974E+000 +7.7594688420E+001 
5765678.348 +5.1248031307E-001 +1.2281896654E+002  +1.9863708431E-003 -1.1877774859E+002  +1.0960661894E-002 +1.5169761257E+002  +1.6336943563E+000 +6.6101459175E+001 
5890823.529 +6.3641926898E-001 +1.0546092467E+002  +2.2616229295E-002 +1.1571150217E+002  +1.4867871737E-002 +4.7349916299E+001  +1.6373654935E+000 +1.2722463664E+001 
6015968.711 +6.4533657404E-001 +1.1087398232E+002  +2.3025197817E-002 +1.5155965542E+002  +3.0915928167E-002 +9.8421716980E+001  +2.5840097678E+000 +3.2985275887E+001 
6141113.892 +6.8041537618E-001 +1.2375207044E+002  +1.4556274191E-002 +4.7941866890E+001  +2.2688606927E-002 +9.0210354273E+001  +2.2428180849E+000 +4.2350304499E+001 
6266259.074 +7.7572749073E-001 +1.1644698617E+002  +8.9350069182E-003 -6.2205706813E+000  +3.2584143405E-002 +9.5914468141E+001  +1.3934942691E+000 +3.0442512914E+001 
6391404.255 +9.1337997268E-001 +9.4149988904E+001  +1.9663013303E-002 +7.1930086446E+001  +2.7221123362E-002 +3.9364122174E+001  +1.4569741501E+000 +1.9077601156E+001 
6516549.437 +1.2173452671E+000 +9.2078749805E+001  +1.7603790909E-002 -1.6171840274E+002  +2.4277122155E-002 +4.7699323725E+001  +1.5316764241E+000 +5.0754071480E-001 
6641694.618 +1.3859676288E+000 +7.8487599163E+001  +1.8182347097E-002 +4.3574014793E+001  +1.7391993608E-002 +1.0486430351E+001  +1.5608337436E+000 -8.6411417324E+000 
6766839.800 +2.0237308523E+000 +6.0961781175E+001  +4.3368687947E-002 +9.1143270447E+001  +3.3389229788E-002 +1.2675092137E+002  +1.4630108631E+000 -1.1934081942E+001 
6891984.981 +1.9914124345E+000 +3.3226092353E+001  +1.1774521299E-002 -1.4357314901E+002  +3.7096874286E-003 +9.1682998183E+001  +1.3135613896E+000 -2.9327284921E+000 
7017130.163 +2.5932856678E+000 +2.0267827035E+001  +1.9214578191E-002 +1.0744501884E+002  +1.3108216370E-002 +6.0351961880E+001  +1.3478144931E+000 -1.3585411892E+001 
7142275.344 +1.5234015225E+000 +9.3275240063E+000  +3.9423718489E-003 -1.5518279232E+000  +2.0790740025E-003 -9.3694153472E+001  +1.4105239310E+000 -1.6437222864E+001 
7267420.526 +1.7176188860E+000 +8.0937346188E+000  +6.1621007118E-003 -4.8537462411E+001  +9.5238314215E-003 +9.5283676758E+001  +1.3491782596E+000 -1.5722282898E+001 
7392565.707 +1.4627121410E+000 +3.9359191122E+000  +1.2547062352E-002 +1.4388167485E+001  +6.2438687953E-003 +8.4027221218E+000  +1.4091199805E+000 -7.5359228379E+000 
7517710.889 +1.2054498062E+000 +2.2897515796E+000  +6.3302843389E-003 +4.0883493535E+000  +1.3698890995E-002 +9.3109420257E+001  +1.2577179282E+000 -3.9022071981E+000 
7642856.070 +1.0763410072E+000 +8.0115343416E+000  +9.5433119925E-003 +1.2746677841E+002  +6.1189611190E-003 +3.2572141898E+000  +1.1325943454E+000 -6.1716215217E+000 
7768001.252 +9.7120616456E-001 +9.4541342357E+000  +7.8787919051E-003 +1.0772406569E+002  +5.2187541003E-003 +1.3207696313E+001  +9.7987585368E-001 -3.0108992304E+000 
7893146.433 +9.0323495296E-001 +8.7194988155E+000  +4.9665545890E-003 +6.3550402960E+001  +3.0675055618E-003 +3.9715860596E+001  +9.6674373720E-001 -4.7373327730E+000 
8018291.615 +8.0070445972E-001 -6.4517907289E-001  +1.5302729988E-003 +1.5430122771E+002  +8.3168808648E-003 +1.2568026900E+002  +7.8747380449E-001 -6.0880384627E+000 
8143436.796 +7.4160452303E-001 +6.7111641891E+000  +6.0332661710E-003 +8.4426937189E+001  +5.1750712296E-003 +3.8787324241E+001  +7.5809107793E-001 -1.3154160159E+000 
8268581.977 +8.1641893078E-001 +2.6797760109E+000  +6.2215110341E-003 +3.6897153103E+001  +1.0110181498E-003 +1.4911669054E+002  +8.3410671907E-001 +6.7087392812E-002 
8393727.159 +7.1335048369E-001 +1.0722370749E+001  +4.6897937932E-003 +6.7764565215E+001  +3.0426502292E-003 +1.1058627472E+002  +7.9224492661E-001 -1.6219723379E-001 
8518872.340 +6.8315685945E-001 +8.6169588851E+000  +4.4323031163E-003 -2.4684841046E+001  +3.0136499005E-003 +7.4208174474E+001  +7.1735277161E-001 -1.1770815748E-001 
8644017.522 +6.4333954711E-001 +6.5788524157E+000  +1.6504644815E-003 +7.7588639206E+001  +3.7277187881E-003 +3.0098226747E+001  +7.1770965555E-001 -2.2894816997E+000 
8769162.703 +6.7988100316E-001 +7.4580197587E+000  +1.8454457140E-003 +2.1607722894E+001  +5.3226239734E-003 +1.0386596961E+002  +6.6408108418E-001 +2.1924346781E+000 
8894307.885 +6.6086405174E-001 +7.8775225322E+000  +4.7249033578E-003 +2.4304713283E+001  +8.9503467292E-003 +6.5325806336E+001  +6.3010862161E-001 +9.1390914375E-002 
9019453.066 +5.4688177731E-001 +1.1148097474E+000  +5.7083372961E-003 +1.1020703709E+002  +5.0427069964E-003 +5.9826686120E+001  +6.2415345008E-001 -8.4033627466E-001 
9144598.248 +5.9374070661E-001 +3.4765765782E+000  +4.8599464310E-003 +5.3095613403E+001  +3.3014258468E-003 +1.0852246952E+002  +6.1653960950E-001 +4.8318654444E+000 
9269743.429 +5.5294765517E-001 +9.7165341395E+000  +4.0970610609E-003 +8.3306619138E+001  +3.8330228833E-003 +4.6759562663E+001  +6.2281408804E-001 -2.8009773684E+000 
9394888.611 +5.7850841599E-001 +1.9971504562E+000  +7.9657031332E-003 +4.7008490685E+001  +2.4333327731E-003 +1.7584431921E+002  +6.2402559873E-001 -9.7590664823E+000 
9520033.792 +5.6164529648E-001 +7.0546212324E+000  +5.2763427358E-003 +5.7588702763E+001  +5.0632918063E-003 +6.2942305719E+001  +5.8158151785E-001 -5.0128657106E+000 
9645178.974 +6.2229342895E-001 +3.0423926173E+000  +6.4146061082E-003 +6.9130146845E+001  +8.5461442842E-003 +6.2848289905E+001  +5.9875856465E-001 -6.9634527735E+000 
9770324.155 +5.3635880393E-001 +1.4892368589E+000  +6.5627944442E-003 +9.0801447827E+001  +3.5382885862E-003 +1.0909929174E+002  +5.7721678719E-001 -6.8423451144E+000 
9895469.337 +5.3858123070E-001 -1.9218396751E+000  +4.9139413130E-003 +6.8921887375E+001  +4.3613194595E-003 +8.3727579556E+001  +6.1713271558E-001 -4.6858739130E+000 
10020614.518 +5.2038022950E-001 -2.2698766449E-001  +5.5019126940E-003 +6.4057669507E+001  +3.5021076135E-003 +5.9157208567E+001  +6.2881202507E-001 -7.0600919812E+000 
10145759.700 +5.3437139398E-001 +1.8779639132E+000  +2.9516512267E-003 +9.5306133952E+001  +4.3808726708E-003 +6.7427345414E+001  +5.8937766129E-001 -3.9048707373E+000 
10270904.881 +5.8437363098E-001 +3.4924189873E+000  +8.0097988311E-003 +5.1459458444E+001  +3.3859085278E-003 +7.0505950272E+001  +5.6969423823E-001 -3.5466178803E+000 
10396050.063 +5.5522055560E-001 +2.6544787810E+000  +4.5232274797E-003 +5.5717369864E+001  +3.7360265014E-003 +9.0595833068E+001  +5.9130527033E-001 -1.7833926881E+000 
10521195.244 +5.7741917712E-001 +4.6374357247E+000  +3.7746272593E-003 +6.5144664870E+001  +5.4012124589E-003 +6.6391531735E+001  +5.9168431437E-001 -2.8701065656E-001 
10646340.426 +5.9731704631E-001 +4.9031556876E+000  +5.2552711976E-003 +5.6450689480E+001  +7.2491753989E-003 +8.9543258955E+001  +5.4604208984E-001 +2.8200332527E+000 
10771485.607 +5.5997768722E-001 +7.2225080868E+000  +3.7624464160E-003 +9.2782889893E+001  +3.6814977345E-003 +8.9638700999E+001  +6.0056753776E-001 -2.4524861454E-001 
10896630.788 +6.0273205807E-001 +5.7821883487E+000  +6.3481574479E-003 +6.4400847063E+001  +4.5388299648E-003 +1.0319183797E+002  +5.9937208908E-001 +2.4163215409E+000 
11021775.970 +5.7526041819E-001 +6.1442690728E+000  +3.8944441489E-003 +9.3690849362E+001  +3.7283607229E-003 +8.2318510719E+001  +6.2052315131E-001 +2.0056777723E+000 
11146921.151 +6.0931835069E-001 +6.9922410262E+000  +6.7070142217E-003 +7.3012741389E+001  +2.8274089824E-003 +7.2159680364E+001  +6.2679826588E-001 +2.2218591582E+000 
11272066.333 +5.9446500530E-001 +7.0092841465E+000  +3.8220225085E-003 +3.1866379077E+001  +5.0067285897E-003 +1.1062436121E+002  +6.1613908523E-001 -2.7583257052E+000 
11397211.514 +6.3388785009E-001 +8.5529964056E+000  +5.8179868811E-003 +7.0160856048E+001  +6.8016390745E-003 +7.8850217882E+001  +6.3398806603E-001 +1.3385974063E+000 
11522356.696 +6.5665894794E-001 +7.8892703532E+000  +7.2651278708E-003 +7.7211543563E+001  +4.7323257809E-003 +7.5013025384E+001  +6.3211004153E-001 +6.4438971666E-001 
11647501.877 +6.1757199168E-001 +8.0659979574E+000  +4.7904943997E-003 +6.0956380762E+001  +5.4829271018E-003 +7.3246042031E+001  +6.2263493639E-001 +1.8588126691E+000 
11772647.059 +6.3854956302E-001 +7.1526533921E+000  +6.6399708320E-003 +6.1301574539E+001  +5.7777916632E-003 +7.8276416005E+001  +6.7140398191E-001 -1.2518713451E+000 
11897792.240 +6.4412041288E-001 +6.5908959303E+000  +5.7987935624E-003 +8.8531604397E+001  +5.9069258880E-003 +8.3745759336E+001  +6.5126210109E-001 +1.4860630410E+000 
12022937.422 +6.6505200311E-001 +7.0936826664E+000  +6.7429014220E-003 +8.5776539624E+001  +3.5204573009E-003 +7.8377319829E+001  +6.7048320035E-001 +7.7025710891E-001 
12148082.603 +6.5770269986E-001 +3.2473681594E+000  +5.8703461383E-003 +7.5982478202E+001  +6.3803989021E-003 +9.1804560178E+001  +7.0087634923E-001 +1.4373528149E+000 
12273227.785 +6.7910006414E-001 +3.7006427859E+000  +5.4331449785E-003 +6.7798084689E+001  +6.6030692343E-003 +7.6284445833E+001  +6.8620813439E-001 -1.5720353533E+000 
12398372.966 +7.1191122658E-001 +3.7373366179E+000  +4.3827447819E-003 +3.7881370116E+001  +7.2337201687E-003 +8.2548683028E+001  +7.1811954468E-001 -6.4470751513E-001 
12523518.148 +7.1593604267E-001 +3.3660067442E+000  +6.4838917086E-003 +7.3830711595E+001  +5.5273078630E-003 +6.4753172856E+001  +7.3028376364E-001 +8.3029241169E-001 
12648663.329 +7.0985762439E-001 +1.6273999684E+000  +7.3396711362E-003 +6.7662128106E+001  +6.1592460980E-003 +7.4318700566E+001  +7.5619422275E-001 +9.8671384516E-002 
12773808.511 +7.5527451477E-001 +6.9740528188E-001  +6.0747506959E-003 +8.4901690504E+001  +6.9115358747E-003 +7.2080786806E+001  +7.6441655286E-001 -1.3673063008E+000 
12898953.692 +7.7068539262E-001 +4.7551776042E-001  +7.3106024891E-003 +7.8801866292E+001  +7.4399302629E-003 +8.4768870563E+001  +7.6036166110E-001 -3.5473478034E+000 
13024098.874 +7.9120002740E-001 -4.3118161521E-002  +7.7019325521E-003 +7.1345355699E+001  +7.5222668294E-003 +7.3782333070E+001  +8.2196818254E-001 -1.7573047716E+000 
13149244.055 +7.9872562960E-001 +9.3844238189E-001  +8.1636287967E-003 +6.5797063696E+001  +7.0929101283E-003 +8.5792924344E+001  +8.0009900920E-001 -1.2289823974E+000 
13274389.237 +8.1649932623E-001 -6.9905097460E-001  +7.5566404993E-003 +7.2089464267E+001  +8.7602685201E-003 +6.7705950400E+001  +8.2106268489E-001 -2.9699398138E+000 
13399534.418 +8.1595337367E-001 -9.0905820537E-001  +7.4999489123E-003 +7.7313590075E+001  +6.3125800921E-003 +7.9216757951E+001  +8.6877414416E-001 -2.6806307931E+000 
13524679.599 +8.4075355117E-001 -1.3692875622E+000  +6.6819868066E-003 +5.6914004078E+001  +7.3972881417E-003 +7.6350555580E+001  +8.6526383229E-001 -3.1311874370E+000 
13649824.781 +8.7248477743E-001 -5.4597154130E-001  +8.3830685140E-003 +7.0300756391E+001  +6.7219708178E-003 +6.5248307658E+001  +8.6746767230E-001 -4.0346407851E+000 
13774969.962 +8.6908368752E-001 -1.8691061303E+000  +7.7080701686E-003 +8.1334887087E+001  +8.3117571326E-003 +8.1075968262E+001  +9.0671135468E-001 -4.2539527118E+000 
13900115.144 +9.0567405231E-001 -3.8737182170E+000  +8.5023392330E-003 +7.7078647389E+001  +8.7519710925E-003 +6.3413552677E+001  +9.0929989610E-001 -2.6242506362E+000 
14025260.325 +9.1236550553E-001 -3.0087492913E+000  +8.8978609537E-003 +7.1572422132E+001  +6.7296395212E-003 +7.7295272904E+001  +9.3769916733E-001 -4.4167459750E+000 
14150405.507 +9.4597604024E-001 -5.3214021251E+000  +8.4738741604E-003 +6.3249182585E+001  +8.3485507100E-003 +7.1513630044E+001  +9.2553245056E-001 -4.0718636972E+000 
14275550.688 +9.5874249216E-001 -3.9729753175E+000  +9.3092767040E-003 +7.1923984052E+001  +8.8372726292E-003 +8.1861427355E+001  +9.6630446803E-001 -4.2668990700E+000 
14400695.870 +9.8351667651E-001 -4.3439349544E+000  +6.9489933468E-003 +6.9434536768E+001  +8.3455195114E-003 +7.2027580214E+001  +9.9710144082E-001 -4.2140178651E+000 
