!  2-Port S-parameters saved by WinCal
! VAR MeasName=S-Parameters (CALIBRATED_DATA) read from VNA (P5004A)
! VAR MeasDate=28/08/2024 10:50:44
! VAR NAME=S2_r5c9_RESET2_9k-100M_1
! VAR FILENAME=S2_r5c9_RESET2_9k-100M_1.S2P
! VAR DATE=28/08/2024 10:50:44
! VAR PHYS_PORTS=1,2
! VAR ObjTypeName=DATASET
! VAR IndexType=Frequency
!
# Hz S MA R 50
9000.000 +7.8507584362E-002 -1.6773406298E+002  +5.6540043600E-003 +3.6084714120E+001  +1.0264482048E-002 +1.3692825957E+002  +2.4372012240E-001 -1.5119785677E+002 
134145.181 +1.1040322819E-001 +1.6976386429E+002  +1.6378873440E-004 -1.1727032950E+002  +6.8548228158E-004 -8.1554110592E+001  +2.4261679112E-001 -1.6988203434E+002 
259290.363 +1.1295476721E-001 +1.6978696369E+002  +4.9461570045E-004 +8.0321585185E+001  +4.0480668360E-004 +6.9557691126E+001  +2.4893216135E-001 -1.7042663662E+002 
384435.544 +1.1466653221E-001 +1.7008862175E+002  +7.8554983301E-004 -8.7986640388E+001  +7.8191539696E-004 +3.1710204772E+001  +2.4145270647E-001 -1.6980160697E+002 
509580.726 +1.1407454823E-001 +1.7208773774E+002  +1.2300105651E-003 +5.2957014058E-001  +6.3929314833E-004 +4.6660499410E+001  +2.5653485007E-001 -1.6615841389E+002 
634725.907 +1.1742510704E-001 +1.7125546708E+002  +1.2584576769E-003 +3.2298351212E+000  +1.6266568538E-003 -6.9285302151E+001  +2.5083417794E-001 -1.6462581471E+002 
759871.089 +1.1944988052E-001 +1.7123504988E+002  +6.7638237351E-004 +7.0066924006E+001  +2.9112899442E-004 +3.4329913321E+001  +2.4721946992E-001 -1.6702619652E+002 
885016.270 +1.2036834828E-001 +1.6915352529E+002  +7.3154372719E-004 -1.2660301992E+002  +3.1850358543E-004 -1.0824329818E+002  +2.3528043951E-001 -1.6581099020E+002 
1010161.452 +1.1785112411E-001 +1.7084703302E+002  +1.9899195245E-003 +4.9284040090E+001  +1.0505441382E-003 +1.3936502212E+001  +2.0384491319E-001 -1.6641640321E+002 
1135306.633 +1.1862133066E-001 +1.7126121787E+002  +7.4480559066E-004 -7.6304599667E+001  +1.3131160923E-003 -1.2725805837E+002  +1.8588861958E-001 -1.6731427571E+002 
1260451.815 +1.2020475134E-001 +1.6965896441E+002  +4.0771582772E-004 -1.1984273504E+002  +5.5795273191E-004 +1.3066606247E+002  +2.2090068705E-001 -1.6406045774E+002 
1385596.996 +1.2451186950E-001 +1.7323091037E+002  +5.2763552072E-004 -1.4104006018E+002  +1.9108874034E-003 +4.6780132233E+001  +2.6811753359E-001 -1.5645815939E+002 
1510742.178 +1.2660107325E-001 +1.7150326798E+002  +4.0111823168E-004 -7.4546115338E+001  +1.3667268841E-003 -1.4359026972E+002  +2.4829641175E-001 -1.5806844187E+002 
1635887.359 +1.2892747191E-001 +1.7061923175E+002  +1.4131029088E-003 -1.4309147519E+002  +3.6833714771E-004 +1.1824341893E+002  +2.3736283486E-001 -1.5416143270E+002 
1761032.541 +1.2819779767E-001 +1.6934454030E+002  +1.2655846632E-003 -1.5716706625E+002  +9.0839337403E-004 +7.4475896861E+000  +2.3445966861E-001 -1.6008791265E+002 
1886177.722 +1.2918659960E-001 +1.6811657570E+002  +7.9213930159E-004 +5.1464948467E+001  +5.4950701766E-004 +3.6306141858E+001  +2.1945600344E-001 -1.6262027874E+002 
2011322.904 +1.2441642910E-001 +1.6882924354E+002  +1.5525348908E-003 -6.2156320924E+001  +4.7883578885E-003 -1.1612611572E+002  +1.5811728866E-001 +1.7000754030E+002 
2136468.085 +1.2991288609E-001 +1.6707998117E+002  +2.2044071058E-003 -6.2495200796E+001  +4.1740381856E-003 -6.7976435502E+001  +1.7530965730E-001 -1.6356599012E+002 
2261613.267 +1.3212636925E-001 +1.6369092963E+002  +7.6202781409E-003 +1.3247305577E+001  +6.8236018465E-003 -1.6377087464E+002  +1.4759418569E-001 -1.5214339901E+002 
2386758.448 +1.3366635704E-001 +1.6036586337E+002  +6.1885652324E-003 +1.4484052675E+002  +8.2009153895E-003 -9.9098849508E+001  +1.6885065835E-001 +1.5768228297E+002 
2511903.630 +1.3605825157E-001 +1.5614816820E+002  +3.4612573601E-003 -1.7044474331E+002  +3.2635113552E-003 +8.9185708386E+001  +2.2751238386E-001 +1.7166284751E+002 
2637048.811 +1.2229635544E-001 +1.6240204662E+002  +3.6179410261E-003 +1.7398518666E+002  +2.8830296616E-003 -1.3069906440E+002  +2.9465986826E-001 +1.5491326013E+002 
2762193.992 +1.0444021433E-001 +1.6613086615E+002  +2.0344561902E-002 -1.1369447002E+002  +2.1005257588E-002 +1.2677739203E+002  +1.3766801007E+000 -1.2331661987E+002 
2887339.174 +1.1792949241E-001 -1.7961759462E+002  +2.6747207743E-002 -4.7600394170E+001  +8.1836443371E-003 +7.6904463670E+001  +3.7605519747E-001 -1.7262304895E+001 
3012484.355 +1.2448688274E-001 +1.7843448504E+002  +1.1011491521E-002 +3.4297139352E+001  +4.5956393079E-003 +1.5738712812E+002  +3.8175676420E-001 -1.1190878124E+002 
3137629.537 +1.2161455336E-001 +1.6543889759E+002  +1.9379332590E-002 -4.5581273309E+001  +4.1715156324E-003 +6.0663887961E+001  +3.6097671992E-001 +1.1206036665E+002 
3262774.718 +1.2660244478E-001 +1.6886076707E+002  +1.3589963863E-002 -1.7978515572E+002  +1.1547322156E-002 +1.3209077636E+001  +4.9205804335E-001 +1.0251895268E+002 
3387919.900 +1.3234166762E-001 +1.5383007530E+002  +5.3987957997E-002 -1.7248826778E+002  +4.3715330170E-002 +5.6667803353E+001  +1.3476394878E+000 +7.2027276464E+001 
3513065.081 +1.3976109167E-001 +1.4332966773E+002  +1.4704883934E-002 -7.4626774419E+001  +1.0640708596E-002 -1.5469139857E+002  +3.7257300593E-001 +1.1540415734E+002 
3638210.263 +1.5015972741E-001 +1.3984056614E+002  +1.9162134181E-002 +1.0192435530E+002  +4.5301505169E-002 +1.5391581784E+002  +9.1444103675E-001 +9.3436618161E+001 
3763355.444 +1.7897660344E-001 +1.4286918465E+002  +1.4412836112E-002 -5.2002794056E+001  +2.7768237463E-002 -7.9146801272E+001  +6.1273090691E-001 +1.1700387550E+002 
3888500.626 +1.8911748917E-001 +1.4273940692E+002  +2.3404909269E-002 +3.6137959614E+001  +1.3789857229E-002 +1.5793796805E+002  +5.3292866524E-001 +7.2458878490E+001 
4013645.807 +1.6598602209E-001 +1.4646630347E+002  +6.1375751606E-003 -5.6283714226E+001  +7.8486956661E-003 +7.2322292054E+001  +3.7304873245E-001 +1.1792473605E+002 
4138790.989 +1.6653792404E-001 +1.4963948155E+002  +1.5372420853E-003 -4.2236717120E+001  +4.7604284921E-003 +1.5610577663E+002  +1.8837745748E-001 +6.7560387097E+001 
4263936.170 +1.7905044879E-001 +1.5306748171E+002  +8.8558661737E-003 +1.0620509565E+002  +1.2764866032E-002 -3.5018169629E+001  +7.4901836712E-001 +1.2341468251E+002 
4389081.352 +1.8767501850E-001 +1.4291350744E+002  +3.4532282715E-003 -1.5671848725E+002  +9.1817025676E-003 +1.3135903591E+002  +4.2041842418E-001 +1.0631294141E+002 
4514226.533 +2.2553403555E-001 +1.3817478678E+002  +3.8708373935E-002 +1.7612292602E+002  +3.0330031658E-002 -6.3854248254E+001  +2.1983400886E+000 +7.4830318870E+001 
4639371.715 +4.2710722157E-001 +1.1448078442E+002  +3.3304752838E-002 +1.3501400523E+002  +1.3596718081E-002 -1.4479794242E+000  +5.3209626864E-001 +8.1461760585E+001 
4764516.896 +3.4635708587E-001 +1.2709723822E+002  +3.7437214590E-002 +3.9751559083E+001  +1.5257695761E-002 +1.1263604215E+002  +4.7306231219E+000 +1.3642268245E+002 
4889662.078 +4.3596345728E-001 +1.3457102193E+002  +2.1555091564E-002 +1.6829422077E+002  +2.8499738706E-002 -2.9162536026E+001  +3.1430321255E+000 -1.5953771997E+002 
5014807.259 +4.1613765757E-001 +1.4308992097E+002  +4.0390860999E-002 -1.2838067766E+002  +8.2901927023E-002 -1.1256408589E+001  +7.2975290462E+000 -1.1310603591E+002 
5139952.441 +3.9472428129E-001 +1.2747925881E+002  +1.1308542977E-002 -1.6871094015E+002  +1.6763231657E-002 -1.7435415682E+002  +3.2171451833E+000 +1.5625854442E+002 
5265097.622 +3.2946652800E-001 +1.2389203978E+002  +9.9587688239E-003 -6.7846177999E+001  +5.6333953490E-002 -5.4557106661E+001  +8.5443010658E+000 +6.9523702346E+000 
5390242.804 +3.2534512993E-001 +1.2133542555E+002  +2.6496620644E-002 +1.1251226980E+002  +3.6332249081E-002 +1.3243092754E+002  +2.3794827777E+000 +1.1860559752E+002 
5515387.985 +4.1656268822E-001 +1.3638866670E+002  +2.6021437146E-003 +1.7410822533E+002  +8.2662208163E-003 -9.3454863262E+001  +3.6574207768E+000 +8.5364485863E+001 
5640533.166 +4.3719426634E-001 +1.2886180474E+002  +6.3656051655E-003 -2.9388288422E+001  +1.4965697352E-002 +8.3553720839E+001  +1.3343719483E+000 +5.3347534112E+001 
5765678.348 +4.9242107789E-001 +1.3115132997E+002  +2.3733342731E-002 -1.4205689512E+002  +1.9075834090E-002 +7.5960850073E+001  +3.4390117713E+000 +8.4035245727E+001 
5890823.529 +5.3576392315E-001 +1.2137575271E+002  +1.8663897282E-002 +1.1870466003E+002  +2.2631299498E-002 +2.0761930532E+001  +2.0137435609E+000 +7.4571227434E+001 
6015968.711 +6.5772880172E-001 +1.1733691807E+002  +1.7934819792E-002 +3.8231347837E+001  +1.6165192341E-002 +9.5530012636E+001  +1.8901935291E+000 +5.8113783656E+001 
6141113.892 +8.2262891844E-001 +1.2299188365E+002  +1.0417543529E-002 +1.6653539899E+001  +6.7540331716E-003 +1.3622226753E+002  +1.7942179553E+000 +6.6771917075E+001 
6266259.074 +1.1296532305E+000 +9.1047000263E+001  +2.3038806101E-002 -5.7570584144E+001  +1.3356502493E-002 +8.6245895201E+001  +1.7080748525E+000 +4.6369951687E+000 
6391404.255 +1.1828695205E+000 +9.5808216346E+001  +4.9029097024E-002 +1.1752468069E+002  +2.6404844656E-002 +1.2073282059E+002  +1.5103236420E+000 +4.5137609071E+000 
6516549.437 +1.3207923917E+000 +7.9159746362E+001  +3.6942528525E-002 +1.5364753486E+002  +1.1360422560E-002 +1.2522956758E+002  +1.1514821314E+000 +1.6497396653E+001 
6641694.618 +1.5773355759E+000 +6.5665309035E+001  +2.0678162943E-002 -8.0355656315E+001  +1.8791865200E-002 -1.6854786741E+002  +1.3098802403E+000 +5.7495617660E+000 
6766839.800 +1.4987121322E+000 +4.8652727419E+001  +2.3674462676E-002 +3.5751744587E+001  +3.4245205575E-002 -3.4575410090E+001  +1.2301572089E+000 -1.8931574892E+000 
6891984.981 +1.6139778731E+000 +1.8559912766E+001  +6.2203994905E-003 -8.7515175630E+001  +2.7382825534E-002 +7.7106866790E+001  +1.3097525702E+000 -5.4794995695E+000 
7017130.163 +1.6436258164E+000 +1.5504712262E+001  +1.0698879941E-002 +2.2045635518E+001  +5.8337971428E-003 +4.6516901678E+001  +1.3983340844E+000 -1.6864216348E+001 
7142275.344 +1.8268970232E+000 +1.2644626724E+001  +1.1626234225E-002 +1.4390427320E+002  +1.0032659715E-002 -1.4204800619E+002  +1.3892283713E+000 -9.1883448090E+000 
7267420.526 +1.1972432282E+000 +7.8722965346E+000  +7.1516482923E-003 -5.2909958070E+001  +1.1386924358E-002 +1.6571436635E+002  +1.3326337607E+000 -9.7701129700E+000 
7392565.707 +1.3677526854E+000 -3.1971505932E+000  +1.5667057480E-002 +5.8353323094E+001  +1.9500980707E-003 +1.4865749170E+002  +1.2707331650E+000 -8.5174729269E+000 
7517710.889 +1.2230833369E+000 +2.0225264298E+000  +1.1351522278E-002 -3.1969628112E+001  +4.4045603427E-003 +5.3821423767E+001  +1.1830484853E+000 -1.2917311225E+000 
7642856.070 +9.8179706966E-001 -1.9688922794E+000  +4.8532558904E-003 -7.7414105826E+000  +5.8872341996E-004 +1.7969178425E+002  +1.0051444358E+000 +1.3069894763E+000 
7768001.252 +9.4221622781E-001 +1.1140689702E+000  +6.1752025170E-003 +9.3580099431E+001  +7.2467191310E-003 +6.8164475834E+000  +8.8119381607E-001 -7.5188602938E+000 
7893146.433 +8.2753071747E-001 -1.4836745132E+000  +1.0266392940E-002 +7.7849545815E+001  +3.1934557962E-003 +2.4181256054E+001  +9.1020047618E-001 -1.3579911772E+000 
8018291.615 +7.7505986442E-001 -4.3561954339E-002  +6.7934281080E-003 +1.5999020803E+002  +8.1006527256E-003 +1.3374724412E+002  +9.3828471254E-001 -9.0606555395E-001 
8143436.796 +7.9409021219E-001 +1.0907883258E+001  +3.1362518891E-003 +1.1160169371E+002  +3.7840190282E-003 +1.1226878243E+001  +7.5211345606E-001 -7.1441843004E+000 
8268581.977 +7.2796515318E-001 +1.1935392286E+001  +7.5587426699E-003 +1.0652904229E+002  +1.5452028958E-003 -1.5128224062E+002  +7.9329173947E-001 +4.5349782315E+000 
8393727.159 +7.0603208232E-001 +4.4817012511E+000  +5.5725617403E-003 +6.8740142316E+001  +8.1490444645E-003 +1.0308399550E+002  +7.9986299138E-001 +5.2088475639E+000 
8518872.340 +6.7012488478E-001 +6.0798921559E+000  +5.2542720090E-003 -1.7729664249E+002  +5.6471158560E-003 +4.9743016896E+001  +7.3992706470E-001 +3.4630418879E+000 
8644017.522 +6.0319493976E-001 +1.1500800073E+001  +6.9584588216E-003 +5.5386450030E+001  +7.0629724675E-003 +6.5884786560E+001  +6.9909542181E-001 +2.7771295245E+000 
8769162.703 +6.6507000030E-001 +8.7656995538E+000  +1.1722646051E-003 +1.5146927548E+002  +8.3493658550E-003 +6.6748698677E+001  +6.4871356747E-001 +9.8694943787E-001 
8894307.885 +6.6605842336E-001 +9.1261988244E+000  +5.1891392727E-003 +1.1630074008E+002  +4.9905076515E-003 +7.6854619880E+001  +6.2935494732E-001 +5.8927566180E+000 
9019453.066 +6.0200865224E-001 +3.2239815392E+000  +2.5681004570E-003 +1.2772559793E+002  +1.5244469657E-003 +8.1878058720E+001  +6.3489793681E-001 +2.1846087863E+000 
9144598.248 +5.8692758814E-001 +2.8238334943E+000  +5.7764829162E-003 +4.7720539849E+001  +3.4311453800E-003 +1.2732924679E+002  +6.3268643088E-001 -2.8149212677E+000 
9269743.429 +5.6126973979E-001 +3.6077691446E+000  +7.3087621261E-003 +3.7341533644E+001  +6.1249948396E-003 +1.2443462687E+002  +6.1809065624E-001 -1.5048388534E+000 
9394888.611 +5.6091056550E-001 +2.9850446311E-001  +2.8878824922E-003 +5.9036663739E+001  +1.3218122404E-003 +1.1621532710E+002  +5.6315144289E-001 -5.2240143193E+000 
9520033.792 +5.3865959206E-001 -5.6679601390E+000  +5.2387324078E-003 +5.2116670164E+001  +2.7232406397E-003 +8.9016102333E+001  +5.6526940690E-001 -3.9580566257E+000 
9645178.974 +5.8519685029E-001 +1.6512390204E+000  +4.2734408122E-003 +1.1018176403E+002  +6.2800847073E-003 +7.4728134298E+001  +6.3058363006E-001 -4.7884780646E+000 
9770324.155 +5.1681927306E-001 +3.7079113162E+000  +4.9306509219E-003 +7.5907058502E+001  +5.6640476506E-003 +8.0774804985E+001  +5.7261211123E-001 -6.2357008783E+000 
9895469.337 +5.6717036950E-001 -4.4978171945E+000  +4.5879223912E-003 +4.8732408122E+001  +1.8821967456E-003 +8.8090611446E+001  +5.8559858613E-001 -7.1795052822E+000 
10020614.518 +5.3846662394E-001 +2.3359174134E+000  +4.7723817778E-003 +6.0224067722E+001  +6.0283173718E-003 +1.1724930160E+002  +5.5854968452E-001 -3.6765378074E+000 
10145759.700 +5.4552914429E-001 +3.3841702128E+000  +6.5766024595E-003 +6.7963520032E+001  +2.2336982856E-003 +1.2124704980E+002  +5.7905054922E-001 -3.3178941684E+000 
10270904.881 +5.4078497701E-001 -1.5916084582E+000  +2.1145487159E-003 +1.0906184933E+002  +3.1610448972E-003 +7.3405653192E+001  +6.3279025637E-001 -2.3019011137E+000 
10396050.063 +5.5917535957E-001 +4.2739686060E+000  +2.0934858350E-003 +4.9128698752E+001  +4.9734525093E-003 +8.3102126068E+001  +5.7758732452E-001 -5.9658933866E-001 
10521195.244 +5.5312182006E-001 +6.4823633184E+000  +5.5295396479E-003 +8.1404339644E+001  +4.3824890461E-003 +6.9393215367E+001  +6.0212791735E-001 -1.6149646806E-001 
10646340.426 +5.7400583053E-001 +8.4682289028E+000  +3.8632123557E-003 +6.9424561592E+001  +5.8762781714E-003 +8.3871073467E+001  +5.9780816318E-001 -4.9920429212E-001 
10771485.607 +5.4950343507E-001 +4.1141484901E+000  +4.9990478791E-003 +6.9454452825E+001  +6.2762213062E-003 +8.8046692655E+001  +6.2268344914E-001 -1.5805614392E+000 
10896630.788 +5.7665145208E-001 +7.1289051578E+000  +5.0953403708E-003 +1.0957570488E+002  +6.2886218516E-003 +7.8952540582E+001  +6.1656289304E-001 -4.5685523626E-001 
11021775.970 +6.0866952487E-001 +4.8064287406E+000  +5.2848048763E-003 +5.6309655233E+001  +2.3746890945E-003 +6.6364682051E+001  +6.2235680622E-001 -1.0334874259E+000 
11146921.151 +5.9930676798E-001 +5.4478055952E+000  +4.8018939907E-003 +7.7818476842E+001  +5.6164532658E-003 +6.5536915507E+001  +6.3116195682E-001 +1.2813609717E-001 
11272066.333 +5.9860969181E-001 +7.4555845517E+000  +3.0029033046E-003 +5.9280112929E+001  +4.4355432314E-003 +8.8183146432E+001  +6.5293603186E-001 +1.7533511939E+000 
11397211.514 +5.6649571029E-001 +6.6272805544E+000  +3.1265180182E-003 +7.7978507105E+001  +4.5787419161E-003 +1.0254065209E+002  +6.5234115885E-001 +1.0311994376E+000 
11522356.696 +6.1887063795E-001 +5.2379995790E+000  +4.1021084391E-003 +1.1127958629E+002  +5.4774603726E-003 +1.0227833402E+002  +6.5626019742E-001 -1.6189659220E+000 
11647501.877 +6.4906746429E-001 +7.7031877748E+000  +5.4976001850E-003 +8.3934797650E+001  +4.2543572473E-003 +8.6535950127E+001  +6.7236680173E-001 +2.4805459375E+000 
11772647.059 +6.5496662250E-001 +4.6046885445E+000  +4.1386398816E-003 +1.0605231889E+002  +6.1852635419E-003 +9.3952737156E+001  +6.7243735100E-001 -1.0608421055E+000 
11897792.240 +6.6358195156E-001 +6.9252630220E+000  +4.5744222533E-003 +7.4857351573E+001  +4.1211993464E-003 +7.5977132749E+001  +6.7837095396E-001 +2.2787384851E+000 
12022937.422 +6.4819495119E-001 +3.1953872040E+000  +6.3569478090E-003 +6.6083778537E+001  +3.1963948325E-003 +9.0910994371E+001  +6.9345579864E-001 -3.0581348627E-001 
12148082.603 +6.9342635670E-001 +3.5430131107E+000  +4.4670889362E-003 +7.5283815767E+001  +5.1468524194E-003 +9.6418091944E+001  +6.6644101984E-001 +7.1350073001E-001 
12273227.785 +6.9379496222E-001 +3.2531302533E+000  +6.5962591531E-003 +8.3612421552E+001  +5.8095320645E-003 +9.1023916815E+001  +7.1427846640E-001 +3.1413711415E-001 
12398372.966 +7.0371313026E-001 +1.7491416464E+000  +4.3691983308E-003 +7.5456791687E+001  +5.4796429474E-003 +9.3394240029E+001  +7.1270153332E-001 +1.3476845321E+000 
12523518.148 +7.2379998770E-001 +1.6555155867E+000  +6.5545933495E-003 +7.1484203223E+001  +6.1980685779E-003 +8.6270879154E+001  +7.3550273259E-001 +9.6142897841E-001 
12648663.329 +7.3844540964E-001 +3.1645669396E+000  +6.6818034541E-003 +8.2559415554E+001  +5.4823384027E-003 +9.5220853717E+001  +7.3583831966E-001 -2.3687068809E+000 
12773808.511 +7.7763023942E-001 +3.0354338720E+000  +6.2554336880E-003 +7.6916848501E+001  +5.3682756910E-003 +8.1845258127E+001  +7.9264619638E-001 +7.1822260552E-002 
12898953.692 +7.5556282568E-001 +2.2753930147E+000  +6.3900311791E-003 +8.6526344178E+001  +5.5236982636E-003 +9.0030652289E+001  +7.8954112664E-001 -1.7179550973E+000 
13024098.874 +7.8511622229E-001 +4.0584687552E-001  +7.0617404100E-003 +7.9878065241E+001  +5.5919018366E-003 +8.8170727505E+001  +8.0250250443E-001 -3.2817247181E+000 
13149244.055 +8.1195824281E-001 -2.3654678971E+000  +6.7074382277E-003 +7.8809633301E+001  +6.3958589862E-003 +7.2327669175E+001  +8.1641187288E-001 -1.3689414424E+000 
13274389.237 +8.1927991922E-001 -1.6074632581E+000  +7.0656835421E-003 +7.1245250196E+001  +6.6106542676E-003 +8.1322601476E+001  +8.2694324266E-001 -5.6451923829E-001 
13399534.418 +8.3556550963E-001 -4.7069145605E-001  +7.5788833736E-003 +8.7010169531E+001  +5.2828842293E-003 +9.3804444525E+001  +8.5141450344E-001 -3.2509949571E+000 
13524679.599 +8.6080248548E-001 -7.1364589088E-001  +8.0587021465E-003 +7.9023059521E+001  +6.0310724701E-003 +8.7797227226E+001  +8.6529457334E-001 -2.1878909321E+000 
13649824.781 +8.7864780131E-001 -2.9323666197E+000  +6.3305973057E-003 +8.4576372068E+001  +7.6792794730E-003 +9.4971511435E+001  +8.8104865325E-001 -3.6403054335E+000 
13774969.962 +9.0286039114E-001 -2.7720458638E+000  +6.9014301654E-003 +7.4214469930E+001  +8.5044711899E-003 +7.7008511987E+001  +8.7057680433E-001 -3.7058865064E+000 
13900115.144 +9.0052936640E-001 -4.5477732720E+000  +5.4888982933E-003 +9.6992714746E+001  +6.7050189168E-003 +8.2964398194E+001  +9.2544084360E-001 -4.2180320630E+000 
14025260.325 +9.1294316995E-001 -4.4093426288E+000  +8.6054756113E-003 +7.2062925695E+001  +7.7720427799E-003 +7.5802373015E+001  +9.3338943609E-001 -3.4665009883E+000 
14150405.507 +9.2897944832E-001 -3.8155680003E+000  +8.5063620319E-003 +7.5290702245E+001  +6.9624659851E-003 +9.2095723018E+001  +9.4690886337E-001 -3.3358816095E+000 
14275550.688 +9.5819757903E-001 -3.7662609334E+000  +7.4727863720E-003 +7.3210858856E+001  +7.2736736657E-003 +7.8596249596E+001  +9.5290756190E-001 -5.3968198948E+000 
14400695.870 +9.5878156036E-001 -5.2065616636E+000  +8.0724388919E-003 +8.4548920564E+001  +9.0571275514E-003 +7.7744647954E+001  +9.8385627981E-001 -5.0652732988E+000 
