!  2-Port S-parameters saved by WinCal
! VAR MeasName=S-Parameters (CALIBRATED_DATA) read from VNA (P5004A)
! VAR MeasDate=27/08/2024 12:06:42
! VAR NAME=S2_r3c8_pristine_9k-100M_3
! VAR FILENAME=S2_r3c8_pristine_9k-100M_3.S2P
! VAR DATE=27/08/2024 12:06:42
! VAR PHYS_PORTS=1,2
! VAR ObjTypeName=DATASET
! VAR IndexType=Frequency
!
# Hz S MA R 50
9000.000 +5.8071426692E-002 -1.5218006382E+002  +4.4004311920E-002 -9.1016938831E+001  +1.2582603927E-002 -1.6366380902E+002  +2.7450295125E-001 -6.4041788816E+001 
134145.181 +1.1181536769E-001 +1.7028234371E+002  +3.2577738826E-004 -1.1178920433E+002  +3.5981739731E-004 +1.0093201060E+002  +2.4249359286E-001 -1.7175604548E+002 
259290.363 +1.1210543879E-001 +1.6967636798E+002  +2.8923545644E-004 -4.7932434967E+001  +4.3425698473E-004 +1.3954241058E+002  +2.4159091782E-001 -1.6982523284E+002 
384435.544 +1.1326985433E-001 +1.7072219777E+002  +3.3100429717E-004 -7.7435288550E+001  +3.1521514881E-004 -8.5674391270E+001  +2.4312156340E-001 -1.6884845535E+002 
509580.726 +1.1305125021E-001 +1.7077018783E+002  +2.9091471494E-004 -1.5357449973E+002  +1.4637154739E-003 +5.8326169984E+001  +2.4549979795E-001 -1.6486822254E+002 
634725.907 +1.1328345205E-001 +1.7051995373E+002  +5.1645071711E-004 +8.2510306746E+001  +5.9646935930E-004 +1.4549420666E+002  +2.5544318485E-001 -1.6655551655E+002 
759871.089 +1.1862109755E-001 +1.7028705734E+002  +3.3647163899E-004 +4.9832281495E+001  +1.0912505459E-003 +4.8616147378E+001  +2.4709093787E-001 -1.6418212663E+002 
885016.270 +1.1517278771E-001 +1.6977675205E+002  +9.6056565604E-004 +1.6660026705E+002  +1.6376449577E-004 -2.0581102136E+001  +2.4565729113E-001 -1.6407988821E+002 
1010161.452 +1.1393374410E-001 +1.7196054089E+002  +2.0566280323E-003 +1.4645723258E+002  +1.3038852287E-003 +1.1642187911E+002  +2.1924628273E-001 -1.4789477259E+002 
1135306.633 +1.1782218841E-001 +1.7146157238E+002  +6.2014530735E-003 +4.3622595248E+001  +6.0546868505E-003 +7.9816638153E+001  +1.5282668829E-001 -1.4370775786E+002 
1260451.815 +1.2138183611E-001 +1.7034898677E+002  +2.3424300060E-004 +1.7856215345E+002  +3.9653529792E-004 -1.2224050209E+002  +2.6016339802E-001 -1.5949664797E+002 
1385596.996 +1.2496854946E-001 +1.7230754925E+002  +2.7438889154E-004 -1.5463352304E+002  +5.9736142205E-004 -6.6267826153E+000  +2.6284513801E-001 -1.6208758910E+002 
1510742.178 +1.2884625760E-001 +1.7105018797E+002  +4.8823792987E-004 -1.0423975181E+002  +7.7656785706E-004 +5.1649196689E+001  +2.5109492003E-001 -1.6002045383E+002 
1635887.359 +1.2763029185E-001 +1.6886079644E+002  +2.6066328013E-004 +1.0597027448E+002  +1.1933663940E-003 -7.4904821759E+001  +2.5769262280E-001 -1.5540887941E+002 
1761032.541 +1.2870325176E-001 +1.6922269077E+002  +7.8354939559E-004 +8.5240839247E+001  +1.9701371648E-003 +9.2343114349E+001  +2.2719600043E-001 -1.5193348189E+002 
1886177.722 +1.2316573016E-001 +1.6896246289E+002  +2.4951978026E-003 +1.1760820690E+002  +1.8789078558E-003 +1.4108638061E+002  +2.0499359263E-001 -1.5883266010E+002 
2011322.904 +1.3265834418E-001 +1.6581713032E+002  +1.6031405996E-003 +1.2977577359E+002  +2.0327059270E-003 -1.9679754359E+001  +1.5512569695E-001 -1.6312166574E+002 
2136468.085 +1.2106069246E-001 +1.6088095671E+002  +1.0923089414E-002 -2.5666839565E+001  +3.3361410821E-003 +5.7082031961E+001  +1.3405043866E-001 +1.6778624451E+002 
2261613.267 +1.3540139261E-001 +1.5886393053E+002  +4.2693706019E-003 -3.6834448065E+001  +6.1545677360E-003 -1.7435090727E+002  +9.4106190233E-002 +1.6585105677E+002 
2386758.448 +1.2303508198E-001 +1.6408488908E+002  +1.1618941448E-002 +6.1743356187E+001  +1.3772524010E-002 +1.7777212236E+002  +9.8074276889E-002 +4.0015375051E+001 
2511903.630 +1.2436496635E-001 +1.5961128570E+002  +1.6966097894E-003 +4.6473042510E+001  +3.2544112161E-003 +1.0453743588E+002  +1.8057029928E-001 +1.5352344779E+002 
2637048.811 +7.9239313627E-002 +1.6541579573E+002  +1.7792716606E-002 -1.6195049917E+002  +3.0349730574E-002 +1.4831512163E+001  +6.9311119487E-001 +1.6752458901E+002 
2762193.992 +1.3300316672E-001 -1.5820554086E+002  +1.3590164857E-002 +9.2532530735E+001  +1.0787222369E-002 +1.6109214980E+002  +5.4075171039E-001 -1.1713166063E+002 
2887339.174 +1.2156439156E-001 -1.7581055252E+002  +1.3386086236E-002 +8.8606852375E+001  +2.0730656285E-002 +1.2867993561E+002  +3.9088793061E-001 -9.2017269172E+001 
3012484.355 +1.1588960981E-001 +1.7575276963E+002  +1.1421063079E-002 +1.6966668702E+002  +1.0307599149E-002 -9.4760511274E+001  +4.0459687816E-001 -1.0681259886E+002 
3137629.537 +9.6032823141E-002 +1.6285042439E+002  +1.0020406344E-002 +1.2039352394E+002  +2.8763548997E-003 -9.1418195442E+001  +3.8745340773E-001 -1.1747798094E+002 
3262774.718 +1.1395105447E-001 +1.7680932254E+002  +8.7456412115E-003 +4.1317071637E+001  +5.2304484991E-003 +4.5437556654E+001  +2.0574870919E-001 -1.0303428884E+002 
3387919.900 +1.0634218719E-001 +1.6435118987E+002  +1.1783863109E-002 +1.5139803806E+002  +1.9368381287E-002 -2.4809419605E+001  +3.4810117649E-001 -6.5383962619E+001 
3513065.081 +1.1245834207E-001 +1.6184279047E+002  +6.1495311983E-003 -4.3407071514E+001  +4.6883023088E-003 -2.6867371082E+001  +4.7085117870E-002 -1.4036256727E+002 
3638210.263 +1.5081996997E-001 +1.5032267005E+002  +1.2685620683E-002 +1.7905121891E+002  +1.2869462536E-002 +2.0855858460E+001  +7.3584660803E-002 +4.0582674503E+001 
3763355.444 +1.7064598144E-001 +1.3044405504E+002  +4.8744785687E-002 +5.1151933898E+001  +5.7825927091E-002 +1.0426656047E+002  +1.9779064344E+000 +1.0886703435E+002 
3888500.626 +1.7618857667E-001 +1.5010505547E+002  +9.7516248038E-003 -1.6190149508E+002  +4.7169435189E-003 +1.3783780189E+002  +4.3923709738E-001 +1.1504691408E+002 
4013645.807 +1.9728453423E-001 +1.5566019443E+002  +5.0651857650E-003 -9.5100632513E+001  +1.1169701205E-003 -1.4571230983E+002  +2.4035745497E-001 +1.6518522324E+002 
4138790.989 +1.5102871984E-001 +1.5554816007E+002  +6.1749058371E-003 -6.9655225461E+001  +3.4658202060E-003 -5.5820523528E+001  +2.7945327129E-001 +6.5374277918E+001 
4263936.170 +2.0536697998E-001 +1.3413968200E+002  +5.3947918490E-003 -1.3318956107E+002  +1.7711475833E-002 +1.2177177827E+002  +6.5101429665E-001 +1.1000559393E+002 
4389081.352 +2.0826751013E-001 +1.4254787709E+002  +1.0831479030E-002 +7.2928968020E+001  +2.1240032178E-002 +6.9989248702E+001  +1.6976730593E+000 +9.7677673258E+001 
4514226.533 +2.4691907532E-001 +1.4186070564E+002  +5.6151416249E-003 +2.3353453759E+001  +6.7349261319E-003 -9.2931511111E+001  +6.8971481272E-001 +4.1174028319E+001 
4639371.715 +2.3226731924E-001 +1.2579128119E+002  +4.0147302515E-002 -2.2933720369E+001  +8.9755262435E-003 -5.4585194003E+001  +5.4573414303E+000 -7.6244733680E+001 
4764516.896 +3.9745561622E-001 +1.2831696997E+002  +3.7893391692E-002 -2.9715922058E+001  +3.4739399363E-002 +6.5881886283E+001  +1.4232646038E+000 +7.4719208498E+001 
4889662.078 +5.2179758802E-001 +1.4443533194E+002  +1.0036944903E-002 +7.9516986703E+001  +6.2516883705E-002 +5.7923562835E+001  +2.9598604935E+000 -1.5027636276E+002 
5014807.259 +3.8780140198E-001 +1.3281462075E+002  +2.1260007241E-002 +1.0608448816E+002  +1.8978960093E-002 -1.6091144442E+002  +2.5461223312E+000 +6.2211264793E+001 
5139952.441 +4.4181879138E-001 +1.2797618658E+002  +2.2763517410E-002 +8.2908903094E+001  +6.7951088699E-002 +4.1638758040E+001  +2.8446388120E+000 +2.8534249173E+001 
5265097.622 +3.5802782678E-001 +1.3125515467E+002  +1.4970663366E-002 -1.7784986473E+002  +8.0160858934E-003 +1.2680287709E+002  +1.7551537508E+000 +1.0271969728E+002 
5390242.804 +4.1605655966E-001 +1.3400898648E+002  +2.3805433977E-002 -4.4825607559E+001  +7.2000199532E-002 +9.4893694990E+001  +3.5924116768E+000 +2.2669043818E+001 
5515387.985 +4.4955611953E-001 +1.2226116725E+002  +2.2217281866E-002 +1.2577004126E+002  +2.8563584254E-002 +6.6538434616E+001  +3.0167270822E+000 +1.0536960295E+002 
5640533.166 +4.3224494328E-001 +1.3492472715E+002  +2.2077850994E-002 -1.3172445689E+002  +1.4172993065E-002 +1.4819113377E+002  +1.8487886263E+000 +5.2221585163E+001 
5765678.348 +4.5044968384E-001 +1.2616727150E+002  +1.8139608362E-002 -1.6629812348E+002  +1.7887776543E-002 +2.5691349290E+001  +2.4435037311E+000 +9.1475771088E+001 
5890823.529 +5.5622675553E-001 +1.2399619996E+002  +2.0735659551E-002 +1.1220023421E+002  +3.3605231518E-002 -5.2421217086E+000  +2.5793552925E+000 +6.4269399588E+001 
6015968.711 +5.2440686463E-001 +1.1305137174E+002  +1.2574233745E-002 -1.1674329522E+002  +2.6289359324E-002 +1.3709764538E+002  +3.4601672193E+000 +5.6827286569E+001 
6141113.892 +7.3900091234E-001 +1.1856172544E+002  +2.1914640953E-002 +1.1219100194E+002  +7.6022333226E-003 +1.5490581714E+002  +1.7578997623E+000 +4.7662391500E+001 
6266259.074 +7.9723579366E-001 +1.0715758378E+002  +2.9991670906E-002 +1.0071522481E+002  +6.3957144112E-003 +2.2305151328E+001  +1.7043714654E+000 +1.9782654867E+001 
6391404.255 +8.9098712493E-001 +1.0478299077E+002  +1.4652192564E-002 +3.2853352089E+001  +1.7952400772E-002 +1.7654441894E+002  +1.3924187462E+000 +2.1675031331E+000 
6516549.437 +1.5301132721E+000 +7.9869330708E+001  +2.5758416284E-002 +5.2967276065E+001  +3.5258690363E-002 +1.0590126768E+001  +1.5224868809E+000 +1.5236591093E+000 
6641694.618 +1.4416288241E+000 +8.0133612225E+001  +3.0337526587E-002 +1.5462983581E+002  +2.4451948992E-002 +8.4431861540E+001  +1.4562517478E+000 +3.7897927308E+000 
6766839.800 +2.0055499606E+000 +5.6625699041E+001  +4.5857106751E-002 +1.2421426293E+002  +1.4873968703E-002 +1.7916369126E+002  +1.3316414365E+000 -4.2220768694E+000 
6891984.981 +1.7382444721E+000 +1.8471302780E+001  +1.7240772375E-002 +1.0487206972E+002  +1.0774698961E-002 +9.1220231216E+000  +1.4390406063E+000 -3.5255380845E+000 
7017130.163 +1.7929676358E+000 +1.0445090793E+001  +2.0802242335E-002 +9.8985451504E+001  +1.1047324838E-002 +1.6129845262E+001  +1.3495023878E+000 -6.7667027244E+000 
7142275.344 +1.7104801251E+000 +1.4481443249E+001  +1.4764922105E-002 +1.2546044837E+002  +1.7055658627E-002 +4.0864150160E+001  +1.3290386472E+000 -1.6809572547E+001 
7267420.526 +1.5662352323E+000 -1.6026750283E-001  +1.6926097934E-002 +3.1941364402E+001  +1.5455878941E-002 +7.2283469200E+001  +1.4493757162E+000 -1.1965065044E+001 
7392565.707 +1.4500475008E+000 +2.5803213256E+000  +1.2652215415E-002 +8.3913285476E+001  +8.5949028744E-003 +4.9412888480E+001  +1.2546263947E+000 -7.5313770350E+000 
7517710.889 +1.2081216262E+000 -4.6253375707E+000  +2.0321638588E-003 +5.3931434498E+001  +8.3751677218E-003 +1.2863745087E+002  +1.2162453190E+000 -7.9846179864E+000 
7642856.070 +1.0877686468E+000 +3.3431401559E+000  +1.0944034884E-002 -1.7549271277E+002  +5.8133978332E-003 +1.4235515464E+002  +1.1701108540E+000 -7.3780192841E+000 
7768001.252 +1.0142715881E+000 +2.1334580343E+000  +6.0832079435E-003 +9.4525913702E+001  +8.0516910879E-003 +1.2559764661E+002  +9.9945647155E-001 -4.5396596533E+000 
7893146.433 +9.9896179985E-001 +7.0451836619E+000  +1.2707486843E-002 +5.3696844542E+001  +8.2530409463E-003 +5.9466852092E+001  +9.3589879953E-001 -4.7808606289E+000 
8018291.615 +8.3697553838E-001 +5.7169466791E+000  +3.9131969331E-003 +1.2204781227E+002  +3.3838258250E-003 +9.7062169658E+001  +8.7631038387E-001 -2.7276133282E+000 
8143436.796 +7.2001995075E-001 +4.4725218640E+000  +6.2610271107E-003 +7.1138234116E+001  +5.3229700284E-003 +1.2177087046E+002  +8.9499164345E-001 +5.6618400109E-001 
8268581.977 +7.4590769095E-001 +5.7589592797E+000  +8.3905140790E-004 +1.4911126069E+002  +3.6348056079E-003 +1.0972842027E+002  +7.8613337987E-001 -1.1270948216E-001 
8393727.159 +7.8113376560E-001 +2.7054188172E+000  +3.2958242926E-003 +9.4936378759E+001  +7.7171868071E-003 +9.8574002586E+001  +8.1350765458E-001 +3.7054068734E+000 
8518872.340 +7.0956135472E-001 +8.5312627624E+000  +4.5180630510E-003 +6.9928534722E+001  +6.0343738038E-003 +1.1443223551E+002  +7.5061338635E-001 +1.7430330768E+000 
8644017.522 +6.6300139546E-001 +1.0191600389E+001  +4.7824204297E-003 +2.2610022991E+001  +4.5965317210E-003 +9.0347652830E+001  +6.3373978380E-001 -5.1062686552E-001 
8769162.703 +6.9846600999E-001 +4.3357583414E+000  +3.7797956550E-003 +8.7077511651E+000  +4.4292540559E-003 +4.1339121452E+001  +6.4784471980E-001 -2.0326139376E+000 
8894307.885 +6.4195768488E-001 +5.5707900339E+000  +1.9490158853E-003 +7.6386684727E+001  +6.2090253408E-003 +1.5540860414E+002  +6.4216466858E-001 -1.8709255467E+000 
9019453.066 +6.2635463317E-001 +8.8867063640E-001  +5.6524600134E-003 +1.1856347318E+002  +5.1835417604E-003 +7.8397424985E+001  +6.2892485609E-001 -2.1073420031E+000 
9144598.248 +5.5593436261E-001 -3.3231874125E-001  +2.1724234897E-003 +1.6038770937E+002  +5.2801470745E-003 +6.4364990408E+001  +6.2303469262E-001 -3.0688008081E+000 
9269743.429 +5.9374151659E-001 +4.3162981574E+000  +6.8622675661E-003 +1.0603079450E+002  +3.3693519993E-003 +1.6487858150E+002  +5.8997894973E-001 -4.9062489586E+000 
9394888.611 +5.0492107055E-001 +9.5619402808E+000  +1.0342363361E-003 +3.5317057770E+001  +4.8999132226E-003 +7.9965617461E+001  +5.9591226490E-001 -2.2062029677E+000 
9520033.792 +6.0760649243E-001 +2.2832834189E+000  +2.6827099925E-003 +1.1921914231E+002  +4.3795625696E-003 +1.1872775548E+002  +5.4936203046E-001 -8.7901691764E+000 
9645178.974 +5.2222350573E-001 -1.4905328035E+000  +3.7144407502E-003 +9.6420030325E+001  +2.8553531054E-003 +9.6055908042E+001  +5.8731803964E-001 -4.8402594413E+000 
9770324.155 +5.9553745633E-001 -2.8028287715E+000  +5.3215189228E-003 +5.0246595263E+001  +3.0488030080E-003 +5.4215706399E+001  +5.4856696507E-001 -3.6471437836E+000 
9895469.337 +5.6389575331E-001 +3.3397865004E+000  +6.5656779302E-003 +7.0265888474E+001  +6.2048901051E-003 +9.4772260712E+001  +5.9458719789E-001 -8.1877270628E+000 
10020614.518 +5.6431295295E-001 -2.1280659117E-001  +4.9731099775E-003 +7.1799531797E+001  +4.1742560178E-003 +9.4679955439E+001  +6.2547192350E-001 -1.3722582143E+000 
10145759.700 +5.4324852159E-001 +1.9490344570E+000  +5.9522732085E-003 +8.1650103173E+001  +3.7609253742E-003 +9.9973396741E+001  +5.7127435463E-001 -3.7778950097E+000 
10270904.881 +5.3640067463E-001 -2.6749631570E-002  +1.1359206264E-003 +6.1819823250E+001  +3.1895531723E-003 +1.2521246112E+002  +6.1129582462E-001 -5.1993300259E+000 
10396050.063 +5.3085817952E-001 +4.4755094880E+000  +4.2207066084E-003 +9.2531624765E+001  +5.2747680317E-003 +1.0692249915E+002  +6.2211704255E-001 -2.8019307778E+000 
10521195.244 +5.4215867351E-001 +5.6343019906E+000  +5.2210508921E-003 +7.9862124672E+001  +4.3120059641E-003 +1.2515597647E+002  +5.6492050802E-001 -1.0326749521E+000 
10646340.426 +5.9535871311E-001 +6.2119313370E+000  +4.0226989586E-003 +6.4608602615E+001  +5.0248573520E-003 +6.3035771751E+001  +6.1104517548E-001 +1.1169420796E+000 
10771485.607 +5.5499132234E-001 +4.4521354034E+000  +4.6536882326E-003 +1.0584954552E+002  +3.6770472280E-003 +1.1255375385E+002  +5.7082097131E-001 -2.7156149403E+000 
10896630.788 +5.7330913897E-001 +6.3952846565E+000  +2.8457696720E-003 +4.8387899928E+001  +6.7584613129E-003 +1.0949211996E+002  +6.1209532288E-001 -1.2243057944E-001 
11021775.970 +6.0636907777E-001 +6.3850210024E+000  +4.5371204278E-003 +8.4523531166E+001  +4.1265862942E-003 +1.1427054339E+002  +6.1353866243E-001 +4.4082714864E-001 
11146921.151 +5.9376272646E-001 +3.4144422822E+000  +4.5592076083E-003 +8.6933446463E+001  +3.1873234796E-003 +1.3031543127E+002  +6.1095623654E-001 -3.5679904841E-001 
11272066.333 +6.0051550960E-001 +6.5390177003E+000  +3.0491907129E-003 +1.1441357393E+002  +6.5735225673E-003 +9.3711929693E+001  +6.1977100366E-001 -1.7910658197E+000 
11397211.514 +5.9054168545E-001 +5.3439085017E+000  +4.5762242917E-003 +6.9239458405E+001  +2.7051514534E-003 +1.3244677515E+002  +6.5103424860E-001 +1.1779348715E+000 
11522356.696 +6.2285586666E-001 +7.7911599279E+000  +5.2474087534E-003 +5.7859697255E+001  +4.2720841174E-003 +1.2790551516E+002  +6.6723737698E-001 -3.4043029200E-001 
11647501.877 +6.2317612221E-001 +3.8683821653E+000  +5.0442986990E-003 +8.2417341034E+001  +8.3439633000E-003 +1.0800924555E+002  +6.7124797952E-001 +7.7730425466E-001 
11772647.059 +6.3933552081E-001 +5.3476157314E+000  +4.6709586648E-003 +8.1030999314E+001  +4.0798249602E-003 +1.1599015030E+002  +6.6392572270E-001 -3.6479762126E-002 
11897792.240 +6.5728871416E-001 +3.7590503563E+000  +4.9140652223E-003 +7.0517662603E+001  +3.3861234450E-003 +9.8414063004E+001  +6.7328520065E-001 -8.6700583362E-001 
12022937.422 +6.3364943056E-001 +3.2630376857E+000  +6.5552596108E-003 +9.3245464323E+001  +4.3334474199E-003 +9.8021870685E+001  +7.1212209230E-001 -1.6930618498E-001 
12148082.603 +6.9153096121E-001 +4.3236678044E+000  +5.3111914126E-003 +7.5951828768E+001  +5.8740566797E-003 +1.1321021562E+002  +6.9197237149E-001 -1.3440574727E-001 
12273227.785 +6.6575306768E-001 +3.0026090695E+000  +5.5106925238E-003 +1.1215951866E+002  +3.8295089510E-003 +9.3372639807E+001  +7.1564599003E-001 +1.9518765244E+000 
12398372.966 +7.3597357555E-001 +2.4052815029E+000  +6.1248338020E-003 +9.9418820313E+001  +4.0484756858E-003 +1.0040551557E+002  +7.3021133120E-001 -5.5716051634E-001 
12523518.148 +7.0437033112E-001 +3.2008786635E+000  +6.0068320049E-003 +8.8548612408E+001  +6.4138724579E-003 +1.1051535086E+002  +7.3340293842E-001 +1.0659890836E+000 
12648663.329 +7.1573796606E-001 +2.0138226635E+000  +6.6662063529E-003 +1.0806405729E+002  +5.8697302504E-003 +9.5676080937E+001  +7.2620697890E-001 -1.5564758036E+000 
12773808.511 +7.3834395155E-001 +1.9380648179E+000  +5.9169117456E-003 +9.3404228140E+001  +6.7881540245E-003 +9.2288916356E+001  +7.8843060338E-001 -1.3204313378E+000 
12898953.692 +7.7442234321E-001 +8.4409439045E-001  +5.8176147477E-003 +7.2357555711E+001  +7.1999366443E-003 +1.0209337346E+002  +7.8438924152E-001 -1.1823143066E+000 
13024098.874 +7.7309645107E-001 +1.0092446604E+000  +5.8025931545E-003 +1.0151903870E+002  +8.0894204713E-003 +9.7851367427E+001  +8.0369223190E-001 -1.9738036112E+000 
13149244.055 +8.1050611351E-001 +2.5162881035E-001  +8.5060643540E-003 +9.7935929295E+001  +5.2004543532E-003 +7.7332381326E+001  +8.2034592585E-001 -2.5929811263E+000 
13274389.237 +8.1717331411E-001 -9.6418615045E-001  +5.6386700454E-003 +8.6842665780E+001  +7.5708394996E-003 +1.0205363323E+002  +8.1908546434E-001 -1.6785537209E+000 
13399534.418 +8.2752643973E-001 -1.7026554107E+000  +8.1225777098E-003 +1.0568264584E+002  +5.9372625686E-003 +1.0870812930E+002  +8.3720728529E-001 -4.3807315102E+000 
13524679.599 +8.3649156126E-001 -1.3394210856E+000  +6.5390988282E-003 +8.5318412976E+001  +7.2816580527E-003 +9.6565895455E+001  +8.7627780075E-001 -9.3987072105E-001 
13649824.781 +8.9481338409E-001 -2.6128513466E+000  +8.2170807773E-003 +9.0848425808E+001  +6.7568510335E-003 +9.5451083007E+001  +8.7903156717E-001 -2.3666691415E+000 
13774969.962 +8.6966426683E-001 -1.0191760574E+000  +6.8172780670E-003 +8.1488212645E+001  +7.7470343773E-003 +9.6692033282E+001  +8.9131089692E-001 -2.6216705943E+000 
13900115.144 +9.2048509973E-001 -4.1468450472E+000  +5.5943425986E-003 +8.1719196946E+001  +7.8788345559E-003 +1.0530963028E+002  +9.2453030894E-001 -2.9852367783E+000 
14025260.325 +9.1682938521E-001 -3.6323678546E+000  +6.9581702315E-003 +9.0400906605E+001  +6.4158713458E-003 +8.5786693128E+001  +9.4136197013E-001 -4.3835581755E+000 
14150405.507 +9.4233297273E-001 -5.0922140138E+000  +8.5412036428E-003 +9.5677119064E+001  +6.4125829200E-003 +9.2934689063E+001  +9.4783463417E-001 -5.4734190069E+000 
14275550.688 +9.6924732976E-001 -4.3170480966E+000  +7.3180844359E-003 +9.7477864170E+001  +7.3993039190E-003 +8.8083845863E+001  +9.7836984397E-001 -4.4108210683E+000 
14400695.870 +9.9151281279E-001 -5.1255646334E+000  +7.0112421356E-003 +9.3679438799E+001  +8.1769511864E-003 +8.6388348986E+001  +9.8130722920E-001 -3.9987443863E+000 
