!  2-Port S-parameters saved by WinCal
! VAR MeasName=S-Parameters (CALIBRATED_DATA) read from VNA (P5004A)
! VAR MeasDate=27/08/2024 15:06:47
! VAR NAME=S2_r3c8_SET2_9k-100M_2
! VAR FILENAME=S2_r3c8_SET2_9k-100M_2.S2P
! VAR DATE=27/08/2024 15:06:47
! VAR PHYS_PORTS=1,2
! VAR ObjTypeName=DATASET
! VAR IndexType=Frequency
!
# Hz S MA R 50
9000.000 +2.2958923157E-002 -1.5959110448E+002  +2.5886359087E-002 +1.4500110940E+002  +2.4946980865E-002 +1.3489744772E+002  +4.0680471189E-001 -1.2045368054E+002 
134145.181 +1.1133376338E-001 +1.7012970626E+002  +7.4459877347E-004 -1.7467236531E+002  +2.6604832490E-004 +1.1369055660E+002  +2.4094741854E-001 -1.7109422806E+002 
259290.363 +1.1147423920E-001 +1.6967433153E+002  +2.8177654525E-004 -1.2880286309E+002  +8.2494705880E-004 +1.6604168361E+002  +2.4308977399E-001 -1.6762040743E+002 
384435.544 +1.1332204027E-001 +1.6943469747E+002  +4.6703718975E-004 -1.5551555964E+002  +1.9220955308E-004 +1.7818373721E+002  +2.3628263155E-001 -1.6857622763E+002 
509580.726 +1.1661107248E-001 +1.7164002554E+002  +4.8752264991E-004 +1.7063935416E+001  +1.6120606743E-003 +1.7586232499E+002  +2.4172776167E-001 -1.6613354625E+002 
634725.907 +1.1431615852E-001 +1.7211938597E+002  +9.1513076980E-004 -1.4274893009E+002  +1.6240373875E-003 +2.3568583847E+000  +2.4815600825E-001 -1.6646764191E+002 
759871.089 +1.1697625838E-001 +1.7118765612E+002  +7.6332244542E-004 -9.2121171753E+001  +5.3313354271E-004 +7.8905006523E+001  +2.3158880903E-001 -1.6469665749E+002 
885016.270 +1.1916929484E-001 +1.6870841993E+002  +3.6033421186E-004 -1.3340713344E+002  +3.1785576335E-004 +1.6787944977E+002  +2.4469472098E-001 -1.6592862233E+002 
1010161.452 +1.1709599010E-001 +1.7067028085E+002  +3.1445101341E-003 -1.2920009447E+001  +3.0671682299E-003 -5.5960531811E+001  +1.1799721555E-001 -1.6479493307E+002 
1135306.633 +1.1274263755E-001 +1.6879323926E+002  +6.1357898570E-004 -6.4918292158E+001  +1.4764228468E-003 -1.3922514786E+002  +1.9475501108E-001 -1.6316686914E+002 
1260451.815 +1.1681457513E-001 +1.7115143830E+002  +3.2836934006E-003 -5.4904638370E+001  +1.8854281003E-003 +1.5578005931E+002  +2.2407413488E-001 -1.5038601125E+002 
1385596.996 +1.2769157977E-001 +1.7222521989E+002  +1.0323800625E-003 -1.5116855567E+002  +2.7661069739E-004 +2.2835433563E+001  +2.6363675703E-001 -1.5972232346E+002 
1510742.178 +1.2563573962E-001 +1.7139549045E+002  +6.4860915225E-004 -1.0818226037E+002  +8.6973044823E-005 -1.0552253793E+002  +2.6345420340E-001 -1.5834063208E+002 
1635887.359 +1.2753124369E-001 +1.6976925907E+002  +2.3978475223E-003 -3.2877854700E+001  +5.1060645455E-004 -1.7391448123E+002  +2.3342493004E-001 -1.6068517180E+002 
1761032.541 +1.2611321262E-001 +1.7032283286E+002  +1.0154510959E-003 -9.6513563048E+001  +2.8921006548E-003 +1.4946670409E+002  +2.3116479546E-001 -1.5811476178E+002 
1886177.722 +1.1901487736E-001 +1.6681942380E+002  +2.3426600441E-003 -1.2168792708E+002  +5.4218543027E-003 +6.2021756675E+001  +2.1017646076E-001 -1.5579883253E+002 
2011322.904 +1.2798683591E-001 +1.6712691183E+002  +2.1121687728E-003 +1.9899867427E+001  +2.4382490088E-003 -7.3454621301E+001  +1.8557464261E-001 -1.6952942607E+002 
2136468.085 +1.3030854132E-001 +1.6643864224E+002  +3.2283675281E-003 +9.5799845783E+001  +3.0939612201E-003 -2.7788681216E+001  +1.9951480211E-001 +1.7669354234E+002 
2261613.267 +1.3676640055E-001 +1.6505995968E+002  +3.5786994553E-003 +8.9432055833E+001  +2.4059662772E-003 -4.7211861467E+001  +1.6892946246E-001 +1.5345153438E+002 
2386758.448 +1.3619860646E-001 +1.6575498823E+002  +5.2426587464E-003 +1.1706628932E+002  +4.4103760647E-003 +2.8533817547E+001  +2.2270031745E-001 +1.5449894667E+002 
2511903.630 +1.3414544146E-001 +1.5913001197E+002  +5.0385944391E-003 +7.0571288070E+001  +1.0720398008E-002 -8.2410834431E+001  +1.0262504260E-001 -1.5320756267E+002 
2637048.811 +1.5019100604E-001 +1.3152721289E+002  +1.7345299402E-002 +1.4414115279E+002  +4.3236330006E-003 +2.2378198188E+001  +2.4819662127E-001 +1.6513648813E+002 
2762193.992 +1.1223116516E-001 +1.7510848189E+002  +6.1213303479E-002 +1.3747345231E+001  +7.8687362406E-002 -9.5988541474E+001  +5.1559185177E-001 +4.1341815842E+001 
2887339.174 +1.2970063008E-001 +1.6889842273E+002  +2.3235168613E-002 -9.5130511733E+001  +1.9062468174E-002 -1.7175046469E+002  +6.9070501669E-001 -1.1013852160E+002 
3012484.355 +1.0213199032E-001 +1.6551225851E+002  +2.7473673188E-002 -2.8621629286E+001  +3.1860473139E-002 -1.3171630781E+002  +3.3082388924E-001 -8.0454557663E+001 
3137629.537 +1.3493433529E-001 +1.6310329918E+002  +1.8283211798E-002 +3.7201051798E+000  +2.6127220986E-002 -1.3715086136E+002  +6.8713032692E-001 -7.2212895004E+001 
3262774.718 +1.1165174848E-001 +1.6127190043E+002  +3.5984790058E-002 +3.6943768439E+001  +3.1788217255E-002 -1.0515877505E+002  +3.5184326371E-001 -4.0190549267E+001 
3387919.900 +1.6270072675E-001 +1.5003480139E+002  +2.6247275522E-002 +7.6747653864E+001  +2.2987270588E-002 -4.2244439017E+001  +2.0781852058E-001 +4.6260358517E+001 
3513065.081 +1.3175857686E-001 +1.5014662066E+002  +3.4525864825E-002 +4.0842638693E+001  +3.2909703184E-002 -6.4102904105E+001  +3.4492230404E-001 +4.4530975127E+001 
3638210.263 +1.4839861419E-001 +1.3964237213E+002  +3.5783981634E-002 +1.4105334752E+002  +3.2210176900E-002 +7.2387895954E+001  +8.5659357980E-001 +1.4814270477E+002 
3763355.444 +2.0500727979E-001 +1.4989373838E+002  +1.8500384501E-002 +1.1400391790E+002  +1.0830137443E-002 +5.9731346986E+001  +4.4010911626E-001 +1.3801395258E+002 
3888500.626 +1.7232349746E-001 +1.4635397528E+002  +2.5378742983E-002 +6.7651906907E+001  +5.0757721645E-002 +4.0512695830E+000  +3.9677060269E-001 +3.8268473332E+001 
4013645.807 +1.7905304454E-001 +1.4590174005E+002  +8.6151377863E-003 +6.1773662981E+001  +1.9352927285E-002 +1.9407930664E+001  +3.6045846421E-001 +1.3655243883E+002 
4138790.989 +2.2020821373E-001 +1.4381812622E+002  +3.0811408270E-002 +7.9566661759E+001  +2.6058847467E-002 +3.8698981583E+001  +2.9590929286E-001 +1.1272865775E+002 
4263936.170 +2.1566068973E-001 +1.4989555649E+002  +1.5971767329E-002 +7.6362197559E+001  +2.0826756604E-002 +3.6188667659E+001  +3.3934152437E-001 +1.1467993657E+002 
4389081.352 +2.0015356883E-001 +1.2442740799E+002  +6.8171643146E-002 +5.2232472091E+001  +4.3343076474E-002 +3.5306971890E+000  +4.1241503337E-001 +3.5508229007E+001 
4514226.533 +2.0375171715E-001 +1.3922765386E+002  +7.0019497585E-002 +1.0713984581E+002  +7.0045782928E-002 +5.6967993030E+001  +1.6000996258E+000 +1.1077112044E+002 
4639371.715 +2.7276888186E-001 +1.4030388460E+002  +6.8793766781E-002 +1.3832135648E+002  +6.3137831928E-002 +5.9047158165E+001  +1.6889601938E+000 +1.0809118087E+002 
4764516.896 +3.5672949770E-001 +1.2805408794E+002  +2.1170092645E-001 +1.4589638645E+002  +2.7035331169E-001 +1.1472764569E+002  +3.8322495908E+000 +1.2037932452E+002 
4889662.078 +4.1495480288E-001 +1.3342043247E+002  +2.2644432074E-001 -1.6356351471E+002  +2.7009112687E-001 +1.2727188254E+002  +4.6254659045E+000 +1.3382014372E+002 
5014807.259 +3.6123175173E-001 +1.2903619698E+002  +1.1662919777E-001 +6.1426717381E+001  +1.1976745346E-001 +3.3834462426E+001  +1.5247370038E+000 +3.0652890286E+001 
5139952.441 +3.4461154458E-001 +1.1801444576E+002  +3.1886222437E-001 +1.1040970303E+002  +3.3598965753E-001 +6.7690374779E+001  +4.8168678566E+000 +8.0911588658E+001 
5265097.622 +4.4457302054E-001 +1.3718044231E+002  +8.5133343093E-002 +1.3439148812E+002  +6.6921501376E-002 +9.1552201534E+001  +1.4612851399E+000 +1.0890944286E+002 
5390242.804 +4.3619759940E-001 +1.2279410039E+002  +2.1168739767E-001 +1.4396477373E+002  +2.0593795420E-001 +1.0860424845E+002  +4.6723362372E+000 +1.1885846133E+002 
5515387.985 +4.2760528399E-001 +1.2847206071E+002  +8.4020625848E-002 +1.3536135037E+002  +6.3921677371E-002 +6.5643463063E+001  +1.6417238842E+000 +1.1297475820E+002 
5640533.166 +5.0538294090E-001 +1.2758536757E+002  +7.3000499466E-002 +1.0362435394E+002  +4.4680448831E-002 +5.5040827494E+001  +1.2501498592E+000 +8.6637595319E+001 
5765678.348 +4.2136687388E-001 +1.2627335894E+002  +6.2265632398E-002 +5.6869406438E+001  +9.4269560536E-002 +3.2222858887E+001  +1.7318287090E+000 +5.6515055260E+001 
5890823.529 +5.8100623791E-001 +1.1903900108E+002  +1.3079398591E-001 +8.5707013809E+001  +1.0636392465E-001 +3.5354460297E+001  +2.0810828653E+000 +3.8458549580E+001 
6015968.711 +6.8430634312E-001 +1.1234685850E+002  +1.1034044388E-001 +8.6509028692E+001  +1.3541982913E-001 +6.7959942690E+001  +1.9553727077E+000 +7.6687402154E+001 
6141113.892 +8.7534048469E-001 +1.1203122076E+002  +1.0345424229E-001 +6.6862573287E+001  +1.0956123676E-001 +4.8538053121E+001  +1.7402383124E+000 +2.7264916631E+001 
6266259.074 +8.3732592876E-001 +1.0288854534E+002  +1.0435860367E-001 +5.3959831112E+001  +1.0009429358E-001 +3.1299673314E+001  +1.3071464722E+000 +2.8285975851E+001 
6391404.255 +8.6276091893E-001 +1.0107644855E+002  +1.2083297213E-001 +4.0480034206E+001  +1.0372323613E-001 +3.7293844688E+001  +1.6142859467E+000 +1.8388398872E+001 
6516549.437 +1.1468800718E+000 +8.5296108718E+001  +1.1608376742E-001 +4.6940638998E+001  +1.0990027324E-001 +3.4264123892E+001  +1.1786409046E+000 +1.2225693468E+001 
6641694.618 +1.2308592429E+000 +7.3895102557E+001  +1.0175234963E-001 +3.2378755494E+001  +1.1743689982E-001 +2.2064366679E+001  +1.3192465711E+000 -3.7925694731E+000 
6766839.800 +1.4789786874E+000 +5.1288165922E+001  +1.3688134699E-001 +1.6357261546E+001  +1.2826733071E-001 +8.3100069621E+000  +1.2450343657E+000 -5.9412655616E+000 
6891984.981 +1.7652981271E+000 +3.7817443420E+001  +1.2632246883E-001 +9.0957778999E+000  +1.2494391899E-001 +9.1618975700E-001  +1.2580642285E+000 -4.9103540191E+000 
7017130.163 +1.6248501253E+000 +2.1254410640E+001  +1.1475890500E-001 +2.7915203574E+000  +1.1593951522E-001 +6.9220107517E+000  +1.2788300104E+000 -9.9684629234E+000 
7142275.344 +1.6710345894E+000 +6.7795694069E+000  +1.0009350482E-001 -6.3296366748E+000  +1.1464068361E-001 +8.6424937245E+000  +1.3695765185E+000 -7.3383664066E+000 
7267420.526 +1.4695127927E+000 -3.9930917880E+000  +7.3839164134E-002 +2.3287587073E+000  +8.0793424495E-002 +3.9203314150E+000  +1.2126627638E+000 -1.6558325733E+001 
7392565.707 +1.1815606243E+000 +7.3246166953E-001  +6.5538941681E-002 +1.4589323170E+001  +7.0878993769E-002 +1.0961453441E+001  +1.2489991793E+000 -4.7901161569E+000 
7517710.889 +1.0945828952E+000 +3.3049119953E+000  +5.9486529577E-002 +6.0529291707E+000  +4.6436913465E-002 +9.5964230967E+000  +1.0973888336E+000 -7.1931497172E+000 
7642856.070 +1.0330658903E+000 +9.3212850742E-001  +5.4707500470E-002 +1.2178962230E+001  +6.1096791158E-002 +1.2221973319E+001  +1.0977136154E+000 +3.5546733979E-001 
7768001.252 +9.8271613159E-001 +9.1025306398E-002  +5.2243645625E-002 +2.8324340806E+000  +5.1730859240E-002 +4.2692075603E+000  +9.7188903751E-001 -3.2961305523E+000 
7893146.433 +8.0424613939E-001 +8.4472391402E+000  +4.3444486480E-002 +8.3205607190E+000  +5.1062812704E-002 +1.6082951819E+001  +8.7217496577E-001 +3.1188650690E-001 
8018291.615 +7.8407170575E-001 +6.6493510798E+000  +4.6302451109E-002 -1.9968317055E+000  +4.6541245608E-002 +4.3245466580E+000  +7.7394780249E-001 -8.5610742351E-001 
8143436.796 +7.1296329353E-001 +6.1836881792E+000  +4.5729994405E-002 -4.3691012732E-001  +4.2631710480E-002 +9.5179096256E+000  +8.0867930530E-001 -2.7746229553E+000 
8268581.977 +6.6271495188E-001 +4.0476430627E+000  +4.6359411325E-002 +1.5427115897E+000  +5.1276077173E-002 +6.3806201911E+000  +7.8628125702E-001 +2.0138634579E-001 
8393727.159 +7.1750247619E-001 +1.0645313892E+001  +4.4427063841E-002 +6.2440052847E+000  +4.2963178841E-002 +9.2779496855E+000  +6.7644489212E-001 -9.4637076585E-001 
8518872.340 +6.1404542471E-001 +1.1263567626E+001  +4.5074567282E-002 -4.8657041103E+000  +4.3537088493E-002 +1.0241192551E+001  +6.4756332756E-001 -2.1379800241E+000 
8644017.522 +5.9094141817E-001 +1.4440105901E+001  +4.5451437142E-002 -2.1792839796E-001  +4.7532242846E-002 +7.1319312264E+000  +7.0664707551E-001 -4.5529001897E+000 
8769162.703 +6.2398867379E-001 +9.3187766475E+000  +4.6310920475E-002 +1.9899546385E+000  +4.3560008066E-002 +1.0878495879E+001  +6.5516461361E-001 +3.3246968806E+000 
8894307.885 +5.7547421049E-001 +3.8659264006E+000  +4.3828139143E-002 +3.0079878654E+000  +4.7219834982E-002 +2.2466130450E+001  +6.5277920294E-001 -1.8756311149E+000 
9019453.066 +6.3512779350E-001 +2.3849734244E+000  +4.2778446987E-002 -4.9502149711E+000  +4.5679056535E-002 +1.2532748890E+001  +5.8835132684E-001 -3.0438733920E-001 
9144598.248 +5.4812694750E-001 +7.2785471549E+000  +4.0858243291E-002 -1.5638545309E+000  +4.3936379183E-002 +1.4360922398E+001  +6.0659033725E-001 -5.2799451686E-001 
9269743.429 +5.2324286630E-001 +3.3503136619E+000  +4.6394236315E-002 +2.1394163415E+000  +4.2177497609E-002 +1.8047722404E+001  +5.7440194383E-001 -3.2859503775E-001 
9394888.611 +4.9884749192E-001 -1.1455130787E+000  +4.0212393783E-002 +3.0433850853E+000  +4.2574338426E-002 +1.5937178960E+001  +5.7516950171E-001 -2.7537339255E+000 
9520033.792 +5.3971089355E-001 +3.3739900982E+000  +4.0017853204E-002 -9.1663225234E-001  +4.3102717698E-002 +1.6159673899E+001  +5.4150437940E-001 -4.0971423785E+000 
9645178.974 +4.9739510626E-001 -2.8538710291E+000  +4.5075967282E-002 +8.2648086288E-001  +4.8396610498E-002 +1.6075838111E+001  +5.5664769367E-001 -4.0448900703E+000 
9770324.155 +4.8210730845E-001 +4.0901231695E+000  +4.1342995099E-002 -2.2404647278E+000  +4.3613573494E-002 +1.3588691534E+001  +5.7181503649E-001 -8.6736202562E+000 
9895469.337 +5.1309693760E-001 +4.2071064859E+000  +4.3036531807E-002 -3.8002570177E+000  +3.9917458111E-002 +2.0435026555E+001  +4.9237830762E-001 -1.8936295731E+000 
10020614.518 +5.0500519260E-001 -1.8176727331E+000  +4.6475925158E-002 -9.2227802405E-002  +4.2841414530E-002 +1.7422117322E+001  +5.4324917376E-001 -3.3493966341E+000 
10145759.700 +4.9482352417E-001 +5.1291878623E+000  +4.3533080423E-002 +7.2263127828E-002  +4.3367061360E-002 +1.9251086989E+001  +5.4568569780E-001 -4.4779901702E+000 
10270904.881 +5.1373512218E-001 +2.7233100845E+000  +4.3336985286E-002 +2.1146649352E+000  +4.3044990414E-002 +2.0860814293E+001  +5.4419448451E-001 -1.8696333703E+000 
10396050.063 +5.2089381598E-001 +8.1697918654E+000  +4.2828035752E-002 +4.1130215571E+000  +4.4827264307E-002 +1.4991937542E+001  +5.4661693118E-001 +1.6683103157E+000 
10521195.244 +4.9827599174E-001 +3.0932714809E+000  +4.1759446829E-002 +5.4375645148E+000  +4.4386848903E-002 +1.7926033628E+001  +5.5927779915E-001 +9.2638566575E-001 
10646340.426 +5.1451486075E-001 +6.2878397799E+000  +4.2715413967E-002 -5.1077692114E-001  +4.3799557652E-002 +1.9973296094E+001  +5.3095681138E-001 -2.7076549381E+000 
10771485.607 +5.2267170413E-001 +5.6748463045E+000  +4.5900196669E-002 +1.1673531356E+000  +4.5544479358E-002 +1.7629204054E+001  +5.3479925968E-001 +7.5146472197E-001 
10896630.788 +5.3646941365E-001 +6.4478853772E+000  +4.6827224297E-002 +6.7489220679E+000  +4.4533900128E-002 +1.5133524307E+001  +5.2349261563E-001 -8.2283957491E-001 
11021775.970 +5.2199067548E-001 +7.2407795711E+000  +4.5192827319E-002 +5.5202081281E+000  +4.3111827401E-002 +1.8000395514E+001  +5.9641296423E-001 +4.2949264810E-001 
11146921.151 +5.5676112826E-001 +5.2645901830E+000  +4.3734457155E-002 +5.6055588740E+000  +4.5508048438E-002 +1.9164155448E+001  +5.9179440942E-001 -4.1515390800E-001 
11272066.333 +5.5098666709E-001 +7.2007640000E+000  +4.5156359024E-002 +7.0023072637E+000  +4.5610703625E-002 +1.5164520082E+001  +5.7981004999E-001 +3.1095442008E+000 
11397211.514 +5.7110397955E-001 +7.9784010968E+000  +4.5694123060E-002 +5.8101569870E+000  +4.5026903780E-002 +1.5510805610E+001  +5.9265929145E-001 +1.0768054020E+000 
11522356.696 +6.1512557222E-001 +6.5845202877E+000  +4.6879910312E-002 +7.1750252765E+000  +4.7318918643E-002 +1.7290862608E+001  +6.0438639502E-001 +3.4302673472E+000 
11647501.877 +5.8566094513E-001 +6.1643140014E+000  +4.5560792292E-002 +7.4138554251E+000  +4.5990552637E-002 +2.1172027716E+001  +5.8883564806E-001 +8.2005635843E-001 
11772647.059 +5.8979031480E-001 +6.1794350026E+000  +4.8457037327E-002 +7.8976258503E+000  +4.8218597071E-002 +1.7231915223E+001  +6.2405024563E-001 -1.1922822088E+000 
11897792.240 +6.1255034168E-001 +7.7479007488E+000  +4.9572248198E-002 +4.8551891065E+000  +4.6301889610E-002 +1.7046838724E+001  +6.2361825939E-001 +1.5328971657E+000 
12022937.422 +6.1893498386E-001 +5.4735131058E+000  +4.9609816300E-002 +8.6733463763E+000  +4.8125960862E-002 +1.6316651822E+001  +6.5020836705E-001 +6.6385668314E-001 
12148082.603 +6.2843739429E-001 +6.1253849212E+000  +4.9624548524E-002 +6.0790838952E+000  +4.8104280461E-002 +1.6462167101E+001  +6.1853050870E-001 +3.5120126429E-001 
12273227.785 +6.5619142649E-001 +2.3574260096E+000  +5.0189461733E-002 +7.4973545765E+000  +5.1822339529E-002 +1.6622369393E+001  +6.5568691439E-001 -1.3846090296E+000 
12398372.966 +6.5130429081E-001 +4.8540243084E+000  +5.2530830958E-002 +9.3751833484E+000  +4.8385873089E-002 +1.5733583471E+001  +6.7876523228E-001 +5.8369012093E-001 
12523518.148 +6.6139506003E-001 +1.2362310087E+000  +5.2103206758E-002 +8.3676662077E+000  +5.0623348411E-002 +1.4685733538E+001  +6.9007860827E-001 -8.1729790271E-001 
12648663.329 +6.5853582605E-001 +4.6728532163E+000  +5.2238951779E-002 +8.4561184993E+000  +5.1442994452E-002 +1.4268925260E+001  +6.9508756203E-001 -4.7048708028E-001 
12773808.511 +7.2215695914E-001 +3.2962269639E+000  +5.1313196312E-002 +8.8451737266E+000  +5.2497683162E-002 +1.4732823366E+001  +7.2902113423E-001 -4.5698770224E-001 
12898953.692 +6.9861489104E-001 +1.3749959920E+000  +5.4815312826E-002 +1.1254528535E+001  +5.3056314042E-002 +1.6230581241E+001  +7.3632505297E-001 -9.7985621932E-001 
13024098.874 +7.2996819332E-001 +2.4617150346E+000  +5.4289518122E-002 +9.4320951312E+000  +5.2518943142E-002 +1.3453247377E+001  +7.3992546381E-001 -4.4316450073E-001 
13149244.055 +7.3653124176E-001 +1.0115465144E+000  +5.4198094717E-002 +8.6649217897E+000  +5.3481880024E-002 +1.4177955909E+001  +7.6812664108E-001 -3.5729658397E-001 
13274389.237 +7.6450639340E-001 -9.2997492826E-002  +5.3995468551E-002 +8.6842845056E+000  +5.4440751301E-002 +1.2504108168E+001  +7.9168348627E-001 -2.6004477257E+000 
13399534.418 +7.7516492822E-001 +2.7832054621E-001  +5.5077066268E-002 +1.0748314726E+001  +5.3504402079E-002 +1.2762794504E+001  +7.9684822930E-001 -1.9937140098E+000 
13524679.599 +7.8572530018E-001 -7.9972652417E-001  +5.4903819131E-002 +1.0100499880E+001  +5.5465632067E-002 +1.3842079125E+001  +8.1519062155E-001 -2.3868999370E+000 
13649824.781 +8.2584550186E-001 -1.2596606884E+000  +5.6432857222E-002 +9.6839504931E+000  +5.5139365186E-002 +1.2079416523E+001  +8.1906279673E-001 -2.6521847256E+000 
13774969.962 +8.4485890618E-001 -2.3018534140E+000  +5.6177308453E-002 +1.0123105408E+001  +5.6493420330E-002 +1.1369310897E+001  +8.3429160767E-001 -4.0497637754E+000 
13900115.144 +8.6720228883E-001 -3.9207961513E+000  +5.6452210835E-002 +1.0239972032E+001  +5.4874365139E-002 +1.2132824368E+001  +8.4425198578E-001 -3.0688790512E+000 
14025260.325 +8.6566795232E-001 -3.0140832914E+000  +5.6971585521E-002 +9.7003318472E+000  +5.6887239336E-002 +1.0979766776E+001  +8.8103169909E-001 -3.7754759111E+000 
14150405.507 +8.8458872610E-001 -5.1714994625E+000  +5.7305153125E-002 +9.3400617168E+000  +5.6843090951E-002 +1.0315353818E+001  +8.9201937474E-001 -4.4985734950E+000 
14275550.688 +8.7412172609E-001 -4.1410643100E+000  +5.7064164031E-002 +7.9077093739E+000  +5.5287732317E-002 +9.6435432512E+000  +9.2210769593E-001 -4.4569289019E+000 
14400695.870 +9.1653014024E-001 -4.8892743765E+000  +5.7145867474E-002 +8.2076329784E+000  +5.6632217123E-002 +9.8481657946E+000  +9.3025544129E-001 -4.5352360947E+000 
