!  2-Port S-parameters saved by WinCal
! VAR NAME=S2_r8c9_formed(1)_9k-100M_2
! VAR DATE=30/08/2024 12:00:14
! VAR FILENAME=S2_r8c9_formed(1)_9k-100M_2.S2P
! VAR MeasName=S-Parameters (CALIBRATED_DATA) read from VNA (P5004A)
! VAR MeasDate=28/08/2024 16:03:57
! VAR PHYS_PORTS=1,2
! VAR ObjTypeName=DATASET
! VAR IndexType=Frequency
!
# Hz S MA R 50
9000.000 +8.0031780930E-002 -1.6502747963E+002  +3.4925624953E-003 +1.7548035832E+002  +1.0436686008E-002 +6.4618840301E+001  +2.5826868829E-001 -1.4602016837E+002 
134145.181 +1.1114320596E-001 +1.6979268609E+002  +1.1245690917E-003 -2.9345312405E+001  +1.1639648399E-003 +4.2208459792E+001  +2.4564178308E-001 -1.6938741104E+002 
259290.363 +1.1195854284E-001 +1.7018913356E+002  +6.8602440550E-004 +1.7610336831E+002  +4.0608667921E-004 +5.9740542007E+001  +2.3860690209E-001 -1.7051402737E+002 
384435.544 +1.1459853372E-001 +1.7014268554E+002  +2.2488274331E-004 -8.1022751813E+001  +8.8443602430E-004 +4.8268757830E+001  +2.5067492429E-001 -1.7006809945E+002 
509580.726 +1.1341239554E-001 +1.7009262694E+002  +9.6188595819E-004 +1.7219907262E+002  +2.7140844073E-003 -1.5885183445E+002  +2.6359938277E-001 -1.6329847650E+002 
634725.907 +1.1854730221E-001 +1.7139827450E+002  +3.7294590764E-004 +1.7509658541E+002  +5.6684614559E-004 +4.3097549524E+001  +2.5115580683E-001 -1.6559021686E+002 
759871.089 +1.1968915029E-001 +1.7119045218E+002  +4.1400465903E-004 -4.2401863550E+001  +6.8744724705E-004 +6.4997762053E+001  +2.5297485945E-001 -1.6511422133E+002 
885016.270 +1.2064614802E-001 +1.6882784164E+002  +1.6064876222E-004 -2.1934702632E+001  +1.0886447429E-003 +1.1533835161E+002  +2.5094792766E-001 -1.6679664615E+002 
1010161.452 +1.1850302822E-001 +1.7034083738E+002  +1.3462180256E-003 -1.5915838293E+001  +1.3899828196E-003 +1.2140681783E+002  +1.7383919100E-001 -1.6865736171E+002 
1135306.633 +1.1815031226E-001 +1.6995629908E+002  +2.6300271252E-003 -1.3854171085E+002  +7.9960617642E-004 +5.7448604582E+001  +1.6744622269E-001 -1.7068474737E+002 
1260451.815 +1.2168693585E-001 +1.7142442904E+002  +1.6075418642E-003 -7.3473353353E+001  +2.0456909239E-003 +1.1741476011E+002  +2.2595670202E-001 -1.5721961586E+002 
1385596.996 +1.2609299806E-001 +1.7222498654E+002  +7.8932153518E-004 -4.0695799364E+001  +3.4964947852E-004 +3.1172871237E+001  +2.6731416592E-001 -1.5974229519E+002 
1510742.178 +1.2691181938E-001 +1.7132170751E+002  +4.9585363939E-004 -1.3470228150E+001  +1.1991721860E-003 +1.6634557716E+002  +2.5995600981E-001 -1.5594171400E+002 
1635887.359 +1.2944726546E-001 +1.7089987777E+002  +1.0445385480E-003 -2.4382114737E+001  +7.0729228793E-004 +1.6186168175E+002  +2.6049927865E-001 -1.5396765070E+002 
1761032.541 +1.2776984508E-001 +1.6951212394E+002  +8.1445187359E-004 +3.4827992475E+001  +2.9579157177E-003 -1.1053540077E+002  +2.3064834345E-001 -1.6040489123E+002 
1886177.722 +1.3322361948E-001 +1.6847005190E+002  +1.8140409634E-003 +4.3376945679E+001  +1.3013563026E-003 -1.6431226413E+002  +2.2020318782E-001 -1.6243700740E+002 
2011322.904 +1.3175697947E-001 +1.6756573397E+002  +1.8633278646E-003 +3.7621541958E+001  +4.2680911325E-003 -1.2685486866E+002  +1.9957063170E-001 -1.5590205205E+002 
2136468.085 +1.2912991876E-001 +1.6849249349E+002  +3.3132506411E-003 +2.8456783047E+001  +5.9789751361E-003 -5.9884582613E+001  +1.6305663347E-001 -1.7854555677E+002 
2261613.267 +1.3748881603E-001 +1.6299438203E+002  +2.7040501270E-003 +8.4695764605E+001  +2.2657154156E-003 +5.7658756893E+001  +1.8969513259E-001 +1.7851338055E+002 
2386758.448 +1.2841096231E-001 +1.6677194252E+002  +6.0571760069E-003 +1.1835289788E+002  +3.6681228410E-003 -2.4213205573E+001  +2.6148111841E-001 +1.5909266422E+002 
2511903.630 +1.3131760685E-001 +1.6603033980E+002  +6.3770458359E-003 +6.5637905783E+001  +6.4107389898E-003 -3.0701348117E+001  +1.8967358738E-001 +1.6951234748E+002 
2637048.811 +9.6784181756E-002 +1.6000469598E+002  +7.3191105489E-003 +5.7209067663E+001  +2.4445697510E-002 -4.0246711434E+001  +2.8900002450E-001 +1.5409013834E+002 
2762193.992 +1.1450549698E-001 +1.7176195338E+002  +1.9459780337E-002 -5.4891996859E+001  +2.5560340411E-002 -9.9696000708E+001  +2.0369077769E-001 -2.7689338368E+001 
2887339.174 +1.1760845097E-001 +1.6815351744E+002  +2.3066763047E-002 +4.3098716649E+000  +1.8154086049E-002 -1.5899844243E+002  +1.1896375342E-001 -4.3668608048E+001 
3012484.355 +1.2891418731E-001 +1.7878077028E+002  +2.5050266327E-002 +1.5378938882E+000  +1.8551822951E-002 -1.1339480806E+002  +1.9078854720E-001 -1.4289984952E+001 
3137629.537 +1.2455072323E-001 +1.7404115733E+002  +2.5636974802E-002 -4.9830074754E+000  +2.6458090693E-002 -1.0284301113E+002  +2.0695356926E-001 -7.1224138977E+001 
3262774.718 +1.4009893024E-001 +1.6490643749E+002  +3.6814377526E-002 -5.7859729024E+001  +2.2113863684E-002 -8.1200123256E+001  +5.8737873752E-001 -5.9754593087E+001 
3387919.900 +1.1881323773E-001 +1.5469059958E+002  +2.4493241379E-002 +4.0883180676E+001  +1.6446887812E-002 -4.2560642602E+001  +6.0280633347E-002 +1.7576319395E+002 
3513065.081 +1.6341179298E-001 +1.5674513826E+002  +2.3973199945E-002 +8.2447364257E+001  +3.0808526258E-002 +3.5488197808E+001  +1.2412189183E+000 +1.1930531314E+002 
3638210.263 +1.6102115730E-001 +1.4144038929E+002  +2.0476907009E-002 +8.1737343751E+001  +5.2298914220E-002 +2.1758650057E+001  +7.7618741041E-001 +1.1855189168E+002 
3763355.444 +1.2394211186E-001 +1.4594480525E+002  +4.3463918336E-002 +9.0163902472E+001  +3.2179646192E-002 +3.8421748525E+000  +4.4889957232E-001 +1.2410963260E+002 
3888500.626 +1.6593216292E-001 +1.5934081476E+002  +1.3734354104E-002 +7.2239805996E+001  +1.4157213624E-002 +3.3562262578E+000  +4.7764873068E-001 +1.4284540673E+002 
4013645.807 +1.8226178527E-001 +1.4511979878E+002  +1.9519331146E-002 +7.8248924690E+001  +3.0660623160E-002 +2.9330853655E+001  +2.9916727119E-001 +1.4392413452E+002 
4138790.989 +1.9009733529E-001 +1.5550893992E+002  +2.6292821784E-002 +1.0888317833E+002  +2.9355056655E-002 +5.0107177590E+001  +9.4104629305E-001 +1.2758058423E+002 
4263936.170 +2.2041759870E-001 +1.4398979434E+002  +4.1258879903E-002 +1.3183381574E+002  +3.2707977322E-002 +4.1416035626E+001  +6.8154610552E-001 +1.2330892792E+002 
4389081.352 +2.6643705721E-001 +1.4676686168E+002  +4.5883246155E-002 +1.1091826155E+002  +4.4100064880E-002 +4.8738788893E+001  +6.5189410263E-001 +9.2735330404E+001 
4514226.533 +1.9171953272E-001 +1.4453332319E+002  +2.8786081644E-002 +8.8092598823E+001  +3.6255425029E-002 +2.0971170229E+001  +7.9106363218E-001 +1.0938843352E+002 
4639371.715 +2.8674644513E-001 +1.4065003862E+002  +2.3406863882E-001 -1.7707580396E+002  +2.0286847980E-001 +1.1154034918E+002  +5.4640201960E+000 +1.4505798938E+002 
4764516.896 +2.9106213617E-001 +1.3234776753E+002  +7.1469682475E-002 +5.0464296626E+001  +7.9259964821E-002 +9.0441625700E+000  +8.5025086187E-001 -1.0530801951E+000 
4889662.078 +4.4316963732E-001 +1.3104690312E+002  +2.0502594794E-001 -1.1878416766E+002  +2.0198962266E-001 -1.5269661850E+002  +4.5706810252E+000 -1.6635717016E+002 
5014807.259 +3.7989264805E-001 +1.3064941203E+002  +1.4074512768E-001 +7.6793708814E+001  +1.1537346891E-001 +2.9330858754E+001  +1.7124795953E+000 +2.2487355893E+001 
5139952.441 +3.3355016962E-001 +1.2307373647E+002  +1.4309815421E-001 +7.9573234147E+001  +9.6739503000E-002 +6.2431936255E+001  +1.7572212709E+000 +6.2167488809E+001 
5265097.622 +3.6542538336E-001 +1.0894310298E+002  +3.1254480952E-001 +9.8878485832E+001  +2.9887563107E-001 +5.6806664742E+001  +4.9712802630E+000 +9.5140786072E+001 
5390242.804 +3.5675830148E-001 +1.3118860554E+002  +8.7171374088E-002 +1.6166458740E+002  +9.0793406977E-002 +1.2496818440E+002  +2.5485636093E+000 +1.5021109034E+002 
5515387.985 +4.5500359236E-001 +1.2855537828E+002  +1.3032111551E-001 +1.2286138593E+002  +1.2690816012E-001 +8.6142141834E+001  +2.5362214926E+000 +1.0822258469E+002 
5640533.166 +4.3572467812E-001 +1.2601441313E+002  +9.6305356904E-002 +8.9767744626E+001  +1.0797913887E-001 +8.3464147477E+001  +1.7442264887E+000 +9.2463938718E+001 
5765678.348 +5.4025923721E-001 +1.2330493097E+002  +6.7667969619E-002 +1.0087765233E+002  +7.6017619082E-002 +8.8743298135E+001  +1.4605923622E+000 +1.1228031145E+002 
5890823.529 +5.4544333565E-001 +1.2673608203E+002  +8.2645382434E-002 +1.0255494915E+002  +7.4339318144E-002 +6.8960507449E+001  +1.5346221777E+000 +8.6540071901E+001 
6015968.711 +6.2484641269E-001 +1.0681590904E+002  +1.3004552458E-001 +6.5425906988E+001  +1.3166995755E-001 +4.5572341277E+001  +1.6105550520E+000 +5.1583716127E+001 
6141113.892 +8.0498655015E-001 +1.0840926643E+002  +1.4361361240E-001 +5.9696166623E+001  +1.4784741821E-001 +3.7054290883E+001  +1.7099210301E+000 +3.3625596690E+001 
6266259.074 +6.6346456007E-001 +9.8093044551E+001  +1.3139733954E-001 +3.6532719755E+001  +1.0845123015E-001 +3.3127305802E+001  +1.8000110766E+000 +3.6732339869E+001 
6391404.255 +1.0800265781E+000 +1.0205446532E+002  +1.1551966162E-001 +4.9946808084E+001  +1.0465750404E-001 +3.1665511504E+001  +1.9090650113E+000 +8.6124621184E+000 
6516549.437 +1.1177447637E+000 +6.9063004689E+001  +1.7618107511E-001 +2.1844082239E+001  +1.6658648106E-001 +1.6182310428E+001  +1.7124699863E+000 +8.5934933990E+000 
6641694.618 +1.7670960300E+000 +5.1347536880E+001  +1.8973369677E-001 +2.9121848862E+001  +2.3280627624E-001 +1.5486436382E+001  +1.3446685748E+000 +1.6486480982E+001 
6766839.800 +1.4578844194E+000 +3.9290955819E+001  +1.5961968892E-001 +8.6307614658E+000  +1.3116629059E-001 +4.3419104259E+000  +1.3717059902E+000 +1.1185949217E+000 
6891984.981 +1.4023627798E+000 +3.5546467777E+001  +1.2905200711E-001 +7.5976228596E+000  +1.0527090373E-001 +7.7642936682E+000  +1.1390520905E+000 +6.7003399737E+000 
7017130.163 +1.7657453663E+000 +1.9266115758E+001  +1.3864883887E-001 +1.8030414617E-001  +1.2394758944E-001 -7.0335470385E+000  +1.2805533015E+000 -1.2182341267E+001 
7142275.344 +1.4257472896E+000 +1.1466934475E+001  +1.0444337548E-001 +3.4570814101E+000  +9.4950780325E-002 +2.7763696862E+000  +1.3188468740E+000 +1.3067962920E+000 
7267420.526 +1.5398125191E+000 -3.7606042712E+000  +8.6721433432E-002 +5.4304621770E+000  +1.0004835472E-001 -8.6742446301E-001  +1.1051831826E+000 -2.1670759487E+000 
7392565.707 +1.2263960286E+000 +1.0337857728E+000  +6.7941122804E-002 +9.0476835468E+000  +5.9676175937E-002 +1.0009158259E+001  +1.1566337844E+000 -1.3066791726E+001 
7517710.889 +1.0606107094E+000 +1.7765417372E+000  +6.7970019816E-002 -1.6877471812E+000  +5.8496623442E-002 +4.0834575560E+000  +1.1175643561E+000 -3.8061259879E+000 
7642856.070 +9.7032483168E-001 +1.5332789720E-001  +5.8156581083E-002 +4.0500414163E+000  +5.9963872567E-002 +9.4825286016E+000  +1.0268905351E+000 -6.9906208001E-001 
7768001.252 +8.1446527571E-001 +7.7353495741E+000  +5.2589215682E-002 +5.0014139762E+000  +5.7758884630E-002 +1.5844322780E+001  +8.9474429127E-001 -4.9196362466E+000 
7893146.433 +8.0962831627E-001 +1.5084329669E+000  +5.5578720019E-002 +8.0273397825E+000  +5.5340898230E-002 +6.5853747722E+000  +8.1667027466E-001 +2.0989289692E+000 
8018291.615 +7.9174505642E-001 +1.1599768202E+001  +5.2709061143E-002 +4.1818502171E+000  +5.0743566428E-002 -5.3929826190E-001  +7.6697585896E-001 +2.3017029942E+000 
8143436.796 +7.2319826574E-001 +7.6653973827E+000  +4.6784785838E-002 +2.4611270697E+000  +4.8282550846E-002 +1.4048741881E+001  +7.6964446310E-001 -4.2879377231E+000 
8268581.977 +6.5843544556E-001 +8.5684361982E+000  +5.1260834813E-002 -2.0446267004E+000  +5.3314323460E-002 +6.9091500582E+000  +7.2624872902E-001 +1.1192687068E+000 
8393727.159 +6.5039537648E-001 +7.5997713360E+000  +4.9124987158E-002 +2.8407072078E+000  +4.4507854096E-002 +1.4954878656E+001  +6.9800747923E-001 +5.5634371775E+000 
8518872.340 +6.9464891514E-001 +8.1120935167E+000  +4.6438033793E-002 -2.9815960537E+000  +4.8428579850E-002 +1.7817847718E+001  +6.8766057277E-001 -2.8323386245E-001 
8644017.522 +5.8069624341E-001 +9.0153022107E+000  +4.6554954454E-002 +6.6541539281E-002  +4.8732072171E-002 +1.5281994415E+001  +7.0384106905E-001 +1.1493133185E+000 
8769162.703 +5.9914050256E-001 -4.5476561371E-001  +4.6222828391E-002 -1.8549510015E+000  +4.5573540047E-002 +1.2402051360E+001  +5.6536798128E-001 +2.5589679609E+000 
8894307.885 +6.2179598755E-001 +3.7620619716E+000  +4.4328513001E-002 -2.6669704754E+000  +4.7474978932E-002 +1.3139894271E+001  +5.6968477879E-001 +3.7955312487E+000 
9019453.066 +5.9569498018E-001 +8.1619259091E+000  +5.1816523026E-002 -1.5777043399E+000  +4.6288186737E-002 +1.8716110230E+001  +5.7730149580E-001 -2.8011769791E+000 
9144598.248 +5.3091143073E-001 +8.5191997290E+000  +4.6327416695E-002 +4.8045516288E-001  +4.3817587845E-002 +1.6288197634E+001  +5.6835784164E-001 -1.1815225382E-001 
9269743.429 +5.5844194306E-001 +3.5822620067E+000  +4.2765726698E-002 -7.2709354441E-001  +4.6493670802E-002 +1.8442308784E+001  +5.9507404927E-001 -4.0226513027E+000 
9394888.611 +5.4558567787E-001 +5.0674361904E+000  +4.6744264106E-002 +3.7646034860E-001  +4.2391337938E-002 +1.6926035579E+001  +5.3537112224E-001 +1.1290813824E+000 
9520033.792 +5.3993051223E-001 +3.8636369159E+000  +4.7818601165E-002 -1.7828824642E+000  +4.8192160473E-002 +1.5310019945E+001  +5.4521506832E-001 -6.7356931471E+000 
9645178.974 +5.2079858981E-001 +2.4403927718E+000  +4.5277591817E-002 -2.2256889169E+000  +4.3663962456E-002 +2.0424816890E+001  +5.7546500029E-001 -3.2162939568E+000 
9770324.155 +4.6224547286E-001 +3.4534182559E+000  +4.6224139926E-002 +1.6232010658E+000  +4.7720236043E-002 +1.2496545023E+001  +5.4002172737E-001 -3.0778553245E+000 
9895469.337 +4.8438285084E-001 -4.3777968122E-001  +4.5910356143E-002 +4.2474494874E-002  +4.5005400060E-002 +1.5692784466E+001  +5.2293975736E-001 -6.9972732446E+000 
10020614.518 +4.8878060751E-001 -2.6517909938E-001  +4.6446397436E-002 +1.9723831823E-001  +4.4245262682E-002 +1.5326227549E+001  +5.5505239050E-001 -4.1208042355E-001 
10145759.700 +4.6047333427E-001 +3.4562412095E+000  +4.9966622653E-002 +2.5239324508E-001  +4.6913764282E-002 +2.0106105901E+001  +5.3085830566E-001 +2.8792999950E-001 
10270904.881 +4.4983258904E-001 +2.9733636654E+000  +4.6339032099E-002 -1.4558282815E+000  +4.6443773283E-002 +1.6965086077E+001  +5.1502122102E-001 +3.5370350606E+000 
10396050.063 +4.8721893000E-001 +6.1635593417E+000  +4.4705496457E-002 +1.9961551145E+000  +4.5327233163E-002 +1.7188113529E+001  +5.3642628668E-001 -2.8301034016E+000 
10521195.244 +5.1656879466E-001 +6.4551803221E+000  +4.8597063165E-002 +1.3127350020E+000  +4.8378178088E-002 +1.6936044908E+001  +5.4858909177E-001 +2.2613993538E-001 
10646340.426 +5.4399229891E-001 +6.2270316402E+000  +4.7481907363E-002 +3.7064229012E+000  +4.6224138612E-002 +2.1742167849E+001  +5.6575549976E-001 -2.4421611031E-001 
10771485.607 +5.3384092549E-001 +9.2269378985E+000  +4.7947466183E-002 +9.2983041042E-002  +4.6913156493E-002 +1.7445675781E+001  +5.3880436846E-001 +5.0310096204E+000 
10896630.788 +5.1814446224E-001 +7.7218753102E+000  +4.7337510600E-002 +4.8738362762E+000  +4.6535290586E-002 +1.9757370252E+001  +5.9705604389E-001 +5.2898211096E+000 
11021775.970 +5.6988911151E-001 +7.2722755039E+000  +4.5501390509E-002 +4.8074858663E+000  +4.6917991336E-002 +1.9230689508E+001  +5.5563832707E-001 +3.4112563150E+000 
11146921.151 +5.4880750808E-001 +9.0308939501E+000  +4.9386875538E-002 +1.2996530519E+000  +4.9973548428E-002 +1.8540810067E+001  +5.6950347328E-001 +1.0602265276E+000 
11272066.333 +5.8205413970E-001 +6.7659446779E+000  +5.0958886197E-002 +4.3968292756E+000  +4.8464970005E-002 +1.6084083318E+001  +5.5881035948E-001 +6.0545547353E+000 
11397211.514 +5.8528281336E-001 +6.0309234632E+000  +5.1750273106E-002 +5.4717824212E+000  +4.9530940598E-002 +1.8507307155E+001  +5.9781112456E-001 +1.0074375074E+000 
11522356.696 +5.6677175188E-001 +6.5127531008E+000  +5.0524226587E-002 +5.3814272433E+000  +4.9758217340E-002 +1.7473805901E+001  +6.2739512694E-001 +1.6312101245E+000 
11647501.877 +5.8262988041E-001 +5.3251753035E+000  +5.2056714109E-002 +6.1457442279E+000  +4.8789862827E-002 +1.6055760872E+001  +5.8496185288E-001 +2.0234356102E+000 
11772647.059 +5.9449885082E-001 +6.4978730031E+000  +5.1219163822E-002 +8.2215516171E+000  +5.1830324942E-002 +1.6725049169E+001  +6.2202870785E-001 +2.1953973184E+000 
11897792.240 +5.8799038596E-001 +6.9529794047E+000  +5.3969778042E-002 +5.6387493747E+000  +5.2246816233E-002 +1.6652489767E+001  +6.3482437453E-001 +1.6495481639E+000 
12022937.422 +5.9318193806E-001 +2.5484274846E+000  +5.1964937236E-002 +5.8057462103E+000  +5.2758614781E-002 +1.7195051249E+001  +6.0685037866E-001 +1.9209969599E+000 
12148082.603 +6.2664007989E-001 +7.1135904156E+000  +5.2459800808E-002 +5.7021600870E+000  +5.3279734819E-002 +1.4835172833E+001  +6.5140289212E-001 +4.6312997185E-001 
12273227.785 +6.5716303789E-001 +2.9969553078E+000  +5.5186612891E-002 +6.5928440175E+000  +5.4483746991E-002 +1.6412473596E+001  +6.6166156573E-001 +2.4405641902E-002 
12398372.966 +6.5439636788E-001 +7.3243849543E+000  +5.5132744341E-002 +9.1942702895E+000  +5.3611273396E-002 +1.4697699713E+001  +6.5122794835E-001 +1.1231031687E+000 
12523518.148 +6.7235817137E-001 +1.9267049681E+000  +5.5370198539E-002 +8.3750449101E+000  +5.4262110915E-002 +1.5358405639E+001  +6.9882805346E-001 +6.1079685011E-001 
12648663.329 +6.8560615518E-001 +1.1954375577E+000  +5.6334376758E-002 +8.0448073034E+000  +5.3904036638E-002 +1.4948581222E+001  +7.0526799942E-001 +2.4202439038E-001 
12773808.511 +6.8731342207E-001 +1.2106513940E-001  +5.6444904807E-002 +1.0044579674E+001  +5.6482298452E-002 +1.3739506903E+001  +7.1410776395E-001 +1.2180480041E+000 
12898953.692 +7.1915887015E-001 +3.2426566239E+000  +5.6818476779E-002 +9.9693238780E+000  +5.6082023740E-002 +1.4217468249E+001  +7.2347282323E-001 +5.2308039366E-001 
13024098.874 +7.3678530972E-001 -4.2326060837E-001  +5.7872528950E-002 +8.0085755107E+000  +5.8219820852E-002 +1.4823795783E+001  +7.2902024409E-001 -7.0660431403E-001 
13149244.055 +7.4848874980E-001 +1.5411748544E-001  +5.8986836797E-002 +7.4502967745E+000  +5.8707848750E-002 +1.1583553450E+001  +7.5400169641E-001 -8.1677355093E-001 
13274389.237 +7.7832804378E-001 -9.6989757319E-002  +5.7288375214E-002 +9.1397665082E+000  +5.8577776375E-002 +1.3908791000E+001  +7.8508622908E-001 -5.9291245996E-001 
13399534.418 +7.7251757362E-001 -2.1580366545E+000  +5.9818148052E-002 +8.6563114862E+000  +5.9601986530E-002 +1.1853811492E+001  +7.7796780171E-001 -1.9962031700E+000 
13524679.599 +8.1322101045E-001 -1.4979503475E+000  +5.9512858593E-002 +9.3454007841E+000  +5.7785659119E-002 +1.1880569598E+001  +8.0387211490E-001 -3.3969995192E+000 
13649824.781 +8.1419382686E-001 -2.0611367462E+000  +6.0421238646E-002 +7.8666668998E+000  +6.0054936815E-002 +1.0281080734E+001  +8.3385953332E-001 -2.8868167368E+000 
13774969.962 +8.3382224496E-001 -3.0448338921E+000  +6.2495250670E-002 +8.8451623484E+000  +6.1286157170E-002 +1.1921055752E+001  +8.2572323171E-001 -2.5701953958E+000 
13900115.144 +8.5740857666E-001 -3.1025030076E+000  +6.0507124924E-002 +8.0847978174E+000  +6.0955952209E-002 +8.4286868396E+000  +8.5267031464E-001 -3.5997792365E+000 
14025260.325 +8.6589145710E-001 -2.5273636917E+000  +6.1634482913E-002 +8.5367587300E+000  +6.0615556040E-002 +1.0345020896E+001  +8.7157198424E-001 -4.4365781952E+000 
14150405.507 +8.8244773423E-001 -3.6318429258E+000  +5.9333673515E-002 +8.6021081907E+000  +6.2037714660E-002 +9.2382873464E+000  +8.8611285750E-001 -2.8084482555E+000 
14275550.688 +9.0049325570E-001 -4.1874808991E+000  +6.2382677842E-002 +9.1747138910E+000  +6.0916683260E-002 +8.4948277461E+000  +9.2236811754E-001 -4.5676634117E+000 
14400695.870 +9.1382612106E-001 -5.4766426901E+000  +6.3027777696E-002 +8.9968308746E+000  +5.9602117414E-002 +7.7662652656E+000  +9.1705270644E-001 -5.1132538746E+000 
