!  2-Port S-parameters saved by WinCal
! VAR MeasName=S-Parameters (CALIBRATED_DATA) read from VNA (P5004A)
! VAR MeasDate=27/08/2024 16:47:43
! VAR NAME=S2_r2c9_RESET3_9k-100M_3
! VAR FILENAME=S2_r2c9_RESET3_9k-100M_3.S2P
! VAR DATE=27/08/2024 16:47:43
! VAR PHYS_PORTS=1,2
! VAR ObjTypeName=DATASET
! VAR IndexType=Frequency
!
# Hz S MA R 50
9000.000 +1.0237313985E-001 -1.4661603258E+002  +4.7874381894E-003 -4.2134568837E+001  +2.3362619770E-002 -3.9826459477E+000  +3.4591478252E-001 -1.3009856572E+002 
134145.181 +1.1029564951E-001 +1.7009911224E+002  +1.1609041570E-003 +1.4217331441E+002  +2.8974782462E-004 +1.0920461121E+002  +2.4286959304E-001 -1.6962053004E+002 
259290.363 +1.1064453395E-001 +1.6956543771E+002  +6.7132435641E-004 -2.7239874764E+001  +1.0341169478E-003 -1.7121909042E+002  +2.3881289039E-001 -1.7072548819E+002 
384435.544 +1.1397883937E-001 +1.7053864910E+002  +1.1963022145E-003 +9.8601922725E+001  +7.8453891980E-004 -5.8051238119E+001  +2.5822125224E-001 -1.6730949935E+002 
509580.726 +1.1318075457E-001 +1.7091335053E+002  +2.9308861308E-003 +4.8638377180E+001  +2.2654380366E-004 -1.6461800515E+001  +2.5455978945E-001 -1.6348344211E+002 
634725.907 +1.1846842149E-001 +1.7072237176E+002  +6.2995323979E-004 -6.4241391583E+001  +2.6725541704E-004 -1.5537992046E+002  +2.4781252359E-001 -1.6566773620E+002 
759871.089 +1.1831780946E-001 +1.7080022599E+002  +8.7775647967E-004 -3.4989075596E+001  +3.2588810402E-004 +1.3538276209E+002  +2.3288744858E-001 -1.6575301199E+002 
885016.270 +1.1803922872E-001 +1.7028524876E+002  +7.6604552386E-004 -2.9871003149E+001  +1.1693812483E-003 +4.7692257351E+001  +2.3067885579E-001 -1.6574521778E+002 
1010161.452 +1.1680521456E-001 +1.6979206071E+002  +1.3794697349E-004 +1.4644425171E+002  +1.2279368036E-003 -3.4557049376E+001  +1.8842076528E-001 -1.7626400492E+002 
1135306.633 +1.1384257140E-001 +1.7258399805E+002  +7.5807468959E-004 -1.1039524398E+002  +2.1582878820E-003 -6.8079806405E+001  +1.9948898793E-001 -1.7382941361E+002 
1260451.815 +1.1555296155E-001 +1.7013511413E+002  +1.6914296636E-003 +4.4298069446E+001  +3.4616125708E-003 -3.1529884721E+001  +2.1301380872E-001 -1.4632983413E+002 
1385596.996 +1.2381211763E-001 +1.7291421410E+002  +1.0390922926E-003 +1.2266149499E+002  +1.2724071999E-003 +1.0550155562E+002  +2.6266298482E-001 -1.6052701765E+002 
1510742.178 +1.2829242626E-001 +1.7254525687E+002  +7.1857728406E-004 +9.8973542107E+001  +1.1257456622E-003 -8.6862310273E+001  +2.5078258449E-001 -1.5966216954E+002 
1635887.359 +1.2620025872E-001 +1.7003596552E+002  +2.9580180611E-003 -4.3919008075E+001  +8.9722086211E-004 -1.3534125794E+002  +2.2205673732E-001 -1.5788221607E+002 
1761032.541 +1.2869713563E-001 +1.6957108162E+002  +7.5055107436E-004 +9.6256058345E+001  +2.1496974732E-003 -4.0994270057E+000  +2.0656281977E-001 -1.6410431990E+002 
1886177.722 +1.2769861017E-001 +1.6686671473E+002  +6.0951448239E-004 +6.7871824055E+001  +7.6921099504E-004 +1.4830591946E-001  +2.1844895926E-001 -1.6582022345E+002 
2011322.904 +1.2934141151E-001 +1.6828704781E+002  +7.8843283306E-004 +8.9464800368E+001  +1.9535325177E-003 -1.2729888042E+001  +2.2037270342E-001 -1.6732668877E+002 
2136468.085 +1.3293262601E-001 +1.6730250606E+002  +8.4184967610E-003 +4.0463290519E+000  +3.8609389077E-003 -3.9607641161E+001  +1.8007067901E-001 +1.4790730614E+002 
2261613.267 +1.3082449467E-001 +1.6420463304E+002  +2.1766754305E-003 -1.0737715594E+002  +2.5594100473E-003 -1.7136823314E+002  +2.2413483933E-001 +1.7647313889E+002 
2386758.448 +1.2792008929E-001 +1.6173708040E+002  +8.9358339285E-004 -9.6122767558E+000  +1.2609372655E-003 +1.5700648754E+001  +1.8025939768E-001 +1.7494290277E+002 
2511903.630 +1.3889291199E-001 +1.6454166562E+002  +3.2120993823E-003 +5.3621410070E+001  +1.7735048990E-003 -1.4578302685E+002  +2.6319932865E-001 +1.5982033224E+002 
2637048.811 +1.1583275339E-001 +1.6201548660E+002  +2.1424895818E-003 +1.5271063072E+002  +5.5637575927E-003 -1.2661519985E+002  +1.7907671460E-001 +1.4262629724E+002 
2762193.992 +8.4838029949E-002 +1.7562578544E+002  +3.3985044967E-002 +9.5935571864E+001  +2.4105246526E-003 -6.6285810583E+001  +1.0365242378E+000 -1.4316500898E+002 
2887339.174 +2.8777105437E-002 -1.6981281522E+002  +2.7336160350E-002 +1.3448140427E+002  +1.4577590091E-002 +9.7436246986E+001  +8.0601397104E-001 -1.0164022672E+002 
3012484.355 +1.0857710042E-001 +1.7124435846E+002  +7.5035703989E-003 -1.3827992571E+002  +1.2805964839E-002 -1.7776778844E+002  +3.5437856438E-001 +1.2965414573E+002 
3137629.537 +1.0265072488E-001 +1.6690521676E+002  +4.2879942128E-003 -8.6985806686E+001  +2.7504582572E-002 -1.5315984958E+001  +3.3655499476E-001 -4.6560342104E+001 
3262774.718 +1.1493171643E-001 +1.6345133863E+002  +2.1608591056E-002 -1.4458433159E+002  +1.4671782259E-002 +1.4943357518E+002  +8.3786253196E-001 -7.3111554422E+001 
3387919.900 +9.2477916953E-002 +1.5620898862E+002  +5.3330756461E-002 -9.6442267172E+000  +3.3846913298E-002 -1.5950665673E+002  +1.8176919322E+000 -9.9946194486E+001 
3513065.081 +1.5249281143E-001 +1.4968469611E+002  +8.0230132019E-003 -1.6859932684E+002  +4.9408676771E-003 +1.5779859921E+001  +7.3112432040E-001 +1.6172736387E+002 
3638210.263 +1.6460422798E-001 +1.3784207384E+002  +1.1091228948E-002 -3.4243601321E+001  +1.8897990152E-002 +1.7691459288E+002  +1.0896847059E+000 +1.3457075980E+002 
3763355.444 +1.9961799093E-001 +1.4325843925E+002  +7.1398441782E-003 +8.7457248848E+001  +1.5168961818E-002 +1.1792347453E+002  +6.8059163185E-001 +6.8974106438E+001 
3888500.626 +1.2790231069E-001 +1.3151483813E+002  +4.7718551578E-003 -4.4542249654E+001  +5.1453382200E-003 -1.3127142416E+002  +9.0281374107E-002 +1.7217984772E+002 
4013645.807 +1.8937427871E-001 +1.4541806513E+002  +1.0204606856E-002 +4.8316010052E+001  +1.1486933436E-002 -1.2780691627E+002  +5.1822867156E-001 +1.2194073825E+002 
4138790.989 +2.2073776177E-001 +1.5091776194E+002  +1.4080675727E-003 +2.6046635209E+001  +7.7829274994E-004 -1.0587395076E+002  +2.3754685365E-001 +1.3119246889E+002 
4263936.170 +2.1129435905E-001 +1.4670108896E+002  +9.4255201332E-003 -1.3107827981E+002  +1.0061562967E-002 -1.1839571575E+002  +7.0767988647E-001 +1.0794631599E+002 
4389081.352 +2.2834069256E-001 +1.3197223649E+002  +3.2424788297E-002 -1.3966292930E+002  +3.5695736852E-002 -1.7439171303E+002  +1.2356645432E+000 +7.7382489089E+001 
4514226.533 +2.5557782470E-001 +1.3973877528E+002  +5.3558458469E-003 +7.3607829669E+001  +4.5195035745E-003 +6.7495846718E+001  +3.4374960032E-001 -4.6580509900E+000 
4639371.715 +2.6428326352E-001 +1.3608022126E+002  +1.2381606918E-002 -1.4996643647E+002  +4.1634680080E-003 -1.7732997730E+002  +2.0013104325E+000 +8.9529223305E+001 
4764516.896 +4.0599161097E-001 +1.2810867287E+002  +4.1489583858E-002 -1.7971234374E+002  +1.8523898793E-002 +3.0603235792E+001  +4.8335838298E+000 -3.3769283747E+001 
4889662.078 +4.2394428710E-001 +1.2918133622E+002  +3.3843815786E-002 -1.1315319834E+002  +1.8649466903E-002 +1.2691573951E+002  +3.9539900206E+000 -1.3859046606E+002 
5014807.259 +5.1320460908E-001 +1.2821788025E+002  +7.1812425858E-002 +4.9402146806E+001  +4.1475935960E-002 -7.6314549995E+001  +3.4561188147E+000 -1.4526980462E+002 
5139952.441 +4.1767188245E-001 +1.3968862089E+002  +4.6022763506E-002 +7.4345824818E+001  +3.5297570462E-002 -1.1044086326E+002  +3.8194908975E+000 -3.0372116016E+001 
5265097.622 +3.6186978700E-001 +1.3769660910E+002  +2.4314933975E-002 +4.1327581181E+001  +1.5720480731E-002 -1.1606332394E+001  +1.8515551829E+000 +6.1602638752E+001 
5390242.804 +4.3650246444E-001 +1.2732115385E+002  +4.0805867833E-002 -3.7997266584E+001  +6.3457098983E-002 -5.1184707384E+001  +4.2052642200E+000 +1.2055056939E+002 
5515387.985 +5.3637141877E-001 +1.2203836105E+002  +5.0425295912E-003 +1.1585693025E+002  +1.1570945656E-002 -1.0188567387E+001  +2.0907852633E+000 +1.1416201584E+002 
5640533.166 +3.7987365059E-001 +1.2834522315E+002  +3.2742845490E-002 +1.4759901743E+002  +3.0314474261E-002 +1.7127689772E+002  +4.2940996407E+000 +6.5234776079E+001 
5765678.348 +5.1431225292E-001 +1.2539951098E+002  +8.8196607796E-003 -5.6700165099E+001  +2.8910648573E-002 +9.5750559911E+001  +3.0268614889E+000 +1.1639587724E+002 
5890823.529 +6.2230680234E-001 +1.1676159518E+002  +3.4291514731E-003 +1.8572815130E+001  +1.6660424729E-002 -4.5222707749E+001  +1.7393781883E+000 +6.3511222321E+001 
6015968.711 +7.6920689637E-001 +1.1873420737E+002  +8.1306634225E-003 -4.2038004806E+001  +1.1004707547E-002 -1.3121808492E+002  +1.4425558899E+000 +5.2474914365E+001 
6141113.892 +6.2083599178E-001 +1.0886194097E+002  +8.2545780439E-003 -1.0895393564E+002  +6.6828310190E-003 -4.2043658211E+001  +1.3622446536E+000 +4.0016693973E+001 
6266259.074 +9.7972225918E-001 +1.0341486390E+002  +1.5918893029E-002 -5.8392272005E+001  +2.8034937511E-002 -7.7544676544E+001  +1.9953230817E+000 +1.4544337804E+001 
6391404.255 +9.2997477519E-001 +1.0025021577E+002  +2.4854628447E-002 +4.1332339903E+001  +3.4078492234E-002 -7.2181609815E+000  +1.9408320505E+000 +1.1687035490E+001 
6516549.437 +1.3615726316E+000 +7.6207730670E+001  +1.3582180759E-002 +7.7318002467E+001  +1.4623231737E-002 +4.8810956195E+001  +1.7401853670E+000 +5.3480186392E+000 
6641694.618 +1.4675846699E+000 +7.1167620719E+001  +6.8697794076E-003 +1.5705672428E+002  +9.4556330419E-003 +2.3044799688E+001  +1.3813864582E+000 -7.8363593871E+000 
6766839.800 +2.0591052381E+000 +5.8464496344E+001  +1.0974128520E-002 -1.2479048898E+002  +4.1957695504E-002 +1.1303889198E+002  +1.3128978800E+000 -1.2833814957E+001 
6891984.981 +1.7786787168E+000 +2.9975383842E+001  +1.6383983148E-002 +1.4231422611E+002  +1.1295412982E-002 +1.0965090828E+002  +1.4918569087E+000 +1.8076502116E+000 
7017130.163 +1.6737128283E+000 +1.6726671193E+001  +1.2309575482E-002 +9.0509846705E+000  +9.0105350343E-003 +7.3870106595E+001  +1.3288590072E+000 -6.5703151220E+000 
7142275.344 +1.5260923883E+000 +5.5760069629E+000  +1.1395556849E-002 +6.3240320647E+001  +1.6394779430E-002 +6.9784874209E+001  +1.2467145100E+000 -1.4610849762E+001 
7267420.526 +1.5005653397E+000 +6.6302296597E+000  +1.4335040330E-002 +4.2410119750E+001  +1.2081975621E-002 +3.6721787512E+000  +1.2235432697E+000 -4.9281274465E+000 
7392565.707 +1.5201986748E+000 -5.2310481705E+000  +8.3075857023E-003 +6.5730797856E+001  +8.5247879511E-003 +8.9902093457E+001  +1.3826843357E+000 -9.6800821321E+000 
7517710.889 +1.1840142430E+000 +1.2740308998E+000  +1.3150132522E-002 +7.5875539831E+001  +9.2687502577E-003 +1.3589055159E+002  +1.1794102586E+000 -6.2306633774E+000 
7642856.070 +1.0235041287E+000 +1.7056099116E+000  +3.1791531107E-003 +6.1530309928E+001  +6.4265386359E-003 +9.1377720494E+001  +1.0597999234E+000 -5.3599876470E+000 
7768001.252 +1.0167131087E+000 -1.2235731950E+000  +6.4578384150E-003 +1.1436506544E+002  +5.9422063358E-003 +3.0226696638E+001  +9.8776799190E-001 -8.9633746315E+000 
7893146.433 +8.8678395668E-001 +5.0449392094E+000  +3.4776317619E-003 +1.4110649048E+002  +8.5357747462E-003 +3.3150888433E+001  +9.4108196696E-001 -2.3964469402E+000 
8018291.615 +8.4510771376E-001 +1.2528837295E+001  +8.9365791086E-003 +1.2117060201E+002  +9.8214136997E-003 +6.3887197851E+001  +7.8695865461E-001 +1.7339172142E+000 
8143436.796 +7.8839530662E-001 +5.7094994227E+000  +9.0583264672E-003 +4.8953713722E+001  +3.7384481510E-003 +7.1144629094E+001  +8.4499786887E-001 +6.4615365478E+000 
8268581.977 +7.5091394689E-001 +9.0130782766E+000  +4.0304815716E-003 +2.7010807983E+001  +7.7086122175E-003 +7.2065981582E+001  +8.2097128242E-001 -4.1190318846E+000 
8393727.159 +6.9667303507E-001 +1.4408761571E+001  +5.6313542680E-003 +1.2064231232E+002  +4.7227506222E-003 +8.4630639172E+001  +7.5415571301E-001 +3.9416113467E+000 
8518872.340 +6.2503346220E-001 +8.1332143323E+000  +5.5010192184E-003 +7.8628614121E+001  +1.7029368460E-003 +2.1106360100E+001  +7.6200484823E-001 +5.3014604877E+000 
8644017.522 +6.1200450316E-001 +6.1670208781E+000  +9.6318762876E-003 +9.4834768143E+001  +2.6856195096E-003 +9.4589859702E+001  +6.9121713102E-001 -3.2517248602E+000 
8769162.703 +6.1106580649E-001 +5.2461637761E+000  +4.1662331149E-003 +9.8254564306E+001  +5.1005356501E-003 +6.7396432948E+001  +7.1828669099E-001 +3.5676253736E+000 
8894307.885 +6.4206994630E-001 +4.0832211232E+000  +6.8913915420E-003 +8.0862435976E+001  +5.5457097608E-003 +1.1162399047E+002  +6.3730993345E-001 +9.4828528137E-001 
9019453.066 +5.1746350137E-001 -5.7021781781E-001  +4.0346755750E-003 +9.8438706691E+001  +3.2826365325E-003 +5.2117046683E+001  +6.1550312403E-001 -1.4635780222E+000 
9144598.248 +5.5214100456E-001 +6.0551377022E+000  +4.6659323168E-003 +7.9433801567E+001  +7.7796272480E-004 +1.0590311442E+002  +5.5238497750E-001 -3.5723070230E+000 
9269743.429 +5.8358471685E-001 -1.2641039402E+000  +5.7808647996E-003 +8.4154500532E+001  +1.8306327349E-003 +1.1450853050E+002  +6.3564339464E-001 -1.6441609458E+000 
9394888.611 +5.5689361305E-001 +1.2786334121E+000  +8.0981354504E-004 +9.1603756157E+001  +3.5964623888E-003 +1.2079478987E+002  +5.8309079344E-001 -3.8820754750E+000 
9520033.792 +5.4299129814E-001 +4.2046179996E-001  +3.1917068046E-003 +1.0531930678E+002  +6.0135653683E-003 +7.5019721288E+001  +6.6345283412E-001 -1.6326183511E+000 
9645178.974 +5.3904019202E-001 +8.1269580358E-001  +3.0685858227E-003 +1.1498398399E+002  +5.0767117531E-003 +9.7099152543E+001  +6.0092896084E-001 -4.8577404554E+000 
9770324.155 +5.6426020640E-001 -6.6430498090E-002  +8.1764504158E-003 +1.0126280947E+002  +5.1947277555E-003 +8.9846737259E+001  +5.9897267323E-001 -9.2089479967E+000 
9895469.337 +5.1555950508E-001 +1.6134207031E+000  +3.5923897120E-003 +6.2626802958E+001  +3.0049779599E-003 +1.4478879174E+002  +6.3655836606E-001 -4.3932500623E+000 
10020614.518 +5.7137638227E-001 +8.6088876549E+000  +4.5522267722E-003 +1.0192240481E+002  +4.4693143855E-003 +8.1505525276E+001  +5.6097831979E-001 -4.7290856553E+000 
10145759.700 +5.5297349128E-001 +3.9775852131E+000  +5.4944115215E-003 +1.0085937387E+002  +4.1416368187E-003 +7.1869224005E+001  +5.9391601563E-001 -4.8375946418E+000 
10270904.881 +5.3406441658E-001 +3.7292919690E+000  +4.3561485778E-003 +8.0047727142E+001  +2.0296134817E-003 +1.7484867368E+001  +5.6011472127E-001 -2.3846266682E+000 
10396050.063 +5.4401432359E-001 +7.0271554912E+000  +3.5734041249E-003 +5.4236822974E+001  +4.0274823029E-003 +1.0384810665E+002  +5.9077834025E-001 -2.8828773299E+000 
10521195.244 +5.7224092146E-001 +4.4696293447E+000  +4.7313398816E-003 +4.8043137728E+001  +5.8034027416E-003 +8.5202527778E+001  +6.0614560249E-001 -2.1714855226E+000 
10646340.426 +5.8413249298E-001 +3.4299465985E+000  +3.8588296907E-003 +8.1112397110E+001  +2.7895307886E-003 +1.0399298633E+002  +6.0736803373E-001 -7.7853669531E-001 
10771485.607 +5.5317425126E-001 +5.3057449620E+000  +4.5884611125E-003 +6.2566235213E+001  +5.0352554146E-003 +1.2292531196E+002  +6.0521645543E-001 +8.3999806858E-001 
10896630.788 +5.4659248643E-001 +5.9092591251E+000  +3.2171980955E-003 +1.0235529014E+002  +4.2151788383E-003 +8.4003351123E+001  +6.2089102643E-001 -2.7255800619E-001 
11021775.970 +6.0985550242E-001 +5.7341601290E+000  +4.6114249121E-003 +5.5365401323E+001  +5.9403674754E-003 +6.7062324317E+001  +5.9185140959E-001 +4.1057266781E-001 
11146921.151 +6.1680409215E-001 +3.7786797654E+000  +4.3896284675E-003 +8.4833167447E+001  +2.3394232054E-003 +1.1833137658E+002  +6.2783675690E-001 +2.2188952950E+000 
11272066.333 +6.2912855693E-001 +5.2347073031E+000  +6.5388536989E-003 +9.8190279013E+001  +6.4005218624E-003 +1.0559990588E+002  +6.2472852683E-001 -1.4032858982E-001 
11397211.514 +6.1878021080E-001 +8.2968331064E+000  +4.3603675259E-003 +8.0217192085E+001  +3.6826366571E-003 +1.4023589852E+002  +6.5274633379E-001 +2.5044407478E+000 
11522356.696 +6.0514293205E-001 +7.6764442318E+000  +4.7320312096E-003 +7.2072175458E+001  +3.7476051333E-003 +1.2703433154E+002  +6.3729141299E-001 +2.0029809146E+000 
11647501.877 +6.3594258321E-001 +4.2720697872E+000  +4.7853751222E-003 +9.5049878176E+001  +5.3715384617E-003 +8.7861073540E+001  +6.8391395795E-001 +1.3899575831E+000 
11772647.059 +6.4569934491E-001 +4.1014264574E+000  +4.1044819534E-003 +8.9962593934E+001  +5.9011576817E-003 +1.0554854002E+002  +6.5097428065E-001 +8.3859360897E-003 
11897792.240 +6.2377469651E-001 +3.9412632585E+000  +6.6009137356E-003 +9.2955453478E+001  +4.5422449761E-003 +8.8527121845E+001  +6.8068837723E-001 +3.1547753547E+000 
12022937.422 +6.7078222913E-001 +4.2216232360E+000  +5.2951577267E-003 +9.8025962366E+001  +3.3552594009E-003 +9.7926910133E+001  +6.7881515676E-001 +1.3737860260E+000 
12148082.603 +7.1128236435E-001 +4.7625563532E+000  +3.7034483569E-003 +9.1556711913E+001  +5.3629332356E-003 +9.6707632152E+001  +7.2410072290E-001 +1.3192633336E+000 
12273227.785 +6.9083534394E-001 +5.0428228535E+000  +4.6860909019E-003 +8.8592890489E+001  +5.8391913426E-003 +9.4863571003E+001  +6.9698334840E-001 -4.5775117292E-001 
12398372.966 +7.3348739493E-001 +2.5575116327E+000  +6.9813430758E-003 +9.9641097559E+001  +5.1789762142E-003 +1.0285016828E+002  +7.1983619866E-001 +3.8269433853E-001 
12523518.148 +7.2650913368E-001 +2.1220242339E+000  +5.1514955151E-003 +8.2966028534E+001  +7.1521452859E-003 +9.5640989139E+001  +7.2469805577E-001 +7.9880560743E-002 
12648663.329 +7.3571652523E-001 +1.4125711858E+000  +6.6851576389E-003 +9.9866406056E+001  +6.1146631857E-003 +1.0233104223E+002  +7.6233842533E-001 -3.2710054692E-001 
12773808.511 +7.6879632617E-001 +1.5982786148E+000  +6.3824110410E-003 +9.2902617814E+001  +5.0234635533E-003 +9.1102701059E+001  +7.6762604769E-001 +4.0517062422E-001 
12898953.692 +7.6547303916E-001 +9.2911746835E-001  +6.0095331718E-003 +8.9300695828E+001  +6.3671285414E-003 +1.0894147084E+002  +7.9223527104E-001 -7.0887622692E-001 
13024098.874 +7.6768722963E-001 -1.4075836604E+000  +7.9735533233E-003 +9.4511272730E+001  +4.9842886490E-003 +9.4810547655E+001  +7.9065592920E-001 +1.0025250758E-001 
13149244.055 +7.8998076420E-001 -7.8088511175E-001  +6.8968851698E-003 +1.0118570921E+002  +6.8352971769E-003 +9.2344857436E+001  +8.1048286895E-001 -2.1517848593E+000 
13274389.237 +8.2949126184E-001 +1.0656386866E-001  +7.6378723615E-003 +1.1224267400E+002  +6.1261448050E-003 +9.7722285987E+001  +8.3526782874E-001 -3.4759299412E+000 
13399534.418 +8.3303773545E-001 -1.7342683905E-001  +7.0091893939E-003 +1.2057321859E+002  +6.4207122107E-003 +9.2011986943E+001  +8.6406224317E-001 -1.6015423029E+000 
13524679.599 +8.4004602495E-001 +1.7482879715E-001  +7.3374765579E-003 +8.7697471654E+001  +5.6252306172E-003 +8.3935425039E+001  +8.7011079271E-001 -1.9610441748E+000 
13649824.781 +8.5418516810E-001 -2.2853151710E+000  +7.3287134532E-003 +9.3141260953E+001  +6.2430521812E-003 +8.5828510376E+001  +8.9883622566E-001 -2.8990575009E+000 
13774969.962 +8.8532785806E-001 -3.2237422584E+000  +6.4671076780E-003 +9.0819339206E+001  +9.0298873868E-003 +8.8684167886E+001  +9.1863742208E-001 -2.0422451980E+000 
13900115.144 +9.1708280022E-001 -3.7683694590E+000  +7.5397403049E-003 +1.0386440858E+002  +7.2061019705E-003 +9.4762295262E+001  +8.9585335396E-001 -3.3169661333E+000 
14025260.325 +9.1071864288E-001 -2.9845270134E+000  +7.6731785245E-003 +8.7765245265E+001  +6.2527347290E-003 +9.8709235907E+001  +9.5136079592E-001 -3.1667295391E+000 
14150405.507 +9.4451862056E-001 -3.0915921001E+000  +8.4386825644E-003 +8.6907348566E+001  +8.2966866749E-003 +8.3239183154E+001  +9.5070391642E-001 -3.2289487678E+000 
14275550.688 +9.6208132174E-001 -4.4064951512E+000  +8.0698354480E-003 +9.1856625735E+001  +7.1776866443E-003 +8.6920690520E+001  +9.4690660048E-001 -4.2794750232E+000 
14400695.870 +9.8465547722E-001 -4.8425633540E+000  +7.8909691313E-003 +9.6626243260E+001  +9.3993009740E-003 +9.1533491353E+001  +9.9742353686E-001 -4.8975680177E+000 
