!  2-Port S-parameters saved by WinCal
! VAR MeasName=S-Parameters (CALIBRATED_DATA) read from VNA (P5004A)
! VAR MeasDate=27/08/2024 16:30:11
! VAR NAME=S2_r2c9_formed_9k-100M_1
! VAR FILENAME=S2_r2c9_formed_9k-100M_1.S2P
! VAR DATE=27/08/2024 16:30:11
! VAR PHYS_PORTS=1,2
! VAR ObjTypeName=DATASET
! VAR IndexType=Frequency
!
# Hz S MA R 50
9000.000 +5.1364615219E-002 -1.7037329802E+002  +1.0127914290E-002 +9.6392373723E+001  +1.1009288378E-002 -1.3411147508E+002  +2.0931822347E-001 -8.7546394172E+001 
134145.181 +1.1095232227E-001 +1.6981423518E+002  +6.1900812670E-004 -8.0093098299E+000  +2.4277947955E-004 -3.0911069448E-001  +2.3657977998E-001 -1.7063892748E+002 
259290.363 +1.1256150885E-001 +1.6952964881E+002  +1.8996853795E-004 -8.7746096421E+001  +9.1374760181E-004 +1.6054798391E+002  +2.4109384730E-001 -1.6898593000E+002 
384435.544 +1.1443883025E-001 +1.7005425526E+002  +2.8864504676E-004 -2.7142191125E+001  +2.9656176253E-004 +6.8375024549E-001  +2.4654275832E-001 -1.6903205304E+002 
509580.726 +1.1529667907E-001 +1.7053024388E+002  +6.1916104966E-004 +8.3551496944E+001  +1.5389017321E-003 +7.4407353975E+000  +2.3185039395E-001 -1.6533268034E+002 
634725.907 +1.1617118989E-001 +1.7178857467E+002  +9.9355702754E-004 -1.1497718341E+002  +8.0373852107E-004 -1.3698883899E+002  +2.3737251954E-001 -1.6681637005E+002 
759871.089 +1.1869425506E-001 +1.6982516438E+002  +6.4807541085E-004 -1.3717276086E+002  +1.0070874061E-003 -1.1982566912E+002  +2.4401027973E-001 -1.6279828964E+002 
885016.270 +1.1726016027E-001 +1.6916765885E+002  +2.4575284587E-004 -3.5101216232E+001  +7.1951735649E-004 -3.4156228802E+001  +2.4464307996E-001 -1.6644133953E+002 
1010161.452 +1.1510213564E-001 +1.6996282121E+002  +1.5306371616E-003 +4.2361706848E+001  +4.3059375574E-003 +6.1428651145E+001  +1.6140012322E-001 -1.5081023963E+002 
1135306.633 +1.1320916990E-001 +1.6845646765E+002  +1.2960680641E-003 -3.8520102044E+001  +6.1534492887E-004 -1.5827761118E+002  +2.0049451531E-001 -1.6470712367E+002 
1260451.815 +1.2128398812E-001 +1.7124152131E+002  +8.9735332273E-004 -5.5949724727E+001  +1.1850134585E-003 +1.7770200721E+002  +2.2240884711E-001 -1.5714557479E+002 
1385596.996 +1.2607853078E-001 +1.7200028068E+002  +1.2135727202E-003 +6.9440102128E+001  +4.3156370281E-004 -3.4164503968E+001  +2.6713597644E-001 -1.5890977619E+002 
1510742.178 +1.2633698853E-001 +1.7128020193E+002  +1.5458552361E-003 +5.6962214803E+001  +1.0741598716E-003 -1.2024175620E+002  +2.5843602828E-001 -1.5727653484E+002 
1635887.359 +1.2993378681E-001 +1.7141302775E+002  +1.1653944865E-003 +2.9737878037E+001  +1.4257398061E-003 +4.7872863511E+001  +2.1368503979E-001 -1.6083914059E+002 
1761032.541 +1.2714938277E-001 +1.6854509599E+002  +9.9404838028E-004 -1.3892671401E+002  +4.7632179652E-004 +3.8011526566E+001  +2.1532359903E-001 -1.6583962775E+002 
1886177.722 +1.2689558378E-001 +1.6662291712E+002  +1.5644978268E-003 +2.9700994673E+001  +1.6540157813E-003 -1.1170827587E+002  +2.1050713635E-001 -1.7209504499E+002 
2011322.904 +1.2239608048E-001 +1.6485398875E+002  +5.7859323993E-003 -1.1731202804E+002  +1.8290488605E-003 +1.1868070107E+001  +1.8595089095E-001 -1.7567372025E+002 
2136468.085 +1.2151987147E-001 +1.6620505720E+002  +2.3349300899E-003 +1.5871231272E+002  +3.1938261398E-003 +3.5629767601E+001  +1.5945699062E-001 +1.2726489821E+002 
2261613.267 +1.2251573619E-001 +1.6389720277E+002  +1.2224855327E-003 -7.6269438082E+001  +3.7599409126E-003 -3.0741798520E+001  +1.7007445020E-001 -1.7997430011E+002 
2386758.448 +1.3508019612E-001 +1.6542201639E+002  +9.0140252104E-004 -4.4168652105E+000  +2.5448009408E-003 +2.3399013919E+001  +2.9185046782E-001 +1.7123165859E+002 
2511903.630 +1.3462123893E-001 +1.6241017807E+002  +4.0855638045E-003 -1.7776045827E+002  +3.6410230817E-003 +9.1195156655E+001  +2.7182232463E-001 +1.6737427398E+002 
2637048.811 +1.0629599166E-001 +1.5046011666E+002  +1.3628766547E-002 +1.6429492218E+002  +2.9254258057E-002 -1.0682752455E+002  +3.6710362390E-001 +7.9899138664E+001 
2762193.992 +8.8327104624E-002 +1.6582800390E+002  +3.5031459248E-002 +4.2406780568E+001  +5.2913460616E-002 -4.5324817885E+001  +4.1900147416E-001 +3.1354845815E+001 
2887339.174 +1.1789640842E-001 +1.6867053560E+002  +4.3879588201E-002 +4.5292059306E+001  +7.0780768501E-003 +1.0197656504E+002  +2.1146751836E+000 -1.4761732204E+002 
3012484.355 +9.0191305287E-002 +1.7139718296E+002  +7.7063352112E-003 +1.7276584844E+002  +9.1897192992E-003 -4.2103632762E+000  +2.4062651972E-001 -1.0157265285E+002 
3137629.537 +1.3627216295E-001 +1.7211686434E+002  +4.4244045298E-003 -5.5766919454E+001  +9.7455105101E-003 +1.7285841866E+002  +4.9968378508E-001 -1.1174791980E+002 
3262774.718 +1.2705101436E-001 +1.7352836029E+002  +3.9916524625E-003 -8.8696752474E+001  +1.4184590161E-002 -2.4451330956E+001  +4.2918022171E-001 -7.1388655501E+001 
3387919.900 +1.2920187988E-001 +1.3443063625E+002  +4.0228737813E-002 +1.7212393174E+002  +2.0353330620E-002 +6.3048811190E+001  +7.8314666665E-001 -7.0293907205E+001 
3513065.081 +1.5114812285E-001 +1.5636022538E+002  +6.1647177724E-003 +6.8983504360E+001  +3.6378804583E-003 +1.3317098947E+002  +5.5349820905E-001 +1.6802762557E+002 
3638210.263 +1.6821747165E-001 +1.3153662138E+002  +7.4836817707E-003 +6.5020804316E+001  +1.3316264490E-002 -4.6493470624E+001  +4.9257692787E-001 +1.4066848784E+002 
3763355.444 +2.0193605727E-001 +1.4377687261E+002  +9.5701728352E-003 -1.4707993272E+002  +1.3247997124E-002 -1.5054775000E+002  +4.6850561299E-001 +9.5367871038E+001 
3888500.626 +1.8699562694E-001 +1.4255950128E+002  +1.7966583187E-002 -6.2232119148E+001  +1.0180498262E-002 -6.0451294411E+000  +4.6217243727E-001 +1.0926773013E+002 
4013645.807 +1.8835330084E-001 +1.4831586536E+002  +3.8551320459E-003 -6.6027387105E+001  +4.7970668221E-003 -1.0957506997E+002  +1.8823468952E-001 +1.2341914940E+002 
4138790.989 +1.7876883553E-001 +1.5135058900E+002  +5.1745877856E-003 +9.0400630824E+001  +5.1126909622E-003 -7.0014787311E+001  +2.5891821865E-001 +1.2778615173E+002 
4263936.170 +1.8940676265E-001 +1.4968728071E+002  +2.0318743006E-002 +1.5281984030E+002  +9.1592772653E-003 -1.5716247919E+002  +7.5808041899E-001 +1.2178324276E+002 
4389081.352 +2.3578564823E-001 +1.3402523623E+002  +1.2537126099E-002 +1.3224572991E+002  +2.4609899690E-003 -1.5826361493E+002  +7.2839065315E-001 +1.1282799691E+002 
4514226.533 +2.8234776160E-001 +1.4172472263E+002  +3.4283538508E-002 -6.6306489015E+001  +2.0045531293E-002 -1.3607558074E+002  +1.6944484680E+000 +9.7821568715E+001 
4639371.715 +2.4283403499E-001 +1.2831373685E+002  +4.5386296949E-002 +1.2841297282E+002  +4.2466078761E-002 -1.0355910516E+001  +3.2440846972E+000 +3.7245662103E+001 
4764516.896 +3.8021503992E-001 +1.2005613700E+002  +6.4770487290E-002 +1.5939434435E+002  +3.2098004299E-002 -1.0274818832E+002  +2.9063609993E+000 -1.6263888350E+002 
4889662.078 +6.2179204886E-001 +1.2827471585E+002  +2.1617911931E-002 +8.1905173588E+001  +3.2826508706E-002 -3.6964979514E+001  +2.0515855074E+000 -1.6951048319E+002 
5014807.259 +4.3515089587E-001 +1.3641987372E+002  +3.3314846059E-002 +6.0777235792E+001  +3.6236500368E-002 -1.4284669001E+002  +1.6775632575E+000 -3.5075938691E+001 
5139952.441 +4.5314271048E-001 +1.3704829216E+002  +2.6566947245E-001 +1.7781030470E+002  +5.9679009648E-001 -6.9303379893E+001  +4.0461631190E+001 +1.3367746586E+002 
5265097.622 +4.3419012562E-001 +1.2757469544E+002  +1.2372895574E-002 +4.3510197884E+001  +1.3465818872E-002 -7.0552266729E+000  +2.0219252202E+000 +1.0531765095E+002 
5390242.804 +4.0956367053E-001 +1.1779781007E+002  +3.3911336361E-002 -5.7351440019E+001  +3.5421083173E-002 -2.6725999098E+001  +3.2387949849E+000 +1.3500494182E+002 
5515387.985 +4.1417459922E-001 +1.3246494919E+002  +2.5083443220E-002 -9.7086374099E+001  +1.0051366333E-002 -4.4633187063E+001  +1.4950423240E+000 +9.6718648581E+001 
5640533.166 +5.3987941073E-001 +1.2809073649E+002  +6.9002932844E-003 +1.6055718253E+002  +3.4916783133E-002 +1.7408849670E+002  +2.3981445126E+000 +5.6975164356E+001 
5765678.348 +5.5486927851E-001 +1.2298810938E+002  +2.4740808784E-002 +1.3318586219E+002  +4.2758218810E-002 -1.3513489612E+002  +3.2574099334E+000 +6.1656215886E+001 
5890823.529 +6.3161768204E-001 +1.1496106465E+002  +6.3782407939E-003 -5.7462905069E+001  +1.7788343953E-002 +7.5783521286E+000  +2.3913482930E+000 +6.4042307560E+001 
6015968.711 +5.1913018799E-001 +1.2055454053E+002  +2.7522403603E-002 +1.4188590334E+002  +2.1439764149E-002 -1.4944703140E+002  +2.4213473941E+000 +3.5288403450E+001 
6141113.892 +8.2956296670E-001 +1.1927007504E+002  +2.1104606811E-002 -1.0682806173E+002  +8.8731332470E-003 +1.4794030068E+002  +1.9378148034E+000 +3.4730803017E+001 
6266259.074 +9.0824973946E-001 +8.2080485752E+001  +1.1493722598E-002 -8.5279326056E+001  +3.8115064954E-002 +6.8511436251E+001  +1.5861378352E+000 +3.0703631199E+001 
6391404.255 +1.1125306651E+000 +9.4955803531E+001  +7.6204492230E-003 +1.3670481729E+002  +2.3106660361E-002 +8.5335100116E+001  +1.2980163013E+000 +1.2497855992E+001 
6516549.437 +1.1437286466E+000 +7.6677938074E+001  +3.1122375290E-002 +1.5053217804E+002  +2.9204315896E-002 +1.4869025700E+002  +1.1316712618E+000 +8.0812905557E+000 
6641694.618 +1.3431383798E+000 +9.2671731742E+001  +1.9882304545E-002 +1.6713705183E+002  +1.5334870519E-002 -9.2368097890E+001  +1.3636550865E+000 -1.6424776793E+001 
6766839.800 +1.8091785112E+000 +6.9661910660E+001  +9.3388152256E-003 +7.4473259246E+001  +1.0252936396E-002 +1.1305383261E+002  +1.1781891115E+000 -2.1999606055E+000 
6891984.981 +1.6957949479E+000 +4.9050473349E+001  +1.7706165372E-002 +3.3583707659E+001  +1.2801231427E-002 -1.5051156905E+001  +1.2975211095E+000 -6.5986953177E+000 
7017130.163 +1.9430186088E+000 +1.2353582809E+001  +6.3091286022E-003 -1.0376055298E+002  +1.9199430210E-002 +8.7097448555E+001  +1.3410061531E+000 -4.5951062163E+000 
7142275.344 +1.5735390723E+000 +8.9809446635E+000  +2.8668547008E-003 -1.7635967411E+002  +2.2255163543E-002 +1.0019842120E+002  +1.5160196352E+000 -1.5356152727E+001 
7267420.526 +1.3953811414E+000 +6.8038654576E+000  +1.3480887137E-002 +1.0310278818E+002  +1.3137974798E-002 +9.3190177382E+001  +1.3545292896E+000 -9.6314731087E+000 
7392565.707 +1.4403988308E+000 -5.6384085236E+000  +1.4231841236E-002 +6.4933613061E+001  +1.5582274534E-002 +8.3655202922E+001  +1.3857944154E+000 -1.6095880648E+001 
7517710.889 +1.2103478698E+000 +3.8630698227E+000  +4.2694239199E-003 -1.3772315783E+002  +6.6286586756E-003 +1.4463083360E+002  +1.2748434275E+000 -5.7259012005E+000 
7642856.070 +1.0350864098E+000 +4.4971858369E+000  +7.7215928884E-003 +1.1381810417E+002  +1.0406306031E-002 +9.3138657372E+001  +1.0137916580E+000 +1.4678967542E+000 
7768001.252 +9.3637186431E-001 +2.4646204022E+000  +4.8238720739E-003 +1.7100882125E+002  +7.9460785310E-003 +1.3875614750E+002  +1.0546352120E+000 -6.2262946528E+000 
7893146.433 +8.5160169275E-001 +9.3571614962E+000  +9.6322091775E-003 +2.3795341943E+001  +6.0135346680E-003 +1.5060284954E+002  +9.7027461747E-001 -5.5752756296E+000 
8018291.615 +8.6365486127E-001 +2.2417363656E+000  +4.5610019833E-003 +3.9880977589E+001  +5.6983914544E-003 +2.8899008605E+001  +8.3527449723E-001 -7.3257858511E+000 
8143436.796 +8.4161017512E-001 +8.7253629293E+000  +2.3254567173E-003 +4.8841852169E+001  +7.8262416240E-003 +1.3724638839E+002  +8.1492992608E-001 -2.8148531686E+000 
8268581.977 +7.5261585869E-001 +1.2240663387E+001  +4.3880390125E-003 +3.8180938405E+001  +1.9206362392E-003 +3.6657838875E-001  +8.2346664349E-001 +4.3325674310E+000 
8393727.159 +6.8934037981E-001 +5.8697234229E+000  +2.1260672206E-003 -1.7547216292E+002  +5.8833447465E-003 +1.3609147018E+002  +7.6379271288E-001 -1.5048052316E+000 
8518872.340 +6.0484685990E-001 +1.0119015799E+001  +9.4616061963E-004 -1.2293153823E+002  +1.3581613312E-003 +3.8125039221E+001  +7.2040039243E-001 +1.2249265780E+000 
8644017.522 +7.3580298420E-001 +4.8896260581E+000  +1.5263084199E-003 +1.3096865558E+002  +9.0890512695E-003 +9.7631556657E+001  +7.0049399431E-001 +1.1000598454E+000 
8769162.703 +5.9728614352E-001 +1.3047248627E+001  +5.5379270626E-003 +1.1317204078E+002  +6.8231983294E-003 +1.2769475944E+002  +6.9663698372E-001 -7.1492362105E+000 
8894307.885 +5.5890125838E-001 +3.8339553039E+000  +5.4421107693E-003 +1.0071146323E+002  +5.0546101792E-003 +4.5259248937E+001  +6.3036796912E-001 -6.4864270425E+000 
9019453.066 +6.5777031473E-001 +7.3744109314E+000  +1.5045123651E-003 -3.4574452173E+000  +5.7777248092E-003 +1.5942282551E+002  +6.4124169046E-001 -4.6881891981E+000 
9144598.248 +5.7833369209E-001 +8.2217397461E+000  +5.7762969054E-003 +3.6449534323E+001  +2.8560495040E-003 +1.0701820964E+002  +6.4983470650E-001 -4.8669188359E+000 
9269743.429 +5.7682196201E-001 +3.9796487288E+000  +7.5142346196E-003 +7.9568737335E+001  +1.7677166353E-003 +9.5811862963E+001  +5.9488355009E-001 -4.0808918558E+000 
9394888.611 +5.5863280875E-001 +2.6214957155E+000  +1.1940486164E-003 +3.1141123303E+001  +7.9069091015E-003 +7.7533200475E+001  +5.6512542926E-001 -3.4016090765E+000 
9520033.792 +5.4712131688E-001 +7.6404548386E+000  +4.5076134057E-003 +8.5281119263E+001  +7.5212991415E-003 +1.0450587624E+002  +6.1069059736E-001 -4.4141647183E-001 
9645178.974 +5.4621735126E-001 +8.8634053601E-001  +4.0100307144E-003 +6.5556519322E+001  +5.8223126529E-003 +7.9376648664E+001  +5.9706419284E-001 -1.9518584738E+000 
9770324.155 +5.6231428586E-001 -3.3808044836E-001  +4.9263696755E-003 +1.1244139651E+002  +1.2709524223E-003 +7.4248993798E+001  +5.8180151489E-001 -3.2989944422E+000 
9895469.337 +5.3775435199E-001 +3.2481552463E+000  +2.7102704199E-003 +6.9198009448E+001  +5.6818976620E-003 +9.5647156613E+001  +6.2915857164E-001 -1.0633522776E+001 
10020614.518 +5.3242212829E-001 +3.1839972400E+000  +4.4365678329E-003 +7.7268026855E+001  +1.7547694858E-003 +1.0603138293E+002  +5.9179728448E-001 -5.9493471315E+000 
10145759.700 +5.5682882456E-001 +2.9383747572E+000  +2.2644034470E-003 +1.3493897581E+002  +4.0571744681E-003 +7.9500303287E+001  +5.6481404055E-001 -4.5590904347E+000 
10270904.881 +6.0706029617E-001 +4.6485861533E+000  +2.2344325444E-003 -1.4786634940E+000  +2.6193112396E-003 +7.1197519515E+001  +5.8791459145E-001 -4.5809354898E+000 
10396050.063 +5.9426966818E-001 +2.8105146244E+000  +4.4212623822E-003 +9.2443034107E+001  +2.1464535138E-003 +1.2045999657E+002  +6.1245200712E-001 -4.5460653994E+000 
10521195.244 +5.6044387291E-001 +3.1077291214E+000  +2.1236924366E-003 +7.1674355015E+001  +2.8102973404E-003 +1.2243087998E+002  +5.8757757062E-001 -7.0997636343E-001 
10646340.426 +5.9421052695E-001 +8.6289116969E+000  +5.7188100663E-003 +1.0776623688E+002  +4.3976066615E-003 +3.7947393481E+001  +6.1627262641E-001 -2.8464898778E+000 
10771485.607 +5.8655853236E-001 +5.2631906677E-001  +4.6690812641E-003 +8.4684546093E+001  +3.2507538024E-003 +1.0021427037E+002  +5.8965328360E-001 -2.0529591304E-001 
10896630.788 +5.8313279999E-001 +6.3816031883E+000  +6.0827654675E-003 +6.5541453418E+001  +5.7776548802E-003 +7.9293011939E+001  +6.3482533180E-001 -2.2233256754E+000 
11021775.970 +5.6129360808E-001 +5.9458035223E+000  +3.5559599416E-003 +9.1176133554E+001  +5.6575968118E-003 +7.2922795284E+001  +6.1110821518E-001 +1.8528541100E+000 
11146921.151 +5.8417160034E-001 +5.0543865149E+000  +4.2329835120E-003 +1.0033904264E+002  +5.7313606026E-003 +8.2939783192E+001  +6.3463313509E-001 +1.1166934310E+000 
11272066.333 +6.1633382351E-001 +6.6205849156E+000  +5.1043514399E-003 +7.2516867337E+001  +4.7748737982E-003 +1.2336017306E+002  +6.0476370560E-001 +2.4373773703E+000 
11397211.514 +6.2083035534E-001 +5.6267968854E+000  +3.0352987751E-003 +9.5290282921E+001  +3.0343460633E-003 +1.3952215659E+002  +6.6113290839E-001 +5.9426487168E-001 
11522356.696 +6.3990760895E-001 +6.2322193945E+000  +3.5827217950E-003 +8.0802049799E+001  +6.4834157542E-003 +9.9453394698E+001  +6.4518800661E-001 +9.3935415076E-002 
11647501.877 +6.3953990837E-001 +4.4510786523E+000  +3.8924613543E-003 +9.5540538962E+001  +4.8197099282E-003 +8.8789924169E+001  +6.4227260428E-001 -4.1614135189E-001 
11772647.059 +6.3258075013E-001 +5.3149028882E+000  +6.9627835448E-003 +8.2447125216E+001  +4.9515427926E-003 +9.3243458013E+001  +6.7949157635E-001 +5.9026370840E-001 
11897792.240 +6.4844604812E-001 +3.4305260283E+000  +6.4552590715E-003 +7.9774173794E+001  +2.9464788134E-003 +8.1389506074E+001  +6.6366741486E-001 +1.9756320929E+000 
12022937.422 +6.5396560810E-001 +6.2344418155E+000  +7.2872695014E-003 +8.5422065226E+001  +4.7365965610E-003 +1.2861787824E+002  +6.7631188832E-001 -5.3282477441E-001 
12148082.603 +6.8993152089E-001 +3.7186811312E+000  +4.3215849060E-003 +1.0151418895E+002  +4.5856853342E-003 +1.0237909891E+002  +7.0556252205E-001 -3.0236659006E-001 
12273227.785 +7.0438196235E-001 +6.8398787661E+000  +6.0231861270E-003 +9.0165125393E+001  +6.0066680455E-003 +1.2019356235E+002  +7.0750482258E-001 +2.6318828309E-001 
12398372.966 +6.9277894537E-001 +2.4702795156E+000  +6.7498596327E-003 +9.4356881540E+001  +5.7985550729E-003 +9.9946166282E+001  +7.1757145704E-001 -6.3756091105E-001 
12523518.148 +7.1258307478E-001 +2.8028774301E+000  +5.2068602505E-003 +8.0649545865E+001  +5.0270819659E-003 +9.4472803300E+001  +7.4073554076E-001 +4.9413604393E-001 
12648663.329 +7.4002226221E-001 +1.2499538584E+000  +7.1276122976E-003 +9.6546324405E+001  +5.2490735829E-003 +8.6127434356E+001  +7.4255365723E-001 +2.7172632262E-001 
12773808.511 +7.5724230962E-001 +1.7435397966E+000  +6.9184505942E-003 +8.2649243550E+001  +6.1425736385E-003 +1.0562712886E+002  +7.7201279166E-001 -1.3366430281E+000 
12898953.692 +7.6826758494E-001 +5.5247887106E-001  +6.7269342936E-003 +7.8691823105E+001  +6.5842117904E-003 +9.2268924584E+001  +8.0079351599E-001 -9.5181506045E-001 
13024098.874 +7.5634544888E-001 +6.6666574528E-001  +7.6116475729E-003 +9.3696447334E+001  +6.3106992260E-003 +1.0088874018E+002  +7.8697546499E-001 -1.2799465416E+000 
13149244.055 +8.0175670459E-001 +7.4215282970E-001  +6.1482309529E-003 +1.0254327901E+002  +5.8238740693E-003 +9.2693998657E+001  +8.0258966220E-001 -1.1751532374E+000 
13274389.237 +8.2760102800E-001 -7.5980211627E-002  +8.0783299231E-003 +8.4087820732E+001  +7.0169237641E-003 +9.9294454920E+001  +8.2185245700E-001 -2.5623537916E+000 
13399534.418 +8.3654317614E-001 -5.0053990623E-001  +5.6336079542E-003 +9.0617656617E+001  +6.3931250609E-003 +9.3695779633E+001  +8.3969296093E-001 -1.2275540432E+000 
13524679.599 +8.3923788097E-001 -3.8094191491E-001  +8.5908152860E-003 +9.1408395357E+001  +7.9161848591E-003 +9.3259861768E+001  +8.7356618805E-001 -7.4159374620E-001 
13649824.781 +8.7133474115E-001 -2.0221054833E+000  +7.4340706469E-003 +9.2118455776E+001  +7.2821569114E-003 +1.0196716539E+002  +8.9669479734E-001 -3.5491352268E+000 
13774969.962 +8.7858042178E-001 -3.1973643590E+000  +7.0996935706E-003 +9.7287913385E+001  +5.0698615980E-003 +8.3834653045E+001  +9.0055371224E-001 -3.1620024332E+000 
13900115.144 +8.8004854534E-001 -2.8823158873E+000  +7.8740426793E-003 +9.3949135233E+001  +7.7545941669E-003 +9.1446013907E+001  +9.2135408711E-001 -2.7527929782E+000 
14025260.325 +9.2084637242E-001 -5.0533939226E+000  +7.8447074199E-003 +8.8926481448E+001  +6.8824694971E-003 +7.7298651315E+001  +9.4799478912E-001 -3.6462339443E+000 
14150405.507 +9.4156040359E-001 -4.6591814239E+000  +7.9929289098E-003 +9.0670163756E+001  +7.0497358398E-003 +9.2732109852E+001  +9.6878549087E-001 -5.2562270208E+000 
14275550.688 +9.6878913040E-001 -4.1872800165E+000  +7.7538658959E-003 +8.5344245196E+001  +7.7153392399E-003 +1.0028645413E+002  +9.7904627696E-001 -4.7514714488E+000 
14400695.870 +9.7867587004E-001 -6.2176962491E+000  +8.1888473570E-003 +9.8623675242E+001  +7.0440705471E-003 +8.8798426028E+001  +9.9135223527E-001 -4.5045322086E+000 
