!  2-Port S-parameters saved by WinCal
! VAR MeasName=S-Parameters (CALIBRATED_DATA) read from VNA (P5004A)
! VAR MeasDate=28/08/2024 11:13:18
! VAR NAME=S2_r6c9_RESET1_9k-100M_2
! VAR FILENAME=S2_r6c9_RESET1_9k-100M_2.S2P
! VAR DATE=28/08/2024 11:13:18
! VAR PHYS_PORTS=1,2
! VAR ObjTypeName=DATASET
! VAR IndexType=Frequency
!
# Hz S MA R 50
9000.000 +1.0046604092E-001 -1.7090439500E+002  +1.3342884343E-002 +4.5338315933E+001  +6.6162586239E-003 +4.1223902934E+000  +3.3184351795E-001 -1.5205666163E+002 
134145.181 +1.1145734754E-001 +1.6952034556E+002  +8.6613575136E-005 +1.3542614761E+002  +2.9613648622E-004 -8.5954091190E+001  +2.3499401735E-001 -1.7176878196E+002 
259290.363 +1.1265106382E-001 +1.6993351645E+002  +1.8346057434E-004 -1.2957864107E+002  +7.6667008683E-004 +6.2573369983E+001  +2.5119299551E-001 -1.6912246203E+002 
384435.544 +1.1462269652E-001 +1.6943665679E+002  +2.3949736247E-004 -1.4530782634E+002  +2.5346077559E-004 -7.3380203152E+001  +2.5218791601E-001 -1.6963466968E+002 
509580.726 +1.1525127987E-001 +1.7064966282E+002  +9.5684397301E-004 -2.1352794315E+001  +1.2305383622E-003 +1.6017856297E+002  +2.4518888496E-001 -1.5875865428E+002 
634725.907 +1.1629246493E-001 +1.7139719504E+002  +6.1247558742E-004 +8.7152323887E+001  +6.3019017821E-004 +1.2506620216E+002  +2.4864434456E-001 -1.6446867273E+002 
759871.089 +1.2042605878E-001 +1.7099146552E+002  +5.4062239565E-004 +6.1173076028E+001  +2.1179659143E-004 +1.5504384507E+002  +2.3846147925E-001 -1.6313933317E+002 
885016.270 +1.2092238098E-001 +1.6904514707E+002  +1.0785449331E-004 -7.6587232415E+000  +2.5061580736E-004 +1.7528655601E+002  +2.4978313445E-001 -1.6480558450E+002 
1010161.452 +1.1802704970E-001 +1.7259010340E+002  +1.0126625359E-003 -9.4855828582E+001  +1.2830066432E-003 -1.4615913942E+002  +1.9123162209E-001 -1.7081402103E+002 
1135306.633 +1.1528879325E-001 +1.6966245663E+002  +1.1674998522E-003 +1.6953560902E+002  +1.7484682628E-003 -8.0348137099E+001  +1.9019500044E-001 -1.6410083115E+002 
1260451.815 +1.1981074758E-001 +1.7115764024E+002  +1.3082319366E-003 -7.5915564381E+001  +3.8344423954E-004 +5.3568433761E+001  +2.2169759119E-001 -1.6117183105E+002 
1385596.996 +1.2307395587E-001 +1.7088976187E+002  +9.8829077470E-004 +1.3357129423E+002  +8.6508777755E-004 -1.3457577974E+002  +2.7605942340E-001 -1.5853168532E+002 
1510742.178 +1.2859431106E-001 +1.7134610045E+002  +5.1632547027E-004 -1.5072321440E+002  +5.7873220808E-004 -5.5802233101E+001  +2.4571994042E-001 -1.6103278995E+002 
1635887.359 +1.2611324202E-001 +1.7198510478E+002  +1.0839127865E-003 -1.0439067719E+001  +1.8250093033E-003 +1.8584352943E+001  +2.2471067421E-001 -1.5304883239E+002 
1761032.541 +1.2912273772E-001 +1.6909184050E+002  +3.1077152887E-005 -1.3898964183E+002  +1.4444779013E-003 +8.9203243410E+001  +2.4006530636E-001 -1.6049019881E+002 
1886177.722 +1.2915413075E-001 +1.6868500595E+002  +1.3488712938E-003 +1.5718557584E+002  +1.5089930408E-003 -1.0702708884E+002  +2.1026842976E-001 -1.6482548742E+002 
2011322.904 +1.2934170971E-001 +1.6725098227E+002  +6.2308513347E-004 +1.1787891032E+001  +1.0789433486E-003 +1.4563232512E+001  +2.2491556255E-001 -1.6832506166E+002 
2136468.085 +1.2906962000E-001 +1.6811799316E+002  +2.0612725364E-003 -1.3110799997E+002  +2.4861114093E-003 -7.9618261320E+001  +1.9025836285E-001 +1.7921295395E+002 
2261613.267 +1.3036362913E-001 +1.6656079400E+002  +1.9171474664E-004 -1.9789772288E+001  +3.4829472177E-003 +1.6441521973E+002  +1.9482869945E-001 -1.7346635321E+002 
2386758.448 +1.3535949632E-001 +1.6074419175E+002  +3.4200371493E-003 +9.3305128131E+001  +9.5426307145E-004 +7.3872351627E+001  +2.1647134402E-001 -1.6656472846E+002 
2511903.630 +1.2762998293E-001 +1.5895492634E+002  +6.2971053236E-003 +3.4890949582E+001  +6.7338536785E-003 +1.5988858517E+002  +2.6638983289E-001 +1.6417457555E+002 
2637048.811 +8.6997774665E-002 +1.5206005930E+002  +8.0329868515E-003 +7.9614579300E+001  +1.7915049959E-002 +1.2058825896E+002  +1.6760160263E-001 +1.2319881007E+002 
2762193.992 +1.0063483367E-001 +1.7847760531E+002  +2.7432133029E-002 -1.2283583372E+001  +1.1851532404E-002 +1.5006026906E+002  +6.7728427157E-001 -1.6804349272E+001 
2887339.174 +1.2705300578E-001 +1.7184165418E+002  +5.1736479106E-003 +6.7512656563E-001  +4.5036099381E-003 +6.5345221020E+001  +4.1102631384E-001 -1.1797658042E+002 
3012484.355 +1.2447907555E-001 +1.7609650946E+002  +9.6549414249E-003 +1.4775950477E+001  +6.6226396033E-003 -7.5708978918E+001  +4.3937792073E-001 -1.1367580441E+002 
3137629.537 +1.2692998206E-001 +1.7447261842E+002  +6.7594404411E-003 -1.0718646614E+001  +5.8886376055E-003 -3.4123852903E+001  +3.6151565442E-001 -1.1063243178E+002 
3262774.718 +9.4219315575E-002 +1.6352206315E+002  +7.2075591288E-003 -1.0514579825E+002  +1.6065777168E-002 -2.8228126019E+001  +4.2868028325E-002 -8.5033935818E+001 
3387919.900 +1.1043462376E-001 +1.4701931285E+002  +3.5382158371E-002 +4.1176610931E+001  +4.7080745568E-002 -1.2754842250E+002  +1.4635156032E+000 +1.1691279074E+002 
3513065.081 +1.3927807564E-001 +1.5069825454E+002  +1.7634618544E-002 -3.6265102274E+001  +6.2779404908E-003 -1.3422917469E+002  +6.9238934222E-001 +1.1343543473E+002 
3638210.263 +1.8998142981E-001 +1.3914494440E+002  +4.1817663120E-003 -9.2118006308E+000  +2.2234003323E-003 +3.7684196936E+001  +3.9163435776E-001 +1.5464152561E+002 
3763355.444 +1.8217488820E-001 +1.5513969209E+002  +7.2270208367E-003 +2.0427595772E+001  +6.4526797020E-003 +9.9989751495E+001  +1.0655843396E+000 +8.3343303581E+001 
3888500.626 +1.6985656495E-001 +1.4594223002E+002  +2.5659472044E-003 +1.3715403361E+002  +7.6813165917E-003 -6.7722894614E+000  +3.6965774552E-001 +1.2772665090E+002 
4013645.807 +1.9960220435E-001 +1.4679301261E+002  +7.6547653745E-003 +1.4440035074E+002  +4.0344853876E-003 +1.4598893945E+002  +7.2755050148E-001 +1.2573541301E+002 
4138790.989 +1.7680541147E-001 +1.4867056870E+002  +1.0305430277E-003 +2.3759925650E+001  +7.8768586605E-003 +4.2086957465E+001  +5.1689147347E-001 +1.2190955577E+002 
4263936.170 +2.3037025916E-001 +1.3751889693E+002  +1.1969986003E-002 -7.1650335362E+001  +1.2742172316E-002 -9.5323881305E+000  +5.2523463786E-001 +1.2377879010E+002 
4389081.352 +1.6565476186E-001 +1.3416792568E+002  +6.1059581789E-003 +1.4558943147E+002  +1.1160253467E-002 +1.2564683335E+002  +5.1961269457E-001 +1.4652478338E+002 
4514226.533 +2.3725246057E-001 +1.4160589287E+002  +1.8844088726E-002 +6.5284409200E+001  +1.7177814360E-002 +1.7506385842E+001  +7.0258505381E-001 +5.7827281831E+001 
4639371.715 +2.6883606580E-001 +1.1372081826E+002  +1.2612774743E-001 -6.5600565887E+001  +5.6721154103E-002 -1.1074238945E+002  +3.5595906831E+000 +1.4369234740E+002 
4764516.896 +3.5167619316E-001 +1.3136068829E+002  +4.7552509051E-002 +3.8565513684E+001  +4.0367108861E-002 -4.6038516180E+001  +3.3308572807E+000 -5.8421560429E+001 
4889662.078 +5.4824504140E-001 +1.4076363497E+002  +2.5671762610E-002 -1.6916730279E+002  +4.7517134586E-002 +1.2399989098E+002  +2.2386068634E+000 -1.3774633447E+002 
5014807.259 +4.3339311215E-001 +1.3842347539E+002  +2.4247681371E-002 -1.2206843077E+002  +6.5670507047E-002 +1.7096534861E+002  +4.0768696637E+000 -1.0826521256E+002 
5139952.441 +3.6206320321E-001 +1.2396950373E+002  +5.5426219614E-002 -1.0938812068E+002  +3.7928016595E-002 +1.8076179765E+000  +9.0378648888E+000 -1.6971642852E+002 
5265097.622 +3.8826338156E-001 +1.3572544984E+002  +2.5279367037E-002 +1.3240894169E+002  +7.6615640495E-003 -1.3435752166E+002  +2.7741617915E+000 +1.2594295365E+002 
5390242.804 +4.7718200293E-001 +1.3114858006E+002  +5.7700230130E-003 +1.4096314473E+002  +7.5070588311E-002 -1.7548116185E+002  +4.1502346075E+000 +7.7626393380E+001 
5515387.985 +4.7790496466E-001 +1.3629281198E+002  +7.5246186601E-002 -6.8332157007E+001  +5.0185013677E-002 +3.9679006011E+001  +7.7945272549E+000 +9.9259110788E+001 
5640533.166 +4.6734202987E-001 +1.2977056880E+002  +2.1646565574E-002 +1.5297264058E+001  +2.1759222755E-002 +9.4254966727E+000  +3.7551567806E+000 +6.7632767745E+001 
5765678.348 +6.2609004791E-001 +1.2074220240E+002  +3.5742843559E-002 -1.2288452609E+002  +3.5796029800E-002 +1.4034518761E+002  +3.2169297463E+000 +1.0678889849E+002 
5890823.529 +5.9079215642E-001 +1.1599510252E+002  +1.4190656124E-002 +5.0144010491E+001  +2.4031979741E-002 +1.3159254131E+002  +2.7354294801E+000 +5.5788489870E+001 
6015968.711 +7.0633884830E-001 +1.1878616903E+002  +3.6022215037E-002 -9.2087109965E+001  +5.8150419108E-002 +1.0829311893E+002  +3.7823903834E+000 +6.3023312792E+001 
6141113.892 +7.8122515902E-001 +1.1466196382E+002  +5.2891009164E-003 -1.3086475897E+002  +3.5716786373E-003 +9.5635677602E+001  +2.1501534345E+000 +2.5683827862E+001 
6266259.074 +8.4048488105E-001 +8.5259403027E+001  +2.7121025139E-002 +1.1281823805E+002  +1.7492323057E-002 -8.7889321702E+001  +2.0055166168E+000 +1.1809961751E+001 
6391404.255 +1.1640040867E+000 +9.1687752561E+001  +2.9405353576E-002 +1.3940975922E+002  +1.1191317065E-002 -1.2286133529E+002  +1.5743097544E+000 -2.8704262579E+000 
6516549.437 +1.2716666133E+000 +8.6968629777E+001  +5.5009391064E-003 -8.7555176006E+001  +2.7392620278E-002 +1.5239061995E+002  +1.6268502771E+000 +1.8922897706E+001 
6641694.618 +2.0062472202E+000 +7.7942857951E+001  +1.3777715044E-002 +4.1487372738E+001  +2.7148359875E-002 -1.2386742234E+002  +1.3078908781E+000 -1.0625493247E+001 
6766839.800 +1.1126551794E+000 +2.7619460000E+001  +5.7229140370E-003 -1.4852224276E+002  +2.4308146551E-002 +1.5916658318E+002  +1.4925840288E+000 +3.0552876609E+000 
6891984.981 +1.3721281202E+000 +3.4843373229E+001  +1.0298929397E-002 +1.4515960118E+002  +1.8299275008E-002 +1.0449685008E+002  +1.1450982881E+000 -1.1582471969E+000 
7017130.163 +2.2283581989E+000 +2.8167075915E+001  +1.7777863644E-002 -8.9834394662E+001  +2.3854278852E-002 -1.6012723511E+002  +1.3813091133E+000 -1.2848981982E+001 
7142275.344 +1.7152078413E+000 +2.9196709222E+001  +1.0400223714E-002 +1.3394152875E+002  +1.2935191565E-002 +1.1514027830E+002  +1.3646175446E+000 -9.3174477092E+000 
7267420.526 +1.6080491183E+000 +9.0180410641E+000  +5.3292302506E-003 +9.6837319708E+001  +1.4635074337E-002 +4.1391293220E+001  +1.4195653400E+000 -9.0971870179E+000 
7392565.707 +1.3123612174E+000 -5.2380841790E+000  +5.7379183630E-004 -1.4829586303E+002  +4.9742659932E-003 +1.4522716982E+002  +1.2555118940E+000 -4.1309619278E+000 
7517710.889 +1.2706845150E+000 -4.3492457163E+000  +8.9073655634E-003 +1.4300215528E+002  +3.1526204046E-003 +3.4848312323E+001  +1.2323621456E+000 -7.0426922224E-001 
7642856.070 +9.8226294263E-001 -3.0730360133E+000  +2.1557634100E-003 +5.2793220587E+001  +5.7641473519E-003 +1.2323465557E+002  +1.1589963719E+000 -7.0297823704E+000 
7768001.252 +9.8454651460E-001 +3.9199189188E+000  +5.3355863506E-003 -4.6989828566E+000  +6.0539171206E-003 +1.4506879521E+002  +1.0763917141E+000 -1.3445613353E+000 
7893146.433 +8.5819923460E-001 +2.6719890122E+000  +3.7370756334E-003 +7.4051976639E+001  +5.5191294895E-003 +1.9298415945E+001  +9.4407001280E-001 -7.2994784806E+000 
8018291.615 +8.0037197580E-001 -2.2979625116E+000  +1.6203374689E-003 +1.4606932693E+000  +1.1063067021E-002 +3.0611399961E+001  +8.4914140979E-001 +1.6339862616E+000 
8143436.796 +7.8245949810E-001 +1.0294163762E+001  +2.9640583605E-003 +1.6808997214E+002  +5.1378294063E-003 +7.3695039229E+001  +8.8482891434E-001 +2.6648720060E+000 
8268581.977 +7.4180850894E-001 +8.2424283922E+000  +3.5691305097E-003 +1.3558843449E+002  +2.2592617713E-003 -3.2358127123E+001  +8.0499333220E-001 -7.4151228338E-001 
8393727.159 +7.0629339580E-001 +1.1004754333E+001  +4.7859591969E-003 +1.0739028071E+002  +9.3776568479E-003 +5.7662487213E+001  +7.7736025965E-001 +1.6937545593E-001 
8518872.340 +6.0542773573E-001 +5.4804425115E+000  +3.2597751172E-003 +9.3827545345E+001  +3.5248246446E-003 +1.3114152187E+002  +7.6621170933E-001 -3.9719450185E+000 
8644017.522 +6.5342285924E-001 +6.8349151383E+000  +3.1832341685E-003 +1.6072908731E+002  +4.3747883915E-003 +1.4137838180E+002  +7.1779545324E-001 -2.6266437994E+000 
8769162.703 +7.2423916443E-001 +1.0732736102E+001  +1.9226542178E-003 +1.1757783196E+001  +3.9238374294E-003 +8.8525620608E+001  +7.4606903570E-001 -7.9877279477E-001 
8894307.885 +5.8779794007E-001 +5.9390539653E+000  +6.3622849261E-003 +4.5729120956E+001  +1.9760616569E-003 +1.5206128593E+002  +6.4689593515E-001 -5.1177302446E+000 
9019453.066 +5.6922667499E-001 +3.4767429064E+000  +3.6570567516E-003 -3.7899661700E+000  +2.0918877707E-003 -6.6367152041E+001  +6.4002234186E-001 -2.0551259133E-001 
9144598.248 +5.5554348999E-001 +7.0584580004E+000  +4.2753406959E-003 +8.4464906590E+001  +4.1176054313E-003 +1.0889147929E+002  +5.8635158181E-001 -5.1742581114E-001 
9269743.429 +5.7373310879E-001 +4.3094676538E+000  +4.2899886738E-003 +1.0614576334E+002  +6.4411679979E-003 +1.0767351217E+002  +6.0364446187E-001 -2.1638507921E+000 
9394888.611 +5.5980515871E-001 +1.1237901345E-001  +2.3960653492E-003 +1.0400393414E+002  +6.5329979529E-003 +1.0648065581E+002  +6.4485915745E-001 -6.4849495998E+000 
9520033.792 +5.6082274349E-001 +5.5107858447E+000  +4.5640020097E-003 +7.3854687408E+001  +3.8758257523E-003 +8.8303944303E+001  +5.7564428683E-001 -5.3659800412E-001 
9645178.974 +5.1791452077E-001 +6.4979015569E-001  +5.4436536953E-003 +2.8301682573E+001  +3.8114688036E-003 +8.2034834749E+001  +5.7661941129E-001 -2.7318711756E+000 
9770324.155 +4.8779626190E-001 -2.5437598404E+000  +4.2702990877E-003 +1.1239100691E+002  +3.6723740951E-003 +1.4304638430E+002  +5.7191053339E-001 -5.3583616463E+000 
9895469.337 +5.1415048319E-001 +1.6465577260E+000  +4.5456140268E-003 +1.3792135348E+002  +3.4674865115E-003 +9.6192585585E+001  +5.5596346554E-001 -1.7331655318E+000 
10020614.518 +5.2357021297E-001 +3.2376551632E+000  +5.2656325599E-003 +1.0441107152E+002  +1.2405315848E-003 +8.9600392003E+001  +5.6867025480E-001 -4.3936455056E+000 
10145759.700 +5.4887293602E-001 +3.1261961039E+000  +3.7801874639E-003 +1.4447123089E+002  +6.5489553674E-003 +9.2019896795E+001  +5.6100621083E-001 -3.1044250214E+000 
10270904.881 +5.8983126510E-001 +6.5276821511E+000  +6.1523579513E-003 +5.5747013625E+001  +3.8872917044E-003 +1.1282533429E+002  +5.6760489667E-001 -4.0368175794E+000 
10396050.063 +5.7302837892E-001 +4.2827381154E+000  +3.4105273755E-003 +8.2518542904E+001  +6.3423262263E-003 +1.1736157994E+002  +6.2152769003E-001 -1.3485872054E+000 
10521195.244 +5.8008116996E-001 +3.3067841222E+000  +3.4315850357E-003 +9.9384437285E+001  +5.0894911983E-003 +9.6590237326E+001  +5.9859887115E-001 -4.9219764758E-001 
10646340.426 +5.7392152860E-001 +6.3277930811E+000  +2.9268453070E-003 +1.1446847626E+002  +5.8086635850E-003 +8.4824484363E+001  +5.8257863266E-001 +1.4258900848E+000 
10771485.607 +5.7430626077E-001 +6.0372731264E+000  +3.0497223978E-003 +9.0397964860E+001  +4.6060851936E-003 +9.5725652778E+001  +6.2023021781E-001 +1.2337532951E+000 
10896630.788 +5.9430720306E-001 +6.6870878353E+000  +6.0331978476E-003 +8.9851148454E+001  +4.4124612671E-003 +9.9188710640E+001  +5.8990069861E-001 +2.6258147449E+000 
11021775.970 +6.1302042866E-001 +8.9515625581E+000  +4.1169983315E-003 +6.9080224626E+001  +3.1455747213E-003 +1.0609197563E+002  +6.0849920317E-001 +8.9394756712E-001 
11146921.151 +5.7567232247E-001 +5.9389864677E+000  +3.6516589276E-003 +8.8597921854E+001  +6.9646247423E-003 +8.2375312199E+001  +6.3786090172E-001 +1.0802910649E+000 
11272066.333 +6.1470615755E-001 +5.4823336004E+000  +3.9203997146E-003 +1.1020658954E+002  +5.5542043902E-003 +9.9516916751E+001  +6.2948356659E-001 +1.2396456539E+000 
11397211.514 +6.3698306011E-001 +6.3929436793E+000  +4.9019221886E-003 +7.7774156986E+001  +6.4712873812E-003 +1.0889942640E+002  +6.1335389376E-001 +2.3859120427E+000 
11522356.696 +6.0734294305E-001 +2.6484297802E+000  +5.1344838443E-003 +1.0984978716E+002  +3.6721367271E-003 +9.9858877266E+001  +6.6446002290E-001 +4.7028609415E+000 
11647501.877 +6.2904711109E-001 +5.2413239321E+000  +7.3247894972E-003 +8.7956382861E+001  +4.2582952601E-003 +7.5994998224E+001  +6.4157916138E-001 +1.0723445137E+000 
11772647.059 +6.3991364949E-001 +4.5276746648E+000  +4.7932472566E-003 +8.2989753128E+001  +5.8117377470E-003 +9.8172107522E+001  +6.5711889627E-001 +3.4236154245E+000 
11897792.240 +6.6405547310E-001 +5.3506440661E+000  +5.5196521908E-003 +6.6543255717E+001  +5.7270267401E-003 +1.2090686350E+002  +6.7899528434E-001 +2.3174022764E+000 
12022937.422 +6.6693405130E-001 +3.7767974261E+000  +7.3687068340E-003 +8.4593917766E+001  +5.4967833910E-003 +9.9481431849E+001  +6.8783034523E-001 +9.6222221987E-002 
12148082.603 +7.0553014174E-001 +3.6994079174E+000  +5.6791999579E-003 +1.1095495852E+002  +5.7131456899E-003 +9.6359833303E+001  +6.8854259315E-001 +6.5758655235E-001 
12273227.785 +7.2685185174E-001 +3.8477256299E+000  +6.1950768944E-003 +9.0807835019E+001  +5.3327200071E-003 +9.4759620584E+001  +7.1075232758E-001 +8.2004441761E-001 
12398372.966 +7.2028051212E-001 +2.7509176453E+000  +5.4660488758E-003 +8.2231482385E+001  +6.3345058417E-003 +8.3636522517E+001  +7.2403166030E-001 +1.7171917529E-001 
12523518.148 +7.2902105451E-001 +1.4526274101E+000  +6.8097284849E-003 +8.4995431691E+001  +4.6761596253E-003 +1.2347269604E+002  +7.4182127191E-001 -4.1068471672E-001 
12648663.329 +7.5202458711E-001 +1.9401696218E+000  +6.2589823033E-003 +7.7044766641E+001  +7.7028134892E-003 +9.6660045325E+001  +7.6705409272E-001 -1.2534069498E+000 
12773808.511 +7.4580599787E-001 +1.0900344738E+000  +6.1271950410E-003 +8.3030327477E+001  +5.9076590210E-003 +1.0455703257E+002  +7.6453669260E-001 +1.0888023010E-002 
12898953.692 +7.7953733371E-001 +1.0871512452E+000  +6.8859266412E-003 +9.2295172337E+001  +6.6560015846E-003 +1.0238489244E+002  +7.7412869594E-001 -2.6955334604E+000 
13024098.874 +7.9264725383E-001 +8.6947340707E-001  +5.5191816713E-003 +1.0152871980E+002  +4.8794508257E-003 +7.3395268369E+001  +7.9324911957E-001 -2.3138419457E+000 
13149244.055 +8.1369143298E-001 -6.9659550777E-001  +6.1694494484E-003 +9.3179935190E+001  +5.5608352075E-003 +9.8549368684E+001  +8.1140246511E-001 -2.6962631325E+000 
13274389.237 +8.3161429823E-001 -1.3202154458E+000  +7.0657994395E-003 +7.8945448429E+001  +5.1994312723E-003 +9.8194175468E+001  +8.2953570948E-001 -1.7454944831E+000 
13399534.418 +8.5104868012E-001 -3.0804810231E+000  +6.5443285180E-003 +8.6796552367E+001  +7.3048083848E-003 +1.0216153052E+002  +8.5265083893E-001 -3.7194990729E+000 
13524679.599 +8.5599422092E-001 -2.1284277057E+000  +7.2909322316E-003 +8.3606961081E+001  +7.0909265883E-003 +7.3403757986E+001  +8.8385826539E-001 -1.3907207206E+000 
13649824.781 +8.8149050552E-001 -1.5907630562E+000  +6.6735236635E-003 +1.0027393766E+002  +7.1165609895E-003 +7.9303373282E+001  +8.6719695972E-001 -3.1526762380E+000 
13774969.962 +8.8692629067E-001 -2.9721502967E+000  +6.7322761671E-003 +9.3561132257E+001  +5.6510568866E-003 +7.7143798678E+001  +8.9967724591E-001 -3.1938914771E+000 
13900115.144 +9.0843261302E-001 -3.6735845224E+000  +6.8665323585E-003 +8.8741680211E+001  +7.6277641907E-003 +9.1477609324E+001  +9.2023386995E-001 -3.5281317285E+000 
14025260.325 +9.3573194563E-001 -5.1515832584E+000  +6.9485133244E-003 +9.9422494875E+001  +6.3413489297E-003 +9.8848214262E+001  +9.2218010403E-001 -3.9377594714E+000 
14150405.507 +9.3662995194E-001 -5.3790973335E+000  +6.0879511956E-003 +8.7447964079E+001  +6.3962311252E-003 +9.1373190446E+001  +9.6049627749E-001 -4.7223741027E+000 
14275550.688 +9.5562873267E-001 -4.9246045830E+000  +8.3399407096E-003 +8.8606823444E+001  +6.3688252785E-003 +9.7114777451E+001  +9.7064655555E-001 -4.5736803176E+000 
14400695.870 +9.8926368675E-001 -5.2247962023E+000  +7.8604075703E-003 +9.3161624873E+001  +8.4313863689E-003 +7.9906952467E+001  +9.7459882703E-001 -6.1630687237E+000 
