!  2-Port S-parameters saved by WinCal
! VAR MeasName=S-Parameters (CALIBRATED_DATA) read from VNA (P5004A)
! VAR MeasDate=27/08/2024 16:34:42
! VAR NAME=S2_r2c9_RESET1_9k-100M_3
! VAR FILENAME=S2_r2c9_RESET1_9k-100M_3.S2P
! VAR DATE=27/08/2024 16:34:42
! VAR PHYS_PORTS=1,2
! VAR ObjTypeName=DATASET
! VAR IndexType=Frequency
!
# Hz S MA R 50
9000.000 +7.0837550608E-002 -1.5702503431E+002  +8.4828378791E-003 +1.4641968888E+002  +8.7412429146E-003 -8.4836787824E+001  +2.6487598925E-001 -1.4601709150E+002 
134145.181 +1.1100973906E-001 +1.6929099908E+002  +2.8832008986E-004 -1.4391055960E+002  +4.1871548687E-004 +7.5349592901E+001  +2.4053268702E-001 -1.7034858314E+002 
259290.363 +1.1241890046E-001 +1.6980057673E+002  +5.6381715526E-004 -5.9010266273E+000  +4.1549313995E-004 +1.5383373690E+002  +2.4487219214E-001 -1.6790659736E+002 
384435.544 +1.1268429686E-001 +1.6946855928E+002  +4.7748468769E-004 -6.1606370579E+001  +2.2087974295E-004 +9.1122403537E+001  +2.4641171293E-001 -1.6847991300E+002 
509580.726 +1.1314253065E-001 +1.7021695794E+002  +9.7478524530E-004 +8.9584192936E+001  +4.0776733385E-003 +6.9447641372E+001  +2.5817120762E-001 -1.5587877092E+002 
634725.907 +1.1735702057E-001 +1.7108234165E+002  +6.2573534367E-004 +1.2108012229E+002  +9.9352465962E-004 +1.2780859537E+002  +2.5187908107E-001 -1.6676156824E+002 
759871.089 +1.1790767093E-001 +1.7101162558E+002  +9.4736836543E-004 -1.6195369354E+002  +2.4333625443E-004 +9.1418585464E+001  +2.3660252180E-001 -1.6631462225E+002 
885016.270 +1.1940465406E-001 +1.6998864025E+002  +2.5920103982E-004 -5.9123733583E+001  +6.8725357298E-004 +5.6933833238E+001  +2.4204097563E-001 -1.6608371143E+002 
1010161.452 +1.1670087650E-001 +1.7071485388E+002  +1.1895832419E-003 -1.7690048840E+002  +2.1183036475E-003 +1.8372018742E+001  +1.8199748486E-001 -1.7446150413E+002 
1135306.633 +1.1712046749E-001 +1.7087678592E+002  +3.6520062630E-003 -1.5266788770E+002  +1.6923858965E-003 +1.3951423492E+002  +1.7937023668E-001 -1.5902532598E+002 
1260451.815 +1.2212708757E-001 +1.7218475887E+002  +2.3032597874E-003 -3.0685345397E+001  +2.4117611573E-004 -6.1158688408E+001  +2.4728385696E-001 -1.5663267625E+002 
1385596.996 +1.2515907743E-001 +1.7135540168E+002  +6.3631080173E-004 +1.3057149915E+002  +3.6853687091E-004 -9.4982826155E+000  +2.7544680722E-001 -1.5996161797E+002 
1510742.178 +1.2907819646E-001 +1.7145788948E+002  +6.0386948542E-004 -1.7712875759E+002  +7.6435244465E-004 +1.4614783937E+002  +2.5231088367E-001 -1.5740934962E+002 
1635887.359 +1.2807430900E-001 +1.7096649766E+002  +6.6087249861E-004 -1.2809796005E+002  +4.8274046711E-004 -1.5796913281E+002  +2.4032975480E-001 -1.6041366018E+002 
1761032.541 +1.3269962754E-001 +1.6983187380E+002  +8.3365543651E-004 -1.3540412474E+002  +7.8029270617E-004 -2.7382750087E+001  +2.3942639089E-001 -1.5877075459E+002 
1886177.722 +1.3204213882E-001 +1.6894052563E+002  +1.0528375829E-003 +1.7209063002E+002  +4.0064721770E-004 +1.4590878948E+002  +2.1870027312E-001 -1.6653940925E+002 
2011322.904 +1.3740063470E-001 +1.6656911172E+002  +6.1622114191E-004 +1.3440387892E+002  +1.9903490699E-003 -5.6520919998E+001  +1.9328216322E-001 -1.6678492451E+002 
2136468.085 +1.2739293286E-001 +1.6475848772E+002  +1.2141812598E-003 +1.7660116070E+002  +7.4623425110E-004 +3.2994921357E+001  +1.9966309988E-001 -1.7843332166E+002 
2261613.267 +1.1740850416E-001 +1.6216868433E+002  +3.0546185657E-003 +7.9915825871E+000  +7.3105324744E-003 +1.2117230468E+002  +2.2400106921E-001 +1.5094145694E+002 
2386758.448 +1.3155587005E-001 +1.6243199198E+002  +3.8161875323E-003 +6.1075927219E+001  +7.7000765277E-003 +1.5876647875E+002  +3.1301896599E-001 +1.5848157718E+002 
2511903.630 +1.0444341891E-001 +1.6119011914E+002  +2.7968095059E-003 +9.7989382413E+001  +3.3108024008E-003 -9.8458736191E+001  +1.8841609968E-001 -1.7199570107E+002 
2637048.811 +1.1545480745E-001 +1.5718513017E+002  +9.8869347249E-003 -7.5359301744E+001  +2.3887078379E-002 -1.8887351034E+001  +1.1329049664E+000 +1.1707580433E+002 
2762193.992 +9.2639210446E-002 +1.6066088524E+002  +1.6851063778E-002 +1.0890626589E+002  +1.2209481559E-002 -6.7798115901E+001  +2.6407973020E-001 +1.1573864080E+002 
2887339.174 +1.0774390401E-001 +1.7669960241E+002  +1.3284612878E-002 +1.1975396725E+002  +2.6750223941E-003 -1.7719538422E+002  +8.0702616185E-001 -1.6737249174E+002 
3012484.355 +1.1150964388E-001 +1.6777581356E+002  +8.6697348290E-003 -1.4651354510E+002  +6.3227523333E-003 +6.0491055296E+001  +7.2117968570E-001 -1.4111592682E+002 
3137629.537 +1.3847533578E-001 +1.6925329333E+002  +9.7326136631E-003 -2.6511344069E+001  +2.1788013401E-002 -8.7681015864E+001  +6.0471123825E-001 -9.5789033696E+001 
3262774.718 +1.1517708090E-001 +1.6158889188E+002  +6.2560045373E-003 -5.4789086089E+000  +1.8928610911E-003 -4.9949294354E+001  +2.4246808821E-001 -9.7436385099E+001 
3387919.900 +1.3437979421E-001 +1.6030382081E+002  +7.2841772930E-003 -6.6462217857E+001  +1.7240677988E-002 +8.5433328771E+001  +2.0260996401E-001 +7.2777530594E+001 
3513065.081 +1.6180309209E-001 +1.4966625701E+002  +1.4133474281E-002 -9.7759737926E+001  +5.9231831725E-003 +5.7070750874E+001  +6.5960533996E-001 +1.1416059438E+002 
3638210.263 +1.4963860153E-001 +1.4442754023E+002  +1.4063845824E-002 -1.1615336038E+002  +1.1044529963E-002 +1.7855758783E+002  +3.1016893960E-001 +8.7441748334E+001 
3763355.444 +1.5115575803E-001 +1.5212540278E+002  +4.3073871588E-003 +1.3041585221E+002  +1.4792381433E-002 +4.1831225541E+001  +8.3384894258E-001 +1.3219683097E+002 
3888500.626 +1.6798406388E-001 +1.4063500212E+002  +1.1449058932E-002 -2.1112488216E+001  +1.8505952566E-002 -1.2806239915E+002  +3.6273609778E-001 +1.0571050230E+002 
4013645.807 +1.6757566239E-001 +1.4403333013E+002  +7.6973919321E-003 -2.9121553722E+001  +9.5394827818E-003 -9.7650877055E+001  +5.9733715897E-002 +1.3041729278E+002 
4138790.989 +1.8445838131E-001 +1.4623244412E+002  +6.4437708211E-003 -1.3600178337E+002  +6.5554219955E-003 -1.2338372087E+002  +7.2173108696E-001 +1.2742258166E+002 
4263936.170 +2.0456697436E-001 +1.4166342308E+002  +4.7405308100E-003 -2.0119806084E+001  +2.3444067372E-003 +5.5901685492E+001  +5.2244743988E-001 +1.3335270735E+002 
4389081.352 +1.8933607554E-001 +1.3476992257E+002  +9.6866259815E-003 +7.8744653453E+001  +8.2786945971E-003 +4.4767709257E+001  +6.1979445299E-001 +1.0396115348E+002 
4514226.533 +2.6005806078E-001 +1.2928400627E+002  +3.6691676006E-002 -1.2770930194E+002  +5.5013143275E-003 +1.5195751524E+002  +1.8720864721E+000 +9.5569170936E+001 
4639371.715 +3.0669629494E-001 +1.0535271584E+002  +2.0451771690E-002 +1.0666466134E+002  +1.5455171544E-002 +4.0885874016E+001  +9.1616396055E-001 +1.0166484072E+002 
4764516.896 +3.5576525190E-001 +1.1943379859E+002  +2.0076147537E-002 -7.6814181403E+001  +1.2185020518E-002 -1.7694802042E+002  +3.0794329275E+000 +1.4711682312E+002 
4889662.078 +3.6739619523E-001 +1.3007495987E+002  +7.3653784939E-003 -1.4406821680E+002  +1.1534652182E-002 -7.4483235234E+001  +2.0446904515E+000 -1.3840377556E+002 
5014807.259 +3.6216196680E-001 +1.2054861879E+002  +7.0255431991E-002 -1.6750538898E+002  +9.1895872540E-003 +7.9300675623E+001  +4.5639796234E+000 -1.0300017787E+002 
5139952.441 +3.9990286198E-001 +1.2368712701E+002  +4.3928130011E-002 -1.3795664936E+002  +5.2702171192E-003 -6.1737642654E+001  +2.3059665399E+000 +1.2135174642E+002 
5265097.622 +4.7844154992E-001 +1.3745485021E+002  +1.3139517350E-001 +4.8224738373E+001  +2.5456802868E-001 -1.9885118746E+001  +2.3535087560E+001 -1.3500467226E+002 
5390242.804 +3.9633766204E-001 +1.1836864559E+002  +3.6667224516E-002 +7.4790410070E+001  +2.5634114800E-002 +1.2719781346E+002  +1.6306999377E+000 +4.1443260803E+001 
5515387.985 +4.1896559930E-001 +1.3101782317E+002  +2.0283676886E-002 -5.3587704604E+001  +4.8911544492E-003 +6.9362832676E+001  +1.1524130699E+000 +7.8670466483E+001 
5640533.166 +3.9437477757E-001 +1.2210498395E+002  +4.6305667868E-003 -5.0250966212E+001  +1.2591146517E-002 +1.7168331037E+002  +1.1747502666E+000 +1.0681730400E+002 
5765678.348 +5.3000569487E-001 +1.2544904283E+002  +1.7818142290E-002 -7.1904935246E-001  +2.2760079622E-002 -9.2550941532E+001  +2.4998868247E+000 +5.1964297912E+001 
5890823.529 +5.9452534066E-001 +1.2869421201E+002  +5.4508284312E-003 +1.1781911629E+002  +3.2205396383E-002 +1.6588869477E+002  +2.6373670773E+000 +6.7024982094E+001 
6015968.711 +6.6475995950E-001 +1.1796983583E+002  +3.8690116927E-002 +1.5828809222E+002  +2.0833368565E-002 +1.4085268793E+002  +1.8200108677E+000 +4.2408636100E+001 
6141113.892 +7.5990465590E-001 +1.0503489703E+002  +7.6939597061E-003 -1.6542469360E+002  +2.2219311477E-002 -1.7881993274E+002  +1.7351644553E+000 +1.9364028750E+001 
6266259.074 +7.4249161366E-001 +1.0960344429E+002  +1.1453013799E-002 -1.1594490869E+002  +1.4697478050E-003 +3.4524310456E+001  +1.4522133032E+000 +2.1523287469E+001 
6391404.255 +1.1011346300E+000 +8.2557001116E+001  +2.7392014270E-002 +1.6714157611E+002  +4.7993153992E-002 -3.3659815834E+001  +1.9689191944E+000 +8.0108341279E+000 
6516549.437 +1.0761003643E+000 +8.8262126637E+001  +1.0538200425E-002 +1.5350985606E+002  +4.4379781086E-002 +1.0623611424E+002  +1.6614552837E+000 -7.4558268065E+000 
6641694.618 +1.5317197817E+000 +7.7586613270E+001  +4.3421397635E-002 +1.4170184081E+002  +1.9282696071E-002 +7.4148730376E+001  +1.2782652027E+000 +5.9905215992E+000 
6766839.800 +1.8764439878E+000 +5.2840086230E+001  +2.6260900048E-002 +3.4450066306E+001  +9.8445492930E-003 +4.6563859766E+001  +1.4049051715E+000 -6.2383124385E+000 
6891984.981 +1.7333254563E+000 +4.4283510001E+001  +1.8299991875E-003 +1.3891906590E+002  +3.8374340149E-002 -8.8608784865E+001  +1.6438059159E+000 -1.5416797543E+000 
7017130.163 +1.7531714844E+000 +2.3703809574E+001  +2.2872598425E-002 +8.7869069705E+001  +5.2002053214E-003 +1.5198305446E+002  +1.1849005372E+000 -1.6783402503E+001 
7142275.344 +1.8270788113E+000 +2.5660083333E+000  +1.9103647976E-002 +1.2033875759E+002  +1.9786538363E-002 +7.7126029281E+001  +1.4235225164E+000 -1.3317618793E+001 
7267420.526 +1.6733138380E+000 +6.2990381939E+000  +1.2702550602E-002 -1.2426089074E+001  +4.4491484598E-003 -1.5845520522E+000  +1.2545643640E+000 -7.7970502981E+000 
7392565.707 +1.3680867374E+000 +6.7919461860E+000  +9.6563292158E-003 -1.4349445760E+002  +1.5233739336E-002 +1.0370557592E+002  +1.2659594325E+000 -9.8597473820E+000 
7517710.889 +1.0941361920E+000 +5.4394596187E-001  +6.0226898200E-003 +7.5572518358E+001  +1.4900043984E-002 +8.6195056941E+001  +1.2103240466E+000 +5.5363491569E-001 
7642856.070 +1.1646808646E+000 -3.8606643878E-002  +1.0746852372E-002 +5.3475577891E+001  +4.6696544935E-003 +2.7364291644E+001  +1.1589961226E+000 -6.6689504879E+000 
7768001.252 +9.7638745664E-001 +4.4385927515E+000  +8.0933860297E-003 +9.8999376556E+001  +6.4314943861E-003 +2.7779230823E+001  +1.0535370569E+000 -2.8531620624E+000 
7893146.433 +9.1538777213E-001 +5.5771834668E+000  +7.9757817542E-003 +1.2752258249E+002  +5.3770760092E-003 +7.9452426204E+001  +9.0181855987E-001 -1.2083811658E+000 
8018291.615 +8.5846089941E-001 +8.1172559496E+000  +2.0352884681E-003 -1.7894979471E+002  +1.0250911334E-002 +6.9382367653E+001  +8.1436677398E-001 +1.2644348771E-001 
8143436.796 +7.5911163480E-001 +9.9610311338E+000  +3.3158237110E-003 +1.3887141919E+002  +4.6665137732E-003 +1.2058079260E+002  +8.3770558334E-001 -3.1226341617E+000 
8268581.977 +7.0847639688E-001 +8.7436416356E+000  +1.2624830965E-003 +9.2897294319E+001  +3.0309316468E-003 +1.7763157962E+002  +7.9115513689E-001 -2.2546488813E+000 
8393727.159 +7.3873198044E-001 +1.2914624164E+001  +3.3726243770E-003 +1.1779654705E+002  +2.3485962198E-003 +1.3382047407E+002  +7.2487250773E-001 +1.6671168806E+000 
8518872.340 +6.8214895295E-001 +4.6610223226E+000  +6.2219137255E-003 +6.2222170884E+001  +4.8755432407E-003 +8.0234689903E+001  +7.2250433537E-001 +4.9394298904E+000 
8644017.522 +6.0984446774E-001 +1.1889355275E+001  +2.0958822808E-003 +4.0343113075E+001  +3.2704772781E-003 +8.3868476296E+001  +6.8847758686E-001 +9.2908146491E-002 
8769162.703 +6.5679286112E-001 +7.7616975700E+000  +5.2566953694E-003 +1.3677618023E+002  +1.9247265463E-003 +6.8602327291E+001  +7.0073726979E-001 +8.1398338139E+000 
8894307.885 +6.2942494441E-001 +9.0271565243E+000  +4.7297379838E-003 +6.1838868780E+001  +3.0063563135E-003 +1.4187322729E+002  +6.3635694102E-001 -2.3158553226E+000 
9019453.066 +5.4801936081E-001 +2.9831402061E+000  +3.4479290238E-003 +1.3698736225E+001  +4.8351198095E-003 +1.5725335481E+002  +6.3734236685E-001 -3.2272329285E+000 
9144598.248 +5.8764597345E-001 +8.9191738139E+000  +2.7588728489E-003 +6.9144221343E+001  +7.0205143708E-003 +1.5516767891E+002  +6.7004868553E-001 -1.6748460793E+000 
9269743.429 +5.9196771455E-001 +3.6101407014E+000  +4.4555322564E-003 +1.0564035059E+002  +4.5653384050E-003 +7.5432549208E+001  +6.3014391674E-001 -1.8446392772E+000 
9394888.611 +5.9622203510E-001 +3.0323501908E+000  +7.1325069638E-004 +7.7636063682E+001  +1.9325366124E-003 +1.5928144999E+002  +5.9789301114E-001 -5.8483897346E+000 
9520033.792 +5.4428658286E-001 -7.6764290332E-001  +5.9756531937E-003 +5.5557616667E+001  +4.1694450539E-003 +1.5089738960E+002  +5.9096536711E-001 -4.6383178265E+000 
9645178.974 +5.4591692797E-001 +1.5649509635E+000  +2.1177363135E-003 +1.0710924790E+002  +1.9365086086E-003 +1.2047389593E+002  +5.6985443319E-001 -6.7928993208E-001 
9770324.155 +5.4611452186E-001 -2.9313108704E+000  +5.2366205335E-003 +7.0410228135E+001  +3.1931834204E-003 +9.9617428646E+001  +5.4639654725E-001 -3.1975761031E+000 
9895469.337 +5.2141606174E-001 -1.2608003604E+000  +6.2579976641E-004 -6.6018957618E+001  +3.3224899764E-003 +4.7844819384E+001  +5.5956465094E-001 -2.9768412475E+000 
10020614.518 +5.6182536092E-001 +6.4401016441E+000  +3.4010473012E-003 +1.0183919307E+002  +3.6695423940E-003 +1.1059894356E+002  +6.1136114790E-001 -3.8180644736E+000 
10145759.700 +5.2704683515E-001 +4.2157354443E+000  +3.5028718612E-003 +6.4530297541E+001  +5.1983104564E-003 +9.7799629106E+001  +5.7833018481E-001 -6.3085486619E+000 
10270904.881 +5.6917493173E-001 +4.9523608869E+000  +3.0496460442E-003 +3.5337327411E+001  +3.1245393220E-003 +1.1575518852E+002  +6.2045026314E-001 -7.4293636526E-001 
10396050.063 +5.3383033005E-001 +3.1662680229E-001  +5.3806357976E-003 +6.6309991846E+001  +4.2901473094E-003 +1.1208888773E+002  +5.6851940668E-001 -1.5244449276E+000 
10521195.244 +5.2192930819E-001 +3.3053180218E+000  +4.2262440225E-003 +1.2484423006E+002  +3.5163195618E-003 +1.1972946612E+002  +5.8887636147E-001 +2.8485974269E+000 
10646340.426 +5.5698982405E-001 +6.1633236788E+000  +4.7435783463E-003 +7.0919779211E+001  +5.5650186184E-003 +1.0615992571E+002  +5.8809250771E-001 -1.0806959985E+000 
10771485.607 +5.5012941787E-001 +7.6012047847E+000  +8.8625848511E-004 +7.7529060126E+001  +2.9535121336E-003 +5.5291361889E+001  +5.8502511501E-001 -2.4256820226E+000 
10896630.788 +5.9415010158E-001 +4.5906631481E+000  +6.0645780540E-003 +8.7573637572E+001  +4.9172504455E-003 +6.6128701264E+001  +5.9858513267E-001 -8.1983933942E-001 
11021775.970 +5.9386274627E-001 +9.0968633790E+000  +6.7218160947E-003 +8.6169317730E+001  +5.3804792386E-003 +1.0471848874E+002  +5.7997710694E-001 +1.5965083544E+000 
11146921.151 +5.9853482510E-001 +6.4621506048E+000  +5.9433165754E-003 +8.7284090119E+001  +2.8031845170E-003 +7.5540642947E+001  +6.0430664169E-001 +3.2055244586E+000 
11272066.333 +5.9269525769E-001 +1.2079389743E+001  +5.9577748812E-003 +8.4389252260E+001  +7.0104863388E-003 +8.4084241604E+001  +6.0750665132E-001 +5.3739453355E-001 
11397211.514 +6.1049496004E-001 +6.1607498103E+000  +3.9948348259E-003 +6.5408563289E+001  +5.0621576032E-003 +1.1436613779E+002  +6.4985243985E-001 +4.5485218040E+000 
11522356.696 +6.1803370804E-001 +3.4552680504E+000  +3.9568377883E-003 +6.5667373583E+001  +5.2683788785E-003 +1.2890360677E+002  +6.4706661095E-001 -2.3121552008E+000 
11647501.877 +6.2688093311E-001 +4.8254605728E+000  +7.2119343207E-003 +9.0046151052E+001  +5.0585531679E-003 +1.0670464697E+002  +6.3908403565E-001 -7.7975222903E-001 
11772647.059 +6.6613383607E-001 +7.3736115282E+000  +6.5577688686E-003 +9.5824585702E+001  +5.1840417419E-003 +9.8532334257E+001  +6.7141609010E-001 +9.2934486225E-001 
11897792.240 +6.5822504682E-001 +5.5581112121E+000  +4.4008903020E-003 +6.8898727777E+001  +5.5243532560E-003 +1.0751047282E+002  +6.6714364298E-001 +5.7160752245E-001 
12022937.422 +6.4694189750E-001 +7.6599122438E-001  +5.5910173217E-003 +7.5954833102E+001  +5.6606251979E-003 +1.0566666542E+002  +6.9395676604E-001 +2.2836538901E+000 
12148082.603 +6.6611566820E-001 -8.2004461303E-002  +6.3850035959E-003 +8.4438611790E+001  +3.0844762246E-003 +7.8180400095E+001  +7.0584294377E-001 +7.6406784466E-002 
12273227.785 +6.9282971459E-001 +4.2586778941E+000  +5.1364825063E-003 +9.2252256710E+001  +5.4073605063E-003 +9.4076266177E+001  +7.2292994740E-001 +3.8363593121E-001 
12398372.966 +6.9990319267E-001 +4.3782713809E+000  +4.9852212565E-003 +7.6743721167E+001  +4.9715912840E-003 +8.8973620835E+001  +7.1057513061E-001 -2.8205428141E-001 
12523518.148 +7.0306329247E-001 +2.1566121186E+000  +5.2811102702E-003 +7.8237215601E+001  +4.9451598765E-003 +9.3262545029E+001  +7.5979725577E-001 -1.7681895425E+000 
12648663.329 +7.3760153696E-001 +2.2375482278E+000  +6.6299734555E-003 +7.8598141125E+001  +4.9639076153E-003 +9.1864454279E+001  +7.4640895002E-001 +9.6814757863E-003 
12773808.511 +7.4295156247E-001 +1.3846793396E+000  +6.3891385340E-003 +8.6654515978E+001  +5.9411666861E-003 +8.4581118222E+001  +7.6449757061E-001 -2.1147298244E-002 
12898953.692 +7.5573008073E-001 +4.1947721318E-001  +7.7534602314E-003 +8.9038781898E+001  +4.6615310331E-003 +8.6439124415E+001  +7.7433449727E-001 -9.7349287332E-001 
13024098.874 +7.9634271575E-001 +2.5623034230E+000  +6.0074417874E-003 +8.3701619206E+001  +6.8753937561E-003 +8.5156444657E+001  +7.9259726003E-001 -2.5530831568E+000 
13149244.055 +7.9960515169E-001 +4.6370708538E-001  +5.7228121287E-003 +8.5183761357E+001  +6.4150255473E-003 +9.7591860978E+001  +8.0688574867E-001 -2.6658576251E+000 
13274389.237 +8.0279274647E-001 -1.3290413544E+000  +6.9311711241E-003 +7.5027569001E+001  +6.7566679609E-003 +9.2985231120E+001  +8.2563799472E-001 -1.6118554235E+000 
13399534.418 +8.6091825967E-001 +2.6975264549E-002  +5.5019276020E-003 +8.7137102701E+001  +7.4167312669E-003 +8.7280686384E+001  +8.5737028411E-001 -2.3787882435E+000 
13524679.599 +8.3329671679E-001 -1.0067233361E+000  +6.5056958775E-003 +7.9642966758E+001  +7.7102438074E-003 +8.9094547330E+001  +8.7809922963E-001 -2.9098182311E+000 
13649824.781 +8.7747149781E-001 -6.8881805748E-001  +7.3524781342E-003 +8.7781782858E+001  +6.1199808123E-003 +9.7572573173E+001  +8.9104295799E-001 -3.2445803936E+000 
13774969.962 +8.7912692954E-001 -2.1092730125E+000  +6.2093867912E-003 +9.5969648726E+001  +7.7519292140E-003 +8.3397044486E+001  +9.1511859599E-001 -3.1217058309E+000 
13900115.144 +8.9855286474E-001 -3.2768781913E+000  +8.0797492310E-003 +8.7535766402E+001  +7.1687220838E-003 +8.3384278952E+001  +9.3675664694E-001 -3.4642730661E+000 
14025260.325 +9.2364099099E-001 -3.0575571673E+000  +8.5571934782E-003 +9.0978737338E+001  +7.5190690720E-003 +7.9620341708E+001  +9.4687965413E-001 -4.6047075765E+000 
14150405.507 +9.4980574829E-001 -3.1522775422E+000  +6.7918097103E-003 +9.2116520963E+001  +8.5166532637E-003 +8.5948610554E+001  +9.4320020109E-001 -3.7118577926E+000 
14275550.688 +9.4838689704E-001 -4.3068940010E+000  +6.5035438463E-003 +8.7349592741E+001  +7.9043460111E-003 +1.0166287941E+002  +9.7971490171E-001 -5.4426151106E+000 
14400695.870 +9.6583944177E-001 -3.8821677023E+000  +8.5579759756E-003 +9.2453217724E+001  +7.5736625968E-003 +9.1903473385E+001  +9.9385106474E-001 -4.5557775157E+000 
