!  2-Port S-parameters saved by WinCal
! VAR MeasName=S-Parameters (CALIBRATED_DATA) read from VNA (P5004A)
! VAR MeasDate=28/08/2024 11:18:10
! VAR NAME=S2_r6c9_SET1_9k-100M_2
! VAR FILENAME=S2_r6c9_SET1_9k-100M_2.S2P
! VAR DATE=28/08/2024 11:18:10
! VAR PHYS_PORTS=1,2
! VAR ObjTypeName=DATASET
! VAR IndexType=Frequency
!
# Hz S MA R 50
9000.000 +8.6725796423E-002 -1.6080538069E+002  +1.3136475429E-002 +1.4175101640E+002  +7.9814346666E-003 -4.4683394075E+001  +2.6203070470E-001 -1.4577858117E+002 
134145.181 +1.1112023285E-001 +1.6960204128E+002  +3.7282182454E-004 -6.2785038404E+001  +7.9115440519E-005 -5.9440697698E+001  +2.4166180726E-001 -1.7012214256E+002 
259290.363 +1.1303932012E-001 +1.7022908340E+002  +9.3466036312E-004 +7.2383276529E+000  +7.3441374044E-004 +7.3910788304E+001  +2.5701932848E-001 -1.6787147183E+002 
384435.544 +1.1366232680E-001 +1.6992537723E+002  +1.5637027458E-004 -1.2852231138E+002  +5.3448307272E-004 -1.3716369659E+002  +2.5570456185E-001 -1.6762836262E+002 
509580.726 +1.1331720450E-001 +1.7056796199E+002  +1.9514821831E-003 -4.8703625062E+001  +2.1321509535E-003 +1.6510688922E+002  +2.7135737849E-001 -1.5885558748E+002 
634725.907 +1.1592979039E-001 +1.7114503547E+002  +7.2639700878E-004 +1.4335270762E+002  +6.5107699911E-004 -1.7798656834E+002  +2.3941866138E-001 -1.6521146586E+002 
759871.089 +1.2155497313E-001 +1.7130650299E+002  +6.1381285569E-004 -9.5489641369E+001  +5.0528393580E-004 +1.2773344157E+002  +2.5127066784E-001 -1.6587803182E+002 
885016.270 +1.2020498793E-001 +1.6987135986E+002  +8.9265664666E-004 -1.5932660041E+002  +1.0573404888E-003 +3.7610206751E+001  +2.4633312615E-001 -1.6563180717E+002 
1010161.452 +1.1922052832E-001 +1.6929043948E+002  +9.6830838183E-004 +2.2526149392E+001  +2.1607084408E-003 +6.6391691839E+001  +1.9213074301E-001 -1.6736735824E+002 
1135306.633 +1.1785027808E-001 +1.6933711629E+002  +2.0362667698E-003 -1.6072318061E+002  +2.2910060088E-004 -1.3920812709E+002  +1.7204470485E-001 -1.7145436459E+002 
1260451.815 +1.2469564379E-001 +1.7039469391E+002  +4.7400579552E-004 -8.0596595199E+000  +7.9107921821E-004 +2.3961923089E+001  +2.2458813593E-001 -1.6201287724E+002 
1385596.996 +1.2454299497E-001 +1.7261094618E+002  +3.6247928811E-004 -6.5022610686E+001  +1.6151044630E-003 +1.6449422699E+002  +2.6375202263E-001 -1.5610995600E+002 
1510742.178 +1.2965133068E-001 +1.7181353779E+002  +8.6314987082E-004 -4.0855072798E+001  +1.2928224978E-004 -5.7601439768E+001  +2.4549100770E-001 -1.5750902907E+002 
1635887.359 +1.2724420088E-001 +1.6956619153E+002  +1.6944335408E-003 -1.6797807564E+002  +6.4197364128E-004 -2.3654929963E+001  +2.3424372440E-001 -1.5673927454E+002 
1761032.541 +1.3044621791E-001 +1.6997898687E+002  +6.4916566891E-004 -7.3286056903E+001  +1.8644628850E-004 +1.3866949059E+002  +2.3201073770E-001 -1.5840919307E+002 
1886177.722 +1.3217258467E-001 +1.6927725839E+002  +1.1395063733E-003 -1.8188684194E+001  +1.1262371832E-003 +1.5596149735E+002  +2.2673715328E-001 -1.5885720988E+002 
2011322.904 +1.3140497721E-001 +1.6781442211E+002  +8.9640525980E-004 -9.7400056559E+001  +3.1666797048E-003 -4.0897589527E+000  +1.8583823084E-001 -1.6706445734E+002 
2136468.085 +1.3062486482E-001 +1.6750969606E+002  +2.7554833005E-003 +1.3671731185E+002  +2.3991371880E-003 -7.2145100826E+001  +1.7431102238E-001 +1.7159653272E+002 
2261613.267 +1.3636972576E-001 +1.6414039694E+002  +1.8766819941E-003 +2.9491054337E+001  +3.2628215961E-003 -1.7483988678E+002  +1.8011535266E-001 -1.7688714631E+002 
2386758.448 +1.3235338136E-001 +1.5951842638E+002  +4.9231811942E-003 +8.4063528880E+001  +2.2035741189E-003 -1.0829262181E+002  +2.0527872954E-001 -1.7313382547E+002 
2511903.630 +1.3550850765E-001 +1.5785456940E+002  +6.3663462704E-003 -3.2212685187E+001  +7.4277084914E-003 +5.2369672661E+000  +6.3871159309E-002 +1.7322818532E+002 
2637048.811 +1.2753273261E-001 +1.6556550628E+002  +7.6446059330E-003 +1.4297962882E+001  +1.0733839599E-002 +1.6358199892E+002  +1.1795337438E-002 +4.3377188411E+001 
2762193.992 +1.1489902868E-001 +1.5354298735E+002  +1.1337976952E-002 +6.8358005470E+001  +1.2189884373E-002 +7.0372380866E+001  +2.6339228690E-001 -9.7759492645E+001 
2887339.174 +1.1435311239E-001 +1.7293269743E+002  +6.9778017861E-003 -1.0556205991E+002  +2.2938537432E-002 -8.5541081009E+001  +8.1705223045E-001 -1.3511194734E+002 
3012484.355 +1.1295156435E-001 +1.7164298306E+002  +3.9336827183E-003 -2.3373026179E+001  +3.7087587144E-003 +1.6878648750E+002  +1.9558118866E-001 -1.3016116141E+002 
3137629.537 +9.9625856427E-002 -1.7893610748E+002  +2.8477113096E-002 +2.1977655759E+001  +3.2012403617E-002 -1.1010886427E+002  +7.8887505006E-001 -6.7389812186E+001 
3262774.718 +1.3029492310E-001 +1.6811936675E+002  +1.7534923293E-002 +5.8156616146E+001  +1.2258788202E-002 +5.2220879114E+000  +2.3513577444E-001 +1.0254365884E+002 
3387919.900 +1.3843058025E-001 +1.5010610558E+002  +2.8634923295E-002 +4.2799374982E+001  +4.0205236950E-002 -1.0104252805E+001  +2.0300241467E+000 -8.1946388074E+001 
3513065.081 +1.3448586856E-001 +1.2931540707E+002  +1.0026081821E-002 -1.1653207165E+002  +2.3990451722E-003 +1.4007505699E+002  +5.8253464346E-001 +1.4465655827E+002 
3638210.263 +1.2698449313E-001 +1.4801410371E+002  +5.2968315903E-003 -5.2614021999E+001  +4.5148995322E-003 +7.3646014212E+001  +5.2161686217E-001 +1.5616642051E+002 
3763355.444 +1.8683380061E-001 +1.4185068957E+002  +9.4393410326E-003 +1.1430230328E+002  +1.1161025524E-002 +4.8670276976E+001  +5.9763030881E-001 +1.5988637167E+002 
3888500.626 +1.5706422324E-001 +1.4495159647E+002  +5.3374281746E-003 +7.9001158676E+001  +1.2811431459E-002 -3.0998519415E+001  +4.2524701571E-001 +6.0766304011E+001 
4013645.807 +1.8863957162E-001 +1.4142462569E+002  +2.1001134048E-003 +3.0743466965E+001  +3.4473564918E-003 -1.4842796636E+001  +3.3185217534E-001 +1.6010196677E+002 
4138790.989 +1.8696387959E-001 +1.4743700490E+002  +7.8810967220E-003 +2.2773735396E+001  +2.1824616465E-003 +7.4589092799E+001  +4.1669879463E-001 +1.3929094834E+002 
4263936.170 +1.8702614906E-001 +1.4421322863E+002  +2.4732527848E-003 -1.0423535384E+002  +3.7156823849E-003 -1.7414047949E+002  +4.7735181817E-001 +1.5416678217E+002 
4389081.352 +1.9576969047E-001 +1.3240437697E+002  +1.2731440169E-002 +1.7397021884E+002  +1.2102125960E-002 +1.0986719258E+002  +4.2622428443E-001 +9.8074055777E+001 
4514226.533 +2.6586060640E-001 +1.3971387553E+002  +4.0600005840E-002 +1.7414879641E+002  +3.9515295201E-002 +4.5285636048E+001  +2.1266558919E+000 +8.3193180800E+001 
4639371.715 +3.0919717357E-001 +1.2631472668E+002  +2.2657744984E-003 -4.2125128132E+001  +6.2968371173E-002 -1.5114322550E+002  +2.5516228924E+000 -1.7467636989E+002 
4764516.896 +2.9437744492E-001 +1.1974336682E+002  +3.8309660248E-002 -1.1255190856E+002  +3.4234520196E-002 +7.8272248733E+001  +2.5702175731E+000 +1.1867656253E+001 
4889662.078 +4.6554557593E-001 +1.2868307852E+002  +5.1339827774E-002 +3.5204725877E+001  +2.5632701390E-002 +1.7880385146E+002  +2.2460827609E+000 -9.8297511579E+001 
5014807.259 +4.4382850587E-001 +1.3776768198E+002  +5.1093851669E-002 +1.3986495180E+002  +2.5960703365E-002 +1.2559555999E+001  +3.2705513697E+000 -3.7973999586E+001 
5139952.441 +4.0672814707E-001 +1.3281788371E+002  +1.0620571048E-001 +1.4932923776E+002  +1.8224182761E-002 +1.3388419251E+001  +4.4337708230E+000 +7.8946277922E+001 
5265097.622 +4.1164495490E-001 +1.3232051949E+002  +1.4015035497E-002 -1.0211532323E+002  +3.8825827981E-003 -6.8742326678E+000  +2.8265093168E+000 +1.1392046736E+002 
5390242.804 +3.9505204112E-001 +1.2380666410E+002  +1.8129212676E-002 -8.7226027170E+001  +2.5394078872E-002 +1.3235688054E+002  +1.5868958912E+000 +2.8579106689E+000 
5515387.985 +4.3315535949E-001 +1.3416231127E+002  +1.7103594651E-002 -1.2025045882E+002  +1.3472561852E-002 -8.0271579686E+001  +4.9009055232E+000 +1.0779946035E+002 
5640533.166 +4.5730221234E-001 +1.2424854449E+002  +9.8195902426E-002 +1.1175991243E+002  +2.7524599347E-002 +5.9397548528E+001  +5.7911089962E+000 +6.5599639827E+001 
5765678.348 +5.0803053154E-001 +1.2096807454E+002  +2.3415215005E-002 +1.0867486412E+002  +8.9354622730E-003 -1.2768255938E+002  +1.5704405886E+000 +6.5678279194E+001 
5890823.529 +5.0411292394E-001 +1.2014763636E+002  +2.5574161882E-002 +4.8174292838E+001  +6.0338574689E-003 -1.6805829848E+002  +2.5354194005E+000 +5.4832651243E+001 
6015968.711 +8.7030443777E-001 +1.1696413962E+002  +1.7894274901E-002 +1.5133551135E+002  +4.1521055099E-002 +7.9130539717E+001  +1.2189985724E+000 +4.3012259807E+001 
6141113.892 +7.3665254263E-001 +1.1307914019E+002  +1.3240048901E-002 +1.6680959548E+002  +1.2183420522E-002 -1.4488805543E+002  +1.7648565721E+000 +4.4625463375E+001 
6266259.074 +6.8936319594E-001 +9.7734919933E+001  +8.8891950846E-003 -7.3306291314E+001  +8.0782177681E-003 +6.4278869800E+001  +1.7350265712E+000 +1.2314941109E+000 
6391404.255 +9.2776425272E-001 +9.4905543091E+001  +7.9039060625E-003 +1.0145390284E+002  +7.6126913137E-003 -1.7715933806E+001  +1.4527020142E+000 +5.2110593202E+000 
6516549.437 +8.8394938913E-001 +8.2310768759E+001  +7.1233793561E-003 -1.6978348358E+002  +2.6587950357E-002 -1.7512549692E+002  +1.1197815466E+000 +1.3750636324E+001 
6641694.618 +1.3973131070E+000 +7.6263463627E+001  +3.8869643416E-002 +3.0687848096E+001  +1.1419385736E-002 +2.9938628977E+001  +1.4692750705E+000 +1.1557889650E+000 
6766839.800 +2.0508678659E+000 +4.7697045547E+001  +3.9225791456E-002 -2.1903957938E+001  +1.6370424677E-002 -1.8595351146E+001  +1.3405331602E+000 +9.5105192565E+000 
6891984.981 +1.7328599333E+000 +3.8163208292E+001  +1.7907220319E-002 +1.6664877707E+002  +2.3518108312E-002 +1.5766701977E+000  +1.3244821123E+000 -1.1803682986E+001 
7017130.163 +1.9394745171E+000 +2.3938711905E+001  +2.1916734055E-002 +1.5587575451E+002  +1.9961286220E-002 +1.0177009206E+002  +1.1625852910E+000 -1.1270256494E+001 
7142275.344 +1.8376570959E+000 +7.1699889286E+000  +1.5380516758E-002 +1.3591460243E+002  +1.8006664153E-002 +1.0932379456E+002  +1.3156947047E+000 -1.3488034418E+001 
7267420.526 +1.6036537268E+000 -1.2237914380E+000  +9.2773720375E-003 -1.6670190902E+002  +7.0435850385E-003 -3.6220117968E+001  +1.2882405110E+000 -1.0096993708E+001 
7392565.707 +1.3464533522E+000 -5.1786819245E-001  +9.9177247164E-003 +2.3069205537E+001  +1.1853842092E-002 +1.2788969124E+002  +1.4952267490E+000 -6.9919519734E+000 
7517710.889 +1.1161603267E+000 +5.0274837937E-001  +5.9409047592E-003 +7.3108565159E+001  +2.7764668347E-003 +1.3854427420E+002  +1.2170743244E+000 -3.8577673580E+000 
7642856.070 +1.1113385657E+000 +5.2728323079E+000  +8.9398225012E-003 +8.6869168172E+001  +5.7348796513E-003 -9.2737609627E+001  +1.1628859398E+000 +1.7404495634E+000 
7768001.252 +1.0234623545E+000 +3.8770753930E+000  +1.4314044170E-002 +4.2902757108E+001  +5.4238846724E-003 +8.7525206475E+001  +1.0539257603E+000 -3.5115386408E+000 
7893146.433 +8.6588053631E-001 +5.6079533412E+000  +7.1658707791E-003 +1.2515898989E+002  +4.1120003886E-003 +1.6410999757E+002  +9.0963352404E-001 -6.8357264629E-001 
8018291.615 +7.7693901427E-001 +2.6809271374E+000  +5.9158946832E-003 +7.5212047442E+001  +4.3713321042E-003 -1.3436813510E+002  +8.6806059698E-001 -1.6638222839E+000 
8143436.796 +7.8335458800E-001 +2.9820179916E+000  +9.8413666190E-003 +6.8212699116E+001  +1.0759223490E-002 +8.4357005819E+001  +8.2321081836E-001 -1.5575288482E+000 
8268581.977 +7.6390063334E-001 +5.3308430610E+000  +1.0799790572E-003 +1.7000160936E+002  +3.7285144644E-003 +3.9521732789E+001  +8.1648125065E-001 -4.1896074354E+000 
8393727.159 +7.1025325645E-001 +1.1778597720E+001  +4.8771105057E-003 -1.4378106244E+002  +1.9551423575E-003 +8.6553851420E+001  +7.1886817702E-001 -2.6026302609E+000 
8518872.340 +6.5207566736E-001 +5.0268645001E+000  +4.5555260599E-003 +5.2429613949E+001  +7.8855057766E-003 +1.0069810278E+002  +7.2602884452E-001 +1.4820510501E+000 
8644017.522 +6.6709072984E-001 +3.9610833064E+000  +3.5060541999E-003 +1.7999256521E+002  +5.1035832608E-003 +5.7216548239E+001  +7.1401777136E-001 -4.6961451393E-001 
8769162.703 +6.3955650873E-001 +4.9507991159E+000  +5.5202060517E-003 +1.7454851128E+002  +4.9759273911E-003 +1.1400816460E+002  +6.1640786168E-001 +5.7237966192E+000 
8894307.885 +6.0059820482E-001 +1.9204675679E+000  +4.4073884935E-003 +6.4183545783E+001  +6.1616301219E-003 +1.2674521168E+002  +6.4903361607E-001 -3.8225138549E+000 
9019453.066 +6.8467496576E-001 +7.0173274777E+000  +7.3765196789E-003 +1.1675176468E+002  +4.0533021645E-003 +4.6202983275E+001  +6.8626934361E-001 +1.6850687186E+000 
9144598.248 +5.7633738140E-001 +7.1136816504E+000  +6.9082917559E-003 +9.2875478824E+000  +3.3592330234E-003 +5.9818727546E+001  +6.7824010333E-001 -5.8084381421E-001 
9269743.429 +5.1869675403E-001 +6.7489468512E+000  +3.5873347721E-003 +9.2207921618E+001  +3.2709713673E-003 +8.7552175608E+001  +6.2442385752E-001 -2.4263190114E-001 
9394888.611 +5.6038125184E-001 +3.9910253563E+000  +5.0542710111E-003 +7.3101079935E+001  +5.1555703052E-003 +1.0998709846E+002  +6.1128548339E-001 -9.5433516529E-001 
9520033.792 +5.7078149344E-001 +2.4914887365E+000  +5.3255974107E-003 +1.1128821838E+002  +4.5946189939E-003 +1.0432835894E+002  +5.8280202943E-001 -2.6684632325E+000 
9645178.974 +5.1871017406E-001 +1.4253284855E+000  +5.2998551699E-003 +1.0322327123E+002  +1.7511489896E-003 +5.9318915253E+001  +5.8614960492E-001 -7.8757150131E+000 
9770324.155 +5.1069700455E-001 +4.6312579234E+000  +1.0202414153E-003 +5.4928523154E+001  +6.8839292768E-003 +5.9536605278E+001  +5.6495388782E-001 +3.1208353143E-002 
9895469.337 +5.4806953196E-001 +3.2248654335E+000  +2.5290311600E-003 +1.1267875805E+002  +2.2807135240E-003 +6.8522609486E+001  +5.8159005735E-001 -5.7759948521E+000 
10020614.518 +5.8296329115E-001 +2.0431835958E+000  +4.2126593375E-003 +6.7284728778E+001  +4.6051934501E-003 +7.7880551636E+001  +5.5150174796E-001 -3.6523740534E+000 
10145759.700 +5.5252769628E-001 +3.7751473635E+000  +4.1010784872E-003 +3.1695803703E+001  +5.2264813283E-003 +1.0080506963E+002  +5.8076829970E-001 -1.1431306345E+000 
10270904.881 +6.0742575248E-001 +2.7155741697E+000  +4.0222019705E-003 +5.7491891280E+001  +3.0542389826E-003 +1.3473220312E+002  +5.3585986073E-001 -1.4002482242E+000 
10396050.063 +5.7652438152E-001 +5.2408866890E+000  +4.7320805264E-003 +1.3279289187E+002  +5.9906202052E-003 +7.6368954152E+001  +5.8902107217E-001 -9.7123509671E-001 
10521195.244 +5.6730063540E-001 +9.5384181359E+000  +4.8153369653E-003 +7.7402030534E+001  +2.0263989663E-003 +8.9479382586E+001  +5.6241458595E-001 +7.9442726278E-001 
10646340.426 +5.7411143526E-001 +1.0557910754E+001  +1.3401194296E-003 +5.4626757786E+001  +7.9267189479E-003 +1.0102481075E+002  +5.8878744255E-001 -7.9173733567E-001 
10771485.607 +5.8013739299E-001 +8.8229853043E+000  +4.5002013236E-003 +7.4924769712E+001  +3.2848528752E-003 +7.6800747613E+001  +6.0465577686E-001 -1.4562812626E+000 
10896630.788 +5.9773529436E-001 +1.1357659381E+001  +3.1652181945E-003 +1.2183412375E+002  +4.0073774873E-003 +8.0575547238E+001  +6.2155378843E-001 +2.4655094786E+000 
11021775.970 +5.7539697433E-001 +6.8170938345E+000  +6.1605533185E-003 +8.1992749415E+001  +5.1140973719E-003 +7.0591980356E+001  +6.1321297023E-001 +3.3366828221E-001 
11146921.151 +6.0211483228E-001 +7.7137704318E+000  +4.4407054714E-003 +1.0028313785E+002  +7.8245905686E-003 +7.8735748479E+001  +6.2446952035E-001 +3.1438747743E+000 
11272066.333 +6.1071539585E-001 +5.9332337062E+000  +3.9229756920E-003 +4.6313614745E+001  +5.6260914412E-003 +9.0493616798E+001  +6.4987662585E-001 +2.4799414880E+000 
11397211.514 +6.5268320132E-001 +9.1589864914E-001  +4.6392454305E-003 +8.0422463116E+001  +4.3242022878E-003 +8.3782163450E+001  +6.1544929911E-001 -1.3919261823E+000 
11522356.696 +6.0212392847E-001 +5.2548784202E+000  +5.2795292693E-003 +8.3772819408E+001  +6.4902505035E-003 +6.1770730970E+001  +6.7937002171E-001 +6.1920245702E-001 
11647501.877 +6.2393715370E-001 +4.3484606954E+000  +3.7017524338E-003 +7.3330621193E+001  +5.1357039840E-003 +7.8687956489E+001  +6.5551272279E-001 -9.0785462286E-001 
11772647.059 +6.3712210130E-001 +9.5895569921E-001  +6.1218420101E-003 +6.6851765318E+001  +6.2932203377E-003 +7.7220385536E+001  +6.5726925025E-001 +6.1254920245E-001 
11897792.240 +6.8482885864E-001 +4.2845564549E+000  +6.3292391563E-003 +9.2207366820E+001  +4.6883956389E-003 +1.0011718642E+002  +6.6874185794E-001 +1.2140485514E+000 
12022937.422 +6.6197522509E-001 +5.8405443492E+000  +5.6069102476E-003 +9.2851645921E+001  +4.3907958852E-003 +9.6869644931E+001  +6.7270209628E-001 +1.2980840861E+000 
12148082.603 +6.9669458842E-001 +6.1200386097E+000  +3.2675941026E-003 +7.3300868777E+001  +2.9112320649E-003 +7.8057951861E+001  +7.3859714658E-001 +4.2435390868E-001 
12273227.785 +7.0812973488E-001 +4.8436113763E+000  +4.8377440611E-003 +7.4688777861E+001  +4.9943189784E-003 +9.7613603784E+001  +6.9939465123E-001 -3.4208052236E-001 
12398372.966 +7.1769445894E-001 +3.8602386825E+000  +5.6679593422E-003 +8.3749280322E+001  +6.7369399387E-003 +9.1640853459E+001  +7.2027066643E-001 -2.0120847894E+000 
12523518.148 +7.2526859889E-001 +4.4713475166E+000  +7.3078960900E-003 +8.5315089171E+001  +5.7386719193E-003 +8.3112948056E+001  +7.4483389173E-001 +1.0531906997E+000 
12648663.329 +7.3424655747E-001 +3.4352823655E+000  +5.2021423417E-003 +8.9583183765E+001  +6.8018700047E-003 +9.8570206138E+001  +7.6216079627E-001 -5.0379469998E-001 
12773808.511 +7.2936702297E-001 -3.1683104230E-001  +6.5988038002E-003 +7.7074712797E+001  +7.4384816614E-003 +8.8661339600E+001  +7.4775845182E-001 +6.4099003535E-001 
12898953.692 +7.7869169047E-001 +9.6024300678E-001  +6.7533807383E-003 +8.5555096363E+001  +6.8794603385E-003 +9.6358629463E+001  +8.0037546645E-001 -2.8151292750E-001 
13024098.874 +8.1306044141E-001 -8.8375633636E-001  +7.1006994807E-003 +8.4421203027E+001  +5.5159894366E-003 +8.1912938925E+001  +7.9840656137E-001 -3.5858753352E-001 
13149244.055 +8.0198056586E-001 -9.3386665953E-001  +7.0963930965E-003 +9.4341782358E+001  +5.9300914349E-003 +9.1951150734E+001  +8.4267984760E-001 -2.2484586804E+000 
13274389.237 +8.3092951657E-001 +4.0191203073E-001  +7.8954471373E-003 +9.1450042328E+001  +5.7107298523E-003 +8.8415038832E+001  +8.3956288844E-001 -2.6172364140E+000 
13399534.418 +8.2896355843E-001 -1.0146381934E+000  +5.5787301890E-003 +8.8955445467E+001  +6.3789689013E-003 +9.9641865408E+001  +8.7394752897E-001 -2.3443018130E+000 
13524679.599 +8.5240887381E-001 -2.0352747403E+000  +7.2469821653E-003 +8.6901074061E+001  +8.0903440608E-003 +8.9946488473E+001  +8.5428421600E-001 -2.5569470577E+000 
13649824.781 +9.0780424181E-001 -2.6340427542E+000  +5.6731700941E-003 +8.9549846921E+001  +6.6230864738E-003 +9.8672333506E+001  +8.7546656831E-001 -3.7956961703E+000 
13774969.962 +8.9109890018E-001 -3.8616835979E+000  +5.9200896599E-003 +8.2191062370E+001  +7.5048267752E-003 +8.6482267581E+001  +8.9016644318E-001 -3.5949765614E+000 
13900115.144 +9.2101678325E-001 -4.0869225621E+000  +7.4820965890E-003 +8.2436805814E+001  +7.2365646921E-003 +8.6299759532E+001  +8.9616128571E-001 -4.0980486796E+000 
14025260.325 +9.1044766530E-001 -5.1320654087E+000  +6.8253500478E-003 +7.6177103625E+001  +5.8670973150E-003 +7.5328650946E+001  +9.3213854327E-001 -3.2137061192E+000 
14150405.507 +9.3197624878E-001 -3.9515044796E+000  +7.0698023566E-003 +7.8977147609E+001  +6.7804531914E-003 +8.2157365365E+001  +9.4600032575E-001 -4.3552724409E+000 
14275550.688 +9.6403921939E-001 -4.4266887068E+000  +7.5595797012E-003 +8.5923401941E+001  +6.1637081036E-003 +7.9785414328E+001  +9.9111607373E-001 -4.4443363566E+000 
14400695.870 +9.8746790360E-001 -7.3390585386E+000  +6.1284202015E-003 +6.5206769352E+001  +8.9287507120E-003 +8.0235594202E+001  +1.0104072787E+000 -5.3779888473E+000 
