!  2-Port S-parameters saved by WinCal
! VAR NAME=S2_r2c8_formed(2)_9k-100M_1
! VAR DATE=30/08/2024 11:26:58
! VAR FILENAME=S2_r2c8_formed(2)_9k-100M_1.S2P
! VAR MeasName=S-Parameters (CALIBRATED_DATA) read from VNA (P5004A)
! VAR MeasDate=27/08/2024 14:02:40
! VAR PHYS_PORTS=1,2
! VAR ObjTypeName=DATASET
! VAR IndexType=Frequency
!
# Hz S MA R 50
9000.000 +5.3488688411E-002 -1.6360845511E+002  +1.0002923513E-002 -8.9786827859E+001  +6.9909835406E-003 +8.5103858040E+001  +2.1435278686E-001 -1.1364559631E+002 
134145.181 +1.1103311618E-001 +1.6944094488E+002  +6.4541600459E-004 +1.5914516624E+002  +3.7022660564E-004 +1.4558752158E+002  +2.3862296118E-001 -1.7063332900E+002 
259290.363 +1.1084466865E-001 +1.6965226819E+002  +4.3409204585E-004 -1.7434673828E+002  +6.3253611138E-004 +5.7717968760E+001  +2.4511748960E-001 -1.6967864621E+002 
384435.544 +1.1450292784E-001 +1.6975303602E+002  +3.0381154531E-004 +1.4709508547E+002  +8.6512050720E-004 +5.9265016133E+001  +2.3730717015E-001 -1.6927649764E+002 
509580.726 +1.0782884191E-001 +1.7067951834E+002  +1.7155426979E-003 +6.2078998321E+001  +2.4669927483E-003 +4.9877406791E+001  +2.3678476305E-001 -1.6545670056E+002 
634725.907 +1.1525952116E-001 +1.7133014521E+002  +1.3665428984E-003 -9.7408254628E+001  +6.7764393456E-004 -2.8013598211E+001  +2.4608383383E-001 -1.6539396370E+002 
759871.089 +1.1559109673E-001 +1.7131629447E+002  +6.7302631851E-004 +2.4843224673E+001  +1.8382951825E-003 +1.2156810312E+002  +2.4570887796E-001 -1.6287735004E+002 
885016.270 +1.1820546747E-001 +1.6902188952E+002  +4.5408284610E-004 -1.6186065682E+002  +1.7279859709E-004 -1.6151206640E+002  +2.4184302744E-001 -1.6441236752E+002 
1010161.452 +1.1707520733E-001 +1.7133042038E+002  +2.6203470362E-003 -7.1647366351E+001  +1.9609130598E-003 +1.7727013665E+002  +1.8162685040E-001 -1.6012834099E+002 
1135306.633 +1.1313880919E-001 +1.6662771816E+002  +2.0071208901E-003 -4.2097432518E+001  +2.3975008424E-003 -1.3489665810E+001  +1.5671151156E-001 -1.4909880932E+002 
1260451.815 +1.2177622718E-001 +1.7137832191E+002  +6.2218043556E-004 +1.1290724450E+002  +3.8022819964E-004 -1.4280477158E+001  +2.3375272237E-001 -1.5793071639E+002 
1385596.996 +1.2560425563E-001 +1.7179241951E+002  +1.4429990670E-003 -9.2306086561E+001  +1.8766727958E-003 +1.3569015239E+002  +2.5692053604E-001 -1.5861461183E+002 
1510742.178 +1.2298902658E-001 +1.7051361768E+002  +5.7545891504E-004 -1.7936830411E+001  +6.3223296532E-004 -1.6582992509E+002  +2.4588865078E-001 -1.5761198598E+002 
1635887.359 +1.2208072303E-001 +1.7299133984E+002  +1.6607435068E-003 -9.1352448554E+001  +3.1585830238E-003 +1.3918517402E+002  +2.3609537529E-001 -1.5188791329E+002 
1761032.541 +1.2970533321E-001 +1.6915141615E+002  +1.1432384921E-003 +1.7125480227E+001  +4.8082395123E-004 -1.7005900358E+002  +2.1476162895E-001 -1.6243221775E+002 
1886177.722 +1.2888647718E-001 +1.6666096048E+002  +1.5389364703E-003 +5.0216177063E+001  +8.8514968643E-004 +1.6234410304E+001  +2.0397356405E-001 -1.6432029787E+002 
2011322.904 +1.3417332473E-001 +1.6666574229E+002  +3.3333730360E-003 +8.9276256126E+001  +2.5460762351E-003 -8.5957688664E+001  +1.6294557311E-001 -1.7848048661E+002 
2136468.085 +1.3078602922E-001 +1.6559768138E+002  +8.8296039675E-004 +1.0165201410E+002  +3.2778256014E-003 -1.1558169959E+001  +1.9404500657E-001 -1.6390965551E+002 
2261613.267 +1.3234567773E-001 +1.6296213814E+002  +4.0616308922E-003 +1.5747364963E+002  +4.7724063043E-003 +1.2632416068E+001  +2.4946852229E-001 +1.4917412148E+002 
2386758.448 +1.3969726780E-001 +1.6261557059E+002  +3.6230633325E-003 +1.0372975759E+002  +4.5451429568E-003 -2.9326233393E+001  +2.4798316093E-001 +1.7366950719E+002 
2511903.630 +1.2137295209E-001 +1.6579262741E+002  +1.0658384692E-002 +8.0130058930E+001  +3.8909937922E-003 -5.8999712838E+001  +2.2212044855E-001 +1.7531611691E+002 
2637048.811 +1.3104290626E-001 +1.5998607006E+002  +2.4211598813E-002 +1.4385959103E+002  +1.7556302424E-002 -6.4542721047E+001  +2.8874082049E-001 +1.0291972491E+002 
2762193.992 +9.8260018001E-003 -1.3396673895E+002  +7.2716689071E-002 +2.2311267255E+001  +9.6954643480E-002 -1.1261821079E+002  +5.2372487306E-002 -1.8604877592E+001 
2887339.174 +1.1940219103E-001 +1.6860472559E+002  +2.6363105499E-002 -5.7597630594E+001  +2.6878166725E-002 -1.7158700393E+002  +5.8054387680E-001 -1.0118087176E+002 
3012484.355 +9.6157753194E-002 +1.5374549341E+002  +2.0653610270E-002 -5.0847267053E+000  +3.0542058768E-002 -5.8607750891E+001  +2.9934229085E-002 +1.5851497250E+002 
3137629.537 +1.0623913267E-001 +1.6140698509E+002  +1.6537583433E-002 -9.6899366995E+001  +2.3633141768E-002 -1.5873499314E+002  +4.8378168473E-001 -1.0536044387E+002 
3262774.718 +1.4361800225E-001 +1.5858797759E+002  +1.9069513867E-002 -3.1159742485E+001  +3.0709497461E-002 -1.0766553991E+002  +6.1447693658E-001 -8.4375985728E+001 
3387919.900 +1.2652808912E-001 +1.6858128056E+002  +5.2064952146E-002 +1.1657460456E+001  +1.9262740453E-002 -6.9757808996E+001  +3.3944441963E-001 +4.1216737593E+001 
3513065.081 +1.4649308516E-001 +1.4646197787E+002  +3.1196361049E-002 +4.7856058471E+001  +3.2857729215E-002 -2.6645603653E+001  +1.1106362582E-001 +3.9579460924E+001 
3638210.263 +1.6305399875E-001 +1.4094640998E+002  +5.4467520281E-002 +1.5965529635E+002  +4.0271754864E-002 +5.2813557870E+001  +1.0889721054E+000 +1.3473374818E+002 
3763355.444 +1.7023625439E-001 +1.4052307369E+002  +1.2392403441E-001 +9.3470694592E+001  +8.4688452852E-002 +2.3768821903E+001  +1.3774257400E+000 +9.1038126732E+001 
3888500.626 +1.8219829196E-001 +1.5342545774E+002  +1.5000292717E-002 +7.4914418661E+001  +1.5550081595E-002 +2.9281136830E+001  +3.2999162629E-001 +1.3015068123E+002 
4013645.807 +1.8852625665E-001 +1.4837431211E+002  +1.7368281890E-002 +8.3601204991E+001  +2.4804158463E-002 +1.5646708874E+001  +3.6145597191E-001 +1.1112286266E+002 
4138790.989 +2.1079261200E-001 +1.4847381858E+002  +2.2246330628E-002 +8.4187290114E+001  +1.9613996241E-002 +2.6897704361E+001  +2.8538348215E-001 +7.9386263443E+001 
4263936.170 +2.0603835709E-001 +1.4042690354E+002  +2.4646857433E-002 +9.0940549222E+001  +2.0969888102E-002 +3.1736504705E+001  +2.0706748213E-001 +1.3350432644E+002 
4389081.352 +1.7949903601E-001 +1.4299081317E+002  +2.9311138449E-002 +7.3682343878E+001  +2.6371927062E-002 +1.0969254019E+001  +3.8485921174E-001 +1.1918821126E+002 
4514226.533 +1.9575390552E-001 +1.3288934922E+002  +9.1032110712E-002 +1.0785326216E+002  +9.4730179900E-002 +6.8645708231E+001  +1.7282182057E+000 +1.0884567747E+002 
4639371.715 +2.6242937768E-001 +1.3781627748E+002  +3.3546211320E-002 +7.8567963226E+001  +5.7923064952E-002 +2.5623409911E+001  +6.4036185346E-001 +5.2618172021E+001 
4764516.896 +3.1728893613E-001 +1.3895404861E+002  +1.2909080923E-001 +1.0371481128E+002  +1.0191121998E-001 +6.3641959407E+001  +2.3754407276E+000 +7.1876249536E+001 
4889662.078 +4.1023476299E-001 +1.1931000172E+002  +1.8663340386E-001 +1.3831486271E+001  +1.6383338202E-001 -4.0277195120E+001  +1.9430964418E+000 -4.9525722945E+001 
5014807.259 +3.7855771828E-001 +1.2224985114E+002  +1.5476052035E-001 +6.4783352323E+001  +1.1444849753E-001 +7.9377948995E+000  +1.7136182461E+000 +3.1580760520E+001 
5139952.441 +4.8274637268E-001 +1.4077275818E+002  +1.8574315918E+000 -1.7733051050E+002  +1.7832923040E+000 +1.3916351035E+002  +3.2565358542E+001 +1.2285268318E+002 
5265097.622 +4.1812247025E-001 +1.2627297493E+002  +1.9810797228E-001 +1.0253938566E+002  +1.4226130249E-001 +6.7047189064E+001  +2.6358970944E+000 +8.0634495184E+001 
5390242.804 +4.4413676400E-001 +1.2508553033E+002  +1.0990488099E-001 +1.1738248655E+002  +1.5988355088E-001 +8.5797530645E+001  +1.7788915582E+000 +1.0385111756E+002 
5515387.985 +4.2157534334E-001 +1.3448959720E+002  +9.6980027899E-002 +1.0894863507E+002  +8.8718641224E-002 +7.3777921991E+001  +1.7977404996E+000 +1.0248370526E+002 
5640533.166 +4.7350866834E-001 +1.3610607674E+002  +6.3453919605E-002 +6.9905990408E+001  +7.3681162405E-002 +4.6348688121E+001  +1.2070610805E+000 +5.0944009603E+001 
5765678.348 +4.8529537214E-001 +1.3155088804E+002  +9.1446079329E-002 +8.3219984065E+001  +7.2660864562E-002 +5.5055494574E+001  +1.7921357806E+000 +6.3117694841E+001 
5890823.529 +4.9628115630E-001 +1.2938679075E+002  +9.8915689918E-002 +1.0402335228E+002  +9.5072960530E-002 +7.0343469090E+001  +1.9744933625E+000 +8.9143917200E+001 
6015968.711 +6.7231150484E-001 +1.0800830857E+002  +1.2525476840E-001 +7.6175746178E+001  +1.1623783993E-001 +6.2721264404E+001  +1.5921593562E+000 +6.9884657810E+001 
6141113.892 +8.3499399266E-001 +1.0267404156E+002  +1.8828976546E-001 +8.5655546748E+001  +1.8184520760E-001 +6.0278554804E+001  +2.2781694755E+000 +6.5923275874E+001 
6266259.074 +7.6564175345E-001 +1.0364317619E+002  +1.6201578585E-001 +5.6237246640E+001  +1.5600931596E-001 +3.2558059193E+001  +2.1575177647E+000 +3.4343448756E+001 
6391404.255 +1.0486317670E+000 +1.0393294746E+002  +1.3778301213E-001 +6.4074685089E+001  +1.4690604137E-001 +2.8642447062E+001  +1.6091462433E+000 +3.5453865538E+001 
6516549.437 +1.1730189952E+000 +9.0981087122E+001  +1.2527798593E-001 +4.8087034915E+001  +1.3786011224E-001 +4.2665066955E+001  +1.2126344153E+000 +2.0503800700E+001 
6641694.618 +1.4115119583E+000 +5.9823519474E+001  +1.7199182327E-001 +2.2396481605E+001  +1.5518484458E-001 +1.3545298954E+001  +1.5353669500E+000 +3.9830927430E+000 
6766839.800 +1.4956181702E+000 +6.0848185964E+001  +1.1789238740E-001 +1.7005283650E+001  +1.2620829665E-001 +2.4657543599E+001  +1.0314730328E+000 +7.6831358282E-001 
6891984.981 +1.7301495062E+000 +2.4746781683E+001  +1.5615936966E-001 +4.6116144526E+000  +1.6019344929E-001 +7.8165638619E-001  +1.3233906282E+000 +3.1247337541E+000 
7017130.163 +1.6213959325E+000 +1.3874643550E+001  +1.4455775789E-001 -6.8144281210E+000  +1.3854062486E-001 -7.0988355917E+000  +1.3389284703E+000 -7.6751933893E-002 
7142275.344 +1.6102886419E+000 +4.4341198356E+000  +9.3061770834E-002 -6.9927264207E+000  +1.2091712726E-001 -6.3087802450E+000  +1.0010510049E+000 -1.6275220534E+001 
7267420.526 +1.5487801635E+000 +9.6975281315E+000  +9.3307217904E-002 +5.5769429417E+000  +9.5051163846E-002 +8.5019009220E+000  +1.1830183737E+000 -1.3775035992E+001 
7392565.707 +1.1225904270E+000 +5.7318571592E+000  +8.1244915288E-002 +8.8133582218E+000  +6.5591479679E-002 +4.8828301068E+000  +1.2934880342E+000 -7.3917746164E+000 
7517710.889 +1.1498629851E+000 -2.9908690034E+000  +7.6190731711E-002 -8.3036365881E-001  +7.0716698255E-002 +5.5612496488E+000  +1.0653923515E+000 -7.7099090267E+000 
7642856.070 +9.0484700677E-001 +4.3815653468E+000  +5.8613373566E-002 +1.0508288019E+001  +6.2914519078E-002 +1.1151935078E+001  +1.0053595165E+000 -5.9900328010E-001 
7768001.252 +9.0093929034E-001 +1.5499180781E+000  +6.3811263771E-002 -3.8747184409E-001  +5.9949399404E-002 +1.3583145245E+001  +9.3435797029E-001 -1.8246291457E-001 
7893146.433 +8.4816246033E-001 +7.6078400472E+000  +6.0788930671E-002 -1.6940451355E-001  +5.9342751082E-002 +6.7235412459E+000  +8.2419577352E-001 -5.6196419240E+000 
8018291.615 +8.5289742105E-001 +9.2163128739E+000  +5.5919446556E-002 +1.0366016506E+001  +5.8078821414E-002 +1.3658038770E+001  +7.8957431255E-001 -1.4732199742E-001 
8143436.796 +8.0635011881E-001 +8.0518566662E+000  +5.9848028567E-002 +4.8216646722E+000  +5.5181621387E-002 +1.3186099794E+001  +7.0267449674E-001 +2.8265830103E+000 
8268581.977 +7.3983721679E-001 +5.4224224531E+000  +5.5799294952E-002 +2.1756282876E+000  +5.1411768730E-002 +8.6915062157E+000  +6.9584556932E-001 -1.9712059872E+000 
8393727.159 +6.4974261114E-001 +8.6606272168E+000  +5.4006238045E-002 +1.6166022099E+000  +5.3462175485E-002 +1.0069410402E+001  +6.4298393831E-001 -1.1417291210E-001 
8518872.340 +6.3939213866E-001 +8.3743664922E+000  +5.0629175780E-002 -9.0994044678E-001  +4.7228718592E-002 +8.8313658064E+000  +6.2942152810E-001 -4.0428191397E+000 
8644017.522 +6.4184443804E-001 +4.7385400396E+000  +4.9107169776E-002 +5.1192488202E+000  +5.2114164241E-002 +1.1436064697E+001  +6.6861410618E-001 +2.2907439622E+000 
8769162.703 +5.7085276769E-001 +6.2901969383E+000  +5.2576644903E-002 +2.0545257518E+000  +4.9619176374E-002 +1.4324810725E+001  +6.8334312960E-001 +3.9045883107E+000 
8894307.885 +5.4132538372E-001 +4.0970210092E+000  +4.8306071837E-002 -3.3143728624E+000  +5.2337181553E-002 +1.0282710214E+001  +6.0448162317E-001 -2.2205979771E+000 
9019453.066 +5.6683788751E-001 +6.6317383356E+000  +4.5839392978E-002 -5.0791619379E+000  +5.2352303340E-002 +6.6985703624E+000  +5.4395667058E-001 -8.0492369871E-001 
9144598.248 +5.8975064684E-001 +8.5398612903E+000  +4.7613881561E-002 -1.8223012248E+000  +5.0890666203E-002 +1.6540979939E+001  +5.7985254447E-001 +7.5936283817E-001 
9269743.429 +5.2881078870E-001 +4.1952451165E-001  +4.9590853803E-002 -2.7143554866E+000  +5.0403381550E-002 +1.2857161706E+001  +6.1157545434E-001 -7.3740768489E-002 
9394888.611 +5.8461736740E-001 +3.9712098319E+000  +4.9690730704E-002 -1.7664690981E+000  +4.7885662184E-002 +1.6137257560E+001  +5.4230246834E-001 -4.3186118466E+000 
9520033.792 +5.0128586024E-001 -3.8113015349E+000  +5.1096649884E-002 -2.4465444141E+000  +5.0923788634E-002 +1.6134971604E+001  +5.1676266128E-001 -3.3745407162E+000 
9645178.974 +5.6473594769E-001 -2.2795843978E+000  +4.8049492186E-002 -3.4069076682E+000  +4.9190255745E-002 +1.4270083364E+001  +5.6684986930E-001 -2.8352810128E+000 
9770324.155 +4.6555725836E-001 +3.8647000294E-001  +5.1349783814E-002 +4.9894017466E-001  +4.9231620251E-002 +1.4000416355E+001  +5.7376455033E-001 -4.6652000979E+000 
9895469.337 +4.9487817898E-001 +5.9726639405E-001  +5.0927344348E-002 -9.7768765744E-002  +4.5506907869E-002 +1.3049755838E+001  +5.3510303523E-001 -3.4809513099E+000 
10020614.518 +4.8563725973E-001 +2.7911384049E+000  +5.0941925329E-002 -6.3769420424E-001  +5.1308384127E-002 +1.5572067533E+001  +5.0561066463E-001 -8.8344921869E+000 
10145759.700 +5.1795397721E-001 +2.1124885284E+000  +5.0972781703E-002 +1.4588215554E+000  +5.0336962515E-002 +1.5242257906E+001  +5.3686305604E-001 -4.4606414936E+000 
10270904.881 +5.0975387545E-001 +5.2024550008E+000  +4.8627797351E-002 +1.0255425224E+000  +5.1325427081E-002 +1.6053035996E+001  +5.2704290766E-001 -9.9701637655E-001 
10396050.063 +4.8108809488E-001 +2.7862098943E+000  +5.0293122282E-002 +2.9768315129E-001  +4.7349480801E-002 +1.6087292561E+001  +5.1791172591E-001 -2.9846752860E-001 
10521195.244 +4.9493140153E-001 +4.2219044707E+000  +5.0355010447E-002 +2.5479284265E+000  +5.1194618075E-002 +1.5952927650E+001  +5.4602233106E-001 -5.4825087737E+000 
10646340.426 +5.3126054621E-001 +5.7933374212E+000  +5.2415187969E-002 +2.7660432921E+000  +4.9996061801E-002 +1.8887746486E+001  +5.2331321551E-001 -4.7589761950E-001 
10771485.607 +5.2453183900E-001 +5.1915100719E+000  +5.0616153016E-002 +4.2921779470E+000  +4.9857060309E-002 +1.8174893514E+001  +5.4627533701E-001 +3.2376580588E-001 
10896630.788 +5.3898694465E-001 +8.8630261833E+000  +5.1967591107E-002 +3.1864893259E+000  +5.1229416392E-002 +1.7447479204E+001  +5.4681684943E-001 +6.3611416637E-001 
11021775.970 +5.4340474856E-001 +9.5797893211E+000  +5.1360411706E-002 +4.8647605527E+000  +5.2351730817E-002 +1.7161668226E+001  +5.5448136898E-001 +1.4623302807E+000 
11146921.151 +5.3251891312E-001 +6.9332083650E+000  +5.0915178130E-002 +3.3827096578E+000  +5.2972545825E-002 +1.5005457871E+001  +5.6950720991E-001 +2.8153539794E+000 
11272066.333 +5.4187974977E-001 +7.6463694820E+000  +5.1618956014E-002 +4.1415785217E+000  +5.0405501035E-002 +1.7405150260E+001  +5.8366913303E-001 +2.9281541878E+000 
11397211.514 +5.8369143242E-001 +3.1698905402E+000  +5.4234175254E-002 +3.4770560329E+000  +5.2407008321E-002 +1.7044810383E+001  +5.7926783776E-001 +3.8695352113E-001 
11522356.696 +5.8019590562E-001 +5.1615061589E+000  +5.6284298755E-002 +5.0722400251E+000  +5.2987562528E-002 +1.6195930741E+001  +5.7698458966E-001 +2.8562930498E+000 
11647501.877 +5.7030569204E-001 +2.4471410677E+000  +5.5732216201E-002 +5.8762696500E+000  +5.4882423308E-002 +1.3918074457E+001  +6.1085985390E-001 +8.3898305846E-001 
11772647.059 +5.9762617315E-001 +6.8991370294E+000  +5.4123772283E-002 +3.7122662620E+000  +5.4057761920E-002 +1.8247995027E+001  +6.0277152930E-001 +9.9018454834E-001 
11897792.240 +5.8408027298E-001 +6.7257325488E+000  +5.8536781661E-002 +5.7049955246E+000  +5.4933483140E-002 +1.7682090800E+001  +5.9564075783E-001 +1.9652088886E+000 
12022937.422 +6.1188505382E-001 +5.9647086463E+000  +5.4910387239E-002 +6.6786742967E+000  +5.6133726171E-002 +1.6043736369E+001  +6.1699366248E-001 +3.2255416238E+000 
12148082.603 +6.3633198579E-001 +5.6056878672E+000  +5.6133806957E-002 +6.8129682505E+000  +5.6986989146E-002 +1.7202796911E+001  +6.2959254939E-001 +2.7784152311E-001 
12273227.785 +6.4760376509E-001 +3.1302949263E+000  +5.8189130135E-002 +7.7326199068E+000  +5.7825821809E-002 +1.5155129465E+001  +6.6734917657E-001 +1.2711392085E+000 
12398372.966 +6.3432591325E-001 +5.6354073161E+000  +5.6861438087E-002 +7.2553700032E+000  +5.6713956175E-002 +1.3924063983E+001  +6.5172585422E-001 +1.4519007681E+000 
12523518.148 +6.6074246507E-001 +1.8714874005E+000  +6.0289233922E-002 +7.6581968055E+000  +5.7954373466E-002 +1.3601029180E+001  +6.5088352437E-001 +5.3860071213E-001 
12648663.329 +6.8215105285E-001 +4.3766745740E+000  +5.9568159916E-002 +7.8838078718E+000  +5.8762730267E-002 +1.4328199373E+001  +7.0464768021E-001 -3.8169839156E-001 
12773808.511 +6.9359898777E-001 +2.1776773229E+000  +6.1265033683E-002 +8.4374597498E+000  +5.8665544862E-002 +1.3743029130E+001  +7.0557327170E-001 -3.1961865374E-001 
12898953.692 +7.1798855379E-001 -2.0888462840E-001  +6.0222946475E-002 +9.9317956741E+000  +5.9286978618E-002 +1.4563655406E+001  +7.2499539599E-001 -1.2008369047E+000 
13024098.874 +7.3206620653E-001 +1.0307107108E-001  +6.2238368252E-002 +9.3202533702E+000  +6.3068646169E-002 +1.3479215501E+001  +7.3387295564E-001 -2.1317680531E+000 
13149244.055 +7.5044928020E-001 +5.1452875846E-001  +6.2353895735E-002 +9.5545133906E+000  +6.2005233207E-002 +1.1604574670E+001  +7.5276192118E-001 -1.3193917770E+000 
13274389.237 +7.4133235638E-001 -1.4726587375E+000  +6.4309070984E-002 +8.8206575128E+000  +6.2640840674E-002 +1.2266212026E+001  +7.7463984355E-001 -1.3343020061E+000 
13399534.418 +7.6058716076E-001 +6.5319388948E-003  +6.4141949454E-002 +7.6524277802E+000  +6.2470387748E-002 +1.2837358669E+001  +7.9850090791E-001 -2.0893464510E+000 
13524679.599 +7.7449846333E-001 -1.6923825075E+000  +6.3886916872E-002 +8.5985938010E+000  +6.2792439418E-002 +1.0253449799E+001  +8.0253174347E-001 -3.4290801278E+000 
13649824.781 +7.9070794676E-001 -3.9191899134E+000  +6.3149799776E-002 +7.7601502653E+000  +6.3258749329E-002 +1.1858754114E+001  +8.0812297257E-001 -2.5485897084E+000 
13774969.962 +8.2355507275E-001 -2.8534181231E-001  +6.4083579939E-002 +8.4362293253E+000  +6.3975214078E-002 +9.6647761657E+000  +8.2332190004E-001 -2.7128380421E+000 
13900115.144 +8.4238625843E-001 -1.8347047389E+000  +6.5694414347E-002 +8.9649469867E+000  +6.4689975459E-002 +1.0083269267E+001  +8.4027410190E-001 -3.6920318856E+000 
14025260.325 +8.5025913207E-001 -2.7215037132E+000  +6.4993978556E-002 +8.0398344468E+000  +6.3728052125E-002 +8.4449086085E+000  +8.6267898812E-001 -3.1833873896E+000 
14150405.507 +8.6367924944E-001 -4.5106754814E+000  +6.6514853267E-002 +8.0062661653E+000  +6.5825140182E-002 +9.2696656162E+000  +8.6576425375E-001 -3.9868276619E+000 
14275550.688 +8.8765261912E-001 -4.6656238627E+000  +6.7023613791E-002 +8.3185856651E+000  +6.5225359618E-002 +1.0312026796E+001  +9.0215224363E-001 -4.8475538805E+000 
14400695.870 +8.9568785808E-001 -5.1664434110E+000  +6.7349592522E-002 +7.9772604260E+000  +6.6188989402E-002 +9.0642635850E+000  +9.1709588837E-001 -4.9694103530E+000 
