!  2-Port S-parameters saved by WinCal
! VAR MeasName=S-Parameters (CALIBRATED_DATA) read from VNA (P5004A)
! VAR MeasDate=27/08/2024 17:18:14
! VAR NAME=S2_r3c9_RESET3_9k-100M_3
! VAR FILENAME=S2_r3c9_RESET3_9k-100M_3.S2P
! VAR DATE=27/08/2024 17:18:15
! VAR PHYS_PORTS=1,2
! VAR ObjTypeName=DATASET
! VAR IndexType=Frequency
!
# Hz S MA R 50
9000.000 +8.1516699410E-002 -1.5327879550E+002  +7.2015767944E-003 +4.1098315574E+001  +1.2683343004E-002 +7.1750637220E+001  +2.5791651226E-001 -1.5048756752E+002 
134145.181 +1.1051914963E-001 +1.6994932259E+002  +3.1581554303E-004 +1.1378001150E+002  +4.2686436622E-004 -7.7502044858E+001  +2.3653809615E-001 -1.7038337524E+002 
259290.363 +1.1244065016E-001 +1.6957859129E+002  +8.0610059104E-004 +1.3104847549E+001  +8.0844322814E-004 +1.0348734399E+002  +2.3898418581E-001 -1.6952380322E+002 
384435.544 +1.1281753651E-001 +1.6998789826E+002  +4.3358844560E-004 -1.1780411112E+002  +3.9501420338E-004 +1.7870611317E+002  +2.4310269786E-001 -1.6980207128E+002 
509580.726 +1.1540802852E-001 +1.7085572365E+002  +1.0452386184E-003 +3.9097672782E+001  +1.2794946954E-003 -1.0110794750E+002  +2.5235864412E-001 -1.6286951930E+002 
634725.907 +1.1812609371E-001 +1.7170778112E+002  +3.7486387249E-004 -1.6091555535E+002  +1.0115495893E-003 +1.5954974122E+002  +2.4798787215E-001 -1.6644769307E+002 
759871.089 +1.1795424770E-001 +1.7098360135E+002  +4.0229514893E-004 -1.3335788366E+002  +1.4800211767E-004 -1.1202616916E+002  +2.3778769612E-001 -1.6363724662E+002 
885016.270 +1.1750887138E-001 +1.7021898345E+002  +8.9557638225E-004 -2.5378999492E+001  +1.9980224178E-003 +6.9955310161E+001  +2.3797415518E-001 -1.6454274656E+002 
1010161.452 +1.1848183595E-001 +1.7124688967E+002  +5.9780506263E-004 +8.4198478528E+001  +1.3655059038E-003 +1.5462798981E+002  +1.9374743089E-001 -1.5709045267E+002 
1135306.633 +1.1924178791E-001 +1.6943333118E+002  +2.1352307375E-003 +4.2521753759E+001  +4.2245634751E-003 -5.5289339788E+001  +1.6391568612E-001 -1.5455965628E+002 
1260451.815 +1.1757082955E-001 +1.7086301300E+002  +2.2097464847E-003 -3.1551427594E+001  +1.6588454535E-003 +3.0963782736E+001  +2.1501754160E-001 -1.6341080154E+002 
1385596.996 +1.2878256883E-001 +1.7263884462E+002  +1.2948688531E-003 +1.3333273078E+002  +7.7943864851E-004 -4.4242840517E+001  +2.6833573980E-001 -1.5920029956E+002 
1510742.178 +1.2850474035E-001 +1.7197988688E+002  +3.2530101492E-004 -8.8903495425E+001  +6.6842180728E-004 -1.4154082345E+002  +2.6039789752E-001 -1.5752723203E+002 
1635887.359 +1.3151145662E-001 +1.7141647202E+002  +1.0324119220E-003 -5.3764542768E+001  +1.0170723959E-003 -8.5120795246E+001  +2.4122472063E-001 -1.5876970728E+002 
1761032.541 +1.2794037717E-001 +1.7029080341E+002  +4.3630496762E-004 -3.8560396403E+001  +2.7175178487E-003 -5.3366669229E+001  +1.9613714903E-001 -1.7127917326E+002 
1886177.722 +1.3192441606E-001 +1.6796792221E+002  +2.5426002017E-003 +6.5843590604E+000  +9.0423256063E-004 -1.4616211516E+002  +2.0095449850E-001 -1.5088298688E+002 
2011322.904 +1.3307652422E-001 +1.6716455030E+002  +1.1063554293E-003 -1.4835643574E+002  +4.6859605672E-004 +2.3796175290E+001  +1.9213881119E-001 -1.7212216680E+002 
2136468.085 +1.2936818362E-001 +1.6462708568E+002  +3.7055517690E-003 +1.2923282533E+002  +2.9514394922E-003 +1.6516367819E+002  +1.7954365122E-001 -1.7629581558E+002 
2261613.267 +1.3443088146E-001 +1.6536404136E+002  +2.7455317734E-003 +5.3761004895E+001  +4.6237671370E-003 -1.1292687899E+002  +1.6432645093E-001 +1.7053420567E+002 
2386758.448 +1.4509294004E-001 +1.6542759834E+002  +1.5979891081E-003 +7.6158761527E+001  +1.8775113223E-003 +9.7977335851E+000  +2.3508280426E-001 -1.7973249882E+002 
2511903.630 +1.2568278017E-001 +1.6962004452E+002  +4.3192113162E-003 -1.3585454267E+002  +4.8332025975E-003 -2.0085476712E+001  +1.4890907132E-001 +1.7834380884E+002 
2637048.811 +1.1822729735E-001 +1.5618699093E+002  +2.5970134833E-001 +7.4311759285E+001  +4.0218090651E-002 -1.2098586134E+002  +6.6851819011E+000 -1.4883963181E+001 
2762193.992 +1.1412756571E-001 +1.7094832622E+002  +1.6817710356E-001 +4.6103316991E-001  +2.0972308200E-001 -5.2715663920E+001  +5.8346264038E+000 +9.6017284113E+000 
2887339.174 +1.2327287203E-001 +1.7051098938E+002  +9.8219180472E-003 -2.4629083070E+001  +5.4355416009E-003 +1.4100014671E+002  +3.5552009126E-001 -1.1620260631E+002 
3012484.355 +1.2872968709E-001 +1.7319211941E+002  +5.4470474419E-003 -1.4527449737E+002  +8.3361369814E-003 +1.3988712188E+002  +2.8462069856E-001 -9.5717499970E+001 
3137629.537 +1.1380516111E-001 +1.6900608705E+002  +1.3893992414E-002 -1.8804426852E+001  +8.0691974164E-003 -6.9824437924E+000  +4.4485622414E-001 -2.4476636546E+001 
3262774.718 +1.3848285644E-001 +1.6637653340E+002  +4.8249646197E-002 +9.2316481083E+000  +2.9201758523E-002 -1.4062521805E+002  +1.2371430907E+000 -4.6155951261E+000 
3387919.900 +1.4378574483E-001 +1.6406742405E+002  +9.9359026259E-003 +4.4966784910E+000  +1.3931271241E-002 -1.2713173050E+002  +5.6586445362E-001 +8.1988355432E+000 
3513065.081 +1.2455288934E-001 +1.4239000778E+002  +1.0599154290E-002 +4.4959917418E+001  +2.8631710032E-003 -1.1797136362E+001  +3.4423170889E-001 +1.0750420819E+002 
3638210.263 +1.7664361000E-001 +1.4872777492E+002  +1.7184753490E-002 -1.6337421804E+001  +1.9801548844E-002 -1.1072048446E+002  +1.7870506698E+000 -5.8371100255E+001 
3763355.444 +1.7465547368E-001 +1.3369077010E+002  +4.0780832750E-002 +5.3605762871E+001  +5.3409576919E-002 +9.2271357432E+001  +2.2720316602E+000 +2.9984476050E+001 
3888500.626 +1.4538491664E-001 +1.4349197733E+002  +8.0684341664E-003 +1.4876254018E+002  +2.7928835244E-004 -1.6759879075E+002  +4.5596557216E-001 +1.5777096289E+002 
4013645.807 +1.7207435773E-001 +1.5138246847E+002  +4.7973662194E-003 +1.0720414319E+002  +2.8601613944E-003 +4.9590381020E+001  +3.6613591362E-001 +1.5059672134E+002 
4138790.989 +1.7739506667E-001 +1.4891470192E+002  +8.1379796643E-003 +8.7076667032E+001  +2.6160646034E-002 +5.3920950045E+001  +7.4881579477E-001 +1.1335001979E+002 
4263936.170 +1.6254988068E-001 +1.4056693303E+002  +2.4306276604E-002 -9.3605660306E+001  +4.1457600962E-002 +4.7936669215E+000  +1.8661999998E+000 +1.0612655848E+002 
4389081.352 +2.1198335562E-001 +1.4625675515E+002  +1.8015446708E-002 +7.0047595429E+001  +1.5796397131E-002 -1.1793145037E+002  +5.0591007019E-001 +9.9736289655E+001 
4514226.533 +2.1207934430E-001 +1.3694201093E+002  +4.0249743525E-002 +6.9999849671E+001  +2.3569031165E-002 -1.7679719293E+001  +1.1477022740E+000 +4.2539121771E+001 
4639371.715 +2.5930005051E-001 +1.3442309309E+002  +4.4809780711E-002 +1.3778542097E+002  +7.7347277355E-003 -3.6946212238E+001  +9.5623693336E-001 +1.1556093797E+002 
4764516.896 +3.1013081004E-001 +1.3101263743E+002  +5.5336054425E-002 +1.5530776489E+002  +6.8501383993E-002 +4.4515126424E+001  +3.1278998232E+000 +6.5055544127E+001 
4889662.078 +3.8857112552E-001 +1.3381128997E+002  +5.3563397630E-002 -7.5660068683E+001  +6.1756534951E-002 -1.2268101262E+002  +4.7339359463E+000 -1.1807371010E+002 
5014807.259 +3.2811522022E-001 +1.2370544725E+002  +2.7682879136E-002 +6.6278737195E+001  +6.5343770370E-002 -7.6912601306E+001  +3.2030127827E+000 -9.4275772190E+001 
5139952.441 +3.8817126124E-001 +1.3692168164E+002  +2.0195991814E-002 +1.7913257853E+002  +7.2895844012E-002 -1.4749242750E+002  +4.7602711088E+000 +1.4200129236E+002 
5265097.622 +3.9428522663E-001 +1.3320733314E+002  +1.3829386006E-001 +1.1309562044E+002  +1.2936436921E-001 +4.2984936772E+001  +7.0221838702E+000 +8.3029137250E+001 
5390242.804 +4.3692486001E-001 +1.2793424469E+002  +4.2726578243E-002 +1.5768521759E+002  +3.0698017289E-002 +1.1070340113E+002  +2.1344733348E+000 +1.2035943877E+002 
5515387.985 +4.3276968011E-001 +1.3655975736E+002  +1.2740812856E-002 +1.2164003897E+002  +1.9300216718E-002 +4.9747373386E+001  +1.4658607734E+000 +1.0252955620E+002 
5640533.166 +4.6167470748E-001 +1.2556861376E+002  +3.7380427023E-002 +1.1462836518E+002  +3.0703860864E-002 +4.9101613980E+001  +3.6007449119E+000 +8.3757848121E+001 
5765678.348 +5.1617065054E-001 +1.2877959480E+002  +8.0628634669E-003 -1.2281000032E+002  +2.1993133747E-002 +5.7289766418E+001  +1.4919831149E+000 +6.3857450083E+001 
5890823.529 +5.5364580791E-001 +1.2559621097E+002  +2.3514822784E-002 +9.3171079796E+001  +3.3462438961E-002 +1.9590905737E+001  +1.5030801205E+000 +3.9805642074E+001 
6015968.711 +6.5630980769E-001 +1.2023428750E+002  +2.7874161454E-002 +9.4290363340E+001  +4.1381219698E-002 +7.0977092400E+001  +1.5785598809E+000 +7.1961948650E+001 
6141113.892 +6.4598222742E-001 +1.1615609038E+002  +1.5417624291E-002 +5.5386991997E+001  +3.6258012901E-002 +6.9562611171E+001  +2.0129984352E+000 +2.8203127766E+001 
6266259.074 +8.8081703990E-001 +1.1231098715E+002  +2.3470377994E-002 +7.9666367682E+001  +4.0401838348E-002 +5.7501677903E+001  +2.6321430176E+000 +1.6965443164E+001 
6391404.255 +8.7856741444E-001 +1.0450386830E+002  +1.4382925975E-002 +6.1672182418E+001  +1.5422104355E-002 +5.5979813247E+001  +1.3179644364E+000 +1.0118952313E+001 
6516549.437 +1.2271087225E+000 +7.7444023994E+001  +5.1479194023E-002 +5.8392127526E+001  +3.5455629792E-002 +1.2174016434E+001  +1.6210176723E+000 +6.6917516951E+000 
6641694.618 +1.9055513032E+000 +7.0520932792E+001  +3.5291162114E-002 +3.3452525594E+001  +5.1820072047E-002 +6.4916792535E+001  +1.5082782255E+000 -3.2461343483E+000 
6766839.800 +1.4206150975E+000 +4.7819652002E+001  +4.4013936471E-002 +1.4380531247E+001  +4.8494559096E-002 +3.9106961303E+001  +1.2862982159E+000 +7.0641750717E+000 
6891984.981 +1.9063267133E+000 +4.0102181206E+001  +5.0236921775E-002 +9.5098351049E+000  +3.5949741402E-002 +2.3025565366E+001  +1.3561240002E+000 -7.4358060572E+000 
7017130.163 +1.8756424631E+000 +1.3785845360E+001  +4.2033189747E-002 +3.0181077778E+001  +6.0413738052E-002 -1.6321111009E+001  +1.2976977658E+000 -1.0299922031E+001 
7142275.344 +1.8999945410E+000 +5.3559925919E+000  +4.0829655421E-002 +2.0151571699E+001  +1.2740970765E-002 -2.0367120749E+001  +1.3422461776E+000 -1.6771906875E+001 
7267420.526 +1.7856134760E+000 +8.5967108348E+000  +2.9122501692E-002 +2.1750501292E+001  +2.5489382279E-002 +1.1820242683E+001  +1.4243556021E+000 -1.5253974531E+001 
7392565.707 +1.4619017505E+000 +4.8008668941E+000  +1.3378268509E-002 +3.8501471624E+001  +1.9182726119E-002 +4.9072535765E+001  +1.1681594738E+000 -3.1619185159E+000 
7517710.889 +1.2413361477E+000 +1.1063828832E+000  +1.2841964606E-002 +7.3749722557E+000  +2.1327704881E-002 +2.5252784091E+001  +1.2908004283E+000 -1.0425628101E+001 
7642856.070 +1.0082215911E+000 +8.0156421479E+000  +1.7694672304E-002 +1.7111551216E+001  +1.3117042480E-002 -2.8343804166E+000  +1.0543287881E+000 -3.6735947031E+000 
7768001.252 +1.0154842657E+000 +2.3793946253E+000  +1.3801501381E-002 +6.5011950550E+000  +1.0065565126E-002 +3.7827529422E+001  +9.2662710779E-001 -4.0215154287E+000 
7893146.433 +8.0664683700E-001 +3.9524432372E-002  +9.5428869789E-003 +2.3705194897E+001  +1.7550263820E-002 +3.2016428017E+001  +9.1937054443E-001 -3.1550203022E+000 
8018291.615 +9.1717645490E-001 +6.5655975222E+000  +1.2743490092E-002 +9.2734346411E+000  +1.5850243053E-002 +4.3753894739E+001  +8.4936193547E-001 +2.4346830446E-001 
8143436.796 +8.0899641456E-001 +2.1577375054E+000  +1.5250209051E-002 +7.3072526221E+000  +1.6159249465E-002 +3.5005572992E+001  +8.6691134223E-001 +1.0835619508E+000 
8268581.977 +7.8497109259E-001 +7.4311759031E+000  +1.5553318367E-002 +8.4145890308E+000  +6.6290906554E-003 +2.6986251236E+001  +8.9458919798E-001 -6.1769974813E-001 
8393727.159 +6.6953382922E-001 +1.0532292760E+001  +1.2969663046E-002 +7.2002769530E+000  +1.1038593312E-002 +6.0094978371E+000  +7.5003492324E-001 +3.0753256796E+000 
8518872.340 +6.5766734288E-001 +9.7287006536E+000  +1.3981536404E-002 -1.5989374942E+000  +1.3084305495E-002 +5.0253631906E+001  +6.9317617270E-001 +3.1949775789E+000 
8644017.522 +7.3160857629E-001 +6.9024146055E+000  +1.1323065347E-002 +1.0757145631E+001  +1.2936205082E-002 +5.7558200990E+000  +5.9712845307E-001 -8.4637954912E-001 
8769162.703 +5.9946326289E-001 +6.7636964468E+000  +1.1332016329E-002 +1.7218879077E+001  +1.5421517688E-002 +3.1023510145E+001  +6.1922215632E-001 -3.3369000209E+000 
8894307.885 +5.9451752491E-001 +6.7449790751E+000  +1.4998470364E-002 +1.1241603837E+001  +9.9941769213E-003 +4.0818095116E+001  +6.1817735642E-001 -2.4268600399E-001 
9019453.066 +5.6783450976E-001 +3.4055347431E+000  +1.5779786175E-002 +1.8622852902E+001  +1.0899942526E-002 +1.5604277668E+001  +6.3074177786E-001 -1.8939779527E+000 
9144598.248 +5.8738326213E-001 +6.2622244552E+000  +1.2683234783E-002 +7.3283198064E+000  +1.1468978711E-002 +4.7555698446E+001  +6.5997581619E-001 -5.5036465418E-001 
9269743.429 +5.7278602072E-001 -3.6199010311E-001  +1.0784190265E-002 +1.9696389323E+001  +1.2387417849E-002 +2.4324571886E+001  +5.7021422496E-001 -1.7366652239E+000 
9394888.611 +5.4078301877E-001 +2.3607867963E+000  +1.0166953215E-002 +2.0341321100E+001  +1.5203386836E-002 +3.0312340806E+001  +6.0452839014E-001 -4.5288554614E+000 
9520033.792 +5.7456901613E-001 -3.0919086757E+000  +1.0574585725E-002 +7.2751541383E+000  +8.6155297000E-003 +1.7941815499E+001  +6.1166495544E-001 -4.6680583167E+000 
9645178.974 +5.2263621217E-001 -2.0223567918E-001  +1.0588273488E-002 +3.9815057272E+000  +1.3363570014E-002 +2.3358835947E+001  +5.9868218525E-001 -4.3925234247E+000 
9770324.155 +5.4838916760E-001 +3.2901451239E-002  +1.4738508571E-002 +3.1554910245E+001  +1.0992034704E-002 +2.6953150651E+001  +5.7767003428E-001 -4.4660160163E+000 
9895469.337 +5.5088693651E-001 -3.2218839408E-001  +1.2929045500E-002 +9.1645837759E+000  +9.9949109074E-003 +4.1208012086E+001  +5.3457378182E-001 -8.2351886413E+000 
10020614.518 +5.2631122840E-001 -3.4338341316E+000  +1.2954821940E-002 +9.6182879588E+000  +1.6112149384E-002 +4.1043130302E+001  +5.7509411162E-001 -4.4259063394E+000 
10145759.700 +5.1977174591E-001 +2.6233431464E+000  +1.0865250377E-002 +1.6889025009E+001  +1.1579028968E-002 +2.9726665761E+001  +5.7842809009E-001 -3.8112570619E+000 
10270904.881 +5.7354518827E-001 +5.2654298560E+000  +1.2853812896E-002 +2.5787353466E+001  +1.4694035575E-002 +3.3941747179E+001  +5.8867189444E-001 -1.7519253789E+000 
10396050.063 +5.0998787122E-001 +4.6135224770E+000  +1.0695442033E-002 +1.8571234496E+001  +1.2553649282E-002 +2.9098525708E+001  +5.5552440190E-001 +1.4789750937E+000 
10521195.244 +5.5691646218E-001 +5.2254203701E+000  +1.5555960221E-002 +9.6243377755E+000  +1.2824424461E-002 +2.3418224811E+001  +5.8834628388E-001 -1.6815367022E+000 
10646340.426 +5.1336238449E-001 +6.8455257901E+000  +1.0665177418E-002 +2.4767658446E+001  +1.2149456657E-002 +4.4084713863E+001  +5.9025697709E-001 +6.1517865503E-001 
10771485.607 +5.5661171266E-001 +2.5615343198E+000  +1.4643076606E-002 +1.5793597173E+001  +1.2120142441E-002 +4.0311742685E+001  +5.7242817536E-001 +5.1975130387E-001 
10896630.788 +5.5268795385E-001 +6.8159710954E+000  +1.4033748499E-002 +1.7042988473E+001  +1.2217169889E-002 +4.0251361351E+001  +5.7949119982E-001 -1.0868242952E+000 
11021775.970 +5.7390111742E-001 +6.8339731482E+000  +1.4532142653E-002 +2.0283362196E+001  +1.2571664702E-002 +2.9878862666E+001  +5.8666932476E-001 -8.1836615761E-001 
11146921.151 +5.8908567412E-001 +1.0399385581E+001  +1.2500941365E-002 +2.1059689045E+001  +1.4165525927E-002 +2.9366161775E+001  +6.1316145434E-001 +1.9620586791E+000 
11272066.333 +6.2400800056E-001 +6.7139053287E+000  +1.1968601876E-002 +1.1575986902E+001  +1.6051773440E-002 +4.4164419241E+001  +6.0507061664E-001 +2.9643386913E+000 
11397211.514 +6.0239941934E-001 +5.1321600694E+000  +1.3549018947E-002 +2.2820549714E+001  +1.3229235204E-002 +2.7830297195E+001  +6.2254689811E-001 +1.0559603901E+000 
11522356.696 +5.7799413394E-001 +4.4767006947E+000  +1.3416837980E-002 +2.6518991561E+001  +1.0731330662E-002 +3.9197208910E+001  +6.1172832100E-001 +1.7967900190E+000 
11647501.877 +5.8820417047E-001 +5.3646562051E+000  +1.4251617206E-002 +2.8120335788E+001  +1.6509393816E-002 +3.9264828255E+001  +6.4276996691E-001 +4.5802775828E-001 
11772647.059 +6.3842308016E-001 +6.8313602568E+000  +1.3987606418E-002 +2.4874716197E+001  +1.6358888985E-002 +2.9148416552E+001  +6.6351191550E-001 -9.4145148202E-001 
11897792.240 +6.1166044229E-001 +5.2323785599E+000  +1.5477134380E-002 +2.4783164725E+001  +1.3524608662E-002 +2.7270886798E+001  +6.8659595188E-001 +3.0086331986E+000 
12022937.422 +6.5510081426E-001 +2.7631966901E+000  +1.2829078787E-002 +2.0946521836E+001  +1.3030597479E-002 +3.6579181947E+001  +6.5995885620E-001 +1.2195949072E+000 
12148082.603 +6.4104897991E-001 +4.7078760117E+000  +1.3895252823E-002 +3.0475257001E+001  +1.5028522377E-002 +2.6995168035E+001  +6.9826495419E-001 +2.0082519192E-001 
12273227.785 +6.9844803083E-001 +3.3116048788E+000  +1.4893759201E-002 +2.5702798387E+001  +1.5570022230E-002 +2.9130574916E+001  +6.8427752464E-001 +9.5773734759E-001 
12398372.966 +7.1184990444E-001 +4.6153007077E+000  +1.4444958883E-002 +2.6772931557E+001  +1.3264942936E-002 +2.9669639728E+001  +6.9120387671E-001 +1.7604563678E-001 
12523518.148 +7.0844157050E-001 +5.2329544857E+000  +1.3064762421E-002 +2.3454413113E+001  +1.6256011640E-002 +3.1207967503E+001  +7.3343362681E-001 -1.0277027995E+000 
12648663.329 +7.3627909493E-001 +2.4367127301E+000  +1.4637032831E-002 +2.7897040378E+001  +1.2874649470E-002 +3.0900426303E+001  +7.4237905598E-001 -2.5851390190E-001 
12773808.511 +7.2906694068E-001 +2.1000827409E+000  +1.5387866343E-002 +2.3292987275E+001  +1.5484594897E-002 +3.1327802743E+001  +7.3798016669E-001 +6.2374196672E-001 
12898953.692 +7.7606543598E-001 +8.2353634957E-002  +1.6523794763E-002 +3.1760991838E+001  +1.4021863817E-002 +2.5331307033E+001  +7.7849971031E-001 -1.0632360736E+000 
13024098.874 +7.6020312712E-001 +1.3874109736E+000  +1.5657962845E-002 +2.8229920326E+001  +1.6739852991E-002 +2.6973461052E+001  +7.9047567513E-001 -2.8056686426E+000 
13149244.055 +7.8685520792E-001 -8.9589558420E-001  +1.5841102372E-002 +2.5464160128E+001  +1.4886803432E-002 +2.9497526956E+001  +7.8672690055E-001 -2.9380033347E+000 
13274389.237 +7.9950313796E-001 -1.2478057000E+000  +1.6164127488E-002 +2.6269643700E+001  +1.4852861601E-002 +3.1122876920E+001  +8.1652022735E-001 -1.3190778631E+000 
13399534.418 +8.2927223369E-001 -1.4052576210E+000  +1.6815240865E-002 +2.7213276947E+001  +1.5529404642E-002 +3.4228806745E+001  +8.3559740289E-001 -2.2145319340E+000 
13524679.599 +8.5279287438E-001 -1.1232346784E+000  +1.7422844575E-002 +2.4831987237E+001  +1.6660931775E-002 +3.4097291393E+001  +8.4989768963E-001 -1.5591517756E+000 
13649824.781 +8.5155450264E-001 -1.2567791597E+000  +1.5163283040E-002 +2.9317018380E+001  +1.7449129957E-002 +2.9529373763E+001  +8.5743499984E-001 -2.5744527813E+000 
13774969.962 +8.7577390700E-001 -2.1108332630E+000  +1.6207814788E-002 +3.0328909837E+001  +1.7011361349E-002 +2.7520199650E+001  +8.9707033192E-001 -3.0491882425E+000 
13900115.144 +8.8495182768E-001 -3.0795856387E+000  +1.7631331073E-002 +2.7401925657E+001  +1.6597579291E-002 +2.7637077891E+001  +9.0178829253E-001 -4.1804793638E+000 
14025260.325 +8.9871563529E-001 -2.4735925136E+000  +1.9014828714E-002 +2.8529073825E+001  +1.6391700887E-002 +2.9621097570E+001  +9.1553588899E-001 -4.7698235179E+000 
14150405.507 +9.3854906819E-001 -4.3518515488E+000  +1.7254186447E-002 +2.7172013260E+001  +1.6665976208E-002 +3.4360369012E+001  +9.2655294506E-001 -3.5906798762E+000 
14275550.688 +9.4363701056E-001 -3.1116959716E+000  +1.9000433667E-002 +3.3602572473E+001  +1.7271343878E-002 +2.4338165500E+001  +9.6883300641E-001 -2.8073642711E+000 
14400695.870 +9.5086969457E-001 -4.5972170030E+000  +1.8537762631E-002 +2.6534889690E+001  +1.7467181364E-002 +2.9876939039E+001  +9.5664745188E-001 -3.6889672261E+000 
