!  2-Port S-parameters saved by WinCal
! VAR MeasName=S-Parameters (CALIBRATED_DATA) read from VNA (P5004A)
! VAR MeasDate=27/08/2024 17:18:00
! VAR NAME=S2_r3c9_RESET3_9k-100M_1
! VAR FILENAME=S2_r3c9_RESET3_9k-100M_1.S2P
! VAR DATE=27/08/2024 17:18:00
! VAR PHYS_PORTS=1,2
! VAR ObjTypeName=DATASET
! VAR IndexType=Frequency
!
# Hz S MA R 50
9000.000 +6.5890355728E-002 -1.7888422963E+002  +5.0236075332E-003 -1.0948373046E+002  +1.3409466831E-002 -8.5358670444E+001  +2.4854594117E-001 -1.3186448385E+002 
134145.181 +1.1070587181E-001 +1.6964404955E+002  +4.8721614928E-004 -1.2118858496E+002  +3.1575387220E-004 +1.1186329990E+002  +2.3682319431E-001 -1.7034095980E+002 
259290.363 +1.1244620329E-001 +1.6933291913E+002  +6.4252185392E-004 +2.2906936895E+001  +1.1634338972E-003 +1.1297302828E+002  +2.3599460781E-001 -1.6787645000E+002 
384435.544 +1.1382232982E-001 +1.6952261811E+002  +3.2535158463E-004 -4.7851711247E+001  +7.8992818746E-004 +1.6526025355E+002  +2.4081796801E-001 -1.6820401058E+002 
509580.726 +1.1438854170E-001 +1.7007047767E+002  +6.9040770698E-004 -9.9321683303E+001  +8.8166482492E-004 -9.7228033115E+001  +2.4352744036E-001 -1.6740927444E+002 
634725.907 +1.1639920231E-001 +1.7139496747E+002  +1.2678264661E-003 +1.6562757239E+002  +1.6599728500E-004 -1.7210377690E+002  +2.4757232394E-001 -1.6641026789E+002 
759871.089 +1.1774744650E-001 +1.7213870422E+002  +6.6867509015E-004 -1.4658280715E+002  +1.3124629932E-003 -9.4297528153E+001  +2.5115009981E-001 -1.6537284460E+002 
885016.270 +1.1840184132E-001 +1.6990560469E+002  +6.2398565236E-004 -7.5846804751E+001  +2.9351372417E-004 -4.4152739185E+000  +2.3810150503E-001 -1.6644514812E+002 
1010161.452 +1.1689246580E-001 +1.7087514488E+002  +7.9688672558E-004 +1.3838940965E+002  +3.0077482676E-003 +9.8906156336E+001  +1.4494777984E-001 -1.5742886254E+002 
1135306.633 +1.1675659836E-001 +1.6945338982E+002  +5.1702643561E-004 -1.7200082646E+002  +1.6208423124E-003 -1.2266390068E+002  +1.8591318211E-001 -1.7179760509E+002 
1260451.815 +1.2170643150E-001 +1.7256194857E+002  +3.5218744855E-005 -5.5242843610E+000  +5.3320052967E-004 -5.5263652588E+001  +2.1061388888E-001 -1.6394524439E+002 
1385596.996 +1.2639827623E-001 +1.7182802800E+002  +7.8221733373E-004 +4.0121800253E+001  +1.0206975022E-003 +8.1111784108E+001  +2.6301374746E-001 -1.5796748843E+002 
1510742.178 +1.2829723354E-001 +1.7178465680E+002  +1.2566163851E-003 -1.0996282046E+002  +1.0475124176E-003 -9.1104533748E+000  +2.5670058295E-001 -1.5920035625E+002 
1635887.359 +1.2564034443E-001 +1.7175333371E+002  +2.2654776587E-003 -3.7155819136E+001  +9.1241499824E-004 +1.2577375670E+002  +2.4161576320E-001 -1.5524250248E+002 
1761032.541 +1.2938140859E-001 +1.6996568397E+002  +8.9746344202E-004 +6.1332705959E+001  +5.6728360438E-004 -1.7350330736E+002  +2.2766965785E-001 -1.6145838258E+002 
1886177.722 +1.3124145620E-001 +1.6739142148E+002  +3.7082372190E-003 +3.8427882237E+001  +3.2444782932E-003 -6.7200808186E+000  +1.7135508373E-001 -1.6272829947E+002 
2011322.904 +1.3151970971E-001 +1.6596598122E+002  +1.2962329751E-003 +9.2921995907E+001  +5.3149012325E-004 +1.3219100329E+002  +2.1021329791E-001 -1.6937370096E+002 
2136468.085 +1.3191000989E-001 +1.6522689266E+002  +2.2109490397E-003 +9.6776140715E+001  +2.9665103471E-003 +3.8228116326E+001  +2.4658224369E-001 +1.5995716569E+002 
2261613.267 +1.2197054933E-001 +1.6517577307E+002  +1.7873144309E-003 -5.8564346920E+001  +4.5306897357E-003 -8.4463193551E+001  +1.2756731277E-001 -1.7741559757E+002 
2386758.448 +1.3966914154E-001 +1.6581073048E+002  +1.3859069074E-003 -3.6863028803E+001  +3.6221696869E-003 -9.6313086623E+001  +1.6491972998E-001 -1.7826263909E+002 
2511903.630 +1.2896899395E-001 +1.6390602351E+002  +5.7236428225E-003 +2.5085226234E+001  +1.2967266261E-003 +5.1247138905E+000  +2.1685665755E-001 +1.6048824050E+002 
2637048.811 +1.2618285411E-001 +1.6550978315E+002  +3.4122709847E-003 +7.5154012417E+001  +5.1998743333E-003 -4.4828250502E+001  +2.7193468389E-001 +1.5360043862E+002 
2762193.992 +1.0455328093E-001 +1.7327365776E+002  +1.3233171326E-002 +3.9760011927E+000  +2.0745429274E-002 -3.6858150013E+001  +2.4596909157E-001 +7.0306490313E+001 
2887339.174 +1.3198552484E-001 +1.7940497480E+002  +1.6863137062E-002 -4.3130361783E+001  +2.7947218489E-002 -1.0882853145E+002  +2.7964799887E-001 +2.0046628005E+001 
3012484.355 +1.3817212838E-001 +1.7735541738E+002  +1.2658333806E-002 -1.1580111245E+002  +3.3908409267E-003 +9.1170107539E+001  +9.6012952909E-001 -1.0978053509E+002 
3137629.537 +1.1586013334E-001 +1.7272409193E+002  +4.8768752943E-003 -1.1494621714E+002  +2.3151369978E-002 -1.4267883311E+002  +1.4113035330E-001 -8.1103309612E+000 
3262774.718 +9.7947811216E-002 +1.5229044598E+002  +1.4558495145E-002 -4.4118805072E+001  +1.5355560592E-002 -6.2791304082E+001  +9.9954017025E-002 -8.1475536489E+000 
3387919.900 +1.0919445772E-001 +1.5354833782E+002  +3.7807057859E-003 +1.0787908586E+002  +1.8303177024E-002 -8.5107473496E+001  +3.1802113536E-001 -8.4419287935E+001 
3513065.081 +1.0677655497E-001 +1.5984911118E+002  +8.8496371019E-003 +7.6681091741E+000  +1.1500035281E-002 +8.5707079662E+001  +5.2078852909E-001 +1.4279521839E+002 
3638210.263 +1.9646837658E-001 +1.4777218667E+002  +6.5542096074E-003 +9.0887092578E+001  +5.2065730116E-003 -1.3687883905E+002  +5.5522079364E-001 -1.9401701361E+001 
3763355.444 +1.7549612625E-001 +1.4196927964E+002  +1.8624777654E-002 -1.1026011733E+002  +8.7966692524E-003 +2.3354659012E+001  +1.0164948087E+000 +1.2661154699E+002 
3888500.626 +1.6979721205E-001 +1.5341496932E+002  +8.9908377598E-003 +1.6004927379E+002  +7.0608332819E-003 -4.0708564523E+001  +3.5812531399E-001 +9.7673349749E+001 
4013645.807 +1.7541270132E-001 +1.4926238756E+002  +7.3928081637E-003 +9.2143887660E+001  +8.0991643768E-003 -7.9025651524E+001  +2.3284459773E-001 +6.1692242261E+001 
4138790.989 +1.7850960169E-001 +1.5110259945E+002  +1.3509358121E-002 +1.0251499356E+002  +7.0071461752E-003 +5.5038744928E+001  +7.8160480251E-001 +1.0735047350E+002 
4263936.170 +1.9645365878E-001 +1.5265469674E+002  +1.8194170252E-002 +8.5703100395E+001  +1.9409205028E-002 +2.3150199147E+001  +6.3498564377E-001 +1.0383412591E+002 
4389081.352 +2.2165121216E-001 +1.3306511799E+002  +9.9158918068E-003 +1.3409622684E+002  +1.3578674614E-002 +1.5650767355E+002  +4.7619475202E-001 +1.2119553010E+002 
4514226.533 +2.4286725678E-001 +1.3761564705E+002  +3.9399066757E-002 -1.5548036899E+002  +3.2913267101E-002 -1.2801129826E+002  +3.6972484924E+000 +1.6369653341E+002 
4639371.715 +2.9782212063E-001 +1.3826012306E+002  +1.4877352659E-001 -2.3470065488E+001  +6.4289545377E-002 -1.7890362666E+002  +6.8406194487E+000 -1.1802942199E+002 
4764516.896 +3.3650860560E-001 +1.4113789112E+002  +3.1520515642E-002 -4.0158671291E+001  +2.9412185768E-002 -1.1525618740E+002  +2.7699079689E+000 -1.0346737141E+002 
4889662.078 +4.3197086753E-001 +1.3036018891E+002  +4.3072199763E-002 +2.2328640825E+001  +4.8258874605E-003 +1.7661552503E+002  +2.1899494251E+000 -9.2008060542E+001 
5014807.259 +3.8393784650E-001 +1.2377154658E+002  +3.3810349546E-002 -1.3481838462E+001  +1.2425345953E-001 +1.6391437336E+002  +3.5832026256E+000 +1.3655664659E+002 
5139952.441 +4.6649621848E-001 +1.3181442171E+002  +6.0382637481E-002 +9.7220257800E+001  +8.7196701753E-003 +3.1638619726E+001  +3.3509390532E+000 +8.0582775281E+001 
5265097.622 +3.5120620183E-001 +1.3597713472E+002  +6.0237906333E-002 +4.8638837278E+001  +5.4108579786E-002 +9.3963525710E+001  +5.7211661047E+000 +6.2869488326E+001 
5390242.804 +4.5469885385E-001 +1.3542230919E+002  +1.0286654539E-001 +8.6561025844E+001  +1.1628693174E-001 +1.4936394936E+002  +1.0620606095E+001 +3.9489928367E+001 
5515387.985 +4.0044130112E-001 +1.3554455677E+002  +3.7395665963E-002 +1.7790720150E+002  +2.8330968997E-002 +1.1127700523E+002  +2.8352344552E+000 +1.1928520007E+002 
5640533.166 +4.7029745513E-001 +1.3431356656E+002  +3.8707642524E-002 +1.6161867216E+002  +3.5479959797E-003 -1.4969512538E+002  +2.8666876875E+000 +1.2328979865E+002 
5765678.348 +4.4459640968E-001 +1.2715569908E+002  +4.3150139811E-002 +7.6634799371E+001  +2.6426535011E-002 +3.3876951924E+001  +2.4769586814E+000 +9.5374178730E+001 
5890823.529 +6.3722802416E-001 +1.1737370816E+002  +3.0875902226E-002 +8.4444259708E+001  +5.2949039727E-002 +3.0271336010E+001  +1.4311687006E+000 +3.9381057099E+001 
6015968.711 +5.5989710029E-001 +1.1998594089E+002  +2.2793346730E-002 +6.7177590172E+001  +1.1394868028E-002 -8.3258430034E+000  +1.2781226801E+000 +3.6760511751E+001 
6141113.892 +7.6716815505E-001 +1.2069525659E+002  +6.4626723445E-003 +5.2637570379E+001  +1.9673232968E-002 +1.0922289039E+002  +9.1810984607E-001 +2.8429218243E+001 
6266259.074 +7.5800556695E-001 +1.1222509622E+002  +4.4838332756E-002 +5.2726649314E+001  +1.7800658321E-002 -9.5453313767E+000  +2.0059078633E+000 +1.9398474612E+001 
6391404.255 +1.0427748910E+000 +9.5487162017E+001  +6.6237995555E-002 +7.6311895588E+001  +5.4455643525E-002 +4.0142319181E+001  +2.0744866101E+000 +2.4593923036E+001 
6516549.437 +1.1056038789E+000 +1.0109379796E+002  +2.3851880374E-002 +2.7727982927E+001  +2.1034016973E-002 +4.2355230881E+001  +1.5690807084E+000 +9.3003056442E-001 
6641694.618 +1.3544991261E+000 +8.3830454491E+001  +4.4914569242E-002 +4.3463247691E+001  +3.1850480211E-002 +6.2532540138E+001  +1.2379884021E+000 -1.1904282902E+000 
6766839.800 +1.6453020082E+000 +5.1757590035E+001  +2.7219922317E-002 +4.8010965807E+001  +5.0371074664E-002 -1.9039012309E+000  +1.4124193517E+000 -6.3203388066E+000 
6891984.981 +1.8350027915E+000 +3.0868531135E+001  +5.9930169344E-002 +4.2377132185E+001  +4.5782463383E-002 -1.0844846629E+001  +1.2558891528E+000 -4.9424691007E+000 
7017130.163 +1.8871055649E+000 +3.2636812527E+001  +5.1633781650E-002 +1.9193518307E+001  +3.4786302185E-002 +1.9323676128E+001  +1.2295870299E+000 -1.7574089941E+001 
7142275.344 +1.7804983551E+000 +7.7493365085E+000  +1.8993048179E-002 +1.2680646899E+001  +3.7593501759E-002 +4.8840567762E+001  +1.2524709600E+000 -4.1614389458E+000 
7267420.526 +1.4978604855E+000 +7.9503091165E+000  +2.2514857039E-002 -1.0304878584E+001  +1.2601281285E-002 +3.0785395724E+001  +1.4124944619E+000 -1.6439605495E+001 
7392565.707 +1.2764454385E+000 -2.2336183486E+000  +7.5307296947E-003 -1.3036372365E+000  +1.7963303711E-002 +7.1461219660E+000  +1.3062871318E+000 -1.3347909652E+001 
7517710.889 +1.2143344308E+000 +6.5262680666E+000  +2.4122133938E-002 +3.4572039178E+001  +1.8115076500E-002 +2.1030466133E+000  +1.1859858119E+000 -8.2031545983E+000 
7642856.070 +9.8218037948E-001 +5.8518410213E+000  +9.7893617818E-003 -4.1220207431E+000  +1.5036246301E-002 -1.9021652225E+000  +1.0918821080E+000 -6.2032135138E+000 
7768001.252 +9.3922001405E-001 +2.2066633886E+000  +6.4996576757E-003 +4.4516070070E+000  +2.1188578927E-002 +2.6306419831E+001  +9.6852198104E-001 +1.4080521557E+000 
7893146.433 +8.7666464894E-001 +7.7664047808E-001  +1.5148637298E-002 +1.2326280735E+001  +1.7160304913E-002 +2.3327386279E+001  +9.3503813463E-001 -2.0534882413E-001 
8018291.615 +7.5321579452E-001 +4.2769591580E+000  +6.1701637273E-003 +2.6030284488E+001  +2.0097340608E-002 +3.1690393800E+001  +9.3963968312E-001 -5.4845114596E+000 
8143436.796 +7.4105494898E-001 +1.1676034532E+001  +6.1828134172E-003 +5.0787907156E+000  +1.5095525504E-002 +1.4068212598E+001  +8.0541677463E-001 -4.3986349746E-001 
8268581.977 +6.8574102819E-001 +8.0949184363E+000  +1.5554768822E-002 +2.9145352090E+001  +9.2069711495E-003 +2.5228825695E+001  +7.7289740623E-001 +2.4861808192E+000 
8393727.159 +7.6809759819E-001 +1.1573346546E+001  +1.1961464622E-002 -6.9206739797E+000  +1.5611605004E-002 +1.6415575317E+001  +6.9043359061E-001 +1.8995569034E+000 
8518872.340 +7.6217381589E-001 +7.1943565202E+000  +1.2697567989E-002 +1.1260207139E+001  +1.6293331912E-002 +2.1351838890E+001  +6.4390353779E-001 -4.2846930822E+000 
8644017.522 +6.4055355428E-001 +4.0700024021E+000  +1.6309151736E-002 +1.7222061265E+001  +1.6839021941E-002 -5.5466812367E+000  +7.4156203280E-001 +7.7373217516E-001 
8769162.703 +5.4721642482E-001 +1.1246585311E+001  +1.4078057323E-002 +1.8686920272E+001  +1.2122740934E-002 +1.1184512458E+001  +6.8013089701E-001 -6.7077714080E-001 
8894307.885 +6.6036099925E-001 +8.2943785745E+000  +1.2730380329E-002 +2.5232244138E+001  +8.3438960761E-003 +4.2050962333E+001  +6.5695736872E-001 -3.1127566952E+000 
9019453.066 +6.0165881256E-001 +8.8290502036E+000  +1.5972825040E-002 +2.0338103779E+001  +1.3793638553E-002 +2.5552356319E+001  +6.4430456262E-001 -7.9395507114E-001 
9144598.248 +5.6998154699E-001 +6.7630494706E+000  +1.4411308327E-002 +9.9097046391E+000  +1.4819671047E-002 +2.0831037347E+001  +6.0498410854E-001 +6.5086074319E-003 
9269743.429 +5.2852547799E-001 +1.0154677297E+001  +1.5422774656E-002 +1.1323414666E+001  +1.2233168900E-002 +2.9948499446E+001  +5.7839667809E-001 -1.6414602783E+000 
9394888.611 +5.4115526408E-001 +9.2877601199E+000  +1.1766581349E-002 +3.7285598069E-001  +9.8461041843E-003 +2.1539761444E+001  +5.9166872430E-001 -2.0840702709E+000 
9520033.792 +5.5472841597E-001 -3.5182142942E-001  +1.0227852845E-002 +1.4440398755E+001  +1.1138088890E-002 +1.4902419916E+001  +6.0881908327E-001 +7.8769886910E-001 
9645178.974 +5.4214880268E-001 +3.3302986994E+000  +1.3077750724E-002 +1.1652095160E+001  +1.0587774679E-002 +2.6823893503E+001  +5.6862603760E-001 -7.0266317781E+000 
9770324.155 +5.3086930829E-001 -1.8429527415E+000  +1.3007508479E-002 -3.6797737560E-002  +1.1930517065E-002 +1.4835117110E+001  +5.5206151950E-001 -7.8961950766E+000 
9895469.337 +5.3027575668E-001 +1.4939067356E+000  +1.4088614196E-002 +3.3078150955E+001  +1.1896793767E-002 +4.3173320792E+001  +5.9508262610E-001 -6.2514889343E+000 
10020614.518 +5.3885958002E-001 +2.0687869219E+000  +1.3691346470E-002 +2.1841569000E+001  +1.0597244929E-002 +2.6323239335E+001  +5.7900504559E-001 -3.2042399141E+000 
10145759.700 +5.5897874783E-001 -6.1212036301E-001  +1.3165054478E-002 +3.1279261207E+001  +1.3640924576E-002 +2.5769155190E+001  +5.7256839011E-001 -3.2001469109E+000 
10270904.881 +5.2505404727E-001 +3.9400643373E+000  +1.2419351653E-002 +7.4257016802E+000  +1.5723851236E-002 +3.9341234332E+001  +5.6418659414E-001 -5.1396900096E+000 
10396050.063 +5.5289318512E-001 +3.3014019998E+000  +1.2841662874E-002 +6.2116210062E+000  +1.1547657331E-002 +2.5194616257E+001  +6.1219980583E-001 -1.9906364305E+000 
10521195.244 +5.7223592286E-001 +4.9591444700E+000  +1.4482528060E-002 +1.5822503694E+001  +1.3049758272E-002 +4.0567992683E+001  +5.6504692104E-001 -1.9736740016E-001 
10646340.426 +5.6373353021E-001 +6.0603165040E+000  +1.3946382111E-002 +6.9266157543E+000  +9.6691837111E-003 +2.1628868264E+001  +6.0771597610E-001 -3.3885026280E+000 
10771485.607 +5.6069911212E-001 +7.3882148417E+000  +1.2762251927E-002 +1.4262184494E+001  +1.2701369553E-002 +3.2176453776E+001  +5.8233087554E-001 -3.7363273883E+000 
10896630.788 +5.9845900469E-001 +4.7163206601E+000  +1.1763610078E-002 +3.1677663529E+001  +1.3319097934E-002 +3.1044614415E+001  +5.5917409045E-001 -1.2858755093E+000 
11021775.970 +5.7912734976E-001 +7.0022240088E+000  +1.6418052840E-002 +2.8065796633E+001  +1.2629265421E-002 +3.3798909849E+001  +5.8691192134E-001 -3.3944133751E+000 
11146921.151 +5.6404433629E-001 +3.6242573240E+000  +1.3815242678E-002 +2.2398149556E+001  +1.4310861767E-002 +3.9195524300E+001  +6.2378279731E-001 +3.2581995715E+000 
11272066.333 +6.0301111520E-001 +7.1249791186E+000  +1.2953289355E-002 +2.5712815678E+001  +1.2369076339E-002 +3.0264772473E+001  +6.1049353774E-001 -1.0063853284E+000 
11397211.514 +6.2695425533E-001 +6.5644118958E+000  +1.3241475371E-002 +1.9366583135E+001  +1.5447456872E-002 +3.7188426556E+001  +6.1642675517E-001 -1.4212983643E-001 
11522356.696 +6.1533656136E-001 +8.1641992506E+000  +1.1541166102E-002 +2.4212198379E+001  +1.6247086809E-002 +3.0152450088E+001  +6.5545524838E-001 +9.5211006568E-001 
11647501.877 +6.0394552182E-001 +3.6031730024E+000  +1.4131919479E-002 +2.4414144643E+001  +1.3388847113E-002 +3.4952340353E+001  +6.8156030567E-001 +4.3800093889E+000 
11772647.059 +6.5278933543E-001 +3.9521048351E+000  +1.5114065207E-002 +1.6964439319E+001  +1.3775498223E-002 +4.3781593794E+001  +6.7507794154E-001 -1.3713702412E-001 
11897792.240 +6.0896787574E-001 +5.9209348845E+000  +1.3860723996E-002 +2.1221144135E+001  +1.2141816823E-002 +3.4676725344E+001  +6.4559661091E-001 -9.9761133020E-001 
12022937.422 +6.4328809916E-001 +5.4974225153E+000  +1.6369569319E-002 +2.5343959489E+001  +1.3691539491E-002 +3.8630968473E+001  +6.6615356323E-001 +3.4806155148E-001 
12148082.603 +6.5824906169E-001 +3.2863984813E+000  +1.3097299307E-002 +2.8101576396E+001  +1.4436104859E-002 +3.7559271166E+001  +6.7833706286E-001 +1.3666742769E+000 
12273227.785 +6.7090965174E-001 +3.7068050410E+000  +1.4483893215E-002 +2.4496775187E+001  +1.4732153689E-002 +3.8891775654E+001  +7.0378644186E-001 +7.5501346077E-001 
12398372.966 +6.9349855045E-001 +1.2847694579E+000  +1.4364311374E-002 +2.5385409976E+001  +1.5744685898E-002 +2.6681419613E+001  +7.0127325105E-001 +1.4525313085E-001 
12523518.148 +6.9983603128E-001 +2.9390753614E+000  +1.5280796466E-002 +2.7561041815E+001  +1.6354007170E-002 +3.0239010115E+001  +7.3208677744E-001 -4.1164626020E-001 
12648663.329 +7.0043505887E-001 +2.9181567189E+000  +1.6001150689E-002 +2.5060462270E+001  +1.6375600690E-002 +3.7776174445E+001  +7.5135795250E-001 +9.6602301178E-001 
12773808.511 +7.3347931939E-001 +1.5668308654E+000  +1.4322842254E-002 +2.5699027804E+001  +1.6148235710E-002 +3.3323766511E+001  +7.5059543527E-001 +3.8462763941E-001 
12898953.692 +7.7650157658E-001 +2.0112663407E+000  +1.6926988830E-002 +2.8599724073E+001  +1.5666264958E-002 +3.4774394743E+001  +7.4780674367E-001 -9.4965087680E-001 
13024098.874 +7.5577492763E-001 +1.3296464862E+000  +1.6511713083E-002 +2.6127720285E+001  +1.4577838370E-002 +2.5002226142E+001  +7.6963746277E-001 -2.2922120385E+000 
13149244.055 +7.8611413140E-001 +1.9324264771E+000  +1.4921659112E-002 +2.4430887669E+001  +1.7304935446E-002 +3.1009337691E+001  +8.1529058372E-001 -2.5000488974E+000 
13274389.237 +7.9596570328E-001 -5.0782971178E-001  +1.6744568540E-002 +2.2741346626E+001  +1.5758099318E-002 +3.1364551933E+001  +7.9851912429E-001 -2.0323095633E+000 
13399534.418 +8.1807460560E-001 -1.7819540140E+000  +1.7276676962E-002 +2.7482118832E+001  +1.8218658396E-002 +2.7734987797E+001  +8.2999121669E-001 -2.1107344990E+000 
13524679.599 +8.3086852035E-001 -1.1834855687E+000  +1.7814297163E-002 +2.4523790091E+001  +1.8192928216E-002 +2.8755547192E+001  +8.5699775258E-001 -2.3938471360E+000 
13649824.781 +8.5952134329E-001 -5.3012152873E-001  +1.6697211572E-002 +2.8315434951E+001  +1.8074464379E-002 +3.0931984466E+001  +8.6351566838E-001 -4.7770023984E+000 
13774969.962 +8.5997757271E-001 -1.5152997807E+000  +1.5904841317E-002 +2.5478316405E+001  +1.7773558643E-002 +2.9436931542E+001  +8.7321728216E-001 -2.6604786214E+000 
13900115.144 +8.8340526422E-001 -4.3586650256E+000  +1.6214819832E-002 +2.6591350841E+001  +1.6974008403E-002 +2.7833218527E+001  +9.1143382614E-001 -3.3418078501E+000 
14025260.325 +9.2179863371E-001 -4.0479535119E+000  +1.6545888029E-002 +2.6599070088E+001  +1.6755598391E-002 +3.2543390797E+001  +9.2492168748E-001 -5.7629343532E+000 
14150405.507 +9.2377027268E-001 -4.1248425156E+000  +1.8475022280E-002 +2.8167948212E+001  +1.7331956392E-002 +2.1776712163E+001  +9.2192301065E-001 -3.9607723856E+000 
14275550.688 +9.6322194468E-001 -4.4524897517E+000  +1.7308840126E-002 +2.7476291762E+001  +1.7815271700E-002 +2.8633985086E+001  +9.6387720716E-001 -4.9383948022E+000 
14400695.870 +9.6920248768E-001 -4.3851262991E+000  +1.7245385915E-002 +2.2638444968E+001  +1.7363566587E-002 +2.8717908463E+001  +9.6929202912E-001 -5.1986291226E+000 
