!  2-Port S-parameters saved by WinCal
! VAR NAME=S2_r2c8_formed(0)_9k-100M_1
! VAR DATE=30/08/2024 11:23:31
! VAR FILENAME=S2_r2c8_formed(0)_9k-100M_1.S2P
! VAR MeasName=S-Parameters (CALIBRATED_DATA) read from VNA (P5004A)
! VAR MeasDate=27/08/2024 13:44:21
! VAR PHYS_PORTS=1,2
! VAR ObjTypeName=DATASET
! VAR IndexType=Frequency
!
# Hz S MA R 50
9000.000 +7.0791899097E-002 -1.3215953758E+002  +8.8467084377E-003 +1.8957164101E+001  +1.0210218918E-002 -1.7069616933E+002  +1.2485662301E-001 -1.1348531031E+002 
134145.181 +1.1006825104E-001 +1.6953497161E+002  +3.2964062028E-004 +8.1622469344E+001  +4.4186447918E-004 -1.0905568792E+002  +2.3771336522E-001 -1.7119894114E+002 
259290.363 +1.1053471571E-001 +1.6969189544E+002  +1.3708252914E-003 -9.6680869502E+001  +1.2469245588E-003 -3.1875485287E+001  +2.4017833403E-001 -1.6550612332E+002 
384435.544 +1.1315334204E-001 +1.6975779197E+002  +2.5595973501E-004 -3.8597092165E+001  +4.4808512862E-004 -5.8271679118E+001  +2.3503888750E-001 -1.7020229003E+002 
509580.726 +1.1639152452E-001 +1.7188059170E+002  +7.1000745927E-004 +3.1490894473E+001  +1.2609885724E-003 -2.2735676021E+001  +2.4109666268E-001 -1.6632701774E+002 
634725.907 +1.1676830762E-001 +1.7058101955E+002  +5.7229965018E-004 -1.7490060654E+002  +1.3489214235E-003 -8.8591743388E+001  +2.3202399557E-001 -1.6591184789E+002 
759871.089 +1.1678246674E-001 +1.7070662512E+002  +5.9798513732E-004 +9.3233685102E+001  +1.0388124136E-003 +4.3272003710E+001  +2.4106770194E-001 -1.6600303907E+002 
885016.270 +1.1828298288E-001 +1.6846590169E+002  +1.1459975749E-003 +4.8610064911E+001  +2.0457957447E-004 +1.7141137930E+002  +2.2911593812E-001 -1.6674480617E+002 
1010161.452 +1.1714434193E-001 +1.7187415448E+002  +2.2317490369E-003 -1.2118101031E+002  +9.0472738125E-004 +9.8902312572E+001  +1.6149094709E-001 -1.7615342081E+002 
1135306.633 +1.1507949683E-001 +1.7124405490E+002  +8.2992145054E-004 -1.5125943227E+002  +4.0887063487E-003 +1.6170277521E+002  +1.9929565353E-001 +1.6868893038E+002 
1260451.815 +1.2056357611E-001 +1.7097766869E+002  +1.1458982285E-003 -1.4551902345E+002  +2.4708887033E-003 +1.7441060167E+001  +2.6369212089E-001 -1.5501770398E+002 
1385596.996 +1.2304143545E-001 +1.7165098899E+002  +1.3508415228E-003 -6.6274493138E+001  +2.6359017376E-003 +9.9502468741E+001  +2.5785564295E-001 -1.5837019828E+002 
1510742.178 +1.2549881356E-001 +1.7159615834E+002  +1.3528861896E-003 -1.8687644022E+001  +8.9308143747E-004 +1.5895470484E+002  +2.5297904338E-001 -1.5773454815E+002 
1635887.359 +1.2746714583E-001 +1.6983623014E+002  +6.9503891577E-004 -7.4909240782E+001  +1.5955668552E-003 +6.0391397463E+001  +2.2925626283E-001 -1.5927436545E+002 
1761032.541 +1.3032063617E-001 +1.7043310168E+002  +1.5630404129E-003 +1.2934014987E+002  +7.0405577620E-004 +9.1550764420E+001  +2.0104173604E-001 -1.5081098277E+002 
1886177.722 +1.2790618963E-001 +1.6628732307E+002  +1.6879140710E-003 -8.9563650600E+001  +1.2960635986E-003 +8.9254283784E+000  +1.5548566348E-001 +1.7410326111E+002 
2011322.904 +1.2793647623E-001 +1.6696884642E+002  +2.2908582889E-003 -3.8986327005E+001  +3.8086123498E-003 +8.4114435333E+001  +1.4494573564E-001 +1.7579154803E+002 
2136468.085 +1.3575322899E-001 +1.6280195880E+002  +2.7300330905E-003 +4.7347002921E+001  +4.0146921235E-003 +1.2205684098E+002  +1.7392782760E-001 -1.7125479875E+002 
2261613.267 +1.3135627087E-001 +1.6477415144E+002  +3.0843159825E-003 -1.1278200807E+002  +2.0999837006E-003 -1.1054881015E+002  +2.0326640604E-001 -1.7353294129E+002 
2386758.448 +1.3181322435E-001 +1.6449232566E+002  +6.5529039294E-004 -1.7879171585E+002  +8.6465071902E-003 -1.3172455681E+001  +2.2056070278E-001 +1.3765197583E+002 
2511903.630 +1.3970183691E-001 +1.5973309071E+002  +4.4710620930E-003 +1.1664985607E+001  +3.8772762791E-003 +5.7650442072E+001  +1.6945752330E-001 +1.2482701757E+002 
2637048.811 +1.0986852182E-001 +1.6233904235E+002  +4.8768426588E-003 +5.0866387378E+000  +1.7426983807E-002 -9.1585217309E+001  +3.2963241969E-001 +1.4256256556E+002 
2762193.992 +9.6107827809E-002 -1.7621116815E+002  +2.3783814716E-002 -1.4495633169E+002  +7.9451942942E-002 +1.1939445564E+002  +2.3477899883E+000 +1.5352580003E+002 
2887339.174 +1.1370710307E-001 +1.6812336862E+002  +2.6005847146E-002 -5.9170442725E+001  +3.6183464683E-002 +3.1631138760E+001  +1.2258027433E+000 -1.2832583752E+002 
3012484.355 +1.0974689931E-001 +1.7928607337E+002  +1.4805194596E-002 +1.2512408486E+002  +3.9107235384E-003 -1.5046232147E+002  +6.3463192752E-001 -1.0296341757E+002 
3137629.537 +9.3680568722E-002 -1.7812374248E+002  +1.9175433337E-001 +8.8776373482E+001  +1.7642483205E-001 +1.0625984621E+002  +6.8805958620E+000 -1.2967398702E+002 
3262774.718 +9.4153899719E-002 +1.6399888466E+002  +1.3811045472E-002 -1.7864330328E+002  +2.4816870904E-002 +1.2469726572E+002  +1.6958547221E-001 -5.7996417337E+001 
3387919.900 +1.0018097158E-001 +1.5079439549E+002  +2.4171661485E-002 -1.4407601346E+002  +1.9617858538E-002 +1.7940831024E+002  +1.1905225662E+000 -1.3525269686E+002 
3513065.081 +1.4063560532E-001 +1.5904344872E+002  +1.3259980477E-002 -1.4961253264E+002  +2.3034929561E-003 +1.7444011114E+002  +6.7164527766E-001 +1.2336222870E+002 
3638210.263 +1.5672641976E-001 +1.4593591319E+002  +7.4360169769E-003 +6.5543433967E+001  +1.8316953715E-002 -1.7210345696E+001  +4.8844276858E-001 +1.4143047631E+002 
3763355.444 +1.7893088532E-001 +1.4676562061E+002  +9.7085151445E-003 +6.3456790766E+001  +5.3491531995E-004 -5.2616357349E+001  +5.0097291342E-001 +1.3351984616E+002 
3888500.626 +1.3957607577E-001 +1.5767919991E+002  +1.0478046281E-002 +1.6178114029E+002  +4.0663729222E-002 +1.2026524363E+002  +7.3509921467E-001 +7.8671359963E+001 
4013645.807 +1.8638250269E-001 +1.2598123933E+002  +1.7094586663E-002 -8.1038953560E+001  +1.7237482756E-002 +8.5529835877E-001  +2.9114043655E-001 -7.3164308362E+000 
4138790.989 +1.8672735843E-001 +1.5221191309E+002  +1.5908751596E-003 +9.1703364215E+001  +3.6424026301E-003 +1.0543899169E+002  +7.5227277879E-001 +6.6027656884E+001 
4263936.170 +1.7039743165E-001 +1.4808117983E+002  +3.5021415856E-003 +6.8603081260E+001  +3.9421794630E-003 -1.7353418117E+002  +6.4948218478E-001 +8.8467225815E+001 
4389081.352 +2.4040054685E-001 +1.1986887159E+002  +3.5345074260E-002 +4.6945698496E+001  +1.0512613420E-002 +1.1542535567E+002  +6.3616928381E-001 +1.1714445552E+002 
4514226.533 +1.9811240319E-001 +1.3065657170E+002  +1.7535377398E-002 +1.5902899005E+000  +5.1729741732E-002 -7.8989838984E+001  +1.5518626440E+000 +8.8233262260E+001 
4639371.715 +2.8877681394E-001 +1.2908096284E+002  +2.6642915796E-002 -1.1353086931E+002  +4.0577887031E-002 +8.4101698481E+001  +2.3427100561E+000 +1.0585807593E+002 
4764516.896 +3.5846656422E-001 +1.2623187195E+002  +7.7815025338E-002 -1.3023888811E+002  +3.5089042616E-002 +9.2060146885E+001  +2.8973979558E+000 -1.2776093937E+002 
4889662.078 +4.1836486661E-001 +1.2331847622E+002  +9.4536596612E-002 -2.8144962951E+001  +2.1502062246E-002 +5.3615121162E+000  +2.4267821367E+000 -1.3199952060E+002 
5014807.259 +5.3012966466E-001 +1.0750740714E+002  +1.7833256920E-001 +1.4035585097E+001  +1.8386746146E-001 +1.3099882863E+002  +8.3996136160E+000 -5.9202137646E+001 
5139952.441 +3.8124951061E-001 +1.3174483149E+002  +5.2980352900E-002 -1.0933968887E+002  +1.8054807008E-002 -1.7718907368E+002  +3.1234719511E+000 +9.4429749314E+001 
5265097.622 +3.8632166506E-001 +1.3378417582E+002  +2.6772228885E-002 +1.5575690732E+002  +2.0360943183E-002 +1.6406238893E+001  +2.3566166242E+000 +9.3840753620E+001 
5390242.804 +3.8862407816E-001 +1.3152625650E+002  +1.8602634770E-002 +1.3912732808E+002  +6.7659524549E-003 +5.5010522533E+001  +1.2742282675E+000 +9.3651125505E+001 
5515387.985 +4.0391482785E-001 +1.2024481497E+002  +2.5810217790E-002 +1.1140441329E+002  +2.3823698849E-003 -4.7844051495E+001  +3.0669845782E+000 +3.2889602330E+001 
5640533.166 +3.8893848656E-001 +1.2622862650E+002  +9.7833538616E-003 -1.6260543090E+001  +1.8767789454E-002 -1.6920462280E+002  +3.0909667300E+000 +8.0668557781E+001 
5765678.348 +5.3476444237E-001 +1.2919790680E+002  +2.9194958710E-002 +1.2419460275E+002  +1.4843682200E-002 -1.3927724782E+002  +2.1743080668E+000 +7.0596800253E+001 
5890823.529 +6.2075464497E-001 +1.2664720818E+002  +2.9536761656E-002 -7.8527514229E+001  +9.7767693113E-003 +1.4486943182E+002  +2.3418759228E+000 +6.6110402504E+001 
6015968.711 +5.9195928293E-001 +1.2080322239E+002  +1.0152222707E-002 -1.7643915725E+002  +1.6183737273E-002 +9.3685817495E+001  +1.6254977816E+000 +4.9262802851E+001 
6141113.892 +7.6060916393E-001 +1.1264873116E+002  +2.4141071695E-002 +1.4036497476E+002  +5.2972634414E-003 +1.3425849899E+002  +2.5337052893E+000 +2.1907828864E+001 
6266259.074 +7.3083912856E-001 +9.9197308709E+001  +5.5494305697E-003 +1.7548627572E+002  +1.8849287320E-002 +1.1864142208E+002  +8.9316006198E-001 +3.2536196620E+001 
6391404.255 +1.4348203912E+000 +9.3220962679E+001  +4.2070459691E-002 +1.2951782407E+002  +3.5007142727E-002 +1.5837404715E+002  +1.8943854723E+000 +7.7151576906E+000 
6516549.437 +1.4664433853E+000 +9.8738504170E+001  +2.1434093395E-002 -1.6920397007E+002  +7.5541768640E-003 +1.4302656037E+002  +1.6247013986E+000 -7.3860677797E+000 
6641694.618 +1.1431919474E+000 +7.3458607538E+001  +5.4278188135E-003 +1.7715504904E+002  +5.0048951023E-003 -2.7395435172E+001  +1.2540729451E+000 +1.4029026339E+000 
6766839.800 +1.0016968749E+000 +3.3749314260E+001  +1.5055042335E-002 -6.4185892477E+001  +1.0061658226E-002 +1.0801424421E+002  +1.2975193169E+000 -6.5450687982E+000 
6891984.981 +1.7063760820E+000 +2.3969172303E+001  +1.3639953883E-002 +1.1289432955E+002  +1.9017737828E-002 +1.0056810290E+002  +1.4613264905E+000 -8.0019562863E+000 
7017130.163 +2.5108766094E+000 +2.0475682869E+001  +1.0690120368E-002 +4.6087317148E+001  +1.1894791927E-002 -6.7637154519E+001  +1.2132059025E+000 -4.3880428119E+000 
7142275.344 +1.3468226842E+000 +8.5352366851E+000  +3.7962538646E-003 +1.6461989562E+002  +1.7990079444E-002 +5.7024071877E+001  +1.2952495846E+000 -8.5232519540E+000 
7267420.526 +1.5286603726E+000 -1.2926973871E+000  +1.4356608719E-002 +1.0149221782E+002  +1.0656790527E-002 +6.8615318731E+001  +1.3120006328E+000 -1.1474620921E+001 
7392565.707 +1.3011844534E+000 +8.9723631556E-001  +4.9019382858E-003 -1.5409346025E+002  +1.9666279917E-002 +9.6443460512E+001  +1.3394042896E+000 -1.4020918381E+001 
7517710.889 +1.0654327782E+000 -7.4778361416E+000  +1.0929177260E-002 +1.4062416609E+002  +9.2136751895E-003 +8.8507923169E+001  +1.2416972495E+000 -8.1754956302E+000 
7642856.070 +1.1278614183E+000 +3.4623300525E+000  +3.4893444360E-003 +3.7984298318E+001  +3.7559270004E-003 -1.2964321304E+002  +1.1058268301E+000 -1.2669444831E+001 
7768001.252 +9.3973755739E-001 +2.9794442304E+000  +7.9969165158E-003 +6.4297286952E+001  +6.3529547462E-003 +1.5437423867E+002  +9.8460763844E-001 -4.5071355675E+000 
7893146.433 +9.2869499705E-001 +3.4328573031E+000  +3.0507629556E-003 +9.2284622342E+001  +1.1315903637E-002 +1.2857905311E+002  +9.0449795957E-001 -4.2170268839E+000 
8018291.615 +9.0371850582E-001 +1.9439225616E+000  +1.0040303835E-002 +7.2825956210E+001  +4.9405757681E-003 +1.6170561072E+002  +9.2987689897E-001 -3.6535351068E+000 
8143436.796 +8.3219176948E-001 +4.0887138413E+000  +7.0172869891E-003 +6.9819442263E+001  +5.3145016251E-003 +1.3078059026E+002  +8.0769411305E-001 -2.9988376917E+000 
8268581.977 +7.4242444177E-001 +9.4465409782E+000  +6.1611805169E-003 +1.1347775319E+002  +6.3795873776E-003 +8.4072242214E+001  +7.8489803882E-001 -2.8645155462E+000 
8393727.159 +7.2493771739E-001 +1.3546145998E+001  +2.9536557035E-003 +1.0906083814E+002  +6.4647017747E-003 +9.1794078485E+001  +7.3285209573E-001 +3.6333245578E+000 
8518872.340 +7.7899121104E-001 +8.1577286756E+000  +8.9257586541E-003 +1.0369735617E+002  +4.0229822325E-003 +1.4402525611E+002  +7.2686919550E-001 +8.2163967505E+000 
8644017.522 +7.2779651461E-001 +6.5793980704E+000  +4.5395676605E-003 +9.3366039522E+001  +1.6829767431E-003 -1.2872336620E+002  +7.4280139846E-001 +1.8147053875E-001 
8769162.703 +6.1319144670E-001 -1.2880158666E+000  +4.8915063354E-003 +8.0772588765E+001  +1.3604387334E-003 +2.6578132511E+001  +7.0685485304E-001 -1.7711318409E+000 
8894307.885 +6.0669070175E-001 +3.6150156411E+000  +2.6531656567E-003 +1.1809938885E+002  +8.4092593244E-003 +5.3076540083E+001  +6.7838009498E-001 -1.1388944547E+000 
9019453.066 +5.5934641889E-001 +6.9396082021E+000  +8.9103817354E-004 +6.5744088642E+001  +1.8956156927E-003 +1.6954340018E+002  +5.9379616211E-001 +2.3408867682E+000 
9144598.248 +5.7303632362E-001 +3.3595604516E+000  +1.1674976988E-003 +1.0623209767E+001  +3.2059110034E-003 +1.1621455142E+002  +6.4445028225E-001 +8.8218819081E-001 
9269743.429 +5.0732254693E-001 +5.1874456680E+000  +5.7472525334E-004 -4.2611081560E+001  +6.2772721101E-003 +1.0568800005E+002  +5.6773468159E-001 -2.5159032245E+000 
9394888.611 +5.6484488967E-001 +5.5503413809E+000  +2.6015594346E-003 +4.5928780289E+001  +3.3584442491E-003 +1.5405821297E+002  +6.3728610528E-001 -5.4721598182E+000 
9520033.792 +5.6290280352E-001 +1.7646755668E+000  +5.8405546611E-003 +1.0215054145E+002  +1.6074509927E-003 +8.3923168888E+001  +5.9074823212E-001 -3.1052837332E+000 
9645178.974 +5.7744414134E-001 +4.8641882308E+000  +7.8159458933E-003 +6.7767586651E+001  +4.7528120634E-004 -1.1940756184E+002  +5.9838223380E-001 -9.2206709438E-001 
9770324.155 +5.4249528929E-001 -6.2681527811E-001  +5.9655218206E-003 +7.6369319275E+001  +4.4598366758E-003 +1.2773727201E+002  +5.9281378692E-001 -4.0970644055E+000 
9895469.337 +5.5442402876E-001 +8.3496828372E-001  +2.0379155573E-003 +9.2876549193E+001  +4.2784559805E-003 +1.6232571814E+002  +5.5828868737E-001 -5.0140472100E+000 
10020614.518 +5.3959611133E-001 +1.7642723485E+000  +6.2549318124E-003 +1.0608039421E+002  +8.2183491882E-004 +7.1475419192E+001  +5.9981107672E-001 -5.8914413834E+000 
10145759.700 +5.7468786193E-001 +1.8820926429E+000  +5.2929299231E-003 +1.2300398531E+002  +1.4729289951E-003 +6.9762773116E+001  +5.9249596748E-001 -5.5230083196E-001 
10270904.881 +5.4362779677E-001 +2.9572712898E+000  +1.6938386001E-003 +4.0561877319E+001  +3.4762645745E-003 +8.1921614046E+001  +6.2956480617E-001 -8.6261792239E+000 
10396050.063 +5.6624782004E-001 +2.2066900182E+000  +3.6357383970E-003 +5.4619511928E+001  +5.5467342829E-003 +9.6832813852E+001  +6.0129922286E-001 +1.1325996475E+000 
10521195.244 +5.5085872455E-001 +3.2608981541E+000  +4.4180577006E-003 +1.0395457691E+002  +4.9243308015E-003 +1.2014709105E+002  +6.1580714974E-001 -2.9546830875E+000 
10646340.426 +5.6970274627E-001 +6.4084181507E+000  +4.4485264379E-003 +1.0242131623E+002  +5.0843494256E-003 +1.0008389858E+002  +5.7201955499E-001 -2.5746462270E+000 
10771485.607 +5.6595769387E-001 +6.3940240087E+000  +5.8236706502E-003 +8.1909272422E+001  +4.4951395458E-003 +1.1022582192E+002  +5.8059036603E-001 -1.3334851907E+000 
10896630.788 +5.6668206878E-001 +6.7153475890E+000  +5.6820015036E-003 +8.9318431157E+001  +4.3145992063E-003 +9.3461413914E+001  +6.2266476707E-001 +1.1401544852E+000 
11021775.970 +5.8137631263E-001 +3.0586477149E+000  +4.2930446499E-003 +1.1930466915E+002  +5.7965789430E-003 +1.1194259595E+002  +6.2401187892E-001 +1.3362596635E+000 
11146921.151 +5.9538978125E-001 +8.8299239364E+000  +6.5904332976E-003 +6.9446257567E+001  +2.6901526737E-003 +8.0062886096E+001  +6.1897266787E-001 +1.0001631972E+000 
11272066.333 +6.1828069247E-001 +5.3456624588E+000  +7.4282820089E-003 +8.2492584999E+001  +5.4673939133E-003 +1.2734586676E+002  +5.9768924396E-001 +9.4141580881E-001 
11397211.514 +6.0346872908E-001 +6.2682950550E+000  +4.9841837201E-003 +9.6926265441E+001  +5.7702990415E-003 +1.1943015410E+002  +6.1352127532E-001 -9.7062606714E-001 
11522356.696 +6.4558821841E-001 +5.0447209508E+000  +5.4306004189E-003 +9.5303747971E+001  +4.2781303108E-003 +1.0038134369E+002  +6.3313938094E-001 +4.7312378946E-001 
11647501.877 +6.3968912796E-001 +3.5070720226E+000  +5.6740559274E-003 +8.7429945237E+001  +5.7062754672E-003 +9.5781035517E+001  +6.7994434367E-001 -2.6402944476E-001 
11772647.059 +6.5842810331E-001 +5.5170847625E+000  +5.0790929674E-003 +8.0830676196E+001  +4.9381506485E-003 +1.0530080769E+002  +6.7411274538E-001 +2.6518631056E-001 
11897792.240 +6.4606271488E-001 +3.6917852733E+000  +6.9289100137E-003 +7.8079035533E+001  +7.9159201496E-003 +1.0864560799E+002  +6.9361375500E-001 -1.2966441368E+000 
12022937.422 +6.5461865861E-001 +2.2554927618E+000  +6.9802453316E-003 +8.1833141763E+001  +5.4799205153E-003 +9.9356567526E+001  +6.9922435282E-001 +2.2674479519E+000 
12148082.603 +6.7557426285E-001 +3.2609592966E+000  +5.9927028091E-003 +8.4611120197E+001  +4.6498792338E-003 +1.0717001380E+002  +7.1594135696E-001 +1.8286017836E+000 
12273227.785 +6.8372379542E-001 +4.0355771076E+000  +5.8802153398E-003 +7.7364000590E+001  +3.6193633052E-003 +8.3215846795E+001  +7.0833381682E-001 -1.5678889621E-002 
12398372.966 +7.2011067550E-001 +3.7534086472E+000  +4.6034146962E-003 +8.7571478636E+001  +4.9475606049E-003 +9.1980146528E+001  +7.1735302518E-001 +4.3235320672E-001 
12523518.148 +7.0823161966E-001 +3.2903584611E+000  +6.3107058784E-003 +9.6447976846E+001  +5.5786362667E-003 +9.3205176584E+001  +6.8863588242E-001 +2.1799007767E+000 
12648663.329 +7.5668231332E-001 +1.4538324145E+000  +8.1457998444E-003 +7.9813359461E+001  +3.5901575589E-003 +9.3357895420E+001  +7.5910957322E-001 -6.1985001467E-001 
12773808.511 +7.6352916830E-001 +2.2146110683E+000  +4.9530873770E-003 +9.1149380957E+001  +4.7622723784E-003 +1.0527767495E+002  +7.2865731511E-001 -1.1143775076E+000 
12898953.692 +7.6823540553E-001 +4.4762493668E-001  +7.0001756350E-003 +8.1920537337E+001  +5.5610279360E-003 +7.5961940112E+001  +7.7939709251E-001 -2.5564024017E+000 
13024098.874 +7.9554060972E-001 +8.4242313843E-001  +5.4967679155E-003 +8.5157946112E+001  +7.1551777175E-003 +8.6399074212E+001  +7.8181170033E-001 -2.0064325040E+000 
13149244.055 +8.0766888718E-001 +1.2458724201E+000  +5.4130568688E-003 +8.8444410099E+001  +7.9342742049E-003 +1.0904892972E+002  +8.0796143372E-001 -2.6171082349E+000 
13274389.237 +8.1867075261E-001 -3.5995480825E-001  +8.3894712338E-003 +9.0173172392E+001  +5.7702953035E-003 +1.1712655212E+002  +8.3890243603E-001 -3.2438204973E+000 
13399534.418 +8.3917574710E-001 -8.5914081222E-001  +5.1762716276E-003 +9.4522600727E+001  +4.7853582277E-003 +8.1664752295E+001  +8.4107434111E-001 -1.5912903915E+000 
13524679.599 +8.6991592957E-001 -1.9193768835E+000  +7.6390679533E-003 +8.7673370903E+001  +7.4092352219E-003 +9.8869628968E+001  +8.8032768834E-001 -1.8086181024E+000 
13649824.781 +8.6541693192E-001 -1.6090120584E+000  +5.4690346394E-003 +7.8885410963E+001  +6.0434679335E-003 +9.1574425039E+001  +8.8846199853E-001 -2.8270351699E+000 
13774969.962 +8.8713093028E-001 -1.7516878711E+000  +7.2597589620E-003 +1.0107780191E+002  +5.1817166714E-003 +9.3012053304E+001  +8.9838841783E-001 -3.9423545053E+000 
13900115.144 +8.9603189214E-001 -2.2688286507E+000  +6.6528203145E-003 +8.0110959378E+001  +6.3076143810E-003 +9.6891027406E+001  +9.3405280509E-001 -3.6516808337E+000 
14025260.325 +9.3187911060E-001 -4.0632101885E+000  +7.6627053209E-003 +1.0491028495E+002  +7.4168345028E-003 +8.8183295207E+001  +9.4600408154E-001 -3.6626066700E+000 
14150405.507 +9.4813047291E-001 -4.4919956443E+000  +6.9695308137E-003 +8.6918255556E+001  +6.7914125139E-003 +1.0136202105E+002  +9.7086050201E-001 -4.4320059070E+000 
14275550.688 +9.6022043541E-001 -3.6845707311E+000  +7.2500289265E-003 +9.5405994525E+001  +7.8358663204E-003 +9.8653751962E+001  +9.7629959215E-001 -4.3019021832E+000 
14400695.870 +9.5344609555E-001 -6.1048476786E+000  +7.2097517766E-003 +8.2513440903E+001  +7.4441600482E-003 +8.4471853101E+001  +9.8710527311E-001 -4.9923026402E+000 
