!  2-Port S-parameters saved by WinCal
! VAR MeasName=S-Parameters (CALIBRATED_DATA) read from VNA (P5004A)
! VAR MeasDate=27/08/2024 12:50:13
! VAR NAME=S2_r8c9_pristine_9k-100M_1
! VAR FILENAME=S2_r8c9_pristine_9k-100M_1.S2P
! VAR DATE=27/08/2024 12:50:13
! VAR PHYS_PORTS=1,2
! VAR ObjTypeName=DATASET
! VAR IndexType=Frequency
!
# Hz S MA R 50
9000.000 +4.3932332140E-002 -1.7945290679E+002  +1.9176334605E-002 +1.2261140285E+000  +3.0596149836E-002 +7.4182155433E+001  +3.8456852534E-001 -1.3004816359E+002 
134145.181 +1.1159901797E-001 +1.6986058488E+002  +5.6421835865E-004 -5.4256106457E+001  +9.7619927874E-004 -4.8555015138E+001  +2.3604712800E-001 -1.7075961440E+002 
259290.363 +1.1182807936E-001 +1.6979992008E+002  +5.2259246603E-004 +2.8041411201E+001  +1.2032318810E-003 -1.0892092784E+002  +2.3683996232E-001 -1.6766244296E+002 
384435.544 +1.1237944548E-001 +1.7028668974E+002  +5.2420458161E-004 -2.9576826433E+001  +4.5627744709E-004 -1.3212314574E+002  +2.4085881869E-001 -1.6897736103E+002 
509580.726 +1.1432414888E-001 +1.7017542664E+002  +3.4855337413E-004 +1.1809493312E+002  +2.4712948724E-003 +8.9710322342E+001  +2.5086609604E-001 -1.6112593219E+002 
634725.907 +1.1790635228E-001 +1.7040579207E+002  +5.1715441259E-004 +1.4846187909E+002  +5.4491569097E-004 -9.5985729923E+001  +2.5017322868E-001 -1.6297004266E+002 
759871.089 +1.1689924760E-001 +1.7006779979E+002  +2.7708306826E-004 +2.6659707659E+001  +1.1859026854E-003 -1.2527599072E+002  +2.3602314661E-001 -1.6682611552E+002 
885016.270 +1.1472493177E-001 +1.6918421157E+002  +3.2260276874E-004 -1.6136798568E+001  +2.6743596299E-004 -1.0941476860E+002  +2.2787340137E-001 -1.6211929490E+002 
1010161.452 +1.1644897957E-001 +1.7047057039E+002  +2.6563697243E-003 -8.8817171373E+001  +9.2061254843E-004 +1.2125157005E+002  +1.8464153342E-001 -1.7308983965E+002 
1135306.633 +1.1759212865E-001 +1.7006133766E+002  +3.7918831763E-003 +1.4662581495E+001  +2.2349294089E-003 -1.3865373574E+002  +1.1038665531E-001 +1.3732863126E+002 
1260451.815 +1.2191428015E-001 +1.7124101808E+002  +2.3033824147E-004 +6.8994219505E+001  +1.2972315163E-003 -6.6219564995E+001  +2.2507768452E-001 -1.6138655636E+002 
1385596.996 +1.2508614446E-001 +1.7158418275E+002  +1.1450244302E-003 +6.1018775169E+001  +3.5308203741E-004 +6.8437513721E+001  +2.5440433651E-001 -1.6001715841E+002 
1510742.178 +1.2584868055E-001 +1.7133051129E+002  +4.8628712146E-004 -7.8641585533E+001  +1.3150133480E-003 -1.3175101903E+001  +2.6002926874E-001 -1.5770588197E+002 
1635887.359 +1.2595100040E-001 +1.7002354011E+002  +8.8548361565E-004 -1.1840083425E+001  +4.7875576845E-005 -1.7354169411E+002  +2.4540401069E-001 -1.5717341808E+002 
1761032.541 +1.2622736729E-001 +1.6753333179E+002  +7.8671394693E-004 -6.7384523623E+001  +4.8672245174E-004 -5.5624510441E+001  +2.2497193688E-001 -1.6506499881E+002 
1886177.722 +1.2915106780E-001 +1.6800802355E+002  +1.0690855164E-003 -5.2889368116E+001  +1.0445685679E-003 -8.6247143031E+001  +2.1557338240E-001 -1.6877801562E+002 
2011322.904 +1.2698449010E-001 +1.6321752943E+002  +2.7029717166E-003 -5.2743023866E+001  +1.0212539517E-003 +5.7520216057E+001  +1.8605163660E-001 -1.6320669446E+002 
2136468.085 +1.2294229603E-001 +1.6398897471E+002  +1.4522731956E-003 -3.4664306278E+001  +1.6164096648E-003 +1.6513106727E+002  +1.5246586730E-001 +1.7979552960E+002 
2261613.267 +1.3141414405E-001 +1.6436672881E+002  +5.2813891454E-003 -1.4676086408E+002  +3.1878630736E-003 -1.0541263716E+002  +1.8322264312E-001 +1.6607993233E+002 
2386758.448 +1.3823328950E-001 +1.6213606853E+002  +2.6104000257E-003 +4.3686761625E+000  +1.1596457487E-003 -1.0976121210E+002  +2.6959271890E-001 +1.7191163935E+002 
2511903.630 +1.3289884052E-001 +1.6177719437E+002  +6.2234488651E-003 +1.2260673598E+002  +4.5195941416E-003 +1.2179944370E+002  +2.8102707293E-001 +1.5127380073E+002 
2637048.811 +9.3679548768E-002 +1.6046766550E+002  +1.4204767723E-002 +5.6693921121E+001  +3.8302099644E-003 +1.3573690553E+002  +2.4011096671E-001 +1.3853841724E+002 
2762193.992 +1.0743879683E-001 +1.6101806254E+002  +5.8013737809E-003 -5.6559157542E+001  +4.3309986102E-003 +1.1039194380E+002  +3.7575647116E-001 -1.1274525047E+002 
2887339.174 +6.8359387219E-002 +1.4771993088E+002  +8.0754778368E-003 -5.2591929055E+001  +2.8100818428E-002 -5.2862280994E+001  +7.5697684933E-001 -1.2414725996E+002 
3012484.355 +1.4482521343E-001 +1.7800304870E+002  +2.3238479445E-003 -1.2706014739E+002  +2.0991791387E-003 +7.4846977410E+001  +4.8843217329E-001 -9.9209759572E+001 
3137629.537 +9.3598352835E-002 -1.7246253623E+002  +8.9078439152E-003 +9.0202221708E+001  +1.1185081487E-002 -1.1148860025E+002  +2.6307975263E-001 -9.3973706588E+001 
3262774.718 +1.2513021519E-001 +1.4625248068E+002  +3.6379779673E-002 +1.0260779542E+002  +2.6511158561E-002 +1.4485343543E+002  +1.8050574800E+000 +1.5837594150E+002 
3387919.900 +1.0215857164E-001 +1.2864821419E+002  +1.1971367905E-002 +1.5027931391E+002  +2.5191264987E-003 -1.7701246268E+002  +3.5970840314E-001 -4.6377601321E+001 
3513065.081 +1.7901107598E-001 +1.4364947124E+002  +2.2463934905E-002 +6.2815844939E+001  +2.9509451635E-002 -9.5536152515E+001  +6.3885332825E-001 +1.2887059516E+002 
3638210.263 +1.7097495959E-001 +1.4632816414E+002  +1.5358001424E-002 -1.6547171534E+002  +1.3914070521E-002 -1.7699928545E+001  +5.5267686661E-001 +7.7942968470E+001 
3763355.444 +1.7608574187E-001 +1.3009610430E+002  +9.6135817733E-003 -5.0100216469E+001  +5.5025427835E-003 -7.2985204421E+001  +5.0239894182E-001 +1.4267777205E+002 
3888500.626 +1.5535392429E-001 +1.4155011014E+002  +6.5065898359E-003 -1.5844546875E+001  +5.7666811912E-003 +1.0753837889E+002  +3.4944134167E-001 +9.8453104834E+001 
4013645.807 +1.6919973299E-001 +1.4365576163E+002  +4.3770861147E-003 +4.8123610641E+001  +4.4379934370E-003 +8.9850747333E+001  +4.7504389043E-001 +1.3792561710E+002 
4138790.989 +1.8399933825E-001 +1.4990016543E+002  +3.0318448565E-003 -6.0646887238E+001  +1.0068711823E-002 -1.6766955759E+002  +5.3468971072E-001 +1.2418422975E+002 
4263936.170 +1.8067197300E-001 +1.3670710647E+002  +6.8632887181E-003 +1.3767908881E+002  +3.7540747468E-003 -3.3697226718E+001  +1.4879532579E-001 +1.0318621814E+002 
4389081.352 +2.5247557972E-001 +1.3249018587E+002  +5.6062845876E-003 -1.3562499644E+001  +9.7730798044E-003 +6.4423060286E+000  +6.9097958865E-001 +1.3887116222E+002 
4514226.533 +2.6300043885E-001 +1.2879808121E+002  +1.6087879494E-002 -3.6619416050E+001  +1.3598347096E-002 +3.7933145937E+001  +1.6899605877E+000 +7.5206718963E+001 
4639371.715 +2.7943137116E-001 +1.2321756586E+002  +4.5354332616E-002 +1.4758876445E+002  +1.1171719831E-001 +5.6048234764E+001  +2.8760102707E+000 +1.4877052056E+002 
4764516.896 +3.1279611452E-001 +1.1798246561E+002  +4.5132341188E-002 +1.1270432807E+002  +4.3139729536E-002 +9.9643893041E+001  +1.6542744792E+000 +9.0834576063E+001 
4889662.078 +4.8058272863E-001 +1.1832184996E+002  +6.6391279215E-002 -1.4867851123E+001  +7.5944337157E-003 +1.2822993412E+002  +2.8270341286E+000 -1.0102468822E+002 
5014807.259 +3.7723428897E-001 +1.3562552755E+002  +1.2879796911E-002 +8.9082366976E+001  +9.2099337977E-003 -1.1573140635E+001  +3.7947469321E+000 +1.2644578760E+002 
5139952.441 +3.8725881053E-001 +1.2320088738E+002  +6.9721247589E-002 -1.1363355149E+002  +1.6703210741E-002 +1.6603877420E+002  +2.6754031098E+000 +1.1813973664E+002 
5265097.622 +4.0984135483E-001 +1.3034104913E+002  +4.8736931231E-002 -1.7778609121E+002  +2.2892344545E-002 -1.7044269876E+002  +2.0144062503E+000 +7.9539709896E+001 
5390242.804 +4.7132773664E-001 +1.2895946564E+002  +1.8252494984E-002 +1.0395481771E+002  +2.7501884908E-002 +1.7820514487E+002  +1.3453563385E+000 +6.6329458522E+001 
5515387.985 +4.4278935357E-001 +1.1704367704E+002  +3.4426324673E-002 -1.7115272045E+002  +3.9567981375E-002 -9.9099028307E+001  +4.6022843025E+000 +1.0064576032E+002 
5640533.166 +4.2230092231E-001 +1.2527779717E+002  +3.3550980564E-002 +1.4430373135E+002  +8.2785977867E-003 +1.3352059571E+002  +2.4428179616E+000 +9.2447960439E+001 
5765678.348 +5.0166036515E-001 +1.2130530976E+002  +1.3933508260E-002 +6.0974951620E+001  +5.4585060267E-003 -1.0409102099E+002  +2.0958478922E+000 +8.3334897195E+001 
5890823.529 +6.0762328617E-001 +1.2634910570E+002  +1.3863666343E-002 -7.5136526370E+001  +1.1804189661E-002 -5.4203804108E+001  +1.7857810949E+000 +7.2298273234E+001 
6015968.711 +6.1564471287E-001 +1.1210083941E+002  +1.5160593442E-002 -6.8708309454E+001  +1.5693872292E-002 -4.0930718248E+001  +1.9056622584E+000 +7.8042768641E+001 
6141113.892 +6.3724920363E-001 +1.1485628297E+002  +4.4456314534E-003 +1.4253206131E+002  +9.1413057461E-003 -8.7253438545E+001  +1.4769917919E+000 +3.9661299848E+001 
6266259.074 +7.9383290537E-001 +1.0103047078E+002  +3.1460708689E-002 +1.3741208127E+002  +2.6667401046E-002 +6.5796389736E+000  +2.0560790198E+000 +1.3503090755E+001 
6391404.255 +9.4290735443E-001 +9.0824613991E+001  +3.1121277418E-002 +5.9679794749E+001  +1.5987895613E-002 +2.3145045890E+001  +1.2599850471E+000 +1.1592795045E+001 
6516549.437 +1.2304523976E+000 +8.8360038454E+001  +3.1185044979E-002 -1.7194656702E+002  +1.6318472158E-002 +1.0971748364E+002  +1.5652469378E+000 +2.5076508789E+001 
6641694.618 +1.8606327364E+000 +6.8800258682E+001  +2.2066449728E-002 +4.2436083240E+001  +1.2682646061E-002 +2.0252723731E+001  +1.3548262888E+000 -1.6978588545E+000 
6766839.800 +1.9401218805E+000 +5.7018685271E+001  +1.2932602405E-002 +7.4960439895E+001  +2.1441798769E-002 +1.1383057125E+002  +1.3290139588E+000 -1.2146492889E+000 
6891984.981 +2.0715182934E+000 +2.2776026395E+001  +1.0382454028E-002 +1.2632820552E+002  +3.2041543156E-002 +7.4235490465E+001  +1.2132669178E+000 -1.1060466621E+001 
7017130.163 +1.8903906125E+000 +1.8712018656E+001  +1.5538616658E-002 +1.1466568101E+002  +1.6717887211E-002 +9.4547216300E+001  +1.3303317986E+000 -1.0596000922E+001 
7142275.344 +1.8522951604E+000 +8.9758362448E+000  +2.0026232817E-002 +1.1737659670E+002  +1.6613939793E-002 +6.5570266532E+001  +1.4460637113E+000 -2.8004362096E+000 
7267420.526 +1.4657440342E+000 +2.7396276504E+000  +1.8132478403E-002 +1.3729139333E+002  +6.5857306184E-003 -1.0299268753E+002  +1.3631178386E+000 -1.4954292410E+001 
7392565.707 +1.3302474200E+000 -6.5439376946E+000  +1.0760325327E-002 +1.1868490205E+002  +2.0167038028E-003 -1.5404686077E+002  +1.3030702372E+000 -8.2920583905E+000 
7517710.889 +1.2768709367E+000 -2.3542472690E+000  +7.6221483102E-003 +1.0942115391E+002  +1.3202418615E-002 +5.1970816703E+001  +1.1267010978E+000 -1.9593352423E+000 
7642856.070 +1.0536709450E+000 +2.0041082612E+000  +4.6760743486E-003 +3.1301382372E+001  +6.9148518636E-003 +9.6380615324E+001  +1.1373330669E+000 -3.9666071894E+000 
7768001.252 +1.0835644987E+000 +2.2249862043E+000  +6.8652032048E-003 +3.2528100875E+001  +8.8448147961E-003 +8.6342869310E+001  +1.0403700200E+000 -2.7683905103E+000 
7893146.433 +9.9231238346E-001 +4.5271254104E-002  +3.1904558154E-003 +6.1368745960E+001  +7.9709531648E-003 +1.0415311676E+002  +8.7898994265E-001 -9.2744647083E+000 
8018291.615 +7.7072167128E-001 +4.9779505812E+000  +4.2531076618E-003 +1.0107792191E+002  +3.1042791622E-003 -3.2499059629E-001  +8.9339076243E-001 -7.0503192328E+000 
8143436.796 +8.5653310892E-001 +7.7835431624E-001  +3.1166141583E-003 +9.0467657991E+001  +2.3635428784E-003 +4.1108844661E+001  +7.5853282087E-001 +6.8931531455E-001 
8268581.977 +6.5761461380E-001 +4.5990267751E+000  +7.0219671529E-003 +4.6111511321E+001  +2.3900112245E-003 +7.2201327412E+001  +7.8261084266E-001 +3.8090592433E-001 
8393727.159 +6.9604265333E-001 +1.5031198043E+001  +5.6484292232E-004 +1.4485946988E+002  +5.2704099384E-003 +6.7814291892E+001  +6.7969787561E-001 +6.4878777160E-001 
8518872.340 +6.9483546626E-001 +1.1659736857E+001  +4.2784996997E-003 +1.7486306477E+002  +4.1055759752E-003 +8.4925452365E+001  +7.3530962225E-001 +3.8329548394E+000 
8644017.522 +6.7447713977E-001 +9.8862977899E+000  +4.9044204790E-003 +5.7255845150E+001  +2.6357918026E-003 +9.3109882534E+001  +7.0997062590E-001 +1.0379316383E-001 
8769162.703 +6.3767917162E-001 +6.5808617883E+000  +3.5558250171E-003 +8.2805968871E+001  +8.2275246360E-003 +1.2446829014E+002  +6.8922860267E-001 -1.9728496421E+000 
8894307.885 +7.3950236793E-001 +4.5736772111E+000  +5.8971805206E-003 +5.5075254395E+001  +2.0041197455E-003 +1.1007934612E+002  +6.5561942061E-001 +1.3957678822E+000 
9019453.066 +5.8511181887E-001 +4.6163514793E+000  +2.6112980699E-003 -1.0321133572E+001  +4.7818211491E-003 +1.1611137217E+002  +6.3050926807E-001 -3.5982345224E+000 
9144598.248 +6.1804608949E-001 -1.1389849075E+000  +4.1001232478E-003 +3.2395180423E+001  +4.6156830205E-003 +1.1464103791E+002  +6.3097103754E-001 -8.4762485689E-001 
9269743.429 +5.8111390666E-001 +1.8124467143E+000  +3.0355597813E-003 +1.2685595695E+002  +7.0598837560E-003 +1.1617194971E+002  +5.3350280531E-001 +9.1598689436E-001 
9394888.611 +5.9215434143E-001 +3.2620850896E+000  +2.0330089808E-003 +1.4627421294E+002  +5.0596010611E-003 +4.6597056113E+001  +5.6923278678E-001 -1.5515578727E+000 
9520033.792 +5.6341057569E-001 +8.6809892579E-001  +7.0480181611E-003 +8.1725178558E+001  +6.7362206331E-003 +8.6276252850E+001  +6.2516593069E-001 -1.2747622701E+000 
9645178.974 +5.5189821758E-001 +1.9129329789E-001  +3.2641074002E-003 +7.9753782724E+001  +4.1599605692E-003 +1.4535310547E+002  +6.2313200444E-001 -6.7500919079E+000 
9770324.155 +5.5251952096E-001 -1.1320664323E+000  +2.7442376571E-003 +2.5411129115E+000  +4.2923188125E-003 +1.1837445927E+002  +5.8722307581E-001 -7.4471244963E+000 
9895469.337 +5.6974778856E-001 +1.0937835662E+000  +3.1954320911E-003 +1.0792932319E+002  +6.6617300658E-003 +9.2895687500E+001  +5.9864649741E-001 -7.1728961773E+000 
10020614.518 +5.3493218260E-001 +4.2623942464E+000  +5.3067033665E-003 +6.2978128941E+001  +4.6763242597E-003 +1.0117368769E+002  +6.1055002855E-001 -1.0847038399E+001 
10145759.700 +5.3918114370E-001 +3.4784546896E+000  +4.5880378885E-003 +9.2503692849E+001  +3.4963417090E-003 +9.1895779743E+001  +6.1721614082E-001 -3.2932401423E+000 
10270904.881 +5.5342966705E-001 +4.0574640038E+000  +4.0622895725E-003 +8.9228213970E+001  +1.8184237299E-003 +1.3583005757E+002  +5.4651644389E-001 -6.9022007907E+000 
10396050.063 +5.5718959171E-001 +2.5383229442E+000  +3.3594443223E-003 +7.4698058881E+001  +7.9808038108E-003 +1.0673990816E+002  +5.9832866909E-001 +1.2868929533E-001 
10521195.244 +5.4092982021E-001 +7.2348752401E+000  +2.5557879720E-003 +1.0479227908E+002  +1.1588853084E-003 +1.7400717112E+002  +5.9513645271E-001 -1.6359558330E+000 
10646340.426 +5.6650404107E-001 +3.0229798993E+000  +4.3827650325E-003 +1.1054551522E+002  +2.2473454709E-003 +8.4781603279E+001  +6.0339700489E-001 -7.5068948088E-001 
10771485.607 +5.8288731518E-001 +5.5154300490E+000  +3.5662191931E-003 +4.5159512097E+001  +5.6197186164E-003 +1.0487168396E+002  +6.0715202343E-001 -8.6418690466E-001 
10896630.788 +6.0593503898E-001 +5.1026549511E+000  +4.7301186290E-003 +7.1917937064E+001  +4.9777641630E-003 +9.0099576677E+001  +6.0886163364E-001 -1.9273941197E+000 
11021775.970 +5.6648293417E-001 +5.8024316672E+000  +5.3323011389E-003 +1.1370248169E+002  +1.8591167328E-003 +7.5354230938E+001  +6.1231922564E-001 +1.0662816165E+000 
11146921.151 +6.0402492960E-001 +7.1508528922E+000  +4.0122087555E-003 +8.7023015308E+001  +5.7478473651E-003 +1.0556209754E+002  +5.8917075527E-001 -1.5692178854E+000 
11272066.333 +6.1871330801E-001 +4.5695231064E+000  +2.4633586309E-003 +8.8551091637E+001  +7.0329440356E-003 +1.2080762265E+002  +6.2469117285E-001 +1.4412744854E+000 
11397211.514 +6.0231581850E-001 +6.2631523799E+000  +6.6642779090E-003 +1.0119579269E+002  +5.0516337132E-003 +9.5310341105E+001  +6.4487831043E-001 -7.7538053717E-001 
11522356.696 +6.1595335437E-001 +6.3528860862E+000  +2.0801005036E-003 +8.3414905628E+001  +5.1187925167E-003 +9.8798890498E+001  +6.6004743788E-001 +1.6758355588E+000 
11647501.877 +6.1787023021E-001 +6.3051716380E+000  +5.1772128489E-003 +7.4881428684E+001  +5.3102255523E-003 +1.0968897829E+002  +6.6599790399E-001 +6.5165819484E-001 
11772647.059 +6.5503439940E-001 +5.1930678434E+000  +5.1901310214E-003 +7.8418756338E+001  +3.4974833808E-003 +1.4007978576E+002  +6.3989611984E-001 +1.7395183543E+000 
11897792.240 +6.7899125238E-001 +5.0741551341E+000  +4.4852155265E-003 +8.5241446986E+001  +6.8004919434E-003 +9.8517805573E+001  +6.9532650615E-001 +3.0126075788E+000 
12022937.422 +6.8143511065E-001 +3.3492339559E+000  +4.5623527328E-003 +6.9753249505E+001  +3.4159242467E-003 +1.2568368856E+002  +6.9420113658E-001 +6.4649960871E-001 
12148082.603 +6.7168040948E-001 +5.8080641869E+000  +5.1582051483E-003 +7.6128019366E+001  +4.8734637351E-003 +9.3548543930E+001  +7.0061298049E-001 -6.8184030468E-001 
12273227.785 +6.9871968195E-001 +5.2993384532E+000  +5.5288722491E-003 +9.2164417785E+001  +5.8135339547E-003 +9.6453991563E+001  +7.1271083099E-001 +4.5772217257E-001 
12398372.966 +6.8664035851E-001 +1.6973550107E+000  +6.1949244045E-003 +1.0472163150E+002  +7.3835891168E-003 +1.0660675195E+002  +7.4329537387E-001 +6.0877564097E-002 
12523518.148 +7.2968903295E-001 +1.7674861121E+000  +6.9554103180E-003 +8.9613452909E+001  +5.2210061746E-003 +7.7266059528E+001  +7.4657064297E-001 -1.7214547416E+000 
12648663.329 +7.3084941291E-001 +3.4995463642E+000  +5.3123855683E-003 +8.4240799577E+001  +6.1057358429E-003 +1.1691584069E+002  +7.5598836636E-001 +1.0132108667E+000 
12773808.511 +7.5286930190E-001 +2.1541176485E+000  +6.2376743218E-003 +1.0647412890E+002  +7.7939914665E-003 +1.1508027748E+002  +7.5080482459E-001 -1.9399697522E+000 
12898953.692 +7.6904478722E-001 +2.0226100548E+000  +6.9854116425E-003 +8.9441262986E+001  +7.0450880065E-003 +1.0199811874E+002  +7.8989870569E-001 -3.1347992722E+000 
13024098.874 +7.8731263424E-001 -4.9809219003E-001  +7.2759089015E-003 +9.6937461066E+001  +6.0032096009E-003 +8.4375728275E+001  +8.0349675297E-001 -1.1477380632E+000 
13149244.055 +7.9195079431E-001 +1.7343243205E+000  +6.5333712035E-003 +8.3004691515E+001  +5.7247438786E-003 +9.8781794868E+001  +8.0686595697E-001 -7.2088240637E-001 
13274389.237 +8.1727879176E-001 +8.0067717298E-001  +5.6523786301E-003 +7.6541959780E+001  +4.1417925409E-003 +9.0576833770E+001  +8.2383287344E-001 -2.5681567409E+000 
13399534.418 +8.3137587912E-001 -2.0841364313E+000  +7.6024702406E-003 +9.5866335552E+001  +6.0609092690E-003 +1.0296431506E+002  +8.3681565916E-001 -3.2230395603E+000 
13524679.599 +8.5672305205E-001 -2.3503445042E+000  +5.0336818502E-003 +8.4843113276E+001  +6.2150942616E-003 +8.0913670411E+001  +8.6991397899E-001 -3.5763108662E+000 
13649824.781 +8.7427095964E-001 -2.8266891794E+000  +7.7347803488E-003 +9.5329130480E+001  +6.0342332229E-003 +8.2252044209E+001  +8.6269041151E-001 -3.8370226980E+000 
13774969.962 +8.8921643337E-001 -2.4612223224E+000  +7.1725385812E-003 +9.4069813740E+001  +6.2423291596E-003 +8.9889798714E+001  +8.9374736995E-001 -2.7848773921E+000 
13900115.144 +8.9779889237E-001 -4.1425316089E+000  +6.0699214530E-003 +9.2264230799E+001  +6.5487810133E-003 +9.3777762011E+001  +9.0219604626E-001 -3.1967313477E+000 
14025260.325 +9.3102591997E-001 -3.7314064384E+000  +7.7258236353E-003 +8.3892390271E+001  +5.8371324011E-003 +9.1426779707E+001  +9.2754365994E-001 -4.2998283826E+000 
14150405.507 +9.5360812944E-001 -4.0569956310E+000  +6.6161498149E-003 +1.0298978747E+002  +8.5222499855E-003 +1.0895107593E+002  +9.5094896750E-001 -3.1574335640E+000 
14275550.688 +9.5427664479E-001 -4.2803422010E+000  +7.4475376766E-003 +9.1566648501E+001  +7.6815020986E-003 +9.1753216892E+001  +9.8327166736E-001 -3.6558196765E+000 
14400695.870 +9.7378975029E-001 -5.6230154166E+000  +8.7304660278E-003 +9.3567393879E+001  +6.9605927902E-003 +9.5238394580E+001  +9.8926692044E-001 -4.9098174640E+000 
