!  2-Port S-parameters saved by WinCal
! VAR MeasName=S-Parameters (CALIBRATED_DATA) read from VNA (P5004A)
! VAR MeasDate=28/08/2024 12:26:22
! VAR NAME=S2_r7c9_SET2_9k-100M_3
! VAR FILENAME=S2_r7c9_SET2_9k-100M_3.S2P
! VAR DATE=28/08/2024 12:26:22
! VAR PHYS_PORTS=1,2
! VAR ObjTypeName=DATASET
! VAR IndexType=Frequency
!
# Hz S MA R 50
9000.000 +7.9461083442E-002 -1.6933675023E+002  +1.1500274615E-002 -1.6580115697E+001  +3.7615278691E-003 +9.3785604407E+001  +2.6496534038E-001 -1.4302073794E+002 
134145.181 +1.1088355289E-001 +1.6966356803E+002  +1.5201092474E-004 +1.0546424488E+002  +8.6942377399E-004 +9.9434874934E+001  +2.4191360963E-001 -1.7131094996E+002 
259290.363 +1.1239566699E-001 +1.6961965622E+002  +1.1710640873E-003 -9.0191478226E+000  +1.0581633558E-003 -4.3613871247E+001  +2.4441087953E-001 -1.6719398161E+002 
384435.544 +1.1483073114E-001 +1.7049450251E+002  +9.8260015495E-004 +1.1411140103E+002  +3.8558442067E-004 -1.5222617292E+002  +2.4050884847E-001 -1.6749369326E+002 
509580.726 +1.1476373475E-001 +1.7150635719E+002  +8.6979924032E-004 -1.6101115362E+002  +8.9201411863E-004 +7.9602365100E+001  +2.4668124434E-001 -1.6808325875E+002 
634725.907 +1.1851272958E-001 +1.7201989527E+002  +5.5157471446E-004 -2.5854764983E+001  +4.6647514782E-004 +3.4664606782E+001  +2.5668113875E-001 -1.6640439125E+002 
759871.089 +1.1726587774E-001 +1.7200357742E+002  +1.1532438287E-004 +4.6306611634E+001  +7.8892473858E-004 +1.7593382091E+001  +2.4813649903E-001 -1.6822713704E+002 
885016.270 +1.2074890533E-001 +1.6989753497E+002  +2.4877493557E-004 -1.2036316647E+002  +2.9508098469E-004 -8.5165287051E+001  +2.4396955873E-001 -1.6742772468E+002 
1010161.452 +1.1390331595E-001 +1.7230596473E+002  +9.1524631447E-004 -1.6608198501E+002  +2.4378162746E-003 +1.8663419157E+001  +2.2362247432E-001 -1.6117678178E+002 
1135306.633 +1.1837904890E-001 +1.7021177800E+002  +1.9066004989E-003 -1.5298418467E+002  +1.9103935701E-003 -9.0552448453E+001  +1.8538696317E-001 -1.6949173977E+002 
1260451.815 +1.1428037537E-001 +1.7087512550E+002  +1.3928014606E-003 -1.3585524800E+002  +2.2589807710E-003 +1.3235427886E+000  +2.4354310916E-001 -1.5967871769E+002 
1385596.996 +1.2373838504E-001 +1.7406243240E+002  +1.4080513630E-003 -1.5227034820E+002  +1.1306272653E-003 +6.3588095866E+001  +2.6146048844E-001 -1.6032593827E+002 
1510742.178 +1.2603611380E-001 +1.7149706511E+002  +7.5069343016E-004 -8.2135238123E+001  +1.4247914377E-003 -1.3229816827E+001  +2.5770163518E-001 -1.5531324734E+002 
1635887.359 +1.2702029843E-001 +1.7140997503E+002  +1.5048569667E-003 -1.4412458286E+002  +1.1324605573E-003 -1.2974611228E+002  +2.5043918991E-001 -1.5297284414E+002 
1761032.541 +1.2993502516E-001 +1.6932933801E+002  +2.7281112801E-004 +1.4229776061E+002  +1.6290241422E-004 -1.4655603162E+002  +2.2899808109E-001 -1.5887970708E+002 
1886177.722 +1.2801640251E-001 +1.6949657272E+002  +3.6142606146E-003 +1.6086130379E+002  +1.0130373553E-003 -4.9910148667E+000  +2.0454531733E-001 -1.6098790028E+002 
2011322.904 +1.3230206391E-001 +1.6701695885E+002  +2.0980494852E-003 +9.8270933578E+001  +6.5701362676E-004 +1.2023686755E+002  +2.1381926912E-001 -1.6301511349E+002 
2136468.085 +1.2743386178E-001 +1.6524054313E+002  +1.8065399454E-003 +1.7645614484E+002  +4.8304745499E-003 -6.2736680624E+001  +1.3572430962E-001 -1.6766598961E+002 
2261613.267 +1.3397391618E-001 +1.6311606988E+002  +1.2013889138E-003 -4.4070746888E+001  +3.8424556977E-003 -5.0461838790E+001  +1.9462295443E-001 +1.7883121830E+002 
2386758.448 +1.3238107731E-001 +1.5825893394E+002  +3.0297534010E-003 -1.4206712644E+002  +2.1336579561E-003 -1.4549776374E+002  +1.9656839993E-001 +1.6508589066E+002 
2511903.630 +1.2511486034E-001 +1.6553141206E+002  +9.0077310084E-003 +8.5826109327E+001  +1.0046297649E-002 +3.6333928183E+001  +2.2562378415E-001 +1.2115279848E+002 
2637048.811 +1.2592056493E-001 +1.7121753038E+002  +7.9490399998E-003 +1.2137987565E+002  +1.4115431233E-002 -1.0284441339E+002  +3.8228871223E-001 +1.1264047335E+002 
2762193.992 +1.1499095976E-001 +1.7575665780E+002  +5.6913728928E-002 +5.8897888954E+001  +1.9159853056E-002 -3.4040195053E+001  +1.2173024566E+000 +5.3027647424E+001 
2887339.174 +1.3235746545E-001 +1.6954749432E+002  +7.6314123074E-003 -1.1977105108E+001  +1.0644434997E-002 -1.7204588087E+001  +8.6168457036E-001 +2.6301447034E+000 
3012484.355 +1.3169645535E-001 +1.7076972630E+002  +4.0118683811E-003 -1.8892040011E+001  +4.0357545374E-003 -1.1558515746E+002  +1.3414208050E-001 -6.9752124700E+001 
3137629.537 +1.2983189701E-001 +1.6069362321E+002  +1.0249889596E-002 -2.4881510670E+001  +7.9270099536E-003 -1.3986747776E+002  +1.4911582101E-001 -1.0285071216E+002 
3262774.718 +9.6412363680E-002 +1.6689496168E+002  +2.7397295636E-002 +1.5135537567E+002  +9.5218686943E-003 +6.9180400506E+001  +6.2379813876E-001 +4.8488730963E+000 
3387919.900 +1.3801414791E-001 +1.5088578284E+002  +2.9283729358E-002 -7.2982133061E+001  +1.4743709039E-002 -1.8076344698E+001  +4.0009982285E-001 +8.1275844043E+001 
3513065.081 +1.7910938258E-001 +1.4787723079E+002  +9.8818500501E-003 +1.0504923788E+002  +1.4735598849E-002 -7.4591011362E-001  +3.0157930850E-001 +7.9593201711E+001 
3638210.263 +1.6125125332E-001 +1.4834999748E+002  +8.2956394971E-003 +1.3545924697E+002  +8.2916275553E-003 +8.1217525920E+001  +2.9729425510E-001 +1.2559240745E+002 
3763355.444 +1.8636567659E-001 +1.4162216395E+002  +1.7134532143E-002 +4.0403855231E+001  +1.5009501899E-002 +1.0252239417E+002  +4.7053369707E-001 +1.1589307727E+002 
3888500.626 +1.6537832728E-001 +1.4959094161E+002  +7.6327344293E-003 +5.3742537273E+001  +4.8279642873E-003 -3.3265202450E+000  +3.2436957379E-001 +1.4828102658E+002 
4013645.807 +1.7791511745E-001 +1.4887461696E+002  +7.2531718464E-003 +1.8087689444E+001  +5.8791843344E-003 -8.1417119663E+001  +4.1459342120E-001 +1.3913206458E+002 
4138790.989 +1.7644456688E-001 +1.3978998904E+002  +3.7735066317E-003 -1.0132612451E+002  +8.3263684425E-003 -8.6558737948E+000  +4.9919071659E-001 +1.2612753151E+002 
4263936.170 +1.8952216291E-001 +1.3531086104E+002  +6.9606219286E-003 -1.2246342044E+002  +6.5605179301E-003 -1.7693412590E+002  +4.7113926272E-001 +9.8550953596E+001 
4389081.352 +1.9421112791E-001 +1.4380020626E+002  +7.2585991908E-003 +2.5342802672E+001  +5.3246702996E-003 +1.4230878332E+002  +8.0791707134E-001 +1.4496931246E+002 
4514226.533 +2.1684506548E-001 +1.3210006537E+002  +3.5982396492E-002 +3.4854888056E+001  +1.0771487223E-002 -8.4705916664E+000  +1.8437931104E+000 +6.0557347366E+001 
4639371.715 +3.0976798224E-001 +1.2986127574E+002  +2.3304104789E-002 -3.4098692588E+001  +5.0126241497E-002 -1.7925466156E+002  +3.2319844428E+000 +1.7396088476E+002 
4764516.896 +3.3976750190E-001 +1.2257520449E+002  +1.2856820837E-001 -1.3240393635E+002  +2.9538162694E-001 -5.4929597287E+001  +1.9295230179E+001 -8.7812071036E+000 
4889662.078 +4.0643475772E-001 +1.3195689022E+002  +2.8945588594E-002 -5.6229334477E+001  +1.3851757028E-002 -9.8144393273E+000  +3.4650900921E+000 -1.3888533951E+002 
5014807.259 +3.3426476814E-001 +1.2733688015E+002  +5.2710090752E-002 +9.4121365934E+001  +6.7319497992E-002 +1.5204050709E+002  +3.5912015326E+000 +8.3040076001E+001 
5139952.441 +3.0774386033E-001 +1.2555845942E+002  +6.1365020465E-002 +1.3217464538E+002  +3.1999689450E-002 +1.7194176876E+002  +3.3655640833E+000 +9.9450855110E+001 
5265097.622 +4.1626880963E-001 +1.3928439402E+002  +4.9048748346E-002 +6.7964759409E+001  +2.9711385809E-002 +4.8232484662E+001  +2.8376596736E+000 +5.5181895069E+001 
5390242.804 +4.0333869211E-001 +1.2549238952E+002  +3.2289640820E-002 +3.2428258772E+001  +5.5226656525E-002 +4.1511380198E+001  +2.4632965567E+000 +9.3641197031E+001 
5515387.985 +4.0467730115E-001 +1.1815693214E+002  +6.4086008399E-002 +9.4569502944E+001  +3.5311744411E-002 +8.7758900283E+001  +2.2426488600E+000 +8.6301448441E+001 
5640533.166 +4.6731099339E-001 +1.2255397921E+002  +6.3620535664E-002 +1.0613437819E+002  +7.2842886636E-002 +9.0067303522E+001  +4.1446572163E+000 +9.6087936228E+001 
5765678.348 +5.5137489001E-001 +1.1630065230E+002  +5.4935975006E-002 +1.3209251341E+002  +2.0366085660E-002 +8.5600416940E+001  +2.2315135133E+000 +6.3942551690E+001 
5890823.529 +5.5668353284E-001 +1.2900531560E+002  +8.5101470395E-003 +1.3660516132E+002  +5.8458623061E-003 +1.1980059020E+002  +1.9165067899E+000 +8.9864150333E+001 
6015968.711 +6.5389723945E-001 +1.1998148399E+002  +3.4945714597E-002 +7.5482753577E+001  +2.6682573689E-002 +7.9344354101E+001  +2.1015170110E+000 +5.6529569887E+001 
6141113.892 +8.4389830948E-001 +1.0742186490E+002  +3.8377020948E-002 +4.8559285489E+001  +1.6952725278E-002 +9.6315480189E+001  +1.6058735485E+000 +6.1025783098E+001 
6266259.074 +8.6548307598E-001 +1.1418365725E+002  +8.4649570345E-003 +7.9672233198E+001  +2.1199115043E-002 +4.3415066436E+001  +1.6800126830E+000 +1.5186525713E+001 
6391404.255 +1.1844089739E+000 +9.0479268558E+001  +4.2350666968E-003 +1.6448117467E+002  +1.6551362285E-002 -1.1691588287E+002  +1.4411821304E+000 +3.0454213957E+001 
6516549.437 +1.3261175841E+000 +8.0739863947E+001  +5.8340600789E-002 +8.0916592630E+001  +3.3121003905E-002 +6.1018805399E+001  +1.7387522062E+000 +1.1704253022E+001 
6641694.618 +1.4371316852E+000 +7.7624121042E+001  +2.9150257761E-002 -2.2754008802E+001  +2.3580089460E-002 +3.9886505507E+001  +1.1530474631E+000 +5.3374139679E+000 
6766839.800 +1.8111136203E+000 +5.7353968835E+001  +5.7858544747E-002 -5.2445535140E+000  +5.5697911312E-002 +2.9313867156E+001  +1.4347582595E+000 -1.6767243757E+001 
6891984.981 +2.0206543505E+000 +3.8209861615E+001  +3.6582145034E-002 +4.4353304080E+001  +1.0481659196E-002 +4.2586394249E+001  +1.3533326397E+000 -1.3041266613E+001 
7017130.163 +1.6930934566E+000 +2.5888322317E+001  +1.1287593996E-002 +6.1257109170E+001  +1.1288172762E-002 +9.0670210106E+001  +1.4184965283E+000 -7.8366681773E+000 
7142275.344 +1.7409295863E+000 +6.3292422832E+000  +1.9374003969E-002 +2.2153183884E+001  +1.3470025412E-002 +7.5706657998E+001  +1.1625474693E+000 -1.3305086654E+001 
7267420.526 +1.5253781410E+000 +8.4557619247E+000  +1.4180811412E-002 +4.6107362677E+001  +1.4073809027E-002 +2.2966339618E+001  +1.3837324897E+000 -1.4223294562E+001 
7392565.707 +1.3741758528E+000 +3.3031045629E+000  +1.6120675664E-002 +5.3095856845E+001  +1.6082768421E-002 +1.0229843719E+001  +1.4352039222E+000 -6.8662110902E+000 
7517710.889 +1.1926170185E+000 -6.4588877223E-001  +8.8049079153E-003 +2.7209960560E+001  +7.1272371540E-003 +4.5698784536E+001  +1.3098822420E+000 -2.8677509517E+000 
7642856.070 +1.0404932515E+000 +2.8620194765E+000  +9.4200521837E-003 +6.0326230328E+001  +1.3942085603E-002 +1.7277160143E+001  +1.1823166784E+000 -2.1083644750E+000 
7768001.252 +7.8706723180E-001 -3.2616174062E-001  +1.5894329859E-002 +1.0274964464E+001  +1.6105705919E-002 +1.9286714545E+001  +1.0211871053E+000 -3.4990547025E+000 
7893146.433 +8.6916112776E-001 +9.5919326620E+000  +6.0254123028E-003 +3.0848095597E+001  +1.3544436600E-002 +6.0851944299E+001  +9.7598812890E-001 -3.8266323178E-002 
8018291.615 +8.6386280893E-001 -3.0248615852E+000  +4.5874566895E-003 +4.1594017351E+001  +8.3423260594E-003 +2.3902665298E+001  +9.0350094372E-001 -2.4965498224E+000 
8143436.796 +7.7703531896E-001 +3.4028831230E+000  +6.3463732807E-003 -1.1846824626E+001  +7.6731019163E-003 +1.1495778037E+001  +8.1530145514E-001 +3.3127224644E+000 
8268581.977 +7.1802911126E-001 +9.4557959503E+000  +6.1372736860E-003 +3.9860727427E+001  +6.2065669298E-003 +5.0737295678E+001  +7.8705446680E-001 -4.3797936175E-001 
8393727.159 +6.2872884641E-001 +2.3035006577E+000  +1.0816759532E-002 +2.3979565463E+001  +1.0691241550E-002 +1.4432024481E+001  +7.9810412106E-001 +4.2180251031E+000 
8518872.340 +6.7796991746E-001 +7.5899524822E+000  +5.6639831644E-003 +2.1527121621E+001  +1.4309589427E-002 +4.9446635035E+001  +6.5347851975E-001 +5.0105816078E+000 
8644017.522 +6.9068870099E-001 +6.7171482737E+000  +1.0021837138E-002 +1.9131645195E+001  +8.7482056571E-003 +6.8409918040E+000  +7.4402040859E-001 -1.2231118981E+000 
8769162.703 +6.0767768408E-001 +6.0436982596E+000  +6.7592298676E-003 +4.0461206578E+001  +4.9100498651E-003 +2.5501319022E+001  +6.2536956158E-001 -2.8179690964E+000 
8894307.885 +6.4253446736E-001 +7.6445026271E+000  +7.7166859354E-003 +2.7873809854E+001  +8.6846099723E-003 +6.8424036664E+001  +6.6167028764E-001 +4.4679616211E+000 
9019453.066 +6.1199901138E-001 +3.7939222083E+000  +9.4330269127E-003 +3.4692192284E+001  +6.5498975841E-003 +2.9619720266E+001  +6.3908243405E-001 +1.4958846088E+000 
9144598.248 +5.5442785908E-001 +8.1272965108E+000  +1.0391242727E-002 +4.9326727453E+001  +4.0652630854E-003 +9.3251162512E+000  +5.9194014889E-001 +5.3179735137E+000 
9269743.429 +5.6406531251E-001 +5.7176047676E+000  +6.8100032503E-003 +3.4239701860E+001  +9.7175113988E-003 +6.0853183921E+001  +6.3943735077E-001 -4.3510354064E+000 
9394888.611 +5.5896640588E-001 +4.8119239421E+000  +6.8520879496E-003 +4.8835913324E+001  +7.9832901662E-003 +4.7617105203E+001  +6.1175538951E-001 -1.2048794560E+000 
9520033.792 +4.9335772174E-001 -7.0103887485E-001  +6.5546316559E-003 +4.5404717875E+001  +7.8595534851E-003 +5.2640194879E+001  +5.6754528559E-001 -1.5452799966E+000 
9645178.974 +5.6616766269E-001 +1.8468472322E+000  +7.1136190760E-003 +4.0540420248E+001  +9.8979946048E-003 +2.6404979902E+001  +5.7199111918E-001 -1.5023027162E+000 
9770324.155 +5.1387642068E-001 -1.3124295608E+000  +7.7394816418E-003 +9.1757297219E-001  +4.2190256615E-003 +5.4177322137E+001  +6.4277610063E-001 -7.2669429896E+000 
9895469.337 +5.2035976189E-001 -2.2936199636E+000  +8.1179055552E-003 +3.0531540736E+001  +6.2592949418E-003 +3.8558030062E+001  +5.8641968805E-001 -5.7235258250E+000 
10020614.518 +5.4180434583E-001 +3.0998740122E+000  +7.8890294155E-003 +2.0009036181E+000  +9.7101073822E-003 +5.3617096727E+001  +6.1477061262E-001 -7.1579171414E+000 
10145759.700 +5.5781800945E-001 +3.8660298618E+000  +6.9977909910E-003 +4.3322250869E+001  +7.4916400943E-003 +5.4389802693E+001  +6.0215027791E-001 -4.6547081617E+000 
10270904.881 +5.6732870605E-001 +3.7363586522E+000  +7.6395914148E-003 +3.4949952926E+001  +1.0959934623E-002 +4.0892121496E+001  +5.8516496919E-001 -6.2445052720E+000 
10396050.063 +6.0096410121E-001 +6.1169197871E+000  +9.3164000154E-003 +3.9533123464E+001  +7.4509495630E-003 +4.4738019169E+001  +5.9174285215E-001 -1.1398798887E-001 
10521195.244 +6.0523203413E-001 +9.1064907211E+000  +8.7267065111E-003 +2.6119600607E+001  +6.8538443330E-003 +6.1619535234E+001  +5.8895347196E-001 -1.7786886757E-001 
10646340.426 +5.6319513436E-001 +3.5426906769E+000  +8.9473230544E-003 +2.7033060843E+001  +6.5169173124E-003 +5.7349101504E+001  +5.8745842758E-001 -1.5812049098E+000 
10771485.607 +5.5150719946E-001 +9.4667174525E+000  +8.9242506494E-003 +2.3795757466E+001  +7.0434163024E-003 +3.5509627343E+001  +5.7733725583E-001 +2.0134007691E+000 
10896630.788 +5.6868257876E-001 +7.9140607711E+000  +7.6487399578E-003 +3.0744881604E+001  +7.2461923773E-003 +5.7397028375E+001  +6.2743207642E-001 -1.0044265523E+000 
11021775.970 +5.5237569612E-001 +7.9265162156E+000  +8.7468641279E-003 +2.9306962534E+001  +7.5826555324E-003 +6.3057918408E+001  +5.7746261572E-001 +2.8270649271E+000 
11146921.151 +6.1292540500E-001 +4.3283773936E+000  +8.9273957535E-003 +3.6454770122E+001  +8.4436409460E-003 +5.8612338908E+001  +5.8188997503E-001 +2.3007437532E+000 
11272066.333 +6.2435385219E-001 +3.6926785845E+000  +9.0380095440E-003 +2.0497282532E+001  +6.4196683712E-003 +5.8406173952E+001  +6.4876207751E-001 +3.5523680086E+000 
11397211.514 +6.0176765671E-001 +7.8668837422E+000  +9.6463389205E-003 +3.2364473172E+001  +8.5985233429E-003 +3.7399721765E+001  +6.5135410856E-001 +2.8605404987E+000 
11522356.696 +6.1617784744E-001 +5.5997103645E+000  +1.0410488658E-002 +3.1515111349E+001  +9.0752173202E-003 +4.1538868290E+001  +6.2853057965E-001 +2.0585498556E+000 
11647501.877 +6.2554493201E-001 +6.2268036402E+000  +7.8659311347E-003 +3.3908221629E+001  +9.2219468599E-003 +4.0428656430E+001  +6.6274471563E-001 +2.4619563458E+000 
11772647.059 +6.0801928640E-001 +7.0500195268E+000  +8.7188507871E-003 +2.5478840790E+001  +5.8371104391E-003 +4.5766988297E+001  +6.4809790542E-001 +2.1237350506E+000 
11897792.240 +6.4496114292E-001 +8.2321820135E+000  +1.1291303360E-002 +3.4269865278E+001  +1.0617036782E-002 +3.9005471181E+001  +6.7727735339E-001 +9.9879619715E-001 
12022937.422 +6.9672737552E-001 +5.1018804282E+000  +9.4526270618E-003 +3.0698278197E+001  +8.9340220780E-003 +3.7175173302E+001  +6.8227034166E-001 +4.1887530630E-001 
12148082.603 +6.7870924222E-001 +2.9038829557E+000  +1.0313960079E-002 +4.3320458301E+001  +1.0180909452E-002 +5.1696719265E+001  +7.2735092723E-001 -5.7785423802E-001 
12273227.785 +6.8112352593E-001 +5.0869180696E+000  +1.0507169537E-002 +4.1701340192E+001  +1.1379097782E-002 +4.5626155029E+001  +7.3313855709E-001 +6.8378878984E-001 
12398372.966 +7.0431106268E-001 +4.6663216383E+000  +8.0457279632E-003 +4.3558503200E+001  +8.2383622471E-003 +5.2969604316E+001  +7.1736519220E-001 +3.8946538325E-002 
12523518.148 +7.2202652928E-001 +2.7087649118E+000  +9.3032728032E-003 +3.6664305926E+001  +1.0311713902E-002 +4.5999538089E+001  +7.4634348746E-001 +5.4037874757E-001 
12648663.329 +7.5083082717E-001 +3.2793185068E+000  +9.7005941390E-003 +3.2677902947E+001  +1.0575336069E-002 +4.3160118865E+001  +7.2967011106E-001 -1.2574520178E+000 
12773808.511 +7.5701550915E-001 +2.3379116360E+000  +1.1554923441E-002 +4.3138049305E+001  +8.5688585949E-003 +4.0266332888E+001  +7.6259823702E-001 +7.2112580887E-001 
12898953.692 +7.7880247844E-001 +1.6873107996E+000  +9.0765288240E-003 +4.2284358622E+001  +1.0008028689E-002 +4.8113742751E+001  +7.8684148239E-001 -1.5550089035E+000 
13024098.874 +8.0103368271E-001 +1.2799286117E+000  +1.1006911996E-002 +3.4413275394E+001  +1.0574632218E-002 +4.3388659529E+001  +8.0797571538E-001 +6.0755616391E-001 
13149244.055 +7.9404041144E-001 -2.8124716638E-001  +9.4664886835E-003 +4.5535968516E+001  +1.1717673185E-002 +6.0724234625E+001  +8.1791665470E-001 -1.2727296772E+000 
13274389.237 +8.2392203053E-001 +1.2251174897E+000  +1.0145393009E-002 +3.8349822038E+001  +1.1050974735E-002 +5.1173125430E+001  +8.5050396690E-001 -2.6568899795E+000 
13399534.418 +8.4047702140E-001 -1.5056576195E+000  +1.1238700545E-002 +5.2180078340E+001  +1.0326361577E-002 +4.0599734528E+001  +8.2173889930E-001 -2.0263405930E+000 
13524679.599 +8.4991753045E-001 -1.3203487581E+000  +1.0188965688E-002 +4.3081248268E+001  +1.0817978013E-002 +4.9359606344E+001  +8.5267440822E-001 -2.8119383563E+000 
13649824.781 +8.5173156626E-001 -1.4115784543E+000  +1.0746656277E-002 +3.8753409392E+001  +1.0602422235E-002 +4.5623352601E+001  +8.7433217744E-001 -3.2811600356E+000 
13774969.962 +8.7439458993E-001 -1.4209110642E+000  +1.2437040854E-002 +4.3658064510E+001  +1.1078730080E-002 +4.6213876668E+001  +8.9032902992E-001 -3.5234505120E+000 
13900115.144 +9.1674575051E-001 -3.1385986493E+000  +1.1230455993E-002 +3.9059624952E+001  +1.0847534417E-002 +4.8550244404E+001  +9.1162535618E-001 -5.0499198808E+000 
14025260.325 +9.3657526285E-001 -4.2409024049E+000  +1.1469258188E-002 +4.8273627496E+001  +1.1223061563E-002 +3.5410435243E+001  +9.2375593942E-001 -3.4433403026E+000 
14150405.507 +9.2117539685E-001 -4.0452166754E+000  +1.2182548033E-002 +4.2236778545E+001  +1.1696267144E-002 +4.9342571528E+001  +9.3631257002E-001 -3.0898122661E+000 
14275550.688 +9.4101131441E-001 -5.4011712185E+000  +1.2421493667E-002 +4.2889550037E+001  +1.1609665851E-002 +4.0829651855E+001  +9.6198440653E-001 -4.2551588961E+000 
14400695.870 +9.7271244548E-001 -4.7792007252E+000  +1.0787018795E-002 +4.1472202874E+001  +1.1850843577E-002 +4.5046532605E+001  +9.9985254811E-001 -4.0795484503E+000 
