!  2-Port S-parameters saved by WinCal
! VAR NAME=S2_r6c9_formed(0)_9k-100M_3
! VAR DATE=30/08/2024 11:43:51
! VAR FILENAME=S2_r6c9_formed(0)_9k-100M_3.S2P
! VAR MeasName=S-Parameters (CALIBRATED_DATA) read from VNA (P5004A)
! VAR MeasDate=28/08/2024 11:07:04
! VAR PHYS_PORTS=1,2
! VAR ObjTypeName=DATASET
! VAR IndexType=Frequency
!
# Hz S MA R 50
9000.000 +1.0539543220E-001 -1.6748301397E+002  +5.2103854549E-003 +3.5904018175E+001  +2.6926755670E-003 -1.2201954286E+001  +2.7677139655E-001 -1.4343466596E+002 
134145.181 +1.1213868175E-001 +1.6963256154E+002  +3.6901474562E-004 +7.2563305478E+000  +4.8059809845E-004 +5.0606257778E+001  +2.4261149195E-001 -1.7114017820E+002 
259290.363 +1.1224370704E-001 +1.6999661254E+002  +3.9836374217E-004 -6.0375212016E+001  +6.5723046879E-004 +1.4194832979E+002  +2.4282929767E-001 -1.7012809851E+002 
384435.544 +1.1550357224E-001 +1.6976652674E+002  +2.8244233725E-004 -5.1031921860E+001  +4.5060919771E-004 +6.9130392047E+001  +2.4341067413E-001 -1.6989613936E+002 
509580.726 +1.1312381913E-001 +1.7086960469E+002  +1.0237402686E-003 -7.8972275793E+001  +2.0847360151E-003 +1.7278795865E+002  +2.3466000181E-001 -1.6101785048E+002 
634725.907 +1.1688792483E-001 +1.7105188110E+002  +1.7133376280E-003 -6.8035844157E+001  +1.1458591883E-003 +9.2387264022E+001  +2.4838477391E-001 -1.6692942196E+002 
759871.089 +1.1969669135E-001 +1.7060694369E+002  +1.1757595558E-003 -5.4634336653E+001  +8.8004909449E-004 +1.3367787951E+002  +2.4976964411E-001 -1.6614292527E+002 
885016.270 +1.1966058909E-001 +1.6958694882E+002  +1.0591236601E-003 -5.3433515993E+001  +1.4420036691E-003 +1.3268324723E+002  +2.4680230375E-001 -1.6757129291E+002 
1010161.452 +1.2036923512E-001 +1.7065917471E+002  +2.2046865835E-003 -3.5763857071E+000  +3.7214897645E-003 -1.5894367861E+002  +2.1576080179E-001 -1.6680989796E+002 
1135306.633 +1.1904259012E-001 +1.6853688789E+002  +3.6659596356E-003 +1.5249487190E+001  +3.4965889824E-003 -1.6279806990E+002  +2.1782079049E-001 -1.6352357690E+002 
1260451.815 +1.2185949004E-001 +1.7134252396E+002  +1.1914054076E-003 +1.7617902916E+001  +4.6795555097E-003 +1.7784050584E+002  +2.3282645628E-001 -1.6080578337E+002 
1385596.996 +1.2677840891E-001 +1.7176477478E+002  +2.3949238252E-003 -1.8481900358E+001  +2.4437400583E-003 +1.4945664753E+002  +2.3348594577E-001 -1.5695058151E+002 
1510742.178 +1.2720986134E-001 +1.7089206396E+002  +1.8045847480E-003 -4.1633238216E+001  +2.5796452010E-003 -1.6815166611E+002  +2.5453791307E-001 -1.6153688815E+002 
1635887.359 +1.2942863939E-001 +1.6949723904E+002  +1.1576716367E-003 +2.7264872149E+001  +1.6640290485E-003 -1.2648205159E+002  +2.4895539263E-001 -1.6297749137E+002 
1761032.541 +1.3123575295E-001 +1.7120550083E+002  +2.7704312024E-003 +4.5356039225E+001  +3.6472243578E-003 -9.9543233493E+001  +2.3722323054E-001 -1.6123270029E+002 
1886177.722 +1.3226533146E-001 +1.6912027861E+002  +5.0764913086E-003 +5.8686431323E+001  +4.8901217554E-003 -8.5983804265E+001  +2.3133124253E-001 -1.6324978604E+002 
2011322.904 +1.3104964454E-001 +1.6973528479E+002  +1.3058683844E-002 +5.6984912453E+001  +1.1579109762E-002 -7.3571263174E+001  +1.8593784427E-001 -1.6007635037E+002 
2136468.085 +1.3230931366E-001 +1.6694608715E+002  +1.7309418489E-002 +6.3420217905E+001  +1.9675224540E-002 -6.8042148933E+001  +1.7972668432E-001 -1.5321820196E+002 
2261613.267 +1.2436450758E-001 +1.6846447673E+002  +3.5097562332E-002 +4.4865349197E+001  +3.3419800807E-002 -7.9444273210E+001  +1.6037898585E-001 -1.3623976923E+002 
2386758.448 +1.3550824357E-001 +1.6673278971E+002  +2.2667612665E-002 +7.6811217117E+001  +2.3666245463E-002 -5.0115555326E+001  +1.8574947820E-001 -1.6509219714E+002 
2511903.630 +1.3507530140E-001 +1.6508674167E+002  +2.3679167407E-002 +8.2259581446E+001  +2.1434748894E-002 -3.7631708403E+001  +2.1809707873E-001 -1.6736662983E+002 
2637048.811 +1.2912330500E-001 +1.6461510689E+002  +6.9305263403E-002 +8.6010008088E+001  +7.2615127696E-002 -2.7770669716E+001  +1.3758566513E-001 +1.2356941028E+002 
2762193.992 +1.2017784946E-001 +1.7014965929E+002  +6.2794038868E-002 +3.7525437817E+001  +6.3293538149E-002 -7.1118189718E+001  +1.3179813449E-001 -1.4237491154E+002 
2887339.174 +1.4216042024E-001 +1.7842171716E+002  +5.1961507815E-002 -1.0465802199E+001  +5.2187552434E-002 -1.0783695081E+002  +2.1681986302E-001 -1.2705101684E+002 
3012484.355 +1.4204349385E-001 +1.7519941668E+002  +4.8210322646E-002 -1.6001085878E+001  +4.7759925600E-002 -1.2211719034E+002  +2.7171494663E-001 -1.3094744055E+002 
3137629.537 +1.3984442545E-001 +1.7112191745E+002  +6.0922508237E-002 +3.7774249149E+001  +6.3087537576E-002 -5.9561242362E+001  +7.2483264794E-002 -1.5736756741E+002 
3262774.718 +1.4346021924E-001 +1.7083332447E+002  +6.1722562571E-002 +2.0026675102E+001  +5.9887694872E-002 -7.4557992846E+001  +1.6332020945E-001 -1.2041956455E+002 
3387919.900 +1.1640646142E-001 +1.5859096749E+002  +1.1744002721E-001 +7.6025369884E+001  +1.2097216149E-001 -1.5116873017E+001  +2.2564891276E-001 +1.2052791992E+002 
3513065.081 +1.2985800097E-001 +1.6442824856E+002  +1.3471201967E-001 +5.6840451489E+001  +1.2837060272E-001 -2.4639418295E+001  +2.1199963590E-001 +7.5621689033E+001 
3638210.263 +1.5846868851E-001 +1.5326345981E+002  +9.0306447772E-002 +9.8199129543E+001  +8.9449478152E-002 +1.8066669662E+001  +3.0895133565E-001 +1.4809417061E+002 
3763355.444 +1.0818454723E-001 +1.4011666758E+002  +1.5454994657E-001 +6.1358172778E+001  +1.5600149628E-001 -1.8694779358E+001  +8.4193337141E-002 +1.0937254959E+002 
3888500.626 +1.8172364328E-001 +1.5558474619E+002  +6.0147952606E-002 +9.2909735173E+001  +5.6763260441E-002 +1.8837779616E+001  +2.7539987445E-001 +1.7362031177E+002 
4013645.807 +1.5133998269E-001 +1.5404978444E+002  +1.0583006236E-001 +6.4740842671E+001  +9.6757096411E-002 -1.9232603161E+000  +1.7904432664E-001 +1.5377109876E+002 
4138790.989 +1.8347189697E-001 +1.5910081905E+002  +7.6752136155E-002 +7.9073411367E+001  +7.4449298222E-002 +9.4240571422E+000  +2.5281027786E-001 +1.5961937927E+002 
4263936.170 +1.7348678954E-001 +1.4806764295E+002  +1.2279376427E-001 +9.4797569581E+001  +1.1191561481E-001 +3.2956206332E+001  +4.0052989545E-001 +1.5182992539E+002 
4389081.352 +1.9568347026E-001 +1.4801267759E+002  +1.4047158805E-001 +8.5730484553E+001  +1.3591887877E-001 +2.3912011149E+001  +3.3034946342E-001 +1.2518873349E+002 
4514226.533 +2.3089841773E-001 +1.4493145600E+002  +1.5148564765E-001 +1.1233404035E+002  +1.4232557977E-001 +5.6723624215E+001  +5.3828760392E-001 +1.4545568268E+002 
4639371.715 +1.6043185145E-001 +1.3768374744E+002  +2.0251571536E-001 +5.9733831999E+001  +1.9338107677E-001 +5.1644555872E+000  +2.0158793931E-001 +9.7347009598E+001 
4764516.896 +2.5257763921E-001 +1.2945814179E+002  +2.6009633482E-001 +1.0865695266E+002  +2.5143766989E-001 +5.6789775699E+001  +6.9709831279E-001 +1.3219145226E+002 
4889662.078 +5.5110943173E-001 +1.3639275889E+002  +5.2544651326E-001 +1.5635092595E+002  +5.1506548119E-001 +1.0672940790E+002  +1.1100520634E+000 +1.4584284256E+002 
5014807.259 +3.4333019834E-001 +1.2037029459E+002  +4.3255208559E-001 +9.2924958212E+001  +4.3127720971E-001 +5.2099146781E+001  +9.3148027432E-001 +9.1513046899E+001 
5139952.441 +3.5898602945E-001 +1.2983029906E+002  +4.2437318564E-001 +1.1721351305E+002  +4.0367808961E-001 +7.5081625182E+001  +1.2894880131E+000 +1.2309757785E+002 
5265097.622 +3.8907176352E-001 +1.2592078754E+002  +4.9403057835E-001 +1.1974542576E+002  +4.6291101887E-001 +8.0676476214E+001  +1.4633285328E+000 +1.2840141283E+002 
5390242.804 +3.3426087631E-001 +1.2981268080E+002  +3.0705353090E-001 +1.0428593722E+002  +2.8840866910E-001 +6.8686826129E+001  +9.1122990625E-001 +1.3366053308E+002 
5515387.985 +3.3359044716E-001 +1.3494499682E+002  +2.5058666143E-001 +1.0405403050E+002  +2.5046511252E-001 +7.0181655430E+001  +9.0294383900E-001 +1.4101878557E+002 
5640533.166 +3.5467709498E-001 +1.3171106726E+002  +3.7656370654E-001 +8.7935910909E+001  +3.5689410482E-001 +5.5410424283E+001  +1.1066929098E+000 +1.0537570928E+002 
5765678.348 +4.5833506281E-001 +1.1884230187E+002  +4.0460917683E-001 +8.0514162727E+001  +3.8243950512E-001 +5.3979820206E+001  +6.5368692351E-001 +9.6452800073E+001 
5890823.529 +3.6436011063E-001 +1.2569645973E+002  +3.7322217035E-001 +7.4499131687E+001  +3.5561901791E-001 +4.7493609227E+001  +8.9329606218E-001 +1.0509990580E+002 
6015968.711 +5.2112929949E-001 +1.1518828992E+002  +5.7331956916E-001 +7.5902934114E+001  +5.6205560500E-001 +5.3905042436E+001  +1.3215245174E+000 +8.1813818553E+001 
6141113.892 +5.6468720774E-001 +1.0913222368E+002  +6.7276881043E-001 +8.3045520923E+001  +6.4919634852E-001 +6.2519505587E+001  +1.7703105479E+000 +9.6864084580E+001 
6266259.074 +4.9214570221E-001 +1.0017219928E+002  +6.1217249268E-001 +4.9634757404E+001  +5.9819847102E-001 +3.2102433446E+001  +1.0882192093E+000 +5.6113805019E+001 
6391404.255 +5.3832976883E-001 +1.0552521157E+002  +5.9079089991E-001 +5.0818361032E+001  +5.7378904512E-001 +3.4504932699E+001  +1.2063980728E+000 +5.8164063229E+001 
6516549.437 +6.7965969649E-001 +8.4842297154E+001  +7.1258983253E-001 +4.7508490306E+001  +7.0095640968E-001 +3.5082678308E+001  +1.1163612552E+000 +5.9702571532E+001 
6641694.618 +7.1209167321E-001 +7.6821666710E+001  +6.7773679932E-001 +4.1130132260E+001  +6.6643349872E-001 +2.9491475070E+001  +8.9191047592E-001 +6.1619616458E+001 
6766839.800 +5.7677715232E-001 +4.4783268948E+001  +7.3970587639E-001 +1.4108900394E+001  +7.4064477471E-001 +5.5248986342E+000  +8.7582779463E-001 +2.0881364398E+001 
6891984.981 +4.7379879327E-001 +4.1827537347E+001  +6.5329468423E-001 +7.2774344339E+000  +6.5238217224E-001 -8.7476462621E-001  +8.2936827540E-001 +3.2533839628E+000 
7017130.163 +4.5571254020E-001 +3.0306273800E+001  +6.2932476455E-001 +4.0584614810E+000  +6.3377701333E-001 -9.8205136418E-001  +7.7655851377E-001 +1.0286397215E+001 
7142275.344 +5.0323743835E-001 +5.7933763005E+000  +6.0394575780E-001 -1.4935632614E+000  +6.0716092141E-001 -5.3857570828E+000  +5.8860284501E-001 -1.2163468187E+001 
7267420.526 +5.4857298705E-001 -3.9128563402E+000  +5.8952558602E-001 -7.9792210868E-001  +5.8209652847E-001 -2.0596356556E+000  +5.9760757863E-001 -6.3549013516E+000 
7392565.707 +5.8497932562E-001 +4.3779618258E-001  +5.4966789328E-001 +2.0671020437E+000  +5.4628458526E-001 +2.1686748664E+000  +6.4132903201E-001 -1.1100527731E+001 
7517710.889 +5.1958253874E-001 +5.1569020613E+000  +5.1793841232E-001 +1.7070962678E+000  +5.1460271604E-001 +4.5747789252E+000  +6.1410496321E-001 -7.0958950051E+000 
7642856.070 +3.5943818443E-001 +2.5636607206E+000  +4.8388410126E-001 -6.7871764674E-001  +4.8909266579E-001 +3.0353858536E+000  +5.1335442757E-001 -9.4008258192E-003 
7768001.252 +4.1487368046E-001 +9.9836013743E+000  +4.6843641528E-001 -5.0924838035E-001  +4.7249302494E-001 +4.5886149304E+000  +4.8151102762E-001 +6.2353345548E+000 
7893146.433 +3.9978035837E-001 +3.4799283709E+001  +4.3658216794E-001 -1.6215294499E-001  +4.3613944248E-001 +6.4222097269E+000  +4.8352068489E-001 +1.4999285302E+001 
8018291.615 +3.6580502167E-001 +3.8519602020E+001  +4.3133599988E-001 -2.7351827170E+000  +4.3004065426E-001 +5.3353149204E+000  +3.3372919776E-001 +7.7683098334E+000 
8143436.796 +2.7439138562E-001 +3.5976961719E+001  +4.2266442900E-001 -3.2460132139E+000  +4.1458903630E-001 +4.6981552564E+000  +2.9134733715E-001 +1.8115584968E+001 
8268581.977 +2.9625429753E-001 +2.6045104721E+001  +4.1595601247E-001 -4.0609616709E+000  +4.1582763051E-001 +5.4150620381E+000  +2.9030436902E-001 +2.2093412965E+001 
8393727.159 +2.9667602669E-001 +3.8377224344E+001  +4.0103005821E-001 -3.9896012635E+000  +4.0025185434E-001 +6.2113570044E+000  +3.1657264333E-001 +3.3491159261E+001 
8518872.340 +3.2401746647E-001 +3.0405957722E+001  +4.0488925081E-001 -3.8350261503E+000  +4.0358640596E-001 +7.8695497076E+000  +2.9312258185E-001 +2.1396374956E+001 
8644017.522 +2.6855154806E-001 +3.2642547160E+001  +4.0006005527E-001 -5.8846441048E+000  +3.9668793200E-001 +7.2088171013E+000  +2.1186892673E-001 +2.1193253254E+001 
8769162.703 +2.4723546550E-001 +2.9216308617E+001  +3.9268941492E-001 -5.6928651012E+000  +3.9170457772E-001 +7.8028439575E+000  +2.5983289116E-001 +3.1986939672E+001 
8894307.885 +1.4131399662E-001 +5.0286623089E+001  +3.9114727403E-001 -6.9812370543E+000  +3.8700345909E-001 +6.4682906535E+000  +2.5331035554E-001 +1.9533360223E+001 
9019453.066 +2.1305826413E-001 +4.0718291221E+001  +3.9123356693E-001 -6.0257342290E+000  +3.8396151976E-001 +8.6940714534E+000  +2.5290684450E-001 +2.3601323302E+001 
9144598.248 +1.7176497934E-001 +3.5149053578E+001  +3.8802365563E-001 -6.2552286656E+000  +3.8232037387E-001 +8.6377522921E+000  +2.8725137239E-001 +2.3460888295E+001 
9269743.429 +1.5416811217E-001 +4.2242301968E+001  +3.8833978782E-001 -6.8320810353E+000  +3.7861264634E-001 +8.4535983654E+000  +1.9049974772E-001 +2.8464708621E+001 
9394888.611 +1.9860980265E-001 +3.6927065855E+001  +3.8774272643E-001 -5.9628587802E+000  +3.8546608889E-001 +9.2144487435E+000  +1.9459531606E-001 +1.2183071288E+001 
9520033.792 +1.7026555298E-001 +4.3473094123E+001  +3.8607086697E-001 -7.2582896292E+000  +3.8148427232E-001 +9.2844439378E+000  +1.8444830715E-001 +1.5454361172E+001 
9645178.974 +1.2177371430E-001 +3.0921420550E+001  +3.8944212787E-001 -6.9448878068E+000  +3.8489141884E-001 +8.4511732469E+000  +1.6995425995E-001 +1.9192246173E+001 
9770324.155 +1.6496054480E-001 +3.2979260637E+001  +3.8690086997E-001 -6.2376596221E+000  +3.8634249262E-001 +9.2859301590E+000  +1.7051915014E-001 +2.0059879529E+001 
9895469.337 +1.0840285093E-001 +3.1936103389E+001  +3.8987139761E-001 -7.3576844564E+000  +3.8564353794E-001 +9.0238966219E+000  +1.7665009119E-001 +1.5498674585E+001 
10020614.518 +1.4768197059E-001 +2.8701026300E+001  +3.9062316628E-001 -6.2940966855E+000  +3.8979864798E-001 +9.6519173119E+000  +1.9371026588E-001 +1.7908441832E+001 
10145759.700 +1.5717615883E-001 +3.2489059523E+001  +3.8792589958E-001 -6.1762529191E+000  +3.8668807393E-001 +9.5910958961E+000  +1.8883584489E-001 +2.5062414483E+001 
10270904.881 +1.3805268610E-001 +2.3310998896E+001  +3.9693443604E-001 -5.9490058736E+000  +3.9010509018E-001 +1.0024143004E+001  +1.9343198852E-001 +1.8013216026E+001 
10396050.063 +1.8287646540E-001 +3.8375064511E+001  +3.9109621643E-001 -4.9772241899E+000  +3.8781612567E-001 +1.0288533878E+001  +1.8140763899E-001 +2.0642581721E+001 
10521195.244 +1.8967974829E-001 +3.6807158150E+001  +3.9382597565E-001 -5.4976241332E+000  +3.8960051186E-001 +9.9173380290E+000  +1.6544377206E-001 +3.2011631186E+001 
10646340.426 +1.6673000353E-001 +2.3875839838E+001  +3.9657168441E-001 -4.3288993742E+000  +3.9351945676E-001 +1.0644389530E+001  +2.2704604397E-001 +2.5940714483E+001 
10771485.607 +1.9156927144E-001 +3.1062493471E+001  +3.9905463311E-001 -4.3058937189E+000  +3.9700040959E-001 +1.0438974146E+001  +2.1701308099E-001 +1.8687653375E+001 
10896630.788 +2.1825044069E-001 +2.8388551098E+001  +4.0301663231E-001 -3.8786183971E+000  +3.9843253080E-001 +1.0132171848E+001  +1.6488534832E-001 +1.9235363621E+001 
11021775.970 +1.8850646532E-001 +3.4935963869E+001  +4.0316838532E-001 -4.2250342452E+000  +3.9756494806E-001 +9.9858778378E+000  +2.1054182445E-001 +2.6535003170E+001 
11146921.151 +2.1170787761E-001 +2.7476972336E+001  +4.0421033044E-001 -3.0567217439E+000  +4.0415225225E-001 +1.0049554702E+001  +2.3548250581E-001 +3.1523531807E+001 
11272066.333 +2.2530597087E-001 +3.1898956485E+001  +4.0445824587E-001 -2.8862516927E+000  +3.9926355594E-001 +9.6924413504E+000  +2.3020689600E-001 +3.9059179298E+001 
11397211.514 +1.9686876444E-001 +2.4729833249E+001  +4.1282632711E-001 -2.5314494769E+000  +4.0817451640E-001 +9.5297808422E+000  +2.4533673176E-001 +2.5018862749E+001 
11522356.696 +2.4840099668E-001 +3.3659435973E+001  +4.1244730922E-001 -2.2013336783E+000  +4.0670855156E-001 +9.5089439244E+000  +2.0189305847E-001 +2.5909881495E+001 
11647501.877 +2.0429996472E-001 +2.4138448521E+001  +4.2170715065E-001 -2.5447250502E+000  +4.1771154166E-001 +8.6913744814E+000  +2.0605020827E-001 +2.3881324548E+001 
11772647.059 +2.3035344677E-001 +2.7818394379E+001  +4.2358650139E-001 -2.0438917221E+000  +4.1974282523E-001 +8.6208233198E+000  +2.2750326351E-001 +2.0210308032E+001 
11897792.240 +2.3353210793E-001 +2.6967356456E+001  +4.2726074603E-001 -1.2627502312E+000  +4.2395162520E-001 +9.0523983012E+000  +2.6969573866E-001 +1.7396141067E+001 
12022937.422 +2.6230733100E-001 +1.9289133797E+001  +4.3481113077E-001 -1.3454621118E+000  +4.3102522862E-001 +8.5598083955E+000  +2.2052477662E-001 +1.8402597491E+001 
12148082.603 +2.6293507735E-001 +2.3405625715E+001  +4.3288108663E-001 -9.6286360906E-001  +4.3138940753E-001 +8.2066082250E+000  +2.4413352705E-001 +2.0439809694E+001 
12273227.785 +2.4667126552E-001 +1.8871328251E+001  +4.4197925810E-001 -7.8360520278E-001  +4.3850234905E-001 +7.6421456888E+000  +2.7293289289E-001 +1.6322625727E+001 
12398372.966 +2.8802808065E-001 +1.4610581964E+001  +4.4697341392E-001 -2.2439594823E-001  +4.4417829534E-001 +7.6214647657E+000  +2.6467609662E-001 +1.4888784677E+001 
12523518.148 +2.8599683220E-001 +1.6500345582E+001  +4.5063289059E-001 +9.0071698010E-002  +4.4715089119E-001 +7.2098342222E+000  +2.8819568245E-001 +1.4414953856E+001 
12648663.329 +2.6431441470E-001 +1.6512223431E+001  +4.5687906551E-001 -3.8357390585E-001  +4.5268891132E-001 +6.4385870932E+000  +2.6636538341E-001 +8.1757730881E+000 
12773808.511 +2.6755111558E-001 +7.8390384712E+000  +4.6387814109E-001 -1.3237347781E-001  +4.5903686508E-001 +6.0289181240E+000  +2.8985034995E-001 +1.0002735764E+001 
12898953.692 +2.9701934865E-001 +1.4270143275E+001  +4.6614060779E-001 +1.4678295285E-001  +4.6267338213E-001 +5.9193969776E+000  +2.9179903711E-001 +6.5573861369E+000 
13024098.874 +3.1845776979E-001 +1.0483895025E+001  +4.6895007104E-001 +7.4334544338E-001  +4.6423932112E-001 +5.7856077248E+000  +3.2573062647E-001 +8.2855383045E+000 
13149244.055 +3.2344351466E-001 +2.2336938591E+000  +4.7984306444E-001 +1.0087775303E+000  +4.7434768250E-001 +5.4523508804E+000  +3.4560060551E-001 +5.8899743771E+000 
13274389.237 +3.2644707835E-001 +6.9911840942E+000  +4.7920139891E-001 +1.1133808835E+000  +4.7411109966E-001 +5.1421175925E+000  +3.5280968580E-001 +6.0993319671E+000 
13399534.418 +3.4474942949E-001 +4.8159042504E+000  +4.8569545217E-001 +1.0704182682E+000  +4.7957033818E-001 +4.4760170459E+000  +3.4642470997E-001 +5.0718870579E+000 
13524679.599 +3.3829284453E-001 +3.6275638214E+000  +4.9172317339E-001 +8.2316310321E-001  +4.8632290460E-001 +3.7757406905E+000  +3.5313756506E-001 +1.7832169022E+000 
13649824.781 +3.8064475242E-001 +9.3165069909E-001  +4.9805272383E-001 +1.3213994119E+000  +4.9136117475E-001 +3.7130201179E+000  +3.7756110496E-001 +3.4103786405E-001 
13774969.962 +3.9159286153E-001 +1.4629630344E+000  +4.9853290254E-001 +1.4855523336E+000  +4.9432207777E-001 +3.5869098706E+000  +3.8461311529E-001 +7.5842521518E-001 
13900115.144 +3.7718726617E-001 -2.3088374592E+000  +5.0836850005E-001 +8.1277306143E-001  +5.0059323541E-001 +2.4038862063E+000  +3.7604845153E-001 -2.1379239675E+000 
14025260.325 +4.1424097458E-001 +3.3147728590E-001  +5.0909236272E-001 +1.2103075706E+000  +5.0421002149E-001 +2.3185969611E+000  +3.8590223458E-001 -1.9409682348E+000 
14150405.507 +4.0794966854E-001 -3.1123281741E+000  +5.1252076584E-001 +1.1398742990E+000  +5.0721965362E-001 +2.1341732692E+000  +4.2154174637E-001 -9.3574189386E-002 
14275550.688 +4.5276518702E-001 -3.2574746470E+000  +5.1621669973E-001 +1.4812507192E+000  +5.1174726124E-001 +2.3457174695E+000  +4.4787737005E-001 -3.0352720133E+000 
14400695.870 +4.4190630431E-001 -5.4274496708E+000  +5.2033385893E-001 +9.9432772787E-001  +5.1404034943E-001 +1.5185868996E+000  +4.5475414613E-001 -2.5576878131E+000 
