!  2-Port S-parameters saved by WinCal
! VAR MeasName=S-Parameters (CALIBRATED_DATA) read from VNA (P5004A)
! VAR MeasDate=28/08/2024 12:26:14
! VAR NAME=S2_r7c9_SET2_9k-100M_2
! VAR FILENAME=S2_r7c9_SET2_9k-100M_2.S2P
! VAR DATE=28/08/2024 12:26:14
! VAR PHYS_PORTS=1,2
! VAR ObjTypeName=DATASET
! VAR IndexType=Frequency
!
# Hz S MA R 50
9000.000 +8.4414718570E-002 -1.4123616586E+002  +1.4310873072E-002 -1.5540946583E+002  +2.2690678433E-002 -3.1793601917E+001  +1.9003590654E-001 -1.3413459920E+002 
134145.181 +1.1041900344E-001 +1.6941530188E+002  +3.3587714572E-004 -3.4332838748E+001  +6.3200687161E-005 +7.3821176859E+001  +2.4276855473E-001 -1.7124522600E+002 
259290.363 +1.1258801300E-001 +1.6999280596E+002  +4.9114925099E-004 +9.4471846534E+001  +7.8294447671E-004 +8.6506699257E+001  +2.4299933648E-001 -1.6695296808E+002 
384435.544 +1.1494302615E-001 +1.7021994679E+002  +5.1326875367E-004 +1.4644061319E+002  +7.7351648665E-004 -1.5471769667E+002  +2.4312423209E-001 -1.7017438104E+002 
509580.726 +1.1528776683E-001 +1.7026817618E+002  +3.1762739832E-004 +1.3759723224E+002  +5.7990578028E-004 -6.0871652352E+001  +2.4548557457E-001 -1.6520601929E+002 
634725.907 +1.1688681577E-001 +1.7111964271E+002  +1.2475828099E-003 -8.4335044081E+001  +5.8185205734E-004 -9.2665868293E+001  +2.5183856913E-001 -1.6330324311E+002 
759871.089 +1.1838232009E-001 +1.7034800729E+002  +4.4831932613E-004 -7.8197869207E+001  +5.2416389417E-004 +1.0100948896E+002  +2.5958460392E-001 -1.6646901003E+002 
885016.270 +1.1994700058E-001 +1.6950630164E+002  +1.9542316833E-004 +7.1117146395E+001  +2.3744029443E-004 -5.6859975317E+001  +2.4630720452E-001 -1.6763003564E+002 
1010161.452 +1.1836554377E-001 +1.7191817656E+002  +1.9841269630E-003 +1.2454095453E+002  +1.0090126646E-003 -5.8273584631E+001  +1.8551708135E-001 -1.6896419388E+002 
1135306.633 +1.1230392112E-001 +1.7100876845E+002  +2.5583646022E-003 -5.9700909506E+001  +3.2276228489E-003 +6.8562453078E+001  +1.8687176683E-001 -1.5971072855E+002 
1260451.815 +1.2059160013E-001 +1.7077823406E+002  +2.0889904602E-003 +2.1063748308E+001  +2.5006410904E-003 -1.3307414979E+000  +2.3382190028E-001 -1.5354616413E+002 
1385596.996 +1.2916074097E-001 +1.7249634918E+002  +5.0164523429E-004 -3.2083203065E+001  +6.0237446303E-004 -1.2409234555E+002  +2.6805556670E-001 -1.5953511078E+002 
1510742.178 +1.2607538162E-001 +1.7185640240E+002  +1.2995647833E-003 -8.1227592573E+001  +1.0355805315E-003 -4.2952496590E+001  +2.6215753734E-001 -1.6085394702E+002 
1635887.359 +1.2846243365E-001 +1.7120711692E+002  +1.3292972837E-003 -7.1486050842E+001  +9.1385061162E-004 -1.4229116206E+002  +2.4545070078E-001 -1.5726924306E+002 
1761032.541 +1.3141480214E-001 +1.6938802489E+002  +5.9558472093E-004 +4.3208905450E+001  +1.8143701180E-003 +1.5817839693E+002  +2.1952666485E-001 -1.5655500394E+002 
1886177.722 +1.2601521420E-001 +1.6877369114E+002  +1.2165911240E-003 -1.1762402179E+002  +1.9569098008E-003 +9.2436208877E+001  +2.0785089700E-001 -1.6094968612E+002 
2011322.904 +1.2895808765E-001 +1.6639451654E+002  +3.5014406588E-003 -8.0965959204E+001  +1.5573131117E-003 -7.4285584911E+001  +1.7520911595E-001 -1.6257126811E+002 
2136468.085 +1.2250910393E-001 +1.6643949949E+002  +2.8183568072E-003 -8.8923938769E+000  +2.5730600427E-003 +3.1543835040E+001  +1.6315781581E-001 +1.4855440978E+002 
2261613.267 +1.3552334095E-001 +1.6541422105E+002  +1.4610477729E-003 -7.9878052149E+001  +3.1824734534E-003 -5.8563388157E+001  +2.1237029232E-001 -1.7123365300E+002 
2386758.448 +1.4001269002E-001 +1.6392896546E+002  +2.3387464684E-003 +1.1181339255E+002  +1.4228086784E-003 -8.4218811808E+000  +2.2444297315E-001 +1.7547083489E+002 
2511903.630 +1.3424194159E-001 +1.6622428398E+002  +1.2238708210E-003 -6.6948053848E+001  +3.0160832178E-003 -4.5124407916E+000  +1.9008154843E-001 +1.7199268555E+002 
2637048.811 +1.0613286695E-001 +1.6505460324E+002  +2.5529594920E-003 +1.1947728440E+001  +4.3318558244E-003 +5.5531620063E+000  +1.7216373580E-001 +1.6684041157E+002 
2762193.992 +1.2577864105E-001 +1.7688235794E+002  +2.7816328125E-002 -5.1783512877E+001  +2.2581803911E-002 +1.0273447392E+001  +2.2060326751E+000 -8.7459571618E+001 
2887339.174 +1.2019541665E-001 +1.6978711880E+002  +1.7029352255E-002 -5.1615202103E+001  +1.5346843690E-002 -1.3439784468E+002  +2.0662557579E-001 -7.9219434197E+001 
3012484.355 +1.2434589700E-001 +1.6850136613E+002  +1.7660766995E-002 -7.0760556239E+001  +1.8769478558E-002 +1.2042065250E+002  +7.4136958618E-001 -1.0332775150E+002 
3137629.537 +1.3558853732E-001 +1.5747576021E+002  +8.0485405047E-003 -2.9248108466E+001  +5.2647745091E-003 -8.0260996736E+001  +1.3096244023E-001 -1.4145342082E+002 
3262774.718 +1.1469039983E-001 +1.6624938188E+002  +9.8661830815E-003 +1.0540091040E+002  +3.9936437555E-003 -1.4082266255E+002  +6.8197061583E-001 +1.0389468236E+002 
3387919.900 +1.3585028784E-001 +1.6568023321E+002  +1.4525836379E-002 +7.2409831433E+001  +2.5640782560E-002 -2.5446084075E+001  +8.8812709400E-001 +7.3174026203E+001 
3513065.081 +1.1458719983E-001 +1.6065332390E+002  +1.1090134210E-002 +7.5158639916E+001  +1.0673170805E-002 -6.7691015133E+001  +3.6985578474E-001 +1.2802823552E+002 
3638210.263 +1.9834398277E-001 +1.4684895220E+002  +1.1933301888E-002 +1.4137907736E+002  +6.9177427453E-003 +1.2310471718E+002  +3.9397263388E-001 +1.0871219983E+002 
3763355.444 +1.6608328419E-001 +1.5500751911E+002  +6.4787531018E-003 +1.7389538733E+002  +6.8055342466E-003 -2.0290645505E+001  +4.6122410445E-001 +1.6213063996E+002 
3888500.626 +1.4838833102E-001 +1.5511315487E+002  +1.0099659298E-002 -9.4121621075E+001  +5.2737967192E-003 +1.6280167536E+001  +3.1935985133E-001 +1.2215675699E+002 
4013645.807 +1.7604499127E-001 +1.4997403043E+002  +7.6443337047E-003 +1.0707719690E+002  +7.9591662299E-003 -4.8180993475E+000  +4.0197181650E-001 +5.9775534109E+001 
4138790.989 +1.8576870559E-001 +1.3924017430E+002  +1.1698374293E-002 +4.9487190842E+001  +1.5124353074E-003 +4.0625267674E+001  +3.3560716565E-001 +1.2794806306E+002 
4263936.170 +2.1001833057E-001 +1.4181909392E+002  +8.8950303359E-003 +8.6010037935E+001  +1.1794658690E-002 +9.2260752152E+001  +6.6056570683E-001 +1.1254557865E+002 
4389081.352 +2.3914272007E-001 +1.3049726974E+002  +1.5151252014E-002 +1.2317775716E+002  +2.4359698002E-002 +1.1193688609E+002  +4.0589242041E-001 +1.0242301723E+002 
4514226.533 +2.4742355547E-001 +1.3558898066E+002  +1.3920931958E-002 -3.7527624904E+001  +1.6655043632E-002 +1.2502627654E+002  +8.2951397419E-001 +1.3253515532E+002 
4639371.715 +2.5012448430E-001 +1.2858006172E+002  +6.6205738918E-002 +1.5965786391E+002  +4.9744135313E-002 -3.8619692858E+001  +2.8257721629E+000 +1.3729664140E+002 
4764516.896 +5.7693264950E-001 +1.3117991035E+002  +5.3773540904E-002 +4.1783454093E+001  +1.0476405595E-001 -1.1345487591E+002  +3.1652607175E+000 -3.4316678190E+001 
4889662.078 +4.0079730456E-001 +1.3827855672E+002  +3.8044639040E-002 -7.6287461078E+001  +5.9161319953E-002 +4.0720280027E+001  +3.7559090865E+000 -6.8558984821E+001 
5014807.259 +4.4728834924E-001 +1.2944594516E+002  +8.7498359751E-002 +2.1876053286E+001  +4.3679074760E-001 -4.0316283158E+001  +2.7719912490E+001 -6.0770773055E+001 
5139952.441 +3.7789598476E-001 +1.2820141969E+002  +4.1694462447E-002 -1.2138963957E+002  +4.6716509500E-002 -1.0584061223E+002  +5.4585554152E+000 -1.5418788775E+002 
5265097.622 +4.6434625731E-001 +1.1626540218E+002  +1.6089723396E-001 +1.0495615009E+002  +1.1679986562E-001 +1.1597840679E+002  +5.8468264071E+000 +6.7726701356E+001 
5390242.804 +3.9439504063E-001 +1.3617319358E+002  +1.2370212285E-002 +1.6488898433E+002  +9.3987867196E-002 +9.9271429169E+001  +3.8742465117E+000 +3.5546775139E+001 
5515387.985 +4.6895175518E-001 +1.3459391474E+002  +5.1108711390E-002 +1.7616926350E+002  +3.2383347349E-003 +1.2492009478E+002  +2.8289336442E+000 +1.0910590344E+002 
5640533.166 +4.5158922118E-001 +1.2990355036E+002  +4.1726479811E-002 +1.4397985420E+002  +4.3475720603E-002 +1.4771713244E+002  +3.2211512850E+000 +7.5509508335E+001 
5765678.348 +4.8145540913E-001 +1.2242267767E+002  +3.4489069558E-002 +1.0262693312E+002  +4.3676140031E-002 -2.9293108811E+001  +2.4520461964E+000 +4.4972076269E+001 
5890823.529 +5.3921732910E-001 +1.2478231448E+002  +5.5435098343E-003 +8.5544582208E+001  +2.3814421176E-002 +5.1950172074E+001  +2.3679013604E+000 +6.2147855092E+001 
6015968.711 +6.4899551077E-001 +1.1177684071E+002  +4.6595866762E-002 +8.4512609221E+001  +2.9849408951E-002 +7.1259190758E+001  +1.9286688194E+000 +4.0452157264E+001 
6141113.892 +6.3983914512E-001 +1.1523249346E+002  +3.1880046392E-002 +1.1455960738E+002  +2.0644387169E-002 +1.0240375916E+002  +2.0346567402E+000 +5.1681077772E+001 
6266259.074 +8.1230114646E-001 +1.0977206699E+002  +9.3725713616E-003 +3.8766356213E+001  +2.8290984555E-002 +6.8796479359E+000  +2.4238740075E+000 +1.9581891062E+001 
6391404.255 +1.1379244355E+000 +9.6345982531E+001  +4.8707604701E-002 +3.5687297433E+001  +3.7049397318E-002 +7.3279565217E+001  +2.0666997500E+000 +5.3565966531E+000 
6516549.437 +1.1529326406E+000 +7.8838319365E+001  +2.7721983223E-002 -1.3144824079E+001  +3.3756343478E-002 +4.6395081008E+001  +1.4729694227E+000 +8.7190371862E+000 
6641694.618 +1.4857429400E+000 +7.6577081790E+001  +5.0175849714E-002 +6.0337765202E+001  +3.8809637063E-002 +4.9591008528E+001  +1.6080117897E+000 +2.2329545461E+000 
6766839.800 +1.6700292022E+000 +6.4950067797E+001  +3.5183438597E-002 +4.8959719320E+001  +3.3708814878E-002 +2.4237579718E+000  +1.2942374647E+000 -1.5951945051E+001 
6891984.981 +2.0001757742E+000 +4.0944486053E+001  +4.8384450540E-002 +6.1266186718E+001  +3.5718321172E-002 +4.2221086367E+001  +1.3413675589E+000 -8.3558858041E+000 
7017130.163 +1.6422285088E+000 +3.2263745964E+001  +3.1397872564E-002 +3.6365002057E+001  +2.1817957298E-002 +5.5933945795E+001  +1.2307852292E+000 -6.8553473689E+000 
7142275.344 +1.7585069226E+000 +6.4652864251E+000  +2.5010281330E-002 +3.1566511716E+001  +7.2101306885E-003 +7.5396987262E+001  +1.3661403561E+000 -3.4664819146E+000 
7267420.526 +1.4768641663E+000 +3.2836986612E+000  +2.0310405013E-002 +3.5058630427E+001  +1.4409569159E-002 +2.0007565050E+001  +1.4878736666E+000 -1.6556014131E+001 
7392565.707 +1.1875320428E+000 +2.6803953222E+000  +1.0152217008E-002 +1.3306342243E+001  +2.6186672793E-002 +3.1922617071E+001  +1.4327108547E+000 -6.1140082907E+000 
7517710.889 +1.1685558078E+000 +4.9754666528E-001  +1.1803330048E-002 +5.3819321373E+001  +1.1323468263E-002 -1.9826893097E+001  +1.0755611920E+000 -1.0440638622E+001 
7642856.070 +1.0366739545E+000 +1.1540400037E+001  +9.8138328024E-003 +4.3437355863E+001  +8.4831025552E-003 +7.1881613950E+001  +1.0692023478E+000 -7.7307676356E+000 
7768001.252 +1.0159963906E+000 +1.5480016190E+000  +1.2606195361E-002 +6.8396291212E+000  +1.2989208910E-002 +2.7001363289E+001  +9.2436292510E-001 -1.1376465087E+001 
7893146.433 +9.7113335064E-001 +9.1001280589E-001  +1.3316345315E-002 -9.5403175225E+000  +5.0707820295E-003 +3.7360251072E+001  +8.4508502260E-001 -5.1784305343E+000 
8018291.615 +8.7901235214E-001 +3.9984148521E-001  +5.4713224469E-003 +5.9341754150E+001  +1.4924322610E-002 +1.9205652407E+001  +8.9022486210E-001 -1.7542343125E+000 
8143436.796 +7.9113304035E-001 +3.2388282753E+000  +8.3859164489E-003 +3.5523873856E+001  +1.2675323908E-002 +1.3766183661E+001  +8.2529991153E-001 -6.1129197411E-002 
8268581.977 +6.9671355373E-001 +1.1011875217E+001  +5.3450399018E-003 +5.7399614399E+001  +1.8104130544E-003 -8.2065381899E+001  +7.7869100090E-001 -9.4186146099E-001 
8393727.159 +6.8689921200E-001 +7.7388839205E+000  +6.4014163200E-003 +2.2392965794E+001  +4.0014876604E-003 -4.6030897051E+001  +6.8161242101E-001 +4.2190682972E+000 
8518872.340 +7.0852139271E-001 +8.7589157619E+000  +1.4836286127E-003 -9.0900432951E+001  +1.0586132286E-002 +4.5807518957E+001  +6.1821757287E-001 +1.6118033234E+000 
8644017.522 +6.8678009349E-001 +9.3877819261E+000  +9.8882840796E-003 +4.3301803342E+001  +1.0080826374E-002 +5.2551826878E+001  +6.6366115494E-001 +1.6055960086E+000 
8769162.703 +5.5864323327E-001 +1.0993666443E+001  +5.9069451802E-003 +1.8917342965E+001  +1.5633711536E-003 -2.5769351406E+001  +6.3642555738E-001 +2.1574962735E+000 
8894307.885 +5.0833659943E-001 +4.8742042987E+000  +9.4026105158E-003 +5.9153297682E+001  +8.7036405594E-003 +2.4767114601E+000  +6.3721824942E-001 -6.1207235852E+000 
9019453.066 +5.8266702577E-001 +4.7078061147E+000  +8.1941470931E-003 -7.4324912302E+000  +8.3529982034E-003 +3.7866895382E+001  +6.2601007364E-001 -6.2374947414E-002 
9144598.248 +5.6730317755E-001 +8.8610727849E+000  +5.2157173921E-003 +4.1223086544E+001  +8.1381442821E-003 +6.4853823941E+001  +6.4223112249E-001 -1.2682351207E-002 
9269743.429 +6.0394515036E-001 +8.7243155071E+000  +7.3892673206E-003 -6.5559547938E+000  +6.4298845520E-003 +1.0555130094E+001  +5.8349969437E-001 -2.3793077010E-001 
9394888.611 +5.6348529301E-001 +4.8874924539E+000  +5.4976969672E-003 +2.0991556535E+001  +7.7208758310E-003 +3.3418558466E+001  +6.0213539197E-001 +1.5195407413E+000 
9520033.792 +5.5545265562E-001 +4.2417616874E+000  +5.9883023191E-003 +5.0854589615E+001  +1.3464724840E-002 +3.2562061703E+001  +5.7861552382E-001 -2.2926595303E+000 
9645178.974 +5.8312348506E-001 +3.7749989842E+000  +7.0780322275E-003 +2.9724260218E+001  +7.5578127152E-003 +5.1042444416E+001  +5.5119265283E-001 -5.5714068492E-001 
9770324.155 +5.1677103792E-001 +1.5546316007E+000  +9.0662796206E-003 +2.7622340984E+001  +6.9021749992E-003 +6.2530305673E+001  +5.6518427936E-001 -5.1330135181E+000 
9895469.337 +5.1647162431E-001 +3.9604033735E-001  +6.7016816664E-003 +1.8456383730E+001  +8.4244631957E-003 +5.4205769091E+001  +5.7981663528E-001 -7.6694372226E+000 
10020614.518 +5.2475675975E-001 +2.9627107708E+000  +8.6509604812E-003 +5.6480170375E+000  +8.2385403789E-003 +3.3406621058E+001  +5.8281391561E-001 -6.2414822106E+000 
10145759.700 +5.3987796039E-001 +4.8660484883E+000  +5.2075223175E-003 +3.6960957602E+001  +7.5161880491E-003 +3.7147118319E+001  +5.7655124421E-001 -5.9516654352E+000 
10270904.881 +5.6952661016E-001 +5.2543719697E+000  +9.8983433785E-003 +3.0368719091E+001  +6.8170646127E-003 +5.0260401659E+001  +5.3911935927E-001 -5.7101292262E+000 
10396050.063 +5.3358105052E-001 +2.8807346340E+000  +1.0620447061E-002 +2.4611263853E+001  +9.1345488108E-003 +5.1640808836E+001  +5.6640010738E-001 -9.4569324125E-002 
10521195.244 +5.7311819681E-001 +5.6587820895E+000  +8.6844485354E-003 +3.7288620498E+001  +8.1694841322E-003 +3.1803340179E+001  +5.7211138199E-001 +6.4872267515E-001 
10646340.426 +5.8411713344E-001 +9.2850531198E+000  +5.4249934705E-003 +3.6485954859E+001  +8.5188059106E-003 +2.7842351964E+001  +5.9984211802E-001 +3.8294710443E-001 
10771485.607 +6.0000982474E-001 +8.4693195232E+000  +7.7186104061E-003 +2.0336266408E+001  +9.3122252311E-003 +4.5462322096E+001  +5.9574602716E-001 +8.9660880153E-001 
10896630.788 +5.5920167443E-001 +7.1846157677E+000  +8.6432408194E-003 +4.0913685898E+001  +9.3185684809E-003 +4.2868612597E+001  +5.8082943488E-001 +2.3941138697E+000 
11021775.970 +5.8343199708E-001 +9.8802779644E+000  +7.8011380462E-003 +4.4401596537E+001  +1.0206726948E-002 +4.2954554831E+001  +6.1077455724E-001 +1.6300533233E+000 
11146921.151 +6.2225059390E-001 +7.6334602979E+000  +1.0638713577E-002 +2.6909153765E+001  +9.3159221451E-003 +4.7170540216E+001  +6.1908525806E-001 -8.7208127023E-001 
11272066.333 +6.1398642128E-001 +7.1438417002E+000  +8.2055492235E-003 +2.1311853395E+001  +8.6052807450E-003 +4.2028670191E+001  +6.2062002408E-001 -2.8658417803E+000 
11397211.514 +6.3201853129E-001 +5.7376382550E+000  +1.0188246276E-002 +3.6932064587E+001  +8.5215359312E-003 +3.7062755211E+001  +6.0172687614E-001 +1.9420788507E+000 
11522356.696 +6.2061289644E-001 +5.5936556742E+000  +8.5665073532E-003 +2.9460860458E+001  +7.1603702709E-003 +5.6409541751E+001  +6.2224828726E-001 +1.5785649891E+000 
11647501.877 +6.3962783019E-001 +5.7906017847E+000  +1.0596014039E-002 +2.2190383873E+001  +8.5462086702E-003 +4.4154489874E+001  +6.4764485825E-001 +1.7520408967E+000 
11772647.059 +6.3575345527E-001 +5.8075324251E+000  +9.4551657974E-003 +3.4956880125E+001  +7.5983343394E-003 +4.2378637047E+001  +6.3734568346E-001 +4.3992946116E-001 
11897792.240 +6.5464448507E-001 +6.7069005607E+000  +8.4960788853E-003 +3.2377170236E+001  +8.1918444379E-003 +4.8220603096E+001  +6.7406209222E-001 +2.3600446991E+000 
12022937.422 +6.8038479705E-001 +5.0927455378E+000  +9.8239407823E-003 +2.6368348986E+001  +1.1779592732E-002 +3.6271858552E+001  +6.9147614865E-001 +3.5101342765E-001 
12148082.603 +6.5967631205E-001 +4.9751500093E+000  +9.5235697016E-003 +3.1538334742E+001  +9.5904516966E-003 +4.4525548129E+001  +6.9137055076E-001 +5.6954289186E-001 
12273227.785 +7.1348456079E-001 +4.9735163487E+000  +8.0492883143E-003 +3.8743077795E+001  +8.7259010017E-003 +3.2542771011E+001  +7.2978845335E-001 +1.9583093675E-001 
12398372.966 +7.1738538168E-001 +3.0407424059E+000  +1.0807423030E-002 +3.5280962580E+001  +8.5413925302E-003 +4.9894193584E+001  +7.2152799008E-001 +6.4998796247E-001 
12523518.148 +7.0157911543E-001 +2.9934113119E+000  +9.5450594025E-003 +4.1572592361E+001  +9.0136689820E-003 +5.5240067917E+001  +7.1450256908E-001 -6.3488850335E-001 
12648663.329 +7.3637922005E-001 +2.7857023559E+000  +1.0653965569E-002 +3.4640338700E+001  +1.0640731358E-002 +5.7208274757E+001  +7.4425670844E-001 -1.2466541368E-001 
12773808.511 +7.6618836669E-001 +2.3680833471E+000  +1.0467251147E-002 +3.7473048852E+001  +9.4475116217E-003 +4.7886794377E+001  +7.6945251206E-001 -1.9578447223E+000 
12898953.692 +7.7582678346E-001 +1.7850564688E+000  +1.1928698156E-002 +3.7869498599E+001  +9.5651011621E-003 +3.9815844934E+001  +7.9353752997E-001 -1.1228650723E+000 
13024098.874 +7.7959671904E-001 -8.2155109742E-001  +9.5049994752E-003 +3.0911060184E+001  +1.0717358378E-002 +3.8720016785E+001  +7.8458700721E-001 -1.3676191023E+000 
13149244.055 +8.0934593861E-001 -1.4187908063E-001  +1.1121333420E-002 +4.1457958608E+001  +1.0028532891E-002 +4.5682759151E+001  +8.0286595891E-001 -2.3660628002E+000 
13274389.237 +8.2239377025E-001 -1.7996956498E+000  +9.8628072071E-003 +3.9053289546E+001  +9.4888910481E-003 +4.2290077147E+001  +8.3568503123E-001 -2.0278374681E+000 
13399534.418 +8.0559664112E-001 -3.4526983400E+000  +1.0408433669E-002 +3.8996548899E+001  +1.2066861193E-002 +4.4818696009E+001  +8.3373544195E-001 -1.2600779214E+000 
13524679.599 +8.4877908050E-001 -1.6446185075E+000  +1.2489690409E-002 +5.2131536552E+001  +1.0972272962E-002 +4.6904047454E+001  +8.8181929257E-001 -2.6164139151E+000 
13649824.781 +8.5796877891E-001 -3.3155968943E+000  +1.1202906333E-002 +4.2620517558E+001  +1.1386643820E-002 +4.5813664448E+001  +8.7315589831E-001 -2.4256726979E+000 
13774969.962 +8.7023882651E-001 -2.8450389503E+000  +1.2521733593E-002 +3.8371258690E+001  +1.0070747195E-002 +4.4953054152E+001  +8.7742482357E-001 -3.9284883969E+000 
13900115.144 +9.0517741863E-001 -2.6307390751E+000  +1.1431643935E-002 +4.6136718366E+001  +1.0839825173E-002 +4.4898684545E+001  +9.1684048278E-001 -3.9455357276E+000 
14025260.325 +9.5789832709E-001 -3.8503857876E+000  +1.1928804251E-002 +5.0146438640E+001  +8.9012753532E-003 +4.0176437580E+001  +9.3020203908E-001 -3.8732389833E+000 
14150405.507 +9.5896316516E-001 -3.6209648515E+000  +1.1664277757E-002 +4.1157946570E+001  +1.1512239841E-002 +4.6908395414E+001  +9.3844590887E-001 -2.9856707245E+000 
14275550.688 +9.4452803861E-001 -5.8507211798E+000  +1.2364355438E-002 +4.1419683349E+001  +1.0860583686E-002 +4.2460017332E+001  +9.4832127988E-001 -4.1677564323E+000 
14400695.870 +9.6414457645E-001 -5.9972154637E+000  +1.2512317416E-002 +4.9197706213E+001  +1.1720576096E-002 +3.7484934082E+001  +9.9301909898E-001 -5.3467426487E+000 
