!  2-Port S-parameters saved by WinCal
! VAR NAME=S2_r4c9_formed(1)_9k-100M_3
! VAR DATE=30/08/2024 11:37:18
! VAR FILENAME=S2_r4c9_formed(1)_9k-100M_3.S2P
! VAR MeasName=S-Parameters (CALIBRATED_DATA) read from VNA (P5004A)
! VAR MeasDate=28/08/2024 10:03:47
! VAR PHYS_PORTS=1,2
! VAR ObjTypeName=DATASET
! VAR IndexType=Frequency
!
# Hz S MA R 50
9000.000 +6.3002598236E-002 -1.6372232143E+002  +1.0727352417E-002 -5.9073675427E+001  +2.8667543653E-002 -6.9581433973E+000  +4.2084784965E-001 -1.0108414996E+002 
134145.181 +1.1167575222E-001 +1.6990364125E+002  +6.1284078621E-004 -1.4541766207E+002  +6.0546301394E-004 -1.0883101437E+002  +2.4452039962E-001 -1.6995333227E+002 
259290.363 +1.1153937316E-001 +1.7027678653E+002  +1.6804503930E-004 -9.1250696885E+001  +1.0168204935E-003 -2.5634144063E+001  +2.3925377429E-001 -1.6959913558E+002 
384435.544 +1.1368211364E-001 +1.7000247964E+002  +6.9104306499E-004 -8.8263447574E+001  +3.5587450322E-004 -7.0725767194E+001  +2.4080509158E-001 -1.6775582871E+002 
509580.726 +1.1509128997E-001 +1.7032072003E+002  +9.7804612383E-004 +2.3728420080E+001  +8.3634398594E-004 +8.9867757199E+001  +2.3993388027E-001 -1.6362243118E+002 
634725.907 +1.1802634152E-001 +1.7245685409E+002  +3.8428739537E-004 -1.3044375737E+001  +2.6838254179E-004 -1.2721349716E+002  +2.4916444929E-001 -1.6567077514E+002 
759871.089 +1.2159171420E-001 +1.7100107168E+002  +2.3552882978E-004 -9.5869143119E+000  +5.5269547609E-004 +1.1968498244E+002  +2.4096423620E-001 -1.6572704170E+002 
885016.270 +1.1931232216E-001 +1.6998092278E+002  +2.8597454287E-004 +5.2861750876E+001  +1.7888110595E-004 +5.4495943259E+001  +2.4535331145E-001 -1.6626785424E+002 
1010161.452 +1.1397238826E-001 +1.7142284678E+002  +1.0042480159E-003 +2.3607856734E+001  +2.1692918055E-003 +1.7230245611E+002  +2.2487085438E-001 -1.6441844606E+002 
1135306.633 +1.1417060423E-001 +1.6738923481E+002  +7.3911545405E-004 -5.4844982135E+001  +2.3515015347E-003 -2.8581380273E+001  +1.9203145151E-001 -1.6567575769E+002 
1260451.815 +1.2033340406E-001 +1.7002921555E+002  +1.8086255800E-003 -1.4262561263E+002  +7.6805730405E-004 -5.7841942690E+001  +2.2643505059E-001 -1.5958859402E+002 
1385596.996 +1.2574502596E-001 +1.7264488858E+002  +6.5318964515E-004 -1.5172829575E+002  +5.9419840041E-004 -6.4415506385E+001  +2.7441495525E-001 -1.5836148961E+002 
1510742.178 +1.2716567779E-001 +1.7223104141E+002  +1.3248169278E-003 -1.1433796082E+002  +3.6918755997E-004 +1.0730704933E+002  +2.6435106032E-001 -1.5935912272E+002 
1635887.359 +1.2765951914E-001 +1.7130311968E+002  +2.3253899658E-004 +1.5036968206E+002  +1.0151827453E-003 -7.8607380163E+001  +2.4794985948E-001 -1.5840477213E+002 
1761032.541 +1.3013719887E-001 +1.7077197679E+002  +1.1168581209E-003 -2.6311658642E+001  +4.2610116933E-004 +1.1008195897E+002  +2.4603568100E-001 -1.5416922643E+002 
1886177.722 +1.2378199028E-001 +1.6894365464E+002  +1.7357320151E-003 -1.4343598848E+002  +1.3878971854E-003 -1.0645264133E+002  +2.3508800002E-001 -1.5801751020E+002 
2011322.904 +1.2905009409E-001 +1.6953545798E+002  +4.6854168459E-004 -2.8778167347E+001  +2.2767648243E-003 -1.6641357585E+002  +1.9952947780E-001 -1.7509452333E+002 
2136468.085 +1.2621399878E-001 +1.6885042732E+002  +1.7030800863E-003 +1.9083069745E+001  +4.0830856775E-003 +1.6800968298E+002  +1.8075028146E-001 +1.7770151736E+002 
2261613.267 +1.3428437118E-001 +1.6236522773E+002  +2.0184425803E-003 +8.3457033801E+001  +3.9290830918E-003 +5.5946872926E+001  +1.9194885631E-001 -1.7327801480E+002 
2386758.448 +1.3586088333E-001 +1.6291007539E+002  +4.1512783740E-003 -5.2779160714E+001  +7.7340268150E-004 +5.8557859057E+001  +1.8203408594E-001 -1.7688628086E+002 
2511903.630 +1.2942903806E-001 +1.6160365440E+002  +5.6842756566E-003 -1.7042815217E+002  +3.3804987949E-003 +1.5076711414E+002  +2.0449250821E-001 -1.7459132882E+002 
2637048.811 +1.0826739574E-001 +1.7298416493E+002  +9.3862895049E-003 -1.0298615761E+002  +5.4394416440E-003 -1.6582608343E+002  +1.0086141763E-001 +1.3701984071E+002 
2762193.992 +8.1562211251E-002 +1.6235127851E+002  +1.5486271800E-002 +9.0272982178E+001  +2.1156145659E-002 +1.6865810857E+002  +7.0880900987E-001 +1.6586216350E+002 
2887339.174 +1.1154990498E-001 +1.7440708080E+002  +7.0238382487E-003 -9.1144427420E+001  +1.4122301406E-002 +7.8341222247E+001  +1.2341385338E-001 +6.5295070766E+001 
3012484.355 +1.1623619251E-001 +1.7856957212E+002  +2.1132694783E-002 +1.0972004223E+002  +1.0726655008E-002 +1.9731495263E+001  +3.4576667127E-001 -4.6234242663E+001 
3137629.537 +1.3758323695E-001 +1.6828569313E+002  +4.6911512592E-003 +1.4375189178E+001  +3.1363767800E-003 +8.4085441261E+001  +3.3895235268E-001 -9.8148274595E+001 
3262774.718 +1.3987590356E-001 +1.6892317273E+002  +1.5751663310E-002 +1.2247054924E+002  +1.2916393125E-002 -9.1865753185E+001  +7.7326943715E-002 -2.9298204923E+001 
3387919.900 +1.2315141544E-001 +1.5673784343E+002  +3.1021930004E-002 -1.4441911855E+002  +3.5125507028E-002 -1.0701786565E+002  +1.4089959612E+000 +8.3416084372E+001 
3513065.081 +1.2639550323E-001 +1.4628950075E+002  +1.5584370885E-002 -2.4809107399E+001  +6.7799322538E-003 -5.3813922399E+000  +4.3889059298E-001 +8.8806194209E+001 
3638210.263 +1.8435767724E-001 +1.4834343841E+002  +6.0437174748E-003 +7.2093758132E+001  +1.5691633572E-002 +5.4507896811E+001  +4.9928931985E-001 +1.2394879947E+002 
3763355.444 +1.9807206414E-001 +1.5115532878E+002  +7.0308247817E-003 +1.6413879874E+002  +5.3516742615E-003 +3.7144783644E+001  +2.0865087188E-001 +1.1934112485E+002 
3888500.626 +2.0650253265E-001 +1.3819348420E+002  +7.5538867149E-004 +1.0703649483E+001  +7.8257175194E-003 -1.4824311547E+002  +2.7516423252E-001 +1.3628090871E+002 
4013645.807 +1.6173865796E-001 +1.4125466989E+002  +1.4843191404E-002 +7.0256510481E+001  +8.8132226159E-004 -8.8408709052E+001  +7.6381730217E-001 +9.5274966308E+001 
4138790.989 +1.9717510106E-001 +1.4936204852E+002  +8.1685177182E-003 +1.5163246778E+002  +6.3596796909E-003 -1.4511565870E+002  +2.8927111263E-001 +9.2942685465E+001 
4263936.170 +1.8453046280E-001 +1.4838420701E+002  +4.1616397386E-003 -1.6492518803E+002  +4.0692589543E-003 +1.1275980220E+002  +5.1612481984E-001 +1.2733637593E+002 
4389081.352 +2.1091229755E-001 +1.3905653048E+002  +2.7272510615E-002 -9.8819846055E+001  +2.4792950126E-002 +9.6998214275E+001  +9.6891766117E-001 +4.1878798285E+001 
4514226.533 +2.4003957073E-001 +1.2504120653E+002  +5.0526043619E-003 -1.2175254113E+002  +7.6857139693E-003 +4.6517027365E+001  +6.6769194594E-001 +1.1750377696E+002 
4639371.715 +2.5417696819E-001 +1.3875405399E+002  +1.6215829133E-002 -1.7547608332E+002  +9.0281992923E-003 +5.1148514852E+001  +1.0058147532E+000 +5.7505499311E+001 
4764516.896 +4.9826169830E-001 +1.2028551351E+002  +1.2646750562E-001 -2.8449938594E+001  +3.1840227746E-002 -9.1595838597E+001  +2.9797780192E+000 -1.4937602128E+002 
4889662.078 +4.5329246443E-001 +1.3301823931E+002  +2.2373642852E-003 +1.1577046166E+002  +2.2703137047E-002 +1.1413161403E+002  +1.8109110348E+000 -1.1800626586E+002 
5014807.259 +3.5706518168E-001 +1.2912712748E+002  +4.4169524687E-002 -2.6963405776E+001  +4.3043483157E-002 -3.8412415110E+001  +5.3624499442E+000 -5.8658608770E+001 
5139952.441 +4.0019103286E-001 +1.3317759981E+002  +2.9521517958E-002 -1.6898335875E+002  +5.6038438512E-002 -1.5677517718E+002  +3.9204572123E+000 +1.0832101378E+002 
5265097.622 +4.1590368942E-001 +1.3138396182E+002  +1.2442444383E-002 -1.3603455107E+002  +1.3312764375E-002 -1.1184061728E+002  +1.4788197556E+000 +8.3718021507E+001 
5390242.804 +4.5910373980E-001 +1.2983909949E+002  +3.9882156767E-002 +1.3824527184E+002  +4.7572772294E-002 -1.5248866822E+002  +6.9640115367E+000 +8.8704913894E+001 
5515387.985 +4.1767506379E-001 +1.1760880361E+002  +7.7888314403E-003 +4.9028833071E+001  +2.0074133863E-002 +6.2061561777E+001  +2.2884710111E+000 +6.1295348122E+001 
5640533.166 +5.1119675653E-001 +1.3203865531E+002  +4.5565926008E-003 -1.6412693404E+002  +3.0516296947E-002 -1.7402451782E+002  +3.2752632958E+000 +6.5568960656E+001 
5765678.348 +5.5361221775E-001 +1.2864990309E+002  +1.4013828754E-002 -1.3491674340E+002  +2.5379784748E-003 +1.4844920886E+002  +2.7157435833E+000 +4.4934217042E+001 
5890823.529 +6.2398105620E-001 +1.2247988144E+002  +4.0650312725E-002 +1.7355737684E+002  +4.4917293043E-002 -9.2491605414E+001  +2.6558191957E+000 +6.0174838375E+001 
6015968.711 +6.1979928013E-001 +1.2665550191E+002  +5.1204923076E-003 -1.1341428464E+002  +1.6548213046E-002 +1.4367082350E+002  +1.7587981884E+000 +3.9781596457E+001 
6141113.892 +7.8249438922E-001 +1.0807673733E+002  +8.8220117188E-003 -1.1296511622E+002  +1.1965978869E-002 -3.1838394578E+001  +1.4673100584E+000 +5.3972485272E+001 
6266259.074 +9.6695755953E-001 +1.0583575834E+002  +6.1725302854E-003 +7.3523565647E+001  +1.2496724563E-002 +1.4129302874E+002  +1.5914859296E+000 +1.0009875280E+001 
6391404.255 +9.7491131630E-001 +9.4188146549E+001  +2.0549208590E-002 +1.7993849372E+002  +1.5799065047E-002 +5.0881806265E+001  +1.8385470115E+000 +2.2999157924E+001 
6516549.437 +1.5402938944E+000 +8.5982115483E+001  +1.0711992732E-002 -1.5977853557E+002  +3.2623033818E-002 +5.7807711614E+001  +1.9106760765E+000 +2.6584930724E+001 
6641694.618 +1.5022714621E+000 +8.1344636727E+001  +1.3101996880E-002 -8.5286785119E+001  +3.8065064275E-002 +1.1455691803E+002  +1.4670786857E+000 +3.0562305306E+000 
6766839.800 +1.9116220951E+000 +5.4717572189E+001  +1.9856633808E-002 +1.6526808065E+002  +4.8257968479E-002 +6.1187672538E+001  +1.4953637648E+000 -6.7651783763E+000 
6891984.981 +2.0407680210E+000 +2.3092405625E+001  +3.1663703141E-002 -5.6049498698E+001  +3.3824994711E-002 +8.0857033978E+001  +1.1830917192E+000 -1.3346761690E+001 
7017130.163 +1.8002948636E+000 +2.6375494235E+001  +1.3222649404E-002 +1.1446357677E+002  +1.2370061801E-002 +4.4653275599E+001  +1.4839008368E+000 -1.0089131803E+001 
7142275.344 +1.4491060905E+000 +6.5025197835E+000  +1.0248328662E-002 +1.0184068479E+002  +1.6849199728E-002 +6.6753304336E+001  +1.3405219520E+000 -1.2850471251E+001 
7267420.526 +1.7989542336E+000 +2.5515937643E+000  +1.3181559340E-002 +9.3964274338E+001  +1.2330871571E-002 +1.5113453055E+001  +1.3498518713E+000 -1.2226641021E+001 
7392565.707 +1.4644482340E+000 -5.5186026861E+000  +2.3968242750E-003 +6.2165281709E+001  +1.6672423284E-002 +1.1865433205E+002  +1.2485478158E+000 -1.1123827676E+001 
7517710.889 +1.1504782579E+000 -1.3531002968E+000  +8.4825298672E-003 +1.3638585445E+002  +4.6222108770E-003 +6.5823994288E+001  +1.1202681965E+000 -6.2593035739E+000 
7642856.070 +1.1352623626E+000 -1.4729924279E+000  +4.9625258438E-003 -6.6055578031E+001  +2.7834620654E-003 +7.9407122614E+001  +1.1145795021E+000 -7.0585259439E+000 
7768001.252 +1.0592690902E+000 +2.7967968706E+000  +3.3767556268E-003 +2.5712647002E+001  +1.9321713148E-003 -1.6244467007E+002  +9.8871253048E-001 -9.7082594861E+000 
7893146.433 +9.2400501826E-001 -9.8216285916E-002  +6.5644030176E-003 +8.9883503001E+001  +2.9518494230E-003 +1.4985154184E+002  +9.5581192670E-001 -3.9055938985E+000 
8018291.615 +8.4825073707E-001 +1.0158333650E+001  +8.7303261145E-003 +8.9899969278E+001  +6.9627253428E-003 +1.2487230822E+002  +9.4675485109E-001 -8.0060326664E-001 
8143436.796 +7.5688645702E-001 +9.9227832511E+000  +1.4183444152E-003 -1.2586308960E+002  +1.0160142300E-002 -1.6730676197E+002  +8.8645406856E-001 -3.0098849367E+000 
8268581.977 +7.5943486202E-001 +8.5099307708E+000  +2.7718551487E-003 +4.2545463766E+001  +2.4666182798E-003 +9.3767010896E+001  +7.6266069307E-001 -1.9743819784E+000 
8393727.159 +7.1358141795E-001 +7.4828662709E+000  +4.1767077089E-003 +5.0990247122E+001  +4.3178289746E-003 +1.0270573194E+002  +7.0126224683E-001 +1.6163294419E+000 
8518872.340 +7.4222633779E-001 +9.4627711456E+000  +9.4308984018E-003 +5.1276586090E+001  +2.2946133291E-003 +6.0974501912E+001  +7.2049305291E-001 -8.2645640499E-002 
8644017.522 +7.2114467585E-001 +8.9811415196E+000  +5.7330687220E-003 +1.0493878463E+002  +8.2000318376E-003 +1.0870106696E+002  +6.9482572515E-001 -8.0769768236E-001 
8769162.703 +6.1791546067E-001 +3.7524347926E+000  +3.1008432025E-003 +5.4176631656E+001  +6.1051242260E-003 +8.1759405386E+001  +6.9060629282E-001 -3.1881015891E+000 
8894307.885 +6.3640163562E-001 +6.6359185657E+000  +3.6667205080E-003 +4.2449011567E+001  +3.2503767293E-003 +1.0708277677E+002  +6.2808735522E-001 -4.3169654015E+000 
9019453.066 +6.0703042385E-001 +7.4164199018E+000  +1.1450838583E-003 +1.0766190122E+002  +5.3938361359E-005 -1.4062175600E+002  +5.7870636296E-001 -2.7363801243E+000 
9144598.248 +6.0636718810E-001 +2.2236155396E+000  +8.5873763216E-003 +1.0286185552E+002  +8.6912654678E-003 +1.0196702420E+002  +6.4334973951E-001 -1.9285065460E+000 
9269743.429 +5.5622415357E-001 +2.0677292922E-001  +2.9946901616E-003 +1.3900576296E+002  +2.1636612333E-003 +1.1852539096E+002  +5.8625881993E-001 -1.1631926460E+000 
9394888.611 +6.0095733608E-001 +4.6161576420E+000  +3.5790016512E-003 +9.7665610094E+001  +9.8839882676E-003 +1.1576610952E+002  +5.8626068734E-001 +2.0387603318E+000 
9520033.792 +5.3511390462E-001 +2.6524574937E+000  +4.9713267490E-003 +1.1385423846E+002  +5.9032907174E-003 +9.5542224788E+001  +6.2285360601E-001 -3.3702976006E+000 
9645178.974 +5.2603108830E-001 +2.2674898407E+000  +4.7125094306E-003 +6.5149868335E+001  +1.6339783955E-003 +4.1966179277E+001  +5.8752399849E-001 -6.7587323951E+000 
9770324.155 +5.3400462036E-001 -1.0902309716E+000  +3.0060883087E-003 +9.9796443332E+001  +4.2453671340E-003 +1.3951934229E+002  +5.9711372452E-001 -8.2937485789E+000 
9895469.337 +5.4251165429E-001 +9.6995484687E-001  +4.3690149185E-003 +7.1567313001E+001  +5.6834626130E-003 +1.0924950908E+002  +5.6308303255E-001 -5.9108086797E+000 
10020614.518 +5.4087739217E-001 -1.2279156963E+000  +5.5040132473E-003 +8.4194267812E+001  +5.7706261118E-003 +8.2674772269E+001  +6.0213619159E-001 -8.9524342699E+000 
10145759.700 +5.3728830995E-001 +3.4983928612E-001  +6.9633915299E-003 +1.0309790463E+002  +5.8622479804E-003 +1.0420956458E+002  +5.9694243961E-001 -3.5972537904E+000 
10270904.881 +5.5347170999E-001 +7.7915624823E+000  +5.0023062859E-003 +6.3807463781E+001  +3.3928361882E-003 +9.2370357179E+001  +5.8316899743E-001 -2.0765802842E+000 
10396050.063 +6.0314209316E-001 +5.1166952300E+000  +5.5449197457E-003 +6.1016926089E+001  +3.5161194542E-003 +9.2550006910E+001  +5.9955935738E-001 -2.2757888078E+000 
10521195.244 +5.5312392716E-001 +5.7293835016E+000  +6.7578224406E-003 +9.3300487656E+001  +3.9585042702E-003 +1.1532778920E+002  +5.6473392877E-001 +2.7638242955E+000 
10646340.426 +5.6403389031E-001 +4.0831764385E+000  +2.8365951369E-003 +6.5231943426E+001  +4.2381389280E-003 +1.2100611019E+002  +6.0073783834E-001 +2.1692224723E+000 
10771485.607 +5.6902123209E-001 +7.0961269261E+000  +3.2846900688E-003 +6.5547318753E+001  +2.4918487474E-003 +8.6321301173E+001  +6.4274357034E-001 -8.8443524796E-001 
10896630.788 +6.1267659921E-001 +4.3812776676E+000  +3.4766794269E-003 +1.0530478125E+002  +1.9180789164E-003 +7.3758677107E+001  +6.2393361729E-001 -1.2812236975E+000 
11021775.970 +6.0161437777E-001 +6.6510165004E+000  +6.6365310337E-003 +8.6904111440E+001  +5.8588922934E-003 +9.8357975078E+001  +6.2956193341E-001 +1.3961289100E+000 
11146921.151 +6.1967989883E-001 +4.1188111540E+000  +5.0169925479E-003 +1.0269948839E+002  +5.1625965164E-003 +9.7023235360E+001  +6.2591969458E-001 +1.2489780942E+000 
11272066.333 +5.9698303741E-001 +5.5069793431E+000  +5.2833654346E-003 +7.1537594199E+001  +3.0594196960E-003 +1.0985398687E+002  +6.4400610918E-001 +1.3952836091E+000 
11397211.514 +5.9540194190E-001 +4.1494797297E+000  +5.6092703348E-003 +9.3180174698E+001  +7.9665954255E-003 +1.0900147023E+002  +6.3148857273E-001 +6.1291463637E-001 
11522356.696 +6.2949807639E-001 +5.5185577986E+000  +6.1717081653E-003 +9.8854413978E+001  +6.3151103580E-003 +9.5640041790E+001  +6.3456457686E-001 +1.3552212344E+000 
11647501.877 +6.2107879989E-001 +6.5268585784E+000  +6.4862516507E-003 +7.7073457669E+001  +4.5186618155E-003 +9.2558938652E+001  +6.7492047712E-001 +3.1269156486E-001 
11772647.059 +6.7207363179E-001 +7.6023470696E+000  +5.7529807523E-003 +8.7670227395E+001  +4.9745579415E-003 +1.0824682405E+002  +6.5943424096E-001 +1.0679252063E+000 
11897792.240 +6.8790626850E-001 +5.9571224845E+000  +6.1645813734E-003 +8.3373238418E+001  +4.8902332297E-003 +1.1307765170E+002  +6.8211994153E-001 +1.9674831958E+000 
12022937.422 +6.9377814138E-001 +3.9631425497E+000  +6.6436641178E-003 +8.4904732047E+001  +5.0066455679E-003 +1.0820874251E+002  +7.0531223540E-001 +1.2401967394E-001 
12148082.603 +6.9531226215E-001 +4.2101345737E+000  +5.1684774008E-003 +9.4524377280E+001  +4.5648520196E-003 +1.1668056785E+002  +7.0722488349E-001 +1.8682885023E-002 
12273227.785 +7.1684877909E-001 +3.4042305233E+000  +5.6598694689E-003 +8.5343095965E+001  +5.9832358042E-003 +9.1526017254E+001  +7.2709883616E-001 -4.9390163433E-001 
12398372.966 +7.4122115518E-001 +2.5126919088E+000  +6.2107123133E-003 +9.3234367806E+001  +5.0932449552E-003 +1.1003324961E+002  +7.4877031273E-001 -7.6927538907E-001 
12523518.148 +7.3085002141E-001 +2.0153680396E+000  +4.5766050173E-003 +1.0309664154E+002  +4.7973867148E-003 +9.6065321804E+001  +7.7487042647E-001 -1.2497633521E+000 
12648663.329 +7.4739678182E-001 +2.0066246777E+000  +5.6892517518E-003 +9.5279158084E+001  +6.1182628795E-003 +9.2897179164E+001  +7.7933868329E-001 -7.3588991651E-001 
12773808.511 +7.7648292403E-001 +2.4359491382E-001  +5.3134284826E-003 +1.0165220428E+002  +8.5550629223E-003 +9.2111972858E+001  +7.7413926048E-001 -1.5606170515E+000 
12898953.692 +7.6749680281E-001 +3.5891470963E-001  +7.0091628289E-003 +9.9315368124E+001  +6.5261188165E-003 +9.7734050068E+001  +7.7478614137E-001 -1.4789898995E+000 
13024098.874 +7.8751491025E-001 -6.2067910011E-002  +5.8750218627E-003 +6.6225559770E+001  +4.9182030979E-003 +1.1472442108E+002  +7.8947218849E-001 -1.6330225653E+000 
13149244.055 +8.0344761080E-001 -1.2162907167E+000  +5.4520927535E-003 +9.3269643998E+001  +4.4101104512E-003 +8.9586126651E+001  +8.4824249025E-001 -2.5696925195E+000 
13274389.237 +8.6020694336E-001 -6.4860066542E-001  +6.8116032793E-003 +8.2313498784E+001  +6.7666590503E-003 +1.0385624653E+002  +8.3115426494E-001 -3.1198655714E+000 
13399534.418 +8.4575118112E-001 -1.2750280167E+000  +6.9931982269E-003 +9.3581828269E+001  +5.8277166104E-003 +9.3198638675E+001  +8.6005897343E-001 -2.6037712261E+000 
13524679.599 +8.7276130543E-001 -1.9093856147E+000  +7.5144904097E-003 +8.5909467861E+001  +8.2754971736E-003 +9.5750897987E+001  +8.6619199736E-001 -2.6627134693E+000 
13649824.781 +8.7427240887E-001 -1.8998695166E+000  +7.2238585264E-003 +9.8521832474E+001  +6.1694741538E-003 +8.1526439019E+001  +8.9029045445E-001 -3.1573573024E+000 
13774969.962 +8.9402064088E-001 -3.8883573601E-001  +7.2309784869E-003 +9.1510935121E+001  +6.7417721738E-003 +9.2452812201E+001  +9.1021055154E-001 -3.2432128744E+000 
13900115.144 +9.2070094062E-001 -3.2218764705E+000  +8.0248921897E-003 +8.8417511381E+001  +6.1036543663E-003 +8.8118861002E+001  +9.1629543204E-001 -5.4408743059E+000 
14025260.325 +8.9061226179E-001 -3.8936690603E+000  +7.0290446739E-003 +1.0240650629E+002  +7.3908944849E-003 +1.0045085647E+002  +9.3225351974E-001 -4.0556941198E+000 
14150405.507 +9.3542457410E-001 -4.2331199165E+000  +7.2048989553E-003 +8.7719827413E+001  +7.7210110612E-003 +9.4514646740E+001  +9.4877233853E-001 -4.7928815662E+000 
14275550.688 +9.4902000971E-001 -5.6387626941E+000  +6.7708115789E-003 +8.9082764609E+001  +7.9332228207E-003 +7.4534788005E+001  +9.8796090442E-001 -3.6600052259E+000 
14400695.870 +1.0049978667E+000 -6.7091729575E+000  +7.5492401898E-003 +9.1758600404E+001  +7.5631731503E-003 +9.1474037208E+001  +1.0103747965E+000 -4.7689460031E+000 
