!  2-Port S-parameters saved by WinCal
! VAR MeasName=S-Parameters (CALIBRATED_DATA) read from VNA (P5004A)
! VAR MeasDate=28/08/2024 10:56:44
! VAR NAME=S2_r5c9_RESET3_9k-100M_2
! VAR FILENAME=S2_r5c9_RESET3_9k-100M_2.S2P
! VAR DATE=28/08/2024 10:56:44
! VAR PHYS_PORTS=1,2
! VAR ObjTypeName=DATASET
! VAR IndexType=Frequency
!
# Hz S MA R 50
9000.000 +8.6479652611E-002 -1.6846512923E+002  +9.9770060294E-003 -9.5026836175E+001  +1.8908984137E-002 +1.4269645577E+002  +2.9286874178E-001 -1.3135616499E+002 
134145.181 +1.1063191830E-001 +1.6984614447E+002  +3.1980487802E-004 -7.8246058610E+001  +4.9770811858E-004 +1.3454491040E+002  +2.3864055197E-001 -1.7100781580E+002 
259290.363 +1.1168278264E-001 +1.6981928194E+002  +2.6575257013E-004 +6.8312376230E+001  +9.1593289723E-004 +7.6306481975E+001  +2.4502990448E-001 -1.6832774566E+002 
384435.544 +1.1470090704E-001 +1.6975047361E+002  +4.1129523027E-004 -1.3468495802E+002  +3.1962194100E-004 +5.6186840843E+001  +2.4268758341E-001 -1.6961997518E+002 
509580.726 +1.1513178744E-001 +1.7099608479E+002  +1.1773537596E-003 -5.4807819120E+001  +1.0769844334E-003 +6.7637619285E+001  +2.4346186806E-001 -1.6499509283E+002 
634725.907 +1.1709527935E-001 +1.7099130959E+002  +1.3990604247E-004 +1.6527584493E+002  +6.1525806288E-004 +1.5425420310E+002  +2.4711563551E-001 -1.6571627228E+002 
759871.089 +1.1993035795E-001 +1.7169819795E+002  +4.6630045131E-004 +1.0216140527E+002  +4.1600457584E-004 +2.1073673843E+001  +2.5380023974E-001 -1.6785322248E+002 
885016.270 +1.2118652246E-001 +1.6894958819E+002  +1.8266025915E-004 +1.4890093451E+002  +2.0746011987E-004 +1.2743257886E+002  +2.5486351664E-001 -1.6555491670E+002 
1010161.452 +1.1587271925E-001 +1.7121183508E+002  +1.2715157804E-003 +1.4595048903E+002  +2.2240355344E-003 +5.8676923661E+001  +1.9265598937E-001 -1.6422714031E+002 
1135306.633 +1.1691607858E-001 +1.7008095077E+002  +1.2576747788E-003 +1.7324741756E+002  +1.3356100735E-003 +1.2974136919E+002  +1.8810467281E-001 -1.6534216951E+002 
1260451.815 +1.1806323387E-001 +1.7205053196E+002  +8.9191966864E-004 -6.5208026878E+001  +7.3922731541E-004 -9.9320425154E+001  +2.2333508076E-001 -1.6002242440E+002 
1385596.996 +1.2272483032E-001 +1.7176710481E+002  +5.9802056319E-004 -3.9321765572E+001  +4.9336390915E-004 +5.8659036889E+001  +2.7545531875E-001 -1.5805124690E+002 
1510742.178 +1.2760118214E-001 +1.7142602006E+002  +4.1466670344E-004 +1.6291368959E+002  +1.6176228645E-004 -1.3002542275E+002  +2.5726980944E-001 -1.5816798275E+002 
1635887.359 +1.2880282793E-001 +1.7162310338E+002  +1.1547604194E-004 -9.3488681904E+001  +9.4937972799E-005 -4.2167222366E+001  +2.5649077498E-001 -1.5844870940E+002 
1761032.541 +1.2785451096E-001 +1.6902539880E+002  +4.6219597025E-004 -1.7570438542E+002  +6.3916701841E-004 -1.6376886268E+002  +2.2859941417E-001 -1.6151474501E+002 
1886177.722 +1.2793925341E-001 +1.6865594156E+002  +1.7863652667E-003 -3.6127934845E+001  +2.2301975735E-003 +9.9770378274E+001  +2.2904339515E-001 -1.5686606771E+002 
2011322.904 +1.3242170979E-001 +1.6866388342E+002  +2.8747599095E-003 -3.1430114022E+001  +2.1483484109E-003 +2.3537786440E+001  +1.5112170418E-001 -1.6794048792E+002 
2136468.085 +1.2973205136E-001 +1.6402651617E+002  +8.5663695259E-004 -1.0775805644E+002  +3.1574570871E-003 +4.7201199889E+001  +2.2170855274E-001 -1.7680111408E+002 
2261613.267 +1.2910546993E-001 +1.6595178031E+002  +2.0608099521E-003 -1.6007825729E+001  +1.1802413524E-004 -1.4189803421E+002  +2.0464842724E-001 -1.7177012965E+002 
2386758.448 +1.3855767366E-001 +1.6296574122E+002  +5.2604508435E-003 -1.5661292482E+002  +6.2278700780E-003 -7.6320382539E+001  +2.5342809518E-001 +1.6064151588E+002 
2511903.630 +1.3307355287E-001 +1.6361618988E+002  +3.1227004865E-003 +1.7524091144E+002  +4.3843939487E-003 +1.7163095956E+001  +1.8869891763E-001 -1.5617410460E+002 
2637048.811 +1.1494031435E-001 +1.6536031048E+002  +3.6218129731E-002 +1.0304511574E+002  +4.5312631964E-002 -2.4920212120E+001  +1.7430754142E+000 +1.3338537929E+002 
2762193.992 +1.1770342274E-001 +1.6587198663E+002  +4.4372893376E-002 +1.6130975644E+002  +7.9773465289E-003 +1.0188485772E+001  +1.1402852202E+000 +5.8164161767E+001 
2887339.174 +1.1931734169E-001 +1.7916551374E+002  +6.5154077065E-003 +6.4779933799E+001  +2.8251969294E-003 +1.7537025043E+002  +2.0962742514E-001 -1.3212591561E+002 
3012484.355 +1.3159593290E-001 +1.6761482714E+002  +3.0168455335E-003 +1.7152763737E+002  +6.3355496395E-003 -1.0532332453E+002  +2.0668629207E-001 -1.2124972083E+002 
3137629.537 +1.0570179533E-001 +1.7574542263E+002  +3.3007902487E-003 +7.6735592022E+000  +3.7112541890E-003 +1.2244169424E+002  +1.9838100579E-001 -1.1740955842E+002 
3262774.718 +1.2528927599E-001 +1.6404322194E+002  +6.3096061741E-003 -2.7391965166E+001  +2.7081038308E-003 -1.1522126952E+002  +3.2972543821E-001 -4.6893063639E+001 
3387919.900 +1.2353599031E-001 +1.6172021694E+002  +9.2576849619E-003 -2.6603825210E+001  +1.0829659216E-003 -7.2464939033E+001  +1.5870868538E-001 +2.2231998256E+001 
3513065.081 +1.1504384508E-001 +1.5497782870E+002  +1.0765032792E-002 -1.3008596080E+002  +1.4681666988E-002 +1.0413160432E+002  +2.5557983541E-001 +1.2045751449E+002 
3638210.263 +1.5007020063E-001 +1.4526232111E+002  +1.5706632252E-002 +7.1620195185E+001  +3.0266945974E-002 -1.7280366627E+001  +1.0381586020E+000 +1.4170440199E+002 
3763355.444 +1.5971510789E-001 +1.4590434210E+002  +7.9232019596E-003 -1.3926898351E+002  +7.2116802348E-003 -1.3252257609E+001  +3.9045100002E-001 +1.5061334688E+002 
3888500.626 +1.7814026205E-001 +1.5378938610E+002  +1.1474760210E-002 +5.0746850496E+001  +3.4884803431E-003 +1.5683757242E+000  +4.5082446206E-001 +1.3413675029E+002 
4013645.807 +1.7057044301E-001 +1.4348795489E+002  +5.5400381181E-003 +1.7134425863E+002  +9.5379983019E-003 -1.7664050617E+002  +6.4395399890E-001 +1.3850615221E+002 
4138790.989 +2.0117811193E-001 +1.4321188429E+002  +6.0482075473E-003 -1.7031584311E+002  +1.7259920953E-003 -1.1687523726E+002  +2.6230741422E-001 +7.8075165166E+001 
4263936.170 +1.6800291991E-001 +1.4641712938E+002  +5.0385393066E-003 -1.1035255876E+002  +2.7313790099E-003 +7.8355560903E+001  +3.3127081644E-001 +1.3796888671E+002 
4389081.352 +1.7236421806E-001 +1.3650142199E+002  +6.9454485144E-003 +1.4587968791E+002  +1.3359788472E-002 +1.9951426606E+001  +7.0314618874E-001 +1.3007891975E+002 
4514226.533 +3.1149292488E-001 +1.0204367844E+002  +6.0380757612E-002 -1.5850799964E+002  +1.3798008438E-002 +6.9794622484E+001  +1.4083618622E+000 +7.9075680376E+001 
4639371.715 +1.5057484862E-001 +1.1882130229E+002  +1.8622328278E-002 -1.4122243593E+002  +3.2121360118E-002 -1.6066845557E+001  +1.3800600854E+000 +1.3686010912E+002 
4764516.896 +4.1214391065E-001 +1.3705194330E+002  +6.5482158570E-002 +9.1227088939E+001  +6.2267554006E-002 +1.6329155799E+002  +2.2371128719E+000 +4.6798412539E+001 
4889662.078 +3.8653886373E-001 +1.3856532561E+002  +1.6043026849E-002 +3.2737153792E+001  +5.2900064786E-002 -6.4131442287E+001  +3.0638926548E+000 -1.2454016343E+002 
5014807.259 +3.7746124398E-001 +1.2944260953E+002  +8.2560978338E-002 +1.4623273913E+001  +7.0546431256E-002 +1.6370524324E+002  +8.5643411561E+000 +1.7971436728E+002 
5139952.441 +4.0700909126E-001 +1.1109882361E+002  +6.6477094472E-002 +1.0830223385E+002  +1.1913464557E-001 +4.2708393885E+001  +5.9878982362E+000 +4.3222206763E+001 
5265097.622 +4.0949734981E-001 +1.3384018140E+002  +8.2430659705E-003 -1.5709641273E+002  +1.1765502951E-002 +1.6194078456E+002  +1.4544761244E+000 +1.1150900201E+002 
5390242.804 +3.5021765257E-001 +1.2897688818E+002  +2.0735181118E-002 -1.0386460636E+002  +3.2288645381E-002 +4.9328122440E+001  +7.8567885103E+000 +7.7838248675E+001 
5515387.985 +5.0065137026E-001 +1.3449990222E+002  +1.6051842878E-002 -1.5601799725E+002  +1.3192453532E-002 +1.5713141633E+002  +2.9021563150E+000 +1.3730794851E+002 
5640533.166 +5.1912738907E-001 +1.2518765635E+002  +3.1001620896E-002 -1.6137128272E+002  +3.4753614244E-002 +1.3631543924E+002  +3.9212207080E+000 +7.1024689882E+001 
5765678.348 +5.1170645038E-001 +1.2729206978E+002  +2.8194267653E-002 +1.2227131877E+002  +1.0237045273E-002 -1.7589789399E+002  +1.6785798451E+000 +5.0584530391E+001 
5890823.529 +5.4749945945E-001 +1.2709877968E+002  +1.1108030987E-002 +1.2072807897E+002  +2.4792466542E-002 +4.9538752048E+001  +1.9492035150E+000 +9.1371049166E+001 
6015968.711 +6.3615347928E-001 +1.1615175722E+002  +4.0057020801E-002 +1.0643478420E+002  +4.0578588034E-002 +3.3845207454E+001  +1.8151587703E+000 +5.0077828688E+001 
6141113.892 +7.1324372711E-001 +1.0611211382E+002  +2.1748912296E-002 -6.6820353889E+000  +1.0247440845E-002 +1.1086385314E+002  +2.1974977691E+000 +3.0909992954E+001 
6266259.074 +8.7624833325E-001 +1.0479867167E+002  +1.1304099111E-002 +1.2860124489E+002  +1.3679979273E-002 +3.0410268719E+001  +1.4521562255E+000 +1.0878217549E+001 
6391404.255 +1.0179727741E+000 +9.6659517090E+001  +1.4882679650E-002 +1.1317572116E+002  +1.1482018961E-002 +7.3257467767E+001  +1.6455133200E+000 +2.6775828057E+001 
6516549.437 +1.2324976541E+000 +7.6809576108E+001  +2.3650761461E-002 +1.5539729114E+002  +2.7236247925E-002 +9.4542026765E+001  +1.8303305602E+000 +2.7345402185E+000 
6641694.618 +2.0703573555E+000 +6.7646623736E+001  +5.4114887415E-002 +1.2323583396E+002  +5.4008510387E-002 +2.2143007150E+001  +1.4672703758E+000 +4.7133755526E+000 
6766839.800 +1.2200634060E+000 +6.5512392386E+001  +1.1589440404E-002 +3.0267313116E+001  +1.7160927653E-002 +3.7708566226E+001  +1.1932955390E+000 -1.1189974036E+001 
6891984.981 +1.8979699644E+000 +2.7914537435E+001  +1.7350827590E-002 +1.7646301825E+002  +2.7566910459E-002 -3.5880273659E+001  +1.2506314565E+000 -7.6447462121E+000 
7017130.163 +2.0099942764E+000 +1.2340836509E+001  +2.0043828414E-002 +1.4162693627E+001  +1.7478789179E-002 +1.5181158093E+001  +1.3224862645E+000 -1.0397159537E+001 
7142275.344 +1.6521849270E+000 +9.1038403144E+000  +1.6287662845E-002 +1.0857876811E+001  +1.4707136782E-002 +4.6673180937E+001  +1.2716293528E+000 -9.7034169554E+000 
7267420.526 +1.5900706679E+000 +3.0137868355E-001  +8.7711315494E-003 +1.4005983671E+001  +2.2661595127E-002 -1.1249377557E+001  +1.3857402284E+000 -8.5189937421E+000 
7392565.707 +1.2771980953E+000 +8.8087044782E-001  +1.9307638035E-002 +1.3011096457E+001  +4.9997481355E-003 -1.2592224282E+002  +1.2932390589E+000 -1.3389770358E+001 
7517710.889 +1.1166122809E+000 +3.5018731421E+000  +7.7434417040E-003 +8.8292075378E+001  +1.9151154230E-003 +1.3709913867E+002  +1.2503421853E+000 -8.6598244620E+000 
7642856.070 +1.0075086456E+000 +3.1461173524E+000  +1.0864386743E-002 +1.0616033810E+001  +4.3671365333E-003 -1.9049650275E+001  +1.1193847876E+000 -2.1031195858E+000 
7768001.252 +9.4278091542E-001 +1.1371366253E+001  +4.3570775749E-003 +4.5051151823E+001  +7.2505843646E-003 +1.5535829102E+002  +1.0021553114E+000 -9.5428663107E+000 
7893146.433 +9.6313999491E-001 +3.7360673502E+000  +7.6916529618E-003 +4.2984954442E+001  +1.5109671326E-002 +2.5943430592E+001  +1.0122201983E+000 -2.5665301005E+000 
8018291.615 +7.8038956580E-001 +1.1037991907E+001  +3.5921544197E-003 +1.0629145452E+002  +8.8469771244E-004 -5.3202599917E+001  +9.0875917422E-001 -3.1494569009E+000 
8143436.796 +7.9477034199E-001 +6.7478160050E+000  +2.6531393164E-003 +6.5429430872E+001  +1.1178277328E-002 +7.7539546473E+001  +7.6302958190E-001 -1.2408771323E+000 
8268581.977 +7.7618503911E-001 +7.0748896087E+000  +4.0027725172E-003 +2.1698350671E+001  +4.2283971376E-003 +6.2688884709E+001  +7.6500260300E-001 +8.7566582528E-001 
8393727.159 +6.7402083876E-001 +7.0153097730E+000  +7.7030330290E-003 +1.4722942529E+001  +7.1972474988E-003 +3.9313272690E+001  +6.6852959048E-001 -2.1000799710E-001 
8518872.340 +6.7924574300E-001 +6.3935771769E+000  +6.3557405044E-003 +4.7254731722E+001  +5.0952864994E-003 -2.9701106795E+000  +7.0793496312E-001 -1.2300141291E+000 
8644017.522 +7.2640293844E-001 +3.1262629420E+000  +3.3515814712E-003 +5.3341316082E+001  +7.1047651858E-003 +3.2170881468E+001  +6.7845105310E-001 -1.3768090794E-001 
8769162.703 +6.2060166688E-001 +5.9634252611E+000  +8.2917121006E-003 +2.3128437329E+001  +7.0312897961E-003 +5.6213300944E+001  +7.1434477741E-001 +3.8501538948E+000 
8894307.885 +5.7312153547E-001 +4.0676138774E+000  +5.6250314286E-003 +1.8447971870E+001  +4.5457398733E-003 +5.4345142017E+001  +6.2713007040E-001 +2.8933590581E+000 
9019453.066 +5.7648633116E-001 +3.0130773002E+000  +7.4526538253E-003 +5.1413526744E+001  +1.5996799149E-003 +3.0503926351E+001  +6.2048857147E-001 -3.5609480293E+000 
9144598.248 +5.8405265473E-001 +6.8424921320E+000  +2.6925884689E-003 +1.0648931384E+001  +2.4426232707E-003 +4.2240335537E+001  +5.7745984968E-001 -9.7532251676E-001 
9269743.429 +6.1329845516E-001 +2.6767414597E+000  +5.3880541677E-003 +3.5792290464E+001  +7.2983127801E-003 +5.4139791098E+001  +6.0495189937E-001 -3.0979903263E+000 
9394888.611 +5.7749689476E-001 +8.7242770073E+000  +6.4707431961E-003 +2.1800915632E+001  +6.4064030074E-003 +3.8637565564E+001  +6.2079752113E-001 -8.1621904803E+000 
9520033.792 +5.4234654065E-001 +6.5773580758E+000  +5.1199671933E-003 -1.8211445877E+001  +8.9504466211E-003 +4.8390246568E+001  +5.3835396288E-001 -5.6419814991E+000 
9645178.974 +5.9603379674E-001 +2.6248482982E+000  +4.5579120718E-003 +5.7705921229E+001  +4.1424152373E-003 +3.1988226053E+001  +5.8620853316E-001 -3.8726827054E+000 
9770324.155 +5.4120142576E-001 +3.4264035290E+000  +5.6986014364E-003 +2.2914622980E+001  +5.7820965098E-003 +1.9216443801E+001  +5.7163687544E-001 -8.4771022540E+000 
9895469.337 +5.3549817376E-001 +3.1190140742E+000  +6.2339180337E-003 +5.5123296486E+001  +5.2079111750E-003 +8.1064823160E+001  +5.7550756373E-001 -1.0736757945E+001 
10020614.518 +5.4249195678E-001 +3.0300936531E+000  +6.7211579391E-003 +1.2741422182E+001  +8.5499038533E-003 +6.9594027764E+001  +5.9655199292E-001 -4.7628092437E+000 
10145759.700 +5.6586635830E-001 +3.5807781443E+000  +3.8361159695E-003 +2.6843647560E+001  +5.7289355924E-003 +6.8631186416E+001  +5.7539451671E-001 -2.6548283108E+000 
10270904.881 +5.5860601359E-001 +3.5003427795E-002  +5.8302594997E-003 +4.9805404036E+001  +7.7154974189E-003 +5.8443020047E+001  +5.6211188766E-001 -8.6705561972E+000 
10396050.063 +5.6833207059E-001 +2.2254916176E+000  +2.9994600588E-003 +1.8569886548E+001  +5.7157768086E-003 +5.9618535580E+001  +5.8308191849E-001 -4.4915668326E+000 
10521195.244 +5.5291817075E-001 +9.2231530911E+000  +7.9498754436E-003 +3.2496899569E+001  +6.6983565153E-003 +5.4871626160E+001  +5.7151565035E-001 +3.9817596481E+000 
10646340.426 +5.7503645011E-001 +3.9899308686E+000  +3.6422247555E-003 +6.3129503345E+001  +8.2811524458E-003 +5.1577764601E+001  +6.2572658449E-001 +1.3712478890E-001 
10771485.607 +5.8988523901E-001 +2.0707944278E+000  +4.7839779608E-003 +4.4383899344E+001  +4.1640914648E-003 +6.5032012626E+001  +5.9292918269E-001 +4.5811130995E-001 
10896630.788 +5.6116385860E-001 +7.3916412823E+000  +6.1810694965E-003 +5.3679341521E+001  +5.4555700442E-003 +9.2012090889E+001  +6.1596469086E-001 -2.1413782319E+000 
11021775.970 +5.9026720154E-001 +8.0046808744E+000  +6.7153689237E-003 +5.0403757609E+001  +6.1527088460E-003 +7.5306056764E+001  +6.2420838144E-001 -1.8513994894E+000 
11146921.151 +6.1000769243E-001 +7.7008273649E+000  +6.1312468592E-003 +4.3684896434E+001  +4.8646595947E-003 +7.0029651982E+001  +6.0181700813E-001 -1.0180308676E-001 
11272066.333 +6.0713033402E-001 +9.2078530927E+000  +6.0748284783E-003 +3.0147203294E+001  +6.8509071762E-003 +5.3923730653E+001  +6.1537434215E-001 +1.7877856695E-001 
11397211.514 +6.1246440903E-001 +5.9490920761E+000  +6.1875659414E-003 +4.3032368743E+001  +5.4861042953E-003 +7.6797170199E+001  +6.3341874042E-001 +2.3867457737E+000 
11522356.696 +6.1229258402E-001 +6.4012749185E+000  +6.8617520559E-003 +7.2790921233E+001  +8.1452140182E-003 +5.6555320942E+001  +6.4333612987E-001 -9.4859057961E-001 
11647501.877 +6.7328752967E-001 +9.9241300571E+000  +5.4414293164E-003 +5.6752781986E+001  +8.0621377272E-003 +5.4797467851E+001  +6.1627061665E-001 +2.6100778525E+000 
11772647.059 +6.2650149939E-001 +6.7882862423E+000  +5.4227624783E-003 +5.1899334260E+001  +6.9637425364E-003 +7.1031463709E+001  +6.5731501651E-001 +9.6897725851E-001 
11897792.240 +6.2909132591E-001 +3.6873311857E+000  +7.3748078905E-003 +4.0483406424E+001  +7.3518114992E-003 +6.5872018111E+001  +6.8130139308E-001 -5.7351922854E-001 
12022937.422 +6.8198878877E-001 +4.4491484140E+000  +5.6454602095E-003 +5.5291103126E+001  +7.0775261425E-003 +6.0362648981E+001  +6.4361734450E-001 +9.9713981520E-001 
12148082.603 +6.6954048581E-001 +4.5204761695E+000  +7.2574638038E-003 +6.6756373541E+001  +6.8326995180E-003 +7.1749523596E+001  +7.0755893872E-001 -3.4973423302E-001 
12273227.785 +7.2378352080E-001 +3.8359642533E+000  +7.5729752922E-003 +4.1646851360E+001  +7.3534061776E-003 +6.9664181324E+001  +7.1103509643E-001 +1.3115782175E+000 
12398372.966 +7.1102428805E-001 +4.2188739077E+000  +7.5714447184E-003 +5.2582974098E+001  +6.9660342803E-003 +5.4447690383E+001  +7.1922118445E-001 -3.1569386059E-001 
12523518.148 +7.1349485110E-001 +3.0486388963E+000  +6.4747269965E-003 +4.8883100136E+001  +7.4851493308E-003 +6.2256492780E+001  +7.4623446161E-001 -1.9820546629E-002 
12648663.329 +7.2416608078E-001 +2.5267915999E+000  +7.2855279927E-003 +5.6627925514E+001  +8.1961428432E-003 +6.2747062102E+001  +7.6098505924E-001 -8.4508344137E-001 
12773808.511 +7.3982498468E-001 +2.1682341824E+000  +7.3895184858E-003 +5.2752556736E+001  +7.7541624003E-003 +4.7043614336E+001  +7.5111350705E-001 -5.0193354631E-001 
12898953.692 +7.6783965182E-001 +2.9990708664E+000  +7.6362795966E-003 +5.0536876704E+001  +8.7737573441E-003 +6.1170468317E+001  +7.9008614774E-001 -1.4396124921E+000 
13024098.874 +7.7979422122E-001 -2.5353450207E-001  +6.5812918349E-003 +6.0124736157E+001  +7.6830932820E-003 +5.8857562521E+001  +7.7024139735E-001 -1.9930326425E+000 
13149244.055 +8.0512220870E-001 +9.7162605427E-001  +7.5170401607E-003 +6.3729846343E+001  +8.8827413037E-003 +6.8502580751E+001  +8.1040514032E-001 -2.9174416166E+000 
13274389.237 +8.2168070808E-001 -7.6343281052E-001  +7.2489260821E-003 +5.6751819468E+001  +8.5100169110E-003 +5.5462562267E+001  +8.4176314212E-001 -8.9398899931E-001 
13399534.418 +8.2748423150E-001 +2.8258641758E-002  +7.8701295756E-003 +6.7673062038E+001  +6.0464591436E-003 +5.3570712438E+001  +8.5093953153E-001 -2.0599944962E+000 
13524679.599 +8.3913085075E-001 -1.2429441482E+000  +6.6389927560E-003 +5.3868012768E+001  +8.8529129842E-003 +6.3085920801E+001  +8.8328590741E-001 -3.4041912994E+000 
13649824.781 +8.5250013470E-001 -2.4423036946E+000  +8.9468476483E-003 +5.5416267082E+001  +7.9783964776E-003 +6.2574217918E+001  +8.9752124401E-001 -2.1367276087E+000 
13774969.962 +8.8799478936E-001 -3.1363114587E+000  +7.8647725680E-003 +6.6799240622E+001  +7.6812322502E-003 +5.7161927883E+001  +9.1613462500E-001 -3.7564768786E+000 
13900115.144 +9.1650636091E-001 -3.8437510679E+000  +8.2275798016E-003 +6.2763770370E+001  +8.9809986748E-003 +6.7425864711E+001  +9.0625895438E-001 -4.5293858220E+000 
14025260.325 +9.0886030983E-001 -4.6207373809E+000  +8.7239147472E-003 +5.5270532584E+001  +8.3275057636E-003 +5.9357745233E+001  +9.4691033902E-001 -5.1809324002E+000 
14150405.507 +9.5757638132E-001 -3.4051557855E+000  +7.5177790200E-003 +5.7804950809E+001  +8.8636526136E-003 +5.7763209548E+001  +9.6870784721E-001 -4.0981669387E+000 
14275550.688 +9.5533198919E-001 -4.8935604525E+000  +8.5052390963E-003 +5.2224450082E+001  +9.1882625031E-003 +5.6894464894E+001  +9.6328228643E-001 -4.7162897620E+000 
14400695.870 +9.7784074343E-001 -6.0742385349E+000  +9.3122493121E-003 +5.0414047482E+001  +8.1230056502E-003 +6.0213574654E+001  +1.0062274759E+000 -3.9783753903E+000 
