!  2-Port S-parameters saved by WinCal
! VAR MeasName=S-Parameters (CALIBRATED_DATA) read from VNA (P5004A)
! VAR MeasDate=28/08/2024 16:43:26
! VAR NAME=S2_r8c9_SET3_9k-100M_1
! VAR FILENAME=S2_r8c9_SET3_9k-100M_1.S2P
! VAR DATE=28/08/2024 16:43:26
! VAR PHYS_PORTS=1,2
! VAR ObjTypeName=DATASET
! VAR IndexType=Frequency
!
# Hz S MA R 50
9000.000 +9.3226510914E-002 -1.7552656533E+002  +3.2050579582E-003 +1.4754835985E+002  +5.5748032717E-003 -8.6878113778E+001  +2.2751262388E-001 -1.4787376895E+002 
134145.181 +1.1115773408E-001 +1.6981913576E+002  +1.8287511545E-004 +1.5604935977E+001  +3.9212827200E-004 +8.4727145078E+001  +2.4218621161E-001 -1.7092428021E+002 
259290.363 +1.1204221242E-001 +1.6971730501E+002  +4.9310110276E-004 -1.1567328776E+002  +5.1418060713E-004 +1.2638116410E+002  +2.4039157475E-001 -1.6879012412E+002 
384435.544 +1.1444939926E-001 +1.7043649081E+002  +1.1734359081E-003 -6.3727441270E+001  +1.0630032054E-003 +5.1976014014E+001  +2.3921971426E-001 -1.6901262481E+002 
509580.726 +1.1477668061E-001 +1.7003276469E+002  +1.2185797056E-003 -4.7832932120E+001  +2.9007464898E-003 +8.4663066615E+000  +2.6104477607E-001 -1.6117783961E+002 
634725.907 +1.1805013616E-001 +1.7162346494E+002  +1.0194535518E-003 +1.6723355502E+002  +1.9272322728E-003 +4.3477747160E+001  +2.4325808787E-001 -1.6397947572E+002 
759871.089 +1.2004952562E-001 +1.7049720896E+002  +1.0200446921E-003 -8.0941169125E+001  +6.2883153180E-004 +1.2726489389E+001  +2.5163607095E-001 -1.6593630881E+002 
885016.270 +1.2050415191E-001 +1.6955828663E+002  +3.7293629287E-004 -9.5257218492E+001  +4.3005333072E-004 +1.1172114179E+002  +2.4862155464E-001 -1.6716773341E+002 
1010161.452 +1.1192719422E-001 +1.6917556337E+002  +1.6879465096E-003 -5.0798440340E+001  +1.6963566118E-003 +1.2885184807E+002  +2.1037741921E-001 -1.7181362614E+002 
1135306.633 +1.1546126301E-001 +1.6950173357E+002  +1.9828132769E-003 -5.3040651903E+001  +2.6184489017E-003 +1.0623499063E+002  +2.0966610500E-001 -1.6025120572E+002 
1260451.815 +1.2316174584E-001 +1.7095226834E+002  +9.4421732079E-004 -6.5208332345E+001  +2.5788024226E-003 +1.0921359951E+002  +2.0985644554E-001 -1.5916123252E+002 
1385596.996 +1.2905931878E-001 +1.7215164383E+002  +7.7885613129E-004 -1.1938344003E+002  +7.2646211141E-004 +1.4923178340E+002  +2.6867496366E-001 -1.5841864006E+002 
1510742.178 +1.2774163033E-001 +1.7169335771E+002  +5.4460409070E-004 -1.4290417963E+002  +4.0635864538E-004 -1.0155812346E+002  +2.5954827604E-001 -1.5963788266E+002 
1635887.359 +1.2900618044E-001 +1.7063547056E+002  +2.4613686387E-004 -4.5628998720E+000  +3.7827152832E-004 -1.6574662788E+002  +2.4912461495E-001 -1.6125937528E+002 
1761032.541 +1.2973364718E-001 +1.6989211990E+002  +1.7347060612E-003 +1.0374577265E+001  +1.0401996288E-003 -1.4242235963E+002  +2.3466446163E-001 -1.6007838812E+002 
1886177.722 +1.2915534949E-001 +1.6808324276E+002  +3.0695065817E-003 +6.7390822979E+001  +1.6138040309E-003 -8.8689476338E+001  +2.2341083748E-001 -1.5626677752E+002 
2011322.904 +1.2717939419E-001 +1.6980214889E+002  +3.2413584322E-003 +2.8269058249E+001  +6.7326597056E-004 -1.3974487179E+002  +1.9398151972E-001 -1.5616337337E+002 
2136468.085 +1.2621364164E-001 +1.6740416270E+002  +4.1681704937E-003 +7.5741383473E+001  +7.0811199135E-003 -9.4655122558E+000  +1.8141757218E-001 +1.7136221614E+002 
2261613.267 +1.3006539803E-001 +1.6478523218E+002  +3.7973960162E-003 +6.7235228665E+001  +7.7984297869E-003 -5.4958782767E+001  +2.0581307893E-001 -1.7165779606E+002 
2386758.448 +1.3304566309E-001 +1.6589546226E+002  +6.7190277814E-003 +1.0665313264E+002  +6.3642967923E-003 -5.0810783952E+001  +1.8187095176E-001 +1.7657132439E+002 
2511903.630 +1.3978435164E-001 +1.6522639815E+002  +5.7997624432E-003 +7.1708387383E+001  +5.8118559530E-003 -5.1589604525E+001  +2.4095777470E-001 +1.7970971800E+002 
2637048.811 +1.2607015494E-001 +1.4427301849E+002  +3.4740059428E-002 +8.2454990288E+001  +3.3381061127E-002 -2.0830128591E+001  +6.3798849360E-002 +7.2059463931E+001 
2762193.992 +1.2650834816E-001 +1.6767179485E+002  +1.6384084447E-002 -1.5229947675E+001  +2.9645478042E-002 -1.1321079430E+002  +1.6156943361E-001 -8.4507430449E+001 
2887339.174 +1.1446684831E-001 +1.7330730086E+002  +2.1286602559E-002 +1.3341901769E+001  +2.3608885273E-002 -6.7539762556E+001  +1.1810070330E-001 +1.7383218692E+002 
3012484.355 +1.3707612923E-001 +1.7010215001E+002  +1.0585248813E-002 -1.2181508190E+001  +1.7905393527E-002 -1.0925021943E+002  +1.7179767024E-001 -1.1241858507E+002 
3137629.537 +1.1342910674E-001 +1.6884154967E+002  +3.2510621611E-002 +3.6595039805E+000  +4.0976046906E-002 -9.7689271391E+001  +2.0296051532E-001 -7.4577792956E+001 
3262774.718 +1.3330105777E-001 +1.6910932091E+002  +4.6302587313E-002 +3.7779929393E+001  +5.0320571083E-002 -5.5508427987E+001  +4.1424333319E-001 +4.4783829518E+001 
3387919.900 +1.4314108747E-001 +1.5412387653E+002  +1.5654829050E-002 +4.3405141434E+001  +2.6639828601E-002 -3.7016905499E+001  +1.1710754205E-001 +1.5539050315E+002 
3513065.081 +1.4624662369E-001 +1.6119531074E+002  +2.3533353839E-002 +5.6871777793E+001  +2.5891803295E-002 -5.1185990466E+001  +1.7802489928E-001 +1.0385409195E+002 
3638210.263 +1.5833920817E-001 +1.5454594082E+002  +4.1226840064E-002 +1.2911781998E+002  +2.3365550775E-002 +2.7860877351E+001  +6.0474220028E-001 +1.4916889023E+002 
3763355.444 +1.7591035618E-001 +1.4365084293E+002  +3.2218289094E-002 +6.9761775380E+001  +2.4961899910E-002 -1.5183797410E+001  +6.7638895260E-002 +1.5997392349E+002 
3888500.626 +1.4381504660E-001 +1.5824342322E+002  +4.9962247621E-002 +4.7099016538E+001  +3.7564749762E-002 -2.5576692224E+001  +2.6533832190E-001 +7.8903005764E+001 
4013645.807 +1.7552245024E-001 +1.5034990035E+002  +5.5706690231E-002 +7.2216747286E+001  +4.9123254147E-002 -4.2498184900E+000  +3.9786535065E-001 +8.3916962876E+001 
4138790.989 +1.8914268065E-001 +1.4936074839E+002  +2.2751090514E-002 +8.7484849158E+001  +2.1695473274E-002 +4.7671742560E+000  +2.9435353197E-001 +1.4011158555E+002 
4263936.170 +1.8973620348E-001 +1.4938350075E+002  +4.5997982074E-002 +6.3728515533E+001  +4.4747027276E-002 +9.9865346298E+000  +3.1441878647E-001 +1.0268921796E+002 
4389081.352 +2.0945945245E-001 +1.5117336671E+002  +3.3882822117E-002 +1.2252520516E+002  +3.1259756807E-002 +5.8906008007E+001  +8.3133229179E-001 +1.4622656977E+002 
4514226.533 +2.2916534580E-001 +1.4216971185E+002  +6.8569267836E-002 +6.7793316869E+001  +6.7912251891E-002 +1.9247902618E+001  +6.1609365236E-001 +7.6848443995E+001 
4639371.715 +2.5293537704E-001 +1.2802835127E+002  +5.4361679084E-002 +1.1844817788E+002  +6.9474636807E-002 +4.6450426507E+001  +5.9366462443E-001 +1.1879565640E+002 
4764516.896 +3.2492116088E-001 +1.1984636726E+002  +3.7338752405E-001 +2.3515707410E+001  +4.1226489813E-001 -3.1848792033E+001  +3.7620602643E+000 -2.2282786152E+001 
4889662.078 +3.8235170391E-001 +1.4784160951E+002  +1.3155596282E+000 -1.2528066982E+002  +1.0423575803E+000 -1.6651348886E+002  +1.4464536258E+001 -1.7977925048E+002 
5014807.259 +3.6045358733E-001 +1.3183264454E+002  +1.7201615719E-001 +6.8983718147E+001  +1.2946999159E-001 +1.2280625711E+001  +1.6442438159E+000 +1.1838441805E+001 
5139952.441 +3.6463585263E-001 +1.2828507318E+002  +1.5805613750E-001 +1.2103225630E+002  +1.6301998609E-001 +9.4365523182E+001  +2.0196841683E+000 +1.0834305492E+002 
5265097.622 +3.6171202981E-001 +1.3713328607E+002  +1.2182882715E-001 +1.1546603097E+002  +8.6274378146E-002 +7.3498379197E+001  +1.7399461245E+000 +1.0332479071E+002 
5390242.804 +3.7293442441E-001 +1.2757292303E+002  +1.1284793125E-001 +1.2634700440E+002  +1.1051366586E-001 +7.0278743345E+001  +1.4316305984E+000 +1.0839487672E+002 
5515387.985 +4.5771335722E-001 +1.2788352280E+002  +1.2153143507E-001 +1.1114214096E+002  +1.2522464081E-001 +7.3876811946E+001  +1.3503408321E+000 +1.0579702720E+002 
5640533.166 +4.8082232124E-001 +1.2687567349E+002  +1.7884158043E-001 +9.0540132378E+001  +1.5977510950E-001 +5.3890958748E+001  +1.8305581033E+000 +5.5341466186E+001 
5765678.348 +4.7122910140E-001 +1.2991465715E+002  +1.0409634719E-001 +7.3233454949E+001  +1.0078029822E-001 +3.7550834689E+001  +9.9700327302E-001 +4.9249745589E+001 
5890823.529 +5.9857984730E-001 +1.2457287059E+002  +1.0467243625E-001 +1.0131200142E+002  +1.3162439115E-001 +7.4195147358E+001  +1.3123610841E+000 +9.1251400292E+001 
6015968.711 +6.1058889983E-001 +1.2302318195E+002  +1.7938447010E-001 +8.2862605430E+001  +2.0910723552E-001 +5.6383998049E+001  +2.9267942269E+000 +6.2429842003E+001 
6141113.892 +6.9446369462E-001 +9.3748974661E+001  +2.0813988279E-001 +5.8250363927E+001  +1.9647818165E-001 +4.8099987096E+001  +1.6426741816E+000 +6.0106162312E+001 
6266259.074 +6.6470581122E-001 +1.1277849408E+002  +1.3999810385E-001 +6.4746870116E+001  +1.2431664521E-001 +5.2133375625E+001  +1.5234763461E+000 +6.0592601313E+001 
6391404.255 +9.1308609215E-001 +1.0354891075E+002  +1.2950165898E-001 +4.5750671723E+001  +1.4141569446E-001 +3.4012781067E+001  +9.6433577305E-001 +1.0678315317E+001 
6516549.437 +8.6688688178E-001 +8.6057673028E+001  +1.6561809938E-001 +3.1859492619E+001  +1.4741867213E-001 +2.6717938399E+001  +1.0842415133E+000 +2.0775212389E+001 
6641694.618 +1.5868905029E+000 +7.9954441533E+001  +2.0391528189E-001 +4.0109297203E+001  +2.5862617266E-001 +2.7304586232E+001  +1.5231101415E+000 +3.3400855348E+000 
6766839.800 +1.2950004505E+000 +5.8363001991E+001  +1.9631420178E-001 +1.9344885863E+001  +1.8906254060E-001 +1.2027185978E+001  +1.3531274389E+000 +5.0939981043E+000 
6891984.981 +1.2784717701E+000 +2.9458707280E+001  +1.9596989862E-001 +6.4660333818E+000  +1.9838929129E-001 -2.6847108888E+000  +1.1553436551E+000 +1.1753204786E+000 
7017130.163 +1.6743216909E+000 +1.0059512593E+001  +2.1799872065E-001 +2.9469294977E+000  +1.8397479391E-001 -9.5901267275E-001  +1.2479395766E+000 -3.7247350112E+000 
7142275.344 +1.3978028960E+000 +2.0673134096E+001  +1.4624023076E-001 -2.9463272445E-001  +1.4647002075E-001 +3.4717017401E+000  +1.0736025125E+000 +4.4670428133E+000 
7267420.526 +1.2568582621E+000 -3.3568674635E+000  +1.3117806063E-001 -2.7981082396E+000  +1.2629773522E-001 -2.2179310025E+000  +1.2771805974E+000 -1.0711772062E+001 
7392565.707 +1.1434883289E+000 +2.2079267936E+000  +1.0322124835E-001 +8.9772942576E+000  +1.0686286109E-001 +2.9119220996E+000  +1.2928120351E+000 -1.3063739341E+001 
7517710.889 +1.1511935360E+000 +4.7028997611E-001  +9.5895415956E-002 +1.0036247835E+001  +1.0298757080E-001 +1.1545522541E+001  +1.2050944845E+000 -4.0615266561E+000 
7642856.070 +9.8418344586E-001 +1.0449995303E+000  +9.7659238388E-002 +4.2086056660E+000  +9.0467546373E-002 +6.4292875454E+000  +9.6282979095E-001 -1.1624776192E+001 
7768001.252 +8.1421725810E-001 +1.1202062947E+001  +8.7080893634E-002 +3.9985803989E+000  +8.7402813836E-002 +1.1085332161E+001  +8.7935631743E-001 -6.6997150831E+000 
7893146.433 +8.3495982242E-001 +7.4576825171E+000  +7.7367404710E-002 +3.8725366620E+000  +8.4446728399E-002 +9.8294335258E+000  +7.9271267364E-001 -5.6413253321E+000 
8018291.615 +7.2370025628E-001 +3.6105583307E+000  +7.8735073282E-002 -1.5431611022E+000  +7.8612390679E-002 +1.4856448808E-001  +6.5977934330E-001 +5.0857770967E+000 
8143436.796 +7.3851531579E-001 +7.1540034391E+000  +7.9966121473E-002 +9.8721595201E-001  +7.2734106710E-002 +1.1242160037E+001  +6.8331684515E-001 -3.8668312140E+000 
8268581.977 +6.1572288522E-001 +8.5762272124E+000  +7.4780187647E-002 -2.5875967517E+000  +7.5507913153E-002 +4.3309007402E+000  +6.4620227980E-001 +3.9911973602E+000 
8393727.159 +5.9022129863E-001 +7.5245150327E+000  +7.6064462625E-002 +3.7605119447E+000  +6.7668953430E-002 +8.1441744725E+000  +6.7917089677E-001 -5.2787403282E-002 
8518872.340 +5.5055260018E-001 +1.2373071631E+001  +7.0313296541E-002 +4.9295084698E+000  +7.2035551793E-002 +4.9003318100E+000  +6.5428219841E-001 -7.9579089365E-001 
8644017.522 +6.2512502246E-001 +1.3456008793E+001  +7.0560511046E-002 +1.4865779320E+000  +7.5726957177E-002 +1.5269469558E+001  +5.3198687914E-001 +3.0002481943E+000 
8769162.703 +4.9974560967E-001 +9.4279491980E+000  +6.9477166695E-002 -4.3388026427E+000  +7.2880982147E-002 +1.2230255825E+001  +5.4965781807E-001 +5.9848446016E+000 
8894307.885 +5.7505979642E-001 +1.4732725902E+001  +7.4770738977E-002 -3.7938969858E+000  +6.8534890182E-002 +1.0426804447E+001  +5.7699790267E-001 -3.0328169940E+000 
9019453.066 +4.7155115683E-001 +7.3853402967E+000  +6.9099147708E-002 -2.4292464084E+000  +7.0043425331E-002 +9.6382670367E+000  +5.5953582224E-001 -4.1424499820E-001 
9144598.248 +4.4697019735E-001 +8.1184593105E+000  +6.7140647298E-002 +9.4902609718E-001  +6.9284641940E-002 +1.3969722618E+001  +5.6585756578E-001 +1.9765886903E+000 
9269743.429 +4.4629519183E-001 +8.9043136432E+000  +7.0787169968E-002 -3.2649174000E+000  +6.9632670554E-002 +1.2101939630E+001  +5.1324801464E-001 +4.7367862545E+000 
9394888.611 +4.3312117308E-001 +7.1427395749E+000  +6.8465269954E-002 -2.3208908395E+000  +6.9883600586E-002 +1.3498757030E+001  +5.3905335700E-001 -3.6608783383E-001 
9520033.792 +4.5982457595E-001 +6.0264505479E-001  +6.9669314985E-002 +4.1405480617E-001  +6.7831179756E-002 +1.5793177741E+001  +5.3608502620E-001 -2.0749632524E+000 
9645178.974 +4.3850895393E-001 +6.3858587532E-001  +7.1657888188E-002 -4.7964469742E+000  +7.0262884210E-002 +1.2498949881E+001  +5.2229906903E-001 -2.6675438936E+000 
9770324.155 +5.0662579565E-001 +2.2986738201E-001  +7.0515395284E-002 +3.1401876381E-001  +7.1233118965E-002 +1.4517199716E+001  +5.3608982509E-001 -4.6949538685E+000 
9895469.337 +4.6197789014E-001 +6.1977894148E+000  +7.0193734954E-002 -2.4991911590E-001  +6.9428648465E-002 +1.4589570314E+001  +4.7469560434E-001 -3.8669773593E+000 
10020614.518 +4.7499235659E-001 +8.1391662713E+000  +7.3274395628E-002 -6.8988078697E-001  +7.1376290680E-002 +1.5456784430E+001  +4.8250823495E-001 -6.0246527051E+000 
10145759.700 +4.8192513655E-001 +5.7732419231E+000  +7.2163458696E-002 -2.4567590722E+000  +7.3482669882E-002 +1.6140516598E+001  +4.6915560272E-001 -1.6910174053E+000 
10270904.881 +5.2186661357E-001 +5.3623062662E+000  +7.3608595663E-002 +1.1663792305E-001  +7.3689192296E-002 +1.5828250604E+001  +5.0726422086E-001 -1.7212360629E-001 
10396050.063 +4.5880229927E-001 +6.1352391016E+000  +7.1347509372E-002 +8.4386444189E-001  +7.1158854509E-002 +1.3850652179E+001  +5.2449654686E-001 -1.0017286347E+000 
10521195.244 +4.6685096141E-001 +6.8476555715E+000  +7.3267531654E-002 +7.5406143864E-001  +6.9588807083E-002 +1.4828390271E+001  +5.2681273238E-001 -8.6876263252E-001 
10646340.426 +4.5720418704E-001 +6.5733957731E+000  +7.1877491212E-002 -1.2663929956E-001  +7.2259373564E-002 +1.4376370205E+001  +4.9874119681E-001 +2.9107429841E+000 
10771485.607 +5.1841443386E-001 +8.0307539253E+000  +7.1359587284E-002 +2.0518132571E+000  +7.3260885475E-002 +1.5127334032E+001  +4.8357951670E-001 +2.0228795689E+000 
10896630.788 +4.9439154331E-001 +6.3954517331E+000  +7.6539261858E-002 +2.5290205466E+000  +7.4898519210E-002 +1.6726099508E+001  +5.7182920818E-001 +3.8276014079E-002 
11021775.970 +4.9441887576E-001 +8.1905942999E+000  +7.4177491877E-002 +1.8409010854E+000  +7.3027018030E-002 +1.5492683312E+001  +5.4215776574E-001 +3.2735522405E+000 
11146921.151 +5.1588041741E-001 +4.2402917839E+000  +7.5617053528E-002 +1.7511949811E+000  +7.5972685219E-002 +1.2172869468E+001  +5.3997265952E-001 +2.9947473390E+000 
11272066.333 +5.4474481315E-001 +9.9777677319E+000  +7.5288583357E-002 +3.6010446022E+000  +7.3096616444E-002 +1.6006707336E+001  +5.5806935999E-001 +3.3059343653E+000 
11397211.514 +5.3422744478E-001 +5.3135711427E+000  +7.5682418257E-002 +4.6069804385E+000  +7.2492389532E-002 +1.6140175234E+001  +5.7351282426E-001 +2.6327949189E+000 
11522356.696 +5.5690910264E-001 +2.9454328019E+000  +7.8365825499E-002 +3.5663572569E+000  +7.8551764416E-002 +1.3386729418E+001  +5.6172775454E-001 +2.2453701472E+000 
11647501.877 +5.7214807544E-001 +5.9019688890E+000  +7.9468674281E-002 +2.9727157583E+000  +7.6956424263E-002 +1.5060814718E+001  +5.8748742209E-001 +1.9918421463E+000 
11772647.059 +5.7024967317E-001 +8.5520472730E+000  +7.7621882543E-002 +5.4938708419E+000  +8.0192454818E-002 +1.4795643070E+001  +5.8175858286E-001 +1.4581068204E+000 
11897792.240 +5.7036979141E-001 +3.7473223537E+000  +8.0530123775E-002 +5.3960235276E+000  +7.8969957856E-002 +1.5209836802E+001  +5.9126644831E-001 +1.4084270186E+000 
12022937.422 +6.0730353389E-001 +4.1223590794E+000  +8.1312812137E-002 +4.6944620376E+000  +8.1556013355E-002 +1.2368160600E+001  +5.9046657159E-001 +1.6195306103E+000 
12148082.603 +6.0451157895E-001 +4.3803899646E+000  +8.3722331948E-002 +5.1269188949E+000  +8.0525717295E-002 +1.3094563803E+001  +5.9412191995E-001 +3.0572669028E+000 
12273227.785 +6.0877598638E-001 +7.0830035425E+000  +8.1646225901E-002 +5.6591102938E+000  +7.9735765134E-002 +1.3400899973E+001  +6.4181568680E-001 +1.5958354159E+000 
12398372.966 +6.1568119118E-001 +3.2557896745E+000  +8.3876508425E-002 +5.2132429673E+000  +8.2965288655E-002 +1.2484628895E+001  +6.2966049419E-001 +9.0957232098E-001 
12523518.148 +6.4424045700E-001 +3.3635489978E+000  +8.3951337833E-002 +4.1245477158E+000  +8.3044325636E-002 +1.3112588362E+001  +6.3775947148E-001 +1.4892928242E+000 
12648663.329 +6.5096342550E-001 +4.5317236760E+000  +8.3960791267E-002 +4.8950981553E+000  +8.6176223642E-002 +1.2601342791E+001  +6.4712659204E-001 +7.2100394959E-001 
12773808.511 +6.9089345088E-001 +3.6268183353E+000  +8.5708074220E-002 +5.9923417467E+000  +8.5497987430E-002 +1.3244757955E+001  +6.6442449483E-001 +1.1604478135E+000 
12898953.692 +6.9810091801E-001 +1.6932072787E+000  +8.6611521295E-002 +5.1945893268E+000  +8.5620381812E-002 +1.2297262968E+001  +7.0559175833E-001 +2.2752497830E-001 
13024098.874 +6.9330921905E-001 +1.3503944790E+000  +8.8174562883E-002 +6.2723600502E+000  +8.5139575877E-002 +1.1702113783E+001  +7.1939720433E-001 -1.7643928306E+000 
13149244.055 +7.0876057781E-001 -1.0291832557E+000  +8.8745877711E-002 +6.3979316774E+000  +8.8830578898E-002 +1.1107752167E+001  +7.3881643103E-001 +2.1191328217E-002 
13274389.237 +7.4146639209E-001 -5.0421569231E-002  +8.8795528241E-002 +6.7040084987E+000  +8.8548055405E-002 +1.0320283643E+001  +7.2775568698E-001 -1.3985839666E+000 
13399534.418 +7.4131458180E-001 -9.7042576680E-001  +8.8959348212E-002 +6.7043457243E+000  +8.9773299335E-002 +9.5449885652E+000  +7.6656041290E-001 -7.8453778017E-001 
13524679.599 +7.4514503548E-001 -2.7061253034E+000  +9.1778943203E-002 +5.4749481996E+000  +8.9611364213E-002 +8.5575844586E+000  +7.7883836776E-001 -6.2061076111E-001 
13649824.781 +7.7079665012E-001 -8.6182260143E-001  +9.1827887697E-002 +6.0663537358E+000  +9.1232093414E-002 +9.4853595348E+000  +8.0599156283E-001 -3.2155303070E+000 
13774969.962 +8.0390348303E-001 -3.3366971809E+000  +9.3504606914E-002 +5.4302676351E+000  +9.2563449290E-002 +8.9853668536E+000  +8.1758503706E-001 -4.3253182763E+000 
13900115.144 +8.1668928666E-001 -1.0226777930E+000  +9.2491141304E-002 +5.7452659312E+000  +9.1212882528E-002 +7.7954242742E+000  +8.1578840777E-001 -4.2388884281E+000 
14025260.325 +8.2794183105E-001 -3.3641428322E+000  +9.4207393395E-002 +5.5427361429E+000  +9.2840502059E-002 +6.9628906999E+000  +8.3811939016E-001 -3.8070521062E+000 
14150405.507 +8.5980659964E-001 -3.9793958386E+000  +9.5654382971E-002 +6.3974090814E+000  +9.1014770336E-002 +7.8223008037E+000  +8.6065095544E-001 -3.6728397319E+000 
14275550.688 +8.7538792121E-001 -6.3789782048E+000  +9.5136224665E-002 +6.2132301289E+000  +9.4576414795E-002 +6.2232288800E+000  +8.7045759981E-001 -4.2887492814E+000 
14400695.870 +8.6713039015E-001 -5.9348877909E+000  +9.5108176899E-002 +5.5521538144E+000  +9.4006653574E-002 +6.5336192567E+000  +8.9228346866E-001 -3.7088990336E+000 
