!  2-Port S-parameters saved by WinCal
! VAR MeasName=S-Parameters (CALIBRATED_DATA) read from VNA (P5004A)
! VAR MeasDate=28/08/2024 11:32:49
! VAR NAME=S2_r6c9_SET2_9k-100M_1
! VAR FILENAME=S2_r6c9_SET2_9k-100M_1.S2P
! VAR DATE=28/08/2024 11:32:50
! VAR PHYS_PORTS=1,2
! VAR ObjTypeName=DATASET
! VAR IndexType=Frequency
!
# Hz S MA R 50
9000.000 +8.7998506722E-002 -1.6439880581E+002  +6.1665023242E-003 -1.1937122573E+001  +5.7060078203E-003 -3.6429185255E+001  +2.4045178307E-001 -1.4332733666E+002 
134145.181 +1.1082133724E-001 +1.6966221401E+002  +3.2821415910E-004 -6.4942471669E+001  +1.2552045269E-004 +5.4885471646E+001  +2.4450923917E-001 -1.7116865193E+002 
259290.363 +1.1259207976E-001 +1.6987554522E+002  +2.0484341770E-004 +2.9455303509E+001  +7.0632087269E-004 -1.4842853507E+002  +2.4841937521E-001 -1.6929258849E+002 
384435.544 +1.1357055475E-001 +1.7004587142E+002  +4.0921581156E-004 -4.4382720426E+001  +5.6245064891E-004 -1.7442455636E+002  +2.4780234025E-001 -1.6863999616E+002 
509580.726 +1.1395110374E-001 +1.7029543391E+002  +4.4968300404E-004 +8.6949318947E+001  +4.8076947078E-004 +3.8157952992E+000  +2.5607680428E-001 -1.6382008292E+002 
634725.907 +1.1917827030E-001 +1.7186857033E+002  +6.0942738001E-004 -1.4201904252E+002  +1.5977408926E-003 -5.1383449993E+001  +2.5473088624E-001 -1.6562999125E+002 
759871.089 +1.2017765217E-001 +1.7118724910E+002  +4.6913924152E-004 -1.6504887358E+002  +3.7506334641E-004 +9.1286494331E+001  +2.4814131153E-001 -1.6667262483E+002 
885016.270 +1.2031863245E-001 +1.6943157672E+002  +2.8877874801E-004 +5.6537743129E+001  +7.4837939577E-004 -1.0300432789E+002  +2.4407453573E-001 -1.6676885134E+002 
1010161.452 +1.1861655778E-001 +1.7092134411E+002  +1.0353357508E-003 +1.6155134484E+002  +1.8737258694E-003 +4.4033168846E+001  +1.6870142283E-001 -1.6566944631E+002 
1135306.633 +1.1901588772E-001 +1.7216809492E+002  +1.2885716156E-003 -5.4383333072E+001  +5.8472308765E-003 -1.4031674339E+002  +1.7890249946E-001 -1.7953317115E+002 
1260451.815 +1.1484821698E-001 +1.7108216473E+002  +6.7749760906E-004 -9.4786516850E+000  +1.3328170349E-003 +1.6427592009E+002  +2.2549069678E-001 -1.6236851155E+002 
1385596.996 +1.2681593950E-001 +1.7157045932E+002  +3.5484442886E-004 +1.2203423321E+002  +4.5579152877E-004 -1.6747142602E+002  +2.6171824146E-001 -1.5837401319E+002 
1510742.178 +1.2786971700E-001 +1.7088245827E+002  +1.3610551487E-003 +4.2041017034E+001  +1.8527889258E-003 +6.3322550869E+001  +2.5429312380E-001 -1.5595716993E+002 
1635887.359 +1.3061268123E-001 +1.7128818926E+002  +3.0264836772E-004 +1.0494055840E+002  +4.1706141532E-004 -1.7888218167E+002  +2.5720544537E-001 -1.5496512587E+002 
1761032.541 +1.3243230666E-001 +1.7028658164E+002  +1.8865966671E-003 +1.6926343501E+002  +3.6126588159E-004 -1.4127237924E+002  +2.1136147490E-001 -1.5593325507E+002 
1886177.722 +1.2906197849E-001 +1.6951256296E+002  +1.1481286992E-003 -1.2522438592E+002  +1.4340462276E-003 +8.8274402376E+001  +2.1658097036E-001 -1.5833394971E+002 
2011322.904 +1.2586476400E-001 +1.6742911182E+002  +7.3869583717E-004 -7.3136175896E+001  +3.4803259106E-003 +1.1481928582E+002  +1.8583311426E-001 -1.7145565168E+002 
2136468.085 +1.2566405424E-001 +1.6619486420E+002  +2.6689309020E-003 -3.9647071749E+001  +2.3356242820E-003 +1.4609937493E+001  +2.0675865179E-001 -1.7726742199E+002 
2261613.267 +1.3070238692E-001 +1.6418590386E+002  +2.4001126035E-003 +1.6700972920E+002  +2.5223697380E-003 +7.8108422741E+001  +1.9634757057E-001 -1.5761643749E+002 
2386758.448 +1.3184193795E-001 +1.6578943415E+002  +2.2810196961E-003 +1.7309331627E+002  +3.9285742169E-004 +9.9963611318E+001  +2.3723411724E-001 -1.7979081189E+002 
2511903.630 +1.3975244241E-001 +1.6460732159E+002  +1.3999002499E-003 +8.4067794463E+001  +2.7392049404E-003 -7.8682514548E+001  +3.8888084144E-002 -1.5022755545E+002 
2637048.811 +1.3031751822E-001 +1.5335165865E+002  +8.5564275753E-003 -5.0514795304E+001  +1.0246210676E-002 +1.6420360715E+002  +1.2617550459E-001 -9.6643464151E+001 
2762193.992 +1.3100940806E-001 +1.6450303878E+002  +3.3222963504E-003 -5.1623751529E+001  +1.4133654017E-002 -6.2739413002E+001  +2.3618190077E-001 -1.3575253837E+001 
2887339.174 +1.3419268092E-001 +1.7590736599E+002  +1.0744019678E-002 -6.5254084771E+000  +4.8764517953E-002 -4.7501250745E+001  +1.4927806083E+000 -4.9021795399E+001 
3012484.355 +1.1190587100E-001 -1.7217203692E+002  +2.1963237671E-003 -8.2709427566E+001  +1.0762637632E-002 -9.7877600953E-001  +3.1396621045E-002 -1.5120701242E+001 
3137629.537 +1.2933963988E-001 +1.7779921984E+002  +1.4529009463E-002 +2.6023911241E+001  +3.4523748930E-003 +8.9432527140E+001  +2.0558364101E-001 -8.8971532866E+001 
3262774.718 +1.2202098399E-001 +1.7299877323E+002  +7.8801225459E-003 -1.3141558268E+001  +8.4363178403E-003 -2.8706759543E+001  +1.6554691906E-001 -1.0364383477E+002 
3387919.900 +1.2201080098E-001 +1.4653823974E+002  +6.9903438722E-003 -1.4696650820E+002  +1.2492813463E-002 +4.2062210413E+001  +6.7952393995E-002 -8.4947940719E+001 
3513065.081 +1.3105527134E-001 +1.5543390870E+002  +1.3118209060E-002 -1.9422856894E+001  +3.6048521045E-002 +2.1492644542E+001  +9.1813060924E-001 +8.6034542785E-001 
3638210.263 +1.6896179644E-001 +1.5153092143E+002  +1.1877409872E-002 -7.5826011614E+001  +1.7419160127E-002 +1.3957261571E+002  +6.5655215273E-001 +1.3851899579E+002 
3763355.444 +1.6734152730E-001 +1.5207074719E+002  +2.2428325232E-002 +1.1044731112E+002  +8.6367081502E-003 +1.0520574655E+002  +5.3197400421E-001 +8.3491198319E+001 
3888500.626 +1.6391765646E-001 +1.5043194374E+002  +1.7396554178E-002 -1.7004121228E+002  +1.8989792966E-002 +2.9045199240E+001  +6.6546951742E-001 +7.2095198209E+001 
4013645.807 +1.7258235391E-001 +1.5415707821E+002  +6.8072808119E-003 +9.2792747170E+001  +4.4245546393E-003 -1.3908242864E+002  +3.7796777759E-001 +1.2121233081E+002 
4138790.989 +1.8146184739E-001 +1.3950470529E+002  +2.1337124280E-003 +4.0274689227E+001  +5.9099593227E-003 +9.8024835137E+001  +3.1809638694E-001 +1.5462824019E+002 
4263936.170 +1.9109080563E-001 +1.3582252754E+002  +2.2228454731E-003 +1.4052506400E+001  +1.0740655566E-002 -2.9063951263E+001  +3.6244074173E-001 +1.2924018409E+002 
4389081.352 +2.0292503786E-001 +1.3667025175E+002  +9.3159169775E-003 -1.1697919970E+002  +1.0543313693E-002 +1.2194458432E+002  +1.2262061823E+000 +8.4557806618E+001 
4514226.533 +2.8324973956E-001 +1.3854596982E+002  +1.5366035434E-002 -1.5023856169E+002  +1.6997824861E-002 -1.5707964127E+002  +1.2043416470E+000 +1.2995200969E+002 
4639371.715 +2.9710029019E-001 +1.3282075528E+002  +2.1762001729E-002 -4.0431495357E+001  +3.2117983758E-002 -1.3822211850E+002  +1.3077602189E+000 +8.2283686783E+001 
4764516.896 +3.7008841925E-001 +1.2761231918E+002  +2.0635091398E-002 -3.1953966612E+001  +2.2472427831E-002 -4.8978471526E+001  +2.0026694370E+000 +6.3479695612E+000 
4889662.078 +3.8917891191E-001 +1.3094101174E+002  +5.4051389177E-002 -4.1929647782E+001  +1.6110313861E-002 -1.6013643710E+002  +3.3803029029E+000 -1.6500653207E+002 
5014807.259 +3.9032418680E-001 +1.3396199906E+002  +1.3440285958E-001 -7.1489911413E+001  +5.1469361605E-002 +5.5864241438E+001  +6.6882630067E+000 +5.4920715347E+001 
5139952.441 +2.7973567580E-001 +1.1988979955E+002  +2.0549636422E-001 +4.7892399954E+001  +3.2607203699E-001 -9.3783806761E+001  +1.7356009553E+001 +1.3295330720E+002 
5265097.622 +3.9565207277E-001 +1.2874798147E+002  +3.5842101189E-002 +4.0100371840E+001  +9.9227465030E-003 +9.0846913355E+001  +1.9892586189E+000 +9.5988953851E+001 
5390242.804 +3.7910830147E-001 +1.3216584004E+002  +3.8829118441E-002 +1.3093182580E+002  +2.6622356269E-002 +1.5329906673E+002  +3.1616740362E+000 +5.3083129480E+001 
5515387.985 +4.5120629677E-001 +1.3098350636E+002  +2.2321209142E-002 +1.3778027446E+002  +7.3651036547E-003 +1.2954660681E+002  +1.3582205186E+000 +5.1984245104E+001 
5640533.166 +4.8900353052E-001 +1.3551612642E+002  +2.8325236905E-002 -1.0882860292E+002  +2.5500036971E-002 +1.2843340170E+002  +2.2372833665E+000 +7.2104889819E+001 
5765678.348 +5.4322934390E-001 +1.2343372551E+002  +1.6101184309E-002 -1.3441937755E+002  +1.5766396854E-002 +1.5711624122E+002  +1.2090019945E+000 +7.1542022155E+001 
5890823.529 +5.3577726297E-001 +1.3029635725E+002  +2.0059192799E-002 +5.4568005736E+001  +8.3367144828E-003 +7.4725381236E+001  +1.8028635818E+000 +2.3784683866E+001 
6015968.711 +6.4015812394E-001 +1.1641206760E+002  +1.3720925195E-002 -3.0114655794E+001  +4.7794286482E-002 +1.4391710665E+002  +2.6773326736E+000 +4.1859813961E+001 
6141113.892 +7.6660860433E-001 +1.1590743056E+002  +9.3350071272E-003 -1.7785069006E+002  +2.0063287908E-002 +1.6503839253E+002  +1.7469899215E+000 +4.6034671066E+001 
6266259.074 +8.4055258407E-001 +1.0981526363E+002  +2.1436969005E-002 -1.2061653705E+001  +2.4872479864E-002 -1.7884162761E+002  +1.7352093877E+000 +4.6777780135E+001 
6391404.255 +1.3016295473E+000 +1.0591337833E+002  +1.7960274781E-002 +1.2862681508E+002  +2.9198740179E-002 +4.8472936754E+001  +1.9482481387E+000 +2.4759138955E+001 
6516549.437 +1.2185080988E+000 +8.6970747236E+001  +1.0560040421E-002 -1.0474835201E+002  +1.0058544300E-002 +4.7411370095E+001  +1.3158378753E+000 +1.6961038597E+001 
6641694.618 +1.4635131392E+000 +7.3898450847E+001  +2.0668985555E-002 +7.6260426991E+001  +3.2762802176E-002 +1.4916573249E+002  +1.5983964177E+000 +3.3580977329E+000 
6766839.800 +1.8518925674E+000 +5.9222805691E+001  +6.7203547091E-003 +1.5501380589E+001  +2.3938252681E-002 +2.0233041692E+001  +1.2904145410E+000 -1.3044989525E+001 
6891984.981 +2.2737181031E+000 +2.8581625991E+001  +2.6425212903E-002 -1.7375527562E+002  +1.0391037815E-002 -1.6422638770E+002  +1.2597109558E+000 -3.6793809931E+000 
7017130.163 +1.9370242165E+000 +2.1719774801E+001  +3.0120989764E-002 +1.3182145745E+002  +9.8130345268E-003 -1.5252388599E+002  +1.3884684856E+000 -7.2282930355E+000 
7142275.344 +1.4285166365E+000 +1.2256046232E+001  +4.2250170903E-003 -2.1789198476E+001  +2.7738030224E-003 -8.2053848550E+001  +1.3183523863E+000 -8.3564284100E+000 
7267420.526 +1.8201752098E+000 +3.3843814871E+000  +1.6571140140E-002 +1.2862511595E+002  +2.0695265701E-002 +9.9023709796E+001  +1.2329642837E+000 -1.3461840854E+001 
7392565.707 +1.2545497910E+000 -6.6198383348E-001  +8.6734896100E-003 +3.9351232655E+001  +1.2485701516E-002 +9.8584473953E+001  +1.3399737607E+000 -1.0102452217E+001 
7517710.889 +1.1598764815E+000 +7.6367579888E+000  +4.0896989478E-003 -1.0686586111E+002  +8.7117749769E-003 +1.0703468430E+002  +1.2121179918E+000 -8.5640422629E+000 
7642856.070 +1.0031041969E+000 -9.2934460146E-001  +8.1979599067E-003 +1.0801033475E+002  +3.2123464373E-003 +1.1360199070E+002  +1.0818990325E+000 -5.5822157667E+000 
7768001.252 +9.7084328102E-001 -1.7662276644E+000  +7.2355314338E-003 +8.9406560762E+001  +8.6101592638E-003 +1.0617371682E+002  +9.6314126831E-001 -5.5072481707E+000 
7893146.433 +9.2564607878E-001 +7.2963564220E-001  +5.7569524397E-003 +7.3515113545E+001  +6.5173414805E-003 +1.1295315740E+002  +8.7602183646E-001 -1.6304751779E+000 
8018291.615 +7.9510240608E-001 +1.2374576059E+001  +8.1928947525E-003 +6.8364991734E+001  +6.2867625395E-003 +8.4759644174E+001  +9.1981804855E-001 +1.0253591644E+000 
8143436.796 +7.4200683400E-001 +2.8372286663E+000  +1.0851432634E-003 -9.3178736361E+001  +7.5423130236E-003 +9.1659811066E+001  +8.1603469800E-001 -2.4563285140E+000 
8268581.977 +7.4938715534E-001 +5.3361088263E+000  +1.4636307494E-003 +7.1387514545E+001  +4.2314997195E-003 +1.7097269514E+002  +7.5093941724E-001 -4.6155085067E+000 
8393727.159 +7.2148643832E-001 +1.9821613530E+000  +4.1855252134E-003 +3.3063171879E+001  +8.4132473107E-003 +1.0100055900E+002  +7.9401382554E-001 -5.9985907787E+000 
8518872.340 +7.4067732859E-001 +1.0439829760E+001  +2.2091792874E-003 -2.8963875228E+001  +9.9785313160E-003 +8.5773742037E+001  +7.6812046138E-001 -3.1777924060E+000 
8644017.522 +6.1861171423E-001 +1.6817453409E+001  +2.5285816853E-003 +1.5408345201E+002  +1.5400881007E-003 +5.9103809272E+001  +6.8288934734E-001 -5.6873899406E+000 
8769162.703 +6.3213044287E-001 +4.4496667642E+000  +4.6381299082E-003 +1.0929880421E+002  +6.1442539171E-003 +1.2514997455E+002  +6.8570544148E-001 +4.3593359097E+000 
8894307.885 +6.4990716799E-001 +5.2843108807E+000  +6.7874672356E-003 +5.1968413299E+001  +2.3118280828E-003 +6.1358458739E+001  +5.6768986468E-001 -1.8273397878E+000 
9019453.066 +6.0854391046E-001 +8.6452529913E+000  +2.1611715409E-003 +7.6361920869E+001  +2.1793697929E-003 -1.6593183630E+002  +6.0116802146E-001 -1.4654337097E+000 
9144598.248 +5.7491751056E-001 +6.1870771724E+000  +4.1094785311E-003 +8.5071273170E+001  +4.2137635228E-003 +7.1455898371E+001  +6.5291654181E-001 +1.8535967751E+000 
9269743.429 +5.4411625957E-001 +4.8527543692E+000  +4.0477377793E-003 +1.7225415802E+002  +3.1953043449E-003 +7.3220377852E+001  +6.3035976345E-001 -4.1614066332E+000 
9394888.611 +5.5611900271E-001 +7.3271464756E+000  +2.9661554282E-003 +7.2894465786E+001  +5.2895716574E-003 +9.8865620504E+001  +6.3347215271E-001 -6.6745957818E-001 
9520033.792 +6.0926318131E-001 -1.0997812708E+000  +5.4463232122E-003 +9.2609048748E+001  +5.4348788253E-003 +9.8027219874E+001  +6.1181937839E-001 -1.0396077183E+001 
9645178.974 +5.0317602933E-001 +2.4584398101E+000  +1.9356234352E-003 +8.7500821829E+001  +6.9795119236E-003 +6.1417227830E+001  +6.1284354201E-001 -5.9356106383E+000 
9770324.155 +5.2381652975E-001 +9.0984042985E+000  +4.8250286145E-003 +1.0253566846E+002  +4.0954764111E-003 +1.0881451991E+002  +5.4283007130E-001 -6.0522736614E+000 
9895469.337 +5.7074694276E-001 +2.1785037531E+000  +6.3386114891E-003 +9.0450907927E+001  +4.2756182166E-003 +9.2663353931E+001  +5.5481735425E-001 -6.3176118189E+000 
10020614.518 +5.6075248833E-001 -2.3706348789E+000  +8.4997704935E-003 +6.4323046786E+001  +5.4029260418E-003 +1.1547368634E+002  +5.8447764846E-001 -3.9584948086E+000 
10145759.700 +5.8448315312E-001 +7.3875827157E-001  +5.2360453105E-004 -1.9024552121E+000  +2.8548321218E-003 +1.1225617142E+002  +5.3675289381E-001 -3.9337151046E-001 
10270904.881 +5.3947032425E-001 +2.5767273705E+000  +5.6959219313E-003 +9.5316108866E+001  +3.3418983300E-003 +9.9154408024E+001  +5.5765089693E-001 -4.1505633396E+000 
10396050.063 +5.7993745447E-001 +5.9089157875E+000  +6.2537496382E-003 +4.5422666621E+001  +1.8740815200E-003 +1.1052928508E+002  +5.9238847882E-001 -4.0104544702E-001 
10521195.244 +5.9473811463E-001 +9.4972462926E+000  +4.7489489763E-003 +7.5846542220E+001  +5.5550407956E-003 +1.2192571480E+002  +6.0195123299E-001 -2.6551418754E+000 
10646340.426 +6.0970195696E-001 +4.6073449182E+000  +2.1111410712E-003 +9.2100554323E+001  +4.4685308228E-003 +1.3518772720E+002  +6.1335832797E-001 -7.5447268546E-001 
10771485.607 +5.8394073480E-001 +7.3859579797E+000  +3.4454673417E-003 +6.7457787012E+001  +3.2656271435E-003 +9.9795473574E+001  +6.3571789096E-001 -4.6574387810E-001 
10896630.788 +5.7889233617E-001 +7.6428048810E+000  +5.5071049094E-003 +6.7869016917E+001  +3.0566125608E-003 +1.1210860718E+002  +6.1213200714E-001 +3.8158157144E+000 
11021775.970 +5.6905388809E-001 +5.6547947623E+000  +1.8379395623E-003 +9.5366418948E+001  +3.8010277330E-003 +1.5952432677E+002  +6.3061476921E-001 +1.8669640201E+000 
11146921.151 +5.9391212649E-001 +5.8245538010E+000  +3.6595966063E-003 +7.7825137382E+001  +2.9361368671E-003 +1.2013401685E+002  +6.4096012547E-001 +6.2923102152E-001 
11272066.333 +6.0665309041E-001 +8.6826134678E+000  +5.0974558020E-003 +9.7798470266E+001  +4.9528120768E-003 +9.9299008456E+001  +6.3960404632E-001 +4.1087175234E+000 
11397211.514 +6.1063819620E-001 +6.5157312222E+000  +2.7051467190E-003 +7.7526629649E+001  +4.5403493546E-003 +8.5198860415E+001  +6.6040548043E-001 +3.3741883007E+000 
11522356.696 +6.5177520030E-001 +7.5091512648E+000  +5.7722647313E-003 +7.4348398364E+001  +3.7288044202E-003 +1.2515365186E+002  +6.4663905760E-001 +6.5695789078E-001 
11647501.877 +6.4112258518E-001 +6.3306340184E+000  +4.7933607540E-003 +8.6823961983E+001  +3.4114186640E-003 +1.3178071404E+002  +6.6856934875E-001 +1.7934171782E+000 
11772647.059 +6.5731086623E-001 +6.3535931826E+000  +4.8127840202E-003 +9.4597475294E+001  +4.4368725677E-003 +1.0145623232E+002  +6.6135912857E-001 +3.6916000869E+000 
11897792.240 +6.6241158087E-001 +6.9381509691E+000  +4.0775474841E-003 +9.1012627724E+001  +5.7924610818E-003 +8.3612894555E+001  +6.7084775208E-001 +9.8523197578E-002 
12022937.422 +6.8414987451E-001 +5.3555201680E+000  +4.7169564655E-003 +9.8915681412E+001  +6.4145218146E-003 +8.4075223845E+001  +6.6055020161E-001 +1.8118560696E-001 
12148082.603 +6.7435920622E-001 +5.2478720899E+000  +4.9114246269E-003 +1.0808578588E+002  +4.4534606562E-003 +1.0492362333E+002  +7.0045873948E-001 +1.6641850312E-001 
12273227.785 +7.0262393722E-001 +5.0134989829E+000  +3.6934540008E-003 +9.8991038061E+001  +3.6295104418E-003 +1.2048541199E+002  +6.9537025070E-001 -1.5917737066E+000 
12398372.966 +6.9687630978E-001 +2.6399499605E+000  +4.0069195552E-003 +9.3795105009E+001  +5.3989696334E-003 +1.0823567668E+002  +7.2072369103E-001 -1.0777281073E+000 
12523518.148 +7.5102903720E-001 +2.0086708793E+000  +5.1538243692E-003 +7.4426916931E+001  +6.4847269178E-003 +1.1431753846E+002  +7.4803113921E-001 -1.6117276843E+000 
12648663.329 +7.6871492644E-001 +2.5741054167E+000  +3.8400635411E-003 +1.0518885570E+002  +6.3366255868E-003 +9.2836309504E+001  +7.5919678919E-001 +1.3736693728E+000 
12773808.511 +7.4331249709E-001 +1.7231443892E+000  +5.0146873854E-003 +1.0192889703E+002  +6.1377194758E-003 +1.0362633512E+002  +7.6548063174E-001 -3.2242213603E+000 
12898953.692 +7.4140331333E-001 +1.0971728015E+000  +7.1199042289E-003 +8.7185547174E+001  +5.6689839921E-003 +9.4696023695E+001  +7.9383558534E-001 -1.9354639449E+000 
13024098.874 +8.0261413876E-001 +1.1503186110E+000  +6.9276961697E-003 +8.4769284127E+001  +7.2044101362E-003 +1.1175403148E+002  +7.7913566654E-001 -8.5675253425E-001 
13149244.055 +8.2152806309E-001 -2.8687597248E-001  +6.4023917460E-003 +1.0431318584E+002  +6.3873861132E-003 +9.1939149683E+001  +8.1457234084E-001 -1.8046172702E+000 
13274389.237 +8.2585382388E-001 -1.5238295306E+000  +6.5347591728E-003 +9.7561642919E+001  +7.0321413960E-003 +8.6505629759E+001  +8.3147479982E-001 -3.7991425807E+000 
13399534.418 +8.4834258242E-001 -2.9895809377E-001  +6.7725085630E-003 +8.5684507254E+001  +7.3934961711E-003 +1.0806304984E+002  +8.3346580004E-001 -3.2473324072E+000 
13524679.599 +8.5644968160E-001 -1.6466067990E+000  +5.8590342581E-003 +8.6572739066E+001  +6.4507999072E-003 +1.0294626114E+002  +8.7302171466E-001 -3.1022903314E+000 
13649824.781 +8.7123759548E-001 -2.2719774667E+000  +6.8086629427E-003 +8.3532784702E+001  +7.5879469529E-003 +9.2595690373E+001  +8.8135411657E-001 -3.1106303123E+000 
13774969.962 +9.0430842155E-001 -2.3497373715E+000  +7.5541450423E-003 +1.0235715092E+002  +6.3303049661E-003 +9.4798868398E+001  +9.0380310222E-001 -3.1841011516E+000 
13900115.144 +9.0503911024E-001 -3.5591690817E+000  +7.2177521061E-003 +9.5288439196E+001  +6.8897054649E-003 +9.4244920804E+001  +9.2216507619E-001 -3.9786653586E+000 
14025260.325 +9.4322428196E-001 -2.6304007346E+000  +6.7627099270E-003 +8.7730247376E+001  +6.9918121386E-003 +9.6188935081E+001  +9.3099158193E-001 -3.8450106263E+000 
14150405.507 +9.5465654361E-001 -5.3382322152E+000  +7.1814256125E-003 +9.5310141717E+001  +5.5559336438E-003 +8.8192937732E+001  +9.6607879554E-001 -4.9851275871E+000 
14275550.688 +9.8875057991E-001 -5.0416704112E+000  +8.3987937431E-003 +8.9035729129E+001  +6.6794214871E-003 +9.5492189829E+001  +9.6765692159E-001 -4.3217847188E+000 
14400695.870 +9.8192759761E-001 -5.5726156764E+000  +7.1255993606E-003 +9.2425487508E+001  +8.0704731356E-003 +8.1722143869E+001  +9.7722086925E-001 -5.6116130686E+000 
