!  2-Port S-parameters saved by WinCal
! VAR NAME=S2_r6c9_formed(0)_9k-100M_1
! VAR DATE=30/08/2024 11:43:37
! VAR FILENAME=S2_r6c9_formed(0)_9k-100M_1.S2P
! VAR MeasName=S-Parameters (CALIBRATED_DATA) read from VNA (P5004A)
! VAR MeasDate=28/08/2024 11:06:49
! VAR PHYS_PORTS=1,2
! VAR ObjTypeName=DATASET
! VAR IndexType=Frequency
!
# Hz S MA R 50
9000.000 +1.0084770566E-001 -1.6542827600E+002  +8.6051640419E-003 +4.3257236219E+001  +3.4747996576E-003 -1.5464320006E+002  +3.1753383996E-001 -1.4080934764E+002 
134145.181 +1.1124167641E-001 +1.6952612894E+002  +4.5326731910E-004 -4.4118066986E+001  +8.7503759116E-005 +1.0028922174E+002  +2.3751635690E-001 -1.6872958882E+002 
259290.363 +1.1243707613E-001 +1.6939761804E+002  +7.5030635601E-004 -4.4139140305E+000  +1.4769821908E-003 +7.8266409799E+001  +2.4433245220E-001 -1.6864017818E+002 
384435.544 +1.1355044444E-001 +1.6968233515E+002  +4.9827049757E-004 -1.6036916799E+002  +7.0110976813E-004 +1.1950745489E+002  +2.4975617872E-001 -1.7011406645E+002 
509580.726 +1.1620993568E-001 +1.7082785901E+002  +2.1147913421E-003 -4.8943546672E+001  +2.0669803369E-004 +9.3617048516E+001  +2.5049904208E-001 -1.6533142229E+002 
634725.907 +1.1535880779E-001 +1.7070321661E+002  +1.5697084816E-003 -9.1775728971E+001  +2.4704162300E-003 +1.2226768522E+002  +2.4538663132E-001 -1.6210445839E+002 
759871.089 +1.1946743008E-001 +1.7109765066E+002  +1.0306557942E-003 -4.3906505441E+001  +1.6518131081E-003 +9.4327513891E+001  +2.5117662234E-001 -1.6542838781E+002 
885016.270 +1.1988618591E-001 +1.6910284724E+002  +9.6369478073E-004 -5.7176395729E+001  +1.5041287973E-003 +1.5509326594E+002  +2.4508439954E-001 -1.6671561278E+002 
1010161.452 +1.2093891066E-001 +1.6967319826E+002  +2.3335731076E-003 -3.6065888914E+001  +3.6502230222E-003 -1.7783378882E+002  +2.1559025085E-001 -1.6451193946E+002 
1135306.633 +1.1567102470E-001 +1.7176529509E+002  +4.8280262937E-003 +5.4646473535E+000  +6.6922566994E-003 -1.7720422919E+002  +2.0257010036E-001 -1.6115724065E+002 
1260451.815 +1.2034690948E-001 +1.7034081447E+002  +1.8347608915E-003 +2.6074091254E+001  +3.7326095047E-003 +1.7704532909E+002  +2.2045409020E-001 -1.6497787322E+002 
1385596.996 +1.2582061334E-001 +1.7128937409E+002  +3.2941379044E-003 -6.7289646412E+001  +2.4299860626E-003 +1.6351724752E+002  +2.5551233998E-001 -1.5946803340E+002 
1510742.178 +1.2806610194E-001 +1.7115882962E+002  +1.7823457366E-003 -3.6455471106E+001  +5.4968553111E-004 -1.3971704421E+002  +2.4949891224E-001 -1.5893076087E+002 
1635887.359 +1.2908751661E-001 +1.7126138396E+002  +2.0534510253E-003 -1.2453135227E+001  +4.2910792107E-003 -1.5313461435E+002  +2.3283558814E-001 -1.5701718197E+002 
1761032.541 +1.2858292372E-001 +1.6946803448E+002  +3.9707910838E-003 +2.9002217014E+001  +7.1113748908E-003 -1.2297774307E+002  +2.3027571058E-001 -1.5637055518E+002 
1886177.722 +1.3191509304E-001 +1.6895134634E+002  +5.6517977066E-003 +5.8332462031E+001  +5.4288848787E-003 -5.6446629744E+001  +2.1885154483E-001 -1.6571016919E+002 
2011322.904 +1.1848536644E-001 +1.6479487925E+002  +2.3098121041E-002 +8.4120284753E+001  +2.6195786056E-002 -4.8811280558E+001  +1.5483679287E-001 -1.6403134501E+002 
2136468.085 +1.3437460615E-001 +1.6764522902E+002  +1.0462599686E-002 +9.8618009496E+001  +1.2290579046E-002 -2.9449287562E+001  +2.2210103471E-001 -1.7453065838E+002 
2261613.267 +1.3129036042E-001 +1.6593849302E+002  +2.5936158964E-002 +9.9095146918E+001  +2.8162803496E-002 -3.3084870199E+001  +1.6534005866E-001 +1.7553860668E+002 
2386758.448 +1.3534476394E-001 +1.6433748897E+002  +2.1132607038E-002 +7.8838804550E+001  +2.0985427880E-002 -4.4222826182E+001  +1.9254405808E-001 -1.6174795207E+002 
2511903.630 +1.2999533531E-001 +1.6588756138E+002  +2.4325777268E-002 +7.0892775896E+001  +2.7588929722E-002 -4.3345911762E+001  +2.0683456531E-001 -1.6563717062E+002 
2637048.811 +1.3324959272E-001 +1.6721780888E+002  +3.6613342608E-002 +6.2316291919E+001  +3.6481478359E-002 -5.0441140328E+001  +1.6190555967E-001 -1.6402613569E+002 
2762193.992 +1.3368850198E-001 +1.7585372294E+002  +4.6971871054E-002 +7.3578967320E+000  +4.9778842876E-002 -1.0463553013E+002  +2.1858946626E-001 -1.3577462582E+002 
2887339.174 +1.3685591699E-001 +1.7811288193E+002  +4.3812373036E-002 +1.0358432149E+001  +4.7427888318E-002 -8.9915554882E+001  +1.8162346885E-001 -1.4853990770E+002 
3012484.355 +1.5894849272E-001 +1.7988690272E+002  +7.8815257001E-002 -2.4587409373E+001  +7.8132603678E-002 -1.2591336793E+002  +2.4269214469E-001 -9.3211648994E+001 
3137629.537 +1.4350490452E-001 +1.7458441755E+002  +5.8400578263E-002 +4.6139704912E+000  +5.4763201592E-002 -8.7772195701E+001  +1.7706459841E-001 -1.2051080171E+002 
3262774.718 +1.4171723714E-001 -1.7596759449E+002  +1.0957620479E-001 -1.5312584860E+001  +1.1192830484E-001 -1.0694072179E+002  +2.7512495761E-001 -8.8125012439E+001 
3387919.900 +1.0055124820E-001 +1.6172895063E+002  +1.4774778346E-001 +5.6702048579E+001  +1.5213110017E-001 -3.1888317187E+001  +1.7978169058E-001 +7.1646833815E+001 
3513065.081 +1.4827286807E-001 +1.5566408095E+002  +8.5632505506E-002 +7.9447572248E+001  +8.2960531709E-002 -4.5569792673E+000  +1.8502315990E-001 +1.4303676746E+002 
3638210.263 +1.3999890917E-001 +1.4154393943E+002  +1.3437722714E-001 +8.8613818400E+001  +1.3398747926E-001 +9.8763020069E+000  +2.6780285692E-001 +1.2573490063E+002 
3763355.444 +1.7645076015E-001 +1.4972931361E+002  +9.0805082772E-002 +1.3239272532E+002  +9.1993250123E-002 +5.3966808130E+001  +4.7852552801E-001 +1.6068666326E+002 
3888500.626 +1.7688061595E-001 +1.5185068856E+002  +7.7056676527E-002 +8.5167872211E+001  +7.6022823041E-002 +9.6398382932E+000  +2.0511586258E-001 +1.6457700000E+002 
4013645.807 +1.5043821532E-001 +1.5985797605E+002  +1.2874528309E-001 +6.2636512046E+001  +1.2890670932E-001 -1.3711026197E+001  +2.0285215728E-001 +9.7947733530E+001 
4138790.989 +1.5603800711E-001 +1.5678588695E+002  +1.6842126092E-001 +6.4536221882E+001  +1.5564583076E-001 -4.4509175414E+000  +3.5156611857E-001 +8.3976052695E+001 
4263936.170 +1.9165514093E-001 +1.5509056053E+002  +9.8032131224E-002 +7.3777926785E+001  +9.1283282415E-002 +8.0947633576E+000  +1.8706040927E-001 +1.4405903816E+002 
4389081.352 +1.9223199124E-001 +1.4541576742E+002  +1.1939897184E-001 +7.9324409880E+001  +1.1282188041E-001 +2.0539729690E+001  +2.4501128065E-001 +1.5173358566E+002 
4514226.533 +1.6223234799E-001 +1.3667892591E+002  +2.3830315078E-001 +6.8070560793E+001  +2.2544498895E-001 +1.0883204877E+001  +4.0145791945E-001 +8.2948397516E+001 
4639371.715 +2.7366957628E-001 +1.2226015301E+002  +3.5060663018E-001 +9.3741190414E+001  +3.1788677929E-001 +4.0245685221E+001  +6.5665290950E-001 +9.2467252410E+001 
4764516.896 +3.1901918008E-001 +1.3149924104E+002  +4.8489931232E-001 +1.2184436437E+002  +4.6841243386E-001 +7.3137651356E+001  +1.6930006874E+000 +1.1750536503E+002 
4889662.078 +3.6578455017E-001 +1.2485316550E+002  +4.9330253857E-001 +1.1564344725E+002  +4.8178087461E-001 +6.8100561813E+001  +1.3547774639E+000 +1.1081265501E+002 
5014807.259 +3.8410143790E-001 +1.4201725096E+002  +3.1122275349E-001 +1.4485408336E+002  +2.9851310249E-001 +1.0067735523E+002  +1.0572299698E+000 +1.4092191861E+002 
5139952.441 +3.2767053368E-001 +1.2645696502E+002  +3.2260416029E-001 +1.1184587335E+002  +3.1884626418E-001 +7.1541001016E+001  +9.2195872713E-001 +1.3282371376E+002 
5265097.622 +3.2714002724E-001 +1.3243489653E+002  +3.0597088700E-001 +1.1034526437E+002  +2.9806829153E-001 +6.9203365052E+001  +9.9480813328E-001 +1.3024863763E+002 
5390242.804 +3.5893241866E-001 +1.3270652270E+002  +3.1769602171E-001 +9.6863937457E+001  +3.1092392725E-001 +6.0426332542E+001  +8.3499145214E-001 +1.0836310826E+002 
5515387.985 +4.2606453386E-001 +1.3054894480E+002  +4.5068018235E-001 +1.2549674005E+002  +4.3608934443E-001 +9.0010671942E+001  +1.5896616659E+000 +1.3419106769E+002 
5640533.166 +3.5065958672E-001 +1.2310947690E+002  +4.1020210079E-001 +1.0317821488E+002  +3.9651623460E-001 +7.1691618900E+001  +1.3633321017E+000 +1.3111768179E+002 
5765678.348 +4.3699168064E-001 +1.3547820755E+002  +2.8777184504E-001 +9.8797742857E+001  +2.7982025560E-001 +7.1974718602E+001  +9.0242851883E-001 +1.2303496956E+002 
5890823.529 +3.6811026221E-001 +1.1986001079E+002  +3.9229332606E-001 +7.5087156724E+001  +3.8565557071E-001 +4.7149004180E+001  +9.2676998110E-001 +1.0480107649E+002 
6015968.711 +4.8153866884E-001 +1.1976698232E+002  +4.7340629594E-001 +8.2549043117E+001  +4.6458996495E-001 +6.2833295753E+001  +1.2479107141E+000 +1.0254611372E+002 
6141113.892 +4.0297658628E-001 +1.1695704140E+002  +4.2310331863E-001 +6.5583287811E+001  +4.1238968868E-001 +4.4050569457E+001  +1.0040173065E+000 +9.8534853970E+001 
6266259.074 +4.4570326655E-001 +1.0026513482E+002  +5.6278793275E-001 +5.4908225336E+001  +5.5802610789E-001 +3.4770651915E+001  +1.0984026326E+000 +7.5820840361E+001 
6391404.255 +3.8042190270E-001 +9.2593694615E+001  +5.8779124162E-001 +3.8206282502E+001  +5.9469117932E-001 +2.1739189631E+001  +1.1310620038E+000 +5.8441038636E+001 
6516549.437 +6.0367727985E-001 +7.7124174196E+001  +7.0028078177E-001 +3.7586085624E+001  +7.0213462445E-001 +2.5356479965E+001  +1.0650736518E+000 +4.9773192443E+001 
6641694.618 +6.0013912178E-001 +7.0947536896E+001  +6.9405812568E-001 +2.5284538117E+001  +6.9392775083E-001 +1.5632430441E+001  +1.0359567077E+000 +2.5907519585E+001 
6766839.800 +6.0997713244E-001 +4.8310410373E+001  +7.2627888053E-001 +1.6608043708E+001  +7.2111593593E-001 +9.3698702830E+000  +9.5842601843E-001 +2.5049082147E+001 
6891984.981 +6.0046846654E-001 +5.2755630969E+001  +6.3437854876E-001 +1.3184346577E+001  +6.1657333276E-001 +4.9870493512E+000  +7.0686542028E-001 +7.7039111929E+000 
7017130.163 +6.4448697621E-001 +2.0084726388E+001  +6.6164131552E-001 +3.3250653879E+000  +6.5344575217E-001 -9.7384775023E-001  +7.0700543235E-001 -1.2191368458E-001 
7142275.344 +7.4811956058E-001 +2.0818539804E+001  +6.2160524006E-001 +4.9271441111E+000  +6.3787574917E-001 +2.6472232680E-001  +7.3995396103E-001 -6.3552140851E+000 
7267420.526 +6.1911928151E-001 +9.1582302698E+000  +5.6835283551E-001 +2.0289889742E+000  +5.6364506791E-001 -1.0880736087E-001  +6.6235996802E-001 -9.9296091741E+000 
7392565.707 +6.3852384837E-001 -7.6406232989E-002  +5.2787772689E-001 +2.4813004577E+000  +5.2559502814E-001 +2.2288723094E+000  +6.1218381982E-001 -3.5041257147E+000 
7517710.889 +4.3557797872E-001 +1.5786273896E+001  +4.7617429052E-001 +2.6654885753E+000  +4.7600589388E-001 +4.0456699665E+000  +5.8079483270E-001 +9.6791026923E-001 
7642856.070 +4.0672649509E-001 -1.1881752022E+001  +4.8273427992E-001 -1.8691556598E+000  +4.7471062416E-001 +2.2462357554E+000  +5.4376543510E-001 +4.9649921910E+000 
7768001.252 +4.8975770768E-001 +7.2529473767E+000  +4.5635379623E-001 +1.2667316564E-001  +4.5211796494E-001 +6.0310504227E+000  +4.9772394692E-001 +2.6545590823E+000 
7893146.433 +3.2213173771E-001 +2.3478963282E+001  +4.2878943598E-001 -1.7707898289E+000  +4.2238616097E-001 +4.6745542815E+000  +4.4264717586E-001 +8.7810775761E+000 
8018291.615 +3.5157621061E-001 +2.2277200564E+001  +4.2520014280E-001 -3.2762224989E+000  +4.2493928340E-001 +4.7229025606E+000  +3.1003042137E-001 +3.0922324266E+000 
8143436.796 +2.2359433798E-001 +1.7676560546E+001  +4.1008544301E-001 -4.6306802220E+000  +4.0376204966E-001 +4.6109271956E+000  +3.8223838200E-001 +1.2891615698E+001 
8268581.977 +3.0185681135E-001 +3.0733421055E+001  +4.0448100689E-001 -3.6331907102E+000  +3.9822568177E-001 +6.4414883215E+000  +3.6021729100E-001 +2.0313101796E+001 
8393727.159 +3.2791066341E-001 +2.2771018221E+001  +3.9572799802E-001 -4.2320861681E+000  +3.9270678267E-001 +7.4212890312E+000  +3.3346211247E-001 +2.1297574120E+001 
8518872.340 +3.0303857754E-001 +2.0622334661E+001  +3.9958791998E-001 -4.1678058328E+000  +3.8932859307E-001 +7.8333564393E+000  +3.4104607410E-001 +1.9474591422E+001 
8644017.522 +2.2632335193E-001 +3.5953452213E+001  +3.8425381301E-001 -6.3492744045E+000  +3.7805045488E-001 +6.6167209206E+000  +2.3691614639E-001 +3.2826036711E+001 
8769162.703 +2.4050515057E-001 +2.3377150117E+001  +3.8077611839E-001 -5.7790433644E+000  +3.7913100843E-001 +7.8727402031E+000  +2.7165812761E-001 +3.2103493924E+001 
8894307.885 +1.6882133700E-001 +2.9608015171E+001  +3.7815993501E-001 -7.1368108151E+000  +3.7860544581E-001 +6.9409772875E+000  +2.1646070594E-001 +2.6125786910E+001 
9019453.066 +1.7266643635E-001 +3.1587927548E+001  +3.7389857982E-001 -6.9317984585E+000  +3.7373715581E-001 +7.2824655327E+000  +2.2794305110E-001 +3.4344891994E+001 
9144598.248 +1.9865448900E-001 +4.5373552338E+001  +3.6823999804E-001 -6.5081170444E+000  +3.6418355116E-001 +9.0417473124E+000  +2.5247147676E-001 +2.9391602125E+001 
9269743.429 +2.3109913482E-001 +3.3044162702E+001  +3.7116975828E-001 -6.6803353079E+000  +3.7068891664E-001 +8.5069949186E+000  +1.5657189126E-001 +2.2705855396E+001 
9394888.611 +1.7368003973E-001 +4.5264759734E+001  +3.6961824603E-001 -7.1403443829E+000  +3.7276988466E-001 +8.1752658149E+000  +1.9485980627E-001 +2.8018127754E+001 
9520033.792 +1.7807636998E-001 +2.4010119197E+001  +3.7529155904E-001 -6.3969952777E+000  +3.7220316774E-001 +8.9390234864E+000  +2.0178422157E-001 +2.4707921672E+001 
9645178.974 +1.4912781365E-001 +3.5030036112E+001  +3.7126334422E-001 -6.8085884336E+000  +3.6928505169E-001 +8.5806764857E+000  +1.9158744309E-001 +2.6695245018E+001 
9770324.155 +1.5329841651E-001 +2.1340158456E+001  +3.7494241157E-001 -6.3914951497E+000  +3.7073122563E-001 +9.8915456103E+000  +2.1740684942E-001 +2.9245071140E+001 
9895469.337 +1.3356688138E-001 +1.8531634626E+001  +3.7860499368E-001 -6.6813919070E+000  +3.7509885132E-001 +8.7801189253E+000  +1.6230023564E-001 +1.6078236307E+001 
10020614.518 +1.7490786715E-001 +2.1804853921E+001  +3.8030082873E-001 -6.0173038745E+000  +3.7719364813E-001 +9.6911915801E+000  +1.6634535193E-001 +2.3944209724E+000 
10145759.700 +1.6446373670E-001 +4.1914048965E+001  +3.7232286306E-001 -5.7803827560E+000  +3.7242399521E-001 +9.8310040550E+000  +1.7777191738E-001 +1.9723990166E+001 
10270904.881 +1.7600336617E-001 +2.9188857390E+001  +3.7769076869E-001 -5.5689240847E+000  +3.7330393934E-001 +9.7018805822E+000  +1.9914457498E-001 +2.9681976457E+001 
10396050.063 +1.5817558838E-001 +2.8532252337E+001  +3.7859795961E-001 -5.6380527191E+000  +3.7970624471E-001 +9.7308782571E+000  +1.7354339837E-001 +2.3266200979E+001 
10521195.244 +1.7416097086E-001 +3.7472728624E+001  +3.7637312752E-001 -5.4047524985E+000  +3.7277590280E-001 +9.8226750179E+000  +2.2066533418E-001 +3.1465409529E+001 
10646340.426 +2.1507517464E-001 +3.2326652173E+001  +3.8197161448E-001 -3.9596399974E+000  +3.7962489907E-001 +1.0570658215E+001  +2.0511996933E-001 +2.5214918238E+001 
10771485.607 +1.9708237715E-001 +2.9731411058E+001  +3.8157056720E-001 -4.2099401759E+000  +3.7963013144E-001 +1.0366716897E+001  +2.2566547415E-001 +3.0040198359E+001 
10896630.788 +1.9745114221E-001 +2.7245880993E+001  +3.8658411361E-001 -3.8368680033E+000  +3.8493636303E-001 +1.0242108153E+001  +2.2577633657E-001 +2.4566011826E+001 
11021775.970 +1.9700266269E-001 +3.3161943390E+001  +3.8774247727E-001 -4.3312406590E+000  +3.8472466253E-001 +9.5068111765E+000  +1.9738197056E-001 +2.4263432655E+001 
11146921.151 +2.0764014023E-001 +2.3308746341E+001  +3.9369387376E-001 -3.3354803246E+000  +3.8913339684E-001 +1.0174440049E+001  +2.2716666333E-001 +2.2341420118E+001 
11272066.333 +2.4005045254E-001 +3.1863600397E+001  +3.9250265012E-001 -2.6787594785E+000  +3.9072192352E-001 +1.0346549693E+001  +2.4982037793E-001 +2.5233745933E+001 
11397211.514 +2.3904255546E-001 +3.0765920882E+001  +4.0027189944E-001 -2.5211327097E+000  +3.9693409430E-001 +1.0174826209E+001  +2.4160429941E-001 +1.0315018545E+001 
11522356.696 +2.4046951380E-001 +2.8854571585E+001  +3.9818226141E-001 -2.0086549776E+000  +3.9366543373E-001 +9.2753895039E+000  +2.5629442030E-001 +2.9856735289E+001 
11647501.877 +2.0394350041E-001 +3.1314111222E+001  +4.0181045879E-001 -2.2976830864E+000  +3.9892839633E-001 +9.4038039374E+000  +2.7939235124E-001 +2.3881245196E+001 
11772647.059 +2.6262079773E-001 +2.0952619219E+001  +4.0956659287E-001 -1.5076388799E+000  +4.0818792216E-001 +9.0777262865E+000  +2.4761231821E-001 +2.2248336511E+001 
11897792.240 +2.5868113879E-001 +2.4618883731E+001  +4.1501594784E-001 -1.3190967479E+000  +4.0808187236E-001 +8.5631829495E+000  +2.4553850331E-001 +1.7335219930E+001 
12022937.422 +2.5884659561E-001 +2.1896795857E+001  +4.1637198541E-001 -7.3975733578E-001  +4.1316508169E-001 +8.7251666132E+000  +2.8207685461E-001 +1.9156953659E+001 
12148082.603 +2.7441729745E-001 +2.0113005487E+001  +4.2352152842E-001 -7.4593335313E-001  +4.1890718681E-001 +8.3515483792E+000  +2.6384774914E-001 +1.5662063497E+001 
12273227.785 +2.6550985652E-001 +1.8468095482E+001  +4.2694768690E-001 -5.5707335286E-001  +4.2294429693E-001 +7.7888421344E+000  +2.9141379449E-001 +1.5984166198E+001 
12398372.966 +2.6804166985E-001 +2.2387075155E+001  +4.2868026599E-001 -9.2720501976E-002  +4.2577746693E-001 +7.6029691156E+000  +3.0381534299E-001 +1.1622205367E+001 
12523518.148 +2.7623116995E-001 +1.4872889150E+001  +4.3345278161E-001 -2.6697069694E-001  +4.3064383101E-001 +7.3373752165E+000  +2.9882116766E-001 +1.4656965828E+001 
12648663.329 +3.0492060486E-001 +1.1507765806E+001  +4.4128272355E-001 +2.1177094867E-001  +4.3950684213E-001 +7.1019312745E+000  +2.8495925232E-001 +7.1845608682E+000 
12773808.511 +3.2151746004E-001 +1.3269409539E+001  +4.4469600102E-001 +6.8189113364E-001  +4.4229869112E-001 +6.7750401654E+000  +3.0838410552E-001 +7.8177421629E+000 
12898953.692 +2.9030953739E-001 +8.8413215157E+000  +4.5005481956E-001 +4.2005665738E-001  +4.4651223998E-001 +5.8501516534E+000  +3.1755365762E-001 +7.4967350499E+000 
13024098.874 +3.1993954620E-001 +8.9807814396E+000  +4.5703747630E-001 +4.4996808873E-001  +4.5321244043E-001 +5.4552685852E+000  +3.0476189104E-001 +3.9479232600E+000 
13149244.055 +3.3120517282E-001 +1.1522053660E+001  +4.5691409237E-001 +9.5571811190E-001  +4.5341120892E-001 +5.0964198713E+000  +3.3818320816E-001 +7.3454488750E+000 
13274389.237 +3.4518587570E-001 +5.7010485043E+000  +4.6516169660E-001 +9.2942567214E-001  +4.5878798556E-001 +4.8210386228E+000  +3.4708578544E-001 +5.3530529728E+000 
13399534.418 +3.5865175843E-001 +2.6109457052E+000  +4.7066734384E-001 +1.1420802843E+000  +4.6735870026E-001 +4.4720425327E+000  +3.6187987816E-001 +3.2184143471E+000 
13524679.599 +3.6838262254E-001 +2.9787140647E+000  +4.7251865394E-001 +1.3291546983E+000  +4.6793286644E-001 +4.3388912129E+000  +3.8517927272E-001 +4.1791106839E+000 
13649824.781 +3.9278350502E-001 -1.5800825928E+000  +4.8221801848E-001 +1.1396495206E+000  +4.7908142973E-001 +3.6423417569E+000  +3.6275605028E-001 +1.9600259519E-001 
13774969.962 +3.7454611059E-001 +7.5772528787E-001  +4.8079772748E-001 +9.8658815424E-001  +4.7648705062E-001 +3.1555806403E+000  +3.9756587257E-001 +1.6929678212E+000 
13900115.144 +4.0850443232E-001 +9.6913230391E-003  +4.8710971254E-001 +1.0852191743E+000  +4.8293104224E-001 +2.8570986094E+000  +4.0871265956E-001 -1.3649051988E+000 
14025260.325 +4.2133572296E-001 -2.2456836087E+000  +4.9091371922E-001 +1.2386341093E+000  +4.8519451208E-001 +2.4406318922E+000  +4.1807220364E-001 +1.4995666244E+000 
14150405.507 +4.4573896855E-001 -2.5493634541E+000  +4.9435981561E-001 +1.4014327818E+000  +4.8966087640E-001 +2.4012006772E+000  +4.4199977955E-001 -2.5557410791E-001 
14275550.688 +4.2681008330E-001 +2.0503561284E-002  +4.9779975337E-001 +1.0502271768E+000  +4.9333680848E-001 +1.5785822801E+000  +4.4747436071E-001 -4.6183147595E+000 
14400695.870 +4.5577070897E-001 -2.8326630960E+000  +5.0114876974E-001 +9.7212160187E-001  +4.9672787067E-001 +1.5093015213E+000  +4.6283400289E-001 -4.3012707499E+000 
