!  2-Port S-parameters saved by WinCal
! VAR MeasName=S-Parameters (CALIBRATED_DATA) read from VNA (P5004A)
! VAR MeasDate=27/08/2024 12:06:05
! VAR NAME=S2_r3c8_pristine_9k-100M_1
! VAR FILENAME=S2_r3c8_pristine_9k-100M_1.S2P
! VAR DATE=27/08/2024 12:06:05
! VAR PHYS_PORTS=1,2
! VAR ObjTypeName=DATASET
! VAR IndexType=Frequency
!
# Hz S MA R 50
9000.000 +4.4877560236E-002 -1.2520104464E+002  +1.4077251961E-001 -1.6316259344E+002  +1.6420145164E-001 -9.8251509411E+001  +4.1456044187E-001 -3.2848143903E+000 
134145.181 +1.1036378771E-001 +1.6975242930E+002  +6.8600514274E-005 -5.6505215717E+001  +6.0789335531E-004 +7.9560852267E+001  +2.4068833045E-001 -1.6981245028E+002 
259290.363 +1.1210156719E-001 +1.6959435411E+002  +6.3520740302E-004 +6.7251569524E+001  +7.6361563141E-005 -5.0184151608E+001  +2.3797231367E-001 -1.7027793734E+002 
384435.544 +1.1469449542E-001 +1.6959292539E+002  +4.0952023473E-004 -1.7456543126E+002  +6.3176135010E-004 -5.5135290603E+001  +2.4118181317E-001 -1.6833227561E+002 
509580.726 +1.1274762743E-001 +1.7082827231E+002  +9.0793186610E-004 +3.5592467364E+000  +3.2401329018E-004 +6.1140001894E+001  +2.2838339989E-001 -1.6378015795E+002 
634725.907 +1.1609626410E-001 +1.7084315781E+002  +8.7674731790E-004 -1.0447763670E+002  +5.9851476413E-004 +1.0007394180E+001  +2.3592738446E-001 -1.6599561220E+002 
759871.089 +1.1554190700E-001 +1.7024840970E+002  +8.0956973663E-004 +1.1498492159E+002  +6.9608392008E-004 -1.5256379447E+001  +2.3267128491E-001 -1.6458568716E+002 
885016.270 +1.1902433173E-001 +1.6962548680E+002  +1.1440826963E-003 +2.8243247820E+001  +6.5216948541E-004 +2.7748105306E+001  +2.2850212611E-001 -1.6351244208E+002 
1010161.452 +1.1900550038E-001 +1.7217183807E+002  +1.4271467698E-003 +1.2919984449E+002  +3.6537741221E-003 -7.8185035777E+001  +1.4623178991E-001 -1.4451551791E+002 
1135306.633 +1.1481537132E-001 +1.6960573971E+002  +4.2357876042E-003 +7.1990732790E+001  +3.2114875296E-003 +1.6607311141E+002  +2.4194993439E-001 -1.2887594599E+002 
1260451.815 +1.1952723176E-001 +1.7056958675E+002  +1.5391255971E-003 +1.0366490506E+002  +4.0002284534E-004 -1.6577510226E+002  +2.4535400779E-001 -1.5967102891E+002 
1385596.996 +1.2591146452E-001 +1.7262010994E+002  +3.0034315884E-004 -1.3669226104E+002  +7.4257159649E-004 -1.2456301886E+002  +2.6407565963E-001 -1.5806508753E+002 
1510742.178 +1.2382588817E-001 +1.7195449302E+002  +4.5548697004E-004 +4.7842741428E+001  +4.8037159226E-004 +1.6805699838E+001  +2.5765330565E-001 -1.5865635715E+002 
1635887.359 +1.2892833857E-001 +1.7046806975E+002  +1.4361904420E-003 -1.6394301416E+002  +1.2642891232E-003 -6.6821548922E+001  +2.3311751382E-001 -1.5909065158E+002 
1761032.541 +1.2493874772E-001 +1.7073099518E+002  +9.4110463945E-004 +1.1156636868E+002  +2.2819418930E-003 -1.0419756368E+002  +1.8694527896E-001 -1.6163141051E+002 
1886177.722 +1.3040741388E-001 +1.6848137608E+002  +1.6599521699E-003 +6.6083021449E+000  +1.4203893396E-003 +1.4389171824E+002  +1.7321844312E-001 -1.4599769592E+002 
2011322.904 +1.3336994098E-001 +1.6533445850E+002  +2.3449792659E-003 +7.2352181695E+001  +2.1503452001E-003 -1.8904823672E+001  +2.1723189061E-001 -1.7958229620E+002 
2136468.085 +1.2906243768E-001 +1.6452468801E+002  +2.6936926869E-003 +1.6310597308E+002  +5.9299486665E-004 -5.9221285030E+001  +2.3223264246E-001 +1.7260974061E+002 
2261613.267 +1.2865521899E-001 +1.6727535736E+002  +6.7769915683E-004 +9.1946895163E+001  +4.1613375896E-003 -1.5880576211E+002  +1.7359383741E-001 -1.4405014812E+002 
2386758.448 +1.3626719420E-001 +1.5805220640E+002  +2.0412846381E-003 +1.5596477868E+002  +2.9972314451E-003 +1.3093054059E+002  +2.0441830508E-001 +1.6544117196E+002 
2511903.630 +1.3140629059E-001 +1.5325059446E+002  +5.5426289613E-003 +4.6660950636E+001  +6.6636018312E-003 +1.3158006302E+002  +1.5186087744E-001 +1.6714586319E+002 
2637048.811 +9.8724482880E-002 +1.6672554137E+002  +4.8102635278E-003 -4.6917904248E+001  +6.3163519437E-003 -3.1071640713E+001  +6.2939936387E-002 +1.2207321826E+002 
2762193.992 +1.2398262492E-001 +1.7131011619E+002  +7.3969132427E-003 +1.6162533427E+002  +1.8931402793E-002 -9.0936792141E+001  +5.5591015025E-001 -7.7458813982E+001 
2887339.174 +1.0381645660E-001 +1.7898998584E+002  +5.4860853664E-003 +1.4058023223E+002  +8.8169108691E-003 -1.0061011025E+002  +2.0462445935E-001 -8.3102084131E+001 
3012484.355 +1.1352948286E-001 +1.6515820867E+002  +1.0022348065E-002 +1.5470497176E+001  +1.3563632205E-002 +6.9832456707E+001  +5.0766018344E-001 -6.4462511250E+001 
3137629.537 +8.9083092866E-002 +1.6591623400E+002  +3.5181721784E-002 +6.5521224285E+001  +9.7230074389E-003 +1.6349463314E+002  +5.5823359683E-001 -7.3253190143E+001 
3262774.718 +9.0875923673E-002 -1.6982431897E+002  +1.0223922557E-002 -1.1923152774E+002  +1.3666540255E-002 +1.2788633780E+002  +3.1899637742E-001 -6.5960021752E+001 
3387919.900 +1.2521998232E-001 +1.6090709494E+002  +2.8561857431E-002 -2.3334632704E+001  +2.0547193663E-002 -6.9727895003E+000  +5.4228080979E-001 +4.2839889610E+000 
3513065.081 +1.4711896309E-001 +1.4727275131E+002  +9.7114973483E-003 -1.6420141911E+001  +1.5560607384E-002 +1.5346707615E+002  +2.1151655822E-001 -4.1908367662E+000 
3638210.263 +1.4137736016E-001 +1.4695725835E+002  +5.4964625602E-003 -1.8370901154E+001  +1.0699039387E-002 -1.2435765074E+001  +6.6349650347E-001 +1.5180415245E+002 
3763355.444 +1.2961371081E-001 +1.4845757443E+002  +1.3531133433E-002 +1.2652260975E+002  +2.3437369290E-002 +4.1490538992E+001  +1.8570412631E+000 +1.6892803266E+002 
3888500.626 +1.4784322107E-001 +1.3898907318E+002  +1.2296846392E-002 -1.3786099398E+002  +2.7537027794E-003 +1.6512275462E+002  +6.6725286847E-001 +1.0643908957E+002 
4013645.807 +1.6672910227E-001 +1.3762329414E+002  +1.0483582331E-002 -8.7130264048E+000  +6.8115886897E-003 -1.1999867633E+002  +2.4529561863E-001 +1.0953357440E+002 
4138790.989 +1.9443460056E-001 +1.4472102382E+002  +1.1373642136E-002 +1.2249685599E+002  +5.6248173064E-003 +3.2956299693E+001  +3.2098739087E-001 +8.3338055795E+001 
4263936.170 +1.8552876594E-001 +1.5021750549E+002  +2.5135088750E-002 +8.6729041607E+001  +4.7804524102E-003 +1.4968582314E+002  +1.0827857365E+000 +1.3481585817E+002 
4389081.352 +2.2616768642E-001 +1.4359800536E+002  +3.8116019887E-003 -1.5191657115E+002  +1.3336737382E-002 +2.7884287091E+001  +3.3757357296E-001 +9.7522005952E+001 
4514226.533 +2.4046879804E-001 +1.3386501120E+002  +2.1725847739E-002 +6.4644242208E+001  +2.4307103529E-002 -1.4104309136E+002  +1.5539787606E+000 +1.2063602885E+002 
4639371.715 +2.6721119892E-001 +1.2208415678E+002  +2.7427082571E-003 +1.5082650701E+002  +5.5030779712E-003 -4.4673985665E+001  +1.2279213708E+000 +1.3953048776E+002 
4764516.896 +3.6961969922E-001 +1.2750875547E+002  +1.6918828588E-002 -1.3792056270E+002  +1.0641380487E-002 +3.0863250027E+001  +2.1992755427E+000 +1.6851240489E+002 
4889662.078 +4.4995178285E-001 +1.3809718268E+002  +1.2475559300E-002 +3.0683581616E+001  +2.5184902533E-003 -2.7743807579E+001  +1.6300672823E+000 -1.0528895594E+002 
5014807.259 +3.7188768288E-001 +1.2497776653E+002  +2.4104935394E-002 +4.1353136876E+001  +1.0820753541E-002 +1.2290615182E+002  +1.7876325201E+000 -5.0448944722E+001 
5139952.441 +4.5494995624E-001 +1.2898932068E+002  +5.0704433188E-002 -1.4106008110E+002  +1.8134725172E-002 +1.5465931766E+002  +3.4557632142E+000 +1.6547062038E+002 
5265097.622 +4.0547395394E-001 +1.1803099187E+002  +4.6171783200E-002 -1.7920346869E+002  +1.7689064964E-002 +1.4524935446E+002  +2.5030303232E+000 +7.2458325344E+001 
5390242.804 +3.9826514737E-001 +1.2894501028E+002  +1.4380153227E-002 -2.3414166504E+000  +4.5801467534E-003 -1.0906361976E+002  +1.0358244671E+000 +7.4623970564E+001 
5515387.985 +4.3470724229E-001 +1.2592240579E+002  +4.5737802427E-003 +1.1651177999E+001  +1.2743180935E-002 -4.0345932168E+001  +1.1534522019E+000 +7.9556389093E+001 
5640533.166 +4.7249661032E-001 +1.2908703958E+002  +2.0995255701E-002 +1.1501364593E+001  +2.0909525966E-002 -1.2708000020E+002  +2.5517866204E+000 +1.0472783367E+002 
5765678.348 +5.3318770006E-001 +1.1448712776E+002  +6.4318236950E-003 -4.9867848619E+001  +1.4185435328E-002 +5.4647326734E+001  +2.4595767121E+000 +1.8659838523E+000 
5890823.529 +5.9756059779E-001 +1.2095361714E+002  +1.4739331667E-002 +3.5300312111E+001  +3.4836611484E-002 -6.0915416868E+001  +2.2194336128E+000 +2.8562385528E+001 
6015968.711 +7.5253475033E-001 +1.1307740328E+002  +4.0492507627E-002 +1.2078658121E+002  +1.5214326477E-002 +1.6062318690E+002  +3.4963779896E+000 +7.3407166665E+001 
6141113.892 +8.4465229808E-001 +1.2102718379E+002  +2.7725155237E-002 +8.5348284203E+001  +8.0922436829E-003 -1.1014897985E+002  +1.7689983010E+000 +3.1536174440E+001 
6266259.074 +8.1340344085E-001 +9.9435313380E+001  +1.0042177525E-002 -1.0454262515E+002  +3.2789368603E-003 +9.8516658205E+001  +1.7032799968E+000 +2.6859069916E+001 
6391404.255 +1.0453679300E+000 +1.0565393520E+002  +2.3244925217E-002 +1.1707458364E+002  +1.0940854742E-002 +7.3689944535E+001  +1.4468523509E+000 +1.2855940777E+001 
6516549.437 +1.3002569241E+000 +7.6870910270E+001  +8.1542599777E-003 +1.5807435962E+002  +1.6891730450E-002 +1.3504206142E+002  +1.5158170387E+000 +3.0558443591E+000 
6641694.618 +1.4572442163E+000 +8.1638789658E+001  +2.0984094406E-002 +1.3544697464E+002  +1.0034313649E-002 +2.0416652314E+001  +1.1998751452E+000 +5.6803164685E+000 
6766839.800 +1.5990447224E+000 +4.7854189870E+001  +1.6622937736E-002 -1.4132499896E+002  +1.4107659951E-002 -5.9475533602E+001  +1.3612712271E+000 -1.4012248233E+000 
6891984.981 +2.5452613497E+000 +3.4305807618E+001  +2.1142416498E-002 +8.0111041329E+001  +1.3580871173E-002 +9.1228046220E+001  +1.1257901350E+000 -2.0917570448E+001 
7017130.163 +1.5836742965E+000 +2.4586607283E+001  +3.4943639861E-002 +7.3817563208E+001  +1.3415494644E-002 +1.2149664282E+002  +1.4503911890E+000 -1.1438679293E+001 
7142275.344 +1.7453259480E+000 +2.0346603722E+001  +7.5664618572E-003 +2.6372998560E+001  +1.8777578281E-002 +1.7604568840E+002  +1.1968309781E+000 -1.7087205479E+001 
7267420.526 +1.3499890340E+000 +6.4266077327E+000  +4.9645686475E-003 -4.0926708150E+001  +1.5199799947E-002 +1.0404208699E+002  +1.4636741702E+000 -1.4401519305E+001 
7392565.707 +1.2863009710E+000 -5.6108154503E+000  +4.9355212792E-003 -3.5942080688E+001  +1.6339106771E-003 -1.4940402355E+002  +1.2294571145E+000 -4.0151651416E+000 
7517710.889 +1.1622895993E+000 -2.8359405078E+000  +6.4688848479E-003 +7.4396391960E+001  +6.8829886890E-003 +7.5459376737E+001  +1.1280888234E+000 -4.4005400263E+000 
7642856.070 +1.1352264452E+000 +7.5834456207E+000  +2.8389716123E-003 +1.8522770974E+001  +7.0031449570E-003 +1.0020569588E+002  +1.1552559704E+000 -6.9239720667E+000 
7768001.252 +9.5826228598E-001 +1.0283412154E+000  +6.9325414331E-003 +9.7977682041E+001  +3.4053072760E-003 +1.1960990867E+002  +9.8018498140E-001 -1.1905701727E+000 
7893146.433 +8.4341128969E-001 +6.6383732741E+000  +1.7669144281E-003 -8.6359187679E+001  +5.7088958912E-003 +6.5607245447E+001  +9.0713376431E-001 -4.2076856651E+000 
8018291.615 +8.3198956962E-001 +4.0366445462E+000  +1.1209468135E-002 +6.0401802484E+001  +2.1691474488E-003 +9.1206182791E+001  +8.5261617357E-001 -9.7958248977E+000 
8143436.796 +8.2882229453E-001 +4.7529267709E+000  +4.7106293543E-003 +1.2949019445E+002  +5.0629222461E-003 +7.9167730913E+001  +8.7466990878E-001 -2.0884056182E+000 
8268581.977 +6.7161753284E-001 +9.9322209594E+000  +8.5179966876E-004 -1.5724773296E+002  +8.5485283451E-003 +7.5641548800E+001  +7.5828437553E-001 +1.3368495311E+000 
8393727.159 +7.1569975687E-001 +1.7443702406E+000  +3.5688585022E-003 +6.3961685200E+001  +4.5778745980E-003 -2.9339981112E+001  +7.1797283427E-001 -1.6641198164E+000 
8518872.340 +6.8145501633E-001 +8.8592917043E+000  +3.9482264496E-003 +1.5244838190E+002  +6.5503052442E-003 +9.2096677812E+001  +7.6138041446E-001 -4.4543873995E+000 
8644017.522 +7.0063448562E-001 +8.2431796136E+000  +6.2686667355E-003 +1.0888580399E+002  +4.6815979934E-003 +6.5259485728E+001  +6.6439309722E-001 +5.1310481296E+000 
8769162.703 +6.3305779191E-001 +5.4660416178E-001  +4.2324023595E-003 +1.0847315683E+002  +8.9619158130E-003 +1.1060567800E+002  +6.6397016464E-001 -1.7377076066E+000 
8894307.885 +6.4131100885E-001 +1.1076335621E+001  +3.5317916632E-003 +1.6439987000E+002  +1.6820613217E-003 +6.3505060087E+001  +6.6666600498E-001 -3.0035398386E+000 
9019453.066 +6.0994024829E-001 +5.1258295441E+000  +1.6912028222E-003 +1.2793859789E+002  +4.3415503141E-003 +8.5078534406E+001  +6.9872882124E-001 -2.0306033169E+000 
9144598.248 +5.6460975492E-001 +2.8518777966E+000  +4.4084507622E-004 +2.1162116772E+001  +6.6916578823E-003 +7.0416047551E+001  +6.4452034203E-001 +1.4783544596E-001 
9269743.429 +5.7354753924E-001 +9.4884748817E+000  +1.7538127809E-003 +5.0183980902E+001  +6.3619750728E-003 +1.1969814622E+002  +6.4070350758E-001 -4.0004260589E+000 
9394888.611 +5.5653487470E-001 +2.8632972580E+000  +4.9250339405E-003 +5.4497614934E+001  +4.2294580974E-003 +1.3129822041E+002  +5.3981178648E-001 -8.3726010353E-001 
9520033.792 +5.7601474963E-001 +3.6636757677E+000  +6.2392432124E-003 +8.5175189701E+001  +3.3033369120E-003 +1.2236151628E+002  +5.6256478914E-001 -6.2580729311E-001 
9645178.974 +5.3124017047E-001 -1.2755825717E-001  +6.1361222048E-003 +9.7605104624E+001  +1.5629221402E-003 +9.7657226331E+001  +6.0429285955E-001 -3.2451140057E+000 
9770324.155 +5.3498869142E-001 -2.7044373713E+000  +6.6019396329E-003 +5.6839350780E+001  +6.4379551513E-003 +1.1124855669E+002  +5.7838742135E-001 -7.7008856283E+000 
9895469.337 +4.9071949084E-001 -2.0538165196E-001  +3.2016693296E-003 +9.1063340427E+001  +4.9616451444E-003 +9.9512834270E+001  +5.7603522331E-001 -7.5791719071E+000 
10020614.518 +5.5772778682E-001 +2.3356419764E+000  +3.7476685631E-003 +8.7454311378E+001  +6.2049971242E-003 +9.9233635002E+001  +6.4731310158E-001 -3.2039906153E+000 
10145759.700 +5.9052223784E-001 +8.2705049237E-001  +4.4860536741E-003 +8.6231643273E+001  +2.9820619700E-003 +1.0372673520E+002  +6.0655083910E-001 -7.5650421322E+000 
10270904.881 +5.5435612020E-001 +3.0824751766E+000  +3.1764408928E-003 +7.0057254500E+001  +3.2894997558E-003 +9.2606052320E+001  +5.8282569586E-001 -4.9422941105E+000 
10396050.063 +6.0350507498E-001 -5.4018823897E-001  +5.2063774991E-003 +8.4312769056E+001  +5.2856018900E-003 +1.3895115930E+002  +5.3332715551E-001 -4.7505319284E+000 
10521195.244 +5.4781525549E-001 +3.3692147343E+000  +4.8419321410E-003 +7.6500369268E+001  +6.2267846868E-003 +1.0469184824E+002  +5.9742530054E-001 -1.1846358789E+000 
10646340.426 +5.5825822089E-001 +6.3920907557E+000  +2.2459045636E-003 -2.4006231298E+000  +3.4012998377E-003 +7.7146617520E+001  +5.8682419030E-001 +5.4242591025E-001 
10771485.607 +5.8100014580E-001 +4.9479692109E+000  +5.7407983609E-003 +1.0014631566E+002  +1.7588666715E-003 +8.1561636100E+001  +5.8461903215E-001 +2.9265362772E+000 
10896630.788 +5.8756823532E-001 +6.2705749205E+000  +4.7724741886E-003 +1.0357372511E+002  +5.0045966477E-003 +1.1371013043E+002  +5.8543798477E-001 -2.6009567582E+000 
11021775.970 +5.9571933044E-001 +3.3377424834E+000  +2.9937764032E-003 +5.6912468905E+001  +7.4750282926E-003 +8.4947510610E+001  +6.1544331892E-001 +1.1477124776E+000 
11146921.151 +5.9269046124E-001 +5.6917548237E+000  +4.5158960791E-003 +6.8977616853E+001  +4.1486500315E-003 +1.0158709645E+002  +6.2855001735E-001 -3.0905247268E-001 
11272066.333 +6.1684506616E-001 +6.7516846860E+000  +3.7764714363E-003 +9.4031055724E+001  +2.4648854930E-003 +1.1863595321E+002  +6.6351335307E-001 -1.0789854772E+000 
11397211.514 +6.1179325423E-001 +6.6418969714E+000  +3.0246897363E-003 +6.8268272125E+001  +5.4042312336E-003 +8.2737895955E+001  +6.5223127184E-001 +3.8057805436E+000 
11522356.696 +6.2577629535E-001 +5.9727705765E+000  +5.8660299699E-003 +9.0764524887E+001  +5.1113393827E-003 +1.1952950572E+002  +6.4933555642E-001 -2.2357513621E+000 
11647501.877 +6.6513871945E-001 +4.8852800478E+000  +6.0877834617E-003 +7.8076166784E+001  +7.7195762777E-003 +1.1795990551E+002  +6.4607703290E-001 -1.4753210204E-001 
11772647.059 +6.4713849325E-001 +7.3968269369E+000  +5.9743945585E-003 +1.0764989442E+002  +6.4105810623E-003 +1.2065042236E+002  +6.7271109970E-001 +1.6903743841E+000 
11897792.240 +6.6468601721E-001 +5.7246057368E+000  +6.0179455820E-003 +1.0734368350E+002  +4.6076477437E-003 +1.1310342491E+002  +6.9024133406E-001 +1.7507746827E+000 
12022937.422 +6.6127099927E-001 +3.6577974919E+000  +3.1623646616E-003 +8.9777080735E+001  +3.7941617604E-003 +9.2607606906E+001  +6.7548566000E-001 -1.7159281143E-001 
12148082.603 +6.9518888992E-001 +4.7298154075E+000  +6.6095800704E-003 +1.0413917641E+002  +5.4171186725E-003 +1.0248404060E+002  +7.2881307100E-001 +1.9956559300E+000 
12273227.785 +6.8265149391E-001 +4.4656170686E+000  +7.0273400011E-003 +7.4798403738E+001  +4.4429686545E-003 +1.0525085061E+002  +7.2392427851E-001 +1.7777778784E+000 
12398372.966 +6.9300015818E-001 +2.2961760876E+000  +6.5022307443E-003 +9.6276338370E+001  +6.3619067783E-003 +9.8684160368E+001  +7.0990185746E-001 -5.7979512912E-001 
12523518.148 +7.1305397270E-001 +3.5660617177E+000  +5.7337245524E-003 +1.0360148971E+002  +6.5353214253E-003 +9.2048823070E+001  +7.4434828788E-001 -1.6598567915E+000 
12648663.329 +7.4894318652E-001 +3.1415949114E+000  +6.8256499084E-003 +1.0030231506E+002  +6.5004558905E-003 +8.8944261618E+001  +7.5800884869E-001 -9.6780179431E-001 
12773808.511 +7.5647002809E-001 +1.8168218930E+000  +6.8056304010E-003 +8.4040053180E+001  +6.5188999856E-003 +9.4556977421E+001  +7.5562869744E-001 -2.0898232406E+000 
12898953.692 +7.4775589792E-001 +3.1634351385E-001  +5.7915048692E-003 +9.5206126598E+001  +4.9111543541E-003 +1.0357888791E+002  +7.6515643955E-001 -1.8742721350E+000 
13024098.874 +7.8111166032E-001 +1.4304664484E+000  +6.9945248607E-003 +9.9286284936E+001  +6.8084432805E-003 +1.0325000346E+002  +8.0030001761E-001 -9.7756969188E-001 
13149244.055 +7.8901438415E-001 +1.3105550224E+000  +6.3021873910E-003 +9.5798017251E+001  +7.8681789067E-003 +1.0596092779E+002  +8.1929101043E-001 -1.7568465631E+000 
13274389.237 +8.2304452137E-001 -2.1883069381E-001  +6.2050193225E-003 +8.7708404325E+001  +7.3164885288E-003 +9.1344461246E+001  +8.4928948894E-001 -1.3968390641E+000 
13399534.418 +8.1576851342E-001 +1.4288036015E-001  +6.8203101649E-003 +8.4506699634E+001  +5.6316801796E-003 +8.9336012459E+001  +8.5789872628E-001 -3.1647141312E+000 
13524679.599 +8.4958507553E-001 -1.6074730189E+000  +7.3097717233E-003 +8.2305668693E+001  +7.7274127231E-003 +9.4927068980E+001  +8.6005295779E-001 -2.2728213243E+000 
13649824.781 +8.7886909372E-001 -2.6039969595E+000  +7.4068233500E-003 +7.3814465403E+001  +7.7509415492E-003 +9.7162503813E+001  +8.8085040537E-001 -1.7836771857E+000 
13774969.962 +8.8838847166E-001 -2.5887854677E+000  +7.0300928380E-003 +8.8425440722E+001  +6.6543414184E-003 +8.7244679781E+001  +8.9051190728E-001 -3.1199352451E+000 
13900115.144 +9.0613970589E-001 -2.9111227121E+000  +7.0479772654E-003 +9.2258476181E+001  +7.7070717775E-003 +9.5619874356E+001  +9.1475067334E-001 -2.9443530603E+000 
14025260.325 +8.9996857652E-001 -2.8664910264E+000  +8.2123515466E-003 +8.7739924741E+001  +7.1273494194E-003 +9.1792453583E+001  +9.3503524482E-001 -4.3437477521E+000 
14150405.507 +9.3637340422E-001 -4.2937225931E+000  +7.9111781231E-003 +8.8994194625E+001  +7.8115053158E-003 +9.3667372761E+001  +9.4204951414E-001 -4.2418937760E+000 
14275550.688 +9.4362938442E-001 -5.0345732379E+000  +6.0429816461E-003 +8.2201265403E+001  +4.8450029639E-003 +7.9306605506E+001  +9.8798683794E-001 -4.3895339195E+000 
14400695.870 +9.8717059307E-001 -4.6951318282E+000  +8.3972324177E-003 +9.1568341608E+001  +7.4637062049E-003 +8.6874293406E+001  +9.8769354691E-001 -4.2353942467E+000 
